# Hz S RI R 50
! CMT, C1220, 16058040, 17.2.0/1
! Date: 14/08/2018 12:03:10
! Data: Format (Calibration Info)
! Freq                      S11: Re/Im (F2)                       S21: Re/Im (F2)                       S12: Re/Im (F2)                       S22: Re/Im (F2)            
1.00000000000E+09 -6.52145659704E-01 +7.09814531102E-01 -8.97104160837E-05 -1.06110276707E-06 -1.85992214127E-05 -1.38643997327E-05 -7.53372494726E-01 +6.25594015807E-01
1.00500000000E+09 -6.45189669332E-01 +7.14560860740E-01 -8.19078229575E-06 -1.94632072719E-05 -3.23561439292E-05 +1.08565941383E-05 -7.49740322462E-01 +6.29817659348E-01
1.01000000000E+09 -6.39364413568E-01 +7.18906903139E-01 +2.43465657093E-05 +5.08181227201E-06 -4.09342725858E-05 +1.43601859798E-05 -7.46236215910E-01 +6.33519233422E-01
1.01500000000E+09 -6.35171012418E-01 +7.22611641323E-01 -2.82007885549E-05 +1.22668003693E-05 -1.82757901757E-05 +3.08369898281E-05 -7.42927389796E-01 +6.37340374482E-01
1.02000000000E+09 -6.32452894800E-01 +7.25994261378E-01 -5.94751912044E-05 +1.60216901729E-06 -6.51954376842E-05 +4.87941042224E-05 -7.39473674887E-01 +6.41038591232E-01
1.02500000000E+09 -6.30478835492E-01 +7.28770344981E-01 -6.25907987044E-05 +3.76421109165E-05 +2.89080945365E-05 +7.46963373235E-06 -7.36518398809E-01 +6.44571425908E-01
1.03000000000E+09 -6.29113101011E-01 +7.31484736788E-01 -2.39419013711E-05 +1.00698536214E-05 -6.21697839336E-05 -2.52181638637E-06 -7.32921367581E-01 +6.48472535696E-01
1.03500000000E+09 -6.26902470063E-01 +7.34206857452E-01 +1.60857795890E-05 +6.09462467545E-05 -3.77426211430E-05 +5.76734174243E-05 -7.29257028895E-01 +6.52423762436E-01
1.04000000000E+09 -6.23605346655E-01 +7.37340497367E-01 -1.31326942145E-05 +3.63592156761E-05 -1.35962325635E-05 +8.25008803434E-06 -7.25443342852E-01 +6.56172052670E-01
1.04500000000E+09 -6.18509323383E-01 +7.40784192874E-01 -2.31923738103E-05 +4.01377093902E-05 -4.84578326391E-05 +2.16534103786E-05 -7.21860007059E-01 +6.59729974715E-01
1.05000000000E+09 -6.11838490459E-01 +7.44903075053E-01 -4.55355146088E-07 +2.80032628343E-05 -4.83295209480E-05 +1.28095661197E-05 -7.18501861217E-01 +6.63017767535E-01
1.05500000000E+09 -6.03936421494E-01 +7.49121104047E-01 -1.22366189379E-05 +3.41057725864E-05 -1.37368096415E-04 +4.91561939393E-05 -7.15258618324E-01 +6.66615665406E-01
1.06000000000E+09 -5.95364917762E-01 +7.53548688737E-01 -1.95201519837E-05 +2.74907007961E-05 -6.75074715448E-06 +2.61254212682E-05 -7.11798749162E-01 +6.70310674354E-01
1.06500000000E+09 -5.87434065058E-01 +7.58266905058E-01 -8.77756925791E-06 +3.28711754906E-05 -3.74336543247E-05 +2.79462917845E-05 -7.08149585607E-01 +6.74080827875E-01
1.07000000000E+09 -5.80449244246E-01 +7.62206719943E-01 -3.41891809147E-05 +3.16608493701E-05 -1.45463852945E-05 +5.92325202950E-06 -7.04290045252E-01 +6.77704062225E-01
1.07500000000E+09 -5.75033673711E-01 +7.65824598703E-01 +4.77371898656E-06 +3.13310113881E-05 -5.28807013660E-05 +4.90106861513E-05 -6.99914300670E-01 +6.81604668913E-01
1.08000000000E+09 -5.71220625699E-01 +7.69039659159E-01 -1.61616911302E-05 +6.26515678475E-05 +8.80898450998E-06 -2.04319796087E-07 -6.95705959613E-01 +6.85262800565E-01
1.08500000000E+09 -5.68489768063E-01 +7.71857407610E-01 -1.63032145876E-05 +2.52998837524E-05 -4.04877963479E-05 +2.50465509175E-05 -6.91790501333E-01 +6.89137638081E-01
1.09000000000E+09 -5.66419065169E-01 +7.74624038591E-01 +2.12811356208E-05 +6.78617747330E-05 +4.13216521926E-05 +1.40131373000E-05 -6.88102051220E-01 +6.93065219437E-01
1.09500000000E+09 -5.64363094536E-01 +7.77011338258E-01 +4.34903881873E-05 +4.49399009279E-05 -5.04815517579E-06 +8.55102736809E-06 -6.84147939813E-01 +6.96904787487E-01
1.10000000000E+09 -5.61009895227E-01 +7.79549365852E-01 +8.33835753816E-06 +4.29217236064E-05 -2.41498200920E-05 +3.40734001795E-05 -6.80180761245E-01 +7.00761099214E-01
1.10500000000E+09 -5.56624629583E-01 +7.82446480953E-01 +7.72175642438E-06 +3.25260826706E-05 +4.05536606894E-05 +6.31908143089E-05 -6.75966916348E-01 +7.04274772292E-01
1.11000000000E+09 -5.50528858266E-01 +7.85624224633E-01 +3.91893546577E-05 +4.24001771527E-05 +2.04511451055E-05 +2.49879193617E-05 -6.71628326462E-01 +7.07686702632E-01
1.11500000000E+09 -5.43282227443E-01 +7.89269979579E-01 +6.53492729398E-05 +4.45880081410E-05 +6.32460349706E-05 +2.70801321879E-05 -6.67712175009E-01 +7.11076211242E-01
1.12000000000E+09 -5.35664645931E-01 +7.92761931021E-01 +3.03777632426E-06 +4.08521591060E-05 +5.71565074430E-05 +3.16386518918E-05 -6.63522241896E-01 +7.14827879434E-01
1.12500000000E+09 -5.28046894323E-01 +7.96516538475E-01 +3.92451526658E-05 +4.11699070364E-05 +2.17767358059E-05 -8.62683320487E-06 -6.59265560690E-01 +7.18867037052E-01
1.13000000000E+09 -5.21256078304E-01 +8.00070552804E-01 +1.84313136615E-05 +2.44444393946E-05 +3.97489276651E-05 +3.53334480934E-05 -6.54957651700E-01 +7.22543388113E-01
1.13500000000E+09 -5.15546414004E-01 +8.02938001340E-01 +3.58313110191E-05 +3.97159454159E-05 +4.99721710687E-06 +9.11750001194E-05 -6.50405335823E-01 +7.26418131617E-01
1.14000000000E+09 -5.11028479840E-01 +8.05815488462E-01 +4.13955147301E-05 +1.54190205677E-05 +3.03941713018E-05 +1.84131257294E-05 -6.45737650756E-01 +7.29689443185E-01
1.14500000000E+09 -5.07320176797E-01 +8.08096069639E-01 +2.92027818879E-05 +5.42860095336E-05 +6.62761439454E-05 +2.94089022893E-05 -6.41018518526E-01 +7.33164486890E-01
1.15000000000E+09 -5.03964777575E-01 +8.10216891605E-01 +6.72574509479E-05 +4.96048135830E-05 +8.66751744851E-05 +6.65176098829E-05 -6.36385414857E-01 +7.37039310988E-01
1.15500000000E+09 -5.00531270993E-01 +8.12349191968E-01 +5.14361443248E-05 -5.65664245864E-06 +9.09608462181E-05 +3.18743016239E-05 -6.31549127772E-01 +7.40711597657E-01
1.16000000000E+09 -4.95898962174E-01 +8.14713244776E-01 +8.27197551981E-05 +4.19409910210E-05 +9.67280452422E-05 +4.68091117168E-05 -6.26703837103E-01 +7.44730115067E-01
1.16500000000E+09 -4.90191488753E-01 +8.17571109649E-01 +2.21316825534E-05 +5.68632076178E-05 +1.01912300682E-04 +8.55553323303E-05 -6.21605721679E-01 +7.48331024755E-01
1.17000000000E+09 -4.83218486126E-01 +8.20596214733E-01 +6.81575839563E-05 +8.04314711998E-05 +1.53672246442E-04 +9.77700410874E-06 -6.16197564322E-01 +7.51519802350E-01
1.17500000000E+09 -4.75269881172E-01 +8.23661251790E-01 +8.95481788401E-05 +5.32035565160E-05 +9.54240365169E-05 +6.00238354944E-05 -6.10415420104E-01 +7.54991811782E-01
1.18000000000E+09 -4.67139250208E-01 +8.26959709805E-01 +1.12461167392E-04 +8.19614813525E-06 +1.02447319429E-04 +9.26995224922E-06 -6.04838519042E-01 +7.58030871109E-01
1.18500000000E+09 -4.59046854715E-01 +8.29890437315E-01 +9.49145064949E-05 -2.27366586236E-05 +9.46279836808E-05 -3.59643326404E-05 -5.98917085269E-01 +7.61111207577E-01
1.19000000000E+09 -4.51968420411E-01 +8.32462478690E-01 +1.42085562081E-04 +3.92467842426E-05 +1.27719226040E-04 +7.94147025270E-05 -5.92656935198E-01 +7.63816911753E-01
1.19500000000E+09 -4.46134464751E-01 +8.34592112736E-01 +2.03523927675E-04 +2.01800951733E-05 +2.23427738099E-04 -2.52020617060E-06 -5.86680368672E-01 +7.64869633142E-01
1.20000000000E+09 -4.41460241103E-01 +8.35928600204E-01 +2.14519611586E-04 -7.71316759416E-05 +1.83113320012E-04 -6.94778025427E-05 -5.82192086625E-01 +7.65119160859E-01
1.20500000000E+09 -4.37476409514E-01 +8.37711325491E-01 +1.81440664859E-04 -1.02885610591E-04 +1.59908121412E-04 -1.21914585980E-04 -5.79978753458E-01 +7.65953103233E-01
1.21000000000E+09 -4.33376542624E-01 +8.39499398634E-01 +1.12911262454E-04 -1.39981703402E-04 +1.36015563403E-04 -1.19405347013E-04 -5.78108673566E-01 +7.69013056705E-01
1.21500000000E+09 -4.28178004549E-01 +8.41423607508E-01 +7.05171722103E-05 -1.28875450353E-04 +1.05700073730E-04 -1.64539900454E-04 -5.75357848978E-01 +7.73507193725E-01
1.22000000000E+09 -4.21650702523E-01 +8.43842237062E-01 +1.05226234347E-04 -1.03529404122E-04 +1.12415681301E-04 -9.08989554748E-05 -5.71102630278E-01 +7.78912683980E-01
1.22500000000E+09 -4.13340361428E-01 +8.46680092897E-01 +7.75598324660E-05 -1.21881199923E-04 +1.28300986385E-04 -1.34646592028E-04 -5.65940150727E-01 +7.84124351368E-01
1.23000000000E+09 -4.04037216927E-01 +8.49675746426E-01 +1.12027937383E-04 -1.01181309346E-04 +8.05454327615E-05 -8.90117228995E-05 -5.60298224710E-01 +7.88726107794E-01
1.23500000000E+09 -3.93906958228E-01 +8.52986676460E-01 +9.71574866092E-05 -1.29162662031E-04 +6.50674634687E-05 -5.38374483376E-05 -5.54417788555E-01 +7.93169067523E-01
1.24000000000E+09 -3.83593434903E-01 +8.56388024282E-01 +1.22634545809E-04 -1.46776103596E-04 +1.10313948812E-04 -1.56635327698E-04 -5.48386889087E-01 +7.96890421963E-01
1.24500000000E+09 -3.73991929361E-01 +8.59820727024E-01 +1.10098294742E-04 -2.43431256499E-04 +1.30963891048E-04 -1.56746818351E-04 -5.42080383832E-01 +8.00644496128E-01
1.25000000000E+09 -3.65558809903E-01 +8.62878477094E-01 +9.48030329761E-05 -2.29785152956E-04 +1.17160757309E-04 -2.53603508617E-04 -5.35369785767E-01 +8.04914488279E-01
1.25500000000E+09 -3.58478602538E-01 +8.65427941509E-01 +6.51066971293E-05 -2.62086425705E-04 +2.33484758413E-05 -3.06400975984E-04 -5.28647054212E-01 +8.08907852563E-01
1.26000000000E+09 -3.52443818130E-01 +8.67836054784E-01 +2.35886905002E-05 -2.59587927787E-04 -1.57241290032E-05 -3.16482225194E-04 -5.21781451033E-01 +8.13353664946E-01
1.26500000000E+09 -3.47086660033E-01 +8.69866313119E-01 -2.40536528236E-05 -2.78511557079E-04 +1.40521199414E-05 -2.99656860759E-04 -5.14889108119E-01 +8.17118769837E-01
1.27000000000E+09 -3.41564751939E-01 +8.71787701856E-01 -7.00200884435E-05 -2.83716646301E-04 +2.67165590704E-05 -3.13485460760E-04 -5.07971065822E-01 +8.21040498740E-01
1.27500000000E+09 -3.35120655361E-01 +8.73922279301E-01 -1.09783394316E-04 -2.97461578927E-04 -1.11253071179E-04 -3.20141789340E-04 -5.00955712012E-01 +8.24465339276E-01
1.28000000000E+09 -3.27246804423E-01 +8.76195450455E-01 -1.70194088371E-04 -2.80272927170E-04 -1.39965645116E-04 -2.91452611416E-04 -4.93786720121E-01 +8.28033475670E-01
1.28500000000E+09 -3.17383878458E-01 +8.78563673751E-01 -1.20963455810E-04 -2.20243370021E-04 -1.51996401871E-04 -3.26784588188E-04 -4.86523795583E-01 +8.31767640970E-01
1.29000000000E+09 -3.06490514383E-01 +8.81042087915E-01 -2.00708828079E-04 -2.46011711040E-04 -2.20963364257E-04 -3.25175340994E-04 -4.79085488500E-01 +8.35371895178E-01
1.29500000000E+09 -2.94910161146E-01 +8.83740199643E-01 -1.93777789454E-04 -2.88291979449E-04 -2.39042132997E-04 -2.96720563857E-04 -4.71150379381E-01 +8.38973954116E-01
1.30000000000E+09 -2.83210121410E-01 +8.86680798271E-01 -2.51992115427E-04 -2.68658068633E-04 -2.95504705780E-04 -2.05035160337E-04 -4.63312970473E-01 +8.42556578198E-01
1.30500000000E+09 -2.72346157444E-01 +8.89117804051E-01 -3.32215912045E-04 -2.64241647119E-04 -3.11742737585E-04 -2.32656358490E-04 -4.55009119468E-01 +8.45998680970E-01
1.31000000000E+09 -2.62810089340E-01 +8.91316784348E-01 -3.90740707645E-04 -1.80089503673E-04 -3.50060809456E-04 -1.96719733758E-04 -4.46667540012E-01 +8.49381148907E-01
1.31500000000E+09 -2.54894041395E-01 +8.93214637724E-01 -3.58510291552E-04 -8.20512052646E-05 -3.75333845151E-04 -1.07427372925E-04 -4.37832985164E-01 +8.52957659966E-01
1.32000000000E+09 -2.48075205261E-01 +8.94634266733E-01 -3.24612793244E-04 -9.55115454909E-05 -3.90233615462E-04 -1.59232011098E-04 -4.28766279914E-01 +8.56368117774E-01
1.32500000000E+09 -2.41574422681E-01 +8.95742906158E-01 -3.43248783510E-04 -8.87127481255E-05 -4.22516115379E-04 -1.15014664844E-04 -4.19084516291E-01 +8.59640767612E-01
1.33000000000E+09 -2.34531928039E-01 +8.96691098452E-01 -3.83010709866E-04 -8.53367611089E-05 -4.24793793540E-04 -6.59768951209E-05 -4.09417512481E-01 +8.62883902647E-01
1.33500000000E+09 -2.25827604091E-01 +8.97209784849E-01 -4.48131640001E-04 -7.66121792782E-05 -4.49741392598E-04 -1.22045737597E-05 -3.99425322990E-01 +8.66149609174E-01
1.34000000000E+09 -2.14928626372E-01 +8.97779708579E-01 -4.72307823632E-04 +8.10699302392E-05 -4.11515776599E-04 +4.74251941868E-05 -3.89170170458E-01 +8.69606421611E-01
1.34500000000E+09 -2.01820666683E-01 +8.97942891557E-01 -4.95441476940E-04 +8.61771320549E-05 -4.19225511095E-04 +9.05929463216E-05 -3.78339213571E-01 +8.72938453712E-01
1.35000000000E+09 -1.86894972356E-01 +8.97984888751E-01 -4.27201328826E-04 +1.21505554669E-04 -4.55948525238E-04 +1.15134353872E-04 -3.67060944338E-01 +8.75897459757E-01
1.35500000000E+09 -1.70748773923E-01 +8.98050008232E-01 -4.20062678914E-04 +1.02828263635E-04 -4.10086226684E-04 +1.41590314430E-04 -3.55369901264E-01 +8.78695865765E-01
1.36000000000E+09 -1.54640403224E-01 +8.98121987154E-01 -4.17152249592E-04 +1.16641612077E-04 -4.01529734514E-04 +1.13507839795E-04 -3.43535214365E-01 +8.81338382990E-01
1.36500000000E+09 -1.38984789164E-01 +8.98222495752E-01 -4.98283005453E-04 +1.40696623686E-04 -4.84479361600E-04 +1.55736187403E-04 -3.31246963007E-01 +8.83988866106E-01
1.37000000000E+09 -1.24463286214E-01 +8.98402980344E-01 -5.76885255993E-04 +2.15514260577E-04 -5.42347582461E-04 +1.24373857499E-04 -3.18432384936E-01 +8.86214644170E-01
1.37500000000E+09 -1.11544166187E-01 +8.98330392117E-01 -5.98684238455E-04 +3.02889601819E-04 -6.57083483375E-04 +2.02955079614E-04 -3.04715503078E-01 +8.88485894035E-01
1.38000000000E+09 -9.95460085381E-02 +8.98002122323E-01 -6.04130744717E-04 +5.09227133530E-04 -7.04621539455E-04 +4.32332689288E-04 -2.90108074086E-01 +8.90463414724E-01
1.38500000000E+09 -8.75113989210E-02 +8.97404747814E-01 -4.89921126983E-04 +5.73772887045E-04 -5.90786272211E-04 +5.62404553284E-04 -2.74735180147E-01 +8.92399190624E-01
1.39000000000E+09 -7.49882987855E-02 +8.95982044503E-01 -4.23319132889E-04 +5.19446228578E-04 -5.18005808161E-04 +6.35172723947E-04 -2.58742366408E-01 +8.93877648228E-01
1.39500000000E+09 -6.07498147932E-02 +8.93979235501E-01 -4.76247689505E-04 +5.38818030215E-04 -4.83912631398E-04 +6.67896782646E-04 -2.41995123633E-01 +8.94563647853E-01
1.40000000000E+09 -4.40545313320E-02 +8.90954923800E-01 -5.09320022035E-04 +6.36606325731E-04 -4.68905015763E-04 +6.93632024407E-04 -2.24395507819E-01 +8.95135304395E-01
1.40500000000E+09 -2.54800198928E-02 +8.86720394782E-01 -5.35145946807E-04 +7.94655853298E-04 -4.63727213670E-04 +8.08708744488E-04 -2.05752363179E-01 +8.94933532468E-01
1.41000000000E+09 -5.12885499166E-03 +8.81340487939E-01 -4.53518826299E-04 +9.83495279365E-04 -4.25670732376E-04 +9.78366556788E-04 -1.85616070949E-01 +8.94318850080E-01
1.41500000000E+09 +1.64478323303E-02 +8.75173649680E-01 -3.23197895350E-04 +1.01337009041E-03 -3.67188591487E-04 +1.01752997279E-03 -1.64006384233E-01 +8.92886220889E-01
1.42000000000E+09 +3.84832747179E-02 +8.68633662973E-01 -2.93829150321E-04 +1.02651326136E-03 -3.40207772614E-04 +1.16243914008E-03 -1.41156996970E-01 +8.90393682509E-01
1.42500000000E+09 +6.03064367257E-02 +8.61392097023E-01 -3.12170327442E-04 +1.26041500373E-03 -3.17308433043E-04 +1.41183634535E-03 -1.17252063983E-01 +8.86741697526E-01
1.43000000000E+09 +8.19420624962E-02 +8.53344448172E-01 -1.83376410428E-04 +1.46229416939E-03 -8.62435849630E-05 +1.61392898832E-03 -9.25045044133E-02 +8.82018884057E-01
1.43500000000E+09 +1.03319689175E-01 +8.44015162339E-01 +3.78072595874E-05 +1.64775622466E-03 +2.16408741283E-04 +1.70514181539E-03 -6.60349515552E-02 +8.75446527657E-01
1.44000000000E+09 +1.25393890502E-01 +8.33658334733E-01 +2.33332378189E-04 +1.66844585329E-03 +3.49537348280E-04 +1.68158195719E-03 -3.78589490030E-02 +8.66993585457E-01
1.44500000000E+09 +1.48822821256E-01 +8.20588954255E-01 +3.38208781681E-04 +1.70632981623E-03 +4.35495967973E-04 +1.72771129300E-03 -7.40813865763E-03 +8.55573718979E-01
1.45000000000E+09 +1.74012903301E-01 +8.04104261518E-01 +4.53400605439E-04 +2.07950729128E-03 +5.40089708061E-04 +2.10321659501E-03 +2.45085461011E-02 +8.40764694855E-01
1.45500000000E+09 +2.01398377150E-01 +7.83804497121E-01 +7.65448133265E-04 +2.50878116876E-03 +9.68220104220E-04 +2.44829542881E-03 +5.76237386817E-02 +8.23301075884E-01
1.46000000000E+09 +2.31174056147E-01 +7.58808269262E-01 +1.41589388664E-03 +2.81613613030E-03 +1.60434493001E-03 +2.57374743942E-03 +9.28347191595E-02 +8.01844628637E-01
1.46500000000E+09 +2.62781843145E-01 +7.28541427793E-01 +2.12565049605E-03 +2.97026474141E-03 +2.10595782528E-03 +2.54156196899E-03 +1.29548594802E-01 +7.74791982329E-01
1.47000000000E+09 +2.95059475420E-01 +6.92719337118E-01 +3.07031215160E-03 +2.97083078226E-03 +2.78371744693E-03 +2.67324420691E-03 +1.66720455187E-01 +7.40785994349E-01
1.47500000000E+09 +3.26912353785E-01 +6.50654527238E-01 +4.03573248776E-03 +2.64417282205E-03 +3.74983460736E-03 +2.64522042718E-03 +2.03603154948E-01 +6.99978541219E-01
1.48000000000E+09 +3.56032200896E-01 +6.01833163447E-01 +5.04822279235E-03 +2.25352343197E-03 +5.00341816063E-03 +2.40772406656E-03 +2.40593898686E-01 +6.51242583243E-01
1.48500000000E+09 +3.80691908452E-01 +5.47000913072E-01 +6.14916251357E-03 +1.45048138349E-03 +6.30921444905E-03 +1.38511955732E-03 +2.75871188777E-01 +5.91919585284E-01
1.49000000000E+09 +4.00017530260E-01 +4.85149750223E-01 +7.39634084882E-03 +2.67459553017E-04 +7.40740677862E-03 -1.01653730346E-04 +3.04371847371E-01 +5.21580430349E-01
1.49500000000E+09 +4.12278656104E-01 +4.15309385330E-01 +8.34870308440E-03 -1.54250519312E-03 +7.92264352365E-03 -1.77907282749E-03 +3.22768547100E-01 +4.41160507482E-01
1.50000000000E+09 +4.14166699102E-01 +3.35951631022E-01 +9.50605283471E-03 -3.64854225412E-03 +8.91919215961E-03 -3.46018178559E-03 +3.29374054557E-01 +3.52309592945E-01
1.50500000000E+09 +4.02487308304E-01 +2.48974671787E-01 +9.50188494095E-03 -7.85353913094E-03 +9.37985118388E-03 -7.23340971344E-03 +3.18456680229E-01 +2.53269022426E-01
1.51000000000E+09 +3.73486435879E-01 +1.55854364349E-01 +6.88780475360E-03 -1.18879804193E-02 +7.26790839865E-03 -1.14847365496E-02 +2.84883355890E-01 +1.51102018693E-01
1.51500000000E+09 +3.23230695069E-01 +6.35518387432E-02 +2.90454085859E-03 -1.42109727081E-02 +3.23524093580E-03 -1.42474695954E-02 +2.29220827021E-01 +5.43780752456E-02
1.52000000000E+09 +2.52994977858E-01 -2.00180141397E-02 -2.22485775200E-03 -1.46542566386E-02 -2.07435238249E-03 -1.48496461700E-02 +1.53101524174E-01 -3.24286842737E-02
1.52500000000E+09 +1.65436421972E-01 -9.02297970064E-02 -5.74160531240E-03 -1.25080084371E-02 -5.78217815808E-03 -1.26688909607E-02 +5.72838617876E-02 -1.02424229109E-01
1.53000000000E+09 +6.35328474015E-02 -1.40096435818E-01 -8.30097322639E-03 -1.17485242428E-02 -8.37280417889E-03 -1.18361645842E-02 -5.21405780711E-02 -1.47979160291E-01
1.53500000000E+09 -4.65156171574E-02 -1.66389789294E-01 -1.20695375651E-02 -9.24766028828E-03 -1.20879056641E-02 -9.19941231299E-03 -1.64997075748E-01 -1.67904641791E-01
1.54000000000E+09 -1.58543099239E-01 -1.67036003185E-01 -1.49272493690E-02 -5.21448224002E-03 -1.47498894361E-02 -5.21489737730E-03 -2.75799934126E-01 -1.63380503703E-01
1.54500000000E+09 -2.65500436084E-01 -1.42631382942E-01 -1.55930349817E-02 +4.99377862077E-04 -1.54532735573E-02 +1.77139258644E-04 -3.75112990127E-01 -1.38099280274E-01
1.55000000000E+09 -3.59443084858E-01 -9.79838119708E-02 -1.29554821785E-02 +5.06752087177E-03 -1.31437021190E-02 +4.58089216315E-03 -4.60128890977E-01 -9.92949702178E-02
1.55500000000E+09 -4.36623118765E-01 -4.08750622824E-02 -9.87431084576E-03 +7.33666400012E-03 -1.04634115018E-02 +7.02794447007E-03 -5.31059323021E-01 -5.12673823859E-02
1.56000000000E+09 -4.97455568408E-01 +1.99133714466E-02 -6.80654247994E-03 +8.85565289086E-03 -7.39836928788E-03 +9.05095448114E-03 -5.87361502505E-01 +3.01708728613E-03
1.56500000000E+09 -5.46527708372E-01 +8.13131794985E-02 -3.67518982441E-03 +8.56166756542E-03 -4.02671742687E-03 +9.05335104258E-03 -6.31205205596E-01 +5.85021520821E-02
1.57000000000E+09 -5.83961142385E-01 +1.42245026142E-01 -1.65014391055E-03 +7.63624028260E-03 -1.66529469011E-03 +8.19398284491E-03 -6.64090362420E-01 +1.13788815039E-01
