# Hz S RI R 50
! CMT, C1220, 16058040, 17.2.0/1
! Date: 14/08/2018 12:05:33
! Data: Format (Calibration Info)
! Freq                      S11: Re/Im (F2)                       S21: Re/Im (F2)                       S12: Re/Im (F2)                       S22: Re/Im (F2)            
1.00000000000E+09 -6.54228249977E-01 +7.09996181028E-01 +1.33085764497E-06 -1.12823724939E-05 -5.74723998704E-05 -4.42436948198E-06 -7.53488018176E-01 +6.25730436518E-01
1.00500000000E+09 -6.47464555962E-01 +7.14430999100E-01 -4.21403000387E-05 +5.83580760468E-06 +2.07700236811E-05 +5.40817906281E-05 -7.49936217989E-01 +6.29663460760E-01
1.01000000000E+09 -6.41749992377E-01 +7.18790443330E-01 +2.48069062698E-05 +5.28639771126E-05 -4.41670893466E-05 -1.65030342384E-05 -7.46280330710E-01 +6.33557759392E-01
1.01500000000E+09 -6.37590267579E-01 +7.22303872813E-01 -5.13139668179E-05 -5.59876388724E-06 -1.06337118557E-05 -1.43288073135E-05 -7.42927942891E-01 +6.37461874810E-01
1.02000000000E+09 -6.34659656787E-01 +7.25812954752E-01 -4.33782629565E-05 -1.99047102866E-05 -1.34453942852E-05 -3.30568892457E-05 -7.39398034096E-01 +6.40886771395E-01
1.02500000000E+09 -6.32629169279E-01 +7.28838560659E-01 +1.95127622894E-05 -1.15025972754E-06 -7.20249412379E-06 +4.09124901223E-06 -7.36571993587E-01 +6.44620458410E-01
1.03000000000E+09 -6.31378201457E-01 +7.31569884979E-01 +4.86425226793E-06 -2.40441639337E-05 -1.97644870102E-06 -1.00257666204E-05 -7.33038656107E-01 +6.48359751960E-01
1.03500000000E+09 -6.29004501353E-01 +7.34229665390E-01 +8.35946743308E-06 -1.59771609847E-05 -1.31090044105E-05 +4.45565006165E-05 -7.29258619668E-01 +6.52384131696E-01
1.04000000000E+09 -6.25684143963E-01 +7.37500455425E-01 -3.47249356992E-05 +2.22076939616E-05 -8.66910269932E-06 +3.25032884132E-05 -7.25668255886E-01 +6.55986284317E-01
1.04500000000E+09 -6.20884416235E-01 +7.41194357165E-01 +6.50883500067E-06 +4.90037195350E-05 -2.19954698077E-05 -2.69423770661E-07 -7.21957507043E-01 +6.59556227466E-01
1.05000000000E+09 -6.14265052299E-01 +7.45081514752E-01 -5.02618086632E-05 -2.81042710460E-05 +5.61182764913E-05 -2.04910784967E-05 -7.18486890281E-01 +6.63077872168E-01
1.05500000000E+09 -6.06454431738E-01 +7.49383472153E-01 -5.16126254270E-05 +2.80097656714E-05 -8.47463359600E-05 +8.70640348192E-05 -7.15094331010E-01 +6.66646920503E-01
1.06000000000E+09 -5.98024610813E-01 +7.53686379267E-01 -7.34236005334E-06 +2.63313787829E-05 -3.74538499109E-05 -1.38761673371E-05 -7.12024624735E-01 +6.70345628730E-01
1.06500000000E+09 -5.90061804144E-01 +7.58303488497E-01 -3.87132697407E-05 +9.01150250397E-05 +6.87067342521E-06 +5.05883156499E-05 -7.08217611810E-01 +6.74015842376E-01
1.07000000000E+09 -5.83278163944E-01 +7.62080729607E-01 -3.63453708522E-05 +7.60105039944E-05 -1.89584456949E-06 +5.52844531702E-05 -7.04179457288E-01 +6.77872417642E-01
1.07500000000E+09 -5.77991833953E-01 +7.65664522289E-01 +3.28344126074E-06 +8.05663947136E-05 +9.25094558866E-07 -1.50702875798E-05 -6.99784551970E-01 +6.81588489553E-01
1.08000000000E+09 -5.73945019903E-01 +7.69138044650E-01 +4.52602084557E-06 +1.35658110786E-05 -2.14790201859E-05 +7.22375828925E-05 -6.95789165405E-01 +6.85315347477E-01
1.08500000000E+09 -5.71387871384E-01 +7.71980125701E-01 +1.52066477303E-05 +3.18626528338E-06 +3.58636017115E-05 +4.58778534262E-05 -6.92002904896E-01 +6.88912934541E-01
1.09000000000E+09 -5.69132156708E-01 +7.74727144282E-01 +1.00358673448E-05 -2.31287487222E-05 -9.50519286923E-06 +2.09459950144E-05 -6.87997748196E-01 +6.93040949062E-01
1.09500000000E+09 -5.66906031535E-01 +7.77307520498E-01 +3.50367084622E-05 +4.68948481358E-05 -2.26934606540E-06 +7.46349320786E-05 -6.84239511071E-01 +6.96879652337E-01
1.10000000000E+09 -5.63663640109E-01 +7.79958475850E-01 +4.66833590397E-06 +2.32289274864E-06 +1.02327369678E-05 -1.54672651379E-06 -6.80216604910E-01 +7.00647183925E-01
1.10500000000E+09 -5.59134408919E-01 +7.82849645414E-01 -8.38891583903E-06 +1.20480948128E-05 +2.11755228525E-05 +4.10004494760E-05 -6.75949720391E-01 +7.04391549184E-01
1.11000000000E+09 -5.53203423875E-01 +7.86242870475E-01 +3.81246648797E-06 +3.46116950205E-05 +3.95366968977E-05 +2.96179000135E-05 -6.71813219907E-01 +7.07629304625E-01
1.11500000000E+09 -5.46195801639E-01 +7.89718215494E-01 +3.63742548230E-05 +2.14290392008E-05 -7.61803399078E-06 +2.55525801766E-05 -6.67509925363E-01 +7.11221474064E-01
1.12000000000E+09 -5.38635987135E-01 +7.93250565977E-01 +1.55460977895E-05 +3.20682608696E-05 +6.71054868029E-05 -5.10037179112E-06 -6.63492788451E-01 +7.14721613214E-01
1.12500000000E+09 -5.30994794912E-01 +7.96914986367E-01 +1.42367466958E-05 -1.92517673833E-05 -1.68712039379E-05 +4.12016409246E-05 -6.59271338626E-01 +7.18602576481E-01
1.13000000000E+09 -5.24309732132E-01 +8.00375714381E-01 -4.34504113117E-06 +4.63535991097E-05 +8.34346074759E-06 +2.74277898298E-05 -6.54944111093E-01 +7.22478054772E-01
1.13500000000E+09 -5.18625766142E-01 +8.03274725456E-01 +4.57881327329E-05 +3.44408681727E-05 +2.83411268223E-05 +7.18216344992E-05 -6.50378691523E-01 +7.26385758960E-01
1.14000000000E+09 -5.14048750747E-01 +8.06227573149E-01 +2.74170723154E-05 +7.07040286373E-05 +9.11497644413E-05 +4.71846525919E-05 -6.45832387203E-01 +7.29760922255E-01
1.14500000000E+09 -5.10325628119E-01 +8.08579349380E-01 +4.62485778868E-05 +3.04737776278E-05 +4.44020447856E-05 +7.06849970753E-05 -6.40965919955E-01 +7.33073579031E-01
1.15000000000E+09 -5.06995052374E-01 +8.10828136851E-01 +4.80208852643E-05 +2.12204308731E-05 +6.76896753094E-05 +4.84192162859E-05 -6.36314275840E-01 +7.37020149084E-01
1.15500000000E+09 -5.03207051748E-01 +8.13243197351E-01 +4.11458959917E-05 +1.25857741696E-05 +9.30915712241E-05 +6.94637737485E-05 -6.31581586994E-01 +7.40789185070E-01
1.16000000000E+09 -4.98697833987E-01 +8.15508525653E-01 +7.32260137387E-05 +3.31085181323E-05 +6.36140420948E-05 +1.82509878222E-05 -6.26707844808E-01 +7.44686287971E-01
1.16500000000E+09 -4.92985290368E-01 +8.18548709636E-01 +1.02144844109E-04 -1.30059348366E-05 +8.43790137760E-05 +1.12440704984E-05 -6.21496635014E-01 +7.48277922502E-01
1.17000000000E+09 -4.86156746546E-01 +8.21541839476E-01 +6.60879518507E-05 +3.26857467035E-05 +5.77757533725E-05 -8.68107555252E-06 -6.16215481072E-01 +7.51551003108E-01
1.17500000000E+09 -4.78281066440E-01 +8.24360387656E-01 +1.18735785218E-04 +1.90535454852E-05 +1.00142518452E-04 -3.77981615526E-05 -6.10461681013E-01 +7.54781795486E-01
1.18000000000E+09 -4.70321744222E-01 +8.27733244158E-01 +1.22435821641E-04 +2.76367114973E-05 +8.00042738443E-05 +2.47256938113E-05 -6.04894648613E-01 +7.57874697798E-01
1.18500000000E+09 -4.62518995811E-01 +8.30670335937E-01 +9.26576822990E-05 +1.63541038350E-05 +8.00280192807E-05 -3.63094637363E-05 -5.98800854801E-01 +7.60928328107E-01
1.19000000000E+09 -4.55340979741E-01 +8.32991362885E-01 +1.26619439955E-04 +3.12487893237E-05 +1.33137370521E-04 +1.57456923063E-06 -5.92647594345E-01 +7.63536970649E-01
1.19500000000E+09 -4.49532225596E-01 +8.35154159694E-01 +2.08933761161E-04 -4.04569533064E-05 +1.55952062846E-04 -1.83883841924E-05 -5.86712205888E-01 +7.64839095181E-01
1.20000000000E+09 -4.44699691751E-01 +8.36505719316E-01 +1.56806975144E-04 -1.30788229142E-04 +1.83899298937E-04 -1.00200957540E-04 -5.82258922783E-01 +7.65027583557E-01
1.20500000000E+09 -4.40675107967E-01 +8.38501472192E-01 +1.08314625319E-04 -1.28995054335E-04 +6.79196990643E-05 -1.48246061056E-04 -5.79940080284E-01 +7.65910147700E-01
1.21000000000E+09 -4.36684618837E-01 +8.40486783256E-01 +6.39218526852E-05 -1.01417367250E-04 +9.08573887330E-05 -8.38691121800E-05 -5.78242002602E-01 +7.68902224099E-01
1.21500000000E+09 -4.31331596094E-01 +8.42767181189E-01 +1.05028293669E-04 -6.34298844891E-05 +6.61495410835E-05 -8.71683415970E-05 -5.75437188815E-01 +7.73398861954E-01
1.22000000000E+09 -4.24697044271E-01 +8.45165298310E-01 +7.53531701064E-05 -9.93353743820E-05 +7.93495818570E-05 -1.07016448596E-04 -5.71278087092E-01 +7.78753234141E-01
1.22500000000E+09 -4.16726055355E-01 +8.48050325510E-01 +5.84169412109E-05 -1.09440614270E-04 +7.93258297317E-05 -9.45883248123E-05 -5.66028842851E-01 +7.83837431474E-01
1.23000000000E+09 -4.07355725736E-01 +8.51152638664E-01 +1.95630065631E-05 -1.27721101129E-04 +8.79651337604E-05 -9.52678221376E-05 -5.60305024314E-01 +7.88591453401E-01
1.23500000000E+09 -3.97279340467E-01 +8.54307714170E-01 +4.06184353306E-05 -8.94918249883E-05 +1.10022217902E-04 -1.08857458779E-04 -5.54358245153E-01 +7.92968301708E-01
1.24000000000E+09 -3.87181495448E-01 +8.57676907467E-01 +1.33132589403E-04 -1.39104165183E-04 +8.57513645469E-05 -1.32449714629E-04 -5.48473461072E-01 +7.96725044744E-01
1.24500000000E+09 -3.77815015223E-01 +8.61148052415E-01 +6.04559992565E-05 -2.18038802012E-04 +8.69604601693E-05 -1.48072990429E-04 -5.42145270752E-01 +8.00597186190E-01
1.25000000000E+09 -3.69313387047E-01 +8.64159436003E-01 +6.49836142321E-05 -2.09493336030E-04 +7.31089311188E-05 -1.93252722878E-04 -5.35489942029E-01 +8.04875529849E-01
1.25500000000E+09 -3.62068370829E-01 +8.66792247370E-01 +9.24483665978E-06 -2.29934082034E-04 +4.76009119707E-05 -3.18076992956E-04 -5.28534775570E-01 +8.08816728907E-01
1.26000000000E+09 -3.55905790626E-01 +8.69222325456E-01 -5.44731454846E-05 -2.43027451474E-04 -6.09623539202E-05 -2.31479370675E-04 -5.21875735522E-01 +8.13262181913E-01
1.26500000000E+09 -3.50448755167E-01 +8.71385614336E-01 -5.77768692222E-05 -2.36011187241E-04 -8.18886961506E-05 -2.31678300489E-04 -5.14927444348E-01 +8.17096348479E-01
1.27000000000E+09 -3.44696388165E-01 +8.73488090544E-01 -5.87235007302E-05 -2.46192912515E-04 -6.03178801889E-05 -2.40571738504E-04 -5.08072837261E-01 +8.20967446052E-01
1.27500000000E+09 -3.38167159526E-01 +8.75578510988E-01 -1.26222087128E-04 -1.98459794396E-04 -1.63122198313E-04 -2.60636456220E-04 -5.01091086893E-01 +8.24455379343E-01
1.28000000000E+09 -3.30281291219E-01 +8.78046560774E-01 -1.49521863388E-04 -2.09201974979E-04 -1.44238605261E-04 -2.68653524665E-04 -4.94012903533E-01 +8.27947277062E-01
1.28500000000E+09 -3.20445112150E-01 +8.80565455193E-01 -2.15411860030E-04 -1.87900183776E-04 -1.54635043787E-04 -2.74350713056E-04 -4.86717523240E-01 +8.31668155664E-01
1.29000000000E+09 -3.09685787819E-01 +8.82936029210E-01 -2.27859348099E-04 -1.73275822707E-04 -2.56095646765E-04 -1.99446663258E-04 -4.79109866020E-01 +8.35308686040E-01
1.29500000000E+09 -2.98315336556E-01 +8.85558096985E-01 -2.16809072640E-04 -2.46454902000E-04 -2.39145120282E-04 -2.09773827459E-04 -4.71113173290E-01 +8.38826859884E-01
1.30000000000E+09 -2.86684882598E-01 +8.88244321551E-01 -3.03535143664E-04 -1.89604689764E-04 -3.17597475901E-04 -1.17193334071E-04 -4.63317568715E-01 +8.42598664107E-01
1.30500000000E+09 -2.76099640325E-01 +8.90700577185E-01 -3.05439058696E-04 -1.56423000581E-04 -4.17585281459E-04 -1.38267857177E-04 -4.55259115940E-01 +8.46030834406E-01
1.31000000000E+09 -2.66716444187E-01 +8.92958499259E-01 -3.94500865880E-04 -5.49306887995E-05 -3.37753457122E-04 -6.04488486127E-05 -4.46899464860E-01 +8.49415001647E-01
1.31500000000E+09 -2.58687031475E-01 +8.94955911013E-01 -3.38699839363E-04 +3.57105292983E-07 -3.53228246323E-04 -8.59398519575E-06 -4.37969123968E-01 +8.52914610073E-01
1.32000000000E+09 -2.51764855083E-01 +8.96486377770E-01 -3.00312741701E-04 +2.11164933247E-05 -3.17263944678E-04 -3.23005322138E-05 -4.28853196144E-01 +8.56246266663E-01
1.32500000000E+09 -2.45183374251E-01 +8.97659575348E-01 -3.30510351624E-04 -1.86174219717E-05 -3.33876004358E-04 +3.12051022856E-05 -4.19260863479E-01 +8.59671897481E-01
1.33000000000E+09 -2.38012991493E-01 +8.98828111874E-01 -3.40340168224E-04 +2.11018312917E-05 -3.85711137128E-04 +4.91284850154E-05 -4.09612705884E-01 +8.62983879716E-01
1.33500000000E+09 -2.29188220051E-01 +8.99504457886E-01 -4.02478484279E-04 +7.12118546918E-05 -3.87810778368E-04 +9.20347094572E-05 -3.99653579603E-01 +8.66281430220E-01
1.34000000000E+09 -2.18249331961E-01 +9.00187775832E-01 -3.95692911706E-04 +1.24198995627E-04 -3.95125453187E-04 +1.68653664102E-04 -3.89399721194E-01 +8.69704535110E-01
1.34500000000E+09 -2.05026853659E-01 +9.00495463244E-01 -4.01750326907E-04 +1.57942373243E-04 -3.66435171845E-04 +2.02815053051E-04 -3.78409791807E-01 +8.72920143253E-01
1.35000000000E+09 -1.90237075306E-01 +9.00500861240E-01 -3.18378136671E-04 +1.90752965026E-04 -3.23418295583E-04 +1.98266028902E-04 -3.67187925192E-01 +8.75938704409E-01
1.35500000000E+09 -1.74161259187E-01 +9.00558452999E-01 -3.21400049174E-04 +2.37649912383E-04 -2.81866726885E-04 +2.56898823770E-04 -3.55473404611E-01 +8.78900375021E-01
1.36000000000E+09 -1.58099211544E-01 +9.00559100332E-01 -3.19157065457E-04 +2.81605519439E-04 -2.81657984740E-04 +2.48632098674E-04 -3.43688016112E-01 +8.81581603089E-01
1.36500000000E+09 -1.42429800891E-01 +9.00648464740E-01 -3.24640662580E-04 +3.11875522142E-04 -2.93625285229E-04 +2.77645025664E-04 -3.31471282917E-01 +8.84067755343E-01
1.37000000000E+09 -1.27850300804E-01 +9.00750907516E-01 -3.14203110423E-04 +3.50090057252E-04 -3.45432330587E-04 +2.82656692110E-04 -3.18585063178E-01 +8.86444084914E-01
1.37500000000E+09 -1.14605192214E-01 +9.00761883958E-01 -3.68346481081E-04 +3.77250974560E-04 -4.18710770508E-04 +3.18219284122E-04 -3.04829498342E-01 +8.88718284678E-01
1.38000000000E+09 -1.02241227689E-01 +9.00523062036E-01 -3.19091714875E-04 +4.83619400282E-04 -3.91635130352E-04 +4.95793173184E-04 -2.90340389895E-01 +8.90746378481E-01
1.38500000000E+09 -8.99715488441E-02 +8.99949393393E-01 -1.94418788699E-04 +5.65596186968E-04 -2.50487457121E-04 +6.05449802232E-04 -2.74709346427E-01 +8.92701538220E-01
1.39000000000E+09 -7.71519221759E-02 +8.98789996587E-01 -1.59304992698E-04 +4.91993133977E-04 -1.88309885534E-04 +5.54936674853E-04 -2.58809382652E-01 +8.94042855357E-01
1.39500000000E+09 -6.28035362982E-02 +8.96787747859E-01 -1.47217129732E-04 +5.31557235502E-04 -1.69282108431E-04 +6.39587588118E-04 -2.41885597514E-01 +8.94912955427E-01
1.40000000000E+09 -4.63312751173E-02 +8.93754380486E-01 -1.29619403280E-04 +6.34782879879E-04 -1.00255464280E-04 +6.02172138372E-04 -2.24319768219E-01 +8.95330708263E-01
1.40500000000E+09 -2.77213038973E-02 +8.89600138820E-01 -1.19975932146E-04 +6.09297093397E-04 -7.80864069562E-05 +6.33719121165E-04 -2.05725174522E-01 +8.95239863285E-01
1.41000000000E+09 -7.44884898672E-03 +8.84196254738E-01 -8.52455378372E-05 +6.72375578680E-04 -6.42611732260E-05 +7.01981186012E-04 -1.85438957508E-01 +8.94674298981E-01
1.41500000000E+09 +1.37587455100E-02 +8.78062974152E-01 +1.43017947401E-05 +7.34283174406E-04 +5.78763953935E-05 +7.64511000745E-04 -1.63697330096E-01 +8.93338755966E-01
1.42000000000E+09 +3.57597415565E-02 +8.71440122365E-01 +1.79608828358E-05 +7.05404154826E-04 +1.23188887898E-05 +8.31358864642E-04 -1.40775171660E-01 +8.90762727046E-01
1.42500000000E+09 +5.75443157815E-02 +8.64074146570E-01 +3.96171810730E-05 +8.73001518246E-04 +7.67467511778E-05 +9.99231522478E-04 -1.16915823671E-01 +8.87077667704E-01
1.43000000000E+09 +7.92086182322E-02 +8.55971356011E-01 +1.34902007293E-04 +1.01906171718E-03 +2.86778266565E-04 +1.07470724520E-03 -9.18723702690E-02 +8.82218738838E-01
1.43500000000E+09 +1.00965375075E-01 +8.46804557642E-01 +3.70941845860E-04 +1.09997679014E-03 +5.32401226493E-04 +1.07134014558E-03 -6.53717336701E-02 +8.75669536358E-01
1.44000000000E+09 +1.23030807815E-01 +8.36388068394E-01 +5.63745210513E-04 +9.47006023344E-04 +6.90166955848E-04 +9.38647785943E-04 -3.70761980616E-02 +8.67030385311E-01
1.44500000000E+09 +1.46892046259E-01 +8.23429583451E-01 +5.47307927114E-04 +8.44295441451E-04 +5.99110222286E-04 +8.79533194099E-04 -6.72237391117E-03 +8.55629034233E-01
1.45000000000E+09 +1.72604989801E-01 +8.06964205718E-01 +4.60410206067E-04 +1.01909167266E-03 +5.49650346464E-04 +1.04970736670E-03 +2.54717129474E-02 +8.40744671182E-01
1.45500000000E+09 +2.00267248134E-01 +7.86491257881E-01 +5.96147689944E-04 +1.37426454577E-03 +6.94101750223E-04 +1.34808361695E-03 +5.91347472268E-02 +8.22815373203E-01
1.46000000000E+09 +2.30205339893E-01 +7.61260625052E-01 +1.07335238097E-03 +1.66951824842E-03 +1.23619543639E-03 +1.51604497873E-03 +9.41761223227E-02 +8.00823299221E-01
1.46500000000E+09 +2.61386387957E-01 +7.30718399425E-01 +1.58416933449E-03 +1.67848986038E-03 +1.58490846652E-03 +1.44829077486E-03 +1.30530680524E-01 +7.73682177559E-01
1.47000000000E+09 +2.93200657875E-01 +6.94908311122E-01 +2.11898478115E-03 +1.66162202840E-03 +1.93262804552E-03 +1.47495878179E-03 +1.67702366660E-01 +7.39172875163E-01
1.47500000000E+09 +3.24833563501E-01 +6.52737405801E-01 +2.78781634918E-03 +1.47071129868E-03 +2.60036782288E-03 +1.55768820870E-03 +2.04101097978E-01 +6.97716937002E-01
1.48000000000E+09 +3.53707280094E-01 +6.04089335358E-01 +3.54392459660E-03 +1.12498429291E-03 +3.48418185979E-03 +1.20432464801E-03 +2.40462645438E-01 +6.48822863579E-01
1.48500000000E+09 +3.78730929717E-01 +5.49050323752E-01 +4.13016701375E-03 +5.28347546989E-04 +4.21280627844E-03 +4.35118293630E-04 +2.75105678846E-01 +5.89464763199E-01
1.49000000000E+09 +3.98189741685E-01 +4.86361054333E-01 +4.94415049034E-03 -1.99587833860E-04 +4.89133594765E-03 -4.60393971907E-04 +3.03043685451E-01 +5.19231021453E-01
1.49500000000E+09 +4.09950832203E-01 +4.15738240350E-01 +5.46420265965E-03 -1.60560021095E-03 +5.16807509746E-03 -1.70723696885E-03 +3.20932148854E-01 +4.38944560083E-01
1.50000000000E+09 +4.11249567748E-01 +3.36516533889E-01 +6.10504949184E-03 -2.66133996573E-03 +5.75935366782E-03 -2.46610324920E-03 +3.25888978178E-01 +3.50067051642E-01
1.50500000000E+09 +3.99350689959E-01 +2.50230377065E-01 +6.61789606263E-03 -5.60599853675E-03 +6.53768103296E-03 -5.15580769384E-03 +3.14275729970E-01 +2.53016953426E-01
1.51000000000E+09 +3.70499839552E-01 +1.57829094645E-01 +4.52826687157E-03 -8.88182586982E-03 +4.81178072645E-03 -8.58235778786E-03 +2.81249535851E-01 +1.52259037220E-01
1.51500000000E+09 +3.20716875324E-01 +6.56102405714E-02 +1.59290615595E-03 -1.01131684101E-02 +1.86832680238E-03 -1.02169390233E-02 +2.26279895055E-01 +5.59488767534E-02
1.52000000000E+09 +2.50140515711E-01 -1.75968165940E-02 -1.95085915527E-03 -1.08065583875E-02 -1.76566355584E-03 -1.08993218160E-02 +1.50455160321E-01 -3.02322433798E-02
1.52500000000E+09 +1.62465663496E-01 -8.70340274456E-02 -4.85507174781E-03 -9.22596974054E-03 -4.86005826915E-03 -9.27162339647E-03 +5.53791498143E-02 -9.95503093117E-02
1.53000000000E+09 +6.06077771709E-02 -1.36064221300E-01 -6.74263101708E-03 -8.46147713148E-03 -6.73239377596E-03 -8.58515131010E-03 -5.32321046793E-02 -1.44948216205E-01
1.53500000000E+09 -4.83384150930E-02 -1.61478619645E-01 -9.50195995587E-03 -6.51297491357E-03 -9.49111648229E-03 -6.55191683668E-03 -1.65416534438E-01 -1.64575352002E-01
1.54000000000E+09 -1.58941109120E-01 -1.62276158073E-01 -1.18945949437E-02 -3.57613259270E-03 -1.18033455079E-02 -3.59895135412E-03 -2.75509940526E-01 -1.60324369922E-01
1.54500000000E+09 -2.64495104148E-01 -1.39339923932E-01 -1.25606512270E-02 +1.37759034717E-03 -1.24216234690E-02 +1.06437907407E-03 -3.74044147266E-01 -1.35252477526E-01
1.55000000000E+09 -3.58156028548E-01 -9.65817925712E-02 -1.00062241913E-02 +4.99510096728E-03 -1.02337919323E-02 +4.55643764313E-03 -4.58743778398E-01 -9.70250531499E-02
1.55500000000E+09 -4.36155339145E-01 -4.08074512437E-02 -7.38225589543E-03 +6.78039105637E-03 -7.86921827654E-03 +6.63596113970E-03 -5.29408356007E-01 -4.93030585647E-02
1.56000000000E+09 -4.97795348151E-01 +1.97216611567E-02 -4.66175493122E-03 +7.87749041630E-03 -5.17538926978E-03 +8.05703373720E-03 -5.85564681733E-01 +4.79406793429E-03
1.56500000000E+09 -5.46815990998E-01 +8.15341985496E-02 -1.92454598354E-03 +7.55910042310E-03 -2.15294407923E-03 +8.00439465342E-03 -6.28922513189E-01 +5.98288034458E-02
1.57000000000E+09 -5.83861573750E-01 +1.41977359046E-01 -1.00741877474E-04 +6.43820356889E-03 -3.06713673156E-05 +6.85981767268E-03 -6.61903866579E-01 +1.14677743198E-01
