# Hz S RI R 50
! CMT, C1220, 16058040, 17.2.0/1
! Date: 14/08/2018 12:09:16
! Data: Format (Calibration Info)
! Freq                      S11: Re/Im (F2)                       S21: Re/Im (F2)                       S12: Re/Im (F2)                       S22: Re/Im (F2)            
1.00000000000E+09 -6.54834732843E-01 +7.09808660385E-01 -2.99684694264E-05 +9.91689661119E-06 +6.84841951278E-05 -3.24165118521E-06 -7.53447965909E-01 +6.25516007463E-01
1.00500000000E+09 -6.47952513705E-01 +7.14478121929E-01 +1.98233645509E-05 +3.24527557559E-06 -1.95592849223E-06 +8.40233624576E-06 -7.49887578151E-01 +6.29841235128E-01
1.01000000000E+09 -6.42246451183E-01 +7.18678318032E-01 -3.03726230368E-05 +1.83733315470E-05 -2.98225241395E-05 -2.34922058163E-06 -7.46150981514E-01 +6.33442206201E-01
1.01500000000E+09 -6.38067427935E-01 +7.22306050633E-01 -7.69119217612E-06 +7.85078110010E-06 -4.89431682002E-06 +2.66028863745E-05 -7.42916448126E-01 +6.37138801941E-01
1.02000000000E+09 -6.35295984074E-01 +7.25662947703E-01 -3.12585489958E-06 -1.15331271665E-05 -8.60121695383E-06 -1.01663617696E-05 -7.39494452126E-01 +6.40694314279E-01
1.02500000000E+09 -6.33239700001E-01 +7.28670141978E-01 -3.15816427245E-06 -1.21786321628E-05 -2.12597366733E-05 -2.44897084891E-05 -7.36617627918E-01 +6.44458467279E-01
1.03000000000E+09 -6.31880895550E-01 +7.31426331277E-01 -1.56046188222E-05 -7.88438111133E-06 -6.45252346223E-05 -1.77463700347E-06 -7.33172830223E-01 +6.48242122892E-01
1.03500000000E+09 -6.29610279329E-01 +7.34276914850E-01 -4.54516585122E-05 -1.55750735484E-05 -3.45400398448E-05 +2.86263790831E-05 -7.29252466446E-01 +6.52455297360E-01
1.04000000000E+09 -6.26326901481E-01 +7.37430631063E-01 +2.92353371948E-06 -2.65338034299E-05 -8.13626102348E-05 -2.05810036728E-05 -7.25448647598E-01 +6.55910655066E-01
1.04500000000E+09 -6.21473473463E-01 +7.40981614125E-01 -2.54678198947E-05 +1.41955595604E-05 -3.17536390477E-05 +1.84527051513E-05 -7.21965526835E-01 +6.59340255407E-01
1.05000000000E+09 -6.14892005957E-01 +7.45049658331E-01 -4.93074901229E-05 +3.13040719591E-05 -3.30975241103E-05 -2.24308722673E-05 -7.18462083701E-01 +6.62917836468E-01
1.05500000000E+09 -6.07193137284E-01 +7.49114337556E-01 -3.92552449288E-06 +1.69035461163E-05 -3.99580093347E-05 -1.12291280110E-06 -7.15188323873E-01 +6.66555673374E-01
1.06000000000E+09 -5.99096618687E-01 +7.53578305575E-01 -1.33095243517E-05 +3.88453006454E-05 +1.02453139523E-05 +1.73493073848E-05 -7.12040967391E-01 +6.70291136892E-01
1.06500000000E+09 -5.91087575432E-01 +7.58064800797E-01 -2.17026028436E-05 +1.46791708129E-05 +1.20318658702E-07 +3.36921781602E-05 -7.08318395234E-01 +6.74091349722E-01
1.07000000000E+09 -5.84350801158E-01 +7.61939788872E-01 +2.53774888567E-06 +5.10433593288E-05 -4.69716738346E-06 +2.96502557464E-05 -7.04243029090E-01 +6.77570699291E-01
1.07500000000E+09 -5.78780455211E-01 +7.65457746408E-01 +4.45513844386E-06 +1.59362363193E-05 -9.77406279810E-06 +6.68582624920E-05 -6.99861221323E-01 +6.81458335724E-01
1.08000000000E+09 -5.75012739359E-01 +7.68955051616E-01 -1.50081297670E-05 +7.74536073329E-05 -2.62204623151E-05 +7.39530888829E-05 -6.95868278762E-01 +6.85354749044E-01
1.08500000000E+09 -5.72238433256E-01 +7.71836627145E-01 +8.26943587063E-06 +3.77431272836E-05 -3.54798408934E-05 +2.80467898157E-05 -6.91913171894E-01 +6.89013567953E-01
1.09000000000E+09 -5.70137023979E-01 +7.74711718071E-01 +2.02414161993E-05 +8.67829634369E-06 +5.48180087832E-05 +7.48750702567E-05 -6.88032851604E-01 +6.92775462023E-01
1.09500000000E+09 -5.67946624020E-01 +7.77016473751E-01 +5.65304420879E-05 +6.38964776338E-05 +2.32823357982E-05 +5.88188224992E-05 -6.84186192208E-01 +6.96854396076E-01
1.10000000000E+09 -5.64546481122E-01 +7.79847644332E-01 +1.00094147452E-07 +8.86847930747E-05 +6.08943109822E-06 +5.08134979527E-05 -6.80235505113E-01 +7.00717963956E-01
1.10500000000E+09 -5.59921887026E-01 +7.82723709484E-01 +2.75791259721E-05 +2.58630988502E-05 +4.52758118248E-07 +4.43238697677E-05 -6.76182994643E-01 +7.04304740445E-01
1.11000000000E+09 -5.54002332547E-01 +7.85943181771E-01 +2.64954832441E-05 +4.25944758542E-05 +4.55308992396E-05 +4.25232139972E-05 -6.71742788798E-01 +7.07683948067E-01
1.11500000000E+09 -5.47087843436E-01 +7.89621990317E-01 -2.34054107612E-05 +6.82435972040E-05 +1.52965820458E-05 +2.16438617151E-05 -6.67623805828E-01 +7.10925457167E-01
1.12000000000E+09 -5.39486962222E-01 +7.93259192626E-01 +5.21726663048E-05 -3.75028490389E-05 +6.08299013242E-05 +4.66138735751E-05 -6.63649586873E-01 +7.14525023407E-01
1.12500000000E+09 -5.31739525408E-01 +7.96849206876E-01 -2.13955691232E-06 +3.18890103934E-05 +2.86771594506E-05 +4.12463672241E-05 -6.59232461205E-01 +7.18647534576E-01
1.13000000000E+09 -5.25223912740E-01 +8.00306252387E-01 +1.87859931020E-05 -2.18819116099E-05 +1.42924501439E-05 +3.62872308022E-07 -6.55056418341E-01 +7.22367014099E-01
1.13500000000E+09 -5.19352143143E-01 +8.03269894341E-01 +1.63656964267E-05 +1.55602598932E-05 +4.17207417782E-05 +4.88152117573E-05 -6.50593091847E-01 +7.26182385410E-01
1.14000000000E+09 -5.14811050140E-01 +8.06228748818E-01 +3.24282179211E-05 +2.59727146960E-05 +5.32334597467E-05 +3.12212616756E-05 -6.45837814460E-01 +7.29666691680E-01
1.14500000000E+09 -5.11037027837E-01 +8.08625390320E-01 +5.28500010252E-05 +3.92016473265E-06 +4.26409709486E-05 +4.06233864489E-05 -6.41068107440E-01 +7.33019082087E-01
1.15000000000E+09 -5.07619407732E-01 +8.10991676367E-01 +4.30018435635E-05 +4.04261786488E-05 +3.70065957691E-05 +4.45339299150E-05 -6.36477549826E-01 +7.36911990723E-01
1.15500000000E+09 -5.04131515024E-01 +8.13327127503E-01 +6.29217687782E-05 +2.96093901792E-05 +1.08374337130E-04 +7.03229365243E-06 -6.31835387977E-01 +7.40703542423E-01
1.16000000000E+09 -4.99518459573E-01 +8.15600444562E-01 +4.76429350596E-05 +3.75412433592E-05 +7.78577367019E-05 +3.48273318244E-05 -6.26820707493E-01 +7.44440735088E-01
1.16500000000E+09 -4.93831932412E-01 +8.18512149636E-01 +7.73699849510E-05 +1.00447748946E-04 +8.38241264605E-05 +6.39705368822E-05 -6.21727873201E-01 +7.48226254452E-01
1.17000000000E+09 -4.87144474146E-01 +8.21664481210E-01 +9.13761126106E-05 +5.68890139942E-05 +8.70433008958E-05 +2.31520292074E-05 -6.16333244085E-01 +7.51550343173E-01
1.17500000000E+09 -4.79252698360E-01 +8.24735638199E-01 +9.36651975344E-05 +5.26786193235E-05 +8.68188058617E-05 +3.32775210726E-05 -6.10498923641E-01 +7.54653213474E-01
1.18000000000E+09 -4.71395314899E-01 +8.27894183965E-01 +6.43549787950E-05 +4.48022342068E-05 +1.27824944271E-04 +1.84412276776E-05 -6.04985546303E-01 +7.57835135387E-01
1.18500000000E+09 -4.63595117984E-01 +8.30891821525E-01 +1.45302527291E-04 +2.59817533650E-05 +1.12896648497E-04 +6.79990788195E-05 -5.99207942948E-01 +7.60938082286E-01
1.19000000000E+09 -4.56357317435E-01 +8.33238492122E-01 +1.59970817337E-04 -2.02719873807E-05 +1.31155964428E-04 +7.47308971415E-05 -5.92827195691E-01 +7.63544670600E-01
1.19500000000E+09 -4.50633620565E-01 +8.35397439994E-01 +1.72290435490E-04 -1.78478181814E-05 +1.78843986317E-04 -2.07583460201E-05 -5.86867423139E-01 +7.64689665711E-01
1.20000000000E+09 -4.45843692139E-01 +8.36833389281E-01 +1.84043379980E-04 -8.00843218051E-05 +1.87734983809E-04 -9.36382386979E-05 -5.82337140796E-01 +7.64971204035E-01
1.20500000000E+09 -4.41806707999E-01 +8.38616961490E-01 +1.34688567752E-04 -1.14896236086E-04 +1.73063842618E-04 -1.26732442247E-04 -5.80074267352E-01 +7.65726865881E-01
1.21000000000E+09 -4.37577979262E-01 +8.40680799482E-01 +1.23135396581E-04 -1.20428717450E-04 +1.55312552648E-04 -1.30356233328E-04 -5.78234461240E-01 +7.68742253482E-01
1.21500000000E+09 -4.32415858273E-01 +8.43018142977E-01 +1.10819498871E-04 -1.17524372797E-04 +1.13051342599E-04 -1.48348250958E-04 -5.75453906650E-01 +7.73360469024E-01
1.22000000000E+09 -4.25837971309E-01 +8.45500856027E-01 +8.15217012390E-05 -1.16386520172E-04 +1.07691241527E-04 -1.20802017864E-04 -5.71370760767E-01 +7.78742442695E-01
1.22500000000E+09 -4.17729514121E-01 +8.48393800400E-01 +8.82480419086E-05 -1.20967549619E-04 +1.13319597613E-04 -1.76057588804E-04 -5.66194828988E-01 +7.83841116331E-01
1.23000000000E+09 -4.08365394454E-01 +8.51465929016E-01 +6.58002205727E-05 -1.25621613300E-04 +6.59219899822E-05 -1.59056497805E-04 -5.60338863858E-01 +7.88616905289E-01
1.23500000000E+09 -3.98496692493E-01 +8.54632672444E-01 +1.23636074421E-04 -1.49710430836E-04 +1.03504164448E-04 -1.17560915705E-04 -5.54574406174E-01 +7.92793781114E-01
1.24000000000E+09 -3.88201782374E-01 +8.57989146570E-01 +9.40027727944E-05 -1.10025329366E-04 +9.98427106865E-05 -2.00446893720E-04 -5.48475298386E-01 +7.96728579082E-01
1.24500000000E+09 -3.78809386350E-01 +8.61332490197E-01 +7.72144369417E-05 -1.87961671463E-04 +1.25863650813E-04 -2.06770786362E-04 -5.42119235382E-01 +8.00656332023E-01
1.25000000000E+09 -3.70304197666E-01 +8.64525406215E-01 +6.33238476947E-05 -2.10977529877E-04 +1.25048942754E-04 -2.01608904359E-04 -5.35461240779E-01 +8.04853779588E-01
1.25500000000E+09 -3.63259307093E-01 +8.67040437703E-01 +1.15805406260E-05 -2.39414811277E-04 +1.86940962190E-05 -2.25628453536E-04 -5.28792087867E-01 +8.08836083138E-01
1.26000000000E+09 -3.56941725010E-01 +8.69496922288E-01 -4.40467919265E-05 -2.29485224066E-04 -1.71611501925E-05 -2.69857006164E-04 -5.21970514362E-01 +8.13096736206E-01
1.26500000000E+09 -3.51434064921E-01 +8.71775482213E-01 +2.69686602566E-06 -2.69384395420E-04 -7.91368941420E-05 -2.41708042647E-04 -5.14939548776E-01 +8.17003494332E-01
1.27000000000E+09 -3.45694841576E-01 +8.73927501101E-01 -1.10811427935E-04 -2.50233691036E-04 -7.65608030950E-05 -2.46440854828E-04 -5.08187714437E-01 +8.20881204914E-01
1.27500000000E+09 -3.39156960001E-01 +8.76167511415E-01 -8.45870501087E-05 -2.80869943705E-04 -7.40105310348E-05 -2.65634864639E-04 -5.01050210262E-01 +8.24438559797E-01
1.28000000000E+09 -3.31227313875E-01 +8.78501274281E-01 -1.28498366407E-04 -2.57663224626E-04 -1.36783298356E-04 -3.04297423448E-04 -4.94185566764E-01 +8.27951810268E-01
1.28500000000E+09 -3.21498757685E-01 +8.80991465110E-01 -1.87735402885E-04 -2.63161278595E-04 -1.19901811405E-04 -3.10378559103E-04 -4.86775509478E-01 +8.31708425989E-01
1.29000000000E+09 -3.10744744044E-01 +8.83537916383E-01 -1.71541945352E-04 -2.52425075250E-04 -2.28270138900E-04 -2.68824674549E-04 -4.79188491759E-01 +8.35289525217E-01
1.29500000000E+09 -2.99175380605E-01 +8.86325001177E-01 -1.94502140819E-04 -2.87855027575E-04 -2.65996433183E-04 -2.43484707514E-04 -4.71338352565E-01 +8.38797403696E-01
1.30000000000E+09 -2.87860527578E-01 +8.88857080795E-01 -2.79076935083E-04 -2.53531930757E-04 -3.35673583039E-04 -2.62794897501E-04 -4.63516816815E-01 +8.42479120733E-01
1.30500000000E+09 -2.77189273915E-01 +8.91329645911E-01 -3.53159820765E-04 -2.17144470560E-04 -3.04846462872E-04 -1.95295144269E-04 -4.55331984192E-01 +8.46018360282E-01
1.31000000000E+09 -2.67830135863E-01 +8.93444197846E-01 -4.10781478610E-04 -9.40415199955E-05 -3.64886787639E-04 -1.72154525737E-04 -4.46872038459E-01 +8.49299575797E-01
1.31500000000E+09 -2.59881281425E-01 +8.95423900829E-01 -3.35517490910E-04 -5.85852517410E-05 -3.82256462849E-04 -1.01063019643E-04 -4.38121912727E-01 +8.52782184090E-01
1.32000000000E+09 -2.53006993667E-01 +8.96936814056E-01 -3.05330335944E-04 -4.93051323273E-05 -3.55052217848E-04 -9.89561660932E-05 -4.28898814147E-01 +8.56159102893E-01
1.32500000000E+09 -2.46499040124E-01 +8.98283091720E-01 -3.97523407666E-04 -9.13458195340E-05 -4.08599781543E-04 -6.58610545484E-05 -4.19199118124E-01 +8.59616423296E-01
1.33000000000E+09 -2.39136977701E-01 +8.99425075206E-01 -3.98215265902E-04 -5.27527690441E-05 -3.96581661326E-04 +5.50599966169E-06 -4.09552208620E-01 +8.62827375078E-01
1.33500000000E+09 -2.30391356315E-01 +9.00051317123E-01 -4.85770253765E-04 +5.19004548511E-06 -4.22183828098E-04 +3.22722424486E-05 -3.99742634532E-01 +8.66147844165E-01
1.34000000000E+09 -2.19357750269E-01 +9.00729889329E-01 -4.61932971035E-04 +8.86996444936E-05 -4.37765992357E-04 +7.93942622890E-05 -3.89546736199E-01 +8.69493697522E-01
1.34500000000E+09 -2.06170988032E-01 +9.01030860352E-01 -4.15861838527E-04 +1.38494447022E-04 -4.06824846797E-04 +1.49086845885E-04 -3.78456386574E-01 +8.72689379470E-01
1.35000000000E+09 -1.91351909049E-01 +9.01159310940E-01 -4.04326484636E-04 +1.56511039119E-04 -3.98397191046E-04 +1.04652741021E-04 -3.67236025659E-01 +8.75930433801E-01
1.35500000000E+09 -1.75310702519E-01 +9.01128053284E-01 -3.58856282008E-04 +1.67241614036E-04 -4.17774955982E-04 +1.66225273881E-04 -3.55689145204E-01 +8.78564904167E-01
1.36000000000E+09 -1.59174519355E-01 +9.01060761033E-01 -3.35028233947E-04 +1.60244186239E-04 -4.03183621225E-04 +1.71970461595E-04 -3.43880646133E-01 +8.81346946288E-01
1.36500000000E+09 -1.43460205759E-01 +9.01322351167E-01 -4.49239111248E-04 +1.52894329807E-04 -3.85128880453E-04 +1.62453599635E-04 -3.31630645781E-01 +8.83858776922E-01
1.37000000000E+09 -1.28856857207E-01 +9.01446833633E-01 -4.67546525247E-04 +1.91177805244E-04 -4.48442208322E-04 +1.90212904037E-04 -3.18685259716E-01 +8.86177655148E-01
1.37500000000E+09 -1.15439438185E-01 +9.01449815429E-01 -5.44917610551E-04 +2.98324066497E-04 -5.98726676700E-04 +2.75951345079E-04 -3.04899834308E-01 +8.88366561406E-01
1.38000000000E+09 -1.03122585070E-01 +9.01227200628E-01 -5.21252907960E-04 +4.60245942425E-04 -5.90351439864E-04 +4.37771864441E-04 -2.90410705265E-01 +8.90464536601E-01
1.38500000000E+09 -9.07839625223E-02 +9.00698419736E-01 -3.94450032769E-04 +5.21729627319E-04 -4.88651403040E-04 +5.55702735621E-04 -2.75095703558E-01 +8.92441511187E-01
1.39000000000E+09 -7.78617232135E-02 +8.99428406629E-01 -3.87740602172E-04 +5.13359204401E-04 -3.92293672437E-04 +6.11678253202E-04 -2.59095899175E-01 +8.93832897913E-01
1.39500000000E+09 -6.34382452916E-02 +8.97515869400E-01 -3.91184282099E-04 +4.99499032492E-04 -4.45622158904E-04 +6.07832074854E-04 -2.42242289389E-01 +8.94610579001E-01
1.40000000000E+09 -4.68036644709E-02 +8.94514003435E-01 -4.46872014261E-04 +6.04980754214E-04 -3.81909898260E-04 +6.87056046260E-04 -2.24691858702E-01 +8.95033481056E-01
1.40500000000E+09 -2.82803007990E-02 +8.90304990802E-01 -4.47069551866E-04 +6.71834279473E-04 -4.19918686205E-04 +6.88788860500E-04 -2.06088708850E-01 +8.94942691846E-01
1.41000000000E+09 -7.89927144297E-03 +8.84896546493E-01 -4.56218254010E-04 +9.05280291911E-04 -4.32333992155E-04 +9.38250656739E-04 -1.86014443079E-01 +8.94367831644E-01
1.41500000000E+09 +1.31675065795E-02 +8.78699035673E-01 -2.75352574428E-04 +9.80965027137E-04 -3.45195691304E-04 +1.03596855132E-03 -1.64288480345E-01 +8.93007472812E-01
1.42000000000E+09 +3.49858463276E-02 +8.71980700708E-01 -2.77449664074E-04 +1.01617579012E-03 -3.05483310321E-04 +1.09213681487E-03 -1.41405057759E-01 +8.90469848658E-01
1.42500000000E+09 +5.66633868479E-02 +8.64727722125E-01 -2.62922191126E-04 +1.16506251168E-03 -2.49104125821E-04 +1.38030328449E-03 -1.17587039270E-01 +8.86901253868E-01
1.43000000000E+09 +7.82158720649E-02 +8.56722234442E-01 -1.38164979225E-04 +1.49205447121E-03 -3.44339653772E-06 +1.61226529521E-03 -9.25988486464E-02 +8.82152274674E-01
1.43500000000E+09 +9.99761848122E-02 +8.47494636793E-01 +2.04922560169E-04 +1.61875252975E-03 +3.59111379236E-04 +1.65206008667E-03 -6.62950337722E-02 +8.75530547633E-01
1.44000000000E+09 +1.22193353475E-01 +8.37056484298E-01 +4.07484233020E-04 +1.57876694891E-03 +5.32462937131E-04 +1.56946656623E-03 -3.80342841256E-02 +8.66938001970E-01
1.44500000000E+09 +1.46135568930E-01 +8.24063170212E-01 +4.90231990351E-04 +1.57954330796E-03 +5.81930741428E-04 +1.55968650189E-03 -7.74890682775E-03 +8.55693606106E-01
1.45000000000E+09 +1.71644035516E-01 +8.07500345337E-01 +5.67161470992E-04 +1.88116071196E-03 +7.41407712306E-04 +1.83205502452E-03 +2.43955926336E-02 +8.41012192606E-01
1.45500000000E+09 +1.98986025457E-01 +7.87086808767E-01 +8.56324089436E-04 +2.21801748475E-03 +1.03831857959E-03 +2.13687721120E-03 +5.76666424406E-02 +8.23396150578E-01
1.46000000000E+09 +2.28953901885E-01 +7.62116400363E-01 +1.52312117909E-03 +2.55654814405E-03 +1.71815014717E-03 +2.30487607639E-03 +9.27893126875E-02 +8.01779898195E-01
1.46500000000E+09 +2.60472769053E-01 +7.31512942522E-01 +2.24364467321E-03 +2.50766572963E-03 +2.21268115802E-03 +2.11849711644E-03 +1.29406161568E-01 +7.74893857569E-01
1.47000000000E+09 +2.92194639963E-01 +6.95437854106E-01 +3.00343637217E-03 +2.39315628900E-03 +2.71843956661E-03 +2.15285275913E-03 +1.66775048682E-01 +7.40764525763E-01
1.47500000000E+09 +3.23596638646E-01 +6.53363450172E-01 +3.68418046712E-03 +2.03761829820E-03 +3.44782393009E-03 +2.07384283620E-03 +2.03476210613E-01 +6.99450144325E-01
1.48000000000E+09 +3.52242274901E-01 +6.04491053204E-01 +4.59400731514E-03 +1.71734711389E-03 +4.53771024761E-03 +1.89855698295E-03 +2.39970614611E-01 +6.50894944092E-01
1.48500000000E+09 +3.76675290869E-01 +5.49687486752E-01 +5.47887522963E-03 +9.75852973187E-04 +5.66543453773E-03 +8.99339098249E-04 +2.75081693475E-01 +5.91928505222E-01
1.49000000000E+09 +3.96013024385E-01 +4.87492476891E-01 +6.47531281323E-03 -3.10423433056E-05 +6.46890463982E-03 -4.10305145269E-04 +3.03492232053E-01 +5.21936579940E-01
1.49500000000E+09 +4.08111460995E-01 +4.17126485131E-01 +7.33059613572E-03 -1.57620355152E-03 +6.87983554150E-03 -1.83844882884E-03 +3.22179511743E-01 +4.41620584043E-01
1.50000000000E+09 +4.09394487870E-01 +3.37833251294E-01 +8.22111409915E-03 -3.46147819269E-03 +7.71268764792E-03 -3.24167760633E-03 +3.27994027370E-01 +3.52768484905E-01
1.50500000000E+09 +3.97319316577E-01 +2.51657424052E-01 +8.35162547555E-03 -6.98395304436E-03 +8.22225018220E-03 -6.42564567572E-03 +3.17114558412E-01 +2.54899089762E-01
1.51000000000E+09 +3.68258881031E-01 +1.59784581312E-01 +6.05062354127E-03 -1.05494469144E-02 +6.36002961508E-03 -1.02312407661E-02 +2.84576207328E-01 +1.53253290749E-01
1.51500000000E+09 +3.18382931296E-01 +6.86587450046E-02 +2.79797877325E-03 -1.26012073510E-02 +3.06018278891E-03 -1.26113118165E-02 +2.29512980874E-01 +5.62264296806E-02
1.52000000000E+09 +2.48827809048E-01 -1.32009775414E-02 -1.83645028287E-03 -1.34034769461E-02 -1.71316919333E-03 -1.35079868529E-02 +1.53854294172E-01 -3.05929265777E-02
1.52500000000E+09 +1.62916894917E-01 -8.26100695669E-02 -5.15024229958E-03 -1.13911611851E-02 -5.05674852851E-03 -1.15017671776E-02 +5.89184883132E-02 -1.00607996887E-01
1.53000000000E+09 +6.20792977980E-02 -1.32269846049E-01 -7.37000339977E-03 -1.09991352969E-02 -7.40072060352E-03 -1.11003866674E-02 -5.00512418573E-02 -1.46920918405E-01
1.53500000000E+09 -4.63074800541E-02 -1.58614937490E-01 -1.10403955604E-02 -9.09568239632E-03 -1.10573777466E-02 -9.04498227092E-03 -1.62650453867E-01 -1.67377746351E-01
1.54000000000E+09 -1.56854439286E-01 -1.60170966843E-01 -1.41894190084E-02 -5.20724969104E-03 -1.40421385933E-02 -5.21646978699E-03 -2.73572094254E-01 -1.64009486212E-01
1.54500000000E+09 -2.62666169735E-01 -1.37363757893E-01 -1.49388680086E-02 +4.08023586457E-04 -1.46896430095E-02 +8.51625368051E-05 -3.73458746496E-01 -1.39040544553E-01
1.55000000000E+09 -3.55876035769E-01 -9.43162285605E-02 -1.25631994744E-02 +4.75604300972E-03 -1.27193307941E-02 +4.19702773169E-03 -4.58750474020E-01 -1.00746702587E-01
1.55500000000E+09 -4.32970301941E-01 -3.96138593623E-02 -9.63778115104E-03 +7.25643381869E-03 -1.02341793763E-02 +6.91336422402E-03 -5.30288573975E-01 -5.29354241730E-02
1.56000000000E+09 -4.94666656067E-01 +1.97051137036E-02 -6.39700708916E-03 +8.79921897794E-03 -7.04130802309E-03 +8.92685821963E-03 -5.87357762280E-01 +1.71325394366E-03
1.56500000000E+09 -5.44224383332E-01 +8.06592708253E-02 -3.26723772951E-03 +8.38835880480E-03 -3.67478623111E-03 +8.88248819871E-03 -6.31223202145E-01 +5.75883446928E-02
1.57000000000E+09 -5.81968970715E-01 +1.40935232252E-01 -1.48517551545E-03 +7.40791518952E-03 -1.53268038749E-03 +7.85994948188E-03 -6.64323080665E-01 +1.12892677634E-01
