# Hz S RI R 50
! CMT, C1220, 16058040, 17.2.0/1
! Date: 14/08/2018 12:11:52
! Data: Format (Calibration Info)
! Freq                      S11: Re/Im (F2)                       S21: Re/Im (F2)                       S12: Re/Im (F2)                       S22: Re/Im (F2)            
1.00000000000E+09 -6.44739857677E-01 +7.14531027377E-01 +1.94220228174E-05 +3.81202136470E-05 +3.89570724508E-06 -9.12445245486E-06 -7.53406294206E-01 +6.25205054741E-01
1.00500000000E+09 -6.37306932641E-01 +7.19789818804E-01 +2.48465471672E-05 +2.70194622504E-06 -1.51591938568E-05 -1.02079366255E-05 -7.49797160787E-01 +6.29154715583E-01
1.01000000000E+09 -6.31572460049E-01 +7.24526487018E-01 -2.71898176558E-05 +2.31442024068E-05 -4.33733298334E-05 +2.16149085887E-05 -7.46150464607E-01 +6.32870206542E-01
1.01500000000E+09 -6.27743510988E-01 +7.28327619521E-01 +3.24754647965E-06 -3.33941702110E-05 +2.67700582039E-05 -2.04050993209E-05 -7.42777562244E-01 +6.36679094678E-01
1.02000000000E+09 -6.25423849197E-01 +7.31291958659E-01 +5.96096299795E-06 -1.75639458764E-05 -5.15701257218E-05 +4.61267072348E-05 -7.39436195285E-01 +6.40230029353E-01
1.02500000000E+09 -6.24333151550E-01 +7.33631282027E-01 +3.35976840314E-06 +6.71591703860E-05 +2.74027448489E-05 -3.72287143906E-05 -7.36507320500E-01 +6.43915317600E-01
1.03000000000E+09 -6.23727975854E-01 +7.35621078786E-01 -3.13756201056E-05 +1.00245396945E-05 -4.66579427487E-05 +3.80986811716E-05 -7.33062558048E-01 +6.47730708073E-01
1.03500000000E+09 -6.21940350103E-01 +7.37694493504E-01 -6.18198269157E-05 +8.59238196150E-06 +2.37677271078E-05 -5.97217347829E-06 -7.29280137172E-01 +6.51767523575E-01
1.04000000000E+09 -6.18774649945E-01 +7.40196199336E-01 -1.83070280574E-05 +3.30314927237E-05 +4.33478423575E-05 +3.52212155396E-05 -7.25424108745E-01 +6.55435571633E-01
1.04500000000E+09 -6.13577137156E-01 +7.43533392384E-01 -5.06391431373E-05 +4.77164509470E-05 -3.25329527987E-05 +3.39890385676E-05 -7.21838473576E-01 +6.58953831195E-01
1.05000000000E+09 -6.06224103527E-01 +7.47609508276E-01 +3.07886442693E-05 -1.16436274146E-05 +1.59306674441E-05 +2.24286854444E-05 -7.18477267371E-01 +6.62333960341E-01
1.05500000000E+09 -5.97301288791E-01 +7.52426603763E-01 -2.56509949190E-05 +3.29022304475E-05 +4.77342991507E-05 +9.69427779302E-06 -7.15302610225E-01 +6.65923982837E-01
1.06000000000E+09 -5.87591090413E-01 +7.57564596116E-01 +5.36045829828E-05 -1.25802531685E-06 -3.77336569863E-05 +3.57106430427E-06 -7.11970245007E-01 +6.69766521351E-01
1.06500000000E+09 -5.78428118483E-01 +7.62915021967E-01 +5.45213759888E-05 +3.25847639646E-05 -1.66941906589E-05 +2.54047932975E-05 -7.08329565855E-01 +6.73478660511E-01
1.07000000000E+09 -5.70747348647E-01 +7.67370213888E-01 +3.97320819611E-05 +1.47015632571E-05 -3.15027535720E-05 -1.26181963241E-06 -7.04173003176E-01 +6.77101897937E-01
1.07500000000E+09 -5.64865757346E-01 +7.71311218345E-01 +3.97277236091E-05 +3.82142466230E-05 +4.17418937455E-05 -1.32452334078E-05 -6.99951383045E-01 +6.80893279755E-01
1.08000000000E+09 -5.61120472328E-01 +7.74704418678E-01 +1.54675782012E-05 +2.20086429477E-05 +3.14651570673E-05 +2.74280247624E-05 -6.96000962281E-01 +6.84696491472E-01
1.08500000000E+09 -5.58940473815E-01 +7.77179270588E-01 +3.57454866960E-05 +2.81245918098E-06 +8.82147730833E-05 +3.62346633783E-05 -6.91896178604E-01 +6.88558336689E-01
1.09000000000E+09 -5.57553468963E-01 +7.79141416014E-01 +4.58280142202E-05 +3.97871684599E-05 +7.95551057972E-07 -3.13838471791E-05 -6.88113747832E-01 +6.92322131233E-01
1.09500000000E+09 -5.56186641345E-01 +7.80653889177E-01 +3.23656455835E-05 -2.28462183536E-05 +4.76804523434E-05 +1.27180492423E-05 -6.84268282479E-01 +6.96314640888E-01
1.10000000000E+09 -5.53557905533E-01 +7.82507784544E-01 +8.06110578997E-05 +2.70704731434E-05 +1.78322322152E-06 -4.21537878048E-05 -6.80248621064E-01 +6.99987204541E-01
1.10500000000E+09 -5.49503084616E-01 +7.85009683006E-01 +3.77524706726E-06 -2.15060182277E-05 +1.02893820229E-04 +1.29664761463E-05 -6.75810762373E-01 +7.03602582301E-01
1.11000000000E+09 -5.43387607460E-01 +7.88193003170E-01 +7.79591307786E-06 +9.96678966646E-06 +1.14171294467E-05 -1.01261062064E-05 -6.71707009753E-01 +7.07023215911E-01
1.11500000000E+09 -5.35682181677E-01 +7.92031063142E-01 +3.03213543994E-05 +1.43727677835E-05 -1.69407286056E-06 +3.58839881462E-06 -6.67688204310E-01 +7.10426843527E-01
1.12000000000E+09 -5.27349729789E-01 +7.96034387852E-01 +2.17416036298E-05 -2.08609673428E-05 +1.21592968820E-06 -1.41286990411E-05 -6.63560009167E-01 +7.14116816434E-01
1.12500000000E+09 -5.18827808165E-01 +8.00248303347E-01 +1.88683264336E-05 -1.06620998828E-06 -1.74724505844E-05 -2.29306215274E-06 -6.59283847162E-01 +7.17939217295E-01
1.13000000000E+09 -5.11449409510E-01 +8.04137710076E-01 +1.28287075292E-05 -1.05623515587E-05 -1.41751118667E-05 +4.48216505580E-05 -6.55153250014E-01 +7.21768914355E-01
1.13500000000E+09 -5.05398785867E-01 +8.07357815485E-01 -7.60675047301E-06 -1.68450478038E-05 +3.53200713010E-05 +5.05807298823E-06 -6.50679225859E-01 +7.25572272015E-01
1.14000000000E+09 -5.00581521675E-01 +8.09979853629E-01 +1.24718126424E-05 -1.00370893796E-05 +7.64926376181E-05 -1.67941035123E-05 -6.45829955261E-01 +7.28951299613E-01
1.14500000000E+09 -4.97164175005E-01 +8.11842634268E-01 +2.99777564360E-05 -3.58632703036E-05 +6.51873326504E-06 -3.59010228887E-06 -6.41250560540E-01 +7.32366641821E-01
1.15000000000E+09 -4.94253850025E-01 +8.13245944158E-01 +4.62417415619E-06 -2.71062072078E-05 -7.25105591176E-05 -1.09170189393E-05 -6.36632043626E-01 +7.36193696400E-01
1.15500000000E+09 -4.91062713386E-01 +8.14946143995E-01 -2.64840931108E-06 -2.67237664308E-05 +4.48474363415E-05 +1.08597926935E-05 -6.31798954666E-01 +7.40230270222E-01
1.16000000000E+09 -4.86871758629E-01 +8.16632592321E-01 +3.39749555659E-05 +2.76624016614E-05 -3.05653025649E-05 -1.90833107949E-05 -6.26973492826E-01 +7.43864978654E-01
1.16500000000E+09 -4.81174241683E-01 +8.19223066464E-01 +1.05189314563E-05 -2.08837926193E-05 +7.25940950654E-06 +2.77393851551E-05 -6.21879534264E-01 +7.47505517083E-01
1.17000000000E+09 -4.74018052638E-01 +8.22099854244E-01 -7.00287897880E-07 +1.69716506934E-05 +7.27108109704E-05 -7.88191534876E-06 -6.16480564478E-01 +7.50801253754E-01
1.17500000000E+09 -4.65715074609E-01 +8.25353741890E-01 +3.68942897963E-05 +1.17557344165E-05 +5.20546674741E-06 -4.59183837112E-05 -6.10714869522E-01 +7.54056376403E-01
1.18000000000E+09 -4.57246057274E-01 +8.28909706025E-01 +3.06014374973E-05 -5.87213806968E-05 +5.73490294679E-05 -6.83893852050E-06 -6.05038308558E-01 +7.57158025810E-01
1.18500000000E+09 -4.48922277732E-01 +8.32237783330E-01 +2.58718246192E-05 -3.99092114920E-05 +3.45193591310E-05 +2.62041039797E-06 -5.99197617314E-01 +7.60177323940E-01
1.19000000000E+09 -4.41713975454E-01 +8.35046884554E-01 +5.86820940439E-05 -2.63272581736E-05 +7.50649599153E-05 -4.30227143059E-05 -5.92808150993E-01 +7.62910461598E-01
1.19500000000E+09 -4.35689475596E-01 +8.37293123199E-01 +7.63435481261E-05 -6.57012681306E-05 +9.68181523556E-05 -7.93056830923E-05 -5.86918981988E-01 +7.63983008560E-01
1.20000000000E+09 -4.31173561276E-01 +8.38293913672E-01 +8.37069757102E-05 -1.49437818270E-04 +6.03605132794E-05 -1.47318804456E-04 -5.82523863725E-01 +7.64295804060E-01
1.20500000000E+09 -4.27331145469E-01 +8.39469634606E-01 +5.95484503900E-05 -1.31123496395E-04 +4.09919144687E-05 -9.17713790330E-05 -5.80289644454E-01 +7.65216687257E-01
1.21000000000E+09 -4.23338544474E-01 +8.40548999837E-01 -1.95631990187E-05 -9.71643694897E-05 +5.02409157949E-06 -1.11723604420E-04 -5.78333629769E-01 +7.68270204058E-01
1.21500000000E+09 -4.18120407842E-01 +8.42037312825E-01 +5.83213143143E-06 -8.74631512835E-05 -7.04370563759E-06 -9.61129514882E-05 -5.75601927487E-01 +7.72684147547E-01
1.22000000000E+09 -4.11022770226E-01 +8.43797958036E-01 -4.93242641375E-05 -7.22131843670E-05 +2.64658807303E-05 -8.21310425691E-05 -5.71367242244E-01 +7.78148197744E-01
1.22500000000E+09 -4.02000353814E-01 +8.46137250199E-01 +8.14673698063E-05 -2.20227366871E-05 +2.81475441317E-05 -8.85110126326E-05 -5.66250321628E-01 +7.83389261560E-01
1.23000000000E+09 -3.91422088305E-01 +8.49213519435E-01 -1.54205563736E-05 -7.45947032346E-05 -2.45506831691E-05 -3.07819986976E-05 -5.60524597324E-01 +7.88007818200E-01
1.23500000000E+09 -3.80352690161E-01 +8.52782649693E-01 +7.70787691974E-06 -1.06804081820E-04 -2.78238222876E-05 +2.12055285137E-05 -5.54842165108E-01 +7.92193029759E-01
1.24000000000E+09 -3.69050597973E-01 +8.56690828731E-01 -2.17994954949E-05 -8.29995025904E-05 -3.58557449849E-05 -1.10469312571E-04 -5.48604860512E-01 +7.96120821217E-01
1.24500000000E+09 -3.58989211589E-01 +8.60635610085E-01 +1.03865369640E-05 -7.46181673226E-05 -3.00869126729E-05 -1.09929885421E-04 -5.42354825506E-01 +7.99953356852E-01
1.25000000000E+09 -3.50468521021E-01 +8.64064731254E-01 -5.84174445166E-05 -9.13594318590E-05 -6.69718580105E-05 -1.14307024826E-04 -5.35799137032E-01 +8.04168499476E-01
1.25500000000E+09 -3.43756088051E-01 +8.66692186417E-01 -7.69038576678E-05 -6.54318132958E-05 -9.14401063964E-05 -1.27433992826E-04 -5.28891793486E-01 +8.08130670179E-01
1.26000000000E+09 -3.38520554349E-01 +8.68572303636E-01 -5.05046323587E-05 -8.75745261690E-05 -4.04847052716E-05 -1.29141361840E-04 -5.22244609885E-01 +8.12478163758E-01
1.26500000000E+09 -3.34151920217E-01 +8.69935005754E-01 -1.14445639840E-04 -5.44141059854E-05 -1.10273911591E-04 -8.70213603791E-05 -5.15115347697E-01 +8.16376164318E-01
1.27000000000E+09 -3.29720954419E-01 +8.70979273757E-01 -4.65510313292E-05 -7.77127599508E-05 -9.13849227040E-05 -8.22367182822E-05 -5.08245895955E-01 +8.20220017312E-01
1.27500000000E+09 -3.23909759973E-01 +8.72036141325E-01 -1.34655105919E-04 -6.63544885910E-05 -1.16300563138E-04 -1.08372739302E-04 -5.01321748654E-01 +8.23783262308E-01
1.28000000000E+09 -3.16120300580E-01 +8.73638594083E-01 -1.31234508087E-04 -6.78527185137E-05 -1.37654317541E-04 -3.90507607966E-05 -4.94248717563E-01 +8.27252081228E-01
1.28500000000E+09 -3.06081710383E-01 +8.75539984738E-01 -1.68803248357E-04 -4.32342908409E-05 -1.60859044250E-04 -7.20860139101E-05 -4.86902866738E-01 +8.30886087488E-01
1.29000000000E+09 -2.94280387134E-01 +8.78196151504E-01 -1.73858945380E-04 -3.94686009346E-05 -2.19543702221E-04 -2.52545987026E-05 -4.79349999163E-01 +8.34742162992E-01
1.29500000000E+09 -2.81496735639E-01 +8.81367063750E-01 -1.94737191475E-04 -6.43052761741E-05 -2.22289987375E-04 +7.17086674860E-07 -4.71343996890E-01 +8.38196932852E-01
1.30000000000E+09 -2.68765898800E-01 +8.84811080850E-01 -1.96906151741E-04 +4.65905856911E-06 -2.14686132110E-04 +4.96978960708E-07 -4.63468152946E-01 +8.41743204759E-01
1.30500000000E+09 -2.56900737911E-01 +8.87951053169E-01 -2.25371494274E-04 +3.89409140795E-05 -1.82733299192E-04 +2.07425372615E-05 -4.55385277174E-01 +8.45129538224E-01
1.31000000000E+09 -2.46843700891E-01 +8.90260271818E-01 -1.94438424939E-04 +6.76378170897E-05 -2.23731088366E-04 +5.07616806735E-05 -4.47160987676E-01 +8.48599104230E-01
1.31500000000E+09 -2.39177338048E-01 +8.91992248764E-01 -1.75127097597E-04 +8.40470509031E-05 -1.78772253926E-04 +1.30825365488E-04 -4.38384659231E-01 +8.51899109494E-01
1.32000000000E+09 -2.33134929416E-01 +8.92986563683E-01 -1.94032810921E-04 +7.59875008880E-05 -1.70696377261E-04 +5.14116743747E-05 -4.29200624915E-01 +8.55354696107E-01
1.32500000000E+09 -2.27843859291E-01 +8.93510100096E-01 -2.01677585214E-04 +5.94889248183E-05 -2.07251955061E-04 +1.09834388911E-04 -4.19599171345E-01 +8.58825986214E-01
1.33000000000E+09 -2.21647883344E-01 +8.93337110199E-01 -2.55639772917E-04 +1.41294200186E-04 -1.82861635308E-04 +1.74797934365E-04 -4.09896985828E-01 +8.62153879396E-01
1.33500000000E+09 -2.13720271154E-01 +8.92790855015E-01 -2.16575365452E-04 +1.72431753710E-04 -1.95671931572E-04 +1.82963116067E-04 -4.00020591659E-01 +8.65385759215E-01
1.34000000000E+09 -2.02939659265E-01 +8.92464020361E-01 -1.53522625021E-04 +1.87879565515E-04 -1.65029805257E-04 +2.15043609812E-04 -3.89741672412E-01 +8.68644767257E-01
1.34500000000E+09 -1.89467492206E-01 +8.92004288897E-01 -7.05567912498E-05 +2.11598383854E-04 -1.21580427603E-04 +2.24158069671E-04 -3.78889924737E-01 +8.71991019738E-01
1.35000000000E+09 -1.73703025862E-01 +8.92020762841E-01 -1.12689960774E-04 +2.29653057374E-04 -1.40174676629E-04 +2.04836936957E-04 -3.67711721322E-01 +8.75265346939E-01
1.35500000000E+09 -1.56252885594E-01 +8.92261067420E-01 -9.90959160709E-05 +2.51981977752E-04 -1.26925369756E-04 +1.94765143291E-04 -3.56150580893E-01 +8.77859198469E-01
1.36000000000E+09 -1.38892417785E-01 +8.92541030753E-01 -1.04085003785E-04 +2.78203688291E-04 -1.17285926403E-04 +2.81223861799E-04 -3.44267466568E-01 +8.80713210685E-01
1.36500000000E+09 -1.22446537345E-01 +8.92916969445E-01 -1.00128485111E-04 +3.49628090494E-04 -5.53599101876E-05 +2.85680487080E-04 -3.32084651437E-01 +8.83199778331E-01
1.37000000000E+09 -1.07956123551E-01 +8.92979970069E-01 -5.31312256713E-05 +3.30863770002E-04 -8.93559987568E-05 +3.14667648741E-04 -3.19173069114E-01 +8.85434859823E-01
1.37500000000E+09 -9.58421944803E-02 +8.93039817310E-01 -5.42114968761E-05 +4.74831219896E-04 -1.04797121459E-04 +4.18412907165E-04 -3.05500797652E-01 +8.87808133663E-01
1.38000000000E+09 -8.54317734394E-02 +8.92371233910E-01 +5.33385152630E-05 +4.64600845043E-04 +4.42241738051E-05 +5.14298949542E-04 -2.90828843448E-01 +8.89948968665E-01
1.38500000000E+09 -7.51321840685E-02 +8.91224899132E-01 +1.85505245126E-04 +4.11355640599E-04 +1.61993249026E-04 +5.14787523664E-04 -2.75349062333E-01 +8.91832244500E-01
1.39000000000E+09 -6.42413728655E-02 +8.89382148552E-01 +2.17650352102E-04 +4.36909053617E-04 +2.11292453243E-04 +4.66096856240E-04 -2.59353909413E-01 +8.93307860803E-01
1.39500000000E+09 -5.10344093486E-02 +8.86554180018E-01 +2.49624446988E-04 +4.24927422194E-04 +3.46262669742E-04 +4.33581316604E-04 -2.42489132812E-01 +8.94147307986E-01
1.40000000000E+09 -3.46873447587E-02 +8.82589036578E-01 +3.10459508268E-04 +3.65317473555E-04 +3.89841153770E-04 +3.78314122193E-04 -2.24888275552E-01 +8.94645761428E-01
1.40500000000E+09 -1.59093140657E-02 +8.77834731697E-01 +3.81911494146E-04 +2.71799143600E-04 +4.04458730951E-04 +2.32607852532E-04 -2.06030968329E-01 +8.94586696365E-01
1.41000000000E+09 +5.43413682892E-03 +8.72224347990E-01 +2.86694429077E-04 +2.66199136501E-04 +2.89582421690E-04 +2.41918498181E-04 -1.85690823843E-01 +8.93866800308E-01
1.41500000000E+09 +2.83303630034E-02 +8.65945548709E-01 +3.46348413017E-04 +2.56064760342E-04 +3.11381909303E-04 +3.09764344195E-04 -1.64065526470E-01 +8.92260851792E-01
1.42000000000E+09 +5.13545105180E-02 +8.59325523675E-01 +4.05934821392E-04 +3.37220246955E-04 +4.04875651768E-04 +3.88041498552E-04 -1.41219673745E-01 +8.89503253707E-01
1.42500000000E+09 +7.38178827450E-02 +8.51962727817E-01 +5.17772007757E-04 +2.64104894300E-04 +5.82926976197E-04 +2.45411731353E-04 -1.17573694120E-01 +8.85913595467E-01
1.43000000000E+09 +9.49325430748E-02 +8.44005632767E-01 +5.19820093659E-04 +1.53284342848E-04 +5.76134445646E-04 +1.21787275591E-04 -9.24761133399E-02 +8.81279012791E-01
1.43500000000E+09 +1.14875882959E-01 +8.34731872866E-01 +5.12105377798E-04 +2.24533143690E-04 +5.52659711163E-04 +1.11923828963E-04 -6.60693754077E-02 +8.74530392091E-01
1.44000000000E+09 +1.34630593174E-01 +8.24265527039E-01 +5.51381153824E-04 +8.17268981083E-05 +5.82356498388E-04 +6.13368623385E-05 -3.78625253067E-02 +8.65619752276E-01
1.44500000000E+09 +1.55630980431E-01 +8.11272314581E-01 +5.23719278568E-04 +1.32717356237E-04 +5.50737840756E-04 +1.53571825204E-04 -8.09524774158E-03 +8.54041345684E-01
1.45000000000E+09 +1.78490528371E-01 +7.94733068220E-01 +6.18224451083E-04 +2.08260107648E-04 +6.32843835084E-04 +1.73389522758E-04 +2.36268176491E-02 +8.39880681634E-01
1.45500000000E+09 +2.04225584983E-01 +7.73961115379E-01 +7.84442753902E-04 +2.48749715348E-04 +7.95531937747E-04 +1.67160885914E-04 +5.72761621503E-02 +8.22386502861E-01
1.46000000000E+09 +2.33005524281E-01 +7.48435665955E-01 +9.16294288845E-04 +2.55001061770E-04 +9.02277349932E-04 +1.25807264498E-04 +9.23704013258E-02 +8.00263626608E-01
1.46500000000E+09 +2.64063588224E-01 +7.18037813569E-01 +1.23423449194E-03 +2.45932384899E-04 +1.06269605650E-03 +1.36800439956E-04 +1.27911040943E-01 +7.73415124493E-01
1.47000000000E+09 +2.96475939682E-01 +6.82271712569E-01 +1.67528839032E-03 +1.39298940096E-04 +1.51703110300E-03 +1.08540210378E-04 +1.64983044277E-01 +7.40488541566E-01
1.47500000000E+09 +3.28499737102E-01 +6.40846172851E-01 +1.98890685402E-03 -5.43820002794E-04 +1.87065812616E-03 -4.79275892116E-04 +2.03058567489E-01 +7.00006700664E-01
1.48000000000E+09 +3.57667728152E-01 +5.93935455507E-01 +1.89184379249E-03 -9.21429099174E-04 +1.99455511939E-03 -9.21351033631E-04 +2.40585983603E-01 +6.50177040051E-01
1.48500000000E+09 +3.82647431683E-01 +5.41058801749E-01 +2.09660524113E-03 -1.48761665013E-03 +2.12153364339E-03 -1.58030606829E-03 +2.75159455380E-01 +5.90783067413E-01
1.49000000000E+09 +4.01350055255E-01 +4.81797159980E-01 +1.86187271138E-03 -2.10647231145E-03 +1.76128410889E-03 -2.22422749547E-03 +3.03512636863E-01 +5.20488165821E-01
1.49500000000E+09 +4.13115184013E-01 +4.15440697496E-01 +1.97600950290E-03 -2.73042897914E-03 +1.78417628820E-03 -2.67333637894E-03 +3.22643272181E-01 +4.40520291419E-01
1.50000000000E+09 +4.15126774657E-01 +3.39578115736E-01 +1.46313263126E-03 -4.17124825835E-03 +1.40825156397E-03 -3.92535754825E-03 +3.28677945255E-01 +3.49856345985E-01
1.50500000000E+09 +4.04097948480E-01 +2.55535592050E-01 -3.04815012554E-05 -5.04523162058E-03 +1.36970942349E-04 -4.89052745499E-03 +3.16682401812E-01 +2.51417318217E-01
1.51000000000E+09 +3.77111347348E-01 +1.65403211053E-01 -1.75417043971E-03 -5.26192989018E-03 -1.46915633768E-03 -5.32918248744E-03 +2.83232231891E-01 +1.50366329150E-01
1.51500000000E+09 +3.31317022672E-01 +7.43918965130E-02 -3.66443954514E-03 -5.02044374553E-03 -3.54918670469E-03 -5.20688436046E-03 +2.27982093913E-01 +5.21084210119E-02
1.52000000000E+09 +2.66712180410E-01 -1.14865154672E-02 -5.38661226796E-03 -3.20490484503E-03 -5.41442928713E-03 -3.31819014770E-03 +1.49304512535E-01 -3.47959990297E-02
1.52500000000E+09 +1.83139054316E-01 -8.53526953581E-02 -5.64300915797E-03 -1.71464884225E-03 -5.67017354198E-03 -1.77222540983E-03 +5.25681672845E-02 -1.01774090515E-01
1.53000000000E+09 +8.36702096913E-02 -1.39759625855E-01 -6.09931867602E-03 -4.03493806894E-04 -6.12857504571E-03 -4.18639757831E-04 -5.49130057373E-02 -1.45839190395E-01
1.53500000000E+09 -2.57662769256E-02 -1.69026971913E-01 -6.17118653934E-03 +1.41758895993E-03 -6.21806242565E-03 +1.43805960757E-03 -1.67499788261E-01 -1.65107131358E-01
1.54000000000E+09 -1.37429833966E-01 -1.70628062130E-01 -5.72018793991E-03 +2.85627477843E-03 -5.63747327382E-03 +2.84069037555E-03 -2.75617104484E-01 -1.60083685671E-01
1.54500000000E+09 -2.42958950680E-01 -1.48190067645E-01 -4.74619439912E-03 +5.02782135144E-03 -4.78131939273E-03 +4.92283277202E-03 -3.74186806432E-01 -1.36882384670E-01
1.55000000000E+09 -3.39612740145E-01 -1.06730796053E-01 -2.36577129022E-03 +5.82488033286E-03 -2.55258036820E-03 +5.77988871908E-03 -4.59468603906E-01 -9.82978906442E-02
1.55500000000E+09 -4.21747401093E-01 -5.04565079206E-02 -7.10274417121E-04 +5.60650817164E-03 -9.13978649054E-04 +5.66453369841E-03 -5.29782900939E-01 -5.05868522174E-02
1.56000000000E+09 -4.87432922318E-01 +1.19173661444E-02 +7.28215350302E-04 +5.44361631306E-03 +5.74962059372E-04 +5.68292612296E-03 -5.86467981162E-01 +2.37376070005E-03
1.56500000000E+09 -5.39065058478E-01 +7.44390445715E-02 +2.23416322516E-03 +4.49407237226E-03 +2.24978589258E-03 +4.76515537822E-03 -6.30708238734E-01 +5.81416904646E-02
1.57000000000E+09 -5.79104277834E-01 +1.35508757049E-01 +2.93042943499E-03 +3.03729484918E-03 +3.12458080908E-03 +3.26723263112E-03 -6.63933316198E-01 +1.13021697797E-01
