# Hz S RI R 50
! CMT, C1220, 16058040, 17.2.0/1
! Date: 14/08/2018 12:21:53
! Data: Format (Calibration Info)
! Freq                      S11: Re/Im (F2)                       S21: Re/Im (F2)                       S12: Re/Im (F2)                       S22: Re/Im (F2)            
1.00000000000E+09 -6.45041134386E-01 +7.15826075345E-01 -2.00655747790E-05 +1.44352925841E-05 -3.01102205796E-05 +1.01459241464E-05 -7.48106974755E-01 +6.24140826706E-01
1.00500000000E+09 -6.37706741598E-01 +7.20954483295E-01 +2.66286325434E-05 +2.63327452584E-05 -5.13653099626E-05 +9.00893712041E-06 -7.44531445066E-01 +6.28144370404E-01
1.01000000000E+09 -6.31950173224E-01 +7.25475629632E-01 +6.71152206307E-06 +5.18856873407E-05 +6.37073577564E-05 -1.03289108445E-05 -7.40956610668E-01 +6.31813400589E-01
1.01500000000E+09 -6.27713783377E-01 +7.29329135360E-01 +1.78162529899E-05 +4.79145926275E-06 +7.10313249322E-06 +2.59622469914E-05 -7.37683153415E-01 +6.35570968085E-01
1.02000000000E+09 -6.25157982795E-01 +7.32530547792E-01 +2.04365632118E-05 -2.13333921149E-05 +9.44138027136E-06 -1.58926255379E-05 -7.34303011036E-01 +6.38995617566E-01
1.02500000000E+09 -6.23466464991E-01 +7.35100089219E-01 -1.31122983549E-05 -2.53381555519E-05 -4.29599267359E-05 -8.73088710247E-07 -7.31325047868E-01 +6.42666237719E-01
1.03000000000E+09 -6.22401867650E-01 +7.37416051378E-01 -3.68781096669E-07 +1.60601254925E-05 +2.17818400009E-05 -2.78422804672E-05 -7.27809852663E-01 +6.46498422146E-01
1.03500000000E+09 -6.20228494898E-01 +7.39560349111E-01 +3.45179482962E-05 +3.85601268575E-05 +9.71752451113E-06 -2.20433659719E-06 -7.24028714036E-01 +6.50362261724E-01
1.04000000000E+09 -6.16918282447E-01 +7.42335188017E-01 +3.13372473730E-05 +2.75644952269E-05 -1.78159972573E-06 +2.19824086801E-05 -7.20249199225E-01 +6.54037636726E-01
1.04500000000E+09 -6.11827214483E-01 +7.45780262294E-01 -4.22254873111E-06 +1.34176694401E-05 +1.27392786799E-05 -1.52890233073E-05 -7.16863143872E-01 +6.57542538947E-01
1.05000000000E+09 -6.04484323746E-01 +7.49917858515E-01 -3.36597751522E-06 -6.26168847496E-06 -4.59118007616E-06 +4.24881142021E-06 -7.13358203004E-01 +6.60986688146E-01
1.05500000000E+09 -5.95867501247E-01 +7.54612339095E-01 +5.85028377282E-06 +1.11846055894E-06 -5.24643557810E-06 +1.68016390180E-05 -7.09961053149E-01 +6.64516896567E-01
1.06000000000E+09 -5.86390320282E-01 +7.59694347983E-01 -2.95952209180E-05 -2.23958970690E-05 +4.88983900987E-06 -2.35155879244E-05 -7.06938172137E-01 +6.68213825722E-01
1.06500000000E+09 -5.77342218092E-01 +7.64772482060E-01 +6.46544872058E-06 +3.23674965247E-05 -3.66064557317E-05 -5.82467987826E-05 -7.03021787700E-01 +6.71983466091E-01
1.07000000000E+09 -5.69294084668E-01 +7.69150475122E-01 -6.97088918826E-07 +4.82364297037E-05 +2.31748088224E-05 +3.56391989368E-05 -6.98896248122E-01 +6.75775835131E-01
1.07500000000E+09 -5.62968647355E-01 +7.73221973015E-01 +3.69570164019E-05 +5.20344124181E-06 +9.97368727406E-06 +1.41644018733E-05 -6.94674963046E-01 +6.79387888430E-01
1.08000000000E+09 -5.58710277515E-01 +7.76392284146E-01 +1.93847085696E-05 +9.20266547597E-06 +5.81556398562E-05 +1.32844841313E-05 -6.90712749619E-01 +6.83155058221E-01
1.08500000000E+09 -5.55941304236E-01 +7.78829880672E-01 +4.13231365221E-05 -1.67901892653E-05 -7.81983852028E-06 +2.89532959492E-05 -6.86840738761E-01 +6.86845476796E-01
1.09000000000E+09 -5.53692639581E-01 +7.80995173904E-01 +4.47438949673E-05 +2.66523516754E-05 +3.60263694999E-05 -8.22829616276E-06 -6.82987559429E-01 +6.90580215678E-01
1.09500000000E+09 -5.52205250908E-01 +7.82731533925E-01 +5.71476732314E-06 +1.30751900053E-05 -1.95177786531E-05 +4.34931832745E-05 -6.79187707960E-01 +6.94394599043E-01
1.10000000000E+09 -5.49168131566E-01 +7.84801096876E-01 +2.22234674717E-05 -2.59116995991E-05 +1.20876087554E-05 -4.06055321504E-05 -6.75122503880E-01 +6.98312067369E-01
1.10500000000E+09 -5.45036581099E-01 +7.87338900780E-01 -1.40254973897E-05 -1.33337339592E-05 +8.70981800840E-06 +1.88655602870E-05 -6.70786482404E-01 +7.02037552019E-01
1.11000000000E+09 -5.39179855821E-01 +7.90580918312E-01 +3.50206869367E-05 -1.03177795714E-05 +5.72968982647E-05 -2.46147416221E-05 -6.66624076084E-01 +7.05161721751E-01
1.11500000000E+09 -5.31909303697E-01 +7.94352767902E-01 -4.38044683868E-06 +1.36289122899E-05 +3.40558244993E-05 +1.28735564340E-05 -6.62551788638E-01 +7.08529807772E-01
1.12000000000E+09 -5.24119478088E-01 +7.98282756971E-01 -4.50666112758E-06 -5.24314814499E-05 +2.70767244901E-06 -4.94888828276E-05 -6.58665373526E-01 +7.12251514394E-01
1.12500000000E+09 -5.15961448907E-01 +8.02452894102E-01 -6.64173852026E-06 -1.97497551142E-05 +1.81119899531E-05 +2.40951066103E-05 -6.54266002491E-01 +7.16125143194E-01
1.13000000000E+09 -5.08394849455E-01 +8.06095757428E-01 -1.19340120868E-05 -3.94031059179E-05 +2.08248054018E-05 -4.64025898410E-05 -6.50082056814E-01 +7.19771403033E-01
1.13500000000E+09 -5.01890830397E-01 +8.08979160769E-01 -2.35460401410E-05 -1.61019010599E-05 +7.22736364066E-06 -2.27923671079E-05 -6.45557529180E-01 +7.23573710209E-01
1.14000000000E+09 -4.96669552796E-01 +8.11428004872E-01 -1.81116055266E-05 -1.92325982553E-05 -2.44652277977E-06 -1.36261110659E-05 -6.40812611253E-01 +7.26993276523E-01
1.14500000000E+09 -4.92505710797E-01 +8.13090283119E-01 -2.19890214069E-06 -1.23545632539E-05 +5.42804582320E-05 -6.45638000609E-05 -6.36227089171E-01 +7.30444673598E-01
1.15000000000E+09 -4.88758354537E-01 +8.14563462162E-01 -2.03182936093E-06 -6.82575947340E-05 -2.46610384916E-05 +1.60598186991E-05 -6.31708730141E-01 +7.34092829094E-01
1.15500000000E+09 -4.85065344404E-01 +8.16244666087E-01 +2.50236452609E-05 -4.31107286289E-06 -9.17851752446E-06 -7.37766308021E-05 -6.26789158693E-01 +7.37887127518E-01
1.16000000000E+09 -4.80179566195E-01 +8.18102195781E-01 +2.17129575138E-05 +4.57963966363E-06 +1.03277862847E-06 -1.19377614787E-05 -6.22135317537E-01 +7.41749736632E-01
1.16500000000E+09 -4.74207284666E-01 +8.20659176964E-01 -1.80105893030E-05 -2.14234605453E-05 +1.95808927447E-05 -6.40057033045E-05 -6.16935213646E-01 +7.45252982784E-01
1.17000000000E+09 -4.67118157550E-01 +8.23642287570E-01 +8.70530450310E-06 -4.51959109439E-05 -9.68275190414E-06 -8.37629869117E-05 -6.11497540533E-01 +7.48643408133E-01
1.17500000000E+09 -4.59123821751E-01 +8.26978376446E-01 -3.75243629818E-05 -3.24817556817E-05 +3.43171304518E-05 -1.38679493917E-05 -6.05721080915E-01 +7.51834271934E-01
1.18000000000E+09 -4.50885887752E-01 +8.30498936953E-01 -5.04019788121E-05 -4.97160779978E-05 +2.85880943791E-05 -7.75077775067E-05 -6.00147111946E-01 +7.54884950066E-01
1.18500000000E+09 -4.42950084032E-01 +8.33804732301E-01 -4.52700391472E-05 -2.53254667568E-05 -3.07980722421E-05 -5.10696066795E-05 -5.94367314862E-01 +7.57909283669E-01
1.19000000000E+09 -4.35698565581E-01 +8.36444297198E-01 -3.65857157865E-05 -4.35861043850E-05 -2.57370199609E-05 -1.23970194138E-04 -5.88239191248E-01 +7.60517098570E-01
1.19500000000E+09 -4.29621324437E-01 +8.38473813597E-01 -6.01330341729E-05 -5.09197484741E-05 -4.34912729465E-05 -1.08343225444E-04 -5.82403451793E-01 +7.61830667663E-01
1.20000000000E+09 -4.24652345463E-01 +8.39368967176E-01 -9.89447893941E-05 -3.65020579015E-05 -9.54150061413E-05 +1.62820337173E-05 -5.77934375776E-01 +7.61931113449E-01
1.20500000000E+09 -4.20284021617E-01 +8.40425815292E-01 -2.61178076992E-05 +2.75668193363E-05 -6.39501583778E-05 +3.13113867579E-05 -5.75559713133E-01 +7.62920209812E-01
1.21000000000E+09 -4.15617153820E-01 +8.41380721196E-01 -3.58469980861E-05 +2.03994277121E-05 -6.96286788881E-05 -1.84628578155E-06 -5.73499309268E-01 +7.65988822733E-01
1.21500000000E+09 -4.09593020819E-01 +8.42733609171E-01 -4.68101521682E-05 +4.64572945183E-05 -5.61402867825E-05 -1.24147049994E-05 -5.70749011848E-01 +7.70426567797E-01
1.22000000000E+09 -4.02017670377E-01 +8.44460543288E-01 +1.78870043421E-06 +9.89281233392E-06 -2.59550579833E-05 +4.95699746343E-05 -5.66723657187E-01 +7.75629459605E-01
1.22500000000E+09 -3.92811009053E-01 +8.46788078692E-01 -2.06354723361E-05 +2.56514892642E-05 -1.70289485114E-05 -1.92015433583E-05 -5.61631651033E-01 +7.80704608914E-01
1.23000000000E+09 -3.82126793138E-01 +8.49720218966E-01 -2.06185789380E-05 -1.47744427634E-05 +1.13162873648E-05 -1.94188407065E-05 -5.55947581319E-01 +7.85428062529E-01
1.23500000000E+09 -3.71176179077E-01 +8.53128429796E-01 -3.11678714489E-05 -3.86223719021E-06 -2.37870216922E-05 +6.49041385763E-05 -5.50180992811E-01 +7.89751752589E-01
1.24000000000E+09 -3.60118790119E-01 +8.56841477494E-01 +1.15171108452E-05 +1.89504603456E-05 -2.17633115645E-05 -3.00856138561E-07 -5.44061778898E-01 +7.93344495979E-01
1.24500000000E+09 -3.50408825976E-01 +8.60595103918E-01 -1.40245848263E-05 -1.03148558510E-05 +4.47544933201E-06 -2.70353957999E-05 -5.37879914864E-01 +7.97209228515E-01
1.25000000000E+09 -3.41717159706E-01 +8.63789040868E-01 -3.11078709133E-05 +3.31038185811E-06 -6.24323011614E-05 -1.10427046523E-05 -5.31236109942E-01 +8.01529003035E-01
1.25500000000E+09 -3.35051710806E-01 +8.66126054913E-01 -2.79919858325E-05 -2.87795433047E-05 -5.83646075802E-05 -5.27637430225E-06 -5.24377123046E-01 +8.05473665225E-01
1.26000000000E+09 -3.29377156749E-01 +8.67949758766E-01 -4.68597818315E-05 -2.28414365229E-05 -7.02626126767E-05 -2.38653607801E-05 -5.17673628767E-01 +8.09770786009E-01
1.26500000000E+09 -3.24522433742E-01 +8.69101460790E-01 -8.10028887620E-05 +1.40046037958E-05 -8.81665122112E-05 +1.84439456527E-06 -5.10704044513E-01 +8.13446824264E-01
1.27000000000E+09 -3.19300842324E-01 +8.70068646281E-01 -7.08499201973E-05 +3.24403703856E-05 -6.02289062372E-05 +3.58127086222E-05 -5.04057974302E-01 +8.17363313338E-01
1.27500000000E+09 -3.13063767565E-01 +8.71018454432E-01 -5.70366034514E-05 -6.75616456271E-06 -4.70779873039E-05 +1.91108379048E-05 -4.96950167821E-01 +8.20824933111E-01
1.28000000000E+09 -3.04821531714E-01 +8.72324437151E-01 -7.50250697619E-05 +1.85233306881E-06 -6.86869475771E-05 +5.56447187005E-05 -4.90052407108E-01 +8.24365739843E-01
1.28500000000E+09 -2.94387496895E-01 +8.74076221982E-01 -4.74216910200E-05 +2.90593089058E-05 -1.18431853482E-04 +7.24647739949E-05 -4.82531940202E-01 +8.27866584442E-01
1.29000000000E+09 -2.82769915755E-01 +8.76467187465E-01 -6.47213703686E-05 +4.28067826205E-05 -7.86073105008E-05 +5.29514969334E-05 -4.75055233975E-01 +8.31499897366E-01
1.29500000000E+09 -2.70296166990E-01 +8.79357477857E-01 -6.50853462860E-05 +6.06885533608E-05 -5.27383974853E-05 +8.63879379075E-05 -4.67149548987E-01 +8.35210006157E-01
1.30000000000E+09 -2.57831274446E-01 +8.82531573790E-01 -5.57604471223E-05 +6.21655685381E-05 -4.59169565041E-05 +8.90826771941E-05 -4.59438619314E-01 +8.38532945238E-01
1.30500000000E+09 -2.46397046820E-01 +8.85572706189E-01 -7.36860230229E-05 +6.36048011377E-05 -8.04221278695E-05 +1.05439162599E-04 -4.51534857861E-01 +8.41885338442E-01
1.31000000000E+09 -2.36446722980E-01 +8.87804579335E-01 -1.28266815136E-05 +1.22584435765E-04 +3.86330816650E-06 +8.79882599826E-05 -4.43047327844E-01 +8.45296205847E-01
1.31500000000E+09 -2.28447082860E-01 +8.89295525886E-01 +3.68786147797E-05 +9.64982897512E-05 +2.94188550840E-05 +8.55458246742E-05 -4.34433027889E-01 +8.48720324491E-01
1.32000000000E+09 -2.21892426255E-01 +8.89901912740E-01 -2.33411819765E-05 +9.12550187400E-05 -1.97841539570E-05 +7.39889284479E-05 -4.25365173030E-01 +8.52099399501E-01
1.32500000000E+09 -2.15954939162E-01 +8.89768564918E-01 -8.44010433611E-07 +8.11962483076E-05 -1.72781142139E-05 +8.64628884171E-05 -4.15902761339E-01 +8.55680915723E-01
1.33000000000E+09 -2.09269599907E-01 +8.89173750211E-01 -6.06643305761E-07 +1.03515513838E-04 +2.14065933377E-05 +1.45464212336E-04 -4.06241240350E-01 +8.58830995202E-01
1.33500000000E+09 -2.00783004336E-01 +8.88316523352E-01 +3.65731748490E-06 +9.24334627888E-05 +3.19797268037E-05 +1.29997367331E-04 -3.96394240129E-01 +8.62121757589E-01
1.34000000000E+09 -1.89790575019E-01 +8.87662455385E-01 +4.81877500592E-05 +1.32306199543E-04 +4.86218026329E-05 +1.14322784084E-04 -3.86284961422E-01 +8.65464912696E-01
1.34500000000E+09 -1.76354388154E-01 +8.86947602550E-01 +9.26020387115E-05 +6.57384426208E-05 +8.32587688765E-05 +1.01050836760E-04 -3.75517997756E-01 +8.68741621135E-01
1.35000000000E+09 -1.60892010005E-01 +8.86843365959E-01 +6.03466214220E-05 +9.37649908292E-05 +8.13747672562E-05 +5.96898518811E-05 -3.64553671036E-01 +8.71829130606E-01
1.35500000000E+09 -1.43980742710E-01 +8.87053468375E-01 +9.03721878417E-05 +8.08307715491E-05 +1.67358323426E-05 +7.39221802603E-05 -3.52871475628E-01 +8.74677849217E-01
1.36000000000E+09 -1.27211958811E-01 +8.87630377540E-01 +8.33087273466E-05 +1.05880497888E-04 +4.86526228984E-05 +3.54229426163E-05 -3.41089509629E-01 +8.77389702363E-01
1.36500000000E+09 -1.10984930891E-01 +8.88282294990E-01 +4.42379450479E-05 +8.28043642914E-05 +4.06784904984E-05 +6.55336107172E-05 -3.28888650850E-01 +8.79770312930E-01
1.37000000000E+09 -9.63591719038E-02 +8.88273480376E-01 +9.82087400061E-05 +1.13028965266E-04 +5.74192094554E-05 +1.41542515502E-04 -3.16203554973E-01 +8.82145269444E-01
1.37500000000E+09 -8.41209009678E-02 +8.87946699541E-01 +1.13964500475E-04 +1.46452835134E-04 +4.68261844784E-05 +1.47607926298E-04 -3.02458580875E-01 +8.84433924222E-01
1.38000000000E+09 -7.31049774369E-02 +8.86978142868E-01 +1.56716384138E-04 +2.04223326376E-04 +1.53665026173E-04 +2.15247535365E-04 -2.88009586561E-01 +8.86505736741E-01
1.38500000000E+09 -6.21109693857E-02 +8.85359604455E-01 +1.87835089560E-04 +6.10326271037E-05 +2.93217280941E-04 +1.06273285640E-04 -2.72548541424E-01 +8.88452610092E-01
1.39000000000E+09 -5.04333681377E-02 +8.82866525643E-01 +2.11354545641E-04 +5.78037835489E-05 +2.45537212757E-04 +7.24879212082E-05 -2.56685336475E-01 +8.89879930364E-01
1.39500000000E+09 -3.68322307977E-02 +8.79185894982E-01 +2.65883261427E-04 -2.11041599385E-05 +3.29479551307E-04 +1.72632096329E-05 -2.39995027193E-01 +8.90753486294E-01
1.40000000000E+09 -2.04247779708E-02 +8.74761758415E-01 +2.23323130006E-04 -6.27898796731E-06 +2.38862813904E-04 -1.09874799728E-04 -2.22440924360E-01 +8.91407551372E-01
1.40500000000E+09 -1.96854887611E-03 +8.69666326946E-01 +1.90530795454E-04 -4.27268447949E-05 +1.68788019799E-04 -5.49807465302E-05 -2.03799040698E-01 +8.91276014932E-01
1.41000000000E+09 +1.86542988977E-02 +8.64209868643E-01 +2.16678081040E-04 -2.84501081123E-05 +2.08421965575E-04 -1.87322487945E-05 -1.83549294773E-01 +8.90431096890E-01
1.41500000000E+09 +4.06618673400E-02 +8.58538547305E-01 +2.32553105182E-04 -7.67823732055E-05 +1.93735237675E-04 -7.93584531293E-05 -1.61911877636E-01 +8.88914526121E-01
1.42000000000E+09 +6.35218942988E-02 +8.52390133695E-01 +2.09035068250E-04 -4.88051221438E-05 +2.86558902998E-04 -3.54865843324E-05 -1.39117193947E-01 +8.86273000132E-01
1.42500000000E+09 +8.55015704174E-02 +8.45264025455E-01 +2.79509869654E-04 -1.13725261458E-04 +2.95055581861E-04 -1.90029809740E-04 -1.15714637474E-01 +8.82623359578E-01
1.43000000000E+09 +1.06577295390E-01 +8.37120954930E-01 +2.42062820596E-04 -1.77019563590E-04 +2.16623569124E-04 -1.87647515347E-04 -9.09284371238E-02 +8.78033695232E-01
1.43500000000E+09 +1.26512286526E-01 +8.27279463255E-01 +1.69844578040E-04 -2.18488446656E-04 +1.78968534299E-04 -2.55876042038E-04 -6.46476598546E-02 +8.71440340737E-01
1.44000000000E+09 +1.46104170273E-01 +8.16227649338E-01 +1.32404487476E-04 -1.86939004089E-04 +1.35262861983E-04 -1.85765405885E-04 -3.65293976432E-02 +8.62824560453E-01
1.44500000000E+09 +1.67383748396E-01 +8.02306046856E-01 +2.16469163065E-04 -9.06391238975E-05 +1.51951158588E-04 -9.65467148888E-05 -6.67028274974E-03 +8.51402413598E-01
1.45000000000E+09 +1.90495448469E-01 +7.84885165371E-01 +2.98351037545E-04 -1.54462208762E-04 +3.14761421251E-04 -1.91488989868E-04 +2.54001852490E-02 +8.37043289838E-01
1.45500000000E+09 +2.16466045194E-01 +7.63403384435E-01 +3.01800453797E-04 -2.35273041004E-04 +2.51813342602E-04 -2.51974439784E-04 +5.88159803008E-02 +8.19417384923E-01
1.46000000000E+09 +2.45293769772E-01 +7.37303823770E-01 +3.82893576262E-04 -3.29733210915E-04 +3.36162987945E-04 -3.87136131597E-04 +9.35470239370E-02 +7.97275752490E-01
1.46500000000E+09 +2.76084538682E-01 +7.06500707051E-01 +2.67023829954E-04 -5.36192142488E-04 +2.31196688430E-04 -5.58292473287E-04 +1.29298185406E-01 +7.70930664731E-01
1.47000000000E+09 +3.08329790606E-01 +6.70920646379E-01 +3.04137254574E-04 -4.20909539119E-04 +3.03690045622E-04 -3.84660649877E-04 +1.66497055464E-01 +7.37332376137E-01
1.47500000000E+09 +3.40254831182E-01 +6.29649122921E-01 +2.81769049144E-04 -7.54529848153E-04 +3.24057857453E-04 -7.02708967304E-04 +2.03747805359E-01 +6.96478311833E-01
1.48000000000E+09 +3.69631331838E-01 +5.82709167619E-01 +1.80574139860E-04 -7.56138854109E-04 +1.93381837827E-04 -7.34165732759E-04 +2.40446328595E-01 +6.46881267211E-01
1.48500000000E+09 +3.94831694933E-01 +5.29220470261E-01 +3.25311367316E-04 -9.15105758777E-04 +2.93151919189E-04 -9.15698660455E-04 +2.74622809771E-01 +5.87904672030E-01
1.49000000000E+09 +4.14242704972E-01 +4.68535551283E-01 +2.71343530459E-04 -1.39629065211E-03 +1.78042828784E-04 -1.43677150901E-03 +3.02828600493E-01 +5.17774806274E-01
1.49500000000E+09 +4.25362531167E-01 +3.99630705150E-01 -2.06148045029E-04 -1.91489336007E-03 -2.90324684534E-04 -1.84174884204E-03 +3.20881640055E-01 +4.38020019887E-01
1.50000000000E+09 +4.25984703353E-01 +3.21953747864E-01 -1.06610151575E-03 -2.18159575897E-03 -1.01583340921E-03 -2.01870321203E-03 +3.26024834572E-01 +3.48143363904E-01
1.50500000000E+09 +4.13713860008E-01 +2.36661271415E-01 -2.15087059584E-03 -1.82932895889E-03 -1.97007566784E-03 -1.82210667165E-03 +3.13898142921E-01 +2.51556738087E-01
1.51000000000E+09 +3.85947804648E-01 +1.44911840218E-01 -2.65935006406E-03 -1.18850731319E-03 -2.55690162278E-03 -1.27939520178E-03 +2.80834929802E-01 +1.51174839877E-01
1.51500000000E+09 +3.38242877537E-01 +5.11273850834E-02 -3.32317315700E-03 -5.76818696310E-04 -3.34340285935E-03 -6.24606745425E-04 +2.25868668541E-01 +5.39409982494E-02
1.52000000000E+09 +2.69265794672E-01 -3.60336073209E-02 -3.70368350374E-03 +1.27010372515E-03 -3.77156714064E-03 +1.22997857213E-03 +1.48170773050E-01 -3.18674640203E-02
1.52500000000E+09 +1.81292619539E-01 -1.09376686487E-01 -2.24525679607E-03 +1.75585287872E-03 -2.26485610273E-03 +1.71536302171E-03 +5.16608576681E-02 -9.91494877622E-02
1.53000000000E+09 +7.65030904437E-02 -1.60803694220E-01 -2.32008174912E-03 +1.83912181671E-03 -2.37450674285E-03 +1.86286905901E-03 -5.50036467289E-02 -1.41904041584E-01
1.53500000000E+09 -3.58475822298E-02 -1.85190620720E-01 -2.49157408457E-03 +2.84118182566E-03 -2.49311120401E-03 +2.85008561948E-03 -1.66506781275E-01 -1.60978929991E-01
1.54000000000E+09 -1.48796919383E-01 -1.82509210739E-01 -1.18865527681E-03 +4.24046664605E-03 -1.21975764564E-03 +4.15033247036E-03 -2.74579159023E-01 -1.56745608864E-01
1.54500000000E+09 -2.55604157723E-01 -1.55861675128E-01 +6.73047651742E-04 +4.42983384377E-03 +5.88306157017E-04 +4.44741641627E-03 -3.72755002963E-01 -1.31989660035E-01
1.55000000000E+09 -3.51811309812E-01 -1.09964629734E-01 +2.04281047635E-03 +3.20398147702E-03 +1.93773945537E-03 +3.27942309258E-03 -4.56611311804E-01 -9.37694889078E-02
1.55500000000E+09 -4.32522245944E-01 -5.03484091116E-02 +2.19574563084E-03 +2.41999258995E-03 +2.15353395086E-03 +2.58344001384E-03 -5.26457332948E-01 -4.65299868536E-02
1.56000000000E+09 -4.96462737289E-01 +1.45826094203E-02 +2.78488423021E-03 +1.72250321299E-03 +2.80646670901E-03 +1.92105149641E-03 -5.82830083190E-01 +6.76614200286E-03
1.56500000000E+09 -5.45327723294E-01 +7.96647936396E-02 +2.90784431362E-03 +9.11047834156E-04 +3.10542225599E-03 +1.02261017775E-03 -6.26325449869E-01 +6.23427456610E-02
1.57000000000E+09 -5.81867192338E-01 +1.41828723164E-01 +2.67952658748E-03 -1.40673748363E-05 +2.91064516939E-03 -6.73378744037E-05 -6.59168020448E-01 +1.17327871660E-01
