# Hz S RI R 50
! CMT, C1220, 16058040, 17.2.0/1
! Date: 14/08/2018 12:49:01
! Data: Format (Calibration Info)
! Freq                      S11: Re/Im (F2)                       S21: Re/Im (F2)                       S12: Re/Im (F2)                       S22: Re/Im (F2)            
1.00000000000E+09 -6.52066216737E-01 +7.13079777271E-01 +1.34830823597E-05 +4.34685728856E-05 -3.80495478253E-05 +2.67250620050E-05 -7.53854630434E-01 +6.21517641350E-01
1.00500000000E+09 -6.45063988214E-01 +7.18200453791E-01 -6.09216855091E-06 -4.25872434323E-05 -3.45088574612E-05 -2.17835858857E-05 -7.50180535489E-01 +6.25623254583E-01
1.01000000000E+09 -6.39090881830E-01 +7.22700681370E-01 -1.90841279493E-05 +1.00260196115E-05 -2.38044814237E-05 +2.07671303899E-06 -7.46850963631E-01 +6.29134609879E-01
1.01500000000E+09 -6.34684779580E-01 +7.26677781199E-01 -5.34675657601E-05 +7.06933105041E-06 -2.28311574138E-05 +2.44122207389E-05 -7.43518094340E-01 +6.32800159520E-01
1.02000000000E+09 -6.31612989211E-01 +7.30013938588E-01 -4.46086401869E-06 -4.03202908763E-05 -1.37863235515E-06 +7.92504837832E-06 -7.40361938865E-01 +6.36242397459E-01
1.02500000000E+09 -6.29535539365E-01 +7.32944064538E-01 +1.29127742738E-05 +1.33025063391E-05 -1.81945899376E-05 -3.78771936162E-06 -7.37415086855E-01 +6.39922352826E-01
1.03000000000E+09 -6.28142273459E-01 +7.35491415334E-01 +1.78634207060E-06 +1.54332929520E-05 +2.41236536655E-05 -3.59362215413E-05 -7.34107888357E-01 +6.43838989379E-01
1.03500000000E+09 -6.25752380894E-01 +7.38123938206E-01 +2.71414829515E-05 +1.96222238440E-05 -3.93193172626E-05 -2.35177449467E-05 -7.30167117912E-01 +6.47861170826E-01
1.04000000000E+09 -6.22545037356E-01 +7.41146046621E-01 -2.96298127370E-05 +5.23572822706E-05 +1.18382439847E-05 +1.11798308056E-05 -7.26360111153E-01 +6.51389282778E-01
1.04500000000E+09 -6.17800540924E-01 +7.44519487091E-01 -3.44897482663E-05 +3.56827957317E-05 -6.96953924452E-06 +4.39093871894E-06 -7.23036309445E-01 +6.54916987564E-01
1.05000000000E+09 -6.11172347410E-01 +7.48673648487E-01 -1.53070581098E-05 +2.62667139790E-05 -3.55050681233E-05 +2.42657304806E-06 -7.19649303119E-01 +6.58331733582E-01
1.05500000000E+09 -6.03289134322E-01 +7.53348896774E-01 +5.71623468289E-06 +3.71252228702E-05 -6.39843599769E-06 +4.23467973607E-08 -7.16273965859E-01 +6.61874723297E-01
1.06000000000E+09 -5.94802911148E-01 +7.58327729656E-01 -1.71724609932E-07 +7.68754750151E-05 +3.45251960375E-05 -1.02981288226E-05 -7.12917867300E-01 +6.65792346149E-01
1.06500000000E+09 -5.86518583480E-01 +7.63228448375E-01 +2.64523674982E-05 +1.16537200960E-05 -3.03256559197E-05 +4.34052489404E-05 -7.09175615710E-01 +6.69548415824E-01
1.07000000000E+09 -5.79191158220E-01 +7.67691445858E-01 +1.15352726789E-05 +3.21271800228E-05 +3.90656986603E-06 +4.53326323363E-05 -7.05097414434E-01 +6.73375166329E-01
1.07500000000E+09 -5.73545804629E-01 +7.71658893769E-01 -2.92612374604E-05 +4.50950421086E-05 +9.90283783829E-07 +5.85040261923E-05 -7.00793767806E-01 +6.77255554565E-01
1.08000000000E+09 -5.69249252852E-01 +7.74833716510E-01 -5.54467310922E-05 +6.55062717007E-06 +3.22502522147E-05 +6.52669728196E-05 -6.97022512714E-01 +6.80742968924E-01
1.08500000000E+09 -5.66652094309E-01 +7.77474834581E-01 +1.27226642648E-05 +2.05620740657E-05 +8.89010629597E-06 +4.90239843681E-05 -6.93254068295E-01 +6.84528984979E-01
1.09000000000E+09 -5.64477781654E-01 +7.79652773294E-01 +2.08736091662E-05 +2.99987588558E-05 +5.29049519801E-05 +5.17990381028E-05 -6.89535878825E-01 +6.88276012329E-01
1.09500000000E+09 -5.63000543538E-01 +7.81416797510E-01 +3.81185339810E-06 +2.97391406870E-05 +1.95369148534E-05 +1.22672125362E-05 -6.85743111161E-01 +6.92225478844E-01
1.10000000000E+09 -5.60336578584E-01 +7.83582761627E-01 +1.30241179102E-05 +5.61903046313E-06 -8.84008996078E-06 +3.45685161443E-05 -6.81854239240E-01 +6.95761689118E-01
1.10500000000E+09 -5.56380774927E-01 +7.86005302610E-01 +3.92432121298E-05 -1.55405282301E-06 +2.09973928434E-05 -1.80579507715E-06 -6.77427787826E-01 +6.99431904664E-01
1.11000000000E+09 -5.51052095935E-01 +7.89265086830E-01 +4.03717813693E-05 +4.74563651179E-05 +4.45757223121E-06 +2.09422595319E-05 -6.73435160700E-01 +7.02710136524E-01
1.11500000000E+09 -5.44142130550E-01 +7.93003652401E-01 +6.88769324233E-05 +4.15725829332E-05 +3.15304999530E-05 +2.61806943400E-05 -6.69445890486E-01 +7.06046469045E-01
1.12000000000E+09 -5.36769998658E-01 +7.96966986322E-01 -1.50516188244E-06 -1.62038691084E-05 +4.29325452580E-05 +4.22510330069E-05 -6.65322941231E-01 +7.09685434020E-01
1.12500000000E+09 -5.28834149750E-01 +8.01122232231E-01 +4.90259825644E-05 +2.82314158322E-05 +6.13114628950E-05 +1.28651839024E-05 -6.61269714263E-01 +7.13705188194E-01
1.13000000000E+09 -5.21483298177E-01 +8.04754479646E-01 +2.80717196745E-05 +1.06629309162E-05 +1.68179728659E-05 +4.90168075315E-05 -6.56825321297E-01 +7.17475518330E-01
1.13500000000E+09 -5.14824788574E-01 +8.07669698223E-01 +6.62100425883E-05 +1.43716552078E-05 +5.47356394601E-05 -3.08035319747E-06 -6.52178011480E-01 +7.21329480930E-01
1.14000000000E+09 -5.09438610622E-01 +8.10354326112E-01 +6.04114982269E-05 -5.88165991775E-06 +6.39469221316E-05 -2.17050045771E-05 -6.47416194022E-01 +7.24865328409E-01
1.14500000000E+09 -5.05265173257E-01 +8.12029705267E-01 +8.22678633541E-05 +3.45803046218E-05 +3.51283527029E-05 +1.95387642154E-06 -6.42770472542E-01 +7.28262557022E-01
1.15000000000E+09 -5.01475517777E-01 +8.13680137572E-01 +4.44721547977E-05 -1.93922069031E-05 +4.81949829293E-05 -1.10424563670E-05 -6.38258637550E-01 +7.32067409788E-01
1.15500000000E+09 -4.98009162456E-01 +8.15715919465E-01 +1.11600428604E-04 +2.20502424965E-05 +1.04539146692E-04 -2.13243032531E-05 -6.33499884417E-01 +7.35903906912E-01
1.16000000000E+09 -4.93632158164E-01 +8.17785734132E-01 +9.64034656686E-05 +8.68751381941E-06 +1.02032396893E-04 -3.74953347210E-06 -6.28775666412E-01 +7.39753342823E-01
1.16500000000E+09 -4.88267679034E-01 +8.20718135665E-01 +8.03563384472E-05 -1.31256019760E-05 +8.40931935815E-05 -1.32608508153E-05 -6.23630040149E-01 +7.43418604705E-01
1.17000000000E+09 -4.81788645768E-01 +8.23983731884E-01 +7.72461900272E-05 -1.42416432897E-05 +1.19091415161E-04 -6.88537880468E-05 -6.18354268189E-01 +7.46740721950E-01
1.17500000000E+09 -4.74601888647E-01 +8.27425640364E-01 +1.08848571851E-04 -1.72359725312E-05 +1.27362219242E-04 +1.43464165959E-05 -6.12637964136E-01 +7.49867748480E-01
1.18000000000E+09 -4.66900129143E-01 +8.31246742066E-01 +1.01552029800E-04 -1.84753223163E-05 +1.40403145911E-04 -4.82887123686E-05 -6.07383857938E-01 +7.52941148615E-01
1.18500000000E+09 -4.59081753842E-01 +8.34576422312E-01 +1.24266002645E-04 -7.21160289502E-05 +1.39888723756E-04 -9.15162864144E-05 -6.01487986723E-01 +7.56012394935E-01
1.19000000000E+09 -4.51650960900E-01 +8.37416837108E-01 +5.82942916984E-05 -1.14632337081E-04 +1.85384778798E-04 -7.53636719157E-05 -5.95471688640E-01 +7.58637248448E-01
1.19500000000E+09 -4.45239618780E-01 +8.39452407352E-01 +8.48578191915E-05 -1.88173701546E-04 +1.68351828340E-04 -1.69558790624E-04 -5.89585206715E-01 +7.59922867701E-01
1.20000000000E+09 -4.39897316007E-01 +8.40537776232E-01 +2.41117458465E-05 -2.14591397270E-04 +8.55457911271E-05 -2.17470091722E-04 -5.84963491971E-01 +7.60024314786E-01
1.20500000000E+09 -4.35220284442E-01 +8.41968169805E-01 -5.11815028758E-05 -1.49263967383E-04 -6.65073835478E-05 -1.50609167000E-04 -5.82646353950E-01 +7.61057096322E-01
1.21000000000E+09 -4.30412184284E-01 +8.43382682100E-01 -8.81931858287E-05 -9.68652552253E-05 -5.63733582231E-05 -8.95834835329E-05 -5.80672729182E-01 +7.64036297983E-01
1.21500000000E+09 -4.24602492531E-01 +8.45428691984E-01 -2.38366574552E-05 -1.04812201348E-04 -1.81705959720E-05 -1.12663935954E-04 -5.77910192178E-01 +7.68593704865E-01
1.22000000000E+09 -4.17633213135E-01 +8.47762597404E-01 -1.11833973476E-05 -1.22363140678E-04 +1.61944650443E-05 -1.04119423839E-04 -5.73873004423E-01 +7.74050884803E-01
1.22500000000E+09 -4.09371971324E-01 +8.50984302708E-01 +8.17284511466E-06 -9.21861069004E-05 +4.40724683048E-05 -1.20909046523E-04 -5.68732793639E-01 +7.79103532846E-01
1.23000000000E+09 -4.00172963908E-01 +8.54364376219E-01 -1.71142829252E-05 -1.41952723830E-04 +2.50221242669E-05 -1.50890534870E-04 -5.63098466473E-01 +7.83824825360E-01
1.23500000000E+09 -3.90787594270E-01 +8.58335766046E-01 +4.91813733522E-06 -1.37316746536E-04 -4.86080056750E-05 -1.05077473662E-04 -5.57263467589E-01 +7.88173900736E-01
1.24000000000E+09 -3.81219251281E-01 +8.62025997477E-01 -2.16012497227E-05 -1.99448310429E-04 -1.28386912752E-05 -1.27539742321E-04 -5.51355463277E-01 +7.91911643450E-01
1.24500000000E+09 -3.72552443745E-01 +8.66140156725E-01 -4.66312372713E-05 -1.78458098000E-04 -4.08722930592E-05 -1.97471077259E-04 -5.45064839294E-01 +7.95815757074E-01
1.25000000000E+09 -3.64539965476E-01 +8.69178474091E-01 -9.60488575163E-05 -1.28821175727E-04 -7.78387164699E-05 -1.96310739249E-04 -5.38746230682E-01 +8.00059116151E-01
1.25500000000E+09 -3.57519673867E-01 +8.71298654195E-01 -8.85930020653E-05 -1.56951528510E-04 -9.69133836068E-05 -1.33638710373E-04 -5.31932753102E-01 +8.04005338222E-01
1.26000000000E+09 -3.51431304038E-01 +8.72868707836E-01 -9.01186684083E-05 -1.73949988247E-04 -1.29765418229E-04 -2.39389454761E-04 -5.25466277439E-01 +8.08254307912E-01
1.26500000000E+09 -3.45514664326E-01 +8.74015249095E-01 -1.52065108242E-04 -1.82743701278E-04 -1.24687591596E-04 -2.34120086278E-04 -5.18548658527E-01 +8.12116994236E-01
1.27000000000E+09 -3.39158506065E-01 +8.74969021458E-01 -1.63096546215E-04 -2.22149655118E-04 -1.87639298519E-04 -1.76930716263E-04 -5.11523434825E-01 +8.15821408621E-01
1.27500000000E+09 -3.31547148236E-01 +8.76367178432E-01 -2.02420802641E-04 -1.87867796465E-04 -1.92014054679E-04 -2.03908802208E-04 -5.04502301350E-01 +8.19557909242E-01
1.28000000000E+09 -3.22329514374E-01 +8.78398760086E-01 -2.53100092841E-04 -1.55684383021E-04 -2.19793152847E-04 -1.50545129000E-04 -4.97398171263E-01 +8.23263027289E-01
1.28500000000E+09 -3.11155983180E-01 +8.80734058246E-01 -2.28777556519E-04 -1.79960786108E-04 -2.86758080544E-04 -1.61952037931E-04 -4.89936484617E-01 +8.27008231621E-01
1.29000000000E+09 -2.99285579155E-01 +8.83773301932E-01 -2.76667557227E-04 -7.71116667227E-05 -3.14497804999E-04 -1.09856268010E-04 -4.82440605599E-01 +8.30861214662E-01
1.29500000000E+09 -2.86904682442E-01 +8.87184639117E-01 -3.11748709321E-04 -1.34127623143E-04 -3.45313098470E-04 -9.98857940731E-05 -4.74535482397E-01 +8.34313857236E-01
1.30000000000E+09 -2.74811251707E-01 +8.90667718437E-01 -3.46410464142E-04 -1.14728386388E-04 -4.30563347356E-04 -6.46635632963E-05 -4.66645066182E-01 +8.37919689390E-01
1.30500000000E+09 -2.64125852990E-01 +8.93619098463E-01 -3.77199065185E-04 -7.66412542039E-05 -4.07745661041E-04 -6.70042903541E-05 -4.58546999169E-01 +8.41440460998E-01
1.31000000000E+09 -2.54839883390E-01 +8.95801105993E-01 -4.72406101446E-04 +5.11136813730E-05 -4.78245718118E-04 +1.17697536722E-05 -4.50244648415E-01 +8.44874644575E-01
1.31500000000E+09 -2.47418710342E-01 +8.97507110313E-01 -4.52161710690E-04 +1.07414841117E-04 -4.39510602258E-04 +9.45559075171E-05 -4.41657593982E-01 +8.48518755892E-01
1.32000000000E+09 -2.41316629295E-01 +8.98299320964E-01 -4.08914859336E-04 +1.42305876642E-04 -4.66969463593E-04 +1.13549715415E-04 -4.32653573278E-01 +8.51900034019E-01
1.32500000000E+09 -2.35519495048E-01 +8.98490210434E-01 -4.27144612688E-04 +1.87731443153E-04 -4.47319923202E-04 +1.59932979899E-04 -4.23245862706E-01 +8.55169628099E-01
1.33000000000E+09 -2.28612142236E-01 +8.98600658406E-01 -5.38394299694E-04 +2.39507120553E-04 -5.54422195436E-04 +2.61167926387E-04 -4.13809631499E-01 +8.58315626086E-01
1.33500000000E+09 -2.19836777978E-01 +8.98505687729E-01 -5.20460704270E-04 +3.40193181669E-04 -4.49162631644E-04 +3.90640548333E-04 -4.03955708853E-01 +8.61657500758E-01
1.34000000000E+09 -2.08578546120E-01 +8.98854781669E-01 -4.78816748666E-04 +4.34737156851E-04 -4.34847755139E-04 +4.62915882236E-04 -3.93865103467E-01 +8.65028767144E-01
1.34500000000E+09 -1.94812650326E-01 +8.99337258338E-01 -4.47648969746E-04 +5.51559854317E-04 -4.51693636754E-04 +5.16956212378E-04 -3.82966504278E-01 +8.68349379363E-01
1.35000000000E+09 -1.79089201772E-01 +8.99965543499E-01 -3.89766182469E-04 +6.73374892289E-04 -3.55546495437E-04 +5.87687007233E-04 -3.71884026791E-01 +8.71278625910E-01
1.35500000000E+09 -1.62138921420E-01 +9.00703447908E-01 -3.82039523770E-04 +6.58880880650E-04 -3.65382072430E-04 +6.33928452911E-04 -3.60298236859E-01 +8.74232454996E-01
1.36000000000E+09 -1.45434970341E-01 +9.01444033298E-01 -2.97801719004E-04 +7.56380290558E-04 -2.72888196580E-04 +6.91619614826E-04 -3.48478964784E-01 +8.77050416914E-01
1.36500000000E+09 -1.29437423573E-01 +9.01907295015E-01 -2.60622533699E-04 +7.52446905381E-04 -2.33586328276E-04 +7.99182332927E-04 -3.36295196495E-01 +8.79558156023E-01
1.37000000000E+09 -1.15119294222E-01 +9.01425391259E-01 -1.47580468471E-04 +9.49008253757E-04 -2.04561235094E-04 +8.57487482503E-04 -3.23423704322E-01 +8.82055923208E-01
1.37500000000E+09 -1.02631417436E-01 +9.00882249469E-01 -4.03314467929E-06 +9.90346095727E-04 -1.54025875383E-04 +8.92070449532E-04 -3.09547803145E-01 +8.84462979285E-01
1.38000000000E+09 -9.12978518275E-02 +9.00033258588E-01 +3.75631310406E-05 +9.95033871503E-04 -2.61791012552E-05 +1.03199962535E-03 -2.94951561119E-01 +8.86658883265E-01
1.38500000000E+09 -7.97568783810E-02 +8.98557548001E-01 +1.42751972254E-04 +1.05951750222E-03 +7.05819759788E-05 +1.17902066627E-03 -2.79356566831E-01 +8.88713565721E-01
1.39000000000E+09 -6.73514387814E-02 +8.96297595731E-01 +2.45768121096E-04 +1.12079553790E-03 +2.98830286574E-04 +1.34652085824E-03 -2.63612683477E-01 +8.90156840332E-01
1.39500000000E+09 -5.28974223827E-02 +8.93584688456E-01 +4.58044497308E-04 +1.18620337389E-03 +6.31655636880E-04 +1.29326449518E-03 -2.46926529797E-01 +8.90899269303E-01
1.40000000000E+09 -3.57340539826E-02 +8.89675813194E-01 +5.81070915853E-04 +1.23761443852E-03 +7.18014559580E-04 +1.24601121878E-03 -2.29393396957E-01 +8.91468811297E-01
1.40500000000E+09 -1.65164081505E-02 +8.85278854853E-01 +8.56560795246E-04 +1.32910628903E-03 +9.11472855228E-04 +1.26576432030E-03 -2.11047871490E-01 +8.91378592152E-01
1.41000000000E+09 +4.70445534934E-03 +8.79925411264E-01 +1.11306704693E-03 +1.28066013300E-03 +1.14416096025E-03 +1.29689422600E-03 -1.90710855239E-01 +8.90857762430E-01
1.41500000000E+09 +2.71582996730E-02 +8.73853051179E-01 +1.44986290147E-03 +1.20329954047E-03 +1.44833457428E-03 +1.27694815318E-03 -1.69053656282E-01 +8.89403122093E-01
1.42000000000E+09 +4.98022683492E-02 +8.66745100400E-01 +1.65754339791E-03 +9.65425653671E-04 +1.78727013284E-03 +1.10369868377E-03 -1.46119098646E-01 +8.86945475729E-01
1.42500000000E+09 +7.16214721431E-02 +8.58856749008E-01 +1.82312697085E-03 +9.40351533459E-04 +2.08517894450E-03 +1.01659195323E-03 -1.22327945308E-01 +8.83078722579E-01
1.43000000000E+09 +9.28629387612E-02 +8.49585911430E-01 +2.21876939822E-03 +9.56774035917E-04 +2.52834783206E-03 +7.74746676479E-04 -9.77083371461E-02 +8.78585829047E-01
1.43500000000E+09 +1.13410352974E-01 +8.38660465072E-01 +2.72453749610E-03 +6.29348043321E-04 +2.92943031545E-03 +3.33493931734E-04 -7.11787521685E-02 +8.71742926170E-01
1.44000000000E+09 +1.34596117663E-01 +8.26509075952E-01 +3.11239839818E-03 -6.20288285080E-05 +3.10268133821E-03 -2.94874739347E-04 -4.32063420335E-02 +8.63221712372E-01
1.44500000000E+09 +1.57463996095E-01 +8.11495076664E-01 +3.18004834344E-03 -6.59202105548E-04 +3.18933006543E-03 -8.62861043441E-04 -1.27955211365E-02 +8.51771347157E-01
1.45000000000E+09 +1.81963162219E-01 +7.92911415353E-01 +3.02039680109E-03 -1.10768421131E-03 +3.06656780381E-03 -1.35951636309E-03 +1.87786200793E-02 +8.37274892897E-01
1.45500000000E+09 +2.08699788288E-01 +7.70656609007E-01 +3.14415675686E-03 -1.37880264429E-03 +3.03417307134E-03 -1.69839111121E-03 +5.21837969288E-02 +8.20010050495E-01
1.46000000000E+09 +2.38075154066E-01 +7.44597196623E-01 +3.45184727551E-03 -1.91540186576E-03 +3.15082897336E-03 -2.17272967983E-03 +8.71528317582E-02 +7.98259848855E-01
1.46500000000E+09 +2.68794942976E-01 +7.13454545189E-01 +3.77289975778E-03 -2.78440047020E-03 +3.32786020707E-03 -2.80267561869E-03 +1.22989242023E-01 +7.71557250033E-01
1.47000000000E+09 +2.99823397591E-01 +6.77782102796E-01 +3.74452339255E-03 -4.30096758887E-03 +3.39059630523E-03 -3.93545846822E-03 +1.59831913955E-01 +7.37632879256E-01
1.47500000000E+09 +3.29673087172E-01 +6.36942531398E-01 +2.76624952992E-03 -5.64352164293E-03 +2.82575816050E-03 -5.28014349785E-03 +1.96212730654E-01 +6.96947237498E-01
1.48000000000E+09 +3.57320887904E-01 +5.90229929476E-01 +1.72734034380E-03 -6.52715667527E-03 +1.89203218919E-03 -6.51486745396E-03 +2.32756527716E-01 +6.47622995932E-01
1.48500000000E+09 +3.79820917960E-01 +5.36597734206E-01 +4.35680167313E-04 -7.54083816125E-03 +3.58374766528E-04 -7.71248690314E-03 +2.66069346904E-01 +5.89391074490E-01
1.49000000000E+09 +3.97060865496E-01 +4.75846029390E-01 -1.35376919446E-03 -8.23046937645E-03 -1.72923793125E-03 -8.17185725504E-03 +2.94784386064E-01 +5.20455563322E-01
1.49500000000E+09 +4.05787287068E-01 +4.06942034505E-01 -3.75236753828E-03 -8.31836925102E-03 -3.92575570245E-03 -7.83215589444E-03 +3.12692629337E-01 +4.41423298259E-01
1.50000000000E+09 +4.05067483440E-01 +3.29601202472E-01 -6.04086513375E-03 -7.94063137234E-03 -5.70605047000E-03 -7.46644892106E-03 +3.18419419596E-01 +3.53831054932E-01
1.50500000000E+09 +3.91048351126E-01 +2.44145127456E-01 -8.56303157948E-03 -6.60366561929E-03 -8.00048506500E-03 -6.62956040272E-03 +3.08658785555E-01 +2.58131883784E-01
1.51000000000E+09 +3.61300747236E-01 +1.54575841591E-01 -1.04231140825E-02 -4.11118389410E-03 -1.01563859428E-02 -4.42611730060E-03 +2.77806163177E-01 +1.56847770045E-01
1.51500000000E+09 +3.12685973775E-01 +6.42393360032E-02 -1.17475201890E-02 -1.94933501674E-03 -1.17598539164E-02 -2.24494399132E-03 +2.22701579419E-01 +6.09754745401E-02
1.52000000000E+09 +2.44090124394E-01 -1.74561337150E-02 -1.32315744324E-02 +1.38804951945E-03 -1.34305105732E-02 +1.21411292924E-03 +1.48781270432E-01 -2.42038805514E-02
1.52500000000E+09 +1.58758711171E-01 -8.43570126584E-02 -1.22237450447E-02 +6.87299284785E-03 -1.24141301641E-02 +6.83334265290E-03 +5.61434199183E-02 -9.36560151993E-02
1.53000000000E+09 +6.07274828028E-02 -1.31389762692E-01 -8.31559104768E-03 +9.18114875108E-03 -8.47266406870E-03 +9.19222470595E-03 -5.05001329359E-02 -1.39116712894E-01
1.53500000000E+09 -4.60938303845E-02 -1.55032887128E-01 -5.78202958152E-03 +1.08632543536E-02 -5.82070604538E-03 +1.08392129670E-02 -1.60186838708E-01 -1.60476894271E-01
1.54000000000E+09 -1.54743204213E-01 -1.52107643740E-01 -2.63638614148E-03 +1.09013168046E-02 -2.66776829125E-03 +1.08117828576E-02 -2.68069266269E-01 -1.59472265306E-01
1.54500000000E+09 -2.55508803240E-01 -1.27171587720E-01 +2.34991179176E-04 +1.09928279798E-02 -1.42400431259E-05 +1.09045544161E-02 -3.67216077159E-01 -1.38640902854E-01
1.55000000000E+09 -3.47199180673E-01 -8.61059686501E-02 +2.45508418277E-03 +1.01054588465E-02 +2.04048222440E-03 +1.01544460485E-02 -4.53877565264E-01 -1.02377699285E-01
1.55500000000E+09 -4.25377345279E-01 -3.18175212879E-02 +5.34070750682E-03 +8.68155098146E-03 +5.08022059086E-03 +9.11406623156E-03 -5.25601232125E-01 -5.58046950564E-02
1.56000000000E+09 -4.87447868271E-01 +2.66059497605E-02 +6.72659026806E-03 +5.64270318113E-03 +6.80780539724E-03 +6.17903108068E-03 -5.84319760704E-01 -3.30766552393E-03
1.56500000000E+09 -5.37151084610E-01 +8.57403909982E-02 +6.36513291034E-03 +3.94340429559E-03 +6.65455164970E-03 +4.30655133034E-03 -6.29207980454E-01 +5.27239471405E-02
1.57000000000E+09 -5.75097181612E-01 +1.43541355661E-01 +6.47141856062E-03 +2.49376990055E-03 +6.91717049844E-03 +2.57939908960E-03 -6.63387147884E-01 +1.06598580910E-01
