# Hz S RI R 50
! CMT, C1220, 16058040, 17.2.0/1
! Date: 14/08/2018 12:03:21
! Data: Format (Calibration Info)
! Freq                      S11: Re/Im (F2)                       S21: Re/Im (F2)                       S12: Re/Im (F2)                       S22: Re/Im (F2)            
1.00000000000E+09 -6.52299279962E-01 +7.09612914217E-01 -2.40217229900E-05 -4.69011782922E-05 +5.70753121184E-06 +2.38207526866E-05 -7.53577578326E-01 +6.25715650270E-01
1.00500000000E+09 -6.45440618580E-01 +7.14206255510E-01 -2.06293791845E-05 -8.83450042167E-06 +1.73345172166E-05 -2.46445725247E-06 -7.49866298586E-01 +6.29720506657E-01
1.01000000000E+09 -6.39564276173E-01 +7.18494716532E-01 -1.08449674945E-05 -1.46548264644E-05 +2.53470218499E-05 -2.69491711278E-05 -7.46400244802E-01 +6.33519650630E-01
1.01500000000E+09 -6.35540255856E-01 +7.22316946439E-01 -3.41825512501E-06 +3.14264166808E-05 -3.54226146588E-05 -4.12853636623E-06 -7.43071819285E-01 +6.37336312385E-01
1.02000000000E+09 -6.32552772694E-01 +7.25647946901E-01 -6.37120146352E-06 -9.30176600692E-06 +8.16217650185E-06 +1.76277409071E-05 -7.39541570507E-01 +6.40871021297E-01
1.02500000000E+09 -6.30600646048E-01 +7.28657163717E-01 -4.23629043254E-05 -5.95129957583E-06 -2.96681052799E-05 -6.35219371561E-05 -7.36419961208E-01 +6.44489655373E-01
1.03000000000E+09 -6.29176340469E-01 +7.31401388495E-01 -1.99058961635E-05 -2.14124684936E-05 +1.74618124272E-05 +8.21083371888E-06 -7.32998237599E-01 +6.48415831794E-01
1.03500000000E+09 -6.26856338362E-01 +7.34116663250E-01 -2.45929505153E-05 +4.15877199833E-05 -2.29109418636E-05 -2.88372441613E-05 -7.29340823431E-01 +6.52325491482E-01
1.04000000000E+09 -6.23682566823E-01 +7.37255933108E-01 -1.58345492699E-05 +1.01253466448E-05 -5.61148826130E-05 -1.41668974122E-05 -7.25553511863E-01 +6.55999841689E-01
1.04500000000E+09 -6.18533862068E-01 +7.40860664548E-01 -1.97620568086E-05 -6.61212754993E-06 -3.35401384406E-05 -2.51216211358E-06 -7.21935584881E-01 +6.59569479140E-01
1.05000000000E+09 -6.11955111689E-01 +7.44834348968E-01 -1.69933865858E-05 +4.53391591180E-06 -2.82658322780E-05 +2.75638535175E-05 -7.18539686305E-01 +6.63067208772E-01
1.05500000000E+09 -6.04122439049E-01 +7.49015934112E-01 -3.87571159761E-05 +2.70865812011E-05 -6.02286920256E-05 +1.74115211371E-05 -7.15329916605E-01 +6.66595984250E-01
1.06000000000E+09 -5.95764693443E-01 +7.53372971755E-01 -3.60682371907E-05 +2.06604474129E-05 +8.95470560425E-06 +4.87917206523E-05 -7.12177198813E-01 +6.70396600122E-01
1.06500000000E+09 -5.87777982318E-01 +7.58045108012E-01 -2.47997560065E-05 +4.69181152497E-05 -3.86995768650E-05 +3.19746196527E-05 -7.08219314943E-01 +6.74193200314E-01
1.07000000000E+09 -5.80828879068E-01 +7.61832211189E-01 +3.13921608959E-06 +1.95975623427E-05 -2.32104119591E-05 +1.52856539631E-05 -7.04222174856E-01 +6.77885436606E-01
1.07500000000E+09 -5.75314968953E-01 +7.65549333342E-01 -3.26801252363E-05 +2.10323511329E-05 -3.26610627185E-05 +8.21456369911E-05 -6.99834717244E-01 +6.81504388610E-01
1.08000000000E+09 -5.71420456248E-01 +7.68821730405E-01 +1.63766126199E-05 +3.91771710519E-05 +3.28434324214E-05 +2.60059627030E-05 -6.95870745570E-01 +6.85518127330E-01
1.08500000000E+09 -5.68970309954E-01 +7.71778690028E-01 -1.15191301527E-05 +4.29732045906E-05 -7.18321433613E-06 +3.09925746217E-05 -6.91883376220E-01 +6.89107703787E-01
1.09000000000E+09 -5.66586948257E-01 +7.74364221285E-01 -5.54020981181E-06 +1.57116364995E-06 +2.03020777831E-05 +3.28475712352E-05 -6.88052728842E-01 +6.93104905357E-01
1.09500000000E+09 -5.64589502109E-01 +7.77004077451E-01 -1.37417035060E-05 +3.28737257120E-05 +2.72313485009E-05 +5.03805765277E-05 -6.84356176734E-01 +6.96785416557E-01
1.10000000000E+09 -5.61161743696E-01 +7.79415808260E-01 +9.01129715648E-06 +1.89505011266E-05 +5.44460138789E-06 +3.67320419801E-05 -6.80275427454E-01 +7.00722501612E-01
1.10500000000E+09 -5.56803035991E-01 +7.82439342720E-01 -2.40163741794E-06 -1.26347314431E-05 +5.27926840021E-05 +2.32407361796E-05 -6.75945881491E-01 +7.04332844904E-01
1.11000000000E+09 -5.50855675468E-01 +7.85696242020E-01 +2.18795556931E-05 +5.95711952012E-05 +2.04454241476E-05 -1.80809341053E-05 -6.71879757538E-01 +7.07749234715E-01
1.11500000000E+09 -5.43828016320E-01 +7.89153969602E-01 -1.37109924265E-05 +3.11816373967E-05 -5.57642562575E-06 -1.22624805760E-05 -6.67767602151E-01 +7.11027911374E-01
1.12000000000E+09 -5.36137949550E-01 +7.92785484138E-01 +2.32908215795E-05 +7.25102045275E-06 -6.54213950037E-06 +6.63349522116E-05 -6.63636938408E-01 +7.14800408597E-01
1.12500000000E+09 -5.28559336214E-01 +7.96329260032E-01 +2.47904885595E-05 +3.50050463534E-05 +1.36309596666E-05 +1.12531841504E-05 -6.59243866012E-01 +7.18719056963E-01
1.13000000000E+09 -5.21856168327E-01 +7.99806900690E-01 +2.29789295025E-05 +4.15847674326E-05 -1.35880381572E-05 +3.76742762087E-05 -6.55027329349E-01 +7.22499193786E-01
1.13500000000E+09 -5.16167608554E-01 +8.02625782439E-01 +3.44486750832E-06 +3.07754363943E-05 +2.57222889571E-05 +4.38195862249E-05 -6.50445110921E-01 +7.26275815108E-01
1.14000000000E+09 -5.11396960947E-01 +8.05467751845E-01 +9.12667823331E-06 +1.35102175752E-06 +4.54435863324E-05 +5.36547869031E-05 -6.45802763270E-01 +7.29691201130E-01
1.14500000000E+09 -5.07755666378E-01 +8.07807981063E-01 +6.69292325621E-05 +2.48146447893E-05 +5.55197751581E-05 +7.13627611212E-05 -6.41173853273E-01 +7.33136902875E-01
1.15000000000E+09 -5.04376718092E-01 +8.10112180977E-01 +4.37956302327E-05 +5.06195071930E-05 -4.65614748061E-06 +2.62020432455E-05 -6.36582099396E-01 +7.36901811726E-01
1.15500000000E+09 -5.00765312254E-01 +8.12482342076E-01 +3.70353610111E-05 +6.70967112693E-05 +9.06976828220E-05 +6.02129047045E-05 -6.31676164566E-01 +7.40579405772E-01
1.16000000000E+09 -4.96200901569E-01 +8.14772614563E-01 +4.34463527095E-05 +4.19149005707E-05 +1.31533038227E-04 +2.42946036548E-05 -6.26785379190E-01 +7.44653028607E-01
1.16500000000E+09 -4.90433519600E-01 +8.17735130735E-01 +5.71070563690E-05 +9.04942951963E-05 +1.23178749558E-04 +1.66346752008E-05 -6.21702974512E-01 +7.48379321107E-01
1.17000000000E+09 -4.83557420200E-01 +8.20659943785E-01 +5.30142356926E-05 +6.49486462953E-05 +7.10806675747E-05 +3.97511548413E-05 -6.16069197475E-01 +7.51543883544E-01
1.17500000000E+09 -4.75692710335E-01 +8.23679296181E-01 +1.07361278014E-04 +6.63429431096E-05 +5.55831111476E-05 +2.42067980959E-05 -6.10638674739E-01 +7.54876375976E-01
1.18000000000E+09 -4.67657849511E-01 +8.26752018587E-01 +1.07920703974E-04 +4.28981579065E-06 +5.37646603216E-05 +1.91993471603E-05 -6.04990153188E-01 +7.57907860570E-01
1.18500000000E+09 -4.59696436582E-01 +8.29646799680E-01 +1.11936716431E-04 +3.36554414048E-05 +1.16233464822E-04 +1.69227407385E-05 -5.98988502027E-01 +7.60964390206E-01
1.19000000000E+09 -4.52674778024E-01 +8.32182902782E-01 +1.34855492709E-04 +7.52931168393E-05 +1.45491909969E-04 +7.75079782247E-05 -5.92773162748E-01 +7.63702842295E-01
1.19500000000E+09 -4.46646151867E-01 +8.34187805796E-01 +2.12404838423E-04 -2.43260618248E-05 +2.43479848340E-04 +2.09051251997E-05 -5.86778043074E-01 +7.64858301878E-01
1.20000000000E+09 -4.41873023792E-01 +8.35613134849E-01 +2.39323817327E-04 -8.60223998633E-05 +2.42567328484E-04 -8.56619577104E-05 -5.82225630917E-01 +7.65080299551E-01
1.20500000000E+09 -4.37955443593E-01 +8.37465270585E-01 +2.12999671305E-04 -1.25038840444E-04 +1.06355469838E-04 -1.51631513764E-04 -5.80064130135E-01 +7.65846985458E-01
1.21000000000E+09 -4.33888812402E-01 +8.39526731059E-01 +1.53458385388E-04 -1.48447581414E-04 +7.72697949753E-05 -1.45593398129E-04 -5.78119394880E-01 +7.69020797315E-01
1.21500000000E+09 -4.28624152064E-01 +8.41708892468E-01 +8.37261342689E-05 -1.71209566272E-04 +1.61811213474E-04 -1.46764496526E-04 -5.75263971731E-01 +7.73412967363E-01
1.22000000000E+09 -4.22044490925E-01 +8.44122188731E-01 +4.78389821483E-05 -1.50839071183E-04 +1.43304787729E-04 -1.15924580299E-04 -5.71135664450E-01 +7.78945692820E-01
1.22500000000E+09 -4.13964060232E-01 +8.46968015298E-01 +5.24506002926E-05 -1.49443430942E-04 +4.50674722119E-05 -1.31288577255E-04 -5.66215955921E-01 +7.83923741369E-01
1.23000000000E+09 -4.04725444968E-01 +8.49808979702E-01 +8.82207274865E-05 -9.91128708844E-05 +9.89502713047E-05 -1.38347764281E-04 -5.60249598239E-01 +7.88664524876E-01
1.23500000000E+09 -3.94647628834E-01 +8.53033128624E-01 +1.14409240982E-04 -1.50004795369E-04 +5.14833013410E-05 -1.52865129191E-04 -5.54509102937E-01 +7.92978509644E-01
1.24000000000E+09 -3.84363724745E-01 +8.56384351158E-01 +1.21211988559E-04 -1.61092780227E-04 +1.44604491980E-04 -1.18722247769E-04 -5.48391437050E-01 +7.96868291081E-01
1.24500000000E+09 -3.74836427769E-01 +8.59916468478E-01 +1.19232277864E-04 -2.00334670651E-04 +8.15616358309E-05 -1.55415416674E-04 -5.42131224634E-01 +8.00647155264E-01
1.25000000000E+09 -3.66422467649E-01 +8.62802496806E-01 +1.27663147286E-05 -2.32843002933E-04 +7.18152614600E-05 -2.35729586961E-04 -5.35538206595E-01 +8.04826695296E-01
1.25500000000E+09 -3.59244034480E-01 +8.65446590471E-01 +1.52908906458E-05 -2.88759307277E-04 +7.02752714144E-05 -2.66211869543E-04 -5.28646481235E-01 +8.08988177063E-01
1.26000000000E+09 -3.53076405421E-01 +8.67743161414E-01 -3.83554460149E-05 -2.75656820555E-04 -3.42263101770E-05 -2.74530310294E-04 -5.21763404126E-01 +8.13199891737E-01
1.26500000000E+09 -3.47552675784E-01 +8.69902021878E-01 -4.15843166930E-05 -2.74083334726E-04 -5.68478239610E-06 -2.99947140299E-04 -5.14879482673E-01 +8.17035971742E-01
1.27000000000E+09 -3.42003187800E-01 +8.72025349593E-01 -2.44478042334E-05 -3.21027906008E-04 -7.64278619774E-05 -2.56299691259E-04 -5.08086945778E-01 +8.21075582975E-01
1.27500000000E+09 -3.35495545422E-01 +8.74059494662E-01 -7.90340715586E-05 -2.65484858254E-04 -9.49635106222E-05 -3.18281677346E-04 -5.01097199006E-01 +8.24507184909E-01
1.28000000000E+09 -3.27585066908E-01 +8.76346433223E-01 -1.64909754229E-04 -3.13113925553E-04 -1.49572371135E-04 -3.31755092461E-04 -4.94010871718E-01 +8.28066344269E-01
1.28500000000E+09 -3.17829325896E-01 +8.78769853011E-01 -1.71177800521E-04 -2.60039370294E-04 -1.85591537532E-04 -3.29306076236E-04 -4.86730525938E-01 +8.31541167331E-01
1.29000000000E+09 -3.07090715612E-01 +8.81249016567E-01 -1.98667542292E-04 -2.58433734036E-04 -2.57202878097E-04 -2.76895495880E-04 -4.79058557412E-01 +8.35337419268E-01
1.29500000000E+09 -2.95576598047E-01 +8.83829805920E-01 -2.06583123956E-04 -2.58179181545E-04 -2.75339482398E-04 -2.30766219130E-04 -4.71133007153E-01 +8.39006469988E-01
1.30000000000E+09 -2.84062294931E-01 +8.86603846928E-01 -2.65788604302E-04 -2.09229480618E-04 -3.38870943748E-04 -2.69395270106E-04 -4.63321224479E-01 +8.42572096213E-01
1.30500000000E+09 -2.73341997698E-01 +8.89104794772E-01 -3.49971105120E-04 -2.33753900104E-04 -2.98062343030E-04 -2.22381114042E-04 -4.55099364026E-01 +8.45942205927E-01
1.31000000000E+09 -2.63883839133E-01 +8.91248032398E-01 -3.63956135855E-04 -1.33794931835E-04 -3.65462578675E-04 -1.09557998739E-04 -4.46840965116E-01 +8.49402787129E-01
1.31500000000E+09 -2.55802900980E-01 +8.93184213540E-01 -3.56278206250E-04 -1.17659786480E-04 -3.79338821757E-04 -1.24655244175E-04 -4.38038722359E-01 +8.52776423313E-01
1.32000000000E+09 -2.48964766673E-01 +8.94695678708E-01 -3.58435666363E-04 -1.57559980508E-04 -3.31934677202E-04 -1.44119853159E-04 -4.28874496315E-01 +8.56202395337E-01
1.32500000000E+09 -2.42383381638E-01 +8.95929420259E-01 -3.26585344677E-04 -1.29942213349E-04 -3.54813448903E-04 -1.15640422993E-04 -4.19215342803E-01 +8.59773513993E-01
1.33000000000E+09 -2.35209519659E-01 +8.96962271172E-01 -4.05067737784E-04 -9.43595496456E-05 -4.18378714938E-04 -5.90613295021E-05 -4.09447052064E-01 +8.62850015550E-01
1.33500000000E+09 -2.26413131394E-01 +8.97607199761E-01 -4.63152512320E-04 -5.60978486935E-05 -4.95712120211E-04 -2.77656101712E-07 -3.99614109720E-01 +8.66271875769E-01
1.34000000000E+09 -2.15532847000E-01 +8.98216700403E-01 -5.13290826133E-04 -2.25289486212E-05 -4.67411358148E-04 +7.67068452520E-05 -3.89402894621E-01 +8.69622995796E-01
1.34500000000E+09 -2.02484973287E-01 +8.98394890989E-01 -4.76292837055E-04 +9.66778164530E-05 -4.49764092450E-04 +7.99815991442E-05 -3.78240427197E-01 +8.72941733879E-01
1.35000000000E+09 -1.87692214557E-01 +8.98324484386E-01 -4.22009759582E-04 +9.00111817513E-05 -3.88188081098E-04 +1.41857377754E-04 -3.67069963906E-01 +8.75815499645E-01
1.35500000000E+09 -1.71697270398E-01 +8.98349478408E-01 -4.20593001643E-04 +1.05732038633E-04 -4.33589631306E-04 +1.09106649240E-04 -3.55537297161E-01 +8.78761571544E-01
1.36000000000E+09 -1.55673743843E-01 +8.98418012460E-01 -4.55668620700E-04 +1.15343538341E-04 -4.26996093218E-04 +1.67502711240E-04 -3.43653092525E-01 +8.81483401449E-01
1.36500000000E+09 -1.40024071835E-01 +8.98584262637E-01 -5.10519319206E-04 +1.90772314831E-04 -4.86750094425E-04 +1.36881348607E-04 -3.31407817643E-01 +8.84006474660E-01
1.37000000000E+09 -1.25495250104E-01 +8.98636121302E-01 -5.93621421252E-04 +2.25779643413E-04 -5.13470384187E-04 +1.52020921828E-04 -3.18592553197E-01 +8.86281546069E-01
1.37500000000E+09 -1.12402061785E-01 +8.98689621305E-01 -6.09429315408E-04 +3.53273416973E-04 -6.62548566479E-04 +3.03916915173E-04 -3.04808495921E-01 +8.88538611976E-01
1.38000000000E+09 -1.00228575271E-01 +8.98297749413E-01 -5.87348897784E-04 +4.96238716673E-04 -6.61045062351E-04 +4.05288817275E-04 -2.90267932013E-01 +8.90604600981E-01
1.38500000000E+09 -8.80627471350E-02 +8.97753821107E-01 -4.29985476504E-04 +5.71215497015E-04 -5.21408490415E-04 +6.46120884428E-04 -2.74907908075E-01 +8.92327161069E-01
1.39000000000E+09 -7.55114523067E-02 +8.96420015367E-01 -4.21006268612E-04 +5.32707263874E-04 -4.88112635756E-04 +6.65175357966E-04 -2.58907431701E-01 +8.93903598985E-01
1.39500000000E+09 -6.12065937947E-02 +8.94595140714E-01 -4.32392731622E-04 +6.16826511176E-04 -4.74453400665E-04 +6.89117986973E-04 -2.42057474975E-01 +8.94705078917E-01
1.40000000000E+09 -4.46150256444E-02 +8.91387525280E-01 -4.79786934061E-04 +6.65732032396E-04 -4.28489064161E-04 +7.42272018970E-04 -2.24458127997E-01 +8.95110819037E-01
1.40500000000E+09 -2.62169504287E-02 +8.87255651792E-01 -4.88684949808E-04 +7.85721873837E-04 -4.17760510542E-04 +7.80475307454E-04 -2.05903548553E-01 +8.94972290463E-01
1.41000000000E+09 -5.94724301500E-03 +8.81973338111E-01 -4.19379918720E-04 +9.42585649903E-04 -4.56570122529E-04 +9.15931548930E-04 -1.85926196493E-01 +8.94434579940E-01
1.41500000000E+09 +1.53154218550E-02 +8.75811192787E-01 -3.11019720566E-04 +1.02338718200E-03 -3.97979721776E-04 +9.82378475173E-04 -1.64171703504E-01 +8.93061821803E-01
1.42000000000E+09 +3.72064708206E-02 +8.69232380241E-01 -3.02345895103E-04 +1.06942762756E-03 -3.68737347264E-04 +1.15259497270E-03 -1.41156052855E-01 +8.90578362343E-01
1.42500000000E+09 +5.88995423822E-02 +8.62013046814E-01 -2.59901860489E-04 +1.24984447752E-03 -2.50247937615E-04 +1.43550739577E-03 -1.17296033073E-01 +8.86936037570E-01
1.43000000000E+09 +8.06161615609E-02 +8.54178182377E-01 -1.31199145339E-04 +1.48280683762E-03 +5.40870351574E-06 +1.67157987652E-03 -9.23210450181E-02 +8.82272289701E-01
1.43500000000E+09 +1.02263198587E-01 +8.44962599792E-01 +1.55435430096E-04 +1.62442511676E-03 +3.17315644339E-04 +1.68143992478E-03 -6.59995349300E-02 +8.75705254604E-01
1.44000000000E+09 +1.24480151372E-01 +8.34581128301E-01 +3.04287032432E-04 +1.64896468694E-03 +4.29884179020E-04 +1.66396624610E-03 -3.77249434011E-02 +8.67139936417E-01
1.44500000000E+09 +1.48152994270E-01 +8.21701402016E-01 +4.14204303302E-04 +1.72473853303E-03 +5.57935884571E-04 +1.70520800087E-03 -7.25507684148E-03 +8.55747234617E-01
1.45000000000E+09 +1.73612281097E-01 +8.05326904980E-01 +4.69451254318E-04 +1.98033138228E-03 +6.12974485467E-04 +1.99416467090E-03 +2.48186484009E-02 +8.40941366502E-01
1.45500000000E+09 +2.00982606218E-01 +7.85194020715E-01 +7.46264846188E-04 +2.36070402615E-03 +1.04146597455E-03 +2.36556066744E-03 +5.81809463869E-02 +8.23228649867E-01
1.46000000000E+09 +2.30968636760E-01 +7.60265668639E-01 +1.38555224431E-03 +2.69953496667E-03 +1.60170370124E-03 +2.51269410915E-03 +9.33705460534E-02 +8.01702242190E-01
1.46500000000E+09 +2.62579033878E-01 +7.30121250664E-01 +2.14380784519E-03 +2.90759843957E-03 +2.15166471528E-03 +2.48152860344E-03 +1.29938534666E-01 +7.74612113235E-01
1.47000000000E+09 +2.94725471184E-01 +6.94357467013E-01 +3.14900774938E-03 +2.81106795773E-03 +2.87010761509E-03 +2.55086906582E-03 +1.67164255106E-01 +7.40377405533E-01
1.47500000000E+09 +3.26526388291E-01 +6.52321074211E-01 +4.10144205732E-03 +2.38755086020E-03 +3.83116012871E-03 +2.40258613257E-03 +2.03890048144E-01 +6.99323301219E-01
1.48000000000E+09 +3.55593239409E-01 +6.03692118437E-01 +4.95373587277E-03 +1.87081365755E-03 +4.94119529770E-03 +2.00762665059E-03 +2.40758395701E-01 +6.50373223587E-01
1.48500000000E+09 +3.80660166408E-01 +5.48865048294E-01 +5.77004481158E-03 +1.11515768890E-03 +5.96697324851E-03 +1.00826659809E-03 +2.75704754167E-01 +5.91158519637E-01
1.49000000000E+09 +4.00557341397E-01 +4.86770923900E-01 +6.93603990155E-03 +1.54098585818E-04 +6.92848566872E-03 -1.25011813389E-04 +3.04028474119E-01 +5.20766645108E-01
1.49500000000E+09 +4.13076859395E-01 +4.16569647977E-01 +7.94581396802E-03 -1.54462785185E-03 +7.58473728082E-03 -1.81737091985E-03 +3.22135339202E-01 +4.40462972887E-01
1.50000000000E+09 +4.15300844834E-01 +3.37000124518E-01 +8.89349964342E-03 -3.63654760605E-03 +8.30556450770E-03 -3.41258669837E-03 +3.28135236353E-01 +3.51719590728E-01
1.50500000000E+09 +4.04210826237E-01 +2.50050290237E-01 +8.94992668148E-03 -7.38193155477E-03 +8.78707547862E-03 -6.76835475982E-03 +3.16990017786E-01 +2.53683170426E-01
1.51000000000E+09 +3.75728339024E-01 +1.56650687012E-01 +6.48613645249E-03 -1.12339236178E-02 +6.85801175452E-03 -1.07634672487E-02 +2.84304822636E-01 +1.52176541602E-01
1.51500000000E+09 +3.25849062159E-01 +6.35634789597E-02 +2.92993359166E-03 -1.32358394906E-02 +3.36512922721E-03 -1.32522627329E-02 +2.29213643580E-01 +5.48557754311E-02
1.52000000000E+09 +2.55140043315E-01 -2.08388037873E-02 -1.54780187980E-03 -1.40534525171E-02 -1.35494432076E-03 -1.42494196476E-02 +1.52956966452E-01 -3.21927706382E-02
1.52500000000E+09 +1.67017460364E-01 -9.10526001099E-02 -5.30348194220E-03 -1.23760722636E-02 -5.28051809123E-03 -1.25976843575E-02 +5.74327563651E-02 -1.01966644977E-01
1.53000000000E+09 +6.47463090941E-02 -1.41222289082E-01 -7.83608359878E-03 -1.14648187337E-02 -7.94062199973E-03 -1.15414959752E-02 -5.16509064779E-02 -1.48050719944E-01
1.53500000000E+09 -4.56938296372E-02 -1.67886140637E-01 -1.12557909746E-02 -9.19481690142E-03 -1.12702346867E-02 -9.20205879290E-03 -1.64990548939E-01 -1.68394102648E-01
1.54000000000E+09 -1.58248911887E-01 -1.68726522886E-01 -1.41747142977E-02 -5.76304178917E-03 -1.40911412322E-02 -5.83730127927E-03 -2.76136978619E-01 -1.63881641403E-01
1.54500000000E+09 -2.65729103520E-01 -1.44673458547E-01 -1.55428080336E-02 -3.43236531530E-04 -1.53602241324E-02 -6.48639441976E-04 -3.75716771601E-01 -1.38387891505E-01
1.55000000000E+09 -3.60163207406E-01 -9.99645663636E-02 -1.34003097464E-02 +4.49575755666E-03 -1.35416947535E-02 +4.02366066727E-03 -4.61045966996E-01 -9.92290149280E-02
1.55500000000E+09 -4.37557673284E-01 -4.26504472727E-02 -1.02817238251E-02 +7.33335399412E-03 -1.08413220609E-02 +7.06339751509E-03 -5.31782897642E-01 -5.09280934994E-02
1.56000000000E+09 -4.98355901038E-01 +1.83783663461E-02 -6.96406652642E-03 +8.87137946095E-03 -7.59829677296E-03 +8.99026612987E-03 -5.88142607576E-01 +3.67284297859E-03
1.56500000000E+09 -5.47496946832E-01 +7.99103959951E-02 -3.89943747708E-03 +8.62799384202E-03 -4.24815159296E-03 +9.09812844820E-03 -6.31768834331E-01 +5.95857155246E-02
1.57000000000E+09 -5.85044602163E-01 +1.41095944542E-01 -1.89167398359E-03 +7.85385107992E-03 -1.93306670843E-03 +8.38667942386E-03 -6.64253019064E-01 +1.14987429709E-01
