# Hz S RI R 50
! CMT, C1220, 16058040, 17.2.0/1
! Date: 14/08/2018 12:48:32
! Data: Format (Calibration Info)
! Freq                      S11: Re/Im (F2)                       S21: Re/Im (F2)                       S12: Re/Im (F2)                       S22: Re/Im (F2)            
1.00000000000E+09 -6.51909318497E-01 +7.13270008153E-01 +4.64194416695E-06 -1.88215981976E-06 -1.00439613475E-05 +5.71112690171E-05 -7.53868481634E-01 +6.21495845229E-01
1.00500000000E+09 -6.44888126208E-01 +7.18245777009E-01 +3.18889796774E-05 -4.25069480663E-05 +1.25339460235E-05 +1.12865305412E-05 -7.50176153811E-01 +6.25626995762E-01
1.01000000000E+09 -6.38909629391E-01 +7.22912138716E-01 -4.20052850992E-05 -5.89033579276E-06 -1.76324643936E-05 +4.93541963967E-05 -7.46633836412E-01 +6.29249151119E-01
1.01500000000E+09 -6.34366805017E-01 +7.26675940906E-01 +2.59265915174E-07 +6.77632368838E-05 -2.02789289467E-05 -8.58669622170E-06 -7.43581746949E-01 +6.32872256008E-01
1.02000000000E+09 -6.31426747266E-01 +7.30105693787E-01 -5.10394815239E-05 -1.41650324631E-05 -1.58296270882E-05 +4.05292611908E-05 -7.40268615587E-01 +6.36277669320E-01
1.02500000000E+09 -6.29484609465E-01 +7.33103898780E-01 +4.03876584203E-05 -4.90645031505E-08 +1.17859023782E-05 -1.68922323029E-05 -7.37602558326E-01 +6.39865259756E-01
1.03000000000E+09 -6.27900930546E-01 +7.35591167821E-01 +1.21429012360E-05 +3.12298122906E-05 +3.95235849875E-06 +2.80369672894E-05 -7.34171005450E-01 +6.43867924503E-01
1.03500000000E+09 -6.25704125893E-01 +7.38013496895E-01 -3.74901605264E-05 +4.84262007264E-06 -1.86315650137E-06 +2.22726357862E-05 -7.30180681785E-01 +6.47783643419E-01
1.04000000000E+09 -6.22321883702E-01 +7.41009829590E-01 -2.39130588926E-06 +1.85030662739E-05 -3.60321643854E-05 +5.97212316134E-06 -7.26451231771E-01 +6.51436616988E-01
1.04500000000E+09 -6.17558117242E-01 +7.44563569613E-01 +1.93255402371E-05 +3.26167985482E-05 -1.53487376043E-05 +1.33789838049E-05 -7.22961226299E-01 +6.55038975605E-01
1.05000000000E+09 -6.10890298456E-01 +7.48664914818E-01 +3.10340673791E-05 -2.21036187990E-05 -8.90515829947E-06 +8.18758782240E-05 -7.19561048197E-01 +6.58365518501E-01
1.05500000000E+09 -6.03125516280E-01 +7.53233723244E-01 +1.77437165792E-05 +4.30119716577E-06 +1.36008807768E-05 +2.37714145451E-05 -7.16211292690E-01 +6.61966815071E-01
1.06000000000E+09 -5.94526090557E-01 +7.58233218932E-01 +2.97697408690E-05 +1.62408571449E-06 +4.02931572748E-05 +4.28044193740E-05 -7.13010197611E-01 +6.65825241547E-01
1.06500000000E+09 -5.86247112773E-01 +7.63330426822E-01 +4.16583434227E-05 +3.87019308866E-05 +1.01112695587E-05 -2.02217413013E-05 -7.09045244958E-01 +6.69649432221E-01
1.07000000000E+09 -5.78889173857E-01 +7.67699382012E-01 +3.38332301092E-05 +4.62825207996E-05 -2.03576328163E-05 +2.29546377171E-05 -7.05012762728E-01 +6.73364654205E-01
1.07500000000E+09 -5.73123309649E-01 +7.71538802252E-01 +8.23113193744E-06 +3.96284197757E-05 -1.45286077342E-06 +1.53026925424E-05 -7.00685176773E-01 +6.77112528252E-01
1.08000000000E+09 -5.69169683343E-01 +7.75028093123E-01 -2.58108105065E-05 +1.93378051271E-05 +3.07372829138E-05 +3.42560275348E-05 -6.96746347166E-01 +6.80731224134E-01
1.08500000000E+09 -5.66295705955E-01 +7.77353440917E-01 -2.54861323411E-05 -2.97634180803E-06 +4.80065752034E-05 +6.47608636761E-05 -6.93174519671E-01 +6.84450010451E-01
1.09000000000E+09 -5.64390492121E-01 +7.79500438053E-01 +2.12190164183E-05 +2.67931648978E-05 +9.83339452418E-06 +2.70271976352E-05 -6.89397864594E-01 +6.88302694343E-01
1.09500000000E+09 -5.62718387563E-01 +7.81487095302E-01 +1.07669705132E-05 +6.93745274681E-05 +5.62600253218E-05 +3.13998503455E-05 -6.85703147940E-01 +6.92120479606E-01
1.10000000000E+09 -5.60045263913E-01 +7.83428739947E-01 +3.66195884800E-05 -2.41309770920E-06 +5.38433859765E-05 +3.24345520872E-05 -6.81780907518E-01 +6.95915493712E-01
1.10500000000E+09 -5.56284100134E-01 +7.86065058648E-01 +5.92066578346E-05 +5.85450505887E-05 +2.37563295127E-05 +5.84732244247E-05 -6.77432098256E-01 +6.99430966311E-01
1.11000000000E+09 -5.50866709952E-01 +7.89180559281E-01 +2.53987380422E-05 +5.35303170061E-06 +5.60088923093E-05 +8.83294208457E-06 -6.73367547575E-01 +7.02791712300E-01
1.11500000000E+09 -5.44047471248E-01 +7.93026704056E-01 +4.45608071331E-05 +2.20534875035E-05 +8.50542067930E-07 +6.68227981333E-05 -6.69343195102E-01 +7.06135592239E-01
1.12000000000E+09 -5.36517134472E-01 +7.96957675190E-01 +4.23764788359E-05 +3.01663186830E-05 +4.48419392201E-05 -2.58073039488E-06 -6.65465939502E-01 +7.09686689051E-01
1.12500000000E+09 -5.28547812482E-01 +8.01033409847E-01 +5.67476619209E-05 -1.35681641898E-06 +5.46058633922E-06 +3.78112767932E-05 -6.61121903348E-01 +7.13693732635E-01
1.13000000000E+09 -5.21276509203E-01 +8.04721116461E-01 +3.50928584318E-05 -2.24877078811E-05 +3.42331287460E-05 -1.61028587132E-06 -6.56832921145E-01 +7.17469269633E-01
1.13500000000E+09 -5.14594851239E-01 +8.07583823695E-01 +6.77999098162E-05 +1.18230239899E-06 +2.71262482739E-05 +5.81160024544E-05 -6.52080855000E-01 +7.21490195921E-01
1.14000000000E+09 -5.09159877739E-01 +8.10171451509E-01 +7.14930678598E-05 +8.23679195022E-06 +5.52742183000E-05 +4.41361217737E-05 -6.47290853005E-01 +7.24743183361E-01
1.14500000000E+09 -5.04960107118E-01 +8.11999880614E-01 +8.00426787770E-05 +1.43314050872E-05 +6.83544943579E-05 +1.71622127543E-05 -6.42760316280E-01 +7.28357651337E-01
1.15000000000E+09 -5.01258978859E-01 +8.13726143149E-01 +7.09403272810E-05 +1.80934824254E-05 +1.02951268178E-04 -8.76678711476E-07 -6.38136445221E-01 +7.32243648283E-01
1.15500000000E+09 -4.97651257892E-01 +8.15670755759E-01 +8.57474843163E-05 -3.55667354049E-06 +4.59627032935E-05 -1.02598345344E-05 -6.33462151804E-01 +7.35971651712E-01
1.16000000000E+09 -4.93342280677E-01 +8.17808168063E-01 +7.03878868672E-05 +4.28251106635E-05 +6.08165605603E-05 -3.22737527847E-07 -6.28646679411E-01 +7.39878087826E-01
1.16500000000E+09 -4.88005350007E-01 +8.20672446024E-01 +5.70245452190E-05 -3.84342160253E-05 +1.31844140540E-04 +4.52597541889E-05 -6.23746869680E-01 +7.43432576038E-01
1.17000000000E+09 -4.81803641391E-01 +8.23866497243E-01 +8.52602170258E-05 -1.03887214164E-06 +6.15555645922E-05 -1.98057597004E-05 -6.18231744928E-01 +7.46650282178E-01
1.17500000000E+09 -4.74374423229E-01 +8.27464951323E-01 +9.59888950025E-05 -2.90119969981E-05 +9.57210741551E-05 +3.32473389867E-06 -6.12504318990E-01 +7.49885071593E-01
1.18000000000E+09 -4.66634056939E-01 +8.31124569178E-01 +9.05353550675E-05 -5.23145220921E-05 +1.52266648477E-04 -3.65781920684E-05 -6.07297197901E-01 +7.53046494040E-01
1.18500000000E+09 -4.58872240097E-01 +8.34556106377E-01 +1.46589305306E-04 -7.07675384981E-05 +1.10003462357E-04 -1.15955875559E-04 -6.01406470836E-01 +7.55956038037E-01
1.19000000000E+09 -4.51463537571E-01 +8.37243455827E-01 +9.88068192368E-05 -1.14555656608E-04 +1.29459707921E-04 -1.21415515181E-04 -5.95413581115E-01 +7.58674411060E-01
1.19500000000E+09 -4.45147067042E-01 +8.39424693962E-01 +1.20738566930E-04 -1.39087348499E-04 +1.23362718321E-04 -1.87291106186E-04 -5.89614754996E-01 +7.59852530199E-01
1.20000000000E+09 -4.39707073017E-01 +8.40560324270E-01 -1.71736419728E-06 -2.34623054406E-04 +5.05199080931E-05 -2.41301977931E-04 -5.85051435935E-01 +7.60174225824E-01
1.20500000000E+09 -4.34877466603E-01 +8.41849084469E-01 -5.67127448028E-05 -2.15306383658E-04 -1.04683328091E-04 -1.52397801740E-04 -5.82558947232E-01 +7.60973980016E-01
1.21000000000E+09 -4.30156892210E-01 +8.43332864809E-01 -2.37598543514E-05 -1.29145619404E-04 -2.21529136429E-05 -1.15726579819E-04 -5.80611027930E-01 +7.64205475588E-01
1.21500000000E+09 -4.24327604077E-01 +8.45342813895E-01 -4.38879613092E-05 -3.94410138562E-05 +3.85678186358E-06 -1.19482104793E-04 -5.77906410028E-01 +7.68664447199E-01
1.22000000000E+09 -4.17393765879E-01 +8.47722067420E-01 +2.12514399891E-05 -1.39501761827E-04 +3.17823417063E-05 -1.05047469851E-04 -5.73754515736E-01 +7.73998102737E-01
1.22500000000E+09 -4.09137831141E-01 +8.50791959943E-01 -3.94341527262E-06 -1.48977285678E-04 +3.29312339670E-05 -1.65655459423E-04 -5.68647082751E-01 +7.79150838762E-01
1.23000000000E+09 -4.00009314742E-01 +8.54251243730E-01 +1.81703918543E-05 -1.90037855890E-04 -5.44464750093E-07 -1.39420479503E-04 -5.63019268367E-01 +7.83800010745E-01
1.23500000000E+09 -3.90563062418E-01 +8.58162683156E-01 -2.03629346110E-05 -1.79765494246E-04 -2.99958937850E-05 -1.16548641476E-04 -5.57314060162E-01 +7.88046964496E-01
1.24000000000E+09 -3.80944061901E-01 +8.61935924038E-01 -4.11740373216E-06 -1.84560683766E-04 +1.03185022045E-05 -1.67017800988E-04 -5.51331171714E-01 +7.91891535235E-01
1.24500000000E+09 -3.72150440118E-01 +8.65911099178E-01 -1.02606523542E-04 -1.89453052142E-04 -5.73754222441E-05 -1.78432444785E-04 -5.45010858788E-01 +7.95790357821E-01
1.25000000000E+09 -3.64145509054E-01 +8.68984218754E-01 -8.24436739196E-05 -1.87197444384E-04 -6.25056547351E-05 -2.30540906622E-04 -5.38756909330E-01 +7.99986166147E-01
1.25500000000E+09 -3.57252944255E-01 +8.71152017925E-01 -1.11871238098E-04 -1.62814077709E-04 -8.18476210409E-05 -1.82454739382E-04 -5.31978207114E-01 +8.03947652510E-01
1.26000000000E+09 -3.51024112008E-01 +8.72689672789E-01 -7.41242246737E-05 -1.75224135268E-04 -1.03637765475E-04 -2.13555053478E-04 -5.25374693759E-01 +8.08207990987E-01
1.26500000000E+09 -3.45130497560E-01 +8.73715671890E-01 -1.06562798725E-04 -2.01178268893E-04 -9.63846479712E-05 -2.03256039016E-04 -5.18432563741E-01 +8.12038417679E-01
1.27000000000E+09 -3.38780255792E-01 +8.74858803632E-01 -1.98180904879E-04 -1.85064579307E-04 -1.45471468785E-04 -2.30976133308E-04 -5.11469079263E-01 +8.15936629633E-01
1.27500000000E+09 -3.31098492450E-01 +8.76233280955E-01 -2.23392909036E-04 -2.22662644633E-04 -2.25296757470E-04 -1.69555554542E-04 -5.04358735702E-01 +8.19565724448E-01
1.28000000000E+09 -3.22016700774E-01 +8.78061065177E-01 -2.35174665474E-04 -1.73271875053E-04 -2.33279993251E-04 -1.78424499251E-04 -4.97384378407E-01 +8.23100849002E-01
1.28500000000E+09 -3.10892874850E-01 +8.80496421238E-01 -2.65551298939E-04 -1.60379759344E-04 -3.13305896887E-04 -1.34098562823E-04 -4.89945001813E-01 +8.26876235650E-01
1.29000000000E+09 -2.98957441325E-01 +8.83497579134E-01 -3.30586567813E-04 -1.12314757146E-04 -3.73811377426E-04 -1.66850000593E-04 -4.82434841180E-01 +8.30719507343E-01
1.29500000000E+09 -2.86587815070E-01 +8.86921778505E-01 -3.23083819210E-04 -9.94083519077E-05 -3.57019449923E-04 -1.19094247905E-04 -4.74455000451E-01 +8.34383218450E-01
1.30000000000E+09 -2.74567391144E-01 +8.90403772227E-01 -3.63257901475E-04 -1.08760108943E-04 -3.82563948416E-04 -4.39021707414E-05 -4.66686996679E-01 +8.37968524698E-01
1.30500000000E+09 -2.63786117492E-01 +8.93343649262E-01 -4.39682215835E-04 -9.44022013971E-05 -4.34292388354E-04 -5.18018509942E-05 -4.58631596402E-01 +8.41450490371E-01
1.31000000000E+09 -2.54560584677E-01 +8.95670446391E-01 -5.17474180292E-04 +2.08948701206E-05 -4.61035540885E-04 +3.54476393044E-05 -4.50297583461E-01 +8.44865527095E-01
1.31500000000E+09 -2.47072917713E-01 +8.97108504761E-01 -4.81944295421E-04 +7.77428487683E-05 -4.74944942091E-04 +5.73484433433E-05 -4.41622882909E-01 +8.48436304869E-01
1.32000000000E+09 -2.40861919548E-01 +8.97862475339E-01 -4.50629423670E-04 +1.43867308223E-04 -4.35242206247E-04 +1.35961298644E-04 -4.32605913867E-01 +8.51901364395E-01
1.32500000000E+09 -2.35053497233E-01 +8.98127544580E-01 -4.71404161915E-04 +1.46543047908E-04 -5.54367357209E-04 +1.64354019252E-04 -4.23258819758E-01 +8.55064283885E-01
1.33000000000E+09 -2.28277066278E-01 +8.98182012528E-01 -5.69713342430E-04 +2.32302492265E-04 -5.64179663069E-04 +3.01851553866E-04 -4.13674003571E-01 +8.58387917488E-01
1.33500000000E+09 -2.19547825514E-01 +8.98314394794E-01 -5.55104631672E-04 +3.21983861396E-04 -4.90434032076E-04 +3.73165375337E-04 -4.04005774972E-01 +8.61641570030E-01
1.34000000000E+09 -2.08381287679E-01 +8.98480045960E-01 -5.69321430465E-04 +4.55609354672E-04 -4.58126916420E-04 +4.45433259674E-04 -3.93834770832E-01 +8.64937494934E-01
1.34500000000E+09 -1.94570845695E-01 +8.98903989390E-01 -4.94732519076E-04 +5.61632310866E-04 -4.92976268528E-04 +5.62099837898E-04 -3.82986241004E-01 +8.68147466938E-01
1.35000000000E+09 -1.78932264812E-01 +8.99368407757E-01 -3.86590819984E-04 +6.18356445258E-04 -4.21079713389E-04 +5.52427646086E-04 -3.71830729346E-01 +8.71225955938E-01
1.35500000000E+09 -1.62027350960E-01 +9.00229639842E-01 -3.36934144170E-04 +6.94848069573E-04 -3.74164354282E-04 +6.78501614081E-04 -3.60134318920E-01 +8.74362246996E-01
1.36000000000E+09 -1.45074803909E-01 +9.00789836694E-01 -3.09709185605E-04 +8.06331188896E-04 -3.17834968607E-04 +7.57535367317E-04 -3.48460141725E-01 +8.77068032632E-01
1.36500000000E+09 -1.29280217020E-01 +9.01157602182E-01 -2.53955150670E-04 +8.59191440395E-04 -2.70482154421E-04 +8.61033460326E-04 -3.36247758394E-01 +8.79568663698E-01
1.37000000000E+09 -1.14940261623E-01 +9.00923560482E-01 -1.83155634693E-04 +9.69940748899E-04 -2.21786772316E-04 +9.40377991603E-04 -3.23459456267E-01 +8.82056313651E-01
1.37500000000E+09 -1.02626354392E-01 +9.00221047647E-01 +6.13234290218E-06 +1.03647264232E-03 -1.03266525971E-04 +9.92583893132E-04 -3.09554536516E-01 +8.84523406798E-01
1.38000000000E+09 -9.12692427565E-02 +8.99371370353E-01 +8.32025781136E-05 +1.00663456574E-03 -5.27678961332E-05 +1.12803519898E-03 -2.94929141921E-01 +8.86782634410E-01
1.38500000000E+09 -7.97232472748E-02 +8.97841742005E-01 +1.90909348489E-04 +1.12641381362E-03 +1.29901146834E-04 +1.23679076009E-03 -2.79385908025E-01 +8.88783191858E-01
1.39000000000E+09 -6.74264968550E-02 +8.95593507369E-01 +3.12763820637E-04 +1.19284152398E-03 +3.22772822299E-04 +1.40768216650E-03 -2.63460646160E-01 +8.90326649999E-01
1.39500000000E+09 -5.30641141103E-02 +8.92623868203E-01 +4.46430067795E-04 +1.24851751856E-03 +5.74377671133E-04 +1.36151539556E-03 -2.46967528830E-01 +8.91126844558E-01
1.40000000000E+09 -3.60691526801E-02 +8.88971427536E-01 +6.07554041070E-04 +1.31672646027E-03 +6.96798951765E-04 +1.28008563523E-03 -2.29554642020E-01 +8.91623083935E-01
1.40500000000E+09 -1.69282105476E-02 +8.84374129398E-01 +8.77658534350E-04 +1.40262290789E-03 +9.19006721935E-04 +1.31959716590E-03 -2.11005547819E-01 +8.91382733954E-01
1.41000000000E+09 +4.21650289309E-03 +8.79059229896E-01 +1.15823822133E-03 +1.37496244286E-03 +1.14326970375E-03 +1.36578943007E-03 -1.90684862849E-01 +8.91055610132E-01
1.41500000000E+09 +2.64351042296E-02 +8.73108833844E-01 +1.50774432051E-03 +1.28446116834E-03 +1.52681608890E-03 +1.39412766403E-03 -1.69065803752E-01 +8.89629187071E-01
1.42000000000E+09 +4.90667438045E-02 +8.65976916291E-01 +1.77767550001E-03 +1.07557667520E-03 +1.91396823575E-03 +1.21641623052E-03 -1.46144700731E-01 +8.87090393350E-01
1.42500000000E+09 +7.07345376320E-02 +8.58070849196E-01 +1.94551160893E-03 +9.76649680824E-04 +2.21732573030E-03 +1.05296634611E-03 -1.22525014715E-01 +8.83377859274E-01
1.43000000000E+09 +9.18091771521E-02 +8.48892357037E-01 +2.33187524626E-03 +9.64442284621E-04 +2.64188332334E-03 +8.75241729170E-04 -9.75525570124E-02 +8.78930625446E-01
1.43500000000E+09 +1.12314952853E-01 +8.38078508000E-01 +2.89949124971E-03 +7.03943882389E-04 +3.08297640154E-03 +3.72020886439E-04 -7.11291471363E-02 +8.72178396524E-01
1.44000000000E+09 +1.33159512070E-01 +8.26195578895E-01 +3.30437808639E-03 -4.74827699461E-05 +3.31603467016E-03 -2.19608706848E-04 -4.30260747497E-02 +8.63591350139E-01
1.44500000000E+09 +1.55888959574E-01 +8.11168653164E-01 +3.36659137989E-03 -7.02260939913E-04 +3.33515054595E-03 -8.88723876238E-04 -1.25913535438E-02 +8.52242490683E-01
1.45000000000E+09 +1.80273943342E-01 +7.92946378430E-01 +3.30907139781E-03 -1.21273876787E-03 +3.29221294995E-03 -1.50274062845E-03 +1.91343309818E-02 +8.37766176376E-01
1.45500000000E+09 +2.06964087561E-01 +7.70970812564E-01 +3.36127863121E-03 -1.52302302572E-03 +3.25696826621E-03 -1.87902531083E-03 +5.26485475878E-02 +8.20490243879E-01
1.46000000000E+09 +2.36177496342E-01 +7.45043501594E-01 +3.59392564106E-03 -2.11962914388E-03 +3.25731410778E-03 -2.38470272643E-03 +8.76117026663E-02 +7.98749851344E-01
1.46500000000E+09 +2.66707556790E-01 +7.14288985421E-01 +3.92575155690E-03 -3.08470678073E-03 +3.41004673781E-03 -3.06309300713E-03 +1.23748803623E-01 +7.72109521942E-01
1.47000000000E+09 +2.97564729202E-01 +6.79074707269E-01 +3.74053218023E-03 -4.50632474272E-03 +3.44454972551E-03 -4.14871274815E-03 +1.61043678090E-01 +7.38082297244E-01
1.47500000000E+09 +3.27707077395E-01 +6.39048868684E-01 +2.80541633370E-03 -5.82693430445E-03 +2.92670882360E-03 -5.46754234049E-03 +1.97614250308E-01 +6.97130600454E-01
1.48000000000E+09 +3.55544241181E-01 +5.92514410478E-01 +1.76399363025E-03 -6.75511507526E-03 +1.97566123228E-03 -6.76748687694E-03 +2.34375624927E-01 +6.47522888864E-01
1.48500000000E+09 +3.78140654356E-01 +5.39582620850E-01 +5.22161320548E-04 -7.80797730077E-03 +4.12396474835E-04 -8.02175649768E-03 +2.67804761417E-01 +5.88794427689E-01
1.49000000000E+09 +3.95797984688E-01 +4.79338874832E-01 -1.34751087349E-03 -8.67033252607E-03 -1.72480233962E-03 -8.60719343821E-03 +2.96308897320E-01 +5.19597938084E-01
1.49500000000E+09 +4.05162982327E-01 +4.11322129037E-01 -3.95292724026E-03 -8.77429319705E-03 -4.11441561343E-03 -8.27966072322E-03 +3.14391882584E-01 +4.40102699761E-01
1.50000000000E+09 +4.05346558148E-01 +3.34509023757E-01 -6.30117690471E-03 -8.27735065516E-03 -5.93017992868E-03 -7.76610178968E-03 +3.19805977167E-01 +3.51831708200E-01
1.50500000000E+09 +3.92753120592E-01 +2.49692722616E-01 -8.97848466074E-03 -7.00539401220E-03 -8.38198996143E-03 -7.00553753570E-03 +3.09496941613E-01 +2.55532008425E-01
1.51000000000E+09 +3.64552487332E-01 +1.59834986269E-01 -1.09613007782E-02 -4.26503276027E-03 -1.06057906491E-02 -4.61568579542E-03 +2.78009574966E-01 +1.53616019678E-01
1.51500000000E+09 +3.17381896163E-01 +6.88744845130E-02 -1.22987855746E-02 -2.08539559534E-03 -1.23365798511E-02 -2.45685243739E-03 +2.21495120677E-01 +5.74074098031E-02
1.52000000000E+09 +2.50063856783E-01 -1.35817975584E-02 -1.40134260762E-02 +1.45242114662E-03 -1.41721900189E-02 +1.23556118189E-03 +1.46231821444E-01 -2.72420367216E-02
1.52500000000E+09 +1.66441505530E-01 -8.20478840624E-02 -1.28653267408E-02 +7.32440747179E-03 -1.30641793559E-02 +7.20854333236E-03 +5.27077481409E-02 -9.55158842275E-02
1.53000000000E+09 +6.87224715866E-02 -1.31755576487E-01 -8.90285603237E-03 +9.68170499627E-03 -8.99792016433E-03 +9.71884867368E-03 -5.43029257369E-02 -1.39859276353E-01
1.53500000000E+09 -3.86257032718E-02 -1.57080548939E-01 -6.15432442887E-03 +1.15909804381E-02 -6.16990031487E-03 +1.16169151342E-02 -1.63896584184E-01 -1.59983713503E-01
1.54000000000E+09 -1.47740355064E-01 -1.56013409734E-01 -2.63197601147E-03 +1.18121626753E-02 -2.70977545702E-03 +1.16797033533E-02 -2.71425727554E-01 -1.57893577133E-01
1.54500000000E+09 -2.50171951715E-01 -1.32687695874E-01 +6.63329093735E-04 +1.16591802570E-02 +3.57412369016E-04 +1.15859529992E-02 -3.69738787097E-01 -1.36286856750E-01
1.55000000000E+09 -3.43536206048E-01 -9.24111854725E-02 +2.89911071664E-03 +1.04926948913E-02 +2.49547208946E-03 +1.06404433716E-02 -4.55466897463E-01 -9.96823974632E-02
1.55500000000E+09 -4.23591217102E-01 -3.82730200097E-02 +5.74986649693E-03 +8.82819470095E-03 +5.47844608614E-03 +9.29860939076E-03 -5.26340381202E-01 -5.29473733339E-02
1.56000000000E+09 -4.87316679484E-01 +2.03745913974E-02 +6.92055822649E-03 +5.80629434118E-03 +7.02231594219E-03 +6.35639256025E-03 -5.84298889193E-01 -7.18812449387E-04
1.56500000000E+09 -5.38111709456E-01 +8.03465376207E-02 +6.80333007684E-03 +4.07710229715E-03 +7.08588450943E-03 +4.45058212930E-03 -6.28735769917E-01 +5.50791249170E-02
1.57000000000E+09 -5.76915532772E-01 +1.39131378201E-01 +6.85930842477E-03 +2.37417296799E-03 +7.30470551037E-03 +2.51053803344E-03 -6.62381777421E-01 +1.08473853383E-01
