# Hz S RI R 50
! CMT, C1220, 16058040, 17.2.0/1
! Date: 14/08/2018 12:22:12
! Data: Format (Calibration Info)
! Freq                      S11: Re/Im (F2)                       S21: Re/Im (F2)                       S12: Re/Im (F2)                       S22: Re/Im (F2)            
1.00000000000E+09 -6.45198071763E-01 +7.15676860539E-01 -2.60012609400E-05 -1.51190233767E-05 -1.12461593178E-06 +1.27088173760E-05 -7.47957669926E-01 +6.24198443778E-01
1.00500000000E+09 -6.38128859416E-01 +7.20891338018E-01 +7.58935375224E-06 +3.11235001637E-05 +3.84354718634E-05 -1.00346269664E-05 -7.44371035360E-01 +6.28245664809E-01
1.01000000000E+09 -6.32165715239E-01 +7.25407269588E-01 +5.33227430768E-06 +1.38635476182E-05 +4.80139874647E-06 -6.69131770474E-06 -7.40753435984E-01 +6.31982349438E-01
1.01500000000E+09 -6.27889767348E-01 +7.29193045920E-01 -4.46370765146E-05 +1.90931589008E-05 +1.43963569561E-05 -2.75837449709E-05 -7.37541799550E-01 +6.35549798792E-01
1.02000000000E+09 -6.25412160013E-01 +7.32399721502E-01 -5.81670847500E-06 -1.64921626124E-05 +2.90470061654E-05 -5.43464176503E-05 -7.34080425580E-01 +6.39096586091E-01
1.02500000000E+09 -6.23766255069E-01 +7.34930950208E-01 -3.39979895483E-05 +2.26799394369E-05 -2.10353934587E-05 +3.19467868383E-05 -7.31197094780E-01 +6.42696216374E-01
1.03000000000E+09 -6.22665410378E-01 +7.37324507230E-01 +1.97405041204E-06 +2.66351836237E-05 +2.05850399901E-05 -8.67173915381E-06 -7.27813638453E-01 +6.46602122851E-01
1.03500000000E+09 -6.20714245886E-01 +7.39671345446E-01 +1.17436131662E-05 +5.70247653471E-05 -2.78522042522E-05 -3.33712560348E-05 -7.23906816045E-01 +6.50600252747E-01
1.04000000000E+09 -6.17274835003E-01 +7.42389861899E-01 +1.84959627713E-05 +1.61640551500E-05 -3.23041488006E-05 +8.56410126859E-06 -7.20109013586E-01 +6.54080000339E-01
1.04500000000E+09 -6.11965784915E-01 +7.45655640743E-01 +5.17778485112E-05 +1.76246034469E-06 -3.81303373401E-05 -1.94353635365E-05 -7.16555916410E-01 +6.57730501138E-01
1.05000000000E+09 -6.04874378136E-01 +7.49750624279E-01 +2.13891646870E-06 -2.42161200643E-05 +2.93090131722E-05 +2.47071407029E-05 -7.13146117825E-01 +6.60923542557E-01
1.05500000000E+09 -5.96115640568E-01 +7.54470415587E-01 +4.49137739097E-05 +1.85094316132E-05 -1.27770085711E-05 +5.91277672423E-05 -7.09962517861E-01 +6.64506501239E-01
1.06000000000E+09 -5.86833594514E-01 +7.59558783748E-01 +2.40632759355E-06 +4.54447406673E-05 +4.42927169291E-06 -1.25205578563E-05 -7.06715879980E-01 +6.68371157785E-01
1.06500000000E+09 -5.77726200423E-01 +7.64686032647E-01 +7.79867285822E-06 +6.89565507312E-05 +1.86995976923E-05 -3.64071812893E-05 -7.02898985403E-01 +6.72185175822E-01
1.07000000000E+09 -5.69700907653E-01 +7.69184577557E-01 +3.88460904513E-05 +5.07663320973E-05 +4.63035559832E-06 +3.71420757725E-05 -6.98786321420E-01 +6.75693434236E-01
1.07500000000E+09 -5.63491712888E-01 +7.72996801706E-01 +3.43112757415E-05 -7.02457044207E-06 +2.14496074084E-05 -7.24020247814E-06 -6.94530395320E-01 +6.79439971932E-01
1.08000000000E+09 -5.59166193061E-01 +7.76320669946E-01 -1.52565245645E-05 +1.06439894461E-05 +2.11868601156E-05 -1.53636162617E-05 -6.90575438749E-01 +6.83179532159E-01
1.08500000000E+09 -5.56198396112E-01 +7.78719504487E-01 +3.11328777413E-05 +5.01043290186E-05 +2.68008905585E-05 +3.86543507735E-05 -6.86583873350E-01 +6.86858082385E-01
1.09000000000E+09 -5.54265085357E-01 +7.80903819669E-01 +2.77096002715E-05 +2.24730662680E-05 -5.64225746448E-06 +3.99883959892E-06 -6.82762874600E-01 +6.90912791097E-01
1.09500000000E+09 -5.52480941614E-01 +7.82643902827E-01 -1.74698308917E-05 -1.58728723368E-05 +6.04426841750E-05 -2.44068143729E-05 -6.78995763522E-01 +6.94742972347E-01
1.10000000000E+09 -5.49499338295E-01 +7.84532038028E-01 +5.10130369101E-05 -3.66610364388E-05 +1.73336343844E-05 -5.39354956628E-05 -6.74942201801E-01 +6.98409614482E-01
1.10500000000E+09 -5.45317442311E-01 +7.87215581648E-01 +1.69440064270E-05 -6.33064109255E-05 +2.29051352259E-05 -2.09685609838E-05 -6.70768088634E-01 +7.01839232277E-01
1.11000000000E+09 -5.39620922266E-01 +7.90498408601E-01 +8.01134847944E-05 -1.05554742946E-05 +1.28284748978E-05 -1.49712898000E-05 -6.66442579896E-01 +7.05322974126E-01
1.11500000000E+09 -5.32399319869E-01 +7.94334030534E-01 -3.87229710307E-05 -2.14009534763E-06 +7.57782174820E-06 -3.28394974309E-05 -6.62344910419E-01 +7.08620252089E-01
1.12000000000E+09 -5.24534018824E-01 +7.98168893174E-01 +1.30801819468E-05 -2.80408920577E-05 -1.13932514312E-05 -7.33717529764E-05 -6.58414480142E-01 +7.12278168526E-01
1.12500000000E+09 -5.16154207486E-01 +8.02394376364E-01 +5.03720579017E-05 -3.85739872612E-05 -3.06094939876E-06 -4.33854263057E-05 -6.54139722009E-01 +7.16323034676E-01
1.13000000000E+09 -5.08895265670E-01 +8.05964284688E-01 +1.89863761762E-05 -7.47173097128E-05 -3.15858956468E-05 -3.86693706798E-05 -6.49896981908E-01 +7.19934269327E-01
1.13500000000E+09 -5.02419698898E-01 +8.08951845024E-01 +1.14190790271E-05 -8.50804391557E-05 +1.71119378664E-06 +5.13900873385E-06 -6.45405087542E-01 +7.23932904050E-01
1.14000000000E+09 -4.97121347504E-01 +8.11344202311E-01 +5.24399427959E-05 -3.18676813618E-05 -1.22542554702E-05 -2.99492217994E-05 -6.40670493169E-01 +7.27031338488E-01
1.14500000000E+09 -4.93162820131E-01 +8.13049684564E-01 +9.80838392417E-06 -7.84416307005E-06 -1.83053526957E-05 +6.55429814133E-06 -6.36140916134E-01 +7.30499337466E-01
1.15000000000E+09 -4.89184781085E-01 +8.14388897171E-01 -1.58662720508E-05 -4.12365638283E-06 -2.78114736640E-05 -2.77845757407E-05 -6.31456068837E-01 +7.34382202634E-01
1.15500000000E+09 -4.85573908377E-01 +8.16221979343E-01 -8.60504426362E-06 -6.60115363971E-05 -1.99631570692E-05 -3.35722568556E-05 -6.26626967886E-01 +7.38166643285E-01
1.16000000000E+09 -4.80659954065E-01 +8.17971007634E-01 +2.59738430238E-05 -2.34551419640E-05 +3.70221384026E-05 -5.52586119105E-05 -6.21789570754E-01 +7.41848885651E-01
1.16500000000E+09 -4.74764388295E-01 +8.20441502779E-01 -3.85073749052E-05 +1.51593449699E-05 -1.17023101567E-05 -3.22967147424E-05 -6.16880914090E-01 +7.45471772734E-01
1.17000000000E+09 -4.67601074696E-01 +8.23593168667E-01 +1.13643196660E-05 -4.05236396195E-05 +8.59158272396E-06 -4.29150867701E-05 -6.11202092253E-01 +7.48721442953E-01
1.17500000000E+09 -4.59588444766E-01 +8.26776405819E-01 -4.60771283355E-06 -4.87370138452E-05 -4.55882623656E-06 +7.73418750388E-06 -6.05600773134E-01 +7.51970037453E-01
1.18000000000E+09 -4.51396400482E-01 +8.30492226277E-01 +1.44170351508E-05 -4.60608840509E-05 -1.93869310069E-06 -7.96062689341E-05 -6.00168281018E-01 +7.55114785242E-01
1.18500000000E+09 -4.43428049845E-01 +8.33637499402E-01 +1.65308272958E-05 -3.38883047222E-05 -1.00116015403E-05 -2.83330179741E-05 -5.94113282501E-01 +7.58047318640E-01
1.19000000000E+09 -4.36282760036E-01 +8.36456330789E-01 -6.97212949309E-06 -5.36230455423E-05 +1.11490360273E-05 -6.37942506923E-05 -5.87963105774E-01 +7.60645825842E-01
1.19500000000E+09 -4.30116788008E-01 +8.38463948237E-01 -6.05723317965E-05 -6.04898530118E-05 -4.29078794268E-05 -1.39923273941E-04 -5.82067020114E-01 +7.61854305900E-01
1.20000000000E+09 -4.25205037613E-01 +8.39428594490E-01 -1.11585368251E-04 -1.41062000232E-05 -8.61002142313E-05 -2.80684297167E-05 -5.77630838870E-01 +7.62085276872E-01
1.20500000000E+09 -4.20840443917E-01 +8.40415080848E-01 -4.85763843301E-05 -3.81711427912E-05 -1.20592289643E-04 -4.12806559710E-06 -5.75241114507E-01 +7.63010904399E-01
1.21000000000E+09 -4.16216063642E-01 +8.41412710153E-01 -7.55938996562E-05 +3.10484653585E-05 -4.67291955468E-05 +5.26508025210E-06 -5.73423342010E-01 +7.66026108965E-01
1.21500000000E+09 -4.10161673484E-01 +8.42743441313E-01 -4.09714751921E-05 +9.66097355871E-06 -6.45874912124E-05 +4.16470270576E-05 -5.70724838785E-01 +7.70526926292E-01
1.22000000000E+09 -4.02496698484E-01 +8.44415961468E-01 -6.30509469971E-05 -3.91011214969E-06 +5.09006880737E-06 +1.37719607138E-05 -5.66567656458E-01 +7.75712687046E-01
1.22500000000E+09 -3.93316338702E-01 +8.46776650137E-01 +9.17667537272E-06 +3.58793122641E-05 -3.31521677405E-05 -2.51940071327E-05 -5.61285786544E-01 +7.80920783861E-01
1.23000000000E+09 -3.82678206388E-01 +8.49704549685E-01 +7.05107367947E-06 +3.46458970372E-05 +1.13909297599E-05 +2.35313935380E-05 -5.55636098510E-01 +7.85519103559E-01
1.23500000000E+09 -3.71700002699E-01 +8.53279244964E-01 +1.05983719340E-05 -3.04826433483E-05 +2.44871488851E-05 -1.99076130973E-05 -5.49964897675E-01 +7.89839955010E-01
1.24000000000E+09 -3.60783487818E-01 +8.56759344703E-01 -4.38050317520E-05 +9.65906941590E-06 +1.38057653315E-05 +2.75365181836E-05 -5.44004927022E-01 +7.93635486908E-01
1.24500000000E+09 -3.51084826976E-01 +8.60670697050E-01 -1.42227457610E-05 -1.82487357772E-06 -9.74045575976E-06 -8.76288460422E-06 -5.37577634489E-01 +7.97469337658E-01
1.25000000000E+09 -3.42436636913E-01 +8.63840351352E-01 -4.46767219249E-05 -5.35069082095E-05 -4.32065101994E-05 -6.41960196860E-05 -5.30904667089E-01 +8.01545829628E-01
1.25500000000E+09 -3.35573787060E-01 +8.66211059194E-01 -6.03166990766E-05 -2.22315407856E-05 -1.18888896806E-06 -1.52127475392E-05 -5.24166471818E-01 +8.05718067270E-01
1.26000000000E+09 -3.29949369274E-01 +8.67970783327E-01 -4.25375487935E-05 -3.26269534797E-05 -6.21676547106E-05 +9.29651059082E-06 -5.17473336440E-01 +8.09855243160E-01
1.26500000000E+09 -3.25179748239E-01 +8.69135569049E-01 -1.00558745362E-04 -4.26228148280E-05 -6.94393848260E-05 -1.44473913617E-05 -5.10509148040E-01 +8.13674792703E-01
1.27000000000E+09 -3.20061429492E-01 +8.70134941256E-01 -3.87810020673E-05 +6.74387832043E-06 -8.64259839030E-05 +1.67589178690E-05 -5.03702379522E-01 +8.17536488883E-01
1.27500000000E+09 -3.13648385454E-01 +8.70972813074E-01 -8.95496384554E-05 +3.77722132717E-05 -8.01669480973E-05 +4.97269975489E-05 -4.96633146978E-01 +8.20959869077E-01
1.28000000000E+09 -3.05464994538E-01 +8.72360787015E-01 -9.37194575010E-05 +8.35291396493E-06 -1.00628830620E-04 +4.11127963821E-05 -4.89762282427E-01 +8.24321773455E-01
1.28500000000E+09 -2.95063889656E-01 +8.74016436422E-01 -9.78966589959E-05 +5.73370354168E-05 -1.04414669991E-04 +4.57148435655E-05 -4.82344052034E-01 +8.28083265773E-01
1.29000000000E+09 -2.83368728228E-01 +8.76385488700E-01 -6.63796537548E-05 +2.77449540704E-05 -7.29933376680E-05 +3.85360948901E-05 -4.74749266685E-01 +8.31681794420E-01
1.29500000000E+09 -2.70846903460E-01 +8.79383719084E-01 -6.75136705910E-05 +3.78442538035E-05 -3.30396719765E-05 +9.71287913654E-05 -4.66980481995E-01 +8.35239953850E-01
1.30000000000E+09 -2.58434546581E-01 +8.82472145030E-01 -6.56160572477E-05 +8.73153640808E-05 -1.00681899677E-04 +1.12634583291E-04 -4.59284598868E-01 +8.38627016785E-01
1.30500000000E+09 -2.47008523545E-01 +8.85589786119E-01 -2.68000172498E-05 +7.68905778293E-05 -4.69411140581E-05 +6.79560003403E-05 -4.51062018589E-01 +8.42008422631E-01
1.31000000000E+09 -2.37127801545E-01 +8.87755868943E-01 -4.55823596835E-05 +1.32893563837E-04 -4.21671642366E-05 +1.51969759558E-04 -4.42950117020E-01 +8.45388342582E-01
1.31500000000E+09 -2.29099334296E-01 +8.89231511340E-01 +2.20265559250E-05 +7.40057479671E-05 +2.67491880706E-05 +8.42405945966E-05 -4.34253123128E-01 +8.48875968620E-01
1.32000000000E+09 -2.22481331738E-01 +8.89721088385E-01 -7.63081954813E-06 +9.53869854569E-05 -1.88431052510E-05 +4.51173910859E-05 -4.25053485966E-01 +8.52141226382E-01
1.32500000000E+09 -2.16548717995E-01 +8.89602826989E-01 -1.19651850335E-05 +6.64832559007E-05 +1.80328736862E-05 +8.18277431937E-05 -4.15626217409E-01 +8.55642770262E-01
1.33000000000E+09 -2.09847843746E-01 +8.89048378770E-01 -1.76619763237E-05 +9.54958652840E-05 -3.26448146794E-05 +9.80873281275E-05 -4.05967595685E-01 +8.58976621486E-01
1.33500000000E+09 -2.01378833445E-01 +8.88130834116E-01 -7.39279626921E-06 +7.84696627117E-05 +1.88932344477E-05 +1.38992998930E-04 -3.96121963683E-01 +8.62145070634E-01
1.34000000000E+09 -1.90573642982E-01 +8.87401631054E-01 +8.26963514340E-05 +1.12080597325E-04 +4.00909152773E-05 +1.47256124301E-04 -3.85960331076E-01 +8.65441642128E-01
1.34500000000E+09 -1.77047003140E-01 +8.86713725420E-01 +5.00054996779E-05 +1.05135935073E-04 +6.40508405800E-05 +1.03012086939E-04 -3.75198389906E-01 +8.68640420044E-01
1.35000000000E+09 -1.61615912523E-01 +8.86561505789E-01 +6.57440269285E-05 +7.31564292925E-05 +3.23498670647E-06 +8.95772394473E-05 -3.64129848595E-01 +8.71877497418E-01
1.35500000000E+09 -1.44740669749E-01 +8.86773804680E-01 +8.44544613659E-06 +1.02320529205E-04 +5.28651572382E-06 +7.77704957326E-05 -3.52565741465E-01 +8.74699863065E-01
1.36000000000E+09 -1.27951686633E-01 +8.87292431800E-01 +2.81340890329E-05 +8.63155094340E-05 +6.45899496935E-05 +4.81115340830E-05 -3.40928859942E-01 +8.77316965653E-01
1.36500000000E+09 -1.11758822311E-01 +8.87970724040E-01 -5.36801263479E-06 +1.13546022467E-04 +2.10484059485E-05 +1.52310890803E-04 -3.28802042000E-01 +8.79758301425E-01
1.37000000000E+09 -9.73101682789E-02 +8.87938366307E-01 +3.01386952516E-05 +1.75185179061E-04 +8.47816501235E-05 +1.76871114674E-04 -3.15902591503E-01 +8.82123211235E-01
1.37500000000E+09 -8.50008899851E-02 +8.87504341398E-01 +8.17332245151E-05 +1.75389415733E-04 +6.29913350144E-05 +2.07488754536E-04 -3.02305564537E-01 +8.84458194502E-01
1.38000000000E+09 -7.40323489382E-02 +8.86714247485E-01 +1.80709223494E-04 +1.91542240550E-04 +1.29835115268E-04 +2.51329234634E-04 -2.87833097943E-01 +8.86514940394E-01
1.38500000000E+09 -6.30943550657E-02 +8.85002966806E-01 +2.00532559930E-04 +1.54156447120E-04 +2.18002593032E-04 +1.86301310993E-04 -2.72274453300E-01 +8.88350259216E-01
1.39000000000E+09 -5.14341800730E-02 +8.82459847104E-01 +2.25042594813E-04 +1.19519964486E-04 +2.64515480906E-04 +1.25828301481E-04 -2.56379515166E-01 +8.89786353621E-01
1.39500000000E+09 -3.77009570713E-02 +8.78954657138E-01 +2.65733098263E-04 +7.85782877507E-05 +3.42303936588E-04 +7.12508971232E-05 -2.39883922565E-01 +8.90548842280E-01
1.40000000000E+09 -2.14947936311E-02 +8.74365433455E-01 +2.67356131936E-04 +2.50519023670E-05 +3.20365908485E-04 -2.06743797135E-05 -2.22346783864E-01 +8.91179683703E-01
1.40500000000E+09 -2.95687877056E-03 +8.69252952652E-01 +2.88928245114E-04 -4.98963743215E-05 +2.60117231826E-04 -6.04823053270E-05 -2.03672758002E-01 +8.91092123027E-01
1.41000000000E+09 +1.76501847898E-02 +8.63642704092E-01 +2.48535022311E-04 -2.70971782031E-05 +2.26477301759E-04 -1.28598100043E-05 -1.83500412204E-01 +8.90260240076E-01
1.41500000000E+09 +3.95479928157E-02 +8.57902145329E-01 +2.20263203656E-04 -9.40351667439E-05 +2.17100928413E-04 -1.03827963048E-04 -1.61846906191E-01 +8.88840378428E-01
1.42000000000E+09 +6.22175519110E-02 +8.51724747686E-01 +2.68380918241E-04 -5.51035828155E-05 +2.81745876207E-04 -6.20235566402E-05 -1.39157468528E-01 +8.86169332708E-01
1.42500000000E+09 +8.42482988967E-02 +8.44673767918E-01 +3.11204657104E-04 -1.39706091185E-04 +4.01724609013E-04 -1.71918359210E-04 -1.15765762736E-01 +8.82654940467E-01
1.43000000000E+09 +1.04934213622E-01 +8.36202457470E-01 +2.57707807147E-04 -2.05248603691E-04 +2.00928133968E-04 -2.61682830066E-04 -9.09591919356E-02 +8.77979963004E-01
1.43500000000E+09 +1.24658544390E-01 +8.26380507871E-01 +1.63268358376E-04 -2.14605117731E-04 +1.33570051904E-04 -2.39691067518E-04 -6.46836489877E-02 +8.71428813720E-01
1.44000000000E+09 +1.43938537372E-01 +8.15113309600E-01 +8.44270704740E-05 -1.19536641989E-04 +7.85926306073E-05 -1.41977063113E-04 -3.67009676276E-02 +8.62703193101E-01
1.44500000000E+09 +1.64886568752E-01 +8.01431750694E-01 +2.01176501335E-04 -2.21453063006E-05 +1.80809322002E-04 -4.02583517908E-05 -6.70376280136E-03 +8.51330537969E-01
1.45000000000E+09 +1.87798761030E-01 +7.84145487091E-01 +3.93559180793E-04 -1.13821274644E-04 +3.73694089117E-04 -1.44315962487E-04 +2.52818410709E-02 +8.37035997904E-01
1.45500000000E+09 +2.13344637666E-01 +7.62644789272E-01 +3.11039434045E-04 -1.97826155979E-04 +2.96716273455E-04 -2.47526779087E-04 +5.84925201712E-02 +8.19355196800E-01
1.46000000000E+09 +2.41825076616E-01 +7.36803921468E-01 +4.28541091535E-04 -2.13361333396E-04 +4.29526820680E-04 -2.66109680859E-04 +9.33234738553E-02 +7.97463715563E-01
1.46500000000E+09 +2.72107613464E-01 +7.06219900438E-01 +4.38038647584E-04 -4.15556866450E-04 +3.71107669675E-04 -4.25810573072E-04 +1.28838048463E-01 +7.70914128949E-01
1.47000000000E+09 +3.03873582033E-01 +6.71137291617E-01 +5.72902335918E-04 -3.29439852261E-04 +5.36151239953E-04 -3.31846268287E-04 +1.65929319670E-01 +7.37507801193E-01
1.47500000000E+09 +3.35660263102E-01 +6.30461912973E-01 +6.48204061891E-04 -8.10335591587E-04 +6.68102545330E-04 -7.48496368223E-04 +2.03037147589E-01 +6.96824810109E-01
1.48000000000E+09 +3.64577163487E-01 +5.83982987450E-01 +3.66886131001E-04 -1.02507424593E-03 +3.77657727351E-04 -9.92434694136E-04 +2.39622618011E-01 +6.47615618741E-01
1.48500000000E+09 +3.89383080401E-01 +5.31383565845E-01 +4.57167078741E-04 -1.08567622620E-03 +4.71641227191E-04 -1.11674759717E-03 +2.74004325308E-01 +5.88927106660E-01
1.49000000000E+09 +4.08527720406E-01 +4.71814194041E-01 +5.13161855203E-04 -1.55610235039E-03 +3.80990972435E-04 -1.58017757546E-03 +3.02331939260E-01 +5.19038516129E-01
1.49500000000E+09 +4.20012241624E-01 +4.04018816410E-01 +1.32703442582E-05 -2.26723304848E-03 -6.66877633463E-05 -2.18714352391E-03 +3.20648806677E-01 +4.39824704356E-01
1.50000000000E+09 +4.20810627131E-01 +3.27429972791E-01 -1.03834755113E-03 -2.70739325487E-03 -1.02171786315E-03 -2.54437381598E-03 +3.26130659592E-01 +3.50449729261E-01
1.50500000000E+09 +4.09309636214E-01 +2.43673367187E-01 -2.19036826612E-03 -2.28096360374E-03 -2.01135917991E-03 -2.22002440839E-03 +3.15019717172E-01 +2.54254060504E-01
1.51000000000E+09 +3.82753878480E-01 +1.53309770143E-01 -2.85790789814E-03 -1.65997053772E-03 -2.79894064952E-03 -1.75460860484E-03 +2.83134728435E-01 +1.53598880334E-01
1.51500000000E+09 +3.36774612743E-01 +6.07043928454E-02 -3.76809884938E-03 -9.64398366988E-04 -3.74655266476E-03 -1.12974518623E-03 +2.28984770697E-01 +5.54754138483E-02
1.52000000000E+09 +2.70291983634E-01 -2.58615450015E-02 -4.21363308437E-03 +9.37880517714E-04 -4.26278494927E-03 +9.05119969608E-04 +1.51762690022E-01 -3.14315959858E-02
1.52500000000E+09 +1.84853982737E-01 -9.96346352492E-02 -3.01014941515E-03 +1.63510889778E-03 -3.04124638688E-03 +1.61687246236E-03 +5.53353830388E-02 -9.98490748734E-02
1.53000000000E+09 +8.23341451249E-02 -1.52321089179E-01 -2.91880041703E-03 +2.23536101703E-03 -2.96791755527E-03 +2.22066405924E-03 -5.18290456242E-02 -1.43723277255E-01
1.53500000000E+09 -2.83765080444E-02 -1.78334815709E-01 -2.79689412639E-03 +3.29193045846E-03 -2.83383557497E-03 +3.29274450957E-03 -1.64063592102E-01 -1.63924517361E-01
1.54000000000E+09 -1.40215986921E-01 -1.77828263798E-01 -1.41535916227E-03 +4.46630792005E-03 -1.35858151214E-03 +4.38340958106E-03 -2.73355405140E-01 -1.60097382939E-01
1.54500000000E+09 -2.46434058016E-01 -1.53223735803E-01 +3.87807629035E-04 +4.71552226074E-03 +3.01701393624E-04 +4.65042055525E-03 -3.72801229666E-01 -1.35233170366E-01
1.55000000000E+09 -3.42764208233E-01 -1.09738110730E-01 +1.89821680199E-03 +3.61544642853E-03 +1.82820407123E-03 +3.66796881478E-03 -4.57438629699E-01 -9.64900250093E-02
1.55500000000E+09 -4.24258173043E-01 -5.18253423101E-02 +2.29843774748E-03 +2.83040715981E-03 +2.23920339833E-03 +2.98763335071E-03 -5.27931358804E-01 -4.86617706561E-02
1.56000000000E+09 -4.89026892200E-01 +1.15181669734E-02 +2.93643896151E-03 +1.95536480935E-03 +2.95942433392E-03 +2.11661095191E-03 -5.84647348914E-01 +5.34466962709E-03
1.56500000000E+09 -5.39346339700E-01 +7.53216627276E-02 +2.92334634597E-03 +9.82643611200E-04 +3.09286957251E-03 +1.09433987069E-03 -6.28218824897E-01 +6.16763641546E-02
1.57000000000E+09 -5.77362376137E-01 +1.37148636889E-01 +2.67971536217E-03 +2.20699778415E-04 +2.81903913931E-03 +1.90546725800E-04 -6.60895534977E-01 +1.17208274158E-01
