# Hz S RI R 50
! CMT, C1220, 16058040, 17.2.0/1
! Date: 14/08/2018 12:49:12
! Data: Format (Calibration Info)
! Freq                      S11: Re/Im (F2)                       S21: Re/Im (F2)                       S12: Re/Im (F2)                       S22: Re/Im (F2)            
1.00000000000E+09 -6.51986081997E-01 +7.13249856722E-01 -5.64992134682E-06 -1.86351417591E-05 -2.63927017667E-05 +9.00121933291E-06 -7.53695097493E-01 +6.21565486659E-01
1.00500000000E+09 -6.44961999202E-01 +7.18060203782E-01 +1.47132574553E-05 -4.33271395671E-06 -4.15477456854E-05 +6.06123757128E-05 -7.50233898542E-01 +6.25498361222E-01
1.01000000000E+09 -6.39077407424E-01 +7.22683165443E-01 -1.65838586188E-05 -3.78851751336E-06 -3.68580587544E-05 +1.39272217546E-05 -7.46721529390E-01 +6.29229829479E-01
1.01500000000E+09 -6.34498940322E-01 +7.26655338987E-01 +2.56758481126E-05 -1.85572167028E-05 +1.41669855707E-05 -2.48784217570E-06 -7.43623514195E-01 +6.32789955504E-01
1.02000000000E+09 -6.31640699131E-01 +7.30011701501E-01 +3.43807456604E-06 +4.14121882271E-05 +4.50417839303E-05 +6.50295113286E-06 -7.40351785071E-01 +6.36296195737E-01
1.02500000000E+09 -6.29530891358E-01 +7.32870947062E-01 -3.20955269358E-05 -1.05420561948E-05 -4.99005535984E-05 +3.97069030063E-05 -7.37613754057E-01 +6.39897265552E-01
1.03000000000E+09 -6.28054707523E-01 +7.35312375066E-01 -1.61348960654E-05 -4.14587252315E-05 -4.70911432916E-05 +5.08584356659E-05 -7.34020945739E-01 +6.43734052651E-01
1.03500000000E+09 -6.25691610518E-01 +7.37972605153E-01 +3.15193220211E-05 -1.44649675790E-05 +1.62414879898E-05 +9.83678443603E-06 -7.30388242952E-01 +6.47768417097E-01
1.04000000000E+09 -6.22508829677E-01 +7.40862227972E-01 -1.08457290803E-05 +1.77484727965E-05 +1.03828053667E-05 +8.19150905244E-05 -7.26337834739E-01 +6.51495088377E-01
1.04500000000E+09 -6.17523089104E-01 +7.44350621848E-01 +1.65491334943E-05 -3.37111083094E-05 +1.76353785014E-05 +4.15071233723E-05 -7.22765253047E-01 +6.54954123324E-01
1.05000000000E+09 -6.10995777749E-01 +7.48598362185E-01 +8.49412478665E-06 +1.20777790666E-05 -9.61392847686E-06 +6.06389345438E-06 -7.19545545413E-01 +6.58301679952E-01
1.05500000000E+09 -6.03187770578E-01 +7.53114060650E-01 +9.34069956806E-06 +3.72348416147E-05 +2.84916549006E-05 +2.70313313923E-05 -7.16300612626E-01 +6.61852763885E-01
1.06000000000E+09 -5.94602509196E-01 +7.58192048480E-01 +1.32184544820E-05 -2.97262801246E-06 +1.01161884343E-05 +6.73931837333E-05 -7.12862225472E-01 +6.65809524725E-01
1.06500000000E+09 -5.86375316468E-01 +7.63321502978E-01 -1.26238888414E-05 +4.25256673343E-05 -3.34393809470E-06 +5.37073684701E-05 -7.09163380882E-01 +6.69626802298E-01
1.07000000000E+09 -5.79106422435E-01 +7.67605916493E-01 -4.27406099886E-05 +9.08060243216E-06 +1.70721769573E-05 -6.04557436211E-06 -7.04969280806E-01 +6.73380387070E-01
1.07500000000E+09 -5.73244215349E-01 +7.71448715704E-01 +4.87385554090E-05 +1.08691294615E-05 +3.50017404060E-05 +1.37139235137E-05 -7.00757393284E-01 +6.76926472023E-01
1.08000000000E+09 -5.69196938177E-01 +7.74798421474E-01 +2.33098130795E-06 +6.85961676518E-05 +6.07645028783E-07 +3.77300450255E-05 -6.96907936267E-01 +6.80772403638E-01
1.08500000000E+09 -5.66508792103E-01 +7.77278556459E-01 -2.33809698338E-06 +2.28071987209E-05 +3.58601824379E-05 +3.33132871986E-05 -6.93139048182E-01 +6.84397694544E-01
1.09000000000E+09 -5.64420259641E-01 +7.79428387771E-01 -2.25595866258E-05 -2.07605354356E-05 +3.76901543612E-07 +9.21912025836E-05 -6.89429301007E-01 +6.88178869111E-01
1.09500000000E+09 -5.62835561212E-01 +7.81191813300E-01 +1.94365831790E-05 +3.00923703877E-05 +5.72509649181E-05 +6.35882511839E-05 -6.85735556935E-01 +6.91997706592E-01
1.10000000000E+09 -5.60067438877E-01 +7.83445296068E-01 +4.34549690486E-05 +4.27353184308E-05 +4.17206974618E-05 +3.40335403812E-05 -6.81839895455E-01 +6.95804822204E-01
1.10500000000E+09 -5.56337925142E-01 +7.85834790053E-01 +1.90157050091E-06 +1.60627325281E-05 +5.38839932542E-05 +5.29131431392E-05 -6.77402377639E-01 +6.99293086883E-01
1.11000000000E+09 -5.50932239687E-01 +7.89078373650E-01 +2.41703333042E-05 -2.12985237492E-05 +2.27895612237E-05 +3.45054136596E-07 -6.73405985334E-01 +7.02723147803E-01
1.11500000000E+09 -5.44168838714E-01 +7.92923451306E-01 +2.23290081537E-05 +5.90388440976E-05 +4.12769662636E-05 +4.58858106370E-06 -6.69416197654E-01 +7.06097914999E-01
1.12000000000E+09 -5.36615460095E-01 +7.96876194778E-01 +2.32541047397E-05 +9.34250926440E-07 +5.66554169291E-05 +7.00459247704E-05 -6.65484498690E-01 +7.09622707081E-01
1.12500000000E+09 -5.28790977397E-01 +8.00804620897E-01 +2.42933697409E-05 +3.84199605567E-05 +7.28555881880E-05 +5.85169170297E-05 -6.61168777671E-01 +7.13690205548E-01
1.13000000000E+09 -5.21332689920E-01 +8.04574348034E-01 +5.58507801407E-05 +1.28504286599E-05 +1.25412706258E-05 +5.63397322225E-05 -6.56909822215E-01 +7.17642716984E-01
1.13500000000E+09 -5.14678412205E-01 +8.07487728597E-01 +4.07603592956E-05 +3.45774896581E-05 +3.22680804993E-05 +8.83358539225E-05 -6.52161578380E-01 +7.21340624133E-01
1.14000000000E+09 -5.09323152985E-01 +8.10099439876E-01 +8.17083290684E-05 +5.42236762025E-05 +3.13771040815E-05 +1.75510557674E-05 -6.47370144650E-01 +7.24872694376E-01
1.14500000000E+09 -5.05074980288E-01 +8.11894252436E-01 +2.77655102951E-05 -2.21278775037E-05 +6.01979691660E-05 -3.14142076297E-06 -6.42782245364E-01 +7.28342876106E-01
1.15000000000E+09 -5.01454014618E-01 +8.13605079181E-01 +5.53862688968E-05 -3.54229521133E-06 +7.10946906458E-05 +1.87367281625E-05 -6.38205421536E-01 +7.32122856140E-01
1.15500000000E+09 -4.97926192647E-01 +8.15508825881E-01 +6.89128324920E-05 +4.48121998077E-06 +8.05688290394E-05 -1.97107805194E-05 -6.33423504755E-01 +7.35973067439E-01
1.16000000000E+09 -4.93499505157E-01 +8.17518632174E-01 +8.25113430479E-05 -3.86438512434E-06 +9.06218361735E-05 +2.37934983758E-05 -6.28722591096E-01 +7.39720335110E-01
1.16500000000E+09 -4.88212013397E-01 +8.20518672265E-01 +7.87727822936E-05 -1.63719945069E-05 +8.88367253726E-05 -2.81826813750E-05 -6.23684936533E-01 +7.43378121132E-01
1.17000000000E+09 -4.81756603097E-01 +8.23603600996E-01 +6.60454821298E-05 -7.00529273539E-06 +1.25450517222E-04 +3.38115279220E-05 -6.18326646191E-01 +7.46784633486E-01
1.17500000000E+09 -4.74591768100E-01 +8.27074328245E-01 +1.32712406125E-04 -9.80716695931E-06 +1.30931167250E-04 -5.23628189820E-05 -6.12672405710E-01 +7.49994925443E-01
1.18000000000E+09 -4.66774803626E-01 +8.30988621497E-01 +9.58730987193E-05 -3.92011848918E-05 +1.31007701067E-04 -8.82427763276E-05 -6.07395295161E-01 +7.53013946084E-01
1.18500000000E+09 -4.59059961825E-01 +8.34410724150E-01 +1.56760554376E-04 -7.73133474100E-05 +1.77866646094E-04 -8.31924024112E-05 -6.01520691964E-01 +7.56020544665E-01
1.19000000000E+09 -4.51680606809E-01 +8.37057212124E-01 +9.75603009745E-05 -1.32222509619E-04 +1.09334190430E-04 -9.35935683943E-05 -5.95563842395E-01 +7.58631749873E-01
1.19500000000E+09 -4.45185127239E-01 +8.39173237512E-01 +8.89104269604E-05 -2.03905836295E-04 +1.44646531207E-04 -1.77155699794E-04 -5.89569649379E-01 +7.59844599594E-01
1.20000000000E+09 -4.39938331415E-01 +8.40216239318E-01 +3.17063280964E-05 -2.23176761536E-04 +5.45141162901E-06 -2.49153060801E-04 -5.84873547381E-01 +7.60094403070E-01
1.20500000000E+09 -4.35076975802E-01 +8.41604506000E-01 -2.90635455040E-06 -1.71428195802E-04 -7.82222399868E-05 -1.67101103128E-04 -5.82744677316E-01 +7.60979485173E-01
1.21000000000E+09 -4.30348140101E-01 +8.43048944386E-01 -2.61351355793E-05 -1.06440652180E-04 -5.04317402548E-05 -1.36407608874E-04 -5.80777828159E-01 +7.64041111367E-01
1.21500000000E+09 -4.24550936734E-01 +8.45097972234E-01 -3.03141282365E-05 -9.63237679101E-05 -2.52464622431E-05 -3.10496144824E-05 -5.77933816193E-01 +7.68649023313E-01
1.22000000000E+09 -4.17554159647E-01 +8.47499800643E-01 +1.55013362665E-05 -1.05898581591E-04 -3.06159198627E-05 -7.14109555565E-05 -5.73884916189E-01 +7.74102725551E-01
1.22500000000E+09 -4.09376042824E-01 +8.50705964740E-01 +3.43040532140E-05 -1.12974118715E-04 +5.23782268974E-06 -1.06009217075E-04 -5.68872657770E-01 +7.79169384413E-01
1.23000000000E+09 -4.00165794199E-01 +8.54193364907E-01 -6.05087533692E-06 -1.06195173638E-04 +3.30191757276E-06 -1.42415283493E-04 -5.63163420202E-01 +7.83797919550E-01
1.23500000000E+09 -3.90792931316E-01 +8.57887006606E-01 +1.20054734284E-05 -1.45620252379E-04 +2.40150588796E-06 -1.63878701181E-04 -5.57397057162E-01 +7.88186650714E-01
1.24000000000E+09 -3.81255411931E-01 +8.61834045252E-01 -4.01364999940E-05 -2.09779843310E-04 -6.05573179266E-05 -1.53999649135E-04 -5.51332861366E-01 +7.91972848772E-01
1.24500000000E+09 -3.72466666408E-01 +8.65849988111E-01 -5.04497882804E-05 -1.70735153016E-04 -5.13220712811E-05 -1.82405431021E-04 -5.45169442742E-01 +7.95828700178E-01
1.25000000000E+09 -3.64467835621E-01 +8.68887386420E-01 -1.01382707238E-04 -1.73795974899E-04 -3.95594590377E-05 -1.94499171025E-04 -5.38655132104E-01 +8.00005374365E-01
1.25500000000E+09 -3.57600649205E-01 +8.70955265816E-01 -5.11786564214E-05 -1.87664181484E-04 -6.35144980375E-05 -1.55371809933E-04 -5.32029252491E-01 +8.04020619363E-01
1.26000000000E+09 -3.51307015654E-01 +8.72510058029E-01 -8.83881843703E-05 -1.54368436679E-04 -9.99222563188E-05 -2.03060807045E-04 -5.25402833766E-01 +8.08340041901E-01
1.26500000000E+09 -3.45419110186E-01 +8.73674316511E-01 -1.00609880787E-04 -2.07418022736E-04 -1.30476723336E-04 -2.18577385348E-04 -5.18437422335E-01 +8.12053850322E-01
1.27000000000E+09 -3.39132280046E-01 +8.74821803795E-01 -2.00946382667E-04 -1.86848277055E-04 -1.68270898830E-04 -2.29672809724E-04 -5.11586660592E-01 +8.16027635907E-01
1.27500000000E+09 -3.31451055487E-01 +8.76071725559E-01 -2.27940475777E-04 -1.59190924939E-04 -1.97133301736E-04 -1.68040969022E-04 -5.04547749415E-01 +8.19646006979E-01
1.28000000000E+09 -3.22309913274E-01 +8.78050672339E-01 -2.49956288267E-04 -1.31136238481E-04 -2.43544714090E-04 -1.18826289562E-04 -4.97485506277E-01 +8.23100464838E-01
1.28500000000E+09 -3.11234394397E-01 +8.80563902380E-01 -2.28253292401E-04 -1.62367381999E-04 -2.83823389567E-04 -1.26070364415E-04 -4.89965446061E-01 +8.26948587960E-01
1.29000000000E+09 -2.99203871422E-01 +8.83426920879E-01 -2.70499397708E-04 -1.11482371663E-04 -3.47328839299E-04 -1.52763828021E-04 -4.82422025477E-01 +8.30751143628E-01
1.29500000000E+09 -2.87067018952E-01 +8.86725348749E-01 -2.81994564760E-04 -8.04283786386E-05 -3.86661375066E-04 -1.27275216330E-04 -4.74424554738E-01 +8.34369290816E-01
1.30000000000E+09 -2.75048461703E-01 +8.90327575103E-01 -3.44585211585E-04 -1.12382759408E-04 -4.01324563495E-04 -8.15655822132E-06 -4.66597166526E-01 +8.37850656763E-01
1.30500000000E+09 -2.64329492959E-01 +8.93338768785E-01 -4.17365519230E-04 -5.86033026622E-05 -3.93560568206E-04 -1.97013138450E-05 -4.58636872577E-01 +8.41483138933E-01
1.31000000000E+09 -2.55067436726E-01 +8.95536343973E-01 -4.64671958441E-04 +5.42578842059E-05 -4.51546702477E-04 +3.87199288189E-05 -4.50215521947E-01 +8.44937019716E-01
1.31500000000E+09 -2.47505570757E-01 +8.97099129971E-01 -4.59978123384E-04 +1.30113773976E-04 -4.63015665553E-04 +6.81966193237E-05 -4.41503051409E-01 +8.48528130046E-01
1.32000000000E+09 -2.41408439591E-01 +8.97890545314E-01 -4.17112809430E-04 +1.45356646376E-04 -4.23372985352E-04 +1.45576113461E-04 -4.32573327376E-01 +8.51830711352E-01
1.32500000000E+09 -2.35506858327E-01 +8.98243486943E-01 -4.43047419636E-04 +1.38710774924E-04 -5.35355039841E-04 +1.78267535101E-04 -4.23215284464E-01 +8.55171696438E-01
1.33000000000E+09 -2.28730494170E-01 +8.98396265490E-01 -4.78103386104E-04 +1.80324884433E-04 -5.05761249652E-04 +2.58222536049E-04 -4.13732268361E-01 +8.58527520402E-01
1.33500000000E+09 -2.20052543689E-01 +8.98374744522E-01 -5.13264381494E-04 +2.79393575796E-04 -5.31549092352E-04 +3.62505408643E-04 -4.03961042846E-01 +8.61578767609E-01
1.34000000000E+09 -2.08749365082E-01 +8.98638684076E-01 -5.07484277835E-04 +4.40096372164E-04 -4.71339786734E-04 +4.28770270507E-04 -3.93756127413E-01 +8.64945873774E-01
1.34500000000E+09 -1.95065837392E-01 +8.99128539980E-01 -4.59534035512E-04 +5.69732721117E-04 -4.17780281074E-04 +5.57756459952E-04 -3.82841602502E-01 +8.68125156443E-01
1.35000000000E+09 -1.79304308058E-01 +8.99802488388E-01 -3.69560763224E-04 +6.15485014434E-04 -3.20331901769E-04 +5.89428721522E-04 -3.71795587384E-01 +8.71275278817E-01
1.35500000000E+09 -1.62262638476E-01 +9.00537078513E-01 -3.47562272257E-04 +6.61195136843E-04 -3.39052963890E-04 +6.31027558590E-04 -3.60209653512E-01 +8.74259747666E-01
1.36000000000E+09 -1.45497577853E-01 +9.01190238319E-01 -3.21883631967E-04 +7.51716417822E-04 -2.85522816796E-04 +7.57162441822E-04 -3.48404244357E-01 +8.77035838962E-01
1.36500000000E+09 -1.29514008089E-01 +9.01582015105E-01 -2.33160236344E-04 +8.16806567610E-04 -2.74523082805E-04 +8.01077928153E-04 -3.36190052394E-01 +8.79507004312E-01
1.37000000000E+09 -1.15232871435E-01 +9.01375057081E-01 -1.54712479588E-04 +9.41216643087E-04 -1.67427864801E-04 +8.25829484398E-04 -3.23439636291E-01 +8.82057872367E-01
1.37500000000E+09 -1.02844557378E-01 +9.00811301308E-01 -2.27892973876E-06 +9.97916734346E-04 -1.16410796646E-04 +9.16297064286E-04 -3.09530277234E-01 +8.84599392052E-01
1.38000000000E+09 -9.15204024667E-02 +8.99832457483E-01 +1.11502972511E-04 +9.95876537199E-04 -3.96558000675E-05 +1.04780322758E-03 -2.94816357024E-01 +8.86613778832E-01
1.38500000000E+09 -7.98609274501E-02 +8.98410390549E-01 +1.53819549539E-04 +1.07306556867E-03 +1.02533529352E-04 +1.20785477136E-03 -2.79324367876E-01 +8.88666399462E-01
1.39000000000E+09 -6.75001807841E-02 +8.96172931069E-01 +2.51146554308E-04 +1.12498028631E-03 +3.10377165385E-04 +1.34394294567E-03 -2.63381341795E-01 +8.90031893175E-01
1.39500000000E+09 -5.29734974155E-02 +8.93397435135E-01 +4.50228058011E-04 +1.18640404419E-03 +6.48224329693E-04 +1.29017950668E-03 -2.46836257050E-01 +8.90934999957E-01
1.40000000000E+09 -3.58585522869E-02 +8.89583890532E-01 +6.36273550847E-04 +1.28618780314E-03 +7.44543618342E-04 +1.25037988195E-03 -2.29410069749E-01 +8.91384027204E-01
1.40500000000E+09 -1.66587734862E-02 +8.85242349111E-01 +8.74277752097E-04 +1.27932577270E-03 +9.16119035528E-04 +1.26617837548E-03 -2.10899989427E-01 +8.91375080942E-01
1.41000000000E+09 +4.69655991741E-03 +8.79938748639E-01 +1.17106433759E-03 +1.27528073259E-03 +1.13176116303E-03 +1.24040721367E-03 -1.90634907346E-01 +8.90689537580E-01
1.41500000000E+09 +2.69600816686E-02 +8.73943548976E-01 +1.44021493259E-03 +1.19566630573E-03 +1.42968384519E-03 +1.30569884949E-03 -1.69030579427E-01 +8.89174828025E-01
1.42000000000E+09 +4.97727494638E-02 +8.66898612776E-01 +1.64471124862E-03 +1.01961336719E-03 +1.81107109531E-03 +1.16530804981E-03 -1.46045078538E-01 +8.86623647670E-01
1.42500000000E+09 +7.16520514204E-02 +8.58976225337E-01 +1.85356741436E-03 +9.84254967689E-04 +2.11369843291E-03 +1.02761284148E-03 -1.22450140188E-01 +8.82891246355E-01
1.43000000000E+09 +9.29373622844E-02 +8.49683168618E-01 +2.22509359681E-03 +9.69340404448E-04 +2.51235820609E-03 +7.99022793651E-04 -9.77239522749E-02 +8.78336359225E-01
1.43500000000E+09 +1.13688761579E-01 +8.38763764482E-01 +2.77711887568E-03 +5.84415228187E-04 +2.92501556943E-03 +2.98789676738E-04 -7.13336918370E-02 +8.71652902465E-01
1.44000000000E+09 +1.34725744911E-01 +8.26683172984E-01 +3.10330674951E-03 -3.35578208322E-05 +3.13233663273E-03 -3.08456617843E-04 -4.32932515889E-02 +8.62956776000E-01
1.44500000000E+09 +1.57853875453E-01 +8.11581180752E-01 +3.13478722862E-03 -6.45505065443E-04 +3.16669949422E-03 -8.46730735843E-04 -1.31372553120E-02 +8.51749630698E-01
1.45000000000E+09 +1.82352024779E-01 +7.92924682174E-01 +3.07114662858E-03 -1.10791572780E-03 +3.02822632085E-03 -1.38267435086E-03 +1.86712607798E-02 +8.37041583237E-01
1.45500000000E+09 +2.09235600611E-01 +7.70686436739E-01 +3.18976823003E-03 -1.37030066304E-03 +3.10832994252E-03 -1.70711541067E-03 +5.19741992609E-02 +8.19918742741E-01
1.46000000000E+09 +2.38556471549E-01 +7.44429373786E-01 +3.48587375309E-03 -1.92205136963E-03 +3.16553281298E-03 -2.20181992938E-03 +8.68110703217E-02 +7.97970308496E-01
1.46500000000E+09 +2.69512806503E-01 +7.13437353920E-01 +3.84848213016E-03 -2.81985453677E-03 +3.37305578376E-03 -2.82921847340E-03 +1.22718122590E-01 +7.71481285361E-01
1.47000000000E+09 +3.00724019292E-01 +6.77559601161E-01 +3.75929259463E-03 -4.35666952969E-03 +3.43333231233E-03 -3.99668064945E-03 +1.59412883479E-01 +7.37497438625E-01
1.47500000000E+09 +3.30544707182E-01 +6.36583863737E-01 +2.75584431863E-03 -5.75252138317E-03 +2.85277030125E-03 -5.38689495726E-03 +1.95723867866E-01 +6.97005977549E-01
1.48000000000E+09 +3.58315278590E-01 +5.89548868967E-01 +1.68120438916E-03 -6.59990672162E-03 +1.87766236738E-03 -6.58129111783E-03 +2.32254099895E-01 +6.47922283135E-01
1.48500000000E+09 +3.80856700419E-01 +5.35780854865E-01 +3.25731712062E-04 -7.56587008844E-03 +2.71209233627E-04 -7.72895886123E-03 +2.65458765563E-01 +5.89907129957E-01
1.49000000000E+09 +3.98111395190E-01 +4.74712132152E-01 -1.35747399739E-03 -8.21288471202E-03 -1.75408915678E-03 -8.16356518631E-03 +2.94255288557E-01 +5.21319411769E-01
1.49500000000E+09 +4.06778941347E-01 +4.05592004538E-01 -3.76199402157E-03 -8.41141787304E-03 -3.92052791353E-03 -7.91247905768E-03 +3.12410626427E-01 +4.42386168896E-01
1.50000000000E+09 +4.05938334240E-01 +3.27896654263E-01 -6.14358454150E-03 -8.03033759695E-03 -5.80116858501E-03 -7.54510271814E-03 +3.18320849371E-01 +3.54962008796E-01
1.50500000000E+09 +3.91664852419E-01 +2.42102810855E-01 -8.74558076336E-03 -6.64737045130E-03 -8.13377008365E-03 -6.63330931391E-03 +3.08964740255E-01 +2.59470070645E-01
1.51000000000E+09 +3.61567534091E-01 +1.52082662000E-01 -1.06208203393E-02 -4.01654336924E-03 -1.03059356824E-02 -4.36222229600E-03 +2.78485044932E-01 +1.58012460787E-01
1.51500000000E+09 +3.12393911792E-01 +6.14640225023E-02 -1.17738458188E-02 -1.84145064477E-03 -1.17734806399E-02 -2.07380557880E-03 +2.23864190269E-01 +6.21562566589E-02
1.52000000000E+09 +2.43120408138E-01 -2.03217791103E-02 -1.32678089723E-02 +1.46257764532E-03 -1.34005955807E-02 +1.28567054700E-03 +1.50345940707E-01 -2.35762884680E-02
1.52500000000E+09 +1.56859396111E-01 -8.70700463263E-02 -1.23933890563E-02 +6.93122521512E-03 -1.24671856308E-02 +6.87918835093E-03 +5.77807772208E-02 -9.35691975042E-02
1.53000000000E+09 +5.82601857217E-02 -1.33418337615E-01 -8.36889752815E-03 +9.41775222477E-03 -8.39284199468E-03 +9.47573895021E-03 -4.87972378121E-02 -1.39530358032E-01
1.53500000000E+09 -4.88064731869E-02 -1.56581081288E-01 -5.65179409883E-03 +1.10336759272E-02 -5.68703110422E-03 +1.09886312892E-02 -1.58957235886E-01 -1.61503586370E-01
1.54000000000E+09 -1.58049513904E-01 -1.53084429137E-01 -2.50681215300E-03 +1.09457757715E-02 -2.53424734168E-03 +1.08441774577E-02 -2.67198379480E-01 -1.60540330257E-01
1.54500000000E+09 -2.58960270647E-01 -1.27187456706E-01 +3.59957087688E-04 +1.10717823226E-02 +9.55983262575E-05 +1.09075399159E-02 -3.66664242731E-01 -1.39847951887E-01
1.55000000000E+09 -3.50338283983E-01 -8.51162950527E-02 +2.55290337657E-03 +1.00904122143E-02 +2.16332286064E-03 +1.01993917231E-02 -4.53791503007E-01 -1.03633032263E-01
1.55500000000E+09 -4.27819977485E-01 -3.03063256179E-02 +5.42855650714E-03 +8.69442110004E-03 +5.18943071272E-03 +9.17507256554E-03 -5.25706218242E-01 -5.69477534984E-02
1.56000000000E+09 -4.89424775574E-01 +2.84735703358E-02 +6.81916357862E-03 +5.60818390461E-03 +6.93424690317E-03 +6.15798200397E-03 -5.84671271437E-01 -4.39029965383E-03
1.56500000000E+09 -5.38487735134E-01 +8.79082085582E-02 +6.44654911525E-03 +3.81396042171E-03 +6.74468415346E-03 +4.22077626521E-03 -6.29694770347E-01 +5.19675579379E-02
1.57000000000E+09 -5.75846022297E-01 +1.45627279228E-01 +6.48197906392E-03 +2.39407407972E-03 +6.95774600859E-03 +2.52161998757E-03 -6.63894582791E-01 +1.06070518062E-01
