# Hz S RI R 50
! CMT, C1220, 16058040, 17.2.0/1
! Date: 14/08/2018 12:54:22
! Data: Format (Calibration Info)
! Freq                      S11: Re/Im (F2)                       S21: Re/Im (F2)                       S12: Re/Im (F2)                       S22: Re/Im (F2)            
1.00000000000E+09 -6.45166257680E-01 +7.12776505222E-01 +9.95143309449E-06 +6.61269408724E-05 -5.06340987172E-05 +4.44879513877E-06 -7.19356205507E-01 +6.45240470983E-01
1.00500000000E+09 -6.38744845393E-01 +7.17551973262E-01 +1.14398123918E-05 +7.16658929221E-06 -2.69315773427E-05 +4.63581657036E-06 -7.15546184555E-01 +6.49183054724E-01
1.01000000000E+09 -6.32924324001E-01 +7.21861380394E-01 -5.81160937463E-05 -1.45637340295E-05 -3.85451235575E-05 -6.24330943258E-06 -7.11821343840E-01 +6.52747716196E-01
1.01500000000E+09 -6.28135409401E-01 +7.25847463799E-01 +1.14660496451E-05 +3.47229560456E-05 -1.43055525323E-06 -1.15590400126E-05 -7.08399393400E-01 +6.56263735392E-01
1.02000000000E+09 -6.24188618512E-01 +7.29463610285E-01 +3.40824682788E-05 +2.52575441965E-05 +3.36464119402E-05 +1.35224140339E-05 -7.04970718439E-01 +6.59481832120E-01
1.02500000000E+09 -6.20594328721E-01 +7.32705421783E-01 +1.57265071975E-05 +3.90955526879E-05 -2.58794808713E-05 +2.29668991207E-05 -7.01903205179E-01 +6.63093705951E-01
1.03000000000E+09 -6.17302495388E-01 +7.35805644544E-01 +3.82697160673E-06 +1.91934630169E-05 -5.92227920652E-05 +2.68820706230E-05 -6.98161038367E-01 +6.66973902394E-01
1.03500000000E+09 -6.13522888748E-01 +7.38889987292E-01 -2.23883231161E-05 +5.34394269791E-05 -1.15701372897E-05 -1.83229216673E-06 -6.94098281946E-01 +6.70860294353E-01
1.04000000000E+09 -6.08550929131E-01 +7.42288417169E-01 -3.07127489153E-05 +3.24176156217E-05 -1.80031324545E-05 +2.14424957685E-05 -6.90191258967E-01 +6.74224049283E-01
1.04500000000E+09 -6.02525922555E-01 +7.46126180738E-01 +4.49598695795E-05 +4.36270470146E-05 -7.05229912109E-05 +2.78429527993E-05 -6.86540983942E-01 +6.77723608659E-01
1.05000000000E+09 -5.95645418255E-01 +7.50117625130E-01 -1.09373540424E-05 +2.24596297204E-05 +1.09497869286E-05 +1.68285568463E-06 -6.82670680089E-01 +6.80986286719E-01
1.05500000000E+09 -5.87775422666E-01 +7.54425949233E-01 +2.54269558006E-05 +2.35455711052E-05 +4.20634647943E-05 +5.95759676264E-05 -6.79313906991E-01 +6.84454260278E-01
1.06000000000E+09 -5.79730086776E-01 +7.59173818225E-01 +5.17463773296E-06 +1.59909519653E-05 +1.19935277047E-05 +5.28285185349E-05 -6.75992737706E-01 +6.88152903763E-01
1.06500000000E+09 -5.71715390967E-01 +7.63610399367E-01 +2.83446857662E-05 +4.13439009198E-05 +2.65279541452E-05 +3.38149732471E-05 -6.71770494945E-01 +6.91850120153E-01
1.07000000000E+09 -5.64612333300E-01 +7.67818972577E-01 +7.28870768777E-06 +1.78287677715E-06 -2.76092235593E-06 +4.83846199875E-05 -6.67443193477E-01 +6.95370901715E-01
1.07500000000E+09 -5.58375568126E-01 +7.71453468560E-01 +4.47657562150E-05 +3.77428060474E-06 +4.05539166447E-05 +3.04705009298E-05 -6.62949066240E-01 +6.98991709034E-01
1.08000000000E+09 -5.53292482849E-01 +7.74800704656E-01 +1.59434519414E-05 +1.92963162697E-05 +1.58518703222E-05 +2.33120118398E-05 -6.58921989611E-01 +7.02593997710E-01
1.08500000000E+09 -5.49336283732E-01 +7.77504086579E-01 +4.83933573144E-06 +3.07439049744E-05 +2.12956517341E-05 +5.14793553765E-05 -6.54989282089E-01 +7.06053020350E-01
1.09000000000E+09 -5.45561666931E-01 +7.79990490011E-01 +5.45189522110E-05 -2.50514226009E-05 +4.13785478533E-05 +4.57301730927E-05 -6.50986412255E-01 +7.09706664641E-01
1.09500000000E+09 -5.42504494344E-01 +7.82412870063E-01 +5.51704931270E-05 +3.59361371103E-05 +4.45309593941E-05 +3.70356587883E-05 -6.47100920427E-01 +7.13428552385E-01
1.10000000000E+09 -5.38678950679E-01 +7.84631870068E-01 +8.41032528031E-05 +3.74714208018E-05 +9.80294440771E-05 -4.05505514772E-06 -6.42961835788E-01 +7.17081163673E-01
1.10500000000E+09 -5.34059434279E-01 +7.87396167696E-01 +4.27837699312E-05 -4.45397578546E-05 +2.52387483536E-05 +5.36175288681E-05 -6.38465917051E-01 +7.20477689363E-01
1.11000000000E+09 -5.28577371171E-01 +7.90548749222E-01 +6.25797231151E-05 +2.30198943107E-05 +6.51524793613E-05 -2.87551921972E-06 -6.34194584886E-01 +7.23479837665E-01
1.11500000000E+09 -5.22220217325E-01 +7.94016258958E-01 +3.03212488868E-05 -5.73408508320E-05 +3.30699795200E-05 +4.06960356779E-05 -6.30089488829E-01 +7.26873006701E-01
1.12000000000E+09 -5.15143629140E-01 +7.97552067235E-01 +8.52312234776E-05 +6.55810886017E-06 +7.96240168211E-05 +4.93706654612E-05 -6.25901202487E-01 +7.30127608818E-01
1.12500000000E+09 -5.07594533781E-01 +8.01060709719E-01 +8.88326175715E-05 +1.33739763821E-05 +8.95259854540E-05 +2.19275504477E-05 -6.21627857211E-01 +7.34099919775E-01
1.13000000000E+09 -5.00400844911E-01 +8.04156449457E-01 +5.90784814970E-05 -1.67264910398E-05 +7.28829584909E-05 +5.40029850077E-06 -6.16971221320E-01 +7.37553713409E-01
1.13500000000E+09 -4.93441502596E-01 +8.06686307180E-01 +7.74744471163E-05 +9.28361695258E-06 +8.72446049080E-05 +2.13174271806E-05 -6.12162058989E-01 +7.41011967598E-01
1.14000000000E+09 -4.87021695626E-01 +8.08962080438E-01 +1.07376915046E-04 +2.12523976219E-05 +9.65856057146E-05 +1.19021983671E-06 -6.07237494685E-01 +7.44427900817E-01
1.14500000000E+09 -4.81401966479E-01 +8.10615003139E-01 +8.34300136573E-05 +4.22642024229E-05 +1.08545906690E-04 +1.66446739658E-05 -6.02434123289E-01 +7.47686506390E-01
1.15000000000E+09 -4.75819612559E-01 +8.12174014151E-01 +7.36488323928E-05 -1.19267022587E-05 +1.05225839990E-04 -7.56956180940E-05 -5.97694557831E-01 +7.51317722519E-01
1.15500000000E+09 -4.70633348848E-01 +8.13971338999E-01 +7.82297259722E-05 -2.26240721137E-05 +1.04840888737E-04 -2.78089491826E-05 -5.92838286113E-01 +7.54877534501E-01
1.16000000000E+09 -4.64897468674E-01 +8.15925152453E-01 +9.60469380472E-05 -5.69355311513E-05 +7.82157241612E-05 +1.76630532840E-05 -5.87756435704E-01 +7.58637494539E-01
1.16500000000E+09 -4.58677107694E-01 +8.18566881960E-01 +7.96948758448E-05 -3.77569668372E-05 +6.48269733298E-05 -6.73731081543E-05 -5.82523469729E-01 +7.61991849044E-01
1.17000000000E+09 -4.52018245664E-01 +8.21439295587E-01 +9.17159911342E-05 -6.65398640601E-05 +1.15974425229E-04 -4.49973039612E-05 -5.76900135581E-01 +7.65030945725E-01
1.17500000000E+09 -4.44628808109E-01 +8.24607261190E-01 +1.25645726925E-04 -5.57350981768E-05 +1.56995677885E-04 -6.71556605446E-05 -5.71371848782E-01 +7.68110798783E-01
1.18000000000E+09 -4.37115805623E-01 +8.27775296765E-01 +1.04077865986E-04 -8.42747308637E-05 +1.68459334305E-04 -8.57704949448E-05 -5.65895654101E-01 +7.70800744444E-01
1.18500000000E+09 -4.29247520751E-01 +8.30453720466E-01 +1.56606481887E-04 -1.53530322928E-04 +1.43290909164E-04 -8.59129351474E-05 -5.60000134341E-01 +7.73671399167E-01
1.19000000000E+09 -4.21469163624E-01 +8.32856862644E-01 +9.50679553095E-05 -1.84842691245E-04 +1.59270165607E-04 -1.52485073464E-04 -5.53712255984E-01 +7.76016512347E-01
1.19500000000E+09 -4.13860464816E-01 +8.34511149263E-01 +1.38642613497E-04 -2.16959528531E-04 +5.78577666530E-05 -2.33435472837E-04 -5.47890264978E-01 +7.77005120751E-01
1.20000000000E+09 -4.06802738620E-01 +8.35333373040E-01 -1.15038892243E-05 -2.96122136017E-04 -2.00410737509E-05 -2.60550171883E-04 -5.43429730771E-01 +7.77060372344E-01
1.20500000000E+09 -3.99982623342E-01 +8.36404033192E-01 -7.77273529804E-05 -2.45308224607E-04 -7.38345128962E-05 -2.60742713032E-04 -5.40761138277E-01 +7.78028202829E-01
1.21000000000E+09 -3.92831760100E-01 +8.37487877133E-01 -1.10115724448E-04 -1.48535386734E-04 -8.39688572159E-05 -1.51936113206E-04 -5.38605178357E-01 +7.80963211887E-01
1.21500000000E+09 -3.85177523390E-01 +8.38950149143E-01 -7.87660176441E-05 -1.34215328705E-04 -6.28617120597E-05 -1.31652569689E-04 -5.35526481476E-01 +7.85281459068E-01
1.22000000000E+09 -3.77070861956E-01 +8.40765695053E-01 -3.14201243509E-05 -1.33889166151E-04 -1.58181964449E-05 -1.27516944734E-04 -5.31018988026E-01 +7.90379155286E-01
1.22500000000E+09 -3.68335197224E-01 +8.43238562251E-01 -4.02793754397E-05 -1.57225652373E-04 -7.96923352589E-05 -1.27573870125E-04 -5.25835662870E-01 +7.95140051336E-01
1.23000000000E+09 -3.59678685649E-01 +8.45772314667E-01 -6.44720034999E-05 -1.42558779815E-04 -5.94980058285E-05 -2.27863143136E-04 -5.20050003603E-01 +7.99682108470E-01
1.23500000000E+09 -3.51150457349E-01 +8.48811166230E-01 -9.52794429238E-05 -1.53456753517E-04 -8.22219824154E-05 -1.43226433515E-04 -5.14128651436E-01 +8.03544657780E-01
1.24000000000E+09 -3.42606540340E-01 +8.51790571131E-01 -1.18238568270E-04 -2.13331727036E-04 -1.26139002840E-04 -2.08145412483E-04 -5.08096674160E-01 +8.07280242755E-01
1.24500000000E+09 -3.34619888751E-01 +8.54866495984E-01 -1.09562639401E-04 -1.92489793695E-04 -1.17442442674E-04 -1.80612027203E-04 -5.01907429852E-01 +8.10660080767E-01
1.25000000000E+09 -3.26979824611E-01 +8.57358975712E-01 -1.59172828207E-04 -1.94004351144E-04 -1.17998619720E-04 -1.93969598272E-04 -4.95190984410E-01 +8.14547502999E-01
1.25500000000E+09 -3.19416921909E-01 +8.58866506081E-01 -1.22101831703E-04 -1.89508772151E-04 -1.66174347398E-04 -2.04149772810E-04 -4.88433222974E-01 +8.18207895233E-01
1.26000000000E+09 -3.11669197149E-01 +8.59909235599E-01 -1.92649016734E-04 -2.27214996474E-04 -1.63341406694E-04 -1.89950661933E-04 -4.81640625476E-01 +8.22106100493E-01
1.26500000000E+09 -3.03815470773E-01 +8.60153448495E-01 -2.45481327611E-04 -2.10528071565E-04 -2.38292735484E-04 -2.28657484311E-04 -4.74678612478E-01 +8.25623007912E-01
1.27000000000E+09 -2.95124890969E-01 +8.60227138582E-01 -2.52867340318E-04 -1.77136941176E-04 -2.87405744439E-04 -2.19776573409E-04 -4.67860741827E-01 +8.29037351909E-01
1.27500000000E+09 -2.85820618748E-01 +8.60438830236E-01 -3.68574122330E-04 -1.87160002153E-04 -3.37360864073E-04 -1.57495050666E-04 -4.60694547600E-01 +8.32315877503E-01
1.28000000000E+09 -2.75458105481E-01 +8.61069930996E-01 -3.66326281034E-04 -1.52111910232E-04 -3.44784651457E-04 -1.45454821657E-04 -4.53546710419E-01 +8.35562970243E-01
1.28500000000E+09 -2.64144425065E-01 +8.61985251289E-01 -3.34600676886E-04 -1.25055480527E-04 -3.86797205549E-04 -1.57905318463E-04 -4.46121049971E-01 +8.38961684964E-01
1.29000000000E+09 -2.52962090227E-01 +8.63485986262E-01 -3.82819959531E-04 -5.87220619142E-05 -4.19825162712E-04 -1.10911920781E-04 -4.38469017605E-01 +8.42354345426E-01
1.29500000000E+09 -2.42055971714E-01 +8.65583144282E-01 -3.83267550422E-04 -5.61092527869E-05 -4.51032776929E-04 -2.20394660765E-05 -4.30599870858E-01 +8.45414259202E-01
1.30000000000E+09 -2.31854425596E-01 +8.68116237477E-01 -4.67993703772E-04 -1.07538285484E-04 -5.00563487089E-04 +4.88524826779E-06 -4.22805539996E-01 +8.48630981275E-01
1.30500000000E+09 -2.22386358236E-01 +8.70516435276E-01 -5.97419134950E-04 -1.49724586411E-05 -5.58408817510E-04 +3.65259441267E-05 -4.14917315977E-01 +8.51798411453E-01
1.31000000000E+09 -2.13379046924E-01 +8.72669216245E-01 -6.12204669393E-04 +1.29476360488E-04 -5.69649560369E-04 +1.39382627682E-04 -4.06542401760E-01 +8.54806703663E-01
1.31500000000E+09 -2.04982560594E-01 +8.73743243333E-01 -5.78406609309E-04 +2.04854253400E-04 -5.70964967752E-04 +2.01836310683E-04 -3.97678333684E-01 +8.58070391669E-01
1.32000000000E+09 -1.97289019323E-01 +8.73779804846E-01 -5.41559641027E-04 +2.67074872821E-04 -5.22215040169E-04 +2.68358928300E-04 -3.88722669526E-01 +8.60903562317E-01
1.32500000000E+09 -1.89319200417E-01 +8.72954150628E-01 -5.42226980932E-04 +2.83923651865E-04 -6.00260610266E-04 +3.59430391081E-04 -3.79521392150E-01 +8.63864501476E-01
1.33000000000E+09 -1.80513727368E-01 +8.71752540263E-01 -6.14734712733E-04 +3.24306528866E-04 -5.79600558425E-04 +4.52273249143E-04 -3.69960601509E-01 +8.66742536362E-01
1.33500000000E+09 -1.70456962412E-01 +8.70202010293E-01 -6.36380509377E-04 +5.46979447432E-04 -5.46511935193E-04 +5.79036775253E-04 -3.60422711283E-01 +8.69542773299E-01
1.34000000000E+09 -1.58980790150E-01 +8.68992150719E-01 -5.82784927350E-04 +6.28219442029E-04 -4.88594369928E-04 +6.41892725400E-04 -3.50356647990E-01 +8.72465165853E-01
1.34500000000E+09 -1.45995519645E-01 +8.67966567690E-01 -4.98420148368E-04 +7.61085770319E-04 -4.96368527269E-04 +7.29963478951E-04 -3.39604031620E-01 +8.75123645737E-01
1.35000000000E+09 -1.32038568659E-01 +8.67450533682E-01 -4.36719771492E-04 +8.25212200379E-04 -4.42933255302E-04 +7.97646479280E-04 -3.28770697176E-01 +8.77763527450E-01
1.35500000000E+09 -1.17334487310E-01 +8.67369014982E-01 -3.89314092618E-04 +8.41660503853E-04 -3.99293190768E-04 +8.71565757397E-04 -3.17149436144E-01 +8.80082193180E-01
1.36000000000E+09 -1.02373151010E-01 +8.67765867649E-01 -3.51798362169E-04 +9.82253740163E-04 -3.24301420057E-04 +9.83289443233E-04 -3.05751472786E-01 +8.82190433522E-01
1.36500000000E+09 -8.72213901673E-02 +8.67666494703E-01 -2.44696219943E-04 +1.08690058186E-03 -3.23922465212E-04 +1.05879473287E-03 -2.94005622879E-01 +8.84139497041E-01
1.37000000000E+09 -7.27213848351E-02 +8.66371948227E-01 -1.59034556305E-04 +1.28128252452E-03 -2.04042864170E-04 +1.16865217425E-03 -2.81480761190E-01 +8.86000801660E-01
1.37500000000E+09 -5.93772729330E-02 +8.64145683924E-01 +6.28037667011E-05 +1.34403203164E-03 -1.07025070202E-04 +1.32501474611E-03 -2.67996291600E-01 +8.87922758171E-01
1.38000000000E+09 -4.68034236181E-02 +8.61018308813E-01 +2.01595198794E-04 +1.34030502112E-03 -1.13663171340E-05 +1.45938293695E-03 -2.53580283419E-01 +8.89502704416E-01
1.38500000000E+09 -3.42324373212E-02 +8.56987334578E-01 +2.84612466232E-04 +1.51677735603E-03 +2.13614435340E-04 +1.72616352321E-03 -2.38699564272E-01 +8.90782211704E-01
1.39000000000E+09 -2.15949564097E-02 +8.52315572254E-01 +5.03434768032E-04 +1.53979448377E-03 +5.24780916720E-04 +1.83099261425E-03 -2.23367387472E-01 +8.91737083012E-01
1.39500000000E+09 -7.99781885664E-03 +8.47441435599E-01 +6.76755280045E-04 +1.70053695913E-03 +8.54689975471E-04 +1.77896004639E-03 -2.07255699954E-01 +8.91953393530E-01
1.40000000000E+09 +6.95818106993E-03 +8.41832472398E-01 +9.32247889275E-04 +1.81631479798E-03 +1.11474711797E-03 +1.77099652653E-03 -1.90527552819E-01 +8.92047185850E-01
1.40500000000E+09 +2.24988753453E-02 +8.36488229993E-01 +1.39989618831E-03 +1.90393314840E-03 +1.43851769153E-03 +1.82142473087E-03 -1.72677066330E-01 +8.91270596484E-01
1.41000000000E+09 +3.92765560527E-02 +8.31520347101E-01 +1.84961195826E-03 +1.70742577246E-03 +1.81995031085E-03 +1.70581627310E-03 -1.53462497277E-01 +8.90065025587E-01
1.41500000000E+09 +5.75257591394E-02 +8.26860307993E-01 +2.08764956795E-03 +1.57232658303E-03 +2.12530971592E-03 +1.72202004475E-03 -1.32584731046E-01 +8.87997897199E-01
1.42000000000E+09 +7.78795583694E-02 +8.21447087223E-01 +2.39438637337E-03 +1.42959817037E-03 +2.63924963934E-03 +1.62046054534E-03 -1.10631746115E-01 +8.84876376382E-01
1.42500000000E+09 +9.89901783853E-02 +8.13916379406E-01 +2.81951872945E-03 +1.29598357017E-03 +3.19398332250E-03 +1.27889137437E-03 -8.79211693983E-02 +8.80538278921E-01
1.43000000000E+09 +1.20350605618E-01 +8.03794207101E-01 +3.28660173515E-03 +1.15678888876E-03 +3.67074358415E-03 +9.43176960512E-04 -6.44386600522E-02 +8.75539460437E-01
1.43500000000E+09 +1.41448904392E-01 +7.90811691483E-01 +4.10128207742E-03 +7.78013889467E-04 +4.28941440178E-03 +3.86487675471E-04 -3.92874367908E-02 +8.68563367016E-01
1.44000000000E+09 +1.62614709995E-01 +7.76059025612E-01 +4.70430822074E-03 -3.03680202803E-04 +4.73867061164E-03 -5.79971825524E-04 -1.26906999766E-02 +8.59417976637E-01
1.44500000000E+09 +1.84927327326E-01 +7.58489569284E-01 +4.68501722375E-03 -1.19506867786E-03 +4.66772554338E-03 -1.48165712693E-03 +1.60180009507E-02 +8.47874575464E-01
1.45000000000E+09 +2.07741498674E-01 +7.38466964163E-01 +4.59878707806E-03 -1.81954947636E-03 +4.62503281435E-03 -2.14088546637E-03 +4.62694234378E-02 +8.33160963354E-01
1.45500000000E+09 +2.31677921975E-01 +7.15998901197E-01 +4.81756181604E-03 -2.49753095306E-03 +4.65830095741E-03 -2.85935687532E-03 +7.74701837850E-02 +8.15938992146E-01
1.46000000000E+09 +2.56682224704E-01 +6.91558909817E-01 +5.15940446781E-03 -3.38520543597E-03 +4.59045879559E-03 -3.74908237660E-03 +1.10580389803E-01 +7.94758844478E-01
1.46500000000E+09 +2.83226733748E-01 +6.64886999558E-01 +5.25854144795E-03 -4.67372017131E-03 +4.57626714367E-03 -4.61113812855E-03 +1.44517295764E-01 +7.68423273132E-01
1.47000000000E+09 +3.11651537355E-01 +6.34702797999E-01 +5.22111702463E-03 -6.55963369847E-03 +4.78834170941E-03 -5.98866757547E-03 +1.79382394209E-01 +7.35443243940E-01
1.47500000000E+09 +3.40892909128E-01 +5.98244078592E-01 +3.95283216419E-03 -8.63967337963E-03 +4.12014592646E-03 -8.10541281399E-03 +2.13886801528E-01 +6.95404401203E-01
1.48000000000E+09 +3.67766328978E-01 +5.54338479284E-01 +2.25928868225E-03 -9.96263730758E-03 +2.56918361239E-03 -9.98129475247E-03 +2.48023437157E-01 +6.47754417630E-01
1.48500000000E+09 +3.90545794918E-01 +5.02047688086E-01 +5.81434324499E-04 -1.12049176898E-02 +4.70655596633E-04 -1.15189266002E-02 +2.79797383580E-01 +5.91159458540E-01
1.49000000000E+09 +4.06948517795E-01 +4.41757194338E-01 -1.86218299050E-03 -1.26320831620E-02 -2.43693942380E-03 -1.25464819658E-02 +3.06686079159E-01 +5.24583425544E-01
1.49500000000E+09 +4.15840036714E-01 +3.73440806437E-01 -5.51292583097E-03 -1.35348560288E-02 -5.78045051487E-03 -1.27543865598E-02 +3.24380163015E-01 +4.47347086897E-01
1.50000000000E+09 +4.15145636737E-01 +2.96321504997E-01 -9.57790136103E-03 -1.29019952213E-02 -9.01645248170E-03 -1.21509368263E-02 +3.29260804730E-01 +3.60644605779E-01
1.50500000000E+09 +4.01415088377E-01 +2.11899115783E-01 -1.37805589499E-02 -1.11439073088E-02 -1.28715102487E-02 -1.10911192971E-02 +3.17387149685E-01 +2.66076907249E-01
1.51000000000E+09 +3.72049136824E-01 +1.23637773626E-01 -1.74582041990E-02 -7.36533175501E-03 -1.70002273131E-02 -8.00887591044E-03 +2.84808685066E-01 +1.67036332372E-01
1.51500000000E+09 +3.23799073222E-01 +3.54408233946E-02 -2.00272164343E-02 -2.93963280274E-03 -2.01346687526E-02 -3.45269157039E-03 +2.28530791672E-01 +7.23563278412E-02
1.52000000000E+09 +2.55641299942E-01 -4.37375175824E-02 -2.15850475783E-02 +2.72006810407E-03 -2.18803469423E-02 +2.48006959640E-03 +1.51057590834E-01 -1.01198991956E-02
1.52500000000E+09 +1.70555934835E-01 -1.08684344025E-01 -2.09884134713E-02 +1.02669791120E-02 -2.12379983318E-02 +1.02894989149E-02 +5.77161494571E-02 -7.51839946840E-02
1.53000000000E+09 +7.12892596917E-02 -1.54158648116E-01 -1.59005680434E-02 +1.62506798748E-02 -1.60295783578E-02 +1.63590426773E-02 -5.09253405112E-02 -1.17748941145E-01
1.53500000000E+09 -3.61731228351E-02 -1.76045551602E-01 -1.06365857300E-02 +1.95295454048E-02 -1.05750152601E-02 +1.95106432264E-02 -1.61476806734E-01 -1.33711802172E-01
1.54000000000E+09 -1.47061642932E-01 -1.72460137006E-01 -4.57700780332E-03 +2.09139936563E-02 -4.62725692428E-03 +2.07483468869E-02 -2.69875776400E-01 -1.26688371937E-01
1.54500000000E+09 -2.50539718152E-01 -1.43922406612E-01 +1.68886055356E-03 +2.07870957578E-02 +1.19111579245E-03 +2.05312190957E-02 -3.67207919921E-01 -9.89832176940E-02
1.55000000000E+09 -3.41050318220E-01 -9.88942957348E-02 +6.77277881502E-03 +1.77173150395E-02 +6.06295819482E-03 +1.79536153672E-02 -4.49347565256E-01 -5.71738172536E-02
1.55500000000E+09 -4.15944081101E-01 -4.24945985642E-02 +9.86888185077E-03 +1.44384349903E-02 +9.45961465315E-03 +1.51353112700E-02 -5.16689258384E-01 -6.83937696816E-03
1.56000000000E+09 -4.74589104092E-01 +1.67900836980E-02 +1.22830413270E-02 +1.06647078169E-02 +1.24600691468E-02 +1.15455329680E-02 -5.69737371172E-01 +4.82462787895E-02
1.56500000000E+09 -5.21281394129E-01 +7.65352654191E-02 +1.27716322182E-02 +6.48209705010E-03 +1.33952164027E-02 +7.07000931189E-03 -6.10957852074E-01 +1.04883567837E-01
1.57000000000E+09 -5.56509476739E-01 +1.36093368258E-01 +1.21637817267E-02 +3.75168655114E-03 +1.29432756341E-02 +3.86981923461E-03 -6.40995407015E-01 +1.61210767875E-01
