# Hz S RI R 50
! CMT, C1220, 16058040, 17.2.0/1
! Date: 14/08/2018 12:31:09
! Data: Format (Calibration Info)
! Freq                      S11: Re/Im (F2)                       S21: Re/Im (F2)                       S12: Re/Im (F2)                       S22: Re/Im (F2)            
1.00000000000E+09 -6.28525561720E-01 +7.09596966239E-01 +1.43935850377E-05 +1.35261247517E-05 -2.20535939001E-07 -1.74198435136E-05 -7.53354764114E-01 +6.23791647098E-01
1.00500000000E+09 -6.21429298423E-01 +7.14664014879E-01 -1.00274998329E-05 -1.19504964330E-05 -4.26701500092E-05 -1.87102264229E-05 -7.49815420129E-01 +6.27929532475E-01
1.01000000000E+09 -6.15580180186E-01 +7.19247970880E-01 -8.05575404124E-06 +3.63002281060E-05 -3.17607951618E-06 +1.30838886538E-05 -7.46342614417E-01 +6.31441371155E-01
1.01500000000E+09 -6.11236247086E-01 +7.22873499518E-01 -1.25072946189E-05 +6.07182770010E-06 -5.98821087924E-05 -3.08113182087E-05 -7.43250158849E-01 +6.35141589472E-01
1.02000000000E+09 -6.08432769215E-01 +7.26072756255E-01 -2.22894519032E-06 +2.39523350448E-05 -4.45362926136E-05 -9.37515308639E-06 -7.39747696049E-01 +6.38631866073E-01
1.02500000000E+09 -6.06388347386E-01 +7.28570105094E-01 +1.20867675403E-05 -3.76169843691E-06 -5.28337597519E-05 +2.02450893446E-05 -7.37152253153E-01 +6.42238690087E-01
1.03000000000E+09 -6.04827051779E-01 +7.30707836236E-01 -1.69391304226E-05 +8.45474301647E-06 +4.25556368833E-05 +5.06917768312E-05 -7.33558732708E-01 +6.46120146950E-01
1.03500000000E+09 -6.02609409631E-01 +7.33039511889E-01 -3.69852664685E-06 +1.59122384305E-05 -5.42800682340E-05 +3.05941422235E-05 -7.29766493387E-01 +6.50101630230E-01
1.04000000000E+09 -5.99035400732E-01 +7.35586011881E-01 -2.31691160604E-05 -1.49748152630E-05 -1.86959881568E-05 +3.38906950822E-06 -7.25999021552E-01 +6.53735381720E-01
1.04500000000E+09 -5.93631032804E-01 +7.38929659100E-01 -3.05464960436E-05 -3.05901456802E-05 -2.24874807239E-05 +3.22103677055E-06 -7.22301046780E-01 +6.57266616537E-01
1.05000000000E+09 -5.86583889073E-01 +7.43082945900E-01 -1.10026206230E-05 +3.99017825716E-05 +2.22837732332E-05 +4.12503945604E-05 -7.19011758648E-01 +6.60654630191E-01
1.05500000000E+09 -5.78136512613E-01 +7.47694992746E-01 -1.46829050413E-05 +2.00604762416E-05 -1.73294507459E-05 +3.61136762352E-05 -7.15714105816E-01 +6.64332387581E-01
1.06000000000E+09 -5.69012586435E-01 +7.52947465630E-01 +1.41316104938E-05 +3.55604339472E-05 -1.95108052416E-05 -1.23136743650E-05 -7.12340336267E-01 +6.67978875794E-01
1.06500000000E+09 -5.60223313531E-01 +7.58162480343E-01 -1.87474521961E-05 -4.37518842348E-05 +1.70371605339E-05 +3.24687461720E-05 -7.08469689823E-01 +6.71957028444E-01
1.07000000000E+09 -5.52523608192E-01 +7.62628508437E-01 +2.22778461991E-05 +4.69603181036E-05 +3.47590317798E-05 +5.59632082332E-05 -7.04494502516E-01 +6.75584519747E-01
1.07500000000E+09 -5.46345462203E-01 +7.66509708727E-01 +4.31691084769E-05 +5.62414890520E-05 -4.34546475966E-05 +4.86254975386E-05 -7.00210520759E-01 +6.79378700748E-01
1.08000000000E+09 -5.42044965459E-01 +7.69885461709E-01 +4.15500311152E-05 +2.85918297615E-06 +3.02533428101E-05 +4.33711410513E-05 -6.96343694412E-01 +6.83312465123E-01
1.08500000000E+09 -5.39068542879E-01 +7.72340615554E-01 +3.20755481956E-05 +7.40384164071E-05 +1.69723388127E-05 +1.64491772508E-05 -6.92521084965E-01 +6.86725632850E-01
1.09000000000E+09 -5.37005353068E-01 +7.74273442780E-01 +3.88471797783E-05 +2.50822218437E-07 +3.81522804481E-05 +2.46462805501E-05 -6.88760149615E-01 +6.90502504084E-01
1.09500000000E+09 -5.35213909755E-01 +7.75938096007E-01 +7.21715474506E-06 +1.60387695687E-05 +5.00099608034E-05 +6.76655204665E-05 -6.84952042218E-01 +6.94371738384E-01
1.10000000000E+09 -5.32267906178E-01 +7.77657816303E-01 +2.80404997833E-06 -2.85610384175E-05 +3.67188762772E-06 +4.48791597319E-05 -6.80986362998E-01 +6.98175805238E-01
1.10500000000E+09 -5.28501167407E-01 +7.80182520578E-01 +2.68808585920E-05 -1.46404543611E-05 +7.99586043139E-05 +4.82606920720E-05 -6.76732517980E-01 +7.01809107251E-01
1.11000000000E+09 -5.22830743534E-01 +7.83356032371E-01 +3.38340868452E-05 +1.57761083263E-06 +2.57171245449E-05 +5.70131097702E-06 -6.72640548525E-01 +7.05087206673E-01
1.11500000000E+09 -5.16012417763E-01 +7.87005228805E-01 +1.31258528371E-05 -1.96750507388E-05 +4.15208481450E-05 +3.88537627104E-05 -6.68645796852E-01 +7.08429713484E-01
1.12000000000E+09 -5.08414637416E-01 +7.91020611149E-01 +3.02043583136E-06 +4.40785258534E-05 +5.43950287065E-05 +2.54683640729E-05 -6.64604354419E-01 +7.12033222405E-01
1.12500000000E+09 -5.00483345059E-01 +7.95138400946E-01 +4.25249816075E-05 +1.18884107779E-05 +7.64492861229E-06 +3.02747612845E-05 -6.60340929017E-01 +7.15965420987E-01
1.13000000000E+09 -4.93186777730E-01 +7.98593642742E-01 +2.99250936281E-05 +1.15728537930E-05 +2.26446296100E-05 +3.75980207361E-05 -6.56106672086E-01 +7.19848121353E-01
1.13500000000E+09 -4.86664249774E-01 +8.01465107056E-01 +3.78483931995E-05 -3.12246776204E-05 +4.34385779570E-05 +3.83552715326E-05 -6.51313602397E-01 +7.23720667034E-01
1.14000000000E+09 -4.81336683719E-01 +8.03788142572E-01 +5.59300445313E-05 +1.80530373712E-05 +4.46979619608E-05 -4.44275362586E-06 -6.46580194959E-01 +7.27258193841E-01
1.14500000000E+09 -4.77125859982E-01 +8.05339209326E-01 +5.06002144948E-05 +1.93483772014E-05 -5.00312276559E-06 +1.40095828083E-05 -6.41891890783E-01 +7.30747599494E-01
1.15000000000E+09 -4.73298751037E-01 +8.06640669951E-01 +4.83499782816E-05 -1.60724769403E-06 +3.65647246726E-05 +2.90744314066E-05 -6.37263523525E-01 +7.34460374811E-01
1.15500000000E+09 -4.69431425906E-01 +8.08246385153E-01 +5.82431009247E-05 -1.63730527797E-05 +5.17514948330E-05 +4.51780543411E-05 -6.32495121719E-01 +7.38253258525E-01
1.16000000000E+09 -4.64792396792E-01 +8.09868565110E-01 +3.63278109813E-05 +4.86394897807E-05 +3.32020262448E-05 -2.11991520597E-05 -6.27844398469E-01 +7.42122140096E-01
1.16500000000E+09 -4.59037662309E-01 +8.12474350695E-01 +9.26189548562E-05 -1.54555257782E-05 +7.63277314148E-05 -8.71557884612E-06 -6.22823148067E-01 +7.45777774985E-01
1.17000000000E+09 -4.52270282044E-01 +8.15551798076E-01 +3.75987536652E-05 -6.33908019933E-05 +5.78863372137E-05 -2.90008610171E-05 -6.17436708319E-01 +7.49069810764E-01
1.17500000000E+09 -4.44630409477E-01 +8.18765215634E-01 +5.78848998135E-05 -3.74098191065E-05 +5.64551750227E-05 -6.20754039299E-05 -6.11880640839E-01 +7.52304823381E-01
1.18000000000E+09 -4.36792508381E-01 +8.22360661291E-01 +3.45164125663E-05 -5.87280485571E-06 +1.73127652807E-05 -2.25617657636E-05 -6.06301831724E-01 +7.55369788247E-01
1.18500000000E+09 -4.29135263923E-01 +8.25526294663E-01 +4.57188242417E-05 -5.83602209873E-05 +4.97364550761E-05 -7.65374696826E-05 -6.00519879761E-01 +7.58330967843E-01
1.19000000000E+09 -4.21976760455E-01 +8.28183548302E-01 +8.61386792772E-05 -8.52659729887E-05 -2.36646120117E-07 -7.66462953283E-05 -5.94287926804E-01 +7.60965185923E-01
1.19500000000E+09 -4.15976571847E-01 +8.30137736600E-01 +4.21057939817E-05 -1.32294040545E-04 +1.50520623765E-05 -8.19562633871E-05 -5.88346592026E-01 +7.62207335233E-01
1.20000000000E+09 -4.10788187406E-01 +8.30799725575E-01 +4.65098496977E-05 -1.04528253354E-04 +3.16038151807E-07 -1.40063574810E-04 -5.83928660684E-01 +7.62369941732E-01
1.20500000000E+09 -4.06119334147E-01 +8.31794087315E-01 -5.54068152565E-05 -1.26003114002E-04 -4.99526534645E-05 -1.34710917306E-04 -5.81596313579E-01 +7.63278419513E-01
1.21000000000E+09 -4.01080406054E-01 +8.32810212142E-01 -6.60757024326E-05 -1.08087727376E-04 -1.44135871667E-05 -8.11494085777E-05 -5.79538743072E-01 +7.66462901454E-01
1.21500000000E+09 -3.94780376367E-01 +8.34104614799E-01 -9.11158664668E-05 -3.03873588334E-05 -8.36081509061E-05 -8.63422473067E-05 -5.76771027402E-01 +7.70999900944E-01
1.22000000000E+09 -3.87071663730E-01 +8.35882680300E-01 -3.03219489456E-05 -2.67029075305E-05 +8.31421349490E-06 -1.86818555348E-05 -5.72502377339E-01 +7.76510266766E-01
1.22500000000E+09 -3.77917997231E-01 +8.38492272811E-01 -4.12268163075E-05 -1.82251871893E-05 -9.93426690687E-06 -9.13948890858E-05 -5.67450904185E-01 +7.81540502651E-01
1.23000000000E+09 -3.67754965700E-01 +8.41479698293E-01 +3.19709294786E-05 -6.78271636945E-05 -1.53336217924E-05 -4.90618070487E-05 -5.61713935006E-01 +7.86368591809E-01
1.23500000000E+09 -3.57328326785E-01 +8.45122470317E-01 -2.40600087090E-05 -6.28361550924E-05 -5.45738262059E-06 -1.09016003110E-06 -5.56027526875E-01 +7.90641943327E-01
1.24000000000E+09 -3.47091705910E-01 +8.49011394810E-01 -7.83493639221E-05 -3.62596551401E-05 -6.21420645193E-05 -9.30311291174E-06 -5.49831713954E-01 +7.94392593536E-01
1.24500000000E+09 -3.37953919025E-01 +8.52990780651E-01 -5.47793613366E-05 -9.11574135491E-05 -1.60762630309E-05 -5.56176408064E-05 -5.43692492331E-01 +7.98158778562E-01
1.25000000000E+09 -3.29826845590E-01 +8.56265645515E-01 -7.43417610785E-05 -2.36725980235E-05 -2.63315244152E-05 -7.58103727724E-05 -5.37114353229E-01 +8.02484795311E-01
1.25500000000E+09 -3.23074873228E-01 +8.58458931202E-01 -8.83568075248E-05 -9.23488190519E-05 -1.97367787777E-05 -6.45891749338E-05 -5.30467233063E-01 +8.06427394603E-01
1.26000000000E+09 -3.17356212780E-01 +8.59701955023E-01 -7.88305219129E-05 -3.45780910954E-05 -8.55747920381E-05 -8.84630854904E-05 -5.23874999654E-01 +8.10630777540E-01
1.26500000000E+09 -3.11862812026E-01 +8.60438208380E-01 -1.11416329829E-04 -1.44275983056E-05 -6.25150165547E-05 -1.18706378057E-05 -5.16923388560E-01 +8.14353024551E-01
1.27000000000E+09 -3.05994459730E-01 +8.60865824947E-01 -7.55142103078E-05 -1.25574867247E-05 -6.31638266467E-05 -3.43057964638E-05 -5.10066336966E-01 +8.18157773930E-01
1.27500000000E+09 -2.98893509323E-01 +8.61474681152E-01 -5.61252744357E-05 -2.59410696434E-05 -9.48835432662E-05 -2.67840535892E-05 -5.02778866155E-01 +8.21810387143E-01
1.28000000000E+09 -2.89779102599E-01 +8.62505804125E-01 -8.70210276350E-05 -1.39072499776E-06 -8.14857582575E-05 -5.01735120826E-05 -4.95693329729E-01 +8.25433833824E-01
1.28500000000E+09 -2.78710941199E-01 +8.64158173350E-01 -7.28175233419E-05 -1.38864626898E-05 -6.69451884702E-05 -4.06194462315E-05 -4.88223557306E-01 +8.29186359605E-01
1.29000000000E+09 -2.66821069525E-01 +8.66544258995E-01 -4.47234499636E-05 +3.68937456136E-06 -9.35383117361E-05 -2.78680832733E-05 -4.80559542294E-01 +8.32883492815E-01
1.29500000000E+09 -2.54471009205E-01 +8.69616693171E-01 -8.20960697155E-05 -3.86328582957E-05 -8.73732449088E-05 -1.31157706487E-05 -4.72742018614E-01 +8.36462716042E-01
1.30000000000E+09 -2.42211983159E-01 +8.73238932150E-01 -1.09876234607E-04 +1.18998712364E-05 -7.58658565786E-05 -3.37976499846E-05 -4.64838622624E-01 +8.40132884781E-01
1.30500000000E+09 -2.31067190294E-01 +8.76508561773E-01 -1.12324699172E-04 +2.25311474150E-05 -9.77040339321E-05 +2.70039259039E-05 -4.56853693871E-01 +8.43436472426E-01
1.31000000000E+09 -2.21573236481E-01 +8.78699625380E-01 -1.06727433646E-04 +1.08513191071E-05 -4.17687169548E-05 +3.16442398871E-05 -4.48491674953E-01 +8.46926684530E-01
1.31500000000E+09 -2.14032488083E-01 +8.80073566829E-01 -5.66231830847E-05 +3.52037807646E-05 -8.99861690840E-05 -7.98535075486E-08 -4.39742376515E-01 +8.50374131887E-01
1.32000000000E+09 -2.07884104495E-01 +8.80225162593E-01 -6.16612564589E-05 -1.59562753479E-05 -1.08810255494E-04 -9.71907195390E-06 -4.30671378671E-01 +8.53705741261E-01
1.32500000000E+09 -2.02339206689E-01 +8.79664300036E-01 -1.29520804049E-04 +1.75950554049E-05 -1.17370951073E-04 +1.71938807321E-05 -4.21189927510E-01 +8.57138419489E-01
1.33000000000E+09 -1.95763875373E-01 +8.78939343033E-01 -1.22663819918E-04 +2.77093608405E-05 -1.93647439102E-04 +4.00893405112E-05 -4.11655930942E-01 +8.60451641220E-01
1.33500000000E+09 -1.87354232111E-01 +8.77600530232E-01 -1.72020438523E-04 +3.16995573949E-05 -1.75357353589E-04 +3.12596542879E-05 -4.01852921931E-01 +8.63482106538E-01
1.34000000000E+09 -1.76480328019E-01 +8.76680026628E-01 -1.92848130328E-04 +9.61154244299E-05 -1.72526003454E-04 +8.99940144658E-05 -3.91787455499E-01 +8.66661152644E-01
1.34500000000E+09 -1.63257197769E-01 +8.75906188646E-01 -1.44573830013E-04 +1.72009546575E-04 -1.50345827613E-04 +1.11143587510E-04 -3.80811533924E-01 +8.70043090447E-01
1.35000000000E+09 -1.48206466025E-01 +8.75897101602E-01 -1.76429796799E-04 +1.59298650061E-04 -1.32492210147E-04 +7.69951640585E-05 -3.69589217639E-01 +8.73129989113E-01
1.35500000000E+09 -1.31880274890E-01 +8.76601005237E-01 -1.41068557557E-04 +1.70707800026E-04 -1.71546281745E-04 +1.79069564587E-04 -3.57773283320E-01 +8.75994488542E-01
1.36000000000E+09 -1.15239786269E-01 +8.77527269358E-01 -1.80495659433E-04 +1.97680071030E-04 -1.30134970327E-04 +1.99663193875E-04 -3.45743353714E-01 +8.78791677157E-01
1.36500000000E+09 -9.95757187945E-02 +8.78255797538E-01 -1.55792483569E-04 +2.68456441522E-04 -1.29173762578E-04 +2.39469020023E-04 -3.33519269240E-01 +8.81187675708E-01
1.37000000000E+09 -8.54776457299E-02 +8.78300042617E-01 -1.24940153729E-04 +2.93559681823E-04 -1.24676430038E-04 +2.75795157730E-04 -3.20695057839E-01 +8.83467202393E-01
1.37500000000E+09 -7.33866214341E-02 +8.77721738886E-01 -4.38826907236E-05 +3.88450252023E-04 -8.74793973923E-05 +3.58484862262E-04 -3.07057809304E-01 +8.85792611727E-01
1.38000000000E+09 -6.26366800131E-02 +8.76393568599E-01 +1.09317599633E-06 +3.81432558584E-04 +2.92444972204E-06 +3.72269941076E-04 -2.92425575903E-01 +8.87735985500E-01
1.38500000000E+09 -5.18117553089E-02 +8.74122870249E-01 +6.37024413496E-05 +3.39681099198E-04 +2.98930678376E-05 +4.13123607926E-04 -2.76925133994E-01 +8.89580797465E-01
1.39000000000E+09 -4.02076311923E-02 +8.70992976664E-01 +1.29184685219E-04 +3.38360375723E-04 +1.16330682520E-04 +4.01793007185E-04 -2.60875149294E-01 +8.91138079468E-01
1.39500000000E+09 -2.66072451464E-02 +8.66904641771E-01 +1.44203564442E-04 +2.91758411548E-04 +1.88021588264E-04 +3.54374728481E-04 -2.44411105647E-01 +8.91795456914E-01
1.40000000000E+09 -1.03705580087E-02 +8.62230298879E-01 +1.76106401987E-04 +3.35396781705E-04 +2.05090641585E-04 +2.96628050298E-04 -2.26998822523E-01 +8.91947503978E-01
1.40500000000E+09 +8.02449788916E-03 +8.57023433279E-01 +2.06232294508E-04 +4.10089894049E-04 +2.00961808481E-04 +3.57660217734E-04 -2.08673606961E-01 +8.91744089771E-01
1.41000000000E+09 +2.83259293817E-02 +8.51623889594E-01 +3.01749775163E-04 +3.97268877635E-04 +3.17771608470E-04 +4.13880060056E-04 -1.88667035632E-01 +8.90884507260E-01
1.41500000000E+09 +4.99778083171E-02 +8.45830631543E-01 +4.41516590742E-04 +3.89670430331E-04 +4.52820116682E-04 +3.81233297800E-04 -1.67356198075E-01 +8.89471193876E-01
1.42000000000E+09 +7.18774150565E-02 +8.39759571559E-01 +5.67596055561E-04 +2.25936366874E-04 +6.11976408912E-04 +2.52404789553E-04 -1.44583436826E-01 +8.86794446315E-01
1.42500000000E+09 +9.35167727136E-02 +8.32385182307E-01 +4.53676714665E-04 +1.55708068128E-04 +5.25562234153E-04 +1.50186813208E-04 -1.20949810072E-01 +8.83152545506E-01
1.43000000000E+09 +1.13735319574E-01 +8.23526246998E-01 +5.97430228402E-04 +2.46325518967E-04 +7.35208584427E-04 +1.91441838451E-04 -9.65356982261E-02 +8.78506347224E-01
1.43500000000E+09 +1.33112329921E-01 +8.13160965596E-01 +7.47092030141E-04 -9.52590234354E-06 +7.23033557766E-04 -2.93878619893E-05 -7.05062782339E-02 +8.71933727069E-01
1.44000000000E+09 +1.52720260542E-01 +8.00895818888E-01 +6.06591950054E-04 -1.17606096290E-04 +6.15097929414E-04 -1.28844548390E-04 -4.25678698156E-02 +8.63699626745E-01
1.44500000000E+09 +1.73386431035E-01 +7.85463228734E-01 +7.38176426090E-04 -6.20145955877E-05 +7.43561466246E-04 -1.05950133735E-04 -1.23936992657E-02 +8.52467899127E-01
1.45000000000E+09 +1.95555787665E-01 +7.66806168491E-01 +7.06397750563E-04 -2.34679008628E-04 +7.22570459797E-04 -3.46103776520E-04 +1.95339925131E-02 +8.38047457492E-01
1.45500000000E+09 +2.20153626100E-01 +7.44695656591E-01 +7.38182110303E-04 -2.33989514874E-04 +7.48860686624E-04 -2.96639559392E-04 +5.28280188939E-02 +8.20500051668E-01
1.46000000000E+09 +2.47449032740E-01 +7.18344844629E-01 +9.89033514855E-04 -4.36245992258E-04 +9.06447394223E-04 -5.40756234774E-04 +8.71166223682E-02 +7.99138917919E-01
1.46500000000E+09 +2.76009474000E-01 +6.88378873044E-01 +9.29262865256E-04 -8.89347263856E-04 +8.10605624219E-04 -8.67110632861E-04 +1.22966696702E-01 +7.72504693705E-01
1.47000000000E+09 +3.05524742733E-01 +6.54504216787E-01 +5.99139243593E-04 -1.04708266812E-03 +5.89468036124E-04 -9.51683442528E-04 +1.59279170049E-01 +7.39727406658E-01
1.47500000000E+09 +3.34505659492E-01 +6.16229794542E-01 +3.25009386652E-04 -1.17177868780E-03 +4.15879605326E-04 -1.11453050335E-03 +1.97080734226E-01 +7.00035476687E-01
1.48000000000E+09 +3.61353051512E-01 +5.71910268006E-01 +3.23923404256E-04 -1.04325560719E-03 +3.55117899526E-04 -1.08360038621E-03 +2.34047625327E-01 +6.50664560268E-01
1.48500000000E+09 +3.83132410048E-01 +5.21865758043E-01 +3.68166274411E-04 -1.37732756086E-03 +3.65449035008E-04 -1.43691178988E-03 +2.68161269920E-01 +5.92343518175E-01
1.49000000000E+09 +3.99576707094E-01 +4.65157123356E-01 +3.03580148967E-05 -1.78837133519E-03 -7.65513614704E-05 -1.75911978975E-03 +2.97013912522E-01 +5.23410109217E-01
1.49500000000E+09 +4.08302252975E-01 +4.00497696190E-01 -3.97285105780E-04 -1.89312803206E-03 -4.43670925523E-04 -1.76528120543E-03 +3.16219534159E-01 +4.44266456983E-01
1.50000000000E+09 +4.08366553199E-01 +3.27613502560E-01 -9.69537456254E-04 -2.49814730150E-03 -8.93354018415E-04 -2.35298813922E-03 +3.22517977602E-01 +3.55092374236E-01
1.50500000000E+09 +3.96472852014E-01 +2.45830167849E-01 -2.71938572111E-03 -1.83772280357E-03 -2.49112770826E-03 -1.85491515610E-03 +3.12004417356E-01 +2.59343256055E-01
1.51000000000E+09 +3.68368417935E-01 +1.58566375470E-01 -2.60013742955E-03 -2.18445990200E-04 -2.53711335608E-03 -3.23128575080E-04 +2.82424970700E-01 +1.58491365350E-01
1.51500000000E+09 +3.23112156390E-01 +7.18565949463E-02 -2.30151843631E-03 +1.18070400526E-05 -2.32184654368E-03 -1.07988207267E-04 +2.29191823693E-01 +5.95491670621E-02
1.52000000000E+09 +2.59999598150E-01 -9.28643662195E-03 -2.40661331246E-03 +7.47473339328E-04 -2.49168615953E-03 +7.21202806611E-04 +1.53110957006E-01 -2.80181857728E-02
1.52500000000E+09 +1.79914721855E-01 -7.77936622360E-02 -1.47022390100E-03 +1.33928140004E-03 -1.50685222889E-03 +1.27092028890E-03 +5.87483337510E-02 -9.80185738789E-02
1.53000000000E+09 +8.40324670569E-02 -1.27044326288E-01 -1.45400918318E-03 +6.19047197314E-04 -1.48057688464E-03 +6.56365129812E-04 -4.89831416826E-02 -1.45197740271E-01
1.53500000000E+09 -2.04676742319E-02 -1.51802320910E-01 -2.15410259169E-03 +1.64511974370E-03 -2.22437749127E-03 +1.65350853288E-03 -1.62475941359E-01 -1.66347320435E-01
1.54000000000E+09 -1.27189520661E-01 -1.49946769227E-01 -1.04908234022E-03 +2.76766582600E-03 -1.06067669469E-03 +2.77485357731E-03 -2.72462595849E-01 -1.63157084326E-01
1.54500000000E+09 -2.27708777285E-01 -1.25219407614E-01 +3.71797711086E-04 +2.52604987134E-03 +2.97570841497E-04 +2.51360765325E-03 -3.71740667427E-01 -1.40327604972E-01
1.55000000000E+09 -3.17642328863E-01 -8.35571258440E-02 +7.32001633525E-04 +2.12565756351E-03 +7.57213156699E-04 +2.14044078923E-03 -4.59388255814E-01 -1.03160038141E-01
1.55500000000E+09 -3.95099262913E-01 -3.12141590068E-02 +1.46224624333E-03 +1.63987415030E-03 +1.40073340818E-03 +1.76705269966E-03 -5.31475660106E-01 -5.38139896925E-02
1.56000000000E+09 -4.59127645746E-01 +2.72154224962E-02 +1.65287697147E-03 +6.59502942880E-04 +1.69120510278E-03 +7.20602697712E-04 -5.88236887267E-01 -5.47646600709E-05
1.56500000000E+09 -5.07792481888E-01 +8.71041175856E-02 +1.15169211152E-03 +1.34905758085E-04 +1.23402848471E-03 +1.67111090985E-04 -6.33069004938E-01 +5.59857795295E-02
1.57000000000E+09 -5.44884678218E-01 +1.44296056073E-01 +9.93795415475E-04 +1.25889069838E-04 +1.08226454981E-03 +1.48822292512E-04 -6.66235779178E-01 +1.11689864510E-01
