# Hz S RI R 50
! CMT, C1220, 16058040, 17.2.0/1
! Date: 14/08/2018 12:05:53
! Data: Format (Calibration Info)
! Freq                      S11: Re/Im (F2)                       S21: Re/Im (F2)                       S12: Re/Im (F2)                       S22: Re/Im (F2)            
1.00000000000E+09 -6.54375545957E-01 +7.09956462509E-01 +4.40019719262E-06 -2.50219841013E-05 +2.33254423407E-05 +3.25839093238E-05 -7.53488485629E-01 +6.25729829044E-01
1.00500000000E+09 -6.47521223421E-01 +7.14578328961E-01 -3.81341965268E-05 -3.57093630181E-05 +1.41451968155E-05 -3.70871492437E-06 -7.49820943064E-01 +6.29893773423E-01
1.01000000000E+09 -6.41885632982E-01 +7.18710029709E-01 -1.72400690148E-05 +7.21321615386E-06 -4.20385806307E-05 +3.39517864972E-05 -7.46098101037E-01 +6.33589933190E-01
1.01500000000E+09 -6.37678985195E-01 +7.22451900943E-01 +2.37033093752E-06 -4.49642911924E-06 -1.69472054536E-05 -1.64696907149E-06 -7.42909669665E-01 +6.37281746673E-01
1.02000000000E+09 -6.34793396105E-01 +7.25914903294E-01 -5.15812957100E-05 -2.05691677368E-05 -1.45510574869E-06 +2.76226067409E-05 -7.39420621304E-01 +6.41029439210E-01
1.02500000000E+09 -6.32803148949E-01 +7.28774227145E-01 +6.15011593464E-05 +1.92308228770E-05 -2.80024188472E-05 +1.59420954404E-05 -7.36528984817E-01 +6.44689211058E-01
1.03000000000E+09 -6.31403416039E-01 +7.31565441392E-01 -4.71326561408E-05 +6.45417515710E-06 -6.69394616045E-05 +1.19567991842E-05 -7.33014318751E-01 +6.48423761077E-01
1.03500000000E+09 -6.29171295389E-01 +7.34498451045E-01 -3.20165161248E-05 +2.26746703219E-05 -4.38913361773E-05 +3.57831599615E-06 -7.29413884993E-01 +6.52424944209E-01
1.04000000000E+09 -6.25736074957E-01 +7.37514394610E-01 -2.13159813595E-07 +3.73124760066E-06 -6.42535838658E-05 -1.40340932538E-05 -7.25461108118E-01 +6.56057096650E-01
1.04500000000E+09 -6.20971169263E-01 +7.40985202901E-01 -3.74952751904E-05 +6.43387330177E-05 -5.22110498862E-06 +4.69281030983E-07 -7.22027731544E-01 +6.59581067391E-01
1.05000000000E+09 -6.14199663762E-01 +7.45097349157E-01 -1.44153702785E-05 +1.66412523921E-05 -5.13053411839E-05 +1.20238769160E-05 -7.18503297067E-01 +6.63104661926E-01
1.05500000000E+09 -6.06374797079E-01 +7.49264578740E-01 -1.93247519254E-05 +1.31629729276E-06 -1.23837675308E-05 +9.98604895432E-06 -7.15304023971E-01 +6.66561477285E-01
1.06000000000E+09 -5.98193254587E-01 +7.53703898957E-01 -2.12518366795E-05 +4.57568266733E-06 -2.04634745703E-05 +1.85148257172E-05 -7.11926878480E-01 +6.70517900398E-01
1.06500000000E+09 -5.90157688804E-01 +7.58079906135E-01 +5.41576473135E-06 -9.33561354757E-06 -1.98235946893E-05 +5.29375534662E-05 -7.08289415572E-01 +6.74209494947E-01
1.07000000000E+09 -5.83479126028E-01 +7.62041938960E-01 -5.11293410653E-05 +4.12141490178E-05 -1.74700285250E-06 +4.63025468648E-05 -7.04253216219E-01 +6.77928540280E-01
1.07500000000E+09 -5.77982285310E-01 +7.65798649350E-01 +5.95411075715E-06 +3.17670550449E-05 +5.32635749362E-05 -2.26201637205E-06 -6.99871728695E-01 +6.81704925869E-01
1.08000000000E+09 -5.74121806196E-01 +7.69171189627E-01 -3.79770219637E-05 +7.14681234946E-05 +2.06453746817E-05 +6.95169425081E-05 -6.95848721392E-01 +6.85369466354E-01
1.08500000000E+09 -5.71546208081E-01 +7.72087490020E-01 +1.94768732418E-06 +4.19197850252E-06 -1.73051016715E-05 +8.42991288243E-05 -6.91844830848E-01 +6.89138247478E-01
1.09000000000E+09 -5.69192263331E-01 +7.74897347657E-01 +2.75087721302E-05 +4.08017639261E-05 +4.33579672293E-05 -2.88726821656E-06 -6.88036503538E-01 +6.93080874323E-01
1.09500000000E+09 -5.67142577956E-01 +7.77281154854E-01 +5.95933890538E-05 +9.51383667017E-06 -1.88717833004E-05 -8.81774763653E-07 -6.84226591545E-01 +6.96907699907E-01
1.10000000000E+09 -5.63687585506E-01 +7.79891152573E-01 +4.57684853506E-06 +2.44360127611E-05 +3.67964671993E-05 +3.12414113112E-05 -6.80117313511E-01 +7.00786137251E-01
1.10500000000E+09 -5.59250160986E-01 +7.82958653759E-01 -1.61068760671E-06 +2.73990516165E-05 +2.82843632067E-05 +7.37766341438E-05 -6.75970818924E-01 +7.04405378194E-01
1.11000000000E+09 -5.53363190474E-01 +7.86209606233E-01 +6.25976864630E-05 +1.96989127444E-05 +2.53431775089E-05 +2.84181312476E-05 -6.71827894052E-01 +7.07637250651E-01
1.11500000000E+09 -5.46253302557E-01 +7.89835676201E-01 +3.23581952758E-05 +3.91163958782E-05 +1.41664944550E-05 -3.90830121541E-07 -6.67522939252E-01 +7.11222570312E-01
1.12000000000E+09 -5.38659610320E-01 +7.93296603410E-01 +2.35600346598E-05 +4.52771932367E-05 -6.31646252710E-06 +2.93839683839E-05 -6.63556065464E-01 +7.14895972711E-01
1.12500000000E+09 -5.31114959450E-01 +7.96883015245E-01 +9.86932788153E-06 +1.94201082022E-05 +2.15624116679E-05 +3.82511885418E-05 -6.59092438733E-01 +7.18681607333E-01
1.13000000000E+09 -5.24424631815E-01 +8.00391250106E-01 -5.04165021719E-06 +4.61326392885E-05 +2.46634267212E-05 +2.79678896859E-05 -6.55024615098E-01 +7.22507949045E-01
1.13500000000E+09 -5.18700317720E-01 +8.03303231035E-01 +5.32890057435E-05 +4.90372781518E-05 +3.25946160346E-05 +7.59260243254E-05 -6.50391545404E-01 +7.26409844162E-01
1.14000000000E+09 -5.14089910308E-01 +8.06252938898E-01 +5.35142455602E-05 -2.02124614291E-05 +6.56527771206E-05 +6.90278480251E-05 -6.45751014005E-01 +7.29880209455E-01
1.14500000000E+09 -5.10406897189E-01 +8.08587468403E-01 +3.32732970250E-05 +4.28966115027E-05 +2.22615123129E-05 +5.53298040191E-05 -6.41024978124E-01 +7.33167780132E-01
1.15000000000E+09 -5.06936325359E-01 +8.10907331014E-01 +4.81902749840E-05 +2.70239104749E-05 +6.21722571067E-05 +1.76522274411E-06 -6.36464828722E-01 +7.36937405457E-01
1.15500000000E+09 -5.03401553479E-01 +8.13343213949E-01 +6.03252525873E-05 +3.76479601055E-05 +1.31954517791E-04 +5.29584396320E-05 -6.31535075337E-01 +7.40786692099E-01
1.16000000000E+09 -4.98839620299E-01 +8.15574714108E-01 +5.28336926168E-05 +2.49698916352E-05 +7.12048599069E-05 -2.93611370378E-06 -6.26738961746E-01 +7.44616026510E-01
1.16500000000E+09 -4.93210526692E-01 +8.18507489404E-01 +6.64321540578E-05 +3.18687967750E-05 +2.29431291722E-05 +4.91385460559E-05 -6.21521346349E-01 +7.48278407381E-01
1.17000000000E+09 -4.86291537246E-01 +8.21510764856E-01 +6.02056500860E-05 +3.58005979573E-05 +5.43664091033E-05 +1.47791593367E-05 -6.16258583055E-01 +7.51640477223E-01
1.17500000000E+09 -4.78448546755E-01 +8.24567950420E-01 +1.01193706289E-04 +4.69179127416E-05 +3.39183974680E-05 +6.69764706743E-05 -6.10484331253E-01 +7.54943331762E-01
1.18000000000E+09 -4.70390490321E-01 +8.27817863403E-01 +6.67178564494E-05 -9.97023019897E-06 +1.50731212851E-04 +4.80603857762E-05 -6.04871817147E-01 +7.58002011775E-01
1.18500000000E+09 -4.62568022412E-01 +8.30643406019E-01 +1.05932078301E-04 +2.00629774122E-05 +1.42308417514E-04 -2.99449021225E-06 -5.98763767368E-01 +7.61004649494E-01
1.19000000000E+09 -4.55427195397E-01 +8.33117916500E-01 +1.43595916703E-04 +3.31769563571E-05 +1.34609518876E-04 +2.58436709756E-06 -5.92730382773E-01 +7.63588259656E-01
1.19500000000E+09 -4.49560234908E-01 +8.35375879854E-01 +1.71477132799E-04 -1.35937674164E-05 +1.35615108551E-04 +8.16142095220E-06 -5.86611490045E-01 +7.64956497426E-01
1.20000000000E+09 -4.44893424490E-01 +8.36834806351E-01 +1.78264118879E-04 -9.42597623018E-05 +1.43078687967E-04 -7.17996196777E-05 -5.82141259809E-01 +7.65231959741E-01
1.20500000000E+09 -4.40729807580E-01 +8.38599068727E-01 +1.04885333018E-04 -1.66778884574E-04 +1.49913633208E-04 -1.63301089572E-04 -5.79922116819E-01 +7.65752081164E-01
1.21000000000E+09 -4.36608921093E-01 +8.40568930594E-01 +9.01468266073E-05 -1.47211064528E-04 +4.02098839917E-05 -1.32090550274E-04 -5.78102781864E-01 +7.68981953110E-01
1.21500000000E+09 -4.31394117857E-01 +8.42871639803E-01 +3.83370203870E-05 -1.26184504769E-04 +8.77185356492E-05 -1.14538576424E-04 -5.75410490994E-01 +7.73492655017E-01
1.22000000000E+09 -4.24913203312E-01 +8.45336507651E-01 +5.79130770233E-05 -1.00198194838E-04 +8.89189645554E-05 -1.82812565659E-04 -5.71178470128E-01 +7.78788992729E-01
1.22500000000E+09 -4.16721895230E-01 +8.48230066791E-01 +6.04696245535E-05 -1.19974909752E-04 +8.51950834399E-05 -1.30584248579E-04 -5.66091448407E-01 +7.84014376364E-01
1.23000000000E+09 -4.07487308253E-01 +8.51141948029E-01 +6.61837633820E-05 -1.16889955924E-04 +1.00530576900E-04 -1.12527730393E-04 -5.60322650373E-01 +7.88668796895E-01
1.23500000000E+09 -3.97466360673E-01 +8.54531346395E-01 +8.12905650918E-05 -1.21327228739E-04 +4.15234556028E-05 -8.56366280877E-05 -5.54469212507E-01 +7.92948424329E-01
1.24000000000E+09 -3.87332251010E-01 +8.57772390442E-01 +7.86044511358E-05 -1.07726974003E-04 +8.44224632557E-05 -1.75143274115E-04 -5.48408802656E-01 +7.96958561446E-01
1.24500000000E+09 -3.77937907715E-01 +8.61304709871E-01 +9.77176955281E-05 -2.00695192115E-04 +9.14449737038E-05 -1.51852965964E-04 -5.42013222494E-01 +8.00671119441E-01
1.25000000000E+09 -3.69257397137E-01 +8.64282057365E-01 -6.65103822429E-06 -2.17943522074E-04 +5.06876275460E-05 -2.21685104523E-04 -5.35444268892E-01 +8.04906020858E-01
1.25500000000E+09 -3.62152862399E-01 +8.66979231129E-01 -1.75214313726E-05 -2.43816908342E-04 +2.42351258032E-06 -2.41767639032E-04 -5.28615798452E-01 +8.08866927926E-01
1.26000000000E+09 -3.56011118754E-01 +8.69387331276E-01 -3.22608444295E-05 -2.19291047456E-04 -2.01997960726E-05 -2.43705490015E-04 -5.21945370856E-01 +8.13238769106E-01
1.26500000000E+09 -3.50440250629E-01 +8.71479745744E-01 -7.38938960269E-05 -2.17447383475E-04 -1.11105590422E-04 -2.59608299412E-04 -5.14825313826E-01 +8.17124299842E-01
1.27000000000E+09 -3.44789968654E-01 +8.73640259269E-01 -9.03772589275E-05 -2.65774860174E-04 -8.59605106661E-05 -2.58813882048E-04 -5.08108107940E-01 +8.21003718573E-01
1.27500000000E+09 -3.38323351843E-01 +8.75840887666E-01 -1.23600223865E-04 -1.75413231314E-04 -1.49463049441E-04 -2.70078071542E-04 -5.00901189935E-01 +8.24649385037E-01
1.28000000000E+09 -3.30288587928E-01 +8.78269689457E-01 -1.81542003031E-04 -2.40723978944E-04 -1.72838602422E-04 -2.26411447489E-04 -4.93931752638E-01 +8.28048498464E-01
1.28500000000E+09 -3.20583606292E-01 +8.80538826404E-01 -1.77569362108E-04 -2.20185348271E-04 -2.44033763287E-04 -2.43344271705E-04 -4.86618787066E-01 +8.31720377925E-01
1.29000000000E+09 -3.09689775086E-01 +8.83174171181E-01 -2.17362700035E-04 -1.64498630832E-04 -2.48749780348E-04 -2.53641403867E-04 -4.79124149671E-01 +8.35342854402E-01
1.29500000000E+09 -2.98186356336E-01 +8.85703720759E-01 -2.27588300430E-04 -1.96819185172E-04 -3.03579374975E-04 -1.69823015824E-04 -4.71164113791E-01 +8.38906672069E-01
1.30000000000E+09 -2.86748015643E-01 +8.88458105880E-01 -2.70853254189E-04 -2.35176657573E-04 -2.74479213857E-04 -1.29652552906E-04 -4.63202862763E-01 +8.42462137696E-01
1.30500000000E+09 -2.76110865771E-01 +8.90871919602E-01 -3.59634502846E-04 -1.40344665669E-04 -3.14759260277E-04 -1.09149449987E-04 -4.55203566488E-01 +8.45921040944E-01
1.31000000000E+09 -2.66535074948E-01 +8.93069299504E-01 -3.60143578605E-04 -9.69949378461E-05 -3.35767754076E-04 -7.51202982654E-05 -4.46963117321E-01 +8.49395369664E-01
1.31500000000E+09 -2.58552359828E-01 +8.95078288502E-01 -3.70274902445E-04 -3.00502979516E-05 -3.55782979487E-04 -1.04132563166E-05 -4.38051595630E-01 +8.52899000517E-01
1.32000000000E+09 -2.51729126118E-01 +8.96582541005E-01 -3.40433800045E-04 +3.68499580313E-05 -2.88772630231E-04 +3.91038489912E-05 -4.28823890705E-01 +8.56218477738E-01
1.32500000000E+09 -2.45169663577E-01 +8.97623724041E-01 -3.50080678582E-04 +8.77271235806E-06 -3.42419105120E-04 +1.70619121970E-06 -4.19103029564E-01 +8.59620916194E-01
1.33000000000E+09 -2.37881042388E-01 +8.98974559799E-01 -3.73237221695E-04 +8.63042016133E-06 -3.56751079495E-04 +6.17098237236E-05 -4.09444587539E-01 +8.62939419564E-01
1.33500000000E+09 -2.29165728109E-01 +8.99502486692E-01 -3.91838664918E-04 +5.24813366277E-05 -3.97903899793E-04 +1.19995746342E-04 -3.99620321311E-01 +8.66225205295E-01
1.34000000000E+09 -2.18172035732E-01 +9.00198315757E-01 -4.19951091534E-04 +1.29908195818E-04 -3.58009327690E-04 +1.50682574885E-04 -3.89529784475E-01 +8.69589497125E-01
1.34500000000E+09 -2.04943371953E-01 +9.00469377558E-01 -4.00674439467E-04 +2.25788829535E-04 -3.27292070893E-04 +2.17630069615E-04 -3.78393595713E-01 +8.72966350085E-01
1.35000000000E+09 -1.90209811680E-01 +9.00594968993E-01 -3.15979325904E-04 +2.51451514501E-04 -3.35932061392E-04 +2.14473961213E-04 -3.67275182055E-01 +8.75982192152E-01
1.35500000000E+09 -1.74055815312E-01 +9.00657473486E-01 -3.24194270392E-04 +2.55443241049E-04 -3.36911024012E-04 +2.28234899712E-04 -3.55622979026E-01 +8.78787699475E-01
1.36000000000E+09 -1.58034372238E-01 +9.00561375362E-01 -3.22604073916E-04 +2.40463161158E-04 -3.25582804849E-04 +2.40008301631E-04 -3.43716444315E-01 +8.81520533086E-01
1.36500000000E+09 -1.42292334065E-01 +9.00711962250E-01 -3.86591025397E-04 +2.71485009947E-04 -3.57404051960E-04 +2.17875245616E-04 -3.31507181418E-01 +8.84012445189E-01
1.37000000000E+09 -1.27595501690E-01 +9.00742495689E-01 -4.11816872442E-04 +3.56280635586E-04 -3.81587388146E-04 +3.09782755154E-04 -3.18570104058E-01 +8.86359791676E-01
1.37500000000E+09 -1.14354085190E-01 +9.00658200820E-01 -4.00711793880E-04 +3.90162071502E-04 -4.34194130726E-04 +3.22269823010E-04 -3.04924946811E-01 +8.88585317347E-01
1.38000000000E+09 -1.01958065720E-01 +9.00412785744E-01 -3.21924893557E-04 +5.42444017128E-04 -4.24853713397E-04 +5.14052729782E-04 -2.90224119621E-01 +8.90704928311E-01
1.38500000000E+09 -8.96657220205E-02 +8.99842842222E-01 -1.67073399925E-04 +5.84145867515E-04 -2.28177758000E-04 +6.42855350927E-04 -2.74796244790E-01 +8.92516649670E-01
1.39000000000E+09 -7.68640405184E-02 +8.98618040112E-01 -1.65532150289E-04 +5.30598072916E-04 -1.77387250479E-04 +6.48230471657E-04 -2.58801795963E-01 +8.94063552421E-01
1.39500000000E+09 -6.24691210587E-02 +8.96511742373E-01 -1.79832083712E-04 +5.43542471907E-04 -1.57547184710E-04 +6.15879905435E-04 -2.41954578397E-01 +8.94761921838E-01
1.40000000000E+09 -4.59247607185E-02 +8.93426808254E-01 -1.46594993345E-04 +6.29504950562E-04 -5.65343995910E-05 +6.14627079149E-04 -2.24381051930E-01 +8.95254220849E-01
1.40500000000E+09 -2.73568063913E-02 +8.89159822368E-01 -1.31959264105E-04 +6.81029132001E-04 -6.54467430392E-05 +6.44976168948E-04 -2.05752019121E-01 +8.95037572177E-01
1.41000000000E+09 -7.08245819055E-03 +8.83779404875E-01 -1.07847465860E-04 +7.83788271689E-04 -8.14910855212E-05 +7.31891412257E-04 -1.85622809949E-01 +8.94536003622E-01
1.41500000000E+09 +1.39591931707E-02 +8.77477489421E-01 +5.78053013505E-05 +7.62532230283E-04 -1.16548946431E-05 +7.73806953843E-04 -1.63986237612E-01 +8.93073007692E-01
1.42000000000E+09 +3.59346255241E-02 +8.70777551498E-01 +4.11305001739E-05 +7.03002382006E-04 -5.51694004760E-06 +7.68688038212E-04 -1.41051860589E-01 +8.90460467294E-01
1.42500000000E+09 +5.76805507417E-02 +8.63261097081E-01 -1.19740540916E-05 +8.40377343663E-04 +8.76180458422E-05 +9.94654044150E-04 -1.17316445147E-01 +8.86883211494E-01
1.43000000000E+09 +7.91963243661E-02 +8.55231131695E-01 +1.40277604377E-04 +1.04984159700E-03 +2.92044489667E-04 +1.13633936729E-03 -9.24260251826E-02 +8.82172785258E-01
1.43500000000E+09 +1.00865340436E-01 +8.45833271613E-01 +3.93201898040E-04 +1.09143307501E-03 +5.10886913487E-04 +1.08133465923E-03 -6.60949302724E-02 +8.75633135000E-01
1.44000000000E+09 +1.22962952668E-01 +8.35178070079E-01 +5.35404227401E-04 +9.61729948192E-04 +6.39030868454E-04 +9.80739919339E-04 -3.79347879812E-02 +8.67138798938E-01
1.44500000000E+09 +1.46844638986E-01 +8.22262345903E-01 +5.17105165055E-04 +9.26006953253E-04 +5.83862852883E-04 +8.77301205889E-04 -7.52559033336E-03 +8.55978442989E-01
1.45000000000E+09 +1.72230839026E-01 +8.05447092589E-01 +4.55790984040E-04 +1.15401288633E-03 +5.67605045613E-04 +1.17480776550E-03 +2.46255034495E-02 +8.41379489283E-01
1.45500000000E+09 +1.99534815768E-01 +7.84941583215E-01 +6.11745703340E-04 +1.54804428756E-03 +7.57550862370E-04 +1.45654265853E-03 +5.81307944955E-02 +8.23777318127E-01
1.46000000000E+09 +2.29126614952E-01 +7.59760893683E-01 +1.22060700841E-03 +1.74140603985E-03 +1.32337408716E-03 +1.57510189768E-03 +9.34026793709E-02 +8.02053730353E-01
1.46500000000E+09 +2.60223627500E-01 +7.29170846607E-01 +1.65102222805E-03 +1.72295832579E-03 +1.59438071990E-03 +1.39268927826E-03 +1.30145777465E-01 +7.75185660964E-01
1.47000000000E+09 +2.91842921776E-01 +6.93225116989E-01 +2.07694597763E-03 +1.69981081376E-03 +1.87699234498E-03 +1.53231818856E-03 +1.67752273394E-01 +7.41183965812E-01
1.47500000000E+09 +3.22951217087E-01 +6.51018699921E-01 +2.82595118689E-03 +1.72242139477E-03 +2.62987704793E-03 +1.73517089768E-03 +2.04801443082E-01 +6.99436892806E-01
1.48000000000E+09 +3.51208664403E-01 +6.02251907408E-01 +3.69149780427E-03 +1.30962672296E-03 +3.67257988596E-03 +1.41464932779E-03 +2.41557872732E-01 +6.50447469687E-01
1.48500000000E+09 +3.75366581328E-01 +5.47536508088E-01 +4.36532968220E-03 +5.90930229572E-04 +4.47398281710E-03 +5.91892527245E-04 +2.76697826496E-01 +5.90924095645E-01
1.49000000000E+09 +3.94138947805E-01 +4.85398331468E-01 +5.18755105512E-03 -1.79008750835E-04 +5.15601960765E-03 -4.34615977427E-04 +3.05071199816E-01 +5.20335702273E-01
1.49500000000E+09 +4.05389523172E-01 +4.15447689934E-01 +5.78048270072E-03 -1.49832266214E-03 +5.48335863405E-03 -1.69146415974E-03 +3.23489277328E-01 +4.39229820276E-01
1.50000000000E+09 +4.05998681122E-01 +3.37076339703E-01 +6.66452100988E-03 -2.70970388908E-03 +6.22007070653E-03 -2.52776437899E-03 +3.28291915518E-01 +3.49502700774E-01
1.50500000000E+09 +3.93894688549E-01 +2.52084467716E-01 +7.01042927521E-03 -6.00540652350E-03 +6.88231509859E-03 -5.50678636919E-03 +3.16184555626E-01 +2.51758587652E-01
1.51000000000E+09 +3.64828332239E-01 +1.61193724098E-01 +4.74809852933E-03 -9.29895412594E-03 +5.03102260995E-03 -8.94579394109E-03 +2.82586624942E-01 +1.50620847991E-01
1.51500000000E+09 +3.15545336963E-01 +7.10170384721E-02 +1.78662591709E-03 -1.06475148673E-02 +1.99601342460E-03 -1.05968827654E-02 +2.26764837433E-01 +5.41526429815E-02
1.52000000000E+09 +2.46664243605E-01 -1.03828918746E-02 -1.80692542331E-03 -1.13439064659E-02 -1.61702819729E-03 -1.14132583656E-02 +1.50282335942E-01 -3.15906689686E-02
1.52500000000E+09 +1.61061101555E-01 -7.93378114736E-02 -5.01248679905E-03 -9.85464320947E-03 -4.97681533665E-03 -9.95070988016E-03 +5.53548794423E-02 -1.00235966922E-01
1.53000000000E+09 +6.10464388458E-02 -1.28214151942E-01 -7.06815750525E-03 -9.16504399808E-03 -7.04150617805E-03 -9.24779061686E-03 -5.29930573302E-02 -1.45541523258E-01
1.53500000000E+09 -4.58232039078E-02 -1.54042196475E-01 -1.02035189534E-02 -7.04127667614E-03 -1.02020743630E-02 -7.03993719541E-03 -1.64958456411E-01 -1.65227107280E-01
1.54000000000E+09 -1.54766007518E-01 -1.56004382913E-01 -1.26027603501E-02 -3.69464357687E-03 -1.23966562927E-02 -3.74662603796E-03 -2.74859020060E-01 -1.61456459368E-01
1.54500000000E+09 -2.59336052305E-01 -1.34632068377E-01 -1.31170210459E-02 +1.39700649232E-03 -1.29877491706E-02 +1.04980477848E-03 -3.73701272002E-01 -1.36710406474E-01
1.55000000000E+09 -3.52673125031E-01 -9.32123261111E-02 -1.05853850592E-02 +5.08013499209E-03 -1.07752028323E-02 +4.63624326047E-03 -4.58601655091E-01 -9.86969728577E-02
1.55500000000E+09 -4.30566248211E-01 -3.86679035823E-02 -8.02923752936E-03 +7.09630237332E-03 -8.61495446759E-03 +6.81826676362E-03 -5.29676487487E-01 -5.11185972504E-02
1.56000000000E+09 -4.92210339522E-01 +2.05667235833E-02 -5.15146849086E-03 +8.46706536452E-03 -5.75478575862E-03 +8.66750895649E-03 -5.86470992231E-01 +2.75111296869E-03
1.56500000000E+09 -5.41453036229E-01 +8.12553029201E-02 -2.02292953158E-03 +8.22963005199E-03 -2.33832702524E-03 +8.71062074918E-03 -6.30678586393E-01 +5.80625934574E-02
1.57000000000E+09 -5.79187662887E-01 +1.40593402971E-01 -4.65246289493E-05 +6.93847934291E-03 -3.99794730755E-05 +7.39674247320E-03 -6.64143913977E-01 +1.13544863980E-01
