# Hz S RI R 50
! CMT, C1220, 16058040, 17.2.0/1
! Date: 14/08/2018 12:48:23
! Data: Format (Calibration Info)
! Freq                      S11: Re/Im (F2)                       S21: Re/Im (F2)                       S12: Re/Im (F2)                       S22: Re/Im (F2)            
1.00000000000E+09 -6.51914659454E-01 +7.13291516256E-01 -5.08119206573E-05 -2.79566330114E-05 -4.15807671365E-05 -9.54424262638E-07 -7.53910622355E-01 +6.21546052699E-01
1.00500000000E+09 -6.44939194918E-01 +7.18311033209E-01 +8.64022723767E-06 +8.35201421315E-06 -3.00118326406E-05 -1.86494747390E-05 -7.50293617485E-01 +6.25615262371E-01
1.01000000000E+09 -6.38916560788E-01 +7.23008327514E-01 -5.08193041998E-08 -4.14059332256E-05 +1.76688813789E-06 +7.46977765382E-06 -7.46873711411E-01 +6.29043094744E-01
1.01500000000E+09 -6.34490224379E-01 +7.26748382464E-01 -1.00365310223E-05 +2.91586807808E-06 -7.94101357182E-06 +2.80765100040E-05 -7.43728716584E-01 +6.32860522199E-01
1.02000000000E+09 -6.31398864003E-01 +7.30196692886E-01 -2.67485609481E-05 +1.64994939911E-06 -5.22152702864E-05 +4.74224199942E-06 -7.40298316827E-01 +6.36291332494E-01
1.02500000000E+09 -6.29286965340E-01 +7.32846623362E-01 -4.59563380335E-05 +1.37094929885E-05 +2.23926924726E-05 -1.63868995216E-05 -7.37581995138E-01 +6.40055005894E-01
1.03000000000E+09 -6.27954012903E-01 +7.35635185439E-01 +1.86493715387E-05 +1.63878857271E-05 +4.66848880819E-05 +4.01881563847E-05 -7.34140570755E-01 +6.43776585283E-01
1.03500000000E+09 -6.25700039033E-01 +7.38121637844E-01 -1.24667459612E-05 +1.54763531174E-05 -2.43948563517E-06 +4.71174090047E-05 -7.30292021475E-01 +6.47777702972E-01
1.04000000000E+09 -6.22249977384E-01 +7.41049854061E-01 -9.37441772283E-07 +2.72773066528E-05 -1.76920641727E-05 -1.97389627036E-05 -7.26544938878E-01 +6.51526923686E-01
1.04500000000E+09 -6.17475071805E-01 +7.44534705719E-01 -4.20222305382E-05 +1.05010774806E-05 -2.04114976848E-05 -8.95000566910E-06 -7.22832083003E-01 +6.55032555589E-01
1.05000000000E+09 -6.10887523155E-01 +7.48697389037E-01 -4.20917534250E-05 -2.42554504945E-06 +4.67155556861E-05 +1.89413452898E-05 -7.19564408078E-01 +6.58370250846E-01
1.05500000000E+09 -6.03114202893E-01 +7.53294494348E-01 +1.41964280124E-05 -8.43760895982E-06 +2.80611928201E-05 +1.36513918220E-05 -7.16311994362E-01 +6.61913759705E-01
1.06000000000E+09 -5.94407394966E-01 +7.58358855678E-01 +3.91713406718E-05 +3.84288312577E-05 -4.26142995085E-05 -1.34251437956E-05 -7.12885899324E-01 +6.65763923511E-01
1.06500000000E+09 -5.86160035909E-01 +7.63352829397E-01 -3.41493703300E-07 +1.56433044551E-05 -1.50590579568E-05 +4.15273950155E-05 -7.09120817770E-01 +6.69575552658E-01
1.07000000000E+09 -5.78977364539E-01 +7.67853413015E-01 -9.59209566500E-06 +3.63512723359E-05 +2.25179128028E-05 +1.72087009359E-05 -7.04942673774E-01 +6.73391646151E-01
1.07500000000E+09 -5.73107137091E-01 +7.71644064679E-01 -1.58005847471E-06 +1.30487221321E-07 +9.58320667218E-06 +2.24375012267E-05 -7.00762021980E-01 +6.77054643225E-01
1.08000000000E+09 -5.68936248653E-01 +7.75044496441E-01 +2.38576171319E-06 +2.30178995722E-05 +1.04790237223E-05 +4.81751160005E-05 -6.96981470061E-01 +6.80800789760E-01
1.08500000000E+09 -5.66283695009E-01 +7.77458049290E-01 +1.32157469974E-05 -7.13624092770E-06 -1.29303093423E-05 +1.32824775260E-05 -6.93076186756E-01 +6.84463213286E-01
1.09000000000E+09 -5.64255096757E-01 +7.79610937865E-01 -1.41359933998E-05 +2.04482364084E-05 +5.65653017835E-06 +3.88538107096E-05 -6.89565277741E-01 +6.88264982231E-01
1.09500000000E+09 -5.62669704445E-01 +7.81362703549E-01 +4.62958073875E-05 -7.44488431838E-06 +9.37505861506E-07 +2.15143759798E-05 -6.85800656364E-01 +6.91922128303E-01
1.10000000000E+09 -5.59967445950E-01 +7.83439836968E-01 +5.72824096703E-05 +6.19289368412E-05 +7.52450957039E-06 +4.74733804847E-05 -6.81715258005E-01 +6.95903357316E-01
1.10500000000E+09 -5.56061402550E-01 +7.86115093303E-01 +2.83749669205E-05 +1.77652991791E-05 +3.49944451107E-05 +2.93021145280E-05 -6.77448534812E-01 +6.99468270491E-01
1.11000000000E+09 -5.50769147355E-01 +7.89228299140E-01 +4.03784446594E-05 +2.75777413785E-05 +4.12825951999E-05 +1.57896549393E-05 -6.73263084005E-01 +7.02669245922E-01
1.11500000000E+09 -5.43990683601E-01 +7.93117831519E-01 +4.55431196515E-05 +4.15203444948E-05 +3.82530993030E-05 +5.48814418024E-05 -6.69385043058E-01 +7.06171951684E-01
1.12000000000E+09 -5.36384088041E-01 +7.97044916798E-01 +5.51779271734E-05 +2.64803096696E-05 +6.47319474298E-05 +3.85445553011E-05 -6.65525775086E-01 +7.09743977664E-01
1.12500000000E+09 -5.28551124194E-01 +8.01124258880E-01 +7.21760467651E-05 +4.93745493496E-06 +6.56641985742E-05 +3.35365583295E-05 -6.61258033433E-01 +7.13664225333E-01
1.13000000000E+09 -5.21127405021E-01 +8.04763182479E-01 +6.67464962746E-05 +1.37651565482E-06 +5.04119429043E-05 +2.86827232508E-05 -6.56996050624E-01 +7.17597070694E-01
1.13500000000E+09 -5.14525610541E-01 +8.07660405880E-01 +5.56635827348E-05 +5.78051427782E-05 +3.01893630580E-05 +4.58351374795E-05 -6.52121421096E-01 +7.21307237149E-01
1.14000000000E+09 -5.09195287315E-01 +8.10234711095E-01 +7.29786688736E-05 +1.13596718593E-06 +7.79807671319E-05 -6.21460766329E-06 -6.47431023609E-01 +7.24936023094E-01
1.14500000000E+09 -5.05054558734E-01 +8.12084580429E-01 +6.32539334416E-05 +3.03035977930E-06 +6.70009041213E-05 -3.62247297239E-05 -6.42735675550E-01 +7.28361821799E-01
1.15000000000E+09 -5.01155811043E-01 +8.13808349899E-01 +3.04838279916E-05 -2.91268147612E-05 +5.66875112781E-05 -2.75742107671E-06 -6.38129009917E-01 +7.32114311277E-01
1.15500000000E+09 -4.97670981202E-01 +8.15740591547E-01 +8.89140733257E-05 -3.29350903305E-05 +4.25630267396E-05 -5.35694164357E-05 -6.33528196892E-01 +7.36113655937E-01
1.16000000000E+09 -4.93354547323E-01 +8.17847181497E-01 +4.63415130957E-05 -5.73788997401E-05 +7.73805884659E-05 -3.50375033230E-05 -6.28750289483E-01 +7.39737926857E-01
1.16500000000E+09 -4.88102988447E-01 +8.20714417783E-01 +1.37725972076E-05 -8.75629773621E-06 +6.36153127777E-05 -3.47933417514E-05 -6.23658753425E-01 +7.43430970424E-01
1.17000000000E+09 -4.81683368697E-01 +8.23946734877E-01 +5.88604891199E-05 -1.65796958325E-06 +8.47951393129E-05 +1.72561285122E-05 -6.18230572021E-01 +7.46848416803E-01
1.17500000000E+09 -4.74413372571E-01 +8.27445096637E-01 +1.30725183504E-04 +2.80161751825E-06 +1.18032194641E-04 -3.44897820896E-05 -6.12600992121E-01 +7.50024859843E-01
1.18000000000E+09 -4.66693672213E-01 +8.31198293753E-01 +1.59647688272E-04 -3.57933712975E-05 +1.64271758862E-04 -2.56020174295E-05 -6.07237292158E-01 +7.52945390081E-01
1.18500000000E+09 -4.58818608390E-01 +8.34531430121E-01 +1.11088015745E-04 -5.72523912647E-05 +9.01697210896E-05 -1.01793701326E-04 -6.01684533716E-01 +7.56085699201E-01
1.19000000000E+09 -4.51414464096E-01 +8.37346893378E-01 +1.66180221193E-04 -6.00491293205E-05 +6.72941767711E-05 -1.36596929459E-04 -5.95335351892E-01 +7.58573075291E-01
1.19500000000E+09 -4.44968063619E-01 +8.39399947115E-01 +1.19430503212E-04 -1.64066306801E-04 +1.05919904730E-04 -2.40562529264E-04 -5.89597887184E-01 +7.59800650141E-01
1.20000000000E+09 -4.39653386237E-01 +8.40445836190E-01 +3.20679641468E-05 -2.25746399564E-04 +7.87909023951E-05 -2.14977107036E-04 -5.85155021926E-01 +7.60001443206E-01
1.20500000000E+09 -4.34855171659E-01 +8.41846037082E-01 -4.61713032711E-05 -1.57096432036E-04 -6.53470169720E-05 -1.86765086591E-04 -5.82730485318E-01 +7.60935682982E-01
1.21000000000E+09 -4.30072826426E-01 +8.43330002304E-01 -5.51976954609E-06 -1.16930009928E-04 -6.93729678791E-05 -9.75310472585E-05 -5.80732309398E-01 +7.64212819154E-01
1.21500000000E+09 -4.24239769919E-01 +8.45413589361E-01 +1.19026611569E-05 -1.22934140465E-04 -1.16801924359E-05 -7.34819639535E-05 -5.77859925421E-01 +7.68665065610E-01
1.22000000000E+09 -4.17315166449E-01 +8.47808625035E-01 -8.06875068388E-06 -1.21704536288E-04 +5.22250318980E-05 -1.27446191414E-04 -5.73890996410E-01 +7.74179796959E-01
1.22500000000E+09 -4.09112371747E-01 +8.50903787333E-01 +3.32251708291E-05 -1.04761382800E-04 +3.39131052232E-05 -9.93732906123E-05 -5.68760507347E-01 +7.79075277225E-01
1.23000000000E+09 -3.99863811505E-01 +8.54255632818E-01 +2.41135434245E-06 -1.55797061329E-04 -6.79758552769E-06 -1.46690683179E-04 -5.63020189528E-01 +7.83911053345E-01
1.23500000000E+09 -3.90434764296E-01 +8.58158396629E-01 +3.08389346714E-05 -1.39527122996E-04 +3.35407350492E-06 -1.26456090160E-04 -5.57204773472E-01 +7.88125746345E-01
1.24000000000E+09 -3.80770483963E-01 +8.62085078365E-01 -3.34332664211E-05 -1.76317282726E-04 -6.17586783159E-06 -2.20705957278E-04 -5.51367636559E-01 +7.91914020247E-01
1.24500000000E+09 -3.71947450972E-01 +8.65828620587E-01 -8.38968342003E-05 -1.82216458350E-04 -1.10969964599E-04 -1.04259007163E-04 -5.45158019894E-01 +7.95849128994E-01
1.25000000000E+09 -3.64113306202E-01 +8.69009557072E-01 -4.77459300132E-05 -1.65374586224E-04 -1.05149695434E-04 -2.25906803835E-04 -5.38707883318E-01 +7.99951566551E-01
1.25500000000E+09 -3.57018412887E-01 +8.71006244361E-01 -1.33095263220E-04 -2.05118005682E-04 -1.16664160577E-04 -1.76773612882E-04 -5.32030744163E-01 +8.04101625489E-01
1.26000000000E+09 -3.50957474905E-01 +8.72763341934E-01 -1.16112927318E-04 -2.19444483846E-04 -1.66004500578E-04 -2.26230822162E-04 -5.25419106858E-01 +8.08327248623E-01
1.26500000000E+09 -3.44946531607E-01 +8.73784567308E-01 -1.10518478752E-04 -2.65904229817E-04 -1.61467007008E-04 -2.47489599236E-04 -5.18433504135E-01 +8.11996396246E-01
1.27000000000E+09 -3.38607543492E-01 +8.74880859740E-01 -1.48463825776E-04 -2.27713256371E-04 -1.89813622611E-04 -2.47596738427E-04 -5.11600832591E-01 +8.15999162439E-01
1.27500000000E+09 -3.31137683795E-01 +8.76197550711E-01 -2.61804768060E-04 -1.64599977171E-04 -2.42795539412E-04 -2.32432709205E-04 -5.04567790384E-01 +8.19582562774E-01
1.28000000000E+09 -3.21736696008E-01 +8.78106131465E-01 -2.23041287072E-04 -1.51262858588E-04 -3.01666864637E-04 -1.93945151886E-04 -4.97314882548E-01 +8.23147592675E-01
1.28500000000E+09 -3.10828492695E-01 +8.80584390564E-01 -2.99065200987E-04 -1.64040188445E-04 -2.64751549526E-04 -1.69727599052E-04 -4.89875065951E-01 +8.27107945722E-01
1.29000000000E+09 -2.98865402911E-01 +8.83545998487E-01 -2.87315052346E-04 -1.55892292263E-04 -3.75453547325E-04 -1.53104447305E-04 -4.82464452076E-01 +8.30792913008E-01
1.29500000000E+09 -2.86457245207E-01 +8.86873712257E-01 -3.48105313832E-04 -1.24300759573E-04 -4.07183042416E-04 -7.84251270959E-05 -4.74500284581E-01 +8.34304087462E-01
1.30000000000E+09 -2.74481341459E-01 +8.90407556266E-01 -4.07093525757E-04 -1.18995735381E-04 -4.44518842548E-04 -5.13490347614E-05 -4.66599540529E-01 +8.37889847186E-01
1.30500000000E+09 -2.63608157492E-01 +8.93332432453E-01 -4.47617148233E-04 -6.14388090879E-05 -4.34058181631E-04 -6.72902043981E-05 -4.58766526208E-01 +8.41461071521E-01
1.31000000000E+09 -2.54362091955E-01 +8.95675868863E-01 -5.02023567465E-04 +7.39659473830E-07 -4.85274586619E-04 +2.39304843720E-05 -4.50389914129E-01 +8.44936030098E-01
1.31500000000E+09 -2.46958450856E-01 +8.97062789656E-01 -5.07376587413E-04 +9.69769242196E-05 -5.28636474782E-04 +9.02542430514E-05 -4.41682494422E-01 +8.48406052223E-01
1.32000000000E+09 -2.40876498102E-01 +8.97747622550E-01 -4.80769357058E-04 +1.47807585951E-04 -4.98930376118E-04 +1.30455777225E-04 -4.32639605370E-01 +8.51925966533E-01
1.32500000000E+09 -2.34990880528E-01 +8.98021693778E-01 -5.63229659932E-04 +1.83778763191E-04 -5.59991463660E-04 +1.84713078975E-04 -4.23247335214E-01 +8.55199420690E-01
1.33000000000E+09 -2.28187521068E-01 +8.98186646811E-01 -5.52158158370E-04 +2.38693296807E-04 -5.18107906394E-04 +2.83123604177E-04 -4.13783004389E-01 +8.58359309740E-01
1.33500000000E+09 -2.19453885262E-01 +8.98091839789E-01 -6.00281907699E-04 +3.73202747619E-04 -5.28002377699E-04 +4.09740278821E-04 -4.04176473223E-01 +8.61616658400E-01
1.34000000000E+09 -2.08131505816E-01 +8.98336294488E-01 -5.50037683860E-04 +4.91910396367E-04 -5.36938521684E-04 +4.96782851094E-04 -3.93876274851E-01 +8.64813413753E-01
1.34500000000E+09 -1.94477821480E-01 +8.98673471425E-01 -5.32500360253E-04 +5.95449804699E-04 -5.42700200808E-04 +5.83977797050E-04 -3.82919023323E-01 +8.68255310928E-01
1.35000000000E+09 -1.78779629131E-01 +8.99196007352E-01 -3.90339827688E-04 +6.33336095173E-04 -3.82032726686E-04 +6.38486544126E-04 -3.71955438407E-01 +8.71379269566E-01
1.35500000000E+09 -1.61869335355E-01 +9.00101762024E-01 -3.79053945657E-04 +7.07579926219E-04 -3.97265076342E-04 +7.09384407471E-04 -3.60294959400E-01 +8.74432327958E-01
1.36000000000E+09 -1.45188747720E-01 +9.00735738489E-01 -3.44352142864E-04 +7.77328673158E-04 -3.11161722270E-04 +7.47298115855E-04 -3.48557016266E-01 +8.77114188799E-01
1.36500000000E+09 -1.29167168698E-01 +9.01058600520E-01 -3.00633866091E-04 +8.84888893708E-04 -2.39012601019E-04 +8.53649951042E-04 -3.36314668561E-01 +8.79592365184E-01
1.37000000000E+09 -1.14869805454E-01 +9.00828803628E-01 -1.71991733147E-04 +9.96056256001E-04 -1.87846311547E-04 +9.57636806754E-04 -3.23500115296E-01 +8.82073771136E-01
1.37500000000E+09 -1.02517751805E-01 +9.00168895765E-01 -1.12744817769E-05 +1.02334376824E-03 -9.81040678030E-05 +1.04040596810E-03 -3.09715151021E-01 +8.84500853152E-01
1.38000000000E+09 -9.12190743514E-02 +8.99250743901E-01 +5.57799152291E-05 +1.05305944701E-03 -4.79898969759E-05 +1.12719353289E-03 -2.95000510010E-01 +8.86772997603E-01
1.38500000000E+09 -7.97453500529E-02 +8.97767200219E-01 +1.70716384577E-04 +1.10891358843E-03 +1.10892412971E-04 +1.33695549618E-03 -2.79541505485E-01 +8.88854761350E-01
1.39000000000E+09 -6.73474339657E-02 +8.95479457577E-01 +3.06526479870E-04 +1.23528896030E-03 +3.09786929938E-04 +1.41604982183E-03 -2.63697360094E-01 +8.90271469070E-01
1.39500000000E+09 -5.29887134161E-02 +8.92593102232E-01 +4.84293397636E-04 +1.29112839546E-03 +6.41439836072E-04 +1.35034813775E-03 -2.47104279037E-01 +8.91139017506E-01
1.40000000000E+09 -3.60209778546E-02 +8.88761417825E-01 +5.50955174214E-04 +1.31462662029E-03 +7.34507100246E-04 +1.32969034244E-03 -2.29621830448E-01 +8.91623065345E-01
1.40500000000E+09 -1.69040094191E-02 +8.84246359826E-01 +8.77250568402E-04 +1.45143332199E-03 +9.69147106937E-04 +1.37679074920E-03 -2.11114552129E-01 +8.91533341776E-01
1.41000000000E+09 +4.22794873040E-03 +8.79031737546E-01 +1.23992427463E-03 +1.41835672753E-03 +1.20003725198E-03 +1.39890419724E-03 -1.90866343227E-01 +8.91077422416E-01
1.41500000000E+09 +2.64501600802E-02 +8.72995504980E-01 +1.56795889269E-03 +1.35199470934E-03 +1.55119098688E-03 +1.43583049487E-03 -1.69332566902E-01 +8.89560931513E-01
1.42000000000E+09 +4.89889866577E-02 +8.65896212391E-01 +1.81736158447E-03 +1.05645026221E-03 +1.95025117512E-03 +1.20509553090E-03 -1.46080663566E-01 +8.87146868625E-01
1.42500000000E+09 +7.06948343103E-02 +8.57931445750E-01 +1.92896546515E-03 +1.03156092099E-03 +2.22850978810E-03 +1.01492034231E-03 -1.22518501665E-01 +8.83447251730E-01
1.43000000000E+09 +9.17342521332E-02 +8.48938820130E-01 +2.36373367989E-03 +9.81373448698E-04 +2.64560831724E-03 +8.81248628414E-04 -9.76637851982E-02 +8.79101325262E-01
1.43500000000E+09 +1.12162960252E-01 +8.38148300164E-01 +2.93681752249E-03 +6.96467301936E-04 +3.09441649849E-03 +4.16283862501E-04 -7.12116202417E-02 +8.72201113706E-01
1.44000000000E+09 +1.33046210404E-01 +8.26042334483E-01 +3.30174999614E-03 -2.16491977504E-05 +3.35853228165E-03 -2.57385531984E-04 -4.30897956316E-02 +8.63644954432E-01
1.44500000000E+09 +1.55837507956E-01 +8.11188047943E-01 +3.43471316331E-03 -6.40873092278E-04 +3.44802614909E-03 -8.95956659460E-04 -1.26685676252E-02 +8.52397310052E-01
1.45000000000E+09 +1.80209024067E-01 +7.92931363519E-01 +3.36329738304E-03 -1.22808207280E-03 +3.34490357274E-03 -1.45916544068E-03 +1.90732540166E-02 +8.37952435111E-01
1.45500000000E+09 +2.06885269486E-01 +7.70984091294E-01 +3.50819238646E-03 -1.58388633009E-03 +3.32649319427E-03 -1.87986969333E-03 +5.26288026460E-02 +8.20725737427E-01
1.46000000000E+09 +2.35886994015E-01 +7.45146537539E-01 +3.71039823024E-03 -2.18466823350E-03 +3.35163683607E-03 -2.43685881529E-03 +8.75410179532E-02 +7.99020840409E-01
1.46500000000E+09 +2.66517554317E-01 +7.14446464875E-01 +3.99652494731E-03 -3.10426295067E-03 +3.50105552522E-03 -3.08776821580E-03 +1.23752904740E-01 +7.72485040886E-01
1.47000000000E+09 +2.97381280174E-01 +6.79449222380E-01 +3.81002545006E-03 -4.54294384333E-03 +3.51842345445E-03 -4.20039929716E-03 +1.61009432538E-01 +7.38306305406E-01
1.47500000000E+09 +3.27591507109E-01 +6.39457222024E-01 +2.90287973740E-03 -5.92312622106E-03 +3.01892109316E-03 -5.48750251451E-03 +1.97841771313E-01 +6.97301017203E-01
1.48000000000E+09 +3.55574622538E-01 +5.92949240756E-01 +1.87545797703E-03 -6.81307964193E-03 +2.08732907882E-03 -6.83430400705E-03 +2.34643825256E-01 +6.47890229864E-01
1.48500000000E+09 +3.78194799405E-01 +5.40017794634E-01 +6.27918998748E-04 -7.91627743654E-03 +5.72707053853E-04 -8.11402516900E-03 +2.68137292998E-01 +5.89119851709E-01
1.49000000000E+09 +3.95939817298E-01 +4.79855211276E-01 -1.23530257536E-03 -8.81432789807E-03 -1.65201605812E-03 -8.78809748578E-03 +2.96962382974E-01 +5.19793366158E-01
1.49500000000E+09 +4.05419562728E-01 +4.11783867250E-01 -3.83205917893E-03 -9.03591716093E-03 -4.04313908300E-03 -8.50192753561E-03 +3.15011823754E-01 +4.40054334028E-01
1.50000000000E+09 +4.05719692617E-01 +3.35068045885E-01 -6.29328226530E-03 -8.59706333630E-03 -5.94099086612E-03 -8.04533391125E-03 +3.20461505986E-01 +3.51475551870E-01
1.50500000000E+09 +3.93260283821E-01 +2.50153150179E-01 -9.10015712011E-03 -7.28689351909E-03 -8.50653079205E-03 -7.22796363616E-03 +3.10042024035E-01 +2.54981863350E-01
1.51000000000E+09 +3.65252267403E-01 +1.60055171761E-01 -1.10545477247E-02 -4.46346038161E-03 -1.07350008821E-02 -4.84407378623E-03 +2.78383660973E-01 +1.52894175124E-01
1.51500000000E+09 +3.18066337497E-01 +6.90300356042E-02 -1.23950447894E-02 -2.43227716821E-03 -1.24160443843E-02 -2.77399328023E-03 +2.21707743759E-01 +5.65367380640E-02
1.52000000000E+09 +2.50768568515E-01 -1.35916044025E-02 -1.43460882255E-02 +1.05715772217E-03 -1.44435827765E-02 +8.77534523519E-04 +1.46130223994E-01 -2.81395736791E-02
1.52500000000E+09 +1.67188423160E-01 -8.22482922636E-02 -1.33863078067E-02 +7.05682181514E-03 -1.35114816419E-02 +7.03250154707E-03 +5.23367208764E-02 -9.63287970631E-02
1.53000000000E+09 +6.93419853508E-02 -1.32144824534E-01 -9.50095827778E-03 +9.62294833076E-03 -9.63482501606E-03 +9.65049224053E-03 -5.49293468301E-02 -1.40553577910E-01
1.53500000000E+09 -3.81258619364E-02 -1.57380824028E-01 -6.73706764896E-03 +1.17038497589E-02 -6.75320823892E-03 +1.17456280467E-02 -1.64768585449E-01 -1.60350434576E-01
1.54000000000E+09 -1.47232592110E-01 -1.56532566889E-01 -3.17453744863E-03 +1.21784294487E-02 -3.19887385595E-03 +1.20446175260E-02 -2.72322990093E-01 -1.57886661576E-01
1.54500000000E+09 -2.49843520046E-01 -1.33280804021E-01 +3.10981885058E-04 +1.21909000102E-02 +2.48302834597E-05 +1.20365157413E-02 -3.70457979298E-01 -1.35912442872E-01
1.55000000000E+09 -3.43321652655E-01 -9.30065908328E-02 +2.80310553460E-03 +1.10521151978E-02 +2.37140537080E-03 +1.11788425621E-02 -4.55971177008E-01 -9.91887526767E-02
1.55500000000E+09 -4.23467160008E-01 -3.89099165849E-02 +5.83182910494E-03 +9.30934669744E-03 +5.51123663587E-03 +9.79296214938E-03 -5.26776742643E-01 -5.25494931173E-02
1.56000000000E+09 -4.87359190378E-01 +1.97853819795E-02 +7.04610584471E-03 +6.26714051787E-03 +7.17403530171E-03 +6.78072343350E-03 -5.84418751714E-01 -2.71466784182E-04
1.56500000000E+09 -5.38226300612E-01 +7.99289467538E-02 +7.02652948304E-03 +4.43707670126E-03 +7.37718612544E-03 +4.86981613901E-03 -6.28665949456E-01 +5.55306534801E-02
1.57000000000E+09 -5.77107245082E-01 +1.38666514727E-01 +7.14012054671E-03 +2.64509840091E-03 +7.63320109317E-03 +2.79734117682E-03 -6.62264456390E-01 +1.08906094022E-01
