# Hz S RI R 50
! CMT, C1220, 16058040, 17.2.0/1
! Date: 14/08/2018 12:05:11
! Data: Format (Calibration Info)
! Freq                      S11: Re/Im (F2)                       S21: Re/Im (F2)                       S12: Re/Im (F2)                       S22: Re/Im (F2)            
1.00000000000E+09 -6.54077441408E-01 +7.09855417668E-01 -9.61050065302E-06 -3.02689613970E-05 -6.03657060925E-05 -4.98630742523E-05 -7.53404502988E-01 +6.25657855440E-01
1.00500000000E+09 -6.47293513719E-01 +7.14332112181E-01 -4.94286945173E-06 -3.81835306731E-05 -1.21243297533E-05 -3.80857763412E-05 -7.49993603291E-01 +6.29835102537E-01
1.01000000000E+09 -6.41574398889E-01 +7.18757131491E-01 -2.95086622461E-05 +2.64539902181E-06 -4.31349750862E-05 -2.23805819473E-05 -7.46218441940E-01 +6.33551477145E-01
1.01500000000E+09 -6.37291324088E-01 +7.22315194215E-01 -5.60848825572E-05 -4.40518884118E-06 +1.73555743541E-05 -8.79028589573E-06 -7.42915060593E-01 +6.37323947520E-01
1.02000000000E+09 -6.34439609777E-01 +7.25846360407E-01 -5.41274371310E-05 +1.33365644822E-05 -3.06544879838E-05 +1.87296285216E-05 -7.39426884194E-01 +6.40957863072E-01
1.02500000000E+09 -6.32513985520E-01 +7.28720356089E-01 -2.02558973091E-05 +4.47285905464E-06 -4.90023388224E-05 -1.25358678113E-05 -7.36598783429E-01 +6.44587136052E-01
1.03000000000E+09 -6.31026106454E-01 +7.31571383282E-01 -1.29938703217E-05 +1.18843322525E-05 -3.91268731915E-05 -5.26859815549E-05 -7.32908590508E-01 +6.48546853945E-01
1.03500000000E+09 -6.28809193046E-01 +7.34196138406E-01 -2.08205735033E-05 -2.38074668293E-05 -1.04865497261E-05 +2.17324455662E-05 -7.29350740408E-01 +6.52399993345E-01
1.04000000000E+09 -6.25344437965E-01 +7.37421434331E-01 -9.46238854497E-06 +1.97900385783E-05 -3.31293174805E-05 +4.19379726701E-05 -7.25316363922E-01 +6.55980271365E-01
1.04500000000E+09 -6.20553808620E-01 +7.40987652374E-01 -1.72747041243E-05 +2.08195057021E-05 -1.61764049482E-05 -2.72834446922E-05 -7.21966168666E-01 +6.59646799440E-01
1.05000000000E+09 -6.13816466339E-01 +7.44996994139E-01 -5.40589808194E-06 -5.44952749940E-07 -1.33683363207E-05 +4.38102473753E-05 -7.18502134949E-01 +6.62984149894E-01
1.05500000000E+09 -6.06098993825E-01 +7.49204504404E-01 +1.30568539497E-05 +2.30486365691E-05 -3.99168360269E-05 +2.98131180578E-05 -7.15084807882E-01 +6.66657060514E-01
1.06000000000E+09 -5.97674441747E-01 +7.53659379706E-01 +5.20181290222E-06 +2.20630406593E-05 +1.69946001461E-05 +4.69577862497E-05 -7.11952074150E-01 +6.70402210731E-01
1.06500000000E+09 -5.89847999737E-01 +7.58042665706E-01 -2.83372779078E-05 +7.69438530739E-05 -4.32503776885E-05 +6.83922123543E-05 -7.08285429773E-01 +6.74081258335E-01
1.07000000000E+09 -5.82947309481E-01 +7.61991372678E-01 -1.25928470642E-05 +2.32327740925E-05 -1.82629689065E-05 +9.21709649870E-06 -7.04198465426E-01 +6.77885122083E-01
1.07500000000E+09 -5.77563628487E-01 +7.65706290227E-01 -2.62353204675E-05 -1.34566782046E-05 +2.65201202026E-05 +3.57997118245E-05 -6.99946848218E-01 +6.81532091893E-01
1.08000000000E+09 -5.73627660247E-01 +7.68994956210E-01 +1.30313707213E-05 +1.90190791849E-05 -1.82321585402E-05 +5.24638868930E-07 -6.95724758526E-01 +6.85341976696E-01
1.08500000000E+09 -5.70994709843E-01 +7.71930381158E-01 -4.71391389718E-05 +4.29650442509E-05 +8.15398227005E-06 +3.15372308145E-05 -6.91794061172E-01 +6.89076936829E-01
1.09000000000E+09 -5.68646694905E-01 +7.74724273144E-01 -2.03999779905E-07 -1.06831303796E-05 -7.35310300249E-06 +2.38383570617E-05 -6.87913966494E-01 +6.92944221328E-01
1.09500000000E+09 -5.66630719565E-01 +7.77113084425E-01 +1.77695314790E-05 +3.22467891549E-05 +4.80055907037E-05 +2.72935372508E-05 -6.84211346876E-01 +6.96906634713E-01
1.10000000000E+09 -5.63221635784E-01 +7.79860312911E-01 -3.91478801463E-05 +3.93311481580E-05 +4.34898650860E-05 +4.16021211597E-05 -6.80194441477E-01 +7.00814421672E-01
1.10500000000E+09 -5.58840471417E-01 +7.82657468192E-01 +2.92169156317E-06 +4.33423795851E-05 +2.56165544877E-05 +3.63351380269E-05 -6.75892461862E-01 +7.04208000493E-01
1.11000000000E+09 -5.52951144976E-01 +7.85905010777E-01 +4.53076039097E-05 +1.98720766942E-05 +2.17227664891E-05 +5.40202751278E-05 -6.71772764005E-01 +7.07633483701E-01
1.11500000000E+09 -5.45805178985E-01 +7.89639795227E-01 +2.93618508184E-05 +5.87588896238E-05 +4.34781223754E-05 +6.72333583341E-05 -6.67645919197E-01 +7.11117963463E-01
1.12000000000E+09 -5.38382975187E-01 +7.93036216979E-01 -1.21790959020E-06 +3.08605671367E-05 -3.91479065978E-05 +7.75168756259E-06 -6.63543461546E-01 +7.14770783481E-01
1.12500000000E+09 -5.30653065140E-01 +7.96745014971E-01 +3.82662509893E-05 +3.91691372433E-05 -3.21645366067E-06 +5.62714456751E-05 -6.59221287394E-01 +7.18733416802E-01
1.13000000000E+09 -5.24064779792E-01 +8.00169798605E-01 +2.92951203433E-05 +3.12201313949E-05 +2.98900771156E-05 +2.53137237385E-05 -6.55092004298E-01 +7.22516865805E-01
1.13500000000E+09 -5.18250902549E-01 +8.03044233597E-01 +8.98654565320E-06 +3.50801031068E-05 +3.37523962977E-05 +7.20420974235E-05 -6.50413935286E-01 +7.26330877804E-01
1.14000000000E+09 -5.13608739518E-01 +8.05927313840E-01 +6.20819307465E-05 +2.24507109334E-05 +9.02786666542E-05 +1.44306255837E-05 -6.45762936693E-01 +7.29786698867E-01
1.14500000000E+09 -5.09941129996E-01 +8.08312502391E-01 +3.03821054537E-06 +5.25264533696E-05 +8.97144017404E-05 +4.10622253491E-05 -6.41122871192E-01 +7.33284723529E-01
1.15000000000E+09 -5.06521525423E-01 +8.10580513088E-01 +7.08458909344E-05 +1.00631456760E-05 +2.26105908967E-05 +9.70547700255E-06 -6.36453071291E-01 +7.36990863064E-01
1.15500000000E+09 -5.02911105854E-01 +8.12956816008E-01 +9.14926041277E-05 +3.81095772115E-05 +6.33077616057E-05 +6.01296556050E-05 -6.31646270926E-01 +7.40728827110E-01
1.16000000000E+09 -4.98400152877E-01 +8.15311200366E-01 +1.18374742731E-04 +7.21832632311E-05 +7.84532539795E-05 +2.74885903682E-05 -6.26781925122E-01 +7.44604987105E-01
1.16500000000E+09 -4.92766541044E-01 +8.18196569954E-01 +4.74700384694E-05 +2.15144903604E-06 +6.85345645347E-05 +3.97365318390E-05 -6.21581693527E-01 +7.48350525458E-01
1.17000000000E+09 -4.85864806059E-01 +8.21311603344E-01 +1.17325589041E-04 +2.56646886332E-05 +7.24319494871E-05 +6.00235115790E-06 -6.16046435325E-01 +7.51568979462E-01
1.17500000000E+09 -4.77997664379E-01 +8.24331907359E-01 +1.18051010852E-04 -2.72575879295E-05 +7.84084244286E-05 +2.90466420479E-05 -6.10513730878E-01 +7.54816773849E-01
1.18000000000E+09 -4.69978235673E-01 +8.27507326254E-01 +9.03074719040E-05 +3.32690444931E-06 +4.91784080433E-05 +3.22909855950E-05 -6.04977707660E-01 +7.57969611451E-01
1.18500000000E+09 -4.62111715799E-01 +8.30443249566E-01 +9.29076768921E-05 +2.22428887272E-05 +7.76814823371E-05 +3.58362411337E-06 -5.98913594450E-01 +7.60930870344E-01
1.19000000000E+09 -4.55064852941E-01 +8.32940106454E-01 +1.07591532275E-04 +2.18435425249E-05 +1.48212957680E-04 +3.26494783212E-05 -5.92599412899E-01 +7.63680716816E-01
1.19500000000E+09 -4.49184112951E-01 +8.35141521490E-01 +1.49586880367E-04 -5.19074124217E-06 +2.00037514282E-04 -3.11608519654E-05 -5.86748062226E-01 +7.64846609154E-01
1.20000000000E+09 -4.44355355655E-01 +8.36464160808E-01 +1.62879682167E-04 -7.54464777966E-05 +1.50432822861E-04 -1.10133814633E-04 -5.82207086691E-01 +7.65167870871E-01
1.20500000000E+09 -4.40365398096E-01 +8.38274398471E-01 +1.15153445695E-04 -9.99407049021E-05 +1.14540701807E-04 -1.03031055708E-04 -5.79945249108E-01 +7.65775260098E-01
1.21000000000E+09 -4.36133928343E-01 +8.40378213028E-01 +8.59717013209E-05 -7.89144336784E-05 +1.01411785793E-04 -8.15196384846E-05 -5.78206162808E-01 +7.68903498850E-01
1.21500000000E+09 -4.30840332225E-01 +8.42553285123E-01 +1.11991358069E-04 -7.44778112026E-05 +8.47059479708E-05 -1.02198493849E-04 -5.75295044530E-01 +7.73328310246E-01
1.22000000000E+09 -4.24383876529E-01 +8.44907751524E-01 +8.30572772142E-05 -5.44065661293E-05 +1.16395777084E-04 -1.33458330475E-04 -5.71139361362E-01 +7.78794103417E-01
1.22500000000E+09 -4.16274359883E-01 +8.47824792081E-01 +8.91700883475E-05 -1.17153098400E-04 +7.60925785445E-05 -1.64780455724E-04 -5.66116159703E-01 +7.83943262868E-01
1.23000000000E+09 -4.06888483029E-01 +8.50717969389E-01 +8.17739029729E-05 -1.07016609461E-04 +6.51800314013E-05 -1.23950987583E-04 -5.60263183034E-01 +7.88701426378E-01
1.23500000000E+09 -3.97008329353E-01 +8.54071820458E-01 +3.28793330229E-05 -1.46367647866E-04 +1.16234651767E-04 -1.11260406648E-04 -5.54366774832E-01 +7.92988555902E-01
1.24000000000E+09 -3.86832451335E-01 +8.57326998523E-01 +1.22412421230E-04 -1.48345720935E-04 +1.00483507691E-04 -1.28046706417E-04 -5.48477023953E-01 +7.96707887354E-01
1.24500000000E+09 -3.77515162712E-01 +8.60775867418E-01 +6.09800139637E-05 -1.84398245961E-04 +8.47481382519E-05 -2.16705925112E-04 -5.42180728446E-01 +8.00730364411E-01
1.25000000000E+09 -3.69062081513E-01 +8.63816192399E-01 +6.44249370665E-05 -2.37974938371E-04 +2.96078207514E-05 -1.76498695715E-04 -5.35526102351E-01 +8.04751944206E-01
1.25500000000E+09 -3.61719928330E-01 +8.66444229746E-01 -2.30188568739E-05 -2.72040643874E-04 +2.89990600594E-05 -2.77011028768E-04 -5.28649214081E-01 +8.08957967850E-01
1.26000000000E+09 -3.55571371269E-01 +8.68806998173E-01 -2.40781229661E-05 -1.88885295545E-04 -3.18506013399E-05 -2.49185245608E-04 -5.21939891490E-01 +8.13311300633E-01
1.26500000000E+09 -3.50216133428E-01 +8.71071263534E-01 -6.10249540215E-05 -2.12339170421E-04 -2.37480519162E-05 -1.85584882569E-04 -5.14921152604E-01 +8.17095533521E-01
1.27000000000E+09 -3.44521181343E-01 +8.73105876237E-01 -3.66011678722E-05 -2.09881911739E-04 -8.09804675821E-05 -2.69991743790E-04 -5.08165939619E-01 +8.21037607485E-01
1.27500000000E+09 -3.37959250209E-01 +8.75194257730E-01 -1.14982199792E-04 -2.59391347146E-04 -5.69573641407E-05 -2.58501654815E-04 -5.01036910956E-01 +8.24563606923E-01
1.28000000000E+09 -3.29997773789E-01 +8.77623088510E-01 -1.43260937610E-04 -2.45358941230E-04 -1.19439080643E-04 -2.47485684463E-04 -4.94035512149E-01 +8.28135976184E-01
1.28500000000E+09 -3.20306040526E-01 +8.80156583132E-01 -2.09742960039E-04 -2.04850456030E-04 -1.85690942575E-04 -2.42301396319E-04 -4.86636527851E-01 +8.31621216200E-01
1.29000000000E+09 -3.09504119719E-01 +8.82601778823E-01 -2.13330007081E-04 -1.89499091913E-04 -1.99874549463E-04 -2.07985524992E-04 -4.79228167613E-01 +8.35498416523E-01
1.29500000000E+09 -2.98063445858E-01 +8.85208050526E-01 -2.11919567321E-04 -2.05009763422E-04 -2.36762694750E-04 -2.02766353824E-04 -4.71301546043E-01 +8.38962251296E-01
1.30000000000E+09 -2.86492527380E-01 +8.87934309095E-01 -3.15498821901E-04 -1.41872929976E-04 -3.35849216766E-04 -1.29045256801E-04 -4.63462076396E-01 +8.42631730993E-01
1.30500000000E+09 -2.75835325887E-01 +8.90431227679E-01 -3.31863948102E-04 -1.08165003435E-04 -3.36813003296E-04 -1.56759526065E-04 -4.55249656777E-01 +8.45919951087E-01
1.31000000000E+09 -2.66390584627E-01 +8.92592191674E-01 -3.67051082351E-04 -5.36753611375E-05 -3.36832416216E-04 -8.85750117906E-05 -4.46880824272E-01 +8.49471612199E-01
1.31500000000E+09 -2.58449795530E-01 +8.94445927755E-01 -3.29318323779E-04 -3.31822998410E-05 -3.12102436893E-04 -5.65587713710E-05 -4.38062607189E-01 +8.52819977070E-01
1.32000000000E+09 -2.51439103138E-01 +8.96206750768E-01 -2.94594574707E-04 -3.95821445797E-05 -3.33457384188E-04 -2.43056889493E-05 -4.29030096643E-01 +8.56323415922E-01
1.32500000000E+09 -2.44991242432E-01 +8.97351678929E-01 -3.30781624989E-04 -1.85653355920E-06 -3.52981033401E-04 +7.06246261534E-06 -4.19222790139E-01 +8.59677305783E-01
1.33000000000E+09 -2.37679021227E-01 +8.98492833096E-01 -3.73054632934E-04 +7.67421449202E-06 -3.57971735710E-04 +6.64480272326E-05 -4.09515508688E-01 +8.62927291664E-01
1.33500000000E+09 -2.28940346682E-01 +8.99117468649E-01 -4.18961400109E-04 +3.01610940538E-05 -4.12073943169E-04 +9.58286356184E-05 -3.99618098300E-01 +8.66376649547E-01
1.34000000000E+09 -2.17972200446E-01 +8.99847167746E-01 -3.88346803008E-04 +1.18921215256E-04 -3.75696738681E-04 +1.38718785721E-04 -3.89374534807E-01 +8.69685750615E-01
1.34500000000E+09 -2.04956880055E-01 +9.00189644682E-01 -4.14437987618E-04 +2.19158076211E-04 -3.34679984638E-04 +1.92658254357E-04 -3.78457616564E-01 +8.73056324376E-01
1.35000000000E+09 -1.89980305936E-01 +9.00100678614E-01 -3.78124764742E-04 +1.98590772785E-04 -3.29152542928E-04 +2.23899761379E-04 -3.67206184526E-01 +8.76098401387E-01
1.35500000000E+09 -1.74092276531E-01 +9.00146123816E-01 -2.92338752020E-04 +2.11065934521E-04 -3.36565228811E-04 +2.05728290470E-04 -3.55529237268E-01 +8.78979631362E-01
1.36000000000E+09 -1.57952072971E-01 +9.00243286407E-01 -3.22568555698E-04 +2.24923669519E-04 -3.50268211438E-04 +2.38520289206E-04 -3.43743201277E-01 +8.81676390006E-01
1.36500000000E+09 -1.42365856979E-01 +9.00354875197E-01 -3.67247700077E-04 +3.22076256264E-04 -3.30827923722E-04 +2.78361725075E-04 -3.31463818778E-01 +8.84192211735E-01
1.37000000000E+09 -1.27860738771E-01 +9.00395083220E-01 -3.64145452976E-04 +3.18231822196E-04 -3.80916856614E-04 +2.65022157733E-04 -3.18520455754E-01 +8.86557065495E-01
1.37500000000E+09 -1.14692234787E-01 +9.00493320077E-01 -3.53456518550E-04 +3.97015673669E-04 -4.03948590627E-04 +3.63772249433E-04 -3.04840822783E-01 +8.88767215690E-01
1.38000000000E+09 -1.02289560877E-01 +9.00277178677E-01 -3.28213782974E-04 +5.10446402627E-04 -4.44088931309E-04 +4.91001056286E-04 -2.90412249606E-01 +8.90863955622E-01
1.38500000000E+09 -9.00275456308E-02 +8.99795958600E-01 -1.97322968997E-04 +5.66159800402E-04 -2.34790867839E-04 +6.29136781679E-04 -2.74737879792E-01 +8.92822164566E-01
1.39000000000E+09 -7.72925656421E-02 +8.98594344972E-01 -1.35902824861E-04 +5.73476046730E-04 -1.56225957657E-04 +6.16231856853E-04 -2.58674519138E-01 +8.94382170213E-01
1.39500000000E+09 -6.29133778337E-02 +8.96621388535E-01 -1.89545103054E-04 +5.66733939359E-04 -1.45545941639E-04 +5.98525200442E-04 -2.41840271904E-01 +8.94981403971E-01
1.40000000000E+09 -4.63320406926E-02 +8.93599589393E-01 -1.35988689776E-04 +5.91071519482E-04 -9.19273741561E-05 +6.69810129347E-04 -2.24184797481E-01 +8.95593184757E-01
1.40500000000E+09 -2.79165909252E-02 +8.89533035532E-01 -1.08370387927E-04 +6.77622469092E-04 -7.64327393202E-05 +6.81955951814E-04 -2.05487001178E-01 +8.95408254255E-01
1.41000000000E+09 -7.54745378069E-03 +8.84225936206E-01 -4.64542364805E-05 +7.23302460147E-04 -7.42626905272E-05 +6.83066514971E-04 -1.85375035221E-01 +8.94818091602E-01
1.41500000000E+09 +1.37831941283E-02 +8.78100490740E-01 +3.78533093358E-05 +7.17440524180E-04 +3.84821492588E-05 +7.72706060321E-04 -1.63501439256E-01 +8.93432136676E-01
1.42000000000E+09 +3.56746879084E-02 +8.71457876927E-01 +3.01547755585E-05 +7.32566707941E-04 +5.09641475226E-05 +8.01362871900E-04 -1.40386778584E-01 +8.90835458454E-01
1.42500000000E+09 +5.75488187417E-02 +8.64049552961E-01 +3.96155176835E-05 +8.21203146916E-04 +9.02969545518E-05 +9.44874884008E-04 -1.16504907616E-01 +8.87122097181E-01
1.43000000000E+09 +7.91428702051E-02 +8.56137223153E-01 +1.76828502544E-04 +1.02148527409E-03 +3.34396147662E-04 +1.02945595015E-03 -9.13055930977E-02 +8.82245734256E-01
1.43500000000E+09 +1.00857093652E-01 +8.47007098620E-01 +4.16023066062E-04 +1.04051447322E-03 +5.54261739982E-04 +1.06710354962E-03 -6.50029486310E-02 +8.75399887447E-01
1.44000000000E+09 +1.23162797303E-01 +8.36587926769E-01 +5.91081949977E-04 +9.42492150987E-04 +6.40836581484E-04 +8.84483860133E-04 -3.66783250674E-02 +8.66770143817E-01
1.44500000000E+09 +1.47009610466E-01 +8.23757581645E-01 +5.68829960175E-04 +8.08943362403E-04 +5.70478438720E-04 +8.21383194965E-04 -6.26695201359E-03 +8.55217314578E-01
1.45000000000E+09 +1.72773351339E-01 +8.07312003427E-01 +3.99427429350E-04 +1.03350041810E-03 +5.01287008130E-04 +9.94047991256E-04 +2.58642103417E-02 +8.40201761498E-01
1.45500000000E+09 +2.00297715642E-01 +7.86960117888E-01 +5.17543986525E-04 +1.28573957229E-03 +6.86637863583E-04 +1.26138112488E-03 +5.91456049784E-02 +8.22103894245E-01
1.46000000000E+09 +2.30243820582E-01 +7.61917559552E-01 +9.99301369772E-04 +1.64024234605E-03 +1.08587708027E-03 +1.52880693965E-03 +9.41193714123E-02 +8.00110790193E-01
1.46500000000E+09 +2.61504570741E-01 +7.31631680840E-01 +1.43424548295E-03 +1.77865271871E-03 +1.44795800588E-03 +1.50034503720E-03 +1.30469452981E-01 +7.72910624413E-01
1.47000000000E+09 +2.93589511922E-01 +6.96087941301E-01 +2.05031383754E-03 +1.74716818825E-03 +1.92129962146E-03 +1.57373294178E-03 +1.67457680434E-01 +7.38430495194E-01
1.47500000000E+09 +3.25422243624E-01 +6.54105265289E-01 +2.84228971010E-03 +1.61851919193E-03 +2.61586358808E-03 +1.68282341995E-03 +2.03672696443E-01 +6.97032585133E-01
1.48000000000E+09 +3.54793983099E-01 +6.05667917133E-01 +3.55103598731E-03 +1.22094850664E-03 +3.51889432451E-03 +1.32771335992E-03 +2.39671858856E-01 +6.48096233600E-01
1.48500000000E+09 +3.80200704121E-01 +5.50633389710E-01 +4.13347071667E-03 +6.90284078895E-04 +4.22528955311E-03 +6.17012134851E-04 +2.74145628376E-01 +5.89065400905E-01
1.49000000000E+09 +4.00312833951E-01 +4.87953712210E-01 +5.16310129908E-03 -2.80282689705E-05 +5.11378282765E-03 -2.65436183539E-04 +3.02225047397E-01 +5.18990714739E-01
1.49500000000E+09 +4.12664862580E-01 +4.17105782951E-01 +5.76232267949E-03 -1.53014551266E-03 +5.45464996026E-03 -1.66767112806E-03 +3.19953444295E-01 +4.38677201862E-01
1.50000000000E+09 +4.14529110644E-01 +3.37469027345E-01 +6.45503855725E-03 -2.72971765261E-03 +6.02129190563E-03 -2.52119836147E-03 +3.24752625597E-01 +3.49993113805E-01
1.50500000000E+09 +4.03207925658E-01 +2.50447002521E-01 +6.88380040582E-03 -5.95111842887E-03 +6.78770438843E-03 -5.43078496615E-03 +3.12892279330E-01 +2.53194987919E-01
1.51000000000E+09 +3.74825524319E-01 +1.57072812093E-01 +4.56254468959E-03 -9.22683078212E-03 +4.88238563095E-03 -8.97569695096E-03 +2.80088890435E-01 +1.52870532334E-01
1.51500000000E+09 +3.25132811658E-01 +6.37297331224E-02 +1.42170683643E-03 -1.05667952682E-02 +1.70667752107E-03 -1.05873551799E-02 +2.25034003563E-01 +5.66143189351E-02
1.52000000000E+09 +2.53987448381E-01 -2.08900371843E-02 -2.31025162601E-03 -1.10468833456E-02 -2.08275936850E-03 -1.12031911022E-02 +1.49004638881E-01 -2.94492198834E-02
1.52500000000E+09 +1.65284156595E-01 -9.12591256347E-02 -5.42755759877E-03 -9.20909910414E-03 -5.44225816245E-03 -9.35381874154E-03 +5.38749359772E-02 -9.78980186091E-02
1.53000000000E+09 +6.22478851270E-02 -1.40795425155E-01 -7.22477150957E-03 -8.07055052380E-03 -7.29585999947E-03 -8.17744054320E-03 -5.40108331692E-02 -1.42593158477E-01
1.53500000000E+09 -4.78026754424E-02 -1.66225638013E-01 -9.53217118860E-03 -5.96578948033E-03 -9.60065107203E-03 -5.99631257784E-03 -1.65697278710E-01 -1.61999595685E-01
1.54000000000E+09 -1.59420811883E-01 -1.67044356701E-01 -1.16530630302E-02 -3.14089347869E-03 -1.15291675129E-02 -3.18100840131E-03 -2.74758497723E-01 -1.57577412991E-01
1.54500000000E+09 -2.66273192161E-01 -1.43648053287E-01 -1.22945962668E-02 +1.50429720093E-03 -1.22085583820E-02 +1.20931408204E-03 -3.72441779645E-01 -1.32857750955E-01
1.55000000000E+09 -3.60854924938E-01 -9.99683622080E-02 -9.86534126368E-03 +5.24518641002E-03 -1.00898702497E-02 +4.85359658491E-03 -4.56569343988E-01 -9.52112285797E-02
1.55500000000E+09 -4.39184964668E-01 -4.30775650444E-02 -6.96660647923E-03 +7.13684371341E-03 -7.42018312062E-03 +6.97472154720E-03 -5.26665021890E-01 -4.83026316934E-02
1.56000000000E+09 -5.00567378554E-01 +1.83759265394E-02 -4.13041156800E-03 +7.71861177675E-03 -4.54017440974E-03 +7.92394276142E-03 -5.82887372220E-01 +4.78025060994E-03
1.56500000000E+09 -5.49443082893E-01 +8.05294479183E-02 -1.59360044249E-03 +7.22032632060E-03 -1.85908946232E-03 +7.66797201436E-03 -6.26606542449E-01 +5.91565505929E-02
1.57000000000E+09 -5.86408664445E-01 +1.41685776738E-01 -6.41540739235E-05 +6.08636126771E-03 +4.74488480934E-05 +6.48285959050E-03 -6.59825348077E-01 +1.13570070362E-01
