# Hz S RI R 50
! CMT, C1220, 16058040, 17.2.0/1
! Date: 14/08/2018 11:59:11
! Data: Format (Calibration Info)
! Freq                      S11: Re/Im (F2)                       S21: Re/Im (F2)                       S12: Re/Im (F2)                       S22: Re/Im (F2)            
1.00000000000E+09 -6.44631454713E-01 +7.12573345651E-01 -5.26562779950E-05 -5.48497208205E-06 -4.13749414919E-05 +2.86406108651E-05 -7.50115525559E-01 +6.26914145455E-01
1.00500000000E+09 -6.37370905036E-01 +7.17299668619E-01 -1.04389757778E-05 +4.88642119350E-05 -3.24528959790E-05 -4.88550961169E-06 -7.46517762160E-01 +6.30907712658E-01
1.01000000000E+09 -6.31593432931E-01 +7.21812147629E-01 -2.84045364687E-05 -2.60385543936E-05 -2.91960279627E-06 -1.13121571068E-05 -7.42879247833E-01 +6.34612182486E-01
1.01500000000E+09 -6.26960067654E-01 +7.25551687763E-01 -3.80133278675E-05 -1.59656907936E-05 -4.99186006798E-05 -2.22765391692E-05 -7.39432414090E-01 +6.38357034076E-01
1.02000000000E+09 -6.23888046803E-01 +7.28747619958E-01 +2.21048097423E-05 -1.68507625768E-05 -3.68764636441E-05 -5.44723608911E-05 -7.36005105104E-01 +6.42005818209E-01
1.02500000000E+09 -6.21804899448E-01 +7.31467818544E-01 -4.44092300573E-05 +1.13251362889E-05 +8.14715219709E-06 -2.85791955800E-05 -7.32997114071E-01 +6.45683979687E-01
1.03000000000E+09 -6.20133759124E-01 +7.33722311709E-01 -2.70258918053E-05 +3.04962602636E-05 -5.61399926771E-05 +3.22977387814E-05 -7.29537523208E-01 +6.49525711214E-01
1.03500000000E+09 -6.17840094494E-01 +7.35954706291E-01 -4.61455608541E-05 +1.13148051112E-05 -2.75417607341E-05 +4.72365750809E-05 -7.25814538141E-01 +6.53307919378E-01
1.04000000000E+09 -6.14247389199E-01 +7.38938310920E-01 -5.81693182172E-05 +4.04567133484E-05 -3.21840194616E-05 +3.89295024208E-05 -7.22063044630E-01 +6.56967273195E-01
1.04500000000E+09 -6.09086091987E-01 +7.42468696334E-01 -2.01836110568E-05 -1.75956274207E-05 -5.86631608473E-05 +4.81497554423E-05 -7.18484423557E-01 +6.60612282099E-01
1.05000000000E+09 -6.02340945418E-01 +7.46558455076E-01 -4.19679148731E-05 +5.27211220133E-05 -4.57572623718E-05 +7.22060943100E-05 -7.14915972178E-01 +6.64073211975E-01
1.05500000000E+09 -5.94385902182E-01 +7.50995183806E-01 -8.87964910559E-05 +3.33740732669E-05 -8.05901872157E-06 +6.26698644753E-05 -7.11718498004E-01 +6.67421497253E-01
1.06000000000E+09 -5.86033623887E-01 +7.55873485210E-01 -1.12144623250E-05 +7.09381123570E-05 -4.18590740537E-05 +4.90634301593E-05 -7.08357732228E-01 +6.71255620434E-01
1.06500000000E+09 -5.77823060202E-01 +7.60802576780E-01 -2.78899518570E-05 +5.05690812227E-05 -2.72407735324E-05 +5.31630641470E-05 -7.04647706904E-01 +6.75126466438E-01
1.07000000000E+09 -5.70769133481E-01 +7.64784699334E-01 -1.97241664315E-05 +1.14265507155E-04 -4.82497568776E-05 +6.76609085705E-05 -7.00698659556E-01 +6.78674496056E-01
1.07500000000E+09 -5.65521743583E-01 +7.68408345650E-01 -5.85203859803E-05 +8.47863429001E-05 -3.09312959486E-05 +6.87432035257E-05 -6.96409292044E-01 +6.82284157608E-01
1.08000000000E+09 -5.61864920810E-01 +7.71633161591E-01 -8.90799772922E-06 +5.94322331509E-05 -4.39761319768E-06 +1.05595245360E-04 -6.92277750178E-01 +6.86308384506E-01
1.08500000000E+09 -5.59245391801E-01 +7.74035273122E-01 +6.04617331257E-06 +5.29572597248E-05 +2.24493501246E-05 +7.01552912928E-05 -6.88300577605E-01 +6.89962723711E-01
1.09000000000E+09 -5.57249773318E-01 +7.76264369425E-01 +1.04303760105E-05 +3.33969668499E-06 -2.47859182871E-05 +8.77747771288E-05 -6.84446532651E-01 +6.93765171632E-01
1.09500000000E+09 -5.55335741039E-01 +7.78095199006E-01 +3.70508803445E-05 +4.09690968011E-05 -8.44189354147E-06 +5.84604626492E-05 -6.80525716348E-01 +6.97732093590E-01
1.10000000000E+09 -5.52086035078E-01 +7.80424930673E-01 -2.40944948657E-05 +5.42261571704E-05 -1.05718019577E-05 +1.00776180114E-04 -6.76550476904E-01 +7.01394068132E-01
1.10500000000E+09 -5.47546941232E-01 +7.82947544604E-01 +2.89283254400E-05 +6.97218146137E-05 +2.36930162072E-05 -1.71669405036E-05 -6.72234076972E-01 +7.05057672499E-01
1.11000000000E+09 -5.41423728287E-01 +7.86274524297E-01 +1.66955055062E-05 +6.99857283369E-05 +3.15080869151E-05 +9.11581367111E-05 -6.68074669659E-01 +7.08203054679E-01
1.11500000000E+09 -5.33947335082E-01 +7.90103763877E-01 +3.02195963394E-05 +8.03503159242E-05 +3.38561711360E-05 +1.15622051900E-04 -6.64036911022E-01 +7.11788268036E-01
1.12000000000E+09 -5.25968872067E-01 +7.93970523849E-01 +5.84639210741E-05 +5.04867951000E-05 +2.64102924116E-05 +6.78479031371E-05 -6.59870320276E-01 +7.15445855760E-01
1.12500000000E+09 -5.17969690468E-01 +7.97915469106E-01 +8.72260882093E-05 +6.37866348884E-05 +6.01640933833E-05 +9.02333913171E-05 -6.55525057714E-01 +7.19552665622E-01
1.13000000000E+09 -5.11015674927E-01 +8.01520452382E-01 +6.57176553625E-05 +6.13115841456E-05 +1.53198805624E-05 +9.13678280812E-05 -6.51278633736E-01 +7.23078319906E-01
1.13500000000E+09 -5.04854873749E-01 +8.04479800992E-01 +9.80808682830E-05 +1.02462131555E-04 +5.35764996518E-05 +5.68649714012E-05 -6.46731535203E-01 +7.26849775466E-01
1.14000000000E+09 -5.00125597162E-01 +8.07196917856E-01 +5.86873099890E-05 +4.91296465328E-05 +4.04221825181E-05 +6.14258079832E-05 -6.41985250966E-01 +7.30298109410E-01
1.14500000000E+09 -4.96454967203E-01 +8.09249779465E-01 +8.51370930912E-05 +6.53775791638E-05 +6.49040056705E-05 +3.91437374696E-05 -6.37356300770E-01 +7.33746084367E-01
1.15000000000E+09 -4.92934959586E-01 +8.10956070981E-01 +7.69608914874E-05 +5.43184044628E-05 +9.45146979299E-05 -7.06259663632E-06 -6.32568053669E-01 +7.37681837730E-01
1.15500000000E+09 -4.89235907898E-01 +8.13014343439E-01 +7.02194094211E-05 +9.89652649108E-05 +5.77946134769E-05 +7.87006732408E-05 -6.27882977704E-01 +7.41213553602E-01
1.16000000000E+09 -4.84454474289E-01 +8.15035876815E-01 +7.89581761818E-05 +2.72857356235E-05 +8.32066186955E-05 +5.52639867608E-05 -6.23003820575E-01 +7.45162401861E-01
1.16500000000E+09 -4.78646547654E-01 +8.17815583221E-01 +9.15840127977E-05 +1.88645477904E-05 +8.95968944039E-05 +1.00004281095E-04 -6.17970526316E-01 +7.48712196151E-01
1.17000000000E+09 -4.71200376147E-01 +8.21049991664E-01 +1.14777891505E-04 +1.21056488154E-05 +6.70850432653E-05 +6.39576056459E-05 -6.12436773989E-01 +7.52112253037E-01
1.17500000000E+09 -4.62876711691E-01 +8.24304159367E-01 +1.40673873995E-04 -4.54447301196E-06 +1.25472509032E-04 +3.48433999012E-05 -6.06677437258E-01 +7.55291401778E-01
1.18000000000E+09 -4.54431920098E-01 +8.27759843130E-01 +1.07867612275E-04 +1.92647007484E-05 +1.11404962093E-04 +3.82446080192E-05 -6.01070188310E-01 +7.58347681005E-01
1.18500000000E+09 -4.46195422983E-01 +8.30936525486E-01 +1.61648735769E-04 +1.23024050235E-05 +1.74287904090E-04 +1.16557610340E-05 -5.95166576108E-01 +7.61454281931E-01
1.19000000000E+09 -4.38859103144E-01 +8.33559534618E-01 +1.82992816209E-04 +1.70028257690E-05 +1.39419790225E-04 +3.65817610642E-05 -5.88852490577E-01 +7.63946617072E-01
1.19500000000E+09 -4.32959712528E-01 +8.35549847036E-01 +2.12564723407E-04 -1.11053344067E-05 +2.21397044156E-04 +3.67322930847E-05 -5.82906388392E-01 +7.65152151354E-01
1.20000000000E+09 -4.28230417795E-01 +8.36703751356E-01 +2.63148618307E-04 -6.75864987787E-05 +2.27496959505E-04 -5.38691721214E-05 -5.78365131904E-01 +7.65469171947E-01
1.20500000000E+09 -4.24511161495E-01 +8.37845517375E-01 +2.39192954821E-04 -1.74463808772E-04 +2.02567587127E-04 -1.39079099467E-04 -5.76034643619E-01 +7.66119259401E-01
1.21000000000E+09 -4.20482253105E-01 +8.39406073540E-01 +1.77144570110E-04 -1.79787480475E-04 +1.32350594974E-04 -1.91937891939E-04 -5.74359813429E-01 +7.69143798548E-01
1.21500000000E+09 -4.15380257946E-01 +8.41022224323E-01 +1.38503372447E-04 -1.30735352831E-04 +1.27272931239E-04 -1.77256927564E-04 -5.71466854582E-01 +7.73661119294E-01
1.22000000000E+09 -4.08777193405E-01 +8.43047206184E-01 +1.30481870989E-04 -1.45823485883E-04 +1.65814626037E-04 -1.62743610068E-04 -5.67370552329E-01 +7.78895578126E-01
1.22500000000E+09 -4.00524157334E-01 +8.45959538967E-01 +1.15852946783E-04 -1.80467461355E-04 +1.10552316316E-04 -1.74498560786E-04 -5.62152712202E-01 +7.84064598064E-01
1.23000000000E+09 -3.91102825482E-01 +8.48896971195E-01 +1.56691217697E-04 -2.26804995373E-04 +8.32177607319E-05 -2.09017363322E-04 -5.56433775991E-01 +7.88672446248E-01
1.23500000000E+09 -3.80907094642E-01 +8.52487111478E-01 +1.42589627239E-04 -2.37202251045E-04 +9.39736048123E-05 -2.47586647708E-04 -5.50577628088E-01 +7.93082529221E-01
1.24000000000E+09 -3.70659215140E-01 +8.56014496707E-01 +6.62147292641E-05 -2.39267034140E-04 +8.41894545657E-05 -2.70620480292E-04 -5.44553933980E-01 +7.96909820355E-01
1.24500000000E+09 -3.61446973947E-01 +8.59808988617E-01 +9.89974439818E-05 -2.95032319513E-04 +1.06486848706E-04 -2.35062029401E-04 -5.38385100632E-01 +8.00754649561E-01
1.25000000000E+09 -3.53280930805E-01 +8.62963156792E-01 +3.94362519897E-05 -2.75129010355E-04 +6.39237304997E-05 -2.60875892729E-04 -5.31667902070E-01 +8.05068797747E-01
1.25500000000E+09 -3.46519918457E-01 +8.65277874884E-01 +6.06186953495E-05 -2.90905208853E-04 +3.54707310606E-05 -2.92386771355E-04 -5.24775021608E-01 +8.08920615271E-01
1.26000000000E+09 -3.40803583295E-01 +8.67272785692E-01 +1.05297510305E-05 -2.58056422592E-04 +3.12198918767E-05 -3.08728884616E-04 -5.18008297385E-01 +8.13216909007E-01
1.26500000000E+09 -3.35836232700E-01 +8.68833185139E-01 -4.20191971557E-05 -3.11775457065E-04 -2.92377875992E-05 -2.96031442423E-04 -5.11017646778E-01 +8.17048422265E-01
1.27000000000E+09 -3.30371368750E-01 +8.70084365810E-01 -4.56673094049E-05 -3.55523959253E-04 -7.68603243352E-05 -3.69622630513E-04 -5.04349963648E-01 +8.20883710601E-01
1.27500000000E+09 -3.23926524823E-01 +8.71273223679E-01 -1.27336067006E-04 -3.54234959171E-04 -8.82740501696E-05 -3.93828495206E-04 -4.97320359556E-01 +8.24519935784E-01
1.28000000000E+09 -3.15585503209E-01 +8.72882796990E-01 -1.84486904084E-04 -3.28701108979E-04 -1.99285580258E-04 -3.63137338911E-04 -4.90222687515E-01 +8.28000425767E-01
1.28500000000E+09 -3.05109881347E-01 +8.74920955747E-01 -2.24913146698E-04 -3.12576565633E-04 -2.39306471526E-04 -3.61616601342E-04 -4.82901523059E-01 +8.31550776643E-01
1.29000000000E+09 -2.93625063099E-01 +8.77225031748E-01 -2.23444271415E-04 -2.93641949394E-04 -2.73972693294E-04 -3.64068338773E-04 -4.75393419431E-01 +8.35267799556E-01
1.29500000000E+09 -2.81212640231E-01 +8.79992520570E-01 -2.12322954559E-04 -3.17766154445E-04 -2.69235340724E-04 -3.15509470666E-04 -4.67451140628E-01 +8.38717978963E-01
1.30000000000E+09 -2.69041822090E-01 +8.82947197571E-01 -2.58186362325E-04 -3.40548021467E-04 -3.33416820121E-04 -2.80510326866E-04 -4.59583854018E-01 +8.42333452996E-01
1.30500000000E+09 -2.57923259441E-01 +8.86027585385E-01 -3.55270925029E-04 -3.03811023052E-04 -3.56297734646E-04 -3.05643705934E-04 -4.51402485626E-01 +8.45725239674E-01
1.31000000000E+09 -2.48283350833E-01 +8.88491841012E-01 -4.32050211892E-04 -2.22402012368E-04 -4.01195952641E-04 -2.60903325304E-04 -4.42967574386E-01 +8.49170868803E-01
1.31500000000E+09 -2.40516026456E-01 +8.90240092043E-01 -4.90199009841E-04 -2.02356279302E-04 -4.68951143713E-04 -2.21920788206E-04 -4.34284642676E-01 +8.52558511216E-01
1.32000000000E+09 -2.34071182217E-01 +8.91541003708E-01 -4.10357046304E-04 -1.33155254271E-04 -4.51671599411E-04 -1.74093481499E-04 -4.25190904362E-01 +8.55953126650E-01
1.32500000000E+09 -2.28197191069E-01 +8.92058906861E-01 -4.51012488054E-04 -1.70080724875E-04 -5.25213700000E-04 -1.54178240965E-04 -4.15461716257E-01 +8.59315272151E-01
1.33000000000E+09 -2.21645740081E-01 +8.92285935004E-01 -4.98204405337E-04 -1.17706977872E-04 -5.37279738785E-04 -1.25460845048E-04 -4.05740348695E-01 +8.62690064671E-01
1.33500000000E+09 -2.13550532864E-01 +8.92180139665E-01 -5.74727940856E-04 -1.06557800278E-04 -5.60615099097E-04 -7.34556322322E-05 -3.95761327582E-01 +8.65947759433E-01
1.34000000000E+09 -2.02821292844E-01 +8.92229891629E-01 -5.98835707575E-04 -9.02986501626E-05 -5.09906314141E-04 -3.17897762790E-05 -3.85524473616E-01 +8.69137003560E-01
1.34500000000E+09 -1.89532483561E-01 +8.91896987657E-01 -6.73101575389E-04 -4.36577707162E-05 -6.41885764533E-04 -1.18000056363E-06 -3.74738232125E-01 +8.72451348349E-01
1.35000000000E+09 -1.74192219641E-01 +8.91583451129E-01 -7.26356016210E-04 +1.96984382336E-05 -7.52205592652E-04 +6.77997174964E-05 -3.63416976229E-01 +8.75536882526E-01
1.35500000000E+09 -1.57730022562E-01 +8.91816295515E-01 -7.29234824877E-04 +1.66729058810E-04 -6.68629347220E-04 +1.25393865464E-04 -3.51940488143E-01 +8.78282517696E-01
1.36000000000E+09 -1.41244490683E-01 +8.91956914354E-01 -7.35101200430E-04 +2.01754572326E-04 -6.78846735479E-04 +2.64761489936E-04 -3.39885280638E-01 +8.80984030621E-01
1.36500000000E+09 -1.25277143683E-01 +8.92272360355E-01 -7.27239485163E-04 +2.98292403317E-04 -6.96448736742E-04 +2.52285092965E-04 -3.27768648735E-01 +8.83285183507E-01
1.37000000000E+09 -1.10854707259E-01 +8.92438991570E-01 -7.42679506453E-04 +3.80167907012E-04 -7.21513894849E-04 +2.88523449314E-04 -3.14892618882E-01 +8.85816090632E-01
1.37500000000E+09 -9.83523955797E-02 +8.92406880493E-01 -8.34135885709E-04 +4.50385611844E-04 -7.73328507145E-04 +3.22358363949E-04 -3.00977702989E-01 +8.87979004247E-01
1.38000000000E+09 -8.72327536659E-02 +8.91821951921E-01 -8.06678012984E-04 +5.93245985369E-04 -9.43633739035E-04 +5.15075674333E-04 -2.86459328893E-01 +8.89850432527E-01
1.38500000000E+09 -7.62271325760E-02 +8.90861945073E-01 -7.73755469480E-04 +7.02796908528E-04 -9.48122610336E-04 +7.22468571276E-04 -2.71057493915E-01 +8.91637410088E-01
1.39000000000E+09 -6.48234381791E-02 +8.88970074355E-01 -7.31243375190E-04 +8.45638076359E-04 -8.57997277522E-04 +9.87899175799E-04 -2.55151143534E-01 +8.93032001931E-01
1.39500000000E+09 -5.13693161123E-02 +8.86434134995E-01 -7.16687414192E-04 +9.07277833213E-04 -7.28857500443E-04 +1.05725973330E-03 -2.38253940307E-01 +8.93808765893E-01
1.40000000000E+09 -3.52936677604E-02 +8.82805889777E-01 -6.96914760600E-04 +1.10575569638E-03 -5.92839099829E-04 +1.19086212053E-03 -2.20712518274E-01 +8.94168076389E-01
1.40500000000E+09 -1.69743557075E-02 +8.78114803325E-01 -5.68862523221E-04 +1.23065369798E-03 -5.05998371143E-04 +1.20560638885E-03 -2.01951301816E-01 +8.93916253772E-01
1.41000000000E+09 +3.58502625180E-03 +8.72769128632E-01 -5.16120129066E-04 +1.34882092297E-03 -5.09836890816E-04 +1.31154651898E-03 -1.81856264163E-01 +8.92970942371E-01
1.41500000000E+09 +2.55496335489E-02 +8.66588071966E-01 -4.24716583812E-04 +1.46468066208E-03 -5.12789921219E-04 +1.41495295685E-03 -1.60552420767E-01 +8.91430615905E-01
1.42000000000E+09 +4.81605702333E-02 +8.60025582679E-01 -4.21474909731E-04 +1.57037349258E-03 -4.27751695531E-04 +1.69182583716E-03 -1.37765106968E-01 +8.88749487014E-01
1.42500000000E+09 +7.05489479285E-02 +8.52567232089E-01 -3.74119581065E-04 +1.84156540041E-03 -3.30180480083E-04 +2.00470897599E-03 -1.14222761983E-01 +8.85020407949E-01
1.43000000000E+09 +9.19382782343E-02 +8.44350928614E-01 -1.63495682197E-04 +2.24928099132E-03 +9.48366079974E-05 +2.44152293531E-03 -8.93079504698E-02 +8.80132354414E-01
1.43500000000E+09 +1.12750625233E-01 +8.35058371920E-01 +3.33454298205E-04 +2.39885240025E-03 +5.71361892327E-04 +2.39063584038E-03 -6.32228683685E-02 +8.73369592511E-01
1.44000000000E+09 +1.33592208987E-01 +8.24536127337E-01 +6.60871584335E-04 +2.39969015582E-03 +8.34271250486E-04 +2.38718118057E-03 -3.53235633627E-02 +8.64778874407E-01
1.44500000000E+09 +1.55877115425E-01 +8.11418471834E-01 +9.55696723633E-04 +2.44707594172E-03 +1.10572846648E-03 +2.43825021346E-03 -5.33833605675E-03 +8.53428663143E-01
1.45000000000E+09 +1.79800788117E-01 +7.94759391387E-01 +1.04939632897E-03 +2.56630655587E-03 +1.23715088361E-03 +2.52944448666E-03 +2.64906922115E-02 +8.38530310291E-01
1.45500000000E+09 +2.05590293721E-01 +7.74118401855E-01 +1.36206316210E-03 +3.10060617520E-03 +1.65942983421E-03 +2.93726224100E-03 +5.91707007791E-02 +8.20760334941E-01
1.46000000000E+09 +2.33760840842E-01 +7.49374872919E-01 +2.22740059539E-03 +3.56311405815E-03 +2.44978539523E-03 +3.14353410879E-03 +9.36114067468E-02 +7.99553584464E-01
1.46500000000E+09 +2.63837911831E-01 +7.20015183235E-01 +3.27226046778E-03 +3.65508184437E-03 +3.19023997041E-03 +3.13730781709E-03 +1.30003203337E-01 +7.73106097620E-01
1.47000000000E+09 +2.95250762383E-01 +6.85396041288E-01 +4.64644673051E-03 +3.54909239513E-03 +4.30120645308E-03 +3.19205415302E-03 +1.67139711526E-01 +7.39466370355E-01
1.47500000000E+09 +3.26477877684E-01 +6.45100363416E-01 +5.96041238325E-03 +2.66825455496E-03 +5.58533262572E-03 +2.70671163165E-03 +2.04012890558E-01 +6.98634656647E-01
1.48000000000E+09 +3.55245738488E-01 +5.98261638703E-01 +6.76002654551E-03 +1.71504030929E-03 +6.77449628702E-03 +1.87938297987E-03 +2.40189465665E-01 +6.49445506447E-01
1.48500000000E+09 +3.79327961106E-01 +5.45071514752E-01 +7.73275995006E-03 +7.28068986878E-04 +7.88813198104E-03 +6.34844951188E-04 +2.74114694213E-01 +5.91568448869E-01
1.49000000000E+09 +3.97373927787E-01 +4.85155092890E-01 +9.08291448424E-03 -6.27973326070E-04 +9.00325735826E-03 -1.00163014859E-03 +3.03833977540E-01 +5.22690470198E-01
1.49500000000E+09 +4.07925923614E-01 +4.18557477567E-01 +1.01119646721E-02 -2.85755842679E-03 +9.52763352712E-03 -3.11026884844E-03 +3.22554314808E-01 +4.41330561568E-01
1.50000000000E+09 +4.09142175474E-01 +3.43395473830E-01 +1.10572154527E-02 -5.67262842760E-03 +1.03630819333E-02 -5.30826222119E-03 +3.26639336416E-01 +3.52844806622E-01
1.50500000000E+09 +3.98306054219E-01 +2.60715810126E-01 +1.04878777823E-02 -1.03204525488E-02 +1.03665065004E-02 -9.45753911119E-03 +3.16123592629E-01 +2.57286388223E-01
1.51000000000E+09 +3.71666833103E-01 +1.71398479909E-01 +7.76117116382E-03 -1.45246463743E-02 +8.26291662128E-03 -1.40403600871E-02 +2.85546388764E-01 +1.56585991876E-01
1.51500000000E+09 +3.26228053227E-01 +8.13738592578E-02 +2.87009596897E-03 -1.73120310630E-02 +3.38134696722E-03 -1.72920118861E-02 +2.31034572382E-01 +5.81204839272E-02
1.52000000000E+09 +2.61043899440E-01 -3.63416260051E-03 -2.66134926508E-03 -1.80817114045E-02 -2.43464848237E-03 -1.82732847959E-02 +1.54474676568E-01 -2.92033103300E-02
1.52500000000E+09 +1.76327903986E-01 -7.58040288012E-02 -7.80690977966E-03 -1.62043410148E-02 -7.75828575981E-03 -1.64195816975E-02 +5.83414437557E-02 -9.78195582696E-02
1.53000000000E+09 +7.75613774283E-02 -1.26939606449E-01 -1.13499969878E-02 -1.39056806659E-02 -1.13745658540E-02 -1.40082032434E-02 -4.93290063215E-02 -1.43069974693E-01
1.53500000000E+09 -2.86766388821E-02 -1.54804664311E-01 -1.53461143549E-02 -1.09340982293E-02 -1.53351334154E-02 -1.09380433380E-02 -1.62043050050E-01 -1.62180334738E-01
1.54000000000E+09 -1.37311075033E-01 -1.58889251236E-01 -1.83582766222E-02 -5.92576538777E-03 -1.81277442767E-02 -5.96411094477E-03 -2.71040773283E-01 -1.58129530935E-01
1.54500000000E+09 -2.42644596369E-01 -1.39022298835E-01 -1.86890244918E-02 +4.79857422043E-04 -1.84971723402E-02 +3.50381203342E-05 -3.68516404539E-01 -1.33006550412E-01
1.55000000000E+09 -3.38526957765E-01 -9.83007088394E-02 -1.65284367642E-02 +5.41916559257E-03 -1.67577466853E-02 +4.69683256526E-03 -4.52960660657E-01 -9.61017336439E-02
1.55500000000E+09 -4.18346073244E-01 -4.23677657379E-02 -1.35685843056E-02 +9.15312872200E-03 -1.43014961979E-02 +8.72474734284E-03 -5.23290052467E-01 -4.90157349470E-02
1.56000000000E+09 -4.80953473392E-01 +1.84971388199E-02 -9.39059289172E-03 +1.15798139037E-02 -1.02647017242E-02 +1.17565477895E-02 -5.80275964101E-01 +3.59350514641E-03
1.56500000000E+09 -5.29777459545E-01 +7.90666777541E-02 -4.98409439298E-03 +1.17116268759E-02 -5.53729728887E-03 +1.23870907693E-02 -6.24494502535E-01 +5.83633744929E-02
1.57000000000E+09 -5.68630137462E-01 +1.37924006390E-01 -2.23377133561E-03 +1.04679268649E-02 -2.36217193349E-03 +1.11663712426E-02 -6.58426098562E-01 +1.13188805022E-01
