# Hz S RI R 50
! CMT, C1220, 16058040, 17.2.0/1
! Date: 14/08/2018 11:54:34
! Data: Format (Calibration Info)
! Freq                      S11: Re/Im (F2)                       S21: Re/Im (F2)                       S12: Re/Im (F2)                       S22: Re/Im (F2)            
1.00000000000E+09 -6.43153154625E-01 +7.10589424274E-01 -2.25949778207E-05 +1.17075625695E-05 +2.19651890989E-05 -2.31229194949E-05 -7.50123214800E-01 +6.26738872989E-01
1.00500000000E+09 -6.36058192894E-01 +7.15674210726E-01 -6.01876995955E-05 +4.03341145907E-05 -3.35636962727E-05 +2.14170070392E-05 -7.46606990870E-01 +6.30770845966E-01
1.01000000000E+09 -6.30157840893E-01 +7.20318787475E-01 -7.01760453115E-05 -2.41377506122E-05 -1.44015734178E-05 -5.90989837705E-06 -7.42989133129E-01 +6.34546554132E-01
1.01500000000E+09 -6.25642174240E-01 +7.23852628609E-01 -4.36552873047E-06 -3.86569217314E-06 -5.22107352650E-05 -2.42920351956E-06 -7.39666581380E-01 +6.38476139500E-01
1.02000000000E+09 -6.22590196890E-01 +7.27115647421E-01 -2.49479974198E-05 -1.29865562297E-05 -4.46479994609E-05 +8.85943831443E-06 -7.36034269665E-01 +6.41831330233E-01
1.02500000000E+09 -6.20459836147E-01 +7.29684530009E-01 -4.37292377416E-05 +1.80993964038E-05 -1.73932717103E-05 -2.12287441039E-05 -7.33075864906E-01 +6.45732145584E-01
1.03000000000E+09 -6.18993945730E-01 +7.31947273293E-01 -2.82882106929E-05 +2.65953577400E-05 -4.71063083930E-05 +3.22236647590E-05 -7.29581108775E-01 +6.49553631855E-01
1.03500000000E+09 -6.16788985236E-01 +7.34358274644E-01 -6.20219397807E-05 +2.04235322883E-05 -5.49328824062E-05 +1.33311380609E-05 -7.25745747998E-01 +6.53323577867E-01
1.04000000000E+09 -6.13291251006E-01 +7.37049999807E-01 -5.08199951818E-05 +8.39960145202E-05 -3.02355084857E-05 -3.23943133864E-05 -7.21960530395E-01 +6.57029938675E-01
1.04500000000E+09 -6.08305563060E-01 +7.40603788481E-01 -1.06307793504E-05 +5.42763176791E-05 -4.71596800385E-05 +6.04504335654E-05 -7.18454327373E-01 +6.60678039006E-01
1.05000000000E+09 -6.01437643542E-01 +7.44785660599E-01 -6.54921782397E-05 +7.34787908273E-07 -2.32227446509E-05 +1.95632943826E-05 -7.15013301164E-01 +6.64100468734E-01
1.05500000000E+09 -5.93505157017E-01 +7.49375533714E-01 -4.40247561957E-05 +6.15079698537E-05 -3.10641286919E-05 +8.50218471118E-05 -7.11666334857E-01 +6.67518712830E-01
1.06000000000E+09 -5.84906800693E-01 +7.54142591688E-01 -6.11572020241E-06 +6.66192363599E-05 -1.50916348783E-05 +8.02084888988E-05 -7.08402793143E-01 +6.71251230742E-01
1.06500000000E+09 -5.76777806078E-01 +7.58945113783E-01 -2.77316676219E-05 +5.20973540850E-05 -1.70481701155E-05 +6.04200645106E-05 -7.04725369192E-01 +6.75006091989E-01
1.07000000000E+09 -5.69878655274E-01 +7.63299055057E-01 +1.28578132951E-06 +6.66709006403E-05 -5.52838414829E-05 +6.49371172196E-05 -7.00689660131E-01 +6.78783649674E-01
1.07500000000E+09 -5.64432063137E-01 +7.67005117729E-01 -1.04967516501E-05 +7.23146586520E-06 +9.15383785877E-06 +9.33355230061E-05 -6.96383289232E-01 +6.82375039505E-01
1.08000000000E+09 -5.60776862117E-01 +7.70090739103E-01 -4.10062452022E-05 +8.42577554443E-05 +2.66218603541E-06 +1.04911708776E-04 -6.92281048418E-01 +6.86132607682E-01
1.08500000000E+09 -5.58398513644E-01 +7.72630213149E-01 -2.00210691237E-06 +8.14225045627E-05 -2.19726497409E-05 +8.96284764076E-05 -6.88387020707E-01 +6.90062786278E-01
1.09000000000E+09 -5.56425454995E-01 +7.74610688079E-01 +1.66305332359E-07 +7.14443878575E-05 -8.49375223000E-06 +5.81996467046E-05 -6.84464268812E-01 +6.93616431042E-01
1.09500000000E+09 -5.54616054433E-01 +7.76600206753E-01 -7.43146854034E-07 +5.30179114111E-05 +5.34048914758E-05 +4.95736409265E-05 -6.80523276641E-01 +6.97485591295E-01
1.10000000000E+09 -5.51305824788E-01 +7.78819507253E-01 -9.53377689054E-06 +6.74613437390E-05 +1.08104282249E-05 +8.39950560922E-05 -6.76627303251E-01 +7.01421162571E-01
1.10500000000E+09 -5.46823248416E-01 +7.81458568865E-01 -3.58119819303E-05 +6.46168122945E-05 -1.41594726474E-05 +1.18196083253E-04 -6.72432818974E-01 +7.04892496461E-01
1.11000000000E+09 -5.40866836861E-01 +7.84820957611E-01 +7.23430214673E-05 +1.30625411180E-04 +3.13558846635E-05 +3.54275191278E-05 -6.68027767602E-01 +7.08301892912E-01
1.11500000000E+09 -5.33433356771E-01 +7.88662536047E-01 +3.10237413659E-05 +5.20103316596E-05 +3.09507428135E-05 +2.63545995535E-05 -6.64075963906E-01 +7.11707524469E-01
1.12000000000E+09 -5.25431938259E-01 +7.92566254898E-01 +6.15669745072E-05 +3.44193734637E-05 +8.97696031808E-05 +8.99188080548E-05 -6.60012252929E-01 +7.15430357047E-01
1.12500000000E+09 -5.17526942701E-01 +7.96537775391E-01 +5.28503989595E-05 +6.29897450599E-05 -2.25585933095E-05 +8.55778811228E-05 -6.55540054651E-01 +7.19310847602E-01
1.13000000000E+09 -5.10325592778E-01 +8.00273277831E-01 +6.80347724805E-05 +8.31761376997E-05 +3.85534578052E-05 +7.83729817884E-05 -6.51314474893E-01 +7.23093901107E-01
1.13500000000E+09 -5.04492635315E-01 +8.03243301977E-01 +6.27389195407E-05 +6.89493446592E-05 +4.53229796661E-05 +5.81958157073E-05 -6.46691858760E-01 +7.26835963122E-01
1.14000000000E+09 -4.99591317229E-01 +8.05897452962E-01 +5.09892193687E-05 +4.53343614663E-05 +8.78273843674E-05 +3.98754487167E-05 -6.41999159525E-01 +7.30302819336E-01
1.14500000000E+09 -4.96091141140E-01 +8.08079186110E-01 +7.76572426264E-05 +7.96832282819E-05 +6.26717616019E-05 +8.11055227808E-05 -6.37432028560E-01 +7.33690227458E-01
1.15000000000E+09 -4.92576746815E-01 +8.09797516576E-01 +7.89399530396E-05 +9.40756919685E-05 +6.71730646929E-05 +4.88815914079E-05 -6.32731818242E-01 +7.37359219195E-01
1.15500000000E+09 -4.89060083363E-01 +8.11639431405E-01 +9.49994690937E-05 +5.97720493515E-05 +8.83191193892E-05 +5.09396897652E-05 -6.27882384653E-01 +7.41157865127E-01
1.16000000000E+09 -4.84415480729E-01 +8.13797955800E-01 +1.02739168553E-04 +6.31034963782E-05 +1.22086197499E-04 +9.47161463522E-05 -6.22927372681E-01 +7.45153455358E-01
1.16500000000E+09 -4.78378629266E-01 +8.16605924376E-01 +9.44445615175E-05 +6.11428457298E-05 +1.12169682228E-04 +4.14912843797E-05 -6.17925969619E-01 +7.48745990497E-01
1.17000000000E+09 -4.71146370838E-01 +8.19858024498E-01 +8.47420168133E-05 +6.01449407651E-05 +1.62347897150E-04 +6.44377231727E-05 -6.12457680222E-01 +7.52051283910E-01
1.17500000000E+09 -4.62845330635E-01 +8.23160217341E-01 +1.05657513923E-04 +7.12746936536E-05 +1.65476451558E-04 +1.94418046351E-06 -6.06736633217E-01 +7.55182247883E-01
1.18000000000E+09 -4.54369140301E-01 +8.26663324222E-01 +1.70787560452E-04 +2.25450521583E-05 +1.59572507592E-04 +6.97587811916E-08 -6.01126204083E-01 +7.58271801125E-01
1.18500000000E+09 -4.46166302792E-01 +8.29964813636E-01 +1.84138441947E-04 +1.23022921553E-05 +1.81794344524E-04 +2.77609393275E-05 -5.95187374982E-01 +7.61289591081E-01
1.19000000000E+09 -4.38837780178E-01 +8.32651442163E-01 +1.95638889902E-04 +1.63303444360E-05 +2.87675246674E-04 -3.36682419162E-05 -5.88877503037E-01 +7.63995029883E-01
1.19500000000E+09 -4.32843925910E-01 +8.34839810476E-01 +2.13822527130E-04 -1.73997929447E-05 +2.42292650929E-04 -6.65069114587E-05 -5.82917840226E-01 +7.65218834110E-01
1.20000000000E+09 -4.28163357036E-01 +8.35946200440E-01 +2.75633001404E-04 -1.32481352288E-04 +2.61702154870E-04 -1.70484741791E-04 -5.78445405936E-01 +7.65300131157E-01
1.20500000000E+09 -4.24428754971E-01 +8.37312889725E-01 +2.36400290438E-04 -1.55211880510E-04 +1.98775363660E-04 -1.92328182165E-04 -5.76188343398E-01 +7.66145415500E-01
1.21000000000E+09 -4.20492098942E-01 +8.38742996192E-01 +1.51976780403E-04 -2.26678763452E-04 +2.15773936927E-04 -1.98394944384E-04 -5.74236579040E-01 +7.68996934837E-01
1.21500000000E+09 -4.15417686080E-01 +8.40489341316E-01 +1.38283482095E-04 -1.46695039340E-04 +8.67220555759E-05 -1.77887214078E-04 -5.71552408892E-01 +7.73625728697E-01
1.22000000000E+09 -4.08892406156E-01 +8.42527793589E-01 +1.17247674827E-04 -1.91623889776E-04 +1.39838453437E-04 -1.61189269873E-04 -5.67400235724E-01 +7.78835589395E-01
1.22500000000E+09 -4.00525928479E-01 +8.45286716532E-01 +1.15029977963E-04 -1.92202029941E-04 +1.82279710626E-04 -1.56003524645E-04 -5.62174768425E-01 +7.83978649180E-01
1.23000000000E+09 -3.90994402732E-01 +8.48480109727E-01 +1.36652492645E-04 -2.27733244816E-04 +9.26078617163E-05 -2.04724519592E-04 -5.56541793267E-01 +7.88521902420E-01
1.23500000000E+09 -3.81006417580E-01 +8.52109597118E-01 +1.85724766869E-04 -2.03911374496E-04 +1.03504349284E-04 -2.37136395093E-04 -5.50639107626E-01 +7.92953497806E-01
1.24000000000E+09 -3.70746032127E-01 +8.55722061252E-01 +1.03248680455E-04 -2.55545257350E-04 +6.60717278926E-05 -2.42785986880E-04 -5.44643382995E-01 +7.96862929409E-01
1.24500000000E+09 -3.61400255232E-01 +8.59560210156E-01 +9.92365648776E-05 -2.83773798793E-04 +1.11098770953E-04 -2.73417017434E-04 -5.38399896450E-01 +8.00678278251E-01
1.25000000000E+09 -3.53196982400E-01 +8.62846427294E-01 +7.11508844547E-05 -2.86732119433E-04 +5.44811758789E-05 -3.03416178599E-04 -5.31676810583E-01 +8.04867403452E-01
1.25500000000E+09 -3.46513219629E-01 +8.65306333374E-01 +1.67242258877E-05 -3.15138722042E-04 +3.53144931592E-05 -3.06814685988E-04 -5.24799667033E-01 +8.08776426036E-01
1.26000000000E+09 -3.40832344990E-01 +8.67268587373E-01 +1.44114751527E-05 -2.94308389314E-04 +9.92686656786E-07 -3.63163362487E-04 -5.18097452652E-01 +8.13135541133E-01
1.26500000000E+09 -3.35840745612E-01 +8.68711521315E-01 -1.56559536601E-05 -3.24277382615E-04 +1.78661454169E-05 -3.77021933455E-04 -5.11088692536E-01 +8.17022773167E-01
1.27000000000E+09 -3.30560309980E-01 +8.69907238545E-01 -7.23842608618E-05 -3.72013976243E-04 -5.44565390393E-05 -3.65925082292E-04 -5.04226024271E-01 +8.20853624869E-01
1.27500000000E+09 -3.24092755626E-01 +8.71333371269E-01 -1.29854004541E-04 -3.57985176281E-04 -1.05893268566E-04 -4.08128218134E-04 -4.97215598736E-01 +8.24453888467E-01
1.28000000000E+09 -3.15821523562E-01 +8.72947116986E-01 -1.70960932065E-04 -3.78541925728E-04 -1.59156949750E-04 -3.79158330859E-04 -4.90205224985E-01 +8.27861885710E-01
1.28500000000E+09 -3.05397527333E-01 +8.74941445434E-01 -2.26010259153E-04 -3.13351788037E-04 -2.24987774629E-04 -3.80527074586E-04 -4.82851785522E-01 +8.31523094473E-01
1.29000000000E+09 -2.93775599983E-01 +8.77490501290E-01 -2.68636165050E-04 -3.36594365138E-04 -2.45007983792E-04 -3.84010756445E-04 -4.75403445175E-01 +8.35137194070E-01
1.29500000000E+09 -2.81348679352E-01 +8.80438258422E-01 -2.83251025797E-04 -3.44705566740E-04 -3.35254113109E-04 -3.11399066448E-04 -4.67452199000E-01 +8.38665888399E-01
1.30000000000E+09 -2.69016855947E-01 +8.83583622222E-01 -2.96678056138E-04 -3.76756773972E-04 -3.50470962599E-04 -3.36379643615E-04 -4.59578627810E-01 +8.42370544099E-01
1.30500000000E+09 -2.57782059548E-01 +8.86602169507E-01 -3.86028726712E-04 -3.49182516233E-04 -3.97404636497E-04 -2.64809620858E-04 -4.51394587511E-01 +8.45681412949E-01
1.31000000000E+09 -2.48035408571E-01 +8.89146497741E-01 -4.97843200244E-04 -2.71796749272E-04 -4.09158761795E-04 -2.67807373507E-04 -4.43160310580E-01 +8.49134601789E-01
1.31500000000E+09 -2.40196684327E-01 +8.91185909568E-01 -4.68165943092E-04 -2.10712051654E-04 -4.82431454264E-04 -2.43372490099E-04 -4.34432829037E-01 +8.52476648243E-01
1.32000000000E+09 -2.33830887233E-01 +8.92269077769E-01 -5.19941467292E-04 -1.99311870274E-04 -4.68656015174E-04 -2.08543146822E-04 -4.25152889816E-01 +8.55984388373E-01
1.32500000000E+09 -2.28089212059E-01 +8.92969311729E-01 -4.65456426937E-04 -1.85665933763E-04 -5.65087993965E-04 -1.33288987878E-04 -4.15553232942E-01 +8.59349921658E-01
1.33000000000E+09 -2.21636488559E-01 +8.93188577095E-01 -4.95241641407E-04 -1.79308283247E-04 -5.89116065045E-04 -8.37199902452E-05 -4.05755526117E-01 +8.62588860533E-01
1.33500000000E+09 -2.13474251134E-01 +8.93127256064E-01 -5.93401824625E-04 -1.42769692160E-04 -6.14713714512E-04 -8.07547202470E-05 -3.95765182433E-01 +8.65956266813E-01
1.34000000000E+09 -2.02779303033E-01 +8.93109644130E-01 -6.96669223088E-04 -1.11054451833E-04 -6.21257172709E-04 -7.34695495789E-05 -3.85578713562E-01 +8.69049204106E-01
1.34500000000E+09 -1.89436806627E-01 +8.93040872624E-01 -7.43476870901E-04 -7.02899748538E-05 -6.84328904419E-04 -9.25721188406E-06 -3.74583408705E-01 +8.72442670217E-01
1.35000000000E+09 -1.74008035672E-01 +8.92927078788E-01 -7.65883083626E-04 +6.28788689383E-05 -7.45948472774E-04 +5.85601510145E-05 -3.63383221917E-01 +8.75352293918E-01
1.35500000000E+09 -1.57285647940E-01 +8.93136396134E-01 -7.69986948111E-04 +1.04078394751E-04 -7.59425768221E-04 +1.44791097450E-04 -3.51672316471E-01 +8.78243133681E-01
1.36000000000E+09 -1.40505046900E-01 +8.93435195070E-01 -7.53765903674E-04 +2.22389713928E-04 -7.47934309846E-04 +2.15385795036E-04 -3.39838970006E-01 +8.80812475577E-01
1.36500000000E+09 -1.24451778343E-01 +8.93873433901E-01 -8.18004289284E-04 +2.87127552788E-04 -7.59901367587E-04 +2.50912567203E-04 -3.27607412165E-01 +8.83328124347E-01
1.37000000000E+09 -1.10065834851E-01 +8.94116779920E-01 -8.82219029497E-04 +3.82842104732E-04 -7.72082580755E-04 +2.92001728039E-04 -3.14695779088E-01 +8.85667588547E-01
1.37500000000E+09 -9.74977192118E-02 +8.94132328474E-01 -8.67340398356E-04 +4.44537587838E-04 -8.87165963371E-04 +3.65587566511E-04 -3.00877232547E-01 +8.87915281137E-01
1.38000000000E+09 -8.63642350346E-02 +8.93687866897E-01 -9.64237341770E-04 +5.85907811407E-04 -1.03220052410E-03 +4.64924784583E-04 -2.86277323864E-01 +8.89804607118E-01
1.38500000000E+09 -7.53041593005E-02 +8.92666123361E-01 -8.97551474605E-04 +7.75027441464E-04 -1.11013662958E-03 +7.32587438976E-04 -2.70895002501E-01 +8.91539827427E-01
1.39000000000E+09 -6.38937773600E-02 +8.90878327349E-01 -8.64725426491E-04 +8.56497826437E-04 -1.00538760448E-03 +9.85481795558E-04 -2.55046541907E-01 +8.92958110594E-01
1.39500000000E+09 -5.03860743116E-02 +8.88441373937E-01 -8.75919015949E-04 +9.85638653147E-04 -8.79414478657E-04 +1.13538481837E-03 -2.38073323260E-01 +8.93556231356E-01
1.40000000000E+09 -3.41781071070E-02 +8.84640984591E-01 -8.69946001289E-04 +1.19117894541E-03 -7.89981516586E-04 +1.28280915405E-03 -2.20558057992E-01 +8.94034850673E-01
1.40500000000E+09 -1.55604901161E-02 +8.80023500976E-01 -7.89956545343E-04 +1.32126187410E-03 -6.60632299663E-04 +1.30809933557E-03 -2.01933334960E-01 +8.93842847906E-01
1.41000000000E+09 +5.45516682111E-03 +8.74571344346E-01 -7.50094949358E-04 +1.44307562738E-03 -7.14974005005E-04 +1.44755552624E-03 -1.81820172919E-01 +8.92840800910E-01
1.41500000000E+09 +2.76583243300E-02 +8.68411925630E-01 -6.22653411613E-04 +1.66416002774E-03 -7.33206716060E-04 +1.69074092685E-03 -1.60522563492E-01 +8.91376715076E-01
1.42000000000E+09 +5.07160826253E-02 +8.61732073227E-01 -5.77078933000E-04 +1.80961559877E-03 -6.25307908038E-04 +2.01578715311E-03 -1.37598942934E-01 +8.88696557567E-01
1.42500000000E+09 +7.32845454046E-02 +8.54306333418E-01 -5.17537679994E-04 +2.18650311205E-03 -4.25946961013E-04 +2.43887429275E-03 -1.13926888964E-01 +8.85012569261E-01
1.43000000000E+09 +9.51130366427E-02 +8.46080393993E-01 -2.36171618426E-04 +2.65087026415E-03 +3.70161045927E-05 +2.80281682064E-03 -8.90429505468E-02 +8.80060399292E-01
1.43500000000E+09 +1.16144651028E-01 +8.36612114143E-01 +2.92971754285E-04 +2.81375981587E-03 +5.70190860548E-04 +2.97111171512E-03 -6.27196146291E-02 +8.73326239585E-01
1.44000000000E+09 +1.37348086150E-01 +8.25936960156E-01 +6.77243994954E-04 +3.03018313190E-03 +9.28921690599E-04 +2.97006051001E-03 -3.48075335050E-02 +8.64616115345E-01
1.44500000000E+09 +1.59597288508E-01 +8.12718191279E-01 +1.26903786638E-03 +3.00427476730E-03 +1.37154229965E-03 +2.99820417858E-03 -4.67062984442E-03 +8.53337991725E-01
1.45000000000E+09 +1.83890803048E-01 +7.95943050293E-01 +1.45733449063E-03 +3.00719469829E-03 +1.62365941547E-03 +3.03035840851E-03 +2.72840113998E-02 +8.38147402489E-01
1.45500000000E+09 +2.10145585066E-01 +7.74954131677E-01 +1.75902851343E-03 +3.51502960505E-03 +2.12697178379E-03 +3.37854059408E-03 +5.99096898996E-02 +8.20122998621E-01
1.46000000000E+09 +2.38731360728E-01 +7.49575229910E-01 +2.64166250974E-03 +4.05275200907E-03 +2.92462215602E-03 +3.62724381187E-03 +9.44034903017E-02 +7.98965513835E-01
1.46500000000E+09 +2.69506676949E-01 +7.19442496079E-01 +3.99774814691E-03 +4.22917341432E-03 +3.91494140295E-03 +3.64826624386E-03 +1.31058133943E-01 +7.72036354420E-01
1.47000000000E+09 +3.01335225025E-01 +6.83771023109E-01 +5.68250727911E-03 +3.88051003825E-03 +5.26054543531E-03 +3.56327861312E-03 +1.68136060495E-01 +7.37935175808E-01
1.47500000000E+09 +3.32595197308E-01 +6.42292175065E-01 +7.04276844417E-03 +2.65943097523E-03 +6.62562618126E-03 +2.78119635861E-03 +2.04622934016E-01 +6.96797165920E-01
1.48000000000E+09 +3.61600784175E-01 +5.94256048625E-01 +7.78716115170E-03 +1.47276081369E-03 +7.80824828738E-03 +1.71067333389E-03 +2.40494547969E-01 +6.47315343045E-01
1.48500000000E+09 +3.85257867467E-01 +5.39555516363E-01 +8.66416740776E-03 +5.09299253483E-04 +8.93663121108E-03 +4.04256823823E-04 +2.74012326981E-01 +5.89137163110E-01
1.49000000000E+09 +4.02318026258E-01 +4.78323430318E-01 +1.03182360514E-02 -9.41037976855E-04 +1.02638245129E-02 -1.45789490619E-03 +3.02964469425E-01 +5.19839963487E-01
1.49500000000E+09 +4.11691040413E-01 +4.10458700482E-01 +1.14140914928E-02 -3.81965618603E-03 +1.07352850755E-02 -4.11719647858E-03 +3.20787008292E-01 +4.38760839018E-01
1.50000000000E+09 +4.11090279931E-01 +3.34075948741E-01 +1.19873374549E-02 -7.11121788711E-03 +1.12446173957E-02 -6.72914021558E-03 +3.24350911658E-01 +3.50743362073E-01
1.50500000000E+09 +3.97772384409E-01 +2.50541621572E-01 +1.11225328569E-02 -1.16194301620E-02 +1.09282729119E-02 -1.08008257957E-02 +3.13067442993E-01 +2.55799633644E-01
1.51000000000E+09 +3.68444743587E-01 +1.60849341777E-01 +8.27185920742E-03 -1.61666878403E-02 +8.74954951657E-03 -1.56372668354E-02 +2.82247554182E-01 +1.56033855620E-01
1.51500000000E+09 +3.19790267989E-01 +7.09229435458E-02 +2.93460147485E-03 -1.93419714416E-02 +3.45385289511E-03 -1.94223515195E-02 +2.28138544616E-01 +5.86754115630E-02
1.52000000000E+09 +2.50882873089E-01 -1.23281611771E-02 -3.51641828052E-03 -2.04391052229E-02 -3.28827776251E-03 -2.07300361909E-02 +1.51918361131E-01 -2.81674216809E-02
1.52500000000E+09 +1.63990544277E-01 -8.11654945461E-02 -9.49398341253E-03 -1.77769494045E-02 -9.55343385822E-03 -1.79053630859E-02 +5.68561447415E-02 -9.62235550182E-02
1.53000000000E+09 +6.40427656178E-02 -1.29099664611E-01 -1.30139264059E-02 -1.47749180509E-02 -1.30931112525E-02 -1.48598544560E-02 -5.02510400721E-02 -1.42191330774E-01
1.53500000000E+09 -4.25017708808E-02 -1.53087062615E-01 -1.68555114786E-02 -1.15925771830E-02 -1.68753114814E-02 -1.15369075401E-02 -1.63077393721E-01 -1.61431861012E-01
1.54000000000E+09 -1.49732181792E-01 -1.53438734195E-01 -1.98741442637E-02 -6.30994324419E-03 -1.96735406816E-02 -6.34200035727E-03 -2.71806271885E-01 -1.57146384927E-01
1.54500000000E+09 -2.53114247539E-01 -1.30670904841E-01 -2.06472393123E-02 +3.12394215251E-04 -2.04062828147E-02 -9.89452127134E-05 -3.69350280440E-01 -1.32496906652E-01
1.55000000000E+09 -3.46230567860E-01 -8.76610385398E-02 -1.83166544392E-02 +5.96856040090E-03 -1.85542653447E-02 +5.27023161845E-03 -4.54034111802E-01 -9.53312925364E-02
1.55500000000E+09 -4.22966096827E-01 -3.04460598815E-02 -1.48328117848E-02 +9.97551903715E-03 -1.55827991780E-02 +9.58611495047E-03 -5.24304212153E-01 -4.81649086966E-02
1.56000000000E+09 -4.82456888450E-01 +3.04651205590E-02 -1.05102692217E-02 +1.22708329647E-02 -1.14209955339E-02 +1.24574148149E-02 -5.81289917063E-01 +4.69466277233E-03
1.56500000000E+09 -5.29088135676E-01 +9.01985248080E-02 -6.28046315996E-03 +1.27745805098E-02 -6.83815914012E-03 +1.34152712582E-02 -6.25140552552E-01 +5.97524505135E-02
1.57000000000E+09 -5.66219132841E-01 +1.47854668795E-01 -3.11551407184E-03 +1.18314624024E-02 -3.23529438541E-03 +1.26430038919E-02 -6.58589825745E-01 +1.14660052023E-01
