# Hz S RI R 50
! CMT, C1220, 16058040, 17.2.0/1
! Date: 14/08/2018 12:29:39
! Data: Format (Calibration Info)
! Freq                      S11: Re/Im (F2)                       S21: Re/Im (F2)                       S12: Re/Im (F2)                       S22: Re/Im (F2)            
1.00000000000E+09 -6.26659657740E-01 +7.08498295050E-01 -7.42919645192E-05 -6.06727204197E-05 +1.68704249719E-06 +2.55411569370E-05 -7.52843757438E-01 +6.24221492689E-01
1.00500000000E+09 -6.19601663981E-01 +7.13522933418E-01 -2.20157884112E-06 -1.95373380873E-05 -6.04128000733E-05 -2.26234844088E-06 -7.49298473039E-01 +6.28258868185E-01
1.01000000000E+09 -6.13596252302E-01 +7.18148009133E-01 -2.81710777457E-05 +9.52189611034E-07 -4.20447657765E-05 +2.17829132033E-05 -7.45893768125E-01 +6.32001854347E-01
1.01500000000E+09 -6.09470704036E-01 +7.21958501112E-01 -4.11644795615E-05 +6.28523645462E-07 -4.50170490344E-06 +1.80357076891E-05 -7.42488129988E-01 +6.35694586848E-01
1.02000000000E+09 -6.06532848165E-01 +7.25130799268E-01 +6.64421498003E-06 +2.46967498452E-05 -8.49771757603E-06 -1.30927877992E-05 -7.39147548739E-01 +6.39025646652E-01
1.02500000000E+09 -6.04653273442E-01 +7.27653371577E-01 +3.57803986153E-05 +4.64213474794E-05 -2.42362776585E-05 +4.51265522908E-05 -7.36358747855E-01 +6.42716895637E-01
1.03000000000E+09 -6.03289655564E-01 +7.29818322944E-01 -7.62942589218E-05 +1.61924022170E-05 +9.55861350941E-06 +9.86330059591E-06 -7.32998149955E-01 +6.46615350960E-01
1.03500000000E+09 -6.00946115476E-01 +7.31855743976E-01 -2.40212595552E-05 +2.97115901831E-05 +6.47444862179E-06 +1.48101585586E-05 -7.29098494575E-01 +6.50661127253E-01
1.04000000000E+09 -5.97366614201E-01 +7.34512876004E-01 -3.36824942841E-05 +3.23136226954E-05 -3.40239346471E-05 +2.40763455845E-05 -7.25403463061E-01 +6.54261614012E-01
1.04500000000E+09 -5.92081600280E-01 +7.37763192500E-01 -1.15249532331E-05 +5.42089027571E-05 -1.71522054175E-05 -6.53878106172E-06 -7.21782887921E-01 +6.57677715150E-01
1.05000000000E+09 -5.84881292527E-01 +7.41810328809E-01 -2.03148176819E-05 +2.24972164964E-05 +4.26450630335E-06 +1.65848046913E-05 -7.18452079562E-01 +6.61073914995E-01
1.05500000000E+09 -5.76522621714E-01 +7.46564671012E-01 -2.06488865822E-05 +1.71382659426E-05 +7.57868630357E-06 +3.59264619425E-06 -7.15185595158E-01 +6.64711749845E-01
1.06000000000E+09 -5.67340836529E-01 +7.51842788458E-01 -1.27405842508E-06 +1.62463055405E-05 +1.22894846116E-05 +1.45605104523E-05 -7.11782216332E-01 +6.68623206629E-01
1.06500000000E+09 -5.58459188366E-01 +7.57080842262E-01 -1.46657840807E-05 +2.94731833464E-05 +3.42952871150E-05 +1.38809832692E-05 -7.07924173720E-01 +6.72430532500E-01
1.07000000000E+09 -5.50572946844E-01 +7.61688986115E-01 +5.43886759860E-05 +4.41467971139E-05 -2.10922383700E-06 +5.72627607013E-05 -7.03831281823E-01 +6.76202695069E-01
1.07500000000E+09 -5.44244170809E-01 +7.65926994337E-01 -3.25660212730E-05 +5.42259691543E-05 +2.57548723726E-05 +3.75134741814E-05 -6.99530859409E-01 +6.79745073968E-01
1.08000000000E+09 -5.39905718418E-01 +7.69047013310E-01 -1.47000575564E-06 +8.06782999324E-06 -3.71630570306E-05 +6.41201102721E-05 -6.95678869130E-01 +6.83530963934E-01
1.08500000000E+09 -5.36986014577E-01 +7.71544855091E-01 -1.99160295332E-05 +1.68058744456E-05 -5.81374804400E-07 +2.89321327608E-05 -6.91859947908E-01 +6.87181222969E-01
1.09000000000E+09 -5.35051729896E-01 +7.73331468322E-01 +4.47144559456E-05 +4.00901044675E-05 +6.04121426685E-05 +5.19985806780E-05 -6.88006675291E-01 +6.91091702450E-01
1.09500000000E+09 -5.33354942207E-01 +7.74896547501E-01 +5.89951305877E-05 -3.77186736268E-05 -9.29446055890E-07 +3.10877900989E-05 -6.84321024291E-01 +6.94835099267E-01
1.10000000000E+09 -5.30544462450E-01 +7.76896638813E-01 +9.28149089905E-06 +2.80892229906E-05 -4.43162116542E-06 +3.42768129912E-06 -6.80344819364E-01 +6.98763997042E-01
1.10500000000E+09 -5.26588126756E-01 +7.79254776396E-01 -4.59924650299E-06 +1.73480081283E-05 -6.97379333675E-06 +2.20765858813E-05 -6.76129583947E-01 +7.02186555188E-01
1.11000000000E+09 -5.21278657076E-01 +7.82330446118E-01 +3.11468768085E-05 +4.81791535683E-05 +4.15917252775E-06 +1.50091824695E-06 -6.71927011229E-01 +7.05660503656E-01
1.11500000000E+09 -5.14414112721E-01 +7.86054366480E-01 +9.41640353751E-06 +6.36737041096E-05 +4.62859376149E-05 +1.21473495309E-05 -6.67970078224E-01 +7.08967289518E-01
1.12000000000E+09 -5.06803880208E-01 +7.90093715851E-01 +2.73945499877E-05 +4.61271360634E-05 +2.46035776691E-05 +3.50587633061E-05 -6.63962589439E-01 +7.12553621164E-01
1.12500000000E+09 -4.98753995101E-01 +7.94037966765E-01 +6.08515094699E-05 +3.95205366566E-05 +6.74780398450E-05 +2.67116521009E-05 -6.59771169568E-01 +7.16582593520E-01
1.13000000000E+09 -4.91475135007E-01 +7.97753748444E-01 +4.26319833324E-05 +2.66430778241E-05 +4.00119347742E-05 +3.93906378594E-05 -6.55434208444E-01 +7.20353070102E-01
1.13500000000E+09 -4.85015860395E-01 +8.00636144409E-01 +4.33536051545E-05 +2.94787280704E-05 +5.82959987974E-06 +5.47481100223E-05 -6.50661054367E-01 +7.24263307928E-01
1.14000000000E+09 -4.79539803959E-01 +8.02966317755E-01 +6.75939325088E-05 +2.35439198438E-05 +1.88863527262E-05 +3.97440449404E-05 -6.45894154556E-01 +7.27661448221E-01
1.14500000000E+09 -4.75340699433E-01 +8.04412612364E-01 +3.87042857547E-05 +8.31747329741E-06 +1.98246772510E-05 -2.71352639214E-05 -6.41154517111E-01 +7.31168530583E-01
1.15000000000E+09 -4.71531515585E-01 +8.05735203192E-01 +4.26403430192E-05 -9.24678203048E-06 +3.15859485336E-05 -8.20814977809E-06 -6.36606830055E-01 +7.35061261637E-01
1.15500000000E+09 -4.67800294070E-01 +8.07346760526E-01 +2.45866831275E-05 -2.28311615360E-05 +6.51646206266E-05 -3.63463209142E-05 -6.31784686432E-01 +7.38653090370E-01
1.16000000000E+09 -4.63112605714E-01 +8.08983196121E-01 +4.75358382541E-05 -2.52037143469E-05 +3.54628093156E-05 -4.69572949177E-05 -6.27004089177E-01 +7.42735875453E-01
1.16500000000E+09 -4.57286073766E-01 +8.11479428387E-01 +6.33656073005E-05 -1.91394394541E-05 +5.70257906193E-05 +6.41792666821E-06 -6.21851838341E-01 +7.46215286379E-01
1.17000000000E+09 -4.50631684888E-01 +8.14558191171E-01 +6.98175403949E-05 -6.06252926713E-05 +7.86684296815E-05 -1.88793613435E-05 -6.16638924233E-01 +7.49601570333E-01
1.17500000000E+09 -4.42977186053E-01 +8.17850716437E-01 +5.61213187600E-05 -5.14791218466E-05 +7.58619418964E-05 -6.18367016377E-05 -6.10887956185E-01 +7.52711212950E-01
1.18000000000E+09 -4.35337034348E-01 +8.21590461156E-01 +7.72767312094E-05 -7.36120869158E-05 +5.37617698944E-05 -4.64603946142E-05 -6.05470163266E-01 +7.55678240321E-01
1.18500000000E+09 -4.27503915675E-01 +8.24850822829E-01 +3.21187264683E-05 -3.96961034076E-05 +2.27621591830E-05 -1.00006486673E-04 -5.99609459768E-01 +7.58835924458E-01
1.19000000000E+09 -4.20379011973E-01 +8.27458283514E-01 +4.90186607536E-05 -7.39265995098E-05 +4.91929148031E-05 -8.77112884000E-05 -5.93478869297E-01 +7.61293003582E-01
1.19500000000E+09 -4.14228945048E-01 +8.29436732709E-01 +1.42285082000E-05 -1.03504641303E-04 +5.43938597276E-05 -1.53154317197E-04 -5.87616503796E-01 +7.62500033560E-01
1.20000000000E+09 -4.09063310562E-01 +8.30245463233E-01 +2.71190482572E-06 -1.47686614346E-04 -1.27506674149E-05 -1.02420169063E-04 -5.83152807559E-01 +7.62623653381E-01
1.20500000000E+09 -4.04226532376E-01 +8.31090106378E-01 -5.57078827654E-05 -1.19871425918E-04 -7.35803105445E-05 -1.03980713495E-04 -5.80844846481E-01 +7.63671971355E-01
1.21000000000E+09 -3.99182774378E-01 +8.31973153530E-01 -6.16901352116E-05 -4.33469060149E-05 -5.29666018067E-05 -3.72560975888E-05 -5.78930893123E-01 +7.66888660641E-01
1.21500000000E+09 -3.93104893274E-01 +8.33281719356E-01 -6.43557912618E-05 -3.67576870335E-05 -4.90041619271E-05 -6.00390487383E-05 -5.76146952832E-01 +7.71474708458E-01
1.22000000000E+09 -3.85241829877E-01 +8.35189630194E-01 -7.83582185040E-05 -3.52131375020E-05 +1.04449820503E-05 -3.92596232869E-05 -5.71736978870E-01 +7.76868154231E-01
1.22500000000E+09 -3.76117106805E-01 +8.37741856304E-01 -2.62010895659E-05 -7.27320771492E-05 +1.10179720533E-05 -6.68970675314E-05 -5.66471834537E-01 +7.82012455762E-01
1.23000000000E+09 -3.65827980479E-01 +8.40932779090E-01 -3.22134885656E-05 -5.43151098766E-05 -4.75450626210E-06 -8.15592781833E-05 -5.60867584876E-01 +7.86614353831E-01
1.23500000000E+09 -3.55472282691E-01 +8.44572417849E-01 -4.98837009585E-05 -3.35206009807E-05 -9.12966753719E-06 -5.21170329023E-05 -5.55085403074E-01 +7.91009577722E-01
1.24000000000E+09 -3.45220737417E-01 +8.48575813495E-01 -7.53023447837E-06 -6.89899376299E-05 -3.20156474356E-05 -7.38135211861E-05 -5.49043328969E-01 +7.94751289733E-01
1.24500000000E+09 -3.36082924221E-01 +8.52620888056E-01 -2.71536686947E-05 -6.73159948521E-05 -8.67930302097E-05 -4.26761527831E-05 -5.42724284481E-01 +7.98645414577E-01
1.25000000000E+09 -3.27878713348E-01 +8.55862910536E-01 -1.00332211372E-04 -4.13881577864E-05 -5.41845844709E-05 -2.64477837148E-05 -5.36205082261E-01 +8.02703406820E-01
1.25500000000E+09 -3.20975607926E-01 +8.57925946089E-01 -5.79420458139E-05 -3.30662116164E-05 -1.00428410842E-04 -3.92921015042E-05 -5.29557377416E-01 +8.06712685925E-01
1.26000000000E+09 -3.15218024017E-01 +8.59215314433E-01 -1.00938738033E-04 -5.22269223602E-05 -1.17376041578E-04 -4.99480092277E-05 -5.22956715474E-01 +8.10874443278E-01
1.26500000000E+09 -3.09930453056E-01 +8.59908061615E-01 -8.29590576617E-05 -2.70960650602E-05 -1.02024667202E-04 -4.09730754481E-05 -5.15936400572E-01 +8.14714411816E-01
1.27000000000E+09 -3.04059033247E-01 +8.60320609814E-01 -7.56071319796E-05 +1.65412143117E-05 -7.83580690406E-05 -4.20835126692E-05 -5.09094665183E-01 +8.18490468417E-01
1.27500000000E+09 -2.96811485240E-01 +8.60828375343E-01 -6.22356284868E-05 +2.79798115105E-05 -1.36665265854E-04 -9.00269238527E-06 -5.01941932581E-01 +8.22026957881E-01
1.28000000000E+09 -2.87768249549E-01 +8.61910162942E-01 -9.41181699512E-05 -1.81891196096E-06 -1.06827466392E-04 -2.26132660746E-05 -4.94884786416E-01 +8.25564136756E-01
1.28500000000E+09 -2.76941054557E-01 +8.63506049311E-01 -9.02202323127E-05 +7.24690389010E-06 -1.27303487415E-04 +1.11371998003E-06 -4.87279088262E-01 +8.29463224718E-01
1.29000000000E+09 -2.64951705362E-01 +8.65911666675E-01 -8.49047029440E-05 -1.44004667301E-05 -1.39915129307E-04 -4.04999216324E-05 -4.79868926197E-01 +8.33114120985E-01
1.29500000000E+09 -2.52560310177E-01 +8.69175745910E-01 -8.72386622925E-05 -2.06848744921E-06 -7.03160354240E-05 -8.05994430869E-06 -4.71899296434E-01 +8.36647495041E-01
1.30000000000E+09 -2.40332081189E-01 +8.72820621793E-01 -1.18030230853E-04 +7.06803806338E-05 -1.16920449546E-04 +3.21621798777E-05 -4.64041484539E-01 +8.40243881084E-01
1.30500000000E+09 -2.29132531842E-01 +8.76119472609E-01 -1.26673148507E-04 +5.70250790523E-05 -1.09083036587E-04 +2.59236958363E-05 -4.55997023242E-01 +8.43655990641E-01
1.31000000000E+09 -2.19565483070E-01 +8.78455096497E-01 -8.49451661572E-05 +6.83080476394E-05 -1.08812724577E-04 +5.08004947109E-05 -4.47726756604E-01 +8.47089481155E-01
1.31500000000E+09 -2.12019432067E-01 +8.79834313119E-01 -7.78369567688E-05 +6.87852009968E-05 -1.36925802871E-04 +3.71286529965E-05 -4.38886724426E-01 +8.50528520289E-01
1.32000000000E+09 -2.05728688162E-01 +8.79999679104E-01 -9.86632590044E-05 +6.20277137955E-05 -1.18893327551E-04 +8.70966995821E-06 -4.29958618151E-01 +8.53878581951E-01
1.32500000000E+09 -2.00312799155E-01 +8.79477512486E-01 -1.51779546289E-04 +5.57242051298E-05 -1.62214958617E-04 +1.45053076834E-05 -4.20430084950E-01 +8.57229505108E-01
1.33000000000E+09 -1.93659646127E-01 +8.78597295441E-01 -1.46096301892E-04 +5.54747908488E-05 -1.34013849618E-04 +5.86481592791E-05 -4.10959760300E-01 +8.60539790370E-01
1.33500000000E+09 -1.85300492666E-01 +8.77382303413E-01 -1.88159208652E-04 +9.90893706713E-05 -1.79725842314E-04 +1.35185501079E-04 -4.01202226164E-01 +8.63557404320E-01
1.34000000000E+09 -1.74499935485E-01 +8.76631695998E-01 -1.89281539481E-04 +1.30151108540E-04 -1.39547965300E-04 +1.69995027460E-04 -3.91072251715E-01 +8.66843475241E-01
1.34500000000E+09 -1.61144326622E-01 +8.76122486493E-01 -1.60107313064E-04 +1.95396325545E-04 -1.34002956749E-04 +2.14931023420E-04 -3.80134654594E-01 +8.70227922739E-01
1.35000000000E+09 -1.45942877657E-01 +8.76101024917E-01 -1.37903217803E-04 +2.02037014984E-04 -1.07112949644E-04 +1.87048568076E-04 -3.69002476227E-01 +8.73291764803E-01
1.35500000000E+09 -1.29477002051E-01 +8.77030099061E-01 -1.49947724173E-04 +2.42160715068E-04 -1.20949573352E-04 +2.01863805818E-04 -3.57334385776E-01 +8.76112394350E-01
1.36000000000E+09 -1.12832444458E-01 +8.78052195506E-01 -1.39367741210E-04 +2.48112109779E-04 -1.18343400782E-04 +2.90503506124E-04 -3.45348835169E-01 +8.78896269913E-01
1.36500000000E+09 -9.70705452144E-02 +8.78822296317E-01 -7.64686259022E-05 +3.71654336684E-04 -6.35123750734E-05 +3.54829288622E-04 -3.33215539689E-01 +8.81339302873E-01
1.37000000000E+09 -8.28775772032E-02 +8.78993785137E-01 -6.55302612300E-05 +4.00382467759E-04 -5.66860864035E-05 +3.21158928504E-04 -3.20367595443E-01 +8.83776775390E-01
1.37500000000E+09 -7.08630673407E-02 +8.78405472897E-01 +6.37763967159E-05 +4.71526390301E-04 +1.21348155970E-05 +4.33107187486E-04 -3.06651890672E-01 +8.85987365299E-01
1.38000000000E+09 -6.00573540910E-02 +8.77082503610E-01 +1.95108177773E-04 +3.82965656343E-04 +9.18966728993E-05 +4.39715563509E-04 -2.91983217399E-01 +8.88379788959E-01
1.38500000000E+09 -4.92392500567E-02 +8.74887213837E-01 +1.92303121122E-04 +3.72416207344E-04 +2.13704073939E-04 +4.70823552679E-04 -2.76501848894E-01 +8.90197993633E-01
1.39000000000E+09 -3.74568287945E-02 +8.71651360168E-01 +2.46598788752E-04 +3.62784386476E-04 +2.67459475048E-04 +3.82643209069E-04 -2.60648559925E-01 +8.91633781375E-01
1.39500000000E+09 -2.37869909463E-02 +8.67791259999E-01 +2.47515201971E-04 +3.37086249112E-04 +2.93049470716E-04 +3.39759909830E-04 -2.44046072757E-01 +8.92409028801E-01
1.40000000000E+09 -7.43475030730E-03 +8.63118148924E-01 +2.83527580156E-04 +3.95106397939E-04 +3.68438251693E-04 +3.50733733936E-04 -2.26728783695E-01 +8.92688494109E-01
1.40500000000E+09 +1.10324952114E-02 +8.57954180986E-01 +3.73792679465E-04 +4.20617575282E-04 +4.26968473852E-04 +3.31980621517E-04 -2.08309381381E-01 +8.92605905698E-01
1.41000000000E+09 +3.17097007109E-02 +8.52753721087E-01 +4.87838211004E-04 +3.60174250075E-04 +4.59679322844E-04 +3.18841983750E-04 -1.88365562068E-01 +8.92000975924E-01
1.41500000000E+09 +5.35656328053E-02 +8.47204982467E-01 +6.32864383040E-04 +2.91922898958E-04 +6.01191562330E-04 +3.25744125992E-04 -1.66834144398E-01 +8.90507962844E-01
1.42000000000E+09 +7.60154580468E-02 +8.41297366010E-01 +6.71345329623E-04 +1.07539974845E-04 +7.52607837559E-04 +1.38952148499E-04 -1.44079167167E-01 +8.87974494135E-01
1.42500000000E+09 +9.78923396446E-02 +8.34104800573E-01 +6.07021152612E-04 +1.63093529105E-04 +6.37471762430E-04 +1.54820534493E-04 -1.20424022460E-01 +8.84575611300E-01
1.43000000000E+09 +1.18465728508E-01 +8.25540799874E-01 +7.86698301355E-04 +1.52812032473E-04 +8.83376768917E-04 +1.22847406591E-04 -9.56045242937E-02 +8.79962517250E-01
1.43500000000E+09 +1.38173027963E-01 +8.15109850570E-01 +8.72273325169E-04 -7.07390322348E-05 +9.40613354935E-04 -1.49914191216E-04 -6.93720488786E-02 +8.73553427216E-01
1.44000000000E+09 +1.58208044479E-01 +8.02868561419E-01 +9.13895238528E-04 -2.64421849565E-04 +8.73664829170E-04 -2.96018632908E-04 -4.12562580582E-02 +8.65313515276E-01
1.44500000000E+09 +1.79401326592E-01 +7.87588518985E-01 +9.03562143258E-04 -3.15529999696E-04 +8.42415339746E-04 -4.06072960929E-04 -1.07640967865E-02 +8.54390082621E-01
1.45000000000E+09 +2.02386626380E-01 +7.68849013630E-01 +8.43634484840E-04 -4.35407613062E-04 +8.23024896301E-04 -4.91760632764E-04 +2.13481493408E-02 +8.40029567403E-01
1.45500000000E+09 +2.27795849948E-01 +7.46534709508E-01 +8.86507084631E-04 -5.75051533094E-04 +8.66994980921E-04 -6.14281548630E-04 +5.51603947156E-02 +8.22765213949E-01
1.46000000000E+09 +2.56199819876E-01 +7.20059124215E-01 +1.07481769133E-03 -6.88865617306E-04 +1.00331029903E-03 -7.14277191735E-04 +9.03037917381E-02 +8.01404019020E-01
1.46500000000E+09 +2.85954819084E-01 +6.89548960311E-01 +1.20103757265E-03 -1.24708498301E-03 +1.04235623481E-03 -1.19774738810E-03 +1.26829052950E-01 +7.74645786611E-01
1.47000000000E+09 +3.17099208044E-01 +6.55022581968E-01 +7.38144152673E-04 -1.57829137880E-03 +7.24085842593E-04 -1.47277447568E-03 +1.63937178844E-01 +7.41434589857E-01
1.47500000000E+09 +3.47631917986E-01 +6.15067816887E-01 +3.90217169722E-04 -1.93133070229E-03 +4.53785705721E-04 -1.83133774453E-03 +2.02488088556E-01 +7.00781321721E-01
1.48000000000E+09 +3.75334358379E-01 +5.69119175759E-01 -4.26211286816E-05 -1.76054944510E-03 +1.50857301065E-05 -1.77252412009E-03 +2.40038262826E-01 +6.50528065182E-01
1.48500000000E+09 +3.98154314119E-01 +5.17159543168E-01 +1.36217356316E-04 -1.99560230945E-03 +8.79741141380E-05 -2.05263853634E-03 +2.74852747373E-01 +5.90957805031E-01
1.49000000000E+09 +4.15087454262E-01 +4.57869086495E-01 -4.86431400797E-04 -2.43568016395E-03 -6.36330149503E-04 -2.40361622636E-03 +3.04139877445E-01 +5.20535386214E-01
1.49500000000E+09 +4.24023817678E-01 +3.90580866024E-01 -1.03203014295E-03 -2.61889502090E-03 -1.07839251391E-03 -2.45296402815E-03 +3.23329916899E-01 +4.39394739947E-01
1.50000000000E+09 +4.23132346993E-01 +3.13931387811E-01 -2.02419567120E-03 -2.99573818343E-03 -1.92366987577E-03 -2.79382933311E-03 +3.28958422816E-01 +3.47667301339E-01
1.50500000000E+09 +4.09281093587E-01 +2.28714318157E-01 -3.69742729746E-03 -2.22262864045E-03 -3.46480051887E-03 -2.25875848043E-03 +3.16566437004E-01 +2.49642619291E-01
1.51000000000E+09 +3.78446685129E-01 +1.38218780778E-01 -3.99127874043E-03 -4.42612226474E-04 -3.98567600188E-03 -5.93904929720E-04 +2.84128602227E-01 +1.47078397704E-01
1.51500000000E+09 +3.29267262338E-01 +4.85283440025E-02 -3.86965122367E-03 +2.94512660405E-04 -3.90864106882E-03 +1.43786204766E-04 +2.26946080410E-01 +4.76541640976E-02
1.52000000000E+09 +2.61088779023E-01 -3.43562277188E-02 -4.21434701726E-03 +1.65224067323E-03 -4.19494698192E-03 +1.61523460166E-03 +1.47477212042E-01 -3.88356325757E-02
1.52500000000E+09 +1.75198882437E-01 -1.03229644168E-01 -2.68904118640E-03 +3.10891250395E-03 -2.72567775082E-03 +3.07770963649E-03 +5.01105552672E-02 -1.06973109797E-01
1.53000000000E+09 +7.32875724921E-02 -1.51364470410E-01 -1.73930131029E-03 +2.70299274033E-03 -1.80807514788E-03 +2.70042013788E-03 -5.99060730531E-02 -1.50864281421E-01
1.53500000000E+09 -3.67771736898E-02 -1.71413441798E-01 -1.85905464721E-03 +3.17700682867E-03 -1.90190147442E-03 +3.19385316465E-03 -1.74186303984E-01 -1.68445271148E-01
1.54000000000E+09 -1.46105899077E-01 -1.64509658169E-01 -7.41980316106E-04 +4.13829894744E-03 -7.46875485606E-04 +4.09737803680E-03 -2.83693485105E-01 -1.62156827641E-01
1.54500000000E+09 -2.48330782617E-01 -1.34572306901E-01 +1.07883898134E-03 +4.04144306003E-03 +9.49557172948E-04 +4.03114794608E-03 -3.82051174562E-01 -1.36464801282E-01
1.55000000000E+09 -3.38467477817E-01 -8.75726266255E-02 +2.13964022159E-03 +3.22485263068E-03 +2.01910596909E-03 +3.28263853085E-03 -4.67589840900E-01 -9.71049394176E-02
1.55500000000E+09 -4.14660553035E-01 -3.03608203914E-02 +2.87055751247E-03 +2.08527604475E-03 +2.75916053082E-03 +2.29223351576E-03 -5.37792347856E-01 -4.67467077105E-02
1.56000000000E+09 -4.76312064984E-01 +3.17325119796E-02 +2.77722746212E-03 +7.86991037446E-04 +2.84472410347E-03 +9.04461133527E-04 -5.92500642157E-01 +7.83301965560E-03
1.56500000000E+09 -5.22713313704E-01 +9.39252739070E-02 +2.19553727280E-03 +2.03474900921E-05 +2.33276081414E-03 +1.16408084121E-04 -6.35422036024E-01 +6.39427061463E-02
1.57000000000E+09 -5.57501488105E-01 +1.53084019681E-01 +1.83927686227E-03 -1.44433276453E-04 +1.89499463991E-03 -1.90920169973E-04 -6.66837590457E-01 +1.19541326363E-01
