# Hz S RI R 50
! CMT, C1220, 16058040, 17.2.0/1
! Date: 14/08/2018 12:49:43
! Data: Format (Calibration Info)
! Freq                      S11: Re/Im (F2)                       S21: Re/Im (F2)                       S12: Re/Im (F2)                       S22: Re/Im (F2)            
1.00000000000E+09 -6.51885329738E-01 +7.12843710429E-01 +5.28884696848E-06 +2.54294897753E-06 -5.49149240118E-05 +1.91415672725E-05 -7.53673468585E-01 +6.21671529329E-01
1.00500000000E+09 -6.44894313527E-01 +7.17929993917E-01 -3.29509996806E-05 -8.87492155591E-06 -4.00963338924E-05 +4.89975931816E-06 -7.50152551521E-01 +6.25680600516E-01
1.01000000000E+09 -6.38929156223E-01 +7.22506980396E-01 -2.31010274577E-05 -1.00269439565E-05 +2.60288031278E-05 +1.84564553149E-05 -7.46680595675E-01 +6.29330829941E-01
1.01500000000E+09 -6.34568368978E-01 +7.26341030003E-01 +1.25360562606E-05 -7.77310153100E-06 -1.18890346227E-05 +5.60661326025E-05 -7.43494667456E-01 +6.32933392601E-01
1.02000000000E+09 -6.31433025371E-01 +7.29671103784E-01 -2.78479233856E-05 +2.68205749661E-05 -1.62948972551E-05 +7.67221416673E-06 -7.40345242956E-01 +6.36424989063E-01
1.02500000000E+09 -6.29410121493E-01 +7.32510116213E-01 +9.43531044767E-08 +1.31039255589E-05 +5.14939020518E-06 +4.25607400518E-05 -7.37491275323E-01 +6.40018999727E-01
1.03000000000E+09 -6.27885202915E-01 +7.35098142447E-01 +3.67721351321E-06 +1.73552701943E-05 -8.25563929482E-05 +1.60470224303E-05 -7.33977352081E-01 +6.43959903527E-01
1.03500000000E+09 -6.25617357436E-01 +7.37622024628E-01 -3.31193727518E-05 +5.58891018695E-05 -3.50891669510E-05 +2.88153011106E-05 -7.30105930663E-01 +6.47782076671E-01
1.04000000000E+09 -6.22284306531E-01 +7.40594411193E-01 -1.60024746012E-05 +7.42418125744E-05 -3.66620272313E-05 +3.24624787823E-05 -7.26388500703E-01 +6.51686651527E-01
1.04500000000E+09 -6.17514125400E-01 +7.44010037330E-01 -2.14175010773E-06 +5.06829329343E-05 -3.63911563873E-05 -9.38612336092E-06 -7.22851410866E-01 +6.54850575893E-01
1.05000000000E+09 -6.10944001148E-01 +7.48228269026E-01 -5.47810370598E-06 +4.95724690334E-05 -8.85163013359E-06 -1.93964443274E-05 -7.19460185441E-01 +6.58400354137E-01
1.05500000000E+09 -6.03087019172E-01 +7.52669530316E-01 -2.13456189423E-05 +2.99908226091E-05 -1.04612129480E-05 +8.01947452616E-06 -7.16197918789E-01 +6.62018638654E-01
1.06000000000E+09 -5.94423601007E-01 +7.57802440295E-01 +5.64411344640E-06 -4.03947581525E-06 -3.45558364514E-06 +5.53760276746E-05 -7.12946949995E-01 +6.65978567478E-01
1.06500000000E+09 -5.86283016196E-01 +7.62836237637E-01 +4.69247636675E-05 +1.13086898892E-05 -1.36518268886E-05 -2.85775690487E-05 -7.09129860438E-01 +6.69704986003E-01
1.07000000000E+09 -5.78950150055E-01 +7.67151068883E-01 -1.41322070989E-05 +6.69967773734E-05 -4.85270545620E-05 +1.93070067922E-05 -7.04854838730E-01 +6.73446324216E-01
1.07500000000E+09 -5.73218847953E-01 +7.70987741174E-01 +1.22084179907E-05 +2.28829817011E-05 -1.54323048903E-05 +4.11752146391E-05 -7.00718328377E-01 +6.77032189335E-01
1.08000000000E+09 -5.69182086608E-01 +7.74353545226E-01 -5.07374942621E-06 +2.23586505920E-05 -1.12941256477E-06 +4.45639405168E-05 -6.96852523262E-01 +6.81020875985E-01
1.08500000000E+09 -5.66277229377E-01 +7.76792874068E-01 +6.83632654766E-06 +1.93420781277E-05 -1.48938530120E-05 +4.24309673436E-05 -6.93004614210E-01 +6.84450788976E-01
1.09000000000E+09 -5.64269145248E-01 +7.78843104398E-01 +2.37760508812E-05 +2.87419208453E-05 -4.00164419052E-05 +2.24151610343E-05 -6.89452540790E-01 +6.88335768135E-01
1.09500000000E+09 -5.62705885332E-01 +7.80699507527E-01 +1.11283081401E-05 +1.79664946590E-05 +2.76835596552E-05 +4.24993758725E-05 -6.85614542215E-01 +6.92071026500E-01
1.10000000000E+09 -5.59955474756E-01 +7.82825507617E-01 +8.35917772258E-06 +4.28333368553E-05 +3.12391376982E-05 +7.54673329062E-05 -6.81649476361E-01 +6.96045155077E-01
1.10500000000E+09 -5.56207833992E-01 +7.85450925362E-01 +5.40203265927E-05 +4.30659652915E-05 +3.21101006064E-05 +3.94238056937E-05 -6.77291089436E-01 +6.99533495696E-01
1.11000000000E+09 -5.50777416060E-01 +7.88615308524E-01 +4.28039848789E-05 +5.08327582830E-05 +5.22342895625E-05 +2.34014327679E-05 -6.73285002442E-01 +7.02776801734E-01
1.11500000000E+09 -5.43997653809E-01 +7.92324523340E-01 +2.54685093024E-05 +4.58594812069E-05 +6.22938066936E-05 +6.69263030076E-05 -6.69448389693E-01 +7.06214985225E-01
1.12000000000E+09 -5.36502508391E-01 +7.96270548840E-01 +1.46333446682E-05 +2.48778149348E-05 +3.62383465359E-05 +6.16117007174E-09 -6.65311571670E-01 +7.09827211614E-01
1.12500000000E+09 -5.28545155910E-01 +8.00265754126E-01 +3.26575844213E-05 +5.49706634499E-05 +4.78626937593E-05 +1.94551144859E-05 -6.61277260208E-01 +7.13658498514E-01
1.13000000000E+09 -5.21192386888E-01 +8.04027597078E-01 +4.02593407682E-05 -2.62507626754E-06 +4.02419298121E-05 -3.71541269625E-05 -6.56770637932E-01 +7.17572006005E-01
1.13500000000E+09 -5.14647757946E-01 +8.06922888849E-01 +7.46355018581E-05 +2.59422767610E-05 +3.90671274940E-05 +1.58267877716E-05 -6.52172963661E-01 +7.21358118623E-01
1.14000000000E+09 -5.09248058725E-01 +8.09352919170E-01 +1.12275558985E-04 +2.76680017471E-05 +5.95335328380E-05 +2.10030495437E-05 -6.47299281341E-01 +7.24920361379E-01
1.14500000000E+09 -5.05165194122E-01 +8.11117923749E-01 +5.06689356043E-05 -2.30468376159E-05 +9.74811133707E-05 -2.87666480131E-05 -6.42689587836E-01 +7.28423101211E-01
1.15000000000E+09 -5.01359623695E-01 +8.12810668738E-01 +9.15895359980E-05 +1.22049398725E-05 +1.17705545684E-04 +3.85521586983E-05 -6.38072220831E-01 +7.32178130669E-01
1.15500000000E+09 -4.97766671930E-01 +8.14756731508E-01 +6.03898376357E-05 +2.73783938235E-05 +5.82812719702E-05 +1.14007395092E-05 -6.33385955627E-01 +7.36049033049E-01
1.16000000000E+09 -4.93500199003E-01 +8.16883170578E-01 +4.87812774145E-05 -7.54636606258E-07 +7.21683428002E-05 -4.69102919544E-06 -6.28614389541E-01 +7.39946271616E-01
1.16500000000E+09 -4.88291991147E-01 +8.19774358939E-01 +1.20468893607E-04 +1.50615281729E-05 +1.23013086854E-04 +1.10619427814E-05 -6.23652148984E-01 +7.43506387597E-01
1.17000000000E+09 -4.81722747460E-01 +8.23070149317E-01 +8.61129279291E-05 -8.88459060261E-07 +1.31901903364E-04 -1.23706276547E-05 -6.18078408355E-01 +7.46911157372E-01
1.17500000000E+09 -4.74481998520E-01 +8.26461906862E-01 +1.32782611547E-04 -2.97914849754E-05 +1.08354581632E-04 +3.07497686926E-07 -6.12594854301E-01 +7.50000500095E-01
1.18000000000E+09 -4.66892335979E-01 +8.30240085307E-01 +1.35685803737E-04 -6.05953129148E-05 +1.41576433378E-04 +8.93654224695E-06 -6.07302856076E-01 +7.53160395856E-01
1.18500000000E+09 -4.59015368889E-01 +8.33556240321E-01 +1.80627088987E-04 -7.75788472748E-05 +1.22379334038E-04 -7.10223043885E-05 -6.01375064014E-01 +7.56047089712E-01
1.19000000000E+09 -4.51614740581E-01 +8.36250042866E-01 +1.64585574744E-04 -1.46957292103E-04 +1.82950033196E-04 -1.50579810042E-04 -5.95377224290E-01 +7.58786040477E-01
1.19500000000E+09 -4.45343738766E-01 +8.38388291393E-01 +9.12470389178E-05 -1.72635881815E-04 +1.25794499597E-04 -2.04991630286E-04 -5.89501459744E-01 +7.60064254385E-01
1.20000000000E+09 -4.39922091213E-01 +8.39377711357E-01 -2.13660093965E-05 -2.57502112210E-04 +4.54574443386E-05 -2.50403641154E-04 -5.84804265777E-01 +7.60204562088E-01
1.20500000000E+09 -4.35290811978E-01 +8.40820772270E-01 -6.38770259090E-05 -2.09649225016E-04 -7.48698472065E-05 -2.13767059115E-04 -5.82527865290E-01 +7.61031896002E-01
1.21000000000E+09 -4.30468295178E-01 +8.42270756553E-01 -5.23450108874E-05 -1.47350662778E-04 -7.59289780002E-05 -1.13590156116E-04 -5.80485353043E-01 +7.64153775580E-01
1.21500000000E+09 -4.24706266570E-01 +8.44325132520E-01 -8.93207114294E-05 -1.15124023156E-04 -8.75514955551E-06 -8.75596506553E-05 -5.77931781588E-01 +7.68663753818E-01
1.22000000000E+09 -4.17731861848E-01 +8.46611451743E-01 -2.20940626939E-05 -1.12544276165E-04 +3.08605533252E-05 -1.01474221172E-04 -5.73782564231E-01 +7.74046119654E-01
1.22500000000E+09 -4.09545787711E-01 +8.49631859960E-01 +1.30480349532E-05 -1.13956940149E-04 +2.86824735826E-05 -1.49813558341E-04 -5.68555339400E-01 +7.79247670734E-01
1.23000000000E+09 -4.00373526247E-01 +8.53189076767E-01 -8.89696252926E-06 -1.49241963796E-04 -3.59917238639E-05 -1.58913003735E-04 -5.63135156862E-01 +7.83918735746E-01
1.23500000000E+09 -3.90888298977E-01 +8.57018660567E-01 -2.71986255723E-05 -1.60259193460E-04 -1.63541771348E-05 -1.52862360066E-04 -5.57122759376E-01 +7.88239908000E-01
1.24000000000E+09 -3.81500712333E-01 +8.60990087494E-01 +1.48324291449E-06 -1.60412904538E-04 -3.91614517328E-05 -1.80440267686E-04 -5.51329782434E-01 +7.92069308920E-01
1.24500000000E+09 -3.72674356914E-01 +8.64808806289E-01 -1.09025416161E-04 -1.38741557231E-04 -6.44571498990E-05 -2.10301050231E-04 -5.45133829416E-01 +7.95975356215E-01
1.25000000000E+09 -3.64836241349E-01 +8.67927640957E-01 -1.33657529299E-04 -1.80034989584E-04 -8.28584451644E-05 -1.79365622840E-04 -5.38641810700E-01 +8.00218859628E-01
1.25500000000E+09 -3.57761518836E-01 +8.69992355733E-01 -7.09082487970E-05 -1.21590554142E-04 -1.00394340843E-04 -1.39415220416E-04 -5.31881564756E-01 +8.04138036144E-01
1.26000000000E+09 -3.51688310339E-01 +8.71689561275E-01 -1.03779720508E-04 -1.65740160415E-04 -1.03797702518E-04 -2.09860029984E-04 -5.25371232584E-01 +8.08427589631E-01
1.26500000000E+09 -3.45729375254E-01 +8.72700731526E-01 -1.11330855078E-04 -1.90849294204E-04 -1.11833255140E-04 -2.30817316635E-04 -5.18310824863E-01 +8.12232881718E-01
1.27000000000E+09 -3.39371409500E-01 +8.73878466831E-01 -1.83561557280E-04 -1.96760754185E-04 -2.24155714041E-04 -1.71713802394E-04 -5.11403319245E-01 +8.16047891848E-01
1.27500000000E+09 -3.31934017347E-01 +8.75180562116E-01 -2.38424720513E-04 -1.59753837750E-04 -2.02948187855E-04 -1.78627619667E-04 -5.04344398691E-01 +8.19795597889E-01
1.28000000000E+09 -3.22716907100E-01 +8.77160446554E-01 -2.41687693834E-04 -1.26394753259E-04 -2.81798211772E-04 -1.74569059562E-04 -4.97270395560E-01 +8.23470960099E-01
1.28500000000E+09 -3.11706033807E-01 +8.79551245666E-01 -2.83526791184E-04 -1.71593199718E-04 -2.60408166131E-04 -1.28943629843E-04 -4.89810584952E-01 +8.27196981872E-01
1.29000000000E+09 -2.99752039274E-01 +8.82505342721E-01 -3.11555433174E-04 -9.10544062233E-05 -3.51774813695E-04 -1.20619701569E-04 -4.82198067267E-01 +8.30917830026E-01
1.29500000000E+09 -2.87472685815E-01 +8.85778483263E-01 -3.41095238643E-04 -1.28895963897E-04 -3.77187124333E-04 -4.05536019602E-05 -4.74306284033E-01 +8.34643514826E-01
1.30000000000E+09 -2.75484653735E-01 +8.89502617368E-01 -3.71954155382E-04 -1.04565871939E-04 -4.10742808998E-04 -1.55915179650E-05 -4.66445044818E-01 +8.38138385279E-01
1.30500000000E+09 -2.64737542073E-01 +8.92437037480E-01 -4.35235148697E-04 -1.40507226926E-05 -3.88920773462E-04 -1.17081708555E-05 -4.58334934133E-01 +8.41640751882E-01
1.31000000000E+09 -2.55466910105E-01 +8.94731201581E-01 -4.89002629088E-04 +2.30725652251E-05 -4.28597669536E-04 +2.69334398354E-05 -4.50052693674E-01 +8.45113400794E-01
1.31500000000E+09 -2.48176631633E-01 +8.96324278300E-01 -4.53490117513E-04 +1.37077524371E-04 -4.65132926738E-04 +1.25953417064E-04 -4.41347904859E-01 +8.48614300159E-01
1.32000000000E+09 -2.41909093905E-01 +8.97106750785E-01 -4.62068846543E-04 +1.88199779319E-04 -4.51401240012E-04 +1.40419400284E-04 -4.32395656315E-01 +8.51857713754E-01
1.32500000000E+09 -2.36087373375E-01 +8.97334078258E-01 -4.76431579260E-04 +1.79858504860E-04 -5.17374105816E-04 +1.68074205566E-04 -4.23024922445E-01 +8.55309525140E-01
1.33000000000E+09 -2.29327059727E-01 +8.97436390497E-01 -5.20437621270E-04 +2.31958947779E-04 -5.29980770354E-04 +2.87596227739E-04 -4.13457947589E-01 +8.58573802739E-01
1.33500000000E+09 -2.20609196486E-01 +8.97385927986E-01 -5.43614307055E-04 +3.80837126023E-04 -5.37161072082E-04 +3.76640315293E-04 -4.03612502793E-01 +8.61700241511E-01
1.34000000000E+09 -2.09416844238E-01 +8.97848599136E-01 -5.17605055349E-04 +4.81681777221E-04 -4.37796059770E-04 +4.53165006039E-04 -3.93363275957E-01 +8.64989981685E-01
1.34500000000E+09 -1.95770353466E-01 +8.98252199109E-01 -4.37687200903E-04 +6.07770799492E-04 -4.37769528058E-04 +5.39035946842E-04 -3.82584530102E-01 +8.68371627853E-01
1.35000000000E+09 -1.80071821056E-01 +8.98954775465E-01 -3.44341823056E-04 +6.36654740879E-04 -3.54894802076E-04 +6.51556561555E-04 -3.71330905244E-01 +8.71459107664E-01
1.35500000000E+09 -1.63172432635E-01 +8.99761170836E-01 -3.19921600129E-04 +6.61845304232E-04 -3.44353412451E-04 +6.55706897760E-04 -3.59774662923E-01 +8.74262961361E-01
1.36000000000E+09 -1.46368775408E-01 +9.00521741259E-01 -2.58859272059E-04 +7.87850846444E-04 -2.91798944542E-04 +7.19898950386E-04 -3.48075960306E-01 +8.77012622622E-01
1.36500000000E+09 -1.30455923584E-01 +9.00920740766E-01 -2.50117217972E-04 +8.26945668335E-04 -1.99131471018E-04 +7.95459033328E-04 -3.35866227254E-01 +8.79519707678E-01
1.37000000000E+09 -1.16041468465E-01 +9.00740605675E-01 -1.82921176341E-04 +9.62937680562E-04 -2.21261062710E-04 +9.02846424098E-04 -3.23059347308E-01 +8.81991007235E-01
1.37500000000E+09 -1.03607121378E-01 +9.00141311213E-01 +4.78923792949E-05 +9.99729910828E-04 -4.54764362467E-05 +9.30358342318E-04 -3.09205289413E-01 +8.84239177339E-01
1.38000000000E+09 -9.23880696439E-02 +8.99251579692E-01 +1.34068975408E-04 +1.04318355653E-03 -2.52532980484E-05 +1.08934101786E-03 -2.94463155314E-01 +8.86451359480E-01
1.38500000000E+09 -8.08411836018E-02 +8.97881928889E-01 +1.83413151461E-04 +1.08644364027E-03 +9.91235903271E-05 +1.21938345334E-03 -2.78986745143E-01 +8.88453520243E-01
1.39000000000E+09 -6.84125842660E-02 +8.95777010568E-01 +2.72890397777E-04 +1.17613359655E-03 +3.55340508513E-04 +1.37044634905E-03 -2.63125540526E-01 +8.89916684577E-01
1.39500000000E+09 -5.40219828658E-02 +8.92899832744E-01 +4.92591873599E-04 +1.21611663184E-03 +6.95215545009E-04 +1.31002857488E-03 -2.46599086487E-01 +8.90573260545E-01
1.40000000000E+09 -3.69111978720E-02 +8.89197278288E-01 +6.54974550567E-04 +1.24643221748E-03 +8.08876661489E-04 +1.26985954666E-03 -2.29233878411E-01 +8.91086778532E-01
1.40500000000E+09 -1.76997964430E-02 +8.84899202515E-01 +9.30037096241E-04 +1.32351872522E-03 +9.94971237548E-04 +1.15588208836E-03 -2.10903378341E-01 +8.90985455069E-01
1.41000000000E+09 +3.64232859072E-03 +8.79807997482E-01 +1.21950872074E-03 +1.23913713521E-03 +1.11730504765E-03 +1.21657240718E-03 -1.90763253813E-01 +8.90286809152E-01
1.41500000000E+09 +2.59104927409E-02 +8.73896490099E-01 +1.40582644214E-03 +1.18929124061E-03 +1.42494001343E-03 +1.28846265041E-03 -1.69115452652E-01 +8.88862164375E-01
1.42000000000E+09 +4.87494132740E-02 +8.67074776474E-01 +1.71066356962E-03 +1.03398149839E-03 +1.82279275178E-03 +1.17220326516E-03 -1.46109730204E-01 +8.86303069134E-01
1.42500000000E+09 +7.06858077393E-02 +8.59133106895E-01 +1.91807454447E-03 +9.48312761154E-04 +2.20593553597E-03 +9.99711757502E-04 -1.22688016195E-01 +8.82402723774E-01
1.43000000000E+09 +9.19803547508E-02 +8.50051214779E-01 +2.33984584708E-03 +9.02116283395E-04 +2.58004366570E-03 +7.80679006124E-04 -9.81906892124E-02 +8.77810771259E-01
1.43500000000E+09 +1.12729698353E-01 +8.39360776297E-01 +2.89451558113E-03 +4.39379384646E-04 +3.01487564302E-03 +1.74349834767E-04 -7.20097082523E-02 +8.71260039497E-01
1.44000000000E+09 +1.34014638924E-01 +8.27497193051E-01 +3.09565528537E-03 -2.19597604269E-04 +3.08785190476E-03 -4.62143697403E-04 -4.39992506364E-02 +8.62747631853E-01
1.44500000000E+09 +1.57132147086E-01 +8.12677829349E-01 +3.05211713161E-03 -7.60936471735E-04 +3.03114927578E-03 -8.90867734525E-04 -1.39918378984E-02 +8.51412434008E-01
1.45000000000E+09 +1.82024848604E-01 +7.94241002005E-01 +2.98641811897E-03 -1.15318970855E-03 +2.93578635433E-03 -1.38273332084E-03 +1.76550835770E-02 +8.37149460002E-01
1.45500000000E+09 +2.09248386748E-01 +7.72210222407E-01 +3.12922003788E-03 -1.36607131001E-03 +3.04923329545E-03 -1.68751303741E-03 +5.09248749016E-02 +8.20044373366E-01
1.46000000000E+09 +2.39005412318E-01 +7.46131056811E-01 +3.51220500108E-03 -1.95481634311E-03 +3.17836707078E-03 -2.20639922070E-03 +8.54831108119E-02 +7.98447235513E-01
1.46500000000E+09 +2.70291357983E-01 +7.15164650973E-01 +3.83904196973E-03 -2.89636009056E-03 +3.35369559328E-03 -2.90037340469E-03 +1.21215522118E-01 +7.72164456511E-01
1.47000000000E+09 +3.02140466605E-01 +6.79362199396E-01 +3.66646789178E-03 -4.35965492091E-03 +3.38074827799E-03 -4.06336818518E-03 +1.58016961091E-01 +7.38674903820E-01
1.47500000000E+09 +3.32837372985E-01 +6.38064722074E-01 +2.67928946339E-03 -5.75786641803E-03 +2.76817957888E-03 -5.38936888139E-03 +1.94605356673E-01 +6.98674586578E-01
1.48000000000E+09 +3.61058606701E-01 +5.90779505395E-01 +1.57028693062E-03 -6.51918028668E-03 +1.79860008406E-03 -6.54860406699E-03 +2.31249504339E-01 +6.49963586146E-01
1.48500000000E+09 +3.84322250604E-01 +5.36424939805E-01 +4.11431867986E-04 -7.36646196124E-03 +2.51125433401E-04 -7.57941547398E-03 +2.64933621649E-01 +5.92343496851E-01
1.49000000000E+09 +4.02038121067E-01 +4.74593000764E-01 -1.17959132760E-03 -8.11328299660E-03 -1.58620751796E-03 -8.06093000665E-03 +2.94185859423E-01 +5.23981131097E-01
1.49500000000E+09 +4.11278183022E-01 +4.04424612659E-01 -3.43436683605E-03 -8.41886626187E-03 -3.60887992003E-03 -7.85393804982E-03 +3.13079109022E-01 +4.45475714586E-01
1.50000000000E+09 +4.10672497053E-01 +3.25619718296E-01 -5.93341006281E-03 -8.39336539465E-03 -5.57774702206E-03 -7.84797983563E-03 +3.19993451271E-01 +3.58068928858E-01
1.50500000000E+09 +3.96217408603E-01 +2.38290279418E-01 -8.62820298533E-03 -7.00603122404E-03 -7.96741676046E-03 -6.97017370597E-03 +3.11656822773E-01 +2.62103713101E-01
1.51000000000E+09 +3.65561767330E-01 +1.46812940044E-01 -1.08580907516E-02 -4.36435751331E-03 -1.05387207802E-02 -4.72771555343E-03 +2.81869013471E-01 +1.59980399652E-01
1.51500000000E+09 +3.15364966379E-01 +5.48013006698E-02 -1.19563411634E-02 -1.90306278996E-03 -1.19877857524E-02 -2.23756155632E-03 +2.28011661678E-01 +6.32513577881E-02
1.52000000000E+09 +2.44328333361E-01 -2.78170878133E-02 -1.33672373271E-02 +1.33487951642E-03 -1.35426009233E-02 +1.16936511040E-03 +1.54781071032E-01 -2.39632312286E-02
1.52500000000E+09 +1.56125682803E-01 -9.51543815395E-02 -1.26309608100E-02 +6.65970236190E-03 -1.27683512102E-02 +6.62720246607E-03 +6.17263117740E-02 -9.51020055052E-02
1.53000000000E+09 +5.53313037873E-02 -1.40718664410E-01 -8.66594104758E-03 +9.43346892005E-03 -8.71009702909E-03 +9.44958168404E-03 -4.50533657145E-02 -1.42330047563E-01
1.53500000000E+09 -5.27424392441E-02 -1.63114100164E-01 -6.00991962382E-03 +1.09391956815E-02 -6.04076677744E-03 +1.08997858917E-02 -1.56685040617E-01 -1.65399512032E-01
1.54000000000E+09 -1.63620759113E-01 -1.58753172622E-01 -2.79225530306E-03 +1.11621251897E-02 -2.85058463847E-03 +1.10586282043E-02 -2.66404817929E-01 -1.64298574222E-01
1.54500000000E+09 -2.65395389274E-01 -1.31026895701E-01 +1.28355792628E-04 +1.12064576436E-02 -1.46967908444E-04 +1.10892028906E-02 -3.66608150004E-01 -1.43630219702E-01
1.55000000000E+09 -3.57051974839E-01 -8.73264095346E-02 +2.44862083629E-03 +1.03386215787E-02 +2.00218094947E-03 +1.04208297576E-02 -4.54854303403E-01 -1.06975222082E-01
1.55500000000E+09 -4.34336468937E-01 -3.10920282026E-02 +5.37024054430E-03 +8.96602478695E-03 +5.01131667515E-03 +9.40814323047E-03 -5.27522751859E-01 -5.94755589579E-02
1.56000000000E+09 -4.95491248444E-01 +2.89786937642E-02 +6.88387643520E-03 +5.89509421705E-03 +6.94204096239E-03 +6.43676207686E-03 -5.86573600091E-01 -6.09466206880E-03
1.56500000000E+09 -5.43689898635E-01 +8.94320012482E-02 +6.48451794000E-03 +3.82186556405E-03 +6.78795463247E-03 +4.24800646598E-03 -6.31757539663E-01 +5.06943344390E-02
1.57000000000E+09 -5.80060088515E-01 +1.47538014269E-01 +6.36917796004E-03 +2.50452575881E-03 +6.84790093797E-03 +2.63635062766E-03 -6.65987356551E-01 +1.05417140791E-01
