# Hz S RI R 50
! CMT, C1220, 16058040, 17.2.0/1
! Date: 14/08/2018 11:55:29
! Data: Format (Calibration Info)
! Freq                      S11: Re/Im (F2)                       S21: Re/Im (F2)                       S12: Re/Im (F2)                       S22: Re/Im (F2)            
1.00000000000E+09 -6.43099930299E-01 +7.10471288621E-01 -3.87041863290E-05 +1.69149864191E-05 +9.34186325734E-06 -4.25524044745E-05 -7.50066749639E-01 +6.26924202772E-01
1.00500000000E+09 -6.36014366383E-01 +7.15373187169E-01 +5.74967577754E-05 +5.64876759985E-05 -3.20537364344E-05 +1.80758125032E-05 -7.46495820817E-01 +6.30908965449E-01
1.01000000000E+09 -6.30021961409E-01 +7.19889157114E-01 -3.25371548432E-05 +1.40814425097E-05 -9.86781481829E-06 +1.89133223690E-05 -7.42808250124E-01 +6.34809162061E-01
1.01500000000E+09 -6.25668146737E-01 +7.23642335659E-01 -3.65062817581E-05 -2.37325420719E-05 -7.50404911599E-05 -1.33589892845E-05 -7.39510742767E-01 +6.38302120994E-01
1.02000000000E+09 -6.22540369511E-01 +7.26735226201E-01 -6.95791967911E-05 +1.99533657780E-05 -7.35092462063E-05 -9.61731352225E-07 -7.35977673235E-01 +6.41898148097E-01
1.02500000000E+09 -6.20538136582E-01 +7.29523717827E-01 -6.22836408122E-06 +4.52928046554E-05 -5.04954104610E-05 -9.94226793204E-07 -7.32966179049E-01 +6.45831184433E-01
1.03000000000E+09 -6.18820504141E-01 +7.31822216410E-01 -2.79692866343E-05 +2.01815693243E-05 -2.15663143320E-05 +3.86999508831E-05 -7.29572629849E-01 +6.49518686285E-01
1.03500000000E+09 -6.16542297689E-01 +7.34207918904E-01 -3.67339438517E-05 +1.79706213697E-06 -3.13435452732E-05 +6.10267669979E-05 -7.25746697014E-01 +6.53472496807E-01
1.04000000000E+09 -6.13379816599E-01 +7.37059631218E-01 -5.54269988560E-05 +2.85989525915E-05 -2.05470501000E-05 -2.32579183425E-05 -7.22017547244E-01 +6.57111003640E-01
1.04500000000E+09 -6.08193078609E-01 +7.40514717607E-01 +1.48604318445E-05 +1.23819122926E-05 -1.53048141451E-05 -1.01216894897E-06 -7.18520614916E-01 +6.60599270901E-01
1.05000000000E+09 -6.01386063467E-01 +7.44555045750E-01 -5.40018778782E-05 +1.24757172588E-05 -6.17833582972E-05 +7.80334341776E-05 -7.15095226053E-01 +6.64144300150E-01
1.05500000000E+09 -5.93435859766E-01 +7.49123541354E-01 +1.23160879323E-05 +2.78000505851E-05 -3.03201017311E-05 +2.54683958961E-05 -7.11620604363E-01 +6.67585183349E-01
1.06000000000E+09 -5.84790183627E-01 +7.53933957525E-01 -4.13761668099E-07 +8.13368147679E-05 -1.47351166750E-05 +6.68471353312E-05 -7.08368062042E-01 +6.71462468219E-01
1.06500000000E+09 -5.76801075788E-01 +7.58844222196E-01 +1.38583001494E-05 +8.58193697491E-05 -7.90756690617E-06 +3.91383646570E-05 -7.04685009413E-01 +6.75135507652E-01
1.07000000000E+09 -5.69883685575E-01 +7.63028920595E-01 -8.04183695364E-06 +3.59405538658E-05 -5.57098028367E-05 +6.54426799192E-05 -7.00756856534E-01 +6.78668274694E-01
1.07500000000E+09 -5.64552555751E-01 +7.66798719136E-01 -2.74252064942E-05 +5.07559862622E-05 -5.14177055326E-05 +2.31980799421E-05 -6.96405743705E-01 +6.82417704525E-01
1.08000000000E+09 -5.60980019399E-01 +7.69935405705E-01 -2.12569810715E-05 +1.25387586187E-05 -1.24688737379E-05 +2.54107916659E-05 -6.92382338427E-01 +6.86355999408E-01
1.08500000000E+09 -5.58433631180E-01 +7.72234598045E-01 -4.02637216928E-05 +4.94540904909E-05 -1.05242406663E-05 +5.21356743097E-05 -6.88361647928E-01 +6.89853123018E-01
1.09000000000E+09 -5.56468403809E-01 +7.74623356887E-01 +1.82933716638E-05 +7.29566320550E-05 -1.99699764532E-05 +2.65304882414E-05 -6.84525692702E-01 +6.93799198976E-01
1.09500000000E+09 -5.54767340178E-01 +7.76522700811E-01 +1.55671753066E-05 +4.20440842101E-05 -1.09143670878E-05 +1.22488791894E-05 -6.80586200493E-01 +6.97778054254E-01
1.10000000000E+09 -5.51315657152E-01 +7.78488439260E-01 -6.21250810242E-06 +7.78076177334E-05 -9.73777782260E-06 +3.52634284693E-05 -6.76737688740E-01 +7.01360333559E-01
1.10500000000E+09 -5.46954378212E-01 +7.81329819941E-01 +1.88053269272E-05 +8.99939363561E-05 -9.77664172481E-06 +4.04141706575E-05 -6.72369140011E-01 +7.04926116460E-01
1.11000000000E+09 -5.40980981831E-01 +7.84675719000E-01 +4.50075357180E-05 +4.54057939574E-05 +2.24174665429E-05 +6.70388152572E-05 -6.68069230287E-01 +7.08271485744E-01
1.11500000000E+09 -5.33483904650E-01 +7.88461901352E-01 +1.40179575986E-05 +7.00898319356E-05 +2.94632865019E-05 +6.46851141550E-05 -6.63961801438E-01 +7.11761723569E-01
1.12000000000E+09 -5.25553914067E-01 +7.92215901235E-01 +1.76664398279E-05 +8.78417391110E-05 +1.83678172025E-05 +3.19043570435E-05 -6.59894578956E-01 +7.15519269958E-01
1.12500000000E+09 -5.17530215363E-01 +7.96454505526E-01 +3.56019441157E-05 +5.36046175063E-05 +8.61222729188E-05 +2.93774487846E-05 -6.55558465393E-01 +7.19308527412E-01
1.13000000000E+09 -5.10448466889E-01 +8.00079163508E-01 +4.38955335969E-05 +1.01255178422E-04 +5.71634907841E-05 +2.73825849328E-05 -6.51277098358E-01 +7.23045187610E-01
1.13500000000E+09 -5.04499283978E-01 +8.02982458343E-01 +5.11487379561E-05 +2.64205656218E-05 +4.73337359078E-05 +9.84094467635E-05 -6.46699545505E-01 +7.26946921319E-01
1.14000000000E+09 -4.99800129150E-01 +8.05688677444E-01 +8.69642060077E-05 +6.88833914703E-05 +9.14318510104E-05 +6.11246213751E-05 -6.41931989273E-01 +7.30319879396E-01
1.14500000000E+09 -4.96224254815E-01 +8.07759471323E-01 +8.84287319053E-05 +4.37170211854E-05 +1.01014865062E-04 +4.29827610018E-05 -6.37330515697E-01 +7.33718584276E-01
1.15000000000E+09 -4.92794893062E-01 +8.09536826776E-01 +6.79677073622E-05 +5.11047596464E-05 +1.08256752154E-04 +7.29654882157E-05 -6.32767318816E-01 +7.37534246117E-01
1.15500000000E+09 -4.89212615999E-01 +8.11627209360E-01 +9.99553651360E-05 +5.81501323610E-05 +4.30749497835E-05 +5.54298308464E-05 -6.27780044926E-01 +7.41172628873E-01
1.16000000000E+09 -4.84454945318E-01 +8.13644316066E-01 +8.74391328432E-05 +4.24778878486E-05 +7.80598050621E-05 +4.97201684200E-05 -6.22962164213E-01 +7.45169872162E-01
1.16500000000E+09 -4.78501343263E-01 +8.16440940817E-01 +1.01643744613E-04 +6.05199095468E-05 +1.76291952608E-04 +1.94484059867E-05 -6.17838705120E-01 +7.48749486338E-01
1.17000000000E+09 -4.71195081240E-01 +8.19635626104E-01 +1.18432567604E-04 +5.00752591887E-05 +5.29776924496E-05 +6.34320783215E-05 -6.12429482627E-01 +7.52021465811E-01
1.17500000000E+09 -4.62958605619E-01 +8.23032028344E-01 +1.22827064666E-04 +3.76114041109E-05 +1.50819575893E-04 +3.64925528736E-05 -6.06641993213E-01 +7.55242784087E-01
1.18000000000E+09 -4.54566555337E-01 +8.26606362816E-01 +1.17672213953E-04 +2.07905495416E-05 +9.42285463486E-05 +1.48021248822E-05 -6.01098706680E-01 +7.58348812999E-01
1.18500000000E+09 -4.46282271945E-01 +8.29695252354E-01 +1.12217638289E-04 -3.13025776222E-06 +1.37804834681E-04 +7.23266106811E-05 -5.95171112185E-01 +7.61391838042E-01
1.19000000000E+09 -4.39089380788E-01 +8.32505965648E-01 +1.66794050531E-04 +2.45132995854E-05 +1.94699495288E-04 +2.49666446874E-05 -5.88941800782E-01 +7.63966041092E-01
1.19500000000E+09 -4.33053391664E-01 +8.34674098344E-01 +2.40394706593E-04 +3.40576646347E-06 +2.41237779304E-04 -1.20204227695E-05 -5.82936879001E-01 +7.65273477173E-01
1.20000000000E+09 -4.28489315944E-01 +8.35598430160E-01 +2.17499608109E-04 -5.73804760127E-05 +2.31046697665E-04 -1.32287147919E-04 -5.78412649160E-01 +7.65475255431E-01
1.20500000000E+09 -4.24752779107E-01 +8.37193533258E-01 +2.04316167750E-04 -1.67513974119E-04 +2.11051253377E-04 -1.37831714646E-04 -5.76042109708E-01 +7.66223175305E-01
1.21000000000E+09 -4.20721862424E-01 +8.38512840486E-01 +1.29331162099E-04 -1.81255784967E-04 +1.53398150097E-04 -2.09371420927E-04 -5.74279821907E-01 +7.69169730045E-01
1.21500000000E+09 -4.15715584879E-01 +8.40275995510E-01 +7.37128993512E-05 -1.40235178005E-04 +8.70288390620E-05 -1.20547291613E-04 -5.71626709978E-01 +7.73637729593E-01
1.22000000000E+09 -4.09112329136E-01 +8.42434651620E-01 +1.26410548158E-04 -1.68845944902E-04 +1.34476397169E-04 -1.70070612840E-04 -5.67285232245E-01 +7.78868300169E-01
1.22500000000E+09 -4.00960456109E-01 +8.45068381920E-01 +1.06577497316E-04 -1.53803302127E-04 +1.61219530658E-04 -2.02595132140E-04 -5.62335799919E-01 +7.83957414744E-01
1.23000000000E+09 -3.91391595035E-01 +8.48229930362E-01 +1.22178937938E-04 -1.91459725991E-04 +1.08851248410E-04 -2.16111586441E-04 -5.56525731081E-01 +7.88747481683E-01
1.23500000000E+09 -3.81290827789E-01 +8.51829923269E-01 +9.32632397217E-05 -2.18078800412E-04 +5.79831087550E-05 -2.53758657171E-04 -5.50766979475E-01 +7.93065747530E-01
1.24000000000E+09 -3.71063150569E-01 +8.55515682312E-01 +1.01021559892E-04 -2.32230624599E-04 +6.70678646515E-05 -1.84603165159E-04 -5.44583675284E-01 +7.96930112033E-01
1.24500000000E+09 -3.61692266936E-01 +8.59322975460E-01 +6.30741838218E-05 -2.44917879041E-04 +1.25647470499E-05 -2.48147227758E-04 -5.38323937255E-01 +8.00669850351E-01
1.25000000000E+09 -3.53664210806E-01 +8.62658697903E-01 +2.81694921240E-05 -2.63247117984E-04 +6.68562458658E-05 -2.31341034358E-04 -5.31771370928E-01 +8.05014209066E-01
1.25500000000E+09 -3.46885608913E-01 +8.65161531519E-01 +2.49457800402E-05 -3.05748820557E-04 -2.29719685193E-05 -2.35805275078E-04 -5.24846343076E-01 +8.09012238981E-01
1.26000000000E+09 -3.41242352952E-01 +8.67154922107E-01 +6.11077323095E-07 -2.70717428440E-04 +7.41909177842E-06 -3.57646768180E-04 -5.18123124136E-01 +8.13274691102E-01
1.26500000000E+09 -3.36241230527E-01 +8.68582763031E-01 -3.52489124478E-05 -3.36217388091E-04 +1.67173207244E-05 -3.42525191366E-04 -5.11036383698E-01 +8.17120848348E-01
1.27000000000E+09 -3.30995413718E-01 +8.69888355362E-01 -4.71194886562E-05 -3.47839335617E-04 -1.12552550318E-04 -3.70747006901E-04 -5.04253135854E-01 +8.20980072505E-01
1.27500000000E+09 -3.24587386704E-01 +8.71279774145E-01 -8.59660969316E-05 -3.40379216332E-04 -9.29926501901E-05 -3.41757968678E-04 -4.97303515537E-01 +8.24417722163E-01
1.28000000000E+09 -3.16317810540E-01 +8.72843210431E-01 -1.55579561585E-04 -3.03918423028E-04 -2.04824872712E-04 -3.54335795947E-04 -4.90114415617E-01 +8.27963170568E-01
1.28500000000E+09 -3.05741896433E-01 +8.74862679841E-01 -1.71520667178E-04 -2.93087191590E-04 -1.93409762467E-04 -3.28180169190E-04 -4.82844013771E-01 +8.31519846172E-01
1.29000000000E+09 -2.94207354406E-01 +8.77314501584E-01 -1.63640019105E-04 -2.96326247530E-04 -2.51299737455E-04 -2.73092722720E-04 -4.75413609141E-01 +8.35158260008E-01
1.29500000000E+09 -2.81767583065E-01 +8.80176337185E-01 -2.25158540552E-04 -2.31805204239E-04 -2.19434078033E-04 -2.69205677079E-04 -4.67415582986E-01 +8.38732630978E-01
1.30000000000E+09 -2.69466226015E-01 +8.83362536884E-01 -2.65935783948E-04 -3.21546400537E-04 -3.16340227558E-04 -2.65575257725E-04 -4.59599698814E-01 +8.42270301539E-01
1.30500000000E+09 -2.58246525469E-01 +8.86402879490E-01 -3.24779977265E-04 -2.82817777377E-04 -3.19250966265E-04 -2.43385140317E-04 -4.51447371947E-01 +8.45723061247E-01
1.31000000000E+09 -2.48503632734E-01 +8.88985186960E-01 -3.83047748913E-04 -2.64730059679E-04 -3.39787322885E-04 -1.92038384667E-04 -4.43098305340E-01 +8.49148057187E-01
1.31500000000E+09 -2.40684044517E-01 +8.90953803047E-01 -4.47846324013E-04 -1.49819965936E-04 -4.08388293296E-04 -1.96726091249E-04 -4.34368781159E-01 +8.52503198320E-01
1.32000000000E+09 -2.34332721923E-01 +8.92051292021E-01 -4.18136006080E-04 -1.48137466830E-04 -4.14590448751E-04 -1.57218361872E-04 -4.25231284578E-01 +8.56008380200E-01
1.32500000000E+09 -2.28489818368E-01 +8.92712896239E-01 -3.79780150994E-04 -9.94204225284E-05 -4.59434864188E-04 -1.29134585440E-04 -4.15608652656E-01 +8.59370957509E-01
1.33000000000E+09 -2.21979468658E-01 +8.93038952951E-01 -4.46100932372E-04 -1.17079386998E-04 -4.87604032752E-04 -9.82276340822E-05 -4.05829722563E-01 +8.62688472307E-01
1.33500000000E+09 -2.14006102089E-01 +8.93034549604E-01 -4.83546095538E-04 -8.03408269055E-05 -5.10966583294E-04 -5.95637134701E-05 -3.95802136820E-01 +8.65969996406E-01
1.34000000000E+09 -2.03368365981E-01 +8.93125373620E-01 -4.81587797128E-04 -9.13266350122E-05 -5.06776675228E-04 -1.70571389404E-05 -3.85703282799E-01 +8.69292288322E-01
1.34500000000E+09 -1.89859911717E-01 +8.92969041976E-01 -5.88124966804E-04 -2.79265835133E-05 -5.53624097309E-04 +3.02002878098E-05 -3.74661205969E-01 +8.72541400775E-01
1.35000000000E+09 -1.74413879528E-01 +8.92819752944E-01 -6.49097164161E-04 +3.00752325457E-05 -6.59372174648E-04 +4.45888200395E-05 -3.63450637437E-01 +8.75536209995E-01
1.35500000000E+09 -1.57911138926E-01 +8.92970808445E-01 -6.56198484606E-04 +1.43480733421E-04 -6.08553871028E-04 +1.26554397566E-04 -3.51872073094E-01 +8.78329767066E-01
1.36000000000E+09 -1.41105377775E-01 +8.93259355331E-01 -6.78698858582E-04 +1.87713928615E-04 -6.26920727858E-04 +1.94867337117E-04 -3.39805820550E-01 +8.80979325256E-01
1.36500000000E+09 -1.25232428289E-01 +8.93695389732E-01 -6.36217002748E-04 +2.50710903110E-04 -6.26269761161E-04 +2.02617951945E-04 -3.27740628671E-01 +8.83435649994E-01
1.37000000000E+09 -1.10649744631E-01 +8.93753290218E-01 -6.99764381114E-04 +3.00886964867E-04 -6.54120678167E-04 +2.28591153115E-04 -3.14800254388E-01 +8.85830373211E-01
1.37500000000E+09 -9.81772828028E-02 +8.93861669628E-01 -7.60604406260E-04 +3.97379456726E-04 -7.52139806869E-04 +2.94555518245E-04 -3.01002754053E-01 +8.87968273054E-01
1.38000000000E+09 -8.70016949580E-02 +8.93535732646E-01 -7.78674758555E-04 +4.83223788450E-04 -8.64381557844E-04 +4.18611897753E-04 -2.86357329911E-01 +8.89932396358E-01
1.38500000000E+09 -7.59238975829E-02 +8.92560440395E-01 -7.23331696471E-04 +6.36510949819E-04 -8.99254953418E-04 +6.33662593923E-04 -2.70978762000E-01 +8.91555553455E-01
1.39000000000E+09 -6.44042415769E-02 +8.90803705141E-01 -7.02352972959E-04 +7.17376381211E-04 -8.09309220043E-04 +9.02817870065E-04 -2.54975281736E-01 +8.93017941886E-01
1.39500000000E+09 -5.08800967517E-02 +8.88316757565E-01 -7.30771895676E-04 +7.99394684549E-04 -6.91082293054E-04 +9.69080507218E-04 -2.38148920883E-01 +8.93471380341E-01
1.40000000000E+09 -3.47106931730E-02 +8.84617224468E-01 -6.81668358306E-04 +9.96045068473E-04 -6.08257953260E-04 +1.05888291354E-03 -2.20678274276E-01 +8.93960994988E-01
1.40500000000E+09 -1.60265115539E-02 +8.79959515131E-01 -5.55235415267E-04 +1.10269560245E-03 -4.65793280214E-04 +1.14471405930E-03 -2.01879821985E-01 +8.93715883490E-01
1.41000000000E+09 +4.66652284617E-03 +8.74528132291E-01 -5.28978782326E-04 +1.18656529404E-03 -5.53544312309E-04 +1.16488932174E-03 -1.81976384098E-01 +8.92881652363E-01
1.41500000000E+09 +2.68971728035E-02 +8.68425159267E-01 -4.81708960164E-04 +1.32428837203E-03 -5.70833388700E-04 +1.33733727315E-03 -1.60601735217E-01 +8.91369991018E-01
1.42000000000E+09 +4.99780840198E-02 +8.61761159468E-01 -4.11288927123E-04 +1.45787023123E-03 -5.07173027317E-04 +1.59116652990E-03 -1.37713414391E-01 +8.88780420503E-01
1.42500000000E+09 +7.25513408568E-02 +8.54245500085E-01 -3.84080832950E-04 +1.70586973535E-03 -4.05216168780E-04 +1.92397590154E-03 -1.14158679974E-01 +8.85029292031E-01
1.43000000000E+09 +9.43116845208E-02 +8.45911894715E-01 -1.95574999206E-04 +2.05633727706E-03 -7.91673331200E-05 +2.26445328718E-03 -8.92681452974E-02 +8.80259334558E-01
1.43500000000E+09 +1.15360795127E-01 +8.36387093158E-01 +1.69231176898E-04 +2.21956020827E-03 +3.58959538041E-04 +2.25821316237E-03 -6.29056916703E-02 +8.73451708905E-01
1.44000000000E+09 +1.36275627565E-01 +8.25730336726E-01 +4.42207268901E-04 +2.37390531095E-03 +5.99838941517E-04 +2.35867031523E-03 -3.49406404561E-02 +8.64849217704E-01
1.44500000000E+09 +1.58806313687E-01 +8.12445573715E-01 +8.33139037675E-04 +2.44266432627E-03 +9.93604506581E-04 +2.37080306040E-03 -4.90025848187E-03 +8.53530900118E-01
1.45000000000E+09 +1.83036442913E-01 +7.95652342961E-01 +9.03166884011E-04 +2.42214377920E-03 +1.12639706689E-03 +2.45951454342E-03 +2.71723316694E-02 +8.38664210099E-01
1.45500000000E+09 +2.09262933058E-01 +7.74575817018E-01 +1.12208163261E-03 +2.90487956330E-03 +1.40195612066E-03 +2.81919800643E-03 +5.98914299184E-02 +8.20513881829E-01
1.46000000000E+09 +2.37600395213E-01 +7.49078494638E-01 +1.85629406952E-03 +3.45545359677E-03 +2.13227616842E-03 +3.12570682764E-03 +9.45104673128E-02 +7.99124510019E-01
1.46500000000E+09 +2.67837658094E-01 +7.19062807129E-01 +2.88241363491E-03 +3.74469267954E-03 +2.87730776001E-03 +3.24225920784E-03 +1.30915387307E-01 +7.72231256871E-01
1.47000000000E+09 +2.99369853254E-01 +6.83597422534E-01 +4.36453708633E-03 +3.72186020238E-03 +3.99604369359E-03 +3.38246089009E-03 +1.67878834093E-01 +7.38154348479E-01
1.47500000000E+09 +3.30311415583E-01 +6.42487170570E-01 +5.69688697405E-03 +2.85869936699E-03 +5.36149477030E-03 +2.91952452322E-03 +2.04592556681E-01 +6.96987954441E-01
1.48000000000E+09 +3.59177630286E-01 +5.94777761325E-01 +6.51216349763E-03 +1.89262014667E-03 +6.52194495177E-03 +2.02352560772E-03 +2.40363192336E-01 +6.47698186955E-01
1.48500000000E+09 +3.82607524885E-01 +5.40424135723E-01 +7.42888596540E-03 +1.04392035143E-03 +7.67022649211E-03 +9.44656189555E-04 +2.73759670338E-01 +5.89483463724E-01
1.49000000000E+09 +3.99721922045E-01 +4.79811137609E-01 +9.05070766493E-03 -1.95100317520E-04 +9.01937015986E-03 -6.21859281771E-04 +3.02715175857E-01 +5.20277303598E-01
1.49500000000E+09 +4.09104281757E-01 +4.12423468468E-01 +1.00567456501E-02 -2.71829412381E-03 +9.47494857647E-03 -3.00248659753E-03 +3.20562885374E-01 +4.39329937026E-01
1.50000000000E+09 +4.08719292999E-01 +3.36536451626E-01 +1.07775497246E-02 -5.35857709681E-03 +1.01153427997E-02 -5.03107426464E-03 +3.23796616553E-01 +3.51469520840E-01
1.50500000000E+09 +3.95674279973E-01 +2.53734003605E-01 +1.04957595302E-02 -9.78209920243E-03 +1.03970095279E-02 -9.00089276751E-03 +3.12844110459E-01 +2.57177749502E-01
1.51000000000E+09 +3.67177862667E-01 +1.64932281073E-01 +7.85966149019E-03 -1.41607656121E-02 +8.32742617723E-03 -1.36813064812E-02 +2.82613583538E-01 +1.57657815888E-01
1.51500000000E+09 +3.19758050688E-01 +7.56379637004E-02 +2.92550138531E-03 -1.69122082296E-02 +3.49806056790E-03 -1.70276870738E-02 +2.28902459798E-01 +6.00756781963E-02
1.52000000000E+09 +2.52174640420E-01 -7.97316329959E-03 -2.63983720035E-03 -1.78388954201E-02 -2.39870998298E-03 -1.81338636698E-02 +1.53400145877E-01 -2.68090372041E-02
1.52500000000E+09 +1.66061686602E-01 -7.72533089198E-02 -7.94400293822E-03 -1.56578629959E-02 -7.88909933513E-03 -1.58475778575E-02 +5.84391923204E-02 -9.54948407788E-02
1.53000000000E+09 +6.67223021387E-02 -1.25616886110E-01 -1.11519192438E-02 -1.31616892232E-02 -1.12320072831E-02 -1.33151876473E-02 -4.83891277745E-02 -1.41513813693E-01
1.53500000000E+09 -3.87472064543E-02 -1.49925187786E-01 -1.48238189543E-02 -1.01602581250E-02 -1.48562349753E-02 -1.02027530097E-02 -1.60783478081E-01 -1.61555342097E-01
1.54000000000E+09 -1.45144815179E-01 -1.51515218604E-01 -1.74170238971E-02 -5.34002066099E-03 -1.73225946207E-02 -5.41554866544E-03 -2.70068656961E-01 -1.58196973226E-01
1.54500000000E+09 -2.47988442548E-01 -1.30476431403E-01 -1.76163214883E-02 +7.36493855080E-04 -1.74647568961E-02 +3.73483245609E-04 -3.68108308252E-01 -1.33751622944E-01
1.55000000000E+09 -3.41830389114E-01 -8.94010193056E-02 -1.52909067288E-02 +5.19487591469E-03 -1.55234158747E-02 +4.68251603618E-03 -4.53377989637E-01 -9.67125645030E-02
1.55500000000E+09 -4.20089221548E-01 -3.29523637234E-02 -1.24288693351E-02 +8.42021647401E-03 -1.30735540479E-02 +8.11974043014E-03 -5.24045281734E-01 -4.92569673797E-02
1.56000000000E+09 -4.80602497795E-01 +2.80663940167E-02 -8.75830386091E-03 +1.04326592220E-02 -9.52414083238E-03 +1.06170282629E-02 -5.81158237556E-01 +3.88992609534E-03
1.56500000000E+09 -5.27563302218E-01 +8.80442343550E-02 -5.01287486212E-03 +1.08103255928E-02 -5.42668082589E-03 +1.14081854125E-02 -6.25149837641E-01 +5.88902055533E-02
1.57000000000E+09 -5.64901804693E-01 +1.45556465917E-01 -2.19570103209E-03 +9.81262607383E-03 -2.25725893356E-03 +1.04793857315E-02 -6.58941002321E-01 +1.13999817182E-01
