# Hz S RI R 50
! CMT, C1220, 16058040, 17.2.0/1
! Date: 14/08/2018 11:59:40
! Data: Format (Calibration Info)
! Freq                      S11: Re/Im (F2)                       S21: Re/Im (F2)                       S12: Re/Im (F2)                       S22: Re/Im (F2)            
1.00000000000E+09 -6.44110528488E-01 +7.12280506331E-01 +4.57166152782E-05 +1.07567549121E-05 -2.78319378537E-05 -1.56091535083E-05 -7.50034803624E-01 +6.26887341601E-01
1.00500000000E+09 -6.37008696396E-01 +7.17233363431E-01 -4.52287903827E-05 -2.24719827900E-05 -3.22001400412E-05 +2.79206657234E-05 -7.46497066887E-01 +6.30902385872E-01
1.01000000000E+09 -6.31076421953E-01 +7.21553174464E-01 -3.10330169768E-05 +1.69540684219E-05 +1.81392526900E-05 -6.11046833159E-05 -7.42952999508E-01 +6.34680027255E-01
1.01500000000E+09 -6.26648037632E-01 +7.25373955578E-01 -5.89123065497E-05 -1.22605938548E-05 -6.22035897244E-05 -1.33029003705E-05 -7.39563377239E-01 +6.38442134225E-01
1.02000000000E+09 -6.23478409252E-01 +7.28416906154E-01 -5.77892080656E-06 -1.14868201335E-06 +5.13800348861E-07 -4.94690528490E-07 -7.35954559531E-01 +6.41954683417E-01
1.02500000000E+09 -6.21339402179E-01 +7.31131606052E-01 -3.01858256807E-05 +2.32827495245E-05 -6.14883683837E-05 -9.65365773879E-06 -7.33065076367E-01 +6.45750100059E-01
1.03000000000E+09 -6.19942823621E-01 +7.33482995127E-01 -6.38128614537E-05 +1.68605655878E-05 -4.30175109269E-05 +3.27720554482E-05 -7.29523229707E-01 +6.49524594653E-01
1.03500000000E+09 -6.17456494150E-01 +7.35802884037E-01 -1.82451250206E-05 +3.27256193971E-06 -8.57274139962E-05 -1.04628802180E-05 -7.25781819121E-01 +6.53578986524E-01
1.04000000000E+09 -6.13830663521E-01 +7.38827219662E-01 -5.11030771727E-05 -5.24804040576E-06 -7.01933244385E-05 +2.97781723605E-05 -7.21894529555E-01 +6.57061358363E-01
1.04500000000E+09 -6.08806296417E-01 +7.42088426740E-01 -3.97409065403E-05 +3.59529780935E-05 -5.71402989457E-05 +3.76519075495E-05 -7.18418561061E-01 +6.60538002348E-01
1.05000000000E+09 -6.01817990143E-01 +7.46283116766E-01 -4.95433580652E-05 +4.83866194938E-05 -3.13368689624E-05 +2.76255900334E-05 -7.15082330513E-01 +6.64115729005E-01
1.05500000000E+09 -5.93911706117E-01 +7.50834666646E-01 -4.04628787955E-06 +7.32916187210E-05 -4.56790264701E-05 +6.01529679077E-05 -7.11738915771E-01 +6.67702316857E-01
1.06000000000E+09 -5.85482958473E-01 +7.55810028643E-01 -3.84634456981E-05 +6.30605950236E-06 -2.87194232905E-05 +3.35903405728E-05 -7.08401471199E-01 +6.71344916382E-01
1.06500000000E+09 -5.77408797911E-01 +7.60463154100E-01 -6.20931493039E-06 +1.04073991266E-04 -7.43023537513E-05 +7.44019304903E-05 -7.04735880825E-01 +6.75006630766E-01
1.07000000000E+09 -5.70463120587E-01 +7.64509900933E-01 -1.62579534270E-05 +8.64252976836E-05 -4.63672124448E-05 +2.65260842124E-05 -7.00682786589E-01 +6.78749432032E-01
1.07500000000E+09 -5.65182675569E-01 +7.68190842774E-01 -2.40844155445E-05 +9.13345023000E-05 -2.03325397234E-05 +4.82417147463E-05 -6.96169665983E-01 +6.82464903192E-01
1.08000000000E+09 -5.61367525204E-01 +7.71482939287E-01 +5.74966322442E-06 +8.41888695481E-05 +1.70265280657E-06 +4.18656109190E-05 -6.92309831821E-01 +6.86260332282E-01
1.08500000000E+09 -5.58846277403E-01 +7.73774538669E-01 +1.33281856255E-06 +1.41174920362E-04 +3.85692667306E-06 +8.03814803178E-05 -6.88400965348E-01 +6.90160652541E-01
1.09000000000E+09 -5.56813121454E-01 +7.75881800423E-01 -2.30442060995E-05 +8.45470420449E-05 +5.97551756448E-07 +9.00367164235E-05 -6.84300917511E-01 +6.93842222607E-01
1.09500000000E+09 -5.54956751589E-01 +7.77834576568E-01 +1.71570352835E-05 +2.02848598126E-05 +3.61114082704E-05 +6.47778918102E-05 -6.80629852489E-01 +6.97709675498E-01
1.10000000000E+09 -5.51562101320E-01 +7.80058554601E-01 +1.96272012750E-05 +6.15820736349E-05 +3.15554580469E-05 +3.33259490996E-05 -6.76588857917E-01 +7.01502426942E-01
1.10500000000E+09 -5.47060666956E-01 +7.82709587360E-01 -3.61129131136E-06 +2.27914472744E-05 +1.32015998917E-05 +6.85974245758E-05 -6.72333807018E-01 +7.05136276526E-01
1.11000000000E+09 -5.40890826803E-01 +7.86039458583E-01 +2.67158648428E-05 +6.02162460534E-05 +1.14141885668E-05 +5.11717133516E-05 -6.68064748011E-01 +7.08368089797E-01
1.11500000000E+09 -5.33488486505E-01 +7.89875253277E-01 +1.61729405616E-05 +8.11307299064E-05 -3.41752333258E-05 +6.16678195951E-05 -6.64048566110E-01 +7.11780085770E-01
1.12000000000E+09 -5.25421822451E-01 +7.93742299671E-01 +3.63043429914E-05 +9.10801546520E-05 -6.92380351203E-06 +5.71038405091E-05 -6.59865725444E-01 +7.15496161875E-01
1.12500000000E+09 -5.17533467151E-01 +7.97778782204E-01 +4.30855398802E-05 +3.67025991350E-05 +9.12511062628E-05 +8.83630891396E-05 -6.55410991378E-01 +7.19437595654E-01
1.13000000000E+09 -5.10343113705E-01 +8.01138808923E-01 +8.51604748368E-05 +1.06931285321E-04 +2.58739145923E-05 +5.69920449962E-05 -6.51308320980E-01 +7.23264661574E-01
1.13500000000E+09 -5.04397734115E-01 +8.04207831523E-01 +5.58210961510E-05 +6.00080412185E-06 +6.40759374957E-05 +6.93107748385E-05 -6.46618528159E-01 +7.26951396257E-01
1.14000000000E+09 -4.99675284978E-01 +8.06976486175E-01 +8.41346897952E-05 +5.12825993739E-05 +4.77291337979E-05 +9.16465561790E-05 -6.41936395768E-01 +7.30582747565E-01
1.14500000000E+09 -4.95971752850E-01 +8.08894074543E-01 +1.19583572045E-04 +4.30706191295E-05 +1.15035787759E-04 +9.92104175699E-05 -6.37306520254E-01 +7.33833340769E-01
1.15000000000E+09 -4.92279940951E-01 +8.10813277601E-01 +7.38730319800E-05 +7.02354362832E-05 +8.47194453745E-05 +6.91278948804E-05 -6.32493869119E-01 +7.37447588509E-01
1.15500000000E+09 -4.88666443995E-01 +8.12657405132E-01 +7.54262676289E-05 +8.72384345804E-05 +1.01682576394E-04 +6.51311778196E-05 -6.27964735809E-01 +7.41363641342E-01
1.16000000000E+09 -4.83882067360E-01 +8.14672954843E-01 +1.11962005455E-04 +1.02894480341E-05 +1.14100513579E-04 +7.70476274258E-06 -6.23067286936E-01 +7.45208723105E-01
1.16500000000E+09 -4.77942441051E-01 +8.17521295051E-01 +1.30519271213E-04 +7.78400103636E-05 +9.31911858484E-05 +4.13518440609E-05 -6.17853863835E-01 +7.48798155242E-01
1.17000000000E+09 -4.70607317152E-01 +8.20641425493E-01 +1.41255428331E-04 +5.08085311368E-05 +1.64789538829E-04 +7.21070395861E-05 -6.12440353552E-01 +7.51977427067E-01
1.17500000000E+09 -4.62291167769E-01 +8.23858201294E-01 +1.45869692844E-04 +4.22601739891E-05 +1.51837123042E-04 +5.50244635471E-05 -6.06766577658E-01 +7.55418965806E-01
1.18000000000E+09 -4.53907895543E-01 +8.27369177303E-01 +1.84626612856E-04 +2.77209498984E-05 +1.85656153247E-04 +3.09854132291E-07 -6.01152589093E-01 +7.58465937751E-01
1.18500000000E+09 -4.45748292744E-01 +8.30594349936E-01 +1.70252277212E-04 +3.01368177459E-05 +1.68123770385E-04 +4.10911420137E-05 -5.95068879244E-01 +7.61434369062E-01
1.19000000000E+09 -4.38374909854E-01 +8.33195604648E-01 +1.86936426961E-04 -1.34278736089E-05 +2.44926194927E-04 -9.27226836994E-06 -5.88867323327E-01 +7.64040922757E-01
1.19500000000E+09 -4.32294699878E-01 +8.35142663087E-01 +2.78570957720E-04 -1.13437966893E-05 +2.70154431396E-04 -2.49091131580E-05 -5.82901085392E-01 +7.65301812599E-01
1.20000000000E+09 -4.27606872833E-01 +8.36135614864E-01 +2.55681830496E-04 -9.50272991126E-05 +2.45916038174E-04 -1.47169786340E-04 -5.78344364934E-01 +7.65483435110E-01
1.20500000000E+09 -4.23877882236E-01 +8.37545761421E-01 +2.10368370683E-04 -1.71234027989E-04 +1.70673573023E-04 -2.08085864361E-04 -5.76059201098E-01 +7.66133433395E-01
1.21000000000E+09 -4.19865149805E-01 +8.38883536482E-01 +1.37046444918E-04 -1.71133481100E-04 +1.21147148120E-04 -1.71618892019E-04 -5.74222445884E-01 +7.69199725118E-01
1.21500000000E+09 -4.14682629240E-01 +8.40657142935E-01 +1.31670803207E-04 -1.80482843805E-04 +1.09748737856E-04 -2.00712034518E-04 -5.71430503511E-01 +7.73703658597E-01
1.22000000000E+09 -4.08174565285E-01 +8.42740388876E-01 +1.24169374851E-04 -1.65617318425E-04 +1.38212302453E-04 -1.76698080641E-04 -5.67359388811E-01 +7.78923682721E-01
1.22500000000E+09 -3.99888460838E-01 +8.45393224042E-01 +1.73080074609E-04 -1.89187990048E-04 +1.64868777242E-04 -1.67694174645E-04 -5.62235708444E-01 +7.84114146421E-01
1.23000000000E+09 -3.90400637515E-01 +8.48452461884E-01 +1.04934200117E-04 -2.31947628413E-04 +1.38813004648E-04 -1.75139473327E-04 -5.56456974405E-01 +7.88809613301E-01
1.23500000000E+09 -3.80293526871E-01 +8.51931987809E-01 +1.04218293202E-04 -1.89676085725E-04 +9.30200165390E-05 -2.21670089372E-04 -5.50620052904E-01 +7.93064036777E-01
1.24000000000E+09 -3.70045482599E-01 +8.55610606286E-01 +7.63365707161E-05 -2.39982594068E-04 +9.96845847575E-05 -2.20085009411E-04 -5.44481531167E-01 +7.96970444674E-01
1.24500000000E+09 -3.60731760777E-01 +8.59322736634E-01 +6.67788773397E-05 -2.80259554197E-04 +5.49664857750E-05 -2.26523881989E-04 -5.38324357053E-01 +8.00729875362E-01
1.25000000000E+09 -3.52473544809E-01 +8.62478374408E-01 +8.55111372167E-05 -2.52313784422E-04 +5.04542146027E-05 -2.76563336022E-04 -5.31656144088E-01 +8.04820175817E-01
1.25500000000E+09 -3.45800927674E-01 +8.64705064047E-01 +1.33352843382E-05 -3.10132480223E-04 +7.17296196514E-05 -3.08307762264E-04 -5.24641282204E-01 +8.08883476570E-01
1.26000000000E+09 -3.40175282706E-01 +8.66845984712E-01 +2.92249532936E-05 -3.03011487250E-04 -2.54998295165E-06 -3.59433403419E-04 -5.17973950245E-01 +8.13306287709E-01
1.26500000000E+09 -3.35200072575E-01 +8.68248464521E-01 -1.06871364795E-05 -3.07943650844E-04 +4.65889546101E-05 -3.62007569285E-04 -5.10973615545E-01 +8.17045954973E-01
1.27000000000E+09 -3.29747231845E-01 +8.69420785426E-01 -5.71655262826E-05 -4.15315054684E-04 -4.00909300364E-05 -4.07361429130E-04 -5.04292832932E-01 +8.20816421190E-01
1.27500000000E+09 -3.23159887904E-01 +8.70700703462E-01 -9.32858996766E-05 -3.89040774775E-04 -8.20801073745E-05 -3.95124970291E-04 -4.97255386680E-01 +8.24386822328E-01
1.28000000000E+09 -3.14927516553E-01 +8.72414688793E-01 -1.83553702918E-04 -3.80895345353E-04 -1.93145867321E-04 -3.88842284775E-04 -4.90106959581E-01 +8.27753818663E-01
1.28500000000E+09 -3.04467968239E-01 +8.74227801292E-01 -2.07015234449E-04 -3.52013273346E-04 -1.97943451966E-04 -3.75600131957E-04 -4.82784776515E-01 +8.31554935760E-01
1.29000000000E+09 -2.92964957836E-01 +8.76638269515E-01 -1.87521720367E-04 -3.54373433005E-04 -2.31902482275E-04 -3.50656528097E-04 -4.75231436219E-01 +8.35244726590E-01
1.29500000000E+09 -2.80610826542E-01 +8.79255538168E-01 -2.20446957606E-04 -3.27707644585E-04 -2.86675508889E-04 -3.59512557706E-04 -4.67324568315E-01 +8.38708993528E-01
1.30000000000E+09 -2.68388198726E-01 +8.82458641081E-01 -2.76972898417E-04 -3.91991222477E-04 -3.54763205261E-04 -3.70671456272E-04 -4.59526263277E-01 +8.42316177749E-01
1.30500000000E+09 -2.57399244860E-01 +8.85314372604E-01 -3.84214275833E-04 -3.65830828727E-04 -3.72344656372E-04 -3.44420878531E-04 -4.51411086936E-01 +8.45704809021E-01
1.31000000000E+09 -2.47791832238E-01 +8.87875847256E-01 -4.18280491492E-04 -3.21233847591E-04 -3.96444676893E-04 -3.23268786880E-04 -4.43155578562E-01 +8.49047102495E-01
1.31500000000E+09 -2.39985374958E-01 +8.89805179666E-01 -4.62464029850E-04 -1.97004994866E-04 -4.30891654401E-04 -2.85056931750E-04 -4.34305282161E-01 +8.52428462179E-01
1.32000000000E+09 -2.33555280781E-01 +8.90948282922E-01 -4.60123217335E-04 -2.09434319201E-04 -4.65161716358E-04 -2.19746201822E-04 -4.25142499664E-01 +8.55932852736E-01
1.32500000000E+09 -2.27587033663E-01 +8.91470659106E-01 -4.53877356924E-04 -1.93511205104E-04 -4.95789217732E-04 -1.88639990581E-04 -4.15515611440E-01 +8.59262657990E-01
1.33000000000E+09 -2.21145701682E-01 +8.91693974684E-01 -5.36743533839E-04 -1.89024277146E-04 -6.10458382529E-04 -1.62028146689E-04 -4.05852480347E-01 +8.62614192798E-01
1.33500000000E+09 -2.12927813549E-01 +8.91585946011E-01 -6.18886955657E-04 -2.13438093027E-04 -6.40692880962E-04 -1.00207461497E-04 -3.95846979742E-01 +8.65797103916E-01
1.34000000000E+09 -2.02270669614E-01 +8.91625645181E-01 -6.63022909602E-04 -1.18037798356E-04 -6.24465874229E-04 -5.79249464578E-05 -3.85617370566E-01 +8.69004546179E-01
1.34500000000E+09 -1.88971996258E-01 +8.91453836995E-01 -7.08130610554E-04 -7.98883165622E-05 -7.13331926129E-04 -4.43118353890E-05 -3.74762091776E-01 +8.72370569266E-01
1.35000000000E+09 -1.73555582626E-01 +8.91160143720E-01 -8.03380477201E-04 +7.22742642228E-05 -7.38110362581E-04 +5.50560567663E-05 -3.63674163655E-01 +8.75372625653E-01
1.35500000000E+09 -1.57211412263E-01 +8.91135755802E-01 -7.84588102584E-04 +1.43223322192E-04 -7.63976453198E-04 +1.15535955951E-04 -3.51843165922E-01 +8.78208322072E-01
1.36000000000E+09 -1.40621115899E-01 +8.91453253836E-01 -7.97530293715E-04 +2.10425994595E-04 -7.85133323207E-04 +2.00914805549E-04 -3.40082463247E-01 +8.80731562180E-01
1.36500000000E+09 -1.24715511502E-01 +8.91848917769E-01 -8.14051821338E-04 +2.76880630115E-04 -7.57514212758E-04 +2.31253003583E-04 -3.28071450492E-01 +8.83391902489E-01
1.37000000000E+09 -1.10235779622E-01 +8.91957734238E-01 -9.00332693795E-04 +3.31220170172E-04 -8.31144534895E-04 +2.80364230540E-04 -3.15123314109E-01 +8.85759540689E-01
1.37500000000E+09 -9.77206633437E-02 +8.91821384695E-01 -8.97634480577E-04 +4.04931885589E-04 -9.34265844498E-04 +3.54822023205E-04 -3.01308099370E-01 +8.87956225710E-01
1.38000000000E+09 -8.64426402629E-02 +8.91280491222E-01 -9.61336623442E-04 +6.09883684151E-04 -1.10171085118E-03 +5.38758774908E-04 -2.86669405222E-01 +8.89752628515E-01
1.38500000000E+09 -7.54603701709E-02 +8.90215405367E-01 -9.10492356534E-04 +7.94025671485E-04 -1.06095125655E-03 +7.81925361196E-04 -2.71262487223E-01 +8.91685882550E-01
1.39000000000E+09 -6.39636670997E-02 +8.88440660734E-01 -8.38949511898E-04 +8.92439237423E-04 -9.69633998108E-04 +9.78704605131E-04 -2.55417559494E-01 +8.93057680879E-01
1.39500000000E+09 -5.04915480487E-02 +8.85729597914E-01 -8.67979602754E-04 +9.47348793694E-04 -9.26209759489E-04 +1.13972094479E-03 -2.38619055524E-01 +8.93842382591E-01
1.40000000000E+09 -3.43812766322E-02 +8.81990571858E-01 -8.72778704338E-04 +1.13271582925E-03 -7.63200042083E-04 +1.23288929990E-03 -2.21018291081E-01 +8.94301478413E-01
1.40500000000E+09 -1.60603421409E-02 +8.77407044175E-01 -7.86384601715E-04 +1.33268120010E-03 -7.03296649153E-04 +1.31061410576E-03 -2.02365869549E-01 +8.94110876703E-01
1.41000000000E+09 +4.45793113544E-03 +8.71870721633E-01 -7.37848954448E-04 +1.48769610708E-03 -7.25929705653E-04 +1.44872705626E-03 -1.82313158791E-01 +8.93200142081E-01
1.41500000000E+09 +2.63547542428E-02 +8.65778973931E-01 -6.15385588983E-04 +1.67734183244E-03 -6.74169452421E-04 +1.71799106481E-03 -1.61108994622E-01 +8.91741015029E-01
1.42000000000E+09 +4.90432138740E-02 +8.59152660645E-01 -5.27195951046E-04 +1.79212361350E-03 -6.16000115364E-04 +1.89981897791E-03 -1.38123444503E-01 +8.89331451027E-01
1.42500000000E+09 +7.14268455113E-02 +8.51841928992E-01 -4.89088867797E-04 +2.05787171721E-03 -4.94551808995E-04 +2.33009179147E-03 -1.14483229890E-01 +8.85547429214E-01
1.43000000000E+09 +9.28544717103E-02 +8.43634154451E-01 -3.17854044128E-04 +2.52671341480E-03 -1.06002745046E-04 +2.80452277047E-03 -8.95882568648E-02 +8.80873720676E-01
1.43500000000E+09 +1.13622875909E-01 +8.34115641154E-01 +2.10428947192E-04 +2.76370392482E-03 +4.54365591166E-04 +2.86642234461E-03 -6.33303193718E-02 +8.74100020593E-01
1.44000000000E+09 +1.34636355058E-01 +8.23546280698E-01 +6.37173479162E-04 +2.93501474818E-03 +8.06151552577E-04 +2.94747256534E-03 -3.54224315257E-02 +8.65491538432E-01
1.44500000000E+09 +1.56868512968E-01 +8.10309269403E-01 +1.09861521352E-03 +3.02011795136E-03 +1.26494746105E-03 +3.02025245986E-03 -5.22785536713E-03 +8.54238127819E-01
1.45000000000E+09 +1.80853481658E-01 +7.93539839711E-01 +1.26893848025E-03 +3.15219891982E-03 +1.51725571420E-03 +3.13120192696E-03 +2.66022380727E-02 +8.39515383598E-01
1.45500000000E+09 +2.06564803245E-01 +7.72877207698E-01 +1.66941205562E-03 +3.60892842707E-03 +2.04119739561E-03 +3.51555597002E-03 +5.94218230343E-02 +8.21651316972E-01
1.46000000000E+09 +2.34656248483E-01 +7.48007240154E-01 +2.57805103780E-03 +4.12279351105E-03 +2.91004568527E-03 +3.65687757527E-03 +9.41853415386E-02 +8.00686708002E-01
1.46500000000E+09 +2.64821460183E-01 +7.18621255501E-01 +3.88312131568E-03 +4.21450359028E-03 +3.82554024967E-03 +3.65027110554E-03 +1.30757122250E-01 +7.74155214800E-01
1.47000000000E+09 +2.96326835982E-01 +6.83896243841E-01 +5.47897006921E-03 +3.94600767574E-03 +5.02367318861E-03 +3.54121943509E-03 +1.68212388107E-01 +7.40501087282E-01
1.47500000000E+09 +3.27463863012E-01 +6.43257343368E-01 +6.75517713119E-03 +2.89424208938E-03 +6.29455696486E-03 +3.02069048787E-03 +2.05312630679E-01 +6.99452644008E-01
1.48000000000E+09 +3.55990857903E-01 +5.96066023835E-01 +7.72853861881E-03 +2.01810380345E-03 +7.75582091329E-03 +2.23312057802E-03 +2.41672266383E-01 +6.50215420627E-01
1.48500000000E+09 +3.79744307348E-01 +5.42647592348E-01 +8.98792080777E-03 +8.25166686175E-04 +9.22526477562E-03 +7.48891210771E-04 +2.76037298556E-01 +5.91927330602E-01
1.49000000000E+09 +3.97486538657E-01 +4.82784215250E-01 +1.05336663362E-02 -9.72124543111E-04 +1.05061096167E-02 -1.46579096804E-03 +3.05810017271E-01 +5.22509484117E-01
1.49500000000E+09 +4.07968435335E-01 +4.16169929003E-01 +1.14723425914E-02 -3.60138410794E-03 +1.08436803394E-02 -3.93580318009E-03 +3.24625737850E-01 +4.40954101952E-01
1.50000000000E+09 +4.08873815760E-01 +3.40521943632E-01 +1.21884895944E-02 -6.87423735440E-03 +1.15067033301E-02 -6.50591714018E-03 +3.28993413892E-01 +3.51841960656E-01
1.50500000000E+09 +3.97422376663E-01 +2.57692871673E-01 +1.12835714786E-02 -1.16948880938E-02 +1.11786797045E-02 -1.08359613724E-02 +3.18205395052E-01 +2.55390943278E-01
1.51000000000E+09 +3.69977101697E-01 +1.68419161400E-01 +8.50145022496E-03 -1.61080632815E-02 +9.03790863944E-03 -1.56055448760E-02 +2.87159986513E-01 +1.53926579035E-01
1.51500000000E+09 +3.23666020665E-01 +7.88855092641E-02 +3.14253081778E-03 -1.95325239884E-02 +3.65469394940E-03 -1.95873758743E-02 +2.31436142042E-01 +5.50612952458E-02
1.52000000000E+09 +2.58189924721E-01 -5.19064301405E-03 -3.52299848160E-03 -2.03444467086E-02 -3.32091502817E-03 -2.06489791975E-02 +1.54312325756E-01 -3.17807326254E-02
1.52500000000E+09 +1.73335688613E-01 -7.68724070069E-02 -9.24556924887E-03 -1.78096843192E-02 -9.26823290492E-03 -1.80202018529E-02 +5.79619117331E-02 -1.00541146445E-01
1.53000000000E+09 +7.43708166698E-02 -1.27501432869E-01 -1.30248767912E-02 -1.48998424902E-02 -1.31712064014E-02 -1.50669290009E-02 -5.04489007086E-02 -1.45902482878E-01
1.53500000000E+09 -3.22279204195E-02 -1.54375340716E-01 -1.69235631127E-02 -1.13785249996E-02 -1.70359767119E-02 -1.13934080261E-02 -1.64036572624E-01 -1.64807242622E-01
1.54000000000E+09 -1.40733340568E-01 -1.57566488253E-01 -1.96664453085E-02 -6.04375516569E-03 -1.95389574817E-02 -6.00058322901E-03 -2.73778721268E-01 -1.60114482047E-01
1.54500000000E+09 -2.45628466472E-01 -1.36437470968E-01 -1.99941643955E-02 +3.78130168090E-04 -1.97979982176E-02 +1.36067588325E-05 -3.71961850222E-01 -1.34087114666E-01
1.55000000000E+09 -3.40513213496E-01 -9.49019418948E-02 -1.78063914521E-02 +5.56467210906E-03 -1.79841918053E-02 +4.94795237449E-03 -4.56294002301E-01 -9.57402408425E-02
1.55500000000E+09 -4.19094465522E-01 -3.87204515851E-02 -1.47919170071E-02 +9.45529882303E-03 -1.55053095606E-02 +9.09647198985E-03 -5.26113420245E-01 -4.79628049580E-02
1.56000000000E+09 -4.80439899354E-01 +2.20680653436E-02 -1.05003727142E-02 +1.21573575726E-02 -1.13516250055E-02 +1.23722200907E-02 -5.82661479288E-01 +5.24650975666E-03
1.56500000000E+09 -5.28525203373E-01 +8.20161261398E-02 -5.97567575900E-03 +1.25365881483E-02 -6.49819136334E-03 +1.32231737354E-02 -6.26113954835E-01 +6.03132236666E-02
1.57000000000E+09 -5.66944977643E-01 +1.40325713285E-01 -3.03860129611E-03 +1.13727719728E-02 -3.08041786368E-03 +1.21305845329E-02 -6.59418241437E-01 +1.15258134462E-01
