# Hz S RI R 50
! CMT, C1220, 16058040, 17.2.0/1
! Date: 14/08/2018 11:50:58
! Data: Format (Calibration Info)
! Freq                      S11: Re/Im (F2)                       S21: Re/Im (F2)                       S12: Re/Im (F2)                       S22: Re/Im (F2)            
1.00000000000E+09 -6.48636031552E-01 +7.14771011590E-01 +1.45174908131E-05 -1.32343805550E-06 -2.76393929892E-05 -2.58272942330E-05 -7.55459041453E-01 +6.23876155161E-01
1.00500000000E+09 -6.41651787998E-01 +7.19925446628E-01 -7.51685683446E-06 -9.51066603754E-06 -8.10139812927E-06 -5.07412155378E-06 -7.51704386590E-01 +6.27794300869E-01
1.01000000000E+09 -6.35540858035E-01 +7.24508052184E-01 +2.13787438963E-06 +4.72704816557E-06 +8.13615987132E-06 +4.30404983645E-05 -7.48294800426E-01 +6.31772259872E-01
1.01500000000E+09 -6.30662424803E-01 +7.28176936720E-01 -3.17954943755E-05 +2.93947236176E-05 +1.81685741693E-05 +5.37460833658E-05 -7.44802494713E-01 +6.35559302979E-01
1.02000000000E+09 -6.26984560461E-01 +7.31400099125E-01 -1.65499392580E-05 +1.97517497230E-05 -1.16092725791E-05 -8.11614837498E-06 -7.41467236084E-01 +6.39182481430E-01
1.02500000000E+09 -6.24450209472E-01 +7.33959949969E-01 +4.60168700920E-05 +4.59787957021E-05 +4.82650178833E-05 +8.61178885808E-07 -7.38330815548E-01 +6.42906351811E-01
1.03000000000E+09 -6.22283151876E-01 +7.36347999425E-01 -2.51301434278E-05 -3.37690167454E-05 +1.36608739343E-05 +1.58764860625E-05 -7.34932365205E-01 +6.46820523484E-01
1.03500000000E+09 -6.19309285602E-01 +7.38532808872E-01 -1.45744334181E-05 +1.55732025239E-05 -4.54803058009E-05 -1.17424102233E-05 -7.31301877423E-01 +6.50680541940E-01
1.04000000000E+09 -6.15324902505E-01 +7.41481408511E-01 -2.57173956264E-05 +1.11714794245E-05 -9.25245185932E-06 -3.37100472219E-05 -7.27745425750E-01 +6.54254523915E-01
1.04500000000E+09 -6.09618498548E-01 +7.44899005490E-01 -2.29304503722E-05 -2.11836471939E-05 -4.52200232571E-06 +2.12322619098E-05 -7.24119966072E-01 +6.57844130700E-01
1.05000000000E+09 -6.02698327048E-01 +7.49063175234E-01 +2.40499193255E-05 +3.22949007364E-05 -1.68560233343E-06 +1.17409256920E-05 -7.20515047000E-01 +6.61222052040E-01
1.05500000000E+09 -5.94518992412E-01 +7.53808782077E-01 -1.89939065467E-05 -8.24996276807E-06 -3.64527410528E-05 +1.23670080900E-05 -7.17445300439E-01 +6.64825470807E-01
1.06000000000E+09 -5.86021522994E-01 +7.58841625307E-01 +1.05925622104E-05 -1.08189112039E-05 +2.00434915214E-05 +1.13823241463E-05 -7.14049983735E-01 +6.68630127313E-01
1.06500000000E+09 -5.77880893711E-01 +7.63951792273E-01 +3.69493949077E-05 +3.61282035197E-05 +2.84963739078E-05 +3.49740265113E-05 -7.10450406217E-01 +6.72321745420E-01
1.07000000000E+09 -5.70730838000E-01 +7.68252446863E-01 +2.73601779125E-05 +6.31533692061E-05 +2.11138552815E-05 +3.18562381668E-05 -7.06381773965E-01 +6.76034850715E-01
1.07500000000E+09 -5.65097602199E-01 +7.72052216225E-01 +6.13184933014E-06 +2.67404081253E-05 -1.18211472382E-05 +3.95774741968E-05 -7.02193005748E-01 +6.79862132769E-01
1.08000000000E+09 -5.61362541690E-01 +7.74961694735E-01 +8.28983877249E-06 +2.80219804954E-05 +1.50148637060E-05 +3.50799029297E-05 -6.98128527540E-01 +6.83677986418E-01
1.08500000000E+09 -5.58618454263E-01 +7.77242616501E-01 +2.89974931536E-05 +4.26964177640E-05 +3.48707620433E-06 +2.90433028064E-05 -6.94098766570E-01 +6.87369664776E-01
1.09000000000E+09 -5.56610658918E-01 +7.79057114640E-01 +5.08018032084E-05 +2.05869583259E-05 +5.17410929749E-05 -1.20722953734E-05 -6.90326018082E-01 +6.91216821086E-01
1.09500000000E+09 -5.54643053010E-01 +7.80800621944E-01 +1.62767934295E-05 +4.47868383208E-05 +1.23825768684E-05 +8.17452063106E-06 -6.86462251992E-01 +6.95327365038E-01
1.10000000000E+09 -5.51626862522E-01 +7.82727038269E-01 +4.56439216883E-05 +1.36191265277E-05 +3.07512334543E-05 -2.09220551810E-05 -6.82467612327E-01 +6.99148658024E-01
1.10500000000E+09 -5.47331941973E-01 +7.85300030995E-01 +2.46159469423E-05 -1.68262444777E-05 +9.01026081781E-05 +5.53171892126E-05 -6.78194790942E-01 +7.02641709739E-01
1.11000000000E+09 -5.41433844191E-01 +7.88473259076E-01 +2.00676569689E-05 +3.42172796954E-05 +1.43647938114E-05 -3.08246082929E-05 -6.73928336579E-01 +7.05977588997E-01
1.11500000000E+09 -5.34395358135E-01 +7.92281663229E-01 +1.68115795946E-05 +1.91676077300E-05 +1.85098048701E-05 -2.26818346152E-05 -6.69867248354E-01 +7.09633427171E-01
1.12000000000E+09 -5.26578125852E-01 +7.96347525405E-01 +2.22726196254E-05 -3.77073325132E-05 +1.64996038732E-05 +5.91842794492E-06 -6.65803015806E-01 +7.13116055957E-01
1.12500000000E+09 -5.18660268731E-01 +8.00565628126E-01 +3.13027544899E-05 +2.51547683083E-06 +1.48698086058E-05 +2.97356681380E-06 -6.61504187703E-01 +7.17350629656E-01
1.13000000000E+09 -5.11676993590E-01 +8.04095337828E-01 +3.04323217183E-08 -4.95961805690E-06 +8.45295344096E-05 -1.84114560900E-06 -6.57296485034E-01 +7.20945498452E-01
1.13500000000E+09 -5.05511056607E-01 +8.06919826085E-01 +6.08100591964E-06 -1.89996269967E-05 +3.15607426356E-06 -4.54961707838E-05 -6.52711063713E-01 +7.24770541577E-01
1.14000000000E+09 -5.00266958403E-01 +8.09470093736E-01 +3.22127868400E-06 -3.16464664792E-06 -9.82161648496E-06 -1.66664933237E-05 -6.48107560666E-01 +7.28229178143E-01
1.14500000000E+09 -4.96361488536E-01 +8.11131581632E-01 +1.93056095633E-05 -6.22804432472E-06 -1.66143369062E-05 -6.06860815449E-06 -6.43422865928E-01 +7.31627993168E-01
1.15000000000E+09 -4.92561248098E-01 +8.12604110384E-01 +1.20420292464E-05 +1.48902198767E-05 +1.93451197981E-05 +1.42518534510E-05 -6.38836575546E-01 +7.35466033319E-01
1.15500000000E+09 -4.88557687684E-01 +8.14338322540E-01 +1.25180305962E-05 -1.25603970379E-05 +1.35615556854E-05 -2.99762906315E-05 -6.33935663846E-01 +7.39332695466E-01
1.16000000000E+09 -4.83596600821E-01 +8.16069451763E-01 +4.42396125098E-06 -1.71707610889E-05 +3.59530789117E-05 -1.19864637342E-05 -6.29071692911E-01 +7.43320266231E-01
1.16500000000E+09 -4.77617532410E-01 +8.18797758641E-01 +3.44183871016E-05 -1.74313364185E-05 +4.71013650490E-05 -6.40627356113E-06 -6.24123319239E-01 +7.46912069825E-01
1.17000000000E+09 -4.70509135060E-01 +8.21834718731E-01 +1.13649107917E-05 -1.34637608054E-05 +7.52481492046E-05 -4.73065226783E-05 -6.18717814561E-01 +7.50331232880E-01
1.17500000000E+09 -4.62433278273E-01 +8.25394105246E-01 +2.04301376339E-05 -1.11410850746E-05 +1.76689422877E-05 -5.45811099458E-05 -6.12782419776E-01 +7.53536689937E-01
1.18000000000E+09 -4.54194238346E-01 +8.29021588418E-01 +2.64741269290E-05 +9.54140864296E-06 +4.95072878827E-05 -3.69633219814E-05 -6.07295173793E-01 +7.56686939521E-01
1.18500000000E+09 -4.46204931142E-01 +8.32426038827E-01 +1.42516053314E-05 -1.91633206068E-05 +4.10051086213E-05 -9.87264919580E-05 -6.01290120105E-01 +7.59812742503E-01
1.19000000000E+09 -4.38851521830E-01 +8.35164817098E-01 +7.57727492182E-05 -8.65099654084E-05 +8.54514330477E-05 -9.17393647635E-05 -5.94997955668E-01 +7.62461179847E-01
1.19500000000E+09 -4.32587207569E-01 +8.37039030368E-01 +2.42323983469E-05 -1.31478217118E-04 +2.55116927369E-05 -9.78045491629E-05 -5.88961020833E-01 +7.63618996133E-01
1.20000000000E+09 -4.27439989414E-01 +8.37955410159E-01 -6.18411111289E-05 -1.44458363815E-04 -9.86290077739E-05 -9.62904565128E-05 -5.84548278889E-01 +7.63910801503E-01
1.20500000000E+09 -4.22926681593E-01 +8.39017484264E-01 -9.88598787507E-05 -8.67323031785E-05 -4.43823879572E-05 -9.06466863717E-05 -5.82116979162E-01 +7.64648546615E-01
1.21000000000E+09 -4.18211528870E-01 +8.40109761707E-01 -9.50333585512E-05 -3.21077718461E-05 -1.30764692917E-04 +2.09633055205E-05 -5.80402868348E-01 +7.67689857590E-01
1.21500000000E+09 -4.12476229307E-01 +8.41558074105E-01 -4.10281283568E-05 -1.21411315132E-05 -1.01635571082E-04 +3.44333077113E-05 -5.77698622206E-01 +7.72227625983E-01
1.22000000000E+09 -4.05381287361E-01 +8.43417090765E-01 -6.85315325996E-05 +4.60695484499E-05 -7.33087706196E-05 -1.61690019889E-05 -5.73487073734E-01 +7.77647439907E-01
1.22500000000E+09 -3.97162622521E-01 +8.45858738449E-01 -2.18776394127E-05 +1.33370649823E-05 -3.77374375883E-05 +4.50551070418E-05 -5.68496013772E-01 +7.82645101967E-01
1.23000000000E+09 -3.87652256571E-01 +8.49014283636E-01 -2.97636854662E-05 -2.11814784021E-05 -1.97655622296E-06 +2.86384884952E-05 -5.62698394163E-01 +7.87392584261E-01
1.23500000000E+09 -3.77854558106E-01 +8.52604581319E-01 -7.14702993718E-06 -2.29531108859E-05 -9.70807975999E-06 +1.07293893305E-05 -5.56811118137E-01 +7.91840631587E-01
1.24000000000E+09 -3.68217724873E-01 +8.56325446752E-01 -1.14229215657E-05 -3.36435653766E-05 -4.14361017062E-05 -4.98307268792E-05 -5.50819905882E-01 +7.95697413910E-01
1.24500000000E+09 -3.59768723904E-01 +8.60261176216E-01 -7.35783172945E-05 -1.99140087434E-05 -6.21036477166E-05 -3.49604241990E-06 -5.44412773586E-01 +7.99569373564E-01
1.25000000000E+09 -3.51839054594E-01 +8.63388723993E-01 -4.20584929336E-05 -7.38841744051E-06 -6.05369851763E-05 +7.26707174551E-06 -5.37822061073E-01 +8.03885193014E-01
1.25500000000E+09 -3.45076377872E-01 +8.65581453893E-01 -4.64851725972E-05 +3.66671278733E-05 -8.04155416200E-05 +1.01571700179E-05 -5.30966553005E-01 +8.07894788672E-01
1.26000000000E+09 -3.39135736682E-01 +8.66986427470E-01 -6.10301853841E-05 +4.73277545422E-06 -6.81466328140E-05 +1.36645457794E-05 -5.24265741897E-01 +8.12154575715E-01
1.26500000000E+09 -3.33347343780E-01 +8.67570708386E-01 -6.45828257495E-05 +1.31277919455E-05 -6.99771546681E-05 +3.70163095032E-06 -5.17207979981E-01 +8.16066264122E-01
1.27000000000E+09 -3.26982649405E-01 +8.68060851747E-01 -5.93691667086E-05 +2.28829301640E-05 -6.40198389042E-05 +2.60174190432E-05 -5.10385160762E-01 +8.19978628494E-01
1.27500000000E+09 -3.19381607673E-01 +8.68720894541E-01 -4.38159756962E-05 -2.97800953355E-05 -1.41851499861E-05 -1.46979944142E-05 -5.03262748879E-01 +8.23437479173E-01
1.28000000000E+09 -3.09981633195E-01 +8.69776075049E-01 -7.77323303248E-05 +9.85720800992E-06 -1.13889367840E-04 +2.63969770980E-06 -4.96416940722E-01 +8.26894127280E-01
1.28500000000E+09 -2.98511649479E-01 +8.71400947150E-01 -6.20908149322E-05 +3.19804751886E-05 -6.26029571791E-05 +2.98484610189E-05 -4.88969093392E-01 +8.30676632850E-01
1.29000000000E+09 -2.86416895791E-01 +8.73607397334E-01 -7.09634182123E-05 -1.60110863276E-05 -8.14147128018E-05 -1.57177716414E-05 -4.81316208527E-01 +8.34410618688E-01
1.29500000000E+09 -2.73829625162E-01 +8.76555374518E-01 -4.35425529654E-05 +5.64177503672E-05 -5.15714741226E-05 +4.09768002196E-06 -4.73365887173E-01 +8.37963848430E-01
1.30000000000E+09 -2.61774130007E-01 +8.79955719098E-01 -5.67406952799E-05 +3.02676262286E-05 -8.90004181189E-05 +5.42887010287E-05 -4.65541907562E-01 +8.41590615978E-01
1.30500000000E+09 -2.51028346042E-01 +8.83203393159E-01 -9.08372376641E-05 +4.17341163232E-05 -1.01057896625E-04 +8.78108269991E-05 -4.57283288914E-01 +8.44943673024E-01
1.31000000000E+09 -2.41745233733E-01 +8.85911251854E-01 -1.07558016535E-04 +1.03857194595E-04 -6.81686869989E-05 +7.60810819251E-05 -4.49012681984E-01 +8.48361795095E-01
1.31500000000E+09 -2.34368668290E-01 +8.87648057215E-01 -4.30391823238E-05 +1.07122015593E-04 -9.44610452391E-05 +7.54221069240E-05 -4.40181180778E-01 +8.51809245856E-01
1.32000000000E+09 -2.28255609442E-01 +8.88251197028E-01 -5.87959421806E-05 +1.07651957817E-04 -3.90956075214E-05 +8.16267318379E-05 -4.31010341043E-01 +8.55416747883E-01
1.32500000000E+09 -2.22620304066E-01 +8.88087488227E-01 -5.94852454572E-05 +1.27946309113E-04 -4.61047201629E-05 +1.48678870916E-04 -4.21270727873E-01 +8.58744196058E-01
1.33000000000E+09 -2.16206676956E-01 +8.87669323562E-01 -1.32460569059E-05 +1.47246074334E-04 -2.78788081533E-05 +1.53292746967E-04 -4.11664389497E-01 +8.62111432314E-01
1.33500000000E+09 -2.07934289992E-01 +8.86762649893E-01 -6.65493212093E-06 +1.51038003030E-04 +2.63956020706E-05 +1.18700449953E-04 -4.01560605340E-01 +8.65322656682E-01
1.34000000000E+09 -1.97333548332E-01 +8.86168532575E-01 -1.12359982578E-05 +1.34403709957E-04 -1.61585000289E-05 +1.00352344994E-04 -3.91361118273E-01 +8.68623432294E-01
1.34500000000E+09 -1.84160056019E-01 +8.85830297013E-01 -5.45971940642E-05 +1.13338689379E-04 -5.64717479730E-05 +1.20975745080E-04 -3.80616579584E-01 +8.71935203476E-01
1.35000000000E+09 -1.69060700485E-01 +8.86041678497E-01 +2.18802801061E-05 +1.90464754479E-04 +5.71909459890E-06 +1.58520843478E-04 -3.69428518219E-01 +8.75031162518E-01
1.35500000000E+09 -1.52668713460E-01 +8.86605589056E-01 +5.49795425799E-05 +1.64008457568E-04 +6.28108798950E-05 +1.67099224037E-04 -3.57787301546E-01 +8.77867484075E-01
1.36000000000E+09 -1.36148113493E-01 +8.87370897524E-01 +3.83668445940E-05 +2.14246364988E-04 +2.76794351260E-05 +1.69686480831E-04 -3.45829291180E-01 +8.80662528039E-01
1.36500000000E+09 -1.20400220644E-01 +8.88095968836E-01 +9.58726924612E-05 +2.30481954249E-04 +9.97645396370E-05 +2.12393644742E-04 -3.33558246530E-01 +8.83228043132E-01
1.37000000000E+09 -1.06372694767E-01 +8.88020695487E-01 +1.78390769443E-04 +2.30260933066E-04 +1.95214096630E-04 +3.05769712041E-04 -3.20786973083E-01 +8.85520108781E-01
1.37500000000E+09 -9.44118435196E-02 +8.87597757117E-01 +3.00351162190E-04 +1.31329101421E-04 +2.77973388101E-04 +1.84678141987E-04 -3.07080185046E-01 +8.87801435436E-01
1.38000000000E+09 -8.36911115062E-02 +8.86420582239E-01 +1.86226127181E-04 +3.56996226659E-05 +2.20691522918E-04 +9.05785780278E-05 -2.92584400308E-01 +8.89849250510E-01
1.38500000000E+09 -7.29323686078E-02 +8.84631294000E-01 +2.14721500587E-04 +1.06134747671E-04 +1.77785826459E-04 +1.83884191689E-04 -2.77277208275E-01 +8.91697476350E-01
1.39000000000E+09 -6.15070208140E-02 +8.81806860196E-01 +2.16843172233E-04 +1.30182051392E-04 +2.79721483021E-04 +1.37908400085E-04 -2.61441596263E-01 +8.93092716554E-01
1.39500000000E+09 -4.79617350341E-02 +8.78273829541E-01 +2.81681732082E-04 +1.19598472833E-04 +2.87569108992E-04 +1.35653100043E-04 -2.44599052799E-01 +8.94018964050E-01
1.40000000000E+09 -3.18217641500E-02 +8.73668285167E-01 +4.01324276131E-04 +1.32176074515E-04 +4.38648164786E-04 +1.01454591789E-04 -2.26775462636E-01 +8.94601742542E-01
1.40500000000E+09 -1.34974730653E-02 +8.68611079365E-01 +5.08119644831E-04 +1.52481049037E-05 +5.03740307527E-04 -4.02624731806E-05 -2.07999204674E-01 +8.94446152646E-01
1.41000000000E+09 +6.94189578904E-03 +8.63295789939E-01 +4.56772378212E-04 -1.75894659428E-04 +4.37722444250E-04 -1.74447351005E-04 -1.88001192984E-01 +8.93749881142E-01
1.41500000000E+09 +2.87390644576E-02 +8.57507322836E-01 +3.75912824128E-04 -1.81685094540E-04 +4.16490374082E-04 -1.91708090806E-04 -1.66527736175E-01 +8.92321636271E-01
1.42000000000E+09 +5.13890557194E-02 +8.51519562381E-01 +4.27666808336E-04 -3.01987882004E-04 +4.28190138066E-04 -3.38922190683E-04 -1.43732612428E-01 +8.89722820494E-01
1.42500000000E+09 +7.38701323079E-02 +8.44215910745E-01 +2.52489576272E-04 -3.19927502207E-04 +2.90026007368E-04 -4.17248521564E-04 -1.20323151854E-01 +8.86299881007E-01
1.43000000000E+09 +9.52812147294E-02 +8.35381994685E-01 +3.33734663930E-04 -2.88122527376E-04 +2.86910566541E-04 -3.07002751336E-04 -9.52074060908E-02 +8.81772335045E-01
1.43500000000E+09 +1.15855460385E-01 +8.24933708200E-01 +3.85498170758E-04 -4.25901491448E-04 +3.17616692994E-04 -4.54454608649E-04 -6.87958235623E-02 +8.75305459677E-01
1.44000000000E+09 +1.36148475461E-01 +8.12562597713E-01 +2.92149045350E-04 -5.60750186970E-04 +3.09431184084E-04 -5.78329132298E-04 -4.08968002902E-02 +8.66933681384E-01
1.44500000000E+09 +1.57140553896E-01 +7.97928604120E-01 +1.80238087958E-04 -7.93016491300E-04 +1.54011597261E-04 -7.95995275906E-04 -1.07761025471E-02 +8.55825029736E-01
1.45000000000E+09 +1.80143512390E-01 +7.79993989117E-01 -1.30191497755E-04 -7.91510627459E-04 -1.70462686686E-04 -7.92920898817E-04 +2.11847382482E-02 +8.41687345033E-01
1.45500000000E+09 +2.04693665582E-01 +7.58881148579E-01 -3.02829304285E-04 -7.11020541203E-04 -4.08658377220E-04 -6.23209961393E-04 +5.48088123892E-02 +8.24298707583E-01
1.46000000000E+09 +2.31944725734E-01 +7.34381376937E-01 -4.62862545572E-04 -5.72269901266E-04 -5.01061753456E-04 -4.92929324675E-04 +8.97146474467E-02 +8.03113943466E-01
1.46500000000E+09 +2.61341890531E-01 +7.05674841423E-01 -4.86684539423E-04 -2.70130508639E-04 -4.37870823530E-04 -2.41202809830E-04 +1.26220587531E-01 +7.76884547067E-01
1.47000000000E+09 +2.91519479067E-01 +6.72721225447E-01 -5.74479024030E-05 -2.96489093191E-04 -3.56283340246E-05 -2.78633396195E-04 +1.63963726526E-01 +7.44099898258E-01
1.47500000000E+09 +3.21623106900E-01 +6.34925406735E-01 -2.30305690185E-04 -7.33416822197E-04 -2.17262492680E-04 -6.99324816128E-04 +2.02534215225E-01 +7.03705513089E-01
1.48000000000E+09 +3.49056676342E-01 +5.91265618499E-01 -6.47351714629E-04 -7.11227383291E-04 -6.76424927794E-04 -7.27384566833E-04 +2.40442399111E-01 +6.54419034423E-01
1.48500000000E+09 +3.72376429031E-01 +5.42000405607E-01 -7.22528614062E-04 -5.48898536162E-04 -6.64697078279E-04 -5.30486580367E-04 +2.75688747077E-01 +5.95248231340E-01
1.49000000000E+09 +3.90866092721E-01 +4.85461236750E-01 -1.06888470834E-03 -4.90546839490E-04 -1.04173319346E-03 -4.62043228385E-04 +3.05286970973E-01 +5.25756205907E-01
1.49500000000E+09 +4.02492527688E-01 +4.21134552039E-01 -1.21386361656E-03 -3.20850720407E-04 -1.18658742952E-03 -2.72344964699E-04 +3.26402873772E-01 +4.45162309552E-01
1.50000000000E+09 +4.05977222694E-01 +3.47081808637E-01 -1.43280053584E-03 +2.80329348161E-04 -1.30088096050E-03 +2.40464315888E-04 +3.33858107245E-01 +3.53466171687E-01
1.50500000000E+09 +3.96793642453E-01 +2.63789683998E-01 -1.04182476921E-03 +6.46975438784E-04 -9.81943843310E-04 +5.65007804982E-04 +3.22525249921E-01 +2.53520826142E-01
1.51000000000E+09 +3.72395761964E-01 +1.74669864868E-01 -8.93884095951E-04 +3.92602022969E-04 -8.86266189703E-04 +2.93576587094E-04 +2.89590142208E-01 +1.51146698678E-01
1.51500000000E+09 +3.30750578012E-01 +8.33253397316E-02 -1.27461613971E-03 +7.65564484380E-04 -1.30180045699E-03 +6.74357496867E-04 +2.34806057414E-01 +5.18533894022E-02
1.52000000000E+09 +2.67778850832E-01 -3.52739200039E-03 -1.11692773158E-03 +1.04429315750E-03 -1.15121729127E-03 +1.08413684016E-03 +1.56546715604E-01 -3.72822408322E-02
1.52500000000E+09 +1.87469244912E-01 -7.62325567671E-02 -8.70986712607E-04 +1.71278743345E-03 -8.55477959858E-04 +1.72660833901E-03 +5.83155450368E-02 -1.06260902419E-01
1.53000000000E+09 +9.14702793633E-02 -1.31514896404E-01 -3.60508140692E-04 +2.07910788748E-03 -3.19924654937E-04 +2.11812879501E-03 -4.96045417314E-02 -1.51007329533E-01
1.53500000000E+09 -1.52537157779E-02 -1.63149320044E-01 +1.09263163395E-03 +2.03009598012E-03 +1.08785598943E-03 +2.00445244683E-03 -1.62648348601E-01 -1.72746377931E-01
1.54000000000E+09 -1.26642347052E-01 -1.67256501723E-01 +9.94766474486E-04 +1.01318924723E-03 +1.03477687043E-03 +1.07087368068E-03 -2.74921753352E-01 -1.69063176494E-01
1.54500000000E+09 -2.33136631352E-01 -1.46235744355E-01 +9.82122495947E-04 +9.18729345804E-04 +9.38900998259E-04 +9.69362246222E-04 -3.75190509325E-01 -1.43876341179E-01
1.55000000000E+09 -3.29148139395E-01 -1.05937923439E-01 +1.15867945828E-03 +5.10248954234E-04 +1.15538582617E-03 +5.99385087664E-04 -4.61557553948E-01 -1.04663894638E-01
1.55500000000E+09 -4.10754083986E-01 -5.23265196349E-02 +8.70993501081E-04 +4.15131282232E-04 +8.91778318010E-04 +4.26123775584E-04 -5.32759474214E-01 -5.56212498182E-02
1.56000000000E+09 -4.76793768562E-01 +6.69353804553E-03 +1.16560516873E-03 +6.96243970596E-04 +1.22313893164E-03 +7.44417387122E-04 -5.89314439898E-01 -1.41375661456E-03
1.56500000000E+09 -5.29205721267E-01 +6.70703687160E-02 +1.64460622138E-03 +1.05501834220E-04 +1.76891804205E-03 +1.38237143287E-04 -6.33388658849E-01 +5.47828894177E-02
1.57000000000E+09 -5.69248414969E-01 +1.25917040511E-01 +1.69743776472E-03 -7.98895333546E-04 +1.77954072897E-03 -8.63134521697E-04 -6.66619958673E-01 +1.10042202809E-01
