# Hz S RI R 50
! CMT, C1220, 16058040, 17.2.0/1
! Date: 14/08/2018 11:58:41
! Data: Format (Calibration Info)
! Freq                      S11: Re/Im (F2)                       S21: Re/Im (F2)                       S12: Re/Im (F2)                       S22: Re/Im (F2)            
1.00000000000E+09 -6.44786273931E-01 +7.12310131191E-01 -2.70452159756E-06 -2.44872168328E-05 -1.33974262871E-05 -1.33374980915E-05 -7.50008739989E-01 +6.26885955607E-01
1.00500000000E+09 -6.37636011304E-01 +7.17228378903E-01 -5.85510999467E-05 +1.70038300018E-05 +1.62880932691E-05 -2.08511546528E-05 -7.46588970165E-01 +6.30855223149E-01
1.01000000000E+09 -6.31567636493E-01 +7.21647711109E-01 -2.46355361693E-05 +2.47645532868E-06 -5.13888469100E-06 +1.05296921653E-05 -7.42926189129E-01 +6.34632042276E-01
1.01500000000E+09 -6.27075986976E-01 +7.25410570493E-01 -2.83285727841E-05 +1.81059032179E-05 -9.51256001369E-06 +3.04873913437E-05 -7.39554203518E-01 +6.38408709684E-01
1.02000000000E+09 -6.24034322086E-01 +7.28547612146E-01 -3.49948180329E-05 +2.51727537220E-05 -3.58740459730E-05 -1.28154577567E-05 -7.35947872582E-01 +6.41971031159E-01
1.02500000000E+09 -6.21987503015E-01 +7.31150850095E-01 -2.23428485020E-05 +5.31687699023E-05 +4.22110438518E-05 -2.41085349327E-05 -7.32922703620E-01 +6.45618935985E-01
1.03000000000E+09 -6.20420951488E-01 +7.33550279848E-01 +3.70914863776E-05 -7.64817996862E-06 -4.57236279379E-05 +1.63189321454E-05 -7.29511284947E-01 +6.49417830430E-01
1.03500000000E+09 -6.18032835563E-01 +7.36017505002E-01 -4.28055836280E-05 -2.92084559283E-06 -3.40621401739E-06 +2.24967146351E-05 -7.25923271839E-01 +6.53449346873E-01
1.04000000000E+09 -6.14515559509E-01 +7.38871360063E-01 -6.12521414159E-05 -1.46538569700E-05 -3.63233619897E-05 +3.15913863378E-05 -7.21975386296E-01 +6.57110843537E-01
1.04500000000E+09 -6.09405339722E-01 +7.42196604117E-01 -3.62999040422E-05 +1.24009130642E-05 +4.92899645716E-06 +6.80626543172E-05 -7.18385112790E-01 +6.60605656069E-01
1.05000000000E+09 -6.02595265376E-01 +7.46293444128E-01 -6.06968895183E-05 +5.95793151296E-05 -7.11602930786E-05 +2.21106412942E-05 -7.14974404503E-01 +6.63952437256E-01
1.05500000000E+09 -5.94525350268E-01 +7.50852958678E-01 +1.45379001097E-05 +1.61548998688E-05 -6.58019139426E-05 +6.02995254242E-05 -7.11611006797E-01 +6.67691366914E-01
1.06000000000E+09 -5.86201078579E-01 +7.55748259944E-01 -1.70392589481E-05 +7.66791934595E-05 -5.56711089998E-05 +4.56896923784E-05 -7.08385937072E-01 +6.71259193265E-01
1.06500000000E+09 -5.78181652730E-01 +7.60565034174E-01 -6.42948039669E-06 +3.17238297470E-05 -4.64360488016E-05 +4.25080981140E-05 -7.04633580251E-01 +6.75020470475E-01
1.07000000000E+09 -5.71142936039E-01 +7.64589739537E-01 -5.10341480786E-05 +7.14374241661E-05 -2.34469063484E-06 +3.60988881588E-05 -7.00719055067E-01 +6.78758547966E-01
1.07500000000E+09 -5.65824845595E-01 +7.68446477037E-01 -2.06159427881E-05 +9.31935747858E-05 -3.71528885434E-05 +5.29299574678E-05 -6.96342164600E-01 +6.82347847099E-01
1.08000000000E+09 -5.62042799915E-01 +7.71467116926E-01 +6.64988806168E-06 +6.52196261812E-05 -3.28040282564E-05 +6.41743192789E-05 -6.92294426869E-01 +6.86047930784E-01
1.08500000000E+09 -5.59629772795E-01 +7.73946207139E-01 -4.28945838896E-05 +1.06863981419E-04 -2.17329402685E-05 +7.22565878736E-05 -6.88247346017E-01 +6.89877644513E-01
1.09000000000E+09 -5.57558900517E-01 +7.76086942245E-01 -1.29367373631E-06 +3.45519382516E-05 +7.25997649752E-05 +6.34765834363E-05 -6.84359406160E-01 +6.93797093645E-01
1.09500000000E+09 -5.55725150496E-01 +7.77972846587E-01 +1.38257305707E-05 +5.74780270538E-05 +1.58891554068E-05 +5.71089550347E-05 -6.80519778432E-01 +6.97770436118E-01
1.10000000000E+09 -5.52413715833E-01 +7.80210141500E-01 +3.85546694982E-05 +3.91477777135E-05 +4.94269864846E-05 +6.77600925789E-05 -6.76548823525E-01 +7.01512706999E-01
1.10500000000E+09 -5.47877638251E-01 +7.82980486193E-01 -9.81814258352E-06 +7.20631888687E-05 +2.29152092647E-06 +2.75261056768E-05 -6.72375403013E-01 +7.04954037542E-01
1.11000000000E+09 -5.41838113967E-01 +7.86163346471E-01 +2.60879384496E-05 +6.07738840861E-05 -7.56299614464E-06 +9.07577275655E-05 -6.68041421139E-01 +7.08421161442E-01
1.11500000000E+09 -5.34292181785E-01 +7.90047084425E-01 +2.97323578491E-05 +1.00218697158E-04 +4.14475955054E-05 +9.08523242398E-05 -6.63955428862E-01 +7.11861254318E-01
1.12000000000E+09 -5.26490228667E-01 +7.93875689735E-01 +6.09119494203E-05 +6.46234520931E-05 +7.30959908590E-05 +1.22636791003E-04 -6.59812968321E-01 +7.15485079007E-01
1.12500000000E+09 -5.18374293238E-01 +7.97986047364E-01 +3.56695815528E-05 +4.34644694352E-05 +1.13194659901E-04 +3.92876244542E-05 -6.55506895527E-01 +7.19367495661E-01
1.13000000000E+09 -5.11369267342E-01 +8.01489144109E-01 +6.96775049821E-05 +6.51148051135E-05 +3.58878903377E-05 +4.56357593314E-05 -6.51409754515E-01 +7.23229120503E-01
1.13500000000E+09 -5.05422047997E-01 +8.04461523413E-01 +5.44905715876E-05 +5.02156058133E-05 +5.90671861939E-05 +6.96921502903E-05 -6.46696114158E-01 +7.26941657853E-01
1.14000000000E+09 -5.00658432064E-01 +8.07148699594E-01 +5.23629924714E-05 +8.46179830037E-05 +6.44697260304E-05 +7.17857011675E-05 -6.42037397206E-01 +7.30333685292E-01
1.14500000000E+09 -4.96926036842E-01 +8.09220371788E-01 +5.36215955082E-05 +3.09953388797E-05 +5.05504455220E-05 +4.91040831804E-05 -6.37373179152E-01 +7.33686459020E-01
1.15000000000E+09 -4.93544569568E-01 +8.11006667255E-01 +9.94152602601E-05 +6.43782412845E-05 +8.26862066233E-05 -1.74996845059E-05 -6.32651566406E-01 +7.37423286795E-01
1.15500000000E+09 -4.89823601625E-01 +8.13012550219E-01 +8.81427221735E-05 +4.80662738064E-05 +4.89562116743E-05 +8.71508706219E-05 -6.27761570153E-01 +7.41254745998E-01
1.16000000000E+09 -4.84974088415E-01 +8.15103028626E-01 +1.07826327407E-04 +6.56314845715E-05 +1.47725470220E-04 -1.55978603973E-05 -6.22994039634E-01 +7.45116980878E-01
1.16500000000E+09 -4.79126230134E-01 +8.17928280991E-01 +1.05193952016E-04 +3.49436662186E-05 +1.22998936102E-04 +3.69006561166E-05 -6.17840535509E-01 +7.48700820709E-01
1.17000000000E+09 -4.71804081777E-01 +8.21013290599E-01 +9.67170370699E-05 +2.78241716953E-05 +1.24126030320E-04 +6.10102872808E-06 -6.12491246983E-01 +7.51851118483E-01
1.17500000000E+09 -4.63575521959E-01 +8.24407328687E-01 +8.41293827664E-05 +2.56345551891E-05 +1.26691123694E-04 +5.25681163040E-05 -6.06721542860E-01 +7.55226933958E-01
1.18000000000E+09 -4.55042538044E-01 +8.27890669676E-01 +1.54985873416E-04 +5.56265549043E-05 +1.57372465903E-04 +4.25929295109E-05 -6.01158786005E-01 +7.58326661180E-01
1.18500000000E+09 -4.46873599322E-01 +8.31108063527E-01 +1.64035297851E-04 +1.12872767887E-05 +1.73867544861E-04 +2.02712962962E-05 -5.95279222950E-01 +7.61438159323E-01
1.19000000000E+09 -4.39574424591E-01 +8.33675362826E-01 +1.24641965143E-04 -1.62910537270E-05 +1.87209899884E-04 +4.40279758388E-05 -5.88805815584E-01 +7.64110418980E-01
1.19500000000E+09 -4.33629429316E-01 +8.35705941114E-01 +2.03819697612E-04 -3.16784144275E-05 +2.41996922034E-04 -3.65358728860E-05 -5.83079028660E-01 +7.65308678689E-01
1.20000000000E+09 -4.28932729743E-01 +8.36823346838E-01 +2.82238996243E-04 -9.03504216271E-05 +2.11632373972E-04 -1.08021843863E-04 -5.78349499649E-01 +7.65530561876E-01
1.20500000000E+09 -4.25055477421E-01 +8.38009482384E-01 +2.24410284423E-04 -1.99890978178E-04 +2.67893384900E-04 -1.35228863315E-04 -5.76048883719E-01 +7.66210121930E-01
1.21000000000E+09 -4.21109759190E-01 +8.39473989797E-01 +1.52456248863E-04 -1.93778888070E-04 +1.23186205623E-04 -1.97969901024E-04 -5.74232041787E-01 +7.69036562350E-01
1.21500000000E+09 -4.16043192236E-01 +8.41289772179E-01 +1.49630783357E-04 -1.64939376820E-04 +1.19432438659E-04 -1.67360176125E-04 -5.71481781769E-01 +7.73457966903E-01
1.22000000000E+09 -4.09385275252E-01 +8.43353203738E-01 +1.26119372418E-04 -1.71163682183E-04 +1.24128430747E-04 -1.69855577462E-04 -5.67507872484E-01 +7.78848677053E-01
1.22500000000E+09 -4.01217497218E-01 +8.46063552557E-01 +1.19249145804E-04 -1.75464811678E-04 +1.78504017481E-04 -1.62068171592E-04 -5.62243451342E-01 +7.84131096642E-01
1.23000000000E+09 -3.91706151518E-01 +8.49126747730E-01 +1.21867308426E-04 -1.75432699370E-04 +6.32672065612E-05 -1.88783988962E-04 -5.56577002053E-01 +7.88691768138E-01
1.23500000000E+09 -3.81569440559E-01 +8.52738665601E-01 +1.09032629927E-04 -2.39341023331E-04 +1.08407593097E-04 -2.33000370551E-04 -5.50863332670E-01 +7.93062429235E-01
1.24000000000E+09 -3.71368428076E-01 +8.56312191833E-01 +8.01208577259E-05 -2.42921488369E-04 +6.38448456450E-05 -2.03489436135E-04 -5.44765151414E-01 +7.96903750515E-01
1.24500000000E+09 -3.62086848735E-01 +8.60094998366E-01 +5.93000594516E-05 -2.97256580422E-04 +6.26294879388E-05 -2.65295072387E-04 -5.38365721118E-01 +8.00786590949E-01
1.25000000000E+09 -3.53930432756E-01 +8.63334930332E-01 +1.09538040487E-05 -2.75344614941E-04 +9.08922673577E-05 -2.55612661488E-04 -5.31740621776E-01 +8.05044484026E-01
1.25500000000E+09 -3.47139896136E-01 +8.65733464204E-01 +2.16972068202E-05 -3.13973337580E-04 +4.33599122689E-05 -3.30675312324E-04 -5.24872732188E-01 +8.08894138705E-01
1.26000000000E+09 -3.41446916426E-01 +8.67827679732E-01 -3.13495204327E-05 -2.95434536337E-04 -4.26336159532E-05 -3.08340042583E-04 -5.18110314610E-01 +8.13305110129E-01
1.26500000000E+09 -3.36534844321E-01 +8.69228676071E-01 -2.28762992900E-05 -2.99938642738E-04 -4.66529707540E-05 -3.31377822363E-04 -5.11067297422E-01 +8.17070855694E-01
1.27000000000E+09 -3.31137630967E-01 +8.70462485475E-01 -1.09611427403E-04 -3.42627117125E-04 -9.48338369390E-05 -3.21173106723E-04 -5.04291894950E-01 +8.21042698456E-01
1.27500000000E+09 -3.24618123843E-01 +8.71811984842E-01 -1.08675581144E-04 -2.98989956901E-04 -1.63570680457E-04 -3.68408166429E-04 -4.97264795246E-01 +8.24513157862E-01
1.28000000000E+09 -3.16451102137E-01 +8.73508513657E-01 -1.77479108938E-04 -3.26771718299E-04 -2.19747897037E-04 -3.87382436298E-04 -4.90243528889E-01 +8.27934699627E-01
1.28500000000E+09 -3.05940878854E-01 +8.75472416438E-01 -2.19739941441E-04 -3.32122851071E-04 -2.58637711158E-04 -3.39721771859E-04 -4.82955384031E-01 +8.31614832323E-01
1.29000000000E+09 -2.94368031183E-01 +8.77905954154E-01 -2.40830758368E-04 -2.57850122764E-04 -2.63512208232E-04 -3.59412879223E-04 -4.75376865121E-01 +8.35225241692E-01
1.29500000000E+09 -2.81913558645E-01 +8.80726051720E-01 -2.42086835126E-04 -2.92148145652E-04 -2.36369087898E-04 -2.57831444916E-04 -4.67375499868E-01 +8.38758479031E-01
1.30000000000E+09 -2.69827553975E-01 +8.83589758710E-01 -3.09270097490E-04 -3.11155124931E-04 -3.80502964591E-04 -2.72608488900E-04 -4.59575758412E-01 +8.42518131527E-01
1.30500000000E+09 -2.58610487573E-01 +8.86673575096E-01 -3.83042847628E-04 -2.87782032205E-04 -3.66016202606E-04 -2.30460706452E-04 -4.51504665244E-01 +8.45888753766E-01
1.31000000000E+09 -2.48992480432E-01 +8.89181586424E-01 -4.12752290321E-04 -2.12534398334E-04 -3.74846375804E-04 -2.05800367467E-04 -4.43151614194E-01 +8.49233062258E-01
1.31500000000E+09 -2.41164209505E-01 +8.91124074211E-01 -4.38828696225E-04 -1.89186619036E-04 -4.07554600555E-04 -2.04510505970E-04 -4.34372615917E-01 +8.52509558547E-01
1.32000000000E+09 -2.34779259042E-01 +8.92318514440E-01 -4.37452201820E-04 -1.83805959885E-04 -4.74389373375E-04 -1.29160923338E-04 -4.25070106620E-01 +8.56151150635E-01
1.32500000000E+09 -2.28962148456E-01 +8.92907340792E-01 -3.99675883904E-04 -1.51348455864E-04 -4.78596856428E-04 -1.21582842387E-04 -4.15477984143E-01 +8.59430293320E-01
1.33000000000E+09 -2.22305440129E-01 +8.93225205921E-01 -4.75940189723E-04 -1.18036950695E-04 -4.88246792351E-04 -7.24659020376E-05 -4.05707793022E-01 +8.62758516116E-01
1.33500000000E+09 -2.14266492419E-01 +8.92968297877E-01 -5.15587100300E-04 -9.11268406505E-05 -5.15330447518E-04 -7.70950360978E-05 -3.95722638463E-01 +8.65988519446E-01
1.34000000000E+09 -2.03560285921E-01 +8.93052700570E-01 -5.70581129543E-04 -3.91258441956E-05 -5.56253359209E-04 -7.31818521462E-05 -3.85451891866E-01 +8.69303999281E-01
1.34500000000E+09 -1.90314680224E-01 +8.92805220107E-01 -6.29160493433E-04 -2.04194817140E-05 -5.28730309241E-04 -3.66628826452E-05 -3.74546922760E-01 +8.72571026955E-01
1.35000000000E+09 -1.74789741442E-01 +8.92683888366E-01 -7.06774250166E-04 +5.63298600379E-05 -6.22012865738E-04 +1.14200922471E-04 -3.63280944798E-01 +8.75502091103E-01
1.35500000000E+09 -1.58257604941E-01 +8.92714703322E-01 -6.87323837236E-04 +1.49054656626E-04 -6.67669999930E-04 +1.80380901433E-04 -3.51572474064E-01 +8.78308000847E-01
1.36000000000E+09 -1.41606665273E-01 +8.93049950370E-01 -6.99352018563E-04 +2.37131104643E-04 -7.18159217415E-04 +1.98873441906E-04 -3.39660630420E-01 +8.80844314337E-01
1.36500000000E+09 -1.25689850922E-01 +8.93358542099E-01 -7.27302422229E-04 +2.73313587518E-04 -6.90701639659E-04 +2.43597088883E-04 -3.27420261803E-01 +8.83317810930E-01
1.37000000000E+09 -1.11239517846E-01 +8.93330780001E-01 -7.64510875553E-04 +3.15193331040E-04 -6.94435067264E-04 +2.95825135111E-04 -3.14661059831E-01 +8.85534102247E-01
1.37500000000E+09 -9.87871500056E-02 +8.93396479539E-01 -7.80379239206E-04 +4.22293984935E-04 -7.91999756253E-04 +3.17287885595E-04 -3.00698814020E-01 +8.87988517600E-01
1.38000000000E+09 -8.74488013960E-02 +8.92865819518E-01 -8.69081755092E-04 +5.57428754371E-04 -9.38827402450E-04 +4.79352472210E-04 -2.86182739253E-01 +8.89672306035E-01
1.38500000000E+09 -7.65090896368E-02 +8.91871013017E-01 -8.11010074968E-04 +7.27423228431E-04 -9.70410669836E-04 +7.23321442196E-04 -2.70792182453E-01 +8.91308841513E-01
1.39000000000E+09 -6.49264405482E-02 +8.90079489864E-01 -7.58068218656E-04 +8.44558736373E-04 -8.55523549059E-04 +9.93701946723E-04 -2.54997383246E-01 +8.92761228112E-01
1.39500000000E+09 -5.14403737692E-02 +8.87600559788E-01 -7.28849470900E-04 +9.36854478655E-04 -7.20035049596E-04 +1.09414807728E-03 -2.38078360985E-01 +8.93449971712E-01
1.40000000000E+09 -3.53326946844E-02 +8.83774001688E-01 -6.64234728388E-04 +1.10714512884E-03 -5.85487993905E-04 +1.16224620245E-03 -2.20663421054E-01 +8.93904112089E-01
1.40500000000E+09 -1.70392300357E-02 +8.79098192874E-01 -5.64776368607E-04 +1.21221109439E-03 -4.36825116110E-04 +1.23442529348E-03 -2.01976828880E-01 +8.93585659750E-01
1.41000000000E+09 +3.75428923611E-03 +8.73663136941E-01 -5.23314109734E-04 +1.30178626825E-03 -4.82128043764E-04 +1.27403209904E-03 -1.81914388273E-01 +8.92599052274E-01
1.41500000000E+09 +2.57092612974E-02 +8.67410803053E-01 -3.98409195605E-04 +1.47076125518E-03 -4.81187122398E-04 +1.49900876713E-03 -1.60573894036E-01 +8.91158394226E-01
1.42000000000E+09 +4.85773012514E-02 +8.60845952795E-01 -3.25574242133E-04 +1.61165030484E-03 -3.95328142444E-04 +1.79533869204E-03 -1.37757580478E-01 +8.88442784740E-01
1.42500000000E+09 +7.09304503830E-02 +8.53407765473E-01 -3.04034442552E-04 +1.89026276954E-03 -2.43196490158E-04 +2.13570631670E-03 -1.14269404572E-01 +8.84603219507E-01
1.43000000000E+09 +9.24593546042E-02 +8.45064491682E-01 +7.68152914898E-06 +2.23390554428E-03 +2.10785375724E-04 +2.41577810268E-03 -8.94170309527E-02 +8.79813807784E-01
1.43500000000E+09 +1.13414852241E-01 +8.35540126580E-01 +4.46291912433E-04 +2.34152677614E-03 +6.76504590522E-04 +2.34501040134E-03 -6.32431960258E-02 +8.73055177967E-01
1.44000000000E+09 +1.34376803845E-01 +8.24777678971E-01 +7.63926612199E-04 +2.41107997396E-03 +9.65041213324E-04 +2.40988279502E-03 -3.53630596882E-02 +8.64242667590E-01
1.44500000000E+09 +1.56642800025E-01 +8.11750540794E-01 +1.12960164984E-03 +2.34078904745E-03 +1.28720664529E-03 +2.32546011871E-03 -5.34780538002E-03 +8.52789848753E-01
1.45000000000E+09 +1.80725417009E-01 +7.94727668054E-01 +1.18373824570E-03 +2.41580953173E-03 +1.32586437193E-03 +2.38806249011E-03 +2.64699467361E-02 +8.37620119703E-01
1.45500000000E+09 +2.06663912218E-01 +7.73807835535E-01 +1.44763314573E-03 +2.89997720751E-03 +1.73417100932E-03 +2.77553142835E-03 +5.87484142960E-02 +8.19607416127E-01
1.46000000000E+09 +2.34639202408E-01 +7.48661216228E-01 +2.27175268745E-03 +3.34955416822E-03 +2.53831901341E-03 +3.00332067916E-03 +9.30160286807E-02 +7.98510249716E-01
1.46500000000E+09 +2.64608766094E-01 +7.18955289531E-01 +3.33760676407E-03 +3.43449071739E-03 +3.28854101401E-03 +2.94166772875E-03 +1.29149539064E-01 +7.71734755941E-01
1.47000000000E+09 +2.95852259745E-01 +6.83815946628E-01 +4.72522385402E-03 +3.23472298967E-03 +4.36054900783E-03 +2.94764182722E-03 +1.65437701962E-01 +7.38227681637E-01
1.47500000000E+09 +3.26527122807E-01 +6.43370778054E-01 +5.84265109590E-03 +2.31183819227E-03 +5.56856742731E-03 +2.40668289461E-03 +2.01871040915E-01 +6.97706609718E-01
1.48000000000E+09 +3.55070634729E-01 +5.96207945361E-01 +6.56971526138E-03 +1.31123224075E-03 +6.59430065711E-03 +1.51822147607E-03 +2.37514010070E-01 +6.48902330309E-01
1.48500000000E+09 +3.78458641725E-01 +5.42629764450E-01 +7.38180032863E-03 +5.19795499580E-04 +7.64760891588E-03 +3.81194016153E-04 +2.70799466981E-01 +5.91694488707E-01
1.49000000000E+09 +3.95983120934E-01 +4.82714268485E-01 +8.97228844643E-03 -8.00218344677E-04 +8.88583152392E-03 -1.26580294877E-03 +3.00037098558E-01 +5.23752790777E-01
1.49500000000E+09 +4.05767518836E-01 +4.15965992004E-01 +9.82972739562E-03 -3.22892598217E-03 +9.23341349964E-03 -3.56403791114E-03 +3.18753291597E-01 +4.44019159323E-01
1.50000000000E+09 +4.05914897048E-01 +3.40860586718E-01 +1.05229534721E-02 -6.07159550687E-03 +9.86605038161E-03 -5.77894240819E-03 +3.23571943627E-01 +3.57030305960E-01
1.50500000000E+09 +3.93942040466E-01 +2.58817068277E-01 +9.80409530616E-03 -1.05147962275E-02 +9.69674907205E-03 -9.76758499692E-03 +3.14103562458E-01 +2.62943509022E-01
1.51000000000E+09 +3.66552525292E-01 +1.70777693385E-01 +6.71739490640E-03 -1.45519815225E-02 +7.17367708751E-03 -1.41393415758E-02 +2.85902170540E-01 +1.63331009414E-01
1.51500000000E+09 +3.21117637934E-01 +8.21049039826E-02 +1.75391272412E-03 -1.67346925695E-02 +2.22616603960E-03 -1.67625855051E-02 +2.34372311251E-01 +6.44662697600E-02
1.52000000000E+09 +2.55881267259E-01 -2.09372444129E-03 -3.39105329358E-03 -1.72571219293E-02 -3.19517828240E-03 -1.74697831780E-02 +1.59676666892E-01 -2.46801520765E-02
1.52500000000E+09 +1.71279713762E-01 -7.30986255224E-02 -8.30731290047E-03 -1.51276230793E-02 -8.24929200046E-03 -1.53257230018E-02 +6.48053057077E-02 -9.51425722855E-02
1.53000000000E+09 +7.27049141809E-02 -1.22981534896E-01 -1.15487268647E-02 -1.28051363707E-02 -1.15867369060E-02 -1.29667181696E-02 -4.24953574004E-02 -1.43023393205E-01
1.53500000000E+09 -3.23392399663E-02 -1.49144752452E-01 -1.54054768926E-02 -9.70854324837E-03 -1.54384007379E-02 -9.74214366124E-03 -1.55866446373E-01 -1.64354462767E-01
1.54000000000E+09 -1.38792934726E-01 -1.52458213442E-01 -1.78818005468E-02 -4.46369169518E-03 -1.77335246876E-02 -4.52555874272E-03 -2.66219449456E-01 -1.61777462568E-01
1.54500000000E+09 -2.42404460006E-01 -1.33571928449E-01 -1.76075827225E-02 +1.70566936567E-03 -1.74597818599E-02 +1.27914330396E-03 -3.65691736250E-01 -1.38084261316E-01
1.55000000000E+09 -3.37689596217E-01 -9.39145428247E-02 -1.49055003566E-02 +5.97484626770E-03 -1.50856954010E-02 +5.38100068782E-03 -4.52382199284E-01 -1.00660911880E-01
1.55500000000E+09 -4.17402949522E-01 -3.81723224692E-02 -1.20103849017E-02 +8.87925707428E-03 -1.27435086039E-02 +8.54209522294E-03 -5.23759415277E-01 -5.26566036745E-02
1.56000000000E+09 -4.79195396206E-01 +2.26846657411E-02 -8.40656093586E-03 +1.08684686329E-02 -9.11926911214E-03 +1.10834870928E-02 -5.81305063103E-01 +7.40959901952E-04
1.56500000000E+09 -5.27023539990E-01 +8.25189273647E-02 -4.51483071417E-03 +1.11464876908E-02 -4.95137320620E-03 +1.17597133324E-02 -6.25688717294E-01 +5.61151364870E-02
1.57000000000E+09 -5.65658355686E-01 +1.40063112000E-01 -1.74460866689E-03 +9.94399777126E-03 -1.80833800748E-03 +1.05728555785E-02 -6.59631837688E-01 +1.11524222289E-01
