# Hz S RI R 50
! CMT, C1220, 16058040, 17.2.0/1
! Date: 14/08/2018 12:57:40
! Data: Format (Calibration Info)
! Freq                      S11: Re/Im (F2)                       S21: Re/Im (F2)                       S12: Re/Im (F2)                       S22: Re/Im (F2)            
1.00000000000E+09 -6.46903990604E-01 +7.11903150880E-01 +3.96486406126E-05 +4.66553971739E-05 +4.53832471269E-05 +1.86707010313E-05 -7.19273766947E-01 +6.45586641762E-01
1.00500000000E+09 -6.40455473995E-01 +7.16544402748E-01 -7.09228095565E-05 +2.04063253747E-05 +2.19016080337E-05 -2.42475895251E-05 -7.15316126567E-01 +6.49491119220E-01
1.01000000000E+09 -6.34671861716E-01 +7.20903125281E-01 -1.60017325923E-05 +4.17289450123E-05 +8.92503049965E-05 +4.26141665836E-05 -7.11667618114E-01 +6.53119559298E-01
1.01500000000E+09 -6.29821861269E-01 +7.24725974514E-01 +1.05244989173E-05 +6.16660123230E-05 -6.21385805878E-05 +1.54027213415E-05 -7.08523850676E-01 +6.56510781876E-01
1.02000000000E+09 -6.25897666960E-01 +7.28443280688E-01 +4.40266756047E-05 +1.18882559337E-05 -1.93025426191E-05 +5.63467959616E-06 -7.04770455430E-01 +6.59983951762E-01
1.02500000000E+09 -6.22593829608E-01 +7.31582430939E-01 +1.43595274343E-05 +4.42242291359E-05 -1.09164649431E-05 +1.10546518497E-05 -7.01714204268E-01 +6.63425039851E-01
1.03000000000E+09 -6.19697702325E-01 +7.34452147010E-01 -5.78575897402E-05 -3.89534243167E-05 -4.56279774557E-06 +2.34782089153E-05 -6.98044718255E-01 +6.67266307604E-01
1.03500000000E+09 -6.15817733305E-01 +7.37542201090E-01 +1.93546886559E-06 +3.12245180039E-05 +1.37297698161E-05 +2.13609086535E-05 -6.94088937055E-01 +6.71198022822E-01
1.04000000000E+09 -6.11430419696E-01 +7.40699452992E-01 +2.55455581677E-05 -2.03958102512E-05 -1.00671321862E-05 +3.89705542077E-05 -6.90035631574E-01 +6.74582648240E-01
1.04500000000E+09 -6.05684606179E-01 +7.44322563833E-01 +1.14872288742E-05 +3.91317279198E-05 +3.35036812717E-06 -6.63579252029E-06 -6.86259444547E-01 +6.78022369967E-01
1.05000000000E+09 -5.98953681326E-01 +7.48356333608E-01 -6.92566519052E-06 +2.46326988282E-05 +3.62618180905E-05 +7.50823770719E-06 -6.82809948367E-01 +6.81278752145E-01
1.05500000000E+09 -5.91276449830E-01 +7.52617935511E-01 +9.96145638194E-06 -1.11558173096E-05 -2.32033528994E-05 +2.46786223272E-05 -6.79327924858E-01 +6.84928908334E-01
1.06000000000E+09 -5.83247636814E-01 +7.57217523816E-01 -1.08445044070E-05 +1.02299343631E-05 +2.36342218021E-05 -1.20236590496E-06 -6.75742037347E-01 +6.88486439447E-01
1.06500000000E+09 -5.75345693930E-01 +7.62040716786E-01 -1.51694858730E-05 +3.51556522913E-05 -4.27654290532E-05 -3.20515917224E-05 -6.71626737332E-01 +6.92246791535E-01
1.07000000000E+09 -5.68303711149E-01 +7.66025136493E-01 +2.33347401904E-05 +5.37445786678E-05 +2.86810992466E-06 +2.64404128555E-05 -6.67404076156E-01 +6.95836925542E-01
1.07500000000E+09 -5.62280573121E-01 +7.69728401133E-01 -9.69442650568E-06 +7.94366157361E-05 +2.47388731215E-05 +1.79358793356E-05 -6.62925501844E-01 +6.99348906800E-01
1.08000000000E+09 -5.57316101159E-01 +7.72841698384E-01 -1.48920771051E-06 +6.87071146759E-05 +1.90127804031E-05 +5.77131111125E-05 -6.58873176547E-01 +7.03069847985E-01
1.08500000000E+09 -5.53539636734E-01 +7.75487358255E-01 +2.25792552865E-05 -7.24249197749E-06 +5.25415639936E-05 +3.28952202230E-05 -6.54876194277E-01 +7.06401582816E-01
1.09000000000E+09 -5.50193365485E-01 +7.78054557849E-01 +3.57893552758E-05 +1.84715252801E-05 +2.72025881171E-05 +2.84737989751E-05 -6.50982615629E-01 +7.09983580884E-01
1.09500000000E+09 -5.47427708341E-01 +7.79934887118E-01 +5.97952434201E-05 +4.35705376724E-05 +4.22572995804E-05 -1.37366096001E-05 -6.46964595651E-01 +7.13760469162E-01
1.10000000000E+09 -5.43700058815E-01 +7.82345185847E-01 +7.25957715012E-05 +1.44680184776E-05 +6.06654936016E-05 -3.24246598412E-05 -6.42814170436E-01 +7.17449029224E-01
1.10500000000E+09 -5.39500027201E-01 +7.84939682885E-01 +6.31427243993E-05 +4.22435071564E-05 +1.03105653954E-05 +4.12663004084E-05 -6.38374186566E-01 +7.20694497079E-01
1.11000000000E+09 -5.34084942701E-01 +7.87844615169E-01 +1.94505582814E-05 +2.19554770700E-05 +2.98497299012E-05 +7.68369741092E-07 -6.34007769994E-01 +7.24010212146E-01
1.11500000000E+09 -5.27790919572E-01 +7.91353656342E-01 +6.45679381910E-05 +7.56723861119E-06 +4.81340086206E-05 +3.66649394297E-05 -6.29976984816E-01 +7.27218011115E-01
1.12000000000E+09 -5.20858218665E-01 +7.94830572994E-01 +4.15275715426E-05 +6.57857088847E-07 +6.72786307517E-05 -2.83612257740E-05 -6.25801776209E-01 +7.30464801345E-01
1.12500000000E+09 -5.13639572482E-01 +7.98514452622E-01 +7.14488797672E-05 -1.07752800451E-05 +7.70174110294E-05 -1.73343064773E-06 -6.21349514459E-01 +7.34310514657E-01
1.13000000000E+09 -5.06263517990E-01 +8.01727636623E-01 +8.31520316131E-05 -3.62819825835E-05 +7.47509640753E-05 -1.43907955879E-05 -6.16966916117E-01 +7.37968545379E-01
1.13500000000E+09 -4.99426377984E-01 +8.04261646511E-01 +8.81608773457E-05 -6.27728073726E-06 +8.59070310436E-05 -1.71269753784E-06 -6.12031091061E-01 +7.41601782466E-01
1.14000000000E+09 -4.93133020202E-01 +8.06516849106E-01 +7.22901073413E-05 -1.41194818085E-05 +7.24000064787E-05 -2.19114198081E-05 -6.07115657727E-01 +7.44781541532E-01
1.14500000000E+09 -4.87873122493E-01 +8.08199232823E-01 +9.63111251892E-05 +1.91718076146E-06 +7.26058575795E-05 -2.06156240465E-05 -6.02355357732E-01 +7.47997045806E-01
1.15000000000E+09 -4.82635957397E-01 +8.09705838910E-01 +9.91911607040E-05 -4.49373224925E-06 +6.89744417791E-05 -1.56804108506E-05 -5.97496370440E-01 +7.51690934196E-01
1.15500000000E+09 -4.77813550067E-01 +8.11712203126E-01 +7.70667341689E-05 -2.15116559095E-05 +2.34705322153E-05 -4.48593074200E-05 -5.92454712312E-01 +7.55380664001E-01
1.16000000000E+09 -4.72495481958E-01 +8.13574615415E-01 +6.47337423515E-05 -1.84915253885E-05 +6.12573657074E-05 +2.09791673113E-05 -5.87649760388E-01 +7.58999120456E-01
1.16500000000E+09 -4.66639707798E-01 +8.16145999302E-01 +9.14532062964E-05 -5.00383456846E-05 +1.16135144387E-04 -8.89209731135E-05 -5.82324621919E-01 +7.62435568077E-01
1.17000000000E+09 -4.60198965567E-01 +8.18951330704E-01 +9.56787334677E-05 -6.12939256085E-05 +7.66891833049E-05 -4.03240805150E-05 -5.76828831091E-01 +7.65481886288E-01
1.17500000000E+09 -4.53116957155E-01 +8.21934656455E-01 +1.05735910112E-04 -4.55650818393E-05 +7.71109746473E-05 -5.95418641692E-05 -5.71100704266E-01 +7.68512677506E-01
1.18000000000E+09 -4.45714154262E-01 +8.25117649769E-01 +7.03722435319E-05 -8.61122133445E-05 +1.16961101424E-04 -7.48493335845E-05 -5.65723691095E-01 +7.71266888073E-01
1.18500000000E+09 -4.37963763268E-01 +8.28010675111E-01 +9.80492715526E-05 -1.30106599910E-04 +1.70571675605E-04 -1.51248624891E-04 -5.59744046332E-01 +7.74063298982E-01
1.19000000000E+09 -4.30316395379E-01 +8.30432787725E-01 +1.23744421274E-04 -1.88258414580E-04 +1.21037064785E-04 -1.91304141172E-04 -5.53626544678E-01 +7.76456670914E-01
1.19500000000E+09 -4.23229410401E-01 +8.32375907521E-01 +1.09861662480E-04 -2.29923316252E-04 +8.16362624898E-05 -1.69512741251E-04 -5.47671338107E-01 +7.77342985283E-01
1.20000000000E+09 -4.16190147206E-01 +8.33131391540E-01 +1.18547646362E-05 -2.43887911540E-04 +2.63376708344E-05 -2.51994821332E-04 -5.43126419093E-01 +7.77492981255E-01
1.20500000000E+09 -4.09639670731E-01 +8.34414968330E-01 -9.75137570525E-05 -3.16716657205E-04 -1.05174609247E-04 -2.72214751146E-04 -5.40580033155E-01 +7.78299841344E-01
1.21000000000E+09 -4.03053234753E-01 +8.35548016883E-01 -1.44478407653E-04 -9.97262907565E-05 -9.27785819327E-05 -1.85025180507E-04 -5.38302193594E-01 +7.81288739357E-01
1.21500000000E+09 -3.95945335963E-01 +8.37120337029E-01 -3.70647509706E-05 -1.03182948030E-04 -1.25165294151E-05 -1.16700228498E-04 -5.35295570764E-01 +7.85817965663E-01
1.22000000000E+09 -3.88075301771E-01 +8.39128262022E-01 -1.58721342781E-05 -1.05778640757E-04 -4.83463329392E-05 -1.21417312185E-04 -5.30950566366E-01 +7.90795053588E-01
1.22500000000E+09 -3.79997154433E-01 +8.41428077579E-01 -3.08908324104E-05 -1.37117110214E-04 -3.33438600936E-05 -1.67394975907E-04 -5.25609266461E-01 +7.95706938513E-01
1.23000000000E+09 -3.71452839437E-01 +8.44189488568E-01 -2.03747707834E-05 -1.77741970240E-04 -7.48771476141E-05 -1.33241594587E-04 -5.19706037193E-01 +7.99981393137E-01
1.23500000000E+09 -3.63130628045E-01 +8.47361036724E-01 -7.04491967827E-05 -1.56770907620E-04 -9.22057305539E-05 -1.57709262456E-04 -5.13886192289E-01 +8.03958065069E-01
1.24000000000E+09 -3.54861244456E-01 +8.50394944693E-01 -1.13803280171E-04 -1.99886074321E-04 -5.73759143265E-05 -1.67522860905E-04 -5.07823059176E-01 +8.07490397458E-01
1.24500000000E+09 -3.47086604232E-01 +8.53640009743E-01 -1.25760350608E-04 -1.95383254450E-04 -1.08487717386E-04 -1.28140518467E-04 -5.01508499059E-01 +8.10889336426E-01
1.25000000000E+09 -3.39537869518E-01 +8.56311867488E-01 -8.95770875118E-05 -1.66358334571E-04 -9.01949685607E-05 -2.02135416116E-04 -4.94934443787E-01 +8.14995010695E-01
1.25500000000E+09 -3.32057806717E-01 +8.58113634368E-01 -1.44587270826E-04 -1.86452690385E-04 -1.08580595356E-04 -1.88790745457E-04 -4.88174255193E-01 +8.18574696031E-01
1.26000000000E+09 -3.24683760791E-01 +8.59255565939E-01 -1.66870925461E-04 -2.12492576347E-04 -1.22432742488E-04 -2.44622682068E-04 -4.81443787719E-01 +8.22321196564E-01
1.26500000000E+09 -3.16855103144E-01 +8.59823262685E-01 -1.72462541425E-04 -2.46884932895E-04 -2.11323765850E-04 -2.14107249345E-04 -4.74390574435E-01 +8.25961235980E-01
1.27000000000E+09 -3.08695902945E-01 +8.60134002626E-01 -2.00539087000E-04 -2.29027287936E-04 -2.31194924486E-04 -1.98856659457E-04 -4.67425214031E-01 +8.29289268699E-01
1.27500000000E+09 -2.99765602510E-01 +8.60760182041E-01 -2.96740869765E-04 -1.51243430442E-04 -2.95653551116E-04 -2.42056167006E-04 -4.60442899586E-01 +8.32540155609E-01
1.28000000000E+09 -2.89698952513E-01 +8.61598009472E-01 -3.09526378084E-04 -1.83219013014E-04 -3.78223664473E-04 -1.80543057866E-04 -4.53245891410E-01 +8.35825389144E-01
1.28500000000E+09 -2.78783409056E-01 +8.62895368133E-01 -3.57664432857E-04 -1.31257798816E-04 -3.90275945013E-04 -1.65889734391E-04 -4.45835952924E-01 +8.39395630869E-01
1.29000000000E+09 -2.67786776010E-01 +8.64602072781E-01 -3.37957715202E-04 -1.42202025078E-04 -3.99883009343E-04 -8.64914103608E-05 -4.38164961230E-01 +8.42745834673E-01
1.29500000000E+09 -2.57190778308E-01 +8.66962627567E-01 -3.93347962945E-04 -1.37076984369E-04 -4.17167366729E-04 -1.59379480856E-04 -4.30242906878E-01 +8.45760299793E-01
1.30000000000E+09 -2.46837933153E-01 +8.69636460886E-01 -4.79779765714E-04 -9.49402391625E-05 -5.20747613529E-04 -6.06232272350E-05 -4.22685977822E-01 +8.49009818127E-01
1.30500000000E+09 -2.37503653292E-01 +8.72399743533E-01 -5.42353215640E-04 -3.14193240534E-05 -5.12023864286E-04 -7.46596608284E-06 -4.14547370097E-01 +8.51968608278E-01
1.31000000000E+09 -2.28717259556E-01 +8.74552523979E-01 -6.05607465669E-04 +2.01423405412E-05 -5.73623227783E-04 +9.66952919947E-05 -4.06144448510E-01 +8.55161168765E-01
1.31500000000E+09 -2.20663821699E-01 +8.75946109493E-01 -5.85859026438E-04 +2.00520552978E-04 -5.87248284363E-04 +1.94340811549E-04 -3.97434495266E-01 +8.58309390271E-01
1.32000000000E+09 -2.13151413213E-01 +8.76240627080E-01 -5.27732954152E-04 +2.48183919115E-04 -5.88208025834E-04 +1.91841070483E-04 -3.88488035013E-01 +8.61223417986E-01
1.32500000000E+09 -2.05728489564E-01 +8.75811609875E-01 -5.77473423173E-04 +2.82821576806E-04 -6.05028365379E-04 +3.00392991947E-04 -3.79288658886E-01 +8.64120161257E-01
1.33000000000E+09 -1.97287735319E-01 +8.74980589347E-01 -6.07965750829E-04 +3.58006446410E-04 -6.05125174698E-04 +3.90791037958E-04 -3.69761677627E-01 +8.67045503185E-01
1.33500000000E+09 -1.87533122514E-01 +8.74023389917E-01 -6.14744846718E-04 +4.63882646980E-04 -5.86363582054E-04 +5.06320182112E-04 -3.60220714272E-01 +8.69794669423E-01
1.34000000000E+09 -1.76399039593E-01 +8.73435951060E-01 -5.69295909210E-04 +5.41405198188E-04 -5.54273194097E-04 +5.35240418337E-04 -3.50092381673E-01 +8.72720933277E-01
1.34500000000E+09 -1.63465867458E-01 +8.72951115576E-01 -5.71826467452E-04 +6.87867119014E-04 -4.91677576230E-04 +6.58422422990E-04 -3.39329540058E-01 +8.75344522617E-01
1.35000000000E+09 -1.49441476516E-01 +8.72945769292E-01 -4.91207071507E-04 +7.71710196645E-04 -4.55736621221E-04 +7.46590481685E-04 -3.28280984531E-01 +8.77975512389E-01
1.35500000000E+09 -1.34600898777E-01 +8.73379945755E-01 -4.47493243817E-04 +8.25091128522E-04 -4.42566669759E-04 +8.39924286571E-04 -3.16892252551E-01 +8.80254303353E-01
1.36000000000E+09 -1.19448450582E-01 +8.73795011354E-01 -3.88865796756E-04 +9.54201925011E-04 -3.89307503114E-04 +8.74855533307E-04 -3.05467301188E-01 +8.82475549456E-01
1.36500000000E+09 -1.04395866756E-01 +8.73843645480E-01 -3.51616056725E-04 +1.11587973766E-03 -3.32576563692E-04 +9.94865820935E-04 -2.93715194533E-01 +8.84508926989E-01
1.37000000000E+09 -9.00958594844E-02 +8.72977906957E-01 -2.66732732587E-04 +1.20007807997E-03 -2.83554132271E-04 +1.09276511589E-03 -2.81205295319E-01 +8.86437772493E-01
1.37500000000E+09 -7.70934599016E-02 +8.71130332437E-01 -3.70330142747E-05 +1.33862301754E-03 -1.71668171679E-04 +1.25719569729E-03 -2.67790053953E-01 +8.88165704001E-01
1.38000000000E+09 -6.47293418197E-02 +8.68578570917E-01 +7.29447117355E-05 +1.31032268527E-03 -5.52703617348E-05 +1.43110439174E-03 -2.53337352346E-01 +8.89689354090E-01
1.38500000000E+09 -5.23588908643E-02 +8.65400063373E-01 +1.77973245295E-04 +1.47820802359E-03 +6.73788604745E-05 +1.59684615345E-03 -2.38385307689E-01 +8.91128050781E-01
1.39000000000E+09 -3.97213889098E-02 +8.61625817462E-01 +3.42563096821E-04 +1.56369222154E-03 +4.44729218649E-04 +1.82119529554E-03 -2.23019135463E-01 +8.92182289605E-01
1.39500000000E+09 -2.57374925994E-02 +8.57546365315E-01 +5.25341725094E-04 +1.67733440111E-03 +7.50518158151E-04 +1.78356964236E-03 -2.06923912058E-01 +8.92473036308E-01
1.40000000000E+09 -1.02664003198E-02 +8.52920002405E-01 +7.92405003243E-04 +1.86342047032E-03 +9.29334630470E-04 +1.80304391281E-03 -1.90150855751E-01 +8.92333568579E-01
1.40500000000E+09 +6.12423127349E-03 +8.48009908501E-01 +1.23113173177E-03 +1.93141518179E-03 +1.25150610448E-03 +1.87662298067E-03 -1.72353397245E-01 +8.91530568597E-01
1.41000000000E+09 +2.38644776978E-02 +8.43258516770E-01 +1.71877929594E-03 +1.81710916509E-03 +1.69293482348E-03 +1.78229160136E-03 -1.53026387249E-01 +8.90392554562E-01
1.41500000000E+09 +4.28103817854E-02 +8.38686375347E-01 +1.97066211376E-03 +1.59613940592E-03 +1.96895917947E-03 +1.78561884662E-03 -1.32176147864E-01 +8.88328380693E-01
1.42000000000E+09 +6.34135240154E-02 +8.33143577678E-01 +2.24078011891E-03 +1.50297645450E-03 +2.43388815224E-03 +1.69861618012E-03 -1.10170337995E-01 +8.85365554963E-01
1.42500000000E+09 +8.45161617150E-02 +8.25720896918E-01 +2.57762581076E-03 +1.35805441815E-03 +2.96540573937E-03 +1.48442974768E-03 -8.74674221535E-02 +8.81074488123E-01
1.43000000000E+09 +1.05763286899E-01 +8.16130400145E-01 +3.08541133375E-03 +1.38829206419E-03 +3.47389606619E-03 +1.17274984537E-03 -6.39260557151E-02 +8.75970454258E-01
1.43500000000E+09 +1.26714543973E-01 +8.04167208971E-01 +3.92460443027E-03 +1.00473477697E-03 +4.18067375591E-03 +7.00382380219E-04 -3.87443366741E-02 +8.68924667962E-01
1.44000000000E+09 +1.48013376038E-01 +7.90443914174E-01 +4.55509742347E-03 +8.47507757719E-05 +4.59317211499E-03 -2.14995538127E-04 -1.19452621919E-02 +8.59769989300E-01
1.44500000000E+09 +1.70697196526E-01 +7.74066329573E-01 +4.55946853654E-03 -9.14419565316E-04 +4.63750360240E-03 -1.13707034201E-03 +1.67297262818E-02 +8.48157230586E-01
1.45000000000E+09 +1.94544791450E-01 +7.54879297247E-01 +4.53256988456E-03 -1.44870760567E-03 +4.58283143735E-03 -1.75059915212E-03 +4.68343826850E-02 +8.33459462488E-01
1.45500000000E+09 +2.19697000021E-01 +7.33253685141E-01 +4.84857345649E-03 -2.09097032282E-03 +4.64559434700E-03 -2.46544712991E-03 +7.80657076075E-02 +8.16210822668E-01
1.46000000000E+09 +2.46282337395E-01 +7.08870742668E-01 +5.17002950401E-03 -2.95337267036E-03 +4.69007730410E-03 -3.27137764514E-03 +1.11224733122E-01 +7.95039065706E-01
1.46500000000E+09 +2.74325469802E-01 +6.81871824731E-01 +5.44043079563E-03 -4.11285799749E-03 +4.77390747268E-03 -4.07092968294E-03 +1.45299834443E-01 +7.68557759559E-01
1.47000000000E+09 +3.04026027367E-01 +6.50780652913E-01 +5.53785442774E-03 -5.90173597133E-03 +5.08490050207E-03 -5.37621043556E-03 +1.80312097570E-01 +7.35590247206E-01
1.47500000000E+09 +3.34124059627E-01 +6.13720225947E-01 +4.53119714475E-03 -8.06899602808E-03 +4.64517135506E-03 -7.54403203167E-03 +2.14790602014E-01 +6.95279474687E-01
1.48000000000E+09 +3.61868536187E-01 +5.69290212795E-01 +2.89287349823E-03 -9.52941177139E-03 +3.19837770868E-03 -9.49200441162E-03 +2.48962273727E-01 +6.47403956178E-01
1.48500000000E+09 +3.85291206697E-01 +5.16901713990E-01 +1.42037572774E-03 -1.08765303468E-02 +1.31334780819E-03 -1.11865402058E-02 +2.80650283103E-01 +5.90579656992E-01
1.49000000000E+09 +4.02658380718E-01 +4.56474340230E-01 -8.57086076596E-04 -1.25368083407E-02 -1.47972089351E-03 -1.24401135016E-02 +3.07389184013E-01 +5.23871189736E-01
1.49500000000E+09 +4.12738349704E-01 +3.88238846978E-01 -4.55975399518E-03 -1.35235661968E-02 -4.90512827725E-03 -1.27409187368E-02 +3.24913644513E-01 +4.46397161856E-01
1.50000000000E+09 +4.13492785293E-01 +3.10739395888E-01 -8.35445214402E-03 -1.30676654922E-02 -7.87017607476E-03 -1.22760585608E-02 +3.29419490075E-01 +3.59537023804E-01
1.50500000000E+09 +4.01230766080E-01 +2.25370217988E-01 -1.25007512922E-02 -1.16910375284E-02 -1.15890249787E-02 -1.16013944581E-02 +3.17201995629E-01 +2.65040067644E-01
1.51000000000E+09 +3.73487536114E-01 +1.35769561599E-01 -1.63012818252E-02 -8.30883235428E-03 -1.58092753390E-02 -8.89174045372E-03 +2.84352589556E-01 +1.66233366010E-01
1.51500000000E+09 +3.26341525227E-01 +4.50575163226E-02 -1.91198468040E-02 -4.27779628079E-03 -1.92044199487E-02 -4.85453913293E-03 +2.27700820429E-01 +7.14904084894E-02
1.52000000000E+09 +2.58316713764E-01 -3.67482681121E-02 -2.10644579894E-02 +1.02009819965E-03 -2.13350847879E-02 +7.00262413864E-04 +1.49735208606E-01 -1.05376819537E-02
1.52500000000E+09 +1.72956209942E-01 -1.04139615471E-01 -2.10917853881E-02 +8.41864885931E-03 -2.13846312537E-02 +8.41256077468E-03 +5.62996289097E-02 -7.50442629110E-02
1.53000000000E+09 +7.32580352156E-02 -1.51851412460E-01 -1.65256680145E-02 +1.44716483360E-02 -1.66127747734E-02 +1.45676306499E-02 -5.21932466118E-02 -1.17125198954E-01
1.53500000000E+09 -3.49426704089E-02 -1.75623813717E-01 -1.17610519602E-02 +1.79160051054E-02 -1.17353116621E-02 +1.79744794175E-02 -1.62513476015E-01 -1.32552294607E-01
1.54000000000E+09 -1.46787240820E-01 -1.74126288783E-01 -6.11095984269E-03 +1.98993526282E-02 -6.18434305972E-03 +1.96596859372E-02 -2.70538603679E-01 -1.25507574206E-01
1.54500000000E+09 -2.52121834224E-01 -1.47378054990E-01 +9.24161964714E-05 +2.01988946924E-02 -2.94150149991E-04 +1.98954274106E-02 -3.67623019496E-01 -9.74314795698E-02
1.55000000000E+09 -3.44749275884E-01 -1.03115435279E-01 +4.98424380207E-03 +1.75318382989E-02 +4.25370983773E-03 +1.76794619436E-02 -4.49313049004E-01 -5.55243607275E-02
1.55500000000E+09 -4.21882050337E-01 -4.66892763170E-02 +8.18279225849E-03 +1.48324528134E-02 +7.65073402337E-03 +1.55453932039E-02 -5.16244294643E-01 -5.46693126684E-03
1.56000000000E+09 -4.82188287462E-01 +1.32549550716E-02 +1.09404995008E-02 +1.15568661603E-02 +1.09940632037E-02 +1.24215103871E-02 -5.69115572245E-01 +4.93755291407E-02
1.56500000000E+09 -5.29964132546E-01 +7.38426873033E-02 +1.18588247108E-02 +7.60094083673E-03 +1.24298386183E-02 +8.24109918822E-03 -6.10160896231E-01 +1.05905061787E-01
1.57000000000E+09 -5.65860926330E-01 +1.33737482098E-01 +1.16811717927E-02 +4.77259360755E-03 +1.24309775723E-02 +4.99809356765E-03 -6.40066215374E-01 +1.61963978179E-01
