# Hz S RI R 50
! CMT, C1220, 16058040, 17.2.0/1
! Date: 14/08/2018 12:24:30
! Data: Format (Calibration Info)
! Freq                      S11: Re/Im (F2)                       S21: Re/Im (F2)                       S12: Re/Im (F2)                       S22: Re/Im (F2)            
1.00000000000E+09 -6.46214927011E-01 +7.15124009306E-01 +3.77143450843E-05 -2.03750761848E-05 +6.24446419914E-06 +5.98824981948E-06 -7.47529429030E-01 +6.24232852607E-01
1.00500000000E+09 -6.39050200562E-01 +7.20240242224E-01 -1.24612282442E-05 +4.11179698087E-06 +1.23591162105E-06 -3.72834754497E-05 -7.43981449487E-01 +6.28260589352E-01
1.01000000000E+09 -6.33294601568E-01 +7.24891740469E-01 -1.28821670954E-05 -4.85672995935E-05 -9.14631151734E-06 -6.54549411133E-05 -7.40569033898E-01 +6.32000021107E-01
1.01500000000E+09 -6.29072283212E-01 +7.28694507320E-01 +2.09172792276E-05 -3.76356486845E-05 +5.11497735309E-05 +3.10554755250E-05 -7.37151088799E-01 +6.35617533066E-01
1.02000000000E+09 -6.26677379052E-01 +7.31688495143E-01 -2.88148846432E-06 +2.58407835981E-05 +5.07723817466E-05 -1.30372738250E-05 -7.33828535126E-01 +6.39168078899E-01
1.02500000000E+09 -6.25045259596E-01 +7.34243007195E-01 -3.39106620268E-05 +1.11842606620E-05 +2.78010870285E-05 -1.15950110327E-06 -7.30933829899E-01 +6.42717885525E-01
1.03000000000E+09 -6.24064099830E-01 +7.36707393382E-01 +3.32002798416E-06 +3.71900602983E-05 -7.41793858297E-06 +9.27086345196E-06 -7.27408412780E-01 +6.46528505474E-01
1.03500000000E+09 -6.22083676836E-01 +7.38740804348E-01 -1.94028206849E-06 +4.90786440355E-05 +4.11428043533E-05 +9.64885775998E-06 -7.23560622291E-01 +6.50623585991E-01
1.04000000000E+09 -6.18686226861E-01 +7.41520961483E-01 +2.51869374968E-05 -1.60580471282E-06 +2.35248338678E-06 +3.03314137539E-05 -7.19871249770E-01 +6.54282933825E-01
1.04500000000E+09 -6.13526503155E-01 +7.45034990594E-01 -2.66662814470E-05 +3.36098178658E-05 -1.37239589581E-05 -2.74908832257E-05 -7.16300793510E-01 +6.57678823180E-01
1.05000000000E+09 -6.06248377939E-01 +7.49131703055E-01 +2.28816286288E-05 -3.60544338714E-06 +6.67757605318E-06 +1.78583509228E-05 -7.12913160813E-01 +6.60988852518E-01
1.05500000000E+09 -5.97694956482E-01 +7.53714210614E-01 +2.24427892257E-05 +2.43636111298E-05 +1.25950997550E-05 -4.83568610563E-05 -7.09647664250E-01 +6.64506572739E-01
1.06000000000E+09 -5.88442398144E-01 +7.58882971979E-01 -3.89734223382E-06 +2.50808861598E-05 -4.46148847916E-05 -1.15054775149E-05 -7.06369529806E-01 +6.68315498993E-01
1.06500000000E+09 -5.79198597249E-01 +7.63744529671E-01 +2.67576114143E-05 +1.52816127852E-06 +4.75411810982E-06 +2.59331537285E-06 -7.02473881986E-01 +6.71968460988E-01
1.07000000000E+09 -5.71439777123E-01 +7.68291344236E-01 +2.67005276849E-05 +1.31630427899E-05 -3.78291361740E-06 +2.66686389582E-06 -6.98577924996E-01 +6.75749872985E-01
1.07500000000E+09 -5.65243771185E-01 +7.72288727967E-01 +4.47384053754E-05 -3.01540454336E-05 +3.84672918137E-05 -3.04768825065E-05 -6.94123187493E-01 +6.79404467867E-01
1.08000000000E+09 -5.60951963535E-01 +7.75406093823E-01 +1.28109963650E-05 +3.08680703340E-05 -7.99662665923E-06 +2.41185148447E-05 -6.90320096277E-01 +6.83313926230E-01
1.08500000000E+09 -5.58208196658E-01 +7.77945496755E-01 +4.47313970590E-05 +9.53065994050E-06 +2.04177176679E-05 -2.74538468942E-05 -6.86308243180E-01 +6.86978861240E-01
1.09000000000E+09 -5.56054642748E-01 +7.80061955092E-01 +9.93784257469E-06 +6.03022944467E-06 +2.15012403369E-05 +6.46270653077E-06 -6.82511769437E-01 +6.90790491896E-01
1.09500000000E+09 -5.54553915782E-01 +7.81623554074E-01 +2.50626566992E-05 +1.81048305296E-05 +3.17055022214E-07 -2.57778129755E-06 -6.78674654279E-01 +6.94672250449E-01
1.10000000000E+09 -5.51566963118E-01 +7.83723410519E-01 -1.09890274124E-05 -5.28568624056E-06 +1.57549217734E-05 -1.39002109065E-05 -6.74697304685E-01 +6.98365011415E-01
1.10500000000E+09 -5.47447679914E-01 +7.86318190115E-01 -1.63687009016E-05 +1.86586432931E-06 +3.29416862654E-05 +8.87234307907E-06 -6.70431012494E-01 +7.01929436540E-01
1.11000000000E+09 -5.41793889763E-01 +7.89484403013E-01 -9.45356038647E-06 -4.60279166215E-05 +6.62955009827E-06 +2.89067905197E-06 -6.66112420179E-01 +7.05098452096E-01
1.11500000000E+09 -5.34674566501E-01 +7.93343687124E-01 +2.92658338857E-05 -1.69271405781E-05 +6.02343053402E-06 -4.84439464656E-05 -6.61991579925E-01 +7.08624016863E-01
1.12000000000E+09 -5.26854504920E-01 +7.97361150875E-01 +5.02700017662E-05 -2.99266785675E-05 +3.30926382947E-05 -1.91242729259E-05 -6.58167547553E-01 +7.12255313811E-01
1.12500000000E+09 -5.18568777566E-01 +8.01383891733E-01 +8.21966143527E-06 +7.97177541786E-07 +2.08696651969E-06 -4.84336664014E-07 -6.53783737669E-01 +7.16108762589E-01
1.13000000000E+09 -5.11264639058E-01 +8.05140895414E-01 -1.63531346411E-05 -9.92631070904E-06 -2.41883492995E-05 +1.21880910723E-05 -6.49627335129E-01 +7.19820242876E-01
1.13500000000E+09 -5.04772538099E-01 +8.07931473461E-01 +1.25795814403E-06 -4.62735714168E-05 +5.21631608292E-05 -4.37716047445E-05 -6.45147127578E-01 +7.23726177376E-01
1.14000000000E+09 -4.99626885339E-01 +8.10371582815E-01 +4.05892475989E-05 +2.72822888519E-06 -1.59047095617E-05 +1.17435826866E-06 -6.40442791603E-01 +7.26927237493E-01
1.14500000000E+09 -4.95551390058E-01 +8.12168332353E-01 +1.60314295133E-05 -5.66987968498E-05 +1.68803372007E-05 -3.85537701171E-05 -6.35875404179E-01 +7.30444658400E-01
1.15000000000E+09 -4.91946817524E-01 +8.13545390242E-01 -6.83122104092E-06 -1.28159130241E-05 -9.00353419142E-05 -3.78769562337E-05 -6.31184384606E-01 +7.34180082446E-01
1.15500000000E+09 -4.88119238529E-01 +8.15286638533E-01 -1.27626770519E-05 -5.62698386412E-05 +1.95468731678E-05 -5.32285060085E-05 -6.26367562757E-01 +7.37982874226E-01
1.16000000000E+09 -4.83475018945E-01 +8.17155127114E-01 -4.58531592252E-06 +4.51893117441E-06 +3.83466409045E-06 -3.41577191560E-05 -6.21630217236E-01 +7.41771469918E-01
1.16500000000E+09 -4.77644143020E-01 +8.19721735726E-01 +6.97728809480E-06 -2.61159272534E-05 -6.18608220525E-06 -1.73629580054E-05 -6.16426387425E-01 +7.45296508922E-01
1.17000000000E+09 -4.70696356374E-01 +8.22751564641E-01 -1.51571223203E-05 -2.59045241956E-05 +5.34025744551E-05 -2.87840989395E-05 -6.11136854364E-01 +7.48708947081E-01
1.17500000000E+09 -4.62745172328E-01 +8.25971798518E-01 -1.38321934492E-05 -2.73052333859E-05 -1.78238236272E-05 -4.51202932490E-05 -6.05418605444E-01 +7.51895200921E-01
1.18000000000E+09 -4.54537305489E-01 +8.29573291897E-01 -5.26811675182E-05 -3.29349560590E-05 -7.21972012580E-07 -1.29638713076E-05 -5.99781633682E-01 +7.54913704790E-01
1.18500000000E+09 -4.46606680411E-01 +8.32982587971E-01 +2.17276334873E-06 -4.15602101434E-05 -1.79873834117E-05 -1.13557477006E-04 -5.93952510203E-01 +7.57889311493E-01
1.19000000000E+09 -4.39595034818E-01 +8.35698383570E-01 -1.42165007240E-05 -2.35985059937E-05 -2.80492650089E-05 -6.12818826208E-05 -5.87846775661E-01 +7.60556716870E-01
1.19500000000E+09 -4.33551258905E-01 +8.37698219064E-01 -5.73121515157E-05 -8.57542150721E-05 -7.51142080489E-05 -5.47471305292E-05 -5.81947659613E-01 +7.61895052219E-01
1.20000000000E+09 -4.28691116805E-01 +8.38584657929E-01 -1.12730582691E-04 -8.78171565191E-07 -9.92176329702E-05 -3.69693172490E-05 -5.77478477399E-01 +7.62084290238E-01
1.20500000000E+09 -4.24436854754E-01 +8.39645881266E-01 -7.23689312782E-05 +6.67931121882E-05 -4.31381817309E-05 +6.74050602109E-05 -5.75136228323E-01 +7.63022404884E-01
1.21000000000E+09 -4.19809591047E-01 +8.40599058385E-01 -4.48825923342E-05 +4.31822264275E-05 -1.54364389897E-05 +3.49907965061E-05 -5.73178193162E-01 +7.66019463141E-01
1.21500000000E+09 -4.13964560223E-01 +8.41968029563E-01 -2.91260439818E-05 +1.71178933410E-05 -2.98867537715E-05 +2.08704918383E-06 -5.70305416856E-01 +7.70255706294E-01
1.22000000000E+09 -4.06524588737E-01 +8.43574846780E-01 -1.85784726861E-05 +1.11719463363E-05 -1.95560624969E-05 +2.36706096411E-05 -5.66158719296E-01 +7.75744337379E-01
1.22500000000E+09 -3.97316376457E-01 +8.46052992516E-01 +3.16322691325E-06 +1.50053288122E-05 -9.45580265006E-06 +1.52536238506E-05 -5.61086654019E-01 +7.80684618066E-01
1.23000000000E+09 -3.86944319882E-01 +8.48943859222E-01 -9.03623473648E-07 +4.62939082108E-05 -3.23849405223E-05 +1.55456185240E-06 -5.55483128763E-01 +7.85405175108E-01
1.23500000000E+09 -3.76055234138E-01 +8.52491577376E-01 +1.40118389701E-05 -9.61023382248E-06 +1.74677212055E-05 +2.96255779589E-05 -5.49703527486E-01 +7.89649666013E-01
1.24000000000E+09 -3.65075587378E-01 +8.56291643514E-01 +8.80379765547E-06 +3.69233536521E-05 +6.57364755188E-05 +1.50132821910E-05 -5.43681191002E-01 +7.93523570141E-01
1.24500000000E+09 -3.55480828388E-01 +8.60181606185E-01 -3.84432962566E-05 -6.74426837396E-05 +1.14160075600E-05 +1.78220495013E-05 -5.37451296621E-01 +7.97277908336E-01
1.25000000000E+09 -3.47011784878E-01 +8.63337413912E-01 -4.24352350100E-05 +1.57984869925E-06 -2.63307045793E-05 +1.72522663516E-06 -5.31023561428E-01 +8.01497811257E-01
1.25500000000E+09 -3.40103767088E-01 +8.65811515055E-01 -5.33306447626E-05 -3.25906619267E-07 -4.11186880609E-05 -4.33779274122E-05 -5.24107261272E-01 +8.05430369286E-01
1.26000000000E+09 -3.34737717970E-01 +8.67556537129E-01 -5.41541428741E-06 +6.96081539004E-06 -4.76634225432E-05 +2.49897565897E-05 -5.17404100487E-01 +8.09814445970E-01
1.26500000000E+09 -3.29958415992E-01 +8.68832249987E-01 -8.23884701056E-05 +2.40134047630E-07 -5.57812231114E-05 +2.52420005364E-05 -5.10365446494E-01 +8.13600994560E-01
1.27000000000E+09 -3.24882126388E-01 +8.69844633018E-01 -8.44559763333E-05 -1.59945182463E-05 -6.82354801571E-05 +3.32088786011E-06 -5.03494090501E-01 +8.17358148493E-01
1.27500000000E+09 -3.18688140492E-01 +8.70943247984E-01 -2.62313793981E-05 +4.37407698646E-05 -8.44332084294E-05 +5.70637420314E-05 -4.96398265592E-01 +8.20840656013E-01
1.28000000000E+09 -3.10601142271E-01 +8.72276535875E-01 -7.09989237778E-05 -5.59535143228E-06 -7.78901220627E-05 +3.66409227860E-05 -4.89555081153E-01 +8.24273121594E-01
1.28500000000E+09 -3.00162879802E-01 +8.74219020430E-01 -1.12318005857E-04 +2.99558744591E-05 -9.69748839363E-05 +5.28272079400E-05 -4.82224322188E-01 +8.27919179360E-01
1.29000000000E+09 -2.88560692233E-01 +8.76756370103E-01 -3.76560519561E-05 +4.77422994826E-05 -2.28478789412E-05 +8.51755030435E-05 -4.74707085435E-01 +8.31644933282E-01
1.29500000000E+09 -2.76145970724E-01 +8.79662059385E-01 -5.32213084804E-05 +4.65036644193E-05 -7.17786596987E-05 +8.87533822067E-05 -4.66958081331E-01 +8.35193290936E-01
1.30000000000E+09 -2.63633733330E-01 +8.83022190094E-01 -9.92988956973E-05 +5.06867583705E-05 -8.34809642694E-05 +1.03632434735E-04 -4.59165891982E-01 +8.38723675610E-01
1.30500000000E+09 -2.52207638475E-01 +8.85904260924E-01 -1.02747752521E-04 +7.57153708083E-05 -7.13900301640E-05 +7.92870168229E-05 -4.51166452392E-01 +8.42123087351E-01
1.31000000000E+09 -2.42276640688E-01 +8.88235613842E-01 +1.85035206037E-06 +1.09606484471E-04 -1.07087324205E-05 +7.47823934520E-05 -4.42873731986E-01 +8.45453302907E-01
1.31500000000E+09 -2.34343134283E-01 +8.89680955845E-01 +1.71494848384E-05 +8.03943908250E-05 -7.61055492762E-06 +1.14637294391E-04 -4.34181073263E-01 +8.48970090853E-01
1.32000000000E+09 -2.27939945164E-01 +8.90307472951E-01 +4.05500618883E-05 +7.91154927524E-05 +5.75887822586E-05 +6.08697860663E-05 -4.25077187241E-01 +8.52352189788E-01
1.32500000000E+09 -2.22093876594E-01 +8.90208764648E-01 -1.05969531538E-05 +1.02680212315E-04 -3.33732818903E-05 +1.16003215752E-04 -4.15633917203E-01 +8.55724304111E-01
1.33000000000E+09 -2.15596408246E-01 +8.89781002742E-01 +1.48506134151E-05 +1.49591072552E-04 +2.25319811921E-05 +1.00586745599E-04 -4.05971259929E-01 +8.59056421147E-01
1.33500000000E+09 -2.07170836455E-01 +8.88890100825E-01 -5.27551036663E-06 +9.31492250650E-05 +6.27117761791E-05 +1.08837268737E-04 -3.96144599765E-01 +8.62449854128E-01
1.34000000000E+09 -1.96407340255E-01 +8.88407270685E-01 +5.65111463358E-05 +9.14721177874E-05 +4.11481290259E-05 +8.08876177186E-05 -3.85843582720E-01 +8.65767077729E-01
1.34500000000E+09 -1.82941728850E-01 +8.87955963166E-01 +7.53189646681E-05 +5.74000490232E-05 +8.94744346965E-05 +8.04742159522E-05 -3.75142886880E-01 +8.69004688973E-01
1.35000000000E+09 -1.67508370616E-01 +8.87875962719E-01 +3.10108530338E-05 +3.33300046224E-05 +8.92254084495E-05 +5.47172585429E-05 -3.63968387447E-01 +8.72130822748E-01
1.35500000000E+09 -1.50649614226E-01 +8.88235135295E-01 +2.08867017740E-05 +5.90800691658E-05 +3.51581739444E-05 +6.17360932038E-05 -3.52420682930E-01 +8.75013856446E-01
1.36000000000E+09 -1.33836538621E-01 +8.88896150093E-01 +5.98254415085E-05 +8.87153790532E-05 +2.82172064276E-05 +4.58328727803E-05 -3.40565265894E-01 +8.77779822627E-01
1.36500000000E+09 -1.17731353810E-01 +8.89554921580E-01 +3.56755015564E-05 +5.82134158471E-05 +3.14170956171E-05 +8.31591026568E-05 -3.28402052341E-01 +8.80309017162E-01
1.37000000000E+09 -1.03346270319E-01 +8.89646949761E-01 +1.00281306938E-04 +9.52733285006E-05 +6.12777971264E-05 +1.01674290534E-04 -3.15563712772E-01 +8.82662482284E-01
1.37500000000E+09 -9.09572124448E-02 +8.89391255942E-01 +5.86679158886E-05 +1.31095703089E-04 +3.58811348935E-05 +1.38536120599E-04 -3.01872245150E-01 +8.84926472316E-01
1.38000000000E+09 -8.01176344056E-02 +8.88716380896E-01 +1.14305337179E-04 +1.69435919657E-04 +1.32969874103E-04 +1.75321511039E-04 -2.87192472672E-01 +8.87010362605E-01
1.38500000000E+09 -6.91993406983E-02 +8.87163581733E-01 +1.78163049297E-04 +7.80621861977E-05 +1.85139227950E-04 +1.58615585032E-04 -2.71687624681E-01 +8.88735762548E-01
1.39000000000E+09 -5.75431962824E-02 +8.85010034295E-01 +2.12642056091E-04 +1.30806812377E-04 +2.32241273895E-04 +1.20462859099E-04 -2.55781024054E-01 +8.90309997466E-01
1.39500000000E+09 -4.38946632642E-02 +8.81720676335E-01 +2.70433265288E-04 +7.75088238584E-05 +2.52163426708E-04 +1.47467605472E-06 -2.38863332477E-01 +8.91018192770E-01
1.40000000000E+09 -2.74275389280E-02 +8.77667273189E-01 +2.35298610849E-04 +2.07715737685E-05 +2.31483672260E-04 -5.41101029229E-05 -2.21448411129E-01 +8.91578227490E-01
1.40500000000E+09 -8.78382443878E-03 +8.72776327248E-01 +1.88127148406E-04 -4.32438924405E-05 +1.71969829093E-04 -4.63890301301E-06 -2.02686864761E-01 +8.91339220875E-01
1.41000000000E+09 +1.20476142639E-02 +8.67459351624E-01 +1.76205590592E-04 +1.94903675118E-05 +1.45544755388E-04 +4.54957171093E-05 -1.82417836998E-01 +8.90598129594E-01
1.41500000000E+09 +3.41925944021E-02 +8.61741055887E-01 +2.29672707947E-04 +3.01021809404E-05 +2.16106342632E-04 -8.74487631386E-07 -1.60640937166E-01 +8.88840593694E-01
1.42000000000E+09 +5.70607276449E-02 +8.55620739465E-01 +2.78226378345E-04 -2.29472075435E-05 +3.60195830139E-04 -6.01243276668E-06 -1.37834052235E-01 +8.86118507419E-01
1.42500000000E+09 +7.91453713477E-02 +8.48480075306E-01 +3.44191253085E-04 -1.24168951162E-04 +4.00132056706E-04 -1.62471286204E-04 -1.14208921412E-01 +8.82335415079E-01
1.43000000000E+09 +9.98600350844E-02 +8.40290643706E-01 +2.73111212445E-04 -1.64321872062E-04 +2.76766211825E-04 -1.96722232886E-04 -8.94103927591E-02 +8.77620447685E-01
1.43500000000E+09 +1.19782286850E-01 +8.30702396648E-01 +2.74850250933E-04 -2.13251245898E-04 +2.52496344326E-04 -2.24690381282E-04 -6.30296275502E-02 +8.70772720362E-01
1.44000000000E+09 +1.39425518464E-01 +8.19796934403E-01 +1.97395404557E-04 -2.27549110355E-04 +1.82181965402E-04 -2.17731667989E-04 -3.49839261536E-02 +8.61779367978E-01
1.44500000000E+09 +1.60651401255E-01 +8.06199491714E-01 +2.71559885478E-04 -1.09489283410E-04 +2.22216913661E-04 -1.53504956275E-04 -5.09604768670E-03 +8.50164812474E-01
1.45000000000E+09 +1.83948379520E-01 +7.89110738711E-01 +3.80301153371E-04 -2.16134524434E-04 +3.73780417035E-04 -2.31307432581E-04 +2.67283450071E-02 +8.35629827823E-01
1.45500000000E+09 +2.09967942578E-01 +7.68039365069E-01 +3.33897673398E-04 -2.94642459965E-04 +3.11724168799E-04 -3.12745193370E-04 +6.00883004833E-02 +8.17512593664E-01
1.46000000000E+09 +2.39023537391E-01 +7.42056691241E-01 +5.18564178383E-04 -3.23005326363E-04 +4.57494942544E-04 -3.57908921370E-04 +9.47900469804E-02 +7.95178354126E-01
1.46500000000E+09 +2.69785373443E-01 +7.11441387498E-01 +4.19059924807E-04 -6.95835011498E-04 +3.77775497835E-04 -6.68433804114E-04 +1.30126546490E-01 +7.68289527745E-01
1.47000000000E+09 +3.02080673956E-01 +6.76138962614E-01 +2.98880524811E-04 -6.51307484557E-04 +2.85455321095E-04 -6.02039625459E-04 +1.66910740368E-01 +7.34289415057E-01
1.47500000000E+09 +3.34026558006E-01 +6.35188925702E-01 +1.70579612927E-04 -8.74047081344E-04 +2.13674848814E-04 -8.12632944857E-04 +2.03570341751E-01 +6.92790117488E-01
1.48000000000E+09 +3.63599786542E-01 +5.88541949191E-01 +1.37023317370E-04 -7.87350535878E-04 +1.51046167674E-04 -8.28853215467E-04 +2.39206532975E-01 +6.42788478874E-01
1.48500000000E+09 +3.88851979770E-01 +5.35519327715E-01 +3.26795327136E-04 -9.63717935196E-04 +2.90370433713E-04 -9.44609106868E-04 +2.72059864748E-01 +5.83911354943E-01
1.49000000000E+09 +4.08505712743E-01 +4.75550816386E-01 +3.57407042988E-04 -1.47032169413E-03 +2.90291034054E-04 -1.47085245114E-03 +2.98858529289E-01 +5.13971985151E-01
1.49500000000E+09 +4.20316613923E-01 +4.07305169133E-01 -1.54158910482E-04 -2.20584750395E-03 -2.14562145701E-04 -2.14551774235E-03 +3.15437953451E-01 +4.35157126888E-01
1.50000000000E+09 +4.21619062124E-01 +3.30161673438E-01 -1.37451152997E-03 -2.59411520427E-03 -1.30099350183E-03 -2.52322911485E-03 +3.19223723900E-01 +3.47076914117E-01
1.50500000000E+09 +4.10349036163E-01 +2.45437806378E-01 -2.67504490584E-03 -1.99725578146E-03 -2.54285240303E-03 -2.00370685405E-03 +3.06262797186E-01 +2.52242281728E-01
1.51000000000E+09 +3.83986913962E-01 +1.54340948523E-01 -3.34035514965E-03 -8.78324308075E-04 -3.25138857714E-03 -1.00751624410E-03 +2.72902435623E-01 +1.54656306198E-01
1.51500000000E+09 +3.38238873826E-01 +6.06233747935E-02 -3.50849488669E-03 -1.19961273159E-04 -3.57907899399E-03 -1.98185835699E-04 +2.19084526501E-01 +6.01820253604E-02
1.52000000000E+09 +2.71181473589E-01 -2.71711100612E-02 -3.80955935226E-03 +1.58890677269E-03 -3.82530815835E-03 +1.60022767464E-03 +1.43106443629E-01 -2.32916241302E-02
1.52500000000E+09 +1.84776038757E-01 -1.01676281053E-01 -2.27400971781E-03 +2.11359549130E-03 -2.28897502321E-03 +2.10533465892E-03 +4.97956506788E-02 -8.88085655243E-02
1.53000000000E+09 +8.14691710332E-02 -1.54482592693E-01 -2.21440932435E-03 +2.08422064152E-03 -2.25957515806E-03 +2.11619547144E-03 -5.37304044456E-02 -1.31546333645E-01
1.53500000000E+09 -2.98780798851E-02 -1.80917238363E-01 -2.59285000615E-03 +3.20071273644E-03 -2.57402767231E-03 +3.20642975799E-03 -1.62078097516E-01 -1.51459959872E-01
1.54000000000E+09 -1.42398122012E-01 -1.80431707356E-01 -1.06752852748E-03 +4.74601671387E-03 -1.10973168371E-03 +4.75946119208E-03 -2.67475566625E-01 -1.49457948425E-01
1.54500000000E+09 -2.49350374349E-01 -1.56120242383E-01 +1.12991806862E-03 +4.92726530474E-03 +1.05549897258E-03 +4.86498834351E-03 -3.64791780436E-01 -1.27269315210E-01
1.55000000000E+09 -3.46325114868E-01 -1.12345576564E-01 +2.84265887850E-03 +3.33954614257E-03 +2.67743148888E-03 +3.41511498775E-03 -4.48156193880E-01 -9.15206087314E-02
1.55500000000E+09 -4.28241159054E-01 -5.42867047279E-02 +2.91076278355E-03 +2.14348639621E-03 +2.80300414200E-03 +2.35095777287E-03 -5.18449595860E-01 -4.65238258420E-02
1.56000000000E+09 -4.93739253845E-01 +9.38833460169E-03 +3.12807145907E-03 +1.16064001819E-03 +3.19936144637E-03 +1.33935992341E-03 -5.76028734604E-01 +5.24342107807E-03
1.56500000000E+09 -5.44091969738E-01 +7.38547968140E-02 +2.78376709906E-03 +4.32843334728E-04 +3.03007332781E-03 +4.84591380967E-04 -6.20516538153E-01 +6.00857541924E-02
1.57000000000E+09 -5.81933778144E-01 +1.35758392347E-01 +2.61182026618E-03 -2.70850053935E-04 +2.79326685263E-03 -2.60267962374E-04 -6.54336798155E-01 +1.14098941125E-01
