# Hz S RI R 50
! CMT, C1220, 16058040, 17.2.0/1
! Date: 14/08/2018 12:23:34
! Data: Format (Calibration Info)
! Freq                      S11: Re/Im (F2)                       S21: Re/Im (F2)                       S12: Re/Im (F2)                       S22: Re/Im (F2)            
1.00000000000E+09 -6.45754490544E-01 +7.15740233683E-01 +3.29660632959E-05 +5.63095064322E-06 +7.74936518679E-06 +6.20005403393E-06 -7.47919927936E-01 +6.24121296459E-01
1.00500000000E+09 -6.38532756805E-01 +7.20836462958E-01 -1.75016059671E-05 +3.54452502474E-06 +6.02414681420E-05 +1.48990825803E-05 -7.44265468150E-01 +6.28162758125E-01
1.01000000000E+09 -6.32734361095E-01 +7.25456025541E-01 -1.16902560694E-05 +1.78377835869E-05 +6.09022271267E-06 +4.57133761110E-05 -7.40756316319E-01 +6.31962505340E-01
1.01500000000E+09 -6.28596249446E-01 +7.29141522060E-01 +2.81513117691E-06 +7.29815865943E-05 +2.77622176756E-05 +1.23752214141E-05 -7.37504857155E-01 +6.35654806567E-01
1.02000000000E+09 -6.25986387089E-01 +7.32399309367E-01 -1.22223552777E-05 +3.59946651040E-05 -2.93708694322E-05 -1.09870156838E-05 -7.34052346749E-01 +6.39142968071E-01
1.02500000000E+09 -6.24415320280E-01 +7.34902840577E-01 -3.39917793474E-05 +5.72289335713E-06 +1.06657688334E-05 -4.66637346524E-05 -7.31051928635E-01 +6.42874082339E-01
1.03000000000E+09 -6.23340887401E-01 +7.37117342313E-01 -4.17237191521E-06 +3.83137948572E-06 -3.08819857529E-05 +2.05573027998E-05 -7.27654148569E-01 +6.46656607407E-01
1.03500000000E+09 -6.21364653579E-01 +7.39436506933E-01 +2.18447208899E-05 +3.80647109779E-05 +4.83772861621E-05 -1.03952970707E-05 -7.23946603464E-01 +6.50623955488E-01
1.04000000000E+09 -6.18027902133E-01 +7.42197886408E-01 +1.17459152513E-05 +4.62792213183E-06 -5.06660892545E-05 -1.45256441053E-05 -7.20110097085E-01 +6.54188020083E-01
1.04500000000E+09 -6.12796258726E-01 +7.45453793614E-01 -1.13403758926E-05 -7.22714062405E-06 -2.88781557297E-06 +5.75011558992E-05 -7.16536143177E-01 +6.57668287142E-01
1.05000000000E+09 -6.05581881888E-01 +7.49737796842E-01 +3.54064640818E-05 +3.04460855882E-05 +4.63898419620E-05 +4.24398709456E-05 -7.13233254840E-01 +6.60988240852E-01
1.05500000000E+09 -5.96770715530E-01 +7.54373666914E-01 +1.65890013144E-05 +8.58223279716E-06 -1.56235565155E-05 +3.99585185355E-06 -7.09864641141E-01 +6.64625481832E-01
1.06000000000E+09 -5.87532933154E-01 +7.59577601898E-01 -1.29108589026E-05 -2.81225229108E-05 +2.27553297847E-05 -6.41746759925E-06 -7.06563441015E-01 +6.68361351130E-01
1.06500000000E+09 -5.78298682573E-01 +7.64841136589E-01 +1.43809716184E-05 +1.40390750337E-05 +7.18200875190E-06 +7.20304736855E-05 -7.02911221707E-01 +6.71989939411E-01
1.07000000000E+09 -5.70450738795E-01 +7.69083765031E-01 +2.89438214725E-05 -7.53400705765E-06 +3.72982517436E-05 +2.76702475271E-05 -6.98789387920E-01 +6.75633173269E-01
1.07500000000E+09 -5.64287396489E-01 +7.72887574235E-01 +3.26632507232E-05 +3.07714377769E-06 +4.47332568754E-05 +2.16273373221E-05 -6.94408432781E-01 +6.79403342495E-01
1.08000000000E+09 -5.59979376079E-01 +7.76224110421E-01 +5.63260392044E-05 -1.65075788064E-05 +2.17999402677E-05 -3.97934173175E-05 -6.90392175296E-01 +6.83194850427E-01
1.08500000000E+09 -5.57151629913E-01 +7.78719908652E-01 +6.53714355123E-05 -3.80379835190E-06 +5.00664549562E-05 +3.41343339688E-05 -6.86621596172E-01 +6.86849670704E-01
1.09000000000E+09 -5.54944882160E-01 +7.80766848356E-01 +1.79212069800E-05 -2.65966915478E-05 +4.09428786565E-05 +5.40681653387E-06 -6.82708360837E-01 +6.90724080293E-01
1.09500000000E+09 -5.53305439199E-01 +7.82613149143E-01 +2.77542726110E-05 +7.77723868098E-06 +1.81011083746E-05 -2.27925923472E-05 -6.79127024241E-01 +6.94682248166E-01
1.10000000000E+09 -5.50396884647E-01 +7.84591505773E-01 +3.16764066232E-05 -1.66144919574E-05 +5.29364831288E-05 +4.69393624131E-05 -6.74947363179E-01 +6.98383046399E-01
1.10500000000E+09 -5.46339950202E-01 +7.87258032318E-01 +1.13507880638E-05 -5.07229207732E-05 +3.36273216155E-05 -2.49439523245E-05 -6.70741540945E-01 +7.02014122111E-01
1.11000000000E+09 -5.40617624505E-01 +7.90366448741E-01 +3.21077235430E-05 -2.23664565662E-05 +3.89530812780E-05 -3.96309932835E-05 -6.66518562936E-01 +7.05346891254E-01
1.11500000000E+09 -5.33341902921E-01 +7.94266915092E-01 -1.40415855753E-05 +3.79076307746E-06 -4.24038408725E-06 -3.81121864669E-05 -6.62410982415E-01 +7.08663734304E-01
1.12000000000E+09 -5.25445853691E-01 +7.98258174943E-01 -1.01589616513E-05 -3.22092352714E-05 +3.79404151088E-05 -2.25821671315E-05 -6.58419650876E-01 +7.12308476205E-01
1.12500000000E+09 -5.17217640059E-01 +8.02251077534E-01 +9.15546573646E-06 -5.29921374944E-05 +1.18411622623E-05 -3.92768525132E-05 -6.54150157393E-01 +7.16233483815E-01
1.13000000000E+09 -5.09782263940E-01 +8.06008649369E-01 +3.89491792783E-05 -4.04227886646E-06 +2.28971919922E-05 -3.03749113229E-05 -6.49884728584E-01 +7.19815618948E-01
1.13500000000E+09 -5.03369925861E-01 +8.08842102153E-01 +2.80356088509E-05 +2.89488429861E-05 +1.11058770403E-05 -6.92390958003E-06 -6.45443177105E-01 +7.23734079184E-01
1.14000000000E+09 -4.98175640649E-01 +8.11499086920E-01 -4.38666841032E-06 -1.08333435874E-05 +3.05214376107E-05 -2.78362203065E-05 -6.40724815044E-01 +7.27110101551E-01
1.14500000000E+09 -4.94004385921E-01 +8.13000684798E-01 -6.33605743602E-06 +2.38516185333E-05 -1.93976686688E-06 +3.15995435071E-05 -6.35925748709E-01 +7.30456740145E-01
1.15000000000E+09 -4.90274120983E-01 +8.14598459256E-01 +5.56932951169E-06 -9.76886355197E-06 +2.75072603177E-05 -2.36328661356E-05 -6.31405687916E-01 +7.34122798159E-01
1.15500000000E+09 -4.86451192390E-01 +8.16310960887E-01 +2.30203327934E-05 +5.33068658787E-07 -1.69879651226E-06 +2.72958478673E-06 -6.26781880283E-01 +7.38155671953E-01
1.16000000000E+09 -4.81666859524E-01 +8.18107247283E-01 -1.93073534658E-05 +5.82070026136E-06 -3.18022682654E-05 +5.22025465834E-06 -6.21799281354E-01 +7.41833842121E-01
1.16500000000E+09 -4.75881696848E-01 +8.20715383696E-01 -1.49880880175E-05 -3.01829601076E-05 +5.38213025388E-06 -7.12273429549E-05 -6.16779003326E-01 +7.45526396158E-01
1.17000000000E+09 -4.68773487121E-01 +8.23732648883E-01 -1.77870605660E-06 -2.36955176518E-05 +3.52877872775E-05 -7.60495513037E-06 -6.11340673493E-01 +7.48842223550E-01
1.17500000000E+09 -4.60709201268E-01 +8.27078366592E-01 -6.83757386910E-06 -4.59739297102E-06 +4.21910388666E-05 -4.60735444216E-05 -6.05553480127E-01 +7.51909847692E-01
1.18000000000E+09 -4.52415492490E-01 +8.30724021900E-01 +3.38596835566E-07 -4.39806543158E-05 +6.83169256373E-05 -4.33302385588E-05 -6.00097753229E-01 +7.54976986689E-01
1.18500000000E+09 -4.44425282187E-01 +8.33951062454E-01 +3.20084335774E-05 -2.58908676770E-05 +1.38992961054E-05 -4.30726662896E-05 -5.94100507554E-01 +7.58200251180E-01
1.19000000000E+09 -4.37298329810E-01 +8.36615044508E-01 +1.47877238513E-05 -1.02386903488E-05 -2.66766579222E-05 -1.02733660029E-04 -5.87893883642E-01 +7.60595666447E-01
1.19500000000E+09 -4.31312959671E-01 +8.38594614788E-01 -4.50604209235E-05 -8.32912973652E-05 -5.55311224349E-06 -8.06993022993E-05 -5.82058959917E-01 +7.61844267074E-01
1.20000000000E+09 -4.26442805045E-01 +8.39578487607E-01 -5.94406533713E-05 -3.50204066242E-06 -8.63334433616E-05 -4.34253830728E-05 -5.77679611312E-01 +7.62232838702E-01
1.20500000000E+09 -4.22047070897E-01 +8.40722857984E-01 -6.55311484232E-05 -7.21196151341E-06 -6.89144125974E-05 +2.86372093870E-05 -5.75343350604E-01 +7.62887269694E-01
1.21000000000E+09 -4.17430932442E-01 +8.41708210374E-01 -4.36196365074E-05 +1.56444964022E-05 -4.32911989510E-05 +1.45176721912E-05 -5.73379045093E-01 +7.66061901378E-01
1.21500000000E+09 -4.11511964589E-01 +8.43048826783E-01 -3.24997662433E-05 -7.89440257052E-06 -3.27959213190E-05 +2.06162590061E-05 -5.70687932439E-01 +7.70444517077E-01
1.22000000000E+09 -4.03885742412E-01 +8.44767158463E-01 -4.90209413729E-05 -6.31500030422E-06 -1.87149978739E-05 -6.42891077755E-07 -5.66579238318E-01 +7.75902180509E-01
1.22500000000E+09 -3.94618728539E-01 +8.47161039337E-01 +2.39323464972E-05 -7.86116692721E-06 -2.90588248536E-05 +2.06660712717E-05 -5.61407458171E-01 +7.80895230888E-01
1.23000000000E+09 -3.84205384656E-01 +8.50149897300E-01 +4.22941665983E-06 -1.10776838152E-05 -4.17861541172E-05 -2.29342652166E-05 -5.55806399547E-01 +7.85597151484E-01
1.23500000000E+09 -3.73057735783E-01 +8.53570500256E-01 -5.59658506838E-05 -4.50304691368E-05 -6.81603179154E-06 +7.59346048222E-06 -5.49877342559E-01 +7.89824621933E-01
1.24000000000E+09 -3.62097578690E-01 +8.57117784339E-01 -5.14892246715E-05 -2.20567606611E-05 -3.34590275936E-05 -4.21096881199E-05 -5.43819128730E-01 +7.93554932381E-01
1.24500000000E+09 -3.52272821485E-01 +8.61127850861E-01 -5.98989637647E-05 +9.33707209174E-06 +9.45904931727E-06 -5.22160117301E-05 -5.37635827503E-01 +7.97388618025E-01
1.25000000000E+09 -3.43708868556E-01 +8.64253229742E-01 -4.14082367158E-05 -1.69335114571E-05 -4.97308666566E-05 -8.45395408455E-06 -5.30986259093E-01 +8.01650170998E-01
1.25500000000E+09 -3.36839493913E-01 +8.66638435661E-01 -4.19256147866E-05 -1.76691146961E-05 -9.32165797281E-06 -1.66086610758E-05 -5.24098940215E-01 +8.05541339064E-01
1.26000000000E+09 -3.31274612350E-01 +8.68340997434E-01 -7.40400873142E-05 +1.27209708189E-06 -8.65360473150E-05 +1.24024682697E-05 -5.17640147933E-01 +8.09869804899E-01
1.26500000000E+09 -3.26482172531E-01 +8.69551718479E-01 -4.20331515313E-05 +3.17039173501E-06 -5.74509336711E-05 -2.61423508922E-05 -5.10507337293E-01 +8.13585628856E-01
1.27000000000E+09 -3.21380199796E-01 +8.70487906407E-01 -7.68946010575E-05 +2.84483419059E-05 -9.13364931170E-05 +1.21472073024E-07 -5.03744375609E-01 +8.17435797021E-01
1.27500000000E+09 -3.14975682581E-01 +8.71497725153E-01 -1.18750506975E-04 +6.69067192674E-05 -1.02781853537E-04 +7.68471220064E-05 -4.96702029500E-01 +8.20916895997E-01
1.28000000000E+09 -3.06922486449E-01 +8.72815926671E-01 -5.65792264494E-05 +7.77192033481E-05 -1.19553730029E-04 +3.91411522180E-05 -4.89764155576E-01 +8.24458080968E-01
1.28500000000E+09 -2.96394276486E-01 +8.74658826482E-01 -8.12207844832E-05 +6.10307197698E-05 -4.74404135398E-05 +6.38431833237E-05 -4.82355754560E-01 +8.28050299413E-01
1.29000000000E+09 -2.84739641703E-01 +8.76929943565E-01 -5.55423990608E-05 +5.73659606542E-05 -3.64386935565E-05 +8.04937699045E-05 -4.74782635124E-01 +8.31700154359E-01
1.29500000000E+09 -2.72255162208E-01 +8.79841667853E-01 -4.68549746226E-05 +9.94452851764E-05 -6.58185757357E-05 +1.12906501265E-04 -4.67015747833E-01 +8.35202234091E-01
1.30000000000E+09 -2.59795838760E-01 +8.82969696768E-01 -1.14152909447E-04 +6.13316215914E-05 -8.05981428130E-05 +1.12787376792E-04 -4.59279114421E-01 +8.38682454602E-01
1.30500000000E+09 -2.48348456905E-01 +8.85953032588E-01 -8.72932357612E-05 +1.20667036974E-04 -5.20584702470E-05 +1.21080587204E-04 -4.51128604679E-01 +8.42102266405E-01
1.31000000000E+09 -2.38394326380E-01 +8.88126758022E-01 -6.14647481444E-05 +1.31816541744E-04 -4.56540007145E-05 +1.33840414094E-04 -4.42802948634E-01 +8.45520842233E-01
1.31500000000E+09 -2.30374404699E-01 +8.89623557533E-01 +2.49754275299E-05 +1.39968499064E-04 +3.88886550805E-05 +1.42429495298E-04 -4.34141821567E-01 +8.48756848865E-01
1.32000000000E+09 -2.23756026377E-01 +8.90286962493E-01 +3.15033786773E-05 +7.91862682985E-05 -2.42619828344E-06 +6.48598741846E-05 -4.25128960192E-01 +8.52192318356E-01
1.32500000000E+09 -2.17820953280E-01 +8.90044583501E-01 +5.58036653995E-05 +7.08943389234E-05 +2.67674936223E-05 +9.58046652915E-05 -4.15629692783E-01 +8.55699950111E-01
1.33000000000E+09 -2.11046667974E-01 +8.89489015084E-01 -6.41103448136E-06 +1.56621310798E-04 +4.47782733732E-05 +1.54470535467E-04 -4.05996567190E-01 +8.58896537249E-01
1.33500000000E+09 -2.02522476562E-01 +8.88648667653E-01 +3.87090301033E-05 +1.37086722636E-04 +4.33608068837E-05 +1.51936760814E-04 -3.96227928564E-01 +8.62214765242E-01
1.34000000000E+09 -1.91715041545E-01 +8.87675763435E-01 +5.10488334077E-05 +1.62717390133E-04 +7.57548563266E-05 +1.10912031474E-04 -3.86104597654E-01 +8.65452243680E-01
1.34500000000E+09 -1.78181862543E-01 +8.87134651673E-01 +1.01026676203E-04 +4.37277805519E-05 +9.74862431485E-05 +4.73676808353E-05 -3.75186699042E-01 +8.68733114768E-01
1.35000000000E+09 -1.62716627349E-01 +8.86897112855E-01 +7.22295975843E-05 +5.68697644979E-05 +5.50264842344E-05 +8.68690167665E-05 -3.64257506998E-01 +8.71877255794E-01
1.35500000000E+09 -1.45853932320E-01 +8.87123983379E-01 +3.28404543690E-05 +4.10794543592E-05 +5.82732748619E-05 +3.16008666008E-05 -3.52535194682E-01 +8.74662012976E-01
1.36000000000E+09 -1.28908775873E-01 +8.87526988218E-01 +3.81279086461E-05 +4.08669502240E-05 +6.32361431486E-05 +3.43822398651E-05 -3.40936227981E-01 +8.77504402320E-01
1.36500000000E+09 -1.12962430398E-01 +8.87974427473E-01 +5.91860461162E-05 +5.78847241892E-05 +5.19657624348E-05 +7.03859514433E-05 -3.28786029410E-01 +8.79881343163E-01
1.37000000000E+09 -9.85303043955E-02 +8.87853269555E-01 +9.39553632321E-05 +9.75471525554E-05 +6.71967698445E-05 +8.16396671092E-05 -3.15919446860E-01 +8.82142211694E-01
1.37500000000E+09 -8.61175633698E-02 +8.87451587719E-01 +5.42504658394E-05 +1.10704333176E-04 +3.05833121476E-05 +1.28171034175E-04 -3.02263713013E-01 +8.84403832543E-01
1.38000000000E+09 -7.51743061881E-02 +8.86458560252E-01 +1.66430483158E-04 +1.45854358450E-04 +1.82875939383E-04 +1.84040143975E-04 -2.87694143729E-01 +8.86461094268E-01
1.38500000000E+09 -6.43428925720E-02 +8.84608164636E-01 +2.01532744044E-04 +7.44728606375E-05 +2.30568934164E-04 +8.67093258367E-05 -2.72317904147E-01 +8.88290775002E-01
1.39000000000E+09 -5.27223220977E-02 +8.82019188999E-01 +1.37839181699E-04 +6.95663832703E-05 +1.78921009669E-04 +7.93658157852E-05 -2.56438834587E-01 +8.89860112920E-01
1.39500000000E+09 -3.92459633390E-02 +8.78404379594E-01 +2.77505196913E-04 +5.46855353918E-05 +2.81067692608E-04 +7.84439516901E-05 -2.39639577533E-01 +8.90608718744E-01
1.40000000000E+09 -2.30718412586E-02 +8.73832296538E-01 +2.75784769257E-04 -3.67812379617E-05 +2.94459680926E-04 -4.56175914309E-05 -2.22344200697E-01 +8.91228852401E-01
1.40500000000E+09 -4.50488505216E-03 +8.68639365464E-01 +1.94827609966E-04 -1.33793253693E-04 +2.39697104398E-04 -1.45424930034E-04 -2.03645521020E-01 +8.91120303223E-01
1.41000000000E+09 +1.60147036951E-02 +8.62885159335E-01 +9.13473954837E-05 -5.11401466908E-05 +1.15016777252E-04 -5.70746422929E-05 -1.83431658402E-01 +8.90437018336E-01
1.41500000000E+09 +3.77743364997E-02 +8.56977851173E-01 +1.41912032000E-04 -2.29261351686E-05 +1.18257973642E-04 -3.07462049320E-05 -1.61818730819E-01 +8.88869460940E-01
1.42000000000E+09 +6.04211102933E-02 +8.50705178949E-01 +2.07253775848E-04 +5.52352136999E-05 +2.26685913532E-04 +8.41856430975E-05 -1.39112049227E-01 +8.86194318338E-01
1.42500000000E+09 +8.21980840650E-02 +8.43169698034E-01 +3.06260701477E-04 -1.33979098457E-04 +3.42494115017E-04 -1.38698302493E-04 -1.15571200133E-01 +8.82576687534E-01
1.43000000000E+09 +1.02477230534E-01 +8.34774553367E-01 +1.76915795475E-04 -2.04027423931E-04 +1.61777252411E-04 -2.44234046757E-04 -9.08252170422E-02 +8.77889280939E-01
1.43500000000E+09 +1.21902997585E-01 +8.24946848377E-01 +9.28604671150E-05 -1.63386986044E-04 +8.21142511762E-05 -1.91123993041E-04 -6.46589255233E-02 +8.71288544257E-01
1.44000000000E+09 +1.41183273868E-01 +8.13641103208E-01 +7.61862094642E-06 -6.13953493773E-05 +3.30446670463E-05 -1.98162335766E-05 -3.66300677851E-02 +8.62556201116E-01
1.44500000000E+09 +1.61632632198E-01 +7.99592238479E-01 +1.79467532076E-04 +1.32081624953E-04 +1.59600570674E-04 +9.85924751908E-05 -6.69061429227E-03 +8.51350351968E-01
1.45000000000E+09 +1.84240010688E-01 +7.82247920530E-01 +3.77304739022E-04 -9.62480304955E-05 +3.72614238095E-04 -1.22909917371E-04 +2.51162019555E-02 +8.36953896197E-01
1.45500000000E+09 +2.09412876419E-01 +7.60499484854E-01 +1.30784709358E-04 -1.23713810752E-04 +1.96382256826E-04 -1.39793521953E-04 +5.85373598051E-02 +8.19287322022E-01
1.46000000000E+09 +2.37245133329E-01 +7.34148897614E-01 +2.91038162393E-04 +3.72018540814E-07 +3.15203324310E-04 -7.30252557580E-05 +9.32693026049E-02 +7.97367816887E-01
1.46500000000E+09 +2.66210593598E-01 +7.03425758397E-01 +4.59315551446E-04 -1.55607262604E-04 +3.91735865957E-04 -1.62625643944E-04 +1.28674407551E-01 +7.70862763534E-01
1.47000000000E+09 +2.96986739168E-01 +6.68408873023E-01 +5.86221462297E-04 -2.25920619152E-04 +5.72638057279E-04 -2.20176209355E-04 +1.65809340002E-01 +7.37552201017E-01
1.47500000000E+09 +3.27013937269E-01 +6.27922601061E-01 +5.81813200049E-04 -5.89325594665E-04 +5.58395955063E-04 -5.87668970174E-04 +2.02902249563E-01 +6.96820745213E-01
1.48000000000E+09 +3.54476466705E-01 +5.82332898258E-01 +3.97318251241E-04 -6.50439159408E-04 +3.80784729078E-04 -6.07480407138E-04 +2.39612643644E-01 +6.47798399860E-01
1.48500000000E+09 +3.78167463019E-01 +5.30795137135E-01 +5.31536468302E-04 -6.04896986785E-04 +5.43604337313E-04 -6.45116933707E-04 +2.73956969120E-01 +5.89251175764E-01
1.49000000000E+09 +3.95800659735E-01 +4.72562917761E-01 +9.14519948067E-04 -9.52718900026E-04 +8.39289668911E-04 -9.88736332146E-04 +3.02552292838E-01 +5.19517373810E-01
1.49500000000E+09 +4.05489192825E-01 +4.07105672787E-01 +8.88714748833E-04 -2.08017596779E-03 +7.62781723337E-04 -2.01322586750E-03 +3.21076598681E-01 +4.39860195082E-01
1.50000000000E+09 +4.05231034473E-01 +3.33893434532E-01 -3.52759330932E-04 -2.82277209310E-03 -3.10439534368E-04 -2.65747697636E-03 +3.26457565617E-01 +3.50071208345E-01
1.50500000000E+09 +3.93634515992E-01 +2.54044038769E-01 -1.57663688045E-03 -2.77712056803E-03 -1.46488548015E-03 -2.72480113331E-03 +3.15023395844E-01 +2.53546750921E-01
1.51000000000E+09 +3.68285939120E-01 +1.67795579374E-01 -2.73556275737E-03 -1.93043682949E-03 -2.61901166351E-03 -2.01844960890E-03 +2.82550613129E-01 +1.53109616744E-01
1.51500000000E+09 +3.25230158147E-01 +7.96054953177E-02 -3.19944230553E-03 -1.26579515765E-03 -3.17365953720E-03 -1.37251493985E-03 +2.28420576411E-01 +5.53137637937E-02
1.52000000000E+09 +2.63366949432E-01 -4.03475388884E-03 -3.74521656319E-03 +2.68748408376E-04 -3.82068725319E-03 +2.69705147585E-04 +1.50978408765E-01 -3.14099737110E-02
1.52500000000E+09 +1.82775887351E-01 -7.66821480614E-02 -2.89914823599E-03 +8.41453905393E-04 -2.97783719494E-03 +8.78796393356E-04 +5.47592961418E-02 -9.96630335865E-02
1.53000000000E+09 +8.54315647452E-02 -1.28760453525E-01 -2.97871695241E-03 +1.49772082537E-03 -3.02353382241E-03 +1.48547766335E-03 -5.28084426150E-02 -1.43351247324E-01
1.53500000000E+09 -1.94612033899E-02 -1.56255941714E-01 -3.00289860987E-03 +2.38707226306E-03 -2.98724094266E-03 +2.36150144621E-03 -1.64921087382E-01 -1.62762278001E-01
1.54000000000E+09 -1.26686829765E-01 -1.59311703753E-01 -2.36933735146E-03 +3.69556623556E-03 -2.34153521063E-03 +3.63562243309E-03 -2.73648549990E-01 -1.58597526946E-01
1.54500000000E+09 -2.29396764496E-01 -1.39306894127E-01 -5.53750847105E-04 +4.81359722577E-03 -6.69692749744E-04 +4.77422736285E-03 -3.72442688395E-01 -1.33625747864E-01
1.55000000000E+09 -3.24714398142E-01 -1.00897930460E-01 +1.58264058714E-03 +4.01818374419E-03 +1.39609292723E-03 +4.09392353507E-03 -4.56438181547E-01 -9.52660582159E-02
1.55500000000E+09 -4.06238709701E-01 -4.73298176798E-02 +2.29672951734E-03 +2.76266470211E-03 +2.22783285241E-03 +2.95550505144E-03 -5.26779612483E-01 -4.76673773092E-02
1.56000000000E+09 -4.72315363137E-01 +1.18116396508E-02 +2.50929138228E-03 +1.61123112993E-03 +2.61707409939E-03 +1.80139769378E-03 -5.83152145025E-01 +5.92809939930E-03
1.56500000000E+09 -5.24701308717E-01 +7.30572240330E-02 +2.10676697367E-03 +1.11866544992E-03 +2.19846859667E-03 +1.17771214753E-03 -6.26651868200E-01 +6.15822277098E-02
1.57000000000E+09 -5.64366634566E-01 +1.33177486412E-01 +2.17122144968E-03 +6.83937710236E-04 +2.33022436455E-03 +7.42766224709E-04 -6.59654250809E-01 +1.16757547797E-01
