# Hz S RI R 50
! CMT, C1220, 16058040, 17.2.0/1
! Date: 14/08/2018 12:08:00
! Data: Format (Calibration Info)
! Freq                      S11: Re/Im (F2)                       S21: Re/Im (F2)                       S12: Re/Im (F2)                       S22: Re/Im (F2)            
1.00000000000E+09 -6.54548919610E-01 +7.09768505217E-01 -2.65256384081E-05 -2.06903144923E-05 +3.86209319230E-05 -1.82093944262E-07 -7.53361745320E-01 +6.25565469373E-01
1.00500000000E+09 -6.47749562068E-01 +7.14336365308E-01 -2.92986278333E-05 +5.09418282170E-05 -4.24806674582E-05 +1.02333520555E-05 -7.49921168898E-01 +6.29585018092E-01
1.01000000000E+09 -6.42048124514E-01 +7.18559079782E-01 +5.38351208775E-06 -2.83633240228E-05 +5.21187205540E-05 +3.57015846970E-05 -7.46350514185E-01 +6.33407946391E-01
1.01500000000E+09 -6.37789202822E-01 +7.22312160727E-01 -4.80593069462E-05 +1.52105949857E-05 -6.29580652107E-05 -1.38804046174E-05 -7.42984581321E-01 +6.37053729165E-01
1.02000000000E+09 -6.34937341401E-01 +7.25812352090E-01 +1.61891327006E-05 -1.21386482812E-05 +2.57581063360E-05 -1.07421898208E-06 -7.39337029189E-01 +6.40712665026E-01
1.02500000000E+09 -6.33111282833E-01 +7.28707397041E-01 +2.70570422397E-06 +4.37783292032E-06 -3.61306970619E-05 -1.52753703808E-06 -7.36626064773E-01 +6.44372161912E-01
1.03000000000E+09 -6.31603954262E-01 +7.31513886677E-01 -1.03200429485E-06 +2.37660536796E-05 -2.09064207042E-05 +4.10765434316E-05 -7.32989540043E-01 +6.48254734762E-01
1.03500000000E+09 -6.29454279134E-01 +7.34209137389E-01 -1.38615266749E-05 +4.27692069511E-05 -2.00918333726E-06 +8.72701549233E-06 -7.29152309002E-01 +6.52217301484E-01
1.04000000000E+09 -6.26049683052E-01 +7.37353965827E-01 -2.52926367499E-05 +2.53221567182E-05 -7.81190757029E-05 +4.25189477307E-05 -7.25596146660E-01 +6.55922514478E-01
1.04500000000E+09 -6.21196808056E-01 +7.40932158191E-01 -3.63148252772E-05 +2.24028516287E-05 +4.90150181165E-05 +4.59986146033E-05 -7.21888615960E-01 +6.59410163505E-01
1.05000000000E+09 -6.14593405592E-01 +7.44978865548E-01 -6.96220928558E-06 -2.47310440455E-05 +1.47830665800E-05 +3.55333423697E-05 -7.18534200169E-01 +6.62990565958E-01
1.05500000000E+09 -6.06890171743E-01 +7.49012102881E-01 -1.94122593580E-05 +4.36075720332E-05 -2.13056798312E-05 +5.32094839622E-05 -7.15316924912E-01 +6.66354603333E-01
1.06000000000E+09 -5.98597715014E-01 +7.53581937744E-01 +6.11268826681E-07 +2.98228284242E-05 -4.20607596397E-05 +2.73581280966E-05 -7.12021871676E-01 +6.70245542625E-01
1.06500000000E+09 -5.90859105739E-01 +7.57859085225E-01 +1.30265321173E-05 +5.14668793047E-05 -7.65465521874E-06 +8.10644646601E-05 -7.08106288322E-01 +6.74005385214E-01
1.07000000000E+09 -5.83933670381E-01 +7.61941960557E-01 -3.14486799038E-06 +7.56633618429E-05 -1.61941602484E-05 -3.05331034926E-06 -7.04248090633E-01 +6.77575796403E-01
1.07500000000E+09 -5.78641083035E-01 +7.65684719323E-01 -1.67235920187E-05 +6.80507181905E-05 -6.03917873912E-05 +8.17929182050E-05 -6.99868037859E-01 +6.81126459855E-01
1.08000000000E+09 -5.74655063270E-01 +7.68877308596E-01 +2.24389808613E-06 +4.47634608014E-05 +3.05117983795E-05 +5.78986274618E-05 -6.95905976043E-01 +6.85108833339E-01
1.08500000000E+09 -5.72026872549E-01 +7.71800477732E-01 +2.18049692987E-05 +3.38513131178E-06 -1.66586283745E-05 +1.71033169350E-05 -6.91909768311E-01 +6.88920258655E-01
1.09000000000E+09 -5.69702293697E-01 +7.74493357637E-01 +8.76651028702E-06 +2.18074846711E-05 +2.43073114007E-05 +6.22705226240E-05 -6.88168057446E-01 +6.92842640124E-01
1.09500000000E+09 -5.67584769935E-01 +7.76988203041E-01 +1.03687176614E-05 +3.88884672638E-05 +1.80359512783E-05 +7.64491195237E-05 -6.84217112898E-01 +6.96515460330E-01
1.10000000000E+09 -5.64292273082E-01 +7.79731585646E-01 +2.27417895583E-06 +3.89232771390E-05 +4.27769197729E-06 +2.86701902297E-05 -6.80396031629E-01 +7.00498943455E-01
1.10500000000E+09 -5.59814811630E-01 +7.82685858962E-01 +6.05295949031E-05 +7.75759289094E-05 +2.29789771885E-05 +2.93844248366E-05 -6.75937208045E-01 +7.04125376389E-01
1.11000000000E+09 -5.53764490240E-01 +7.85958748520E-01 +2.11043836898E-05 +2.70236547121E-05 +2.24267264763E-05 +3.68603862220E-05 -6.71901767553E-01 +7.07586813794E-01
1.11500000000E+09 -5.46681217652E-01 +7.89557718238E-01 +1.94216693886E-05 +2.01643530548E-05 +2.89105282281E-05 +4.48902468631E-05 -6.67655994595E-01 +7.10896330085E-01
1.12000000000E+09 -5.39088550725E-01 +7.93214223301E-01 +6.98833321139E-06 +6.28867173807E-05 +1.86627151385E-05 +2.96965262128E-05 -6.63520475734E-01 +7.14444183894E-01
1.12500000000E+09 -5.31546570089E-01 +7.96823900728E-01 +3.44555197486E-05 +1.32091812130E-05 +2.45404001853E-05 +3.80706772981E-05 -6.59408738060E-01 +7.18658595387E-01
1.13000000000E+09 -5.24888622535E-01 +8.00316495593E-01 +3.93095872550E-05 +1.87816543549E-05 +1.75367307687E-05 +3.36583297392E-05 -6.55122964548E-01 +7.22222296679E-01
1.13500000000E+09 -5.19124623529E-01 +8.03165437311E-01 +1.68476071475E-05 +4.84269192008E-05 +1.18980857081E-05 +1.99619511342E-05 -6.50531502838E-01 +7.26069462276E-01
1.14000000000E+09 -5.14446492603E-01 +8.06250689450E-01 -1.42976305335E-06 +2.76869993450E-05 +5.69002646943E-05 +6.58726187453E-05 -6.45750551672E-01 +7.29525391147E-01
1.14500000000E+09 -5.10799981564E-01 +8.08578872292E-01 +4.24356905168E-05 +1.34790082666E-05 +9.56482939551E-05 +6.55486446853E-05 -6.41193210427E-01 +7.32817425795E-01
1.15000000000E+09 -5.07344052022E-01 +8.10783117162E-01 +9.17600121797E-05 +7.20770688289E-05 +2.79059812610E-05 +7.88729381607E-05 -6.36446709667E-01 +7.36695191273E-01
1.15500000000E+09 -5.03762956147E-01 +8.13212242241E-01 +6.74320820534E-05 +4.36614645102E-05 +2.36952257109E-05 +2.58487648224E-05 -6.31576758907E-01 +7.40648962557E-01
1.16000000000E+09 -4.99179556588E-01 +8.15543588768E-01 +6.32493738244E-05 +4.18810915436E-06 +8.11214767120E-05 -6.42240608128E-06 -6.26801692008E-01 +7.44432868467E-01
1.16500000000E+09 -4.93540935817E-01 +8.18538284483E-01 +5.11634400198E-05 +4.47926923272E-10 +4.05519749624E-05 -7.59110148371E-06 -6.21808589437E-01 +7.47954634308E-01
1.17000000000E+09 -4.86717410501E-01 +8.21622605596E-01 +8.50543405605E-05 +3.92885608345E-05 +8.99188276361E-05 +4.72265781224E-06 -6.16314942214E-01 +7.51337071170E-01
1.17500000000E+09 -4.79029022894E-01 +8.24524566111E-01 +6.42320036749E-05 +3.91353291788E-05 +9.06543551486E-05 +6.85261028564E-05 -6.10468326118E-01 +7.54534958855E-01
1.18000000000E+09 -4.71068743448E-01 +8.27774997909E-01 +6.56814460773E-05 +1.92325776484E-05 +8.76079299895E-05 +7.72751789213E-05 -6.04961811630E-01 +7.57623783790E-01
1.18500000000E+09 -4.63253075781E-01 +8.30635404467E-01 +9.71868694286E-05 +9.14958717033E-06 +1.24045498783E-04 +2.24944653740E-05 -5.98999445086E-01 +7.60744350873E-01
1.19000000000E+09 -4.56206816133E-01 +8.33148304273E-01 +1.25816028855E-04 +2.44248741678E-05 +1.29677080774E-04 +4.96440068513E-05 -5.92835502175E-01 +7.63393761118E-01
1.19500000000E+09 -4.50312617555E-01 +8.35375707163E-01 +1.73242771943E-04 +3.48435264296E-05 +2.19324872113E-04 -1.16871871823E-05 -5.86855869001E-01 +7.64646959389E-01
1.20000000000E+09 -4.45501724361E-01 +8.36748102809E-01 +2.25805243485E-04 -7.25704635715E-05 +1.95119931830E-04 -1.02968200635E-04 -5.82452214901E-01 +7.64773272739E-01
1.20500000000E+09 -4.41482282807E-01 +8.38592247753E-01 +1.66610309158E-04 -1.62385261983E-04 +1.53829359852E-04 -1.16601625805E-04 -5.80156011869E-01 +7.65648169405E-01
1.21000000000E+09 -4.37313406263E-01 +8.40580374779E-01 +1.12750507394E-04 -1.36756982056E-04 +9.84975763831E-05 -1.33871275484E-04 -5.78309469848E-01 +7.68682672039E-01
1.21500000000E+09 -4.32094642318E-01 +8.42707433511E-01 +8.34585946149E-05 -1.48351754769E-04 +1.02130392596E-04 -1.29326456962E-04 -5.75459129194E-01 +7.73185627255E-01
1.22000000000E+09 -4.25504971636E-01 +8.45295599018E-01 +3.09450549183E-05 -1.31921180722E-04 +8.70140313433E-05 -1.52587695646E-04 -5.71269713740E-01 +7.78600295909E-01
1.22500000000E+09 -4.17460142611E-01 +8.48149266649E-01 +7.86271641191E-05 -1.17938364573E-04 +8.57377108701E-05 -1.61177885720E-04 -5.66200776790E-01 +7.83727218106E-01
1.23000000000E+09 -4.08051216585E-01 +8.51286282753E-01 +7.18884308507E-05 -1.27265424065E-04 +7.92008146083E-05 -9.29161122550E-05 -5.60426937155E-01 +7.88363229257E-01
1.23500000000E+09 -3.98218851323E-01 +8.54568017290E-01 +6.09830283662E-05 -1.42506024249E-04 +6.07848496651E-05 -1.20915290078E-04 -5.54627340326E-01 +7.92734652605E-01
1.24000000000E+09 -3.88011717452E-01 +8.57866899883E-01 +1.05375301612E-04 -1.44372331742E-04 +2.87713447651E-05 -1.17423078092E-04 -5.48458594646E-01 +7.96703053044E-01
1.24500000000E+09 -3.78582371253E-01 +8.61288085143E-01 +5.80627676550E-05 -1.84765212212E-04 +6.93199941456E-05 -1.64053254230E-04 -5.42233160913E-01 +8.00511705555E-01
1.25000000000E+09 -3.69989057290E-01 +8.64303313395E-01 +3.75443984968E-05 -2.51887221591E-04 +6.12379476743E-05 -2.05795932683E-04 -5.35697513183E-01 +8.04668282902E-01
1.25500000000E+09 -3.62815418146E-01 +8.66883955574E-01 +1.90866733542E-05 -2.14206868674E-04 +8.06975767015E-06 -2.41290680722E-04 -5.28800850300E-01 +8.08713784030E-01
1.26000000000E+09 -3.56640224911E-01 +8.69461936632E-01 -4.83422895358E-05 -2.32775234634E-04 -3.59733359981E-05 -2.42355591979E-04 -5.22127027285E-01 +8.12984872661E-01
1.26500000000E+09 -3.51087962380E-01 +8.71625688992E-01 -2.48017053813E-05 -2.23700545044E-04 -6.61377841384E-05 -2.31582367310E-04 -5.15200854785E-01 +8.17000473299E-01
1.27000000000E+09 -3.45553829244E-01 +8.73875058307E-01 -4.48510680043E-05 -2.43119463982E-04 -9.07667555466E-05 -2.53919337967E-04 -5.08290404373E-01 +8.20877770173E-01
1.27500000000E+09 -3.38949525905E-01 +8.76010080299E-01 -1.26095439206E-04 -2.84995020022E-04 -8.58282787830E-05 -3.20872415264E-04 -5.01293587857E-01 +8.24447835958E-01
1.28000000000E+09 -3.31006321528E-01 +8.78440005475E-01 -1.82373887744E-04 -2.46097361221E-04 -1.71212609823E-04 -2.64975760536E-04 -4.94196257137E-01 +8.27748195959E-01
1.28500000000E+09 -3.21316445509E-01 +8.80811157920E-01 -2.11449081427E-04 -2.67691441577E-04 -2.20994312778E-04 -2.29704826089E-04 -4.86853283656E-01 +8.31419304405E-01
1.29000000000E+09 -3.10500404164E-01 +8.83398834115E-01 -2.16500996495E-04 -1.94395409145E-04 -2.90302718581E-04 -2.07336624005E-04 -4.79448258412E-01 +8.35302251275E-01
1.29500000000E+09 -2.98976283619E-01 +8.85961077405E-01 -2.40083248024E-04 -2.32588343444E-04 -2.66753062541E-04 -2.02039571715E-04 -4.71347064996E-01 +8.38777185001E-01
1.30000000000E+09 -2.87521847457E-01 +8.88682122744E-01 -2.85811545818E-04 -2.27155841977E-04 -2.79462160583E-04 -1.92449069714E-04 -4.63474015382E-01 +8.42442905297E-01
1.30500000000E+09 -2.76986007886E-01 +8.91146755828E-01 -3.71288496680E-04 -1.93394306955E-04 -3.61746667355E-04 -1.78598682562E-04 -4.55414763632E-01 +8.45853747647E-01
1.31000000000E+09 -2.67592060293E-01 +8.93372105273E-01 -3.77335010711E-04 -9.62875577900E-05 -3.46557080908E-04 -9.07746279900E-05 -4.46997960666E-01 +8.49213443245E-01
1.31500000000E+09 -2.59625250203E-01 +8.95230288870E-01 -3.88423754988E-04 -4.18513348384E-05 -3.63278887549E-04 -6.51900365295E-05 -4.38228452512E-01 +8.52696859905E-01
1.32000000000E+09 -2.52794813605E-01 +8.96844694055E-01 -3.83300988054E-04 -2.83306142287E-05 -3.50482447015E-04 -8.17930002622E-05 -4.28979102730E-01 +8.56197715895E-01
1.32500000000E+09 -2.46251756122E-01 +8.98088019164E-01 -3.75287977839E-04 -1.15226221759E-05 -3.94804411068E-04 -1.76818759805E-05 -4.19351335485E-01 +8.59616369003E-01
1.33000000000E+09 -2.38996005579E-01 +8.99244250131E-01 -4.15973772724E-04 -3.13121309638E-05 -3.66226066927E-04 +2.22315950420E-05 -4.09663416390E-01 +8.62800792575E-01
1.33500000000E+09 -2.30249234435E-01 +8.99910474951E-01 -4.39797502147E-04 +4.99599264241E-05 -4.28422278218E-04 +7.92004387998E-05 -3.99709081298E-01 +8.66112189083E-01
1.34000000000E+09 -2.19194336478E-01 +9.00600877708E-01 -4.60032216154E-04 +1.05064618785E-04 -4.25965249398E-04 +1.05175663677E-04 -3.89493974766E-01 +8.69471057071E-01
1.34500000000E+09 -2.06166268837E-01 +9.00898311741E-01 -3.77518620271E-04 +2.24483810725E-04 -4.45575971728E-04 +1.48791053782E-04 -3.78560211323E-01 +8.72747687903E-01
1.35000000000E+09 -1.91142418145E-01 +9.01025152462E-01 -3.87423818598E-04 +1.90794640534E-04 -3.84730923435E-04 +2.14401793450E-04 -3.67484583376E-01 +8.75851568736E-01
1.35500000000E+09 -1.75128003803E-01 +9.01023172490E-01 -3.91170145055E-04 +2.42611877489E-04 -3.55660698171E-04 +2.32090470796E-04 -3.55819322721E-01 +8.78722494980E-01
1.36000000000E+09 -1.58843537913E-01 +9.01112741156E-01 -3.91037196459E-04 +2.67914983441E-04 -3.66209818876E-04 +2.83489310745E-04 -3.43867243668E-01 +8.81489465092E-01
1.36500000000E+09 -1.43377226137E-01 +9.01298259536E-01 -4.18653028865E-04 +2.52177114912E-04 -3.66678792746E-04 +2.98342642374E-04 -3.31574042899E-01 +8.84057841409E-01
1.37000000000E+09 -1.28630228061E-01 +9.01291493695E-01 -4.40653851052E-04 +3.21885573756E-04 -4.52353611488E-04 +3.03008139231E-04 -3.18748207656E-01 +8.86378134486E-01
1.37500000000E+09 -1.15301528115E-01 +9.01466991423E-01 -4.56408319563E-04 +4.28498300357E-04 -4.98712412520E-04 +3.29934172328E-04 -3.04910333112E-01 +8.88618615788E-01
1.38000000000E+09 -1.02951913417E-01 +9.01339994343E-01 -4.08311187358E-04 +5.76200873674E-04 -4.73458537189E-04 +5.68919416496E-04 -2.90290878604E-01 +8.90783881559E-01
1.38500000000E+09 -9.05512936302E-02 +9.00802630721E-01 -2.92443842727E-04 +6.36167339987E-04 -4.11389213706E-04 +6.59077068855E-04 -2.74780664984E-01 +8.92552419402E-01
1.39000000000E+09 -7.77222312811E-02 +8.99569409289E-01 -2.26322117341E-04 +6.01334335917E-04 -2.84426165587E-04 +7.34698900498E-04 -2.58700631745E-01 +8.94012672017E-01
1.39500000000E+09 -6.31616721140E-02 +8.97680657126E-01 -2.34325090420E-04 +6.38269852903E-04 -2.04414472333E-04 +6.89328809493E-04 -2.41891761440E-01 +8.94851951222E-01
1.40000000000E+09 -4.65413967960E-02 +8.94612784834E-01 -2.37847330645E-04 +7.49764065893E-04 -1.56737959701E-04 +7.74521497277E-04 -2.24259828168E-01 +8.95183755510E-01
1.40500000000E+09 -2.80833526555E-02 +8.90526960554E-01 -1.46280164320E-04 +7.75272544190E-04 -1.12089997917E-04 +7.50753428303E-04 -2.05584525925E-01 +8.95010841663E-01
1.41000000000E+09 -7.65264718045E-03 +8.85125973271E-01 -1.03330601673E-04 +8.64914872729E-04 -1.08245124806E-04 +8.68960272429E-04 -1.85436889889E-01 +8.94415890438E-01
1.41500000000E+09 +1.34213224125E-02 +8.78924982028E-01 +5.65800742755E-06 +8.82139960935E-04 -8.70771502045E-05 +8.99767598021E-04 -1.63786299959E-01 +8.92911832121E-01
1.42000000000E+09 +3.52658622627E-02 +8.72246344229E-01 -2.15960342701E-05 +9.04681936079E-04 -3.22591717570E-05 +1.03194954946E-03 -1.40747825127E-01 +8.90282510232E-01
1.42500000000E+09 +5.69989908966E-02 +8.64989930029E-01 +3.10861366714E-05 +1.06885596296E-03 +3.83444580877E-05 +1.21445091420E-03 -1.16912215210E-01 +8.86592852896E-01
1.43000000000E+09 +7.86523407591E-02 +8.57045874962E-01 +1.55469652082E-04 +1.26977500291E-03 +2.90130696791E-04 +1.37044046727E-03 -9.19922745877E-02 +8.81787077486E-01
1.43500000000E+09 +1.00537983492E-01 +8.47859406010E-01 +4.42016768856E-04 +1.33953558380E-03 +5.53496810286E-04 +1.34675532424E-03 -6.55458756840E-02 +8.75037853404E-01
1.44000000000E+09 +1.22810391373E-01 +8.37525682308E-01 +6.78431486343E-04 +1.24828216573E-03 +7.18043500594E-04 +1.23092462390E-03 -3.73516553827E-02 +8.66425290718E-01
1.44500000000E+09 +1.46572202027E-01 +8.24526540558E-01 +7.47986226960E-04 +1.21516758895E-03 +7.88639010503E-04 +1.20448323830E-03 -7.07648473801E-03 +8.55024104862E-01
1.45000000000E+09 +1.72357692074E-01 +8.08079206584E-01 +6.60966805113E-04 +1.43564423392E-03 +8.17262415153E-04 +1.42113014485E-03 +2.50539801528E-02 +8.40234873643E-01
1.45500000000E+09 +1.99992798845E-01 +7.87837477954E-01 +9.32389585609E-04 +1.71506043828E-03 +1.08664029281E-03 +1.69194409430E-03 +5.82716991055E-02 +8.22399053328E-01
1.46000000000E+09 +2.30081252121E-01 +7.62578254100E-01 +1.51695984191E-03 +1.97446986581E-03 +1.63726968984E-03 +1.80119713322E-03 +9.34490131172E-02 +8.00690714989E-01
1.46500000000E+09 +2.61512618785E-01 +7.32020307233E-01 +2.15983519963E-03 +1.96862078909E-03 +2.09450337257E-03 +1.67063564953E-03 +1.30032066066E-01 +7.73260953150E-01
1.47000000000E+09 +2.93606561168E-01 +6.96218769502E-01 +2.89653880285E-03 +1.78094073342E-03 +2.61205709873E-03 +1.59818723820E-03 +1.67033973730E-01 +7.39085946894E-01
1.47500000000E+09 +3.25262723041E-01 +6.54081754899E-01 +3.53547389763E-03 +1.44005335142E-03 +3.34040643235E-03 +1.54402292998E-03 +2.03597038754E-01 +6.97642544814E-01
1.48000000000E+09 +3.54504199356E-01 +6.05218563848E-01 +4.28892431133E-03 +9.11836609636E-04 +4.25313599189E-03 +1.03453643427E-03 +2.40109654574E-01 +6.48458222471E-01
1.48500000000E+09 +3.79648577234E-01 +5.49946545321E-01 +4.86508342367E-03 +2.68366110294E-04 +5.00552319791E-03 +1.68586569814E-04 +2.74497500172E-01 +5.89056177990E-01
1.49000000000E+09 +3.99324521036E-01 +4.86965555102E-01 +5.77029381446E-03 -6.66128971492E-04 +5.74080663843E-03 -9.84725631491E-04 +3.02382925295E-01 +5.18587479107E-01
1.49500000000E+09 +4.11270309459E-01 +4.15957214647E-01 +6.32204075068E-03 -2.30211786958E-03 +5.89668838192E-03 -2.47172218771E-03 +3.19792608639E-01 +4.38185887164E-01
1.50000000000E+09 +4.12452980351E-01 +3.36188377786E-01 +6.87404192415E-03 -3.70645088085E-03 +6.44336762586E-03 -3.52863661561E-03 +3.24369492364E-01 +3.49362917678E-01
1.50500000000E+09 +4.00588292008E-01 +2.49761212791E-01 +6.96725680044E-03 -6.96168652126E-03 +6.87843084560E-03 -6.48779369808E-03 +3.11703782836E-01 +2.52511113786E-01
1.51000000000E+09 +3.71816847721E-01 +1.56821339207E-01 +4.44705438197E-03 -1.03624731411E-02 +4.78678124233E-03 -1.00167219060E-02 +2.78285014200E-01 +1.53196903518E-01
1.51500000000E+09 +3.21867657223E-01 +6.42325689800E-02 +1.05265405888E-03 -1.16341039851E-02 +1.34564299948E-03 -1.17022429844E-02 +2.23648671911E-01 +5.78647852882E-02
1.52000000000E+09 +2.50842022080E-01 -1.94815988514E-02 -2.81234015509E-03 -1.20090729431E-02 -2.70310341430E-03 -1.21754187501E-02 +1.47992587011E-01 -2.72614508766E-02
1.52500000000E+09 +1.62627218187E-01 -8.92023563701E-02 -6.17874649635E-03 -1.01425836438E-02 -6.23178272786E-03 -1.03506070256E-02 +5.42067464051E-02 -9.51632147501E-02
1.53000000000E+09 +6.01164851800E-02 -1.38333240577E-01 -8.22046260077E-03 -8.81359221710E-03 -8.25326139688E-03 -8.87700316306E-03 -5.24169536335E-02 -1.40463393341E-01
1.53500000000E+09 -4.95565546556E-02 -1.63535016431E-01 -1.08110560883E-02 -6.74500716487E-03 -1.08193654736E-02 -6.68487890250E-03 -1.63482345690E-01 -1.60338371414E-01
1.54000000000E+09 -1.60853897629E-01 -1.64095407890E-01 -1.33760026322E-02 -3.48210319095E-03 -1.31885900070E-02 -3.51998572958E-03 -2.71450399956E-01 -1.56856636943E-01
1.54500000000E+09 -2.67051673637E-01 -1.40431070063E-01 -1.40038521794E-02 +1.95548497602E-03 -1.38857089800E-02 +1.61339345774E-03 -3.69224088909E-01 -1.34046424690E-01
1.55000000000E+09 -3.60942952245E-01 -9.66605136190E-02 -1.11167873476E-02 +6.13921300549E-03 -1.13718306264E-02 +5.70766357393E-03 -4.54139187716E-01 -9.70913467706E-02
1.55500000000E+09 -4.38656950038E-01 -4.00578479898E-02 -7.72410623253E-03 +8.09176695515E-03 -8.25808028630E-03 +7.96318767092E-03 -5.24896030422E-01 -5.10542172542E-02
1.56000000000E+09 -4.99595899788E-01 +2.08627725964E-02 -4.66211514058E-03 +8.74143180719E-03 -5.13678090714E-03 +8.94869810277E-03 -5.82383806632E-01 +1.58055062115E-03
1.56500000000E+09 -5.48151971815E-01 +8.26467281580E-02 -2.01500369061E-03 +8.16849452796E-03 -2.24247386366E-03 +8.64608446320E-03 -6.27347299675E-01 +5.64795439937E-02
1.57000000000E+09 -5.84617048164E-01 +1.43126030803E-01 -2.01116939384E-04 +7.22286395315E-03 -1.61518367616E-04 +7.70678600996E-03 -6.61012203264E-01 +1.11332657527E-01
