# Hz S RI R 50
! CMT, C1220, 16058040, 17.2.0/1
! Date: 14/08/2018 12:36:22
! Data: Format (Calibration Info)
! Freq                      S11: Re/Im (F2)                       S21: Re/Im (F2)                       S12: Re/Im (F2)                       S22: Re/Im (F2)            
1.00000000000E+09 -6.45581510015E-01 +7.14539529954E-01 -6.62304550776E-06 +1.89479611806E-05 -8.42564489026E-06 -1.94234383092E-05 -6.70548658704E-01 +5.33118389580E-01
1.00500000000E+09 -6.38656993682E-01 +7.19858414761E-01 -9.43289650485E-06 -8.53409616724E-06 -3.82298394848E-05 +1.93168015899E-05 -6.67437989828E-01 +5.36848619825E-01
1.01000000000E+09 -6.32782537116E-01 +7.24661801371E-01 -5.53170230099E-05 -2.89496027972E-05 -2.40091805228E-05 +1.17561905762E-05 -6.64467644042E-01 +5.39998438457E-01
1.01500000000E+09 -6.28230900904E-01 +7.28709947526E-01 -1.64698915900E-05 +1.61706207332E-05 -3.68628727328E-05 -4.80400374527E-06 -6.62212998270E-01 +5.43109019231E-01
1.02000000000E+09 -6.25308047415E-01 +7.31879582662E-01 -4.05219017675E-06 -1.01504969802E-05 -1.77856223392E-05 +3.47833926511E-06 -6.59462593553E-01 +5.46350677814E-01
1.02500000000E+09 -6.23392374204E-01 +7.34697815428E-01 -6.62608044059E-05 -4.35948517608E-06 +1.32762623525E-05 +2.36884650203E-05 -6.57363842133E-01 +5.49443511422E-01
1.03000000000E+09 -6.21807130043E-01 +7.37030803004E-01 -9.22481841810E-06 -1.90039368771E-05 -5.90098064309E-05 +6.08938102838E-06 -6.54709410192E-01 +5.53014204621E-01
1.03500000000E+09 -6.19569370802E-01 +7.39275177000E-01 +2.87440927509E-05 +4.92627366042E-05 -6.08784544265E-05 +2.53580419263E-05 -6.51799433863E-01 +5.56651341586E-01
1.04000000000E+09 -6.16000392035E-01 +7.42029949096E-01 +1.32537000158E-05 +4.20885420000E-05 +9.03005346932E-06 +5.40699339752E-05 -6.48780043508E-01 +5.60077389966E-01
1.04500000000E+09 -6.11024792332E-01 +7.45383861261E-01 -8.30133026987E-06 +1.39502331578E-05 +6.64855706648E-05 +4.68573165881E-05 -6.46080806812E-01 +5.63387652956E-01
1.05000000000E+09 -6.04393258218E-01 +7.49548413286E-01 -9.30724503182E-06 +7.06658187588E-05 -5.33874780797E-05 +1.26829702209E-05 -6.43352755476E-01 +5.66593918339E-01
1.05500000000E+09 -5.96235767149E-01 +7.54022097298E-01 -1.00880220047E-05 +1.52780302301E-05 +9.82863494946E-06 +1.47843345115E-05 -6.40920918336E-01 +5.69853041753E-01
1.06000000000E+09 -5.87547802501E-01 +7.59098750044E-01 +2.93026935276E-05 +5.43934985523E-06 -1.06647228121E-05 +1.44471166646E-05 -6.38362723534E-01 +5.73598631329E-01
1.06500000000E+09 -5.79111735696E-01 +7.64166948888E-01 +1.37304691442E-05 +4.79955784908E-05 +6.68912406395E-05 +5.73874855190E-05 -6.35178665238E-01 +5.77169371385E-01
1.07000000000E+09 -5.71705924470E-01 +7.68698246436E-01 +3.85648821419E-05 +1.79479569011E-05 +3.23129115405E-05 +2.82469258229E-05 -6.31921546588E-01 +5.80785278348E-01
1.07500000000E+09 -5.65839574987E-01 +7.72464603553E-01 +1.14189921447E-05 +1.40519776003E-05 -1.19483455813E-05 +3.48982825765E-05 -6.28291529630E-01 +5.84201821727E-01
1.08000000000E+09 -5.61694251184E-01 +7.75574936277E-01 +2.87544797012E-05 +2.66413211192E-05 +2.77965341519E-05 +4.52416535096E-05 -6.25273758736E-01 +5.87661925712E-01
1.08500000000E+09 -5.59082438797E-01 +7.77977652985E-01 +1.40465563126E-05 -1.90392033775E-05 -1.05045631710E-05 +1.87346733644E-05 -6.22278697272E-01 +5.91239154401E-01
1.09000000000E+09 -5.57101410166E-01 +7.79809131704E-01 -3.20000605974E-06 +2.10717081545E-05 +9.90346519165E-06 -9.97380243738E-06 -6.19117269868E-01 +5.94808742084E-01
1.09500000000E+09 -5.55081646294E-01 +7.81568764350E-01 +1.19888900160E-05 -2.32330044621E-05 +2.08064855624E-05 -1.13339533162E-05 -6.16282272459E-01 +5.98315157717E-01
1.10000000000E+09 -5.52143941900E-01 +7.83574539144E-01 +1.52934182660E-05 +4.07982218835E-05 +1.46486881221E-05 -3.71110511075E-05 -6.13193070587E-01 +6.02029321055E-01
1.10500000000E+09 -5.48172517895E-01 +7.86211301820E-01 -1.05867421303E-05 -3.19839747622E-05 +2.12672240110E-05 -2.08777775738E-05 -6.09623133248E-01 +6.05413085547E-01
1.11000000000E+09 -5.42502176607E-01 +7.89561333127E-01 +2.55195810954E-05 +5.58602142805E-05 +5.33972644735E-05 +4.82848095654E-05 -6.06245904446E-01 +6.08588056199E-01
1.11500000000E+09 -5.35655468812E-01 +7.93745564177E-01 +2.81959950116E-05 +2.73299529061E-05 -3.36935690547E-05 +6.80204201627E-05 -6.03131026913E-01 +6.11917527939E-01
1.12000000000E+09 -5.27907769199E-01 +7.98003898582E-01 +3.47534245808E-06 +1.46818234657E-05 +1.70424897496E-05 -3.09322414726E-05 -5.99974464124E-01 +6.15441502713E-01
1.12500000000E+09 -5.20193951098E-01 +8.02297512617E-01 +4.75729088810E-05 +4.87326012770E-05 +7.65313512474E-06 +3.75974808417E-05 -5.96586754759E-01 +6.19437605159E-01
1.13000000000E+09 -5.13113114253E-01 +8.06153002931E-01 +4.40166203583E-05 -2.16542176559E-07 +1.10445094255E-05 +8.52945752977E-06 -5.93008451255E-01 +6.23109407395E-01
1.13500000000E+09 -5.06740638210E-01 +8.08980769761E-01 -9.96869566490E-06 +2.82286174680E-05 +7.33602384158E-05 +9.92988631908E-07 -5.89073134614E-01 +6.26956432705E-01
1.14000000000E+09 -5.01657532239E-01 +8.11384573788E-01 +2.48728608741E-05 +6.17092248448E-05 +1.05738927048E-05 +1.09446421334E-05 -5.85141726442E-01 +6.30339402052E-01
1.14500000000E+09 -4.97617642440E-01 +8.12888987526E-01 +3.40281714294E-05 -4.05027884867E-06 +5.75296373322E-05 -2.04496646421E-06 -5.81151636483E-01 +6.33911004355E-01
1.15000000000E+09 -4.93919392531E-01 +8.14073312082E-01 +6.17064207726E-05 -4.80252984671E-06 +6.37390757492E-05 -3.90570072957E-05 -5.77213620021E-01 +6.37450483507E-01
1.15500000000E+09 -4.90362442497E-01 +8.15606182153E-01 +5.30338370737E-05 +2.39069201399E-05 +1.40259812871E-06 -4.31043090838E-05 -5.73267463913E-01 +6.41119633425E-01
1.16000000000E+09 -4.85920112688E-01 +8.17231023793E-01 +7.04011787445E-05 -1.83791084505E-06 +6.73555257894E-05 -4.06656512829E-05 -5.69341157189E-01 +6.44957499468E-01
1.16500000000E+09 -4.80084548027E-01 +8.20030092786E-01 +6.21214799005E-05 -3.32554192791E-05 +5.27660433837E-05 -5.14451356135E-05 -5.65222748545E-01 +6.48348871465E-01
1.17000000000E+09 -4.73458397650E-01 +8.23271431845E-01 +6.78559004673E-05 -3.17989044551E-05 +7.56588809104E-05 -1.55691056181E-06 -5.60720986208E-01 +6.51645527990E-01
1.17500000000E+09 -4.65769193368E-01 +8.26875427104E-01 +6.06437979681E-05 -3.00944858863E-05 +6.98804733914E-05 +5.21886431765E-08 -5.56111514180E-01 +6.54854241596E-01
1.18000000000E+09 -4.57986890066E-01 +8.30903007838E-01 +7.29218153061E-05 -4.69234101032E-05 +9.69387534353E-05 -5.64779480100E-05 -5.51497623607E-01 +6.58028136170E-01
1.18500000000E+09 -4.50172637712E-01 +8.34531289409E-01 +9.95446751266E-05 -7.71235099059E-05 +6.16340389817E-05 -5.18023372683E-05 -5.46635861082E-01 +6.61201170916E-01
1.19000000000E+09 -4.42864930382E-01 +8.37637529205E-01 +8.98337822854E-05 -1.23388207668E-04 +3.21486929266E-05 -9.34120363827E-05 -5.41285357636E-01 +6.64005644520E-01
1.19500000000E+09 -4.36744862182E-01 +8.39724109854E-01 +1.07491393605E-04 -6.02612957379E-05 +7.34455122606E-05 -8.61278324880E-05 -5.36261086799E-01 +6.65342893610E-01
1.20000000000E+09 -4.31485257875E-01 +8.40518299270E-01 +4.03201139763E-05 -1.70170033691E-04 +3.06522807341E-05 -1.58448166853E-04 -5.32211337225E-01 +6.65738814042E-01
1.20500000000E+09 -4.26876487375E-01 +8.41541138049E-01 -6.52533063393E-05 -1.77006683211E-04 -7.31041390289E-05 -1.48405559642E-04 -5.30197678854E-01 +6.66607507176E-01
1.21000000000E+09 -4.22104924557E-01 +8.42403455335E-01 -1.26378025787E-04 -1.14949848626E-04 -8.94815406756E-05 -6.02733900897E-05 -5.28819068222E-01 +6.69432835830E-01
1.21500000000E+09 -4.16106888057E-01 +8.43745554228E-01 -1.83988442898E-05 -6.44109482266E-05 -1.47198580419E-05 -6.86842815013E-05 -5.26700922567E-01 +6.73991803154E-01
1.22000000000E+09 -4.08794445037E-01 +8.45572602876E-01 -2.26619642773E-05 -2.06056217126E-05 -3.66462928497E-05 -4.33032693787E-05 -5.23276891957E-01 +6.79033518979E-01
1.22500000000E+09 -4.00143051372E-01 +8.48245667140E-01 -1.07006343292E-05 -1.97109123069E-05 +9.05006790892E-06 -7.51585603599E-05 -5.19057556315E-01 +6.83836566379E-01
1.23000000000E+09 -3.90417583682E-01 +8.51472633490E-01 +1.06515422861E-05 -4.34397676806E-05 +1.51628489972E-05 -6.93855122282E-05 -5.14467363830E-01 +6.88474070209E-01
1.23500000000E+09 -3.80427101898E-01 +8.55311705704E-01 +2.98584873378E-05 -9.81472807910E-05 -3.76145789860E-05 -7.04002590391E-05 -5.09683606051E-01 +6.92733458634E-01
1.24000000000E+09 -3.70555914236E-01 +8.59601566309E-01 -1.14089501126E-05 -8.88244806819E-05 -1.10348164711E-05 -8.70594100828E-05 -5.04692979546E-01 +6.96384516074E-01
1.24500000000E+09 -3.61664417393E-01 +8.64019927370E-01 +1.24226208156E-05 -7.84292238389E-05 -2.51899229940E-05 -7.29344493909E-05 -4.99557900358E-01 +7.00306117289E-01
1.25000000000E+09 -3.53805860210E-01 +8.67645427976E-01 -2.86590405730E-05 -8.61494425648E-05 -3.13893418563E-05 -1.03555618984E-04 -4.94193430089E-01 +7.04433495978E-01
1.25500000000E+09 -3.47113418782E-01 +8.70237944822E-01 -5.98799815448E-05 -1.23996714349E-04 -2.47941742304E-05 -1.18019313207E-04 -4.88711403605E-01 +7.08646450467E-01
1.26000000000E+09 -3.41207701014E-01 +8.71818859141E-01 -7.36940839034E-05 -7.00541195361E-05 -7.25301818771E-05 -9.73251644323E-05 -4.83155632243E-01 +7.12986503191E-01
1.26500000000E+09 -3.35707187795E-01 +8.72955830301E-01 -3.61644912059E-05 -1.30273924532E-04 -4.46986836975E-05 -1.32139477200E-04 -4.77447481228E-01 +7.17186088146E-01
1.27000000000E+09 -3.29693870356E-01 +8.73758089319E-01 -5.07771377812E-05 -1.42317911548E-04 -8.47598361295E-05 -1.44190785703E-04 -4.71619616241E-01 +7.21143811155E-01
1.27500000000E+09 -3.22491038870E-01 +8.74558394286E-01 -1.28596314999E-04 -1.31663408322E-04 -1.15448911977E-04 -1.14499615733E-04 -4.65496556874E-01 +7.25032776841E-01
1.28000000000E+09 -3.13240368430E-01 +8.76044312959E-01 -1.41027790405E-04 -1.21915947478E-04 -1.25329212473E-04 -1.07668620632E-04 -4.59451712923E-01 +7.28928628387E-01
1.28500000000E+09 -3.02433017673E-01 +8.78144681485E-01 -2.09365224189E-04 -7.38085924121E-05 -1.69159340317E-04 -1.36591681271E-04 -4.52919867775E-01 +7.32975668884E-01
1.29000000000E+09 -2.90477787116E-01 +8.81002203017E-01 -1.76266120660E-04 -9.01883343379E-05 -2.30739045351E-04 -1.01210366180E-04 -4.46388330045E-01 +7.37014001256E-01
1.29500000000E+09 -2.78207522853E-01 +8.84469708942E-01 -1.77950569278E-04 -9.12579304598E-05 -1.86162017124E-04 -4.83808857788E-05 -4.39603143036E-01 +7.40900049737E-01
1.30000000000E+09 -2.66365746487E-01 +8.88227825658E-01 -1.88429502026E-04 -5.96667535350E-05 -1.96950462866E-04 -7.36518751464E-06 -4.32786039307E-01 +7.44766361146E-01
1.30500000000E+09 -2.55664610256E-01 +8.91741466506E-01 -1.76547250768E-04 -5.07874044928E-06 -2.37326284283E-04 -3.91952844440E-05 -4.25744016317E-01 +7.48635603800E-01
1.31000000000E+09 -2.46467762298E-01 +8.94260971657E-01 -2.48607144035E-04 -7.02510551520E-05 -2.35385843276E-04 -3.57005276824E-05 -4.18443273852E-01 +7.52396951093E-01
1.31500000000E+09 -2.39163822969E-01 +8.95805319708E-01 -2.38446976469E-04 +1.01334281754E-05 -2.23522228581E-04 -2.49981327097E-05 -4.10789986517E-01 +7.56209049122E-01
1.32000000000E+09 -2.33102982481E-01 +8.96403864065E-01 -2.68080924063E-04 +6.13073252785E-05 -2.64401356668E-04 +2.09207062228E-05 -4.02890716410E-01 +7.59936768055E-01
1.32500000000E+09 -2.27418123553E-01 +8.96235478292E-01 -2.35480529600E-04 +1.09405507459E-05 -2.69892264064E-04 +5.63589937933E-05 -3.94536855899E-01 +7.63750204806E-01
1.33000000000E+09 -2.20494514723E-01 +8.95800552683E-01 -2.65551169746E-04 +7.76685299259E-05 -2.68902345599E-04 +1.15287973671E-04 -3.86189585192E-01 +7.67335500775E-01
1.33500000000E+09 -2.11500705178E-01 +8.94979953773E-01 -2.95275729025E-04 +4.96452299922E-05 -2.88249882578E-04 +8.99880452862E-05 -3.77620495340E-01 +7.70934282907E-01
1.34000000000E+09 -2.00068237755E-01 +8.94799203964E-01 -3.30570816943E-04 +8.55078502151E-05 -2.84789832746E-04 +1.38629211642E-04 -3.68833922483E-01 +7.74705237853E-01
1.34500000000E+09 -1.86050879398E-01 +8.94821502760E-01 -3.12590305247E-04 +2.12713425941E-04 -2.85625334653E-04 +1.90116052095E-04 -3.59253588124E-01 +7.78570977363E-01
1.35000000000E+09 -1.70181776935E-01 +8.95664009733E-01 -3.02481969371E-04 +2.21300060208E-04 -2.79316998382E-04 +2.03268639678E-04 -3.49229467781E-01 +7.82355880522E-01
1.35500000000E+09 -1.53259600005E-01 +8.96632259706E-01 -2.63716651084E-04 +2.10217610008E-04 -3.11169845234E-04 +2.72809366503E-04 -3.38908555631E-01 +7.86067943794E-01
1.36000000000E+09 -1.36382143891E-01 +8.97699399628E-01 -3.03803990348E-04 +2.46774232749E-04 -2.69877557075E-04 +2.97493012038E-04 -3.28287099362E-01 +7.89455939174E-01
1.36500000000E+09 -1.20525784355E-01 +8.98637988117E-01 -3.28698934542E-04 +3.52335057404E-04 -2.79533384739E-04 +3.46773510165E-04 -3.17431987224E-01 +7.92836508054E-01
1.37000000000E+09 -1.06693510810E-01 +8.98640343533E-01 -2.62972651331E-04 +4.31643725353E-04 -2.71455431410E-04 +3.85020905672E-04 -3.05902096685E-01 +7.96047173647E-01
1.37500000000E+09 -9.48315837007E-02 +8.98184284599E-01 -2.58885227903E-04 +4.68649207371E-04 -2.69394281385E-04 +4.60326284818E-04 -2.93546557839E-01 +7.99171871596E-01
1.38000000000E+09 -8.42025788110E-02 +8.96982276115E-01 -2.02001208520E-04 +5.18527029551E-04 -2.75097588955E-04 +5.38945172176E-04 -2.80543552581E-01 +8.02238583361E-01
1.38500000000E+09 -7.31860023027E-02 +8.95144657024E-01 -1.13765810419E-04 +5.84941057597E-04 -1.89123008718E-04 +6.14150125530E-04 -2.66713590224E-01 +8.05431031228E-01
1.39000000000E+09 -6.10744183326E-02 +8.92564856285E-01 -1.03222518004E-04 +5.49793768166E-04 -1.15665744060E-04 +6.64156574127E-04 -2.52281938909E-01 +8.08113299414E-01
1.39500000000E+09 -4.63703275165E-02 +8.89497808655E-01 -7.43772948262E-05 +6.15662845897E-04 -1.50822743753E-05 +6.85948364992E-04 -2.37048514429E-01 +8.10336731513E-01
1.40000000000E+09 -2.88678988144E-02 +8.85324110593E-01 -1.34969512250E-04 +7.15406288777E-04 -5.82393647136E-05 +7.79217397826E-04 -2.21152637760E-01 +8.12260443057E-01
1.40500000000E+09 -9.20675955203E-03 +8.80845729313E-01 +5.37378911409E-06 +9.21506759708E-04 +6.70057551309E-05 +9.21483179360E-04 -2.04353771990E-01 +8.13742648724E-01
1.41000000000E+09 +1.24938392170E-02 +8.76027720435E-01 +2.29316418502E-04 +9.59348480497E-04 +2.15846500484E-04 +9.61398211842E-04 -1.85737524149E-01 +8.14776006428E-01
1.41500000000E+09 +3.53186498485E-02 +8.70631419411E-01 +3.41691435362E-04 +1.03909609369E-03 +3.74908041296E-04 +1.09374237826E-03 -1.65736798508E-01 +8.15243042797E-01
1.42000000000E+09 +5.80746574840E-02 +8.64606430784E-01 +5.80922838642E-04 +1.01523188719E-03 +6.52930527280E-04 +1.09949319866E-03 -1.44304240036E-01 +8.14960774763E-01
1.42500000000E+09 +7.96712059427E-02 +8.57295349275E-01 +6.86288375998E-04 +9.20667466682E-04 +8.27370588448E-04 +1.02037991797E-03 -1.21827533329E-01 +8.13693238203E-01
1.43000000000E+09 +1.00243783522E-01 +8.48757560760E-01 +7.97525558383E-04 +1.00950003006E-03 +9.79056394163E-04 +9.98830464395E-04 -9.84370931661E-02 +8.11540410963E-01
1.43500000000E+09 +1.19880428041E-01 +8.38525766206E-01 +1.02401039449E-03 +1.10758764258E-03 +1.17148155791E-03 +1.03137273295E-03 -7.33170307810E-02 +8.07838207813E-01
1.44000000000E+09 +1.39905381773E-01 +8.26584004989E-01 +1.55787676623E-03 +1.06954577702E-03 +1.61841589771E-03 +1.00466635757E-03 -4.62806661438E-02 +8.02402584632E-01
1.44500000000E+09 +1.61845259537E-01 +8.11673564260E-01 +1.84698804480E-03 +7.61974031460E-04 +1.93874567229E-03 +7.03090235671E-04 -1.67111200228E-02 +7.94346409527E-01
1.45000000000E+09 +1.86174040389E-01 +7.93012348543E-01 +1.98137041330E-03 +4.65212369660E-04 +2.04239313879E-03 +3.46049698046E-04 +1.45963692041E-02 +7.83388370790E-01
1.45500000000E+09 +2.13258058567E-01 +7.71000123829E-01 +2.20071076145E-03 +3.83392807671E-04 +2.24507938980E-03 +2.01017636812E-04 +4.77416801125E-02 +7.69570678727E-01
1.46000000000E+09 +2.43721001960E-01 +7.44621221588E-01 +2.60851866459E-03 +1.32750978212E-04 +2.52966237354E-03 -1.62282357823E-04 +8.23041119664E-02 +7.51718943394E-01
1.46500000000E+09 +2.76063811832E-01 +7.13494528419E-01 +3.08781911130E-03 -3.61846791061E-04 +2.84670034594E-03 -5.20629140685E-04 +1.18911783824E-01 +7.29457127838E-01
1.47000000000E+09 +3.09349302533E-01 +6.78060871505E-01 +3.42155640558E-03 -1.19830330169E-03 +3.13870984760E-03 -1.13540622348E-03 +1.56519254373E-01 +7.00037062367E-01
1.47500000000E+09 +3.41544621795E-01 +6.36992753437E-01 +3.34096940269E-03 -2.36788529731E-03 +3.32641983219E-03 -2.12892907596E-03 +1.95156650135E-01 +6.63789662060E-01
1.48000000000E+09 +3.70784206394E-01 +5.89827093843E-01 +2.70842342276E-03 -3.17020813823E-03 +2.87027561738E-03 -3.11577660760E-03 +2.33417439890E-01 +6.18697109600E-01
1.48500000000E+09 +3.94484123973E-01 +5.36100985175E-01 +2.41562064579E-03 -3.65132801939E-03 +2.37678309817E-03 -3.76969203247E-03 +2.69993493151E-01 +5.64561160867E-01
1.49000000000E+09 +4.11962671745E-01 +4.74949856205E-01 +2.06732287988E-03 -4.68065817379E-03 +1.81494459968E-03 -4.76218346901E-03 +3.01934686601E-01 +4.98630010384E-01
1.49500000000E+09 +4.20894138744E-01 +4.05729952895E-01 +9.57980828191E-04 -5.73895039752E-03 +7.30661033588E-04 -5.49127227169E-03 +3.22947429716E-01 +4.22614074510E-01
1.50000000000E+09 +4.20841444785E-01 +3.27349043512E-01 -7.78062538935E-04 -6.38975812571E-03 -7.26779257383E-04 -6.03215967336E-03 +3.33069413819E-01 +3.37917561025E-01
1.50500000000E+09 +4.07393608052E-01 +2.39107146478E-01 -2.31921661339E-03 -6.39213355317E-03 -2.02466077706E-03 -6.22368688627E-03 +3.26399980565E-01 +2.43776839970E-01
1.51000000000E+09 +3.76966318401E-01 +1.45172245764E-01 -4.34150344326E-03 -5.91514114543E-03 -4.09268366565E-03 -6.01981271445E-03 +2.98860573108E-01 +1.45364340948E-01
1.51500000000E+09 +3.26117196317E-01 +5.13910755422E-02 -5.90458763049E-03 -5.13153148039E-03 -5.81430967208E-03 -5.31494307137E-03 +2.48458935481E-01 +5.13153316382E-02
1.52000000000E+09 +2.55599634966E-01 -3.28355079560E-02 -8.32779734187E-03 -3.37860939306E-03 -8.41442376230E-03 -3.47532029566E-03 +1.78030103033E-01 -3.31658762172E-02
1.52500000000E+09 +1.68051919467E-01 -1.02502469486E-01 -8.77850773828E-03 +2.40853784096E-04 -8.86234136440E-03 +1.73797906424E-04 +8.81862810805E-02 -9.90498497965E-02
1.53000000000E+09 +6.62878554049E-02 -1.50555120151E-01 -7.54064686735E-03 +2.30878978223E-03 -7.53793292166E-03 +2.30534648748E-03 -1.18694472349E-02 -1.42651312076E-01
1.53500000000E+09 -4.32450849497E-02 -1.73552603979E-01 -6.76464425209E-03 +4.31892686313E-03 -6.74699413078E-03 +4.28222867128E-03 -1.16494347463E-01 -1.61575432676E-01
1.54000000000E+09 -1.54970764195E-01 -1.69320651680E-01 -4.53857864480E-03 +5.47972319683E-03 -4.54041197948E-03 +5.37183733356E-03 -2.16704683346E-01 -1.58739907335E-01
1.54500000000E+09 -2.60910282988E-01 -1.42169553849E-01 -3.20560198490E-03 +5.95653853229E-03 -3.27386829895E-03 +5.81782278265E-03 -3.06533516896E-01 -1.38055905982E-01
1.55000000000E+09 -3.55808584637E-01 -9.46258807348E-02 -1.44786751921E-03 +6.48584496524E-03 -1.64734335098E-03 +6.37670437575E-03 -3.84489169701E-01 -1.05769627650E-01
1.55500000000E+09 -4.33768283663E-01 -3.65499119561E-02 +6.40845404961E-04 +6.10068142322E-03 +3.55816837443E-04 +6.18184359789E-03 -4.49457901930E-01 -6.39529408282E-02
1.56000000000E+09 -4.97258048018E-01 +2.45521322413E-02 +1.89282062404E-03 +4.60273830476E-03 +1.83023917747E-03 +4.87240598082E-03 -5.01750568755E-01 -1.73065505432E-02
1.56500000000E+09 -5.47844417647E-01 +8.64441222971E-02 +2.15371796016E-03 +3.52793527330E-03 +2.21213563269E-03 +3.79976376464E-03 -5.42771173686E-01 +3.18727519577E-02
1.57000000000E+09 -5.84710864099E-01 +1.46613684531E-01 +2.48101277131E-03 +2.89951703360E-03 +2.66392259626E-03 +3.06428649589E-03 -5.73800462631E-01 +7.98669929179E-02
