# Hz S RI R 50
! CMT, C1220, 16058040, 17.2.0/1
! Date: 14/08/2018 12:57:48
! Data: Format (Calibration Info)
! Freq                      S11: Re/Im (F2)                       S21: Re/Im (F2)                       S12: Re/Im (F2)                       S22: Re/Im (F2)            
1.00000000000E+09 -6.47411657303E-01 +7.11859777618E-01 +4.36057532569E-05 -4.42706993115E-06 -2.14194383405E-05 -1.40469424718E-05 -7.19171519970E-01 +6.45639426561E-01
1.00500000000E+09 -6.40855610664E-01 +7.16617164519E-01 +1.39697378674E-05 +4.81626393662E-05 +1.42098061154E-06 +4.08987887741E-06 -7.15290486038E-01 +6.49628445128E-01
1.01000000000E+09 -6.34971413077E-01 +7.21053954596E-01 -2.38989741013E-05 +4.51034836001E-05 +3.05254197609E-05 +2.40809474022E-05 -7.11799724015E-01 +6.53206532018E-01
1.01500000000E+09 -6.30174030098E-01 +7.24903515783E-01 -9.95791982948E-06 +6.04889040195E-05 +1.22919043014E-05 +2.51536815649E-05 -7.08323795815E-01 +6.56613453600E-01
1.02000000000E+09 -6.26299421166E-01 +7.28544625648E-01 -1.04907096287E-05 -2.37612575082E-05 -2.93530413875E-05 +5.90287525784E-05 -7.04887040689E-01 +6.59910210845E-01
1.02500000000E+09 -6.22815943007E-01 +7.31708428477E-01 +1.26644012872E-05 +2.45936282429E-05 +7.93583917709E-06 +8.66593441717E-05 -7.01800007052E-01 +6.63541230405E-01
1.03000000000E+09 -6.19836764556E-01 +7.34687769013E-01 +1.66594520662E-05 -2.23221993040E-05 -6.94639434958E-06 +1.27369851826E-05 -6.98156829022E-01 +6.67404107659E-01
1.03500000000E+09 -6.16094417454E-01 +7.37635096282E-01 +1.10057324667E-05 -1.37258221534E-05 -4.50537654607E-06 +4.00418561422E-05 -6.94140040477E-01 +6.71213924143E-01
1.04000000000E+09 -6.11590376757E-01 +7.40836117702E-01 +1.35929577647E-05 +5.81829416404E-05 +3.69811958469E-06 -2.17138452447E-06 -6.90134324137E-01 +6.74662051519E-01
1.04500000000E+09 -6.06131426482E-01 +7.44336116502E-01 -2.54716141278E-05 -9.49245237181E-06 -3.75426201489E-05 +1.89613632002E-05 -6.86347982447E-01 +6.78084254115E-01
1.05000000000E+09 -5.99248969656E-01 +7.48435042907E-01 +4.32590615827E-05 +1.78699983264E-05 -1.20166740936E-05 +2.97632372267E-05 -6.82884283010E-01 +6.81381538273E-01
1.05500000000E+09 -5.91678150876E-01 +7.52660331355E-01 +7.32986007008E-06 +1.56184151939E-05 -6.86638260890E-06 +3.43250058446E-05 -6.79386991929E-01 +6.84888610937E-01
1.06000000000E+09 -5.83584096470E-01 +7.57391457976E-01 -6.63207634786E-06 +2.55399442787E-05 +4.85475657554E-05 +2.11805777604E-05 -6.75728577010E-01 +6.88534630378E-01
1.06500000000E+09 -5.75855414024E-01 +7.62046836421E-01 +3.12797905607E-05 +5.35845466181E-07 -1.86641889207E-06 -5.76891397431E-05 -6.71767450282E-01 +6.92169456205E-01
1.07000000000E+09 -5.68776266121E-01 +7.66022438670E-01 -2.63963327299E-06 -3.36702005152E-05 +2.93999835307E-05 +4.91763928254E-05 -6.67514992135E-01 +6.95886067291E-01
1.07500000000E+09 -5.62683414737E-01 +7.69811704239E-01 -1.96749177354E-05 +6.41931179911E-05 +4.72321083396E-05 +3.35436231938E-05 -6.62950310156E-01 +6.99474301032E-01
1.08000000000E+09 -5.57770991627E-01 +7.73105130800E-01 +2.14493224941E-05 +3.00991746887E-05 +5.55595626161E-06 +5.62093862265E-05 -6.58937602452E-01 +7.02959714647E-01
1.08500000000E+09 -5.53949065020E-01 +7.75574059530E-01 +2.20731922165E-05 +2.97542717311E-05 +4.83789456912E-05 +4.36923427136E-05 -6.54926856639E-01 +7.06424135796E-01
1.09000000000E+09 -5.50719801989E-01 +7.77980937160E-01 +2.91386483992E-06 +8.75071109636E-06 +8.23635170513E-05 +3.46480698336E-05 -6.51005342290E-01 +7.10230329394E-01
1.09500000000E+09 -5.47837791625E-01 +7.79995749650E-01 +1.90992829619E-05 +2.21547418999E-05 +3.61737903670E-05 +4.30608118643E-05 -6.46974135905E-01 +7.13901651158E-01
1.10000000000E+09 -5.44204687557E-01 +7.82277500211E-01 +6.81320398717E-05 +4.53974246800E-05 +5.49098598555E-05 +2.45427227533E-05 -6.42878468359E-01 +7.17416341173E-01
1.10500000000E+09 -5.39960334520E-01 +7.84954897393E-01 +3.22398194245E-06 -2.12154123921E-05 +2.72686777032E-05 +2.25215308044E-05 -6.38402618504E-01 +7.20847973879E-01
1.11000000000E+09 -5.34567415431E-01 +7.87887237489E-01 +8.26814533816E-05 -5.19549390270E-06 +8.97573193663E-05 +7.09108335996E-06 -6.34212215677E-01 +7.23951858560E-01
1.11500000000E+09 -5.28265166892E-01 +7.91510561219E-01 +3.10544800152E-05 +2.85750742843E-05 +6.78373107391E-05 -6.83006757971E-06 -6.30004354139E-01 +7.27188000065E-01
1.12000000000E+09 -5.21318502535E-01 +7.94913033773E-01 +9.32800952268E-05 +2.22183453695E-05 +5.16697911383E-05 +1.27684389854E-05 -6.25889811525E-01 +7.30761945183E-01
1.12500000000E+09 -5.13950574742E-01 +7.98607241934E-01 +5.95175106042E-05 +2.91702179317E-05 +9.96733521174E-05 +3.39571927616E-05 -6.21442669455E-01 +7.34405791587E-01
1.13000000000E+09 -5.06723682134E-01 +8.01814165464E-01 +7.86462311063E-05 +2.04395811569E-05 +5.77925716558E-05 +9.82667314856E-06 -6.16975209096E-01 +7.37761340917E-01
1.13500000000E+09 -4.99771191842E-01 +8.04190236390E-01 +4.73018033591E-05 -2.41908928983E-05 -4.66848759860E-06 +1.93358286994E-05 -6.11963689186E-01 +7.41545937917E-01
1.14000000000E+09 -4.93716153848E-01 +8.06572201191E-01 +1.40835767223E-05 +8.03007718635E-06 +8.01794429151E-05 -2.44394402803E-05 -6.07107297420E-01 +7.44857138213E-01
1.14500000000E+09 -4.88335827732E-01 +8.08260077640E-01 +6.97406951424E-05 -7.56073551431E-06 +1.16273563977E-04 -2.23854556631E-05 -6.02227273248E-01 +7.48095509752E-01
1.15000000000E+09 -4.83025795989E-01 +8.09951020108E-01 +4.68183792886E-05 +9.59946101154E-06 +5.03742019569E-05 -4.03617561061E-05 -5.97443977627E-01 +7.51887914462E-01
1.15500000000E+09 -4.78154324230E-01 +8.11755225016E-01 +8.07085703819E-05 -4.64009023445E-05 +8.59877276452E-05 +7.77247765549E-06 -5.92586548403E-01 +7.55461434077E-01
1.16000000000E+09 -4.72873319021E-01 +8.13604133374E-01 +6.18420196818E-05 -3.99024032524E-05 +8.83293357034E-05 -8.38286237806E-06 -5.87680830968E-01 +7.59102347587E-01
1.16500000000E+09 -4.67231340592E-01 +8.16256328442E-01 +8.09610235527E-05 -3.90422373534E-05 +7.59273357077E-05 -1.62619748881E-05 -5.82339075395E-01 +7.62477003548E-01
1.17000000000E+09 -4.60623676643E-01 +8.18984967705E-01 +9.67311786780E-05 -4.98606859824E-05 +9.29394287789E-05 -1.99578097464E-05 -5.76788700230E-01 +7.65524904439E-01
1.17500000000E+09 -4.53649674089E-01 +8.22154920263E-01 +1.06049171000E-04 -6.82061789313E-05 +1.07555205668E-04 +1.34237881631E-05 -5.71165182284E-01 +7.68503153752E-01
1.18000000000E+09 -4.46202892525E-01 +8.25302629239E-01 +1.33238840021E-04 -1.25711410633E-04 +1.55971363426E-04 -6.45040232870E-05 -5.65747710399E-01 +7.71361840005E-01
1.18500000000E+09 -4.38625563118E-01 +8.28220394015E-01 +1.27534769844E-04 -1.00482464851E-04 +1.20512498643E-04 -1.34244958825E-04 -5.59858741963E-01 +7.74148256255E-01
1.19000000000E+09 -4.30948925316E-01 +8.30553651993E-01 +1.01588423265E-04 -1.05451527981E-04 +9.22044968182E-05 -1.67743410278E-04 -5.53754057733E-01 +7.76392913710E-01
1.19500000000E+09 -4.23604723116E-01 +8.32397381750E-01 +1.07070624732E-04 -1.96458850197E-04 +1.18966180088E-04 -2.18127837930E-04 -5.47857717285E-01 +7.77518804512E-01
1.20000000000E+09 -4.16770041965E-01 +8.33358359330E-01 +4.76439090178E-05 -2.17410056968E-04 -3.09336060537E-06 -2.65339849272E-04 -5.43060196401E-01 +7.77547451543E-01
1.20500000000E+09 -4.10267957494E-01 +8.34415534857E-01 -1.01175017638E-04 -2.57924560572E-04 -7.48432483616E-05 -2.15713149565E-04 -5.40725646278E-01 +7.78408334698E-01
1.21000000000E+09 -4.03594695039E-01 +8.35670946228E-01 -7.61876472068E-05 -1.74033731154E-04 -6.89073311662E-05 -1.34617727751E-04 -5.38408764891E-01 +7.81397845680E-01
1.21500000000E+09 -3.96419397084E-01 +8.37287103223E-01 -5.32292079388E-05 -1.07940425638E-04 -6.41395031305E-05 -1.32293858227E-04 -5.35266837104E-01 +7.85695994307E-01
1.22000000000E+09 -3.88705652736E-01 +8.39223119682E-01 -3.45910532302E-05 -1.01972157489E-04 +2.46796492351E-06 -1.22535871102E-04 -5.31053937436E-01 +7.90829189331E-01
1.22500000000E+09 -3.80559883715E-01 +8.41529540672E-01 -2.82944740849E-05 -1.30556943999E-04 -4.26919173150E-05 -1.25375614601E-04 -5.25683045141E-01 +7.95863364059E-01
1.23000000000E+09 -3.72023409052E-01 +8.44386737378E-01 -8.12747341259E-06 -1.43817105663E-04 -6.96058063135E-05 -1.81520672397E-04 -5.19972128241E-01 +8.00113386655E-01
1.23500000000E+09 -3.63691551181E-01 +8.47444129162E-01 +1.16761760133E-07 -1.34632725581E-04 -1.13257545931E-04 -1.70572193309E-04 -5.13963251511E-01 +8.04063032169E-01
1.24000000000E+09 -3.55362326449E-01 +8.50529940477E-01 -4.51244020187E-05 -1.57752534910E-04 -9.58726929815E-05 -1.54674886520E-04 -5.07911232805E-01 +8.07549416778E-01
1.24500000000E+09 -3.47740995156E-01 +8.53827680095E-01 -4.52253957522E-05 -2.07079489245E-04 -9.12877845683E-05 -1.16027998243E-04 -5.01540242233E-01 +8.11082162774E-01
1.25000000000E+09 -3.40111048657E-01 +8.56510761985E-01 -1.07043233202E-04 -1.61480806156E-04 -7.87871117648E-05 -2.04696883540E-04 -4.94940115226E-01 +8.14951438627E-01
1.25500000000E+09 -3.32723157057E-01 +8.58384445917E-01 -1.21364079967E-04 -1.89341577144E-04 -1.03506577268E-04 -1.86925797388E-04 -4.88205424557E-01 +8.18529252674E-01
1.26000000000E+09 -3.25267399453E-01 +8.59484208006E-01 -1.50926400898E-04 -2.14366756950E-04 -1.40800972828E-04 -2.16488512667E-04 -4.81568187413E-01 +8.22479685914E-01
1.26500000000E+09 -3.17632659410E-01 +8.59990945331E-01 -1.92914725737E-04 -2.31194586833E-04 -1.85747695326E-04 -2.14960811030E-04 -4.74484526003E-01 +8.26024127731E-01
1.27000000000E+09 -3.09559067104E-01 +8.60465320429E-01 -2.14283860581E-04 -2.15871033130E-04 -1.88222983731E-04 -1.95702390065E-04 -4.67443982523E-01 +8.29446837735E-01
1.27500000000E+09 -3.00431926613E-01 +8.60972222075E-01 -2.63926065816E-04 -1.73171651851E-04 -2.71130739031E-04 -2.45083646383E-04 -4.60497641083E-01 +8.32665445117E-01
1.28000000000E+09 -2.90464227566E-01 +8.61915747911E-01 -3.25453918033E-04 -1.76212223455E-04 -3.10362831204E-04 -2.23359345826E-04 -4.53357917031E-01 +8.35839936198E-01
1.28500000000E+09 -2.79441833729E-01 +8.63272464920E-01 -3.49948579382E-04 -1.41977264817E-04 -3.75017255572E-04 -1.96406049091E-04 -4.45904771081E-01 +8.39328490142E-01
1.29000000000E+09 -2.68483342462E-01 +8.65030461935E-01 -3.58394287467E-04 -1.57841432637E-04 -3.80591393954E-04 -1.55440270425E-04 -4.38131434486E-01 +8.42700799638E-01
1.29500000000E+09 -2.57762341121E-01 +8.67265713150E-01 -4.46625770644E-04 -1.25887295680E-04 -4.29401613494E-04 -8.50127747938E-05 -4.30343424057E-01 +8.45851554583E-01
1.30000000000E+09 -2.47571156722E-01 +8.70076280642E-01 -4.66705718117E-04 -1.22413732829E-04 -4.48361427949E-04 -3.91042578247E-05 -4.22634798430E-01 +8.49040451314E-01
1.30500000000E+09 -2.38180176692E-01 +8.72768740549E-01 -5.34431757647E-04 -3.33849605021E-05 -4.73418554042E-04 -4.11785096297E-06 -4.14566450476E-01 +8.52119863250E-01
1.31000000000E+09 -2.29253555139E-01 +8.74969252578E-01 -5.61738206666E-04 +2.83780730990E-05 -5.19714182662E-04 +5.58197207866E-05 -4.06147993753E-01 +8.55281280063E-01
1.31500000000E+09 -2.21251401224E-01 +8.76216544991E-01 -5.88941417042E-04 +1.56531801049E-04 -5.77196722234E-04 +1.73088168646E-04 -3.97461677641E-01 +8.58459268626E-01
1.32000000000E+09 -2.13704522338E-01 +8.76464251012E-01 -5.29961927420E-04 +2.40074707824E-04 -5.77593510825E-04 +1.90621025264E-04 -3.88355165057E-01 +8.61250667313E-01
1.32500000000E+09 -2.06293889491E-01 +8.75966747711E-01 -5.56604875815E-04 +2.53575779700E-04 -6.15373773794E-04 +2.61191211799E-04 -3.79134156957E-01 +8.64196794314E-01
1.33000000000E+09 -1.97865612278E-01 +8.75248830929E-01 -6.29716513015E-04 +2.86156532683E-04 -6.31462952311E-04 +3.32503949297E-04 -3.69833788949E-01 +8.67025252835E-01
1.33500000000E+09 -1.88277533191E-01 +8.74332279937E-01 -6.26526203319E-04 +4.12958186001E-04 -5.93577893208E-04 +5.40668988855E-04 -3.60087581666E-01 +8.69899991811E-01
1.34000000000E+09 -1.76974897281E-01 +8.73758673506E-01 -5.84160604902E-04 +5.65935865866E-04 -5.52171309243E-04 +5.28983072423E-04 -3.50161569321E-01 +8.72734587293E-01
1.34500000000E+09 -1.64076487329E-01 +8.73229538283E-01 -5.44336026616E-04 +6.30481409926E-04 -5.52736820625E-04 +6.55856863119E-04 -3.39324008831E-01 +8.75408956183E-01
1.35000000000E+09 -1.50077969626E-01 +8.73267204308E-01 -4.54527775973E-04 +7.83853192186E-04 -4.88593027858E-04 +7.16151420309E-04 -3.28472436999E-01 +8.78043925150E-01
1.35500000000E+09 -1.35108872643E-01 +8.73648687356E-01 -5.11560342427E-04 +8.22641171394E-04 -4.21857649302E-04 +7.88401099191E-04 -3.17027707006E-01 +8.80469772138E-01
1.36000000000E+09 -1.20133276154E-01 +8.74112889495E-01 -3.96866568840E-04 +9.22777899964E-04 -4.29403742313E-04 +8.93914246076E-04 -3.05384217745E-01 +8.82526731805E-01
1.36500000000E+09 -1.05068454253E-01 +8.74276826471E-01 -3.57760636556E-04 +1.03058275902E-03 -3.35916172650E-04 +1.00995212210E-03 -2.93676702296E-01 +8.84481812333E-01
1.37000000000E+09 -9.07709121196E-02 +8.73366016707E-01 -2.24048617200E-04 +1.23615278262E-03 -2.79673413660E-04 +1.10231210441E-03 -2.81162457429E-01 +8.86521098967E-01
1.37500000000E+09 -7.77140652300E-02 +8.71544585056E-01 -3.65845445672E-05 +1.30598264378E-03 -1.91296017488E-04 +1.28785504619E-03 -2.67800617021E-01 +8.88243282912E-01
1.38000000000E+09 -6.54930098651E-02 +8.69114207091E-01 +6.79395676021E-05 +1.30688419306E-03 -1.07279135468E-04 +1.38704004361E-03 -2.53374706387E-01 +8.89718993966E-01
1.38500000000E+09 -5.29212633940E-02 +8.65779181949E-01 +1.49287951007E-04 +1.45367097195E-03 +6.42467626518E-05 +1.62389281587E-03 -2.38368213529E-01 +8.91105100347E-01
1.39000000000E+09 -4.02603747649E-02 +8.61993374978E-01 +3.45609930126E-04 +1.51990939447E-03 +3.73172065275E-04 +1.73397703400E-03 -2.22995361752E-01 +8.92041996036E-01
1.39500000000E+09 -2.62981538561E-02 +8.58082019903E-01 +5.16026476901E-04 +1.68454900401E-03 +7.59434391970E-04 +1.77942502771E-03 -2.07102388851E-01 +8.92410920485E-01
1.40000000000E+09 -1.08088992219E-02 +8.53357544860E-01 +7.44431463411E-04 +1.81870692373E-03 +9.03325628650E-04 +1.80558211096E-03 -1.90258049361E-01 +8.92421085826E-01
1.40500000000E+09 +5.67371215634E-03 +8.48534872397E-01 +1.17888625388E-03 +1.94257465375E-03 +1.28947201163E-03 +1.85346908006E-03 -1.72445736390E-01 +8.91605131953E-01
1.41000000000E+09 +2.33956712862E-02 +8.43780507400E-01 +1.67441646933E-03 +1.77927124826E-03 +1.62532782445E-03 +1.78045390096E-03 -1.53046448404E-01 +8.90411236938E-01
1.41500000000E+09 +4.24994033338E-02 +8.38920463193E-01 +1.89759103105E-03 +1.61778375639E-03 +1.90830273213E-03 +1.77401900945E-03 -1.32144865678E-01 +8.88335803814E-01
1.42000000000E+09 +6.31029389096E-02 +8.33329146676E-01 +2.18572229957E-03 +1.55682731031E-03 +2.42702861020E-03 +1.73052383790E-03 -1.10327776232E-01 +8.85277707603E-01
1.42500000000E+09 +8.39984409425E-02 +8.25921863993E-01 +2.55012020763E-03 +1.43383300246E-03 +2.91578157999E-03 +1.50281774366E-03 -8.75366320383E-02 +8.81068117289E-01
1.43000000000E+09 +1.05232187758E-01 +8.16243682119E-01 +3.04288792550E-03 +1.43033822625E-03 +3.41129441188E-03 +1.24216277179E-03 -6.40323345877E-02 +8.75925495142E-01
1.43500000000E+09 +1.26031032618E-01 +8.04255704929E-01 +3.95048922357E-03 +1.05314527385E-03 +4.11770458916E-03 +7.27826152773E-04 -3.88701075221E-02 +8.68856211045E-01
1.44000000000E+09 +1.47281328719E-01 +7.90485454086E-01 +4.56229027965E-03 +1.09955867155E-04 +4.58700280529E-03 -2.26718841847E-04 -1.21881314907E-02 +8.59819084999E-01
1.44500000000E+09 +1.69750593291E-01 +7.74176064975E-01 +4.59713731734E-03 -8.36123256823E-04 +4.58111643464E-03 -1.14031383334E-03 +1.64292959183E-02 +8.48278385067E-01
1.45000000000E+09 +1.93506912309E-01 +7.55131221374E-01 +4.56724595539E-03 -1.39932165746E-03 +4.57813207062E-03 -1.68569403310E-03 +4.66353480263E-02 +8.33584647120E-01
1.45500000000E+09 +2.18662677560E-01 +7.33450704263E-01 +4.78253758773E-03 -2.04505196711E-03 +4.66741343487E-03 -2.42907416909E-03 +7.80295204271E-02 +8.16245658792E-01
1.46000000000E+09 +2.45174314280E-01 +7.09073753355E-01 +5.18046072972E-03 -2.86544902108E-03 +4.71593854917E-03 -3.20637171456E-03 +1.11165224610E-01 +7.95114596172E-01
1.46500000000E+09 +2.73124873171E-01 +6.82120844401E-01 +5.38188662791E-03 -4.08097079250E-03 +4.74367771924E-03 -4.01118266372E-03 +1.45194282118E-01 +7.68687996985E-01
1.47000000000E+09 +3.02713586016E-01 +6.51312138204E-01 +5.50602009923E-03 -5.84592188777E-03 +5.06117436123E-03 -5.38068410456E-03 +1.80084492424E-01 +7.35773037402E-01
1.47500000000E+09 +3.32694867759E-01 +6.14319734219E-01 +4.52639411836E-03 -7.97535387801E-03 +4.69713175225E-03 -7.45853227949E-03 +2.14752671462E-01 +6.95460737517E-01
1.48000000000E+09 +3.60415101947E-01 +5.70151597232E-01 +2.92656006626E-03 -9.44671132411E-03 +3.23632613765E-03 -9.44135306922E-03 +2.48869798158E-01 +6.47574820675E-01
1.48500000000E+09 +3.83963265341E-01 +5.17782704037E-01 +1.46864956966E-03 -1.07734729137E-02 +1.32814068687E-03 -1.10770660781E-02 +2.80511263119E-01 +5.90817176893E-01
1.49000000000E+09 +4.01190487298E-01 +4.57647292878E-01 -7.45881855315E-04 -1.24384899741E-02 -1.34010375199E-03 -1.23975172274E-02 +3.07270704843E-01 +5.24194768420E-01
1.49500000000E+09 +4.11215219191E-01 +3.89842104622E-01 -4.48239710466E-03 -1.34877981328E-02 -4.82588845419E-03 -1.27279194838E-02 +3.24762133445E-01 +4.46839215355E-01
1.50000000000E+09 +4.12343866610E-01 +3.12550641591E-01 -8.22235672610E-03 -1.30178579041E-02 -7.70765737373E-03 -1.22255558722E-02 +3.29374405145E-01 +3.60084660966E-01
1.50500000000E+09 +4.00170826025E-01 +2.27416258591E-01 -1.23933608304E-02 -1.17051517815E-02 -1.15035048623E-02 -1.15812417060E-02 +3.17284350107E-01 +2.65565765958E-01
1.51000000000E+09 +3.72815832677E-01 +1.37956696157E-01 -1.62086899571E-02 -8.36347304749E-03 -1.56346249844E-02 -8.92542416768E-03 +2.84584468957E-01 +1.66847734954E-01
1.51500000000E+09 +3.25984184568E-01 +4.75021398661E-02 -1.90309816272E-02 -4.31335597145E-03 -1.90765493748E-02 -4.88271216955E-03 +2.28245165039E-01 +7.21197192781E-02
1.52000000000E+09 +2.58544259206E-01 -3.40700916091E-02 -2.09825079609E-02 +8.92798645363E-04 -2.12528812176E-02 +6.43296906284E-04 +1.50528023065E-01 -1.02005113629E-02
1.52500000000E+09 +1.73921402645E-01 -1.01548441703E-01 -2.10127262890E-02 +8.40367144004E-03 -2.12608016824E-02 +8.36303008212E-03 +5.71901499443E-02 -7.49222033582E-02
1.53000000000E+09 +7.50194111172E-02 -1.49583650694E-01 -1.63657593491E-02 +1.44672772511E-02 -1.65828305641E-02 +1.45500000539E-02 -5.12487485083E-02 -1.17401505839E-01
1.53500000000E+09 -3.26728468477E-02 -1.74114646885E-01 -1.15507168951E-02 +1.78947180678E-02 -1.15839504670E-02 +1.78753314821E-02 -1.61750874314E-01 -1.33187658153E-01
1.54000000000E+09 -1.44304878164E-01 -1.73406471377E-01 -6.00512246562E-03 +1.98149402211E-02 -5.98965203630E-03 +1.95900847057E-02 -2.70143803934E-01 -1.26379583249E-01
1.54500000000E+09 -2.49606199867E-01 -1.47426772564E-01 +3.05431012624E-04 +2.00592460319E-02 -1.50754536626E-04 +1.98134392446E-02 -3.67570160357E-01 -9.81695610601E-02
1.55000000000E+09 -3.42706328489E-01 -1.03980197634E-01 +5.12122086196E-03 +1.72480946903E-02 +4.40905373825E-03 +1.74591490802E-02 -4.49405175287E-01 -5.62717294445E-02
1.55500000000E+09 -4.20338174745E-01 -4.80266943491E-02 +8.23651890428E-03 +1.45554534255E-02 +7.69219384747E-03 +1.52553484967E-02 -5.16673699581E-01 -6.05257546109E-03
1.56000000000E+09 -4.81274273979E-01 +1.15946584034E-02 +1.09357260469E-02 +1.12269370040E-02 +1.10298155433E-02 +1.21539264568E-02 -5.69555899399E-01 +4.89978023676E-02
1.56500000000E+09 -5.29620243425E-01 +7.21670897978E-02 +1.17398643353E-02 +7.29798718951E-03 +1.23219410998E-02 +7.92195945057E-03 -6.10763960877E-01 +1.05661835897E-01
1.57000000000E+09 -5.65834926471E-01 +1.32177745201E-01 +1.14407731727E-02 +4.51582697585E-03 +1.22699117510E-02 +4.72440919340E-03 -6.40612336924E-01 +1.61920490594E-01
