# Hz S RI R 50
! CMT, C1220, 16058040, 17.2.0/1
! Date: 14/08/2018 11:58:51
! Data: Format (Calibration Info)
! Freq                      S11: Re/Im (F2)                       S21: Re/Im (F2)                       S12: Re/Im (F2)                       S22: Re/Im (F2)            
1.00000000000E+09 -6.44609457232E-01 +7.12370286705E-01 -4.96476477665E-05 +6.40898961185E-05 -1.98587873492E-05 -2.24843034416E-05 -7.50127464954E-01 +6.26801433427E-01
1.00500000000E+09 -6.37621848818E-01 +7.17330728114E-01 +2.03253243944E-05 +4.04942495169E-05 +1.20227991356E-05 -1.54923162031E-05 -7.46610291037E-01 +6.30789685342E-01
1.01000000000E+09 -6.31706503105E-01 +7.21691977205E-01 -1.99839723711E-05 +1.34904844415E-06 -1.43094278244E-05 +4.62529805906E-05 -7.42901978222E-01 +6.34542274127E-01
1.01500000000E+09 -6.27115958899E-01 +7.25478056788E-01 +1.25916006081E-06 +8.77112214552E-06 -1.95267246800E-05 -1.26435244557E-05 -7.39453482371E-01 +6.38326469954E-01
1.02000000000E+09 -6.24056629434E-01 +7.28657591505E-01 -3.25605766694E-05 +1.57952159783E-05 +4.01350844779E-05 +2.89872102369E-05 -7.35965126555E-01 +6.41829800480E-01
1.02500000000E+09 -6.21954046039E-01 +7.31275269298E-01 -2.31630113042E-05 +1.53034444814E-05 -3.32457206185E-05 -6.03538125501E-06 -7.32989998962E-01 +6.45720267930E-01
1.03000000000E+09 -6.20285346538E-01 +7.33663832757E-01 -4.78196623402E-05 +2.97623219767E-05 -1.42257719298E-05 -1.08543696560E-05 -7.29558227101E-01 +6.49439579428E-01
1.03500000000E+09 -6.18002743445E-01 +7.35938148009E-01 -3.21603279605E-05 +3.47741527242E-05 -8.04796008886E-05 -4.03571588263E-06 -7.25801966976E-01 +6.53405441303E-01
1.04000000000E+09 -6.14466475569E-01 +7.39014544456E-01 -3.11733416790E-05 +4.86888897502E-05 -3.90298724612E-05 +7.26763225349E-05 -7.21913601476E-01 +6.56978203669E-01
1.04500000000E+09 -6.09384469034E-01 +7.42310050884E-01 -2.90677426088E-05 +4.33638458511E-05 -4.74525540428E-06 +3.31731811580E-05 -7.18329607133E-01 +6.60497931314E-01
1.05000000000E+09 -6.02657012203E-01 +7.46448709893E-01 -5.62944952562E-05 +2.87298015546E-05 -2.93333395122E-06 +6.84874232739E-05 -7.15030519497E-01 +6.64094089468E-01
1.05500000000E+09 -5.94675706651E-01 +7.50975627707E-01 -7.05375366253E-05 +2.56310525291E-05 -1.07921415585E-06 +3.23004878338E-05 -7.11569325872E-01 +6.67519124583E-01
1.06000000000E+09 -5.86271537258E-01 +7.55933517648E-01 -6.02811260138E-06 -1.76631108729E-06 -1.14233115172E-05 +4.67887937414E-05 -7.08410875369E-01 +6.71313706667E-01
1.06500000000E+09 -5.78150327769E-01 +7.60677058246E-01 -9.38932915663E-06 +3.01505472862E-05 -6.29397611221E-06 +7.53197877747E-06 -7.04575210689E-01 +6.74929701188E-01
1.07000000000E+09 -5.71212795221E-01 +7.64655636761E-01 -6.45773946507E-06 +5.06179532588E-05 -3.78180049661E-05 +4.60208114833E-05 -7.00672154450E-01 +6.78610650109E-01
1.07500000000E+09 -5.65790095736E-01 +7.68352089461E-01 +2.47482222001E-05 +8.35025728614E-05 -2.72634646302E-05 +8.42535032049E-05 -6.96227873416E-01 +6.82298984615E-01
1.08000000000E+09 -5.62016867662E-01 +7.71514919015E-01 +5.45432740379E-05 +2.03964985149E-05 +5.37831488995E-06 +9.29696342782E-06 -6.92304407868E-01 +6.86142812879E-01
1.08500000000E+09 -5.59639417231E-01 +7.74131584767E-01 +2.26627400830E-05 +6.88697651365E-05 +4.69249976541E-05 -2.64800045631E-06 -6.88330501967E-01 +6.89737690695E-01
1.09000000000E+09 -5.57606190176E-01 +7.76216126674E-01 +2.73771784822E-05 +5.32423438699E-05 +1.20376287609E-05 +4.97478968624E-05 -6.84320300302E-01 +6.93792590155E-01
1.09500000000E+09 -5.55649448183E-01 +7.78063573144E-01 +3.78910700120E-05 +3.05650659926E-05 +8.70599634417E-06 +4.92648755448E-05 -6.80656378399E-01 +6.97612410030E-01
1.10000000000E+09 -5.52442121682E-01 +7.80295581099E-01 +2.17923037978E-05 +4.20362957294E-05 -3.08476154460E-05 +2.77555683172E-05 -6.76588806936E-01 +7.01525761792E-01
1.10500000000E+09 -5.47896679614E-01 +7.82973056351E-01 -6.20772663194E-06 +3.32254448623E-05 -1.66704360400E-05 +2.66280201633E-05 -6.72333513454E-01 +7.04989945940E-01
1.11000000000E+09 -5.41841793000E-01 +7.86184424170E-01 +3.83488573522E-05 +6.97850887115E-05 +2.41195436165E-06 +9.15941091914E-05 -6.68103954678E-01 +7.08470414312E-01
1.11500000000E+09 -5.34385992611E-01 +7.90027136150E-01 +4.40206579355E-05 +6.57501000527E-05 +1.65394442650E-05 +6.36046099402E-05 -6.63854533720E-01 +7.11718714386E-01
1.12000000000E+09 -5.26263473301E-01 +7.93875214287E-01 +1.97437623864E-05 +6.88667590660E-05 +6.63921322325E-05 +5.72411291968E-05 -6.59737446989E-01 +7.15457020368E-01
1.12500000000E+09 -5.18243482488E-01 +7.97771363548E-01 +4.45412305630E-05 +4.15614342150E-05 +7.53128410354E-05 +4.36096036071E-05 -6.55594982904E-01 +7.19335567567E-01
1.13000000000E+09 -5.11278337947E-01 +8.01544906588E-01 +2.50337741427E-05 +4.20917270695E-05 +4.69727236986E-05 +5.06929932234E-05 -6.51370889404E-01 +7.23061152432E-01
1.13500000000E+09 -5.05412488590E-01 +8.04491743837E-01 +4.30104843862E-05 +6.55067689110E-05 +1.06820814325E-04 +1.33359877208E-05 -6.46613268609E-01 +7.26918961582E-01
1.14000000000E+09 -5.00516165986E-01 +8.07161278256E-01 +5.35169593898E-05 +2.55210585304E-05 +7.87000361797E-05 +2.10678678753E-05 -6.41944804059E-01 +7.30429023426E-01
1.14500000000E+09 -4.96840560323E-01 +8.09146844499E-01 +7.02607196225E-05 +4.47647652012E-05 +6.47251329186E-05 +6.35443952524E-05 -6.37286668732E-01 +7.33775337439E-01
1.15000000000E+09 -4.93354548357E-01 +8.10996933537E-01 +9.57237755330E-05 +9.47214942175E-05 +7.41780764632E-05 +5.65638364171E-05 -6.32669647628E-01 +7.37362401456E-01
1.15500000000E+09 -4.89736829135E-01 +8.12963056971E-01 +9.90082095946E-05 +5.01161761704E-05 +8.52686120699E-05 +5.48332675825E-05 -6.27796057016E-01 +7.41252364260E-01
1.16000000000E+09 -4.84989792834E-01 +8.15051297200E-01 +9.88210876933E-05 +3.92292509778E-05 +9.64256939331E-05 +4.94902201105E-05 -6.22957954742E-01 +7.44866749024E-01
1.16500000000E+09 -4.79014855114E-01 +8.17856891352E-01 +7.87529035986E-05 +6.37430559292E-05 +1.46903701760E-04 +4.46475293138E-05 -6.17852826159E-01 +7.48689663040E-01
1.17000000000E+09 -4.71859609072E-01 +8.20940746909E-01 +8.42634294381E-05 +2.12321255226E-05 +1.55078822909E-04 +6.59432205168E-05 -6.12383384528E-01 +7.52004183468E-01
1.17500000000E+09 -4.63338936690E-01 +8.24362743015E-01 +1.08787349429E-04 +4.06494868469E-05 +1.13745630665E-04 +7.25302737459E-05 -6.06806054543E-01 +7.55248540335E-01
1.18000000000E+09 -4.54996975668E-01 +8.27791501941E-01 +1.89322814560E-04 +6.48296289399E-05 +1.43458006921E-04 -2.29920513826E-05 -6.01144359711E-01 +7.58393890221E-01
1.18500000000E+09 -4.46805847619E-01 +8.31038988324E-01 +1.28611001751E-04 +3.43190297173E-05 +1.94798591398E-04 +8.77308504453E-06 -5.95288562064E-01 +7.61369538195E-01
1.19000000000E+09 -4.39459740794E-01 +8.33600360096E-01 +1.61690372639E-04 +2.73664628907E-05 +1.72340041164E-04 +2.79654293510E-05 -5.88856598413E-01 +7.63986519635E-01
1.19500000000E+09 -4.33507675351E-01 +8.35585904499E-01 +2.34977691441E-04 -1.71406588401E-05 +2.49119604525E-04 -5.24271096766E-05 -5.82905402345E-01 +7.65174534927E-01
1.20000000000E+09 -4.28901765569E-01 +8.36673402617E-01 +2.37176730740E-04 -8.80186417770E-05 +2.86446101771E-04 -9.12913037211E-05 -5.78340554427E-01 +7.65481763823E-01
1.20500000000E+09 -4.25055048255E-01 +8.38179214827E-01 +2.08782882842E-04 -2.07023912956E-04 +1.60987302934E-04 -1.93326008180E-04 -5.76023718381E-01 +7.66166792387E-01
1.21000000000E+09 -4.20994031216E-01 +8.39485704621E-01 +1.13082202706E-04 -1.57974296119E-04 +1.26187540412E-04 -1.98971604923E-04 -5.74248008510E-01 +7.69075682561E-01
1.21500000000E+09 -4.15972803629E-01 +8.41264014642E-01 +1.16864094133E-04 -1.71093382144E-04 +8.10413071121E-05 -1.18589662633E-04 -5.71481476946E-01 +7.73540789659E-01
1.22000000000E+09 -4.09412112538E-01 +8.43218248754E-01 +1.22580798884E-04 -1.47462187331E-04 +1.19186309616E-04 -1.27375567051E-04 -5.67450908478E-01 +7.78831228536E-01
1.22500000000E+09 -4.01169598997E-01 +8.46148458578E-01 +1.27726527051E-04 -1.75766656097E-04 +1.45425790274E-04 -1.89987694267E-04 -5.62203789932E-01 +7.83912670395E-01
1.23000000000E+09 -3.91718523968E-01 +8.49185264958E-01 +1.29278570323E-04 -2.41893617456E-04 +1.03184884255E-04 -2.24530272414E-04 -5.56560807522E-01 +7.88651776305E-01
1.23500000000E+09 -3.81553803188E-01 +8.52658660954E-01 +9.78245143283E-05 -2.29550445156E-04 +4.23947969485E-05 -2.28338550191E-04 -5.50801831431E-01 +7.93089071330E-01
1.24000000000E+09 -3.71264742620E-01 +8.56317881339E-01 +1.27274093288E-04 -2.36650567073E-04 +4.19720783938E-05 -1.94247008348E-04 -5.44709739532E-01 +7.96911451667E-01
1.24500000000E+09 -3.62117705857E-01 +8.59992884514E-01 +1.10696656627E-04 -2.65036575003E-04 +9.32698997848E-05 -2.38383065445E-04 -5.38486200159E-01 +8.00591715000E-01
1.25000000000E+09 -3.53862977998E-01 +8.63179921576E-01 +3.17126012428E-05 -3.12844664077E-04 +5.78406447877E-05 -2.57165383591E-04 -5.31788426389E-01 +8.05048013655E-01
1.25500000000E+09 -3.47172647545E-01 +8.65747949899E-01 +1.44926539586E-05 -2.79036939595E-04 +2.46393463607E-05 -3.21011658528E-04 -5.24888805774E-01 +8.08890724436E-01
1.26000000000E+09 -3.41504952853E-01 +8.67686808813E-01 -4.19991799385E-06 -3.04313736459E-04 +1.33167751837E-05 -3.58418487346E-04 -5.18095506408E-01 +8.13289655951E-01
1.26500000000E+09 -3.36340607272E-01 +8.69158353494E-01 +1.93332830510E-06 -3.30124008639E-04 -3.48437116074E-05 -3.35218169568E-04 -5.11230248199E-01 +8.17156098276E-01
1.27000000000E+09 -3.31062722312E-01 +8.70372020990E-01 -5.70716331607E-05 -3.56410573242E-04 -6.38070686627E-05 -3.18505693100E-04 -5.04394220046E-01 +8.20876649603E-01
1.27500000000E+09 -3.24608572538E-01 +8.71730511873E-01 -9.48927266083E-05 -3.42679397005E-04 -1.02218924847E-04 -4.01180024735E-04 -4.97225209598E-01 +8.24474993211E-01
1.28000000000E+09 -3.16276335787E-01 +8.73382493663E-01 -1.73928810363E-04 -3.31284896411E-04 -2.00775298554E-04 -3.28291508171E-04 -4.90289720645E-01 +8.27926097365E-01
1.28500000000E+09 -3.05806894418E-01 +8.75410939484E-01 -1.84628061285E-04 -2.98307165468E-04 -2.36291879458E-04 -2.80264887730E-04 -4.82932334198E-01 +8.31644296464E-01
1.29000000000E+09 -2.94199312283E-01 +8.77741845620E-01 -2.54494539883E-04 -2.66006642622E-04 -2.83480571765E-04 -3.19972362939E-04 -4.75308289173E-01 +8.35337087459E-01
1.29500000000E+09 -2.81855587794E-01 +8.80547854174E-01 -2.23832845434E-04 -3.03568214507E-04 -2.88851204527E-04 -2.82188312854E-04 -4.67521359745E-01 +8.38763598535E-01
1.30000000000E+09 -2.69521852972E-01 +8.83491205052E-01 -3.02574787423E-04 -3.12704558503E-04 -3.14592518579E-04 -3.00396503522E-04 -4.59536435714E-01 +8.42302014697E-01
1.30500000000E+09 -2.58507804319E-01 +8.86442086233E-01 -4.03701710607E-04 -3.15487967526E-04 -3.48879562576E-04 -2.48524827730E-04 -4.51452814150E-01 +8.45843248705E-01
1.31000000000E+09 -2.48965516884E-01 +8.88882758582E-01 -3.99986412263E-04 -2.24211762514E-04 -3.52698687290E-04 -2.15348391780E-04 -4.43089644308E-01 +8.49180234239E-01
1.31500000000E+09 -2.41030603682E-01 +8.90868095693E-01 -4.13597785183E-04 -1.38522670196E-04 -4.27754977248E-04 -2.14023471414E-04 -4.34292598454E-01 +8.52722199869E-01
1.32000000000E+09 -2.34493644453E-01 +8.92149760998E-01 -4.47379214104E-04 -1.28539824509E-04 -4.76416957699E-04 -1.49032429324E-04 -4.25181896864E-01 +8.56005827101E-01
1.32500000000E+09 -2.28775601988E-01 +8.92733982336E-01 -4.27796788254E-04 -1.57623346416E-04 -4.84167790009E-04 -1.17360608457E-04 -4.15473861730E-01 +8.59425431876E-01
1.33000000000E+09 -2.22302214519E-01 +8.92988557191E-01 -4.60530917795E-04 -1.00202329296E-04 -5.19187304387E-04 -9.96015719146E-05 -4.05678862044E-01 +8.62696526873E-01
1.33500000000E+09 -2.14099935444E-01 +8.92829154766E-01 -5.16543864623E-04 -1.37331631877E-04 -5.59743558376E-04 -4.23122832611E-05 -3.95748735821E-01 +8.65937077891E-01
1.34000000000E+09 -2.03420568961E-01 +8.92851922450E-01 -5.88665713038E-04 -8.96068803053E-05 -5.68722552925E-04 -1.05050144082E-05 -3.85546838183E-01 +8.69333000577E-01
1.34500000000E+09 -1.90161969580E-01 +8.92692200789E-01 -6.06410785177E-04 -1.38816269880E-05 -5.67982427447E-04 -4.17139997644E-06 -3.74548609581E-01 +8.72626741874E-01
1.35000000000E+09 -1.74684709291E-01 +8.92363111616E-01 -6.51621920152E-04 +5.14735146221E-05 -6.78395868767E-04 +5.26786882079E-05 -3.63353341953E-01 +8.75568749369E-01
1.35500000000E+09 -1.58264264070E-01 +8.92375866787E-01 -7.14443418978E-04 +1.39262588515E-04 -7.19977424266E-04 +1.30174400581E-04 -3.51655994217E-01 +8.78333896612E-01
1.36000000000E+09 -1.41660730224E-01 +8.92673651727E-01 -7.05234971848E-04 +2.18783141755E-04 -6.76609049585E-04 +2.51781094414E-04 -3.39824692510E-01 +8.80990152115E-01
1.36500000000E+09 -1.25694929512E-01 +8.92938476345E-01 -7.31987557671E-04 +3.10407564785E-04 -6.97786996555E-04 +2.81024296721E-04 -3.27519845684E-01 +8.83282542898E-01
1.37000000000E+09 -1.11323423286E-01 +8.93034731931E-01 -6.98727088594E-04 +3.78088095296E-04 -6.69150738304E-04 +2.80100639979E-04 -3.14666255281E-01 +8.85835904901E-01
1.37500000000E+09 -9.88928355700E-02 +8.93086215623E-01 -7.38775381261E-04 +4.23628561397E-04 -7.65535387411E-04 +3.07431001832E-04 -3.00818395920E-01 +8.87936492808E-01
1.38000000000E+09 -8.76661512631E-02 +8.92551070980E-01 -8.44014336181E-04 +5.30370988274E-04 -9.43019893127E-04 +4.55736674283E-04 -2.86297160774E-01 +8.89792789148E-01
1.38500000000E+09 -7.66436244945E-02 +8.91490379533E-01 -7.41467762992E-04 +6.95313733447E-04 -9.64857496572E-04 +7.05101110577E-04 -2.70700852429E-01 +8.91445452461E-01
1.39000000000E+09 -6.52614918319E-02 +8.89680740063E-01 -7.67007440961E-04 +8.11160219024E-04 -8.31910899391E-04 +9.44460700809E-04 -2.54750188405E-01 +8.92812825361E-01
1.39500000000E+09 -5.16232367508E-02 +8.87236063277E-01 -7.37135838944E-04 +9.38409385062E-04 -7.13404306069E-04 +1.06792090539E-03 -2.38003983684E-01 +8.93366470247E-01
1.40000000000E+09 -3.55357792378E-02 +8.83573490718E-01 -6.55174109060E-04 +1.09933242914E-03 -5.38684658573E-04 +1.18267531255E-03 -2.20502112233E-01 +8.93826652702E-01
1.40500000000E+09 -1.71460098381E-02 +8.78792842469E-01 -5.52553841209E-04 +1.23138875267E-03 -4.49127381949E-04 +1.24843570695E-03 -2.01829615950E-01 +8.93449547447E-01
1.41000000000E+09 +3.40567072364E-03 +8.73478773361E-01 -5.04866527793E-04 +1.29547560338E-03 -4.99921065536E-04 +1.28286997983E-03 -1.81643215313E-01 +8.92530243060E-01
1.41500000000E+09 +2.53214286578E-02 +8.67346575465E-01 -4.31667964670E-04 +1.44856996263E-03 -4.78131531379E-04 +1.45894738566E-03 -1.60571907367E-01 +8.90975447112E-01
1.42000000000E+09 +4.81661295534E-02 +8.60731898292E-01 -3.72841168021E-04 +1.61254148076E-03 -4.11200678724E-04 +1.70062671897E-03 -1.37841564046E-01 +8.88267107196E-01
1.42500000000E+09 +7.05668706426E-02 +8.53175280899E-01 -3.41697517311E-04 +1.85747004360E-03 -2.95953704576E-04 +2.09148077251E-03 -1.14222756750E-01 +8.84383392353E-01
1.43000000000E+09 +9.20498106520E-02 +8.44896448817E-01 -5.90450411330E-05 +2.24410471480E-03 +2.03559722059E-04 +2.50294586849E-03 -8.96705665044E-02 +8.79630430106E-01
1.43500000000E+09 +1.12871137299E-01 +8.35329668746E-01 +4.30188871119E-04 +2.37103233842E-03 +6.57652054817E-04 +2.39514111807E-03 -6.34664464363E-02 +8.72883343755E-01
1.44000000000E+09 +1.33815247105E-01 +8.24788572465E-01 +7.58356423296E-04 +2.39118688722E-03 +9.27532548246E-04 +2.33354787981E-03 -3.57370325697E-02 +8.64162541240E-01
1.44500000000E+09 +1.55962680071E-01 +8.11752909338E-01 +1.04294614198E-03 +2.33403803918E-03 +1.16856072465E-03 +2.33024851359E-03 -5.67906866695E-03 +8.53003419770E-01
1.45000000000E+09 +1.80022826352E-01 +7.94844048150E-01 +1.09040015115E-03 +2.42915467520E-03 +1.25696535261E-03 +2.42165501959E-03 +2.61698436896E-02 +8.38048589472E-01
1.45500000000E+09 +2.05727062817E-01 +7.74059859201E-01 +1.41684288352E-03 +3.00138453440E-03 +1.70663970155E-03 +2.87704064957E-03 +5.86223650246E-02 +8.20127011939E-01
1.46000000000E+09 +2.33717983851E-01 +7.49063196759E-01 +2.23836163794E-03 +3.42512521459E-03 +2.49646188307E-03 +3.07278710118E-03 +9.30008234882E-02 +7.99093087750E-01
1.46500000000E+09 +2.63831959113E-01 +7.19718187794E-01 +3.27243512461E-03 +3.50873546006E-03 +3.24661056443E-03 +3.01766125879E-03 +1.29186691663E-01 +7.72414229577E-01
1.47000000000E+09 +2.95058057516E-01 +6.84867496927E-01 +4.70384972486E-03 +3.37941132637E-03 +4.34037230162E-03 +3.07298642731E-03 +1.66010637897E-01 +7.39026031607E-01
1.47500000000E+09 +3.25884465438E-01 +6.44358963975E-01 +5.94920084631E-03 +2.38277444411E-03 +5.59160485410E-03 +2.46708829048E-03 +2.02801938608E-01 +6.98243564855E-01
1.48000000000E+09 +3.54378519071E-01 +5.97447036284E-01 +6.67213975470E-03 +1.32650825308E-03 +6.65533637627E-03 +1.56458012284E-03 +2.38679560443E-01 +6.49198745785E-01
1.48500000000E+09 +3.77950059766E-01 +5.44271407184E-01 +7.48428235703E-03 +5.43425210774E-04 +7.65459357907E-03 +4.35846848024E-04 +2.72425286724E-01 +5.91565997155E-01
1.49000000000E+09 +3.95772332549E-01 +4.84848277237E-01 +8.92832177919E-03 -7.62838640766E-04 +8.87631138580E-03 -1.19209526497E-03 +3.01664226516E-01 +5.22780171493E-01
1.49500000000E+09 +4.06124850426E-01 +4.18391452728E-01 +9.87290691864E-03 -3.12121442258E-03 +9.27560734464E-03 -3.39466831254E-03 +3.19930001122E-01 +4.42219464375E-01
1.50000000000E+09 +4.06970568888E-01 +3.43456874371E-01 +1.07254465753E-02 -5.99436422652E-03 +1.00467021965E-02 -5.61060342712E-03 +3.23971017114E-01 +3.54757171651E-01
1.50500000000E+09 +3.95840629960E-01 +2.61227942945E-01 +9.99860594846E-03 -1.05979585549E-02 +9.90285880816E-03 -9.81063450458E-03 +3.13582237258E-01 +2.60423468808E-01
1.51000000000E+09 +3.69149587001E-01 +1.72574742483E-01 +6.82218690917E-03 -1.47749051838E-02 +7.28526825432E-03 -1.42750329152E-02 +2.84253744211E-01 +1.61044657076E-01
1.51500000000E+09 +3.24124652280E-01 +8.32078803388E-02 +1.77255446273E-03 -1.68049424002E-02 +2.25657683190E-03 -1.68530321194E-02 +2.31566852518E-01 +6.30859310435E-02
1.52000000000E+09 +2.59379659465E-01 -1.61070106908E-03 -3.44669388033E-03 -1.72754257731E-02 -3.22180218676E-03 -1.75045415989E-02 +1.56587807839E-01 -2.45094388903E-02
1.52500000000E+09 +1.74928619334E-01 -7.36876160563E-02 -8.25024801724E-03 -1.52274232262E-02 -8.20693116659E-03 -1.54294590130E-02 +6.22289576289E-02 -9.38472180202E-02
1.53000000000E+09 +7.62155025049E-02 -1.24677166187E-01 -1.15507554710E-02 -1.29782086044E-02 -1.16237466144E-02 -1.31867593579E-02 -4.41344102268E-02 -1.40774039883E-01
1.53500000000E+09 -2.96146682624E-02 -1.51743384585E-01 -1.55510234493E-02 -9.74786622274E-03 -1.55777114242E-02 -9.82352864483E-03 -1.56400146019E-01 -1.61851878324E-01
1.54000000000E+09 -1.37188670956E-01 -1.55632987019E-01 -1.80113194610E-02 -4.43684981369E-03 -1.79148208184E-02 -4.52740356820E-03 -2.65724649232E-01 -1.59608641831E-01
1.54500000000E+09 -2.41689875080E-01 -1.36434893245E-01 -1.76025160098E-02 +1.88757053306E-03 -1.75341781483E-02 +1.48773087214E-03 -3.64369372668E-01 -1.36392297577E-01
1.55000000000E+09 -3.37411157061E-01 -9.65478169077E-02 -1.48633543670E-02 +6.04074305059E-03 -1.51535369789E-02 +5.52376202545E-03 -4.50623375904E-01 -1.00104043993E-01
1.55500000000E+09 -4.17566786112E-01 -4.07047948177E-02 -1.19379411557E-02 +8.89227117448E-03 -1.26544451133E-02 +8.63766650225E-03 -5.22335842161E-01 -5.29317560956E-02
1.56000000000E+09 -4.79895648541E-01 +2.02857602404E-02 -8.27837223731E-03 +1.08785321965E-02 -9.03699185265E-03 +1.11741660819E-02 -5.80476230110E-01 +1.24872440289E-04
1.56500000000E+09 -5.28231020705E-01 +8.04854886111E-02 -4.36720584478E-03 +1.10466560633E-02 -4.75508238298E-03 +1.16483185690E-02 -6.25354491093E-01 +5.54647156178E-02
1.57000000000E+09 -5.66923358355E-01 +1.38702420617E-01 -1.70582857444E-03 +9.83746735874E-03 -1.74694807620E-03 +1.05020377730E-02 -6.59630630308E-01 +1.10973397591E-01
