# Hz S RI R 50
! CMT, C1220, 16058040, 17.2.0/1
! Date: 14/08/2018 12:41:17
! Data: Format (Calibration Info)
! Freq                      S11: Re/Im (F2)                       S21: Re/Im (F2)                       S12: Re/Im (F2)                       S22: Re/Im (F2)            
1.00000000000E+09 -6.47654236577E-01 +7.13702509725E-01 +4.96189723200E-06 +1.43472678024E-06 +1.49491720464E-05 +3.30674840184E-05 -6.70566328382E-01 +5.41275298255E-01
1.00500000000E+09 -6.40727303496E-01 +7.18614958402E-01 -3.06119480146E-05 +4.51396441631E-05 +1.53003027965E-05 +1.26353314230E-05 -6.67498593421E-01 +5.44832071905E-01
1.01000000000E+09 -6.34672419388E-01 +7.23105003863E-01 +7.86662288866E-06 +8.26012457656E-06 -2.05548161711E-05 +1.00618010569E-05 -6.64538455940E-01 +5.48197545225E-01
1.01500000000E+09 -6.30222657399E-01 +7.26975382620E-01 -3.71324555213E-05 -5.47468332281E-05 -1.11410814631E-05 +2.41572716187E-05 -6.62126536751E-01 +5.51329510715E-01
1.02000000000E+09 -6.26587652887E-01 +7.30470428735E-01 -2.35471390173E-06 +1.68870241023E-05 +4.88561514356E-05 -2.79234787039E-05 -6.59280272214E-01 +5.54304137074E-01
1.02500000000E+09 -6.23996813287E-01 +7.33397421003E-01 -1.05229777229E-05 +2.14432298044E-05 -3.52397825279E-05 +1.68606584110E-05 -6.57135153876E-01 +5.57751404807E-01
1.03000000000E+09 -6.22107010051E-01 +7.36029207182E-01 -2.01240152307E-05 +5.95255500528E-05 -2.52643525264E-05 +1.88442688057E-05 -6.54273950295E-01 +5.61069825115E-01
1.03500000000E+09 -6.19328154768E-01 +7.38571874536E-01 -4.00374755493E-05 +1.25074948903E-05 -2.37631362057E-05 +2.23756904376E-05 -6.51338738083E-01 +5.64693907736E-01
1.04000000000E+09 -6.15670286745E-01 +7.41700044939E-01 -1.28688216474E-05 +3.86919537734E-05 -2.53959727581E-05 +4.52077463995E-06 -6.48280215297E-01 +5.68075156028E-01
1.04500000000E+09 -6.10698525537E-01 +7.44925801453E-01 -3.46271588292E-05 +1.89938746238E-05 +8.54138207834E-06 -1.55319962378E-06 -6.45464499086E-01 +5.71498209069E-01
1.05000000000E+09 -6.04259079929E-01 +7.48990366040E-01 -3.64189381438E-05 +2.21155717808E-05 +2.03303519681E-05 +3.68464672325E-05 -6.42760223114E-01 +5.74636670203E-01
1.05500000000E+09 -5.96695651088E-01 +7.53276728704E-01 -4.64692465883E-05 -2.21782510652E-06 +4.27445783295E-05 +4.77889677274E-05 -6.40156022876E-01 +5.78100778112E-01
1.06000000000E+09 -5.88628498931E-01 +7.57898597674E-01 +3.41977182460E-05 +5.65623857062E-05 +4.75355541724E-05 +6.95788807645E-06 -6.37470109979E-01 +5.81565440585E-01
1.06500000000E+09 -5.80881256813E-01 +7.62720709874E-01 -1.23626028819E-05 +4.78271207644E-06 +6.18358574015E-06 +2.59468548410E-05 -6.34198855085E-01 +5.85092917350E-01
1.07000000000E+09 -5.73744069158E-01 +7.67049837248E-01 +2.15872685615E-05 +3.86828210798E-05 +3.86381211931E-05 -1.80259110204E-05 -6.30862775756E-01 +5.88687495180E-01
1.07500000000E+09 -5.68013210242E-01 +7.70744388225E-01 +3.45758856567E-05 -4.19702331569E-06 +3.38647993346E-05 +4.62322720268E-05 -6.27248651553E-01 +5.92023458087E-01
1.08000000000E+09 -5.63506066215E-01 +7.74122917396E-01 +3.64849444873E-05 +5.21813587199E-05 +3.25850018627E-06 -1.09329162438E-06 -6.23955858410E-01 +5.95628534917E-01
1.08500000000E+09 -5.60309208981E-01 +7.76725102582E-01 -2.22879410976E-06 +1.42245247472E-05 +4.02137596411E-05 +2.45049875888E-05 -6.20778055444E-01 +5.99066370726E-01
1.09000000000E+09 -5.57595660740E-01 +7.79168591963E-01 +1.55470894446E-05 +2.42172795021E-05 +4.94711922304E-05 +3.49749739003E-05 -6.17769344065E-01 +6.02618935044E-01
1.09500000000E+09 -5.55249373507E-01 +7.81138130919E-01 +5.42508467547E-05 -2.81192917446E-05 +2.21086197185E-07 -3.50795502224E-05 -6.14827279095E-01 +6.06162141383E-01
1.10000000000E+09 -5.51972312390E-01 +7.83348742224E-01 +3.87999388698E-08 +8.19532852862E-06 +1.29307008705E-05 +4.01717763168E-06 -6.11564922629E-01 +6.09628040521E-01
1.10500000000E+09 -5.47882593221E-01 +7.86082751140E-01 -2.99752308794E-05 -1.56205960913E-05 -1.74915137195E-05 +7.38556346360E-06 -6.08067135669E-01 +6.13056531104E-01
1.11000000000E+09 -5.42406448458E-01 +7.89464736119E-01 +3.21211493250E-05 +1.03268267417E-05 -1.44028376644E-05 -2.69134868496E-06 -6.04696673361E-01 +6.16295656958E-01
1.11500000000E+09 -5.35718898706E-01 +7.93194676678E-01 +1.31024582102E-05 +2.96267169696E-06 -2.25193545242E-05 -2.69277386617E-05 -6.01445223391E-01 +6.19579202396E-01
1.12000000000E+09 -5.28501555387E-01 +7.96912811061E-01 +4.08834876066E-05 -2.94826109124E-05 +1.29577416786E-05 +5.49346444738E-06 -5.98078024867E-01 +6.23046460211E-01
1.12500000000E+09 -5.20936092629E-01 +8.00940232905E-01 +4.26351395841E-05 -7.40415989133E-06 +5.58016554084E-06 +3.34186491504E-05 -5.94582484871E-01 +6.26940616638E-01
1.13000000000E+09 -5.13930900907E-01 +8.04619124638E-01 +2.81785190316E-05 +1.26725622651E-05 +7.79929230154E-05 +2.45524652040E-05 -5.91076403959E-01 +6.30606514558E-01
1.13500000000E+09 -5.07630720893E-01 +8.07304231104E-01 +3.16745867859E-05 +3.71301197421E-05 +1.47175346066E-05 +1.11407065909E-05 -5.86998703617E-01 +6.34221934956E-01
1.14000000000E+09 -5.02186746200E-01 +8.09759707934E-01 +4.00577053717E-05 +7.68867576847E-06 +3.32445815406E-05 +6.91495443225E-05 -5.82950771244E-01 +6.37681949014E-01
1.14500000000E+09 -4.97772765237E-01 +8.11457323606E-01 +6.84198274442E-05 -7.65348283134E-06 +8.95177083053E-05 -3.03002115428E-05 -5.78987108898E-01 +6.41009458507E-01
1.15000000000E+09 -4.93815438389E-01 +8.12838879437E-01 +3.23198294819E-05 -2.64877168249E-05 +6.69740050991E-05 -1.73434820698E-05 -5.75198613175E-01 +6.44801966929E-01
1.15500000000E+09 -4.89770316103E-01 +8.14556079215E-01 +8.39246403375E-05 -2.65464021176E-05 -7.20274418658E-06 -2.75853671977E-05 -5.71173355014E-01 +6.48516210589E-01
1.16000000000E+09 -4.85149685211E-01 +8.16481785994E-01 +2.78472377974E-05 -4.39050430650E-05 +2.72843943009E-05 -2.39919372323E-05 -5.67061590858E-01 +6.52051130579E-01
1.16500000000E+09 -4.79576287705E-01 +8.19296077292E-01 +4.24793157368E-05 -1.19543084148E-05 +8.95772842908E-05 -2.32381907175E-05 -5.62866979995E-01 +6.55504814107E-01
1.17000000000E+09 -4.73167640503E-01 +8.22375652683E-01 +4.48329820844E-05 -9.17947737499E-06 +7.17524770066E-05 -1.59936215707E-05 -5.58333460572E-01 +6.58716406856E-01
1.17500000000E+09 -4.65909112811E-01 +8.25819251466E-01 +3.93867683344E-05 -5.10994955522E-05 +7.57234866738E-05 -1.70534750123E-05 -5.53605388095E-01 +6.61966882500E-01
1.18000000000E+09 -4.58370531575E-01 +8.29286847538E-01 +6.31541512699E-05 -4.75899648072E-05 +9.78482211287E-05 -1.87899662327E-05 -5.48900805241E-01 +6.64982269062E-01
1.18500000000E+09 -4.50920440890E-01 +8.32649544378E-01 +1.10895464520E-04 -6.63211268603E-05 +9.03243620311E-05 -4.23743535237E-05 -5.44091986791E-01 +6.68028397782E-01
1.19000000000E+09 -4.43836142561E-01 +8.35435185402E-01 +8.08903935188E-05 -7.94414326563E-05 +6.30312522623E-05 -6.86344125090E-05 -5.38592882552E-01 +6.70657560744E-01
1.19500000000E+09 -4.37459593272E-01 +8.37557664294E-01 +7.60829305354E-05 -1.05312069403E-04 +5.85928265418E-05 -1.38395805255E-04 -5.33529248968E-01 +6.72125802659E-01
1.20000000000E+09 -4.31983715501E-01 +8.38539577402E-01 +2.41197709523E-05 -1.97663076775E-04 +2.59859690710E-05 -2.08990516421E-04 -5.29505109117E-01 +6.72658108749E-01
1.20500000000E+09 -4.26979213727E-01 +8.39527252277E-01 -3.46863590441E-05 -1.69875216688E-04 -6.71278246679E-05 -1.33895373310E-04 -5.27503121994E-01 +6.73479112388E-01
1.21000000000E+09 -4.21761205306E-01 +8.40779964165E-01 -4.64884362635E-05 -8.65407006669E-05 -8.61881813998E-05 -1.15429481230E-04 -5.25857709674E-01 +6.76262812647E-01
1.21500000000E+09 -4.15552977605E-01 +8.42347579047E-01 -5.47957910587E-05 -5.94757199823E-05 -8.81593259870E-05 -2.55951485292E-05 -5.23626588559E-01 +6.80482689832E-01
1.22000000000E+09 -4.08166778882E-01 +8.44374013750E-01 -2.13340238966E-05 -6.27708374437E-05 -7.66115531486E-05 -4.57549942255E-05 -5.20163502957E-01 +6.85674274351E-01
1.22500000000E+09 -3.99788357126E-01 +8.47185428673E-01 -2.17495152753E-05 -8.39399934422E-05 -9.90811124921E-05 -8.29899353811E-05 -5.16089747140E-01 +6.90386587183E-01
1.23000000000E+09 -3.90368920090E-01 +8.50425707020E-01 +8.03998031762E-06 -7.26575246116E-05 -2.16818730989E-05 -5.19471571753E-05 -5.11343514060E-01 +6.94816833615E-01
1.23500000000E+09 -3.80961858606E-01 +8.53996242681E-01 -2.65310809429E-05 -4.99251787443E-05 -4.03384030308E-05 -8.95550264840E-05 -5.06368420891E-01 +6.99040639851E-01
1.24000000000E+09 -3.71688332880E-01 +8.57871894938E-01 +1.48010259509E-05 -9.49142795588E-05 -8.51911252752E-05 -9.81105182322E-05 -5.01444144299E-01 +7.02754780370E-01
1.24500000000E+09 -3.63242319579E-01 +8.62042493960E-01 -1.68894238406E-05 -9.70926811216E-05 -3.92209759779E-05 -1.02690252574E-04 -4.96283494480E-01 +7.06519729485E-01
1.25000000000E+09 -3.55409831429E-01 +8.65592479291E-01 -4.73341967553E-05 -6.16462839887E-05 -7.92824655278E-06 -8.78567900210E-05 -4.90756503499E-01 +7.10685266211E-01
1.25500000000E+09 -3.48356050548E-01 +8.68025513102E-01 -3.22419155692E-05 -5.98127381348E-05 -6.50191544421E-05 -9.84125869058E-05 -4.85332228761E-01 +7.14692816983E-01
1.26000000000E+09 -3.42022420288E-01 +8.69794273366E-01 -8.34173262002E-05 -8.99966313883E-05 -1.21752583919E-04 -8.62557733544E-05 -4.79704180247E-01 +7.18964668823E-01
1.26500000000E+09 -3.35715564373E-01 +8.70863362052E-01 -8.58168144522E-05 -9.02375556191E-05 -9.16625535990E-05 -7.81277602770E-05 -4.73947472780E-01 +7.23035920538E-01
1.27000000000E+09 -3.29015558335E-01 +8.71732941297E-01 -8.15530490965E-05 -1.11687150376E-04 -1.14862137273E-04 -1.15878496100E-04 -4.68048561371E-01 +7.26996403724E-01
1.27500000000E+09 -3.21355535786E-01 +8.72662701957E-01 -1.52113265730E-04 -1.06512503790E-04 -1.48527465409E-04 -1.12888429040E-04 -4.61974162921E-01 +7.30841104676E-01
1.28000000000E+09 -3.11935006826E-01 +8.74050152235E-01 -1.36328712088E-04 -3.04980309232E-05 -1.12743937618E-04 -7.11026433891E-05 -4.55852747535E-01 +7.34683070392E-01
1.28500000000E+09 -3.01210046529E-01 +8.76101706010E-01 -1.74928382205E-04 -6.86407769165E-05 -1.69107003815E-04 -3.22252947686E-05 -4.49291406543E-01 +7.38478774770E-01
1.29000000000E+09 -2.89779865613E-01 +8.78481975957E-01 -1.37174562313E-04 -3.81951632598E-05 -2.15337360173E-04 -5.51247465536E-05 -4.42691068212E-01 +7.42528708422E-01
1.29500000000E+09 -2.78306111569E-01 +8.81682650380E-01 -1.35519005713E-04 -2.09935392736E-05 -1.67952191162E-04 -1.09857527142E-05 -4.35882043453E-01 +7.46340336548E-01
1.30000000000E+09 -2.67099499274E-01 +8.85142797613E-01 -1.77103556562E-04 -4.01263661700E-05 -1.24382090940E-04 +2.95627809052E-05 -4.29063202120E-01 +7.50235189166E-01
1.30500000000E+09 -2.56865608872E-01 +8.88583854959E-01 -1.83128441845E-04 -3.46872659256E-05 -1.37974229294E-04 -3.58799920739E-05 -4.22029731480E-01 +7.53946874829E-01
1.31000000000E+09 -2.47935596741E-01 +8.91137110821E-01 -2.20370097358E-04 -2.97534077906E-06 -2.04720710121E-04 +2.85413297432E-05 -4.14732452753E-01 +7.57584804491E-01
1.31500000000E+09 -2.40344072359E-01 +8.92885951533E-01 -1.75075570441E-04 +2.02768830028E-05 -2.02671155102E-04 +3.69527985914E-05 -4.06981687785E-01 +7.61343984802E-01
1.32000000000E+09 -2.33935973191E-01 +8.93666479993E-01 -2.00858147316E-04 +5.66613187199E-05 -2.00237551451E-04 +4.22153546685E-05 -3.98924847142E-01 +7.64986757912E-01
1.32500000000E+09 -2.27499442304E-01 +8.93828873392E-01 -2.41300347371E-04 +1.04507190696E-04 -2.48531663630E-04 +1.40546394424E-04 -3.90742824064E-01 +7.68755200085E-01
1.33000000000E+09 -2.20264689456E-01 +8.93481656227E-01 -2.05572861444E-04 +1.33835178694E-04 -1.81095024337E-04 +1.69098700226E-04 -3.82410877472E-01 +7.72272171734E-01
1.33500000000E+09 -2.11011257943E-01 +8.93009330114E-01 -2.02813353301E-04 +1.13596356364E-04 -2.14008730275E-04 +1.25313093241E-04 -3.73800814245E-01 +7.75834156978E-01
1.34000000000E+09 -1.99669751663E-01 +8.92874563285E-01 -2.61839658893E-04 +1.95536014359E-04 -2.51656755157E-04 +1.56285299360E-04 -3.64867287186E-01 +7.79545843619E-01
1.34500000000E+09 -1.86171522022E-01 +8.92874819432E-01 -2.30574181667E-04 +1.70909765149E-04 -2.08233378624E-04 +2.32143014777E-04 -3.55203117177E-01 +7.83452002072E-01
1.35000000000E+09 -1.70751063657E-01 +8.93338431613E-01 -1.88934941264E-04 +2.00586398237E-04 -2.29659009968E-04 +2.63778301750E-04 -3.45277105336E-01 +7.87006010985E-01
1.35500000000E+09 -1.54560527071E-01 +8.94238795741E-01 -2.21719425067E-04 +2.66579083332E-04 -2.05507704101E-04 +2.78576721002E-04 -3.34832821796E-01 +7.90506077777E-01
1.36000000000E+09 -1.38294506831E-01 +8.95307497337E-01 -1.91749519225E-04 +3.55881315691E-04 -1.79832485115E-04 +2.97320112376E-04 -3.24258165646E-01 +7.94030999993E-01
1.36500000000E+09 -1.22753230710E-01 +8.96059992652E-01 -1.54122143106E-04 +3.36949607101E-04 -1.75302485928E-04 +3.29334585641E-04 -3.13322271530E-01 +7.97212456615E-01
1.37000000000E+09 -1.08655855353E-01 +8.95877231317E-01 -8.89689118453E-05 +4.76195392129E-04 -1.20313795310E-04 +4.34480602805E-04 -3.01836567337E-01 +8.00432746812E-01
1.37500000000E+09 -9.63415407768E-02 +8.95357002579E-01 -3.99983493261E-05 +4.49870773300E-04 -8.92270715417E-05 +4.61131481668E-04 -2.89500298698E-01 +8.03500997402E-01
1.38000000000E+09 -8.50455940272E-02 +8.94199207410E-01 -4.05341077265E-05 +4.67843444322E-04 -3.15253339056E-05 +4.37528812855E-04 -2.76200274572E-01 +8.06623547258E-01
1.38500000000E+09 -7.34893766547E-02 +8.92485466922E-01 +5.70211892065E-05 +5.04087501576E-04 +3.44390873925E-05 +5.31082908017E-04 -2.62242512108E-01 +8.09442059156E-01
1.39000000000E+09 -6.10380952863E-02 +8.90089933692E-01 +6.74950016801E-05 +4.97170250575E-04 +7.32702058010E-05 +5.46511939122E-04 -2.47805534860E-01 +8.12191668305E-01
1.39500000000E+09 -4.64247078912E-02 +8.87095997957E-01 +1.06778143882E-04 +5.56562786326E-04 +1.52796041081E-04 +5.60156119214E-04 -2.32664949780E-01 +8.14150019045E-01
1.40000000000E+09 -2.92558271059E-02 +8.82991823478E-01 +8.23695640195E-05 +5.63229501255E-04 +1.79190432282E-04 +6.20384073369E-04 -2.16676608114E-01 +8.16045808294E-01
1.40500000000E+09 -1.04011278974E-02 +8.78768059708E-01 +2.45800278357E-04 +6.97198219283E-04 +2.36757427711E-04 +6.26831576454E-04 -1.99813813028E-01 +8.17275362864E-01
1.41000000000E+09 +1.04770309843E-02 +8.73981830798E-01 +4.09700726033E-04 +6.64215337934E-04 +3.74330045870E-04 +6.80663863836E-04 -1.81083906446E-01 +8.18296908916E-01
1.41500000000E+09 +3.24681751087E-02 +8.68652437607E-01 +5.20113557227E-04 +6.84695553460E-04 +4.82932246600E-04 +7.47535044701E-04 -1.61133481941E-01 +8.18467082499E-01
1.42000000000E+09 +5.48699935532E-02 +8.62513832062E-01 +6.72713719843E-04 +6.67257553020E-04 +7.20592257587E-04 +7.61519703050E-04 -1.39587320618E-01 +8.18122342900E-01
1.42500000000E+09 +7.65601057910E-02 +8.55078807015E-01 +7.69835736229E-04 +6.07596707079E-04 +8.66166613284E-04 +6.57237813110E-04 -1.17105349493E-01 +8.16585628797E-01
1.43000000000E+09 +9.76446473702E-02 +8.46234537884E-01 +8.61561986949E-04 +6.26249076805E-04 +9.83531306679E-04 +6.07362758938E-04 -9.37615521608E-02 +8.14208378859E-01
1.43500000000E+09 +1.17958729407E-01 +8.35649817166E-01 +1.09261433155E-03 +6.13572846537E-04 +1.14893816567E-03 +5.58191422923E-04 -6.85756512001E-02 +8.10170531130E-01
1.44000000000E+09 +1.38796789603E-01 +8.23429981647E-01 +1.43969808945E-03 +4.96739553776E-04 +1.49797104509E-03 +4.04990724553E-04 -4.16727358635E-02 +8.04326345858E-01
1.44500000000E+09 +1.61300418734E-01 +8.08449335776E-01 +1.62860899133E-03 +1.27614345068E-04 +1.66451391237E-03 +2.68282458773E-05 -1.20646980757E-02 +7.96110012037E-01
1.45000000000E+09 +1.85971420247E-01 +7.90019472085E-01 +1.55165852541E-03 -1.67044228013E-04 +1.57102041263E-03 -2.45772123763E-04 +1.91432943187E-02 +7.84830623726E-01
1.45500000000E+09 +2.12717647546E-01 +7.68138695659E-01 +1.66721735640E-03 -1.72207648296E-04 +1.66792565181E-03 -3.20531234464E-04 +5.23658471551E-02 +7.70778331306E-01
1.46000000000E+09 +2.42478777273E-01 +7.42447242941E-01 +1.94154937865E-03 -3.73524705519E-04 +1.82525092594E-03 -5.82319609317E-04 +8.69613260249E-02 +7.52140889642E-01
1.46500000000E+09 +2.73716978710E-01 +7.12305777534E-01 +2.30317209812E-03 -7.83208669797E-04 +2.03316950006E-03 -8.34842860141E-04 +1.23145276281E-01 +7.29348700431E-01
1.47000000000E+09 +3.06072041037E-01 +6.77706301492E-01 +2.43347346212E-03 -1.57294437000E-03 +2.25191402752E-03 -1.41835125063E-03 +1.60587424218E-01 +6.99312057934E-01
1.47500000000E+09 +3.37920668011E-01 +6.37356063692E-01 +2.28596982900E-03 -2.52234836051E-03 +2.25902604059E-03 -2.33499011312E-03 +1.98204695781E-01 +6.62060861056E-01
1.48000000000E+09 +3.67289189346E-01 +5.90683906862E-01 +1.57786684868E-03 -3.17354275033E-03 +1.65324024688E-03 -3.11750487545E-03 +2.35622470783E-01 +6.16635069145E-01
1.48500000000E+09 +3.91521997551E-01 +5.36420107265E-01 +1.06458693198E-03 -3.46273098053E-03 +1.04814044561E-03 -3.56502618351E-03 +2.70898833176E-01 +5.61946530756E-01
1.49000000000E+09 +4.09634633685E-01 +4.74712525697E-01 +5.23625017690E-04 -4.10117969372E-03 +3.45994355025E-04 -4.10612683341E-03 +3.01340959175E-01 +4.96123921474E-01
1.49500000000E+09 +4.19486152123E-01 +4.04933375849E-01 -4.92408902344E-04 -4.58722367862E-03 -6.41026932074E-04 -4.36636100405E-03 +3.21001059638E-01 +4.20536473264E-01
1.50000000000E+09 +4.20530088704E-01 +3.26132071911E-01 -1.82986121968E-03 -4.82810316010E-03 -1.66063597116E-03 -4.55346099460E-03 +3.29543320821E-01 +3.36139518722E-01
1.50500000000E+09 +4.08012675739E-01 +2.37376408845E-01 -2.95923868068E-03 -4.66369559346E-03 -2.62972228558E-03 -4.59133917167E-03 +3.20899457456E-01 +2.43574409652E-01
1.51000000000E+09 +3.77825953344E-01 +1.43496475999E-01 -4.84830592525E-03 -4.10442851283E-03 -4.61829733202E-03 -4.34061316878E-03 +2.92059329386E-01 +1.47076608936E-01
1.51500000000E+09 +3.27664592754E-01 +4.98166004580E-02 -6.16176792451E-03 -2.90042377919E-03 -6.16067307405E-03 -3.11697145835E-03 +2.40967704248E-01 +5.61764513790E-02
1.52000000000E+09 +2.56593342103E-01 -3.46683015489E-02 -7.78157277846E-03 -6.73602505512E-04 -7.87654273013E-03 -7.97533926052E-04 +1.71801910898E-01 -2.54374335910E-02
1.52500000000E+09 +1.67800505594E-01 -1.03836599765E-01 -7.14115132366E-03 +2.64411491974E-03 -7.20920895550E-03 +2.65550441804E-03 +8.38741085453E-02 -8.93925024975E-02
1.53000000000E+09 +6.51782008138E-02 -1.51211950427E-01 -5.18404765238E-03 +4.11672051894E-03 -5.20246974983E-03 +4.10009630137E-03 -1.39139907798E-02 -1.31662196051E-01
1.53500000000E+09 -4.46649835830E-02 -1.74135407471E-01 -3.91274858858E-03 +5.05849905714E-03 -3.87750978747E-03 +5.05319237130E-03 -1.16395776616E-01 -1.50886054389E-01
1.54000000000E+09 -1.57307996765E-01 -1.70216512280E-01 -2.13939217766E-03 +5.15141058329E-03 -2.08955018222E-03 +5.06512510666E-03 -2.14798380056E-01 -1.48308603755E-01
1.54500000000E+09 -2.62988354617E-01 -1.43213752408E-01 -1.27558021965E-03 +5.38613574045E-03 -1.40372600950E-03 +5.29027754563E-03 -3.03210335399E-01 -1.28520007586E-01
1.55000000000E+09 -3.57857380598E-01 -9.61751749610E-02 +3.09939710453E-04 +5.66118036436E-03 +7.35195024434E-05 +5.63244894287E-03 -3.80245222502E-01 -9.73096721130E-02
1.55500000000E+09 -4.34945782556E-01 -3.80355609603E-02 +2.12090219392E-03 +4.90828745347E-03 +1.93805564110E-03 +5.07215263898E-03 -4.44948007810E-01 -5.64744743977E-02
1.56000000000E+09 -4.97072535720E-01 +2.26426577930E-02 +3.11092755793E-03 +3.39466214314E-03 +3.11909711303E-03 +3.70244369432E-03 -4.96971451918E-01 -1.03202979420E-02
1.56500000000E+09 -5.46520407953E-01 +8.42283613193E-02 +3.12061062748E-03 +1.97680103765E-03 +3.29152080775E-03 +2.23099037053E-03 -5.37707632544E-01 +3.78977698057E-02
1.57000000000E+09 -5.82861264785E-01 +1.44369739560E-01 +2.93344511088E-03 +1.26708979689E-03 +3.07300205871E-03 +1.34749306630E-03 -5.68779823474E-01 +8.52494365511E-02
