# Hz S RI R 50
! CMT, C1220, 16058040, 17.2.0/1
! Date: 14/08/2018 12:08:29
! Data: Format (Calibration Info)
! Freq                      S11: Re/Im (F2)                       S21: Re/Im (F2)                       S12: Re/Im (F2)                       S22: Re/Im (F2)            
1.00000000000E+09 -6.54780928947E-01 +7.09837040594E-01 -1.57856079020E-05 +3.62064496264E-05 +1.06596959831E-05 +1.93858383231E-05 -7.53336152800E-01 +6.25775386384E-01
1.00500000000E+09 -6.47888599784E-01 +7.14501293367E-01 -2.70922339891E-05 +2.28388965810E-05 +2.42729208057E-07 +3.93852005353E-05 -7.49925154411E-01 +6.29808550704E-01
1.01000000000E+09 -6.42227113392E-01 +7.18762114892E-01 -2.15951843626E-05 -2.14915105847E-05 -4.50834782113E-05 +1.68726210814E-05 -7.46158789177E-01 +6.33372242795E-01
1.01500000000E+09 -6.38092507913E-01 +7.22265755182E-01 +5.97608660956E-06 -3.08174817877E-05 +2.39430716011E-06 +1.31281957825E-05 -7.42903112836E-01 +6.37215164128E-01
1.02000000000E+09 -6.35286766049E-01 +7.25714049323E-01 -2.36286612313E-05 +1.27772869494E-05 +1.92514957096E-05 +1.76913496386E-05 -7.39394592862E-01 +6.40753722502E-01
1.02500000000E+09 -6.33231801390E-01 +7.28685937268E-01 -1.03693810813E-05 +1.82078155256E-05 -3.87179725978E-06 -9.50867631995E-06 -7.36462013316E-01 +6.44644964625E-01
1.03000000000E+09 -6.31901798970E-01 +7.31350632738E-01 -8.76559148002E-06 +2.76253902420E-05 -7.10855664974E-05 -2.39805026047E-06 -7.33050350898E-01 +6.48408072039E-01
1.03500000000E+09 -6.29660842782E-01 +7.34365261744E-01 -2.93868662935E-06 +3.76224153434E-05 -2.60250857680E-05 -2.87182619187E-05 -7.29343834824E-01 +6.52468376985E-01
1.04000000000E+09 -6.26406004972E-01 +7.37369473110E-01 -5.82548063430E-05 +2.79013759039E-05 -5.25256543578E-05 +1.28411369962E-05 -7.25513774653E-01 +6.55971623896E-01
1.04500000000E+09 -6.21398213991E-01 +7.41015023478E-01 +7.22841662289E-06 -2.04376630257E-05 -2.69100936551E-05 +6.42950400978E-05 -7.22031163267E-01 +6.59655764883E-01
1.05000000000E+09 -6.14873132618E-01 +7.45008505281E-01 -2.86262301590E-05 +2.83262660902E-05 +1.51404201790E-05 +2.87058672559E-05 -7.18469229182E-01 +6.63064618813E-01
1.05500000000E+09 -6.07216757727E-01 +7.49238426315E-01 -4.72107864006E-05 +6.26608013789E-05 +3.46559779079E-06 +2.14894179463E-05 -7.15046118001E-01 +6.66580852959E-01
1.06000000000E+09 -5.98977808498E-01 +7.53564547094E-01 -2.58876675170E-05 +3.31163458386E-05 -2.67668726184E-05 +3.75450512017E-05 -7.11939330593E-01 +6.70319420747E-01
1.06500000000E+09 -5.90959324678E-01 +7.58036525748E-01 -2.92613997681E-06 +7.27797471190E-05 -3.20624831006E-06 +3.22907461193E-05 -7.08168138952E-01 +6.73967284717E-01
1.07000000000E+09 -5.84250046481E-01 +7.61844864967E-01 -2.58214988408E-05 +1.29928694863E-05 +3.79310968004E-05 +5.03231419203E-05 -7.04179977151E-01 +6.77754400837E-01
1.07500000000E+09 -5.78683577677E-01 +7.65625648878E-01 +6.03663649954E-05 +9.08593306846E-05 +1.62764134179E-05 +4.73556856982E-05 -6.99943238321E-01 +6.81533594571E-01
1.08000000000E+09 -5.74920603790E-01 +7.69128904928E-01 +2.28044517750E-05 +1.40526535832E-05 +1.91162537756E-05 +3.29608642242E-05 -6.95745779415E-01 +6.85382408576E-01
1.08500000000E+09 -5.72301261170E-01 +7.71920185185E-01 +3.73738795992E-05 +1.27011835313E-05 +4.14836653519E-05 +4.72262538757E-05 -6.91901520707E-01 +6.89125234351E-01
1.09000000000E+09 -5.69885810897E-01 +7.74722045113E-01 +9.78432734286E-06 +2.36334220086E-05 +1.01604976860E-05 +4.21518486991E-06 -6.87951143580E-01 +6.93038309152E-01
1.09500000000E+09 -5.67823891990E-01 +7.77047709908E-01 -1.13230905108E-06 +3.83788792234E-05 -2.41836113457E-05 +3.86492418065E-05 -6.84178778086E-01 +6.96841746933E-01
1.10000000000E+09 -5.64251331748E-01 +7.79878462817E-01 +1.13153370321E-05 +7.11942683076E-06 -1.17549697896E-05 +3.34653481141E-05 -6.80214241695E-01 +7.00660091407E-01
1.10500000000E+09 -5.59902591893E-01 +7.82727258147E-01 +2.39132644597E-06 +3.84215730707E-05 -4.80844736382E-06 -8.39086681139E-06 -6.75910504508E-01 +7.04224573864E-01
1.11000000000E+09 -5.53979671434E-01 +7.85954101756E-01 +2.16591735822E-05 +2.03575013795E-05 +3.77723919432E-05 +7.42090970474E-05 -6.71746009888E-01 +7.07444895127E-01
1.11500000000E+09 -5.46872476375E-01 +7.89618972904E-01 -2.88430620718E-06 -1.51295603592E-05 -3.06102994091E-05 -1.06803042505E-06 -6.67547345101E-01 +7.11167536063E-01
1.12000000000E+09 -5.39243688072E-01 +7.93249362403E-01 +6.14426592140E-05 +3.72386600185E-05 +7.20672421977E-05 +2.03088665637E-05 -6.63575494411E-01 +7.14583754416E-01
1.12500000000E+09 -5.31627616940E-01 +7.96955250985E-01 +3.11539777667E-05 +2.65287420729E-05 +3.52496942680E-05 +5.37726171329E-05 -6.59317534081E-01 +7.18625581761E-01
1.13000000000E+09 -5.25092164940E-01 +8.00368163940E-01 +4.11462584253E-05 -6.75502996318E-06 +3.23815219497E-05 +4.17959256995E-05 -6.55038515530E-01 +7.22473477567E-01
1.13500000000E+09 -5.19258574996E-01 +8.03217274272E-01 +1.75748853187E-05 +4.74342986333E-05 +2.16773016131E-05 +3.80109157160E-05 -6.50434499679E-01 +7.26195729289E-01
1.14000000000E+09 -5.14774314291E-01 +8.06239669278E-01 +4.70006174011E-05 +3.07807662139E-05 +8.22108208356E-05 +8.15594170518E-05 -6.45683858041E-01 +7.29697807842E-01
1.14500000000E+09 -5.11076758889E-01 +8.08639255191E-01 +5.91250079642E-05 +2.64701348804E-05 +4.48866310407E-05 +5.59438397581E-05 -6.41181721987E-01 +7.33106407859E-01
1.15000000000E+09 -5.07610660164E-01 +8.10894538339E-01 +7.25737863850E-05 +4.52798469208E-05 +8.11639075931E-05 +2.39395947777E-05 -6.36363877948E-01 +7.36867143273E-01
1.15500000000E+09 -5.04155584992E-01 +8.13337944188E-01 +5.75565498211E-05 +8.66201478990E-05 +6.57552802171E-05 +4.25247808571E-06 -6.31437526586E-01 +7.40598452840E-01
1.16000000000E+09 -4.99467438005E-01 +8.15709375074E-01 +6.76950837280E-05 +5.33530271236E-05 +4.89590842595E-05 +5.92706579461E-06 -6.26750795139E-01 +7.44630690967E-01
1.16500000000E+09 -4.93884375709E-01 +8.18686740559E-01 +7.50197943617E-05 -1.04016488226E-05 +7.04536005727E-05 +5.97355561678E-05 -6.21578978886E-01 +7.48185170282E-01
1.17000000000E+09 -4.87013909083E-01 +8.21585046149E-01 +4.58029533627E-05 +3.55301521248E-07 +1.07194524985E-04 +2.77931421457E-05 -6.16152247702E-01 +7.51566855735E-01
1.17500000000E+09 -4.79287447123E-01 +8.24729910049E-01 +7.61506255685E-05 -5.72615179881E-07 +9.73438161441E-05 +5.36018039026E-05 -6.10406882850E-01 +7.54754863121E-01
1.18000000000E+09 -4.71349660109E-01 +8.27976326259E-01 +7.55991186477E-05 +1.16765780464E-06 +1.25852573645E-04 -4.69109958572E-05 -6.04851111618E-01 +7.57812892707E-01
1.18500000000E+09 -4.63410767113E-01 +8.30822509883E-01 +9.39388130254E-05 +3.00471725650E-05 +1.49399135100E-04 -4.02730685369E-05 -5.98954245360E-01 +7.60884683033E-01
1.19000000000E+09 -4.56484055593E-01 +8.33397274057E-01 +9.49668265147E-05 +2.79300627254E-05 +1.53634897928E-04 -9.70581398413E-06 -5.92763877288E-01 +7.63579826050E-01
1.19500000000E+09 -4.50573263296E-01 +8.35585274728E-01 +1.40940232987E-04 -2.07359097821E-05 +1.83029138367E-04 -3.93139119628E-06 -5.86793580359E-01 +7.64944186055E-01
1.20000000000E+09 -4.45803914469E-01 +8.36921562412E-01 +1.48218203520E-04 -7.56865596257E-05 +1.76380689169E-04 -8.23251085937E-05 -5.82210276142E-01 +7.64970563227E-01
1.20500000000E+09 -4.41641643503E-01 +8.38806152352E-01 +1.42364905300E-04 -1.02569808007E-04 +1.24385218012E-04 -1.51013357537E-04 -5.79932054141E-01 +7.65864774603E-01
1.21000000000E+09 -4.37574432056E-01 +8.40791951716E-01 +9.76794603046E-05 -1.19273480125E-04 +9.45634506739E-05 -5.62803392119E-05 -5.78141063768E-01 +7.68903289695E-01
1.21500000000E+09 -4.32315018583E-01 +8.42839196218E-01 +8.37238630720E-05 -9.50044654649E-05 +7.66517438173E-05 -8.84658689272E-05 -5.75301013570E-01 +7.73285943945E-01
1.22000000000E+09 -4.25712389406E-01 +8.45462611992E-01 +7.64075530308E-05 -1.32634642728E-04 +1.11793271194E-04 -5.42373538145E-05 -5.71392005238E-01 +7.78683509493E-01
1.22500000000E+09 -4.17540224500E-01 +8.48378293630E-01 +3.91254276266E-05 -8.35736551519E-05 +9.42803748131E-05 -1.22195294911E-04 -5.66137347867E-01 +7.83936803116E-01
1.23000000000E+09 -4.08241634049E-01 +8.51398208175E-01 +8.44032451968E-05 -9.77556677635E-05 +5.34508420353E-05 -1.30465093183E-04 -5.60345901883E-01 +7.88542659763E-01
1.23500000000E+09 -3.98288304778E-01 +8.54594381552E-01 +8.37518717830E-05 -1.32455408941E-04 +9.59157035715E-05 -1.28996167439E-04 -5.54513323404E-01 +7.92849489545E-01
1.24000000000E+09 -3.88057681153E-01 +8.57950172686E-01 +7.74866361069E-05 -1.51661038564E-04 +1.09594715959E-04 -1.26184067793E-04 -5.48429244032E-01 +7.96737649557E-01
1.24500000000E+09 -3.78719732404E-01 +8.61429017296E-01 +8.93779886250E-05 -2.17067991764E-04 +1.08080992955E-04 -1.73011988710E-04 -5.42181786967E-01 +8.00515331679E-01
1.25000000000E+09 -3.70142724145E-01 +8.64493823090E-01 +6.66375252154E-05 -2.18406454109E-04 +8.48827936923E-05 -2.02328792979E-04 -5.35579959014E-01 +8.04852608923E-01
1.25500000000E+09 -3.62969053527E-01 +8.67090580955E-01 -1.42854336383E-05 -2.20989269982E-04 -5.92624080537E-06 -2.63491785486E-04 -5.28684007783E-01 +8.08950089166E-01
1.26000000000E+09 -3.56890938162E-01 +8.69639364417E-01 -4.23796740598E-05 -2.30850023837E-04 -4.21897670209E-05 -2.61550478579E-04 -5.21875301987E-01 +8.13064129207E-01
1.26500000000E+09 -3.51325926526E-01 +8.71892593938E-01 -1.58971274012E-05 -2.39089382782E-04 -3.33958038383E-05 -2.69786802453E-04 -5.15064347604E-01 +8.16987700773E-01
1.27000000000E+09 -3.45576062883E-01 +8.74049259463E-01 -1.04065094992E-04 -2.57998223222E-04 -9.10782683673E-05 -2.61744901221E-04 -5.08192143086E-01 +8.20864466405E-01
1.27500000000E+09 -3.39084647316E-01 +8.76257476390E-01 -8.80367990288E-05 -2.57994549972E-04 -1.26367703910E-04 -2.71526979102E-04 -5.01093373689E-01 +8.24561326658E-01
1.28000000000E+09 -3.31079006739E-01 +8.78580452861E-01 -1.70236351020E-04 -2.51769620965E-04 -1.46327910805E-04 -2.40626191720E-04 -4.94106083128E-01 +8.27974140570E-01
1.28500000000E+09 -3.21379963845E-01 +8.81190902671E-01 -1.69561820042E-04 -2.24918508022E-04 -2.30614971229E-04 -2.41795364536E-04 -4.86790957146E-01 +8.31677051919E-01
1.29000000000E+09 -3.10608723052E-01 +8.83601508140E-01 -2.20657521393E-04 -2.15608823307E-04 -2.56360612633E-04 -2.39626677930E-04 -4.79126096618E-01 +8.35535907225E-01
1.29500000000E+09 -2.99054235282E-01 +8.86188293078E-01 -2.43706523227E-04 -2.13413030634E-04 -2.81293840277E-04 -1.94437278035E-04 -4.71314898239E-01 +8.38935443337E-01
1.30000000000E+09 -2.87583930644E-01 +8.88891784373E-01 -2.96721288840E-04 -2.11528259386E-04 -3.25601918832E-04 -1.91678544843E-04 -4.63385684472E-01 +8.42678535688E-01
1.30500000000E+09 -2.76954968309E-01 +8.91378324804E-01 -3.92321615018E-04 -1.16905762859E-04 -3.47374294924E-04 -1.25885674787E-04 -4.55257313127E-01 +8.46022784838E-01
1.31000000000E+09 -2.67548060248E-01 +8.93570236968E-01 -4.08466277300E-04 -8.00437174633E-05 -3.61593571704E-04 -8.54019968742E-05 -4.46934886362E-01 +8.49450591433E-01
1.31500000000E+09 -2.59649833562E-01 +8.95459485601E-01 -3.84122604358E-04 -4.74055551790E-05 -3.63154271800E-04 -3.21151763909E-05 -4.38094258531E-01 +8.52924698922E-01
1.32000000000E+09 -2.52753960323E-01 +8.97143374333E-01 -3.28414648647E-04 +1.31113248125E-05 -3.78773366989E-04 -5.77859697445E-05 -4.28984312075E-01 +8.56520001697E-01
1.32500000000E+09 -2.46248295597E-01 +8.98247395988E-01 -3.62332842625E-04 -3.06790955676E-05 -3.45470230661E-04 +2.03079989531E-05 -4.19311907768E-01 +8.59919729164E-01
1.33000000000E+09 -2.38962820885E-01 +8.99404137571E-01 -3.77729726380E-04 +6.01270824510E-06 -3.89608353095E-04 +7.08512895852E-05 -4.09624858423E-01 +8.63124376330E-01
1.33500000000E+09 -2.30142262187E-01 +9.00109190444E-01 -3.97453128633E-04 +4.75368647010E-05 -4.19928691830E-04 +8.83425024456E-05 -3.99618754092E-01 +8.66528878030E-01
1.34000000000E+09 -2.19092405492E-01 +9.00877660211E-01 -4.22801012391E-04 +1.60779212243E-04 -3.94742764722E-04 +1.66259507980E-04 -3.89325733475E-01 +8.69796773865E-01
1.34500000000E+09 -2.05897478792E-01 +9.01133067547E-01 -4.06518677935E-04 +1.88620272056E-04 -4.26427314003E-04 +1.88461077589E-04 -3.78411168549E-01 +8.73068661241E-01
1.35000000000E+09 -1.91010319853E-01 +9.01043299094E-01 -3.50562115460E-04 +2.19978328243E-04 -3.48026081243E-04 +2.05774931157E-04 -3.67143360207E-01 +8.76210375573E-01
1.35500000000E+09 -1.74888786761E-01 +9.01167351601E-01 -3.61649151910E-04 +2.46242412196E-04 -3.77719923074E-04 +2.24203743260E-04 -3.55460490235E-01 +8.79079783863E-01
1.36000000000E+09 -1.58702617842E-01 +9.01024659453E-01 -3.70438425519E-04 +2.64524086677E-04 -3.26426552742E-04 +2.42388805205E-04 -3.43695965445E-01 +8.81751158848E-01
1.36500000000E+09 -1.42944467133E-01 +9.01270976910E-01 -3.82671448994E-04 +2.94811800002E-04 -3.70082168511E-04 +2.78946176609E-04 -3.31415555651E-01 +8.84158118538E-01
1.37000000000E+09 -1.28259339136E-01 +9.01210824997E-01 -3.72775902504E-04 +3.40645618746E-04 -3.87704576938E-04 +2.83002014401E-04 -3.18406865149E-01 +8.86629006934E-01
1.37500000000E+09 -1.14974949703E-01 +9.01266732092E-01 -4.51211362888E-04 +3.73447522775E-04 -4.80176065563E-04 +3.49269635204E-04 -3.04691427416E-01 +8.88895640768E-01
1.38000000000E+09 -1.02555945987E-01 +9.00941211778E-01 -4.16267066589E-04 +5.43036586117E-04 -5.05649322285E-04 +5.06459152946E-04 -2.90021687931E-01 +8.90984351239E-01
1.38500000000E+09 -9.01172940979E-02 +9.00437841479E-01 -2.67126591649E-04 +5.59689209013E-04 -3.58603593188E-04 +6.49076186812E-04 -2.74543676097E-01 +8.92677357731E-01
1.39000000000E+09 -7.72930965963E-02 +8.99176825677E-01 -2.00860374182E-04 +5.72100512415E-04 -2.63299337254E-04 +6.89204121954E-04 -2.58523869339E-01 +8.94171066257E-01
1.39500000000E+09 -6.29099480011E-02 +8.97121099713E-01 -2.02254324311E-04 +6.26293120284E-04 -1.96163809224E-04 +7.17201580059E-04 -2.41616932215E-01 +8.94967849049E-01
1.40000000000E+09 -4.60881348434E-02 +8.94013752555E-01 -1.96462161382E-04 +7.06499900235E-04 -1.26614019445E-04 +7.29362643269E-04 -2.24041076587E-01 +8.95397295837E-01
1.40500000000E+09 -2.76462169433E-02 +8.89814421241E-01 -1.70718317398E-04 +7.01443795841E-04 -1.48655951320E-04 +7.12068442131E-04 -2.05268606999E-01 +8.95211110922E-01
1.41000000000E+09 -7.41340464173E-03 +8.84335448519E-01 -1.32488801068E-04 +8.44151504609E-04 -1.14210916581E-04 +7.88642031581E-04 -1.85046965055E-01 +8.94662219121E-01
1.41500000000E+09 +1.37363389333E-02 +8.78070479970E-01 +4.38667050605E-05 +9.12542132116E-04 +2.76026163536E-06 +8.96556735506E-04 -1.63239385453E-01 +8.93259607819E-01
1.42000000000E+09 +3.57041116699E-02 +8.71395573838E-01 +5.99177561915E-05 +8.64874915631E-04 -1.23115494559E-05 +9.54214958249E-04 -1.40237093177E-01 +8.90384874587E-01
1.42500000000E+09 +5.73041272482E-02 +8.63855870360E-01 +3.31027039640E-05 +1.01457531942E-03 +9.21283983865E-05 +1.14460207080E-03 -1.16318087232E-01 +8.86806128225E-01
1.43000000000E+09 +7.90386748415E-02 +8.55827406309E-01 +2.19441516189E-04 +1.25149408218E-03 +3.44388556043E-04 +1.35636844223E-03 -9.13003330912E-02 +8.81861678657E-01
1.43500000000E+09 +1.00686432543E-01 +8.46371620720E-01 +5.66173308608E-04 +1.31260370039E-03 +6.66113938526E-04 +1.31462745203E-03 -6.48648458056E-02 +8.75033089695E-01
1.44000000000E+09 +1.22735175215E-01 +8.35748612886E-01 +7.50457718045E-04 +1.10541928618E-03 +7.92846746285E-04 +1.09340217922E-03 -3.66000043258E-02 +8.66303963320E-01
1.44500000000E+09 +1.46467746038E-01 +8.22784830698E-01 +7.71800208563E-04 +9.82665022621E-04 +7.27297776739E-04 +9.60256289562E-04 -6.13964299537E-03 +8.54706625827E-01
1.45000000000E+09 +1.72069240957E-01 +8.05918025168E-01 +6.11733358395E-04 +1.24766305096E-03 +7.70357615985E-04 +1.21774825249E-03 +2.59436920744E-02 +8.39734388932E-01
1.45500000000E+09 +1.99435129397E-01 +7.85225468038E-01 +8.28318912808E-04 +1.65696488883E-03 +9.47853990725E-04 +1.55747835454E-03 +5.93096910547E-02 +8.21480646914E-01
1.46000000000E+09 +2.29022983041E-01 +7.59758394728E-01 +1.50225503969E-03 +1.95374795896E-03 +1.64808032626E-03 +1.74789266202E-03 +9.40002864641E-02 +7.99294266505E-01
1.46500000000E+09 +2.59938397284E-01 +7.29104847201E-01 +2.12029792912E-03 +1.80100334426E-03 +2.05902733457E-03 +1.51977257350E-03 +1.30099830084E-01 +7.71852850397E-01
1.47000000000E+09 +2.91370702605E-01 +6.92974033568E-01 +2.73756044255E-03 +1.60889074566E-03 +2.49416988433E-03 +1.49453854074E-03 +1.66734442273E-01 +7.37454254223E-01
1.47500000000E+09 +3.22381278182E-01 +6.50679339256E-01 +3.40329322206E-03 +1.35790212320E-03 +3.21262993386E-03 +1.42099718274E-03 +2.02749117259E-01 +6.95958430073E-01
1.48000000000E+09 +3.50378021573E-01 +6.01771019740E-01 +4.08141751739E-03 +8.34673136365E-04 +4.07863463571E-03 +9.41047774430E-04 +2.38517011798E-01 +6.47042779841E-01
1.48500000000E+09 +3.74222576568E-01 +5.46965454453E-01 +4.64304066338E-03 +1.67584906711E-04 +4.80121340166E-03 +1.17393992009E-04 +2.72561766104E-01 +5.88145313718E-01
1.49000000000E+09 +3.92813657204E-01 +4.84967531411E-01 +5.60731066752E-03 -7.07001181306E-04 +5.54195616834E-03 -9.72045204591E-04 +2.99862338282E-01 +5.18281378372E-01
1.49500000000E+09 +4.03887454614E-01 +4.15117471475E-01 +6.13868446025E-03 -2.32348873740E-03 +5.81795194173E-03 -2.47105430571E-03 +3.16969373784E-01 +4.38912893675E-01
1.50000000000E+09 +4.04314380904E-01 +3.36638357196E-01 +6.75723688308E-03 -3.83614769760E-03 +6.36620856787E-03 -3.61433507995E-03 +3.21734829197E-01 +3.51266189396E-01
1.50500000000E+09 +3.91724402507E-01 +2.51774060350E-01 +6.65405302887E-03 -7.34977557234E-03 +6.64399884853E-03 -6.83488751830E-03 +3.10190584376E-01 +2.55536998153E-01
1.51000000000E+09 +3.62300614502E-01 +1.61278435364E-01 +3.63118624657E-03 -1.06043524755E-02 +3.99215946426E-03 -1.03442378894E-02 +2.77861799749E-01 +1.56210798318E-01
1.51500000000E+09 +3.13033710091E-01 +7.17017729250E-02 +1.56419452142E-04 -1.11714343227E-02 +4.94237980008E-04 -1.12443868000E-02 +2.24249022759E-01 +6.07337963719E-02
1.52000000000E+09 +2.44088173065E-01 -9.06351450057E-03 -3.39680491137E-03 -1.13200723930E-02 -3.25663384987E-03 -1.15164745698E-02 +1.49516070079E-01 -2.51605505965E-02
1.52500000000E+09 +1.58816343256E-01 -7.73477940308E-02 -6.27743725892E-03 -9.25188627570E-03 -6.27717206433E-03 -9.45213066909E-03 +5.56591619905E-02 -9.38137389269E-02
1.53000000000E+09 +5.92670961361E-02 -1.25596861333E-01 -8.16702427094E-03 -8.41329529474E-03 -8.27655177767E-03 -8.48041411887E-03 -5.08752311867E-02 -1.39527772687E-01
1.53500000000E+09 -4.69457236396E-02 -1.50954982641E-01 -1.10584498693E-02 -6.15177814780E-03 -1.11162215898E-02 -6.20611425536E-03 -1.62007231734E-01 -1.60032429456E-01
1.54000000000E+09 -1.55142235394E-01 -1.52952670840E-01 -1.34048803595E-02 -2.34723455790E-03 -1.33476190758E-02 -2.40264818404E-03 -2.70734503475E-01 -1.56827802511E-01
1.54500000000E+09 -2.59135751949E-01 -1.31522849377E-01 -1.31412943630E-02 +3.04894903405E-03 -1.30604123236E-02 +2.75216299836E-03 -3.68648333570E-01 -1.33578551228E-01
1.55000000000E+09 -3.51771029753E-01 -9.03394435181E-02 -1.00660306097E-02 +6.43332816175E-03 -1.03108856278E-02 +6.07367539923E-03 -4.53610683134E-01 -9.67093214307E-02
1.55500000000E+09 -4.28977698329E-01 -3.63963485435E-02 -7.11640390220E-03 +8.08855751141E-03 -7.65069085075E-03 +7.91480518572E-03 -5.24498549057E-01 -5.01588520881E-02
1.56000000000E+09 -4.90446322597E-01 +2.20029465308E-02 -4.04412534188E-03 +8.94816915715E-03 -4.58158898994E-03 +9.15786325533E-03 -5.81358196849E-01 +2.88844686838E-03
1.56500000000E+09 -5.39989124587E-01 +8.22595729915E-02 -1.21152020624E-03 +8.19479781565E-03 -1.37262998664E-03 +8.66256142030E-03 -6.25688702563E-01 +5.73662355316E-02
1.57000000000E+09 -5.77585585877E-01 +1.41428481878E-01 +6.17703175486E-04 +6.75231843465E-03 +6.57270758575E-04 +7.16624807297E-03 -6.59225455545E-01 +1.11882862719E-01
