# Hz S RI R 50
! CMT, C1220, 16058040, 17.2.0/1
! Date: 14/08/2018 12:46:39
! Data: Format (Calibration Info)
! Freq                      S11: Re/Im (F2)                       S21: Re/Im (F2)                       S12: Re/Im (F2)                       S22: Re/Im (F2)            
1.00000000000E+09 -6.50421323167E-01 +7.13534139371E-01 +5.20104683772E-05 +1.19082246905E-05 -2.10335292530E-05 +5.31581545645E-05 -7.53756352080E-01 +6.21392067052E-01
1.00500000000E+09 -6.43086198052E-01 +7.18478773350E-01 -2.93555847914E-05 -3.02184919815E-06 -1.99599246506E-05 +4.03643466693E-05 -7.50206370433E-01 +6.25438310406E-01
1.01000000000E+09 -6.37170963544E-01 +7.23222437618E-01 +9.38647549059E-06 +2.48026012072E-07 -1.81911881343E-05 +2.83679612571E-05 -7.46690372832E-01 +6.29004675255E-01
1.01500000000E+09 -6.32616463733E-01 +7.27001287860E-01 -3.50701497680E-05 +4.39194720570E-05 -1.29730808291E-05 +4.34998139117E-05 -7.43577574053E-01 +6.32731572447E-01
1.02000000000E+09 -6.29714228799E-01 +7.30484331279E-01 -1.54479380790E-05 -9.93658754287E-06 +1.05444575592E-06 -2.48615515454E-05 -7.40453508996E-01 +6.36078418238E-01
1.02500000000E+09 -6.27802199193E-01 +7.33197623869E-01 -1.78076090910E-06 +4.83706195891E-05 -1.78989897300E-05 +3.21048460319E-05 -7.37498429443E-01 +6.39880246764E-01
1.03000000000E+09 -6.26408266697E-01 +7.35816999718E-01 -1.76301634126E-05 +3.11318867082E-05 -3.31357699818E-05 +9.30579711433E-05 -7.33984796279E-01 +6.43618394584E-01
1.03500000000E+09 -6.24272110452E-01 +7.38096366154E-01 +2.24343891394E-06 +4.81766763833E-05 +5.37231860923E-05 +5.30399864148E-05 -7.30190199056E-01 +6.47450203082E-01
1.04000000000E+09 -6.21091765373E-01 +7.41043152522E-01 -8.13122055209E-06 +8.72655384391E-06 -1.65184980123E-05 -5.62524519591E-05 -7.26519259128E-01 +6.51274114917E-01
1.04500000000E+09 -6.16206952989E-01 +7.44468162912E-01 +3.45226614930E-06 +5.84931330269E-06 -5.19182816468E-06 +3.94248372902E-06 -7.22868589812E-01 +6.54814017084E-01
1.05000000000E+09 -6.09697018728E-01 +7.48667214351E-01 -1.42252717430E-05 -4.05463282766E-06 -2.95842849681E-05 +1.83300811844E-05 -7.19501658600E-01 +6.58183059635E-01
1.05500000000E+09 -6.01701865566E-01 +7.53363767011E-01 -1.53965216131E-05 +3.83004653942E-05 +2.46805416006E-05 -2.17239177734E-06 -7.16232962611E-01 +6.61707218826E-01
1.06000000000E+09 -5.92919958299E-01 +7.58304194565E-01 -2.26471194817E-05 +4.09463133018E-05 +5.35391625955E-05 -1.01554999199E-05 -7.12944035026E-01 +6.65602965111E-01
1.06500000000E+09 -5.84591188829E-01 +7.63481129367E-01 +3.45707407870E-06 +2.65276992389E-05 -1.02583242265E-05 +2.87357946581E-05 -7.09139402659E-01 +6.69414204082E-01
1.07000000000E+09 -5.77020576408E-01 +7.67993085753E-01 -3.68184392569E-05 +2.54166369920E-05 +2.60186476870E-06 -2.61660242112E-05 -7.05192904385E-01 +6.73182937041E-01
1.07500000000E+09 -5.71029841879E-01 +7.71920863630E-01 +1.44308184941E-05 +4.98649900806E-05 -3.35179396491E-05 -1.33545299851E-05 -7.00845640889E-01 +6.76923185455E-01
1.08000000000E+09 -5.66912620890E-01 +7.75268679000E-01 +1.74407769709E-05 +6.69227272692E-05 -1.14491757169E-05 +5.93976070541E-05 -6.96949234686E-01 +6.80660839424E-01
1.08500000000E+09 -5.64195358641E-01 +7.77885389303E-01 +1.33210610474E-05 +4.08395873678E-07 +3.60090939593E-05 +7.07807706449E-05 -6.93096514676E-01 +6.84267970472E-01
1.09000000000E+09 -5.62301014488E-01 +7.79821233980E-01 +4.42588914727E-05 +1.15487115089E-05 +1.55411745841E-05 +1.68138407439E-05 -6.89555453072E-01 +6.88094259530E-01
1.09500000000E+09 -5.60856745172E-01 +7.81524979490E-01 +5.25922461886E-05 +2.01579447507E-05 -1.52444496115E-05 +6.34345988474E-05 -6.85756710484E-01 +6.91848714565E-01
1.10000000000E+09 -5.58324408701E-01 +7.83472451255E-01 +4.37095061539E-05 +2.14465768256E-05 +5.93465603522E-06 +1.10171941095E-05 -6.81779574124E-01 +6.95698034233E-01
1.10500000000E+09 -5.54629083485E-01 +7.85992902082E-01 +2.37508087802E-05 +2.81659239291E-05 +2.91691972276E-05 +3.43845025225E-05 -6.77672492822E-01 +6.99341010602E-01
1.11000000000E+09 -5.49409961226E-01 +7.89137032698E-01 +4.04177485448E-05 +7.13882595028E-06 +2.36434848460E-05 +2.18699190433E-05 -6.73409182836E-01 +7.02629307233E-01
1.11500000000E+09 -5.42324209894E-01 +7.93009181793E-01 +2.50276373711E-05 +9.70181614554E-06 +2.93996518928E-05 +3.90768186274E-05 -6.69557018495E-01 +7.05905933798E-01
1.12000000000E+09 -5.34828231917E-01 +7.96800983002E-01 +1.63262492713E-05 +3.81265658964E-05 +5.60263529349E-05 +6.09616449043E-05 -6.65503779051E-01 +7.09539774061E-01
1.12500000000E+09 -5.26796995917E-01 +8.00979444751E-01 +3.14511580753E-05 +2.53618855054E-05 +6.24835798558E-05 +3.20165516816E-05 -6.61242159119E-01 +7.13506353276E-01
1.13000000000E+09 -5.19350672799E-01 +8.04601733867E-01 +5.33134886002E-05 +4.47826654368E-05 +5.23571350470E-05 -8.70102595832E-07 -6.56824303594E-01 +7.17371268330E-01
1.13500000000E+09 -5.12653804065E-01 +8.07708384456E-01 +3.77834461619E-05 -2.84569728516E-05 +2.67238616762E-05 +4.44973391552E-05 -6.52087141837E-01 +7.21210459928E-01
1.14000000000E+09 -5.07198393764E-01 +8.10217297960E-01 +7.89520822032E-05 +2.32538809868E-05 +9.11570417961E-05 +2.45134659966E-05 -6.47486150474E-01 +7.24776431120E-01
1.14500000000E+09 -5.03019910905E-01 +8.11998485248E-01 +1.07388303150E-04 +1.52713781243E-06 +6.26274534208E-05 -5.69856003581E-06 -6.43009454092E-01 +7.28263489327E-01
1.15000000000E+09 -4.99406042954E-01 +8.13689259743E-01 +8.24212160207E-05 -8.52096591970E-06 +8.56729080179E-05 -4.42168535011E-05 -6.38287253780E-01 +7.32070969964E-01
1.15500000000E+09 -4.95951789344E-01 +8.15566007297E-01 +8.37458816614E-05 +2.95077649556E-06 +3.76991146625E-05 -1.38859866486E-05 -6.33535525346E-01 +7.35896921574E-01
1.16000000000E+09 -4.91750433596E-01 +8.17619566604E-01 +5.75772603599E-05 -3.65049103441E-05 +6.29964709860E-05 -1.92327837209E-05 -6.28895304280E-01 +7.39675736558E-01
1.16500000000E+09 -4.86402834701E-01 +8.20607199330E-01 +1.00775243870E-04 -2.07565091283E-05 +1.13983195474E-04 -2.91965053624E-05 -6.23767503979E-01 +7.43219157231E-01
1.17000000000E+09 -4.79980093089E-01 +8.23673361745E-01 +1.02353069162E-04 -3.57353000697E-06 +1.07051096151E-04 -6.10817879065E-05 -6.18366331957E-01 +7.46599654259E-01
1.17500000000E+09 -4.72624429457E-01 +8.27245046265E-01 +1.30224742433E-04 -7.64518471576E-06 +1.04093190075E-04 -4.43284092626E-05 -6.12695508676E-01 +7.49807678220E-01
1.18000000000E+09 -4.64873134332E-01 +8.30965304281E-01 +1.20635685722E-04 -9.03348221680E-05 +1.55024379498E-04 -4.96722472937E-05 -6.07449002691E-01 +7.52835319672E-01
1.18500000000E+09 -4.56930528474E-01 +8.34318896169E-01 +1.35641685675E-04 -7.64181910895E-05 +1.30597577886E-04 -7.72838618882E-05 -6.01622391085E-01 +7.55907697774E-01
1.19000000000E+09 -4.49536512217E-01 +8.37065284648E-01 +1.13960105858E-04 -1.41683554644E-04 +1.54532994645E-04 -1.26132924598E-04 -5.95693581571E-01 +7.58386782948E-01
1.19500000000E+09 -4.43082789209E-01 +8.39025066635E-01 +1.70442222975E-04 -1.57633431366E-04 +1.08044629729E-04 -1.90015064582E-04 -5.89711878032E-01 +7.59708979928E-01
1.20000000000E+09 -4.37573322838E-01 +8.39940685111E-01 +7.71359331310E-05 -2.49289552323E-04 +5.44913320556E-05 -2.51139070465E-04 -5.85159153722E-01 +7.59920173675E-01
1.20500000000E+09 -4.32893313822E-01 +8.41422013510E-01 -1.12853762524E-05 -1.96928584665E-04 -1.06630374768E-04 -1.68971293157E-04 -5.82754128347E-01 +7.60824084937E-01
1.21000000000E+09 -4.28034747158E-01 +8.42884708117E-01 -8.02520468364E-05 -1.41049288977E-04 -1.80074555293E-05 -9.05290270475E-05 -5.80707603056E-01 +7.64004817315E-01
1.21500000000E+09 -4.22355483962E-01 +8.44822345210E-01 +2.19641802642E-05 -1.20946574780E-04 -1.70662735058E-05 -1.05519060314E-04 -5.77973535466E-01 +7.68492359846E-01
1.22000000000E+09 -4.15317018908E-01 +8.47304308207E-01 -8.09982108971E-06 -1.22188961687E-04 -8.09729819504E-06 -1.04266310165E-04 -5.73907894975E-01 +7.73863086808E-01
1.22500000000E+09 -4.07057464532E-01 +8.50426373974E-01 -1.93633795754E-05 -1.16636263340E-04 -2.18055556724E-05 -1.66960740774E-04 -5.68887947941E-01 +7.78961408813E-01
1.23000000000E+09 -3.97927743043E-01 +8.53786746744E-01 +1.84373179517E-05 -1.28697674379E-04 +1.12979499544E-06 -1.54799904366E-04 -5.63277040157E-01 +7.83618585480E-01
1.23500000000E+09 -3.88346116959E-01 +8.57647227626E-01 -4.37185864477E-05 -1.51207398440E-04 -7.06568347243E-05 -2.04965933690E-04 -5.57442876963E-01 +7.87919896228E-01
1.24000000000E+09 -3.78680819447E-01 +8.61644821724E-01 -3.36915250765E-05 -1.93073790198E-04 -5.61270947147E-05 -1.56427144164E-04 -5.51462246063E-01 +7.91879252506E-01
1.24500000000E+09 -3.69712335140E-01 +8.65553660630E-01 -1.05446457665E-04 -1.94668327892E-04 -8.97991536046E-05 -1.86996212976E-04 -5.45241149222E-01 +7.95680093978E-01
1.25000000000E+09 -3.61614647117E-01 +8.68463800479E-01 -1.05501617751E-04 -1.71835489154E-04 -1.18300934131E-04 -1.90858374473E-04 -5.38853250283E-01 +7.99947488305E-01
1.25500000000E+09 -3.54584479696E-01 +8.70620437017E-01 -1.07156963567E-04 -1.48373189788E-04 -9.30108770775E-05 -1.49244666713E-04 -5.32159099561E-01 +8.03802189720E-01
1.26000000000E+09 -3.48585489960E-01 +8.72073242357E-01 -9.86109891751E-05 -1.81076000034E-04 -5.32182143120E-05 -2.01161560315E-04 -5.25612415253E-01 +8.08196507875E-01
1.26500000000E+09 -3.42677823689E-01 +8.73273375392E-01 -9.83995273728E-05 -1.85777980360E-04 -1.53777688020E-04 -2.38800940900E-04 -5.18617143859E-01 +8.11983039809E-01
1.27000000000E+09 -3.36391260916E-01 +8.74352563600E-01 -2.22583791228E-04 -2.23847512108E-04 -1.95552413823E-04 -2.03442660138E-04 -5.11690161947E-01 +8.15923990969E-01
1.27500000000E+09 -3.29064728568E-01 +8.75783793717E-01 -2.34476072274E-04 -1.78621329923E-04 -2.41773741549E-04 -2.06944135515E-04 -5.04677237734E-01 +8.19428776987E-01
1.28000000000E+09 -3.19974384528E-01 +8.77506611959E-01 -2.49525745338E-04 -1.61523630339E-04 -2.36462154906E-04 -1.48579684370E-04 -4.97484187446E-01 +8.23145500048E-01
1.28500000000E+09 -3.08948715613E-01 +8.80065370496E-01 -2.79144926254E-04 -1.34676273067E-04 -2.74804382888E-04 -1.53522016894E-04 -4.90063870995E-01 +8.26955072533E-01
1.29000000000E+09 -2.97121539800E-01 +8.82894909090E-01 -2.91992673359E-04 -1.35383636648E-04 -3.68864619191E-04 -1.38609012300E-04 -4.82495087627E-01 +8.30689098447E-01
1.29500000000E+09 -2.84536761056E-01 +8.86203736359E-01 -3.41051654802E-04 -1.27192508622E-04 -3.83728242486E-04 -4.17974743269E-05 -4.74487479342E-01 +8.34226029605E-01
1.30000000000E+09 -2.72386910617E-01 +8.89732394011E-01 -3.80438736187E-04 -8.15556325177E-05 -3.61896078101E-04 -2.20415153997E-05 -4.66704674437E-01 +8.37818822712E-01
1.30500000000E+09 -2.61244382615E-01 +8.92567073754E-01 -4.53901391844E-04 -8.58530401105E-05 -4.00618046219E-04 -1.24254614313E-05 -4.58640674683E-01 +8.41311101782E-01
1.31000000000E+09 -2.51839821157E-01 +8.94644683743E-01 -5.55514313223E-04 +4.30549732845E-05 -4.88957559184E-04 +2.25113165860E-05 -4.50294076446E-01 +8.44849208691E-01
1.31500000000E+09 -2.44417688790E-01 +8.96156016475E-01 -4.79032378639E-04 +9.87161349941E-05 -4.75289669254E-04 +8.18540796007E-05 -4.41587195466E-01 +8.48381589915E-01
1.32000000000E+09 -2.38228671751E-01 +8.96933486530E-01 -4.43890779415E-04 +1.67955664582E-04 -4.94299272440E-04 +1.10404433872E-04 -4.32600670666E-01 +8.51678490676E-01
1.32500000000E+09 -2.32471461654E-01 +8.97111935087E-01 -5.15461765094E-04 +1.64495648901E-04 -5.23171654482E-04 +2.26985148666E-04 -4.23253165552E-01 +8.55039656682E-01
1.33000000000E+09 -2.25799378455E-01 +8.97377287186E-01 -5.49481070035E-04 +2.13797486943E-04 -5.51128030602E-04 +2.99733420440E-04 -4.13785334662E-01 +8.58272875304E-01
1.33500000000E+09 -2.17277341949E-01 +8.97514263346E-01 -5.78102257108E-04 +3.68837769932E-04 -4.98118793555E-04 +4.20672004372E-04 -4.04003067060E-01 +8.61578564782E-01
1.34000000000E+09 -2.06239662036E-01 +8.97853228350E-01 -5.66886226606E-04 +5.16438430261E-04 -4.91539861761E-04 +5.26568162049E-04 -3.93798840329E-01 +8.64743820531E-01
1.34500000000E+09 -1.92604739668E-01 +8.98253317392E-01 -4.68373639638E-04 +5.94706125110E-04 -4.80043810951E-04 +5.84593303292E-04 -3.82978051617E-01 +8.68068171733E-01
1.35000000000E+09 -1.77045812325E-01 +8.98904658672E-01 -3.81974628485E-04 +6.43910437308E-04 -3.82702839817E-04 +6.25150082593E-04 -3.71701975357E-01 +8.71286361962E-01
1.35500000000E+09 -1.60015737995E-01 +8.99573821578E-01 -3.33505804067E-04 +7.08382145026E-04 -3.29140899238E-04 +6.79511387994E-04 -3.60203889457E-01 +8.74102441067E-01
1.36000000000E+09 -1.42968316997E-01 +9.00154738558E-01 -2.66308274002E-04 +7.49261882638E-04 -2.53074047178E-04 +7.54973248335E-04 -3.48337692929E-01 +8.77007662493E-01
1.36500000000E+09 -1.26818493102E-01 +9.00342926418E-01 -2.81810640185E-04 +8.60986007129E-04 -2.58955060541E-04 +8.04503111646E-04 -3.36277336200E-01 +8.79481957598E-01
1.37000000000E+09 -1.12423108000E-01 +8.99991467855E-01 -1.87374561961E-04 +9.71381781571E-04 -2.04772056063E-04 +9.27766432113E-04 -3.23378796747E-01 +8.81943443849E-01
1.37500000000E+09 -9.99614544828E-02 +8.99308107705E-01 +3.58674011776E-06 +1.03074620902E-03 -1.27060115238E-04 +9.86049092795E-04 -3.09475723951E-01 +8.84268891758E-01
1.38000000000E+09 -8.87781950024E-02 +8.98378799249E-01 +4.22588278044E-05 +1.07141235351E-03 -4.50939192087E-05 +1.12926488525E-03 -2.94907931638E-01 +8.86441651527E-01
1.38500000000E+09 -7.72957047311E-02 +8.96874205174E-01 +1.48933179431E-04 +1.12486211992E-03 +5.68520852870E-05 +1.29628620570E-03 -2.79265701610E-01 +8.88426781358E-01
1.39000000000E+09 -6.51606438557E-02 +8.94723029788E-01 +2.75092560169E-04 +1.24697523237E-03 +3.15993222349E-04 +1.42118893322E-03 -2.63465567901E-01 +8.89969693436E-01
1.39500000000E+09 -5.07510692336E-02 +8.91999824480E-01 +4.79565064291E-04 +1.26368723112E-03 +5.97129536804E-04 +1.36732824872E-03 -2.46856898077E-01 +8.90702707015E-01
1.40000000000E+09 -3.38715228287E-02 +8.88184319287E-01 +6.55019583411E-04 +1.40403548578E-03 +7.69644605471E-04 +1.32237899676E-03 -2.29495671372E-01 +8.91144135121E-01
1.40500000000E+09 -1.47661323814E-02 +8.83808879517E-01 +9.67602761178E-04 +1.43743803402E-03 +9.38609107796E-04 +1.33328838845E-03 -2.11093865385E-01 +8.90955863919E-01
1.41000000000E+09 +6.57269275069E-03 +8.78488018322E-01 +1.25514887463E-03 +1.37339884083E-03 +1.25490061598E-03 +1.36390067444E-03 -1.90829387973E-01 +8.90441149620E-01
1.41500000000E+09 +2.90380303169E-02 +8.72244143848E-01 +1.50962721631E-03 +1.28918934965E-03 +1.55818944297E-03 +1.37934797157E-03 -1.69175731310E-01 +8.89024842963E-01
1.42000000000E+09 +5.20619314870E-02 +8.65023867387E-01 +1.75610926090E-03 +1.12650257892E-03 +1.95848916305E-03 +1.27884252570E-03 -1.46127667803E-01 +8.86393507160E-01
1.42500000000E+09 +7.39339517026E-02 +8.56795750135E-01 +1.98775556404E-03 +1.05109974692E-03 +2.25890047103E-03 +1.12303865555E-03 -1.22642572386E-01 +8.82544710842E-01
1.43000000000E+09 +9.52431156412E-02 +8.47524517352E-01 +2.49491360686E-03 +1.00031578931E-03 +2.79088319720E-03 +8.30418806045E-04 -9.79082922746E-02 +8.77831446407E-01
1.43500000000E+09 +1.15851805996E-01 +8.36778505709E-01 +3.06307076861E-03 +5.49121552568E-04 +3.23752216196E-03 +3.06061429261E-04 -7.17109081780E-02 +8.71200148406E-01
1.44000000000E+09 +1.36782244715E-01 +8.24715321443E-01 +3.38120936388E-03 -1.56731561802E-04 +3.37985998732E-03 -4.10430982356E-04 -4.36561658275E-02 +8.62630328773E-01
1.44500000000E+09 +1.59674131676E-01 +8.09910404174E-01 +3.33721109891E-03 -7.99529250069E-04 +3.40583970692E-03 -1.02487265387E-03 -1.33860975546E-02 +8.51202166942E-01
1.45000000000E+09 +1.84103767482E-01 +7.91660583543E-01 +3.23899206516E-03 -1.27940632077E-03 +3.21113467498E-03 -1.47198890817E-03 +1.81436177805E-02 +8.36864219184E-01
1.45500000000E+09 +2.10712509180E-01 +7.69883128411E-01 +3.37654820080E-03 -1.54277743065E-03 +3.25465570851E-03 -1.81309360461E-03 +5.14281870572E-02 +8.19702855013E-01
1.46000000000E+09 +2.40054011968E-01 +7.43924100450E-01 +3.76331018530E-03 -2.07345602471E-03 +3.38933954061E-03 -2.36835391513E-03 +8.60226152487E-02 +7.97918293236E-01
1.46500000000E+09 +2.71112223793E-01 +7.12990553145E-01 +4.09707182168E-03 -3.19152116656E-03 +3.56353455277E-03 -3.12415009516E-03 +1.21789517318E-01 +7.71339439168E-01
1.47000000000E+09 +3.02718947403E-01 +6.77054978308E-01 +3.85988052085E-03 -4.71424541335E-03 +3.61127090215E-03 -4.37715609061E-03 +1.58563867604E-01 +7.37781659099E-01
1.47500000000E+09 +3.33202995851E-01 +6.35644996808E-01 +2.85771810198E-03 -6.10743626799E-03 +2.95789621728E-03 -5.75585301693E-03 +1.95040958453E-01 +6.97360066625E-01
1.48000000000E+09 +3.61249853156E-01 +5.88089245448E-01 +1.67190406166E-03 -6.99459895497E-03 +1.89276921380E-03 -7.05686199982E-03 +2.31476086065E-01 +6.48335515960E-01
1.48500000000E+09 +3.84159149908E-01 +5.33530967902E-01 +3.41911439106E-04 -7.97751777659E-03 +2.35213778189E-04 -8.14440655957E-03 +2.64927065003E-01 +5.90527028598E-01
1.49000000000E+09 +4.01378142336E-01 +4.71874547320E-01 -1.35039024592E-03 -8.76807005346E-03 -1.79413446037E-03 -8.64397989237E-03 +2.93559693295E-01 +5.21793152196E-01
1.49500000000E+09 +4.09930416460E-01 +4.02438351897E-01 -3.98696450624E-03 -9.02884816850E-03 -4.17888676572E-03 -8.44693586751E-03 +3.11904133020E-01 +4.43521519705E-01
1.50000000000E+09 +4.09050432241E-01 +3.24430236996E-01 -6.54776732797E-03 -8.63952715359E-03 -6.20039510877E-03 -8.09440592521E-03 +3.18047249072E-01 +3.56211208324E-01
1.50500000000E+09 +3.94212555738E-01 +2.38299959547E-01 -9.27578238242E-03 -7.18821706811E-03 -8.64274002828E-03 -7.17416671426E-03 +3.09250368208E-01 +2.60748565372E-01
1.51000000000E+09 +3.63296674704E-01 +1.48572919482E-01 -1.14740811283E-02 -4.34919824842E-03 -1.11508856885E-02 -4.71498938048E-03 +2.79172354493E-01 +1.59119613913E-01
1.51500000000E+09 +3.13328616604E-01 +5.81617021194E-02 -1.27750358394E-02 -1.83921028867E-03 -1.27930680993E-02 -2.18958786483E-03 +2.24856930371E-01 +6.31132809129E-02
1.52000000000E+09 +2.43079570200E-01 -2.32296875624E-02 -1.42519397531E-02 +1.70680066195E-03 -1.44134629687E-02 +1.56434992987E-03 +1.51670523653E-01 -2.30267315226E-02
1.52500000000E+09 +1.56241275529E-01 -8.94089843429E-02 -1.31824581569E-02 +7.57255287878E-03 -1.33398527568E-02 +7.51684667539E-03 +5.90859179161E-02 -9.32754939884E-02
1.53000000000E+09 +5.71285653406E-02 -1.35191552015E-01 -8.82268839501E-03 +1.01418909035E-02 -8.94845072029E-03 +1.02063350483E-02 -4.70856696070E-02 -1.39709033957E-01
1.53500000000E+09 -4.98472581235E-02 -1.57790972270E-01 -6.10210466227E-03 +1.16679773003E-02 -6.09210764388E-03 +1.16370618114E-02 -1.57539207569E-01 -1.62508329439E-01
1.54000000000E+09 -1.58807306375E-01 -1.54211008617E-01 -2.61891871257E-03 +1.20062857339E-02 -2.64979145245E-03 +1.18374467495E-02 -2.66440465772E-01 -1.61517036492E-01
1.54500000000E+09 -2.59596885737E-01 -1.28427063259E-01 +6.67086817139E-04 +1.17905189597E-02 +3.85750560552E-04 +1.17306714290E-02 -3.65788848237E-01 -1.41211485634E-01
1.55000000000E+09 -3.51361113350E-01 -8.61303414326E-02 +2.92376703934E-03 +1.05535469783E-02 +2.48680076970E-03 +1.06519680070E-02 -4.53586766473E-01 -1.05123167624E-01
1.55500000000E+09 -4.28665600421E-01 -3.07106557834E-02 +5.72721999871E-03 +9.07056438277E-03 +5.49008894041E-03 +9.54103767222E-03 -5.26009560458E-01 -5.81401340285E-02
1.56000000000E+09 -4.90040243591E-01 +2.84916681692E-02 +7.05810621373E-03 +5.93808532798E-03 +7.19496384269E-03 +6.41589981238E-03 -5.85034279077E-01 -5.10173223342E-03
1.56500000000E+09 -5.38970506924E-01 +8.84249712401E-02 +6.71174925001E-03 +4.08578034078E-03 +7.10408266210E-03 +4.41241984609E-03 -6.30029225329E-01 +5.10866193018E-02
1.57000000000E+09 -5.76252933149E-01 +1.46697617334E-01 +6.73232567363E-03 +2.59026194133E-03 +7.19879070731E-03 +2.72002202902E-03 -6.64375122535E-01 +1.05538416830E-01
