# Hz S RI R 50
! CMT, C1220, 16058040, 17.2.0/1
! Date: 14/08/2018 12:11:40
! Data: Format (Calibration Info)
! Freq                      S11: Re/Im (F2)                       S21: Re/Im (F2)                       S12: Re/Im (F2)                       S22: Re/Im (F2)            
1.00000000000E+09 -6.44066298257E-01 +7.14883429310E-01 -1.49302359660E-05 -2.45306845510E-05 +1.34582988395E-05 +3.93549051621E-05 -7.53512829508E-01 +6.25279802476E-01
1.00500000000E+09 -6.36805996207E-01 +7.19907162469E-01 +3.23154030621E-05 +4.10306634927E-05 -4.60204604240E-05 +1.99717373954E-05 -7.49896973829E-01 +6.29227382103E-01
1.01000000000E+09 -6.30940084786E-01 +7.24590539476E-01 +3.94690345181E-05 -1.31490939335E-05 -2.79562563886E-05 -1.50061244878E-05 -7.46234920585E-01 +6.32968970094E-01
1.01500000000E+09 -6.27135481950E-01 +7.28363144768E-01 +6.47814539957E-07 -1.80890276319E-05 -8.53792396729E-06 +3.78320285675E-07 -7.42953885312E-01 +6.36571141540E-01
1.02000000000E+09 -6.24944471309E-01 +7.31400680043E-01 -1.56535450394E-05 +2.75013388823E-05 -2.50839952016E-05 +1.07344935330E-05 -7.39471278346E-01 +6.40278845237E-01
1.02500000000E+09 -6.23822161238E-01 +7.33894040319E-01 -1.97727013103E-05 -1.95243598714E-05 +1.19947404539E-05 +5.13354642950E-05 -7.36574527730E-01 +6.43969483802E-01
1.03000000000E+09 -6.23151140704E-01 +7.35823923109E-01 -2.74187375619E-05 +4.23300886988E-06 -2.35168028628E-05 +2.16583711150E-05 -7.33122333250E-01 +6.47738080495E-01
1.03500000000E+09 -6.21517259473E-01 +7.37796837236E-01 -1.65433083650E-05 +1.13908961099E-06 -3.80958330141E-05 +6.89277980752E-06 -7.29307182994E-01 +6.51793622124E-01
1.04000000000E+09 -6.18252467013E-01 +7.40219172405E-01 -1.89829398984E-05 +4.34637701229E-05 +5.45232499265E-05 +1.97442241301E-05 -7.25540390864E-01 +6.55328175286E-01
1.04500000000E+09 -6.12969361411E-01 +7.43515303707E-01 +2.60157540207E-06 -5.03292914515E-06 -7.78425591109E-06 +5.26249750206E-05 -7.21929088847E-01 +6.58861945609E-01
1.05000000000E+09 -6.05495192251E-01 +7.47645378403E-01 +5.61329159654E-05 +2.04347766034E-05 -5.43024913736E-05 -9.03521882408E-06 -7.18564700698E-01 +6.62312383060E-01
1.05500000000E+09 -5.96467581860E-01 +7.52412953568E-01 -1.59283011633E-05 +1.92159044805E-05 +2.88424169571E-05 +5.49767778033E-05 -7.15235583497E-01 +6.65890950625E-01
1.06000000000E+09 -5.86736378611E-01 +7.57630358420E-01 -1.10830577721E-05 -1.25634063510E-05 +2.58823769150E-05 +5.27382409463E-06 -7.12137301085E-01 +6.69960744642E-01
1.06500000000E+09 -5.77690669702E-01 +7.63064634483E-01 -2.58450315575E-05 -4.48509045577E-06 -2.57337813941E-05 +6.35065147316E-06 -7.08389680272E-01 +6.73450405050E-01
1.07000000000E+09 -5.69810579861E-01 +7.67499515536E-01 -7.17039103179E-06 +1.57290248721E-05 -5.07273935870E-05 +2.59306722275E-05 -7.04286627362E-01 +6.77169201563E-01
1.07500000000E+09 -5.63841537423E-01 +7.71591359697E-01 -3.53321651256E-06 +1.57145226271E-05 -2.66581633525E-06 +2.38984394966E-05 -6.99962074932E-01 +6.80742344435E-01
1.08000000000E+09 -5.60083450260E-01 +7.74791396324E-01 +1.65612504842E-05 +6.28407270223E-07 +3.98013196819E-05 +1.18203530610E-05 -6.95964286212E-01 +6.84746198226E-01
1.08500000000E+09 -5.58083795255E-01 +7.77247868265E-01 +2.39073521973E-05 +2.25946810966E-05 +5.27660734027E-05 +1.63817680635E-05 -6.92016822134E-01 +6.88426982990E-01
1.09000000000E+09 -5.56547029920E-01 +7.79155569513E-01 +6.04265890738E-05 +4.75122717539E-05 +4.37400170624E-05 -5.95496104174E-06 -6.88006034648E-01 +6.92297268629E-01
1.09500000000E+09 -5.55330615749E-01 +7.80650918556E-01 +1.48521771536E-05 +1.53066257212E-05 +4.38585946153E-05 +2.99235265201E-06 -6.84255527357E-01 +6.96129524671E-01
1.10000000000E+09 -5.52714980937E-01 +7.82497785459E-01 +3.32368658243E-05 +8.84930109715E-06 +1.56568370003E-05 +3.77659801666E-05 -6.80286838994E-01 +6.99877257447E-01
1.10500000000E+09 -5.48579171191E-01 +7.84908207050E-01 +2.76151928693E-05 -1.03431577878E-05 -2.29187562450E-05 -1.64029210238E-06 -6.76128710588E-01 +7.03685844529E-01
1.11000000000E+09 -5.42466433116E-01 +7.88158765565E-01 +4.61676523229E-05 -3.46628032315E-05 +5.10794602853E-05 +1.04493181057E-05 -6.71781241983E-01 +7.07015454552E-01
1.11500000000E+09 -5.34755522099E-01 +7.91925909178E-01 +3.29620623402E-05 +8.48088729299E-06 +2.03359520374E-05 -4.89427491150E-05 -6.67706445209E-01 +7.10306968442E-01
1.12000000000E+09 -5.26392814460E-01 +7.96015999134E-01 +2.37173040029E-05 +9.59834824642E-07 +2.89714069230E-06 +2.84229470241E-05 -6.63630690120E-01 +7.14121295934E-01
1.12500000000E+09 -5.17883056921E-01 +8.00252086294E-01 +4.74576790929E-05 -7.06795535004E-06 +4.70996304619E-05 +1.12438620519E-05 -6.59386813315E-01 +7.18079698867E-01
1.13000000000E+09 -5.10358827348E-01 +8.04172980688E-01 +2.62133434652E-06 +1.80106336972E-08 +1.45542098695E-05 +1.89687040977E-05 -6.55173636913E-01 +7.21837606287E-01
1.13500000000E+09 -5.04240158948E-01 +8.07341397011E-01 +4.31008016057E-06 +6.03123573993E-06 -2.65260416477E-07 +9.55232701188E-06 -6.50573566020E-01 +7.25525065591E-01
1.14000000000E+09 -4.99469278526E-01 +8.10011433493E-01 +3.32628544029E-05 +7.37789468179E-06 +2.66857426572E-05 -6.00077230435E-06 -6.45993643613E-01 +7.29063393641E-01
1.14500000000E+09 -4.96189954452E-01 +8.11889916102E-01 +3.59309350647E-05 +3.53259719529E-05 +4.54059546186E-05 +7.38869086232E-06 -6.41372676180E-01 +7.32354472065E-01
1.15000000000E+09 -4.93019018112E-01 +8.13256823922E-01 +1.11305897697E-05 +1.05033715448E-05 +4.85884473646E-05 -1.32359923390E-05 -6.36674647379E-01 +7.36191777169E-01
1.15500000000E+09 -4.90011705891E-01 +8.14874402632E-01 -1.16013737680E-05 -5.01979405951E-05 +3.75998157788E-05 +5.92181300826E-06 -6.31898195102E-01 +7.39978340739E-01
1.16000000000E+09 -4.85725018199E-01 +8.16606278927E-01 +3.41188447461E-05 -1.33112268410E-05 +2.17202336354E-05 -3.00886519091E-05 -6.27064288256E-01 +7.43787070448E-01
1.16500000000E+09 -4.80010400777E-01 +8.18997106932E-01 +7.88520609415E-06 +3.17564484402E-05 -2.50963953792E-05 -9.19357304475E-05 -6.21915801141E-01 +7.47462631387E-01
1.17000000000E+09 -4.72856607744E-01 +8.21877264265E-01 +2.89763361089E-05 -4.43017362118E-07 +8.23169743066E-06 +9.74166502446E-06 -6.16540090448E-01 +7.50891917400E-01
1.17500000000E+09 -4.64393443680E-01 +8.25098509489E-01 +1.30276739589E-05 +5.96326763242E-06 +7.88731963738E-07 -3.62142423268E-05 -6.10777704136E-01 +7.54109011057E-01
1.18000000000E+09 -4.55870970551E-01 +8.28742865641E-01 +4.38811703740E-05 -4.03639680267E-05 +3.63131358043E-06 +1.20300129681E-06 -6.05153643441E-01 +7.57133675464E-01
1.18500000000E+09 -4.47579717253E-01 +8.32134537249E-01 +3.05954575166E-05 +3.26089709339E-05 +2.37582938268E-05 -5.37281229110E-05 -5.99151749878E-01 +7.60267518570E-01
1.19000000000E+09 -4.40206426689E-01 +8.34822717063E-01 +3.98405101191E-05 -1.45188943049E-05 +1.11739210263E-04 +7.69250650623E-06 -5.92899625143E-01 +7.62918835812E-01
1.19500000000E+09 -4.34351992525E-01 +8.36999681644E-01 +7.78753169247E-05 -2.20746120363E-05 +7.67064071180E-05 -6.75834141020E-05 -5.86930513170E-01 +7.63975629067E-01
1.20000000000E+09 -4.29940233467E-01 +8.38115360758E-01 +5.96620237779E-05 -9.58349758411E-05 +1.40782488183E-04 -1.33670387821E-04 -5.82416463193E-01 +7.64281924686E-01
1.20500000000E+09 -4.26068735388E-01 +8.39336804889E-01 +1.07587014000E-05 -5.70164508253E-05 -2.22265867444E-05 -4.97810586889E-05 -5.80295626030E-01 +7.65229728702E-01
1.21000000000E+09 -4.21983622150E-01 +8.40262162861E-01 +3.37367915060E-05 -3.88108480955E-05 +4.62511627298E-05 -8.97803126323E-05 -5.78454297164E-01 +7.68234896130E-01
1.21500000000E+09 -4.16729581471E-01 +8.41685351740E-01 -2.35763573933E-05 -9.99083869385E-05 +5.38954218225E-06 -9.28278548493E-05 -5.75691275158E-01 +7.72789347347E-01
1.22000000000E+09 -4.09497015189E-01 +8.43418982209E-01 -2.76664766475E-05 -5.45820681430E-05 -4.63627567000E-05 -1.13711640227E-04 -5.71439877886E-01 +7.78052264255E-01
1.22500000000E+09 -4.00580687569E-01 +8.45831497359E-01 +4.75910168063E-05 -5.47146461550E-05 +3.11196961387E-06 -8.45395126985E-05 -5.66323741262E-01 +7.83132022593E-01
1.23000000000E+09 -3.90042205899E-01 +8.48801416146E-01 -5.38033376231E-06 -4.16189110895E-05 -3.36884145027E-05 -1.22399229653E-04 -5.60641710028E-01 +7.88022245974E-01
1.23500000000E+09 -3.78817766048E-01 +8.52416976287E-01 +5.30410739088E-06 -8.69929241344E-05 -3.47164614877E-05 -1.03807016434E-04 -5.54783173814E-01 +7.92309040945E-01
1.24000000000E+09 -3.67586751469E-01 +8.56254397350E-01 -3.72918747970E-05 -8.84020288088E-05 -3.43672704939E-06 -5.09172685663E-05 -5.48704776294E-01 +7.96174358705E-01
1.24500000000E+09 -3.57484722759E-01 +8.60247742871E-01 +7.49884392798E-06 -1.04619792171E-04 +2.55246217184E-05 -1.19672277537E-04 -5.42338778236E-01 +7.99924533210E-01
1.25000000000E+09 -3.48846771542E-01 +8.63741782337E-01 -3.88442394383E-05 -1.06828340140E-04 -3.08979173428E-05 -8.97248385046E-05 -5.35825094846E-01 +8.04308304129E-01
1.25500000000E+09 -3.42116351460E-01 +8.66114147975E-01 -7.78745903471E-05 -1.45926899833E-04 -7.89199527391E-05 -9.50499485938E-05 -5.28981052794E-01 +8.08225663474E-01
1.26000000000E+09 -3.36960693725E-01 +8.67997632649E-01 -7.17548435129E-05 -1.22744971534E-04 -1.28410957043E-04 -1.19794314905E-04 -5.22221128019E-01 +8.12500671410E-01
1.26500000000E+09 -3.32757974033E-01 +8.69404581635E-01 -1.18674885883E-04 -1.08461266533E-04 -1.30607463650E-04 -1.01266664437E-04 -5.15255672419E-01 +8.16348034640E-01
1.27000000000E+09 -3.28065422916E-01 +8.70329501437E-01 -1.21814407032E-04 -1.50512795237E-04 -2.01916105481E-04 -8.90981466090E-05 -5.08252701374E-01 +8.20154813498E-01
1.27500000000E+09 -3.22398458800E-01 +8.71498637684E-01 -1.37380537644E-04 -5.06859929983E-05 -1.36958278607E-04 -1.03974668453E-04 -5.01232513809E-01 +8.23776069901E-01
1.28000000000E+09 -3.14614262865E-01 +8.73049004672E-01 -1.68529201520E-04 -8.53724832319E-05 -1.69036763338E-04 -6.33172930434E-05 -4.94379250498E-01 +8.27251516260E-01
1.28500000000E+09 -3.04448581983E-01 +8.74872830609E-01 -1.65339907902E-04 -7.93063876735E-05 -1.78576766981E-04 -9.06020696654E-05 -4.86887964592E-01 +8.30969171442E-01
1.29000000000E+09 -2.92693749344E-01 +8.77458127995E-01 -1.77171426603E-04 -4.35283255069E-05 -1.46529690445E-04 +5.24971534664E-06 -4.79410890268E-01 +8.34617117485E-01
1.29500000000E+09 -2.79820882777E-01 +8.80677144227E-01 -1.56031077244E-04 -3.91601477986E-05 -1.77862592999E-04 +3.14261521613E-05 -4.71471146615E-01 +8.38135019572E-01
1.30000000000E+09 -2.66856827687E-01 +8.84063544485E-01 -2.08090126188E-04 -3.43957340409E-05 -2.24227100735E-04 -9.04476966119E-06 -4.63613410368E-01 +8.41692993663E-01
1.30500000000E+09 -2.55108174076E-01 +8.87271471229E-01 -2.12288339161E-04 -7.45104613180E-06 -1.66018678907E-04 +4.11445295636E-05 -4.55520091892E-01 +8.45192722110E-01
1.31000000000E+09 -2.45142152318E-01 +8.89605571021E-01 -2.12765313920E-04 +6.32142107495E-05 -1.93441407637E-04 +9.75981870870E-05 -4.47177574046E-01 +8.48420427064E-01
1.31500000000E+09 -2.37484819884E-01 +8.91429813646E-01 -1.88067544138E-04 +1.10418893474E-04 -2.01972951954E-04 +1.14006174837E-04 -4.38308493928E-01 +8.51991462200E-01
1.32000000000E+09 -2.31476850720E-01 +8.92536983186E-01 -1.77510131254E-04 +1.06413723262E-04 -1.12553361536E-04 +1.05616988947E-04 -4.29206907512E-01 +8.55377815396E-01
1.32500000000E+09 -2.26125704782E-01 +8.92744509877E-01 -1.66511946046E-04 +1.02924080911E-04 -1.65019628425E-04 +6.89641934141E-05 -4.19560674635E-01 +8.58664581206E-01
1.33000000000E+09 -2.19969147426E-01 +8.92590429677E-01 -1.70055003447E-04 +9.32451860844E-05 -2.47453530337E-04 +1.42579717417E-04 -4.09903416741E-01 +8.62151173206E-01
1.33500000000E+09 -2.12107683712E-01 +8.92033529683E-01 -2.18663712310E-04 +1.54959292524E-04 -1.89073999060E-04 +1.39288728797E-04 -3.99932679283E-01 +8.65429829270E-01
1.34000000000E+09 -2.01377150640E-01 +8.91557589979E-01 -1.70530914844E-04 +2.14396094876E-04 -1.32279247498E-04 +2.34268720759E-04 -3.89840666901E-01 +8.68651052822E-01
1.34500000000E+09 -1.87777324613E-01 +8.91105264749E-01 -1.66263844306E-04 +2.39818306121E-04 -9.41858535120E-05 +2.01210954460E-04 -3.78959856095E-01 +8.72055763468E-01
1.35000000000E+09 -1.71939013760E-01 +8.90954719414E-01 -1.67005458488E-04 +1.85701747193E-04 -1.46559628178E-04 +1.94668886347E-04 -3.67689108368E-01 +8.75029595894E-01
1.35500000000E+09 -1.54480032020E-01 +8.91025494295E-01 -1.58932127982E-04 +2.53640468517E-04 -1.15290734781E-04 +2.09504001325E-04 -3.56262429254E-01 +8.77988090807E-01
1.36000000000E+09 -1.37162052884E-01 +8.91338540704E-01 -1.54144790189E-04 +2.54562257353E-04 -1.36072406102E-04 +2.46762784377E-04 -3.44321353443E-01 +8.80690738609E-01
1.36500000000E+09 -1.20741455759E-01 +8.91848567208E-01 -1.04025975663E-04 +2.79977987739E-04 -1.13337611602E-04 +3.15488077487E-04 -3.32045497411E-01 +8.83077790318E-01
1.37000000000E+09 -1.06361856556E-01 +8.91980919411E-01 -9.92779907620E-05 +3.47329507177E-04 -1.11546459704E-04 +2.90849555045E-04 -3.19204594069E-01 +8.85502134481E-01
1.37500000000E+09 -9.42635332071E-02 +8.91834214135E-01 -9.07828081992E-05 +4.23651119187E-04 -1.58225950338E-04 +3.77239794005E-04 -3.05590428115E-01 +8.87824922176E-01
1.38000000000E+09 -8.38182927584E-02 +8.91377001684E-01 +8.21029316133E-05 +4.61409270055E-04 -4.17637185430E-05 +4.88982773979E-04 -2.90868820790E-01 +8.89926396975E-01
1.38500000000E+09 -7.36649430728E-02 +8.90271265271E-01 +1.06526291844E-04 +4.20145666217E-04 +1.39356469622E-04 +5.22119342228E-04 -2.75262181512E-01 +8.91816798614E-01
1.39000000000E+09 -6.27472152202E-02 +8.88342151475E-01 +1.40085021490E-04 +4.05087729079E-04 +1.86147202452E-04 +4.21452326164E-04 -2.59417261227E-01 +8.93231020087E-01
1.39500000000E+09 -4.95755817904E-02 +8.85324166141E-01 +2.18997910686E-04 +4.54094621111E-04 +2.94916285431E-04 +4.82089744716E-04 -2.42494715086E-01 +8.94110740169E-01
1.40000000000E+09 -3.32200270091E-02 +8.81353146889E-01 +3.69209512438E-04 +4.15419075017E-04 +3.67245723997E-04 +3.74844886264E-04 -2.24832375637E-01 +8.94630831515E-01
1.40500000000E+09 -1.42891660031E-02 +8.76506304060E-01 +3.53183115213E-04 +2.82220922787E-04 +3.43774956369E-04 +2.78774854815E-04 -2.06141536715E-01 +8.94371463461E-01
1.41000000000E+09 +7.13679922586E-03 +8.70855563407E-01 +3.00260068347E-04 +3.37950251169E-04 +3.44278863914E-04 +3.22810363602E-04 -1.85805086250E-01 +8.93712982795E-01
1.41500000000E+09 +2.98947466148E-02 +8.64506301781E-01 +3.70155097331E-04 +2.90003184729E-04 +3.78644129255E-04 +3.26815250246E-04 -1.64032981442E-01 +8.92195720127E-01
1.42000000000E+09 +5.30451147110E-02 +8.57837830702E-01 +4.18416307399E-04 +2.99787837563E-04 +4.93239648015E-04 +3.64654074971E-04 -1.41385484859E-01 +8.89386641146E-01
1.42500000000E+09 +7.54928796011E-02 +8.50696416961E-01 +5.06995607704E-04 +2.39750052792E-04 +6.00450888545E-04 +2.53365159418E-04 -1.17661656885E-01 +8.85955097290E-01
1.43000000000E+09 +9.65102242471E-02 +8.42629862711E-01 +4.58493004771E-04 +1.49539932980E-04 +5.48268959801E-04 +1.87754092957E-04 -9.26575852538E-02 +8.81199707180E-01
1.43500000000E+09 +1.16504718628E-01 +8.33289959842E-01 +5.26786365217E-04 +2.31679818547E-04 +6.14484416240E-04 +2.43141170884E-04 -6.62394104715E-02 +8.74586374074E-01
1.44000000000E+09 +1.36114616867E-01 +8.22859765767E-01 +5.27297944446E-04 +1.01938931072E-04 +5.98687590120E-04 +1.26807642671E-05 -3.79989844155E-02 +8.65664139498E-01
1.44500000000E+09 +1.56984050044E-01 +8.09790270512E-01 +5.56941271140E-04 +1.70870329483E-04 +5.32778938003E-04 +9.45199773745E-05 -8.14328497632E-03 +8.54148539834E-01
1.45000000000E+09 +1.79857108778E-01 +7.93151135622E-01 +6.01883856380E-04 +2.14764671877E-04 +6.62642793830E-04 +2.08547187153E-04 +2.37113933216E-02 +8.39841268489E-01
1.45500000000E+09 +2.05431031229E-01 +7.72611341736E-01 +7.49207563570E-04 +1.75722654769E-04 +7.52032194974E-04 +1.56604523492E-04 +5.74646901310E-02 +8.22341942869E-01
1.46000000000E+09 +2.34213512802E-01 +7.47058615273E-01 +8.81121629428E-04 +2.73125187098E-04 +8.42632775209E-04 +1.40721926796E-04 +9.24758048176E-02 +8.00073783228E-01
1.46500000000E+09 +2.65556884029E-01 +7.16613686632E-01 +1.14666613399E-03 +2.83811416534E-04 +1.02784729715E-03 +1.67849698105E-04 +1.27975038706E-01 +7.73370395470E-01
1.47000000000E+09 +2.98187416404E-01 +6.80778248127E-01 +1.63572117485E-03 +2.35182063524E-04 +1.47554862246E-03 +2.10676688793E-04 +1.65131149403E-01 +7.40315239134E-01
1.47500000000E+09 +3.30135816903E-01 +6.39309115050E-01 +1.98597820221E-03 -3.78824980117E-04 +1.93716798935E-03 -2.49417683069E-04 +2.02968617235E-01 +6.99598234432E-01
1.48000000000E+09 +3.59460633178E-01 +5.92397075390E-01 +2.05795535034E-03 -8.48857832688E-04 +2.06919708721E-03 -7.68233099069E-04 +2.40327995831E-01 +6.49891138318E-01
1.48500000000E+09 +3.84614501390E-01 +5.39512756280E-01 +2.23332025886E-03 -1.41160705814E-03 +2.30867517743E-03 -1.43321699268E-03 +2.74609957327E-01 +5.90589279349E-01
1.49000000000E+09 +4.03463500113E-01 +4.80070623546E-01 +1.97377333081E-03 -2.10412708875E-03 +1.87366417568E-03 -2.13681289678E-03 +3.02921511723E-01 +5.20681343041E-01
1.49500000000E+09 +4.15294772744E-01 +4.13329783081E-01 +2.27054835661E-03 -2.68404885492E-03 +2.08581829657E-03 -2.59982830003E-03 +3.22427829415E-01 +4.40677661888E-01
1.50000000000E+09 +4.16974175633E-01 +3.36945522728E-01 +1.83338701603E-03 -4.38979919492E-03 +1.74631526980E-03 -4.11397620838E-03 +3.28144736685E-01 +3.49765040934E-01
1.50500000000E+09 +4.05735413660E-01 +2.52687709957E-01 +9.66191442385E-05 -5.39019088390E-03 +2.43879396571E-04 -5.10527200310E-03 +3.15881135477E-01 +2.52020799884E-01
1.51000000000E+09 +3.78493855506E-01 +1.62086272985E-01 -1.54792782606E-03 -5.46002067087E-03 -1.30636849819E-03 -5.44926209345E-03 +2.82894107759E-01 +1.51523989146E-01
1.51500000000E+09 +3.32171007899E-01 +7.05243933375E-02 -3.65254310941E-03 -5.52791381521E-03 -3.50462490402E-03 -5.71575561792E-03 +2.28330971294E-01 +5.32617868057E-02
1.52000000000E+09 +2.66794138909E-01 -1.57103422875E-02 -5.62426697727E-03 -3.54935495375E-03 -5.61925307674E-03 -3.70030677769E-03 +1.50044314936E-01 -3.38464143838E-02
1.52500000000E+09 +1.82206257032E-01 -8.94429552278E-02 -6.06248886986E-03 -1.99122020837E-03 -6.09835081401E-03 -2.08983693409E-03 +5.37374750245E-02 -1.00978284816E-01
1.53000000000E+09 +8.19761500181E-02 -1.43442280275E-01 -6.57944226230E-03 -3.04637897763E-04 -6.64056850230E-03 -3.01543274841E-04 -5.32121860840E-02 -1.45848687485E-01
1.53500000000E+09 -2.80604524811E-02 -1.71941045732E-01 -6.40360928861E-03 +1.80212164850E-03 -6.41449499142E-03 +1.85062427407E-03 -1.66078917579E-01 -1.66117767905E-01
1.54000000000E+09 -1.40196745077E-01 -1.72733671344E-01 -5.50799274210E-03 +3.18762516223E-03 -5.50326725924E-03 +3.14761597886E-03 -2.75058045072E-01 -1.61375967434E-01
1.54500000000E+09 -2.45931000749E-01 -1.49132879366E-01 -4.49402789022E-03 +5.06036858977E-03 -4.55369997573E-03 +4.94730364263E-03 -3.73855260391E-01 -1.37903841155E-01
1.55000000000E+09 -3.42498635400E-01 -1.06592431605E-01 -2.31194912193E-03 +5.63230695676E-03 -2.50721126489E-03 +5.55373577425E-03 -4.59395512727E-01 -9.96762844737E-02
1.55500000000E+09 -4.24040245104E-01 -4.93649247988E-02 -7.45256872686E-04 +5.58796806357E-03 -1.02556949037E-03 +5.70452158469E-03 -5.30484968494E-01 -5.17647628419E-02
1.56000000000E+09 -4.89127879182E-01 +1.34979120429E-02 +7.41920704334E-04 +5.37189029442E-03 +5.74571927988E-04 +5.60322339553E-03 -5.87278295400E-01 +1.80405427478E-03
1.56500000000E+09 -5.40251281410E-01 +7.61765062140E-02 +2.13280798764E-03 +4.29793750955E-03 +2.23426622743E-03 +4.67230220310E-03 -6.31495639756E-01 +5.78455127409E-02
1.57000000000E+09 -5.79840521594E-01 +1.37371153273E-01 +2.71279001189E-03 +2.90668103484E-03 +2.97057203273E-03 +3.09263323338E-03 -6.64840175331E-01 +1.12823735862E-01
