# Hz S RI R 50
! CMT, C1220, 16058040, 17.2.0/1
! Date: 14/08/2018 12:56:37
! Data: Format (Calibration Info)
! Freq                      S11: Re/Im (F2)                       S21: Re/Im (F2)                       S12: Re/Im (F2)                       S22: Re/Im (F2)            
1.00000000000E+09 -6.46870135132E-01 +7.13320266102E-01 +3.60824781125E-05 +2.83216622722E-05 -1.31502762337E-05 -5.63733683334E-06 -7.19055804961E-01 +6.45771076668E-01
1.00500000000E+09 -6.40408171556E-01 +7.18023651460E-01 +3.62016146169E-05 +6.45872029190E-05 +1.30962447322E-05 +6.33709023748E-05 -7.15107290199E-01 +6.49662052035E-01
1.01000000000E+09 -6.34547725015E-01 +7.22418851061E-01 +1.55257360816E-05 -1.35172465168E-07 -1.01840564528E-05 -2.62159792220E-05 -7.11518305658E-01 +6.53218457227E-01
1.01500000000E+09 -6.29719517158E-01 +7.26177324060E-01 -5.44990531661E-05 +2.29190157946E-05 -3.59818644760E-05 +3.40400914357E-05 -7.07958510781E-01 +6.56702440314E-01
1.02000000000E+09 -6.25659387942E-01 +7.29924076445E-01 +3.67546129382E-05 +5.98086136731E-05 +2.97171245115E-05 +6.03270888210E-05 -7.04587213513E-01 +6.60172500201E-01
1.02500000000E+09 -6.22324304796E-01 +7.33171309689E-01 +3.91119621537E-05 -6.42640523887E-06 +3.02023446162E-05 -3.66304136823E-06 -7.01638153250E-01 +6.63593843513E-01
1.03000000000E+09 -6.19139015267E-01 +7.36092019299E-01 -4.08900124149E-05 +5.15615962466E-05 +1.08860420441E-06 +4.76558893475E-05 -6.97910986816E-01 +6.67414515430E-01
1.03500000000E+09 -6.15383571159E-01 +7.39180194130E-01 -7.38576061504E-07 +4.60270809398E-05 -1.81779162350E-05 +2.66660866275E-05 -6.93876072548E-01 +6.71317809072E-01
1.04000000000E+09 -6.10799636602E-01 +7.42416964439E-01 +1.16584824449E-05 +3.18368070394E-05 +2.19705064046E-05 +1.05867953047E-05 -6.89788655275E-01 +6.74735130725E-01
1.04500000000E+09 -6.05232193044E-01 +7.46152865113E-01 +2.99542475245E-05 +5.19112377168E-05 -2.54746003751E-05 +2.94751448636E-05 -6.86096075956E-01 +6.78185406798E-01
1.05000000000E+09 -5.98299844214E-01 +7.50194876763E-01 +8.81861386758E-06 +9.76167081370E-06 +8.13663172040E-05 +1.08470340449E-04 -6.82546256288E-01 +6.81388188870E-01
1.05500000000E+09 -5.90529707788E-01 +7.54460648122E-01 -2.54494996759E-05 +1.88834089343E-05 +5.72264380108E-05 +4.54433515453E-05 -6.79130541023E-01 +6.85052030193E-01
1.06000000000E+09 -5.82526123468E-01 +7.59157188476E-01 -2.28035898521E-05 +1.05263587652E-05 +3.14177935589E-05 +9.43335017435E-06 -6.75405551973E-01 +6.88683584528E-01
1.06500000000E+09 -5.74537176367E-01 +7.63924293330E-01 +4.01913363546E-05 +4.29302357000E-05 -1.14147408995E-05 +3.91840760610E-05 -6.71510803626E-01 +6.92447404915E-01
1.07000000000E+09 -5.67356188224E-01 +7.67770007545E-01 -1.59752323516E-05 +6.67819981528E-05 +2.75028392243E-05 +5.13513701710E-05 -6.67236097636E-01 +6.95981509990E-01
1.07500000000E+09 -5.61071724502E-01 +7.71656006956E-01 -2.82750007056E-05 +5.35247474603E-05 -2.30783133170E-05 +1.62381751207E-05 -6.62648985467E-01 +6.99547998720E-01
1.08000000000E+09 -5.56179317438E-01 +7.74997330956E-01 +3.48383446633E-05 +2.87838228768E-06 +1.41411676147E-06 +5.76881199491E-05 -6.58690847741E-01 +7.03057965225E-01
1.08500000000E+09 -5.52369270777E-01 +7.77677863595E-01 +4.40093525981E-05 +4.09658944635E-05 +2.22956301611E-05 +5.73958216520E-05 -6.54660926594E-01 +7.06437572389E-01
1.09000000000E+09 -5.48778077116E-01 +7.80024211729E-01 -3.03165151285E-05 +4.43122003306E-05 +9.91321802434E-05 +3.32032987908E-05 -6.50685630341E-01 +7.10251939150E-01
1.09500000000E+09 -5.45989626447E-01 +7.82123209044E-01 +3.56056549779E-05 +3.70075692259E-05 +8.22880663564E-05 +3.46066060351E-05 -6.46800730952E-01 +7.13846322883E-01
1.10000000000E+09 -5.42180130808E-01 +7.84383611412E-01 +5.33005936726E-05 +1.67210583659E-05 +3.95194020125E-05 +4.41148387326E-05 -6.42476702494E-01 +7.17526024554E-01
1.10500000000E+09 -5.37951716233E-01 +7.87126442079E-01 +5.02543024476E-05 +3.45526054179E-05 +2.00340830466E-05 +1.98155549437E-05 -6.38092513004E-01 +7.20843680592E-01
1.11000000000E+09 -5.32639526224E-01 +7.90194604517E-01 +1.84198358526E-05 +2.10563137272E-05 +5.08353442760E-05 +9.52692206198E-06 -6.33913740805E-01 +7.23908637228E-01
1.11500000000E+09 -5.26047535483E-01 +7.93607764149E-01 +5.71250452899E-05 +1.88799536312E-05 +1.13569828315E-04 -1.95713684436E-05 -6.29773448138E-01 +7.27298651843E-01
1.12000000000E+09 -5.19162012470E-01 +7.97239813972E-01 +9.08267209937E-05 +6.04033707428E-05 +4.05292791708E-05 +7.17533400112E-06 -6.25671930958E-01 +7.30833446412E-01
1.12500000000E+09 -5.11579315670E-01 +8.00899736764E-01 +6.21192934506E-05 +6.97423673546E-06 +9.09626278990E-05 +2.40272063940E-05 -6.21215893821E-01 +7.34517593568E-01
1.13000000000E+09 -5.04191434548E-01 +8.04130752880E-01 +6.91638212838E-05 -4.96406870736E-06 +7.76783912599E-05 -9.70655181506E-06 -6.16662619123E-01 +7.38071384863E-01
1.13500000000E+09 -4.97269689950E-01 +8.06631005031E-01 +9.54311929474E-05 +3.57929076610E-06 +1.17657735318E-04 -2.56933636616E-05 -6.11894216190E-01 +7.41654885446E-01
1.14000000000E+09 -4.90987722650E-01 +8.09060255190E-01 +1.00570475195E-04 +8.91254949990E-06 +5.86170780644E-05 +9.22143337472E-06 -6.06740999069E-01 +7.44899733194E-01
1.14500000000E+09 -4.85362686978E-01 +8.10749918318E-01 +1.35333059383E-04 -1.19612661977E-06 +1.21336010472E-04 -6.45055988065E-06 -6.02069510659E-01 +7.48245128120E-01
1.15000000000E+09 -4.80124037972E-01 +8.12336774579E-01 +1.06544182021E-04 -8.93054032521E-05 +9.55814645794E-05 -1.21129993972E-05 -5.97290544387E-01 +7.51812700198E-01
1.15500000000E+09 -4.75153505248E-01 +8.14186135927E-01 +8.44159993537E-05 -2.31259323769E-05 +9.78945722854E-05 +1.46879144455E-06 -5.92232610099E-01 +7.55483193125E-01
1.16000000000E+09 -4.69705963857E-01 +8.16067246357E-01 +1.04462607923E-04 -7.97642365827E-05 +1.43199890175E-04 -4.89482880075E-05 -5.87266609215E-01 +7.59145271044E-01
1.16500000000E+09 -4.63884406357E-01 +8.18527895558E-01 +1.29143152256E-04 -7.03688368064E-05 +1.05614321001E-04 -1.99368546737E-05 -5.82154889828E-01 +7.62576501733E-01
1.17000000000E+09 -4.57253345037E-01 +8.21396201067E-01 +9.44229698590E-05 -3.04560596158E-05 +1.32071823010E-04 -4.46683223008E-05 -5.76766998109E-01 +7.65605924569E-01
1.17500000000E+09 -4.50141216805E-01 +8.24449313526E-01 +1.26675012676E-04 -8.01884143307E-05 +1.91096402444E-04 -6.51567100632E-05 -5.71014816113E-01 +7.68641076390E-01
1.18000000000E+09 -4.42481850865E-01 +8.27580075264E-01 +1.72585030917E-04 -1.02809280937E-04 +1.57783617283E-04 -1.16755349318E-04 -5.65406234560E-01 +7.71383746780E-01
1.18500000000E+09 -4.34769124855E-01 +8.30564602600E-01 +7.66919105482E-05 -1.16649915414E-04 +9.82786676678E-05 -1.41308258449E-04 -5.59652863913E-01 +7.74112616989E-01
1.19000000000E+09 -4.26967457841E-01 +8.32819528893E-01 +1.18632931614E-04 -1.67464312325E-04 +1.37595855476E-04 -2.12989638017E-04 -5.53376210628E-01 +7.76693713568E-01
1.19500000000E+09 -4.19470401670E-01 +8.34719453362E-01 +1.08068387951E-04 -2.08366322163E-04 +1.56667388023E-04 -2.50649236950E-04 -5.47492625974E-01 +7.77480882191E-01
1.20000000000E+09 -4.12463616321E-01 +8.35611116171E-01 +2.14577062329E-05 -2.73237753966E-04 -1.75389089623E-05 -3.24964413579E-04 -5.42875458117E-01 +7.77687648725E-01
1.20500000000E+09 -4.05660121949E-01 +8.36776887333E-01 -9.84246302585E-05 -2.74239707637E-04 -8.13506377226E-05 -1.73665394423E-04 -5.40458936998E-01 +7.78391640593E-01
1.21000000000E+09 -3.99054437024E-01 +8.38012026117E-01 -8.71829044158E-05 -1.28903028987E-04 -8.11201500209E-05 -1.21262593962E-04 -5.38305972454E-01 +7.81474849644E-01
1.21500000000E+09 -3.91491496619E-01 +8.39540585941E-01 -5.55244226940E-05 -1.39492845269E-04 -1.75753071033E-05 -1.31579776812E-04 -5.34993103322E-01 +7.85904009572E-01
1.22000000000E+09 -3.83765605236E-01 +8.41413671274E-01 -2.36852215894E-05 -1.36724884427E-04 -8.73505909787E-06 -1.25413595203E-04 -5.30564650240E-01 +7.90989534830E-01
1.22500000000E+09 -3.75352876742E-01 +8.43826972980E-01 -2.28982292208E-05 -1.37639110600E-04 +1.18234079184E-06 -2.20163533788E-04 -5.25270185391E-01 +7.95783457715E-01
1.23000000000E+09 -3.66671407212E-01 +8.46432817241E-01 -3.55217605267E-05 -2.10105495893E-04 -8.96565127287E-05 -2.21124432201E-04 -5.19690746943E-01 +8.00086125810E-01
1.23500000000E+09 -3.58183647850E-01 +8.49482290757E-01 -5.06723985207E-05 -2.01853126763E-04 -9.49538443036E-05 -2.01706473924E-04 -5.13715017433E-01 +8.04042380336E-01
1.24000000000E+09 -3.49786311037E-01 +8.52468085127E-01 -7.43471806379E-05 -1.86111578356E-04 -9.82833584299E-05 -2.27438735783E-04 -5.07698936519E-01 +8.07535946169E-01
1.24500000000E+09 -3.41915050547E-01 +8.55722288766E-01 -1.43872467964E-04 -2.39925438568E-04 -1.77648412504E-04 -2.31715862289E-04 -5.01417998000E-01 +8.11085064009E-01
1.25000000000E+09 -3.34306507399E-01 +8.58244900099E-01 -1.44457618578E-04 -1.56418894995E-04 -1.67746245643E-04 -2.00786384679E-04 -4.94723901139E-01 +8.15162428857E-01
1.25500000000E+09 -3.26734251725E-01 +8.60043952716E-01 -1.25705051033E-04 -2.48223947300E-04 -1.79053475976E-04 -2.63254947525E-04 -4.87850198696E-01 +8.18712371790E-01
1.26000000000E+09 -3.19076756857E-01 +8.61169317725E-01 -1.67023843306E-04 -2.50165531531E-04 -1.80501442813E-04 -2.95191458019E-04 -4.81244937014E-01 +8.22605118423E-01
1.26500000000E+09 -3.11344295483E-01 +8.61643019421E-01 -1.94267728461E-04 -2.55167325843E-04 -2.47708396777E-04 -2.59791436278E-04 -4.74170352862E-01 +8.25975425496E-01
1.27000000000E+09 -3.02808391167E-01 +8.61945544828E-01 -2.46431991451E-04 -2.46397281414E-04 -2.73330053852E-04 -2.07787920062E-04 -4.67239827437E-01 +8.29479722901E-01
1.27500000000E+09 -2.93605071532E-01 +8.62363991126E-01 -3.33984715561E-04 -2.17966863544E-04 -2.87745765158E-04 -2.42376303886E-04 -4.60126695369E-01 +8.32712907927E-01
1.28000000000E+09 -2.83471420921E-01 +8.63138914202E-01 -3.69547402943E-04 -1.99148997852E-04 -3.69491572163E-04 -2.29995703699E-04 -4.53074786566E-01 +8.36045635046E-01
1.28500000000E+09 -2.72312980028E-01 +8.64233332788E-01 -4.32603042410E-04 -1.14381873080E-04 -4.47364369933E-04 -1.53035276774E-04 -4.45614445712E-01 +8.39382343122E-01
1.29000000000E+09 -2.61242760548E-01 +8.65755692524E-01 -4.44530567121E-04 -9.80317028375E-05 -4.95696510129E-04 -1.17882038773E-04 -4.37898986378E-01 +8.42842758741E-01
1.29500000000E+09 -2.50523050081E-01 +8.67800028196E-01 -4.37380792636E-04 -6.83640689542E-05 -5.01501830317E-04 -7.27733237602E-05 -4.30034943635E-01 +8.45885654601E-01
1.30000000000E+09 -2.40280305088E-01 +8.70450630015E-01 -5.51538947147E-04 -2.91631751393E-05 -5.66839309145E-04 -5.32752210534E-06 -4.22395470935E-01 +8.49130017344E-01
1.30500000000E+09 -2.30844723075E-01 +8.73201526321E-01 -6.02690843985E-04 -1.29015093944E-05 -6.36430898097E-04 +2.39124421782E-05 -4.14287392605E-01 +8.52185697371E-01
1.31000000000E+09 -2.21961128317E-01 +8.75341822016E-01 -6.86655643800E-04 +1.43407808533E-04 -6.43269491812E-04 +1.04672853642E-04 -4.05969779142E-01 +8.55254595292E-01
1.31500000000E+09 -2.13858888291E-01 +8.76605490031E-01 -6.66534659292E-04 +2.85570435607E-04 -6.83035792350E-04 +2.02058667128E-04 -3.97103782727E-01 +8.58315637038E-01
1.32000000000E+09 -2.06208114222E-01 +8.76871855139E-01 -6.17112097360E-04 +3.12347394765E-04 -6.76960887201E-04 +2.92466563593E-04 -3.88174959531E-01 +8.61443949668E-01
1.32500000000E+09 -1.98280188928E-01 +8.76322077901E-01 -6.00581346257E-04 +3.35583063279E-04 -6.41456668162E-04 +4.17194241498E-04 -3.78858622289E-01 +8.64295468670E-01
1.33000000000E+09 -1.89677833275E-01 +8.75418105290E-01 -6.42734803113E-04 +4.09736537962E-04 -6.66163647551E-04 +5.05781461306E-04 -3.69511540235E-01 +8.67054536834E-01
1.33500000000E+09 -1.79808665916E-01 +8.74233359761E-01 -6.90163164085E-04 +5.49234646690E-04 -5.53466575813E-04 +5.81380547657E-04 -3.59931956315E-01 +8.70006085557E-01
1.34000000000E+09 -1.68420524418E-01 +8.73221638945E-01 -6.37418638251E-04 +6.82982009269E-04 -5.58038263746E-04 +6.56163147437E-04 -3.49922732734E-01 +8.72732155549E-01
1.34500000000E+09 -1.55473313308E-01 +8.72542407176E-01 -6.23683590912E-04 +7.58593786389E-04 -5.63071670442E-04 +7.61053632938E-04 -3.39044729099E-01 +8.75516517518E-01
1.35000000000E+09 -1.41344913236E-01 +8.72056142641E-01 -4.91427933440E-04 +8.80307911256E-04 -4.70998601672E-04 +8.14609623644E-04 -3.28231099200E-01 +8.78129655047E-01
1.35500000000E+09 -1.26620448482E-01 +8.72254412994E-01 -4.79099583604E-04 +9.58451873388E-04 -4.97758354241E-04 +9.64733915472E-04 -3.16735490249E-01 +8.80496354372E-01
1.36000000000E+09 -1.11539865467E-01 +8.72774403852E-01 -4.33103421981E-04 +1.06105528674E-03 -3.58680827295E-04 +1.04304986323E-03 -3.05275015899E-01 +8.82548192537E-01
1.36500000000E+09 -9.63754083370E-02 +8.72631118231E-01 -3.46257868402E-04 +1.22414324471E-03 -3.26071063562E-04 +1.15686509881E-03 -2.93431216765E-01 +8.84509417528E-01
1.37000000000E+09 -8.19304093914E-02 +8.71605931042E-01 -2.19755591093E-04 +1.45596666061E-03 -3.03491828813E-04 +1.32862561263E-03 -2.80911826768E-01 +8.86381376872E-01
1.37500000000E+09 -6.87522883054E-02 +8.69645888098E-01 +3.26320292255E-05 +1.54015782101E-03 -1.20025909836E-04 +1.42996652843E-03 -2.67460428581E-01 +8.88283131697E-01
1.38000000000E+09 -5.62881188647E-02 +8.66734533845E-01 +1.73823386756E-04 +1.49276924850E-03 -2.93729743210E-05 +1.61283716806E-03 -2.53184395342E-01 +8.89878622744E-01
1.38500000000E+09 -4.37668677172E-02 +8.63196696920E-01 +2.84569795815E-04 +1.64585693361E-03 +1.96433397865E-04 +1.83968810028E-03 -2.38169418562E-01 +8.91234290445E-01
1.39000000000E+09 -3.10371691698E-02 +8.58898625447E-01 +4.27406502913E-04 +1.78509352812E-03 +4.58095530545E-04 +2.03407817806E-03 -2.22692902806E-01 +8.92137380664E-01
1.39500000000E+09 -1.73408234359E-02 +8.54400308567E-01 +6.59555637478E-04 +1.91071157234E-03 +8.88873653329E-04 +2.01505308120E-03 -2.06711583137E-01 +8.92502459890E-01
1.40000000000E+09 -1.91222992196E-03 +8.49235051321E-01 +9.59348452100E-04 +2.12177908342E-03 +1.23704821792E-03 +2.02192383170E-03 -1.89968632855E-01 +8.92405950513E-01
1.40500000000E+09 +1.42976997022E-02 +8.44101841079E-01 +1.50173970591E-03 +2.16929138168E-03 +1.61395081517E-03 +2.05168420408E-03 -1.72168969769E-01 +8.91686822402E-01
1.41000000000E+09 +3.16505535771E-02 +8.39117682196E-01 +2.03993198008E-03 +1.97703175157E-03 +1.98105257294E-03 +1.94951401060E-03 -1.52805497219E-01 +8.90471607705E-01
1.41500000000E+09 +5.04173886565E-02 +8.34234221513E-01 +2.34417729063E-03 +1.80721220569E-03 +2.31969219519E-03 +1.96104851022E-03 -1.31805491868E-01 +8.88497134179E-01
1.42000000000E+09 +7.08188178775E-02 +8.28600851782E-01 +2.71307592899E-03 +1.66980551667E-03 +2.87751044265E-03 +1.88249317343E-03 -1.09869367394E-01 +8.85380737704E-01
1.42500000000E+09 +9.19180940590E-02 +8.20918225315E-01 +3.11508946345E-03 +1.50048410531E-03 +3.47884660382E-03 +1.53926341151E-03 -8.71781829329E-02 +8.81049417535E-01
1.43000000000E+09 +1.13167169113E-01 +8.11091790560E-01 +3.62989539609E-03 +1.44901626074E-03 +4.07781261957E-03 +1.23604090396E-03 -6.36199259118E-02 +8.76003354126E-01
1.43500000000E+09 +1.34170454086E-01 +7.98551852949E-01 +4.64051544737E-03 +1.01182635163E-03 +4.85347052489E-03 +5.97846505184E-04 -3.82990953409E-02 +8.68983111924E-01
1.44000000000E+09 +1.55187437881E-01 +7.84096789061E-01 +5.30612038822E-03 -1.17896817955E-04 +5.35763901022E-03 -4.64556211096E-04 -1.16340927463E-02 +8.59730153429E-01
1.44500000000E+09 +1.77391642493E-01 +7.67044134014E-01 +5.40212062768E-03 -1.19041994257E-03 +5.38949367724E-03 -1.51013203406E-03 +1.69619016519E-02 +8.48076574906E-01
1.45000000000E+09 +2.00395516271E-01 +7.47180846239E-01 +5.27604011105E-03 -1.98972696160E-03 +5.30708709358E-03 -2.36921578370E-03 +4.71145487446E-02 +8.33422033021E-01
1.45500000000E+09 +2.24560028443E-01 +7.24940004118E-01 +5.52763048439E-03 -2.67870853433E-03 +5.33448849737E-03 -3.21248908244E-03 +7.82956621239E-02 +8.16003408006E-01
1.46000000000E+09 +2.50088487495E-01 +7.00422520300E-01 +5.87277061411E-03 -3.70051300853E-03 +5.28906184148E-03 -4.09418688553E-03 +1.11462286228E-01 +7.94874525700E-01
1.46500000000E+09 +2.77037056169E-01 +6.73413800263E-01 +6.16485895986E-03 -5.19629365955E-03 +5.43807951678E-03 -5.04458024993E-03 +1.45536525353E-01 +7.68431850053E-01
1.47000000000E+09 +3.05726989759E-01 +6.42656963869E-01 +6.14578035321E-03 -7.30497314014E-03 +5.67570536880E-03 -6.74813766689E-03 +1.80327867164E-01 +7.35328816905E-01
1.47500000000E+09 +3.34811853179E-01 +6.06005310220E-01 +4.78964044474E-03 -9.92965603091E-03 +4.92661140651E-03 -9.32012563311E-03 +2.14752342298E-01 +6.94969094865E-01
1.48000000000E+09 +3.61565670649E-01 +5.62036298844E-01 +2.69229391587E-03 -1.14446788665E-02 +3.07528595420E-03 -1.14946176505E-02 +2.48685668528E-01 +6.47397246768E-01
1.48500000000E+09 +3.84165843430E-01 +5.10265328513E-01 +7.75103092304E-04 -1.29006998581E-02 +6.56745676804E-04 -1.32714349487E-02 +2.80321989771E-01 +5.90800602606E-01
1.49000000000E+09 +4.00443792712E-01 +4.50770162610E-01 -2.08765925701E-03 -1.46776062841E-02 -2.78681079499E-03 -1.45369420022E-02 +3.07078898008E-01 +5.23997463723E-01
1.49500000000E+09 +4.09467328363E-01 +3.83427647801E-01 -6.40296753327E-03 -1.55259713037E-02 -6.66348380741E-03 -1.45916632835E-02 +3.24560432275E-01 +4.46835990822E-01
1.50000000000E+09 +4.09386818483E-01 +3.07541775184E-01 -1.08566377410E-02 -1.48196933842E-02 -1.02767698495E-02 -1.39412956641E-02 +3.29181556411E-01 +3.59984911319E-01
1.50500000000E+09 +3.96358353903E-01 +2.23929928775E-01 -1.59242686829E-02 -1.27297766366E-02 -1.47931876365E-02 -1.26846234022E-02 +3.16904534149E-01 +2.65756090098E-01
1.51000000000E+09 +3.68366979067E-01 +1.36442661289E-01 -1.99150886955E-02 -8.22449457371E-03 -1.93346395535E-02 -8.96634622251E-03 +2.84458454735E-01 +1.67022645739E-01
1.51500000000E+09 +3.21674135974E-01 +4.84621819523E-02 -2.28023582177E-02 -3.51818443888E-03 -2.29167880773E-02 -4.17468461126E-03 +2.27898100427E-01 +7.23744682949E-02
1.52000000000E+09 +2.55384678823E-01 -3.08120401592E-02 -2.48841960930E-02 +3.04780123231E-03 -2.52433164284E-02 +2.74529692700E-03 +1.50339618896E-01 -9.40840100169E-03
1.52500000000E+09 +1.72531599961E-01 -9.63510480463E-02 -2.41576927568E-02 +1.19532446583E-02 -2.45277268798E-02 +1.19157724184E-02 +5.74501600132E-02 -7.43197119531E-02
1.53000000000E+09 +7.61812551739E-02 -1.43374370331E-01 -1.81266708686E-02 +1.90233731913E-02 -1.83350492002E-02 +1.91260695865E-02 -5.09364952408E-02 -1.16830165743E-01
1.53500000000E+09 -2.91635367033E-02 -1.68212607099E-01 -1.17878480562E-02 +2.24736944978E-02 -1.17784106253E-02 +2.25239215755E-02 -1.61440418472E-01 -1.32595891764E-01
1.54000000000E+09 -1.39348726855E-01 -1.68174960139E-01 -4.85363232962E-03 +2.38957670331E-02 -4.98242273376E-03 +2.36572666454E-02 -2.69489696855E-01 -1.25704789039E-01
1.54500000000E+09 -2.43103131973E-01 -1.42802423925E-01 +2.12325066495E-03 +2.36498363172E-02 +1.59148723877E-03 +2.33846263985E-02 -3.66394942281E-01 -9.79419743051E-02
1.55000000000E+09 -3.35040791753E-01 -1.00645244809E-01 +7.81324828524E-03 +2.02096715503E-02 +7.02356835983E-03 +2.04664012794E-02 -4.48620322275E-01 -5.64285381914E-02
1.55500000000E+09 -4.12051901641E-01 -4.59691732777E-02 +1.15800865218E-02 +1.64291833689E-02 +1.10751954384E-02 +1.72842878333E-02 -5.15975977836E-01 -6.43583485736E-03
1.56000000000E+09 -4.72768533062E-01 +1.24675406025E-02 +1.42073013813E-02 +1.19100554507E-02 +1.44275603777E-02 +1.29699029381E-02 -5.69177201905E-01 +4.86096317622E-02
1.56500000000E+09 -5.21479043193E-01 +7.16517042081E-02 +1.46702601283E-02 +7.30844607844E-03 +1.54302644131E-02 +7.98098692491E-03 -6.10322904706E-01 +1.05348923717E-01
1.57000000000E+09 -5.58828125991E-01 +1.30884200256E-01 +1.41073008340E-02 +3.98900415575E-03 +1.50628800895E-02 +4.15166535692E-03 -6.40370755840E-01 +1.61638957601E-01
