# Hz S RI R 50
! CMT, C1220, 16058040, 17.2.0/1
! Date: 14/08/2018 12:25:59
! Data: Format (Calibration Info)
! Freq                      S11: Re/Im (F2)                       S21: Re/Im (F2)                       S12: Re/Im (F2)                       S22: Re/Im (F2)            
1.00000000000E+09 -6.47262749632E-01 +7.14579110984E-01 -9.42646575475E-06 +3.23185821406E-05 -2.15859431703E-05 +1.99430580104E-05 -7.48047166719E-01 +6.23875582541E-01
1.00500000000E+09 -6.40231241530E-01 +7.19721752951E-01 -1.17357229295E-05 +1.70518540325E-05 +1.24878933972E-05 -3.78071294315E-05 -7.44461857626E-01 +6.27787156278E-01
1.01000000000E+09 -6.34369236240E-01 +7.24160294072E-01 -2.95024337577E-06 -4.91515034292E-05 -9.15452305494E-06 +6.37025764386E-06 -7.41009703717E-01 +6.31568751508E-01
1.01500000000E+09 -6.30400242393E-01 +7.27952265921E-01 +4.69891484366E-06 +5.55780041499E-06 +2.67500350855E-06 -3.86838812982E-05 -7.37675266775E-01 +6.35259733981E-01
1.02000000000E+09 -6.27927792503E-01 +7.31028134788E-01 -7.03273058119E-06 +1.40924748482E-05 -5.52212757040E-05 -1.37540136777E-05 -7.34187192782E-01 +6.38716443056E-01
1.02500000000E+09 -6.26337499096E-01 +7.33563737026E-01 +1.20742022172E-05 +5.20948979685E-05 +9.20308002509E-06 +3.13695321864E-05 -7.31265384238E-01 +6.42492305164E-01
1.03000000000E+09 -6.25343196612E-01 +7.35879365108E-01 +1.93741721224E-05 +1.39913186974E-05 -1.79381542999E-05 +2.91503728973E-05 -7.27944608464E-01 +6.46125380708E-01
1.03500000000E+09 -6.23418510131E-01 +7.38081336870E-01 -9.89940236143E-06 -1.83342772252E-05 +2.81914102448E-05 +1.46942391202E-05 -7.24161005673E-01 +6.50145840562E-01
1.04000000000E+09 -6.20029816830E-01 +7.40836864021E-01 -1.35475111728E-05 +3.31751184053E-06 -1.03765636391E-05 +4.70536194994E-07 -7.20394779008E-01 +6.53655740088E-01
1.04500000000E+09 -6.15001773558E-01 +7.44259357621E-01 +2.59409252379E-05 +2.28002573655E-05 -2.30330259358E-05 -2.61868824978E-05 -7.16753567356E-01 +6.57279108707E-01
1.05000000000E+09 -6.07861233365E-01 +7.48327718928E-01 +3.36739995078E-05 -5.00984870939E-05 -3.51460708000E-06 -3.32961022344E-05 -7.13471442204E-01 +6.60714213554E-01
1.05500000000E+09 -5.99335036780E-01 +7.52843182396E-01 +3.39115876106E-05 +6.18547240882E-05 +3.07336655861E-05 +7.38347579025E-06 -7.10275895701E-01 +6.64121820934E-01
1.06000000000E+09 -5.89987409513E-01 +7.58109033802E-01 +1.80898327932E-05 -4.91315483849E-06 +2.50790582825E-05 +5.99993824970E-05 -7.06901395641E-01 +6.67898189675E-01
1.06500000000E+09 -5.81102793876E-01 +7.63199032006E-01 +3.70215542818E-05 +3.71134218781E-05 +1.08606659451E-05 +9.10457527789E-06 -7.03127840663E-01 +6.71682949554E-01
1.07000000000E+09 -5.73187157453E-01 +7.67544556000E-01 +3.31888747107E-05 +4.84636723591E-05 +2.35301780946E-05 +2.51564178506E-05 -6.99210226028E-01 +6.75278454554E-01
1.07500000000E+09 -5.67130520732E-01 +7.71405611278E-01 +1.76713858538E-05 +3.20675274913E-05 +2.37734689366E-05 +1.27951005949E-05 -6.94799346107E-01 +6.79060240997E-01
1.08000000000E+09 -5.62903409070E-01 +7.74660973938E-01 +1.01306184490E-05 +6.83441173392E-06 -7.55655612945E-06 +7.73748921372E-05 -6.90745869418E-01 +6.82973197389E-01
1.08500000000E+09 -5.60191061185E-01 +7.77070441497E-01 +1.97469261184E-05 +3.24686918283E-05 +1.55071874495E-05 +3.92078184457E-05 -6.86798017487E-01 +6.86406168955E-01
1.09000000000E+09 -5.58243742333E-01 +7.79189400461E-01 +4.63776826391E-05 -4.01818229144E-05 +1.69049256849E-05 +2.45232547355E-05 -6.82911952617E-01 +6.90437917720E-01
1.09500000000E+09 -5.56592543487E-01 +7.80970588211E-01 +5.47614939387E-05 +1.30792998232E-06 +2.72389812326E-05 -2.85351877368E-05 -6.79204764423E-01 +6.94088836293E-01
1.10000000000E+09 -5.53836034550E-01 +7.82980811662E-01 +8.41262839062E-05 +8.02745396647E-06 +2.62994415067E-05 -3.91858783362E-06 -6.75231294508E-01 +6.97980580981E-01
1.10500000000E+09 -5.49675953007E-01 +7.85504692984E-01 -5.60486969733E-06 -3.44273393558E-05 +5.36249545792E-05 +1.79617217236E-06 -6.70883560120E-01 +7.01489183069E-01
1.11000000000E+09 -5.44080079583E-01 +7.88699762227E-01 -3.18248166770E-06 +3.01443425638E-06 -1.74606890207E-05 -1.41045187769E-05 -6.66682350294E-01 +7.04930403824E-01
1.11500000000E+09 -5.36937306733E-01 +7.92535073765E-01 +2.88289307165E-05 -4.32076255714E-05 +3.53072194293E-05 +1.42169975634E-05 -6.62626720970E-01 +7.08197960923E-01
1.12000000000E+09 -5.29111667497E-01 +7.96549785609E-01 -4.21710845040E-05 -5.43905789775E-05 +2.09271951042E-05 -1.64447447608E-05 -6.58739314248E-01 +7.11971968121E-01
1.12500000000E+09 -5.21104420637E-01 +8.00603001597E-01 -1.49715119500E-05 -6.41589274769E-05 +4.81134064202E-05 -8.11813763909E-07 -6.54494415659E-01 +7.15740451037E-01
1.13000000000E+09 -5.13764207948E-01 +8.04380905126E-01 -3.18821206281E-06 -5.14027514966E-05 +1.39618760675E-05 -5.50674962573E-05 -6.50194265188E-01 +7.19516726880E-01
1.13500000000E+09 -5.07371845548E-01 +8.07177062553E-01 +3.58197191599E-05 -4.04282555519E-05 +1.99263183064E-05 -1.43008301432E-05 -6.45739629089E-01 +7.23392323060E-01
1.14000000000E+09 -5.02267776729E-01 +8.09721203412E-01 +1.35660719529E-05 -1.51823047008E-06 +1.47636014437E-05 -3.56998760198E-05 -6.41028664481E-01 +7.26723061423E-01
1.14500000000E+09 -4.98292486327E-01 +8.11342514376E-01 +5.56179553115E-06 -8.01199466981E-06 +2.13184799587E-05 -2.34614702463E-07 -6.36434369496E-01 +7.30053864687E-01
1.15000000000E+09 -4.94742449082E-01 +8.12883067684E-01 +1.49317684491E-05 +1.78552030919E-05 +4.02138583271E-06 -2.38740034580E-05 -6.31726931942E-01 +7.33941069615E-01
1.15500000000E+09 -4.91135006968E-01 +8.14521396802E-01 -3.47445412129E-06 -2.97748183877E-05 +3.44698454815E-06 -4.44450863920E-05 -6.26970842677E-01 +7.37725887067E-01
1.16000000000E+09 -4.86430420324E-01 +8.16326266985E-01 +5.18515440967E-06 -2.00658971100E-05 -5.14613980483E-06 -3.94918616456E-05 -6.22155004042E-01 +7.41399588260E-01
1.16500000000E+09 -4.80616859813E-01 +8.19076718311E-01 +3.68486632583E-06 +7.58946090464E-06 +1.56246834003E-05 -4.55516907961E-05 -6.17150722409E-01 +7.45135422977E-01
1.17000000000E+09 -4.73777269431E-01 +8.22094201268E-01 -3.24561789976E-06 -5.63190839228E-05 -1.11879802452E-05 -1.21978231764E-05 -6.11659268155E-01 +7.48473566992E-01
1.17500000000E+09 -4.65868633773E-01 +8.25443592206E-01 -1.78718668659E-05 -5.38079904428E-05 -2.94620332232E-05 -3.25766503348E-05 -6.05895859630E-01 +7.51538119947E-01
1.18000000000E+09 -4.57788436770E-01 +8.28993233184E-01 -2.05854186776E-05 -5.73156220064E-06 -2.07794193740E-06 -1.71708485108E-05 -6.00384482597E-01 +7.54699705756E-01
1.18500000000E+09 -4.49854802689E-01 +8.32371679780E-01 -2.83118103184E-05 +8.19691438041E-07 +2.11390819101E-05 -6.42641361325E-05 -5.94643370161E-01 +7.57708956623E-01
1.19000000000E+09 -4.42704543089E-01 +8.35076934558E-01 -4.23094458719E-05 -3.34490803087E-05 +6.47290742963E-06 -1.67814853188E-05 -5.88353837987E-01 +7.60314646147E-01
1.19500000000E+09 -4.36948013903E-01 +8.37107628006E-01 -2.60507666609E-05 -6.71266245582E-05 +7.72563930881E-06 -6.48382482386E-05 -5.82489641443E-01 +7.61559845416E-01
1.20000000000E+09 -4.32227351142E-01 +8.37963804747E-01 -1.24790804143E-04 -3.71195954359E-05 -8.73969774330E-05 -2.33414218250E-05 -5.78016243897E-01 +7.61757159909E-01
1.20500000000E+09 -4.28067261063E-01 +8.39096551295E-01 -8.41811778393E-05 +9.52915678908E-06 -8.40396893334E-05 -2.07619097732E-07 -5.75607318424E-01 +7.62485125719E-01
1.21000000000E+09 -4.23520530661E-01 +8.40238184583E-01 -2.29467893531E-05 +7.39218164292E-05 -1.96316206862E-05 +7.00790984629E-06 -5.73843377095E-01 +7.65631684868E-01
1.21500000000E+09 -4.17793159325E-01 +8.41696293647E-01 +2.27356851113E-05 +4.01016890604E-06 -6.03056314583E-06 +6.44485394621E-06 -5.70964050483E-01 +7.70144301714E-01
1.22000000000E+09 -4.10281734333E-01 +8.43429132277E-01 -3.11169306716E-05 -2.53608239974E-05 -2.56445348036E-05 -8.98730809958E-06 -5.66916486998E-01 +7.75428121155E-01
1.22500000000E+09 -4.01240788325E-01 +8.46047718069E-01 -1.94345339423E-05 +2.62729467460E-06 -2.42704640019E-05 -1.34614992518E-05 -5.61749019173E-01 +7.80508045419E-01
1.23000000000E+09 -3.90920041247E-01 +8.49033026474E-01 -4.22707539133E-05 -9.11814960028E-06 -1.94067318993E-05 -2.03498838735E-06 -5.56094556442E-01 +7.85102109143E-01
1.23500000000E+09 -3.80017652439E-01 +8.52564690334E-01 -4.58115044369E-05 +1.62849178853E-06 -1.62158820393E-05 +9.77130032167E-06 -5.50304915736E-01 +7.89270876452E-01
1.24000000000E+09 -3.69104221724E-01 +8.56356313865E-01 -2.13563908259E-05 +6.66539692751E-06 -2.87179254293E-05 -3.26567094322E-05 -5.44349716464E-01 +7.93303408264E-01
1.24500000000E+09 -3.59444045718E-01 +8.60284743711E-01 -4.16408983474E-05 -3.09130847992E-05 -2.97411003497E-05 -3.25011621835E-06 -5.37921444971E-01 +7.97026994335E-01
1.25000000000E+09 -3.51005418085E-01 +8.63621114569E-01 -6.24211767095E-05 -3.16596427421E-05 -1.41409472567E-05 -3.56125082716E-05 -5.31390828504E-01 +8.01237258687E-01
1.25500000000E+09 -3.44189627905E-01 +8.66014717429E-01 -3.29437482383E-05 +2.23150940588E-06 -4.03547529076E-05 -4.80590235802E-05 -5.24584253021E-01 +8.05232967280E-01
1.26000000000E+09 -3.38848156951E-01 +8.67747285603E-01 -9.01429818308E-06 -2.88798245234E-05 -4.32404238684E-05 -7.63275712246E-06 -5.17972397349E-01 +8.09492857580E-01
1.26500000000E+09 -3.34196169860E-01 +8.69052673642E-01 -9.57187501688E-05 -2.97790161614E-06 -6.58716324717E-05 +7.01338506914E-06 -5.10953350702E-01 +8.13235145007E-01
1.27000000000E+09 -3.29241678976E-01 +8.70125511271E-01 -1.14526781226E-04 +4.44796302713E-05 -6.77519503273E-05 +2.49488196397E-05 -5.04082335701E-01 +8.17064919400E-01
1.27500000000E+09 -3.23098894508E-01 +8.71158437785E-01 -6.79723413456E-05 +1.36507732438E-05 -6.03003061451E-05 +3.76019179384E-05 -4.97163759375E-01 +8.20543512519E-01
1.28000000000E+09 -3.14992398360E-01 +8.72735477974E-01 -2.96327108244E-05 +4.34902917429E-05 -1.11216080057E-04 +4.29337123640E-05 -4.90048937147E-01 +8.23926247573E-01
1.28500000000E+09 -3.04766676203E-01 +8.74772990582E-01 -1.04998900629E-04 +4.59581399952E-05 -2.44812909288E-05 +4.77447379506E-05 -4.82803468127E-01 +8.27751726120E-01
1.29000000000E+09 -2.93075705141E-01 +8.77260139879E-01 -1.20892006812E-04 +5.16429125206E-05 -8.34566446892E-05 +2.84331422321E-05 -4.75150933668E-01 +8.31456216406E-01
1.29500000000E+09 -2.80621251942E-01 +8.80344034103E-01 -7.52675508083E-05 +4.35731393413E-05 -6.45326585738E-05 +7.75776676783E-05 -4.67491389059E-01 +8.34870422200E-01
1.30000000000E+09 -2.68070871812E-01 +8.83661393236E-01 -5.06723299958E-05 +7.01014647289E-05 -8.67348711739E-05 +4.71954890874E-05 -4.59756319471E-01 +8.38266429030E-01
1.30500000000E+09 -2.56657979262E-01 +8.86865149360E-01 -7.06079186303E-05 +9.30611879835E-05 -8.02609792802E-05 +7.34841389350E-05 -4.51581769938E-01 +8.41653266606E-01
1.31000000000E+09 -2.46659692923E-01 +8.89008293670E-01 -1.30540275425E-05 +1.09604806429E-04 -3.97576756768E-05 +1.37919488702E-04 -4.43303767427E-01 +8.45065901267E-01
1.31500000000E+09 -2.38844138292E-01 +8.90441789283E-01 +1.06343555226E-05 +9.82679155881E-05 -9.06803058939E-07 +1.13378666836E-04 -4.34571607082E-01 +8.48563990248E-01
1.32000000000E+09 -2.32408021023E-01 +8.91074487307E-01 +6.76758944729E-06 +3.18354866612E-05 +1.01946827896E-05 +9.73622725929E-05 -4.25629048818E-01 +8.51866547803E-01
1.32500000000E+09 -2.26686342423E-01 +8.91111152556E-01 +7.55202025522E-06 +2.51280308111E-05 -3.01397746792E-05 +6.30166634826E-05 -4.16112593031E-01 +8.55230601767E-01
1.33000000000E+09 -2.20131007346E-01 +8.90632011810E-01 -2.55568112372E-05 +9.87320382408E-05 -2.05477198363E-05 +1.06036961753E-04 -4.06482976210E-01 +8.58540856104E-01
1.33500000000E+09 -2.11712156963E-01 +8.89960714156E-01 +3.27685876018E-05 +1.17856716850E-04 +3.62295582190E-06 +1.50090781866E-04 -3.96633424109E-01 +8.61890381268E-01
1.34000000000E+09 -2.00861164996E-01 +8.89415420045E-01 +3.96019510941E-05 +9.52333289239E-05 +3.41978953157E-05 +8.64198561803E-05 -3.86561930564E-01 +8.65172721118E-01
1.34500000000E+09 -1.87342541197E-01 +8.89024959541E-01 +5.52998458404E-05 +8.32534810252E-05 +6.50199016598E-05 +9.00767648312E-05 -3.75806853533E-01 +8.68378638948E-01
1.35000000000E+09 -1.71763968332E-01 +8.89069949836E-01 +1.21232299861E-05 +6.96381181580E-05 +2.85068116485E-05 +4.15577224295E-06 -3.64728016991E-01 +8.71461692456E-01
1.35500000000E+09 -1.54801230528E-01 +8.89317160975E-01 +3.93668916306E-05 +5.43104175586E-05 +3.97908174196E-06 +5.46435858398E-05 -3.53057550120E-01 +8.74368894899E-01
1.36000000000E+09 -1.37798679352E-01 +8.89703083595E-01 -4.88628745213E-06 +6.59125172004E-05 +3.12659592906E-05 +7.05650546627E-05 -3.41286371194E-01 +8.77000767147E-01
1.36500000000E+09 -1.21667612209E-01 +8.90258179037E-01 -5.56353832720E-05 +8.50067544871E-05 -2.59981114200E-05 +5.02452829734E-05 -3.29207108829E-01 +8.79503373093E-01
1.37000000000E+09 -1.07284993373E-01 +8.90332258509E-01 +2.92404956417E-05 +1.33188938933E-04 +5.10677383628E-05 +1.20839497685E-04 -3.16373399566E-01 +8.81855502516E-01
1.37500000000E+09 -9.50740798684E-02 +8.89879315951E-01 +8.03329963334E-05 +1.80327614103E-04 +6.75797813297E-05 +1.63727066142E-04 -3.02921841689E-01 +8.84163719945E-01
1.38000000000E+09 -8.42676034940E-02 +8.89122205572E-01 +1.44322306938E-04 +1.73060230657E-04 +1.19310715313E-04 +2.17686284299E-04 -2.88295497041E-01 +8.86207497624E-01
1.38500000000E+09 -7.34067899342E-02 +8.87681059674E-01 +1.81343078961E-04 +8.22164480553E-05 +2.00605983568E-04 +1.54378914685E-04 -2.72913376881E-01 +8.88037521217E-01
1.39000000000E+09 -6.19592230991E-02 +8.85264364092E-01 +1.54342368303E-04 +1.13825111964E-04 +1.79047594949E-04 +1.42331489521E-04 -2.56989170792E-01 +8.89575640843E-01
1.39500000000E+09 -4.83071435739E-02 +8.82223213814E-01 +2.52905495412E-04 +1.09609114253E-04 +2.72914968500E-04 +8.49873422267E-05 -2.40264169871E-01 +8.90391126775E-01
1.40000000000E+09 -3.18112998630E-02 +8.78033384971E-01 +2.79660654934E-04 +3.89583195110E-05 +2.70246185836E-04 -1.72442559473E-05 -2.22903701050E-01 +8.90914543533E-01
1.40500000000E+09 -1.32263704252E-02 +8.73190082812E-01 +1.99971666352E-04 -7.63541688709E-05 +2.44652740743E-04 -5.80026560427E-05 -2.04273705611E-01 +8.90888535296E-01
1.41000000000E+09 +7.66657694169E-03 +8.67533294073E-01 +1.31568828358E-04 -7.68803134413E-05 +1.66087989561E-04 -1.14105313773E-05 -1.83960619262E-01 +8.90079393394E-01
1.41500000000E+09 +2.97754464362E-02 +8.61729615796E-01 +1.64031369927E-04 +2.10937875156E-05 +1.53010812465E-04 +2.69313368554E-05 -1.62465278617E-01 +8.88528950636E-01
1.42000000000E+09 +5.24612242873E-02 +8.55398161501E-01 +2.59638687590E-04 +8.90666881455E-05 +2.66254902033E-04 +4.50814806542E-05 -1.39722456351E-01 +8.85798226202E-01
1.42500000000E+09 +7.44031236057E-02 +8.47997964276E-01 +3.78053386954E-04 -1.34551391524E-04 +4.28634706617E-04 -1.21488023843E-04 -1.16157052276E-01 +8.82224978282E-01
1.43000000000E+09 +9.47750127050E-02 +8.39614134559E-01 +1.65572056989E-04 -2.76046361133E-04 +2.05747819369E-04 -3.63965831710E-04 -9.16572247112E-02 +8.77643967755E-01
1.43500000000E+09 +1.14463455766E-01 +8.29870751284E-01 -7.44734729604E-06 -2.11449941433E-04 -9.75205311706E-06 -2.50997702740E-04 -6.53865408658E-02 +8.71095680974E-01
1.44000000000E+09 +1.33936683218E-01 +8.18787779532E-01 -2.77107753940E-05 -6.93931226898E-05 -5.33832874381E-05 -6.78757825820E-05 -3.73589082143E-02 +8.62438849372E-01
1.44500000000E+09 +1.54749849779E-01 +8.04987747022E-01 +1.30890019304E-04 +1.46445964678E-04 +1.49625890938E-04 +1.21779198221E-04 -7.67128376449E-03 +8.50991884023E-01
1.45000000000E+09 +1.77620987297E-01 +7.87785756714E-01 +3.56747886884E-04 -3.55647854702E-05 +3.67112170391E-04 -8.15195805815E-05 +2.42206356265E-02 +8.36920567335E-01
1.45500000000E+09 +2.03356441453E-01 +7.66164700645E-01 +1.70751440486E-04 -1.22802809556E-04 +1.80752766639E-04 -1.25397119910E-04 +5.75010417002E-02 +8.19333062125E-01
1.46000000000E+09 +2.31673416383E-01 +7.39742533551E-01 +2.91139879013E-04 +7.00696144088E-05 +3.09613036771E-04 +1.34212194528E-05 +9.21697841115E-02 +7.97524045710E-01
1.46500000000E+09 +2.61432632838E-01 +7.08673767043E-01 +5.15572856918E-04 -1.11950400965E-04 +4.22983575453E-04 -1.41464918329E-04 +1.27570150590E-01 +7.71245208095E-01
1.47000000000E+09 +2.92358880393E-01 +6.73112800124E-01 +7.07699116193E-04 -1.71174927267E-04 +6.76430290214E-04 -1.90807001869E-04 +1.64755457380E-01 +7.37923290777E-01
1.47500000000E+09 +3.22640853167E-01 +6.32000332846E-01 +6.82129784768E-04 -5.91764354596E-04 +7.00010024108E-04 -5.28591490362E-04 +2.02005571566E-01 +6.97440321852E-01
1.48000000000E+09 +3.49725921151E-01 +5.85638744553E-01 +5.09347379382E-04 -7.18406137410E-04 +5.02947982802E-04 -7.23984371216E-04 +2.38730777042E-01 +6.48326976391E-01
1.48500000000E+09 +3.72843678440E-01 +5.33898963607E-01 +5.86835370627E-04 -7.40710537685E-04 +5.46603140555E-04 -7.36337845686E-04 +2.73138956880E-01 +5.90037522508E-01
1.49000000000E+09 +3.90053566969E-01 +4.75655442279E-01 +8.79780002875E-04 -1.04011601352E-03 +8.51195894697E-04 -1.04646851471E-03 +3.01824958506E-01 +5.20379616084E-01
1.49500000000E+09 +3.99772996899E-01 +4.10022408780E-01 +9.14256107612E-04 -2.24226073962E-03 +7.63905010640E-04 -2.13947257591E-03 +3.20577748996E-01 +4.41082339129E-01
1.50000000000E+09 +3.99163404746E-01 +3.36311820356E-01 -5.48491203661E-04 -3.05995890148E-03 -5.44347803386E-04 -2.84100424913E-03 +3.26264220142E-01 +3.51331652709E-01
1.50500000000E+09 +3.86693805337E-01 +2.56385818250E-01 -1.99385849795E-03 -2.62257507931E-03 -1.77098713949E-03 -2.56959946788E-03 +3.15079756598E-01 +2.54935600325E-01
1.51000000000E+09 +3.60618950668E-01 +1.70755662223E-01 -2.92837668411E-03 -1.55731155627E-03 -2.86839668741E-03 -1.67184247284E-03 +2.83016222093E-01 +1.54405755908E-01
1.51500000000E+09 +3.17167045787E-01 +8.33586981973E-02 -3.14425894375E-03 -8.22160195043E-04 -3.11549630696E-03 -9.18988405133E-04 +2.28883644727E-01 +5.66005196694E-02
1.52000000000E+09 +2.55201689818E-01 +1.01623850809E-03 -3.34718369760E-03 +6.08917426906E-04 -3.35873690637E-03 +5.63761174778E-04 +1.52000308525E-01 -3.01314492195E-02
1.52500000000E+09 +1.75350336137E-01 -7.01056736160E-02 -2.53571912442E-03 +8.00257041749E-04 -2.53730317788E-03 +7.52650969847E-04 +5.59344348249E-02 -9.86049113303E-02
1.53000000000E+09 +7.93635897303E-02 -1.21581610926E-01 -2.80260725066E-03 +1.46924146681E-03 -2.85321710276E-03 +1.44143856752E-03 -5.09956975335E-02 -1.42388043272E-01
1.53500000000E+09 -2.41355853423E-02 -1.48898357634E-01 -2.72979193756E-03 +2.40760525922E-03 -2.72584357845E-03 +2.36769007468E-03 -1.62664455979E-01 -1.62466525730E-01
1.54000000000E+09 -1.29890808496E-01 -1.52254705709E-01 -1.89031262399E-03 +3.53130281660E-03 -1.93577051230E-03 +3.50020791745E-03 -2.71396050678E-01 -1.59160277831E-01
1.54500000000E+09 -2.31570737267E-01 -1.32795572295E-01 -2.90252772234E-04 +4.43678206251E-03 -4.16785718760E-04 +4.37137408952E-03 -3.70406932160E-01 -1.34856127904E-01
1.55000000000E+09 -3.25493791020E-01 -9.56963757758E-02 +1.79202361427E-03 +3.47952298555E-03 +1.65839881080E-03 +3.49265613835E-03 -4.54830581120E-01 -9.67892838043E-02
1.55500000000E+09 -4.06765247149E-01 -4.36821707642E-02 +1.97783076934E-03 +2.28689689950E-03 +1.92744041808E-03 +2.43930341504E-03 -5.25418246178E-01 -4.96374035340E-02
1.56000000000E+09 -4.72535281502E-01 +1.45823664280E-02 +2.23826337566E-03 +1.50087416418E-03 +2.27229209059E-03 +1.64580310621E-03 -5.82304968845E-01 +3.51675822688E-03
1.56500000000E+09 -5.24997215407E-01 +7.42313575416E-02 +2.09327192197E-03 +9.04927653169E-04 +2.17768700985E-03 +1.01040700744E-03 -6.26589805847E-01 +5.91110781556E-02
1.57000000000E+09 -5.65169222554E-01 +1.33266682414E-01 +1.94885006604E-03 +3.95704970895E-04 +2.07522393242E-03 +4.20883351345E-04 -6.60104605340E-01 +1.14546382208E-01
