# Hz S RI R 50
! CMT, C1220, 16058040, 17.2.0/1
! Date: 14/08/2018 12:14:56
! Data: Format (Calibration Info)
! Freq                      S11: Re/Im (F2)                       S21: Re/Im (F2)                       S12: Re/Im (F2)                       S22: Re/Im (F2)            
1.00000000000E+09 -6.47609068695E-01 +7.14347633555E-01 +3.04311352546E-05 -3.16998209068E-05 -5.09461480865E-05 +4.36111647020E-05 -7.53634536584E-01 +6.24748293312E-01
1.00500000000E+09 -6.40347397194E-01 +7.19460013601E-01 -5.45169551546E-06 +1.82843112433E-05 +1.59239071243E-05 +2.65967890367E-05 -7.50068108674E-01 +6.28953925991E-01
1.01000000000E+09 -6.34642003113E-01 +7.24090520477E-01 +1.41530541787E-06 -1.73973480127E-05 -1.59800228406E-05 -1.82349960760E-05 -7.46433335703E-01 +6.32509981246E-01
1.01500000000E+09 -6.30620497753E-01 +7.27794543542E-01 +5.75443489451E-06 -1.28105200249E-05 -2.67822839180E-05 +4.42773668007E-05 -7.43045807433E-01 +6.36353784598E-01
1.02000000000E+09 -6.28384979208E-01 +7.30944804943E-01 -1.36609605228E-05 -1.53624289666E-05 -1.90409836565E-05 -5.05496904707E-06 -7.39574556189E-01 +6.39842715070E-01
1.02500000000E+09 -6.27082750350E-01 +7.33444004818E-01 -3.27681257199E-05 +6.42724709109E-05 -2.46750790650E-05 +3.10801524568E-05 -7.36919029440E-01 +6.43648721329E-01
1.03000000000E+09 -6.26448385284E-01 +7.35438210245E-01 +1.05838017940E-06 +3.46757574670E-05 -3.96885375571E-05 +3.02335041509E-05 -7.33445909119E-01 +6.47431361640E-01
1.03500000000E+09 -6.24765033916E-01 +7.37636485100E-01 -1.62205372545E-05 +2.22926738593E-05 +8.38347364466E-06 -1.49195202403E-05 -7.29569652341E-01 +6.51418270129E-01
1.04000000000E+09 -6.21530981775E-01 +7.40121936981E-01 +2.13470425464E-05 +1.28262774990E-05 -6.36855826859E-05 -1.40026170666E-06 -7.25785660960E-01 +6.55019925856E-01
1.04500000000E+09 -6.16488293912E-01 +7.43487578251E-01 +2.75125864284E-05 +3.70359178224E-05 -1.16373155990E-05 +9.21319301421E-06 -7.22228126058E-01 +6.58762764547E-01
1.05000000000E+09 -6.09030994374E-01 +7.47513019320E-01 -7.62596607691E-06 -9.82230749269E-06 -4.97075042438E-06 +2.90832395068E-05 -7.18989634276E-01 +6.62117770752E-01
1.05500000000E+09 -6.00381019786E-01 +7.52181825676E-01 -6.71407022366E-06 -2.82440961120E-05 -1.74248815618E-05 +3.07572559898E-05 -7.15635992712E-01 +6.65663070478E-01
1.06000000000E+09 -5.90879146146E-01 +7.57465975170E-01 +2.23080848582E-05 +1.56189164992E-05 -4.54838634028E-05 +2.94141534179E-05 -7.12440727710E-01 +6.69429647995E-01
1.06500000000E+09 -5.81951146928E-01 +7.62704808788E-01 +1.26175758329E-05 +2.54287665738E-05 -1.59898853846E-05 +2.69845591358E-05 -7.08470672379E-01 +6.73211315238E-01
1.07000000000E+09 -5.74357356624E-01 +7.67176463380E-01 +2.68864887775E-05 +4.46769151734E-05 +9.07786490664E-06 +4.04552688565E-05 -7.04483463068E-01 +6.76805704077E-01
1.07500000000E+09 -5.68630393051E-01 +7.71213161513E-01 -7.29071478771E-06 -3.95530782285E-05 +2.19863462145E-05 +3.52518723029E-05 -7.00169519205E-01 +6.80661332759E-01
1.08000000000E+09 -5.64834497732E-01 +7.74450778601E-01 +2.41641756901E-05 +2.11680035009E-05 -4.15412519555E-06 +2.31914499612E-05 -6.96190429903E-01 +6.84427629890E-01
1.08500000000E+09 -5.62674106130E-01 +7.76868230590E-01 +2.74201170654E-05 -1.15262222062E-05 +2.54600089858E-05 -1.28053767720E-05 -6.92188845872E-01 +6.88131123396E-01
1.09000000000E+09 -5.61203350141E-01 +7.78829063480E-01 +2.23870765102E-05 +1.21035671238E-05 +1.05793145317E-05 +4.51653209534E-05 -6.88253628380E-01 +6.92038215146E-01
1.09500000000E+09 -5.59987470822E-01 +7.80517841786E-01 +1.82667346503E-05 +3.52512126712E-05 +1.13511251368E-05 +9.15675814933E-06 -6.84598002426E-01 +6.95878575551E-01
1.10000000000E+09 -5.57357788887E-01 +7.82559589285E-01 +3.43941263765E-05 -2.84224438911E-05 +3.44760198050E-05 +6.05364253465E-05 -6.80522159795E-01 +6.99808954220E-01
1.10500000000E+09 -5.53234257384E-01 +7.84878430599E-01 +3.09150981348E-05 +5.23471191601E-06 +2.26974879779E-05 +4.68126821227E-05 -6.76204453058E-01 +7.03410208423E-01
1.11000000000E+09 -5.47112416405E-01 +7.88038169671E-01 +3.58619277264E-05 +1.50010223250E-06 +1.23109402524E-05 +3.90651813129E-05 -6.72012409938E-01 +7.06799648448E-01
1.11500000000E+09 -5.39525888655E-01 +7.91921178797E-01 +2.83649552539E-06 +1.56040429237E-05 +1.35800770775E-05 +1.79090675055E-05 -6.67850320531E-01 +7.10098934429E-01
1.12000000000E+09 -5.31248250624E-01 +7.95870910020E-01 +9.17307245822E-06 +2.58719616693E-05 +2.62984704218E-05 -2.21772524730E-05 -6.63901585175E-01 +7.13952189843E-01
1.12500000000E+09 -5.22803322843E-01 +8.00134106112E-01 +1.97951424865E-05 -4.96951875175E-06 +5.26111049189E-05 -1.56616809508E-05 -6.59652822005E-01 +7.17826849561E-01
1.13000000000E+09 -5.15610300112E-01 +8.04184809459E-01 +9.44984363583E-05 -1.24485205125E-05 +1.77681652977E-05 +1.90792475009E-05 -6.55439439365E-01 +7.21478694878E-01
1.13500000000E+09 -5.09378995933E-01 +8.07275701387E-01 +6.21058033991E-05 -1.53228833424E-05 -4.70239529751E-06 +3.19536192197E-05 -6.50815815502E-01 +7.25466230600E-01
1.14000000000E+09 -5.04873605082E-01 +8.10046718560E-01 +4.59686714412E-05 -9.28372672523E-06 -9.14504110733E-07 -2.03848026257E-05 -6.46255260276E-01 +7.28664337236E-01
1.14500000000E+09 -5.01365614008E-01 +8.11950397785E-01 +7.31978952118E-05 -4.28500696793E-05 +5.23643294516E-05 +4.22539991287E-05 -6.41561963983E-01 +7.32167508168E-01
1.15000000000E+09 -4.98369109876E-01 +8.13619232288E-01 -1.68242902158E-05 -2.87934152817E-05 +5.17478553737E-05 +2.91585687823E-05 -6.36946983287E-01 +7.36006479117E-01
1.15500000000E+09 -4.95308410288E-01 +8.15331039372E-01 +7.87578763503E-05 -2.48329202859E-05 +3.90064060772E-05 -3.89281114501E-07 -6.31990676374E-01 +7.39793795839E-01
1.16000000000E+09 -4.90993836970E-01 +8.16955255633E-01 +4.46334434529E-06 -2.21170521965E-06 +2.07116876981E-05 -1.37659907003E-05 -6.27330937638E-01 +7.43589205775E-01
1.16500000000E+09 -4.85571692466E-01 +8.19523896279E-01 +9.74152587054E-06 +2.89320269043E-05 +3.07816737726E-05 +1.17908793161E-05 -6.22342769321E-01 +7.47286870453E-01
1.17000000000E+09 -4.78362086259E-01 +8.22453551930E-01 +1.06045199817E-05 -1.34033575591E-05 +5.56128043625E-05 +9.72656630979E-06 -6.16719521028E-01 +7.50453979335E-01
1.17500000000E+09 -4.70224871891E-01 +8.25823017904E-01 +4.14666598102E-05 -2.28621239477E-05 +4.21742665072E-05 +4.92289906198E-05 -6.11049366581E-01 +7.53765464763E-01
1.18000000000E+09 -4.61843290271E-01 +8.29424878466E-01 +6.34980093211E-05 +2.98745173028E-06 +2.47848907957E-05 -1.38270716019E-07 -6.05314592469E-01 +7.56999172005E-01
1.18500000000E+09 -4.53649804356E-01 +8.32788634729E-01 +7.78126282848E-05 +1.63148938407E-06 +5.74449518217E-05 -8.91209730805E-06 -5.99303447524E-01 +7.59947671603E-01
1.19000000000E+09 -4.46340783806E-01 +8.35572828242E-01 +5.07269510487E-05 -2.64373468654E-05 +3.20724970719E-05 +1.07634389556E-05 -5.93221001895E-01 +7.62726861925E-01
1.19500000000E+09 -4.40511576608E-01 +8.37851631002E-01 +8.03772990602E-05 -5.07862320830E-05 +1.05588730083E-04 -6.22726564854E-05 -5.87372130742E-01 +7.63842210223E-01
1.20000000000E+09 -4.36160250837E-01 +8.38968112149E-01 +5.41824462171E-05 -8.52906706518E-05 +7.16835407678E-05 -9.91361897155E-05 -5.82859514517E-01 +7.64142265995E-01
1.20500000000E+09 -4.32339194914E-01 +8.40377386139E-01 +6.15814481806E-06 -1.07291152010E-04 -2.30011074973E-06 -7.44249341094E-05 -5.80468058743E-01 +7.64868858399E-01
1.21000000000E+09 -4.28415579785E-01 +8.41480824948E-01 +1.46770693122E-05 -9.43669699171E-05 -1.21036421209E-05 -9.17520123764E-05 -5.78858750847E-01 +7.67970170337E-01
1.21500000000E+09 -4.23144878834E-01 +8.43030606350E-01 +2.39973326085E-05 -5.94991383046E-05 +4.78853681362E-05 -6.01459358222E-05 -5.75969336547E-01 +7.72687697379E-01
1.22000000000E+09 -4.16165411184E-01 +8.44752784370E-01 -2.37368856002E-05 -9.48934046097E-05 +2.59731806319E-05 -1.86010109091E-05 -5.71798249156E-01 +7.78048055589E-01
1.22500000000E+09 -4.07358411667E-01 +8.47498876037E-01 +2.28080540976E-06 -8.54793841130E-05 -9.07564058754E-06 -5.55011244621E-05 -5.66796561390E-01 +7.83032639930E-01
1.23000000000E+09 -3.96930202871E-01 +8.50504317794E-01 +4.92969912057E-05 -7.83426073545E-05 +1.26216866368E-05 -1.34268977880E-04 -5.60947314832E-01 +7.87680441712E-01
1.23500000000E+09 -3.85944956471E-01 +8.54007029602E-01 +7.67108668264E-08 -7.36537990516E-05 +2.49692136764E-05 -1.06440356631E-04 -5.55124598175E-01 +7.92057360643E-01
1.24000000000E+09 -3.74790232597E-01 +8.57934606784E-01 -2.57288060123E-05 -5.99288612821E-05 +1.42065732597E-05 -8.41401373592E-05 -5.49153117769E-01 +7.95840464634E-01
1.24500000000E+09 -3.64830834167E-01 +8.61992613774E-01 -1.75331313529E-05 -8.65035656537E-05 -1.14550501190E-06 -9.23965854691E-05 -5.42825393158E-01 +7.99665831733E-01
1.25000000000E+09 -3.56370418342E-01 +8.65418096794E-01 -3.87728552750E-05 -1.47284330083E-04 +2.07454358455E-06 -1.58662554465E-04 -5.36190638226E-01 +8.04069371100E-01
1.25500000000E+09 -3.49562884257E-01 +8.67930495027E-01 -3.10213924276E-05 -1.58330892202E-04 -4.30338070161E-05 -9.57353746486E-05 -5.29270258457E-01 +8.07985662224E-01
1.26000000000E+09 -3.44476654555E-01 +8.69927901640E-01 -1.02377176696E-04 -1.05083095576E-04 -6.39650358671E-05 -1.29399469583E-04 -5.22658792884E-01 +8.12314839127E-01
1.26500000000E+09 -3.40169126990E-01 +8.71399352093E-01 -9.51569808102E-05 -1.26445354867E-04 -8.63881298524E-05 -8.61367440964E-05 -5.15560730836E-01 +8.16140682054E-01
1.27000000000E+09 -3.35566528483E-01 +8.72704661187E-01 -8.32952625776E-05 -1.45868040777E-04 -1.30288201318E-04 -1.25304021745E-04 -5.08796477194E-01 +8.19944510699E-01
1.27500000000E+09 -3.29851546820E-01 +8.73910675726E-01 -1.28600368364E-04 -1.27453340778E-04 -1.16222851553E-04 -7.56016448860E-05 -5.01792710003E-01 +8.23587717536E-01
1.28000000000E+09 -3.22091017005E-01 +8.75688751046E-01 -1.45915471060E-04 -9.78116071754E-05 -1.50735168113E-04 -1.15746180599E-04 -4.94659672773E-01 +8.27002243790E-01
1.28500000000E+09 -3.11908695123E-01 +8.77795286429E-01 -1.72283154944E-04 -3.43950790681E-05 -1.27714859419E-04 -9.91716161929E-05 -4.87270982068E-01 +8.30821454571E-01
1.29000000000E+09 -3.00276304860E-01 +8.80444373683E-01 -1.48843345743E-04 -6.65709140100E-05 -2.01234235827E-04 -3.11856275545E-05 -4.79621503060E-01 +8.34444290870E-01
1.29500000000E+09 -2.87454713253E-01 +8.83550357691E-01 -1.92310615608E-04 -6.17774953967E-05 -2.05492087177E-04 -2.32652682470E-05 -4.71825871658E-01 +8.38013020376E-01
1.30000000000E+09 -2.74559231515E-01 +8.86885628032E-01 -2.10392578375E-04 -8.07754468849E-05 -2.23565447880E-04 -1.22268573610E-05 -4.63984891295E-01 +8.41540768274E-01
1.30500000000E+09 -2.62966003572E-01 +8.90013570100E-01 -2.46888455998E-04 +7.14823166202E-06 -2.11593145055E-04 -1.27056059356E-05 -4.55837402403E-01 +8.44987108819E-01
1.31000000000E+09 -2.53001635164E-01 +8.92566698117E-01 -2.26737750762E-04 +5.03563262630E-05 -2.30170405373E-04 +6.96182291691E-05 -4.47537861180E-01 +8.48387631049E-01
1.31500000000E+09 -2.45295065471E-01 +8.94440064061E-01 -1.95277519325E-04 +5.86752489601E-05 -1.96039538602E-04 +5.19734594776E-05 -4.38656457541E-01 +8.51815989955E-01
1.32000000000E+09 -2.39393885999E-01 +8.95572885787E-01 -1.76399159090E-04 +1.00265869151E-04 -1.67730884000E-04 +5.71269740229E-05 -4.29559665969E-01 +8.55147629293E-01
1.32500000000E+09 -2.34000895318E-01 +8.96066189008E-01 -1.73961900375E-04 +5.95060377427E-05 -2.48904337059E-04 +9.31661889782E-05 -4.19967821464E-01 +8.58723754335E-01
1.33000000000E+09 -2.27852590869E-01 +8.96136687013E-01 -2.35280584942E-04 +8.25697082762E-05 -2.21462857643E-04 +7.39372161350E-05 -4.10344299093E-01 +8.61899980182E-01
1.33500000000E+09 -2.19896759001E-01 +8.95839333102E-01 -2.59063649650E-04 +1.12425720252E-04 -2.18623850698E-04 +1.46412308351E-04 -4.00430771030E-01 +8.65171981091E-01
1.34000000000E+09 -2.09451929589E-01 +8.95579557854E-01 -2.24673107768E-04 +1.67939434426E-04 -1.89562725221E-04 +1.69403244872E-04 -3.90264828656E-01 +8.68452600811E-01
1.34500000000E+09 -1.95840507139E-01 +8.95308193685E-01 -2.05843104734E-04 +1.91093699638E-04 -1.60833918922E-04 +1.64057936471E-04 -3.79306819693E-01 +8.71850198341E-01
1.35000000000E+09 -1.80081105978E-01 +8.95242342769E-01 -1.26773164920E-04 +1.85395594115E-04 -1.62820767295E-04 +2.09418891650E-04 -3.68272128709E-01 +8.74951118855E-01
1.35500000000E+09 -1.62454974354E-01 +8.95622603434E-01 -1.84228804680E-04 +2.29986878286E-04 -1.49893229244E-04 +1.73256655559E-04 -3.56682720310E-01 +8.77704328082E-01
1.36000000000E+09 -1.45107864913E-01 +8.96047085578E-01 -1.88381115730E-04 +2.70047947811E-04 -1.99618237062E-04 +2.81800087485E-04 -3.44769290965E-01 +8.80476043084E-01
1.36500000000E+09 -1.28686917525E-01 +8.96403044142E-01 -1.91294627789E-04 +3.59143418368E-04 -1.37537859779E-04 +2.80612846879E-04 -3.32613118295E-01 +8.82951966550E-01
1.37000000000E+09 -1.14032271771E-01 +8.96559979528E-01 -1.26063127944E-04 +2.89334836096E-04 -1.58524675066E-04 +3.21249863809E-04 -3.19750815965E-01 +8.85409305273E-01
1.37500000000E+09 -1.01750715305E-01 +8.96583933875E-01 -1.44659767115E-04 +4.36147801972E-04 -1.97089447245E-04 +3.97043541303E-04 -3.06178354413E-01 +8.87654883795E-01
1.38000000000E+09 -9.11457603222E-02 +8.96269907992E-01 -2.15085028372E-05 +4.97452498205E-04 -6.82864565575E-05 +5.20672982698E-04 -2.91473885011E-01 +8.89708452831E-01
1.38500000000E+09 -8.06069318707E-02 +8.95334873696E-01 +8.22542999693E-05 +4.90401887416E-04 +7.63366930147E-05 +5.30058884754E-04 -2.75943022525E-01 +8.91763887984E-01
1.39000000000E+09 -6.96477183103E-02 +8.93492911800E-01 +9.73574690547E-05 +4.29525562669E-04 +1.15293849085E-04 +5.03956489405E-04 -2.60049972714E-01 +8.93293869107E-01
1.39500000000E+09 -5.62519204156E-02 +8.90953874292E-01 +1.71821513697E-04 +4.88073913945E-04 +1.70575669879E-04 +5.31901765017E-04 -2.43207516333E-01 +8.94035869629E-01
1.40000000000E+09 -4.00331105616E-02 +8.87261520695E-01 +2.79696113967E-04 +4.82718296143E-04 +2.98486108322E-04 +5.03890587567E-04 -2.25556951669E-01 +8.94608119970E-01
1.40500000000E+09 -2.10095022900E-02 +8.82534447062E-01 +2.25757426655E-04 +3.61898588527E-04 +2.44696174638E-04 +3.29258528731E-04 -2.06785182343E-01 +8.94562378793E-01
1.41000000000E+09 +3.41202888043E-04 +8.76830200285E-01 +2.45750144498E-04 +4.39343638067E-04 +1.72440676628E-04 +3.96331195824E-04 -1.86377025882E-01 +8.93922962560E-01
1.41500000000E+09 +2.30943846963E-02 +8.70666974877E-01 +2.05859933329E-04 +4.13427269030E-04 +2.42306149503E-04 +4.56090445786E-04 -1.64650759881E-01 +8.92266860556E-01
1.42000000000E+09 +4.62627599402E-02 +8.64108695439E-01 +3.15399298709E-04 +4.89337910475E-04 +3.62647920928E-04 +5.78959081140E-04 -1.42038313584E-01 +8.89581689996E-01
1.42500000000E+09 +6.88119981727E-02 +8.56845776734E-01 +4.87348012768E-04 +4.22448675413E-04 +5.24747470109E-04 +4.39445352374E-04 -1.18248981657E-01 +8.85974027139E-01
1.43000000000E+09 +9.00749962792E-02 +8.49011458839E-01 +4.69241357547E-04 +4.18062758633E-04 +5.47542035648E-04 +3.60836389899E-04 -9.33671461637E-02 +8.81265928217E-01
1.43500000000E+09 +1.10458746392E-01 +8.39563863462E-01 +5.67058617938E-04 +4.75664373531E-04 +5.94616127981E-04 +4.30933255573E-04 -6.71232801888E-02 +8.74748914097E-01
1.44000000000E+09 +1.30436372307E-01 +8.29285144844E-01 +6.17495550451E-04 +3.61332948899E-04 +6.84779986954E-04 +3.30107410888E-04 -3.89101873152E-02 +8.65913223317E-01
1.44500000000E+09 +1.51846327802E-01 +8.16278364202E-01 +7.09860677902E-04 +4.17434129096E-04 +7.24049254157E-04 +4.25609475790E-04 -9.01320858184E-03 +8.54407789378E-01
1.45000000000E+09 +1.75122620257E-01 +7.99854395506E-01 +8.27512421053E-04 +4.24659937652E-04 +8.91541733062E-04 +3.94415992293E-04 +2.26705814371E-02 +8.40169552416E-01
1.45500000000E+09 +2.00898472937E-01 +7.79180553515E-01 +1.03322257481E-03 +3.99708081658E-04 +1.03285644059E-03 +3.13659238792E-04 +5.61118002728E-02 +8.22790636533E-01
1.46000000000E+09 +2.29864279081E-01 +7.53879191730E-01 +1.19537189828E-03 +3.78483817744E-04 +1.17626472023E-03 +2.69963915505E-04 +9.12824987267E-02 +8.00944910623E-01
1.46500000000E+09 +2.61170293263E-01 +7.23412658894E-01 +1.52686161666E-03 +4.18891328751E-04 +1.36646672361E-03 +3.10422011189E-04 +1.26774765231E-01 +7.74359692346E-01
1.47000000000E+09 +2.93790236289E-01 +6.87631611184E-01 +2.02975171186E-03 +2.18729111478E-04 +1.86041034838E-03 +1.96002469558E-04 +1.63949801044E-01 +7.41588885718E-01
1.47500000000E+09 +3.25672883872E-01 +6.45955137708E-01 +2.39780498371E-03 -4.70017825113E-04 +2.27606235133E-03 -3.42483280168E-04 +2.01963144616E-01 +7.01361840731E-01
1.48000000000E+09 +3.55018592466E-01 +5.98793619381E-01 +2.35481803184E-03 -9.78015922176E-04 +2.37153581909E-03 -8.67427660003E-04 +2.39604297024E-01 +6.51898821120E-01
1.48500000000E+09 +3.80099398208E-01 +5.45567257223E-01 +2.53492059272E-03 -1.52282012254E-03 +2.64413091259E-03 -1.57527805687E-03 +2.74530403723E-01 +5.92777490423E-01
1.49000000000E+09 +3.99042898003E-01 +4.86023714655E-01 +2.38996841958E-03 -2.21507253308E-03 +2.27151211859E-03 -2.37474567637E-03 +3.03238643272E-01 +5.22778957696E-01
1.49500000000E+09 +4.11170945084E-01 +4.19039992112E-01 +2.62457869891E-03 -2.99204300939E-03 +2.38035474489E-03 -2.96999881082E-03 +3.22800528774E-01 +4.42898921758E-01
1.50000000000E+09 +4.13348370469E-01 +3.42653271603E-01 +2.01998555059E-03 -4.65726779383E-03 +1.89781555675E-03 -4.38876382008E-03 +3.29422283223E-01 +3.52422857692E-01
1.50500000000E+09 +4.02376553343E-01 +2.58279684046E-01 +3.81409550667E-04 -5.74589618992E-03 +5.62664264259E-04 -5.51837477029E-03 +3.18084863717E-01 +2.53992987115E-01
1.51000000000E+09 +3.75291978029E-01 +1.67808017851E-01 -1.37499859215E-03 -5.86819014496E-03 -1.11575339036E-03 -5.88346964830E-03 +2.85311410409E-01 +1.52525793678E-01
1.51500000000E+09 +3.29597647528E-01 +7.68600457822E-02 -3.46068292308E-03 -5.86096808234E-03 -3.35084402478E-03 -6.05986618617E-03 +2.30852850519E-01 +5.37275314851E-02
1.52000000000E+09 +2.65085829627E-01 -9.14066908417E-03 -5.32151764850E-03 -4.16566884794E-03 -5.36725987751E-03 -4.32474455599E-03 +1.52396023031E-01 -3.41302427562E-02
1.52500000000E+09 +1.81396519307E-01 -8.32418313715E-02 -5.81675121509E-03 -2.81397931999E-03 -5.92762890094E-03 -2.89766971175E-03 +5.55601919635E-02 -1.01782259632E-01
1.53000000000E+09 +8.17545055236E-02 -1.37955066164E-01 -6.80135386612E-03 -1.43929709337E-03 -6.88723797445E-03 -1.44606609659E-03 -5.19490499679E-02 -1.46522116858E-01
1.53500000000E+09 -2.78705173040E-02 -1.67510018284E-01 -7.32919477320E-03 +8.75586083154E-04 -7.32793261707E-03 +8.72186124392E-04 -1.64799770377E-01 -1.66390280922E-01
1.54000000000E+09 -1.39831342976E-01 -1.69479411398E-01 -6.58529163110E-03 +2.68005103457E-03 -6.45778669896E-03 +2.68328254733E-03 -2.73266275346E-01 -1.62106055748E-01
1.54500000000E+09 -2.45610340642E-01 -1.47306366186E-01 -5.58023269944E-03 +4.94116249995E-03 -5.55977583197E-03 +4.76864045020E-03 -3.72689280119E-01 -1.39137251304E-01
1.55000000000E+09 -3.42247574734E-01 -1.06060403266E-01 -3.26668010745E-03 +5.91093473123E-03 -3.40945204495E-03 +5.73520694501E-03 -4.58622214203E-01 -1.00701504707E-01
1.55500000000E+09 -4.24333021586E-01 -5.02462898595E-02 -1.47836173224E-03 +5.99062471619E-03 -1.79381668887E-03 +6.05047113715E-03 -5.29396436253E-01 -5.27700989969E-02
1.56000000000E+09 -4.90278038070E-01 +1.19037988125E-02 +1.04248012389E-04 +5.78712196022E-03 -9.21545979895E-05 +6.06384049858E-03 -5.86309037675E-01 +3.70368024129E-04
1.56500000000E+09 -5.41839228067E-01 +7.41553375633E-02 +1.62606430724E-03 +5.04169744266E-03 +1.67330754685E-03 +5.29593089809E-03 -6.30928942525E-01 +5.62564346083E-02
1.57000000000E+09 -5.81919440425E-01 +1.35060637542E-01 +2.56012834445E-03 +3.61059611963E-03 +2.74271193962E-03 +3.79921436188E-03 -6.64391480879E-01 +1.11457335987E-01
