# Hz S RI R 50
! CMT, C1220, 16058040, 17.2.0/1
! Date: 14/08/2018 12:15:16
! Data: Format (Calibration Info)
! Freq                      S11: Re/Im (F2)                       S21: Re/Im (F2)                       S12: Re/Im (F2)                       S22: Re/Im (F2)            
1.00000000000E+09 -6.47822755901E-01 +7.14383528338E-01 -1.33814053831E-05 -2.57819501170E-05 -1.54237593335E-06 +7.70781071144E-06 -7.53644162756E-01 +6.24831995051E-01
1.00500000000E+09 -6.40458571272E-01 +7.19542649237E-01 -1.37413442534E-05 -8.78056351278E-07 +4.19917355566E-05 +9.31479295190E-06 -7.50035153287E-01 +6.28896829994E-01
1.01000000000E+09 -6.34761121225E-01 +7.24091308506E-01 +3.40187437028E-05 -4.62234676126E-05 -2.42074439108E-05 -5.10410609667E-05 -7.46379868357E-01 +6.32752354140E-01
1.01500000000E+09 -6.31050962770E-01 +7.27949973655E-01 -1.95503769053E-05 -1.00799748514E-05 -2.24960461551E-05 +2.90413602979E-06 -7.43218620424E-01 +6.36323144829E-01
1.02000000000E+09 -6.28670830024E-01 +7.30956526974E-01 -2.21908227771E-05 +1.02398131796E-05 +3.48930200444E-05 -6.77517868056E-05 -7.39591750027E-01 +6.39961656552E-01
1.02500000000E+09 -6.27505947965E-01 +7.33317612262E-01 +4.03087180833E-05 +3.71541535589E-05 -4.83443798493E-06 +4.99557690062E-05 -7.36823268047E-01 +6.43575652321E-01
1.03000000000E+09 -6.26842224420E-01 +7.35467457868E-01 -2.78714013977E-05 +1.68926900298E-05 +3.19817606397E-05 +9.42878901761E-08 -7.33274483117E-01 +6.47584254647E-01
1.03500000000E+09 -6.24992139057E-01 +7.37487298363E-01 -1.28402808800E-05 +4.14342387417E-05 +1.96558208212E-05 +3.47758226960E-05 -7.29572333488E-01 +6.51428336619E-01
1.04000000000E+09 -6.21883557482E-01 +7.40086945235E-01 +4.02293836430E-05 +4.94838289706E-05 +1.78467822522E-05 +7.38452270588E-05 -7.25705057496E-01 +6.55105727237E-01
1.04500000000E+09 -6.16669539777E-01 +7.43341181909E-01 -3.45973991392E-05 +5.75561749461E-07 -6.02999776824E-05 +3.46179061624E-05 -7.22157256520E-01 +6.58659665779E-01
1.05000000000E+09 -6.09502519614E-01 +7.47429146190E-01 -3.97404565364E-05 +1.08871070194E-05 +1.49911159738E-05 +1.20691211165E-06 -7.18887753889E-01 +6.62096166944E-01
1.05500000000E+09 -6.00758628959E-01 +7.52131634666E-01 -3.33044638012E-06 +2.40479460032E-06 +5.16490823733E-06 +5.32262939224E-05 -7.15586850641E-01 +6.65664389812E-01
1.06000000000E+09 -5.91358069640E-01 +7.57379547671E-01 -4.36816002880E-06 +1.21438950813E-05 +1.53102853573E-06 +5.63972273316E-05 -7.12358168263E-01 +6.69338885329E-01
1.06500000000E+09 -5.82375374235E-01 +7.62554767074E-01 +2.17133991623E-05 +4.27195444066E-05 +1.54609309901E-05 +3.53275068039E-05 -7.08658920442E-01 +6.73100023233E-01
1.07000000000E+09 -5.74903051220E-01 +7.67011338731E-01 +2.69618261946E-05 +6.36598360875E-05 +3.77678187382E-05 +4.74509920611E-05 -7.04562963765E-01 +6.76947321934E-01
1.07500000000E+09 -5.69101384093E-01 +7.71178891514E-01 -1.97534210278E-05 +5.25553702257E-05 -1.17260803861E-05 +7.03927204977E-05 -7.00157581085E-01 +6.80648163642E-01
1.08000000000E+09 -5.65342532248E-01 +7.74391312332E-01 +1.09621128804E-05 +3.56917296067E-05 +5.94109886306E-05 -3.53970860292E-06 -6.96203267430E-01 +6.84593148781E-01
1.08500000000E+09 -5.63259122501E-01 +7.76822543671E-01 +3.74683107949E-06 -1.38123605270E-05 +4.54227173669E-05 -2.24141523476E-05 -6.92097617552E-01 +6.88153335863E-01
1.09000000000E+09 -5.61896912133E-01 +7.78831606491E-01 -1.23895682864E-05 -8.84960900864E-06 -3.24295455318E-06 +2.21354679846E-05 -6.88340176317E-01 +6.92133438736E-01
1.09500000000E+09 -5.60615746599E-01 +7.80432415271E-01 +5.13478235879E-05 +1.01612217258E-05 +8.56789135097E-06 -6.21364799848E-06 -6.84557218243E-01 +6.95969913945E-01
1.10000000000E+09 -5.57878292873E-01 +7.82444371824E-01 +3.50343174095E-05 +3.18783766982E-05 +5.06546472307E-05 +1.18771763574E-05 -6.80653765723E-01 +6.99750556465E-01
1.10500000000E+09 -5.53789835488E-01 +7.84853414117E-01 +4.96946113096E-05 -1.03367299975E-05 +2.11578426080E-05 +1.85060646768E-05 -6.76316636280E-01 +7.03331354197E-01
1.11000000000E+09 -5.47621098099E-01 +7.87936547414E-01 -2.48296493705E-05 +3.24205132686E-05 -1.02456598661E-05 -8.24867638657E-06 -6.72136148104E-01 +7.06868510248E-01
1.11500000000E+09 -5.40049507356E-01 +7.91796700269E-01 +5.75613589475E-05 -5.25188719616E-06 +2.87805613643E-05 -1.85692361913E-05 -6.67978835627E-01 +7.10027703281E-01
1.12000000000E+09 -5.31853677480E-01 +7.96070935919E-01 +1.80535606464E-05 -1.24629167598E-06 +4.54657761757E-05 +1.75469425401E-05 -6.63897246343E-01 +7.13855470094E-01
1.12500000000E+09 -5.23443080801E-01 +8.00334796972E-01 +1.96021493924E-05 -1.92480005848E-06 +1.31640055013E-05 +7.22234898336E-06 -6.59687647001E-01 +7.17866976883E-01
1.13000000000E+09 -5.15981402639E-01 +8.04338994097E-01 +9.47228012371E-06 +6.18938507320E-06 -3.23544710982E-05 -4.53341017243E-06 -6.55405304616E-01 +7.21505504867E-01
1.13500000000E+09 -5.10023418919E-01 +8.07288797330E-01 -3.64934916690E-07 +1.67124545276E-05 +9.04936196663E-06 -1.45206849582E-05 -6.50962594539E-01 +7.25354252148E-01
1.14000000000E+09 -5.05339505239E-01 +8.10072216227E-01 +2.59938935001E-05 +1.40060151248E-05 +6.55974659671E-05 -7.95579496558E-06 -6.46255900832E-01 +7.28680553341E-01
1.14500000000E+09 -5.01837367882E-01 +8.11886274814E-01 +2.92694844006E-05 -2.44245783851E-05 -1.33765281569E-05 -1.84872362654E-05 -6.41608104880E-01 +7.32108824141E-01
1.15000000000E+09 -4.99014225829E-01 +8.13732860983E-01 +4.87625210422E-05 -4.82268593938E-06 +6.02727927054E-05 -8.08200877909E-06 -6.36932192655E-01 +7.35880696845E-01
1.15500000000E+09 -4.95903173409E-01 +8.15278703390E-01 +1.83621840372E-05 +3.05206469356E-05 +1.63168099100E-05 +4.85486336100E-05 -6.32178955873E-01 +7.39820215624E-01
1.16000000000E+09 -4.91666633880E-01 +8.17093593007E-01 +2.65596368827E-05 -9.91063377800E-06 +3.34670839168E-05 -3.15570661155E-05 -6.27249036663E-01 +7.43649944269E-01
1.16500000000E+09 -4.86135940181E-01 +8.19686971049E-01 +8.79443187746E-05 -1.71719185759E-05 +3.51080350730E-05 +6.17971948617E-06 -6.22237790002E-01 +7.47186538614E-01
1.17000000000E+09 -4.79054032442E-01 +8.22689506034E-01 +3.95232870440E-05 +1.55147443749E-05 +3.47287722110E-05 -8.17459358771E-06 -6.16731958164E-01 +7.50651702725E-01
1.17500000000E+09 -4.70869932241E-01 +8.25971338401E-01 +5.12794292140E-05 -1.86332638560E-05 +4.95000346907E-05 -3.97993864763E-06 -6.11159721607E-01 +7.53964033268E-01
1.18000000000E+09 -4.62386943322E-01 +8.29683818160E-01 +2.98618997244E-05 +7.68287470697E-06 +8.79860353752E-05 -2.80190092071E-06 -6.05452383498E-01 +7.56977397344E-01
1.18500000000E+09 -4.54230832003E-01 +8.32920351966E-01 +5.28191436016E-05 -6.19153752936E-07 +4.58331881822E-05 -1.18316218485E-05 -5.99386191842E-01 +7.59907028757E-01
1.19000000000E+09 -4.46993351243E-01 +8.35702797913E-01 +5.48939924780E-05 -3.95282596733E-06 +9.79128517098E-05 -3.44833092027E-06 -5.93263826727E-01 +7.62673645850E-01
1.19500000000E+09 -4.41206086877E-01 +8.38009350602E-01 +1.15416661118E-04 -5.91702734606E-05 +8.77139223096E-05 -7.56103284622E-05 -5.87417373894E-01 +7.63957044542E-01
1.20000000000E+09 -4.36717911413E-01 +8.39113240392E-01 +5.27846547870E-05 -1.11965653223E-04 +8.34521814312E-05 -1.31727792388E-04 -5.82757420296E-01 +7.64128209991E-01
1.20500000000E+09 -4.33159737254E-01 +8.40456927556E-01 +2.98659026242E-05 -1.05894216844E-04 +5.22249985300E-06 -5.69500798188E-05 -5.80451908456E-01 +7.64934089571E-01
1.21000000000E+09 -4.29040802303E-01 +8.41743022239E-01 -3.98899459620E-05 -1.17897189625E-04 +8.67235522646E-06 -9.73501890179E-05 -5.78662028758E-01 +7.67902075561E-01
1.21500000000E+09 -4.23936983223E-01 +8.43154427161E-01 -2.50977453169E-05 -1.03634308777E-04 +3.82262729962E-05 -6.58270059032E-05 -5.75936460615E-01 +7.72559779579E-01
1.22000000000E+09 -4.17034073680E-01 +8.45067458402E-01 +2.11977628224E-07 -7.13101582724E-05 +4.34472549283E-05 -4.41345366173E-05 -5.71749460568E-01 +7.77835857771E-01
1.22500000000E+09 -4.07971668239E-01 +8.47712816364E-01 +3.61228690037E-05 -6.56883932551E-05 +1.25072749146E-05 -9.34575348074E-05 -5.66630603210E-01 +7.82984983810E-01
1.23000000000E+09 -3.97781275681E-01 +8.50780037318E-01 +5.23151920179E-05 -5.27635125435E-05 -8.71519227081E-06 -7.52301022798E-05 -5.60962543514E-01 +7.87743022519E-01
1.23500000000E+09 -3.86727035309E-01 +8.54397325708E-01 +9.59160440865E-06 -1.06292459907E-04 -2.51777772934E-05 -7.64425697457E-05 -5.55270603352E-01 +7.92014711489E-01
1.24000000000E+09 -3.75633617254E-01 +8.58258883615E-01 -1.24535464256E-05 -7.96321524192E-05 -2.89042576514E-05 -6.40053121189E-05 -5.49176531151E-01 +7.95932758071E-01
1.24500000000E+09 -3.65651732183E-01 +8.62344257838E-01 +9.20259827520E-07 -1.05982731902E-04 +1.35298650877E-05 -1.02804424497E-04 -5.42850585985E-01 +7.99746474393E-01
1.25000000000E+09 -3.56988139500E-01 +8.65719999232E-01 -7.67451792328E-05 -1.05559839068E-04 -5.26921653290E-05 -1.21234634926E-04 -5.36182400055E-01 +8.04050328335E-01
1.25500000000E+09 -3.50356321987E-01 +8.68173193216E-01 -7.60009069807E-05 -1.09312411088E-04 -7.20898290959E-05 -1.11449147514E-04 -5.29322921753E-01 +8.07917725348E-01
1.26000000000E+09 -3.45270474831E-01 +8.70332618595E-01 -1.04742229091E-04 -9.82765873456E-05 -1.00829771678E-04 -9.60008449829E-05 -5.22699958677E-01 +8.12285179545E-01
1.26500000000E+09 -3.40881315825E-01 +8.71776293334E-01 -6.02486157199E-05 -8.71493918088E-05 -5.42985596921E-05 -1.39316953089E-04 -5.15592805510E-01 +8.16145986987E-01
1.27000000000E+09 -3.36385901202E-01 +8.73018604346E-01 -9.28609773556E-05 -8.45588321143E-05 -1.37021383996E-04 -6.31858804129E-05 -5.08812879282E-01 +8.19876664847E-01
1.27500000000E+09 -3.30687080119E-01 +8.74383442501E-01 -1.33886928979E-04 -1.09863498551E-04 -1.23097824577E-04 -6.46668524709E-05 -5.01690077290E-01 +8.23554032999E-01
1.28000000000E+09 -3.23006360588E-01 +8.76034612650E-01 -1.51926395914E-04 -9.64022732604E-05 -1.33238057887E-04 -7.85320242423E-05 -4.94721540393E-01 +8.27098140216E-01
1.28500000000E+09 -3.12785565076E-01 +8.78195863111E-01 -1.24804494157E-04 -9.77472817058E-05 -1.36862057208E-04 -6.96920531588E-05 -4.87298904354E-01 +8.30808068939E-01
1.29000000000E+09 -3.01016074537E-01 +8.80878363083E-01 -1.47174910823E-04 -4.93915267053E-05 -1.47673934188E-04 -8.61956354299E-05 -4.79820045019E-01 +8.34333999326E-01
1.29500000000E+09 -2.88240243531E-01 +8.83948333908E-01 -1.47711924058E-04 -6.47624530876E-06 -1.89164752891E-04 -3.74666437455E-05 -4.71839786245E-01 +8.37971962944E-01
1.30000000000E+09 -2.75491395639E-01 +8.87385365023E-01 -2.16295530514E-04 -5.93375974822E-05 -1.94904842230E-04 -1.77640081391E-05 -4.63987415653E-01 +8.41513540976E-01
1.30500000000E+09 -2.63677316961E-01 +8.90488143063E-01 -2.31631166015E-04 +2.91675985661E-05 -1.99421113036E-04 +4.99407672742E-05 -4.55934169210E-01 +8.44818584800E-01
1.31000000000E+09 -2.53804345531E-01 +8.92959856218E-01 -2.42235529651E-04 +3.31026135611E-05 -2.09207249187E-04 +6.32300308860E-05 -4.47724406218E-01 +8.48303295096E-01
1.31500000000E+09 -2.46136522416E-01 +8.94776263906E-01 -1.70147369355E-04 +5.33010462449E-05 -1.72126762638E-04 +4.08962051028E-05 -4.38812685435E-01 +8.51958662313E-01
1.32000000000E+09 -2.40247916453E-01 +8.95944018847E-01 -1.45251286342E-04 +4.44936084814E-05 -1.42466606949E-04 +7.10843376987E-05 -4.29763510101E-01 +8.55220945076E-01
1.32500000000E+09 -2.34875876639E-01 +8.96441648698E-01 -1.93657362241E-04 +4.12914298003E-05 -2.48273396503E-04 +5.49356901893E-05 -4.20068339949E-01 +8.58708884668E-01
1.33000000000E+09 -2.28765001880E-01 +8.96543032513E-01 -2.37797300767E-04 +7.66163319985E-05 -2.14578668299E-04 +9.76833745692E-05 -4.10451060807E-01 +8.61825311945E-01
1.33500000000E+09 -2.20951574876E-01 +8.96150634506E-01 -2.40960811608E-04 +1.40084337905E-04 -2.24518749827E-04 +1.40950739712E-04 -4.00493726489E-01 +8.65244719843E-01
1.34000000000E+09 -2.10448785603E-01 +8.96087376159E-01 -1.95362174472E-04 +2.16228151626E-04 -1.70178007443E-04 +1.83720811394E-04 -3.90236573268E-01 +8.68481165987E-01
1.34500000000E+09 -1.96910350636E-01 +8.95800378865E-01 -8.80574183909E-05 +1.96319728823E-04 -1.54583369513E-04 +1.60564478204E-04 -3.79371070957E-01 +8.71856254753E-01
1.35000000000E+09 -1.81035429158E-01 +8.95892902065E-01 -1.55611965059E-04 +2.17526931448E-04 -1.45320870080E-04 +1.84471083438E-04 -3.68323483250E-01 +8.74875743305E-01
1.35500000000E+09 -1.63468838920E-01 +8.96183716444E-01 -1.68572333009E-04 +2.07339910914E-04 -1.57377083008E-04 +2.15273207269E-04 -3.56786110833E-01 +8.77830808843E-01
1.36000000000E+09 -1.46006641181E-01 +8.96534694191E-01 -1.83955728120E-04 +2.56430366203E-04 -2.10961264168E-04 +3.02857488841E-04 -3.44797628640E-01 +8.80513689365E-01
1.36500000000E+09 -1.29531447523E-01 +8.97020694012E-01 -1.25531530764E-04 +2.55888865457E-04 -1.09556100110E-04 +2.24600642032E-04 -3.32642410005E-01 +8.83055104621E-01
1.37000000000E+09 -1.14894245296E-01 +8.97342906983E-01 -1.35508818301E-04 +2.46926499590E-04 -1.13862943085E-04 +2.57654189655E-04 -3.19853247965E-01 +8.85362069039E-01
1.37500000000E+09 -1.02597183157E-01 +8.97296344444E-01 -1.62472543800E-04 +4.15658258279E-04 -1.72527756423E-04 +3.27782599721E-04 -3.06248354372E-01 +8.87558273082E-01
1.38000000000E+09 -9.20402519636E-02 +8.96979194277E-01 -5.97797558510E-05 +4.97384556364E-04 -6.52015005047E-05 +4.93719504336E-04 -2.91482102385E-01 +8.89809634113E-01
1.38500000000E+09 -8.15671370604E-02 +8.96118981647E-01 +7.76132369304E-05 +4.33474584916E-04 +4.45198408113E-05 +5.01357862146E-04 -2.76116998146E-01 +8.91726388976E-01
1.39000000000E+09 -7.04302216643E-02 +8.94444968432E-01 +1.27366781996E-04 +4.33120968761E-04 +1.01685018795E-04 +5.10015794845E-04 -2.59978023857E-01 +8.93418438602E-01
1.39500000000E+09 -5.71643214170E-02 +8.91829571790E-01 +1.12692118829E-04 +4.65824639893E-04 +1.87240048032E-04 +4.87047947147E-04 -2.43189712765E-01 +8.94241011941E-01
1.40000000000E+09 -4.09267187882E-02 +8.88070413610E-01 +2.54439380612E-04 +4.71341597089E-04 +3.15836801868E-04 +4.30564645315E-04 -2.25653304326E-01 +8.94661039080E-01
1.40500000000E+09 -2.19141712057E-02 +8.83408470811E-01 +2.79816728049E-04 +3.67865458952E-04 +2.93457958890E-04 +3.34574692849E-04 -2.06814102197E-01 +8.94577666669E-01
1.41000000000E+09 -4.84015679558E-04 +8.77766570878E-01 +2.93502263693E-04 +3.93248994951E-04 +2.35084865383E-04 +3.82386061302E-04 -1.86526651621E-01 +8.93901321209E-01
1.41500000000E+09 +2.22989426580E-02 +8.71567611126E-01 +2.99637744086E-04 +3.38336111081E-04 +3.23250394846E-04 +3.93410219222E-04 -1.64758304043E-01 +8.92381687745E-01
1.42000000000E+09 +4.54135551812E-02 +8.64961537741E-01 +3.75068679083E-04 +4.43046648730E-04 +3.67623689112E-04 +5.37815955200E-04 -1.41959473948E-01 +8.89739351781E-01
1.42500000000E+09 +6.79573416805E-02 +8.57755220271E-01 +4.66863426590E-04 +4.31901753693E-04 +5.68949002071E-04 +4.27241829137E-04 -1.18237062652E-01 +8.86241540595E-01
1.43000000000E+09 +8.92888880815E-02 +8.49947906581E-01 +5.09317064645E-04 +2.89758265545E-04 +6.05550228274E-04 +3.02313921393E-04 -9.33121456800E-02 +8.81487095012E-01
1.43500000000E+09 +1.09611759537E-01 +8.40751095198E-01 +5.42922154470E-04 +3.50064834852E-04 +5.96407708240E-04 +2.97479313594E-04 -6.69678096797E-02 +8.74978656978E-01
1.44000000000E+09 +1.29604420718E-01 +8.30486141350E-01 +6.08468337909E-04 +2.74111539472E-04 +6.10273740968E-04 +2.11468678100E-04 -3.84973203130E-02 +8.66056802310E-01
1.44500000000E+09 +1.51140269333E-01 +8.17614729064E-01 +5.82330551335E-04 +2.73612370089E-04 +6.29154867349E-04 +2.89508686390E-04 -8.57036651559E-03 +8.54507278651E-01
1.45000000000E+09 +1.74419159632E-01 +8.01084285365E-01 +6.03777226516E-04 +3.45314831781E-04 +7.26979538202E-04 +3.18485765520E-04 +2.31396924978E-02 +8.40130553971E-01
1.45500000000E+09 +2.00333499271E-01 +7.80661867527E-01 +8.24720812520E-04 +3.97643477169E-04 +8.42004594030E-04 +3.54658720373E-04 +5.67098274491E-02 +8.22641182405E-01
1.46000000000E+09 +2.29413252336E-01 +7.55185778307E-01 +9.61272800077E-04 +3.93862135172E-04 +9.67066736783E-04 +2.57060493858E-04 +9.17544048254E-02 +8.00740965987E-01
1.46500000000E+09 +2.60790717968E-01 +7.24832138063E-01 +1.20612720087E-03 +4.61608912253E-04 +1.12684842785E-03 +3.67174226756E-04 +1.27387740615E-01 +7.73927650136E-01
1.47000000000E+09 +2.93324404002E-01 +6.88968124826E-01 +1.78672650145E-03 +3.93615792566E-04 +1.61847256662E-03 +3.38025742175E-04 +1.64356328772E-01 +7.40970498799E-01
1.47500000000E+09 +3.25287607140E-01 +6.47549922250E-01 +2.13388175567E-03 -2.52092573500E-04 +2.05822345980E-03 -1.73799512894E-04 +2.02189818458E-01 +7.00499714549E-01
1.48000000000E+09 +3.54931427843E-01 +6.00394638339E-01 +2.16274019115E-03 -6.20866018076E-04 +2.19660858530E-03 -5.31524483652E-04 +2.39522125413E-01 +6.51020626783E-01
1.48500000000E+09 +3.80139009336E-01 +5.47291681818E-01 +2.47021146010E-03 -1.07590537630E-03 +2.52512818226E-03 -1.18114007290E-03 +2.74183533238E-01 +5.91944885995E-01
1.49000000000E+09 +3.99391957946E-01 +4.87749212569E-01 +2.42426633536E-03 -1.90308329143E-03 +2.36119013339E-03 -2.00981530174E-03 +3.02815765733E-01 +5.21997462417E-01
1.49500000000E+09 +4.11710792229E-01 +4.20960388331E-01 +2.67005283871E-03 -2.54126830323E-03 +2.43171322799E-03 -2.51944798716E-03 +3.21918722498E-01 +4.42250288320E-01
1.50000000000E+09 +4.14421017737E-01 +3.44616674209E-01 +2.43216166094E-03 -4.11250700726E-03 +2.26379479901E-03 -3.84377458663E-03 +3.28424563299E-01 +3.52276483745E-01
1.50500000000E+09 +4.04044943509E-01 +2.59873537081E-01 +1.05005045622E-03 -5.50835635579E-03 +1.20455527854E-03 -5.22373736556E-03 +3.17228190250E-01 +2.54051091167E-01
1.51000000000E+09 +3.77183598932E-01 +1.68939551189E-01 -8.24439867419E-04 -5.97221677435E-03 -5.86849007622E-04 -5.95763862225E-03 +2.84499746151E-01 +1.52667935801E-01
1.51500000000E+09 +3.31738666882E-01 +7.74789427977E-02 -2.96483514710E-03 -6.04225539183E-03 -2.80336570597E-03 -6.14423253595E-03 +2.30018805587E-01 +5.42701590213E-02
1.52000000000E+09 +2.66944665925E-01 -9.48055364274E-03 -4.90945697366E-03 -4.59399432118E-03 -4.89392432947E-03 -4.70033381741E-03 +1.52097365807E-01 -3.34162392770E-02
1.52500000000E+09 +1.82995705142E-01 -8.36294569808E-02 -5.67466203534E-03 -3.29690077763E-03 -5.65225791883E-03 -3.36196399640E-03 +5.55113833722E-02 -1.01440009454E-01
1.53000000000E+09 +8.36841083458E-02 -1.38743016406E-01 -6.74838506525E-03 -1.95036597184E-03 -6.76098100900E-03 -2.04055556695E-03 -5.21629177008E-02 -1.46386643363E-01
1.53500000000E+09 -2.64245637347E-02 -1.69233653983E-01 -7.35617535374E-03 +4.45663737249E-04 -7.34452799745E-03 +4.19977189787E-04 -1.65243992380E-01 -1.66090255401E-01
1.54000000000E+09 -1.39077671133E-01 -1.71383167482E-01 -6.90058486360E-03 +2.25456259987E-03 -6.82121191091E-03 +2.20891085075E-03 -2.73628417024E-01 -1.61686887554E-01
1.54500000000E+09 -2.45606339114E-01 -1.49511625011E-01 -6.06247622384E-03 +4.78071892518E-03 -6.07656433618E-03 +4.53673510210E-03 -3.72873255658E-01 -1.38566029433E-01
1.55000000000E+09 -3.42797504439E-01 -1.07794192117E-01 -3.67951963191E-03 +6.05704480400E-03 -3.90633502121E-03 +5.89704313580E-03 -4.58571173190E-01 -1.00208750928E-01
1.55500000000E+09 -4.25245294983E-01 -5.18476957792E-02 -1.60525541878E-03 +6.10426459896E-03 -1.93443607411E-03 +6.15278509543E-03 -5.29577089076E-01 -5.23032145809E-02
1.56000000000E+09 -4.91398630442E-01 +1.05908740772E-02 -8.86042871544E-05 +5.81155189952E-03 -3.67396727437E-04 +6.06864699050E-03 -5.86500010863E-01 +1.17714223637E-03
1.56500000000E+09 -5.43313380687E-01 +7.32026061497E-02 +1.40537785601E-03 +5.27995457374E-03 +1.42175366159E-03 +5.63652483016E-03 -6.30738127497E-01 +5.72175081932E-02
1.57000000000E+09 -5.83614737890E-01 +1.34403277758E-01 +2.58616464294E-03 +3.93576918556E-03 +2.80035445161E-03 +4.19182516713E-03 -6.63749492564E-01 +1.12251979150E-01
