# Hz S RI R 50
! CMT, C1220, 16058040, 17.2.0/1
! Date: 14/08/2018 12:53:24
! Data: Format (Calibration Info)
! Freq                      S11: Re/Im (F2)                       S21: Re/Im (F2)                       S12: Re/Im (F2)                       S22: Re/Im (F2)            
1.00000000000E+09 -6.45431279970E-01 +7.13483440776E-01 +9.17790486885E-06 +1.76197124066E-05 -4.25993801072E-05 -9.73842052494E-06 -7.19329776431E-01 +6.44777235553E-01
1.00500000000E+09 -6.38972878428E-01 +7.18125083954E-01 +2.96845017570E-05 -5.31013748889E-06 -9.40272450201E-06 +1.09710384026E-07 -7.15599124052E-01 +6.48788493321E-01
1.01000000000E+09 -6.33092810603E-01 +7.22534547927E-01 -7.58077369028E-07 -2.88908050107E-06 -5.84573086113E-06 -2.61520171119E-05 -7.11813060774E-01 +6.52217009032E-01
1.01500000000E+09 -6.28462748694E-01 +7.26438497987E-01 +1.28712458014E-05 +4.30252361923E-05 -1.39818051406E-05 +8.95330418684E-05 -7.08431984241E-01 +6.55827157321E-01
1.02000000000E+09 -6.24213281488E-01 +7.30225462572E-01 -2.20093110865E-05 -1.04357694628E-05 -3.95718993854E-05 +1.59601629044E-05 -7.05100630354E-01 +6.59202935945E-01
1.02500000000E+09 -6.20698619616E-01 +7.33339898087E-01 +1.83423370068E-05 +4.84301713509E-05 -6.26698673800E-06 +1.30254491256E-05 -7.01993324063E-01 +6.62818933266E-01
1.03000000000E+09 -6.17446379105E-01 +7.36549692021E-01 +7.43879284595E-06 -1.08380137591E-05 -2.67021629247E-05 +5.79501474855E-05 -6.98328749827E-01 +6.66487345484E-01
1.03500000000E+09 -6.13396601610E-01 +7.39771162724E-01 -1.17885414855E-05 -9.22022370961E-06 +5.29765033266E-08 +4.66622624758E-05 -6.94300239042E-01 +6.70489159437E-01
1.04000000000E+09 -6.08426428691E-01 +7.43240675290E-01 +5.08707005073E-06 +4.98377397724E-05 -1.05635941234E-05 +3.56647686335E-05 -6.90054485095E-01 +6.73898023065E-01
1.04500000000E+09 -6.02596414448E-01 +7.46732436007E-01 +1.77750779137E-05 +2.21436393584E-05 +3.46561790822E-05 -8.05872024399E-06 -6.86458504958E-01 +6.77238025695E-01
1.05000000000E+09 -5.95463430018E-01 +7.50973737379E-01 +3.12339064332E-05 +4.47556559301E-05 +1.79447790489E-05 +1.27795511997E-05 -6.83011195792E-01 +6.80579032245E-01
1.05500000000E+09 -5.87676497675E-01 +7.55330600998E-01 +2.59657631133E-05 +2.95213569212E-05 -1.37865066068E-05 +6.74478124139E-05 -6.79600743579E-01 +6.84064825634E-01
1.06000000000E+09 -5.79479476036E-01 +7.60030916254E-01 -2.36671886143E-05 -1.23933692842E-05 -2.06192583672E-05 +2.74640869434E-06 -6.76060340660E-01 +6.87928438836E-01
1.06500000000E+09 -5.71603569705E-01 +7.64714820561E-01 +1.64043362236E-06 +2.16724130994E-05 -4.90048791222E-05 +9.13579212020E-06 -6.71925492580E-01 +6.91412149460E-01
1.07000000000E+09 -5.64373421502E-01 +7.68637864252E-01 -7.49285051852E-06 +4.07958212541E-05 +5.07436918365E-05 +1.06481719920E-05 -6.67770249687E-01 +6.94938807557E-01
1.07500000000E+09 -5.58160654456E-01 +7.72450255129E-01 +1.49681295560E-05 +5.58776977898E-05 +2.44906830972E-05 -3.17563341180E-05 -6.63064083603E-01 +6.98462298927E-01
1.08000000000E+09 -5.52922222183E-01 +7.75741671103E-01 +4.75245934130E-05 +7.59060378553E-06 -1.74852324669E-05 +1.75128139695E-05 -6.59044439465E-01 +7.02056072376E-01
1.08500000000E+09 -5.48989087055E-01 +7.78583598046E-01 +7.53841338035E-05 +5.56996423986E-05 +5.21017635911E-05 +7.10334931406E-05 -6.55081462589E-01 +7.05679149496E-01
1.09000000000E+09 -5.45217403999E-01 +7.81016574755E-01 +2.48702511937E-05 +3.08030995055E-06 +4.79037030973E-05 +3.12345281391E-05 -6.51261120072E-01 +7.09333635880E-01
1.09500000000E+09 -5.41894721253E-01 +7.83335737498E-01 +6.95677230172E-05 -2.74053778690E-05 +2.52795306509E-05 +2.39825413123E-05 -6.47302034680E-01 +7.13146981839E-01
1.10000000000E+09 -5.37817925166E-01 +7.85723383966E-01 +7.02256467763E-05 +1.63125798587E-05 +5.60776919719E-05 +1.96550342105E-06 -6.43154659132E-01 +7.16684266492E-01
1.10500000000E+09 -5.33496224121E-01 +7.88494339584E-01 +4.72726884027E-05 +4.29733443868E-05 +5.05918047134E-05 +3.98107288891E-05 -6.38517887661E-01 +7.19835168187E-01
1.11000000000E+09 -5.27912512540E-01 +7.91653584888E-01 +3.96840871917E-05 +1.08643934105E-05 +2.75395066619E-05 +1.07413205458E-05 -6.34395304799E-01 +7.23154809385E-01
1.11500000000E+09 -5.21615534095E-01 +7.95405343094E-01 +7.17656941733E-05 +2.09849243175E-05 +7.73086864815E-05 +6.78441105395E-05 -6.30304011379E-01 +7.26315814334E-01
1.12000000000E+09 -5.14748957560E-01 +7.98808969818E-01 +7.84212668537E-05 -1.39794754572E-05 +5.97453859972E-05 -2.35775901634E-05 -6.26267006186E-01 +7.29825908813E-01
1.12500000000E+09 -5.07120972968E-01 +8.02281412992E-01 +9.08244472684E-05 -1.38449954909E-05 +5.74099448925E-05 -7.24948094480E-08 -6.21806565405E-01 +7.33498535034E-01
1.13000000000E+09 -4.99855840829E-01 +8.05461972235E-01 +7.58424988175E-05 -3.49911379032E-06 +1.01942869103E-04 -1.01478486496E-05 -6.17346379480E-01 +7.37156417734E-01
1.13500000000E+09 -4.92871823637E-01 +8.07818698264E-01 +7.78558917613E-05 -4.12491130133E-05 +1.00118729999E-04 -2.87447577597E-05 -6.12458841100E-01 +7.40760012416E-01
1.14000000000E+09 -4.86338677580E-01 +8.09991827606E-01 +1.04413082967E-04 -3.07197244903E-05 +1.02736298468E-04 +2.76163129518E-05 -6.07458965329E-01 +7.44011726620E-01
1.14500000000E+09 -4.80589411637E-01 +8.11700997279E-01 +9.37375268022E-05 -3.56794803920E-05 +7.99879015579E-05 -1.29169031288E-05 -6.02702553140E-01 +7.47317485293E-01
1.15000000000E+09 -4.74950868182E-01 +8.13310368585E-01 +9.98627326789E-05 -3.98234886539E-05 +1.16225258816E-04 +3.11858535171E-05 -5.97877665553E-01 +7.51027178955E-01
1.15500000000E+09 -4.69618421771E-01 +8.15208297267E-01 +7.52646581974E-05 -4.49007718201E-05 +8.06626910494E-05 -1.32745363683E-05 -5.92878040793E-01 +7.54576619209E-01
1.16000000000E+09 -4.63759896394E-01 +8.17171326182E-01 +1.08626323919E-04 -1.06241221230E-05 +1.30253689235E-04 -7.49256474950E-05 -5.87895229030E-01 +7.58217965418E-01
1.16500000000E+09 -4.57562812060E-01 +8.19754033850E-01 +9.67958168733E-05 -4.61689965557E-05 +9.94304569992E-05 -5.58264611877E-05 -5.82767300257E-01 +7.61643916084E-01
1.17000000000E+09 -4.50840258329E-01 +8.22850708053E-01 +8.52819185189E-05 -9.61567151812E-05 +9.81887355551E-05 -9.94447735974E-05 -5.77270260766E-01 +7.64894472717E-01
1.17500000000E+09 -4.43524115566E-01 +8.25860561608E-01 +1.34553377141E-04 -6.96641878119E-05 +8.20212269774E-05 -5.33112710198E-05 -5.71592523197E-01 +7.67687270157E-01
1.18000000000E+09 -4.35873894831E-01 +8.29041136752E-01 +1.40992319168E-04 -1.29415752864E-04 +1.25990862419E-04 -1.57543672968E-04 -5.66217694540E-01 +7.70605831179E-01
1.18500000000E+09 -4.27930472756E-01 +8.32055489362E-01 +1.56549604385E-04 -1.40665126004E-04 +1.87848182027E-04 -1.62046830665E-04 -5.60332835336E-01 +7.73453475271E-01
1.19000000000E+09 -4.20043765405E-01 +8.34266436520E-01 +1.18329292637E-04 -1.77371092587E-04 +1.10234057922E-04 -1.60001922043E-04 -5.54093681447E-01 +7.75616760035E-01
1.19500000000E+09 -4.12462122757E-01 +8.35993311031E-01 +8.23404304332E-05 -2.79085769648E-04 +8.53691362137E-05 -3.01214345654E-04 -5.48272796033E-01 +7.76654144408E-01
1.20000000000E+09 -4.05316018239E-01 +8.36775021872E-01 -1.40199221859E-06 -2.81697471332E-04 -2.80818174814E-05 -3.42068721416E-04 -5.43604541616E-01 +7.76841378840E-01
1.20500000000E+09 -3.98308373657E-01 +8.37990027141E-01 -7.61889533365E-05 -2.65569364771E-04 -6.14330987638E-05 -2.27672077733E-04 -5.41146652481E-01 +7.77579778518E-01
1.21000000000E+09 -3.91080058017E-01 +8.38901015034E-01 -1.27369314851E-04 -1.38879138727E-04 -9.57537404925E-05 -1.84768664611E-04 -5.38880223050E-01 +7.80594848952E-01
1.21500000000E+09 -3.83312688332E-01 +8.40555225332E-01 -6.95012779439E-05 -1.57286387280E-04 -3.81342525472E-05 -1.87739343191E-04 -5.35792096976E-01 +7.84986153154E-01
1.22000000000E+09 -3.75120079456E-01 +8.42292552269E-01 -1.98190215099E-05 -1.19612473047E-04 -2.89316928926E-05 -1.75401300535E-04 -5.31492241259E-01 +7.90095799217E-01
1.22500000000E+09 -3.66293170719E-01 +8.44640228495E-01 -1.36336829250E-05 -1.75524155577E-04 -2.39761681016E-05 -1.83217115665E-04 -5.26014852030E-01 +7.94945579519E-01
1.23000000000E+09 -3.57432281040E-01 +8.47312903939E-01 -5.80963651448E-05 -1.93240564866E-04 -1.07011500897E-04 -2.05451999072E-04 -5.20349183305E-01 +7.99335785444E-01
1.23500000000E+09 -3.48831976049E-01 +8.50243123279E-01 -9.88321165159E-05 -2.29063012417E-04 -8.23286805887E-05 -1.64075779276E-04 -5.14465244685E-01 +8.03192131790E-01
1.24000000000E+09 -3.40262823696E-01 +8.53209360192E-01 -7.15359254137E-05 -2.22328813011E-04 -1.23728072809E-04 -1.60483482446E-04 -5.08348674364E-01 +8.06764202171E-01
1.24500000000E+09 -3.32440686488E-01 +8.56284639117E-01 -1.40640451850E-04 -1.75108663637E-04 -1.42022809765E-04 -2.39469593855E-04 -5.02006391829E-01 +8.10314153092E-01
1.25000000000E+09 -3.24563152958E-01 +8.58628612650E-01 -1.74157546904E-04 -1.75917426195E-04 -1.10088162590E-04 -2.01570024254E-04 -4.95566028558E-01 +8.14289288117E-01
1.25500000000E+09 -3.16968079306E-01 +8.60166718968E-01 -1.32270849869E-04 -1.66217274008E-04 -1.61010852637E-04 -2.02307447276E-04 -4.88626905959E-01 +8.17911510062E-01
1.26000000000E+09 -3.09110834074E-01 +8.61089242544E-01 -2.00131257893E-04 -2.35617409040E-04 -2.22295905273E-04 -2.91166840078E-04 -4.82031578166E-01 +8.21676680283E-01
1.26500000000E+09 -3.01186312328E-01 +8.61310071498E-01 -2.81708793249E-04 -1.93952014041E-04 -2.51792001218E-04 -2.33587865428E-04 -4.74980939363E-01 +8.25114585528E-01
1.27000000000E+09 -2.92453545732E-01 +8.61453021669E-01 -2.81704265043E-04 -2.35333049801E-04 -3.05840078938E-04 -2.15648705738E-04 -4.68122945713E-01 +8.28529708712E-01
1.27500000000E+09 -2.83036557384E-01 +8.61524443983E-01 -3.87312970196E-04 -2.20674032340E-04 -3.95046015317E-04 -2.28267545914E-04 -4.60886414737E-01 +8.31905731371E-01
1.28000000000E+09 -2.72536064626E-01 +8.62110297204E-01 -3.92079753810E-04 -1.46281783912E-04 -3.80656251521E-04 -1.89368775686E-04 -4.53975050074E-01 +8.35120118154E-01
1.28500000000E+09 -2.61065256042E-01 +8.62961439875E-01 -3.80790244907E-04 -1.32185192256E-04 -4.45960039759E-04 -8.65667042824E-05 -4.46437888421E-01 +8.38614423208E-01
1.29000000000E+09 -2.49903700524E-01 +8.64403371470E-01 -4.22925995887E-04 -4.37550094615E-05 -5.06545161715E-04 -6.35047032426E-05 -4.38808278562E-01 +8.41998767648E-01
1.29500000000E+09 -2.39016106030E-01 +8.66429026998E-01 -4.49790148263E-04 -4.63482547693E-05 -5.01455077648E-04 -4.98214394450E-05 -4.30971229375E-01 +8.45011628709E-01
1.30000000000E+09 -2.28581817004E-01 +8.69032996798E-01 -5.91316175796E-04 -1.29488138454E-05 -6.01959729865E-04 +3.21664173937E-05 -4.23209575152E-01 +8.48295691387E-01
1.30500000000E+09 -2.18975749577E-01 +8.71499834226E-01 -5.96948438545E-04 +5.66128004533E-05 -5.47774171110E-04 +6.44565131906E-05 -4.15134849019E-01 +8.51371562670E-01
1.31000000000E+09 -2.09958878886E-01 +8.73415042693E-01 -6.34194912358E-04 +1.71951687354E-04 -5.90065420149E-04 +1.85623334207E-04 -4.06777219164E-01 +8.54389591380E-01
1.31500000000E+09 -2.01649155530E-01 +8.74415689423E-01 -5.65114684784E-04 +2.87951645084E-04 -6.16215542641E-04 +2.92446260291E-04 -3.98140563292E-01 +8.57563943276E-01
1.32000000000E+09 -1.93574708629E-01 +8.74453247523E-01 -5.85038670334E-04 +2.97098944347E-04 -5.94364704159E-04 +3.48088732215E-04 -3.89063928477E-01 +8.60546814416E-01
1.32500000000E+09 -1.85439591447E-01 +8.73380297972E-01 -5.60315024545E-04 +4.05128318971E-04 -6.06679752619E-04 +3.71406417145E-04 -3.79759439482E-01 +8.63490858293E-01
1.33000000000E+09 -1.76506263731E-01 +8.72101603737E-01 -6.14079974528E-04 +4.01334929894E-04 -6.07302563153E-04 +5.48794767954E-04 -3.70378691918E-01 +8.66267808475E-01
1.33500000000E+09 -1.66307174487E-01 +8.70549747052E-01 -6.35367360169E-04 +5.28495020427E-04 -5.74332750621E-04 +6.56035734067E-04 -3.60818678529E-01 +8.69102024520E-01
1.34000000000E+09 -1.54841464653E-01 +8.69141890969E-01 -5.85893532862E-04 +7.32590371156E-04 -5.11973197174E-04 +7.06155549906E-04 -3.50763354669E-01 +8.71947096267E-01
1.34500000000E+09 -1.41697594092E-01 +8.68053452559E-01 -5.32071061829E-04 +8.21184502758E-04 -4.50766393086E-04 +8.00991360117E-04 -3.39960865522E-01 +8.74738997554E-01
1.35000000000E+09 -1.27553394635E-01 +8.67457547847E-01 -4.67030078679E-04 +9.06480972778E-04 -3.99144459354E-04 +8.93419362531E-04 -3.29231633899E-01 +8.77324587503E-01
1.35500000000E+09 -1.12965220945E-01 +8.67279624710E-01 -3.63131681514E-04 +9.70233985046E-04 -3.63792990380E-04 +9.48242867761E-04 -3.17813157649E-01 +8.79689565893E-01
1.36000000000E+09 -9.79177108594E-02 +8.67430444221E-01 -3.71738273646E-04 +1.07291799540E-03 -3.27181765716E-04 +1.04663942754E-03 -3.06168717946E-01 +8.81833331483E-01
1.36500000000E+09 -8.28477635725E-02 +8.67130055455E-01 -3.03298205465E-04 +1.24629839178E-03 -3.03663321324E-04 +1.19145728458E-03 -2.94372545864E-01 +8.83851964609E-01
1.37000000000E+09 -6.84208376316E-02 +8.65758634648E-01 -1.60326782502E-04 +1.44462167233E-03 -2.20390488934E-04 +1.32817302526E-03 -2.81862464681E-01 +8.85794682919E-01
1.37500000000E+09 -5.51296214763E-02 +8.63302887465E-01 +1.35695350894E-04 +1.51918551251E-03 -4.63126576117E-05 +1.48000642384E-03 -2.68362370331E-01 +8.87561552313E-01
1.38000000000E+09 -4.25909131537E-02 +8.60157111518E-01 +2.42105695617E-04 +1.48330598102E-03 +7.24008575773E-05 +1.59510635770E-03 -2.54149336125E-01 +8.89146862194E-01
1.38500000000E+09 -2.98639966613E-02 +8.55892884781E-01 +3.83116317189E-04 +1.64635713524E-03 +2.89324707473E-04 +1.86833940252E-03 -2.39181288651E-01 +8.90438602869E-01
1.39000000000E+09 -1.71704008099E-02 +8.51132426430E-01 +5.27273330422E-04 +1.72164269922E-03 +6.30461185364E-04 +1.97436122908E-03 -2.23829637464E-01 +8.91555072472E-01
1.39500000000E+09 -3.56619160205E-03 +8.45930697125E-01 +7.48804394745E-04 +1.92051246533E-03 +1.00331032954E-03 +1.96146192975E-03 -2.07931185712E-01 +8.91816068168E-01
1.40000000000E+09 +1.12501866453E-02 +8.40282641735E-01 +1.10005911400E-03 +2.06120911668E-03 +1.29156915882E-03 +1.96520943580E-03 -1.91022347604E-01 +8.91710402172E-01
1.40500000000E+09 +2.69116141108E-02 +8.34764386456E-01 +1.64083250120E-03 +2.11333585659E-03 +1.69906410310E-03 +1.89400324847E-03 -1.73312998842E-01 +8.91041272699E-01
1.41000000000E+09 +4.37346144616E-02 +8.29502315345E-01 +2.13103072991E-03 +1.86330259498E-03 +2.08738830367E-03 +1.82041793829E-03 -1.53992851639E-01 +8.89920850076E-01
1.41500000000E+09 +6.21113460349E-02 +8.24544917607E-01 +2.35453174243E-03 +1.70738019245E-03 +2.39914370271E-03 +1.83078316491E-03 -1.33111047957E-01 +8.87934843666E-01
1.42000000000E+09 +8.23927695131E-02 +8.18751101225E-01 +2.71916478784E-03 +1.49194336718E-03 +2.98858281784E-03 +1.71404497179E-03 -1.11191467873E-01 +8.84861702764E-01
1.42500000000E+09 +1.03276392196E-01 +8.10697006652E-01 +3.17939360480E-03 +1.33487974441E-03 +3.59166481114E-03 +1.32293033590E-03 -8.83974417158E-02 +8.80636377818E-01
1.43000000000E+09 +1.24408859468E-01 +8.00159268896E-01 +3.71322088705E-03 +1.28844001688E-03 +4.10832356449E-03 +1.04388735517E-03 -6.49133800683E-02 +8.75495841603E-01
1.43500000000E+09 +1.45324722847E-01 +7.86765983614E-01 +4.68238630956E-03 +7.91963107825E-04 +4.88802983833E-03 +3.28275213831E-04 -3.96612962498E-02 +8.68652452592E-01
1.44000000000E+09 +1.66101581244E-01 +7.71528200370E-01 +5.32282579032E-03 -4.09789805596E-04 +5.29516018227E-03 -8.19808465721E-04 -1.29023763544E-02 +8.59566444836E-01
1.44500000000E+09 +1.87855415753E-01 +7.53607242526E-01 +5.28813497013E-03 -1.58925439756E-03 +5.25068020365E-03 -1.86397106940E-03 +1.56923317178E-02 +8.47956530536E-01
1.45000000000E+09 +2.09987102608E-01 +7.33327591009E-01 +5.05587940836E-03 -2.31978158154E-03 +5.06754927313E-03 -2.63285655105E-03 +4.59379127774E-02 +8.33333460790E-01
1.45500000000E+09 +2.33299949915E-01 +7.10729248950E-01 +5.34265344596E-03 -2.95842844044E-03 +5.08095263387E-03 -3.43306648343E-03 +7.72275593034E-02 +8.16148232337E-01
1.46000000000E+09 +2.57731815497E-01 +6.86141672549E-01 +5.67384519818E-03 -3.98609232389E-03 +5.09998699709E-03 -4.35123020417E-03 +1.10484478721E-01 +7.94962241550E-01
1.46500000000E+09 +2.83588377688E-01 +6.59602075006E-01 +5.89365349243E-03 -5.55733808237E-03 +5.10196911768E-03 -5.40187230679E-03 +1.44589286703E-01 +7.68558096174E-01
1.47000000000E+09 +3.11235874404E-01 +6.29463805039E-01 +5.61045757082E-03 -7.71380253015E-03 +5.17526986382E-03 -7.08706932632E-03 +1.79498730215E-01 +7.35662272500E-01
1.47500000000E+09 +3.39385911687E-01 +5.93369211163E-01 +4.07852569477E-03 -1.00366468978E-02 +4.28211189836E-03 -9.48983898273E-03 +2.14121739982E-01 +6.95532083863E-01
1.48000000000E+09 +3.65527702867E-01 +5.50015062711E-01 +1.92151979372E-03 -1.13542591462E-02 +2.32207150255E-03 -1.13947087375E-02 +2.48226897414E-01 +6.47912854034E-01
1.48500000000E+09 +3.87195102892E-01 +4.98452118992E-01 +1.06749818548E-04 -1.26867045831E-02 -6.36823771896E-05 -1.30626185732E-02 +2.80264170128E-01 +5.91191073135E-01
1.49000000000E+09 +4.02714872104E-01 +4.39123695143E-01 -2.79138432116E-03 -1.43069448532E-02 -3.44875771160E-03 -1.41259135446E-02 +3.07304452430E-01 +5.24256234153E-01
1.49500000000E+09 +4.10578675701E-01 +3.72030369209E-01 -7.07905724898E-03 -1.49459158618E-02 -7.33318710870E-03 -1.40033166327E-02 +3.25080589696E-01 +4.46701197158E-01
1.50000000000E+09 +4.09316155720E-01 +2.96741280911E-01 -1.14677515977E-02 -1.39008835894E-02 -1.07848483695E-02 -1.30788396527E-02 +3.29567045316E-01 +3.59509757404E-01
1.50500000000E+09 +3.95231112815E-01 +2.14313166432E-01 -1.61040426984E-02 -1.18176393944E-02 -1.50269127079E-02 -1.18078912923E-02 +3.17366183605E-01 +2.64965442475E-01
1.51000000000E+09 +3.66711787860E-01 +1.28642415407E-01 -2.00203648891E-02 -7.15450442768E-03 -1.95391816559E-02 -7.88010516054E-03 +2.84619472416E-01 +1.65977728993E-01
1.51500000000E+09 +3.19902231133E-01 +4.26067458002E-02 -2.25487034853E-02 -2.41641209016E-03 -2.26846666341E-02 -3.04656565110E-03 +2.28235574658E-01 +7.11012410628E-02
1.52000000000E+09 +2.53850686611E-01 -3.46348639612E-02 -2.43974989724E-02 +4.12274411830E-03 -2.47346426431E-02 +3.88018948136E-03 +1.50314408486E-01 -1.11122582578E-02
1.52500000000E+09 +1.71688890280E-01 -9.84698329174E-02 -2.33804659206E-02 +1.28487513299E-02 -2.37077112237E-02 +1.28270021213E-02 +5.68322434035E-02 -7.62842792808E-02
1.53000000000E+09 +7.61248847507E-02 -1.43793038059E-01 -1.70291406149E-02 +1.96464419257E-02 -1.72144609960E-02 +1.97654592644E-02 -5.18965741903E-02 -1.18637323872E-01
1.53500000000E+09 -2.83833505387E-02 -1.67204917898E-01 -1.06412280257E-02 +2.27694962256E-02 -1.06492119079E-02 +2.28296821583E-02 -1.63011391396E-01 -1.34290003443E-01
1.54000000000E+09 -1.37289094992E-01 -1.66012790088E-01 -3.60262546645E-03 +2.39947077310E-02 -3.67591310812E-03 +2.37621875778E-02 -2.71335786086E-01 -1.26648048671E-01
1.54500000000E+09 -2.39699564728E-01 -1.40009861128E-01 +3.35305262592E-03 +2.31684996108E-02 +2.80616211950E-03 +2.29744837404E-02 -3.67919999178E-01 -9.85612841865E-02
1.55000000000E+09 -3.29922452603E-01 -9.79779068874E-02 +8.68958504597E-03 +1.95050212858E-02 +7.94846455929E-03 +1.97704784295E-02 -4.50031116630E-01 -5.69744620008E-02
1.55500000000E+09 -4.06009433423E-01 -4.39226997797E-02 +1.22149084529E-02 +1.56601907277E-02 +1.17101718758E-02 +1.65136845094E-02 -5.17257006870E-01 -6.75831542609E-03
1.56000000000E+09 -4.65881562356E-01 +1.41026726805E-02 +1.45842499498E-02 +1.10713230964E-02 +1.48987083122E-02 +1.20988016829E-02 -5.70446192981E-01 +4.83730777301E-02
1.56500000000E+09 -5.13815180363E-01 +7.26097878781E-02 +1.48619977732E-02 +6.45734196792E-03 +1.56341242392E-02 +7.11574776588E-03 -6.11542942620E-01 +1.05204991381E-01
1.57000000000E+09 -5.50500024612E-01 +1.31616785501E-01 +1.41389767697E-02 +3.21581716469E-03 +1.50376012598E-02 +3.31723459889E-03 -6.41374377994E-01 +1.61702569849E-01
