# Hz S RI R 50
! CMT, C1220, 16058040, 17.2.0/1
! Date: 14/08/2018 12:30:22
! Data: Format (Calibration Info)
! Freq                      S11: Re/Im (F2)                       S21: Re/Im (F2)                       S12: Re/Im (F2)                       S22: Re/Im (F2)            
1.00000000000E+09 -6.27695928837E-01 +7.08672835694E-01 +1.45220522718E-05 +1.44451373537E-06 -9.21124266122E-06 +4.57264124739E-05 -7.53091138893E-01 +6.24067938832E-01
1.00500000000E+09 -6.20391183450E-01 +7.13697060150E-01 -2.26196799372E-05 +6.53810577893E-05 -2.23911855490E-05 -8.20503409948E-06 -7.49469014877E-01 +6.28132864033E-01
1.01000000000E+09 -6.14630825645E-01 +7.18348008286E-01 +3.02564314931E-06 +4.98189375270E-05 +1.29078958409E-05 -2.25831675628E-06 -7.45817260358E-01 +6.31773833818E-01
1.01500000000E+09 -6.10290974394E-01 +7.21934866290E-01 -6.72315152963E-05 +3.45473262574E-05 -1.74525012050E-05 +1.24786110089E-05 -7.42751834309E-01 +6.35452434388E-01
1.02000000000E+09 -6.07373060657E-01 +7.25268105044E-01 +4.68552773225E-06 +1.29877811606E-05 +8.76377548053E-06 +2.31023851726E-05 -7.39468571615E-01 +6.38937236413E-01
1.02500000000E+09 -6.05486115020E-01 +7.27737892898E-01 -3.81209786751E-05 -1.84683785006E-05 -3.50734434732E-05 -5.02639687485E-06 -7.36755508980E-01 +6.42679046976E-01
1.03000000000E+09 -6.04091695872E-01 +7.29924946121E-01 -5.74903581907E-05 -1.99311744135E-05 -1.80208470706E-05 -6.53236327933E-06 -7.33404316245E-01 +6.46380460578E-01
1.03500000000E+09 -6.01723334660E-01 +7.32069600239E-01 -3.03666589390E-05 +7.68374614831E-06 -3.19072377200E-05 +2.62695732327E-05 -7.29397551393E-01 +6.50217955613E-01
1.04000000000E+09 -5.97900835318E-01 +7.34761059278E-01 -6.04652224176E-05 +2.58795608393E-05 -4.49597647007E-05 +2.01940391389E-05 -7.25680675422E-01 +6.54070281418E-01
1.04500000000E+09 -5.92807919716E-01 +7.38027333733E-01 -1.24747817784E-05 +4.37184248876E-05 -3.27697416056E-05 +1.57824692958E-07 -7.22267356420E-01 +6.57449528354E-01
1.05000000000E+09 -5.85617446302E-01 +7.42130846184E-01 +1.62147866105E-05 -6.58461314107E-06 +4.86862165288E-06 +4.42474946197E-05 -7.18580846587E-01 +6.60938262264E-01
1.05500000000E+09 -5.77310862392E-01 +7.46828382000E-01 -5.61218475774E-06 +8.17475510480E-06 +4.16596848683E-05 +3.39962802685E-05 -7.15461303086E-01 +6.64629910969E-01
1.06000000000E+09 -5.68211296026E-01 +7.51951991142E-01 +8.36664524174E-06 +4.89813160676E-05 -3.63468226973E-05 +7.51652323445E-06 -7.12097674093E-01 +6.68302011515E-01
1.06500000000E+09 -5.59506686523E-01 +7.57289934129E-01 +1.86833239327E-05 -6.84028659873E-06 +1.98012128317E-06 -1.94043456351E-05 -7.08166561218E-01 +6.72135173393E-01
1.07000000000E+09 -5.51657571753E-01 +7.61815981619E-01 +2.30669038178E-05 -9.88640977669E-06 -7.46332753356E-06 +4.34796844197E-05 -7.04100167352E-01 +6.75939168700E-01
1.07500000000E+09 -5.45511457660E-01 +7.65723724792E-01 -2.87647796862E-05 +5.51876669856E-05 +7.69615678155E-06 +1.19221226094E-05 -6.99817354903E-01 +6.79703167275E-01
1.08000000000E+09 -5.41085448942E-01 +7.69107141597E-01 -8.46810889659E-06 +1.15671133289E-05 +3.40323799198E-05 -1.14963595468E-05 -6.95992025835E-01 +6.83551469951E-01
1.08500000000E+09 -5.38311060745E-01 +7.71670789705E-01 +5.64996347194E-05 +4.21027643298E-05 +5.95982039411E-05 -3.60565287135E-05 -6.92071133610E-01 +6.87057758920E-01
1.09000000000E+09 -5.36029089135E-01 +7.73513944837E-01 +2.50615709994E-05 +3.95721380775E-05 +1.16541403372E-05 +4.66248342063E-05 -6.88325791493E-01 +6.90879160209E-01
1.09500000000E+09 -5.34301443228E-01 +7.75086628503E-01 -8.22130373000E-06 +4.16003214891E-05 +6.09847234979E-05 -7.23675403111E-06 -6.84675270546E-01 +6.94687255406E-01
1.10000000000E+09 -5.31365099350E-01 +7.76997258452E-01 +4.77462218698E-05 -1.20172493003E-05 +4.79344093921E-05 +4.38478610096E-05 -6.80505313709E-01 +6.98511673420E-01
1.10500000000E+09 -5.27535778246E-01 +7.79269944895E-01 +4.54929156807E-05 +2.77138004341E-05 +4.63081895051E-05 +4.13144027410E-05 -6.76359806821E-01 +7.02154507540E-01
1.11000000000E+09 -5.22115228785E-01 +7.82456909985E-01 +2.47634302252E-05 -4.49168542236E-05 -4.88271755462E-07 -4.06888277803E-06 -6.72365783868E-01 +7.05387173544E-01
1.11500000000E+09 -5.15244435052E-01 +7.86239857706E-01 +3.47927699846E-05 +4.19240934240E-06 -1.80648340610E-05 +5.24345153095E-05 -6.68370802402E-01 +7.08794894264E-01
1.12000000000E+09 -5.07533562692E-01 +7.90146233559E-01 +1.17776678600E-05 +9.90272632021E-06 -4.75375359525E-06 -3.97816156856E-05 -6.64266731398E-01 +7.12397696265E-01
1.12500000000E+09 -4.99707449255E-01 +7.94233646872E-01 +3.33231508023E-05 +4.44643593659E-05 +4.75329187378E-05 +2.43176343460E-05 -6.59982223485E-01 +7.16458185253E-01
1.13000000000E+09 -4.92289106786E-01 +7.97861525622E-01 +1.35110102218E-05 -1.23239232068E-05 +6.19652552251E-05 -5.38580286165E-05 -6.55555613262E-01 +7.20158903494E-01
1.13500000000E+09 -4.85895630386E-01 +8.00604829913E-01 +6.36063903712E-06 +2.86704039449E-05 +3.04628431120E-05 +1.94112202380E-05 -6.50935302116E-01 +7.24031652852E-01
1.14000000000E+09 -4.80476140631E-01 +8.02972375286E-01 +5.86930678723E-05 -1.36887974769E-05 +2.76306164233E-05 -2.68314131282E-05 -6.46154290022E-01 +7.27568036569E-01
1.14500000000E+09 -4.76241761548E-01 +8.04464070927E-01 +4.54861738359E-05 -3.13461419604E-06 +2.83638579904E-05 -4.70599766559E-05 -6.41606280955E-01 +7.31001351115E-01
1.15000000000E+09 -4.72617938214E-01 +8.05917815023E-01 -2.75225638864E-05 +4.26811687635E-06 +3.56909167602E-06 +4.46094834737E-06 -6.36826910508E-01 +7.34754297893E-01
1.15500000000E+09 -4.68668683686E-01 +8.07467179213E-01 +2.51876459412E-05 +1.31498929977E-05 +5.89323062373E-05 +1.52622494486E-05 -6.32197048153E-01 +7.38589399371E-01
1.16000000000E+09 -4.64054038455E-01 +8.08927339790E-01 +6.02880476297E-05 -5.78926727017E-06 +1.78591128148E-05 +4.99159931483E-06 -6.27390843711E-01 +7.42341799156E-01
1.16500000000E+09 -4.58276216175E-01 +8.11552315615E-01 -6.30158877916E-07 +1.16827317517E-05 +5.25569272633E-05 -1.07723682061E-05 -6.22344297640E-01 +7.46065152183E-01
1.17000000000E+09 -4.51551653981E-01 +8.14556803884E-01 +4.72885316501E-05 -4.27178049910E-05 +8.93213414448E-05 -7.60463682078E-05 -6.16859050639E-01 +7.49373301539E-01
1.17500000000E+09 -4.43888704500E-01 +8.17918104629E-01 +5.60582477627E-05 -1.64725604316E-05 +5.55877207750E-05 -5.54334164894E-05 -6.11346768431E-01 +7.52582386310E-01
1.18000000000E+09 -4.36206841874E-01 +8.21512906992E-01 +5.77445987492E-05 -2.33370251896E-05 +6.76370506487E-05 -5.98995824406E-05 -6.05772718733E-01 +7.55622707522E-01
1.18500000000E+09 -4.28418213193E-01 +8.24755839420E-01 +9.92034948472E-05 -3.56574649389E-05 +7.37715270084E-05 -1.02261308288E-04 -5.99936949163E-01 +7.58581846559E-01
1.19000000000E+09 -4.21483707332E-01 +8.27442292677E-01 +6.89702311992E-05 -1.25693617280E-04 +1.05867180703E-04 -1.10506582873E-04 -5.93674426359E-01 +7.61240381716E-01
1.19500000000E+09 -4.15455811960E-01 +8.29390038118E-01 +2.87741625913E-05 -6.70858479171E-05 +3.59666916651E-05 -1.36847878836E-04 -5.88000448999E-01 +7.62321941095E-01
1.20000000000E+09 -4.10216979286E-01 +8.30071790114E-01 -2.04457531061E-05 -1.12389616201E-04 -4.84931810303E-05 -1.13105256077E-04 -5.83379207571E-01 +7.62595275350E-01
1.20500000000E+09 -4.05481305222E-01 +8.31089318768E-01 -7.24093379731E-05 -1.13720679888E-04 -4.46162454695E-05 -1.41975722873E-04 -5.81143852089E-01 +7.63474462771E-01
1.21000000000E+09 -4.00392415551E-01 +8.31989222655E-01 -6.20976179191E-05 -7.62469764158E-05 -7.48056498521E-05 -1.03254805517E-04 -5.79156420436E-01 +7.66629519336E-01
1.21500000000E+09 -3.94224387746E-01 +8.33352515674E-01 -7.01757854899E-05 -2.02251125411E-06 -7.05421323559E-05 -5.04586691763E-05 -5.76364393066E-01 +7.71326830169E-01
1.22000000000E+09 -3.86513424057E-01 +8.35197015048E-01 -9.97020738234E-06 -1.94468283394E-05 -2.13384100693E-05 -2.14053775961E-05 -5.72058171062E-01 +7.76713627391E-01
1.22500000000E+09 -3.77185670749E-01 +8.37707491459E-01 -5.19993095055E-06 +2.26558077461E-06 -4.39636549333E-05 -2.47443360053E-06 -5.66888126030E-01 +7.81771948083E-01
1.23000000000E+09 -3.67079815369E-01 +8.40872902277E-01 -1.19454958872E-05 -5.44636102849E-05 -1.08861133911E-05 -1.59981529139E-05 -5.61168500448E-01 +7.86475595116E-01
1.23500000000E+09 -3.56662108883E-01 +8.44478907895E-01 -5.41305583491E-05 -4.49452176006E-05 -4.31567449607E-05 -3.17995934378E-05 -5.55353521627E-01 +7.90728903049E-01
1.24000000000E+09 -3.46404582873E-01 +8.48451650146E-01 -4.91233312128E-05 -6.15425671405E-05 -2.65665690779E-05 -7.96613380909E-05 -5.49463078170E-01 +7.94750401759E-01
1.24500000000E+09 -3.37346674563E-01 +8.52550092333E-01 -4.67614183784E-05 -7.32232570232E-05 -3.79791842354E-05 -6.66310835255E-05 -5.43133622530E-01 +7.98411981176E-01
1.25000000000E+09 -3.29114438815E-01 +8.55837839212E-01 -9.83798098737E-05 -2.70640269933E-05 -6.98927402683E-05 -8.31814081646E-05 -5.36603970560E-01 +8.02598470083E-01
1.25500000000E+09 -3.22432834505E-01 +8.57840645278E-01 -8.24893340448E-05 -8.01849537650E-05 -1.18342786682E-04 -2.58635343593E-05 -5.29999785402E-01 +8.06666586654E-01
1.26000000000E+09 -3.16682396916E-01 +8.59247487458E-01 -4.69657155307E-05 -2.97023317309E-05 -7.19182255499E-05 -4.64973980456E-05 -5.23306592169E-01 +8.10730596999E-01
1.26500000000E+09 -3.11178663402E-01 +8.59772856839E-01 -7.92645556315E-05 -6.93793136803E-06 -1.18554005160E-04 -7.42028934698E-06 -5.16284905758E-01 +8.14548582612E-01
1.27000000000E+09 -3.05453124813E-01 +8.60390499618E-01 -6.75883214744E-05 -3.65577665340E-05 -7.40254523318E-05 +2.79797530316E-05 -5.09391320539E-01 +8.18370008886E-01
1.27500000000E+09 -2.98230801629E-01 +8.60889938233E-01 -9.10252130486E-05 -4.32061886247E-05 -6.98705534320E-05 -1.09839853881E-05 -5.02341539565E-01 +8.21921496806E-01
1.28000000000E+09 -2.89144343246E-01 +8.61975893340E-01 -9.63803273630E-05 -1.70352386291E-05 -1.06445990062E-04 -6.90955588866E-07 -4.95288537801E-01 +8.25534917958E-01
1.28500000000E+09 -2.78232923190E-01 +8.63674465683E-01 -4.48205079329E-05 +3.96544399069E-06 -9.77315129327E-05 +6.41163592431E-06 -4.87806357099E-01 +8.29352069314E-01
1.29000000000E+09 -2.66254647286E-01 +8.66010165301E-01 -8.90100477232E-05 -2.40541151283E-05 -7.66260502169E-05 +1.76080301280E-05 -4.80174502581E-01 +8.33009977832E-01
1.29500000000E+09 -2.53809594364E-01 +8.69179646034E-01 -8.57883069666E-05 -4.29917748124E-06 -6.53588207345E-05 -4.37878005054E-06 -4.72236675573E-01 +8.36546944611E-01
1.30000000000E+09 -2.41826481751E-01 +8.72784077616E-01 -9.16324904484E-05 +5.80439410914E-05 -1.26894800862E-04 +4.83163820260E-05 -4.64339855174E-01 +8.40143961601E-01
1.30500000000E+09 -2.30631970782E-01 +8.76133920341E-01 -6.62161222129E-05 +4.37436736096E-05 -1.30094533241E-04 +7.11366112126E-06 -4.56404709295E-01 +8.43585840235E-01
1.31000000000E+09 -2.21060041641E-01 +8.78475463704E-01 -1.10849478504E-04 +1.01125176621E-05 -7.39510612496E-05 +5.33991572263E-05 -4.48084816878E-01 +8.46960822533E-01
1.31500000000E+09 -2.13624194421E-01 +8.79796026629E-01 -9.17069798984E-05 +5.80504011385E-06 -3.07246855833E-05 +6.77482122533E-05 -4.39334168261E-01 +8.50478491563E-01
1.32000000000E+09 -2.07542101974E-01 +8.80166827104E-01 -9.47679154637E-05 +2.19117716746E-05 -9.60976878817E-05 +6.09955365064E-05 -4.30392814115E-01 +8.53782337562E-01
1.32500000000E+09 -2.01954425864E-01 +8.79671785626E-01 -1.19880851615E-04 +5.21309369659E-05 -1.34335317695E-04 +3.64118071376E-05 -4.20887969430E-01 +8.57151034122E-01
1.33000000000E+09 -1.95419897074E-01 +8.78662278069E-01 -1.45878119545E-04 +5.09866606322E-05 -1.20780763818E-04 +6.03036933119E-05 -4.11234075918E-01 +8.60365054399E-01
1.33500000000E+09 -1.87042812861E-01 +8.77641630479E-01 -2.05724786113E-04 +2.77224866363E-05 -1.48721596785E-04 +1.01120793349E-04 -4.01576569148E-01 +8.63531802251E-01
1.34000000000E+09 -1.76123057731E-01 +8.76687730290E-01 -1.98867294698E-04 +1.51428400021E-04 -1.90475336109E-04 +1.10397795568E-04 -3.91368945957E-01 +8.66832317100E-01
1.34500000000E+09 -1.62878469715E-01 +8.76164733537E-01 -1.32788988734E-04 +1.54477441502E-04 -1.81327702865E-04 +1.78896254885E-04 -3.80574436894E-01 +8.70078296071E-01
1.35000000000E+09 -1.47711375209E-01 +8.76350157756E-01 -9.38071373458E-05 +1.78167389179E-04 -1.47020937738E-04 +1.84973939539E-04 -3.69222128831E-01 +8.73157683897E-01
1.35500000000E+09 -1.31399185627E-01 +8.77152076195E-01 -1.24496850005E-04 +2.09272868857E-04 -1.17989937734E-04 +2.59026206703E-04 -3.57614533355E-01 +8.76109567194E-01
1.36000000000E+09 -1.14834626157E-01 +8.78170261161E-01 -1.32847323628E-04 +2.34185872641E-04 -1.00047424246E-04 +2.82161445611E-04 -3.45668854220E-01 +8.78744971916E-01
1.36500000000E+09 -9.90594126423E-02 +8.79179092747E-01 -8.58734419702E-05 +3.24981800910E-04 -7.40832281900E-05 +2.99459873394E-04 -3.33577769292E-01 +8.81214580625E-01
1.37000000000E+09 -8.49498350462E-02 +8.79285795385E-01 -8.31813155586E-05 +3.30481841031E-04 -5.38938524267E-05 +3.58028728461E-04 -3.20687160901E-01 +8.83781839015E-01
1.37500000000E+09 -7.27774006602E-02 +8.78760676425E-01 +7.09297455768E-05 +3.81954661899E-04 +4.87076907332E-05 +4.32661436044E-04 -3.06913903326E-01 +8.85982996000E-01
1.38000000000E+09 -6.19373485256E-02 +8.77466054286E-01 +1.97291345675E-04 +3.32179770457E-04 +1.06828290386E-04 +4.14744296345E-04 -2.92317702683E-01 +8.88142902732E-01
1.38500000000E+09 -5.09522176169E-02 +8.75378942553E-01 +1.55118224463E-04 +3.31351073366E-04 +1.76128814247E-04 +3.75146059062E-04 -2.76939645623E-01 +8.90026848325E-01
1.39000000000E+09 -3.92111809507E-02 +8.72334739042E-01 +1.90111565058E-04 +2.71676413098E-04 +2.43506479658E-04 +3.56883993658E-04 -2.61029305518E-01 +8.91486249926E-01
1.39500000000E+09 -2.55264834752E-02 +8.68354421755E-01 +2.21439702975E-04 +2.62105048002E-04 +2.65597338933E-04 +2.99834432378E-04 -2.44312832027E-01 +8.92303639746E-01
1.40000000000E+09 -9.24265734187E-03 +8.63760322504E-01 +2.24562574078E-04 +3.32885098888E-04 +2.79081902400E-04 +3.27139746691E-04 -2.27060879882E-01 +8.92609664997E-01
1.40500000000E+09 +9.36254833193E-03 +8.58645823997E-01 +3.20152662259E-04 +3.35037652381E-04 +3.54320251171E-04 +3.39437430963E-04 -2.08592217703E-01 +8.92412508920E-01
1.41000000000E+09 +2.97281198721E-02 +8.53460582688E-01 +4.52021814878E-04 +2.88313656020E-04 +3.98427105326E-04 +2.70722070983E-04 -1.88629400926E-01 +8.91790675105E-01
1.41500000000E+09 +5.14849022571E-02 +8.48057993720E-01 +5.06951642349E-04 +2.69250616650E-04 +5.39509215456E-04 +3.01749259676E-04 -1.67171768267E-01 +8.90268214925E-01
1.42000000000E+09 +7.38926675228E-02 +8.42094203360E-01 +5.77033693912E-04 +8.45728910088E-05 +6.43540164472E-04 +1.18015510569E-04 -1.44433857711E-01 +8.87832009630E-01
1.42500000000E+09 +9.57094136342E-02 +8.35063718805E-01 +5.06721160024E-04 +1.29568513703E-04 +5.63378562580E-04 +1.09670973301E-04 -1.20743450593E-01 +8.84279325702E-01
1.43000000000E+09 +1.16303584101E-01 +8.26495893994E-01 +6.82883458993E-04 +1.43640189900E-04 +7.65804655628E-04 +7.75585456548E-05 -9.60304624061E-02 +8.79795365566E-01
1.43500000000E+09 +1.36078352625E-01 +8.16248994606E-01 +7.44518909105E-04 -4.83856400205E-05 +7.99881845896E-04 -1.32407553559E-04 -6.99545173264E-02 +8.73370216211E-01
1.44000000000E+09 +1.56087793480E-01 +8.04285171962E-01 +7.63416949693E-04 -2.00296491282E-04 +6.80541423412E-04 -2.51357971101E-04 -4.17088803729E-02 +8.65140713227E-01
1.44500000000E+09 +1.77254146876E-01 +7.89249052633E-01 +8.13706587666E-04 -2.56293950229E-04 +7.80322160331E-04 -2.66251150647E-04 -1.12173878301E-02 +8.54064842666E-01
1.45000000000E+09 +2.00399551184E-01 +7.70754343471E-01 +8.09177438885E-04 -3.46561151288E-04 +7.85436861319E-04 -4.11699529630E-04 +2.08496794996E-02 +8.39699977758E-01
1.45500000000E+09 +2.25765830351E-01 +7.48762007126E-01 +8.42407690107E-04 -4.71576495893E-04 +8.26721065447E-04 -5.16849362280E-04 +5.45306402893E-02 +8.22245638486E-01
1.46000000000E+09 +2.54180911820E-01 +7.22554738400E-01 +1.02009317184E-03 -6.60196703806E-04 +9.22497081307E-04 -7.52574895848E-04 +8.94134452931E-02 +8.00858944907E-01
1.46500000000E+09 +2.83978900518E-01 +6.92514362270E-01 +1.05308896625E-03 -1.13479071346E-03 +8.75588464790E-04 -1.10688295150E-03 +1.25768842271E-01 +7.74109591669E-01
1.47000000000E+09 +3.15356083577E-01 +6.58587279686E-01 +6.44120771534E-04 -1.46493655473E-03 +5.53653630487E-04 -1.34573276041E-03 +1.62796997544E-01 +7.41104034339E-01
1.47500000000E+09 +3.46451504671E-01 +6.19149039168E-01 +2.53496824501E-04 -1.67741448533E-03 +3.06040050768E-04 -1.60404909646E-03 +2.01095758427E-01 +7.00688207746E-01
1.48000000000E+09 +3.75018714270E-01 +5.73587981175E-01 +2.30822383203E-05 -1.50196292819E-03 +3.64402113179E-05 -1.50845736475E-03 +2.38448460637E-01 +6.50645172470E-01
1.48500000000E+09 +3.98682326079E-01 +5.21643663382E-01 +3.21254121131E-05 -1.86555313869E-03 +2.00506747788E-05 -1.96548354215E-03 +2.73012016157E-01 +5.91551118506E-01
1.49000000000E+09 +4.16744527218E-01 +4.62237474946E-01 -5.90211623199E-04 -2.20377586441E-03 -6.76089408549E-04 -2.18970707638E-03 +3.02235226588E-01 +5.21506694842E-01
1.49500000000E+09 +4.26550247904E-01 +3.94395660667E-01 -1.10670036834E-03 -2.20964459744E-03 -1.11273773069E-03 -2.10531777030E-03 +3.21578632843E-01 +4.40974277092E-01
1.50000000000E+09 +4.27103329286E-01 +3.17359694575E-01 -1.87233939500E-03 -2.47422776448E-03 -1.83193802118E-03 -2.31361177976E-03 +3.27400775197E-01 +3.49818297143E-01
1.50500000000E+09 +4.14550597894E-01 +2.30837817184E-01 -3.32742531822E-03 -1.78208132040E-03 -3.10693173131E-03 -1.80960340016E-03 +3.15756932194E-01 +2.52403636997E-01
1.51000000000E+09 +3.84388338810E-01 +1.38722215383E-01 -3.66472784896E-03 +1.44077312249E-05 -3.56877767301E-03 -1.63918801891E-04 +2.83866063536E-01 +1.49791636439E-01
1.51500000000E+09 +3.35454457265E-01 +4.68408795557E-02 -3.16009470119E-03 +6.68460161852E-04 -3.25659731691E-03 +6.18205934401E-04 +2.27528719705E-01 +5.05648946967E-02
1.52000000000E+09 +2.66208743072E-01 -3.79508977804E-02 -3.10722389620E-03 +1.58430828743E-03 -3.15504503269E-03 +1.59411859645E-03 +1.48906345455E-01 -3.61359348341E-02
1.52500000000E+09 +1.79132562035E-01 -1.08049073427E-01 -2.04234379727E-03 +2.40157372349E-03 -2.12952578071E-03 +2.44417888056E-03 +5.22714750412E-02 -1.04603601966E-01
1.53000000000E+09 +7.57065993297E-02 -1.56539849048E-01 -1.45484916564E-03 +2.09077169762E-03 -1.46154722745E-03 +2.11425164953E-03 -5.70085145280E-02 -1.49341050956E-01
1.53500000000E+09 -3.53347516288E-02 -1.77447426648E-01 -1.66018685574E-03 +2.65978799187E-03 -1.65475217524E-03 +2.64804380487E-03 -1.71145788501E-01 -1.67921285073E-01
1.54000000000E+09 -1.46669442981E-01 -1.71072052878E-01 -6.49695361180E-04 +3.49465384354E-03 -5.77163941568E-04 +3.42684392380E-03 -2.80639666348E-01 -1.62398190560E-01
1.54500000000E+09 -2.50546534932E-01 -1.40911761479E-01 +6.77151531123E-04 +3.41087602534E-03 +6.25209860173E-04 +3.32488525622E-03 -3.79257534412E-01 -1.37491183503E-01
1.55000000000E+09 -3.42547356332E-01 -9.28859676661E-02 +1.79108967360E-03 +3.06361413977E-03 +1.64548101346E-03 +3.12373804787E-03 -4.65359893508E-01 -9.87446961998E-02
1.55500000000E+09 -4.18982400930E-01 -3.39993491365E-02 +2.63607867187E-03 +1.89291556853E-03 +2.62370440706E-03 +2.01735567542E-03 -5.36107291671E-01 -4.86443622956E-02
1.56000000000E+09 -4.80730679185E-01 +2.85793767878E-02 +2.58347422210E-03 +5.80985576893E-04 +2.64683773384E-03 +6.86824868313E-04 -5.91151026043E-01 +5.82288997022E-03
1.56500000000E+09 -5.27483756387E-01 +9.17275186893E-02 +1.89934195012E-03 +1.39918512698E-05 +1.97855141918E-03 +5.73263730470E-06 -6.34641972526E-01 +6.16800001629E-02
1.57000000000E+09 -5.62175506373E-01 +1.51652561349E-01 +1.62580794168E-03 -1.51913884622E-04 +1.73489476407E-03 -1.70400245806E-04 -6.66481302529E-01 +1.17236860796E-01
