# Hz S RI R 50
! CMT, C1220, 16058040, 17.2.0/1
! Date: 14/08/2018 12:07:32
! Data: Format (Calibration Info)
! Freq                      S11: Re/Im (F2)                       S21: Re/Im (F2)                       S12: Re/Im (F2)                       S22: Re/Im (F2)            
1.00000000000E+09 -6.54361343383E-01 +7.09629302777E-01 -4.08128351633E-05 -1.45124149542E-05 -6.17939354918E-05 +2.24220699691E-05 -7.53385754671E-01 +6.25624526243E-01
1.00500000000E+09 -6.47637415263E-01 +7.14361583209E-01 -3.12533813716E-05 +4.28444906811E-05 -4.17568005414E-05 +4.26558480799E-05 -7.49757288230E-01 +6.29640285628E-01
1.01000000000E+09 -6.41749119210E-01 +7.18603965205E-01 -4.39531833406E-05 +3.14988718636E-05 -2.02878649227E-05 -4.40881957395E-05 -7.46523612378E-01 +6.33363770768E-01
1.01500000000E+09 -6.37700619041E-01 +7.22204569434E-01 -1.31872837280E-05 -3.66028086020E-05 -2.17179659803E-05 +5.25717180235E-05 -7.42929463315E-01 +6.37184828625E-01
1.02000000000E+09 -6.34810019152E-01 +7.25550231529E-01 +4.90675861479E-05 +2.70018941335E-05 -4.04139191628E-05 +3.66248947171E-05 -7.39538034625E-01 +6.40628932378E-01
1.02500000000E+09 -6.32800305575E-01 +7.28672101441E-01 +1.17207158930E-05 +2.83150379584E-06 -2.51175775395E-05 +3.02144313510E-06 -7.36666964111E-01 +6.44307056189E-01
1.03000000000E+09 -6.31483525118E-01 +7.31322685766E-01 -3.84952147609E-05 -2.89298547995E-05 +3.72819301761E-06 +2.26553883080E-05 -7.33075916575E-01 +6.48289791816E-01
1.03500000000E+09 -6.29162441780E-01 +7.34130264427E-01 -4.56165812361E-05 +2.70508674847E-05 -3.69523117863E-05 +3.53216500451E-05 -7.29369725070E-01 +6.52195536553E-01
1.04000000000E+09 -6.25720566637E-01 +7.37158556449E-01 -9.31082454254E-06 +4.96832250605E-06 -1.77502034892E-05 -7.72067096818E-06 -7.25407954435E-01 +6.55781222519E-01
1.04500000000E+09 -6.20888435119E-01 +7.40865466413E-01 -3.90762523157E-05 -5.03152244371E-05 -3.68338555395E-05 +3.37291499464E-05 -7.22078740501E-01 +6.59422245419E-01
1.05000000000E+09 -6.14346240338E-01 +7.44896134546E-01 -3.37663161908E-05 -2.92131068618E-05 +8.99043479657E-06 -7.25323432890E-06 -7.18591528247E-01 +6.62731199157E-01
1.05500000000E+09 -6.06564859364E-01 +7.48869965375E-01 -3.39342735972E-05 +6.62466026866E-05 -2.83606695667E-05 +5.93522419849E-05 -7.15370921079E-01 +6.66454347203E-01
1.06000000000E+09 -5.98397571107E-01 +7.53504764487E-01 -2.62926308068E-06 +8.43030822576E-06 +4.60233237532E-06 +8.62704047430E-05 -7.12152874597E-01 +6.70225007845E-01
1.06500000000E+09 -5.90401771767E-01 +7.57953329746E-01 +1.70891673004E-06 +9.76886535185E-06 -2.63848890553E-05 +5.56812433897E-05 -7.08414668590E-01 +6.73969515206E-01
1.07000000000E+09 -5.83691879211E-01 +7.61781807731E-01 -4.99576195698E-05 +2.38035422791E-05 +1.24472317568E-05 +4.65930913454E-05 -7.04388086870E-01 +6.77679700449E-01
1.07500000000E+09 -5.78261594109E-01 +7.65457353518E-01 -8.34614899854E-06 +3.91346078338E-05 -8.41723000794E-06 +6.86039221960E-05 -6.99978395324E-01 +6.81432441455E-01
1.08000000000E+09 -5.74430468774E-01 +7.68894876055E-01 +3.46027077584E-05 +3.17319661075E-05 +6.06856978078E-05 +5.84142058136E-05 -6.96022794652E-01 +6.85135262284E-01
1.08500000000E+09 -5.71719146818E-01 +7.71805200226E-01 +1.76417171334E-05 +2.24954257289E-05 -3.64865371535E-05 +5.68001527209E-05 -6.91969650730E-01 +6.88884309915E-01
1.09000000000E+09 -5.69362237439E-01 +7.74543463051E-01 +8.44148152185E-07 +5.20294949463E-05 -7.88819012111E-06 +7.46126769461E-05 -6.88293358595E-01 +6.92819845319E-01
1.09500000000E+09 -5.67276423700E-01 +7.77053176388E-01 +3.78055928682E-05 +4.33004623692E-05 +2.63212423930E-05 +3.12600307269E-05 -6.84322778511E-01 +6.96693786102E-01
1.10000000000E+09 -5.63853251997E-01 +7.79774023617E-01 +1.35720282408E-05 +7.21848348368E-05 +3.81223213175E-05 +4.77339216057E-05 -6.80404019217E-01 +7.00505972229E-01
1.10500000000E+09 -5.59343314603E-01 +7.82534475633E-01 -6.23475688784E-07 +4.57524780247E-05 +6.27976639470E-06 +3.84866044556E-05 -6.76121737360E-01 +7.04154764810E-01
1.11000000000E+09 -5.53508311554E-01 +7.85887194353E-01 +3.29929358388E-05 +3.63130962036E-05 +4.11629196534E-05 +5.34393951010E-05 -6.71791968062E-01 +7.07443372965E-01
1.11500000000E+09 -5.46439782245E-01 +7.89513950727E-01 +5.54738589580E-05 +4.67266126101E-05 +1.47231123961E-05 +3.13790882859E-05 -6.67766489939E-01 +7.10927797070E-01
1.12000000000E+09 -5.39037665594E-01 +7.93089140144E-01 +5.22026160164E-05 +5.67410782883E-05 +6.82906530136E-05 +1.22449523943E-05 -6.63622994082E-01 +7.14528969345E-01
1.12500000000E+09 -5.31335524271E-01 +7.96648094227E-01 -1.55588827429E-06 +4.26030852009E-05 +2.19422503752E-05 +5.22175828129E-05 -6.59419749976E-01 +7.18619543984E-01
1.13000000000E+09 -5.24520609699E-01 +8.00191595825E-01 +3.76715919723E-05 +3.69845389882E-05 -5.15520098993E-05 +8.60046177470E-05 -6.55189428145E-01 +7.22262988418E-01
1.13500000000E+09 -5.18713827977E-01 +8.03157872661E-01 +6.21407602062E-05 +5.66958671068E-05 -2.17373565408E-06 +7.46517902597E-05 -6.50581861528E-01 +7.26126901360E-01
1.14000000000E+09 -5.14205047312E-01 +8.06108475150E-01 +1.55926325834E-05 +7.03586998545E-05 +2.98108324546E-05 +3.20925093161E-05 -6.45846707219E-01 +7.29467078424E-01
1.14500000000E+09 -5.10479491896E-01 +8.08504296047E-01 +5.26583347814E-05 +5.68725860993E-05 +5.82872735935E-05 +6.37755641894E-05 -6.41268919403E-01 +7.32972058182E-01
1.15000000000E+09 -5.07010302110E-01 +8.10701239015E-01 +3.28581766043E-05 +5.64907625507E-05 +6.67573457713E-05 +4.86120046932E-05 -6.36580375227E-01 +7.36791276059E-01
1.15500000000E+09 -5.03496593664E-01 +8.13139255988E-01 +3.50626154274E-07 +2.68249288459E-05 +6.08062641243E-05 +7.33987484788E-05 -6.31745144241E-01 +7.40481631223E-01
1.16000000000E+09 -4.98910460077E-01 +8.15427251768E-01 +6.04891353659E-05 +4.49402271254E-05 +8.16852512527E-05 +4.38015250966E-05 -6.26945559912E-01 +7.44435854797E-01
1.16500000000E+09 -4.93261515992E-01 +8.18377165199E-01 +4.85265989726E-05 +2.57053796152E-05 +9.16802613106E-05 +3.06693882737E-05 -6.21809647243E-01 +7.48030676843E-01
1.17000000000E+09 -4.86568677504E-01 +8.21348317473E-01 +6.84050255875E-05 +2.22827570712E-05 +1.10731326583E-04 +1.95944040818E-05 -6.16463718354E-01 +7.51442806051E-01
1.17500000000E+09 -4.78729550836E-01 +8.24388501965E-01 +8.89966120173E-05 +5.64880114706E-05 +1.47488181024E-04 +5.94762158141E-05 -6.10693506818E-01 +7.54646294945E-01
1.18000000000E+09 -4.70861559428E-01 +8.27478749680E-01 +1.02286803248E-04 +7.40711696201E-05 +1.12485899954E-04 +4.52397272220E-05 -6.05089656519E-01 +7.57718873680E-01
1.18500000000E+09 -4.62807901790E-01 +8.30495804201E-01 +1.53891224580E-04 +4.38263868404E-05 +1.49571393936E-04 +8.27047636227E-05 -5.99010954463E-01 +7.60674583131E-01
1.19000000000E+09 -4.55802350804E-01 +8.32935961931E-01 +1.24972321556E-04 +4.57899329480E-05 +1.66552004252E-04 +8.61311921804E-05 -5.92969112272E-01 +7.63364675648E-01
1.19500000000E+09 -4.49869955634E-01 +8.35195647426E-01 +2.29094588973E-04 -2.17875533627E-05 +2.30591966244E-04 -1.51364551352E-05 -5.87005949260E-01 +7.64725429144E-01
1.20000000000E+09 -4.45263644087E-01 +8.36512816343E-01 +2.28678332875E-04 -4.52006794564E-05 +2.02415953894E-04 -8.80556490130E-05 -5.82495933652E-01 +7.64712173616E-01
1.20500000000E+09 -4.41102428839E-01 +8.38414720270E-01 +1.80297695680E-04 -1.38934402434E-04 +1.85014103159E-04 -1.43110101319E-04 -5.80267640226E-01 +7.65681388583E-01
1.21000000000E+09 -4.36971935220E-01 +8.40406001520E-01 +1.04325947106E-04 -1.39494886032E-04 +6.95499276774E-05 -1.84435075855E-04 -5.78412807351E-01 +7.68647368468E-01
1.21500000000E+09 -4.31769572601E-01 +8.42598164882E-01 +7.62595622154E-05 -1.57725680716E-04 +8.73001135862E-05 -1.28517760966E-04 -5.75597847081E-01 +7.73163694434E-01
1.22000000000E+09 -4.25293658678E-01 +8.45084351528E-01 +9.99616348347E-05 -1.71119527180E-04 +1.16806866660E-04 -1.36024246731E-04 -5.71465443270E-01 +7.78447547258E-01
1.22500000000E+09 -4.17244709006E-01 +8.47893036767E-01 +8.31202971978E-05 -1.39049024225E-04 +9.02698993717E-05 -1.28903283401E-04 -5.66232946073E-01 +7.83773072351E-01
1.23000000000E+09 -4.07758953499E-01 +8.50914931561E-01 +5.61962441006E-05 -1.39530917786E-04 +5.63105451628E-05 -1.47546440797E-04 -5.60494499949E-01 +7.88543913316E-01
1.23500000000E+09 -3.97845822729E-01 +8.54243294819E-01 +8.13019584751E-05 -1.40801350795E-04 +1.41001030859E-04 -1.61098824425E-04 -5.54595892865E-01 +7.92775015675E-01
1.24000000000E+09 -3.87702797952E-01 +8.57495187828E-01 +9.41331365778E-05 -1.88147068565E-04 +8.17523515044E-05 -1.40364524808E-04 -5.48618186330E-01 +7.96620051990E-01
1.24500000000E+09 -3.78130910762E-01 +8.61043187824E-01 +1.21618181361E-04 -1.79758402160E-04 +6.02546493584E-05 -1.85293678390E-04 -5.42256086245E-01 +8.00513654670E-01
1.25000000000E+09 -3.69705557259E-01 +8.64079700675E-01 +8.94279594330E-05 -2.66705707291E-04 +7.71187055385E-05 -1.97356944899E-04 -5.35635991570E-01 +8.04800119171E-01
1.25500000000E+09 -3.62556411767E-01 +8.66576355124E-01 +3.08644281333E-05 -2.76552320499E-04 +4.94730600643E-05 -2.62824631157E-04 -5.28797186638E-01 +8.08773382294E-01
1.26000000000E+09 -3.56372741112E-01 +8.69146446210E-01 +3.44988468925E-07 -2.35335750078E-04 -2.25693309706E-05 -2.84551103913E-04 -5.22118792775E-01 +8.13093561648E-01
1.26500000000E+09 -3.50863544856E-01 +8.71300639696E-01 -4.90693420298E-05 -2.68421007677E-04 -1.18731799173E-05 -2.70289757151E-04 -5.15216910654E-01 +8.16865363758E-01
1.27000000000E+09 -3.45232646178E-01 +8.73527083958E-01 -6.86705394817E-05 -2.70944667201E-04 -1.39972438307E-05 -3.10135114404E-04 -5.08346067026E-01 +8.20737792243E-01
1.27500000000E+09 -3.38760804369E-01 +8.75645913043E-01 -8.75298873248E-05 -2.84458440246E-04 -1.42080412911E-04 -2.93910248466E-04 -5.01287774595E-01 +8.24375958502E-01
1.28000000000E+09 -3.30768088082E-01 +8.77891918061E-01 -1.53064617804E-04 -2.28738205288E-04 -1.12326779768E-04 -2.84399730769E-04 -4.94279137871E-01 +8.27927817464E-01
1.28500000000E+09 -3.21081546939E-01 +8.80481025284E-01 -1.59314225876E-04 -2.49459404003E-04 -1.49966374017E-04 -2.91821679973E-04 -4.86916718574E-01 +8.31288719739E-01
1.29000000000E+09 -3.10201170901E-01 +8.83000117836E-01 -1.70569224198E-04 -2.90828628410E-04 -2.18577014176E-04 -3.14114555821E-04 -4.79384254006E-01 +8.35083047234E-01
1.29500000000E+09 -2.98704433534E-01 +8.85569959439E-01 -2.07674757570E-04 -2.79083860522E-04 -2.77499068957E-04 -2.65743434326E-04 -4.71455089551E-01 +8.38603269713E-01
1.30000000000E+09 -2.87308333598E-01 +8.88299716139E-01 -2.98463520746E-04 -2.57091467444E-04 -2.86620194196E-04 -2.30273945757E-04 -4.63472167487E-01 +8.42338889590E-01
1.30500000000E+09 -2.76677026110E-01 +8.90820406574E-01 -3.49270148495E-04 -2.59073904769E-04 -3.23331521958E-04 -2.01426290611E-04 -4.55362081902E-01 +8.45738865347E-01
1.31000000000E+09 -2.67329863841E-01 +8.92892257334E-01 -3.85809700626E-04 -1.68931595201E-04 -3.77717463749E-04 -1.45839256360E-04 -4.46989830003E-01 +8.49265101056E-01
1.31500000000E+09 -2.59427912686E-01 +8.94880766165E-01 -3.70689363845E-04 -1.24665497051E-04 -4.05007160532E-04 -1.16555567011E-04 -4.38268721290E-01 +8.52602350057E-01
1.32000000000E+09 -2.52566284464E-01 +8.96423770481E-01 -3.60172452375E-04 -1.08145347999E-04 -3.59070174613E-04 -1.10734819599E-04 -4.29087603743E-01 +8.56095174037E-01
1.32500000000E+09 -2.46007775586E-01 +8.97696819263E-01 -3.63423433851E-04 -1.20752908768E-04 -4.02176285231E-04 -9.11135572244E-05 -4.19398777433E-01 +8.59420962799E-01
1.33000000000E+09 -2.38754210644E-01 +8.98700975044E-01 -4.01902720728E-04 -1.13962474800E-04 -4.67964068617E-04 -5.40901454510E-05 -4.09739289386E-01 +8.62759725181E-01
1.33500000000E+09 -2.29994429377E-01 +8.99498616709E-01 -5.00868727231E-04 -4.59244444664E-05 -4.96313045268E-04 -1.74408676275E-05 -3.99888304599E-01 +8.66042639819E-01
1.34000000000E+09 -2.19086432231E-01 +9.00136778629E-01 -4.98974297560E-04 +8.05422940192E-05 -4.49738797355E-04 +6.56335040384E-06 -3.89659580772E-01 +8.69519658266E-01
1.34500000000E+09 -2.06029600144E-01 +9.00395135611E-01 -4.87806482856E-04 +1.30447792617E-04 -4.47270304048E-04 +9.43046547009E-05 -3.78729047850E-01 +8.72704097495E-01
1.35000000000E+09 -1.91216565984E-01 +9.00562224462E-01 -4.35895950200E-04 +1.49364761304E-04 -4.52586419673E-04 +1.36804323593E-04 -3.67413422868E-01 +8.75745763137E-01
1.35500000000E+09 -1.75246750314E-01 +9.00454527353E-01 -4.46261704192E-04 +1.26217700845E-04 -4.25942377333E-04 +1.46246747441E-04 -3.55830584387E-01 +8.78485176556E-01
1.36000000000E+09 -1.59103891495E-01 +9.00577666394E-01 -4.35589423634E-04 +1.82112390088E-04 -4.63376783262E-04 +1.41931648400E-04 -3.43913208833E-01 +8.81255711554E-01
1.36500000000E+09 -1.43441520150E-01 +9.00820745047E-01 -4.88880338599E-04 +2.07342434046E-04 -4.69616978171E-04 +1.56037057324E-04 -3.31772574181E-01 +8.83830443946E-01
1.37000000000E+09 -1.28787395611E-01 +9.00926018893E-01 -5.56020236986E-04 +2.85931275817E-04 -5.56263172057E-04 +1.85164284380E-04 -3.18867574168E-01 +8.86133473330E-01
1.37500000000E+09 -1.15591930692E-01 +9.01058162775E-01 -6.11207169294E-04 +3.79206031855E-04 -6.56282505933E-04 +2.83024917466E-04 -3.05143772244E-01 +8.88335779336E-01
1.38000000000E+09 -1.03263192001E-01 +9.00873952435E-01 -5.61262537243E-04 +5.19980224442E-04 -6.70112603325E-04 +4.52793578489E-04 -2.90568769818E-01 +8.90366709699E-01
1.38500000000E+09 -9.09847338639E-02 +9.00289145922E-01 -4.62482641967E-04 +5.99772569879E-04 -5.53536537273E-04 +6.55683510293E-04 -2.74944307015E-01 +8.92301971485E-01
1.39000000000E+09 -7.82155303319E-02 +8.99200794850E-01 -4.54487444321E-04 +5.76566108106E-04 -4.47865688003E-04 +6.46489680303E-04 -2.59137615837E-01 +8.93927294489E-01
1.39500000000E+09 -6.38590256283E-02 +8.97374959236E-01 -4.66507691102E-04 +6.04509386451E-04 -4.59515055597E-04 +7.01594181318E-04 -2.42212532678E-01 +8.94633369124E-01
1.40000000000E+09 -4.72479647879E-02 +8.94258330846E-01 -4.74191708637E-04 +7.40126424045E-04 -4.12371023423E-04 +7.56253740939E-04 -2.24639707298E-01 +8.95092888429E-01
1.40500000000E+09 -2.87822685601E-02 +8.90140013454E-01 -4.87616457186E-04 +8.38484284505E-04 -3.58417584977E-04 +8.29262830909E-04 -2.05989636807E-01 +8.94961091903E-01
1.41000000000E+09 -8.46152705538E-03 +8.84950505454E-01 -3.41067850726E-04 +1.02243362165E-03 -3.91027744596E-04 +9.83973930000E-04 -1.85871405390E-01 +8.94344935397E-01
1.41500000000E+09 +1.27172432882E-02 +8.78915416090E-01 -2.93657762073E-04 +1.04184184902E-03 -2.84898734482E-04 +1.08145713884E-03 -1.64167962343E-01 +8.92978906062E-01
1.42000000000E+09 +3.44723257821E-02 +8.72360498359E-01 -2.48856570651E-04 +1.06056855173E-03 -2.72461151023E-04 +1.21220698662E-03 -1.41487516863E-01 +8.90330518091E-01
1.42500000000E+09 +5.61125380263E-02 +8.65185824290E-01 -2.27977511322E-04 +1.31652464014E-03 -1.65888665197E-04 +1.44647359164E-03 -1.17483223205E-01 +8.86795163586E-01
1.43000000000E+09 +7.78484046773E-02 +8.57293685804E-01 -5.76744813253E-05 +1.50515306480E-03 +5.64620915776E-05 +1.59628603745E-03 -9.25362603367E-02 +8.82031241249E-01
1.43500000000E+09 +9.95512208228E-02 +8.48238214389E-01 +1.67251820005E-04 +1.64252362935E-03 +3.81748973591E-04 +1.69408417023E-03 -6.61941211008E-02 +8.75592147383E-01
1.44000000000E+09 +1.21833980082E-01 +8.37982576540E-01 +3.55119316489E-04 +1.67296875344E-03 +5.30670887798E-04 +1.66531395292E-03 -3.79248452945E-02 +8.66988592347E-01
1.44500000000E+09 +1.45703856104E-01 +8.25122267356E-01 +5.42281116723E-04 +1.70869640006E-03 +6.32012519208E-04 +1.67402145461E-03 -7.45844060792E-03 +8.55604127069E-01
1.45000000000E+09 +1.71260740147E-01 +8.08795859223E-01 +5.73245551120E-04 +2.04758005277E-03 +7.41968004090E-04 +2.02406063357E-03 +2.45428927932E-02 +8.40894299032E-01
1.45500000000E+09 +1.98918510683E-01 +7.88804429980E-01 +9.06833973656E-04 +2.34461936478E-03 +1.10115410922E-03 +2.24199976854E-03 +5.80224592883E-02 +8.23281436002E-01
1.46000000000E+09 +2.28881702093E-01 +7.63875039547E-01 +1.51342448087E-03 +2.61206698050E-03 +1.69819303357E-03 +2.39721689377E-03 +9.33185633107E-02 +8.01640906222E-01
1.46500000000E+09 +2.60491094038E-01 +7.33774645336E-01 +2.19727241100E-03 +2.83183711032E-03 +2.20294883201E-03 +2.44017532715E-03 +1.29864833714E-01 +7.74519202478E-01
1.47000000000E+09 +2.92746885291E-01 +6.98181806176E-01 +3.14639088202E-03 +2.71124544762E-03 +2.89614358790E-03 +2.47150435232E-03 +1.67082655672E-01 +7.40235001474E-01
1.47500000000E+09 +3.24457904031E-01 +6.56335929207E-01 +4.07900675847E-03 +2.34573573316E-03 +3.80669356264E-03 +2.37290180807E-03 +2.03975802658E-01 +6.99007943345E-01
1.48000000000E+09 +3.53755835881E-01 +6.07983464945E-01 +4.96190083275E-03 +1.85511250668E-03 +5.00073647102E-03 +2.00591512591E-03 +2.40784109890E-01 +6.49818282143E-01
1.48500000000E+09 +3.79248000061E-01 +5.53359711042E-01 +5.93094935926E-03 +1.05544806600E-03 +6.06477074827E-03 +1.02908164553E-03 +2.75644042679E-01 +5.90436309355E-01
1.49000000000E+09 +3.99449615146E-01 +4.91081751404E-01 +7.10543194035E-03 +6.63420925221E-05 +7.03391113225E-03 -2.92242192122E-04 +3.03639788379E-01 +5.19810098201E-01
1.49500000000E+09 +4.12419287543E-01 +4.20853976150E-01 +8.06462938733E-03 -1.76586015403E-03 +7.69024591223E-03 -1.98095227047E-03 +3.21385497553E-01 +4.39442595778E-01
1.50000000000E+09 +4.15122833839E-01 +3.41427482711E-01 +8.86443474945E-03 -3.93712469548E-03 +8.30824192653E-03 -3.69464211777E-03 +3.26819102096E-01 +3.50670610858E-01
1.50500000000E+09 +4.04820092857E-01 +2.54490504650E-01 +8.90664903441E-03 -7.64126171145E-03 +8.74417546062E-03 -7.00181021952E-03 +3.14960346655E-01 +2.53037942360E-01
1.51000000000E+09 +3.77351386852E-01 +1.60891112974E-01 +6.46766180830E-03 -1.14454336843E-02 +6.86195613393E-03 -1.10049438794E-02 +2.81896752301E-01 +1.52392122597E-01
1.51500000000E+09 +3.28619514119E-01 +6.73212746379E-02 +2.79826884294E-03 -1.35037573548E-02 +3.23839705930E-03 -1.35741120230E-02 +2.26906129714E-01 +5.61595417345E-02
1.52000000000E+09 +2.58807705073E-01 -1.80149209100E-02 -1.76733324741E-03 -1.43447103182E-02 -1.57120670484E-03 -1.45808991227E-02 +1.51214524826E-01 -3.00671441757E-02
1.52500000000E+09 +1.71164870801E-01 -8.96010908738E-02 -5.69854507403E-03 -1.28583789973E-02 -5.72715940024E-03 -1.30123732516E-02 +5.65349004874E-02 -9.92785094453E-02
1.53000000000E+09 +6.89143252555E-02 -1.41257543965E-01 -8.62861707691E-03 -1.15653691520E-02 -8.69223782107E-03 -1.16919037788E-02 -5.15840986254E-02 -1.45163364085E-01
1.53500000000E+09 -4.20624433284E-02 -1.69052810025E-01 -1.18607120242E-02 -8.95374182175E-03 -1.19414684159E-02 -8.92958172594E-03 -1.64047904438E-01 -1.65540583560E-01
1.54000000000E+09 -1.55439768593E-01 -1.71262040355E-01 -1.46165765067E-02 -5.38851170282E-03 -1.44339767987E-02 -5.41864110332E-03 -2.74067166936E-01 -1.61719599849E-01
1.54500000000E+09 -2.64078109966E-01 -1.48099856148E-01 -1.58890977510E-02 +2.01267830859E-05 -1.57242918802E-02 -2.74942419926E-04 -3.73206225302E-01 -1.37319931250E-01
1.55000000000E+09 -3.59787061762E-01 -1.03863678438E-01 -1.36218707012E-02 +5.01026796954E-03 -1.38385554234E-02 +4.51861715274E-03 -4.58502944360E-01 -9.89063458388E-02
1.55500000000E+09 -4.38593608703E-01 -4.65707247460E-02 -1.02646785678E-02 +7.86015416384E-03 -1.08708850555E-02 +7.63852966575E-03 -5.29468776871E-01 -5.14796223447E-02
1.56000000000E+09 -5.00323710313E-01 +1.48196329064E-02 -6.86671772762E-03 +9.21548630559E-03 -7.52333592710E-03 +9.37132162166E-03 -5.86368794408E-01 +2.59484369818E-03
1.56500000000E+09 -5.50022224331E-01 +7.68859019234E-02 -3.79290191144E-03 +9.02077011896E-03 -4.18060424526E-03 +9.48283624314E-03 -6.30426466728E-01 +5.82467259226E-02
1.57000000000E+09 -5.87761637956E-01 +1.38351092503E-01 -1.63827809343E-03 +8.20271275682E-03 -1.71000555445E-03 +8.71744461422E-03 -6.63339671613E-01 +1.13507088434E-01
