# Hz S RI R 50
! CMT, C1220, 16058040, 17.2.0/1
! Date: 14/08/2018 12:09:25
! Data: Format (Calibration Info)
! Freq                      S11: Re/Im (F2)                       S21: Re/Im (F2)                       S12: Re/Im (F2)                       S22: Re/Im (F2)            
1.00000000000E+09 -6.54721742627E-01 +7.09847668768E-01 -3.07158365477E-05 -8.03761054866E-06 +6.36650290621E-06 -4.00194336991E-05 -7.53538571878E-01 +6.25622362890E-01
1.00500000000E+09 -6.48101255506E-01 +7.14280580376E-01 -2.10019973590E-05 +6.65978521562E-06 -6.90982366328E-05 -1.25030721766E-05 -7.49763863303E-01 +6.29650188841E-01
1.01000000000E+09 -6.42329782560E-01 +7.18738064640E-01 +1.34458093308E-05 -1.43127719465E-05 +3.12758203855E-05 +1.32743633933E-05 -7.46384167195E-01 +6.33422183601E-01
1.01500000000E+09 -6.38082305197E-01 +7.22397745900E-01 -4.11273673041E-05 +2.89095628280E-05 +5.05855617715E-06 -2.82782015222E-05 -7.42934754897E-01 +6.37154486065E-01
1.02000000000E+09 -6.35215594068E-01 +7.25795408433E-01 -4.36017712294E-05 +3.37072816040E-06 -5.63027889549E-05 -1.40399993422E-05 -7.39503052325E-01 +6.40629980219E-01
1.02500000000E+09 -6.33286474993E-01 +7.28721203043E-01 -1.71512603415E-05 -3.93134825561E-05 -1.54278106778E-06 -2.40834851601E-05 -7.36692909782E-01 +6.44522954769E-01
1.03000000000E+09 -6.31899906215E-01 +7.31481535155E-01 -4.63371273101E-05 +5.32037290317E-06 +1.11097368846E-05 -1.90002439300E-05 -7.33062556219E-01 +6.48305511108E-01
1.03500000000E+09 -6.29677848515E-01 +7.34271234723E-01 -2.40901979869E-05 +5.30218309203E-05 -7.39562259374E-08 +6.78488001042E-05 -7.29343382805E-01 +6.52248523331E-01
1.04000000000E+09 -6.26456024960E-01 +7.37420586015E-01 -7.22957447868E-06 -1.51790114326E-05 -4.13536148884E-05 -7.59512238679E-06 -7.25607383705E-01 +6.56059222393E-01
1.04500000000E+09 -6.21526294500E-01 +7.40753099079E-01 -8.25532279007E-06 +5.57722851591E-05 -4.83614540786E-05 +2.75206901333E-05 -7.21973774792E-01 +6.59359466422E-01
1.05000000000E+09 -6.14868730344E-01 +7.44900613357E-01 -4.80312997846E-05 +3.37635252214E-05 -4.86178141907E-05 -2.44206089412E-05 -7.18533435668E-01 +6.62943404954E-01
1.05500000000E+09 -6.07286125636E-01 +7.49194143050E-01 -4.68350846165E-05 +3.34605343160E-05 -1.63938778951E-05 +5.24669417604E-05 -7.15226282309E-01 +6.66450696070E-01
1.06000000000E+09 -5.98950662479E-01 +7.53617725050E-01 -1.64889280018E-06 +3.62882337790E-05 -3.77488761169E-05 +3.74849426070E-05 -7.11997703278E-01 +6.70249012846E-01
1.06500000000E+09 -5.91061463973E-01 +7.57976513750E-01 -2.11539768043E-05 -5.08309286161E-06 +6.73673938231E-06 -5.40063001264E-06 -7.08175536922E-01 +6.73969987665E-01
1.07000000000E+09 -5.84246099044E-01 +7.61934314043E-01 +9.56417135265E-06 +7.67289353286E-05 +1.02400896194E-05 +1.66364373729E-05 -7.04226686516E-01 +6.77651196140E-01
1.07500000000E+09 -5.78937329331E-01 +7.65596961396E-01 -1.95006348044E-05 +3.34173039568E-05 -3.08395348015E-05 +8.08571418219E-05 -6.99810250074E-01 +6.81572528073E-01
1.08000000000E+09 -5.75037374896E-01 +7.68948017467E-01 -2.72586311625E-07 +5.48386595687E-05 +1.14238085256E-05 +1.61649391289E-07 -6.96050175976E-01 +6.85280228410E-01
1.08500000000E+09 -5.72390515843E-01 +7.71911795485E-01 -5.09596251095E-06 -6.86516069743E-06 +2.20765980558E-05 -1.25993945376E-05 -6.91923748821E-01 +6.89055832530E-01
1.09000000000E+09 -5.70115730272E-01 +7.74677169627E-01 +1.68991598652E-05 +5.80943864932E-05 +1.05665324710E-05 +5.51010244640E-05 -6.88126247868E-01 +6.92712075548E-01
1.09500000000E+09 -5.67815439485E-01 +7.77102954070E-01 +3.35745383802E-05 +4.16689548027E-05 +4.19828722680E-06 +6.76659497286E-05 -6.84317939324E-01 +6.96737377853E-01
1.10000000000E+09 -5.64513184584E-01 +7.79712508180E-01 +2.12242945806E-05 +5.09236481277E-05 -2.73136894743E-05 +1.76790673236E-05 -6.80280741813E-01 +7.00560238410E-01
1.10500000000E+09 -5.60014839344E-01 +7.82598162902E-01 -6.38297234225E-06 +4.49592315108E-05 +2.04852771809E-05 +6.06319254005E-05 -6.76020848393E-01 +7.04163445586E-01
1.11000000000E+09 -5.54110432837E-01 +7.85964211459E-01 +2.15971139932E-05 +4.24767376380E-05 -5.21955953184E-07 +6.92656704841E-05 -6.71737862399E-01 +7.07500599995E-01
1.11500000000E+09 -5.46904655100E-01 +7.89507370775E-01 -1.48923449031E-05 +5.08111924779E-05 +4.45788205441E-05 -1.41162534577E-05 -6.67652033823E-01 +7.10852316101E-01
1.12000000000E+09 -5.39456461331E-01 +7.93228616008E-01 +3.97723522000E-05 +4.54228520897E-05 +1.59683729316E-05 +2.38847504717E-05 -6.63738693345E-01 +7.14661906773E-01
1.12500000000E+09 -5.31871903921E-01 +7.96876093839E-01 +1.25294326875E-05 +2.51125886731E-05 -1.01801022381E-05 +6.60188977419E-06 -6.59384024753E-01 +7.18768165185E-01
1.13000000000E+09 -5.25094919778E-01 +8.00334496950E-01 +4.26455496304E-05 +1.88089948061E-05 -4.45966505677E-06 +4.15864045465E-05 -6.55202323104E-01 +7.22318380598E-01
1.13500000000E+09 -5.19445024397E-01 +8.03166753175E-01 +3.30002957673E-05 +5.35316444054E-05 +2.39889594598E-05 +8.20278187975E-05 -6.50539440453E-01 +7.26243461849E-01
1.14000000000E+09 -5.14871650494E-01 +8.06242785309E-01 +4.53340681389E-05 +3.65921903578E-05 +3.82723730090E-05 +7.01608345927E-05 -6.45806112561E-01 +7.29581452427E-01
1.14500000000E+09 -5.11192178785E-01 +8.08713481793E-01 -3.40341559963E-06 +1.96192365601E-05 +2.18344015275E-05 +6.76562824876E-05 -6.41282184206E-01 +7.33095867570E-01
1.15000000000E+09 -5.07539747265E-01 +8.10862818414E-01 +2.77458371705E-05 +3.89884437728E-05 +7.69816432418E-05 +9.04513113058E-05 -6.36471786860E-01 +7.36850790259E-01
1.15500000000E+09 -5.04093333895E-01 +8.13288169390E-01 +6.49838665493E-05 +1.03725387457E-05 +7.71055410516E-05 +7.26717666947E-05 -6.31745249887E-01 +7.40627527153E-01
1.16000000000E+09 -4.99549742100E-01 +8.15720693576E-01 +9.06278169392E-05 +2.85418255794E-05 +8.73850486499E-05 +5.82335724534E-05 -6.26959346981E-01 +7.44596614798E-01
1.16500000000E+09 -4.93895202903E-01 +8.18612070122E-01 +5.86591587734E-05 +2.87179032699E-05 +2.66666961967E-05 +1.17902735625E-04 -6.21760647701E-01 +7.48200974542E-01
1.17000000000E+09 -4.87107510450E-01 +8.21508585091E-01 +7.78330268790E-05 +6.67615699415E-05 +5.65104391903E-05 +6.47130280917E-05 -6.16444175725E-01 +7.51401289311E-01
1.17500000000E+09 -4.79341560776E-01 +8.24671701561E-01 +5.32847893444E-05 +2.04145709455E-05 +1.12136340052E-04 +2.69349076576E-05 -6.10573940942E-01 +7.54665565012E-01
1.18000000000E+09 -4.71401745576E-01 +8.27907334292E-01 +9.54390325105E-05 +7.31983893665E-05 +1.33716567259E-04 +2.56580817119E-05 -6.05146594559E-01 +7.57841724104E-01
1.18500000000E+09 -4.63472619745E-01 +8.30781344500E-01 +1.08169824085E-04 +7.25558949396E-05 +1.20909925193E-04 +4.15208773119E-05 -5.99062913542E-01 +7.60761080017E-01
1.19000000000E+09 -4.56584819139E-01 +8.33257003477E-01 +1.52496758464E-04 +5.21715702944E-08 +2.05250237623E-04 -2.72884991170E-06 -5.92667272500E-01 +7.63521038516E-01
1.19500000000E+09 -4.50529908187E-01 +8.35502978865E-01 +1.52622943872E-04 +8.02364450003E-06 +1.78189132203E-04 -2.82273976419E-05 -5.86790803389E-01 +7.64811383175E-01
1.20000000000E+09 -4.45968432370E-01 +8.36854601422E-01 +2.10621470906E-04 -7.20429140112E-05 +2.20919850748E-04 -8.99833803422E-05 -5.82208773809E-01 +7.64957186712E-01
1.20500000000E+09 -4.41904589050E-01 +8.38774672569E-01 +1.40776303644E-04 -1.39905345785E-04 +1.77416473933E-04 -1.70596115777E-04 -5.80046283838E-01 +7.65815204058E-01
1.21000000000E+09 -4.37591967569E-01 +8.40705997767E-01 +1.09622870174E-04 -1.88054982986E-04 +9.70834549737E-05 -1.50012718551E-04 -5.78371912433E-01 +7.68776548518E-01
1.21500000000E+09 -4.32429940234E-01 +8.42979199644E-01 +8.05213405411E-05 -1.12290034372E-04 +1.02737783292E-04 -8.54440080152E-05 -5.75533271547E-01 +7.73358576969E-01
1.22000000000E+09 -4.25829990782E-01 +8.45448933131E-01 +6.27659999471E-05 -1.23586093936E-04 +1.09637528194E-04 -1.21448600661E-04 -5.71375529693E-01 +7.78619329584E-01
1.22500000000E+09 -4.17729284142E-01 +8.48378897084E-01 +7.75228966202E-05 -1.65420511779E-04 +6.28458609744E-05 -1.68935211026E-04 -5.66189185832E-01 +7.83887646019E-01
1.23000000000E+09 -4.08423196473E-01 +8.51457559613E-01 +9.02871581594E-05 -1.61622673698E-04 +7.84030615133E-05 -1.02473152674E-04 -5.60420197121E-01 +7.88513783008E-01
1.23500000000E+09 -3.98377385462E-01 +8.54535566143E-01 +1.07111913182E-04 -1.14412300056E-04 +1.10620122008E-04 -1.33445135138E-04 -5.54650614899E-01 +7.92788102632E-01
1.24000000000E+09 -3.88292144151E-01 +8.57870456990E-01 +1.18181984258E-04 -1.78580756051E-04 +9.50299377449E-05 -1.73630428733E-04 -5.48521876513E-01 +7.96763395509E-01
1.24500000000E+09 -3.78770684955E-01 +8.61494720187E-01 +1.03636110158E-04 -1.90551517647E-04 +9.30769837324E-05 -1.79551868774E-04 -5.42293239872E-01 +8.00522394187E-01
1.25000000000E+09 -3.70376771581E-01 +8.64543428797E-01 +5.86724345231E-05 -2.33536199313E-04 +9.00541292549E-05 -2.45651454305E-04 -5.35555620186E-01 +8.04788927950E-01
1.25500000000E+09 -3.63211478418E-01 +8.67105256553E-01 +2.21957090313E-05 -2.53735807291E-04 +4.54821494134E-05 -2.61826972004E-04 -5.28722420377E-01 +8.08795525952E-01
1.26000000000E+09 -3.56990162096E-01 +8.69453477509E-01 +2.27780958226E-05 -2.40288668243E-04 -3.60547868651E-06 -2.78788179287E-04 -5.22014819511E-01 +8.13214474283E-01
1.26500000000E+09 -3.51527266469E-01 +8.71686185312E-01 -7.34945109182E-06 -2.74834974900E-04 -4.65044133685E-05 -2.78137821394E-04 -5.14964068593E-01 +8.16989987000E-01
1.27000000000E+09 -3.45797412566E-01 +8.73967264220E-01 -7.98193408409E-05 -2.70114898202E-04 -4.38286749279E-05 -2.90475116592E-04 -5.08193055180E-01 +8.20821263928E-01
1.27500000000E+09 -3.39211969176E-01 +8.76098851509E-01 -7.12353668401E-05 -2.76763543545E-04 -1.15251204167E-04 -2.67742464696E-04 -5.01197238325E-01 +8.24426322150E-01
1.28000000000E+09 -3.31311932244E-01 +8.78421672287E-01 -1.52734391702E-04 -2.52816602582E-04 -1.25254462144E-04 -3.02671325913E-04 -4.94203943972E-01 +8.27928767473E-01
1.28500000000E+09 -3.21553663777E-01 +8.80983276681E-01 -1.64017000999E-04 -2.71300421537E-04 -1.59941431984E-04 -3.06028089302E-04 -4.86702969285E-01 +8.31571271535E-01
1.29000000000E+09 -3.10818451412E-01 +8.83455070034E-01 -1.82215336520E-04 -2.74480499561E-04 -2.19124513325E-04 -2.58548999160E-04 -4.79160153473E-01 +8.35163268252E-01
1.29500000000E+09 -2.99381035908E-01 +8.86251960466E-01 -2.16877479272E-04 -2.61204216064E-04 -2.30203625462E-04 -2.70924686627E-04 -4.71380027949E-01 +8.38734747018E-01
1.30000000000E+09 -2.87811854224E-01 +8.88807344209E-01 -3.06494054426E-04 -2.98411211038E-04 -3.14731063169E-04 -2.60658326714E-04 -4.63325502864E-01 +8.42411859048E-01
1.30500000000E+09 -2.77280065042E-01 +8.91252966129E-01 -3.49546617821E-04 -2.13169829369E-04 -3.29352051952E-04 -1.98204721848E-04 -4.55261665338E-01 +8.45956595470E-01
1.31000000000E+09 -2.67942138353E-01 +8.93409493464E-01 -3.74854638982E-04 -1.37215662383E-04 -3.67511631905E-04 -1.30185735516E-04 -4.46883239348E-01 +8.49195499466E-01
1.31500000000E+09 -2.59977930059E-01 +8.95385344791E-01 -3.66868055122E-04 -1.70643267381E-05 -3.58269125042E-04 -1.05982510574E-04 -4.38015158514E-01 +8.52757077722E-01
1.32000000000E+09 -2.53175399090E-01 +8.96951639084E-01 -3.25616384971E-04 -7.37704194177E-05 -3.40617660864E-04 -1.26336319979E-04 -4.28948195775E-01 +8.56290623115E-01
1.32500000000E+09 -2.46676472313E-01 +8.98259172942E-01 -3.72365194764E-04 -1.10753117212E-04 -4.03338941346E-04 -4.59014704482E-05 -4.19327917053E-01 +8.59547619903E-01
1.33000000000E+09 -2.39335846183E-01 +8.99399691329E-01 -3.44541404128E-04 -5.57502037856E-05 -4.22547556868E-04 -6.22950138644E-05 -4.09627086395E-01 +8.62675703516E-01
1.33500000000E+09 -2.30481787286E-01 +9.00148984062E-01 -4.66123301479E-04 -2.95631555789E-05 -4.58562384138E-04 +2.39104539970E-05 -3.99735660915E-01 +8.66070930624E-01
1.34000000000E+09 -2.19531079499E-01 +9.00805265241E-01 -4.52870176593E-04 +3.28280803700E-05 -4.70235693737E-04 +1.04073666764E-04 -3.89531986933E-01 +8.69339001556E-01
1.34500000000E+09 -2.06403984089E-01 +9.01047964583E-01 -4.31509080288E-04 +1.21518312239E-04 -3.72359492147E-04 +1.13780922355E-04 -3.78523585273E-01 +8.72701321296E-01
1.35000000000E+09 -1.91475610115E-01 +9.01170085149E-01 -3.96382516881E-04 +1.27041554594E-04 -3.81641654183E-04 +1.31560101424E-04 -3.67327654299E-01 +8.75759194677E-01
1.35500000000E+09 -1.75492034948E-01 +9.01119696876E-01 -3.89606373734E-04 +1.46760575515E-04 -4.01904461837E-04 +1.21953705399E-04 -3.55696616257E-01 +8.78517738927E-01
1.36000000000E+09 -1.59330781145E-01 +9.01213547458E-01 -4.06272188675E-04 +1.13285735382E-04 -3.94641120345E-04 +1.48636285917E-04 -3.43748986979E-01 +8.81331979997E-01
1.36500000000E+09 -1.43596587329E-01 +9.01373197273E-01 -4.65134728874E-04 +1.86624768621E-04 -4.23260515938E-04 +1.49909698144E-04 -3.31670571891E-01 +8.83870376112E-01
1.37000000000E+09 -1.28887632992E-01 +9.01437911548E-01 -5.17529013374E-04 +2.27861359681E-04 -4.95973569502E-04 +1.90324938144E-04 -3.18823446779E-01 +8.86021390484E-01
1.37500000000E+09 -1.15673919532E-01 +9.01493018639E-01 -5.67874757532E-04 +3.28077798008E-04 -5.89141802489E-04 +2.40166165593E-04 -3.05230831203E-01 +8.88361236263E-01
1.38000000000E+09 -1.03294585339E-01 +9.01310013273E-01 -5.69182977147E-04 +4.60953329502E-04 -6.49971399662E-04 +4.25509125461E-04 -2.90448338354E-01 +8.90461070411E-01
1.38500000000E+09 -9.08088234467E-02 +9.00779410633E-01 -4.22353108925E-04 +5.48526532986E-04 -5.07667141329E-04 +5.98054658723E-04 -2.75182125104E-01 +8.92337508058E-01
1.39000000000E+09 -7.80473629981E-02 +8.99600367771E-01 -4.08531163328E-04 +5.24141848523E-04 -4.38022522635E-04 +5.52499754765E-04 -2.59036035043E-01 +8.93806536619E-01
1.39500000000E+09 -6.34827743038E-02 +8.97627519708E-01 -4.41709755167E-04 +5.40517317714E-04 -4.53743653305E-04 +5.94241449815E-04 -2.42409219695E-01 +8.94604822463E-01
1.40000000000E+09 -4.69489456136E-02 +8.94682309587E-01 -4.61657638000E-04 +6.09939405073E-04 -3.89343644312E-04 +6.98135121999E-04 -2.24921775689E-01 +8.95014793490E-01
1.40500000000E+09 -2.83611329274E-02 +8.90487700030E-01 -4.93341254603E-04 +7.41279545901E-04 -4.39055746925E-04 +7.44137823172E-04 -2.06182725926E-01 +8.94852909087E-01
1.41000000000E+09 -8.16682596192E-03 +8.85165149648E-01 -4.19694342598E-04 +8.70811395524E-04 -4.89573033161E-04 +9.16491076777E-04 -1.86145819523E-01 +8.94325402009E-01
1.41500000000E+09 +1.29902559646E-02 +8.78961001506E-01 -3.14261089827E-04 +9.75586147178E-04 -4.04754078520E-04 +9.93403619147E-04 -1.64499939841E-01 +8.92997197686E-01
1.42000000000E+09 +3.48049511853E-02 +8.72296859799E-01 -3.16069194160E-04 +1.01896174362E-03 -3.42062535044E-04 +1.12358481177E-03 -1.41507609861E-01 +8.90597954105E-01
1.42500000000E+09 +5.64438269319E-02 +8.64994398808E-01 -3.28755427869E-04 +1.25125722773E-03 -2.84103401924E-04 +1.39163575356E-03 -1.17597159175E-01 +8.86956768060E-01
1.43000000000E+09 +7.80880102520E-02 +8.57101388659E-01 -1.83351544462E-04 +1.47777656579E-03 -2.31314372578E-06 +1.63303743518E-03 -9.27530289221E-02 +8.82054717575E-01
1.43500000000E+09 +9.98721226025E-02 +8.47982046321E-01 +1.43876344539E-04 +1.62534855837E-03 +2.63570881911E-04 +1.66206201311E-03 -6.64263639999E-02 +8.75556042108E-01
1.44000000000E+09 +1.22086852145E-01 +8.37499625013E-01 +3.41472808748E-04 +1.62716599213E-03 +4.46186047678E-04 +1.62751215143E-03 -3.81216616431E-02 +8.67031964912E-01
1.44500000000E+09 +1.46123722664E-01 +8.24529932790E-01 +3.75067734441E-04 +1.64720493183E-03 +5.21486953932E-04 +1.71042223472E-03 -7.78787384655E-03 +8.55705498438E-01
1.45000000000E+09 +1.71667893721E-01 +8.08047778595E-01 +4.78122921108E-04 +1.97891004949E-03 +6.20855928837E-04 +1.96682356357E-03 +2.42206335621E-02 +8.41082913642E-01
1.45500000000E+09 +1.99127864413E-01 +7.87716526230E-01 +7.98078699302E-04 +2.36283644243E-03 +1.02667487206E-03 +2.27467991181E-03 +5.75715556081E-02 +8.23416991496E-01
1.46000000000E+09 +2.29117123120E-01 +7.62655907875E-01 +1.44438648091E-03 +2.66616678270E-03 +1.67133098731E-03 +2.40413071857E-03 +9.26525557062E-02 +8.01903689034E-01
1.46500000000E+09 +2.60619751707E-01 +7.32219113606E-01 +2.15497265386E-03 +2.75900604621E-03 +2.13679547509E-03 +2.38534512747E-03 +1.29328408154E-01 +7.75066984904E-01
1.47000000000E+09 +2.92529982559E-01 +6.96165911931E-01 +3.01239179014E-03 +2.66311398068E-03 +2.74309032342E-03 +2.40727694762E-03 +1.66696408601E-01 +7.40926613435E-01
1.47500000000E+09 +3.24066116275E-01 +6.54126339117E-01 +3.78035614721E-03 +2.41694477365E-03 +3.56574244785E-03 +2.38585040202E-03 +2.03359863463E-01 +6.99732562784E-01
1.48000000000E+09 +3.52914538751E-01 +6.05212907952E-01 +4.80617860093E-03 +2.01819878975E-03 +4.76922108769E-03 +2.14318138246E-03 +2.39784496605E-01 +6.51012424170E-01
1.48500000000E+09 +3.77456002104E-01 +5.50268952594E-01 +5.72125814897E-03 +1.20651156509E-03 +5.85697152942E-03 +1.15151011232E-03 +2.74887948878E-01 +5.92164449285E-01
1.49000000000E+09 +3.97026838655E-01 +4.88201715226E-01 +6.85425149943E-03 +2.34844069599E-04 +6.81817636018E-03 -1.21765618556E-04 +3.03541603777E-01 +5.22273861146E-01
1.49500000000E+09 +4.09309251678E-01 +4.17798383946E-01 +7.78153792172E-03 -1.36316771790E-03 +7.43098574811E-03 -1.64932811644E-03 +3.22069158534E-01 +4.41908986461E-01
1.50000000000E+09 +4.11090979441E-01 +3.38308750622E-01 +8.89893783427E-03 -3.34931132101E-03 +8.35667761252E-03 -3.14162971400E-03 +3.28006603909E-01 +3.53264494835E-01
1.50500000000E+09 +3.99391487021E-01 +2.51817221471E-01 +9.09079828147E-03 -7.24165168842E-03 +8.95963467897E-03 -6.63300636519E-03 +3.17278502061E-01 +2.55417470955E-01
1.51000000000E+09 +3.70434048513E-01 +1.59088346140E-01 +6.66421853324E-03 -1.11683690351E-02 +7.04599651334E-03 -1.07754584548E-02 +2.85110679371E-01 +1.53900494291E-01
1.51500000000E+09 +3.20572440937E-01 +6.74364660285E-02 +3.08919328636E-03 -1.33578065822E-02 +3.47714659074E-03 -1.34006909911E-02 +2.30397280434E-01 +5.65630144046E-02
1.52000000000E+09 +2.50672985887E-01 -1.52550577403E-02 -1.60358405669E-03 -1.41850409427E-02 -1.45653286431E-03 -1.44114851368E-02 +1.54653629600E-01 -3.06535937304E-02
1.52500000000E+09 +1.64113392309E-01 -8.50592596899E-02 -5.33511206454E-03 -1.23100092185E-02 -5.27577375459E-03 -1.24588549177E-02 +5.96516591626E-02 -1.00804407521E-01
1.53000000000E+09 +6.27173588650E-02 -1.34991012888E-01 -7.78038127191E-03 -1.16380730173E-02 -7.83444387949E-03 -1.17058583916E-02 -4.92371667398E-02 -1.47445547876E-01
1.53500000000E+09 -4.64586840134E-02 -1.61346849612E-01 -1.15651085267E-02 -9.54521205677E-03 -1.16532995955E-02 -9.48068574872E-03 -1.62130841293E-01 -1.68322470216E-01
1.54000000000E+09 -1.57687545688E-01 -1.62779817542E-01 -1.47153517001E-02 -5.46393641814E-03 -1.45163280393E-02 -5.46779372084E-03 -2.73675781016E-01 -1.65083404519E-01
1.54500000000E+09 -2.64181296878E-01 -1.39637020622E-01 -1.55559138046E-02 +2.00910314234E-04 -1.53608189222E-02 -1.14908831970E-04 -3.73710123192E-01 -1.39769945163E-01
1.55000000000E+09 -3.58057482314E-01 -9.59569334780E-02 -1.31691787927E-02 +4.87254253947E-03 -1.33513756152E-02 +4.35471616399E-03 -4.59289101692E-01 -1.01145699890E-01
1.55500000000E+09 -4.35059039890E-01 -4.02091452097E-02 -1.01019664621E-02 +7.51853952919E-03 -1.06194620349E-02 +7.22616150405E-03 -5.30724702096E-01 -5.30826024790E-02
1.56000000000E+09 -4.96183267746E-01 +1.94254622169E-02 -6.71725880009E-03 +8.97955355441E-03 -7.34301155119E-03 +9.11842283035E-03 -5.87819752337E-01 +1.58759363300E-03
1.56500000000E+09 -5.45713685471E-01 +8.03399846039E-02 -3.57187037839E-03 +8.64786561092E-03 -3.94098214507E-03 +9.13072578474E-03 -6.31702462034E-01 +5.75876142366E-02
1.57000000000E+09 -5.83617422085E-01 +1.40740996820E-01 -1.64901510310E-03 +7.76240793881E-03 -1.70249831941E-03 +8.23793667438E-03 -6.64664262210E-01 +1.13104292374E-01
