# Hz S RI R 50
! CMT, C1220, 16058040, 17.2.0/1
! Date: 14/08/2018 12:17:33
! Data: Format (Calibration Info)
! Freq                      S11: Re/Im (F2)                       S21: Re/Im (F2)                       S12: Re/Im (F2)                       S22: Re/Im (F2)            
1.00000000000E+09 -6.48894507208E-01 +7.14483495369E-01 +2.37235927408E-05 -7.50551577005E-06 +4.34172373956E-06 +4.44284759204E-05 -7.53732327042E-01 +6.24692488845E-01
1.00500000000E+09 -6.41799355742E-01 +7.19505028674E-01 -2.53104721839E-05 -1.42415568053E-05 -7.92712498584E-06 -7.17979181105E-06 -7.50089622322E-01 +6.28848175144E-01
1.01000000000E+09 -6.35938269872E-01 +7.24261533582E-01 -1.67383589733E-06 +2.74902286117E-05 -5.05921127808E-05 -1.24755769798E-05 -7.46586306266E-01 +6.32560688301E-01
1.01500000000E+09 -6.32108465309E-01 +7.27895584612E-01 +6.25438654629E-05 -2.05388312320E-05 -2.56645188580E-05 +8.83154668297E-06 -7.43266137216E-01 +6.36379453415E-01
1.02000000000E+09 -6.29967097308E-01 +7.31139123134E-01 -3.50300624606E-05 +4.44797346203E-05 -3.08223890342E-05 +5.69424991398E-05 -7.39653634406E-01 +6.39830273065E-01
1.02500000000E+09 -6.28871248219E-01 +7.33467626378E-01 -7.52228800528E-05 +3.38649484840E-05 -4.29615191774E-05 +4.98722406841E-05 -7.36847002097E-01 +6.43589608839E-01
1.03000000000E+09 -6.27986993314E-01 +7.35478721658E-01 +5.99246167564E-05 +2.23385405777E-05 -5.38567642622E-05 -2.82482167404E-05 -7.33375436505E-01 +6.47402436005E-01
1.03500000000E+09 -6.26377450374E-01 +7.37683999982E-01 -5.03267384618E-05 -2.17506229673E-05 -4.56530304464E-07 +3.43793029376E-05 -7.29744039921E-01 +6.51331510365E-01
1.04000000000E+09 -6.23229794388E-01 +7.40235661120E-01 -9.88912241311E-06 +2.21927852742E-05 -5.55118091593E-05 -1.28920878383E-05 -7.25816856197E-01 +6.54991201912E-01
1.04500000000E+09 -6.18053510937E-01 +7.43581215582E-01 -4.52829204178E-05 -4.62766252242E-06 -1.52199786482E-05 -3.04772898223E-05 -7.22458315979E-01 +6.58549428024E-01
1.05000000000E+09 -6.10795060793E-01 +7.47922794847E-01 +8.44030221465E-06 -2.65224102781E-05 -2.87604983356E-05 +8.20268620506E-05 -7.18912792038E-01 +6.61903189340E-01
1.05500000000E+09 -6.02229902129E-01 +7.52508187167E-01 -9.38425821875E-07 +5.38199159824E-05 -2.97223104984E-05 +5.08717024510E-05 -7.15624695326E-01 +6.65505896041E-01
1.06000000000E+09 -5.92868715743E-01 +7.57827176431E-01 +1.95845802539E-05 +5.54641291081E-05 -3.28773575296E-06 +4.31014157020E-05 -7.12434638946E-01 +6.69403243520E-01
1.06500000000E+09 -5.83920290411E-01 +7.62959456482E-01 -2.80295779507E-05 +3.00342994576E-05 +1.20526516982E-05 +3.35296024235E-05 -7.08655310149E-01 +6.73252208608E-01
1.07000000000E+09 -5.76497765881E-01 +7.67485071930E-01 -3.80477612880E-05 +2.14124492168E-05 +2.24553594726E-05 +2.66403483623E-05 -7.04597318615E-01 +6.76896993054E-01
1.07500000000E+09 -5.70793687579E-01 +7.71471679387E-01 +3.70503740630E-05 +4.69260255177E-05 +1.38186568885E-05 -1.53344101409E-05 -7.00309078009E-01 +6.80512132808E-01
1.08000000000E+09 -5.67131394793E-01 +7.74878394792E-01 +3.27350354258E-05 +8.77795716548E-06 +1.96217716111E-05 +3.56450926730E-05 -6.96187685085E-01 +6.84415983290E-01
1.08500000000E+09 -5.64960426800E-01 +7.77270210194E-01 +4.91298924408E-05 +4.96234916732E-05 -6.48794990018E-05 +4.93611315357E-05 -6.92217897779E-01 +6.87983955734E-01
1.09000000000E+09 -5.63446876542E-01 +7.79275703685E-01 +5.87713836931E-05 +5.75345809405E-05 -7.62308708568E-06 +4.62366682473E-05 -6.88574537589E-01 +6.91844054294E-01
1.09500000000E+09 -5.62255354624E-01 +7.80830514444E-01 +1.35283174080E-05 -1.86718405195E-06 +2.28987899698E-05 -5.01587422749E-06 -6.84727290785E-01 +6.95807160328E-01
1.10000000000E+09 -5.59407580695E-01 +7.82799028676E-01 +3.86787874239E-05 +1.03902296468E-05 +2.39502337139E-05 +5.51665274106E-06 -6.80748832736E-01 +6.99501216155E-01
1.10500000000E+09 -5.55361025195E-01 +7.85328631032E-01 +7.96896941872E-05 -1.91768383017E-05 +6.50018248151E-05 +1.81162919855E-05 -6.76411807639E-01 +7.03268076165E-01
1.11000000000E+09 -5.49325255103E-01 +7.88481475407E-01 +5.36109909148E-06 +1.92596175290E-05 +5.48962193998E-05 -1.12387508403E-05 -6.72212133561E-01 +7.06512210346E-01
1.11500000000E+09 -5.41844068583E-01 +7.92414470241E-01 +4.98289237219E-06 +5.12347135196E-06 +4.16931834891E-05 +1.31865147786E-06 -6.68138132643E-01 +7.10092009401E-01
1.12000000000E+09 -5.33734301832E-01 +7.96584127234E-01 +3.32458318372E-05 +2.35944165923E-05 +6.69970480662E-05 +1.48585906647E-05 -6.63988387325E-01 +7.13716769219E-01
1.12500000000E+09 -5.25416438726E-01 +8.00817408768E-01 +2.87690030276E-05 -1.99161310531E-05 +3.01289590680E-06 -3.86487604934E-05 -6.59722388568E-01 +7.17623275245E-01
1.13000000000E+09 -5.18028537963E-01 +8.04835412025E-01 +4.70385177919E-05 +3.28340685487E-05 +6.23283804175E-06 +8.13298531591E-06 -6.55641466845E-01 +7.21521812259E-01
1.13500000000E+09 -5.11975650335E-01 +8.08032514012E-01 -9.39243092645E-06 +9.44951490270E-06 -2.03850591408E-05 +1.67356116474E-05 -6.51063095417E-01 +7.25262817211E-01
1.14000000000E+09 -5.07353183494E-01 +8.10825066909E-01 +2.83592056299E-05 -1.64292530193E-05 +1.98199980639E-05 -1.75882238673E-05 -6.46391321728E-01 +7.28661106377E-01
1.14500000000E+09 -5.03903021270E-01 +8.12924471982E-01 +3.26065317009E-05 -2.73736863026E-05 +1.49083699285E-05 +6.45204938043E-06 -6.41771001392E-01 +7.32073393463E-01
1.15000000000E+09 -5.00822747646E-01 +8.14380071138E-01 -2.12844582749E-05 +3.79458181763E-06 +1.89471820635E-05 -4.25744345539E-05 -6.37067627192E-01 +7.35870043531E-01
1.15500000000E+09 -4.97743055241E-01 +8.15995728021E-01 +3.69157210932E-05 -3.98281333035E-05 +2.32536010881E-06 -1.14032825844E-05 -6.32260266449E-01 +7.39617465865E-01
1.16000000000E+09 -4.93559353139E-01 +8.17915583943E-01 +3.83567108746E-05 +2.06062331204E-05 +3.31422717027E-05 -5.19456801733E-05 -6.27493865514E-01 +7.43528218879E-01
1.16500000000E+09 -4.87934147502E-01 +8.20468317158E-01 +5.16638651487E-05 +1.38818967010E-05 +1.92329018845E-05 +1.31821090197E-05 -6.22330581391E-01 +7.47252223908E-01
1.17000000000E+09 -4.81078477391E-01 +8.23538700479E-01 +4.81950881362E-05 +5.65797280961E-06 +4.15735078457E-06 -1.17363170865E-05 -6.16998552942E-01 +7.50571798999E-01
1.17500000000E+09 -4.72963344374E-01 +8.26795768906E-01 +5.51902419217E-06 -1.07829288335E-05 +7.42291662857E-05 +2.86170190644E-06 -6.11234584130E-01 +7.53700918770E-01
1.18000000000E+09 -4.64660527503E-01 +8.30474267842E-01 +3.51575737910E-05 +3.44950891674E-05 +5.75052865215E-05 -3.08221799537E-05 -6.05649215081E-01 +7.56917233718E-01
1.18500000000E+09 -4.56585315109E-01 +8.33887461245E-01 +5.97442348842E-05 +2.93809301954E-05 +3.24021704272E-05 -1.59464325553E-07 -5.99801361313E-01 +7.59960726371E-01
1.19000000000E+09 -4.49490028266E-01 +8.36752395156E-01 +4.02869431900E-05 +2.12967092923E-05 +7.40014876128E-05 +8.33874533527E-05 -5.93464294958E-01 +7.62749856795E-01
1.19500000000E+09 -4.43494707660E-01 +8.39070202713E-01 +9.12593454492E-05 -4.30711545590E-05 +7.68802417225E-05 -6.46541199242E-05 -5.87590335113E-01 +7.63894459215E-01
1.20000000000E+09 -4.39120764596E-01 +8.40285141018E-01 +6.64521634356E-05 -5.93655982307E-05 +1.07925985887E-04 -9.83904649607E-05 -5.82974891806E-01 +7.63974772740E-01
1.20500000000E+09 -4.35277533126E-01 +8.41571732998E-01 +7.92682755342E-05 -8.47880011188E-05 +2.81254998558E-05 -8.24410704369E-05 -5.80758399767E-01 +7.64836214511E-01
1.21000000000E+09 -4.31330873560E-01 +8.42875513589E-01 +1.76026808508E-05 -8.69422915019E-05 +2.87464520141E-05 -8.74785844602E-05 -5.78868805054E-01 +7.67790869103E-01
1.21500000000E+09 -4.26062592411E-01 +8.44474755336E-01 +2.83089496445E-06 -5.40673708136E-05 +1.81083683905E-05 -6.53870247002E-05 -5.76190408903E-01 +7.72498387717E-01
1.22000000000E+09 -4.19148466303E-01 +8.46443593482E-01 +1.66760395873E-05 -6.45851406466E-05 -1.60859431147E-05 -6.17342192083E-05 -5.72066104699E-01 +7.77828632331E-01
1.22500000000E+09 -4.10317578021E-01 +8.49101542479E-01 +4.42380762685E-07 -6.82389703889E-05 -1.24494519220E-05 -5.60409648473E-05 -5.66887146687E-01 +7.82947874443E-01
1.23000000000E+09 -4.00036167206E-01 +8.52342442101E-01 -2.13693633943E-05 -4.97305835343E-05 +2.52391227343E-05 -6.78570590914E-05 -5.61208518628E-01 +7.87569899315E-01
1.23500000000E+09 -3.89168515381E-01 +8.56074497868E-01 +5.42552312880E-05 -6.42907991098E-05 +5.96876584234E-05 -8.88887085735E-05 -5.55370847756E-01 +7.92059139208E-01
1.24000000000E+09 -3.78178404241E-01 +8.59985771610E-01 +7.12477147683E-05 -7.84791782582E-05 +1.71612979197E-05 -4.09614179353E-05 -5.49354378077E-01 +7.95850812407E-01
1.24500000000E+09 -3.68204021483E-01 +8.64019967658E-01 +1.89804474016E-05 -7.39786911324E-05 -2.96937031179E-05 -1.15145194418E-04 -5.42941734850E-01 +7.99697596293E-01
1.25000000000E+09 -3.59838629346E-01 +8.67417748351E-01 +1.78445583290E-05 -1.22615070229E-04 +8.63241772585E-05 -1.47509195945E-04 -5.36393132572E-01 +8.04029447355E-01
1.25500000000E+09 -3.53071962937E-01 +8.69954372853E-01 -4.55467627144E-05 -1.36642481634E-04 +2.70123781403E-05 -1.75553804010E-04 -5.29415379157E-01 +8.07913273651E-01
1.26000000000E+09 -3.47990901343E-01 +8.72043978006E-01 -3.91082163810E-05 -1.10775166260E-04 -5.82828813403E-05 -1.48341495884E-04 -5.22873049460E-01 +8.12157052758E-01
1.26500000000E+09 -3.43550034856E-01 +8.73662881679E-01 -2.15542836155E-05 -1.37647559241E-04 -7.77246765861E-05 -1.09927419832E-04 -5.15729379057E-01 +8.16110305984E-01
1.27000000000E+09 -3.38977698358E-01 +8.74852162546E-01 -7.11269775217E-05 -1.41330914567E-04 -7.54910130366E-05 -1.19673436484E-04 -5.08936066168E-01 +8.19974757245E-01
1.27500000000E+09 -3.32981083083E-01 +8.76329829650E-01 -9.71715684230E-05 -1.38502280877E-04 -9.96973264490E-05 -1.15711475250E-04 -5.01900850186E-01 +8.23482378387E-01
1.28000000000E+09 -3.25323096716E-01 +8.78173511659E-01 -1.06984703374E-04 -1.28826992491E-04 -1.06301932480E-04 -1.15389714346E-04 -4.94888403274E-01 +8.26999608271E-01
1.28500000000E+09 -3.15209096853E-01 +8.80387787437E-01 -1.63513044761E-04 -1.10440873742E-04 -1.54419968194E-04 -1.18274496061E-04 -4.87328012173E-01 +8.30680592096E-01
1.29000000000E+09 -3.03405619020E-01 +8.83098429444E-01 -1.58246138754E-04 -8.55344957438E-05 -1.88045509952E-04 -1.00943614768E-04 -4.79920866809E-01 +8.34312634795E-01
1.29500000000E+09 -2.90671409081E-01 +8.86429595215E-01 -1.76915368479E-04 -7.03953741304E-05 -1.89138141424E-04 -9.21753352546E-05 -4.72059782119E-01 +8.37921063272E-01
1.30000000000E+09 -2.77798949195E-01 +8.89818509886E-01 -1.68927783756E-04 -9.61082371310E-05 -2.03223746283E-04 -3.79969785849E-05 -4.64138841024E-01 +8.41465030091E-01
1.30500000000E+09 -2.66154019089E-01 +8.92954450171E-01 -2.49298719914E-04 -9.93497848461E-06 -2.04475632421E-04 -1.46748443441E-05 -4.56063818784E-01 +8.44877207056E-01
1.31000000000E+09 -2.56372303281E-01 +8.95402604293E-01 -2.67885653707E-04 +5.66264316295E-05 -2.40463802979E-04 +6.61141506101E-05 -4.47714353496E-01 +8.48226429238E-01
1.31500000000E+09 -2.48893297764E-01 +8.97214384478E-01 -2.20579960219E-04 +7.06434214869E-05 -1.99944132398E-04 +3.08214722907E-05 -4.38887534510E-01 +8.51663480697E-01
1.32000000000E+09 -2.42819225222E-01 +8.98369030859E-01 -1.88827180587E-04 +1.29038409930E-05 -2.00646562209E-04 +7.11284807513E-05 -4.29728552490E-01 +8.55222644175E-01
1.32500000000E+09 -2.37536842566E-01 +8.98846041884E-01 -2.18885629422E-04 +3.66052606719E-05 -2.15066745564E-04 +4.28857085371E-05 -4.20255245106E-01 +8.58505271134E-01
1.33000000000E+09 -2.31250085032E-01 +8.99123820775E-01 -2.60730517245E-04 +7.34759734635E-05 -2.45855643915E-04 +8.70769539751E-05 -4.10521604935E-01 +8.61720957306E-01
1.33500000000E+09 -2.23480024728E-01 +8.98897752696E-01 -2.18784137194E-04 +1.12698734932E-04 -2.28755507918E-04 +1.02996901292E-04 -4.00747518045E-01 +8.65215685500E-01
1.34000000000E+09 -2.12708892141E-01 +8.98850850296E-01 -2.18980999766E-04 +2.10557001167E-04 -2.12249974082E-04 +2.09853951999E-04 -3.90405392013E-01 +8.68567286465E-01
1.34500000000E+09 -1.99106220850E-01 +8.98725283522E-01 -1.60167705151E-04 +1.99151899422E-04 -1.33892376296E-04 +1.73794732021E-04 -3.79557770467E-01 +8.71855470978E-01
1.35000000000E+09 -1.83188226684E-01 +8.98872931341E-01 -1.20682131558E-04 +1.52442878988E-04 -1.35448584003E-04 +1.41870250920E-04 -3.68433309105E-01 +8.74909259261E-01
1.35500000000E+09 -1.65675178978E-01 +8.99227954774E-01 -1.98461871411E-04 +1.45805873747E-04 -1.30999566259E-04 +1.98074836222E-04 -3.56768799515E-01 +8.77709509300E-01
1.36000000000E+09 -1.48262309817E-01 +8.99647236402E-01 -2.30423199481E-04 +1.93531426167E-04 -1.61871738859E-04 +2.14421938305E-04 -3.44874982072E-01 +8.80464072051E-01
1.36500000000E+09 -1.31845491386E-01 +9.00256144559E-01 -1.44884888840E-04 +2.25032941233E-04 -1.34643257518E-04 +2.32794459008E-04 -3.32777888206E-01 +8.82895903423E-01
1.37000000000E+09 -1.17192878977E-01 +9.00425713583E-01 -1.74844633806E-04 +2.53817906049E-04 -1.88164827123E-04 +1.87500889010E-04 -3.19910231514E-01 +8.85208419274E-01
1.37500000000E+09 -1.04773472487E-01 +9.00499543543E-01 -2.65421031578E-04 +3.63901615903E-04 -2.60502394209E-04 +2.88618837667E-04 -3.06269482267E-01 +8.87466663207E-01
1.38000000000E+09 -9.40021947611E-02 +9.00174733978E-01 -9.22438148965E-05 +4.27082108138E-04 -1.24453607313E-04 +3.91945177661E-04 -2.91607752897E-01 +8.89620073018E-01
1.38500000000E+09 -8.34784595233E-02 +8.99398159896E-01 +3.18003246026E-05 +3.58187016497E-04 -1.53416455892E-05 +4.95896426144E-04 -2.76221655168E-01 +8.91456394947E-01
1.39000000000E+09 -7.22250271518E-02 +8.97723037747E-01 -1.73289721826E-05 +3.60619142118E-04 +6.95802413509E-06 +4.33439841187E-04 -2.60224691378E-01 +8.93139018653E-01
1.39500000000E+09 -5.88238163201E-02 +8.95279177863E-01 +1.62476902682E-05 +4.15136619610E-04 +9.05934997422E-05 +4.59865087188E-04 -2.43400158170E-01 +8.93833794745E-01
1.40000000000E+09 -4.23356950129E-02 +8.91593314174E-01 +1.01630374549E-04 +4.49911340514E-04 +1.60147449603E-04 +4.49250886170E-04 -2.25789171351E-01 +8.94377885610E-01
1.40500000000E+09 -2.32504846221E-02 +8.87086428138E-01 +1.25895134206E-04 +3.53013136064E-04 +1.44326493365E-04 +3.90391754725E-04 -2.07041561206E-01 +8.94189862462E-01
1.41000000000E+09 -1.78643492296E-03 +8.81449016910E-01 +1.27655942949E-04 +4.60083441467E-04 +1.29812522086E-04 +4.11802768055E-04 -1.86870194472E-01 +8.93454939739E-01
1.41500000000E+09 +2.10343655485E-02 +8.75191280332E-01 +2.08795238677E-04 +3.88004176057E-04 +2.19046697577E-04 +4.60362943063E-04 -1.65434068042E-01 +8.91980543867E-01
1.42000000000E+09 +4.41783530451E-02 +8.68682183116E-01 +2.57520897333E-04 +4.31149372984E-04 +2.84018249873E-04 +5.22959897223E-04 -1.42567909277E-01 +8.89348327829E-01
1.42500000000E+09 +6.66393055111E-02 +8.61737756337E-01 +3.45401902166E-04 +3.82673565580E-04 +3.75619696995E-04 +4.38315986659E-04 -1.19011210233E-01 +8.85937101717E-01
1.43000000000E+09 +8.81631737368E-02 +8.53892228233E-01 +2.82764155762E-04 +3.41651372817E-04 +3.38690057897E-04 +3.80358450243E-04 -9.41034771943E-02 +8.81214531392E-01
1.43500000000E+09 +1.08737145337E-01 +8.44612671126E-01 +2.95430598058E-04 +4.80896820693E-04 +3.53480815395E-04 +4.61379866594E-04 -6.78021926099E-02 +8.74730553041E-01
1.44000000000E+09 +1.29077964499E-01 +8.34311376930E-01 +3.82347065475E-04 +4.61523303116E-04 +4.45317233806E-04 +4.65850534283E-04 -3.95316097477E-02 +8.66267919840E-01
1.44500000000E+09 +1.50604800461E-01 +8.21561165823E-01 +4.40941392583E-04 +5.23908374588E-04 +4.57455263517E-04 +4.98290695582E-04 -9.45450157741E-03 +8.54762499163E-01
1.45000000000E+09 +1.74223998794E-01 +8.05086087563E-01 +5.40680840716E-04 +5.67298245594E-04 +5.85265825070E-04 +5.57815496598E-04 +2.22510015079E-02 +8.40297121039E-01
1.45500000000E+09 +2.00622519512E-01 +7.84622532836E-01 +7.04360778123E-04 +6.68804614395E-04 +7.19017736750E-04 +6.29605629428E-04 +5.56773516443E-02 +8.23091405758E-01
1.46000000000E+09 +2.30005138308E-01 +7.59321263092E-01 +8.75749659546E-04 +7.31269563771E-04 +9.25144983973E-04 +5.98294898370E-04 +9.06918953061E-02 +8.01219769986E-01
1.46500000000E+09 +2.61604354285E-01 +7.28646097083E-01 +1.21047137048E-03 +7.74058578780E-04 +1.11920878155E-03 +6.70474778672E-04 +1.26516730117E-01 +7.74762266083E-01
1.47000000000E+09 +2.94266622450E-01 +6.92654645745E-01 +1.70496537478E-03 +8.05973817224E-04 +1.51960134273E-03 +7.30999718008E-04 +1.63654689122E-01 +7.41685356902E-01
1.47500000000E+09 +3.26443253291E-01 +6.51058608149E-01 +2.20161213238E-03 +2.77856009797E-04 +2.04734491857E-03 +3.87471018459E-04 +2.01427427999E-01 +7.01319985006E-01
1.48000000000E+09 +3.56112888766E-01 +6.03898708057E-01 +2.43544251485E-03 -6.49347609724E-05 +2.47303664589E-03 +2.11547334759E-06 +2.38799366671E-01 +6.52073684886E-01
1.48500000000E+09 +3.81773420943E-01 +5.50494472214E-01 +2.79093384854E-03 -6.50994545946E-04 +2.92929538583E-03 -7.06243699823E-04 +2.73494085691E-01 +5.93055668293E-01
1.49000000000E+09 +4.01318508217E-01 +4.90436225698E-01 +2.91878215052E-03 -1.45677632729E-03 +2.84015719005E-03 -1.54121082195E-03 +3.01762477166E-01 +5.23295488636E-01
1.49500000000E+09 +4.13945290160E-01 +4.22858023038E-01 +3.17957099420E-03 -2.25101616391E-03 +2.94211598000E-03 -2.28660216962E-03 +3.21192382567E-01 +4.44263669534E-01
1.50000000000E+09 +4.16633719821E-01 +3.45568600688E-01 +2.91483443553E-03 -3.88770141110E-03 +2.73927725878E-03 -3.65358217234E-03 +3.28090456291E-01 +3.54562160247E-01
1.50500000000E+09 +4.06152864143E-01 +2.60167746107E-01 +1.60815814455E-03 -4.99962488766E-03 +1.67563317658E-03 -4.77157921367E-03 +3.17415615064E-01 +2.56759876894E-01
1.51000000000E+09 +3.79271290343E-01 +1.68557492435E-01 +2.24468816881E-04 -5.60307946973E-03 +5.19455274250E-04 -5.54515764875E-03 +2.85505096104E-01 +1.55600501181E-01
1.51500000000E+09 +3.33499129116E-01 +7.62632123250E-02 -1.71242624727E-03 -6.16666809389E-03 -1.53250398510E-03 -6.29285976455E-03 +2.32075373110E-01 +5.72164914285E-02
1.52000000000E+09 +2.68284440425E-01 -1.09756500558E-02 -3.80695067483E-03 -5.09414807804E-03 -3.79746766175E-03 -5.16687316169E-03 +1.55314464059E-01 -3.12321722575E-02
1.52500000000E+09 +1.83696536534E-01 -8.58821526324E-02 -4.81835156101E-03 -4.03430542498E-03 -4.77986076129E-03 -4.11510488128E-03 +5.92568481662E-02 -1.00041980271E-01
1.53000000000E+09 +8.29609503703E-02 -1.41113048406E-01 -5.86466835935E-03 -2.76009962145E-03 -5.92540020121E-03 -2.82195882073E-03 -4.79524378808E-02 -1.46248134534E-01
1.53500000000E+09 -2.81187267876E-02 -1.70882162142E-01 -6.71489150778E-03 -8.04731593336E-04 -6.73913238042E-03 -7.88614060492E-04 -1.60832139919E-01 -1.67283783812E-01
1.54000000000E+09 -1.41367810414E-01 -1.72699203056E-01 -6.48625289542E-03 +9.80536155357E-04 -6.42918511999E-03 +9.72413601111E-04 -2.70225121593E-01 -1.64273830724E-01
1.54500000000E+09 -2.48337643391E-01 -1.50260353732E-01 -6.02547168379E-03 +3.17912163080E-03 -6.03915078432E-03 +3.00903398698E-03 -3.70387577149E-01 -1.41860960332E-01
1.55000000000E+09 -3.46174930861E-01 -1.08382119554E-01 -4.17542623904E-03 +4.54711250215E-03 -4.35571497573E-03 +4.38945386546E-03 -4.57307830334E-01 -1.03828452356E-01
1.55500000000E+09 -4.29023955962E-01 -5.16646970648E-02 -2.47504990059E-03 +4.94512581191E-03 -2.77303409830E-03 +4.93864559342E-03 -5.29194781723E-01 -5.59415865172E-02
1.56000000000E+09 -4.95108769036E-01 +1.12123114764E-02 -1.19014367219E-03 +5.01896455546E-03 -1.45398961937E-03 +5.17544199258E-03 -5.86960410048E-01 -2.18696778600E-03
1.56500000000E+09 -5.46741515129E-01 +7.42974740034E-02 +2.79994173898E-04 +4.65427190775E-03 +1.80869211250E-04 +4.95978031243E-03 -6.32045852269E-01 +5.43699704481E-02
1.57000000000E+09 -5.86570499946E-01 +1.35764899661E-01 +1.29791224495E-03 +3.67593251387E-03 +1.42042561417E-03 +3.92014336576E-03 -6.65470975570E-01 +1.10146461766E-01
