# Hz S RI R 50
! CMT, C1220, 16058040, 17.2.0/1
! Date: 14/08/2018 12:54:14
! Data: Format (Calibration Info)
! Freq                      S11: Re/Im (F2)                       S21: Re/Im (F2)                       S12: Re/Im (F2)                       S22: Re/Im (F2)            
1.00000000000E+09 -6.45139799033E-01 +7.12848378399E-01 -2.51134008326E-05 +2.09082526839E-05 -4.12048642407E-05 -3.27400189855E-06 -7.19321384551E-01 +6.45238389571E-01
1.00500000000E+09 -6.38675348174E-01 +7.17474560885E-01 +5.57603876330E-06 +3.84345771202E-05 -1.24489772569E-05 +8.54786196796E-06 -7.15523339980E-01 +6.49100041534E-01
1.01000000000E+09 -6.32765055182E-01 +7.21945760477E-01 +9.49822127848E-06 +1.88840456342E-05 -6.04903465824E-05 +7.04175929538E-06 -7.11899328781E-01 +6.52597654945E-01
1.01500000000E+09 -6.28186387352E-01 +7.25819473491E-01 -3.81216014709E-05 +3.25033834178E-05 -1.54634856849E-05 +3.94124997299E-05 -7.08337184358E-01 +6.56185348597E-01
1.02000000000E+09 -6.24119653960E-01 +7.29359069009E-01 +1.49454662252E-05 +6.97738024688E-05 +1.84902559297E-05 +2.25742890354E-06 -7.04910389396E-01 +6.59463425182E-01
1.02500000000E+09 -6.20648445929E-01 +7.32721688160E-01 +1.39873899775E-05 +3.06813809623E-05 +5.46143226886E-05 -1.14280122758E-05 -7.02059589797E-01 +6.63082382256E-01
1.03000000000E+09 -6.17404619110E-01 +7.35873064898E-01 -1.79750986140E-05 +1.23042731192E-05 -3.39718666105E-05 +4.26864111290E-05 -6.98208362748E-01 +6.67026204709E-01
1.03500000000E+09 -6.13222281970E-01 +7.38926554639E-01 +2.18508944221E-05 +1.48253753359E-05 +1.25019984684E-05 +5.46585571786E-05 -6.94174518423E-01 +6.70762566888E-01
1.04000000000E+09 -6.08375509543E-01 +7.42386051731E-01 +1.76340565690E-05 +3.33478963992E-05 +1.84783447807E-05 +1.40016899772E-05 -6.90135087345E-01 +6.74211452697E-01
1.04500000000E+09 -6.02459786899E-01 +7.46093621348E-01 -7.78473673883E-06 +4.61479043326E-05 +4.98499075878E-05 +1.56274142211E-05 -6.86458589487E-01 +6.77660865566E-01
1.05000000000E+09 -5.95470457238E-01 +7.50192209136E-01 +4.11997477987E-06 +1.70742304082E-05 +7.92088337609E-07 +2.89720980316E-05 -6.82829502944E-01 +6.80908930477E-01
1.05500000000E+09 -5.87672600144E-01 +7.54517163808E-01 +7.46896954830E-06 +3.05171822738E-05 +2.58432221649E-05 +4.90369179093E-05 -6.79582014352E-01 +6.84500316158E-01
1.06000000000E+09 -5.79479641013E-01 +7.59286602782E-01 -3.09920119991E-05 -3.06198356016E-05 +3.04432748641E-05 +5.20570322447E-06 -6.75920924388E-01 +6.87962428875E-01
1.06500000000E+09 -5.71556227432E-01 +7.63897489166E-01 +5.27853885540E-05 +2.12732637103E-05 +5.77130163791E-06 +1.19507160964E-05 -6.71828255087E-01 +6.91829989955E-01
1.07000000000E+09 -5.64441606658E-01 +7.67734080371E-01 +2.73306150343E-05 +7.85241636663E-05 +3.92352871915E-05 +4.69888010035E-05 -6.67613119341E-01 +6.95394392212E-01
1.07500000000E+09 -5.58230827282E-01 +7.71508680556E-01 +1.78762784009E-05 +4.15688699628E-05 +2.53926195904E-05 +1.73133991279E-05 -6.62980940337E-01 +6.98867101802E-01
1.08000000000E+09 -5.53135036444E-01 +7.74807443611E-01 +9.81170279257E-06 +2.82515488215E-05 +5.65684223497E-05 +1.66254955548E-05 -6.58918912088E-01 +7.02609721851E-01
1.08500000000E+09 -5.49145377695E-01 +7.77732007681E-01 +5.26975845055E-05 +1.71735120715E-05 +7.45873317860E-05 -5.50459349216E-05 -6.55162403034E-01 +7.06047785071E-01
1.09000000000E+09 -5.45563248784E-01 +7.79989563365E-01 +3.02008098236E-05 +4.32348616658E-05 +7.03760949589E-05 +9.01481423770E-05 -6.51149386954E-01 +7.09655554460E-01
1.09500000000E+09 -5.42421284289E-01 +7.82295336521E-01 +4.30834315018E-05 +1.20306750974E-05 +7.37724189157E-06 +3.89780604615E-05 -6.47138158924E-01 +7.13346207518E-01
1.10000000000E+09 -5.38364381861E-01 +7.84737072174E-01 -1.69602880455E-05 +6.32673308301E-05 +3.62881430086E-05 +5.90101684302E-05 -6.42985425354E-01 +7.16988476974E-01
1.10500000000E+09 -5.33979198169E-01 +7.87467902714E-01 +6.94419309022E-05 +1.76062650415E-05 +8.04195435835E-05 +2.04298784643E-05 -6.38457484880E-01 +7.20349033899E-01
1.11000000000E+09 -5.28464692128E-01 +7.90623770698E-01 +4.96031603873E-05 +6.65277706222E-05 +2.46450376630E-05 +6.50067070408E-05 -6.34311302681E-01 +7.23539978219E-01
1.11500000000E+09 -5.21983405658E-01 +7.94117668295E-01 +8.31860198927E-05 +1.46470519421E-05 +5.58326162536E-05 +3.96272793687E-05 -6.30118205621E-01 +7.26700237193E-01
1.12000000000E+09 -5.14980166994E-01 +7.97619800819E-01 +1.28775435683E-04 +6.25280469397E-06 +5.80115215601E-05 +4.64491517216E-05 -6.26025470149E-01 +7.30116035447E-01
1.12500000000E+09 -5.07407163169E-01 +8.01116416234E-01 +6.29644257523E-05 +2.73855786135E-05 +1.09436072133E-04 +4.02304082589E-05 -6.21545982829E-01 +7.34012418197E-01
1.13000000000E+09 -5.00164679640E-01 +8.04264222046E-01 +9.17268188647E-05 -8.93678680519E-06 +1.15061330414E-04 -3.29320227780E-06 -6.17132614112E-01 +7.37475265677E-01
1.13500000000E+09 -4.93211772737E-01 +8.06650707365E-01 +1.23127293031E-04 +4.53510029676E-05 +1.01492297480E-04 -9.83937194442E-06 -6.12265742985E-01 +7.41091940296E-01
1.14000000000E+09 -4.86846655074E-01 +8.09029756822E-01 +8.32692117292E-05 +8.17376199918E-06 +1.02365195639E-04 -8.70948115101E-06 -6.07360002226E-01 +7.44289856182E-01
1.14500000000E+09 -4.81026745110E-01 +8.10599962990E-01 +5.15769454184E-05 -4.82232835005E-05 +8.86638312784E-05 -4.87205630910E-05 -6.02470967171E-01 +7.47692316923E-01
1.15000000000E+09 -4.75614988476E-01 +8.12298438104E-01 +6.53588677538E-05 -1.52277805338E-05 +6.24809093165E-05 -3.20316262897E-05 -5.97725118970E-01 +7.51378192552E-01
1.15500000000E+09 -4.70399017668E-01 +8.14197168255E-01 +1.00375648844E-04 -2.79449332408E-05 +9.16073864242E-05 +4.73550396975E-06 -5.92839379007E-01 +7.54852718011E-01
1.16000000000E+09 -4.64651331937E-01 +8.16053170449E-01 +1.23781100730E-04 -3.01374289621E-05 +1.19370161985E-04 -9.00041498726E-06 -5.87830445107E-01 +7.58650680265E-01
1.16500000000E+09 -4.58482778075E-01 +8.18834014346E-01 +8.45869515529E-05 -5.92156400044E-05 +4.58401691600E-05 -5.91203612406E-05 -5.82612435892E-01 +7.62137784117E-01
1.17000000000E+09 -4.51614631600E-01 +8.21558586449E-01 +7.52239524042E-05 -4.60779797349E-05 +8.41895008054E-05 -2.56760062624E-05 -5.77185205212E-01 +7.65005226211E-01
1.17500000000E+09 -4.44281275900E-01 +8.24640460706E-01 +8.60063926780E-05 -8.00287763488E-05 +1.73249317583E-04 -3.17976380797E-05 -5.71452019531E-01 +7.68118716456E-01
1.18000000000E+09 -4.36889307164E-01 +8.27910454831E-01 +9.11248636212E-05 -7.37489215317E-05 +1.62653835790E-04 -1.45030363853E-04 -5.65887992496E-01 +7.70808907581E-01
1.18500000000E+09 -4.28972226207E-01 +8.30772476833E-01 +1.62398253490E-04 -1.42264290685E-04 +1.10799136527E-04 -1.66994518117E-04 -5.60140096021E-01 +7.73743250403E-01
1.19000000000E+09 -4.21002582381E-01 +8.32949217185E-01 +1.36250371256E-04 -1.75099103315E-04 +9.54687355953E-05 -1.66221145740E-04 -5.53833557375E-01 +7.76042282790E-01
1.19500000000E+09 -4.13422958103E-01 +8.34663651212E-01 +7.92402207741E-05 -2.27328836462E-04 +7.72049795542E-05 -2.09963276001E-04 -5.48058307908E-01 +7.76894512726E-01
1.20000000000E+09 -4.06453960283E-01 +8.35513504103E-01 -1.86067018211E-05 -2.60572437856E-04 +1.86096351248E-05 -2.89816537313E-04 -5.43501966339E-01 +7.77099730468E-01
1.20500000000E+09 -3.99532747381E-01 +8.36542776952E-01 -8.30897810657E-05 -2.23173737585E-04 -8.43083185693E-05 -2.15193783700E-04 -5.40867699384E-01 +7.77933188659E-01
1.21000000000E+09 -3.92568097799E-01 +8.37684298416E-01 -1.09026902258E-04 -1.89196221113E-04 -1.09054785108E-04 -1.33959532414E-04 -5.38604387803E-01 +7.80943761729E-01
1.21500000000E+09 -3.84856604180E-01 +8.39188638587E-01 -8.24766653783E-05 -1.48323864081E-04 -3.85207201652E-05 -1.21928729200E-04 -5.35456030085E-01 +7.85347715451E-01
1.22000000000E+09 -3.76612339301E-01 +8.40995801321E-01 -5.27227792328E-05 -1.40941458531E-04 -3.96076269760E-05 -1.36501175238E-04 -5.31076549140E-01 +7.90479436548E-01
1.22500000000E+09 -3.67985679786E-01 +8.43379557741E-01 -3.22367341594E-05 -1.60415265574E-04 -5.28038884322E-05 -1.30036232465E-04 -5.25824524003E-01 +7.95172080306E-01
1.23000000000E+09 -3.59163818643E-01 +8.46052490978E-01 -8.11602091150E-05 -1.49744005205E-04 -8.44141848430E-05 -9.78458563058E-05 -5.20064685736E-01 +7.99560561820E-01
1.23500000000E+09 -3.50560913870E-01 +8.48925308650E-01 -6.30691201364E-05 -1.85557100157E-04 -9.84080545530E-05 -1.59771991723E-04 -5.14190942024E-01 +8.03514305533E-01
1.24000000000E+09 -3.42118723464E-01 +8.51964490821E-01 -7.50732772955E-05 -2.11134322251E-04 -1.15872201825E-04 -2.02181648831E-04 -5.08170056043E-01 +8.07235708591E-01
1.24500000000E+09 -3.34208945293E-01 +8.54946709178E-01 -1.27679350086E-04 -1.70369691679E-04 -1.30430268851E-04 -1.94222255833E-04 -5.01831330558E-01 +8.10598362321E-01
1.25000000000E+09 -3.26471507987E-01 +8.57514483269E-01 -1.21169887173E-04 -2.32323797829E-04 -1.27962362301E-04 -1.94613602727E-04 -4.95268337523E-01 +8.14474366032E-01
1.25500000000E+09 -3.18848882728E-01 +8.59062185586E-01 -1.54815968697E-04 -1.82585782120E-04 -1.26351970839E-04 -2.13481041488E-04 -4.88404540987E-01 +8.18102778340E-01
1.26000000000E+09 -3.11079648493E-01 +8.59997163855E-01 -1.31733413075E-04 -1.97969362207E-04 -1.56013826750E-04 -2.14280011291E-04 -4.81811875377E-01 +8.22102561501E-01
1.26500000000E+09 -3.03219518266E-01 +8.60290016586E-01 -2.39716768269E-04 -2.32969780694E-04 -2.49092969796E-04 -2.34000811526E-04 -4.74812805215E-01 +8.25596530714E-01
1.27000000000E+09 -2.94616873012E-01 +8.60352776022E-01 -2.54312656609E-04 -2.19832539714E-04 -3.17103577126E-04 -2.49381172041E-04 -4.67826202678E-01 +8.29015751509E-01
1.27500000000E+09 -2.85225391794E-01 +8.60532953779E-01 -3.28494212916E-04 -1.93917924501E-04 -3.47400012729E-04 -1.42197898811E-04 -4.60670581042E-01 +8.32229627133E-01
1.28000000000E+09 -2.74789886201E-01 +8.61185542077E-01 -3.75763053068E-04 -1.36933866942E-04 -3.96725080142E-04 -1.43622009046E-04 -4.53696915594E-01 +8.35596988445E-01
1.28500000000E+09 -2.63436769486E-01 +8.62140405216E-01 -3.93552687847E-04 -1.58927133727E-04 -4.27292510735E-04 -1.24025439070E-04 -4.46130390888E-01 +8.39053788526E-01
1.29000000000E+09 -2.52318647643E-01 +8.63550811700E-01 -3.82921276763E-04 -7.11897846898E-05 -4.31477433248E-04 -8.55156622863E-05 -4.38572512407E-01 +8.42321223929E-01
1.29500000000E+09 -2.41368207583E-01 +8.65477484610E-01 -4.78486302553E-04 -5.70657142958E-05 -5.11657280517E-04 -6.76537731422E-05 -4.30669930295E-01 +8.45485541677E-01
1.30000000000E+09 -2.31017215972E-01 +8.68018819593E-01 -5.46576877377E-04 -5.11384914965E-05 -5.70284138424E-04 +1.99811212215E-05 -4.22936564600E-01 +8.48602948051E-01
1.30500000000E+09 -2.21579100381E-01 +8.70613929703E-01 -5.96691292495E-04 -2.37168562364E-06 -4.93685602541E-04 +4.40834478045E-05 -4.14929737030E-01 +8.51659530048E-01
1.31000000000E+09 -2.12646407359E-01 +8.72652941468E-01 -6.34472306085E-04 +1.57222035126E-04 -5.87861130631E-04 +1.31495716063E-04 -4.06598916702E-01 +8.54649716028E-01
1.31500000000E+09 -2.04240051687E-01 +8.73737946225E-01 -5.72229458089E-04 +2.78615367340E-04 -5.70870450676E-04 +2.61092731170E-04 -3.97923799248E-01 +8.57923359103E-01
1.32000000000E+09 -1.96456957154E-01 +8.73809187868E-01 -5.73921884000E-04 +2.71599759044E-04 -5.57535219537E-04 +2.84979469793E-04 -3.88827066089E-01 +8.60953310586E-01
1.32500000000E+09 -1.88504434783E-01 +8.72931050787E-01 -5.49794436692E-04 +3.26399534757E-04 -6.14038478186E-04 +3.62966276941E-04 -3.79435449359E-01 +8.63798736339E-01
1.33000000000E+09 -1.79750329160E-01 +8.71833966957E-01 -6.27684500402E-04 +4.03201512862E-04 -5.64954263531E-04 +4.64302118790E-04 -3.70100860270E-01 +8.66764668352E-01
1.33500000000E+09 -1.69671420145E-01 +8.70201124564E-01 -6.24894638298E-04 +5.36275520663E-04 -6.18244133740E-04 +5.89399092155E-04 -3.60518684652E-01 +8.69502308472E-01
1.34000000000E+09 -1.58041419745E-01 +8.68989628662E-01 -5.97068884284E-04 +6.96603382728E-04 -5.77835160096E-04 +6.42524030652E-04 -3.50544711809E-01 +8.72274587376E-01
1.34500000000E+09 -1.45153985920E-01 +8.67859720513E-01 -5.35269251275E-04 +7.72945889507E-04 -5.13572176935E-04 +7.49827852023E-04 -3.39717941449E-01 +8.75054535284E-01
1.35000000000E+09 -1.31206563083E-01 +8.67282025764E-01 -4.85910316439E-04 +8.21488547497E-04 -4.34656665293E-04 +8.20819535082E-04 -3.28941697915E-01 +8.77717445650E-01
1.35500000000E+09 -1.16507585292E-01 +8.67243605817E-01 -3.96138361533E-04 +9.46064201644E-04 -3.69609696244E-04 +8.98463994832E-04 -3.17335704030E-01 +8.80051289667E-01
1.36000000000E+09 -1.01411622918E-01 +8.67591575456E-01 -3.88078341285E-04 +1.02337646334E-03 -3.44810107388E-04 +1.01783179501E-03 -3.05902963632E-01 +8.82194824455E-01
1.36500000000E+09 -8.62727485682E-02 +8.67365867163E-01 -3.03298296504E-04 +1.17531660097E-03 -2.90158836668E-04 +1.11607838837E-03 -2.94127130351E-01 +8.84199148767E-01
1.37000000000E+09 -7.17895928831E-02 +8.66169802993E-01 -1.62670480873E-04 +1.35115857003E-03 -2.52552194119E-04 +1.26381743617E-03 -2.81563770700E-01 +8.86159173314E-01
1.37500000000E+09 -5.84240866174E-02 +8.63820188767E-01 +9.34356384822E-05 +1.43198048108E-03 -3.82366445034E-05 +1.40012781830E-03 -2.68159534120E-01 +8.87944271826E-01
1.38000000000E+09 -4.58099278125E-02 +8.60691057315E-01 +2.45033298420E-04 +1.43811180094E-03 +4.93830365183E-05 +1.54099422831E-03 -2.53733670665E-01 +8.89424118548E-01
1.38500000000E+09 -3.32255122602E-02 +8.56736060146E-01 +3.73581436813E-04 +1.51187482110E-03 +2.69631536011E-04 +1.76486186578E-03 -2.38680720856E-01 +8.90888191175E-01
1.39000000000E+09 -2.06068879819E-02 +8.51923111547E-01 +5.22058840323E-04 +1.68137836707E-03 +6.28229153651E-04 +1.84352198124E-03 -2.23470882316E-01 +8.91862253552E-01
1.39500000000E+09 -7.02616111075E-03 +8.46907845606E-01 +7.02006337215E-04 +1.76405939171E-03 +9.06404379270E-04 +1.79780376701E-03 -2.07397438545E-01 +8.92115733792E-01
1.40000000000E+09 +7.86620447576E-03 +8.41334562470E-01 +9.93752140921E-04 +1.93222917122E-03 +1.19316466641E-03 +1.84836577610E-03 -1.90684324874E-01 +8.92125481953E-01
1.40500000000E+09 +2.33862358505E-02 +8.35973910037E-01 +1.48521485798E-03 +2.00765554161E-03 +1.57474924797E-03 +1.88331511088E-03 -1.72858830991E-01 +8.91381347365E-01
1.41000000000E+09 +4.00783506175E-02 +8.30874457174E-01 +1.98482362370E-03 +1.78902910496E-03 +1.90042965156E-03 +1.80579546719E-03 -1.53487518634E-01 +8.90273224857E-01
1.41500000000E+09 +5.83773521914E-02 +8.26300281388E-01 +2.21041401378E-03 +1.60313218831E-03 +2.25752020904E-03 +1.73636430143E-03 -1.32502400844E-01 +8.88261756428E-01
1.42000000000E+09 +7.85958610289E-02 +8.20843949914E-01 +2.57331040617E-03 +1.42312477129E-03 +2.78788731672E-03 +1.63464824272E-03 -1.10532116184E-01 +8.85027307677E-01
1.42500000000E+09 +9.96086074611E-02 +8.13065362909E-01 +2.99180816228E-03 +1.28547490026E-03 +3.32405919269E-03 +1.31215363523E-03 -8.77497799617E-02 +8.80766052929E-01
1.43000000000E+09 +1.20990465577E-01 +8.02959625517E-01 +3.44987754229E-03 +1.17756816046E-03 +3.84238021322E-03 +9.48055781497E-04 -6.42830581301E-02 +8.75763157735E-01
1.43500000000E+09 +1.42087561614E-01 +7.90039336856E-01 +4.32003863324E-03 +7.04077480857E-04 +4.47474026644E-03 +2.97178494345E-04 -3.90144340620E-02 +8.68671120874E-01
1.44000000000E+09 +1.63277686431E-01 +7.75157500415E-01 +4.89064060212E-03 -3.22232843121E-04 +4.89854819300E-03 -6.80861679313E-04 -1.23164736057E-02 +8.59474305057E-01
1.44500000000E+09 +1.85466742598E-01 +7.57586488030E-01 +4.91705912451E-03 -1.34894809935E-03 +4.94652501418E-03 -1.65084669036E-03 +1.62660467814E-02 +8.47832034520E-01
1.45000000000E+09 +2.08216081015E-01 +7.37385284418E-01 +4.80369280747E-03 -2.06477155926E-03 +4.79460689834E-03 -2.35586029567E-03 +4.64803019786E-02 +8.33107759823E-01
1.45500000000E+09 +2.31897899731E-01 +7.15080029190E-01 +5.02045157253E-03 -2.73766353421E-03 +4.80319118242E-03 -3.16808668698E-03 +7.76695258428E-02 +8.15895149537E-01
1.46000000000E+09 +2.56831945770E-01 +6.90621292658E-01 +5.32476264624E-03 -3.69549850627E-03 +4.72468980728E-03 -4.00838406913E-03 +1.10830572958E-01 +7.94663380936E-01
1.46500000000E+09 +2.83299510255E-01 +6.63923977032E-01 +5.40890263781E-03 -5.07423772697E-03 +4.67613971036E-03 -4.94766427212E-03 +1.44981104284E-01 +7.68308437431E-01
1.47000000000E+09 +3.11654039823E-01 +6.33737167028E-01 +5.25870545494E-03 -6.96531958010E-03 +4.89241718925E-03 -6.34361954989E-03 +1.79744456578E-01 +7.35244114972E-01
1.47500000000E+09 +3.40519235960E-01 +5.97260200765E-01 +3.94030640386E-03 -9.16093598462E-03 +4.11671635746E-03 -8.60602560264E-03 +2.14231048900E-01 +6.95040433483E-01
1.48000000000E+09 +3.67377595582E-01 +5.53460440446E-01 +2.12983919445E-03 -1.04307666602E-02 +2.45949321368E-03 -1.04815415191E-02 +2.48269076937E-01 +6.47245172048E-01
1.48500000000E+09 +3.89894904134E-01 +5.01443205237E-01 +3.89817198873E-04 -1.17334013466E-02 +2.54897550992E-04 -1.20757068651E-02 +2.80023349629E-01 +5.90458468661E-01
1.49000000000E+09 +4.06105612390E-01 +4.41325064772E-01 -2.21675334239E-03 -1.32251834767E-02 -2.78904041067E-03 -1.31090905554E-02 +3.06702817911E-01 +5.23838954068E-01
1.49500000000E+09 +4.14813862723E-01 +3.73264033657E-01 -6.06217907752E-03 -1.40789567006E-02 -6.33321562074E-03 -1.32327015185E-02 +3.24176269635E-01 +4.46455382660E-01
1.50000000000E+09 +4.13995023839E-01 +2.96627550836E-01 -1.03702822569E-02 -1.33790906205E-02 -9.71700517192E-03 -1.25470786709E-02 +3.28716721951E-01 +3.59839076706E-01
1.50500000000E+09 +4.00177466414E-01 +2.12612051555E-01 -1.47918996248E-02 -1.13444227099E-02 -1.37696902227E-02 -1.13314748628E-02 +3.16671768632E-01 +2.65543166532E-01
1.51000000000E+09 +3.71174572220E-01 +1.24997472604E-01 -1.84571872217E-02 -7.16010196479E-03 -1.79519320129E-02 -7.82056086116E-03 +2.84119210316E-01 +1.66567044385E-01
1.51500000000E+09 +3.23320058030E-01 +3.71459587968E-02 -2.09712567688E-02 -2.57131914077E-03 -2.10790663491E-02 -3.19006382263E-03 +2.27507583330E-01 +7.19742072009E-02
1.52000000000E+09 +2.55660382444E-01 -4.17012437397E-02 -2.25088342883E-02 +3.35433207368E-03 -2.28911232491E-02 +3.08963379263E-03 +1.49892993949E-01 -1.00719906342E-02
1.52500000000E+09 +1.71329779927E-01 -1.06402468278E-01 -2.17593289980E-02 +1.12765834440E-02 -2.20557059790E-02 +1.12113818531E-02 +5.66990179610E-02 -7.47710279078E-02
1.53000000000E+09 +7.30476227367E-02 -1.52112146215E-01 -1.62469127180E-02 +1.74726126368E-02 -1.64073623674E-02 +1.75618734218E-02 -5.17067914027E-02 -1.17164617008E-01
1.53500000000E+09 -3.39999055678E-02 -1.74611120754E-01 -1.06042565515E-02 +2.07197756686E-02 -1.05203672904E-02 +2.07578289184E-02 -1.62072289894E-01 -1.32969313549E-01
1.54000000000E+09 -1.44708898314E-01 -1.71638018539E-01 -4.16437698206E-03 +2.19126557199E-02 -4.27179868834E-03 +2.17436742079E-02 -2.70188002937E-01 -1.25990733821E-01
1.54500000000E+09 -2.48131316544E-01 -1.43499085803E-01 +2.29563828066E-03 +2.16885835611E-02 +1.79309585304E-03 +2.14306420659E-02 -3.67292390064E-01 -9.81001983501E-02
1.55000000000E+09 -3.38641893818E-01 -9.89593345735E-02 +7.57635649885E-03 +1.82962409373E-02 +6.89348279927E-03 +1.85849577188E-02 -4.49250602685E-01 -5.63898900650E-02
1.55500000000E+09 -4.13651112133E-01 -4.31072900989E-02 +1.07461863935E-02 +1.47081185513E-02 +1.02504617283E-02 +1.55125566803E-02 -5.16475893300E-01 -6.31648153820E-03
1.56000000000E+09 -4.72629814865E-01 +1.58866915789E-02 +1.30744040907E-02 +1.07186695095E-02 +1.32583799648E-02 +1.17162926660E-02 -5.69509711422E-01 +4.86315341711E-02
1.56500000000E+09 -5.19642647330E-01 +7.53942345850E-02 +1.34581859399E-02 +6.45021625766E-03 +1.41196119937E-02 +7.06038080465E-03 -6.10621606429E-01 +1.05322002493E-01
1.57000000000E+09 -5.55246062471E-01 +1.34995099880E-01 +1.28447038700E-02 +3.56077284006E-03 +1.37227798637E-02 +3.67146979805E-03 -6.40638359260E-01 +1.61467124474E-01
