# Hz S RI R 50
! CMT, C1220, 16058040, 17.2.0/1
! Date: 14/08/2018 12:59:20
! Data: Format (Calibration Info)
! Freq                      S11: Re/Im (F2)                       S21: Re/Im (F2)                       S12: Re/Im (F2)                       S22: Re/Im (F2)            
1.00000000000E+09 -6.48308881703E-01 +7.11726476960E-01 -2.04972888610E-05 +3.08346630352E-05 -4.18354837813E-05 -9.07197865156E-06 -7.19022711890E-01 +6.45832123463E-01
1.00500000000E+09 -6.41855216761E-01 +7.16416183055E-01 -1.58862902085E-05 +1.65112228894E-05 -2.03511398361E-05 -4.04213879723E-05 -7.15253966918E-01 +6.49959309921E-01
1.01000000000E+09 -6.36209687053E-01 +7.20660942609E-01 -1.70281461675E-05 +1.87301563516E-05 +2.89436534810E-05 +3.26200882351E-06 -7.11759281696E-01 +6.53278742880E-01
1.01500000000E+09 -6.31278056165E-01 +7.24634098253E-01 -2.02769722778E-06 +2.05539642601E-05 +1.31620021627E-06 +1.40984397886E-05 -7.08275305525E-01 +6.56876040824E-01
1.02000000000E+09 -6.27476460694E-01 +7.28155272338E-01 -2.54722318322E-05 -2.94256781398E-05 -1.46479563305E-05 +1.19588763550E-05 -7.04875799181E-01 +6.60262378216E-01
1.02500000000E+09 -6.24085534789E-01 +7.31405105400E-01 -4.32547495613E-05 +1.24773486342E-05 -4.85405334583E-06 +3.98238116071E-05 -7.01574176928E-01 +6.63666240814E-01
1.03000000000E+09 -6.21057185012E-01 +7.34197074866E-01 -1.84869564112E-07 +4.57600652363E-06 -2.78306707143E-05 -1.02150000368E-06 -6.98072410412E-01 +6.67472370327E-01
1.03500000000E+09 -6.17362682495E-01 +7.37175835624E-01 +1.34646047028E-05 +5.45335010899E-05 -1.92628154310E-05 +3.08094256829E-05 -6.93832495958E-01 +6.71406164977E-01
1.04000000000E+09 -6.12875734804E-01 +7.40342264936E-01 -1.16901644445E-05 +3.03617336767E-05 +2.18931423360E-05 +2.48626782264E-05 -6.89898349600E-01 +6.74881647702E-01
1.04500000000E+09 -6.07435438059E-01 +7.44029806774E-01 +3.80528267054E-05 +7.02655832276E-05 -5.53764748367E-05 +3.36403618750E-05 -6.86176019901E-01 +6.78152169953E-01
1.05000000000E+09 -6.00674886536E-01 +7.48108514612E-01 -1.03861821719E-05 -2.54167873330E-07 -3.45830485726E-06 +1.04006276142E-04 -6.82711848297E-01 +6.81685426267E-01
1.05500000000E+09 -5.93222895611E-01 +7.52241619096E-01 +6.26647896905E-06 +6.63418415288E-05 -1.63643083585E-06 +2.85918595750E-05 -6.79272921521E-01 +6.84984355405E-01
1.06000000000E+09 -5.85283463320E-01 +7.56902500367E-01 +2.39425735627E-07 -7.28678702211E-06 -5.19305999479E-05 +1.20531431654E-05 -6.75587216693E-01 +6.88804544622E-01
1.06500000000E+09 -5.77471133361E-01 +7.61604034524E-01 +2.53711544467E-05 +9.73764060609E-06 +3.34307946332E-05 +1.65432557058E-05 -6.71658188800E-01 +6.92537171093E-01
1.07000000000E+09 -5.70441036496E-01 +7.65530712781E-01 +6.44435097341E-05 +3.52347721572E-06 +1.14360428024E-05 +5.51022528086E-05 -6.67421779896E-01 +6.96126794939E-01
1.07500000000E+09 -5.64548658376E-01 +7.69259692283E-01 +7.83498658519E-06 +5.89381405078E-05 +3.63010241058E-05 +2.83491136798E-05 -6.62900377370E-01 +6.99569092574E-01
1.08000000000E+09 -5.59638491857E-01 +7.72584306579E-01 -1.80524549928E-06 +3.06012250214E-05 +3.44687630894E-05 +2.56108962440E-05 -6.58719119164E-01 +7.03230027808E-01
1.08500000000E+09 -5.55982958452E-01 +7.75202537455E-01 +3.74365151489E-05 +4.92744969446E-06 -3.10220655672E-06 +4.26155009748E-05 -6.54910076961E-01 +7.06615497928E-01
1.09000000000E+09 -5.52606804415E-01 +7.77539136103E-01 +6.91511365990E-05 +2.39525373232E-05 +3.27222483815E-05 +5.10155173274E-05 -6.50933383530E-01 +7.10249549453E-01
1.09500000000E+09 -5.49721403713E-01 +7.79564158615E-01 +3.44782055932E-05 +3.29060410695E-05 +6.41567017774E-05 +8.83887377864E-06 -6.46909312115E-01 +7.14007208423E-01
1.10000000000E+09 -5.46114686879E-01 +7.81773919456E-01 +6.74750586693E-05 +4.45409445612E-05 +2.20193647926E-06 +6.34628600220E-05 -6.42761875044E-01 +7.17625934443E-01
1.10500000000E+09 -5.42031559845E-01 +7.84429013535E-01 +6.59889749252E-05 -9.53390048141E-06 +7.79538126055E-05 +4.87029590976E-05 -6.38254388802E-01 +7.20951606096E-01
1.11000000000E+09 -5.36686718919E-01 +7.87533180608E-01 +3.02473332301E-05 +5.72039133221E-05 +6.53146102484E-05 -4.41528330397E-06 -6.34007833215E-01 +7.24023057128E-01
1.11500000000E+09 -5.30520204445E-01 +7.91046974691E-01 +8.62503501200E-05 -1.20930170939E-05 +7.44562905402E-05 +1.35448086759E-05 -6.29903128505E-01 +7.27362160576E-01
1.12000000000E+09 -5.23743724036E-01 +7.94553095123E-01 +4.31814672128E-05 -2.35861143237E-06 +1.03243867696E-04 +1.33784101711E-06 -6.25635055438E-01 +7.30784161168E-01
1.12500000000E+09 -5.16510214285E-01 +7.98008441002E-01 +9.42249778404E-05 +1.12195974915E-05 +7.04609943848E-05 +1.11059557008E-05 -6.21318521890E-01 +7.34599916721E-01
1.13000000000E+09 -5.09325221166E-01 +8.01331855332E-01 +5.92081507326E-05 -3.05501713464E-05 +1.02713442131E-04 -4.19911492942E-06 -6.16873744155E-01 +7.38054083419E-01
1.13500000000E+09 -5.02464606178E-01 +8.03839729401E-01 +6.87097107819E-05 +1.98951969831E-06 +7.95451148370E-05 -2.45067323199E-06 -6.11932937301E-01 +7.41720961179E-01
1.14000000000E+09 -4.96346225215E-01 +8.06251486771E-01 +7.76589823266E-05 -1.22892685276E-05 +9.48190103357E-05 -1.30647173504E-05 -6.06947686553E-01 +7.45026725073E-01
1.14500000000E+09 -4.90862013015E-01 +8.07809850076E-01 +9.72892737057E-05 -1.51188655304E-06 +9.55728116020E-05 -2.16791375261E-05 -6.02189831382E-01 +7.48308550859E-01
1.15000000000E+09 -4.85868564252E-01 +8.09409130760E-01 +7.27880008982E-05 -5.64977925174E-05 +8.94577989225E-05 -6.02366572686E-05 -5.97448936463E-01 +7.51911524803E-01
1.15500000000E+09 -4.81016348278E-01 +8.11311549731E-01 +4.32573464976E-05 -8.59208467610E-06 +1.25711983984E-04 -7.18534997256E-06 -5.92464586871E-01 +7.55529062033E-01
1.16000000000E+09 -4.75771344204E-01 +8.13205497848E-01 +1.02036320731E-04 -5.56532159314E-05 +1.30188552144E-04 -4.09846217531E-05 -5.87530602385E-01 +7.59184842867E-01
1.16500000000E+09 -4.70084495195E-01 +8.15907949410E-01 +7.21803625266E-05 -1.71921494243E-05 +1.29982081170E-04 -4.09604163292E-05 -5.82290460561E-01 +7.62618265130E-01
1.17000000000E+09 -4.63656496177E-01 +8.18742193077E-01 +4.10976057409E-05 -5.88359015668E-05 +8.04393501392E-05 -5.37083712237E-05 -5.76698760263E-01 +7.65844687037E-01
1.17500000000E+09 -4.56839658546E-01 +8.21854422122E-01 +1.27822222074E-04 -8.87780037064E-05 +1.38470240159E-04 -1.06128294074E-04 -5.70975054177E-01 +7.68771100710E-01
1.18000000000E+09 -4.49481077017E-01 +8.25096282846E-01 +8.36568888309E-05 -6.29243217188E-05 +1.31424807272E-04 -1.15373977762E-04 -5.65474973975E-01 +7.71543277198E-01
1.18500000000E+09 -4.41883461245E-01 +8.27977155673E-01 +1.28618660830E-04 -1.57948076498E-04 +1.18661623385E-04 -1.75897684481E-04 -5.59662706122E-01 +7.74284684164E-01
1.19000000000E+09 -4.34202303617E-01 +8.30396329304E-01 +1.19779068816E-04 -1.91696004840E-04 +1.32263874565E-04 -1.45923106882E-04 -5.53541469947E-01 +7.76724211726E-01
1.19500000000E+09 -4.26939693158E-01 +8.32317429052E-01 +1.37559380815E-04 -2.24284476596E-04 +4.55665169818E-05 -2.74181206054E-04 -5.47632387140E-01 +7.77796166098E-01
1.20000000000E+09 -4.20261063500E-01 +8.33121292725E-01 -3.44743841718E-05 -2.55577432400E-04 -1.57141117398E-05 -3.04923487387E-04 -5.42880828743E-01 +7.77779853594E-01
1.20500000000E+09 -4.13857951101E-01 +8.34287139404E-01 -8.12017402681E-05 -2.49678647782E-04 -6.46466123036E-05 -2.32870924674E-04 -5.40396056225E-01 +7.78573651594E-01
1.21000000000E+09 -4.07327251953E-01 +8.35604516740E-01 -9.92481166093E-05 -1.42995223842E-04 -9.70391758151E-05 -1.34372575184E-04 -5.38287742009E-01 +7.81477504083E-01
1.21500000000E+09 -4.00417442192E-01 +8.37240795161E-01 -6.45265172305E-05 -1.00742693186E-04 -1.06241129250E-04 -1.14182512743E-04 -5.35185347776E-01 +7.85980008648E-01
1.22000000000E+09 -3.92502253142E-01 +8.39205416972E-01 -2.42947805109E-05 -1.44895659045E-04 -5.32018359138E-05 -1.62092051732E-04 -5.30988427496E-01 +7.91121205113E-01
1.22500000000E+09 -3.84514052141E-01 +8.41711242341E-01 -3.99174863813E-05 -1.15147986567E-04 -1.08913297233E-05 -1.77692017417E-04 -5.25466534560E-01 +7.95944520433E-01
1.23000000000E+09 -3.76080938670E-01 +8.44602872988E-01 -9.32388698990E-05 -1.68470991040E-04 -7.08724277306E-05 -1.88622351462E-04 -5.19804343300E-01 +8.00260604318E-01
1.23500000000E+09 -3.67739188300E-01 +8.47641123434E-01 -3.95231923008E-05 -2.00693221006E-04 -4.23201157275E-05 -2.00824632123E-04 -5.13891720150E-01 +8.04153885443E-01
1.24000000000E+09 -3.59641761078E-01 +8.50964947169E-01 -1.10029009199E-04 -2.08366732162E-04 -1.03619070809E-04 -2.24018793081E-04 -5.07646972064E-01 +8.07866476902E-01
1.24500000000E+09 -3.51789966187E-01 +8.54331834010E-01 -1.14144660224E-04 -1.92249210326E-04 -1.01230387997E-04 -2.26169672857E-04 -5.01382459951E-01 +8.11328784659E-01
1.25000000000E+09 -3.44331768531E-01 +8.56888342318E-01 -1.33751387057E-04 -2.28637637893E-04 -1.53285314152E-04 -1.90830458081E-04 -4.94852505231E-01 +8.15288427297E-01
1.25500000000E+09 -3.36858205441E-01 +8.58787315216E-01 -1.17044469271E-04 -1.66082934756E-04 -1.29109200448E-04 -2.16616086812E-04 -4.87982532755E-01 +8.18751003099E-01
1.26000000000E+09 -3.29538083384E-01 +8.60016236020E-01 -1.53003204004E-04 -2.07543907123E-04 -1.83720501389E-04 -1.97523661798E-04 -4.81286833065E-01 +8.22738696335E-01
1.26500000000E+09 -3.22101178915E-01 +8.60585464137E-01 -2.09890215109E-04 -2.42575961184E-04 -2.43276833440E-04 -2.66904604588E-04 -4.74235938229E-01 +8.26207876492E-01
1.27000000000E+09 -3.13947365263E-01 +8.61047134050E-01 -3.01039167500E-04 -2.00525317644E-04 -2.45412228885E-04 -2.25007670561E-04 -4.67346243905E-01 +8.29672774844E-01
1.27500000000E+09 -3.05000283766E-01 +8.61652761530E-01 -3.21289394879E-04 -1.91151566146E-04 -2.99923814028E-04 -1.94194788605E-04 -4.60266311329E-01 +8.32897370223E-01
1.28000000000E+09 -2.95238386756E-01 +8.62852104265E-01 -3.96965219555E-04 -1.73754242570E-04 -3.69722563491E-04 -1.14056462369E-04 -4.53016386316E-01 +8.36206906540E-01
1.28500000000E+09 -2.84194615423E-01 +8.64204052024E-01 -3.49434157682E-04 -1.48193080296E-04 -4.39748338297E-04 -1.36965526486E-04 -4.45588905522E-01 +8.39589285811E-01
1.29000000000E+09 -2.73218816681E-01 +8.66103447561E-01 -3.63558578226E-04 -7.81017456105E-05 -4.04758505377E-04 -8.59837988763E-05 -4.37879881061E-01 +8.42987333836E-01
1.29500000000E+09 -2.62544628915E-01 +8.68593717227E-01 -4.57846201160E-04 -7.62780875832E-05 -4.81023353112E-04 -6.55111457294E-05 -4.30015344103E-01 +8.46058585272E-01
1.30000000000E+09 -2.52326536304E-01 +8.71326774226E-01 -5.05047158291E-04 -5.58432991422E-05 -5.21216750227E-04 +3.90198415214E-05 -4.22415176100E-01 +8.49165237628E-01
1.30500000000E+09 -2.42892321825E-01 +8.74045924664E-01 -5.58791503979E-04 +5.21864734608E-06 -5.20866017093E-04 +3.65102534120E-05 -4.14290101495E-01 +8.52369292684E-01
1.31000000000E+09 -2.34125545306E-01 +8.76292869577E-01 -5.79744238933E-04 +1.28060163487E-04 -5.61752761891E-04 +1.59787334254E-04 -4.05895106796E-01 +8.55323989285E-01
1.31500000000E+09 -2.26118437448E-01 +8.77714197465E-01 -5.84925344866E-04 +2.11699025277E-04 -5.72341452937E-04 +2.13158774437E-04 -3.97187700376E-01 +8.58359695484E-01
1.32000000000E+09 -2.18672941507E-01 +8.78037269223E-01 -5.83142741564E-04 +2.67070683725E-04 -5.57312114452E-04 +2.90851972472E-04 -3.88258155330E-01 +8.61481828399E-01
1.32500000000E+09 -2.11317684838E-01 +8.77768509633E-01 -5.95837142383E-04 +3.00060473340E-04 -5.66587094694E-04 +3.58672116908E-04 -3.78878169787E-01 +8.64284815122E-01
1.33000000000E+09 -2.02936355570E-01 +8.77182333712E-01 -6.10717071966E-04 +3.55417587326E-04 -5.99836239344E-04 +4.43338273668E-04 -3.69382050457E-01 +8.67191186429E-01
1.33500000000E+09 -1.93264117039E-01 +8.76333127661E-01 -6.54541337960E-04 +4.83357937955E-04 -6.05009422896E-04 +5.71239287807E-04 -3.59856321567E-01 +8.69886234249E-01
1.34000000000E+09 -1.81860196426E-01 +8.75865869963E-01 -5.61094633757E-04 +5.88703420965E-04 -5.28763107277E-04 +6.26732264328E-04 -3.49848121894E-01 +8.72709662008E-01
1.34500000000E+09 -1.68986052205E-01 +8.75505692556E-01 -5.72037643983E-04 +7.36474498291E-04 -5.71754627454E-04 +6.62409743299E-04 -3.39131734184E-01 +8.75495445911E-01
1.35000000000E+09 -1.54901465184E-01 +8.75685815876E-01 -4.90482486657E-04 +8.66573390624E-04 -4.73407949630E-04 +8.16093193419E-04 -3.28163566484E-01 +8.78060467048E-01
1.35500000000E+09 -1.39967254313E-01 +8.76129141676E-01 -4.66591702205E-04 +8.78324078772E-04 -4.73572611338E-04 +8.89221320612E-04 -3.16735910512E-01 +8.80274015571E-01
1.36000000000E+09 -1.24744906534E-01 +8.76529020965E-01 -4.08629579088E-04 +1.01741994254E-03 -3.87500119920E-04 +9.79863388813E-04 -3.05208238113E-01 +8.82455231036E-01
1.36500000000E+09 -1.09765591332E-01 +8.76742666813E-01 -3.76638877370E-04 +1.14356961737E-03 -3.16522406002E-04 +1.07431608568E-03 -2.93521225697E-01 +8.84388053506E-01
1.37000000000E+09 -9.55236351505E-02 +8.75764904168E-01 -2.45632889105E-04 +1.34802952947E-03 -3.04492433326E-04 +1.26001168625E-03 -2.80983529176E-01 +8.86300009683E-01
1.37500000000E+09 -8.25876632742E-02 +8.74044726188E-01 +8.96191306191E-06 +1.44724574108E-03 -1.15500772625E-04 +1.35894945567E-03 -2.67411575570E-01 +8.88208599369E-01
1.38000000000E+09 -7.02751950828E-02 +8.71728603283E-01 +1.25325124786E-04 +1.41790230039E-03 -3.66196544494E-05 +1.51052823341E-03 -2.53175066092E-01 +8.89580275724E-01
1.38500000000E+09 -5.77546109759E-02 +8.68745981420E-01 +2.65025963579E-04 +1.59108829504E-03 +1.91360850310E-04 +1.76143687536E-03 -2.38266061921E-01 +8.90912908957E-01
1.39000000000E+09 -4.50706484727E-02 +8.65172285839E-01 +4.23113089749E-04 +1.64786096140E-03 +5.13999099981E-04 +1.90995566216E-03 -2.22933967873E-01 +8.91936454833E-01
1.39500000000E+09 -3.10081117437E-02 +8.61312006257E-01 +6.11816592876E-04 +1.77189133549E-03 +8.72254189902E-04 +1.90784844880E-03 -2.07071058853E-01 +8.92181025981E-01
1.40000000000E+09 -1.53112687154E-02 +8.56871530273E-01 +9.49401897657E-04 +1.95403030961E-03 +1.15636956927E-03 +1.90388989773E-03 -1.90399294055E-01 +8.92088385046E-01
1.40500000000E+09 +1.52182096641E-03 +8.52266488722E-01 +1.43664379857E-03 +1.99754318737E-03 +1.49273251432E-03 +1.86531667747E-03 -1.72568463896E-01 +8.91405351731E-01
1.41000000000E+09 +1.95866738199E-02 +8.47446458128E-01 +1.90740051674E-03 +1.81930630039E-03 +1.81408215976E-03 +1.78253958889E-03 -1.53325577999E-01 +8.90278842659E-01
1.41500000000E+09 +3.87379186457E-02 +8.42603701152E-01 +2.09162082106E-03 +1.67545794051E-03 +2.12256298409E-03 +1.76800555216E-03 -1.32609757633E-01 +8.88300822597E-01
1.42000000000E+09 +5.95766995342E-02 +8.36748293437E-01 +2.42524996206E-03 +1.59684664172E-03 +2.62700003797E-03 +1.83950299341E-03 -1.10707284309E-01 +8.85212988835E-01
1.42500000000E+09 +8.06949321162E-02 +8.29145147695E-01 +2.85304769181E-03 +1.42735614007E-03 +3.27324597054E-03 +1.48113290782E-03 -8.80597123978E-02 +8.80981705597E-01
1.43000000000E+09 +1.01673415284E-01 +8.19512947089E-01 +3.40728670045E-03 +1.40208079988E-03 +3.80013024459E-03 +1.20780787552E-03 -6.46637711389E-02 +8.75938944088E-01
1.43500000000E+09 +1.22722579886E-01 +8.07285527716E-01 +4.35990377723E-03 +9.21654943244E-04 +4.58276513166E-03 +5.27590718070E-04 -3.95993955939E-02 +8.69119033603E-01
1.44000000000E+09 +1.43973632385E-01 +7.93535465826E-01 +4.91604925591E-03 -1.63319172282E-04 +4.97044384831E-03 -4.65108320365E-04 -1.29665756023E-02 +8.60209945353E-01
1.44500000000E+09 +1.66699897996E-01 +7.77280403036E-01 +4.93189266286E-03 -1.18480531424E-03 +4.91684631833E-03 -1.38057738729E-03 +1.57259286414E-02 +8.49016782075E-01
1.45000000000E+09 +1.90483844547E-01 +7.58155145500E-01 +4.82319477515E-03 -1.75441956720E-03 +4.82177831953E-03 -2.10775779464E-03 +4.59697676260E-02 +8.34565862292E-01
1.45500000000E+09 +2.15673058055E-01 +7.36116731251E-01 +5.09223109127E-03 -2.28279051094E-03 +4.91231223521E-03 -2.77282636875E-03 +7.72346182805E-02 +8.17471095211E-01
1.46000000000E+09 +2.42466886714E-01 +7.11604014428E-01 +5.56348512602E-03 -3.29866278609E-03 +5.00181972850E-03 -3.66571881782E-03 +1.10460120571E-01 +7.96535341247E-01
1.46500000000E+09 +2.70384843374E-01 +6.84047407404E-01 +5.88907328695E-03 -4.71635715529E-03 +5.17436665214E-03 -4.66926100518E-03 +1.44719143704E-01 +7.70288234420E-01
1.47000000000E+09 +2.99674514532E-01 +6.52622533084E-01 +5.83969902630E-03 -6.86669895513E-03 +5.35109151527E-03 -6.32779325403E-03 +1.79781411087E-01 +7.37769952042E-01
1.47500000000E+09 +3.28973213712E-01 +6.15263747494E-01 +4.48650174783E-03 -9.20254990379E-03 +4.61536273470E-03 -8.61917773753E-03 +2.14810409897E-01 +6.97815718418E-01
1.48000000000E+09 +3.55894875090E-01 +5.71137831309E-01 +2.46266908677E-03 -1.05578797367E-02 +2.79655456787E-03 -1.05738025467E-02 +2.49297740854E-01 +6.50402417633E-01
1.48500000000E+09 +3.78835487342E-01 +5.18923115798E-01 +9.05631911339E-04 -1.17210131372E-02 +6.95553717647E-04 -1.20209074968E-02 +2.81870990160E-01 +5.93902936739E-01
1.49000000000E+09 +3.95473969463E-01 +4.59100350557E-01 -1.49591541022E-03 -1.34773040450E-02 -2.13928214369E-03 -1.33956355809E-02 +3.09553357540E-01 +5.26852764099E-01
1.49500000000E+09 +4.04818563526E-01 +3.91562065674E-01 -5.51694453242E-03 -1.45435420575E-02 -5.82775935457E-03 -1.36790248443E-02 +3.28000846439E-01 +4.49108515369E-01
1.50000000000E+09 +4.05242957052E-01 +3.15309642937E-01 -9.79267931424E-03 -1.39499095337E-02 -9.22878169162E-03 -1.31096188233E-02 +3.33214882940E-01 +3.61517698824E-01
1.50500000000E+09 +3.92685557626E-01 +2.31126357813E-01 -1.44276865402E-02 -1.23066486120E-02 -1.33728668398E-02 -1.22338948214E-02 +3.21560536837E-01 +2.66000231824E-01
1.51000000000E+09 +3.65107081861E-01 +1.43292943488E-01 -1.85518972758E-02 -8.14734941028E-03 -1.79909780471E-02 -8.75483754596E-03 +2.88967028863E-01 +1.66285603440E-01
1.51500000000E+09 +3.18806625312E-01 +5.43065255832E-02 -2.12053109477E-02 -3.55736028263E-03 -2.12175803372E-02 -4.14532029683E-03 +2.33012361468E-01 +7.02239839713E-02
1.52000000000E+09 +2.52307152348E-01 -2.57253408695E-02 -2.30534632063E-02 +2.43875408674E-03 -2.33867024780E-02 +2.14967204880E-03 +1.54457800996E-01 -1.34543457465E-02
1.52500000000E+09 +1.69070369810E-01 -9.19273798704E-02 -2.24972028951E-02 +1.05981814292E-02 -2.28384660964E-02 +1.05217336770E-02 +6.00240832146E-02 -7.95502787669E-02
1.53000000000E+09 +7.27452730997E-02 -1.38846005395E-01 -1.69719606684E-02 +1.70874612667E-02 -1.71599707346E-02 +1.71610785076E-02 -5.00019513169E-02 -1.22515429834E-01
1.53500000000E+09 -3.24393371390E-02 -1.64203887304E-01 -1.15003081388E-02 +2.02826530949E-02 -1.15888837850E-02 +2.02838493885E-02 -1.62689027216E-01 -1.38241895579E-01
1.54000000000E+09 -1.42401439049E-01 -1.64649611895E-01 -5.40771690597E-03 +2.20054337293E-02 -5.45517171395E-03 +2.17337692007E-02 -2.72287996655E-01 -1.30033884008E-01
1.54500000000E+09 -2.46000964720E-01 -1.40050893850E-01 +1.34702262309E-03 +2.20908524705E-02 +8.27444274268E-04 +2.18628796362E-02 -3.69731688703E-01 -1.01075484768E-01
1.55000000000E+09 -3.38082012777E-01 -9.88858885618E-02 +6.77723098344E-03 +1.89257272041E-02 +6.04572340545E-03 +1.91956027508E-02 -4.52329040047E-01 -5.85114295169E-02
1.55500000000E+09 -4.15843116289E-01 -4.49137085612E-02 +1.03008181782E-02 +1.55232805764E-02 +9.86425769114E-03 +1.63672455550E-02 -5.19733598918E-01 -7.26840247442E-03
1.56000000000E+09 -4.76900407475E-01 +1.33390335026E-02 +1.28802277594E-02 +1.13618686625E-02 +1.30765857635E-02 +1.23988150641E-02 -5.72666462239E-01 +4.85667158957E-02
1.56500000000E+09 -5.25809287634E-01 +7.20716692787E-02 +1.32933564658E-02 +7.03286975322E-03 +1.39960332987E-02 +7.70095591559E-03 -6.13650979797E-01 +1.05917623076E-01
1.57000000000E+09 -5.63239327479E-01 +1.31014557162E-01 +1.28095896432E-02 +4.17225212702E-03 +1.36409266016E-02 +4.39008360915E-03 -6.43046642622E-01 +1.62981107867E-01
