# Hz S RI R 50
! CMT, C1220, 16058040, 17.2.0/1
! Date: 14/08/2018 12:24:40
! Data: Format (Calibration Info)
! Freq                      S11: Re/Im (F2)                       S21: Re/Im (F2)                       S12: Re/Im (F2)                       S22: Re/Im (F2)            
1.00000000000E+09 -6.46357451560E-01 +7.14931522400E-01 +6.31441226071E-07 +3.34518366489E-06 -2.84715018907E-05 +9.75529252202E-06 -7.47597501588E-01 +6.24376088512E-01
1.00500000000E+09 -6.39061356165E-01 +7.20262190927E-01 -6.76102570886E-07 +3.48767832638E-05 +6.95533707866E-05 -2.42145718122E-06 -7.44021617120E-01 +6.28184402533E-01
1.01000000000E+09 -6.33331624236E-01 +7.24800321299E-01 -4.07612670391E-05 -6.40382915186E-06 -8.65305494308E-07 +7.32113716476E-06 -7.40500053858E-01 +6.31950481045E-01
1.01500000000E+09 -6.29224981947E-01 +7.28545684609E-01 -1.15521760393E-05 +3.03965626726E-05 +2.22587362506E-05 +5.69887600847E-06 -7.37219514719E-01 +6.35703569868E-01
1.02000000000E+09 -6.26624694560E-01 +7.31748596136E-01 -1.46237540936E-05 +3.86172921556E-05 +3.94205342433E-05 +1.79498830308E-06 -7.33788980596E-01 +6.39208963865E-01
1.02500000000E+09 -6.25074055187E-01 +7.34208733283E-01 +2.86774335424E-05 -6.24488934640E-06 +2.25607340833E-05 +6.52154051088E-06 -7.30828999233E-01 +6.42760655327E-01
1.03000000000E+09 -6.24175430344E-01 +7.36494452760E-01 +5.33012193187E-06 +1.42466345835E-05 -8.46436321979E-06 -2.58121312555E-05 -7.27461219946E-01 +6.46574564906E-01
1.03500000000E+09 -6.22226170230E-01 +7.38586449576E-01 -1.79744188520E-05 -2.98040208670E-05 +2.27827736162E-05 +5.80263533567E-06 -7.23502258048E-01 +6.50531534919E-01
1.04000000000E+09 -6.18794541383E-01 +7.41509057898E-01 +3.39717171464E-05 +4.84907125868E-06 +1.71314027725E-05 -3.75920593223E-05 -7.19774634000E-01 +6.54256157605E-01
1.04500000000E+09 -6.13624359645E-01 +7.44821546928E-01 +7.82706873922E-05 -4.61597160792E-05 -2.03471786555E-05 +1.88877642271E-05 -7.16438349785E-01 +6.57668835179E-01
1.05000000000E+09 -6.06431407672E-01 +7.48979739877E-01 +7.94728833441E-06 +3.53175006957E-05 +4.69793712657E-05 -6.47364029984E-06 -7.12946237076E-01 +6.61078360330E-01
1.05500000000E+09 -5.97835246358E-01 +7.53555341258E-01 +2.69929459869E-05 +4.16697373372E-05 +5.57658761606E-05 +2.93970351878E-05 -7.09665167019E-01 +6.64573179230E-01
1.06000000000E+09 -5.88574727500E-01 +7.58728797288E-01 +1.59780991736E-08 +5.63503831921E-06 -1.06584430933E-05 -3.80119084393E-05 -7.06404186506E-01 +6.68419863728E-01
1.06500000000E+09 -5.79480392427E-01 +7.63807843576E-01 -3.05652112008E-06 -2.13089955767E-05 +4.25312956047E-05 +1.94527857280E-05 -7.02535967634E-01 +6.72164723823E-01
1.07000000000E+09 -5.71616571948E-01 +7.68191038386E-01 +2.93272406278E-05 +1.46657384200E-05 -2.64100499510E-05 +1.06256055941E-05 -6.98534064806E-01 +6.75805686973E-01
1.07500000000E+09 -5.65397370414E-01 +7.72019242468E-01 +6.05707331200E-05 +1.40165005958E-05 +3.07799660523E-05 +1.08487208182E-05 -6.94243468690E-01 +6.79386620281E-01
1.08000000000E+09 -5.61165941840E-01 +7.75300557356E-01 +5.67130735622E-05 -3.64907208536E-05 +5.53816083854E-05 -9.62456255853E-06 -6.90232416378E-01 +6.83400797366E-01
1.08500000000E+09 -5.58324420692E-01 +7.77738243990E-01 +1.90314552981E-05 +4.13027666571E-06 +4.27547383376E-05 -5.02259196550E-05 -6.86301788731E-01 +6.86823615412E-01
1.09000000000E+09 -5.56362444586E-01 +7.79862538518E-01 -5.69509776977E-06 -6.20301107968E-06 +1.27624695384E-05 -3.00543562618E-06 -6.82450327092E-01 +6.90848205824E-01
1.09500000000E+09 -5.54683208335E-01 +7.81541342250E-01 -2.86265652052E-07 -2.26374483017E-05 +3.77185136284E-05 +4.75671784336E-05 -6.78574642910E-01 +6.94617963970E-01
1.10000000000E+09 -5.51742888768E-01 +7.83514040194E-01 +2.67609427830E-05 -1.55659179611E-05 +4.15515710796E-05 -2.10498733773E-05 -6.74664220257E-01 +6.98385105117E-01
1.10500000000E+09 -5.47673657479E-01 +7.86283110687E-01 +4.32238558166E-05 +1.96277082766E-06 +2.26985975759E-05 -3.59434689480E-05 -6.70333630091E-01 +7.01894284742E-01
1.11000000000E+09 -5.41963167968E-01 +7.89464765179E-01 -1.91968019165E-05 -1.82368154243E-05 +3.06281230966E-05 -3.87755599562E-05 -6.66222149122E-01 +7.05236099849E-01
1.11500000000E+09 -5.34866298466E-01 +7.93289013027E-01 +8.93629880133E-06 -2.24998498736E-06 +3.76887157125E-07 -4.47515661877E-05 -6.62128771229E-01 +7.08730144666E-01
1.12000000000E+09 -5.26927770825E-01 +7.97236149893E-01 +9.06806073189E-06 -9.62972983518E-06 +3.23474780866E-06 -3.04072828981E-05 -6.58078358792E-01 +7.12268488556E-01
1.12500000000E+09 -5.19005213197E-01 +8.01182359587E-01 +1.84138016757E-05 -2.54401060661E-05 +3.11156392553E-05 -3.46650017204E-05 -6.53833190034E-01 +7.16262480465E-01
1.13000000000E+09 -5.11464411260E-01 +8.05005687755E-01 -5.82320844989E-07 -1.78617041033E-05 +4.01137155493E-05 -4.07082867013E-05 -6.49571726165E-01 +7.20032152976E-01
1.13500000000E+09 -5.05169476919E-01 +8.07767356082E-01 -1.70656645006E-05 -8.25896178640E-07 -7.84372987471E-06 -1.85508339314E-05 -6.45020858923E-01 +7.23637071119E-01
1.14000000000E+09 -4.99996984314E-01 +8.10397313403E-01 +5.62028143936E-06 -1.09069432759E-05 +3.40884646741E-06 -1.46555728067E-05 -6.40442015661E-01 +7.27130775710E-01
1.14500000000E+09 -4.95988994292E-01 +8.11873594655E-01 -1.45347394395E-05 -8.51964262454E-05 +1.65719200082E-05 -4.04944927372E-05 -6.35712895010E-01 +7.30380503671E-01
1.15000000000E+09 -4.92198674841E-01 +8.13390620904E-01 +4.29409282505E-05 -4.50440927254E-06 -6.81586946325E-05 -4.04752329494E-05 -6.31204902187E-01 +7.34245288720E-01
1.15500000000E+09 -4.88545736735E-01 +8.15148352926E-01 -6.66428859653E-05 -2.08925761704E-05 +8.16710635698E-06 -3.42279388703E-05 -6.26355967884E-01 +7.37960208639E-01
1.16000000000E+09 -4.83852409763E-01 +8.16872030532E-01 +1.86550827947E-05 -4.43123775152E-05 -8.66187280824E-06 +3.68452335253E-05 -6.21729498211E-01 +7.41755274425E-01
1.16500000000E+09 -4.78099732623E-01 +8.19557920608E-01 -7.18814693869E-06 -1.99330014048E-05 -1.74042673647E-05 -3.64593437131E-08 -6.16415125132E-01 +7.45320057812E-01
1.17000000000E+09 -4.71019336866E-01 +8.22559804980E-01 -4.96794282040E-05 -5.75165180218E-05 -7.77969578022E-06 -3.29179101138E-05 -6.11182613933E-01 +7.48621855030E-01
1.17500000000E+09 -4.63075138182E-01 +8.25928695883E-01 -6.01037345158E-06 -4.17477842037E-05 -2.74298919923E-05 -1.60102639931E-05 -6.05301870200E-01 +7.51937397434E-01
1.18000000000E+09 -4.55017619493E-01 +8.29494348603E-01 -1.68526491166E-05 -1.11869413758E-04 +1.24261028854E-05 -7.81647399556E-06 -5.99754976212E-01 +7.54933625756E-01
1.18500000000E+09 -4.47030452478E-01 +8.32696173143E-01 -7.40088199610E-06 -1.19762394055E-04 -5.82688592813E-05 -6.55373144438E-05 -5.93920013035E-01 +7.57973621890E-01
1.19000000000E+09 -4.39876694425E-01 +8.35389504614E-01 -2.94857970864E-05 -2.78073638951E-05 -8.70581576281E-06 -7.28404578101E-05 -5.87827107518E-01 +7.60612039170E-01
1.19500000000E+09 -4.33990857756E-01 +8.37515233476E-01 -8.67480161710E-05 -5.42847976810E-05 -1.02020431985E-04 -6.20192314166E-05 -5.81924697875E-01 +7.61863636666E-01
1.20000000000E+09 -4.29186454625E-01 +8.38450704662E-01 -9.80194219023E-05 -4.81024900279E-05 -9.67322751630E-05 -1.31817309238E-05 -5.77526598858E-01 +7.62126466250E-01
1.20500000000E+09 -4.24839433748E-01 +8.39480140603E-01 -8.08090308266E-05 +6.66322141816E-05 -1.07761603056E-04 +4.55076334430E-05 -5.75073133167E-01 +7.63034238566E-01
1.21000000000E+09 -4.20356968992E-01 +8.40497107995E-01 -1.02218624363E-05 +5.61440852011E-05 -2.65293434308E-05 +5.75064407513E-05 -5.73135652461E-01 +7.66009476845E-01
1.21500000000E+09 -4.14559526941E-01 +8.41797954638E-01 -7.09445314027E-05 +2.19815237960E-05 +4.32842583916E-06 +1.92008558906E-05 -5.70379847311E-01 +7.70487503350E-01
1.22000000000E+09 -4.07127560720E-01 +8.43494211350E-01 -2.43931712892E-05 +5.23123030993E-05 -1.53167920531E-05 +1.58477771856E-05 -5.66206940945E-01 +7.75699506275E-01
1.22500000000E+09 -3.97832233131E-01 +8.46019906549E-01 -2.64284866946E-05 +4.91775134637E-05 -1.88358734869E-05 +1.72782111546E-05 -5.61096392388E-01 +7.80868054503E-01
1.23000000000E+09 -3.87587769334E-01 +8.48923397198E-01 +2.05130854839E-05 +1.21642185292E-05 +1.61330223924E-05 +5.56931740823E-05 -5.55478643151E-01 +7.85418845413E-01
1.23500000000E+09 -3.76558627767E-01 +8.52359425985E-01 +1.43653194948E-05 +5.45883748382E-05 +2.06000450114E-05 -1.16160289133E-05 -5.49715517879E-01 +7.89653793259E-01
1.24000000000E+09 -3.65713111934E-01 +8.56034629123E-01 +9.41511892028E-06 -5.64958953287E-06 -1.92546766279E-05 -6.64637763937E-06 -5.43739416482E-01 +7.93562223410E-01
1.24500000000E+09 -3.55958800050E-01 +8.60034460620E-01 +3.14259979558E-06 +5.30624631487E-06 -2.56519028536E-06 -6.35568403382E-06 -5.37492966382E-01 +7.97342373800E-01
1.25000000000E+09 -3.47553598576E-01 +8.63429774389E-01 +6.11707643750E-06 -3.95664993608E-05 -4.74419741348E-05 -2.82565925002E-05 -5.30854940481E-01 +8.01420549775E-01
1.25500000000E+09 -3.40631416336E-01 +8.65704803100E-01 -5.28542070570E-05 -2.02319429267E-05 -5.14301984189E-05 +4.76188132726E-05 -5.23932808305E-01 +8.05589817595E-01
1.26000000000E+09 -3.35219235646E-01 +8.67559367677E-01 -2.30213817088E-05 +2.23053062334E-05 -1.36687762520E-05 +2.82265448668E-05 -5.17313269490E-01 +8.09890728129E-01
1.26500000000E+09 -3.30444278809E-01 +8.68833046327E-01 -3.57594976866E-05 +9.90264969516E-09 -5.73181936460E-05 -2.86880333851E-05 -5.10332552578E-01 +8.13600174847E-01
1.27000000000E+09 -3.25485027179E-01 +8.69635292749E-01 -5.15115805942E-05 +1.52583528296E-05 -4.32743057465E-05 +1.87411401293E-06 -5.03646316571E-01 +8.17217868898E-01
1.27500000000E+09 -3.19296367061E-01 +8.70774260194E-01 -9.64890600727E-05 +9.76289406759E-06 -5.84672902209E-05 +1.14762775589E-05 -4.96635650190E-01 +8.20926064729E-01
1.28000000000E+09 -3.11171376031E-01 +8.72292538642E-01 -7.41720861035E-05 +4.56392352542E-05 -9.95162217892E-05 +2.36740459237E-05 -4.89557994439E-01 +8.24310401544E-01
1.28500000000E+09 -3.00852431440E-01 +8.74259437974E-01 -1.03722485841E-04 +5.83197234553E-05 -6.54658686195E-05 +4.04120273402E-05 -4.82317704864E-01 +8.28020558967E-01
1.29000000000E+09 -2.89176530893E-01 +8.76679627587E-01 -4.42228050161E-05 +7.92587343889E-05 -6.21453605381E-05 +2.02182626346E-05 -4.74817885409E-01 +8.31651546227E-01
1.29500000000E+09 -2.76695160068E-01 +8.79660986521E-01 -6.11256831446E-05 +3.70442672511E-05 -2.60133229226E-06 +7.64644653718E-05 -4.66918534118E-01 +8.35145500729E-01
1.30000000000E+09 -2.64372332353E-01 +8.82911095708E-01 -1.73980947302E-05 +6.26330687327E-05 -2.97631757283E-05 +3.89747098599E-05 -4.59243976065E-01 +8.38655452580E-01
1.30500000000E+09 -2.52797074572E-01 +8.85887664981E-01 -6.00692250110E-05 +7.59756531543E-05 -4.06391784896E-05 +1.11580469397E-04 -4.51125703063E-01 +8.42071846437E-01
1.31000000000E+09 -2.42868204691E-01 +8.88187906811E-01 -5.30929765960E-05 +1.11436453909E-04 -2.69800913263E-05 +5.87828291166E-05 -4.42827639315E-01 +8.45501273001E-01
1.31500000000E+09 -2.34944783815E-01 +8.89674449167E-01 +2.41951240500E-05 +6.59689702989E-05 +5.36515243739E-06 +8.42744041278E-05 -4.34166013036E-01 +8.49004742485E-01
1.32000000000E+09 -2.28617248556E-01 +8.90285827587E-01 +3.52961244079E-05 +7.28871112481E-05 +1.22355960398E-05 +4.87568114789E-05 -4.25119946357E-01 +8.52381638105E-01
1.32500000000E+09 -2.22834322167E-01 +8.90125348296E-01 -1.29555948435E-05 +3.78508625120E-05 -1.23024067825E-05 +9.72454736117E-05 -4.15498749223E-01 +8.55769359586E-01
1.33000000000E+09 -2.16204321628E-01 +8.89693971054E-01 -2.57700967377E-05 +9.96757564138E-05 +1.71816062742E-06 +1.05156466878E-04 -4.06001496585E-01 +8.59126054360E-01
1.33500000000E+09 -2.07891164342E-01 +8.88952914320E-01 +3.32324039654E-05 +1.21459902622E-04 +3.72965471860E-05 +1.32385865931E-04 -3.96095902699E-01 +8.62373424479E-01
1.34000000000E+09 -1.97016011623E-01 +8.88247933515E-01 +3.58630901136E-05 +1.46521884626E-04 +5.73449620795E-05 +9.30127769205E-05 -3.85980150405E-01 +8.65813326740E-01
1.34500000000E+09 -1.83656562028E-01 +8.87869434981E-01 +9.07884873717E-05 +8.45259119303E-05 +5.79415407227E-05 +2.52138829394E-05 -3.75079362023E-01 +8.69069407451E-01
1.35000000000E+09 -1.68112166147E-01 +8.87874192266E-01 +1.10684797291E-05 +8.54353038774E-05 +7.51142297962E-05 +5.81572871134E-05 -3.64089094778E-01 +8.72177773556E-01
1.35500000000E+09 -1.51133972870E-01 +8.88270968479E-01 +2.13043686499E-05 +8.50324040854E-05 +2.22381142193E-05 +7.52976893489E-05 -3.52488813341E-01 +8.75096073288E-01
1.36000000000E+09 -1.34528428793E-01 +8.88799815523E-01 +4.20215121001E-05 +7.45676773948E-05 +5.19040738590E-05 +1.04419926347E-04 -3.40515014435E-01 +8.77835429512E-01
1.36500000000E+09 -1.18308897525E-01 +8.89540334185E-01 -3.70176308308E-06 +1.02699885337E-04 -1.10114571364E-05 +1.16811224849E-04 -3.28442957340E-01 +8.80311495279E-01
1.37000000000E+09 -1.03951666264E-01 +8.89663938321E-01 +5.76598698960E-05 +1.22328059378E-04 +6.20961624390E-05 +1.20823595882E-04 -3.15577346091E-01 +8.82673019667E-01
1.37500000000E+09 -9.17901052372E-02 +8.89463188678E-01 +6.40111132122E-05 +1.43450476464E-04 +8.23070930979E-05 +1.45740499225E-04 -3.01836141425E-01 +8.84925003798E-01
1.38000000000E+09 -8.08416349243E-02 +8.88616247187E-01 +1.79067895831E-04 +1.49139568221E-04 +1.74318413240E-04 +1.83016226096E-04 -2.87296238372E-01 +8.86980687584E-01
1.38500000000E+09 -6.99906001437E-02 +8.87277283297E-01 +2.00720908707E-04 +1.09991253348E-04 +2.32139406382E-04 +1.29958745888E-04 -2.71747476462E-01 +8.88961929176E-01
1.39000000000E+09 -5.83810633306E-02 +8.84996501163E-01 +1.90559171317E-04 +8.07451674711E-05 +1.82811298780E-04 +1.27924272283E-04 -2.55790398169E-01 +8.90344245104E-01
1.39500000000E+09 -4.46802727296E-02 +8.81785359161E-01 +2.56533330713E-04 +5.75522562761E-05 +3.01072346308E-04 +4.67338697387E-05 -2.38993320418E-01 +8.91137466876E-01
1.40000000000E+09 -2.83172265940E-02 +8.77630242585E-01 +2.23814662691E-04 -2.73303020225E-05 +2.52813765406E-04 -7.64778034603E-06 -2.21430587126E-01 +8.91624951792E-01
1.40500000000E+09 -9.65002568040E-03 +8.72822633361E-01 +1.93036912869E-04 -8.12308631802E-05 +1.83221602877E-04 -4.84361155691E-05 -2.02666189636E-01 +8.91525529898E-01
1.41000000000E+09 +1.11292314878E-02 +8.67426635633E-01 +1.52016589345E-04 +2.22205137021E-05 +1.35435167082E-04 -1.05968768499E-05 -1.82330941571E-01 +8.90662187211E-01
1.41500000000E+09 +3.33118079814E-02 +8.61891326814E-01 +2.03348050825E-04 +2.94450583347E-05 +2.21601260329E-04 +2.04784993907E-05 -1.60704003282E-01 +8.88940398934E-01
1.42000000000E+09 +5.61610893598E-02 +8.55697935726E-01 +2.74956329080E-04 +1.69546515931E-05 +2.82091729756E-04 +7.19037282772E-05 -1.37636622221E-01 +8.86183168707E-01
1.42500000000E+09 +7.82195563161E-02 +8.48590838832E-01 +3.78051559319E-04 -1.26082796602E-04 +3.70860353739E-04 -1.18975536059E-04 -1.14050876014E-01 +8.82473237670E-01
1.43000000000E+09 +9.90256498912E-02 +8.40367846176E-01 +2.55940270674E-04 -1.59931949747E-04 +2.48775564616E-04 -1.84380840673E-04 -8.91688672288E-02 +8.77593032983E-01
1.43500000000E+09 +1.18801879448E-01 +8.30807445963E-01 +2.31694921949E-04 -2.02036638888E-04 +2.17047360166E-04 -1.95820842493E-04 -6.28737536550E-02 +8.70735152623E-01
1.44000000000E+09 +1.38456272913E-01 +8.20018613062E-01 +2.02354676496E-04 -1.21214998325E-04 +1.57183297069E-04 -1.81655695735E-04 -3.48768779574E-02 +8.61738827058E-01
1.44500000000E+09 +1.59504508398E-01 +8.06443904859E-01 +2.37232014235E-04 -5.47716372118E-05 +2.51415021718E-04 -8.32388180403E-05 -4.90751077187E-03 +8.50119278016E-01
1.45000000000E+09 +1.82916076948E-01 +7.89401958938E-01 +3.92544752549E-04 -1.38575142685E-04 +3.95907905581E-04 -1.59559605052E-04 +2.69718595275E-02 +8.35464379773E-01
1.45500000000E+09 +2.08957902399E-01 +7.68164164703E-01 +3.61153114853E-04 -2.26133225428E-04 +3.15765797953E-04 -2.36707013980E-04 +6.02516392132E-02 +8.17388799819E-01
1.46000000000E+09 +2.37864792256E-01 +7.42444153590E-01 +5.11963253283E-04 -2.50384374985E-04 +4.62874807253E-04 -2.98887532663E-04 +9.47296303156E-02 +7.94879431392E-01
1.46500000000E+09 +2.68609111904E-01 +7.11695414887E-01 +4.74909448122E-04 -6.29123341923E-04 +3.97665497115E-04 -6.04994954529E-04 +1.29940967591E-01 +7.68012435923E-01
1.47000000000E+09 +3.00835518940E-01 +6.76479915173E-01 +4.43807911186E-04 -5.78061894514E-04 +3.96323236943E-04 -4.89936619801E-04 +1.66765407678E-01 +7.34145928112E-01
1.47500000000E+09 +3.32766719687E-01 +6.35566610007E-01 +2.91324625479E-04 -8.54569871332E-04 +3.23443840354E-04 -8.09081189450E-04 +2.03332760274E-01 +6.92771613577E-01
1.48000000000E+09 +3.62079038806E-01 +5.88949907506E-01 +2.03148846025E-04 -8.00069623949E-04 +2.49554450135E-04 -8.14013666523E-04 +2.39014601445E-01 +6.42910459221E-01
1.48500000000E+09 +3.87268210595E-01 +5.36126053859E-01 +4.38621741419E-04 -9.04228604671E-04 +4.29577517085E-04 -9.55429403639E-04 +2.71971389464E-01 +5.83822065218E-01
1.49000000000E+09 +4.06741619648E-01 +4.76462249686E-01 +6.04153666508E-04 -1.48802872010E-03 +4.88156067422E-04 -1.49256895995E-03 +2.98658115182E-01 +5.14242609836E-01
1.49500000000E+09 +4.18562867449E-01 +4.08441356449E-01 +5.55902467437E-05 -2.36536592275E-03 +3.20770861500E-06 -2.32971266894E-03 +3.15376741472E-01 +4.35427574743E-01
1.50000000000E+09 +4.19827053317E-01 +3.31575395431E-01 -1.29387481743E-03 -2.87118780265E-03 -1.22753490433E-03 -2.69371544126E-03 +3.19417019105E-01 +3.47245437763E-01
1.50500000000E+09 +4.08743891368E-01 +2.47393000273E-01 -2.65153726071E-03 -2.16171966716E-03 -2.46901619904E-03 -2.21840586988E-03 +3.06681355574E-01 +2.52272001681E-01
1.51000000000E+09 +3.82556176117E-01 +1.56783624680E-01 -3.31283232262E-03 -1.11585439193E-03 -3.30590961263E-03 -1.27678453133E-03 +2.73335430250E-01 +1.54318611635E-01
1.51500000000E+09 +3.37302472546E-01 +6.36107981050E-02 -3.72418934475E-03 -2.50099066314E-04 -3.84115547101E-03 -3.49973687980E-04 +2.19102727656E-01 +5.94869590771E-02
1.52000000000E+09 +2.70981990580E-01 -2.38628437775E-02 -3.83543805565E-03 +1.53115870014E-03 -3.93501850556E-03 +1.50513273670E-03 +1.42725856681E-01 -2.39506858780E-02
1.52500000000E+09 +1.85628438025E-01 -9.83896103229E-02 -2.33800773217E-03 +1.94816800401E-03 -2.41558883154E-03 +1.95498253891E-03 +4.90677378771E-02 -8.91257666952E-02
1.53000000000E+09 +8.31280670693E-02 -1.51617007987E-01 -2.36023069490E-03 +2.03423932984E-03 -2.34239050371E-03 +2.06964764401E-03 -5.43585212509E-02 -1.31618402050E-01
1.53500000000E+09 -2.76082552299E-02 -1.78658379817E-01 -2.66444423892E-03 +3.10820534986E-03 -2.64303522484E-03 +3.12402786390E-03 -1.62870082184E-01 -1.51448179158E-01
1.54000000000E+09 -1.39676855289E-01 -1.79022465596E-01 -1.26563521572E-03 +4.65511048781E-03 -1.24964575810E-03 +4.56772265159E-03 -2.68371807553E-01 -1.49108019012E-01
1.54500000000E+09 -2.46453275060E-01 -1.55508601030E-01 +8.67905816662E-04 +4.87206903862E-03 +8.21184319443E-04 +4.78654030770E-03 -3.65562594214E-01 -1.26550732563E-01
1.55000000000E+09 -3.43776018771E-01 -1.12538927205E-01 +2.52286380173E-03 +3.42858218179E-03 +2.41986933784E-03 +3.50211095990E-03 -4.48696078432E-01 -9.02582057218E-02
1.55500000000E+09 -4.26032330367E-01 -5.50663521319E-02 +2.65980127070E-03 +2.27613364112E-03 +2.67062294548E-03 +2.46962703998E-03 -5.18314729046E-01 -4.51251215596E-02
1.56000000000E+09 -4.91869707255E-01 +8.20063690090E-03 +2.97080158236E-03 +1.37920420332E-03 +3.07891824379E-03 +1.55296103204E-03 -5.75189310275E-01 +6.40676531900E-03
1.56500000000E+09 -5.42734453380E-01 +7.23855431509E-02 +2.78250324404E-03 +5.67778078994E-04 +2.97129277005E-03 +6.77216987013E-04 -6.19508616726E-01 +6.06139837413E-02
1.57000000000E+09 -5.81103166023E-01 +1.34241400592E-01 +2.57998290396E-03 -6.30414202081E-05 +2.73630302161E-03 -8.09627827955E-05 -6.53322189414E-01 +1.14353711504E-01
