# Hz S RI R 50
! CMT, C1220, 16058040, 17.2.0/1
! Date: 14/08/2018 12:57:19
! Data: Format (Calibration Info)
! Freq                      S11: Re/Im (F2)                       S21: Re/Im (F2)                       S12: Re/Im (F2)                       S22: Re/Im (F2)            
1.00000000000E+09 -6.46920454271E-01 +7.12229409249E-01 +3.01698253413E-05 +3.92616675637E-05 -4.87269896379E-05 +9.60153983837E-06 -7.19008121996E-01 +6.45649221689E-01
1.00500000000E+09 -6.40455747776E-01 +7.16975578917E-01 +3.04625180810E-05 -1.31464885447E-05 +2.09398675829E-06 +6.27748254624E-05 -7.15278910766E-01 +6.49638590106E-01
1.01000000000E+09 -6.34414869686E-01 +7.21316004189E-01 -1.74188131825E-05 +2.36435992774E-06 +1.68061496471E-05 +1.58525726702E-05 -7.11549622954E-01 +6.53239266851E-01
1.01500000000E+09 -6.29745620236E-01 +7.25140925740E-01 -7.36455342034E-06 +1.00871208310E-05 -2.98611185842E-05 +1.71572797449E-05 -7.08241347088E-01 +6.56686423223E-01
1.02000000000E+09 -6.25867427322E-01 +7.28577426364E-01 +3.61394450103E-05 -1.04823761103E-06 -1.86054058283E-05 +5.22707284360E-06 -7.04682265666E-01 +6.60062716708E-01
1.02500000000E+09 -6.22240652774E-01 +7.31803326172E-01 -8.44603978866E-08 +1.65130758806E-05 -2.15431912829E-05 +5.53623106086E-06 -7.01713448851E-01 +6.63449644995E-01
1.03000000000E+09 -6.19279193771E-01 +7.34886628760E-01 -2.38137541960E-05 +3.16917368284E-06 +1.95621981613E-05 -3.78501534646E-05 -6.97979682882E-01 +6.67300301770E-01
1.03500000000E+09 -6.15601069633E-01 +7.37715303869E-01 +8.92778173218E-06 +9.79520068576E-06 +1.24628429331E-05 +4.95693389659E-05 -6.93927176053E-01 +6.71252294879E-01
1.04000000000E+09 -6.11080953343E-01 +7.41059244320E-01 +4.72550136223E-05 +6.97213684900E-05 +3.59534613235E-06 +5.31252599974E-05 -6.89803042620E-01 +6.74665089368E-01
1.04500000000E+09 -6.05333049953E-01 +7.44605820103E-01 +3.06606710415E-05 +2.11297903021E-05 +1.09987453410E-05 -1.39779778932E-05 -6.86211632835E-01 +6.78125435390E-01
1.05000000000E+09 -5.98547333768E-01 +7.48593312878E-01 +1.21080276200E-05 -2.13303454666E-05 +4.11651688920E-05 +3.23001035003E-05 -6.82670531674E-01 +6.81308439687E-01
1.05500000000E+09 -5.91039992001E-01 +7.53148383830E-01 +2.45584761106E-05 +5.29499747728E-05 -3.77806481937E-05 +1.96057146628E-05 -6.79205981734E-01 +6.84833885389E-01
1.06000000000E+09 -5.82981971629E-01 +7.57695181270E-01 -5.19012214557E-06 +1.96004854901E-05 +3.00003131582E-05 +2.85531372157E-05 -6.75695601430E-01 +6.88695039743E-01
1.06500000000E+09 -5.75145040135E-01 +7.62223583326E-01 +1.28778893046E-05 -2.59600215644E-05 -2.46686256180E-05 +4.93724869956E-05 -6.71632663623E-01 +6.92348889595E-01
1.07000000000E+09 -5.67996087433E-01 +7.66237713047E-01 +1.21661329338E-05 +1.03088391474E-05 +2.91535484624E-05 +7.88677212507E-05 -6.67363833158E-01 +6.95833262678E-01
1.07500000000E+09 -5.61858653016E-01 +7.70107507118E-01 -3.02078032582E-05 +1.81493913530E-05 +5.21625890463E-05 +3.26912659634E-06 -6.62656732740E-01 +6.99447202630E-01
1.08000000000E+09 -5.56995596640E-01 +7.73367758490E-01 +5.78028547519E-05 +8.44149566369E-05 +3.24401102001E-05 +3.88597760998E-05 -6.58781628536E-01 +7.03116428411E-01
1.08500000000E+09 -5.53223785638E-01 +7.75915577373E-01 +3.35922145941E-05 +4.85446166826E-05 +2.08171224445E-05 +7.43244108841E-05 -6.54804771717E-01 +7.06461834563E-01
1.09000000000E+09 -5.49834424142E-01 +7.78206872298E-01 +3.89769282480E-05 +4.98610214813E-05 +7.45271922909E-05 +6.03244003368E-05 -6.50966260370E-01 +7.10255595086E-01
1.09500000000E+09 -5.46950698066E-01 +7.80385381569E-01 +3.41378965614E-05 +4.16948836998E-05 +7.44149169373E-06 +3.41604010011E-05 -6.47013361368E-01 +7.13835328749E-01
1.10000000000E+09 -5.43336332773E-01 +7.82613873463E-01 +7.66125630434E-05 +2.67264757437E-05 +4.97757316467E-05 +5.88763837958E-05 -6.42721709967E-01 +7.17471580345E-01
1.10500000000E+09 -5.39091496087E-01 +7.85226969714E-01 +2.31030697652E-05 +4.94218873565E-05 +6.04193644538E-05 +4.37832996855E-05 -6.38244744347E-01 +7.20906488958E-01
1.11000000000E+09 -5.33776020185E-01 +7.88223843222E-01 +3.88911897278E-05 +2.20817935187E-05 +8.10121819012E-05 +2.63631810473E-05 -6.34011476636E-01 +7.24020519040E-01
1.11500000000E+09 -5.27440754258E-01 +7.91725892085E-01 +8.27387090750E-05 +3.00380266444E-05 +2.40744528659E-05 +1.74095917566E-05 -6.29860230522E-01 +7.27203057822E-01
1.12000000000E+09 -5.20409742042E-01 +7.95316748530E-01 +5.18763720542E-05 +5.07910505226E-05 +1.04475827595E-04 +2.39361134278E-05 -6.25781165710E-01 +7.30746494194E-01
1.12500000000E+09 -5.12914748681E-01 +7.98824923888E-01 +4.36935379188E-05 +1.95457822717E-05 +5.51817971401E-05 +1.65200550928E-05 -6.21083741572E-01 +7.34412520265E-01
1.13000000000E+09 -5.05701669808E-01 +8.02073625792E-01 +8.69882208321E-05 +1.82244484314E-05 +1.01699374781E-04 +4.95202126631E-05 -6.16710109161E-01 +7.37905789869E-01
1.13500000000E+09 -4.98812405237E-01 +8.04684595641E-01 +1.12622259743E-04 -4.04929600131E-05 +3.76044839860E-05 +7.10583759758E-06 -6.11788448789E-01 +7.41623972126E-01
1.14000000000E+09 -4.92545368875E-01 +8.06858847937E-01 +1.10431648168E-04 +8.12719367123E-06 +4.08552094881E-05 -2.64715555077E-05 -6.07056927652E-01 +7.44895737448E-01
1.14500000000E+09 -4.87062887240E-01 +8.08582030482E-01 +8.56525876753E-05 +1.93271815338E-06 +9.58603679324E-05 -1.33308468018E-05 -6.02049358178E-01 +7.48228229052E-01
1.15000000000E+09 -4.81962859798E-01 +8.10267016656E-01 +8.41365472868E-05 -2.54784912841E-05 +1.10889586235E-04 +2.39233270250E-05 -5.97379627847E-01 +7.51913164703E-01
1.15500000000E+09 -4.77032968052E-01 +8.12016875697E-01 +9.41549886569E-05 +1.96926974975E-05 +8.28569248530E-05 -4.17047217913E-05 -5.92381690703E-01 +7.55365918997E-01
1.16000000000E+09 -4.71748585936E-01 +8.13970858507E-01 +8.07263344988E-05 -2.20005145057E-05 +1.14305792778E-04 -5.54978609751E-05 -5.87536864529E-01 +7.58985954019E-01
1.16500000000E+09 -4.65800041989E-01 +8.16486027615E-01 +9.18025698830E-05 -4.07305084046E-05 +1.43415678099E-04 -7.39542783576E-05 -5.82289766335E-01 +7.62484688071E-01
1.17000000000E+09 -4.59429235226E-01 +8.19357083657E-01 +8.38206552106E-05 -8.56947947042E-06 +4.60447256042E-05 -3.91255780994E-05 -5.76605962788E-01 +7.65597380398E-01
1.17500000000E+09 -4.52260093956E-01 +8.22329562071E-01 +1.21025942560E-04 -8.32331062194E-05 +1.50519037860E-04 -9.63885071863E-05 -5.70972746552E-01 +7.68547929328E-01
1.18000000000E+09 -4.44838848371E-01 +8.25446297984E-01 +1.35950104646E-04 -5.45516827722E-05 +1.25519441585E-04 -9.10701319824E-05 -5.65419152133E-01 +7.71471249865E-01
1.18500000000E+09 -4.37197835171E-01 +8.28406951718E-01 +1.31496748988E-04 -1.59179119441E-04 +1.72023243006E-04 -1.56143467614E-04 -5.59682733081E-01 +7.74164215964E-01
1.19000000000E+09 -4.29413009034E-01 +8.30714409832E-01 +8.81790136875E-05 -1.20234497446E-04 +9.38410737375E-05 -1.65710389535E-04 -5.53384037064E-01 +7.76397502818E-01
1.19500000000E+09 -4.22177190346E-01 +8.32576879716E-01 +1.03134112974E-04 -2.49731815439E-04 +7.89603928359E-05 -2.18763056095E-04 -5.47626797722E-01 +7.77420704127E-01
1.20000000000E+09 -4.15306314078E-01 +8.33525845100E-01 +2.91494979127E-05 -2.73778990691E-04 -3.19715944769E-05 -3.33013326091E-04 -5.42960487755E-01 +7.77557985068E-01
1.20500000000E+09 -4.08524536919E-01 +8.34711664323E-01 -8.99510883670E-05 -2.28799249377E-04 -9.77031214809E-05 -2.44405398255E-04 -5.40400188114E-01 +7.78373636299E-01
1.21000000000E+09 -4.01931143138E-01 +8.35813222255E-01 -1.05652302918E-04 -1.69948645667E-04 -1.11597282408E-04 -1.12392445972E-04 -5.38218042595E-01 +7.81376807917E-01
1.21500000000E+09 -3.94798267588E-01 +8.37406125896E-01 -8.11144815849E-05 -1.16799628156E-04 -3.42870603919E-05 -1.10493795316E-04 -5.35170947669E-01 +7.85758156026E-01
1.22000000000E+09 -3.86948265250E-01 +8.39344587248E-01 -4.54491203702E-05 -1.50784260277E-04 -3.02741265063E-05 -1.32213312516E-04 -5.30791815576E-01 +7.91015321867E-01
1.22500000000E+09 -3.78898439461E-01 +8.41656481004E-01 -3.59948442891E-05 -1.48048912541E-04 -3.71210152019E-05 -1.71748787508E-04 -5.25434122649E-01 +7.95757442144E-01
1.23000000000E+09 -3.70238494107E-01 +8.44415735673E-01 -4.08337959921E-05 -1.68850967434E-04 -8.29184245197E-05 -1.89526242449E-04 -5.19654701395E-01 +7.99995799682E-01
1.23500000000E+09 -3.61950512924E-01 +8.47560438853E-01 -5.91766376036E-05 -1.57653796842E-04 -9.66409257265E-05 -1.98249112606E-04 -5.13809949991E-01 +8.04072410263E-01
1.24000000000E+09 -3.53621429995E-01 +8.50621018595E-01 -7.52324072277E-05 -1.90707313171E-04 -6.46371355300E-05 -1.44305167987E-04 -5.07709756061E-01 +8.07545566297E-01
1.24500000000E+09 -3.45966857912E-01 +8.53939345786E-01 -1.03018838668E-04 -1.54591275377E-04 -1.02538503249E-04 -1.95926977034E-04 -5.01339669164E-01 +8.11047783736E-01
1.25000000000E+09 -3.38261465137E-01 +8.56485409029E-01 -1.62662035865E-04 -1.69923207638E-04 -1.12777107633E-04 -1.85630139184E-04 -4.94807154853E-01 +8.15093413711E-01
1.25500000000E+09 -3.30847093282E-01 +8.58210208685E-01 -1.21178796781E-04 -1.93118744493E-04 -1.25496317604E-04 -1.91304826039E-04 -4.88035776056E-01 +8.18511519715E-01
1.26000000000E+09 -3.23201501584E-01 +8.59400977133E-01 -1.75674166376E-04 -1.94640322545E-04 -1.63237698945E-04 -2.48775384805E-04 -4.81351726077E-01 +8.22631831319E-01
1.26500000000E+09 -3.15628113911E-01 +8.59958363725E-01 -2.15230739848E-04 -2.17056354753E-04 -2.54601748632E-04 -2.59140051486E-04 -4.74370561785E-01 +8.25933056347E-01
1.27000000000E+09 -3.07513055185E-01 +8.60239127927E-01 -2.61508039291E-04 -2.11104807702E-04 -2.63733827820E-04 -2.04393702478E-04 -4.67404363538E-01 +8.29463206038E-01
1.27500000000E+09 -2.98329043535E-01 +8.60750702291E-01 -3.50115967145E-04 -1.88252520692E-04 -2.96776940451E-04 -2.42295375485E-04 -4.60285186113E-01 +8.32695201394E-01
1.28000000000E+09 -2.88274878484E-01 +8.61584988943E-01 -3.70853503357E-04 -1.44665365567E-04 -3.79555934323E-04 -2.08966142513E-04 -4.53232899693E-01 +8.35957205218E-01
1.28500000000E+09 -2.77260877147E-01 +8.62952923866E-01 -3.60871623362E-04 -1.24103530469E-04 -4.19854861436E-04 -1.09645952927E-04 -4.45577581034E-01 +8.39364416467E-01
1.29000000000E+09 -2.66252768044E-01 +8.64566725876E-01 -3.98867250434E-04 -8.86054323008E-05 -4.29498120738E-04 -7.93049388966E-05 -4.38030330511E-01 +8.42762203372E-01
1.29500000000E+09 -2.55634503551E-01 +8.66785369062E-01 -4.58235137091E-04 -1.20976570144E-04 -5.16444939196E-04 -8.34884527133E-05 -4.30216213642E-01 +8.45912533161E-01
1.30000000000E+09 -2.45489473717E-01 +8.69489175199E-01 -5.02617314403E-04 -8.58437956683E-05 -5.21361823766E-04 -2.04697289659E-05 -4.22529771946E-01 +8.49012188730E-01
1.30500000000E+09 -2.36021605487E-01 +8.72332131445E-01 -5.45948207184E-04 -2.74252865855E-05 -5.15822998323E-04 -1.62783215300E-05 -4.14448983366E-01 +8.52139013777E-01
1.31000000000E+09 -2.27157717637E-01 +8.74460696677E-01 -6.54326070669E-04 +1.44832076792E-04 -6.28240920355E-04 +8.92637455683E-05 -4.06086000386E-01 +8.55128369106E-01
1.31500000000E+09 -2.19175332109E-01 +8.75760268377E-01 -6.06132660656E-04 +2.24861577822E-04 -5.77897306156E-04 +2.03160908972E-04 -3.97336962589E-01 +8.58341264135E-01
1.32000000000E+09 -2.11631896198E-01 +8.76045534398E-01 -5.73644604040E-04 +2.89467011110E-04 -5.90488429544E-04 +3.00986834537E-04 -3.88339403815E-01 +8.61450787236E-01
1.32500000000E+09 -2.04086291638E-01 +8.75437528023E-01 -5.58030499022E-04 +3.19882892671E-04 -6.12380688153E-04 +3.30435010931E-04 -3.78970084045E-01 +8.64110799934E-01
1.33000000000E+09 -1.95594376385E-01 +8.74794372284E-01 -6.00461383767E-04 +3.74878511106E-04 -6.53502901816E-04 +4.35173610445E-04 -3.69672202672E-01 +8.67003981889E-01
1.33500000000E+09 -1.85964815314E-01 +8.73753772848E-01 -6.28284987571E-04 +4.61232841165E-04 -5.71520705222E-04 +5.39183050879E-04 -3.60085663057E-01 +8.69929315608E-01
1.34000000000E+09 -1.74637985758E-01 +8.73107297234E-01 -5.76049212641E-04 +6.21830417614E-04 -5.57681770619E-04 +6.27800113630E-04 -3.50024640151E-01 +8.72756464325E-01
1.34500000000E+09 -1.61883481157E-01 +8.72491490774E-01 -5.21998116144E-04 +7.42540670256E-04 -4.85375956916E-04 +6.92436686468E-04 -3.39261982507E-01 +8.75537551480E-01
1.35000000000E+09 -1.47715418717E-01 +8.72416076686E-01 -4.80380284218E-04 +7.93311745313E-04 -4.32752883348E-04 +7.84251938639E-04 -3.28349656791E-01 +8.78122376516E-01
1.35500000000E+09 -1.33004805284E-01 +8.72730713430E-01 -4.64487324670E-04 +8.65915109934E-04 -3.91662355917E-04 +8.41803111102E-04 -3.16960536522E-01 +8.80448608920E-01
1.36000000000E+09 -1.17954743144E-01 +8.73217876927E-01 -3.73266646701E-04 +9.86234697846E-04 -3.62097937946E-04 +9.46903418276E-04 -3.05341906837E-01 +8.82597590889E-01
1.36500000000E+09 -1.02853737744E-01 +8.73354279660E-01 -3.72165562134E-04 +1.08657924594E-03 -2.95244333871E-04 +1.04735287070E-03 -2.93562496485E-01 +8.84684629339E-01
1.37000000000E+09 -8.84969381537E-02 +8.72367553187E-01 -2.16392834970E-04 +1.28935819243E-03 -3.09337832527E-04 +1.15636993316E-03 -2.80999270634E-01 +8.86464058010E-01
1.37500000000E+09 -7.53649437315E-02 +8.70580086880E-01 -4.80256663339E-05 +1.38304791932E-03 -1.58914919316E-04 +1.30028898189E-03 -2.67589984409E-01 +8.88321943245E-01
1.38000000000E+09 -6.31195508126E-02 +8.67980300326E-01 +9.33221723757E-05 +1.40603839213E-03 -6.84091467005E-05 +1.45416256072E-03 -2.53302073110E-01 +8.89919134058E-01
1.38500000000E+09 -5.06127221994E-02 +8.64680163696E-01 +2.43771094155E-04 +1.50666453112E-03 +1.22681674887E-04 +1.72819804213E-03 -2.38374186481E-01 +8.91283856663E-01
1.39000000000E+09 -3.80805130685E-02 +8.60751060038E-01 +3.89319040022E-04 +1.60188643692E-03 +4.48859124994E-04 +1.85280702848E-03 -2.22862775220E-01 +8.92305188040E-01
1.39500000000E+09 -2.41990779391E-02 +8.56657120393E-01 +5.77386033537E-04 +1.72421264782E-03 +7.97558113674E-04 +1.84564380601E-03 -2.06903571173E-01 +8.92545291461E-01
1.40000000000E+09 -8.76586194149E-03 +8.51960727925E-01 +8.34452900560E-04 +1.90228574334E-03 +1.04720280107E-03 +1.87368314246E-03 -1.90109348974E-01 +8.92403430943E-01
1.40500000000E+09 +7.79819281573E-03 +8.47091821307E-01 +1.34509051896E-03 +2.07372846408E-03 +1.42161554865E-03 +1.93061047318E-03 -1.72135136500E-01 +8.91732611240E-01
1.41000000000E+09 +2.53055187814E-02 +8.42410880612E-01 +1.82672571454E-03 +1.86397496002E-03 +1.74182858677E-03 +1.81759085554E-03 -1.52898137031E-01 +8.90545842181E-01
1.41500000000E+09 +4.43469805315E-02 +8.37750243034E-01 +2.11943372139E-03 +1.67615211067E-03 +2.11782115725E-03 +1.81186348694E-03 -1.31843337887E-01 +8.88447118651E-01
1.42000000000E+09 +6.48255383586E-02 +8.32125711797E-01 +2.38924078577E-03 +1.53611581419E-03 +2.61152816157E-03 +1.73741686357E-03 -1.10024027073E-01 +8.85420306728E-01
1.42500000000E+09 +8.60122909270E-02 +8.24894886332E-01 +2.79590082572E-03 +1.41013022709E-03 +3.13346497737E-03 +1.43339959120E-03 -8.72767336279E-02 +8.81161203925E-01
1.43000000000E+09 +1.07287619576E-01 +8.15166189725E-01 +3.24202240994E-03 +1.34467489110E-03 +3.63596768378E-03 +1.18338917708E-03 -6.35531536269E-02 +8.76044091884E-01
1.43500000000E+09 +1.28191224168E-01 +8.03027450014E-01 +4.13657094660E-03 +9.25420461147E-04 +4.35025306735E-03 +5.89100894123E-04 -3.84153321270E-02 +8.68988407607E-01
1.44000000000E+09 +1.49584320689E-01 +7.89212484643E-01 +4.80309684531E-03 -5.96083565555E-05 +4.78787397847E-03 -3.29321566524E-04 -1.16663706780E-02 +8.59769526479E-01
1.44500000000E+09 +1.72210650120E-01 +7.72794116918E-01 +4.84802027334E-03 -1.00058307384E-03 +4.83728227141E-03 -1.26681384944E-03 +1.69872326908E-02 +8.48039840666E-01
1.45000000000E+09 +1.95836840946E-01 +7.53537312047E-01 +4.81386271751E-03 -1.70851709392E-03 +4.82852099837E-03 -1.98942464272E-03 +4.71257205293E-02 +8.33371102935E-01
1.45500000000E+09 +2.20904445725E-01 +7.31835288223E-01 +5.04718939007E-03 -2.26533139713E-03 +4.84561159810E-03 -2.73380714140E-03 +7.83635085935E-02 +8.16034230159E-01
1.46000000000E+09 +2.47397812513E-01 +7.07412587359E-01 +5.38392649202E-03 -3.23681875130E-03 +4.81802288700E-03 -3.58763079047E-03 +1.11473536117E-01 +7.94801776381E-01
1.46500000000E+09 +2.75252762901E-01 +6.80333801523E-01 +5.52675607130E-03 -4.49569215288E-03 +4.82822189227E-03 -4.45956470688E-03 +1.45634198283E-01 +7.68405970136E-01
1.47000000000E+09 +3.04986775446E-01 +6.49418572463E-01 +5.58814936042E-03 -6.36129410345E-03 +5.15023958966E-03 -5.79830105109E-03 +1.80588928181E-01 +7.35464608117E-01
1.47500000000E+09 +3.34999554404E-01 +6.12270617834E-01 +4.47976431410E-03 -8.57218639497E-03 +4.67046452515E-03 -8.06455464783E-03 +2.14986913346E-01 +6.94943964349E-01
1.48000000000E+09 +3.62625397241E-01 +5.67970973078E-01 +2.83447827626E-03 -1.00509001507E-02 +3.16630932225E-03 -1.00295410311E-02 +2.49000121955E-01 +6.47145578472E-01
1.48500000000E+09 +3.86105667407E-01 +5.15560699327E-01 +1.22026067275E-03 -1.14908448118E-02 +1.08214450807E-03 -1.17500850734E-02 +2.80555573305E-01 +5.90322566848E-01
1.49000000000E+09 +4.03403915029E-01 +4.55037206738E-01 -1.33618269826E-03 -1.31408604921E-02 -1.97197359813E-03 -1.30753004591E-02 +3.07226946922E-01 +5.23589763001E-01
1.49500000000E+09 +4.13443028891E-01 +3.86725812950E-01 -5.15422344420E-03 -1.40980963792E-02 -5.49089946056E-03 -1.32772734941E-02 +3.24607811403E-01 +4.46335916547E-01
1.50000000000E+09 +4.14129493703E-01 +3.09201349235E-01 -9.29072475257E-03 -1.34840994259E-02 -8.68400806888E-03 -1.27151709815E-02 +3.29156534272E-01 +3.59557566470E-01
1.50500000000E+09 +4.01512753928E-01 +2.23717883638E-01 -1.36238903529E-02 -1.18717329710E-02 -1.26628597009E-02 -1.18173771795E-02 +3.16849511723E-01 +2.65252896441E-01
1.51000000000E+09 +3.73476857410E-01 +1.34124955759E-01 -1.73920423102E-02 -8.12284505137E-03 -1.68857182807E-02 -8.77113936353E-03 +2.84275778134E-01 +1.66439479878E-01
1.51500000000E+09 +3.26032129977E-01 +4.36816802016E-02 -2.02141804254E-02 -3.96349941196E-03 -2.02724211500E-02 -4.55342393985E-03 +2.27528790672E-01 +7.17593054709E-02
1.52000000000E+09 +2.57945005128E-01 -3.77842280863E-02 -2.21876919982E-02 +1.64842141252E-03 -2.25080171572E-02 +1.42674740811E-03 +1.49715819742E-01 -1.01394518853E-02
1.52500000000E+09 +1.72570275368E-01 -1.04893164970E-01 -2.20317499709E-02 +9.63649772312E-03 -2.23039143349E-02 +9.65199272333E-03 +5.65911859535E-02 -7.47079455754E-02
1.53000000000E+09 +7.29189141471E-02 -1.52414178004E-01 -1.69002008345E-02 +1.59517118657E-02 -1.70787442829E-02 +1.60866946988E-02 -5.20090146123E-02 -1.16947413325E-01
1.53500000000E+09 -3.53037153604E-02 -1.76167401178E-01 -1.15784705046E-02 +1.94454933688E-02 -1.15610214600E-02 +1.94160214334E-02 -1.62284781471E-01 -1.32314512664E-01
1.54000000000E+09 -1.47290122372E-01 -1.74326210174E-01 -5.54574493209E-03 +2.11526070301E-02 -5.57716736021E-03 +2.08978077286E-02 -2.70177142480E-01 -1.25439740283E-01
1.54500000000E+09 -2.52450605909E-01 -1.47189031665E-01 +8.65091966752E-04 +2.12040342115E-02 +4.61773283060E-04 +2.09318204519E-02 -3.67300162550E-01 -9.75113670237E-02
1.55000000000E+09 -3.44915938617E-01 -1.02702423820E-01 +6.02765479369E-03 +1.81984487948E-02 +5.26562743156E-03 +1.83591601216E-02 -4.49215721088E-01 -5.56283465791E-02
1.55500000000E+09 -4.21554468465E-01 -4.59919799194E-02 +9.30706204719E-03 +1.50967109619E-02 +8.78304886005E-03 +1.58640692708E-02 -5.16138084437E-01 -5.59118034683E-03
1.56000000000E+09 -4.81689425846E-01 +1.37520256627E-02 +1.19213592789E-02 +1.14857990596E-02 +1.19825831487E-02 +1.24348688967E-02 -5.69086660908E-01 +4.93055403910E-02
1.56500000000E+09 -5.29332847628E-01 +7.41148324278E-02 +1.26442305249E-02 +7.41705230108E-03 +1.32774061322E-02 +8.05820840024E-03 -6.10167087085E-01 +1.05911105170E-01
1.57000000000E+09 -5.65267023553E-01 +1.34067758158E-01 +1.23427010699E-02 +4.46083037781E-03 +1.31684919928E-02 +4.68285273429E-03 -6.40095578374E-01 +1.62028356005E-01
