# Hz S RI R 50
! CMT, C1220, 16058040, 17.2.0/1
! Date: 14/08/2018 11:48:47
! Data: Format (Calibration Info)
! Freq                      S11: Re/Im (F2)                       S21: Re/Im (F2)                       S12: Re/Im (F2)                       S22: Re/Im (F2)            
1.00000000000E+09 -6.47756708009E-01 +7.14966521064E-01 -6.39649480355E-05 +4.27989686708E-06 -4.18207327264E-05 +4.16686070767E-05 -7.55243115746E-01 +6.24275650809E-01
1.00500000000E+09 -6.40746567301E-01 +7.20086403749E-01 -2.37225131700E-05 +5.69786139944E-05 +9.68555750469E-07 +9.14862177370E-06 -7.51479711911E-01 +6.28565047947E-01
1.01000000000E+09 -6.34334758635E-01 +7.24685498775E-01 +1.49369863636E-05 +1.22551683491E-05 -3.00781457523E-05 -1.17473528463E-05 -7.47831252202E-01 +6.32231398357E-01
1.01500000000E+09 -6.29781543989E-01 +7.28418446601E-01 +2.04505085059E-06 +5.31549313592E-05 +1.37178366929E-05 +1.78014841294E-05 -7.44545704067E-01 +6.36105216397E-01
1.02000000000E+09 -6.25969732212E-01 +7.31642041696E-01 -9.25673514007E-06 +3.03887168658E-05 +5.61001154647E-06 -1.34923742244E-05 -7.41047528886E-01 +6.39627551379E-01
1.02500000000E+09 -6.23268399629E-01 +7.34458440281E-01 -6.45801540472E-05 +2.83944871627E-05 +3.89267385097E-06 +3.57105963357E-05 -7.38071685232E-01 +6.43297978936E-01
1.03000000000E+09 -6.20958747605E-01 +7.36763981222E-01 +2.60021866032E-06 -1.29631864672E-05 -3.07138701312E-05 +4.23866159005E-05 -7.34709981794E-01 +6.47202802653E-01
1.03500000000E+09 -6.17812748307E-01 +7.39143614437E-01 +1.93010867178E-05 -4.89598932268E-07 +1.34293051800E-05 +5.41837257954E-05 -7.30999857169E-01 +6.51091837412E-01
1.04000000000E+09 -6.13698817274E-01 +7.42201495417E-01 +1.90617048971E-05 +1.15675909479E-05 +1.03501914911E-05 +3.72089026514E-05 -7.27307542996E-01 +6.54768448700E-01
1.04500000000E+09 -6.08218472505E-01 +7.45552149157E-01 +2.84245782235E-06 +3.95260796188E-05 -2.47511705110E-05 -3.12852005527E-05 -7.23799379181E-01 +6.58400906046E-01
1.05000000000E+09 -6.01170145671E-01 +7.49922744432E-01 -1.19825568025E-05 +7.68873466060E-05 +1.55952943563E-05 +1.90383422474E-05 -7.20215280481E-01 +6.61913126802E-01
1.05500000000E+09 -5.93008064936E-01 +7.54451555580E-01 +1.50560020054E-05 +1.54059878618E-05 +1.96902312675E-05 +9.78496536768E-06 -7.17024169532E-01 +6.65379615486E-01
1.06000000000E+09 -5.84386757979E-01 +7.59495530537E-01 +3.32302082277E-05 +5.08101957737E-05 +2.94143392673E-05 +2.69692337559E-05 -7.13680591109E-01 +6.69142700331E-01
1.06500000000E+09 -5.76286355892E-01 +7.64607508419E-01 -5.69307984279E-06 +1.97761637968E-05 -1.45814090115E-05 -3.15443433465E-05 -7.10046677170E-01 +6.72847086528E-01
1.07000000000E+09 -5.69066975795E-01 +7.68667600428E-01 +3.83418389272E-05 +9.57101098868E-06 +2.28392912534E-06 +4.26256529029E-05 -7.06097914657E-01 +6.76641936643E-01
1.07500000000E+09 -5.63449098640E-01 +7.72444878778E-01 +1.99024748171E-05 -2.22094756102E-05 +5.31768672682E-05 +5.27734489644E-05 -7.01702466305E-01 +6.80226515145E-01
1.08000000000E+09 -5.59516358616E-01 +7.75501369298E-01 +2.33202290518E-05 -6.56206730324E-06 -1.25898226853E-05 -3.42441123487E-05 -6.97794078139E-01 +6.84154843114E-01
1.08500000000E+09 -5.56766575821E-01 +7.77768505238E-01 +1.07657388048E-05 +2.87633537611E-05 -4.47175222128E-05 +2.71192290204E-05 -6.93741842626E-01 +6.87837628139E-01
1.09000000000E+09 -5.54577639454E-01 +7.79687718207E-01 +1.34005378493E-05 +4.51159761810E-05 +3.11460178564E-05 +1.47606553006E-05 -6.89740578257E-01 +6.91796912571E-01
1.09500000000E+09 -5.52716957672E-01 +7.81442335102E-01 +5.55222312135E-05 -4.62063985031E-05 +1.47208385574E-05 +5.22185449642E-05 -6.85949502219E-01 +6.95671121701E-01
1.10000000000E+09 -5.49521776364E-01 +7.83332179566E-01 +4.02285678284E-05 +6.33326816438E-06 +5.74713708101E-06 +5.13183086814E-05 -6.82006807685E-01 +6.99442580263E-01
1.10500000000E+09 -5.45306816157E-01 +7.85972230215E-01 +2.07468414470E-05 +3.28983915641E-06 +9.36383238277E-06 +1.45859999836E-05 -6.77814422470E-01 +7.03083611222E-01
1.11000000000E+09 -5.39372275996E-01 +7.88969588466E-01 +2.59617312947E-05 +3.65289538936E-05 +9.11319734605E-06 +2.88231655627E-05 -6.73538950926E-01 +7.06446648310E-01
1.11500000000E+09 -5.32207649622E-01 +7.92834402407E-01 +4.74108299473E-05 -2.66677454189E-05 +2.62632985210E-05 -1.43382807566E-05 -6.69408883075E-01 +7.10031411912E-01
1.12000000000E+09 -5.24492062332E-01 +7.96801673188E-01 +1.13772852650E-05 +2.13328366514E-06 +7.00558368562E-05 -1.75157945725E-05 -6.65358367957E-01 +7.13681099363E-01
1.12500000000E+09 -5.16696839071E-01 +8.00768452418E-01 +5.50415664363E-05 +8.11264860953E-06 +2.08874342989E-05 -9.44196484913E-06 -6.60949318644E-01 +7.17624574190E-01
1.13000000000E+09 -5.09491362973E-01 +8.04391719738E-01 -1.28907599815E-05 -8.63805813520E-07 +2.90354527872E-05 +1.98396682181E-06 -6.56816105262E-01 +7.21386424069E-01
1.13500000000E+09 -5.03320411546E-01 +8.07178717728E-01 +5.64989119565E-05 +6.45228377176E-07 +3.80502501611E-05 -1.13678383054E-05 -6.52406416525E-01 +7.25241783729E-01
1.14000000000E+09 -4.98113200050E-01 +8.09757131861E-01 -2.62374523633E-05 -5.10068924374E-05 +1.19632373126E-06 -9.88611136969E-06 -6.47665459727E-01 +7.28701452996E-01
1.14500000000E+09 -4.93960032879E-01 +8.11417235131E-01 -8.42771429545E-06 -6.54215373072E-06 +6.98705439827E-05 +2.20708136176E-05 -6.43193753695E-01 +7.32064368868E-01
1.15000000000E+09 -4.90027877694E-01 +8.13137597258E-01 +2.78568561332E-05 -1.05612845213E-05 +2.69404614272E-05 +1.08710891009E-05 -6.38271176668E-01 +7.35932186612E-01
1.15500000000E+09 -4.86049592994E-01 +8.14671603330E-01 +4.44021032190E-05 -3.79518889589E-05 +4.41714528076E-05 +1.40171154070E-05 -6.33541822596E-01 +7.39887129591E-01
1.16000000000E+09 -4.81086986286E-01 +8.16661441177E-01 +1.57188712612E-05 -2.24059910414E-05 -2.30650556148E-06 -1.51301863996E-05 -6.28651881776E-01 +7.43636019318E-01
1.16500000000E+09 -4.75050896943E-01 +8.19268409428E-01 -2.53689723972E-05 -4.82807831241E-06 +1.90560611605E-05 -2.80701220963E-05 -6.23624710092E-01 +7.47325325914E-01
1.17000000000E+09 -4.67793231376E-01 +8.22471533510E-01 +1.51789036006E-05 -3.12229013860E-06 +9.31134504291E-05 -2.18268260063E-05 -6.18178566204E-01 +7.50663009271E-01
1.17500000000E+09 -4.59768204677E-01 +8.25626411311E-01 +8.96331421391E-06 -4.12746937460E-05 +1.84349378307E-05 -9.31666323333E-05 -6.12501667164E-01 +7.53968727237E-01
1.18000000000E+09 -4.51483185990E-01 +8.29231543652E-01 +6.88538631993E-05 -2.78028079993E-05 +1.55086229288E-05 -3.41538149063E-05 -6.07046445170E-01 +7.57076807596E-01
1.18500000000E+09 -4.43385738673E-01 +8.32514831362E-01 +8.36406689927E-05 -6.05157330822E-05 +2.37139808852E-05 -7.62083377022E-05 -6.00800269398E-01 +7.60189973827E-01
1.19000000000E+09 -4.35936188113E-01 +8.35158975773E-01 +1.87019876628E-05 -9.74754550898E-05 +3.22774650290E-06 -7.19158780401E-05 -5.94567418864E-01 +7.62983845716E-01
1.19500000000E+09 -4.29638505841E-01 +8.37102711813E-01 +4.77672925915E-05 -1.05625622728E-04 +5.14221602908E-05 -1.68739855882E-04 -5.88651757664E-01 +7.64308580760E-01
1.20000000000E+09 -4.24441763771E-01 +8.38117719452E-01 -3.02567683300E-05 -1.41462479000E-04 -4.59394545566E-05 -1.18403637700E-04 -5.84081165214E-01 +7.64557642925E-01
1.20500000000E+09 -4.19909006362E-01 +8.39099475182E-01 -1.39521342056E-04 -7.43132237547E-05 -1.37133566142E-04 -5.65752788792E-05 -5.81777735259E-01 +7.65154474079E-01
1.21000000000E+09 -4.15073174717E-01 +8.40314197153E-01 -1.11811990165E-04 -3.91565656705E-05 -8.68667638187E-05 -1.99570563998E-05 -5.79884028646E-01 +7.68159845325E-01
1.21500000000E+09 -4.09211228694E-01 +8.41789541906E-01 -7.57121791836E-05 -5.92990338515E-06 -5.64952278898E-05 -5.70224107058E-06 -5.77255329058E-01 +7.72558609832E-01
1.22000000000E+09 -4.01979598445E-01 +8.43620708408E-01 -4.94497852519E-05 +9.85237756093E-06 -5.28772241987E-05 +2.03005463251E-05 -5.73134426153E-01 +7.77974756832E-01
1.22500000000E+09 -3.93621323920E-01 +8.46145778294E-01 -1.08877310991E-05 +2.90489429354E-05 +2.02493352035E-05 +1.11644063444E-05 -5.67976777546E-01 +7.83193184893E-01
1.23000000000E+09 -3.84184365314E-01 +8.49160337835E-01 +1.93160997691E-05 -2.74191514814E-05 -1.80614137378E-05 -7.12852905984E-06 -5.62168503245E-01 +7.87922220228E-01
1.23500000000E+09 -3.74414382200E-01 +8.52384993841E-01 +8.13705256137E-06 -3.57282259027E-05 -1.87339060495E-05 +1.16896209665E-05 -5.56355036561E-01 +7.92320121053E-01
1.24000000000E+09 -3.64804915743E-01 +8.55966989571E-01 -2.19820681513E-06 -4.47491814223E-05 -3.34899382464E-05 -3.62308130564E-05 -5.50494399353E-01 +7.96241352797E-01
1.24500000000E+09 -3.56212843237E-01 +8.59727855403E-01 -6.87025307516E-05 -2.88904290651E-05 -2.11493154077E-05 -3.55856424585E-05 -5.44098087808E-01 +8.00239775181E-01
1.25000000000E+09 -3.48445866584E-01 +8.62753502391E-01 -6.70236458076E-05 -3.66356962530E-05 -3.35816149042E-05 -1.75439563126E-05 -5.37442878444E-01 +8.04343197279E-01
1.25500000000E+09 -3.41604084004E-01 +8.64923241169E-01 -2.09029945017E-05 -3.62117878895E-05 -8.28113252055E-05 -3.16179905007E-05 -5.30515641563E-01 +8.08395074330E-01
1.26000000000E+09 -3.35545820185E-01 +8.66357066146E-01 -1.55157193840E-05 -1.07325087593E-05 -8.56668477061E-05 -2.42328746039E-05 -5.23756981050E-01 +8.12780854001E-01
1.26500000000E+09 -3.29551608145E-01 +8.66936730007E-01 -5.47927421964E-05 -3.20353123551E-05 -2.86625344025E-05 -5.62712533474E-05 -5.16681527797E-01 +8.16502110292E-01
1.27000000000E+09 -3.23178589601E-01 +8.67574719141E-01 -1.94954712634E-05 -3.50970763229E-05 -5.89793251338E-06 +1.90875018192E-06 -5.09932637098E-01 +8.20673569293E-01
1.27500000000E+09 -3.15409012345E-01 +8.68156427086E-01 -6.08397891321E-05 -2.26983052161E-05 -2.20697379450E-05 -6.53935433985E-05 -5.02882666339E-01 +8.24050858703E-01
1.28000000000E+09 -3.05896689870E-01 +8.69130489191E-01 -7.80622485378E-05 -1.96581717578E-06 -7.43742200832E-05 +7.70852831673E-06 -4.95890891963E-01 +8.27633715057E-01
1.28500000000E+09 -2.94554357750E-01 +8.70632706815E-01 -8.23762355291E-05 +3.52838560027E-05 -9.27827413577E-05 -3.41711949125E-05 -4.88612702001E-01 +8.31297291002E-01
1.29000000000E+09 -2.82219988496E-01 +8.72661278713E-01 -6.37701025449E-05 +4.78051146682E-05 -7.85008297103E-05 +5.09633741788E-06 -4.80857203884E-01 +8.35073484754E-01
1.29500000000E+09 -2.69712586448E-01 +8.75613514436E-01 -6.70506960542E-05 +1.96232966213E-06 -4.19044411076E-05 +1.63523579545E-05 -4.72845919061E-01 +8.38558104006E-01
1.30000000000E+09 -2.57734257889E-01 +8.78964107001E-01 -7.15999803786E-05 -1.00132758485E-06 -9.58306930425E-05 -6.69711143606E-06 -4.64903964532E-01 +8.42339393365E-01
1.30500000000E+09 -2.47021966493E-01 +8.82253156537E-01 -1.50208021958E-04 +3.28351063139E-05 -4.62458998865E-05 +4.32769579232E-05 -4.56907534761E-01 +8.45824051712E-01
1.31000000000E+09 -2.37654495005E-01 +8.85005339775E-01 -9.35983759776E-05 +7.77669079861E-05 -1.31432390776E-04 +6.52098567976E-05 -4.48481980780E-01 +8.49258790349E-01
1.31500000000E+09 -2.30102495483E-01 +8.86743576217E-01 -7.70363904293E-05 +1.35749580819E-04 -1.07919080490E-04 +1.01414860528E-04 -4.39667302625E-01 +8.52650013087E-01
1.32000000000E+09 -2.23740980304E-01 +8.87466714609E-01 -7.30526230016E-05 +7.14634228353E-05 -6.39374181021E-05 +1.04773772017E-04 -4.30397803758E-01 +8.56117831908E-01
1.32500000000E+09 -2.18048978366E-01 +8.87223704142E-01 -8.99264068980E-05 +9.84712145035E-05 -9.92045378075E-05 +1.07440679542E-04 -4.20747880794E-01 +8.59492418973E-01
1.33000000000E+09 -2.11561693859E-01 +8.86797059908E-01 -5.87286208433E-05 +1.15302877964E-04 -3.70987803383E-05 +1.61311684958E-04 -4.10793849063E-01 +8.62984697512E-01
1.33500000000E+09 -2.03202070657E-01 +8.85712463292E-01 -3.11310680178E-05 +1.26223358931E-04 -3.07531579153E-05 +1.57603802417E-04 -4.00815362830E-01 +8.66158731780E-01
1.34000000000E+09 -1.92478503373E-01 +8.84922886085E-01 -3.79095948493E-05 +8.57404680942E-05 -1.98748076190E-05 +1.09900283800E-04 -3.90570291680E-01 +8.69549153441E-01
1.34500000000E+09 -1.79286722898E-01 +8.84525690682E-01 -7.25162412929E-05 +1.13805949133E-04 -6.78073073864E-06 +1.69913651436E-04 -3.79618848590E-01 +8.72835296119E-01
1.35000000000E+09 -1.64245690710E-01 +8.84379295733E-01 -5.29244808615E-05 +1.94319720956E-04 +1.54840697637E-05 +1.63734382407E-04 -3.68385266737E-01 +8.75959080447E-01
1.35500000000E+09 -1.47851774555E-01 +8.84695187698E-01 -2.33463041678E-05 +1.67770743281E-04 +3.83401701707E-05 +1.82829455046E-04 -3.56632933877E-01 +8.78681678065E-01
1.36000000000E+09 -1.31361893404E-01 +8.85409856111E-01 -3.57424354462E-05 +1.93245546044E-04 +1.82111469418E-05 +1.91033279699E-04 -3.44593179229E-01 +8.81445063040E-01
1.36500000000E+09 -1.15526335863E-01 +8.85787623761E-01 -1.29980827601E-05 +2.68451478809E-04 +2.36772458913E-05 +2.79677248081E-04 -3.32364943936E-01 +8.83836963757E-01
1.37000000000E+09 -1.01430852427E-01 +8.85627441712E-01 +7.88606039331E-05 +2.54182559414E-04 +8.65864167126E-05 +2.77279093423E-04 -3.19385690319E-01 +8.86234084249E-01
1.37500000000E+09 -8.93768894115E-02 +8.85102539263E-01 +2.44526627099E-04 +2.41465723750E-04 +2.06513452040E-04 +2.75533957685E-04 -3.05588312490E-01 +8.88341718583E-01
1.38000000000E+09 -7.86996213144E-02 +8.83747840565E-01 +1.97728133148E-04 +8.40395516864E-05 +1.83796133635E-04 +1.70870660814E-04 -2.91072993017E-01 +8.90350407698E-01
1.38500000000E+09 -6.78926589716E-02 +8.81712728935E-01 +1.88962775971E-04 +1.89678271992E-04 +1.74876195415E-04 +2.14939958534E-04 -2.75561905849E-01 +8.91975068201E-01
1.39000000000E+09 -5.63559529901E-02 +8.78697050313E-01 +1.72811296771E-04 +1.65240579911E-04 +2.27884480229E-04 +2.34285394657E-04 -2.59598503086E-01 +8.93391558840E-01
1.39500000000E+09 -4.29652198906E-02 +8.74922187752E-01 +2.26196755247E-04 +1.96901837233E-04 +2.67839138877E-04 +2.10748245929E-04 -2.42770661323E-01 +8.94039819795E-01
1.40000000000E+09 -2.69818207214E-02 +8.70085230399E-01 +3.47454788689E-04 +2.60612176968E-04 +3.54470968944E-04 +2.14117118543E-04 -2.25072999713E-01 +8.94581187301E-01
1.40500000000E+09 -8.85590148580E-03 +8.64625438913E-01 +5.40161229075E-04 +1.60561574827E-04 +5.15767162561E-04 +7.19529350026E-05 -2.06172748349E-01 +8.94185173439E-01
1.41000000000E+09 +1.14319684217E-02 +8.59088687554E-01 +5.14514382078E-04 -2.50030045711E-05 +5.38776951877E-04 -5.34546792660E-05 -1.86234496538E-01 +8.93192506197E-01
1.41500000000E+09 +3.32629749654E-02 +8.53086104321E-01 +4.66640110691E-04 -9.56711683259E-05 +4.75876728875E-04 -1.06845217839E-04 -1.64718007858E-01 +8.91566335963E-01
1.42000000000E+09 +5.59590363517E-02 +8.46921013401E-01 +4.72361043322E-04 -2.32416657350E-04 +5.11520500403E-04 -2.36026485800E-04 -1.41937972507E-01 +8.88854945919E-01
1.42500000000E+09 +7.86813442367E-02 +8.39228526941E-01 +3.09757301145E-04 -3.37559374754E-04 +3.78349182531E-04 -3.67694227883E-04 -1.18470869639E-01 +8.85155990949E-01
1.43000000000E+09 +1.00324924655E-01 +8.30022421420E-01 +3.12215217410E-04 -1.93421807082E-04 +3.18615526537E-04 -3.17321229824E-04 -9.34153929846E-02 +8.80396725946E-01
1.43500000000E+09 +1.20835235422E-01 +8.19084289883E-01 +4.11823190118E-04 -3.29193381706E-04 +4.38253587987E-04 -3.82008835154E-04 -6.73440674587E-02 +8.73560918643E-01
1.44000000000E+09 +1.41259641560E-01 +8.06259754437E-01 +4.10042707213E-04 -4.49547025961E-04 +3.61701766183E-04 -4.61111948380E-04 -3.92867318720E-02 +8.64902530802E-01
1.44500000000E+09 +1.62074922490E-01 +7.90951521093E-01 +3.50224716989E-04 -6.57436379745E-04 +3.30254749335E-04 -7.18272751096E-04 -9.27345251397E-03 +8.53418043366E-01
1.45000000000E+09 +1.84591099936E-01 +7.72434298091E-01 +6.27715349556E-05 -8.07198447598E-04 -2.03909762698E-05 -8.24642382572E-04 +2.21859648143E-02 +8.38764708202E-01
1.45500000000E+09 +2.08735729438E-01 +7.50536675455E-01 -1.62620796412E-04 -7.29469538716E-04 -2.62795499005E-04 -7.24359568288E-04 +5.53021508758E-02 +8.20783855126E-01
1.46000000000E+09 +2.35233093837E-01 +7.25100673660E-01 -4.14173170768E-04 -5.99927381261E-04 -4.20361587606E-04 -5.87081602366E-04 +8.94125647909E-02 +7.98955075576E-01
1.46500000000E+09 +2.63661751361E-01 +6.95751364217E-01 -4.73959901720E-04 -1.89650756067E-04 -4.55316379834E-04 -1.09585929248E-04 +1.25166813667E-01 +7.72563702282E-01
1.47000000000E+09 +2.92509141686E-01 +6.61749272245E-01 +1.67580693926E-05 -1.40855134683E-04 -1.73164002877E-06 -1.16583236530E-04 +1.61715422679E-01 +7.39509256220E-01
1.47500000000E+09 +3.20826816724E-01 +6.23348358639E-01 -8.79598012112E-06 -4.28402557697E-04 +5.82198873269E-05 -4.63808413713E-04 +1.98845675726E-01 +6.99375061453E-01
1.48000000000E+09 +3.46678513732E-01 +5.79329678728E-01 -2.23047531670E-04 -6.88126062198E-04 -2.36033373290E-04 -6.78600327404E-04 +2.35184491076E-01 +6.50567597229E-01
1.48500000000E+09 +3.68127820874E-01 +5.29828103134E-01 -3.76823315082E-04 -6.30157178553E-04 -4.02009888834E-04 -6.73420365160E-04 +2.69159529738E-01 +5.92378912828E-01
1.49000000000E+09 +3.84561374691E-01 +4.73431188692E-01 -7.98389623900E-04 -5.25133522481E-04 -8.36265240093E-04 -5.37234439418E-04 +2.97168229602E-01 +5.23994329160E-01
1.49500000000E+09 +3.94023223884E-01 +4.09589285002E-01 -9.52677128443E-04 -3.07023149864E-04 -9.14560073254E-04 -2.81096285515E-04 +3.16817333520E-01 +4.45527293762E-01
1.50000000000E+09 +3.94674761874E-01 +3.36605465595E-01 -7.57387336246E-04 +1.60928555835E-04 -7.30158531144E-04 +1.84565472383E-04 +3.23299852736E-01 +3.56872776901E-01
1.50500000000E+09 +3.82679533345E-01 +2.55730256874E-01 -3.45358884086E-04 +2.85834678598E-04 -3.32970954061E-04 +2.84954552888E-04 +3.12511260407E-01 +2.60348879825E-01
1.51000000000E+09 +3.55629199392E-01 +1.69716995319E-01 -3.03705639357E-04 -5.39612754906E-04 -2.71033630005E-04 -4.96719806032E-04 +2.80884463236E-01 +1.61723508617E-01
1.51500000000E+09 +3.12301436446E-01 +8.28849553714E-02 -1.14129529651E-03 -4.92875619068E-04 -1.09982812159E-03 -4.73749155444E-04 +2.29697611342E-01 +6.56580633063E-02
1.52000000000E+09 +2.49084778334E-01 +8.32553654778E-04 -1.51146231044E-03 +6.14618812322E-05 -1.50867639033E-03 -1.98689891516E-05 +1.55952009724E-01 -2.20041657172E-02
1.52500000000E+09 +1.69484827834E-01 -6.68556918697E-02 -1.53635429309E-03 +9.38033988365E-04 -1.57974871163E-03 +9.74115073485E-04 +6.23400621356E-02 -9.17329015887E-02
1.53000000000E+09 +7.63302222792E-02 -1.17113754745E-01 -1.23985175325E-03 +1.56267591532E-03 -1.20595932682E-03 +1.54565377246E-03 -4.19537529964E-02 -1.38331198386E-01
1.53500000000E+09 -2.59945039514E-02 -1.45412421684E-01 +3.55733106713E-04 +1.95364168357E-03 +3.39032619114E-04 +1.95019620961E-03 -1.51874909194E-01 -1.62918318589E-01
1.54000000000E+09 -1.32773370570E-01 -1.47858939580E-01 +2.96934489631E-04 +8.21862990029E-04 +2.30679606966E-04 +8.74389274376E-04 -2.62523980061E-01 -1.62688312882E-01
1.54500000000E+09 -2.34540052898E-01 -1.26186697253E-01 +2.91197890596E-04 +1.12079229256E-03 +2.99422715097E-04 +1.10260511928E-03 -3.62162332330E-01 -1.41326924223E-01
1.55000000000E+09 -3.25729849023E-01 -8.63570349348E-02 +5.87306580777E-04 +6.64247810318E-04 +5.55935500355E-04 +7.21600072583E-04 -4.49628848515E-01 -1.05821575405E-01
1.55500000000E+09 -4.03004056846E-01 -3.52452630114E-02 +2.91644995635E-04 +5.46602256240E-04 +2.38526139558E-04 +6.27014989321E-04 -5.22978590529E-01 -5.88586467118E-02
1.56000000000E+09 -4.66517899013E-01 +2.12482670249E-02 +4.68438373758E-04 +1.17364550650E-03 +4.38357249355E-04 +1.22472050348E-03 -5.81507352966E-01 -6.00729290172E-03
1.56500000000E+09 -5.16986825746E-01 +7.90194432631E-02 +1.29420098728E-03 +8.87278393892E-04 +1.33891072035E-03 +1.02353980120E-03 -6.27221731040E-01 +4.97869554721E-02
1.57000000000E+09 -5.55660462466E-01 +1.35155265550E-01 +1.72761688871E-03 -1.79542668400E-04 +1.92461733011E-03 -1.94050052560E-04 -6.61910630250E-01 +1.04412429637E-01
