# Hz S RI R 50
! CMT, C1220, 16058040, 17.2.0/1
! Date: 14/08/2018 11:49:26
! Data: Format (Calibration Info)
! Freq                      S11: Re/Im (F2)                       S21: Re/Im (F2)                       S12: Re/Im (F2)                       S22: Re/Im (F2)            
1.00000000000E+09 -6.48310430122E-01 +7.14861715480E-01 -2.54742046090E-05 -8.61804951700E-06 -4.03482805320E-05 -1.72443671531E-05 -7.55172953967E-01 +6.24181910395E-01
1.00500000000E+09 -6.41139727960E-01 +7.19803957047E-01 -9.12865776355E-06 +1.04175778630E-05 -3.16081047244E-06 -6.00437308418E-06 -7.51604092616E-01 +6.28251341825E-01
1.01000000000E+09 -6.34995342251E-01 +7.24361624152E-01 +1.71802937349E-05 +1.87026268966E-05 +1.80759867655E-05 -3.53432240823E-05 -7.48037675267E-01 +6.32112550128E-01
1.01500000000E+09 -6.30257362820E-01 +7.28292384673E-01 -3.16424043137E-05 +2.75985314208E-05 -3.70499924259E-06 -2.40117410726E-06 -7.44605206866E-01 +6.36062156532E-01
1.02000000000E+09 -6.26730972465E-01 +7.31462332385E-01 +7.23117727297E-06 +2.16680929481E-05 +1.14343432268E-05 +5.18505711675E-05 -7.41062965087E-01 +6.39706243659E-01
1.02500000000E+09 -6.23921307118E-01 +7.34243251579E-01 +1.86094502747E-05 -2.55377216588E-05 -2.39768842153E-05 +7.43864796181E-05 -7.38277740788E-01 +6.43384175248E-01
1.03000000000E+09 -6.21663312456E-01 +7.36677877172E-01 +2.47197457235E-05 +1.25300882585E-05 +1.43703985177E-06 +2.46976848796E-06 -7.34761532356E-01 +6.47281312840E-01
1.03500000000E+09 -6.18763361698E-01 +7.39039692245E-01 -1.27748120092E-05 -2.66791252381E-05 -8.61901211373E-06 -2.42081519325E-05 -7.30950896537E-01 +6.50999484990E-01
1.04000000000E+09 -6.14526343756E-01 +7.41908527264E-01 +1.46847146009E-05 -6.67946294200E-06 +4.33898073572E-05 -8.48033269620E-05 -7.27379916291E-01 +6.54714171593E-01
1.04500000000E+09 -6.09102048277E-01 +7.45430079422E-01 -1.10097921520E-05 +5.33075925259E-06 -6.81589650192E-06 +5.44649076352E-05 -7.23820044365E-01 +6.58325501110E-01
1.05000000000E+09 -6.02020133909E-01 +7.49583412459E-01 -2.68097230208E-06 +3.69659812841E-05 -4.80611482726E-06 +6.53115575626E-05 -7.20380910156E-01 +6.61730166699E-01
1.05500000000E+09 -5.93763087688E-01 +7.54082114166E-01 -2.09128732288E-05 -1.28833887184E-05 -6.77239104182E-07 -8.91146157565E-06 -7.17000058264E-01 +6.65172534980E-01
1.06000000000E+09 -5.85286673971E-01 +7.59283207565E-01 +1.37020861768E-06 -6.95994776284E-06 +3.88040380393E-06 +6.51034972877E-05 -7.13762628640E-01 +6.69062935295E-01
1.06500000000E+09 -5.77192404511E-01 +7.64136467056E-01 +1.92498973698E-05 +1.44602991221E-05 -3.39372426630E-05 +2.39190401938E-05 -7.10174994177E-01 +6.72804309186E-01
1.07000000000E+09 -5.70120416352E-01 +7.68570379104E-01 +3.94157715506E-05 +1.18797853782E-06 +2.47250301183E-05 +7.22083800056E-05 -7.06239254940E-01 +6.76387940815E-01
1.07500000000E+09 -5.64541413911E-01 +7.72183817531E-01 -2.38880065782E-05 +1.08079742133E-05 +3.49391573210E-05 +9.60028395523E-05 -7.01873791775E-01 +6.80132700683E-01
1.08000000000E+09 -5.60365361573E-01 +7.75331547096E-01 +1.20376066613E-05 +9.60765694206E-06 +2.68243938814E-05 +2.31502971771E-06 -6.97852183484E-01 +6.84123876081E-01
1.08500000000E+09 -5.57820348635E-01 +7.77559016884E-01 -2.00700581636E-06 +4.16395289061E-05 +4.39445866777E-05 +2.72034873281E-05 -6.93800959101E-01 +6.87730026905E-01
1.09000000000E+09 -5.55633246659E-01 +7.79359736660E-01 +2.12526738730E-05 +5.05483098356E-05 +1.42113350007E-05 +2.16020212171E-05 -6.89855496023E-01 +6.91951703453E-01
1.09500000000E+09 -5.53707673915E-01 +7.81053486210E-01 -1.76459486088E-05 +1.34689976594E-05 +3.18187640049E-05 +1.12469220377E-05 -6.86069552342E-01 +6.95722362727E-01
1.10000000000E+09 -5.50637502078E-01 +7.83019554625E-01 +4.71635617723E-05 -1.77757390102E-05 -5.63990779239E-06 -2.22496079059E-06 -6.82289253492E-01 +6.99440992104E-01
1.10500000000E+09 -5.46345015131E-01 +7.85595015055E-01 +1.56341706673E-05 +2.19455824873E-05 +9.70114127572E-06 +4.38642465509E-06 -6.78036289652E-01 +7.03042204039E-01
1.11000000000E+09 -5.40561590388E-01 +7.88768064520E-01 +2.20653408280E-05 +9.18035125050E-06 +2.60703622758E-05 +1.20634283364E-05 -6.73700023155E-01 +7.06519055978E-01
1.11500000000E+09 -5.33388870730E-01 +7.92509076271E-01 +5.91199055587E-05 +9.52510856636E-06 +2.50221332826E-05 -8.84706215291E-06 -6.69512882883E-01 +7.09857817300E-01
1.12000000000E+09 -5.25783425635E-01 +7.96426400913E-01 -1.48801575668E-05 -2.67820153182E-06 +2.31085954080E-05 -9.70430671642E-06 -6.65383094331E-01 +7.13598797774E-01
1.12500000000E+09 -5.17878812981E-01 +8.00441732159E-01 +3.01529319779E-05 -7.14400661080E-06 +1.04512557766E-05 -1.50234216157E-05 -6.61209707277E-01 +7.17712363718E-01
1.13000000000E+09 -5.10673883903E-01 +8.04113190916E-01 +3.27977953350E-05 +9.86710502606E-06 +2.58260350024E-05 -1.51013079277E-05 -6.56864344091E-01 +7.21399638382E-01
1.13500000000E+09 -5.04483810115E-01 +8.06865464209E-01 -4.85632333353E-06 -1.93754113507E-05 +9.05741389088E-06 -2.15957501029E-05 -6.52436583803E-01 +7.25177731651E-01
1.14000000000E+09 -4.99358648866E-01 +8.09418477552E-01 +4.16403763091E-05 -2.40701412609E-06 +2.18784650070E-05 +8.23422837563E-06 -6.47816016212E-01 +7.28605547950E-01
1.14500000000E+09 -4.95324430078E-01 +8.11141603939E-01 +5.86495782188E-05 +1.19565043886E-05 +4.36934275408E-05 +1.76548058736E-05 -6.43131949726E-01 +7.32028428292E-01
1.15000000000E+09 -4.91539822479E-01 +8.12696778366E-01 +4.50372423715E-05 +1.22565570804E-05 +4.07493713350E-05 -3.10832752057E-06 -6.38577245613E-01 +7.35974596204E-01
1.15500000000E+09 -4.87422117129E-01 +8.14381252924E-01 +1.56215693568E-05 +3.17951448147E-06 +4.99331204786E-05 -6.11886098911E-05 -6.33649643450E-01 +7.39691023023E-01
1.16000000000E+09 -4.82558213760E-01 +8.16436857800E-01 +1.89164082879E-05 -2.27064152849E-05 +1.70500187743E-06 -7.43261719090E-06 -6.28857308822E-01 +7.43630582883E-01
1.16500000000E+09 -4.76487192414E-01 +8.18960751486E-01 +3.96029940504E-06 +1.03666692027E-05 +9.26943599211E-06 -1.11968620603E-05 -6.23836086160E-01 +7.47353809067E-01
1.17000000000E+09 -4.69309950882E-01 +8.22098237150E-01 +1.32921626445E-06 +2.12520244326E-05 +2.87719158964E-05 -6.97445817026E-05 -6.18309991515E-01 +7.50733920960E-01
1.17500000000E+09 -4.61403360136E-01 +8.25368170222E-01 +5.26223599051E-07 -1.15544877682E-05 +2.78702895099E-05 -1.37287718781E-05 -6.12705899511E-01 +7.53927039961E-01
1.18000000000E+09 -4.53028557742E-01 +8.28891690125E-01 +2.31994157134E-05 -2.74888045328E-05 +3.39968396435E-05 -3.03529678655E-05 -6.06957800333E-01 +7.57004448964E-01
1.18500000000E+09 -4.44991231422E-01 +8.32297919213E-01 +2.06571281298E-05 -7.39222242013E-05 +4.63264403007E-05 -4.69227805627E-05 -6.00970440764E-01 +7.60178595439E-01
1.19000000000E+09 -4.37613562899E-01 +8.34799014858E-01 +5.65309504204E-05 -9.39121426045E-05 +7.98250747115E-05 -8.14139018575E-05 -5.94724501819E-01 +7.62930767003E-01
1.19500000000E+09 -4.31460393553E-01 +8.36819341218E-01 +5.62922034520E-05 -1.30219154946E-04 +2.69297462383E-05 -1.64388860169E-04 -5.88843775362E-01 +7.64061775771E-01
1.20000000000E+09 -4.26250833304E-01 +8.37647162195E-01 -5.04977412705E-05 -1.72324613723E-04 -4.46466828292E-05 -1.58946827074E-04 -5.84186811114E-01 +7.64493510194E-01
1.20500000000E+09 -4.21581229652E-01 +8.39005773744E-01 -5.15352147248E-05 -8.17159419854E-05 -1.02663280457E-04 -7.18312598878E-05 -5.81800154312E-01 +7.65151660070E-01
1.21000000000E+09 -4.16884649193E-01 +8.40170039480E-01 -1.24067926331E-04 -5.43144038012E-05 -1.31081007439E-04 -1.64015011794E-05 -5.80107529021E-01 +7.68160769928E-01
1.21500000000E+09 -4.11082072489E-01 +8.41578872891E-01 -6.07990179245E-05 -3.11726711146E-05 -2.47161199851E-05 +6.10474297789E-07 -5.77280438695E-01 +7.72453343171E-01
1.22000000000E+09 -4.03989766635E-01 +8.43442334433E-01 -7.30670332385E-05 +3.52789008365E-06 -2.47928487440E-05 +5.28781103622E-05 -5.73282282848E-01 +7.77937399234E-01
1.22500000000E+09 -3.95709006755E-01 +8.45985814733E-01 -4.59246328785E-05 -1.36600214888E-06 -4.90083522512E-05 -3.15299555586E-05 -5.68047405115E-01 +7.83139377041E-01
1.23000000000E+09 -3.86062179038E-01 +8.48922619052E-01 +8.13581218596E-06 +6.16217656694E-06 -2.97557037754E-06 -2.62324464133E-05 -5.62363689516E-01 +7.87973253336E-01
1.23500000000E+09 -3.76522921894E-01 +8.52351688059E-01 -1.00930464853E-05 -4.57202764519E-06 +6.92222170964E-08 -7.34937834452E-05 -5.56521271055E-01 +7.92328588975E-01
1.24000000000E+09 -3.66970389627E-01 +8.55830744556E-01 -5.94171543880E-05 -4.48008382204E-05 -5.00172878821E-05 -2.78623678763E-05 -5.50503538502E-01 +7.96252659390E-01
1.24500000000E+09 -3.58315152955E-01 +8.59713157899E-01 -7.04602766572E-05 -4.00979480817E-05 +1.39999959176E-05 -3.04841934792E-05 -5.44252746867E-01 +8.00083390553E-01
1.25000000000E+09 -3.50509221988E-01 +8.62785232978E-01 -4.25110320921E-05 -6.40125311459E-05 -5.79801965800E-05 -3.48787292174E-05 -5.37586520731E-01 +8.04140212864E-01
1.25500000000E+09 -3.43697844557E-01 +8.64841466016E-01 -5.23428865490E-05 +1.35945377028E-05 -8.70499539108E-05 +4.85873148616E-05 -5.30607146067E-01 +8.08359271125E-01
1.26000000000E+09 -3.37744196757E-01 +8.66219937950E-01 -3.05760898781E-05 -4.05357966138E-05 -5.44395650063E-05 -2.88102642513E-05 -5.23949973198E-01 +8.12648427820E-01
1.26500000000E+09 -3.32019825645E-01 +8.66994792505E-01 -8.49725548955E-05 -2.73784579098E-05 -2.67239577050E-05 +3.09055921020E-05 -5.16903679130E-01 +8.16606585848E-01
1.27000000000E+09 -3.25482857717E-01 +8.67587545621E-01 +1.68755356113E-05 -4.48489272103E-08 -4.90466572414E-05 +2.49529283803E-06 -5.09961901253E-01 +8.20509564373E-01
1.27500000000E+09 -3.17659816144E-01 +8.68185926461E-01 -1.18317792657E-04 -3.71307952681E-05 -6.87870067294E-05 -3.25962525661E-05 -5.03078343676E-01 +8.24115091569E-01
1.28000000000E+09 -3.08180788268E-01 +8.69269064395E-01 -5.92433264163E-05 -3.53208236183E-05 -8.99592465947E-05 +2.40305959198E-05 -4.96041528913E-01 +8.27616776528E-01
1.28500000000E+09 -2.96880420901E-01 +8.70856888163E-01 -1.04286260299E-04 -8.19734200131E-07 -1.00910880884E-04 -3.15524374494E-05 -4.88594206542E-01 +8.31251943899E-01
1.29000000000E+09 -2.84725393541E-01 +8.73032491367E-01 -1.18011064511E-04 +2.78682404602E-05 -1.02033494149E-04 -5.84995458368E-07 -4.80936490202E-01 +8.34932574116E-01
1.29500000000E+09 -2.72293199027E-01 +8.75975311636E-01 -1.08050677596E-04 +3.09344636319E-05 -8.28419736464E-05 +3.73877017238E-05 -4.73085210105E-01 +8.38479858927E-01
1.30000000000E+09 -2.60158496401E-01 +8.79303952931E-01 -1.19613229938E-04 -2.50096477921E-05 -9.95258606031E-05 +2.15178870345E-05 -4.65035332218E-01 +8.42175052766E-01
1.30500000000E+09 -2.49364939129E-01 +8.82677099455E-01 -9.20118829398E-05 +2.53518368325E-05 -7.15718026859E-05 +3.64187294133E-05 -4.56938592257E-01 +8.45592217373E-01
1.31000000000E+09 -2.40089098118E-01 +8.85239674035E-01 -1.03225496901E-04 +4.75212790870E-05 -1.45511802850E-04 +9.46686517566E-05 -4.48646800486E-01 +8.49188365517E-01
1.31500000000E+09 -2.32527833667E-01 +8.86918029602E-01 -1.22563821273E-04 +1.20329211648E-04 -1.28298772830E-04 +3.67560931221E-05 -4.39692211060E-01 +8.52633106862E-01
1.32000000000E+09 -2.26336445394E-01 +8.87685744094E-01 -1.22317325622E-04 +1.41603618445E-04 -7.41672546279E-05 +1.09696034832E-04 -4.30583618569E-01 +8.55984093670E-01
1.32500000000E+09 -2.20636098018E-01 +8.87547400332E-01 -3.81456214336E-05 +1.74318499028E-04 -8.22498284916E-05 +1.54362810608E-04 -4.20871680774E-01 +8.59488388718E-01
1.33000000000E+09 -2.14206605665E-01 +8.87066692144E-01 -5.47320407510E-05 +1.48490457129E-04 -7.21413382365E-05 +1.69121003675E-04 -4.11084511957E-01 +8.62900433549E-01
1.33500000000E+09 -2.06010530966E-01 +8.86090709513E-01 -6.92963107707E-05 +1.22962471346E-04 +3.60537746910E-05 +1.23375246596E-04 -4.00962798687E-01 +8.66145194737E-01
1.34000000000E+09 -1.95329997082E-01 +8.85402296456E-01 -3.70946101514E-05 +1.43383553041E-04 -2.00986818200E-05 +1.42120701742E-04 -3.90745405041E-01 +8.69390534917E-01
1.34500000000E+09 -1.82175798371E-01 +8.84895354643E-01 -4.09807180836E-05 +1.84336083009E-04 -5.05059033748E-05 +1.25042041484E-04 -3.79686802769E-01 +8.72748669803E-01
1.35000000000E+09 -1.67204534290E-01 +8.84926081400E-01 -4.53196964660E-05 +2.03064082963E-04 -4.49675227110E-05 +2.11382761315E-04 -3.68486801870E-01 +8.75783517155E-01
1.35500000000E+09 -1.50712680667E-01 +8.85552658740E-01 -7.13279918285E-07 +2.11243830177E-04 -1.47078102535E-05 +2.35162470424E-04 -3.56720161106E-01 +8.78762763546E-01
1.36000000000E+09 -1.34197716512E-01 +8.86089354459E-01 -6.64947580273E-06 +2.20742081860E-04 +1.92980891639E-05 +2.19018511255E-04 -3.44729040325E-01 +8.81417170984E-01
1.36500000000E+09 -1.18467292129E-01 +8.86679778369E-01 +4.18363003670E-05 +3.02843540676E-04 +4.67183436439E-05 +2.74473335387E-04 -3.32506897693E-01 +8.83936119271E-01
1.37000000000E+09 -1.04394144588E-01 +8.86631575785E-01 +1.03905935242E-04 +3.29033901705E-04 +9.33766627933E-05 +3.01618501560E-04 -3.19595884990E-01 +8.86302309057E-01
1.37500000000E+09 -9.23285086230E-02 +8.86062130526E-01 +2.12430957867E-04 +2.87596929939E-04 +2.42984208755E-04 +2.71708979608E-04 -3.05691675152E-01 +8.88280446282E-01
1.38000000000E+09 -8.17258818737E-02 +8.84808954835E-01 +2.09293926832E-04 +1.51840242701E-04 +2.12827961702E-04 +1.87438581215E-04 -2.91152647309E-01 +8.90430197301E-01
1.38500000000E+09 -7.09760665014E-02 +8.82847012864E-01 +1.56546398249E-04 +1.60710123392E-04 +2.02691486951E-04 +2.43072198893E-04 -2.75683399440E-01 +8.92145174808E-01
1.39000000000E+09 -5.95057620849E-02 +8.79921384682E-01 +1.93826705270E-04 +1.89035809244E-04 +2.39026255940E-04 +2.40741714163E-04 -2.59718611943E-01 +8.93335327297E-01
1.39500000000E+09 -4.60874953651E-02 +8.76279736033E-01 +2.55419150037E-04 +2.71362226043E-04 +3.20736744728E-04 +2.53286631494E-04 -2.43004465684E-01 +8.94089637491E-01
1.40000000000E+09 -3.00712069522E-02 +8.71517182633E-01 +4.03326660063E-04 +2.87002851958E-04 +4.61154878104E-04 +2.35950030707E-04 -2.25050944777E-01 +8.94614620737E-01
1.40500000000E+09 -1.18983593864E-02 +8.66358659443E-01 +5.66628704172E-04 +1.44770911936E-04 +5.85245975453E-04 +9.22510046179E-05 -2.06243525687E-01 +8.94243276968E-01
1.41000000000E+09 +8.47132334305E-03 +8.60785466779E-01 +5.88577851773E-04 -5.48719344745E-05 +5.36095034101E-04 -5.03001268354E-05 -1.86192485351E-01 +8.93190042571E-01
1.41500000000E+09 +3.01633237691E-02 +8.54882019939E-01 +5.37631612628E-04 -6.26722923983E-05 +5.22979536734E-04 -7.81350601213E-05 -1.64692093843E-01 +8.91632500312E-01
1.42000000000E+09 +5.29333935072E-02 +8.48820812471E-01 +5.28708978466E-04 -2.55374085810E-04 +6.14288336818E-04 -2.39431214069E-04 -1.41903571247E-01 +8.88694108763E-01
1.42500000000E+09 +7.55607918322E-02 +8.41327978759E-01 +3.99548217923E-04 -3.35434507294E-04 +4.78365436148E-04 -3.91625375518E-04 -1.18636902798E-01 +8.85014863332E-01
1.43000000000E+09 +9.70331710062E-02 +8.32022233253E-01 +4.41666215010E-04 -2.96624539820E-04 +4.12885407322E-04 -3.21154666046E-04 -9.36401004805E-02 +8.80406891268E-01
1.43500000000E+09 +1.17559966483E-01 +8.21317412437E-01 +4.72335449978E-04 -3.86310681266E-04 +4.78588389749E-04 -4.73499495256E-04 -6.73724769098E-02 +8.73687153674E-01
1.44000000000E+09 +1.37852465783E-01 +8.08764677037E-01 +5.27162115204E-04 -5.10947212598E-04 +4.44411037427E-04 -5.37628034193E-04 -3.92836829796E-02 +8.64874014975E-01
1.44500000000E+09 +1.58540402718E-01 +7.93845392120E-01 +4.41962344106E-04 -8.20718349763E-04 +3.87497277381E-04 -8.57110908585E-04 -9.41999937760E-03 +8.53376406266E-01
1.45000000000E+09 +1.81239309448E-01 +7.75751284469E-01 +7.78500311621E-05 -8.92789620126E-04 +2.57103576367E-05 -9.51004941424E-04 +2.22373698312E-02 +8.38667839056E-01
1.45500000000E+09 +2.05545059545E-01 +7.54224889508E-01 -1.67722738212E-04 -8.59412968191E-04 -2.60290033662E-04 -8.45528831705E-04 +5.53385681590E-02 +8.20927836246E-01
1.46000000000E+09 +2.32136905287E-01 +7.29249435797E-01 -3.84135356110E-04 -7.42379767145E-04 -4.44690204686E-04 -6.99073748537E-04 +8.94019604940E-02 +7.99108526452E-01
1.46500000000E+09 +2.60626206163E-01 +7.00274645452E-01 -4.35091960623E-04 -3.94614948024E-04 -4.31699391870E-04 -4.04869414213E-04 +1.25015609350E-01 +7.72823772116E-01
1.47000000000E+09 +2.90004409697E-01 +6.67096020776E-01 -1.00843442297E-04 -4.09413927872E-04 -1.24876163463E-04 -3.78588861008E-04 +1.62021404942E-01 +7.39784231653E-01
1.47500000000E+09 +3.19056468441E-01 +6.29121317615E-01 -1.34417539865E-04 -6.68957880647E-04 -1.50651063891E-04 -6.38373676666E-04 +1.99135813134E-01 +6.99419459148E-01
1.48000000000E+09 +3.45537643558E-01 +5.85601885807E-01 -4.69304104454E-04 -8.32052607614E-04 -4.95445178793E-04 -8.43497647802E-04 +2.35519966837E-01 +6.50612043315E-01
1.48500000000E+09 +3.67961956725E-01 +5.36329612276E-01 -6.95082318363E-04 -7.46842566582E-04 -7.41068951527E-04 -7.54570767213E-04 +2.69434472771E-01 +5.92154530069E-01
1.49000000000E+09 +3.85323654357E-01 +4.80082097294E-01 -1.03645986967E-03 -4.37421629674E-04 -1.04929826612E-03 -3.95974371812E-04 +2.97594276005E-01 +5.23636358803E-01
1.49500000000E+09 +3.95967522058E-01 +4.16311069555E-01 -9.82158472481E-04 -3.85102031515E-04 -9.82816561703E-04 -2.75816884755E-04 +3.17018266486E-01 +4.44910897871E-01
1.50000000000E+09 +3.97746360211E-01 +3.43158681060E-01 -1.13523762513E-03 +1.89466415282E-05 -1.06571533245E-03 +3.74130004200E-05 +3.23411672678E-01 +3.56182658502E-01
1.50500000000E+09 +3.86885496313E-01 +2.62087218807E-01 -8.51121762212E-04 +2.74568154219E-04 -7.86477912722E-04 +2.38019720940E-04 +3.12228037065E-01 +2.59496093138E-01
1.51000000000E+09 +3.62036801779E-01 +1.75724349503E-01 -7.91282964734E-04 -7.76888897860E-05 -7.87910969940E-04 -1.19915782240E-04 +2.80319265736E-01 +1.61258221385E-01
1.51500000000E+09 +3.20799408425E-01 +8.69851409512E-02 -1.15583455235E-03 +2.13666999997E-04 -1.14920144806E-03 +1.77043453490E-04 +2.29128127165E-01 +6.50636168059E-02
1.52000000000E+09 +2.58430509127E-01 +2.56528865025E-03 -1.29558453870E-03 +2.42102842117E-04 -1.31240748889E-03 +2.70087864763E-04 +1.55245480187E-01 -2.23634430964E-02
1.52500000000E+09 +1.79388904599E-01 -6.81238824746E-02 -1.53251646985E-03 +1.03171562525E-03 -1.58171536417E-03 +1.05828959358E-03 +6.14876132921E-02 -9.18195217282E-02
1.53000000000E+09 +8.53948189477E-02 -1.21213580659E-01 -1.43699179850E-03 +1.88316332726E-03 -1.41591741488E-03 +1.89920917918E-03 -4.27942907108E-02 -1.38311506937E-01
1.53500000000E+09 -1.87839834087E-02 -1.51554107493E-01 +5.73396229008E-04 +2.41834167932E-03 +5.60852617081E-04 +2.37662600870E-03 -1.52789123773E-01 -1.62386691204E-01
1.54000000000E+09 -1.27255801206E-01 -1.55320522513E-01 +7.00456836360E-04 +1.10306129807E-03 +6.66616563509E-04 +1.06375051901E-03 -2.62993163950E-01 -1.61844959630E-01
1.54500000000E+09 -2.30760811656E-01 -1.35259457692E-01 +6.88669395252E-04 +1.07204261086E-03 +5.77380305613E-04 +1.08242471152E-03 -3.62080094570E-01 -1.40450606700E-01
1.55000000000E+09 -3.24620274953E-01 -9.61568854682E-02 +7.35403154237E-04 +6.32530541201E-04 +7.45744266588E-04 +6.29793927151E-04 -4.49249555978E-01 -1.05188775720E-01
1.55500000000E+09 -4.04610777638E-01 -4.43024328737E-02 +4.63033587502E-04 +4.98059936676E-04 +4.43328405722E-04 +5.28139823341E-04 -5.22131667231E-01 -5.86047963244E-02
1.56000000000E+09 -4.69630523568E-01 +1.29286565526E-02 +5.45715278403E-04 +1.12681497877E-03 +5.42163920059E-04 +1.19243294568E-03 -5.80837720971E-01 -6.34913086980E-03
1.56500000000E+09 -5.21759035382E-01 +7.17167709714E-02 +1.40629227984E-03 +8.83117478081E-04 +1.50457386486E-03 +1.01006942532E-03 -6.27030661105E-01 +4.91438655432E-02
1.57000000000E+09 -5.61308336488E-01 +1.29508208171E-01 +1.89278065528E-03 -3.08051089303E-04 +2.02390101398E-03 -3.21823199909E-04 -6.62046602263E-01 +1.03964607721E-01
