# Hz S RI R 50
! CMT, C1220, 16058040, 17.2.0/1
! Date: 14/08/2018 11:45:42
! Data: Format (Calibration Info)
! Freq                      S11: Re/Im (F2)                       S21: Re/Im (F2)                       S12: Re/Im (F2)                       S22: Re/Im (F2)            
1.00000000000E+09 -6.48405004637E-01 +7.15325988508E-01 -8.15250015726E-05 -1.97505004580E-05 +6.86786686480E-07 -3.93758580336E-06 -7.54958873832E-01 +6.24523408250E-01
1.00500000000E+09 -6.41527368562E-01 +7.20208453631E-01 +3.98009190532E-05 -8.87343544023E-06 -6.32715633195E-05 -1.92642440227E-05 -7.51360671800E-01 +6.28513887738E-01
1.01000000000E+09 -6.35350118462E-01 +7.24964290570E-01 +6.00602063977E-06 +1.89283903722E-05 +8.53098755726E-06 +9.04016653090E-06 -7.48012302884E-01 +6.32221752755E-01
1.01500000000E+09 -6.30568965130E-01 +7.28745373027E-01 -8.44246507972E-06 +1.52663314038E-05 -5.41011887436E-06 +5.22179726064E-05 -7.44532559074E-01 +6.36081354908E-01
1.02000000000E+09 -6.26807797998E-01 +7.31851135636E-01 -1.43464098198E-05 +7.50598449840E-06 +3.17352023741E-05 +7.37069981217E-06 -7.41011545151E-01 +6.39814971751E-01
1.02500000000E+09 -6.23716698757E-01 +7.34608913120E-01 -4.15905736661E-05 +1.44323244353E-05 +4.70488259328E-06 -5.83320144500E-06 -7.37968344378E-01 +6.43508111430E-01
1.03000000000E+09 -6.21020772495E-01 +7.37082217938E-01 -3.42421168591E-05 +3.03067844259E-06 +6.17189065097E-05 +6.52573498570E-06 -7.34675535235E-01 +6.47258722482E-01
1.03500000000E+09 -6.17839630580E-01 +7.39782509752E-01 -1.69520504900E-05 -1.19259519498E-05 -1.17907874268E-05 -2.11102671513E-06 -7.30937040416E-01 +6.51228738991E-01
1.04000000000E+09 -6.13557353174E-01 +7.42545820932E-01 -3.73036424203E-05 +5.38166521813E-05 -3.78986274074E-05 +6.05505194135E-06 -7.27336528985E-01 +6.54861091771E-01
1.04500000000E+09 -6.07946486172E-01 +7.46274738814E-01 -3.15870055196E-05 -4.21071924354E-06 +3.17104942157E-06 +6.68581661960E-05 -7.23670406158E-01 +6.58533008326E-01
1.05000000000E+09 -6.00920224798E-01 +7.50492504982E-01 -3.89989854356E-05 +2.38600089878E-06 -3.05201430905E-05 -1.38010614799E-05 -7.20248990540E-01 +6.61894459266E-01
1.05500000000E+09 -5.92983620920E-01 +7.55189205139E-01 -9.84013166165E-06 +4.02675848794E-05 +1.30797853577E-06 +6.56817155657E-05 -7.16971382605E-01 +6.65527259100E-01
1.06000000000E+09 -5.84545519579E-01 +7.60253982928E-01 -9.18225615517E-06 +1.26504081146E-05 +7.77368645546E-06 +5.93739848663E-05 -7.13585703584E-01 +6.69342664162E-01
1.06500000000E+09 -5.76726654404E-01 +7.65033159845E-01 +3.16674477705E-05 -8.53547339752E-06 -4.78602802996E-05 +3.34634453546E-05 -7.10035449330E-01 +6.72862406286E-01
1.07000000000E+09 -5.69675074061E-01 +7.69340425951E-01 -4.80376427052E-05 +4.58373281833E-05 +4.50993499754E-05 +1.98015292061E-05 -7.06194788136E-01 +6.76607133395E-01
1.07500000000E+09 -5.64030966158E-01 +7.73018664872E-01 +8.72984146299E-06 +3.98977900584E-05 +1.20980691534E-07 +3.18938467208E-05 -7.01916364773E-01 +6.80307754329E-01
1.08000000000E+09 -5.59964016622E-01 +7.75965999341E-01 -5.08238171576E-06 +2.20176795756E-05 -4.24402731206E-06 +2.87836724448E-05 -6.97774336074E-01 +6.84270064788E-01
1.08500000000E+09 -5.57138390516E-01 +7.78403749465E-01 +3.28124936744E-05 -4.61925190164E-06 -1.83060625540E-05 +3.54646345918E-06 -6.93784530934E-01 +6.88096214091E-01
1.09000000000E+09 -5.54572412292E-01 +7.80251005810E-01 +3.35965344628E-05 +3.20905204172E-05 -1.75881692789E-06 +7.45123476851E-06 -6.89716921131E-01 +6.91971123775E-01
1.09500000000E+09 -5.52399979893E-01 +7.82093429925E-01 +1.90948227163E-05 +4.34016824753E-06 +5.34733884479E-05 +1.20166890191E-05 -6.85806183954E-01 +6.95888398328E-01
1.10000000000E+09 -5.48986321982E-01 +7.84147602778E-01 +5.30973910535E-05 +1.24041052219E-06 +1.79423451204E-05 +1.04583568733E-06 -6.81950969370E-01 +6.99600109908E-01
1.10500000000E+09 -5.44473530826E-01 +7.86726947135E-01 +2.28407725641E-05 +1.04999644375E-05 +5.82249316456E-07 +4.70406153710E-05 -6.77914653393E-01 +7.03088505592E-01
1.11000000000E+09 -5.38676647446E-01 +7.89967670255E-01 +2.22713654690E-05 -2.03347857663E-05 +1.40326534936E-05 -1.74793568712E-05 -6.73667157797E-01 +7.06660466599E-01
1.11500000000E+09 -5.31583002072E-01 +7.93934568960E-01 -2.43573276834E-06 +1.38313695773E-05 +5.55751067770E-05 -6.32433803625E-06 -6.69417321548E-01 +7.10085609583E-01
1.12000000000E+09 -5.24001331015E-01 +7.97852933791E-01 +1.66523191880E-05 +6.81775007304E-06 +3.84718120710E-05 +7.14468538187E-06 -6.65343173805E-01 +7.13704195570E-01
1.12500000000E+09 -5.16280917844E-01 +8.01763822464E-01 +1.18889202566E-05 +1.38562316660E-05 -8.45337161766E-06 -2.22020464847E-05 -6.61038493712E-01 +7.17867122063E-01
1.13000000000E+09 -5.09380512614E-01 +8.05460820424E-01 +3.67244435331E-05 +1.47940994588E-05 +2.96174220358E-05 +1.69624636778E-06 -6.56843522724E-01 +7.21504652466E-01
1.13500000000E+09 -5.03390139478E-01 +8.08148966922E-01 +3.47325027109E-05 +1.58647154905E-05 +3.06543361244E-05 +1.34842790048E-05 -6.52438694348E-01 +7.25434912424E-01
1.14000000000E+09 -4.98052338172E-01 +8.10534277728E-01 +7.12186395352E-05 -1.26890215259E-05 +7.61963127883E-06 -3.96569359903E-05 -6.47755422733E-01 +7.28689370824E-01
1.14500000000E+09 -4.93813843615E-01 +8.12207188487E-01 +1.84990551217E-05 -3.54457082109E-06 +3.79167664117E-05 -4.52712447691E-06 -6.43025108745E-01 +7.32064793018E-01
1.15000000000E+09 -4.89755943324E-01 +8.13766539166E-01 +2.06806275026E-05 -2.72106117003E-06 +4.84790649778E-05 +2.70987192419E-05 -6.38304206490E-01 +7.36108287026E-01
1.15500000000E+09 -4.85517520991E-01 +8.15556377224E-01 +2.96371851256E-06 -2.10247046321E-05 +3.18070838606E-05 +1.57347623163E-05 -6.33448436918E-01 +7.39960226141E-01
1.16000000000E+09 -4.80376270187E-01 +8.17486765143E-01 +4.63833955503E-05 -1.90227421175E-05 +2.13562085898E-05 -2.83738449068E-05 -6.28616180287E-01 +7.43713051149E-01
1.16500000000E+09 -4.74063650442E-01 +8.20139542478E-01 +1.84002180608E-05 -4.00007496572E-05 +1.35870268803E-05 -2.76070054333E-05 -6.23500593074E-01 +7.47388856841E-01
1.17000000000E+09 -4.66810606828E-01 +8.23388467731E-01 +5.15689156270E-05 -4.96827832509E-05 +9.03150211200E-06 -4.80780261853E-05 -6.18152886447E-01 +7.50757506042E-01
1.17500000000E+09 -4.58682705363E-01 +8.26618154128E-01 +4.78651745004E-06 -2.20819080555E-05 -1.54250876579E-05 -2.85145136388E-05 -6.12413942998E-01 +7.54027521995E-01
1.18000000000E+09 -4.50641743604E-01 +8.30162760682E-01 +5.82906186925E-05 -3.43650397283E-05 +8.02215328707E-05 +2.05262793481E-05 -6.07109905814E-01 +7.57244876760E-01
1.18500000000E+09 -4.42643460363E-01 +8.33358078880E-01 +4.56574841557E-05 -4.99748298805E-05 +8.49967380873E-06 -6.11297853734E-05 -6.01030129829E-01 +7.60425107990E-01
1.19000000000E+09 -4.35452762937E-01 +8.35947776068E-01 +5.58767483407E-05 -7.81531939461E-05 +6.42454397592E-05 -8.38728452629E-05 -5.94609210000E-01 +7.63100508870E-01
1.19500000000E+09 -4.29104911448E-01 +8.37785652043E-01 +3.30322819935E-05 -1.12946021738E-04 +8.44855541600E-05 -1.17389952845E-04 -5.88609795599E-01 +7.64265341240E-01
1.20000000000E+09 -4.23955648718E-01 +8.38699588964E-01 -2.46688540545E-05 -1.42339359096E-04 -4.50653137287E-06 -1.62039899489E-04 -5.84007210576E-01 +7.64592158493E-01
1.20500000000E+09 -4.19244109501E-01 +8.39985433100E-01 -1.20405638265E-04 -1.06902410904E-04 -1.20170492648E-04 -8.86917931459E-05 -5.81735880822E-01 +7.65392507682E-01
1.21000000000E+09 -4.14264781637E-01 +8.41073438802E-01 -9.09442724155E-05 -3.88120535542E-06 -8.68453779755E-05 -2.11488875018E-05 -5.79897152107E-01 +7.68414786485E-01
1.21500000000E+09 -4.08151054775E-01 +8.42528717349E-01 -9.02812696552E-05 +6.31470949108E-06 -4.95651727660E-05 -4.60175737210E-05 -5.77142542694E-01 +7.72751637560E-01
1.22000000000E+09 -4.00954530594E-01 +8.44518496751E-01 -3.52358390562E-05 +5.54949014102E-05 -3.13875872355E-05 -9.55519112201E-07 -5.73075219005E-01 +7.78041760210E-01
1.22500000000E+09 -3.92166976216E-01 +8.47096170296E-01 -3.34399239244E-05 -1.53535494644E-07 -7.43719332610E-06 +1.44858561256E-05 -5.68040877767E-01 +7.83306120296E-01
1.23000000000E+09 -3.82660511804E-01 +8.49983139445E-01 -2.50740789056E-06 -1.09147111344E-05 -4.88217069427E-05 -2.63438859398E-05 -5.62182135166E-01 +7.88052958847E-01
1.23500000000E+09 -3.73020484666E-01 +8.53356233901E-01 -1.30592592067E-06 -5.91297614341E-05 +2.22605586929E-05 -5.14732918584E-06 -5.56363063651E-01 +7.92438514528E-01
1.24000000000E+09 -3.63390249195E-01 +8.56761388416E-01 -2.32550561841E-05 -4.67902946068E-05 -1.42256481143E-05 -4.53446120884E-05 -5.50342805175E-01 +7.96278975058E-01
1.24500000000E+09 -3.54848680978E-01 +8.60418424780E-01 -3.23211088966E-06 -7.19854621523E-05 -5.80401372960E-05 -6.28823794971E-05 -5.44020082796E-01 +8.00232209510E-01
1.25000000000E+09 -3.47131780333E-01 +8.63500592737E-01 -5.47930352582E-05 -6.21411334642E-05 -3.32868947438E-05 -8.52601947114E-05 -5.37474376330E-01 +8.04476563618E-01
1.25500000000E+09 -3.40327845539E-01 +8.65705000350E-01 -4.11999482152E-05 -5.38281069699E-07 -8.24933299123E-05 -2.87100588735E-05 -5.30538592337E-01 +8.08379331386E-01
1.26000000000E+09 -3.34023927432E-01 +8.67000421159E-01 -5.29243878236E-05 -6.03646439044E-05 -6.18619203046E-05 -1.88961777675E-05 -5.23665652619E-01 +8.12814147813E-01
1.26500000000E+09 -3.28036911946E-01 +8.67643138673E-01 -7.78174028702E-05 +2.92431896056E-05 -5.60694745564E-05 +9.94674501222E-06 -5.16752371887E-01 +8.16810412775E-01
1.27000000000E+09 -3.21456413359E-01 +8.68138901974E-01 -4.18373864236E-05 -3.05278255150E-05 -1.27018429438E-05 -2.47150405298E-05 -5.09930632593E-01 +8.20644988669E-01
1.27500000000E+09 -3.13519916092E-01 +8.68666065755E-01 -1.08489678712E-04 -2.93388471856E-05 -6.41132263675E-05 -2.58478548502E-05 -5.02904175418E-01 +8.24172149922E-01
1.28000000000E+09 -3.03677953260E-01 +8.69717851526E-01 -1.20056827447E-04 -2.75994844118E-05 -1.03069639645E-04 +2.71643089901E-06 -4.95904253134E-01 +8.27619942990E-01
1.28500000000E+09 -2.92295151313E-01 +8.71224936702E-01 -9.30285598994E-05 +3.21415387822E-05 -7.73792826928E-05 +1.99901227896E-05 -4.88487492194E-01 +8.31406189680E-01
1.29000000000E+09 -2.80112126876E-01 +8.73303975360E-01 -7.24409311813E-05 +9.49881851986E-06 -1.08088173830E-04 +7.31631304796E-05 -4.80896175256E-01 +8.35206482539E-01
1.29500000000E+09 -2.67728676967E-01 +8.76183952095E-01 -8.03538025103E-05 +2.53644955444E-05 -4.81826396903E-05 +3.56142719692E-05 -4.72897669705E-01 +8.38672347932E-01
1.30000000000E+09 -2.55911303232E-01 +8.79460332512E-01 -7.46218040316E-05 +3.63286861670E-05 -6.88539035653E-05 +3.21655685807E-05 -4.64904479119E-01 +8.42496238853E-01
1.30500000000E+09 -2.45411461729E-01 +8.82753588994E-01 -1.05538585558E-04 +7.68991647580E-05 -3.64666174638E-05 +4.92062216683E-05 -4.56753491011E-01 +8.45933431963E-01
1.31000000000E+09 -2.36161886754E-01 +8.85428909183E-01 -6.23475861416E-05 +8.03996807727E-05 -1.02271718414E-04 +4.22052570854E-05 -4.48487526727E-01 +8.49313998982E-01
1.31500000000E+09 -2.28435485987E-01 +8.87055215761E-01 -9.04211896011E-05 +1.02734597844E-04 -8.90048652976E-05 +9.70744472714E-05 -4.39463494771E-01 +8.52741464759E-01
1.32000000000E+09 -2.22030345902E-01 +8.87617553148E-01 -7.96069874382E-05 +7.71850251391E-05 -6.95378469320E-05 +1.01606697684E-04 -4.30397989820E-01 +8.56189079943E-01
1.32500000000E+09 -2.16109436845E-01 +8.87415272590E-01 -1.06779585933E-04 +9.44644313762E-05 -8.42362911780E-05 +1.26964383277E-04 -4.20716679529E-01 +8.59586187240E-01
1.33000000000E+09 -2.09110787861E-01 +8.86821851015E-01 -7.28698868173E-05 +1.19625652128E-04 -4.89613388312E-05 +8.95858765495E-05 -4.10850789687E-01 +8.62915893373E-01
1.33500000000E+09 -2.00551988736E-01 +8.85758643856E-01 -5.41011582952E-05 +1.09746767780E-04 -7.46121177016E-05 +1.31339291493E-04 -4.00816767037E-01 +8.66242141318E-01
1.34000000000E+09 -1.89711721329E-01 +8.85072562390E-01 -5.55637408798E-05 +9.15963095295E-05 -6.51756645696E-05 +9.71184089536E-05 -3.90575449918E-01 +8.69598446876E-01
1.34500000000E+09 -1.76625534183E-01 +8.84453305906E-01 -1.13086139933E-04 +8.59080578658E-05 -6.52078244186E-05 +1.24128142861E-04 -3.79620967869E-01 +8.72920969821E-01
1.35000000000E+09 -1.61489511402E-01 +8.84379876950E-01 -7.65172628372E-05 +1.71716361473E-04 -4.85176021594E-05 +1.73642423732E-04 -3.68325997025E-01 +8.75982304114E-01
1.35500000000E+09 -1.45364435129E-01 +8.84801031102E-01 -5.75215526297E-05 +1.94985220971E-04 -4.11083657559E-06 +1.68257906337E-04 -3.56716684947E-01 +8.78864943932E-01
1.36000000000E+09 -1.29057119647E-01 +8.85528300632E-01 -6.86124445872E-05 +1.96765058796E-04 -1.28844314414E-05 +2.14173376230E-04 -3.44681359020E-01 +8.81539373036E-01
1.36500000000E+09 -1.13391192771E-01 +8.85985321958E-01 +5.08349846969E-06 +2.40782880082E-04 +4.27939254778E-05 +2.59602617426E-04 -3.32294523716E-01 +8.84098426761E-01
1.37000000000E+09 -9.94070889616E-02 +8.85661322479E-01 +1.01457047424E-04 +3.09954121875E-04 +1.13089732028E-04 +3.55583552149E-04 -3.19433284291E-01 +8.86525345426E-01
1.37500000000E+09 -8.72165664930E-02 +8.84954711789E-01 +2.65360100308E-04 +2.74202962876E-04 +2.50043978082E-04 +3.14930420306E-04 -3.05650134434E-01 +8.88515907379E-01
1.38000000000E+09 -7.62018911228E-02 +8.83296117760E-01 +2.80471791078E-04 +1.39225416121E-04 +2.27673461889E-04 +1.72012548410E-04 -2.91073463269E-01 +8.90482185653E-01
1.38500000000E+09 -6.52345695501E-02 +8.81037305437E-01 +1.30093346189E-04 +1.58661408354E-04 +1.99217892822E-04 +2.14101288768E-04 -2.75613039185E-01 +8.92254029889E-01
1.39000000000E+09 -5.34450609950E-02 +8.77924690098E-01 +1.79804995853E-04 +1.80915982045E-04 +2.25566488881E-04 +1.86734822450E-04 -2.59623915554E-01 +8.93608727815E-01
1.39500000000E+09 -3.97938325142E-02 +8.73707449089E-01 +2.62463081594E-04 +2.56404496302E-04 +3.15923098833E-04 +2.35058079577E-04 -2.42845391604E-01 +8.94278292507E-01
1.40000000000E+09 -2.35848310383E-02 +8.68931446541E-01 +3.60163379721E-04 +2.78421173845E-04 +4.32698110058E-04 +2.42869833770E-04 -2.24983639653E-01 +8.94761911656E-01
1.40500000000E+09 -5.54250333406E-03 +8.63280241428E-01 +5.80206590818E-04 +1.74016631752E-04 +5.52006198051E-04 +1.25041609565E-04 -2.06041721455E-01 +8.94446878163E-01
1.41000000000E+09 +1.46329811139E-02 +8.57644506069E-01 +5.77764801731E-04 -3.59616376217E-05 +5.77243144266E-04 -3.82342920137E-05 -1.86044569074E-01 +8.93463605611E-01
1.41500000000E+09 +3.60824742858E-02 +8.51589552860E-01 +5.06835552355E-04 -1.34297542967E-04 +4.86814045287E-04 -6.54792271182E-05 -1.64635845445E-01 +8.91865484647E-01
1.42000000000E+09 +5.83171499051E-02 +8.45322154284E-01 +4.90637364221E-04 -2.98686529154E-04 +5.62918283807E-04 -2.63024519914E-04 -1.41800809622E-01 +8.88933487825E-01
1.42500000000E+09 +8.05941293795E-02 +8.37628541179E-01 +3.59477756357E-04 -3.66201220899E-04 +4.22330129724E-04 -4.19055121205E-04 -1.18376135979E-01 +8.85226506584E-01
1.43000000000E+09 +1.02088683387E-01 +8.28208301760E-01 +3.04381997322E-04 -2.95301401009E-04 +2.97017342729E-04 -3.34876051699E-04 -9.35853384189E-02 +8.80603653079E-01
1.43500000000E+09 +1.22453704261E-01 +8.17009747782E-01 +3.89757662774E-04 -3.82898713791E-04 +3.47200720554E-04 -4.33369018224E-04 -6.72270004570E-02 +8.73827288701E-01
1.44000000000E+09 +1.42909917327E-01 +8.03971720985E-01 +3.64124116694E-04 -4.38392403365E-04 +3.67379209565E-04 -4.25122343282E-04 -3.91038929894E-02 +8.65034036107E-01
1.44500000000E+09 +1.63730804188E-01 +7.88342511215E-01 +3.62877197317E-04 -6.98548954648E-04 +3.50217194288E-04 -7.00190117017E-04 -9.25098692239E-03 +8.53547650164E-01
1.45000000000E+09 +1.86339096951E-01 +7.69678216382E-01 +5.42806241958E-05 -7.75220577914E-04 -3.79524518761E-05 -8.29172199351E-04 +2.22977651966E-02 +8.38974222471E-01
1.45500000000E+09 +2.10576745367E-01 +7.47356234936E-01 -2.00440186484E-04 -7.76072386341E-04 -2.61384035503E-04 -7.06704663182E-04 +5.53803226180E-02 +8.21136892955E-01
1.46000000000E+09 +2.36749918473E-01 +7.21814428133E-01 -4.33214058775E-04 -6.47033502833E-04 -4.26675843824E-04 -5.88505739252E-04 +8.96415183943E-02 +7.99416837903E-01
1.46500000000E+09 +2.64916084652E-01 +6.92659714286E-01 -4.92069132634E-04 -2.21697444801E-04 -4.54221871437E-04 -1.76166893727E-04 +1.25497370883E-01 +7.73096610708E-01
1.47000000000E+09 +2.93657146610E-01 +6.58841956373E-01 -6.18182179379E-05 -1.23527079932E-04 -1.00569504947E-04 -7.94547312132E-05 +1.62431237567E-01 +7.39969846434E-01
1.47500000000E+09 +3.21643390490E-01 +6.20400336248E-01 +6.46781353460E-05 -3.37356479353E-04 +4.50251725000E-05 -3.78448503045E-04 +1.99429537520E-01 +6.99616746273E-01
1.48000000000E+09 +3.47114973183E-01 +5.76180899428E-01 -1.23718007825E-04 -7.36113946294E-04 -1.01747652951E-04 -7.31688985091E-04 +2.35929423083E-01 +6.50672684432E-01
1.48500000000E+09 +3.67969644041E-01 +5.26103597750E-01 -4.20499522357E-04 -7.67407327045E-04 -4.70814475933E-04 -7.55786069038E-04 +2.69974594760E-01 +5.92290600677E-01
1.49000000000E+09 +3.83115894776E-01 +4.69086370046E-01 -9.08219473023E-04 -5.49894718327E-04 -9.54531747725E-04 -5.41300586493E-04 +2.98119117987E-01 +5.23575969663E-01
1.49500000000E+09 +3.91241607142E-01 +4.05192268237E-01 -1.07810771079E-03 -3.47407937976E-04 -1.04465792095E-03 -2.62314005233E-04 +3.17441812201E-01 +4.44758816514E-01
1.50000000000E+09 +3.90677732747E-01 +3.32648534699E-01 -1.00296214751E-03 +3.77518976499E-04 -9.33002835830E-04 +3.50539244887E-04 +3.23800037735E-01 +3.56094242910E-01
1.50500000000E+09 +3.77493751088E-01 +2.52668340200E-01 -2.72291377501E-04 +5.50176092421E-04 -3.14293993417E-04 +5.39010438879E-04 +3.12519712957E-01 +2.59512930485E-01
1.51000000000E+09 +3.50072971335E-01 +1.68244749961E-01 -8.79683939260E-05 -3.18005946644E-04 -7.78826679792E-05 -2.91010744845E-04 +2.80830782571E-01 +1.61228326589E-01
1.51500000000E+09 +3.07038231971E-01 +8.28747556022E-02 -8.08490693606E-04 -3.00344753473E-04 -8.36819204996E-04 -3.58654271205E-04 +2.29896756514E-01 +6.49891309397E-02
1.52000000000E+09 +2.43792571155E-01 +2.18676513914E-03 -1.12396017465E-03 -1.46728653774E-04 -1.10200116735E-03 -1.29280356847E-04 +1.55777782303E-01 -2.31484304952E-02
1.52500000000E+09 +1.64237841193E-01 -6.33404985882E-02 -1.40230243142E-03 +6.39258809124E-04 -1.42416363953E-03 +6.46259671592E-04 +6.19705389800E-02 -9.23687552973E-02
1.53000000000E+09 +7.22286069203E-02 -1.11519344171E-01 -1.32588239014E-03 +1.28885262434E-03 -1.30434241611E-03 +1.32526723399E-03 -4.24497279966E-02 -1.39619389865E-01
1.53500000000E+09 -2.84718888084E-02 -1.38115825989E-01 +3.18022583944E-04 +1.88675093508E-03 +3.74059021325E-04 +1.91229653441E-03 -1.53512425888E-01 -1.63736357256E-01
1.54000000000E+09 -1.33368570588E-01 -1.40092384783E-01 +3.39576873891E-04 +6.70592253217E-04 +3.23728920976E-04 +5.90426518164E-04 -2.64047696019E-01 -1.62373332999E-01
1.54500000000E+09 -2.33436635971E-01 -1.19124070070E-01 +1.38701765209E-04 +8.97524989525E-04 +9.23474414195E-05 +8.04283131249E-04 -3.63047128115E-01 -1.40741625211E-01
1.55000000000E+09 -3.23727786642E-01 -8.01667471694E-02 +4.01427597887E-04 +5.74197528916E-04 +3.57309753888E-04 +5.17155831864E-04 -4.50453603493E-01 -1.04995232171E-01
1.55500000000E+09 -4.00195834901E-01 -3.00364755139E-02 +4.65485504808E-06 +4.08496601950E-04 +1.05567113907E-05 +4.02074622324E-04 -5.22920789049E-01 -5.79828376730E-02
1.56000000000E+09 -4.62757328383E-01 +2.52429934729E-02 +1.33165323821E-04 +1.21833793776E-03 +5.05270193235E-05 +1.35470056082E-03 -5.81416262158E-01 -5.79775417512E-03
1.56500000000E+09 -5.13115746013E-01 +8.15631959576E-02 +1.07450446247E-03 +1.11267052222E-03 +1.16231890508E-03 +1.22514174924E-03 -6.27396976367E-01 +4.97667391626E-02
1.57000000000E+09 -5.51504225117E-01 +1.37253739639E-01 +1.77075353108E-03 +6.90062145101E-05 +1.88130927831E-03 +7.46212652182E-05 -6.62385786907E-01 +1.04620808299E-01
