# Hz S RI R 50
! CMT, C1220, 16058040, 17.2.0/1
! Date: 14/08/2018 12:07:41
! Data: Format (Calibration Info)
! Freq                      S11: Re/Im (F2)                       S21: Re/Im (F2)                       S12: Re/Im (F2)                       S22: Re/Im (F2)            
1.00000000000E+09 -6.54343287051E-01 +7.09867850181E-01 +6.77093006721E-06 +4.56609596829E-05 +1.30392381988E-07 -9.45510454470E-07 -7.53495400557E-01 +6.25355646397E-01
1.00500000000E+09 -6.47464282222E-01 +7.14402806627E-01 +2.44935258592E-05 -5.91749700262E-06 -4.72612991893E-06 +1.88236007937E-05 -7.49981511666E-01 +6.29638327954E-01
1.01000000000E+09 -6.42016702261E-01 +7.18638084777E-01 -2.59296039143E-05 -4.91157975124E-05 -1.11519238950E-05 +3.36240347289E-05 -7.46282166698E-01 +6.33371535195E-01
1.01500000000E+09 -6.37756194945E-01 +7.22338595680E-01 +3.06542596393E-05 -2.60402661645E-05 -2.86284255242E-05 -1.90719129343E-05 -7.43074816380E-01 +6.37218920694E-01
1.02000000000E+09 -6.34805008589E-01 +7.25628904144E-01 -5.45893160804E-05 +1.67200334669E-05 -2.97292217716E-05 -5.07253988453E-05 -7.39608182073E-01 +6.40718192886E-01
1.02500000000E+09 -6.32922586736E-01 +7.28581037414E-01 -2.78320561819E-06 +2.96322321950E-05 +1.84638449395E-05 +3.55978065721E-05 -7.36642434209E-01 +6.44450414096E-01
1.03000000000E+09 -6.31470988357E-01 +7.31348056270E-01 -6.59164533681E-06 -4.14863658477E-05 +1.69595535162E-06 +1.44229340889E-05 -7.33034274634E-01 +6.48303586957E-01
1.03500000000E+09 -6.29182176028E-01 +7.34108125904E-01 +5.83755128642E-06 +1.21606978677E-05 -8.86805143783E-06 +3.73310844644E-05 -7.29427224379E-01 +6.52297378297E-01
1.04000000000E+09 -6.25934696962E-01 +7.37342796088E-01 -2.82073978921E-05 +4.76865524935E-05 -1.89924820287E-05 +5.87289380472E-05 -7.25557079858E-01 +6.55923556458E-01
1.04500000000E+09 -6.21045562569E-01 +7.41078707433E-01 -5.10881134631E-05 +8.27161134753E-05 +1.16819541701E-05 +6.86638922011E-05 -7.22036384645E-01 +6.59519678663E-01
1.05000000000E+09 -6.14607906068E-01 +7.44900087082E-01 +2.23634444348E-05 +3.77714437169E-05 -5.47775741028E-05 +4.38300091502E-05 -7.18631461932E-01 +6.62867917502E-01
1.05500000000E+09 -6.06826828566E-01 +7.49004397799E-01 +3.17512851711E-05 +2.52378061496E-05 -5.72250542633E-05 +6.08903564157E-05 -7.15329260378E-01 +6.66471325539E-01
1.06000000000E+09 -5.98444954153E-01 +7.53528409243E-01 -4.41453474326E-05 +5.97309804176E-05 -1.45236379447E-05 -6.01383443684E-05 -7.11937172396E-01 +6.70212915543E-01
1.06500000000E+09 -5.90750467405E-01 +7.57846666163E-01 -3.20623371430E-05 +6.16382860723E-05 -6.53304075472E-06 +3.28205692696E-05 -7.08335324057E-01 +6.73989557423E-01
1.07000000000E+09 -5.83660958716E-01 +7.62005185035E-01 +1.75283574822E-05 +2.84399752794E-05 -1.94120915280E-05 +5.77212836271E-05 -7.04221402068E-01 +6.77605311976E-01
1.07500000000E+09 -5.78361560966E-01 +7.65515837217E-01 +1.47119878350E-05 +8.39321031065E-05 -1.76986807577E-05 +5.11687849909E-05 -6.99980592696E-01 +6.81505952437E-01
1.08000000000E+09 -5.74475726190E-01 +7.68958530017E-01 +2.06689100316E-05 +3.15259299719E-05 +1.82022631277E-05 +2.53780292243E-05 -6.95975217571E-01 +6.85216721618E-01
1.08500000000E+09 -5.71753524195E-01 +7.71899705827E-01 +2.35699182149E-06 +7.15805826360E-05 +1.11518434757E-05 +1.04332619780E-04 -6.91861509662E-01 +6.88966879393E-01
1.09000000000E+09 -5.69526285654E-01 +7.74570622983E-01 +2.03708737799E-05 +2.17633411795E-05 +9.29092625072E-06 +7.59852887293E-05 -6.88034184604E-01 +6.92853435438E-01
1.09500000000E+09 -5.67481350405E-01 +7.77026495679E-01 +2.40287211337E-05 +6.38680867157E-05 +4.48358431509E-05 +8.72935566676E-05 -6.84389527186E-01 +6.96572928001E-01
1.10000000000E+09 -5.64010216641E-01 +7.79777466841E-01 +4.43013535274E-05 +1.16480876380E-05 +1.09173880025E-05 +1.59409045818E-05 -6.80257259594E-01 +7.00538245736E-01
1.10500000000E+09 -5.59594786305E-01 +7.82629478243E-01 +4.99456611606E-05 +5.20069399751E-05 +4.10320964674E-05 +4.97342462178E-05 -6.76023901158E-01 +7.04085461970E-01
1.11000000000E+09 -5.53617410649E-01 +7.85971524077E-01 +3.92883965704E-05 +4.96269501523E-06 +4.05953552558E-05 +5.64026685108E-05 -6.71895346077E-01 +7.07596999012E-01
1.11500000000E+09 -5.46455968839E-01 +7.89611473246E-01 +4.11500782349E-05 +7.45492757019E-06 +2.05890633747E-05 +2.00228248747E-05 -6.67742811294E-01 +7.10802610096E-01
1.12000000000E+09 -5.38933507588E-01 +7.93205138405E-01 -3.17543924363E-05 +5.50479375607E-05 +2.13202020243E-07 +2.74827422938E-05 -6.63679953337E-01 +7.14616766552E-01
1.12500000000E+09 -5.31377613623E-01 +7.96746661531E-01 +1.32880137977E-06 +1.59938539396E-05 +2.90482908426E-05 +2.30609296058E-05 -6.59341269225E-01 +7.18622816678E-01
1.13000000000E+09 -5.24643779768E-01 +8.00186995533E-01 -8.54239447958E-06 +2.46240027746E-05 +5.75787947473E-05 +4.45274041805E-06 -6.55146566699E-01 +7.22325169623E-01
1.13500000000E+09 -5.18928033687E-01 +8.03282225998E-01 +5.46006644188E-05 +3.70349185067E-05 +4.84908469787E-05 +4.88698018118E-05 -6.50507869482E-01 +7.26063082784E-01
1.14000000000E+09 -5.14393953079E-01 +8.06047939573E-01 +4.41787401892E-05 +3.92257052827E-05 +9.05191148446E-05 +2.84694693071E-05 -6.45726374690E-01 +7.29529914907E-01
1.14500000000E+09 -5.10713068481E-01 +8.08521900007E-01 +5.30610507416E-05 +1.62296653014E-05 -1.12223011059E-05 +4.48259473630E-05 -6.41143015277E-01 +7.32990846039E-01
1.15000000000E+09 -5.07168930218E-01 +8.10753060559E-01 +9.68520751729E-05 +1.25700203860E-05 +3.04797284682E-05 +4.69024570223E-05 -6.36573939190E-01 +7.36805275128E-01
1.15500000000E+09 -5.03700687150E-01 +8.13200711670E-01 +4.67759539056E-05 +5.60027671543E-05 +7.24217805820E-05 +4.04545987513E-05 -6.31677667921E-01 +7.40592943775E-01
1.16000000000E+09 -4.99095724710E-01 +8.15490175549E-01 +8.47208484002E-05 +1.17420399527E-05 +4.73507844044E-05 +4.69745207926E-05 -6.26943714092E-01 +7.44371320001E-01
1.16500000000E+09 -4.93618105611E-01 +8.18454952434E-01 +6.20247808806E-05 +4.06272343893E-05 +3.49709336250E-05 +4.71273683479E-05 -6.21838144997E-01 +7.47962605847E-01
1.17000000000E+09 -4.86596704950E-01 +8.21476165997E-01 +2.14390591208E-05 +3.65274914411E-05 +3.59083779452E-05 +6.32335905990E-05 -6.16365472944E-01 +7.51456900027E-01
1.17500000000E+09 -4.78818997211E-01 +8.24461148127E-01 +6.64261955083E-05 +5.46356663066E-05 +1.10850291598E-04 +2.88205762435E-05 -6.10536183347E-01 +7.54549855300E-01
1.18000000000E+09 -4.70957954538E-01 +8.27654407459E-01 +1.22382001221E-04 +3.95517850675E-06 +1.27935580150E-04 +6.76084531614E-05 -6.05175991177E-01 +7.57680737122E-01
1.18500000000E+09 -4.62956502068E-01 +8.30450917639E-01 +1.18162900691E-04 +3.02053810118E-05 +1.27170564203E-04 +3.83956865546E-05 -5.99100551286E-01 +7.60812040581E-01
1.19000000000E+09 -4.55912632899E-01 +8.33009895706E-01 +1.62987724652E-04 +5.30578683202E-05 +2.02918565510E-04 +2.66279563732E-05 -5.92825311973E-01 +7.63314026823E-01
1.19500000000E+09 -4.50101462930E-01 +8.35165702948E-01 +1.90548064161E-04 +3.81285525794E-05 +2.04701775800E-04 -1.01724796249E-05 -5.86972028957E-01 +7.64811623534E-01
1.20000000000E+09 -4.45458949703E-01 +8.36572148072E-01 +2.39652414091E-04 -6.09533652139E-05 +2.16348356477E-04 -1.23781696249E-04 -5.82507138449E-01 +7.64810603049E-01
1.20500000000E+09 -4.41212008768E-01 +8.38557285154E-01 +1.80563971472E-04 -1.40035806383E-04 +1.59242289575E-04 -1.22867918616E-04 -5.80038070913E-01 +7.65723476352E-01
1.21000000000E+09 -4.37180104968E-01 +8.40451048450E-01 +9.40307499905E-05 -1.60040328442E-04 +1.19928817786E-04 -1.04440167902E-04 -5.78276525585E-01 +7.68705986576E-01
1.21500000000E+09 -4.31896128657E-01 +8.42692397796E-01 +1.00920783702E-04 -1.46651071357E-04 +6.18982546259E-05 -1.62128265320E-04 -5.75540596548E-01 +7.73312886236E-01
1.22000000000E+09 -4.25365061862E-01 +8.45160449291E-01 +4.97478897727E-05 -1.11644034098E-04 +1.00270404208E-04 -1.50118699176E-04 -5.71372193799E-01 +7.78688911300E-01
1.22500000000E+09 -4.17318936545E-01 +8.48107774738E-01 +7.30556845252E-05 -1.30173912331E-04 +5.35418688481E-05 -1.11218392124E-04 -5.66146723995E-01 +7.83852803070E-01
1.23000000000E+09 -4.07895290159E-01 +8.51131217547E-01 +8.14474966990E-05 -8.96874009238E-05 +5.53289714348E-05 -1.40170019119E-04 -5.60528695017E-01 +7.88485189409E-01
1.23500000000E+09 -3.98023874022E-01 +8.54247144098E-01 +7.36548912888E-05 -1.37645210572E-04 +1.08592409790E-04 -1.14098795486E-04 -5.54616501968E-01 +7.92637317179E-01
1.24000000000E+09 -3.87773046870E-01 +8.57798360279E-01 +1.10799122567E-04 -1.47264276223E-04 +8.64875903860E-05 -1.57922939243E-04 -5.48618391652E-01 +7.96761126358E-01
1.24500000000E+09 -3.78351010171E-01 +8.61253016636E-01 +1.18732318880E-04 -1.90737300498E-04 +1.00447203026E-04 -2.34872503833E-04 -5.42327628239E-01 +8.00590962442E-01
1.25000000000E+09 -3.69907638653E-01 +8.64166093800E-01 +3.75068092857E-05 -2.23020645447E-04 +3.32318399161E-05 -2.59560341355E-04 -5.35608217937E-01 +8.04762068913E-01
1.25500000000E+09 -3.62661052538E-01 +8.66773335123E-01 +4.48566547857E-05 -2.16175900059E-04 +2.84541172462E-05 -2.73835323236E-04 -5.28825548971E-01 +8.08837522504E-01
1.26000000000E+09 -3.56544065320E-01 +8.69255445202E-01 -3.67691121943E-05 -2.49207871217E-04 -1.35007428715E-06 -2.43431421880E-04 -5.22036464008E-01 +8.12966675022E-01
1.26500000000E+09 -3.51106659330E-01 +8.71417101516E-01 -4.68480536447E-05 -2.37263524441E-04 -3.34270867703E-05 -3.01573912715E-04 -5.15097365858E-01 +8.16950581060E-01
1.27000000000E+09 -3.45443974560E-01 +8.73635742106E-01 -7.52373064523E-05 -2.77381536804E-04 -4.34488696004E-05 -3.15390140627E-04 -5.08353373901E-01 +8.20806073303E-01
1.27500000000E+09 -3.38877307100E-01 +8.75869960993E-01 -8.33204974898E-05 -2.54764733613E-04 -8.20884883691E-05 -2.91864399008E-04 -5.01230548473E-01 +8.24305232908E-01
1.28000000000E+09 -3.30807554199E-01 +8.78082128840E-01 -1.49220898743E-04 -2.76598839146E-04 -1.29490023279E-04 -2.66862144110E-04 -4.94243300777E-01 +8.27923477247E-01
1.28500000000E+09 -3.21109012571E-01 +8.80590677918E-01 -1.53031446705E-04 -2.47810113368E-04 -1.40325941706E-04 -2.89878149100E-04 -4.86851872056E-01 +8.31551454047E-01
1.29000000000E+09 -3.10343898888E-01 +8.83195904315E-01 -1.89938490447E-04 -2.19651210379E-04 -2.39520061948E-04 -2.80748243065E-04 -4.79327099425E-01 +8.35272376641E-01
1.29500000000E+09 -2.98876578906E-01 +8.85766955986E-01 -2.71595914896E-04 -2.71533144790E-04 -2.54266778239E-04 -2.73663359090E-04 -4.71372108682E-01 +8.38893902033E-01
1.30000000000E+09 -2.87377077609E-01 +8.88422951952E-01 -2.71727369049E-04 -2.39020071994E-04 -3.22207496536E-04 -2.04759428390E-04 -4.63542304586E-01 +8.42338413082E-01
1.30500000000E+09 -2.76879844558E-01 +8.91016236007E-01 -3.59811387620E-04 -2.33892089654E-04 -3.47755051952E-04 -2.12679852744E-04 -4.55405235067E-01 +8.45876229449E-01
1.31000000000E+09 -2.67532853823E-01 +8.93016050857E-01 -3.77410243364E-04 -1.35066657237E-04 -4.05859357603E-04 -1.49930765849E-04 -4.47093453934E-01 +8.49179113711E-01
1.31500000000E+09 -2.59539709067E-01 +8.94882062740E-01 -3.63331313093E-04 -7.18698608410E-05 -3.66212480121E-04 -1.02443417242E-04 -4.38238405360E-01 +8.52711112366E-01
1.32000000000E+09 -2.52672807635E-01 +8.96604507139E-01 -3.77876633321E-04 -8.78394804489E-05 -3.58307509858E-04 -8.45300111706E-05 -4.29084709308E-01 +8.56177191874E-01
1.32500000000E+09 -2.46160488790E-01 +8.97805866230E-01 -3.77788924846E-04 -1.22446042326E-05 -3.96009637833E-04 -6.17809101728E-05 -4.19295919168E-01 +8.59431558667E-01
1.33000000000E+09 -2.39040439787E-01 +8.98946890251E-01 -4.06722431866E-04 -4.66262022418E-05 -4.12477325234E-04 -1.06153938787E-05 -4.09662167024E-01 +8.62769182707E-01
1.33500000000E+09 -2.30280318786E-01 +8.99623678755E-01 -4.48143077433E-04 +1.25219130684E-05 -4.46908822414E-04 +3.32310498778E-05 -3.99750294479E-01 +8.66153868546E-01
1.34000000000E+09 -2.19279963413E-01 +9.00385082723E-01 -4.62830135934E-04 +4.68958366279E-05 -4.28810209676E-04 +9.35845086771E-05 -3.89579258516E-01 +8.69429273502E-01
1.34500000000E+09 -2.06194267119E-01 +9.00622687297E-01 -4.40316748370E-04 +1.37179174414E-04 -4.59109636955E-04 +1.35833441659E-04 -3.78554230773E-01 +8.72738292306E-01
1.35000000000E+09 -1.91301307338E-01 +9.00774762155E-01 -4.19689059950E-04 +1.94457079195E-04 -3.96122582460E-04 +1.51471055947E-04 -3.67437453355E-01 +8.75824725231E-01
1.35500000000E+09 -1.75281391405E-01 +9.00848863208E-01 -4.02685304534E-04 +1.73811583391E-04 -4.02791193748E-04 +1.63319396615E-04 -3.55719458126E-01 +8.78666982426E-01
1.36000000000E+09 -1.59123537122E-01 +9.00781117057E-01 -4.21935747288E-04 +1.87879429710E-04 -3.87040276935E-04 +1.84700861037E-04 -3.43943948474E-01 +8.81399984975E-01
1.36500000000E+09 -1.43558836567E-01 +9.01104259307E-01 -4.37016442872E-04 +2.03084818861E-04 -4.29231795597E-04 +1.88252896290E-04 -3.31677547077E-01 +8.83816725606E-01
1.37000000000E+09 -1.28955554365E-01 +9.01165954895E-01 -5.36528377875E-04 +1.93983935644E-04 -5.16538323910E-04 +2.46618724628E-04 -3.18867038775E-01 +8.86285192747E-01
1.37500000000E+09 -1.15615010763E-01 +9.01269928466E-01 -5.48777345383E-04 +3.82353790886E-04 -6.05854339786E-04 +3.05994166522E-04 -3.05058475929E-01 +8.88483090636E-01
1.38000000000E+09 -1.03226029884E-01 +9.01042465836E-01 -5.28578243620E-04 +5.16787608400E-04 -6.29215671938E-04 +4.56296058474E-04 -2.90372495684E-01 +8.90529215470E-01
1.38500000000E+09 -9.10114593096E-02 +9.00514051281E-01 -4.10295468859E-04 +6.16454201637E-04 -5.31027731682E-04 +6.27103227495E-04 -2.75069981022E-01 +8.92464099088E-01
1.39000000000E+09 -7.82782288458E-02 +8.99411309943E-01 -3.68064997315E-04 +5.75433889080E-04 -3.83885198580E-04 +6.49041617381E-04 -2.59013312805E-01 +8.93961163645E-01
1.39500000000E+09 -6.37745719856E-02 +8.97576488775E-01 -4.26373608010E-04 +5.98347202360E-04 -3.99244366222E-04 +7.04080086391E-04 -2.42051339679E-01 +8.94660642126E-01
1.40000000000E+09 -4.72585947316E-02 +8.94521268847E-01 -3.75430475032E-04 +7.06450582074E-04 -3.33376589474E-04 +7.70662393685E-04 -2.24467276058E-01 +8.95305930875E-01
1.40500000000E+09 -2.87672052269E-02 +8.90460574500E-01 -3.93740455843E-04 +8.24815827418E-04 -3.54865263334E-04 +8.27161595010E-04 -2.05784205767E-01 +8.95014333592E-01
1.41000000000E+09 -8.33972787319E-03 +8.85246387366E-01 -2.94225259191E-04 +9.78027578873E-04 -2.93440644013E-04 +9.34883123035E-04 -1.85557848628E-01 +8.94391719563E-01
1.41500000000E+09 +1.28624393520E-02 +8.79030705400E-01 -1.77149697363E-04 +9.71912722178E-04 -2.09850528256E-04 +1.06180004734E-03 -1.64030546842E-01 +8.92978207250E-01
1.42000000000E+09 +3.45753113642E-02 +8.72529184957E-01 -1.62773730046E-04 +1.02295758777E-03 -1.78222980953E-04 +1.17224125010E-03 -1.41065204523E-01 +8.90324515457E-01
1.42500000000E+09 +5.63138366125E-02 +8.65325453322E-01 -1.33692608341E-04 +1.21678205176E-03 -1.17311118152E-04 +1.37385368933E-03 -1.17233145182E-01 +8.86783450981E-01
1.43000000000E+09 +7.79430966110E-02 +8.57528999345E-01 +4.53753151434E-06 +1.44303930199E-03 +1.41581595330E-04 +1.54032960991E-03 -9.23228263024E-02 +8.81934598015E-01
1.43500000000E+09 +9.97574543282E-02 +8.48514942143E-01 +2.45108635338E-04 +1.55538600478E-03 +3.85616989835E-04 +1.58664174323E-03 -6.60022966744E-02 +8.75318250305E-01
1.44000000000E+09 +1.22067754366E-01 +8.38019930938E-01 +4.81826760255E-04 +1.56201623693E-03 +5.96816115700E-04 +1.58208026463E-03 -3.78110696570E-02 +8.66803064224E-01
1.44500000000E+09 +1.46026338159E-01 +8.25234838505E-01 +6.48942855881E-04 +1.55339984380E-03 +7.15418983759E-04 +1.57496369730E-03 -7.39433953363E-03 +8.55443847497E-01
1.45000000000E+09 +1.71522614061E-01 +8.08796555915E-01 +6.49421805876E-04 +1.75425956356E-03 +7.82035719922E-04 +1.74997304433E-03 +2.45895442255E-02 +8.40672422615E-01
1.45500000000E+09 +1.99077863532E-01 +7.88819785167E-01 +9.53702309085E-04 +2.06878013952E-03 +1.17733520971E-03 +2.00937043720E-03 +5.80872133598E-02 +8.23009673249E-01
1.46000000000E+09 +2.29259922872E-01 +7.63984700221E-01 +1.47825221821E-03 +2.33832218383E-03 +1.69914430460E-03 +2.12294133638E-03 +9.32428439494E-02 +8.01519198565E-01
1.46500000000E+09 +2.60810152706E-01 +7.33660395979E-01 +2.18997977907E-03 +2.52028571644E-03 +2.12704110726E-03 +2.16932787938E-03 +1.29900390959E-01 +7.74404448344E-01
1.47000000000E+09 +2.92966595464E-01 +6.98033114575E-01 +3.01676961215E-03 +2.39111486728E-03 +2.76703515385E-03 +2.15031242576E-03 +1.67128552526E-01 +7.40053728721E-01
1.47500000000E+09 +3.24787259465E-01 +6.56246571009E-01 +3.94108862359E-03 +1.96480850687E-03 +3.65998358548E-03 +2.01606437566E-03 +2.03978911607E-01 +6.98817258619E-01
1.48000000000E+09 +3.54184674297E-01 +6.07777220587E-01 +4.71145397128E-03 +1.42202871780E-03 +4.67822979741E-03 +1.56783006761E-03 +2.40720284838E-01 +6.49620265877E-01
1.48500000000E+09 +3.79638941004E-01 +5.53037412953E-01 +5.38237550575E-03 +7.73485600692E-04 +5.55260118306E-03 +6.74569917808E-04 +2.75644291701E-01 +5.90176233169E-01
1.49000000000E+09 +3.99906054699E-01 +4.90529812440E-01 +6.48678926059E-03 -1.65275313848E-04 +6.42656174550E-03 -4.93905839051E-04 +3.03879241825E-01 +5.19533267644E-01
1.49500000000E+09 +4.12822064089E-01 +4.19999467568E-01 +7.36434481787E-03 -1.87175940133E-03 +6.94781923985E-03 -2.12524560550E-03 +3.21431741654E-01 +4.38955777488E-01
1.50000000000E+09 +4.15183841902E-01 +3.40490348914E-01 +8.12748807448E-03 -3.65831909677E-03 +7.65793470653E-03 -3.47159442719E-03 +3.26585930806E-01 +3.49872451387E-01
1.50500000000E+09 +4.04596569748E-01 +2.53495353777E-01 +8.19881053986E-03 -7.32361454532E-03 +8.11795367135E-03 -6.74303320531E-03 +3.14372269256E-01 +2.52275793305E-01
1.51000000000E+09 +3.76952087961E-01 +1.59928855212E-01 +5.75939865461E-03 -1.09539945232E-02 +6.09329570547E-03 -1.05443032592E-02 +2.80909033614E-01 +1.51794531273E-01
1.51500000000E+09 +3.28138297963E-01 +6.63175120852E-02 +2.24911504688E-03 -1.26252542192E-02 +2.59044454900E-03 -1.27189252494E-02 +2.25551083400E-01 +5.57549620844E-02
1.52000000000E+09 +2.58069096337E-01 -1.90322035224E-02 -1.86262137034E-03 -1.34390152041E-02 -1.71618970859E-03 -1.36254216243E-02 +1.49428750051E-01 -2.99342714379E-02
1.52500000000E+09 +1.69967914745E-01 -9.06080924557E-02 -5.70076806997E-03 -1.19126321399E-02 -5.70473563706E-03 -1.20756571436E-02 +5.46577299289E-02 -9.81294590804E-02
1.53000000000E+09 +6.71875131587E-02 -1.41771908812E-01 -8.32360335914E-03 -1.07401904139E-02 -8.39392559248E-03 -1.08342751647E-02 -5.28250715720E-02 -1.43315310836E-01
1.53500000000E+09 -4.37085226973E-02 -1.68924537052E-01 -1.14487209520E-02 -8.24280310321E-03 -1.14973666664E-02 -8.27876771655E-03 -1.64490103614E-01 -1.63240272800E-01
1.54000000000E+09 -1.56798809119E-01 -1.70739144658E-01 -1.40885527722E-02 -4.81780141486E-03 -1.39822542933E-02 -4.86132933753E-03 -2.73489421616E-01 -1.59358960152E-01
1.54500000000E+09 -2.65179893178E-01 -1.47500186032E-01 -1.52168416564E-02 +5.57670608922E-04 -1.50473379928E-02 +2.67210947102E-04 -3.71802394923E-01 -1.35378733867E-01
1.55000000000E+09 -3.60701281575E-01 -1.03227933077E-01 -1.28077717129E-02 +5.34615269247E-03 -1.30008795515E-02 +4.89799628986E-03 -4.56531697757E-01 -9.77569323173E-02
1.55500000000E+09 -4.39528398574E-01 -4.59994516215E-02 -9.37913913033E-03 +7.97661595215E-03 -9.95459348688E-03 +7.68255732785E-03 -5.27324884670E-01 -5.12094164877E-02
1.56000000000E+09 -5.01326864274E-01 +1.55824846204E-02 -6.09335594530E-03 +8.96864277587E-03 -6.70680414977E-03 +9.13840030806E-03 -5.84755120143E-01 +2.12877057131E-03
1.56500000000E+09 -5.50707341532E-01 +7.79818502751E-02 -3.20617137271E-03 +8.68695326808E-03 -3.50374512889E-03 +9.15067501935E-03 -6.29209426358E-01 +5.75187877530E-02
1.57000000000E+09 -5.87986867011E-01 +1.39586197034E-01 -1.20811076487E-03 +7.74802077907E-03 -1.20390628619E-03 +8.32012009430E-03 -6.62474818192E-01 +1.12599373472E-01
