# Hz S RI R 50
! CMT, C1220, 16058040, 17.2.0/1
! Date: 14/08/2018 11:59:31
! Data: Format (Calibration Info)
! Freq                      S11: Re/Im (F2)                       S21: Re/Im (F2)                       S12: Re/Im (F2)                       S22: Re/Im (F2)            
1.00000000000E+09 -6.44406587941E-01 +7.12510749265E-01 -2.78320867199E-05 +2.05807196629E-05 -2.08348091779E-05 +1.32052906619E-05 -7.50081030118E-01 +6.26945410563E-01
1.00500000000E+09 -6.37280240537E-01 +7.17297478777E-01 -4.95238489807E-05 +5.02776081927E-05 -5.11554365627E-05 -3.45332474781E-05 -7.46413198786E-01 +6.30963211744E-01
1.01000000000E+09 -6.31260769814E-01 +7.21791449219E-01 -6.83250290066E-05 -1.95887630364E-05 -2.42945951272E-05 -1.83168253640E-05 -7.42914029361E-01 +6.34704221937E-01
1.01500000000E+09 -6.26753164016E-01 +7.25559817310E-01 -2.74657315916E-06 +1.97967222296E-05 -4.45475791449E-05 -3.81425872486E-06 -7.39526111373E-01 +6.38417273757E-01
1.02000000000E+09 -6.23714669594E-01 +7.28667735335E-01 -4.48968874015E-05 -2.87534449973E-06 -6.44506847445E-05 +5.31255982449E-06 -7.35835063124E-01 +6.42021287259E-01
1.02500000000E+09 -6.21628848333E-01 +7.31437253854E-01 -8.03125369529E-05 -4.92090582085E-05 -8.08602699826E-06 +3.84336811367E-05 -7.33149087842E-01 +6.45617263119E-01
1.03000000000E+09 -6.19952516936E-01 +7.33762683453E-01 -4.05077477456E-05 +4.63763408716E-07 -5.80720263457E-05 +1.74177959229E-05 -7.29539746538E-01 +6.49495783693E-01
1.03500000000E+09 -6.17613374070E-01 +7.36117155017E-01 -7.03393405045E-05 +1.18744502788E-05 -8.90247063991E-05 +3.32004328000E-05 -7.25703298769E-01 +6.53378153707E-01
1.04000000000E+09 -6.14207205152E-01 +7.39111067948E-01 +1.16443086129E-05 +2.77487117714E-05 -5.99128331869E-05 -3.11030285791E-06 -7.21945562248E-01 +6.57089911682E-01
1.04500000000E+09 -6.09083862371E-01 +7.42458892136E-01 -4.64997534499E-05 +7.19420323123E-06 -2.21765991278E-05 +1.30668959800E-05 -7.18428338681E-01 +6.60664802613E-01
1.05000000000E+09 -6.02275375197E-01 +7.46540974999E-01 -3.45559925449E-05 -9.17107754079E-07 -3.47436476328E-05 +1.62274684964E-05 -7.14976123298E-01 +6.63983324905E-01
1.05500000000E+09 -5.94291186444E-01 +7.50972031388E-01 -4.16565657482E-05 +3.71379858847E-05 -5.98203086852E-05 +6.07194614032E-05 -7.11637364410E-01 +6.67531308776E-01
1.06000000000E+09 -5.85643356997E-01 +7.55799269197E-01 -4.45143425736E-05 +4.63363377056E-05 -6.20903567215E-05 +3.07645800437E-05 -7.08348312690E-01 +6.71389244561E-01
1.06500000000E+09 -5.77672240150E-01 +7.60723746947E-01 -2.97099097409E-05 +5.72754900529E-05 -3.02523892343E-05 +8.19214044541E-05 -7.04669460476E-01 +6.74908109182E-01
1.07000000000E+09 -5.70692229123E-01 +7.64814694134E-01 -4.04037652086E-05 +6.58208426566E-05 -3.35011965600E-05 +8.93272521356E-05 -7.00606942364E-01 +6.78643310600E-01
1.07500000000E+09 -5.65270727454E-01 +7.68442104889E-01 -1.02067618775E-06 +3.35215733860E-05 -2.45181722711E-05 +8.78833131061E-05 -6.96292875115E-01 +6.82461227208E-01
1.08000000000E+09 -5.61537302670E-01 +7.71670955616E-01 +2.10840456272E-05 +1.03199623481E-04 -2.11992934669E-05 +1.23729996197E-04 -6.92273286459E-01 +6.86130195431E-01
1.08500000000E+09 -5.59000899987E-01 +7.74052401240E-01 +1.61631356659E-05 +5.23057243122E-05 +3.25128680761E-05 +3.19489947355E-05 -6.88320360164E-01 +6.89919138288E-01
1.09000000000E+09 -5.56970247919E-01 +7.76233301665E-01 +1.57577689601E-05 +5.97737218916E-05 +1.18901059702E-06 +5.30804216004E-05 -6.84430962570E-01 +6.93793132251E-01
1.09500000000E+09 -5.55052674176E-01 +7.78013958358E-01 +6.11420333975E-05 +1.90043017542E-06 +5.76242132927E-05 +7.11062433391E-05 -6.80545114601E-01 +6.97653677423E-01
1.10000000000E+09 -5.51899867607E-01 +7.80286101306E-01 +1.12770403354E-05 +6.14041301327E-05 +4.00738167215E-05 +5.29571955475E-05 -6.76541374919E-01 +7.01435914927E-01
1.10500000000E+09 -5.47277284808E-01 +7.83047084938E-01 +1.85536330532E-05 +5.46254298836E-05 +3.55492933818E-05 +7.64953812240E-05 -6.72222124183E-01 +7.05045264723E-01
1.11000000000E+09 -5.41117232724E-01 +7.86313782551E-01 -3.98090232556E-06 +9.88652163630E-05 +2.57618164741E-05 +7.83279071434E-05 -6.68073303911E-01 +7.08331961497E-01
1.11500000000E+09 -5.33700441855E-01 +7.90048112963E-01 +4.54551551208E-05 +6.57484349439E-05 +2.28306052764E-05 +9.18135989588E-05 -6.63909188002E-01 +7.11885894351E-01
1.12000000000E+09 -5.25717996312E-01 +7.93916862951E-01 +3.31455808137E-05 +6.93636282762E-05 +3.33018378795E-05 +1.08951339447E-04 -6.59790696526E-01 +7.15371073588E-01
1.12500000000E+09 -5.17592514055E-01 +7.97876393787E-01 +1.40434120452E-05 +8.26792637998E-05 +2.81543575759E-05 +6.08554060395E-05 -6.55601114990E-01 +7.19374587488E-01
1.13000000000E+09 -5.10634095123E-01 +8.01502169540E-01 +5.87879730928E-05 +4.49441655082E-05 +8.94281400486E-05 +4.17157439012E-05 -6.51309924630E-01 +7.23189296229E-01
1.13500000000E+09 -5.04586256839E-01 +8.04480534143E-01 +3.44910665140E-05 +1.40705448912E-04 +5.88205607818E-05 +5.74285939219E-05 -6.46665514769E-01 +7.26989299533E-01
1.14000000000E+09 -4.99783172256E-01 +8.07146985649E-01 +7.28536833878E-05 +6.00641810071E-05 +3.81585931462E-05 +7.27239147427E-05 -6.42004025320E-01 +7.30437195644E-01
1.14500000000E+09 -4.96015532553E-01 +8.09202342311E-01 +9.67036378784E-05 +3.64916164659E-05 +5.37404751286E-05 +6.58916069199E-05 -6.37371052096E-01 +7.33677362521E-01
1.15000000000E+09 -4.92543023896E-01 +8.11024869079E-01 +7.53823649577E-05 +5.65098926851E-05 +8.00676095061E-05 +9.18802668349E-05 -6.32750194825E-01 +7.37466100254E-01
1.15500000000E+09 -4.88887394229E-01 +8.12918566562E-01 +9.40850325792E-05 +2.84627022654E-05 +9.43844933405E-05 +6.87117598989E-05 -6.27799700051E-01 +7.41181212868E-01
1.16000000000E+09 -4.84167753257E-01 +8.15040180034E-01 +7.17933161944E-05 +4.57489337049E-05 +8.45054884202E-05 +7.34137415773E-05 -6.22984619140E-01 +7.45173565546E-01
1.16500000000E+09 -4.78130658069E-01 +8.17749523041E-01 +1.12191295952E-04 +7.27046755118E-05 +1.23488305611E-04 +7.90754356577E-05 -6.17765248521E-01 +7.48745871297E-01
1.17000000000E+09 -4.70769663363E-01 +8.20944208689E-01 +1.44926812861E-04 +4.60609297862E-05 +1.33235556111E-04 +3.87492368168E-05 -6.12392046158E-01 +7.52083736211E-01
1.17500000000E+09 -4.62494161585E-01 +8.24202001880E-01 +1.35990521205E-04 +2.09208016487E-05 +1.68457874689E-04 +6.52683360049E-05 -6.06630896859E-01 +7.55208673633E-01
1.18000000000E+09 -4.54091892949E-01 +8.27684364538E-01 +1.43670701767E-04 +5.28758742843E-05 +1.38492694443E-04 -4.38758935310E-06 -6.01157616621E-01 +7.58320602072E-01
1.18500000000E+09 -4.45812458127E-01 +8.30811235319E-01 +1.72152036396E-04 +4.50817751426E-05 +1.64052769750E-04 +3.35917917376E-05 -5.95099897472E-01 +7.61346115256E-01
1.19000000000E+09 -4.38582130462E-01 +8.33445071762E-01 +1.50305304540E-04 +3.43921480632E-05 +2.09546324885E-04 +4.54356544308E-05 -5.88836688657E-01 +7.64050387720E-01
1.19500000000E+09 -4.32526600689E-01 +8.35493783224E-01 +1.84796384373E-04 -1.87483049854E-05 +2.51737824448E-04 +1.82117240286E-05 -5.82935006138E-01 +7.65219639455E-01
1.20000000000E+09 -4.27848003497E-01 +8.36363405595E-01 +2.85013237311E-04 -8.40743488487E-05 +2.43636378211E-04 -1.41147528114E-04 -5.78264579001E-01 +7.65554868366E-01
1.20500000000E+09 -4.24001378414E-01 +8.37700993521E-01 +2.18005131910E-04 -1.79373590113E-04 +1.99956983943E-04 -1.50808523078E-04 -5.76038816707E-01 +7.66067085576E-01
1.21000000000E+09 -4.20089715812E-01 +8.39128188199E-01 +1.76758379373E-04 -1.95606015427E-04 +1.44673177576E-04 -1.94914200474E-04 -5.74159790706E-01 +7.69164012625E-01
1.21500000000E+09 -4.14966037630E-01 +8.41033238061E-01 +1.53368973803E-04 -1.81308880571E-04 +1.45530468835E-04 -1.62589181641E-04 -5.71499659944E-01 +7.73632726356E-01
1.22000000000E+09 -4.08419136137E-01 +8.42942103856E-01 +1.19839211901E-04 -2.14034100519E-04 +1.27893687591E-04 -1.91799141047E-04 -5.67436429334E-01 +7.78932727692E-01
1.22500000000E+09 -4.00014698303E-01 +8.45696998395E-01 +1.25618507916E-04 -1.63846360566E-04 +1.23899136380E-04 -2.46879413560E-04 -5.62117232140E-01 +7.84019136097E-01
1.23000000000E+09 -3.90563660172E-01 +8.48710944023E-01 +1.47295453523E-04 -1.98870688317E-04 +1.40753808522E-04 -2.29346134277E-04 -5.56348061922E-01 +7.88770884683E-01
1.23500000000E+09 -3.80530474152E-01 +8.52176043115E-01 +1.30011376676E-04 -2.23240062946E-04 +7.61737446441E-05 -2.31876601984E-04 -5.50560756688E-01 +7.92977212415E-01
1.24000000000E+09 -3.70089064856E-01 +8.55956949427E-01 +9.12510248578E-05 -1.96240536043E-04 +1.25149306662E-04 -2.14392867854E-04 -5.44523201017E-01 +7.96956991670E-01
1.24500000000E+09 -3.61013427311E-01 +8.59559690945E-01 +1.07470600967E-04 -3.03016219679E-04 +1.00987480179E-04 -2.38726695564E-04 -5.38232330619E-01 +8.00826648980E-01
1.25000000000E+09 -3.52740291929E-01 +8.62742147129E-01 +2.95575222611E-05 -2.85232212945E-04 +5.25180785200E-05 -3.00525706823E-04 -5.31557012764E-01 +8.05040261318E-01
1.25500000000E+09 -3.46007727559E-01 +8.65174851360E-01 +2.81496351326E-05 -2.99367808827E-04 +7.69573994893E-05 -3.23208486189E-04 -5.24641918620E-01 +8.08993331981E-01
1.26000000000E+09 -3.40421232024E-01 +8.67114807963E-01 +1.76333445886E-05 -2.85330798149E-04 +3.25317112499E-05 -3.38072553194E-04 -5.17948817913E-01 +8.13180536839E-01
1.26500000000E+09 -3.35285582668E-01 +8.68494690966E-01 +1.01792524821E-05 -3.32912169150E-04 +2.84648805830E-05 -3.58175794645E-04 -5.11048748617E-01 +8.16959475633E-01
1.27000000000E+09 -3.29853976617E-01 +8.69849242959E-01 -5.59749098425E-05 -3.97461724072E-04 -7.51278144856E-05 -4.27741727315E-04 -5.04302448011E-01 +8.20922030016E-01
1.27500000000E+09 -3.23404396065E-01 +8.71074950695E-01 -1.16083842348E-04 -3.61272829691E-04 -1.31273536548E-04 -3.51447798638E-04 -4.97218349591E-01 +8.24361472186E-01
1.28000000000E+09 -3.15060202488E-01 +8.72697297311E-01 -1.92003168620E-04 -3.50755157518E-04 -1.51661920424E-04 -3.75515028748E-04 -4.90280768865E-01 +8.27841361788E-01
1.28500000000E+09 -3.04715583224E-01 +8.74602640385E-01 -1.70472103936E-04 -3.11766613875E-04 -2.27596780043E-04 -3.82866246694E-04 -4.82812122064E-01 +8.31464892294E-01
1.29000000000E+09 -2.93050808332E-01 +8.76897324536E-01 -2.11564001497E-04 -2.93641799384E-04 -2.72486023907E-04 -3.65671001451E-04 -4.75334542649E-01 +8.35150041995E-01
1.29500000000E+09 -2.80780031233E-01 +8.79733284790E-01 -2.30274150233E-04 -3.29723941948E-04 -2.70842598100E-04 -3.53247221508E-04 -4.67400074976E-01 +8.38661644416E-01
1.30000000000E+09 -2.68614856767E-01 +8.82686640541E-01 -2.64052977479E-04 -3.84623391558E-04 -3.58646574405E-04 -2.89867566864E-04 -4.59442358944E-01 +8.42183278990E-01
1.30500000000E+09 -2.57491793972E-01 +8.85627411897E-01 -4.07661284730E-04 -3.76478153545E-04 -3.55747627527E-04 -2.85180852344E-04 -4.51486736271E-01 +8.45651173237E-01
1.31000000000E+09 -2.47849986792E-01 +8.88135921271E-01 -4.63732305067E-04 -2.67978350405E-04 -4.11142339864E-04 -2.31142479619E-04 -4.43203710933E-01 +8.48975141765E-01
1.31500000000E+09 -2.40031981978E-01 +8.90105601827E-01 -4.65245068166E-04 -2.18306047594E-04 -3.97583409215E-04 -2.14550398699E-04 -4.34419136459E-01 +8.52525117145E-01
1.32000000000E+09 -2.33685941113E-01 +8.91339652773E-01 -4.45696525128E-04 -1.47733197254E-04 -4.57579466802E-04 -2.03558969028E-04 -4.25278332470E-01 +8.55883837368E-01
1.32500000000E+09 -2.27749370071E-01 +8.91745857986E-01 -4.66049684861E-04 -1.37272480766E-04 -5.66442298034E-04 -1.70374937145E-04 -4.15585602888E-01 +8.59294911948E-01
1.33000000000E+09 -2.21311692515E-01 +8.91953107744E-01 -5.20113091751E-04 -1.56952758622E-04 -5.37177052694E-04 -1.35008375659E-04 -4.05894595761E-01 +8.62646873568E-01
1.33500000000E+09 -2.13014751198E-01 +8.91902283826E-01 -5.60101932418E-04 -1.51517469238E-04 -5.90346905788E-04 -9.92708578575E-05 -3.95901293913E-01 +8.65923788369E-01
1.34000000000E+09 -2.02313476366E-01 +8.91876116457E-01 -6.71626969779E-04 -1.26585305629E-04 -6.28391826387E-04 -1.02981964852E-04 -3.85582754066E-01 +8.68962886733E-01
1.34500000000E+09 -1.89111932821E-01 +8.91616984249E-01 -6.81933981342E-04 -4.95976820375E-05 -6.55060607527E-04 -6.10099470377E-05 -3.74771360839E-01 +8.72469194090E-01
1.35000000000E+09 -1.73725631463E-01 +8.91369855374E-01 -7.93529939777E-04 +3.82321757068E-05 -7.09363563242E-04 +2.29920122222E-05 -3.63501910341E-01 +8.75478729395E-01
1.35500000000E+09 -1.57250432269E-01 +8.91307444021E-01 -7.51413081847E-04 +1.12923389699E-04 -7.49070875978E-04 +1.25604444375E-04 -3.51916969680E-01 +8.78052006424E-01
1.36000000000E+09 -1.40749436063E-01 +8.91548945248E-01 -7.72745998799E-04 +1.87971764048E-04 -7.07128141663E-04 +1.86285896203E-04 -3.40035193939E-01 +8.80941109665E-01
1.36500000000E+09 -1.24891142585E-01 +8.92043699354E-01 -8.34789075310E-04 +2.21008613834E-04 -7.34156798451E-04 +1.93307436685E-04 -3.27813275243E-01 +8.83297962022E-01
1.37000000000E+09 -1.10509717540E-01 +8.92063656743E-01 -8.35379887949E-04 +3.33737070121E-04 -7.72999380872E-04 +2.45836157326E-04 -3.15004265765E-01 +8.85695014714E-01
1.37500000000E+09 -9.79264377314E-02 +8.92003918727E-01 -9.19787384053E-04 +3.82847977816E-04 -9.14032668877E-04 +2.89994903036E-04 -3.01281831010E-01 +8.87982465679E-01
1.38000000000E+09 -8.67421049163E-02 +8.91555111564E-01 -9.69123967544E-04 +5.81166710937E-04 -1.03153920233E-03 +4.69508304796E-04 -2.86640799624E-01 +8.89724486176E-01
1.38500000000E+09 -7.57414106478E-02 +8.90471384441E-01 -9.05235663238E-04 +7.18205315935E-04 -1.06657147923E-03 +7.12595362684E-04 -2.71247079910E-01 +8.91520079295E-01
1.39000000000E+09 -6.43138286515E-02 +8.88647155476E-01 -8.40643502222E-04 +8.69534264464E-04 -9.95244710471E-04 +9.43806890437E-04 -2.55331210431E-01 +8.93027430648E-01
1.39500000000E+09 -5.07312153254E-02 +8.86006397979E-01 -8.50673676234E-04 +9.53118759572E-04 -8.73943035049E-04 +1.05146586108E-03 -2.38598199593E-01 +8.93701979679E-01
1.40000000000E+09 -3.47040239611E-02 +8.82322869938E-01 -8.86421111835E-04 +1.12129938935E-03 -7.54190130368E-04 +1.22005516350E-03 -2.21079546530E-01 +8.94159053688E-01
1.40500000000E+09 -1.64641900135E-02 +8.77710605904E-01 -7.53114643370E-04 +1.28913482426E-03 -6.78493520866E-04 +1.29863803026E-03 -2.02457783127E-01 +8.94030085751E-01
1.41000000000E+09 +4.09505475317E-03 +8.72205700124E-01 -6.79621889937E-04 +1.47084995475E-03 -6.92733985103E-04 +1.42537678758E-03 -1.82387756982E-01 +8.93144233118E-01
1.41500000000E+09 +2.59798997273E-02 +8.66114086375E-01 -5.38928338222E-04 +1.61947201367E-03 -6.83865689114E-04 +1.72768543181E-03 -1.61078204766E-01 +8.91662295653E-01
1.42000000000E+09 +4.86520953733E-02 +8.59584078477E-01 -5.00394365125E-04 +1.74626963044E-03 -5.90395236430E-04 +1.96109339037E-03 -1.38197209881E-01 +8.89165688422E-01
1.42500000000E+09 +7.09619627364E-02 +8.52164382145E-01 -4.51913371357E-04 +2.05621970141E-03 -4.39542671724E-04 +2.34466187726E-03 -1.14586643359E-01 +8.85641006474E-01
1.43000000000E+09 +9.24688526758E-02 +8.43843384884E-01 -2.38285329781E-04 +2.52029897003E-03 -5.45303146139E-06 +2.76023811496E-03 -8.96875211833E-02 +8.80819998678E-01
1.43500000000E+09 +1.13268889025E-01 +8.34620963916E-01 +2.98159870510E-04 +2.75202792783E-03 +5.83453500038E-04 +2.78761701353E-03 -6.33933743519E-02 +8.74206258712E-01
1.44000000000E+09 +1.34280921580E-01 +8.24029327281E-01 +6.58526782263E-04 +2.82199020127E-03 +8.73742425521E-04 +2.80221237006E-03 -3.54017404563E-02 +8.65552239383E-01
1.44500000000E+09 +1.56536472547E-01 +8.10879649241E-01 +1.14923153433E-03 +2.86003446970E-03 +1.26457488790E-03 +2.83869699829E-03 -5.29275368884E-03 +8.54401559940E-01
1.45000000000E+09 +1.80558658929E-01 +7.94134346547E-01 +1.29485204658E-03 +2.95437815182E-03 +1.50732488856E-03 +2.90629121569E-03 +2.68601286484E-02 +8.39644641951E-01
1.45500000000E+09 +2.06298492170E-01 +7.73597914775E-01 +1.63467310297E-03 +3.37691820700E-03 +1.97572332215E-03 +3.22851116996E-03 +5.97854372847E-02 +8.21747217540E-01
1.46000000000E+09 +2.34483130366E-01 +7.48713000240E-01 +2.53393285467E-03 +3.79023433223E-03 +2.78936509845E-03 +3.37684681114E-03 +9.45322563994E-02 +8.00562095313E-01
1.46500000000E+09 +2.64728319554E-01 +7.19339438973E-01 +3.62962467527E-03 +3.95085478167E-03 +3.59640536770E-03 +3.38866053800E-03 +1.31257120278E-01 +7.73772425448E-01
1.47000000000E+09 +2.96240411368E-01 +6.84448840932E-01 +5.15167844165E-03 +3.71632098344E-03 +4.77144583434E-03 +3.40113184672E-03 +1.68616817189E-01 +7.39863111777E-01
1.47500000000E+09 +3.27365638195E-01 +6.43861953445E-01 +6.44507208181E-03 +2.72828463593E-03 +6.09099024868E-03 +2.86898764545E-03 +2.05434461057E-01 +6.98650206736E-01
1.48000000000E+09 +3.56018823512E-01 +5.96812176952E-01 +7.31088503843E-03 +1.79242332779E-03 +7.32802221393E-03 +1.98328485516E-03 +2.41589937397E-01 +6.49179460687E-01
1.48500000000E+09 +3.79919234004E-01 +5.43597956221E-01 +8.45421760095E-03 +7.76340718585E-04 +8.65966907249E-03 +6.69501246008E-04 +2.75339635919E-01 +5.90879313413E-01
1.49000000000E+09 +3.97983271626E-01 +4.83454203609E-01 +9.88095277250E-03 -8.50098347773E-04 +9.80713734876E-03 -1.29671820057E-03 +3.04639080090E-01 +5.21677690913E-01
1.49500000000E+09 +4.08291769402E-01 +4.16643159485E-01 +1.08442537378E-02 -3.20866361858E-03 +1.02294044726E-02 -3.52085537376E-03 +3.23157974938E-01 +4.40410003530E-01
1.50000000000E+09 +4.09090134816E-01 +3.41066417323E-01 +1.17820152987E-02 -6.21929412941E-03 +1.10713508056E-02 -5.87209318403E-03 +3.27053188069E-01 +3.52041868802E-01
1.50500000000E+09 +3.97801659754E-01 +2.58325897242E-01 +1.11351487379E-02 -1.10396647954E-02 +1.09746814922E-02 -1.02041664867E-02 +3.16439509112E-01 +2.56616503218E-01
1.51000000000E+09 +3.70539806336E-01 +1.69039306228E-01 +8.33155210752E-03 -1.54158902699E-02 +8.86475521981E-03 -1.49043641941E-02 +2.86133491487E-01 +1.55886348660E-01
1.51500000000E+09 +3.24463179959E-01 +7.94759133918E-02 +3.19212104444E-03 -1.86933116070E-02 +3.72931216431E-03 -1.87569679657E-02 +2.31378287455E-01 +5.72952590974E-02
1.52000000000E+09 +2.59172778115E-01 -4.97768611849E-03 -3.08415309935E-03 -1.95576267424E-02 -2.88207821097E-03 -1.97965709805E-02 +1.55264994198E-01 -2.98521007516E-02
1.52500000000E+09 +1.74128726652E-01 -7.69345435227E-02 -8.58410573584E-03 -1.71836312913E-02 -8.56658104875E-03 -1.74130765532E-02 +5.95541426725E-02 -9.92238391770E-02
1.53000000000E+09 +7.49828575543E-02 -1.27450051540E-01 -1.22563858525E-02 -1.45882480924E-02 -1.23009096759E-02 -1.47360094189E-02 -4.85730045953E-02 -1.45384034843E-01
1.53500000000E+09 -3.13384313319E-02 -1.54278839744E-01 -1.61621377035E-02 -1.13735359655E-02 -1.62205731700E-02 -1.13306653970E-02 -1.62265415324E-01 -1.65058102092E-01
1.54000000000E+09 -1.39420583231E-01 -1.57792882477E-01 -1.90856362360E-02 -6.16987728129E-03 -1.89062501932E-02 -6.20279640763E-03 -2.72310816253E-01 -1.61010188178E-01
1.54500000000E+09 -2.44494627273E-01 -1.37627062182E-01 -1.95030476304E-02 +3.92334069293E-05 -1.92730122525E-02 -2.89236063562E-04 -3.71052120297E-01 -1.35497768689E-01
1.55000000000E+09 -3.40004332223E-01 -9.64569837807E-02 -1.75473004432E-02 +5.29465231874E-03 -1.76987759210E-02 +4.64433921457E-03 -4.56215562368E-01 -9.73906471651E-02
1.55500000000E+09 -4.19221656867E-01 -4.00275098895E-02 -1.45687335428E-02 +9.28375015271E-03 -1.52568486160E-02 +8.81808499803E-03 -5.26798189697E-01 -4.91767156604E-02
1.56000000000E+09 -4.80819368079E-01 +2.09394321046E-02 -1.02386008914E-02 +1.18894607914E-02 -1.11291148968E-02 +1.20486198453E-02 -5.83602228909E-01 +4.67627926437E-03
1.56500000000E+09 -5.29082726034E-01 +8.10395618259E-02 -5.76587928882E-03 +1.22451821771E-02 -6.31815013685E-03 +1.28634582110E-02 -6.26976578617E-01 +6.02285430795E-02
1.57000000000E+09 -5.67737082276E-01 +1.39368906005E-01 -2.86608339143E-03 +1.10419600161E-02 -2.94446367549E-03 +1.18017523108E-02 -6.60244391860E-01 +1.15486696871E-01
