# Hz S RI R 50
! CMT, C1220, 16058040, 17.2.0/1
! Date: 14/08/2018 11:57:57
! Data: Format (Calibration Info)
! Freq                      S11: Re/Im (F2)                       S21: Re/Im (F2)                       S12: Re/Im (F2)                       S22: Re/Im (F2)            
1.00000000000E+09 -6.44670196923E-01 +7.12391540361E-01 -1.96955943470E-05 -2.54424142981E-06 +5.95587782538E-06 +1.13865033111E-05 -7.50034729035E-01 +6.26966197934E-01
1.00500000000E+09 -6.37635572709E-01 +7.17327275468E-01 -7.03936224134E-05 +2.44855754751E-05 -1.87329691711E-05 -8.32279610588E-06 -7.46301393519E-01 +6.31086496290E-01
1.01000000000E+09 -6.31588538960E-01 +7.21708515573E-01 -1.38502017251E-05 -2.35617948677E-06 -1.60854268268E-05 +2.83809004247E-05 -7.42782336646E-01 +6.34817750776E-01
1.01500000000E+09 -6.27153043291E-01 +7.25603994000E-01 -5.64995638189E-06 -3.33139142968E-05 -2.26198661402E-05 +1.85713748420E-05 -7.39365093881E-01 +6.38542479354E-01
1.02000000000E+09 -6.23995223378E-01 +7.28736046722E-01 -4.91114922509E-05 -6.59578328030E-06 -4.81559271391E-05 -5.47775110363E-05 -7.35865956133E-01 +6.42173032875E-01
1.02500000000E+09 -6.22069567075E-01 +7.31446492676E-01 -4.69312546299E-05 +3.70892142517E-05 -2.53845640711E-05 +2.99783311023E-05 -7.33042244154E-01 +6.45775659710E-01
1.03000000000E+09 -6.20439900881E-01 +7.33740067664E-01 -5.88219117280E-05 +2.61137745439E-05 -3.07213033663E-05 -2.88740818568E-05 -7.29373109429E-01 +6.49617146662E-01
1.03500000000E+09 -6.18188640342E-01 +7.36127781235E-01 -6.46224698910E-06 -4.62566745552E-06 -2.89286942493E-05 +3.15558581760E-05 -7.25621456183E-01 +6.53567438061E-01
1.04000000000E+09 -6.14652193478E-01 +7.38953343396E-01 -3.39888715338E-05 +2.64134667563E-05 -7.79075510430E-05 +6.39148398824E-05 -7.21912049144E-01 +6.57189968180E-01
1.04500000000E+09 -6.09454713587E-01 +7.42346031959E-01 -5.66445904115E-05 +7.34123349452E-05 -8.87006527389E-05 -2.50026868683E-05 -7.18398321330E-01 +6.60718929950E-01
1.05000000000E+09 -6.02707482307E-01 +7.46488312667E-01 -3.93390398582E-05 -1.35733753648E-05 -3.09965126846E-05 +7.98330979101E-06 -7.14947471931E-01 +6.64007793609E-01
1.05500000000E+09 -5.94807519051E-01 +7.50926927019E-01 -6.49615565790E-05 +2.80201954007E-05 -9.13293188023E-06 +5.96192518061E-05 -7.11637047148E-01 +6.67659845420E-01
1.06000000000E+09 -5.86211961953E-01 +7.55856237821E-01 -6.26844886871E-05 +1.76797910241E-05 -5.68964336313E-05 +9.78655153751E-05 -7.08211172787E-01 +6.71456736045E-01
1.06500000000E+09 -5.78081080775E-01 +7.60712028418E-01 -1.45972993520E-05 +1.24300991798E-04 -4.89404977143E-05 +8.43707382314E-05 -7.04615369184E-01 +6.75230897701E-01
1.07000000000E+09 -5.71213133603E-01 +7.64883278745E-01 -1.27479713268E-05 +7.37175233312E-05 -2.88438157315E-05 +4.18356600773E-05 -7.00547383282E-01 +6.78832652818E-01
1.07500000000E+09 -5.65879299838E-01 +7.68426917767E-01 -2.64817081181E-05 +7.85804072478E-05 -1.93415440080E-05 +7.43199946505E-05 -6.96247201511E-01 +6.82507939682E-01
1.08000000000E+09 -5.62217953773E-01 +7.71654035219E-01 -2.76313978469E-06 +1.02604933988E-04 -1.78157757041E-05 +1.05861056477E-04 -6.92243899504E-01 +6.86370694064E-01
1.08500000000E+09 -5.59741062753E-01 +7.74014311871E-01 -1.76719940567E-05 +7.67784523983E-05 -1.94906702810E-05 +1.05184359056E-04 -6.88241739133E-01 +6.90116515184E-01
1.09000000000E+09 -5.57655932832E-01 +7.76148204185E-01 -8.18977566690E-06 +8.75035436558E-05 +2.62042453526E-05 +4.67569261032E-05 -6.84370441175E-01 +6.93904620732E-01
1.09500000000E+09 -5.55845587345E-01 +7.78103000539E-01 +3.56325698625E-05 +7.34230140273E-05 +1.46443947192E-05 +3.00189577413E-05 -6.80564264771E-01 +6.97636169867E-01
1.10000000000E+09 -5.52641811062E-01 +7.80286552830E-01 +2.15938659277E-05 +3.88776761378E-05 +6.30445645079E-05 +5.76977775592E-05 -6.76516087814E-01 +7.01449167402E-01
1.10500000000E+09 -5.48097949404E-01 +7.82983053163E-01 +4.29293242237E-05 +4.21256962224E-05 +1.15438033310E-05 +7.47178444475E-05 -6.72052871734E-01 +7.05045677139E-01
1.11000000000E+09 -5.41997210115E-01 +7.86342504994E-01 +1.95035124947E-05 +5.99368389346E-05 +4.97293615125E-05 +1.05629311708E-04 -6.68138221317E-01 +7.08476256412E-01
1.11500000000E+09 -5.34547290890E-01 +7.90085003676E-01 +7.73943113353E-06 +8.83798138137E-05 +3.72691880788E-05 +8.54448754800E-05 -6.63986055184E-01 +7.11819469130E-01
1.12000000000E+09 -5.26571671814E-01 +7.94078776763E-01 +3.07040201188E-05 +3.16856326156E-05 +4.81322945930E-05 +8.95816395063E-05 -6.59634794969E-01 +7.15521727466E-01
1.12500000000E+09 -5.18532431001E-01 +7.98097744990E-01 +7.29642352487E-05 +5.49573846797E-05 +8.36418101156E-05 +8.25584193432E-05 -6.55489676771E-01 +7.19403080397E-01
1.13000000000E+09 -5.11520764939E-01 +8.01562484828E-01 +3.95636079493E-05 +8.09582552597E-05 +3.05720222013E-05 +7.45343659052E-05 -6.51080956216E-01 +7.23188969723E-01
1.13500000000E+09 -5.05514771810E-01 +8.04608965447E-01 +5.38048563972E-05 +6.55170495719E-05 +5.05877212322E-05 +5.74403676258E-05 -6.46610906932E-01 +7.26972125165E-01
1.14000000000E+09 -5.00939703022E-01 +8.07366368044E-01 +9.19473071135E-05 +7.62432161201E-05 +1.12505333490E-04 +1.07521705086E-04 -6.42020381478E-01 +7.30542087009E-01
1.14500000000E+09 -4.97155352670E-01 +8.09267957736E-01 +8.83257976746E-05 +7.36482633147E-05 +1.12550195487E-04 +1.01364215366E-04 -6.37152604373E-01 +7.33838776981E-01
1.15000000000E+09 -4.93553551980E-01 +8.11211717938E-01 +8.37787053432E-05 +7.28885788905E-05 +6.36238757571E-05 +5.72012634326E-05 -6.32526194133E-01 +7.37565819422E-01
1.15500000000E+09 -4.90035815035E-01 +8.13204485516E-01 +8.91327037946E-05 +5.43836469388E-05 +1.02192400088E-04 +8.30516660492E-05 -6.27771900505E-01 +7.41218703106E-01
1.16000000000E+09 -4.85241078596E-01 +8.15268048686E-01 +9.51910095913E-05 +5.12650316010E-05 +1.29983625533E-04 +4.68870543402E-05 -6.22861351451E-01 +7.45328462611E-01
1.16500000000E+09 -4.79343904556E-01 +8.18139844793E-01 +1.28611451339E-04 +8.69595204366E-05 +1.05328609019E-04 +4.18017408051E-05 -6.17668449345E-01 +7.48878545225E-01
1.17000000000E+09 -4.71965894510E-01 +8.21358497031E-01 +1.44649655610E-04 +4.72518765841E-05 +1.80350374907E-04 +2.84212814022E-05 -6.12189324349E-01 +7.52075357974E-01
1.17500000000E+09 -4.63907914726E-01 +8.24447312241E-01 +1.06923881777E-04 +4.69986819922E-05 +1.53016675284E-04 +2.24524577625E-06 -6.06593084918E-01 +7.55361545376E-01
1.18000000000E+09 -4.55275352918E-01 +8.28147105933E-01 +1.74384851255E-04 +2.36791639839E-05 +1.58925657542E-04 -1.28361557992E-06 -6.00945240230E-01 +7.58467130624E-01
1.18500000000E+09 -4.47130194342E-01 +8.31315869591E-01 +1.61712688943E-04 -3.18355074608E-05 +2.17468814566E-04 -1.68469081105E-05 -5.95022853822E-01 +7.61500491943E-01
1.19000000000E+09 -4.39854408901E-01 +8.34006035665E-01 +1.75964414612E-04 +1.80811809341E-05 +2.00588027290E-04 -6.81792453862E-06 -5.88726512314E-01 +7.64124952332E-01
1.19500000000E+09 -4.33987371648E-01 +8.36047109013E-01 +2.21456360409E-04 -3.81343496763E-05 +2.57685190926E-04 -5.49933849475E-05 -5.82797709632E-01 +7.65346712810E-01
1.20000000000E+09 -4.29292939019E-01 +8.37089017465E-01 +2.75494835049E-04 -1.53766351973E-04 +2.47202831218E-04 -1.65034656021E-04 -5.78290081859E-01 +7.65554920456E-01
1.20500000000E+09 -4.25304803340E-01 +8.38353370159E-01 +2.00276846176E-04 -1.85303475053E-04 +1.82749128372E-04 -2.13901165174E-04 -5.75923265618E-01 +7.66301947848E-01
1.21000000000E+09 -4.21345390877E-01 +8.39967770969E-01 +1.44444413238E-04 -2.39056823735E-04 +1.54471141475E-04 -2.46910056668E-04 -5.74118615934E-01 +7.69255740163E-01
1.21500000000E+09 -4.16288770897E-01 +8.41618732740E-01 +9.23301300716E-05 -1.51386237452E-04 +1.41256594171E-04 -2.02727513495E-04 -5.71343001515E-01 +7.73706808242E-01
1.22000000000E+09 -4.09665491124E-01 +8.43829766031E-01 +1.06200437820E-04 -1.65293798391E-04 +8.18222242605E-05 -1.92856542877E-04 -5.67146011851E-01 +7.79140098604E-01
1.22500000000E+09 -4.01501485802E-01 +8.46527127487E-01 +1.30087332460E-04 -1.83116979429E-04 +9.53959732152E-05 -1.72966213100E-04 -5.62110265848E-01 +7.84134148022E-01
1.23000000000E+09 -3.91991169174E-01 +8.49590077740E-01 +1.27191387567E-04 -2.01418303546E-04 +9.03215193074E-05 -2.21698002835E-04 -5.56418449611E-01 +7.88824977940E-01
1.23500000000E+09 -3.81897712460E-01 +8.53078012450E-01 +1.10324961935E-04 -2.40661163758E-04 +6.72442485836E-05 -2.44939567979E-04 -5.50464239282E-01 +7.93198805576E-01
1.24000000000E+09 -3.71667213910E-01 +8.56739392270E-01 +1.16416980539E-04 -2.41520136534E-04 +8.79158518041E-05 -2.57727420918E-04 -5.44466570286E-01 +7.97060446268E-01
1.24500000000E+09 -3.62440061953E-01 +8.60457515615E-01 +5.74834413242E-05 -3.10632991499E-04 +6.74729674201E-05 -2.76237398851E-04 -5.38135043181E-01 +8.00804154267E-01
1.25000000000E+09 -3.54270437055E-01 +8.63728870309E-01 +1.39110007203E-05 -2.85564508577E-04 +8.64379585879E-05 -2.81894222104E-04 -5.31516901795E-01 +8.05054280074E-01
1.25500000000E+09 -3.47446660610E-01 +8.66098780750E-01 -3.67335266983E-05 -3.48286586822E-04 +4.77483651220E-05 -3.12077838158E-04 -5.24645849970E-01 +8.09013725342E-01
1.26000000000E+09 -3.41911259498E-01 +8.68180797708E-01 +3.64384294444E-05 -2.92559586545E-04 +1.02819960196E-06 -3.47558601823E-04 -5.17962778155E-01 +8.13384718900E-01
1.26500000000E+09 -3.36803795850E-01 +8.69653959493E-01 -2.02674775291E-05 -3.17062803679E-04 -5.08087661195E-05 -3.69183851217E-04 -5.10921637043E-01 +8.17124238072E-01
1.27000000000E+09 -3.31434787311E-01 +8.70943785895E-01 -4.68292386707E-05 -4.06651786187E-04 -6.76281234994E-05 -3.52960098527E-04 -5.04219133037E-01 +8.20988626376E-01
1.27500000000E+09 -3.24975232688E-01 +8.72202322512E-01 -8.83228031725E-05 -4.03834055194E-04 -1.29223086207E-04 -3.96941579277E-04 -4.97117997519E-01 +8.24510404052E-01
1.28000000000E+09 -3.16643456197E-01 +8.73976342203E-01 -1.79518428710E-04 -3.41631225511E-04 -1.72622620773E-04 -3.71713308440E-04 -4.90160129841E-01 +8.28079320090E-01
1.28500000000E+09 -3.06385182726E-01 +8.76057570884E-01 -2.14544504374E-04 -3.73050761082E-04 -2.14127128884E-04 -3.89648322341E-04 -4.82817776329E-01 +8.31583548276E-01
1.29000000000E+09 -2.94717366020E-01 +8.78422534904E-01 -2.02379743982E-04 -2.91710410984E-04 -2.60913471209E-04 -3.38856936193E-04 -4.75143881487E-01 +8.35348778056E-01
1.29500000000E+09 -2.82202332345E-01 +8.81280711119E-01 -2.33369530422E-04 -3.59286525732E-04 -3.23211657397E-04 -3.32730027886E-04 -4.67265542529E-01 +8.38852586302E-01
1.30000000000E+09 -2.70086152812E-01 +8.84282541185E-01 -3.08420587802E-04 -3.67969419637E-04 -3.50421710813E-04 -2.98745213030E-04 -4.59415857183E-01 +8.42456466454E-01
1.30500000000E+09 -2.58914505438E-01 +8.87218459050E-01 -3.72362228412E-04 -3.15707130685E-04 -3.74101002978E-04 -3.72948713120E-04 -4.51256722425E-01 +8.45790449979E-01
1.31000000000E+09 -2.49294490036E-01 +8.89782843237E-01 -4.02787536728E-04 -3.12463757983E-04 -4.44738165198E-04 -2.94445991798E-04 -4.42878626183E-01 +8.49263222883E-01
1.31500000000E+09 -2.41521384885E-01 +8.91676704478E-01 -4.72278192755E-04 -2.66643789487E-04 -4.26808188995E-04 -2.63231879837E-04 -4.34103008164E-01 +8.52634925145E-01
1.32000000000E+09 -2.35052071978E-01 +8.93036806201E-01 -4.77368576714E-04 -1.71886035016E-04 -4.84695330097E-04 -2.13062591496E-04 -4.25050076123E-01 +8.55955373994E-01
1.32500000000E+09 -2.29306640643E-01 +8.93603850912E-01 -4.99242521362E-04 -1.77687932499E-04 -5.46983809880E-04 -2.20986342513E-04 -4.15304245405E-01 +8.59438719519E-01
1.33000000000E+09 -2.22694937844E-01 +8.93914950871E-01 -5.64902502791E-04 -1.83455408866E-04 -5.81140680272E-04 -1.79884995353E-04 -4.05681316780E-01 +8.62727213224E-01
1.33500000000E+09 -2.14566893888E-01 +8.93953942540E-01 -6.26547888840E-04 -1.83406385850E-04 -6.54396510986E-04 -1.61112328676E-04 -3.95630070080E-01 +8.66003008663E-01
1.34000000000E+09 -2.03880905364E-01 +8.93888293606E-01 -6.86791386445E-04 -1.24668475025E-04 -6.57790095821E-04 -8.45067010181E-05 -3.85491823936E-01 +8.69306054904E-01
1.34500000000E+09 -1.90439724041E-01 +8.93818884142E-01 -7.78822204399E-04 -5.38311386662E-05 -7.04321320013E-04 -3.48265207824E-05 -3.74458302928E-01 +8.72484660769E-01
1.35000000000E+09 -1.75119249718E-01 +8.93710208146E-01 -8.14374914930E-04 +1.25605525433E-04 -7.94393440068E-04 +5.05956094146E-05 -3.63220788959E-01 +8.75573905969E-01
1.35500000000E+09 -1.58531576166E-01 +8.93819622134E-01 -8.67913256081E-04 +1.74620412623E-04 -8.03337184502E-04 +1.33681812197E-04 -3.51700817597E-01 +8.78285721613E-01
1.36000000000E+09 -1.41891277538E-01 +8.94147231779E-01 -8.43037714070E-04 +2.02964964215E-04 -8.01225472125E-04 +2.06502971595E-04 -3.39770418128E-01 +8.80878515933E-01
1.36500000000E+09 -1.25879305102E-01 +8.94529063473E-01 -8.31177219143E-04 +3.11438933572E-04 -7.79104827660E-04 +2.82504265950E-04 -3.27736679783E-01 +8.83334313164E-01
1.37000000000E+09 -1.11406970798E-01 +8.94738965360E-01 -9.40332429020E-04 +3.73093396574E-04 -9.11689248552E-04 +2.99752483002E-04 -3.14874306783E-01 +8.85675673945E-01
1.37500000000E+09 -9.87978414758E-02 +8.94604575428E-01 -9.43132010091E-04 +4.98415615776E-04 -9.92294087767E-04 +3.68696757754E-04 -3.00974854662E-01 +8.87915473768E-01
1.38000000000E+09 -8.75453533251E-02 +8.94151648399E-01 -9.68330396541E-04 +6.75695543318E-04 -1.09325228491E-03 +6.05146112277E-04 -2.86462208372E-01 +8.89879782062E-01
1.38500000000E+09 -7.64735651406E-02 +8.93149400564E-01 -9.34353496077E-04 +8.56145314727E-04 -1.11885746817E-03 +8.64674123765E-04 -2.70968659814E-01 +8.91552717736E-01
1.39000000000E+09 -6.48262057252E-02 +8.91466346457E-01 -8.40430877658E-04 +9.53233392510E-04 -9.87196889746E-04 +1.09888821007E-03 -2.55194177269E-01 +8.93143955066E-01
1.39500000000E+09 -5.13488341206E-02 +8.89101931475E-01 -8.53104757645E-04 +1.06812500665E-03 -8.57987349139E-04 +1.27243849001E-03 -2.38341013006E-01 +8.93624067055E-01
1.40000000000E+09 -3.50377399335E-02 +8.85337182095E-01 -8.36644651051E-04 +1.24476079123E-03 -6.73880063371E-04 +1.30376377669E-03 -2.20851697222E-01 +8.94226605525E-01
1.40500000000E+09 -1.64876403818E-02 +8.80849141671E-01 -7.44013864851E-04 +1.44470505025E-03 -6.69588898298E-04 +1.41631316733E-03 -2.02187966981E-01 +8.94096241954E-01
1.41000000000E+09 +4.43702956410E-03 +8.75288444765E-01 -6.29389350196E-04 +1.56187224056E-03 -6.26455049602E-04 +1.54285551680E-03 -1.81978747610E-01 +8.93168679810E-01
1.41500000000E+09 +2.65515344375E-02 +8.69079060450E-01 -5.27785230779E-04 +1.68702757972E-03 -5.85378750190E-04 +1.79349479393E-03 -1.60657028822E-01 +8.91733068151E-01
1.42000000000E+09 +4.93828012037E-02 +8.62471331453E-01 -4.07556705112E-04 +1.85763353350E-03 -5.43251712147E-04 +2.07012935734E-03 -1.37735160961E-01 +8.89205981268E-01
1.42500000000E+09 +7.17833113721E-02 +8.54988203725E-01 -3.90081176285E-04 +2.17517072260E-03 -3.11104458882E-04 +2.46515405967E-03 -1.13870147595E-01 +8.85478968265E-01
1.43000000000E+09 +9.35509087825E-02 +8.46732700473E-01 -1.04939125963E-04 +2.57461842943E-03 +1.65667599013E-04 +2.77047713570E-03 -8.91074522555E-02 +8.80570421141E-01
1.43500000000E+09 +1.14740038360E-01 +8.37297041218E-01 +3.15791760600E-04 +2.78506725469E-03 +6.40228990266E-04 +2.80476038500E-03 -6.27057268481E-02 +8.73712877033E-01
1.44000000000E+09 +1.36008613355E-01 +8.26435770222E-01 +6.73280146596E-04 +2.93937513352E-03 +9.51683667227E-04 +2.88418320742E-03 -3.48230018059E-02 +8.65022066985E-01
1.44500000000E+09 +1.58441707590E-01 +8.13095431870E-01 +1.24943062838E-03 +3.02209264392E-03 +1.38729337274E-03 +2.97159004513E-03 -4.65784012330E-03 +8.53674367147E-01
1.45000000000E+09 +1.82721521734E-01 +7.96372544022E-01 +1.36947981755E-03 +3.05088245425E-03 +1.63097985494E-03 +3.01824202123E-03 +2.71270551390E-02 +8.38573961158E-01
1.45500000000E+09 +2.08935164799E-01 +7.75475739259E-01 +1.70746525427E-03 +3.49956053612E-03 +2.05176656712E-03 +3.31714754471E-03 +5.96793792666E-02 +8.20542506004E-01
1.46000000000E+09 +2.37519952670E-01 +7.50099477594E-01 +2.65125926144E-03 +4.08109190156E-03 +2.94848819062E-03 +3.63917539198E-03 +9.42838935263E-02 +7.99476160524E-01
1.46500000000E+09 +2.67976699005E-01 +7.20201420442E-01 +3.93524553130E-03 +4.23118125510E-03 +3.91517694579E-03 +3.64007925140E-03 +1.30660494843E-01 +7.72643772883E-01
1.47000000000E+09 +2.99648675587E-01 +6.84644482054E-01 +5.69751613329E-03 +3.98200697044E-03 +5.18168308242E-03 +3.58886724877E-03 +1.67493893980E-01 +7.38740093737E-01
1.47500000000E+09 +3.30782407737E-01 +6.43407984209E-01 +6.96846618221E-03 +2.81828455970E-03 +6.54438015879E-03 +2.88918543609E-03 +2.04072042839E-01 +6.97905281772E-01
1.48000000000E+09 +3.59787584316E-01 +5.95646132094E-01 +7.91010577654E-03 +1.72802787017E-03 +7.81363863472E-03 +1.97269403435E-03 +2.39993094853E-01 +6.48864233499E-01
1.48500000000E+09 +3.83658198195E-01 +5.40939963143E-01 +8.98493853764E-03 +6.63187387451E-04 +9.22614497804E-03 +6.02507074128E-04 +2.73735129439E-01 +5.91088449246E-01
1.49000000000E+09 +4.00719439744E-01 +4.79719306468E-01 +1.07400001986E-02 -9.67065354387E-04 +1.06477196935E-02 -1.46826752792E-03 +3.03158680504E-01 +5.22234023152E-01
1.49500000000E+09 +4.10284271281E-01 +4.12034211796E-01 +1.18191552934E-02 -3.95932361277E-03 +1.11448279441E-02 -4.21778456203E-03 +3.21577359027E-01 +4.41514613871E-01
1.50000000000E+09 +4.10145751234E-01 +3.35764103976E-01 +1.22812270485E-02 -7.44745083050E-03 +1.15178684613E-02 -6.97034587172E-03 +3.26082460015E-01 +3.53489214468E-01
1.50500000000E+09 +3.97352522691E-01 +2.52340582297E-01 +1.12943066055E-02 -1.20397715008E-02 +1.11886067593E-02 -1.11554507876E-02 +3.15752947311E-01 +2.58112102432E-01
1.51000000000E+09 +3.68668202048E-01 +1.62347729285E-01 +8.47712569482E-03 -1.65902191688E-02 +8.95347727524E-03 -1.60428907992E-02 +2.85637538872E-01 +1.57606915286E-01
1.51500000000E+09 +3.20289435070E-01 +7.22926109941E-02 +2.94449356788E-03 -1.99431285047E-02 +3.55128500794E-03 -2.00502610158E-02 +2.31995201194E-01 +5.91096666895E-02
1.52000000000E+09 +2.51894578934E-01 -1.12248360334E-02 -3.78117971752E-03 -2.09091740950E-02 -3.54737115077E-03 -2.11591726990E-02 +1.55798399347E-01 -2.87054713957E-02
1.52500000000E+09 +1.65227450867E-01 -8.04492963363E-02 -9.86377192958E-03 -1.81062566834E-02 -9.84558122522E-03 -1.83419587964E-02 +6.02393260651E-02 -9.81063318403E-02
1.53000000000E+09 +6.55503499218E-02 -1.28907550916E-01 -1.34678205373E-02 -1.49076009179E-02 -1.35314994843E-02 -1.50908031668E-02 -4.79089360735E-02 -1.44688543974E-01
1.53500000000E+09 -4.08604178541E-02 -1.54087392499E-01 -1.73297420892E-02 -1.16789717066E-02 -1.73358064578E-02 -1.16411975283E-02 -1.61759460819E-01 -1.64203210174E-01
1.54000000000E+09 -1.49192161764E-01 -1.55472068263E-01 -2.03093209762E-02 -6.48436101631E-03 -2.01257639064E-02 -6.47554958577E-03 -2.71467398902E-01 -1.59901623450E-01
1.54500000000E+09 -2.53484067992E-01 -1.32859835060E-01 -2.13383159054E-02 +5.33364424885E-04 -2.11288089311E-02 +6.23508007789E-05 -3.70023379394E-01 -1.34686420464E-01
1.55000000000E+09 -3.47231661937E-01 -8.97789486935E-02 -1.86370243063E-02 +6.43911399872E-03 -1.88636852604E-02 +5.72651406995E-03 -4.55025711064E-01 -9.65637464190E-02
1.55500000000E+09 -4.24458428159E-01 -3.27270650762E-02 -1.49068512177E-02 +1.03185839344E-02 -1.57553383379E-02 +9.89270856891E-03 -5.25149164507E-01 -4.85670314404E-02
1.56000000000E+09 -4.84460493263E-01 +2.83386607368E-02 -1.05689726307E-02 +1.25508343522E-02 -1.15100928968E-02 +1.27793882627E-02 -5.81841251839E-01 +4.57570412007E-03
1.56500000000E+09 -5.31529240501E-01 +8.83474763013E-02 -6.28257356985E-03 +1.30276489829E-02 -6.84522816955E-03 +1.37049572902E-02 -6.25401949031E-01 +5.98378498585E-02
1.57000000000E+09 -5.68815104880E-01 +1.46493439027E-01 -3.11516740942E-03 +1.21114014143E-02 -3.20724437435E-03 +1.29337583681E-02 -6.58637652394E-01 +1.14648976485E-01
