# Hz S RI R 50
! CMT, C1220, 16058040, 17.2.0/1
! Date: 14/08/2018 12:09:34
! Data: Format (Calibration Info)
! Freq                      S11: Re/Im (F2)                       S21: Re/Im (F2)                       S12: Re/Im (F2)                       S22: Re/Im (F2)            
1.00000000000E+09 -6.54835771641E-01 +7.09906778768E-01 -2.31902268349E-05 +9.50122945420E-06 -4.06578468010E-05 -1.70816815480E-05 -7.53461793671E-01 +6.25549547953E-01
1.00500000000E+09 -6.47963060859E-01 +7.14411847434E-01 +3.54793063107E-06 +1.59109424410E-05 -8.26275602617E-06 -2.60954823878E-06 -7.49955906000E-01 +6.29547044538E-01
1.01000000000E+09 -6.42317851357E-01 +7.18588481269E-01 -7.97324347247E-06 -1.92271553733E-05 +3.99218410366E-05 -2.37013858636E-06 -7.46312417687E-01 +6.33253358457E-01
1.01500000000E+09 -6.38125191908E-01 +7.22345099445E-01 -3.55898900996E-05 +1.58171499495E-05 -9.20610394028E-05 -6.75175864797E-05 -7.42809324201E-01 +6.37270844009E-01
1.02000000000E+09 -6.35459453683E-01 +7.25782070115E-01 +1.26717095233E-05 +5.26887159627E-06 -3.35860638012E-05 +3.34193020968E-05 -7.39515806530E-01 +6.40729794775E-01
1.02500000000E+09 -6.33448235309E-01 +7.28709457786E-01 -6.52205169553E-06 -5.92783555730E-06 -1.59187434824E-05 -1.32468058060E-06 -7.36732999019E-01 +6.44474854384E-01
1.03000000000E+09 -6.32026676413E-01 +7.31568581868E-01 +4.11833500572E-06 +6.47580245328E-05 -4.15387361167E-05 +1.04884367711E-05 -7.33056697840E-01 +6.48245749227E-01
1.03500000000E+09 -6.29734323126E-01 +7.34487754377E-01 -2.76377523336E-05 +3.17595412374E-05 -7.46924310735E-05 +5.54465696117E-06 -7.29393727491E-01 +6.52164668877E-01
1.04000000000E+09 -6.26513040619E-01 +7.37500244593E-01 -2.10564999944E-05 +3.14830700605E-05 +2.21486602862E-05 -1.27001045534E-05 -7.25530650922E-01 +6.55843250733E-01
1.04500000000E+09 -6.21528926885E-01 +7.40973910039E-01 -1.58413184222E-05 +4.04636305427E-05 -1.13460120881E-05 -1.58686726249E-05 -7.22078599533E-01 +6.59419826493E-01
1.05000000000E+09 -6.14945250040E-01 +7.44932933532E-01 -4.74905474282E-05 +6.81933457952E-06 -2.80363988819E-06 +6.67933202358E-06 -7.18645843507E-01 +6.63002072514E-01
1.05500000000E+09 -6.07326688141E-01 +7.49126711055E-01 -2.02160823440E-05 +4.96968065319E-05 -7.02218979117E-05 +6.88718349550E-05 -7.15380826360E-01 +6.66513529137E-01
1.06000000000E+09 -5.98887529686E-01 +7.53524215405E-01 -8.30351254502E-06 +3.98561120843E-05 -5.34711200976E-05 +3.36445971316E-06 -7.12168526427E-01 +6.70295950951E-01
1.06500000000E+09 -5.91075442309E-01 +7.57977638856E-01 -1.87216568977E-05 +6.90336513877E-05 -1.97599041106E-05 -4.55686179244E-06 -7.08410281200E-01 +6.73935734366E-01
1.07000000000E+09 -5.84412906826E-01 +7.61918976770E-01 +2.81180973381E-05 +1.63106915162E-05 -1.13037650116E-05 +7.77356459212E-05 -7.04293367627E-01 +6.77651769248E-01
1.07500000000E+09 -5.78843760154E-01 +7.65671121565E-01 -1.15737292125E-05 +2.62936374977E-05 +1.29235107431E-05 +3.70037302978E-05 -6.99957567238E-01 +6.81398880760E-01
1.08000000000E+09 -5.75054644936E-01 +7.68948565650E-01 +3.24001408586E-05 +2.05279395062E-06 -7.73581403692E-06 -1.21387167997E-05 -6.96042353868E-01 +6.85253459348E-01
1.08500000000E+09 -5.72370338686E-01 +7.71969633999E-01 -3.18337226600E-05 +2.45136309556E-05 +2.28251197503E-05 +4.87057810685E-05 -6.92080716013E-01 +6.88884040900E-01
1.09000000000E+09 -5.70117044933E-01 +7.74690515337E-01 +1.95382345512E-05 +3.93794056572E-05 +3.49286650234E-05 +8.53696707272E-05 -6.88046890282E-01 +6.92772393338E-01
1.09500000000E+09 -5.67979179116E-01 +7.77115795137E-01 +2.96418231616E-05 +2.91790666498E-05 +1.59567644576E-05 +5.40195795537E-06 -6.84314081096E-01 +6.96610364931E-01
1.10000000000E+09 -5.64525829814E-01 +7.79887192805E-01 -2.56971228591E-05 +3.42387225493E-05 -2.57413035617E-05 +3.62030428834E-05 -6.80275809543E-01 +7.00415789664E-01
1.10500000000E+09 -5.60034851665E-01 +7.82865756122E-01 -1.35072173965E-05 +4.56910384115E-05 +1.21423870635E-05 +6.81778864020E-05 -6.76133669218E-01 +7.04174858413E-01
1.11000000000E+09 -5.54212563132E-01 +7.86007070253E-01 +4.75326934476E-05 +4.83518157587E-05 +1.26429702781E-05 +6.37320728013E-05 -6.71861871001E-01 +7.07445412766E-01
1.11500000000E+09 -5.47090206426E-01 +7.89801316159E-01 +1.89502854799E-06 -2.27122321606E-06 +4.64004368358E-05 +2.27269417637E-05 -6.67706516669E-01 +7.10867528187E-01
1.12000000000E+09 -5.39472986866E-01 +7.93285318300E-01 +4.92315202844E-05 -5.79368308600E-06 +6.57879200108E-05 +2.54880482963E-05 -6.63706376527E-01 +7.14461576170E-01
1.12500000000E+09 -5.32011097924E-01 +7.96917784131E-01 +3.28335557513E-05 -6.22380895269E-06 +2.03967835640E-05 +4.52483164712E-05 -6.59428216882E-01 +7.18685876534E-01
1.13000000000E+09 -5.25248690853E-01 +8.00456115712E-01 -1.34971865467E-05 +1.81844193205E-05 +4.25267514843E-05 +1.77671159411E-05 -6.55158604680E-01 +7.22487973957E-01
1.13500000000E+09 -5.19516610146E-01 +8.03271304863E-01 +2.31826818327E-05 +3.72714629479E-05 +8.47271957379E-06 +7.49152602164E-05 -6.50642609840E-01 +7.26101434232E-01
1.14000000000E+09 -5.14827078874E-01 +8.06170730429E-01 +2.38306406047E-05 +4.65764868759E-05 +3.71853918834E-05 +5.83325156919E-05 -6.45970196886E-01 +7.29590808491E-01
1.14500000000E+09 -5.11147854853E-01 +8.08738755861E-01 +9.96762126282E-05 +2.49775963332E-05 +5.10894355305E-05 +3.40371554264E-05 -6.41221878942E-01 +7.32953576844E-01
1.15000000000E+09 -5.07757608821E-01 +8.10898607550E-01 +1.85349540173E-05 +6.14334591578E-05 +3.31653942952E-05 +4.78993162806E-05 -6.36616810107E-01 +7.36648064676E-01
1.15500000000E+09 -5.04221418329E-01 +8.13317036389E-01 +6.25234929084E-05 +5.72609518888E-05 +6.28480194822E-05 +2.78587089627E-05 -6.31649651435E-01 +7.40637708378E-01
1.16000000000E+09 -4.99686012731E-01 +8.15712314537E-01 +8.26331363114E-05 +1.73773513597E-05 +4.12290791554E-05 +3.34987672869E-05 -6.26954757811E-01 +7.44383754185E-01
1.16500000000E+09 -4.93937416642E-01 +8.18644936496E-01 +8.99323633899E-05 +5.40408662899E-05 +2.79113941651E-05 +3.81010216243E-05 -6.21767085997E-01 +7.48105968112E-01
1.17000000000E+09 -4.87077308631E-01 +8.21542319145E-01 +7.46750257741E-05 +7.58369415344E-05 +5.38595885293E-05 +9.25974915975E-06 -6.16395050799E-01 +7.51387597597E-01
1.17500000000E+09 -4.79411865089E-01 +8.24801572025E-01 +5.38358179857E-05 +4.69869185006E-05 +1.07229059408E-04 +6.09800071509E-05 -6.10642869233E-01 +7.54756943320E-01
1.18000000000E+09 -4.71508811809E-01 +8.27763484952E-01 +7.37904321448E-05 +3.15403764778E-05 +7.33452894162E-05 +7.08238993636E-05 -6.04951138146E-01 +7.57865672461E-01
1.18500000000E+09 -4.63629635841E-01 +8.30844590730E-01 +9.12802661233E-05 +5.88263029248E-05 +1.14949108307E-04 +4.03657511730E-05 -5.99292877969E-01 +7.60785443798E-01
1.19000000000E+09 -4.56497057609E-01 +8.33290206431E-01 +1.43252769644E-04 +9.10447875000E-05 +1.21318708150E-04 +4.36910433580E-05 -5.92926535054E-01 +7.63539388903E-01
1.19500000000E+09 -4.50669770658E-01 +8.35408790993E-01 +2.40899806098E-04 +3.03820317725E-05 +2.33914429692E-04 +2.25860764861E-05 -5.86786671415E-01 +7.64793061191E-01
1.20000000000E+09 -4.45942175325E-01 +8.36769769569E-01 +2.17490947182E-04 -3.42029281185E-05 +2.29421033239E-04 -6.90450490737E-05 -5.82367937132E-01 +7.64922310343E-01
1.20500000000E+09 -4.41897067712E-01 +8.38808399166E-01 +1.49413109339E-04 -1.37886658461E-04 +1.81764699851E-04 -1.37668814633E-04 -5.80153460490E-01 +7.65645857844E-01
1.21000000000E+09 -4.37652152618E-01 +8.40730013999E-01 +1.20797921436E-04 -1.66111727094E-04 +1.17000745407E-04 -1.32747867378E-04 -5.78454257540E-01 +7.68794779420E-01
1.21500000000E+09 -4.32610718979E-01 +8.43012833355E-01 +8.74611847966E-05 -1.47602441346E-04 +6.75878466111E-05 -1.60654341505E-04 -5.75506893538E-01 +7.73369364309E-01
1.22000000000E+09 -4.25916091938E-01 +8.45410375445E-01 +1.02837030459E-04 -1.29536759157E-04 +1.25816792408E-04 -1.33935242288E-04 -5.71369426749E-01 +7.78561748005E-01
1.22500000000E+09 -4.17715876639E-01 +8.48394243448E-01 +4.61514237970E-05 -1.21911514886E-04 +8.90148940732E-05 -1.20460531133E-04 -5.66282206749E-01 +7.83843063982E-01
1.23000000000E+09 -4.08394465776E-01 +8.51341039934E-01 +7.33680221409E-05 -1.25701997935E-04 +1.01086149555E-04 -1.59654935136E-04 -5.60540511852E-01 +7.88439446379E-01
1.23500000000E+09 -3.98467717358E-01 +8.54656634686E-01 +6.59732153211E-05 -1.30890243344E-04 +5.41308832485E-05 -1.40950619974E-04 -5.54668969697E-01 +7.92749478765E-01
1.24000000000E+09 -3.88335526706E-01 +8.57982207160E-01 +1.04378386157E-04 -1.45939482067E-04 +1.14177172712E-04 -1.65671621576E-04 -5.48539275924E-01 +7.96732232756E-01
1.24500000000E+09 -3.78985383648E-01 +8.61457451259E-01 +1.10428822062E-04 -1.90057364178E-04 +1.20969074068E-04 -1.88838132703E-04 -5.42180893517E-01 +8.00413127238E-01
1.25000000000E+09 -3.70391376295E-01 +8.64473149927E-01 +7.56973508765E-05 -2.14032199378E-04 +8.49050450296E-05 -2.49298289700E-04 -5.35550826257E-01 +8.04787126378E-01
1.25500000000E+09 -3.63300668669E-01 +8.67093231567E-01 +2.91525405333E-05 -2.82527968559E-04 +5.07884644902E-05 -3.11635198598E-04 -5.28838506229E-01 +8.08998941844E-01
1.26000000000E+09 -3.57186428426E-01 +8.69582765736E-01 -6.73522742096E-05 -2.41797234297E-04 -5.88927542111E-06 -2.77458468586E-04 -5.21966805911E-01 +8.13151065504E-01
1.26500000000E+09 -3.51506431268E-01 +8.71734672802E-01 -2.74976090496E-05 -2.81522539942E-04 -4.85523093227E-05 -2.71395062386E-04 -5.15186403015E-01 +8.17026860512E-01
1.27000000000E+09 -3.45867946112E-01 +8.73925802959E-01 -4.62226888786E-05 -2.67002395657E-04 -3.62643986285E-05 -2.55182145887E-04 -5.08322898104E-01 +8.20796592342E-01
1.27500000000E+09 -3.39385937874E-01 +8.76141453482E-01 -8.29858190120E-05 -3.10888146629E-04 -8.28587031337E-05 -3.34502791338E-04 -5.01243318151E-01 +8.24375427693E-01
1.28000000000E+09 -3.31402516496E-01 +8.78485871177E-01 -1.44874108705E-04 -2.77367324847E-04 -1.31305550948E-04 -3.08942652025E-04 -4.94119641158E-01 +8.27910122399E-01
1.28500000000E+09 -3.21672586434E-01 +8.80964568165E-01 -1.66289043579E-04 -2.89391010974E-04 -1.75230359522E-04 -3.00103698588E-04 -4.86810790474E-01 +8.31588233010E-01
1.29000000000E+09 -3.10870756491E-01 +8.83545584550E-01 -1.91245845402E-04 -2.21095315435E-04 -2.10292504707E-04 -2.33350566164E-04 -4.79232862183E-01 +8.35192764705E-01
1.29500000000E+09 -2.99393813287E-01 +8.86165165166E-01 -1.70010036532E-04 -2.44744808339E-04 -2.49127092605E-04 -2.19638392703E-04 -4.71276926397E-01 +8.38787269069E-01
1.30000000000E+09 -2.87985814845E-01 +8.88936721955E-01 -2.62644279327E-04 -2.67966756656E-04 -3.07699884745E-04 -1.93440128965E-04 -4.63421785214E-01 +8.42390429524E-01
1.30500000000E+09 -2.77482717290E-01 +8.91260091510E-01 -3.32513077654E-04 -2.47218223983E-04 -3.10364595435E-04 -2.13009067692E-04 -4.55292356661E-01 +8.45853330985E-01
1.31000000000E+09 -2.67904508448E-01 +8.93413849389E-01 -4.02982347969E-04 -1.12600502367E-04 -3.58942347565E-04 -1.42706814336E-04 -4.47046907172E-01 +8.49372189760E-01
1.31500000000E+09 -2.60083973219E-01 +8.95411150187E-01 -3.14533713452E-04 -1.12340109249E-04 -3.34590845321E-04 -8.77330415987E-05 -4.38227134312E-01 +8.52772089936E-01
1.32000000000E+09 -2.53182475984E-01 +8.96930162068E-01 -3.45767481550E-04 -7.70994237983E-05 -3.71032170288E-04 -1.04185698261E-04 -4.28987646504E-01 +8.56020655081E-01
1.32500000000E+09 -2.46663800146E-01 +8.98237744794E-01 -3.63135190591E-04 -8.82498916635E-05 -3.87619949215E-04 -1.10487857472E-04 -4.19291701530E-01 +8.59432806650E-01
1.33000000000E+09 -2.39463052876E-01 +8.99361364231E-01 -3.95333542611E-04 -6.51850590376E-05 -4.39649678732E-04 -6.42290063807E-05 -4.09674065335E-01 +8.62712117338E-01
1.33500000000E+09 -2.30589705053E-01 +9.00164321094E-01 -4.36453490552E-04 -7.90015278810E-05 -4.54047904342E-04 -1.44073328780E-05 -3.99749351790E-01 +8.66009321633E-01
1.34000000000E+09 -2.19661875804E-01 +9.00865253922E-01 -4.87012193892E-04 +7.37788433172E-05 -4.21032227380E-04 +2.54355668098E-05 -3.89564169070E-01 +8.69368178881E-01
1.34500000000E+09 -2.06536229376E-01 +9.01121066010E-01 -4.67334001850E-04 +9.42797150870E-05 -4.30151366862E-04 +1.00254100577E-04 -3.78538896179E-01 +8.72606915736E-01
1.35000000000E+09 -1.91466264837E-01 +9.01127418126E-01 -4.29117282223E-04 +5.09798320592E-05 -4.17339223058E-04 +1.00452606247E-04 -3.67418280073E-01 +8.75688490958E-01
1.35500000000E+09 -1.75544576469E-01 +9.01197467211E-01 -3.94891862971E-04 +1.91222959998E-04 -4.17448592654E-04 +1.55690912483E-04 -3.55707873033E-01 +8.78485072859E-01
1.36000000000E+09 -1.59335073445E-01 +9.01159857499E-01 -4.29017747890E-04 +1.72336723631E-04 -4.41216428758E-04 +1.37965072126E-04 -3.43857846154E-01 +8.81096937545E-01
1.36500000000E+09 -1.43776193691E-01 +9.01440773408E-01 -4.65660632638E-04 +1.48530163004E-04 -4.66416058921E-04 +1.22969990569E-04 -3.31753971581E-01 +8.83694318328E-01
1.37000000000E+09 -1.29121158358E-01 +9.01542983753E-01 -5.31964921320E-04 +2.07074032545E-04 -5.03994884656E-04 +1.44153633329E-04 -3.18929562873E-01 +8.86081658229E-01
1.37500000000E+09 -1.15641781174E-01 +9.01564896858E-01 -6.44445466919E-04 +3.25212954762E-04 -6.09982305982E-04 +2.67505857243E-04 -3.05331837876E-01 +8.88441008233E-01
1.38000000000E+09 -1.03366209243E-01 +9.01393579441E-01 -5.84884580851E-04 +5.02296435199E-04 -6.23933082466E-04 +4.24517644424E-04 -2.90599767742E-01 +8.90536425996E-01
1.38500000000E+09 -9.10550733174E-02 +9.00815201081E-01 -4.37692564361E-04 +5.48686605310E-04 -5.21665597462E-04 +5.99879333146E-04 -2.75174671261E-01 +8.92319347779E-01
1.39000000000E+09 -7.82615625181E-02 +8.99688894298E-01 -4.05033931825E-04 +5.20720029257E-04 -4.80519216342E-04 +5.61707584631E-04 -2.59175441677E-01 +8.93791264170E-01
1.39500000000E+09 -6.37678567257E-02 +8.97867787469E-01 -4.44850594183E-04 +5.24102801685E-04 -5.29635125063E-04 +6.30352687476E-04 -2.42304126507E-01 +8.94515722359E-01
1.40000000000E+09 -4.71470922736E-02 +8.94774215697E-01 -5.11287282948E-04 +6.40533512589E-04 -4.52108432797E-04 +6.32996029059E-04 -2.24640409941E-01 +8.95085751741E-01
1.40500000000E+09 -2.86619385916E-02 +8.90753283280E-01 -4.82057222145E-04 +7.93565388184E-04 -4.63178960602E-04 +7.90841765316E-04 -2.06150512685E-01 +8.94939643389E-01
1.41000000000E+09 -8.36666491154E-03 +8.85416845804E-01 -4.50404215207E-04 +9.62813600715E-04 -4.50768463284E-04 +9.24715600142E-04 -1.85925712687E-01 +8.94256025257E-01
1.41500000000E+09 +1.28875776365E-02 +8.79077359722E-01 -3.21322279148E-04 +9.84934194909E-04 -4.23769094599E-04 +1.03016976325E-03 -1.64403882456E-01 +8.92815537619E-01
1.42000000000E+09 +3.46663391976E-02 +8.72546030205E-01 -2.88766663665E-04 +1.05326338279E-03 -3.20915200677E-04 +1.14083806591E-03 -1.41479468410E-01 +8.90245010132E-01
1.42500000000E+09 +5.62950444758E-02 +8.65277267331E-01 -3.15801382217E-04 +1.23456462051E-03 -2.74852952377E-04 +1.39542529072E-03 -1.17661671376E-01 +8.86683363280E-01
1.43000000000E+09 +7.80516857769E-02 +8.57383122563E-01 -1.31158628875E-04 +1.49505852336E-03 -6.07124669333E-05 +1.64104227599E-03 -9.28805125274E-02 +8.82025020467E-01
1.43500000000E+09 +9.97316208869E-02 +8.48277906903E-01 +1.02770925366E-04 +1.62667965421E-03 +2.65581349722E-04 +1.70579867995E-03 -6.64509721559E-02 +8.75213903008E-01
1.44000000000E+09 +1.22171972620E-01 +8.37868591234E-01 +2.29095061354E-04 +1.65904300984E-03 +4.39354852872E-04 +1.66314506514E-03 -3.84624253911E-02 +8.66702296428E-01
1.44500000000E+09 +1.46002070056E-01 +8.24901818974E-01 +3.65474622032E-04 +1.77051306346E-03 +5.00440283997E-04 +1.76605181802E-03 -8.20124704346E-03 +8.55464399940E-01
1.45000000000E+09 +1.71601196431E-01 +8.08428311965E-01 +4.57194530197E-04 +2.08364669827E-03 +6.01021218759E-04 +2.11805466117E-03 +2.36875375509E-02 +8.40839137237E-01
1.45500000000E+09 +1.99122065431E-01 +7.88197176609E-01 +8.31137444083E-04 +2.46538093297E-03 +1.03698466865E-03 +2.42044851284E-03 +5.70354545247E-02 +8.23422310456E-01
1.46000000000E+09 +2.29268415066E-01 +7.63256431656E-01 +1.46017116589E-03 +2.80829618699E-03 +1.69973378508E-03 +2.56521697004E-03 +9.18333033237E-02 +8.01957221945E-01
1.46500000000E+09 +2.60820812346E-01 +7.32915819112E-01 +2.29310188072E-03 +2.89939875660E-03 +2.27362389715E-03 +2.52055431010E-03 +1.28508208006E-01 +7.75408988605E-01
1.47000000000E+09 +2.92937589159E-01 +6.96900575088E-01 +3.20554602098E-03 +2.78423152691E-03 +2.94718709657E-03 +2.54530013249E-03 +1.65987123046E-01 +7.41614812564E-01
1.47500000000E+09 +3.24477265291E-01 +6.54705657002E-01 +4.11803263530E-03 +2.33628988246E-03 +3.85703888591E-03 +2.39148357875E-03 +2.02968303482E-01 +7.00727953504E-01
1.48000000000E+09 +3.53398869802E-01 +6.05937307574E-01 +4.98553793660E-03 +1.88877828341E-03 +5.00824521137E-03 +2.05994458304E-03 +2.39999390055E-01 +6.52114647472E-01
1.48500000000E+09 +3.78179888498E-01 +5.51139497756E-01 +5.89438894063E-03 +1.08219481369E-03 +6.09660500746E-03 +1.01512929536E-03 +2.75352045168E-01 +5.93118489100E-01
1.49000000000E+09 +3.98042210373E-01 +4.88897282624E-01 +7.01770563687E-03 +1.34721457144E-04 +7.05523597515E-03 -2.31134788868E-04 +3.04303944195E-01 +5.23227207435E-01
1.49500000000E+09 +4.10560807233E-01 +4.18351962423E-01 +8.05802046907E-03 -1.64723436589E-03 +7.64886303261E-03 -1.98316340724E-03 +3.23614552311E-01 +4.42675040872E-01
1.50000000000E+09 +4.12357874600E-01 +3.38547061631E-01 +8.89987830168E-03 -3.79950451747E-03 +8.34729315226E-03 -3.67706393997E-03 +3.30028207594E-01 +3.53044703181E-01
1.50500000000E+09 +4.00729588387E-01 +2.51838681582E-01 +8.78633698212E-03 -7.55790516773E-03 +8.62330380108E-03 -7.05985723922E-03 +3.18969580523E-01 +2.54125019414E-01
1.51000000000E+09 +3.72001551753E-01 +1.59063812109E-01 +6.32805927057E-03 -1.10498203891E-02 +6.55671921432E-03 -1.07012966453E-02 +2.85847070165E-01 +1.52026641941E-01
1.51500000000E+09 +3.22399877630E-01 +6.69223468192E-02 +3.01151312132E-03 -1.31508045874E-02 +3.32713318210E-03 -1.31554636413E-02 +2.30326731377E-01 +5.47262607637E-02
1.52000000000E+09 +2.52403704507E-01 -1.63438378479E-02 -1.52636160164E-03 -1.41336707444E-02 -1.41250205211E-03 -1.42648881245E-02 +1.53864510647E-01 -3.24257985712E-02
1.52500000000E+09 +1.65548092551E-01 -8.65390845657E-02 -5.41649572718E-03 -1.24549748985E-02 -5.42973200883E-03 -1.25371209588E-02 +5.80657247396E-02 -1.02106095748E-01
1.53000000000E+09 +6.39455755805E-02 -1.36852307428E-01 -7.91053390288E-03 -1.14223737715E-02 -8.00345662816E-03 -1.14138902448E-02 -5.10796507093E-02 -1.47991053566E-01
1.53500000000E+09 -4.57152104017E-02 -1.63720837975E-01 -1.12799036633E-02 -9.22987667205E-03 -1.13549743229E-02 -9.14997523870E-03 -1.64310548946E-01 -1.67963279644E-01
1.54000000000E+09 -1.57588032174E-01 -1.65386502801E-01 -1.42116920531E-02 -5.67136152808E-03 -1.39984201813E-02 -5.61851771118E-03 -2.75166637753E-01 -1.63475803411E-01
1.54500000000E+09 -2.64872763594E-01 -1.42262527508E-01 -1.55084103429E-02 -2.64158724180E-04 -1.52057512327E-02 -5.81875993996E-04 -3.74272160775E-01 -1.38003431979E-01
1.55000000000E+09 -3.59476849898E-01 -9.82340502772E-02 -1.33722917942E-02 +4.59034061628E-03 -1.34816537317E-02 +4.03338147996E-03 -4.59057754158E-01 -9.93354461396E-02
1.55500000000E+09 -4.36949334834E-01 -4.17533477936E-02 -1.02557683334E-02 +7.32191967438E-03 -1.07283455292E-02 +7.05062237548E-03 -5.29618696031E-01 -5.15138001995E-02
1.56000000000E+09 -4.98259824027E-01 +1.85939161001E-02 -6.93120098703E-03 +8.82154647347E-03 -7.51114389515E-03 +8.94595878192E-03 -5.86043066581E-01 +2.22994352829E-03
1.56500000000E+09 -5.47513184542E-01 +7.99138657133E-02 -3.82940195105E-03 +8.63043329756E-03 -4.19796042721E-03 +9.03627759251E-03 -6.30227913778E-01 +5.73786294446E-02
1.57000000000E+09 -5.85136604439E-01 +1.40573220203E-01 -1.90404641942E-03 +7.72704695234E-03 -1.95974558575E-03 +8.18161852322E-03 -6.63632146653E-01 +1.12418147099E-01
