# Hz S RI R 50
! CMT, C1220, 16058040, 17.2.0/1
! Date: 14/08/2018 11:44:48
! Data: Format (Calibration Info)
! Freq                      S11: Re/Im (F2)                       S21: Re/Im (F2)                       S12: Re/Im (F2)                       S22: Re/Im (F2)            
1.00000000000E+09 -6.48359407821E-01 +7.15175350107E-01 -3.83560672133E-05 -2.71893370903E-06 -3.94353853971E-05 -4.14681708781E-05 -7.54912312404E-01 +6.24701984224E-01
1.00500000000E+09 -6.41494570655E-01 +7.20248105023E-01 +2.54637033540E-05 +2.56189013999E-05 -1.87859451613E-05 +2.03912305480E-05 -7.51447327648E-01 +6.28863064451E-01
1.01000000000E+09 -6.35320277716E-01 +7.24792272826E-01 -1.08114059794E-06 +2.77757535033E-05 +5.22053194244E-06 +1.89947340172E-05 -7.47686175808E-01 +6.32561513375E-01
1.01500000000E+09 -6.30286266583E-01 +7.28623577951E-01 -1.76632308093E-05 -6.35489231670E-06 +4.33399324892E-05 +4.89422738004E-05 -7.44479931863E-01 +6.36515929983E-01
1.02000000000E+09 -6.26448299038E-01 +7.31792532423E-01 -2.55851992768E-05 -1.38651702061E-05 +9.33798606227E-06 +1.70800673527E-05 -7.40779502978E-01 +6.40170321412E-01
1.02500000000E+09 -6.23411272356E-01 +7.34624730970E-01 -3.09223424646E-05 -9.86484969355E-06 -2.81751142532E-06 +1.87374098149E-05 -7.37805910530E-01 +6.43888802665E-01
1.03000000000E+09 -6.20899188363E-01 +7.37179512649E-01 -3.02265346376E-05 -3.66274183781E-05 +1.68912141421E-05 +3.30941670930E-05 -7.34405142921E-01 +6.47727503746E-01
1.03500000000E+09 -6.17674178449E-01 +7.39662866207E-01 -6.53745922013E-05 -2.04862347664E-05 -2.25901280277E-05 -1.64955759264E-05 -7.30712590518E-01 +6.51577745518E-01
1.04000000000E+09 -6.13389844468E-01 +7.42665580924E-01 -4.08740742117E-08 +2.71615281897E-05 -1.98012038653E-05 +3.66359070878E-05 -7.27068497418E-01 +6.55177146349E-01
1.04500000000E+09 -6.07757300725E-01 +7.46138591912E-01 +1.49032682486E-05 +1.57567576351E-05 +2.41565784795E-05 +2.29106046715E-05 -7.23666042146E-01 +6.58824984200E-01
1.05000000000E+09 -6.00762759921E-01 +7.50331979441E-01 -4.34160290410E-05 +2.23703259315E-05 -1.05970672329E-05 +4.61814105061E-06 -7.20201601293E-01 +6.62337414610E-01
1.05500000000E+09 -5.92781755870E-01 +7.54936847377E-01 +2.63822892306E-05 +3.81215411852E-05 -2.24630421853E-05 +2.94729551331E-06 -7.16644731527E-01 +6.65926059076E-01
1.06000000000E+09 -5.84322043176E-01 +7.60075755302E-01 -2.93773862882E-05 +1.50543506063E-05 -3.09318150422E-05 -2.06640990801E-06 -7.13531335453E-01 +6.69546131211E-01
1.06500000000E+09 -5.76335349455E-01 +7.64960033614E-01 -2.61711573664E-05 +2.75746597665E-05 +1.33345865080E-05 +2.76277315846E-05 -7.09625178006E-01 +6.73372738693E-01
1.07000000000E+09 -5.69445307059E-01 +7.69112865154E-01 +5.63507320339E-06 -2.07234839753E-06 +4.96572254918E-05 +2.96066060398E-05 -7.05882238005E-01 +6.76973589655E-01
1.07500000000E+09 -5.63813824721E-01 +7.72733882072E-01 +2.32211810523E-05 +5.90880171063E-05 +2.71633126971E-05 +2.72725825989E-05 -7.01700954585E-01 +6.80640326620E-01
1.08000000000E+09 -5.59756603848E-01 +7.75905199065E-01 +1.96324802745E-05 -6.96234180152E-06 +3.74885709894E-05 +4.33660971298E-05 -6.97622777272E-01 +6.84552907000E-01
1.08500000000E+09 -5.56828409523E-01 +7.78163316530E-01 -4.37877823566E-05 +3.63792536330E-05 -2.04698434902E-05 +2.04798439438E-05 -6.93525259517E-01 +6.88338363190E-01
1.09000000000E+09 -5.54485143317E-01 +7.80133171033E-01 +1.75246243085E-05 -6.69364249500E-06 +6.48281900847E-05 -2.51230754624E-05 -6.89563377155E-01 +6.92337299437E-01
1.09500000000E+09 -5.52238299144E-01 +7.82030092735E-01 +9.10833593430E-06 +2.82749008825E-05 -8.66811064213E-06 -1.43152024525E-05 -6.85767450326E-01 +6.96337195546E-01
1.10000000000E+09 -5.48741822750E-01 +7.84112781972E-01 +5.05716443983E-05 +2.56350420509E-06 +3.60137098404E-05 -2.38931195322E-07 -6.81903079812E-01 +6.99916980331E-01
1.10500000000E+09 -5.44204193291E-01 +7.86810589669E-01 +1.42141397044E-05 -2.35293767733E-05 +5.90583000645E-05 +1.68207394620E-05 -6.77637898393E-01 +7.03465200775E-01
1.11000000000E+09 -5.38317017485E-01 +7.90078471022E-01 +5.98358881311E-05 +1.20939833132E-05 +6.28138995210E-05 -1.40189548300E-05 -6.73438283329E-01 +7.06912245083E-01
1.11500000000E+09 -5.31055033056E-01 +7.93822442348E-01 +3.93553507722E-05 +1.02853600508E-05 +4.89084698718E-05 +9.43909114101E-06 -6.69182719642E-01 +7.10427150587E-01
1.12000000000E+09 -5.23589625526E-01 +7.97789039596E-01 +5.81634920461E-05 -3.83812688847E-06 -1.00243647045E-05 -6.57537113968E-06 -6.65044448324E-01 +7.14185158282E-01
1.12500000000E+09 -5.15832275978E-01 +8.01888805915E-01 -2.34582196308E-05 +1.23921605246E-05 +2.07047091636E-05 +5.40200663046E-06 -6.60742312866E-01 +7.18110455563E-01
1.13000000000E+09 -5.08858398700E-01 +8.05300374907E-01 +2.42310020534E-05 +4.89900600243E-05 +3.36438318967E-05 -1.88440790126E-05 -6.56599759389E-01 +7.21688954828E-01
1.13500000000E+09 -5.02795458797E-01 +8.08148049044E-01 +1.83682444895E-05 +1.77303655316E-06 +3.16505708109E-05 -3.81303284019E-05 -6.52093652957E-01 +7.25575723226E-01
1.14000000000E+09 -4.97816345190E-01 +8.10487318826E-01 +1.27655628697E-06 +1.07238791003E-05 +5.28200101133E-07 +1.46389014012E-05 -6.47629370459E-01 +7.29021600928E-01
1.14500000000E+09 -4.93711675609E-01 +8.12121407595E-01 +3.01879536991E-05 -1.99109850044E-05 +1.97534946984E-05 -5.47168264489E-07 -6.42756372530E-01 +7.32494109097E-01
1.15000000000E+09 -4.89624666899E-01 +8.13807030824E-01 +7.43410726992E-05 +1.72736329750E-05 +5.80127121416E-05 -3.64177639842E-05 -6.38189554447E-01 +7.36364381401E-01
1.15500000000E+09 -4.85527145061E-01 +8.15550293211E-01 +2.06050035698E-05 -2.56334130110E-05 +8.48800844247E-06 -5.65165025637E-06 -6.33173857522E-01 +7.40270353702E-01
1.16000000000E+09 -4.80237243938E-01 +8.17494490229E-01 -7.86828243456E-06 -1.76941370806E-05 +4.71742481443E-05 -3.74791499410E-05 -6.28313947669E-01 +7.44151278301E-01
1.16500000000E+09 -4.73990839111E-01 +8.20144906724E-01 +4.71109693445E-05 -3.24632616492E-07 +3.82970502258E-05 -2.27276611887E-05 -6.23328304395E-01 +7.47765272364E-01
1.17000000000E+09 -4.66613448047E-01 +8.23243163658E-01 +4.90681264530E-05 -1.00746523607E-06 +5.12088890683E-05 -4.19013895893E-05 -6.18001584101E-01 +7.51130857052E-01
1.17500000000E+09 -4.58343765156E-01 +8.26647052086E-01 +4.60664606787E-05 -6.63995809788E-06 +7.01115365173E-06 +4.73780625089E-07 -6.12287848868E-01 +7.54306549198E-01
1.18000000000E+09 -4.50070434619E-01 +8.30260532526E-01 +4.97301142027E-05 +1.33958022340E-05 +2.35226595520E-05 -2.08164290626E-05 -6.06631747306E-01 +7.57464784512E-01
1.18500000000E+09 -4.42015834286E-01 +8.33554115108E-01 +5.83350211729E-05 -4.51818892796E-05 +1.62646051534E-05 -4.68809601017E-05 -6.00645527558E-01 +7.60612485461E-01
1.19000000000E+09 -4.34777401840E-01 +8.36011452130E-01 +1.25630302655E-05 -9.47171483745E-05 +8.29335416378E-05 -1.05353322084E-04 -5.94293486668E-01 +7.63323868742E-01
1.19500000000E+09 -4.28535032971E-01 +8.37953668121E-01 +6.66588452411E-05 -1.34795833169E-04 +7.43885609920E-05 -1.36475678433E-04 -5.88461947110E-01 +7.64602491667E-01
1.20000000000E+09 -4.23512951547E-01 +8.38728669084E-01 -2.37735679272E-05 -1.30032244719E-04 -4.18420293802E-05 -1.40019188005E-04 -5.83671143126E-01 +7.64904628987E-01
1.20500000000E+09 -4.18946598476E-01 +8.39983449637E-01 -1.16645820364E-04 -8.70572307202E-05 -6.94999279136E-05 -6.32899381098E-05 -5.81344578514E-01 +7.65686790531E-01
1.21000000000E+09 -4.14020251138E-01 +8.40953615935E-01 -9.77055090109E-05 -3.36219724456E-05 -8.07977733031E-05 -4.82893216715E-05 -5.79606407407E-01 +7.68644620840E-01
1.21500000000E+09 -4.08105811459E-01 +8.42323484245E-01 -9.24275712115E-05 +3.66804485517E-05 -5.11392056379E-05 +2.13042010847E-05 -5.76901980382E-01 +7.73147245510E-01
1.22000000000E+09 -4.00896238385E-01 +8.44294281447E-01 -4.71330664259E-05 +4.28986020130E-05 -5.52712475651E-05 -1.04997570872E-06 -5.72739012229E-01 +7.78386561108E-01
1.22500000000E+09 -3.92050807684E-01 +8.46627143365E-01 +4.29998901614E-06 +2.25136118115E-05 +1.32577036871E-05 -4.23439703459E-05 -5.67621628543E-01 +7.83666595881E-01
1.23000000000E+09 -3.82447684600E-01 +8.49690820888E-01 -6.84762296998E-06 -5.90228305736E-05 +6.65769197436E-07 -4.32371469057E-05 -5.62014345284E-01 +7.88346222683E-01
1.23500000000E+09 -3.72682312847E-01 +8.52962473940E-01 -2.50314575491E-05 -4.01512232346E-05 +6.97965830592E-06 -2.24739331239E-05 -5.55937936042E-01 +7.92778415999E-01
1.24000000000E+09 -3.63030669171E-01 +8.56505015437E-01 -9.18710221315E-06 -6.62435463898E-05 -4.23451760010E-05 -3.29741177655E-05 -5.50069663132E-01 +7.96743142438E-01
1.24500000000E+09 -3.54247944794E-01 +8.60316890718E-01 -4.21295899876E-05 -3.18186225398E-05 -2.02449880203E-05 -5.59801545944E-05 -5.43802592810E-01 +8.00573139790E-01
1.25000000000E+09 -3.46438401065E-01 +8.63355485139E-01 -5.52533621558E-05 -9.09835809079E-06 -4.63153675436E-06 -1.79969561034E-05 -5.37039228521E-01 +8.04943905398E-01
1.25500000000E+09 -3.39495530405E-01 +8.65634650949E-01 -6.36334945414E-05 -2.73096894856E-05 -1.05211313087E-04 -5.07405478692E-05 -5.30200522172E-01 +8.08733719860E-01
1.26000000000E+09 -3.33363782927E-01 +8.67045352353E-01 -7.77410000584E-05 -1.47005348413E-05 -3.71675002120E-05 +1.94703741233E-05 -5.23391449912E-01 +8.13101631605E-01
1.26500000000E+09 -3.27388204286E-01 +8.67662783475E-01 -7.98401932155E-05 -3.20498928402E-05 -3.61035421910E-05 -1.14427040045E-05 -5.16474835396E-01 +8.17093677564E-01
1.27000000000E+09 -3.20754165771E-01 +8.68273834636E-01 -4.03519219423E-05 -7.27060347569E-06 -3.89561033205E-05 -2.29386023213E-05 -5.09644280473E-01 +8.20898172490E-01
1.27500000000E+09 -3.12793488858E-01 +8.68699258106E-01 -9.46910968729E-05 -6.01039015975E-05 -6.11044518814E-05 -5.36309912186E-06 -5.02561064849E-01 +8.24378193745E-01
1.28000000000E+09 -3.03265012489E-01 +8.69599496741E-01 -1.30653492535E-04 -3.25808500556E-05 -1.15902768978E-04 +1.98737877478E-05 -4.95542587748E-01 +8.27949901864E-01
1.28500000000E+09 -2.91738614662E-01 +8.71009475248E-01 -1.07205673033E-04 +1.37406850899E-06 -7.71292839568E-05 +3.42856872278E-05 -4.88159990319E-01 +8.31576796131E-01
1.29000000000E+09 -2.79600004587E-01 +8.73039441315E-01 -6.23405731284E-05 +3.49317847118E-05 -7.50354658886E-05 +4.10624875958E-05 -4.80630687694E-01 +8.35357788480E-01
1.29500000000E+09 -2.67292245747E-01 +8.75812168398E-01 -8.21577825448E-05 +4.88534013259E-06 -8.08496442600E-05 +3.85618423318E-05 -4.72536565458E-01 +8.39051584960E-01
1.30000000000E+09 -2.55514658788E-01 +8.79133240973E-01 -1.15619909222E-04 +1.46177814456E-05 -4.97564638109E-05 +3.47186300996E-05 -4.64517220165E-01 +8.42714331798E-01
1.30500000000E+09 -2.44746115431E-01 +8.82284012904E-01 -9.21216909016E-05 +2.15296603896E-05 -1.20823188050E-04 +7.62278518350E-05 -4.56449172497E-01 +8.46051213402E-01
1.31000000000E+09 -2.35535731417E-01 +8.85111512134E-01 -8.29646308849E-05 +6.68351015390E-05 -9.56422822264E-05 +7.83886106091E-05 -4.48146245991E-01 +8.49424251042E-01
1.31500000000E+09 -2.27947171484E-01 +8.86833236614E-01 -7.79315526537E-05 +1.28856126335E-04 -9.84719017725E-05 +9.85559411665E-05 -4.39269992637E-01 +8.52999987175E-01
1.32000000000E+09 -2.21574671235E-01 +8.87633687233E-01 -4.15216132045E-05 +1.00573442930E-04 +6.16168256933E-06 +5.04690825033E-05 -4.30064468170E-01 +8.56383127290E-01
1.32500000000E+09 -2.15628931733E-01 +8.87431603895E-01 -7.22222850669E-05 +1.10987836206E-04 -7.14086062911E-05 +1.33120576235E-04 -4.20242749233E-01 +8.59894858531E-01
1.33000000000E+09 -2.08833926095E-01 +8.86841662487E-01 -1.11369147935E-05 +1.07345923387E-04 -6.09828480385E-05 +8.50869631680E-05 -4.10477089435E-01 +8.63145311289E-01
1.33500000000E+09 -2.00253644461E-01 +8.85859768221E-01 -4.04853731000E-05 +1.34646763634E-04 -2.24350223061E-05 +9.24707318458E-05 -4.00419962773E-01 +8.66535579848E-01
1.34000000000E+09 -1.89255470253E-01 +8.85033129338E-01 -2.67742525221E-05 +8.30742889804E-05 -5.06204866657E-05 +7.93311417555E-05 -3.90189709451E-01 +8.69863284897E-01
1.34500000000E+09 -1.75923230941E-01 +8.84337277266E-01 -1.00878927937E-04 +1.30002041879E-04 -7.37906209694E-05 +1.41347095886E-04 -3.79208742921E-01 +8.73181628060E-01
1.35000000000E+09 -1.60974665143E-01 +8.84078228674E-01 -6.99057448381E-05 +2.09640710320E-04 -1.26333879770E-04 +1.46403367225E-04 -3.68102456317E-01 +8.76165078605E-01
1.35500000000E+09 -1.44710458484E-01 +8.84495927123E-01 -4.59052844129E-05 +1.89397693333E-04 -2.05317523426E-05 +1.94242022707E-04 -3.56317322427E-01 +8.79100125957E-01
1.36000000000E+09 -1.28370005065E-01 +8.85067582353E-01 -3.19845899478E-05 +2.30446604755E-04 -5.91173450061E-05 +1.76780604887E-04 -3.44248500505E-01 +8.81704927643E-01
1.36500000000E+09 -1.12784725956E-01 +8.85504412280E-01 -1.64442531791E-05 +3.07019387761E-04 +3.86112467433E-06 +2.45171867929E-04 -3.32012053622E-01 +8.84145541871E-01
1.37000000000E+09 -9.88297855018E-02 +8.85240104366E-01 +7.75343692674E-05 +3.38008017211E-04 +3.77740453563E-05 +3.56374863846E-04 -3.19037521626E-01 +8.86539801740E-01
1.37500000000E+09 -8.66583316167E-02 +8.84627837318E-01 +2.76289123060E-04 +2.73152914827E-04 +2.04503235242E-04 +3.40417581715E-04 -3.05186669586E-01 +8.88712307605E-01
1.38000000000E+09 -7.57242366073E-02 +8.83053365043E-01 +2.69625015027E-04 +1.30798213459E-04 +2.09300730502E-04 +1.73736068436E-04 -2.90676056502E-01 +8.90582985143E-01
1.38500000000E+09 -6.46884280951E-02 +8.80799558505E-01 +1.79185012791E-04 +1.52957455623E-04 +1.99840050377E-04 +1.73350418859E-04 -2.75260578731E-01 +8.92423899808E-01
1.39000000000E+09 -5.30843500988E-02 +8.77578368298E-01 +1.74954288291E-04 +1.54808184836E-04 +2.09261915294E-04 +2.27665500057E-04 -2.59281280483E-01 +8.93710884467E-01
1.39500000000E+09 -3.94154681552E-02 +8.73633558766E-01 +2.56348499959E-04 +2.63737464078E-04 +2.94467710174E-04 +2.70257106216E-04 -2.42487867097E-01 +8.94325467845E-01
1.40000000000E+09 -2.32031793286E-02 +8.68546967916E-01 +3.74283086969E-04 +2.46851556489E-04 +4.34078587297E-04 +2.43126732061E-04 -2.24660594520E-01 +8.94936798777E-01
1.40500000000E+09 -4.95007905839E-03 +8.62972578205E-01 +5.31969400687E-04 +1.26534400658E-04 +5.73702751097E-04 +8.05795941297E-05 -2.05730513740E-01 +8.94544019090E-01
1.41000000000E+09 +1.51772607880E-02 +8.57248425099E-01 +5.86759287445E-04 -9.90435818850E-05 +5.41089514981E-04 -5.24947249625E-05 -1.85700398855E-01 +8.93611550227E-01
1.41500000000E+09 +3.67661613690E-02 +8.51228972944E-01 +4.72846812163E-04 -1.37571103391E-04 +4.80138701530E-04 -9.25639042891E-05 -1.64243195502E-01 +8.91996061030E-01
1.42000000000E+09 +5.91278748981E-02 +8.44940581067E-01 +4.95422642550E-04 -2.64973146125E-04 +5.33489776340E-04 -2.87002929678E-04 -1.41536319807E-01 +8.89029265678E-01
1.42500000000E+09 +8.14480862291E-02 +8.37183244058E-01 +2.99239269346E-04 -3.42576187155E-04 +3.57106188590E-04 -4.20766967931E-04 -1.18147692082E-01 +8.85349424696E-01
1.43000000000E+09 +1.02749378470E-01 +8.27712953627E-01 +3.08820635439E-04 -2.30268578321E-04 +3.20623982203E-04 -3.28323504689E-04 -9.32444338618E-02 +8.80660410217E-01
1.43500000000E+09 +1.22983265616E-01 +8.16645510725E-01 +3.46690392204E-04 -3.30931650101E-04 +3.08131001073E-04 -3.70300664532E-04 -6.69797097180E-02 +8.73937736237E-01
1.44000000000E+09 +1.43292181235E-01 +8.03516173339E-01 +3.86250125932E-04 -3.41795495732E-04 +3.51226129058E-04 -4.11903541292E-04 -3.88915100469E-02 +8.65271633694E-01
1.44500000000E+09 +1.64014417362E-01 +7.88031426675E-01 +3.75153356868E-04 -6.12424895200E-04 +3.57630986467E-04 -6.21314000383E-04 -8.98564583900E-03 +8.53777723139E-01
1.45000000000E+09 +1.86504508367E-01 +7.69171662193E-01 +4.02078191004E-05 -7.31397054370E-04 -1.50365188425E-05 -7.77411790626E-04 +2.25933998825E-02 +8.39269517852E-01
1.45500000000E+09 +2.10528843857E-01 +7.46929045403E-01 -2.23583818853E-04 -7.11696820014E-04 -2.71406143467E-04 -6.89595445289E-04 +5.57080845419E-02 +8.21524366487E-01
1.46000000000E+09 +2.36735709768E-01 +7.21493030967E-01 -3.92671061093E-04 -6.00439910264E-04 -3.84408020196E-04 -5.24946957032E-04 +8.99191240904E-02 +7.99778924019E-01
1.46500000000E+09 +2.65015097117E-01 +6.92359641714E-01 -4.84936088335E-04 -1.52068455761E-04 -4.09952596776E-04 -1.02989284471E-04 +1.25746681124E-01 +7.73311687321E-01
1.47000000000E+09 +2.93956347568E-01 +6.58277699281E-01 +9.05157387285E-05 -2.69574404690E-08 +3.74763748853E-05 -2.80927600951E-05 +1.62718606477E-01 +7.40301808334E-01
1.47500000000E+09 +3.22192692063E-01 +6.19770960938E-01 +2.53987157884E-04 -4.01903596688E-04 +2.11412988717E-04 -3.67144665998E-04 +1.99888406688E-01 +6.99976328010E-01
1.48000000000E+09 +3.47762189187E-01 +5.75508449390E-01 +1.49845281934E-05 -8.66511885737E-04 +1.43912555238E-05 -8.17906950100E-04 +2.36358822279E-01 +6.51118289681E-01
1.48500000000E+09 +3.68695331796E-01 +5.25083956022E-01 -2.98782281702E-04 -8.88534253223E-04 -2.98932385990E-04 -9.18142380138E-04 +2.70601124400E-01 +5.92770306464E-01
1.49000000000E+09 +3.83838373396E-01 +4.68282499155E-01 -8.28568630633E-04 -8.03519671385E-04 -8.53917010072E-04 -7.74787145996E-04 +2.98822380366E-01 +5.23942206319E-01
1.49500000000E+09 +3.91767925995E-01 +4.04324188387E-01 -1.08912246408E-03 -5.03416180329E-04 -1.03224194232E-03 -4.43121968662E-04 +3.18373203012E-01 +4.44974064005E-01
1.50000000000E+09 +3.90862822447E-01 +3.31893268714E-01 -1.14062748134E-03 +3.22907327036E-05 -1.03401833579E-03 +6.06173193858E-05 +3.24624756757E-01 +3.55967224964E-01
1.50500000000E+09 +3.77408791397E-01 +2.52115577514E-01 -6.06196420218E-04 +4.06077599493E-04 -5.76092640385E-04 +3.26861159376E-04 +3.13451041561E-01 +2.59316776655E-01
1.51000000000E+09 +3.49704991235E-01 +1.67674586993E-01 -3.92791644264E-04 -3.30931179231E-04 -3.84223890586E-04 -3.24358459917E-04 +2.81685940768E-01 +1.60539154155E-01
1.51500000000E+09 +3.06112284948E-01 +8.26110607748E-02 -1.16699821589E-03 -2.94136932585E-04 -1.14657417518E-03 -2.79852844050E-04 +2.30206562359E-01 +6.41535624425E-02
1.52000000000E+09 +2.42837166736E-01 +2.31374186308E-03 -1.39725294316E-03 +1.77996164390E-04 -1.43563501912E-03 +1.44837090373E-04 +1.55672088091E-01 -2.37465746713E-02
1.52500000000E+09 +1.63407480844E-01 -6.30101164213E-02 -1.45888659014E-03 +1.14256011819E-03 -1.43502624137E-03 +1.14194175823E-03 +6.17465111740E-02 -9.27327534873E-02
1.53000000000E+09 +7.17312102166E-02 -1.11073087992E-01 -1.05710944755E-03 +1.58406743196E-03 -1.07158231460E-03 +1.56311389912E-03 -4.26791086145E-02 -1.39546127718E-01
1.53500000000E+09 -2.83895750911E-02 -1.37758489544E-01 +5.69400099505E-04 +1.93402434506E-03 +6.14904174872E-04 +1.91521944008E-03 -1.53399993243E-01 -1.63815925303E-01
1.54000000000E+09 -1.32964230661E-01 -1.39992041742E-01 +4.26311669105E-04 +5.16020620652E-04 +4.05847036931E-04 +5.34682249617E-04 -2.63955031667E-01 -1.62419902626E-01
1.54500000000E+09 -2.32908630490E-01 -1.19104104667E-01 +1.16032184101E-04 +8.24490993312E-04 +1.11259547269E-04 +8.41013654596E-04 -3.63109522787E-01 -1.40854293924E-01
1.55000000000E+09 -3.22962961892E-01 -8.00213382390E-02 +3.70202472709E-04 +6.43205861756E-04 +3.47873310802E-04 +6.32935553157E-04 -4.50534981533E-01 -1.05054007536E-01
1.55500000000E+09 -3.99325911581E-01 -2.99911283218E-02 +1.95288395607E-04 +5.47891695419E-04 +1.66731527371E-04 +6.06316707516E-04 -5.23230475678E-01 -5.80666150469E-02
1.56000000000E+09 -4.62003640195E-01 +2.52271405763E-02 +3.29170739660E-04 +1.11472664303E-03 +2.76631388705E-04 +1.24803222974E-03 -5.81795403771E-01 -5.59101343685E-03
1.56500000000E+09 -5.12564295245E-01 +8.18166254245E-02 +1.09876302033E-03 +1.00763174709E-03 +1.16109429015E-03 +1.10978493502E-03 -6.27533937564E-01 +5.01383049795E-02
1.57000000000E+09 -5.51029253407E-01 +1.37495612926E-01 +1.74523008947E-03 +3.12188301673E-05 +1.84640023263E-03 +2.83127425812E-05 -6.62439986133E-01 +1.04958843188E-01
