# Hz S RI R 50
! CMT, C1220, 16058040, 17.2.0/1
! Date: 14/08/2018 12:31:54
! Data: Format (Calibration Info)
! Freq                      S11: Re/Im (F2)                       S21: Re/Im (F2)                       S12: Re/Im (F2)                       S22: Re/Im (F2)            
1.00000000000E+09 -6.32455757039E-01 +7.07566618803E-01 -3.64893129094E-05 -3.98099061699E-06 +1.95818616728E-05 -1.75785318291E-06 -7.53359124863E-01 +6.23653645891E-01
1.00500000000E+09 -6.25249975684E-01 +7.12562857848E-01 -1.26496182675E-05 -3.54039326705E-06 -2.32339272747E-05 +1.49924203566E-05 -7.49569900433E-01 +6.27822624755E-01
1.01000000000E+09 -6.19029496339E-01 +7.17105307203E-01 +2.01290087600E-06 -2.42505257917E-05 +7.67019905437E-06 -1.58824423838E-05 -7.46260731461E-01 +6.31552745669E-01
1.01500000000E+09 -6.14211398271E-01 +7.21258573538E-01 +1.37277062139E-05 -3.52722071850E-05 -3.31723609219E-05 +2.87923711080E-05 -7.42977640139E-01 +6.34940294780E-01
1.02000000000E+09 -6.10575075626E-01 +7.24573235487E-01 -2.78547344032E-05 +5.41125525334E-06 +6.17702624182E-06 +1.74884389568E-05 -7.39689824684E-01 +6.38589630379E-01
1.02500000000E+09 -6.08052587467E-01 +7.27504275801E-01 -2.70068673079E-05 +2.45780689878E-05 -3.77021063804E-06 +1.76515154387E-05 -7.36801442654E-01 +6.42191022441E-01
1.03000000000E+09 -6.05942303895E-01 +7.30072173138E-01 +3.08695868009E-05 -5.34061076285E-05 -6.60959412226E-05 +1.17062648352E-05 -7.33525390819E-01 +6.46050799981E-01
1.03500000000E+09 -6.03184536989E-01 +7.32617087609E-01 -6.50629171174E-06 +6.13714699928E-05 -4.19269404180E-05 -3.49195470199E-06 -7.29596631193E-01 +6.50087727980E-01
1.04000000000E+09 -5.99394263668E-01 +7.35294753689E-01 -2.52520865830E-05 +3.38992081035E-05 -8.07814907382E-06 +6.23627992852E-05 -7.25815126665E-01 +6.53691862628E-01
1.04500000000E+09 -5.94240740319E-01 +7.38500242412E-01 +3.19019847843E-05 +2.44219106936E-05 -1.62770541148E-05 +6.65236431573E-06 -7.22436009332E-01 +6.57147636579E-01
1.05000000000E+09 -5.87413482751E-01 +7.42485281251E-01 +7.72965951364E-06 +1.45778846507E-05 -2.29984419144E-05 +4.89028382956E-05 -7.18977079854E-01 +6.60535046822E-01
1.05500000000E+09 -5.79696331651E-01 +7.46732554682E-01 +1.97112538966E-05 +7.59281388297E-06 -1.60875300301E-05 +1.35647416052E-06 -7.15746408178E-01 +6.64198492905E-01
1.06000000000E+09 -5.71154243913E-01 +7.51667138872E-01 +3.37076603251E-05 +3.65776646506E-05 -1.46586218082E-05 +5.64788532475E-05 -7.12388955439E-01 +6.67894103100E-01
1.06500000000E+09 -5.62983266132E-01 +7.56476159247E-01 +3.86439594797E-05 +5.14277379388E-05 +2.11259333681E-05 +2.10804378739E-05 -7.08592438057E-01 +6.71778163051E-01
1.07000000000E+09 -5.55804170320E-01 +7.60750395698E-01 -2.93137764837E-05 +4.24186849404E-05 -3.04824015410E-05 +3.22912571237E-05 -7.04316288647E-01 +6.75596886333E-01
1.07500000000E+09 -5.50183877916E-01 +7.64792149032E-01 -1.42125493496E-05 +3.60467934154E-05 +1.99286376783E-05 +8.03790837102E-05 -7.00120758708E-01 +6.79282266142E-01
1.08000000000E+09 -5.45853565031E-01 +7.68205165113E-01 +5.22108782676E-06 +2.47878438900E-05 -5.08283478622E-05 +2.65554160366E-05 -6.96290260315E-01 +6.83197333447E-01
1.08500000000E+09 -5.42783064420E-01 +7.70816938209E-01 +3.99459992925E-05 +5.40184468066E-05 +3.81738497747E-06 +3.80352483402E-05 -6.92346387155E-01 +6.86659888950E-01
1.09000000000E+09 -5.40185684661E-01 +7.73037415540E-01 +1.91763846688E-05 -1.68318523726E-05 +1.31243801007E-05 +4.32491853028E-06 -6.88654273951E-01 +6.90560184674E-01
1.09500000000E+09 -5.38023181411E-01 +7.74979691467E-01 -3.28288615094E-05 +2.50706337418E-05 +4.41564514753E-05 -1.82220068477E-05 -6.84964902106E-01 +6.94351437013E-01
1.10000000000E+09 -5.34477251340E-01 +7.77083884952E-01 +1.75617145557E-05 +2.63470919843E-05 +1.55498895008E-05 +2.05178835947E-05 -6.81069489631E-01 +6.98166931863E-01
1.10500000000E+09 -5.29944291562E-01 +7.79647919810E-01 +3.89287612274E-05 +1.09686982944E-05 +1.97463423443E-05 +3.81963065036E-05 -6.76753757443E-01 +7.01671754587E-01
1.11000000000E+09 -5.23983219127E-01 +7.82792271078E-01 +2.03962759203E-05 -1.33074246570E-06 -3.12629376648E-05 +1.47914872323E-05 -6.72569323032E-01 +7.04936234938E-01
1.11500000000E+09 -5.16754537459E-01 +7.86597021260E-01 +3.55451574117E-05 -4.53485034168E-06 +4.20669539579E-06 +6.28555982749E-05 -6.68451363055E-01 +7.08454504623E-01
1.12000000000E+09 -5.09281349594E-01 +7.90425956215E-01 +3.83410769023E-05 +3.26094866452E-05 +6.74172007426E-05 +8.52008738999E-06 -6.64498481895E-01 +7.11954100324E-01
1.12500000000E+09 -5.01426740391E-01 +7.94496431346E-01 +3.83057518191E-05 -3.10533136122E-05 +4.33906983040E-05 +2.21754373066E-05 -6.60201765032E-01 +7.16006726353E-01
1.13000000000E+09 -4.94531243767E-01 +7.98005772014E-01 +6.29149674386E-05 -2.42187744716E-05 +7.92206322085E-05 -4.00256093514E-06 -6.55893093179E-01 +7.19746024745E-01
1.13500000000E+09 -4.88662085623E-01 +8.00781932192E-01 +5.65547994505E-05 +1.37483125844E-05 +6.25164568781E-05 +6.63345827189E-06 -6.51410461472E-01 +7.23662944010E-01
1.14000000000E+09 -4.83788607945E-01 +8.03142686234E-01 +8.71871138909E-07 +1.45899388869E-05 +9.48687782328E-05 +2.95735332160E-05 -6.46516185378E-01 +7.27221583918E-01
1.14500000000E+09 -4.80027792739E-01 +8.04769380031E-01 +3.93629475294E-05 +9.13373489587E-06 +4.53885075025E-05 +6.11765741840E-06 -6.41839142127E-01 +7.30663280767E-01
1.15000000000E+09 -4.76455806517E-01 +8.06140281638E-01 +3.19576903314E-05 -3.58571963033E-05 +3.95932367791E-05 +4.54674103841E-05 -6.37143546682E-01 +7.34483839725E-01
1.15500000000E+09 -4.72922270959E-01 +8.07615298961E-01 +4.18417756541E-05 +1.76642628976E-05 +3.93913533321E-05 -5.84615208551E-05 -6.32353111501E-01 +7.38285788467E-01
1.16000000000E+09 -4.68280730150E-01 +8.09326144098E-01 +4.58909904421E-05 -9.48413464965E-06 +4.48888761507E-05 -3.15818790283E-05 -6.27640815755E-01 +7.42142296925E-01
1.16500000000E+09 -4.62462556220E-01 +8.11888302479E-01 +7.69172626158E-05 -3.43331365091E-05 +5.22237027983E-05 -6.93451993979E-06 -6.22731307471E-01 +7.45684774858E-01
1.17000000000E+09 -4.55449131698E-01 +8.14943914979E-01 +7.30687247095E-05 -5.22680604905E-06 +7.63583222775E-05 -3.62501879994E-05 -6.17294583431E-01 +7.48941463977E-01
1.17500000000E+09 -4.47413202642E-01 +8.18096972215E-01 +9.21635259661E-05 -5.23161819378E-05 +5.05220237196E-05 -5.75877928111E-05 -6.11674206820E-01 +7.52247662607E-01
1.18000000000E+09 -4.39273490209E-01 +8.21754687457E-01 +7.42061267518E-05 -3.83315516400E-05 +5.79125887325E-05 -3.36456976080E-05 -6.06301163601E-01 +7.55316789004E-01
1.18500000000E+09 -4.31101453663E-01 +8.25012526670E-01 +3.82276507211E-05 -5.29352814162E-05 +1.04162103903E-04 -1.00206433437E-04 -6.00283003284E-01 +7.58438112224E-01
1.19000000000E+09 -4.23851247867E-01 +8.27762025458E-01 +7.55903808920E-05 -4.18612439268E-05 +8.22208840996E-05 -9.58832154589E-05 -5.94176857913E-01 +7.60905477389E-01
1.19500000000E+09 -4.17703789258E-01 +8.29805940333E-01 +5.15659817482E-05 -1.11559758779E-04 +5.17870290147E-05 -1.14902153138E-04 -5.88314899253E-01 +7.62044306343E-01
1.20000000000E+09 -4.12565429307E-01 +8.30835695297E-01 -1.58647075902E-06 -1.80989167591E-04 -2.59985107368E-05 -1.73723364999E-04 -5.83780165063E-01 +7.62252559816E-01
1.20500000000E+09 -4.08074606869E-01 +8.31934824460E-01 -1.45606610683E-06 -9.64643341892E-05 -5.48123334403E-05 -9.46827705790E-05 -5.81438797455E-01 +7.63249664975E-01
1.21000000000E+09 -4.03282585992E-01 +8.32805231817E-01 -9.74341820072E-05 -6.62352637613E-05 -6.01927688869E-05 -6.70056235109E-05 -5.79581662004E-01 +7.66332448761E-01
1.21500000000E+09 -3.97479735392E-01 +8.34207297600E-01 -1.16962897421E-04 -4.93417661361E-05 -3.72486199827E-05 -3.65000405533E-05 -5.76658391748E-01 +7.70929795454E-01
1.22000000000E+09 -3.90154546705E-01 +8.35862656849E-01 -4.08484312019E-05 -8.40239149192E-05 -1.70622481754E-05 -3.88664578291E-05 -5.72524371552E-01 +7.76334298644E-01
1.22500000000E+09 -3.81255329060E-01 +8.38284977570E-01 +4.78508460599E-06 -1.39223444400E-05 -3.91178608821E-05 -4.47992739915E-05 -5.67180296323E-01 +7.81359663365E-01
1.23000000000E+09 -3.71365972260E-01 +8.41067770953E-01 -2.93278681645E-05 -8.51217413719E-05 -3.18094774110E-05 +3.99581579337E-06 -5.61560807309E-01 +7.86158524428E-01
1.23500000000E+09 -3.61010634618E-01 +8.44370440903E-01 -5.59292485707E-05 -3.97358335703E-05 -4.58211064523E-05 -2.77536250357E-05 -5.56040803580E-01 +7.90405913507E-01
1.24000000000E+09 -3.50947306827E-01 +8.48247815372E-01 -3.11412348919E-05 -5.25399596072E-05 -3.81600150075E-05 -3.17542402866E-05 -5.49882715454E-01 +7.94355600118E-01
1.24500000000E+09 -3.41750557850E-01 +8.52247924303E-01 -6.15447162301E-05 -2.12481257370E-05 -1.64195084766E-05 -8.49979197062E-05 -5.43696517196E-01 +7.98137107418E-01
1.25000000000E+09 -3.33488138326E-01 +8.55705847082E-01 -1.00436562610E-04 -7.03158411764E-05 -6.20525186525E-05 -8.69248099385E-05 -5.37153113023E-01 +8.02295810429E-01
1.25500000000E+09 -3.26496290142E-01 +8.58225886743E-01 -6.14350239898E-05 -4.02546931599E-05 -8.96414983718E-05 -7.68805692845E-05 -5.30477816662E-01 +8.06301106547E-01
1.26000000000E+09 -3.20340197865E-01 +8.59926797117E-01 -3.95536879795E-05 -7.42573951107E-05 -7.56735299632E-05 +7.02784864449E-06 -5.23768365856E-01 +8.10495646425E-01
1.26500000000E+09 -3.14764001267E-01 +8.60953951383E-01 -4.83088313624E-05 -4.86952306194E-05 -7.13461472600E-05 +2.30259071813E-05 -5.16830353269E-01 +8.14362413838E-01
1.27000000000E+09 -3.08587579322E-01 +8.61650338959E-01 -1.19040304966E-04 -3.26964074771E-05 -9.27092101823E-05 -2.56845894194E-05 -5.09819239485E-01 +8.18246100997E-01
1.27500000000E+09 -3.01350673101E-01 +8.62258214255E-01 -7.48395181937E-05 +8.79345406211E-07 -7.13161438066E-05 -1.27186253485E-05 -5.02790716997E-01 +8.21781175003E-01
1.28000000000E+09 -2.92300642004E-01 +8.63094627682E-01 -8.97912971349E-05 -1.91962113599E-05 -8.97429639341E-05 -8.04096202132E-06 -4.95875763988E-01 +8.25305507396E-01
1.28500000000E+09 -2.81315414959E-01 +8.64420919030E-01 -8.25537445186E-05 +5.34582398825E-06 -1.23581160780E-04 -1.86131164149E-05 -4.88224783504E-01 +8.29147987467E-01
1.29000000000E+09 -2.69620204666E-01 +8.66355730402E-01 -8.08001744234E-05 +1.26945027120E-05 -8.13804086049E-05 +4.67082311347E-06 -4.80567373697E-01 +8.32916936994E-01
1.29500000000E+09 -2.57574261773E-01 +8.68953569640E-01 -8.22704965806E-05 +3.34728057309E-05 -9.26269577900E-05 -8.14481730428E-06 -4.72710958960E-01 +8.36376741847E-01
1.30000000000E+09 -2.45736525149E-01 +8.72223606135E-01 -1.01613702242E-04 -6.08050248753E-06 -8.04576646697E-05 +1.30226539002E-05 -4.64953035373E-01 +8.39946746434E-01
1.30500000000E+09 -2.35035340561E-01 +8.75426608683E-01 -9.49905921012E-05 +3.97134188420E-05 -8.58448081199E-05 +1.68191863262E-05 -4.56781346199E-01 +8.43407745935E-01
1.31000000000E+09 -2.25934126864E-01 +8.78168439888E-01 -9.89658680238E-05 +4.91414124708E-06 -4.93282699623E-05 +1.13305494220E-05 -4.48533243357E-01 +8.46863865960E-01
1.31500000000E+09 -2.18330611579E-01 +8.80001125376E-01 -7.99365884672E-05 -2.25698643455E-05 -9.02044868163E-05 -7.08264417142E-06 -4.39748505480E-01 +8.50408902346E-01
1.32000000000E+09 -2.12094600433E-01 +8.80908045794E-01 -1.03939812124E-04 -3.17723568592E-05 -1.22624123320E-04 +7.13287331854E-06 -4.30650681049E-01 +8.53691005882E-01
1.32500000000E+09 -2.06301177643E-01 +8.80737935998E-01 -1.58926458869E-04 +1.82844581640E-05 -1.51846722829E-04 -9.19595223231E-06 -4.21058003621E-01 +8.57015608829E-01
1.33000000000E+09 -1.99374234861E-01 +8.80227520994E-01 -1.57215794017E-04 +8.36423556749E-06 -1.69428048981E-04 +3.61408302485E-05 -4.11515412062E-01 +8.60417725187E-01
1.33500000000E+09 -1.90852947441E-01 +8.79316501004E-01 -2.06821532447E-04 +3.43537741417E-05 -2.18829472295E-04 +8.37756549123E-05 -4.01854093115E-01 +8.63509056860E-01
1.34000000000E+09 -1.79764842194E-01 +8.78247747838E-01 -1.90955095102E-04 +7.99754806676E-05 -2.10435545711E-04 +1.56923196150E-04 -3.91759051086E-01 +8.66657427008E-01
1.34500000000E+09 -1.66220895596E-01 +8.77442908627E-01 -1.80566057458E-04 +1.21107874046E-04 -1.65043619536E-04 +1.58912946110E-04 -3.80746359498E-01 +8.70121570713E-01
1.35000000000E+09 -1.51083379004E-01 +8.76933894775E-01 -1.47189902487E-04 +1.83262577677E-04 -1.04774308260E-04 +1.49556728699E-04 -3.69570518276E-01 +8.73178598597E-01
1.35500000000E+09 -1.34781984615E-01 +8.77259373804E-01 -1.41633689712E-04 +1.89686822533E-04 -1.36670044434E-04 +1.72070574210E-04 -3.57824942184E-01 +8.75932318391E-01
1.36000000000E+09 -1.18622999220E-01 +8.78034630538E-01 -1.82291054674E-04 +2.15296848095E-04 -1.65624932042E-04 +2.12768337950E-04 -3.45883364520E-01 +8.78745457960E-01
1.36500000000E+09 -1.03049351126E-01 +8.78730767968E-01 -1.67543832541E-04 +3.10339562563E-04 -8.48964326256E-05 +2.99925799904E-04 -3.33663761840E-01 +8.81226493840E-01
1.37000000000E+09 -8.89641147199E-02 +8.79080718637E-01 -9.20334064380E-05 +3.30639228833E-04 -1.32259629822E-04 +3.13799970512E-04 -3.20831492347E-01 +8.83552784361E-01
1.37500000000E+09 -7.68976390743E-02 +8.78676864373E-01 -7.03941392169E-06 +4.06453136020E-04 -7.17945801756E-05 +4.20206246335E-04 -3.07167396677E-01 +8.85735524477E-01
1.38000000000E+09 -6.61853648383E-02 +8.77850040372E-01 +8.82721788330E-05 +4.19598592638E-04 +5.55072055947E-05 +3.90357548136E-04 -2.92393040169E-01 +8.87915178923E-01
1.38500000000E+09 -5.53282419644E-02 +8.76135282358E-01 +1.34635474406E-04 +3.55962816873E-04 +6.94288537620E-05 +4.25406329567E-04 -2.76837088642E-01 +8.89641164986E-01
1.39000000000E+09 -4.36193587677E-02 +8.73428576914E-01 +1.49861971351E-04 +3.27419568114E-04 +1.72500438121E-04 +4.44043661976E-04 -2.61023633019E-01 +8.91174370615E-01
1.39500000000E+09 -2.99748927296E-02 +8.69816352150E-01 +1.24896821879E-04 +3.37016493417E-04 +1.56444500084E-04 +3.75628950465E-04 -2.44260729777E-01 +8.91794013562E-01
1.40000000000E+09 -1.35875207186E-02 +8.65194602962E-01 +1.86600094016E-04 +4.09682962259E-04 +1.87148653096E-04 +3.85862919378E-04 -2.26977623741E-01 +8.92088464439E-01
1.40500000000E+09 +4.77588424517E-03 +8.60008871212E-01 +2.26411341619E-04 +5.04326210335E-04 +2.94611488290E-04 +4.42676752781E-04 -2.08472732919E-01 +8.91720400690E-01
1.41000000000E+09 +2.51041537571E-02 +8.54595633607E-01 +4.28876477773E-04 +4.73013503122E-04 +4.01828438662E-04 +4.57317644976E-04 -1.88569133877E-01 +8.90999950685E-01
1.41500000000E+09 +4.67700425899E-02 +8.48909932212E-01 +5.51163347490E-04 +4.57549735811E-04 +5.51979909758E-04 +4.63860582771E-04 -1.67198094547E-01 +8.89442383656E-01
1.42000000000E+09 +6.89422897950E-02 +8.42921678890E-01 +6.90732151460E-04 +2.43037938181E-04 +7.89374450910E-04 +2.20467284115E-04 -1.44430357260E-01 +8.86923555034E-01
1.42500000000E+09 +9.07674876785E-02 +8.35849460452E-01 +5.47588580573E-04 +2.19278928587E-04 +6.14446110169E-04 +1.86433028302E-04 -1.20870110622E-01 +8.83067843995E-01
1.43000000000E+09 +1.11270384995E-01 +8.27333190470E-01 +7.18979682627E-04 +2.16692002098E-04 +8.64873628101E-04 +2.13323051771E-04 -9.62961030004E-02 +8.78374384702E-01
1.43500000000E+09 +1.30996456297E-01 +8.17156921611E-01 +8.48188321069E-04 +4.27271028262E-05 +9.03242100038E-04 -5.82416708813E-05 -7.02177716107E-02 +8.71795445310E-01
1.44000000000E+09 +1.50764917639E-01 +8.05149858437E-01 +8.45780562332E-04 -7.90878688524E-05 +8.14879172809E-04 -1.65168366662E-04 -4.22545650789E-02 +8.63373387429E-01
1.44500000000E+09 +1.71541147555E-01 +7.90212229922E-01 +8.95488697057E-04 -2.25122709270E-04 +9.18291504888E-04 -2.49746060411E-04 -1.22568281417E-02 +8.52232952739E-01
1.45000000000E+09 +1.94111824914E-01 +7.71915798547E-01 +8.96729836956E-04 -3.19744113330E-04 +8.92074133219E-04 -4.01604165053E-04 +1.96928282758E-02 +8.37718644846E-01
1.45500000000E+09 +2.19135213701E-01 +7.50141476299E-01 +9.84827817188E-04 -4.72459097667E-04 +9.72345408641E-04 -5.75950152139E-04 +5.28117857950E-02 +8.20259725590E-01
1.46000000000E+09 +2.46830668283E-01 +7.24269575280E-01 +1.06478807556E-03 -6.94979923993E-04 +9.52474874917E-04 -7.79239995527E-04 +8.71286430604E-02 +7.98689477859E-01
1.46500000000E+09 +2.76183598410E-01 +6.94393924417E-01 +1.09696601861E-03 -1.10877167064E-03 +9.17844391645E-04 -1.06791007893E-03 +1.22951698248E-01 +7.72309057785E-01
1.47000000000E+09 +3.06999532321E-01 +6.60685531143E-01 +7.63162357374E-04 -1.40202864118E-03 +6.95637710126E-04 -1.29679145351E-03 +1.59104498019E-01 +7.39394341173E-01
1.47500000000E+09 +3.37435899306E-01 +6.21867010218E-01 +4.55757548721E-04 -1.65514274355E-03 +5.42824189102E-04 -1.63713925591E-03 +1.96686391704E-01 +6.99643431986E-01
1.48000000000E+09 +3.65504057673E-01 +5.77207344922E-01 +1.59207654158E-04 -1.63929236483E-03 +1.71283207517E-04 -1.66271340809E-03 +2.33362484203E-01 +6.50286736077E-01
1.48500000000E+09 +3.88957655106E-01 +5.26723965994E-01 +6.73401043640E-05 -1.78809452276E-03 +2.67046261392E-05 -1.90761120500E-03 +2.67527951424E-01 +5.92303375199E-01
1.49000000000E+09 +4.07121474528E-01 +4.68916991958E-01 -4.29443352647E-04 -2.18360623658E-03 -5.38315847167E-04 -2.16101827399E-03 +2.96299930759E-01 +5.23493272307E-01
1.49500000000E+09 +4.17384383641E-01 +4.03184883026E-01 -8.30415717666E-04 -2.26630653586E-03 -8.97530323326E-04 -2.13042923618E-03 +3.15549173167E-01 +4.44378623881E-01
1.50000000000E+09 +4.18526384669E-01 +3.28060611872E-01 -1.60964481832E-03 -2.70040702220E-03 -1.53579351456E-03 -2.54851531022E-03 +3.21758675324E-01 +3.55336446199E-01
1.50500000000E+09 +4.06721435366E-01 +2.44338095229E-01 -3.32115695034E-03 -2.01740692405E-03 -3.13987086668E-03 -2.00278288824E-03 +3.11084503050E-01 +2.59937696196E-01
1.51000000000E+09 +3.78750270792E-01 +1.54796928763E-01 -3.43947418249E-03 -1.72610269578E-04 -3.44401599830E-03 -3.09148552768E-04 +2.81829774156E-01 +1.59571533398E-01
1.51500000000E+09 +3.32736360389E-01 +6.48940350057E-02 -2.97231713793E-03 +3.65501087531E-04 -3.03959478461E-03 +3.40689645303E-04 +2.28865440896E-01 +6.06698445506E-02
1.52000000000E+09 +2.67927460258E-01 -1.91246352679E-02 -3.17257546774E-03 +1.06865543033E-03 -3.24773894159E-03 +1.06767716306E-03 +1.53015248695E-01 -2.70143562240E-02
1.52500000000E+09 +1.85493154551E-01 -9.06663184200E-02 -2.24077867495E-03 +2.09495141557E-03 -2.27987834796E-03 +2.12715074183E-03 +5.87028819117E-02 -9.69348806450E-02
1.53000000000E+09 +8.63601531122E-02 -1.42692133943E-01 -1.83662902497E-03 +1.84132638070E-03 -1.84004266827E-03 +1.90811417678E-03 -4.88575472533E-02 -1.43829838234E-01
1.53500000000E+09 -2.25309479306E-02 -1.68390379433E-01 -1.90138104904E-03 +2.71562098513E-03 -1.91722097830E-03 +2.65744632554E-03 -1.61672128499E-01 -1.64847212844E-01
1.54000000000E+09 -1.32388108352E-01 -1.66100552505E-01 -7.71747943139E-04 +3.52904859574E-03 -7.76909506584E-04 +3.48314075669E-03 -2.71267001847E-01 -1.62052973689E-01
1.54500000000E+09 -2.36058882924E-01 -1.40226036083E-01 +8.22225339263E-04 +3.28551175980E-03 +7.50543969023E-04 +3.24457200480E-03 -3.70271082483E-01 -1.39568129931E-01
1.55000000000E+09 -3.28438998615E-01 -9.61990762475E-02 +1.51134331270E-03 +2.62786331139E-03 +1.39404713033E-03 +2.67065755655E-03 -4.57694865424E-01 -1.02705816170E-01
1.55500000000E+09 -4.07374745846E-01 -4.04498530650E-02 +2.04731814279E-03 +1.90438470883E-03 +2.02470924011E-03 +1.96196307032E-03 -5.29847125090E-01 -5.39723158104E-02
1.56000000000E+09 -4.71503309081E-01 +2.13833808296E-02 +2.19265393594E-03 +7.76584544666E-04 +2.27320398034E-03 +8.39118042097E-04 -5.86675452251E-01 -5.93335256843E-04
1.56500000000E+09 -5.20051472632E-01 +8.38233834478E-02 +1.75104874275E-03 +1.40305879817E-04 +1.86458462075E-03 +1.77985536011E-04 -6.31988980371E-01 +5.50590571753E-02
1.57000000000E+09 -5.56800824303E-01 +1.43623939595E-01 +1.38879914400E-03 -9.67368172617E-06 +1.45880028554E-03 -3.31012135440E-05 -6.65537043801E-01 +1.10842005706E-01
