# Hz S RI R 50
! CMT, C1220, 16058040, 17.2.0/1
! Date: 14/08/2018 11:46:09
! Data: Format (Calibration Info)
! Freq                      S11: Re/Im (F2)                       S21: Re/Im (F2)                       S12: Re/Im (F2)                       S22: Re/Im (F2)            
1.00000000000E+09 -6.48741262915E-01 +7.15085225373E-01 -4.13106890253E-06 +2.40056571975E-05 -1.90239508313E-05 -2.31853395650E-05 -7.55052465635E-01 +6.24611629954E-01
1.00500000000E+09 -6.41782301341E-01 +7.19976148093E-01 +1.16494247358E-05 -3.12855872167E-05 +5.90630000021E-06 -2.01609578268E-05 -7.51445253057E-01 +6.28679118735E-01
1.01000000000E+09 -6.35675327746E-01 +7.24515317556E-01 +2.05168184116E-05 +2.05933763956E-05 -2.44054400142E-05 +6.60768571565E-05 -7.47918756185E-01 +6.32591614317E-01
1.01500000000E+09 -6.30684419251E-01 +7.28214948751E-01 -6.55415421304E-06 +1.70785964616E-05 -4.40668292912E-05 +3.47082450872E-05 -7.44447807074E-01 +6.36488195737E-01
1.02000000000E+09 -6.26969974414E-01 +7.31455643416E-01 -9.02368979229E-06 +6.77671384660E-06 -2.80519350894E-05 -3.85206613234E-07 -7.41027486081E-01 +6.39952531498E-01
1.02500000000E+09 -6.23985064346E-01 +7.34227110027E-01 +1.90548282842E-05 +1.32956432741E-05 -6.53368681960E-06 +2.87317394679E-05 -7.37802322046E-01 +6.43798538174E-01
1.03000000000E+09 -6.21441090975E-01 +7.36753836623E-01 +1.21908676232E-05 +3.32057279475E-05 -2.32226198011E-05 +3.74284126108E-05 -7.34670227448E-01 +6.47678663024E-01
1.03500000000E+09 -6.18201095698E-01 +7.39380199978E-01 -1.07822642894E-05 +2.30563235252E-05 +1.75007674352E-05 -4.29916451994E-06 -7.30920400553E-01 +6.51334829590E-01
1.04000000000E+09 -6.13975632312E-01 +7.42345849430E-01 -1.40117420025E-06 +2.69289910263E-05 -1.75211168847E-05 -5.04368896679E-05 -7.27157052878E-01 +6.55023751497E-01
1.04500000000E+09 -6.08303414443E-01 +7.45928731289E-01 -4.22830400241E-05 +3.72406346711E-05 -1.37165289946E-05 +2.16732320907E-06 -7.23609723765E-01 +6.58560846194E-01
1.05000000000E+09 -6.01311398308E-01 +7.50060989964E-01 -3.14072453467E-05 +3.00866844632E-05 +3.35447875587E-05 +1.91463240443E-06 -7.20263927410E-01 +6.62032575698E-01
1.05500000000E+09 -5.93564166356E-01 +7.54730213700E-01 -4.88802259726E-06 +2.33217205655E-05 -4.73498352968E-05 +6.25122207035E-05 -7.16947457588E-01 +6.65704199043E-01
1.06000000000E+09 -5.85064831288E-01 +7.59724081357E-01 +6.72104573276E-06 +6.13389022619E-06 -1.81594836667E-05 +2.22948162383E-05 -7.13592903382E-01 +6.69320134514E-01
1.06500000000E+09 -5.77032955500E-01 +7.64564528661E-01 +1.69284943450E-05 +4.61573940157E-05 -2.39287224280E-05 +3.23448956583E-05 -7.10009765143E-01 +6.73070311365E-01
1.07000000000E+09 -5.70116331547E-01 +7.68878308034E-01 -3.48404956758E-05 +3.85329550617E-05 -6.97992814804E-05 +2.19096067046E-05 -7.05921975486E-01 +6.76756892818E-01
1.07500000000E+09 -5.64593228187E-01 +7.72485047010E-01 -1.57825530811E-05 +2.99423230049E-05 -1.69163778276E-05 +1.49084144263E-05 -7.01771500243E-01 +6.80488747087E-01
1.08000000000E+09 -5.60380767428E-01 +7.75621278990E-01 +1.88492000621E-05 -8.94117477884E-06 +9.17967076696E-06 +5.20004116056E-05 -6.97639159690E-01 +6.84241699741E-01
1.08500000000E+09 -5.57548208501E-01 +7.77795250759E-01 +1.71825530672E-05 +2.02544949028E-05 +3.16241160696E-05 -1.83901878837E-05 -6.93491669761E-01 +6.88229264428E-01
1.09000000000E+09 -5.55135332490E-01 +7.79827232566E-01 +4.37094981075E-05 -3.23401878381E-06 +3.26951945195E-05 +6.56769398301E-05 -6.89725659875E-01 +6.92132003409E-01
1.09500000000E+09 -5.52807296890E-01 +7.81668434004E-01 +1.50494800735E-06 +1.46152651259E-05 +3.29364696686E-05 -5.94668268023E-06 -6.85775187593E-01 +6.96052294528E-01
1.10000000000E+09 -5.49453487022E-01 +7.83653858176E-01 -4.30604323697E-06 +2.85909165629E-05 -1.60520720434E-05 +1.69578451286E-05 -6.81995561604E-01 +6.99683342773E-01
1.10500000000E+09 -5.45003937366E-01 +7.86548518824E-01 +4.10278594865E-05 -4.08738026635E-05 -4.13311316124E-06 -1.29978407677E-05 -6.77766227494E-01 +7.03252868710E-01
1.11000000000E+09 -5.39230299401E-01 +7.89519668731E-01 +3.32147504765E-05 -8.02008514116E-06 -7.69643156818E-07 +8.92791134510E-06 -6.73694714413E-01 +7.06810979724E-01
1.11500000000E+09 -5.32187790231E-01 +7.93386752018E-01 +4.01648774050E-05 +1.51342189903E-07 -4.17317359185E-06 +3.22959144752E-05 -6.69492660684E-01 +7.10155348675E-01
1.12000000000E+09 -5.24612052267E-01 +7.97079023405E-01 +1.12941527913E-05 -2.52928365910E-05 -2.10017753200E-05 -8.30533355232E-06 -6.65253865886E-01 +7.14007317623E-01
1.12500000000E+09 -5.16899019194E-01 +8.01254992351E-01 -2.01993774083E-05 +2.69576365609E-05 +4.03520628925E-05 -5.16836951561E-05 -6.61005564361E-01 +7.17986995680E-01
1.13000000000E+09 -5.10067526537E-01 +8.04739786100E-01 +4.24553841247E-05 -2.05881611756E-05 +3.37325378799E-05 +1.73541020945E-05 -6.56729882326E-01 +7.21730749376E-01
1.13500000000E+09 -5.03754448983E-01 +8.07530368528E-01 -3.18296156352E-06 +7.25510074116E-06 +4.27646182620E-05 -8.48220592941E-06 -6.52362373699E-01 +7.25381194366E-01
1.14000000000E+09 -4.98828803131E-01 +8.10055711101E-01 +2.09231904607E-05 -1.01684271572E-05 +2.21979246386E-05 -1.98207555646E-05 -6.47634988253E-01 +7.28852291566E-01
1.14500000000E+09 -4.94475055993E-01 +8.11669398680E-01 -2.13474467535E-06 +1.31824552896E-05 +7.43238425735E-06 -1.08171677878E-05 -6.43017532229E-01 +7.32218394130E-01
1.15000000000E+09 -4.90418465363E-01 +8.13152984904E-01 +6.32327303867E-05 -1.39549187843E-05 +7.03006898602E-05 +1.04663686658E-05 -6.38274603406E-01 +7.36216776739E-01
1.15500000000E+09 -4.86127456459E-01 +8.15108281399E-01 +6.44388415348E-06 -7.78700836822E-06 +4.09209898394E-06 -6.75131688362E-06 -6.33363226698E-01 +7.40000929905E-01
1.16000000000E+09 -4.81009236610E-01 +8.17060006826E-01 +3.03139216197E-05 -3.00509488069E-05 +1.34327394566E-05 +3.06106885661E-05 -6.28399620313E-01 +7.43832225894E-01
1.16500000000E+09 -4.74971616283E-01 +8.19794904354E-01 +4.47362883548E-05 +1.51153339400E-05 +8.77391462789E-05 +9.17809482580E-06 -6.23366787684E-01 +7.47554787272E-01
1.17000000000E+09 -4.67512058114E-01 +8.22893487191E-01 +7.58740709704E-05 -2.04821805774E-05 +3.11809638145E-05 -2.85766351557E-05 -6.18207904917E-01 +7.50986229617E-01
1.17500000000E+09 -4.59437066203E-01 +8.25999883603E-01 +2.01397693643E-05 -3.28910312773E-05 +1.67419086891E-05 -2.25899516195E-05 -6.12381012884E-01 +7.54194658574E-01
1.18000000000E+09 -4.51377909812E-01 +8.29604590388E-01 +3.43626909689E-05 -3.71282294259E-05 +6.32051107860E-05 +8.80603298247E-06 -6.06909054983E-01 +7.57435407181E-01
1.18500000000E+09 -4.43453516741E-01 +8.32773815815E-01 +5.61162191666E-05 -4.87983965801E-05 +7.87409722720E-05 -5.14650708556E-05 -6.00809617800E-01 +7.60475872277E-01
1.19000000000E+09 -4.36014962852E-01 +8.35285109916E-01 +9.32344165673E-05 -7.66972326183E-05 +8.65581973803E-05 -1.31377402903E-04 -5.94586827927E-01 +7.63192283385E-01
1.19500000000E+09 -4.29851217536E-01 +8.37297165013E-01 +8.68326177384E-07 -1.17682599931E-04 +1.57656946296E-05 -1.31279663289E-04 -5.88344544065E-01 +7.64542671138E-01
1.20000000000E+09 -4.24659500074E-01 +8.38291238689E-01 -1.17510483763E-05 -1.28495500480E-04 -4.77667792596E-05 -1.79009742551E-04 -5.83741239347E-01 +7.64771363726E-01
1.20500000000E+09 -4.19911274341E-01 +8.39453898994E-01 -9.25341999546E-05 -1.13702733768E-04 -8.01176435063E-05 -9.29693991761E-05 -5.81502574952E-01 +7.65576521175E-01
1.21000000000E+09 -4.14972486372E-01 +8.40585922523E-01 -6.18538179419E-05 -2.08709672033E-05 -7.09591925751E-05 -2.04807923564E-05 -5.79782952363E-01 +7.68406985357E-01
1.21500000000E+09 -4.09075424168E-01 +8.42128079027E-01 -5.01988017733E-05 -3.75795620167E-05 -7.30365722719E-05 -3.64029691606E-06 -5.77046081782E-01 +7.72920891902E-01
1.22000000000E+09 -4.01760312112E-01 +8.43932240966E-01 -6.14944843223E-05 +1.28346415595E-05 -2.44641117028E-05 +1.69809179524E-05 -5.72934607122E-01 +7.78406185205E-01
1.22500000000E+09 -3.93235164814E-01 +8.46388724174E-01 -4.72212532899E-06 -2.32609196301E-05 -1.26231556118E-05 -1.53123200239E-06 -5.67740105718E-01 +7.83303488650E-01
1.23000000000E+09 -3.83723573273E-01 +8.49429249292E-01 -2.32613130023E-05 -4.05987426792E-05 +1.34677651352E-05 +3.38358924011E-05 -5.62096032858E-01 +7.88156994461E-01
1.23500000000E+09 -3.74149061198E-01 +8.52643184552E-01 -2.40085549384E-05 +1.17922784624E-05 -1.02771644915E-05 -5.23231275410E-05 -5.56181376130E-01 +7.92531025714E-01
1.24000000000E+09 -3.64545975862E-01 +8.56118455835E-01 -5.01379811355E-05 -7.57256189873E-05 -3.99490504798E-05 -2.21824545321E-05 -5.50198110544E-01 +7.96467282778E-01
1.24500000000E+09 -3.55919302876E-01 +8.59748854111E-01 -6.16403601129E-05 -1.91525142265E-05 +1.77825933012E-05 -2.12637595690E-05 -5.43856308869E-01 +8.00297321873E-01
1.25000000000E+09 -3.48281651592E-01 +8.62897248962E-01 -6.99673787081E-05 -4.33747565038E-05 -4.07911324159E-05 -5.48049362371E-05 -5.37213281286E-01 +8.04641293123E-01
1.25500000000E+09 -3.41396075165E-01 +8.64900565653E-01 -7.02463979590E-05 -2.24363535451E-05 -7.05923767722E-05 -2.50757081555E-06 -5.30408765202E-01 +8.08727853799E-01
1.26000000000E+09 -3.35280577986E-01 +8.66321840127E-01 -5.27153923461E-05 -1.64349247472E-05 -6.28738471936E-05 +2.32712249688E-05 -5.23607241415E-01 +8.12882060200E-01
1.26500000000E+09 -3.29313945813E-01 +8.67255341401E-01 -8.16244418481E-05 +1.91168859604E-06 -7.36800177381E-05 -3.14231106037E-05 -5.16573257892E-01 +8.16925889403E-01
1.27000000000E+09 -3.22536947655E-01 +8.67712599106E-01 -2.59219399973E-05 -3.89470569578E-05 -6.06256536264E-05 -3.59150951054E-05 -5.09720820462E-01 +8.20660739679E-01
1.27500000000E+09 -3.14736355894E-01 +8.68275364924E-01 -9.06660237476E-05 -6.84430830167E-05 -5.19377300011E-05 -7.20203486417E-05 -5.02610344935E-01 +8.24321766649E-01
1.28000000000E+09 -3.04966107206E-01 +8.69313069178E-01 -8.75036309936E-05 -4.86034077869E-05 -6.38929343651E-05 -9.61473352459E-06 -4.95675739668E-01 +8.27766542940E-01
1.28500000000E+09 -2.93677352807E-01 +8.70898917543E-01 -9.78449093838E-05 -1.71490560343E-05 -1.14227028820E-04 -1.20077166823E-06 -4.88267397680E-01 +8.31481305048E-01
1.29000000000E+09 -2.81529026653E-01 +8.72915631804E-01 -1.21940815068E-04 -1.21028890111E-05 -1.63886823425E-04 +1.90724793588E-05 -4.80797595804E-01 +8.35215930508E-01
1.29500000000E+09 -2.69237120031E-01 +8.75670809726E-01 -1.01715048640E-04 -3.42521708339E-05 -1.06840624224E-04 +1.74776230700E-05 -4.72610258908E-01 +8.38744777678E-01
1.30000000000E+09 -2.57377696938E-01 +8.78956520383E-01 -1.38211545358E-04 +3.82008851910E-05 -1.44349834967E-04 +2.93249230618E-05 -4.64697134600E-01 +8.42494052552E-01
1.30500000000E+09 -2.46688646813E-01 +8.82151906122E-01 -1.21716620243E-04 +4.89034734507E-05 -9.20507917323E-05 +8.41281428204E-05 -4.56572131060E-01 +8.45908614842E-01
1.31000000000E+09 -2.37459095091E-01 +8.84765823955E-01 -1.52141790183E-04 +8.76239274467E-05 -9.10940670882E-05 +1.30495980050E-04 -4.48238563918E-01 +8.49372517867E-01
1.31500000000E+09 -2.29898095784E-01 +8.86580845156E-01 -1.12262697569E-04 +1.31964443126E-04 -1.14877628541E-04 +1.00858985035E-04 -4.39461848342E-01 +8.52910034391E-01
1.32000000000E+09 -2.23492245639E-01 +8.87131378621E-01 -7.83852591741E-05 +1.46401131873E-04 -1.17992690364E-04 +1.19316275250E-04 -4.30295730591E-01 +8.56228912117E-01
1.32500000000E+09 -2.17426628357E-01 +8.86908897873E-01 -7.67348353548E-05 +1.39545568667E-04 -8.37597115763E-05 +1.51388370209E-04 -4.20568801593E-01 +8.59631659118E-01
1.33000000000E+09 -2.10726216113E-01 +8.86364848094E-01 -7.46245017157E-05 +1.33252601010E-04 -6.33463923942E-05 +1.77787204875E-04 -4.10621661443E-01 +8.63011482707E-01
1.33500000000E+09 -2.02218915997E-01 +8.85539675766E-01 -5.07624748588E-05 +1.67807817932E-04 -5.80928092266E-05 +1.99217373140E-04 -4.00571404959E-01 +8.66378101618E-01
1.34000000000E+09 -1.91485356623E-01 +8.84848243979E-01 -6.07683440882E-05 +1.66791234485E-04 -3.82390711609E-05 +1.25824411713E-04 -3.90360770825E-01 +8.69668318608E-01
1.34500000000E+09 -1.78346442385E-01 +8.84207184760E-01 -3.08089938712E-05 +2.03313750928E-04 -4.72409094791E-05 +1.72727518571E-04 -3.79520233668E-01 +8.73004470762E-01
1.35000000000E+09 -1.63407090451E-01 +8.84100081108E-01 -6.46147691284E-05 +2.21109466415E-04 -8.43518389610E-05 +2.09198224805E-04 -3.68209606588E-01 +8.75958125012E-01
1.35500000000E+09 -1.47163062980E-01 +8.84503570564E-01 +2.12911539229E-05 +2.39413711552E-04 +3.19881726279E-05 +2.11509370998E-04 -3.56516425520E-01 +8.78838914802E-01
1.36000000000E+09 -1.30935873289E-01 +8.85101093901E-01 -3.49756284393E-05 +2.30352732910E-04 +8.10573071478E-06 +2.13130892592E-04 -3.44442251193E-01 +8.81575512424E-01
1.36500000000E+09 -1.15195746417E-01 +8.85489458944E-01 +4.80119988664E-05 +2.98689062520E-04 +2.97149373996E-05 +2.78606544582E-04 -3.32182230818E-01 +8.84017772443E-01
1.37000000000E+09 -1.01198477184E-01 +8.85214135059E-01 +1.05995081116E-04 +3.42557197355E-04 +1.20521597886E-04 +3.06517766428E-04 -3.19159581447E-01 +8.86431019131E-01
1.37500000000E+09 -8.90463555826E-02 +8.84472352537E-01 +2.71132647763E-04 +2.88139845183E-04 +2.81241571616E-04 +2.96479693676E-04 -3.05398194231E-01 +8.88531135294E-01
1.38000000000E+09 -7.81678699525E-02 +8.83172000541E-01 +2.80902321634E-04 +1.24534096706E-04 +2.08170790995E-04 +1.95248027544E-04 -2.90859333643E-01 +8.90563661123E-01
1.38500000000E+09 -6.71504123853E-02 +8.80963397548E-01 +1.86842524566E-04 +1.70635255749E-04 +2.30233894856E-04 +1.88739741739E-04 -2.75397471313E-01 +8.92228014744E-01
1.39000000000E+09 -5.54691589933E-02 +8.77954854608E-01 +2.12026802359E-04 +1.98456803406E-04 +2.64262907065E-04 +2.05630156947E-04 -2.59508997871E-01 +8.93616277771E-01
1.39500000000E+09 -4.18762543049E-02 +8.73977444499E-01 +2.49057704606E-04 +2.21245762722E-04 +3.63579537936E-04 +2.20285882405E-04 -2.42684256858E-01 +8.94268761276E-01
1.40000000000E+09 -2.57652245678E-02 +8.69206486990E-01 +4.36848080519E-04 +2.13994436723E-04 +4.62633347861E-04 +1.92950437829E-04 -2.24865523068E-01 +8.94794468082E-01
1.40500000000E+09 -7.90894479016E-03 +8.63863648924E-01 +5.76621458716E-04 +1.09592830543E-04 +5.89732240557E-04 +4.71013112832E-05 -2.05996310658E-01 +8.94381591869E-01
1.41000000000E+09 +1.22772016112E-02 +8.58167311227E-01 +5.74781365391E-04 -1.09312923531E-04 +5.30314527365E-04 -1.17997373113E-04 -1.85942055218E-01 +8.93420562158E-01
1.41500000000E+09 +3.37133139380E-02 +8.52199930772E-01 +4.72621208900E-04 -1.27442550433E-04 +4.74001405542E-04 -1.17791703087E-04 -1.64559653984E-01 +8.91732617369E-01
1.42000000000E+09 +5.61163249402E-02 +8.45896264707E-01 +5.11875332657E-04 -2.40749251119E-04 +5.98987533826E-04 -2.78777292780E-04 -1.41759637682E-01 +8.88897139735E-01
1.42500000000E+09 +7.85648519089E-02 +8.38243508355E-01 +4.21103521749E-04 -3.49313097134E-04 +3.70754225103E-04 -4.29559848031E-04 -1.18496626941E-01 +8.85309255111E-01
1.43000000000E+09 +9.98969068902E-02 +8.28819606186E-01 +3.50382885721E-04 -2.96198911391E-04 +3.45015636591E-04 -4.12788554075E-04 -9.35276253600E-02 +8.80584556222E-01
1.43500000000E+09 +1.20398980765E-01 +8.17746074545E-01 +4.41245011467E-04 -3.87010639638E-04 +3.76496586399E-04 -4.50443889057E-04 -6.70957713140E-02 +8.73917209880E-01
1.44000000000E+09 +1.40804155652E-01 +8.04677787766E-01 +4.77427842663E-04 -4.90971129410E-04 +4.38586016354E-04 -5.40483416577E-04 -3.91856792013E-02 +8.65292379430E-01
1.44500000000E+09 +1.61730987705E-01 +7.89301740515E-01 +4.00937332613E-04 -7.93998515078E-04 +3.98598655139E-04 -8.40246970414E-04 -9.36163507801E-03 +8.53685774260E-01
1.45000000000E+09 +1.84235414165E-01 +7.70818624942E-01 +3.21511786305E-05 -9.01455999396E-04 -2.15406529018E-05 -9.42752849178E-04 +2.22949641644E-02 +8.39100149410E-01
1.45500000000E+09 +2.08134223256E-01 +7.48806217126E-01 -2.22699438885E-04 -8.82726038562E-04 -2.42723791035E-04 -8.64262258342E-04 +5.53524699027E-02 +8.21257460258E-01
1.46000000000E+09 +2.34217100199E-01 +7.23688002905E-01 -4.18158359525E-04 -7.76389950843E-04 -4.78596291805E-04 -7.73631122076E-04 +8.94807705944E-02 +7.99553904498E-01
1.46500000000E+09 +2.62233722386E-01 +6.94875619178E-01 -5.94006730026E-04 -4.22058878190E-04 -5.11455948779E-04 -4.28437247341E-04 +1.25301412702E-01 +7.73212546749E-01
1.47000000000E+09 +2.90930749450E-01 +6.61653099999E-01 -3.22751446286E-04 -4.15779038756E-04 -2.55937200680E-04 -3.66824052876E-04 +1.62101925255E-01 +7.40218467343E-01
1.47500000000E+09 +3.19126521040E-01 +6.23601730657E-01 -3.69485293991E-04 -5.70571505776E-04 -3.18884890925E-04 -5.68016239670E-04 +1.99165385055E-01 +7.00082585122E-01
1.48000000000E+09 +3.44760444193E-01 +5.79766695699E-01 -6.67906381088E-04 -6.76911603300E-04 -6.65667893115E-04 -7.24866404324E-04 +2.35644321122E-01 +6.51249237843E-01
1.48500000000E+09 +3.66154599165E-01 +5.30425254535E-01 -9.56068168161E-04 -4.75661330553E-04 -9.76345252002E-04 -4.73536288384E-04 +2.69648167808E-01 +5.93004934268E-01
1.49000000000E+09 +3.82421939321E-01 +4.74105176174E-01 -1.23156235692E-03 -6.68193662778E-05 -1.20506051089E-03 +4.64963103306E-05 +2.97746772498E-01 +5.24784702987E-01
1.49500000000E+09 +3.91749080066E-01 +4.10461735413E-01 -9.50491722300E-04 +2.32466362251E-04 -8.94133364995E-04 +2.46675320231E-04 +3.17602300246E-01 +4.46354598531E-01
1.50000000000E+09 +3.92530314495E-01 +3.37982139454E-01 -8.83457927541E-04 +5.05693938864E-04 -8.78548920948E-04 +4.79674479613E-04 +3.24554974292E-01 +3.57652160530E-01
1.50500000000E+09 +3.80800801217E-01 +2.57748524364E-01 -4.24999464707E-04 +8.07711785509E-04 -4.99397476743E-04 +7.71179594614E-04 +3.13857618778E-01 +2.60922190650E-01
1.51000000000E+09 +3.54832017550E-01 +1.72655196433E-01 -4.36959290117E-05 +3.12357959129E-04 -4.67515917366E-05 +2.52246355535E-04 +2.82704241162E-01 +1.62248709453E-01
1.51500000000E+09 +3.12916034515E-01 +8.60429579241E-02 -4.03200846635E-04 +1.24659098510E-04 -4.31022300158E-04 +8.15230039661E-05 +2.31902954274E-01 +6.51171275964E-02
1.52000000000E+09 +2.50449404911E-01 +3.87067255608E-03 -6.85491466368E-04 +3.62653993509E-05 -6.97332434189E-04 +3.57485474713E-06 +1.57640012623E-01 -2.32619064801E-02
1.52500000000E+09 +1.71220455314E-01 -6.38856595661E-02 -1.07042828057E-03 +6.65984236229E-04 -1.08325626678E-03 +6.69454546013E-04 +6.36321944876E-02 -9.31564637725E-02
1.53000000000E+09 +7.84514186815E-02 -1.14095473306E-01 -1.04010723356E-03 +1.34782867633E-03 -1.00670150564E-03 +1.34494215189E-03 -4.10965644085E-02 -1.40341915458E-01
1.53500000000E+09 -2.33222122207E-02 -1.42252340485E-01 +7.61827824882E-04 +1.92630714904E-03 +7.62925959496E-04 +1.92890678069E-03 -1.52253152671E-01 -1.64860755659E-01
1.54000000000E+09 -1.29444097571E-01 -1.45377952643E-01 +7.56112657393E-04 +5.38061052086E-04 +8.00035334706E-04 +5.26421386740E-04 -2.63093511271E-01 -1.63800912702E-01
1.54500000000E+09 -2.31004641765E-01 -1.25207144842E-01 +5.73650606056E-04 +4.87438276392E-04 +5.47826495715E-04 +4.88540320768E-04 -3.62304784815E-01 -1.42298229125E-01
1.55000000000E+09 -3.22547635871E-01 -8.65337774070E-02 +6.07940381643E-04 +7.27445057413E-05 +5.74505530865E-04 +8.43975621930E-05 -4.50234074081E-01 -1.06866143428E-01
1.55500000000E+09 -4.00506660498E-01 -3.61367947666E-02 +4.43728461631E-05 -3.39430208611E-05 +1.08029751975E-04 -6.26498578348E-06 -5.23448247307E-01 -5.96223558405E-02
1.56000000000E+09 -4.64082273396E-01 +1.97152302123E-02 +3.65854115112E-05 +7.84149746364E-04 +3.79093814922E-05 +8.27399262505E-04 -5.82099935162E-01 -6.99651035485E-03
1.56500000000E+09 -5.15087873193E-01 +7.67982213589E-02 +8.39026560690E-04 +7.08787278447E-04 +8.81414997660E-04 +8.00420045253E-04 -6.28349921781E-01 +4.88580283329E-02
1.57000000000E+09 -5.54043974455E-01 +1.33173593171E-01 +1.33085738609E-03 -1.31133992078E-04 +1.44357856483E-03 -1.67744261921E-04 -6.63583102423E-01 +1.04048896861E-01
