# Hz S RI R 50
! CMT, C1220, 16058040, 17.2.0/1
! Date: 14/08/2018 11:52:01
! Data: Format (Calibration Info)
! Freq                      S11: Re/Im (F2)                       S21: Re/Im (F2)                       S12: Re/Im (F2)                       S22: Re/Im (F2)            
1.00000000000E+09 -6.48630784129E-01 +7.15071155099E-01 +3.93253273127E-05 +1.75093474785E-05 +1.63475620021E-05 +3.28171799376E-05 -7.55335722943E-01 +6.23553631735E-01
1.00500000000E+09 -6.41494742351E-01 +7.20334662490E-01 -3.63495769774E-05 -9.58057006752E-06 -6.24181575713E-05 -3.12784422052E-05 -7.51811905234E-01 +6.27934933248E-01
1.01000000000E+09 -6.35325450583E-01 +7.24923229649E-01 +2.06421559524E-05 -3.25536513576E-06 +3.09012776012E-05 +3.02663936424E-05 -7.48179608410E-01 +6.31485390204E-01
1.01500000000E+09 -6.30473950797E-01 +7.28803018604E-01 +1.38019549869E-06 -1.79014078829E-06 +1.19921492138E-05 -1.39530199841E-05 -7.44799498223E-01 +6.35287869445E-01
1.02000000000E+09 -6.27193187913E-01 +7.31925467391E-01 -1.68085259184E-05 +4.10028352182E-06 +1.22533620180E-05 -2.66508719614E-06 -7.41460659787E-01 +6.39087896330E-01
1.02500000000E+09 -6.24475025896E-01 +7.34581262880E-01 -4.30997642444E-06 -2.43797443528E-07 -7.17644841118E-06 -3.72179895684E-05 -7.38551992605E-01 +6.42660982973E-01
1.03000000000E+09 -6.22533747337E-01 +7.36782329870E-01 -7.38793154824E-06 -3.45553201903E-05 -5.31577804265E-06 -3.77060928316E-05 -7.35128047201E-01 +6.46541499989E-01
1.03500000000E+09 -6.19635227176E-01 +7.38971972566E-01 +7.03864346509E-06 +3.33021361801E-05 +1.49764931836E-06 -3.47531308467E-05 -7.31390693863E-01 +6.50411079396E-01
1.04000000000E+09 -6.15738156747E-01 +7.41841694497E-01 +1.64563942647E-05 -1.49264685048E-05 +1.06967641915E-05 -6.18036018161E-06 -7.27655749453E-01 +6.54188226815E-01
1.04500000000E+09 -6.10269785860E-01 +7.45213437765E-01 +2.80608508149E-05 +1.12950879478E-05 -2.12514759315E-05 +3.80792545064E-05 -7.24077993642E-01 +6.57645584435E-01
1.05000000000E+09 -6.03118916287E-01 +7.49505798393E-01 +8.16602196382E-06 +3.92103454291E-05 -2.58204703560E-05 -8.73442900400E-06 -7.20559457730E-01 +6.61179902337E-01
1.05500000000E+09 -5.94822904284E-01 +7.54131027024E-01 -2.78102997305E-06 +2.02288744770E-05 +1.66407236503E-05 +3.55488763474E-05 -7.17363604682E-01 +6.64719906421E-01
1.06000000000E+09 -5.86125240876E-01 +7.59409307929E-01 +1.83130917929E-05 +5.44904907001E-05 +2.09076209942E-05 +5.73261475537E-05 -7.14142549756E-01 +6.68380738353E-01
1.06500000000E+09 -5.77958508234E-01 +7.64495482261E-01 +2.48650018563E-05 +3.34843695782E-05 +1.93110434672E-05 +4.14194113598E-05 -7.10379484176E-01 +6.72186660143E-01
1.07000000000E+09 -5.70609233815E-01 +7.68811440029E-01 +2.38084994918E-05 +9.53435764598E-05 -4.68034258586E-05 +4.20041596890E-05 -7.06589380371E-01 +6.75824454654E-01
1.07500000000E+09 -5.65087834711E-01 +7.72545430875E-01 -5.98536299909E-05 +1.76112944217E-06 +3.08487781786E-05 +5.15242691311E-06 -7.02268683674E-01 +6.79511167770E-01
1.08000000000E+09 -5.61271850444E-01 +7.75622403373E-01 -1.69296242351E-05 -1.81771846909E-05 +2.18192079124E-05 +1.42406512627E-05 -6.98100909189E-01 +6.83421382656E-01
1.08500000000E+09 -5.58808737490E-01 +7.77847852298E-01 +3.57107949105E-05 +7.04463070763E-05 -4.46704362368E-07 +2.98272782302E-06 -6.94105493421E-01 +6.87148135121E-01
1.09000000000E+09 -5.56671547474E-01 +7.79603599873E-01 +7.46459163960E-06 +3.07229989933E-05 +4.15955329075E-05 -1.61123113069E-05 -6.90219451975E-01 +6.91106260945E-01
1.09500000000E+09 -5.55009258232E-01 +7.81195142387E-01 +6.03551008236E-05 +1.07844434614E-05 +9.53149481809E-06 -2.16111701607E-05 -6.86385982881E-01 +6.95129078796E-01
1.10000000000E+09 -5.51962409095E-01 +7.83057758266E-01 +1.22515559804E-05 +2.15183263230E-05 +6.50058663980E-05 +1.75256164436E-05 -6.82505112698E-01 +6.98790303625E-01
1.10500000000E+09 -5.47681113396E-01 +7.85630215629E-01 +1.59039072338E-05 -3.10946020808E-05 +2.83901623142E-05 -2.00122118491E-05 -6.78188383999E-01 +7.02424357989E-01
1.11000000000E+09 -5.41856431615E-01 +7.88670970362E-01 +1.00766871478E-05 +1.78173717400E-05 +6.37370635178E-05 +4.06774528002E-05 -6.74168395856E-01 +7.05942061227E-01
1.11500000000E+09 -5.34667508154E-01 +7.92721973088E-01 +2.64638897742E-05 +3.79013438461E-05 +3.54030715095E-05 +2.08059207462E-05 -6.69967564072E-01 +7.09336593353E-01
1.12000000000E+09 -5.26753837221E-01 +7.96918078848E-01 -1.02005470119E-05 +1.58194488703E-05 +4.08138710169E-05 -1.80736051408E-05 -6.65721464313E-01 +7.13049135577E-01
1.12500000000E+09 -5.18794419365E-01 +8.01063698160E-01 -1.43156204685E-05 +1.70062579361E-05 -1.45854098116E-05 +2.63635129054E-05 -6.61475252493E-01 +7.17043864665E-01
1.13000000000E+09 -5.11588955637E-01 +8.04711435260E-01 +3.69779116132E-05 -9.36284823275E-06 +6.75725048890E-05 +5.80264768850E-07 -6.57357794334E-01 +7.20769230427E-01
1.13500000000E+09 -5.05374639510E-01 +8.07758364239E-01 +2.17885654999E-05 +3.77656516634E-05 +2.20665071760E-05 +4.06525775502E-05 -6.52969610322E-01 +7.24621613610E-01
1.14000000000E+09 -5.00367536969E-01 +8.10163934454E-01 +4.59839387646E-05 -4.76280788496E-06 -8.71629478044E-06 +1.78941299713E-05 -6.48193931936E-01 +7.28027883510E-01
1.14500000000E+09 -4.96401015333E-01 +8.11627525472E-01 +2.27244801296E-05 +5.48513942721E-06 -1.04106813222E-05 +1.49122748363E-05 -6.43640638169E-01 +7.31420180958E-01
1.15000000000E+09 -4.92660277779E-01 +8.13216468185E-01 -1.99755378910E-06 -2.34877075737E-05 -2.77982927993E-05 +2.78514167608E-05 -6.38975427445E-01 +7.35280022607E-01
1.15500000000E+09 -4.88851905495E-01 +8.14927384488E-01 +3.41521461222E-05 -1.14755077747E-05 +5.30558960676E-05 -2.15646446263E-05 -6.33907345444E-01 +7.39168870858E-01
1.16000000000E+09 -4.84056962452E-01 +8.16739225962E-01 +2.57031102909E-05 -2.08255615916E-05 +5.06035321873E-05 -1.60639453373E-05 -6.29230806435E-01 +7.42896482932E-01
1.16500000000E+09 -4.78032162983E-01 +8.19366943271E-01 +5.90467358011E-05 -2.98552702812E-05 -2.28547213213E-06 +2.63286443738E-05 -6.24223574196E-01 +7.46723224367E-01
1.17000000000E+09 -4.70838802360E-01 +8.22475996470E-01 +4.91727623787E-05 -3.98284061854E-05 +4.49500234374E-05 -2.45249183729E-05 -6.18828269745E-01 +7.50107823087E-01
1.17500000000E+09 -4.62648250557E-01 +8.25882361143E-01 +6.09323655969E-05 -7.10421825625E-05 +2.56469866464E-05 -1.58654561214E-05 -6.12987638006E-01 +7.53227093986E-01
1.18000000000E+09 -4.54353733693E-01 +8.29685293699E-01 +7.16678147849E-05 -9.01556422328E-06 +3.25853081005E-05 -2.24192205443E-05 -6.07448844935E-01 +7.56388317849E-01
1.18500000000E+09 -4.46106248233E-01 +8.33011693477E-01 +8.34589633146E-05 -5.68587186603E-05 +5.03580527799E-05 -1.60643616617E-05 -6.01474807104E-01 +7.59663960689E-01
1.19000000000E+09 -4.38591276957E-01 +8.35818291094E-01 +4.99404065417E-05 -8.05864200233E-05 +6.88202237993E-05 -8.95140457791E-05 -5.95287407481E-01 +7.62259740183E-01
1.19500000000E+09 -4.32436309024E-01 +8.37834610048E-01 +4.18303419613E-05 -1.00560283427E-04 +4.14704674094E-05 -1.81433889130E-04 -5.89349093708E-01 +7.63512323620E-01
1.20000000000E+09 -4.27363801054E-01 +8.38644729861E-01 -2.14202472353E-05 -1.45571179285E-04 -2.29824240330E-06 -1.21468323612E-04 -5.84630704405E-01 +7.63768026147E-01
1.20500000000E+09 -4.22955842555E-01 +8.39739313656E-01 -9.25774936947E-05 -1.10836780462E-04 -1.02429719069E-04 -9.77801892956E-05 -5.82303163755E-01 +7.64711858350E-01
1.21000000000E+09 -4.18428760624E-01 +8.40880124660E-01 -7.53568020100E-05 -5.29451952179E-05 -1.12211697519E-04 -2.48529660213E-05 -5.80489914860E-01 +7.67502347710E-01
1.21500000000E+09 -4.12838661758E-01 +8.42175997499E-01 -1.08250017227E-04 -3.11920139022E-06 -6.57468227121E-05 +3.11064652432E-05 -5.77797512671E-01 +7.71965133441E-01
1.22000000000E+09 -4.05901965645E-01 +8.44186789570E-01 -6.76554525521E-05 +2.59782627838E-05 -7.28145463809E-05 +1.10308084719E-05 -5.73746779204E-01 +7.77396648693E-01
1.22500000000E+09 -3.97335226665E-01 +8.46681753301E-01 -2.42055215463E-05 +9.36186936923E-06 -1.12653455287E-05 -1.31564283789E-05 -5.68655179335E-01 +7.82565283805E-01
1.23000000000E+09 -3.87843807012E-01 +8.49883581772E-01 +8.96711851543E-06 -5.12344631977E-07 -5.15536611184E-05 -3.50327974231E-05 -5.62908828481E-01 +7.87323484791E-01
1.23500000000E+09 -3.77864522990E-01 +8.53264233054E-01 -1.35661319319E-05 -1.92354109109E-05 +2.90159549649E-05 -5.05659871334E-05 -5.57116981703E-01 +7.91669874484E-01
1.24000000000E+09 -3.68035636452E-01 +8.57100564661E-01 -2.20648721761E-05 -4.16332758947E-05 +1.30915668497E-05 -4.33843494283E-05 -5.50993760129E-01 +7.95669091582E-01
1.24500000000E+09 -3.59344509523E-01 +8.61171821724E-01 -8.58568925421E-06 +9.04750680767E-06 -2.57293344647E-05 -6.23149454101E-05 -5.44689176710E-01 +7.99494149583E-01
1.25000000000E+09 -3.51425703878E-01 +8.64214276008E-01 -3.87584826409E-05 -3.95132364136E-05 -4.71928804952E-05 -4.48744615889E-06 -5.38123619559E-01 +8.03608923619E-01
1.25500000000E+09 -3.44797595273E-01 +8.66437453185E-01 -5.74414300997E-05 +7.81360083206E-07 -7.00873479841E-05 -2.09497097003E-05 -5.31224795987E-01 +8.07635980889E-01
1.26000000000E+09 -3.38819541263E-01 +8.67791026350E-01 -6.99428410407E-05 +3.18587159180E-06 -6.79638000618E-05 -4.24446942958E-05 -5.24479860019E-01 +8.12127406700E-01
1.26500000000E+09 -3.33279089573E-01 +8.68498616443E-01 -4.56207482395E-05 -2.25589109276E-05 -1.72592177788E-05 -4.06765420484E-05 -5.17485556794E-01 +8.15991781746E-01
1.27000000000E+09 -3.27089494694E-01 +8.68933315481E-01 -5.57481578057E-05 -4.97838705578E-05 -4.13175415679E-05 -2.93619169476E-05 -5.10700627936E-01 +8.19870278552E-01
1.27500000000E+09 -3.19647882304E-01 +8.69556632018E-01 -5.89599883866E-05 -1.75450551871E-05 -8.93891914363E-05 -6.85345271647E-05 -5.03604936741E-01 +8.23455833832E-01
1.28000000000E+09 -3.10197348169E-01 +8.70582218743E-01 -7.37581616354E-05 -3.55463951181E-05 -1.01083521794E-04 -1.53030299479E-05 -4.96663706874E-01 +8.26978335888E-01
1.28500000000E+09 -2.98817735450E-01 +8.72267744681E-01 -7.02743609678E-05 +1.24654803800E-05 -1.49366597987E-04 -4.38057604882E-05 -4.89222596950E-01 +8.30788433236E-01
1.29000000000E+09 -2.86281559040E-01 +8.74569098324E-01 -7.73867978165E-05 +4.01130580714E-05 -1.03440444760E-04 +2.95377096217E-05 -4.81630883272E-01 +8.34403784631E-01
1.29500000000E+09 -2.73576704946E-01 +8.77610585153E-01 -6.81842830413E-05 +3.85999050606E-05 -7.70153093893E-05 +4.48001143737E-05 -4.73697618242E-01 +8.37904755166E-01
1.30000000000E+09 -2.61171144282E-01 +8.81120398493E-01 -1.10513710604E-04 +6.01666405767E-05 -1.04539743219E-04 +4.08502690796E-05 -4.65620471186E-01 +8.41632333416E-01
1.30500000000E+09 -2.50172187270E-01 +8.84465707102E-01 -1.01048524678E-04 +5.36595219481E-05 -1.29959414630E-04 +4.29513295951E-05 -4.57615682527E-01 +8.45142113470E-01
1.31000000000E+09 -2.40819387210E-01 +8.87007634097E-01 -1.28824518300E-04 +8.30483303622E-05 -7.71634548145E-05 +8.04981010958E-05 -4.49200688992E-01 +8.48552215185E-01
1.31500000000E+09 -2.33436432039E-01 +8.88766751921E-01 -7.06938819495E-05 +1.28447768343E-04 -9.20987959590E-05 +1.26738792202E-04 -4.40395255640E-01 +8.51995814046E-01
1.32000000000E+09 -2.27403723185E-01 +8.89452087936E-01 -3.47555979789E-05 +1.10769432553E-04 -5.94429973834E-05 +7.56172139678E-05 -4.31117548279E-01 +8.55510890277E-01
1.32500000000E+09 -2.22112501454E-01 +8.89260531781E-01 -6.02759512135E-05 +1.07052706426E-04 -3.39186086717E-05 +1.60068284374E-04 -4.21438569172E-01 +8.59066528756E-01
1.33000000000E+09 -2.15720967230E-01 +8.88737922359E-01 -5.04369977496E-05 +1.48685525592E-04 -3.20852731994E-05 +1.32954831937E-04 -4.11681362231E-01 +8.62336024666E-01
1.33500000000E+09 -2.07578770723E-01 +8.87708083299E-01 -4.71297310911E-05 +1.16572111229E-04 -2.64686285752E-05 +1.30512573390E-04 -4.01676184241E-01 +8.65659665678E-01
1.34000000000E+09 -1.96781122533E-01 +8.87100597401E-01 -1.10319157695E-05 +1.23559087498E-04 -2.24777912424E-05 +1.08073451971E-04 -3.91379942282E-01 +8.68883326907E-01
1.34500000000E+09 -1.83578080555E-01 +8.86557366059E-01 -5.34603685054E-05 +1.10911376727E-04 -4.49259089618E-05 +1.20270546925E-04 -3.80416214172E-01 +8.72184756184E-01
1.35000000000E+09 -1.68151976793E-01 +8.86580852767E-01 -7.28024849327E-05 +1.71530715844E-04 -3.48209746469E-05 +1.21778954319E-04 -3.69243160024E-01 +8.75389508531E-01
1.35500000000E+09 -1.51479577235E-01 +8.87215555340E-01 -3.49717548158E-05 +1.81892835230E-04 +4.42896280868E-05 +1.73595073016E-04 -3.57480010235E-01 +8.78244016300E-01
1.36000000000E+09 -1.34584995918E-01 +8.88034586763E-01 +1.97487357798E-05 +1.87074444639E-04 -3.95657146828E-05 +2.24505898156E-04 -3.45609390921E-01 +8.80841980264E-01
1.36500000000E+09 -1.18629868814E-01 +8.88515186590E-01 +1.14306887430E-06 +2.45937157798E-04 +3.84844994454E-05 +2.46323791021E-04 -3.33267420982E-01 +8.83434937088E-01
1.37000000000E+09 -1.04455087099E-01 +8.88485767234E-01 +5.27206821997E-05 +3.01073354945E-04 +5.50712584126E-05 +3.10522267196E-04 -3.20279875115E-01 +8.85734340395E-01
1.37500000000E+09 -9.25271129348E-02 +8.87941753011E-01 +2.26809919344E-04 +2.38142264276E-04 +2.23497277423E-04 +2.73876857267E-04 -3.06598441818E-01 +8.87865043385E-01
1.38000000000E+09 -8.20491185581E-02 +8.86741450946E-01 +2.28218920711E-04 +9.97376393057E-05 +2.56870291984E-04 +1.95579978940E-04 -2.91969960576E-01 +8.89932884837E-01
1.38500000000E+09 -7.13701065279E-02 +8.84806275127E-01 +1.59911712114E-04 +1.47686736921E-04 +1.73629162966E-04 +1.14428069807E-04 -2.76490600010E-01 +8.91757773888E-01
1.39000000000E+09 -5.99864011263E-02 +8.82030590248E-01 +1.65268876234E-04 +1.54989378708E-04 +1.90729975822E-04 +1.92563674627E-04 -2.60589267669E-01 +8.92906440179E-01
1.39500000000E+09 -4.65648921453E-02 +8.78340348744E-01 +2.13263779178E-04 +2.42888445466E-04 +2.60109365817E-04 +2.07552091868E-04 -2.43647210734E-01 +8.93585343014E-01
1.40000000000E+09 -3.02816239498E-02 +8.73527788899E-01 +3.22545877025E-04 +2.78537571457E-04 +3.53535586744E-04 +2.44963515778E-04 -2.25997111978E-01 +8.94140004361E-01
1.40500000000E+09 -1.16663002903E-02 +8.68098794029E-01 +5.52940449055E-04 +1.37118030318E-04 +4.83024784314E-04 +1.13025463526E-04 -2.07229342246E-01 +8.93739703384E-01
1.41000000000E+09 +9.21005913952E-03 +8.62424653509E-01 +4.62035660210E-04 -5.10578591957E-05 +4.89314422172E-04 -1.13830464645E-04 -1.87105124767E-01 +8.92936320655E-01
1.41500000000E+09 +3.14771498207E-02 +8.56238326417E-01 +4.23256781484E-04 -1.09839136476E-04 +4.45465771558E-04 -7.91792952016E-05 -1.65599749021E-01 +8.91281416282E-01
1.42000000000E+09 +5.44415138162E-02 +8.49838765218E-01 +4.47511158011E-04 -1.84706622441E-04 +5.07281442539E-04 -2.22251105719E-04 -1.42852431334E-01 +8.88499167901E-01
1.42500000000E+09 +7.70926073328E-02 +8.42147901077E-01 +2.99551581094E-04 -2.55310805683E-04 +3.50211444803E-04 -3.10845633805E-04 -1.19353854060E-01 +8.84914236340E-01
1.43000000000E+09 +9.84650178536E-02 +8.32822973149E-01 +2.77292175721E-04 -1.51989597220E-04 +3.43425719089E-04 -2.46559227162E-04 -9.44927726691E-02 +8.80105785004E-01
1.43500000000E+09 +1.18970885631E-01 +8.22082563917E-01 +4.12059303207E-04 -2.62095180615E-04 +3.66819162452E-04 -2.86456777839E-04 -6.81802393681E-02 +8.73474319870E-01
1.44000000000E+09 +1.39149987032E-01 +8.09286077881E-01 +4.25662014102E-04 -3.12671882657E-04 +4.60836239521E-04 -3.85568267683E-04 -4.01556932253E-02 +8.64839713555E-01
1.44500000000E+09 +1.59695236887E-01 +7.93861509598E-01 +5.07353857166E-04 -6.36811246285E-04 +4.62494307023E-04 -6.97376156464E-04 -1.02582916721E-02 +8.53444861366E-01
1.45000000000E+09 +1.82253256686E-01 +7.75352867940E-01 +1.01564441886E-04 -7.62112334713E-04 +1.24414454947E-04 -7.58193752416E-04 +2.14588276822E-02 +8.38960747198E-01
1.45500000000E+09 +2.06563656060E-01 +7.52964329411E-01 -5.27692000451E-05 -7.06352022166E-04 -8.81531536506E-05 -7.71223937121E-04 +5.47420722444E-02 +8.21030669877E-01
1.46000000000E+09 +2.33004033510E-01 +7.27244350987E-01 -2.21359507486E-04 -7.28579457358E-04 -2.76891414784E-04 -6.56219794880E-04 +8.89996205517E-02 +7.99359770589E-01
1.46500000000E+09 +2.61788200287E-01 +6.97571275158E-01 -4.14180699985E-04 -3.31985843959E-04 -3.89426027248E-04 -2.70598935558E-04 +1.24831732169E-01 +7.72959555224E-01
1.47000000000E+09 +2.91205169464E-01 +6.63084182030E-01 +4.33048865048E-05 -2.11396983697E-04 +1.08640185689E-05 -2.42409449483E-04 +1.61641417241E-01 +7.39794402936E-01
1.47500000000E+09 +3.19770533683E-01 +6.24120213499E-01 +1.31362128190E-04 -5.34670547068E-04 +1.15527395075E-04 -5.55732544823E-04 +1.98777202883E-01 +6.99500252421E-01
1.48000000000E+09 +3.45506113064E-01 +5.79593368955E-01 -1.54042366391E-04 -9.52068535324E-04 -1.38294915547E-04 -9.46354300169E-04 +2.35474522137E-01 +6.50549727865E-01
1.48500000000E+09 +3.66593929674E-01 +5.29750994341E-01 -5.45994500700E-04 -9.46175748105E-04 -5.78734859700E-04 -9.66355518574E-04 +2.69559308559E-01 +5.92066016999E-01
1.49000000000E+09 +3.82202272564E-01 +4.73132207624E-01 -1.07620727307E-03 -7.48759746741E-04 -1.06087288871E-03 -7.01362896684E-04 +2.97522240781E-01 +5.23476312315E-01
1.49500000000E+09 +3.90503577508E-01 +4.09603427488E-01 -1.12239157082E-03 -3.42613449115E-04 -1.12880391063E-03 -2.38714983720E-04 +3.17351435024E-01 +4.44696334325E-01
1.50000000000E+09 +3.90350751364E-01 +3.37279399165E-01 -1.11209717253E-03 +2.29394828798E-04 -1.05844042547E-03 +1.88751201854E-04 +3.23665844093E-01 +3.55540293990E-01
1.50500000000E+09 +3.77533029177E-01 +2.56813799094E-01 -6.21193075613E-04 +3.89364255235E-04 -6.00957333202E-04 +4.06210078706E-04 +3.12202819536E-01 +2.58825092286E-01
1.51000000000E+09 +3.49938351578E-01 +1.71133966012E-01 -4.90692448059E-04 -2.59421843411E-04 -5.23235720656E-04 -2.52611133612E-04 +2.80564100818E-01 +1.60363879808E-01
1.51500000000E+09 +3.06181190217E-01 +8.47894521041E-02 -1.12412756539E-03 +1.59532741980E-04 -1.16763833439E-03 +6.82988065666E-05 +2.29190625483E-01 +6.38015075181E-02
1.52000000000E+09 +2.42327199702E-01 +3.04140809040E-03 -1.07436666949E-03 +2.66936375011E-04 -1.07422847842E-03 +2.61576939585E-04 +1.54756565115E-01 -2.38308278351E-02
1.52500000000E+09 +1.62187214953E-01 -6.33327265973E-02 -1.22339010957E-03 +9.61169404047E-04 -1.25901261633E-03 +9.39238080229E-04 +6.09104401988E-02 -9.30148504072E-02
1.53000000000E+09 +6.97251342585E-02 -1.12009824660E-01 -1.16829759666E-03 +1.42715647867E-03 -1.18966466672E-03 +1.46327293439E-03 -4.36211402498E-02 -1.39632614024E-01
1.53500000000E+09 -3.08716202612E-02 -1.38886885681E-01 +6.65307315698E-04 +2.04505784148E-03 +7.14940761890E-04 +2.05900871568E-03 -1.54191957585E-01 -1.63740191876E-01
1.54000000000E+09 -1.35781406028E-01 -1.40871228363E-01 +5.48997574663E-04 +4.41219398547E-04 +5.22601476002E-04 +4.55958042247E-04 -2.64487339987E-01 -1.62527281917E-01
1.54500000000E+09 -2.36113949103E-01 -1.19427613623E-01 +8.24972354212E-05 +8.60475461887E-04 +1.31128673678E-04 +8.98061550740E-04 -3.63585790062E-01 -1.41053186879E-01
1.55000000000E+09 -3.26062050793E-01 -7.95503853812E-02 +5.80252461146E-04 +4.87859855827E-04 +5.66728310103E-04 +5.24850924803E-04 -4.50842832508E-01 -1.05506487539E-01
1.55500000000E+09 -4.02204674047E-01 -2.87998547801E-02 +1.02138579444E-04 +3.10253526141E-04 +8.06141513346E-05 +3.46256238057E-04 -5.23591478846E-01 -5.85289128658E-02
1.56000000000E+09 -4.65000166992E-01 +2.67815232745E-02 +1.08108595053E-04 +1.22753935826E-03 +6.18202454362E-05 +1.25871846120E-03 -5.81964970398E-01 -6.07807195546E-03
1.56500000000E+09 -5.15511433651E-01 +8.33767722231E-02 +1.17146835169E-03 +1.09056149930E-03 +1.25550985239E-03 +1.14468727580E-03 -6.27904664292E-01 +4.95084326367E-02
1.57000000000E+09 -5.54096629527E-01 +1.38628993394E-01 +1.68037346374E-03 -1.12050330287E-05 +1.79377993177E-03 -1.08718113221E-04 -6.62787948432E-01 +1.04413496400E-01
