# Hz S RI R 50
! CMT, C1220, 16058040, 17.2.0/1
! Date: 14/08/2018 12:13:25
! Data: Format (Calibration Info)
! Freq                      S11: Re/Im (F2)                       S21: Re/Im (F2)                       S12: Re/Im (F2)                       S22: Re/Im (F2)            
1.00000000000E+09 -6.46708674123E-01 +7.14635146622E-01 +6.34008321341E-06 +1.74999816085E-05 -3.75518988462E-06 +1.87629891403E-05 -7.53566556895E-01 +6.24984990093E-01
1.00500000000E+09 -6.39399382396E-01 +7.19736862271E-01 -3.26670059780E-05 -2.84783592250E-05 -6.14313914450E-06 -4.85258105014E-05 -7.49973633813E-01 +6.29086044756E-01
1.01000000000E+09 -6.33663295355E-01 +7.24356737620E-01 -3.30286910671E-05 +1.30908919345E-05 -1.74613600407E-06 +7.06262538274E-05 -7.46377902553E-01 +6.32838290874E-01
1.01500000000E+09 -6.29754079786E-01 +7.28119740311E-01 -1.26482117722E-05 +1.63283888410E-05 -3.07462992806E-06 +7.37429243906E-07 -7.43040132759E-01 +6.36519363806E-01
1.02000000000E+09 -6.27397296066E-01 +7.31235720967E-01 +2.54637064381E-05 +1.75822936152E-05 +4.93294264628E-05 -4.18975162435E-05 -7.39687844836E-01 +6.40060101421E-01
1.02500000000E+09 -6.26411648077E-01 +7.33607406449E-01 -2.06310942443E-05 +1.24714921742E-05 -2.28977886637E-05 +2.03581462170E-05 -7.36662554597E-01 +6.43688720874E-01
1.03000000000E+09 -6.25555857456E-01 +7.35818704871E-01 -2.83216908533E-05 +1.19613747539E-05 -3.58181491776E-05 -1.33534067730E-05 -7.33203861394E-01 +6.47645215502E-01
1.03500000000E+09 -6.23935639322E-01 +7.37742123605E-01 -3.86844507406E-06 +1.12638434573E-05 -6.24584110163E-05 -1.94340224688E-05 -7.29433934028E-01 +6.51605209516E-01
1.04000000000E+09 -6.20669445080E-01 +7.40363756666E-01 -4.03058806660E-06 +2.61090623437E-05 +4.02513805248E-06 +5.99205529236E-05 -7.25680209484E-01 +6.55292786409E-01
1.04500000000E+09 -6.15360765580E-01 +7.43645075343E-01 -1.24595254554E-05 +7.13104086281E-05 +3.80435874814E-05 -2.39762887186E-06 -7.22122101049E-01 +6.58634813327E-01
1.05000000000E+09 -6.08255300509E-01 +7.47737928614E-01 -2.30311779889E-05 +6.03427139995E-05 +3.36582325670E-05 +5.81574965839E-05 -7.18753605331E-01 +6.62138658821E-01
1.05500000000E+09 -5.99440939305E-01 +7.52356754909E-01 -1.44685281878E-05 +3.73830160696E-06 +2.52497998714E-05 +1.63904798519E-05 -7.15328378814E-01 +6.65764824165E-01
1.06000000000E+09 -5.89938440543E-01 +7.57544185576E-01 +1.82423359936E-05 +2.92975659422E-05 +2.95371026119E-05 +4.51135987141E-05 -7.12276694275E-01 +6.69472753530E-01
1.06500000000E+09 -5.80853117481E-01 +7.62886320997E-01 -3.47301104128E-05 +4.71057214129E-05 -2.21676529108E-05 +6.60371882233E-05 -7.08399590136E-01 +6.73285300684E-01
1.07000000000E+09 -5.73206910494E-01 +7.67328865378E-01 +2.14182139573E-05 +2.28833758644E-05 -2.93866401890E-05 +1.91289526138E-05 -7.04352907527E-01 +6.77048017261E-01
1.07500000000E+09 -5.67386771348E-01 +7.71354921582E-01 +5.48258440818E-05 +2.58584131560E-05 +1.23810368532E-05 +3.30136952776E-05 -7.00188215832E-01 +6.80711327999E-01
1.08000000000E+09 -5.63665636666E-01 +7.74675376970E-01 -1.63392165674E-05 +1.29012035309E-05 -1.31590021483E-05 -1.53002842124E-05 -6.96092240759E-01 +6.84428386868E-01
1.08500000000E+09 -5.61666002350E-01 +7.77040609403E-01 -5.56745005959E-06 +1.55162707910E-06 +6.70362828044E-05 +3.10492117877E-06 -6.91964690665E-01 +6.88270297176E-01
1.09000000000E+09 -5.60148171013E-01 +7.79075218574E-01 +6.37668203508E-06 +1.98432479814E-05 -9.40650027446E-06 +3.74399241645E-05 -6.88246632074E-01 +6.92202233009E-01
1.09500000000E+09 -5.58893011676E-01 +7.80746183653E-01 +5.18636402200E-05 -1.90211822109E-05 +2.21470192974E-05 +6.33127544750E-07 -6.84563624653E-01 +6.95983406393E-01
1.10000000000E+09 -5.56132127814E-01 +7.82553684072E-01 +1.00883571965E-05 -1.39307516642E-05 +2.77728212549E-05 -4.87143475816E-06 -6.80430531470E-01 +6.99921292049E-01
1.10500000000E+09 -5.52057347710E-01 +7.85182913797E-01 +5.31070540213E-05 -1.62162380073E-05 +6.04324398377E-05 -5.66601438893E-05 -6.76153870448E-01 +7.03451681630E-01
1.11000000000E+09 -5.46013363198E-01 +7.88214306388E-01 +1.65914987559E-05 -3.24227057820E-05 +2.94335653245E-05 +2.35917336051E-05 -6.71960691960E-01 +7.06718969004E-01
1.11500000000E+09 -5.38476931404E-01 +7.92150041017E-01 +2.21464947761E-05 -3.81010168720E-05 +2.14256882395E-07 +2.52466305404E-05 -6.67813736387E-01 +7.10212384193E-01
1.12000000000E+09 -5.30267999573E-01 +7.96263144339E-01 -1.00604615875E-05 -1.08771908352E-06 +7.02719450184E-05 -1.47304236052E-05 -6.63728120809E-01 +7.14008741915E-01
1.12500000000E+09 -5.21946448596E-01 +8.00554163796E-01 -1.67869260486E-05 +1.75103295157E-06 -1.72114320601E-06 -1.25207287100E-05 -6.59434043447E-01 +7.17817763746E-01
1.13000000000E+09 -5.14494631234E-01 +8.04327889641E-01 -5.44122333752E-07 -7.78973571724E-06 +2.94128335298E-05 -3.21039727882E-07 -6.55368706646E-01 +7.21695372385E-01
1.13500000000E+09 -5.08430250157E-01 +8.07402763037E-01 +3.89069025505E-05 +8.69394212061E-06 +2.88345440965E-05 +1.11922479974E-05 -6.50782100674E-01 +7.25359529455E-01
1.14000000000E+09 -5.03695582666E-01 +8.10291756329E-01 +3.14481497137E-05 -8.82634673985E-06 +5.70229856493E-06 -3.21367292703E-05 -6.46130121750E-01 +7.28779027434E-01
1.14500000000E+09 -5.00291887179E-01 +8.12135469816E-01 +3.75647066981E-05 -5.07911311410E-06 +3.46564760795E-05 -5.61713128141E-05 -6.41489961018E-01 +7.32262506107E-01
1.15000000000E+09 -4.97303917897E-01 +8.13715899099E-01 +3.70177773312E-05 -1.45812259307E-05 +2.39299813389E-05 -1.00717557518E-05 -6.36810097111E-01 +7.35956311639E-01
1.15500000000E+09 -4.94155825752E-01 +8.15282794036E-01 +1.78185946604E-05 +3.18540552928E-06 -3.21614083877E-06 -3.43348420071E-05 -6.31999681515E-01 +7.39770351359E-01
1.16000000000E+09 -4.89820029217E-01 +8.17202160586E-01 +1.83284109071E-05 -3.15814909970E-06 +7.44994680005E-05 -5.82589348109E-05 -6.27187638768E-01 +7.43639522766E-01
1.16500000000E+09 -4.84386071575E-01 +8.19576273765E-01 -1.74050177454E-05 -1.54942133936E-05 +1.53352951103E-05 +4.21340945613E-06 -6.22030267066E-01 +7.47355777156E-01
1.17000000000E+09 -4.77241525802E-01 +8.22632300145E-01 +1.13153143926E-05 -6.88957020828E-06 +4.39052763946E-05 -1.91459797122E-05 -6.16588944802E-01 +7.50813031074E-01
1.17500000000E+09 -4.69063806620E-01 +8.25901201648E-01 -1.09052425967E-05 -1.68292734902E-05 +3.68919566717E-05 -2.22899779455E-05 -6.10975170449E-01 +7.53967437801E-01
1.18000000000E+09 -4.60622833102E-01 +8.29455729128E-01 +2.55899832590E-05 -1.27218159709E-06 +3.20332669414E-05 -1.10455601147E-04 -6.05442515963E-01 +7.56997695491E-01
1.18500000000E+09 -4.52372971993E-01 +8.32848360641E-01 +6.37653242833E-07 +2.39137519772E-06 +5.72878355745E-05 -1.66404737176E-05 -5.99252725043E-01 +7.60097363892E-01
1.19000000000E+09 -4.45146550116E-01 +8.35626876471E-01 +9.31913168729E-05 -5.29976380983E-05 +1.08980936866E-04 -4.06272325897E-05 -5.93176938050E-01 +7.62712921946E-01
1.19500000000E+09 -4.39234651879E-01 +8.37965182014E-01 +2.08548770735E-05 -1.08415830411E-04 +5.81469195609E-05 -3.31990973481E-05 -5.87270274495E-01 +7.63851357535E-01
1.20000000000E+09 -4.34913831691E-01 +8.39039541376E-01 +3.21831322487E-05 -1.40152020694E-04 +2.08615273832E-05 -4.12915706899E-05 -5.82743055226E-01 +7.64242881027E-01
1.20500000000E+09 -4.30949571050E-01 +8.40251562256E-01 -7.49530021996E-05 -8.85907168773E-05 -1.22853657911E-05 -7.71605274429E-05 -5.80427941460E-01 +7.65056720201E-01
1.21000000000E+09 -4.27114168757E-01 +8.41424044145E-01 -3.31676123126E-05 -9.09181092590E-05 -6.09353435043E-05 -5.97040666989E-05 -5.78514804498E-01 +7.68205587504E-01
1.21500000000E+09 -4.21793759896E-01 +8.42942592949E-01 -4.29403701198E-05 -3.73435321480E-05 -1.49978267920E-05 -5.76786841461E-05 -5.75753364450E-01 +7.72641230474E-01
1.22000000000E+09 -4.14754944122E-01 +8.44813753708E-01 -1.22641538287E-05 +6.49018017554E-06 -5.84259878284E-05 -4.89416789740E-05 -5.71651226681E-01 +7.78035558466E-01
1.22500000000E+09 -4.06158430413E-01 +8.47480658403E-01 +3.53715274378E-05 -3.27592298051E-05 -2.74363125817E-05 -5.38732550437E-05 -5.66526679647E-01 +7.83203215616E-01
1.23000000000E+09 -3.95735650487E-01 +8.50491433016E-01 +2.16983663813E-05 -7.96661497940E-05 +9.18723522045E-06 -3.15219759527E-05 -5.60797615778E-01 +7.87672889646E-01
1.23500000000E+09 -3.84701215485E-01 +8.54105397344E-01 -5.54207637081E-08 -7.38367054597E-05 -5.30473987775E-07 -8.94117674701E-05 -5.55012245594E-01 +7.91959557829E-01
1.24000000000E+09 -3.73472888210E-01 +8.57983631974E-01 +4.50056586177E-05 -6.30223634657E-05 -1.76516521561E-05 -6.79680220354E-05 -5.49040840914E-01 +7.95876906559E-01
1.24500000000E+09 -3.63498787696E-01 +8.61952229237E-01 -3.06485747295E-05 -1.07529296758E-04 +7.42899588606E-06 -5.71667988904E-05 -5.42616394017E-01 +7.99897774922E-01
1.25000000000E+09 -3.54983588866E-01 +8.65381596026E-01 -3.08039151492E-05 -9.44590038829E-05 -5.00907549925E-05 -1.15853236151E-04 -5.36002580005E-01 +8.04001492579E-01
1.25500000000E+09 -3.48233949005E-01 +8.67857969462E-01 -5.78899898096E-05 -7.58772468481E-05 -6.42475767606E-05 -1.47226432022E-04 -5.29282885413E-01 +8.07947841237E-01
1.26000000000E+09 -3.43000604909E-01 +8.69980681725E-01 -9.77475812161E-05 -8.89545043300E-05 -7.34219738023E-05 -1.07001039880E-04 -5.22468405872E-01 +8.12330833856E-01
1.26500000000E+09 -3.38687717065E-01 +8.71382399471E-01 -1.07742080380E-04 -5.75013484197E-05 -1.15424527659E-04 -7.36768725507E-05 -5.15561951260E-01 +8.16237284729E-01
1.27000000000E+09 -3.34038809207E-01 +8.72724230497E-01 -1.09171678750E-04 -1.23420875434E-04 -1.51109962214E-04 -4.20801051402E-05 -5.08590926006E-01 +8.19957946323E-01
1.27500000000E+09 -3.28446212103E-01 +8.73850530452E-01 -1.39522674170E-04 -7.59920644662E-05 -1.51197596507E-04 -6.05161086581E-05 -5.01617055720E-01 +8.23643854237E-01
1.28000000000E+09 -3.20617378957E-01 +8.75618141780E-01 -1.56654758727E-04 -1.91690305096E-05 -1.91110996958E-04 -4.36599430742E-05 -4.94561088625E-01 +8.27121208588E-01
1.28500000000E+09 -3.10359678307E-01 +8.77701469897E-01 -1.25661549169E-04 -4.39002705947E-05 -1.49554529987E-04 -8.02964932476E-05 -4.87154864435E-01 +8.30831785627E-01
1.29000000000E+09 -2.98750334167E-01 +8.80287839280E-01 -1.91424409762E-04 -5.48912457342E-05 -2.08864778344E-04 -1.66827926791E-05 -4.79695998934E-01 +8.34424459653E-01
1.29500000000E+09 -2.85912280513E-01 +8.83454049543E-01 -1.69695470187E-04 +1.83945721901E-05 -1.90238047884E-04 +1.15046789310E-05 -4.71751524453E-01 +8.38053296031E-01
1.30000000000E+09 -2.73098673497E-01 +8.86808389406E-01 -2.21755488674E-04 +1.78931666075E-05 -2.06570924224E-04 +4.49825987095E-05 -4.63960151119E-01 +8.41603647510E-01
1.30500000000E+09 -2.61408234309E-01 +8.90067884461E-01 -1.94424693605E-04 +6.25952643429E-05 -2.10389755548E-04 +1.54537605798E-06 -4.55812370582E-01 +8.44938013371E-01
1.31000000000E+09 -2.51433425184E-01 +8.92526942535E-01 -2.20604194353E-04 +1.22749430360E-04 -1.98707527262E-04 +1.32513530409E-04 -4.47459931448E-01 +8.48458688241E-01
1.31500000000E+09 -2.43758025415E-01 +8.94386743264E-01 -1.63667086015E-04 +1.47712695715E-04 -1.87456859008E-04 +8.21632239872E-05 -4.38622939805E-01 +8.51918211845E-01
1.32000000000E+09 -2.37709869033E-01 +8.95398907831E-01 -1.13609643231E-04 +1.30865899718E-04 -2.01112246269E-04 +6.81012112517E-05 -4.29595733060E-01 +8.55355570684E-01
1.32500000000E+09 -2.32416550743E-01 +8.96001310282E-01 -1.78210875497E-04 +1.04610950117E-04 -1.67035283679E-04 +1.17665483075E-04 -4.19926240084E-01 +8.58735849881E-01
1.33000000000E+09 -2.26361101670E-01 +8.96123926496E-01 -2.18330513732E-04 +1.63616218394E-04 -2.09419695750E-04 +1.74319922873E-04 -4.10303268076E-01 +8.62068107178E-01
1.33500000000E+09 -2.18342359927E-01 +8.95741990993E-01 -2.19076437094E-04 +2.15690718103E-04 -1.33920673180E-04 +2.13179450462E-04 -4.00343175273E-01 +8.65424058644E-01
1.34000000000E+09 -2.07745266400E-01 +8.95613379864E-01 -1.40610866740E-04 +2.95234492000E-04 -8.99822300406E-05 +2.41161697909E-04 -3.90134489870E-01 +8.68860071762E-01
1.34500000000E+09 -1.94161315244E-01 +8.95326373934E-01 -7.69628416499E-05 +2.66772260532E-04 -8.19235980678E-05 +2.41565717470E-04 -3.79270125369E-01 +8.72081776488E-01
1.35000000000E+09 -1.78197431901E-01 +8.95353221865E-01 -5.37992825553E-05 +2.59415943781E-04 -6.66049042267E-05 +2.24106194424E-04 -3.68217624359E-01 +8.75133519303E-01
1.35500000000E+09 -1.60794613773E-01 +8.95745707392E-01 -5.44864481920E-05 +2.66607652053E-04 -1.39828536644E-05 +2.63145190316E-04 -3.56518632591E-01 +8.78053205137E-01
1.36000000000E+09 -1.43345699339E-01 +8.96173907495E-01 -8.34532938653E-05 +2.68371022377E-04 -5.59770170851E-05 +3.05048131018E-04 -3.44629893636E-01 +8.80655690517E-01
1.36500000000E+09 -1.26735924287E-01 +8.96709011913E-01 +1.82548914424E-05 +3.19032563132E-04 +1.70685197550E-05 +3.31566671186E-04 -3.32416590456E-01 +8.83279570044E-01
1.37000000000E+09 -1.12065138387E-01 +8.96977315801E-01 -1.17091818275E-05 +3.88757155052E-04 -5.72842360165E-05 +3.90753588067E-04 -3.19480964232E-01 +8.85699868725E-01
1.37500000000E+09 -9.98417614151E-02 +8.97092786167E-01 +8.42560822303E-05 +4.70151128677E-04 -8.38033193683E-06 +4.44339689365E-04 -3.05806046379E-01 +8.87950276409E-01
1.38000000000E+09 -8.91613343662E-02 +8.96752070411E-01 +1.73334538363E-04 +4.80100635776E-04 +1.38706389061E-04 +4.76724512225E-04 -2.91180788082E-01 +8.89937254391E-01
1.38500000000E+09 -7.85964312904E-02 +8.95881051882E-01 +2.59982478584E-04 +4.04005463313E-04 +2.80444006392E-04 +4.77151829026E-04 -2.75621994303E-01 +8.91999707818E-01
1.39000000000E+09 -6.73971772734E-02 +8.94015843060E-01 +3.53099490620E-04 +3.69357160548E-04 +3.37072344828E-04 +4.67216031734E-04 -2.59612759445E-01 +8.93451144553E-01
1.39500000000E+09 -5.39102567233E-02 +8.91431877267E-01 +3.59918605307E-04 +3.88334091082E-04 +4.17737132969E-04 +4.47050892471E-04 -2.42752176756E-01 +8.94271115650E-01
1.40000000000E+09 -3.74956013177E-02 +8.87639908013E-01 +4.73026145824E-04 +3.82687770734E-04 +5.06734980166E-04 +3.19827631060E-04 -2.25121849489E-01 +8.94837187834E-01
1.40500000000E+09 -1.83561500214E-02 +8.82859899863E-01 +5.33704455845E-04 +2.15472371919E-04 +6.08570548545E-04 +2.57822602932E-04 -2.06309696339E-01 +8.94775561353E-01
1.41000000000E+09 +3.24354954173E-03 +8.77303479243E-01 +5.97942538995E-04 +1.84745394598E-04 +5.76488755791E-04 +1.73014058111E-04 -1.86000192730E-01 +8.94067495710E-01
1.41500000000E+09 +2.61821523226E-02 +8.70990027526E-01 +5.48308446699E-04 +8.78682701896E-05 +5.44689521277E-04 +1.36384930356E-04 -1.64309425170E-01 +8.92535061575E-01
1.42000000000E+09 +4.95467992458E-02 +8.64433339079E-01 +5.73720006624E-04 +7.62608150118E-05 +6.24867139087E-04 +1.23972523979E-04 -1.41399509158E-01 +8.89808134809E-01
1.42500000000E+09 +7.22810652251E-02 +8.57143775069E-01 +6.26099140962E-04 +7.72714815165E-06 +7.07099212011E-04 +2.95278113281E-05 -1.17649808134E-01 +8.86419579982E-01
1.43000000000E+09 +9.38868873541E-02 +8.49285064092E-01 +6.73865967388E-04 -5.19541290515E-05 +7.40452222179E-04 -7.75368139903E-05 -9.26645553262E-02 +8.81550158173E-01
1.43500000000E+09 +1.14354951128E-01 +8.39784777140E-01 +7.58266614027E-04 -9.60499679835E-05 +7.45272196333E-04 -1.87382836024E-04 -6.60755136226E-02 +8.75016087251E-01
1.44000000000E+09 +1.34579939399E-01 +8.29293274433E-01 +7.33203764850E-04 -3.01287261378E-04 +6.91922026741E-04 -3.76586802450E-04 -3.75185755937E-02 +8.65923145473E-01
1.44500000000E+09 +1.56177894351E-01 +8.16175765680E-01 +6.15074664664E-04 -3.49122889217E-04 +6.06701246283E-04 -4.60705932568E-04 -7.58558153627E-03 +8.54552674085E-01
1.45000000000E+09 +1.79936030230E-01 +7.99508413749E-01 +5.61991845256E-04 -2.90923023038E-04 +5.33282440973E-04 -3.36926635435E-04 +2.44129585941E-02 +8.39944643986E-01
1.45500000000E+09 +2.06339334087E-01 +7.78631693334E-01 +7.25592477203E-04 -3.56683373405E-04 +6.53925352602E-04 -4.08800156438E-04 +5.82294221898E-02 +8.22143512489E-01
1.46000000000E+09 +2.35861415418E-01 +7.52743973511E-01 +7.68354386749E-04 -4.86856639846E-04 +6.79900189340E-04 -5.52627998831E-04 +9.31362281852E-02 +7.99809768016E-01
1.46500000000E+09 +2.67707804961E-01 +7.21594508328E-01 +7.42588551389E-04 -6.55431892787E-04 +6.70817987674E-04 -6.26062314121E-04 +1.28976876034E-01 +7.72794643580E-01
1.47000000000E+09 +3.00512730202E-01 +6.84964845417E-01 +8.41176981756E-04 -5.72354859934E-04 +7.48565027435E-04 -5.32899902607E-04 +1.66030836616E-01 +7.39029587926E-01
1.47500000000E+09 +3.33101975737E-01 +6.42906453834E-01 +1.07002157070E-03 -9.23386623888E-04 +9.87622638844E-04 -8.23699483339E-04 +2.03283925376E-01 +6.97991562707E-01
1.48000000000E+09 +3.63198885456E-01 +5.94494922512E-01 +1.06751718262E-03 -1.29111818377E-03 +1.11443616698E-03 -1.26592850296E-03 +2.40193362696E-01 +6.48071773003E-01
1.48500000000E+09 +3.88416790093E-01 +5.39813364650E-01 +9.94811590754E-04 -1.84200065649E-03 +9.57501987960E-04 -1.91738326178E-03 +2.74180785305E-01 +5.88550383113E-01
1.49000000000E+09 +4.07656093376E-01 +4.78240793559E-01 +2.97328819225E-04 -2.35096817556E-03 +2.25386843247E-04 -2.38927483070E-03 +3.01653033855E-01 +5.18362965620E-01
1.49500000000E+09 +4.18917575202E-01 +4.09247057554E-01 +2.35093797322E-04 -2.30014599523E-03 +1.28551320831E-04 -2.18816934589E-03 +3.19810129973E-01 +4.38785672635E-01
1.50000000000E+09 +4.20035332551E-01 +3.30696282966E-01 -2.92565623364E-05 -3.11683024640E-03 -7.32473528458E-05 -2.92250257568E-03 +3.25257202514E-01 +3.49051623832E-01
1.50500000000E+09 +4.07324968654E-01 +2.44025745516E-01 -1.15164447120E-03 -3.65680562208E-03 -1.00736087265E-03 -3.50092420583E-03 +3.12657622589E-01 +2.51768718223E-01
1.51000000000E+09 +3.77294674012E-01 +1.51578703464E-01 -2.56908044418E-03 -3.82195377718E-03 -2.33273257022E-03 -3.83101545111E-03 +2.79241558898E-01 +1.52432393163E-01
1.51500000000E+09 +3.28071066547E-01 +5.88314222477E-02 -4.42610532631E-03 -3.16830344271E-03 -4.35778909309E-03 -3.32409257440E-03 +2.25109228333E-01 +5.54485859244E-02
1.52000000000E+09 +2.57595320095E-01 -2.72381157885E-02 -5.62492833906E-03 -9.48540065654E-04 -5.66125314131E-03 -1.09218895388E-03 +1.47712497457E-01 -3.06479601539E-02
1.52500000000E+09 +1.69924649759E-01 -9.84486870827E-02 -4.89870578412E-03 +7.09417122646E-04 -4.96210596308E-03 +6.71501322748E-04 +5.28362288699E-02 -9.71467727289E-02
1.53000000000E+09 +6.71031165420E-02 -1.50291157087E-01 -4.72219582862E-03 +1.40190696631E-03 -4.73358616960E-03 +1.34217766019E-03 -5.30724740095E-02 -1.42353051282E-01
1.53500000000E+09 -4.52568321635E-02 -1.75464458352E-01 -4.52753383653E-03 +2.78713666948E-03 -4.53629580832E-03 +2.79791568401E-03 -1.65083880586E-01 -1.62720898087E-01
1.54000000000E+09 -1.57577603757E-01 -1.72576423448E-01 -3.75743305143E-03 +3.78763679806E-03 -3.74997192011E-03 +3.71896329171E-03 -2.73201091150E-01 -1.58867941208E-01
1.54500000000E+09 -2.63108336530E-01 -1.46190150911E-01 -2.72059711766E-03 +5.48717723386E-03 -2.78105702696E-03 +5.37890754462E-03 -3.72007248024E-01 -1.36326906224E-01
1.55000000000E+09 -3.57604157311E-01 -1.00697374573E-01 -3.23933275894E-04 +5.74939619279E-03 -6.22519551753E-04 +5.67117603769E-03 -4.57793958893E-01 -9.80117322343E-02
1.55500000000E+09 -4.37096858726E-01 -4.25208248177E-02 +9.90920518860E-04 +5.02469208840E-03 +7.82376570091E-04 +5.19854238728E-03 -5.28256961373E-01 -5.06231525268E-02
1.56000000000E+09 -5.00531046546E-01 +2.13226568544E-02 +2.19694580735E-03 +4.62496977271E-03 +2.15338912883E-03 +4.95526087218E-03 -5.85151350631E-01 +2.39835932741E-03
1.56500000000E+09 -5.49321883890E-01 +8.49484909794E-02 +3.49885209286E-03 +3.40701382989E-03 +3.70637515547E-03 +3.72033318416E-03 -6.29488876102E-01 +5.81702894994E-02
1.57000000000E+09 -5.86726253389E-01 +1.45854707129E-01 +3.89228138602E-03 +1.65741998240E-03 +4.17686231317E-03 +1.73164131262E-03 -6.62715949458E-01 +1.13259553945E-01
