# Hz S RI R 50
! CMT, C1220, 16058040, 17.2.0/1
! Date: 14/08/2018 12:57:58
! Data: Format (Calibration Info)
! Freq                      S11: Re/Im (F2)                       S21: Re/Im (F2)                       S12: Re/Im (F2)                       S22: Re/Im (F2)            
1.00000000000E+09 -6.47547621190E-01 +7.11895425610E-01 -1.74524985095E-05 +1.03733212677E-04 -2.38264941835E-05 +1.78242938575E-05 -7.19147020213E-01 +6.45793854908E-01
1.00500000000E+09 -6.41078151109E-01 +7.16552543217E-01 +7.26461950649E-05 +4.80184056688E-06 -2.10853295394E-05 +4.27312841773E-06 -7.15343358872E-01 +6.49666156252E-01
1.01000000000E+09 -6.35252207969E-01 +7.21059848128E-01 -5.20392136315E-06 +1.99411399393E-05 -9.97046791583E-06 -1.32856728311E-05 -7.11612347482E-01 +6.53178344778E-01
1.01500000000E+09 -6.30367209782E-01 +7.24923238378E-01 -1.43878444428E-05 +4.17063106135E-05 -2.17175530706E-05 +1.84355106911E-05 -7.08357500314E-01 +6.56593983923E-01
1.02000000000E+09 -6.26535872952E-01 +7.28190585028E-01 -1.81923060367E-07 +1.57986526319E-05 +3.68885137366E-05 +2.92287135824E-05 -7.04933780369E-01 +6.60093781066E-01
1.02500000000E+09 -6.23022332853E-01 +7.31536681179E-01 -2.05262438186E-05 -7.91566889254E-06 +4.31993725267E-05 +1.90346509394E-05 -7.01707097807E-01 +6.63713564399E-01
1.03000000000E+09 -6.20112266547E-01 +7.34590694949E-01 +6.80792620472E-06 +3.26187995895E-05 +7.65140494758E-06 +5.14065833270E-05 -6.98070530409E-01 +6.67506336200E-01
1.03500000000E+09 -6.16444137822E-01 +7.37393535045E-01 -3.07931267362E-06 +6.12049427352E-05 -2.90201260714E-05 +6.76673614981E-05 -6.94100272400E-01 +6.71240184472E-01
1.04000000000E+09 -6.11891359230E-01 +7.40704640381E-01 -9.42224921162E-07 +4.47696104483E-06 -1.04490568701E-05 -8.53333758699E-06 -6.89951199485E-01 +6.74719872742E-01
1.04500000000E+09 -6.06335468848E-01 +7.44293709077E-01 +5.78041757191E-05 +3.06469680546E-05 -1.43899599118E-05 +5.28325720635E-05 -6.86266225320E-01 +6.78229550625E-01
1.05000000000E+09 -5.99783894506E-01 +7.48279265052E-01 +1.03844022399E-05 +1.40926153050E-05 +4.10523145550E-05 +4.34733609720E-05 -6.82719373753E-01 +6.81258591535E-01
1.05500000000E+09 -5.91981487796E-01 +7.52646806875E-01 +1.99573485189E-05 +9.01862535680E-05 +2.15507873735E-05 +9.77292026325E-06 -6.79373977055E-01 +6.84917075663E-01
1.06000000000E+09 -5.83919935424E-01 +7.57260754506E-01 +4.64722657412E-05 +3.48920984272E-06 +1.41343157287E-05 +1.69767542557E-05 -6.75763838272E-01 +6.88705310033E-01
1.06500000000E+09 -5.76300157088E-01 +7.61877183137E-01 +5.86289713920E-06 +6.17647841304E-05 +3.60039848925E-05 +1.25474001897E-05 -6.71639333330E-01 +6.92333554466E-01
1.07000000000E+09 -5.68946846774E-01 +7.65828575280E-01 -9.59142759793E-07 +2.46381895134E-05 -4.50640653793E-05 +6.05147287135E-05 -6.67260037256E-01 +6.96040284173E-01
1.07500000000E+09 -5.63100578053E-01 +7.69608262572E-01 +2.66541351252E-05 +5.42200047428E-05 -2.10533692733E-05 +1.53687174318E-05 -6.62869347218E-01 +6.99465446948E-01
1.08000000000E+09 -5.58189705222E-01 +7.72877529618E-01 +1.44138943432E-05 +3.80179543919E-05 +4.27065680488E-06 +2.37336922564E-05 -6.58805535175E-01 +7.03111784555E-01
1.08500000000E+09 -5.54407512858E-01 +7.75513980905E-01 -2.61573789929E-05 +5.76465193579E-05 +2.85196145058E-05 +9.53089806905E-06 -6.54776346617E-01 +7.06425902817E-01
1.09000000000E+09 -5.51099350141E-01 +7.77827400880E-01 +1.30529493649E-05 +5.50261249570E-05 +2.34854536999E-05 +1.64679668636E-05 -6.50897349188E-01 +7.10150858034E-01
1.09500000000E+09 -5.48160366584E-01 +7.79980039298E-01 +4.28046688760E-05 +5.93357400050E-05 +2.62453457989E-06 +2.95406452296E-05 -6.47023926203E-01 +7.13919885568E-01
1.10000000000E+09 -5.44491852673E-01 +7.82149097239E-01 +6.11359222610E-06 +1.38425490248E-05 +3.14608681360E-05 -3.45768319963E-05 -6.42870533397E-01 +7.17546166886E-01
1.10500000000E+09 -5.40410412074E-01 +7.84849197373E-01 +4.85239076718E-05 +1.04868521041E-05 +2.20975476443E-05 +2.68063206716E-05 -6.38256393732E-01 +7.20787388996E-01
1.11000000000E+09 -5.35048711580E-01 +7.87832594571E-01 +4.97505407040E-05 +5.10287913127E-05 +5.33920680716E-05 +2.45258087526E-05 -6.34038191197E-01 +7.24034539587E-01
1.11500000000E+09 -5.28754080487E-01 +7.91367182698E-01 +5.35544380293E-05 +7.82302608936E-05 +4.48724273952E-05 +6.77499705557E-06 -6.29923269865E-01 +7.27228398576E-01
1.12000000000E+09 -5.21863815302E-01 +7.94806899297E-01 +9.64374457564E-05 -1.25748426307E-05 +9.22846729972E-05 +2.37683067148E-05 -6.25866681656E-01 +7.30610762761E-01
1.12500000000E+09 -5.14378374896E-01 +7.98376647816E-01 +4.20978144708E-05 +7.84349267362E-06 +6.50112475506E-05 +1.94102088196E-05 -6.21410431595E-01 +7.34407640258E-01
1.13000000000E+09 -5.07196108554E-01 +8.01712388425E-01 +8.03943267592E-05 -2.48231195667E-05 +3.90279131266E-05 +8.77741980716E-06 -6.16862004153E-01 +7.37982314364E-01
1.13500000000E+09 -5.00358322505E-01 +8.04230962469E-01 +9.00178177315E-05 -2.88886414402E-05 +1.04486763136E-04 +7.07493096367E-06 -6.12089145172E-01 +7.41685703615E-01
1.14000000000E+09 -4.94255194403E-01 +8.06549640525E-01 +5.08187404076E-05 +1.99015349333E-05 +6.14261585321E-05 -2.59514982533E-05 -6.06951196378E-01 +7.44886294390E-01
1.14500000000E+09 -4.88755779241E-01 +8.08327874834E-01 +9.23396866681E-05 -3.05732405405E-05 +4.41268400171E-05 +2.05816554408E-05 -6.02239414810E-01 +7.48263104248E-01
1.15000000000E+09 -4.83548600939E-01 +8.09816075142E-01 +3.89612076893E-05 -4.07967061557E-05 +8.16208361621E-05 +3.49097401198E-05 -5.97476690689E-01 +7.51817383688E-01
1.15500000000E+09 -4.78705478219E-01 +8.11616057694E-01 +8.21222425598E-05 -3.94746939308E-05 +1.06406126716E-04 -1.05037268835E-05 -5.92436617891E-01 +7.55475976824E-01
1.16000000000E+09 -4.73496380954E-01 +8.13527139273E-01 +6.79112794059E-05 -6.74585944243E-06 +7.29096407422E-05 -6.21182142665E-05 -5.87477863046E-01 +7.59173439735E-01
1.16500000000E+09 -4.67641623293E-01 +8.16160541898E-01 +7.17206835183E-05 -4.25202216856E-05 +9.45147386264E-05 -5.17479778006E-05 -5.82426428499E-01 +7.62549451347E-01
1.17000000000E+09 -4.61303212396E-01 +8.18944840370E-01 +7.42612995552E-05 +8.64245306802E-06 +9.68767967475E-05 -5.43361457308E-05 -5.76823719319E-01 +7.65635235862E-01
1.17500000000E+09 -4.54190188466E-01 +8.21984520029E-01 +9.32617518852E-05 -5.92196789322E-06 +8.70120509985E-05 -1.66727589422E-05 -5.71093220310E-01 +7.68533739515E-01
1.18000000000E+09 -4.46866671148E-01 +8.25239871045E-01 +7.57118708180E-05 -3.75935783224E-05 +1.19460803628E-04 -1.19203101705E-04 -5.65639570857E-01 +7.71563071781E-01
1.18500000000E+09 -4.39202415155E-01 +8.28085324571E-01 +1.11983816015E-04 -6.71237517693E-05 +1.40348073853E-04 -1.05993714682E-04 -5.59774599638E-01 +7.74258222892E-01
1.19000000000E+09 -4.31555396933E-01 +8.30523685365E-01 +1.07878965272E-04 -1.71121003668E-04 +1.09687248647E-04 -1.42933833603E-04 -5.53559349877E-01 +7.76606649362E-01
1.19500000000E+09 -4.24234946675E-01 +8.32365786914E-01 +1.28962720639E-04 -2.17195963910E-04 +1.46022258813E-04 -2.38303998735E-04 -5.47665740740E-01 +7.77557549456E-01
1.20000000000E+09 -4.17324159858E-01 +8.33273671366E-01 +6.34722232000E-05 -2.59177366617E-04 +2.67030086266E-05 -2.60305385747E-04 -5.43052452805E-01 +7.77613111866E-01
1.20500000000E+09 -4.10850114449E-01 +8.34318539103E-01 -2.07743137389E-05 -2.10379044957E-04 -3.04956587292E-05 -2.27462164276E-04 -5.40583854740E-01 +7.78460151530E-01
1.21000000000E+09 -4.04370480761E-01 +8.35550527794E-01 -5.07593569530E-05 -1.34098686989E-04 -1.23559917961E-04 -1.18358578548E-04 -5.38313853886E-01 +7.81265720282E-01
1.21500000000E+09 -3.97241264420E-01 +8.37164588828E-01 -6.15592155563E-05 -1.10162565576E-04 -5.17784419522E-05 -1.01035787131E-04 -5.35358547518E-01 +7.85825713461E-01
1.22000000000E+09 -3.89464982469E-01 +8.39132690000E-01 -4.05600045132E-05 -1.31992630511E-04 -1.89014509898E-05 -9.22425226895E-05 -5.30884903156E-01 +7.91033534687E-01
1.22500000000E+09 -3.81337910765E-01 +8.41733472171E-01 -3.23739669514E-05 -1.30310675875E-04 +1.41773877429E-05 -1.26507679476E-04 -5.25522818401E-01 +7.95785336524E-01
1.23000000000E+09 -3.72789162492E-01 +8.44464621919E-01 -8.28430121873E-05 -1.38335327711E-04 -8.85351508605E-05 -1.41163568023E-04 -5.19731686244E-01 +8.00035084575E-01
1.23500000000E+09 -3.64511973457E-01 +8.47487825883E-01 -1.92873767403E-05 -1.54211065677E-04 -7.05576464091E-05 -1.35612709416E-04 -5.13873775882E-01 +8.04098369151E-01
1.24000000000E+09 -3.56141153431E-01 +8.50645472344E-01 -8.04571520679E-05 -1.73821686914E-04 -1.07880385943E-04 -1.50906033384E-04 -5.07820259884E-01 +8.07655612649E-01
1.24500000000E+09 -3.48353486130E-01 +8.54010059782E-01 -8.63878504883E-05 -1.76327418663E-04 -5.75255865675E-05 -1.56165684492E-04 -5.01409682420E-01 +8.11164614473E-01
1.25000000000E+09 -3.40929809698E-01 +8.56578249070E-01 -8.18466931619E-05 -2.18625076902E-04 -8.07481476239E-05 -2.27065933222E-04 -4.94934272852E-01 +8.14884858680E-01
1.25500000000E+09 -3.33457126485E-01 +8.58347245700E-01 -8.47150807735E-05 -2.04426828283E-04 -1.43857734904E-04 -1.87867684293E-04 -4.88084891052E-01 +8.18666370704E-01
1.26000000000E+09 -3.25976691624E-01 +8.59481060924E-01 -1.24617231692E-04 -1.77828266703E-04 -1.01829519486E-04 -2.01800598184E-04 -4.81506978946E-01 +8.22470952706E-01
1.26500000000E+09 -3.18498426430E-01 +8.60040762960E-01 -1.52390330829E-04 -2.50682783703E-04 -2.10705470911E-04 -1.91729638608E-04 -4.74273852631E-01 +8.25994696290E-01
1.27000000000E+09 -3.10297263742E-01 +8.60568951024E-01 -2.11813278937E-04 -2.19550398436E-04 -2.14697852010E-04 -2.02813354875E-04 -4.67565375858E-01 +8.29565847511E-01
1.27500000000E+09 -3.01257857028E-01 +8.61044186733E-01 -2.88670623271E-04 -1.88820520005E-04 -2.61030663354E-04 -2.08053976501E-04 -4.60350230657E-01 +8.32843070166E-01
1.28000000000E+09 -2.91254282576E-01 +8.61968072672E-01 -3.20603586926E-04 -2.07612950083E-04 -3.05609094550E-04 -2.05727017749E-04 -4.53206232326E-01 +8.36005327050E-01
1.28500000000E+09 -2.80279762701E-01 +8.63301607645E-01 -3.26804315621E-04 -1.05278333740E-04 -3.14804148284E-04 -1.20397384340E-04 -4.45731770575E-01 +8.39391297776E-01
1.29000000000E+09 -2.69327381958E-01 +8.65111130390E-01 -3.72030790301E-04 -1.56983325702E-04 -3.66038320415E-04 -1.58344406490E-04 -4.38149574118E-01 +8.42841049016E-01
1.29500000000E+09 -2.58599817701E-01 +8.67406027501E-01 -3.60296782631E-04 -1.10159762649E-04 -4.29182524194E-04 -7.45040688212E-05 -4.30292379202E-01 +8.45904804346E-01
1.30000000000E+09 -2.48488855447E-01 +8.70214705707E-01 -4.33916239808E-04 -1.18503251478E-04 -5.52370822763E-04 -4.14989492521E-05 -4.22497433078E-01 +8.49117671188E-01
1.30500000000E+09 -2.38992911399E-01 +8.73009967408E-01 -5.18035912507E-04 -5.92766083507E-05 -4.72389482952E-04 -5.30362175232E-07 -4.14492496641E-01 +8.52124339896E-01
1.31000000000E+09 -2.30318145312E-01 +8.75161068576E-01 -5.70378778518E-04 +8.53806913786E-05 -5.57286206449E-04 +5.47388319221E-05 -4.06206042983E-01 +8.55220699559E-01
1.31500000000E+09 -2.22284414142E-01 +8.76384500580E-01 -5.62589821766E-04 +1.71920161654E-04 -5.83764416807E-04 +1.91929793426E-04 -3.97311373236E-01 +8.58319526781E-01
1.32000000000E+09 -2.14756180117E-01 +8.76875399054E-01 -4.92706508210E-04 +2.17200757707E-04 -5.79478377736E-04 +1.83367044516E-04 -3.88433211647E-01 +8.61378066098E-01
1.32500000000E+09 -2.07173451342E-01 +8.76354376431E-01 -5.43295314870E-04 +2.13068187811E-04 -5.60678001711E-04 +2.52497846696E-04 -3.79019047199E-01 +8.64270376343E-01
1.33000000000E+09 -1.98879066003E-01 +8.75648042695E-01 -5.95231939179E-04 +2.89211191089E-04 -6.15552548409E-04 +3.87878344826E-04 -3.69674835376E-01 +8.67046621178E-01
1.33500000000E+09 -1.89148311043E-01 +8.74788136800E-01 -6.73118442475E-04 +4.46334876789E-04 -5.85965700195E-04 +4.20748709425E-04 -3.60076676988E-01 +8.69863548481E-01
1.34000000000E+09 -1.77873399182E-01 +8.74094813000E-01 -5.75995567754E-04 +5.41513895595E-04 -5.50065494278E-04 +5.26601173478E-04 -3.49955887764E-01 +8.72787819061E-01
1.34500000000E+09 -1.65021304679E-01 +8.73556442712E-01 -5.54236626368E-04 +6.26991653429E-04 -5.14676977633E-04 +6.18732623231E-04 -3.39201712950E-01 +8.75439060596E-01
1.35000000000E+09 -1.51001105758E-01 +8.73791584551E-01 -5.00519134997E-04 +7.74811551941E-04 -4.87760961495E-04 +7.49181097212E-04 -3.28320518788E-01 +8.78153456275E-01
1.35500000000E+09 -1.36139281866E-01 +8.73862428611E-01 -4.68044917396E-04 +8.24163463954E-04 -4.56078736851E-04 +7.99580067851E-04 -3.16937460294E-01 +8.80481827999E-01
1.36000000000E+09 -1.21010963440E-01 +8.74552567884E-01 -4.15882792910E-04 +8.83267089898E-04 -3.92466367352E-04 +8.58731399519E-04 -3.05319969468E-01 +8.82662589812E-01
1.36500000000E+09 -1.05962507234E-01 +8.74648423019E-01 -4.12717153635E-04 +1.01942052123E-03 -3.53396126713E-04 +9.72452177273E-04 -2.93565300247E-01 +8.84549559438E-01
1.37000000000E+09 -9.16104763931E-02 +8.73688787202E-01 -2.83878973363E-04 +1.19400057750E-03 -3.15419281889E-04 +1.10642120809E-03 -2.80953727797E-01 +8.86480480439E-01
1.37500000000E+09 -7.86684190943E-02 +8.71929338944E-01 -5.42496934254E-05 +1.33491536932E-03 -2.11625594854E-04 +1.23930066569E-03 -2.67637755246E-01 +8.88277952208E-01
1.38000000000E+09 -6.63627257315E-02 +8.69471874854E-01 +3.63608302776E-05 +1.32155303715E-03 -1.44015133513E-04 +1.37231062673E-03 -2.53386417985E-01 +8.89790378198E-01
1.38500000000E+09 -5.38921983604E-02 +8.66276816531E-01 +1.62854775831E-04 +1.46405924912E-03 +2.80993006587E-05 +1.60837675231E-03 -2.38229301348E-01 +8.91119331099E-01
1.39000000000E+09 -4.12020290128E-02 +8.62524040853E-01 +3.09903542764E-04 +1.54239395410E-03 +3.39239610027E-04 +1.76630951366E-03 -2.22857539934E-01 +8.92051760287E-01
1.39500000000E+09 -2.72822984871E-02 +8.58509287851E-01 +4.80728442179E-04 +1.63869720961E-03 +6.61021297891E-04 +1.79483982507E-03 -2.06846392462E-01 +8.92292630576E-01
1.40000000000E+09 -1.16943146714E-02 +8.53883392961E-01 +6.88611116682E-04 +1.87912712595E-03 +9.44337533446E-04 +1.79781714321E-03 -1.90198373587E-01 +8.92289677324E-01
1.40500000000E+09 +4.79036167116E-03 +8.49022480425E-01 +1.19603812405E-03 +2.02085752278E-03 +1.21676877129E-03 +1.79856764260E-03 -1.72254222153E-01 +8.91593443509E-01
1.41000000000E+09 +2.27473315805E-02 +8.44247365581E-01 +1.63334146475E-03 +1.79994083376E-03 +1.56663172282E-03 +1.78396447275E-03 -1.53029023739E-01 +8.90410268642E-01
1.41500000000E+09 +4.18597668690E-02 +8.39496599889E-01 +1.86297159949E-03 +1.67791241466E-03 +1.84180566902E-03 +1.78184333904E-03 -1.32133656098E-01 +8.88377543708E-01
1.42000000000E+09 +6.24025135010E-02 +8.33904376409E-01 +2.14676246875E-03 +1.59145373975E-03 +2.34331150302E-03 +1.79906527879E-03 -1.10255037523E-01 +8.85201268850E-01
1.42500000000E+09 +8.33900385743E-02 +8.26336615544E-01 +2.53538582328E-03 +1.45893476745E-03 +2.88395309472E-03 +1.53459275136E-03 -8.75696487200E-02 +8.80975952855E-01
1.43000000000E+09 +1.04531587730E-01 +8.16612873151E-01 +3.03780547416E-03 +1.48546672753E-03 +3.40546199014E-03 +1.32447214918E-03 -6.40454135168E-02 +8.75953184157E-01
1.43500000000E+09 +1.25423210887E-01 +8.04337124522E-01 +3.91136184920E-03 +1.13925099145E-03 +4.14971006156E-03 +8.24195727104E-04 -3.88668424618E-02 +8.68759357161E-01
1.44000000000E+09 +1.46437250789E-01 +7.90553390373E-01 +4.59275057411E-03 +1.95855906334E-04 +4.55366023913E-03 -1.26701155587E-04 -1.21153066550E-02 +8.59719776119E-01
1.44500000000E+09 +1.69012608406E-01 +7.74321007445E-01 +4.61739392411E-03 -7.89834080183E-04 +4.61163442158E-03 -1.08285245131E-03 +1.64653290549E-02 +8.48238226883E-01
1.45000000000E+09 +1.92545575840E-01 +7.55405140536E-01 +4.59962343387E-03 -1.32916727732E-03 +4.60671355378E-03 -1.67796016534E-03 +4.66669218859E-02 +8.33490967967E-01
1.45500000000E+09 +2.17572777687E-01 +7.33627347087E-01 +4.84217766054E-03 -1.95688682099E-03 +4.70800020366E-03 -2.36715436651E-03 +7.77783548438E-02 +8.16305624934E-01
1.46000000000E+09 +2.44108965767E-01 +7.09264363292E-01 +5.23244478637E-03 -2.77344635362E-03 +4.74908081843E-03 -3.15508815489E-03 +1.11028169748E-01 +7.95160011936E-01
1.46500000000E+09 +2.71856357815E-01 +6.82328491051E-01 +5.53559649561E-03 -4.00652452049E-03 +4.86470585475E-03 -4.01811839218E-03 +1.45030451305E-01 +7.68798860991E-01
1.47000000000E+09 +3.01318241658E-01 +6.51352698527E-01 +5.64640084439E-03 -5.86477785295E-03 +5.22975786612E-03 -5.36956974404E-03 +1.79953096052E-01 +7.35769967256E-01
1.47500000000E+09 +3.31066425927E-01 +6.14558045823E-01 +4.60057459152E-03 -8.05198503814E-03 +4.78261574977E-03 -7.51618831145E-03 +2.14482010301E-01 +6.95605660269E-01
1.48000000000E+09 +3.58608251639E-01 +5.70557943050E-01 +2.98279244697E-03 -9.48868445956E-03 +3.34246474929E-03 -9.49361894871E-03 +2.48599680604E-01 +6.47994994705E-01
1.48500000000E+09 +3.81984779998E-01 +5.18557369585E-01 +1.52250014215E-03 -1.08356428480E-02 +1.42737577312E-03 -1.11090298015E-02 +2.80344686313E-01 +5.91314969678E-01
1.49000000000E+09 +3.99267955054E-01 +4.58544545647E-01 -7.65971902210E-04 -1.25976381608E-02 -1.31882150509E-03 -1.25074823430E-02 +3.07107153687E-01 +5.24614525669E-01
1.49500000000E+09 +4.09196994855E-01 +3.91162789185E-01 -4.48965700767E-03 -1.35822965140E-02 -4.79560245294E-03 -1.28271972794E-02 +3.24865016188E-01 +4.47451808228E-01
1.50000000000E+09 +4.10415023062E-01 +3.14413674809E-01 -8.27874849942E-03 -1.30971569482E-02 -7.79569946947E-03 -1.23165971801E-02 +3.29687490967E-01 +3.60742760112E-01
1.50500000000E+09 +3.98609604605E-01 +2.29645767007E-01 -1.24391472207E-02 -1.16913563597E-02 -1.15857320751E-02 -1.16358176525E-02 +3.17797470593E-01 +2.66195959994E-01
1.51000000000E+09 +3.71497678126E-01 +1.40608287208E-01 -1.61989871286E-02 -8.35115129020E-03 -1.57034103651E-02 -8.90652789161E-03 +2.85277234354E-01 +1.67271417555E-01
1.51500000000E+09 +3.25344021500E-01 +5.04108737218E-02 -1.90547551108E-02 -4.30917497296E-03 -1.90956749973E-02 -4.86833444300E-03 +2.29097181609E-01 +7.24113574048E-02
1.52000000000E+09 +2.58506341137E-01 -3.11018252350E-02 -2.10077116099E-02 +8.57413017823E-04 -2.12789402530E-02 +5.95681172249E-04 +1.51507060775E-01 -1.01693037109E-02
1.52500000000E+09 +1.74637370097E-01 -9.86347592056E-02 -2.10709520041E-02 +8.39738442763E-03 -2.13888828544E-02 +8.38356373890E-03 +5.80743046342E-02 -7.52288362653E-02
1.53000000000E+09 +7.63436051787E-02 -1.47061860501E-01 -1.63873926494E-02 +1.45267167376E-02 -1.66099262360E-02 +1.46057255399E-02 -5.05177541343E-02 -1.17772018596E-01
1.53500000000E+09 -3.09039626166E-02 -1.72146119562E-01 -1.16204074304E-02 +1.78516467168E-02 -1.16133980332E-02 +1.79447519890E-02 -1.61160712585E-01 -1.33828595970E-01
1.54000000000E+09 -1.42284212709E-01 -1.72063811121E-01 -6.05017450207E-03 +1.97974015294E-02 -6.05724754440E-03 +1.95868843807E-02 -2.69676915840E-01 -1.27040372533E-01
1.54500000000E+09 -2.47410645417E-01 -1.46776149568E-01 +1.99148804120E-04 +2.01278529135E-02 -2.18635726489E-04 +1.98514411503E-02 -3.67353123813E-01 -9.89860226896E-02
1.55000000000E+09 -3.40526211439E-01 -1.03993015567E-01 +5.08084039840E-03 +1.74054553448E-02 +4.39503412315E-03 +1.75722197092E-02 -4.49472223073E-01 -5.70437942146E-02
1.55500000000E+09 -4.18548848808E-01 -4.86124636590E-02 +8.26457016323E-03 +1.46263338525E-02 +7.78064892674E-03 +1.53016181053E-02 -5.16782359858E-01 -6.77109700672E-03
1.56000000000E+09 -4.79759218010E-01 +1.06720473921E-02 +1.10138915027E-02 +1.12682693356E-02 +1.10689481981E-02 +1.21677480212E-02 -5.69857398163E-01 +4.83691444877E-02
1.56500000000E+09 -5.28557426700E-01 +7.08975095072E-02 +1.18123352843E-02 +7.28457276086E-03 +1.23447051861E-02 +7.89794617504E-03 -6.11187263042E-01 +1.05183005952E-01
1.57000000000E+09 -5.65140253820E-01 +1.30763940419E-01 +1.14889536440E-02 +4.50548138102E-03 +1.22487383718E-02 +4.68462187323E-03 -6.41200034103E-01 +1.61579280890E-01
