# Hz S RI R 50
! CMT, C1220, 16058040, 17.2.0/1
! Date: 14/08/2018 12:45:38
! Data: Format (Calibration Info)
! Freq                      S11: Re/Im (F2)                       S21: Re/Im (F2)                       S12: Re/Im (F2)                       S22: Re/Im (F2)            
1.00000000000E+09 -6.50594278523E-01 +7.12721865613E-01 +1.64394859507E-05 -1.03657680132E-05 +2.98427238868E-05 -3.13435920346E-06 -7.53745801071E-01 +6.21593473451E-01
1.00500000000E+09 -6.43549110187E-01 +7.17669250063E-01 -2.38644686832E-05 +1.51711248754E-06 -1.61339470414E-06 +3.47568922493E-05 -7.50242514852E-01 +6.25465741798E-01
1.01000000000E+09 -6.37604490672E-01 +7.22353910938E-01 +3.53342953038E-06 +2.82883174598E-06 +2.93932365139E-05 +1.84081964219E-05 -7.46740708657E-01 +6.29200280067E-01
1.01500000000E+09 -6.33104643584E-01 +7.26382131321E-01 -2.95447635476E-05 +1.49372626904E-05 -7.60327792948E-06 -3.38339180304E-06 -7.43604506716E-01 +6.32740536717E-01
1.02000000000E+09 -6.29969640624E-01 +7.29661148032E-01 +2.67257683603E-05 +5.62593333294E-05 +1.71077671838E-05 +3.49422402613E-05 -7.40256871078E-01 +6.36171779356E-01
1.02500000000E+09 -6.27849328342E-01 +7.32454543090E-01 +3.37478771649E-05 +5.90017814874E-05 -3.32382365136E-05 -3.87810473922E-06 -7.37424588905E-01 +6.39987762540E-01
1.03000000000E+09 -6.26307323063E-01 +7.35077640524E-01 +1.92835665463E-05 +4.71868995458E-05 -3.11066189244E-05 +2.43544795975E-05 -7.34098085547E-01 +6.43651838895E-01
1.03500000000E+09 -6.23993726146E-01 +7.37672767215E-01 -4.05810479791E-05 +4.84314791653E-06 +1.50969015374E-05 +3.50505599292E-05 -7.30103274985E-01 +6.47636634740E-01
1.04000000000E+09 -6.20808452505E-01 +7.40620084663E-01 -2.78686304983E-05 -1.43879902345E-05 -2.27671185728E-05 +4.15150398829E-05 -7.26447338841E-01 +6.51389352169E-01
1.04500000000E+09 -6.15928197048E-01 +7.44140894489E-01 -3.92050406807E-05 -2.44641336664E-05 +2.70704513301E-07 -1.60401292958E-05 -7.22907913817E-01 +6.54913626681E-01
1.05000000000E+09 -6.09283762377E-01 +7.48273100772E-01 -1.45992380766E-06 +2.31848509937E-05 -2.51824729023E-05 +5.73252741545E-05 -7.19441696101E-01 +6.58173649511E-01
1.05500000000E+09 -6.01405392927E-01 +7.52691305179E-01 -1.04808335541E-05 +2.24179586807E-06 -4.26209892378E-06 +3.94753504052E-05 -7.16250438849E-01 +6.61823178446E-01
1.06000000000E+09 -5.92957824938E-01 +7.57751701018E-01 +1.74384083857E-05 +4.84745253169E-05 +4.43280851970E-05 +3.89566180419E-05 -7.13138248958E-01 +6.65725375693E-01
1.06500000000E+09 -5.84633612686E-01 +7.62906853779E-01 -1.79928037823E-05 +2.33375214789E-05 +4.46410661174E-05 +1.62455234861E-05 -7.08967685288E-01 +6.69639203081E-01
1.07000000000E+09 -5.77230749951E-01 +7.67296313491E-01 -1.16122794342E-05 +1.31573080905E-05 +1.20412944699E-05 +6.07108698886E-05 -7.05144521819E-01 +6.73086436658E-01
1.07500000000E+09 -5.71442582050E-01 +7.71298615698E-01 -2.72955536215E-06 +2.03800111626E-05 -3.30235589049E-06 +2.02312333143E-05 -7.00914162372E-01 +6.76950962696E-01
1.08000000000E+09 -5.67233379509E-01 +7.74556895038E-01 -3.74465214695E-05 +3.35341296199E-05 -2.25492335917E-05 +2.96261981823E-05 -6.96729463988E-01 +6.80554323779E-01
1.08500000000E+09 -5.64519626386E-01 +7.76990112452E-01 +1.00279683154E-06 +5.73348241499E-05 +3.68511492112E-05 +3.89263118684E-05 -6.93170547392E-01 +6.84289479034E-01
1.09000000000E+09 -5.62419170832E-01 +7.79248901192E-01 -6.34226541570E-06 +2.46788833150E-05 +2.12541445775E-05 +4.26153942006E-05 -6.89464272637E-01 +6.88165856521E-01
1.09500000000E+09 -5.60944538214E-01 +7.81222665431E-01 +5.50317468691E-05 +5.58338468172E-05 +8.43856232647E-06 +2.95216798519E-05 -6.85759117550E-01 +6.91982647454E-01
1.10000000000E+09 -5.58171463752E-01 +7.83070558497E-01 -1.95379341162E-05 +3.38885503891E-05 +3.07745681043E-05 +6.65614629872E-05 -6.81756082842E-01 +6.95759089766E-01
1.10500000000E+09 -5.54509924295E-01 +7.85603661723E-01 +3.30093871726E-05 -1.19520984773E-05 +3.85188861611E-05 +1.01163766318E-05 -6.77454403793E-01 +6.99243637968E-01
1.11000000000E+09 -5.49061909134E-01 +7.88810576194E-01 +5.53696639124E-05 +3.95462027822E-05 +2.25482728800E-06 +7.49284867659E-05 -6.73372605145E-01 +7.02568306385E-01
1.11500000000E+09 -5.42381545874E-01 +7.92732714558E-01 +6.53301430980E-05 +3.17043859741E-05 +4.17052289150E-05 -2.72094771513E-05 -6.69362819986E-01 +7.05943138521E-01
1.12000000000E+09 -5.34925676633E-01 +7.96460097959E-01 +3.20373234030E-05 +1.68187426795E-05 +2.33455397252E-05 +7.27012746945E-05 -6.65309625971E-01 +7.09628434110E-01
1.12500000000E+09 -5.26837075421E-01 +8.00652211645E-01 +6.60001902527E-05 +8.76423164863E-06 +2.70453829978E-05 -1.24178800740E-05 -6.61142986192E-01 +7.13506234164E-01
1.13000000000E+09 -5.19450868323E-01 +8.04306435184E-01 +7.11303272806E-05 +3.59475236866E-05 +6.48349330503E-05 +1.95693189612E-05 -6.56700579017E-01 +7.17364458457E-01
1.13500000000E+09 -5.12835628363E-01 +8.07253895085E-01 +5.34451964351E-05 +4.36607815891E-06 +7.93636032974E-05 +3.47207955603E-05 -6.52123622082E-01 +7.21268982040E-01
1.14000000000E+09 -5.07294312074E-01 +8.09859877008E-01 +1.06756683011E-04 +3.16434262343E-05 +5.35012504328E-05 -5.10110455939E-05 -6.47297193286E-01 +7.24740314004E-01
1.14500000000E+09 -5.03092639348E-01 +8.11702472425E-01 +7.67983592140E-05 +4.08520273721E-05 +1.11436838567E-04 +3.33582873913E-05 -6.42789179557E-01 +7.28202416246E-01
1.15000000000E+09 -4.99347326785E-01 +8.13446728039E-01 +9.34335401876E-05 -7.02675120360E-06 +8.41834439061E-05 -8.67641977889E-06 -6.38141604809E-01 +7.32130849706E-01
1.15500000000E+09 -4.95901877113E-01 +8.15311775400E-01 +1.13164790393E-04 +1.35504961706E-05 +1.05381927638E-04 -1.24839256282E-05 -6.33369548335E-01 +7.35862404746E-01
1.16000000000E+09 -4.91473895837E-01 +8.17250057174E-01 +6.46148046706E-05 +9.71944335846E-06 +1.11221343414E-04 +2.37640450135E-05 -6.28733837168E-01 +7.39598340440E-01
1.16500000000E+09 -4.86324789118E-01 +8.20059284337E-01 +8.30710846957E-05 -2.49998525631E-06 +1.35230209612E-04 +2.49481946990E-05 -6.23719033024E-01 +7.43256425836E-01
1.17000000000E+09 -4.80006269788E-01 +8.23270126071E-01 +1.03049379189E-04 -2.33974896705E-05 +1.30132249236E-04 -4.54461194050E-05 -6.18285086647E-01 +7.46553648780E-01
1.17500000000E+09 -4.72580673754E-01 +8.26676785493E-01 +9.42814234222E-05 -3.35580285624E-05 +1.15165261838E-04 -7.47713232165E-05 -6.12707707017E-01 +7.49803071792E-01
1.18000000000E+09 -4.64890145849E-01 +8.30591525144E-01 +1.17171168124E-04 -7.32395638534E-05 +8.89958835796E-05 -4.24009014410E-05 -6.07416335731E-01 +7.52859190421E-01
1.18500000000E+09 -4.56838494678E-01 +8.33977277147E-01 +1.43476699491E-04 -1.22624188938E-04 +1.55842501435E-04 -1.02418379353E-04 -6.01625010272E-01 +7.55747888431E-01
1.19000000000E+09 -4.49512984381E-01 +8.36598117129E-01 +1.58520039863E-04 -1.22360930519E-04 +1.71884921305E-04 -1.49392662111E-04 -5.95472292901E-01 +7.58411659829E-01
1.19500000000E+09 -4.42874606725E-01 +8.38773835518E-01 +1.58473912046E-04 -1.93563427894E-04 +1.47915952978E-04 -1.93014318754E-04 -5.89647596298E-01 +7.59641156423E-01
1.20000000000E+09 -4.37497970556E-01 +8.39923936245E-01 +4.29095232250E-05 -2.63747437801E-04 +4.13041419612E-05 -2.42700080257E-04 -5.85083959820E-01 +7.59871189401E-01
1.20500000000E+09 -4.32783424504E-01 +8.41329390360E-01 -9.42047530211E-05 -1.96099096329E-04 -7.14057104249E-05 -2.22409270449E-04 -5.82726547016E-01 +7.60852165488E-01
1.21000000000E+09 -4.27942885126E-01 +8.42891976926E-01 -4.55994951531E-05 -8.94340557284E-05 -7.45795005074E-05 -1.10053822207E-04 -5.80583753578E-01 +7.64167306874E-01
1.21500000000E+09 -4.22083765724E-01 +8.44789055641E-01 +1.28779649311E-06 -1.01500403357E-04 -1.49531855056E-05 -1.06452440979E-04 -5.77896821179E-01 +7.68598196562E-01
1.22000000000E+09 -4.15182552836E-01 +8.47002297757E-01 -4.09013270162E-06 -1.36265641950E-04 -3.08393740660E-05 -1.18695267234E-04 -5.73871376868E-01 +7.74008201878E-01
1.22500000000E+09 -4.07133173990E-01 +8.50146511094E-01 +1.36027558592E-05 -1.84726067667E-04 -4.18161766312E-06 -1.19523652421E-04 -5.68860081975E-01 +7.79037758360E-01
1.23000000000E+09 -3.97963279192E-01 +8.53583239087E-01 -2.96045428015E-05 -1.37283983040E-04 -1.21432239073E-06 -1.22760176046E-04 -5.63176562695E-01 +7.83639193132E-01
1.23500000000E+09 -3.88456662404E-01 +8.57212669302E-01 -3.82790417341E-05 -1.60692824766E-04 -4.06738801240E-05 -1.53436300500E-04 -5.57338166490E-01 +7.88020699905E-01
1.24000000000E+09 -3.78917224822E-01 +8.61199093509E-01 -6.72161674633E-05 -2.04118016690E-04 -6.19006755858E-05 -2.14673862683E-04 -5.51204328346E-01 +7.91841083036E-01
1.24500000000E+09 -3.70015530084E-01 +8.65110392104E-01 -7.80285868076E-05 -2.05905468386E-04 -1.24418080883E-04 -1.33843393138E-04 -5.45161882196E-01 +7.95626030063E-01
1.25000000000E+09 -3.61928466605E-01 +8.68098798286E-01 -1.09571409135E-04 -1.96048670951E-04 -8.40661408535E-05 -1.44392113024E-04 -5.38705487685E-01 +7.99866591242E-01
1.25500000000E+09 -3.54799787266E-01 +8.70323614003E-01 -9.16000296026E-05 -1.66699923296E-04 -9.48173557565E-05 -1.73809196416E-04 -5.32058352108E-01 +8.03813451409E-01
1.26000000000E+09 -3.48617062829E-01 +8.71960432809E-01 -1.25010151894E-04 -1.85451011053E-04 -1.42287370798E-04 -2.16845242308E-04 -5.25549806475E-01 +8.08106084705E-01
1.26500000000E+09 -3.42614590880E-01 +8.72999337832E-01 -1.66948850565E-04 -1.95715472540E-04 -1.51185114060E-04 -2.23962340525E-04 -5.18639723729E-01 +8.11863294108E-01
1.27000000000E+09 -3.36354623868E-01 +8.73949605372E-01 -1.98442347699E-04 -2.23955331038E-04 -1.82485402709E-04 -2.64280107052E-04 -5.11679857049E-01 +8.15832096311E-01
1.27500000000E+09 -3.28803515405E-01 +8.75290016084E-01 -2.94505400884E-04 -1.84779242095E-04 -2.67201220588E-04 -2.34191549392E-04 -5.04548133782E-01 +8.19413119470E-01
1.28000000000E+09 -3.19728388667E-01 +8.77116299788E-01 -2.78673853994E-04 -1.41335062153E-04 -3.14367885931E-04 -1.53566838751E-04 -4.97396312834E-01 +8.23092884211E-01
1.28500000000E+09 -3.08702956158E-01 +8.79546737388E-01 -2.99881236409E-04 -1.29277408939E-04 -3.15008746414E-04 -1.34171261050E-04 -4.89982928463E-01 +8.26949164975E-01
1.29000000000E+09 -2.96864013839E-01 +8.82386357491E-01 -3.32743899945E-04 -1.49301524495E-04 -3.77411824929E-04 -1.41079314796E-04 -4.82491353768E-01 +8.30734570187E-01
1.29500000000E+09 -2.84504910057E-01 +8.85768339582E-01 -3.60109145415E-04 -1.02210383339E-04 -3.77702444893E-04 -7.62499561664E-05 -4.74606929716E-01 +8.34113121739E-01
1.30000000000E+09 -2.72352265846E-01 +8.89293890889E-01 -4.26139010266E-04 -7.66252949297E-05 -4.32608343605E-04 +2.84398393422E-06 -4.66723222030E-01 +8.37921064461E-01
1.30500000000E+09 -2.61487155091E-01 +8.92239415107E-01 -4.65317453148E-04 -2.07771167459E-06 -4.32404397032E-04 -1.25368047890E-05 -4.58624306648E-01 +8.41313297704E-01
1.31000000000E+09 -2.52095298292E-01 +8.94582572173E-01 -5.36665859070E-04 +5.52677121864E-05 -5.26396328790E-04 +5.68737618669E-05 -4.50353046090E-01 +8.44799068912E-01
1.31500000000E+09 -2.44628549521E-01 +8.95993354498E-01 -4.79266635665E-04 +1.92416034765E-04 -4.67731707867E-04 +1.33157496314E-04 -4.41706477155E-01 +8.48266314887E-01
1.32000000000E+09 -2.38417107452E-01 +8.96903650256E-01 -4.86275279465E-04 +1.85618803982E-04 -5.17176976570E-04 +1.44973208318E-04 -4.32645635992E-01 +8.51710391362E-01
1.32500000000E+09 -2.32513893635E-01 +8.97024393711E-01 -4.94120659758E-04 +2.06853165135E-04 -5.74716953643E-04 +2.31878173223E-04 -4.23264869251E-01 +8.55011733665E-01
1.33000000000E+09 -2.25747896456E-01 +8.97047172051E-01 -5.55451682797E-04 +2.26356863223E-04 -5.44713398810E-04 +3.43247380619E-04 -4.13827798438E-01 +8.58386180036E-01
1.33500000000E+09 -2.17154217912E-01 +8.96996723804E-01 -5.81008420096E-04 +4.01196321211E-04 -5.62923910585E-04 +4.43713061594E-04 -4.04040604982E-01 +8.61515743515E-01
1.34000000000E+09 -2.06064461575E-01 +8.97259556307E-01 -5.82111327825E-04 +5.30995594108E-04 -5.24369783820E-04 +4.90266387493E-04 -3.93814716236E-01 +8.64826904824E-01
1.34500000000E+09 -1.92550381159E-01 +8.97563962828E-01 -5.21941691316E-04 +6.39747935711E-04 -4.87075775393E-04 +6.18647055721E-04 -3.82922289464E-01 +8.68143399565E-01
1.35000000000E+09 -1.76878935870E-01 +8.98135962386E-01 -3.97524495091E-04 +7.00218814687E-04 -4.03213209121E-04 +6.90198641184E-04 -3.71892744883E-01 +8.71316344464E-01
1.35500000000E+09 -1.60017879352E-01 +8.98894714552E-01 -3.48426205407E-04 +7.60596123900E-04 -4.04254541917E-04 +7.44811722063E-04 -3.60290966787E-01 +8.74193206028E-01
1.36000000000E+09 -1.43006250431E-01 +8.99540973224E-01 -3.35057763587E-04 +8.25641756797E-04 -2.81358074005E-04 +8.20544932170E-04 -3.48392178705E-01 +8.77107829412E-01
1.36500000000E+09 -1.27019874650E-01 +8.99877928831E-01 -2.59344166750E-04 +8.98631572933E-04 -2.09609120959E-04 +8.70335996604E-04 -3.36296478637E-01 +8.79538312520E-01
1.37000000000E+09 -1.12691149502E-01 +8.99539900219E-01 -1.68854215320E-04 +1.07472725003E-03 -2.24717373576E-04 +1.00931442749E-03 -3.23452176121E-01 +8.81941252263E-01
1.37500000000E+09 -1.00252203961E-01 +8.98931650991E-01 +7.22693098000E-05 +1.09256503492E-03 -8.81781296384E-05 +1.07289743791E-03 -3.09684982461E-01 +8.84401358864E-01
1.38000000000E+09 -8.89230402780E-02 +8.97839661481E-01 +1.32336656138E-04 +1.10780399148E-03 +9.71011318138E-07 +1.17343520258E-03 -2.94909313428E-01 +8.86627408323E-01
1.38500000000E+09 -7.74837385195E-02 +8.96252360911E-01 +2.35587129949E-04 +1.23057518007E-03 +1.16898315525E-04 +1.37157808367E-03 -2.79452586769E-01 +8.88645967895E-01
1.39000000000E+09 -6.54033175033E-02 +8.93969080107E-01 +3.18161560743E-04 +1.29651361088E-03 +3.99959291529E-04 +1.46232069230E-03 -2.63534449518E-01 +8.90244628361E-01
1.39500000000E+09 -5.11316583580E-02 +8.91147889298E-01 +5.99913581042E-04 +1.31138538355E-03 +7.47119573245E-04 +1.43752003163E-03 -2.46840848818E-01 +8.91009155569E-01
1.40000000000E+09 -3.44455316207E-02 +8.87385620531E-01 +7.31931437990E-04 +1.38638968780E-03 +8.57217136233E-04 +1.36718428099E-03 -2.29419981851E-01 +8.91499521797E-01
1.40500000000E+09 -1.54334550934E-02 +8.82839396586E-01 +9.73737791909E-04 +1.55318753668E-03 +1.06302813329E-03 +1.41221385755E-03 -2.11093442292E-01 +8.91321324592E-01
1.41000000000E+09 +5.74315319476E-03 +8.77765721616E-01 +1.36278505306E-03 +1.43456847287E-03 +1.34466911768E-03 +1.41496405945E-03 -1.90808605833E-01 +8.90960919960E-01
1.41500000000E+09 +2.80772929221E-02 +8.71583211142E-01 +1.65807641880E-03 +1.33294290303E-03 +1.73022847019E-03 +1.47075156204E-03 -1.69049372850E-01 +8.89324985411E-01
1.42000000000E+09 +5.07620897802E-02 +8.64420595894E-01 +1.94808662880E-03 +1.17980263546E-03 +2.07864349715E-03 +1.27387562723E-03 -1.46025305237E-01 +8.86911957520E-01
1.42500000000E+09 +7.25380159820E-02 +8.56378102701E-01 +2.13541712697E-03 +1.06324204339E-03 +2.48169837592E-03 +1.00781808637E-03 -1.22420449918E-01 +8.83170188977E-01
1.43000000000E+09 +9.37200107916E-02 +8.47304206039E-01 +2.59516000486E-03 +1.00341992325E-03 +2.99163489208E-03 +8.04147016663E-04 -9.75674990579E-02 +8.78513919245E-01
1.43500000000E+09 +1.14396849285E-01 +8.36664214897E-01 +3.22081097980E-03 +6.43119801505E-04 +3.32366139565E-03 +2.70196238747E-04 -7.10353930779E-02 +8.71728493995E-01
1.44000000000E+09 +1.35344043346E-01 +8.24779741126E-01 +3.61121416861E-03 -1.56229135981E-04 +3.61512312392E-03 -4.25578007367E-04 -4.30697774059E-02 +8.62985345430E-01
1.44500000000E+09 +1.57996189332E-01 +8.09726020522E-01 +3.68372373317E-03 -8.24898060899E-04 +3.67782845602E-03 -1.05086113705E-03 -1.28216589288E-02 +8.51552543768E-01
1.45000000000E+09 +1.82263222460E-01 +7.91621872141E-01 +3.60884408802E-03 -1.37722082628E-03 +3.63997925527E-03 -1.65752870630E-03 +1.90143231869E-02 +8.37179220277E-01
1.45500000000E+09 +2.08808410205E-01 +7.69770060977E-01 +3.77392583781E-03 -1.87412406818E-03 +3.58277166385E-03 -2.20679100425E-03 +5.24205594204E-02 +8.19882315348E-01
1.46000000000E+09 +2.37822266087E-01 +7.43949344871E-01 +3.96842301358E-03 -2.55272138047E-03 +3.54687046074E-03 -2.78892890426E-03 +8.72671303962E-02 +7.97997328398E-01
1.46500000000E+09 +2.68493624722E-01 +7.13447759120E-01 +4.30802512445E-03 -3.63000616723E-03 +3.74520423612E-03 -3.58617565062E-03 +1.23232816114E-01 +7.71295570450E-01
1.47000000000E+09 +2.99723292443E-01 +6.78359839507E-01 +4.02637264892E-03 -5.29588321531E-03 +3.66865314431E-03 -4.83016666173E-03 +1.60168148234E-01 +7.37186773431E-01
1.47500000000E+09 +3.30117384747E-01 +6.38048619991E-01 +2.84675038900E-03 -6.74279763329E-03 +2.98193397699E-03 -6.32936062592E-03 +1.96531727275E-01 +6.96550459376E-01
1.48000000000E+09 +3.58212620311E-01 +5.91283505909E-01 +1.59737825418E-03 -7.68792327292E-03 +1.84187070279E-03 -7.65102054511E-03 +2.33114585319E-01 +6.47134666514E-01
1.48500000000E+09 +3.81169188140E-01 +5.38225457981E-01 +1.05607976588E-04 -8.79208283045E-03 -1.69296187109E-05 -8.99387364840E-03 +2.66275825049E-01 +5.88788566754E-01
1.49000000000E+09 +3.99007720883E-01 +4.77710097531E-01 -2.01916304634E-03 -9.52954137160E-03 -2.45693519208E-03 -9.39791757719E-03 +2.94953999572E-01 +5.19781885443E-01
1.49500000000E+09 +4.08560590463E-01 +4.09395045292E-01 -4.76702044767E-03 -9.64773680408E-03 -4.93776875175E-03 -9.01456116171E-03 +3.12770614004E-01 +4.40569535844E-01
1.50000000000E+09 +4.08785099940E-01 +3.32326975398E-01 -7.49600628754E-03 -9.15692710381E-03 -7.07332291624E-03 -8.61742204991E-03 +3.18298677084E-01 +3.52962756742E-01
1.50500000000E+09 +3.96232481300E-01 +2.46922719582E-01 -1.07301683010E-02 -7.40538290787E-03 -1.00409371619E-02 -7.40898652966E-03 +3.08463942058E-01 +2.56939086482E-01
1.51000000000E+09 +3.67665436944E-01 +1.56362766953E-01 -1.27146949819E-02 -4.05547161181E-03 -1.23753028489E-02 -4.54265422783E-03 +2.77157384242E-01 +1.55248837189E-01
1.51500000000E+09 +3.19559600919E-01 +6.49026848845E-02 -1.39466355113E-02 -1.42433118128E-03 -1.40339821592E-02 -1.84996316476E-03 +2.21258529170E-01 +5.97172824029E-02
1.52000000000E+09 +2.51489150709E-01 -1.75722854823E-02 -1.53925892743E-02 +2.60572091748E-03 -1.56657032885E-02 +2.46976312049E-03 +1.46945871402E-01 -2.50609902078E-02
1.52500000000E+09 +1.66832257636E-01 -8.66526835078E-02 -1.38315004417E-02 +8.58116384013E-03 -1.40941002875E-02 +8.60290145730E-03 +5.40721705551E-02 -9.38533724400E-02
1.53000000000E+09 +6.76676090743E-02 -1.35734458155E-01 -9.71044953165E-03 +1.14198183648E-02 -9.80553163437E-03 +1.14644256027E-02 -5.25510166290E-02 -1.38732145614E-01
1.53500000000E+09 -3.99838422505E-02 -1.60241372535E-01 -6.40882864334E-03 +1.33612453370E-02 -6.43125721902E-03 +1.33683113368E-02 -1.61938179844E-01 -1.59667381134E-01
1.54000000000E+09 -1.49341759944E-01 -1.58901478054E-01 -2.35798717429E-03 +1.37652689450E-02 -2.43109955827E-03 +1.36368099241E-02 -2.69552809071E-01 -1.57863414464E-01
1.54500000000E+09 -2.52096911656E-01 -1.34538515262E-01 +1.49869122888E-03 +1.32912580073E-02 +1.19542158234E-03 +1.31745804609E-02 -3.68015724974E-01 -1.36977251745E-01
1.55000000000E+09 -3.45426723822E-01 -9.35355907429E-02 +4.16722461910E-03 +1.16883196965E-02 +3.69162645105E-03 +1.18635670111E-02 -4.54137278895E-01 -1.00789453096E-01
1.55500000000E+09 -4.25041945258E-01 -3.83714840116E-02 +7.10109510033E-03 +9.58301080333E-03 +6.84646156982E-03 +1.01205586873E-02 -5.25486428204E-01 -5.42062396438E-02
1.56000000000E+09 -4.88380780729E-01 +2.08789612924E-02 +8.32558492509E-03 +6.21173788807E-03 +8.48752848871E-03 +6.78907077157E-03 -5.83697028868E-01 -1.82245757048E-03
1.56500000000E+09 -5.38591144275E-01 +8.14898416272E-02 +8.06478475196E-03 +4.05124340005E-03 +8.47451113766E-03 +4.41562287027E-03 -6.28283177198E-01 +5.38042601429E-02
1.57000000000E+09 -5.76957082805E-01 +1.40433384580E-01 +7.86931909109E-03 +2.16913343613E-03 +8.43133417187E-03 +2.19263932031E-03 -6.62329410454E-01 +1.07177112964E-01
