# Hz S RI R 50
! CMT, C1220, 16058040, 17.2.0/1
! Date: 14/08/2018 12:30:31
! Data: Format (Calibration Info)
! Freq                      S11: Re/Im (F2)                       S21: Re/Im (F2)                       S12: Re/Im (F2)                       S22: Re/Im (F2)            
1.00000000000E+09 -6.28008897485E-01 +7.09333068009E-01 -1.24685421749E-05 -6.01911030088E-06 -1.69164687348E-05 -7.84824708060E-06 -7.53147509554E-01 +6.24112984743E-01
1.00500000000E+09 -6.20779855309E-01 +7.14272700243E-01 -3.15984362531E-05 -1.01494815922E-05 -3.54176746290E-05 -8.31933219387E-06 -7.49537689575E-01 +6.28184656759E-01
1.01000000000E+09 -6.15009305731E-01 +7.18928998782E-01 -1.01155475289E-05 -6.08885033530E-05 +7.37085950936E-05 -6.31412280970E-06 -7.46064167086E-01 +6.31668192694E-01
1.01500000000E+09 -6.10696409745E-01 +7.22648297996E-01 -2.82722161840E-05 +1.05040571386E-05 -8.54940495092E-07 -8.68670236900E-06 -7.42876988060E-01 +6.35403529027E-01
1.02000000000E+09 -6.07803200476E-01 +7.25896187889E-01 +3.57538197541E-05 -1.73084887033E-05 -7.59438059148E-06 +4.92727972660E-05 -7.39577557694E-01 +6.38936768017E-01
1.02500000000E+09 -6.05733771809E-01 +7.28335233348E-01 -9.20446812781E-06 +2.01300322891E-05 +1.58327110893E-05 -3.45376851080E-05 -7.36676635099E-01 +6.42626051309E-01
1.03000000000E+09 -6.04355873833E-01 +7.30624176752E-01 +7.68834053274E-06 +1.28542281265E-05 -1.18395888790E-05 -1.02129636919E-05 -7.33299620921E-01 +6.46517981496E-01
1.03500000000E+09 -6.02083623271E-01 +7.32758689620E-01 -3.97425427535E-05 +4.87395561425E-05 +4.96577054681E-06 +1.11315996708E-05 -7.29367658972E-01 +6.50371468015E-01
1.04000000000E+09 -5.98440537544E-01 +7.35311357678E-01 -3.83568172032E-05 +6.21627793755E-05 -1.23129292128E-05 +5.77978631575E-05 -7.25673804869E-01 +6.53949509660E-01
1.04500000000E+09 -5.93143406259E-01 +7.38532248230E-01 +5.05547411178E-05 +4.34133551553E-05 -5.00312908637E-05 -1.56406845279E-06 -7.21912241540E-01 +6.57531484543E-01
1.05000000000E+09 -5.86001003097E-01 +7.42614619496E-01 -3.93938086064E-05 -1.22297710417E-06 -1.39204360186E-05 -6.70085299079E-06 -7.18646126632E-01 +6.60887876053E-01
1.05500000000E+09 -5.77568990214E-01 +7.47282225480E-01 -1.40146341903E-05 -1.58884089726E-05 -3.46445994311E-05 +7.83417052772E-05 -7.15361512069E-01 +6.64447639967E-01
1.06000000000E+09 -5.68512401677E-01 +7.52680909612E-01 +7.92297854688E-06 +2.36891294428E-05 -2.10888804170E-05 +1.47578448724E-05 -7.12056650521E-01 +6.68357270010E-01
1.06500000000E+09 -5.59696802100E-01 +7.57791508025E-01 +2.84587376992E-05 +4.70705091366E-05 -3.41080781193E-05 +2.32399519129E-05 -7.08142777598E-01 +6.72158232554E-01
1.07000000000E+09 -5.51925387483E-01 +7.62343999297E-01 -2.72241876099E-05 +1.06265852744E-05 -5.91619521696E-05 +1.62974974665E-05 -7.04294052606E-01 +6.75924942751E-01
1.07500000000E+09 -5.45701692240E-01 +7.66378766819E-01 +1.94169575517E-05 +1.35673274684E-05 -3.16009174628E-06 +3.63396095245E-05 -6.99843315367E-01 +6.79754645774E-01
1.08000000000E+09 -5.41314357658E-01 +7.69676995638E-01 -7.51124658288E-07 +1.90349497081E-05 +3.69956651401E-05 +2.63498631062E-05 -6.96032902665E-01 +6.83343889299E-01
1.08500000000E+09 -5.38502131407E-01 +7.72077339223E-01 +1.21066369997E-07 +8.06356867117E-05 +5.64047463592E-05 -2.40242034934E-05 -6.92200505546E-01 +6.86939902977E-01
1.09000000000E+09 -5.36295341999E-01 +7.74054311866E-01 +4.72532688681E-05 +1.46709928603E-05 +2.69289525551E-05 +2.00670911835E-05 -6.88477926754E-01 +6.90776061901E-01
1.09500000000E+09 -5.34629964395E-01 +7.75695804746E-01 -3.62642700858E-05 +2.46657949851E-05 +4.53242950211E-05 +2.85019878237E-05 -6.84525194169E-01 +6.94711531186E-01
1.10000000000E+09 -5.31747631947E-01 +7.77578874820E-01 +5.62766131704E-05 -4.14016196717E-06 +4.26983348428E-05 +6.57892041099E-05 -6.80668777833E-01 +6.98461234278E-01
1.10500000000E+09 -5.27906026312E-01 +7.79950193120E-01 +6.67383797068E-06 -2.82862634935E-05 -7.99952623858E-06 -1.04916950148E-05 -6.76335991285E-01 +7.02001694009E-01
1.11000000000E+09 -5.22270162460E-01 +7.83000693485E-01 -4.64016068730E-05 -2.36711007954E-05 +2.67526797356E-05 +5.90091013731E-06 -6.72196702519E-01 +7.05301430682E-01
1.11500000000E+09 -5.15447138332E-01 +7.86789447132E-01 +4.09203143935E-06 -3.09937350182E-05 +2.21139721001E-05 +3.43428061801E-05 -6.68238209365E-01 +7.08770731418E-01
1.12000000000E+09 -5.07928932243E-01 +7.90724098393E-01 -8.90630384244E-06 +2.21014433560E-05 +9.42374475791E-06 +2.44308900477E-05 -6.64031686035E-01 +7.12472661256E-01
1.12500000000E+09 -4.99976071297E-01 +7.94781463457E-01 +4.56255091975E-05 +2.17149990800E-05 +4.43074025532E-05 +3.89201432091E-05 -6.59980120138E-01 +7.16323580628E-01
1.13000000000E+09 -4.92679810237E-01 +7.98294021735E-01 +1.42547912235E-05 -3.13933996605E-05 +2.96147780411E-05 +2.85899510720E-05 -6.55447885717E-01 +7.20150848750E-01
1.13500000000E+09 -4.86107467066E-01 +8.01213175481E-01 +3.30315530208E-05 +2.13921222956E-05 +6.29989738180E-05 +5.88808081775E-05 -6.50866693122E-01 +7.24018906492E-01
1.14000000000E+09 -4.80702715619E-01 +8.03470579720E-01 +6.74114464804E-05 +3.67961402958E-05 +5.27566559063E-05 -4.65829328502E-06 -6.46275416783E-01 +7.27492393473E-01
1.14500000000E+09 -4.76468002220E-01 +8.04980742643E-01 +6.87013354816E-05 -2.15068000179E-05 +5.10505676570E-05 -5.60007674852E-05 -6.41468077052E-01 +7.30805230615E-01
1.15000000000E+09 -4.72765718663E-01 +8.06322123589E-01 +1.23344698241E-04 -1.92139150655E-05 +9.69422023084E-05 +8.49926207421E-06 -6.36942987778E-01 +7.34738792138E-01
1.15500000000E+09 -4.68929725363E-01 +8.07931188163E-01 +4.98557068466E-05 +1.97900299485E-05 +2.35568727481E-05 -1.11405514545E-05 -6.32160033812E-01 +7.38624347343E-01
1.16000000000E+09 -4.64196974910E-01 +8.09572034174E-01 +4.71618777481E-05 -2.54659935167E-05 +5.97627602399E-05 +1.56548628312E-05 -6.27235631756E-01 +7.42309016899E-01
1.16500000000E+09 -4.58424436925E-01 +8.12144223933E-01 +5.72237708182E-05 -3.68385228552E-07 +9.81995870891E-05 -8.74435694014E-06 -6.22322007908E-01 +7.46090120163E-01
1.17000000000E+09 -4.51700859835E-01 +8.15143163753E-01 +8.45053520418E-06 -2.53512138419E-06 +7.01906795821E-05 -2.96173356516E-06 -6.17005766856E-01 +7.49354641535E-01
1.17500000000E+09 -4.44121742550E-01 +8.18357758415E-01 +6.82679073506E-05 -4.41346297411E-05 +6.25691000767E-05 -4.02407832919E-05 -6.11332517053E-01 +7.52495153292E-01
1.18000000000E+09 -4.36292294845E-01 +8.22053367498E-01 +4.88062799939E-05 -7.69051151714E-05 +2.16611131706E-05 -2.40794581891E-05 -6.05811658901E-01 +7.55551378635E-01
1.18500000000E+09 -4.28596037431E-01 +8.25289497127E-01 +4.83307813592E-05 -7.29835389750E-05 +2.58760309655E-05 -5.26300159968E-05 -5.99929078357E-01 +7.58529847831E-01
1.19000000000E+09 -4.21624731528E-01 +8.27966482107E-01 +5.03481053333E-05 -7.64814469682E-05 +7.30269102636E-05 -1.17762811079E-04 -5.93871216238E-01 +7.61230978317E-01
1.19500000000E+09 -4.15384618605E-01 +8.29816435216E-01 +2.98298900795E-05 -1.30594281412E-04 +2.98541290386E-05 -7.11294906242E-05 -5.87914950047E-01 +7.62339082034E-01
1.20000000000E+09 -4.10272457113E-01 +8.30638297608E-01 -2.65913470819E-05 -1.27833484653E-04 -2.81067120850E-05 -1.44663437004E-04 -5.83504103532E-01 +7.62373432349E-01
1.20500000000E+09 -4.05599558044E-01 +8.31642049456E-01 -2.77492067829E-05 -1.11197514090E-04 -6.97315336228E-05 -1.11702374213E-04 -5.81158723770E-01 +7.63460792894E-01
1.21000000000E+09 -4.00517403334E-01 +8.32531866387E-01 -7.23434401625E-05 -7.78148870676E-05 -6.55723723358E-05 -8.68077332170E-05 -5.79251388388E-01 +7.66624077405E-01
1.21500000000E+09 -3.94274158572E-01 +8.33732495017E-01 -9.04804185479E-05 +2.56278203513E-05 -5.19874341286E-05 -8.85881052008E-05 -5.76219442238E-01 +7.71241994622E-01
1.22000000000E+09 -3.86483848326E-01 +8.35557051324E-01 -2.40972686468E-05 -5.16630859818E-06 -7.13071536053E-05 -6.12723104159E-05 -5.72015397134E-01 +7.76742487680E-01
1.22500000000E+09 -3.77425756633E-01 +8.38252481460E-01 -1.40282932791E-05 -3.08182795416E-05 -3.72474229194E-05 -8.57748599184E-05 -5.66788315668E-01 +7.81794299059E-01
1.23000000000E+09 -3.67108155062E-01 +8.41467638388E-01 -2.42633903787E-05 -3.09074826180E-05 -4.33004231111E-06 -2.86860141875E-05 -5.61200738354E-01 +7.86412057175E-01
1.23500000000E+09 -3.56811741104E-01 +8.44918456422E-01 -2.13932545018E-05 -4.77867141504E-05 -2.68486715176E-05 -6.39497279149E-05 -5.55412085233E-01 +7.90649932633E-01
1.24000000000E+09 -3.46607725994E-01 +8.48811905826E-01 +2.51288370948E-06 -7.75575598617E-05 -1.81520134597E-05 -7.97840020151E-05 -5.49482131796E-01 +7.94490586426E-01
1.24500000000E+09 -3.37391991523E-01 +8.52851398507E-01 -4.86232772298E-05 -4.23211653776E-05 -5.33438320102E-05 -9.44054585648E-05 -5.43263132351E-01 +7.98268514015E-01
1.25000000000E+09 -3.29458762529E-01 +8.56131392350E-01 -2.16853568650E-05 -5.63081942260E-05 -4.65370194479E-05 -7.73979194428E-05 -5.36757697058E-01 +8.02481052419E-01
1.25500000000E+09 -3.22493433298E-01 +8.58247032108E-01 -7.48788167001E-05 -6.25962340489E-05 -8.11143206090E-05 -2.51119998752E-05 -5.29879420052E-01 +8.06527509513E-01
1.26000000000E+09 -3.16677991355E-01 +8.59703111334E-01 -1.02187911733E-04 -3.57637135062E-05 -1.16782470218E-04 -5.69290186245E-05 -5.23337882044E-01 +8.10744648811E-01
1.26500000000E+09 -3.11405908660E-01 +8.60263147966E-01 -1.02970221759E-04 -3.33265482116E-05 -1.03541672421E-04 +9.37197112577E-06 -5.16398116290E-01 +8.14606250978E-01
1.27000000000E+09 -3.05391607181E-01 +8.60678774817E-01 -7.71043215006E-05 -1.30352457947E-05 -5.17118062960E-05 -1.78734159440E-05 -5.09449629201E-01 +8.18364882251E-01
1.27500000000E+09 -2.98321045088E-01 +8.61207253861E-01 -8.42166827019E-05 -3.24244839652E-05 -9.77180289372E-05 +1.31243867731E-05 -5.02290610506E-01 +8.21981948320E-01
1.28000000000E+09 -2.89280695217E-01 +8.62322030004E-01 -1.19572768635E-04 +5.25961061951E-05 -7.32776901254E-05 +1.88393720591E-05 -4.95277492610E-01 +8.25506689960E-01
1.28500000000E+09 -2.78306911391E-01 +8.64028401265E-01 -9.38459555236E-05 +2.73789922938E-06 -1.23540980122E-04 -4.17699225454E-06 -4.87800858617E-01 +8.29358496847E-01
1.29000000000E+09 -2.66373676415E-01 +8.66360535226E-01 -9.55578562164E-05 -2.20683728197E-06 -1.34331101011E-04 +1.30529637649E-05 -4.80144044883E-01 +8.33031677173E-01
1.29500000000E+09 -2.53905048754E-01 +8.69502592693E-01 -1.11915658014E-04 +1.17100074193E-05 -1.43189892318E-04 -8.77968601310E-06 -4.72330904167E-01 +8.36642248745E-01
1.30000000000E+09 -2.41662610470E-01 +8.73036146696E-01 -1.33137469728E-04 +1.53535881073E-05 -1.22487342991E-04 -1.12295969271E-06 -4.64456766199E-01 +8.39993952211E-01
1.30500000000E+09 -2.30565791259E-01 +8.76366248684E-01 -1.20640836427E-04 +1.86765827179E-05 -1.26399057894E-04 +5.93793066064E-05 -4.56284330810E-01 +8.43544593303E-01
1.31000000000E+09 -2.21263772802E-01 +8.78747373923E-01 -1.26951868530E-04 +6.34093900306E-05 -9.50334795494E-05 +8.50300596843E-05 -4.48139324817E-01 +8.47007734614E-01
1.31500000000E+09 -2.13729761595E-01 +8.80096770243E-01 -1.11952162939E-04 +1.72455620913E-05 -4.76769371630E-05 +9.13460829027E-07 -4.39390524611E-01 +8.50487631509E-01
1.32000000000E+09 -2.07677112804E-01 +8.80295920598E-01 -1.04666576999E-04 +2.72275393614E-05 -7.96514900639E-05 +3.66908190017E-05 -4.30224394453E-01 +8.53799843472E-01
1.32500000000E+09 -2.01979029844E-01 +8.79796104742E-01 -1.26957442784E-04 +8.39646505638E-05 -1.40617943644E-04 +3.28880139202E-05 -4.20813542609E-01 +8.57096641773E-01
1.33000000000E+09 -1.95450244376E-01 +8.78788080756E-01 -1.06816382648E-04 +1.49432892573E-05 -1.61549015634E-04 +2.72131158974E-05 -4.11135237022E-01 +8.60419426457E-01
1.33500000000E+09 -1.87104754369E-01 +8.77591464415E-01 -1.78961882339E-04 +6.15584994484E-05 -1.50213382401E-04 +7.13508048142E-05 -4.01464991742E-01 +8.63490449313E-01
1.34000000000E+09 -1.76305626027E-01 +8.76856844572E-01 -1.10569452747E-04 +1.33054637926E-04 -1.32961772665E-04 +1.28890361899E-04 -3.91385109749E-01 +8.66834982241E-01
1.34500000000E+09 -1.63021749002E-01 +8.76207457007E-01 -1.30062924836E-04 +1.59785919564E-04 -1.21074602611E-04 +1.47822738172E-04 -3.80428308078E-01 +8.70010230056E-01
1.35000000000E+09 -1.47993671796E-01 +8.76266809293E-01 -1.22791736107E-04 +1.72747677703E-04 -7.40345605816E-05 +1.93445413385E-04 -3.69279576700E-01 +8.73146299980E-01
1.35500000000E+09 -1.31498071140E-01 +8.77053637555E-01 -1.39656622813E-04 +1.63613665219E-04 -1.02072779621E-04 +1.99052952971E-04 -3.57540908564E-01 +8.76091277003E-01
1.36000000000E+09 -1.15072417438E-01 +8.78148788392E-01 -1.21684192239E-04 +2.20496444307E-04 -1.11042292575E-04 +2.18704730632E-04 -3.45602303811E-01 +8.78761848317E-01
1.36500000000E+09 -9.93234245831E-02 +8.79072459653E-01 -9.46834081535E-05 +2.95712997644E-04 -8.73175376665E-05 +3.17655756808E-04 -3.33400698826E-01 +8.81311007730E-01
1.37000000000E+09 -8.51384575065E-02 +8.79172340722E-01 -7.81402043897E-05 +3.25010645617E-04 -5.39935027453E-05 +2.93852350362E-04 -3.20548065235E-01 +8.83627397649E-01
1.37500000000E+09 -7.30445815361E-02 +8.78555910670E-01 +3.88465798322E-05 +3.94619148087E-04 -5.20816365281E-05 +3.99342358138E-04 -3.06895190935E-01 +8.85834845287E-01
1.38000000000E+09 -6.22314224225E-02 +8.77313144123E-01 +1.42060094705E-04 +3.32184652284E-04 +7.25867952666E-05 +3.63555317256E-04 -2.92280292436E-01 +8.88073379720E-01
1.38500000000E+09 -5.13997788195E-02 +8.75186214087E-01 +1.56119174279E-04 +3.60684980308E-04 +1.65918288934E-04 +3.78654675295E-04 -2.76776393676E-01 +8.89815479538E-01
1.39000000000E+09 -3.97526994462E-02 +8.72064311519E-01 +2.00866794678E-04 +2.87838280013E-04 +2.13204834498E-04 +3.24037115732E-04 -2.60954687481E-01 +8.91307276087E-01
1.39500000000E+09 -2.59915316088E-02 +8.68211266234E-01 +2.02483155113E-04 +2.87310914805E-04 +2.59144733949E-04 +2.61725601188E-04 -2.44180759613E-01 +8.92085639482E-01
1.40000000000E+09 -9.68283540349E-03 +8.63518965398E-01 +2.45648015674E-04 +3.33899950232E-04 +2.49199971800E-04 +3.52738828418E-04 -2.26809069866E-01 +8.92345138366E-01
1.40500000000E+09 +8.69732328659E-03 +8.58332104610E-01 +3.14679950376E-04 +3.61829618351E-04 +3.27893687028E-04 +3.42580516062E-04 -2.08481752872E-01 +8.92149629652E-01
1.41000000000E+09 +2.91013082034E-02 +8.53050420368E-01 +3.74524267076E-04 +3.14732410649E-04 +3.76300295790E-04 +3.16993675772E-04 -1.88595141047E-01 +8.91452084071E-01
1.41500000000E+09 +5.07974535035E-02 +8.47620538859E-01 +5.09494141217E-04 +2.92288321492E-04 +4.93037920846E-04 +3.17215425728E-04 -1.67175889682E-01 +8.90151189948E-01
1.42000000000E+09 +7.31085169721E-02 +8.41591168324E-01 +5.63444001441E-04 +1.31978770806E-04 +6.21221833235E-04 +1.72880722889E-04 -1.44336457940E-01 +8.87422621333E-01
1.42500000000E+09 +9.46716438654E-02 +8.34392950812E-01 +5.36901163461E-04 +1.32343833437E-04 +5.84802540465E-04 +1.16427347446E-04 -1.20812267055E-01 +8.83953596045E-01
1.43000000000E+09 +1.15098505959E-01 +8.25864532797E-01 +7.12306777441E-04 +1.49679656978E-04 +7.35212480603E-04 +1.15882384896E-04 -9.61900678575E-02 +8.79364783577E-01
1.43500000000E+09 +1.34633600166E-01 +8.15731401322E-01 +7.53682535376E-04 -9.13781707493E-05 +7.66580639963E-04 -1.44389080187E-04 -6.99344780716E-02 +8.72999600332E-01
1.44000000000E+09 +1.54410124012E-01 +8.03598655384E-01 +6.88317298473E-04 -1.73611484091E-04 +6.51358706245E-04 -2.13336174031E-04 -4.17974412510E-02 +8.64688193728E-01
1.44500000000E+09 +1.75363653377E-01 +7.88555361368E-01 +7.83509946936E-04 -2.05707715753E-04 +7.40605806193E-04 -2.47232140647E-04 -1.14997760034E-02 +8.53691096414E-01
1.45000000000E+09 +1.98149800019E-01 +7.70339620388E-01 +8.01827322039E-04 -3.59717520413E-04 +7.78660814228E-04 -4.54140501357E-04 +2.04720735124E-02 +8.39305768168E-01
1.45500000000E+09 +2.23339830248E-01 +7.48459413700E-01 +8.57883549612E-04 -4.24493632502E-04 +8.22443406167E-04 -5.08765092740E-04 +5.40187817837E-02 +8.21803188838E-01
1.46000000000E+09 +2.51299310012E-01 +7.22394514925E-01 +1.01659893381E-03 -6.77535934680E-04 +8.76082946988E-04 -7.58737598743E-04 +8.86344137662E-02 +8.00550189527E-01
1.46500000000E+09 +2.80640717817E-01 +6.92790542499E-01 +9.36271953485E-04 -1.12030633721E-03 +7.58549911933E-04 -1.09645780221E-03 +1.24946112793E-01 +7.73868921483E-01
1.47000000000E+09 +3.11689387056E-01 +6.59334274128E-01 +5.83204425894E-04 -1.44305861375E-03 +4.96936246128E-04 -1.30864523558E-03 +1.61698798045E-01 +7.40939144334E-01
1.47500000000E+09 +3.42435108431E-01 +6.20415354335E-01 +1.80642449793E-04 -1.54855134993E-03 +2.22342300863E-04 -1.41340090835E-03 +2.00007068341E-01 +7.00698973891E-01
1.48000000000E+09 +3.70846987045E-01 +5.75560606879E-01 +7.51462684351E-05 -1.43845843993E-03 +7.36958215959E-05 -1.39988867982E-03 +2.37199976174E-01 +6.50999427090E-01
1.48500000000E+09 +3.94329422190E-01 +5.24541689976E-01 +6.49112439811E-05 -1.67089940668E-03 +3.29613938524E-05 -1.72293241650E-03 +2.71794387011E-01 +5.92126642797E-01
1.49000000000E+09 +4.12518962685E-01 +4.65977271662E-01 -4.85099606385E-04 -2.03050114335E-03 -5.27131921317E-04 -2.04745935039E-03 +3.01028079100E-01 +5.22482001523E-01
1.49500000000E+09 +4.22546630835E-01 +3.99274115823E-01 -9.93921933654E-04 -2.12199869332E-03 -1.01266806293E-03 -1.95356878859E-03 +3.20410354062E-01 +4.42429987551E-01
1.50000000000E+09 +4.23655325856E-01 +3.23445115258E-01 -1.80199171233E-03 -2.39062187968E-03 -1.59499399361E-03 -2.24932851404E-03 +3.26598778697E-01 +3.51809464236E-01
1.50500000000E+09 +4.12103481360E-01 +2.38161333274E-01 -3.19458764388E-03 -1.69595303593E-03 -2.98708525481E-03 -1.73853691323E-03 +3.15622470688E-01 +2.54623740554E-01
1.51000000000E+09 +3.83425835367E-01 +1.47014147052E-01 -3.37304032595E-03 +3.15110621483E-05 -3.32269650216E-03 -9.39981137143E-05 +2.84489683132E-01 +1.52235661231E-01
1.51500000000E+09 +3.36291957832E-01 +5.58499466421E-02 -2.98376219230E-03 +6.11919713919E-04 -2.99120846439E-03 +5.31928242629E-04 +2.29014184344E-01 +5.27983470717E-02
1.52000000000E+09 +2.69341563350E-01 -2.89581883178E-02 -2.85657037242E-03 +1.50112608758E-03 -2.93209832288E-03 +1.46391432937E-03 +1.51038562223E-01 -3.44858848220E-02
1.52500000000E+09 +1.84336042760E-01 -9.98823880634E-02 -1.87060680330E-03 +2.23435108418E-03 -1.91663526491E-03 +2.22444136078E-03 +5.46656807997E-02 -1.03592218826E-01
1.53000000000E+09 +8.27434911232E-02 -1.49589489768E-01 -1.39082456824E-03 +1.85441343213E-03 -1.40488519027E-03 +1.93213196886E-03 -5.43208396198E-02 -1.49147163004E-01
1.53500000000E+09 -2.67131854672E-02 -1.72420604403E-01 -1.59545185592E-03 +2.51121250781E-03 -1.59821413107E-03 +2.51721894991E-03 -1.68556046061E-01 -1.68450957163E-01
1.54000000000E+09 -1.37399352944E-01 -1.68492958964E-01 -4.99131076368E-04 +3.31615603288E-03 -5.26692944045E-04 +3.30667636617E-03 -2.78498323616E-01 -1.63568421762E-01
1.54500000000E+09 -2.41306576455E-01 -1.40535200481E-01 +7.65378998587E-04 +3.09005733960E-03 +6.76556144161E-04 +3.05935135679E-03 -3.77703689100E-01 -1.39171924048E-01
1.55000000000E+09 -3.33953000364E-01 -9.46758767839E-02 +1.63213713549E-03 +2.78039877624E-03 +1.55684099966E-03 +2.82020762948E-03 -4.64313707475E-01 -1.00578948039E-01
1.55500000000E+09 -4.11663585393E-01 -3.72488523177E-02 +2.51256537918E-03 +1.71742102498E-03 +2.48102843374E-03 +1.82930656653E-03 -5.35423750914E-01 -5.04001826567E-02
1.56000000000E+09 -4.74819889966E-01 +2.42939308716E-02 +2.36992681935E-03 +3.95824264595E-04 +2.46851396704E-03 +5.49779452057E-04 -5.90862445859E-01 +3.99142343212E-03
1.56500000000E+09 -5.22751707201E-01 +8.67796976766E-02 +1.67037556848E-03 -1.68278106432E-04 +1.81033961583E-03 -1.21824240794E-04 -6.34986715412E-01 +6.00691904861E-02
1.57000000000E+09 -5.58727859781E-01 +1.46548121993E-01 +1.45209245259E-03 -2.46176445357E-04 +1.51385499836E-03 -2.50962421999E-04 -6.67055842155E-01 +1.15753587052E-01
