# Hz S RI R 50
! CMT, C1220, 16058040, 17.2.0/1
! Date: 14/08/2018 12:47:13
! Data: Format (Calibration Info)
! Freq                      S11: Re/Im (F2)                       S21: Re/Im (F2)                       S12: Re/Im (F2)                       S22: Re/Im (F2)            
1.00000000000E+09 -6.51438935036E-01 +7.13279226729E-01 +1.89217568593E-05 +1.46349067127E-05 -2.87399882666E-05 +4.84195371179E-05 -7.53719225176E-01 +6.21460836961E-01
1.00500000000E+09 -6.44477246681E-01 +7.18295710007E-01 +4.31066478668E-05 +2.88238540775E-05 -1.75754713162E-05 +2.16012192742E-05 -7.50211357725E-01 +6.25392695809E-01
1.01000000000E+09 -6.38474330405E-01 +7.22960332691E-01 +1.32029599533E-05 -3.87784577977E-05 -1.40999375169E-05 +2.66157050750E-05 -7.46676788181E-01 +6.29183017969E-01
1.01500000000E+09 -6.34036814079E-01 +7.26793684896E-01 -3.78557782467E-06 +4.61275389552E-05 -1.67966311261E-05 +3.22700454570E-06 -7.43590906411E-01 +6.32617227492E-01
1.02000000000E+09 -6.31118621067E-01 +7.30212742841E-01 +1.75847520322E-05 +4.69346092583E-06 -5.70372075226E-05 +7.86703058622E-06 -7.40447980092E-01 +6.36298149183E-01
1.02500000000E+09 -6.29063552343E-01 +7.33068758396E-01 +3.83142669964E-05 +2.07499737653E-05 +6.55050628286E-06 -5.56249596350E-06 -7.37547727997E-01 +6.39803830085E-01
1.03000000000E+09 -6.27615676201E-01 +7.35607638954E-01 +2.42505580716E-05 +1.68088879319E-05 +3.99561383318E-05 +2.94372876149E-05 -7.34172462035E-01 +6.43573896529E-01
1.03500000000E+09 -6.25236716825E-01 +7.38372103368E-01 +2.46665027869E-05 +2.94629535075E-05 +6.07854018825E-05 -3.01586763569E-05 -7.30224338484E-01 +6.47746014019E-01
1.04000000000E+09 -6.21909175037E-01 +7.41092866788E-01 +3.01693204755E-06 +2.52275038613E-05 +1.34167964661E-05 +3.74018617840E-05 -7.26347126297E-01 +6.51388893565E-01
1.04500000000E+09 -6.17106446979E-01 +7.44717300302E-01 -2.91987307455E-05 +3.11508783490E-06 +2.46789653909E-05 +2.26052261453E-05 -7.22715642908E-01 +6.54844385435E-01
1.05000000000E+09 -6.10564686926E-01 +7.48768021584E-01 -1.28770115505E-05 -1.50905353630E-06 +3.70928862455E-05 +7.12337462526E-06 -7.19640528940E-01 +6.58193664051E-01
1.05500000000E+09 -6.02529921163E-01 +7.53281854619E-01 +3.26446722076E-05 +2.59573868504E-05 -2.12304161181E-05 +1.90148185006E-05 -7.16378510079E-01 +6.61719583643E-01
1.06000000000E+09 -5.94279770561E-01 +7.58296190235E-01 +1.33241368818E-05 +1.50352876381E-05 +7.74596691346E-06 +4.63132001076E-05 -7.12944680415E-01 +6.65613022675E-01
1.06500000000E+09 -5.85757398866E-01 +7.63472574610E-01 +1.63461065552E-05 +1.26812091596E-05 +4.12389331999E-05 +4.40102241611E-05 -7.09074572092E-01 +6.69496824167E-01
1.07000000000E+09 -5.78388119698E-01 +7.67887931478E-01 -1.13184912944E-05 +5.16869778995E-05 -3.66255824044E-05 +5.26154385616E-05 -7.05055179997E-01 +6.73315464998E-01
1.07500000000E+09 -5.72676346252E-01 +7.71737381033E-01 +2.67009459389E-05 +4.60706761996E-05 +2.30236238601E-05 +6.59392221119E-05 -7.00890434603E-01 +6.77041927028E-01
1.08000000000E+09 -5.68506336369E-01 +7.75075619315E-01 +4.24597929621E-05 +7.69973941557E-05 -1.47835125033E-05 +5.13929782300E-05 -6.96973954777E-01 +6.80606379172E-01
1.08500000000E+09 -5.65765995167E-01 +7.77558290999E-01 -8.82609221957E-06 +3.51506019770E-05 -9.33216612087E-06 +8.51734326714E-06 -6.93260785528E-01 +6.84277575048E-01
1.09000000000E+09 -5.63747549099E-01 +7.79644478396E-01 +3.48498179639E-05 -1.29586014596E-05 -4.11812173933E-05 +1.23407486074E-05 -6.89571757019E-01 +6.88125812503E-01
1.09500000000E+09 -5.62199870964E-01 +7.81486657356E-01 +2.29027315803E-05 +3.00099013570E-05 +2.37073848217E-05 +8.68419387661E-06 -6.85748121898E-01 +6.92054741952E-01
1.10000000000E+09 -5.59567340484E-01 +7.83580045022E-01 +3.12493334058E-05 +4.18906410902E-05 +4.58821688033E-05 +6.22045281144E-05 -6.81898872859E-01 +6.95830863562E-01
1.10500000000E+09 -5.55777008642E-01 +7.86100924030E-01 +2.62529739360E-05 +8.91683012900E-06 +3.91213879921E-05 +1.00750332836E-05 -6.77663141662E-01 +6.99161375894E-01
1.11000000000E+09 -5.50388544807E-01 +7.89378408316E-01 +1.39843584690E-05 +3.79216432488E-05 +2.40744632687E-05 +2.44106070366E-05 -6.73454257730E-01 +7.02659234815E-01
1.11500000000E+09 -5.43581030201E-01 +7.93030093764E-01 +5.05007447281E-05 +1.97628641666E-05 -8.19103576279E-07 +3.63324390895E-05 -6.69551642225E-01 +7.05986296342E-01
1.12000000000E+09 -5.36035459372E-01 +7.97039683899E-01 +5.46287857675E-05 +1.54790301474E-05 +5.48649976569E-05 +7.89482765449E-06 -6.65510176336E-01 +7.09798911029E-01
1.12500000000E+09 -5.27999706933E-01 +8.01080951568E-01 +4.86524921887E-05 +5.48648025689E-05 +3.37255164652E-05 +4.74146845332E-05 -6.61196530217E-01 +7.13679427204E-01
1.13000000000E+09 -5.20702863689E-01 +8.04818246972E-01 +4.62395025679E-05 +2.61000351709E-05 +5.87385405263E-05 +3.40157046536E-05 -6.56908265223E-01 +7.17371796142E-01
1.13500000000E+09 -5.14061301299E-01 +8.07623574210E-01 +6.22896352026E-05 +1.43592415450E-05 +1.21516707152E-04 +5.53456271502E-05 -6.52234825667E-01 +7.21254369408E-01
1.14000000000E+09 -5.08594235130E-01 +8.10218812211E-01 +9.57821538743E-05 -1.02498921683E-05 +5.94914894794E-05 -2.15628158452E-05 -6.47620253376E-01 +7.24764280909E-01
1.14500000000E+09 -5.04561081508E-01 +8.12073322091E-01 +4.80021660972E-05 +4.33807800475E-06 +9.38167283309E-05 +1.52034588824E-05 -6.42796408131E-01 +7.28303553878E-01
1.15000000000E+09 -5.00786731382E-01 +8.13876714665E-01 +9.37728421402E-05 -1.50558979166E-05 +5.74734756960E-05 +1.64150622508E-05 -6.38342551126E-01 +7.32079180821E-01
1.15500000000E+09 -4.97193607836E-01 +8.15834514625E-01 +5.16899333670E-05 -8.00526772681E-06 +6.07271318007E-05 -6.68174184282E-06 -6.33555558458E-01 +7.35901882162E-01
1.16000000000E+09 -4.92927549033E-01 +8.17805066115E-01 +8.50900849719E-05 -2.97884386816E-05 +8.10397090451E-05 -4.21365788163E-05 -6.28742508395E-01 +7.39677747275E-01
1.16500000000E+09 -4.87640045769E-01 +8.20675602616E-01 +7.52445757737E-05 +1.95228631847E-05 +9.17094855007E-05 +1.06901104012E-05 -6.23751600200E-01 +7.43385334923E-01
1.17000000000E+09 -4.81321016206E-01 +8.23935320787E-01 +7.05473636099E-05 -2.75178754376E-05 +1.00518655684E-04 +1.61654736425E-06 -6.18235789838E-01 +7.46637841197E-01
1.17500000000E+09 -4.73969815830E-01 +8.27529669736E-01 +8.45702551679E-05 -1.91534765094E-05 +1.09134233073E-04 -2.75371701910E-05 -6.12724318866E-01 +7.49703704461E-01
1.18000000000E+09 -4.66170441213E-01 +8.31146809306E-01 +1.75853024404E-04 -9.05587314489E-05 +1.28903390322E-04 -9.03848291005E-06 -6.07382235494E-01 +7.52866154364E-01
1.18500000000E+09 -4.58308330568E-01 +8.34513863109E-01 +1.87912183851E-04 -7.20315572634E-05 +1.48647668048E-04 -1.33622947306E-04 -6.01658135465E-01 +7.55790583485E-01
1.19000000000E+09 -4.50924170038E-01 +8.37249582395E-01 +1.48220118267E-04 -1.36328739101E-04 +1.14899903168E-04 -1.38985958898E-04 -5.95553621838E-01 +7.58502449863E-01
1.19500000000E+09 -4.44525405320E-01 +8.39312951900E-01 +1.49494004510E-04 -1.61544824106E-04 +1.46853467544E-04 -2.31779061462E-04 -5.89638052079E-01 +7.59754378073E-01
1.20000000000E+09 -4.39184791896E-01 +8.40410900042E-01 +4.03095371153E-05 -2.43302585816E-04 +5.70758180982E-05 -2.46246240546E-04 -5.85102422837E-01 +7.59981061531E-01
1.20500000000E+09 -4.34414808081E-01 +8.41820518749E-01 -5.11117794191E-05 -2.38083749136E-04 -7.09031996336E-05 -2.03126459735E-04 -5.82828255813E-01 +7.60913541466E-01
1.21000000000E+09 -4.29552405373E-01 +8.43382934719E-01 -3.74202180452E-05 -1.22773450996E-04 -5.92401714364E-05 -1.44020138905E-04 -5.80829850000E-01 +7.64050841003E-01
1.21500000000E+09 -4.23945850837E-01 +8.45368604324E-01 -4.55485472837E-05 -8.83985256713E-05 -3.97921466438E-05 -8.25830493483E-05 -5.78037292385E-01 +7.68607269478E-01
1.22000000000E+09 -4.17016078817E-01 +8.47653357577E-01 +5.32402594059E-05 -1.08527854017E-04 +2.34541079479E-05 -1.12934245702E-04 -5.73961290201E-01 +7.73972889791E-01
1.22500000000E+09 -4.08637155775E-01 +8.50740245128E-01 -3.22888750984E-06 -1.43744019333E-04 +1.76478114666E-05 -1.57429455184E-04 -5.68913324084E-01 +7.79080200918E-01
1.23000000000E+09 -3.99599163287E-01 +8.54439059203E-01 +1.56881414605E-05 -1.79022542969E-04 +2.11675904224E-05 -1.68252812742E-04 -5.63150484922E-01 +7.83661132045E-01
1.23500000000E+09 -3.90149717739E-01 +8.58074885260E-01 +1.84777526488E-05 -1.51782868237E-04 -3.92782106503E-05 -1.82838824208E-04 -5.57325973252E-01 +7.88022610137E-01
1.24000000000E+09 -3.80506944522E-01 +8.62014465371E-01 -1.80719032926E-05 -2.18435115971E-04 -2.87733677700E-05 -1.59081779157E-04 -5.51343660263E-01 +7.91804931465E-01
1.24500000000E+09 -3.71718472083E-01 +8.65959293595E-01 -5.67204113465E-05 -2.37445753285E-04 -5.18570077564E-05 -2.36806310963E-04 -5.45326702958E-01 +7.95611410194E-01
1.25000000000E+09 -3.63696142183E-01 +8.68958340462E-01 -1.29201224240E-04 -2.39430913352E-04 -3.50337123221E-05 -2.09260320659E-04 -5.38841500544E-01 +7.99958299538E-01
1.25500000000E+09 -3.56668662181E-01 +8.71079593640E-01 -1.12210390959E-04 -2.15629702991E-04 -1.20616310292E-04 -2.33366150355E-04 -5.32147385179E-01 +8.03756975569E-01
1.26000000000E+09 -3.50565036137E-01 +8.72701256513E-01 -8.73582212221E-05 -2.62283525563E-04 -9.02515045536E-05 -2.66622692670E-04 -5.25594241157E-01 +8.08053556443E-01
1.26500000000E+09 -3.44693156353E-01 +8.73771460502E-01 -1.35959936314E-04 -2.47489091926E-04 -1.53704209154E-04 -3.00921607883E-04 -5.18584180011E-01 +8.11961736018E-01
1.27000000000E+09 -3.38342167522E-01 +8.74959506573E-01 -1.77459398162E-04 -2.55750562258E-04 -1.97859133866E-04 -2.29472266502E-04 -5.11731344329E-01 +8.15969463748E-01
1.27500000000E+09 -3.30889426060E-01 +8.76247913397E-01 -2.86139560039E-04 -2.16354756925E-04 -2.69322053968E-04 -2.20360392133E-04 -5.04629190128E-01 +8.19534329507E-01
1.28000000000E+09 -3.21587917181E-01 +8.78172361863E-01 -2.76225298964E-04 -2.02932015122E-04 -3.29533211912E-04 -1.81518472593E-04 -4.97561439194E-01 +8.23158792947E-01
1.28500000000E+09 -3.10523698527E-01 +8.80590103128E-01 -3.32386519740E-04 -1.82127987552E-04 -3.32856609113E-04 -2.16406836361E-04 -4.90074050199E-01 +8.26926288901E-01
1.29000000000E+09 -2.98605524443E-01 +8.83583149748E-01 -3.31525266177E-04 -1.72309656278E-04 -3.52552564803E-04 -1.60608239593E-04 -4.82515782151E-01 +8.30715471256E-01
1.29500000000E+09 -2.86211954455E-01 +8.86949876406E-01 -3.37420061496E-04 -1.18174721535E-04 -3.72421538658E-04 -1.05070536731E-04 -4.74636936040E-01 +8.34285069125E-01
1.30000000000E+09 -2.74181132158E-01 +8.90481190601E-01 -4.19373629353E-04 -1.08940038643E-04 -4.47841345393E-04 -5.66787948160E-05 -4.66755313061E-01 +8.37877307566E-01
1.30500000000E+09 -2.63282390891E-01 +8.93474161515E-01 -4.84660275590E-04 -8.06573797273E-05 -5.01766216373E-04 -7.52502125545E-05 -4.58735534611E-01 +8.41411670060E-01
1.31000000000E+09 -2.54025710463E-01 +8.95628374088E-01 -5.50260729463E-04 +1.25211369682E-05 -4.85376512218E-04 +2.01544457923E-06 -4.50423108080E-01 +8.44872513088E-01
1.31500000000E+09 -2.46671125942E-01 +8.97092498499E-01 -5.43561063687E-04 +1.14742000915E-04 -5.33737029372E-04 +5.89709518497E-05 -4.41640828246E-01 +8.48299065400E-01
1.32000000000E+09 -2.40539793825E-01 +8.97989770010E-01 -4.99617783757E-04 +1.00672373317E-04 -5.57580079839E-04 +1.58860343002E-04 -4.32868436129E-01 +8.51649416645E-01
1.32500000000E+09 -2.34731079008E-01 +8.98134473988E-01 -5.79987778332E-04 +1.29168070857E-04 -6.14097501133E-04 +2.18285306933E-04 -4.23311970926E-01 +8.55059855887E-01
1.33000000000E+09 -2.28010129705E-01 +8.98383773387E-01 -6.30141992084E-04 +2.32669461343E-04 -6.33764250529E-04 +2.46681941670E-04 -4.13989080162E-01 +8.58451888345E-01
1.33500000000E+09 -2.19270438618E-01 +8.98380306473E-01 -6.23947156708E-04 +3.71765826441E-04 -6.42349244556E-04 +4.20434052861E-04 -4.04164383682E-01 +8.61577298791E-01
1.34000000000E+09 -2.08118267344E-01 +8.98672799363E-01 -6.31642949940E-04 +5.25975627766E-04 -5.73973314520E-04 +4.98656478673E-04 -3.93934805184E-01 +8.64907538303E-01
1.34500000000E+09 -1.94426275765E-01 +8.99204194709E-01 -5.55431178089E-04 +6.39135411805E-04 -5.52407951537E-04 +5.84282548098E-04 -3.83109787651E-01 +8.68076848447E-01
1.35000000000E+09 -1.78632527654E-01 +8.99782065001E-01 -4.74320082375E-04 +6.48320084063E-04 -4.66414004259E-04 +7.08520511278E-04 -3.72060907145E-01 +8.71354990016E-01
1.35500000000E+09 -1.61719467745E-01 +9.00696603419E-01 -4.75134782124E-04 +7.48570791572E-04 -4.11682763009E-04 +6.93694910211E-04 -3.60332847085E-01 +8.74196122595E-01
1.36000000000E+09 -1.44741372314E-01 +9.01308583120E-01 -4.18465022144E-04 +8.15651633601E-04 -3.96879947802E-04 +7.95520760415E-04 -3.48594638538E-01 +8.77021984746E-01
1.36500000000E+09 -1.28814730759E-01 +9.01709195683E-01 -4.07067238996E-04 +8.89215235956E-04 -3.28049782376E-04 +8.17493791851E-04 -3.36345800509E-01 +8.79497365168E-01
1.37000000000E+09 -1.14399592829E-01 +9.01437890372E-01 -2.50323761841E-04 +1.05776732353E-03 -3.22348802559E-04 +9.73685138527E-04 -3.23655513843E-01 +8.82150545747E-01
1.37500000000E+09 -1.02039423997E-01 +9.00900671804E-01 -1.04010411239E-04 +1.16368788402E-03 -2.49616341925E-04 +1.07871262882E-03 -3.09683648938E-01 +8.84480929807E-01
1.38000000000E+09 -9.06973335366E-02 +8.99936645087E-01 -6.11508235953E-06 +1.21139751927E-03 -2.13877252391E-04 +1.24671374954E-03 -2.95034643467E-01 +8.86748981489E-01
1.38500000000E+09 -7.92146255651E-02 +8.98441163121E-01 +8.56642399910E-05 +1.26554316053E-03 -1.61793687394E-05 +1.41783768138E-03 -2.79537407381E-01 +8.88707804872E-01
1.39000000000E+09 -6.68382406031E-02 +8.96301170334E-01 +2.03582887865E-04 +1.35396141593E-03 +2.67142780128E-04 +1.53996473573E-03 -2.63629717749E-01 +8.90126709144E-01
1.39500000000E+09 -5.24736629520E-02 +8.93516331797E-01 +3.71703921665E-04 +1.42837924004E-03 +5.45713222022E-04 +1.55963924477E-03 -2.46929137093E-01 +8.90980170964E-01
1.40000000000E+09 -3.53593985513E-02 +8.89742530429E-01 +5.44992508247E-04 +1.57890715489E-03 +7.17646632753E-04 +1.57871020022E-03 -2.29631959935E-01 +8.91423916459E-01
1.40500000000E+09 -1.60727739494E-02 +8.85337845901E-01 +8.68829683069E-04 +1.63155238148E-03 +9.26802888363E-04 +1.59355391035E-03 -2.11096600081E-01 +8.91575220208E-01
1.41000000000E+09 +5.24390486991E-03 +8.80123685035E-01 +1.27219405023E-03 +1.64997213157E-03 +1.19314334877E-03 +1.59900046900E-03 -1.90875122702E-01 +8.90844788091E-01
1.41500000000E+09 +2.75695596056E-02 +8.74111073538E-01 +1.54349473270E-03 +1.57637051011E-03 +1.54615190770E-03 +1.67274716823E-03 -1.69225769672E-01 +8.89485050663E-01
1.42000000000E+09 +5.04610711305E-02 +8.67217656552E-01 +1.84728160612E-03 +1.38630683132E-03 +2.01878245503E-03 +1.60725909743E-03 -1.46159657184E-01 +8.86926856954E-01
1.42500000000E+09 +7.23753331201E-02 +8.59287205585E-01 +2.05861578937E-03 +1.35838994193E-03 +2.36921571150E-03 +1.45257635543E-03 -1.22426146375E-01 +8.83170866558E-01
1.43000000000E+09 +9.36115101061E-02 +8.50201935817E-01 +2.52328151642E-03 +1.36141559677E-03 +2.88113055186E-03 +1.21657325615E-03 -9.76978737911E-02 +8.78645809113E-01
1.43500000000E+09 +1.14420947930E-01 +8.39550233013E-01 +3.21197174695E-03 +1.02825855333E-03 +3.37428226510E-03 +7.36922079835E-04 -7.12731700707E-02 +8.71991185858E-01
1.44000000000E+09 +1.35667183995E-01 +8.27432987464E-01 +3.66489607268E-03 +2.92654299744E-04 +3.73120524606E-03 +5.33397147385E-05 -4.30543494128E-02 +8.63424853243E-01
1.44500000000E+09 +1.58806769947E-01 +8.12536040540E-01 +3.86161699680E-03 -3.28605568172E-04 +3.87194896964E-03 -5.46157517934E-04 -1.27432342218E-02 +8.51786173734E-01
1.45000000000E+09 +1.83515593598E-01 +7.94063291495E-01 +3.83484878002E-03 -9.54920839008E-04 +3.87328800980E-03 -1.21901419763E-03 +1.88833756255E-02 +8.37401005730E-01
1.45500000000E+09 +2.10676470359E-01 +7.72046590238E-01 +4.00080393457E-03 -1.27787326789E-03 +3.98492135635E-03 -1.69154579723E-03 +5.23406372933E-02 +8.20135339100E-01
1.46000000000E+09 +2.40360141688E-01 +7.45857415231E-01 +4.47549457510E-03 -1.95607909967E-03 +4.05016834725E-03 -2.29845167069E-03 +8.73315201416E-02 +7.98276985809E-01
1.46500000000E+09 +2.71658154506E-01 +7.14897982996E-01 +4.95839711381E-03 -2.97819659757E-03 +4.35489803058E-03 -2.98991525581E-03 +1.23230628413E-01 +7.71687897691E-01
1.47000000000E+09 +3.03526807705E-01 +6.79072041002E-01 +5.00571421494E-03 -4.73381975403E-03 +4.53902661251E-03 -4.30959883781E-03 +1.60305857309E-01 +7.37793910146E-01
1.47500000000E+09 +3.34035748655E-01 +6.37818730849E-01 +4.07005606204E-03 -6.44247988726E-03 +4.13050539299E-03 -6.02877880504E-03 +1.97003243638E-01 +6.96817184503E-01
1.48000000000E+09 +3.62230388816E-01 +5.90441849027E-01 +2.86654068591E-03 -7.69641767442E-03 +3.13070540394E-03 -7.62483686540E-03 +2.33521706820E-01 +6.47442573588E-01
1.48500000000E+09 +3.85377592069E-01 +5.36019462355E-01 +1.53631927458E-03 -8.91137721513E-03 +1.49039375655E-03 -9.17212520112E-03 +2.66990481687E-01 +5.88940868867E-01
1.49000000000E+09 +4.03042764743E-01 +4.74475608447E-01 -4.05543529122E-04 -1.01600785721E-02 -8.56181930402E-04 -1.01267452831E-02 +2.95526768282E-01 +5.19534242875E-01
1.49500000000E+09 +4.12445928584E-01 +4.04387133259E-01 -3.19818675570E-03 -1.06521196652E-02 -3.43141223882E-03 -1.00323093022E-02 +3.13290421062E-01 +4.40375809313E-01
1.50000000000E+09 +4.11674418626E-01 +3.25412370537E-01 -6.11615296592E-03 -1.07848667884E-02 -5.76325884104E-03 -1.01901824387E-02 +3.18617446093E-01 +3.52517505747E-01
1.50500000000E+09 +3.96998918037E-01 +2.38157794707E-01 -9.66742110264E-03 -9.55040977874E-03 -9.02444601194E-03 -9.41492594655E-03 +3.08684823185E-01 +2.56599379242E-01
1.51000000000E+09 +3.66370616893E-01 +1.46710195373E-01 -1.23305369300E-02 -6.46337830027E-03 -1.19511004644E-02 -6.82955701671E-03 +2.77548799630E-01 +1.54904531090E-01
1.51500000000E+09 +3.15602603771E-01 +5.46634596944E-02 -1.40655153609E-02 -4.13068510010E-03 -1.40621444811E-02 -4.52697496539E-03 +2.21448891945E-01 +5.89892011230E-02
1.52000000000E+09 +2.44434786159E-01 -2.74137984627E-02 -1.65295734650E-02 -2.50450110744E-04 -1.66927925057E-02 -5.33872376744E-04 +1.46736799690E-01 -2.58038927555E-02
1.52500000000E+09 +1.56656421584E-01 -9.43768197696E-02 -1.62458719325E-02 +6.28486642425E-03 -1.64621668245E-02 +6.22231178256E-03 +5.34486092237E-02 -9.43301645056E-02
1.53000000000E+09 +5.64028424302E-02 -1.39874901057E-01 -1.22928127845E-02 +1.02565972519E-02 -1.23785033542E-02 +1.02763730630E-02 -5.28624961711E-02 -1.38956663927E-01
1.53500000000E+09 -5.12958674509E-02 -1.62502766228E-01 -9.05526446642E-03 +1.27412487167E-02 -9.06000267332E-03 +1.27595641488E-02 -1.62582005284E-01 -1.59808277353E-01
1.54000000000E+09 -1.61855669482E-01 -1.58461454186E-01 -4.97329491294E-03 +1.36881858156E-02 -5.00730081323E-03 +1.35616548477E-02 -2.70299880019E-01 -1.57586694321E-01
1.54500000000E+09 -2.63766031820E-01 -1.31343660060E-01 -1.15749814405E-03 +1.39723070647E-02 -1.41178601305E-03 +1.37500229012E-02 -3.68088059233E-01 -1.36435875376E-01
1.55000000000E+09 -3.55615196312E-01 -8.78516321920E-02 +1.87636006223E-03 +1.30628090090E-02 +1.35378785217E-03 +1.31508220860E-02 -4.54251969121E-01 -1.00574683324E-01
1.55500000000E+09 -4.33044426768E-01 -3.17201743868E-02 +5.50440738771E-03 +1.16463487585E-02 +5.07511040660E-03 +1.21588313042E-02 -5.25662342366E-01 -5.40359504588E-02
1.56000000000E+09 -4.94685011600E-01 +2.78722373375E-02 +7.50439820831E-03 +8.15150560530E-03 +7.53984871240E-03 +8.81114797320E-03 -5.83936513402E-01 -1.55559754883E-03
1.56500000000E+09 -5.43550494379E-01 +8.85954285618E-02 +7.53215619748E-03 +5.95454917053E-03 +7.86590563083E-03 +6.47052937591E-03 -6.28310453642E-01 +5.42567738372E-02
1.57000000000E+09 -5.80399939010E-01 +1.47026190293E-01 +7.82924303128E-03 +4.08404969288E-03 +8.43786503055E-03 +4.32072512701E-03 -6.62183981063E-01 +1.07700779179E-01
