# Hz S RI R 50
! CMT, C1220, 16058040, 17.2.0/1
! Date: 14/08/2018 12:16:28
! Data: Format (Calibration Info)
! Freq                      S11: Re/Im (F2)                       S21: Re/Im (F2)                       S12: Re/Im (F2)                       S22: Re/Im (F2)            
1.00000000000E+09 -6.48401336547E-01 +7.14383896792E-01 -2.89621648529E-05 -5.64541858403E-05 -2.46478063322E-05 +3.81196943829E-05 -7.53507598866E-01 +6.24892940140E-01
1.00500000000E+09 -6.41059991394E-01 +7.19636494691E-01 +3.43275212628E-05 +9.76385118771E-06 -2.61929232289E-05 +9.86401837870E-06 -7.50005968479E-01 +6.29034578540E-01
1.01000000000E+09 -6.35229755505E-01 +7.24207099805E-01 -1.74367818546E-05 -1.92238419162E-05 +1.71212335973E-05 -2.75980711720E-05 -7.46273336447E-01 +6.32838938627E-01
1.01500000000E+09 -6.31288384166E-01 +7.27911770576E-01 +1.30648455864E-06 +2.50329514141E-05 +2.64557033552E-05 -2.69532373891E-06 -7.42903955321E-01 +6.36474595865E-01
1.02000000000E+09 -6.29246609833E-01 +7.31035363588E-01 -2.39905721009E-05 +1.42202543431E-05 -8.46366097160E-06 -3.48099200992E-05 -7.39617561025E-01 +6.40050408862E-01
1.02500000000E+09 -6.27901888611E-01 +7.33502108937E-01 -2.70208794024E-05 -1.23889810349E-05 -1.33469392635E-05 +1.17969863155E-05 -7.36809744452E-01 +6.43791177839E-01
1.03000000000E+09 -6.27293514943E-01 +7.35509837068E-01 +8.44908200301E-06 +1.08487613405E-05 -6.67359725211E-05 +9.83761852133E-05 -7.33300537895E-01 +6.47558285364E-01
1.03500000000E+09 -6.25671791640E-01 +7.37632009074E-01 +2.11520385093E-05 +4.32136642175E-05 +1.22751606830E-05 +2.36570119780E-05 -7.29460706555E-01 +6.51581857859E-01
1.04000000000E+09 -6.22351402127E-01 +7.40237296489E-01 -1.64684985236E-05 +3.11083389586E-05 -1.52709795757E-06 +5.94686730701E-05 -7.25703784146E-01 +6.55247408711E-01
1.04500000000E+09 -6.17271912556E-01 +7.43388488180E-01 +4.03135991588E-06 -2.27328926954E-05 +1.66558430388E-05 +1.62678291648E-05 -7.22248514222E-01 +6.58731673687E-01
1.05000000000E+09 -6.10086433405E-01 +7.47572540140E-01 +3.73760755561E-05 -5.63683412510E-06 -1.75205790746E-05 +8.54687399220E-06 -7.18820172193E-01 +6.62118833846E-01
1.05500000000E+09 -6.01477170307E-01 +7.52373844272E-01 +4.06518544205E-07 +1.28647597052E-05 -2.19606672995E-05 +1.28482397947E-05 -7.15515600377E-01 +6.65604818878E-01
1.06000000000E+09 -5.92026295464E-01 +7.57723743637E-01 +3.75176998913E-05 +4.15555139453E-05 -7.55405541280E-06 -1.94612851840E-05 -7.12380182421E-01 +6.69576875690E-01
1.06500000000E+09 -5.83122261205E-01 +7.62908419772E-01 +1.20658169015E-05 +2.99222192582E-06 +2.06152393316E-05 -5.18581333714E-07 -7.08525985938E-01 +6.73279428873E-01
1.07000000000E+09 -5.75572646985E-01 +7.67301807853E-01 +3.14704701149E-05 +2.15150027940E-05 +2.58766045770E-05 +1.04114663248E-05 -7.04568191758E-01 +6.76947370813E-01
1.07500000000E+09 -5.69825503324E-01 +7.71375836816E-01 +1.54134436442E-05 -1.04287439402E-05 -3.97034338778E-05 +4.52318681581E-06 -7.00132287770E-01 +6.80660914479E-01
1.08000000000E+09 -5.66207588261E-01 +7.74697721495E-01 +2.68922850185E-05 +5.87286293738E-05 +2.85746895168E-05 +6.24361460967E-05 -6.96107874835E-01 +6.84498819875E-01
1.08500000000E+09 -5.63940930481E-01 +7.77134080898E-01 +2.85346116605E-05 +2.28616682333E-05 +1.34395806649E-05 +5.40270161827E-06 -6.92101336577E-01 +6.88147454024E-01
1.09000000000E+09 -5.62617463117E-01 +7.79012669116E-01 +1.14299375897E-05 +1.42781113292E-05 +2.03823513941E-05 +2.91607241357E-05 -6.88367335999E-01 +6.92174189406E-01
1.09500000000E+09 -5.61307777107E-01 +7.80748969012E-01 +3.18693103901E-05 +3.15963883336E-05 -1.43128373557E-06 +8.53526624661E-06 -6.84558938834E-01 +6.95989082881E-01
1.10000000000E+09 -5.58662870772E-01 +7.82574671459E-01 +2.66661874881E-05 -3.08771824242E-06 +6.60512896179E-05 +2.40122255694E-05 -6.80590400640E-01 +6.99896556608E-01
1.10500000000E+09 -5.54448080837E-01 +7.85093377043E-01 +3.35387725637E-05 -1.29774751548E-05 +2.34736576420E-05 +4.07847271075E-07 -6.76223689144E-01 +7.03278307726E-01
1.11000000000E+09 -5.48515420570E-01 +7.88372103461E-01 +7.59594248120E-06 +3.25466776013E-05 +8.74049111783E-06 -7.83108017904E-06 -6.71980894044E-01 +7.06739679472E-01
1.11500000000E+09 -5.40952179073E-01 +7.92044438893E-01 +2.98624419463E-05 -3.22230393825E-05 -4.67991196425E-06 +2.12345407683E-05 -6.67934416365E-01 +7.10054603314E-01
1.12000000000E+09 -5.32955722550E-01 +7.96293063567E-01 +5.18716468993E-05 +3.04181613476E-05 +9.28506733049E-06 +3.97941132232E-05 -6.63832105325E-01 +7.13825443708E-01
1.12500000000E+09 -5.24546073105E-01 +8.00644746090E-01 -1.45001459486E-05 +3.94506116740E-05 +5.10360875149E-05 +4.86247172612E-06 -6.59500704689E-01 +7.17795801581E-01
1.13000000000E+09 -5.17169278108E-01 +8.04565808264E-01 +2.69949288784E-05 -1.27602441990E-05 +3.87188562421E-05 -2.88220284936E-05 -6.55373773369E-01 +7.21561861020E-01
1.13500000000E+09 -5.10994259360E-01 +8.07760905725E-01 +6.47268755638E-05 +1.20573322280E-05 -2.79198353637E-06 +1.75795020055E-05 -6.50848352586E-01 +7.25429321259E-01
1.14000000000E+09 -5.06344082675E-01 +8.10598298943E-01 +6.38694680696E-05 -1.21566330039E-05 +7.13193580474E-05 +2.71802829962E-05 -6.46145354326E-01 +7.28686662256E-01
1.14500000000E+09 -5.02912079633E-01 +8.12567110778E-01 +4.54768385489E-05 -2.58797470992E-05 +6.25118493618E-05 +2.25939409023E-05 -6.41433462455E-01 +7.32206419297E-01
1.15000000000E+09 -4.99998493230E-01 +8.14090643248E-01 +6.02136150391E-05 -3.55438957868E-06 +3.99810104822E-05 -1.32266356695E-05 -6.36874974382E-01 +7.36049286642E-01
1.15500000000E+09 -4.96894201313E-01 +8.15878748454E-01 +4.02336108206E-05 +1.30762319390E-05 +6.74190314010E-05 -3.71828889801E-05 -6.32092766520E-01 +7.39788907986E-01
1.16000000000E+09 -4.92573948033E-01 +8.17595384862E-01 +5.29819299182E-05 -1.74773882063E-05 +4.17533335247E-05 -6.18876666111E-05 -6.27144466037E-01 +7.43739035784E-01
1.16500000000E+09 -4.86985430641E-01 +8.20116568388E-01 -3.87836732039E-06 -5.29751603926E-06 +6.73531524290E-05 +1.16283481308E-05 -6.22122842565E-01 +7.47322126881E-01
1.17000000000E+09 -4.80114059929E-01 +8.23074649839E-01 +6.46043772718E-05 +9.13389703564E-06 +2.26887460905E-05 -1.34243023622E-05 -6.16712978484E-01 +7.50640489362E-01
1.17500000000E+09 -4.72160791988E-01 +8.26437413876E-01 +2.27297449806E-05 -4.88725092437E-06 +1.25147897082E-05 -5.37517118806E-05 -6.11007732600E-01 +7.53983933391E-01
1.18000000000E+09 -4.63801525085E-01 +8.30215090959E-01 +4.05170764985E-05 -2.10763097140E-05 +1.10085721339E-05 -2.82950706876E-05 -6.05440375965E-01 +7.56965159508E-01
1.18500000000E+09 -4.55654473492E-01 +8.33560191118E-01 +2.23671046267E-05 -2.94794529557E-05 +7.28619020899E-05 -5.36892061514E-05 -5.99487944713E-01 +7.60023423251E-01
1.19000000000E+09 -4.48369984999E-01 +8.36514000460E-01 +5.72385356467E-05 -1.60204789568E-05 +6.87010499814E-05 -1.93557552978E-05 -5.93190357611E-01 +7.62669701032E-01
1.19500000000E+09 -4.42483828213E-01 +8.38704048008E-01 +5.32114237307E-05 -3.93426836289E-05 +3.23751607499E-05 -9.35067128699E-05 -5.87372922818E-01 +7.63889717063E-01
1.20000000000E+09 -4.38089217124E-01 +8.39957662480E-01 -1.89335750302E-05 -6.26521243706E-05 +3.09572554246E-05 -1.23755648546E-04 -5.82857587529E-01 +7.64103033492E-01
1.20500000000E+09 -4.34086067678E-01 +8.41201548337E-01 +1.17975482100E-05 -7.40836145320E-05 -4.66530864792E-05 -9.41881155316E-05 -5.80616465160E-01 +7.64929637661E-01
1.21000000000E+09 -4.30209739190E-01 +8.42577508769E-01 -2.16931850666E-05 -8.13481507600E-05 -2.17584960668E-05 -1.38529379036E-05 -5.78558386455E-01 +7.68024325775E-01
1.21500000000E+09 -4.25007161127E-01 +8.44047460810E-01 +7.43662458882E-06 +6.09919500397E-06 +3.37002153027E-06 -6.08195800259E-05 -5.75934402319E-01 +7.72526716297E-01
1.22000000000E+09 -4.18007278697E-01 +8.45903193113E-01 +3.75627200176E-05 -2.57182342423E-05 -3.24598975365E-05 -3.07687574030E-05 -5.71686407015E-01 +7.77945792563E-01
1.22500000000E+09 -4.09271176491E-01 +8.48621372411E-01 +1.57588210084E-05 -7.30189627665E-07 +6.70575556240E-05 -2.72113875536E-05 -5.66695886876E-01 +7.82949533998E-01
1.23000000000E+09 -3.98896911246E-01 +8.51635078258E-01 +3.23944514403E-05 -4.23213288210E-05 -1.00564532612E-05 -4.29252664617E-05 -5.60951640083E-01 +7.87647167660E-01
1.23500000000E+09 -3.88136564861E-01 +8.55314907977E-01 +1.62879698604E-05 -7.85588188843E-05 +1.35961518109E-05 -4.36940356185E-05 -5.55141599996E-01 +7.91942714418E-01
1.24000000000E+09 -3.77087052741E-01 +8.59315651890E-01 +7.55400664090E-05 -1.11859228783E-04 +2.35706236448E-05 -6.06235058957E-05 -5.49079434297E-01 +7.95924810086E-01
1.24500000000E+09 -3.67208655934E-01 +8.63458276661E-01 +3.39085821304E-06 -1.14113863676E-04 +1.08250911202E-05 -1.16030785822E-04 -5.42757070571E-01 +7.99817590259E-01
1.25000000000E+09 -3.58746896824E-01 +8.66917079248E-01 -2.65663428052E-05 -1.31010577002E-04 +7.64247951982E-06 -1.07845505225E-04 -5.36238737653E-01 +8.03890417076E-01
1.25500000000E+09 -3.51971427248E-01 +8.69527177711E-01 -6.21810405997E-05 -8.54651682980E-05 +1.98550815648E-05 -1.33274476073E-04 -5.29366566066E-01 +8.07896413743E-01
1.26000000000E+09 -3.46807050920E-01 +8.71579962400E-01 -4.74462830391E-05 -1.33772490378E-04 -5.66459402915E-06 -8.79487070587E-05 -5.22654096497E-01 +8.12322671115E-01
1.26500000000E+09 -3.42555939386E-01 +8.73073809751E-01 -8.58086161929E-05 -1.07609659669E-04 -5.71678503832E-05 -1.02144912493E-04 -5.15657981500E-01 +8.16130653539E-01
1.27000000000E+09 -3.37852312667E-01 +8.74325057230E-01 -7.31088622407E-05 -1.16082416370E-04 -1.00114453619E-04 -1.11611790367E-04 -5.08657254420E-01 +8.19964668236E-01
1.27500000000E+09 -3.32070598811E-01 +8.75693637448E-01 -9.98526252322E-05 -9.63413871330E-05 -1.13098149172E-04 -1.12665304725E-04 -5.01904659162E-01 +8.23435068168E-01
1.28000000000E+09 -3.24279154493E-01 +8.77480152342E-01 -1.13394578783E-04 -8.79535276333E-05 -1.17585736559E-04 -1.65652702680E-04 -4.94765554911E-01 +8.27078528071E-01
1.28500000000E+09 -3.14121562402E-01 +8.79838179323E-01 -1.03550823825E-04 -7.48560818651E-05 -1.30456008686E-04 -6.82655935835E-05 -4.87451851157E-01 +8.30840805653E-01
1.29000000000E+09 -3.02338200341E-01 +8.82621935037E-01 -1.57456361700E-04 -7.17002582068E-05 -1.47436134227E-04 -1.07891556725E-04 -4.79813664248E-01 +8.34500122062E-01
1.29500000000E+09 -2.89580483201E-01 +8.85837158075E-01 -1.95360671199E-04 -6.39443808166E-05 -1.75498958315E-04 -6.50803781724E-05 -4.71935834664E-01 +8.37965916030E-01
1.30000000000E+09 -2.76724582171E-01 +8.89465409976E-01 -2.06127703075E-04 -2.11258807054E-05 -2.50859747217E-04 -5.03354567851E-05 -4.64125075006E-01 +8.41651571142E-01
1.30500000000E+09 -2.65102086816E-01 +8.92475367927E-01 -2.24041644440E-04 +7.81576633436E-06 -1.96617670821E-04 +2.31727330376E-05 -4.55999081242E-01 +8.45125979641E-01
1.31000000000E+09 -2.55244756478E-01 +8.94904143079E-01 -2.07218026528E-04 +5.92645689356E-05 -2.43741485633E-04 +1.01942949104E-04 -4.47778485144E-01 +8.48437658599E-01
1.31500000000E+09 -2.47535227338E-01 +8.96875042278E-01 -1.67990314030E-04 +5.92324488851E-05 -2.47296088043E-04 +6.48911396471E-05 -4.38742144152E-01 +8.51994709547E-01
1.32000000000E+09 -2.41610135811E-01 +8.98038305995E-01 -1.57773742885E-04 +4.33284539490E-05 -2.16342730323E-04 +8.75766834487E-05 -4.29699505757E-01 +8.55428763341E-01
1.32500000000E+09 -2.36198585071E-01 +8.98570980402E-01 -2.16928546878E-04 +2.12828097610E-05 -2.40240677299E-04 +6.57623661152E-05 -4.20106309652E-01 +8.58885496635E-01
1.33000000000E+09 -2.30105325865E-01 +8.98721473234E-01 -2.59769023175E-04 +1.33405060495E-04 -2.50497780081E-04 +1.66933991467E-04 -4.10425584475E-01 +8.62220748788E-01
1.33500000000E+09 -2.22030190778E-01 +8.98418719817E-01 -2.82846397697E-04 +2.18182446612E-04 -2.64763522160E-04 +2.22649374188E-04 -4.00478656076E-01 +8.65492528289E-01
1.34000000000E+09 -2.11407777345E-01 +8.98456440827E-01 -1.80632246122E-04 +2.47427464735E-04 -1.64770123743E-04 +2.10896743602E-04 -3.90385545741E-01 +8.68812400932E-01
1.34500000000E+09 -1.97836895428E-01 +8.98365810882E-01 -1.29947925967E-04 +2.11133699670E-04 -1.23752793449E-04 +2.19564616401E-04 -3.79467515129E-01 +8.72110641622E-01
1.35000000000E+09 -1.81804283592E-01 +8.98488789818E-01 -1.44027052034E-04 +1.70841721063E-04 -1.78623883925E-04 +1.99967240970E-04 -3.68328093270E-01 +8.75285058552E-01
1.35500000000E+09 -1.64443137305E-01 +8.98981206570E-01 -1.79445084607E-04 +2.16259003934E-04 -1.68923278567E-04 +2.70645159973E-04 -3.56695114035E-01 +8.78235826691E-01
1.36000000000E+09 -1.46784880901E-01 +8.99440777450E-01 -1.65843099104E-04 +2.61497080137E-04 -1.50463681386E-04 +3.05383500282E-04 -3.44878494167E-01 +8.80946313885E-01
1.36500000000E+09 -1.30185260341E-01 +9.00069856907E-01 -1.42697001390E-04 +3.49610382567E-04 -9.52127301874E-05 +3.25463500247E-04 -3.32569932092E-01 +8.83469486345E-01
1.37000000000E+09 -1.15505213220E-01 +9.00339295946E-01 -1.28406883403E-04 +4.03823738828E-04 -8.99577908062E-05 +3.46437197643E-04 -3.19794618158E-01 +8.85824750289E-01
1.37500000000E+09 -1.03089941357E-01 +9.00393053722E-01 -1.05271794971E-04 +4.66288868374E-04 -1.16097158184E-04 +4.00315034479E-04 -3.06032460288E-01 +8.88141587495E-01
1.38000000000E+09 -9.22176969550E-02 +9.00130245900E-01 +2.89857059419E-05 +5.29963630139E-04 -3.87355331613E-05 +5.44360522567E-04 -2.91453080630E-01 +8.90358584551E-01
1.38500000000E+09 -8.16252176118E-02 +8.99375829117E-01 +1.40351028181E-04 +4.51190962506E-04 +9.21632045250E-05 +4.99335186727E-04 -2.75820585803E-01 +8.92336702260E-01
1.39000000000E+09 -7.02388990472E-02 +8.97684891766E-01 +1.39232408879E-04 +4.58085041511E-04 +1.70396588791E-04 +5.28088589222E-04 -2.59752342305E-01 +8.93816580109E-01
1.39500000000E+09 -5.66458024538E-02 +8.95093301484E-01 +2.10894121650E-04 +4.60832691568E-04 +2.28262490063E-04 +5.06748544256E-04 -2.42782145718E-01 +8.94635273297E-01
1.40000000000E+09 -4.00848806097E-02 +8.91560999628E-01 +2.54756233146E-04 +4.12133611015E-04 +3.39769536437E-04 +4.15829380067E-04 -2.25093888843E-01 +8.95247100105E-01
1.40500000000E+09 -2.08019333804E-02 +8.86925242261E-01 +3.35454956487E-04 +4.00713317240E-04 +2.89116811690E-04 +3.91306571396E-04 -2.06279641272E-01 +8.95236552561E-01
1.41000000000E+09 +8.88157510615E-04 +8.81350335964E-01 +3.27718426281E-04 +4.32822726680E-04 +3.31788855932E-04 +4.02537918781E-04 -1.85879095293E-01 +8.94439394827E-01
1.41500000000E+09 +2.39344615092E-02 +8.75076443749E-01 +4.34516183804E-04 +3.89808170671E-04 +4.06631626712E-04 +4.77001041170E-04 -1.64024529918E-01 +8.92879762591E-01
1.42000000000E+09 +4.73761016039E-02 +8.68479608386E-01 +4.52233072951E-04 +4.04607516699E-04 +4.96055683324E-04 +4.26353959263E-04 -1.40975213514E-01 +8.90166577867E-01
1.42500000000E+09 +7.01686428761E-02 +8.61248004790E-01 +5.23681195658E-04 +3.32094487233E-04 +6.07346388352E-04 +3.21146429935E-04 -1.17151268449E-01 +8.86649791156E-01
1.43000000000E+09 +9.19184708709E-02 +8.53287515453E-01 +5.87105732506E-04 +3.26860977364E-04 +6.49979325830E-04 +2.96251442223E-04 -9.19845274324E-02 +8.81709170625E-01
1.43500000000E+09 +1.12727361624E-01 +8.43824173182E-01 +6.94476445192E-04 +3.14604238735E-04 +7.70483587543E-04 +2.42570076341E-04 -6.55039556612E-02 +8.74929041711E-01
1.44000000000E+09 +1.33238951106E-01 +8.33383754957E-01 +8.11054067899E-04 +1.08259388240E-04 +8.31982571914E-04 +7.48758786238E-05 -3.70857327394E-02 +8.65967871037E-01
1.44500000000E+09 +1.55266222732E-01 +8.20318046910E-01 +7.52988707738E-04 -6.11860131586E-07 +7.56482826642E-04 -1.16911276656E-05 -7.06862968473E-03 +8.54136082363E-01
1.45000000000E+09 +1.79444343074E-01 +8.03562031682E-01 +7.18698739977E-04 +1.06885993439E-04 +7.28958226516E-04 +8.85728186972E-06 +2.49049276997E-02 +8.39406194049E-01
1.45500000000E+09 +2.06069089217E-01 +7.82414485978E-01 +9.06209979238E-04 +1.52788112330E-04 +8.96252525731E-04 +1.73332890760E-05 +5.85849292503E-02 +8.21435655615E-01
1.46000000000E+09 +2.35873308903E-01 +7.56450372690E-01 +1.12072950761E-03 +4.58733042716E-05 +1.03636449695E-03 -1.06324922837E-04 +9.33563389805E-02 +7.99177249480E-01
1.46500000000E+09 +2.67885880061E-01 +7.25214116833E-01 +1.25646504206E-03 -1.97871042894E-04 +1.15448313000E-03 -2.22664385342E-04 +1.29066014166E-01 +7.72035338796E-01
1.47000000000E+09 +3.00872101424E-01 +6.88280016984E-01 +1.37181216696E-03 -1.80775083007E-04 +1.23976968288E-03 -1.94262975268E-04 +1.65854886067E-01 +7.38210941469E-01
1.47500000000E+09 +3.33437244766E-01 +6.45695076183E-01 +1.65596572870E-03 -5.25419617980E-04 +1.55999565641E-03 -4.77432740818E-04 +2.03154331901E-01 +6.97216549689E-01
1.48000000000E+09 +3.63488240534E-01 +5.97084439059E-01 +1.84089552692E-03 -8.35522624074E-04 +1.86754522558E-03 -7.50360649331E-04 +2.39737538680E-01 +6.47306188657E-01
1.48500000000E+09 +3.88866366707E-01 +5.41891944254E-01 +2.07238964462E-03 -1.41887998591E-03 +2.08048801543E-03 -1.56193103305E-03 +2.73674474399E-01 +5.87787557350E-01
1.49000000000E+09 +4.07929754386E-01 +4.79751439393E-01 +1.78790090039E-03 -2.27825582558E-03 +1.70214632251E-03 -2.32621402235E-03 +3.01105094964E-01 +5.17380001025E-01
1.49500000000E+09 +4.19291136797E-01 +4.10037917646E-01 +1.75248214601E-03 -2.71645406266E-03 +1.56099854438E-03 -2.65066024676E-03 +3.18811131381E-01 +4.37962060570E-01
1.50000000000E+09 +4.20080950983E-01 +3.30657175760E-01 +1.37097664804E-03 -3.93680532770E-03 +1.27781012752E-03 -3.72750694755E-03 +3.23900822057E-01 +3.48510322070E-01
1.50500000000E+09 +4.06869950405E-01 +2.43206001750E-01 +2.10610909526E-05 -4.78696337424E-03 +2.11974098469E-04 -4.54448399146E-03 +3.11193345356E-01 +2.51351813757E-01
1.51000000000E+09 +3.76201071162E-01 +1.50396076471E-01 -1.44690003347E-03 -5.24008251237E-03 -1.18994206140E-03 -5.26891410500E-03 +2.77352879270E-01 +1.51649601602E-01
1.51500000000E+09 +3.26033292895E-01 +5.76092769877E-02 -3.64102280946E-03 -5.08544303987E-03 -3.45365405765E-03 -5.23323392196E-03 +2.22533714408E-01 +5.56468774290E-02
1.52000000000E+09 +2.55282281284E-01 -2.81477425028E-02 -5.22021082942E-03 -3.13567018770E-03 -5.27891433192E-03 -3.30836087117E-03 +1.44905169148E-01 -2.99055777933E-02
1.52500000000E+09 +1.66672645554E-01 -9.91539226745E-02 -5.08662408661E-03 -1.84453887206E-03 -5.12797522810E-03 -1.91036643397E-03 +4.95406507660E-02 -9.53664504414E-02
1.53000000000E+09 +6.31929481419E-02 -1.50255733186E-01 -5.91344534144E-03 -1.31465070829E-03 -6.00366077476E-03 -1.37485097194E-03 -5.58659317732E-02 -1.39160154762E-01
1.53500000000E+09 -4.95368530406E-02 -1.74504662679E-01 -7.03819568812E-03 +8.17652330442E-04 -7.08418189846E-03 +7.87733815628E-04 -1.66782273986E-01 -1.57975185477E-01
1.54000000000E+09 -1.61823827363E-01 -1.70725821773E-01 -6.46046692671E-03 +3.25141166911E-03 -6.42926700700E-03 +3.19687320028E-03 -2.72514395934E-01 -1.53738091545E-01
1.54500000000E+09 -2.67006349151E-01 -1.43978413971E-01 -4.82951904724E-03 +5.47238570302E-03 -4.89787922236E-03 +5.30911608199E-03 -3.69953700752E-01 -1.31979362798E-01
1.55000000000E+09 -3.61491008709E-01 -9.81433334492E-02 -2.33912581654E-03 +6.01179721157E-03 -2.61666709994E-03 +5.89688933069E-03 -4.54792764166E-01 -9.45996635174E-02
1.55500000000E+09 -4.40437102668E-01 -3.98800855618E-02 -8.36120364397E-04 +5.73625553670E-03 -1.14750734968E-03 +5.82407590279E-03 -5.24390266083E-01 -4.82701341018E-02
1.56000000000E+09 -5.03698895918E-01 +2.37858840945E-02 +5.90206123415E-04 +5.69894461611E-03 +3.66703499437E-04 +5.92586681637E-03 -5.80933974782E-01 +3.57889621098E-03
1.56500000000E+09 -5.52321728215E-01 +8.74435402952E-02 +2.23881460022E-03 +4.80063531061E-03 +2.32903023411E-03 +5.17019809312E-03 -6.25318660412E-01 +5.82867806630E-02
1.57000000000E+09 -5.89315055670E-01 +1.48342957256E-01 +3.11292539489E-03 +3.24420385680E-03 +3.35522571797E-03 +3.49319678630E-03 -6.58626807288E-01 +1.12127124378E-01
