# Hz S RI R 50
! CMT, C1220, 16058040, 17.2.0/1
! Date: 14/08/2018 12:37:34
! Data: Format (Calibration Info)
! Freq                      S11: Re/Im (F2)                       S21: Re/Im (F2)                       S12: Re/Im (F2)                       S22: Re/Im (F2)            
1.00000000000E+09 -6.46608667202E-01 +7.14457621171E-01 -7.59123220929E-06 +1.16993571391E-05 -2.85514714414E-05 +7.65151831614E-06 -6.70428056334E-01 +5.37567966417E-01
1.00500000000E+09 -6.39456802587E-01 +7.19868404561E-01 -1.63348619581E-05 +6.19027387383E-05 -1.64779967363E-05 -3.38159641950E-05 -6.67340284358E-01 +5.41195693203E-01
1.01000000000E+09 -6.33596509899E-01 +7.24676665448E-01 +3.76058395350E-05 +9.42557910505E-07 +2.89890671202E-05 +1.47509658627E-05 -6.64342267794E-01 +5.44304044041E-01
1.01500000000E+09 -6.29284142380E-01 +7.28589533917E-01 +3.18434950445E-05 +2.79170944732E-05 +1.34647254494E-06 +2.73579916344E-05 -6.61754555851E-01 +5.47569875129E-01
1.02000000000E+09 -6.26371234619E-01 +7.31996566843E-01 +1.41954015734E-05 +5.34494897549E-05 +3.45153527989E-05 -2.26045232455E-05 -6.59232120983E-01 +5.50577071224E-01
1.02500000000E+09 -6.24265191598E-01 +7.34686398623E-01 -2.92638804448E-05 -2.28472595161E-05 +1.69023332339E-05 +6.80523445314E-06 -6.57031082570E-01 +5.53858992590E-01
1.03000000000E+09 -6.22837863660E-01 +7.36943715913E-01 -4.81189829431E-05 +7.72548604428E-06 +3.62871582871E-06 +4.50682646766E-06 -6.54442218929E-01 +5.57365279873E-01
1.03500000000E+09 -6.20503795395E-01 +7.39171897032E-01 -4.97677736974E-05 +4.52565542202E-05 -4.91433078187E-05 +2.23424987413E-05 -6.51353920119E-01 +5.61011290753E-01
1.04000000000E+09 -6.17106305412E-01 +7.41844033092E-01 -2.27319494466E-05 +3.19873340990E-05 -1.43843216993E-05 +7.27223923270E-05 -6.48400185917E-01 +5.64340748075E-01
1.04500000000E+09 -6.12180670847E-01 +7.45259664624E-01 +9.93612357139E-06 -1.88398995973E-05 -4.64755375164E-06 +3.00661343615E-05 -6.45593506257E-01 +5.67805354344E-01
1.05000000000E+09 -6.05282556080E-01 +7.49401631286E-01 +7.97092445536E-06 +2.21966286108E-05 +1.57821266428E-05 +2.14151049523E-05 -6.42888427262E-01 +5.70779667346E-01
1.05500000000E+09 -5.97181528832E-01 +7.53913530640E-01 -7.75022693590E-06 +4.97404078198E-05 -2.61543535904E-06 +6.17108265972E-05 -6.40223484383E-01 +5.74216057429E-01
1.06000000000E+09 -5.88558049897E-01 +7.59200583794E-01 +2.01954819870E-05 +1.07950365802E-05 +3.41736056030E-05 +1.33091062227E-05 -6.37641058855E-01 +5.77847400143E-01
1.06500000000E+09 -5.80375018293E-01 +7.64219431490E-01 +3.15657448160E-05 +5.16987238920E-05 +3.06303329870E-05 +2.22485965508E-05 -6.34496405391E-01 +5.81447819979E-01
1.07000000000E+09 -5.73073491452E-01 +7.68574024156E-01 +7.60853138110E-06 +1.42553362671E-05 +3.77858677037E-06 +3.30510272071E-05 -6.31126181684E-01 +5.84937076974E-01
1.07500000000E+09 -5.67244005175E-01 +7.72546845550E-01 +4.21607015779E-05 -2.48874511732E-05 +7.86202841175E-05 +4.31833340271E-05 -6.27501999201E-01 +5.88397481922E-01
1.08000000000E+09 -5.63189664899E-01 +7.75633262851E-01 +5.10637601539E-06 +4.68435544358E-05 +2.08778120328E-05 +6.70516270580E-05 -6.24352153174E-01 +5.91967810814E-01
1.08500000000E+09 -5.60505087179E-01 +7.77979286855E-01 +4.73160680565E-05 +2.71572902213E-05 -4.14357531095E-05 +7.78211133740E-05 -6.21352682431E-01 +5.95370690316E-01
1.09000000000E+09 -5.58187152312E-01 +7.79936369082E-01 -1.97515364958E-05 +4.15722430723E-05 +4.31317703317E-05 +3.40917927050E-05 -6.18181528734E-01 +5.98879482880E-01
1.09500000000E+09 -5.56497275819E-01 +7.81449958702E-01 +2.95324143308E-05 -4.58496246623E-05 +5.35322649760E-05 +2.57917842746E-05 -6.15255171499E-01 +6.02521601436E-01
1.10000000000E+09 -5.53462146696E-01 +7.83578758461E-01 +3.07347772036E-05 -4.57609269001E-05 +1.88831628741E-05 -2.16177726703E-06 -6.12077876486E-01 +6.06067928504E-01
1.10500000000E+09 -5.49444430233E-01 +7.86195476397E-01 +5.59046574981E-05 -2.52183205090E-05 -4.94154590848E-06 -4.05307884256E-06 -6.08660622167E-01 +6.09519892481E-01
1.11000000000E+09 -5.43901252066E-01 +7.89609587250E-01 +5.02907015505E-05 -5.36443683596E-07 +2.78475599412E-05 +1.20678243390E-06 -6.05137531443E-01 +6.12708222471E-01
1.11500000000E+09 -5.36865482509E-01 +7.93773863814E-01 +4.74589920457E-06 +3.81006434099E-05 +4.62847796845E-05 -1.73609625682E-05 -6.01904367171E-01 +6.15846073532E-01
1.12000000000E+09 -5.29314527735E-01 +7.98126651652E-01 +1.15260033910E-05 +1.81470294173E-06 +3.09971605697E-05 +4.60034357901E-05 -5.98736148209E-01 +6.19591767773E-01
1.12500000000E+09 -5.21510090941E-01 +8.02537427385E-01 +4.81403726045E-05 +7.38647735713E-06 +4.37894140362E-05 -2.47507429790E-06 -5.95316843470E-01 +6.23372578916E-01
1.13000000000E+09 -5.14487159332E-01 +8.06453003912E-01 +5.28220725743E-05 +6.44543699327E-05 +1.85421204281E-06 -1.24548655413E-05 -5.91696100791E-01 +6.27204431436E-01
1.13500000000E+09 -5.08286362530E-01 +8.09289556301E-01 +4.31898167521E-05 -3.80624046137E-06 +8.01099931126E-05 +4.02173550499E-06 -5.87859599586E-01 +6.30850869558E-01
1.14000000000E+09 -5.03039174437E-01 +8.11730063783E-01 +2.94563861631E-05 +4.65540353135E-06 +6.67384575387E-05 +7.07916694117E-07 -5.83806248007E-01 +6.34352313569E-01
1.14500000000E+09 -4.99273197812E-01 +8.13101430836E-01 +2.36391754816E-05 -1.32655388323E-05 +9.90714805245E-05 -2.64887946799E-05 -5.79837718758E-01 +6.37750682101E-01
1.15000000000E+09 -4.95538924092E-01 +8.14359589003E-01 +6.14790785748E-05 -3.54098881043E-06 +5.95509137529E-05 -7.86655571736E-06 -5.75861235789E-01 +6.41363279656E-01
1.15500000000E+09 -4.91844920839E-01 +8.15704260649E-01 +7.03193872096E-05 +7.56338350079E-06 +6.08889551951E-05 +1.03293618610E-05 -5.71945602617E-01 +6.45098150745E-01
1.16000000000E+09 -4.87460893643E-01 +8.17387589272E-01 +8.11771472142E-05 -4.63551644250E-06 +2.15582994445E-05 -6.61860935078E-05 -5.67928651452E-01 +6.48689194968E-01
1.16500000000E+09 -4.81625773151E-01 +8.20132504265E-01 +2.83048263673E-05 -1.54034546627E-05 +1.05215956643E-04 -1.61729788811E-05 -5.63715647983E-01 +6.52136235041E-01
1.17000000000E+09 -4.74937867946E-01 +8.23413961319E-01 +7.60273871781E-05 -1.46040409643E-05 +5.65979969392E-05 -4.78506672054E-06 -5.59219657988E-01 +6.55427107780E-01
1.17500000000E+09 -4.67309231929E-01 +8.27106589498E-01 +6.12957432460E-05 -3.70156633615E-05 -5.34112475563E-06 -1.67314628720E-05 -5.54437506028E-01 +6.58582564511E-01
1.18000000000E+09 -4.59394307113E-01 +8.31386393104E-01 +4.97150677479E-05 -2.32159412159E-05 +5.17144050706E-05 -3.15094490264E-05 -5.49961298842E-01 +6.61757167802E-01
1.18500000000E+09 -4.51608246249E-01 +8.35114071899E-01 +1.60430587461E-05 -8.79870142364E-05 +5.06601537555E-05 -8.87795262721E-05 -5.45008062506E-01 +6.64681611158E-01
1.19000000000E+09 -4.44413106516E-01 +8.38115700841E-01 +2.54272714542E-05 -4.65462228940E-05 +7.32884366114E-05 -9.92912745372E-05 -5.39764599582E-01 +6.67538007537E-01
1.19500000000E+09 -4.38368525685E-01 +8.40253212321E-01 +5.72658735618E-05 -8.77484281984E-05 +8.63680865558E-05 -1.17666033840E-04 -5.34541156842E-01 +6.68853726327E-01
1.20000000000E+09 -4.33302622646E-01 +8.41140641662E-01 -6.79096600716E-07 -1.66134926463E-04 +3.69546152520E-05 -1.61596974511E-04 -5.30598396803E-01 +6.69524562321E-01
1.20500000000E+09 -4.28659302400E-01 +8.41979279094E-01 -7.24220460717E-05 -1.27968329484E-04 -7.36584764830E-05 -1.33635213348E-04 -5.28574833492E-01 +6.70313316037E-01
1.21000000000E+09 -4.23859057803E-01 +8.42881822038E-01 -9.76109851330E-05 -8.65858726313E-05 -5.19659548822E-05 -2.46262674965E-05 -5.27058708053E-01 +6.73221952715E-01
1.21500000000E+09 -4.17992205005E-01 +8.44284960186E-01 -5.23827373866E-05 -1.47858544593E-05 -5.36905752355E-05 -5.13887818613E-05 -5.24798625263E-01 +6.77584251227E-01
1.22000000000E+09 -4.10550741136E-01 +8.46192243747E-01 -2.69589516218E-05 -5.68070064933E-05 +5.60199582686E-06 -4.49518533654E-05 -5.21374664753E-01 +6.82537078502E-01
1.22500000000E+09 -4.01833949753E-01 +8.48984492516E-01 +1.68112311838E-05 -2.14925884075E-05 -2.32228831858E-05 -6.79020522513E-05 -5.17140486588E-01 +6.87398264289E-01
1.23000000000E+09 -3.92068204149E-01 +8.52221357796E-01 +3.35633253673E-05 -6.92077883747E-05 +2.22665410513E-05 -6.98609680946E-05 -5.12504130689E-01 +6.91881187522E-01
1.23500000000E+09 -3.82075454472E-01 +8.56213788237E-01 -5.31403776637E-05 -5.11450724029E-05 -5.86252893972E-05 -8.50884829546E-05 -5.07694368004E-01 +6.96169094296E-01
1.24000000000E+09 -3.72235977023E-01 +8.60554186253E-01 +7.31869481959E-07 -1.24810013702E-04 -2.45532521685E-05 -1.00654012112E-04 -5.02719813659E-01 +6.99794284166E-01
1.24500000000E+09 -3.63334084527E-01 +8.65013527705E-01 -4.10683632396E-05 -9.70353044282E-05 -1.84524635471E-05 -7.22507826659E-05 -4.97661670152E-01 +7.03531560721E-01
1.25000000000E+09 -3.55354213628E-01 +8.68531386080E-01 -4.11083532925E-05 -8.28912087830E-05 -6.91278819913E-05 -1.27149933811E-04 -4.92187963930E-01 +7.07775306296E-01
1.25500000000E+09 -3.48653248803E-01 +8.71130631771E-01 -3.40388108585E-05 -9.55587757983E-05 -6.44619696075E-05 -1.17607930036E-04 -4.86601769103E-01 +7.11747342231E-01
1.26000000000E+09 -3.42752261883E-01 +8.72873458086E-01 -5.44757088103E-05 -7.16082713068E-05 -3.90729921853E-05 -1.05534360991E-04 -4.81075365601E-01 +7.16205323019E-01
1.26500000000E+09 -3.37245919541E-01 +8.73990100745E-01 -1.02309524256E-04 -1.12094292808E-04 -8.00694174401E-05 -1.40091911160E-04 -4.75316137577E-01 +7.20273285458E-01
1.27000000000E+09 -3.31373870336E-01 +8.74704908027E-01 -1.36838533981E-04 -8.93414332743E-05 -1.50537875030E-04 -1.05529834509E-04 -4.69447532701E-01 +7.24304699660E-01
1.27500000000E+09 -3.23870142305E-01 +8.75703998235E-01 -1.35005664266E-04 -1.19761920239E-04 -1.18911514709E-04 -1.26545057472E-04 -4.63352294962E-01 +7.28087828309E-01
1.28000000000E+09 -3.14791690757E-01 +8.77167702017E-01 -1.57448743951E-04 -8.00650640071E-05 -1.73231980029E-04 -1.26327659323E-04 -4.57313700920E-01 +7.32043885697E-01
1.28500000000E+09 -3.03632793300E-01 +8.79289721920E-01 -1.92174600384E-04 -6.12737246156E-05 -1.91282444687E-04 -2.22610868542E-05 -4.50799951263E-01 +7.35868468841E-01
1.29000000000E+09 -2.91778454070E-01 +8.82148079683E-01 -1.86116125249E-04 -4.07988080626E-05 -1.60626147405E-04 +2.47925554555E-05 -4.44219519907E-01 +7.40102846420E-01
1.29500000000E+09 -2.79716451583E-01 +8.85514917068E-01 -1.71808206516E-04 -1.20458503547E-05 -2.00477528215E-04 -1.31706251569E-05 -4.37471218714E-01 +7.43860210468E-01
1.30000000000E+09 -2.67861537053E-01 +8.89406394892E-01 -1.71249363182E-04 +2.24430804342E-05 -1.57409550056E-04 +3.80156358242E-05 -4.30610428574E-01 +7.47578694607E-01
1.30500000000E+09 -2.57081940941E-01 +8.93106041614E-01 -1.97218460807E-04 -2.03825064248E-05 -2.00242060834E-04 +1.84498884157E-05 -4.23569134754E-01 +7.51463386628E-01
1.31000000000E+09 -2.47910437899E-01 +8.95570916295E-01 -1.90232976286E-04 +3.83410291295E-05 -2.34847494780E-04 -3.44675141783E-05 -4.16159434054E-01 +7.55279278623E-01
1.31500000000E+09 -2.40646626022E-01 +8.97184136647E-01 -2.09880086352E-04 +3.78266707729E-05 -2.26231252266E-04 +6.50469205339E-05 -4.08543470265E-01 +7.58960076165E-01
1.32000000000E+09 -2.34669191774E-01 +8.97910364288E-01 -2.41152920241E-04 +6.13946333032E-05 -2.65445044133E-04 +9.06867386102E-05 -4.00738525581E-01 +7.62627726030E-01
1.32500000000E+09 -2.28819699468E-01 +8.97560305074E-01 -2.51005265538E-04 +1.36508935600E-04 -2.49133900031E-04 +1.31701942285E-04 -3.92329638099E-01 +7.66302782400E-01
1.33000000000E+09 -2.21751083325E-01 +8.97198408502E-01 -1.99409457556E-04 +1.40626172212E-04 -1.99573665371E-04 +1.32914827649E-04 -3.84023201033E-01 +7.70034842424E-01
1.33500000000E+09 -2.12670787227E-01 +8.96539866455E-01 -2.35565643211E-04 +1.18220959414E-04 -2.04621897597E-04 +1.17200158037E-04 -3.75379652840E-01 +7.73514153746E-01
1.34000000000E+09 -2.01082151999E-01 +8.96310402287E-01 -2.36664138857E-04 +1.92634954282E-04 -2.42081095927E-04 +1.49181435812E-04 -3.66533091174E-01 +7.77268605348E-01
1.34500000000E+09 -1.86864263983E-01 +8.96182090921E-01 -2.63683605505E-04 +2.50053291965E-04 -2.76993164775E-04 +2.31544789666E-04 -3.56986910599E-01 +7.81095678531E-01
1.35000000000E+09 -1.70800764141E-01 +8.96715768911E-01 -2.65847724474E-04 +2.62672107785E-04 -2.39863639254E-04 +2.50486057132E-04 -3.46985192352E-01 +7.84832925392E-01
1.35500000000E+09 -1.53804961168E-01 +8.97769613607E-01 -2.45588237479E-04 +3.15202696944E-04 -2.31516795298E-04 +2.58753969773E-04 -3.36650883342E-01 +7.88495669857E-01
1.36000000000E+09 -1.36867817654E-01 +8.98853376286E-01 -2.07362505037E-04 +3.29733369828E-04 -2.27535388199E-04 +3.36510359246E-04 -3.25923161998E-01 +7.91933791944E-01
1.36500000000E+09 -1.21250491001E-01 +8.99709843294E-01 -2.31961660493E-04 +4.02936567580E-04 -2.19397801591E-04 +3.86563609571E-04 -3.15158139834E-01 +7.95298322484E-01
1.37000000000E+09 -1.07318899185E-01 +8.99714912630E-01 -1.45276409351E-04 +5.22103045972E-04 -1.87425380674E-04 +4.54912353930E-04 -3.03640682151E-01 +7.98504001233E-01
1.37500000000E+09 -9.54330795208E-02 +8.99334469039E-01 -8.27288822371E-05 +4.70402138771E-04 -1.54967579987E-04 +5.00074821662E-04 -2.91287885178E-01 +8.01677616034E-01
1.38000000000E+09 -8.46597164197E-02 +8.98183632443E-01 +1.28156845270E-05 +4.76858413465E-04 -1.17099878887E-04 +5.41049437660E-04 -2.78179675128E-01 +8.04689019764E-01
1.38500000000E+09 -7.35629762760E-02 +8.96291062721E-01 +6.76166051021E-06 +5.67405429915E-04 -2.69469798326E-05 +6.22703650606E-04 -2.64261642698E-01 +8.07738782266E-01
1.39000000000E+09 -6.13457101789E-02 +8.93575803474E-01 +7.18008594174E-05 +6.02779062502E-04 +3.85568272703E-05 +6.79707828842E-04 -2.49684506953E-01 +8.10362769417E-01
1.39500000000E+09 -4.65878318424E-02 +8.90285330763E-01 +9.58873373363E-05 +5.62211852115E-04 +1.65124192728E-04 +6.39653088894E-04 -2.34447882432E-01 +8.12562511916E-01
1.40000000000E+09 -2.89175748673E-02 +8.86105314130E-01 +1.01579660460E-04 +7.05416496973E-04 +1.63053566390E-04 +7.35302822686E-04 -2.18582938102E-01 +8.14471887322E-01
1.40500000000E+09 -9.08129648585E-03 +8.81492179554E-01 +3.24127469597E-04 +7.70871627713E-04 +3.55415155936E-04 +7.87394418634E-04 -2.01718311413E-01 +8.15890366689E-01
1.41000000000E+09 +1.28176755039E-02 +8.76404266557E-01 +4.37150193098E-04 +7.89788206925E-04 +3.95624936438E-04 +7.78598038687E-04 -1.83012133089E-01 +8.16962065640E-01
1.41500000000E+09 +3.57372878074E-02 +8.70814106609E-01 +5.87311755059E-04 +8.43288614247E-04 +5.90671138517E-04 +8.38495046442E-04 -1.62972974893E-01 +8.17312778175E-01
1.42000000000E+09 +5.85678159105E-02 +8.64422108946E-01 +7.47055477795E-04 +7.30775792781E-04 +8.21660841085E-04 +8.04623895285E-04 -1.41501839334E-01 +8.16995285771E-01
1.42500000000E+09 +8.01197354693E-02 +8.56914932577E-01 +8.29900397208E-04 +7.37995216963E-04 +9.93557565824E-04 +8.11784703636E-04 -1.18879184311E-01 +8.15614175915E-01
1.43000000000E+09 +1.00574373616E-01 +8.48217844753E-01 +9.72774933204E-04 +7.04309649105E-04 +1.11916025869E-03 +6.75520457002E-04 -9.53737586146E-02 +8.13202434633E-01
1.43500000000E+09 +1.20276241447E-01 +8.37639092607E-01 +1.23902698047E-03 +7.88399626505E-04 +1.33400264451E-03 +6.84445428159E-04 -7.02269520154E-02 +8.09412692568E-01
1.44000000000E+09 +1.40285062850E-01 +8.25408500110E-01 +1.78902349352E-03 +6.35346897722E-04 +1.82884166151E-03 +4.80686475824E-04 -4.30836849671E-02 +8.03701918711E-01
1.44500000000E+09 +1.62146980510E-01 +8.09877243279E-01 +1.99772169944E-03 +1.10104144546E-04 +2.04608285377E-03 -1.84335793253E-06 -1.36646709427E-02 +7.95678485477E-01
1.45000000000E+09 +1.86503267203E-01 +7.90965823631E-01 +1.92590064523E-03 -1.66723340370E-04 +1.98425041578E-03 -3.46884155856E-04 +1.79385905966E-02 +7.84399513621E-01
1.45500000000E+09 +2.13377104621E-01 +7.67865856346E-01 +1.98184557709E-03 -3.30468035247E-04 +1.96462584498E-03 -5.04881287081E-04 +5.12596099748E-02 +7.70463705585E-01
1.46000000000E+09 +2.43376664140E-01 +7.40546188794E-01 +2.27916794309E-03 -5.51170898504E-04 +2.13159323455E-03 -7.09447862108E-04 +8.59746163042E-02 +7.52129369485E-01
1.46500000000E+09 +2.74757148953E-01 +7.08737956365E-01 +2.65013771689E-03 -1.07838376045E-03 +2.42536887756E-03 -1.12758787700E-03 +1.22444964338E-01 +7.29415963219E-01
1.47000000000E+09 +3.06837220107E-01 +6.72740668354E-01 +2.79300888361E-03 -1.92962165915E-03 +2.59528952408E-03 -1.75990454593E-03 +1.60427040236E-01 +6.99422861577E-01
1.47500000000E+09 +3.38053773351E-01 +6.31447209317E-01 +2.65331501830E-03 -3.02318994620E-03 +2.63181718645E-03 -2.85352185192E-03 +1.98509939891E-01 +6.62307081629E-01
1.48000000000E+09 +3.65949619715E-01 +5.83728406162E-01 +1.71079251443E-03 -3.76603965826E-03 +1.81313614797E-03 -3.76451960985E-03 +2.36416946333E-01 +6.16630631997E-01
1.48500000000E+09 +3.87868593933E-01 +5.29971774615E-01 +1.23849760408E-03 -4.19899587843E-03 +1.24798234526E-03 -4.33679824893E-03 +2.72174219483E-01 +5.61723193562E-01
1.49000000000E+09 +4.03238745079E-01 +4.68926563376E-01 +5.49042411421E-04 -4.90795424164E-03 +3.36614001013E-04 -4.89972052392E-03 +3.03282644649E-01 +4.95346715498E-01
1.49500000000E+09 +4.09469491885E-01 +4.00661669445E-01 -7.73962546962E-04 -5.87093885295E-03 -9.56548059842E-04 -5.56622611429E-03 +3.23273157442E-01 +4.18935435886E-01
1.50000000000E+09 +4.07182397945E-01 +3.24475444127E-01 -2.77594090013E-03 -5.55320363818E-03 -2.65933037074E-03 -5.22669055000E-03 +3.32046757760E-01 +3.33839464629E-01
1.50500000000E+09 +3.92117625647E-01 +2.38732618412E-01 -3.78034851770E-03 -5.28582474286E-03 -3.51558635448E-03 -5.22997237527E-03 +3.23367072715E-01 +2.40074008507E-01
1.51000000000E+09 +3.60023261475E-01 +1.48258259798E-01 -5.94895549037E-03 -4.53516182049E-03 -5.69560102570E-03 -4.70396559803E-03 +2.93997813510E-01 +1.42513128425E-01
1.51500000000E+09 +3.09249844938E-01 +5.87964341609E-02 -7.39068194318E-03 -3.19810394511E-03 -7.38447464534E-03 -3.41070351866E-03 +2.41995902750E-01 +5.03950473970E-02
1.52000000000E+09 +2.39843727400E-01 -2.12140249510E-02 -9.41245607613E-03 -5.79489249196E-04 -9.41751782082E-03 -6.64065986871E-04 +1.70960212691E-01 -3.16620213882E-02
1.52500000000E+09 +1.55564992857E-01 -8.63791864057E-02 -8.55605435550E-03 +3.58092679132E-03 -8.57935983172E-03 +3.59912256125E-03 +8.16094575583E-02 -9.50842260535E-02
1.53000000000E+09 +5.73738440751E-02 -1.32908255177E-01 -6.18911926819E-03 +5.08926482417E-03 -6.23242291799E-03 +5.05502021246E-03 -1.74063747293E-02 -1.36619744002E-01
1.53500000000E+09 -4.82554782452E-02 -1.52761973194E-01 -4.79825021877E-03 +6.53127803487E-03 -4.76789125404E-03 +6.52115909000E-03 -1.20433018070E-01 -1.54520429464E-01
1.54000000000E+09 -1.53450405030E-01 -1.48302773816E-01 -2.39695186748E-03 +6.80979937455E-03 -2.38351618241E-03 +6.70373316179E-03 -2.19120830698E-01 -1.50933206398E-01
1.54500000000E+09 -2.54840556125E-01 -1.23560249443E-01 -7.63811202665E-04 +7.08323000020E-03 -9.18353627339E-04 +6.90244299543E-03 -3.07329146281E-01 -1.29790142069E-01
1.55000000000E+09 -3.46212730123E-01 -7.94555378628E-02 +1.24831557630E-03 +6.71238410995E-03 +9.40921737369E-04 +6.74621523731E-03 -3.83539372590E-01 -9.78783111417E-02
1.55500000000E+09 -4.22873008023E-01 -2.49922309606E-02 +3.10775110376E-03 +5.41899744561E-03 +2.90833319770E-03 +5.65657562518E-03 -4.47670665486E-01 -5.66315926788E-02
1.56000000000E+09 -4.85461062739E-01 +3.30522767015E-02 +3.75649647813E-03 +3.62674194479E-03 +3.74755394694E-03 +3.94002125575E-03 -4.98990588208E-01 -1.04418244158E-02
1.56500000000E+09 -5.35802326674E-01 +9.22576315200E-02 +3.72612358827E-03 +2.41718379347E-03 +3.89786815831E-03 +2.63932696246E-03 -5.39163823225E-01 +3.78299897417E-02
1.57000000000E+09 -5.72901571515E-01 +1.49820063149E-01 +3.76259264247E-03 +1.53745140666E-03 +3.98221285262E-03 +1.57006415559E-03 -5.70000406052E-01 +8.51031890328E-02
