# Hz S RI R 50
! CMT, C1220, 16058040, 17.2.0/1
! Date: 14/08/2018 12:13:35
! Data: Format (Calibration Info)
! Freq                      S11: Re/Im (F2)                       S21: Re/Im (F2)                       S12: Re/Im (F2)                       S22: Re/Im (F2)            
1.00000000000E+09 -6.46768095212E-01 +7.14408153804E-01 +1.74369407562E-05 -2.22529322531E-05 -7.16904430081E-06 +1.69755499584E-05 -7.53580279578E-01 +6.24925246758E-01
1.00500000000E+09 -6.39648824641E-01 +7.19668555678E-01 -2.88098502915E-05 +1.81997550635E-05 +1.42034942434E-06 -1.42992766937E-05 -7.49856116991E-01 +6.28968725724E-01
1.01000000000E+09 -6.33605999284E-01 +7.24274449076E-01 +1.86005630806E-06 +2.74187795882E-06 -2.66292755214E-05 +2.15468303872E-06 -7.46302775798E-01 +6.32824090579E-01
1.01500000000E+09 -6.29634829158E-01 +7.28017624631E-01 -1.91155127908E-05 -1.10650370773E-05 +1.71388709160E-05 -4.35298017282E-06 -7.42839527519E-01 +6.36663914527E-01
1.02000000000E+09 -6.27471064054E-01 +7.31134269772E-01 -1.25544944608E-05 +3.61752933463E-05 +2.66472275912E-05 -6.03386471243E-05 -7.39563092596E-01 +6.40052693920E-01
1.02500000000E+09 -6.26276297218E-01 +7.33460171040E-01 +2.28183034064E-05 -3.22321451654E-05 -1.67487969910E-05 -1.96365790200E-06 -7.36740429779E-01 +6.43775039180E-01
1.03000000000E+09 -6.25561895242E-01 +7.35596640620E-01 +5.23155254800E-07 -2.83202881940E-05 +8.30316920072E-05 +1.78472642906E-07 -7.33224267143E-01 +6.47647379776E-01
1.03500000000E+09 -6.23905091005E-01 +7.37637932968E-01 +9.22109620163E-06 +2.39524898115E-05 +9.38834935903E-06 -7.48396348143E-06 -7.29435849714E-01 +6.51534052118E-01
1.04000000000E+09 -6.20774763120E-01 +7.40296263469E-01 +4.84227254990E-05 +5.96387316897E-06 -1.50420549534E-05 -2.73347355592E-05 -7.25712426837E-01 +6.55236069894E-01
1.04500000000E+09 -6.15545002272E-01 +7.43608704730E-01 +7.37114641781E-06 -2.81782452759E-05 -7.95663385681E-06 +3.10134003973E-05 -7.22225916284E-01 +6.58803870281E-01
1.05000000000E+09 -6.08209166163E-01 +7.47562855129E-01 +9.55651827514E-06 +2.04132834253E-05 +5.74505707388E-06 +5.06009751751E-05 -7.18763264603E-01 +6.62242458459E-01
1.05500000000E+09 -5.99399345236E-01 +7.52368424778E-01 +5.38554319365E-05 +3.50068350047E-05 -2.11820955321E-05 +3.55002239424E-05 -7.15375676545E-01 +6.65646823222E-01
1.06000000000E+09 -5.89791908248E-01 +7.57597330191E-01 -1.70476386167E-05 +6.26933136840E-05 +1.74265553866E-05 +3.80189599509E-05 -7.12255661049E-01 +6.69361949348E-01
1.06500000000E+09 -5.80923867351E-01 +7.62800665481E-01 -1.29712449144E-05 +6.22194762851E-05 +1.95175487310E-05 +1.15326150021E-05 -7.08399941513E-01 +6.73287060230E-01
1.07000000000E+09 -5.73253551648E-01 +7.67184165654E-01 -1.16335533467E-05 -4.78747820085E-05 -2.57264214008E-05 -3.00817271968E-05 -7.04381690106E-01 +6.77018591233E-01
1.07500000000E+09 -5.67520401468E-01 +7.71314572906E-01 +2.57263858387E-05 +1.12373536362E-05 -1.94000599967E-05 +4.85470033954E-05 -7.00192452300E-01 +6.80691577823E-01
1.08000000000E+09 -5.63738426898E-01 +7.74503014993E-01 -1.21567219008E-05 +2.54600055877E-05 +3.06590464192E-05 +2.10880157352E-05 -6.96033012051E-01 +6.84603818342E-01
1.08500000000E+09 -5.61685081785E-01 +7.76926259633E-01 +5.23381203490E-05 +1.93069602880E-05 +3.81436561502E-05 -2.51505542743E-05 -6.92158561303E-01 +6.88280108514E-01
1.09000000000E+09 -5.60247145127E-01 +7.78986875787E-01 +2.56798842974E-05 +4.92188822259E-05 +3.59535512160E-05 +2.20103460043E-05 -6.88268424618E-01 +6.92123072926E-01
1.09500000000E+09 -5.58937566403E-01 +7.80566666339E-01 +2.97368287485E-05 +7.47590114719E-06 +2.39130993627E-05 -8.67445839124E-06 -6.84404856135E-01 +6.96068353584E-01
1.10000000000E+09 -5.56215286592E-01 +7.82539147291E-01 +5.75480271685E-06 -3.87658784244E-05 +3.13064765722E-05 -2.98462799890E-05 -6.80498861682E-01 +6.99791623431E-01
1.10500000000E+09 -5.52106667635E-01 +7.84983519938E-01 +9.86099933767E-06 -3.06125390636E-05 +1.95660309181E-05 +1.71322511023E-06 -6.76294147520E-01 +7.03508309099E-01
1.11000000000E+09 -5.45979616032E-01 +7.88062689727E-01 -3.13579718092E-05 +2.20320220114E-05 +1.75692464180E-05 +1.11572605968E-05 -6.71993931401E-01 +7.06714319362E-01
1.11500000000E+09 -5.38488796097E-01 +7.92037825761E-01 -1.82661476894E-05 +6.15911971661E-06 -5.06539347393E-05 -2.82891142193E-05 -6.67884605061E-01 +7.10239847168E-01
1.12000000000E+09 -5.30249421341E-01 +7.96106011877E-01 +1.34851198191E-05 +3.56865677553E-06 +7.46507714329E-06 -3.12092082218E-05 -6.63916057143E-01 +7.13875140348E-01
1.12500000000E+09 -5.21952178358E-01 +8.00422393236E-01 -1.57918235484E-05 -6.27549183336E-05 +2.50580208274E-05 +2.03027043752E-05 -6.59469408117E-01 +7.17912191545E-01
1.13000000000E+09 -5.14493232826E-01 +8.04196182507E-01 +6.36730408990E-05 -1.43099230428E-05 +2.72809064549E-05 -2.02104379948E-05 -6.55263416577E-01 +7.21559013630E-01
1.13500000000E+09 -5.08291145273E-01 +8.07440315736E-01 +2.61423529285E-05 -2.34054288544E-06 -1.18171005852E-05 +2.31706543426E-05 -6.50756088899E-01 +7.25427394502E-01
1.14000000000E+09 -5.03722684425E-01 +8.10113061067E-01 +5.19184994854E-05 +2.51057606510E-05 +4.40172360968E-05 +5.74104341355E-06 -6.46189006833E-01 +7.28785331125E-01
1.14500000000E+09 -5.00275412863E-01 +8.12017120474E-01 +3.11064078155E-05 +8.12172777670E-06 -3.98126892759E-07 -9.42941299798E-06 -6.41495062853E-01 +7.32347995612E-01
1.15000000000E+09 -4.97232616552E-01 +8.13557633066E-01 +1.50146369753E-05 -4.27361089909E-05 +6.35082817203E-05 -1.38944150034E-05 -6.36748018814E-01 +7.36016699340E-01
1.15500000000E+09 -4.94208679362E-01 +8.15243251721E-01 +1.41007469005E-05 -2.06697224377E-05 +3.30614212421E-05 -1.08572312935E-05 -6.31932684502E-01 +7.39685847222E-01
1.16000000000E+09 -4.89854156981E-01 +8.17019852896E-01 +1.80649600780E-05 -7.50288086948E-06 +1.21095498366E-05 -7.57445163310E-06 -6.27096655126E-01 +7.43555973584E-01
1.16500000000E+09 -4.84212493340E-01 +8.19418623392E-01 +3.80629372236E-05 -8.26606667388E-07 -1.82885835677E-05 -7.74832679043E-06 -6.22061362785E-01 +7.47243619576E-01
1.17000000000E+09 -4.77271376736E-01 +8.22373210656E-01 +3.20314936731E-05 +2.93736942065E-06 +4.75728913167E-05 -4.33879650883E-05 -6.16602070532E-01 +7.50747072883E-01
1.17500000000E+09 -4.68971295874E-01 +8.25684111040E-01 +3.62054770027E-05 -1.63304033669E-05 +6.42140961629E-05 -5.50660142189E-06 -6.10835814586E-01 +7.53899207796E-01
1.18000000000E+09 -4.60620268829E-01 +8.29269414548E-01 +5.30109141691E-05 -4.39721393970E-05 +5.74809399943E-05 -1.16124650814E-05 -6.05280102998E-01 +7.56999632308E-01
1.18500000000E+09 -4.52330716878E-01 +8.32733861842E-01 +5.96040564244E-05 -3.69431186896E-05 +4.86508451811E-05 -3.17436412236E-05 -5.99400370074E-01 +7.60060957874E-01
1.19000000000E+09 -4.45113352273E-01 +8.35403748016E-01 +4.19089291439E-05 -5.86317480523E-05 +6.73425673964E-05 -1.60356021742E-05 -5.93083346335E-01 +7.62719800068E-01
1.19500000000E+09 -4.38949152541E-01 +8.37779607315E-01 +6.45449649627E-05 -7.76621895132E-05 +8.93500050615E-05 -1.12129319430E-04 -5.87268392675E-01 +7.63861922561E-01
1.20000000000E+09 -4.34478162691E-01 +8.38774880217E-01 +5.33019066454E-05 -1.32944760894E-04 +3.24795417919E-05 -1.32311330379E-04 -5.82710171679E-01 +7.64251472831E-01
1.20500000000E+09 -4.30761524098E-01 +8.40016515586E-01 -2.15837170851E-05 -5.90816941456E-05 -1.90134075331E-05 -9.27748156857E-05 -5.80454960570E-01 +7.64920410421E-01
1.21000000000E+09 -4.26713504718E-01 +8.41254153835E-01 -4.09656153630E-05 -6.38066800002E-05 -3.52540941976E-05 -7.84844025807E-05 -5.78630495890E-01 +7.68108577224E-01
1.21500000000E+09 -4.21562531725E-01 +8.42681688888E-01 -4.99306944013E-05 -6.41284029492E-05 -3.23380663074E-05 -3.18502233455E-05 -5.75834991336E-01 +7.72576352595E-01
1.22000000000E+09 -4.14568585755E-01 +8.44706102727E-01 +4.55517778032E-06 -8.61196344861E-05 -3.25206121993E-05 -7.54149896792E-05 -5.71738950449E-01 +7.77974364062E-01
1.22500000000E+09 -4.05785031353E-01 +8.47174699030E-01 +5.49257551070E-06 -6.93241955849E-05 +2.16296832766E-05 -3.33929910360E-05 -5.66593188727E-01 +7.82984303743E-01
1.23000000000E+09 -3.95358474724E-01 +8.50332966573E-01 -1.63065124706E-05 -8.47338719237E-05 -1.57607653934E-05 -5.46421675375E-05 -5.60924390990E-01 +7.87801888121E-01
1.23500000000E+09 -3.84293088828E-01 +8.53850094127E-01 +2.25320022872E-05 -5.36841187674E-05 -8.55811978017E-06 -5.58249043452E-05 -5.54957454023E-01 +7.92019403778E-01
1.24000000000E+09 -3.73225566514E-01 +8.57801989210E-01 +8.03824068509E-06 -7.98691664277E-05 -4.03754756281E-06 -4.83365614831E-05 -5.49021701766E-01 +7.95919522893E-01
1.24500000000E+09 -3.63074757471E-01 +8.61742376608E-01 -2.65786557205E-05 -9.21398353123E-05 -1.48225217300E-05 -1.22712099983E-04 -5.42655434753E-01 +7.99821203368E-01
1.25000000000E+09 -3.54655545451E-01 +8.65170372410E-01 -8.54191744288E-05 -1.18650917327E-04 -5.70986399017E-05 -1.05197524968E-04 -5.36095850394E-01 +8.04104705010E-01
1.25500000000E+09 -3.47942147051E-01 +8.67765707963E-01 -5.23358991985E-05 -1.06170437913E-04 -4.14715154250E-05 -1.20431718931E-04 -5.29180262046E-01 +8.07951902273E-01
1.26000000000E+09 -3.42642343660E-01 +8.69734684413E-01 -9.63211819115E-05 -1.19907154082E-04 -1.48924669414E-04 -1.01314120830E-04 -5.22501915296E-01 +8.12344062920E-01
1.26500000000E+09 -3.38374597556E-01 +8.71196951152E-01 -7.61595859116E-05 -1.03970800698E-04 -8.33058492023E-05 -9.81911643406E-05 -5.15455205355E-01 +8.16270490734E-01
1.27000000000E+09 -3.33799726398E-01 +8.72529536867E-01 -1.51527559394E-04 -3.89400455451E-05 -9.81507596923E-05 -5.89275657420E-05 -5.08608628853E-01 +8.20079917172E-01
1.27500000000E+09 -3.27961436595E-01 +8.73742116443E-01 -1.46574820992E-04 -7.24320356514E-05 -1.43728392244E-04 -9.64270705280E-05 -5.01553122235E-01 +8.23681848766E-01
1.28000000000E+09 -3.20278797647E-01 +8.75386492580E-01 -1.14328819233E-04 -7.22263494081E-05 -1.18858287453E-04 -7.09383701407E-05 -4.94540872478E-01 +8.26963841251E-01
1.28500000000E+09 -3.10083942212E-01 +8.77475407046E-01 -1.88248143346E-04 -5.31720983884E-05 -1.64881531647E-04 +1.65141602209E-05 -4.87196764182E-01 +8.30750364810E-01
1.29000000000E+09 -2.98370330275E-01 +8.80098889738E-01 -1.71579593388E-04 -3.35744543296E-05 -1.95841302727E-04 -4.70312598254E-06 -4.79650865469E-01 +8.34409898775E-01
1.29500000000E+09 -2.85473644488E-01 +8.83211101240E-01 -1.49283517058E-04 -2.78402326249E-06 -2.38501943480E-04 +3.78603345992E-05 -4.71743874356E-01 +8.37894479001E-01
1.30000000000E+09 -2.72663415708E-01 +8.86663216338E-01 -1.65352087815E-04 -1.51186079446E-06 -1.93878420378E-04 +2.22793218207E-05 -4.63913486887E-01 +8.41564724351E-01
1.30500000000E+09 -2.60978119363E-01 +8.89749391976E-01 -2.72518289679E-04 +5.44166838780E-05 -1.95733119425E-04 +7.18213998505E-05 -4.55861572322E-01 +8.44942411637E-01
1.31000000000E+09 -2.51088659324E-01 +8.92148088566E-01 -1.71118783246E-04 +1.14614986246E-04 -1.79952103685E-04 +9.23649498135E-05 -4.47553781854E-01 +8.48440715085E-01
1.31500000000E+09 -2.43405125577E-01 +8.94124486083E-01 -1.69595895142E-04 +1.27995237229E-04 -1.42050718591E-04 +1.33755343705E-04 -4.38602148805E-01 +8.51774168444E-01
1.32000000000E+09 -2.37466096949E-01 +8.95360400162E-01 -1.68185522303E-04 +1.32673983675E-04 -1.75217171063E-04 +1.25532392732E-04 -4.29542003586E-01 +8.55199646905E-01
1.32500000000E+09 -2.32093131001E-01 +8.95741226106E-01 -1.71671982469E-04 +1.03123277791E-04 -1.57158989612E-04 +1.44199871118E-04 -4.19995292724E-01 +8.58625914561E-01
1.33000000000E+09 -2.25940422169E-01 +8.95734847350E-01 -1.72400857046E-04 +1.85280688473E-04 -1.72124563831E-04 +1.81099701382E-04 -4.10286239373E-01 +8.61981435714E-01
1.33500000000E+09 -2.18044898236E-01 +8.95457455654E-01 -1.93322922923E-04 +1.82805897990E-04 -1.63736199116E-04 +2.63385081343E-04 -4.00482192059E-01 +8.65443780538E-01
1.34000000000E+09 -2.07369959403E-01 +8.95285822863E-01 -1.92018570294E-04 +2.83414852072E-04 -7.68609192992E-05 +2.35489998926E-04 -3.90173681667E-01 +8.68706133135E-01
1.34500000000E+09 -1.93749544190E-01 +8.95050081636E-01 -9.96646310684E-05 +3.18098504056E-04 -8.89423009696E-05 +2.56710416554E-04 -3.79297571199E-01 +8.71988147711E-01
1.35000000000E+09 -1.77907585222E-01 +8.95089058403E-01 -6.63971864367E-05 +2.64940595114E-04 -1.25084273233E-04 +2.51226290849E-04 -3.68210199303E-01 +8.75086458655E-01
1.35500000000E+09 -1.60357050223E-01 +8.95530798178E-01 -6.91416708268E-05 +2.99004770344E-04 -6.97803574750E-05 +2.72843255765E-04 -3.56512373284E-01 +8.77920219634E-01
1.36000000000E+09 -1.42910270448E-01 +8.96011815124E-01 -4.33919965522E-05 +3.37667967431E-04 -3.91792775984E-05 +3.16568793137E-04 -3.44627607521E-01 +8.80745940125E-01
1.36500000000E+09 -1.26281288959E-01 +8.96492769504E-01 -4.85877136877E-05 +3.36442479452E-04 -2.40616741351E-05 +3.56680298475E-04 -3.32479452707E-01 +8.83226129620E-01
1.37000000000E+09 -1.11582924855E-01 +8.96776313133E-01 +6.39567264458E-06 +4.12396269204E-04 +3.74455673803E-06 +3.38168380385E-04 -3.19487530960E-01 +8.85621478637E-01
1.37500000000E+09 -9.94061039721E-02 +8.96855496382E-01 +5.07014105389E-05 +5.10060131728E-04 +1.05609435072E-05 +5.15822240461E-04 -3.05929139826E-01 +8.87915858247E-01
1.38000000000E+09 -8.85134787432E-02 +8.96389647961E-01 +2.20503025060E-04 +5.27261767539E-04 +1.19689930946E-04 +5.35805337758E-04 -2.91242064280E-01 +8.90002353751E-01
1.38500000000E+09 -7.79507230529E-02 +8.95616341141E-01 +2.88788099947E-04 +4.10077465964E-04 +2.92544169397E-04 +4.59011412905E-04 -2.75767634829E-01 +8.91793953203E-01
1.39000000000E+09 -6.67727571034E-02 +8.93772423195E-01 +3.23819922778E-04 +3.78211156770E-04 +3.30346674450E-04 +4.59525062726E-04 -2.59676287662E-01 +8.93305786725E-01
1.39500000000E+09 -5.32919510384E-02 +8.91071110014E-01 +3.34173888255E-04 +3.78132820908E-04 +4.43227029517E-04 +3.81617330542E-04 -2.42802121672E-01 +8.94199458934E-01
1.40000000000E+09 -3.67828204041E-02 +8.87336162938E-01 +4.10016626181E-04 +3.84722470713E-04 +5.11031181649E-04 +3.27511296104E-04 -2.25280077871E-01 +8.94787117355E-01
1.40500000000E+09 -1.77669119091E-02 +8.82581665505E-01 +5.46067993723E-04 +2.64718286752E-04 +5.52990989198E-04 +2.49439092597E-04 -2.06520074481E-01 +8.94606632404E-01
1.41000000000E+09 +3.79957548827E-03 +8.76855777135E-01 +5.39887096259E-04 +1.59408639119E-04 +5.34174682984E-04 +2.04921595427E-04 -1.86148604714E-01 +8.93946300032E-01
1.41500000000E+09 +2.67641703964E-02 +8.70458241376E-01 +5.73764429263E-04 +9.67537220573E-05 +5.65881772400E-04 +1.16748842817E-04 -1.64417590458E-01 +8.92493444578E-01
1.42000000000E+09 +5.01859388353E-02 +8.63964713689E-01 +5.46609140094E-04 +1.07593309436E-04 +5.59955705182E-04 +1.03852248893E-04 -1.41628082718E-01 +8.89747681714E-01
1.42500000000E+09 +7.28878795002E-02 +8.56653844878E-01 +6.00830540434E-04 +4.80756078554E-05 +6.59702295100E-04 +6.74183467307E-05 -1.17796994211E-01 +8.86344460189E-01
1.43000000000E+09 +9.46209109307E-02 +8.48622247513E-01 +6.56652568865E-04 -5.60250004548E-07 +7.02464947639E-04 -4.48910514414E-05 -9.28122620184E-02 +8.81614161582E-01
1.43500000000E+09 +1.15199336248E-01 +8.39218401936E-01 +7.51819668037E-04 -6.28102013308E-05 +7.35153498721E-04 -1.68078489869E-04 -6.64015281882E-02 +8.75077186103E-01
1.44000000000E+09 +1.35460936887E-01 +8.28638682484E-01 +7.17086110417E-04 -2.82556454342E-04 +7.22692113342E-04 -3.29868527641E-04 -3.79936474711E-02 +8.66178262284E-01
1.44500000000E+09 +1.57121414054E-01 +8.15521849088E-01 +5.79535582250E-04 -3.74017849921E-04 +5.88201011698E-04 -4.06907363314E-04 -7.93078270744E-03 +8.54646421063E-01
1.45000000000E+09 +1.80861787496E-01 +7.98757275066E-01 +5.67699062221E-04 -2.72789431413E-04 +5.63157926178E-04 -3.32259142229E-04 +2.41439156773E-02 +8.40209032773E-01
1.45500000000E+09 +2.07376050273E-01 +7.77624544936E-01 +6.93779753712E-04 -2.97774289256E-04 +7.15987687697E-04 -3.58226238080E-04 +5.78374343373E-02 +8.22599219673E-01
1.46000000000E+09 +2.36891409641E-01 +7.51719308572E-01 +8.81100919249E-04 -4.58338921008E-04 +7.50117101385E-04 -5.26746083356E-04 +9.29880867410E-02 +8.00329748104E-01
1.46500000000E+09 +2.68794100168E-01 +7.20359879745E-01 +7.89608834149E-04 -6.30529537060E-04 +6.98349193395E-04 -6.25990531031E-04 +1.28907856719E-01 +7.73371824254E-01
1.47000000000E+09 +3.01692696967E-01 +6.83369885511E-01 +8.01579514172E-04 -5.60228181273E-04 +7.71310240107E-04 -4.86749216390E-04 +1.66048030532E-01 +7.39732919540E-01
1.47500000000E+09 +3.34052819316E-01 +6.41051502075E-01 +1.09978423523E-03 -8.64890064953E-04 +1.06222653664E-03 -7.90676900633E-04 +2.03552180615E-01 +6.98870206499E-01
1.48000000000E+09 +3.64189287357E-01 +5.92314986285E-01 +1.17430339553E-03 -1.24267043479E-03 +1.19241010533E-03 -1.20674934655E-03 +2.40523157015E-01 +6.48847143403E-01
1.48500000000E+09 +3.89204405323E-01 +5.37309728822E-01 +1.11936136238E-03 -1.79278195855E-03 +1.10505344854E-03 -1.87855343850E-03 +2.74652537210E-01 +5.89195453845E-01
1.49000000000E+09 +4.08175870624E-01 +4.75293353941E-01 +5.41709618555E-04 -2.32622950627E-03 +3.94933252187E-04 -2.37814159707E-03 +3.02373020567E-01 +5.19025096965E-01
1.49500000000E+09 +4.19027441844E-01 +4.05780443517E-01 +4.43368176104E-04 -2.30322547662E-03 +3.21086763323E-04 -2.17040378963E-03 +3.20845948594E-01 +4.39430344306E-01
1.50000000000E+09 +4.19176169214E-01 +3.26991506566E-01 +1.78949821927E-04 -3.27810983402E-03 +1.16129468658E-04 -3.06027697028E-03 +3.26383214438E-01 +3.49274907242E-01
1.50500000000E+09 +4.05633821551E-01 +2.40236011836E-01 -9.35734144659E-04 -3.78330878424E-03 -7.92537220247E-04 -3.60484541882E-03 +3.13921492757E-01 +2.51773888789E-01
1.51000000000E+09 +3.74702548449E-01 +1.47944901431E-01 -2.27164430204E-03 -4.03935474722E-03 -2.11374399719E-03 -4.05671244318E-03 +2.80583581382E-01 +1.51966939167E-01
1.51500000000E+09 +3.24357422310E-01 +5.56606263568E-02 -4.28715193043E-03 -3.59522135960E-03 -4.23255291058E-03 -3.76550099639E-03 +2.26275393496E-01 +5.47727610022E-02
1.52000000000E+09 +2.53169322110E-01 -2.93667827498E-02 -5.53056180092E-03 -1.39910697450E-03 -5.55588286223E-03 -1.49997495701E-03 +1.48710744680E-01 -3.16757612517E-02
1.52500000000E+09 +1.64901972997E-01 -9.94841261906E-02 -5.13409656894E-03 +1.27400345960E-04 -5.19592391976E-03 +1.14745471560E-04 +5.34992913303E-02 -9.85852601638E-02
1.53000000000E+09 +6.19469656329E-02 -1.50029448610E-01 -5.16108997886E-03 +9.29119129147E-04 -5.22148189092E-03 +9.67325999116E-04 -5.29196384446E-02 -1.43845192712E-01
1.53500000000E+09 -5.01526915601E-02 -1.73876271300E-01 -5.22407093244E-03 +2.68732734393E-03 -5.25031051696E-03 +2.69125125679E-03 -1.65227166222E-01 -1.64108934417E-01
1.54000000000E+09 -1.61793257567E-01 -1.69955159783E-01 -4.22552721549E-03 +3.94970432884E-03 -4.19302214131E-03 +3.89409257143E-03 -2.73658371370E-01 -1.60106194647E-01
1.54500000000E+09 -2.66445559646E-01 -1.42655356533E-01 -2.99639590052E-03 +5.50862892474E-03 -3.08909175961E-03 +5.41008874398E-03 -3.72686077482E-01 -1.37243503870E-01
1.55000000000E+09 -3.59714256201E-01 -9.67296997964E-02 -8.12182414503E-04 +5.81048538960E-03 -1.02675892277E-03 +5.82992549590E-03 -4.58608945361E-01 -9.88330287054E-02
1.55500000000E+09 -4.38291574873E-01 -3.86192350115E-02 +6.40711585846E-04 +5.37369793084E-03 +3.90332813459E-04 +5.53859332004E-03 -5.29199180414E-01 -5.12610894293E-02
1.56000000000E+09 -5.01016486070E-01 +2.52730396544E-02 +1.98772242037E-03 +5.09208841661E-03 +1.90354077397E-03 +5.35119990814E-03 -5.86072779032E-01 +2.01447975112E-03
1.56500000000E+09 -5.48974412603E-01 +8.85092897022E-02 +3.47529321269E-03 +3.90642305195E-03 +3.59249010309E-03 +4.19318223759E-03 -6.30567946806E-01 +5.80055504851E-02
1.57000000000E+09 -5.85710453746E-01 +1.49143037162E-01 +4.00873620753E-03 +2.00022539329E-03 +4.27377703167E-03 +2.12803644841E-03 -6.63621955140E-01 +1.13309251025E-01
