# Hz S RI R 50
! CMT, C1220, 16058040, 17.2.0/1
! Date: 14/08/2018 12:17:05
! Data: Format (Calibration Info)
! Freq                      S11: Re/Im (F2)                       S21: Re/Im (F2)                       S12: Re/Im (F2)                       S22: Re/Im (F2)            
1.00000000000E+09 -6.48486720651E-01 +7.14457161050E-01 -2.88438616542E-06 -3.61264898375E-05 +3.00349734818E-06 +3.52579650257E-05 -7.53829017631E-01 +6.24732366313E-01
1.00500000000E+09 -6.41320600436E-01 +7.19478726227E-01 -6.74954689037E-06 -6.70640642987E-06 -1.51741571459E-05 -5.21764985688E-06 -7.50083618224E-01 +6.28945346020E-01
1.01000000000E+09 -6.35705663461E-01 +7.24122320580E-01 -6.33576110057E-06 -3.52071784909E-05 -4.48017589231E-05 -3.49746112366E-05 -7.46575387321E-01 +6.32481505085E-01
1.01500000000E+09 -6.31766862897E-01 +7.27964904700E-01 -6.43025150087E-05 -2.76261006270E-05 -1.24991566235E-05 -2.51165295683E-05 -7.43298183017E-01 +6.36338389202E-01
1.02000000000E+09 -6.29564941963E-01 +7.31014069770E-01 +1.33981238874E-06 -1.78566147220E-05 -2.26794671765E-05 -1.95696059763E-05 -7.39923082075E-01 +6.39794228372E-01
1.02500000000E+09 -6.28312919738E-01 +7.33329622786E-01 -1.72211439463E-05 +2.01446466541E-05 +3.64060624345E-05 -4.31657239862E-06 -7.36902626566E-01 +6.43548288262E-01
1.03000000000E+09 -6.27725160598E-01 +7.35322496670E-01 +1.50241264306E-05 +3.17226305896E-05 -1.57424383865E-05 -3.05567763607E-05 -7.33432219799E-01 +6.47447642775E-01
1.03500000000E+09 -6.25899910910E-01 +7.37512701848E-01 -2.51886312574E-06 -1.64180119153E-05 +4.01551772890E-07 +2.39683016950E-05 -7.29756248595E-01 +6.51396798558E-01
1.04000000000E+09 -6.22751729122E-01 +7.40211004431E-01 +1.25578831430E-05 +5.01299729742E-05 -4.37240755331E-06 +7.43103380274E-06 -7.26027937445E-01 +6.55044651022E-01
1.04500000000E+09 -6.17682805229E-01 +7.43326196256E-01 +8.50706590974E-06 -2.26855006442E-05 +3.05738443323E-05 +2.41861964467E-06 -7.22299481747E-01 +6.58530280191E-01
1.05000000000E+09 -6.10434414980E-01 +7.47686463228E-01 +2.76232502923E-05 +1.74480280830E-05 +1.88250418392E-05 +2.71322278943E-05 -7.18979645155E-01 +6.61990722036E-01
1.05500000000E+09 -6.01834046258E-01 +7.52367360867E-01 -5.15066515370E-06 +1.11401997946E-05 +4.67746496700E-06 +2.91063241747E-06 -7.15810070650E-01 +6.65511113264E-01
1.06000000000E+09 -5.92360245495E-01 +7.57568421531E-01 -6.29470828814E-06 +2.15233191527E-05 +3.78806523238E-05 +7.21284776847E-05 -7.12581574463E-01 +6.69419611814E-01
1.06500000000E+09 -5.83471518197E-01 +7.62925249543E-01 +1.78468907671E-05 +3.00766259660E-05 -8.88419299303E-06 +2.06723839673E-05 -7.08737476108E-01 +6.73148171504E-01
1.07000000000E+09 -5.76020259187E-01 +7.67449312157E-01 +1.96433702897E-05 +1.30252995151E-05 -4.13441947950E-05 +4.82816265202E-05 -7.04625286236E-01 +6.76849661352E-01
1.07500000000E+09 -5.70264096827E-01 +7.71414468562E-01 -2.21379888390E-05 +4.28967335085E-05 -9.92380114161E-06 +5.02325958045E-05 -7.00446554572E-01 +6.80535736023E-01
1.08000000000E+09 -5.66578809428E-01 +7.74648182100E-01 +1.07358354294E-05 -3.18936161415E-05 +1.80055528911E-05 -8.24651112376E-06 -6.96260138944E-01 +6.84337815921E-01
1.08500000000E+09 -5.64431992630E-01 +7.77081774967E-01 +3.46688620219E-05 +4.26211331343E-05 +2.11572334106E-05 +1.70228273240E-05 -6.92489939962E-01 +6.87992687322E-01
1.09000000000E+09 -5.62875277423E-01 +7.78991814156E-01 +4.10464382960E-05 -6.85678092735E-07 +6.52199028281E-05 +1.65983772203E-05 -6.88518034105E-01 +6.91954045559E-01
1.09500000000E+09 -5.61755104985E-01 +7.80730945410E-01 +5.92773621282E-05 +5.51258931486E-05 +2.22705534798E-05 -2.74583210686E-05 -6.84777555599E-01 +6.95842142991E-01
1.10000000000E+09 -5.59013649273E-01 +7.82529248112E-01 +8.03795969897E-06 +2.93946131703E-06 +5.09627781236E-05 -2.63898349132E-06 -6.80753626623E-01 +6.99658921269E-01
1.10500000000E+09 -5.54864446880E-01 +7.85019143465E-01 +4.94425038543E-05 -6.05685534136E-06 -2.21080877980E-05 +9.24569855422E-06 -6.76436956108E-01 +7.03224907663E-01
1.11000000000E+09 -5.48740583240E-01 +7.88276982848E-01 +6.06567772224E-07 +1.69248075693E-05 -6.29613028902E-07 +2.45717254611E-05 -6.72237240522E-01 +7.06557780257E-01
1.11500000000E+09 -5.41214269387E-01 +7.92230341224E-01 +6.79063865100E-05 -1.45741500336E-05 +9.56741329024E-06 -3.00447353505E-05 -6.68210519448E-01 +7.10033142864E-01
1.12000000000E+09 -5.33086631663E-01 +7.96335497148E-01 +1.94324107026E-05 -3.48953771443E-05 -2.96600652930E-05 -6.93794384544E-06 -6.64242801809E-01 +7.13517254894E-01
1.12500000000E+09 -5.24724468013E-01 +8.00731210654E-01 +3.70980808117E-05 +4.97837262014E-06 +5.58448455977E-05 +5.47902728304E-05 -6.59874973107E-01 +7.17703790748E-01
1.13000000000E+09 -5.17318560496E-01 +8.04586915619E-01 +2.84288234643E-05 -1.62056160082E-05 +3.40621419443E-05 +1.65250948714E-05 -6.55669942292E-01 +7.21340019184E-01
1.13500000000E+09 -5.11269905631E-01 +8.07727105835E-01 +4.00642489159E-05 -2.47913868675E-05 +4.02886049722E-05 +3.79878641885E-05 -6.51070011900E-01 +7.25248545376E-01
1.14000000000E+09 -5.06599625114E-01 +8.10450020574E-01 +3.70226669460E-05 +4.54464168675E-06 +1.20597458992E-05 +1.28883184752E-05 -6.46368260611E-01 +7.28713956934E-01
1.14500000000E+09 -5.03239293241E-01 +8.12511733915E-01 +2.45426736897E-05 +1.43136018355E-06 -8.38831725449E-06 -5.75950397330E-05 -6.41699196450E-01 +7.31982897558E-01
1.15000000000E+09 -5.00202589614E-01 +8.14015321857E-01 +6.62939038832E-05 -4.72696310030E-05 +6.91942016883E-05 -1.80898007837E-05 -6.37118080696E-01 +7.35817354795E-01
1.15500000000E+09 -4.97037691358E-01 +8.15713263203E-01 +5.98861189599E-05 -3.76487706958E-06 +1.77086518529E-05 +3.03394466843E-05 -6.32384441916E-01 +7.39719362432E-01
1.16000000000E+09 -4.92894987906E-01 +8.17486806917E-01 -1.45286856017E-05 +9.60883929399E-07 +8.31784621384E-06 +1.73161625937E-05 -6.27507275578E-01 +7.43561772800E-01
1.16500000000E+09 -4.87432177403E-01 +8.20146358869E-01 +1.91148745913E-05 -9.69605919937E-06 +2.35885508739E-05 -1.22413447095E-05 -6.22528775916E-01 +7.47115719702E-01
1.17000000000E+09 -4.80403083568E-01 +8.23140939981E-01 +5.15222919402E-05 +2.16747845997E-05 +3.25843277807E-05 -1.18310638572E-05 -6.16996547364E-01 +7.50553539994E-01
1.17500000000E+09 -4.72306008713E-01 +8.26350218581E-01 +2.51521719976E-05 -3.72185615898E-05 +6.56369794699E-05 +5.06450083188E-05 -6.11313920223E-01 +7.53799386511E-01
1.18000000000E+09 -4.64000515805E-01 +8.30116945484E-01 +7.56076088106E-05 -1.04332464747E-05 +4.24390456564E-05 -3.78946139639E-05 -6.05701099287E-01 +7.56845921024E-01
1.18500000000E+09 -4.55834784090E-01 +8.33516711074E-01 +1.38703944511E-05 -3.66008821847E-07 +4.41367797443E-05 -2.32928857046E-05 -5.99696079585E-01 +7.59864596195E-01
1.19000000000E+09 -4.48651239155E-01 +8.36303748901E-01 +9.42073771406E-05 -2.06288154375E-05 +6.12365679038E-05 -1.98663032516E-05 -5.93485327512E-01 +7.62546594470E-01
1.19500000000E+09 -4.42810530755E-01 +8.38609459628E-01 +8.88569922445E-05 -5.88878220602E-06 +8.98879335071E-05 -8.66769417165E-05 -5.87515966236E-01 +7.63888136500E-01
1.20000000000E+09 -4.38323969200E-01 +8.39888433997E-01 +5.59067379035E-05 -4.65506080331E-05 +6.83581763516E-05 -8.12943941726E-05 -5.83121191378E-01 +7.64012185915E-01
1.20500000000E+09 -4.34461586288E-01 +8.41258827883E-01 +3.09900675691E-05 -4.74763521277E-05 +9.16284234670E-05 -1.37778464787E-04 -5.80763408710E-01 +7.64782068505E-01
1.21000000000E+09 -4.30444825907E-01 +8.42458313546E-01 -1.21691809997E-05 -8.71979464332E-05 +1.94461252639E-06 -7.05556144616E-05 -5.79004044394E-01 +7.67898111085E-01
1.21500000000E+09 -4.25228205400E-01 +8.44070697576E-01 -1.65149382700E-05 -3.69749253249E-05 -1.11686330345E-05 -8.83376184511E-05 -5.76295576280E-01 +7.72487911399E-01
1.22000000000E+09 -4.18248611043E-01 +8.45989142702E-01 -1.42719249327E-05 -2.87710436499E-05 -1.02938821383E-05 -7.45506902085E-05 -5.72173726266E-01 +7.77725296558E-01
1.22500000000E+09 -4.09506687496E-01 +8.48647484173E-01 +1.29241636049E-05 -7.26372948973E-05 +1.41163855366E-05 -4.29372088498E-05 -5.66860983641E-01 +7.82799709259E-01
1.23000000000E+09 -3.99185608265E-01 +8.51846817481E-01 -7.24792762753E-06 -7.56747332910E-05 +2.33878041875E-05 -3.75942538087E-05 -5.61235762861E-01 +7.87462125426E-01
1.23500000000E+09 -3.88356917478E-01 +8.55428488991E-01 +1.56324597154E-05 -8.38776242943E-05 +8.86038370845E-06 -3.98450811954E-05 -5.55400014067E-01 +7.91998603515E-01
1.24000000000E+09 -3.77357565504E-01 +8.59415740360E-01 +3.63135648355E-06 -9.92311550625E-05 +4.29872088588E-05 -1.31845470582E-04 -5.49418305179E-01 +7.95801328053E-01
1.24500000000E+09 -3.67352577993E-01 +8.63360975202E-01 +3.22620026665E-05 -1.22761098133E-04 +2.20131770128E-05 -1.15008700370E-04 -5.43002378341E-01 +7.99654222433E-01
1.25000000000E+09 -3.58878909778E-01 +8.66950283816E-01 -1.56694086213E-05 -1.56247175148E-04 +2.02658486338E-05 -1.35294074711E-04 -5.36406364865E-01 +8.03794828677E-01
1.25500000000E+09 -3.52244960490E-01 +8.69354508714E-01 -4.03037402236E-05 -1.21099703891E-04 -3.29885951345E-05 -1.67184279271E-04 -5.29581062575E-01 +8.07819206647E-01
1.26000000000E+09 -3.47007332549E-01 +8.71466635733E-01 -6.64520810106E-05 -1.00118114318E-04 -3.13496372215E-05 -1.44298591482E-04 -5.22905501177E-01 +8.12115274565E-01
1.26500000000E+09 -3.42668166627E-01 +8.72931051470E-01 -6.90349022623E-05 -1.15565669063E-04 -7.72169105900E-05 -1.09912012543E-04 -5.15716742476E-01 +8.16090727414E-01
1.27000000000E+09 -3.38018827739E-01 +8.74250654543E-01 -6.98942362979E-05 -1.32539162079E-04 -2.99391107884E-05 -7.45619194327E-05 -5.09111867333E-01 +8.19828514237E-01
1.27500000000E+09 -3.32204771162E-01 +8.75570377897E-01 -1.04957519600E-04 -1.27648896287E-04 -1.22876103949E-04 -1.26959877859E-04 -5.01936697089E-01 +8.23496990123E-01
1.28000000000E+09 -3.24448273884E-01 +8.77397185911E-01 -1.38388976369E-04 -1.21251763438E-04 -1.07026855834E-04 -1.30967536249E-04 -4.94913739060E-01 +8.26927717397E-01
1.28500000000E+09 -3.14431085033E-01 +8.79581610720E-01 -1.51160462319E-04 -1.17904850667E-04 -1.56194354587E-04 -9.24789927470E-05 -4.87574183106E-01 +8.30651936976E-01
1.29000000000E+09 -3.02676897385E-01 +8.82446142440E-01 -1.41806048024E-04 -7.06885779327E-05 -1.91814544913E-04 -4.12136532550E-05 -4.80003985237E-01 +8.34275259336E-01
1.29500000000E+09 -2.89927085825E-01 +8.85637453366E-01 -1.67651697673E-04 -6.83264902489E-05 -1.81123041720E-04 -8.72133445578E-05 -4.72124221261E-01 +8.37952853723E-01
1.30000000000E+09 -2.77092672608E-01 +8.89122652442E-01 -1.76833503731E-04 -8.09086821535E-05 -2.09360167437E-04 -7.30211972106E-05 -4.64365940245E-01 +8.41504453056E-01
1.30500000000E+09 -2.65599650535E-01 +8.92169278252E-01 -2.18567581718E-04 -4.74716032186E-05 -2.16080886469E-04 -3.25789489827E-05 -4.56217735229E-01 +8.44778494523E-01
1.31000000000E+09 -2.55695271575E-01 +8.94652938291E-01 -1.93653763891E-04 +5.00327338545E-06 -2.74359359275E-04 -1.80993177402E-06 -4.47979689720E-01 +8.48433776291E-01
1.31500000000E+09 -2.48099850005E-01 +8.96473758597E-01 -1.97896342012E-04 +5.75085763184E-05 -1.90609627545E-04 +3.05273001613E-05 -4.38944062970E-01 +8.51683737642E-01
1.32000000000E+09 -2.41957293146E-01 +8.97683599472E-01 -1.88335266673E-04 +2.38994717459E-05 -2.16086063869E-04 +3.16011433354E-05 -4.29945041241E-01 +8.55103061197E-01
1.32500000000E+09 -2.36787391894E-01 +8.98221581031E-01 -2.40807355992E-04 +3.21229233640E-05 -2.63677471641E-04 +3.83537228879E-05 -4.20298588837E-01 +8.58558674013E-01
1.33000000000E+09 -2.30484447097E-01 +8.98309175916E-01 -2.37050891518E-04 +5.20339818758E-05 -2.88905566058E-04 +7.25602109640E-05 -4.10593874202E-01 +8.61598642922E-01
1.33500000000E+09 -2.22653295497E-01 +8.98044113929E-01 -2.64552334421E-04 +1.53543286162E-04 -2.01662441690E-04 +1.64235979581E-04 -4.00750484877E-01 +8.65130466191E-01
1.34000000000E+09 -2.11921041227E-01 +8.98070463553E-01 -2.12228305092E-04 +1.91631452339E-04 -2.26033153308E-04 +2.05433002081E-04 -3.90553516543E-01 +8.68497217378E-01
1.34500000000E+09 -1.98281055338E-01 +8.97939447646E-01 -1.90529523290E-04 +2.02696800824E-04 -1.69529394339E-04 +1.64750302818E-04 -3.79613227239E-01 +8.71832049532E-01
1.35000000000E+09 -1.82442436742E-01 +8.98118459589E-01 -2.17437401849E-04 +1.79587291088E-04 -1.53043314035E-04 +1.70171522160E-04 -3.68458519227E-01 +8.74897290687E-01
1.35500000000E+09 -1.64871285030E-01 +8.98445146810E-01 -2.08112423841E-04 +2.03047059654E-04 -2.17135204171E-04 +1.85600498019E-04 -3.56944146749E-01 +8.77681888891E-01
1.36000000000E+09 -1.47552225159E-01 +8.98913189464E-01 -2.32709018639E-04 +2.75579209857E-04 -2.05065599757E-04 +2.61230074211E-04 -3.44934489985E-01 +8.80397765142E-01
1.36500000000E+09 -1.30960898556E-01 +8.99560635112E-01 -1.65923823278E-04 +2.80592668079E-04 -1.40850938251E-04 +2.80673206138E-04 -3.32931865573E-01 +8.82793024527E-01
1.37000000000E+09 -1.16372603712E-01 +8.99864114762E-01 -1.24517967986E-04 +3.46325674835E-04 -1.53943420581E-04 +2.80676337983E-04 -3.20053916867E-01 +8.85215098294E-01
1.37500000000E+09 -1.04053026820E-01 +9.00016522150E-01 -1.39479911262E-04 +4.08268961372E-04 -1.60443951158E-04 +3.90137844637E-04 -3.06355900414E-01 +8.87608515463E-01
1.38000000000E+09 -9.31405259040E-02 +8.99660687720E-01 +6.17059442099E-06 +4.96805024014E-04 -7.89968936994E-05 +4.88195766899E-04 -2.91848316955E-01 +8.89720567626E-01
1.38500000000E+09 -8.25795758542E-02 +8.98803938455E-01 +7.77439566189E-05 +4.20702022992E-04 +7.64144431484E-05 +5.19258436484E-04 -2.76374057416E-01 +8.91575310892E-01
1.39000000000E+09 -7.13257727853E-02 +8.97195702143E-01 +7.58898459972E-05 +3.72153660989E-04 +9.95204731363E-05 +4.45868363197E-04 -2.60283551756E-01 +8.93248859286E-01
1.39500000000E+09 -5.79095594659E-02 +8.94682260580E-01 +1.39826835914E-04 +4.37077570326E-04 +1.58482222300E-04 +4.73318768315E-04 -2.43417047537E-01 +8.93939109614E-01
1.40000000000E+09 -4.12651755439E-02 +8.91028933745E-01 +1.67823412365E-04 +4.29395896679E-04 +2.32080433078E-04 +4.00506477264E-04 -2.25945679325E-01 +8.94552650430E-01
1.40500000000E+09 -2.22792058675E-02 +8.86323779845E-01 +2.05548543810E-04 +3.58187814230E-04 +2.36702497101E-04 +3.38782796337E-04 -2.07216366474E-01 +8.94458330204E-01
1.41000000000E+09 -6.81551372449E-04 +8.80866100819E-01 +1.74429356459E-04 +4.02642757609E-04 +1.77612341641E-04 +4.05467476118E-04 -1.86976699694E-01 +8.93759395641E-01
1.41500000000E+09 +2.21259211551E-02 +8.74762608873E-01 +2.64654060008E-04 +4.29856289871E-04 +2.59533065637E-04 +4.35021038128E-04 -1.65269028531E-01 +8.92262792353E-01
1.42000000000E+09 +4.54179937627E-02 +8.68287089429E-01 +3.62478954297E-04 +3.98130120405E-04 +3.33387664983E-04 +4.10267786742E-04 -1.42501452717E-01 +8.89802045663E-01
1.42500000000E+09 +6.80820341507E-02 +8.61085912040E-01 +3.94793881739E-04 +3.27539706064E-04 +4.38075835281E-04 +3.43714622120E-04 -1.18692467195E-01 +8.86188659169E-01
1.43000000000E+09 +8.96454900122E-02 +8.53269786925E-01 +3.51335889711E-04 +2.69450250199E-04 +4.34585338621E-04 +2.63727430207E-04 -9.38164104195E-02 +8.81462468188E-01
1.43500000000E+09 +1.10271478309E-01 +8.43986801348E-01 +3.75366094796E-04 +3.94586886682E-04 +4.56564114745E-04 +2.98221723842E-04 -6.73571999295E-02 +8.74875123532E-01
1.44000000000E+09 +1.30599806379E-01 +8.33725324274E-01 +4.44619469879E-04 +3.67063833075E-04 +4.89310932064E-04 +3.16294802348E-04 -3.91034996077E-02 +8.66227793868E-01
1.44500000000E+09 +1.52567414726E-01 +8.20891728701E-01 +5.06624860732E-04 +3.68077592076E-04 +4.68895122040E-04 +3.63347370803E-04 -8.98213764539E-03 +8.54665628295E-01
1.45000000000E+09 +1.76342953489E-01 +8.04384048064E-01 +6.01770638004E-04 +4.56623420063E-04 +6.41608854357E-04 +4.21000300733E-04 +2.27922335924E-02 +8.40098895137E-01
1.45500000000E+09 +2.02937273898E-01 +7.83729607063E-01 +7.49652294281E-04 +4.37380794169E-04 +8.34108155738E-04 +3.82929461104E-04 +5.63001413221E-02 +8.22688534077E-01
1.46000000000E+09 +2.32431073929E-01 +7.58055986842E-01 +9.00799814644E-04 +4.71800570782E-04 +9.00574826795E-04 +2.99496522142E-04 +9.11220631588E-02 +8.00855223285E-01
1.46500000000E+09 +2.64239112541E-01 +7.27355269281E-01 +1.00908909429E-03 +4.36101809619E-04 +9.99311309806E-04 +2.87240361709E-04 +1.27010598318E-01 +7.74244721834E-01
1.47000000000E+09 +2.97236398159E-01 +6.91192039724E-01 +1.36179751201E-03 +6.05266248071E-04 +1.28452046210E-03 +5.17762966212E-04 +1.64220674297E-01 +7.40891598785E-01
1.47500000000E+09 +3.29714626931E-01 +6.49280561254E-01 +1.88417237630E-03 +2.10719284927E-04 +1.78506024311E-03 +2.94814868497E-04 +2.01546811265E-01 +7.00311017408E-01
1.48000000000E+09 +3.59746398821E-01 +6.01662940148E-01 +2.18329222262E-03 -1.03387178011E-04 +2.21161949366E-03 -5.37214826170E-05 +2.38590569246E-01 +6.51052099620E-01
1.48500000000E+09 +3.85507716846E-01 +5.47460471268E-01 +2.61212582367E-03 -7.01898474974E-04 +2.60159388904E-03 -7.38061166426E-04 +2.73177189220E-01 +5.92207266840E-01
1.49000000000E+09 +4.05120208363E-01 +4.86753579311E-01 +2.60178916737E-03 -1.58057781029E-03 +2.51328704683E-03 -1.66977422109E-03 +3.01298451881E-01 +5.22475971068E-01
1.49500000000E+09 +4.17818788061E-01 +4.17992647505E-01 +2.71600880692E-03 -2.16774768109E-03 +2.50719549183E-03 -2.16735471745E-03 +3.20658042694E-01 +4.43848191867E-01
1.50000000000E+09 +4.19949473569E-01 +3.39526241797E-01 +2.47213006584E-03 -3.48825291951E-03 +2.28794625504E-03 -3.31558781796E-03 +3.27802293176E-01 +3.54109933402E-01
1.50500000000E+09 +4.08622761655E-01 +2.52983429942E-01 +1.46648327114E-03 -4.59420246234E-03 +1.57622349103E-03 -4.28701958805E-03 +3.16917410156E-01 +2.56097776444E-01
1.51000000000E+09 +3.80495442482E-01 +1.60388408709E-01 +2.81919645913E-04 -5.29409037143E-03 +5.44441100733E-04 -5.19861611856E-03 +2.84838867158E-01 +1.54973762940E-01
1.51500000000E+09 +3.32937409260E-01 +6.72697376284E-02 -1.77099404353E-03 -6.05062561471E-03 -1.60675579188E-03 -6.16072192235E-03 +2.31164277733E-01 +5.67906478736E-02
1.52000000000E+09 +2.65581493210E-01 -1.99842588999E-02 -3.88517148893E-03 -4.81760819805E-03 -3.85470189353E-03 -4.90169386866E-03 +1.54355108198E-01 -3.14845435108E-02
1.52500000000E+09 +1.78946652420E-01 -9.45065844568E-02 -4.56444975353E-03 -3.65079364938E-03 -4.59049524340E-03 -3.67483267588E-03 +5.85365498320E-02 -1.00005770091E-01
1.53000000000E+09 +7.57953446585E-02 -1.48725422670E-01 -5.57033472966E-03 -2.85009008584E-03 -5.62505265987E-03 -2.87992786263E-03 -4.85895530150E-02 -1.46545422451E-01
1.53500000000E+09 -3.71334279419E-02 -1.76066843333E-01 -6.83827057636E-03 -8.26719789158E-04 -6.84298025806E-03 -8.69633374001E-04 -1.61904617722E-01 -1.67578894739E-01
1.54000000000E+09 -1.50719142501E-01 -1.75242932809E-01 -6.60720226061E-03 +1.19701886001E-03 -6.55248327240E-03 +1.14076492692E-03 -2.71762562326E-01 -1.64168682121E-01
1.54500000000E+09 -2.57585836212E-01 -1.50514628705E-01 -5.90920155828E-03 +3.45668425883E-03 -5.95266626604E-03 +3.28834917816E-03 -3.71830659653E-01 -1.41127305150E-01
1.55000000000E+09 -3.54449676778E-01 -1.06315383984E-01 -4.09210752211E-03 +4.70251799043E-03 -4.25188018246E-03 +4.55414186943E-03 -4.58496849739E-01 -1.02526897865E-01
1.55500000000E+09 -4.35639737164E-01 -4.84107556865E-02 -2.45329341119E-03 +5.02916233685E-03 -2.72261408173E-03 +4.98936321378E-03 -5.29792468190E-01 -5.44603570410E-02
1.56000000000E+09 -5.00750339088E-01 +1.50758165612E-02 -1.10136178317E-03 +5.35602088788E-03 -1.38595185487E-03 +5.49633753025E-03 -5.86975224045E-01 -7.16271025194E-04
1.56500000000E+09 -5.51172574965E-01 +7.89498161318E-02 +4.94858582183E-04 +4.86880566788E-03 +4.50568693071E-04 +5.18853387727E-03 -6.31755053963E-01 +5.55637691672E-02
1.57000000000E+09 -5.89595561620E-01 +1.40732969538E-01 +1.62411494747E-03 +3.86086009011E-03 +1.72262460699E-03 +4.10737387898E-03 -6.65038353905E-01 +1.11120814730E-01
