# Hz S RI R 50
! CMT, C1220, 16058040, 17.2.0/1
! Date: 14/08/2018 12:21:32
! Data: Format (Calibration Info)
! Freq                      S11: Re/Im (F2)                       S21: Re/Im (F2)                       S12: Re/Im (F2)                       S22: Re/Im (F2)            
1.00000000000E+09 -6.44605174436E-01 +7.15966054865E-01 -1.10543387149E-06 +6.04074005954E-05 +1.48103265717E-05 -9.33395843484E-06 -7.48177796732E-01 +6.24082535890E-01
1.00500000000E+09 -6.37564012142E-01 +7.21045663768E-01 -3.28208307479E-05 +4.00487643826E-05 +2.80228038076E-05 +6.16676189021E-06 -7.44542547229E-01 +6.28162776892E-01
1.01000000000E+09 -6.31614871494E-01 +7.25858406820E-01 -4.42933024037E-05 +2.63532096160E-05 +5.99966464956E-05 -6.42143268797E-06 -7.40977316578E-01 +6.31645238343E-01
1.01500000000E+09 -6.27411577588E-01 +7.29397012904E-01 +6.77163785437E-06 -1.31831440788E-05 -1.69565815039E-05 +1.82174676124E-05 -7.37736815257E-01 +6.35602143926E-01
1.02000000000E+09 -6.24814691825E-01 +7.32676244137E-01 -1.29898715585E-06 +1.13609920442E-05 +2.43513210254E-05 -7.28357560596E-06 -7.34268794945E-01 +6.39033122446E-01
1.02500000000E+09 -6.23254761346E-01 +7.35196879991E-01 -2.43617045067E-05 +4.15670458140E-05 -2.96203356626E-05 -3.12495674402E-05 -7.31406201706E-01 +6.42677663043E-01
1.03000000000E+09 -6.22086557659E-01 +7.37529470940E-01 -7.70383008737E-06 -1.24341445166E-05 +9.57323622326E-06 +3.43331026378E-05 -7.27936016090E-01 +6.46460617363E-01
1.03500000000E+09 -6.20022725860E-01 +7.39880855726E-01 +1.19207758302E-05 +1.86180487386E-05 -1.29115957031E-05 -6.17240673717E-06 -7.24148364472E-01 +6.50432549493E-01
1.04000000000E+09 -6.16615635077E-01 +7.42483465788E-01 +1.14668204185E-05 +1.31098862445E-05 +5.94737885530E-06 +3.92011699326E-05 -7.20289906231E-01 +6.54066177348E-01
1.04500000000E+09 -6.11344900174E-01 +7.45926336160E-01 -1.82610256530E-05 -2.46475019776E-05 -1.70885471386E-05 -5.66134117314E-06 -7.16736379627E-01 +6.57544714773E-01
1.05000000000E+09 -6.04173057597E-01 +7.50133709484E-01 +1.50903580141E-05 -2.93205173940E-06 +2.82298705079E-05 -3.22109949183E-05 -7.13402265013E-01 +6.60854797079E-01
1.05500000000E+09 -5.95561937110E-01 +7.54666470663E-01 +7.83417041613E-06 +2.24038226939E-05 -2.72153136877E-05 -4.28450842206E-06 -7.10205920352E-01 +6.64395560770E-01
1.06000000000E+09 -5.86028641962E-01 +7.59924226267E-01 -5.63836689666E-06 +1.15763327413E-06 -4.48243808216E-05 -2.60458235582E-05 -7.06891937860E-01 +6.68200763542E-01
1.06500000000E+09 -5.76828355229E-01 +7.65030467214E-01 -6.28603257809E-06 +1.51447007964E-05 +2.46818500439E-05 +7.74767554830E-06 -7.03084879224E-01 +6.71995014667E-01
1.07000000000E+09 -5.68884938004E-01 +7.69381245430E-01 +9.62060873208E-06 +2.68557829380E-05 +1.61347321637E-05 +2.22730579666E-05 -6.99047045713E-01 +6.75703325126E-01
1.07500000000E+09 -5.62517101780E-01 +7.73231072499E-01 +3.99971087305E-05 +2.44346022537E-05 +6.27213707466E-05 -4.95522282280E-06 -6.94704320045E-01 +6.79292681287E-01
1.08000000000E+09 -5.58197828202E-01 +7.76532207622E-01 +5.31134160116E-05 +8.68122830123E-06 +2.82678491598E-05 +2.04410188944E-05 -6.90750703819E-01 +6.83090193271E-01
1.08500000000E+09 -5.55377349786E-01 +7.79088044648E-01 +1.96090733737E-05 -2.12430394125E-05 -9.06650767775E-06 -1.00323912314E-05 -6.86717371947E-01 +6.86793535428E-01
1.09000000000E+09 -5.53256770209E-01 +7.81156333458E-01 +6.57018066763E-05 -1.77273719241E-05 +2.03464211274E-05 -1.83773082212E-05 -6.83012930503E-01 +6.90566261564E-01
1.09500000000E+09 -5.51546351358E-01 +7.82925539330E-01 +2.55370604900E-05 -8.47376198731E-06 +4.65452319965E-05 -3.73189438809E-05 -6.79204371869E-01 +6.94552814102E-01
1.10000000000E+09 -5.48586215591E-01 +7.85051032267E-01 -4.53615137055E-06 +1.51781498583E-05 +9.31393994070E-06 +1.19769620506E-05 -6.75254683350E-01 +6.98286269324E-01
1.10500000000E+09 -5.44496917460E-01 +7.87538868238E-01 +3.12525006968E-05 -5.88548496695E-05 +1.23592547683E-05 -3.14693047750E-05 -6.70914143577E-01 +7.01857153206E-01
1.11000000000E+09 -5.38604389763E-01 +7.90732536341E-01 +3.56330823941E-05 -1.94189671776E-06 -1.89253928096E-05 -2.00741456882E-05 -6.66697165578E-01 +7.05230917387E-01
1.11500000000E+09 -5.31515123532E-01 +7.94541146947E-01 +1.97521288482E-05 -3.97869595860E-05 +1.71869298809E-05 +6.58027390733E-06 -6.62612291946E-01 +7.08645858654E-01
1.12000000000E+09 -5.23507755512E-01 +7.98579353357E-01 +8.22010576592E-06 +2.39962553451E-05 +4.81837096152E-06 -7.09337773622E-06 -6.58516849061E-01 +7.12174314400E-01
1.12500000000E+09 -5.15271874927E-01 +8.02591287882E-01 -2.01468020619E-05 -2.17500673497E-05 -1.89111267035E-05 +2.37935216025E-06 -6.54408081331E-01 +7.16064609078E-01
1.13000000000E+09 -5.07672944837E-01 +8.06311225880E-01 +5.28127231332E-06 -1.16469188017E-05 -8.15548446831E-06 -2.19645139236E-05 -6.50225755526E-01 +7.19882021540E-01
1.13500000000E+09 -5.01297290818E-01 +8.09110808970E-01 +1.27430091047E-05 -1.04934390886E-05 -1.47092582780E-05 -4.54951764389E-05 -6.45685600743E-01 +7.23620909004E-01
1.14000000000E+09 -4.96062229670E-01 +8.11696388687E-01 +1.82324127796E-05 -2.73073895906E-05 -2.67018117235E-05 -3.37416375307E-05 -6.40847697577E-01 +7.26964876819E-01
1.14500000000E+09 -4.91889364195E-01 +8.13362746982E-01 -5.63199891635E-05 -1.23096142508E-05 -2.35771350154E-05 -5.44737905527E-05 -6.36275819261E-01 +7.30396461810E-01
1.15000000000E+09 -4.88155667542E-01 +8.14777012233E-01 +9.95304872693E-06 +2.30541604646E-05 -7.47479182766E-06 +1.99064343979E-05 -6.31600132451E-01 +7.34148722957E-01
1.15500000000E+09 -4.84197106997E-01 +8.16520785076E-01 +1.27876828528E-05 -1.59181231876E-05 -1.43736867663E-05 -6.59826048661E-05 -6.26759603384E-01 +7.37959328982E-01
1.16000000000E+09 -4.79498636047E-01 +8.18301029272E-01 -1.24648039857E-05 -4.14384242287E-05 +2.12652398411E-05 +3.17036146169E-05 -6.22115515658E-01 +7.41646502161E-01
1.16500000000E+09 -4.73391261167E-01 +8.20863228516E-01 +1.47315639466E-05 +1.78731941707E-05 -3.59203383599E-06 +3.77157597520E-06 -6.17034529089E-01 +7.45383181466E-01
1.17000000000E+09 -4.66371813766E-01 +8.23903039323E-01 +2.56926121180E-05 -1.39571826690E-05 +6.22914549296E-05 -4.31796523009E-05 -6.11473064653E-01 +7.48525246321E-01
1.17500000000E+09 -4.58250907691E-01 +8.27170593005E-01 -2.76000159356E-05 -2.03210874300E-05 +1.66171277150E-05 -4.49605740885E-05 -6.05957630937E-01 +7.51805924251E-01
1.18000000000E+09 -4.50112399054E-01 +8.30748858104E-01 +5.39475762739E-06 -7.90022500040E-05 +7.13787805191E-06 -3.80231681986E-05 -6.00199455670E-01 +7.54862207572E-01
1.18500000000E+09 -4.41994603879E-01 +8.33895085363E-01 +2.11415830497E-05 -4.26046077331E-05 +2.18299640661E-05 -2.93911895759E-05 -5.94433334370E-01 +7.57951363575E-01
1.19000000000E+09 -4.34778571487E-01 +8.36773247515E-01 +2.06318264287E-05 -5.74008935911E-05 +4.05099430115E-05 -4.60447867236E-05 -5.88078444291E-01 +7.60464453102E-01
1.19500000000E+09 -4.28655395382E-01 +8.38727152510E-01 -2.05311008004E-05 -7.80453667700E-05 -1.03584660248E-04 -5.71968678172E-05 -5.82481543859E-01 +7.61692271335E-01
1.20000000000E+09 -4.23784756285E-01 +8.39648591847E-01 -8.52561647387E-05 -6.42463287823E-05 -8.79073370531E-05 -5.12535373029E-06 -5.78096694434E-01 +7.61923061212E-01
1.20500000000E+09 -4.19320720230E-01 +8.40622113541E-01 -1.04808179850E-04 -1.81299684697E-05 -6.46015004662E-05 -6.23259968494E-07 -5.75580516941E-01 +7.62943203906E-01
1.21000000000E+09 -4.14589095128E-01 +8.41661521180E-01 -6.16446072916E-05 +4.39780683772E-05 -5.96171933335E-05 +1.50619022842E-05 -5.73669081190E-01 +7.65842664448E-01
1.21500000000E+09 -4.08534501809E-01 +8.42917380510E-01 -3.19437970294E-05 +5.96718901290E-05 -9.87698979056E-06 +5.49137059005E-05 -5.70921537524E-01 +7.70448933791E-01
1.22000000000E+09 -4.00964634377E-01 +8.44516981006E-01 -1.40845543195E-05 -9.86862306406E-06 -6.34809952085E-05 +5.72700512268E-05 -5.66755177070E-01 +7.75660889462E-01
1.22500000000E+09 -3.91662014689E-01 +8.46999876627E-01 +3.42551290561E-05 -1.66226808629E-05 -3.46995125271E-05 +1.25865439335E-05 -5.61575610319E-01 +7.80748297272E-01
1.23000000000E+09 -3.81139807452E-01 +8.49790635765E-01 -7.64405281284E-06 +1.14377628584E-05 +6.43292423981E-06 +1.98380459211E-06 -5.55982379854E-01 +7.85282608398E-01
1.23500000000E+09 -3.69989854238E-01 +8.53174112907E-01 -3.72799266818E-05 -1.41711727361E-05 -3.77398729396E-05 -5.14394572685E-06 -5.50245780235E-01 +7.89621928233E-01
1.24000000000E+09 -3.59015761953E-01 +8.56897047290E-01 -4.42015678616E-05 -4.64370259237E-07 +1.13283777816E-05 -9.51245631752E-06 -5.44191733539E-01 +7.93487927639E-01
1.24500000000E+09 -3.49304797426E-01 +8.60750455097E-01 -2.59840387348E-06 -5.97362978818E-05 +2.35928372183E-05 -1.50382288424E-05 -5.37919520620E-01 +7.97182951745E-01
1.25000000000E+09 -3.40722598675E-01 +8.63992641075E-01 +4.00625638449E-06 -2.38328306987E-05 -7.80782513620E-06 -1.75755847987E-05 -5.31240852135E-01 +8.01472227641E-01
1.25500000000E+09 -3.33694212457E-01 +8.66226695085E-01 -7.78393379069E-05 +4.16966670173E-05 -4.13559665598E-05 -4.34464167769E-05 -5.24491282681E-01 +8.05465499795E-01
1.26000000000E+09 -3.28106724560E-01 +8.68107574106E-01 -4.49386378005E-05 -3.29769502092E-05 -6.09290836126E-05 -8.10585290321E-06 -5.17861881884E-01 +8.09653695555E-01
1.26500000000E+09 -3.23248565113E-01 +8.69205381855E-01 -7.25355459018E-05 -5.10088645336E-06 -6.87488459546E-05 -2.39544007534E-05 -5.10744240371E-01 +8.13464655355E-01
1.27000000000E+09 -3.18047259943E-01 +8.70064219220E-01 -6.92957628499E-05 +2.11944815252E-07 -8.41198911809E-05 +4.27831800053E-05 -5.04066570190E-01 +8.17171821144E-01
1.27500000000E+09 -3.11652776121E-01 +8.71018945330E-01 -8.25986411770E-05 +2.42614346974E-05 -1.18269303161E-04 +4.34545039463E-05 -4.97112620124E-01 +8.20703503745E-01
1.28000000000E+09 -3.03522637685E-01 +8.72376275358E-01 -3.85268402539E-05 +5.92339821038E-05 -8.32534823898E-05 +3.47742707618E-05 -4.90047350448E-01 +8.24233476438E-01
1.28500000000E+09 -2.92977640653E-01 +8.74053613750E-01 -8.33744268962E-05 +7.18060369759E-05 -6.08985033844E-05 +6.00068695091E-05 -4.82645358602E-01 +8.27996161919E-01
1.29000000000E+09 -2.81376714249E-01 +8.76342187314E-01 -5.86285182888E-05 +4.20003834028E-05 -2.05441228012E-05 +7.84199257829E-05 -4.75334306893E-01 +8.31624797124E-01
1.29500000000E+09 -2.68782598045E-01 +8.79164203263E-01 -2.34018436129E-05 +4.35631868674E-05 -5.67720884407E-05 +8.42127624973E-05 -4.67390305197E-01 +8.35052357988E-01
1.30000000000E+09 -2.56320486796E-01 +8.82430402925E-01 -4.37956141600E-05 +7.72204169692E-05 -6.92512929030E-05 +8.19329541445E-05 -4.59550156154E-01 +8.38584742082E-01
1.30500000000E+09 -2.44920640473E-01 +8.85404608901E-01 -3.74484533831E-05 +8.72498157767E-05 -6.77706730357E-06 +1.20151577201E-04 -4.51583830619E-01 +8.41887697415E-01
1.31000000000E+09 -2.34986285535E-01 +8.87664324909E-01 +1.70893378214E-05 +1.20906729588E-04 +2.70446004429E-06 +1.13972890576E-04 -4.43330106191E-01 +8.45270021400E-01
1.31500000000E+09 -2.27005784706E-01 +8.89134085649E-01 +3.34701145505E-05 +5.83219326202E-05 +4.85353916752E-05 +8.39362654731E-05 -4.34604802121E-01 +8.48849101898E-01
1.32000000000E+09 -2.20368201951E-01 +8.89650847644E-01 +1.29461959647E-05 +1.03161072635E-04 +4.50364306258E-05 +8.71457045755E-05 -4.25473380064E-01 +8.52083737473E-01
1.32500000000E+09 -2.14526859624E-01 +8.89459115445E-01 -3.51002799061E-06 +3.59184787755E-05 -3.16721646812E-05 +8.45553658451E-05 -4.16023861437E-01 +8.55718171376E-01
1.33000000000E+09 -2.07689672274E-01 +8.88981883276E-01 -1.64274970003E-05 +8.30278034079E-05 +4.83070905987E-05 +1.12797887863E-04 -4.06343401922E-01 +8.58844512210E-01
1.33500000000E+09 -1.99217414538E-01 +8.87965832169E-01 +3.79707202829E-05 +1.03967027571E-04 +1.24650469357E-05 +9.57357761275E-05 -3.96544630103E-01 +8.62194310344E-01
1.34000000000E+09 -1.88270063295E-01 +8.87182220761E-01 +9.14136364323E-05 +7.77944221926E-05 +4.51709067062E-05 +1.06305336873E-04 -3.86388325373E-01 +8.65505169062E-01
1.34500000000E+09 -1.74818340735E-01 +8.86490421953E-01 +8.56807440527E-05 +3.72580421692E-05 +5.78525603908E-05 +5.20243024192E-05 -3.75596341603E-01 +8.68833489899E-01
1.35000000000E+09 -1.59400491054E-01 +8.86214181799E-01 +5.25095020300E-05 +6.54594941617E-05 +5.90669585391E-05 +4.09546489857E-05 -3.64518521790E-01 +8.71965236093E-01
1.35500000000E+09 -1.42715085371E-01 +8.86482114404E-01 +4.61905486805E-05 +9.02791888566E-05 +5.17897561999E-05 +5.36327851778E-05 -3.52909270246E-01 +8.74797103709E-01
1.36000000000E+09 -1.25720605378E-01 +8.87081404367E-01 +2.19256519417E-05 +6.62138895209E-05 +4.28269732143E-05 +4.95771010641E-05 -3.41131829589E-01 +8.77463141311E-01
1.36500000000E+09 -1.09480475608E-01 +8.87631901522E-01 +1.26575654808E-05 +5.39272867536E-05 +2.80838385833E-05 +1.05963908020E-04 -3.29024912782E-01 +8.80064131659E-01
1.37000000000E+09 -9.50585480732E-02 +8.87710446100E-01 +7.59771538734E-05 +1.08889940071E-04 +6.39357333136E-06 +8.66865214243E-05 -3.16135113342E-01 +8.82333911367E-01
1.37500000000E+09 -8.26260514163E-02 +8.87210675405E-01 +1.05008792994E-04 +1.89946200980E-04 +4.63776214577E-05 +1.62369393721E-04 -3.02629200263E-01 +8.84616580862E-01
1.38000000000E+09 -7.16056372693E-02 +8.86264342482E-01 +1.76133106447E-04 +1.31222151949E-04 +1.79577498523E-04 +1.94047260794E-04 -2.88080982634E-01 +8.86675604767E-01
1.38500000000E+09 -6.05996560254E-02 +8.84516600072E-01 +2.18148380432E-04 +6.37898310804E-05 +2.23845671266E-04 +1.17238046574E-04 -2.72555831549E-01 +8.88571233112E-01
1.39000000000E+09 -4.89842649095E-02 +8.81860818114E-01 +1.81389492483E-04 +7.59460355156E-05 +2.08748571429E-04 +8.31754237550E-05 -2.56567654438E-01 +8.90152222596E-01
1.39500000000E+09 -3.52975430713E-02 +8.78380682692E-01 +2.23717185663E-04 +3.75606607005E-05 +2.53027068645E-04 +3.90144257286E-05 -2.39906264970E-01 +8.90915111303E-01
1.40000000000E+09 -1.90441778658E-02 +8.73676560149E-01 +1.96522269743E-04 -3.03662110353E-05 +2.68112258740E-04 -2.00352970359E-05 -2.22389267899E-01 +8.91446822397E-01
1.40500000000E+09 -4.79662190684E-04 +8.68442933911E-01 +1.94598697648E-04 -3.29738902169E-05 +2.21343838091E-04 -2.83384515671E-05 -2.03691378174E-01 +8.91377242796E-01
1.41000000000E+09 +2.01047075157E-02 +8.63009217641E-01 +2.32491129752E-04 -5.78627979284E-05 +1.85270517756E-04 -7.35396636562E-05 -1.83367284286E-01 +8.90661771093E-01
1.41500000000E+09 +4.20819235506E-02 +8.57277988997E-01 +2.09542029887E-04 -1.11017772807E-04 +1.82952735622E-04 -8.69223389012E-05 -1.61839893338E-01 +8.89047314661E-01
1.42000000000E+09 +6.47067296069E-02 +8.51087560035E-01 +2.30394864593E-04 -3.06685377366E-05 +2.27825699479E-04 -8.61981613872E-05 -1.38996636041E-01 +8.86617731222E-01
1.42500000000E+09 +8.67940667205E-02 +8.43934209439E-01 +2.85736450964E-04 -1.62682520274E-04 +3.69812927660E-04 -1.74449364043E-04 -1.15279264777E-01 +8.82896280088E-01
1.43000000000E+09 +1.07560056028E-01 +8.35490725102E-01 +1.84411220810E-04 -2.52793079470E-04 +1.99233450039E-04 -2.12104772790E-04 -9.04455492339E-02 +8.78233215263E-01
1.43500000000E+09 +1.27367268335E-01 +8.25790558091E-01 +1.80186174057E-04 -2.47040449464E-04 +1.38547815923E-04 -2.90638749375E-04 -6.41032826566E-02 +8.71608801038E-01
1.44000000000E+09 +1.47035117373E-01 +8.14535129471E-01 +5.98663223195E-05 -2.17641509976E-04 +5.08835409724E-05 -1.95724150844E-04 -3.58950871990E-02 +8.62736986892E-01
1.44500000000E+09 +1.68084679760E-01 +8.00642371132E-01 +1.07002346282E-04 -5.48869127726E-05 +1.06204342765E-04 -1.34240633290E-04 -5.85595667580E-03 +8.51291689878E-01
1.45000000000E+09 +1.90966378823E-01 +7.83256135458E-01 +3.00041157646E-04 -1.80783205284E-04 +2.96327784008E-04 -1.69568894535E-04 +2.62940020770E-02 +8.36868445156E-01
1.45500000000E+09 +2.16705387532E-01 +7.61713185195E-01 +3.39827824133E-04 -2.78428203828E-04 +2.53552679223E-04 -2.81834705383E-04 +5.96974998949E-02 +8.18876325842E-01
1.46000000000E+09 +2.45291256159E-01 +7.35526180969E-01 +3.32408194619E-04 -3.62982229859E-04 +2.98574976023E-04 -3.91856273931E-04 +9.44199300667E-02 +7.96609265321E-01
1.46500000000E+09 +2.75532774719E-01 +7.04783660444E-01 +1.87551155222E-04 -6.14819592547E-04 +1.31859142432E-04 -5.97971256476E-04 +1.30013546781E-01 +7.69849139769E-01
1.47000000000E+09 +3.07567144009E-01 +6.69481492717E-01 +2.21388973913E-04 -4.60241231086E-04 +2.19288286735E-04 -3.95192962039E-04 +1.66987607453E-01 +7.36014983348E-01
1.47500000000E+09 +3.39255715077E-01 +6.28575040480E-01 +1.74794737493E-04 -7.72739341019E-04 +2.24289296702E-04 -6.92361684431E-04 +2.04088628423E-01 +6.94727960368E-01
1.48000000000E+09 +3.68616838028E-01 +5.81878461193E-01 +3.04365795845E-05 -7.43663062392E-04 +5.49776102364E-05 -7.48603153997E-04 +2.40373482901E-01 +6.44819393412E-01
1.48500000000E+09 +3.93555066628E-01 +5.28603377435E-01 +1.24676686934E-04 -8.57512254310E-04 +1.25219303345E-04 -8.58338993714E-04 +2.73946483154E-01 +5.85634975201E-01
1.49000000000E+09 +4.12761236578E-01 +4.68253420100E-01 +1.35032911998E-04 -1.28283980369E-03 +6.29483089317E-05 -1.29789234607E-03 +3.01373635926E-01 +5.15416701866E-01
1.49500000000E+09 +4.23585186151E-01 +3.99766318191E-01 -2.33751410644E-04 -1.77246610740E-03 -3.30542006714E-04 -1.71594711304E-03 +3.18508987819E-01 +4.36150710219E-01
1.50000000000E+09 +4.23937682957E-01 +3.22835074859E-01 -1.23040178952E-03 -2.19885667969E-03 -1.12880217759E-03 -2.01730332387E-03 +3.23073113552E-01 +3.47208366969E-01
1.50500000000E+09 +4.11901400058E-01 +2.38330503063E-01 -2.34161912432E-03 -1.62370087521E-03 -2.16225997039E-03 -1.57878264603E-03 +3.10818791801E-01 +2.51443283924E-01
1.51000000000E+09 +3.84225271595E-01 +1.47394828794E-01 -2.88266787977E-03 -8.00606581491E-04 -2.75939748392E-03 -8.95693269545E-04 +2.77796160438E-01 +1.51883254940E-01
1.51500000000E+09 +3.37346980411E-01 +5.45950801458E-02 -3.35940079798E-03 -1.03892340262E-04 -3.35509197113E-03 -1.36997641926E-04 +2.23091771086E-01 +5.54207010822E-02
1.52000000000E+09 +2.69475299484E-01 -3.20479138966E-02 -3.46285690676E-03 +1.71260116997E-03 -3.50664983936E-03 +1.68888877631E-03 +1.45747539565E-01 -2.95354785429E-02
1.52500000000E+09 +1.82357117811E-01 -1.05231900633E-01 -1.94314760367E-03 +2.14133375680E-03 -2.00869224756E-03 +2.15902197832E-03 +5.03003058380E-02 -9.59796982678E-02
1.53000000000E+09 +7.89261118778E-02 -1.56515995410E-01 -1.77833797662E-03 +2.25106185171E-03 -1.78888984433E-03 +2.25496030833E-03 -5.51911709756E-02 -1.38780050271E-01
1.53500000000E+09 -3.21798561304E-02 -1.81555968447E-01 -1.86537202807E-03 +2.97737509214E-03 -1.86910019978E-03 +2.99758374802E-03 -1.65873793770E-01 -1.58431295859E-01
1.54000000000E+09 -1.44245815871E-01 -1.79820135344E-01 -6.14021412487E-04 +4.08980442613E-03 -6.65984265360E-04 +4.05349334390E-03 -2.73512220535E-01 -1.54701186296E-01
1.54500000000E+09 -2.50651008225E-01 -1.54340921405E-01 +1.21948636657E-03 +4.25418607937E-03 +1.11261423776E-03 +4.24421845464E-03 -3.71572501030E-01 -1.30604203609E-01
1.55000000000E+09 -3.46798022356E-01 -1.09449398838E-01 +2.62045912861E-03 +2.96074096272E-03 +2.52944756602E-03 +3.06418894436E-03 -4.55470697869E-01 -9.25959350366E-02
1.55500000000E+09 -4.27680528128E-01 -5.07287206055E-02 +2.75332616927E-03 +1.73412385268E-03 +2.73189042266E-03 +1.93908380364E-03 -5.25342588313E-01 -4.55998323511E-02
1.56000000000E+09 -4.92209041230E-01 +1.34923806245E-02 +2.78904345970E-03 +9.00926952874E-04 +2.84319007817E-03 +1.09233432183E-03 -5.81669525115E-01 +7.63752483161E-03
1.56500000000E+09 -5.41450146711E-01 +7.80735672523E-02 +2.69955330917E-03 +3.48952004788E-04 +2.85234320042E-03 +4.20802091529E-04 -6.24968177255E-01 +6.30543897436E-02
1.57000000000E+09 -5.78613187630E-01 +1.39966757681E-01 +2.49576947469E-03 -4.80750029801E-04 +2.69080134638E-03 -4.97220094076E-04 -6.57592421883E-01 +1.17871277800E-01
