# Hz S RI R 50
! CMT, C1220, 16058040, 17.2.0/1
! Date: 14/08/2018 12:57:09
! Data: Format (Calibration Info)
! Freq                      S11: Re/Im (F2)                       S21: Re/Im (F2)                       S12: Re/Im (F2)                       S22: Re/Im (F2)            
1.00000000000E+09 -6.46423283214E-01 +7.12102886058E-01 +8.61939300198E-06 +5.87566434520E-06 -6.06704800921E-06 -1.32744456026E-05 -7.19268000332E-01 +6.45706569530E-01
1.00500000000E+09 -6.40002224398E-01 +7.16661018356E-01 -2.34367614377E-05 +3.67357092410E-05 +3.99729701496E-05 +3.39902250428E-05 -7.15224463282E-01 +6.49791704645E-01
1.01000000000E+09 -6.33980718042E-01 +7.21081851944E-01 -1.39542143287E-05 +2.77312328320E-05 -4.91317092056E-05 +1.40027938286E-05 -7.11770250462E-01 +6.53168788419E-01
1.01500000000E+09 -6.29402963438E-01 +7.24994811115E-01 -1.10764919905E-05 +1.18674500387E-05 -4.98728539522E-05 +8.07564565133E-05 -7.08272838038E-01 +6.56671380200E-01
1.02000000000E+09 -6.25324267582E-01 +7.28538643710E-01 -2.14203833861E-06 -2.78405066519E-05 -8.97038485102E-06 -1.01588922075E-05 -7.04773929980E-01 +6.60162695365E-01
1.02500000000E+09 -6.22041288088E-01 +7.31783815230E-01 +4.79358842880E-06 -7.27315724687E-06 -6.67017988715E-05 +1.50545486222E-05 -7.01658700035E-01 +6.63569503234E-01
1.03000000000E+09 -6.18862011605E-01 +7.34794837482E-01 -2.01438801598E-05 +9.75899215260E-06 +3.71230854493E-06 -2.78343127938E-05 -6.98026916624E-01 +6.67448571697E-01
1.03500000000E+09 -6.15135043602E-01 +7.37837030523E-01 +2.03993727833E-05 +5.61940458001E-05 +3.76577075071E-06 +1.90437147555E-05 -6.94103501187E-01 +6.71296122896E-01
1.04000000000E+09 -6.10510403072E-01 +7.41020653683E-01 -1.81017257864E-05 +5.45531899556E-05 +1.67243276377E-05 +3.95253706299E-05 -6.89966505601E-01 +6.74830682183E-01
1.04500000000E+09 -6.04928064319E-01 +7.44536039278E-01 +1.92586513098E-05 +1.88322199291E-05 -1.44777880972E-05 +3.67129404913E-05 -6.86354316414E-01 +6.78209019973E-01
1.05000000000E+09 -5.98132967030E-01 +7.48712132555E-01 -2.35009932813E-05 -1.38378045666E-05 +4.57943232458E-05 +4.98818185858E-05 -6.82757184264E-01 +6.81445272447E-01
1.05500000000E+09 -5.90474903476E-01 +7.52906536188E-01 -3.90255726028E-05 -4.97632153003E-06 +9.31144863787E-07 +7.11428816600E-05 -6.79262692699E-01 +6.85050084283E-01
1.06000000000E+09 -5.82534726303E-01 +7.57580102600E-01 +3.72375800833E-05 +3.52781415858E-05 -3.72332008051E-06 -1.12142178772E-05 -6.75701186985E-01 +6.88653338729E-01
1.06500000000E+09 -5.74506301325E-01 +7.62121341009E-01 +3.67771586736E-05 +5.58982151819E-05 +4.74318658332E-05 +5.20989439802E-05 -6.71588109134E-01 +6.92360825967E-01
1.07000000000E+09 -5.67389652630E-01 +7.66348219902E-01 +3.59205773766E-06 +4.03712556101E-06 -1.47620839246E-05 +3.66847286626E-06 -6.67293101635E-01 +6.95979980923E-01
1.07500000000E+09 -5.61261345377E-01 +7.69981971816E-01 +3.69362717704E-05 +3.21545899678E-05 -3.32194842660E-05 +5.13665002696E-05 -6.62800891421E-01 +6.99361896341E-01
1.08000000000E+09 -5.56521033091E-01 +7.73293853802E-01 +5.28144507119E-05 +2.99490002968E-05 +1.65286777425E-05 +4.20505814127E-05 -6.58731877009E-01 +7.03166274155E-01
1.08500000000E+09 -5.52636700246E-01 +7.75954600589E-01 +3.77584189143E-05 +5.08264293352E-05 +3.67789807972E-05 +3.76590984615E-05 -6.54717066059E-01 +7.06556931678E-01
1.09000000000E+09 -5.49181731184E-01 +7.78237583763E-01 +2.96133740692E-05 +3.50080022175E-05 +9.50967257454E-05 +5.36950260554E-05 -6.50847653403E-01 +7.10165295974E-01
1.09500000000E+09 -5.46438858366E-01 +7.80392091067E-01 +5.20570064636E-05 +4.73424415295E-05 +7.61766156395E-05 -2.07154467732E-05 -6.46967644996E-01 +7.13960609221E-01
1.10000000000E+09 -5.42593263685E-01 +7.82634385572E-01 +4.60169216458E-05 +1.46553879484E-05 +4.86637960784E-05 +1.54655642895E-05 -6.42801772715E-01 +7.17714543559E-01
1.10500000000E+09 -5.38382629697E-01 +7.85167205734E-01 +4.20670280521E-05 +4.44912592891E-05 +3.38613593494E-05 -1.55828530622E-05 -6.38405333514E-01 +7.21047109563E-01
1.11000000000E+09 -5.33108554575E-01 +7.88219445948E-01 +1.61138568775E-05 +4.90554308850E-05 +2.12063843079E-05 +7.69880992320E-05 -6.34005723440E-01 +7.24017169177E-01
1.11500000000E+09 -5.26650419899E-01 +7.91795584533E-01 +7.03085331391E-05 +1.57674154575E-05 +4.89937809019E-05 +3.35829823256E-05 -6.29980552593E-01 +7.27234540081E-01
1.12000000000E+09 -5.19742034755E-01 +7.95305956602E-01 +6.65785448675E-05 +1.07919721453E-05 +7.67023269972E-05 +3.28004504367E-05 -6.25698096022E-01 +7.30696942103E-01
1.12500000000E+09 -5.12326433181E-01 +7.98791326859E-01 +7.50056623872E-05 +4.04083481744E-05 +6.91189154969E-05 -8.91204168617E-06 -6.21247058229E-01 +7.34547732335E-01
1.13000000000E+09 -5.05047163895E-01 +8.02100663633E-01 +6.20943485821E-05 +5.00859156326E-05 +7.07972105844E-05 +3.96849396580E-05 -6.16734492198E-01 +7.38046783801E-01
1.13500000000E+09 -4.98181915369E-01 +8.04565581359E-01 +9.59281793595E-05 +9.49009138794E-06 +6.47818721062E-05 +1.52997875817E-05 -6.11934693212E-01 +7.41562667289E-01
1.14000000000E+09 -4.92049241859E-01 +8.06960465779E-01 +9.54170414298E-05 -1.36845450734E-05 +7.74554361995E-05 +2.30621215636E-06 -6.06960954421E-01 +7.45007466171E-01
1.14500000000E+09 -4.86492181927E-01 +8.08484297108E-01 +6.35835615263E-05 -3.16645824210E-05 +1.17442043595E-04 -1.82140068209E-05 -6.02171864195E-01 +7.48177763879E-01
1.15000000000E+09 -4.81285372042E-01 +8.10153875320E-01 +9.88599536714E-05 -1.15266790851E-05 +7.60611285387E-05 +3.13654007602E-05 -5.97480793303E-01 +7.51921636067E-01
1.15500000000E+09 -4.76356482910E-01 +8.12034130205E-01 +1.24744119486E-04 -2.18375198193E-05 +1.08670028961E-04 -1.94039837088E-05 -5.92471592409E-01 +7.55504909582E-01
1.16000000000E+09 -4.70932135360E-01 +8.13841278176E-01 +7.08904212379E-05 -5.52273119637E-05 +1.06920954397E-04 +2.26893189354E-05 -5.87524704427E-01 +7.59112497503E-01
1.16500000000E+09 -4.65108017151E-01 +8.16485886529E-01 +6.68835912686E-05 -2.13411912427E-05 +1.15744626778E-04 -8.08196876385E-05 -5.82278110377E-01 +7.62427846960E-01
1.17000000000E+09 -4.58556234007E-01 +8.19246785863E-01 +1.08847792021E-04 -6.70431429854E-05 +1.51597922764E-04 -9.25213185334E-05 -5.76791039893E-01 +7.65655930886E-01
1.17500000000E+09 -4.51441758894E-01 +8.22277292385E-01 +1.27972698711E-04 -7.12742023398E-05 +9.35397684740E-05 -7.72765598016E-05 -5.71063343781E-01 +7.68539036435E-01
1.18000000000E+09 -4.44105873190E-01 +8.25536196031E-01 +1.49361514531E-04 -5.26143650230E-05 +1.09018494804E-04 -8.36632678721E-05 -5.65631217615E-01 +7.71520967045E-01
1.18500000000E+09 -4.36326706688E-01 +8.28367538016E-01 +1.50614857408E-04 -1.27894249722E-04 +1.27498301422E-04 -1.90033097371E-04 -5.59663478336E-01 +7.74290855072E-01
1.19000000000E+09 -4.28649163917E-01 +8.30701607290E-01 +1.33052500559E-04 -1.34477523041E-04 +1.37036923376E-04 -1.52469365210E-04 -5.53507373881E-01 +7.76628994977E-01
1.19500000000E+09 -4.21150390675E-01 +8.32582674509E-01 +9.69970271471E-05 -2.09701907849E-04 +1.23917116744E-04 -2.38544648328E-04 -5.47577525303E-01 +7.77542182916E-01
1.20000000000E+09 -4.14366360919E-01 +8.33344745247E-01 -2.71867080807E-05 -2.66395185344E-04 -3.38284150937E-05 -3.04355180148E-04 -5.43014878673E-01 +7.77615406150E-01
1.20500000000E+09 -4.07834121144E-01 +8.34563601281E-01 -9.14673626636E-05 -2.58515684757E-04 -1.14207587462E-04 -2.46653954657E-04 -5.40606421695E-01 +7.78497620511E-01
1.21000000000E+09 -4.01171034849E-01 +8.35694919105E-01 -7.83730069473E-05 -1.59599690449E-04 -7.34899153099E-05 -1.51761641654E-04 -5.38276660919E-01 +7.81424691484E-01
1.21500000000E+09 -3.93894515742E-01 +8.37416762090E-01 -3.47036213001E-05 -1.43541870166E-04 -3.80629266934E-05 -1.69884250193E-04 -5.35281625653E-01 +7.85915666709E-01
1.22000000000E+09 -3.86082637579E-01 +8.39280863865E-01 -1.70800565696E-05 -1.03174752744E-04 -4.18444215837E-05 -1.62586143491E-04 -5.30790071153E-01 +7.91030150804E-01
1.22500000000E+09 -3.77821897807E-01 +8.41601098133E-01 -4.70012712459E-05 -1.69181407853E-04 -3.71759090108E-05 -1.68934106958E-04 -5.25477950557E-01 +7.95831146506E-01
1.23000000000E+09 -3.69262619816E-01 +8.44355470852E-01 -3.34220668647E-05 -1.42938127780E-04 -5.23725530698E-05 -1.90494537165E-04 -5.19680035810E-01 +8.00115024699E-01
1.23500000000E+09 -3.60965845055E-01 +8.47413060749E-01 -6.67825858403E-05 -1.64412803940E-04 -8.57572503838E-05 -1.91880419474E-04 -5.13804830419E-01 +8.04063359913E-01
1.24000000000E+09 -3.52502821886E-01 +8.50439172788E-01 -1.37787399865E-04 -1.75115416509E-04 -5.43503573158E-05 -1.99278398740E-04 -5.07641726170E-01 +8.07672007933E-01
1.24500000000E+09 -3.44851074706E-01 +8.53683561519E-01 -1.28040664419E-04 -2.72106558675E-04 -1.41420744379E-04 -1.51273838147E-04 -5.01467921884E-01 +8.11132983819E-01
1.25000000000E+09 -3.37167433220E-01 +8.56247052403E-01 -1.47117800352E-04 -1.88076776322E-04 -1.26714717362E-04 -1.61842263260E-04 -4.94921825772E-01 +8.15220904774E-01
1.25500000000E+09 -3.29712692930E-01 +8.58034133639E-01 -1.28598303092E-04 -1.53785433806E-04 -1.28539748730E-04 -2.14300702223E-04 -4.87971832234E-01 +8.18666172163E-01
1.26000000000E+09 -3.22114772580E-01 +8.59234393495E-01 -1.65086705281E-04 -1.97593149637E-04 -1.87726611930E-04 -2.28759410681E-04 -4.81285286326E-01 +8.22633115397E-01
1.26500000000E+09 -3.14495034570E-01 +8.59654420035E-01 -1.97912074003E-04 -2.51484258253E-04 -2.06099992635E-04 -2.41896618665E-04 -4.74300913736E-01 +8.26052939920E-01
1.27000000000E+09 -3.06198870030E-01 +8.60023070034E-01 -2.78756414348E-04 -2.65080357904E-04 -2.69357298481E-04 -2.34965033412E-04 -4.67305904606E-01 +8.29544205598E-01
1.27500000000E+09 -2.97263343184E-01 +8.60579640119E-01 -3.12975496947E-04 -1.71173993765E-04 -3.37567255992E-04 -2.13055820092E-04 -4.60256258522E-01 +8.32774152452E-01
1.28000000000E+09 -2.87096197372E-01 +8.61365639190E-01 -3.96585010381E-04 -1.48278258186E-04 -3.64170403265E-04 -1.84506709270E-04 -4.53202913384E-01 +8.35900572257E-01
1.28500000000E+09 -2.76184934591E-01 +8.62549661262E-01 -3.72496046050E-04 -6.84395814800E-05 -4.04680187445E-04 -1.19934696236E-04 -4.45658879688E-01 +8.39366778438E-01
1.29000000000E+09 -2.65173318843E-01 +8.64195411238E-01 -4.15790125109E-04 -1.17082902577E-04 -4.35298185239E-04 -1.08898558187E-04 -4.38107043784E-01 +8.42793772462E-01
1.29500000000E+09 -2.54440135797E-01 +8.66500894313E-01 -4.43178088902E-04 -1.00381871973E-04 -4.94730737250E-04 -6.26659657706E-05 -4.30211648183E-01 +8.45914031865E-01
1.30000000000E+09 -2.44340431554E-01 +8.69170643728E-01 -5.15437394432E-04 -2.28077116913E-05 -5.50026872140E-04 -2.22469643592E-06 -4.22526309626E-01 +8.49039390052E-01
1.30500000000E+09 -2.34898352097E-01 +8.71857927476E-01 -6.07388666960E-04 +9.65255614884E-06 -5.59005671978E-04 +3.11508185444E-05 -4.14431394059E-01 +8.52201513636E-01
1.31000000000E+09 -2.26003360362E-01 +8.74152006728E-01 -6.34923031893E-04 +1.22914291396E-04 -6.50524293660E-04 +8.77538960513E-05 -4.06096072632E-01 +8.55164471152E-01
1.31500000000E+09 -2.18108573584E-01 +8.75339848154E-01 -6.05827943797E-04 +2.40772799785E-04 -5.87066514095E-04 +2.03361924882E-04 -3.97393142787E-01 +8.58316951980E-01
1.32000000000E+09 -2.10329091440E-01 +8.75656772363E-01 -5.36801903109E-04 +2.70385978585E-04 -6.06624394206E-04 +3.04635571581E-04 -3.88355355078E-01 +8.61341907181E-01
1.32500000000E+09 -2.02830355508E-01 +8.74996898589E-01 -5.77143957786E-04 +3.27446987953E-04 -6.37301380047E-04 +3.57641100023E-04 -3.79044190024E-01 +8.64214900458E-01
1.33000000000E+09 -1.94406972141E-01 +8.74408083556E-01 -6.35942748543E-04 +3.73644214872E-04 -6.02536334908E-04 +4.93507914644E-04 -3.69699695611E-01 +8.67014164294E-01
1.33500000000E+09 -1.84733050949E-01 +8.73224254243E-01 -6.61924799477E-04 +4.91792227680E-04 -5.89770406625E-04 +5.56832221619E-04 -3.60143840814E-01 +8.69876114838E-01
1.34000000000E+09 -1.73308570077E-01 +8.72509753187E-01 -5.82094181013E-04 +6.41036835304E-04 -5.14007092050E-04 +6.41312555701E-04 -3.50046101213E-01 +8.72756806971E-01
1.34500000000E+09 -1.60462771432E-01 +8.71892105777E-01 -5.33169029157E-04 +7.67046674806E-04 -5.33180776547E-04 +7.22269067442E-04 -3.39187498765E-01 +8.75592154935E-01
1.35000000000E+09 -1.46483469216E-01 +8.71793770111E-01 -4.81056216398E-04 +8.20197322534E-04 -4.45591211124E-04 +8.17607947908E-04 -3.28348716152E-01 +8.78125645334E-01
1.35500000000E+09 -1.31751295519E-01 +8.71989540168E-01 -4.14800954138E-04 +8.73673528513E-04 -4.10116516262E-04 +8.61866369886E-04 -3.16828368550E-01 +8.80448734970E-01
1.36000000000E+09 -1.16660500046E-01 +8.72595527876E-01 -3.73515627448E-04 +1.01040225779E-03 -3.93250522418E-04 +9.50888650327E-04 -3.05323707090E-01 +8.82548035312E-01
1.36500000000E+09 -1.01628962659E-01 +8.72701426560E-01 -3.42961269962E-04 +1.13810395604E-03 -3.23858655694E-04 +1.06215712863E-03 -2.93648908932E-01 +8.84565314482E-01
1.37000000000E+09 -8.72344831904E-02 +8.71713952510E-01 -2.11120662961E-04 +1.30668435288E-03 -2.73237274996E-04 +1.22332778888E-03 -2.81035196890E-01 +8.86595151059E-01
1.37500000000E+09 -7.41268239756E-02 +8.69918389952E-01 +1.24061052799E-05 +1.45333541043E-03 -1.45904999622E-04 +1.39465833729E-03 -2.67586494604E-01 +8.88411647324E-01
1.38000000000E+09 -6.17511962544E-02 +8.67267879073E-01 +1.17326230647E-04 +1.45917270044E-03 -9.05765710907E-05 +1.51839853904E-03 -2.53296894035E-01 +8.89946249908E-01
1.38500000000E+09 -4.93951588218E-02 +8.63829616513E-01 +2.40296053709E-04 +1.50738422904E-03 +1.90621976007E-04 +1.76414512434E-03 -2.38211724907E-01 +8.91409787521E-01
1.39000000000E+09 -3.67483421241E-02 +8.59981279590E-01 +4.18027014714E-04 +1.61251728639E-03 +5.08715498224E-04 +1.95703402602E-03 -2.22861971626E-01 +8.92341864254E-01
1.39500000000E+09 -2.29513314421E-02 +8.55777514184E-01 +6.11395932557E-04 +1.78864837888E-03 +8.71990487393E-04 +1.87909020371E-03 -2.06860062911E-01 +8.92630567554E-01
1.40000000000E+09 -7.43172163696E-03 +8.50955867780E-01 +8.77956279313E-04 +2.00244668207E-03 +1.12669486649E-03 +1.96802181326E-03 -1.89991258535E-01 +8.92640161569E-01
1.40500000000E+09 +8.92364212603E-03 +8.46119395366E-01 +1.36224494068E-03 +2.08523453851E-03 +1.46456063590E-03 +2.00320717466E-03 -1.72164609809E-01 +8.91762416848E-01
1.41000000000E+09 +2.64661439345E-02 +8.41312685934E-01 +1.86621555936E-03 +1.90686587112E-03 +1.82213800321E-03 +1.88391200450E-03 -1.52966236630E-01 +8.90715511857E-01
1.41500000000E+09 +4.53249510216E-02 +8.36566514753E-01 +2.16815049541E-03 +1.74484668146E-03 +2.21493037670E-03 +1.85818916510E-03 -1.31895556589E-01 +8.88558023018E-01
1.42000000000E+09 +6.59063822168E-02 +8.31114954087E-01 +2.53497167100E-03 +1.54445624379E-03 +2.74728867855E-03 +1.81145219817E-03 -1.09894763837E-01 +8.85560157652E-01
1.42500000000E+09 +8.69868008240E-02 +8.23699071327E-01 +2.85585025485E-03 +1.45986439029E-03 +3.27684321876E-03 +1.49593354991E-03 -8.71733383438E-02 +8.81294877247E-01
1.43000000000E+09 +1.08173744459E-01 +8.14024495063E-01 +3.40509964684E-03 +1.43781751330E-03 +3.79512262385E-03 +1.17229286913E-03 -6.35969049963E-02 +8.76133128696E-01
1.43500000000E+09 +1.29205649346E-01 +8.01752762704E-01 +4.35318896880E-03 +9.57966366580E-04 +4.55580065486E-03 +5.91003252008E-04 -3.83145448115E-02 +8.69053597299E-01
1.44000000000E+09 +1.50433004600E-01 +7.87952105724E-01 +4.93330396241E-03 -7.17250800924E-05 +4.97400425974E-03 -3.73003678385E-04 -1.15394111640E-02 +8.59883686143E-01
1.44500000000E+09 +1.72966830576E-01 +7.71401649460E-01 +5.05422669478E-03 -1.17846499053E-03 +4.99723382952E-03 -1.36656272006E-03 +1.71169583578E-02 +8.48147744670E-01
1.45000000000E+09 +1.96532990961E-01 +7.52035588788E-01 +4.95133222159E-03 -1.78475328981E-03 +4.97420651630E-03 -2.11430633471E-03 +4.72466042465E-02 +8.33372992534E-01
1.45500000000E+09 +2.21384609373E-01 +7.30127920485E-01 +5.22196396071E-03 -2.48104184992E-03 +5.04730304124E-03 -2.92395486148E-03 +7.84741279963E-02 +8.16076020641E-01
1.46000000000E+09 +2.47723443513E-01 +7.05844178703E-01 +5.55660578800E-03 -3.41007450554E-03 +4.99183456384E-03 -3.79299266048E-03 +1.11529925985E-01 +7.94860946614E-01
1.46500000000E+09 +2.75462276076E-01 +6.78874140599E-01 +5.73434359026E-03 -4.75274452849E-03 +5.00450122981E-03 -4.69984324088E-03 +1.45662176372E-01 +7.68310364670E-01
1.47000000000E+09 +3.04898491704E-01 +6.48000883006E-01 +5.74710806517E-03 -6.73932369115E-03 +5.30169516351E-03 -6.20354218141E-03 +1.80566625062E-01 +7.35277560602E-01
1.47500000000E+09 +3.34819087304E-01 +6.11044175538E-01 +4.52292299817E-03 -9.02723628697E-03 +4.67666195549E-03 -8.46856304219E-03 +2.14975229956E-01 +6.94831294287E-01
1.48000000000E+09 +3.62338634576E-01 +5.66722062249E-01 +2.75969372395E-03 -1.04829740282E-02 +3.12294118878E-03 -1.04882489672E-02 +2.49049496566E-01 +6.47122313161E-01
1.48500000000E+09 +3.85559607555E-01 +5.14439758917E-01 +1.07542331164E-03 -1.19298388304E-02 +9.12168974750E-04 -1.22592739445E-02 +2.80610456358E-01 +5.90253076959E-01
1.49000000000E+09 +4.02746282311E-01 +4.54308592511E-01 -1.57688110566E-03 -1.36109133063E-02 -2.19994594002E-03 -1.34694543520E-02 +3.07175066453E-01 +5.23484513743E-01
1.49500000000E+09 +4.12497951193E-01 +3.86104531777E-01 -5.54219024042E-03 -1.46044169197E-02 -5.84384023242E-03 -1.37764054553E-02 +3.24540554448E-01 +4.46217190205E-01
1.50000000000E+09 +4.13075891034E-01 +3.08882226355E-01 -9.83672260842E-03 -1.39848789668E-02 -9.25942059532E-03 -1.31741715187E-02 +3.28893472187E-01 +3.59419442637E-01
1.50500000000E+09 +4.00549814973E-01 +2.23918245503E-01 -1.43890539149E-02 -1.21383352353E-02 -1.33780963273E-02 -1.21106454230E-02 +3.16639993534E-01 +2.65293504421E-01
1.51000000000E+09 +3.72535470748E-01 +1.34728324372E-01 -1.82416438387E-02 -8.17276554942E-03 -1.77703497502E-02 -8.74449975984E-03 +2.84062830121E-01 +1.66509995483E-01
1.51500000000E+09 +3.25274031338E-01 +4.47132533675E-02 -2.10026631904E-02 -3.74368524348E-03 -2.10913826663E-02 -4.36054587545E-03 +2.27304685335E-01 +7.19502809003E-02
1.52000000000E+09 +2.57596931111E-01 -3.62916856298E-02 -2.30152783685E-02 +2.10172608397E-03 -2.33461652897E-02 +1.77811930425E-03 +1.49547268349E-01 -9.81147047691E-03
1.52500000000E+09 +1.72848199277E-01 -1.03073422922E-01 -2.27453772927E-02 +1.03866354185E-02 -2.30081559438E-02 +1.03042786102E-02 +5.64985808615E-02 -7.43702282479E-02
1.53000000000E+09 +7.39072956775E-02 -1.50589041019E-01 -1.74228982308E-02 +1.69692709137E-02 -1.75581552091E-02 +1.70639037004E-02 -5.19013343717E-02 -1.16605051572E-01
1.53500000000E+09 -3.38195441981E-02 -1.74631283287E-01 -1.17108469932E-02 +2.05340082918E-02 -1.16610819248E-02 +2.05739766724E-02 -1.62099754311E-01 -1.32052581693E-01
1.54000000000E+09 -1.45273939546E-01 -1.73151535383E-01 -5.30168991971E-03 +2.21525442967E-02 -5.34477986214E-03 +2.18695982324E-02 -2.69937107191E-01 -1.25227318787E-01
1.54500000000E+09 -2.50177878582E-01 -1.46395261615E-01 +1.43804873767E-03 +2.20136876679E-02 +9.03652132562E-04 +2.17568385778E-02 -3.66974425741E-01 -9.73660642138E-02
1.55000000000E+09 -3.42437308260E-01 -1.02396761475E-01 +6.70180799714E-03 +1.88400488926E-02 +5.93299714236E-03 +1.90779190340E-02 -4.48787924869E-01 -5.57225921660E-02
1.55500000000E+09 -4.19241037572E-01 -4.62828538373E-02 +1.01292166975E-02 +1.55411578855E-02 +9.60516041602E-03 +1.63225432019E-02 -5.15985979149E-01 -5.75351890367E-03
1.56000000000E+09 -4.79484071847E-01 +1.32125100552E-02 +1.27051504147E-02 +1.15955845037E-02 +1.28385193005E-02 +1.26193052808E-02 -5.68988721182E-01 +4.91078491569E-02
1.56500000000E+09 -5.27454606519E-01 +7.31384477501E-02 +1.33834065620E-02 +7.29106745694E-03 +1.40022784765E-02 +7.97576135123E-03 -6.10174167309E-01 +1.05729908335E-01
1.57000000000E+09 -5.63746110006E-01 +1.32946695279E-01 +1.29790087112E-02 +4.24025706868E-03 +1.38463047535E-02 +4.40899718429E-03 -6.40071312355E-01 +1.61961732240E-01
