# Hz S RI R 50
! CMT, C1220, 16058040, 17.2.0/1
! Date: 14/08/2018 11:47:54
! Data: Format (Calibration Info)
! Freq                      S11: Re/Im (F2)                       S21: Re/Im (F2)                       S12: Re/Im (F2)                       S22: Re/Im (F2)            
1.00000000000E+09 -6.47095265802E-01 +7.15047306095E-01 +4.50435894382E-05 +2.90421521426E-05 -2.65995410056E-05 +4.19006535764E-06 -7.55128250620E-01 +6.24252361354E-01
1.00500000000E+09 -6.40096869041E-01 +7.20174211775E-01 +6.23255706378E-05 +4.44126429041E-05 +1.51260220047E-05 +2.23310274310E-05 -7.51688032956E-01 +6.28270957056E-01
1.01000000000E+09 -6.33933534835E-01 +7.24657250301E-01 +1.59554840801E-05 -7.92016822716E-06 -3.69348774464E-06 +3.66892857635E-06 -7.48051450372E-01 +6.32164180522E-01
1.01500000000E+09 -6.29207875439E-01 +7.28519731557E-01 -5.68004483019E-06 -1.71249911462E-06 +1.06101900487E-05 -6.48603374969E-06 -7.44778912589E-01 +6.36002347286E-01
1.02000000000E+09 -6.25453143858E-01 +7.31683706412E-01 -2.45280020477E-05 +1.17889764525E-05 +1.13982657984E-05 -6.46754701032E-06 -7.41132411128E-01 +6.39670244766E-01
1.02500000000E+09 -6.22598235414E-01 +7.34400782487E-01 +7.06837168119E-06 -2.62933463929E-05 -3.43058849590E-05 +4.10600578237E-06 -7.38127585678E-01 +6.43353321360E-01
1.03000000000E+09 -6.20341542160E-01 +7.36854230228E-01 -2.69624388139E-05 +6.22333392114E-06 -2.36077308535E-05 +1.74370410150E-05 -7.34778270154E-01 +6.47281732758E-01
1.03500000000E+09 -6.17220082161E-01 +7.39287915760E-01 -2.04510151284E-05 -1.81587281473E-05 +1.98127430221E-05 -4.47461133841E-06 -7.31126962174E-01 +6.51188831523E-01
1.04000000000E+09 -6.13057336203E-01 +7.42095083352E-01 -3.28714048424E-05 +3.24649760765E-05 -4.84356830345E-06 -1.18122990069E-05 -7.27224744591E-01 +6.54678075788E-01
1.04500000000E+09 -6.07620206516E-01 +7.45675454743E-01 +3.62110728287E-06 +2.07069111205E-05 +2.85856626443E-05 +2.30055295861E-05 -7.23716557096E-01 +6.58328133435E-01
1.05000000000E+09 -6.00524886932E-01 +7.49735558633E-01 +3.69197334328E-05 +3.08293182753E-05 +6.35271595588E-07 +1.96501187696E-05 -7.20350115053E-01 +6.61764630292E-01
1.05500000000E+09 -5.92379083600E-01 +7.54408733101E-01 +1.13631840562E-05 +1.44510049130E-05 -1.40613122468E-06 -1.26445109278E-05 -7.17022936553E-01 +6.65333474803E-01
1.06000000000E+09 -5.83824711516E-01 +7.59450186471E-01 +4.06319083869E-07 +2.99793839088E-05 -1.93141283830E-05 +2.53483221424E-05 -7.13786034645E-01 +6.68969912843E-01
1.06500000000E+09 -5.75608697405E-01 +7.64343878260E-01 -9.74013943165E-06 +4.57448648711E-05 +1.08296566797E-05 +4.45939932878E-05 -7.10164941677E-01 +6.72885892909E-01
1.07000000000E+09 -5.68406627316E-01 +7.68684235879E-01 +1.89942417915E-05 +1.14949259361E-05 -1.13713585126E-05 +5.50065071366E-05 -7.06111021653E-01 +6.76495221401E-01
1.07500000000E+09 -5.62780225141E-01 +7.72493047187E-01 +1.12304221410E-05 -4.45647037033E-06 -3.62743380935E-05 +2.99474384262E-05 -7.01939530610E-01 +6.80157060693E-01
1.08000000000E+09 -5.58868574457E-01 +7.75571284856E-01 +1.24607580265E-05 +9.51564461758E-06 +1.42409403486E-05 -6.07978967222E-06 -6.97930061529E-01 +6.84048552913E-01
1.08500000000E+09 -5.56027724698E-01 +7.77773136769E-01 +1.24680602565E-05 +1.91063368825E-05 -2.14707163266E-05 -2.23059287170E-05 -6.93815429032E-01 +6.87819288090E-01
1.09000000000E+09 -5.53842715211E-01 +7.79803344933E-01 +1.34117398840E-05 +1.34367256976E-05 +3.51606588657E-05 +4.66431301472E-05 -6.89756888643E-01 +6.91790901156E-01
1.09500000000E+09 -5.51989636407E-01 +7.81389796129E-01 +1.91382266447E-05 +1.36280072943E-06 +1.02051171892E-05 -8.10818907153E-06 -6.86030892674E-01 +6.95512649832E-01
1.10000000000E+09 -5.48854304695E-01 +7.83322158296E-01 -1.33362966688E-05 +4.36649498512E-05 +1.33231522614E-05 -1.01185408983E-05 -6.82198498240E-01 +6.99485593376E-01
1.10500000000E+09 -5.44479639897E-01 +7.85835703469E-01 +4.55528928284E-05 +1.45581464163E-05 +6.15608007215E-05 -2.65639380438E-05 -6.77923038961E-01 +7.03075494379E-01
1.11000000000E+09 -5.38683092702E-01 +7.88934397568E-01 +2.82286282713E-05 -1.33608192961E-06 +1.85246829306E-05 -3.27515394751E-05 -6.73799068641E-01 +7.06466272852E-01
1.11500000000E+09 -5.31531280802E-01 +7.92850764453E-01 -3.17585409770E-06 -2.21935299743E-05 +3.20426438055E-05 +3.41977005632E-06 -6.69683645076E-01 +7.10016067215E-01
1.12000000000E+09 -5.23646966575E-01 +7.96755844852E-01 -4.01725388949E-05 -1.08597495056E-05 +2.34086276145E-05 +3.27225868784E-05 -6.65426236064E-01 +7.13580109798E-01
1.12500000000E+09 -5.15787437802E-01 +8.00758680566E-01 +1.95949623358E-05 -1.34783273385E-05 +4.27577026351E-05 +2.00799055642E-05 -6.61146277125E-01 +7.17642422486E-01
1.13000000000E+09 -5.08727082925E-01 +8.04386334551E-01 -1.64649685469E-05 +3.50887288516E-06 +7.15397465497E-05 +1.00059181367E-05 -6.56930317669E-01 +7.21317054010E-01
1.13500000000E+09 -5.02496299889E-01 +8.07200900161E-01 -7.06441774097E-06 -1.38943034401E-05 -1.05057112187E-06 -2.61221257535E-05 -6.52392048854E-01 +7.25173994380E-01
1.14000000000E+09 -4.97299516429E-01 +8.09578769488E-01 +4.48976194984E-05 +1.91069802851E-05 -1.43486942335E-05 +4.81556939995E-05 -6.47756466391E-01 +7.28622935591E-01
1.14500000000E+09 -4.93265900968E-01 +8.11334393271E-01 +4.62417477235E-05 -3.76724279769E-05 +1.14417743086E-05 +1.90615526638E-05 -6.43084877592E-01 +7.32183808142E-01
1.15000000000E+09 -4.89423547821E-01 +8.12856535264E-01 -1.15395349622E-05 -7.13121363910E-05 -4.14879722131E-06 +4.48142690219E-06 -6.38421967738E-01 +7.35959677747E-01
1.15500000000E+09 -4.85308371260E-01 +8.14619245512E-01 -3.71201567683E-05 -1.36801721565E-05 +4.65046342203E-05 -5.34462446418E-05 -6.33640093716E-01 +7.39781973649E-01
1.16000000000E+09 -4.80348569209E-01 +8.16400908489E-01 +1.95449022547E-05 +1.42696431229E-05 +3.41945789554E-05 +2.68204095516E-06 -6.28670653024E-01 +7.43695918179E-01
1.16500000000E+09 -4.74383942266E-01 +8.19115568235E-01 +1.04503622456E-05 +2.03727230112E-05 +7.88171549840E-06 -2.33467714822E-05 -6.23874137983E-01 +7.47251795319E-01
1.17000000000E+09 -4.66980541446E-01 +8.22176066845E-01 +4.55430013072E-05 -2.83374646148E-05 +9.99195268257E-06 -6.22659396671E-05 -6.18356379476E-01 +7.50642749377E-01
1.17500000000E+09 -4.58919711313E-01 +8.25470135398E-01 -1.88349827884E-06 +1.92920428480E-05 -2.99684143819E-05 -4.22543853890E-05 -6.12594410512E-01 +7.53989473063E-01
1.18000000000E+09 -4.50765122415E-01 +8.28908399353E-01 +4.01937039458E-05 -2.48415495607E-05 +2.21863419575E-05 +1.59251554536E-05 -6.06985086768E-01 +7.57214236312E-01
1.18500000000E+09 -4.42645400109E-01 +8.32339923045E-01 +3.60435557426E-05 -6.14311072877E-05 +6.36707349136E-06 -9.97947033293E-05 -6.00900579411E-01 +7.60375256274E-01
1.19000000000E+09 -4.35204355832E-01 +8.34917598308E-01 -3.52019331220E-06 -8.14547385636E-05 +6.06799826315E-05 -9.92365987808E-05 -5.94584703054E-01 +7.62964086244E-01
1.19500000000E+09 -4.29029669483E-01 +8.36982951109E-01 +1.94591282445E-05 -1.11527930125E-04 -2.62084817669E-05 -1.77582426138E-04 -5.88675726585E-01 +7.64070530422E-01
1.20000000000E+09 -4.23719428671E-01 +8.37842668074E-01 -6.07409559075E-05 -1.40807858792E-04 -7.94084348843E-05 -1.07079843385E-04 -5.84076191739E-01 +7.64404369851E-01
1.20500000000E+09 -4.19100124480E-01 +8.39027829101E-01 -1.45482397923E-04 -8.87122089354E-05 -1.18040506081E-04 -4.39022016114E-05 -5.81831184289E-01 +7.65091140690E-01
1.21000000000E+09 -4.14260493046E-01 +8.40048451164E-01 -8.01715682834E-05 +3.19947173953E-05 -1.62643801036E-04 -1.71375384477E-05 -5.80046215357E-01 +7.68085329590E-01
1.21500000000E+09 -4.08281417280E-01 +8.41502952862E-01 -6.70727337842E-05 +5.86097721787E-05 -1.02797087901E-04 +6.61814212655E-05 -5.77331700071E-01 +7.72650029091E-01
1.22000000000E+09 -4.01361980293E-01 +8.43391613619E-01 -5.88164817502E-05 +5.46693376924E-05 -4.23992298748E-05 +7.44597897284E-05 -5.73300623561E-01 +7.78073337510E-01
1.22500000000E+09 -3.92787981782E-01 +8.45705423606E-01 +7.40436468534E-06 +2.66031689645E-05 +2.11058341839E-06 +3.37468849630E-05 -5.67906759027E-01 +7.83326660759E-01
1.23000000000E+09 -3.83417388532E-01 +8.48797686226E-01 +2.96885699718E-05 +4.75935659532E-05 -2.63923154742E-06 +1.23927682590E-05 -5.62238005735E-01 +7.87962427626E-01
1.23500000000E+09 -3.73737905394E-01 +8.52116735232E-01 -6.23237353162E-06 -3.69878096756E-05 +1.62263886135E-05 -3.35880340797E-05 -5.56447850386E-01 +7.92168180077E-01
1.24000000000E+09 -3.64170150790E-01 +8.55725258023E-01 -3.34314891673E-05 -5.14888792086E-05 -1.02288157540E-05 -2.93333343766E-05 -5.50525896315E-01 +7.96110737502E-01
1.24500000000E+09 -3.55540817644E-01 +8.59468526832E-01 -2.91381123699E-05 -2.53920190634E-05 -3.30334786414E-05 -2.37662204850E-05 -5.44133019451E-01 +7.99989800875E-01
1.25000000000E+09 -3.47773913551E-01 +8.62586014503E-01 -2.73757207610E-05 -2.20456158808E-05 -1.00974300063E-04 -2.07077949038E-05 -5.37488209319E-01 +8.04304104418E-01
1.25500000000E+09 -3.41034561404E-01 +8.64562405901E-01 -2.57216544253E-05 +2.20423275289E-05 -1.04263701719E-04 +1.27889374349E-05 -5.30538978915E-01 +8.08198942527E-01
1.26000000000E+09 -3.34892119405E-01 +8.66089253820E-01 -5.57132803196E-05 +9.21021748307E-07 -9.63481523722E-06 -4.11613265176E-06 -5.23793200192E-01 +8.12741901035E-01
1.26500000000E+09 -3.29134275165E-01 +8.66713661019E-01 -1.08638915859E-05 -6.24714024036E-06 -2.58438210450E-05 +1.89488453268E-05 -5.16745325095E-01 +8.16581836930E-01
1.27000000000E+09 -3.22576384897E-01 +8.67312628488E-01 -3.21040699657E-05 -1.34851716963E-05 -3.67933899260E-05 -6.62607054410E-06 -5.09991051380E-01 +8.20368337347E-01
1.27500000000E+09 -3.14847909619E-01 +8.67810010751E-01 -4.14137602064E-05 +1.76166312474E-06 -4.28313645449E-05 -3.03707333625E-05 -5.02799632095E-01 +8.23959920247E-01
1.28000000000E+09 -3.05310086045E-01 +8.68732001847E-01 -9.17094592328E-05 -2.19218921009E-05 -4.43124628800E-05 +1.36281732324E-05 -4.95969077308E-01 +8.27599255209E-01
1.28500000000E+09 -2.94055744295E-01 +8.70255784494E-01 -7.41132938173E-05 -5.62552664061E-07 -4.09237492941E-05 +1.29552909421E-05 -4.88533721544E-01 +8.31257150368E-01
1.29000000000E+09 -2.81831181983E-01 +8.72389265114E-01 -5.81824121453E-05 +3.32960567120E-05 -5.64339586425E-05 +2.07550137575E-05 -4.80939080501E-01 +8.34954077508E-01
1.29500000000E+09 -2.69314724330E-01 +8.75293512387E-01 -2.46405215300E-05 +3.49917461432E-05 -2.44559002731E-05 +3.76749410573E-06 -4.72922859902E-01 +8.38376765645E-01
1.30000000000E+09 -2.57441754454E-01 +8.78647814559E-01 -8.81954637351E-05 +1.24946865100E-05 -9.92786466500E-05 +2.90182747447E-05 -4.65057674839E-01 +8.42073068807E-01
1.30500000000E+09 -2.46587619065E-01 +8.82019618525E-01 -6.84332754494E-05 +6.35473209960E-05 -1.20865889113E-04 +7.62403017728E-05 -4.56855406339E-01 +8.45536610727E-01
1.31000000000E+09 -2.37220244774E-01 +8.84709882058E-01 -1.09847338919E-04 +8.04532845201E-05 -1.23310034057E-04 +1.01560213756E-04 -4.48571633770E-01 +8.48972966186E-01
1.31500000000E+09 -2.29765756024E-01 +8.86558215079E-01 -6.11224306387E-05 +1.22100272224E-04 -4.67496260233E-05 +9.63961934137E-05 -4.39514033408E-01 +8.52519911067E-01
1.32000000000E+09 -2.23649944432E-01 +8.87153905776E-01 -6.12580879043E-05 +1.36761124388E-04 -8.04674848416E-05 +1.05865262217E-04 -4.30544274947E-01 +8.55939181824E-01
1.32500000000E+09 -2.18011937618E-01 +8.87046279518E-01 -2.62465900238E-05 +1.77581349574E-04 -1.11349617852E-04 +1.26120461974E-04 -4.20700360493E-01 +8.59355206929E-01
1.33000000000E+09 -2.11638206021E-01 +8.86476526307E-01 -2.88384252274E-05 +1.66572729653E-04 -1.34919415444E-05 +1.33950341714E-04 -4.10919195564E-01 +8.62740708104E-01
1.33500000000E+09 -2.03307672894E-01 +8.85646655144E-01 +2.16147136266E-05 +1.66083954364E-04 -4.33232346986E-06 +1.17055057217E-04 -4.00981186435E-01 +8.65990563395E-01
1.34000000000E+09 -1.92722670061E-01 +8.84892845488E-01 +2.00844557632E-05 +1.34944699798E-04 +5.34184316067E-06 +1.56833066950E-04 -3.90607030076E-01 +8.69162796818E-01
1.34500000000E+09 -1.79684383336E-01 +8.84404779672E-01 +6.28122671226E-05 +1.38602411345E-04 +2.18165670144E-05 +1.37618404427E-04 -3.79772907170E-01 +8.72576620962E-01
1.35000000000E+09 -1.64553845293E-01 +8.84718433326E-01 +3.03119954519E-05 +1.68525870043E-04 +1.42273445442E-05 +1.57961355497E-04 -3.68735007023E-01 +8.75567266664E-01
1.35500000000E+09 -1.48168255060E-01 +8.85202979792E-01 +8.66751957603E-06 +1.47401669273E-04 +2.02429969506E-05 +1.54435303034E-04 -3.56848274494E-01 +8.78441650896E-01
1.36000000000E+09 -1.31672746613E-01 +8.86079294706E-01 +6.02690681666E-05 +1.76087350396E-04 +3.84975587426E-05 +1.48164911456E-04 -3.44998465222E-01 +8.81102084620E-01
1.36500000000E+09 -1.15795618289E-01 +8.86680047884E-01 +4.04386318599E-05 +1.97074189378E-04 +1.07667160039E-04 +1.88124665402E-04 -3.32761675644E-01 +8.83593747518E-01
1.37000000000E+09 -1.01793892131E-01 +8.86658109495E-01 +1.58453607512E-04 +2.16537399562E-04 +1.63569876796E-04 +2.30085705828E-04 -3.19829540235E-01 +8.85961904070E-01
1.37500000000E+09 -8.95869569411E-02 +8.86238481196E-01 +2.81130435601E-04 +1.77428600987E-04 +2.46192455386E-04 +1.77317176022E-04 -3.06079861867E-01 +8.88104660185E-01
1.38000000000E+09 -7.89687558242E-02 +8.85072773551E-01 +2.06222735515E-04 +9.24689360714E-05 +2.35506539393E-04 +1.19397121330E-04 -2.91531697904E-01 +8.90132675873E-01
1.38500000000E+09 -6.82718562545E-02 +8.83104978811E-01 +2.10267162879E-04 +1.35527238725E-04 +2.26293316822E-04 +1.09880263371E-04 -2.76091620419E-01 +8.91814136913E-01
1.39000000000E+09 -5.68948285719E-02 +8.80144144494E-01 +2.52054409421E-04 +9.31997637874E-05 +2.77321371917E-04 +1.56267914245E-04 -2.60189327269E-01 +8.93170325181E-01
1.39500000000E+09 -4.35048580395E-02 +8.76539891099E-01 +2.82383761748E-04 +1.54102339786E-04 +3.45742830513E-04 +8.43612341624E-05 -2.43473189727E-01 +8.93902129719E-01
1.40000000000E+09 -2.75141754033E-02 +8.71747945700E-01 +3.90407802249E-04 +1.11061869393E-04 +4.28787336285E-04 +1.19754752844E-04 -2.25822791653E-01 +8.94488731832E-01
1.40500000000E+09 -9.45291145503E-03 +8.66711344137E-01 +5.79083973590E-04 +1.30581211592E-05 +5.27035204643E-04 +9.35184561026E-06 -2.06945825060E-01 +8.94134692857E-01
1.41000000000E+09 +1.08269834837E-02 +8.61548327417E-01 +4.91496691369E-04 -1.77044045203E-04 +4.77086175229E-04 -2.00638671242E-04 -1.86995039894E-01 +8.93256773891E-01
1.41500000000E+09 +3.26933437485E-02 +8.56061135316E-01 +4.38775523225E-04 -2.33660945518E-04 +5.16880632339E-04 -2.41865741198E-04 -1.65499827978E-01 +8.91702508619E-01
1.42000000000E+09 +5.55275184334E-02 +8.50154237757E-01 +4.00962295242E-04 -4.01629904934E-04 +4.37984711818E-04 -4.21528691761E-04 -1.42987699219E-01 +8.88868738142E-01
1.42500000000E+09 +7.84240279731E-02 +8.42976248961E-01 +2.43787102565E-04 -3.86833016295E-04 +2.53576426313E-04 -4.28586499919E-04 -1.19515147033E-01 +8.85368106721E-01
1.43000000000E+09 +1.00145766063E-01 +8.34323776084E-01 +2.86094073524E-04 -3.30980936450E-04 +2.37619187688E-04 -4.31076709601E-04 -9.46886477065E-02 +8.80917961934E-01
1.43500000000E+09 +1.20930032581E-01 +8.23878463170E-01 +3.84062722373E-04 -4.21110602781E-04 +3.37662855454E-04 -4.96524183215E-04 -6.85147114023E-02 +8.74312902843E-01
1.44000000000E+09 +1.41432237801E-01 +8.11858258826E-01 +3.95120430182E-04 -5.84159030512E-04 +3.32619232093E-04 -6.42683807177E-04 -4.03809907743E-02 +8.65847670489E-01
1.44500000000E+09 +1.62961025939E-01 +7.97506609977E-01 +2.18343595573E-04 -8.75559902237E-04 +1.52703085629E-04 -8.89890452884E-04 -1.03512317930E-02 +8.54628517175E-01
1.45000000000E+09 +1.86035997821E-01 +7.79661099682E-01 -1.53379075317E-04 -9.00205979668E-04 -1.76728857949E-04 -9.09899115580E-04 +2.11760188877E-02 +8.40145540815E-01
1.45500000000E+09 +2.10826044143E-01 +7.58620153358E-01 -3.36612885230E-04 -7.25889998828E-04 -4.31973830246E-04 -7.27996252049E-04 +5.42962251537E-02 +8.22656019109E-01
1.46000000000E+09 +2.38758756277E-01 +7.34228315459E-01 -5.37631906232E-04 -6.61496508964E-04 -5.64125865092E-04 -5.72886603612E-04 +8.87425201552E-02 +8.01318298864E-01
1.46500000000E+09 +2.68610069532E-01 +7.05650948918E-01 -6.08120096607E-04 -3.03570460473E-04 -5.61050891537E-04 -2.19478396473E-04 +1.24826150362E-01 +7.75262555175E-01
1.47000000000E+09 +2.99903472380E-01 +6.72819277332E-01 -2.56445203574E-04 -3.12113795299E-04 -2.00741499909E-04 -2.82922907988E-04 +1.62095763396E-01 +7.42689804693E-01
1.47500000000E+09 +3.31129148437E-01 +6.34327855865E-01 -4.10467032685E-04 -6.02494228898E-04 -3.91436476379E-04 -6.41723108372E-04 +2.00102758469E-01 +7.02570189381E-01
1.48000000000E+09 +3.59658038262E-01 +5.89952720408E-01 -7.50860409753E-04 -5.63357112463E-04 -7.43593021994E-04 -5.77622042064E-04 +2.37141202704E-01 +6.53567064411E-01
1.48500000000E+09 +3.84498165890E-01 +5.39603701113E-01 -6.72762687629E-04 -4.70880311348E-04 -7.04220410253E-04 -4.38909346750E-04 +2.71699558750E-01 +5.95312436180E-01
1.49000000000E+09 +4.04071690077E-01 +4.81320707941E-01 -1.12781013247E-03 -4.19795461104E-04 -1.11870694045E-03 -3.95946475677E-04 +3.00905411958E-01 +5.26790285912E-01
1.49500000000E+09 +4.16485226122E-01 +4.14839631865E-01 -1.39436383532E-03 -1.17127245519E-04 -1.31764951966E-03 -6.74089729408E-05 +3.21794627657E-01 +4.47499404462E-01
1.50000000000E+09 +4.20123260655E-01 +3.38317352592E-01 -1.34804733849E-03 +5.52447400774E-04 -1.27524767067E-03 +4.84600031378E-04 +3.29151085378E-01 +3.57419206191E-01
1.50500000000E+09 +4.10628927789E-01 +2.52351635802E-01 -8.67896367776E-04 +7.79479962931E-04 -8.22003485094E-04 +7.93720445651E-04 +3.18749830478E-01 +2.59431632592E-01
1.51000000000E+09 +3.85098946431E-01 +1.60487909184E-01 -7.05125394923E-04 +3.60096790028E-04 -6.89283450856E-04 +3.33567596539E-04 +2.87277828572E-01 +1.58682039180E-01
1.51500000000E+09 +3.41539335372E-01 +6.60121502902E-02 -1.15908037507E-03 +7.08478956658E-04 -1.21730145416E-03 +6.68070096969E-04 +2.34825604363E-01 +6.05951752141E-02
1.52000000000E+09 +2.75665647446E-01 -2.32224698205E-02 -1.19031238538E-03 +1.17128775031E-03 -1.18800725318E-03 +1.16906824730E-03 +1.59576976217E-01 -2.85314760148E-02
1.52500000000E+09 +1.91062184117E-01 -9.85952266018E-02 -5.79573776124E-04 +1.86528701371E-03 -6.12505784192E-04 +1.89611795153E-03 +6.38778810310E-02 -9.88608123798E-02
1.53000000000E+09 +8.93708027060E-02 -1.54157637535E-01 -1.04814398289E-04 +1.95433900011E-03 -1.02143093633E-04 +1.94387856677E-03 -4.21345517288E-02 -1.45571427703E-01
1.53500000000E+09 -2.23964041094E-02 -1.83694930797E-01 +1.16474875591E-03 +1.96454276253E-03 +1.14438057495E-03 +1.96569724305E-03 -1.54127859641E-01 -1.70040812557E-01
1.54000000000E+09 -1.37469602647E-01 -1.85219428399E-01 +1.25355028083E-03 +9.22906690811E-04 +1.24192923544E-03 +9.60744781427E-04 -2.66808919966E-01 -1.68438054646E-01
1.54500000000E+09 -2.47001285817E-01 -1.60728753385E-01 +1.06086327423E-03 +7.33875523024E-04 +1.02252723594E-03 +7.46024140364E-04 -3.67473668414E-01 -1.45186228336E-01
1.55000000000E+09 -3.44975821305E-01 -1.16014002347E-01 +1.10283567008E-03 +3.98552338928E-04 +1.14591892903E-03 +4.02624251930E-04 -4.54759502234E-01 -1.07929599818E-01
1.55500000000E+09 -4.26921078173E-01 -5.79157242965E-02 +1.02293340027E-03 +1.87498421745E-04 +1.03965529977E-03 +2.48110109056E-04 -5.27723154449E-01 -6.00251152187E-02
1.56000000000E+09 -4.92302274884E-01 +5.20672562025E-03 +1.04937080517E-03 +3.33738827476E-04 +1.04947727149E-03 +3.70775681118E-04 -5.86158872310E-01 -6.26424488572E-03
1.56500000000E+09 -5.42869666000E-01 +6.87482099374E-02 +1.36337385468E-03 +1.00668619015E-04 +1.46051557310E-03 +6.87154354756E-05 -6.31453767178E-01 +5.01775273846E-02
1.57000000000E+09 -5.81094456170E-01 +1.30267028054E-01 +1.58440455844E-03 -8.21684018528E-04 +1.67210965875E-03 -8.95089980392E-04 -6.65907705716E-01 +1.05660872327E-01
