# Hz S RI R 50
! CMT, C1220, 16058040, 17.2.0/1
! Date: 14/08/2018 12:56:14
! Data: Format (Calibration Info)
! Freq                      S11: Re/Im (F2)                       S21: Re/Im (F2)                       S12: Re/Im (F2)                       S22: Re/Im (F2)            
1.00000000000E+09 -6.46661400503E-01 +7.13359057593E-01 +3.12419487013E-05 -1.04347001331E-05 +1.91152526956E-05 +2.56138956782E-05 -7.18996866864E-01 +6.45894550131E-01
1.00500000000E+09 -6.40064694833E-01 +7.18205120140E-01 -6.83958687650E-05 +1.67486203793E-05 -3.83515297979E-05 +2.07536028605E-05 -7.15265870821E-01 +6.49740036769E-01
1.01000000000E+09 -6.34226563565E-01 +7.22520461558E-01 -8.42191274271E-06 -2.19706145923E-05 -5.26222681044E-05 +1.61332228810E-05 -7.11507782696E-01 +6.53196623423E-01
1.01500000000E+09 -6.29444729758E-01 +7.26412043785E-01 +3.43452178684E-05 -4.09131940784E-06 -7.46808897721E-05 -5.43239856514E-06 -7.08181223988E-01 +6.56757710761E-01
1.02000000000E+09 -6.25192478476E-01 +7.30019714379E-01 +1.48283270141E-05 +2.17457595210E-05 -3.35074090427E-05 +6.46392564290E-05 -7.04733457823E-01 +6.60140738524E-01
1.02500000000E+09 -6.21772345342E-01 +7.33265302397E-01 +7.12404045513E-05 +9.94003298942E-06 +1.20006864852E-05 -9.74707435405E-06 -7.01661387017E-01 +6.63780779742E-01
1.03000000000E+09 -6.18666409937E-01 +7.36321378263E-01 -3.56775896392E-05 +8.08324687409E-05 +7.52326574347E-05 +6.22993929512E-05 -6.98001117487E-01 +6.67456464527E-01
1.03500000000E+09 -6.15051158460E-01 +7.39373232758E-01 -4.69307798209E-06 +7.52216905366E-05 +3.17685831553E-05 -7.22864130738E-06 -6.93931949523E-01 +6.71346496564E-01
1.04000000000E+09 -6.10341116347E-01 +7.42645706129E-01 +9.19512124274E-06 +2.77213995590E-05 +8.02676663518E-07 +4.85405974867E-05 -6.89774117640E-01 +6.74809038627E-01
1.04500000000E+09 -6.04686367194E-01 +7.46384509391E-01 +9.32888474746E-06 -2.12517905881E-06 -1.12956505823E-05 -9.73485728084E-06 -6.86152828604E-01 +6.78143241238E-01
1.05000000000E+09 -5.97763238516E-01 +7.50326858400E-01 +7.94804557692E-06 +2.06350997271E-05 +5.53735587167E-05 +5.05761762000E-06 -6.82646351421E-01 +6.81452940148E-01
1.05500000000E+09 -5.90031436732E-01 +7.54713051952E-01 -3.62500055386E-05 +3.88506132881E-05 -2.18251854931E-05 +7.36140648728E-05 -6.79133963111E-01 +6.84989995882E-01
1.06000000000E+09 -5.81838249998E-01 +7.59377893890E-01 -7.88220769499E-06 +9.36664888057E-06 +4.28514724709E-05 +4.96380869694E-05 -6.75562287240E-01 +6.88756593185E-01
1.06500000000E+09 -5.73861333306E-01 +7.64158795088E-01 +1.63944873380E-05 -1.88870850101E-05 -3.19284278026E-05 +6.33270842910E-05 -6.71559798455E-01 +6.92589540356E-01
1.07000000000E+09 -5.66643516921E-01 +7.68179532169E-01 +1.30230559399E-05 -1.41466836390E-05 +1.54460843466E-05 +4.26838205227E-06 -6.67222389276E-01 +6.95884603709E-01
1.07500000000E+09 -5.60596900707E-01 +7.72077194735E-01 +2.72833674962E-05 +4.39921765175E-05 +1.82935190876E-05 +6.56521848913E-06 -6.62831988946E-01 +6.99531988046E-01
1.08000000000E+09 -5.55561591023E-01 +7.75225158863E-01 -1.71444786450E-06 +4.66790499702E-05 +9.24751514519E-05 +7.83798754016E-06 -6.58615513048E-01 +7.03102237898E-01
1.08500000000E+09 -5.51641647909E-01 +7.77928818207E-01 +5.03299266974E-05 +4.71191845074E-05 +8.26099907145E-06 +2.81312998126E-05 -6.54721477164E-01 +7.06553235297E-01
1.09000000000E+09 -5.48239855083E-01 +7.80427463124E-01 +4.37767049811E-05 +2.83804346953E-05 +3.89431464596E-06 +6.14660657439E-05 -6.50786526067E-01 +7.10332837911E-01
1.09500000000E+09 -5.45313136084E-01 +7.82511284685E-01 +5.64752806754E-05 +2.79777360746E-05 +7.49148011827E-05 +2.20750283085E-05 -6.46822807258E-01 +7.13944178161E-01
1.10000000000E+09 -5.41629392329E-01 +7.84864595802E-01 +3.07089927540E-05 +2.39898046977E-05 -9.25316222830E-06 +3.72324102246E-05 -6.42546353616E-01 +7.17733719720E-01
1.10500000000E+09 -5.37291156999E-01 +7.87500609413E-01 +5.52413666226E-05 -6.77024223672E-06 +2.12118354633E-05 +2.32102787406E-05 -6.38280651419E-01 +7.20744706746E-01
1.11000000000E+09 -5.31709143974E-01 +7.90430251897E-01 +1.53168776240E-05 +2.57049355057E-05 +6.50972307901E-05 +9.83836054691E-05 -6.33886997553E-01 +7.24009766975E-01
1.11500000000E+09 -5.25518100762E-01 +7.94083797677E-01 +4.55399693220E-05 +3.70824682107E-05 +9.68187655805E-05 +1.43057156856E-05 -6.29839026247E-01 +7.27238458270E-01
1.12000000000E+09 -5.18350915843E-01 +7.97757672399E-01 +5.46548797178E-05 +2.77254016890E-05 +4.52181197622E-05 +5.18914818337E-05 -6.25681167809E-01 +7.30744033072E-01
1.12500000000E+09 -5.10815033743E-01 +8.01163616153E-01 +6.79889799111E-05 +2.74348124970E-05 +6.16445488548E-05 +4.23018055917E-05 -6.21281807330E-01 +7.34414165778E-01
1.13000000000E+09 -5.03592159152E-01 +8.04414665559E-01 +6.18300514259E-05 -1.67553728422E-05 +5.40935096276E-05 +3.58359289159E-05 -6.16727521495E-01 +7.37962483717E-01
1.13500000000E+09 -4.96501128058E-01 +8.07009689437E-01 +7.72071736150E-05 -3.68345209530E-05 +6.29372644513E-05 -2.31476021724E-05 -6.11766941001E-01 +7.41617044728E-01
1.14000000000E+09 -4.90111838644E-01 +8.09450498843E-01 +7.06765502951E-05 -3.08817475673E-05 +6.33428745283E-05 -2.19875108179E-05 -6.06841842473E-01 +7.45026797589E-01
1.14500000000E+09 -4.84466214974E-01 +8.11179556349E-01 +8.39582310844E-05 -1.65346255722E-05 +9.10681403677E-05 -1.21434966878E-05 -6.01970905128E-01 +7.48170732686E-01
1.15000000000E+09 -4.79237593530E-01 +8.12640594692E-01 +9.70596808625E-05 -3.26665231461E-05 +9.84227145139E-05 -4.70049718069E-06 -5.97252647297E-01 +7.51880613960E-01
1.15500000000E+09 -4.74257488000E-01 +8.14521009669E-01 +8.57063934195E-05 -2.22788397363E-05 +4.22467522672E-05 -3.10557046300E-05 -5.92380084284E-01 +7.55470454867E-01
1.16000000000E+09 -4.68746243524E-01 +8.16424889077E-01 +1.50357979441E-04 -2.96384828359E-05 +8.68313814234E-05 -4.11217299968E-05 -5.87390448856E-01 +7.59121271433E-01
1.16500000000E+09 -4.62889430787E-01 +8.19025734195E-01 +1.12055630687E-04 -3.67814598345E-05 +8.72428860044E-05 -6.35745681538E-05 -5.82267720279E-01 +7.62576724178E-01
1.17000000000E+09 -4.56319217652E-01 +8.21922420549E-01 +7.71159956766E-05 -6.54710998356E-05 +6.91200935169E-05 -6.13195339726E-05 -5.76693700594E-01 +7.65658023332E-01
1.17500000000E+09 -4.48986776786E-01 +8.24782610377E-01 +1.31247447826E-04 -7.55114921191E-05 +1.53861607435E-04 -7.92565487378E-05 -5.70863816794E-01 +7.68533579122E-01
1.18000000000E+09 -4.41553040988E-01 +8.28147252095E-01 +1.65593548403E-04 -6.53674609564E-05 +1.50896800411E-04 -9.69213350611E-05 -5.65598535610E-01 +7.71348958502E-01
1.18500000000E+09 -4.33617966178E-01 +8.30815099791E-01 +1.26230333332E-04 -1.60781027785E-04 +1.33045957455E-04 -1.38444023043E-04 -5.59641228011E-01 +7.74198308093E-01
1.19000000000E+09 -4.25726815955E-01 +8.33275942623E-01 +1.49728217566E-04 -1.50313741015E-04 +1.51574565203E-04 -2.26111728499E-04 -5.53408660885E-01 +7.76569265542E-01
1.19500000000E+09 -4.18316410773E-01 +8.35220078586E-01 +1.02926256340E-04 -2.26840620915E-04 +1.08061567521E-04 -2.39212712116E-04 -5.47471645199E-01 +7.77577326680E-01
1.20000000000E+09 -4.11328537856E-01 +8.36094754131E-01 +1.06296424903E-05 -2.47725879520E-04 -1.25238327600E-05 -2.70698136545E-04 -5.42886956507E-01 +7.77580138634E-01
1.20500000000E+09 -4.04460141609E-01 +8.37309071969E-01 -7.34361534513E-05 -2.26405007580E-04 -9.42521089021E-05 -2.45376604796E-04 -5.40417789145E-01 +7.78365254163E-01
1.21000000000E+09 -3.97764441673E-01 +8.38382891046E-01 -1.06928118050E-04 -1.55096737579E-04 -6.75129848956E-05 -1.41477502760E-04 -5.38222098304E-01 +7.81408576503E-01
1.21500000000E+09 -3.90389165113E-01 +8.40087584956E-01 -4.14990190229E-05 -1.60065383214E-04 -5.67320012484E-05 -1.22600535133E-04 -5.35109782865E-01 +7.85788682331E-01
1.22000000000E+09 -3.82443292623E-01 +8.41871260031E-01 -1.10243700408E-05 -1.56163618148E-04 -1.69376735430E-05 -1.58612698614E-04 -5.30817072540E-01 +7.91035531079E-01
1.22500000000E+09 -3.73963304567E-01 +8.44271697791E-01 -2.46038228539E-05 -1.83802688831E-04 -3.73404290097E-05 -1.93033038163E-04 -5.25390002461E-01 +7.95915823465E-01
1.23000000000E+09 -3.65246898455E-01 +8.46928845838E-01 -4.47650809561E-05 -2.04993429495E-04 -5.15023245665E-05 -2.59945243098E-04 -5.19626957627E-01 +8.00085538765E-01
1.23500000000E+09 -3.56678166502E-01 +8.49909272568E-01 -5.99406896901E-05 -2.18650935456E-04 -9.36580185675E-05 -1.99194422890E-04 -5.13684316741E-01 +8.04014703159E-01
1.24000000000E+09 -3.48315139751E-01 +8.52940943698E-01 -8.28242610676E-05 -2.54367310711E-04 -8.02550396622E-05 -2.02540474768E-04 -5.07730088124E-01 +8.07627811948E-01
1.24500000000E+09 -3.40508960715E-01 +8.56088832688E-01 -1.19444885236E-04 -2.11710147616E-04 -1.19738907858E-04 -2.22769073501E-04 -5.01338284988E-01 +8.11222864017E-01
1.25000000000E+09 -3.32700479498E-01 +8.58651971437E-01 -1.54934849418E-04 -1.68437388349E-04 -1.35078289326E-04 -2.07494382608E-04 -4.94700666381E-01 +8.15009137973E-01
1.25500000000E+09 -3.25135228068E-01 +8.60454314028E-01 -1.32376655414E-04 -2.13296420237E-04 -1.38538511845E-04 -2.43236892047E-04 -4.87942561859E-01 +8.18732657218E-01
1.26000000000E+09 -3.17576013008E-01 +8.61546463691E-01 -2.12980384956E-04 -2.35941469806E-04 -1.40960440835E-04 -2.68070897840E-04 -4.81209699026E-01 +8.22635745615E-01
1.26500000000E+09 -3.09720940438E-01 +8.62031342019E-01 -2.30194488248E-04 -2.17852497060E-04 -2.09217333722E-04 -2.71804708788E-04 -4.74109813382E-01 +8.25991930623E-01
1.27000000000E+09 -3.01205841804E-01 +8.62272942589E-01 -2.96281639355E-04 -2.17021353691E-04 -2.57034482735E-04 -2.71297191874E-04 -4.67296239506E-01 +8.29513895712E-01
1.27500000000E+09 -2.92005440313E-01 +8.62736454177E-01 -3.45645506171E-04 -2.02407261152E-04 -3.46937627450E-04 -2.41142144132E-04 -4.60143485132E-01 +8.32685485525E-01
1.28000000000E+09 -2.81803650428E-01 +8.63375670129E-01 -4.18084378404E-04 -1.68417147912E-04 -4.16978495983E-04 -1.77417559775E-04 -4.53125072982E-01 +8.36139959064E-01
1.28500000000E+09 -2.70507777320E-01 +8.64523891586E-01 -3.83677059154E-04 -9.74010142761E-05 -4.73671690111E-04 -1.53825655793E-04 -4.45506906764E-01 +8.39543460348E-01
1.29000000000E+09 -2.59372378367E-01 +8.65994254422E-01 -4.48036936412E-04 -8.14031752873E-05 -4.86625226679E-04 -1.23711169946E-04 -4.37904978738E-01 +8.42767209029E-01
1.29500000000E+09 -2.48535795919E-01 +8.68090137991E-01 -4.79136611173E-04 -1.03224629525E-04 -5.02195827193E-04 -3.89012100823E-05 -4.30097026513E-01 +8.45865557604E-01
1.30000000000E+09 -2.38405801453E-01 +8.70725861019E-01 -5.69590183213E-04 -6.89525587061E-05 -5.88942823314E-04 +7.80254358422E-06 -4.22335240415E-01 +8.49086727441E-01
1.30500000000E+09 -2.28913983042E-01 +8.73401887099E-01 -6.00949239929E-04 -8.25977313785E-06 -5.80795005895E-04 +3.27161545930E-05 -4.14264669076E-01 +8.52223379622E-01
1.31000000000E+09 -2.19946775430E-01 +8.75510170369E-01 -6.94300203472E-04 +1.66977358053E-04 -6.60904132753E-04 +1.15863348199E-04 -4.06002907070E-01 +8.55232363756E-01
1.31500000000E+09 -2.11711056260E-01 +8.76828087718E-01 -6.12489651598E-04 +2.61637155549E-04 -6.38613872615E-04 +2.07153840585E-04 -3.97177447307E-01 +8.58366812181E-01
1.32000000000E+09 -2.03985614363E-01 +8.76981337538E-01 -5.58898331409E-04 +2.68892036227E-04 -6.50598164214E-04 +3.17059570413E-04 -3.88070445402E-01 +8.61288416732E-01
1.32500000000E+09 -1.96269298402E-01 +8.76315668746E-01 -6.02642826108E-04 +3.15416131890E-04 -6.57228909355E-04 +3.58867940407E-04 -3.78799470265E-01 +8.64353648132E-01
1.33000000000E+09 -1.87498432419E-01 +8.75329390069E-01 -6.81151812954E-04 +4.05976155285E-04 -6.72657763644E-04 +4.73301968396E-04 -3.69555458066E-01 +8.67064606729E-01
1.33500000000E+09 -1.77634797669E-01 +8.74230801469E-01 -7.26049467035E-04 +5.36237429939E-04 -6.12274971800E-04 +6.11134974098E-04 -3.59797340505E-01 +8.69926073442E-01
1.34000000000E+09 -1.66214846637E-01 +8.73073878626E-01 -6.54174656494E-04 +6.70270906114E-04 -5.38708553977E-04 +6.31858599255E-04 -3.49719062143E-01 +8.72804659260E-01
1.34500000000E+09 -1.53230217019E-01 +8.72328239393E-01 -6.05468922718E-04 +7.61666603501E-04 -5.50165598428E-04 +7.58773699421E-04 -3.38998525272E-01 +8.75512073359E-01
1.35000000000E+09 -1.39064870548E-01 +8.71774412043E-01 -5.22575780668E-04 +8.55899444447E-04 -4.91690749536E-04 +8.51850353498E-04 -3.28222853373E-01 +8.78189705218E-01
1.35500000000E+09 -1.24320779261E-01 +8.72105351051E-01 -4.91411653131E-04 +9.43701334120E-04 -4.49361647106E-04 +9.37097525405E-04 -3.16734759585E-01 +8.80397306430E-01
1.36000000000E+09 -1.09209269335E-01 +8.72361641385E-01 -4.64869069052E-04 +1.07507425961E-03 -3.88728261845E-04 +1.04480276270E-03 -3.05071534339E-01 +8.82673531494E-01
1.36500000000E+09 -9.40268992634E-02 +8.72391956993E-01 -4.10711664776E-04 +1.22707365052E-03 -3.75615890274E-04 +1.13101499475E-03 -2.93372305663E-01 +8.84524051140E-01
1.37000000000E+09 -7.95566096533E-02 +8.71248431332E-01 -2.58411232395E-04 +1.43723753338E-03 -2.99815925670E-04 +1.32737762694E-03 -2.80860126150E-01 +8.86407417738E-01
1.37500000000E+09 -6.63575211622E-02 +8.69230382133E-01 -2.05900625584E-05 +1.55936509915E-03 -1.43033162269E-04 +1.51191507910E-03 -2.67425866539E-01 +8.88263618103E-01
1.38000000000E+09 -5.38764882759E-02 +8.66257401865E-01 +1.36435746372E-04 +1.55740313799E-03 -2.94885481277E-05 +1.64851451186E-03 -2.53011853457E-01 +8.89732360526E-01
1.38500000000E+09 -4.12388672157E-02 +8.62564651513E-01 +2.86962690779E-04 +1.65073891252E-03 +1.33730417486E-04 +1.89684568451E-03 -2.38168888097E-01 +8.91115591230E-01
1.39000000000E+09 -2.85715613655E-02 +8.58262473040E-01 +4.40985235281E-04 +1.74898346748E-03 +5.56991868628E-04 +2.01051451848E-03 -2.22778044997E-01 +8.92079613558E-01
1.39500000000E+09 -1.46842425722E-02 +8.53535501797E-01 +6.83422537125E-04 +1.94849906177E-03 +8.94386350150E-04 +2.06743897624E-03 -2.06774381135E-01 +8.92301782137E-01
1.40000000000E+09 +5.75085580677E-04 +8.48292823956E-01 +9.94096502875E-04 +2.17011946641E-03 +1.19589067912E-03 +2.06856120854E-03 -1.90094022274E-01 +8.92251230525E-01
1.40500000000E+09 +1.67100703449E-02 +8.42904876070E-01 +1.50240201419E-03 +2.19730001565E-03 +1.61182798783E-03 +2.06367963124E-03 -1.72191994689E-01 +8.91527964112E-01
1.41000000000E+09 +3.40091986600E-02 +8.37826237990E-01 +1.99497090014E-03 +1.95918828358E-03 +2.00199313845E-03 +1.95867356761E-03 -1.52838788792E-01 +8.90368778940E-01
1.41500000000E+09 +5.26215552368E-02 +8.32904087214E-01 +2.27832062434E-03 +1.72443108301E-03 +2.28372103173E-03 +1.92728448210E-03 -1.32063131692E-01 +8.88235391777E-01
1.42000000000E+09 +7.31321449201E-02 +8.27287825806E-01 +2.67937235239E-03 +1.70879288174E-03 +2.86753756607E-03 +1.92882239108E-03 -1.10106147502E-01 +8.85151985756E-01
1.42500000000E+09 +9.41370665585E-02 +8.19687673521E-01 +3.10439634979E-03 +1.55890493444E-03 +3.53160604045E-03 +1.56870844661E-03 -8.73399230133E-02 +8.81002753823E-01
1.43000000000E+09 +1.15315486416E-01 +8.09593019738E-01 +3.68156563178E-03 +1.47883070934E-03 +4.06656685065E-03 +1.20303441487E-03 -6.39532995259E-02 +8.75790447988E-01
1.43500000000E+09 +1.36267268081E-01 +7.96907608668E-01 +4.68389936699E-03 +9.74724624906E-04 +4.89460092689E-03 +5.83528668168E-04 -3.86996211880E-02 +8.68679626720E-01
1.44000000000E+09 +1.57352258518E-01 +7.82315103885E-01 +5.30363301415E-03 -1.57677050992E-04 +5.36817108432E-03 -5.87914664366E-04 -1.21480177769E-02 +8.59694279790E-01
1.44500000000E+09 +1.79346629064E-01 +7.65197978271E-01 +5.36626407540E-03 -1.32172041017E-03 +5.35811967168E-03 -1.59952282902E-03 +1.65271977383E-02 +8.48114873116E-01
1.45000000000E+09 +2.02279020733E-01 +7.45259651531E-01 +5.26581824723E-03 -2.03704828580E-03 +5.22708800045E-03 -2.35954043767E-03 +4.66662369358E-02 +8.33520415377E-01
1.45500000000E+09 +2.26359325197E-01 +7.22915957171E-01 +5.47923665114E-03 -2.66248252666E-03 +5.24657240889E-03 -3.16030162744E-03 +7.79106965568E-02 +8.16295728772E-01
1.46000000000E+09 +2.51669318252E-01 +6.98254199558E-01 +5.83430645267E-03 -3.65920699833E-03 +5.25590552726E-03 -4.05574943348E-03 +1.10959363434E-01 +7.95121275424E-01
1.46500000000E+09 +2.78404636359E-01 +6.71200427931E-01 +6.18379800057E-03 -5.08975961446E-03 +5.41734877827E-03 -5.01865510658E-03 +1.44990608788E-01 +7.68815899432E-01
1.47000000000E+09 +3.07044243744E-01 +6.40419744153E-01 +6.17037813057E-03 -7.36839426368E-03 +5.63047806585E-03 -6.76793055683E-03 +1.79862587436E-01 +7.35844758567E-01
1.47500000000E+09 +3.35717225043E-01 +6.03626746668E-01 +4.72423364086E-03 -9.92361435420E-03 +4.92489691626E-03 -9.32035044515E-03 +2.14348473399E-01 +6.95714452785E-01
1.48000000000E+09 +3.62475393801E-01 +5.59742285397E-01 +2.55714954211E-03 -1.14013364457E-02 +2.90680170038E-03 -1.14182250691E-02 +2.48395149341E-01 +6.48370657840E-01
1.48500000000E+09 +3.84775095809E-01 +5.07841248866E-01 +6.97532807137E-04 -1.27184419305E-02 +5.25378869949E-04 -1.30491739283E-02 +2.80295560248E-01 +5.91821991345E-01
1.49000000000E+09 +4.00711010855E-01 +4.48261274616E-01 -2.01124002789E-03 -1.44114591294E-02 -2.70568542424E-03 -1.42856096139E-02 +3.07380184403E-01 +5.25141174551E-01
1.49500000000E+09 +4.09188463595E-01 +3.80949782303E-01 -6.26611332029E-03 -1.53598733084E-02 -6.60415610014E-03 -1.44536775060E-02 +3.25263219130E-01 +4.47984423367E-01
1.50000000000E+09 +4.08615712570E-01 +3.05270610144E-01 -1.06862496870E-02 -1.46820679673E-02 -1.00439079593E-02 -1.38316378240E-02 +3.30060879132E-01 +3.60898372489E-01
1.50500000000E+09 +3.95005945636E-01 +2.21964150235E-01 -1.56603889800E-02 -1.27483080836E-02 -1.46046126125E-02 -1.27369581190E-02 +3.18283776868E-01 +2.66553297593E-01
1.51000000000E+09 +3.66644505216E-01 +1.35300503384E-01 -1.98331954162E-02 -8.23875924856E-03 -1.93201456387E-02 -8.88769797752E-03 +2.85927334570E-01 +1.67493169133E-01
1.51500000000E+09 +3.19868874720E-01 +4.77499834356E-02 -2.25892455060E-02 -3.48292380767E-03 -2.27610127492E-02 -4.09550112664E-03 +2.29846833200E-01 +7.24196601406E-02
1.52000000000E+09 +2.53394011968E-01 -3.07534965019E-02 -2.46932666601E-02 +3.06517686384E-03 -2.50083704864E-02 +2.81931018521E-03 +1.52158389505E-01 -1.02166461173E-02
1.52500000000E+09 +1.70704262419E-01 -9.55898109277E-02 -2.38880304930E-02 +1.18328674726E-02 -2.41411991693E-02 +1.18485471771E-02 +5.87574010716E-02 -7.56564677259E-02
1.53000000000E+09 +7.48073801468E-02 -1.41657410583E-01 -1.78343806350E-02 +1.87354099038E-02 -1.79934109518E-02 +1.88034500672E-02 -5.00362462770E-02 -1.18385000660E-01
1.53500000000E+09 -2.98951694199E-02 -1.66139865637E-01 -1.16527692831E-02 +2.20740688056E-02 -1.16815124205E-02 +2.21180046044E-02 -1.61116553857E-01 -1.34367112625E-01
1.54000000000E+09 -1.39323182682E-01 -1.65859205862E-01 -4.95139228562E-03 +2.35390143223E-02 -5.03333167560E-03 +2.32235149314E-02 -2.69913300223E-01 -1.27354986868E-01
1.54500000000E+09 -2.42622962482E-01 -1.40502546714E-01 +1.96693226342E-03 +2.33404988034E-02 +1.38832703302E-03 +2.31283635212E-02 -3.67078347435E-01 -9.90783749604E-02
1.55000000000E+09 -3.34033968374E-01 -9.83093086536E-02 +7.59030764716E-03 +1.99494961060E-02 +6.83992995738E-03 +2.01975903085E-02 -4.49312075913E-01 -5.74187914561E-02
1.55500000000E+09 -4.10591007238E-01 -4.36876369665E-02 +1.13371253100E-02 +1.63018685644E-02 +1.07813415283E-02 +1.71604771852E-02 -5.16778698036E-01 -7.04709465492E-03
1.56000000000E+09 -4.70882126452E-01 +1.46460872349E-02 +1.38947345158E-02 +1.18412723314E-02 +1.41049767570E-02 +1.28809267948E-02 -5.70045695317E-01 +4.82001694547E-02
1.56500000000E+09 -5.19134742451E-01 +7.34028872630E-02 +1.43584806104E-02 +7.28413352562E-03 +1.51152015837E-02 +8.01364277234E-03 -6.11286819271E-01 +1.05107286409E-01
1.57000000000E+09 -5.56380294738E-01 +1.32312431735E-01 +1.38623402911E-02 +4.11112961680E-03 +1.47474075138E-02 +4.31238089870E-03 -6.41088702020E-01 +1.61731184794E-01
