# Hz S RI R 50
! CMT, C1220, 16058040, 17.2.0/1
! Date: 14/08/2018 12:33:37
! Data: Format (Calibration Info)
! Freq                      S11: Re/Im (F2)                       S21: Re/Im (F2)                       S12: Re/Im (F2)                       S22: Re/Im (F2)            
1.00000000000E+09 -6.33675088480E-01 +7.08737397159E-01 -7.39967821601E-06 -3.74948896584E-05 +3.26268072999E-06 +4.54273270653E-05 -7.53183852421E-01 +6.23963487433E-01
1.00500000000E+09 -6.26453249032E-01 +7.13671153905E-01 -3.89820768670E-05 -2.09480895529E-05 +9.78699765027E-06 +2.72147508849E-05 -7.49531588341E-01 +6.27999064862E-01
1.01000000000E+09 -6.20216529561E-01 +7.18273285287E-01 +9.16522473607E-06 +1.61017146017E-05 +7.57823617572E-06 +4.03313620605E-05 -7.46095467940E-01 +6.31636896913E-01
1.01500000000E+09 -6.15558911898E-01 +7.22397241555E-01 -2.30603000646E-05 +8.98606063357E-06 -1.60230000998E-05 -3.27626265288E-05 -7.42965773672E-01 +6.35222439725E-01
1.02000000000E+09 -6.11958842856E-01 +7.25745088152E-01 -9.32177324956E-06 +1.80160414901E-05 -9.11051209274E-06 +8.47839090294E-05 -7.39597740577E-01 +6.38802824096E-01
1.02500000000E+09 -6.09451915187E-01 +7.28706264293E-01 -2.29028126555E-05 -9.10522421429E-06 +1.31185989412E-05 +2.35450584214E-05 -7.36834869505E-01 +6.42419533480E-01
1.03000000000E+09 -6.07331584304E-01 +7.31268735260E-01 +1.56176304529E-05 +1.93181843847E-05 +1.58675394894E-05 +2.74776853663E-06 -7.33418653033E-01 +6.46299446307E-01
1.03500000000E+09 -6.04454947339E-01 +7.33680000976E-01 +2.01458143626E-05 -1.47828406995E-05 +3.06915652847E-05 +9.33427900520E-06 -7.29587976265E-01 +6.50237697874E-01
1.04000000000E+09 -6.00682146182E-01 +7.36464337590E-01 -2.11527059921E-05 +5.81772270071E-05 -2.57775284994E-05 +4.36034793820E-05 -7.25690663083E-01 +6.54029688268E-01
1.04500000000E+09 -5.95316299554E-01 +7.39727409913E-01 -4.51972360547E-05 +2.79833072613E-05 -3.40787019800E-05 -7.14535897962E-06 -7.22253492271E-01 +6.57349444329E-01
1.05000000000E+09 -5.88719439186E-01 +7.43657884748E-01 -3.83907797732E-05 +1.17394165589E-05 +2.39497407673E-05 +1.24609931020E-06 -7.18758734111E-01 +6.60863129015E-01
1.05500000000E+09 -5.80825222167E-01 +7.48096848925E-01 -2.42990724375E-05 -1.43414967071E-05 +2.74954122993E-05 -1.49691487804E-05 -7.15560494708E-01 +6.64476213683E-01
1.06000000000E+09 -5.72257464307E-01 +7.52912941698E-01 -3.05042696298E-05 -3.45331553174E-05 -2.11940525569E-05 +4.80277493261E-05 -7.12303672198E-01 +6.68154494412E-01
1.06500000000E+09 -5.64274497542E-01 +7.57722102330E-01 +5.19184980836E-06 +1.93923897219E-05 +2.56906141495E-05 +3.26567301534E-05 -7.08368142101E-01 +6.72076034292E-01
1.07000000000E+09 -5.57197044147E-01 +7.62112428722E-01 +4.08681609751E-05 -3.03261714658E-05 -1.06731724662E-05 +6.45939799437E-06 -7.04302348202E-01 +6.75778035621E-01
1.07500000000E+09 -5.51302713218E-01 +7.66088471811E-01 +1.64980431659E-05 +2.55496213088E-05 +2.58979069689E-06 +5.14275900708E-05 -7.00036093959E-01 +6.79596079198E-01
1.08000000000E+09 -5.47039446762E-01 +7.69383351330E-01 -1.95372857537E-05 +1.69277489246E-05 +3.40878293030E-05 -3.38870356991E-06 -6.96047430597E-01 +6.83285767066E-01
1.08500000000E+09 -5.44065107042E-01 +7.71922631902E-01 +4.45010275648E-05 +1.29070033797E-05 -8.60957424648E-06 +3.06366172388E-05 -6.92265181172E-01 +6.86780928901E-01
1.09000000000E+09 -5.41411032562E-01 +7.74300636859E-01 +1.53857925752E-05 +5.43828866984E-06 +1.57651202262E-05 +9.13700415664E-06 -6.88517862308E-01 +6.90753878544E-01
1.09500000000E+09 -5.39230406290E-01 +7.76113756638E-01 +3.38451566535E-05 -1.91891037988E-05 +1.56141588212E-05 +2.95324863693E-05 -6.84974119597E-01 +6.94601757945E-01
1.10000000000E+09 -5.35682205695E-01 +7.78319713938E-01 +7.84117085659E-06 -1.24623461858E-07 +1.69627751428E-05 -8.40411727866E-06 -6.80750927899E-01 +6.98388312100E-01
1.10500000000E+09 -5.31134821828E-01 +7.80923978203E-01 +3.90040823188E-05 -8.54181435940E-07 -3.38605218031E-05 -2.05020143392E-05 -6.76641941858E-01 +7.01871158762E-01
1.11000000000E+09 -5.25174702923E-01 +7.84067747916E-01 +2.16971950749E-05 -3.51475616187E-06 -7.41731346584E-06 +2.01824121344E-05 -6.72423052913E-01 +7.05265600651E-01
1.11500000000E+09 -5.17961253060E-01 +7.87865983312E-01 +2.99057079847E-05 -2.37330981296E-05 +2.70448403334E-05 -2.05384322870E-05 -6.68331041201E-01 +7.08663912692E-01
1.12000000000E+09 -5.10395990961E-01 +7.91701959930E-01 +3.57080910533E-05 +3.59951859874E-05 +2.50364590607E-06 +3.49872603839E-05 -6.64410987598E-01 +7.12294192176E-01
1.12500000000E+09 -5.02583946446E-01 +7.95690917834E-01 +7.52922153128E-06 +5.97022143528E-05 -2.30334466150E-05 +2.69902129350E-05 -6.60105991181E-01 +7.16329107858E-01
1.13000000000E+09 -4.95809234492E-01 +7.99204924533E-01 +4.51716000696E-05 +2.30580506370E-05 +5.40579304341E-05 -1.15462408291E-05 -6.55820213685E-01 +7.20058176082E-01
1.13500000000E+09 -4.89694271972E-01 +8.01988671556E-01 +2.30731519890E-05 -1.99491725605E-05 +4.22956412629E-05 -4.24518021222E-05 -6.51220157975E-01 +7.23769753400E-01
1.14000000000E+09 -4.85031210686E-01 +8.04473810329E-01 -1.04672561795E-05 -5.46626254367E-06 +2.74390726510E-05 -4.80952007556E-05 -6.46261410467E-01 +7.27338154766E-01
1.14500000000E+09 -4.81083124919E-01 +8.06025902993E-01 -1.36999255429E-05 -2.47774553911E-05 +2.63272053881E-05 -8.22890773434E-06 -6.41665787659E-01 +7.30968808100E-01
1.15000000000E+09 -4.77672373689E-01 +8.07510082113E-01 +1.18755754034E-05 -1.87278389380E-05 +4.04701182850E-05 -3.46274224187E-05 -6.37016978292E-01 +7.34594858124E-01
1.15500000000E+09 -4.74044536141E-01 +8.09087954984E-01 +4.29515214310E-06 -1.20694861017E-05 +3.02649829560E-05 +7.66135550729E-05 -6.32152114093E-01 +7.38473780141E-01
1.16000000000E+09 -4.69414667020E-01 +8.10763420232E-01 +6.56254641725E-05 -2.82678142649E-06 +6.05593654815E-05 +8.85700060482E-06 -6.27528677771E-01 +7.42303251675E-01
1.16500000000E+09 -4.63436539791E-01 +8.13288517019E-01 +7.61674727651E-05 +3.05555773201E-05 +8.69084556840E-05 -8.14068375197E-05 -6.22491003152E-01 +7.45950439111E-01
1.17000000000E+09 -4.56383058027E-01 +8.16205869968E-01 +6.29135743405E-05 -2.72138690159E-05 +2.68314797710E-06 -3.32912596006E-05 -6.17099342218E-01 +7.49281407812E-01
1.17500000000E+09 -4.48396175369E-01 +8.19519351960E-01 +1.01281965480E-04 -4.84020784610E-05 +6.68777546022E-05 -3.85939368813E-05 -6.11542879957E-01 +7.52409853609E-01
1.18000000000E+09 -4.40263345879E-01 +8.22998638453E-01 +7.16250266024E-05 -6.57692584118E-06 +7.26723990804E-05 -6.77756415589E-05 -6.06028364357E-01 +7.55566352575E-01
1.18500000000E+09 -4.32133975784E-01 +8.26259955054E-01 +5.60047448101E-05 -5.24546132116E-05 +3.93993687487E-05 -9.07025841478E-05 -6.00202350331E-01 +7.58466030620E-01
1.19000000000E+09 -4.24900777017E-01 +8.29017222377E-01 +6.17388799239E-05 -6.14520030257E-05 +5.77704408410E-05 -9.93548483984E-05 -5.93893269997E-01 +7.61032996799E-01
1.19500000000E+09 -4.18501284512E-01 +8.31200558090E-01 +9.36387493163E-05 -1.22381187081E-04 +1.01032752760E-04 -1.29846061867E-04 -5.88169558306E-01 +7.62187911675E-01
1.20000000000E+09 -4.13434302234E-01 +8.31938461028E-01 +1.64899177329E-05 -1.54033489045E-04 +1.79732651557E-05 -1.47165208447E-04 -5.83737021026E-01 +7.62327732473E-01
1.20500000000E+09 -4.09074524209E-01 +8.33207928185E-01 -6.91041125097E-05 -1.39164991413E-04 -6.33547058953E-05 -1.25563845336E-04 -5.81402260581E-01 +7.63258919405E-01
1.21000000000E+09 -4.04305208697E-01 +8.34117781681E-01 -9.62171276869E-05 -4.24866460246E-05 -9.77610448376E-05 -1.07083078086E-04 -5.79417082223E-01 +7.66504197043E-01
1.21500000000E+09 -3.98370133576E-01 +8.35480911445E-01 -4.00421611797E-05 -2.70880537547E-05 -5.49201746678E-05 -4.91728245402E-05 -5.76432026777E-01 +7.71113805421E-01
1.22000000000E+09 -3.90953195463E-01 +8.37114603224E-01 -3.27114637916E-05 +2.16513547501E-06 -4.86902797374E-05 -2.24916283601E-05 -5.72240161891E-01 +7.76549460302E-01
1.22500000000E+09 -3.82071709875E-01 +8.39394047760E-01 -3.98804396333E-05 -3.57887910861E-05 -3.59644590760E-05 -3.67757620237E-05 -5.66967309721E-01 +7.81692797226E-01
1.23000000000E+09 -3.72310449873E-01 +8.42343521564E-01 -3.35778643381E-05 -2.07959355901E-05 -6.94991480240E-05 -8.14488261387E-05 -5.61325809641E-01 +7.86331769729E-01
1.23500000000E+09 -3.61955328071E-01 +8.45684782508E-01 -1.53256726665E-05 -5.02894608338E-05 -4.65764178488E-05 -2.48992336644E-05 -5.55680638883E-01 +7.90584142309E-01
1.24000000000E+09 -3.51792930556E-01 +8.49401729695E-01 -5.19952237934E-05 -3.52638389643E-05 -3.07132221314E-05 -8.12500176152E-05 -5.49609747685E-01 +7.94503883396E-01
1.24500000000E+09 -3.42736896036E-01 +8.53514053923E-01 -3.92849336967E-05 -5.92861292914E-05 -8.20219583797E-05 -8.44458836420E-05 -5.43485171043E-01 +7.98423550453E-01
1.25000000000E+09 -3.34413837193E-01 +8.56933497232E-01 -8.99334385274E-05 -2.58484210969E-05 -8.73463451797E-05 -4.78659182970E-05 -5.36906788015E-01 +8.02391917754E-01
1.25500000000E+09 -3.27406779033E-01 +8.59495759760E-01 -8.66072305020E-05 -1.43235833849E-05 -7.39789917762E-05 -5.99294775174E-05 -5.30229155547E-01 +8.06340419451E-01
1.26000000000E+09 -3.21292764391E-01 +8.61224551195E-01 -1.32463422722E-04 -4.74328317984E-07 -1.56288829728E-04 -4.68770186248E-05 -5.23534334012E-01 +8.10714137706E-01
1.26500000000E+09 -3.15433025086E-01 +8.62274751408E-01 -9.39589667079E-05 -2.24372334607E-05 -9.43542825471E-05 +1.82580965314E-05 -5.16534984905E-01 +8.14351197951E-01
1.27000000000E+09 -3.09367026091E-01 +8.62915498441E-01 -7.99854074600E-05 +1.65504562936E-05 -4.99702618882E-05 +1.34423401703E-05 -5.09685124166E-01 +8.18186004995E-01
1.27500000000E+09 -3.02022313386E-01 +8.63451921435E-01 -3.74435544598E-05 -1.19919330744E-05 -7.37159157009E-05 +2.09536096065E-06 -5.02606644515E-01 +8.21768222511E-01
1.28000000000E+09 -2.92881845960E-01 +8.64400488952E-01 -1.07470288815E-04 +4.97072638935E-06 -1.01491087490E-04 -2.63446728602E-05 -4.95542010387E-01 +8.25296117625E-01
1.28500000000E+09 -2.81899233491E-01 +8.65756752834E-01 -8.26014122088E-05 +1.81110707782E-05 -1.40175571747E-04 +4.91109914249E-05 -4.88116611823E-01 +8.29200505900E-01
1.29000000000E+09 -2.70176615175E-01 +8.67531931661E-01 -9.25497170904E-05 +2.06883934681E-05 -1.37564046470E-04 -7.71887081958E-06 -4.80588461566E-01 +8.32820178560E-01
1.29500000000E+09 -2.58040295811E-01 +8.70114279980E-01 -7.72027944960E-05 -9.55440504779E-06 -8.67488455342E-05 +2.40694025171E-05 -4.72515998617E-01 +8.36424087381E-01
1.30000000000E+09 -2.46465957644E-01 +8.73285530025E-01 -1.15273200664E-04 +1.20275203274E-05 -6.59783484274E-05 +5.86267624789E-06 -4.64658514946E-01 +8.40026468247E-01
1.30500000000E+09 -2.35803167320E-01 +8.76403039640E-01 -1.10800505298E-04 +7.45779640202E-05 -8.07133562779E-05 +5.26949017992E-05 -4.56719015665E-01 +8.43364209991E-01
1.31000000000E+09 -2.26644923199E-01 +8.79364919183E-01 -9.24882377007E-05 +7.21526604085E-05 -9.48357414918E-05 +6.27763197984E-05 -4.48377451384E-01 +8.46840704382E-01
1.31500000000E+09 -2.19312417215E-01 +8.81081820749E-01 -9.55743302831E-05 +6.59281532846E-05 -6.90195909947E-05 -5.83324499214E-06 -4.39728739934E-01 +8.50323600149E-01
1.32000000000E+09 -2.12826068154E-01 +8.82006011277E-01 -1.04409953163E-04 +3.08910773268E-05 -8.60733361583E-05 -4.59412447529E-06 -4.30718476661E-01 +8.53667943894E-01
1.32500000000E+09 -2.07039285978E-01 +8.81793664678E-01 -1.25078228627E-04 +1.53342973432E-06 -1.42091975050E-04 +1.54980428889E-05 -4.21131552104E-01 +8.57162968714E-01
1.33000000000E+09 -2.00208535594E-01 +8.81361797961E-01 -9.96021804249E-05 +2.75537336127E-05 -1.40381887603E-04 +5.82200840635E-05 -4.11639058036E-01 +8.60254404914E-01
1.33500000000E+09 -1.91425705442E-01 +8.80246325718E-01 -1.63974847316E-04 +7.27076755787E-05 -1.47562548085E-04 +9.81495152602E-05 -4.01909229319E-01 +8.63542491111E-01
1.34000000000E+09 -1.80302209809E-01 +8.79388539728E-01 -1.34352491117E-04 +1.86818551439E-04 -1.29132182379E-04 +1.60450900022E-04 -3.91878801386E-01 +8.66897259681E-01
1.34500000000E+09 -1.66819061964E-01 +8.78454081668E-01 -1.21252216752E-04 +1.44406629995E-04 -1.55772154994E-04 +1.79243651224E-04 -3.80960963751E-01 +8.70188238094E-01
1.35000000000E+09 -1.51680392271E-01 +8.77878330465E-01 -1.05879509620E-04 +1.53301456598E-04 -1.02660225035E-04 +1.43333406231E-04 -3.69697712370E-01 +8.73280560692E-01
1.35500000000E+09 -1.35461941602E-01 +8.78063642586E-01 -1.20168985338E-04 +2.03447429616E-04 -1.39223962997E-04 +2.07871804968E-04 -3.58102214252E-01 +8.76006658478E-01
1.36000000000E+09 -1.19258406971E-01 +8.78897829314E-01 -1.52328246792E-04 +2.28323691580E-04 -1.12529974235E-04 +2.33463435102E-04 -3.46129308631E-01 +8.78764290323E-01
1.36500000000E+09 -1.03700940813E-01 +8.79482072809E-01 -6.58998773029E-05 +3.30476053272E-04 -1.02650231680E-04 +3.24663018947E-04 -3.33964660920E-01 +8.81310236546E-01
1.37000000000E+09 -8.96091923263E-02 +8.79806855169E-01 -1.72964956791E-05 +3.49058935834E-04 -5.56296426794E-05 +3.04823820861E-04 -3.21128759549E-01 +8.83753896279E-01
1.37500000000E+09 -7.74362977690E-02 +8.79418177961E-01 +4.73887526924E-05 +3.97652658150E-04 +1.18278037474E-05 +3.70955655448E-04 -3.07418751605E-01 +8.86141739209E-01
1.38000000000E+09 -6.67015131662E-02 +8.78404509793E-01 +1.16303086388E-04 +3.28880100901E-04 +5.03408100424E-05 +3.59868014809E-04 -2.92773464868E-01 +8.88291621815E-01
1.38500000000E+09 -5.58272305977E-02 +8.76678695100E-01 +1.77591749053E-04 +3.34809994977E-04 +1.42791442164E-04 +3.81045795700E-04 -2.77300004895E-01 +8.90213818571E-01
1.39000000000E+09 -4.41161516726E-02 +8.73873264663E-01 +2.21662744266E-04 +3.36914651273E-04 +2.34584474166E-04 +3.47731861750E-04 -2.61499211659E-01 +8.91795499508E-01
1.39500000000E+09 -3.04390298883E-02 +8.70143644188E-01 +2.21354697109E-04 +2.75284957303E-04 +2.82887029016E-04 +2.81528326071E-04 -2.44756630614E-01 +8.92524517608E-01
1.40000000000E+09 -1.41333675103E-02 +8.65651229748E-01 +2.53192732812E-04 +3.20112496643E-04 +2.80606945909E-04 +2.95137740930E-04 -2.27304209284E-01 +8.92905124697E-01
1.40500000000E+09 +4.22896337652E-03 +8.60192904282E-01 +3.09038761439E-04 +3.54332877125E-04 +2.91717521934E-04 +2.90887332161E-04 -2.08983512537E-01 +8.92799342583E-01
1.41000000000E+09 +2.44784181571E-02 +8.54728292485E-01 +4.03078953871E-04 +3.57682995981E-04 +4.56801400932E-04 +3.15015861242E-04 -1.88945340948E-01 +8.92164215163E-01
1.41500000000E+09 +4.59053725332E-02 +8.48913123122E-01 +5.02443674680E-04 +2.88115861269E-04 +5.18228475359E-04 +3.13824294489E-04 -1.67379910857E-01 +8.90866361419E-01
1.42000000000E+09 +6.79641805401E-02 +8.42771431409E-01 +5.69534854212E-04 +1.21768419858E-04 +5.93187489772E-04 +2.06163872046E-04 -1.44690480863E-01 +8.88295797913E-01
1.42500000000E+09 +8.95948709507E-02 +8.35607054136E-01 +5.46827381370E-04 +1.39806050097E-04 +5.74181420040E-04 +1.53741294768E-04 -1.20816097471E-01 +8.84786378402E-01
1.43000000000E+09 +1.09866681397E-01 +8.26913780503E-01 +7.24501184165E-04 +1.60052055048E-04 +8.13660902546E-04 +1.20404127639E-04 -9.61376586268E-02 +8.80186107179E-01
1.43500000000E+09 +1.29285383197E-01 +8.16865349639E-01 +8.04852437139E-04 -1.30406032370E-04 +8.32958944372E-04 -2.06903461839E-04 -6.97606180435E-02 +8.73725514191E-01
1.44000000000E+09 +1.49042867709E-01 +8.04915602819E-01 +6.71379838691E-04 -2.30837058970E-04 +6.52466658732E-04 -2.77506216993E-04 -4.15557253823E-02 +8.65485315187E-01
1.44500000000E+09 +1.69749443434E-01 +7.89865123284E-01 +7.07693448746E-04 -1.98294191293E-04 +6.90603245313E-04 -2.23798270152E-04 -1.11511533073E-02 +8.54369742019E-01
1.45000000000E+09 +1.92202488872E-01 +7.71549682685E-01 +7.69884503888E-04 -3.52270386145E-04 +7.46382473842E-04 -3.91674077936E-04 +2.09430583551E-02 +8.40064423431E-01
1.45500000000E+09 +2.16887847107E-01 +7.49640430433E-01 +9.14638369751E-04 -3.73536275903E-04 +8.22162521412E-04 -4.49145418625E-04 +5.46819537216E-02 +8.22569223161E-01
1.46000000000E+09 +2.44092386810E-01 +7.23633174624E-01 +1.09789631546E-03 -6.83422313437E-04 +9.83488168195E-04 -7.45061587155E-04 +8.97315012675E-02 +8.01100406772E-01
1.46500000000E+09 +2.72712071501E-01 +6.93887651448E-01 +9.75911077797E-04 -1.18402015649E-03 +8.11916713775E-04 -1.17653394061E-03 +1.26073296471E-01 +7.74237847229E-01
1.47000000000E+09 +3.02732469348E-01 +6.60519920964E-01 +6.29379193285E-04 -1.38954938346E-03 +5.77663520493E-04 -1.26294028982E-03 +1.63261145623E-01 +7.41112289384E-01
1.47500000000E+09 +3.32689727138E-01 +6.22416272118E-01 +3.21157822019E-04 -1.53765926227E-03 +3.74469637788E-04 -1.48221091088E-03 +2.01389409772E-01 +7.00491356176E-01
1.48000000000E+09 +3.60654199241E-01 +5.78288297803E-01 +1.51462183115E-04 -1.50960971156E-03 +1.91802114514E-04 -1.51948024073E-03 +2.38680915214E-01 +6.50442044530E-01
1.48500000000E+09 +3.83809568080E-01 +5.28045537900E-01 +9.72319120928E-05 -1.86303749506E-03 +6.90924132781E-05 -1.88436529048E-03 +2.73030568070E-01 +5.91147034536E-01
1.49000000000E+09 +4.01569754669E-01 +4.70923652343E-01 -3.59297774576E-04 -2.20877917442E-03 -4.98494115639E-04 -2.17232055676E-03 +3.02165619723E-01 +5.20947715811E-01
1.49500000000E+09 +4.11364629038E-01 +4.05820012106E-01 -9.17112444257E-04 -2.32676865132E-03 -1.03850532976E-03 -2.19017451132E-03 +3.21152829086E-01 +4.40405383334E-01
1.50000000000E+09 +4.12200195766E-01 +3.32533574201E-01 -1.75839438536E-03 -2.84655200445E-03 -1.66177034054E-03 -2.62949686753E-03 +3.26814694943E-01 +3.49583322318E-01
1.50500000000E+09 +4.01429263798E-01 +2.50122409085E-01 -3.46563547840E-03 -2.04357205391E-03 -3.30513714064E-03 -2.05748229581E-03 +3.15087472456E-01 +2.52101852613E-01
1.51000000000E+09 +3.74088616856E-01 +1.61495739942E-01 -3.71702742222E-03 -2.38124663547E-04 -3.62646759198E-03 -4.08651108103E-04 +2.82936503287E-01 +1.49792500231E-01
1.51500000000E+09 +3.29096101306E-01 +7.27992070375E-02 -3.62227265372E-03 +4.74101909657E-04 -3.60581339053E-03 +3.78468213527E-04 +2.26493634126E-01 +5.10928528439E-02
1.52000000000E+09 +2.65399127906E-01 -1.05248726694E-02 -3.48473102247E-03 +1.68142661321E-03 -3.49207117299E-03 +1.61766354976E-03 +1.48046925994E-01 -3.53382135031E-02
1.52500000000E+09 +1.84268343117E-01 -8.10485675708E-02 -2.15453946589E-03 +2.63401300941E-03 -2.19589704701E-03 +2.64617419957E-03 +5.16623582468E-02 -1.03327242685E-01
1.53000000000E+09 +8.69673503245E-02 -1.32167470673E-01 -1.57944416664E-03 +2.12834370758E-03 -1.59894663169E-03 +2.14586744015E-03 -5.69007549697E-02 -1.47866213320E-01
1.53500000000E+09 -1.89351289425E-02 -1.58083155473E-01 -1.83684369051E-03 +2.87340222557E-03 -1.80938265115E-03 +2.81835118479E-03 -1.70631456076E-01 -1.66760122515E-01
1.54000000000E+09 -1.26868758270E-01 -1.57441767322E-01 -6.37675640677E-04 +3.74469604482E-03 -6.81745490044E-04 +3.75471426338E-03 -2.80041083777E-01 -1.61504452320E-01
1.54500000000E+09 -2.28875418845E-01 -1.33243204588E-01 +9.71622549972E-04 +3.46374479440E-03 +8.80126918657E-04 +3.45738748087E-03 -3.78485617634E-01 -1.36653555238E-01
1.55000000000E+09 -3.20440580112E-01 -9.13795036191E-02 +1.69560711608E-03 +2.96578758720E-03 +1.55825354220E-03 +3.04759033633E-03 -4.64311337881E-01 -9.82777249292E-02
1.55500000000E+09 -3.99155379786E-01 -3.78265534359E-02 +2.63732663562E-03 +1.99389232105E-03 +2.57546155915E-03 +2.16134090442E-03 -5.35207757689E-01 -4.82935942761E-02
1.56000000000E+09 -4.63609097655E-01 +2.18850201804E-02 +2.69567783842E-03 +7.16602100342E-04 +2.73395719690E-03 +8.47979498242E-04 -5.90142955414E-01 +6.14780669978E-03
1.56500000000E+09 -5.12822122782E-01 +8.30000013995E-02 +2.02041153509E-03 -1.20200589610E-04 +2.13408431262E-03 -7.34476453827E-05 -6.33624936092E-01 +6.18196381073E-02
1.57000000000E+09 -5.50463919041E-01 +1.41413895638E-01 +1.61269986181E-03 -2.08586427408E-04 +1.74132449582E-03 -2.42068830658E-04 -6.65342095073E-01 +1.17161909852E-01
