# Hz S RI R 50
! CMT, C1220, 16058040, 17.2.0/1
! Date: 14/08/2018 12:37:54
! Data: Format (Calibration Info)
! Freq                      S11: Re/Im (F2)                       S21: Re/Im (F2)                       S12: Re/Im (F2)                       S22: Re/Im (F2)            
1.00000000000E+09 -6.46816692292E-01 +7.14489148857E-01 +8.18749488462E-06 +8.90306928464E-06 +9.87900105550E-06 +7.08230606913E-05 -6.70559279716E-01 +5.38159598903E-01
1.00500000000E+09 -6.39733312854E-01 +7.19720984804E-01 -2.42208998545E-05 +1.55393390758E-05 -2.14667854640E-05 -2.83160552723E-05 -6.67316360669E-01 +5.41774155188E-01
1.01000000000E+09 -6.33797377102E-01 +7.24629085160E-01 -1.68258755324E-05 -2.71505750548E-05 -1.28109727849E-05 -2.95258349941E-05 -6.64388592569E-01 +5.44881430586E-01
1.01500000000E+09 -6.29409924998E-01 +7.28651380046E-01 -2.19372285126E-05 +4.95771020803E-05 -9.49379260862E-05 -5.98576813018E-05 -6.61801650819E-01 +5.48195692835E-01
1.02000000000E+09 -6.26527990235E-01 +7.31968427759E-01 +3.79838782650E-05 -4.84100658355E-05 -1.45180419593E-05 +2.38516662038E-05 -6.59186233956E-01 +5.51290979109E-01
1.02500000000E+09 -6.24466366237E-01 +7.34498975609E-01 -8.28668672233E-06 +1.39579416218E-05 -2.95412601136E-05 -2.24926612795E-05 -6.57091728889E-01 +5.54566777630E-01
1.03000000000E+09 -6.22945048914E-01 +7.36916346473E-01 +3.29620795775E-05 +1.85726945524E-05 -4.58112011053E-05 -2.41839673501E-06 -6.54439771111E-01 +5.57980658294E-01
1.03500000000E+09 -6.20743023851E-01 +7.39217412971E-01 -1.75421049973E-05 -3.22638780446E-06 -1.67926828551E-05 +1.05975903389E-05 -6.51294117187E-01 +5.61697124784E-01
1.04000000000E+09 -6.17386175061E-01 +7.41854485640E-01 -2.45673847145E-05 +4.31927366749E-05 +2.35359457430E-05 +4.96416814394E-06 -6.48244084826E-01 +5.64963394301E-01
1.04500000000E+09 -6.12093189033E-01 +7.45188805283E-01 +3.37015855475E-06 +1.63558253492E-05 -1.72817446425E-05 +3.55563223836E-05 -6.45654797693E-01 +5.68445761272E-01
1.05000000000E+09 -6.05516849858E-01 +7.49473413462E-01 -2.61991058331E-05 +2.76925702335E-05 -2.88635213456E-05 +1.69918542647E-05 -6.42859208387E-01 +5.71543586738E-01
1.05500000000E+09 -5.97539681004E-01 +7.54024585499E-01 +1.08214057347E-05 +6.36656195211E-05 +1.71824254832E-05 -4.87606557517E-06 -6.40316589028E-01 +5.75000025833E-01
1.06000000000E+09 -5.88815374419E-01 +7.59087827638E-01 -6.82996515944E-06 +1.02509289724E-05 -1.99372736857E-05 +2.89429768164E-05 -6.37541139558E-01 +5.78481858857E-01
1.06500000000E+09 -5.80651410219E-01 +7.64197046047E-01 +7.41670847793E-07 -2.96561550398E-06 +2.79189023728E-05 +4.49251584222E-05 -6.34629182419E-01 +5.82013296585E-01
1.07000000000E+09 -5.73350928204E-01 +7.68656198434E-01 +5.05890335443E-05 +5.12678931447E-05 +3.97851291643E-05 +1.75450358879E-05 -6.31076496480E-01 +5.85601708657E-01
1.07500000000E+09 -5.67446001710E-01 +7.72482620975E-01 +4.23484905761E-05 -1.81876111355E-06 +3.35430505988E-05 +3.80599022107E-05 -6.27446778568E-01 +5.89000466254E-01
1.08000000000E+09 -5.63472706280E-01 +7.75571000192E-01 +1.89830302906E-05 +5.33436622141E-05 +5.37262029427E-06 +2.35894769725E-05 -6.24244311337E-01 +5.92544865707E-01
1.08500000000E+09 -5.60697604142E-01 +7.77842680652E-01 +2.64309291413E-05 +4.08345873351E-05 +1.08096162069E-05 -1.67176825507E-05 -6.21110683008E-01 +5.96126603512E-01
1.09000000000E+09 -5.58549507170E-01 +7.79850666144E-01 -8.78443073575E-06 +3.78052317943E-05 +2.80092115875E-05 +1.61398153457E-05 -6.18172667110E-01 +5.99511524426E-01
1.09500000000E+09 -5.56719502100E-01 +7.81502249208E-01 -2.48744342960E-05 +5.26167297780E-05 +6.47091732589E-05 +3.34610810521E-05 -6.15360258709E-01 +6.03142272520E-01
1.10000000000E+09 -5.53773562125E-01 +7.83581867539E-01 -9.44289096885E-06 +4.09273996828E-05 +6.96638498825E-05 +5.27457947906E-05 -6.11951162750E-01 +6.06718550655E-01
1.10500000000E+09 -5.49681538903E-01 +7.86204610452E-01 +2.74449417585E-05 +3.87592949463E-06 -8.94130266301E-07 -2.10674397121E-05 -6.08519299388E-01 +6.10129714304E-01
1.11000000000E+09 -5.44010513302E-01 +7.89561541828E-01 +7.06780108981E-06 +5.12857625068E-06 +5.21049471233E-06 -7.48993931314E-06 -6.05083373706E-01 +6.13312682424E-01
1.11500000000E+09 -5.37025278603E-01 +7.93819172063E-01 -1.25839552382E-05 +1.13844469749E-05 +3.00843847393E-05 +3.32969972283E-08 -6.01908862742E-01 +6.16480322344E-01
1.12000000000E+09 -5.29472679505E-01 +7.98214060047E-01 +2.55629469200E-05 +4.23397094897E-05 +5.57047457879E-05 +3.49404102729E-05 -5.98765245099E-01 +6.20128422548E-01
1.12500000000E+09 -5.21716664957E-01 +8.02547712709E-01 +2.14985353747E-05 +3.15761187556E-06 +5.94458175493E-06 -3.79086077667E-06 -5.95236067460E-01 +6.23937744689E-01
1.13000000000E+09 -5.14645559547E-01 +8.06435289653E-01 +5.62598643384E-05 +4.11127761497E-05 +5.69278061050E-05 +7.69472662938E-06 -5.91641401098E-01 +6.27740740014E-01
1.13500000000E+09 -5.08546203923E-01 +8.09343166092E-01 +7.44763993335E-05 -2.04318460023E-05 +2.85461791168E-05 +3.18567868637E-05 -5.87718176154E-01 +6.31384230832E-01
1.14000000000E+09 -5.03380344021E-01 +8.11623111542E-01 +7.07001880958E-05 +8.50866862787E-07 +4.28741923175E-05 +3.84153070969E-06 -5.83646764334E-01 +6.34788307510E-01
1.14500000000E+09 -4.99393706341E-01 +8.13056145396E-01 +5.94870852265E-05 -3.14068633621E-05 +7.91419527585E-05 +1.57639362984E-05 -5.79727358229E-01 +6.38270864776E-01
1.15000000000E+09 -4.95707095856E-01 +8.14207700693E-01 +5.51462060328E-05 -5.29911236546E-05 +2.60550357603E-05 -1.57135725493E-05 -5.75805815848E-01 +6.41826487386E-01
1.15500000000E+09 -4.92133153427E-01 +8.15624355307E-01 +1.08956966932E-04 -1.06345916953E-05 +6.62214400600E-05 -4.25131884227E-06 -5.71670111348E-01 +6.45624904607E-01
1.16000000000E+09 -4.87633816633E-01 +8.17454214682E-01 +1.28256294357E-05 -2.52354461353E-05 -1.88179329740E-05 -3.30765636423E-05 -5.67802521962E-01 +6.49356736382E-01
1.16500000000E+09 -4.82044139589E-01 +8.20194784418E-01 +3.31957952291E-05 -3.29576029857E-05 +4.78567831285E-05 -2.67577560316E-05 -5.63569990892E-01 +6.52814030947E-01
1.17000000000E+09 -4.75078550954E-01 +8.23444229815E-01 +5.93136666820E-05 -2.52903809934E-05 +1.74980147008E-05 -5.79471277983E-05 -5.59103984420E-01 +6.56073871344E-01
1.17500000000E+09 -4.67537640028E-01 +8.27279873758E-01 +7.19046303244E-05 -2.33548586179E-05 +7.00615724888E-05 -8.44698217210E-05 -5.54241027788E-01 +6.59060597890E-01
1.18000000000E+09 -4.59720941045E-01 +8.31364899932E-01 +2.90333071376E-05 -8.36614768076E-05 +2.89471853017E-05 -2.61718455667E-05 -5.49793605688E-01 +6.62286438827E-01
1.18500000000E+09 -4.51918797829E-01 +8.35032609853E-01 +7.69942071903E-05 -3.33971244061E-05 +2.83472139285E-05 -4.77001985393E-05 -5.44841631782E-01 +6.65215615550E-01
1.19000000000E+09 -4.44751149795E-01 +8.38081954807E-01 +8.78344369397E-05 -8.48882269552E-05 +6.73384777525E-05 -1.06478878292E-04 -5.39489505390E-01 +6.68003231621E-01
1.19500000000E+09 -4.38606034236E-01 +8.40295755365E-01 +4.62076598464E-05 -9.49507296726E-05 +3.52874305446E-05 -1.03784194043E-04 -5.34388555196E-01 +6.69459035201E-01
1.20000000000E+09 -4.33457845021E-01 +8.41123972691E-01 +3.51717585065E-05 -1.04737377247E-04 +4.87409805362E-05 -1.39384795182E-04 -5.30429798937E-01 +6.69973528597E-01
1.20500000000E+09 -4.28870618969E-01 +8.42134501246E-01 -7.36740506710E-05 -1.43996454023E-04 -5.99332445649E-05 -1.47743068181E-04 -5.28368130812E-01 +6.70851204209E-01
1.21000000000E+09 -4.24140264460E-01 +8.42916438691E-01 -9.45135362472E-05 -3.67746251635E-05 -1.05142797278E-04 -2.42882841828E-05 -5.26843357236E-01 +6.73744156499E-01
1.21500000000E+09 -4.18223248399E-01 +8.44336483096E-01 -3.83215517360E-05 -2.40733510832E-05 -5.35843168440E-05 -3.60091258220E-05 -5.24638834056E-01 +6.78148998276E-01
1.22000000000E+09 -4.10840413103E-01 +8.46164138501E-01 -1.20624540357E-05 -5.53910215743E-06 +4.92593884833E-05 -4.57672078206E-05 -5.21234874467E-01 +6.83040955810E-01
1.22500000000E+09 -4.02009970299E-01 +8.48839429933E-01 -3.20022435667E-05 -6.00804389011E-05 +1.80584088926E-05 -4.80085407104E-05 -5.16988400037E-01 +6.87969652985E-01
1.23000000000E+09 -3.92381338205E-01 +8.52247893016E-01 -1.94133035721E-05 -3.82201416049E-05 -2.13158391223E-05 -6.46610337351E-05 -5.12316989424E-01 +6.92350984010E-01
1.23500000000E+09 -3.82263158139E-01 +8.56185735640E-01 -3.14801336334E-05 -7.19731598380E-05 +1.52478433615E-05 -5.04715636566E-05 -5.07539910610E-01 +6.96615561025E-01
1.24000000000E+09 -3.72433665672E-01 +8.60440351358E-01 -1.54104443981E-05 -1.30378291581E-04 -1.55936554279E-05 -8.87671727381E-05 -5.02443987706E-01 +7.00301243537E-01
1.24500000000E+09 -3.63741892703E-01 +8.64820251401E-01 -7.02365194611E-05 -9.99922263580E-05 -8.94998132188E-06 -4.47263523146E-05 -4.97498975449E-01 +7.04035027950E-01
1.25000000000E+09 -3.55804960845E-01 +8.68537002089E-01 -6.23540913798E-05 -8.46473118166E-05 -7.49071074308E-05 -9.26076062904E-05 -4.92058522828E-01 +7.08177289341E-01
1.25500000000E+09 -3.49078084759E-01 +8.71260490999E-01 -6.24600425805E-05 -1.37385177098E-04 -2.75787521222E-05 -9.74508630824E-05 -4.86417576181E-01 +7.12353764176E-01
1.26000000000E+09 -3.43167056227E-01 +8.72996519289E-01 -6.58828020469E-05 -6.76405103759E-05 -8.39672866618E-05 -1.20156559954E-04 -4.80826756564E-01 +7.16628229775E-01
1.26500000000E+09 -3.37581880184E-01 +8.73961744313E-01 -7.09468506778E-05 -9.02304763726E-05 -7.91388458360E-05 -4.98465759832E-05 -4.75093436724E-01 +7.20692463648E-01
1.27000000000E+09 -3.31545981510E-01 +8.74836822728E-01 -7.46495153067E-05 -1.16792710861E-04 -1.20616451862E-04 -1.03801967707E-04 -4.69261826217E-01 +7.24694631302E-01
1.27500000000E+09 -3.24265024420E-01 +8.75719177634E-01 -1.35830722313E-04 -9.48218798335E-05 -1.07580733420E-04 -9.26462285854E-05 -4.63133288671E-01 +7.28547489157E-01
1.28000000000E+09 -3.15134903218E-01 +8.77281682632E-01 -1.33645179149E-04 -6.94623169002E-05 -1.24305899946E-04 -6.87481819515E-05 -4.57047483497E-01 +7.32450732863E-01
1.28500000000E+09 -3.03998348826E-01 +8.79473476264E-01 -1.68031576371E-04 -2.10835191446E-05 -1.71876344488E-04 -7.93929620045E-05 -4.50486204110E-01 +7.36422351071E-01
1.29000000000E+09 -2.92089408470E-01 +8.82148022667E-01 -2.13355253226E-04 +6.37563932260E-06 -1.90880814661E-04 -4.45895753602E-05 -4.44004942033E-01 +7.40490070005E-01
1.29500000000E+09 -2.79829908467E-01 +8.85643043954E-01 -1.89668219396E-04 -4.63466510010E-05 -1.67541175359E-04 +6.48536508647E-06 -4.37228620425E-01 +7.44308533356E-01
1.30000000000E+09 -2.68020106163E-01 +8.89585955890E-01 -1.95368569344E-04 -1.64686509003E-05 -1.76581419514E-04 +3.96879229681E-05 -4.30309584185E-01 +7.48195897585E-01
1.30500000000E+09 -2.57457657952E-01 +8.93131175401E-01 -1.71921023054E-04 -5.36729613889E-05 -1.85604423478E-04 -2.03370387370E-05 -4.23226665439E-01 +7.51925860467E-01
1.31000000000E+09 -2.48306283355E-01 +8.95715457474E-01 -2.27304531164E-04 +2.35529288416E-05 -2.39220369381E-04 +2.53452046810E-05 -4.15957325749E-01 +7.55662630291E-01
1.31500000000E+09 -2.41059227421E-01 +8.97416883109E-01 -2.40710032106E-04 +2.40576360060E-06 -2.08549354460E-04 +3.88045475945E-05 -4.08320715028E-01 +7.59398478948E-01
1.32000000000E+09 -2.34991115564E-01 +8.97968723796E-01 -2.06856409569E-04 +7.52744418162E-05 -2.10832166929E-04 +7.03973028045E-05 -4.00298484119E-01 +7.63099464628E-01
1.32500000000E+09 -2.29155350451E-01 +8.97741597861E-01 -2.08758200888E-04 +1.26470093147E-04 -1.94526378599E-04 +9.79587067751E-05 -3.92143096318E-01 +7.66699269282E-01
1.33000000000E+09 -2.22107548483E-01 +8.97296787034E-01 -1.98464486265E-04 +1.27186123857E-04 -1.94519266217E-04 +1.49283924406E-04 -3.83723608494E-01 +7.70324384653E-01
1.33500000000E+09 -2.13199724876E-01 +8.96644827961E-01 -2.40876977092E-04 +1.38116803511E-04 -2.03450882154E-04 +1.42605599087E-04 -3.75051072474E-01 +7.73992322626E-01
1.34000000000E+09 -2.01553455749E-01 +8.96455740990E-01 -2.42486852724E-04 +1.90792532348E-04 -2.31608046412E-04 +1.59844015332E-04 -3.66167211216E-01 +7.77722996899E-01
1.34500000000E+09 -1.87238773543E-01 +8.96317679238E-01 -2.32091367380E-04 +2.26111047453E-04 -2.22976379817E-04 +1.74070486372E-04 -3.56617237498E-01 +7.81468434389E-01
1.35000000000E+09 -1.71264874504E-01 +8.97068234127E-01 -1.87746533983E-04 +2.52645519485E-04 -2.02407129015E-04 +2.67123480399E-04 -3.46736397872E-01 +7.85307482723E-01
1.35500000000E+09 -1.54168683989E-01 +8.98043076192E-01 -1.98103123412E-04 +2.82756633948E-04 -1.80347741494E-04 +2.84418375732E-04 -3.36270183584E-01 +7.88872466095E-01
1.36000000000E+09 -1.37422420021E-01 +8.99208183114E-01 -2.12251729259E-04 +3.50400949652E-04 -2.06341478648E-04 +3.35978680529E-04 -3.25757404226E-01 +7.92311042865E-01
1.36500000000E+09 -1.21462347077E-01 +9.00143217259E-01 -1.98911460126E-04 +3.91085351505E-04 -1.80638385977E-04 +3.55157837792E-04 -3.14751478465E-01 +7.95490822474E-01
1.37000000000E+09 -1.07640591842E-01 +9.00130049662E-01 -1.24861967993E-04 +4.61238519259E-04 -1.47993794834E-04 +4.61212442922E-04 -3.03356964851E-01 +7.98778476261E-01
1.37500000000E+09 -9.57176187366E-02 +8.99598458878E-01 -6.48912122307E-05 +5.42171472558E-04 -1.24107519669E-04 +4.42568687993E-04 -2.90948182328E-01 +8.01902200079E-01
1.38000000000E+09 -8.48938003503E-02 +8.98598263898E-01 +3.70070450507E-07 +4.78379273808E-04 -8.45899532128E-05 +5.49679115429E-04 -2.77863410790E-01 +8.04970676188E-01
1.38500000000E+09 -7.37783126559E-02 +8.96559145651E-01 +2.86141476788E-05 +5.02322393971E-04 -3.33326568586E-05 +5.85337307121E-04 -2.63813334156E-01 +8.07968168533E-01
1.39000000000E+09 -6.15430442497E-02 +8.94040733412E-01 +4.01189300163E-05 +6.08829140968E-04 +9.98915782843E-05 +6.43157255280E-04 -2.49418637325E-01 +8.10750394484E-01
1.39500000000E+09 -4.67691142371E-02 +8.90631259719E-01 +1.12764199696E-04 +5.92242678283E-04 +1.53655520444E-04 +6.36140878572E-04 -2.34137273393E-01 +8.12893678704E-01
1.40000000000E+09 -2.90582765159E-02 +8.86482615435E-01 +1.06159581220E-04 +6.39503147138E-04 +1.70013952448E-04 +6.90905086033E-04 -2.18240077839E-01 +8.14721656213E-01
1.40500000000E+09 -9.22446498530E-03 +8.81930667031E-01 +3.05764373339E-04 +7.85634156254E-04 +3.13178808448E-04 +7.80378330989E-04 -2.01324984505E-01 +8.16146538699E-01
1.41000000000E+09 +1.26798916675E-02 +8.76830161795E-01 +3.99311839042E-04 +7.43009013580E-04 +3.86383683920E-04 +7.71547543911E-04 -1.82688717398E-01 +8.17106521214E-01
1.41500000000E+09 +3.54215820967E-02 +8.71349027526E-01 +5.87726881600E-04 +7.78513241755E-04 +5.74220417519E-04 +8.55816828828E-04 -1.62664495703E-01 +8.17515622042E-01
1.42000000000E+09 +5.83636624685E-02 +8.64896464526E-01 +7.60996811574E-04 +6.90498891058E-04 +7.65948229422E-04 +8.04036570740E-04 -1.41128468133E-01 +8.17151965398E-01
1.42500000000E+09 +8.00345636848E-02 +8.57468156316E-01 +8.30267833151E-04 +7.02586962786E-04 +9.56433800603E-04 +7.66455488812E-04 -1.18518001015E-01 +8.15686518736E-01
1.43000000000E+09 +1.00583426876E-01 +8.48915219921E-01 +9.68987583205E-04 +7.09175753821E-04 +1.10490689859E-03 +6.74099899748E-04 -9.49939403990E-02 +8.13425147977E-01
1.43500000000E+09 +1.20393939448E-01 +8.38221313389E-01 +1.20016744184E-03 +7.41684201937E-04 +1.30817414906E-03 +6.78312315693E-04 -6.98916131994E-02 +8.09404191449E-01
1.44000000000E+09 +1.40425662438E-01 +8.25976656507E-01 +1.65212658917E-03 +5.28213672719E-04 +1.77865388582E-03 +4.05095195422E-04 -4.27474587392E-02 +8.03830501028E-01
1.44500000000E+09 +1.62379937727E-01 +8.10620448187E-01 +1.86560736179E-03 +1.12021680863E-04 +1.94830223907E-03 -4.42213912816E-06 -1.31535536462E-02 +7.95644136521E-01
1.45000000000E+09 +1.86922586164E-01 +7.91574542165E-01 +1.79002319453E-03 -1.83242456844E-04 +1.87361887256E-03 -2.44366069462E-04 +1.82144212534E-02 +7.84380742954E-01
1.45500000000E+09 +2.13875770486E-01 +7.68558872355E-01 +1.95763254587E-03 -2.81074828586E-04 +1.87791726913E-03 -4.00636976537E-04 +5.15457021194E-02 +7.70376948398E-01
1.46000000000E+09 +2.44183593671E-01 +7.41380824070E-01 +2.27098896032E-03 -5.15017609821E-04 +2.09870528184E-03 -6.62317500815E-04 +8.63980577125E-02 +7.51976429461E-01
1.46500000000E+09 +2.75953494176E-01 +7.09336777343E-01 +2.66990777125E-03 -1.05321228715E-03 +2.42741300653E-03 -1.10958473638E-03 +1.22721959189E-01 +7.29156248295E-01
1.47000000000E+09 +3.08289620942E-01 +6.73003613935E-01 +2.79722010876E-03 -1.91365216558E-03 +2.55880102576E-03 -1.78338597319E-03 +1.60439059781E-01 +6.99140677006E-01
1.47500000000E+09 +3.39493339012E-01 +6.31363656583E-01 +2.51563600137E-03 -3.01331637871E-03 +2.53715890196E-03 -2.80423005624E-03 +1.98512975358E-01 +6.62041430799E-01
1.48000000000E+09 +3.67467276860E-01 +5.83553929894E-01 +1.65805959675E-03 -3.68083168544E-03 +1.77814677939E-03 -3.74362654741E-03 +2.36338331768E-01 +6.16141743536E-01
1.48500000000E+09 +3.89432427790E-01 +5.29291305776E-01 +1.07968650405E-03 -4.06110189625E-03 +1.09058902823E-03 -4.18081142320E-03 +2.72005834876E-01 +5.61285867628E-01
1.49000000000E+09 +4.04845029591E-01 +4.68024136667E-01 +5.06377787331E-04 -4.83896896950E-03 +2.76356220565E-04 -4.76153338750E-03 +3.02740238080E-01 +4.94878726577E-01
1.49500000000E+09 +4.11123309380E-01 +3.99207316772E-01 -7.86749797332E-04 -5.68448642741E-03 -9.98309257362E-04 -5.43481401968E-03 +3.22565929433E-01 +4.18510260456E-01
1.50000000000E+09 +4.08745603565E-01 +3.22108310902E-01 -2.88951229372E-03 -5.53706599802E-03 -2.75480820467E-03 -5.20012498334E-03 +3.30923377716E-01 +3.33611628608E-01
1.50500000000E+09 +3.92863059330E-01 +2.35798076015E-01 -3.99271241797E-03 -5.08341516297E-03 -3.70486976439E-03 -5.00222159331E-03 +3.22008012554E-01 +2.40205465222E-01
1.51000000000E+09 +3.60012215241E-01 +1.45211148339E-01 -5.95480579524E-03 -4.19789352286E-03 -5.70941161707E-03 -4.38494603936E-03 +2.92497231213E-01 +1.43151310567E-01
1.51500000000E+09 +3.08727896388E-01 +5.56257080863E-02 -7.41603422680E-03 -2.85320579449E-03 -7.45625152628E-03 -3.03037960135E-03 +2.40597853607E-01 +5.17863051210E-02
1.52000000000E+09 +2.38685244716E-01 -2.45928749025E-02 -9.12572719200E-03 +4.09661978524E-05 -9.21477176900E-03 -1.04342957091E-04 +1.70239137063E-01 -2.97412006330E-02
1.52500000000E+09 +1.53144526339E-01 -8.94152498596E-02 -8.05449589150E-03 +3.99907524746E-03 -8.16635780719E-03 +3.99759381280E-03 +8.13410902864E-02 -9.33303990864E-02
1.53000000000E+09 +5.48605316451E-02 -1.35157458193E-01 -5.32396097840E-03 +5.29947154605E-03 -5.35857881192E-03 +5.28310789997E-03 -1.73609059372E-02 -1.34604208033E-01
1.53500000000E+09 -5.12753768868E-02 -1.55381479477E-01 -3.99935714573E-03 +6.12939819334E-03 -4.02610079003E-03 +6.15412911769E-03 -1.19710332328E-01 -1.52414700633E-01
1.54000000000E+09 -1.57873860525E-01 -1.50007237470E-01 -2.00480833150E-03 +6.31466129865E-03 -2.00049652343E-03 +6.24464622115E-03 -2.17851862486E-01 -1.49192685187E-01
1.54500000000E+09 -2.59485778429E-01 -1.23856349208E-01 -5.77996198264E-04 +6.66152121251E-03 -7.32368592268E-04 +6.61488168726E-03 -3.05626271150E-01 -1.28669502308E-01
1.55000000000E+09 -3.50629685376E-01 -7.83862482533E-02 +1.41853476032E-03 +6.31875923491E-03 +1.19671850633E-03 +6.31053119557E-03 -3.82019432687E-01 -9.73434373586E-02
1.55500000000E+09 -4.26416043446E-01 -2.29747975751E-02 +3.18319386674E-03 +4.93988883151E-03 +3.00295875477E-03 +5.15483450611E-03 -4.46275204075E-01 -5.64310076124E-02
1.56000000000E+09 -4.88402665187E-01 +3.55865130086E-02 +3.58159372274E-03 +3.19890014602E-03 +3.64926977399E-03 +3.45605745414E-03 -4.97799187966E-01 -1.05294472005E-02
1.56500000000E+09 -5.37816375626E-01 +9.49155623189E-02 +3.52090147558E-03 +2.12593717624E-03 +3.70661742892E-03 +2.28109301384E-03 -5.38206755719E-01 +3.76313205493E-02
1.57000000000E+09 -5.74683854069E-01 +1.52606810622E-01 +3.40150766832E-03 +1.25597305976E-03 +3.64820755983E-03 +1.28699178934E-03 -5.69114479304E-01 +8.48962378817E-02
