# Hz S RI R 50
! CMT, C1220, 16058040, 17.2.0/1
! Date: 14/08/2018 11:56:26
! Data: Format (Calibration Info)
! Freq                      S11: Re/Im (F2)                       S21: Re/Im (F2)                       S12: Re/Im (F2)                       S22: Re/Im (F2)            
1.00000000000E+09 -6.44174434407E-01 +7.11531633186E-01 -1.85313911485E-05 -1.71211667259E-05 -1.25612936919E-05 -3.13433410448E-05 -7.49993257887E-01 +6.27047619134E-01
1.00500000000E+09 -6.36917624817E-01 +7.16373836355E-01 -4.90761930340E-05 -4.16908588300E-06 +3.54991036066E-05 +9.02404421594E-06 -7.46457809381E-01 +6.31073495877E-01
1.01000000000E+09 -6.31026302898E-01 +7.20861856335E-01 -2.72073016335E-05 -1.70630717214E-05 -2.90255152441E-05 -2.26069395228E-05 -7.42740177726E-01 +6.34872730707E-01
1.01500000000E+09 -6.26615655212E-01 +7.24623884784E-01 -3.53062859963E-05 +1.55840113411E-05 -3.34338009456E-05 -1.28826694178E-05 -7.39386559180E-01 +6.38610617168E-01
1.02000000000E+09 -6.23527476292E-01 +7.27936437517E-01 -5.27193188020E-05 +6.43366535472E-06 -3.27859926253E-05 -3.22553916047E-05 -7.35839735273E-01 +6.42214827202E-01
1.02500000000E+09 -6.21319827504E-01 +7.30508905697E-01 -5.61827528324E-05 +4.24329258136E-05 +2.65448363506E-05 -1.72763327322E-05 -7.32901677984E-01 +6.45874064074E-01
1.03000000000E+09 -6.19891841030E-01 +7.32837501278E-01 -3.07609051299E-05 -1.36209677649E-06 -1.33156234499E-05 +1.64272251366E-05 -7.29390056013E-01 +6.49695399765E-01
1.03500000000E+09 -6.17446084215E-01 +7.35241748997E-01 -5.29818052382E-05 +1.38293962126E-05 -9.92435035626E-06 -2.04399843479E-05 -7.25595343037E-01 +6.53612604077E-01
1.04000000000E+09 -6.14129818984E-01 +7.38012923059E-01 -3.06220445504E-07 +2.64034086410E-05 -2.64969694585E-05 +5.03295262245E-05 -7.21916989731E-01 +6.57243877592E-01
1.04500000000E+09 -6.09104128410E-01 +7.41516909888E-01 -7.66088891948E-06 +3.12845685479E-05 -4.00581082082E-05 +4.48807735956E-05 -7.18260914601E-01 +6.60866314567E-01
1.05000000000E+09 -6.02244221322E-01 +7.45733692320E-01 -4.97164489324E-05 +2.77382343227E-05 -3.83124266825E-05 +2.36866124681E-05 -7.14888355981E-01 +6.64095349232E-01
1.05500000000E+09 -5.94337717211E-01 +7.50227722925E-01 +2.26551340402E-05 +5.94016044653E-05 -2.47330207932E-05 +7.66973548258E-06 -7.11580648266E-01 +6.67656465077E-01
1.06000000000E+09 -5.85867619081E-01 +7.55102967535E-01 -3.11618678397E-05 +9.77333375640E-05 -7.19650534016E-05 +4.34312947076E-05 -7.08223685109E-01 +6.71435332473E-01
1.06500000000E+09 -5.77828279365E-01 +7.59820789707E-01 -5.27138512130E-05 +5.80672755435E-05 -1.24812526486E-05 +3.64698514866E-05 -7.04624561208E-01 +6.75189172258E-01
1.07000000000E+09 -5.70695752515E-01 +7.64095260485E-01 -1.31874937576E-05 +7.90959689143E-05 -1.15631150601E-05 +3.92318768962E-05 -7.00653453336E-01 +6.78903272920E-01
1.07500000000E+09 -5.65511512848E-01 +7.67573246485E-01 -2.64236277858E-05 +7.73217710030E-05 -1.49072500420E-05 +9.73956445117E-05 -6.96335856654E-01 +6.82682916670E-01
1.08000000000E+09 -5.61799296601E-01 +7.70986491258E-01 +3.40459420285E-05 +5.84103724905E-05 -1.15247971286E-05 +5.26019210401E-05 -6.92208658809E-01 +6.86375374253E-01
1.08500000000E+09 -5.59344510794E-01 +7.73377832637E-01 -4.96315972877E-06 +6.37302941714E-05 +3.90648533712E-05 +7.24665012246E-05 -6.88208222989E-01 +6.90150036817E-01
1.09000000000E+09 -5.57342655126E-01 +7.75602798415E-01 +4.39944425263E-05 +5.03425000541E-05 +1.26511445536E-06 +8.35252140197E-05 -6.84141731492E-01 +6.93872893700E-01
1.09500000000E+09 -5.55558555073E-01 +7.77419598009E-01 -4.15150968805E-06 +3.83830905796E-05 +6.05102530330E-05 +6.03612941790E-05 -6.80447066959E-01 +6.97908895957E-01
1.10000000000E+09 -5.52202153791E-01 +7.79659087978E-01 +4.99124689007E-06 +2.77687484295E-05 +2.63732273090E-05 +7.09284892778E-05 -6.76437196495E-01 +7.01636791266E-01
1.10500000000E+09 -5.47896934662E-01 +7.82292005154E-01 +2.61498150025E-05 +8.39049423725E-05 +2.43988366476E-05 +6.68642112358E-05 -6.72059484363E-01 +7.05119566819E-01
1.11000000000E+09 -5.41711123142E-01 +7.85678824990E-01 +6.48884652321E-05 +4.60802392971E-05 +4.84582961754E-05 +4.17199052547E-05 -6.67948643425E-01 +7.08555219011E-01
1.11500000000E+09 -5.34353519574E-01 +7.89478509412E-01 +2.56844429860E-05 +8.30023283624E-05 +3.70668716781E-05 +5.57233289273E-05 -6.63797892631E-01 +7.12042060564E-01
1.12000000000E+09 -5.26170868653E-01 +7.93362168068E-01 +8.47922996354E-05 +5.18582073610E-05 +4.15291054289E-05 +6.35327284304E-05 -6.59720540501E-01 +7.15636866182E-01
1.12500000000E+09 -5.18319689872E-01 +7.97368636030E-01 +5.36479271132E-05 +1.61081548877E-05 +1.13210610803E-05 +7.13030936024E-05 -6.55433606831E-01 +7.19633732534E-01
1.13000000000E+09 -5.11288694413E-01 +8.00991745739E-01 +1.04561871180E-04 +9.28372101514E-05 +8.11460077360E-05 +1.04150717631E-04 -6.51077347517E-01 +7.23362215723E-01
1.13500000000E+09 -5.05298763036E-01 +8.03866152934E-01 +8.17967493370E-05 +8.20074021178E-05 +3.58220983152E-05 +1.08555193206E-04 -6.46430724827E-01 +7.27113547638E-01
1.14000000000E+09 -5.00643443764E-01 +8.06723958334E-01 +4.43638575768E-05 +4.33204691678E-05 +6.34690736523E-05 +6.80610639957E-05 -6.41757812896E-01 +7.30557678789E-01
1.14500000000E+09 -4.97045465663E-01 +8.08743381597E-01 +5.41539376967E-05 +5.72341382863E-05 +9.57236555110E-05 +6.16027966248E-05 -6.37143395363E-01 +7.34013706860E-01
1.15000000000E+09 -4.93387985979E-01 +8.10560095612E-01 +8.25050684868E-05 +5.63721808202E-05 +1.01813479870E-04 +8.46947179095E-05 -6.32373032987E-01 +7.37673049634E-01
1.15500000000E+09 -4.89811149473E-01 +8.12583304826E-01 +9.45847872243E-05 +2.57540413595E-05 +7.33436747562E-05 +4.01572106570E-05 -6.27590844261E-01 +7.41515975853E-01
1.16000000000E+09 -4.85207315120E-01 +8.14685309008E-01 +9.22632529615E-05 +6.30556731917E-05 +1.24508844481E-04 +6.40330222216E-05 -6.22814803656E-01 +7.45433577675E-01
1.16500000000E+09 -4.79142119107E-01 +8.17544948441E-01 +1.20154123340E-04 +6.69823044167E-05 +1.03069448277E-04 +6.23655234104E-05 -6.17587562321E-01 +7.48952708501E-01
1.17000000000E+09 -4.71961724132E-01 +8.20638015800E-01 +1.31089265317E-04 +4.87458287309E-05 +1.55406213683E-04 -1.80701773071E-06 -6.12237805573E-01 +7.52252584251E-01
1.17500000000E+09 -4.63672848366E-01 +8.24014367474E-01 +1.68889763469E-04 -1.71160218959E-06 +1.33012556025E-04 +7.09177646579E-05 -6.06450868241E-01 +7.55574575912E-01
1.18000000000E+09 -4.55193740341E-01 +8.27556861870E-01 +1.67987435503E-04 +2.59060546026E-05 +1.40951509102E-04 +1.63393546283E-05 -6.00919192454E-01 +7.58735750098E-01
1.18500000000E+09 -4.47004171513E-01 +8.30745384965E-01 +1.41204317378E-04 -3.04351815519E-05 +1.30189884508E-04 -2.69406315154E-05 -5.94920786956E-01 +7.61632576724E-01
1.19000000000E+09 -4.39687471558E-01 +8.33335372487E-01 +1.45268632863E-04 -1.81171892242E-05 +1.91216639331E-04 +2.27320458555E-05 -5.88676610811E-01 +7.64244183985E-01
1.19500000000E+09 -4.33718884994E-01 +8.35421311247E-01 +2.44156521030E-04 -3.24039481253E-05 +2.75060235612E-04 -1.89885246037E-05 -5.82781035505E-01 +7.65471562207E-01
1.20000000000E+09 -4.29115861100E-01 +8.36629248203E-01 +2.75447665752E-04 -4.01133657893E-05 +2.27381290336E-04 -1.25184061025E-04 -5.78214822457E-01 +7.65541793962E-01
1.20500000000E+09 -4.25328124173E-01 +8.37882299569E-01 +1.79706485737E-04 -1.54559012412E-04 +1.98099657861E-04 -1.97794251959E-04 -5.75805009628E-01 +7.66344723008E-01
1.21000000000E+09 -4.21397378569E-01 +8.39413557346E-01 +1.54726015062E-04 -1.96179165399E-04 +1.61101251842E-04 -1.83228104357E-04 -5.74091679317E-01 +7.69386003132E-01
1.21500000000E+09 -4.16283114298E-01 +8.41211792592E-01 +1.21559997390E-04 -2.15662685556E-04 +1.23408229070E-04 -1.50613031250E-04 -5.71416387053E-01 +7.73863397588E-01
1.22000000000E+09 -4.09648437415E-01 +8.43272859381E-01 +7.89610694237E-05 -1.60303979477E-04 +1.14797926205E-04 -2.05609346947E-04 -5.67081875463E-01 +7.79127125442E-01
1.22500000000E+09 -4.01427905843E-01 +8.46057958453E-01 +6.54736262914E-05 -1.65737801518E-04 +1.17496264986E-04 -1.77706765333E-04 -5.61956124789E-01 +7.84268464494E-01
1.23000000000E+09 -3.92020676169E-01 +8.49214228039E-01 +8.07030228573E-05 -2.02127954463E-04 +1.05501697358E-04 -2.25795500003E-04 -5.56168036863E-01 +7.88875924405E-01
1.23500000000E+09 -3.81775440451E-01 +8.52861750589E-01 +6.73141290727E-05 -2.24352207754E-04 +6.53711495195E-05 -2.44355043934E-04 -5.50403308841E-01 +7.93277270461E-01
1.24000000000E+09 -3.71543889085E-01 +8.56428176829E-01 +1.24114831016E-04 -2.85745457672E-04 +7.05633440504E-05 -2.33079198415E-04 -5.44327769629E-01 +7.97147712387E-01
1.24500000000E+09 -3.62295614975E-01 +8.60337219682E-01 +7.46086067423E-05 -2.89678709003E-04 +5.02624890155E-05 -2.38292847426E-04 -5.38096825485E-01 +8.00865483423E-01
1.25000000000E+09 -3.54109283982E-01 +8.63476122668E-01 +3.92165292438E-05 -2.55765671700E-04 +5.13138151324E-05 -2.66113189597E-04 -5.31370736593E-01 +8.05165122462E-01
1.25500000000E+09 -3.47318595031E-01 +8.65945950307E-01 +5.18107634885E-05 -2.98783403903E-04 +5.10919311600E-05 -3.15583053257E-04 -5.24493746079E-01 +8.09119272048E-01
1.26000000000E+09 -3.41738409339E-01 +8.67941631174E-01 +4.81169646061E-05 -3.20107832615E-04 +3.97373010685E-07 -3.13240066204E-04 -5.17826243970E-01 +8.13479671945E-01
1.26500000000E+09 -3.36733958140E-01 +8.69346038759E-01 -2.90210316293E-05 -3.26868018423E-04 -3.23326598447E-05 -3.91652580618E-04 -5.10789501826E-01 +8.17285480023E-01
1.27000000000E+09 -3.31351409434E-01 +8.70638449491E-01 -5.89346921771E-05 -3.51488511591E-04 -6.92700078454E-05 -3.96545581659E-04 -5.04057497353E-01 +8.21042781124E-01
1.27500000000E+09 -3.24900058749E-01 +8.71920581774E-01 -1.12084891844E-04 -3.74803856545E-04 -1.45476734291E-04 -3.63268959760E-04 -4.96980555989E-01 +8.24579043960E-01
1.28000000000E+09 -3.16753039163E-01 +8.73727315845E-01 -2.29373264704E-04 -3.59910902142E-04 -1.78676732920E-04 -3.77824424175E-04 -4.89961987962E-01 +8.28083629704E-01
1.28500000000E+09 -3.06318362607E-01 +8.75758681269E-01 -2.04014707730E-04 -3.43462329655E-04 -2.18736388791E-04 -3.82885941338E-04 -4.82692355165E-01 +8.31704282832E-01
1.29000000000E+09 -2.94673611160E-01 +8.78205623904E-01 -2.22089216573E-04 -3.08743000802E-04 -2.47674622705E-04 -2.81573714334E-04 -4.75057639389E-01 +8.35158185678E-01
1.29500000000E+09 -2.82150144067E-01 +8.81048278941E-01 -2.54048398080E-04 -3.25960370237E-04 -3.07330687871E-04 -3.48738167354E-04 -4.67105996380E-01 +8.38868478578E-01
1.30000000000E+09 -2.69898478833E-01 +8.84124504107E-01 -3.10228689894E-04 -3.46569014654E-04 -3.38665750550E-04 -3.07079988261E-04 -4.59182241856E-01 +8.42452421741E-01
1.30500000000E+09 -2.58785505062E-01 +8.87060281481E-01 -4.08347118107E-04 -3.03676291557E-04 -4.19424044402E-04 -2.86022832717E-04 -4.51179410852E-01 +8.45912300827E-01
1.31000000000E+09 -2.49049064489E-01 +8.89466163391E-01 -4.51541641851E-04 -2.37854361571E-04 -4.30429893456E-04 -2.27186984008E-04 -4.42811990424E-01 +8.49136266645E-01
1.31500000000E+09 -2.41261653474E-01 +8.91463635245E-01 -4.93802307913E-04 -1.77214837164E-04 -4.18273707193E-04 -1.83155119822E-04 -4.33977149811E-01 +8.52601400885E-01
1.32000000000E+09 -2.34934726043E-01 +8.92716061559E-01 -4.54489952256E-04 -1.39436063311E-04 -4.61012571558E-04 -1.92395023375E-04 -4.24869032656E-01 +8.55941496329E-01
1.32500000000E+09 -2.29216611816E-01 +8.93301430469E-01 -4.66515913976E-04 -1.14950892528E-04 -5.29223827245E-04 -1.29390628250E-04 -4.15438167057E-01 +8.59306125289E-01
1.33000000000E+09 -2.22622945578E-01 +8.93583214348E-01 -4.95157319331E-04 -1.33683826416E-04 -5.73121173403E-04 -1.13564495349E-04 -4.05515626732E-01 +8.62609738542E-01
1.33500000000E+09 -2.14526988457E-01 +8.93474480558E-01 -5.74780634987E-04 -9.43031868160E-05 -5.63477488640E-04 -3.48066116239E-05 -3.95636853082E-01 +8.65933144349E-01
1.34000000000E+09 -2.03859643242E-01 +8.93531392251E-01 -6.33082486541E-04 -6.62007403608E-05 -5.60553179107E-04 -6.87781088929E-06 -3.85408942134E-01 +8.69201544096E-01
1.34500000000E+09 -1.90515873327E-01 +8.93464692206E-01 -6.43047672437E-04 +1.05417180459E-07 -6.16718691992E-04 +3.91820750439E-06 -3.74513780095E-01 +8.72461042722E-01
1.35000000000E+09 -1.75028346618E-01 +8.93267598968E-01 -7.12856897358E-04 +1.29181205152E-04 -7.03540171797E-04 +1.38302095784E-04 -3.63284647383E-01 +8.75590353946E-01
1.35500000000E+09 -1.58537094903E-01 +8.93453170541E-01 -6.75154895560E-04 +1.92730334748E-04 -6.82865054883E-04 +1.71204179423E-04 -3.51781669426E-01 +8.78257735476E-01
1.36000000000E+09 -1.41899373288E-01 +8.93661134682E-01 -7.02706789911E-04 +2.64768016860E-04 -6.89439235646E-04 +2.24783552076E-04 -3.39827994757E-01 +8.80882880214E-01
1.36500000000E+09 -1.25938749519E-01 +8.94059642306E-01 -7.01262485921E-04 +3.09538690331E-04 -6.80866007011E-04 +2.86085258605E-04 -3.27699559494E-01 +8.83391180664E-01
1.37000000000E+09 -1.11485479749E-01 +8.94188172836E-01 -7.34463389581E-04 +3.68496343160E-04 -7.13532262819E-04 +3.09496600520E-04 -3.14759943513E-01 +8.85893549256E-01
1.37500000000E+09 -9.90213250930E-02 +8.94173505429E-01 -8.08977680694E-04 +4.66553899162E-04 -8.11625812355E-04 +3.44077027690E-04 -3.00933370807E-01 +8.88034824086E-01
1.38000000000E+09 -8.79354924010E-02 +8.93785903212E-01 -7.77647294501E-04 +5.68117212185E-04 -9.64870510301E-04 +4.98969959759E-04 -2.86348263738E-01 +8.89797249028E-01
1.38500000000E+09 -7.69519252244E-02 +8.92745850119E-01 -7.76615389308E-04 +7.45966579698E-04 -9.20987339668E-04 +7.35342438874E-04 -2.71094240477E-01 +8.91679802571E-01
1.39000000000E+09 -6.54118368543E-02 +8.91168852776E-01 -7.24479362415E-04 +8.20465589468E-04 -8.15273122828E-04 +9.45641487979E-04 -2.55157537085E-01 +8.93147992320E-01
1.39500000000E+09 -5.18229210501E-02 +8.88565557784E-01 -7.11535605314E-04 +8.97918930478E-04 -6.92481613053E-04 +1.08392554900E-03 -2.38369885074E-01 +8.93864819871E-01
1.40000000000E+09 -3.58719510833E-02 +8.84907781706E-01 -6.97625799487E-04 +1.06066620975E-03 -6.19167205229E-04 +1.14551940861E-03 -2.20824337212E-01 +8.94341402168E-01
1.40500000000E+09 -1.74565363233E-02 +8.80229336561E-01 -6.07028869103E-04 +1.27531414268E-03 -5.37299437519E-04 +1.22020710257E-03 -2.02177110528E-01 +8.94097755230E-01
1.41000000000E+09 +3.29910155378E-03 +8.74827774110E-01 -5.56452203390E-04 +1.36778423637E-03 -5.57247072720E-04 +1.32927593411E-03 -1.82095888536E-01 +8.93159305879E-01
1.41500000000E+09 +2.54426014351E-02 +8.68768389530E-01 -4.25848706963E-04 +1.48835927678E-03 -5.30584241588E-04 +1.54643223249E-03 -1.60894450138E-01 +8.91927749964E-01
1.42000000000E+09 +4.82813434684E-02 +8.62159076615E-01 -3.88995458152E-04 +1.59059854293E-03 -5.03895813584E-04 +1.80474452557E-03 -1.37986459285E-01 +8.89321343365E-01
1.42500000000E+09 +7.06273978944E-02 +8.54751860280E-01 -3.60769711807E-04 +1.91737106691E-03 -3.46931005721E-04 +2.19110559777E-03 -1.14226885646E-01 +8.85667608184E-01
1.43000000000E+09 +9.20127028338E-02 +8.46576756774E-01 -9.24145415603E-05 +2.35485321279E-03 +7.60179288526E-05 +2.56055958139E-03 -8.94242868862E-02 +8.80912160836E-01
1.43500000000E+09 +1.12795247101E-01 +8.37300630267E-01 +3.80561990574E-04 +2.47340402286E-03 +6.42537247721E-04 +2.54488481424E-03 -6.30516864902E-02 +8.74322544294E-01
1.44000000000E+09 +1.33928541613E-01 +8.26847860549E-01 +7.58287882515E-04 +2.55208213567E-03 +9.41815197579E-04 +2.50258907914E-03 -3.51871524941E-02 +8.65661013581E-01
1.44500000000E+09 +1.56364952971E-01 +8.13986248604E-01 +1.13287806152E-03 +2.59132539558E-03 +1.31443387704E-03 +2.55227867683E-03 -4.95494691530E-03 +8.54505899304E-01
1.45000000000E+09 +1.80361655881E-01 +7.97295907532E-01 +1.29855001728E-03 +2.66145362970E-03 +1.50001917364E-03 +2.64492672902E-03 +2.70943782715E-02 +8.39775849560E-01
1.45500000000E+09 +2.06368019085E-01 +7.76846123811E-01 +1.72847353431E-03 +3.04321440048E-03 +2.06224478264E-03 +2.90128829393E-03 +6.00003338836E-02 +8.22019118130E-01
1.46000000000E+09 +2.34673547202E-01 +7.52011159548E-01 +2.53269439980E-03 +3.34905588196E-03 +2.79722797028E-03 +2.97881876548E-03 +9.49598751988E-02 +8.00851722441E-01
1.46500000000E+09 +2.65361243359E-01 +7.22519670088E-01 +3.47340978462E-03 +3.38960958525E-03 +3.39047768641E-03 +2.89131170728E-03 +1.31729716130E-01 +7.74084866723E-01
1.47000000000E+09 +2.97003021356E-01 +6.87467249789E-01 +4.80573038529E-03 +3.22516151035E-03 +4.40582587257E-03 +2.96970698243E-03 +1.69300329431E-01 +7.40197834995E-01
1.47500000000E+09 +3.28095561566E-01 +6.46796781807E-01 +5.97280608139E-03 +2.39303590954E-03 +5.65939776504E-03 +2.50012619034E-03 +2.06372504884E-01 +6.98852771258E-01
1.48000000000E+09 +3.56983047190E-01 +5.99872343705E-01 +6.84497438644E-03 +1.43029167598E-03 +6.93682185576E-03 +1.57195012315E-03 +2.42690519595E-01 +6.49285568824E-01
1.48500000000E+09 +3.80995604323E-01 +5.46686114803E-01 +7.80549824908E-03 +3.29952389025E-04 +7.99349896701E-03 +1.59796120605E-04 +2.76639903800E-01 +5.90700626849E-01
1.49000000000E+09 +3.99367857389E-01 +4.86791448254E-01 +8.91644408412E-03 -1.13617496660E-03 +8.80088646209E-03 -1.57867452642E-03 +3.05917172905E-01 +5.21229459442E-01
1.49500000000E+09 +4.10143041189E-01 +4.19866647054E-01 +9.72819783409E-03 -3.22372557724E-03 +9.20821217307E-03 -3.52018772239E-03 +3.24571508987E-01 +4.39638739173E-01
1.50000000000E+09 +4.11198179625E-01 +3.44312278245E-01 +1.05264533925E-02 -5.96155064693E-03 +9.89117277483E-03 -5.64982960767E-03 +3.28465291229E-01 +3.50446572900E-01
1.50500000000E+09 +4.00118042734E-01 +2.61282811332E-01 +9.98028346421E-03 -1.02802884230E-02 +9.82426650430E-03 -9.58203460123E-03 +3.16913461857E-01 +2.54421482467E-01
1.51000000000E+09 +3.73354687599E-01 +1.72135995874E-01 +7.28136220078E-03 -1.44580916368E-02 +7.71125733990E-03 -1.39593332999E-02 +2.85890554288E-01 +1.53708450497E-01
1.51500000000E+09 +3.28406698223E-01 +8.21049331419E-02 +2.40451393825E-03 -1.71621755915E-02 +2.89717268598E-03 -1.71506132608E-02 +2.30557967739E-01 +5.53390118864E-02
1.52000000000E+09 +2.63624933818E-01 -3.81858612969E-03 -3.17115713506E-03 -1.78632134457E-02 -2.96882540631E-03 -1.81374416587E-02 +1.53821731284E-01 -3.13220817492E-02
1.52500000000E+09 +1.78383006816E-01 -7.69311737542E-02 -8.34282870473E-03 -1.57282382434E-02 -8.29610382930E-03 -1.59483037395E-02 +5.78594958250E-02 -1.00227258489E-01
1.53000000000E+09 +7.88827939071E-02 -1.28610207313E-01 -1.17167352883E-02 -1.31685888082E-02 -1.19025814706E-02 -1.33527620104E-02 -5.05530827087E-02 -1.45823173511E-01
1.53500000000E+09 -2.81317062207E-02 -1.56382814654E-01 -1.52963111711E-02 -9.89351061384E-03 -1.53124167942E-02 -9.86550057780E-03 -1.64070849443E-01 -1.64760191714E-01
1.54000000000E+09 -1.37031868802E-01 -1.60318524829E-01 -1.76020617063E-02 -5.04376174148E-03 -1.74568835437E-02 -5.08421537855E-03 -2.73659064462E-01 -1.60415590306E-01
1.54500000000E+09 -2.42768539296E-01 -1.40706201753E-01 -1.77466600024E-02 +6.48558699249E-04 -1.75743251211E-02 +2.72809711709E-04 -3.72272437736E-01 -1.34739998823E-01
1.55000000000E+09 -3.39412887930E-01 -9.98896494349E-02 -1.57936337184E-02 +5.08221645758E-03 -1.59163680305E-02 +4.44796862633E-03 -4.57072706041E-01 -9.63987489512E-02
1.55500000000E+09 -4.19943205555E-01 -4.31592286337E-02 -1.32830829336E-02 +8.65966001520E-03 -1.39525859942E-02 +8.32442155921E-03 -5.27386592589E-01 -4.82946885115E-02
1.56000000000E+09 -4.82574309190E-01 +1.85684871662E-02 -9.20357388942E-03 +1.12342740388E-02 -9.98925350268E-03 +1.13848331639E-02 -5.83933554181E-01 +5.33012428897E-03
1.56500000000E+09 -5.31225773782E-01 +7.93799007490E-02 -4.98980485542E-03 +1.14279226490E-02 -5.48143854210E-03 +1.20176182098E-02 -6.27344477265E-01 +6.08453920596E-02
1.57000000000E+09 -5.69984174606E-01 +1.38394040496E-01 -2.34766910774E-03 +1.01662230651E-02 -2.43302386288E-03 +1.08322091535E-02 -6.60561155004E-01 +1.16229349094E-01
