# Hz S RI R 50
! CMT, C1220, 16058040, 17.2.0/1
! Date: 14/08/2018 11:46:19
! Data: Format (Calibration Info)
! Freq                      S11: Re/Im (F2)                       S21: Re/Im (F2)                       S12: Re/Im (F2)                       S22: Re/Im (F2)            
1.00000000000E+09 -6.48813145515E-01 +7.15235486397E-01 +3.42104091341E-05 +1.47714979187E-05 -1.18381274236E-05 -3.49841254076E-05 -7.54994055379E-01 +6.24664511195E-01
1.00500000000E+09 -6.41856236740E-01 +7.20121805348E-01 -2.51210112640E-06 -1.40540590068E-05 -6.22253710658E-07 +1.12364076453E-05 -7.51391130327E-01 +6.28684265528E-01
1.01000000000E+09 -6.35761957270E-01 +7.24578983199E-01 -2.26885759749E-05 +4.59794714517E-06 +1.80879733752E-05 +3.09746085031E-06 -7.47751245202E-01 +6.32494010476E-01
1.01500000000E+09 -6.30908893340E-01 +7.28277120323E-01 +7.40187368308E-06 +1.49422440713E-05 -6.26035313000E-06 +2.99607148710E-05 -7.44410083260E-01 +6.36341192668E-01
1.02000000000E+09 -6.27117422897E-01 +7.31608381853E-01 -3.52191858422E-05 -1.46260007109E-05 -4.71227082919E-05 -1.07729935944E-05 -7.41025649126E-01 +6.40024172377E-01
1.02500000000E+09 -6.24122837028E-01 +7.34352369570E-01 +9.35977765311E-06 -1.68681446049E-07 -2.20516586887E-05 +1.63821103457E-05 -7.37863248141E-01 +6.43674183831E-01
1.03000000000E+09 -6.21502395087E-01 +7.36831527288E-01 +7.70474742889E-06 +3.12498916425E-05 +4.51079594958E-05 -2.60550311497E-05 -7.34593270998E-01 +6.47388326687E-01
1.03500000000E+09 -6.18428305141E-01 +7.39395393707E-01 +2.38979996920E-06 -1.25708987228E-05 +1.73524162159E-05 +1.43643220339E-06 -7.30844547710E-01 +6.51500947262E-01
1.04000000000E+09 -6.14031559785E-01 +7.42448939140E-01 -6.61194560536E-08 -3.04120447662E-05 -2.11962682732E-05 +3.23731511459E-05 -7.27165499400E-01 +6.55090298007E-01
1.04500000000E+09 -6.08447526944E-01 +7.46048246980E-01 +6.08732504840E-06 +5.51408192099E-06 -2.76191593626E-05 +3.35400918331E-05 -7.23863206071E-01 +6.58657824423E-01
1.05000000000E+09 -6.01461660546E-01 +7.50293438667E-01 -5.74404237024E-05 +1.01847937609E-05 +1.61151953849E-05 +1.79000984611E-05 -7.20122973683E-01 +6.62170116077E-01
1.05500000000E+09 -5.93527294176E-01 +7.54899481660E-01 -3.70916549522E-05 +4.29425613609E-05 -9.15849616564E-06 +4.00571418539E-05 -7.16862091412E-01 +6.65627925704E-01
1.06000000000E+09 -5.85075410598E-01 +7.59740762591E-01 -3.07907936321E-05 +2.74547066001E-05 -2.38056037461E-05 +2.06124208926E-05 -7.13431960123E-01 +6.69276329246E-01
1.06500000000E+09 -5.77077948926E-01 +7.64721127133E-01 +8.52352385260E-06 +5.42950823853E-05 -4.06843163933E-06 -1.60670826473E-05 -7.09867474505E-01 +6.73072103856E-01
1.07000000000E+09 -5.70122524870E-01 +7.68961441825E-01 -2.74880034530E-05 +8.43672962213E-06 +2.03495083503E-06 +2.36240448345E-05 -7.05953156917E-01 +6.76711174050E-01
1.07500000000E+09 -5.64596740260E-01 +7.72491300258E-01 +2.86229386407E-05 +2.75452776932E-05 +4.97760898586E-05 +1.17895978964E-07 -7.01789661509E-01 +6.80494604290E-01
1.08000000000E+09 -5.60516458514E-01 +7.75724568065E-01 +4.75053574781E-05 -3.38827093702E-06 +6.26306657802E-05 +2.22424428987E-05 -6.97641830268E-01 +6.84422786347E-01
1.08500000000E+09 -5.57705796521E-01 +7.78119850350E-01 +1.23228256691E-05 +2.78422091892E-05 +1.37757986298E-06 +5.36651620089E-06 -6.93565900969E-01 +6.87987989167E-01
1.09000000000E+09 -5.55154624754E-01 +7.79966055648E-01 -1.46260951819E-05 -3.65401731945E-06 +2.94816220600E-05 +7.65660384465E-06 -6.89513429271E-01 +6.91997089051E-01
1.09500000000E+09 -5.52983402025E-01 +7.81908809642E-01 +3.41931477373E-05 -2.44054348314E-05 +2.43473073294E-05 +1.63095198384E-05 -6.85732535322E-01 +6.95965620603E-01
1.10000000000E+09 -5.49405036521E-01 +7.83936528408E-01 +4.00854413932E-06 +1.43095236937E-05 +2.60948594438E-05 +2.09966183830E-05 -6.81957438225E-01 +6.99666279496E-01
1.10500000000E+09 -5.45049241857E-01 +7.86526840965E-01 +2.78973050916E-05 -2.82853616302E-05 +3.89727470047E-05 -4.19013356697E-05 -6.77760475596E-01 +7.03310627135E-01
1.11000000000E+09 -5.39240369628E-01 +7.89736134862E-01 -2.26862940138E-07 +7.07038683552E-06 +1.54046158339E-05 +1.36521785479E-05 -6.73439277977E-01 +7.06763847762E-01
1.11500000000E+09 -5.32192931864E-01 +7.93540793329E-01 +2.29018879005E-05 -1.07981886279E-05 +1.51604071759E-05 -2.88372864819E-05 -6.69386333678E-01 +7.10177898957E-01
1.12000000000E+09 -5.24573920397E-01 +7.97258694442E-01 -1.77494385943E-06 +6.26133522217E-06 +9.30930449872E-05 -3.42100905265E-05 -6.65163603058E-01 +7.13848600585E-01
1.12500000000E+09 -5.17043620911E-01 +8.01318612999E-01 +4.60936554307E-06 -1.84392612453E-05 +4.46445683448E-05 -9.14674366805E-06 -6.60951846235E-01 +7.17883500140E-01
1.13000000000E+09 -5.10062803733E-01 +8.04961793561E-01 +7.13807972095E-05 -5.23582443227E-06 -1.67760720647E-05 +1.51460721995E-05 -6.56738184067E-01 +7.21570860547E-01
1.13500000000E+09 -5.03960045100E-01 +8.07604447174E-01 +5.52302286641E-05 -1.68584867147E-05 +2.43098106653E-05 +4.29436452742E-05 -6.52215284741E-01 +7.25438499606E-01
1.14000000000E+09 -4.98678108522E-01 +8.10147829147E-01 +3.61403017466E-05 -5.05099516723E-06 +7.80261346638E-05 +6.13687165734E-05 -6.47569710908E-01 +7.28898591146E-01
1.14500000000E+09 -4.94592739936E-01 +8.11840779670E-01 +4.59111180585E-05 +1.51486400440E-05 +2.23615042431E-05 +4.09632521597E-05 -6.42915685418E-01 +7.32356815090E-01
1.15000000000E+09 -4.90346132225E-01 +8.13389929290E-01 +2.54773734868E-05 +4.11099304279E-07 +9.31133093875E-06 -3.07508873133E-05 -6.38028536751E-01 +7.36074536734E-01
1.15500000000E+09 -4.86176047507E-01 +8.15260429014E-01 +5.29106409950E-05 +3.24661561136E-06 +2.87769347076E-05 +1.62331481317E-05 -6.33209244394E-01 +7.40089614345E-01
1.16000000000E+09 -4.81025573957E-01 +8.17292368580E-01 -1.00927676798E-06 -1.43859353925E-05 +3.49085257566E-05 +2.11015065114E-05 -6.28486541975E-01 +7.43846901403E-01
1.16500000000E+09 -4.74845133523E-01 +8.19930881491E-01 +2.87066464177E-05 -1.37837553112E-05 +5.96933707136E-05 +2.19200273168E-06 -6.23446437548E-01 +7.47590819942E-01
1.17000000000E+09 -4.67786053624E-01 +8.22990792884E-01 +4.48592950131E-05 +1.11138736737E-05 +3.16192697578E-05 +6.16464960596E-06 -6.18037446931E-01 +7.51025251754E-01
1.17500000000E+09 -4.59686121567E-01 +8.26289149866E-01 +3.14997419901E-05 -8.86809502834E-05 +4.46845954473E-05 -2.96546538715E-05 -6.12348826485E-01 +7.54213032603E-01
1.18000000000E+09 -4.51360909434E-01 +8.29784479329E-01 +4.79613042145E-05 -2.37055941934E-05 +3.16478215466E-05 -1.69911470382E-05 -6.06821435584E-01 +7.57326859236E-01
1.18500000000E+09 -4.43334763060E-01 +8.32821234079E-01 +2.46162086813E-05 -3.50888155719E-05 +5.69575740820E-05 -4.08072527815E-05 -6.00669251606E-01 +7.60435224041E-01
1.19000000000E+09 -4.36149218204E-01 +8.35555911465E-01 +4.34743000601E-05 -6.90347446049E-05 +1.32621454718E-04 -9.28292595983E-05 -5.94334129282E-01 +7.63197352610E-01
1.19500000000E+09 -4.29909839289E-01 +8.37506506198E-01 +5.31424528987E-05 -1.07379500537E-04 +8.15530239866E-05 -1.16272761600E-04 -5.88480974436E-01 +7.64498103066E-01
1.20000000000E+09 -4.24625925999E-01 +8.38403566286E-01 -2.85521472971E-05 -1.51350526365E-04 -2.62869955046E-05 -1.48482458747E-04 -5.83831983017E-01 +7.64670841945E-01
1.20500000000E+09 -4.20004199879E-01 +8.39558385796E-01 -7.40953064500E-05 -8.52907158202E-05 -1.18200107339E-04 -1.13967127429E-04 -5.81527299546E-01 +7.65380952539E-01
1.21000000000E+09 -4.15016818878E-01 +8.40653484630E-01 -1.11915333714E-04 -2.46193196325E-05 -1.18540773383E-04 -1.08970129629E-05 -5.79702593846E-01 +7.68433940193E-01
1.21500000000E+09 -4.09040344267E-01 +8.42172110461E-01 -4.97278185157E-05 -4.56174800039E-06 -5.91174302833E-05 +2.90298767009E-05 -5.76935834905E-01 +7.72881033003E-01
1.22000000000E+09 -4.01751129152E-01 +8.44220749808E-01 +7.13336310544E-06 -4.61705748109E-05 -4.05481444319E-05 -1.89407577187E-05 -5.72878269630E-01 +7.78212702026E-01
1.22500000000E+09 -3.93221144935E-01 +8.46726834123E-01 -1.45059859159E-05 -1.24967750907E-05 -1.28785538389E-05 +2.83205194301E-05 -5.67710029871E-01 +7.83459051834E-01
1.23000000000E+09 -3.83705326741E-01 +8.49562795259E-01 -2.86090366611E-06 -3.89028030866E-05 -5.96625510952E-06 -2.83288541178E-05 -5.62085303199E-01 +7.88128730902E-01
1.23500000000E+09 -3.74032954528E-01 +8.52892696322E-01 +4.63687923180E-05 -4.32173309624E-05 +8.91659612981E-06 -8.55796699381E-05 -5.56192524326E-01 +7.92541577215E-01
1.24000000000E+09 -3.64451355475E-01 +8.56365912601E-01 -3.69686418685E-05 +4.92056328564E-06 -6.31611682472E-05 -4.54864341719E-05 -5.50299209800E-01 +7.96518352644E-01
1.24500000000E+09 -3.55943338773E-01 +8.59973583796E-01 -5.11757168764E-05 +1.42098119517E-05 -6.25576740077E-05 -2.76319478543E-05 -5.43803827869E-01 +8.00304465584E-01
1.25000000000E+09 -3.48177790041E-01 +8.62993640624E-01 -5.96443930597E-05 -5.74255768346E-05 -2.71323877871E-05 -6.06633206005E-05 -5.37152136221E-01 +8.04559079937E-01
1.25500000000E+09 -3.41339190285E-01 +8.65081548493E-01 -5.76155665084E-05 -5.67124842134E-05 -5.31543439254E-05 -2.00738993556E-06 -5.30301983451E-01 +8.08523542132E-01
1.26000000000E+09 -3.35201417186E-01 +8.66545705864E-01 -5.24043592262E-05 -2.44423964657E-05 -2.60775117915E-05 -4.89305947236E-06 -5.23528744736E-01 +8.12854659985E-01
1.26500000000E+09 -3.29220122704E-01 +8.67233550372E-01 -3.83440513936E-05 -1.40468552206E-05 -3.78487757693E-05 -1.92185299185E-05 -5.16519331807E-01 +8.16856252816E-01
1.27000000000E+09 -3.22510112434E-01 +8.67815840677E-01 -2.94002811997E-05 -2.33006235353E-05 -7.89843388986E-05 -2.01330549447E-05 -5.09606065145E-01 +8.20638008775E-01
1.27500000000E+09 -3.14606140945E-01 +8.68459759823E-01 -7.56534982023E-05 -6.85199537164E-05 -5.51042929907E-05 -2.77998733663E-05 -5.02624489392E-01 +8.24244342158E-01
1.28000000000E+09 -3.04972981669E-01 +8.69503738461E-01 -7.13181318747E-05 -6.89458406196E-05 -1.30728742780E-04 -5.11688059825E-05 -4.95651314374E-01 +8.27852126437E-01
1.28500000000E+09 -2.93499327285E-01 +8.70952161646E-01 -1.19753944996E-04 -1.77813043607E-05 -9.51358258349E-05 -2.30932333078E-05 -4.88247688145E-01 +8.31419051050E-01
1.29000000000E+09 -2.81438164060E-01 +8.73015792045E-01 -4.48550730058E-05 +6.41769666560E-06 -9.00008262987E-05 +3.89867313981E-06 -4.80745902576E-01 +8.35117846799E-01
1.29500000000E+09 -2.69136451584E-01 +8.75806986583E-01 -7.65405542708E-05 +1.06169304980E-05 -9.24140036087E-05 +2.18084733182E-05 -4.72601314411E-01 +8.38784142349E-01
1.30000000000E+09 -2.57273041720E-01 +8.79170709652E-01 -9.06568089323E-05 +7.88177154649E-05 -1.36905887625E-04 +5.66910364584E-06 -4.64755684230E-01 +8.42404609875E-01
1.30500000000E+09 -2.46682841825E-01 +8.82258942537E-01 -1.22475862300E-04 +5.59562760061E-05 -1.20054248739E-04 +1.78829848060E-05 -4.56498297971E-01 +8.45840076068E-01
1.31000000000E+09 -2.37355125520E-01 +8.84947505924E-01 -1.67731721273E-04 +9.88517087965E-05 -1.25196990886E-04 +2.89014749437E-05 -4.48248514802E-01 +8.49216608380E-01
1.31500000000E+09 -2.29722795939E-01 +8.86543513380E-01 -1.32327707695E-04 +9.57025729082E-05 -1.63669457262E-04 +1.12806126065E-04 -4.39410554180E-01 +8.52682728202E-01
1.32000000000E+09 -2.23405082758E-01 +8.87388439056E-01 -1.00833887292E-04 +1.11583765425E-04 -1.19366412296E-04 +1.26515162233E-04 -4.30105557904E-01 +8.56260210262E-01
1.32500000000E+09 -2.17433222969E-01 +8.87131989211E-01 -6.58325568373E-05 +1.65467987441E-04 -8.73931929519E-05 +1.73151168998E-04 -4.20455278511E-01 +8.59650235539E-01
1.33000000000E+09 -2.10650243791E-01 +8.86566828730E-01 -9.83160455420E-05 +1.52395605419E-04 -4.25787039814E-05 +1.55035215173E-04 -4.10601964535E-01 +8.62974114764E-01
1.33500000000E+09 -2.02124453260E-01 +8.85670328326E-01 -1.81779614601E-05 +1.71081599368E-04 +4.41430772317E-06 +1.77096970373E-04 -4.00609739058E-01 +8.66258057355E-01
1.34000000000E+09 -1.91411474064E-01 +8.84907853237E-01 -4.26350342098E-05 +1.48448229360E-04 -1.98993699541E-05 +1.38031956976E-04 -3.90313342127E-01 +8.69572906662E-01
1.34500000000E+09 -1.78467361468E-01 +8.84233312946E-01 -6.07300410903E-05 +1.68328712107E-04 -5.81623569314E-05 +1.73593103622E-04 -3.79449687285E-01 +8.72879631084E-01
1.35000000000E+09 -1.63461385391E-01 +8.84145322265E-01 -4.96281748737E-05 +2.31716514597E-04 -6.59928944108E-05 +2.21401484666E-04 -3.68319946860E-01 +8.75912269269E-01
1.35500000000E+09 -1.47318055523E-01 +8.84575599888E-01 +1.81704039810E-06 +2.50052483657E-04 -3.39173379706E-06 +2.64530351963E-04 -3.56529185007E-01 +8.78732086992E-01
1.36000000000E+09 -1.31021020098E-01 +8.85177792346E-01 +3.95558419292E-06 +2.55795985473E-04 +1.30148856743E-05 +2.91041511370E-04 -3.44473737837E-01 +8.81434158028E-01
1.36500000000E+09 -1.15373298917E-01 +8.85750039009E-01 +3.11055490759E-05 +3.43203985738E-04 +7.24991826528E-05 +3.30917452787E-04 -3.32259056242E-01 +8.83875798444E-01
1.37000000000E+09 -1.01263936729E-01 +8.85509431103E-01 +1.15265837585E-04 +3.31940634134E-04 +1.01624627537E-04 +3.02400402489E-04 -3.19194074458E-01 +8.86303201863E-01
1.37500000000E+09 -8.90316893605E-02 +8.84732918278E-01 +3.32628404901E-04 +3.37484255305E-04 +2.24824531237E-04 +3.20082084391E-04 -3.05542024639E-01 +8.88395995259E-01
1.38000000000E+09 -7.81762793286E-02 +8.83369132711E-01 +2.64575219890E-04 +1.39676101805E-04 +2.32112921194E-04 +2.02622417472E-04 -2.90939200878E-01 +8.90381564659E-01
1.38500000000E+09 -6.71529351976E-02 +8.81251662772E-01 +2.66748392301E-04 +1.64087104219E-04 +2.70114241329E-04 +2.49920009693E-04 -2.75488617947E-01 +8.92165823968E-01
1.39000000000E+09 -5.54403522335E-02 +8.78138655805E-01 +2.37300705883E-04 +2.17972220608E-04 +2.78686730151E-04 +2.08536050285E-04 -2.59505483867E-01 +8.93501825538E-01
1.39500000000E+09 -4.19427453994E-02 +8.74179160100E-01 +3.33154988161E-04 +2.46174953322E-04 +3.59828862185E-04 +2.30464250192E-04 -2.42829900405E-01 +8.94142306225E-01
1.40000000000E+09 -2.58765952781E-02 +8.69303613778E-01 +4.68370486788E-04 +2.07151654335E-04 +5.58319727979E-04 +1.52635332527E-04 -2.25009571957E-01 +8.94694576218E-01
1.40500000000E+09 -7.93982836908E-03 +8.64075203597E-01 +6.55286479342E-04 +4.87723849275E-05 +5.88123426957E-04 +2.56324416955E-05 -2.06087143747E-01 +8.94238159794E-01
1.41000000000E+09 +1.20569140312E-02 +8.58409312866E-01 +5.73386173756E-04 -1.50125321840E-04 +6.08405801468E-04 -1.47044841283E-04 -1.86169214016E-01 +8.93232646728E-01
1.41500000000E+09 +3.33942772970E-02 +8.52548271386E-01 +4.73482535211E-04 -2.13633891044E-04 +5.21906221020E-04 -1.87443578630E-04 -1.64721628777E-01 +8.91685731473E-01
1.42000000000E+09 +5.58188747392E-02 +8.46343912690E-01 +5.17609894030E-04 -3.24836344819E-04 +5.96426735019E-04 -3.78620998365E-04 -1.42203560431E-01 +8.88816457336E-01
1.42500000000E+09 +7.82795178311E-02 +8.38735516943E-01 +3.94196559731E-04 -4.03669127524E-04 +3.98596450807E-04 -4.96468998411E-04 -1.18635668422E-01 +8.85184512161E-01
1.43000000000E+09 +9.96906674879E-02 +8.29410791437E-01 +3.41146474290E-04 -3.93510921632E-04 +3.25412224815E-04 -4.60828015894E-04 -9.39476404965E-02 +8.80588214144E-01
1.43500000000E+09 +1.20146808382E-01 +8.18256657489E-01 +3.80746396153E-04 -4.97173349779E-04 +3.00559587511E-04 -5.21447810013E-04 -6.75708584827E-02 +8.73997649766E-01
1.44000000000E+09 +1.40495579581E-01 +8.05224226870E-01 +3.41519491879E-04 -5.37504507069E-04 +3.24660753357E-04 -5.64036213966E-04 -3.95609711821E-02 +8.65289547291E-01
1.44500000000E+09 +1.61318402315E-01 +7.90019523701E-01 +3.37658931331E-04 -8.18407887027E-04 +2.76606026613E-04 -8.41763376367E-04 -9.68546089317E-03 +8.53817680574E-01
1.45000000000E+09 +1.83988515557E-01 +7.71595736382E-01 -5.51965403816E-05 -8.61527168198E-04 -1.36572388025E-04 -9.03282734658E-04 +2.18440424892E-02 +8.39465939460E-01
1.45500000000E+09 +2.07860050866E-01 +7.49806817444E-01 -2.49470515591E-04 -7.31062016909E-04 -3.09556485108E-04 -7.25164195981E-04 +5.48737086179E-02 +8.21663377408E-01
1.46000000000E+09 +2.34037669772E-01 +7.24842507844E-01 -3.94858456601E-04 -6.89123068669E-04 -4.64668512426E-04 -5.50290753979E-04 +8.91822448443E-02 +8.00169417728E-01
1.46500000000E+09 +2.62032826449E-01 +6.96142964598E-01 -3.94822067742E-04 -4.34091244643E-04 -4.27142751031E-04 -3.18349494795E-04 +1.24903431671E-01 +7.73946922875E-01
1.47000000000E+09 +2.90919920083E-01 +6.63167572603E-01 -1.76538893620E-04 -4.00070271095E-04 -1.68937769836E-04 -3.00798395989E-04 +1.61886393565E-01 +7.41006737535E-01
1.47500000000E+09 +3.19423324291E-01 +6.25291025235E-01 -2.23630497800E-04 -6.60334133871E-04 -1.88448049525E-04 -6.68973826893E-04 +1.99050010238E-01 +7.01025319349E-01
1.48000000000E+09 +3.45177622692E-01 +5.81607629113E-01 -6.06844864312E-04 -8.56877610703E-04 -5.66008034923E-04 -8.81733455888E-04 +2.35706996773E-01 +6.52362803371E-01
1.48500000000E+09 +3.66995329230E-01 +5.32425225781E-01 -9.04654066094E-04 -6.93971521335E-04 -9.49163454280E-04 -6.82411303434E-04 +2.69970023658E-01 +5.94364323185E-01
1.49000000000E+09 +3.83635700831E-01 +4.76091715913E-01 -1.28835084554E-03 -2.90886320940E-04 -1.29117499536E-03 -2.02357466865E-04 +2.98514401348E-01 +5.26150110102E-01
1.49500000000E+09 +3.93453335281E-01 +4.12454173735E-01 -1.16122825752E-03 +1.70091277939E-05 -1.08402191601E-03 +9.08007677496E-05 +3.18888549265E-01 +4.47407298102E-01
1.50000000000E+09 +3.94606793776E-01 +3.39741388995E-01 -1.07894087925E-03 +3.24476058494E-04 -1.00068161031E-03 +3.28900298415E-04 +3.26233049037E-01 +3.58326773410E-01
1.50500000000E+09 +3.83295080989E-01 +2.59309486947E-01 -8.21413459879E-04 +6.58114680376E-04 -8.05055709905E-04 +5.79929933706E-04 +3.15586426845E-01 +2.61159991727E-01
1.51000000000E+09 +3.57890879178E-01 +1.74002007404E-01 -5.04320967010E-04 +4.46812754274E-04 -5.67816877367E-04 +4.62566880671E-04 +2.84486336274E-01 +1.62135802912E-01
1.51500000000E+09 +3.16494045241E-01 +8.70529523576E-02 -7.01286421227E-04 +5.07330607161E-04 -7.30980784716E-04 +4.75893454861E-04 +2.33813013597E-01 +6.44825658890E-02
1.52000000000E+09 +2.54643692957E-01 +4.24990000258E-03 -7.24740680185E-04 +4.83287002448E-04 -7.63971180628E-04 +4.18496817044E-04 +1.59405296388E-01 -2.44385963481E-02
1.52500000000E+09 +1.75944301755E-01 -6.47305495576E-02 -9.33342125736E-04 +1.10025814985E-03 -9.85042705671E-04 +1.09412843023E-03 +6.49756087829E-02 -9.48223262118E-02
1.53000000000E+09 +8.28786033154E-02 -1.16289177927E-01 -7.21052849770E-04 +1.73032475925E-03 -7.89402028089E-04 +1.79401882672E-03 -4.02922684648E-02 -1.42258925916E-01
1.53500000000E+09 -1.96607509467E-02 -1.45426793758E-01 +1.10652040926E-03 +2.09207776442E-03 +1.13315938708E-03 +2.10895432732E-03 -1.51993607093E-01 -1.66890229437E-01
1.54000000000E+09 -1.26593038240E-01 -1.49274461914E-01 +1.23001429867E-03 +6.09640009464E-04 +1.20154108801E-03 +6.67754302964E-04 -2.63382296287E-01 -1.65570069443E-01
1.54500000000E+09 -2.29234775446E-01 -1.29645517354E-01 +9.99790121309E-04 +3.37157135526E-04 +9.90036090255E-04 +3.03897083566E-04 -3.62921914102E-01 -1.43870053804E-01
1.55000000000E+09 -3.22005064746E-01 -9.11690390022E-02 +7.75451167908E-04 -1.59378358052E-04 +8.50003646298E-04 -1.17089068726E-04 -4.51062683022E-01 -1.08213814583E-01
1.55500000000E+09 -4.01075787281E-01 -4.04053404578E-02 +1.74333207852E-04 -2.30847520081E-04 +1.92633011405E-04 -1.94258859735E-04 -5.24525922648E-01 -6.07345760853E-02
1.56000000000E+09 -4.65438630561E-01 +1.59967935391E-02 +1.46977357654E-04 +6.07076495469E-04 +1.93080032881E-04 +6.23607221304E-04 -5.83473367712E-01 -7.92213635197E-03
1.56500000000E+09 -5.17068140228E-01 +7.37831662966E-02 +8.59827790156E-04 +5.49148659677E-04 +9.24459841904E-04 +5.58892479353E-04 -6.29646384963E-01 +4.83028435513E-02
1.57000000000E+09 -5.56248524279E-01 +1.30833837735E-01 +1.25972395660E-03 -3.93182944036E-04 +1.35920415779E-03 -4.10787711581E-04 -6.64663377731E-01 +1.03954603498E-01
