# Hz S RI R 50
! CMT, C1220, 16058040, 17.2.0/1
! Date: 14/08/2018 12:19:38
! Data: Format (Calibration Info)
! Freq                      S11: Re/Im (F2)                       S21: Re/Im (F2)                       S12: Re/Im (F2)                       S22: Re/Im (F2)            
1.00000000000E+09 -6.42746854247E-01 +7.16302499499E-01 -1.57612813320E-06 +1.79568258325E-05 +4.48560453553E-05 +9.53597737288E-06 -7.48036765936E-01 +6.24009079442E-01
1.00500000000E+09 -6.35442534967E-01 +7.21519755449E-01 +5.50536018070E-06 -9.90258107918E-06 +3.47896523899E-06 +2.87832198318E-05 -7.44413683634E-01 +6.28148257652E-01
1.01000000000E+09 -6.29637844549E-01 +7.26167825826E-01 +2.88704946509E-05 +5.78396217441E-05 +9.07922108618E-06 -2.95031929575E-05 -7.40900578121E-01 +6.31901344839E-01
1.01500000000E+09 -6.25251392106E-01 +7.29987600431E-01 +3.91958553172E-05 -4.32991086041E-05 +6.14376133092E-06 -2.53978877689E-05 -7.37630161141E-01 +6.35508126918E-01
1.02000000000E+09 -6.22712560529E-01 +7.33100244565E-01 +2.03494747907E-05 -2.96387231961E-05 +1.00135823078E-05 -3.70255039094E-05 -7.34106617424E-01 +6.39026539103E-01
1.02500000000E+09 -6.21210475929E-01 +7.35552479647E-01 -1.89496427253E-06 +1.11585792936E-05 +1.52223136555E-05 +7.37609235956E-06 -7.31221147430E-01 +6.42674994038E-01
1.03000000000E+09 -6.19931124556E-01 +7.37857026616E-01 +2.68247353541E-05 +1.37207993632E-05 +2.06046785502E-07 -2.14880208825E-05 -7.27665751590E-01 +6.46371975522E-01
1.03500000000E+09 -6.17941419476E-01 +7.40060513491E-01 +3.45486255789E-06 +1.39243759544E-05 -1.78333740239E-05 +1.77326829864E-05 -7.24039783419E-01 +6.50367854380E-01
1.04000000000E+09 -6.14421115914E-01 +7.42788260870E-01 -3.13574236707E-06 +2.61884915595E-05 +2.46651033896E-05 +3.32540436163E-05 -7.20225696247E-01 +6.54110951921E-01
1.04500000000E+09 -6.09174247479E-01 +7.46108152599E-01 -7.88743880999E-05 +9.02901469720E-06 -2.59174018708E-05 -3.54574872384E-05 -7.16750949584E-01 +6.57609970157E-01
1.05000000000E+09 -6.01789953369E-01 +7.50401397610E-01 -1.62887891050E-05 +2.49099056330E-05 +4.71313484781E-05 -1.80226297983E-05 -7.13375661113E-01 +6.60920989829E-01
1.05500000000E+09 -5.92831204853E-01 +7.55033602743E-01 +1.52602988068E-05 +1.16784732902E-05 -1.16975235404E-05 +1.29571393659E-05 -7.10048747122E-01 +6.64530013001E-01
1.06000000000E+09 -5.83504476156E-01 +7.60200259554E-01 +2.79620260099E-05 +1.43816832756E-05 +2.78177370903E-05 +2.94423318204E-05 -7.06886328754E-01 +6.68227405486E-01
1.06500000000E+09 -5.74027815868E-01 +7.65278450815E-01 +1.77843995190E-06 +2.16762195442E-05 +3.16282070692E-05 +3.51666724454E-05 -7.03102074753E-01 +6.71979528978E-01
1.07000000000E+09 -5.66064223252E-01 +7.69874603370E-01 +1.59865457895E-05 +3.66064387781E-05 +8.54403063457E-06 +1.03722045687E-05 -6.98860117209E-01 +6.75735128664E-01
1.07500000000E+09 -5.59557260856E-01 +7.73655148238E-01 +3.12519665290E-05 +4.01817299779E-05 +4.77046897047E-05 +9.76688871725E-06 -6.94601741518E-01 +6.79253619881E-01
1.08000000000E+09 -5.55142816939E-01 +7.76793908301E-01 +5.67596210813E-05 -4.53455648668E-06 -1.49731701141E-06 +1.82897666515E-05 -6.90716675875E-01 +6.82983899372E-01
1.08500000000E+09 -5.52220528819E-01 +7.79275425849E-01 +2.91027059234E-05 -3.84328788191E-06 -4.55508684525E-05 -1.22985415448E-05 -6.86751174361E-01 +6.86810734783E-01
1.09000000000E+09 -5.50153756105E-01 +7.81324486762E-01 +3.41212723607E-05 +1.29902459740E-05 +2.87531996740E-05 +3.16568823566E-07 -6.82979648583E-01 +6.90601313165E-01
1.09500000000E+09 -5.48425040713E-01 +7.83055060358E-01 +2.88497009671E-06 +7.02256280909E-06 +4.35024250737E-05 +3.08643056746E-05 -6.79039185752E-01 +6.94647564828E-01
1.10000000000E+09 -5.45330767447E-01 +7.84986306742E-01 +9.71289250734E-06 +1.94388421321E-05 +4.72540516708E-05 -1.06431021781E-05 -6.75043758000E-01 +6.98274545832E-01
1.10500000000E+09 -5.41273643606E-01 +7.87545847293E-01 +1.07293970972E-05 +2.55535755854E-05 +1.51131722343E-05 -9.26125957420E-06 -6.70803110429E-01 +7.01855892872E-01
1.11000000000E+09 -5.35481900261E-01 +7.90584020041E-01 +2.04979001231E-05 -7.40306999093E-05 +5.19525793735E-05 -1.25581161014E-07 -6.66591807228E-01 +7.05267525388E-01
1.11500000000E+09 -5.28217833424E-01 +7.94526403568E-01 -1.29268274138E-09 -1.68263792859E-05 +7.28818354394E-05 -3.54000841712E-05 -6.62539583108E-01 +7.08662240964E-01
1.12000000000E+09 -5.20337828608E-01 +7.98507395953E-01 +1.19805123170E-05 -4.07014975304E-05 -1.44261959399E-05 +2.36716052512E-05 -6.58552101666E-01 +7.12194856550E-01
1.12500000000E+09 -5.11957558541E-01 +8.02473535243E-01 +2.15993581969E-05 -1.24614333418E-05 +3.46440234064E-05 +2.79916463353E-05 -6.54303378369E-01 +7.16083420938E-01
1.13000000000E+09 -5.04493648695E-01 +8.06176933478E-01 +5.87889207828E-06 -4.06423385957E-05 +1.40776361949E-05 -6.79142222804E-05 -6.49987946647E-01 +7.19833251577E-01
1.13500000000E+09 -4.97780251259E-01 +8.08994772392E-01 +1.58520257558E-05 -2.54386225730E-05 -1.47183740943E-05 -5.76119293542E-05 -6.45397042149E-01 +7.23526540846E-01
1.14000000000E+09 -4.92350945673E-01 +8.11520975629E-01 +1.09990773292E-05 -6.01658505973E-06 +1.19224380181E-05 +1.10299942275E-05 -6.40760801551E-01 +7.27020177943E-01
1.14500000000E+09 -4.88236159983E-01 +8.12935486343E-01 +3.45028875374E-05 -7.63781708386E-05 +1.60843960997E-06 -2.02916299007E-06 -6.36125334276E-01 +7.30352610013E-01
1.15000000000E+09 -4.84350333581E-01 +8.14346049828E-01 -3.21825994865E-05 -1.92650820771E-05 +2.11535202251E-05 -3.59417311212E-05 -6.31535970959E-01 +7.34119387654E-01
1.15500000000E+09 -4.80300909854E-01 +8.15964074634E-01 -3.69199151083E-05 -2.18108212958E-05 -2.98019953468E-05 -4.70810672528E-05 -6.26742561756E-01 +7.37844461912E-01
1.16000000000E+09 -4.75451426237E-01 +8.17615333150E-01 -3.15030791587E-05 +5.90428615843E-06 -1.68716003927E-05 -1.89513469185E-05 -6.21993613035E-01 +7.41845102626E-01
1.16500000000E+09 -4.69392334320E-01 +8.20176048661E-01 -8.85920284577E-06 +6.37692917341E-06 -3.24349437091E-05 -4.16044456333E-05 -6.16896770018E-01 +7.45382655174E-01
1.17000000000E+09 -4.62136405175E-01 +8.23227380721E-01 +1.87642753538E-05 -4.13028888381E-05 +7.45171865447E-07 +3.12598287345E-05 -6.11528430055E-01 +7.48614340614E-01
1.17500000000E+09 -4.54087992923E-01 +8.26346224031E-01 +1.56378030204E-06 -6.00454087039E-05 +3.08042117213E-05 -4.58598801810E-05 -6.05763623320E-01 +7.51842308996E-01
1.18000000000E+09 -4.45706684566E-01 +8.30062413454E-01 -2.31320505788E-05 -7.87448087339E-05 -3.93757303694E-05 -2.93176198154E-05 -6.00260314967E-01 +7.54996317919E-01
1.18500000000E+09 -4.37681325911E-01 +8.33254634010E-01 -3.73045967947E-05 +6.22352685215E-06 +4.18067853344E-05 -7.25258653611E-05 -5.94318848997E-01 +7.58026774663E-01
1.19000000000E+09 -4.30399588736E-01 +8.35907929789E-01 +1.53855599413E-05 -3.66979329025E-05 -6.87113721348E-05 -7.19658983848E-05 -5.88172427844E-01 +7.60589749962E-01
1.19500000000E+09 -4.24257904129E-01 +8.37723623359E-01 -3.62288289535E-05 -1.02694068009E-04 +1.73031954034E-06 -6.63674768724E-05 -5.82182819764E-01 +7.61869746166E-01
1.20000000000E+09 -4.19305630728E-01 +8.38508893852E-01 -9.83325795326E-05 -6.40350469106E-05 -9.31264816212E-05 -1.11566495947E-05 -5.77698138052E-01 +7.62016469531E-01
1.20500000000E+09 -4.14895667881E-01 +8.39484238688E-01 -4.36289390982E-05 +4.96753881364E-05 -8.11903749391E-05 +4.62504967665E-05 -5.75366917235E-01 +7.62866548536E-01
1.21000000000E+09 -4.09985333257E-01 +8.40419059869E-01 -3.56834905701E-05 +1.65626742319E-05 -7.81355223146E-06 +2.57672812818E-05 -5.73641720373E-01 +7.65902348886E-01
1.21500000000E+09 -4.03739800769E-01 +8.41543820605E-01 +3.53746099392E-05 +3.54885599759E-05 -7.42528021098E-06 -1.77499025215E-05 -5.70736741096E-01 +7.70407647954E-01
1.22000000000E+09 -3.96150260281E-01 +8.43076360028E-01 +3.25489667100E-05 -7.07084469581E-06 -2.08429666303E-06 +1.85661944172E-05 -5.66564696016E-01 +7.75803367357E-01
1.22500000000E+09 -3.86517375671E-01 +8.45362025569E-01 -1.48732046179E-06 +1.02478367604E-05 -1.49595280367E-06 -2.41695541689E-05 -5.61476395691E-01 +7.80748058413E-01
1.23000000000E+09 -3.75840018863E-01 +8.48048679121E-01 +6.47525491577E-06 +1.98519585438E-05 -1.60251108819E-05 +3.46311674225E-06 -5.55829205885E-01 +7.85444994947E-01
1.23500000000E+09 -3.64653020719E-01 +8.51453914007E-01 +1.09758383680E-05 -4.45028486475E-05 +3.08144986460E-06 -1.88910142045E-05 -5.50045492460E-01 +7.89764836122E-01
1.24000000000E+09 -3.53583716266E-01 +8.54971436781E-01 +3.61090116762E-05 -1.86959650550E-05 -1.07925895284E-06 -2.11855463503E-05 -5.44050534498E-01 +7.93609841758E-01
1.24500000000E+09 -3.43750010798E-01 +8.58841867354E-01 -1.86456118361E-05 -5.90884188386E-05 -1.06637259169E-05 -3.85419999049E-05 -5.37704740553E-01 +7.97346486366E-01
1.25000000000E+09 -3.35158246719E-01 +8.61975008276E-01 -7.27341904696E-05 -3.80524091891E-05 -2.57692349531E-05 -6.24929656693E-05 -5.31234173099E-01 +8.01502874848E-01
1.25500000000E+09 -3.28236096829E-01 +8.64278312634E-01 -4.49731797347E-05 +8.52111519604E-07 -4.25103484112E-05 -3.52276628649E-05 -5.24308045106E-01 +8.05496448453E-01
1.26000000000E+09 -3.22548349982E-01 +8.65775069978E-01 -5.37628265310E-05 -4.05780306656E-05 -4.72641868460E-05 -1.45229300636E-05 -5.17734770705E-01 +8.09772593936E-01
1.26500000000E+09 -3.17625513317E-01 +8.66832500193E-01 -7.09185743727E-05 -6.02006835781E-06 -5.94276810244E-05 +2.40642053724E-05 -5.10634993247E-01 +8.13562113386E-01
1.27000000000E+09 -3.12379526708E-01 +8.67487082974E-01 -1.01414529197E-04 +2.00649856266E-05 -5.50906631867E-05 +1.91682918103E-05 -5.03990771949E-01 +8.17423029228E-01
1.27500000000E+09 -3.05925353125E-01 +8.68162435773E-01 -7.66188276495E-05 +4.95865223419E-05 -1.01335283727E-04 +4.86551634752E-05 -4.96852804163E-01 +8.20909307382E-01
1.28000000000E+09 -2.97755164094E-01 +8.69301593413E-01 -6.46459769652E-05 +1.16118965217E-05 -8.66127911155E-05 -1.67156520548E-05 -4.89846625904E-01 +8.24332965167E-01
1.28500000000E+09 -2.87339524060E-01 +8.70865902344E-01 -4.17920965982E-05 +6.07170120265E-05 -1.01249768374E-04 +6.27121842365E-05 -4.82483215261E-01 +8.27999314010E-01
1.29000000000E+09 -2.75662352279E-01 +8.72919758571E-01 -6.38121486421E-05 +4.69969442752E-05 -6.95723385891E-05 +7.12294434930E-05 -4.74925416701E-01 +8.31596050833E-01
1.29500000000E+09 -2.63180199103E-01 +8.75693797365E-01 -5.12621864522E-05 +1.56877404471E-04 -6.79583653208E-05 +1.08322269171E-04 -4.67084794616E-01 +8.35187306468E-01
1.30000000000E+09 -2.50636380222E-01 +8.78968830556E-01 -1.11870042243E-05 +1.19529183506E-04 -5.43854183102E-05 +4.79788640691E-05 -4.59370398555E-01 +8.38504235690E-01
1.30500000000E+09 -2.39018637044E-01 +8.82066476771E-01 -5.56230931674E-05 +7.67283139601E-05 -7.06050648473E-05 +1.35132150700E-04 -4.51258744498E-01 +8.41905265718E-01
1.31000000000E+09 -2.28965627514E-01 +8.84168321291E-01 +2.17672619272E-05 +1.26336587671E-04 -2.19268376836E-05 +1.43538642619E-04 -4.43027697909E-01 +8.45395315531E-01
1.31500000000E+09 -2.20810863114E-01 +8.85424013720E-01 +1.02977238586E-05 +1.05075374140E-04 +5.20252427624E-05 +1.54966699974E-04 -4.34256972411E-01 +8.48733493262E-01
1.32000000000E+09 -2.14151494031E-01 +8.85769425128E-01 -9.97152993809E-06 +7.42773189678E-05 +3.02761173089E-05 +5.78767910083E-05 -4.25236383519E-01 +8.52152333637E-01
1.32500000000E+09 -2.08185998978E-01 +8.85391781117E-01 -1.32834408122E-05 +3.65194090744E-05 +3.39332019579E-05 +6.30526295779E-05 -4.15685795923E-01 +8.55485960503E-01
1.33000000000E+09 -2.01331239100E-01 +8.84416308663E-01 +3.22482429859E-06 +9.18027439633E-05 +7.73330093056E-05 +1.31924629688E-04 -4.06063015657E-01 +8.58771978912E-01
1.33500000000E+09 -1.92843753586E-01 +8.83102755398E-01 -4.75449454310E-06 +8.73481828147E-05 +5.06135091423E-06 +9.34719147247E-05 -3.96274892682E-01 +8.62037688035E-01
1.34000000000E+09 -1.81920297980E-01 +8.82007986907E-01 +1.41696674249E-05 +5.07702475837E-05 +7.16911436426E-05 +8.15748018385E-05 -3.86139054379E-01 +8.65454351849E-01
1.34500000000E+09 -1.68512482664E-01 +8.81084367593E-01 +6.11291090474E-05 +3.60572564502E-05 +3.41617254943E-05 +4.91375685026E-05 -3.75274235829E-01 +8.68771056125E-01
1.35000000000E+09 -1.53051495148E-01 +8.80612187977E-01 -1.66469049315E-05 +3.92522210677E-05 +1.05657768986E-05 +3.49565844121E-05 -3.64245290387E-01 +8.71778036013E-01
1.35500000000E+09 -1.36423457695E-01 +8.80814507204E-01 +1.71004693248E-05 +7.26546711602E-05 -1.05689604765E-07 +7.21140290631E-05 -3.52672380125E-01 +8.74657170185E-01
1.36000000000E+09 -1.19619079507E-01 +8.81194852259E-01 +8.45993662078E-07 +3.56100331828E-05 +6.42308333084E-06 +3.98108497195E-05 -3.40801144841E-01 +8.77497940461E-01
1.36500000000E+09 -1.03567410976E-01 +8.81400841732E-01 -1.15342219895E-05 +6.06191152640E-05 -2.07189331840E-05 +7.33636803408E-05 -3.28852605611E-01 +8.79716650752E-01
1.37000000000E+09 -8.92251177552E-02 +8.81165256803E-01 +1.24746787963E-06 +1.32350700262E-04 +2.76109263393E-05 +1.45139573170E-04 -3.15879581914E-01 +8.82138790502E-01
1.37500000000E+09 -7.71263314981E-02 +8.80509396991E-01 +5.00519249467E-05 +1.76910519339E-04 -1.75939396451E-05 +1.31838848105E-04 -3.02354510479E-01 +8.84237518327E-01
1.38000000000E+09 -6.62305423648E-02 +8.79202793158E-01 +8.75047398456E-05 +1.82733295546E-04 +1.00678269917E-04 +1.80969540383E-04 -2.87814655365E-01 +8.86413125996E-01
1.38500000000E+09 -5.53887980475E-02 +8.76956455264E-01 +1.56037434270E-04 +8.13386000931E-05 +1.59718751230E-04 +1.44862363842E-04 -2.72329350827E-01 +8.88190389943E-01
1.39000000000E+09 -4.40154533271E-02 +8.73745194583E-01 +1.32994702612E-04 +1.33125705075E-04 +1.27755207444E-04 +1.60441731352E-04 -2.56409577450E-01 +8.89627716015E-01
1.39500000000E+09 -3.06079938987E-02 +8.69801286465E-01 +2.42806862894E-04 +1.52076634699E-04 +2.63470879738E-04 +1.27788883299E-04 -2.39702406772E-01 +8.90366021712E-01
1.40000000000E+09 -1.45999362959E-02 +8.64895193776E-01 +2.36762898757E-04 +6.72109425006E-05 +2.61256132972E-04 +9.08798711587E-06 -2.22239209287E-01 +8.90948111198E-01
1.40500000000E+09 +3.79090899371E-03 +8.59403107261E-01 +2.41432503778E-04 -6.59620247132E-05 +2.30724859909E-04 -9.96445926210E-05 -2.03651704307E-01 +8.90864406233E-01
1.41000000000E+09 +2.40835121856E-02 +8.53614000521E-01 +1.68567673921E-04 +9.77070244676E-06 +1.38544460124E-04 -2.92999617446E-05 -1.83440239806E-01 +8.90180987773E-01
1.41500000000E+09 +4.57552806765E-02 +8.47625161550E-01 +1.66828261595E-04 +2.89823270720E-05 +1.68034540196E-04 +3.63642978700E-05 -1.61820382068E-01 +8.88493687490E-01
1.42000000000E+09 +6.81876928226E-02 +8.41168657270E-01 +3.44829993292E-04 +5.91517572685E-05 +3.26128683816E-04 +5.12631994654E-05 -1.39183915821E-01 +8.85851982483E-01
1.42500000000E+09 +9.00736456453E-02 +8.33522224075E-01 +3.95776597298E-04 -1.28699025557E-04 +4.46376272618E-04 -1.65774838196E-04 -1.15493206744E-01 +8.82294856169E-01
1.43000000000E+09 +1.10250150441E-01 +8.24592936440E-01 +2.04350850609E-04 -3.15766895773E-04 +1.83914079497E-04 -3.11393936653E-04 -9.09249330449E-02 +8.77542802084E-01
1.43500000000E+09 +1.29287314655E-01 +8.14338813008E-01 +6.80172717307E-05 -2.53404256173E-04 -2.02828366209E-05 -2.62554868159E-04 -6.46319735769E-02 +8.70992588924E-01
1.44000000000E+09 +1.48070012390E-01 +8.02469895032E-01 -4.57643214489E-05 -5.78586663079E-05 -7.69023095106E-05 -8.54057839511E-05 -3.66505106254E-02 +8.62224285059E-01
1.44500000000E+09 +1.67793173639E-01 +7.87894345967E-01 +1.68810753408E-04 +1.07341382447E-04 +1.53036805207E-04 +1.02557347262E-04 -6.85987325965E-03 +8.50808601498E-01
1.45000000000E+09 +1.89237478188E-01 +7.69995486041E-01 +4.24191018081E-04 -8.71227297041E-05 +4.77648613511E-04 -9.77519055231E-05 +2.50644180645E-02 +8.36624581904E-01
1.45500000000E+09 +2.13554482802E-01 +7.48330437844E-01 +1.98140640935E-04 -2.74759381266E-04 +1.56116959492E-04 -2.35327506244E-04 +5.84730805595E-02 +8.18822606168E-01
1.46000000000E+09 +2.40605201848E-01 +7.22032516063E-01 +2.72775372886E-04 +4.87296021774E-06 +2.06825136363E-04 +2.03301975480E-05 +9.30071724512E-02 +7.96848105578E-01
1.46500000000E+09 +2.69361492820E-01 +6.91458558489E-01 +4.52649730933E-04 -1.91591629414E-04 +4.32005800622E-04 -1.90786568150E-04 +1.28536251136E-01 +7.70612998074E-01
1.47000000000E+09 +2.99698766198E-01 +6.56472484631E-01 +6.11120732222E-04 -2.80985949729E-04 +5.12198706578E-04 -2.19502974552E-04 +1.65792327313E-01 +7.37116092225E-01
1.47500000000E+09 +3.29248714595E-01 +6.16246261017E-01 +6.41326998816E-04 -5.45874742413E-04 +5.89514366105E-04 -4.76880980675E-04 +2.02771239112E-01 +6.96273101581E-01
1.48000000000E+09 +3.55950844586E-01 +5.70622643191E-01 +4.52939104992E-04 -7.13081674633E-04 +4.97479697526E-04 -6.96438400973E-04 +2.39210204278E-01 +6.47068799622E-01
1.48500000000E+09 +3.78641584404E-01 +5.19342455023E-01 +4.77088669523E-04 -7.24193663003E-04 +4.97006321254E-04 -7.51118225730E-04 +2.73497439828E-01 +5.88687209187E-01
1.49000000000E+09 +3.95383898002E-01 +4.61615574257E-01 +8.05319449280E-04 -9.55448278496E-04 +7.83676170896E-04 -9.36077983618E-04 +3.01999426318E-01 +5.18854995582E-01
1.49500000000E+09 +4.04024010186E-01 +3.96491469544E-01 +8.85373232157E-04 -2.14930570535E-03 +7.44085809485E-04 -2.09992143596E-03 +3.20556740280E-01 +4.39065199126E-01
1.50000000000E+09 +4.02300569238E-01 +3.23449010259E-01 -6.30727507255E-04 -2.96084895152E-03 -6.01395276850E-04 -2.81240983741E-03 +3.25387017785E-01 +3.49496670108E-01
1.50500000000E+09 +3.88700635070E-01 +2.44600489476E-01 -2.02016646268E-03 -2.40280652340E-03 -1.86346624364E-03 -2.35847799727E-03 +3.13977630238E-01 +2.53581595245E-01
1.51000000000E+09 +3.61618502470E-01 +1.60248148149E-01 -2.56737874683E-03 -1.38901050987E-03 -2.46978670842E-03 -1.45487571767E-03 +2.81988440958E-01 +1.52937263955E-01
1.51500000000E+09 +3.17420712429E-01 +7.42392691627E-02 -2.85845860753E-03 -1.02773595523E-03 -2.86719426707E-03 -1.07616169760E-03 +2.27298999824E-01 +5.51904612260E-02
1.52000000000E+09 +2.54928691452E-01 -6.55255040263E-03 -3.32514797679E-03 +4.22466627644E-04 -3.36707350296E-03 +3.88436004451E-04 +1.50280257940E-01 -3.09476672743E-02
1.52500000000E+09 +1.75006447337E-01 -7.56697135099E-02 -2.56306115623E-03 +8.42665074709E-04 -2.65502337509E-03 +8.23789778083E-04 +5.41917578121E-02 -9.94299033857E-02
1.53000000000E+09 +7.95740431433E-02 -1.25086839760E-01 -2.56659835771E-03 +1.57190366516E-03 -2.62539124291E-03 +1.60540649808E-03 -5.32284653379E-02 -1.43035033178E-01
1.53500000000E+09 -2.30688891447E-02 -1.50836579027E-01 -2.44893472776E-03 +2.20353333563E-03 -2.46176004644E-03 +2.20661083055E-03 -1.65008532517E-01 -1.62089880186E-01
1.54000000000E+09 -1.28060765978E-01 -1.52391801248E-01 -1.90322618490E-03 +3.15819938170E-03 -1.90792689598E-03 +3.11756459401E-03 -2.73112329509E-01 -1.58480017882E-01
1.54500000000E+09 -2.28411382466E-01 -1.31019604994E-01 -5.91929397438E-04 +4.20483975363E-03 -6.17573343626E-04 +4.15334719511E-03 -3.72030129745E-01 -1.34250078950E-01
1.55000000000E+09 -3.20278215598E-01 -9.26379133009E-02 +1.32605116795E-03 +3.44259117699E-03 +1.25887368359E-03 +3.45952353109E-03 -4.56679610542E-01 -9.61555014209E-02
1.55500000000E+09 -3.99792332500E-01 -4.02383253629E-02 +1.87491889522E-03 +2.49753323398E-03 +1.80498380035E-03 +2.63237697703E-03 -5.27194994607E-01 -4.83955821943E-02
1.56000000000E+09 -4.64122826334E-01 +1.77338742330E-02 +2.18476811615E-03 +1.57963414163E-03 +2.21332719725E-03 +1.71770045092E-03 -5.83763188122E-01 +5.07468288254E-03
1.56500000000E+09 -5.15782653428E-01 +7.70754665128E-02 +1.95906016254E-03 +1.04796504902E-03 +2.05182627377E-03 +1.08094412384E-03 -6.27721546973E-01 +6.06381528051E-02
1.57000000000E+09 -5.55346914186E-01 +1.35922213029E-01 +1.87702971600E-03 +6.25736640484E-04 +1.98572832768E-03 +6.53097849044E-04 -6.61133931762E-01 +1.16283172490E-01
