# Hz S RI R 50
! CMT, C1220, 16058040, 17.2.0/1
! Date: 14/08/2018 12:38:59
! Data: Format (Calibration Info)
! Freq                      S11: Re/Im (F2)                       S21: Re/Im (F2)                       S12: Re/Im (F2)                       S22: Re/Im (F2)            
1.00000000000E+09 -6.47598767377E-01 +7.14601699978E-01 -7.06637284154E-06 +3.51233065065E-05 -1.24006990469E-05 -4.93401938166E-05 -6.70490631393E-01 +5.39664295243E-01
1.00500000000E+09 -6.40624143899E-01 +7.19650745824E-01 -8.31429102576E-06 +6.03995699057E-05 +2.11347502734E-05 +1.33415042351E-05 -6.67301111170E-01 +5.43189316966E-01
1.01000000000E+09 -6.34586512314E-01 +7.24347145566E-01 -3.77912563224E-05 -9.47622725318E-06 +4.33301293693E-05 +1.18575114772E-06 -6.64233443031E-01 +5.46473219615E-01
1.01500000000E+09 -6.30200134945E-01 +7.28320401767E-01 -5.54670609872E-05 -3.28036957467E-05 -4.81397772213E-05 +4.46131513341E-06 -6.61657925465E-01 +5.49755681563E-01
1.02000000000E+09 -6.26943447872E-01 +7.31803804867E-01 -2.09939550294E-05 -3.52302667794E-05 -3.90298437400E-05 -5.55300481836E-06 -6.59149868422E-01 +5.52608976924E-01
1.02500000000E+09 -6.24529660897E-01 +7.34698205568E-01 +1.67870842117E-05 -6.83664872280E-06 +5.93275579219E-06 +1.58162954227E-05 -6.56832823064E-01 +5.55887691435E-01
1.03000000000E+09 -6.22671253313E-01 +7.37009920363E-01 -4.24663490176E-05 +1.64185901479E-05 -7.82565228548E-05 +7.30881260181E-05 -6.54220870692E-01 +5.59373122979E-01
1.03500000000E+09 -6.20296115459E-01 +7.39457145114E-01 -5.77447168712E-05 +1.62988513434E-05 -5.30597127676E-06 -4.09418704455E-06 -6.51228576729E-01 +5.63116629801E-01
1.04000000000E+09 -6.16747104921E-01 +7.41994128037E-01 -4.63942980561E-05 +5.88639019291E-07 -1.18520739155E-06 +5.71893791560E-05 -6.48195192766E-01 +5.66491583080E-01
1.04500000000E+09 -6.11851699974E-01 +7.45416775540E-01 -3.35149115933E-06 +3.86935436503E-05 -2.61023406208E-05 +6.40028919093E-05 -6.45462348137E-01 +5.69743888880E-01
1.05000000000E+09 -6.05287162048E-01 +7.49550603606E-01 +3.35596448963E-05 +1.35612632959E-05 -3.74873611437E-06 +4.90877680684E-05 -6.42504777583E-01 +5.72874349738E-01
1.05500000000E+09 -5.97529678532E-01 +7.54104825355E-01 -3.33793878627E-05 +5.01734921426E-05 +1.51597767689E-05 +1.92832727162E-07 -6.39949243407E-01 +5.76375575563E-01
1.06000000000E+09 -5.89140706325E-01 +7.59186888508E-01 +7.43666016584E-05 +3.63663527499E-05 +3.11296738976E-05 +1.65431303743E-05 -6.37426233957E-01 +5.79793936058E-01
1.06500000000E+09 -5.81148815463E-01 +7.64069726920E-01 -2.20241076384E-05 -4.58517218746E-06 +3.44042504063E-05 -1.73999628335E-05 -6.34220225162E-01 +5.83285902625E-01
1.07000000000E+09 -5.73978242242E-01 +7.68475914216E-01 +1.68453031221E-05 +7.69813659686E-05 +4.99800973395E-06 +4.13763372195E-05 -6.30931619266E-01 +5.86940354591E-01
1.07500000000E+09 -5.68221622538E-01 +7.72331592765E-01 -1.43049476988E-05 -2.30644483981E-06 +2.88896740695E-05 +1.96036564031E-05 -6.27222330325E-01 +5.90331790759E-01
1.08000000000E+09 -5.64234734711E-01 +7.75434337441E-01 -2.11726559634E-05 +1.55234912281E-05 +6.71086512367E-06 +3.37499552442E-05 -6.24025902335E-01 +5.93872987354E-01
1.08500000000E+09 -5.61254791856E-01 +7.77981114064E-01 +3.59587191291E-05 +1.64209467506E-05 +1.13695988665E-05 +9.37700705390E-06 -6.20810479506E-01 +5.97303925621E-01
1.09000000000E+09 -5.58821662236E-01 +7.79807380499E-01 +4.67230031869E-05 -3.14519675514E-05 +1.79205226661E-05 -9.48648972719E-06 -6.17846557537E-01 +6.00800618448E-01
1.09500000000E+09 -5.56935587107E-01 +7.81694477455E-01 -2.60066478623E-05 +2.66247430977E-06 -2.47063804796E-05 +1.39191559043E-05 -6.14816717722E-01 +6.04635655082E-01
1.10000000000E+09 -5.53790960056E-01 +7.83727396832E-01 +3.23482021618E-05 -2.43718545450E-05 -1.04213304898E-05 +4.43125679104E-05 -6.11572878381E-01 +6.08045498413E-01
1.10500000000E+09 -5.49693019722E-01 +7.86378719218E-01 +1.37023522384E-05 +1.45522409412E-05 +7.01829645176E-06 -4.94747552173E-05 -6.08053415631E-01 +6.11457894786E-01
1.11000000000E+09 -5.43929624717E-01 +7.89838717349E-01 +3.83695872166E-05 +1.72762870566E-05 +7.19551991446E-06 +2.51009125345E-05 -6.04797474570E-01 +6.14586750949E-01
1.11500000000E+09 -5.37147038503E-01 +7.93838556922E-01 -1.18850730225E-05 -1.04227203386E-05 +4.26099496724E-05 +4.84348469777E-05 -6.01428252640E-01 +6.17846487516E-01
1.12000000000E+09 -5.29775020508E-01 +7.98103586587E-01 +5.53095286797E-05 +3.00794536959E-05 +4.68491451484E-05 -7.25811388960E-06 -5.98321754004E-01 +6.21495157339E-01
1.12500000000E+09 -5.22073825343E-01 +8.02177896120E-01 +2.79386559454E-05 +1.62504147324E-05 +6.20816174047E-06 +7.76060289239E-06 -5.94864934887E-01 +6.25168786699E-01
1.13000000000E+09 -5.15050500084E-01 +8.06276475854E-01 +1.28308769047E-05 +2.75169243969E-05 +4.98854030497E-05 +3.91112275322E-05 -5.91281057011E-01 +6.29014823480E-01
1.13500000000E+09 -5.08847809721E-01 +8.08967077362E-01 +5.01637963776E-05 +4.85023593501E-05 +3.53950004535E-05 +2.31515737792E-05 -5.87368028272E-01 +6.32598743041E-01
1.14000000000E+09 -5.03762384086E-01 +8.11449719753E-01 +4.37573370075E-05 +1.39254601559E-05 +1.50621490248E-05 -2.28827110135E-05 -5.83270806932E-01 +6.36120852992E-01
1.14500000000E+09 -4.99660464330E-01 +8.12878236425E-01 +3.14235207328E-05 -4.23137391179E-05 +4.61765329483E-05 -1.50760285502E-05 -5.79249805193E-01 +6.39505811476E-01
1.15000000000E+09 -4.95867294625E-01 +8.14211756445E-01 +4.05584340971E-05 -2.64254039773E-05 +7.47675403539E-05 -1.45904953389E-05 -5.75356737883E-01 +6.43181512347E-01
1.15500000000E+09 -4.92252403000E-01 +8.15948191369E-01 +4.83994443513E-05 +6.45177899450E-06 +8.13631398310E-05 -2.12606441143E-05 -5.71338389862E-01 +6.46785788392E-01
1.16000000000E+09 -4.87648841914E-01 +8.17764219148E-01 +6.19346701340E-05 -1.10806595793E-05 +7.57646148372E-05 -3.49773428466E-05 -5.67343013913E-01 +6.50587238163E-01
1.16500000000E+09 -4.81864857079E-01 +8.20427359319E-01 +4.93886168974E-05 -1.46202568548E-05 +4.78474316022E-05 -8.90787248755E-06 -5.63154007895E-01 +6.53976510841E-01
1.17000000000E+09 -4.75154414431E-01 +8.23641984462E-01 +3.85497619810E-05 -1.55321869764E-05 +7.55936613739E-05 +7.79726975139E-06 -5.58594531356E-01 +6.57185183029E-01
1.17500000000E+09 -4.67608714243E-01 +8.27302877902E-01 +6.17284826065E-05 -5.55750018147E-05 +3.93883167486E-05 -6.07665367025E-05 -5.54004335650E-01 +6.60241267592E-01
1.18000000000E+09 -4.59879201920E-01 +8.31326844821E-01 +5.06451315918E-05 -2.16674010799E-05 +9.88070844701E-05 -2.04933556329E-05 -5.49267545780E-01 +6.63437187142E-01
1.18500000000E+09 -4.52202825179E-01 +8.34956415384E-01 +4.11941306436E-05 -8.77488872777E-05 +6.73101169746E-05 -7.16830983557E-05 -5.44384529012E-01 +6.66518676739E-01
1.19000000000E+09 -4.45197605602E-01 +8.37764406248E-01 +9.11108743038E-05 -8.90271051688E-05 +7.15589900003E-05 -7.83357012763E-05 -5.39033617029E-01 +6.69330789514E-01
1.19500000000E+09 -4.38946774501E-01 +8.39923784743E-01 +1.03847885994E-04 -9.32417355256E-05 +8.64190556901E-05 -9.31430111190E-05 -5.33864534060E-01 +6.70747140165E-01
1.20000000000E+09 -4.33754737975E-01 +8.40761968046E-01 +4.51355083264E-05 -1.20100615739E-04 +1.55096798994E-05 -1.38782889715E-04 -5.29713606596E-01 +6.71241542039E-01
1.20500000000E+09 -4.29146244417E-01 +8.41719161040E-01 -3.41905067026E-05 -1.38672567572E-04 +9.32034102530E-06 -1.58844858620E-04 -5.27740972678E-01 +6.71897725524E-01
1.21000000000E+09 -4.24301283789E-01 +8.42814799361E-01 -7.82505532909E-05 -1.27758018353E-04 -8.23129771437E-05 -6.42269958667E-05 -5.26349563424E-01 +6.74777813132E-01
1.21500000000E+09 -4.18316900529E-01 +8.44057697080E-01 -2.43339022873E-05 -3.40406666869E-05 -1.10457021163E-04 -9.19241172685E-06 -5.24056896058E-01 +6.79124944329E-01
1.22000000000E+09 -4.10970231670E-01 +8.46016592957E-01 -2.80733127796E-05 -2.61748798717E-05 +2.00637088548E-06 -4.94811415783E-05 -5.20689857161E-01 +6.84293058085E-01
1.22500000000E+09 -4.02347316527E-01 +8.48780113074E-01 +2.20366923330E-05 -4.98595232378E-05 +2.25394642527E-07 -8.68630635878E-05 -5.16280778155E-01 +6.89014124225E-01
1.23000000000E+09 -3.92522159274E-01 +8.52223819165E-01 -2.72226642753E-05 -7.05491509014E-05 -2.85783363908E-05 -2.60207208041E-05 -5.11768114616E-01 +6.93565763257E-01
1.23500000000E+09 -3.82838408228E-01 +8.56087858487E-01 -1.28458209543E-06 -7.92275803095E-05 -3.44393034637E-05 -2.53337666046E-05 -5.06894577207E-01 +6.97689346955E-01
1.24000000000E+09 -3.73212650048E-01 +8.60345835509E-01 -3.24602053531E-05 -5.50369026568E-05 -1.61783754994E-05 -6.16563142373E-05 -5.01879112307E-01 +7.01439046412E-01
1.24500000000E+09 -3.64567495704E-01 +8.64755903947E-01 +1.46682722066E-05 -8.97643675497E-05 +1.94716131820E-06 -5.67609364905E-05 -4.96640760504E-01 +7.05265216438E-01
1.25000000000E+09 -3.56689560696E-01 +8.68420685520E-01 -3.08218382429E-05 -1.17292267249E-04 -6.72575993882E-05 -1.17237870139E-04 -4.91287245895E-01 +7.09383545619E-01
1.25500000000E+09 -3.49998269763E-01 +8.71002835546E-01 -4.12937026776E-05 -6.78926337216E-05 -2.74985218870E-05 -1.53917272693E-04 -4.85663689552E-01 +7.13457853659E-01
1.26000000000E+09 -3.43985208418E-01 +8.72811664974E-01 -1.11923869509E-05 -7.50763644049E-05 -5.52827376944E-05 -1.78621620858E-04 -4.80126665767E-01 +7.17767854744E-01
1.26500000000E+09 -3.38333558607E-01 +8.73624858857E-01 -2.79006034377E-05 -1.02979871177E-04 -4.11989991412E-05 -9.34397729961E-05 -4.74409840010E-01 +7.21757584643E-01
1.27000000000E+09 -3.32166347659E-01 +8.74552012969E-01 -4.68913739065E-05 -1.58631712536E-04 -7.51947501728E-05 -1.47557897052E-04 -4.68376769472E-01 +7.25783971458E-01
1.27500000000E+09 -3.24684355594E-01 +8.75475153078E-01 -1.36943136682E-04 -1.18254240050E-04 -1.18980831344E-04 -8.94090067579E-05 -4.62451374996E-01 +7.29628786859E-01
1.28000000000E+09 -3.15307735745E-01 +8.77013520426E-01 -1.46726237894E-04 -1.31703796190E-04 -1.29999896720E-04 -9.70907999350E-05 -4.56298437882E-01 +7.33407265749E-01
1.28500000000E+09 -3.04206949421E-01 +8.79121236596E-01 -1.54514215888E-04 -9.06047206343E-05 -2.04607814461E-04 -9.04579287558E-05 -4.49773615060E-01 +7.37489407742E-01
1.29000000000E+09 -2.92359572203E-01 +8.81903075935E-01 -1.83020676703E-04 -1.00431024985E-04 -2.05981324577E-04 -9.21182069394E-05 -4.43163852364E-01 +7.41458777159E-01
1.29500000000E+09 -2.80175331616E-01 +8.85285769684E-01 -2.01836677162E-04 -2.75673490558E-05 -1.54924060359E-04 -3.68191053531E-05 -4.36353984069E-01 +7.45154785957E-01
1.30000000000E+09 -2.68533016352E-01 +8.89056704844E-01 -1.29619603330E-04 -4.18381584601E-05 -1.67593862522E-04 -2.29035531962E-05 -4.29491766060E-01 +7.49113140265E-01
1.30500000000E+09 -2.57922094037E-01 +8.92665403853E-01 -1.57513438127E-04 -4.43761170929E-05 -1.68804516245E-04 -2.98073119815E-05 -4.22482367935E-01 +7.52808856282E-01
1.31000000000E+09 -2.48984111065E-01 +8.95313296036E-01 -2.08091676128E-04 -3.56394489967E-05 -2.36647050112E-04 +2.38193851373E-05 -4.15118316625E-01 +7.56530297499E-01
1.31500000000E+09 -2.41789952019E-01 +8.96947250846E-01 -1.89288585524E-04 +3.79581547453E-05 -2.13224204916E-04 -7.09863752815E-06 -4.07360461361E-01 +7.60193320370E-01
1.32000000000E+09 -2.35914616699E-01 +8.97705572207E-01 -2.04916455891E-04 +1.34146804565E-05 -2.28987151918E-04 +2.06918976653E-05 -3.99444146155E-01 +7.63845137494E-01
1.32500000000E+09 -2.30128133693E-01 +8.97489370348E-01 -2.13992273374E-04 +7.06974135978E-05 -3.05254818998E-04 +3.99140501165E-05 -3.91210699613E-01 +7.67575324364E-01
1.33000000000E+09 -2.23242652585E-01 +8.97131163514E-01 -2.64409168524E-04 +7.47987374444E-05 -2.10490099486E-04 +8.97778618498E-05 -3.82780558107E-01 +7.71119250164E-01
1.33500000000E+09 -2.14358757476E-01 +8.96605719302E-01 -2.46080350769E-04 +3.52995162463E-05 -2.53298215863E-04 +8.69480552175E-05 -3.74244330069E-01 +7.74646640018E-01
1.34000000000E+09 -2.02903350554E-01 +8.96296413318E-01 -3.12887310037E-04 +6.83423883507E-05 -2.75667863080E-04 +1.58272603823E-04 -3.65262278143E-01 +7.78473478315E-01
1.34500000000E+09 -1.88784341845E-01 +8.96462736965E-01 -3.10348364580E-04 +1.87083618954E-04 -2.77830223230E-04 +1.60155167442E-04 -3.55723078948E-01 +7.82097549802E-01
1.35000000000E+09 -1.72759950802E-01 +8.97100265574E-01 -2.63089404054E-04 +2.18778835676E-04 -2.57578827797E-04 +1.88151377013E-04 -3.45888914857E-01 +7.85896874466E-01
1.35500000000E+09 -1.55689595049E-01 +8.98021919493E-01 -2.38767007657E-04 +2.25894062395E-04 -2.48564801752E-04 +2.24773784743E-04 -3.35389100079E-01 +7.89535678756E-01
1.36000000000E+09 -1.38959138851E-01 +8.99019913887E-01 -2.86846964261E-04 +2.67641438651E-04 -2.45138040820E-04 +2.57728591418E-04 -3.24729470462E-01 +7.92870893119E-01
1.36500000000E+09 -1.23050390151E-01 +8.99898037851E-01 -2.77112744094E-04 +3.53755514482E-04 -2.76558364841E-04 +2.69836997344E-04 -3.13800363392E-01 +7.96051043211E-01
1.37000000000E+09 -1.09126010566E-01 +8.99955714341E-01 -2.65653614383E-04 +4.12417636631E-04 -2.63151708671E-04 +4.07873754867E-04 -3.02365671822E-01 +7.99142608098E-01
1.37500000000E+09 -9.72213894754E-02 +8.99601190393E-01 -2.46203676935E-04 +4.56606006561E-04 -2.59948717006E-04 +3.90297981671E-04 -2.90071345281E-01 +8.02160400417E-01
1.38000000000E+09 -8.63962291948E-02 +8.98436598592E-01 -1.63394677890E-04 +4.95273719898E-04 -2.37037249348E-04 +4.94697054076E-04 -2.77071892900E-01 +8.05167406873E-01
1.38500000000E+09 -7.54193439863E-02 +8.96678272677E-01 -7.29470020499E-05 +5.32213619340E-04 -1.80560698867E-04 +5.81432522134E-04 -2.63146070118E-01 +8.08088931267E-01
1.39000000000E+09 -6.33310069598E-02 +8.94275809123E-01 -8.77870732390E-05 +5.49195283402E-04 -9.86066462445E-05 +6.50705609206E-04 -2.48763046504E-01 +8.10784781980E-01
1.39500000000E+09 -4.87513555346E-02 +8.91204553779E-01 -7.74534319568E-05 +6.04152377406E-04 -6.93810071579E-06 +6.23967286489E-04 -2.33567913189E-01 +8.12943912090E-01
1.40000000000E+09 -3.13195240303E-02 +8.87389901355E-01 -1.60166419825E-04 +6.75601187411E-04 -3.32596663041E-05 +6.96068473056E-04 -2.17722198864E-01 +8.14842127620E-01
1.40500000000E+09 -1.17308966251E-02 +8.83032468721E-01 +4.58678731804E-07 +8.45775109149E-04 +1.03048020523E-04 +8.82220410241E-04 -2.00836417638E-01 +8.16117397837E-01
1.41000000000E+09 +9.99957356494E-03 +8.78222984111E-01 +1.96753439006E-04 +8.89672302928E-04 +2.04472606083E-04 +9.18020520818E-04 -1.82216982719E-01 +8.17044351463E-01
1.41500000000E+09 +3.26184957772E-02 +8.72915714435E-01 +3.66365686893E-04 +9.27231524517E-04 +3.49425030938E-04 +1.02167806938E-03 -1.62490964498E-01 +8.17360351659E-01
1.42000000000E+09 +5.54622796549E-02 +8.66727767977E-01 +5.86359392940E-04 +9.48184739545E-04 +6.12197627258E-04 +1.03412737323E-03 -1.41130259556E-01 +8.17233871534E-01
1.42500000000E+09 +7.72691280150E-02 +8.59494207673E-01 +6.55680584449E-04 +8.25214744181E-04 +7.74542525508E-04 +9.74740606918E-04 -1.18731384668E-01 +8.15702521831E-01
1.43000000000E+09 +9.79463152282E-02 +8.50929644926E-01 +7.41402007410E-04 +9.10972174572E-04 +8.93779937780E-04 +9.17953115449E-04 -9.53334376343E-02 +8.13528932859E-01
1.43500000000E+09 +1.17895183712E-01 +8.40430764243E-01 +9.57121951796E-04 +1.01014956890E-03 +1.13254210634E-03 +9.70395769080E-04 -7.03410504097E-02 +8.09671625804E-01
1.44000000000E+09 +1.38151846834E-01 +8.28552595993E-01 +1.45727086423E-03 +9.78359680995E-04 +1.53210670970E-03 +8.87895087143E-04 -4.34006553600E-02 +8.04025703487E-01
1.44500000000E+09 +1.60306387685E-01 +8.13637455306E-01 +1.73787603770E-03 +6.43931551503E-04 +1.77468930577E-03 +5.12247755320E-04 -1.38999494427E-02 +7.96028878792E-01
1.45000000000E+09 +1.84735113628E-01 +7.95113551626E-01 +1.77524088998E-03 +4.24956704799E-04 +1.81051351616E-03 +3.36239014823E-04 +1.72693548887E-02 +7.84853137918E-01
1.45500000000E+09 +2.11733502287E-01 +7.73115154643E-01 +1.97091424275E-03 +3.41657658774E-04 +2.03185178897E-03 +1.74768227113E-04 +5.02079186517E-02 +7.71163090765E-01
1.46000000000E+09 +2.42242437513E-01 +7.46980045919E-01 +2.33115835434E-03 +1.10422414159E-04 +2.20057304610E-03 -1.03253653666E-04 +8.46432717419E-02 +7.53211213152E-01
1.46500000000E+09 +2.74332902354E-01 +7.16342113774E-01 +2.79089418748E-03 -2.19185814629E-04 +2.58813824882E-03 -4.02760655013E-04 +1.20985534427E-01 +7.30860487540E-01
1.47000000000E+09 +3.07475955239E-01 +6.81070607659E-01 +3.15275510090E-03 -1.01982179789E-03 +2.88158219509E-03 -9.45141860408E-04 +1.58510467079E-01 +7.01632075920E-01
1.47500000000E+09 +3.39679469694E-01 +6.40304121454E-01 +3.18073335468E-03 -2.09717437358E-03 +3.06753720184E-03 -1.85760701183E-03 +1.96942830182E-01 +6.65297760709E-01
1.48000000000E+09 +3.68975970471E-01 +5.93172902991E-01 +2.61051527315E-03 -2.84452847164E-03 +2.68764812721E-03 -2.78902145284E-03 +2.35173871110E-01 +6.20324774938E-01
1.48500000000E+09 +3.92630655793E-01 +5.39460549842E-01 +2.28447797094E-03 -3.30209280327E-03 +2.30485532310E-03 -3.40908778589E-03 +2.71540737844E-01 +5.66372806394E-01
1.49000000000E+09 +4.10472803493E-01 +4.78286679661E-01 +1.95879235124E-03 -4.25505235643E-03 +1.75734771131E-03 -4.31024249082E-03 +3.03459750142E-01 +5.00586097075E-01
1.49500000000E+09 +4.19685444342E-01 +4.08998906820E-01 +1.07151590353E-03 -5.20215330894E-03 +7.81876421256E-04 -5.03315549699E-03 +3.24547818870E-01 +4.24809593438E-01
1.50000000000E+09 +4.20090094442E-01 +3.30801123489E-01 -4.95903330013E-04 -5.91571087865E-03 -4.34483069950E-04 -5.55319541150E-03 +3.34780090454E-01 +3.40010404468E-01
1.50500000000E+09 +4.07366093154E-01 +2.42291031698E-01 -1.99597520615E-03 -6.06166045156E-03 -1.69260236734E-03 -5.85625344115E-03 +3.28292123892E-01 +2.46010082151E-01
1.51000000000E+09 +3.77491263602E-01 +1.48357499967E-01 -3.91994556057E-03 -5.55376858517E-03 -3.66912187308E-03 -5.68582015796E-03 +3.01021405131E-01 +1.47292264642E-01
1.51500000000E+09 +3.27385801855E-01 +5.43103080969E-02 -5.36572014212E-03 -4.86450422836E-03 -5.25525782505E-03 -5.00860155443E-03 +2.50653356505E-01 +5.26460449316E-02
1.52000000000E+09 +2.57304696269E-01 -3.00688256108E-02 -7.67076882954E-03 -3.14065683895E-03 -7.68744558570E-03 -3.28113403280E-03 +1.79785222843E-01 -3.21792600554E-02
1.52500000000E+09 +1.70361365135E-01 -1.00031635046E-01 -7.96523553565E-03 +1.23660050540E-04 -8.07197930648E-03 +9.78553257694E-05 +8.94813550631E-02 -9.83274692148E-02
1.53000000000E+09 +6.88651493686E-02 -1.48723816155E-01 -6.83982786387E-03 +2.01091236276E-03 -6.85680014331E-03 +2.00858437976E-03 -1.13638330693E-02 -1.41857756135E-01
1.53500000000E+09 -4.04249827802E-02 -1.72675026588E-01 -6.08675227069E-03 +3.74398151083E-03 -6.08153103388E-03 +3.69114812145E-03 -1.16562878650E-01 -1.60640832767E-01
1.54000000000E+09 -1.52721072295E-01 -1.69384735945E-01 -4.26233027769E-03 +4.61638348124E-03 -4.24507351435E-03 +4.57294961971E-03 -2.17375531254E-01 -1.57363973946E-01
1.54500000000E+09 -2.58939118462E-01 -1.43192104613E-01 -3.17848544796E-03 +5.14598041684E-03 -3.24104240191E-03 +5.01304739429E-03 -3.07720093074E-01 -1.36030077188E-01
1.55000000000E+09 -3.54556690963E-01 -9.64814343174E-02 -1.63934018175E-03 +5.82541559780E-03 -1.87812082022E-03 +5.77710309823E-03 -3.85606253371E-01 -1.02917851118E-01
1.55500000000E+09 -4.33274188299E-01 -3.86613854932E-02 +2.50508380319E-04 +5.55595126153E-03 +2.25093851414E-05 +5.70488132652E-03 -4.50593251436E-01 -6.03937786147E-02
1.56000000000E+09 -4.97103995897E-01 +2.21335835856E-02 +1.54354793204E-03 +4.29595535176E-03 +1.43081190347E-03 +4.55264669741E-03 -5.02506964567E-01 -1.32699463527E-02
1.56500000000E+09 -5.47917823463E-01 +8.40004953051E-02 +1.81973298204E-03 +3.37100129104E-03 +1.87830536762E-03 +3.59034331014E-03 -5.43158614530E-01 +3.61665196432E-02
1.57000000000E+09 -5.85179032043E-01 +1.44128252250E-01 +2.08571429532E-03 +2.70877546624E-03 +2.30511326103E-03 +2.79429385304E-03 -5.74043530519E-01 +8.45728883520E-02
