# Hz S RI R 50
! CMT, C1220, 16058040, 17.2.0/1
! Date: 14/08/2018 12:32:47
! Data: Format (Calibration Info)
! Freq                      S11: Re/Im (F2)                       S21: Re/Im (F2)                       S12: Re/Im (F2)                       S22: Re/Im (F2)            
1.00000000000E+09 -6.33320739717E-01 +7.08317805559E-01 -1.29645987079E-06 +1.61856502460E-05 -1.68341174810E-06 -5.26709515273E-06 -7.53198153154E-01 +6.23817968167E-01
1.00500000000E+09 -6.26199797328E-01 +7.13149477920E-01 +3.30534048499E-05 -2.71048795077E-05 -3.11492624276E-05 +2.12290219259E-05 -7.49710306538E-01 +6.27849533288E-01
1.01000000000E+09 -6.19850620835E-01 +7.17791921388E-01 +3.56222134954E-05 +2.26393992780E-06 +1.50063610189E-05 +3.01697844161E-05 -7.46197690728E-01 +6.31437055186E-01
1.01500000000E+09 -6.15081880579E-01 +7.21852200798E-01 +1.86020627560E-05 -1.43196735086E-05 -1.24056890410E-05 -2.87357982171E-05 -7.43006486607E-01 +6.35256717400E-01
1.02000000000E+09 -6.11588510443E-01 +7.25280310471E-01 -1.61692869095E-05 -1.65641678252E-06 -8.74709313050E-06 +6.23095322695E-06 -7.39725213055E-01 +6.38753603479E-01
1.02500000000E+09 -6.08968351941E-01 +7.28196975509E-01 -3.86577942832E-05 +3.04220873660E-06 -1.59464748686E-05 +3.62831572371E-06 -7.36791988749E-01 +6.42245375812E-01
1.03000000000E+09 -6.06845393253E-01 +7.30617924219E-01 +1.42035831625E-05 +2.36329095980E-06 -1.59106310960E-05 -2.27060563079E-06 -7.33365049282E-01 +6.46060214160E-01
1.03500000000E+09 -6.04116545653E-01 +7.33251914635E-01 -5.79851804615E-05 -1.97668333428E-05 +3.78363517632E-06 -2.30344383331E-07 -7.29561119981E-01 +6.50097306501E-01
1.04000000000E+09 -6.00247603338E-01 +7.36055435178E-01 -1.92130347751E-05 +4.16284182513E-05 -5.97741945690E-05 -3.33885488139E-08 -7.25805897839E-01 +6.53913234033E-01
1.04500000000E+09 -5.95079382748E-01 +7.39257095608E-01 +4.21088565306E-06 +6.92629624580E-06 -2.55290931380E-05 +1.53629091725E-05 -7.22183507692E-01 +6.57328721536E-01
1.05000000000E+09 -5.88161172513E-01 +7.43130056293E-01 -1.63223645526E-05 +9.67988969542E-06 -1.58624030994E-05 +4.64026403851E-05 -7.18869246557E-01 +6.60738759483E-01
1.05500000000E+09 -5.80459901687E-01 +7.47375145949E-01 +2.34208736615E-05 +4.81647015787E-05 -8.69864415576E-06 -3.09355930317E-05 -7.15522435709E-01 +6.64280854731E-01
1.06000000000E+09 -5.72059077651E-01 +7.52386768026E-01 -6.25039921453E-05 +1.30991180158E-05 +2.79046164577E-05 +3.06281256943E-05 -7.12341187525E-01 +6.67961423691E-01
1.06500000000E+09 -5.63908514619E-01 +7.57088742030E-01 +1.23728158100E-05 +3.32544637820E-05 -2.22237988114E-05 +1.54724213620E-05 -7.08367431006E-01 +6.71786381560E-01
1.07000000000E+09 -5.56795502881E-01 +7.61461182373E-01 -1.34755309291E-05 +1.47484291360E-05 -1.46515638916E-05 +1.35478977931E-05 -7.04246333496E-01 +6.75548088419E-01
1.07500000000E+09 -5.51042372952E-01 +7.65442597020E-01 +3.35566430196E-05 +2.63589102404E-05 +2.56765681761E-06 +2.87985269978E-05 -6.99940371495E-01 +6.79346296902E-01
1.08000000000E+09 -5.46808575108E-01 +7.68828198721E-01 +4.26283582367E-05 +5.53016671041E-05 +6.64212205325E-06 +2.74749253016E-05 -6.96133263801E-01 +6.83066544147E-01
1.08500000000E+09 -5.43829427521E-01 +7.71478252412E-01 +1.12915569659E-05 +4.16987800743E-05 +6.61249400406E-06 +2.66616270670E-05 -6.92296915205E-01 +6.86632619646E-01
1.09000000000E+09 -5.41181955928E-01 +7.73661273838E-01 -1.36123574519E-07 -1.91597698041E-05 +6.04225390643E-05 -1.33652803996E-05 -6.88530055941E-01 +6.90617989025E-01
1.09500000000E+09 -5.38937362354E-01 +7.75631562066E-01 +2.31939209503E-05 +2.71728912812E-05 +4.37688822686E-05 -2.43275338641E-06 -6.84861592079E-01 +6.94475628729E-01
1.10000000000E+09 -5.35528374047E-01 +7.77836377709E-01 +4.82253236375E-05 -6.74858521996E-07 +1.85049902088E-05 -2.48516810680E-05 -6.80879243488E-01 +6.98211979583E-01
1.10500000000E+09 -5.30853907991E-01 +7.80314470232E-01 +4.03159807777E-05 +1.71413728070E-05 +4.30018891520E-05 +1.05706137260E-05 -6.76733040767E-01 +7.01635478696E-01
1.11000000000E+09 -5.24794245605E-01 +7.83502017626E-01 -1.34214306891E-05 +2.36375255921E-05 -6.90480017781E-06 +4.11704298975E-05 -6.72481000166E-01 +7.04961761147E-01
1.11500000000E+09 -5.17696932094E-01 +7.87374642179E-01 +7.11818600573E-06 +4.17724378906E-05 +4.48518901330E-06 +1.72887055973E-06 -6.68495057234E-01 +7.08374778216E-01
1.12000000000E+09 -5.10104633575E-01 +7.91124547289E-01 +3.62117473445E-06 -3.45212642860E-05 -1.51882953232E-05 +6.55826789927E-05 -6.64455860474E-01 +7.12112396171E-01
1.12500000000E+09 -5.02396833098E-01 +7.95191000106E-01 +2.41752010021E-05 -6.29688720212E-06 +4.04927346008E-05 +3.36170786425E-05 -6.60211178609E-01 +7.16172093592E-01
1.13000000000E+09 -4.95515916973E-01 +7.98607532312E-01 +5.59261689636E-05 +1.48024645829E-05 +4.96620574937E-05 +1.95546835398E-05 -6.55705457711E-01 +7.19909444182E-01
1.13500000000E+09 -4.89607362059E-01 +8.01340580345E-01 +5.26508652267E-05 +2.60426771029E-05 +3.24145180869E-05 -3.74779691449E-05 -6.51242401998E-01 +7.23760694260E-01
1.14000000000E+09 -4.84756894493E-01 +8.03851354763E-01 +2.46092533271E-05 -2.74260875036E-05 +3.74067555479E-05 -4.46731154620E-05 -6.46466366424E-01 +7.27213768112E-01
1.14500000000E+09 -4.81020186365E-01 +8.05424785017E-01 +3.06065173246E-05 +4.44860048779E-06 +4.91075193877E-05 +3.65336419279E-06 -6.41724865795E-01 +7.30722505911E-01
1.15000000000E+09 -4.77431702371E-01 +8.06646170450E-01 +5.12956779559E-06 -1.01927054379E-05 +4.55540380172E-05 +3.25297810906E-05 -6.37203640681E-01 +7.34486033544E-01
1.15500000000E+09 -4.73922910315E-01 +8.08372801528E-01 -6.17602966579E-06 +1.65037577994E-05 +2.86576131018E-05 -7.18079197510E-06 -6.32335351138E-01 +7.38367655357E-01
1.16000000000E+09 -4.69138276312E-01 +8.10072527856E-01 +4.76048425609E-05 -1.92053063445E-05 +2.18652166567E-06 +5.49440321379E-05 -6.27648702984E-01 +7.42120977685E-01
1.16500000000E+09 -4.63434011659E-01 +8.12647761217E-01 +4.32291516683E-05 -3.26649823777E-05 -8.19829360977E-06 +1.21564894351E-05 -6.22532498421E-01 +7.45749437717E-01
1.17000000000E+09 -4.56369676809E-01 +8.15581387228E-01 +3.37043263563E-05 -7.81670800665E-06 +9.26436311178E-05 -1.98145774815E-05 -6.17318487614E-01 +7.49032075447E-01
1.17500000000E+09 -4.48233584230E-01 +8.18805749395E-01 +6.74377853489E-05 -3.26010388289E-05 +9.47665676137E-05 +1.54630634406E-05 -6.11635958300E-01 +7.52229354146E-01
1.18000000000E+09 -4.40144211518E-01 +8.22357497941E-01 +1.01804132612E-04 +2.56574983748E-06 +3.12066237379E-05 -3.37765753866E-06 -6.06041986695E-01 +7.55341010716E-01
1.18500000000E+09 -4.32029929415E-01 +8.25760065194E-01 +7.17692022548E-05 -4.06122425366E-05 +1.14396548893E-04 -5.28271811899E-05 -6.00294896865E-01 +7.58245079946E-01
1.19000000000E+09 -4.24818890379E-01 +8.28289056693E-01 +3.99163576434E-05 -8.08286413997E-05 +2.60042301744E-05 -6.57492581585E-05 -5.94081484577E-01 +7.60883097263E-01
1.19500000000E+09 -4.18648005952E-01 +8.30448614404E-01 +7.37909742145E-05 -1.16508379554E-04 +1.93096474144E-05 -1.29219109428E-04 -5.88278065489E-01 +7.61970897267E-01
1.20000000000E+09 -4.13367027328E-01 +8.31422195396E-01 -3.82088300946E-05 -1.26972782916E-04 -3.65317955530E-05 -1.52340520668E-04 -5.83720541985E-01 +7.62251854336E-01
1.20500000000E+09 -4.09082155664E-01 +8.32515140502E-01 -9.87092850832E-05 -1.22173429293E-04 -7.99851101090E-05 -1.02601235603E-04 -5.81474118965E-01 +7.63210947795E-01
1.21000000000E+09 -4.04315442970E-01 +8.33397157393E-01 -1.14715627285E-04 -7.19165376710E-05 -7.88754016930E-05 -5.84464883781E-05 -5.79481130210E-01 +7.66303641397E-01
1.21500000000E+09 -3.98480692950E-01 +8.34663812589E-01 -8.02364636890E-05 -3.29122920910E-05 -4.69365735105E-05 -5.95903161678E-05 -5.76682542465E-01 +7.71089448815E-01
1.22000000000E+09 -3.91058157364E-01 +8.36484938460E-01 -1.45959467592E-05 -1.33346129003E-05 -6.08664403184E-05 -3.00681535116E-05 -5.72328696012E-01 +7.76494328200E-01
1.22500000000E+09 -3.82394988844E-01 +8.38813446992E-01 -2.65697617590E-05 -2.23848302051E-05 -9.87345860389E-06 -3.36463170657E-05 -5.67159958538E-01 +7.81491537667E-01
1.23000000000E+09 -3.72437578453E-01 +8.41685621761E-01 -1.37622978965E-05 -2.68034670753E-05 -3.91272499421E-05 -1.44043937956E-05 -5.61506881071E-01 +7.86205718581E-01
1.23500000000E+09 -3.62161628252E-01 +8.45064269190E-01 -3.58452992196E-05 -6.45877536639E-05 -3.81050645290E-05 -2.96967844699E-05 -5.55760714376E-01 +7.90374779544E-01
1.24000000000E+09 -3.52194421203E-01 +8.48807794576E-01 -4.34407677487E-05 -1.99435376758E-05 -4.90469860174E-05 -2.60124815512E-05 -5.49697476791E-01 +7.94261873037E-01
1.24500000000E+09 -3.42957932083E-01 +8.52892764723E-01 -4.32491068274E-05 -4.05492939674E-05 -6.12344596892E-05 -3.51410093222E-05 -5.43525014679E-01 +7.98155076444E-01
1.25000000000E+09 -3.34580969856E-01 +8.56547890434E-01 -5.81284629834E-05 -5.11292784018E-05 -3.34616696920E-05 -5.68852071035E-06 -5.37090069748E-01 +8.02276403829E-01
1.25500000000E+09 -3.27615999173E-01 +8.59018710318E-01 -6.29834728570E-05 -1.00899175895E-06 -8.29112378203E-05 -4.22331929397E-05 -5.30382478936E-01 +8.06395798061E-01
1.26000000000E+09 -3.21467299185E-01 +8.60780927965E-01 -1.09859879407E-04 -3.04705653852E-06 -6.24956275229E-05 -2.57265914227E-05 -5.23662451303E-01 +8.10616263117E-01
1.26500000000E+09 -3.15776589020E-01 +8.61743297196E-01 -4.95554312569E-05 -4.23204791088E-06 -9.69824909150E-05 -1.42043415181E-05 -5.16684561751E-01 +8.14338492471E-01
1.27000000000E+09 -3.09706383407E-01 +8.62447905447E-01 -5.38921295432E-05 +9.01462782822E-06 -7.23427659680E-05 +3.47157890760E-05 -5.09803574532E-01 +8.18095316409E-01
1.27500000000E+09 -3.02329151971E-01 +8.63049026497E-01 -6.00664302580E-05 +3.37736987595E-07 -6.54882897975E-05 +8.30303674347E-05 -5.02776106320E-01 +8.21824380596E-01
1.28000000000E+09 -2.93256725273E-01 +8.63944862490E-01 -5.18742164142E-05 +1.51623182737E-05 -7.56128495182E-05 -2.24612547173E-05 -4.95662262236E-01 +8.25187707806E-01
1.28500000000E+09 -2.82276921737E-01 +8.65292434976E-01 -4.96845681375E-05 +1.24918301862E-05 -4.56656718927E-05 -2.89256275022E-05 -4.88200038837E-01 +8.29002632218E-01
1.29000000000E+09 -2.70516431266E-01 +8.67274095759E-01 -9.32180968255E-05 -1.48727482365E-05 -6.69344783152E-05 +1.85336555153E-05 -4.80626246299E-01 +8.32839092180E-01
1.29500000000E+09 -2.58474862146E-01 +8.69609383466E-01 -7.56254402948E-05 -1.35997524255E-05 -9.95070196105E-05 -1.49459226754E-05 -4.72574410198E-01 +8.36379461957E-01
1.30000000000E+09 -2.46860097797E-01 +8.72978709786E-01 -7.37199766884E-05 +3.09888189097E-05 -9.49778230948E-05 +2.56341338638E-05 -4.64844884116E-01 +8.39888110053E-01
1.30500000000E+09 -2.36219368316E-01 +8.76196511937E-01 -5.35019793791E-05 +5.99703466985E-05 -7.86587281795E-05 +2.16112750248E-05 -4.56669440184E-01 +8.43419538700E-01
1.31000000000E+09 -2.27072188299E-01 +8.78944403351E-01 -8.06053374492E-05 +1.17792177594E-05 -6.74307052295E-05 +3.80129624134E-05 -4.48346571671E-01 +8.46682770884E-01
1.31500000000E+09 -2.19670091001E-01 +8.80835336074E-01 -6.59428520953E-05 -7.93885689318E-06 -5.84372836345E-05 +2.86990080065E-05 -4.39738355338E-01 +8.50319161740E-01
1.32000000000E+09 -2.13407007403E-01 +8.81736366193E-01 -5.27870112417E-05 +4.59821010069E-05 -1.11899806892E-04 -1.33455505257E-05 -4.30662127660E-01 +8.53627440922E-01
1.32500000000E+09 -2.07584498729E-01 +8.81758702237E-01 -8.65484924615E-05 +3.27392689197E-05 -1.12146080223E-04 +5.30428155900E-05 -4.21273761065E-01 +8.57008409006E-01
1.33000000000E+09 -2.00629049275E-01 +8.81235678704E-01 -1.26438022456E-04 +3.25399531924E-05 -8.84298877568E-05 +6.54893959362E-05 -4.11624702917E-01 +8.60242614042E-01
1.33500000000E+09 -1.92055151398E-01 +8.80229969578E-01 -1.61480234261E-04 +6.54481442858E-05 -1.37805721103E-04 +5.94156629704E-05 -4.01888566857E-01 +8.63436420304E-01
1.34000000000E+09 -1.81048553818E-01 +8.79464034749E-01 -1.59055466928E-04 +1.50460466699E-04 -1.47294168809E-04 +1.71037051461E-04 -3.91734665042E-01 +8.66720052994E-01
1.34500000000E+09 -1.67584350413E-01 +8.78604501653E-01 -1.40102867334E-04 +1.38677931004E-04 -9.80957659045E-05 +1.39306348684E-04 -3.80869579091E-01 +8.69970018884E-01
1.35000000000E+09 -1.52381181081E-01 +8.78363094536E-01 -9.87011962820E-05 +1.64215886642E-04 -8.79423853868E-05 +1.14554825968E-04 -3.69751535318E-01 +8.72970573508E-01
1.35500000000E+09 -1.36004916831E-01 +8.78807097120E-01 -9.86003272373E-05 +2.34794336002E-04 -1.07147502704E-04 +1.87214790928E-04 -3.57912167164E-01 +8.76000196131E-01
1.36000000000E+09 -1.19647982662E-01 +8.79508754634E-01 -1.46569443963E-04 +2.24571617208E-04 -9.70313837671E-05 +2.39893134727E-04 -3.45941205974E-01 +8.78669640225E-01
1.36500000000E+09 -1.04058663898E-01 +8.80411780941E-01 -5.40156991746E-05 +3.27034370681E-04 -1.23736511684E-04 +2.83025954801E-04 -3.33926264480E-01 +8.81204236196E-01
1.37000000000E+09 -8.99041398208E-02 +8.80625649717E-01 -6.54652026967E-05 +3.52350875203E-04 -7.04275154933E-05 +3.08277798060E-04 -3.21002545371E-01 +8.83545097894E-01
1.37500000000E+09 -7.77515161732E-02 +8.80317829009E-01 +2.95853495296E-05 +4.12121023092E-04 -4.61083053063E-05 +4.04002723610E-04 -3.07361430642E-01 +8.85856314818E-01
1.38000000000E+09 -6.69149879538E-02 +8.79443043522E-01 +1.66600831512E-04 +3.83652281827E-04 +7.40714162940E-05 +4.10480306332E-04 -2.92723286840E-01 +8.87867511888E-01
1.38500000000E+09 -5.59840895182E-02 +8.77719543004E-01 +1.81202023942E-04 +3.18976532359E-04 +1.41880863094E-04 +3.99716378160E-04 -2.77315062820E-01 +8.89800030448E-01
1.39000000000E+09 -4.41809113340E-02 +8.75088662897E-01 +2.15403347579E-04 +2.98669829530E-04 +2.43465646105E-04 +3.61112317431E-04 -2.61393421557E-01 +8.91347800317E-01
1.39500000000E+09 -3.04375584955E-02 +8.71483139532E-01 +2.39683813771E-04 +2.51359468666E-04 +2.74775189549E-04 +3.08772056199E-04 -2.44591315897E-01 +8.92007978614E-01
1.40000000000E+09 -1.39386843307E-02 +8.66970740335E-01 +2.50214063174E-04 +3.40540877233E-04 +2.63057347914E-04 +2.62796165527E-04 -2.27351997390E-01 +8.92341977150E-01
1.40500000000E+09 +4.38336336625E-03 +8.61837553424E-01 +3.49732982135E-04 +3.21557469071E-04 +3.78132240040E-04 +3.59521990598E-04 -2.09036345790E-01 +8.92079414054E-01
1.41000000000E+09 +2.48664580823E-02 +8.56347039413E-01 +4.31184171763E-04 +2.86811784518E-04 +4.55739391797E-04 +2.91419267423E-04 -1.89012340597E-01 +8.91616155139E-01
1.41500000000E+09 +4.65021023739E-02 +8.50809824657E-01 +5.54911940521E-04 +2.60861405332E-04 +6.07759734850E-04 +3.19318637866E-04 -1.67567021692E-01 +8.90021001155E-01
1.42000000000E+09 +6.87647783251E-02 +8.44904479981E-01 +6.21363872946E-04 +1.17080151652E-04 +6.77157525380E-04 +1.36352125773E-04 -1.44866024987E-01 +8.87529529585E-01
1.42500000000E+09 +9.05724259166E-02 +8.37851653729E-01 +5.78493097533E-04 +8.07904634145E-05 +6.31099001748E-04 +9.06477263629E-05 -1.21175806485E-01 +8.83991123336E-01
1.43000000000E+09 +1.11266193286E-01 +8.29410045097E-01 +7.81612718903E-04 +4.43315395907E-05 +8.53385272446E-04 -2.87944498227E-05 -9.65457166351E-02 +8.79367873778E-01
1.43500000000E+09 +1.31290279973E-01 +8.19381453636E-01 +8.07290337249E-04 -2.15172533361E-04 +7.77451554790E-04 -3.08630274528E-04 -7.04051706719E-02 +8.72957203676E-01
1.44000000000E+09 +1.51222327397E-01 +8.07559807486E-01 +7.56548235323E-04 -3.02689905140E-04 +7.37375292401E-04 -3.77829807095E-04 -4.25955102665E-02 +8.64843719417E-01
1.44500000000E+09 +1.72431091964E-01 +7.92710471778E-01 +7.66375599093E-04 -3.79744176158E-04 +7.37903502019E-04 -4.44904724482E-04 -1.20599835902E-02 +8.53791415233E-01
1.45000000000E+09 +1.95546633779E-01 +7.74509561898E-01 +7.79401499413E-04 -5.45883012320E-04 +7.63013710834E-04 -5.58195411520E-04 +1.99205940424E-02 +8.39635124330E-01
1.45500000000E+09 +2.21000071209E-01 +7.52689526932E-01 +8.09883864092E-04 -6.11652177372E-04 +7.37713580773E-04 -7.14587829511E-04 +5.35385393419E-02 +8.22336011667E-01
1.46000000000E+09 +2.49266821461E-01 +7.26596773779E-01 +9.24034665691E-04 -8.36926517866E-04 +8.13052065040E-04 -9.05157207178E-04 +8.85639669948E-02 +8.00976811457E-01
1.46500000000E+09 +2.79053353801E-01 +6.96560766916E-01 +8.83400014606E-04 -1.34935860959E-03 +7.31616511306E-04 -1.22838008161E-03 +1.24687598849E-01 +7.74268931409E-01
1.47000000000E+09 +3.10407355534E-01 +6.62632112535E-01 +4.38564951445E-04 -1.62199478551E-03 +3.88306997027E-04 -1.47104792285E-03 +1.61617312531E-01 +7.41406717215E-01
1.47500000000E+09 +3.41647913997E-01 +6.23174266348E-01 +2.03524513982E-05 -1.77943014226E-03 +8.67686815319E-05 -1.71966365014E-03 +1.99957785241E-01 +7.01259691466E-01
1.48000000000E+09 +3.70594138223E-01 +5.77699542997E-01 -2.61549244577E-04 -1.59647430506E-03 -2.23470048403E-04 -1.62015042672E-03 +2.37341146619E-01 +6.51435325922E-01
1.48500000000E+09 +3.94602306361E-01 +5.25960061407E-01 -2.91176595452E-04 -1.83872641974E-03 -3.40673616266E-04 -1.87267908724E-03 +2.72006901313E-01 +5.92445690652E-01
1.49000000000E+09 +4.12931928103E-01 +4.66670159869E-01 -8.05914936053E-04 -2.17810531582E-03 -9.14906770512E-04 -2.12587212569E-03 +3.01404536408E-01 +5.22586151372E-01
1.49500000000E+09 +4.23147639266E-01 +3.99388343619E-01 -1.38724273438E-03 -2.25094326935E-03 -1.35178473001E-03 -2.08706239157E-03 +3.20850483253E-01 +4.42122674157E-01
1.50000000000E+09 +4.23856506499E-01 +3.23013173225E-01 -2.52478440395E-03 -2.49789699856E-03 -2.35099800676E-03 -2.33709115950E-03 +3.26669650522E-01 +3.51256883790E-01
1.50500000000E+09 +4.11778435475E-01 +2.37352727152E-01 -4.05199425429E-03 -1.29717921480E-03 -3.81936113078E-03 -1.35828774536E-03 +3.15100238060E-01 +2.54354977400E-01
1.51000000000E+09 +3.82325615649E-01 +1.45920872772E-01 -3.96038422497E-03 +7.19594982440E-04 -3.91278346813E-03 +5.38531091616E-04 +2.84280566264E-01 +1.52307087596E-01
1.51500000000E+09 +3.34396473559E-01 +5.45182999850E-02 -3.42801689323E-03 +1.42351427899E-03 -3.44972409277E-03 +1.39006090595E-03 +2.28528411129E-01 +5.27596113853E-02
1.52000000000E+09 +2.66857657165E-01 -3.06047856854E-02 -3.04242940586E-03 +2.44002394310E-03 -3.09614169919E-03 +2.43754068166E-03 +1.50476485962E-01 -3.44104218824E-02
1.52500000000E+09 +1.81287701138E-01 -1.02163577197E-01 -1.68192259058E-03 +3.17891868921E-03 -1.70896944544E-03 +3.23442444368E-03 +5.41696914119E-02 -1.03322927810E-01
1.53000000000E+09 +7.87992441669E-02 -1.52887308326E-01 -1.04352154572E-03 +2.77487797203E-03 -1.00705507049E-03 +2.79216148960E-03 -5.50026293569E-02 -1.48423307411E-01
1.53500000000E+09 -3.20340798468E-02 -1.76134089291E-01 -1.02972123239E-03 +3.30390108605E-03 -1.02197568153E-03 +3.25959520836E-03 -1.68529471122E-01 -1.67397557765E-01
1.54000000000E+09 -1.43450856639E-01 -1.71890486161E-01 +3.88163566163E-04 +3.89182305867E-03 +3.40155571057E-04 +3.84750735265E-03 -2.78186701778E-01 -1.62949817480E-01
1.54500000000E+09 -2.47753933383E-01 -1.43323327203E-01 +1.73630493960E-03 +3.43119886959E-03 +1.69155377187E-03 +3.37294410646E-03 -3.77198958229E-01 -1.38430829489E-01
1.55000000000E+09 -3.40433613383E-01 -9.65230565321E-02 +2.66189450783E-03 +2.71606112512E-03 +2.58924462298E-03 +2.81405359596E-03 -4.63377549858E-01 -9.99532573715E-02
1.55500000000E+09 -4.17831637729E-01 -3.82355695039E-02 +3.34745975971E-03 +1.34852922027E-03 +3.34075907598E-03 +1.48500759276E-03 -5.34475251782E-01 -5.04080826302E-02
1.56000000000E+09 -4.80528565255E-01 +2.44761166285E-02 +2.94452806360E-03 -1.38689486109E-04 +3.04290494480E-03 -9.82501285299E-05 -5.90267422857E-01 +3.92720581538E-03
1.56500000000E+09 -5.28012320890E-01 +8.79208873364E-02 +2.08226742190E-03 -5.74528757293E-04 +2.18372228343E-03 -5.88186193710E-04 -6.34076686749E-01 +5.99551704024E-02
1.57000000000E+09 -5.63643327083E-01 +1.48313683524E-01 +1.80235926937E-03 -6.93947552304E-04 +1.88799966899E-03 -7.74938589714E-04 -6.66185272100E-01 +1.15483272188E-01
