# Hz S RI R 50
! CMT, C1220, 16058040, 17.2.0/1
! Date: 14/08/2018 12:54:31
! Data: Format (Calibration Info)
! Freq                      S11: Re/Im (F2)                       S21: Re/Im (F2)                       S12: Re/Im (F2)                       S22: Re/Im (F2)            
1.00000000000E+09 -6.45446966939E-01 +7.13044550012E-01 +2.79295969805E-05 +2.61035005652E-05 +2.56183027925E-06 +6.80299548486E-05 -7.19283795759E-01 +6.45304766776E-01
1.00500000000E+09 -6.39044743327E-01 +7.17673847714E-01 +1.01804290794E-05 -3.81956524202E-07 +5.00492897016E-06 +5.62651176789E-05 -7.15400938823E-01 +6.49292253287E-01
1.01000000000E+09 -6.33114227475E-01 +7.22011251527E-01 -4.18957053799E-05 +1.70900026978E-05 -2.07677544205E-05 +5.40874295755E-07 -7.11804144385E-01 +6.52689715217E-01
1.01500000000E+09 -6.28505261667E-01 +7.25889510231E-01 -3.49616339690E-05 +4.02772684051E-05 -2.71099960515E-05 +4.44594644368E-05 -7.08415996443E-01 +6.56421667397E-01
1.02000000000E+09 -6.24385101982E-01 +7.29561087884E-01 -2.58132855416E-05 +3.29365395009E-05 +1.84349486890E-05 -1.32083426091E-05 -7.04894075873E-01 +6.59695970233E-01
1.02500000000E+09 -6.20805564069E-01 +7.32725125097E-01 +1.53231179883E-05 +5.42404138415E-05 -6.56242313470E-06 -2.56925313914E-05 -7.01869866509E-01 +6.63327748280E-01
1.03000000000E+09 -6.17531189414E-01 +7.35907688691E-01 +3.23383551458E-05 +4.53756439265E-05 +3.04969345930E-05 -1.60373280162E-05 -6.98134030504E-01 +6.66985967210E-01
1.03500000000E+09 -6.13572333263E-01 +7.39043620747E-01 +5.90957434537E-07 -3.58745370359E-06 -7.77081738777E-06 +3.71343728737E-05 -6.94021586971E-01 +6.70882471202E-01
1.04000000000E+09 -6.08779794301E-01 +7.42385719871E-01 +3.76755972212E-05 +4.99639703753E-05 -6.17179951048E-06 +5.19503015533E-05 -6.90164341856E-01 +6.74306947983E-01
1.04500000000E+09 -6.02905019725E-01 +7.46115894093E-01 +4.98128492395E-05 -6.46507337627E-05 +4.43437808933E-05 +1.59087708624E-05 -6.86538599666E-01 +6.77760200489E-01
1.05000000000E+09 -5.95839065705E-01 +7.50137616639E-01 -1.83285809413E-05 +4.57019888534E-08 +2.14293216255E-05 +4.16265459500E-05 -6.82792522337E-01 +6.80920766922E-01
1.05500000000E+09 -5.88124386808E-01 +7.54540195607E-01 +4.37328748045E-05 +2.43253352602E-05 +9.74943294137E-06 +5.34368256215E-05 -6.79417442513E-01 +6.84494826787E-01
1.06000000000E+09 -5.79846450702E-01 +7.59305206528E-01 +3.98461655854E-05 +1.97454295039E-05 +4.06196192619E-05 +3.87551371221E-05 -6.75972775964E-01 +6.88332400970E-01
1.06500000000E+09 -5.72141237215E-01 +7.63811471236E-01 -5.57563873947E-06 +4.71931204763E-05 +4.31898840370E-05 +2.09263592475E-05 -6.71801095871E-01 +6.91788185336E-01
1.07000000000E+09 -5.64761239629E-01 +7.67788302690E-01 +3.02168584725E-05 +3.66014466713E-05 +5.22241922870E-05 -1.73039122197E-05 -6.67457020324E-01 +6.95480674810E-01
1.07500000000E+09 -5.58770998100E-01 +7.71456863338E-01 +2.97390451110E-05 +1.44541272145E-05 +2.28131289723E-05 +5.84678770263E-05 -6.62948586580E-01 +6.99086687967E-01
1.08000000000E+09 -5.53594481080E-01 +7.74796830650E-01 +6.09234091977E-05 +2.87319294641E-05 +3.71631514780E-05 +6.98804923684E-06 -6.58974750597E-01 +7.02620759200E-01
1.08500000000E+09 -5.49663901153E-01 +7.77583379097E-01 -3.06893996163E-05 +5.52634831181E-05 +1.80155257842E-05 +1.84331085158E-05 -6.54976575001E-01 +7.06164083941E-01
1.09000000000E+09 -5.45984677829E-01 +7.79974574310E-01 +5.41811169108E-06 +6.14325743336E-06 +3.38955239540E-05 +1.77549118682E-05 -6.51032909613E-01 +7.09666274019E-01
1.09500000000E+09 -5.42924067239E-01 +7.82324126426E-01 +4.97178167216E-05 -1.66027844250E-05 +8.88893654630E-05 +1.58193160099E-05 -6.47071580995E-01 +7.13473157711E-01
1.10000000000E+09 -5.38857588650E-01 +7.84713097813E-01 -1.27628479246E-05 +3.08380962414E-06 -2.41240535274E-05 +1.42642945125E-05 -6.42989608300E-01 +7.17118471635E-01
1.10500000000E+09 -5.34502929556E-01 +7.87358427834E-01 +5.29770863298E-05 +6.00621812095E-05 +5.26747533183E-05 +2.11184709684E-05 -6.38550622138E-01 +7.20387559117E-01
1.11000000000E+09 -5.28989060015E-01 +7.90654888771E-01 +8.10740639563E-05 -7.46793726936E-06 +1.33263753373E-05 +1.49545611230E-06 -6.34183225578E-01 +7.23621298775E-01
1.11500000000E+09 -5.22485398130E-01 +7.94048131125E-01 -1.26393035714E-05 +2.99226634509E-05 +2.97441733311E-05 +4.61092312048E-05 -6.30127960587E-01 +7.26661115793E-01
1.12000000000E+09 -5.15536053122E-01 +7.97453976481E-01 +3.61885771283E-05 -3.30933147788E-05 +9.20969404322E-05 +1.82785498739E-05 -6.25948333962E-01 +7.30219456521E-01
1.12500000000E+09 -5.08014004696E-01 +8.01070697973E-01 +3.16424973278E-05 +1.03623963893E-05 +2.82857382552E-05 -4.22359411487E-05 -6.21590589526E-01 +7.33959769201E-01
1.13000000000E+09 -5.00764120279E-01 +8.04165217121E-01 +8.61039542153E-05 +6.10989259421E-05 +7.93111525012E-05 -1.40979269750E-05 -6.17046445112E-01 +7.37500800351E-01
1.13500000000E+09 -4.93891970737E-01 +8.06572093389E-01 +7.89398919390E-05 -4.13126044506E-06 +8.83183621748E-05 -3.75087726775E-05 -6.12083335161E-01 +7.41191109788E-01
1.14000000000E+09 -4.87479072348E-01 +8.08798475576E-01 +1.02060092948E-04 +1.14057955102E-06 +8.36803401039E-05 -8.22909963564E-06 -6.07307707668E-01 +7.44502768558E-01
1.14500000000E+09 -4.81694759457E-01 +8.10419093283E-01 +8.19286058253E-05 +4.04087935061E-06 +1.01029380616E-04 -3.09157937069E-06 -6.02487945725E-01 +7.47823331039E-01
1.15000000000E+09 -4.76345085578E-01 +8.12169695199E-01 +6.42159566813E-05 -2.18744315866E-05 +6.92407987981E-05 -6.17516956367E-06 -5.97617806514E-01 +7.51337411382E-01
1.15500000000E+09 -4.70949988522E-01 +8.13953966879E-01 +8.87955026181E-05 -6.86290619174E-05 +5.30525232256E-05 -2.43314255368E-06 -5.92749549615E-01 +7.55023312698E-01
1.16000000000E+09 -4.65347460862E-01 +8.15850653840E-01 +5.93155039488E-05 -4.92365223834E-05 +7.60611794842E-05 -4.51425846713E-05 -5.87666716424E-01 +7.58549030592E-01
1.16500000000E+09 -4.59091051857E-01 +8.18544909270E-01 +1.08315674178E-04 -3.76206691775E-05 +6.95741820985E-05 -5.03054305547E-06 -5.82504963890E-01 +7.62104470196E-01
1.17000000000E+09 -4.52364241140E-01 +8.21401437495E-01 +1.24809655739E-04 -6.71705505911E-05 +1.15620563405E-04 -4.13407605039E-05 -5.77014404161E-01 +7.65158107961E-01
1.17500000000E+09 -4.45038029146E-01 +8.24493909592E-01 +1.58308527726E-04 -6.74336797731E-05 +1.53233309586E-04 -7.84127036476E-05 -5.71277365011E-01 +7.68109996008E-01
1.18000000000E+09 -4.37545625418E-01 +8.27650564774E-01 +1.37975385590E-04 -6.94671270958E-05 +1.19706696049E-04 -1.37638884181E-04 -5.65788929458E-01 +7.71042448787E-01
1.18500000000E+09 -4.29661007726E-01 +8.30462060680E-01 +7.97245121123E-05 -9.18253969525E-05 +1.00813575070E-04 -1.33330211692E-04 -5.59960935716E-01 +7.73752402461E-01
1.19000000000E+09 -4.21898531735E-01 +8.32759277543E-01 +1.04762777635E-04 -1.92622906981E-04 +8.15548614838E-05 -1.69914578523E-04 -5.53811715979E-01 +7.76254851341E-01
1.19500000000E+09 -4.14394346663E-01 +8.34451155457E-01 +1.39716556273E-04 -2.10292521078E-04 +9.67643629253E-05 -2.02658451539E-04 -5.47912300686E-01 +7.77193351994E-01
1.20000000000E+09 -4.07324117276E-01 +8.35325371362E-01 +4.97349091076E-05 -2.86752141896E-04 -2.75263504044E-05 -2.67719500401E-04 -5.43217990438E-01 +7.77191123113E-01
1.20500000000E+09 -4.00430471327E-01 +8.36264125052E-01 -1.15462180247E-04 -2.51858918027E-04 -8.47087283897E-05 -2.36525972320E-04 -5.40813487938E-01 +7.78162652025E-01
1.21000000000E+09 -3.93351998631E-01 +8.37435877098E-01 -1.46601222667E-04 -1.69536918145E-04 -7.98278087115E-05 -1.68540099345E-04 -5.38536981188E-01 +7.80999119390E-01
1.21500000000E+09 -3.85786696528E-01 +8.38947192936E-01 -9.25582445926E-05 -9.65249539600E-05 -3.51957587580E-05 -1.12852087932E-04 -5.35478624873E-01 +7.85285245958E-01
1.22000000000E+09 -3.77707167198E-01 +8.40694122361E-01 -7.29806851497E-05 -1.29000608434E-04 -4.88436355318E-05 -1.43694269840E-04 -5.31132447387E-01 +7.90532962214E-01
1.22500000000E+09 -3.69085717765E-01 +8.43153533844E-01 -2.62640700933E-05 -1.43411594647E-04 -6.27854141937E-05 -1.52602053354E-04 -5.25769519971E-01 +7.95372771579E-01
1.23000000000E+09 -3.60330889332E-01 +8.45851158664E-01 -6.90147038826E-05 -1.87383265500E-04 -6.52092881255E-05 -1.81058440061E-04 -5.20098728445E-01 +7.99684143109E-01
1.23500000000E+09 -3.51726413930E-01 +8.48790011858E-01 -3.91798081350E-05 -1.53091356950E-04 -1.14210827989E-04 -1.22986510605E-04 -5.14063234053E-01 +8.03712197044E-01
1.24000000000E+09 -3.43275394835E-01 +8.51786817852E-01 -1.08847226548E-04 -1.61541376060E-04 -6.95394771343E-05 -1.69528490381E-04 -5.07947441739E-01 +8.07230353846E-01
1.24500000000E+09 -3.35436628225E-01 +8.54956230910E-01 -9.42864162298E-05 -1.76435394783E-04 -9.11872029415E-05 -1.88284095160E-04 -5.01847912817E-01 +8.10807088181E-01
1.25000000000E+09 -3.27744102009E-01 +8.57354369097E-01 -1.40687988095E-04 -1.76371897594E-04 -1.09099167223E-04 -1.29949084020E-04 -4.95160770214E-01 +8.14706531814E-01
1.25500000000E+09 -3.20101522409E-01 +8.58963300608E-01 -1.52157463485E-04 -1.80905232724E-04 -1.11393363838E-04 -1.86514527763E-04 -4.88302178379E-01 +8.18311322227E-01
1.26000000000E+09 -3.12357570872E-01 +8.59880355018E-01 -1.97230872265E-04 -2.02588131336E-04 -1.96552958686E-04 -2.46971202145E-04 -4.81653115015E-01 +8.22304445135E-01
1.26500000000E+09 -3.04565853280E-01 +8.60093803316E-01 -1.95814375134E-04 -1.97189185858E-04 -2.18029066066E-04 -2.47853102774E-04 -4.74577539813E-01 +8.25667849553E-01
1.27000000000E+09 -2.95866410937E-01 +8.60175345189E-01 -2.56982488592E-04 -2.08248346622E-04 -2.33347813803E-04 -2.53386776334E-04 -4.67761500303E-01 +8.29024032580E-01
1.27500000000E+09 -2.86636718817E-01 +8.60581231757E-01 -3.20763688612E-04 -1.83987080367E-04 -2.84899559032E-04 -1.98271928206E-04 -4.60588145737E-01 +8.32298205648E-01
1.28000000000E+09 -2.76165790161E-01 +8.60982053478E-01 -3.51200155431E-04 -1.48935891364E-04 -4.07465638296E-04 -2.01652727523E-04 -4.53518556570E-01 +8.35650721420E-01
1.28500000000E+09 -2.64983511205E-01 +8.62017784075E-01 -3.45353791642E-04 -9.83115371455E-05 -4.02704338831E-04 -9.82337559191E-05 -4.46029575328E-01 +8.39218979905E-01
1.29000000000E+09 -2.53785224429E-01 +8.63473662206E-01 -3.64383161639E-04 -1.11833281025E-04 -4.12855038330E-04 -1.04294431414E-04 -4.38430830448E-01 +8.42499356125E-01
1.29500000000E+09 -2.43051344132E-01 +8.65521368730E-01 -4.12753077652E-04 -8.71792896792E-05 -4.66449648253E-04 -5.36375106200E-05 -4.30598923664E-01 +8.45522106607E-01
1.30000000000E+09 -2.32734657994E-01 +8.68011021575E-01 -4.89065169184E-04 -6.64525285748E-05 -5.01156944640E-04 -7.15375809473E-06 -4.22774096216E-01 +8.48773330776E-01
1.30500000000E+09 -2.23280390957E-01 +8.70709221255E-01 -5.56473358416E-04 +8.85457868295E-06 -5.24245365841E-04 +5.20547210925E-05 -4.14733894982E-01 +8.51830073057E-01
1.31000000000E+09 -2.14233127572E-01 +8.72653357162E-01 -5.98085283962E-04 +1.47090260498E-04 -5.54303747057E-04 +8.64841901750E-05 -4.06373048181E-01 +8.54908692984E-01
1.31500000000E+09 -2.06045723447E-01 +8.73934356306E-01 -5.60655976686E-04 +2.60919993569E-04 -5.90334768832E-04 +2.21967980883E-04 -3.97616562206E-01 +8.57980727720E-01
1.32000000000E+09 -1.98223769053E-01 +8.73923352075E-01 -4.82770093788E-04 +2.24381982722E-04 -5.59418156102E-04 +2.57905483980E-04 -3.88656265088E-01 +8.60994721950E-01
1.32500000000E+09 -1.90349560642E-01 +8.73034798888E-01 -5.26654803168E-04 +2.67696983898E-04 -5.51843318416E-04 +3.42656223025E-04 -3.79350198232E-01 +8.63888763273E-01
1.33000000000E+09 -1.81540430770E-01 +8.71959142843E-01 -5.94456115846E-04 +3.24796266168E-04 -5.77074029356E-04 +3.79820456039E-04 -3.69937987748E-01 +8.66786157547E-01
1.33500000000E+09 -1.71544587989E-01 +8.70441705192E-01 -6.14750072675E-04 +4.98109918218E-04 -5.27574224748E-04 +5.47893371445E-04 -3.60295743446E-01 +8.69625680216E-01
1.34000000000E+09 -1.60011279778E-01 +8.69258303551E-01 -5.55193316127E-04 +5.97115409212E-04 -4.67300231593E-04 +5.77029451327E-04 -3.50426048335E-01 +8.72437505123E-01
1.34500000000E+09 -1.47164569549E-01 +8.68164845962E-01 -5.21522195426E-04 +6.93219475966E-04 -4.46054046235E-04 +6.57566392510E-04 -3.39493664748E-01 +8.75084010107E-01
1.35000000000E+09 -1.33143121910E-01 +8.67714046328E-01 -4.16545067434E-04 +7.86721721235E-04 -4.29169040630E-04 +7.21606246336E-04 -3.28569047152E-01 +8.77894706052E-01
1.35500000000E+09 -1.18591777562E-01 +8.67822514025E-01 -3.98907419932E-04 +8.67526774641E-04 -3.99576996948E-04 +8.35194526163E-04 -3.17208719331E-01 +8.80050389492E-01
1.36000000000E+09 -1.03464935524E-01 +8.68060282752E-01 -3.60789783702E-04 +9.31560562287E-04 -3.56174144948E-04 +8.82694589225E-04 -3.05671157714E-01 +8.82136710276E-01
1.36500000000E+09 -8.83621183691E-02 +8.68005707904E-01 -3.27805191506E-04 +1.05934345871E-03 -2.56653656663E-04 +9.95299717446E-04 -2.93879146269E-01 +8.84214473221E-01
1.37000000000E+09 -7.37934953639E-02 +8.66875211220E-01 -1.72335698417E-04 +1.27540505942E-03 -2.60775410054E-04 +1.15206958486E-03 -2.81373357172E-01 +8.86170317641E-01
1.37500000000E+09 -6.05223138332E-02 +8.64555077442E-01 +3.45112702164E-05 +1.37722657285E-03 -1.20866593842E-04 +1.31732301688E-03 -2.67827783790E-01 +8.87858465973E-01
1.38000000000E+09 -4.78978699331E-02 +8.61478311525E-01 +1.67546946396E-04 +1.30951538700E-03 -8.26804176367E-06 +1.44224825475E-03 -2.53625932684E-01 +8.89511743138E-01
1.38500000000E+09 -3.52628485826E-02 +8.57557799890E-01 +2.72827800445E-04 +1.45979200610E-03 +2.11303112762E-04 +1.62012806242E-03 -2.38545907067E-01 +8.90712204917E-01
1.39000000000E+09 -2.26911870335E-02 +8.52961042529E-01 +4.46862991122E-04 +1.54509962667E-03 +4.74636012637E-04 +1.73802247687E-03 -2.23252431920E-01 +8.91669331131E-01
1.39500000000E+09 -9.05815295486E-03 +8.48052462579E-01 +6.77635863602E-04 +1.64687376435E-03 +8.84433743974E-04 +1.74448032122E-03 -2.07258166952E-01 +8.91969983384E-01
1.40000000000E+09 +5.80548126895E-03 +8.42574835962E-01 +8.76903047622E-04 +1.78927990101E-03 +1.06529416649E-03 +1.75693689535E-03 -1.90417268439E-01 +8.91757943223E-01
1.40500000000E+09 +2.15551872092E-02 +8.37256473194E-01 +1.38096445177E-03 +1.90954171191E-03 +1.39957789679E-03 +1.78580983923E-03 -1.72734055134E-01 +8.91186951706E-01
1.41000000000E+09 +3.82618892858E-02 +8.32300840147E-01 +1.77257681112E-03 +1.68753919024E-03 +1.76467552334E-03 +1.64664238072E-03 -1.53323430112E-01 +8.89999390991E-01
1.41500000000E+09 +5.65619202004E-02 +8.27593411907E-01 +2.06593168890E-03 +1.52791663231E-03 +2.08228512829E-03 +1.62142103304E-03 -1.32587215192E-01 +8.87848569611E-01
1.42000000000E+09 +7.68079924615E-02 +8.22297246504E-01 +2.30721470827E-03 +1.37874410354E-03 +2.56975815035E-03 +1.58876906641E-03 -1.10632322007E-01 +8.84785905960E-01
1.42500000000E+09 +9.79493312377E-02 +8.14657897275E-01 +2.73649756242E-03 +1.22244411391E-03 +3.06061120864E-03 +1.27976408426E-03 -8.79893169826E-02 +8.80462608618E-01
1.43000000000E+09 +1.19341752007E-01 +8.04623700859E-01 +3.13312767227E-03 +1.17239859202E-03 +3.52803746148E-03 +9.23814060959E-04 -6.45993421121E-02 +8.75446582512E-01
1.43500000000E+09 +1.40547044815E-01 +7.91610507065E-01 +3.98706062379E-03 +7.43595342751E-04 +4.21490433180E-03 +4.33277167019E-04 -3.93683646837E-02 +8.68378115367E-01
1.44000000000E+09 +1.61732158148E-01 +7.76991901375E-01 +4.55414104158E-03 -2.50898147074E-04 +4.57870578164E-03 -5.63886716703E-04 -1.27860490386E-02 +8.59282838387E-01
1.44500000000E+09 +1.84134559530E-01 +7.59561317554E-01 +4.51069216579E-03 -1.16939362294E-03 +4.51124713440E-03 -1.43542995965E-03 +1.58570151088E-02 +8.47833290682E-01
1.45000000000E+09 +2.06971630251E-01 +7.39570485212E-01 +4.50829844377E-03 -1.71874705400E-03 +4.44678526339E-03 -2.04655172328E-03 +4.59193636997E-02 +8.33196206600E-01
1.45500000000E+09 +2.31039304666E-01 +7.17208007799E-01 +4.67636177057E-03 -2.34829013600E-03 +4.49736340986E-03 -2.73697819313E-03 +7.72187558670E-02 +8.16035666200E-01
1.46000000000E+09 +2.56133317554E-01 +6.92722430243E-01 +5.02303290426E-03 -3.23025235045E-03 +4.53034757726E-03 -3.54437181078E-03 +1.10193037267E-01 +7.94975268130E-01
1.46500000000E+09 +2.82666751053E-01 +6.66107537319E-01 +5.18307320641E-03 -4.53967138903E-03 +4.47686743585E-03 -4.41445414273E-03 +1.44228540817E-01 +7.68652865978E-01
1.47000000000E+09 +3.11251357984E-01 +6.35802756248E-01 +5.11452221349E-03 -6.29104692655E-03 +4.70639931739E-03 -5.81296006940E-03 +1.79022971799E-01 +7.35872756015E-01
1.47500000000E+09 +3.40519008607E-01 +5.99415187506E-01 +3.92931739487E-03 -8.32114612568E-03 +4.05069582260E-03 -7.89304469586E-03 +2.13546227264E-01 +6.95991283490E-01
1.48000000000E+09 +3.67676677591E-01 +5.55407933408E-01 +2.19864993288E-03 -9.64509579402E-03 +2.52634608571E-03 -9.66060486583E-03 +2.47781864392E-01 +6.48407562813E-01
1.48500000000E+09 +3.90545523690E-01 +5.03154564522E-01 +5.90355475470E-04 -1.08089742948E-02 +4.70178805339E-04 -1.11155196111E-02 +2.79639123534E-01 +5.91998947862E-01
1.49000000000E+09 +4.07137492189E-01 +4.42718623950E-01 -1.72822870185E-03 -1.21626664585E-02 -2.25371848711E-03 -1.20420943217E-02 +3.06726094895E-01 +5.25629654347E-01
1.49500000000E+09 +4.16104492401E-01 +3.74286854299E-01 -5.18114769121E-03 -1.30491036251E-02 -5.46621370835E-03 -1.22951424696E-02 +3.24739699357E-01 +4.48299343454E-01
1.50000000000E+09 +4.15511284321E-01 +2.96962387915E-01 -9.02520283900E-03 -1.25393877988E-02 -8.50246711258E-03 -1.17908113024E-02 +3.29773785635E-01 +3.61623243021E-01
1.50500000000E+09 +4.01869571356E-01 +2.12404975200E-01 -1.31014436465E-02 -1.09062109215E-02 -1.22188879965E-02 -1.08928734577E-02 +3.18401099868E-01 +2.66949222660E-01
1.51000000000E+09 +3.72720293307E-01 +1.23946080970E-01 -1.67784886953E-02 -7.34916939279E-03 -1.63141259689E-02 -7.93147804577E-03 +2.86025720879E-01 +1.67661475138E-01
1.51500000000E+09 +3.24576125489E-01 +3.53463434445E-02 -1.93179335779E-02 -2.96397645883E-03 -1.94535958054E-02 -3.49761604893E-03 +2.30108435181E-01 +7.26961142278E-02
1.52000000000E+09 +2.56301943093E-01 -4.43583921474E-02 -2.07480253129E-02 +2.43685972675E-03 -2.10219330168E-02 +2.18116188087E-03 +1.52726358976E-01 -1.04423552094E-02
1.52500000000E+09 +1.70745854557E-01 -1.09734657710E-01 -2.01933519330E-02 +9.58945690153E-03 -2.04596922146E-02 +9.56047763518E-03 +5.91614828735E-02 -7.60743413812E-02
1.53000000000E+09 +7.10443526258E-02 -1.55153563196E-01 -1.54435063201E-02 +1.52871368646E-02 -1.56105401300E-02 +1.54018016592E-02 -4.98046000456E-02 -1.18994050757E-01
1.53500000000E+09 -3.67012723796E-02 -1.76915202303E-01 -1.06181439790E-02 +1.84508434102E-02 -1.05855043176E-02 +1.84202815462E-02 -1.60980052314E-01 -1.35309621818E-01
1.54000000000E+09 -1.47737388425E-01 -1.73463799341E-01 -4.93237283504E-03 +2.01356995530E-02 -4.93672928895E-03 +1.98830638263E-02 -2.69896675814E-01 -1.28173770885E-01
1.54500000000E+09 -2.51687039596E-01 -1.44904968208E-01 +1.18888971744E-03 +2.00684216541E-02 +7.30665434398E-04 +1.97883347528E-02 -3.67674115027E-01 -1.00167774512E-01
1.55000000000E+09 -3.42407535645E-01 -9.96746838497E-02 +6.11633253062E-03 +1.72561696589E-02 +5.44432414618E-03 +1.74697087664E-02 -4.49943476666E-01 -5.79161190358E-02
1.55500000000E+09 -4.17589427240E-01 -4.29338031352E-02 +9.18503176746E-03 +1.42372227749E-02 +8.76983290532E-03 +1.49394627910E-02 -5.17309456063E-01 -7.47933245310E-03
1.56000000000E+09 -4.76252481238E-01 +1.67064463912E-02 +1.17282517448E-02 +1.07747104297E-02 +1.18638974044E-02 +1.16419525795E-02 -5.70437464298E-01 +4.77320497041E-02
1.56500000000E+09 -5.22713879430E-01 +7.67471951148E-02 +1.23677677156E-02 +6.59409689411E-03 +1.29445134307E-02 +7.20035969331E-03 -6.11820159508E-01 +1.04669714944E-01
1.57000000000E+09 -5.57813855178E-01 +1.36473941449E-01 +1.17285978844E-02 +3.83595567556E-03 +1.25775368154E-02 +4.03954576501E-03 -6.41796130909E-01 +1.61204879977E-01
