# Hz S RI R 50
! CMT, C1220, 16058040, 17.2.0/1
! Date: 14/08/2018 12:59:09
! Data: Format (Calibration Info)
! Freq                      S11: Re/Im (F2)                       S21: Re/Im (F2)                       S12: Re/Im (F2)                       S22: Re/Im (F2)            
1.00000000000E+09 -6.48023220172E-01 +7.11592245142E-01 +1.29273005629E-05 -3.96968831676E-05 -1.92021071568E-05 -1.44260335386E-06 -7.19120393834E-01 +6.45940434958E-01
1.00500000000E+09 -6.41578986155E-01 +7.16268916121E-01 -4.35069053747E-06 +2.52394323903E-05 +7.48908690650E-05 +3.54708164130E-05 -7.15107662149E-01 +6.49786053975E-01
1.01000000000E+09 -6.35807515115E-01 +7.20714116463E-01 -3.10591578995E-05 +5.59937393610E-05 -4.15416805435E-05 -1.48134652638E-05 -7.11520203184E-01 +6.53324508667E-01
1.01500000000E+09 -6.30965573208E-01 +7.24442971056E-01 -1.11719616411E-05 +6.83575089592E-05 -3.85637917019E-06 +1.32577331951E-05 -7.08336506545E-01 +6.56795595051E-01
1.02000000000E+09 -6.27097450021E-01 +7.27918783416E-01 -1.94940554330E-05 +2.25061719366E-05 +2.14989239066E-05 +1.33062029675E-05 -7.04751583570E-01 +6.60378902055E-01
1.02500000000E+09 -6.23748477252E-01 +7.31202331358E-01 +4.43660149970E-05 +3.19465814267E-05 +4.38000113914E-06 +8.39882891048E-05 -7.01739763980E-01 +6.63871278877E-01
1.03000000000E+09 -6.20839134772E-01 +7.34218841258E-01 +1.53295564075E-05 -1.99424354322E-06 +5.54458752384E-05 +3.19729686938E-05 -6.98009791681E-01 +6.67571627885E-01
1.03500000000E+09 -6.17073046725E-01 +7.37109510109E-01 -3.86207978539E-07 +5.85693266785E-06 -1.34701972302E-05 +7.89778293425E-06 -6.93939296984E-01 +6.71354279741E-01
1.04000000000E+09 -6.12518594482E-01 +7.40176844628E-01 +6.04282219225E-06 -1.05314334749E-05 -1.37359219396E-05 +9.37431921751E-06 -6.89772768978E-01 +6.74943056542E-01
1.04500000000E+09 -6.06959192408E-01 +7.43824048249E-01 -1.69857785600E-05 +4.06723398709E-06 -8.97118922046E-08 -2.44841558219E-05 -6.86074402698E-01 +6.78177999766E-01
1.05000000000E+09 -6.00377994044E-01 +7.47968051946E-01 +1.98031353270E-05 +1.33298392004E-05 -3.26197703573E-05 +8.52438517695E-06 -6.82652418284E-01 +6.81647736011E-01
1.05500000000E+09 -5.92803137865E-01 +7.52187542240E-01 +2.73769455712E-05 +1.07928488004E-05 -4.19868897356E-05 -1.58458063911E-05 -6.79225907107E-01 +6.85079079848E-01
1.06000000000E+09 -5.84866418226E-01 +7.56744820027E-01 +4.24761882114E-07 +1.01683931508E-05 -4.13192429517E-06 +2.94928348834E-05 -6.75697639648E-01 +6.88785426048E-01
1.06500000000E+09 -5.77153997714E-01 +7.61429694912E-01 -5.74237376044E-07 +1.05630365791E-05 +2.91303701552E-05 +1.21489202135E-05 -6.71616144924E-01 +6.92526856343E-01
1.07000000000E+09 -5.70099327130E-01 +7.65443810104E-01 -6.86304543754E-06 +8.82334973963E-06 +3.48198617405E-05 +3.87986498970E-06 -6.67240217029E-01 +6.96138412435E-01
1.07500000000E+09 -5.64261300375E-01 +7.69230016099E-01 +2.19565921896E-05 +3.01437115321E-05 +3.75582042019E-05 +6.21947234464E-05 -6.62647224891E-01 +6.99634456883E-01
1.08000000000E+09 -5.59338973129E-01 +7.72336682265E-01 +6.11455239987E-05 +4.55345563824E-05 +5.83918192774E-05 +1.61592199746E-05 -6.58725952435E-01 +7.03264048690E-01
1.08500000000E+09 -5.55578637351E-01 +7.75101979661E-01 +3.33089123680E-05 +2.84900471358E-05 +4.22816325560E-05 +5.88603542672E-05 -6.54771988533E-01 +7.06622487280E-01
1.09000000000E+09 -5.52282830654E-01 +7.77482145958E-01 +5.07957882719E-05 +3.96975434938E-05 +4.92110239664E-05 +3.03100304360E-05 -6.50833017708E-01 +7.10255812383E-01
1.09500000000E+09 -5.49478109569E-01 +7.79463787654E-01 +2.70777058862E-05 +1.70598057083E-05 +1.12956300561E-04 +3.72582270775E-05 -6.46826900392E-01 +7.13935353266E-01
1.10000000000E+09 -5.45799322922E-01 +7.81725100369E-01 +3.61020854995E-05 +5.46956583506E-05 +3.37560466868E-05 +1.10477732340E-05 -6.42540991549E-01 +7.17700996396E-01
1.10500000000E+09 -5.41699603867E-01 +7.84344572989E-01 +3.54595983627E-05 +2.59796140232E-05 +4.34294970323E-05 +2.37572409242E-05 -6.38330152520E-01 +7.21004582053E-01
1.11000000000E+09 -5.36408229356E-01 +7.87443901058E-01 +6.11545425057E-05 -9.72881298075E-06 +3.67793283135E-05 +6.67651011240E-05 -6.33918240739E-01 +7.24191266813E-01
1.11500000000E+09 -5.30312027695E-01 +7.91008765728E-01 +5.13055237681E-05 +1.15225778619E-06 +5.60975755759E-05 +3.85266608165E-05 -6.29830369732E-01 +7.27331749356E-01
1.12000000000E+09 -5.23332474875E-01 +7.94479325408E-01 +6.26758911783E-05 +3.36984320573E-05 +5.08552378448E-05 +4.07042663212E-06 -6.25712628121E-01 +7.30774013069E-01
1.12500000000E+09 -5.16019078543E-01 +7.98015909568E-01 +7.29965866042E-05 +5.99079301760E-05 +7.96966134156E-05 +2.97093670917E-05 -6.21264439316E-01 +7.34705875459E-01
1.13000000000E+09 -5.08884830142E-01 +8.01142362306E-01 +8.85032458528E-05 +2.11142748000E-05 +5.36195097398E-05 +5.67297264449E-05 -6.16752061221E-01 +7.38087638950E-01
1.13500000000E+09 -5.02083280827E-01 +8.03735190223E-01 +1.10273476161E-04 -1.99658304052E-07 +8.25967639108E-05 +4.23472762187E-05 -6.11721250092E-01 +7.41707518662E-01
1.14000000000E+09 -4.96030806448E-01 +8.06109111037E-01 +1.14265424173E-04 -4.54833808213E-05 +9.06558583371E-05 -1.52295731625E-05 -6.06912774269E-01 +7.45083740340E-01
1.14500000000E+09 -4.90574139661E-01 +8.07780592483E-01 +8.29933184066E-05 +1.28271741385E-05 +6.44777450053E-05 -3.78443313589E-05 -6.02111028232E-01 +7.48316196637E-01
1.15000000000E+09 -4.85545930929E-01 +8.09405318602E-01 +1.28250749847E-04 -4.52851109497E-05 +9.38029627747E-05 -1.11028105964E-05 -5.97411855688E-01 +7.51980091834E-01
1.15500000000E+09 -4.80638571111E-01 +8.11239434711E-01 +8.60100346544E-05 -4.06296561669E-05 +6.49327865438E-05 -6.51929290407E-05 -5.92310609320E-01 +7.55515958751E-01
1.16000000000E+09 -4.75361558266E-01 +8.13081112587E-01 +4.31894406412E-05 -5.32745966499E-05 +1.09371325194E-04 -2.30697213167E-05 -5.87495075455E-01 +7.59326590441E-01
1.16500000000E+09 -4.69720502074E-01 +8.15740718646E-01 +7.62202372369E-05 -6.50985487812E-05 +1.02746359133E-04 -5.07344971712E-05 -5.82202828999E-01 +7.62709991268E-01
1.17000000000E+09 -4.63297977674E-01 +8.18616577057E-01 +3.87225112358E-05 -4.14186777640E-05 +7.51045667306E-05 -6.13974184388E-05 -5.76692795526E-01 +7.65745233993E-01
1.17500000000E+09 -4.56411554986E-01 +8.21584919939E-01 +1.25808472097E-04 -4.92446677459E-05 +1.14863965197E-04 -7.34588799674E-05 -5.70971904372E-01 +7.68778388386E-01
1.18000000000E+09 -4.49038523963E-01 +8.24884695902E-01 +1.04022185176E-04 -8.93932235739E-05 +1.40579768870E-04 -9.08257929787E-05 -5.65411672735E-01 +7.71622992967E-01
1.18500000000E+09 -4.41474544555E-01 +8.27904574544E-01 +1.19254079624E-04 -1.38600751058E-04 +1.28120270814E-04 -1.59465913481E-04 -5.59661836166E-01 +7.74343431110E-01
1.19000000000E+09 -4.33760705665E-01 +8.30273075916E-01 +9.24691335827E-05 -1.76190792926E-04 +1.14291572432E-04 -2.02441788777E-04 -5.53512164441E-01 +7.76774753463E-01
1.19500000000E+09 -4.26579073907E-01 +8.32099602572E-01 +7.57078387987E-05 -2.06602586227E-04 +8.33813856974E-05 -2.87499588723E-04 -5.47480083782E-01 +7.77844608674E-01
1.20000000000E+09 -4.19873372538E-01 +8.33044486505E-01 +4.32238979045E-06 -2.75331044828E-04 -2.27501158959E-05 -3.08154542421E-04 -5.42911774786E-01 +7.77828299916E-01
1.20500000000E+09 -4.13454297480E-01 +8.34224584371E-01 -1.03338223167E-04 -2.75697201729E-04 -7.97464782421E-05 -2.14563494116E-04 -5.40279572945E-01 +7.78495753646E-01
1.21000000000E+09 -4.06893478890E-01 +8.35547028498E-01 -6.20161957788E-05 -1.41597828214E-04 -6.14700776309E-05 -1.09494000786E-04 -5.38227150970E-01 +7.81513323666E-01
1.21500000000E+09 -3.99829187525E-01 +8.37089673203E-01 -3.12516981146E-05 -1.66895630345E-04 -6.00404209364E-05 -9.08888968024E-05 -5.35164279614E-01 +7.85904363309E-01
1.22000000000E+09 -3.92286024086E-01 +8.39150193967E-01 -4.64349953625E-05 -1.56089931986E-04 -2.68336836214E-05 -1.06258987558E-04 -5.30682453715E-01 +7.91007156183E-01
1.22500000000E+09 -3.84076651237E-01 +8.41533523562E-01 -4.75841706175E-05 -1.38040872366E-04 -2.06762196412E-05 -1.92724957210E-04 -5.25515984545E-01 +7.95991302014E-01
1.23000000000E+09 -3.75650234624E-01 +8.44502558763E-01 -5.31288621141E-05 -1.29439121949E-04 -7.82561997943E-05 -1.49759842548E-04 -5.19635412967E-01 +8.00083997087E-01
1.23500000000E+09 -3.67324022124E-01 +8.47534919802E-01 -8.26791631212E-05 -1.42899403730E-04 -7.98202147963E-05 -1.35831580331E-04 -5.13897625273E-01 +8.04238482584E-01
1.24000000000E+09 -3.59114650142E-01 +8.50786990859E-01 -6.87311630521E-05 -1.64709644192E-04 -1.22674732827E-04 -1.72153051186E-04 -5.07637987078E-01 +8.07794011171E-01
1.24500000000E+09 -3.51326100310E-01 +8.54078856732E-01 -1.35731640679E-04 -2.11630240648E-04 -8.76401076409E-05 -1.60762041695E-04 -5.01231647665E-01 +8.11325929953E-01
1.25000000000E+09 -3.43732060113E-01 +8.56798765874E-01 -1.20876949335E-04 -1.39299982413E-04 -1.24190315310E-04 -1.91536105916E-04 -4.94663804373E-01 +8.15245864861E-01
1.25500000000E+09 -3.36510935603E-01 +8.58676153050E-01 -1.04981801899E-04 -1.87176067528E-04 -1.27188170820E-04 -1.41481380014E-04 -4.87959858797E-01 +8.18934113747E-01
1.26000000000E+09 -3.29065066664E-01 +8.59918691165E-01 -1.55605765233E-04 -2.20922869536E-04 -1.41721839522E-04 -2.39163066871E-04 -4.81210350036E-01 +8.22815105619E-01
1.26500000000E+09 -3.21500368527E-01 +8.60361347341E-01 -1.77441524536E-04 -2.40695343411E-04 -2.23403681472E-04 -2.91910257663E-04 -4.74117856378E-01 +8.26109043356E-01
1.27000000000E+09 -3.13533763000E-01 +8.60914442006E-01 -2.54658712525E-04 -2.03622926061E-04 -2.56118199897E-04 -2.22813460636E-04 -4.67207738513E-01 +8.29660398048E-01
1.27500000000E+09 -3.04546249747E-01 +8.61642807195E-01 -2.67560150497E-04 -1.67248069720E-04 -3.33036950602E-04 -2.17074750629E-04 -4.60169248823E-01 +8.32950418960E-01
1.28000000000E+09 -2.94595802304E-01 +8.62610859161E-01 -3.52289569457E-04 -1.30911239667E-04 -3.34882610160E-04 -1.62507464775E-04 -4.53028349279E-01 +8.36185558088E-01
1.28500000000E+09 -2.83605024148E-01 +8.64150529674E-01 -3.19549445946E-04 -1.13720276946E-04 -3.52273038607E-04 -1.80320361858E-04 -4.45508644387E-01 +8.39634521099E-01
1.29000000000E+09 -2.72671258794E-01 +8.65839465961E-01 -3.83652824910E-04 -8.71763824208E-05 -4.22547532983E-04 -7.37450936505E-05 -4.37866046236E-01 +8.42949865924E-01
1.29500000000E+09 -2.61913830952E-01 +8.68199037366E-01 -3.89121860736E-04 -1.28512330130E-04 -4.30972347699E-04 -8.92234091021E-05 -4.29923993110E-01 +8.45917469403E-01
1.30000000000E+09 -2.51696650466E-01 +8.71195434558E-01 -5.15120536175E-04 -4.49753455481E-05 -5.07503510507E-04 +2.24180601225E-05 -4.22319251338E-01 +8.49199633398E-01
1.30500000000E+09 -2.42374624588E-01 +8.73988672781E-01 -5.30172008842E-04 -3.44653555525E-07 -5.15524671957E-04 +1.00869090467E-06 -4.14188962099E-01 +8.52241849768E-01
1.31000000000E+09 -2.33643116366E-01 +8.76064044449E-01 -6.30453059823E-04 +1.11500652856E-04 -5.97593381803E-04 +9.52662841515E-05 -4.05834726906E-01 +8.55329019212E-01
1.31500000000E+09 -2.25547448816E-01 +8.77435610384E-01 -5.45992864021E-04 +2.09417846604E-04 -6.00703955311E-04 +2.04949201790E-04 -3.97144571848E-01 +8.58468219950E-01
1.32000000000E+09 -2.18137146534E-01 +8.77824621798E-01 -5.48300047054E-04 +2.35877357263E-04 -5.78565575237E-04 +2.21733596959E-04 -3.88029270458E-01 +8.61352927119E-01
1.32500000000E+09 -2.10718607851E-01 +8.77531176426E-01 -6.01667460698E-04 +2.75157276540E-04 -5.54804175048E-04 +3.04474446592E-04 -3.78773777686E-01 +8.64296872044E-01
1.33000000000E+09 -2.02254630310E-01 +8.76833054608E-01 -5.84798485222E-04 +3.23927761509E-04 -5.47464993747E-04 +4.14705388111E-04 -3.69332261459E-01 +8.67189034671E-01
1.33500000000E+09 -1.92593683593E-01 +8.75964953408E-01 -6.36996821309E-04 +4.62536980226E-04 -5.68446010135E-04 +5.35582807711E-04 -3.59752324136E-01 +8.69960334636E-01
1.34000000000E+09 -1.81179566228E-01 +8.75489912729E-01 -5.16705951815E-04 +6.12157800032E-04 -5.29078321194E-04 +5.96783192249E-04 -3.49743058145E-01 +8.72700149955E-01
1.34500000000E+09 -1.68397753974E-01 +8.75245361905E-01 -5.53957056520E-04 +6.83603010107E-04 -5.38279855534E-04 +6.22600298033E-04 -3.38945673806E-01 +8.75464835069E-01
1.35000000000E+09 -1.54227457276E-01 +8.75342295583E-01 -4.74087976574E-04 +8.24301573433E-04 -4.86918180006E-04 +7.83597870079E-04 -3.28012564080E-01 +8.77965894536E-01
1.35500000000E+09 -1.39395656761E-01 +8.75687086220E-01 -4.51588335918E-04 +8.36894456377E-04 -4.33114078645E-04 +8.82089755984E-04 -3.16737662927E-01 +8.80279335532E-01
1.36000000000E+09 -1.24249799411E-01 +8.76090583334E-01 -4.06895532213E-04 +9.30633157406E-04 -3.56775274991E-04 +9.27460856672E-04 -3.05060121107E-01 +8.82377943708E-01
1.36500000000E+09 -1.09157176008E-01 +8.76255275412E-01 -4.16233451370E-04 +1.11403890214E-03 -3.45489472433E-04 +1.03719136221E-03 -2.93412578489E-01 +8.84348270944E-01
1.37000000000E+09 -9.48845409257E-02 +8.75414323212E-01 -2.33570973435E-04 +1.30086332064E-03 -2.58012315954E-04 +1.19322747624E-03 -2.80932673086E-01 +8.86226107359E-01
1.37500000000E+09 -8.20105805916E-02 +8.73728119671E-01 +1.64754722557E-05 +1.37491553979E-03 -1.45633762241E-04 +1.31911973344E-03 -2.67473995248E-01 +8.87971320925E-01
1.38000000000E+09 -6.97411280760E-02 +8.71392848206E-01 +1.02625719558E-04 +1.36662761258E-03 -5.18617462746E-05 +1.51612181170E-03 -2.53104624897E-01 +8.89423912756E-01
1.38500000000E+09 -5.72380187195E-02 +8.68297753406E-01 +2.46287708891E-04 +1.51842124608E-03 +1.55248215735E-04 +1.70290603718E-03 -2.38311421720E-01 +8.90741950592E-01
1.39000000000E+09 -4.45490142513E-02 +8.64715105701E-01 +3.75302566003E-04 +1.62750607488E-03 +5.15626663699E-04 +1.81113637037E-03 -2.22951240311E-01 +8.91789065872E-01
1.39500000000E+09 -3.04177933090E-02 +8.60858668922E-01 +5.64439596914E-04 +1.74617369546E-03 +7.35231691989E-04 +1.87756647535E-03 -2.07152848269E-01 +8.92109278254E-01
1.40000000000E+09 -1.47309561570E-02 +8.56460375374E-01 +9.07683342845E-04 +1.89268541398E-03 +1.09628968456E-03 +1.87345965539E-03 -1.90466468941E-01 +8.92070353562E-01
1.40500000000E+09 +1.95331800428E-03 +8.51718544542E-01 +1.32472276020E-03 +1.97746830856E-03 +1.37255897278E-03 +1.84907860110E-03 -1.72623810890E-01 +8.91339636058E-01
1.41000000000E+09 +1.99701635218E-02 +8.46972896513E-01 +1.81112782515E-03 +1.76270805083E-03 +1.72988666430E-03 +1.75598921539E-03 -1.53506898070E-01 +8.90196588772E-01
1.41500000000E+09 +3.92976565202E-02 +8.42052071571E-01 +1.98489714995E-03 +1.65323987338E-03 +2.00775811770E-03 +1.80113819130E-03 -1.32745645445E-01 +8.88202982028E-01
1.42000000000E+09 +6.00393594344E-02 +8.36355233216E-01 +2.35402057302E-03 +1.63310736953E-03 +2.52640047857E-03 +1.80548453118E-03 -1.10888131600E-01 +8.85163384818E-01
1.42500000000E+09 +8.10900831711E-02 +8.28626854609E-01 +2.81580942062E-03 +1.41838116068E-03 +3.15832471962E-03 +1.46001155182E-03 -8.81705697546E-02 +8.81052200594E-01
1.43000000000E+09 +1.02132711156E-01 +8.19034626674E-01 +3.28381617464E-03 +1.43736861083E-03 +3.69219334435E-03 +1.22190686657E-03 -6.49332647793E-02 +8.76076086139E-01
1.43500000000E+09 +1.23147460902E-01 +8.06850411248E-01 +4.19451724165E-03 +9.52798149005E-04 +4.40042158037E-03 +5.82326638476E-04 -3.98413173214E-02 +8.69358084843E-01
1.44000000000E+09 +1.44399495119E-01 +7.93070037224E-01 +4.73534565642E-03 -7.95434961022E-05 +4.74376957214E-03 -4.55899043201E-04 -1.31558588427E-02 +8.60358593094E-01
1.44500000000E+09 +1.67084144684E-01 +7.76720366529E-01 +4.74368643246E-03 -1.10485128957E-03 +4.74168094420E-03 -1.30735487456E-03 +1.54750209705E-02 +8.49177302714E-01
1.45000000000E+09 +1.91021840744E-01 +7.57645978258E-01 +4.67744393382E-03 -1.62563171582E-03 +4.69909722421E-03 -1.95118859697E-03 +4.57059978461E-02 +8.34603816810E-01
1.45500000000E+09 +2.16222045810E-01 +7.35681661643E-01 +4.97269231238E-03 -2.18321215625E-03 +4.83485254028E-03 -2.60931352596E-03 +7.72175720966E-02 +8.17656997621E-01
1.46000000000E+09 +2.42921753456E-01 +7.11080274821E-01 +5.43984478222E-03 -3.10314904024E-03 +4.93115855042E-03 -3.47169172699E-03 +1.10403206376E-01 +7.96807642025E-01
1.46500000000E+09 +2.70965533147E-01 +6.83601291559E-01 +5.75253321342E-03 -4.42338586667E-03 +5.03353461686E-03 -4.43765277337E-03 +1.44573072181E-01 +7.70710002179E-01
1.47000000000E+09 +3.00223535595E-01 +6.52062852902E-01 +5.77435204040E-03 -6.50599631825E-03 +5.33249139956E-03 -5.97819413263E-03 +1.79675216795E-01 +7.38264596246E-01
1.47500000000E+09 +3.29456337893E-01 +6.14764641402E-01 +4.51892775029E-03 -8.76466930798E-03 +4.62279692889E-03 -8.26317271748E-03 +2.14771770712E-01 +6.98357656668E-01
1.48000000000E+09 +3.56490313840E-01 +5.70469695217E-01 +2.52645530091E-03 -1.01166237500E-02 +2.87858859813E-03 -1.01494667709E-02 +2.49559082592E-01 +6.51112877204E-01
1.48500000000E+09 +3.79482397479E-01 +5.18222085328E-01 +1.05602637539E-03 -1.12566334132E-02 +9.54654988627E-04 -1.15830558043E-02 +2.82247089202E-01 +5.94513963812E-01
1.49000000000E+09 +3.96115811685E-01 +4.58147182712E-01 -1.15259647399E-03 -1.29582283273E-02 -1.78762163297E-03 -1.29132534899E-02 +3.10064395104E-01 +5.27541813914E-01
1.49500000000E+09 +4.05147933433E-01 +3.90436534795E-01 -4.94900229435E-03 -1.41175342986E-02 -5.26305132413E-03 -1.32980407272E-02 +3.28724419289E-01 +4.49795929439E-01
1.50000000000E+09 +4.05329275350E-01 +3.14184188089E-01 -9.14167890952E-03 -1.36831881154E-02 -8.57724174963E-03 -1.28705186953E-02 +3.34194743854E-01 +3.62015996798E-01
1.50500000000E+09 +3.92448902135E-01 +2.30050357691E-01 -1.36328188633E-02 -1.21779862582E-02 -1.26841678514E-02 -1.21515534941E-02 +3.22900980053E-01 +2.66302749632E-01
1.51000000000E+09 +3.64681728563E-01 +1.42400605126E-01 -1.77654655386E-02 -8.19074428049E-03 -1.72595323676E-02 -8.79028318153E-03 +2.90374272478E-01 +1.66175684233E-01
1.51500000000E+09 +3.18268457657E-01 +5.36054051810E-02 -2.03128002677E-02 -3.81114205250E-03 -2.03628900254E-02 -4.33849739009E-03 +2.34504987283E-01 +6.96435739186E-02
1.52000000000E+09 +2.51595107882E-01 -2.62445396514E-02 -2.22402737009E-02 +1.85880127845E-03 -2.25074708824E-02 +1.54828514104E-03 +1.55816033414E-01 -1.46878524478E-02
1.52500000000E+09 +1.68250489730E-01 -9.22234223003E-02 -2.19150863235E-02 +9.68592039579E-03 -2.22202532355E-02 +9.61852056986E-03 +6.07927299457E-02 -8.10736355102E-02
1.53000000000E+09 +7.19012229080E-02 -1.38754787320E-01 -1.66969420145E-02 +1.60137208249E-02 -1.68597385110E-02 +1.61290352944E-02 -4.96666278343E-02 -1.24357551162E-01
1.53500000000E+09 -3.31119005796E-02 -1.63744583903E-01 -1.16420362690E-02 +1.91716232090E-02 -1.15762672471E-02 +1.91833233211E-02 -1.62986543805E-01 -1.40069267080E-01
1.54000000000E+09 -1.42792594740E-01 -1.64052706934E-01 -5.84456196803E-03 +2.09711150001E-02 -5.88221235790E-03 +2.07420773528E-02 -2.73142484763E-01 -1.31573838730E-01
1.54500000000E+09 -2.46203101793E-01 -1.39406069109E-01 +6.35876417196E-04 +2.14341160147E-02 +1.42277840975E-04 +2.11711956246E-02 -3.71052249114E-01 -1.02284476225E-01
1.55000000000E+09 -3.38058744870E-01 -9.81421399422E-02 +6.03968392287E-03 +1.84996758975E-02 +5.25503355252E-03 +1.87143949361E-02 -4.53841579805E-01 -5.91020175367E-02
1.55500000000E+09 -4.15624833538E-01 -4.41526348536E-02 +9.50533060819E-03 +1.53396403564E-02 +9.06551165404E-03 +1.60730722936E-02 -5.21035365797E-01 -7.41705565883E-03
1.56000000000E+09 -4.76483860430E-01 +1.40967862706E-02 +1.21960374466E-02 +1.14148743013E-02 +1.22813712667E-02 +1.23312293174E-02 -5.73833717879E-01 +4.87409272414E-02
1.56500000000E+09 -5.25128783979E-01 +7.28269942872E-02 +1.26418099081E-02 +7.21349602773E-03 +1.33020551416E-02 +7.85729629881E-03 -6.14661698119E-01 +1.06433902089E-01
1.57000000000E+09 -5.62469335746E-01 +1.31549433726E-01 +1.22440544389E-02 +4.54254627331E-03 +1.30617354799E-02 +4.73190054352E-03 -6.43799725967E-01 +1.63598951376E-01
