# Hz S RI R 50
! CMT, C1220, 16058040, 17.2.0/1
! Date: 14/08/2018 12:39:56
! Data: Format (Calibration Info)
! Freq                      S11: Re/Im (F2)                       S21: Re/Im (F2)                       S12: Re/Im (F2)                       S22: Re/Im (F2)            
1.00000000000E+09 -6.46466957484E-01 +7.14933219105E-01 +1.72796399685E-05 -7.02985408365E-06 +1.39092513019E-05 +1.92202645008E-05 -6.70363475843E-01 +5.40376000525E-01
1.00500000000E+09 -6.38976889399E-01 +7.20067533763E-01 +1.65565419858E-05 +5.14213895791E-05 -1.24453725286E-05 -6.38990760860E-06 -6.67307816866E-01 +5.44005787038E-01
1.01000000000E+09 -6.32363001860E-01 +7.24851603422E-01 +1.75233460743E-05 +5.22854613574E-05 +1.92982403309E-05 -2.51771437288E-05 -6.64443819918E-01 +5.47245073184E-01
1.01500000000E+09 -6.27437827629E-01 +7.28818531586E-01 +2.60428241066E-06 -4.29767022992E-06 -1.94131515906E-05 +6.03784597588E-05 -6.61745814802E-01 +5.50403453184E-01
1.02000000000E+09 -6.24194632603E-01 +7.32196065831E-01 -9.32574066006E-06 +4.17631110028E-05 +1.20933608586E-05 +1.13527655655E-05 -6.59258327260E-01 +5.53489225230E-01
1.02500000000E+09 -6.21917630262E-01 +7.34875919101E-01 -2.80100832810E-05 -3.74659770639E-05 -4.13384226615E-05 +4.26319064042E-05 -6.56919338992E-01 +5.56758164606E-01
1.03000000000E+09 -6.20595080917E-01 +7.37354813131E-01 +1.12046702572E-05 +1.63577484115E-05 -5.31115379427E-06 +6.62999155888E-05 -6.54331555450E-01 +5.60200804244E-01
1.03500000000E+09 -6.18537728607E-01 +7.39657922427E-01 -2.85509623226E-05 +2.83736253197E-05 -1.40448639280E-05 +7.48554681173E-06 -6.51192631568E-01 +5.63927951256E-01
1.04000000000E+09 -6.15541256888E-01 +7.42198411018E-01 +4.19369220091E-06 -1.94808129913E-05 -3.60892334876E-05 +4.65452578832E-05 -6.48215819076E-01 +5.67145839292E-01
1.04500000000E+09 -6.10981254928E-01 +7.45543434412E-01 +1.25141846064E-05 +9.36954326021E-05 -6.05711373076E-06 +3.15713026411E-05 -6.45339258228E-01 +5.70579515506E-01
1.05000000000E+09 -6.04372328005E-01 +7.49638205090E-01 -7.84181230163E-06 +2.23447680196E-05 +1.66371732454E-05 +2.49364899429E-05 -6.42526671248E-01 +5.73675565908E-01
1.05500000000E+09 -5.96585920340E-01 +7.54205520344E-01 -7.79006733936E-06 +1.11656892900E-05 -6.23039254911E-06 +4.29810481208E-05 -6.40057349847E-01 +5.77022337287E-01
1.06000000000E+09 -5.87926145394E-01 +7.59091341378E-01 +3.09756397394E-05 +6.23181248924E-05 +1.87039533878E-05 +6.60707031637E-05 -6.37383321596E-01 +5.80652667363E-01
1.06500000000E+09 -5.79294177253E-01 +7.64270114759E-01 +2.10830243683E-05 -2.27302684433E-05 -2.29524726784E-06 +6.52888714643E-05 -6.34186310330E-01 +5.84264638233E-01
1.07000000000E+09 -5.71907072081E-01 +7.68849642031E-01 +2.11784077187E-05 -4.85422822126E-06 +2.75200606995E-05 +7.42978590725E-05 -6.30737471767E-01 +5.87779268269E-01
1.07500000000E+09 -5.65852721986E-01 +7.72656767335E-01 -1.72281001789E-05 -4.83055726695E-06 -6.96044631173E-06 +7.95346130758E-06 -6.27193739403E-01 +5.91071558779E-01
1.08000000000E+09 -5.61668824336E-01 +7.75974832048E-01 +2.56467661171E-05 +2.24588493912E-05 +3.40555849429E-05 +4.55558777795E-05 -6.23981313549E-01 +5.94763565527E-01
1.08500000000E+09 -5.59057853906E-01 +7.78473628657E-01 +5.96892254515E-06 -1.53894775017E-05 +2.77812058127E-05 +5.07316010456E-05 -6.20823720507E-01 +5.98129443972E-01
1.09000000000E+09 -5.57072746282E-01 +7.80450742507E-01 +5.91570606181E-05 +4.46277556984E-05 +1.22652861225E-05 +2.77838578084E-06 -6.17891561545E-01 +6.01782581570E-01
1.09500000000E+09 -5.55583799765E-01 +7.82138015881E-01 -2.13001921232E-05 +6.23434164633E-06 +2.31266001791E-05 -2.06930592155E-06 -6.14817115138E-01 +6.05411570489E-01
1.10000000000E+09 -5.52824409326E-01 +7.84229983908E-01 -3.97684140432E-06 -1.81105036545E-08 +3.01692828092E-05 +4.19184985879E-05 -6.11514357966E-01 +6.08888214210E-01
1.10500000000E+09 -5.48983437455E-01 +7.86829215422E-01 +8.11858215411E-06 +1.06767031632E-05 +5.65982363211E-06 +2.96841963568E-05 -6.08103675627E-01 +6.12157396738E-01
1.11000000000E+09 -5.43399548244E-01 +7.90027993700E-01 -1.11005716973E-05 +4.71363404250E-05 -1.76988503431E-05 -1.08325634688E-05 -6.04684936896E-01 +6.15419171627E-01
1.11500000000E+09 -5.36404078377E-01 +7.94031358884E-01 +2.20304207604E-06 +3.64174678859E-05 +1.81286695906E-05 +7.19622295710E-05 -6.01429107463E-01 +6.18631297019E-01
1.12000000000E+09 -5.28442068909E-01 +7.98115842098E-01 +5.15469886184E-05 +8.44726829045E-06 +6.76182250402E-05 -1.09922881510E-05 -5.98097186123E-01 +6.22293864140E-01
1.12500000000E+09 -5.20345065559E-01 +8.02288591436E-01 +5.24340532841E-05 +1.76246587045E-05 +4.68671541659E-05 +1.00009754141E-06 -5.94699143516E-01 +6.26059142987E-01
1.13000000000E+09 -5.12877955199E-01 +8.06173178003E-01 +4.63873724798E-05 +1.43807206674E-05 +6.66431169703E-05 -2.83030374690E-05 -5.91078312955E-01 +6.29829890803E-01
1.13500000000E+09 -5.06271323948E-01 +8.09010883504E-01 +8.78204589012E-05 +5.45224459266E-05 +1.42696580195E-05 +2.14752188643E-05 -5.87262629317E-01 +6.33581943769E-01
1.14000000000E+09 -5.01153628002E-01 +8.11436882664E-01 +2.78783991214E-05 +3.38792317184E-05 +7.95806454787E-05 -1.03382263886E-06 -5.83185105612E-01 +6.36972229606E-01
1.14500000000E+09 -4.97551298126E-01 +8.12913086737E-01 +5.44581868266E-05 +1.15065746596E-05 +5.37940568236E-05 -2.37491664586E-05 -5.79049632448E-01 +6.40457879596E-01
1.15000000000E+09 -4.94174931564E-01 +8.14450966453E-01 +3.55962860450E-05 +2.28400386102E-06 +4.58229336917E-05 +9.88480265010E-06 -5.75227569857E-01 +6.44021899532E-01
1.15500000000E+09 -4.91136050102E-01 +8.16004828205E-01 +9.30422801069E-05 -1.29653021674E-05 +7.02549365994E-05 -1.89286489886E-05 -5.71146570992E-01 +6.47597987413E-01
1.16000000000E+09 -4.86928447463E-01 +8.17974173336E-01 +6.18675868001E-05 -2.78580765815E-05 +6.73571411167E-05 -4.90102945688E-06 -5.67309707321E-01 +6.51293471840E-01
1.16500000000E+09 -4.81588723096E-01 +8.20821479780E-01 +4.06030029574E-05 -6.38638913312E-05 +3.58418779863E-05 -4.17143746794E-05 -5.63012324149E-01 +6.54737980474E-01
1.17000000000E+09 -4.74811100224E-01 +8.23956238294E-01 +5.58294177889E-05 -4.51654690907E-05 +1.17337001022E-04 +1.47569523577E-05 -5.58480699767E-01 +6.57938920051E-01
1.17500000000E+09 -4.66985227811E-01 +8.27640626413E-01 +6.31269631391E-05 -8.90262552854E-05 +4.31278285241E-05 -6.97791679352E-05 -5.53749107492E-01 +6.61083154787E-01
1.18000000000E+09 -4.58743643694E-01 +8.31685219347E-01 +1.00128264475E-04 -1.27369183636E-05 +2.73688812273E-05 -2.92765773441E-05 -5.49011450227E-01 +6.64152082661E-01
1.18500000000E+09 -4.50510858443E-01 +8.35116049420E-01 +3.49949435829E-05 -5.57190505444E-05 +2.52922828308E-05 -4.50006989768E-05 -5.44086390206E-01 +6.67232437469E-01
1.19000000000E+09 -4.42885273836E-01 +8.38095324572E-01 +6.28188548568E-05 -4.46633161301E-06 +3.84267648803E-06 -1.26558726829E-04 -5.38770963842E-01 +6.70017138445E-01
1.19500000000E+09 -4.36380205173E-01 +8.40124019244E-01 +8.46183235593E-05 -8.56287271579E-05 +6.46720895622E-05 -7.02173487553E-05 -5.33530700042E-01 +6.71496961319E-01
1.20000000000E+09 -4.31345137926E-01 +8.40967431212E-01 +2.14939664088E-05 -1.43903223550E-04 +7.42298637715E-06 -1.34299043941E-04 -5.29555241183E-01 +6.71828737909E-01
1.20500000000E+09 -4.26994159679E-01 +8.42118529184E-01 -5.51912453268E-05 -1.43489312189E-04 -1.95412205188E-05 -1.28891267581E-04 -5.27535636845E-01 +6.72717174816E-01
1.21000000000E+09 -4.22616040193E-01 +8.43166783020E-01 -8.10706890846E-05 -4.66377545457E-05 -6.39581215158E-05 -6.03032239325E-05 -5.26139674106E-01 +6.75548849724E-01
1.21500000000E+09 -4.17179848337E-01 +8.44553300006E-01 -3.42102153977E-05 -1.01250341994E-05 +1.51645764962E-05 -5.42683199323E-05 -5.23860599960E-01 +6.79879716873E-01
1.22000000000E+09 -4.10200993032E-01 +8.46536676978E-01 -4.28971579202E-06 -1.01372952383E-04 -1.11482689222E-05 -4.24290115542E-05 -5.20420553172E-01 +6.84877058034E-01
1.22500000000E+09 -4.01746076018E-01 +8.49271184309E-01 +1.93244866384E-05 -3.45910460828E-05 +7.98231971547E-07 -3.13397429861E-05 -5.16311686937E-01 +6.89751144560E-01
1.23000000000E+09 -3.92072346792E-01 +8.52549592528E-01 -2.26690274616E-05 -7.42538285988E-05 -3.72187503310E-05 -7.15833023525E-05 -5.11496366050E-01 +6.94280324004E-01
1.23500000000E+09 -3.81855632954E-01 +8.56543818581E-01 -1.43078844271E-05 -7.55958411269E-05 -3.04554180638E-05 -1.12000465218E-04 -5.06549455234E-01 +6.98418264983E-01
1.24000000000E+09 -3.71760009997E-01 +8.60861259932E-01 -2.46292474220E-05 -9.42125921874E-05 -1.60142982020E-05 -5.04324205099E-05 -5.01602223887E-01 +7.02040825142E-01
1.24500000000E+09 -3.62558498133E-01 +8.65180581336E-01 -2.34001561827E-05 -9.39722251233E-05 -8.52036749383E-06 -1.04903647048E-04 -4.96348629107E-01 +7.05867542673E-01
1.25000000000E+09 -3.54366391259E-01 +8.68939859172E-01 -4.01480772816E-05 -7.49186492726E-05 -6.17524508690E-05 -1.15255693294E-04 -4.91059813086E-01 +7.10004537743E-01
1.25500000000E+09 -3.47360089725E-01 +8.71462639054E-01 -3.68005929437E-05 -9.08053485685E-05 -3.89043672155E-05 -1.27525642182E-04 -4.85387409066E-01 +7.14155447902E-01
1.26000000000E+09 -3.41534595615E-01 +8.73189060051E-01 -3.26196997691E-05 -7.36512138815E-05 -1.28614004701E-05 -1.03917063776E-04 -4.79801891713E-01 +7.18413848484E-01
1.26500000000E+09 -3.36343448625E-01 +8.74290550563E-01 -6.13067361875E-05 -7.22800138188E-05 -3.75792889492E-05 -1.08788350468E-04 -4.74061656189E-01 +7.22418733830E-01
1.27000000000E+09 -3.30722630488E-01 +8.75131663884E-01 -4.59022603417E-05 -1.06680468022E-04 -8.93706710613E-05 -1.37782441637E-04 -4.68269560311E-01 +7.26358931988E-01
1.27500000000E+09 -3.23694976966E-01 +8.76119560194E-01 -1.09724393169E-04 -1.20914833880E-04 -1.17285825381E-04 -1.22135553217E-04 -4.62077223827E-01 +7.30288226597E-01
1.28000000000E+09 -3.14768423432E-01 +8.77588240796E-01 -1.75458662689E-04 -8.02233297815E-05 -1.46130626504E-04 -9.09622388394E-05 -4.55857461354E-01 +7.34003285393E-01
1.28500000000E+09 -3.03701525165E-01 +8.79723271192E-01 -1.70679970300E-04 -7.53755888848E-05 -2.28441787606E-04 -4.46528105178E-05 -4.49324563669E-01 +7.38046128513E-01
1.29000000000E+09 -2.91359207074E-01 +8.82303748123E-01 -1.62541787832E-04 -6.45125727910E-05 -1.62970649985E-04 -9.64141302877E-05 -4.42861592564E-01 +7.41941728291E-01
1.29500000000E+09 -2.78620119322E-01 +8.85615398624E-01 -1.70811715344E-04 -2.34309662465E-05 -1.72344323170E-04 -1.10492205075E-05 -4.36076183003E-01 +7.45814564011E-01
1.30000000000E+09 -2.66020033603E-01 +8.89523187489E-01 -1.77364779655E-04 -1.14872174866E-07 -1.74857174986E-04 -1.32691341464E-05 -4.29176607989E-01 +7.49690193876E-01
1.30500000000E+09 -2.54656355020E-01 +8.92826512729E-01 -1.90148484213E-04 -9.39597455860E-05 -1.55942656556E-04 -3.44208368107E-05 -4.22161974786E-01 +7.53392992131E-01
1.31000000000E+09 -2.45297834741E-01 +8.95397287757E-01 -2.19013747832E-04 -2.18775256484E-05 -2.13119298278E-04 -4.62445850913E-06 -4.14781296146E-01 +7.57026810456E-01
1.31500000000E+09 -2.38094465387E-01 +8.97178775182E-01 -2.43074393463E-04 +3.02096940165E-05 -1.89390505368E-04 +2.22238298321E-07 -4.07177186538E-01 +7.60805534499E-01
1.32000000000E+09 -2.32413349845E-01 +8.97954480042E-01 -2.43351805178E-04 +7.87534830384E-05 -2.41348162770E-04 +5.26507007327E-05 -3.99138276348E-01 +7.64538862294E-01
1.32500000000E+09 -2.27262523620E-01 +8.97995507401E-01 -2.05477612914E-04 +5.95336857180E-05 -2.27116654864E-04 +6.36097443493E-05 -3.90816468042E-01 +7.68048594294E-01
1.33000000000E+09 -2.21246993001E-01 +8.97918288459E-01 -2.45242873837E-04 +1.13397147364E-04 -2.38490227403E-04 +9.05664356299E-05 -3.82369081733E-01 +7.71640247990E-01
1.33500000000E+09 -2.13066786470E-01 +8.97462019879E-01 -2.79359223961E-04 +1.59755417295E-04 -2.45289398920E-04 +1.38822738172E-04 -3.73924624932E-01 +7.75204102243E-01
1.34000000000E+09 -2.02060411348E-01 +8.97244340772E-01 -2.79556464034E-04 +1.47258932337E-04 -2.14127775497E-04 +1.65266772987E-04 -3.64937154740E-01 +7.78874444809E-01
1.34500000000E+09 -1.88021780540E-01 +8.97243348645E-01 -2.73704998767E-04 +2.25892528893E-04 -2.51092429946E-04 +1.67184811796E-04 -3.55389399520E-01 +7.82642776650E-01
1.35000000000E+09 -1.71621463006E-01 +8.97606415960E-01 -2.30678140593E-04 +2.70518229601E-04 -2.32906372877E-04 +1.84001671289E-04 -3.45409009340E-01 +7.86357147149E-01
1.35500000000E+09 -1.53891433892E-01 +8.98308724355E-01 -2.44026566416E-04 +2.39362142012E-04 -2.60271298422E-04 +2.69489791581E-04 -3.35052208438E-01 +7.89904123783E-01
1.36000000000E+09 -1.36205801071E-01 +8.98870721214E-01 -2.26653610282E-04 +2.84617959472E-04 -2.19405296987E-04 +2.77846404130E-04 -3.24386054265E-01 +7.93375816363E-01
1.36500000000E+09 -1.19515042942E-01 +8.99255001906E-01 -2.39422427128E-04 +3.58635321847E-04 -2.27737657388E-04 +3.27610825949E-04 -3.13516361111E-01 +7.96391529809E-01
1.37000000000E+09 -1.05034254417E-01 +8.99067248074E-01 -1.63676123460E-04 +4.30279057019E-04 -1.89232575256E-04 +4.13362795489E-04 -3.02024071297E-01 +7.99666513020E-01
1.37500000000E+09 -9.30750549016E-02 +8.98655796746E-01 -8.69649019879E-05 +4.54036799756E-04 -1.87205321396E-04 +4.13921049687E-04 -2.89696439731E-01 +8.02573439350E-01
1.38000000000E+09 -8.26321058801E-02 +8.97852952484E-01 -8.60153272312E-05 +4.84909777905E-04 -1.50155268188E-04 +4.84406603643E-04 -2.76613929744E-01 +8.05705365178E-01
1.38500000000E+09 -7.20073411246E-02 +8.96414846350E-01 -4.23030434115E-05 +5.13946271565E-04 -8.41489650759E-05 +5.58891150339E-04 -2.62611258198E-01 +8.08570753451E-01
1.39000000000E+09 -6.05330733088E-02 +8.94383647938E-01 -7.65715821256E-05 +5.89361795700E-04 -1.14697588234E-04 +6.47543998916E-04 -2.48245698526E-01 +8.11137319751E-01
1.39500000000E+09 -4.67440580213E-02 +8.91548829026E-01 -1.78966954296E-05 +6.06874489205E-04 +3.21213878770E-05 +6.47273154194E-04 -2.33162501348E-01 +8.13258233296E-01
1.40000000000E+09 -2.96541534666E-02 +8.87677779952E-01 -4.82769483545E-05 +7.24915874022E-04 +6.52873455916E-06 +7.28014192712E-04 -2.17310557238E-01 +8.15115715204E-01
1.40500000000E+09 -9.95067746086E-03 +8.83100505355E-01 +1.24781529732E-04 +8.45047729954E-04 +1.61905945578E-04 +8.34095648903E-04 -2.00304999560E-01 +8.16302159425E-01
1.41000000000E+09 +1.22338353867E-02 +8.77883690859E-01 +3.77243804798E-04 +8.41977248028E-04 +3.46460320209E-04 +8.71190316749E-04 -1.81821814941E-01 +8.17318407941E-01
1.41500000000E+09 +3.58868481247E-02 +8.71628672342E-01 +5.16092599522E-04 +9.39842881920E-04 +5.24383388058E-04 +9.50721917574E-04 -1.62014459959E-01 +8.17594967626E-01
1.42000000000E+09 +5.96763448348E-02 +8.64582070597E-01 +7.06663338490E-04 +8.35428926645E-04 +8.15421612981E-04 +9.10298265730E-04 -1.40760315183E-01 +8.17301740334E-01
1.42500000000E+09 +8.21065033699E-02 +8.56564999429E-01 +8.06182515295E-04 +7.97074611773E-04 +9.09326525822E-04 +8.19979842403E-04 -1.18399589504E-01 +8.15809842132E-01
1.43000000000E+09 +1.03148515188E-01 +8.47327786877E-01 +9.59511423375E-04 +7.54952947113E-04 +1.08036589580E-03 +7.42212940560E-04 -9.49345346282E-02 +8.13590546743E-01
1.43500000000E+09 +1.23078634883E-01 +8.36670722842E-01 +1.11280643279E-03 +8.61735924258E-04 +1.26715741201E-03 +7.51563191719E-04 -6.99858299088E-02 +8.09646717508E-01
1.44000000000E+09 +1.43017480035E-01 +8.24742328802E-01 +1.63980569908E-03 +7.45534746337E-04 +1.71599298281E-03 +6.12094828912E-04 -4.32458031582E-02 +8.03969736781E-01
1.44500000000E+09 +1.64670958850E-01 +8.09906789178E-01 +1.89031261469E-03 +3.06842675772E-04 +1.87516186962E-03 +2.49119320758E-04 -1.39366817998E-02 +7.95966898690E-01
1.45000000000E+09 +1.88292654540E-01 +7.91449398618E-01 +1.85515572906E-03 +5.26025441558E-06 +1.91399594558E-03 -1.49429043536E-04 +1.72538848444E-02 +7.84844687386E-01
1.45500000000E+09 +2.14697586766E-01 +7.69296639563E-01 +2.00071053455E-03 -2.13495534404E-04 +1.96677355830E-03 -3.91659365734E-04 +5.00155878561E-02 +7.71107326344E-01
1.46000000000E+09 +2.44340256131E-01 +7.42616537063E-01 +2.14612801781E-03 -4.63351316983E-04 +2.03774111360E-03 -6.50300693180E-04 +8.44088981790E-02 +7.53313406543E-01
1.46500000000E+09 +2.76103850859E-01 +7.11194468903E-01 +2.49068518133E-03 -8.45463629084E-04 +2.22395055177E-03 -8.69762065444E-04 +1.20709462699E-01 +7.31093158986E-01
1.47000000000E+09 +3.08660410314E-01 +6.74875417258E-01 +2.62590412516E-03 -1.51836725540E-03 +2.36524022631E-03 -1.40096480501E-03 +1.58163683695E-01 +7.01784573845E-01
1.47500000000E+09 +3.40564285676E-01 +6.33062998734E-01 +2.61378360565E-03 -2.47161289554E-03 +2.58986702888E-03 -2.25352312286E-03 +1.96418698186E-01 +6.65648463665E-01
1.48000000000E+09 +3.69613157907E-01 +5.84862104776E-01 +1.86096802693E-03 -3.17159521822E-03 +2.01201165970E-03 -3.12570841906E-03 +2.34487979626E-01 +6.20853235340E-01
1.48500000000E+09 +3.92732124812E-01 +5.30043877172E-01 +1.56771287919E-03 -3.52783414141E-03 +1.59281246680E-03 -3.66782070215E-03 +2.70817697018E-01 +5.66957889754E-01
1.49000000000E+09 +4.09258080245E-01 +4.67894209738E-01 +1.09257170716E-03 -4.33252462104E-03 +8.65406166311E-04 -4.35233277359E-03 +3.02688782483E-01 +5.01679231233E-01
1.49500000000E+09 +4.16034488567E-01 +3.98560086866E-01 +7.91866096081E-06 -5.33349628549E-03 -2.49981511255E-04 -5.04877467044E-03 +3.24113925416E-01 +4.26337767714E-01
1.50000000000E+09 +4.13761250221E-01 +3.21223720036E-01 -1.82390257530E-03 -5.26562470705E-03 -1.75618793937E-03 -4.96157078981E-03 +3.34884481954E-01 +3.41594481463E-01
1.50500000000E+09 +3.98135101080E-01 +2.34549699314E-01 -2.84921415121E-03 -5.08167010582E-03 -2.53942225781E-03 -5.02041356466E-03 +3.28381083645E-01 +2.47642266868E-01
1.51000000000E+09 +3.65153217121E-01 +1.42665834548E-01 -4.61226627334E-03 -4.54086198632E-03 -4.41508878574E-03 -4.73686004455E-03 +3.01488754115E-01 +1.48998001762E-01
1.51500000000E+09 +3.12038785779E-01 +5.19371702833E-02 -5.77152127881E-03 -3.72104967241E-03 -5.77047413774E-03 -3.90483394318E-03 +2.51661127399E-01 +5.44702894247E-02
1.52000000000E+09 +2.40290931420E-01 -2.86350406609E-02 -7.99383160433E-03 -1.94688970664E-03 -8.06127689218E-03 -2.05006067335E-03 +1.81225018409E-01 -3.06452997063E-02
1.52500000000E+09 +1.53325496944E-01 -9.39334073060E-02 -8.02665430340E-03 +1.74745033885E-03 -8.07675220927E-03 +1.71965376217E-03 +9.14556155703E-02 -9.71110112632E-02
1.53000000000E+09 +5.36598350334E-02 -1.39594299260E-01 -6.23293675002E-03 +3.41849182560E-03 -6.32956405956E-03 +3.45178072053E-03 -9.09433838084E-03 -1.41598203835E-01
1.53500000000E+09 -5.32539591622E-02 -1.59337087077E-01 -5.20673410097E-03 +4.94542142202E-03 -5.21686680486E-03 +4.96651918303E-03 -1.14729004038E-01 -1.61076088939E-01
1.54000000000E+09 -1.59735177090E-01 -1.53512495639E-01 -3.17379674959E-03 +5.67316030572E-03 -3.11112250723E-03 +5.59502933303E-03 -2.15878756739E-01 -1.58211823577E-01
1.54500000000E+09 -2.60925290097E-01 -1.27133228106E-01 -1.70286873195E-03 +5.94422450388E-03 -1.77110262862E-03 +5.87197815070E-03 -3.06981485021E-01 -1.37139477563E-01
1.55000000000E+09 -3.51804326940E-01 -8.12740295942E-02 -2.44395714801E-05 +5.92700560426E-03 -2.08593371531E-04 +5.95330581215E-03 -3.85161281878E-01 -1.03946974075E-01
1.55500000000E+09 -4.27562122046E-01 -2.55228054344E-02 +1.75960797731E-03 +5.23424050047E-03 +1.57345713446E-03 +5.39164842751E-03 -4.50504238969E-01 -6.14078496178E-02
1.56000000000E+09 -4.89852177044E-01 +3.38937513176E-02 +2.59649067101E-03 +3.66178449491E-03 +2.57268062618E-03 +3.90953990016E-03 -5.02841236942E-01 -1.41238315650E-02
1.56500000000E+09 -5.39531960823E-01 +9.43325045232E-02 +2.61015166477E-03 +2.74394432542E-03 +2.72681394068E-03 +2.91140670119E-03 -5.43815266108E-01 +3.55971331728E-02
1.57000000000E+09 -5.76257595858E-01 +1.52886820561E-01 +2.84358706354E-03 +2.04216822606E-03 +3.04434929436E-03 +2.16533981109E-03 -5.74782014325E-01 +8.43347837948E-02
