# Hz S RI R 50
! CMT, C1220, 16058040, 17.2.0/1
! Date: 14/08/2018 12:13:53
! Data: Format (Calibration Info)
! Freq                      S11: Re/Im (F2)                       S21: Re/Im (F2)                       S12: Re/Im (F2)                       S22: Re/Im (F2)            
1.00000000000E+09 -6.46943947084E-01 +7.14275286778E-01 +2.66784780923E-06 -6.66861614250E-05 -2.12382228102E-05 -1.75877708466E-05 -7.53480320080E-01 +6.25044143474E-01
1.00500000000E+09 -6.39579941808E-01 +7.19663297770E-01 -6.46349057408E-06 -1.46323776562E-05 -3.23116195989E-05 +3.87694408621E-05 -7.50032614071E-01 +6.29104123980E-01
1.01000000000E+09 -6.33807736343E-01 +7.24021792811E-01 -5.96346301099E-05 -4.39576409283E-05 +4.54721092588E-05 +3.70937059345E-07 -7.46284055993E-01 +6.33056976183E-01
1.01500000000E+09 -6.29974055320E-01 +7.27874993141E-01 -4.09138016120E-06 -1.14387802439E-05 -6.21759152324E-05 -1.29181172204E-05 -7.42907731294E-01 +6.36569164859E-01
1.02000000000E+09 -6.27616356845E-01 +7.30940284483E-01 +2.92172816938E-06 +8.78428396300E-06 -2.50895637892E-06 -1.33172613822E-05 -7.39501118992E-01 +6.40288310985E-01
1.02500000000E+09 -6.26457214503E-01 +7.33406256364E-01 -1.08035241792E-05 +2.80495551636E-05 -2.56423563293E-05 -1.74207584281E-05 -7.36683943449E-01 +6.43945529058E-01
1.03000000000E+09 -6.25728432561E-01 +7.35504225203E-01 -1.90635633964E-05 +1.70614487668E-05 -2.74500815389E-05 -7.47735464471E-06 -7.33110262551E-01 +6.47571454278E-01
1.03500000000E+09 -6.24091443669E-01 +7.37622869412E-01 -3.49631828889E-05 +4.13868111071E-05 -4.21480608456E-05 -7.08304965653E-06 -7.29316043611E-01 +6.51776602482E-01
1.04000000000E+09 -6.20888462587E-01 +7.40080440159E-01 +4.83355350747E-06 +4.91491726744E-05 -5.10332424874E-06 -1.98351708016E-05 -7.25634941206E-01 +6.55357256703E-01
1.04500000000E+09 -6.15595981868E-01 +7.43441750858E-01 -1.87402784065E-06 +4.35479852370E-06 -3.77146427344E-05 -1.04658523059E-05 -7.22059598684E-01 +6.59002864702E-01
1.05000000000E+09 -6.08305728231E-01 +7.47619922140E-01 -2.16785738520E-05 -1.60105958292E-05 -3.79216126471E-05 -3.83256378640E-07 -7.18672738583E-01 +6.62263147506E-01
1.05500000000E+09 -5.99647873522E-01 +7.52254923841E-01 +3.76834192156E-06 +2.03448491486E-05 +3.20974707880E-05 +5.12593570346E-05 -7.15361784036E-01 +6.65915202589E-01
1.06000000000E+09 -5.90054925268E-01 +7.57274462281E-01 +3.71488624666E-06 +2.89532920418E-05 +5.89790607302E-05 -1.98708517563E-05 -7.12112011303E-01 +6.69914268442E-01
1.06500000000E+09 -5.80983861957E-01 +7.62535886515E-01 -1.75688424262E-05 +7.10949116899E-05 +1.99760650211E-05 +8.89284430316E-05 -7.08347204580E-01 +6.73452535445E-01
1.07000000000E+09 -5.73501766602E-01 +7.67128875348E-01 -1.50596571895E-05 +4.13286704107E-05 -8.90407162153E-06 -2.77351636233E-05 -7.04433729680E-01 +6.77111146924E-01
1.07500000000E+09 -5.67830641283E-01 +7.71141571790E-01 +4.60014920130E-06 +5.91227624794E-05 +3.50998886174E-05 +3.77302646892E-05 -6.99999678111E-01 +6.81008066919E-01
1.08000000000E+09 -5.64110946229E-01 +7.74420435536E-01 +3.26101911394E-05 +4.12269990685E-05 +5.20306024800E-05 +4.36180928809E-05 -6.96058338297E-01 +6.84704009126E-01
1.08500000000E+09 -5.61845368965E-01 +7.76801164843E-01 +2.96898778254E-05 +3.57513996617E-05 +4.32502609678E-05 +2.29342491000E-05 -6.91980083078E-01 +6.88362020935E-01
1.09000000000E+09 -5.60388600983E-01 +7.78801073211E-01 +5.64921959071E-06 -2.01657962016E-05 +5.26317102331E-05 -3.21180169660E-05 -6.88282416561E-01 +6.92257002503E-01
1.09500000000E+09 -5.59160255649E-01 +7.80400953489E-01 +1.12005041694E-05 +1.14685004476E-05 +1.30365168469E-05 +1.81094096058E-05 -6.84478815358E-01 +6.96202091545E-01
1.10000000000E+09 -5.56446074708E-01 +7.82352183934E-01 +4.60471624577E-05 -2.79036705692E-05 +6.45164791659E-05 +2.04769002651E-05 -6.80424153442E-01 +7.00062106330E-01
1.10500000000E+09 -5.52315086388E-01 +7.84781696937E-01 -2.81196991421E-06 -2.58108505424E-05 +6.70729716638E-05 +5.75940422517E-07 -6.76105459419E-01 +7.03468196663E-01
1.11000000000E+09 -5.46255270745E-01 +7.87899816292E-01 -6.14398138000E-06 +1.76721362781E-05 +4.50734125201E-05 +3.81373178452E-05 -6.71835175586E-01 +7.06948763131E-01
1.11500000000E+09 -5.38711149104E-01 +7.91894261245E-01 -2.84135081334E-05 -7.92100969254E-05 +3.24941374715E-05 -1.13619594337E-05 -6.67799756138E-01 +7.10271288242E-01
1.12000000000E+09 -5.30421125692E-01 +7.95785907191E-01 -3.77435557814E-06 -1.11165077422E-05 +2.32601823983E-05 +2.88276625417E-06 -6.63845091900E-01 +7.14047953582E-01
1.12500000000E+09 -5.22065497871E-01 +8.00199723611E-01 -8.81547334365E-06 -2.68786467373E-05 +1.62660305692E-05 -1.79304609985E-05 -6.59488979194E-01 +7.18018145105E-01
1.13000000000E+09 -5.14736031416E-01 +8.04011524070E-01 -2.15267107691E-05 -8.02756915507E-06 +3.26292761506E-05 -1.12608691930E-06 -6.55226333420E-01 +7.21761327528E-01
1.13500000000E+09 -5.08437293454E-01 +8.07123587218E-01 +1.04553538362E-05 -5.00661825581E-06 +4.77003332149E-05 +1.07599521433E-05 -6.50684301372E-01 +7.25511132546E-01
1.14000000000E+09 -5.03878980623E-01 +8.09808050384E-01 +2.43557095008E-05 -2.18381083685E-07 +2.26927400217E-06 -5.50076735958E-05 -6.46148894096E-01 +7.29010016622E-01
1.14500000000E+09 -5.00507642196E-01 +8.11749145727E-01 +4.24152542616E-05 -1.91323457430E-05 +1.40390336640E-05 -4.65816032327E-05 -6.41326971632E-01 +7.32396457582E-01
1.15000000000E+09 -4.97462123130E-01 +8.13351592518E-01 +3.12822934746E-06 +1.56575811158E-05 +2.29519803014E-05 -2.52106809751E-05 -6.36705452418E-01 +7.36083469432E-01
1.15500000000E+09 -4.94453777924E-01 +8.15027100432E-01 +4.14965044670E-05 -1.35335575873E-05 +6.40738992576E-05 +3.61316287547E-05 -6.31885940313E-01 +7.40092240095E-01
1.16000000000E+09 -4.90070201643E-01 +8.16742671542E-01 +2.14389805733E-05 -3.89362672784E-05 +3.69730767547E-05 -2.23789863864E-05 -6.26966511242E-01 +7.43834551153E-01
1.16500000000E+09 -4.84580965345E-01 +8.19285606374E-01 +3.31474769883E-05 +2.03014099322E-06 +5.07991898243E-05 -4.08554192767E-05 -6.21937086909E-01 +7.47515870288E-01
1.17000000000E+09 -4.77520708157E-01 +8.22284252640E-01 -7.53810178609E-06 +1.54528666988E-05 +4.86600900861E-05 -2.87264655717E-05 -6.16514622503E-01 +7.50791064241E-01
1.17500000000E+09 -4.69354165722E-01 +8.25501498202E-01 +5.95865562078E-05 -4.75821049015E-05 +3.40490151209E-05 -1.41809428157E-05 -6.10861552856E-01 +7.54096101330E-01
1.18000000000E+09 -4.60948055936E-01 +8.29106168160E-01 +6.93557140885E-05 -2.01005588976E-05 +6.28677932014E-05 -5.96460720026E-05 -6.05226486256E-01 +7.57247165642E-01
1.18500000000E+09 -4.52685945884E-01 +8.32495036827E-01 +3.40742475905E-05 +1.14759990515E-07 +2.44390994049E-05 -2.12262234534E-05 -5.99242217826E-01 +7.60262886421E-01
1.19000000000E+09 -4.45419776133E-01 +8.35273387269E-01 +4.23296446363E-05 -4.71369159030E-05 +7.96022983493E-05 -3.79199369018E-05 -5.93020166811E-01 +7.62817385637E-01
1.19500000000E+09 -4.39540624832E-01 +8.37588397853E-01 +4.85709034205E-05 -4.81097926623E-05 +8.02501404991E-05 -1.22873875979E-04 -5.87138943969E-01 +7.64133266605E-01
1.20000000000E+09 -4.34948775503E-01 +8.38702710289E-01 +6.50978374912E-05 -1.61817224155E-04 +1.16817812149E-05 -1.57495186278E-04 -5.82626138317E-01 +7.64343351389E-01
1.20500000000E+09 -4.31277671410E-01 +8.39829489732E-01 -5.15334673173E-05 -7.42325521979E-05 +1.59235563795E-05 -7.97884808247E-05 -5.80390829158E-01 +7.65143959372E-01
1.21000000000E+09 -4.27320749184E-01 +8.41160890186E-01 -2.11354303688E-05 -1.00860539137E-04 -4.37795912487E-05 -9.99212400117E-05 -5.78464813063E-01 +7.68266900538E-01
1.21500000000E+09 -4.22147262455E-01 +8.42567477189E-01 -1.05094148589E-05 -5.81396317915E-05 -2.29008157133E-05 -4.28594710422E-05 -5.75697475047E-01 +7.72832637230E-01
1.22000000000E+09 -4.15235830951E-01 +8.44502645328E-01 +5.80968293543E-06 -4.33263896333E-05 -1.62184443502E-05 -7.04521804725E-05 -5.71495769265E-01 +7.78096998960E-01
1.22500000000E+09 -4.06245154037E-01 +8.47012744509E-01 -7.98806665639E-06 -4.85457873599E-05 -5.51881813735E-06 -4.23421412086E-05 -5.66418765680E-01 +7.83272442522E-01
1.23000000000E+09 -3.96039013947E-01 +8.50148486689E-01 +1.04665762318E-05 -5.98044731272E-05 -1.01507161421E-05 -9.78083308244E-05 -5.60695988041E-01 +7.87956797759E-01
1.23500000000E+09 -3.84965147329E-01 +8.53780948304E-01 -3.31034273429E-05 -9.10347157821E-05 +1.87718727915E-05 -6.09891155944E-05 -5.54834429182E-01 +7.92190197244E-01
1.24000000000E+09 -3.74029076284E-01 +8.57670351658E-01 -1.17365516571E-05 -8.67731766259E-05 -9.82881387562E-06 -6.44229415958E-05 -5.48844915569E-01 +7.96089664314E-01
1.24500000000E+09 -3.63837983666E-01 +8.61642037936E-01 -2.43158020715E-05 -8.93486509659E-05 -1.00992642144E-06 -9.42018162179E-05 -5.42500717140E-01 +7.99968313843E-01
1.25000000000E+09 -3.55338466983E-01 +8.65028839259E-01 -2.32071379579E-05 -1.04228622667E-04 -7.28252496984E-05 -8.05728249826E-05 -5.35989765192E-01 +8.04191411514E-01
1.25500000000E+09 -3.48679732234E-01 +8.67562902573E-01 -9.50211540458E-05 -6.10730663326E-05 -9.99408080107E-05 -9.66791007910E-05 -5.29124266528E-01 +8.08126049076E-01
1.26000000000E+09 -3.43526777465E-01 +8.69656628006E-01 -6.78435027175E-05 -9.61828882772E-05 -6.14012616991E-05 -1.06732737928E-04 -5.22222016119E-01 +8.12420483182E-01
1.26500000000E+09 -3.39010215657E-01 +8.71133250379E-01 -9.36849086860E-05 -8.62533693748E-05 -8.56142247545E-05 -8.25512811093E-05 -5.15333586752E-01 +8.16327776670E-01
1.27000000000E+09 -3.34536534092E-01 +8.72294298362E-01 -9.65171241064E-05 -6.33643838545E-05 -9.24507185075E-05 -8.78962704880E-05 -5.08494573878E-01 +8.20228967511E-01
1.27500000000E+09 -3.28726622933E-01 +8.73565569111E-01 -1.64946633610E-04 -1.12125028782E-04 -1.11975461113E-04 -9.16925200449E-05 -5.01448383298E-01 +8.23733100180E-01
1.28000000000E+09 -3.20986330310E-01 +8.75223012669E-01 -1.55937365461E-04 -1.66800817168E-05 -1.44566397483E-04 -9.17308818848E-05 -4.94420704073E-01 +8.27285715874E-01
1.28500000000E+09 -3.10949417150E-01 +8.77422393432E-01 -1.33881727427E-04 -7.40158950399E-05 -1.74487092911E-04 -4.10477609112E-05 -4.87040112430E-01 +8.30889725107E-01
1.29000000000E+09 -2.99179232329E-01 +8.80060913413E-01 -1.84695494066E-04 -2.46286408735E-05 -2.34069594205E-04 -4.55607694696E-05 -4.79438062909E-01 +8.34694593233E-01
1.29500000000E+09 -2.86440209890E-01 +8.83143240014E-01 -2.18087196424E-04 -2.17557658034E-05 -2.22389375890E-04 -7.17338832877E-06 -4.71542938967E-01 +8.38155259949E-01
1.30000000000E+09 -2.73629157122E-01 +8.86611080491E-01 -2.04433540788E-04 +5.92627787956E-06 -2.11857319731E-04 +8.20135331449E-05 -4.63741043572E-01 +8.41620641509E-01
1.30500000000E+09 -2.61924659246E-01 +8.89708426367E-01 -1.91357541806E-04 +8.21665050690E-05 -2.11842132170E-04 +1.07385169539E-04 -4.55676454920E-01 +8.45078386698E-01
1.31000000000E+09 -2.51911688047E-01 +8.92263354830E-01 -2.02006028408E-04 +1.01361348533E-04 -2.24255716392E-04 +1.06082222806E-04 -4.47211336791E-01 +8.48625102753E-01
1.31500000000E+09 -2.44358045173E-01 +8.94115946512E-01 -2.25702141621E-04 +1.37548204468E-04 -1.88310428104E-04 +9.95174841488E-05 -4.38559068153E-01 +8.52030352327E-01
1.32000000000E+09 -2.38201143520E-01 +8.95207472141E-01 -1.66177935974E-04 +1.38889455901E-04 -1.74109569951E-04 +1.79390116354E-04 -4.29397129164E-01 +8.55547848264E-01
1.32500000000E+09 -2.32894611394E-01 +8.95818080324E-01 -1.89918096523E-04 +1.28874531548E-04 -1.99722146102E-04 +1.75285930810E-04 -4.19750420955E-01 +8.58820642557E-01
1.33000000000E+09 -2.26787555243E-01 +8.95856138335E-01 -1.96288633395E-04 +1.76042022847E-04 -1.36754596570E-04 +1.94784178811E-04 -4.10073770282E-01 +8.62037364928E-01
1.33500000000E+09 -2.18888673428E-01 +8.95689571777E-01 -2.08338320369E-04 +2.54999136287E-04 -1.41325869759E-04 +2.01353878197E-04 -4.00218174585E-01 +8.65459716340E-01
1.34000000000E+09 -2.08212259349E-01 +8.95505351387E-01 -1.44675927193E-04 +2.56016008268E-04 -1.19067724190E-04 +2.84012750805E-04 -3.89942654324E-01 +8.68708110284E-01
1.34500000000E+09 -1.94602912588E-01 +8.95203590359E-01 -1.00279611459E-04 +2.74410206968E-04 -9.82131732240E-05 +2.65592698222E-04 -3.79104425332E-01 +8.72074756709E-01
1.35000000000E+09 -1.78697070079E-01 +8.95324019582E-01 -9.61188359929E-05 +2.55837771787E-04 -1.10550166013E-04 +3.05901066068E-04 -3.67957774747E-01 +8.75124654892E-01
1.35500000000E+09 -1.61311477683E-01 +8.95674827859E-01 -5.25766029271E-05 +2.77150949864E-04 -6.29970075048E-05 +2.68811179510E-04 -3.56477765816E-01 +8.78010355899E-01
1.36000000000E+09 -1.43856796581E-01 +8.96081531651E-01 -6.43885013727E-05 +3.07483085848E-04 -4.63252177261E-05 +2.97252677806E-04 -3.44441652360E-01 +8.80749306588E-01
1.36500000000E+09 -1.27219694920E-01 +8.96754736037E-01 -3.75340170805E-05 +3.41307255144E-04 +7.32569536933E-06 +3.51766904249E-04 -3.32406859181E-01 +8.83240984961E-01
1.37000000000E+09 -1.12378728874E-01 +8.96829169293E-01 -7.83943562378E-06 +3.74315993377E-04 -9.26032824912E-05 +3.37839772423E-04 -3.19510235020E-01 +8.85670654972E-01
1.37500000000E+09 -1.00108375229E-01 +8.96956100748E-01 +1.00138690586E-05 +4.64846900486E-04 -5.25168562289E-05 +4.42620892387E-04 -3.05938678065E-01 +8.87817261762E-01
1.38000000000E+09 -8.93337441995E-02 +8.96621492057E-01 +1.58599034116E-04 +5.05668419592E-04 +1.08416094974E-04 +5.23082835641E-04 -2.91161311880E-01 +8.89964558793E-01
1.38500000000E+09 -7.86827866716E-02 +8.95813035581E-01 +2.24746507476E-04 +4.30290270251E-04 +2.67581616287E-04 +4.89241681792E-04 -2.75742038621E-01 +8.91837478992E-01
1.39000000000E+09 -6.73681197415E-02 +8.94002915290E-01 +2.61664439187E-04 +3.80336605331E-04 +3.04668577770E-04 +4.47270796931E-04 -2.59583120509E-01 +8.93444980535E-01
1.39500000000E+09 -5.40846278255E-02 +8.91361126657E-01 +3.06322426443E-04 +3.91164067006E-04 +3.81863043647E-04 +4.11291534327E-04 -2.42773608296E-01 +8.94181479209E-01
1.40000000000E+09 -3.75214027278E-02 +8.87611776495E-01 +3.44377256061E-04 +4.25203982700E-04 +4.35548840335E-04 +3.26533956374E-04 -2.25236658014E-01 +8.94804949352E-01
1.40500000000E+09 -1.83672701245E-02 +8.82729720691E-01 +4.48101449618E-04 +3.52472099778E-04 +4.57733264154E-04 +2.60802369095E-04 -2.06487295021E-01 +8.94681062453E-01
1.41000000000E+09 +3.13761212265E-03 +8.77155494046E-01 +5.01546396012E-04 +3.16317255238E-04 +4.86437595329E-04 +2.76105682248E-04 -1.86105998484E-01 +8.94032439303E-01
1.41500000000E+09 +2.62587755307E-02 +8.70918030451E-01 +5.74197812274E-04 +2.19709084030E-04 +5.85035735178E-04 +2.50044729581E-04 -1.64356321027E-01 +8.92377976374E-01
1.42000000000E+09 +4.97189437955E-02 +8.64271612265E-01 +5.56909024743E-04 +2.25548095509E-04 +5.89961048397E-04 +2.27116410867E-04 -1.41546530422E-01 +8.89707997264E-01
1.42500000000E+09 +7.23479183232E-02 +8.56967617700E-01 +6.20439036065E-04 +2.03277803046E-04 +6.96601471655E-04 +1.74990671617E-04 -1.17917485192E-01 +8.86275320428E-01
1.43000000000E+09 +9.41257107420E-02 +8.48965060036E-01 +6.89021987674E-04 +1.77008201092E-04 +7.55085523962E-04 +1.04830524362E-04 -9.29509993240E-02 +8.81591948679E-01
1.43500000000E+09 +1.14671120243E-01 +8.39459094778E-01 +8.13919712382E-04 +4.06469343138E-05 +8.30025385058E-04 -3.33375554224E-05 -6.65001085840E-02 +8.74974425337E-01
1.44000000000E+09 +1.35050158801E-01 +8.28881230936E-01 +8.01379298043E-04 -1.52465892683E-04 +8.37241527936E-04 -2.42368727949E-04 -3.83020601859E-02 +8.66086897188E-01
1.44500000000E+09 +1.56962998068E-01 +8.15715296713E-01 +6.88156600649E-04 -2.31689684825E-04 +7.15061941479E-04 -2.69184227110E-04 -8.29358252462E-03 +8.54702859150E-01
1.45000000000E+09 +1.80806654890E-01 +7.98849459640E-01 +7.19839229217E-04 -1.12520690103E-04 +7.27739799611E-04 -1.51112028268E-04 +2.35785231694E-02 +8.40369095509E-01
1.45500000000E+09 +2.07120967164E-01 +7.77644092064E-01 +9.30126860376E-04 -1.28021443979E-04 +8.99321333492E-04 -2.21590808209E-04 +5.71113239337E-02 +8.22816887379E-01
1.46000000000E+09 +2.36751315115E-01 +7.51594341065E-01 +1.09952968330E-03 -3.75601279354E-04 +9.97370825470E-04 -4.59995468955E-04 +9.21065300509E-02 +8.00808650820E-01
1.46500000000E+09 +2.68781320762E-01 +7.20285869025E-01 +1.01056839042E-03 -6.11498387357E-04 +9.15019547662E-04 -6.28864569223E-04 +1.27890709393E-01 +7.74179877530E-01
1.47000000000E+09 +3.01631808150E-01 +6.83291926238E-01 +1.06987010109E-03 -5.55691987874E-04 +1.01957420208E-03 -4.52621650181E-04 +1.65224226755E-01 +7.40953142914E-01
1.47500000000E+09 +3.34082868599E-01 +6.40610935725E-01 +1.37142378946E-03 -8.58364418389E-04 +1.37207517197E-03 -7.77422706819E-04 +2.02835486696E-01 +7.00333864433E-01
1.48000000000E+09 +3.64002900760E-01 +5.91706756207E-01 +1.45061146046E-03 -1.30082982364E-03 +1.53486013462E-03 -1.29787909124E-03 +2.40202193482E-01 +6.50798412870E-01
1.48500000000E+09 +3.89080559771E-01 +5.36422571551E-01 +1.47758299158E-03 -1.96190798249E-03 +1.49386911190E-03 -2.01149215164E-03 +2.74906995622E-01 +5.91478204281E-01
1.49000000000E+09 +4.07892701859E-01 +4.74343055122E-01 +8.73192690046E-04 -2.60860252993E-03 +7.55262399721E-04 -2.65007483762E-03 +3.03191441143E-01 +5.21449698477E-01
1.49500000000E+09 +4.18740737304E-01 +4.04414899018E-01 +6.44374085180E-04 -2.68962965547E-03 +5.12949923479E-04 -2.61756391877E-03 +3.22591923450E-01 +4.41874918206E-01
1.50000000000E+09 +4.18544748966E-01 +3.25183439982E-01 +3.19146478903E-04 -3.64992224641E-03 +2.66736085178E-04 -3.45089877473E-03 +3.29025776688E-01 +3.51181018000E-01
1.50500000000E+09 +4.04409281534E-01 +2.38226301262E-01 -8.42216829273E-04 -4.20088137810E-03 -6.30183496459E-04 -4.05544439191E-03 +3.17162350633E-01 +2.52847179870E-01
1.51000000000E+09 +3.72746544606E-01 +1.45915058981E-01 -2.26978960790E-03 -4.61105038658E-03 -2.04112728264E-03 -4.63778023775E-03 +2.84047164955E-01 +1.51769517227E-01
1.51500000000E+09 +3.21612423760E-01 +5.39382590914E-02 -4.51225267211E-03 -4.18547206111E-03 -4.41899551912E-03 -4.37608793622E-03 +2.29379432111E-01 +5.37065776501E-02
1.52000000000E+09 +2.50142993437E-01 -3.04190541833E-02 -5.98349061148E-03 -1.77360714797E-03 -5.98160358156E-03 -1.87228715735E-03 +1.51343631857E-01 -3.35531567015E-02
1.52500000000E+09 +1.61303186670E-01 -1.00408988243E-01 -5.29449724441E-03 -3.38415494998E-04 -5.38149642316E-03 -3.55766528012E-04 +5.52016825377E-02 -1.01092527907E-01
1.53000000000E+09 +5.75741466928E-02 -1.49907264669E-01 -5.75974901281E-03 +3.63307922534E-04 -5.79921634398E-03 +3.54784052549E-04 -5.21130754571E-02 -1.46429021629E-01
1.53500000000E+09 -5.44655011765E-02 -1.72237891626E-01 -6.33016113218E-03 +2.46716020045E-03 -6.29747296047E-03 +2.47589956873E-03 -1.65261546399E-01 -1.66642647722E-01
1.54000000000E+09 -1.65369999968E-01 -1.67176941206E-01 -4.93300280047E-03 +4.52786124467E-03 -4.90388938839E-03 +4.43737868205E-03 -2.74451116375E-01 -1.62287994939E-01
1.54500000000E+09 -2.68847770313E-01 -1.39436884823E-01 -3.12788258579E-03 +5.93426804703E-03 -3.22348924824E-03 +5.80386724965E-03 -3.73820451389E-01 -1.38657261799E-01
1.55000000000E+09 -3.61213717008E-01 -9.34381103252E-02 -1.09199279756E-03 +5.77226847955E-03 -1.29711614303E-03 +5.71059962262E-03 -4.59550777088E-01 -9.98348383072E-02
1.55500000000E+09 -4.38928261635E-01 -3.56211656863E-02 +3.11332955334E-05 +5.60712740335E-03 -2.21179756888E-04 +5.70752265781E-03 -5.30153617403E-01 -5.18381036230E-02
1.56000000000E+09 -5.01141380244E-01 +2.78123285728E-02 +1.60019883614E-03 +5.50173878614E-03 +1.49751701983E-03 +5.83060055287E-03 -5.86817500886E-01 +1.50917297937E-03
1.56500000000E+09 -5.48942013175E-01 +9.10065788056E-02 +3.23401549879E-03 +4.39428289476E-03 +3.32214004139E-03 +4.65678264259E-03 -6.31303691116E-01 +5.74203366742E-02
1.57000000000E+09 -5.85219128368E-01 +1.51459052371E-01 +3.89471895709E-03 +2.62300625404E-03 +4.22052040819E-03 +2.74402597834E-03 -6.64635897593E-01 +1.12885339909E-01
