# Hz S RI R 50
! CMT, C1220, 16058040, 17.2.0/1
! Date: 14/08/2018 12:33:28
! Data: Format (Calibration Info)
! Freq                      S11: Re/Im (F2)                       S21: Re/Im (F2)                       S12: Re/Im (F2)                       S22: Re/Im (F2)            
1.00000000000E+09 -6.33246925487E-01 +7.08024070423E-01 +2.83804226948E-05 -4.51672852933E-06 +1.93962331232E-05 +3.68483017159E-05 -7.53302054398E-01 +6.23741578778E-01
1.00500000000E+09 -6.26146859894E-01 +7.13074806730E-01 +2.64016582990E-05 -3.46812262457E-05 -6.38787550092E-06 +1.76303328085E-05 -7.49606503647E-01 +6.27907715596E-01
1.01000000000E+09 -6.19995921556E-01 +7.17807129117E-01 -4.43033044816E-06 +1.58329153354E-05 +2.64105970137E-05 -2.97420755851E-05 -7.46171197074E-01 +6.31632539558E-01
1.01500000000E+09 -6.15222814879E-01 +7.21593054873E-01 -2.70104194858E-05 -7.22017433810E-06 -3.20065156916E-05 +1.95922643044E-05 -7.43026912163E-01 +6.35228157187E-01
1.02000000000E+09 -6.11767397107E-01 +7.25030917025E-01 +6.90711246360E-06 -1.15263890765E-05 -1.12775056716E-05 -8.32292963640E-06 -7.39564631813E-01 +6.38711594511E-01
1.02500000000E+09 -6.09030381161E-01 +7.27988806369E-01 -2.05237018440E-05 -2.96002085163E-05 +6.40775573954E-06 -1.78878593395E-05 -7.36767190729E-01 +6.42373359600E-01
1.03000000000E+09 -6.07018088014E-01 +7.30676310104E-01 -1.76911696453E-05 +2.12090731429E-05 +1.06551068040E-06 +7.35201509790E-06 -7.33409934014E-01 +6.46153866216E-01
1.03500000000E+09 -6.04263526950E-01 +7.33047779095E-01 +4.30915765303E-06 -5.53616130304E-06 -1.06241231709E-05 +2.01004155070E-06 -7.29643751665E-01 +6.50173401707E-01
1.04000000000E+09 -6.00305320005E-01 +7.35820636990E-01 -3.54383118678E-07 -9.64595166800E-06 -2.69812662897E-05 +2.09083657815E-05 -7.25666840678E-01 +6.53902496132E-01
1.04500000000E+09 -5.95166645241E-01 +7.39072921644E-01 +1.20111241397E-06 +7.02147967702E-05 -4.60590148482E-05 +6.46899277265E-06 -7.22295515015E-01 +6.57374432502E-01
1.05000000000E+09 -5.88395557865E-01 +7.43039516995E-01 -7.50929159572E-06 -1.90433189521E-05 +1.86319022577E-05 +3.32668541956E-05 -7.18813248685E-01 +6.60704452298E-01
1.05500000000E+09 -5.80524141087E-01 +7.47196129713E-01 +1.29832665372E-05 -1.40649772703E-05 +4.73367619597E-06 +2.89916500610E-05 -7.15705848221E-01 +6.64216924221E-01
1.06000000000E+09 -5.72071290494E-01 +7.52151303796E-01 -6.60486019786E-06 -4.57611456063E-06 +3.74101434182E-05 -9.79640652704E-06 -7.12260363105E-01 +6.68197110123E-01
1.06500000000E+09 -5.64018558054E-01 +7.56966476153E-01 +1.27433753877E-06 +4.10316715107E-05 -5.14952689146E-05 +1.32580682237E-05 -7.08469316257E-01 +6.71966556413E-01
1.07000000000E+09 -5.56945406825E-01 +7.61416679135E-01 -2.96418499114E-05 +4.84077468826E-05 +2.21032057697E-05 +2.07198127213E-05 -7.04268657978E-01 +6.75742836932E-01
1.07500000000E+09 -5.51165927483E-01 +7.65357919867E-01 +5.83724275479E-06 +2.01414651701E-05 +9.83947502801E-06 +8.39142074340E-06 -7.00134547561E-01 +6.79350098323E-01
1.08000000000E+09 -5.46897807238E-01 +7.68700766008E-01 -2.21673485907E-05 +3.72657467006E-05 +2.39110527228E-05 +4.66563781830E-05 -6.96180393061E-01 +6.83134529858E-01
1.08500000000E+09 -5.43922029898E-01 +7.71473885161E-01 +3.34733674530E-05 -5.97273656819E-06 +1.48691631282E-05 +4.48672844962E-05 -6.92353462024E-01 +6.86864555296E-01
1.09000000000E+09 -5.41378091822E-01 +7.73607946601E-01 +1.39099467751E-05 -1.20836923694E-05 +2.15473949153E-05 -6.14275009684E-06 -6.88571900250E-01 +6.90655459766E-01
1.09500000000E+09 -5.38958319251E-01 +7.75500062625E-01 +2.36006567359E-05 +2.53102893299E-05 +2.22279778148E-05 -3.44466239320E-06 -6.84860789150E-01 +6.94461078783E-01
1.10000000000E+09 -5.35424319133E-01 +7.77730592522E-01 +3.54752278251E-05 +2.06929838254E-05 +4.21630459186E-05 +6.23184761103E-06 -6.80929247866E-01 +6.98267012880E-01
1.10500000000E+09 -5.30937875111E-01 +7.80326137571E-01 -9.39598674296E-06 +7.00526554091E-06 +3.76576826897E-05 -3.00699710872E-05 -6.76611851655E-01 +7.01856542643E-01
1.11000000000E+09 -5.24990218534E-01 +7.83427558757E-01 +7.53269570763E-06 +2.41648852609E-05 +2.08072140145E-05 +4.32503761230E-05 -6.72382896073E-01 +7.05155820673E-01
1.11500000000E+09 -5.17823969959E-01 +7.87131270326E-01 -4.33228068244E-06 +2.57482297825E-05 +6.60149081708E-06 +1.34299336515E-05 -6.68419089359E-01 +7.08440955601E-01
1.12000000000E+09 -5.10114060426E-01 +7.90961544605E-01 +3.29381815528E-05 +4.65249365326E-05 +1.79935564676E-06 -2.74649488438E-05 -6.64461333055E-01 +7.12268435080E-01
1.12500000000E+09 -5.02428518476E-01 +7.94956761404E-01 +8.48478789950E-05 +1.03471786759E-05 +4.88803486836E-05 +1.63968522282E-05 -6.59999506615E-01 +7.16183472639E-01
1.13000000000E+09 -4.95548448131E-01 +7.98631080861E-01 +1.11720937732E-05 +1.21860570602E-05 +1.97742311922E-05 -6.05902174485E-06 -6.55860598644E-01 +7.20064470203E-01
1.13500000000E+09 -4.89701281204E-01 +8.01316282578E-01 +7.04988639596E-05 +3.15629829510E-05 +4.16044967824E-05 +2.36258844336E-05 -6.51135171233E-01 +7.23807826032E-01
1.14000000000E+09 -4.84743810594E-01 +8.03762410184E-01 -1.86631637961E-05 +1.76909731746E-05 +3.16148170483E-05 -5.71345436855E-06 -6.46352416748E-01 +7.27320898854E-01
1.14500000000E+09 -4.81002238093E-01 +8.05375186257E-01 +3.06809713924E-05 -1.46628453014E-05 +2.90734560424E-05 +1.20021014382E-05 -6.41741966196E-01 +7.30843277043E-01
1.15000000000E+09 -4.77584901617E-01 +8.06677448308E-01 +2.68541231084E-05 -2.26074317277E-06 +6.89984850969E-05 +1.45863838549E-05 -6.37119170183E-01 +7.34582722094E-01
1.15500000000E+09 -4.73848943881E-01 +8.08298875847E-01 +3.27194529385E-05 -3.63754311260E-05 +5.00920345400E-05 +2.63973294968E-05 -6.32209433320E-01 +7.38438964170E-01
1.16000000000E+09 -4.69258940090E-01 +8.10051490587E-01 +7.29456204279E-05 -2.67879720519E-05 +1.51123943242E-05 +2.88247454617E-05 -6.27641028085E-01 +7.42242084083E-01
1.16500000000E+09 -4.63400159548E-01 +8.12497206724E-01 +5.22764662862E-05 -1.94771673230E-05 +4.32738202247E-05 -3.11324725398E-05 -6.22484271578E-01 +7.45874936088E-01
1.17000000000E+09 -4.56276352892E-01 +8.15440989917E-01 +3.77580542124E-05 +6.69299992479E-06 +3.28946592403E-05 -9.39653018524E-06 -6.17202263979E-01 +7.49104451099E-01
1.17500000000E+09 -4.48330966023E-01 +8.18762275310E-01 +5.70804268892E-05 -2.10554233699E-05 +4.62901841115E-06 +1.76517484339E-05 -6.11465783467E-01 +7.52510265983E-01
1.18000000000E+09 -4.40102221677E-01 +8.22299448715E-01 +8.21586567705E-05 -2.87458738474E-05 +5.97598883602E-05 -6.28546469559E-05 -6.06059553230E-01 +7.55569124311E-01
1.18500000000E+09 -4.32097857276E-01 +8.25576701805E-01 +5.45523966495E-05 -3.54081224113E-05 +7.35556651705E-05 -4.52442266922E-05 -6.00100696078E-01 +7.58389766563E-01
1.19000000000E+09 -4.24811811684E-01 +8.28335928624E-01 +6.89144785575E-05 -8.15030429767E-05 +8.45112222124E-05 -5.37325325962E-05 -5.94029563517E-01 +7.61031069834E-01
1.19500000000E+09 -4.18677146195E-01 +8.30458207764E-01 +6.55066474419E-05 -8.66887709356E-05 +7.25273582963E-05 -1.44194734877E-04 -5.88234539274E-01 +7.62111452175E-01
1.20000000000E+09 -4.13562639930E-01 +8.31358728448E-01 -2.05024140872E-06 -1.33753244375E-04 +2.88336105877E-05 -1.70859776054E-04 -5.83699313887E-01 +7.62183167005E-01
1.20500000000E+09 -4.09026602977E-01 +8.32530039165E-01 -5.34526674045E-05 -1.46918836166E-04 -7.43883975595E-05 -1.05674183609E-04 -5.81416133043E-01 +7.63291628591E-01
1.21000000000E+09 -4.04378521762E-01 +8.33382350009E-01 -4.55679794731E-05 -5.00281743006E-05 -6.32025994255E-05 -8.81702105433E-05 -5.79429981798E-01 +7.66535326990E-01
1.21500000000E+09 -3.98392713425E-01 +8.34683548517E-01 -5.81582603077E-05 -6.25060747160E-05 -4.52707985934E-05 -2.36719235989E-05 -5.76584826088E-01 +7.71062516474E-01
1.22000000000E+09 -3.91112951828E-01 +8.36362121422E-01 -6.57053971129E-05 -1.91790626134E-05 -4.78074853773E-05 -4.04548498244E-05 -5.72292890339E-01 +7.76551587935E-01
1.22500000000E+09 -3.82138842553E-01 +8.38692119236E-01 -4.82967083927E-06 -3.63683394619E-05 -5.29950735030E-05 -5.17266985629E-05 -5.67093847496E-01 +7.81559152392E-01
1.23000000000E+09 -3.72297764176E-01 +8.41547828630E-01 -3.83704090163E-05 -4.61220924052E-05 -5.41058499307E-05 -6.08522588499E-05 -5.61445843054E-01 +7.86307167492E-01
1.23500000000E+09 -3.62108736717E-01 +8.44927218877E-01 -7.33604543108E-05 -4.81173118549E-05 -3.09115482371E-05 -6.17579108019E-05 -5.55618397284E-01 +7.90527805722E-01
1.24000000000E+09 -3.51921214371E-01 +8.48827100868E-01 -6.83361942746E-05 -4.56282271237E-05 -7.85974904313E-05 -7.71485435834E-05 -5.49737186298E-01 +7.94418095003E-01
1.24500000000E+09 -3.42910539599E-01 +8.52687097671E-01 -8.33192669396E-05 -8.30152354639E-05 -6.01609478114E-05 -4.50648347405E-05 -5.43510956732E-01 +7.98161335271E-01
1.25000000000E+09 -3.34646152303E-01 +8.56289290845E-01 -9.72847968586E-05 -2.87130508402E-05 -4.26595188912E-05 -5.79272123580E-05 -5.37043870174E-01 +8.02228529771E-01
1.25500000000E+09 -3.27499315783E-01 +8.58683577290E-01 -5.52549582827E-05 -3.97060885522E-05 -4.25547032533E-05 -8.32653439479E-05 -5.30136902290E-01 +8.06369802232E-01
1.26000000000E+09 -3.21384546540E-01 +8.60594127848E-01 -4.50158449842E-05 -1.24514291160E-05 -1.32493027374E-04 -3.11293359849E-05 -5.23694084648E-01 +8.10536652767E-01
1.26500000000E+09 -3.15661918212E-01 +8.61518909552E-01 -9.13199396297E-05 -4.95241067457E-06 -5.85237953834E-05 +4.03414517704E-05 -5.16675448413E-01 +8.14302964572E-01
1.27000000000E+09 -3.09506125820E-01 +8.62248989909E-01 -8.75502937434E-05 +3.51570066798E-05 -4.28885383276E-05 -3.94439867520E-06 -5.09934448724E-01 +8.18136403070E-01
1.27500000000E+09 -3.02230029448E-01 +8.62840194667E-01 -1.05218286675E-04 +2.42596761495E-05 -9.39137280368E-05 +2.40595288167E-05 -5.02763506737E-01 +8.21649557273E-01
1.28000000000E+09 -2.92978680235E-01 +8.63706902419E-01 -1.14739969139E-04 -1.31114845152E-05 -5.42812136868E-05 -4.03379825600E-05 -4.95653179751E-01 +8.25239414314E-01
1.28500000000E+09 -2.82136169262E-01 +8.65048352540E-01 -7.78308684898E-05 +3.99877808867E-05 -6.17499805449E-05 +2.35935105164E-05 -4.88007954271E-01 +8.28895124273E-01
1.29000000000E+09 -2.70349518822E-01 +8.66952706277E-01 -7.19569856629E-05 +1.21090898656E-05 -7.13804343606E-05 +3.63388689862E-05 -4.80625659294E-01 +8.32781869456E-01
1.29500000000E+09 -2.58323608776E-01 +8.69451366737E-01 -8.43013127450E-05 +1.25719546112E-05 -6.82828265341E-05 +3.43596818983E-05 -4.72590103603E-01 +8.36255581247E-01
1.30000000000E+09 -2.46830789598E-01 +8.72737833455E-01 -6.71206874048E-05 -8.21674188390E-06 -1.20778263394E-04 +2.75143431027E-05 -4.64715817868E-01 +8.39950451045E-01
1.30500000000E+09 -2.36090894215E-01 +8.75859621934E-01 -9.92623183932E-05 +9.18708914373E-05 -8.04878070259E-05 +1.98639566528E-05 -4.56826988798E-01 +8.43321202127E-01
1.31000000000E+09 -2.26936503217E-01 +8.78534660672E-01 -8.79680309168E-05 +4.95069133434E-05 -4.75001031531E-05 +5.77738821171E-05 -4.48411590451E-01 +8.46864500636E-01
1.31500000000E+09 -2.19485075530E-01 +8.80417881313E-01 -9.06889028530E-05 +3.75190004069E-05 -4.87876697400E-05 +3.32176397832E-05 -4.39863184083E-01 +8.50259389621E-01
1.32000000000E+09 -2.13286262629E-01 +8.81325563408E-01 -1.01012177447E-04 +3.73887705058E-05 -2.80232283441E-05 +3.40137505064E-05 -4.30902924943E-01 +8.53583281144E-01
1.32500000000E+09 -2.07361635168E-01 +8.81255782233E-01 -9.58997160588E-05 +3.59490065248E-05 -1.65064781433E-04 +5.70955433232E-05 -4.21387057814E-01 +8.57126684216E-01
1.33000000000E+09 -2.00472325948E-01 +8.80694069338E-01 -1.16853330057E-04 +4.28727095685E-05 -1.35262506969E-04 +8.86584371154E-05 -4.11758556833E-01 +8.60189683019E-01
1.33500000000E+09 -1.91844409490E-01 +8.79617059579E-01 -1.93352503514E-04 +7.43091231253E-05 -1.54793308872E-04 +7.47755389897E-05 -4.02104830037E-01 +8.63413702901E-01
1.34000000000E+09 -1.80815044972E-01 +8.78699495578E-01 -1.36570539463E-04 +1.31346470920E-04 -1.49571185664E-04 +1.11197090742E-04 -3.91999025299E-01 +8.66734424858E-01
1.34500000000E+09 -1.67468412819E-01 +8.77742957686E-01 -1.41711418649E-04 +1.89413169248E-04 -1.67601197864E-04 +1.73233456884E-04 -3.81142447490E-01 +8.70057415414E-01
1.35000000000E+09 -1.52249281607E-01 +8.77347220769E-01 -1.17642442656E-04 +1.64686015804E-04 -8.08176722910E-05 +1.35277348550E-04 -3.69943975862E-01 +8.73138511287E-01
1.35500000000E+09 -1.35958340585E-01 +8.77613667534E-01 -8.06840860611E-05 +2.05912472707E-04 -1.02221860932E-04 +2.11944534038E-04 -3.58226904800E-01 +8.76179863358E-01
1.36000000000E+09 -1.19768290219E-01 +8.78403917706E-01 -1.12884904528E-04 +2.27925033050E-04 -1.29682409687E-04 +2.37467470501E-04 -3.46198955255E-01 +8.78869675320E-01
1.36500000000E+09 -1.04200980602E-01 +8.79220948243E-01 -4.71083095833E-05 +3.43076301892E-04 -7.27851355447E-05 +2.91801608926E-04 -3.34010712568E-01 +8.81289986816E-01
1.37000000000E+09 -9.01999268618E-02 +8.79436299290E-01 -4.43836845021E-05 +3.79298999433E-04 -6.80652485332E-05 +3.48238141782E-04 -3.21268020814E-01 +8.83760263886E-01
1.37500000000E+09 -7.80228011855E-02 +8.79235670543E-01 +9.29596939472E-05 +3.70874256913E-04 +1.95803174504E-05 +3.53655475278E-04 -3.07608914585E-01 +8.86190546956E-01
1.38000000000E+09 -6.72565051936E-02 +8.78225874147E-01 +1.47454741228E-04 +3.04380238958E-04 +1.47246615143E-04 +3.94964677243E-04 -2.92910445981E-01 +8.88316656238E-01
1.38500000000E+09 -5.63711684448E-02 +8.76462609450E-01 +1.67082836062E-04 +3.39557068506E-04 +1.91840198422E-04 +4.01478416949E-04 -2.77416335748E-01 +8.90307919040E-01
1.39000000000E+09 -4.46306448346E-02 +8.73688329675E-01 +2.23153605297E-04 +2.90723273212E-04 +2.51829508027E-04 +4.11849687965E-04 -2.61627545375E-01 +8.91782777441E-01
1.39500000000E+09 -3.10144866245E-02 +8.70045935502E-01 +2.37714244904E-04 +2.69862907963E-04 +3.24854591947E-04 +3.16432459248E-04 -2.44813819316E-01 +8.92654660263E-01
1.40000000000E+09 -1.46069467528E-02 +8.65428654123E-01 +2.54663880962E-04 +2.93313626959E-04 +2.99556838091E-04 +3.22281436155E-04 -2.27475700039E-01 +8.92968100368E-01
1.40500000000E+09 +3.60631345225E-03 +8.60288195994E-01 +3.04122444606E-04 +2.98892018402E-04 +3.35035960727E-04 +2.75251633503E-04 -2.08997914844E-01 +8.92804881824E-01
1.41000000000E+09 +2.39884643403E-02 +8.54741034058E-01 +4.50347029931E-04 +2.92509376832E-04 +4.17317470834E-04 +2.94404843365E-04 -1.89079560325E-01 +8.92262825348E-01
1.41500000000E+09 +4.54009276001E-02 +8.48947181072E-01 +5.15213833510E-04 +2.44173065864E-04 +5.73007216506E-04 +2.90382405255E-04 -1.67519012373E-01 +8.90964368198E-01
1.42000000000E+09 +6.74964913450E-02 +8.42958603446E-01 +6.13735007277E-04 +9.82063437668E-05 +6.59479843248E-04 +1.05177698734E-04 -1.44520139576E-01 +8.88396599366E-01
1.42500000000E+09 +8.90679699528E-02 +8.35863094870E-01 +5.35716942120E-04 +9.48402136579E-05 +6.81108399311E-04 +7.84645017009E-05 -1.20801321323E-01 +8.84961456661E-01
1.43000000000E+09 +1.09530415022E-01 +8.27232303977E-01 +7.50769172233E-04 +1.07360989564E-04 +8.38405057370E-04 +1.08906640475E-05 -9.60901676335E-02 +8.80403731901E-01
1.43500000000E+09 +1.29043686070E-01 +8.17211199986E-01 +7.83212999982E-04 -1.69845547042E-04 +8.25867745799E-04 -2.56218582477E-04 -6.97083939285E-02 +8.73996306593E-01
1.44000000000E+09 +1.48819988065E-01 +8.05411405164E-01 +6.81010805539E-04 -3.07663681036E-04 +6.81638939953E-04 -3.42249477578E-04 -4.14920956984E-02 +8.65714039002E-01
1.44500000000E+09 +1.69639973202E-01 +7.90393839444E-01 +7.07133859840E-04 -3.13457022290E-04 +7.18696979369E-04 -3.29187986918E-04 -1.09751494688E-02 +8.54675303956E-01
1.45000000000E+09 +1.92185684608E-01 +7.72141022619E-01 +6.99092089936E-04 -4.03689091070E-04 +7.36528027053E-04 -4.82182022334E-04 +2.12799789075E-02 +8.40413653470E-01
1.45500000000E+09 +2.16854406820E-01 +7.50314362461E-01 +8.07286408812E-04 -4.19992468305E-04 +7.50608700847E-04 -5.29509496199E-04 +5.50916604684E-02 +8.22925507682E-01
1.46000000000E+09 +2.44299662576E-01 +7.24452739250E-01 +9.92122657845E-04 -7.31304728193E-04 +9.50204942108E-04 -7.77250655816E-04 +9.02892333665E-02 +8.01317200282E-01
1.46500000000E+09 +2.73093505420E-01 +6.94759761363E-01 +8.89405671342E-04 -1.21727658166E-03 +7.60812128407E-04 -1.17084353961E-03 +1.26704697704E-01 +7.74426620919E-01
1.47000000000E+09 +3.03416553637E-01 +6.61436085276E-01 +5.24548499594E-04 -1.46690645922E-03 +5.22607603910E-04 -1.28744216600E-03 +1.64049033959E-01 +7.41016109613E-01
1.47500000000E+09 +3.33788086735E-01 +6.23279222150E-01 +1.95739789443E-04 -1.56402232925E-03 +2.32555541243E-04 -1.50827735812E-03 +2.02255398476E-01 +7.00256060971E-01
1.48000000000E+09 +3.61933577022E-01 +5.78996638068E-01 +1.05291019999E-05 -1.50470973156E-03 +4.43960102253E-05 -1.48788478816E-03 +2.39600020248E-01 +6.49869507995E-01
1.48500000000E+09 +3.85403097872E-01 +5.28787557287E-01 -5.99904131513E-05 -1.80196344947E-03 -9.15840357979E-05 -1.85375458810E-03 +2.73967030596E-01 +5.90326645151E-01
1.49000000000E+09 +4.03602597621E-01 +4.71289574123E-01 -5.43661216158E-04 -2.13109688171E-03 -6.02970682636E-04 -2.04772276635E-03 +3.03079110366E-01 +5.19746531250E-01
1.49500000000E+09 +4.13566142707E-01 +4.05994779862E-01 -1.01987477063E-03 -2.16637880709E-03 -1.04335956720E-03 -2.01588490766E-03 +3.21990662291E-01 +4.38729164357E-01
1.50000000000E+09 +4.14776106660E-01 +3.32202090585E-01 -1.83552861410E-03 -2.70813580806E-03 -1.75807326163E-03 -2.50755257217E-03 +3.26950337836E-01 +3.47466076010E-01
1.50500000000E+09 +4.04123133342E-01 +2.49318170108E-01 -3.55584601408E-03 -1.87362818195E-03 -3.31061051135E-03 -1.87714862956E-03 +3.14495161979E-01 +2.49874248610E-01
1.51000000000E+09 +3.77044589172E-01 +1.60098588854E-01 -3.68579088467E-03 -6.09066762365E-05 -3.69970485357E-03 -1.94539086223E-04 +2.81793314551E-01 +1.47735959631E-01
1.51500000000E+09 +3.32210461252E-01 +7.05241424361E-02 -3.48717275172E-03 +7.10019568804E-04 -3.55666669391E-03 +6.51836705897E-04 +2.24649626279E-01 +4.92808626590E-02
1.52000000000E+09 +2.68206758918E-01 -1.39027024541E-02 -3.29401570930E-03 +1.82401205085E-03 -3.29888957934E-03 +1.81548149400E-03 +1.45604193908E-01 -3.64492943936E-02
1.52500000000E+09 +1.86300271485E-01 -8.54458984185E-02 -2.06073517902E-03 +2.67454334369E-03 -2.08758595911E-03 +2.67956092392E-03 +4.90486481468E-02 -1.03548018158E-01
1.53000000000E+09 +8.78677602992E-02 -1.37127400353E-01 -1.47570247092E-03 +2.28319472173E-03 -1.49628038756E-03 +2.28186112319E-03 -5.94235353115E-02 -1.47331854571E-01
1.53500000000E+09 -1.93503178656E-02 -1.63053111374E-01 -1.69369549288E-03 +2.96445477558E-03 -1.69163356434E-03 +2.96900199972E-03 -1.72605058448E-01 -1.65650166005E-01
1.54000000000E+09 -1.28368266611E-01 -1.62257782719E-01 -3.80236406882E-04 +3.84644974344E-03 -4.11288464989E-04 +3.78611546680E-03 -2.81727619365E-01 -1.60058420239E-01
1.54500000000E+09 -2.31526254991E-01 -1.37560356148E-01 +1.11692319455E-03 +3.55440112840E-03 +1.03497823805E-03 +3.51892647672E-03 -3.79624291717E-01 -1.34971652815E-01
1.55000000000E+09 -3.24120832059E-01 -9.47654482225E-02 +1.96367051549E-03 +2.98428510666E-03 +1.84394909632E-03 +3.03861374815E-03 -4.64921319305E-01 -9.64724184346E-02
1.55500000000E+09 -4.02941803200E-01 -3.96853932668E-02 +2.83154134202E-03 +1.96612545736E-03 +2.83476493834E-03 +2.09350631011E-03 -5.35424559751E-01 -4.65822343842E-02
1.56000000000E+09 -4.67175559679E-01 +2.09086676216E-02 +2.88038389301E-03 +5.66951073421E-04 +2.98183024478E-03 +6.83834662815E-04 -5.89991623609E-01 +7.68692274240E-03
1.56500000000E+09 -5.16138859974E-01 +8.26035584570E-02 +2.16810141249E-03 -3.09346648414E-04 +2.27401519909E-03 -2.63111997690E-04 -6.33045033183E-01 +6.32495137591E-02
1.57000000000E+09 -5.53539746255E-01 +1.41569495863E-01 +1.76253368655E-03 -3.70181993307E-04 +1.85964184501E-03 -3.99929306180E-04 -6.64683977416E-01 +1.18350942926E-01
