# Hz S RI R 50
! CMT, C1220, 16058040, 17.2.0/1
! Date: 14/08/2018 12:25:39
! Data: Format (Calibration Info)
! Freq                      S11: Re/Im (F2)                       S21: Re/Im (F2)                       S12: Re/Im (F2)                       S22: Re/Im (F2)            
1.00000000000E+09 -6.46979927418E-01 +7.14659689199E-01 -7.22763689857E-06 -6.32007128122E-06 +2.49121987528E-05 +3.74859549663E-06 -7.48026887451E-01 +6.23783996235E-01
1.00500000000E+09 -6.39848400833E-01 +7.19688284557E-01 +1.88200880639E-05 +4.90496486244E-05 +3.14276828868E-05 +3.07788192178E-05 -7.44344589069E-01 +6.28093452263E-01
1.01000000000E+09 -6.34015453881E-01 +7.24339955660E-01 +1.29890778099E-06 +1.58714643254E-05 -3.56251977833E-06 -7.29521534200E-06 -7.40909439930E-01 +6.31638071303E-01
1.01500000000E+09 -6.29902115799E-01 +7.28213549737E-01 -1.75151425910E-06 +2.48103284214E-05 -3.61695333483E-07 +8.00049344649E-06 -7.37540898978E-01 +6.35243093604E-01
1.02000000000E+09 -6.27361814305E-01 +7.31322838869E-01 -1.37828028683E-05 +6.43363445946E-06 +4.04928682177E-05 -2.06811168133E-05 -7.34107189549E-01 +6.38942138338E-01
1.02500000000E+09 -6.25781331362E-01 +7.33835965173E-01 +1.19603610767E-05 +2.71678949389E-05 +6.42684499186E-06 +2.55721842216E-06 -7.31299469575E-01 +6.42431583114E-01
1.03000000000E+09 -6.24876440838E-01 +7.36060196689E-01 +7.78612675499E-06 -5.30749200201E-06 +7.58448473614E-05 +1.84226484158E-05 -7.27809133616E-01 +6.46199533198E-01
1.03500000000E+09 -6.22912380209E-01 +7.38219428221E-01 -2.65952077375E-05 +6.18689156005E-06 -3.76342560793E-06 +1.91380900569E-05 -7.24092749322E-01 +6.50147055355E-01
1.04000000000E+09 -6.19616828125E-01 +7.41009524065E-01 -2.71006478664E-05 -1.72645278219E-05 +8.30316450147E-06 +2.88111946194E-07 -7.20136525357E-01 +6.53773276800E-01
1.04500000000E+09 -6.14612693961E-01 +7.44232238358E-01 +3.02893912129E-05 +4.37172531943E-05 -2.83054394916E-05 -2.60969488600E-05 -7.16672049214E-01 +6.57338962621E-01
1.05000000000E+09 -6.07450062351E-01 +7.48480578131E-01 +5.03733882467E-05 -5.81507276476E-05 +2.71227111504E-05 -2.15952300779E-05 -7.13279863623E-01 +6.60738476620E-01
1.05500000000E+09 -5.98730072486E-01 +7.53172839392E-01 +5.66470562611E-05 +2.76901410170E-05 -2.41546536484E-05 +5.60464044315E-05 -7.10120307930E-01 +6.64293965507E-01
1.06000000000E+09 -5.89355786186E-01 +7.58282116764E-01 +2.07639672418E-05 +4.88016782887E-06 +9.41127578833E-06 -3.02047789510E-05 -7.06763095765E-01 +6.67954818083E-01
1.06500000000E+09 -5.80468211860E-01 +7.63327688557E-01 -6.33353241465E-06 +2.62455434310E-05 -8.37626456517E-06 -1.51861878659E-05 -7.03054787202E-01 +6.71640503008E-01
1.07000000000E+09 -5.72621615642E-01 +7.67775287095E-01 +4.23478174454E-05 +3.34932909820E-06 +1.27593222780E-05 +5.62411330849E-07 -6.99081828294E-01 +6.75410173383E-01
1.07500000000E+09 -5.66426004808E-01 +7.71694852385E-01 +1.59541909528E-05 +4.27887425559E-05 +1.65560206368E-05 +5.85605034821E-06 -6.94727668823E-01 +6.79238889235E-01
1.08000000000E+09 -5.62291670691E-01 +7.74953930866E-01 +2.63270891727E-05 +4.59421268100E-06 +1.60206295066E-05 +2.30889855616E-05 -6.90777770855E-01 +6.83071272334E-01
1.08500000000E+09 -5.59600878917E-01 +7.77321364305E-01 -1.80462375594E-05 +5.98640002946E-06 -9.59696151588E-06 +1.24974837192E-06 -6.86880927612E-01 +6.86786130015E-01
1.09000000000E+09 -5.57529929189E-01 +7.79295822016E-01 +2.47501722315E-05 +5.82921117518E-05 +3.38700979756E-05 -9.68881337962E-06 -6.83018285594E-01 +6.90318378202E-01
1.09500000000E+09 -5.55967012334E-01 +7.81228734438E-01 +1.17437629734E-05 -2.75043084363E-06 +2.74215136870E-05 +1.36998001197E-05 -6.79127372310E-01 +6.94352200141E-01
1.10000000000E+09 -5.53081660115E-01 +7.83110035368E-01 +7.61831912905E-05 -1.99896062189E-05 +5.82580575872E-05 +2.63599864401E-05 -6.75052423706E-01 +6.98032160907E-01
1.10500000000E+09 -5.49129315017E-01 +7.85662802669E-01 +5.85698944889E-05 -2.07484059578E-06 +1.89815236524E-05 -3.94067267946E-05 -6.70784449821E-01 +7.01486485158E-01
1.11000000000E+09 -5.43365833256E-01 +7.88906247977E-01 -2.67218070979E-05 -1.92496738316E-05 +1.85106307715E-05 +3.04251769035E-05 -6.66615877747E-01 +7.05020425772E-01
1.11500000000E+09 -5.36200886308E-01 +7.92821549674E-01 +2.59041868325E-05 -3.27480755054E-05 +4.70300928869E-06 -5.15279675390E-05 -6.62566147052E-01 +7.08363153851E-01
1.12000000000E+09 -5.28343537828E-01 +7.96565708892E-01 +1.42033258411E-05 -4.85898070915E-05 +5.48469530125E-05 -6.93952744630E-06 -6.58529843044E-01 +7.11941140552E-01
1.12500000000E+09 -5.20226220679E-01 +8.00764914282E-01 +4.80336431480E-05 -3.44146307266E-06 -8.21831608681E-06 -9.03735885935E-05 -6.54314853560E-01 +7.15930512349E-01
1.13000000000E+09 -5.13004784804E-01 +8.04485253979E-01 +3.48318966015E-06 -2.18871080868E-05 -2.41179858473E-05 -2.39794634953E-05 -6.50080920000E-01 +7.19552658333E-01
1.13500000000E+09 -5.06610021063E-01 +8.07410772879E-01 +1.39314449286E-06 -4.81048055777E-05 +6.83584563762E-05 -3.33780893977E-05 -6.45612889821E-01 +7.23321422819E-01
1.14000000000E+09 -5.01461939554E-01 +8.09892006999E-01 +6.96086670851E-06 -1.51550628487E-05 +2.70115598547E-05 -2.23956298310E-05 -6.40871050213E-01 +7.26781180888E-01
1.14500000000E+09 -4.97498369170E-01 +8.11507749857E-01 +2.99563952593E-05 -2.57158564652E-05 -3.39636543990E-06 -1.48435274375E-05 -6.36256527777E-01 +7.30053521135E-01
1.15000000000E+09 -4.93795842366E-01 +8.13071635816E-01 +1.29561706392E-05 -4.84150289874E-05 +5.50597327742E-05 -2.90601623585E-05 -6.31568202803E-01 +7.33855238335E-01
1.15500000000E+09 -4.90111676484E-01 +8.14656259532E-01 +2.25489778685E-06 -1.12928959344E-05 +3.95650024046E-06 -3.53805894167E-05 -6.26894158173E-01 +7.37677337631E-01
1.16000000000E+09 -4.85534915221E-01 +8.16480113093E-01 -4.41247438823E-05 -2.65212439503E-05 -3.92279680999E-05 -6.30691270827E-05 -6.22095052817E-01 +7.41499498822E-01
1.16500000000E+09 -4.79735185765E-01 +8.19182008399E-01 -2.15861755378E-05 -2.48571813487E-05 +7.55967531518E-05 -3.09826179052E-05 -6.17047518290E-01 +7.45109169022E-01
1.17000000000E+09 -4.72596501323E-01 +8.22075864617E-01 +3.22078370873E-05 -2.11958001641E-05 +6.17063903875E-05 -2.30395091420E-05 -6.11682451047E-01 +7.48430336903E-01
1.17500000000E+09 -4.64778347869E-01 +8.25483940496E-01 -1.30931960808E-05 -6.68570228349E-05 +1.51623679215E-05 -1.75062156779E-05 -6.05967037631E-01 +7.51670948691E-01
1.18000000000E+09 -4.56640358461E-01 +8.29169668226E-01 -2.90765414031E-05 -1.30418088495E-05 +8.68485345438E-06 -7.63420118906E-05 -6.00384344139E-01 +7.54741328147E-01
1.18500000000E+09 -4.48796567226E-01 +8.32407923273E-01 -7.11406189438E-05 -3.04743518688E-05 +5.36338538176E-06 -2.95074921313E-05 -5.94534908526E-01 +7.57739532237E-01
1.19000000000E+09 -4.41703911148E-01 +8.35119773030E-01 -3.97778011828E-05 -4.09675085599E-05 -4.14614725099E-05 +4.99866742209E-06 -5.88196815902E-01 +7.60474111573E-01
1.19500000000E+09 -4.35779182639E-01 +8.37096550487E-01 -6.42375108356E-05 -3.59997512855E-05 -4.93867070701E-05 -6.53379842253E-05 -5.82340105590E-01 +7.61665671885E-01
1.20000000000E+09 -4.31093849685E-01 +8.38034918789E-01 -9.76247741239E-05 +6.55892265971E-06 -1.11198038387E-04 -5.96446683239E-05 -5.77887142121E-01 +7.61816205668E-01
1.20500000000E+09 -4.26958667950E-01 +8.39215658296E-01 -4.80327890976E-05 +6.71735606657E-05 -5.66146847676E-05 -3.03276953379E-05 -5.75509170781E-01 +7.62671461794E-01
1.21000000000E+09 -4.22386141606E-01 +8.40261733679E-01 -3.54104375442E-05 +5.15556166118E-05 -4.54123623374E-05 +7.93447269882E-06 -5.73626870481E-01 +7.65541872218E-01
1.21500000000E+09 -4.16593065925E-01 +8.41647432939E-01 -1.71887922569E-06 +7.22904883813E-06 +9.28168065566E-06 +1.15017090887E-05 -5.70894908045E-01 +7.70243144709E-01
1.22000000000E+09 -4.09096013543E-01 +8.43305645087E-01 +1.28399256540E-05 +3.19407196540E-05 +2.14472153168E-05 +5.43610027197E-05 -5.66726831583E-01 +7.75395143548E-01
1.22500000000E+09 -4.00062655461E-01 +8.45897434068E-01 -1.76691810475E-05 +5.97319128456E-06 +5.62034145826E-06 -2.50429110876E-06 -5.61774246084E-01 +7.80484895614E-01
1.23000000000E+09 -3.89638905181E-01 +8.48821329409E-01 -1.62465026694E-05 -2.50064299043E-05 -2.31762189781E-05 -2.15913967758E-05 -5.56007036904E-01 +7.85153749472E-01
1.23500000000E+09 -3.78829913774E-01 +8.52423738829E-01 +1.56516671214E-08 -1.03108691713E-05 -3.37163959684E-05 -3.54009576291E-05 -5.50162296899E-01 +7.89378162975E-01
1.24000000000E+09 -3.67941806465E-01 +8.56062379257E-01 -3.02838027768E-05 -9.84446698558E-06 -2.57465507115E-05 -3.90485244207E-05 -5.44302086337E-01 +7.93252660186E-01
1.24500000000E+09 -3.58276771055E-01 +8.60052472918E-01 -3.43273160785E-05 -4.23932809230E-05 -1.47523187384E-05 -4.14728000457E-05 -5.37842257460E-01 +7.96971890163E-01
1.25000000000E+09 -3.49855227641E-01 +8.63436454863E-01 -4.71412949597E-05 -6.01731343300E-05 -1.75025448255E-05 -5.15051660578E-05 -5.31409043518E-01 +8.01241018424E-01
1.25500000000E+09 -3.43090409261E-01 +8.65720043871E-01 -9.93572595452E-05 -2.64130456752E-05 -5.22570922664E-05 +5.08013018768E-06 -5.24465118397E-01 +8.05267555306E-01
1.26000000000E+09 -3.37601985812E-01 +8.67460353173E-01 -8.16815129318E-05 -1.73459221762E-05 -8.00034059844E-05 -4.75887170080E-05 -5.17832891207E-01 +8.09528639306E-01
1.26500000000E+09 -3.32798436273E-01 +8.68686848879E-01 -7.93245039459E-05 -1.02832821325E-06 -5.98349826855E-05 +2.85701809554E-05 -5.10830822354E-01 +8.13373681933E-01
1.27000000000E+09 -3.27992966027E-01 +8.69763200440E-01 -7.21902176669E-05 -2.05033568924E-05 -6.87347876133E-05 +2.43647409567E-05 -5.04039503768E-01 +8.16993574868E-01
1.27500000000E+09 -3.21787597642E-01 +8.70976121542E-01 -4.27725254635E-05 +1.84840498051E-05 -5.15328328914E-05 +1.07120205323E-05 -4.97033261591E-01 +8.20564374699E-01
1.28000000000E+09 -3.13613332186E-01 +8.72406690865E-01 -9.58981387246E-05 +1.47847801221E-06 -8.72913911009E-05 +1.33238985615E-06 -4.90030281986E-01 +8.24159774638E-01
1.28500000000E+09 -3.03199970930E-01 +8.74347403599E-01 -9.49239508090E-05 +2.17926774031E-05 -1.21666263270E-04 +6.14514039265E-05 -4.82583936435E-01 +8.27816785430E-01
1.29000000000E+09 -2.91707377928E-01 +8.76862396097E-01 -7.43766864664E-05 +6.22798643552E-05 -5.69308862346E-05 +1.04243572086E-04 -4.75195102062E-01 +8.31398057192E-01
1.29500000000E+09 -2.79189172466E-01 +8.79928286112E-01 -6.47571024872E-05 +4.83887713834E-05 -8.12389613188E-05 +6.76505960942E-05 -4.67269233496E-01 +8.34820555837E-01
1.30000000000E+09 -2.66639511621E-01 +8.83242355539E-01 -5.86188951999E-05 +8.69894158183E-05 -3.82378906655E-05 +5.05059578082E-05 -4.59617487004E-01 +8.38305751099E-01
1.30500000000E+09 -2.55167750858E-01 +8.86219278943E-01 -4.22812786321E-05 +7.53898669378E-05 -4.40580907714E-05 +4.73757027692E-05 -4.51665679864E-01 +8.41741240589E-01
1.31000000000E+09 -2.45220940840E-01 +8.88484479900E-01 -3.52330325584E-05 +8.25609038905E-05 -3.89880852954E-05 +1.41524764229E-04 -4.43286918529E-01 +8.45083211114E-01
1.31500000000E+09 -2.37379080667E-01 +8.89902324936E-01 -7.32126217154E-06 +1.36878098423E-04 -2.30908624232E-05 +1.57768463796E-04 -4.34541839158E-01 +8.48529320828E-01
1.32000000000E+09 -2.31037879667E-01 +8.90526205319E-01 +2.98585333893E-05 +7.45999582378E-05 -1.51713309985E-05 +8.77398871348E-05 -4.25517577330E-01 +8.52054454807E-01
1.32500000000E+09 -2.25220722428E-01 +8.90225344245E-01 -3.06441537532E-05 +7.97688226186E-05 -2.34445249391E-05 +1.17450893622E-04 -4.16040166683E-01 +8.55234888232E-01
1.33000000000E+09 -2.18766812251E-01 +8.89944206521E-01 +2.73376131478E-05 +7.69910933082E-05 -1.07163515341E-05 +9.66865256660E-05 -4.06404999601E-01 +8.58626155057E-01
1.33500000000E+09 -2.10344345811E-01 +8.89220185567E-01 +4.50342310990E-06 +1.56973172828E-04 +8.79271349255E-07 +1.22665712303E-04 -3.96646628457E-01 +8.61912902141E-01
1.34000000000E+09 -1.99584761281E-01 +8.88731690828E-01 +5.06243420777E-05 +1.05978041660E-04 +3.82164691987E-05 +1.27929198335E-04 -3.86496336285E-01 +8.65254802568E-01
1.34500000000E+09 -1.86161117694E-01 +8.88260509262E-01 +7.10018309174E-05 +1.25378504715E-04 +1.80180164300E-05 +5.17695073574E-05 -3.75595923718E-01 +8.68468347995E-01
1.35000000000E+09 -1.70506464797E-01 +8.88225710995E-01 +1.54877930501E-05 +6.12847206944E-05 +4.25480770619E-05 +1.86250268223E-05 -3.64576272011E-01 +8.71456407775E-01
1.35500000000E+09 -1.53733334427E-01 +8.88550501493E-01 +4.16540109427E-05 +8.25959352012E-05 +1.75930928767E-05 +6.23290099314E-05 -3.52926958521E-01 +8.74486900682E-01
1.36000000000E+09 -1.36781739275E-01 +8.88946406236E-01 +9.80195417745E-06 +3.22893235077E-05 +4.30166810440E-05 +5.81533239762E-05 -3.41213639472E-01 +8.77168299504E-01
1.36500000000E+09 -1.20803996575E-01 +8.89441743537E-01 -4.29710101528E-05 +9.15288067065E-05 -9.64498747460E-06 +7.56045902317E-05 -3.29050255515E-01 +8.79718298327E-01
1.37000000000E+09 -1.06468188854E-01 +8.89673857997E-01 -1.06905427231E-05 +1.80093058829E-04 +4.89685214050E-06 +1.41440213689E-04 -3.16363856640E-01 +8.81972690015E-01
1.37500000000E+09 -9.42798221272E-02 +8.89365461163E-01 +7.59167902224E-05 +1.76383740396E-04 +2.38244439931E-06 +1.40868348839E-04 -3.02699122169E-01 +8.84184372719E-01
1.38000000000E+09 -8.34261586875E-02 +8.88609310843E-01 +1.35486319909E-04 +1.64293318057E-04 +1.09397823070E-04 +2.16301043774E-04 -2.88194165998E-01 +8.86278717589E-01
1.38500000000E+09 -7.24898782046E-02 +8.87156324593E-01 +2.09869108794E-04 +1.01912414640E-04 +1.76939593700E-04 +1.62269778629E-04 -2.72666146516E-01 +8.88261252901E-01
1.39000000000E+09 -6.10679778133E-02 +8.84877337350E-01 +1.73188823700E-04 +1.22959013402E-04 +1.92857065713E-04 +1.50465091414E-04 -2.56786426691E-01 +8.89692230590E-01
1.39500000000E+09 -4.75157440958E-02 +8.81782358323E-01 +2.61053626708E-04 +6.66617905301E-05 +2.93337096332E-04 +1.02397353807E-04 -2.40126891327E-01 +8.90433558167E-01
1.40000000000E+09 -3.08966887107E-02 +8.77536296007E-01 +2.35373350034E-04 +4.36941757409E-05 +2.45267264490E-04 +1.63457799962E-05 -2.22731888315E-01 +8.90986785733E-01
1.40500000000E+09 -1.22391290922E-02 +8.72657793332E-01 +1.67548191090E-04 -3.10243985041E-05 +2.00505997006E-04 -2.89960268361E-05 -2.03992210968E-01 +8.90845185923E-01
1.41000000000E+09 +8.63386147410E-03 +8.67129737768E-01 +1.35211778501E-04 -2.23342831318E-05 +1.18149710377E-04 +2.35343252640E-05 -1.83786046856E-01 +8.90116598111E-01
1.41500000000E+09 +3.06192896861E-02 +8.61289330777E-01 +2.19048719086E-04 +5.98946211653E-05 +2.12880702636E-04 +4.82820994634E-05 -1.62253496981E-01 +8.88589313693E-01
1.42000000000E+09 +5.32906397461E-02 +8.55073205436E-01 +2.73701621366E-04 +3.89978877047E-05 +3.41932365158E-04 +6.81161961041E-05 -1.39535414174E-01 +8.85865456958E-01
1.42500000000E+09 +7.52176496316E-02 +8.47714812355E-01 +3.67525966613E-04 -1.66555440999E-04 +4.61624608163E-04 -2.02799094824E-04 -1.16205016206E-01 +8.82454176752E-01
1.43000000000E+09 +9.58164226103E-02 +8.39324546067E-01 +1.48381627521E-04 -2.70871605315E-04 +1.81221316979E-04 -2.97903489035E-04 -9.13907291277E-02 +8.77790072905E-01
1.43500000000E+09 +1.15356829374E-01 +8.29530327749E-01 +9.89844997163E-05 -2.16722626088E-04 +5.31279660709E-05 -2.12748155312E-04 -6.52265752471E-02 +8.71233520880E-01
1.44000000000E+09 +1.34735581310E-01 +8.18390531544E-01 +2.39287339758E-05 -8.28183369238E-05 +1.94349347363E-05 -6.57040654256E-05 -3.72045455960E-02 +8.62677369425E-01
1.44500000000E+09 +1.55298389868E-01 +8.04749704369E-01 +1.19986670604E-04 +3.06260679389E-05 +1.71775894920E-04 +2.00916516188E-05 -7.33537632512E-03 +8.51306294935E-01
1.45000000000E+09 +1.78020457751E-01 +7.87538413159E-01 +3.64846487592E-04 -8.70493676939E-05 +3.19752849548E-04 -9.66038174810E-05 +2.47566483654E-02 +8.37010022784E-01
1.45500000000E+09 +2.03557596314E-01 +7.66392036200E-01 +1.60871703553E-04 -1.76760298552E-04 +1.13012357975E-04 -1.84547076324E-04 +5.80297699965E-02 +8.19333230729E-01
1.46000000000E+09 +2.31897921193E-01 +7.40431396658E-01 +2.30784601345E-04 +3.03364062413E-06 +2.55825708456E-04 -3.27302757059E-05 +9.28668713564E-02 +7.97326323696E-01
1.46500000000E+09 +2.61885783631E-01 +7.09727986916E-01 +3.80093306221E-04 -2.09540325030E-04 +3.53382486103E-04 -2.81004266518E-04 +1.28449409007E-01 +7.70894870432E-01
1.47000000000E+09 +2.93020326226E-01 +6.74533910895E-01 +4.42386002445E-04 -1.68211032573E-04 +3.58803649137E-04 -1.46596307708E-04 +1.65537702419E-01 +7.37427727267E-01
1.47500000000E+09 +3.23693990255E-01 +6.34099149252E-01 +5.37653939043E-04 -4.14753202471E-04 +5.07144886665E-04 -3.89081709875E-04 +2.02457320652E-01 +6.96642530484E-01
1.48000000000E+09 +3.51568280267E-01 +5.88199252376E-01 +3.72634641848E-04 -4.72476273182E-04 +3.79620031926E-04 -4.58433977774E-04 +2.39000316259E-01 +6.47360139700E-01
1.48500000000E+09 +3.75625265278E-01 +5.36618869272E-01 +6.65988315716E-04 -4.64136401105E-04 +6.50586882740E-04 -4.85192799287E-04 +2.72951614640E-01 +5.88982832918E-01
1.49000000000E+09 +3.93953872215E-01 +4.78390616176E-01 +1.00455790731E-03 -9.70411283177E-04 +9.30915267831E-04 -1.02171350022E-03 +3.01248620802E-01 +5.19314209931E-01
1.49500000000E+09 +4.04786546791E-01 +4.12498332751E-01 +8.54812955542E-04 -2.10587505135E-03 +7.22303253502E-04 -2.02675119678E-03 +3.19626091586E-01 +4.40295401311E-01
1.50000000000E+09 +4.05435963951E-01 +3.38072617921E-01 -4.37380370193E-04 -2.69747398338E-03 -4.38536535108E-04 -2.52174482495E-03 +3.25223379040E-01 +3.50939284226E-01
1.50500000000E+09 +3.94289819582E-01 +2.56941975352E-01 -1.52019284428E-03 -2.33878051892E-03 -1.38173878920E-03 -2.32962491864E-03 +3.13832316524E-01 +2.55019534091E-01
1.51000000000E+09 +3.69009580848E-01 +1.69516127953E-01 -2.21187998411E-03 -1.65626202350E-03 -2.09741866757E-03 -1.70649186193E-03 +2.82091233204E-01 +1.54970834646E-01
1.51500000000E+09 +3.25606213410E-01 +7.98478521217E-02 -2.69028669194E-03 -1.44517535838E-03 -2.67606988926E-03 -1.56216004413E-03 +2.28324218336E-01 +5.73333922199E-02
1.52000000000E+09 +2.62805023964E-01 -4.62866713963E-03 -3.45678800927E-03 -4.08921278290E-05 -3.44345191386E-03 -4.35181558468E-05 +1.51878814986E-01 -2.92576313906E-02
1.52500000000E+09 +1.81419564910E-01 -7.74319922921E-02 -2.84837502941E-03 +4.28992525803E-04 -2.90745662439E-03 +4.20890979127E-04 +5.61900872413E-02 -9.77341964985E-02
1.53000000000E+09 +8.36667769772E-02 -1.29976226293E-01 -3.17721019592E-03 +1.43608185151E-03 -3.22856973134E-03 +1.45247095299E-03 -5.04514361172E-02 -1.41997812443E-01
1.53500000000E+09 -2.19264447642E-02 -1.57931582743E-01 -2.88293082966E-03 +2.55183312628E-03 -2.89970896960E-03 +2.57177707086E-03 -1.62180095077E-01 -1.62441550628E-01
1.54000000000E+09 -1.29891908027E-01 -1.61155382991E-01 -1.88828841689E-03 +3.48957695373E-03 -1.88514244784E-03 +3.45225141021E-03 -2.71163861936E-01 -1.59457753325E-01
1.54500000000E+09 -2.33641710552E-01 -1.40745991970E-01 -4.19448503872E-04 +4.33387898092E-03 -4.61804316827E-04 +4.25479593336E-03 -3.70444113665E-01 -1.35390453539E-01
1.55000000000E+09 -3.28883807967E-01 -1.02070661491E-01 +1.48233939625E-03 +3.40725957792E-03 +1.39801311786E-03 +3.42120189557E-03 -4.55604306628E-01 -9.70990997393E-02
1.55500000000E+09 -4.10729395592E-01 -4.84220629091E-02 +1.82111186102E-03 +2.48282652803E-03 +1.79077826590E-03 +2.60971273586E-03 -5.26222590042E-01 -4.93886559002E-02
1.56000000000E+09 -4.76573546965E-01 +1.10343168614E-02 +2.17367632034E-03 +1.56605443779E-03 +2.20599172172E-03 +1.73575648178E-03 -5.83008140748E-01 +4.19945948867E-03
1.56500000000E+09 -5.29022105044E-01 +7.18073716457E-02 +2.01756018280E-03 +9.37056802809E-04 +2.15919138153E-03 +1.00972787034E-03 -6.26898854832E-01 +6.00716834750E-02
1.57000000000E+09 -5.68913854431E-01 +1.31716518438E-01 +1.91235168330E-03 +5.01912794279E-04 +2.02960036875E-03 +5.22372977534E-04 -6.60192917337E-01 +1.15602095631E-01
