# Hz S RI R 50
! CMT, C1220, 16058040, 17.2.0/1
! Date: 14/08/2018 12:06:03
! Data: Format (Calibration Info)
! Freq                      S11: Re/Im (F2)                       S21: Re/Im (F2)                       S12: Re/Im (F2)                       S22: Re/Im (F2)            
1.00000000000E+09 -6.54379262327E-01 +7.09960875449E-01 -2.56696505315E-05 +1.11577476971E-05 -1.40324771641E-05 -1.66209515378E-05 -7.53377975946E-01 +6.25676862115E-01
1.00500000000E+09 -6.47604053901E-01 +7.14563342545E-01 -4.83458962443E-06 +1.55777796559E-05 +6.30086008408E-06 -8.73804886677E-06 -7.49965696497E-01 +6.29639438929E-01
1.01000000000E+09 -6.41865412108E-01 +7.18818383299E-01 -2.25516337017E-05 -1.75409944079E-05 -4.50042085630E-05 -1.48360127114E-06 -7.46275708260E-01 +6.33525504407E-01
1.01500000000E+09 -6.37703629838E-01 +7.22389793317E-01 +2.92224237446E-05 -1.48196314913E-05 -2.51382219054E-05 +1.56061960585E-05 -7.42796950222E-01 +6.37338864089E-01
1.02000000000E+09 -6.34766256853E-01 +7.25810053464E-01 -5.74783568554E-05 -8.19252470266E-06 -6.18884322126E-05 +3.04563123890E-05 -7.39395052268E-01 +6.40869787593E-01
1.02500000000E+09 -6.32867843986E-01 +7.28831877874E-01 -4.00844998003E-05 +2.67503162821E-05 -2.06473149036E-05 +6.98613681231E-07 -7.36401872570E-01 +6.44572049801E-01
1.03000000000E+09 -6.31464576758E-01 +7.31656311161E-01 -6.38371992511E-06 +7.25523517926E-06 +2.01431915066E-05 +2.65725989444E-05 -7.33109729599E-01 +6.48349463089E-01
1.03500000000E+09 -6.29258745848E-01 +7.34345598020E-01 -1.32374695936E-05 -2.30571759806E-05 +1.11544842008E-05 -3.93213764651E-05 -7.29200674156E-01 +6.52278944316E-01
1.04000000000E+09 -6.25776032174E-01 +7.37535917960E-01 -9.01387805521E-06 +1.44544179904E-05 -3.54538320343E-05 +3.38502794493E-05 -7.25402212304E-01 +6.56006910742E-01
1.04500000000E+09 -6.21001421091E-01 +7.41100207573E-01 -5.61182718192E-06 +3.70686679504E-05 +1.15846725156E-06 +3.45349713055E-05 -7.21974407589E-01 +6.59505996992E-01
1.05000000000E+09 -6.14306148817E-01 +7.45133659139E-01 -7.46475727025E-05 +9.78345002957E-06 -2.56752653309E-05 +6.08137407929E-05 -7.18446832552E-01 +6.63158053182E-01
1.05500000000E+09 -6.06625893967E-01 +7.49268431510E-01 -3.54698681529E-05 -1.25079922692E-05 -1.87484954727E-05 +5.02419593690E-05 -7.15240044589E-01 +6.66586826497E-01
1.06000000000E+09 -5.98276093962E-01 +7.53770972509E-01 -4.65422487669E-05 +2.77257641695E-05 +6.41720311907E-06 +1.78955726060E-05 -7.11865176952E-01 +6.70292487606E-01
1.06500000000E+09 -5.90406822648E-01 +7.58234978496E-01 +8.47007771861E-06 +6.86840373661E-05 -5.71831030618E-05 +3.74125949934E-05 -7.08328270227E-01 +6.74175156383E-01
1.07000000000E+09 -5.83532464556E-01 +7.61944310571E-01 -2.70267433454E-05 +3.86677073890E-05 -4.48222309007E-05 +1.37761045771E-05 -7.04286861827E-01 +6.77852016077E-01
1.07500000000E+09 -5.78094021396E-01 +7.65820028107E-01 -5.27295724279E-05 +5.66785764663E-05 +1.43942163760E-05 +4.07293799783E-06 -6.99835544072E-01 +6.81562991112E-01
1.08000000000E+09 -5.74260353475E-01 +7.69118311499E-01 -1.81640963814E-05 +5.97322321608E-05 +6.13315949121E-05 +4.98156980354E-05 -6.95894186991E-01 +6.85279856424E-01
1.08500000000E+09 -5.71641775855E-01 +7.72087074198E-01 -2.06337706461E-05 +2.62480740115E-05 -6.15168026788E-06 +3.59565427707E-05 -6.91986720239E-01 +6.89063632773E-01
1.09000000000E+09 -5.69315658795E-01 +7.74838233281E-01 +4.71252711856E-05 +8.90264136703E-05 +8.42981327668E-06 +2.91435536338E-05 -6.88044234438E-01 +6.92974524147E-01
1.09500000000E+09 -5.67264577595E-01 +7.77384458543E-01 +1.97127076110E-05 +2.28645323719E-05 -2.64112987959E-06 +1.65392697018E-06 -6.84175167789E-01 +6.96901285045E-01
1.10000000000E+09 -5.63831978036E-01 +7.80049488413E-01 +3.13640245891E-05 +1.36696477535E-05 -1.55522221686E-05 +6.36050398086E-05 -6.80285615208E-01 +7.00810198235E-01
1.10500000000E+09 -5.59347067831E-01 +7.82929401827E-01 +8.72990771326E-06 +6.53708888009E-05 +4.00183815363E-05 +1.55780271725E-05 -6.75953981210E-01 +7.04309027109E-01
1.11000000000E+09 -5.53585646283E-01 +7.86153259262E-01 +1.07803978260E-06 +1.07282434067E-05 +1.77117796623E-05 +1.37094345389E-06 -6.71554910745E-01 +7.07674099283E-01
1.11500000000E+09 -5.46369691019E-01 +7.89868349359E-01 +2.56730861323E-06 +4.31037328903E-05 +3.70388406103E-05 +3.71326300767E-05 -6.67645529768E-01 +7.11145969602E-01
1.12000000000E+09 -5.38912404015E-01 +7.93352377360E-01 +1.53507297420E-06 +1.27476772324E-05 +1.53933897711E-05 +5.18968056579E-05 -6.63387085979E-01 +7.14860086236E-01
1.12500000000E+09 -5.31212777250E-01 +7.97103354393E-01 +3.66113931345E-06 +1.69327330360E-05 -9.13282715087E-06 +2.58495002525E-05 -6.59239875641E-01 +7.18648390397E-01
1.13000000000E+09 -5.24532436843E-01 +8.00427176900E-01 +2.58181146498E-05 +3.47998002969E-05 +4.25712646294E-05 +3.26515916778E-06 -6.55064277187E-01 +7.22483121127E-01
1.13500000000E+09 -5.18793564388E-01 +8.03283860600E-01 +3.87453826616E-05 +5.75061766483E-05 +5.94941685215E-05 +4.01772658643E-05 -6.50424346695E-01 +7.26378535640E-01
1.14000000000E+09 -5.14338667101E-01 +8.06162056299E-01 +7.60882506551E-05 +3.44940167206E-05 +9.03902116883E-05 +6.72448292824E-05 -6.45759001757E-01 +7.29745818326E-01
1.14500000000E+09 -5.10517518808E-01 +8.08655024128E-01 +3.66964837091E-05 +1.63054762722E-05 +1.81116977926E-05 +2.69519867630E-05 -6.41165356873E-01 +7.33004850830E-01
1.15000000000E+09 -5.07046973572E-01 +8.10914167935E-01 +4.32379756003E-05 +6.11359953572E-05 +7.28717163481E-05 +6.41139426995E-05 -6.36476023361E-01 +7.36937978476E-01
1.15500000000E+09 -5.03436164756E-01 +8.13304493979E-01 +4.15235826257E-05 +5.25028654066E-05 +4.55944160056E-05 +4.99058993244E-05 -6.31755076566E-01 +7.40674817061E-01
1.16000000000E+09 -4.98941491882E-01 +8.15672813474E-01 +7.15955634538E-05 +5.63942981380E-05 +5.72144986771E-05 +1.14761087746E-05 -6.26833278123E-01 +7.44719654820E-01
1.16500000000E+09 -4.93293216815E-01 +8.18653821209E-01 +5.95869791096E-05 +2.77560873524E-05 +7.74904035077E-05 +1.21295938046E-05 -6.21673379227E-01 +7.48219643614E-01
1.17000000000E+09 -4.86382060438E-01 +8.21510787940E-01 +1.02033920972E-04 +2.87616502544E-05 +7.63813770552E-05 +6.65805065325E-05 -6.16251256232E-01 +7.51459082707E-01
1.17500000000E+09 -4.78561035457E-01 +8.24601907872E-01 +1.05240765264E-04 +4.53467491128E-05 +8.90809933514E-05 +2.31891518984E-05 -6.10402228469E-01 +7.54748284159E-01
1.18000000000E+09 -4.70495015071E-01 +8.27712836865E-01 +1.17912486561E-04 +6.01015058137E-06 +1.00854063990E-04 +6.75360338736E-05 -6.04857637814E-01 +7.57914246347E-01
1.18500000000E+09 -4.62647671406E-01 +8.30799579686E-01 +1.20543415906E-04 +2.61415593143E-05 +1.42668157363E-04 +2.40024972509E-07 -5.99133370622E-01 +7.60995193972E-01
1.19000000000E+09 -4.55595220984E-01 +8.33149816666E-01 +1.35830829450E-04 +3.03211119954E-05 +1.83140410111E-04 -5.46732412434E-05 -5.92697830234E-01 +7.63773964882E-01
1.19500000000E+09 -4.49629757985E-01 +8.35372599079E-01 +1.97272517745E-04 -1.68741810898E-05 +1.94122051104E-04 +2.40685777474E-06 -5.86783138569E-01 +7.64769479514E-01
1.20000000000E+09 -4.44951510322E-01 +8.36769898966E-01 +1.89502519331E-04 -1.23573975233E-04 +1.81389449550E-04 -1.30297182508E-04 -5.82065071602E-01 +7.64997293368E-01
1.20500000000E+09 -4.40997423872E-01 +8.38600086794E-01 +1.34367032659E-04 -1.31527852337E-04 +1.49123446906E-04 -1.52278537001E-04 -5.80035213197E-01 +7.65798000264E-01
1.21000000000E+09 -4.36778570556E-01 +8.40645910245E-01 +3.73325762147E-05 -1.45290130067E-04 +7.09245706035E-05 -1.23931775922E-04 -5.78231927223E-01 +7.68841090218E-01
1.21500000000E+09 -4.31480975181E-01 +8.42850413019E-01 +2.73178937023E-05 -9.87183724940E-05 +9.42865956224E-05 -1.12082735915E-04 -5.75432347199E-01 +7.73411328343E-01
1.22000000000E+09 -4.24979045553E-01 +8.45428464643E-01 +4.41811375831E-05 -9.36438534810E-05 +4.88901456784E-05 -1.54607678557E-04 -5.71105181741E-01 +7.78689351755E-01
1.22500000000E+09 -4.16894141918E-01 +8.48199335611E-01 +1.05017422345E-04 -8.17059829028E-05 +7.50406446598E-05 -1.36300299431E-04 -5.66041889983E-01 +7.83900092235E-01
1.23000000000E+09 -4.07509942860E-01 +8.51238440872E-01 +5.98010221042E-05 -1.08786281406E-04 +5.96271740065E-05 -1.00347907566E-04 -5.60418579644E-01 +7.88667548261E-01
1.23500000000E+09 -3.97562986087E-01 +8.54517134768E-01 +3.51028561177E-05 -1.43506168149E-04 -7.53719527142E-06 -1.05990332929E-04 -5.54425942916E-01 +7.92958568849E-01
1.24000000000E+09 -3.87358890314E-01 +8.57803563342E-01 +1.06190999416E-04 -1.56389736663E-04 +1.23199105395E-04 -1.49657467763E-04 -5.48513710737E-01 +7.96784456218E-01
1.24500000000E+09 -3.77949682680E-01 +8.61325695607E-01 +3.61476060762E-05 -1.99635997408E-04 +6.41741375802E-05 -1.63566233283E-04 -5.42004560436E-01 +8.00606470197E-01
1.25000000000E+09 -3.69500689919E-01 +8.64259008244E-01 +2.91418530873E-05 -2.21332378725E-04 +8.43845025784E-05 -2.25930518931E-04 -5.35489403779E-01 +8.04816920945E-01
1.25500000000E+09 -3.62210397333E-01 +8.66905514339E-01 -2.69394031961E-06 -2.11612059385E-04 +1.73321165228E-05 -2.51866797377E-04 -5.28592599597E-01 +8.08868396651E-01
1.26000000000E+09 -3.56060590030E-01 +8.69364936322E-01 -1.36117075605E-05 -2.43735196566E-04 -6.07209768138E-05 -2.52608038907E-04 -5.21790839434E-01 +8.13195931868E-01
1.26500000000E+09 -3.50552989123E-01 +8.71541507909E-01 -1.99421481605E-05 -2.86447589725E-04 -4.44302669047E-05 -2.54419651796E-04 -5.14843382376E-01 +8.17117487560E-01
1.27000000000E+09 -3.44809603042E-01 +8.73721309424E-01 -6.71023218799E-05 -2.44530581799E-04 -3.16020607657E-05 -2.32953314663E-04 -5.08084620178E-01 +8.20946594891E-01
1.27500000000E+09 -3.38371951519E-01 +8.75847492994E-01 -1.09550482842E-04 -2.63372735979E-04 -1.19310582322E-04 -2.68913929978E-04 -5.01041295834E-01 +8.24506084207E-01
1.28000000000E+09 -3.30373244205E-01 +8.78161863525E-01 -1.48008268385E-04 -1.95625101172E-04 -1.49445218297E-04 -2.27140627874E-04 -4.93984952148E-01 +8.27937670342E-01
1.28500000000E+09 -3.20604752538E-01 +8.80651331205E-01 -1.76376822257E-04 -2.68214584858E-04 -1.59094539184E-04 -2.35941467211E-04 -4.86499395008E-01 +8.31693284691E-01
1.29000000000E+09 -3.09787157609E-01 +8.83213965489E-01 -2.12076655056E-04 -1.82086398667E-04 -2.53425288913E-04 -2.58707311857E-04 -4.79128275864E-01 +8.35421603580E-01
1.29500000000E+09 -2.98220320296E-01 +8.85841391659E-01 -2.17520660558E-04 -2.16840182028E-04 -2.65803785468E-04 -1.94047911146E-04 -4.71137715618E-01 +8.38886216503E-01
1.30000000000E+09 -2.86734436984E-01 +8.88520266042E-01 -3.00072946216E-04 -2.43158728319E-04 -3.17680012800E-04 -1.92738914000E-04 -4.63314792606E-01 +8.42496412718E-01
1.30500000000E+09 -2.76097432387E-01 +8.90931852586E-01 -3.98817740733E-04 -1.93894430344E-04 -3.24055983664E-04 -1.56516958394E-04 -4.55137677500E-01 +8.45927160091E-01
1.31000000000E+09 -2.66558222892E-01 +8.93124795395E-01 -4.31706511547E-04 -6.04544151852E-05 -3.47902546474E-04 -4.74441567450E-05 -4.46856162491E-01 +8.49230240988E-01
1.31500000000E+09 -2.58633870224E-01 +8.95038945932E-01 -3.66010585136E-04 -4.17612464403E-05 -3.33456881111E-04 -1.48393136403E-05 -4.37981149271E-01 +8.52722241405E-01
1.32000000000E+09 -2.51761764925E-01 +8.96566807633E-01 -3.35000191460E-04 +2.68295317092E-05 -3.54898169787E-04 -1.30813823534E-05 -4.28850772280E-01 +8.56183977944E-01
1.32500000000E+09 -2.45144139174E-01 +8.97868502961E-01 -3.23358856327E-04 -1.08129295249E-05 -3.85126837559E-04 +1.05839601769E-05 -4.19171532639E-01 +8.59583450405E-01
1.33000000000E+09 -2.37846881822E-01 +8.98982913772E-01 -3.69076867967E-04 +2.80788563150E-05 -4.06590429364E-04 +5.08920040395E-05 -4.09540156164E-01 +8.62991927531E-01
1.33500000000E+09 -2.29020528087E-01 +8.99595753729E-01 -3.79117777516E-04 +1.15098134317E-04 -3.94417939137E-04 +8.89864782766E-05 -3.99586052129E-01 +8.66180217106E-01
1.34000000000E+09 -2.18102695762E-01 +9.00233364308E-01 -4.38679205526E-04 +1.36375992267E-04 -4.32131177274E-04 +1.72502007461E-04 -3.89408474553E-01 +8.69487537907E-01
1.34500000000E+09 -2.05014480163E-01 +9.00543901022E-01 -3.83471671428E-04 +2.05629242654E-04 -3.20012831254E-04 +2.04400838123E-04 -3.78316705522E-01 +8.72820730686E-01
1.35000000000E+09 -1.89978625252E-01 +9.00507826855E-01 -3.70192143620E-04 +2.43360885029E-04 -3.32172329506E-04 +1.80130861600E-04 -3.67183545917E-01 +8.75872069646E-01
1.35500000000E+09 -1.74078418505E-01 +9.00572422536E-01 -3.24589012511E-04 +2.26267008592E-04 -3.43111835549E-04 +2.38214141181E-04 -3.55606390828E-01 +8.78636855039E-01
1.36000000000E+09 -1.57829255428E-01 +9.00515486377E-01 -2.85201695927E-04 +2.27153011085E-04 -3.31824057557E-04 +2.33985394048E-04 -3.43665984276E-01 +8.81355189857E-01
1.36500000000E+09 -1.42135437338E-01 +9.00732468083E-01 -3.67835157480E-04 +2.70923120766E-04 -3.33592347827E-04 +2.84449955748E-04 -3.31505087834E-01 +8.83899748416E-01
1.37000000000E+09 -1.27588000419E-01 +9.00533832871E-01 -3.83611098022E-04 +3.51837592371E-04 -3.84951864340E-04 +2.31813971274E-04 -3.18615825460E-01 +8.86228381111E-01
1.37500000000E+09 -1.14190656834E-01 +9.00540248315E-01 -4.08104550383E-04 +3.56101713138E-04 -4.38716898964E-04 +3.28230485132E-04 -3.04995052839E-01 +8.88488204118E-01
1.38000000000E+09 -1.01985017925E-01 +9.00232621923E-01 -3.69268515163E-04 +5.36225965355E-04 -4.56206254945E-04 +5.28260021106E-04 -2.90371752623E-01 +8.90512413320E-01
1.38500000000E+09 -8.96421681966E-02 +8.99615515102E-01 -2.05316736108E-04 +5.54588536485E-04 -3.22166705157E-04 +5.96581916021E-04 -2.74875707275E-01 +8.92366285164E-01
1.39000000000E+09 -7.69104484622E-02 +8.98399873125E-01 -2.00423638999E-04 +5.02336362786E-04 -1.71590080654E-04 +5.94075116315E-04 -2.58907913457E-01 +8.93993066191E-01
1.39500000000E+09 -6.24158494892E-02 +8.96275542944E-01 -2.07606904503E-04 +5.37832069302E-04 -1.77316438491E-04 +6.06025989817E-04 -2.42188214215E-01 +8.94743601850E-01
1.40000000000E+09 -4.58740961969E-02 +8.93145092204E-01 -1.93222858052E-04 +5.95624392289E-04 -1.51910488978E-04 +6.06597424675E-04 -2.24624724220E-01 +8.95132046559E-01
1.40500000000E+09 -2.73953987736E-02 +8.88891356004E-01 -1.83759417398E-04 +6.76793966387E-04 -2.24553846311E-04 +6.51563619492E-04 -2.06008597556E-01 +8.94891349459E-01
1.41000000000E+09 -7.21909719630E-03 +8.83371176603E-01 -1.49734023154E-04 +7.89119164839E-04 -1.74731222387E-04 +7.82282568525E-04 -1.85830867729E-01 +8.94411442729E-01
1.41500000000E+09 +1.39473673439E-02 +8.77144643398E-01 +4.23527649695E-06 +8.27078153485E-04 -6.27296331781E-05 +8.96950685087E-04 -1.64281665801E-01 +8.93030095094E-01
1.42000000000E+09 +3.57368542855E-02 +8.70348646241E-01 -3.20099759596E-05 +8.11340459125E-04 -8.14614826988E-05 +8.48363325043E-04 -1.41360623385E-01 +8.90614811984E-01
1.42500000000E+09 +5.75551939975E-02 +8.62941063153E-01 -3.42224915359E-05 +9.90407649862E-04 -3.63336240580E-06 +1.09980127538E-03 -1.17465093271E-01 +8.86971663128E-01
1.43000000000E+09 +7.90434941060E-02 +8.54791131318E-01 +1.03828251943E-04 +1.25684601598E-03 +2.04508574842E-04 +1.28315804388E-03 -9.23888124502E-02 +8.82247092347E-01
1.43500000000E+09 +1.00693698499E-01 +8.45448305176E-01 +4.03087851977E-04 +1.26784454851E-03 +6.05865549243E-04 +1.28790186975E-03 -6.61950645149E-02 +8.75625621512E-01
1.44000000000E+09 +1.22657538544E-01 +8.34760357579E-01 +6.05470881820E-04 +1.15733291700E-03 +6.90800815296E-04 +1.14838474543E-03 -3.79144615148E-02 +8.67174254981E-01
1.44500000000E+09 +1.46469171401E-01 +8.21904597027E-01 +6.53860195614E-04 +1.05502458321E-03 +7.19704753900E-04 +1.04249303145E-03 -7.57159019263E-03 +8.55820702951E-01
1.45000000000E+09 +1.71867079234E-01 +8.05006869265E-01 +5.43102132363E-04 +1.31845497652E-03 +6.72997286995E-04 +1.34259956538E-03 +2.46028612874E-02 +8.41249647199E-01
1.45500000000E+09 +1.99088610614E-01 +7.84352580163E-01 +8.26108231919E-04 +1.66333143767E-03 +9.67685369575E-04 +1.59755436016E-03 +5.81179719689E-02 +8.23668372837E-01
1.46000000000E+09 +2.28590882231E-01 +7.59243160865E-01 +1.50683006632E-03 +1.83558597281E-03 +1.67032791137E-03 +1.60093501680E-03 +9.31610554867E-02 +8.01905411797E-01
1.46500000000E+09 +2.59551717100E-01 +7.28620675493E-01 +1.93389144992E-03 +1.62125236688E-03 +1.81534770882E-03 +1.39372069859E-03 +1.29721862567E-01 +7.75022807062E-01
1.47000000000E+09 +2.91009037736E-01 +6.92731999535E-01 +2.33402282102E-03 +1.62437316231E-03 +2.15561513495E-03 +1.47253252865E-03 +1.67281035004E-01 +7.40990443512E-01
1.47500000000E+09 +3.21925286324E-01 +6.50409537404E-01 +3.05465820910E-03 +1.58932906358E-03 +2.87939483396E-03 +1.65875524981E-03 +2.04139727826E-01 +6.99503782597E-01
1.48000000000E+09 +3.49836776027E-01 +6.01648569463E-01 +4.00935292410E-03 +1.10484937764E-03 +3.98381533725E-03 +1.28709150330E-03 +2.40608497534E-01 +6.50630096895E-01
1.48500000000E+09 +3.73760905964E-01 +5.47091421027E-01 +4.63145500758E-03 +3.38987351249E-04 +4.75360988348E-03 +2.35164695553E-04 +2.75689223231E-01 +5.91571260194E-01
1.49000000000E+09 +3.92400809710E-01 +4.85373280363E-01 +5.32417765252E-03 -6.09172688301E-04 +5.28252352460E-03 -8.75111262027E-04 +3.04198540372E-01 +5.21377377874E-01
1.49500000000E+09 +4.03395529798E-01 +4.15654708770E-01 +5.70808326788E-03 -1.94997003395E-03 +5.35317847651E-03 -2.05129201789E-03 +3.22823714253E-01 +4.40948699713E-01
1.50000000000E+09 +4.03866886960E-01 +3.37689336908E-01 +6.49843930626E-03 -3.06851343530E-03 +6.13483382891E-03 -2.92126633747E-03 +3.28487226629E-01 +3.51654574007E-01
1.50500000000E+09 +3.91504893023E-01 +2.53196663271E-01 +6.87792855014E-03 -6.34953184002E-03 +6.78100084024E-03 -5.87658834578E-03 +3.17320351782E-01 +2.53719135828E-01
1.51000000000E+09 +3.62410921793E-01 +1.63073607093E-01 +4.41794649461E-03 -9.71209544501E-03 +4.69651473049E-03 -9.39419108811E-03 +2.84774390090E-01 +1.52118163770E-01
1.51500000000E+09 +3.13413319294E-01 +7.37550176816E-02 +1.17188632641E-03 -1.08462789945E-02 +1.47913507311E-03 -1.09161100106E-02 +2.29492843264E-01 +5.46609782845E-02
1.52000000000E+09 +2.45436837318E-01 -6.85456682495E-03 -2.48461021960E-03 -1.12308725382E-02 -2.33805215979E-03 -1.13612485433E-02 +1.53060639434E-01 -3.22550078163E-02
1.52500000000E+09 +1.60753397627E-01 -7.55605938136E-02 -5.40256542894E-03 -9.45355522842E-03 -5.41574009090E-03 -9.54027231316E-03 +5.74499912409E-02 -1.02006280395E-01
1.53000000000E+09 +6.17519614794E-02 -1.24282586258E-01 -7.21798829191E-03 -8.76768463310E-03 -7.22271551791E-03 -8.82285934783E-03 -5.17572239263E-02 -1.47767281842E-01
1.53500000000E+09 -4.39326459876E-02 -1.50463632730E-01 -1.03244305838E-02 -6.73328525223E-03 -1.03271237961E-02 -6.73986961931E-03 -1.64594202042E-01 -1.67718830725E-01
1.54000000000E+09 -1.52144238718E-01 -1.53340305946E-01 -1.26117527645E-02 -3.20519127361E-03 -1.24386471609E-02 -3.28118783381E-03 -2.75444254007E-01 -1.63733355061E-01
1.54500000000E+09 -2.56413115890E-01 -1.32618018042E-01 -1.28162154142E-02 +1.75212098259E-03 -1.27002732588E-02 +1.45121857059E-03 -3.75103584821E-01 -1.38426096820E-01
1.55000000000E+09 -3.49308419116E-01 -9.19852269408E-02 -1.03198038693E-02 +5.15637512587E-03 -1.05071752375E-02 +4.77310974170E-03 -4.60209032309E-01 -9.95554237923E-02
1.55500000000E+09 -4.27167639317E-01 -3.84220535522E-02 -7.85814561480E-03 +7.04821232218E-03 -8.29093437264E-03 +6.90364021622E-03 -5.31193131999E-01 -5.14791703756E-02
1.56000000000E+09 -4.89262252049E-01 +2.00167155802E-02 -4.98672722342E-03 +8.38332163596E-03 -5.49281829119E-03 +8.56346768976E-03 -5.87644604598E-01 +2.97967783897E-03
1.56500000000E+09 -5.39120586672E-01 +8.02273698175E-02 -2.01757886722E-03 +8.12032630751E-03 -2.25198852185E-03 +8.48265317891E-03 -6.31558686400E-01 +5.85859297589E-02
1.57000000000E+09 -5.77335962108E-01 +1.39352581960E-01 -1.18785929802E-04 +6.77227943681E-03 -7.79937959135E-05 +7.19618135509E-03 -6.64616692133E-01 +1.14045825933E-01
