# Hz S RI R 50
! CMT, C1220, 16058040, 17.2.0/1
! Date: 14/08/2018 12:30:01
! Data: Format (Calibration Info)
! Freq                      S11: Re/Im (F2)                       S21: Re/Im (F2)                       S12: Re/Im (F2)                       S22: Re/Im (F2)            
1.00000000000E+09 -6.27688826929E-01 +7.09217572737E-01 -2.10303834371E-05 +1.35512051249E-05 -3.71540506770E-05 +2.90130898780E-05 -7.53043347672E-01 +6.24162733700E-01
1.00500000000E+09 -6.20510892088E-01 +7.14416545598E-01 -3.77080987856E-05 +4.44936430369E-05 -5.58903856418E-06 -6.14719244610E-06 -7.49369449839E-01 +6.28300319817E-01
1.01000000000E+09 -6.14539773894E-01 +7.18948149256E-01 +1.77858000066E-05 +7.82769810267E-07 -1.11141831500E-05 -3.59420708461E-05 -7.46026129651E-01 +6.31764783683E-01
1.01500000000E+09 -6.10277499246E-01 +7.22748288122E-01 +3.42294923697E-06 -2.62770442557E-05 -3.69132457209E-05 -5.73162677931E-06 -7.42909939220E-01 +6.35669583744E-01
1.02000000000E+09 -6.07420010265E-01 +7.25923648788E-01 -9.30001138744E-06 +2.23788450709E-05 +6.95591563121E-06 -2.44991542486E-06 -7.39500483371E-01 +6.39021791631E-01
1.02500000000E+09 -6.05611497154E-01 +7.28449795371E-01 +2.14638665151E-05 +8.24236361553E-06 -4.61504128420E-05 -4.42683768182E-06 -7.36674727457E-01 +6.42650393926E-01
1.03000000000E+09 -6.04092231224E-01 +7.30552047617E-01 -2.59759366361E-05 +2.15560374104E-05 +1.83784924260E-05 +7.17512342979E-06 -7.33137809094E-01 +6.46362094586E-01
1.03500000000E+09 -6.01762428167E-01 +7.32569628182E-01 -1.76442434466E-05 +1.66744397592E-05 -7.49313250074E-05 +3.20849622313E-05 -7.29339282020E-01 +6.50324102275E-01
1.04000000000E+09 -5.98208323782E-01 +7.35413489617E-01 -3.89419349547E-05 +2.13054664234E-05 +2.59113568548E-05 +2.71714194822E-05 -7.25492180873E-01 +6.54152261998E-01
1.04500000000E+09 -5.92781136058E-01 +7.38656815069E-01 -1.30201056303E-05 +4.07484716060E-06 +1.90659489347E-05 +2.57841961509E-05 -7.22142323343E-01 +6.57555612972E-01
1.05000000000E+09 -5.85759897818E-01 +7.42765848663E-01 +1.39450689800E-05 +7.89539774020E-06 +3.51621059082E-05 +5.17709560323E-06 -7.18643541708E-01 +6.60962341811E-01
1.05500000000E+09 -5.77327252625E-01 +7.47432547557E-01 -1.18528562527E-05 -3.13609758233E-06 +3.61412252340E-05 +2.76155091789E-05 -7.15367124301E-01 +6.64590421878E-01
1.06000000000E+09 -5.68342283303E-01 +7.52495335889E-01 -4.88736652907E-07 +5.82819036802E-06 +4.04779314279E-05 -3.20648606184E-06 -7.12089583846E-01 +6.68307121901E-01
1.06500000000E+09 -5.59289378261E-01 +7.57864569738E-01 -3.76032192736E-05 +5.12213321109E-05 +4.45078984249E-06 +4.66434844296E-05 -7.08170090595E-01 +6.72334579744E-01
1.07000000000E+09 -5.51548712505E-01 +7.62474679032E-01 +9.81568638379E-06 +1.93296661542E-05 +2.00513014001E-05 +1.69240847936E-05 -7.04218002859E-01 +6.75969679397E-01
1.07500000000E+09 -5.45441888390E-01 +7.66710977776E-01 +4.74963286287E-05 +1.02331688260E-05 -9.23129054055E-06 +3.74879612863E-05 -6.99781570140E-01 +6.79675837491E-01
1.08000000000E+09 -5.40921123672E-01 +7.69774540604E-01 -2.64744375116E-05 +2.51975612254E-05 +9.00161069440E-06 +2.49462315719E-05 -6.95858332291E-01 +6.83397952890E-01
1.08500000000E+09 -5.38008300716E-01 +7.72290907598E-01 +1.73019935916E-05 +2.60685687444E-05 -1.67311698104E-05 +4.35435790521E-06 -6.92133881091E-01 +6.87097302582E-01
1.09000000000E+09 -5.36035989173E-01 +7.74107436995E-01 +1.92096952909E-05 +2.37476253230E-05 +2.96153396937E-05 +1.76655818042E-05 -6.88383624620E-01 +6.90821710248E-01
1.09500000000E+09 -5.34346709042E-01 +7.75776595865E-01 +3.95800287009E-05 -9.03635111924E-07 +1.44760430802E-05 +8.24225024961E-06 -6.84594867172E-01 +6.94686698707E-01
1.10000000000E+09 -5.31331348702E-01 +7.77651337390E-01 +4.58595044222E-05 +1.32635633016E-05 +6.31428453028E-06 +2.18316406725E-05 -6.80652889723E-01 +6.98490784612E-01
1.10500000000E+09 -5.27479535526E-01 +7.80031950759E-01 +5.34893818532E-05 -3.27085419135E-05 +6.19578329397E-06 +1.10755569785E-05 -6.76426250000E-01 +7.02104812622E-01
1.11000000000E+09 -5.22047031705E-01 +7.83033764498E-01 +6.58169351726E-05 +2.08601260680E-05 +4.41881349728E-05 +1.08564835483E-06 -6.72167508828E-01 +7.05521470221E-01
1.11500000000E+09 -5.15144294352E-01 +7.86944325924E-01 -2.13269771157E-05 +5.53979003530E-05 -9.84786910938E-06 -5.80510545576E-06 -6.68147077384E-01 +7.08771697791E-01
1.12000000000E+09 -5.07648739410E-01 +7.90781732455E-01 +1.08157076231E-05 +4.78428186853E-05 +1.66413180316E-05 +9.23716896483E-06 -6.64093106643E-01 +7.12526583899E-01
1.12500000000E+09 -4.99637166573E-01 +7.94895222760E-01 +4.77890305343E-05 +1.59291786310E-05 +1.20577475978E-05 +4.84626856656E-06 -6.59884085257E-01 +7.16470331422E-01
1.13000000000E+09 -4.92235826156E-01 +7.98544962963E-01 +5.27188573554E-05 +4.34899797027E-05 +1.96114515161E-05 +1.14147588722E-05 -6.55584385514E-01 +7.20170328587E-01
1.13500000000E+09 -4.85774422750E-01 +8.01414367425E-01 +3.20969252562E-05 +9.04853026410E-06 +3.64535371142E-05 +1.37999883141E-05 -6.50896476847E-01 +7.24115274267E-01
1.14000000000E+09 -4.80435610793E-01 +8.03677313423E-01 +6.57680611006E-05 +7.71520992864E-06 +7.10227421521E-05 +4.78080333451E-06 -6.46121492831E-01 +7.27470575181E-01
1.14500000000E+09 -4.76296227915E-01 +8.05220785829E-01 +2.79916802682E-05 +4.22800968680E-05 -1.18533394263E-05 +1.19756284130E-05 -6.41468001714E-01 +7.31051630815E-01
1.15000000000E+09 -4.72399659852E-01 +8.06475985243E-01 +1.82385070050E-05 +2.37141970193E-05 +1.46698134097E-05 +1.58979444487E-05 -6.36841492208E-01 +7.34855446185E-01
1.15500000000E+09 -4.68618285796E-01 +8.08114689035E-01 +3.14646263729E-05 -1.39929596013E-05 +8.18824563118E-05 +4.93584902869E-06 -6.31975384625E-01 +7.38589118452E-01
1.16000000000E+09 -4.63961645298E-01 +8.09754884075E-01 +2.51002988282E-05 -1.56769033570E-06 +3.77636472386E-05 -8.54650860995E-06 -6.27226745301E-01 +7.42492122825E-01
1.16500000000E+09 -4.58269548625E-01 +8.12320662250E-01 +5.85149166715E-05 -1.63971442564E-05 +4.90619026229E-05 -1.83121578542E-05 -6.22157450504E-01 +7.46043309731E-01
1.17000000000E+09 -4.51476539172E-01 +8.15431212221E-01 +4.69573442916E-05 -5.09982919075E-05 +8.47993990789E-05 -2.62275576588E-05 -6.16883138977E-01 +7.49354896376E-01
1.17500000000E+09 -4.43920961522E-01 +8.18688801694E-01 +8.24054821036E-05 -2.00014069499E-05 +2.45143072229E-05 -7.66651920089E-05 -6.11222986822E-01 +7.52646518461E-01
1.18000000000E+09 -4.36054534588E-01 +8.22249777196E-01 +5.32378500563E-05 -6.90534987006E-05 +9.78594153613E-05 -5.71222461884E-05 -6.05769931748E-01 +7.55642935770E-01
1.18500000000E+09 -4.28391723656E-01 +8.25511358084E-01 +7.40562406411E-05 -6.53416883422E-05 +4.01383424333E-05 -9.45742840679E-05 -5.99835971470E-01 +7.58657061559E-01
1.19000000000E+09 -4.21177862199E-01 +8.28224997666E-01 +4.83439782628E-05 -1.17586984673E-04 +4.23781091993E-05 -6.74909059584E-05 -5.93542002035E-01 +7.61142721222E-01
1.19500000000E+09 -4.15080974606E-01 +8.30150937335E-01 +3.71886806856E-05 -1.19766510180E-04 +3.69071190932E-05 -1.04460209866E-04 -5.87952581934E-01 +7.62306088429E-01
1.20000000000E+09 -4.09925589370E-01 +8.30976431438E-01 -1.03851855946E-05 -1.59494344152E-04 +1.97177948862E-05 -1.33821483764E-04 -5.83348654493E-01 +7.62427212240E-01
1.20500000000E+09 -4.05121466792E-01 +8.31897570749E-01 -5.87637898293E-05 -1.13248172191E-04 -5.84213719869E-05 -9.91784798989E-05 -5.81175414690E-01 +7.63456713093E-01
1.21000000000E+09 -4.00165313627E-01 +8.32690913168E-01 -6.73530422022E-05 -8.07710163617E-05 -1.02625365230E-04 -8.46906254210E-05 -5.79192637197E-01 +7.66746094742E-01
1.21500000000E+09 -3.93998333675E-01 +8.34132569627E-01 -1.14254900954E-04 -6.55111394654E-05 -6.69971215118E-05 -3.32149337058E-05 -5.76262182490E-01 +7.71458816009E-01
1.22000000000E+09 -3.86155126840E-01 +8.35953713562E-01 -8.04396893413E-05 -9.12392346162E-06 -7.59143082747E-05 -3.97515268866E-05 -5.71931386041E-01 +7.76777627149E-01
1.22500000000E+09 -3.76928802997E-01 +8.38545023481E-01 -1.22422454618E-05 -4.43772610931E-05 -1.52359218453E-05 -1.51435302044E-05 -5.66843939042E-01 +7.81934146713E-01
1.23000000000E+09 -3.66779328102E-01 +8.41723098332E-01 -5.67544310817E-05 -3.27971100125E-05 -1.70633756404E-05 -5.25137756143E-05 -5.61219661700E-01 +7.86567100786E-01
1.23500000000E+09 -3.56453178720E-01 +8.45305546084E-01 -4.22661442468E-05 -7.94825325329E-05 -1.71026211291E-05 -1.81932792438E-05 -5.55367486617E-01 +7.90778407776E-01
1.24000000000E+09 -3.46109774994E-01 +8.49251885733E-01 +2.64633082474E-06 -4.30168143085E-05 -3.78625713655E-05 -4.76734129896E-05 -5.49360223147E-01 +7.94770574865E-01
1.24500000000E+09 -3.36913821377E-01 +8.53409366337E-01 -8.46548511929E-05 -5.42031610542E-05 -2.23214033625E-05 +2.01920431665E-05 -5.43108894765E-01 +7.98454269214E-01
1.25000000000E+09 -3.28785321012E-01 +8.56698517531E-01 -8.68226191035E-05 -5.79181951589E-05 -5.10878265438E-05 -5.49986154620E-05 -5.36688597731E-01 +8.02700699858E-01
1.25500000000E+09 -3.22056745533E-01 +8.58751135773E-01 -4.57420880883E-05 -9.54311967492E-06 -8.72992393721E-05 -7.58409588626E-05 -5.29840069102E-01 +8.06580951012E-01
1.26000000000E+09 -3.16189733784E-01 +8.60130117651E-01 -9.71090897352E-05 -3.89390629352E-05 -1.14376670659E-04 -3.00606848272E-05 -5.23231321720E-01 +8.10876066249E-01
1.26500000000E+09 -3.10833571880E-01 +8.60667154667E-01 -8.69720375619E-05 -2.11459478334E-05 -8.98159693769E-05 -4.00350845510E-05 -5.16341294488E-01 +8.14523682273E-01
1.27000000000E+09 -3.04888985915E-01 +8.61177241408E-01 -8.86809790445E-05 -4.34053885930E-06 -5.31945674261E-05 -2.88328288950E-06 -5.09417868232E-01 +8.18464287770E-01
1.27500000000E+09 -2.97768823859E-01 +8.61701328974E-01 -7.36835492456E-05 -5.26017521113E-05 -7.61087393968E-05 +4.00563394267E-05 -5.02400352429E-01 +8.21964192583E-01
1.28000000000E+09 -2.88780598362E-01 +8.62797704302E-01 -8.88176711024E-05 +1.09261608323E-06 -8.63581553631E-05 -2.02608271084E-05 -4.95160117032E-01 +8.25530694916E-01
1.28500000000E+09 -2.77806315720E-01 +8.64468393360E-01 -6.29640511788E-05 -2.02826627361E-05 -1.13316572701E-04 +1.57595713110E-05 -4.87680574567E-01 +8.29324107404E-01
1.29000000000E+09 -2.65830339012E-01 +8.66928813139E-01 -7.11886034476E-05 -2.67748991221E-05 -7.61145004637E-05 +1.16962994228E-05 -4.80192003428E-01 +8.33088455132E-01
1.29500000000E+09 -2.53352267064E-01 +8.69968809948E-01 -8.76593827343E-05 -9.97677761491E-07 -1.02480892195E-04 +2.97068608525E-05 -4.72207777930E-01 +8.36560721017E-01
1.30000000000E+09 -2.41220740108E-01 +8.73578204571E-01 -8.90299511564E-05 +4.20934318960E-07 -1.45451866934E-04 +7.86632544907E-05 -4.64342217801E-01 +8.40109183774E-01
1.30500000000E+09 -2.30051925201E-01 +8.76914279988E-01 -1.02450602247E-04 +5.10815011411E-05 -8.78555577342E-05 +4.90432884542E-06 -4.56368389187E-01 +8.43567217194E-01
1.31000000000E+09 -2.20455307090E-01 +8.79260955684E-01 -1.25227584615E-04 +6.77563940103E-05 -1.05763660969E-04 +6.34759679973E-05 -4.47970977021E-01 +8.46997153822E-01
1.31500000000E+09 -2.12982992453E-01 +8.80683832297E-01 -9.60184623549E-05 +4.19956998133E-05 -1.05052333139E-04 +3.02202032138E-05 -4.39291059651E-01 +8.50316662611E-01
1.32000000000E+09 -2.06821113414E-01 +8.81000073771E-01 -1.07948832145E-04 +7.20526206740E-06 -1.27579439131E-04 +2.76086011229E-05 -4.30206270241E-01 +8.53752469445E-01
1.32500000000E+09 -2.01147728411E-01 +8.80490111800E-01 -1.26089468876E-04 +6.49532478320E-05 -8.67694298202E-05 +2.76326414446E-05 -4.20888292392E-01 +8.57163166797E-01
1.33000000000E+09 -1.94734936483E-01 +8.79562148877E-01 -1.61129200515E-04 +3.12298405842E-05 -1.04288179217E-04 +5.11902082459E-05 -4.11287900818E-01 +8.60367095691E-01
1.33500000000E+09 -1.86311489850E-01 +8.78404647699E-01 -1.59217618072E-04 +1.35595875885E-04 -1.43940681219E-04 +8.24223856153E-05 -4.01549331329E-01 +8.63564346147E-01
1.34000000000E+09 -1.75368936750E-01 +8.77637020604E-01 -2.02676440515E-04 +1.01130063159E-04 -1.28430466496E-04 +1.56127955487E-04 -3.91338240153E-01 +8.66810123303E-01
1.34500000000E+09 -1.62039340331E-01 +8.77065684874E-01 -1.47794130644E-04 +1.88675436587E-04 -1.05031368416E-04 +2.04725197810E-04 -3.80521126044E-01 +8.70133935025E-01
1.35000000000E+09 -1.46888560491E-01 +8.77295843209E-01 -7.54762038587E-05 +2.15239468873E-04 -1.08155941450E-04 +1.65842322717E-04 -3.69270695185E-01 +8.73133038734E-01
1.35500000000E+09 -1.30323545735E-01 +8.78092302959E-01 -1.36742080226E-04 +2.27562729154E-04 -1.16825555110E-04 +1.93676484434E-04 -3.57651994382E-01 +8.76103875441E-01
1.36000000000E+09 -1.13855386447E-01 +8.79114139324E-01 -1.23220117506E-04 +2.56238439975E-04 -1.24183960563E-04 +2.65842242573E-04 -3.45723659015E-01 +8.78947420049E-01
1.36500000000E+09 -9.77945270936E-02 +8.79982510132E-01 -1.10044351702E-04 +3.03873586266E-04 -7.93657029926E-05 +3.08462561774E-04 -3.33535355908E-01 +8.81355205853E-01
1.37000000000E+09 -8.36714627080E-02 +8.79986419297E-01 -3.66155544649E-05 +3.86683738724E-04 -8.10059122399E-05 +3.06817336181E-04 -3.20665870003E-01 +8.83727257791E-01
1.37500000000E+09 -7.15979619035E-02 +8.79550940845E-01 +7.86723520596E-05 +4.42022915199E-04 +5.10402273661E-06 +4.03814821870E-04 -3.07050477140E-01 +8.86084847277E-01
1.38000000000E+09 -6.07304649521E-02 +8.78242275442E-01 +1.60390738798E-04 +3.67209191316E-04 +1.20586257006E-04 +4.41864938530E-04 -2.92313981791E-01 +8.88185673137E-01
1.38500000000E+09 -4.97092221378E-02 +8.76053653620E-01 +2.36203572973E-04 +3.65437172273E-04 +1.71707840803E-04 +4.08972992775E-04 -2.76846965052E-01 +8.90052144510E-01
1.39000000000E+09 -3.80949276987E-02 +8.73031218384E-01 +2.35329598126E-04 +3.42532142921E-04 +2.28492424621E-04 +3.63931391735E-04 -2.61098969534E-01 +8.91588507271E-01
1.39500000000E+09 -2.43388442950E-02 +8.69098199520E-01 +2.42481506634E-04 +2.95669838605E-04 +2.68907564762E-04 +3.12439972330E-04 -2.44268353358E-01 +8.92412245938E-01
1.40000000000E+09 -7.88212878988E-03 +8.64431121991E-01 +2.48472529604E-04 +3.62043119987E-04 +3.21614636252E-04 +3.44215435781E-04 -2.27023552190E-01 +8.92803872233E-01
1.40500000000E+09 +1.05645975999E-02 +8.59236484852E-01 +3.79734421360E-04 +3.85136565523E-04 +3.56238910362E-04 +3.37163460905E-04 -2.08591612822E-01 +8.92626636419E-01
1.41000000000E+09 +3.13022837651E-02 +8.53966525888E-01 +4.32641023648E-04 +2.75948176319E-04 +4.03773043224E-04 +2.92953746004E-04 -1.88542966859E-01 +8.92024776043E-01
1.41500000000E+09 +5.31718084629E-02 +8.48568770327E-01 +5.48176980249E-04 +2.91775486177E-04 +5.34646742087E-04 +3.29519463097E-04 -1.67069381123E-01 +8.90548774086E-01
1.42000000000E+09 +7.55756062531E-02 +8.42615985742E-01 +6.14294735029E-04 +1.11339119029E-04 +6.38012833170E-04 +1.52742774764E-04 -1.44342613473E-01 +8.88082072234E-01
1.42500000000E+09 +9.75138933773E-02 +8.35493472329E-01 +5.53472928231E-04 +1.47036928124E-04 +6.10472529739E-04 +1.18505611285E-04 -1.20667433401E-01 +8.84589894253E-01
1.43000000000E+09 +1.18180160154E-01 +8.26955905235E-01 +7.52304828748E-04 +1.46983776113E-04 +8.50782149344E-04 +6.06839143910E-05 -9.57946134531E-02 +8.79973313189E-01
1.43500000000E+09 +1.38198916816E-01 +8.16494310832E-01 +8.04511038416E-04 -5.75418161954E-05 +8.09320352938E-04 -1.57213506835E-04 -6.95734036620E-02 +8.73675312818E-01
1.44000000000E+09 +1.58203075033E-01 +8.04341099219E-01 +8.10878304983E-04 -2.03443065387E-04 +7.83230297726E-04 -2.39466068168E-04 -4.13326499408E-02 +8.65474477434E-01
1.44500000000E+09 +1.79599344212E-01 +7.89259779567E-01 +8.75565123958E-04 -2.83699114577E-04 +8.22029193972E-04 -3.40377342426E-04 -1.08683204513E-02 +8.54449481304E-01
1.45000000000E+09 +2.02831736472E-01 +7.70534729794E-01 +8.31356970959E-04 -4.28936905055E-04 +8.23753266793E-04 -4.51757206733E-04 +2.12121992516E-02 +8.40172928355E-01
1.45500000000E+09 +2.28613252432E-01 +7.48334457755E-01 +9.14186279421E-04 -4.98545951800E-04 +8.28431800372E-04 -5.73972945598E-04 +5.50893066275E-02 +8.22675297728E-01
1.46000000000E+09 +2.57171799032E-01 +7.21803816720E-01 +1.00869082806E-03 -6.66592149927E-04 +9.18970463075E-04 -7.86340186454E-04 +9.01313317295E-02 +8.01213466928E-01
1.46500000000E+09 +2.87213060184E-01 +6.91262524668E-01 +1.16202951820E-03 -1.19884413173E-03 +1.00242724191E-03 -1.14497721234E-03 +1.26646126571E-01 +7.74358974585E-01
1.47000000000E+09 +3.18835574115E-01 +6.56573836078E-01 +7.37540592544E-04 -1.54519779973E-03 +6.98823239076E-04 -1.48723479295E-03 +1.63748394598E-01 +7.41144343335E-01
1.47500000000E+09 +3.49861583966E-01 +6.16254825393E-01 +3.16228946874E-04 -1.88027927961E-03 +3.80350160925E-04 -1.71210756931E-03 +2.02364886819E-01 +7.00497255928E-01
1.48000000000E+09 +3.78159817344E-01 +5.69925244254E-01 +2.01194754936E-06 -1.67680115358E-03 +2.33906427499E-05 -1.67191929262E-03 +2.39829506369E-01 +6.50252701425E-01
1.48500000000E+09 +4.01454062523E-01 +5.17239306422E-01 +1.31601624066E-04 -1.95398761794E-03 +3.55994215590E-05 -1.96497894171E-03 +2.74455542092E-01 +5.90598484666E-01
1.49000000000E+09 +4.18665794157E-01 +4.56916045267E-01 -5.21635988837E-04 -2.34951871152E-03 -6.17858959174E-04 -2.31580511051E-03 +3.03530200268E-01 +5.20062011997E-01
1.49500000000E+09 +4.27667107753E-01 +3.88520174033E-01 -1.02896318850E-03 -2.55156676919E-03 -1.04474666541E-03 -2.37718353137E-03 +3.22645932147E-01 +4.39168206077E-01
1.50000000000E+09 +4.26953943529E-01 +3.10772147815E-01 -2.08781124152E-03 -2.88658479774E-03 -1.96842724276E-03 -2.69173942717E-03 +3.28166894905E-01 +3.47605843459E-01
1.50500000000E+09 +4.12586423295E-01 +2.24095760323E-01 -3.60640219912E-03 -2.14414481019E-03 -3.38783329449E-03 -2.16093205390E-03 +3.15859619773E-01 +2.49828973392E-01
1.51000000000E+09 +3.80843255817E-01 +1.32208676163E-01 -4.04293717655E-03 -2.86000680409E-04 -3.98542191576E-03 -4.56271062322E-04 +2.83342233206E-01 +1.47197286238E-01
1.51500000000E+09 +3.29986684705E-01 +4.10834985076E-02 -3.76716628483E-03 +4.58311344295E-04 -3.81115985476E-03 +3.69337173866E-04 +2.26108799664E-01 +4.80669823307E-02
1.52000000000E+09 +2.59461849403E-01 -4.23373826392E-02 -3.98467092096E-03 +1.74126225806E-03 -4.05174151579E-03 +1.69255772051E-03 +1.46804503943E-01 -3.80981002527E-02
1.52500000000E+09 +1.71402176724E-01 -1.10901833953E-01 -2.60052792861E-03 +3.08606243797E-03 -2.68854093075E-03 +3.01974274992E-03 +4.97722915232E-02 -1.06053423127E-01
1.53000000000E+09 +6.72689878031E-02 -1.57812672824E-01 -1.62794082655E-03 +2.77431529182E-03 -1.67437187405E-03 +2.78783443705E-03 -5.98449714308E-02 -1.50089006230E-01
1.53500000000E+09 -4.40656289382E-02 -1.76360414595E-01 -1.66405794465E-03 +3.19234559774E-03 -1.68749988055E-03 +3.14696720318E-03 -1.74120726224E-01 -1.67800859432E-01
1.54000000000E+09 -1.54455676791E-01 -1.67723808495E-01 -5.95829120263E-04 +4.06287417886E-03 -6.52095401577E-04 +4.01422060671E-03 -2.83393530975E-01 -1.61555057418E-01
1.54500000000E+09 -2.56993405752E-01 -1.35908064994E-01 +1.04713565233E-03 +3.94660541195E-03 +9.53590740849E-04 +3.93413086752E-03 -3.81764388760E-01 -1.36078633642E-01
1.55000000000E+09 -3.47099250129E-01 -8.70775022446E-02 +2.21829931887E-03 +3.21641793974E-03 +2.05930724813E-03 +3.31257036505E-03 -4.67173682276E-01 -9.67537982308E-02
1.55500000000E+09 -4.22228333644E-01 -2.81270541962E-02 +2.92682637507E-03 +1.94407280628E-03 +2.94170497126E-03 +2.19809410687E-03 -5.37266668048E-01 -4.64846111522E-02
1.56000000000E+09 -4.82824136546E-01 +3.46637764642E-02 +2.80377187544E-03 +6.08771078578E-04 +2.90007625493E-03 +7.24072260592E-04 -5.91677365283E-01 +7.94503839141E-03
1.56500000000E+09 -5.28352842983E-01 +9.75121892890E-02 +2.12192491284E-03 +9.59114624523E-06 +2.24411968133E-03 +2.71545165728E-05 -6.34721597926E-01 +6.38987844564E-02
1.57000000000E+09 -5.62393334453E-01 +1.57101682931E-01 +1.82090008870E-03 -2.27872153575E-04 +1.89703859599E-03 -2.20606634292E-04 -6.66168875929E-01 +1.19188588974E-01
