# Hz S RI R 50
! CMT, C1220, 16058040, 17.2.0/1
! Date: 14/08/2018 12:53:55
! Data: Format (Calibration Info)
! Freq                      S11: Re/Im (F2)                       S21: Re/Im (F2)                       S12: Re/Im (F2)                       S22: Re/Im (F2)            
1.00000000000E+09 -6.45383873090E-01 +7.13539569620E-01 -2.09552299432E-05 -1.13947022123E-05 +6.59812356785E-06 -3.01044411443E-05 -7.19446986526E-01 +6.45105334807E-01
1.00500000000E+09 -6.38950724235E-01 +7.18316916278E-01 -2.01347894784E-06 +9.21152603952E-07 -2.35529561892E-05 -3.22469396191E-05 -7.15614138515E-01 +6.49077757422E-01
1.01000000000E+09 -6.33235491844E-01 +7.22644255738E-01 -4.47380703941E-05 -5.44208279131E-06 -2.25212037311E-05 -1.01272454693E-05 -7.11913034422E-01 +6.52567144763E-01
1.01500000000E+09 -6.28250986897E-01 +7.26512275644E-01 -3.98038339021E-05 +5.27860275706E-05 -2.92487876597E-05 +2.45819989939E-05 -7.08569397033E-01 +6.55909317772E-01
1.02000000000E+09 -6.24280415445E-01 +7.30108736710E-01 +6.51761631987E-06 +6.15592974182E-06 -3.87105336394E-06 +4.58940009792E-05 -7.05032351330E-01 +6.59422641085E-01
1.02500000000E+09 -6.20865580395E-01 +7.33419123938E-01 +1.47796257016E-05 +1.04072218443E-05 -2.57622255472E-07 -2.06747169074E-05 -7.02003363142E-01 +6.63036568048E-01
1.03000000000E+09 -6.17514440002E-01 +7.36519424523E-01 -2.45691431997E-07 +1.16358845108E-05 +2.35698164888E-05 +1.88475617668E-05 -6.98229413418E-01 +6.66735184528E-01
1.03500000000E+09 -6.13474303094E-01 +7.39635083033E-01 +1.33592592208E-05 -3.61800652801E-05 +3.52528932713E-05 -6.13480671433E-06 -6.94202057355E-01 +6.70641116022E-01
1.04000000000E+09 -6.08570922497E-01 +7.43031304854E-01 -1.93533351436E-05 +6.77359243181E-06 +2.68666368816E-05 -2.80396175950E-06 -6.90221732062E-01 +6.74002994457E-01
1.04500000000E+09 -6.02771534375E-01 +7.46852484797E-01 -1.43342436562E-05 +2.03054095032E-05 +2.70172473819E-05 +3.77868817192E-05 -6.86535016616E-01 +6.77423472678E-01
1.05000000000E+09 -5.95660829445E-01 +7.50913358810E-01 +1.90892757510E-05 -3.47211703427E-05 -1.03884385543E-05 +5.79290378676E-05 -6.83034680393E-01 +6.80740688205E-01
1.05500000000E+09 -5.87768155126E-01 +7.55337448278E-01 +1.15306312148E-05 +4.93730209817E-05 +1.50473241090E-06 +5.15276612454E-05 -6.79446528342E-01 +6.84259982525E-01
1.06000000000E+09 -5.79568462714E-01 +7.59990047945E-01 +5.37389657358E-05 +3.26550445672E-05 +2.30336145470E-05 +2.31384551788E-05 -6.76014815926E-01 +6.87987831614E-01
1.06500000000E+09 -5.71668209904E-01 +7.64469140265E-01 +3.30522430069E-05 +3.82109326805E-05 +2.80524436967E-05 +4.18026692398E-05 -6.71915657555E-01 +6.91733238908E-01
1.07000000000E+09 -5.64408295274E-01 +7.68666250683E-01 +4.69272173262E-05 +5.81003440593E-05 +1.85308243900E-05 -1.14787084093E-05 -6.67573734186E-01 +6.95361324269E-01
1.07500000000E+09 -5.58327448364E-01 +7.72477952107E-01 +1.53228095493E-05 +4.83024749205E-07 -2.91169154628E-05 +9.56215341741E-05 -6.63144873188E-01 +6.98789298960E-01
1.08000000000E+09 -5.53249474904E-01 +7.75653691415E-01 +2.02669627092E-05 +6.01512257907E-05 +9.48037894956E-06 +8.86090331431E-06 -6.59136651237E-01 +7.02371816677E-01
1.08500000000E+09 -5.49053457320E-01 +7.78473064122E-01 +3.61335407542E-05 +7.19578420062E-05 +2.99717568895E-06 +4.86938965702E-05 -6.55169674704E-01 +7.05872205628E-01
1.09000000000E+09 -5.45534012757E-01 +7.80893285068E-01 +4.93638201832E-05 +3.75834733618E-05 +2.51742361109E-05 +4.62230761662E-05 -6.51287172349E-01 +7.09610368990E-01
1.09500000000E+09 -5.42364199147E-01 +7.83230627279E-01 +4.83770612184E-05 +4.06376708896E-05 +1.75741355722E-05 +9.23832640953E-05 -6.47345252250E-01 +7.13289211908E-01
1.10000000000E+09 -5.38356992239E-01 +7.85512786506E-01 +4.45620357152E-06 +4.87841636399E-05 +2.14917724689E-05 +1.39485278066E-05 -6.43179115083E-01 +7.16906240723E-01
1.10500000000E+09 -5.33881486590E-01 +7.88341475373E-01 +7.63380170192E-05 +1.57637427653E-05 +2.82761275798E-05 +4.01330563204E-05 -6.38675822593E-01 +7.20294241991E-01
1.11000000000E+09 -5.28416807142E-01 +7.91371576772E-01 +7.67592315262E-05 +5.26869009882E-05 +6.57599605584E-05 +1.79107035165E-05 -6.34334678657E-01 +7.23362474958E-01
1.11500000000E+09 -5.21829414360E-01 +7.95011544086E-01 +5.40515534974E-05 +4.75017209203E-05 +9.89401020757E-05 -3.32638779513E-06 -6.30206949606E-01 +7.26674860490E-01
1.12000000000E+09 -5.14820573879E-01 +7.98434186691E-01 +6.70171821333E-05 -4.82895085681E-06 +4.98346803607E-05 +1.29391975007E-05 -6.26148652967E-01 +7.30054156685E-01
1.12500000000E+09 -5.07377241003E-01 +8.01959470963E-01 +5.94062419085E-05 +3.43247783589E-05 +1.38460136190E-04 +4.02447497104E-06 -6.21623646667E-01 +7.33807708230E-01
1.13000000000E+09 -5.00002309571E-01 +8.05068160758E-01 +8.83012004980E-05 -2.49325551771E-05 +9.57309030695E-05 -3.38418519475E-05 -6.17162844233E-01 +7.37398922630E-01
1.13500000000E+09 -4.92935050487E-01 +8.07583046842E-01 +1.36415929827E-04 +4.99806088591E-05 +6.89666473021E-05 +2.56096728497E-05 -6.12300913551E-01 +7.41059288429E-01
1.14000000000E+09 -4.86635972267E-01 +8.09737383118E-01 +1.53088392889E-04 -3.33162432608E-06 +6.23165942329E-05 -1.85805951287E-05 -6.07420392904E-01 +7.44320196238E-01
1.14500000000E+09 -4.80933193765E-01 +8.11563293165E-01 +7.32008916009E-05 -2.93302036108E-05 +1.09632389996E-04 -4.68807125911E-05 -6.02547637048E-01 +7.47652558806E-01
1.15000000000E+09 -4.75368199336E-01 +8.13223468988E-01 +5.83553364041E-05 -4.24997477710E-05 +7.98021147463E-05 -1.39938777315E-05 -5.97696396565E-01 +7.51241460923E-01
1.15500000000E+09 -4.70050134320E-01 +8.15018976926E-01 +7.68120037108E-05 -4.75962112204E-05 +1.20350283363E-04 -2.45065699156E-05 -5.92885848370E-01 +7.54862227650E-01
1.16000000000E+09 -4.64285136266E-01 +8.16925204412E-01 +6.93241323901E-05 -6.94895895834E-05 +1.23842607010E-04 +1.16773598270E-05 -5.87771727175E-01 +7.58467123288E-01
1.16500000000E+09 -4.58044842892E-01 +8.19645909918E-01 +7.71624744614E-05 -5.45015548346E-05 +1.07593038969E-04 -4.48221870419E-05 -5.82678317346E-01 +7.61836391220E-01
1.17000000000E+09 -4.51388305855E-01 +8.22607555512E-01 +1.12934686127E-04 -1.57167433029E-05 +1.16505534104E-04 -9.11749708224E-05 -5.77143720786E-01 +7.64915597647E-01
1.17500000000E+09 -4.43956810381E-01 +8.25537219686E-01 +1.34108580633E-04 -8.04170139862E-05 +9.52472284168E-05 -1.06208948993E-04 -5.71488167968E-01 +7.67851657659E-01
1.18000000000E+09 -4.36392701122E-01 +8.28927018294E-01 +9.24530412252E-05 -1.27565832676E-04 +1.15044402137E-04 -1.18945142819E-04 -5.65952136698E-01 +7.70870054913E-01
1.18500000000E+09 -4.28352481310E-01 +8.31687365099E-01 +1.52192438645E-04 -1.52408153000E-04 +1.02377344964E-04 -1.72718968003E-04 -5.60234084252E-01 +7.73562392888E-01
1.19000000000E+09 -4.20506053086E-01 +8.34067569418E-01 +1.35491090481E-04 -1.97133994454E-04 +1.12878026117E-04 -2.03895112810E-04 -5.53986584802E-01 +7.76036360663E-01
1.19500000000E+09 -4.12936455370E-01 +8.35667611216E-01 +3.31902151565E-05 -2.33808933888E-04 +4.51457956524E-05 -2.54874675667E-04 -5.48113357560E-01 +7.77005463008E-01
1.20000000000E+09 -4.05870168526E-01 +8.36515267801E-01 -2.05222845741E-06 -2.97371206548E-04 -6.62994218463E-05 -2.96128260726E-04 -5.43558478966E-01 +7.77029322450E-01
1.20500000000E+09 -3.98833983659E-01 +8.37583767939E-01 -5.94382150157E-05 -2.40502390925E-04 -4.65797806289E-05 -2.52518951311E-04 -5.40993402463E-01 +7.77746858911E-01
1.21000000000E+09 -3.91704892962E-01 +8.38695529768E-01 -6.19215450641E-05 -1.71026807250E-04 -5.31230305120E-05 -1.90215841086E-04 -5.38658119897E-01 +7.80877103522E-01
1.21500000000E+09 -3.84013797577E-01 +8.40203308840E-01 -6.99485524355E-05 -1.51903175825E-04 -3.86385014721E-05 -1.36178594310E-04 -5.35657884309E-01 +7.85281550337E-01
1.22000000000E+09 -3.75847533520E-01 +8.41963031484E-01 -4.27832459307E-05 -1.67276241381E-04 -4.19277896809E-05 -1.66797091889E-04 -5.31323434266E-01 +7.90240807799E-01
1.22500000000E+09 -3.67203153135E-01 +8.44390516816E-01 -2.89367221194E-05 -2.10112884783E-04 -2.00023976110E-05 -2.26986002717E-04 -5.25898194507E-01 +7.95250389135E-01
1.23000000000E+09 -3.58449065051E-01 +8.47018111817E-01 -1.05502168180E-04 -2.09830189876E-04 -7.31378161422E-05 -2.07113882266E-04 -5.20141435024E-01 +7.99473755212E-01
1.23500000000E+09 -3.49674130712E-01 +8.49816894165E-01 -1.01567639051E-04 -1.67528416441E-04 -9.92803049643E-05 -1.93227304744E-04 -5.14319123021E-01 +8.03453792604E-01
1.24000000000E+09 -3.41229362006E-01 +8.52833224647E-01 -1.53166505767E-04 -2.51765548718E-04 -1.04007875460E-04 -2.10101574437E-04 -5.08291578694E-01 +8.06896251264E-01
1.24500000000E+09 -3.33281420406E-01 +8.55986148073E-01 -1.63193935544E-04 -2.14177775392E-04 -1.20884894413E-04 -1.78657457418E-04 -5.01918743247E-01 +8.10525531232E-01
1.25000000000E+09 -3.25566201366E-01 +8.58461565216E-01 -1.95062891835E-04 -2.46582617921E-04 -1.66494097640E-04 -1.85277275596E-04 -4.95457274624E-01 +8.14455140817E-01
1.25500000000E+09 -3.17932656341E-01 +8.59985607957E-01 -1.98093781312E-04 -2.22651018321E-04 -1.36338301178E-04 -2.20978389462E-04 -4.88567628829E-01 +8.18005205487E-01
1.26000000000E+09 -3.10157824599E-01 +8.60978095984E-01 -2.06295821068E-04 -2.37149103839E-04 -1.60708641086E-04 -2.58180691698E-04 -4.81784891801E-01 +8.21972847968E-01
1.26500000000E+09 -3.02122682516E-01 +8.61145247157E-01 -2.25216018624E-04 -2.41632941057E-04 -2.39126161964E-04 -2.40055218938E-04 -4.74955330164E-01 +8.25424280549E-01
1.27000000000E+09 -2.93570571772E-01 +8.61254760963E-01 -3.30492741390E-04 -2.50336157358E-04 -3.24583243407E-04 -2.08741972008E-04 -4.67912841496E-01 +8.28866607445E-01
1.27500000000E+09 -2.84155763016E-01 +8.61410986637E-01 -3.56949260102E-04 -2.19523948735E-04 -3.39468469285E-04 -2.21595033025E-04 -4.60838194010E-01 +8.32183735666E-01
1.28000000000E+09 -2.73662969259E-01 +8.61981710330E-01 -3.95118646963E-04 -1.34923448667E-04 -4.18753271552E-04 -1.57242094843E-04 -4.53738310582E-01 +8.35347301364E-01
1.28500000000E+09 -2.62250911112E-01 +8.63021170093E-01 -4.46986977091E-04 -5.84585767417E-05 -4.87656113227E-04 -1.13807148489E-04 -4.46185258650E-01 +8.38748898954E-01
1.29000000000E+09 -2.50946438465E-01 +8.64424654896E-01 -4.24227691622E-04 -7.62883874034E-05 -5.20569823042E-04 -6.22843943445E-05 -4.38657418168E-01 +8.42211121707E-01
1.29500000000E+09 -2.40023140379E-01 +8.66511507399E-01 -4.48326184037E-04 -1.29695372707E-04 -5.17497212256E-04 +3.05714558956E-06 -4.30880302912E-01 +8.45368790135E-01
1.30000000000E+09 -2.29718553955E-01 +8.68924865059E-01 -5.48645375385E-04 -2.33915231193E-05 -5.51739609976E-04 +3.29369610853E-05 -4.23036192186E-01 +8.48551991970E-01
1.30500000000E+09 -2.20008629714E-01 +8.71433135371E-01 -6.23980570530E-04 +6.09449800924E-05 -5.94171463129E-04 +3.53401030829E-05 -4.15007830915E-01 +8.51524601336E-01
1.31000000000E+09 -2.10931974338E-01 +8.73297891868E-01 -6.83961598771E-04 +1.14348440502E-04 -6.97437481944E-04 +1.34157433054E-04 -4.06713480019E-01 +8.54640423097E-01
1.31500000000E+09 -2.02670021053E-01 +8.74422824118E-01 -6.29130839334E-04 +2.59299205762E-04 -6.28237454783E-04 +2.39758430509E-04 -3.98022440441E-01 +8.57710886310E-01
1.32000000000E+09 -1.94686320643E-01 +8.74384018512E-01 -6.14426690268E-04 +3.72315546898E-04 -6.14094019528E-04 +2.85977102708E-04 -3.88990413104E-01 +8.60799645984E-01
1.32500000000E+09 -1.86774749893E-01 +8.73392380737E-01 -6.31061911658E-04 +3.90721005565E-04 -6.92122156144E-04 +4.30027919342E-04 -3.79581208906E-01 +8.63660055512E-01
1.33000000000E+09 -1.78071982336E-01 +8.72134852921E-01 -6.51876799648E-04 +4.68132391512E-04 -6.63640764931E-04 +5.63756726151E-04 -3.70353260906E-01 +8.66523588143E-01
1.33500000000E+09 -1.67976748393E-01 +8.70519637101E-01 -6.35903451414E-04 +6.13082198873E-04 -6.29429639060E-04 +6.36891416335E-04 -3.60765277891E-01 +8.69424771103E-01
1.34000000000E+09 -1.56444098671E-01 +8.69303055273E-01 -5.94567135303E-04 +7.60938131122E-04 -5.14509039123E-04 +6.99486699451E-04 -3.50528164401E-01 +8.72210658048E-01
1.34500000000E+09 -1.43543517956E-01 +8.68159655416E-01 -5.67829901936E-04 +8.67332919705E-04 -4.86198261067E-04 +8.08605347781E-04 -3.39886596866E-01 +8.75044595420E-01
1.35000000000E+09 -1.29403475071E-01 +8.67593157619E-01 -4.32637728897E-04 +9.58653887966E-04 -4.50874966983E-04 +9.02189683471E-04 -3.29094889639E-01 +8.77645813769E-01
1.35500000000E+09 -1.14753375310E-01 +8.67546413405E-01 -4.03896349709E-04 +1.01690505551E-03 -3.97042364830E-04 +9.55172808018E-04 -3.17661956334E-01 +8.79965667539E-01
1.36000000000E+09 -9.95803573087E-02 +8.67732084525E-01 -3.71499441575E-04 +1.09345578201E-03 -3.38501939722E-04 +1.07600581312E-03 -3.06091349383E-01 +8.82097714733E-01
1.36500000000E+09 -8.43948952279E-02 +8.67575911099E-01 -2.84733186168E-04 +1.26095882769E-03 -3.43956492156E-04 +1.18789438210E-03 -2.94291713439E-01 +8.84152603809E-01
1.37000000000E+09 -6.97938612803E-02 +8.66189506500E-01 -1.59876260529E-04 +1.46016882647E-03 -1.99531157378E-04 +1.33381346684E-03 -2.81786895128E-01 +8.86109960629E-01
1.37500000000E+09 -5.64960388495E-02 +8.63870097533E-01 +1.10649200522E-04 +1.52593428186E-03 -8.87799193253E-05 +1.48127115557E-03 -2.68232983578E-01 +8.87951376878E-01
1.38000000000E+09 -4.39011341404E-02 +8.60593489459E-01 +2.65602208076E-04 +1.54288712597E-03 +2.76506886097E-05 +1.65203388191E-03 -2.53981440724E-01 +8.89591067759E-01
1.38500000000E+09 -3.12358122315E-02 +8.56506035162E-01 +3.68739555655E-04 +1.67180828369E-03 +2.93644200142E-04 +1.83725069441E-03 -2.38969296402E-01 +8.90910253242E-01
1.39000000000E+09 -1.86917198810E-02 +8.51691443602E-01 +5.52935381094E-04 +1.77321505792E-03 +6.18514271056E-04 +2.04502426521E-03 -2.23592807563E-01 +8.91963020875E-01
1.39500000000E+09 -5.06419908330E-03 +8.46607016502E-01 +7.81086409349E-04 +1.93783227812E-03 +1.02636326548E-03 +2.01458892682E-03 -2.07617312011E-01 +8.92318605752E-01
1.40000000000E+09 +9.78420686682E-03 +8.40849908636E-01 +1.09821934043E-03 +2.06094784820E-03 +1.30348502460E-03 +2.01278256951E-03 -1.90804580579E-01 +8.92140684658E-01
1.40500000000E+09 +2.53280354063E-02 +8.35398471594E-01 +1.67154437795E-03 +2.20446492509E-03 +1.73225467145E-03 +2.02260953525E-03 -1.72981106627E-01 +8.91543985304E-01
1.41000000000E+09 +4.21824726248E-02 +8.30150197601E-01 +2.18590416098E-03 +1.93348159812E-03 +2.14166509316E-03 +1.91995361101E-03 -1.53573452592E-01 +8.90336189422E-01
1.41500000000E+09 +6.02953930858E-02 +8.25327157376E-01 +2.47423603173E-03 +1.72819135005E-03 +2.48941958067E-03 +1.85625739289E-03 -1.32630283269E-01 +8.88303041243E-01
1.42000000000E+09 +8.04289426943E-02 +8.19636651232E-01 +2.85294941360E-03 +1.56207477344E-03 +3.03947857369E-03 +1.73189353894E-03 -1.10608873502E-01 +8.85097125571E-01
1.42500000000E+09 +1.01432292711E-01 +8.11911621868E-01 +3.26037276630E-03 +1.34794008330E-03 +3.69499712956E-03 +1.32804891632E-03 -8.77909763567E-02 +8.80862293157E-01
1.43000000000E+09 +1.22651708827E-01 +8.01688084680E-01 +3.80658551050E-03 +1.23404371561E-03 +4.19606344383E-03 +9.51759967985E-04 -6.43373799816E-02 +8.75827377220E-01
1.43500000000E+09 +1.43584994210E-01 +7.88623778707E-01 +4.73361929987E-03 +6.81058040978E-04 +4.92725964034E-03 +2.83748804873E-04 -3.91267394077E-02 +8.68713615682E-01
1.44000000000E+09 +1.64559932363E-01 +7.73588637869E-01 +5.34633298227E-03 -4.46215650618E-04 +5.35296790148E-03 -8.17965126549E-04 -1.23245105502E-02 +8.59564372118E-01
1.44500000000E+09 +1.86586916193E-01 +7.56026888059E-01 +5.33319999945E-03 -1.60605594727E-03 +5.30238310872E-03 -1.84320514471E-03 +1.63958001122E-02 +8.47829025374E-01
1.45000000000E+09 +2.09104778988E-01 +7.35620772569E-01 +5.21184893794E-03 -2.40443265357E-03 +5.17437665147E-03 -2.70785617736E-03 +4.64714807173E-02 +8.33087204754E-01
1.45500000000E+09 +2.32533507158E-01 +7.13251216728E-01 +5.38381551317E-03 -3.10504064362E-03 +5.14080550606E-03 -3.56178989894E-03 +7.76948839617E-02 +8.15775232874E-01
1.46000000000E+09 +2.57310358300E-01 +6.88804860519E-01 +5.61188257386E-03 -4.16442515188E-03 +5.07331037141E-03 -4.45881760503E-03 +1.10908313864E-01 +7.94632456386E-01
1.46500000000E+09 +2.83434646172E-01 +6.62300710000E-01 +5.78132672497E-03 -5.56337434397E-03 +5.03009542352E-03 -5.47327844028E-03 +1.45127083423E-01 +7.68279870551E-01
1.47000000000E+09 +3.11610959636E-01 +6.32041176606E-01 +5.60186655847E-03 -7.68032269350E-03 +5.19295912466E-03 -7.09203022789E-03 +1.79882314625E-01 +7.35058774894E-01
1.47500000000E+09 +3.40243912319E-01 +5.95762922704E-01 +4.11477018410E-03 -1.00854961874E-02 +4.32824559875E-03 -9.51554308257E-03 +2.14292221795E-01 +6.94649258812E-01
1.48000000000E+09 +3.66628231714E-01 +5.52025942720E-01 +1.99183514445E-03 -1.14957027593E-02 +2.35934814088E-03 -1.15143631109E-02 +2.48321921279E-01 +6.46999077791E-01
1.48500000000E+09 +3.88808013552E-01 +5.00047564211E-01 +9.32028311266E-05 -1.27959150305E-02 -6.54124558360E-05 -1.31707476305E-02 +2.79938952927E-01 +5.90287223516E-01
1.49000000000E+09 +4.04637681588E-01 +4.40402383439E-01 -2.83576169298E-03 -1.43626494507E-02 -3.51953996054E-03 -1.41874982180E-02 +3.06640973297E-01 +5.23402546383E-01
1.49500000000E+09 +4.12892339754E-01 +3.72844909558E-01 -7.06725920679E-03 -1.51546509570E-02 -7.33543630072E-03 -1.42160185480E-02 +3.23999677514E-01 +4.46182550358E-01
1.50000000000E+09 +4.11825132721E-01 +2.96892189287E-01 -1.17372076762E-02 -1.42133857432E-02 -1.09777656567E-02 -1.33300670132E-02 +3.28468550115E-01 +3.59430834839E-01
1.50500000000E+09 +3.97821222745E-01 +2.13768419145E-01 -1.65120226064E-02 -1.18308873957E-02 -1.54414328504E-02 -1.18784966085E-02 +3.16351666891E-01 +2.65350772353E-01
1.51000000000E+09 +3.68977520528E-01 +1.27220959892E-01 -2.02922048717E-02 -7.07842538987E-03 -1.97444634343E-02 -7.84539626577E-03 +2.83933136510E-01 +1.66438965956E-01
1.51500000000E+09 +3.21736015856E-01 +4.04264530162E-02 -2.28350654392E-02 -2.21464371970E-03 -2.30139418738E-02 -2.90456479481E-03 +2.27234121162E-01 +7.17545410617E-02
1.52000000000E+09 +2.55084833702E-01 -3.74283573682E-02 -2.45188413083E-02 +4.39339609227E-03 -2.48893148972E-02 +4.12200534452E-03 +1.49657778314E-01 -1.01685145789E-02
1.52500000000E+09 +1.72167992469E-01 -1.01700092759E-01 -2.33957259348E-02 +1.30946209725E-02 -2.36984465936E-02 +1.30747815193E-02 +5.64405331394E-02 -7.50233479690E-02
1.53000000000E+09 +7.55501106766E-02 -1.47379141306E-01 -1.70838559302E-02 +1.98072173920E-02 -1.72919046921E-02 +1.99482760678E-02 -5.20495556583E-02 -1.17417924281E-01
1.53500000000E+09 -2.97183234185E-02 -1.70744944957E-01 -1.04964091231E-02 +2.30112798910E-02 -1.04452719950E-02 +2.30076192938E-02 -1.62446023954E-01 -1.33062841775E-01
1.54000000000E+09 -1.39386830342E-01 -1.69366981693E-01 -3.47163836479E-03 +2.39736228489E-02 -3.57641043470E-03 +2.37085864096E-02 -2.70677985212E-01 -1.26008547046E-01
1.54500000000E+09 -2.42771866059E-01 -1.43022941262E-01 +3.41158896580E-03 +2.32759164486E-02 +2.86707772610E-03 +2.29986733053E-02 -3.67658266990E-01 -9.79654252040E-02
1.55000000000E+09 -3.33631948875E-01 -9.97707932619E-02 +8.88615848356E-03 +1.94499052794E-02 +8.12581189325E-03 +1.97527965295E-02 -4.49621906955E-01 -5.62331844845E-02
1.55500000000E+09 -4.09601462347E-01 -4.48996495615E-02 +1.22622096360E-02 +1.54471825626E-02 +1.17500941258E-02 +1.63529777278E-02 -5.16768409791E-01 -6.16803841889E-03
1.56000000000E+09 -4.69503625986E-01 +1.37220606232E-02 +1.44798449050E-02 +1.09790440799E-02 +1.46987836929E-02 +1.20099065295E-02 -5.69857819842E-01 +4.88581775106E-02
1.56500000000E+09 -5.17223567144E-01 +7.29448527330E-02 +1.47305161144E-02 +6.56466326074E-03 +1.54859244148E-02 +7.15742323535E-03 -6.10881979188E-01 +1.05563169708E-01
1.57000000000E+09 -5.53726052124E-01 +1.32594014264E-01 +1.40429265073E-02 +3.35077817799E-03 +1.49412647530E-02 +3.43301341391E-03 -6.40709517884E-01 +1.61758945814E-01
