# Hz S RI R 50
! CMT, C1220, 16058040, 17.2.0/1
! Date: 14/08/2018 11:51:51
! Data: Format (Calibration Info)
! Freq                      S11: Re/Im (F2)                       S21: Re/Im (F2)                       S12: Re/Im (F2)                       S22: Re/Im (F2)            
1.00000000000E+09 -6.48493666899E-01 +7.15164982691E-01 -3.94036642399E-05 +1.28513969047E-05 -1.21173080340E-05 -1.29503321884E-07 -7.55379259686E-01 +6.23755560876E-01
1.00500000000E+09 -6.41379491031E-01 +7.20290306524E-01 -1.52017283290E-05 +1.37240307723E-05 +6.41841456526E-06 +4.55630594395E-05 -7.52122221056E-01 +6.27931183034E-01
1.01000000000E+09 -6.35170487353E-01 +7.24865599726E-01 -1.87123942509E-05 +2.89259164617E-05 -4.82040407537E-05 +3.05975129815E-05 -7.48346184592E-01 +6.31548195625E-01
1.01500000000E+09 -6.30385423739E-01 +7.28896241728E-01 +3.45097621039E-05 -1.91001889444E-05 -2.50629547408E-05 +2.19301472657E-06 -7.44962667193E-01 +6.35435291385E-01
1.02000000000E+09 -6.26931175467E-01 +7.31872377319E-01 -4.33007583287E-05 +2.97121196303E-06 -5.34543882742E-06 +1.11026302570E-05 -7.41419844043E-01 +6.39082579226E-01
1.02500000000E+09 -6.24312455258E-01 +7.34521272783E-01 -1.86321551415E-06 +1.07710509836E-05 -1.64226301524E-05 -1.17506435748E-05 -7.38510155488E-01 +6.42880234391E-01
1.03000000000E+09 -6.22396920411E-01 +7.36858799015E-01 -5.77432188523E-05 -4.73463453449E-06 -1.53099701749E-05 +2.05766018652E-05 -7.35012305265E-01 +6.46510666098E-01
1.03500000000E+09 -6.19485463609E-01 +7.39113539445E-01 -2.21925184900E-05 +3.01386918044E-05 -1.11333856484E-05 -5.86565090941E-06 -7.31328289040E-01 +6.50541443280E-01
1.04000000000E+09 -6.15486452644E-01 +7.41838621356E-01 -2.84361248322E-05 -7.35463165141E-07 -1.53203275982E-05 +3.52580538202E-05 -7.27702441813E-01 +6.54108075428E-01
1.04500000000E+09 -6.10069749968E-01 +7.45195853072E-01 -2.81563632311E-05 +3.10628458396E-05 -2.75473738000E-05 +6.16275697512E-05 -7.24181243262E-01 +6.57680208069E-01
1.05000000000E+09 -6.02909252705E-01 +7.49452218912E-01 -2.09848403452E-05 -1.06118286155E-06 -1.35973332962E-05 -2.53647715992E-06 -7.20708453433E-01 +6.60987736035E-01
1.05500000000E+09 -5.94702721763E-01 +7.54221165366E-01 +4.50917500179E-05 +1.62249300305E-06 -5.10402293297E-06 -2.19161095304E-05 -7.17544674357E-01 +6.64655873244E-01
1.06000000000E+09 -5.85939666860E-01 +7.59424474975E-01 -4.31675961474E-06 +1.87561408264E-05 -1.19777034435E-05 +6.45765643091E-05 -7.14154925963E-01 +6.68528898364E-01
1.06500000000E+09 -5.77553943160E-01 +7.64479346754E-01 +3.12593132523E-05 +6.14792495898E-05 -1.62538236393E-05 +3.89816693648E-06 -7.10546661835E-01 +6.72224026977E-01
1.07000000000E+09 -5.70407951887E-01 +7.68844662328E-01 -1.08666405706E-05 +4.72844447777E-05 +4.46840992413E-05 -1.78977018254E-05 -7.06509131766E-01 +6.75854641600E-01
1.07500000000E+09 -5.65045127975E-01 +7.72645929870E-01 -4.97193018281E-06 -8.99719356236E-06 -1.54767320820E-05 +3.35799375003E-05 -7.02243354506E-01 +6.79657416978E-01
1.08000000000E+09 -5.61034816132E-01 +7.75709421819E-01 +2.02153330514E-05 -1.78226225010E-06 +5.28477615984E-05 +1.14204726701E-05 -6.98181792574E-01 +6.83492899842E-01
1.08500000000E+09 -5.58579086229E-01 +7.77774590214E-01 +1.80261644873E-05 +3.12494577170E-06 +2.95499732737E-05 +2.44741899402E-05 -6.94169034106E-01 +6.87256696010E-01
1.09000000000E+09 -5.56540833886E-01 +7.79824542093E-01 +4.18800317225E-05 +3.27931915131E-05 -4.93842462598E-06 +4.21128544130E-05 -6.90122447104E-01 +6.91254767691E-01
1.09500000000E+09 -5.54779832827E-01 +7.81205749200E-01 -3.70725363901E-07 -6.51362232044E-06 -2.32474341072E-05 +3.72206715332E-05 -6.86500334991E-01 +6.95040651862E-01
1.10000000000E+09 -5.51813882837E-01 +7.83229470190E-01 +1.80114499097E-05 -6.40030846049E-06 +2.77923308464E-06 +1.06401267569E-05 -6.82563080118E-01 +6.98895062925E-01
1.10500000000E+09 -5.47637643082E-01 +7.85729563404E-01 +3.02697720771E-05 -3.28317872463E-06 -4.85052276319E-06 +5.47945323067E-05 -6.78437488215E-01 +7.02447877374E-01
1.11000000000E+09 -5.41654414616E-01 +7.88862533603E-01 +1.39088837029E-05 +1.15860773026E-05 +4.08920721918E-05 +3.53345631022E-05 -6.74182113248E-01 +7.05816260725E-01
1.11500000000E+09 -5.34436241256E-01 +7.92739660149E-01 +4.12477477249E-05 -2.51841336676E-05 +1.37929354019E-06 -3.16118646899E-06 -6.69920212919E-01 +7.09245641595E-01
1.12000000000E+09 -5.26686317482E-01 +7.96963906342E-01 +2.66719666467E-05 -2.36837092309E-05 +1.71415471598E-05 -3.38638956412E-05 -6.65896750175E-01 +7.13088807477E-01
1.12500000000E+09 -5.18540235706E-01 +8.00981616679E-01 -9.46650938616E-06 +2.19572185519E-05 +3.02766123379E-05 -2.58910000900E-05 -6.61693919725E-01 +7.17110727380E-01
1.13000000000E+09 -5.11421261914E-01 +8.04763632391E-01 +6.91374746950E-05 -4.89658067777E-06 +1.50713711737E-06 -6.74735765526E-06 -6.57396309010E-01 +7.20699302691E-01
1.13500000000E+09 -5.05146426998E-01 +8.07652608663E-01 +5.28016466660E-05 -8.59713964677E-06 +4.24796579530E-05 +3.46473837896E-05 -6.52851926050E-01 +7.24653009993E-01
1.14000000000E+09 -5.00211558417E-01 +8.10059177507E-01 -3.21252216482E-06 -4.65361508741E-05 -2.63329347242E-06 +1.42797504363E-05 -6.48203145870E-01 +7.28010561365E-01
1.14500000000E+09 -4.96125577449E-01 +8.11740104549E-01 +3.60783022979E-05 +8.92486725542E-06 +2.24768596151E-05 -3.81334781466E-06 -6.43513081059E-01 +7.31528419587E-01
1.15000000000E+09 -4.92446059943E-01 +8.13223005698E-01 -7.94945180540E-06 -2.35462188033E-05 +4.65094222121E-05 +3.47446470646E-05 -6.38956823430E-01 +7.35220270007E-01
1.15500000000E+09 -4.88735574204E-01 +8.14757880557E-01 +1.11953394154E-05 -2.03243518419E-05 +8.18897045241E-06 -1.14911836723E-05 -6.34073374658E-01 +7.39065837765E-01
1.16000000000E+09 -4.83861163874E-01 +8.16709137798E-01 +8.01292046181E-06 -1.95204898418E-05 +1.16991235927E-05 +2.77101349921E-06 -6.29149114394E-01 +7.43085024033E-01
1.16500000000E+09 -4.77745762085E-01 +8.19433510398E-01 +3.13746790643E-05 -8.47946375833E-06 +4.75747357287E-05 -8.31371383326E-06 -6.24215237633E-01 +7.46759021223E-01
1.17000000000E+09 -4.70568663972E-01 +8.22368409840E-01 +4.13974545313E-05 -7.76816100556E-05 +4.51352729911E-05 -1.85341598127E-05 -6.18807505730E-01 +7.50057196878E-01
1.17500000000E+09 -4.62421106140E-01 +8.25905696400E-01 +2.86684697783E-05 +2.60726488496E-05 +1.40633422317E-05 -1.18001816011E-05 -6.13219783788E-01 +7.53260677442E-01
1.18000000000E+09 -4.54028556720E-01 +8.29665383527E-01 +1.73577057254E-05 +2.68650933674E-05 +4.73414516830E-05 +1.48998705205E-05 -6.07536987021E-01 +7.56525019670E-01
1.18500000000E+09 -4.45792679456E-01 +8.33081183038E-01 +7.67443686144E-05 -7.90111531589E-06 +1.94057569619E-05 -5.08782974208E-05 -6.01512169150E-01 +7.59556410638E-01
1.19000000000E+09 -4.38169967245E-01 +8.35705026934E-01 -2.87015301960E-06 -3.68845771972E-05 +8.10787278613E-05 -7.57917535632E-05 -5.95151708046E-01 +7.62453206667E-01
1.19500000000E+09 -4.32071608566E-01 +8.37873314076E-01 +5.98553985547E-05 -1.19365494582E-04 +4.17986274748E-05 -1.53821739235E-04 -5.89265065704E-01 +7.63528237074E-01
1.20000000000E+09 -4.27135320250E-01 +8.38707116319E-01 -2.84996681534E-05 -1.30096005343E-04 -6.27679754390E-05 -1.68774560471E-04 -5.84731208843E-01 +7.63974396480E-01
1.20500000000E+09 -4.22685888445E-01 +8.39822123962E-01 -5.54386632430E-05 -9.73545862197E-05 -1.38685201012E-04 -8.61979742834E-05 -5.82301715274E-01 +7.64746170547E-01
1.21000000000E+09 -4.18203477744E-01 +8.40778353297E-01 -1.11153220939E-04 -4.43970572642E-06 -1.22035864964E-04 -2.39617450995E-05 -5.80547078564E-01 +7.67517778704E-01
1.21500000000E+09 -4.12421947182E-01 +8.42193192559E-01 -8.41807763711E-05 +3.40641081033E-05 -6.04438409237E-05 -7.76172942633E-06 -5.77938542951E-01 +7.71953465109E-01
1.22000000000E+09 -4.05418566236E-01 +8.44020744665E-01 -3.80875547669E-05 +9.53211994935E-06 -7.94562899987E-06 +3.19789388466E-05 -5.73747767029E-01 +7.77495963571E-01
1.22500000000E+09 -3.97129573197E-01 +8.46700690994E-01 -1.20093869530E-05 -2.50500190142E-05 -3.60066239870E-05 -1.70349831269E-05 -5.68710676248E-01 +7.82605713323E-01
1.23000000000E+09 -3.87541751525E-01 +8.49808246413E-01 +1.26366070685E-05 +1.14804240939E-05 -2.73450930077E-05 -2.13274884137E-05 -5.62937918876E-01 +7.87435678103E-01
1.23500000000E+09 -3.77814490999E-01 +8.53413490345E-01 -2.62096053624E-05 -2.86219687785E-05 -1.79625884164E-05 -4.49189313849E-05 -5.57100338708E-01 +7.91651900642E-01
1.24000000000E+09 -3.67813431048E-01 +8.57139046137E-01 -3.76378090271E-05 -2.78815498975E-05 -2.12482630017E-05 -4.42263486588E-05 -5.50993761335E-01 +7.95588450365E-01
1.24500000000E+09 -3.58979316921E-01 +8.61051600842E-01 -4.44579804702E-05 -1.92066601280E-05 -3.08905548778E-05 -2.26389757261E-05 -5.44781203480E-01 +7.99450205603E-01
1.25000000000E+09 -3.51156354906E-01 +8.64187280905E-01 -3.08226558110E-05 -3.14131276928E-05 -4.79317057673E-05 -3.33281702462E-05 -5.38203412005E-01 +8.03820557791E-01
1.25500000000E+09 -3.44525378220E-01 +8.66239462144E-01 -3.44809975286E-05 -2.78918562232E-05 -8.57807583173E-05 -3.66098629027E-05 -5.31171919772E-01 +8.07763645850E-01
1.26000000000E+09 -3.38640045694E-01 +8.67739555825E-01 -1.40512125094E-05 +8.20205262119E-06 -6.35612105544E-05 -1.16021435268E-05 -5.24412283703E-01 +8.12127448903E-01
1.26500000000E+09 -3.33057448358E-01 +8.68350613779E-01 -6.66247596329E-05 +3.29126722626E-06 -6.44674187972E-05 +7.86686099725E-06 -5.17408117044E-01 +8.16119067277E-01
1.27000000000E+09 -3.26884282829E-01 +8.68902889396E-01 -2.85628380413E-05 -2.78238842493E-05 -4.01652004570E-05 +1.11146832727E-05 -5.10554276150E-01 +8.19869675026E-01
1.27500000000E+09 -3.19438503839E-01 +8.69563178879E-01 -6.61913644584E-05 +2.16296829830E-05 -1.95575486132E-05 -7.07774050733E-06 -5.03573817682E-01 +8.23432404308E-01
1.28000000000E+09 -3.09895903465E-01 +8.70563228304E-01 -1.04580063808E-04 +9.45383128249E-06 -8.06532543764E-05 -6.51099407386E-05 -4.96634182400E-01 +8.27048875411E-01
1.28500000000E+09 -2.98493609108E-01 +8.72063812718E-01 -1.08261706496E-04 +3.25205097332E-06 -6.13448789516E-05 +5.25479225489E-05 -4.89158672585E-01 +8.30747241231E-01
1.29000000000E+09 -2.86095499136E-01 +8.74393585838E-01 -7.98261810619E-05 +1.60967533795E-05 -1.56682448383E-04 +3.89109529189E-05 -4.81507338429E-01 +8.34531258901E-01
1.29500000000E+09 -2.73370793261E-01 +8.77487161863E-01 -7.82491993729E-05 +2.18735180963E-05 -8.53361823980E-05 +3.81522352874E-05 -4.73638932230E-01 +8.38005683432E-01
1.30000000000E+09 -2.61064263625E-01 +8.81016943875E-01 -9.63668688495E-05 +5.47807116607E-05 -1.17524996993E-04 +3.74806409993E-05 -4.65756451104E-01 +8.41667022188E-01
1.30500000000E+09 -2.49968901328E-01 +8.84369744526E-01 -7.15085737710E-05 +1.76908819540E-05 -9.72953208221E-05 +5.60594319110E-05 -4.57605951188E-01 +8.45185282965E-01
1.31000000000E+09 -2.40582797795E-01 +8.86940665582E-01 -1.50532293295E-04 +4.89022449954E-05 -1.13240564318E-04 +6.87738076028E-05 -4.49317958375E-01 +8.48541216282E-01
1.31500000000E+09 -2.33136504851E-01 +8.88650449264E-01 -1.22492529117E-04 +7.36904259459E-05 -1.25280969993E-04 +1.00993264109E-04 -4.40401647144E-01 +8.52013818983E-01
1.32000000000E+09 -2.27192528820E-01 +8.89402286618E-01 -9.89492295492E-05 +1.17522919632E-04 -1.13512544593E-04 +1.17585715831E-04 -4.31220357841E-01 +8.55465139884E-01
1.32500000000E+09 -2.21964341033E-01 +8.89188937065E-01 -5.56165156570E-05 +1.02895283863E-04 -9.43882995314E-05 +1.33831456271E-04 -4.21483031642E-01 +8.59042871330E-01
1.33000000000E+09 -2.15495630759E-01 +8.88555478318E-01 -4.80306708174E-05 +1.65867488545E-04 -3.85768022421E-06 +1.11293238093E-04 -4.11644599959E-01 +8.62282635183E-01
1.33500000000E+09 -2.07262908855E-01 +8.87688251196E-01 +7.37188775179E-06 +1.50734573612E-04 -4.10048464178E-05 +1.47028518712E-04 -4.01684216370E-01 +8.65555342611E-01
1.34000000000E+09 -1.96613357805E-01 +8.86999999900E-01 -4.67568014168E-05 +1.17188615443E-04 -5.05121409061E-05 +7.47655600360E-05 -3.91364150234E-01 +8.68836746141E-01
1.34500000000E+09 -1.83274954584E-01 +8.86426833820E-01 -3.94073065675E-05 +1.24659798940E-04 -3.00542262824E-05 +1.12550599825E-04 -3.80485676744E-01 +8.72240401878E-01
1.35000000000E+09 -1.67858259612E-01 +8.86600886298E-01 -4.22569921675E-05 +1.39361343349E-04 -1.23702019728E-05 +1.64711529434E-04 -3.69366190537E-01 +8.75343044303E-01
1.35500000000E+09 -1.51104049949E-01 +8.87014201367E-01 -3.57502609782E-05 +1.60567551873E-04 +6.79518009861E-06 +1.52067633960E-04 -3.57565597713E-01 +8.78309625109E-01
1.36000000000E+09 -1.34260544982E-01 +8.87798537346E-01 -4.92389525051E-05 +2.15550034537E-04 +3.49211087644E-06 +2.05214996871E-04 -3.45564195121E-01 +8.80807103768E-01
1.36500000000E+09 -1.18227237009E-01 +8.88354309200E-01 -2.96416437152E-06 +2.57067227239E-04 +4.03416760730E-05 +2.30892163448E-04 -3.33342105731E-01 +8.83371345362E-01
1.37000000000E+09 -1.04172057472E-01 +8.88373093759E-01 +1.00189098504E-04 +3.31954610228E-04 +7.45427501953E-05 +2.79206108281E-04 -3.20305282392E-01 +8.85834895129E-01
1.37500000000E+09 -9.22473709070E-02 +8.87904912112E-01 +2.25965565011E-04 +2.53148562907E-04 +1.87919037185E-04 +2.32365724396E-04 -3.06587314598E-01 +8.87916402246E-01
1.38000000000E+09 -8.16430142445E-02 +8.86556177083E-01 +2.24805601719E-04 +1.25996769472E-04 +2.47901659407E-04 +1.85302876047E-04 -2.91940706454E-01 +8.89942498524E-01
1.38500000000E+09 -7.12010145134E-02 +8.84744830774E-01 +1.34112065825E-04 +1.49524817322E-04 +1.62224097092E-04 +1.82526275197E-04 -2.76536651000E-01 +8.91605013748E-01
1.39000000000E+09 -5.97186976132E-02 +8.81834811993E-01 +1.50674796360E-04 +1.90642419372E-04 +1.55552598094E-04 +2.02245598588E-04 -2.60624130615E-01 +8.92915163802E-01
1.39500000000E+09 -4.63075941162E-02 +8.77934156139E-01 +2.53167760800E-04 +2.33215085449E-04 +2.45069471621E-04 +2.61161308994E-04 -2.43723234008E-01 +8.93576973035E-01
1.40000000000E+09 -3.01084003691E-02 +8.73150730250E-01 +3.35792746540E-04 +2.77087031864E-04 +4.03755346303E-04 +2.39751664438E-04 -2.26161629274E-01 +8.94144243384E-01
1.40500000000E+09 -1.16457697844E-02 +8.67842156739E-01 +5.22916363825E-04 +1.28052244946E-04 +5.57666479167E-04 +7.92320584225E-05 -2.07185327642E-01 +8.93865411272E-01
1.41000000000E+09 +9.12804123321E-03 +8.62252092486E-01 +4.92929116334E-04 -8.74132199660E-05 +5.36339174928E-04 -8.76734939640E-05 -1.87184607183E-01 +8.92992834711E-01
1.41500000000E+09 +3.14121277221E-02 +8.56038647579E-01 +4.30285948153E-04 -1.53661261269E-04 +4.98688268915E-04 -1.21530079224E-04 -1.65695813037E-01 +8.91381760379E-01
1.42000000000E+09 +5.44689565611E-02 +8.49724593455E-01 +4.87201138395E-04 -2.32253903844E-04 +5.19808851948E-04 -2.73798966156E-04 -1.43004997624E-01 +8.88577651962E-01
1.42500000000E+09 +7.71723822421E-02 +8.42133363473E-01 +3.10986753411E-04 -3.18211401550E-04 +3.39893053321E-04 -3.54218493342E-04 -1.19506183900E-01 +8.85019944692E-01
1.43000000000E+09 +9.85878990558E-02 +8.32889104518E-01 +3.13753719254E-04 -2.64113850455E-04 +3.27813377763E-04 -3.05814515142E-04 -9.46176446389E-02 +8.80314658532E-01
1.43500000000E+09 +1.19036063026E-01 +8.22080319593E-01 +4.05480956392E-04 -4.03128425711E-04 +3.50102401457E-04 -4.19840652462E-04 -6.84569974653E-02 +8.73628691809E-01
1.44000000000E+09 +1.39277374770E-01 +8.09436464581E-01 +3.70699288229E-04 -3.93858698130E-04 +3.36826598133E-04 -4.52629332140E-04 -4.03213797754E-02 +8.64999989634E-01
1.44500000000E+09 +1.59869901225E-01 +7.94082771223E-01 +3.55362609664E-04 -7.17118744795E-04 +3.31287888612E-04 -7.01819918204E-04 -1.03242009485E-02 +8.53518179764E-01
1.45000000000E+09 +1.82432881316E-01 +7.75455734862E-01 +3.54279006333E-06 -7.68564794342E-04 -4.59422493550E-05 -7.54572730891E-04 +2.12657594619E-02 +8.39017412460E-01
1.45500000000E+09 +2.06694771036E-01 +7.53223793835E-01 -1.47660578663E-04 -6.83364573326E-04 -2.85743383911E-04 -6.67635775897E-04 +5.44051766489E-02 +8.21177696415E-01
1.46000000000E+09 +2.33139463406E-01 +7.27365372063E-01 -3.30881257021E-04 -5.95045205440E-04 -4.24207401298E-04 -5.12748145517E-04 +8.88192482705E-02 +7.99577480585E-01
1.46500000000E+09 +2.61932602318E-01 +6.97760731656E-01 -4.24299382814E-04 -1.77969218253E-04 -4.24388377455E-04 -1.42732519958E-04 +1.24749620830E-01 +7.73188322248E-01
1.47000000000E+09 +2.91339338915E-01 +6.63425779301E-01 +8.72420893835E-05 -8.48333911840E-05 +8.32668381751E-05 -3.62126629698E-05 +1.61470581729E-01 +7.40170379242E-01
1.47500000000E+09 +3.19871089068E-01 +6.24541006688E-01 +2.25696263295E-04 -4.14521853223E-04 +2.52510908767E-04 -3.49073602067E-04 +1.98890585644E-01 +6.99974204811E-01
1.48000000000E+09 +3.45635284710E-01 +5.80151703413E-01 +1.22885397320E-05 -8.76115324982E-04 +2.99846595200E-05 -8.69421563391E-04 +2.35449025535E-01 +6.51078754089E-01
1.48500000000E+09 +3.66946374040E-01 +5.30334663795E-01 -3.01312928973E-04 -8.89352469421E-04 -3.57358764450E-04 -9.51753202469E-04 +2.69627989143E-01 +5.92585834169E-01
1.49000000000E+09 +3.82628739765E-01 +4.73898769418E-01 -8.56212386513E-04 -8.50980225525E-04 -8.81239954190E-04 -8.09630069838E-04 +2.97924538554E-01 +5.24128121479E-01
1.49500000000E+09 +3.91011278138E-01 +4.10482446892E-01 -1.04756711125E-03 -5.39515616219E-04 -9.66146417242E-04 -4.73638259497E-04 +3.18015805594E-01 +4.45195229483E-01
1.50000000000E+09 +3.91035920895E-01 +3.38277342209E-01 -1.05873775095E-03 -9.69782653572E-05 -9.55792765141E-04 -7.43309183445E-05 +3.24415227235E-01 +3.55624693745E-01
1.50500000000E+09 +3.78380897271E-01 +2.57871257775E-01 -7.64373836639E-04 +8.69754058139E-05 -6.84535508949E-04 +3.70474202761E-05 +3.12927165246E-01 +2.58767835556E-01
1.51000000000E+09 +3.51053624251E-01 +1.72369107362E-01 -9.43522021102E-04 -4.53118854606E-04 -9.09064468281E-04 -5.18750287404E-04 +2.81171221864E-01 +1.60061551999E-01
1.51500000000E+09 +3.07764567320E-01 +8.59283262900E-02 -1.59183653757E-03 +1.71868482292E-04 -1.60579775113E-03 +1.22278790287E-04 +2.29635927391E-01 +6.35884978236E-02
1.52000000000E+09 +2.44455633179E-01 +3.92169819941E-03 -1.42624589495E-03 +4.39898237116E-04 -1.44678405479E-03 +4.37505801364E-04 +1.55422837420E-01 -2.40089659560E-02
1.52500000000E+09 +1.64747221336E-01 -6.30629124321E-02 -1.54712241123E-03 +1.30749612143E-03 -1.56615990322E-03 +1.31734315858E-03 +6.15575086794E-02 -9.37186250157E-02
1.53000000000E+09 +7.25143139599E-02 -1.12504137410E-01 -1.14088337003E-03 +1.92350706380E-03 -1.18798628893E-03 +1.99878347039E-03 -4.34081193541E-02 -1.40523572637E-01
1.53500000000E+09 -2.82166688393E-02 -1.40097555545E-01 +8.16274875246E-04 +2.42339288273E-03 +8.85709278659E-04 +2.42606991282E-03 -1.54307823666E-01 -1.64533298695E-01
1.54000000000E+09 -1.33551147965E-01 -1.42906184512E-01 +8.53347903613E-04 +7.20554148805E-04 +8.08222644011E-04 +7.49527851710E-04 -2.64863917491E-01 -1.63104776734E-01
1.54500000000E+09 -2.34703856775E-01 -1.22034515856E-01 +4.73909696005E-04 +9.24080315260E-04 +4.32870267896E-04 +9.46116418288E-04 -3.64002460940E-01 -1.41296271578E-01
1.55000000000E+09 -3.25431762805E-01 -8.21532690120E-02 +8.92549732762E-04 +5.66444479824E-04 +8.63580234391E-04 +5.51939108439E-04 -4.51013421598E-01 -1.05622621708E-01
1.55500000000E+09 -4.02378954814E-01 -3.12361364008E-02 +3.52674532989E-04 +2.18027571453E-04 +3.75531069040E-04 +2.87458754838E-04 -5.23817435992E-01 -5.87887824701E-02
1.56000000000E+09 -4.65634134663E-01 +2.46848313973E-02 +3.62878503024E-04 +1.00192555007E-03 +3.12796913465E-04 +1.04476627166E-03 -5.82309737779E-01 -6.29647307427E-03
1.56500000000E+09 -5.16334920734E-01 +8.17938687374E-02 +1.33331420240E-03 +7.34944212364E-04 +1.40365033208E-03 +8.41932787151E-04 -6.28196478099E-01 +4.94480097094E-02
1.57000000000E+09 -5.55141308833E-01 +1.37466518634E-01 +1.62582772031E-03 -4.38761394181E-04 +1.70735182394E-03 -4.88097247047E-04 -6.63031505610E-01 +1.04311021355E-01
