# Hz S RI R 50
! CMT, C1220, 16058040, 17.2.0/1
! Date: 14/08/2018 12:12:01
! Data: Format (Calibration Info)
! Freq                      S11: Re/Im (F2)                       S21: Re/Im (F2)                       S12: Re/Im (F2)                       S22: Re/Im (F2)            
1.00000000000E+09 -6.45075880361E-01 +7.14489654317E-01 -1.95548259018E-05 -1.50846525991E-05 +5.59371027521E-05 -5.56559980223E-05 -7.53382571860E-01 +6.25223706481E-01
1.00500000000E+09 -6.37753419679E-01 +7.19725015480E-01 +4.99068235299E-05 +4.04946357784E-05 -3.93277818345E-05 +5.93771385049E-06 -7.49773707409E-01 +6.29264072977E-01
1.01000000000E+09 -6.31882722515E-01 +7.24385207042E-01 +8.68414074076E-06 +7.75679968434E-06 -4.28072740648E-06 +4.30748361659E-06 -7.46076172852E-01 +6.33024499349E-01
1.01500000000E+09 -6.27944886555E-01 +7.28122858949E-01 -6.78748241334E-05 -2.28281108965E-05 +2.14853515227E-05 -2.99620626663E-05 -7.42892086514E-01 +6.36697730068E-01
1.02000000000E+09 -6.25698528430E-01 +7.31064974578E-01 -5.13202116240E-05 +3.12833661719E-05 -1.57746856709E-05 -6.08578331980E-06 -7.39289955402E-01 +6.40119002040E-01
1.02500000000E+09 -6.24614544942E-01 +7.33693667450E-01 -8.25577144927E-06 +1.28559666617E-05 +2.03224170895E-05 -2.01825307449E-05 -7.36486113785E-01 +6.43974526854E-01
1.03000000000E+09 -6.24030205217E-01 +7.35586756661E-01 +1.03633429827E-05 -2.93034460583E-05 -3.64689365146E-05 -1.24765377468E-05 -7.33092183468E-01 +6.47719459247E-01
1.03500000000E+09 -6.22249233491E-01 +7.37581427955E-01 +1.31466888059E-05 +1.39479276800E-05 -3.85392183356E-06 -2.89490803128E-05 -7.29238797162E-01 +6.51650316360E-01
1.04000000000E+09 -6.18925741572E-01 +7.40272923524E-01 -9.61699732937E-06 +1.49287060800E-05 +5.07788442784E-05 -4.11310674441E-05 -7.25424329062E-01 +6.55370358846E-01
1.04500000000E+09 -6.13782807534E-01 +7.43389274139E-01 -2.44906210743E-05 +4.95783437742E-05 -3.33131139043E-06 -3.66204430198E-05 -7.21866735941E-01 +6.58915046905E-01
1.05000000000E+09 -6.06592428896E-01 +7.47572502699E-01 -4.71698690302E-06 +1.84053629168E-05 -2.83247389798E-05 +2.95624269238E-05 -7.18521823265E-01 +6.62281492301E-01
1.05500000000E+09 -5.97442440976E-01 +7.52206818942E-01 -1.53571609413E-05 +4.50394680726E-05 +1.83096965799E-05 +4.78853352429E-05 -7.15188741007E-01 +6.65869826120E-01
1.06000000000E+09 -5.87958059466E-01 +7.57475565064E-01 +2.59576483594E-05 +8.86675561611E-06 +6.82257315088E-06 -9.29924528265E-06 -7.12069811647E-01 +6.69776708853E-01
1.06500000000E+09 -5.78666615443E-01 +7.62780864914E-01 -1.69294314470E-06 +2.04344850865E-05 +2.16876175037E-05 -6.53921203122E-06 -7.08330783621E-01 +6.73633950278E-01
1.07000000000E+09 -5.71082912198E-01 +7.67232808462E-01 -1.13514341312E-06 -4.01958962550E-06 +1.31954090429E-05 +4.06637247090E-05 -7.04217578883E-01 +6.77199803166E-01
1.07500000000E+09 -5.65144297609E-01 +7.71341768789E-01 +1.49270392524E-05 +8.11649303847E-06 +7.07119598848E-05 -8.34962011469E-06 -6.99878346230E-01 +6.80916788777E-01
1.08000000000E+09 -5.61439593106E-01 +7.74611933356E-01 +2.70672524886E-06 -4.74444210457E-06 +3.53543370614E-05 +3.36894873315E-05 -6.95928743493E-01 +6.84857480342E-01
1.08500000000E+09 -5.59383420781E-01 +7.77023189713E-01 +4.57176114773E-05 +4.16549942446E-06 +7.30482554893E-06 +3.72128042108E-06 -6.91907478518E-01 +6.88282071431E-01
1.09000000000E+09 -5.57792900828E-01 +7.78955989700E-01 +2.19555888115E-05 +2.47234099245E-05 +4.96772627338E-06 +1.52974500080E-06 -6.88078475347E-01 +6.92334678403E-01
1.09500000000E+09 -5.56550779343E-01 +7.80595581412E-01 +3.75759969257E-05 +4.11693310954E-05 +3.29810471337E-05 -5.89956316759E-05 -6.84330414903E-01 +6.96268650047E-01
1.10000000000E+09 -5.53953351541E-01 +7.82488366549E-01 +2.85765752173E-05 +1.41373701342E-05 +1.79422518976E-05 +2.91914114326E-06 -6.80282385461E-01 +7.00175027970E-01
1.10500000000E+09 -5.49856104457E-01 +7.84817417679E-01 +4.47838936692E-05 +2.11276870540E-05 +5.07837933623E-05 +5.56797440992E-05 -6.75933512536E-01 +7.03526988450E-01
1.11000000000E+09 -5.43774715490E-01 +7.87996622868E-01 +3.00619137625E-05 +1.07881250240E-05 +6.74385357982E-05 +1.90495431482E-05 -6.71673463857E-01 +7.07066529883E-01
1.11500000000E+09 -5.36094302249E-01 +7.91931534225E-01 +4.56230571995E-05 -2.32048588246E-05 +2.53548639125E-05 -3.36194154271E-05 -6.67614583913E-01 +7.10513682716E-01
1.12000000000E+09 -5.27807712806E-01 +7.96089393895E-01 +4.56215704164E-06 +8.56715738451E-06 -5.16932374327E-06 -2.43115816114E-05 -6.63697183410E-01 +7.14036942896E-01
1.12500000000E+09 -5.19389382285E-01 +8.00145464608E-01 +1.54347332110E-05 +1.12264560929E-05 -4.56021324495E-06 +8.43850392501E-06 -6.59300734151E-01 +7.18091496158E-01
1.13000000000E+09 -5.11955014409E-01 +8.04120243546E-01 +2.07156280263E-05 +1.27348650703E-05 -1.98049017998E-05 -6.01972724409E-05 -6.55082125944E-01 +7.21921061559E-01
1.13500000000E+09 -5.05882928306E-01 +8.07181594095E-01 +1.38748747914E-05 -1.25630772383E-05 +8.14214720062E-06 +4.33032986955E-05 -6.50420737341E-01 +7.25597033467E-01
1.14000000000E+09 -5.01068495036E-01 +8.09859596118E-01 +5.16594815271E-05 -1.97333190452E-06 +2.94156697622E-05 -8.54751647043E-06 -6.45946871631E-01 +7.29050373530E-01
1.14500000000E+09 -4.97665070380E-01 +8.11700828197E-01 +4.96956635293E-05 -2.67920859138E-05 +5.32590055370E-05 +3.35353495355E-05 -6.41152302385E-01 +7.32442521358E-01
1.15000000000E+09 -4.94746757864E-01 +8.13243867414E-01 +1.33561551159E-05 +2.02070039809E-05 -4.91974678043E-07 -2.42032479136E-05 -6.36419151040E-01 +7.36198724340E-01
1.15500000000E+09 -4.91615809536E-01 +8.14982462842E-01 -9.96088681034E-06 +8.15572248580E-06 +4.62417956483E-05 -2.48949381313E-05 -6.31670154308E-01 +7.40069428795E-01
1.16000000000E+09 -4.87291878310E-01 +8.16547409519E-01 +3.50443775223E-05 +1.28753971510E-05 +5.90761868224E-05 -1.81346001874E-05 -6.26898025925E-01 +7.43927705456E-01
1.16500000000E+09 -4.81552650665E-01 +8.19196366497E-01 +4.20766475209E-05 +9.99729247232E-06 +1.51234007878E-05 +4.20312462878E-05 -6.21781452334E-01 +7.47562321479E-01
1.17000000000E+09 -4.74535980744E-01 +8.22008683456E-01 +2.20401135969E-05 -2.08917442685E-05 +1.04271910386E-05 +4.13911037748E-05 -6.16339247731E-01 +7.50902504087E-01
1.17500000000E+09 -4.66325669408E-01 +8.25302951498E-01 +4.15217091783E-05 +1.79771248715E-05 +4.32214047795E-05 -5.99942751225E-06 -6.10662017470E-01 +7.54002710977E-01
1.18000000000E+09 -4.57656618113E-01 +8.28865917580E-01 +6.48105173604E-05 -7.00763309053E-06 +3.05534399249E-05 -4.51827023305E-05 -6.05073251108E-01 +7.57278137970E-01
1.18500000000E+09 -4.49407362646E-01 +8.32208438617E-01 +9.32149543691E-05 -8.48061629426E-06 +2.29009446504E-05 +2.59767132323E-06 -5.98960237874E-01 +7.60282737722E-01
1.19000000000E+09 -4.42105892692E-01 +8.34931908753E-01 +9.86658581485E-05 -5.52338211496E-05 +4.25914858767E-05 -3.61395934419E-05 -5.92736381882E-01 +7.62842280614E-01
1.19500000000E+09 -4.36219257205E-01 +8.37179474629E-01 +6.61348645644E-05 -8.17769325811E-05 +1.06095814258E-04 -1.10880843417E-05 -5.86987914361E-01 +7.64149952208E-01
1.20000000000E+09 -4.31658106616E-01 +8.38202523362E-01 +5.91924973293E-05 -1.41811650821E-04 +3.53519182934E-05 -1.34991082206E-04 -5.82511543834E-01 +7.64382475138E-01
1.20500000000E+09 -4.27966112658E-01 +8.39513571506E-01 +5.70815442665E-06 -1.17099750052E-04 -4.71961055968E-05 -1.33953216761E-04 -5.80269400737E-01 +7.65107407220E-01
1.21000000000E+09 -4.23950767292E-01 +8.40580791953E-01 -9.17135495359E-06 -5.68847076676E-05 -1.25766828356E-05 -7.43452825775E-05 -5.78420019558E-01 +7.68314768098E-01
1.21500000000E+09 -4.18657542030E-01 +8.42074195400E-01 -7.24383687353E-06 -5.04953346094E-05 +1.64077966128E-05 -3.78631870392E-05 -5.75517419261E-01 +7.72827365002E-01
1.22000000000E+09 -4.11739787598E-01 +8.43908524679E-01 +2.98133149473E-05 -6.32629487777E-05 +1.09898009511E-06 -6.98883738411E-05 -5.71418320160E-01 +7.78171345091E-01
1.22500000000E+09 -4.02702752111E-01 +8.46321241013E-01 -6.60232414844E-05 -5.36951879570E-05 -3.50923999383E-05 -6.04655813972E-05 -5.66158328698E-01 +7.83359269756E-01
1.23000000000E+09 -3.92264832871E-01 +8.49476507511E-01 -4.92242103621E-06 -6.88606690175E-05 -3.41321484324E-05 -4.39169018807E-05 -5.60614617175E-01 +7.87948761326E-01
1.23500000000E+09 -3.81091705665E-01 +8.52960388241E-01 -2.08953081172E-05 -6.92198579949E-05 -3.71015373016E-05 -9.25061567868E-05 -5.54706504149E-01 +7.92335298354E-01
1.24000000000E+09 -3.70020644193E-01 +8.56860305145E-01 +4.29302656333E-05 -7.15640156863E-05 +3.11466277405E-05 -9.86605578324E-05 -5.48646392809E-01 +7.96150969637E-01
1.24500000000E+09 -3.59784557919E-01 +8.60978978855E-01 -3.24228822774E-05 -1.30800683459E-04 -3.08042323166E-05 -1.00194091792E-04 -5.42259070583E-01 +7.99929558760E-01
1.25000000000E+09 -3.51132824774E-01 +8.64379017098E-01 -7.43451915303E-05 -1.05525153928E-04 -1.44764533469E-05 -1.04473873593E-04 -5.35823318713E-01 +8.04212415286E-01
1.25500000000E+09 -3.44378541770E-01 +8.66743847307E-01 -4.35688698129E-05 -9.96869441955E-05 -1.15423276162E-04 -1.35056125105E-04 -5.28908300508E-01 +8.08137943169E-01
1.26000000000E+09 -3.39244496658E-01 +8.68805740820E-01 -9.74346477323E-05 -1.46461275704E-04 -9.43577285294E-05 -1.09638704677E-04 -5.22168221837E-01 +8.12417221993E-01
1.26500000000E+09 -3.34930565859E-01 +8.70013877378E-01 -7.51975106134E-05 -1.08658741237E-04 -8.37213206090E-05 -8.35791241073E-05 -5.15127900539E-01 +8.16301975830E-01
1.27000000000E+09 -3.30354383649E-01 +8.71216461905E-01 -1.37897262986E-04 -1.07706168056E-04 -1.37702447826E-04 -9.25286311169E-05 -5.08349507341E-01 +8.20169963766E-01
1.27500000000E+09 -3.24666025679E-01 +8.72324434255E-01 -1.11141865832E-04 -4.31136466124E-05 -1.49229516306E-04 -7.69881093903E-05 -5.01306325928E-01 +8.23668726797E-01
1.28000000000E+09 -3.16988455234E-01 +8.73803086159E-01 -1.36381183656E-04 -3.72783442804E-05 -1.39116053027E-04 -6.09545581070E-05 -4.94251535256E-01 +8.27289001145E-01
1.28500000000E+09 -3.06830106165E-01 +8.75823501767E-01 -1.92538145445E-04 -8.63399112353E-05 -1.50304036952E-04 -4.40033858865E-05 -4.86817509374E-01 +8.30932654135E-01
1.29000000000E+09 -2.95157856772E-01 +8.78413432118E-01 -1.93346302447E-04 -1.68472727371E-05 -1.79768778546E-04 -3.73419297695E-05 -4.79430640997E-01 +8.34701703562E-01
1.29500000000E+09 -2.82298268052E-01 +8.81626558945E-01 -1.33313388244E-04 +7.08642704725E-06 -1.90424259968E-04 +8.84216693903E-06 -4.71326330965E-01 +8.38131419558E-01
1.30000000000E+09 -2.69467922276E-01 +8.85049873278E-01 -2.37472463980E-04 -1.50478240624E-05 -1.43801743692E-04 +4.12726372978E-06 -4.63548280090E-01 +8.41780333537E-01
1.30500000000E+09 -2.57648877384E-01 +8.88078259524E-01 -2.33144725380E-04 +5.41384932572E-05 -2.07361880159E-04 +6.03394634526E-05 -4.55481115766E-01 +8.45069289244E-01
1.31000000000E+09 -2.47656655677E-01 +8.90412979409E-01 -2.11788245711E-04 +8.06806658149E-05 -1.76140731096E-04 +6.88446667594E-05 -4.47269187781E-01 +8.48670493835E-01
1.31500000000E+09 -2.39988379325E-01 +8.92285965947E-01 -1.56738350614E-04 +9.74392419276E-05 -1.38444023687E-04 +7.08473445619E-05 -4.38274500128E-01 +8.52071161734E-01
1.32000000000E+09 -2.33987824542E-01 +8.93307450270E-01 -1.56477428466E-04 +1.02222557377E-04 -1.14911449145E-04 +8.75391981186E-05 -4.29225434067E-01 +8.55450357672E-01
1.32500000000E+09 -2.28570680926E-01 +8.93707361522E-01 -1.74189664002E-04 +3.40615031979E-06 -1.56775814966E-04 +9.01533808910E-05 -4.19506598372E-01 +8.58902152652E-01
1.33000000000E+09 -2.22552517429E-01 +8.93726999474E-01 -2.28826470447E-04 +1.30805380164E-04 -1.95240139406E-04 +1.25066176735E-04 -4.09745495379E-01 +8.62258697294E-01
1.33500000000E+09 -2.14585461314E-01 +8.93120022607E-01 -2.09318450263E-04 +1.57349542516E-04 -2.05425472316E-04 +1.90931210051E-04 -4.00010891126E-01 +8.65521331939E-01
1.34000000000E+09 -2.03776396685E-01 +8.92893041091E-01 -1.34258583378E-04 +2.35912411107E-04 -1.59131134854E-04 +1.60181323610E-04 -3.89755335003E-01 +8.68675345668E-01
1.34500000000E+09 -1.90338164200E-01 +8.92370025020E-01 -1.16793189222E-04 +2.69012304348E-04 -1.33264517801E-04 +2.39039921514E-04 -3.78780458943E-01 +8.72119744233E-01
1.35000000000E+09 -1.74475887744E-01 +8.92424167492E-01 -1.09306225647E-04 +2.15207564083E-04 -1.20470725826E-04 +1.99227116123E-04 -3.67727412378E-01 +8.75161882821E-01
1.35500000000E+09 -1.56949873865E-01 +8.92520182987E-01 -9.26183425232E-05 +2.35644401783E-04 -1.15503238690E-04 +2.85653187418E-04 -3.56103492023E-01 +8.78031032638E-01
1.36000000000E+09 -1.39567721409E-01 +8.92865106673E-01 -1.12064441063E-04 +3.37609701471E-04 -8.88493320297E-05 +3.08257253570E-04 -3.44164731982E-01 +8.80688482015E-01
1.36500000000E+09 -1.23268201128E-01 +8.93369575342E-01 -8.85177027322E-05 +3.34501143578E-04 -8.08617284841E-05 +2.99586369630E-04 -3.31994434696E-01 +8.83162604596E-01
1.37000000000E+09 -1.08786012849E-01 +8.93407940560E-01 -3.31423443984E-05 +3.75732787521E-04 -8.64637464721E-05 +3.27281644220E-04 -3.19152746049E-01 +8.85602404771E-01
1.37500000000E+09 -9.66950979083E-02 +8.93427049340E-01 -6.07665376880E-05 +4.34783645459E-04 -9.64190285198E-05 +4.01015841027E-04 -3.05414681426E-01 +8.87735895421E-01
1.38000000000E+09 -8.61789558845E-02 +8.92821819716E-01 +1.06414883852E-04 +4.99557524846E-04 +6.07241129216E-05 +5.11630573400E-04 -2.90868453087E-01 +8.89965948597E-01
1.38500000000E+09 -7.59562792248E-02 +8.91820316047E-01 +2.02375373051E-04 +4.21296082431E-04 +1.90450413435E-04 +4.69378025642E-04 -2.75349368061E-01 +8.91845710637E-01
1.39000000000E+09 -6.49630608836E-02 +8.89882955119E-01 +1.82525646976E-04 +3.99514964138E-04 +1.97791458914E-04 +4.82516305828E-04 -2.59344619150E-01 +8.93424664084E-01
1.39500000000E+09 -5.18465130023E-02 +8.87089027895E-01 +2.30398588228E-04 +4.24475448880E-04 +3.44790489852E-04 +4.89279004860E-04 -2.42415935063E-01 +8.94076361799E-01
1.40000000000E+09 -3.56228436958E-02 +8.83176853527E-01 +3.98479024132E-04 +4.32613669033E-04 +4.93015290977E-04 +3.95481528799E-04 -2.24912571829E-01 +8.94743266995E-01
1.40500000000E+09 -1.66784032052E-02 +8.78345715975E-01 +4.20745223564E-04 +2.46983982871E-04 +4.38841048845E-04 +2.33591890708E-04 -2.06122911675E-01 +8.94727758950E-01
1.41000000000E+09 +4.65131375147E-03 +8.72718316664E-01 +3.73206632165E-04 +2.26889899765E-04 +3.73948348477E-04 +2.23193952766E-04 -1.85797091034E-01 +8.93815842143E-01
1.41500000000E+09 +2.74100609320E-02 +8.66295951521E-01 +3.50594769801E-04 +1.88556033017E-04 +4.22942620368E-04 +2.27655817008E-04 -1.64108591798E-01 +8.92287763166E-01
1.42000000000E+09 +5.05344069269E-02 +8.59766513823E-01 +3.88109937498E-04 +3.05734233701E-04 +4.36618938631E-04 +3.34368291744E-04 -1.41171732510E-01 +8.89678564111E-01
1.42500000000E+09 +7.30186643575E-02 +8.52484271981E-01 +5.39924616668E-04 +1.91381828573E-04 +5.49767988540E-04 +2.23749330058E-04 -1.17469684970E-01 +8.86178960375E-01
1.43000000000E+09 +9.41607824366E-02 +8.44532323395E-01 +4.78802444139E-04 +1.14874797013E-04 +4.73105711711E-04 +7.90957897042E-05 -9.24623194599E-02 +8.81431150043E-01
1.43500000000E+09 +1.14259284194E-01 +8.34966951782E-01 +5.27734132308E-04 +1.97708486107E-04 +5.46306603632E-04 +4.87716953482E-05 -6.59866015557E-02 +8.74807454424E-01
1.44000000000E+09 +1.33732394283E-01 +8.24614006475E-01 +5.62388485360E-04 +3.40118957408E-05 +5.41359362408E-04 +2.87559778649E-05 -3.77115220486E-02 +8.65981037362E-01
1.44500000000E+09 +1.54832724219E-01 +8.11626732868E-01 +4.79203169890E-04 +1.73298681398E-04 +5.12290627189E-04 +5.52874666583E-05 -7.61657649390E-03 +8.54362117587E-01
1.45000000000E+09 +1.77609672142E-01 +7.95124553008E-01 +5.62432101297E-04 +2.03741056595E-04 +6.02882018028E-04 +1.59165534244E-04 +2.42625880939E-02 +8.39887703252E-01
1.45500000000E+09 +2.03251380339E-01 +7.74399500260E-01 +7.38541452608E-04 +1.92111146531E-04 +7.23993847506E-04 +1.24505824653E-04 +5.79736854474E-02 +8.22295752138E-01
1.46000000000E+09 +2.32063442196E-01 +7.49017073478E-01 +8.51395227931E-04 +2.31679390107E-04 +8.94765260285E-04 +1.15244837258E-04 +9.31020757688E-02 +8.00001085892E-01
1.46500000000E+09 +2.63149618785E-01 +7.18491647700E-01 +1.15571220235E-03 +2.32087458313E-04 +1.08245135472E-03 +1.34375877557E-04 +1.28640973891E-01 +7.72874162757E-01
1.47000000000E+09 +2.95271982628E-01 +6.82773979482E-01 +1.66895155693E-03 +1.20359047580E-04 +1.47926239116E-03 +7.90771710929E-05 +1.65496513264E-01 +7.39778967428E-01
1.47500000000E+09 +3.27233329228E-01 +6.41538953385E-01 +2.00124179060E-03 -6.17376145897E-04 +1.91217530680E-03 -4.89529546091E-04 +2.03312058673E-01 +6.99114434157E-01
1.48000000000E+09 +3.56357635689E-01 +5.94777799109E-01 +1.82754404899E-03 -1.05329629334E-03 +1.89337918577E-03 -9.97914655645E-04 +2.40493313132E-01 +6.49249722701E-01
1.48500000000E+09 +3.81322467148E-01 +5.42025912918E-01 +2.00447505890E-03 -1.48488450753E-03 +2.03951546328E-03 -1.55049406635E-03 +2.74862202532E-01 +5.89892696308E-01
1.49000000000E+09 +4.00003945540E-01 +4.82814254796E-01 +1.77569955579E-03 -2.17646230907E-03 +1.66020467126E-03 -2.21176645486E-03 +3.03030596930E-01 +5.19609546726E-01
1.49500000000E+09 +4.11551057156E-01 +4.16709487372E-01 +1.93256787203E-03 -2.74784981713E-03 +1.68999864042E-03 -2.66453045343E-03 +3.21526239927E-01 +4.39711420353E-01
1.50000000000E+09 +4.13598605998E-01 +3.41334493004E-01 +1.43358292131E-03 -4.22236868286E-03 +1.26657453417E-03 -3.93525474915E-03 +3.27289239268E-01 +3.49701612045E-01
1.50500000000E+09 +4.02986299101E-01 +2.57726963397E-01 -1.22398015265E-04 -5.15960159575E-03 +6.06865400685E-05 -4.88945895227E-03 +3.15396182778E-01 +2.51999195404E-01
1.51000000000E+09 +3.76382212053E-01 +1.67868091096E-01 -1.91453832355E-03 -5.21141865229E-03 -1.66684190852E-03 -5.21509623832E-03 +2.82405669637E-01 +1.51426829036E-01
1.51500000000E+09 +3.31239417251E-01 +7.69414196386E-02 -3.92720752859E-03 -4.91145397431E-03 -3.77061856385E-03 -5.06763224431E-03 +2.27936100637E-01 +5.32762252359E-02
1.52000000000E+09 +2.67004450882E-01 -9.18237142000E-03 -5.47331371645E-03 -3.09265325604E-03 -5.49280064763E-03 -3.23334300639E-03 +1.49615092106E-01 -3.39074128222E-02
1.52500000000E+09 +1.83635413644E-01 -8.29401868327E-02 -5.81654048800E-03 -1.46239817931E-03 -5.87874685016E-03 -1.50757826130E-03 +5.31456369318E-02 -1.01260960569E-01
1.53000000000E+09 +8.49647348162E-02 -1.37502798672E-01 -6.08015019639E-03 +1.24649671956E-05 -6.17856079803E-03 -1.64103755543E-05 -5.42416292996E-02 -1.45826466164E-01
1.53500000000E+09 -2.39666482819E-02 -1.67327729455E-01 -6.00275225794E-03 +1.71835876392E-03 -6.00281036133E-03 +1.76025251498E-03 -1.67068839724E-01 -1.65344476684E-01
1.54000000000E+09 -1.35474406457E-01 -1.69742422687E-01 -5.47954984185E-03 +3.06650280526E-03 -5.44211873684E-03 +2.98476262050E-03 -2.75434373893E-01 -1.60720617000E-01
1.54500000000E+09 -2.41111809252E-01 -1.47950725137E-01 -4.57518152582E-03 +5.13985412285E-03 -4.63465306614E-03 +4.98413674996E-03 -3.74510441384E-01 -1.37454452936E-01
1.55000000000E+09 -3.38040099110E-01 -1.07037666036E-01 -2.19380253101E-03 +5.97612477021E-03 -2.47794537637E-03 +5.89720329599E-03 -4.60263569497E-01 -9.86159631618E-02
1.55500000000E+09 -4.20526096844E-01 -5.11200479592E-02 -3.06971232236E-04 +5.75912171923E-03 -6.07798505261E-04 +5.92118170398E-03 -5.30673973064E-01 -5.05378666384E-02
1.56000000000E+09 -4.86495914918E-01 +1.10823325431E-02 +1.10397948433E-03 +5.30975016157E-03 +9.79319632853E-04 +5.55937870752E-03 -5.87472215036E-01 +3.01426969233E-03
1.56500000000E+09 -5.38398822471E-01 +7.33143708590E-02 +2.34522850079E-03 +4.25061615628E-03 +2.46785138111E-03 +4.57090087602E-03 -6.31330502534E-01 +5.94326633155E-02
1.57000000000E+09 -5.78844623853E-01 +1.34380931517E-01 +2.97101797754E-03 +2.89945706341E-03 +3.23081502961E-03 +3.03879433984E-03 -6.63906205785E-01 +1.14566409028E-01
