# Hz S RI R 50
! CMT, C1220, 16058040, 17.2.0/1
! Date: 14/08/2018 11:50:47
! Data: Format (Calibration Info)
! Freq                      S11: Re/Im (F2)                       S21: Re/Im (F2)                       S12: Re/Im (F2)                       S22: Re/Im (F2)            
1.00000000000E+09 -6.48358658310E-01 +7.14561831369E-01 +1.37522108486E-05 -9.68040130529E-07 +7.81154389691E-06 -2.29671197604E-05 -7.55384802122E-01 +6.23768483565E-01
1.00500000000E+09 -6.41188515544E-01 +7.19654676089E-01 -4.30115910964E-05 +2.51028984905E-05 +6.07185443785E-05 +3.46658998641E-05 -7.51793534335E-01 +6.28064812830E-01
1.01000000000E+09 -6.35111713528E-01 +7.24331709406E-01 -1.90649632194E-06 +7.14486317460E-07 -1.92250785934E-05 -6.97806420109E-07 -7.48235191881E-01 +6.31878753371E-01
1.01500000000E+09 -6.30394314071E-01 +7.28129814342E-01 +5.17239260875E-05 +2.74253877903E-05 +1.06403775836E-05 +3.93128317742E-05 -7.44885771562E-01 +6.35508508117E-01
1.02000000000E+09 -6.26802763715E-01 +7.31337871427E-01 -5.53213165754E-05 -1.23147652729E-06 -1.52500967092E-05 +4.15517024518E-05 -7.41426838399E-01 +6.39176516729E-01
1.02500000000E+09 -6.24139121221E-01 +7.33999004511E-01 +2.86544551522E-05 +2.61216215733E-05 +1.22296509059E-05 -3.09058273501E-06 -7.38307272079E-01 +6.43031029907E-01
1.03000000000E+09 -6.22045913077E-01 +7.36229603186E-01 +8.90928305961E-06 -1.41680181502E-08 -2.45948781838E-05 -2.92863417808E-05 -7.34899532402E-01 +6.46826396289E-01
1.03500000000E+09 -6.19129634929E-01 +7.38591741074E-01 +2.49895321564E-05 -9.41331813479E-05 -1.50539675068E-05 +3.35418950389E-05 -7.31289339306E-01 +6.50724117625E-01
1.04000000000E+09 -6.14833514018E-01 +7.41443035635E-01 -1.89287004429E-06 -2.77096890367E-05 +3.28625909240E-05 +2.04696957323E-06 -7.27475570427E-01 +6.54247229160E-01
1.04500000000E+09 -6.09547425030E-01 +7.44764755931E-01 +4.70540074697E-06 -5.02875935113E-05 -1.28137447693E-05 -9.16158657798E-06 -7.23882260449E-01 +6.57821589882E-01
1.05000000000E+09 -6.02378217823E-01 +7.49132655909E-01 -1.79056671410E-06 +8.45197874573E-06 +1.56334432454E-05 -2.31887267983E-07 -7.20764723023E-01 +6.61435850324E-01
1.05500000000E+09 -5.94102435800E-01 +7.53695553963E-01 +5.03701006754E-05 +4.07444508096E-05 -2.14252714778E-05 +1.84685418899E-05 -7.17387457655E-01 +6.65032615521E-01
1.06000000000E+09 -5.85733146439E-01 +7.58935306166E-01 +2.41783650651E-05 +1.84059754051E-05 -4.36766459419E-05 +4.40042676831E-05 -7.14119695959E-01 +6.68747149691E-01
1.06500000000E+09 -5.77495853696E-01 +7.63858095141E-01 +2.68928529326E-05 -9.82425495807E-06 +3.35299602963E-05 +3.53895394918E-05 -7.10479797160E-01 +6.72350000126E-01
1.07000000000E+09 -5.70313305041E-01 +7.68207391481E-01 -7.34567111196E-06 +2.57014594514E-05 +1.64054308949E-05 -1.58615746594E-05 -7.06311465101E-01 +6.76023611533E-01
1.07500000000E+09 -5.64753289725E-01 +7.71902440392E-01 +4.97852960673E-06 +6.59026511901E-05 +4.31511615735E-05 +1.84075537626E-05 -7.02186129607E-01 +6.79713926387E-01
1.08000000000E+09 -5.60778845025E-01 +7.75046692237E-01 -1.93497832955E-07 +8.92787916763E-06 -1.76186980715E-05 +2.99933257028E-05 -6.98122618794E-01 +6.83710973392E-01
1.08500000000E+09 -5.58236688805E-01 +7.77237668377E-01 +2.91822555782E-05 -5.01073358382E-05 +3.21003375834E-05 -5.82725163657E-06 -6.94122143925E-01 +6.87469679495E-01
1.09000000000E+09 -5.56022554983E-01 +7.79093933323E-01 +3.38114238919E-05 -1.93576803589E-05 -2.52438369887E-05 +1.16117068178E-05 -6.90128569908E-01 +6.91413480575E-01
1.09500000000E+09 -5.54242429243E-01 +7.80685100869E-01 +3.46727863781E-06 +4.55909584194E-05 -2.60430115102E-05 +1.31831664523E-05 -6.86498612478E-01 +6.95176453391E-01
1.10000000000E+09 -5.51263300753E-01 +7.82627590339E-01 -1.14803215323E-05 +6.05956069346E-06 +2.01430330852E-05 +3.83048725780E-06 -6.82530116533E-01 +6.99018945725E-01
1.10500000000E+09 -5.46940437104E-01 +7.85225905769E-01 -1.99667913679E-06 -3.26002450478E-05 +2.64994365341E-06 -5.77329068567E-06 -6.78090355816E-01 +7.02769453083E-01
1.11000000000E+09 -5.41068783409E-01 +7.88434365917E-01 +4.93405441219E-06 +4.28580230306E-05 +9.81643000553E-06 -3.57914539695E-05 -6.74022625937E-01 +7.06051588645E-01
1.11500000000E+09 -5.33918022989E-01 +7.92279767345E-01 +3.77537131807E-05 -2.71904065818E-05 +3.18908282095E-05 -6.74270915958E-06 -6.69934767310E-01 +7.09524337811E-01
1.12000000000E+09 -5.26227367788E-01 +7.96341124450E-01 +3.09184912323E-05 +6.16524414611E-06 +8.09421854274E-06 -5.10180769621E-06 -6.65782916808E-01 +7.13364134858E-01
1.12500000000E+09 -5.18306950214E-01 +8.00189704936E-01 -5.85851361979E-06 -1.29158415141E-05 +3.66838252265E-05 +1.57909470545E-05 -6.61619053274E-01 +7.17221709599E-01
1.13000000000E+09 -5.11212964335E-01 +8.03896570227E-01 +3.50066701910E-05 -1.67354636393E-05 +3.35272681775E-05 -1.94157332030E-05 -6.57235083495E-01 +7.20841143394E-01
1.13500000000E+09 -5.05013666351E-01 +8.06756088791E-01 +1.28864959855E-05 +3.61478908978E-05 +8.14043096148E-06 -2.54872484729E-06 -6.52830951402E-01 +7.24866364982E-01
1.14000000000E+09 -5.00002299990E-01 +8.09217551772E-01 +2.53655055042E-05 -6.06050294263E-06 +1.02596005475E-05 +2.74825519897E-05 -6.48123395107E-01 +7.28281952421E-01
1.14500000000E+09 -4.95864713767E-01 +8.10963949155E-01 +1.92414477535E-05 -9.83065326103E-06 +2.11143356066E-05 -2.05602589655E-05 -6.43349526999E-01 +7.31701226953E-01
1.15000000000E+09 -4.91922466054E-01 +8.12315370294E-01 +5.07935624337E-05 +1.77492880414E-05 +2.63040888520E-05 -8.50344857969E-06 -6.38716814294E-01 +7.35409351538E-01
1.15500000000E+09 -4.88117685372E-01 +8.14064132964E-01 +2.53052833668E-05 -4.66713364451E-05 +1.22618695862E-05 +6.67193597172E-06 -6.33962772134E-01 +7.39446928265E-01
1.16000000000E+09 -4.83296907359E-01 +8.15906582652E-01 -1.31692875123E-05 +1.29986541996E-06 +1.44739379127E-06 -4.76701790016E-05 -6.29080327992E-01 +7.43300203579E-01
1.16500000000E+09 -4.77325058903E-01 +8.18602805459E-01 +2.41435176759E-05 -2.06822803678E-05 +4.34762552651E-05 -6.37720755877E-06 -6.23957216452E-01 +7.46902920925E-01
1.17000000000E+09 -4.70070087761E-01 +8.21727161819E-01 +5.46323133768E-06 -1.43745802485E-05 +1.34287565823E-05 -3.09707485844E-05 -6.18606479608E-01 +7.50255532386E-01
1.17500000000E+09 -4.62047488948E-01 +8.25162423022E-01 +2.91096890386E-05 -3.21410298672E-06 +2.43975426338E-05 -4.08849437008E-05 -6.12835755537E-01 +7.53554950503E-01
1.18000000000E+09 -4.53797453069E-01 +8.28818691534E-01 +8.67106981524E-05 -3.43971406395E-05 +5.10433684079E-05 -4.70400212472E-05 -6.07328721249E-01 +7.56835652408E-01
1.18500000000E+09 -4.45683914477E-01 +8.32097267397E-01 +7.77384296276E-05 -6.84488898777E-05 +5.73995430614E-05 -9.87047234166E-05 -6.01321151940E-01 +7.59820482174E-01
1.19000000000E+09 -4.38355646964E-01 +8.34758303153E-01 +2.72865983742E-05 -1.21321091117E-04 +1.11774626622E-04 -6.59782524565E-05 -5.94957385193E-01 +7.62473415242E-01
1.19500000000E+09 -4.32099824117E-01 +8.36865014633E-01 +2.46298453106E-05 -1.05752896708E-04 -2.61233708863E-05 -1.28595327601E-04 -5.88967852327E-01 +7.63764960739E-01
1.20000000000E+09 -4.27009676925E-01 +8.37763585105E-01 -5.11128929360E-05 -1.15554286036E-04 -8.77629406047E-05 -9.79506911244E-05 -5.84533267673E-01 +7.64068031940E-01
1.20500000000E+09 -4.22262219614E-01 +8.38843906088E-01 -1.28523913315E-04 -3.46438204513E-05 -7.95188118423E-05 -6.82053721176E-05 -5.82213736138E-01 +7.64687357658E-01
1.21000000000E+09 -4.17735800844E-01 +8.39853503496E-01 -1.48386867442E-04 +2.12368397218E-06 -1.05183846824E-04 -5.71484569385E-06 -5.80422624612E-01 +7.67827536543E-01
1.21500000000E+09 -4.11991322412E-01 +8.41145177724E-01 -7.91597048948E-05 +3.05443901823E-05 -8.21883617775E-05 +2.86818756854E-05 -5.77722821729E-01 +7.72269952180E-01
1.22000000000E+09 -4.04942748590E-01 +8.43159151377E-01 -2.10146221784E-05 +2.62664980025E-05 -3.50554193973E-05 +6.57437800783E-05 -5.73501116688E-01 +7.77659993308E-01
1.22500000000E+09 -3.96635216151E-01 +8.45671459403E-01 -4.35198655173E-05 +3.42990670261E-05 -2.29669540796E-05 +4.07884197252E-05 -5.68437277229E-01 +7.82734459017E-01
1.23000000000E+09 -3.87268466203E-01 +8.48764395072E-01 +9.52776786804E-07 -4.56891945960E-06 -6.09640315560E-05 +2.67789722351E-05 -5.62647373680E-01 +7.87539797593E-01
1.23500000000E+09 -3.77534682091E-01 +8.52264359013E-01 -4.79854832944E-05 -2.85864410491E-05 +6.34049964030E-06 -3.42796666374E-05 -5.56811972373E-01 +7.91872851172E-01
1.24000000000E+09 -3.67913616158E-01 +8.55975321886E-01 -3.78873462937E-05 +1.13332777846E-05 -3.63778793375E-05 -1.07753009543E-05 -5.50865449104E-01 +7.95773395067E-01
1.24500000000E+09 -3.59217273480E-01 +8.59845185772E-01 -6.88583696390E-05 +1.80063755871E-05 -8.05351366721E-05 -4.38416390214E-05 -5.44459112811E-01 +7.99658584602E-01
1.25000000000E+09 -3.51462770868E-01 +8.63009114429E-01 -2.55051186005E-05 -9.28821995445E-06 -4.02866834359E-05 +1.30747847595E-05 -5.37805378459E-01 +8.03801391762E-01
1.25500000000E+09 -3.44639346964E-01 +8.65156423702E-01 -7.89772291921E-05 +3.01306597799E-05 -6.28655937717E-05 +7.84444601195E-06 -5.30896160398E-01 +8.07998870209E-01
1.26000000000E+09 -3.38659536390E-01 +8.66543469274E-01 -4.74184098802E-05 -4.16279398510E-06 -5.95868743161E-05 +2.65753752993E-05 -5.24130794301E-01 +8.12228930427E-01
1.26500000000E+09 -3.32845092077E-01 +8.67266637424E-01 -3.21859747283E-05 +2.71830947385E-05 -5.36895883164E-05 -1.08392737848E-05 -5.17083592592E-01 +8.16169464828E-01
1.27000000000E+09 -3.26602204067E-01 +8.67766253140E-01 -2.31600505801E-05 -1.75428884733E-05 -4.03847405901E-05 +2.08304378306E-05 -5.10289643363E-01 +8.20077695959E-01
1.27500000000E+09 -3.18831073085E-01 +8.68271761021E-01 -7.95992760544E-05 +1.68265288334E-05 -9.22941535361E-05 -5.96336186578E-05 -5.03257151518E-01 +8.23435887650E-01
1.28000000000E+09 -3.09489217009E-01 +8.69395026715E-01 -1.14475084624E-04 +1.54047564906E-05 -2.44778819429E-05 +1.27627851036E-05 -4.96419936403E-01 +8.26957894993E-01
1.28500000000E+09 -2.98165621469E-01 +8.70781991660E-01 -6.90401870255E-05 +7.78985674073E-06 -6.62512913905E-05 +4.08268570920E-05 -4.88884408364E-01 +8.30624469226E-01
1.29000000000E+09 -2.85970492269E-01 +8.73145282713E-01 -6.85786385841E-05 +3.22967068316E-05 -6.05693318933E-05 +6.22320130426E-05 -4.81313604433E-01 +8.34593511041E-01
1.29500000000E+09 -2.73504897997E-01 +8.76027591501E-01 -6.45404626085E-05 +5.29209853470E-05 -5.32581886558E-05 +5.45519722070E-05 -4.73324090291E-01 +8.38000521916E-01
1.30000000000E+09 -2.61452605092E-01 +8.79534955000E-01 -7.73345963693E-05 +2.85869412817E-05 -5.98051225585E-05 +4.66456878735E-05 -4.65475780272E-01 +8.41630147918E-01
1.30500000000E+09 -2.50685488858E-01 +8.82745542260E-01 -4.26044657027E-05 +4.80722090031E-05 -2.75267771452E-05 +5.47364624865E-05 -4.57406775022E-01 +8.45005515315E-01
1.31000000000E+09 -2.41396949168E-01 +8.85496610006E-01 -5.62125907815E-05 +9.78256723126E-05 -6.21601166577E-05 +6.05550860469E-05 -4.48928853226E-01 +8.48544239132E-01
1.31500000000E+09 -2.33977233079E-01 +8.87238026716E-01 -3.84049362088E-05 +1.06815401997E-04 -7.16825087296E-05 +8.49063835070E-05 -4.40286674735E-01 +8.52114633731E-01
1.32000000000E+09 -2.27873029828E-01 +8.88042247598E-01 -5.11533491607E-05 +9.81290600939E-05 -5.44611372278E-05 +1.22114339812E-04 -4.31084222628E-01 +8.55453686516E-01
1.32500000000E+09 -2.22232687584E-01 +8.87755275488E-01 -4.11809084494E-05 +7.58974356500E-05 +9.92064029416E-06 +1.39708879819E-04 -4.21347401460E-01 +8.58837021511E-01
1.33000000000E+09 -2.15867611453E-01 +8.87280871094E-01 -1.63151479063E-05 +1.11354614921E-04 -2.32700764793E-05 +1.25031395667E-04 -4.11636655063E-01 +8.62146383257E-01
1.33500000000E+09 -2.07708764811E-01 +8.86423352107E-01 +8.72484646241E-06 +1.28355570060E-04 +1.32022397292E-05 +9.07678422287E-05 -4.01605507657E-01 +8.65505482422E-01
1.34000000000E+09 -1.96941799039E-01 +8.85807246134E-01 -4.76251769431E-05 +1.02853322610E-04 +1.53148044187E-05 +5.93364560977E-05 -3.91369244880E-01 +8.68719042465E-01
1.34500000000E+09 -1.83984141559E-01 +8.85400472159E-01 -4.42452993091E-06 +1.33246949757E-04 -2.11223996011E-05 +9.16512888821E-05 -3.80565288861E-01 +8.71969391906E-01
1.35000000000E+09 -1.68723877063E-01 +8.85732708523E-01 +8.27090859057E-06 +1.40909414916E-04 -3.47643113382E-05 +1.42321982557E-04 -3.69331508002E-01 +8.75098621575E-01
1.35500000000E+09 -1.52357549446E-01 +8.86308043946E-01 +7.03609433091E-05 +1.78537017762E-04 +2.57261276937E-05 +1.49693991476E-04 -3.57672975486E-01 +8.78008351479E-01
1.36000000000E+09 -1.35809487289E-01 +8.87075383004E-01 +2.02063150822E-05 +1.51773191604E-04 +4.79009145973E-05 +2.25758777609E-04 -3.45802538340E-01 +8.80713310620E-01
1.36500000000E+09 -1.20103105092E-01 +8.87663589063E-01 +7.91382316116E-05 +2.47891988845E-04 +9.31774679079E-05 +1.86756134087E-04 -3.33522932269E-01 +8.83167816539E-01
1.37000000000E+09 -1.06048401840E-01 +8.87838083362E-01 +1.58125070725E-04 +2.83581105795E-04 +1.60304440839E-04 +2.44352449258E-04 -3.20758942200E-01 +8.85604266840E-01
1.37500000000E+09 -9.40871807243E-02 +8.87394583815E-01 +2.65569508550E-04 +1.70731760475E-04 +2.04321799511E-04 +1.99352814576E-04 -3.07058628030E-01 +8.87758856140E-01
1.38000000000E+09 -8.34442252254E-02 +8.86163248615E-01 +2.21824910220E-04 +1.71333460024E-05 +1.36215686835E-04 +1.18474872360E-04 -2.92453821761E-01 +8.89848324683E-01
1.38500000000E+09 -7.27300992231E-02 +8.84328037677E-01 +2.09022291079E-04 +1.12079560774E-04 +1.77993406588E-04 +1.66786106079E-04 -2.77088425947E-01 +8.91734806805E-01
1.39000000000E+09 -6.13854706944E-02 +8.81538478291E-01 +2.39621384601E-04 +1.41975649277E-04 +2.48067539559E-04 +1.60064046309E-04 -2.61113484198E-01 +8.93092062309E-01
1.39500000000E+09 -4.77726638362E-02 +8.77901725456E-01 +2.87652801081E-04 +1.29085718195E-04 +3.12789596036E-04 +1.73690602713E-04 -2.44497993860E-01 +8.93948867650E-01
1.40000000000E+09 -3.16713189676E-02 +8.73364207134E-01 +4.25404017632E-04 +1.09931807754E-04 +4.37493875376E-04 +8.68446964851E-05 -2.26784810435E-01 +8.94583970733E-01
1.40500000000E+09 -1.34778453624E-02 +8.68307410026E-01 +4.90496082854E-04 +8.13088817482E-06 +4.67698484625E-04 +5.30179704562E-06 -2.07992602119E-01 +8.94281551494E-01
1.41000000000E+09 +6.92136103921E-03 +8.63012199575E-01 +4.62325166010E-04 -2.15859946917E-04 +4.82124786801E-04 -1.50346838921E-04 -1.88147501486E-01 +8.93649468023E-01
1.41500000000E+09 +2.87271243651E-02 +8.57415276373E-01 +4.04441826102E-04 -2.28765167957E-04 +4.37518597044E-04 -2.00046778364E-04 -1.66629042401E-01 +8.92309667588E-01
1.42000000000E+09 +5.14062036923E-02 +8.51540392020E-01 +4.19365061322E-04 -3.51588807541E-04 +4.28739684776E-04 -3.84979466166E-04 -1.43889411794E-01 +8.89682111175E-01
1.42500000000E+09 +7.39870049798E-02 +8.44276424884E-01 +2.88721819363E-04 -3.80846537673E-04 +3.23110905970E-04 -4.28296760806E-04 -1.20418499434E-01 +8.86396602520E-01
1.43000000000E+09 +9.54003527950E-02 +8.35538800730E-01 +2.86895518000E-04 -3.70343746791E-04 +2.89676850288E-04 -3.77174176183E-04 -9.52737734849E-02 +8.81896330091E-01
1.43500000000E+09 +1.16041774474E-01 +8.25090474660E-01 +3.60124335289E-04 -4.42085098362E-04 +2.91336568470E-04 -5.04732926236E-04 -6.89192073705E-02 +8.75502077002E-01
1.44000000000E+09 +1.36310071073E-01 +8.13062151155E-01 +3.09522974899E-04 -6.10673492446E-04 +2.79527107931E-04 -6.36855392102E-04 -4.08301739628E-02 +8.67261334012E-01
1.44500000000E+09 +1.57581728515E-01 +7.98575562521E-01 +1.37801818339E-04 -8.30532803986E-04 +1.33993407731E-04 -9.36329756672E-04 -1.06542191603E-02 +8.56071663779E-01
1.45000000000E+09 +1.80678744133E-01 +7.80835348253E-01 -2.11087141583E-04 -8.21965065347E-04 -2.43911122855E-04 -8.34586205394E-04 +2.14229895222E-02 +8.41924854383E-01
1.45500000000E+09 +2.05324282413E-01 +7.59784548982E-01 -4.00585716849E-04 -6.77660611251E-04 -4.57952267461E-04 -6.49204477612E-04 +5.51142320093E-02 +8.24451712187E-01
1.46000000000E+09 +2.32947091084E-01 +7.35517307553E-01 -5.57004268252E-04 -5.63669357618E-04 -6.07776043408E-04 -4.77403486799E-04 +9.01044252485E-02 +8.03203791188E-01
1.46500000000E+09 +2.62748345657E-01 +7.06810749154E-01 -5.17074520087E-04 -2.03577474333E-04 -4.86395499922E-04 -1.99925551772E-04 +1.26672444569E-01 +7.76850567347E-01
1.47000000000E+09 +2.93432061346E-01 +6.73907191948E-01 -8.34531782174E-05 -3.49991076953E-04 -8.82084703260E-05 -2.89285854573E-04 +1.64554917428E-01 +7.43843601265E-01
1.47500000000E+09 +3.23955717354E-01 +6.35733918572E-01 -4.10448548396E-04 -7.16777047365E-04 -3.61389523576E-04 -7.23725978771E-04 +2.02869120708E-01 +7.03247898079E-01
1.48000000000E+09 +3.51588821511E-01 +5.91903686645E-01 -7.50179782319E-04 -5.50318413415E-04 -8.01071081136E-04 -6.10136228339E-04 +2.40455947888E-01 +6.53858729682E-01
1.48500000000E+09 +3.75405749240E-01 +5.42402047478E-01 -6.78735951021E-04 -4.71242829897E-04 -7.24618216616E-04 -4.38218357696E-04 +2.75516908052E-01 +5.94780275056E-01
1.49000000000E+09 +3.94280240843E-01 +4.85338238910E-01 -1.00322107502E-03 -3.52785792209E-04 -1.05456738658E-03 -3.29913761597E-04 +3.04891133560E-01 +5.25273127424E-01
1.49500000000E+09 +4.06268338075E-01 +4.20418293276E-01 -1.17503939858E-03 -2.39436214078E-04 -1.11621664172E-03 -1.58856701938E-04 +3.26002368562E-01 +4.44836625394E-01
1.50000000000E+09 +4.09765047048E-01 +3.45420048109E-01 -1.27637359854E-03 +2.78695755298E-04 -1.16077873776E-03 +3.12523434107E-04 +3.33133959484E-01 +3.53102252333E-01
1.50500000000E+09 +4.00406081447E-01 +2.61428510990E-01 -1.03683114391E-03 +5.52261163272E-04 -9.95787767219E-04 +5.24225452444E-04 +3.21452295118E-01 +2.53418387524E-01
1.51000000000E+09 +3.75477426400E-01 +1.71805421065E-01 -8.42192230196E-04 +4.27239189471E-04 -8.06251289987E-04 +3.53346280582E-04 +2.88495001487E-01 +1.51821343190E-01
1.51500000000E+09 +3.33466890572E-01 +7.97569538030E-02 -1.24699750279E-03 +5.01234237695E-04 -1.19068542087E-03 +4.26191620284E-04 +2.34238549349E-01 +5.29696942811E-02
1.52000000000E+09 +2.69817556007E-01 -7.53799026390E-03 -1.41422401514E-03 +1.09004477538E-03 -1.41895653107E-03 +1.03899433123E-03 +1.56506897126E-01 -3.61090841646E-02
1.52500000000E+09 +1.88815348615E-01 -8.07061132574E-02 -9.19763343069E-04 +1.98523927265E-03 -9.72232745153E-04 +1.89042138783E-03 +5.89148475678E-02 -1.05052559867E-01
1.53000000000E+09 +9.19305314317E-02 -1.36014894390E-01 -2.79452188161E-04 +2.18445442739E-03 -3.17550174136E-04 +2.13044067062E-03 -4.87161427888E-02 -1.50550610011E-01
1.53500000000E+09 -1.54755622887E-02 -1.67485985745E-01 +1.14272223005E-03 +2.10207150663E-03 +1.10018377084E-03 +2.12135646349E-03 -1.61953653123E-01 -1.72412840551E-01
1.54000000000E+09 -1.27340413170E-01 -1.71422356920E-01 +1.10317751515E-03 +1.24001818623E-03 +1.06552238307E-03 +1.25680385396E-03 -2.73920460142E-01 -1.69003322365E-01
1.54500000000E+09 -2.34447539437E-01 -1.50286710224E-01 +1.20629630706E-03 +9.37247318739E-04 +1.20288638804E-03 +1.00812464867E-03 -3.74356000625E-01 -1.44585769486E-01
1.55000000000E+09 -3.31087376799E-01 -1.09763571806E-01 +1.23626174574E-03 +5.00519841337E-04 +1.20537977814E-03 +5.39539273229E-04 -4.61549031930E-01 -1.05486857859E-01
1.55500000000E+09 -4.13381649575E-01 -5.57991491075E-02 +1.03887445770E-03 +3.57086788715E-04 +1.05857393374E-03 +4.14974637508E-04 -5.32934498266E-01 -5.61206547091E-02
1.56000000000E+09 -4.80084046684E-01 +4.03890290907E-03 +1.28171420640E-03 +5.98112266508E-04 +1.33662044038E-03 +6.82613670806E-04 -5.89699690768E-01 -1.67118063265E-03
1.56500000000E+09 -5.32536278857E-01 +6.51515882492E-02 +1.69475297729E-03 -1.65594265696E-05 +1.78867143634E-03 +9.10176411079E-05 -6.33818764718E-01 +5.47776863390E-02
1.57000000000E+09 -5.72807488203E-01 +1.24641744351E-01 +1.69654427589E-03 -9.28866142472E-04 +1.87828022698E-03 -1.01969025143E-03 -6.66926769571E-01 +1.10285012284E-01
