# Hz S RI R 50
! CMT, C1220, 16058040, 17.2.0/1
! Date: 14/08/2018 11:57:14
! Data: Format (Calibration Info)
! Freq                      S11: Re/Im (F2)                       S21: Re/Im (F2)                       S12: Re/Im (F2)                       S22: Re/Im (F2)            
1.00000000000E+09 -6.44324999844E-01 +7.11793528793E-01 -2.49630486120E-05 +2.07319352086E-05 -4.19678543613E-05 -2.37406388882E-05 -7.49791526327E-01 +6.27132219879E-01
1.00500000000E+09 -6.37257912029E-01 +7.16627643994E-01 -4.38154002644E-05 -1.88600215262E-05 -4.56428885118E-05 +1.77619148434E-06 -7.46349309148E-01 +6.31295092848E-01
1.01000000000E+09 -6.31362753715E-01 +7.21149530602E-01 +9.18742208343E-06 -2.47353251332E-05 -5.33423131694E-05 -5.31650728945E-06 -7.42537663241E-01 +6.34941095556E-01
1.01500000000E+09 -6.26955658831E-01 +7.24793518189E-01 -3.11724462173E-05 -4.09182595646E-05 -4.20384430119E-05 -3.78328979259E-05 -7.39247581602E-01 +6.38704897168E-01
1.02000000000E+09 -6.23924778376E-01 +7.28031016754E-01 -2.85459177345E-05 -3.30876128796E-05 -4.38928385534E-05 +2.56609767940E-05 -7.35735373592E-01 +6.42266052676E-01
1.02500000000E+09 -6.21794424636E-01 +7.30625493953E-01 -1.88910728553E-05 -2.25321568270E-05 -2.27461604073E-05 -1.21423176072E-05 -7.32843740534E-01 +6.46006192388E-01
1.03000000000E+09 -6.20253447398E-01 +7.33101942979E-01 -5.87959613053E-05 +2.52920767444E-05 -4.83104399921E-05 +3.08533682936E-05 -7.29448325015E-01 +6.49725153792E-01
1.03500000000E+09 -6.18090690576E-01 +7.35329279635E-01 -5.59211665329E-05 +5.13784185518E-07 -3.43375343744E-05 -7.14498994264E-06 -7.25327158806E-01 +6.53774173070E-01
1.04000000000E+09 -6.14297668083E-01 +7.38337379797E-01 -8.17103785546E-05 +1.08946788838E-05 +3.72912405249E-06 +5.95853760285E-05 -7.21678653855E-01 +6.57358545459E-01
1.04500000000E+09 -6.09475878455E-01 +7.41754153418E-01 -1.44489553543E-05 +2.53706401221E-05 -5.89423845368E-05 -3.73014703390E-05 -7.18245413608E-01 +6.60915967841E-01
1.05000000000E+09 -6.02440093554E-01 +7.45805480474E-01 -3.28073190467E-05 +8.45079335351E-05 -3.57098423066E-05 -1.95523509009E-05 -7.14704943743E-01 +6.64231020309E-01
1.05500000000E+09 -5.94644865796E-01 +7.50524073710E-01 -2.08966637112E-05 +7.00110498964E-05 +5.08624703995E-07 +7.50261920962E-05 -7.11455445173E-01 +6.67868533010E-01
1.06000000000E+09 -5.86130822427E-01 +7.55260356495E-01 -4.08830808145E-05 +4.38958517968E-05 -8.36495576229E-05 +3.32878465687E-05 -7.08175033784E-01 +6.71633800229E-01
1.06500000000E+09 -5.78150699063E-01 +7.60202966219E-01 -1.90277975365E-05 +3.87517520960E-05 -7.07938457806E-06 +9.52052147107E-05 -7.04403548471E-01 +6.75407694163E-01
1.07000000000E+09 -5.71195106816E-01 +7.64266728915E-01 -4.86372320749E-05 +3.21789104838E-05 +1.67614969280E-06 +4.38349479048E-05 -7.00408712952E-01 +6.79085792967E-01
1.07500000000E+09 -5.65803554416E-01 +7.68021010350E-01 -2.20908073760E-05 +5.77367609949E-05 +1.69496382056E-05 +4.42799149462E-05 -6.95988010577E-01 +6.82704320721E-01
1.08000000000E+09 -5.62168267414E-01 +7.71024063209E-01 +2.18172231104E-05 +6.87457554882E-05 -2.34509885164E-05 +5.93253579920E-05 -6.92146606627E-01 +6.86508742979E-01
1.08500000000E+09 -5.59735033859E-01 +7.73568327209E-01 -2.54489875559E-05 +3.76681985983E-05 +1.97258286804E-05 +7.27480603684E-05 -6.88158991655E-01 +6.90198454604E-01
1.09000000000E+09 -5.57708012717E-01 +7.75675932214E-01 -1.09211086471E-05 +7.79658737776E-05 +2.18195781627E-06 +8.08679304704E-05 -6.84162988341E-01 +6.94184905059E-01
1.09500000000E+09 -5.55801888103E-01 +7.77682254052E-01 +2.55119971792E-05 +6.33779381796E-05 +2.91150182820E-05 +4.68431987720E-05 -6.80288890625E-01 +6.97960921289E-01
1.10000000000E+09 -5.52665651098E-01 +7.79930696546E-01 -1.92343748949E-05 +5.41496051637E-05 +1.46965470231E-05 +8.35984135543E-05 -6.76383311662E-01 +7.01762360369E-01
1.10500000000E+09 -5.48237349982E-01 +7.82556957373E-01 +5.69578168378E-05 +5.09225291016E-05 +4.06581138413E-05 +8.85400550013E-05 -6.72098504959E-01 +7.05432622319E-01
1.11000000000E+09 -5.42077485093E-01 +7.85819815269E-01 +3.02182058929E-05 +9.99265116768E-05 +7.43725006317E-05 +1.09558208493E-04 -6.67785780108E-01 +7.08664297961E-01
1.11500000000E+09 -5.34595307407E-01 +7.89616539167E-01 +3.22011614612E-05 +5.42723923135E-05 +1.00966946008E-05 +5.99448669317E-05 -6.63754137595E-01 +7.12004527595E-01
1.12000000000E+09 -5.26684787148E-01 +7.93592717676E-01 +8.26876106485E-06 +4.26368792549E-05 +2.25274859772E-06 +1.47149827788E-04 -6.59496817147E-01 +7.15672176139E-01
1.12500000000E+09 -5.18666613485E-01 +7.97557357311E-01 +2.91283978728E-05 +8.28431431711E-05 +9.44328022931E-05 +1.19607631260E-04 -6.55236061133E-01 +7.19759373412E-01
1.13000000000E+09 -5.11622416267E-01 +8.01172340160E-01 +5.89023677462E-05 +3.95676264591E-05 +7.53285672773E-05 +4.86731711434E-05 -6.50915895717E-01 +7.23475692430E-01
1.13500000000E+09 -5.05618450567E-01 +8.04143506304E-01 +5.13037948996E-05 +5.77758961622E-05 +7.09321957512E-05 +4.67815463634E-05 -6.46398024974E-01 +7.27302456846E-01
1.14000000000E+09 -5.00909323083E-01 +8.06956964823E-01 +6.00556348415E-05 +6.84693610678E-05 +6.89668784075E-05 +8.52522598310E-05 -6.41690496795E-01 +7.30553395425E-01
1.14500000000E+09 -4.97281761589E-01 +8.08907009079E-01 +1.13826172587E-04 +4.16316451662E-05 +6.89117916588E-05 +9.47593095043E-05 -6.37030103448E-01 +7.34064918686E-01
1.15000000000E+09 -4.93756704053E-01 +8.10827388131E-01 +8.47536724662E-05 +3.58431051998E-05 +1.08633536963E-04 +7.02171719910E-05 -6.32360479228E-01 +7.37858577726E-01
1.15500000000E+09 -4.90250052199E-01 +8.12817787370E-01 +1.40314558094E-04 +1.99753257362E-05 +1.20193009003E-04 +6.02391791255E-05 -6.27434954488E-01 +7.41683356246E-01
1.16000000000E+09 -4.85553227580E-01 +8.14846749217E-01 +1.14149082591E-04 +3.46171905998E-05 +1.04812841513E-04 +3.54011207702E-05 -6.22600608935E-01 +7.45405712538E-01
1.16500000000E+09 -4.79547203413E-01 +8.17695446704E-01 +1.17748464492E-04 +3.61507474639E-05 +1.73833693303E-04 +5.26974356534E-05 -6.17518981781E-01 +7.49069016394E-01
1.17000000000E+09 -4.72323913372E-01 +8.20912205669E-01 +1.50163441866E-04 +2.21623400063E-05 +1.25101057735E-04 +4.51619274162E-05 -6.12067814220E-01 +7.52345234588E-01
1.17500000000E+09 -4.63969922424E-01 +8.24300530001E-01 +1.62550661728E-04 +2.69443810081E-05 +1.65464054326E-04 +4.59822419253E-05 -6.06227214261E-01 +7.55572150111E-01
1.18000000000E+09 -4.55550277970E-01 +8.27750087525E-01 +1.74886240551E-04 +2.34753834465E-05 +2.01550033549E-04 +5.64277695910E-05 -6.00807767184E-01 +7.58710407624E-01
1.18500000000E+09 -4.47306891424E-01 +8.30962233892E-01 +1.43615277001E-04 +2.05720803902E-05 +2.26685539860E-04 -2.28540387615E-06 -5.94843411031E-01 +7.61748822209E-01
1.19000000000E+09 -4.40040929976E-01 +8.33582668612E-01 +1.87699673885E-04 +5.00186085149E-05 +2.49524374208E-04 -3.12644882548E-05 -5.88410127003E-01 +7.64392059391E-01
1.19500000000E+09 -4.34083015191E-01 +8.35656078141E-01 +2.76221979799E-04 -4.43424593206E-05 +2.68158834040E-04 -4.12380989412E-05 -5.82641095688E-01 +7.65616845513E-01
1.20000000000E+09 -4.29551034936E-01 +8.36748069734E-01 +2.21116352984E-04 -1.37785661322E-04 +2.63894513738E-04 -1.27481300350E-04 -5.78115934366E-01 +7.65728412978E-01
1.20500000000E+09 -4.25595565590E-01 +8.38190277650E-01 +1.87776132040E-04 -1.56503084417E-04 +2.49379281400E-04 -2.48559590721E-04 -5.75714236684E-01 +7.66480868725E-01
1.21000000000E+09 -4.21765391300E-01 +8.39699220522E-01 +1.79242318590E-04 -1.97300873807E-04 +1.11074465579E-04 -1.98630717196E-04 -5.74050061757E-01 +7.69482656628E-01
1.21500000000E+09 -4.16698689549E-01 +8.41381852936E-01 +1.54448190259E-04 -1.93385409175E-04 +1.60641928615E-04 -1.62854232838E-04 -5.71305756089E-01 +7.73937458705E-01
1.22000000000E+09 -4.10059862734E-01 +8.43576117776E-01 +1.28152945928E-04 -1.82142511123E-04 +1.21819301480E-04 -1.96093856802E-04 -5.66895437204E-01 +7.79289166152E-01
1.22500000000E+09 -4.01780133723E-01 +8.46224469318E-01 +1.16377614089E-04 -1.92491323672E-04 +9.88055579269E-05 -2.15881806532E-04 -5.61784795747E-01 +7.84417464192E-01
1.23000000000E+09 -3.92393569042E-01 +8.49527910318E-01 +1.58127174305E-04 -2.51054394677E-04 +1.07223649177E-04 -2.48414434876E-04 -5.56041877942E-01 +7.89020753231E-01
1.23500000000E+09 -3.82159311108E-01 +8.53044656723E-01 +1.17914884004E-04 -2.05940515689E-04 +1.09275543953E-04 -2.31075036247E-04 -5.50215855006E-01 +7.93279067647E-01
1.24000000000E+09 -3.71887153134E-01 +8.56659960771E-01 +9.40594077070E-05 -2.13624216241E-04 +6.46879373335E-05 -2.83303853343E-04 -5.44235895175E-01 +7.97214875679E-01
1.24500000000E+09 -3.62659702057E-01 +8.60453188568E-01 +9.11760708893E-05 -3.07296283005E-04 +9.50686011770E-05 -2.47978356614E-04 -5.37864385396E-01 +8.00996951031E-01
1.25000000000E+09 -3.54520789599E-01 +8.63667152025E-01 +8.16024863319E-05 -2.92999508863E-04 +1.13492377650E-04 -2.83214083061E-04 -5.31189034673E-01 +8.05263502423E-01
1.25500000000E+09 -3.47864567590E-01 +8.66163266975E-01 +2.29285514709E-05 -3.56944064085E-04 +8.15913534145E-06 -3.86994164979E-04 -5.24405170981E-01 +8.09219614326E-01
1.26000000000E+09 -3.42133779164E-01 +8.68125123826E-01 +1.41734327188E-05 -3.34045261155E-04 +4.16580179226E-06 -4.18458584825E-04 -5.17675427113E-01 +8.13534648349E-01
1.26500000000E+09 -3.37091666753E-01 +8.69631871524E-01 -4.36234252269E-05 -3.33067919857E-04 -3.01663494978E-05 -3.91029693798E-04 -5.10700902898E-01 +8.17204798934E-01
1.27000000000E+09 -3.31856169490E-01 +8.70903878257E-01 -7.57987484078E-05 -4.19702941885E-04 -7.06759873101E-05 -4.35447926095E-04 -5.03774609288E-01 +8.21157408879E-01
1.27500000000E+09 -3.25327209213E-01 +8.72243624397E-01 -1.04805281121E-04 -4.24243505466E-04 -1.17559142479E-04 -3.96528956441E-04 -4.96901653400E-01 +8.24719074666E-01
1.28000000000E+09 -3.16996982733E-01 +8.74018911531E-01 -1.85470080675E-04 -3.88750984830E-04 -1.81037316181E-04 -3.64102513564E-04 -4.89822038764E-01 +8.28079727132E-01
1.28500000000E+09 -3.06694142948E-01 +8.76057967307E-01 -2.42721796660E-04 -3.43578872210E-04 -2.83134872749E-04 -4.37954870348E-04 -4.82417000974E-01 +8.31714777116E-01
1.29000000000E+09 -2.94940089167E-01 +8.78485256406E-01 -2.28256303597E-04 -2.97667190709E-04 -3.14151509226E-04 -4.05531958550E-04 -4.74833408460E-01 +8.35519021382E-01
1.29500000000E+09 -2.82423597314E-01 +8.81424427444E-01 -2.62775843649E-04 -3.76057152406E-04 -3.21840663868E-04 -3.33978577553E-04 -4.67015097300E-01 +8.38967933935E-01
1.30000000000E+09 -2.70243809761E-01 +8.84424028918E-01 -3.30530350192E-04 -4.16021458336E-04 -3.63381411209E-04 -3.39498344544E-04 -4.59172335619E-01 +8.42499262005E-01
1.30500000000E+09 -2.59119885214E-01 +8.87377240868E-01 -4.56409379578E-04 -3.57374445936E-04 -4.49559151256E-04 -2.98109032065E-04 -4.51115871135E-01 +8.46025766507E-01
1.31000000000E+09 -2.49384450307E-01 +8.89873168752E-01 -5.24196702649E-04 -2.84513771935E-04 -4.39315038025E-04 -2.77538415934E-04 -4.42674957557E-01 +8.49462863866E-01
1.31500000000E+09 -2.41605124632E-01 +8.91776727053E-01 -4.86067972374E-04 -2.20624466600E-04 -4.77719791398E-04 -2.66120235547E-04 -4.33917393634E-01 +8.52645689518E-01
1.32000000000E+09 -2.35314493490E-01 +8.93043806176E-01 -4.96633590952E-04 -1.59547594984E-04 -5.71711206034E-04 -2.87321263325E-04 -4.24656050670E-01 +8.56122115117E-01
1.32500000000E+09 -2.29426783494E-01 +8.93578657395E-01 -5.08808703660E-04 -1.91469040793E-04 -5.84513751057E-04 -2.09291359722E-04 -4.15079598262E-01 +8.59504555723E-01
1.33000000000E+09 -2.23036074992E-01 +8.93968442066E-01 -5.98047362364E-04 -2.05262710111E-04 -6.13860695489E-04 -1.97180406168E-04 -4.05364786788E-01 +8.62802384191E-01
1.33500000000E+09 -2.14820336218E-01 +8.93920789082E-01 -6.54275965350E-04 -1.62964704157E-04 -6.73791686628E-04 -1.25883042161E-04 -3.95372700784E-01 +8.66111723953E-01
1.34000000000E+09 -2.04128467337E-01 +8.94064973128E-01 -7.32929194598E-04 -1.04207748874E-04 -6.83279008071E-04 -3.84909540848E-05 -3.85176260751E-01 +8.69338718366E-01
1.34500000000E+09 -1.90837046527E-01 +8.93884093486E-01 -7.75019212471E-04 -5.10144794887E-05 -7.63578283406E-04 -3.10321946200E-05 -3.74212553605E-01 +8.72563565138E-01
1.35000000000E+09 -1.75434804634E-01 +8.93798990404E-01 -8.00579399437E-04 +6.32406999003E-05 -8.36518105539E-04 -4.49703693074E-06 -3.63141449075E-01 +8.75689622948E-01
1.35500000000E+09 -1.58853835547E-01 +8.93762660271E-01 -8.53548267253E-04 +1.49060180668E-04 -8.67827116597E-04 +1.47039716805E-04 -3.51433385739E-01 +8.78351999904E-01
1.36000000000E+09 -1.42193972254E-01 +8.94148485307E-01 -8.86117524670E-04 +2.09515917166E-04 -8.49945127250E-04 +2.37409792751E-04 -3.39547111900E-01 +8.81084913302E-01
1.36500000000E+09 -1.26162193588E-01 +8.94607071740E-01 -9.07527507483E-04 +3.18318325880E-04 -8.62747664267E-04 +2.58600520997E-04 -3.27413479445E-01 +8.83411633512E-01
1.37000000000E+09 -1.11648974930E-01 +8.94726569959E-01 -9.85537364786E-04 +3.93882766855E-04 -9.58142036535E-04 +3.68954757224E-04 -3.14603064676E-01 +8.85829671956E-01
1.37500000000E+09 -9.91639883539E-02 +8.94763116476E-01 -1.02001026305E-03 +5.49705777992E-04 -1.06982419841E-03 +4.24314558814E-04 -3.00846902822E-01 +8.88031272684E-01
1.38000000000E+09 -8.79225598951E-02 +8.94301203391E-01 -1.01811167931E-03 +7.30767533992E-04 -1.19890522380E-03 +5.96569127924E-04 -2.86190475346E-01 +8.89910172556E-01
1.38500000000E+09 -7.69486967752E-02 +8.93358554350E-01 -9.86680271539E-04 +9.11017079152E-04 -1.14537615508E-03 +9.41328548240E-04 -2.70972751912E-01 +8.91680693961E-01
1.39000000000E+09 -6.53036133037E-02 +8.91731880686E-01 -8.96195542459E-04 +1.00797071343E-03 -1.01621029569E-03 +1.19416122441E-03 -2.55093728069E-01 +8.93079913832E-01
1.39500000000E+09 -5.17752970393E-02 +8.89175521299E-01 -9.25067390330E-04 +1.14754904415E-03 -9.23351251372E-04 +1.35511618548E-03 -2.38260628710E-01 +8.93808110341E-01
1.40000000000E+09 -3.56182640470E-02 +8.85539252463E-01 -8.88032417797E-04 +1.35175603296E-03 -7.72900581721E-04 +1.46199430095E-03 -2.20772600949E-01 +8.94389015705E-01
1.40500000000E+09 -1.70647535000E-02 +8.80956828452E-01 -7.67394945359E-04 +1.58689540504E-03 -6.26501976268E-04 +1.55815883668E-03 -2.02065153136E-01 +8.94157277111E-01
1.41000000000E+09 +3.82528551967E-03 +8.75436770693E-01 -6.06007319227E-04 +1.72000073945E-03 -6.33687409479E-04 +1.68860575986E-03 -1.82156856483E-01 +8.93263562975E-01
1.41500000000E+09 +2.58806452600E-02 +8.69272566763E-01 -4.84220164201E-04 +1.89959020900E-03 -5.44336737077E-04 +1.93692524437E-03 -1.60669896421E-01 +8.92047400432E-01
1.42000000000E+09 +4.87809481254E-02 +8.62681271620E-01 -3.73074816959E-04 +1.99661860651E-03 -4.57091614377E-04 +2.21189269523E-03 -1.37887552095E-01 +8.89516000517E-01
1.42500000000E+09 +7.12949176354E-02 +8.55342381091E-01 -2.95062297236E-04 +2.36899160483E-03 -2.67704873025E-04 +2.66270305023E-03 -1.14087017180E-01 +8.85828106608E-01
1.43000000000E+09 +9.28940981990E-02 +8.46989495217E-01 +1.18710812299E-05 +2.80933831574E-03 +2.63807263810E-04 +3.03520817812E-03 -8.91802089818E-02 +8.81012745407E-01
1.43500000000E+09 +1.13986975158E-01 +8.37580188071E-01 +5.95998135573E-04 +3.03643055873E-03 +8.34834503273E-04 +3.06530247911E-03 -6.27717499312E-02 +8.74308543440E-01
1.44000000000E+09 +1.35074367138E-01 +8.26917666284E-01 +9.94849749263E-04 +3.10912612782E-03 +1.24522479897E-03 +3.05891353823E-03 -3.48572672753E-02 +8.65767080955E-01
1.44500000000E+09 +1.57570340075E-01 +8.13694527516E-01 +1.55177563441E-03 +3.13496205741E-03 +1.74026449661E-03 +3.07160903622E-03 -4.55507188346E-03 +8.54349043265E-01
1.45000000000E+09 +1.81635998293E-01 +7.96973539198E-01 +1.75439667123E-03 +3.14317955955E-03 +2.04209884398E-03 +3.09640316720E-03 +2.73882115913E-02 +8.39606773732E-01
1.45500000000E+09 +2.07793207955E-01 +7.76320403609E-01 +2.18042291872E-03 +3.48167020293E-03 +2.49299747171E-03 +3.29609107003E-03 +6.02688397267E-02 +8.21839237156E-01
1.46000000000E+09 +2.36287482898E-01 +7.51035699433E-01 +3.06834658323E-03 +3.92851911245E-03 +3.30276358168E-03 +3.48375683444E-03 +9.51015769540E-02 +8.00636721911E-01
1.46500000000E+09 +2.66850120738E-01 +7.21228768826E-01 +4.32561674213E-03 +4.07110968724E-03 +4.25640070125E-03 +3.51571844510E-03 +1.31829579924E-01 +7.73737239470E-01
1.47000000000E+09 +2.98429305234E-01 +6.85847500268E-01 +6.08049570039E-03 +3.67354301817E-03 +5.61192275389E-03 +3.34041481630E-03 +1.69018944512E-01 +7.39685439283E-01
1.47500000000E+09 +3.29519763761E-01 +6.44836234191E-01 +7.30938605333E-03 +2.35083925856E-03 +6.95440401575E-03 +2.52434499564E-03 +2.05900522721E-01 +6.98691618887E-01
1.48000000000E+09 +3.58146262911E-01 +5.97309882785E-01 +8.13036586309E-03 +1.21744161847E-03 +8.16760626437E-03 +1.48963297559E-03 +2.42102955217E-01 +6.49156629208E-01
1.48500000000E+09 +3.81965413244E-01 +5.43533421223E-01 +9.14684441707E-03 +1.48694761830E-04 +9.41708452893E-03 -1.16648603685E-05 +2.75905027261E-01 +5.90911336134E-01
1.49000000000E+09 +3.99739013165E-01 +4.83039414633E-01 +1.07235956448E-02 -1.53205201685E-03 +1.06390155423E-02 -2.05145638023E-03 +3.05235612029E-01 +5.21744222245E-01
1.49500000000E+09 +4.09864361586E-01 +4.15864738090E-01 +1.18318038296E-02 -4.46507339671E-03 +1.11276179241E-02 -4.72920775271E-03 +3.23935527905E-01 +4.40533916583E-01
1.50000000000E+09 +4.10411324953E-01 +3.39657050483E-01 +1.22931589196E-02 -8.09342484319E-03 +1.15338860504E-02 -7.63840673350E-03 +3.28202727304E-01 +3.51756389115E-01
1.50500000000E+09 +3.98456790297E-01 +2.56254662462E-01 +1.11224429530E-02 -1.29814509794E-02 +1.09761401991E-02 -1.20684875131E-02 +3.17331908107E-01 +2.55830834484E-01
1.51000000000E+09 +3.70036340837E-01 +1.66494527321E-01 +7.83288818397E-03 -1.74877854034E-02 +8.37710306409E-03 -1.69908606478E-02 +2.86847677647E-01 +1.54886786039E-01
1.51500000000E+09 +3.22648758392E-01 +7.69811591598E-02 +1.90243964831E-03 -2.07347206276E-02 +2.45067226739E-03 -2.08165252699E-02 +2.32140805119E-01 +5.59546271838E-02
1.52000000000E+09 +2.56227179327E-01 -6.82507854133E-03 -5.10607261410E-03 -2.11282869273E-02 -4.82168707662E-03 -2.13773091023E-02 +1.55195396315E-01 -3.18100481099E-02
1.52500000000E+09 +1.70581073938E-01 -7.79667323684E-02 -1.09834599039E-02 -1.79257341777E-02 -1.09644675019E-02 -1.81696004437E-02 +5.87655544830E-02 -1.00962745274E-01
1.53000000000E+09 +7.10759865749E-02 -1.27825594968E-01 -1.46690492432E-02 -1.47300737011E-02 -1.47064790004E-02 -1.48691126554E-02 -5.02504540114E-02 -1.46892594696E-01
1.53500000000E+09 -3.57686239576E-02 -1.53853281695E-01 -1.84691484817E-02 -1.09366659470E-02 -1.84866846434E-02 -1.08879329480E-02 -1.64362344141E-01 -1.65635679674E-01
1.54000000000E+09 -1.43995924154E-01 -1.56031221183E-01 -2.11316300925E-02 -5.09328099370E-03 -2.09128807973E-02 -5.10987777056E-03 -2.74481612329E-01 -1.60882086956E-01
1.54500000000E+09 -2.48561847835E-01 -1.34369918605E-01 -2.13905036172E-02 +1.72715042074E-03 -2.10968215133E-02 +1.29717357375E-03 -3.73277981248E-01 -1.34594956642E-01
1.55000000000E+09 -3.42829143416E-01 -9.24546534657E-02 -1.84426514957E-02 +7.37820416360E-03 -1.87223878443E-02 +6.64975622205E-03 -4.58034752820E-01 -9.55718785755E-02
1.55500000000E+09 -4.20791925558E-01 -3.60319445138E-02 -1.47520444184E-02 +1.11498772851E-02 -1.55565585062E-02 +1.07379450959E-02 -5.27707415063E-01 -4.68572102546E-02
1.56000000000E+09 -4.81712949831E-01 +2.45837488211E-02 -1.00501647957E-02 +1.34844618204E-02 -1.09403856797E-02 +1.37864194924E-02 -5.83757372020E-01 +6.98504165331E-03
1.56500000000E+09 -5.29853808766E-01 +8.41815195006E-02 -5.41636831173E-03 +1.35109140073E-02 -5.95342773177E-03 +1.42172083252E-02 -6.26352513159E-01 +6.22324595870E-02
1.57000000000E+09 -5.68363126574E-01 +1.42688186594E-01 -2.42242395606E-03 +1.21197143024E-02 -2.50503383467E-03 +1.30219304435E-02 -6.59148200633E-01 +1.17138882546E-01
