# Hz S RI R 50
! CMT, C1220, 16058040, 17.2.0/1
! Date: 14/08/2018 12:20:11
! Data: Format (Calibration Info)
! Freq                      S11: Re/Im (F2)                       S21: Re/Im (F2)                       S12: Re/Im (F2)                       S22: Re/Im (F2)            
1.00000000000E+09 -6.43440721711E-01 +7.16010736379E-01 -3.90506885184E-05 +7.30731237018E-06 +8.61436247179E-06 -3.05145100291E-05 -7.48067554503E-01 +6.24080229425E-01
1.00500000000E+09 -6.36132867648E-01 +7.21222943481E-01 -2.33591303801E-05 +2.75763971810E-05 -3.46788958186E-05 +9.21487925203E-06 -7.44440548866E-01 +6.28033821082E-01
1.01000000000E+09 -6.30100761409E-01 +7.25901587934E-01 +1.92567163467E-05 -2.86717488230E-05 +4.25504469481E-05 -1.24836313193E-05 -7.40834746473E-01 +6.31820487566E-01
1.01500000000E+09 -6.25956539679E-01 +7.29650544939E-01 +7.48798249325E-06 +2.92227689761E-05 +5.46608570395E-06 -1.25838478337E-05 -7.37623662307E-01 +6.35496780375E-01
1.02000000000E+09 -6.23420970805E-01 +7.32741493308E-01 +4.92531247835E-05 -3.32471227946E-05 -4.96000421208E-05 +8.64799902653E-06 -7.34151513937E-01 +6.38941694906E-01
1.02500000000E+09 -6.21749654959E-01 +7.35251777251E-01 +6.39069961225E-06 -2.97566399359E-05 -2.57627589565E-06 +4.43560504764E-05 -7.31347143614E-01 +6.42427580847E-01
1.03000000000E+09 -6.20720980352E-01 +7.37598426622E-01 +1.52061456897E-05 +3.25866845449E-05 +6.16629540422E-06 +4.03093765959E-06 -7.27778813681E-01 +6.46340247062E-01
1.03500000000E+09 -6.18612267837E-01 +7.39881075915E-01 -1.94598834651E-05 +1.03440723396E-05 +1.34471299174E-05 -7.77776924384E-06 -7.24028591128E-01 +6.50341893110E-01
1.04000000000E+09 -6.15238169911E-01 +7.42592211359E-01 -8.08829341440E-06 +5.79163578850E-05 -3.30822628842E-05 -3.26782284873E-05 -7.20276455944E-01 +6.53987560046E-01
1.04500000000E+09 -6.09707176527E-01 +7.45983595897E-01 +1.97412057043E-05 -1.29455750485E-05 -5.80491265946E-06 +3.82706836428E-05 -7.16690481961E-01 +6.57363358481E-01
1.05000000000E+09 -6.02453206804E-01 +7.50025098858E-01 +2.57104735849E-05 +7.03511058235E-06 +1.96061466938E-05 +3.79624604776E-05 -7.13419576477E-01 +6.60779019789E-01
1.05500000000E+09 -5.93767455596E-01 +7.54768546738E-01 +3.53170100750E-05 +1.95019491100E-05 +4.10391725418E-05 +4.47495097854E-05 -7.10147292035E-01 +6.64450189031E-01
1.06000000000E+09 -5.84260846676E-01 +7.60045002750E-01 +1.57421200203E-05 +2.80944032018E-05 +1.55151864021E-05 +5.36808135328E-05 -7.06887113462E-01 +6.68277195230E-01
1.06500000000E+09 -5.75143763475E-01 +7.64970054930E-01 +4.93190805447E-06 +6.97980240751E-05 +5.83357123661E-05 +4.91068557652E-05 -7.03014988270E-01 +6.71796808556E-01
1.07000000000E+09 -5.66841680633E-01 +7.69335229414E-01 +2.00784199612E-05 +4.27392824195E-05 -6.67251871946E-06 -8.97414240021E-06 -6.99073442417E-01 +6.75603746236E-01
1.07500000000E+09 -5.60622104480E-01 +7.73349629388E-01 +4.27871525084E-05 -8.92027550830E-06 +1.33653863746E-05 +3.57859176988E-05 -6.94683335653E-01 +6.79395154675E-01
1.08000000000E+09 -5.56201673879E-01 +7.76576362125E-01 +4.91570237328E-05 +2.82532709797E-05 +3.01794274605E-05 +2.42909036618E-06 -6.90592560054E-01 +6.83041826969E-01
1.08500000000E+09 -5.53209280031E-01 +7.78993152287E-01 -1.87147743692E-05 +3.37306485987E-05 +1.77377738969E-05 -1.36438054829E-05 -6.86739360366E-01 +6.86742976849E-01
1.09000000000E+09 -5.51122725595E-01 +7.80960833311E-01 +6.48811218619E-05 -3.44001915625E-05 +5.42864287734E-05 +3.13406704659E-05 -6.82933143282E-01 +6.90508859196E-01
1.09500000000E+09 -5.49402565364E-01 +7.82704334707E-01 +1.22224986847E-05 -4.83345685377E-06 +6.67600523946E-05 -7.38591021994E-05 -6.79130540820E-01 +6.94451487422E-01
1.10000000000E+09 -5.46464844320E-01 +7.84790245993E-01 +2.53890181099E-05 -2.91494388288E-05 +2.16655235737E-05 -2.87057008262E-05 -6.75205248686E-01 +6.98188853690E-01
1.10500000000E+09 -5.42191356678E-01 +7.87406261442E-01 +3.97972957576E-05 -6.65736781505E-07 +1.99386937568E-05 -1.15824894501E-05 -6.70732604626E-01 +7.01695056112E-01
1.11000000000E+09 -5.36438909341E-01 +7.90466528312E-01 +3.19132427489E-05 -1.24761238023E-05 +3.70246388400E-05 -8.16908325889E-05 -6.66539539458E-01 +7.05199071653E-01
1.11500000000E+09 -5.29084865150E-01 +7.94281956700E-01 +7.71737123263E-06 +1.26541628728E-05 +5.51490557748E-05 -1.06633969644E-05 -6.62481703824E-01 +7.08512412422E-01
1.12000000000E+09 -5.21090145962E-01 +7.98303915154E-01 +2.18255095960E-05 +7.53908867617E-07 +7.02395953440E-06 -2.57916791239E-05 -6.58459557490E-01 +7.12295581713E-01
1.12500000000E+09 -5.12810773110E-01 +8.02367488363E-01 -3.29078480360E-05 -1.46610486550E-05 +3.95994316570E-05 -4.58785610975E-05 -6.54306865345E-01 +7.16115342598E-01
1.13000000000E+09 -5.05344421040E-01 +8.06015209795E-01 +4.93469302728E-05 -1.80205297490E-05 +2.54586091613E-05 +4.84547091455E-07 -6.50179473770E-01 +7.19870521377E-01
1.13500000000E+09 -4.98728088781E-01 +8.08764449544E-01 +8.82273541656E-06 -2.80657706027E-05 -1.91635852392E-06 +1.25122008172E-05 -6.45536866551E-01 +7.23458905398E-01
1.14000000000E+09 -4.93340872448E-01 +8.11142307155E-01 +3.47508321276E-06 -6.86985351781E-05 +5.88372103326E-05 -3.59808735653E-05 -6.40770105328E-01 +7.26942255178E-01
1.14500000000E+09 -4.89184048996E-01 +8.12821004149E-01 +1.53273076205E-05 -1.25064161765E-05 -1.35440409149E-05 +8.30590460131E-06 -6.36110142062E-01 +7.30414133261E-01
1.15000000000E+09 -4.85340895596E-01 +8.14222244876E-01 -2.67191791263E-05 -2.42298696746E-05 +3.74418018784E-05 -3.83555787217E-06 -6.31597546488E-01 +7.34037602669E-01
1.15500000000E+09 -4.81563977529E-01 +8.15917249734E-01 -2.13170889502E-05 -1.69940472294E-05 +3.57268215511E-06 +1.81383753710E-05 -6.26736115635E-01 +7.37833560784E-01
1.16000000000E+09 -4.76554198027E-01 +8.17646253828E-01 -3.86427736329E-05 -4.05617704836E-05 -1.85595687724E-06 -3.25616198032E-05 -6.22150269466E-01 +7.41740831720E-01
1.16500000000E+09 -4.70703600522E-01 +8.20070966743E-01 -1.08662558650E-05 +1.49980420962E-05 +4.75189464021E-05 -3.23878100035E-05 -6.16868290774E-01 +7.45323715233E-01
1.17000000000E+09 -4.63404989368E-01 +8.23140621924E-01 +4.09113795243E-05 -2.53561998623E-05 -2.70641087380E-05 -1.20069525557E-05 -6.11379279042E-01 +7.48444538139E-01
1.17500000000E+09 -4.55339922749E-01 +8.26377327756E-01 +3.26325941532E-05 -1.65087235252E-05 +9.18431480923E-06 -4.79414289534E-05 -6.05896795747E-01 +7.51778637445E-01
1.18000000000E+09 -4.47036242609E-01 +8.29843198058E-01 +1.77780255507E-05 -2.85499471045E-05 -2.12774009246E-05 -4.66830188890E-05 -6.00319222165E-01 +7.54924709607E-01
1.18500000000E+09 -4.38958472357E-01 +8.33023309304E-01 -3.61064408634E-05 -5.29125764162E-05 -2.65852422217E-06 -4.63182237351E-06 -5.94287497820E-01 +7.57945285342E-01
1.19000000000E+09 -4.31651420737E-01 +8.35795883293E-01 -3.26620593087E-05 -7.83616970586E-05 +1.20088338408E-05 -6.64221820304E-05 -5.88197772504E-01 +7.60465045741E-01
1.19500000000E+09 -4.25531730967E-01 +8.37692218445E-01 -5.44498195897E-05 -7.46705874224E-05 -1.04029529849E-04 -1.16894138932E-04 -5.82360500772E-01 +7.61639621574E-01
1.20000000000E+09 -4.20590581690E-01 +8.38456188656E-01 -7.94353463346E-05 -4.49041960167E-05 -2.81805791186E-05 -9.99057089085E-05 -5.77856386788E-01 +7.62036705312E-01
1.20500000000E+09 -4.16121083212E-01 +8.39544632599E-01 -7.83245891257E-05 +2.34151014212E-05 -9.74538553585E-05 +4.30172778652E-05 -5.75546183589E-01 +7.62892016480E-01
1.21000000000E+09 -4.11318260395E-01 +8.40558226746E-01 -1.17885598091E-06 +7.99113381949E-07 -2.97302632705E-05 +5.16210754042E-05 -5.73563757682E-01 +7.65837959877E-01
1.21500000000E+09 -4.05237686116E-01 +8.41712859606E-01 +9.50768858640E-06 -1.05459967699E-05 -2.27177508912E-05 -5.23199231047E-06 -5.70951278039E-01 +7.70338471717E-01
1.22000000000E+09 -3.97444635332E-01 +8.43207565231E-01 -7.06068074512E-06 +3.26115661457E-05 -5.64287133097E-05 -6.29882778001E-06 -5.66687625564E-01 +7.75537056474E-01
1.22500000000E+09 -3.88112726018E-01 +8.45464192139E-01 -1.20584556818E-06 +2.01842032467E-05 -4.98787117921E-05 +5.48042814661E-06 -5.61596969067E-01 +7.80758199822E-01
1.23000000000E+09 -3.77386300980E-01 +8.48294892788E-01 -3.75863964832E-05 +1.63909758697E-05 -4.47177032932E-06 +3.90343727675E-05 -5.55912991298E-01 +7.85287163254E-01
1.23500000000E+09 -3.66330203710E-01 +8.51648599202E-01 +3.37880756987E-05 +1.10314619012E-05 -6.49451563983E-06 -1.33602062204E-05 -5.50121662547E-01 +7.89660324334E-01
1.24000000000E+09 -3.55258332186E-01 +8.55136091192E-01 -3.91116630281E-05 +2.62338026849E-05 -5.06243269077E-05 -2.87398839954E-05 -5.44093386756E-01 +7.93513123414E-01
1.24500000000E+09 -3.45251360725E-01 +8.59021930995E-01 -3.98488268559E-06 -2.84739484524E-05 -1.94944316449E-05 -5.35701214928E-05 -5.37889643806E-01 +7.97144812714E-01
1.25000000000E+09 -3.36780720472E-01 +8.62161440662E-01 -3.39771424204E-05 -1.32544182325E-05 -1.13903423189E-05 +2.67524311729E-05 -5.31179935532E-01 +8.01495258481E-01
1.25500000000E+09 -3.29767464323E-01 +8.64344705639E-01 -5.15242229641E-05 -2.20593380088E-05 -5.92847312153E-05 -7.84459083775E-05 -5.24366735016E-01 +8.05542305573E-01
1.26000000000E+09 -3.24008286360E-01 +8.65902405975E-01 -6.49886577832E-05 +1.67353067886E-05 -3.09823728825E-05 -1.42374415152E-05 -5.17655404007E-01 +8.09729918135E-01
1.26500000000E+09 -3.19113296770E-01 +8.66959314981E-01 -3.34047945846E-05 +3.50130289532E-05 -5.52467285161E-05 +1.88711938887E-05 -5.10605039162E-01 +8.13417629903E-01
1.27000000000E+09 -3.13916563819E-01 +8.67658194111E-01 -4.51444560301E-05 -3.53261770281E-05 -6.37506200559E-05 +2.94387824297E-05 -5.03904895487E-01 +8.17189303652E-01
1.27500000000E+09 -3.07540277676E-01 +8.68497640272E-01 -7.57075575569E-05 +2.83229787285E-05 -8.41641160137E-05 +4.06040104701E-05 -4.96959703692E-01 +8.20735535188E-01
1.28000000000E+09 -2.99266546089E-01 +8.69757084305E-01 -9.25795223086E-05 +5.92433071980E-05 -1.17098029164E-04 +2.07399175257E-05 -4.89944661232E-01 +8.24178939300E-01
1.28500000000E+09 -2.88883698810E-01 +8.71393013808E-01 -8.45645907736E-05 +9.79395282083E-06 -5.98497580702E-05 +9.37628693615E-05 -4.82468350010E-01 +8.27811044772E-01
1.29000000000E+09 -2.77160186885E-01 +8.73384374820E-01 -5.09699442313E-05 +5.41587082387E-05 -6.93046490120E-05 +3.54142661015E-05 -4.75018087758E-01 +8.31621498289E-01
1.29500000000E+09 -2.64858923856E-01 +8.76218260600E-01 -5.50526835771E-05 +1.01790708380E-04 -5.27870276020E-05 +9.90000772398E-05 -4.67188847947E-01 +8.34966409803E-01
1.30000000000E+09 -2.52166548889E-01 +8.79444661592E-01 -9.16260043176E-05 +8.83770247021E-05 -4.01599983782E-05 +6.53895193887E-05 -4.59449423039E-01 +8.38555797130E-01
1.30500000000E+09 -2.40789887147E-01 +8.82445150146E-01 -9.42853876051E-05 +1.03156436709E-04 -4.05561757121E-05 +1.28450847726E-04 -4.51469359455E-01 +8.41942948952E-01
1.31000000000E+09 -2.30703504739E-01 +8.84514533344E-01 -3.20914475129E-05 +1.17646408227E-04 -6.59783896431E-05 +1.14272094609E-04 -4.43152651683E-01 +8.45295463461E-01
1.31500000000E+09 -2.22554569815E-01 +8.85787809170E-01 +1.16367524365E-05 +1.31942865346E-04 -2.01953405604E-05 +1.29574723745E-04 -4.34475794443E-01 +8.48647243255E-01
1.32000000000E+09 -2.15951750533E-01 +8.86240708610E-01 +3.64155770430E-05 +1.22081702864E-04 -2.02052093905E-05 +1.76200869654E-04 -4.25401042028E-01 +8.52091636254E-01
1.32500000000E+09 -2.09839935491E-01 +8.85963695910E-01 -2.21156858038E-05 +8.99172451399E-05 -9.81445248109E-06 +1.04486487896E-04 -4.15878351134E-01 +8.55453355959E-01
1.33000000000E+09 -2.03078365097E-01 +8.85188070169E-01 +2.21840516213E-05 +8.43035893189E-05 +4.37309383026E-05 +1.39575042280E-04 -4.06265895259E-01 +8.58897862082E-01
1.33500000000E+09 -1.94631544295E-01 +8.83973772538E-01 +6.11037893069E-05 +1.25888552225E-04 +5.95600717602E-05 +1.27457486764E-04 -3.96459398128E-01 +8.62192503083E-01
1.34000000000E+09 -1.83503596621E-01 +8.82878215333E-01 +9.00601030135E-05 +1.59681563343E-04 +1.16767070923E-04 +1.09359433835E-04 -3.86222707598E-01 +8.65486311832E-01
1.34500000000E+09 -1.70128399186E-01 +8.81917090796E-01 +1.04133839188E-04 +9.17796450230E-05 +1.84565801677E-04 +7.57536305031E-05 -3.75381906211E-01 +8.68759275450E-01
1.35000000000E+09 -1.54632699788E-01 +8.81528346594E-01 +7.18195076627E-05 +9.90726426217E-05 +1.29617143287E-04 +4.93482002046E-05 -3.64431353975E-01 +8.71865230882E-01
1.35500000000E+09 -1.37982720395E-01 +8.81547266949E-01 +2.06700132744E-05 +8.28103080638E-05 +6.08458811515E-05 +9.90082711905E-05 -3.52719731919E-01 +8.74654445405E-01
1.36000000000E+09 -1.21241641160E-01 +8.81876006308E-01 +4.36798633570E-05 +9.59498779465E-05 +2.33054636236E-05 +6.88834560408E-05 -3.40927191248E-01 +8.77335367572E-01
1.36500000000E+09 -1.05118473022E-01 +8.82124111965E-01 +4.99080624169E-05 +8.93536160204E-05 +6.58868864802E-05 +8.37555336962E-05 -3.28872110491E-01 +8.79814455798E-01
1.37000000000E+09 -9.07986517685E-02 +8.81874676352E-01 +9.35930725026E-05 +1.39012729922E-04 +6.37694485467E-05 +1.04085079768E-04 -3.16094491543E-01 +8.82166708925E-01
1.37500000000E+09 -7.85649621766E-02 +8.81129744999E-01 +1.25495081847E-04 +8.20612151085E-05 +1.13094254756E-04 +1.46615295608E-04 -3.02428704530E-01 +8.84362029202E-01
1.38000000000E+09 -6.76005998331E-02 +8.79940190126E-01 +1.67609436969E-04 +1.12630168412E-04 +1.58839418985E-04 +1.86714798386E-04 -2.87948866802E-01 +8.86527193952E-01
1.38500000000E+09 -5.67954698187E-02 +8.77763935859E-01 +1.86113293699E-04 +6.56551412133E-05 +2.31093008355E-04 +5.68015738426E-05 -2.72384104303E-01 +8.88325722684E-01
1.39000000000E+09 -4.54630026713E-02 +8.74807462009E-01 +1.68839403534E-04 +1.05104635773E-04 +2.28556948367E-04 +4.80725996443E-05 -2.56633461406E-01 +8.89740675543E-01
1.39500000000E+09 -3.20978795765E-02 +8.70867054558E-01 +2.55966347810E-04 +7.42792414988E-05 +2.88588827294E-04 +8.51807125552E-05 -2.39874554698E-01 +8.90562889559E-01
1.40000000000E+09 -1.60721185928E-02 +8.66053388646E-01 +3.34041582513E-04 -3.20121135641E-06 +3.39106188066E-04 +1.01189414622E-05 -2.22391613435E-01 +8.91152202589E-01
1.40500000000E+09 +2.24115580562E-03 +8.60576161797E-01 +2.93176361835E-04 -1.31504500378E-04 +2.83992915567E-04 -1.33012188449E-04 -2.03613830915E-01 +8.91091569788E-01
1.41000000000E+09 +2.26230033280E-02 +8.54736921352E-01 +1.46412341448E-04 -1.36794546272E-04 +1.91428045464E-04 -1.26508122036E-04 -1.83610931186E-01 +8.90301045636E-01
1.41500000000E+09 +4.42202570379E-02 +8.48751357248E-01 +1.60907593611E-04 -7.89004182595E-05 +1.85030240644E-04 -1.07631806024E-04 -1.61983447948E-01 +8.88695958992E-01
1.42000000000E+09 +6.66937591657E-02 +8.42365170687E-01 +2.24342040352E-04 -1.32045868516E-05 +2.43964746206E-04 -2.69421542202E-05 -1.39368289051E-01 +8.86046519824E-01
1.42500000000E+09 +8.84463198106E-02 +8.34819516336E-01 +3.50253374934E-04 -1.71694871148E-04 +3.58619637312E-04 -2.37375932934E-04 -1.15627756715E-01 +8.82582521561E-01
1.43000000000E+09 +1.08855318346E-01 +8.26020171327E-01 +1.54284175404E-04 -3.33273656913E-04 +1.37580179377E-04 -3.71790065725E-04 -9.09658026808E-02 +8.77985763215E-01
1.43500000000E+09 +1.28076437346E-01 +8.15676149383E-01 +8.49462689802E-05 -3.12943896146E-04 +4.77320301988E-05 -3.04230185999E-04 -6.48266925405E-02 +8.71354301240E-01
1.44000000000E+09 +1.46941244957E-01 +8.03746566727E-01 -4.97499784874E-05 -1.84866684872E-04 -7.57060866796E-05 -1.66767167812E-04 -3.67044087318E-02 +8.62700992927E-01
1.44500000000E+09 +1.66859357747E-01 +7.89059334943E-01 +1.50330680289E-05 +2.01138091597E-05 +6.70632221338E-05 +5.11044463767E-05 -6.72282449930E-03 +8.51536634007E-01
1.45000000000E+09 +1.88532655167E-01 +7.71410801781E-01 +2.72011701423E-04 -1.20783110497E-04 +3.10469566337E-04 -1.27092835637E-04 +2.53416966039E-02 +8.37187422094E-01
1.45500000000E+09 +2.13070660800E-01 +7.49281459828E-01 +2.91400541426E-05 -2.18766249317E-04 +8.03651619226E-05 -2.35213791933E-04 +5.88496281353E-02 +8.19552309800E-01
1.46000000000E+09 +2.39996038320E-01 +7.22898967518E-01 +1.37186187301E-04 +4.44809781613E-06 +1.50514726315E-04 +1.61333917937E-05 +9.38507665715E-02 +7.97465288713E-01
1.46500000000E+09 +2.68462587945E-01 +6.91954114248E-01 +3.96705303838E-04 -1.30878617522E-04 +3.53550311686E-04 -1.12908150642E-04 +1.29459153645E-01 +7.70876534961E-01
1.47000000000E+09 +2.98271389602E-01 +6.56989035731E-01 +5.23070984458E-04 -2.89486506754E-04 +5.46344817399E-04 -2.83494983199E-04 +1.66722883888E-01 +7.37291622656E-01
1.47500000000E+09 +3.27665436274E-01 +6.16666930857E-01 +4.14071408677E-04 -6.52675411208E-04 +4.80937622814E-04 -6.55650646926E-04 +2.03891475540E-01 +6.96033609794E-01
1.48000000000E+09 +3.54138738134E-01 +5.71058194021E-01 +1.73787368064E-04 -7.05827809971E-04 +2.61307219138E-04 -7.27689658654E-04 +2.40435855009E-01 +6.46530706110E-01
1.48500000000E+09 +3.76399653981E-01 +5.20027674756E-01 +2.05586573356E-04 -6.24042406063E-04 +2.14635682542E-04 -7.16598121736E-04 +2.74678881977E-01 +5.87731259183E-01
1.49000000000E+09 +3.92843460780E-01 +4.62327155053E-01 +5.50202223224E-04 -7.30850985856E-04 +4.88962650160E-04 -8.13788035569E-04 +3.03043084505E-01 +5.17369857339E-01
1.49500000000E+09 +4.01086327230E-01 +3.97572448371E-01 +7.34990109137E-04 -1.83118247526E-03 +5.72439036280E-04 -1.81892717503E-03 +3.20969893753E-01 +4.37137382072E-01
1.50000000000E+09 +3.99320158283E-01 +3.25427864263E-01 -7.06433289268E-04 -2.63486169216E-03 -6.86528837682E-04 -2.47305645344E-03 +3.25198756684E-01 +3.47560198587E-01
1.50500000000E+09 +3.86179149426E-01 +2.47466312190E-01 -1.90975839025E-03 -2.26312802957E-03 -1.78126420327E-03 -2.17705272743E-03 +3.13079740889E-01 +2.51517337378E-01
1.51000000000E+09 +3.59732826806E-01 +1.63523611297E-01 -2.91323606482E-03 -1.27137460098E-03 -2.83905511315E-03 -1.24819353407E-03 +2.80131423658E-01 +1.51521068537E-01
1.51500000000E+09 +3.16201160988E-01 +7.81111616256E-02 -2.91276186303E-03 -4.72206249371E-04 -2.89230714706E-03 -5.05355595725E-04 +2.25606400439E-01 +5.44776918591E-02
1.52000000000E+09 +2.54685313154E-01 -2.42026868920E-03 -3.13757771125E-03 +7.30086991439E-04 -3.15247413876E-03 +7.83084612432E-04 +1.48094195975E-01 -3.13135612782E-02
1.52500000000E+09 +1.75705121518E-01 -7.19213868554E-02 -2.41688430684E-03 +1.05645799979E-03 -2.37178667524E-03 +1.07010402426E-03 +5.19697219798E-02 -9.85971627769E-02
1.53000000000E+09 +8.08416622152E-02 -1.22028598552E-01 -2.46490919812E-03 +1.69822935198E-03 -2.42473504978E-03 +1.67874444610E-03 -5.46381974253E-02 -1.41747190993E-01
1.53500000000E+09 -2.15218386951E-02 -1.48322522692E-01 -2.41826244364E-03 +2.46855657184E-03 -2.38901661026E-03 +2.42914051072E-03 -1.65997059894E-01 -1.61022253707E-01
1.54000000000E+09 -1.26140840691E-01 -1.50687293334E-01 -1.65912386966E-03 +3.66312627035E-03 -1.67438543301E-03 +3.51849037443E-03 -2.74118331874E-01 -1.57021280895E-01
1.54500000000E+09 -2.26320092433E-01 -1.30143517018E-01 -4.90997229508E-05 +4.38756191369E-03 -1.84537790343E-04 +4.29689455942E-03 -3.72397365027E-01 -1.32307927556E-01
1.55000000000E+09 -3.18515338011E-01 -9.26813639377E-02 +1.80866042602E-03 +3.56598725102E-03 +1.59868239356E-03 +3.56579775291E-03 -4.56038278194E-01 -9.45739524179E-02
1.55500000000E+09 -3.98458214099E-01 -4.07499813643E-02 +2.35802190594E-03 +2.65411378346E-03 +2.27442736912E-03 +2.79825219644E-03 -5.26588474810E-01 -4.76511815949E-02
1.56000000000E+09 -4.63169741176E-01 +1.70615747648E-02 +2.89918708952E-03 +1.42804134988E-03 +2.90972742508E-03 +1.59711539628E-03 -5.83661371235E-01 +5.66562662352E-03
1.56500000000E+09 -5.15032183934E-01 +7.64472258964E-02 +2.50305832101E-03 +5.79832130508E-04 +2.55841715578E-03 +6.74851479492E-04 -6.27558168344E-01 +6.19905365951E-02
1.57000000000E+09 -5.54731858614E-01 +1.35339589898E-01 +2.13014069544E-03 +2.63227201958E-05 +2.18281949304E-03 +7.65621273680E-05 -6.60255956335E-01 +1.17501452254E-01
