# Hz S RI R 50
! CMT, C1220, 16058040, 17.2.0/1
! Date: 14/08/2018 12:19:50
! Data: Format (Calibration Info)
! Freq                      S11: Re/Im (F2)                       S21: Re/Im (F2)                       S12: Re/Im (F2)                       S22: Re/Im (F2)            
1.00000000000E+09 -6.43158826745E-01 +7.16219952158E-01 -4.26083583227E-05 +9.77534390307E-06 -9.16663327260E-06 -2.45073369939E-05 -7.47947145130E-01 +6.23960362444E-01
1.00500000000E+09 -6.35919195012E-01 +7.21316995938E-01 +3.29561449694E-05 -4.44813393424E-05 +9.75351568584E-06 -2.42013683026E-05 -7.44305891986E-01 +6.27971187654E-01
1.01000000000E+09 -6.29830678249E-01 +7.26002422291E-01 -2.82551275908E-05 +3.78319198317E-05 -4.28723325563E-05 -2.63624935970E-05 -7.40800655605E-01 +6.31787015336E-01
1.01500000000E+09 -6.25583672775E-01 +7.29614732659E-01 -5.84290997673E-05 -1.36506134784E-05 +4.16635812253E-05 -4.59113162594E-05 -7.37468464618E-01 +6.35467439365E-01
1.02000000000E+09 -6.23083059479E-01 +7.32850399188E-01 +1.30413900228E-05 -6.98727556751E-06 -6.81791968340E-06 -2.44811315284E-05 -7.34015286774E-01 +6.38975882689E-01
1.02500000000E+09 -6.21540593056E-01 +7.35458353732E-01 -5.62519862874E-07 +1.96864183072E-05 -1.09380735557E-05 +8.90823696243E-06 -7.31155386446E-01 +6.42512940729E-01
1.03000000000E+09 -6.20276225147E-01 +7.37794533215E-01 -2.75616004252E-06 +3.99148408550E-05 +1.34528108335E-05 -2.00396128308E-05 -7.27618961786E-01 +6.46417258575E-01
1.03500000000E+09 -6.18314450980E-01 +7.39907465123E-01 +2.88300721550E-05 +2.90661604927E-05 +6.29256876681E-05 -2.26408272213E-06 -7.23928810815E-01 +6.50208821932E-01
1.04000000000E+09 -6.14810882291E-01 +7.42741697300E-01 +8.29699052573E-06 +5.25835552298E-05 +6.59165940577E-05 -9.02089417681E-06 -7.20076402775E-01 +6.53961827397E-01
1.04500000000E+09 -6.09452625806E-01 +7.45942763263E-01 +3.38943554147E-06 +1.56620510391E-05 -2.08651633953E-05 +1.49649621574E-05 -7.16582907337E-01 +6.57345323412E-01
1.05000000000E+09 -6.02051755980E-01 +7.50199886644E-01 +2.16947748509E-05 +4.65285352259E-06 -3.25073625483E-06 +1.71519756072E-05 -7.13163462018E-01 +6.60929540827E-01
1.05500000000E+09 -5.93537519852E-01 +7.54932729075E-01 -4.43758047268E-05 +1.32963182499E-05 +3.92263291725E-05 +2.35220399421E-05 -7.10125291182E-01 +6.64286688254E-01
1.06000000000E+09 -5.83808788519E-01 +7.60025892957E-01 +4.81645198473E-05 +3.06047673100E-05 -2.74240447775E-05 -7.71880530490E-06 -7.06621910736E-01 +6.68011248517E-01
1.06500000000E+09 -5.74420637065E-01 +7.65137972091E-01 +1.55040299397E-05 +3.49854218671E-05 -6.63837848127E-06 +2.91161712006E-05 -7.02933027057E-01 +6.71793229178E-01
1.07000000000E+09 -5.66523049086E-01 +7.69375043041E-01 +1.36753667125E-05 -1.06729469950E-05 +6.62579549863E-06 +4.77039730516E-05 -6.98781545368E-01 +6.75486885537E-01
1.07500000000E+09 -5.60134553618E-01 +7.73334907562E-01 +4.35274558013E-05 +3.13042579201E-05 +4.48561519104E-05 +9.60103670441E-06 -6.94588436107E-01 +6.79148269436E-01
1.08000000000E+09 -5.55622163017E-01 +7.76600241290E-01 +4.81151418782E-05 +1.75524201224E-05 +6.39831208774E-05 +4.24997962772E-05 -6.90604442700E-01 +6.83156820123E-01
1.08500000000E+09 -5.52871560329E-01 +7.79073235217E-01 +2.70360501017E-05 -5.37505720608E-05 +1.70412071860E-05 -2.26399517789E-05 -6.86536498787E-01 +6.86618802677E-01
1.09000000000E+09 -5.50616433325E-01 +7.81091715199E-01 +4.29335785506E-05 -3.97990550007E-06 +8.59244045268E-05 -2.72691025848E-05 -6.82818788604E-01 +6.90440251922E-01
1.09500000000E+09 -5.48884347829E-01 +7.82904496262E-01 +2.30384254385E-05 +2.56474161914E-05 +7.42253771809E-05 -4.79298070110E-05 -6.78965568214E-01 +6.94487665992E-01
1.10000000000E+09 -5.46095502080E-01 +7.84820695038E-01 +1.17277915735E-05 -1.87298160950E-05 +5.58880228185E-05 -3.52857221320E-05 -6.75062951602E-01 +6.98146298638E-01
1.10500000000E+09 -5.41797433620E-01 +7.87473838602E-01 +2.47306273976E-05 -1.48237755405E-05 +9.00594014920E-06 -2.80686783561E-05 -6.70584386823E-01 +7.01775862500E-01
1.11000000000E+09 -5.35907160742E-01 +7.90589969174E-01 -3.53159995301E-06 -4.02351676516E-05 +3.04224607671E-05 -3.09343991604E-05 -6.66491700173E-01 +7.05010638997E-01
1.11500000000E+09 -5.28794869819E-01 +7.94394625935E-01 +2.18108363362E-05 -2.52083668900E-05 +6.45897108395E-07 -2.39914216090E-05 -6.62447740917E-01 +7.08365237035E-01
1.12000000000E+09 -5.20626083510E-01 +7.98283886485E-01 -2.18370297188E-05 -6.58105222939E-08 -3.03964322816E-05 -3.87604801704E-05 -6.58431345368E-01 +7.12158657547E-01
1.12500000000E+09 -5.12260069322E-01 +8.02277443847E-01 +1.29972047003E-05 -1.37709981575E-05 +4.60207068092E-06 -7.29118688463E-05 -6.54245093281E-01 +7.16103826552E-01
1.13000000000E+09 -5.04756244539E-01 +8.06055085355E-01 +1.31233754856E-05 -1.72151869970E-05 +1.29810107419E-05 -4.92657116299E-05 -6.49953627822E-01 +7.19677208773E-01
1.13500000000E+09 -4.98317038968E-01 +8.08765710002E-01 +5.12814852013E-05 -6.10395821298E-05 +1.27294578122E-05 +3.84403484037E-05 -6.45424092689E-01 +7.23386057724E-01
1.14000000000E+09 -4.92927214086E-01 +8.11093590466E-01 +4.75300192326E-05 -1.71194448404E-05 -1.99462015901E-05 -2.23242189848E-05 -6.40663455593E-01 +7.26880874277E-01
1.14500000000E+09 -4.88825277509E-01 +8.12839325159E-01 +1.11792933352E-06 -4.66808427143E-05 -1.74391147496E-06 -2.88561246051E-05 -6.36112913629E-01 +7.30322587054E-01
1.15000000000E+09 -4.84847676148E-01 +8.14220842526E-01 +9.56580832119E-06 -1.42536014642E-05 -1.41580860494E-05 -3.75437225508E-05 -6.31536306339E-01 +7.33840221585E-01
1.15500000000E+09 -4.81099467639E-01 +8.15865726404E-01 +1.57678624168E-05 -4.75432156539E-05 +2.66056681880E-05 -4.16512085219E-05 -6.26743592137E-01 +7.37873490979E-01
1.16000000000E+09 -4.76048248150E-01 +8.17586864942E-01 +3.44129433065E-05 +2.61946995420E-06 +7.17454141531E-06 -1.32608735954E-05 -6.21972835300E-01 +7.41637713581E-01
1.16500000000E+09 -4.70156077350E-01 +8.20185294536E-01 +7.08414131393E-06 +1.04162075220E-06 -9.20872905369E-06 -2.06337274521E-05 -6.16740052452E-01 +7.45111265598E-01
1.17000000000E+09 -4.62785175890E-01 +8.23212229243E-01 -2.07639438915E-06 -4.08678446495E-05 -2.71907816857E-05 -6.36237324134E-05 -6.11292798393E-01 +7.48533206412E-01
1.17500000000E+09 -4.54847775285E-01 +8.26295837267E-01 -9.04856371772E-07 -4.87880658099E-05 +1.35704796777E-05 -4.51678718236E-05 -6.05585571051E-01 +7.51747766768E-01
1.18000000000E+09 -4.46546215034E-01 +8.30030641446E-01 +4.63951708344E-06 -5.03415425591E-05 +5.59902137725E-06 -2.44383695909E-05 -6.00089138141E-01 +7.54839722254E-01
1.18500000000E+09 -4.38360906869E-01 +8.33100356737E-01 -1.66057481484E-06 -5.57098645753E-05 -3.66577014350E-05 -3.27174304420E-05 -5.94150297366E-01 +7.57821237305E-01
1.19000000000E+09 -4.31074170150E-01 +8.35697961983E-01 -3.65363318880E-05 -1.14418263582E-05 -8.13455639496E-06 -9.70233367818E-05 -5.87965814468E-01 +7.60462729962E-01
1.19500000000E+09 -4.24900162258E-01 +8.37655063171E-01 -4.73914016463E-05 -6.45688041896E-05 -3.34453586060E-05 -5.61154073066E-05 -5.82140111527E-01 +7.61568893254E-01
1.20000000000E+09 -4.19972108459E-01 +8.38547940955E-01 -3.63208993337E-05 -7.04168639740E-05 -1.23395026733E-04 -3.41058291590E-05 -5.77695525043E-01 +7.61935719032E-01
1.20500000000E+09 -4.15463073023E-01 +8.39494456167E-01 -2.64412128347E-05 +3.81769910327E-05 -7.20847752071E-05 +3.51368369970E-05 -5.75451709239E-01 +7.62798823346E-01
1.21000000000E+09 -4.10692969797E-01 +8.40262198792E-01 -2.65345928416E-05 +4.49738712235E-05 +2.11253025131E-05 +4.45714071043E-05 -5.73387939961E-01 +7.65817725229E-01
1.21500000000E+09 -4.04428935857E-01 +8.41685481936E-01 -1.55534831205E-05 +9.68308121114E-06 -4.99149988842E-05 -3.64307037649E-05 -5.70805751532E-01 +7.70313078162E-01
1.22000000000E+09 -3.96831808882E-01 +8.43126670218E-01 +3.52354000399E-05 +1.85940932041E-06 -3.28662869775E-05 -2.84989387949E-05 -5.66449647340E-01 +7.75650205871E-01
1.22500000000E+09 -3.87364959778E-01 +8.45323235553E-01 -3.01668910123E-06 -1.37090867304E-05 -2.43385354633E-05 -2.96462291994E-05 -5.61420446775E-01 +7.80720362391E-01
1.23000000000E+09 -3.76569914477E-01 +8.48120724738E-01 -1.86661611940E-05 +1.05126770533E-05 +1.52628402868E-05 -2.72913035059E-05 -5.55735702133E-01 +7.85301586485E-01
1.23500000000E+09 -3.65501043353E-01 +8.51506711457E-01 +3.33651562755E-05 -1.63064214568E-05 -4.30850918448E-05 -9.03332634916E-06 -5.50047124116E-01 +7.89565966285E-01
1.24000000000E+09 -3.54469248230E-01 +8.55005235757E-01 -4.12105730972E-05 -2.65853219483E-05 -2.40857042735E-05 +9.39873796896E-06 -5.43890700521E-01 +7.93382564494E-01
1.24500000000E+09 -3.44602723401E-01 +8.58791064903E-01 -2.21081057314E-05 -4.77336356823E-05 -5.89173400973E-05 -2.76314872606E-05 -5.37690035472E-01 +7.97190526587E-01
1.25000000000E+09 -3.35888242544E-01 +8.61985200109E-01 -6.16550104133E-05 -2.19252787900E-05 -6.47417360814E-05 -4.80858258367E-05 -5.31188347313E-01 +8.01390332711E-01
1.25500000000E+09 -3.28968631571E-01 +8.64334995258E-01 -3.09643919148E-05 -4.13906483920E-05 -5.49917692911E-05 -5.28846261998E-05 -5.24310985349E-01 +8.05476970781E-01
1.26000000000E+09 -3.23343314229E-01 +8.65749306908E-01 -6.48861218103E-05 -3.95553844293E-05 -8.34979226464E-05 -1.89540676037E-05 -5.17632860764E-01 +8.09652993163E-01
1.26500000000E+09 -3.18370192819E-01 +8.66752509553E-01 -7.06485609018E-05 -3.76201710345E-05 -8.84389995988E-05 -5.66776052061E-05 -5.10557931732E-01 +8.13516485105E-01
1.27000000000E+09 -3.13137469446E-01 +8.67485506851E-01 -4.18460232041E-05 +2.21532434803E-05 -8.07525068574E-05 +1.61714707240E-05 -5.03811112946E-01 +8.17268031668E-01
1.27500000000E+09 -3.06767344950E-01 +8.68403611557E-01 -6.32604805383E-05 +4.04989867841E-05 -3.73907000438E-05 +3.06629052219E-05 -4.96715763088E-01 +8.20734230152E-01
1.28000000000E+09 -2.98456672974E-01 +8.69387761150E-01 -1.16747092756E-04 +2.64140734378E-05 -7.13191125275E-05 +7.98215409284E-05 -4.89777313937E-01 +8.24261492738E-01
1.28500000000E+09 -2.88092400657E-01 +8.71024032070E-01 -5.14396452989E-05 +3.90844226741E-05 -2.54566915112E-05 +3.88459256262E-05 -4.82456325450E-01 +8.27871542335E-01
1.29000000000E+09 -2.76399654156E-01 +8.73222037333E-01 -5.54788640827E-05 +5.88489750551E-05 -8.28537506983E-05 +1.03355279096E-04 -4.74892443810E-01 +8.31526987586E-01
1.29500000000E+09 -2.64143782297E-01 +8.76035855658E-01 -8.33094528894E-05 +7.52074480266E-05 -5.14818715056E-05 +5.31127108445E-05 -4.67102367118E-01 +8.34996273289E-01
1.30000000000E+09 -2.51458367474E-01 +8.79202306737E-01 -7.01856650992E-05 +4.81471354652E-05 -3.15802382563E-05 +5.05782218325E-05 -4.59190119918E-01 +8.38599757665E-01
1.30500000000E+09 -2.39996020874E-01 +8.82099519186E-01 -5.97694634432E-05 +5.59738719766E-05 -1.20875057871E-04 +1.05089190109E-04 -4.51200875226E-01 +8.41793037125E-01
1.31000000000E+09 -2.29731206539E-01 +8.84330601865E-01 -8.30324194660E-05 +1.24486057640E-04 -4.63629370181E-05 +1.54711039065E-04 -4.42910436053E-01 +8.45347201554E-01
1.31500000000E+09 -2.21648160277E-01 +8.85610475031E-01 +7.65536705335E-06 +8.74752153269E-05 +1.05091826825E-05 +8.45779970628E-05 -4.34159867041E-01 +8.48696157908E-01
1.32000000000E+09 -2.15140680652E-01 +8.86009708252E-01 +3.77601005800E-05 +6.99607381879E-05 -7.81720110162E-06 +9.29309818267E-05 -4.25082380290E-01 +8.52019681877E-01
1.32500000000E+09 -2.08916602896E-01 +8.85481973102E-01 +1.35609351702E-05 +1.01883377537E-04 +4.66614428989E-06 +4.33988328927E-05 -4.15604783005E-01 +8.55391233318E-01
1.33000000000E+09 -2.02154295975E-01 +8.84784953777E-01 -2.01927511727E-05 +1.15268296605E-04 -1.26995814623E-05 +1.11413275935E-04 -4.05990368973E-01 +8.58698203250E-01
1.33500000000E+09 -1.93615580596E-01 +8.83539972469E-01 +2.53879589742E-05 +1.29052090070E-04 +1.45910259674E-07 +1.01620885413E-04 -3.96248086709E-01 +8.61856338921E-01
1.34000000000E+09 -1.82710095769E-01 +8.82564050529E-01 -5.70504094644E-06 +1.48243537334E-04 +6.86552580679E-05 +1.44872101729E-04 -3.86017860576E-01 +8.65205560269E-01
1.34500000000E+09 -1.69297306086E-01 +8.81551238417E-01 +4.98514747471E-05 +8.30477758609E-05 +7.58435852878E-05 +1.04616413695E-04 -3.75249717183E-01 +8.68562508463E-01
1.35000000000E+09 -1.53980146768E-01 +8.81116349506E-01 +5.64662339395E-05 +9.57759075482E-05 +6.36283409987E-05 +6.87352898708E-05 -3.64161467503E-01 +8.71691711037E-01
1.35500000000E+09 -1.37232021752E-01 +8.81189197444E-01 +7.79984113418E-05 +9.10932019867E-05 +4.88031908919E-05 +1.11664485893E-04 -3.52603280112E-01 +8.74509219221E-01
1.36000000000E+09 -1.20408290285E-01 +8.81446019676E-01 +6.72284352471E-06 +8.47263231618E-05 +7.92697812018E-05 +1.11244522350E-04 -3.40833392386E-01 +8.77191977794E-01
1.36500000000E+09 -1.04355223158E-01 +8.81715483298E-01 +2.44243876721E-05 +7.66413912280E-05 -3.50818348254E-06 +6.73771730082E-05 -3.28818307894E-01 +8.79616280920E-01
1.37000000000E+09 -8.99511531887E-02 +8.81604746703E-01 +2.65349265700E-05 +1.44563085551E-04 +5.79819273196E-05 +9.14338889506E-05 -3.15989994809E-01 +8.82024392531E-01
1.37500000000E+09 -7.76866483092E-02 +8.80695769113E-01 +4.39257553802E-05 +1.48124971749E-04 +3.79072341397E-05 +1.19863920404E-04 -3.02328990843E-01 +8.84140487301E-01
1.38000000000E+09 -6.67861926642E-02 +8.79382876604E-01 +1.37051589503E-04 +1.59012717096E-04 +1.39450375304E-04 +1.80713797249E-04 -2.87676261871E-01 +8.86160213184E-01
1.38500000000E+09 -5.58428047172E-02 +8.77220852877E-01 +1.58144751310E-04 +1.15716146244E-04 +2.08679473405E-04 +7.16121065652E-05 -2.72400416348E-01 +8.88072549549E-01
1.39000000000E+09 -4.45169191984E-02 +8.74106669027E-01 +1.45108314440E-04 +9.41001351484E-05 +1.76324876019E-04 +1.18897848234E-04 -2.56437510569E-01 +8.89551564367E-01
1.39500000000E+09 -3.11990723881E-02 +8.70140488594E-01 +1.95433711154E-04 +5.67693333419E-05 +2.50865600777E-04 +9.18938027044E-05 -2.39780466866E-01 +8.90327958985E-01
1.40000000000E+09 -1.51552836816E-02 +8.65191033152E-01 +2.18266054420E-04 +2.94821297281E-05 +2.98336627550E-04 -5.13744536722E-05 -2.22240318100E-01 +8.90914730783E-01
1.40500000000E+09 +2.96984521961E-03 +8.59832098074E-01 +2.19754349743E-04 -9.35824409029E-05 +1.74295667466E-04 -6.37453098068E-05 -2.03514239385E-01 +8.90863019729E-01
1.41000000000E+09 +2.33069346765E-02 +8.53908594024E-01 +1.15010321889E-04 -1.64901773547E-05 +1.24275552554E-04 -1.06025671674E-05 -1.83290473127E-01 +8.90047695881E-01
1.41500000000E+09 +4.48816182188E-02 +8.47913691743E-01 +1.37796498999E-04 +2.76991862422E-05 +1.79496189733E-04 +5.08065247312E-05 -1.61840330347E-01 +8.88347625192E-01
1.42000000000E+09 +6.73768646165E-02 +8.41631159773E-01 +2.39471103823E-04 +5.27368571931E-05 +2.80381980095E-04 +9.03208124208E-05 -1.39171830786E-01 +8.85706579223E-01
1.42500000000E+09 +8.91297784625E-02 +8.34021758102E-01 +3.43339075104E-04 -8.05208939303E-05 +4.04039336285E-04 -1.39323917403E-04 -1.15657097377E-01 +8.82060968583E-01
1.43000000000E+09 +1.09443888161E-01 +8.25148232185E-01 +2.22183970032E-04 -2.03066057365E-04 +2.26103406169E-04 -2.78214003127E-04 -9.10047327319E-02 +8.77363236511E-01
1.43500000000E+09 +1.28685678357E-01 +8.14870211335E-01 +1.05785043439E-04 -1.74230300763E-04 +9.65765899643E-05 -2.07194166994E-04 -6.48325765561E-02 +8.70785002821E-01
1.44000000000E+09 +1.47370698000E-01 +8.03059396650E-01 +3.94964383788E-05 -3.67667574976E-05 +6.73804815359E-05 -4.65831480705E-05 -3.69194370534E-02 +8.62122166263E-01
1.44500000000E+09 +1.67462285156E-01 +7.88546182791E-01 +2.20230824850E-04 +1.03301004116E-04 +2.29221735903E-04 +7.70643979865E-05 -7.06456412464E-03 +8.50790025881E-01
1.45000000000E+09 +1.89185767334E-01 +7.70791127096E-01 +4.33238695491E-04 -8.66718421955E-05 +4.36859589113E-04 -1.46815382165E-04 +2.47767620111E-02 +8.36644647557E-01
1.45500000000E+09 +2.13759965188E-01 +7.48829237089E-01 +2.28414995996E-04 -2.60578655295E-04 +2.52477275281E-04 -2.88474078917E-04 +5.81378629200E-02 +8.19122607587E-01
1.46000000000E+09 +2.40801610133E-01 +7.22151027219E-01 +3.27366856132E-04 -7.23313051850E-05 +3.56948870482E-04 -1.06185755198E-04 +9.29695049897E-02 +7.97228777016E-01
1.46500000000E+09 +2.69504044259E-01 +6.91324216996E-01 +5.73506046274E-04 -2.52336415616E-04 +5.08410757585E-04 -2.52267959584E-04 +1.28457581266E-01 +7.70923355934E-01
1.47000000000E+09 +2.99505578255E-01 +6.56111811158E-01 +5.90090197481E-04 -4.36668664589E-04 +6.05187326875E-04 -4.14244026072E-04 +1.65750047103E-01 +7.37515137553E-01
1.47500000000E+09 +3.28969491418E-01 +6.15319779079E-01 +4.58513602263E-04 -7.96006434397E-04 +4.59376095470E-04 -7.70024849464E-04 +2.02977458754E-01 +6.96610218481E-01
1.48000000000E+09 +3.55362447147E-01 +5.69381987080E-01 +2.52600041731E-04 -7.85838545621E-04 +2.45453686153E-04 -7.73339597102E-04 +2.39669282974E-01 +6.47283842950E-01
1.48500000000E+09 +3.77405595356E-01 +5.17942270974E-01 +3.31480428119E-04 -7.34657218136E-04 +3.71125620585E-04 -7.20218951086E-04 +2.73850124623E-01 +5.88835257068E-01
1.49000000000E+09 +3.93442981500E-01 +4.60121515826E-01 +6.53390232868E-04 -8.51330387165E-04 +6.17745280836E-04 -1.00002942142E-03 +3.02619462262E-01 +5.19039469462E-01
1.49500000000E+09 +4.01355604951E-01 +3.95254128144E-01 +6.87008656097E-04 -2.01148890226E-03 +5.68943170811E-04 -2.03023849623E-03 +3.21346657354E-01 +4.39093042443E-01
1.50000000000E+09 +3.98962761464E-01 +3.23077938342E-01 -7.10902665409E-04 -2.76211438266E-03 -6.75282359296E-04 -2.58932534566E-03 +3.26359111083E-01 +3.49104039060E-01
1.50500000000E+09 +3.85167215648E-01 +2.45248187089E-01 -1.98767736998E-03 -2.38502375759E-03 -1.86143847354E-03 -2.34145492921E-03 +3.14524669208E-01 +2.52691758003E-01
1.51000000000E+09 +3.58289645346E-01 +1.61836690111E-01 -2.83232220240E-03 -1.32109900812E-03 -2.75904808279E-03 -1.41630627358E-03 +2.81778460259E-01 +1.52198055596E-01
1.51500000000E+09 +3.14490218565E-01 +7.68573497895E-02 -2.92242450329E-03 -6.61619563202E-04 -2.94478389993E-03 -6.86211299173E-04 +2.27302355776E-01 +5.47002746754E-02
1.52000000000E+09 +2.52750195499E-01 -3.14639829745E-03 -3.20911103128E-03 +6.74481203882E-04 -3.27917736296E-03 +7.06606749165E-04 +1.49941760036E-01 -3.15021865559E-02
1.52500000000E+09 +1.73869025623E-01 -7.18672378084E-02 -2.35853035405E-03 +9.00581150452E-04 -2.35536197701E-03 +9.23071611447E-04 +5.34880381319E-02 -9.94666893166E-02
1.53000000000E+09 +7.94016615134E-02 -1.21585410716E-01 -2.52750416788E-03 +1.45918246204E-03 -2.54060624368E-03 +1.52323735030E-03 -5.34542289504E-02 -1.42621423085E-01
1.53500000000E+09 -2.25601280562E-02 -1.47627275955E-01 -2.49101714263E-03 +2.23084374233E-03 -2.48462993515E-03 +2.25919609197E-03 -1.65054487952E-01 -1.61975243006E-01
1.54000000000E+09 -1.26858710162E-01 -1.49931966113E-01 -1.83931477456E-03 +3.36444924033E-03 -1.84802719599E-03 +3.29064302722E-03 -2.73323181881E-01 -1.58180829589E-01
1.54500000000E+09 -2.26935906629E-01 -1.29360838894E-01 -3.48654744391E-04 +4.32084967782E-03 -4.15000119177E-04 +4.24208249482E-03 -3.72054884132E-01 -1.33644488633E-01
1.55000000000E+09 -3.18933160934E-01 -9.16717220294E-02 +1.65364066823E-03 +3.39932612121E-03 +1.56924765658E-03 +3.42176011088E-03 -4.55938419285E-01 -9.55825920049E-02
1.55500000000E+09 -3.98608153818E-01 -3.97170176210E-02 +1.95129724614E-03 +2.43260419063E-03 +1.91951580676E-03 +2.46901621561E-03 -5.26494800680E-01 -4.84818791607E-02
1.56000000000E+09 -4.63046704772E-01 +1.81753636762E-02 +2.32715435098E-03 +1.45832677899E-03 +2.38942057245E-03 +1.59932805639E-03 -5.83307666774E-01 +4.75967779470E-03
1.56500000000E+09 -5.14653881203E-01 +7.73240946397E-02 +2.06373925255E-03 +8.54553476541E-04 +2.20391817787E-03 +9.18037655887E-04 -6.27428188457E-01 +6.05137515267E-02
1.57000000000E+09 -5.54284801121E-01 +1.36070490941E-01 +1.88581402628E-03 +3.82003049131E-04 +1.99377659660E-03 +3.93563839392E-04 -6.60682613918E-01 +1.15991456416E-01
