# Hz S RI R 50
! CMT, C1220, 16058040, 17.2.0/1
! Date: 14/08/2018 11:46:48
! Data: Format (Calibration Info)
! Freq                      S11: Re/Im (F2)                       S21: Re/Im (F2)                       S12: Re/Im (F2)                       S22: Re/Im (F2)            
1.00000000000E+09 -6.48833226170E-01 +7.15211754525E-01 +2.27290345058E-05 -6.92258624947E-06 -1.62183449862E-05 +1.50070095258E-05 -7.55106154024E-01 +6.24549164041E-01
1.00500000000E+09 -6.42007723657E-01 +7.20104757556E-01 -3.92079094434E-05 +4.25543390190E-05 -1.30704719340E-05 +2.49080215587E-06 -7.51563959950E-01 +6.28609459268E-01
1.01000000000E+09 -6.35882915169E-01 +7.24544285884E-01 +1.00222416561E-06 +2.61116460527E-05 -5.69049061720E-05 +5.58848515233E-05 -7.47986604018E-01 +6.32355278713E-01
1.01500000000E+09 -6.31034419336E-01 +7.28383924997E-01 +1.06619369148E-05 +1.22450426347E-05 -2.23097703223E-05 +4.17170910217E-05 -7.44553713868E-01 +6.36152578127E-01
1.02000000000E+09 -6.27204311754E-01 +7.31565701839E-01 -3.21112661247E-05 +2.70029982938E-05 -2.05342728187E-05 +5.47670571634E-05 -7.41023943619E-01 +6.39869984362E-01
1.02500000000E+09 -6.24295894781E-01 +7.34344905498E-01 -5.34196965270E-06 -6.24884867927E-05 +5.06273363211E-06 +3.70375404782E-05 -7.38098471786E-01 +6.43591115434E-01
1.03000000000E+09 -6.21657061689E-01 +7.36804298373E-01 +5.72801953970E-06 +1.87752487354E-05 +1.23130173540E-05 +2.94053974848E-05 -7.34706351530E-01 +6.47345837122E-01
1.03500000000E+09 -6.18388051357E-01 +7.39491100533E-01 -3.28791294919E-05 -9.58801223563E-06 +3.97789311457E-05 -1.55157897300E-05 -7.30966371200E-01 +6.51339755123E-01
1.04000000000E+09 -6.14200959557E-01 +7.42529943821E-01 -8.71049773371E-06 -1.08619884974E-06 -2.11914487993E-05 -5.13816539529E-06 -7.27197725010E-01 +6.54894810993E-01
1.04500000000E+09 -6.08624156163E-01 +7.46154961022E-01 +3.09075762795E-05 -4.14529466457E-06 +6.17296731035E-05 -4.78141419674E-05 -7.23693153315E-01 +6.58406217335E-01
1.05000000000E+09 -6.01561960469E-01 +7.50322628407E-01 -2.06964427408E-05 +4.36237214102E-05 -2.97385672740E-05 +2.94840493879E-05 -7.20363990573E-01 +6.61934970921E-01
1.05500000000E+09 -5.93500119430E-01 +7.54907235243E-01 -2.08698398159E-05 +2.75174488202E-05 +6.83683677153E-06 +4.34778921516E-05 -7.16985548312E-01 +6.65514114680E-01
1.06000000000E+09 -5.85128943244E-01 +7.59937592473E-01 -2.18755721481E-05 +3.27070753832E-05 -1.83225106796E-05 +5.31377840394E-06 -7.13798224198E-01 +6.69255517137E-01
1.06500000000E+09 -5.77121860100E-01 +7.64659907351E-01 +6.19270598925E-07 -3.50866829146E-05 +2.31031904258E-06 +3.27636089007E-05 -7.10109179806E-01 +6.73022314475E-01
1.07000000000E+09 -5.70172360806E-01 +7.68947153283E-01 +4.45992512211E-06 +7.54085972736E-06 -1.24898231349E-05 +3.74317430813E-05 -7.05981053372E-01 +6.76703517439E-01
1.07500000000E+09 -5.64612424999E-01 +7.72697418644E-01 +1.53340683786E-05 +2.33014018768E-05 -2.35940259941E-05 +3.46793684658E-05 -7.01904168740E-01 +6.80443148422E-01
1.08000000000E+09 -5.60584393755E-01 +7.75722703379E-01 -2.54386273538E-05 +3.00699226841E-05 +1.62044724359E-05 +8.55057554187E-06 -6.97787179756E-01 +6.84308467598E-01
1.08500000000E+09 -5.57698294918E-01 +7.77998092891E-01 +3.30910680988E-05 -1.04141435428E-05 +4.64378386676E-06 +4.06153783883E-05 -6.93658236682E-01 +6.88099431433E-01
1.09000000000E+09 -5.55210987065E-01 +7.80065269046E-01 +1.54183507348E-05 +6.95543537486E-06 +2.95285962336E-05 +2.20699717851E-05 -6.89769148004E-01 +6.91901169296E-01
1.09500000000E+09 -5.52913807203E-01 +7.81890882227E-01 +4.77067794403E-05 +2.37112075277E-05 -4.94410060795E-06 +8.32401325374E-06 -6.85932401199E-01 +6.95822114226E-01
1.10000000000E+09 -5.49634156613E-01 +7.83773380673E-01 +1.78955496732E-05 +2.63701415516E-05 -5.48823495153E-06 +1.85847641120E-05 -6.81983446932E-01 +6.99791555853E-01
1.10500000000E+09 -5.45267522674E-01 +7.86473855910E-01 -2.97246242154E-05 +2.43307842366E-06 +2.32535586497E-05 -2.29352047126E-05 -6.77751708803E-01 +7.03342118949E-01
1.11000000000E+09 -5.39419350808E-01 +7.89635917879E-01 +7.96324664769E-05 +2.60192390937E-05 +5.48925802132E-05 +8.39222779549E-06 -6.73689032907E-01 +7.06649358876E-01
1.11500000000E+09 -5.32389180420E-01 +7.93383405163E-01 +2.43655866596E-05 -1.25607790661E-05 -4.68716534463E-06 +1.89200880715E-05 -6.69493690887E-01 +7.10118290941E-01
1.12000000000E+09 -5.24754346870E-01 +7.97387353948E-01 +4.07130542535E-05 -2.86191291816E-05 +3.04020773314E-05 -3.33086842843E-05 -6.65418593415E-01 +7.13854392188E-01
1.12500000000E+09 -5.17116690771E-01 +8.01263180792E-01 +5.86933582452E-05 -1.67159610997E-05 -1.75291049349E-05 +2.50920031654E-05 -6.61102795456E-01 +7.17829249886E-01
1.13000000000E+09 -5.10241451838E-01 +8.04937933893E-01 +2.76276068374E-05 -2.17937555626E-05 +3.23694126782E-05 -2.49792250452E-05 -6.56788861279E-01 +7.21601415311E-01
1.13500000000E+09 -5.04101879174E-01 +8.07712799819E-01 -1.88683911854E-05 +7.81829199300E-06 -2.12405816631E-07 -9.28456187850E-06 -6.52300640256E-01 +7.25400029867E-01
1.14000000000E+09 -4.98899705984E-01 +8.10038291211E-01 +1.34984628641E-05 +8.29575333502E-06 +1.16255673869E-05 +2.20554086518E-05 -6.47728553365E-01 +7.28998257358E-01
1.14500000000E+09 -4.94689514614E-01 +8.11870030847E-01 +3.38846546970E-05 +2.20566254823E-05 +4.03977120743E-05 +5.50634891860E-05 -6.42900093801E-01 +7.32296574286E-01
1.15000000000E+09 -4.90475879634E-01 +8.13579823403E-01 +6.77598827368E-06 -1.68648723239E-05 +4.51747742240E-05 +3.07180622756E-05 -6.38244001363E-01 +7.36241204603E-01
1.15500000000E+09 -4.86398838555E-01 +8.15208275667E-01 +3.98448279799E-05 -2.66658833031E-05 +6.57383169597E-05 -1.01363226588E-05 -6.33432145149E-01 +7.40023817088E-01
1.16000000000E+09 -4.81173414372E-01 +8.17323804144E-01 -1.18548558339E-06 -6.63970021289E-06 +3.08033381900E-05 -1.45529212421E-05 -6.28735470452E-01 +7.43909046300E-01
1.16500000000E+09 -4.75094507244E-01 +8.19955992253E-01 +2.54843443265E-05 -9.83795528568E-06 +3.66965006238E-05 -2.26570937452E-05 -6.23642223669E-01 +7.47631504030E-01
1.17000000000E+09 -4.67820287086E-01 +8.22887505650E-01 +1.09329583988E-05 -2.35786447187E-05 +7.08240401174E-05 +7.22865383939E-07 -6.18198544374E-01 +7.50998821174E-01
1.17500000000E+09 -4.59757758981E-01 +8.26182203044E-01 +2.16002330002E-05 -3.96200308433E-05 +5.14261546385E-05 -3.12309229642E-05 -6.12402397749E-01 +7.54162644694E-01
1.18000000000E+09 -4.51509911719E-01 +8.29716558799E-01 +4.32356326688E-05 -3.91114023263E-05 +6.43048783520E-05 -2.89092878005E-05 -6.06959383347E-01 +7.57382213705E-01
1.18500000000E+09 -4.43644134908E-01 +8.32812750363E-01 +5.85650344235E-05 -4.60125293484E-05 +4.80222809165E-05 -3.38853036901E-06 -6.00740508929E-01 +7.60445399011E-01
1.19000000000E+09 -4.36306217856E-01 +8.35421960700E-01 +8.19414388604E-05 -5.86448053954E-05 +5.62282295463E-05 -8.50008865778E-05 -5.94452817105E-01 +7.63143007267E-01
1.19500000000E+09 -4.30015886601E-01 +8.37469940157E-01 +4.81631041780E-05 -1.30168525783E-04 +3.24978110964E-05 -1.28319267619E-04 -5.88517196000E-01 +7.64388918661E-01
1.20000000000E+09 -4.24761560787E-01 +8.38363498774E-01 -4.31514861646E-05 -1.24854638094E-04 -8.31630171727E-05 -1.36222766277E-04 -5.83822783313E-01 +7.64611571583E-01
1.20500000000E+09 -4.20107908292E-01 +8.39506600975E-01 -8.31802298502E-05 -8.09393463548E-05 -9.70334242441E-05 -7.31207921592E-05 -5.81581032041E-01 +7.65275995060E-01
1.21000000000E+09 -4.15318298809E-01 +8.40805231624E-01 -6.36375143961E-05 -2.97757667400E-05 -9.64785459402E-05 -4.09893807095E-05 -5.80014749253E-01 +7.68309471972E-01
1.21500000000E+09 -4.09111138164E-01 +8.42167529652E-01 -3.86005292012E-05 +3.80547384268E-05 -6.69271767015E-05 +3.28139847431E-05 -5.77178678820E-01 +7.72933998183E-01
1.22000000000E+09 -4.02075172046E-01 +8.44209342683E-01 -6.65166722737E-05 +7.69526033885E-06 -8.45634874641E-05 +2.71686756774E-05 -5.73019635921E-01 +7.78159158705E-01
1.22500000000E+09 -3.93406923258E-01 +8.46671987803E-01 -1.57696491592E-06 -1.51622379515E-06 +2.35555769054E-05 -3.36911906436E-05 -5.67773131305E-01 +7.83317339687E-01
1.23000000000E+09 -3.83879244046E-01 +8.49584974925E-01 -1.00292715841E-05 -6.82232664781E-05 -3.36804898741E-05 -4.70487487352E-05 -5.62132238021E-01 +7.88077922442E-01
1.23500000000E+09 -3.74307646158E-01 +8.52950014112E-01 +4.07177385712E-06 -4.33605864618E-05 -4.95086109461E-05 -3.87932397006E-05 -5.56260602849E-01 +7.92456043111E-01
1.24000000000E+09 -3.64778629238E-01 +8.56452294303E-01 -2.80599290162E-05 -7.27167879114E-05 -2.90519317664E-05 -4.67938748248E-05 -5.50182544923E-01 +7.96472504145E-01
1.24500000000E+09 -3.56162203027E-01 +8.59982151591E-01 -6.54093453860E-05 -7.26891118891E-05 -2.92906735980E-05 -6.67106401072E-05 -5.43866345833E-01 +8.00364908072E-01
1.25000000000E+09 -3.48502026101E-01 +8.62908811246E-01 -5.05856348553E-05 -3.14254353378E-05 -4.28995303727E-05 -8.24793481897E-06 -5.37178006544E-01 +8.04700229944E-01
1.25500000000E+09 -3.41740030574E-01 +8.64994878969E-01 -4.92134249300E-05 -5.21508255753E-05 -5.27806978224E-05 -2.77411343483E-05 -5.30408604274E-01 +8.08517060886E-01
1.26000000000E+09 -3.35479639629E-01 +8.66559229371E-01 -8.02276524596E-05 +3.34450990835E-07 -5.41624779786E-05 +2.48836209088E-05 -5.23591949655E-01 +8.12866183201E-01
1.26500000000E+09 -3.29484943437E-01 +8.67354051693E-01 -2.71095954547E-05 +7.12597784885E-06 -5.28367110632E-05 +4.56375877521E-05 -5.16622168108E-01 +8.16869676885E-01
1.27000000000E+09 -3.22837385741E-01 +8.67895279530E-01 -4.67874893345E-05 -4.29903275999E-05 -5.44994956815E-05 -2.87075111839E-05 -5.09639151626E-01 +8.20640524100E-01
1.27500000000E+09 -3.14882343557E-01 +8.68452111684E-01 -7.69874532086E-05 -2.65127726717E-05 -8.86420398316E-05 -3.72520862439E-05 -5.02746661206E-01 +8.24226871013E-01
1.28000000000E+09 -3.05193464919E-01 +8.69537689637E-01 -5.41685412470E-05 +1.13290188337E-05 -8.95165374161E-05 +1.42246182748E-05 -4.95736261825E-01 +8.27628075114E-01
1.28500000000E+09 -2.93781965969E-01 +8.71066984487E-01 -1.18317072464E-04 -3.42162286467E-06 -1.09856574659E-04 -4.02972149406E-06 -4.88340082143E-01 +8.31338107675E-01
1.29000000000E+09 -2.81601636855E-01 +8.73143472555E-01 -9.48739752528E-05 +6.69543733968E-05 -9.84179036715E-05 -1.88384273951E-05 -4.80856742835E-01 +8.35146648787E-01
1.29500000000E+09 -2.69436372670E-01 +8.75893576321E-01 -5.09616375739E-05 +4.17554303539E-05 -5.12552861511E-05 +4.69487837148E-05 -4.72710643121E-01 +8.38550613874E-01
1.30000000000E+09 -2.57575477701E-01 +8.79134787593E-01 -1.30146032403E-04 +2.24585204879E-05 -8.35446038121E-05 +1.41410717998E-05 -4.64783330927E-01 +8.42297606190E-01
1.30500000000E+09 -2.46921008191E-01 +8.82292652579E-01 -1.11368745419E-04 +6.73437509716E-05 -8.12218322691E-05 +5.34330460463E-05 -4.56726741208E-01 +8.45849069070E-01
1.31000000000E+09 -2.37710417126E-01 +8.84839456704E-01 -7.99478558658E-05 +8.54043975903E-05 -1.12819729374E-04 +9.23491632289E-05 -4.48347170021E-01 +8.49204525730E-01
1.31500000000E+09 -2.30164988908E-01 +8.86699376741E-01 -9.56565404301E-05 +1.12365074555E-04 -1.23515880348E-04 +1.09459638402E-04 -4.39403188603E-01 +8.52620663608E-01
1.32000000000E+09 -2.23841676807E-01 +8.87411798093E-01 -9.57200074916E-05 +7.17147559093E-05 -1.51458215315E-04 +8.36011229092E-05 -4.30235810714E-01 +8.55990875553E-01
1.32500000000E+09 -2.17997959118E-01 +8.87151433075E-01 -9.04374547798E-05 +9.93986102183E-05 -7.07930173026E-05 +1.01239732788E-04 -4.20501920467E-01 +8.59517681608E-01
1.33000000000E+09 -2.11321398121E-01 +8.86649525386E-01 -3.92399363944E-05 +8.41670738744E-05 -7.55559205246E-05 +1.63725152920E-04 -4.10725939272E-01 +8.62760210407E-01
1.33500000000E+09 -2.02702676220E-01 +8.85861477587E-01 -3.58723015844E-05 +1.11461253719E-04 -4.29359424611E-05 +1.05402513984E-04 -4.00798767277E-01 +8.66030225926E-01
1.34000000000E+09 -1.92141982106E-01 +8.85094890690E-01 -8.11054720267E-05 +7.84763038835E-05 -6.63353442198E-05 +1.59801439463E-04 -3.90548781691E-01 +8.69307718452E-01
1.34500000000E+09 -1.79088328864E-01 +8.84572354646E-01 -8.17155912834E-05 +1.66121916833E-04 -8.84254090600E-05 +1.20392886007E-04 -3.79601177406E-01 +8.72632294974E-01
1.35000000000E+09 -1.64072822185E-01 +8.84605850350E-01 -9.72540956177E-05 +2.02490447796E-04 -5.78956810897E-05 +2.62255548878E-04 -3.68422845034E-01 +8.75766095244E-01
1.35500000000E+09 -1.47788946668E-01 +8.85002446681E-01 -1.91341714324E-05 +2.14937722126E-04 +3.12775764103E-05 +2.60456105287E-04 -3.56775655300E-01 +8.78513488457E-01
1.36000000000E+09 -1.31560288110E-01 +8.85616330451E-01 -2.45028236617E-05 +2.46663076563E-04 -2.03043012803E-05 +2.34085504319E-04 -3.44843132311E-01 +8.81271400031E-01
1.36500000000E+09 -1.15846291037E-01 +8.86052327184E-01 +4.68630587424E-05 +3.12722053774E-04 +4.65867960067E-05 +3.18980922744E-04 -3.32502786803E-01 +8.83654080032E-01
1.37000000000E+09 -1.01800344848E-01 +8.86006754982E-01 +1.35534936911E-04 +3.86208902155E-04 +1.15371323090E-04 +3.56076707817E-04 -3.19659343631E-01 +8.86164035961E-01
1.37500000000E+09 -8.95287350878E-02 +8.85219524306E-01 +3.13983449280E-04 +3.36752428396E-04 +2.43736835811E-04 +3.42645503596E-04 -3.05913745798E-01 +8.88264002367E-01
1.38000000000E+09 -7.86631906642E-02 +8.83719854714E-01 +2.93255288070E-04 +1.70004621162E-04 +2.19559202174E-04 +2.26142906201E-04 -2.91479430898E-01 +8.90132250218E-01
1.38500000000E+09 -6.76385923709E-02 +8.81647058546E-01 +2.64175835862E-04 +2.03607325321E-04 +2.46687414898E-04 +2.76849775737E-04 -2.76104620189E-01 +8.91895824799E-01
1.39000000000E+09 -5.60512522993E-02 +8.78692074464E-01 +3.09631760225E-04 +2.25437447591E-04 +3.26396695660E-04 +3.06082910903E-04 -2.60178345750E-01 +8.93295923337E-01
1.39500000000E+09 -4.24122484923E-02 +8.74884969514E-01 +3.64368272291E-04 +2.80153948419E-04 +4.80004621215E-04 +2.36538833080E-04 -2.43353179274E-01 +8.94012527031E-01
1.40000000000E+09 -2.65456496215E-02 +8.69958935921E-01 +5.10544567255E-04 +2.46342551596E-04 +5.78855701242E-04 +1.65632686325E-04 -2.25657867125E-01 +8.94588735154E-01
1.40500000000E+09 -8.69759086934E-03 +8.64653968815E-01 +6.97844199779E-04 +6.57798517645E-05 +6.80177975945E-04 +3.20084603756E-05 -2.06923452488E-01 +8.94311170906E-01
1.41000000000E+09 +1.12630547444E-02 +8.59053622551E-01 +6.48478308313E-04 -2.12072804972E-04 +6.77144980293E-04 -2.15147984500E-04 -1.87008580586E-01 +8.93413696092E-01
1.41500000000E+09 +3.25891355445E-02 +8.53292639916E-01 +5.56570774938E-04 -2.37771021949E-04 +5.37874668028E-04 -2.14967471390E-04 -1.65608744090E-01 +8.91747949754E-01
1.42000000000E+09 +5.49117022605E-02 +8.47292822395E-01 +5.54967375956E-04 -3.66523583170E-04 +6.25229385068E-04 -3.38334519430E-04 -1.42974512328E-01 +8.89081569479E-01
1.42500000000E+09 +7.73367179977E-02 +8.39741650703E-01 +4.14977868566E-04 -4.58342541413E-04 +4.46774718233E-04 -5.57328557388E-04 -1.19578933760E-01 +8.85583643134E-01
1.43000000000E+09 +9.87156965315E-02 +8.30469788926E-01 +4.01341960145E-04 -4.17916083640E-04 +4.04636029418E-04 -5.28366608546E-04 -9.46459420809E-02 +8.81139851954E-01
1.43500000000E+09 +1.19260675211E-01 +8.19753303444E-01 +4.33457503803E-04 -5.78395016356E-04 +4.09347340949E-04 -6.11955350060E-04 -6.83965330631E-02 +8.74544895832E-01
1.44000000000E+09 +1.39557128370E-01 +8.07120064918E-01 +4.01795938332E-04 -6.33989712057E-04 +3.41738728045E-04 -7.21620649522E-04 -4.05205442852E-02 +8.66092990468E-01
1.44500000000E+09 +1.60617853043E-01 +7.92245492470E-01 +2.92747629511E-04 -9.51173271907E-04 +2.51892828898E-04 -9.84364065743E-04 -1.05038471997E-02 +8.54800172609E-01
1.45000000000E+09 +1.83413850307E-01 +7.74163950303E-01 -9.83711639539E-05 -1.00777179082E-03 -1.96779186543E-04 -1.07099021162E-03 +2.11058923469E-02 +8.40681040266E-01
1.45500000000E+09 +2.07639462713E-01 +7.52829611992E-01 -3.67965446732E-04 -8.86461187740E-04 -4.30532666751E-04 -8.21047119538E-04 +5.43224554631E-02 +8.23128758068E-01
1.46000000000E+09 +2.34256362127E-01 +7.28375479371E-01 -4.81700080910E-04 -6.84138558265E-04 -5.86280954567E-04 -6.61741203549E-04 +8.87929002824E-02 +8.01862657090E-01
1.46500000000E+09 +2.62752444440E-01 +6.99766158036E-01 -5.03642436269E-04 -4.75645052626E-04 -5.00792608243E-04 -4.25343599454E-04 +1.24944512900E-01 +7.75972334786E-01
1.47000000000E+09 +2.92286420714E-01 +6.67057195730E-01 -2.60304182003E-04 -4.70724827304E-04 -2.55977459154E-04 -4.28499668277E-04 +1.62217526118E-01 +7.43234007642E-01
1.47500000000E+09 +3.21430193311E-01 +6.29081041349E-01 -3.66653290617E-04 -7.35604430410E-04 -3.65722707526E-04 -7.63472589907E-04 +2.00231457369E-01 +7.03365222660E-01
1.48000000000E+09 +3.48103837347E-01 +5.85462332555E-01 -8.07151624660E-04 -8.17703263470E-04 -7.72503624209E-04 -7.87035159018E-04 +2.37425821962E-01 +6.54533362804E-01
1.48500000000E+09 +3.70853919153E-01 +5.35837696731E-01 -9.85982287687E-04 -5.64235738092E-04 -1.03650416288E-03 -5.69668721751E-04 +2.72264837682E-01 +5.96374290701E-01
1.49000000000E+09 +3.88144945133E-01 +4.79015416104E-01 -1.24875832817E-03 -2.29633115046E-04 -1.30812506709E-03 -1.30546114483E-04 +3.01508070754E-01 +5.27752238236E-01
1.49500000000E+09 +3.98696077831E-01 +4.14719400305E-01 -1.21868901704E-03 -1.60036689820E-04 -1.12034941243E-03 -7.50910753062E-05 +3.22673872007E-01 +4.48784086232E-01
1.50000000000E+09 +4.00532353319E-01 +3.41183206762E-01 -1.37577861682E-03 +1.73422063524E-04 -1.23278066439E-03 +2.00597500587E-04 +3.30730160021E-01 +3.58666305813E-01
1.50500000000E+09 +3.89747601451E-01 +2.59989636424E-01 -1.17161818220E-03 +6.00030515620E-04 -1.14889040334E-03 +5.77933696433E-04 +3.20584883249E-01 +2.60087075413E-01
1.51000000000E+09 +3.64957517505E-01 +1.73523038256E-01 -9.22973161468E-04 +5.35340891712E-04 -8.75432028618E-04 +4.67364133108E-04 +2.89543242846E-01 +1.59195825367E-01
1.51500000000E+09 +3.23775241015E-01 +8.50331375491E-02 -1.24358994695E-03 +6.78574966257E-04 -1.23843839869E-03 +6.27502502941E-04 +2.37545649615E-01 +6.01421166309E-02
1.52000000000E+09 +2.61756727284E-01 +9.76808339869E-04 -1.35724219134E-03 +1.03895822417E-03 -1.35739241429E-03 +9.72919856876E-04 +1.61857975266E-01 -2.98647730931E-02
1.52500000000E+09 +1.82963460626E-01 -6.96845574987E-02 -1.16537765341E-03 +1.97395276979E-03 -1.18249560505E-03 +1.96360298411E-03 +6.57231095530E-02 -1.00784964906E-01
1.53000000000E+09 +8.89886749461E-02 -1.23100262846E-01 -3.73846001198E-04 +2.63615552214E-03 -4.14128237621E-04 +2.65100491574E-03 -4.11277325035E-02 -1.48077041226E-01
1.53500000000E+09 -1.55459264385E-02 -1.53631185794E-01 +1.53962858046E-03 +2.35509813157E-03 +1.50202175154E-03 +2.41743755736E-03 -1.54275715251E-01 -1.72120148091E-01
1.54000000000E+09 -1.24197766138E-01 -1.57940937937E-01 +1.52052667682E-03 +1.06416935110E-03 +1.49569493477E-03 +1.04250879557E-03 -2.66755209713E-01 -1.70250277015E-01
1.54500000000E+09 -2.28547841187E-01 -1.38618864196E-01 +1.43186672632E-03 +6.86908884881E-04 +1.39829491872E-03 +7.32677959154E-04 -3.67685683751E-01 -1.47548516160E-01
1.55000000000E+09 -3.23196957888E-01 -1.00236438602E-01 +1.42204489619E-03 +1.81452832189E-04 +1.44033870469E-03 +1.74862971238E-04 -4.56426762241E-01 -1.09923952085E-01
1.55500000000E+09 -4.04410977173E-01 -4.86883764020E-02 +9.80020266981E-04 -2.28614714314E-04 +9.69950951897E-04 -1.60411462836E-04 -5.29621810523E-01 -6.09695616432E-02
1.56000000000E+09 -4.70270478792E-01 +8.92866792616E-03 +7.95494340790E-04 +2.10224605570E-04 +8.31950181105E-04 +2.26060740066E-04 -5.87854428210E-01 -6.78797705290E-03
1.56500000000E+09 -5.22571234847E-01 +6.83819721043E-02 +1.15390651519E-03 +6.45835114949E-05 +1.27951956242E-03 +4.99710751943E-05 -6.33174955303E-01 +5.01064209554E-02
1.57000000000E+09 -5.62332578233E-01 +1.26522572679E-01 +1.45010793753E-03 -7.97211696605E-04 +1.57354539728E-03 -8.33433897165E-04 -6.67585458181E-01 +1.06106586809E-01
