# Hz S RI R 50
! CMT, C1220, 16058040, 17.2.0/1
! Date: 14/08/2018 12:41:05
! Data: Format (Calibration Info)
! Freq                      S11: Re/Im (F2)                       S21: Re/Im (F2)                       S12: Re/Im (F2)                       S22: Re/Im (F2)            
1.00000000000E+09 -6.47686042859E-01 +7.13737583279E-01 +2.30643469133E-05 +4.46852225303E-05 -2.12799382260E-05 +5.05787245719E-05 -6.70554301452E-01 +5.41165691856E-01
1.00500000000E+09 -6.40720184208E-01 +7.18659125186E-01 +2.81051594837E-05 -4.15637681301E-05 +3.13357445505E-05 +3.39852223890E-05 -6.67505042487E-01 +5.44876491920E-01
1.01000000000E+09 -6.34569817386E-01 +7.23119761033E-01 +2.24090107693E-05 +8.42952759019E-06 -7.21228549331E-05 -3.14048425803E-06 -6.64552778393E-01 +5.48064972933E-01
1.01500000000E+09 -6.30000003291E-01 +7.27083406268E-01 -1.07693652495E-06 -8.88636285069E-06 +9.97800385619E-06 +2.17036592374E-05 -6.61955867048E-01 +5.51237252861E-01
1.02000000000E+09 -6.26467377375E-01 +7.30683595997E-01 +1.36984721050E-05 -3.49247970271E-07 -6.06129878869E-06 -2.49498319333E-05 -6.59273051280E-01 +5.54396262594E-01
1.02500000000E+09 -6.23850169245E-01 +7.33570591973E-01 -9.64639724966E-06 -9.53273749229E-06 -3.22884838296E-05 +5.64169320053E-06 -6.56992910824E-01 +5.57592500813E-01
1.03000000000E+09 -6.21918731693E-01 +7.36328255742E-01 -1.67381811193E-06 +6.60825189234E-06 -3.73166921007E-06 +3.39514263144E-05 -6.54291028675E-01 +5.60923746340E-01
1.03500000000E+09 -6.19088366278E-01 +7.38783259754E-01 -1.80967222724E-05 +3.08458754260E-05 -4.61519777354E-05 -5.51716603644E-06 -6.51318027344E-01 +5.64608234849E-01
1.04000000000E+09 -6.15499689087E-01 +7.41728116050E-01 +1.61444407760E-05 -1.60800848600E-06 -3.80039724374E-05 +2.04754395829E-05 -6.48200063997E-01 +5.68185383283E-01
1.04500000000E+09 -6.10597194263E-01 +7.45003159926E-01 -1.10215578451E-05 +1.05169909678E-05 -4.07383702194E-05 +2.27177614470E-05 -6.45436747132E-01 +5.71368515475E-01
1.05000000000E+09 -6.04177073781E-01 +7.48968955676E-01 -2.62574972258E-05 +5.29504213524E-05 +1.61951877662E-05 +1.97310211662E-06 -6.42511707665E-01 +5.74527314050E-01
1.05500000000E+09 -5.96677690687E-01 +7.53460484346E-01 -3.58534149564E-06 +2.49785933215E-05 +1.81924990481E-05 -4.31733908856E-06 -6.40083393098E-01 +5.77909956684E-01
1.06000000000E+09 -5.88602087946E-01 +7.58181167085E-01 +4.52541549969E-06 +2.60384060895E-05 +4.34075624549E-05 +3.03893629044E-05 -6.37363645374E-01 +5.81461239568E-01
1.06500000000E+09 -5.80749925340E-01 +7.62897902175E-01 +1.51046596740E-05 +6.60173562130E-05 +6.85324165286E-05 +2.30234385361E-05 -6.34231724916E-01 +5.85018512433E-01
1.07000000000E+09 -5.73514019190E-01 +7.67051871676E-01 +8.66132397403E-06 +1.51170845779E-05 -3.00373910196E-06 +1.50569373109E-05 -6.30782366650E-01 +5.88601465697E-01
1.07500000000E+09 -5.67786187854E-01 +7.70887387493E-01 -2.05464445113E-05 +2.00513406682E-05 -1.52362854612E-05 +3.13011693551E-05 -6.27153184048E-01 +5.92021807278E-01
1.08000000000E+09 -5.63374019889E-01 +7.74289362747E-01 +3.98520576358E-05 +4.16406880575E-05 +6.32748982963E-05 +1.83005214184E-05 -6.23955483614E-01 +5.95594181124E-01
1.08500000000E+09 -5.60097313555E-01 +7.76983796093E-01 -1.42705452705E-05 +1.92931070637E-05 -5.21846052072E-05 +2.13296359097E-05 -6.20743933258E-01 +5.98923461872E-01
1.09000000000E+09 -5.57430733403E-01 +7.79258888872E-01 +8.04339233777E-05 +1.43381529878E-05 +3.19582651130E-05 -1.86093826140E-05 -6.17803898152E-01 +6.02519911375E-01
1.09500000000E+09 -5.55243026986E-01 +7.81085831726E-01 +3.38720802965E-05 +2.98819175919E-05 +2.48245726498E-05 +2.82026751131E-05 -6.14783257302E-01 +6.06122849569E-01
1.10000000000E+09 -5.51841432828E-01 +7.83361561315E-01 +4.61795497270E-05 +4.90596821037E-06 +5.95392764135E-06 +2.86082430216E-05 -6.11475814464E-01 +6.09630810280E-01
1.10500000000E+09 -5.47786099754E-01 +7.86173244947E-01 -1.92985533979E-06 +2.90989984143E-07 +5.93250847356E-07 -2.24883877796E-05 -6.08134948700E-01 +6.13001512199E-01
1.11000000000E+09 -5.42300869514E-01 +7.89402062667E-01 +2.56441943142E-05 +5.20198264279E-06 +4.06441528621E-05 -1.40300904319E-05 -6.04685468111E-01 +6.16261739187E-01
1.11500000000E+09 -5.35603495218E-01 +7.93165871365E-01 +6.07765049297E-05 +2.49242113910E-06 +9.80105978532E-06 +2.23914596384E-05 -6.01350795962E-01 +6.19405612488E-01
1.12000000000E+09 -5.28238383609E-01 +7.96975989819E-01 +4.72820258064E-05 +2.33244306247E-05 -1.40814165827E-06 +6.28599279641E-05 -5.98018313645E-01 +6.23033211465E-01
1.12500000000E+09 -5.20764440816E-01 +8.00958275252E-01 +7.29250059639E-06 +2.45964951087E-05 +2.33352971940E-05 -1.47567182210E-05 -5.94636945368E-01 +6.26800178588E-01
1.13000000000E+09 -5.13766032382E-01 +8.04595977199E-01 +6.28012023045E-05 -1.19522459249E-06 +3.42547377438E-05 +4.68056797439E-05 -5.90893481867E-01 +6.30530934815E-01
1.13500000000E+09 -5.07475875974E-01 +8.07428379061E-01 +2.05512361321E-05 +5.37686676024E-05 +1.82476648322E-05 +1.40204076309E-06 -5.87204870734E-01 +6.34186946093E-01
1.14000000000E+09 -5.02085895719E-01 +8.09784821151E-01 +3.37876999646E-06 +2.78535072600E-05 +2.78212196736E-05 +8.38433226529E-06 -5.83048858811E-01 +6.37575014673E-01
1.14500000000E+09 -4.97686048740E-01 +8.11472678651E-01 +5.13903865218E-05 -6.99302569101E-06 +8.37830666923E-05 -4.38299942020E-05 -5.79014636133E-01 +6.41028307214E-01
1.15000000000E+09 -4.93430900025E-01 +8.12954956701E-01 +6.12726627315E-05 +1.22185144511E-06 +9.47121918723E-06 -1.98915837497E-05 -5.75032728934E-01 +6.44646482787E-01
1.15500000000E+09 -4.89622950607E-01 +8.14762181691E-01 +4.92743144514E-05 +3.83892626596E-05 +3.23098619532E-05 -5.21381832783E-05 -5.71183248789E-01 +6.48250878805E-01
1.16000000000E+09 -4.84891770393E-01 +8.16608031249E-01 +4.33051476325E-05 -2.03378174410E-05 +5.06476660000E-05 -3.92758196709E-05 -5.66959168959E-01 +6.51926366437E-01
1.16500000000E+09 -4.79357532302E-01 +8.19267673718E-01 +6.83729004844E-05 -6.62517014092E-05 +2.92261622740E-05 -1.68541440542E-05 -5.62899504377E-01 +6.55346025971E-01
1.17000000000E+09 -4.72848163978E-01 +8.22508656714E-01 +3.92171512243E-05 -2.81886076391E-05 +6.53539050550E-05 -6.84912834403E-05 -5.58417044411E-01 +6.58629919619E-01
1.17500000000E+09 -4.65647742016E-01 +8.25810873278E-01 +5.07465618336E-05 -4.31788380352E-05 +5.99414686666E-05 -6.59785387667E-05 -5.53521611483E-01 +6.61786263692E-01
1.18000000000E+09 -4.58190817268E-01 +8.29592057071E-01 +6.96538445053E-05 -7.31264427139E-05 +4.82522220783E-05 -4.63207741503E-05 -5.48893652603E-01 +6.64853171213E-01
1.18500000000E+09 -4.50592693863E-01 +8.32871617805E-01 +6.47142847614E-05 -8.96593065509E-05 +4.30530921274E-05 -8.53543770044E-05 -5.43962593882E-01 +6.67935645835E-01
1.19000000000E+09 -4.43566667736E-01 +8.35588906602E-01 +3.55229626274E-05 -7.91426246014E-05 +8.40556487752E-05 -8.86628661752E-05 -5.38617431917E-01 +6.70635139778E-01
1.19500000000E+09 -4.37091477762E-01 +8.37686031603E-01 +9.07983601438E-05 -8.85058248919E-05 +7.21918744741E-05 -1.11728203270E-04 -5.33472281723E-01 +6.72094413448E-01
1.20000000000E+09 -4.31796015356E-01 +8.38639924166E-01 +3.18558475961E-05 -1.43980947398E-04 +1.59567923841E-05 -1.45655870726E-04 -5.29479179702E-01 +6.72621457608E-01
1.20500000000E+09 -4.26686707178E-01 +8.39738649389E-01 -1.02467940029E-04 -1.85682412454E-04 -9.15505939318E-05 -1.49042199980E-04 -5.27364678056E-01 +6.73495338887E-01
1.21000000000E+09 -4.21471344532E-01 +8.40955131251E-01 -1.04985050906E-04 -4.55264228578E-05 -7.50954491683E-05 -4.55170072616E-05 -5.25917574128E-01 +6.76153800577E-01
1.21500000000E+09 -4.15435019419E-01 +8.42436101489E-01 -8.18435040883E-05 +1.26335982452E-06 -8.72868025351E-05 -6.24159238022E-05 -5.23667936286E-01 +6.80600749438E-01
1.22000000000E+09 -4.07892256808E-01 +8.44469665528E-01 -1.14923944213E-05 -9.43775806481E-05 -1.62442406497E-05 -4.40235384208E-05 -5.20195120083E-01 +6.85474294353E-01
1.22500000000E+09 -3.99465466498E-01 +8.47324139318E-01 -4.35412631600E-05 +2.71789226000E-06 -3.46207162448E-05 -1.79820532745E-05 -5.16079733404E-01 +6.90350249119E-01
1.23000000000E+09 -3.90211435486E-01 +8.50495693165E-01 -3.23917702653E-05 -6.92326930829E-05 -4.99030270516E-05 -9.06640541914E-05 -5.11264960795E-01 +6.94852017954E-01
1.23500000000E+09 -3.80809393774E-01 +8.54075121959E-01 -1.78009178522E-05 -8.53153501194E-05 -3.29913394829E-05 -9.69297749458E-05 -5.06527653925E-01 +6.99065546318E-01
1.24000000000E+09 -3.71501146228E-01 +8.57963009775E-01 -3.75052218065E-05 -7.19621211209E-05 -9.11396971373E-06 -8.99271457621E-05 -5.01477716942E-01 +7.02738939907E-01
1.24500000000E+09 -3.62983742147E-01 +8.62121221458E-01 -4.51103489099E-05 -6.99235450928E-05 -1.77191022111E-05 -5.54491182593E-05 -4.96339411177E-01 +7.06493901461E-01
1.25000000000E+09 -3.55087695916E-01 +8.65606625460E-01 -1.87915840562E-05 -7.34867764329E-05 -2.78412086829E-05 -5.03322369101E-05 -4.90839010308E-01 +7.10668496533E-01
1.25500000000E+09 -3.48054209922E-01 +8.68177299728E-01 -8.01314041474E-05 -5.04747192753E-05 -1.18340498103E-04 -8.78938560407E-05 -4.85145896467E-01 +7.14689360467E-01
1.26000000000E+09 -3.41716593625E-01 +8.69841831750E-01 -4.43056738150E-05 -6.84174911578E-05 -8.35320888112E-05 -9.83267660064E-05 -4.79665634345E-01 +7.19027578777E-01
1.26500000000E+09 -3.35478830427E-01 +8.70865193578E-01 -5.43290819285E-05 -8.67021313474E-05 -7.47144155575E-05 -3.91112316569E-05 -4.73856368701E-01 +7.22964840194E-01
1.27000000000E+09 -3.28778376654E-01 +8.71800305417E-01 -4.86154068012E-05 -9.69166403322E-05 -1.05728925275E-04 -1.48657180144E-04 -4.67906801899E-01 +7.27043638160E-01
1.27500000000E+09 -3.20991488648E-01 +8.72669573262E-01 -1.71245432620E-04 -3.47653737194E-05 -1.59392612004E-04 -8.97732284046E-05 -4.61850274812E-01 +7.30783218195E-01
1.28000000000E+09 -3.11700967001E-01 +8.74108238960E-01 -1.35475905362E-04 -4.43804102583E-05 -1.64923164148E-04 -7.72105991281E-05 -4.55678492263E-01 +7.34611418020E-01
1.28500000000E+09 -3.00825703287E-01 +8.76030351325E-01 -1.51404005028E-04 -7.12701836792E-05 -2.14693343786E-04 -6.24248712028E-05 -4.49241834363E-01 +7.38577973857E-01
1.29000000000E+09 -2.89430404180E-01 +8.78502483237E-01 -1.56205005078E-04 -2.64049456923E-05 -1.82716595136E-04 -4.18283168323E-05 -4.42621691419E-01 +7.42523405530E-01
1.29500000000E+09 -2.77910457584E-01 +8.81669160921E-01 -1.90715595093E-04 -3.08710932185E-05 -1.67515827339E-04 -5.51561004328E-06 -4.35884383459E-01 +7.46335148597E-01
1.30000000000E+09 -2.66633122594E-01 +8.85275521428E-01 -1.55198208491E-04 -4.82051230554E-06 -1.73448580896E-04 +2.33991273576E-05 -4.28913302902E-01 +7.50292129414E-01
1.30500000000E+09 -2.56569466570E-01 +8.88515877503E-01 -1.28994281679E-04 -4.21468769155E-05 -2.14790037449E-04 +1.36238481675E-05 -4.21944614801E-01 +7.53856666105E-01
1.31000000000E+09 -2.47461199470E-01 +8.91131948100E-01 -2.15470406281E-04 +5.32602674078E-06 -2.11467637047E-04 -1.11317338591E-05 -4.14632558721E-01 +7.57557080503E-01
1.31500000000E+09 -2.40044442259E-01 +8.93006382993E-01 -1.95427575344E-04 +4.97593891480E-05 -1.99441108726E-04 +6.75558087943E-05 -4.06984634930E-01 +7.61229456159E-01
1.32000000000E+09 -2.33549915608E-01 +8.93733644790E-01 -2.09230764022E-04 +7.88431515896E-05 -2.36802552382E-04 +7.20526817582E-05 -3.98946035688E-01 +7.64986992308E-01
1.32500000000E+09 -2.27262935928E-01 +8.93752536045E-01 -1.91905005662E-04 +9.44216527397E-05 -2.33268263603E-04 +1.22264257153E-04 -3.90648422264E-01 +7.68643800430E-01
1.33000000000E+09 -2.19743023765E-01 +8.93549012628E-01 -1.89392910422E-04 +1.17010551856E-04 -1.80338182492E-04 +1.12143340963E-04 -3.82200742267E-01 +7.72255586451E-01
1.33500000000E+09 -2.10719113305E-01 +8.93053451283E-01 -1.52686403827E-04 +1.26824777914E-04 -1.83961760447E-04 +1.52290758351E-04 -3.73685196522E-01 +7.75866229970E-01
1.34000000000E+09 -1.99351167380E-01 +8.93002896201E-01 -2.29646514785E-04 +1.58095072091E-04 -1.85228824367E-04 +1.58857906042E-04 -3.64779032515E-01 +7.79445971522E-01
1.34500000000E+09 -1.85622213088E-01 +8.92976581613E-01 -1.81868849819E-04 +2.15826466336E-04 -2.00174731352E-04 +1.98318449489E-04 -3.55163399793E-01 +7.83363760575E-01
1.35000000000E+09 -1.70422328432E-01 +8.93472887658E-01 -1.74296615997E-04 +2.48445081894E-04 -1.91749695567E-04 +2.14395836600E-04 -3.45263637563E-01 +7.87004425226E-01
1.35500000000E+09 -1.54109927642E-01 +8.94374100939E-01 -1.64056560308E-04 +2.77953015221E-04 -2.51223023911E-04 +2.51322592652E-04 -3.34953760927E-01 +7.90564052742E-01
1.36000000000E+09 -1.37810150909E-01 +8.95229463745E-01 -1.98994895376E-04 +3.10015863506E-04 -1.35475998066E-04 +2.92319439314E-04 -3.24175661850E-01 +7.93961538269E-01
1.36500000000E+09 -1.22158076876E-01 +8.95917925938E-01 -1.49975058511E-04 +3.72998472782E-04 -1.66318535117E-04 +3.27156611336E-04 -3.13222283667E-01 +7.97108111880E-01
1.37000000000E+09 -1.08147066105E-01 +8.95859720068E-01 -8.99520428758E-05 +4.45970494204E-04 -1.42242098917E-04 +4.08946286698E-04 -3.01891924084E-01 +8.00221952343E-01
1.37500000000E+09 -9.58603968397E-02 +8.95164754290E-01 +1.86897791021E-05 +4.45783445212E-04 -6.22777682227E-05 +4.24782218788E-04 -2.89460357374E-01 +8.03400230175E-01
1.38000000000E+09 -8.46348470815E-02 +8.94068281922E-01 +1.55653945750E-06 +3.98133505825E-04 -4.81480007656E-05 +4.80100221664E-04 -2.76274065940E-01 +8.06482991506E-01
1.38500000000E+09 -7.30225329071E-02 +8.92346043784E-01 +6.86400037453E-05 +4.72828194274E-04 +2.60002990985E-05 +5.27451296159E-04 -2.62242300641E-01 +8.09372806481E-01
1.39000000000E+09 -6.05469836083E-02 +8.89851287209E-01 +5.39264841929E-05 +4.94119179162E-04 +8.35588078478E-05 +5.56628731835E-04 -2.47849828052E-01 +8.11947676295E-01
1.39500000000E+09 -4.59161008707E-02 +8.86841987784E-01 +1.04214099918E-04 +4.91278936198E-04 +2.13047473190E-04 +5.57730601619E-04 -2.32731312564E-01 +8.14103834396E-01
1.40000000000E+09 -2.87913964949E-02 +8.82785930317E-01 +1.09850935179E-04 +5.51401689247E-04 +1.80853309032E-04 +5.37591690931E-04 -2.16771968274E-01 +8.15963717468E-01
1.40500000000E+09 -9.83318814902E-03 +8.78450277720E-01 +2.47175856460E-04 +6.33035477199E-04 +2.80386976963E-04 +6.41374853077E-04 -1.99791154559E-01 +8.17207795422E-01
1.41000000000E+09 +1.10736529809E-02 +8.73624769380E-01 +3.80839199087E-04 +6.75721668524E-04 +3.89900979341E-04 +5.99879248402E-04 -1.81354989621E-01 +8.18116656224E-01
1.41500000000E+09 +3.30464524834E-02 +8.68325525923E-01 +4.45998678582E-04 +6.36901780576E-04 +4.89003362770E-04 +6.96629427066E-04 -1.61306078436E-01 +8.18426726010E-01
1.42000000000E+09 +5.54603383433E-02 +8.62220105643E-01 +6.42362206043E-04 +6.29203703825E-04 +7.10230057464E-04 +6.92618069314E-04 -1.39883171344E-01 +8.18032590113E-01
1.42500000000E+09 +7.72455355412E-02 +8.54774717666E-01 +7.47679122877E-04 +5.78660195131E-04 +8.75125722377E-04 +6.26297725111E-04 -1.17352735181E-01 +8.16591655180E-01
1.43000000000E+09 +9.82076617024E-02 +8.45936584021E-01 +8.33789608820E-04 +5.70466369589E-04 +9.77546454813E-04 +5.52483946058E-04 -9.38899967469E-02 +8.14314346274E-01
1.43500000000E+09 +1.18661752215E-01 +8.35198595909E-01 +9.92731741003E-04 +5.76568893400E-04 +1.09472735956E-03 +5.53177730359E-04 -6.88642888585E-02 +8.10251922779E-01
1.44000000000E+09 +1.39401180078E-01 +8.23011205461E-01 +1.41332305825E-03 +4.85935486480E-04 +1.47798971974E-03 +3.66324236006E-04 -4.18500828304E-02 +8.04503716248E-01
1.44500000000E+09 +1.62033360595E-01 +8.08031903572E-01 +1.57516513809E-03 +9.85545485862E-05 +1.59039521169E-03 +2.67221035881E-05 -1.22916096359E-02 +7.96358346871E-01
1.45000000000E+09 +1.86638863656E-01 +7.89500953105E-01 +1.54606973422E-03 -1.53724126604E-04 +1.56894739879E-03 -2.21822701739E-04 +1.90120712230E-02 +7.85075993776E-01
1.45500000000E+09 +2.13555412593E-01 +7.67517528396E-01 +1.62332713350E-03 -2.23948742254E-04 +1.61515885365E-03 -3.40276733062E-04 +5.21693671727E-02 +7.71068407465E-01
1.46000000000E+09 +2.43322309106E-01 +7.41724560843E-01 +1.88851236694E-03 -3.68371921619E-04 +1.71736616641E-03 -5.00873726596E-04 +8.68436797753E-02 +7.52633829781E-01
1.46500000000E+09 +2.74654826361E-01 +7.11385772753E-01 +2.19808250481E-03 -7.44362501667E-04 +2.05522870120E-03 -7.49316430827E-04 +1.23111767169E-01 +7.29932888421E-01
1.47000000000E+09 +3.07054361425E-01 +6.76501615699E-01 +2.45961905544E-03 -1.55074647084E-03 +2.24630920606E-03 -1.39315792218E-03 +1.60497362281E-01 +6.99753988837E-01
1.47500000000E+09 +3.38820885071E-01 +6.35774189958E-01 +2.30740892355E-03 -2.51720695036E-03 +2.24208469071E-03 -2.34773270258E-03 +1.98341242915E-01 +6.62691950673E-01
1.48000000000E+09 +3.67875018522E-01 +5.88510635702E-01 +1.53761511113E-03 -3.15255531700E-03 +1.62521944521E-03 -3.13424731310E-03 +2.35892291684E-01 +6.17339118099E-01
1.48500000000E+09 +3.91545907449E-01 +5.34113458519E-01 +1.02310042917E-03 -3.44804539858E-03 +9.94050068602E-04 -3.54783936032E-03 +2.71443612846E-01 +5.62746479159E-01
1.49000000000E+09 +4.09276127613E-01 +4.72303743010E-01 +4.32486888945E-04 -4.08640022948E-03 +2.55148840569E-04 -4.03818585390E-03 +3.02093497617E-01 +4.96993270033E-01
1.49500000000E+09 +4.18472621407E-01 +4.02322464322E-01 -5.61492141303E-04 -4.53179370943E-03 -7.35017416023E-04 -4.27607809556E-03 +3.22199010303E-01 +4.21136583913E-01
1.50000000000E+09 +4.18689364388E-01 +3.23606935700E-01 -2.01385121611E-03 -4.64345605168E-03 -1.86243256573E-03 -4.40755481766E-03 +3.30925904462E-01 +3.36544989842E-01
1.50500000000E+09 +4.05349678596E-01 +2.35262510107E-01 -2.95596907215E-03 -4.38706953436E-03 -2.70266660368E-03 -4.29770515628E-03 +3.22624136117E-01 +2.43413209617E-01
1.51000000000E+09 +3.74638727373E-01 +1.42250335570E-01 -4.70517940585E-03 -3.85506562843E-03 -4.49340069932E-03 -4.02029423823E-03 +2.93769945617E-01 +1.46387158306E-01
1.51500000000E+09 +3.24197858254E-01 +4.93858899771E-02 -5.97005421888E-03 -2.67590236742E-03 -5.97852495295E-03 -2.84579889264E-03 +2.42713235946E-01 +5.47970891324E-02
1.52000000000E+09 +2.53116518832E-01 -3.42237294737E-02 -7.49337108977E-03 -6.03337247037E-04 -7.57157151811E-03 -7.30444178854E-04 +1.72654164373E-01 -2.73550164364E-02
1.52500000000E+09 +1.64522286367E-01 -1.02349594347E-01 -7.04129554088E-03 +2.69937902102E-03 -7.08178960521E-03 +2.71164431978E-03 +8.41925979348E-02 -9.14479794700E-02
1.53000000000E+09 +6.26280667976E-02 -1.49169645180E-01 -4.83228518517E-03 +4.19956591899E-03 -4.82836181472E-03 +4.25062814568E-03 -1.43831765485E-02 -1.33832321253E-01
1.53500000000E+09 -4.66299356271E-02 -1.71606741396E-01 -3.51464671870E-03 +4.95120744375E-03 -3.47661964955E-03 +4.93771728760E-03 -1.17303891645E-01 -1.52511409427E-01
1.54000000000E+09 -1.58387629628E-01 -1.67256715343E-01 -1.81761170980E-03 +4.83517937034E-03 -1.83647895717E-03 +4.80975545811E-03 -2.16160427883E-01 -1.49565620682E-01
1.54500000000E+09 -2.63417434507E-01 -1.40514913094E-01 -1.16854917958E-03 +5.03118841329E-03 -1.24919878507E-03 +4.98690977918E-03 -3.04652742582E-01 -1.29083377483E-01
1.55000000000E+09 -3.57690142257E-01 -9.35143169810E-02 +2.81135026555E-04 +5.28684062942E-03 +1.35579145204E-04 +5.27950263092E-03 -3.81518901396E-01 -9.75928789721E-02
1.55500000000E+09 -4.34236022233E-01 -3.58105009433E-02 +2.01297947529E-03 +4.56955902115E-03 +1.88903340680E-03 +4.73764632618E-03 -4.46095458322E-01 -5.63262008234E-02
1.56000000000E+09 -4.96293750587E-01 +2.45424649987E-02 +2.80206551765E-03 +3.13435898807E-03 +2.84234245801E-03 +3.40132600940E-03 -4.97841495286E-01 -1.01942404975E-02
1.56500000000E+09 -5.45565072747E-01 +8.58852905148E-02 +2.84957966369E-03 +1.95138007454E-03 +2.99028704883E-03 +2.12707895769E-03 -5.38422039508E-01 +3.80931059041E-02
1.57000000000E+09 -5.81855605401E-01 +1.45731653723E-01 +2.61694534006E-03 +1.17845384464E-03 +2.79502137753E-03 +1.22339852843E-03 -5.69577596668E-01 +8.55648206704E-02
