# Hz S RI R 50
! CMT, C1220, 16058040, 17.2.0/1
! Date: 14/08/2018 12:23:22
! Data: Format (Calibration Info)
! Freq                      S11: Re/Im (F2)                       S21: Re/Im (F2)                       S12: Re/Im (F2)                       S22: Re/Im (F2)            
1.00000000000E+09 -6.45735788106E-01 +7.15767800123E-01 -2.28792738155E-05 +4.96707264308E-05 -2.97980814369E-07 +3.97636134180E-05 -7.47937592895E-01 +6.24167649808E-01
1.00500000000E+09 -6.38474547496E-01 +7.20810457271E-01 +3.93583824932E-06 -1.74240188319E-05 -5.46907058536E-06 +6.85682286951E-05 -7.44269155191E-01 +6.28226748409E-01
1.01000000000E+09 -6.32649447463E-01 +7.25327380420E-01 -5.86674604402E-07 +1.54236248640E-05 +1.67544585626E-05 -5.65623648247E-06 -7.40830230526E-01 +6.32074617388E-01
1.01500000000E+09 -6.28455777536E-01 +7.29157580235E-01 -2.92652541623E-05 +3.66547755031E-05 +3.24317940415E-06 -2.82383678555E-05 -7.37523211210E-01 +6.35754235726E-01
1.02000000000E+09 -6.26006053603E-01 +7.32342967206E-01 +3.46797130392E-05 -3.75763790069E-06 +8.16958620887E-06 -5.27881984295E-05 -7.33960633272E-01 +6.39172290402E-01
1.02500000000E+09 -6.24341115414E-01 +7.34954953000E-01 -6.79098934126E-06 +2.81877087225E-05 +8.50073276676E-06 -4.02371375649E-06 -7.31203381947E-01 +6.42790693960E-01
1.03000000000E+09 -6.23397738253E-01 +7.37199841917E-01 -4.16527054695E-05 -1.21309772978E-05 +1.44487991211E-05 +5.99723960548E-05 -7.27629814037E-01 +6.46611629713E-01
1.03500000000E+09 -6.21290313077E-01 +7.39426641087E-01 -1.62006141735E-05 +3.64292713629E-05 -2.25783036757E-05 -1.63529839805E-05 -7.23910816577E-01 +6.50456407302E-01
1.04000000000E+09 -6.17939605238E-01 +7.42316508725E-01 -1.40654356155E-05 +4.70951361778E-06 +6.96984721330E-05 -3.11583565363E-06 -7.20115478255E-01 +6.54139983779E-01
1.04500000000E+09 -6.12900376784E-01 +7.45477809821E-01 -1.22342147004E-05 +1.68724722954E-05 +2.94424438854E-05 -2.30941282217E-05 -7.16461381707E-01 +6.57605818303E-01
1.05000000000E+09 -6.05657173286E-01 +7.49721860951E-01 +4.21994772198E-05 +4.20228470925E-05 -1.23336523038E-05 +1.46433176476E-05 -7.12982737987E-01 +6.60969897603E-01
1.05500000000E+09 -5.96943954437E-01 +7.54401908739E-01 +4.45995560598E-06 +1.10352274292E-05 -7.22252601969E-06 +1.44194924766E-06 -7.09938992371E-01 +6.64600595631E-01
1.06000000000E+09 -5.87465026274E-01 +7.59528314949E-01 +1.79198439005E-05 +1.22033445801E-05 -4.18902170519E-06 +2.76143680206E-05 -7.06472716472E-01 +6.68353108911E-01
1.06500000000E+09 -5.78443495759E-01 +7.64806027530E-01 -5.42003176278E-06 +7.41255230050E-06 -1.31330189934E-05 +8.37704801738E-06 -7.02948641770E-01 +6.72103055647E-01
1.07000000000E+09 -5.70617029652E-01 +7.69129548696E-01 -1.35445515735E-05 +6.58018907513E-06 +4.29027070571E-05 +1.75067593892E-05 -6.98984727180E-01 +6.75648659201E-01
1.07500000000E+09 -5.64226487970E-01 +7.73063787965E-01 +5.64655365576E-05 +1.87348292405E-05 +3.52622115856E-06 +3.54154703584E-05 -6.94474436602E-01 +6.79534387906E-01
1.08000000000E+09 -5.59898994019E-01 +7.76364172181E-01 +1.12724015661E-06 +1.55056095755E-06 +2.64003134216E-05 +2.96365104548E-05 -6.90539330597E-01 +6.83351348832E-01
1.08500000000E+09 -5.57200685410E-01 +7.78899844801E-01 -7.84051382904E-06 +2.66919060282E-06 +4.83787576964E-05 +1.48613020094E-05 -6.86583048069E-01 +6.86894244767E-01
1.09000000000E+09 -5.55036560068E-01 +7.80892315400E-01 +2.40068980221E-05 -3.44699283810E-06 +4.49684745223E-05 -3.91090809941E-06 -6.82806315760E-01 +6.90777441660E-01
1.09500000000E+09 -5.53255554728E-01 +7.82549097218E-01 +5.55795093107E-05 -8.24055905548E-06 +2.68563920753E-05 -1.87924789728E-06 -6.78950508186E-01 +6.94588964013E-01
1.10000000000E+09 -5.50301698456E-01 +7.84649273919E-01 +3.24755746631E-05 +1.10629713041E-05 +4.24025273125E-05 -1.19748185018E-05 -6.75048750756E-01 +6.98429234866E-01
1.10500000000E+09 -5.46334563066E-01 +7.87212468863E-01 +4.92093204609E-05 -2.68844362236E-05 +3.13635492111E-05 -1.18551163948E-05 -6.70584503427E-01 +7.01874441020E-01
1.11000000000E+09 -5.40543426009E-01 +7.90529433702E-01 +1.40012511980E-05 -6.11511749162E-05 -6.00500165330E-06 -3.84348485687E-07 -6.66361008364E-01 +7.05151030612E-01
1.11500000000E+09 -5.33288663638E-01 +7.94259944771E-01 +9.23079327157E-06 -1.66326519707E-05 +1.26880176578E-05 -2.39604975554E-06 -6.62374404222E-01 +7.08681020830E-01
1.12000000000E+09 -5.25417827154E-01 +7.98364550843E-01 -1.05111364504E-05 -5.33550700173E-05 +3.25444309789E-05 +5.09400825337E-06 -6.58345136498E-01 +7.12321598807E-01
1.12500000000E+09 -5.17227237586E-01 +8.02321162672E-01 +9.74721660840E-06 -2.56895758119E-05 +1.38410816476E-05 -1.62424210790E-05 -6.54080547434E-01 +7.16325363033E-01
1.13000000000E+09 -5.09885452872E-01 +8.06039041946E-01 -5.69100301752E-05 -2.65635291891E-05 +2.46269454119E-05 -1.95627125332E-05 -6.49919545849E-01 +7.20088161424E-01
1.13500000000E+09 -5.03276567040E-01 +8.08886400737E-01 +5.79192668942E-06 +5.38343003165E-06 -3.67885306304E-05 -5.27467854395E-05 -6.45243625938E-01 +7.23646559440E-01
1.14000000000E+09 -4.98268618541E-01 +8.11437419871E-01 +1.49080180155E-06 -5.46803416168E-05 +3.99524112318E-05 +6.93151833003E-06 -6.40678134173E-01 +7.26867279199E-01
1.14500000000E+09 -4.94148179663E-01 +8.13185759889E-01 +4.40521660704E-05 -3.63551700628E-05 -7.39226264778E-06 -5.72517951046E-05 -6.36010133643E-01 +7.30405731086E-01
1.15000000000E+09 -4.90345376949E-01 +8.14643225142E-01 +4.74240777760E-05 -2.65870361945E-05 +3.21883786816E-05 +1.10628271602E-06 -6.31365606455E-01 +7.34215351302E-01
1.15500000000E+09 -4.86645389432E-01 +8.16321662216E-01 -4.82127862009E-06 -4.92013194125E-05 +1.56648457922E-05 -6.11539789820E-05 -6.26599258495E-01 +7.37935088910E-01
1.16000000000E+09 -4.81761344869E-01 +8.18088718712E-01 +6.63377096886E-06 -5.02774568717E-07 -8.53837201216E-06 -6.56374515379E-05 -6.21766086018E-01 +7.41879295593E-01
1.16500000000E+09 -4.75852311411E-01 +8.20751331508E-01 -3.24814706504E-05 -1.74654941295E-05 +5.24288990526E-06 -3.33877601608E-05 -6.16765520211E-01 +7.45439554557E-01
1.17000000000E+09 -4.68668695607E-01 +8.23795200233E-01 -3.54491992068E-06 -7.09949203200E-07 +3.39735527352E-05 -9.89567005160E-06 -6.11361894836E-01 +7.48725671584E-01
1.17500000000E+09 -4.60743353448E-01 +8.26991960112E-01 -3.30235231962E-05 -5.48609205200E-05 +4.26549562333E-05 -2.04716230605E-05 -6.05640976534E-01 +7.51932190853E-01
1.18000000000E+09 -4.52591729100E-01 +8.30665712087E-01 +1.14097791022E-05 -1.25130265938E-05 +4.12090496910E-06 -3.33655151288E-05 -6.00163961095E-01 +7.54942471777E-01
1.18500000000E+09 -4.44544315807E-01 +8.33960783345E-01 -1.55905032965E-05 +7.71737980851E-06 -2.14342456135E-05 -1.69675501963E-05 -5.94074015661E-01 +7.58023935660E-01
1.19000000000E+09 -4.37260300416E-01 +8.36801744270E-01 -4.22598916215E-05 -7.65869047129E-05 -3.17537810842E-06 -4.43873741775E-05 -5.88025322538E-01 +7.60696093709E-01
1.19500000000E+09 -4.31322475544E-01 +8.38675166426E-01 -9.51922399978E-07 -7.37880061360E-05 -4.36147752213E-05 -7.84394372906E-05 -5.82153765440E-01 +7.61928451560E-01
1.20000000000E+09 -4.26432842555E-01 +8.39556902203E-01 -7.28650223930E-05 -4.82038611770E-05 -9.08103143888E-05 -2.19365270172E-05 -5.77621080644E-01 +7.62165636671E-01
1.20500000000E+09 -4.22095536224E-01 +8.40791814310E-01 -8.97812003823E-05 +2.57905725088E-05 -7.45192100961E-05 +4.21516931396E-05 -5.75402708733E-01 +7.62909905949E-01
1.21000000000E+09 -4.17512937535E-01 +8.41722423293E-01 -3.48123125620E-05 +3.91556450376E-05 -2.52151240625E-05 -1.84246175925E-05 -5.73403996222E-01 +7.66015038567E-01
1.21500000000E+09 -4.11540660754E-01 +8.43080846264E-01 -3.13570270350E-06 -1.42720803360E-05 -5.72288596305E-06 -3.01364768826E-06 -5.70708367435E-01 +7.70436028332E-01
1.22000000000E+09 -4.03969967506E-01 +8.44786274150E-01 -1.30872045674E-05 +2.46984722962E-05 -2.10917702778E-05 -1.06867914091E-05 -5.66497195059E-01 +7.75733743065E-01
1.22500000000E+09 -3.94735815951E-01 +8.47187758235E-01 -9.33923594701E-08 -1.75368263745E-05 -2.15515489080E-05 +2.22684580669E-05 -5.61371926325E-01 +7.80903880731E-01
1.23000000000E+09 -3.84010465797E-01 +8.50126384982E-01 -9.68626251212E-07 +5.06908098655E-06 -3.00916288656E-05 -5.41051676335E-05 -5.55848610332E-01 +7.85550992550E-01
1.23500000000E+09 -3.73091105827E-01 +8.53517379150E-01 +5.76900040641E-06 +4.97755764224E-06 -2.58822082811E-05 +1.76833135328E-05 -5.49990007583E-01 +7.89730743306E-01
1.24000000000E+09 -3.62049191346E-01 +8.57266031224E-01 -3.11113173934E-05 +6.07493588572E-06 -2.02876922438E-05 +1.06581374963E-06 -5.43832099849E-01 +7.93609092658E-01
1.24500000000E+09 -3.52235908771E-01 +8.61080267647E-01 -5.15694227430E-05 -1.42980249604E-05 -3.94945445154E-05 -8.09905364432E-05 -5.37579855038E-01 +7.97275298547E-01
1.25000000000E+09 -3.43839850078E-01 +8.64315731316E-01 -2.38507314861E-05 +8.41964142171E-06 -3.01970110858E-05 -7.08317916767E-05 -5.31037130577E-01 +8.01507860477E-01
1.25500000000E+09 -3.36958134692E-01 +8.66643875240E-01 -7.73750769108E-05 -3.38782691850E-05 -4.77884268175E-05 -6.08176398821E-05 -5.24232486196E-01 +8.05492390355E-01
1.26000000000E+09 -3.31334975798E-01 +8.68470953287E-01 -7.88954882972E-05 +2.54327055712E-05 -7.16823570319E-05 -1.81417712775E-05 -5.17438514523E-01 +8.09860439847E-01
1.26500000000E+09 -3.26452629984E-01 +8.69676434530E-01 -8.02500208200E-05 -3.47515624659E-05 -6.79695008513E-05 -1.80768160432E-06 -5.10465391855E-01 +8.13582322426E-01
1.27000000000E+09 -3.21273317166E-01 +8.70398325955E-01 -5.70411307373E-05 -1.79812810763E-05 -8.52957983070E-05 -2.72304114139E-06 -5.03692520321E-01 +8.17431561900E-01
1.27500000000E+09 -3.14948806522E-01 +8.71571221326E-01 -8.15024990845E-05 +4.82080688884E-05 -6.27254040672E-06 +4.13914980101E-05 -4.96722713853E-01 +8.20787802732E-01
1.28000000000E+09 -3.06839585399E-01 +8.72880330702E-01 +3.96999078185E-07 +3.48320656736E-06 -8.92852417227E-05 +1.99204987449E-05 -4.89745713780E-01 +8.24360891564E-01
1.28500000000E+09 -2.96414194314E-01 +8.74626448050E-01 -7.15810756251E-05 +5.48978068373E-05 -8.04498411536E-05 +5.50805488688E-05 -4.82312825301E-01 +8.28043968558E-01
1.29000000000E+09 -2.84671190411E-01 +8.76854218831E-01 -6.95579814516E-05 +1.20190257430E-04 -1.24848889044E-04 +6.85201002543E-05 -4.74800150941E-01 +8.31601613882E-01
1.29500000000E+09 -2.72245449646E-01 +8.79941151607E-01 -4.12726808250E-05 +7.69186729054E-05 -5.46632660989E-05 +8.70378583524E-05 -4.66888459629E-01 +8.35132093725E-01
1.30000000000E+09 -2.59732871979E-01 +8.83152493077E-01 -3.39370551005E-05 +6.94998057354E-05 -1.46358007086E-05 +1.13344751511E-04 -4.59229175782E-01 +8.38632882552E-01
1.30500000000E+09 -2.48274442132E-01 +8.86102838305E-01 -8.84779409941E-05 +9.92444360870E-05 -5.43421446416E-05 +8.74572361872E-05 -4.51238411959E-01 +8.41996542395E-01
1.31000000000E+09 -2.38207699474E-01 +8.88379443843E-01 -2.42394634443E-05 +1.32476329971E-04 -3.02538005152E-05 +7.53170516294E-05 -4.42854679444E-01 +8.45454467431E-01
1.31500000000E+09 -2.30240898292E-01 +8.89670591129E-01 +2.32808409190E-05 +1.38867797526E-04 -4.58606028457E-06 +1.23454856755E-04 -4.34242753487E-01 +8.48739606964E-01
1.32000000000E+09 -2.23733880231E-01 +8.90176423084E-01 +4.03643960807E-06 +7.30821105389E-05 +5.43341100037E-05 +1.04462475850E-04 -4.25051285980E-01 +8.52099237474E-01
1.32500000000E+09 -2.17696159494E-01 +8.90092812281E-01 -4.98951789520E-05 +6.40904046744E-05 +2.38163985197E-06 +7.74714030244E-05 -4.15493702912E-01 +8.55583183381E-01
1.33000000000E+09 -2.10947691730E-01 +8.89662314297E-01 -9.74198578195E-06 +1.18921648346E-04 +3.16670473743E-05 +1.05755232080E-04 -4.05890791087E-01 +8.58873383210E-01
1.33500000000E+09 -2.02526181451E-01 +8.88805977599E-01 +5.57052464662E-05 +9.89638223199E-05 +3.38813964510E-05 +1.22580412878E-04 -3.96183423968E-01 +8.62160602208E-01
1.34000000000E+09 -1.91494166493E-01 +8.87869780390E-01 +4.61394064537E-05 +1.07497878261E-04 +2.15709005448E-05 +9.39838823745E-05 -3.85967844433E-01 +8.65476763471E-01
1.34500000000E+09 -1.78021980211E-01 +8.87172212286E-01 +7.48783511471E-05 +6.50188160438E-05 +9.39057524206E-05 +8.07545151253E-05 -3.75203873825E-01 +8.68594558636E-01
1.35000000000E+09 -1.62474919815E-01 +8.87024799952E-01 +3.27229139661E-05 +4.10343040444E-05 +7.76852482861E-05 +8.36493166195E-05 -3.64060475432E-01 +8.71915655956E-01
1.35500000000E+09 -1.45552571363E-01 +8.87021519640E-01 +3.44944760326E-05 +8.43317125283E-05 +5.71986390470E-06 +7.55531701849E-05 -3.52578466572E-01 +8.74610995142E-01
1.36000000000E+09 -1.28614467870E-01 +8.87432159689E-01 +9.42616926508E-06 +9.95008105276E-05 +6.59598308221E-05 +9.12319985484E-05 -3.40762235282E-01 +8.77353915810E-01
1.36500000000E+09 -1.12652228197E-01 +8.87886788524E-01 +4.35588977731E-05 +9.61260473103E-05 +2.43875391450E-05 +9.77511065535E-05 -3.28732472399E-01 +8.79909855730E-01
1.37000000000E+09 -9.81873889743E-02 +8.87779339087E-01 +9.03546096384E-05 +1.55276590228E-04 +3.71565633038E-05 +1.10476738063E-04 -3.15850482860E-01 +8.82042329026E-01
1.37500000000E+09 -8.58672974638E-02 +8.87361144958E-01 +7.03288986700E-05 +1.33299879253E-04 +6.65207822255E-05 +1.53611541557E-04 -3.02225083333E-01 +8.84390827840E-01
1.38000000000E+09 -7.49436547040E-02 +8.86384611261E-01 +1.38160377509E-04 +1.63550263834E-04 +1.18236433169E-04 +2.16337722080E-04 -2.87853456610E-01 +8.86455543591E-01
1.38500000000E+09 -6.39222171461E-02 +8.84551629415E-01 +1.68951702007E-04 +1.29289119118E-04 +1.97750549969E-04 +1.09978031469E-04 -2.72295039964E-01 +8.88264443368E-01
1.39000000000E+09 -5.24590484494E-02 +8.81758190258E-01 +1.33088195355E-04 +4.21726558193E-05 +1.65439327346E-04 +1.15080752264E-04 -2.56425345417E-01 +8.89754580658E-01
1.39500000000E+09 -3.89068406449E-02 +8.78232934146E-01 +2.64658891338E-04 +8.30244474120E-05 +2.85257316626E-04 +4.44682438276E-05 -2.39743016000E-01 +8.90574003746E-01
1.40000000000E+09 -2.25463075822E-02 +8.73721217387E-01 +2.94584981055E-04 -1.61153383160E-05 +2.72860756762E-04 -1.12396249578E-05 -2.22331968657E-01 +8.91187997684E-01
1.40500000000E+09 -4.00362987090E-03 +8.68409642910E-01 +1.96628536039E-04 -5.10388190760E-05 +2.13753110346E-04 -1.29339548920E-04 -2.03632274269E-01 +8.91015732574E-01
1.41000000000E+09 +1.65829659695E-02 +8.62640957232E-01 +1.34509988509E-04 -7.39407806082E-05 +1.03726558588E-04 -7.85861191151E-05 -1.83510979125E-01 +8.90329683202E-01
1.41500000000E+09 +3.82744031784E-02 +8.56595931622E-01 +1.40761732996E-04 -6.77978197306E-05 +1.45343621229E-04 -5.42904560543E-05 -1.61793535743E-01 +8.88809129156E-01
1.42000000000E+09 +6.08681266926E-02 +8.50196149819E-01 +2.23792254114E-04 +2.96481667351E-05 +2.24570374021E-04 +8.14938427949E-05 -1.39142250278E-01 +8.86147441096E-01
1.42500000000E+09 +8.28253939544E-02 +8.42847589926E-01 +3.01570023342E-04 -1.20222829554E-04 +3.51995757463E-04 -1.45429208146E-04 -1.15588966730E-01 +8.82585111549E-01
1.43000000000E+09 +1.03175035392E-01 +8.34167778368E-01 +1.49632042375E-04 -2.33994106264E-04 +1.80658573108E-04 -2.70093614342E-04 -9.08272308812E-02 +8.77868172410E-01
1.43500000000E+09 +1.22589876544E-01 +8.24200002081E-01 +1.57466460282E-05 -1.89854820453E-04 -9.30568616198E-06 -2.22063026829E-04 -6.47056739876E-02 +8.71200789078E-01
1.44000000000E+09 +1.41751426157E-01 +8.12717277422E-01 -3.38243236152E-05 -5.16107373463E-06 -5.46204253076E-05 -2.39951966620E-05 -3.66512396919E-02 +8.62496072983E-01
1.44500000000E+09 +1.62272388887E-01 +7.98575944049E-01 +1.62586875075E-04 +1.63678717618E-04 +1.66379604444E-04 +1.62956219850E-04 -6.80931923169E-03 +8.51200629959E-01
1.45000000000E+09 +1.84596246347E-01 +7.81081305492E-01 +4.13954372754E-04 -1.38167744553E-05 +3.45983845700E-04 -2.97296263063E-05 +2.50582128210E-02 +8.36801744856E-01
1.45500000000E+09 +2.09873296866E-01 +7.59313120020E-01 +2.24104912931E-04 -1.38716550997E-04 +2.43331320349E-04 -1.06191635242E-04 +5.82944529158E-02 +8.19209855042E-01
1.46000000000E+09 +2.37547758865E-01 +7.32665042491E-01 +3.68759971268E-04 +4.73746010289E-05 +3.75627292935E-04 +7.55613226490E-07 +9.29863075347E-02 +7.97199843055E-01
1.46500000000E+09 +2.66576412852E-01 +7.01561733538E-01 +5.54944560306E-04 -1.46254631746E-04 +4.81335572856E-04 -1.47000314366E-04 +1.28426676477E-01 +7.70794891416E-01
1.47000000000E+09 +2.97121972060E-01 +6.66500235068E-01 +7.32035730434E-04 -2.58554482738E-04 +6.74122298432E-04 -2.14712821237E-04 +1.65459356195E-01 +7.37611402134E-01
1.47500000000E+09 +3.27061702519E-01 +6.25729003936E-01 +7.23042446715E-04 -6.99407041518E-04 +7.18283913064E-04 -6.65116269138E-04 +2.02520046331E-01 +6.96982473490E-01
1.48000000000E+09 +3.54058978920E-01 +5.79781167419E-01 +4.14082723332E-04 -7.76192544343E-04 +4.95357599817E-04 -8.02919142364E-04 +2.39112785045E-01 +6.48034140679E-01
1.48500000000E+09 +3.77160828506E-01 +5.28243061247E-01 +5.42257678624E-04 -7.72712218940E-04 +5.48808780004E-04 -8.34128729694E-04 +2.73667484714E-01 +5.89832534397E-01
1.49000000000E+09 +3.94239879362E-01 +4.69765218351E-01 +8.13509877556E-04 -1.09550370618E-03 +7.79284875749E-04 -1.14814587741E-03 +3.02342763474E-01 +5.20082802445E-01
1.49500000000E+09 +4.03389255945E-01 +4.04012267924E-01 +8.06764672030E-04 -2.21306610144E-03 +7.30015640548E-04 -2.16460375180E-03 +3.21150187613E-01 +4.40527257068E-01
1.50000000000E+09 +4.02087060282E-01 +3.30871148618E-01 -5.37088224107E-04 -2.95662057823E-03 -5.46779575906E-04 -2.71311705785E-03 +3.26611071585E-01 +3.50796082259E-01
1.50500000000E+09 +3.89434522396E-01 +2.51706260203E-01 -1.81844330979E-03 -2.74422654249E-03 -1.67504853783E-03 -2.63623309416E-03 +3.15417136714E-01 +2.54329118287E-01
1.51000000000E+09 +3.63144012283E-01 +1.66343343529E-01 -2.91159755430E-03 -1.75749838719E-03 -2.75918693659E-03 -1.84505148635E-03 +2.83346618617E-01 +1.53628387415E-01
1.51500000000E+09 +3.19465793380E-01 +7.93027552158E-02 -3.22044545022E-03 -1.10164808307E-03 -3.22012401549E-03 -1.23639549692E-03 +2.29281504129E-01 +5.56638466691E-02
1.52000000000E+09 +2.57310821431E-01 -2.72832069963E-03 -3.65326853519E-03 +4.92859293047E-04 -3.66958261334E-03 +4.02959919714E-04 +1.52174039682E-01 -3.13629838736E-02
1.52500000000E+09 +1.77098599370E-01 -7.36206581845E-02 -2.78011099387E-03 +9.41285675581E-04 -2.85161667558E-03 +9.05336857333E-04 +5.57683222794E-02 -1.00047912636E-01
1.53000000000E+09 +8.07492916363E-02 -1.24456390333E-01 -2.91390722051E-03 +1.50474689754E-03 -2.96684050882E-03 +1.55432670426E-03 -5.19021349183E-02 -1.44039805199E-01
1.53500000000E+09 -2.28607933325E-02 -1.50918748892E-01 -2.80895293794E-03 +2.49209253943E-03 -2.79857871318E-03 +2.51008258023E-03 -1.64380302214E-01 -1.63701958834E-01
1.54000000000E+09 -1.28508404101E-01 -1.53614725879E-01 -2.08862962670E-03 +3.54778946869E-03 -2.11113464080E-03 +3.57125926705E-03 -2.73428145379E-01 -1.59635263869E-01
1.54500000000E+09 -2.29918254443E-01 -1.33352533943E-01 -4.06084552101E-04 +4.57958767362E-03 -4.73783423328E-04 +4.52648810571E-03 -3.72598149551E-01 -1.34735598435E-01
1.55000000000E+09 -3.23702706831E-01 -9.57011889852E-02 +1.58616358790E-03 +3.71023538030E-03 +1.42871675902E-03 +3.86170438087E-03 -4.56873603146E-01 -9.60329411230E-02
1.55500000000E+09 -4.04434197496E-01 -4.27724573977E-02 +2.15658999343E-03 +2.61282889596E-03 +2.17753225626E-03 +2.81819057080E-03 -5.27390345503E-01 -4.83133415274E-02
1.56000000000E+09 -4.69856496705E-01 +1.55921619032E-02 +2.46192861135E-03 +1.44541134732E-03 +2.60250553708E-03 +1.60788222080E-03 -5.83890298002E-01 +5.39537497267E-03
1.56500000000E+09 -5.21864468486E-01 +7.58769694148E-02 +2.06264911454E-03 +9.16334756942E-04 +2.15146980393E-03 +1.04888379942E-03 -6.27302115600E-01 +6.14695591310E-02
1.57000000000E+09 -5.61537446202E-01 +1.35201048288E-01 +1.93089552747E-03 +5.12097750333E-04 +2.13476556223E-03 +5.10674872775E-04 -6.60215211916E-01 +1.16799166144E-01
