# Hz S RI R 50
! CMT, C1220, 16058040, 17.2.0/1
! Date: 14/08/2018 12:38:32
! Data: Format (Calibration Info)
! Freq                      S11: Re/Im (F2)                       S21: Re/Im (F2)                       S12: Re/Im (F2)                       S22: Re/Im (F2)            
1.00000000000E+09 -6.47183408282E-01 +7.14365238740E-01 -2.45923761925E-05 +3.31641042477E-05 +6.73640768265E-05 -3.08333783770E-05 -6.70520522574E-01 +5.39042615023E-01
1.00500000000E+09 -6.40121702469E-01 +7.19583449554E-01 +5.96785296642E-06 +1.05207106591E-05 -1.26254630366E-05 +1.18854438248E-05 -6.67234914592E-01 +5.42771536692E-01
1.01000000000E+09 -6.34265490691E-01 +7.24392488455E-01 -4.97416086904E-05 -6.81612058974E-05 -1.97296505209E-05 -5.97920055339E-05 -6.64460199866E-01 +5.45823533110E-01
1.01500000000E+09 -6.29755915415E-01 +7.28394965107E-01 -3.59480622702E-05 -3.26009789483E-06 -5.76315782771E-05 -7.37817425496E-06 -6.61690931639E-01 +5.49097414338E-01
1.02000000000E+09 -6.26827875720E-01 +7.31722679156E-01 -3.31005605812E-05 +3.78317314359E-07 -3.11841369546E-05 +4.08520952741E-05 -6.59210981110E-01 +5.52155662118E-01
1.02500000000E+09 -6.24798266698E-01 +7.34468115189E-01 +3.02643540030E-05 -7.56121811779E-07 +1.31692976368E-05 +3.91604479228E-05 -6.56995888746E-01 +5.55318109564E-01
1.03000000000E+09 -6.23229445315E-01 +7.36750960397E-01 -4.65773352105E-06 +1.25942385959E-07 +3.15021934916E-05 +1.50160369582E-05 -6.54284583186E-01 +5.58916341861E-01
1.03500000000E+09 -6.21036778692E-01 +7.39229940784E-01 -1.99442473135E-05 +3.04271279061E-05 +1.02989781612E-05 -7.95208025264E-06 -6.51272056304E-01 +5.62526049605E-01
1.04000000000E+09 -6.17565403452E-01 +7.41875737304E-01 -1.64570316794E-05 +6.73308565440E-05 -1.73338096621E-05 +4.16528824963E-05 -6.48319878227E-01 +5.65983982147E-01
1.04500000000E+09 -6.12563718428E-01 +7.45177930825E-01 -5.50567204219E-05 +3.62452231867E-05 -5.21379680471E-05 +6.00022706808E-05 -6.45321639953E-01 +5.69297606572E-01
1.05000000000E+09 -6.05712925507E-01 +7.49296909836E-01 -3.83712589227E-06 -1.38414752955E-06 +4.09444928659E-06 +7.01501851551E-05 -6.42708693918E-01 +5.72537085814E-01
1.05500000000E+09 -5.97785541256E-01 +7.53792679856E-01 -1.93238696526E-05 +5.04539912118E-05 +2.84493057270E-05 -2.33061101478E-05 -6.40254763423E-01 +5.75779516909E-01
1.06000000000E+09 -5.89086864113E-01 +7.58934705983E-01 +1.63752460872E-05 +5.02043810356E-05 +1.87785807513E-05 +3.14790254002E-05 -6.37414724230E-01 +5.79329304371E-01
1.06500000000E+09 -5.80926415727E-01 +7.64105635675E-01 +4.84180746949E-05 +4.96561751810E-05 +7.14835197142E-07 +1.90960311864E-05 -6.34309041463E-01 +5.82876004558E-01
1.07000000000E+09 -5.73925840201E-01 +7.68356376143E-01 +4.08618742190E-05 +5.72884431298E-06 +2.07517799499E-05 +1.97903570521E-05 -6.30905006021E-01 +5.86394434644E-01
1.07500000000E+09 -5.68003423183E-01 +7.72403043937E-01 +2.03250733725E-05 +3.14822247460E-05 +1.13275664768E-05 +3.11621282791E-05 -6.27340594738E-01 +5.90024641836E-01
1.08000000000E+09 -5.63814709630E-01 +7.75437782383E-01 +4.30527482071E-05 -8.45860671638E-06 -8.46852133625E-06 +3.40088866735E-05 -6.24114376732E-01 +5.93545992204E-01
1.08500000000E+09 -5.61075652246E-01 +7.77821011551E-01 -4.60449957057E-06 -4.79114650795E-05 -3.03929985807E-06 +1.67151880970E-06 -6.21012309331E-01 +5.96893158283E-01
1.09000000000E+09 -5.58763751138E-01 +7.79799846354E-01 +4.35667689662E-05 +1.39204326417E-05 -2.25327187078E-05 -7.03674053493E-06 -6.18060035727E-01 +6.00454113770E-01
1.09500000000E+09 -5.56976956731E-01 +7.81535905022E-01 +2.32688196692E-05 +3.78956069291E-05 +3.69138759156E-05 -1.39094060394E-05 -6.15076529932E-01 +6.04037060976E-01
1.10000000000E+09 -5.54066953405E-01 +7.83459346161E-01 +5.42527867780E-05 +1.38580211109E-05 +2.91015777157E-05 +4.11057655451E-05 -6.11919343860E-01 +6.07590742921E-01
1.10500000000E+09 -5.49986354905E-01 +7.86199284606E-01 -5.65715201701E-06 +4.50942582440E-06 -1.07959869471E-05 -8.69906592269E-06 -6.08253334804E-01 +6.10926348403E-01
1.11000000000E+09 -5.44393514737E-01 +7.89557045519E-01 +2.64963726115E-05 -1.49570868234E-06 -7.74414508445E-06 +1.20257456233E-05 -6.04871860812E-01 +6.14247665082E-01
1.11500000000E+09 -5.37472881087E-01 +7.93743815781E-01 +1.23750913247E-06 +1.55835620970E-05 -8.82218197654E-06 +8.76063907008E-06 -6.01652759163E-01 +6.17625247338E-01
1.12000000000E+09 -5.30018440066E-01 +7.98030457073E-01 +2.87029581209E-05 -7.36036699234E-06 +1.78896769207E-05 +4.25203099077E-05 -5.98444060764E-01 +6.20918685192E-01
1.12500000000E+09 -5.22244193712E-01 +8.02274638392E-01 -1.71601493149E-05 -2.27604038213E-05 +1.20952521562E-05 +4.65739957135E-05 -5.95011348749E-01 +6.24911398542E-01
1.13000000000E+09 -5.15083942310E-01 +8.06193902310E-01 +1.33957912477E-05 -2.94843424848E-05 +1.44152737478E-05 +3.71730325512E-05 -5.91325378518E-01 +6.28553122264E-01
1.13500000000E+09 -5.09073751222E-01 +8.09071781439E-01 +3.16851607191E-05 -3.51686266528E-05 +3.99876850005E-05 +3.03961822790E-06 -5.87441104490E-01 +6.32273369080E-01
1.14000000000E+09 -5.03885412462E-01 +8.11565038294E-01 +6.12782535568E-05 -3.19333013647E-05 +4.98284207360E-05 +6.42329119230E-06 -5.83428128840E-01 +6.35745765041E-01
1.14500000000E+09 -4.99720902435E-01 +8.12972014875E-01 +8.08010614463E-05 +2.72424060535E-05 +7.92827370897E-05 -3.12703537720E-05 -5.79341279646E-01 +6.39216847067E-01
1.15000000000E+09 -4.96157413597E-01 +8.14121958271E-01 +1.58148727344E-05 -3.98341486720E-06 +4.47690961976E-05 +1.37185824270E-05 -5.75425359728E-01 +6.42796668452E-01
1.15500000000E+09 -4.92509294173E-01 +8.15721137043E-01 +6.05185721264E-05 -1.95573040757E-05 +6.96429150658E-05 -3.50737219473E-05 -5.71435756839E-01 +6.46389297977E-01
1.16000000000E+09 -4.87854681492E-01 +8.17387717395E-01 +2.82206171883E-05 -2.85806141651E-05 +5.77400066534E-05 -3.08664474618E-05 -5.67550264287E-01 +6.50062313299E-01
1.16500000000E+09 -4.82270495512E-01 +8.20148533953E-01 +3.78033056184E-05 -2.78350797755E-05 +8.12665699169E-05 -3.64840179815E-06 -5.63374916560E-01 +6.53499991549E-01
1.17000000000E+09 -4.75434468100E-01 +8.23360632296E-01 +7.91954164914E-05 +1.34302653163E-05 +1.03299637070E-04 -6.03142228168E-05 -5.58670975444E-01 +6.56806677590E-01
1.17500000000E+09 -4.68049675287E-01 +8.27025120635E-01 +6.81598106221E-05 -3.43591123456E-05 +7.59246116159E-05 -4.09716490886E-05 -5.54066168234E-01 +6.60025756658E-01
1.18000000000E+09 -4.60176842928E-01 +8.31142341046E-01 +9.08551324282E-05 -4.72226017032E-05 +5.34863986280E-05 -6.03534349602E-05 -5.49524548718E-01 +6.62980865580E-01
1.18500000000E+09 -4.52399464197E-01 +8.34793008074E-01 +5.99943504915E-05 -1.11154649592E-04 +6.13286092174E-05 -5.34348395676E-05 -5.44538835556E-01 +6.66113553248E-01
1.19000000000E+09 -4.45225166153E-01 +8.37743655698E-01 +5.88650706219E-05 -9.84896641046E-05 +9.28560656373E-05 -5.00808872592E-05 -5.39074742154E-01 +6.68789381000E-01
1.19500000000E+09 -4.39159014091E-01 +8.40106170966E-01 +1.00483670739E-04 -8.55318657531E-05 +1.15348905185E-04 -7.56774200526E-05 -5.34039895427E-01 +6.70185023111E-01
1.20000000000E+09 -4.34058895005E-01 +8.40970445168E-01 +1.71425617101E-05 -1.49224042150E-04 +3.87252002015E-05 -1.80564788719E-04 -5.30014478003E-01 +6.70689965165E-01
1.20500000000E+09 -4.29465382785E-01 +8.41886344077E-01 -4.32335226215E-05 -1.54135041219E-04 -5.08053937731E-05 -1.29668770869E-04 -5.28032152505E-01 +6.71555415468E-01
1.21000000000E+09 -4.24618883079E-01 +8.42875641399E-01 -5.35688586316E-05 -7.76721281538E-05 -5.50716200181E-05 -1.16777656880E-04 -5.26539657918E-01 +6.74428520879E-01
1.21500000000E+09 -4.18713500263E-01 +8.44113903730E-01 -7.02328320018E-05 -3.55604434124E-05 -3.41342600042E-05 -2.71364063791E-05 -5.24276837457E-01 +6.78831642401E-01
1.22000000000E+09 -4.11342163874E-01 +8.46010831959E-01 -3.51979811510E-06 -5.76064318989E-05 -2.05330804418E-05 -6.68048097147E-05 -5.20806357704E-01 +6.83821497230E-01
1.22500000000E+09 -4.02530445124E-01 +8.48624507868E-01 -1.34244770963E-05 -2.76237760438E-05 -3.00179027201E-05 -5.09328493750E-05 -5.16579565360E-01 +6.88689980920E-01
1.23000000000E+09 -3.92817334090E-01 +8.52029807729E-01 -1.12370739397E-05 -1.06187734096E-04 -4.23874029544E-05 -2.31599794528E-05 -5.11953836225E-01 +6.93240393216E-01
1.23500000000E+09 -3.83038134919E-01 +8.55878369560E-01 -1.96475147181E-05 -7.53087354722E-05 -6.46589723800E-05 -8.28810036997E-05 -5.07129207745E-01 +6.97355375214E-01
1.24000000000E+09 -3.73158196828E-01 +8.60238437271E-01 -4.37903393608E-05 -5.75894018338E-05 -4.14940328436E-05 -6.07915324661E-05 -5.02161985951E-01 +7.01090456995E-01
1.24500000000E+09 -3.64423794693E-01 +8.64678430070E-01 -3.30684029281E-05 -9.40934951704E-05 -2.94604838661E-05 -9.06114342269E-05 -4.96942521406E-01 +7.04802311951E-01
1.25000000000E+09 -3.56571866491E-01 +8.68229874447E-01 -3.54560642094E-05 -9.45724227285E-05 -5.94329319305E-05 -4.04425972178E-05 -4.91636093766E-01 +7.08955585773E-01
1.25500000000E+09 -3.49761442406E-01 +8.71006547495E-01 -1.54224110485E-05 -9.87947446876E-05 -3.21804002300E-05 -1.20395493398E-04 -4.85965310919E-01 +7.12930043041E-01
1.26000000000E+09 -3.43954850769E-01 +8.72817786853E-01 -6.77433731090E-05 -1.12101371815E-04 -7.42066779050E-05 -7.90488014788E-05 -4.80485440507E-01 +7.17391285756E-01
1.26500000000E+09 -3.38337169226E-01 +8.73917026216E-01 -1.64707145826E-05 -9.67787608178E-05 -5.21369959831E-05 -1.11422474613E-04 -4.74602429954E-01 +7.21399605922E-01
1.27000000000E+09 -3.32324110951E-01 +8.74712114615E-01 -1.02216466069E-04 -1.03480732286E-04 -8.53712812966E-05 -1.20454361976E-04 -4.68768373556E-01 +7.25506660366E-01
1.27500000000E+09 -3.24896910143E-01 +8.75708800039E-01 -1.41465599307E-04 -1.28110042549E-04 -1.03218921083E-04 -1.27863511648E-04 -4.62719761248E-01 +7.29365044532E-01
1.28000000000E+09 -3.15674407365E-01 +8.77205120519E-01 -1.18754292100E-04 -6.67944517824E-05 -2.12028064295E-04 -9.97300685518E-05 -4.56514109216E-01 +7.33118872856E-01
1.28500000000E+09 -3.04813944312E-01 +8.79377021756E-01 -2.10652492345E-04 -8.80776534949E-05 -2.02464950197E-04 -9.38066612407E-05 -4.50001538772E-01 +7.37096182130E-01
1.29000000000E+09 -2.92892194211E-01 +8.82145516893E-01 -1.46753696569E-04 -5.60541950991E-05 -2.45894352105E-04 -2.47981978279E-05 -4.43534565138E-01 +7.41039261131E-01
1.29500000000E+09 -2.80890807228E-01 +8.85557551181E-01 -1.84744446287E-04 -1.43254925273E-05 -2.15133807692E-04 -1.24501606549E-05 -4.36759257464E-01 +7.44973115591E-01
1.30000000000E+09 -2.69105530576E-01 +8.89249975494E-01 -1.50392553160E-04 -3.71590040243E-05 -1.73336027291E-04 +2.92463705481E-05 -4.29792577839E-01 +7.48774322343E-01
1.30500000000E+09 -2.58481906982E-01 +8.92816850984E-01 -1.64600198197E-04 -8.89012778362E-06 -2.25531449134E-04 +4.53582516769E-05 -4.22832259787E-01 +7.52492276451E-01
1.31000000000E+09 -2.49407201792E-01 +8.95488426360E-01 -2.12391596324E-04 +5.66335106902E-06 -2.28392768780E-04 -6.00744714059E-06 -4.15585737241E-01 +7.56189484346E-01
1.31500000000E+09 -2.42193561642E-01 +8.97110783204E-01 -2.29264419858E-04 +2.99528555244E-05 -2.59277271536E-04 +6.11747682986E-05 -4.07708144921E-01 +7.59886303303E-01
1.32000000000E+09 -2.36055719714E-01 +8.97725727204E-01 -2.41012469061E-04 +7.50795241049E-05 -2.29768260338E-04 +4.33600348216E-05 -3.99822571937E-01 +7.63558030880E-01
1.32500000000E+09 -2.30093186514E-01 +8.97699278179E-01 -2.12108758986E-04 +1.09798323145E-04 -2.11754896868E-04 +1.42478260676E-04 -3.91630112268E-01 +7.67315182751E-01
1.33000000000E+09 -2.23266269115E-01 +8.97169303411E-01 -1.81050762161E-04 +1.47621705152E-04 -2.36098623897E-04 +1.23679454757E-04 -3.83143579509E-01 +7.70918239326E-01
1.33500000000E+09 -2.14255272211E-01 +8.96701741562E-01 -2.53013932219E-04 +8.97692748620E-05 -2.00416850765E-04 +8.40312123483E-05 -3.74583568170E-01 +7.74517730333E-01
1.34000000000E+09 -2.02813958571E-01 +8.96476797720E-01 -2.70815376964E-04 +1.19149219964E-04 -2.36692121120E-04 +1.63589640811E-04 -3.65607917222E-01 +7.78119387012E-01
1.34500000000E+09 -1.88661797521E-01 +8.96515934501E-01 -2.38173668242E-04 +1.84264093565E-04 -2.45360339187E-04 +1.83949547218E-04 -3.56089360945E-01 +7.81902339883E-01
1.35000000000E+09 -1.72820900449E-01 +8.97100202449E-01 -2.51713950960E-04 +2.03859533263E-04 -2.11923970319E-04 +2.02838713529E-04 -3.46121009919E-01 +7.85627519421E-01
1.35500000000E+09 -1.55813043860E-01 +8.98108081302E-01 -1.91139736480E-04 +2.95176382204E-04 -2.17643422317E-04 +2.68444503538E-04 -3.35775201239E-01 +7.89302124582E-01
1.36000000000E+09 -1.39172970328E-01 +8.99276398682E-01 -1.88196919233E-04 +3.03666814992E-04 -2.16527502066E-04 +2.80678140248E-04 -3.25100443772E-01 +7.92686869181E-01
1.36500000000E+09 -1.23377566184E-01 +9.00224153083E-01 -1.90796456961E-04 +3.37392589890E-04 -2.10710651435E-04 +3.34888019488E-04 -3.14095305054E-01 +7.95817817771E-01
1.37000000000E+09 -1.09511756736E-01 +9.00354903622E-01 -1.77332290253E-04 +4.49077723674E-04 -1.77951759156E-04 +4.16491090076E-04 -3.02716858455E-01 +7.99108305724E-01
1.37500000000E+09 -9.76051429891E-02 +8.99980570233E-01 -7.19174107255E-05 +4.54566975287E-04 -1.36734429401E-04 +4.47037635484E-04 -2.90385098007E-01 +8.02152956770E-01
1.38000000000E+09 -8.68008502660E-02 +8.98985305489E-01 -8.43465887413E-05 +4.73710370030E-04 -1.19050071018E-04 +4.59971644252E-04 -2.77264727692E-01 +8.05209404662E-01
1.38500000000E+09 -7.56281393974E-02 +8.97226232054E-01 -6.48022157592E-06 +4.64275245039E-04 -8.01757160727E-05 +5.80964356833E-04 -2.63388431457E-01 +8.08216097522E-01
1.39000000000E+09 -6.32895012865E-02 +8.94829597015E-01 -1.38506142754E-05 +5.12498455148E-04 -2.55340769382E-05 +5.97180151652E-04 -2.49011911319E-01 +8.10855307285E-01
1.39500000000E+09 -4.85916140835E-02 +8.91608688648E-01 +4.47696041628E-05 +5.15490765092E-04 +4.77617283395E-05 +6.33249833157E-04 -2.33801135876E-01 +8.12973082612E-01
1.40000000000E+09 -3.09821844121E-02 +8.87660053863E-01 +4.03028611200E-05 +6.01575336475E-04 +6.00471885091E-05 +6.51792428035E-04 -2.17887939982E-01 +8.14845403890E-01
1.40500000000E+09 -1.13562048193E-02 +8.83222114936E-01 +1.13853976125E-04 +7.65852185042E-04 +1.92156372264E-04 +7.40483124461E-04 -2.01013128409E-01 +8.16154242401E-01
1.41000000000E+09 +1.05294595889E-02 +8.78373563272E-01 +3.19308697111E-04 +7.59632779077E-04 +2.97524264250E-04 +7.63380837013E-04 -1.82379611821E-01 +8.17180587851E-01
1.41500000000E+09 +3.30937138240E-02 +8.72861750020E-01 +4.26142673885E-04 +8.28136621358E-04 +4.18780746926E-04 +8.43995241539E-04 -1.62469030512E-01 +8.17336886056E-01
1.42000000000E+09 +5.59211249475E-02 +8.66873167403E-01 +5.89334522656E-04 +7.49613272159E-04 +6.56836150919E-04 +8.19850043287E-04 -1.40961824325E-01 +8.17198897821E-01
1.42500000000E+09 +7.74829783855E-02 +8.59610679809E-01 +6.82977660322E-04 +6.85232505430E-04 +8.04579650470E-04 +7.74703744151E-04 -1.18486197234E-01 +8.15804041927E-01
1.43000000000E+09 +9.80243511075E-02 +8.51239168544E-01 +7.78651499440E-04 +7.36019188784E-04 +9.25170358224E-04 +7.26901538938E-04 -9.51166683409E-02 +8.13429104788E-01
1.43500000000E+09 +1.17853527262E-01 +8.40892490775E-01 +1.00960531265E-03 +7.92525327862E-04 +1.10597329026E-03 +7.70297736305E-04 -7.00507906069E-02 +8.09627727674E-01
1.44000000000E+09 +1.38134367193E-01 +8.29110942815E-01 +1.40846885501E-03 +7.48665846643E-04 +1.49976209833E-03 +6.33673098454E-04 -4.30767638074E-02 +8.04013464559E-01
1.44500000000E+09 +1.60345423165E-01 +8.14219860397E-01 +1.65753668613E-03 +3.29796904867E-04 +1.70615823025E-03 +2.64248325049E-04 -1.35563745853E-02 +7.95933572478E-01
1.45000000000E+09 +1.84885039531E-01 +7.95588183163E-01 +1.65995707033E-03 +1.07214847759E-04 +1.68681867127E-03 -1.55518735547E-05 +1.76318035903E-02 +7.84746820213E-01
1.45500000000E+09 +2.11886562471E-01 +7.73369939190E-01 +1.80450304680E-03 +7.39865907639E-05 +1.83874704240E-03 -9.73578793820E-05 +5.08222380035E-02 +7.70819304074E-01
1.46000000000E+09 +2.42643302367E-01 +7.47142627084E-01 +2.11963757720E-03 -1.85613073010E-04 +2.00126979669E-03 -3.76415380515E-04 +8.54234965075E-02 +7.52811180985E-01
1.46500000000E+09 +2.74862583010E-01 +7.16205630935E-01 +2.47739591693E-03 -6.04077842179E-04 +2.22974922054E-03 -6.75362714491E-04 +1.21687500368E-01 +7.30311361234E-01
1.47000000000E+09 +3.08026512313E-01 +6.80797638505E-01 +2.63935997811E-03 -1.35784052819E-03 +2.44474629088E-03 -1.24275302599E-03 +1.59490132856E-01 +7.00771759040E-01
1.47500000000E+09 +3.40470033956E-01 +6.39873809224E-01 +2.53726204140E-03 -2.27849647977E-03 +2.54210058461E-03 -2.05616789701E-03 +1.97829237826E-01 +6.64214086136E-01
1.48000000000E+09 +3.69860230822E-01 +5.92741233441E-01 +1.96277568240E-03 -2.90753874401E-03 +2.05083694006E-03 -2.90658801399E-03 +2.36040100797E-01 +6.18764243637E-01
1.48500000000E+09 +3.93850076842E-01 +5.38708773158E-01 +1.54281478010E-03 -3.20711218085E-03 +1.54133567150E-03 -3.33715660136E-03 +2.72283849060E-01 +5.64396905708E-01
1.49000000000E+09 +4.11591998738E-01 +4.77428734965E-01 +1.20337562248E-03 -3.94679748449E-03 +1.00390235214E-03 -4.01897319862E-03 +3.03804394897E-01 +4.98140068211E-01
1.49500000000E+09 +4.20824265492E-01 +4.08015783966E-01 +2.04527909871E-04 -4.75784861050E-03 +2.02431477325E-05 -4.54210136825E-03 +3.24432983353E-01 +4.21956148200E-01
1.50000000000E+09 +4.21364386762E-01 +3.29440037105E-01 -1.12357214673E-03 -5.04385508834E-03 -1.05853281561E-03 -4.74958549044E-03 +3.33765222578E-01 +3.36884338751E-01
1.50500000000E+09 +4.08251910127E-01 +2.40514261700E-01 -2.26480202193E-03 -5.04502276370E-03 -2.02526101067E-03 -4.91897865311E-03 +3.26285086144E-01 +2.42851287115E-01
1.51000000000E+09 +3.77777615870E-01 +1.46364435852E-01 -4.08739588489E-03 -4.57381237156E-03 -3.79904168864E-03 -4.70511172386E-03 +2.97864776961E-01 +1.44642350289E-01
1.51500000000E+09 +3.27339503703E-01 +5.19131438727E-02 -5.30647078259E-03 -3.89191368320E-03 -5.28507142960E-03 -4.05942567666E-03 +2.46400346524E-01 +5.10644183091E-02
1.52000000000E+09 +2.56309402426E-01 -3.29902316510E-02 -7.40999604046E-03 -2.08773107866E-03 -7.42822334693E-03 -2.16426531374E-03 +1.75495853932E-01 -3.22525075794E-02
1.52500000000E+09 +1.68079481083E-01 -1.02435972990E-01 -7.34847063598E-03 +1.16776769431E-03 -7.41589702377E-03 +1.12662695946E-03 +8.51567218149E-02 -9.73410136220E-02
1.53000000000E+09 +6.63253655587E-02 -1.50296052068E-01 -5.72146275548E-03 +2.81300487621E-03 -5.78603940846E-03 +2.82046840106E-03 -1.50674409216E-02 -1.39298077378E-01
1.53500000000E+09 -4.30187860079E-02 -1.73983795390E-01 -4.83354378726E-03 +3.96510210809E-03 -4.87446568666E-03 +3.93565282868E-03 -1.18966875417E-01 -1.57256111395E-01
1.54000000000E+09 -1.55805945082E-01 -1.69990720240E-01 -3.19157307753E-03 +4.57013144136E-03 -3.15868538081E-03 +4.46980101656E-03 -2.18476595672E-01 -1.53860509314E-01
1.54500000000E+09 -2.61902297553E-01 -1.42900195154E-01 -2.32011865062E-03 +4.91473189318E-03 -2.36681873210E-03 +4.81980042795E-03 -3.07686768251E-01 -1.32709845127E-01
1.55000000000E+09 -3.57366510002E-01 -9.53501838712E-02 -9.21039459383E-04 +5.40888313871E-03 -1.17843759923E-03 +5.41444878257E-03 -3.84917242249E-01 -1.00178893581E-01
1.55500000000E+09 -4.35369765827E-01 -3.68853787515E-02 +8.72420567373E-04 +5.03220909869E-03 +6.83909945417E-04 +5.17695178699E-03 -4.49384230379E-01 -5.82478500377E-02
1.56000000000E+09 -4.98757799091E-01 +2.42879171100E-02 +1.94770737880E-03 +3.80318239785E-03 +1.87417883747E-03 +4.09875143177E-03 -5.01248051264E-01 -1.14662747542E-02
1.56500000000E+09 -5.49005275237E-01 +8.62781825416E-02 +2.20770626857E-03 +2.78291367209E-03 +2.35455285636E-03 +2.94733425199E-03 -5.41600050166E-01 +3.75525256974E-02
1.57000000000E+09 -5.85868894204E-01 +1.46307917925E-01 +2.31676177660E-03 +2.02208010179E-03 +2.46640373985E-03 +2.09361138035E-03 -5.72081400598E-01 +8.56611931485E-02
