# Hz S RI R 50
! CMT, C1220, 16058040, 17.2.0/1
! Date: 14/08/2018 12:32:29
! Data: Format (Calibration Info)
! Freq                      S11: Re/Im (F2)                       S21: Re/Im (F2)                       S12: Re/Im (F2)                       S22: Re/Im (F2)            
1.00000000000E+09 -6.33114201054E-01 +7.08382215607E-01 -2.47212983164E-05 +1.44804974785E-05 -3.12185172848E-05 -7.89693308653E-06 -7.53337568364E-01 +6.23701453233E-01
1.00500000000E+09 -6.26045145607E-01 +7.13294531320E-01 -3.03475741963E-06 +4.56620959635E-05 +4.35304278216E-05 +1.72065995433E-05 -7.49750189892E-01 +6.27865571228E-01
1.01000000000E+09 -6.19833577277E-01 +7.17913595883E-01 -2.92797628424E-05 +1.15713764759E-05 -1.33778053070E-05 +2.71612497932E-05 -7.46044213187E-01 +6.31472574488E-01
1.01500000000E+09 -6.14927507878E-01 +7.21878495065E-01 +1.74308846141E-05 +3.70318520737E-05 +5.00639865884E-05 +1.86369943940E-05 -7.42908634014E-01 +6.35105146052E-01
1.02000000000E+09 -6.11465593765E-01 +7.25431118728E-01 +2.03686176942E-05 +4.68388936821E-05 -6.28509066426E-05 +4.53551522468E-05 -7.39819896619E-01 +6.38598123886E-01
1.02500000000E+09 -6.08925366163E-01 +7.28234049336E-01 -1.29510841084E-05 -2.72489026600E-05 -3.57415285615E-05 -2.45131647670E-05 -7.37017582540E-01 +6.42285324800E-01
1.03000000000E+09 -6.06705665735E-01 +7.30779314235E-01 +3.05776487466E-06 +2.21210838810E-05 +1.53335430964E-05 -2.23054314505E-05 -7.33422524751E-01 +6.46035789852E-01
1.03500000000E+09 -6.03924835715E-01 +7.33266700665E-01 -1.75787928913E-05 -4.58555033685E-06 -1.48625698542E-05 +8.32468500670E-06 -7.29519714128E-01 +6.49972355313E-01
1.04000000000E+09 -6.00101431197E-01 +7.36038044346E-01 -1.86331185417E-05 +5.26145281047E-05 -1.62811110116E-05 -3.36602196606E-05 -7.25825116027E-01 +6.53708225427E-01
1.04500000000E+09 -5.94987438832E-01 +7.39319303511E-01 +1.54656736920E-05 +5.62745185089E-06 -3.41297288457E-05 -1.78686024599E-05 -7.22094892793E-01 +6.57227878374E-01
1.05000000000E+09 -5.88251278999E-01 +7.43279555470E-01 -6.83284531424E-06 -2.45508396520E-05 +1.02482760148E-05 +3.37927145745E-05 -7.18940995183E-01 +6.60538288068E-01
1.05500000000E+09 -5.80308831032E-01 +7.47511470770E-01 -1.54372822848E-05 +3.97682267803E-05 -2.96925241008E-05 +1.36216513237E-05 -7.15548600481E-01 +6.64121635904E-01
1.06000000000E+09 -5.71904467427E-01 +7.52439834102E-01 -3.16601522862E-05 +4.10002105576E-05 +7.83143663505E-06 +1.39041133222E-05 -7.12307045190E-01 +6.68166072263E-01
1.06500000000E+09 -5.63798815330E-01 +7.57221446406E-01 -4.28884969240E-06 +1.23920772241E-05 -3.81547305941E-06 +1.58141946688E-05 -7.08524123185E-01 +6.71883928999E-01
1.07000000000E+09 -5.56738908845E-01 +7.61746035020E-01 -1.16384666057E-05 +1.84385819190E-05 +2.30638344667E-05 +4.25336435954E-05 -7.04371575290E-01 +6.75634626894E-01
1.07500000000E+09 -5.50761001728E-01 +7.65670210816E-01 -2.97687908270E-05 +2.19781553621E-05 +4.25483304281E-06 +1.92570556307E-05 -7.00120318739E-01 +6.79248962789E-01
1.08000000000E+09 -5.46615760866E-01 +7.68944890962E-01 +5.15136898850E-05 +4.33010066549E-05 -3.83988174483E-06 +2.86210430874E-05 -6.96113916792E-01 +6.83079494625E-01
1.08500000000E+09 -5.43648368033E-01 +7.71561174932E-01 +7.00714526758E-05 +4.95697526037E-05 +2.57414944636E-05 -2.54836352935E-05 -6.92266430143E-01 +6.86875940424E-01
1.09000000000E+09 -5.41024675743E-01 +7.73714328942E-01 +4.41942506269E-05 +3.23338150811E-07 -4.73838055669E-06 -1.01811338848E-05 -6.88566617606E-01 +6.90585808191E-01
1.09500000000E+09 -5.38774626682E-01 +7.75650856871E-01 +1.38269744832E-05 -2.54980470823E-06 -7.48316975727E-06 -4.43738074358E-05 -6.84906393477E-01 +6.94392532294E-01
1.10000000000E+09 -5.35232470133E-01 +7.77900624788E-01 -1.61851666226E-05 -9.60338600898E-06 +1.50962061480E-05 +1.11687896078E-05 -6.80953048494E-01 +6.98258607246E-01
1.10500000000E+09 -5.30712781683E-01 +7.80468880489E-01 +1.38270556690E-05 +1.08978848414E-05 +4.00664927487E-06 +2.63281239630E-06 -6.76559463891E-01 +7.01630854100E-01
1.11000000000E+09 -5.24730919218E-01 +7.83556359739E-01 +4.53235503105E-05 -6.59275634387E-05 +1.91994766944E-06 -3.02827527297E-05 -6.72420475072E-01 +7.05005943558E-01
1.11500000000E+09 -5.17489701607E-01 +7.87268488360E-01 -5.55987616329E-06 +2.65694341147E-05 +4.37179870190E-05 +2.09324801764E-05 -6.68568577009E-01 +7.08502425043E-01
1.12000000000E+09 -5.09830014309E-01 +7.91204812985E-01 -2.50543113681E-05 -3.74100034669E-05 -2.37041521920E-05 -4.39339537134E-06 -6.64569276869E-01 +7.12074660239E-01
1.12500000000E+09 -5.02216272634E-01 +7.95041819965E-01 +6.36138066672E-06 -1.29119566333E-05 +5.17311656366E-05 +3.02821026925E-05 -6.60171854985E-01 +7.16041732271E-01
1.13000000000E+09 -4.95343410773E-01 +7.98806071706E-01 +3.50267361985E-05 +2.53852683615E-05 +2.03228063852E-05 -2.11477287918E-05 -6.55813417194E-01 +7.19808233269E-01
1.13500000000E+09 -4.89275630188E-01 +8.01373494796E-01 +2.28998115827E-05 +2.57009644732E-05 +6.96053583028E-05 -1.71969521371E-05 -6.51323373728E-01 +7.23743706347E-01
1.14000000000E+09 -4.84469631565E-01 +8.03875350510E-01 +2.22851726034E-05 +1.25634353432E-05 +2.06638320623E-05 +2.01125185625E-05 -6.46430719716E-01 +7.27170735205E-01
1.14500000000E+09 -4.80787172045E-01 +8.05541780115E-01 +3.91078867416E-05 +1.38877398038E-05 +1.01626182421E-05 +5.63380337093E-05 -6.41738408614E-01 +7.30563698425E-01
1.15000000000E+09 -4.77347816003E-01 +8.06760485967E-01 +3.31001415460E-05 +3.52539909707E-05 +2.88460863244E-05 -4.40231585365E-06 -6.37139889510E-01 +7.34505033647E-01
1.15500000000E+09 -4.73692968442E-01 +8.08411135218E-01 +1.84550367203E-05 -1.54397565348E-05 +5.72590228899E-05 -4.58553079565E-05 -6.32249135115E-01 +7.38294755173E-01
1.16000000000E+09 -4.68970047601E-01 +8.10061247457E-01 +6.72596832566E-05 -3.41925629623E-05 +5.58690059201E-05 -1.52295293766E-05 -6.27644886129E-01 +7.42099765866E-01
1.16500000000E+09 -4.63170831864E-01 +8.12614728886E-01 -1.91545262330E-05 -1.68107534721E-06 +7.51573105108E-05 -1.15850449996E-05 -6.22582732544E-01 +7.45621792564E-01
1.17000000000E+09 -4.56220747553E-01 +8.15631987257E-01 +1.69443761945E-05 -1.21566748497E-06 +4.23941911384E-05 -1.36288801495E-05 -6.17313787060E-01 +7.49134006465E-01
1.17500000000E+09 -4.48173560532E-01 +8.18807477886E-01 +6.00539993424E-05 -4.80574183807E-05 +3.33770862134E-05 -2.36196255636E-05 -6.11588471836E-01 +7.52350970178E-01
1.18000000000E+09 -4.39922900198E-01 +8.22483181866E-01 +3.96940954458E-05 -7.19948743150E-05 +5.74041199315E-05 -8.36612028349E-05 -6.06156941984E-01 +7.55301225373E-01
1.18500000000E+09 -4.31893400159E-01 +8.25824739157E-01 +6.73905016229E-05 -5.33399293148E-05 +4.33811380742E-05 -2.81686376189E-05 -6.00417034246E-01 +7.58181732608E-01
1.19000000000E+09 -4.24590789242E-01 +8.28634195304E-01 +5.79694907128E-05 -1.07246235591E-04 +9.41399263042E-05 -9.53017336686E-05 -5.94152605728E-01 +7.60885049895E-01
1.19500000000E+09 -4.18537833812E-01 +8.30606301325E-01 +3.45349446862E-05 -1.01981114055E-04 +1.43176294959E-05 -1.03543962509E-04 -5.88173603739E-01 +7.62133880299E-01
1.20000000000E+09 -4.13416808263E-01 +8.31585434871E-01 -1.34529300357E-05 -1.18002928418E-04 -2.13307193409E-05 -1.28684189578E-04 -5.83806604471E-01 +7.62234061306E-01
1.20500000000E+09 -4.08745614627E-01 +8.32607456780E-01 -8.53703138191E-05 -9.62341362958E-05 -7.99446760309E-05 -8.28270588745E-05 -5.81499981834E-01 +7.63190639319E-01
1.21000000000E+09 -4.04132389719E-01 +8.33473647951E-01 -4.59541077702E-05 -3.04628305196E-05 -6.82398763876E-05 -4.52481571374E-05 -5.79449911692E-01 +7.66386147944E-01
1.21500000000E+09 -3.98347692149E-01 +8.34829337911E-01 -6.83115100390E-05 -2.23898170317E-05 -3.04662463602E-05 -2.56459770450E-05 -5.76625370991E-01 +7.71044523678E-01
1.22000000000E+09 -3.91035113714E-01 +8.36555250840E-01 -8.89857372643E-06 +1.93698466473E-05 -4.23812166572E-05 -1.97399213468E-05 -5.72444948285E-01 +7.76438921628E-01
1.22500000000E+09 -3.82121011953E-01 +8.38993982849E-01 -1.07560798082E-05 -2.84613405943E-05 -3.86882269097E-05 -1.74367827101E-05 -5.67186080480E-01 +7.81545779114E-01
1.23000000000E+09 -3.72083881332E-01 +8.41805756529E-01 -1.86658597925E-05 -7.47849001881E-05 -2.16314670725E-05 -5.96592579936E-05 -5.61625851469E-01 +7.86237117752E-01
1.23500000000E+09 -3.61965746045E-01 +8.45237383586E-01 -2.32059374912E-05 -7.69465529616E-05 -3.24830881505E-05 -3.29163713153E-05 -5.55788762875E-01 +7.90458388396E-01
1.24000000000E+09 -3.51833143366E-01 +8.48953103354E-01 -1.49935637274E-05 -3.15354289563E-05 -3.17299921090E-05 -1.13528967907E-05 -5.49972898380E-01 +7.94288492679E-01
1.24500000000E+09 -3.42534509863E-01 +8.53065383995E-01 -4.75229228619E-05 -7.29054765749E-05 -2.72988664711E-05 -1.77755536215E-05 -5.43462731891E-01 +7.98076295955E-01
1.25000000000E+09 -3.34368923737E-01 +8.56575415054E-01 -4.93652838555E-05 -1.01791884679E-05 -6.78902043579E-05 -7.27508175622E-05 -5.37192739947E-01 +8.02237701523E-01
1.25500000000E+09 -3.27250999687E-01 +8.59057416248E-01 -7.34754381139E-05 -3.53942219539E-05 -4.75053193146E-05 -4.61696112931E-05 -5.30396494563E-01 +8.06386625770E-01
1.26000000000E+09 -3.21182198346E-01 +8.60836482579E-01 -6.60189569064E-05 -5.84901734953E-05 -6.72918345786E-05 -4.48275134516E-05 -5.23693116828E-01 +8.10581802315E-01
1.26500000000E+09 -3.15459802021E-01 +8.61894101204E-01 -3.86502782519E-05 -1.23332140085E-05 -9.61482904989E-05 -1.11783582618E-05 -5.16884981376E-01 +8.14248452640E-01
1.27000000000E+09 -3.09422133596E-01 +8.62583221994E-01 -5.70711324355E-05 +7.25040384914E-06 -7.13627840176E-05 -6.46661287802E-06 -5.09972427704E-01 +8.18121785044E-01
1.27500000000E+09 -3.02047476821E-01 +8.63190530234E-01 -9.52128447914E-05 -1.01332330011E-05 -1.02472688141E-04 +2.79009945327E-05 -5.02776072393E-01 +8.21634816975E-01
1.28000000000E+09 -2.93040629369E-01 +8.64023725715E-01 -5.40313309535E-05 +1.01768297370E-05 -1.05505150764E-04 -5.04267556814E-06 -4.95707029522E-01 +8.25374514803E-01
1.28500000000E+09 -2.82124835420E-01 +8.65361515705E-01 +5.13599653686E-06 +8.92350021814E-06 -6.82416435651E-05 -1.40376796761E-05 -4.88053207474E-01 +8.29249442298E-01
1.29000000000E+09 -2.70361361295E-01 +8.67405196101E-01 -3.75211301098E-05 -5.73526988973E-06 -5.07476755691E-05 -1.30757951321E-05 -4.80686682726E-01 +8.32877326026E-01
1.29500000000E+09 -2.58336598436E-01 +8.69890817603E-01 -9.75103545087E-05 +1.56272710701E-06 -5.28153759977E-05 -2.81662315289E-05 -4.72681805074E-01 +8.36449788326E-01
1.30000000000E+09 -2.46555760241E-01 +8.73209076080E-01 -1.25674153321E-04 +2.53621991925E-05 -1.47378009467E-04 +6.35181875483E-06 -4.64953379585E-01 +8.39945167117E-01
1.30500000000E+09 -2.36020510739E-01 +8.76620868188E-01 -1.05842299066E-04 +3.73645348888E-05 -4.13572738014E-05 +4.04176292794E-05 -4.56894422070E-01 +8.43426129603E-01
1.31000000000E+09 -2.26792508706E-01 +8.79344275535E-01 -6.12620417049E-05 +3.59961065429E-05 -5.17140564750E-05 +8.25303478310E-05 -4.48390120088E-01 +8.46862456853E-01
1.31500000000E+09 -2.19279406639E-01 +8.81219525412E-01 -1.17852835635E-04 +3.67363712292E-05 -5.98239631316E-05 +2.89823672953E-05 -4.39770657527E-01 +8.50337022019E-01
1.32000000000E+09 -2.13007819188E-01 +8.81998023188E-01 -9.37183999469E-05 +1.62356196759E-05 -9.57148485466E-05 +4.76382706770E-05 -4.30644820921E-01 +8.53630162564E-01
1.32500000000E+09 -2.07125358238E-01 +8.82035437237E-01 -1.20727667326E-04 +2.34607248934E-05 -1.12715657875E-04 +4.96582132576E-05 -4.21225436195E-01 +8.57053824943E-01
1.33000000000E+09 -2.00222906990E-01 +8.81566734968E-01 -1.34144260987E-04 +2.54755689902E-05 -1.76154468483E-04 +4.79879152704E-05 -4.11611962536E-01 +8.60197801119E-01
1.33500000000E+09 -1.91613526498E-01 +8.80613347682E-01 -1.33395741079E-04 +8.68910081665E-05 -1.51268887340E-04 +8.93908409539E-05 -4.01948476349E-01 +8.63401394942E-01
1.34000000000E+09 -1.80648844601E-01 +8.79780782564E-01 -1.86276867686E-04 +1.18639755093E-04 -1.43022474583E-04 +1.31220933152E-04 -3.91832303192E-01 +8.66642861744E-01
1.34500000000E+09 -1.67122958428E-01 +8.78913451967E-01 -1.38220457442E-04 +1.83005364402E-04 -1.29163066151E-04 +1.69150610530E-04 -3.80828546595E-01 +8.69988204926E-01
1.35000000000E+09 -1.51764449754E-01 +8.78598728576E-01 -9.98584114720E-05 +1.63161111247E-04 -7.29446873288E-05 +1.53200682576E-04 -3.69669221641E-01 +8.73138573540E-01
1.35500000000E+09 -1.35437317357E-01 +8.78941297763E-01 -1.24602741727E-04 +2.34792109033E-04 -1.30297574563E-04 +2.37880878946E-04 -3.57913648913E-01 +8.75938628760E-01
1.36000000000E+09 -1.19163086834E-01 +8.79687784499E-01 -1.28913462821E-04 +2.51275960504E-04 -6.67259158568E-05 +2.28127297442E-04 -3.46036602394E-01 +8.78633134102E-01
1.36500000000E+09 -1.03504070014E-01 +8.80656176543E-01 -8.43243345280E-05 +2.69888928052E-04 -7.63628750312E-05 +2.60151103865E-04 -3.33787409079E-01 +8.81035939614E-01
1.37000000000E+09 -8.93322134697E-02 +8.80843093464E-01 -6.34211463095E-05 +3.27199764804E-04 -8.70449685756E-05 +3.15640292821E-04 -3.20969613383E-01 +8.83424187856E-01
1.37500000000E+09 -7.72397627771E-02 +8.80620563979E-01 +4.27180730502E-05 +4.35246222220E-04 +3.73330586325E-06 +4.21124654957E-04 -3.07247439426E-01 +8.85736702540E-01
1.38000000000E+09 -6.63574296681E-02 +8.79741528347E-01 +1.78394095755E-04 +3.97544230772E-04 +1.38457681309E-04 +4.49985983172E-04 -2.92594519161E-01 +8.87856018492E-01
1.38500000000E+09 -5.52753114687E-02 +8.78098552308E-01 +2.06662469080E-04 +3.11905335048E-04 +2.03550882017E-04 +4.33162537252E-04 -2.76998606674E-01 +8.89629282569E-01
1.39000000000E+09 -4.35994570436E-02 +8.75389692185E-01 +2.12655895994E-04 +3.09661665519E-04 +2.52794549842E-04 +3.76064453645E-04 -2.61270250724E-01 +8.91161155101E-01
1.39500000000E+09 -2.96656418035E-02 +8.71731142063E-01 +2.00707367482E-04 +3.05657705538E-04 +2.95960888233E-04 +2.90529748191E-04 -2.44540608367E-01 +8.91882927915E-01
1.40000000000E+09 -1.33525753525E-02 +8.67253392907E-01 +2.39290206889E-04 +3.47955682056E-04 +2.72902959462E-04 +3.31099198897E-04 -2.27205749165E-01 +8.92272613243E-01
1.40500000000E+09 +5.06753976314E-03 +8.62096511154E-01 +3.66724557647E-04 +3.69115375659E-04 +3.71101989218E-04 +3.43909672879E-04 -2.08894372458E-01 +8.91903801313E-01
1.41000000000E+09 +2.56902664887E-02 +8.56717008230E-01 +4.94099140793E-04 +2.98623642157E-04 +4.59521766116E-04 +3.21389670653E-04 -1.88899991862E-01 +8.91319556268E-01
1.41500000000E+09 +4.73259980907E-02 +8.51089275769E-01 +5.88735295516E-04 +2.85438505675E-04 +5.69494734646E-04 +2.88916029036E-04 -1.67461589814E-01 +8.89817752863E-01
1.42000000000E+09 +6.97514782820E-02 +8.45309875299E-01 +7.11472470995E-04 +9.92693282329E-05 +7.30586503892E-04 +1.17203728241E-04 -1.44838718451E-01 +8.87172036588E-01
1.42500000000E+09 +9.16961446914E-02 +8.38197936044E-01 +5.74170127624E-04 +9.80367243037E-05 +6.29131158764E-04 +5.79568022538E-05 -1.21163359403E-01 +8.83418421467E-01
1.43000000000E+09 +1.12484060852E-01 +8.29727225915E-01 +7.92151567825E-04 +2.77121645355E-05 +8.66642296723E-04 -7.05557789729E-06 -9.65798214230E-02 +8.78858189039E-01
1.43500000000E+09 +1.32615657355E-01 +8.19666212170E-01 +8.36324673580E-04 -1.66289037859E-04 +8.69216654788E-04 -2.40356829419E-04 -7.05524208147E-02 +8.72308397336E-01
1.44000000000E+09 +1.52748669329E-01 +8.07754293858E-01 +8.02479897864E-04 -3.61779592657E-04 +7.89403563064E-04 -4.18904935379E-04 -4.27713376977E-02 +8.64053396095E-01
1.44500000000E+09 +1.74154160093E-01 +7.92828067335E-01 +7.91671828333E-04 -4.56845824904E-04 +8.05780317043E-04 -4.87703596741E-04 -1.24165260960E-02 +8.53146380520E-01
1.45000000000E+09 +1.97210801941E-01 +7.74456830001E-01 +7.87502438991E-04 -5.30118816815E-04 +7.75701177835E-04 -5.54067141351E-04 +1.94322002047E-02 +8.38790082693E-01
1.45500000000E+09 +2.22960717304E-01 +7.52543695823E-01 +8.41744588249E-04 -6.90508223961E-04 +7.91964948009E-04 -8.13302231950E-04 +5.27925270180E-02 +8.21412776481E-01
1.46000000000E+09 +2.51373549452E-01 +7.26199854826E-01 +8.80376558855E-04 -8.92464603068E-04 +7.93484674062E-04 -9.64700386675E-04 +8.74265531197E-02 +7.99987252463E-01
1.46500000000E+09 +2.81316984451E-01 +6.95748034600E-01 +8.35217224728E-04 -1.38187352602E-03 +7.12282025998E-04 -1.29256766122E-03 +1.23354032842E-01 +7.73632452956E-01
1.47000000000E+09 +3.12771874129E-01 +6.61451802961E-01 +3.54144987484E-04 -1.59901914228E-03 +3.37990573027E-04 -1.48921517196E-03 +1.59939731729E-01 +7.40951268125E-01
1.47500000000E+09 +3.44062651582E-01 +6.21626832442E-01 -2.46129533951E-05 -1.80376298945E-03 +5.96875693516E-05 -1.73919532160E-03 +1.98066832968E-01 +7.01249265484E-01
1.48000000000E+09 +3.72880649941E-01 +5.75629349475E-01 -3.52155541498E-04 -1.53617143180E-03 -2.96195584438E-04 -1.64527209460E-03 +2.35312034398E-01 +6.51618085424E-01
1.48500000000E+09 +3.96736451033E-01 +5.23320863169E-01 -3.33097816935E-04 -1.76350816346E-03 -3.70518478773E-04 -1.84799646919E-03 +2.69722195643E-01 +5.93236012403E-01
1.49000000000E+09 +4.14797055090E-01 +4.63539982435E-01 -9.42612401378E-04 -2.05270711296E-03 -1.02192572907E-03 -2.04415383562E-03 +2.99214894755E-01 +5.24065290184E-01
1.49500000000E+09 +4.24587140668E-01 +3.95707154898E-01 -1.44269335230E-03 -2.04610510277E-03 -1.48058718473E-03 -1.88581397449E-03 +3.18765084857E-01 +4.44287428931E-01
1.50000000000E+09 +4.24608376576E-01 +3.18618917111E-01 -2.32416851858E-03 -2.24512515573E-03 -2.22985898594E-03 -2.15498054410E-03 +3.25146961072E-01 +3.54341431649E-01
1.50500000000E+09 +4.11396299743E-01 +2.32575484850E-01 -3.76223471660E-03 -1.28827005137E-03 -3.63622256579E-03 -1.32725068506E-03 +3.14571671611E-01 +2.58033082667E-01
1.51000000000E+09 +3.80851620418E-01 +1.41149633764E-01 -3.83270673799E-03 +7.03033127531E-04 -3.82372115858E-03 +5.56647635848E-04 +2.84915492624E-01 +1.56259829111E-01
1.51500000000E+09 +3.31496945637E-01 +5.01477679616E-02 -3.15007962130E-03 +1.36663529302E-03 -3.18732411112E-03 +1.35442676561E-03 +2.30633072669E-01 +5.62696486512E-02
1.52000000000E+09 +2.62976788925E-01 -3.40417265739E-02 -2.94807067605E-03 +2.27498898119E-03 -2.99179628820E-03 +2.25519587847E-03 +1.53513425803E-01 -3.17995078959E-02
1.52500000000E+09 +1.76816489718E-01 -1.04601341455E-01 -1.48695399347E-03 +3.07893785918E-03 -1.51273978333E-03 +3.09612745316E-03 +5.75953034962E-02 -1.01769344211E-01
1.53000000000E+09 +7.40223279170E-02 -1.54367982263E-01 -9.19689286283E-04 +2.50909137591E-03 -8.54033781913E-04 +2.52835597670E-03 -5.13808815810E-02 -1.47710689049E-01
1.53500000000E+09 -3.70573446985E-02 -1.76431530393E-01 -1.04728324418E-03 +2.93155218994E-03 -1.01509042853E-03 +2.92217808463E-03 -1.64772482362E-01 -1.67779108390E-01
1.54000000000E+09 -1.48058597370E-01 -1.70786994562E-01 +1.10053931537E-04 +3.68819926164E-03 +1.19579398712E-04 +3.57718718724E-03 -2.74926775823E-01 -1.64304697246E-01
1.54500000000E+09 -2.51854676913E-01 -1.41415980909E-01 +1.62048270431E-03 +3.24610319114E-03 +1.54466645770E-03 +3.20705090092E-03 -3.74679420331E-01 -1.40498355201E-01
1.55000000000E+09 -3.43641251793E-01 -9.41000604950E-02 +2.43072516539E-03 +2.48605370766E-03 +2.36163411324E-03 +2.54993673195E-03 -4.61731729858E-01 -1.02263361785E-01
1.55500000000E+09 -4.20527233012E-01 -3.55206539881E-02 +2.90961032180E-03 +1.27358516593E-03 +2.92393277181E-03 +1.41549565408E-03 -5.33362277545E-01 -5.27155520046E-02
1.56000000000E+09 -4.82536370492E-01 +2.76085592317E-02 +2.64996107905E-03 -7.59361703099E-06 +2.78671110152E-03 +8.09608729067E-05 -5.89611061435E-01 +1.46145350048E-03
1.56500000000E+09 -5.29444943976E-01 +9.10137675007E-02 +1.88416458752E-03 -3.84041284228E-04 +2.01547103077E-03 -4.13096785855E-04 -6.33934688328E-01 +5.75821755204E-02
1.57000000000E+09 -5.64603769092E-01 +1.51306264919E-01 +1.64870871309E-03 -5.07033168768E-04 +1.73309836928E-03 -5.23857565406E-04 -6.66711141536E-01 +1.13444728207E-01
