# Hz S RI R 50
! CMT, C1220, 16058040, 17.2.0/1
! Date: 14/08/2018 12:47:44
! Data: Format (Calibration Info)
! Freq                      S11: Re/Im (F2)                       S21: Re/Im (F2)                       S12: Re/Im (F2)                       S22: Re/Im (F2)            
1.00000000000E+09 -6.51630126066E-01 +7.13462211813E-01 -1.22606040630E-05 +2.07988550885E-05 -2.90067240303E-05 +4.54426149775E-06 -7.53843956065E-01 +6.21466326768E-01
1.00500000000E+09 -6.44674443067E-01 +7.18238757366E-01 +5.59798420594E-06 +1.71724501582E-05 -6.95153229676E-06 -2.38515100760E-06 -7.50209653513E-01 +6.25663715072E-01
1.01000000000E+09 -6.38825300648E-01 +7.22864558335E-01 -6.74779897569E-05 -5.23832124977E-05 -5.88888996728E-05 +6.62917092703E-06 -7.46765087027E-01 +6.29167072671E-01
1.01500000000E+09 -6.34365814890E-01 +7.26732311722E-01 +1.66520557809E-05 -5.69022930894E-05 -1.97134299595E-05 +2.57508978723E-05 -7.43552928045E-01 +6.32822725999E-01
1.02000000000E+09 -6.31288478701E-01 +7.30245759494E-01 +2.36938764268E-05 -4.27068630976E-06 -8.21022924712E-06 +5.92487934858E-05 -7.40330812590E-01 +6.36214207469E-01
1.02500000000E+09 -6.29167974407E-01 +7.33026007257E-01 -3.41970296063E-05 +2.13486647412E-05 -3.61210578326E-06 -1.97009934610E-05 -7.37532844240E-01 +6.39959124190E-01
1.03000000000E+09 -6.27660524155E-01 +7.35731204174E-01 -1.60727815348E-05 +2.45551705025E-05 -2.06284637802E-06 +2.34089041241E-05 -7.34090243627E-01 +6.43768068564E-01
1.03500000000E+09 -6.25575652500E-01 +7.38099423416E-01 -1.65220168927E-05 -1.62639291124E-05 -4.02472081477E-05 +1.77931510061E-05 -7.30180845077E-01 +6.47624123731E-01
1.04000000000E+09 -6.22261386663E-01 +7.41262182484E-01 -7.39971687863E-06 +7.91147777465E-06 -5.16173473774E-06 +6.18018036501E-05 -7.26642426377E-01 +6.51311305650E-01
1.04500000000E+09 -6.17366452176E-01 +7.44597981436E-01 -6.28725493035E-06 -9.47639860927E-07 -2.45613992929E-05 +2.64579769580E-05 -7.22913261114E-01 +6.54906094060E-01
1.05000000000E+09 -6.10803454087E-01 +7.48758674476E-01 +4.51901343151E-05 -1.34484020842E-05 -3.21667939091E-05 +3.74250448767E-05 -7.19597316945E-01 +6.58275807484E-01
1.05500000000E+09 -6.02868742348E-01 +7.53411624110E-01 -2.14251117225E-05 +3.51311610186E-05 -1.10955581620E-05 +5.97274045363E-05 -7.16254352901E-01 +6.61812155668E-01
1.06000000000E+09 -5.94473657842E-01 +7.58456345311E-01 +1.88493824889E-05 +4.02983456277E-05 +2.62915533514E-06 +2.53890866218E-05 -7.12937716138E-01 +6.65761607667E-01
1.06500000000E+09 -5.86061077411E-01 +7.63508032537E-01 -2.78287419492E-05 +3.42863920676E-05 +3.75431326116E-05 +4.54348478690E-05 -7.09204654486E-01 +6.69544937270E-01
1.07000000000E+09 -5.78696592406E-01 +7.67734820186E-01 +4.74408712412E-05 +8.17600921702E-06 -6.39266146312E-06 +3.76356479269E-05 -7.05068142240E-01 +6.73400625931E-01
1.07500000000E+09 -5.72977669823E-01 +7.71886955672E-01 +3.48110920813E-05 +1.96877555345E-05 -2.09701941106E-05 +1.22039633975E-06 -7.00687302591E-01 +6.77059050486E-01
1.08000000000E+09 -5.68779496674E-01 +7.75014316944E-01 +4.94414474635E-05 +1.22061205208E-05 +2.36319343296E-05 +5.72841056713E-05 -6.96924504227E-01 +6.80763193822E-01
1.08500000000E+09 -5.66029623854E-01 +7.77680190296E-01 +4.99683137130E-05 +3.27847044708E-06 -2.26590544998E-05 +2.55714838513E-05 -6.93167604403E-01 +6.84188571848E-01
1.09000000000E+09 -5.63934763083E-01 +7.79656856013E-01 -2.17641863860E-05 +3.30866303243E-05 +3.31174935672E-05 +8.07786698373E-06 -6.89485045059E-01 +6.88164372969E-01
1.09500000000E+09 -5.62480274357E-01 +7.81471226979E-01 +3.97312826743E-05 -2.13143816795E-06 +3.23521727017E-05 +1.31020955846E-05 -6.85618890167E-01 +6.91987710201E-01
1.10000000000E+09 -5.59771326922E-01 +7.83759356682E-01 -4.87257784763E-06 +3.35495627859E-05 +4.82450446743E-05 +4.26962916079E-05 -6.81810160878E-01 +6.95719447177E-01
1.10500000000E+09 -5.56083561908E-01 +7.86248275573E-01 +1.11075565703E-05 +5.29074668084E-05 +3.40042722050E-05 +6.57948976827E-05 -6.77372059641E-01 +6.99337383949E-01
1.11000000000E+09 -5.50541044444E-01 +7.89434281419E-01 +6.92639531541E-05 +2.38509713532E-05 +3.87802296578E-05 +4.58030617726E-05 -6.73349378062E-01 +7.02581104620E-01
1.11500000000E+09 -5.43881226343E-01 +7.93260181158E-01 +6.09905356234E-05 +3.83047390385E-05 +8.18669904439E-05 +4.91499656345E-05 -6.69463523436E-01 +7.05919021034E-01
1.12000000000E+09 -5.36178653945E-01 +7.97179090723E-01 +3.50086100447E-05 -1.67022993985E-05 +4.59235254304E-05 +4.19456249491E-05 -6.65503939224E-01 +7.09538434082E-01
1.12500000000E+09 -5.28392847483E-01 +8.01120397271E-01 +9.00427914864E-05 +6.84431269662E-05 +2.15896850116E-05 +1.06513798282E-05 -6.61329288920E-01 +7.13574832272E-01
1.13000000000E+09 -5.20870371607E-01 +8.04874830519E-01 +5.47609895144E-05 +1.58720547707E-05 +2.61813752874E-05 +9.06292396104E-06 -6.56717593083E-01 +7.17420130022E-01
1.13500000000E+09 -5.14384178926E-01 +8.07821842539E-01 +7.88573499457E-05 +2.24194166195E-05 +6.07479034888E-05 +2.77747284398E-05 -6.52166417368E-01 +7.21319465927E-01
1.14000000000E+09 -5.08989718755E-01 +8.10343085353E-01 +4.52025924375E-05 +1.70060234275E-05 +7.46774536849E-05 +8.24887212004E-05 -6.47404514016E-01 +7.24835615985E-01
1.14500000000E+09 -5.04658153657E-01 +8.12272147832E-01 +8.57138746797E-05 +1.74187029115E-05 +9.39303586112E-05 +1.35742893111E-06 -6.42737669971E-01 +7.28245750369E-01
1.15000000000E+09 -5.01147160293E-01 +8.13920458764E-01 +5.20892397511E-05 -1.42081465658E-05 +1.22702998382E-04 +3.54307986568E-05 -6.38208422566E-01 +7.32181039609E-01
1.15500000000E+09 -4.97533376762E-01 +8.15850701610E-01 +9.26233239194E-05 +1.14289489993E-05 +3.21479457717E-05 +1.68716276133E-05 -6.33441930730E-01 +7.35772966171E-01
1.16000000000E+09 -4.93153737257E-01 +8.17955953750E-01 +7.78705040387E-05 -3.88498271870E-05 +1.30964659991E-04 -2.95212769159E-05 -6.28798373567E-01 +7.39752620113E-01
1.16500000000E+09 -4.87836079635E-01 +8.20867537654E-01 +8.31778136196E-05 -1.26439307374E-05 +7.64563722002E-05 -1.05331418389E-05 -6.23739534421E-01 +7.43384059618E-01
1.17000000000E+09 -4.81520373608E-01 +8.23977018031E-01 +1.46426530838E-04 -3.02457592776E-05 +1.18314003550E-04 -1.77743184374E-05 -6.18178085109E-01 +7.46671789530E-01
1.17500000000E+09 -4.74149671777E-01 +8.27559716370E-01 +1.24910437670E-04 -8.66083307248E-06 +1.05817231445E-04 -2.46851918459E-05 -6.12640434383E-01 +7.49892677579E-01
1.18000000000E+09 -4.66439793740E-01 +8.31356913288E-01 +1.20004763827E-04 -8.26800614195E-05 +1.96058473106E-04 -3.09607849165E-05 -6.07334315235E-01 +7.52992237426E-01
1.18500000000E+09 -4.58692479665E-01 +8.34715417007E-01 +1.95340964168E-04 -9.48716592465E-05 +1.75119815751E-04 -6.10729379932E-05 -6.01558379324E-01 +7.55915864120E-01
1.19000000000E+09 -4.51148423066E-01 +8.37446755006E-01 +1.13315862155E-04 -1.06205856997E-04 +1.04693075340E-04 -1.42144247485E-04 -5.95452992471E-01 +7.58543884205E-01
1.19500000000E+09 -4.44742570609E-01 +8.39635819751E-01 +1.34844203992E-04 -1.72399177726E-04 +1.80915421113E-04 -1.63928971446E-04 -5.89607059219E-01 +7.59763760100E-01
1.20000000000E+09 -4.39365257673E-01 +8.40551647814E-01 +6.88284208557E-05 -2.50817631713E-04 +5.22529798327E-06 -2.42581670895E-04 -5.85119585281E-01 +7.59925001009E-01
1.20500000000E+09 -4.34527207632E-01 +8.42094749442E-01 -5.56613962080E-05 -1.88847292245E-04 -1.35523980794E-05 -2.19779736423E-04 -5.82723266113E-01 +7.60935290496E-01
1.21000000000E+09 -4.29852900388E-01 +8.43517641168E-01 -1.12835567590E-05 -1.10101557744E-04 -1.51649148468E-05 -1.02490244739E-04 -5.80683103478E-01 +7.64168405511E-01
1.21500000000E+09 -4.24153277835E-01 +8.45638618199E-01 +3.41953424378E-06 -1.08905595959E-04 +9.01397595841E-07 -7.03395139868E-05 -5.78166356644E-01 +7.68642813614E-01
1.22000000000E+09 -4.17132811008E-01 +8.48075393949E-01 -2.15131616870E-06 -9.70287850940E-05 +4.70510393124E-05 -1.09567611798E-04 -5.73922337231E-01 +7.73911204132E-01
1.22500000000E+09 -4.08946515235E-01 +8.51121914104E-01 +1.76476343779E-05 -1.21189761548E-04 +9.48502858265E-06 -1.34642677393E-04 -5.68828064416E-01 +7.79026459362E-01
1.23000000000E+09 -3.99643605700E-01 +8.54596214096E-01 -6.11956575534E-06 -1.67662039657E-04 -6.35247371972E-05 -1.56068649862E-04 -5.63079003982E-01 +7.83749797376E-01
1.23500000000E+09 -3.90305180578E-01 +8.58370949990E-01 +2.18117903110E-05 -1.55715817419E-04 -1.37043857425E-06 -1.45297335481E-04 -5.57205444512E-01 +7.88003926793E-01
1.24000000000E+09 -3.80632260652E-01 +8.62301526389E-01 -1.20856143076E-05 -2.20493939362E-04 +4.31884366916E-06 -2.07738591700E-04 -5.51207389725E-01 +7.91861017607E-01
1.24500000000E+09 -3.71898746399E-01 +8.66205534535E-01 -3.56598577416E-05 -2.61531356594E-04 -7.58767055022E-05 -2.39020360180E-04 -5.45099017916E-01 +7.95717493790E-01
1.25000000000E+09 -3.63846142602E-01 +8.69323790176E-01 -7.45318392639E-05 -2.21801854729E-04 -8.41051571214E-05 -1.93911527470E-04 -5.38841303663E-01 +7.99890893190E-01
1.25500000000E+09 -3.56845027703E-01 +8.71416326481E-01 -5.87344692579E-05 -2.23811250356E-04 -9.33878447532E-05 -1.91288072522E-04 -5.31975322626E-01 +8.03996941182E-01
1.26000000000E+09 -3.50730069266E-01 +8.73061916082E-01 -1.08078514557E-04 -1.96530758078E-04 -1.62917292666E-04 -2.48260264750E-04 -5.25412815206E-01 +8.08125406750E-01
1.26500000000E+09 -3.44969645364E-01 +8.74025984349E-01 -1.11250598626E-04 -2.39014970450E-04 -1.44406727569E-04 -2.22466605665E-04 -5.18644160092E-01 +8.12131796974E-01
1.27000000000E+09 -3.38443518401E-01 +8.75153983644E-01 -2.13711501634E-04 -2.69814475362E-04 -2.30500201737E-04 -2.05043917450E-04 -5.11606717150E-01 +8.15849431940E-01
1.27500000000E+09 -3.30922521570E-01 +8.76558917288E-01 -2.36303288618E-04 -2.47012612807E-04 -2.51562843702E-04 -2.46886953916E-04 -5.04397482746E-01 +8.19417185242E-01
1.28000000000E+09 -3.21687275549E-01 +8.78495020084E-01 -2.86294605955E-04 -1.69961030308E-04 -2.63476526005E-04 -2.12399298595E-04 -4.97429162756E-01 +8.23136178605E-01
1.28500000000E+09 -3.10522483537E-01 +8.80966466164E-01 -2.76770075094E-04 -1.93319209921E-04 -3.76683392450E-04 -2.09570491228E-04 -4.90020337817E-01 +8.26921979345E-01
1.29000000000E+09 -2.98682217540E-01 +8.83920646440E-01 -3.19784479651E-04 -1.69102816401E-04 -3.85231001525E-04 -1.62134195957E-04 -4.82389822168E-01 +8.30712378492E-01
1.29500000000E+09 -2.86383461445E-01 +8.87255439640E-01 -4.06310037814E-04 -1.84787667269E-04 -4.32696956045E-04 -1.09006589123E-04 -4.74510145333E-01 +8.34293259034E-01
1.30000000000E+09 -2.74178439437E-01 +8.90680572754E-01 -4.58303303873E-04 -1.20267057764E-04 -4.75721290014E-04 -3.74503010639E-05 -4.66821395187E-01 +8.37866094941E-01
1.30500000000E+09 -2.63408886713E-01 +8.93728432895E-01 -5.06940342350E-04 -1.00943694113E-04 -4.80572728870E-04 -1.40680392775E-06 -4.58703247942E-01 +8.41295328061E-01
1.31000000000E+09 -2.54125172041E-01 +8.96031070916E-01 -5.69831221375E-04 +3.15072889160E-05 -5.22797954558E-04 +1.56287862749E-05 -4.50457324557E-01 +8.44852353379E-01
1.31500000000E+09 -2.46714248540E-01 +8.97466321537E-01 -5.45644858340E-04 +1.19361349383E-04 -5.16901098081E-04 +8.01627323947E-05 -4.41604756683E-01 +8.48369045052E-01
1.32000000000E+09 -2.40642618193E-01 +8.98343139139E-01 -5.37685217674E-04 +1.37309780449E-04 -5.41739790444E-04 +1.26145521560E-04 -4.32715934710E-01 +8.51702796362E-01
1.32500000000E+09 -2.34850556057E-01 +8.98485378507E-01 -5.85915487607E-04 +2.04971978894E-04 -6.16930359323E-04 +1.93162826642E-04 -4.23243313763E-01 +8.54961083929E-01
1.33000000000E+09 -2.28002426629E-01 +8.98597968489E-01 -6.02904053410E-04 +2.24788340043E-04 -6.15218155164E-04 +3.32551041766E-04 -4.13879670747E-01 +8.58186684911E-01
1.33500000000E+09 -2.19198652116E-01 +8.98736392178E-01 -6.59734031311E-04 +3.53970748772E-04 -6.30480302233E-04 +4.03097472039E-04 -4.04164784923E-01 +8.61495515854E-01
1.34000000000E+09 -2.08015750015E-01 +8.99060915424E-01 -5.81215545089E-04 +4.90851144267E-04 -5.54831640551E-04 +4.77162755786E-04 -3.94030723713E-01 +8.64806361387E-01
1.34500000000E+09 -1.94274276969E-01 +8.99397809424E-01 -5.64500775746E-04 +6.49477782491E-04 -5.53837080930E-04 +5.58845145667E-04 -3.83145831059E-01 +8.68106324944E-01
1.35000000000E+09 -1.78493144201E-01 +9.00050652439E-01 -4.96911462280E-04 +6.72127331522E-04 -4.77707948892E-04 +7.03340981725E-04 -3.71961631583E-01 +8.71249997522E-01
1.35500000000E+09 -1.61733750518E-01 +9.00909099656E-01 -4.45946001902E-04 +7.24220577229E-04 -4.31144743910E-04 +7.29364750089E-04 -3.60437372656E-01 +8.74193125268E-01
1.36000000000E+09 -1.44791283235E-01 +9.01464629476E-01 -3.93222686750E-04 +8.37231714857E-04 -3.47480546226E-04 +8.24246037058E-04 -3.48568945459E-01 +8.76993342604E-01
1.36500000000E+09 -1.28729449012E-01 +9.01797248848E-01 -3.19213962791E-04 +8.95198366129E-04 -3.38863166073E-04 +8.64187074889E-04 -3.36551518675E-01 +8.79506187424E-01
1.37000000000E+09 -1.14451420113E-01 +9.01540166202E-01 -2.85022950740E-04 +1.04885006503E-03 -3.18595303818E-04 +1.02104519714E-03 -3.23707950762E-01 +8.81978600804E-01
1.37500000000E+09 -1.02058931528E-01 +9.01082118553E-01 -9.59079532060E-05 +1.20303913954E-03 -2.27432890599E-04 +1.10333089780E-03 -3.09745098477E-01 +8.84326351739E-01
1.38000000000E+09 -9.06215761277E-02 +9.00043265801E-01 +2.35414643564E-05 +1.20293155029E-03 -1.57357149797E-04 +1.21677356073E-03 -2.95151544489E-01 +8.86788646682E-01
1.38500000000E+09 -7.92860517453E-02 +8.98535974933E-01 +9.55323106096E-05 +1.26738210449E-03 +4.19551602383E-05 +1.44172741209E-03 -2.79692136588E-01 +8.88824064966E-01
1.39000000000E+09 -6.67800221454E-02 +8.96398125724E-01 +2.22747859561E-04 +1.34514479702E-03 +2.62913947189E-04 +1.60131704019E-03 -2.63788285885E-01 +8.90373859251E-01
1.39500000000E+09 -5.23279896867E-02 +8.93451333353E-01 +3.92037247287E-04 +1.42283954329E-03 +5.91350402763E-04 +1.59401672035E-03 -2.47120933436E-01 +8.91184010530E-01
1.40000000000E+09 -3.53964207928E-02 +8.89706615810E-01 +5.22793873814E-04 +1.54144065323E-03 +7.08237283172E-04 +1.51399906751E-03 -2.29693453266E-01 +8.91729000480E-01
1.40500000000E+09 -1.61274183706E-02 +8.85320601428E-01 +8.72004728771E-04 +1.68971077380E-03 +9.26488835751E-04 +1.61951334862E-03 -2.11073467565E-01 +8.91693321646E-01
1.41000000000E+09 +5.14304754315E-03 +8.80005161424E-01 +1.25704254618E-03 +1.65134525327E-03 +1.21806073195E-03 +1.63401525722E-03 -1.90990224745E-01 +8.91154880021E-01
1.41500000000E+09 +2.76312667791E-02 +8.73996603038E-01 +1.61477473862E-03 +1.62718758936E-03 +1.56222315973E-03 +1.69608522985E-03 -1.69314490588E-01 +8.89822647885E-01
1.42000000000E+09 +5.03068364493E-02 +8.66950202435E-01 +1.88322016955E-03 +1.40750829769E-03 +2.09908496012E-03 +1.60812473516E-03 -1.46090642428E-01 +8.87331420497E-01
1.42500000000E+09 +7.21970824594E-02 +8.59040213038E-01 +2.14579648511E-03 +1.31888595857E-03 +2.45951206725E-03 +1.38096027062E-03 -1.22474416034E-01 +8.83575880168E-01
1.43000000000E+09 +9.34516007418E-02 +8.49749675285E-01 +2.58258518442E-03 +1.31236640241E-03 +2.90461810190E-03 +1.13596920655E-03 -9.75656222064E-02 +8.79020325139E-01
1.43500000000E+09 +1.14220906764E-01 +8.39156173217E-01 +3.24267970879E-03 +1.00851805824E-03 +3.43449186601E-03 +7.29819341232E-04 -7.10687268598E-02 +8.72325643996E-01
1.44000000000E+09 +1.35396413393E-01 +8.26950873097E-01 +3.71745217316E-03 +2.97017752608E-04 +3.79941369126E-03 +8.18774089309E-05 -4.28244488182E-02 +8.63770205950E-01
1.44500000000E+09 +1.58333156030E-01 +8.11756365692E-01 +3.94559378379E-03 -3.65551850400E-04 +3.98233580348E-03 -5.86869604780E-04 -1.24357465510E-02 +8.52247910742E-01
1.45000000000E+09 +1.82932194237E-01 +7.93227417145E-01 +3.99212524482E-03 -9.99244966366E-04 +3.99914530379E-03 -1.31129981137E-03 +1.94549206727E-02 +8.37751309399E-01
1.45500000000E+09 +2.09897375690E-01 +7.70998504060E-01 +4.15866381185E-03 -1.38621545227E-03 +4.06378459565E-03 -1.78541949548E-03 +5.28565617686E-02 +8.20664412940E-01
1.46000000000E+09 +2.39124112011E-01 +7.44675027006E-01 +4.52775645431E-03 -2.12588608437E-03 +4.14806316745E-03 -2.47207317043E-03 +8.79543901056E-02 +7.98603233872E-01
1.46500000000E+09 +2.69953736076E-01 +7.13814268851E-01 +4.95911128778E-03 -3.19024534826E-03 +4.36553077058E-03 -3.23454647388E-03 +1.24021259723E-01 +7.71956800249E-01
1.47000000000E+09 +3.01164431884E-01 +6.78052048392E-01 +4.90038943483E-03 -4.94933990023E-03 +4.48934509830E-03 -4.57126866649E-03 +1.61312710638E-01 +7.37924693949E-01
1.47500000000E+09 +3.31445889015E-01 +6.37157409151E-01 +3.90054440271E-03 -6.62434556264E-03 +3.99792036617E-03 -6.24204105291E-03 +1.97897249994E-01 +6.96750708998E-01
1.48000000000E+09 +3.59268483402E-01 +5.90046395074E-01 +2.72165718333E-03 -7.82465610507E-03 +2.95660414878E-03 -7.78627824690E-03 +2.34529206063E-01 +6.47197672069E-01
1.48500000000E+09 +3.81784949991E-01 +5.36131886481E-01 +1.40926834747E-03 -9.10787041380E-03 +1.26850301253E-03 -9.40496730568E-03 +2.67994796415E-01 +5.88555459189E-01
1.49000000000E+09 +3.99109428907E-01 +4.75169862365E-01 -7.03708387433E-04 -1.02955315034E-02 -1.18308914132E-03 -1.02779711001E-02 +2.96559861233E-01 +5.18983863406E-01
1.49500000000E+09 +4.07996988389E-01 +4.05871489310E-01 -3.51766979397E-03 -1.07893300433E-02 -3.79659363855E-03 -1.01861309038E-02 +3.14416863038E-01 +4.39490219479E-01
1.50000000000E+09 +4.07037131887E-01 +3.28077693596E-01 -6.57362745834E-03 -1.08204915805E-02 -6.20099253118E-03 -1.01365881194E-02 +3.19663698656E-01 +3.51178485966E-01
1.50500000000E+09 +3.92879609933E-01 +2.42410149185E-01 -1.01725252075E-02 -9.25731580386E-03 -9.47881127403E-03 -9.18854971967E-03 +3.09202977687E-01 +2.54923245390E-01
1.51000000000E+09 +3.62980864448E-01 +1.51878088875E-01 -1.25716896164E-02 -6.02639088434E-03 -1.21463620271E-02 -6.43109514849E-03 +2.77686937827E-01 +1.53111051233E-01
1.51500000000E+09 +3.13246253616E-01 +6.11050106730E-02 -1.41705679081E-02 -3.84811875017E-03 -1.41350147635E-02 -4.23734884547E-03 +2.21060104125E-01 +5.70788369685E-02
1.52000000000E+09 +2.43760902003E-01 -2.00451101876E-02 -1.67274027977E-02 +6.11807610772E-05 -1.68821136338E-02 -2.06654110614E-04 +1.45816921769E-01 -2.74262458392E-02
1.52500000000E+09 +1.58075085488E-01 -8.70679828728E-02 -1.62793263426E-02 +6.79635925100E-03 -1.65013581153E-02 +6.66637608517E-03 +5.24154085409E-02 -9.57548668048E-02
1.53000000000E+09 +5.93265735213E-02 -1.33671510392E-01 -1.22406711316E-02 +1.05238537853E-02 -1.23536785482E-02 +1.05320774094E-02 -5.46204590955E-02 -1.40210651913E-01
1.53500000000E+09 -4.76514365530E-02 -1.56663260942E-01 -8.93644062596E-03 +1.31398321502E-02 -9.00302035061E-03 +1.31316919785E-02 -1.64615497609E-01 -1.60287267962E-01
1.54000000000E+09 -1.56352173778E-01 -1.53578509299E-01 -4.80148985119E-03 +1.41725525806E-02 -4.87254361588E-03 +1.40306757520E-02 -2.72110933726E-01 -1.57637732999E-01
1.54500000000E+09 -2.57682434762E-01 -1.28183685334E-01 -7.97729095282E-04 +1.43824894479E-02 -1.12080520810E-03 +1.41619841132E-02 -3.70028890802E-01 -1.35943623057E-01
1.55000000000E+09 -3.49196419403E-01 -8.63631331320E-02 +2.40390682463E-03 +1.33400462315E-02 +1.82714529420E-03 +1.34267294029E-02 -4.55731669763E-01 -9.95271392422E-02
1.55500000000E+09 -4.27115449497E-01 -3.17868816737E-02 +6.03109480251E-03 +1.16061369996E-02 +5.55587700667E-03 +1.21971122575E-02 -5.26633736891E-01 -5.28984368726E-02
1.56000000000E+09 -4.89463088800E-01 +2.68064103678E-02 +7.85223468620E-03 +8.09337735877E-03 +7.90988232437E-03 +8.79650703951E-03 -5.84624522438E-01 -4.36105529899E-04
1.56500000000E+09 -5.38793595120E-01 +8.67779374491E-02 +7.97193272749E-03 +5.91571253945E-03 +8.30626933616E-03 +6.46738512500E-03 -6.28825044354E-01 +5.53608291063E-02
1.57000000000E+09 -5.76476578071E-01 +1.44754365398E-01 +8.29009171214E-03 +3.85579154866E-03 +8.84585343253E-03 +4.12215833134E-03 -6.62487999973E-01 +1.08890672382E-01
