# Hz S RI R 50
! CMT, C1220, 16058040, 17.2.0/1
! Date: 14/08/2018 12:28:48
! Data: Format (Calibration Info)
! Freq                      S11: Re/Im (F2)                       S21: Re/Im (F2)                       S12: Re/Im (F2)                       S22: Re/Im (F2)            
1.00000000000E+09 -6.27206166774E-01 +7.08799906091E-01 +3.04136142345E-05 -4.88852293936E-05 -2.42751409565E-05 -7.68388694193E-06 -7.52763386719E-01 +6.24417934641E-01
1.00500000000E+09 -6.20288150828E-01 +7.13830606463E-01 -2.87637533011E-05 -3.22496337628E-05 -2.03106157737E-05 +4.86905370820E-05 -7.49397393625E-01 +6.28488752563E-01
1.01000000000E+09 -6.14438032239E-01 +7.18266716582E-01 +6.17105699631E-06 +1.06289736085E-05 -1.22932717725E-05 +2.30396243693E-05 -7.45640316833E-01 +6.32179608789E-01
1.01500000000E+09 -6.10450290125E-01 +7.22067196708E-01 -3.88529322385E-05 +2.57431795229E-05 +2.79964112999E-06 +4.51323272837E-05 -7.42299448442E-01 +6.35908387975E-01
1.02000000000E+09 -6.07821210365E-01 +7.25154640587E-01 -2.71107726465E-05 +1.60906149951E-05 -1.80330211834E-05 -3.37482681017E-05 -7.39148886668E-01 +6.39252631083E-01
1.02500000000E+09 -6.06131913732E-01 +7.27704710263E-01 -3.63580933201E-05 +5.95515632661E-05 +1.05297680157E-05 +1.46080085167E-05 -7.36225887962E-01 +6.42951901566E-01
1.03000000000E+09 -6.04848672595E-01 +7.29831173623E-01 -1.75752714706E-05 -3.59313488092E-06 -1.83889171877E-05 +9.89641245334E-06 -7.32959384020E-01 +6.46787052901E-01
1.03500000000E+09 -6.02569277571E-01 +7.32152425123E-01 +1.03339924830E-05 +1.58870454692E-05 -2.63953012894E-06 +5.00777080819E-06 -7.29014908622E-01 +6.50765026678E-01
1.04000000000E+09 -5.98837968480E-01 +7.34761081924E-01 +9.74639126907E-06 +2.18688967362E-05 -3.40318986886E-05 -3.75232254085E-06 -7.25238059149E-01 +6.54378710778E-01
1.04500000000E+09 -5.93465787609E-01 +7.37975445673E-01 -1.89432323456E-05 +2.94738196198E-05 -7.03405317538E-06 +2.22502159350E-06 -7.21641123839E-01 +6.57881484889E-01
1.05000000000E+09 -5.86243745567E-01 +7.42215222890E-01 -5.68127340305E-05 +5.06012782679E-05 -3.79498289413E-05 +3.19718790812E-05 -7.18257375663E-01 +6.61319220992E-01
1.05500000000E+09 -5.77683910171E-01 +7.46964887929E-01 -2.43526385727E-05 +5.64583928444E-05 -3.00201557976E-05 +2.47055493975E-05 -7.15082288507E-01 +6.64842854432E-01
1.06000000000E+09 -5.68462797871E-01 +7.52240285002E-01 -8.51334154479E-06 +3.62974825105E-05 +3.34109280600E-05 +4.11962165401E-05 -7.11733152154E-01 +6.68741089848E-01
1.06500000000E+09 -5.59500330640E-01 +7.57539937986E-01 +6.55389905957E-07 +1.52320524698E-05 +1.84679557727E-05 +2.73753516019E-05 -7.07848007487E-01 +6.72541877883E-01
1.07000000000E+09 -5.51801059812E-01 +7.62148923744E-01 -2.50060179978E-07 +2.64815235442E-05 -1.10147311894E-05 -1.99338668761E-06 -7.03773784678E-01 +6.76317539972E-01
1.07500000000E+09 -5.45504339700E-01 +7.66179885181E-01 -4.32187205890E-05 +4.69099417865E-05 +4.58599972701E-06 +6.78218230019E-05 -6.99556836282E-01 +6.79955429741E-01
1.08000000000E+09 -5.41088067858E-01 +7.69480521319E-01 +6.21181148467E-06 +5.45880215839E-05 -7.38804547469E-06 +5.06381327331E-05 -6.95651595570E-01 +6.83813658148E-01
1.08500000000E+09 -5.38304388901E-01 +7.71817492085E-01 +1.62105374986E-05 +3.92102196441E-05 +2.67245119724E-05 +2.82441645789E-05 -6.91643094015E-01 +6.87275770300E-01
1.09000000000E+09 -5.36182810077E-01 +7.73847595953E-01 +1.94066977289E-05 +3.44457414042E-05 +3.02884371911E-05 +2.51523621311E-05 -6.88078118177E-01 +6.91118483421E-01
1.09500000000E+09 -5.34439280838E-01 +7.75502801919E-01 +4.07275054988E-05 -1.38458538577E-05 +1.67790361758E-05 +1.49211029756E-05 -6.84380782806E-01 +6.94947986729E-01
1.10000000000E+09 -5.31656443992E-01 +7.77328765302E-01 +4.73063069761E-05 +4.14367160437E-05 +1.93914124762E-07 +2.24371727431E-05 -6.80269115776E-01 +6.98826531953E-01
1.10500000000E+09 -5.27787970690E-01 +7.79807827328E-01 +4.69173919917E-05 +4.17726092958E-05 +1.03475197448E-05 -3.04969082062E-05 -6.76155978489E-01 +7.02309337319E-01
1.11000000000E+09 -5.22374537264E-01 +7.82920594399E-01 +2.89410252856E-05 +6.68634571329E-05 +5.80427763310E-05 +5.42229560585E-05 -6.71854262662E-01 +7.05666893922E-01
1.11500000000E+09 -5.15698076124E-01 +7.86549165120E-01 +3.26545339733E-05 +6.47697150075E-05 +2.04534504077E-05 +2.71317099885E-06 -6.67848487331E-01 +7.09090926121E-01
1.12000000000E+09 -5.08206179646E-01 +7.90427474394E-01 +2.52840900214E-05 +1.89314683678E-05 +6.82228350308E-05 +6.65728494729E-05 -6.63786812419E-01 +7.12658880303E-01
1.12500000000E+09 -5.00443557698E-01 +7.94618527368E-01 +2.64609101034E-05 +4.17159108485E-05 +7.56700599818E-05 -4.70337474466E-06 -6.59550727233E-01 +7.16661662573E-01
1.13000000000E+09 -4.93163243251E-01 +7.98130133859E-01 +2.91890977264E-05 +5.40232558284E-05 +5.23643801968E-05 +1.52691269294E-05 -6.55293363585E-01 +7.20472498010E-01
1.13500000000E+09 -4.86603639202E-01 +8.00924321273E-01 +4.78472032242E-05 +1.27680433216E-05 +5.29470373812E-05 +1.28472803433E-05 -6.50587761342E-01 +7.24274888842E-01
1.14000000000E+09 -4.81186785818E-01 +8.03253653655E-01 +5.10720450001E-05 +5.73949395741E-05 +6.49941458823E-05 +1.23721414858E-05 -6.45868844152E-01 +7.27886670663E-01
1.14500000000E+09 -4.76895863003E-01 +8.04781651785E-01 +2.89884385421E-05 +1.26685956181E-05 +2.04619031433E-05 +4.28217586430E-05 -6.41071943697E-01 +7.31276892323E-01
1.15000000000E+09 -4.72879301198E-01 +8.06199743099E-01 +3.42189834316E-05 +7.61772531753E-08 +1.44660540661E-05 +1.55794082128E-05 -6.36488859216E-01 +7.35003503529E-01
1.15500000000E+09 -4.68962502833E-01 +8.07753577355E-01 +5.11793997000E-05 -3.94589823681E-05 +8.34760251694E-05 +2.45368758298E-05 -6.31800318744E-01 +7.38864851299E-01
1.16000000000E+09 -4.64121243363E-01 +8.09551423794E-01 +5.27584638825E-05 -2.99257837823E-05 +4.35947440538E-05 +3.44893545181E-05 -6.26874033246E-01 +7.42706386957E-01
1.16500000000E+09 -4.58334646062E-01 +8.12134306577E-01 +8.24009359384E-05 -1.65401090070E-05 +6.61172328822E-05 -3.73452817234E-05 -6.21980819669E-01 +7.46356400742E-01
1.17000000000E+09 -4.51474546332E-01 +8.15336560777E-01 +2.43019409429E-05 -3.73817083180E-05 +1.35232727581E-05 +4.41163267161E-06 -6.16500439419E-01 +7.49590060049E-01
1.17500000000E+09 -4.43868171506E-01 +8.18544236510E-01 +5.49646953187E-05 +1.49105246241E-05 +7.18450701164E-05 -5.72037467880E-05 -6.10946837536E-01 +7.52848219240E-01
1.18000000000E+09 -4.36222101563E-01 +8.22227765323E-01 +7.64411660153E-05 -4.87160050977E-05 +1.09678218137E-04 -4.02043076233E-05 -6.05424533456E-01 +7.55880724761E-01
1.18500000000E+09 -4.28749817375E-01 +8.25574690830E-01 +6.30271461087E-05 -6.64618513544E-05 +1.01166704110E-04 -3.57660702996E-05 -5.99633138566E-01 +7.58894197662E-01
1.19000000000E+09 -4.21772135559E-01 +8.28106747899E-01 +9.62122182506E-05 -8.34867520377E-05 +8.55927060794E-05 -1.05520225534E-04 -5.93373574275E-01 +7.61393872725E-01
1.19500000000E+09 -4.15884865428E-01 +8.29927304052E-01 +5.29142387545E-05 -8.52872026802E-05 +6.81792604019E-05 -1.27492124026E-04 -5.87482641200E-01 +7.62687380918E-01
1.20000000000E+09 -4.10927857246E-01 +8.30576988131E-01 +2.50595606997E-05 -1.46160444879E-04 -1.67606274591E-05 -1.37858996730E-04 -5.83095831802E-01 +7.62914086066E-01
1.20500000000E+09 -4.06218575394E-01 +8.31680809678E-01 +1.89188122706E-05 -1.25326438443E-04 -3.45440557985E-05 -1.53602738802E-04 -5.80723486096E-01 +7.63800993981E-01
1.21000000000E+09 -4.01188010534E-01 +8.32511493622E-01 -4.47833644186E-05 -7.36062074349E-05 -5.32799909860E-05 -1.08389141966E-04 -5.78765180276E-01 +7.67017597673E-01
1.21500000000E+09 -3.94703666027E-01 +8.33862405633E-01 -9.51298113961E-05 -5.22331489769E-05 -2.40879529418E-05 -8.34316900693E-05 -5.75838679733E-01 +7.71700483525E-01
1.22000000000E+09 -3.86883296826E-01 +8.35626968369E-01 -7.17642384709E-05 -1.35858730245E-05 -4.25200800964E-05 -3.98812975762E-05 -5.71636187271E-01 +7.77062083802E-01
1.22500000000E+09 -3.77327970356E-01 +8.38184055496E-01 -1.34544769589E-05 -4.97010615522E-05 -2.19490973292E-05 -5.42344154077E-06 -5.66366892350E-01 +7.82165010264E-01
1.23000000000E+09 -3.67139409653E-01 +8.41274504626E-01 -5.19831419166E-05 -1.00204019707E-04 -3.38244760917E-05 -4.04848390984E-05 -5.60792565196E-01 +7.86856466293E-01
1.23500000000E+09 -3.56371566299E-01 +8.45141631330E-01 -3.03127596903E-05 -4.54013838999E-05 -8.88207960077E-05 -6.21126365230E-05 -5.54951590451E-01 +7.91206960878E-01
1.24000000000E+09 -3.46013221248E-01 +8.49022973784E-01 -6.63751515314E-05 -1.18854167297E-04 -2.60702095154E-05 -2.74520790953E-05 -5.49000909377E-01 +7.95069332190E-01
1.24500000000E+09 -3.36861627639E-01 +8.53060346981E-01 -6.22960929725E-05 -6.89911610911E-05 -5.36529939087E-05 -6.27455517824E-05 -5.42837312415E-01 +7.98819293336E-01
1.25000000000E+09 -3.28622404082E-01 +8.56334809624E-01 -6.02578853884E-05 -4.18576189158E-05 -1.66036282137E-05 -1.12143565767E-04 -5.36163335052E-01 +8.02974199899E-01
1.25500000000E+09 -3.21955825969E-01 +8.58479357465E-01 -6.77341730730E-05 -6.12904576264E-05 -7.50572720395E-05 -8.53525645319E-05 -5.29412234305E-01 +8.06885101131E-01
1.26000000000E+09 -3.16412690693E-01 +8.59841892052E-01 -6.09162408647E-05 -5.69684583928E-05 -8.34928596284E-05 -7.96378366944E-06 -5.22748449645E-01 +8.11196528063E-01
1.26500000000E+09 -3.11332376502E-01 +8.60465687579E-01 -9.82547550894E-05 -2.68397898764E-05 -7.49065741878E-05 +9.70614089990E-06 -5.15883057767E-01 +8.15108436664E-01
1.27000000000E+09 -3.05652419978E-01 +8.60971074361E-01 -5.10282146164E-05 -9.46586301579E-06 -4.49734528271E-05 -5.79651178748E-05 -5.09059670086E-01 +8.18736441885E-01
1.27500000000E+09 -2.98608111237E-01 +8.61503127060E-01 -7.66413536712E-05 -5.33213926849E-05 -1.06907657842E-04 -1.67092129962E-05 -5.01902950907E-01 +8.22295561141E-01
1.28000000000E+09 -2.89713924604E-01 +8.62696711532E-01 -6.32623969724E-05 -2.81887022080E-05 -4.39107644152E-05 -6.01110906964E-06 -4.94839294269E-01 +8.25923521161E-01
1.28500000000E+09 -2.78763886732E-01 +8.64418406563E-01 -6.64334921476E-05 -1.96147992906E-05 -6.94893211064E-05 -5.23693962068E-05 -4.87194984261E-01 +8.29635777602E-01
1.29000000000E+09 -2.66722216999E-01 +8.66817398427E-01 -6.30190678551E-05 -5.31248258687E-05 -4.27764737975E-05 -6.81026179129E-06 -4.79672434187E-01 +8.33520469351E-01
1.29500000000E+09 -2.54360339382E-01 +8.69882339324E-01 -9.22756804741E-05 -2.83181004930E-05 -5.36219261516E-05 -1.45643078720E-05 -4.71741478130E-01 +8.36995677590E-01
1.30000000000E+09 -2.41934309851E-01 +8.73493158670E-01 -9.82774258085E-05 -3.60977443666E-05 -7.95820588115E-05 +1.91632192921E-05 -4.63842803846E-01 +8.40562653382E-01
1.30500000000E+09 -2.30614052613E-01 +8.76623271650E-01 -1.15420434511E-04 -2.24967423982E-05 -1.08375808284E-04 +8.33829283601E-05 -4.55763800116E-01 +8.44069784972E-01
1.31000000000E+09 -2.20904338750E-01 +8.78854917194E-01 -8.63943671965E-05 +2.60214614452E-05 -8.76783544378E-05 +2.23259581061E-05 -4.47501144302E-01 +8.47316653872E-01
1.31500000000E+09 -2.13346487774E-01 +8.80057853079E-01 -1.09753670660E-04 +1.75081125052E-05 -8.09834732755E-05 +3.73813387439E-05 -4.38724066696E-01 +8.50810994154E-01
1.32000000000E+09 -2.07169854721E-01 +8.80234654343E-01 -1.53706990916E-04 +4.61179329836E-05 -1.19500261250E-04 -4.05033433040E-05 -4.29659799482E-01 +8.54247864461E-01
1.32500000000E+09 -2.01423159604E-01 +8.79545437406E-01 -1.03500419554E-04 -4.13524479457E-06 -1.19851656908E-04 +4.38838955075E-05 -4.20118748513E-01 +8.57559953287E-01
1.33000000000E+09 -1.94681591444E-01 +8.78708080413E-01 -1.79138072611E-04 +2.73135487566E-05 -1.53541626123E-04 +3.57120899093E-05 -4.10500316668E-01 +8.60666448816E-01
1.33500000000E+09 -1.86219702168E-01 +8.77519559981E-01 -2.21701607505E-04 -7.42573047891E-06 -1.71183518501E-04 +7.56680354473E-05 -4.00853424795E-01 +8.63927009368E-01
1.34000000000E+09 -1.75583999555E-01 +8.76705853053E-01 -2.36474719100E-04 +1.42306179949E-04 -1.92072236447E-04 +1.53123353018E-04 -3.90626087240E-01 +8.67204676007E-01
1.34500000000E+09 -1.62272388465E-01 +8.76246686277E-01 -1.75057452052E-04 +1.67266822414E-04 -1.72144422198E-04 +1.48485598741E-04 -3.79728773860E-01 +8.70411171912E-01
1.35000000000E+09 -1.47346839227E-01 +8.76327884711E-01 -1.60729548972E-04 +1.78333720942E-04 -1.80443317796E-04 +1.72142103550E-04 -3.68372475231E-01 +8.73530360220E-01
1.35500000000E+09 -1.31114761199E-01 +8.77224162095E-01 -1.25391052376E-04 +1.80752835255E-04 -1.66460088678E-04 +2.05240096435E-04 -3.56691095039E-01 +8.76408754091E-01
1.36000000000E+09 -1.14682953729E-01 +8.78118602312E-01 -1.55646243728E-04 +1.93249769533E-04 -1.36651363130E-04 +2.16440358052E-04 -3.44661699148E-01 +8.79126195785E-01
1.36500000000E+09 -9.92660864140E-02 +8.78862461742E-01 -1.42041756307E-04 +2.89430600413E-04 -1.14043412531E-04 +2.88183552363E-04 -3.32400724282E-01 +8.81483520787E-01
1.37000000000E+09 -8.54483221682E-02 +8.78963525559E-01 -1.05969276896E-04 +2.90409435692E-04 -1.05496517318E-04 +2.89390826734E-04 -3.19632353187E-01 +8.83918548476E-01
1.37500000000E+09 -7.33963819288E-02 +8.78329143318E-01 +1.06858275135E-05 +3.75835816783E-04 -3.21932853243E-05 +3.45354257729E-04 -3.05922517081E-01 +8.86182747219E-01
1.38000000000E+09 -6.24913740240E-02 +8.76850837888E-01 +3.44145125336E-05 +3.86522033967E-04 +4.14713590867E-05 +3.91378920870E-04 -2.91161313729E-01 +8.88158386475E-01
1.38500000000E+09 -5.15706407273E-02 +8.74619886088E-01 +1.09223087723E-04 +3.89185639197E-04 +1.01405278550E-04 +3.99263762146E-04 -2.75674920959E-01 +8.90007398136E-01
1.39000000000E+09 -3.97649619540E-02 +8.71375672557E-01 +1.17009665006E-04 +3.26194600928E-04 +1.56817698782E-04 +3.57135253538E-04 -2.59801357079E-01 +8.91367697238E-01
1.39500000000E+09 -2.58919739388E-02 +8.67362200436E-01 +1.41057963459E-04 +2.65781998463E-04 +1.85167628737E-04 +3.03284011026E-04 -2.43165466666E-01 +8.92030525080E-01
1.40000000000E+09 -9.60411432815E-03 +8.62585961692E-01 +1.55260892441E-04 +3.34923588387E-04 +1.90866536099E-04 +3.36134286882E-04 -2.25710218546E-01 +8.92310704885E-01
1.40500000000E+09 +9.06926052802E-03 +8.57458635582E-01 +1.93466044302E-04 +4.06161180775E-04 +1.93750712458E-04 +3.90193439799E-04 -2.07339120244E-01 +8.91940436042E-01
1.41000000000E+09 +2.95761716018E-02 +8.52058974974E-01 +3.05759661910E-04 +4.31881051815E-04 +3.19604592451E-04 +4.24536784405E-04 -1.87399578396E-01 +8.91237480049E-01
1.41500000000E+09 +5.11970463975E-02 +8.46472798615E-01 +4.63452628077E-04 +4.02493589013E-04 +4.45687180126E-04 +4.52267087373E-04 -1.65980192124E-01 +8.89558836996E-01
1.42000000000E+09 +7.31083121649E-02 +8.40551814042E-01 +5.84629114535E-04 +2.55025345593E-04 +5.86983200694E-04 +2.54668675482E-04 -1.43198785955E-01 +8.86983442847E-01
1.42500000000E+09 +9.44747329995E-02 +8.33364568931E-01 +4.43795917180E-04 +1.90100081082E-04 +5.23506059640E-04 +2.10518368051E-04 -1.19553976354E-01 +8.83215166964E-01
1.43000000000E+09 +1.14382463539E-01 +8.24649498761E-01 +6.19752893044E-04 +2.58733962276E-04 +7.26886083103E-04 +2.11237994068E-04 -9.49288647145E-02 +8.78427357758E-01
1.43500000000E+09 +1.33598887698E-01 +8.14378075050E-01 +7.18489367653E-04 +4.92735850751E-05 +7.64418790901E-04 -2.60335861147E-05 -6.88724871182E-02 +8.71770175386E-01
1.44000000000E+09 +1.53130767803E-01 +8.02163073741E-01 +6.55659302011E-04 -6.22842966629E-05 +6.41626293243E-04 -8.07765081252E-05 -4.09346339570E-02 +8.63399269219E-01
1.44500000000E+09 +1.73684105245E-01 +7.86890241378E-01 +7.07780849871E-04 -3.22008280293E-05 +7.52842238037E-04 -1.08939213158E-04 -1.07073340162E-02 +8.52133549057E-01
1.45000000000E+09 +1.96017225796E-01 +7.68418743241E-01 +6.98964139069E-04 -1.01012521972E-04 +7.03071829226E-04 -1.86139751086E-04 +2.09467825833E-02 +8.37610465742E-01
1.45500000000E+09 +2.20676606566E-01 +7.46516359074E-01 +8.41960354054E-04 -1.95924274216E-04 +8.33618861599E-04 -2.38467201102E-04 +5.42604002674E-02 +8.20044360861E-01
1.46000000000E+09 +2.48287001608E-01 +7.20550554127E-01 +1.05720062135E-03 -3.82374764093E-04 +9.11902529724E-04 -4.49707838965E-04 +8.86747937831E-02 +7.98305899625E-01
1.46500000000E+09 +2.77406347388E-01 +6.90748353196E-01 +1.04034158050E-03 -7.31959984988E-04 +9.09406295125E-04 -6.95284428812E-04 +1.24461506159E-01 +7.71854115407E-01
1.47000000000E+09 +3.07698018059E-01 +6.56785863422E-01 +8.10310863055E-04 -9.40899566031E-04 +7.43911166782E-04 -8.64295113548E-04 +1.60611864363E-01 +7.38792891943E-01
1.47500000000E+09 +3.37372701318E-01 +6.18011155070E-01 +6.23978543501E-04 -1.20290817368E-03 +6.60517470667E-04 -1.13681370044E-03 +1.98154659756E-01 +6.98921741477E-01
1.48000000000E+09 +3.64354065071E-01 +5.73701178839E-01 +5.05300760102E-04 -1.06778083708E-03 +5.04245484485E-04 -1.09754861223E-03 +2.34950999257E-01 +6.49515697653E-01
1.48500000000E+09 +3.86575935721E-01 +5.23696675613E-01 +5.93213274072E-04 -1.36133558840E-03 +5.73131387585E-04 -1.42992528651E-03 +2.69087958270E-01 +5.91233366460E-01
1.49000000000E+09 +4.03518019652E-01 +4.66629274461E-01 +2.91429773730E-04 -1.78260341708E-03 +1.55792549905E-04 -1.80572237050E-03 +2.97918586985E-01 +5.22061790501E-01
1.49500000000E+09 +4.12883629232E-01 +4.01871101301E-01 +1.41004895212E-04 -2.01209996853E-03 +2.53192059512E-05 -1.92095355483E-03 +3.16840943161E-01 +4.42535820186E-01
1.50000000000E+09 +4.13295407978E-01 +3.28193419749E-01 -5.15118192724E-04 -2.97054997001E-03 -4.79250246263E-04 -2.76623345749E-03 +3.22668549777E-01 +3.53272048041E-01
1.50500000000E+09 +4.01452382536E-01 +2.46026511699E-01 -2.48219432792E-03 -2.48866158585E-03 -2.23968292985E-03 -2.42674000233E-03 +3.11877000204E-01 +2.57682064494E-01
1.51000000000E+09 +3.73645230475E-01 +1.58486069910E-01 -2.56314467872E-03 -1.02272492119E-03 -2.47014386229E-03 -1.03396398561E-03 +2.82072175033E-01 +1.56862885128E-01
1.51500000000E+09 +3.28816660058E-01 +7.12887579018E-02 -2.48028213110E-03 -7.20913016564E-04 -2.47436469850E-03 -7.49365272931E-04 +2.28176468903E-01 +5.77671508680E-02
1.52000000000E+09 +2.66074759150E-01 -1.04926501444E-02 -2.89843668449E-03 -1.05917125597E-05 -2.96311970663E-03 -8.36631187520E-05 +1.51591635338E-01 -2.96482326255E-02
1.52500000000E+09 +1.86145777869E-01 -8.02858946226E-02 -2.23281752343E-03 +9.46813497970E-04 -2.22232094626E-03 +9.21908745269E-04 +5.65068451064E-02 -9.91816244734E-02
1.53000000000E+09 +8.98123027137E-02 -1.31014178722E-01 -2.28514392095E-03 +5.56265985337E-04 -2.26553499515E-03 +5.83178041828E-04 -5.15692681000E-02 -1.45264453033E-01
1.53500000000E+09 -1.62237067759E-02 -1.56833894870E-01 -2.88950422563E-03 +1.75653233550E-03 -2.91086285174E-03 +1.71059386474E-03 -1.64597961220E-01 -1.65598303702E-01
1.54000000000E+09 -1.24138192833E-01 -1.55640523204E-01 -1.74065845576E-03 +3.09706469508E-03 -1.74536157231E-03 +3.10536083754E-03 -2.74296724309E-01 -1.62208596863E-01
1.54500000000E+09 -2.26440893805E-01 -1.31541214215E-01 -8.32859207992E-05 +3.07707267398E-03 -1.72980120413E-04 +2.96434410058E-03 -3.73493308856E-01 -1.38868519500E-01
1.55000000000E+09 -3.18203591300E-01 -8.98128832721E-02 +5.91639131368E-04 +2.68003712961E-03 +4.72578265100E-04 +2.73145204151E-03 -4.60730685026E-01 -1.01296886280E-01
1.55500000000E+09 -3.97121785667E-01 -3.67434108786E-02 +1.41795061151E-03 +2.11416360011E-03 +1.35637641896E-03 +2.17446077883E-03 -5.32365250244E-01 -5.18751826702E-02
1.56000000000E+09 -4.61984205731E-01 +2.25910266929E-02 +1.68517056091E-03 +1.03863456950E-03 +1.71956562692E-03 +1.13260705470E-03 -5.88793892589E-01 +1.96019320215E-03
1.56500000000E+09 -5.11262268226E-01 +8.31290733716E-02 +1.25710537955E-03 +4.28671349152E-04 +1.29618500060E-03 +4.86242594928E-04 -6.33517660611E-01 +5.79756326573E-02
1.57000000000E+09 -5.48653272926E-01 +1.41566185183E-01 +1.04626260427E-03 +3.55974200445E-04 +1.10776256739E-03 +4.03695452640E-04 -6.66306914800E-01 +1.13757270214E-01
