# Hz S RI R 50
! CMT, C1220, 16058040, 17.2.0/1
! Date: 14/08/2018 11:56:35
! Data: Format (Calibration Info)
! Freq                      S11: Re/Im (F2)                       S21: Re/Im (F2)                       S12: Re/Im (F2)                       S22: Re/Im (F2)            
1.00000000000E+09 -6.44298689844E-01 +7.11738725931E-01 +7.96723451170E-06 +1.73180011646E-05 -3.97442871044E-05 +2.50135553603E-05 -7.49849841294E-01 +6.27030972630E-01
1.00500000000E+09 -6.37274799724E-01 +7.16773876788E-01 -5.95627721054E-05 +1.97331736382E-05 -3.30637431538E-05 -2.42879882778E-05 -7.46312564067E-01 +6.31051445232E-01
1.01000000000E+09 -6.31147336273E-01 +7.21198036536E-01 -1.49164199106E-05 +2.79856865943E-05 -8.32597426412E-05 +2.23314259221E-05 -7.42702959094E-01 +6.34947251747E-01
1.01500000000E+09 -6.26826177578E-01 +7.24907831126E-01 -8.49224249122E-05 -4.69774159538E-05 -2.41161049843E-05 -1.11294488354E-06 -7.39251802885E-01 +6.38679744037E-01
1.02000000000E+09 -6.23824297996E-01 +7.28173324774E-01 -2.24423214456E-05 +1.66423532096E-05 -1.70490454300E-05 +4.69679151002E-05 -7.35682857181E-01 +6.42383457372E-01
1.02500000000E+09 -6.21639166737E-01 +7.30807580001E-01 -5.50960466292E-05 +2.08003378304E-05 -1.27953525320E-05 +1.91935042870E-05 -7.32711614402E-01 +6.45939819710E-01
1.03000000000E+09 -6.20141716668E-01 +7.33168975740E-01 -3.05815437973E-05 +2.55629615049E-05 -4.26394131783E-05 +5.50336064093E-05 -7.29271087557E-01 +6.49675636630E-01
1.03500000000E+09 -6.17849982660E-01 +7.35434489268E-01 -4.37438894761E-05 +5.87792681692E-05 -6.91868047162E-05 +4.43441159831E-05 -7.25603727847E-01 +6.53700599224E-01
1.04000000000E+09 -6.14322635502E-01 +7.38345274445E-01 -1.87419022009E-05 +7.11131852044E-06 +2.04312515581E-05 +5.31647642787E-05 -7.21776286109E-01 +6.57378210431E-01
1.04500000000E+09 -6.09265370030E-01 +7.41849168204E-01 -4.24366399646E-05 +2.72631486649E-05 -4.17916917128E-05 +6.65654697340E-05 -7.18152486146E-01 +6.60994756155E-01
1.05000000000E+09 -6.02571606047E-01 +7.45928606642E-01 -4.06861698962E-05 +4.65578377970E-05 -3.99752277830E-06 +6.32921231609E-06 -7.14779006094E-01 +6.64330248498E-01
1.05500000000E+09 -5.94554396164E-01 +7.50434721659E-01 -2.37586178686E-05 +7.62104072915E-05 -1.70506921385E-05 +7.13344013552E-05 -7.11526544559E-01 +6.67883648110E-01
1.06000000000E+09 -5.86053384638E-01 +7.55347445417E-01 +1.67355349530E-05 +5.13096839831E-05 +2.48380075847E-05 +1.90795619713E-05 -7.08097476414E-01 +6.71591294392E-01
1.06500000000E+09 -5.77929230837E-01 +7.60238200305E-01 -2.32957698497E-05 +8.38637981845E-05 -4.24333226265E-05 +1.02647885977E-04 -7.04412212083E-01 +6.75297390660E-01
1.07000000000E+09 -5.71031076034E-01 +7.64453143746E-01 +4.18216312927E-06 +6.03183167027E-05 -8.81862770339E-06 +2.26518329681E-05 -7.00499939261E-01 +6.78998554738E-01
1.07500000000E+09 -5.65727605096E-01 +7.68015026272E-01 -2.99566114400E-05 +5.25347391002E-05 +2.38926911522E-05 +4.06192924568E-05 -6.96040206037E-01 +6.82685049180E-01
1.08000000000E+09 -5.61922548324E-01 +7.71240063471E-01 +1.34739912844E-05 +9.51680478530E-05 -9.91072212732E-07 +3.37388118534E-05 -6.92027516498E-01 +6.86419661690E-01
1.08500000000E+09 -5.59563560912E-01 +7.73759446490E-01 +3.40272592260E-05 +6.98536663754E-05 +3.94705071090E-05 +5.94438804047E-05 -6.88066781443E-01 +6.90065497422E-01
1.09000000000E+09 -5.57502123819E-01 +7.75910196483E-01 +3.11070054351E-06 +6.88344273238E-05 +2.66050790127E-06 +9.31040421028E-05 -6.84137578680E-01 +6.94028344817E-01
1.09500000000E+09 -5.55656951867E-01 +7.77687055923E-01 -1.04274250168E-05 +7.75802902504E-05 -1.62813202308E-05 +8.90178745767E-05 -6.80309993639E-01 +6.97836761072E-01
1.10000000000E+09 -5.52406693300E-01 +7.79928516424E-01 +3.86585721129E-05 +6.41917954996E-05 +3.02401107763E-05 +3.10633010688E-05 -6.76378912003E-01 +7.01897987878E-01
1.10500000000E+09 -5.47946682475E-01 +7.82559481737E-01 +4.42598523995E-05 +8.23821875512E-05 -1.06168912389E-05 +2.27683335787E-05 -6.72089777788E-01 +7.05315346728E-01
1.11000000000E+09 -5.41924759863E-01 +7.85926717618E-01 +6.26314091402E-05 +8.46651547673E-05 +5.55028297305E-06 +7.08742522120E-05 -6.67751382830E-01 +7.08653242111E-01
1.11500000000E+09 -5.34509546415E-01 +7.89744847944E-01 +2.82266775098E-05 +7.16009855868E-05 +3.74050430509E-05 +8.59022115333E-05 -6.63623955798E-01 +7.12182946090E-01
1.12000000000E+09 -5.26424020625E-01 +7.93602063565E-01 +6.37143699894E-05 +5.83216062233E-05 +7.71079314665E-05 +7.64402429496E-05 -6.59587988156E-01 +7.15695167730E-01
1.12500000000E+09 -5.18510572894E-01 +7.97649409909E-01 +4.25814853087E-05 +5.39291023833E-05 +7.58319938328E-05 +4.76012811104E-05 -6.55083708826E-01 +7.19595935859E-01
1.13000000000E+09 -5.11494345303E-01 +8.01373403474E-01 +6.82274317183E-05 +8.01596077168E-05 +5.85795477314E-05 +6.45728695489E-05 -6.50963276664E-01 +7.23405120504E-01
1.13500000000E+09 -5.05453369879E-01 +8.04196184498E-01 +6.02631106627E-05 +6.12528009303E-05 +7.10089050888E-05 +6.79419876494E-05 -6.46496899679E-01 +7.27280506338E-01
1.14000000000E+09 -5.00871258999E-01 +8.06981645320E-01 +1.20570270342E-04 +9.06751631936E-05 +1.03017026810E-04 +5.14357988984E-05 -6.41657697957E-01 +7.30585136173E-01
1.14500000000E+09 -4.97114904881E-01 +8.08978074040E-01 +7.02624160842E-05 +5.24786746652E-05 +8.90441652164E-05 -2.10331662419E-05 -6.37128920418E-01 +7.34013905856E-01
1.15000000000E+09 -4.93613715513E-01 +8.10841733152E-01 +9.15320667818E-05 +2.74985478020E-05 +1.08901384759E-04 +4.53678109181E-05 -6.32472103558E-01 +7.37739619759E-01
1.15500000000E+09 -4.89969302361E-01 +8.12854072666E-01 +1.48835879794E-04 +7.20911065377E-05 +1.10403903770E-04 +6.52489483763E-05 -6.27573759733E-01 +7.41507759975E-01
1.16000000000E+09 -4.85375272330E-01 +8.14910198097E-01 +7.37905889535E-05 +6.05071295196E-05 +1.36019077849E-04 +9.22791231520E-05 -6.22604059314E-01 +7.45386179006E-01
1.16500000000E+09 -4.79477279462E-01 +8.17757578739E-01 +1.34933696650E-04 +4.79910127198E-05 +1.24408155716E-04 +1.06853814288E-04 -6.17537141299E-01 +7.49043633088E-01
1.17000000000E+09 -4.72050441878E-01 +8.21043286328E-01 +1.05980031900E-04 +1.91990672799E-05 +1.82203949844E-04 +4.11069984586E-05 -6.12175512392E-01 +7.52345009309E-01
1.17500000000E+09 -4.63794680025E-01 +8.24288316725E-01 +1.21926949262E-04 +2.38570467417E-05 +1.23580356939E-04 +2.51148722265E-05 -6.06354555630E-01 +7.55662343497E-01
1.18000000000E+09 -4.55354749306E-01 +8.27985414804E-01 +1.35872277174E-04 +2.31690883347E-05 +1.75832807407E-04 +4.25703855488E-06 -6.00778623056E-01 +7.58624524426E-01
1.18500000000E+09 -4.47147047102E-01 +8.30974431309E-01 +1.65088953896E-04 -1.18825976460E-05 +2.04418863697E-04 +6.48716583369E-06 -5.94846871074E-01 +7.61678285385E-01
1.19000000000E+09 -4.39764589282E-01 +8.33690710969E-01 +2.02266519060E-04 +8.68693064947E-06 +2.32291938251E-04 -1.30313129366E-05 -5.88560704054E-01 +7.64356591046E-01
1.19500000000E+09 -4.33870611123E-01 +8.35776244049E-01 +2.38033849330E-04 -1.75128772532E-05 +2.52604917431E-04 -1.33913818881E-05 -5.82565460689E-01 +7.65525847356E-01
1.20000000000E+09 -4.29281695070E-01 +8.36862504764E-01 +2.45381405906E-04 -1.09932284709E-04 +2.45836018654E-04 -1.38741794617E-04 -5.78076143567E-01 +7.65615040511E-01
1.20500000000E+09 -4.25427011250E-01 +8.38208105972E-01 +2.11710244046E-04 -1.81205926213E-04 +1.90276945486E-04 -2.07376817742E-04 -5.75883965696E-01 +7.66390504905E-01
1.21000000000E+09 -4.21516659351E-01 +8.39709013621E-01 +1.58614999609E-04 -2.17265777159E-04 +1.10639581297E-04 -2.11999850112E-04 -5.73934832924E-01 +7.69441171916E-01
1.21500000000E+09 -4.16398280613E-01 +8.41492206955E-01 +1.15471467852E-04 -1.62272364137E-04 +1.51293401377E-04 -1.40933759727E-04 -5.71318651433E-01 +7.73766271508E-01
1.22000000000E+09 -4.09789758487E-01 +8.43654553412E-01 +1.06603531269E-04 -1.51432721602E-04 +1.06560399969E-04 -1.42446323405E-04 -5.67056185037E-01 +7.79298325596E-01
1.22500000000E+09 -4.01509454716E-01 +8.46336980493E-01 +1.37967291826E-04 -1.71380303871E-04 +1.30739965335E-04 -1.95928262593E-04 -5.61929371548E-01 +7.84385583343E-01
1.23000000000E+09 -3.92125011476E-01 +8.49534972056E-01 +9.48194640419E-05 -2.26068936795E-04 +1.08216720841E-04 -2.69223876253E-04 -5.56191740717E-01 +7.89029636986E-01
1.23500000000E+09 -3.81876632473E-01 +8.53130166205E-01 +8.06155717793E-05 -2.25927825307E-04 +1.11632617616E-04 -2.59320758716E-04 -5.50259922955E-01 +7.93185471934E-01
1.24000000000E+09 -3.71764803398E-01 +8.56821060633E-01 +1.11347367544E-04 -2.79339381906E-04 +6.41965236108E-05 -2.23469768165E-04 -5.44267642420E-01 +7.97115276889E-01
1.24500000000E+09 -3.62416002661E-01 +8.60437682218E-01 +1.05560873532E-04 -3.12599923953E-04 +1.19559572054E-04 -2.39804617154E-04 -5.37865171640E-01 +8.01080034458E-01
1.25000000000E+09 -3.54309875992E-01 +8.63812453179E-01 +3.68022620287E-05 -3.33529155796E-04 +6.71115131165E-05 -2.68302334677E-04 -5.31308848806E-01 +8.05221200524E-01
1.25500000000E+09 -3.47519386800E-01 +8.66343453856E-01 -6.20016061827E-06 -3.02133624669E-04 +6.33101727860E-05 -3.29439852776E-04 -5.24450255483E-01 +8.09004996132E-01
1.26000000000E+09 -3.41924017649E-01 +8.68350824987E-01 -1.23714493442E-05 -3.13522562002E-04 +3.48765754140E-05 -3.36085925356E-04 -5.17679646515E-01 +8.13500892385E-01
1.26500000000E+09 -3.36767329658E-01 +8.69735271494E-01 -2.34455981530E-05 -3.29355703376E-04 -5.12013327022E-05 -3.80722998901E-04 -5.10623711872E-01 +8.17281412443E-01
1.27000000000E+09 -3.31491730589E-01 +8.71038391999E-01 -8.75150841142E-05 -3.67052787817E-04 -9.55579215277E-05 -3.88443673690E-04 -5.03869641824E-01 +8.21128289518E-01
1.27500000000E+09 -3.25109924909E-01 +8.72324638027E-01 -1.23142158371E-04 -3.62240666531E-04 -1.38816024540E-04 -3.83307681978E-04 -4.96878771950E-01 +8.24584611350E-01
1.28000000000E+09 -3.16862248068E-01 +8.73980728649E-01 -1.96091606884E-04 -3.31818667739E-04 -1.96569386901E-04 -3.76743088871E-04 -4.89865539678E-01 +8.28052333192E-01
1.28500000000E+09 -3.06342837432E-01 +8.76102581396E-01 -2.21480706625E-04 -3.28406937962E-04 -2.44888956262E-04 -3.52182365658E-04 -4.82552650277E-01 +8.31769270722E-01
1.29000000000E+09 -2.94671842331E-01 +8.78470315554E-01 -2.44650649044E-04 -2.95229755948E-04 -3.11376798581E-04 -2.76080869026E-04 -4.75076958350E-01 +8.35313681557E-01
1.29500000000E+09 -2.82375500342E-01 +8.81348529190E-01 -3.01144227142E-04 -2.85782595127E-04 -3.53011970927E-04 -2.99291937774E-04 -4.67188079246E-01 +8.38826928472E-01
1.30000000000E+09 -2.70063726134E-01 +8.84435546084E-01 -3.57733424030E-04 -3.51233055386E-04 -3.54402931138E-04 -2.85573016219E-04 -4.59228859861E-01 +8.42565452502E-01
1.30500000000E+09 -2.58855008108E-01 +8.87401397865E-01 -3.92184397704E-04 -2.64731573971E-04 -4.06504145411E-04 -2.61140669286E-04 -4.51139640343E-01 +8.45853607738E-01
1.31000000000E+09 -2.49219123147E-01 +8.89830317719E-01 -4.78275133681E-04 -2.49166752887E-04 -3.73314834409E-04 -2.38977173115E-04 -4.42717079597E-01 +8.49239589566E-01
1.31500000000E+09 -2.41251527856E-01 +8.91816474400E-01 -4.86057245594E-04 -1.62512316060E-04 -4.21168466766E-04 -1.65599646219E-04 -4.33996122256E-01 +8.52731275892E-01
1.32000000000E+09 -2.35007732520E-01 +8.92954715770E-01 -4.47070338092E-04 -1.19999642160E-04 -4.59241583549E-04 -1.48644587877E-04 -4.24877748600E-01 +8.56012908266E-01
1.32500000000E+09 -2.29172156692E-01 +8.93437718903E-01 -4.71692633688E-04 -1.53975107072E-04 -5.49996880637E-04 -1.43171029829E-04 -4.15155593166E-01 +8.59447038781E-01
1.33000000000E+09 -2.22699987228E-01 +8.93795507717E-01 -5.16671479850E-04 -1.20853432128E-04 -5.63556460412E-04 -7.60533751551E-05 -4.05398812004E-01 +8.62740377588E-01
1.33500000000E+09 -2.14569487447E-01 +8.93864194753E-01 -5.49684307150E-04 -9.64087367844E-05 -6.10164883123E-04 -5.57798283793E-05 -3.95468527499E-01 +8.65999452763E-01
1.34000000000E+09 -2.03958990748E-01 +8.93853050178E-01 -6.19287571444E-04 -5.04012961076E-05 -5.55119917228E-04 +3.49444716510E-05 -3.85290358545E-01 +8.69175431826E-01
1.34500000000E+09 -1.90557921856E-01 +8.93636524116E-01 -6.62433967353E-04 -2.36240253528E-05 -6.00099939330E-04 -2.04121495779E-05 -3.74457766242E-01 +8.72542979331E-01
1.35000000000E+09 -1.75155228594E-01 +8.93483208871E-01 -7.85595855720E-04 +9.12017703161E-05 -6.99038662038E-04 +9.32958146830E-05 -3.63118591200E-01 +8.75535511175E-01
1.35500000000E+09 -1.58681558435E-01 +8.93468217715E-01 -7.44904739128E-04 +1.70752580769E-04 -7.13973438512E-04 +1.87194423665E-04 -3.51553136211E-01 +8.78312906774E-01
1.36000000000E+09 -1.42061680795E-01 +8.94001376601E-01 -7.46080250581E-04 +2.43971859029E-04 -7.03951476408E-04 +2.51494059445E-04 -3.39722189034E-01 +8.81052253990E-01
1.36500000000E+09 -1.26144191092E-01 +8.94169998141E-01 -8.01680648028E-04 +2.67402212242E-04 -7.38439181502E-04 +2.72344711717E-04 -3.27497946477E-01 +8.83349762248E-01
1.37000000000E+09 -1.11738888084E-01 +8.94422608884E-01 -8.68802849882E-04 +3.77685174879E-04 -7.92711289127E-04 +2.95502739770E-04 -3.14646550878E-01 +8.85729812572E-01
1.37500000000E+09 -9.92116717145E-02 +8.94480012951E-01 -8.77607701732E-04 +4.95510173906E-04 -8.40579552508E-04 +3.92806274948E-04 -3.00790944429E-01 +8.88090159353E-01
1.38000000000E+09 -8.81825679324E-02 +8.94006131787E-01 -8.99598849022E-04 +6.47489224051E-04 -9.93300656269E-04 +5.29152973941E-04 -2.86288869688E-01 +8.89856281471E-01
1.38500000000E+09 -7.71391507698E-02 +8.93112410423E-01 -8.26078944332E-04 +7.91524765007E-04 -1.03897610545E-03 +8.46849336849E-04 -2.71033645329E-01 +8.91592046176E-01
1.39000000000E+09 -6.56081792395E-02 +8.91494209105E-01 -7.96467342120E-04 +9.15491798298E-04 -8.84649975455E-04 +1.04441871455E-03 -2.55016800664E-01 +8.93041108013E-01
1.39500000000E+09 -5.21038726377E-02 +8.89091263454E-01 -7.98665616459E-04 +1.03073748958E-03 -7.18591027224E-04 +1.20535724371E-03 -2.38335373080E-01 +8.93714367074E-01
1.40000000000E+09 -3.59417424345E-02 +8.85410322794E-01 -7.10494244097E-04 +1.20457478975E-03 -6.24782824180E-04 +1.31675491748E-03 -2.20912141075E-01 +8.94359921655E-01
1.40500000000E+09 -1.74501559557E-02 +8.80863120195E-01 -6.08812932175E-04 +1.34933395842E-03 -4.93681853332E-04 +1.37059316481E-03 -2.02228947601E-01 +8.94105045962E-01
1.41000000000E+09 +3.33812291158E-03 +8.75301170677E-01 -5.10919229582E-04 +1.45729705053E-03 -5.72091776660E-04 +1.49486461006E-03 -1.82165824047E-01 +8.93288678087E-01
1.41500000000E+09 +2.54243954890E-02 +8.69263493007E-01 -3.67930237254E-04 +1.61809955342E-03 -4.62353317309E-04 +1.70106876883E-03 -1.60811917587E-01 +8.91973074030E-01
1.42000000000E+09 +4.83564821240E-02 +8.62610597982E-01 -2.95049359472E-04 +1.73463983681E-03 -3.81997334768E-04 +1.86437406640E-03 -1.38000805422E-01 +8.89640095671E-01
1.42500000000E+09 +7.06833840031E-02 +8.55057004447E-01 -2.77287297108E-04 +2.01425086428E-03 -2.20490589072E-04 +2.24682371415E-03 -1.14157712682E-01 +8.85966870699E-01
1.43000000000E+09 +9.22081917590E-02 +8.46891012043E-01 +1.51828994046E-06 +2.41665191856E-03 +2.45019340782E-04 +2.55326207297E-03 -8.92568877033E-02 +8.81231210671E-01
1.43500000000E+09 +1.13041277587E-01 +8.37626177643E-01 +4.74817575801E-04 +2.53129386127E-03 +7.89850065766E-04 +2.59673636534E-03 -6.28792574324E-02 +8.74549672083E-01
1.44000000000E+09 +1.34141276458E-01 +8.27043856363E-01 +8.28345810433E-04 +2.57864120691E-03 +1.03046463318E-03 +2.57230085444E-03 -3.48748640256E-02 +8.66061344788E-01
1.44500000000E+09 +1.56491578685E-01 +8.14020130620E-01 +1.22240574568E-03 +2.57747040865E-03 +1.40780660943E-03 +2.54959186044E-03 -4.57611802955E-03 +8.54717745769E-01
1.45000000000E+09 +1.80371185239E-01 +7.97301779185E-01 +1.42863446912E-03 +2.76176997488E-03 +1.62466425316E-03 +2.67205558294E-03 +2.75535368957E-02 +8.39856709025E-01
1.45500000000E+09 +2.06304747685E-01 +7.76895349300E-01 +1.79346158614E-03 +3.13232352199E-03 +2.11837536771E-03 +2.98184360871E-03 +6.05307634560E-02 +8.21911386740E-01
1.46000000000E+09 +2.34765043012E-01 +7.51923087598E-01 +2.61225310760E-03 +3.42582568379E-03 +2.78879030653E-03 +3.06556973073E-03 +9.54166245285E-02 +8.00641434074E-01
1.46500000000E+09 +2.65150331152E-01 +7.22456280165E-01 +3.66412113645E-03 +3.53943645132E-03 +3.53911528256E-03 +3.00651084914E-03 +1.32049970829E-01 +7.73726424959E-01
1.47000000000E+09 +2.96698383679E-01 +6.87565423947E-01 +5.10928035651E-03 +3.31749675223E-03 +4.72322111850E-03 +3.06825254156E-03 +1.69374514473E-01 +7.39768576443E-01
1.47500000000E+09 +3.27765373593E-01 +6.47042776607E-01 +6.36037070091E-03 +2.34079154784E-03 +5.95710160649E-03 +2.43850252098E-03 +2.06183417232E-01 +6.98365942552E-01
1.48000000000E+09 +3.56568404338E-01 +6.00218369289E-01 +7.17786106786E-03 +1.39279505502E-03 +7.19508696230E-03 +1.58089440884E-03 +2.42223963244E-01 +6.49016985710E-01
1.48500000000E+09 +3.80769557084E-01 +5.47330600566E-01 +8.18995879132E-03 +2.42551817129E-04 +8.40467530884E-03 +1.27600808577E-04 +2.76060824145E-01 +5.90586579672E-01
1.49000000000E+09 +3.99318342981E-01 +4.87567185080E-01 +9.45679495822E-03 -1.31362816918E-03 +9.40837580598E-03 -1.73363698774E-03 +3.05288027734E-01 +5.21327064524E-01
1.49500000000E+09 +4.10434863927E-01 +4.20694638194E-01 +1.04068518133E-02 -3.72936996495E-03 +9.81737126614E-03 -4.00028278657E-03 +3.23839330870E-01 +4.40257414987E-01
1.50000000000E+09 +4.11858784467E-01 +3.44997712825E-01 +1.11023368047E-02 -6.92224646697E-03 +1.03981709779E-02 -6.51009932380E-03 +3.28069100675E-01 +3.51638873412E-01
1.50500000000E+09 +4.01106640416E-01 +2.61581918054E-01 +9.94673033925E-03 -1.14908441145E-02 +9.88680575260E-03 -1.07299833426E-02 +3.17332710533E-01 +2.55808430705E-01
1.51000000000E+09 +3.74294415631E-01 +1.72014817329E-01 +6.91294484940E-03 -1.55684328529E-02 +7.44025447667E-03 -1.50902858353E-02 +2.86790819173E-01 +1.54757433968E-01
1.51500000000E+09 +3.29152233136E-01 +8.16884871220E-02 +1.59032270026E-03 -1.81485355455E-02 +2.13019801959E-03 -1.82776615322E-02 +2.32005377930E-01 +5.59215649636E-02
1.52000000000E+09 +2.64177708180E-01 -4.53040492907E-03 -4.36218418222E-03 -1.84685035345E-02 -4.19867786425E-03 -1.87220207864E-02 +1.55342941047E-01 -3.14979157616E-02
1.52500000000E+09 +1.78636318656E-01 -7.77787634465E-02 -9.61832904317E-03 -1.58334007731E-02 -9.58992522422E-03 -1.60528139895E-02 +5.92744256835E-02 -1.01067749871E-01
1.53000000000E+09 +7.89112644948E-02 -1.29489221782E-01 -1.29330946915E-02 -1.28622285421E-02 -1.30602704638E-02 -1.30219275523E-02 -4.96881727569E-02 -1.47176614767E-01
1.53500000000E+09 -2.84891705110E-02 -1.57283593090E-01 -1.62676990569E-02 -9.16849117157E-03 -1.63915699278E-02 -9.19033621487E-03 -1.63890388385E-01 -1.66361180494E-01
1.54000000000E+09 -1.37755979459E-01 -1.61234362008E-01 -1.82625640530E-02 -4.02077305078E-03 -1.80821515227E-02 -4.06276508350E-03 -2.74237674937E-01 -1.61809559871E-01
1.54500000000E+09 -2.43906764625E-01 -1.41022100546E-01 -1.78988244754E-02 +1.63185098079E-03 -1.77268112456E-02 +1.26215754898E-03 -3.73358552982E-01 -1.35695544997E-01
1.55000000000E+09 -3.40387516598E-01 -9.96845174898E-02 -1.56000610401E-02 +5.92713539277E-03 -1.57607911280E-02 +5.34981267379E-03 -4.58520388743E-01 -9.66091182621E-02
1.55500000000E+09 -4.20521166802E-01 -4.29076303745E-02 -1.29197169278E-02 +9.24388213212E-03 -1.35807337015E-02 +8.94729293820E-03 -5.28659221523E-01 -4.77772724309E-02
1.56000000000E+09 -4.83165283519E-01 +1.86487734046E-02 -8.73093444696E-03 +1.15352885542E-02 -9.52943344979E-03 +1.17550360272E-02 -5.84827979339E-01 +6.45897579170E-03
1.56500000000E+09 -5.31799075262E-01 +7.96102247215E-02 -4.64162626051E-03 +1.15435756273E-02 -5.08704264129E-03 +1.22014197435E-02 -6.27665573344E-01 +6.20204678822E-02
1.57000000000E+09 -5.70649609494E-01 +1.38837334604E-01 -2.07918461068E-03 +1.01850408544E-02 -2.13806122654E-03 +1.08915744326E-02 -6.60397349556E-01 +1.17284146829E-01
