# Hz S RI R 50
! CMT, C1220, 16058040, 17.2.0/1
! Date: 14/08/2018 12:05:44
! Data: Format (Calibration Info)
! Freq                      S11: Re/Im (F2)                       S21: Re/Im (F2)                       S12: Re/Im (F2)                       S22: Re/Im (F2)            
1.00000000000E+09 -6.54166996944E-01 +7.09917268549E-01 +7.20052542896E-05 -5.00342494884E-05 +8.14814067637E-06 +4.25171355348E-05 -7.53490979422E-01 +6.25862712194E-01
1.00500000000E+09 -6.47493116240E-01 +7.14616305478E-01 -2.03524127474E-05 +2.02011721621E-05 -2.92387322299E-05 +2.89908923168E-05 -7.49834249257E-01 +6.29894065000E-01
1.01000000000E+09 -6.41763131103E-01 +7.18644733219E-01 +4.66653599372E-06 +6.41973878078E-06 +1.92048861036E-05 -1.38138081974E-05 -7.46202634903E-01 +6.33728335164E-01
1.01500000000E+09 -6.37436282492E-01 +7.22458225883E-01 -5.05629604070E-05 -2.80979579592E-05 -1.94966543468E-05 -1.16408622293E-05 -7.42812003518E-01 +6.37366435612E-01
1.02000000000E+09 -6.34805122109E-01 +7.25831769057E-01 +1.33873535875E-05 -5.24961843408E-05 -3.42000131437E-05 -1.78689466509E-05 -7.39373330763E-01 +6.40973004565E-01
1.02500000000E+09 -6.32741236051E-01 +7.28726164461E-01 -6.02843193738E-05 +6.54711515019E-06 +7.24142376284E-06 +1.31755735431E-05 -7.36486146483E-01 +6.44685987966E-01
1.03000000000E+09 -6.31231655169E-01 +7.31538901326E-01 -2.59106310014E-05 -3.14341015899E-05 -6.11168652665E-05 +6.62874737661E-05 -7.33004682182E-01 +6.48451218330E-01
1.03500000000E+09 -6.29025771712E-01 +7.34307444408E-01 -6.49376648862E-05 +5.47021255926E-05 -2.50073965896E-06 +9.63372397555E-06 -7.29289559855E-01 +6.52487195063E-01
1.04000000000E+09 -6.25660277668E-01 +7.37507050027E-01 -2.86800226846E-05 +8.46106597188E-05 +1.43658984742E-06 -1.98888655623E-05 -7.25656058745E-01 +6.56130193507E-01
1.04500000000E+09 -6.20735299731E-01 +7.40923900449E-01 +2.78072204710E-05 +5.29779715594E-05 -3.36936483186E-05 +4.81739186710E-05 -7.21968307468E-01 +6.59702409870E-01
1.05000000000E+09 -6.14199293054E-01 +7.44941746796E-01 -3.54946852744E-05 -1.19262992681E-05 -2.16430311346E-05 +6.62467781279E-05 -7.18427629691E-01 +6.63078698270E-01
1.05500000000E+09 -6.06319944572E-01 +7.49252611736E-01 -2.72785061028E-05 +3.00266018993E-05 -8.30156586595E-05 +1.08891004375E-05 -7.15232297825E-01 +6.66727698199E-01
1.06000000000E+09 -5.98025325265E-01 +7.53632466086E-01 -1.57853236929E-05 +5.28539331587E-05 -4.75757703348E-05 +4.57521341344E-05 -7.11888865905E-01 +6.70488983551E-01
1.06500000000E+09 -5.90176780338E-01 +7.58108832309E-01 -1.36640517751E-05 +2.50246573922E-05 +2.46192072172E-05 +2.67792033783E-05 -7.08131839577E-01 +6.74204552587E-01
1.07000000000E+09 -5.83221991057E-01 +7.62061146313E-01 -1.95554967811E-05 +1.90094104688E-05 -2.24590843990E-05 +7.62233146509E-06 -7.04166993244E-01 +6.77875277770E-01
1.07500000000E+09 -5.77795847120E-01 +7.65803918118E-01 -9.97155745379E-06 +4.90780298507E-05 -3.69031775786E-05 +2.04850944918E-05 -6.99872223667E-01 +6.81636805745E-01
1.08000000000E+09 -5.74007732367E-01 +7.69163636798E-01 +6.42365179270E-05 +7.28240021909E-05 +6.19695839526E-06 +2.64059219420E-05 -6.95875998404E-01 +6.85379429507E-01
1.08500000000E+09 -5.71289763732E-01 +7.71980388419E-01 +4.11784150780E-06 +3.00466460863E-05 +4.76356014793E-05 +2.84828514511E-05 -6.91730954206E-01 +6.88952203716E-01
1.09000000000E+09 -5.69046621011E-01 +7.74698267537E-01 +1.18323498598E-05 +3.08619738571E-05 -2.29642089772E-05 -1.04883222382E-05 -6.87913759031E-01 +6.93043400471E-01
1.09500000000E+09 -5.67086699449E-01 +7.77317381134E-01 +3.53819356396E-05 +4.71082714679E-05 +1.09157292341E-05 +8.87755489322E-06 -6.84143947169E-01 +6.96925510974E-01
1.10000000000E+09 -5.63628074532E-01 +7.79795851132E-01 +8.17049142948E-06 -8.36829635346E-06 -1.49388475973E-05 +1.76787793489E-05 -6.80211989450E-01 +7.00733031746E-01
1.10500000000E+09 -5.59074748518E-01 +7.82705619477E-01 +1.97282725603E-05 +4.66103341544E-05 +2.38211201263E-05 +4.16925418143E-05 -6.75894168989E-01 +7.04418006117E-01
1.11000000000E+09 -5.53274923979E-01 +7.86019746998E-01 +3.38645938255E-05 +7.12325592713E-05 -1.99935254993E-05 +9.82838569559E-06 -6.71776035498E-01 +7.07786798067E-01
1.11500000000E+09 -5.46106408516E-01 +7.89615840209E-01 +2.93163440750E-05 +1.92631110972E-05 +7.92630827169E-05 +2.57786054537E-05 -6.67566188516E-01 +7.11072551150E-01
1.12000000000E+09 -5.38514673408E-01 +7.93187345935E-01 +4.05082485668E-05 +2.14082694005E-05 +9.44892180897E-06 +4.34583636400E-05 -6.63389228450E-01 +7.14793759237E-01
1.12500000000E+09 -5.30889826712E-01 +7.96769479123E-01 +3.50027330855E-05 +2.37091462033E-05 +4.85161193088E-05 +9.61516185060E-05 -6.59146383073E-01 +7.18847444955E-01
1.13000000000E+09 -5.24419315498E-01 +8.00315769373E-01 +2.84051368370E-05 +4.51371227962E-05 +2.40781253615E-05 +4.07698270909E-05 -6.54998526621E-01 +7.22619051789E-01
1.13500000000E+09 -5.18531218624E-01 +8.03129578006E-01 +3.54561625238E-05 +7.00584802680E-05 -1.40446317450E-05 +2.57241928947E-05 -6.50483614660E-01 +7.26328592670E-01
1.14000000000E+09 -5.13997325139E-01 +8.06073033309E-01 +7.68490767432E-05 +3.34065837439E-05 +3.63705307018E-05 +2.55550072663E-05 -6.45845235736E-01 +7.29735077339E-01
1.14500000000E+09 -5.10382927751E-01 +8.08521398156E-01 +7.38782731433E-05 +2.14680584319E-05 +2.31188613500E-05 +1.69877824695E-05 -6.41020937985E-01 +7.33117573327E-01
1.15000000000E+09 -5.06779856920E-01 +8.10757137515E-01 +5.11069436755E-05 +4.72266787645E-05 +2.16010056923E-05 +2.88539404822E-05 -6.36339033988E-01 +7.36875764527E-01
1.15500000000E+09 -5.03168870181E-01 +8.13118973127E-01 +3.61135149542E-05 +4.59177321793E-05 +5.78950301219E-05 +2.60669129775E-05 -6.31412362775E-01 +7.40670534188E-01
1.16000000000E+09 -4.98695273918E-01 +8.15535689608E-01 +1.00486382803E-04 +5.03741091185E-05 +5.63567372587E-05 +1.96525537125E-06 -6.26587888439E-01 +7.44685994342E-01
1.16500000000E+09 -4.92965537496E-01 +8.18496034415E-01 +7.78458644332E-05 +3.33044945047E-05 +7.82718534218E-05 -4.66012810584E-07 -6.21551612707E-01 +7.48329561323E-01
1.17000000000E+09 -4.86165057912E-01 +8.21486543612E-01 +7.55196681193E-05 +2.74964130758E-05 +2.87034324293E-05 -7.78094243384E-06 -6.16152041797E-01 +7.51715914152E-01
1.17500000000E+09 -4.78222074805E-01 +8.24463009248E-01 +3.52676173119E-05 +3.71858001132E-05 +8.91977520960E-05 +3.25008398108E-05 -6.10294227308E-01 +7.54867015304E-01
1.18000000000E+09 -4.70207764934E-01 +8.27650847540E-01 +8.57212784629E-05 +2.50161118300E-06 +6.79643354317E-05 +6.11242451123E-05 -6.04807934952E-01 +7.57931665733E-01
1.18500000000E+09 -4.62373083294E-01 +8.30594636564E-01 +1.07573400966E-04 +3.20095610184E-05 +7.87044174792E-05 +5.43128554470E-06 -5.98852352343E-01 +7.61023121507E-01
1.19000000000E+09 -4.55386394914E-01 +8.33040507876E-01 +1.26152982532E-04 -7.78392158918E-06 +1.72225375487E-04 +2.53227433196E-05 -5.92611465450E-01 +7.63775056035E-01
1.19500000000E+09 -4.49450725669E-01 +8.35220052728E-01 +1.52560415818E-04 -3.54925566514E-06 +1.77636875273E-04 +3.53901370388E-06 -5.86814197254E-01 +7.64939384970E-01
1.20000000000E+09 -4.44721831383E-01 +8.36627553597E-01 +1.55718569728E-04 -9.91166265389E-05 +1.82594351848E-04 -1.13756976363E-04 -5.82253136869E-01 +7.64975266345E-01
1.20500000000E+09 -4.40680137741E-01 +8.38452262743E-01 +1.25012507232E-04 -9.33087937715E-05 +1.30787736513E-04 -1.36161864915E-04 -5.79901497499E-01 +7.65820704520E-01
1.21000000000E+09 -4.36494759722E-01 +8.40412979165E-01 +3.88102835007E-05 -1.22053618810E-04 +1.00401368841E-04 -1.15009178881E-04 -5.78070893294E-01 +7.68972729155E-01
1.21500000000E+09 -4.31249760020E-01 +8.42670668289E-01 +9.56447475136E-05 -1.25581063046E-04 +9.07165562266E-05 -1.25069894024E-04 -5.75451258239E-01 +7.73442737275E-01
1.22000000000E+09 -4.24778905635E-01 +8.45118263932E-01 +2.73113500368E-05 -1.26534324761E-04 +1.14007748586E-04 -1.32423830687E-04 -5.71143198702E-01 +7.78859189657E-01
1.22500000000E+09 -4.16615987167E-01 +8.47998824711E-01 +6.60599378153E-05 -1.21856412788E-04 +4.58296617746E-05 -1.55622810709E-04 -5.66059359104E-01 +7.83849183051E-01
1.23000000000E+09 -4.07428256526E-01 +8.51095270510E-01 +7.12631386029E-05 -1.45359546289E-04 +4.40674381294E-05 -1.03577899483E-04 -5.60150250279E-01 +7.88755979453E-01
1.23500000000E+09 -3.97405223214E-01 +8.54276284522E-01 +1.18560717756E-04 -1.29800834055E-04 +5.00844060363E-05 -1.20629931930E-04 -5.54550459737E-01 +7.93015410096E-01
1.24000000000E+09 -3.87197189896E-01 +8.57674897834E-01 +4.45384319560E-05 -1.72327959584E-04 +6.80607591144E-05 -1.69608464003E-04 -5.48351877294E-01 +7.96859994752E-01
1.24500000000E+09 -3.77787923761E-01 +8.61101248717E-01 +6.44872455066E-05 -1.95113993954E-04 +8.51010395306E-05 -1.97437163091E-04 -5.42069605455E-01 +8.00730046048E-01
1.25000000000E+09 -3.69234009952E-01 +8.64088545489E-01 +6.17604164600E-05 -2.29669489505E-04 +5.08583003892E-05 -2.21084340756E-04 -5.35469521522E-01 +8.04832518243E-01
1.25500000000E+09 -3.62056153841E-01 +8.66806530663E-01 +3.11381001781E-05 -2.46594611430E-04 -2.44233879123E-06 -2.76471823163E-04 -5.28565937997E-01 +8.08897753162E-01
1.26000000000E+09 -3.55885959479E-01 +8.69236252882E-01 -1.06413381977E-05 -2.52514332092E-04 -3.88219713523E-05 -2.53249051566E-04 -5.21869996310E-01 +8.13238859076E-01
1.26500000000E+09 -3.50406740013E-01 +8.71298890232E-01 -4.91746890611E-05 -2.26171984787E-04 -1.17916098776E-04 -2.35138193053E-04 -5.14856254769E-01 +8.17110022683E-01
1.27000000000E+09 -3.44658041358E-01 +8.73585194229E-01 -9.22664601275E-05 -2.51674133058E-04 -1.05453049439E-04 -2.53443450751E-04 -5.07967371944E-01 +8.21054126063E-01
1.27500000000E+09 -3.38323055665E-01 +8.75657139397E-01 -1.21248889184E-04 -2.64914336292E-04 -1.30128431535E-04 -2.18038670309E-04 -5.00942663002E-01 +8.24622484623E-01
1.28000000000E+09 -3.30308016773E-01 +8.77964108487E-01 -1.78783930508E-04 -2.40169996360E-04 -1.33223031291E-04 -2.44431616756E-04 -4.93894696947E-01 +8.28013942544E-01
1.28500000000E+09 -3.20466891797E-01 +8.80372218969E-01 -1.97249916841E-04 -2.50284583008E-04 -1.63373290072E-04 -2.49290314432E-04 -4.86622369950E-01 +8.31651823565E-01
1.29000000000E+09 -3.09639021778E-01 +8.82920700161E-01 -2.21479812696E-04 -2.48157056026E-04 -2.09686120078E-04 -2.46751975463E-04 -4.78950290450E-01 +8.35472284416E-01
1.29500000000E+09 -2.98104931069E-01 +8.85577319354E-01 -2.19761916366E-04 -1.85375525079E-04 -2.64277307613E-04 -2.34702338730E-04 -4.71154684260E-01 +8.38935125868E-01
1.30000000000E+09 -2.86621020404E-01 +8.88389402053E-01 -2.93493905883E-04 -2.36258739727E-04 -2.79471824058E-04 -1.73093425642E-04 -4.63318064098E-01 +8.42527718367E-01
1.30500000000E+09 -2.76067514446E-01 +8.90801330097E-01 -3.24216693650E-04 -1.63484650269E-04 -3.50228569592E-04 -1.08415324759E-04 -4.55160770973E-01 +8.46063469412E-01
1.31000000000E+09 -2.66642134566E-01 +8.92881056364E-01 -3.55217882096E-04 -1.05635465816E-04 -3.66560539024E-04 -9.48764870389E-05 -4.46726171256E-01 +8.49321125041E-01
1.31500000000E+09 -2.58679381567E-01 +8.94844117284E-01 -3.64354263084E-04 +2.01688002826E-06 -3.69035559066E-04 -6.10878711370E-05 -4.38035321873E-01 +8.52850252625E-01
1.32000000000E+09 -2.51676863963E-01 +8.96492117660E-01 -3.18737987802E-04 -2.76207977242E-05 -3.57074233974E-04 +1.56458481001E-06 -4.28756433138E-01 +8.56275353831E-01
1.32500000000E+09 -2.45239282366E-01 +8.97657127293E-01 -3.04466371755E-04 +5.96248873949E-06 -3.35405132629E-04 +3.49490575987E-05 -4.19195380282E-01 +8.59661783180E-01
1.33000000000E+09 -2.37936862554E-01 +8.98820626480E-01 -3.51848671067E-04 -3.41532679900E-06 -3.87601504781E-04 +7.86683620674E-05 -4.09504602269E-01 +8.62787293366E-01
1.33500000000E+09 -2.29110612652E-01 +8.99432380130E-01 -4.27046318701E-04 +4.69002384964E-05 -4.19062745236E-04 +7.88243706119E-05 -3.99516604375E-01 +8.66228110454E-01
1.34000000000E+09 -2.18241593667E-01 +9.00147148089E-01 -4.20877782528E-04 +1.41912383617E-04 -4.02372740156E-04 +1.73969381462E-04 -3.89361738527E-01 +8.69641069629E-01
1.34500000000E+09 -2.05077324436E-01 +9.00384369282E-01 -3.79099493155E-04 +2.14827458334E-04 -3.25279671241E-04 +1.82371277283E-04 -3.78450852435E-01 +8.72995551858E-01
1.35000000000E+09 -1.90101238346E-01 +9.00416951280E-01 -3.37172982731E-04 +2.34880900182E-04 -3.18960062781E-04 +2.08578414545E-04 -3.67222093148E-01 +8.76072568736E-01
1.35500000000E+09 -1.74106516923E-01 +9.00490596260E-01 -2.89489631464E-04 +2.44585224619E-04 -3.04533711702E-04 +2.66326575318E-04 -3.55600335243E-01 +8.78786495708E-01
1.36000000000E+09 -1.58040453181E-01 +9.00500421983E-01 -3.50493758806E-04 +2.94985109387E-04 -2.75127822442E-04 +3.22655886784E-04 -3.43655015801E-01 +8.81586044804E-01
1.36500000000E+09 -1.42378116767E-01 +9.00581319138E-01 -3.36187961144E-04 +2.41318105496E-04 -3.26210602326E-04 +2.37483618799E-04 -3.31401438624E-01 +8.83920597368E-01
1.37000000000E+09 -1.27628931680E-01 +9.00715249551E-01 -3.68537593049E-04 +3.26555608342E-04 -3.25351024428E-04 +2.98323895485E-04 -3.18609603223E-01 +8.86485686574E-01
1.37500000000E+09 -1.14416884218E-01 +9.00679318911E-01 -4.04422880725E-04 +4.59484793395E-04 -3.84981441996E-04 +3.28666897959E-04 -3.04812758251E-01 +8.88700623996E-01
1.38000000000E+09 -1.02048039759E-01 +9.00404225998E-01 -3.01838765567E-04 +5.41771824292E-04 -3.75299415117E-04 +5.42822490609E-04 -2.90184909927E-01 +8.90793862009E-01
1.38500000000E+09 -8.98103156428E-02 +8.99906136546E-01 -1.94440755003E-04 +5.64288910893E-04 -2.39852676066E-04 +5.45882878453E-04 -2.74698731291E-01 +8.92708827098E-01
1.39000000000E+09 -7.70174843649E-02 +8.98664038384E-01 -1.50115831024E-04 +5.35886897669E-04 -1.58052799887E-04 +6.04997631650E-04 -2.58769890115E-01 +8.94140862644E-01
1.39500000000E+09 -6.25786115185E-02 +8.96576608059E-01 -1.49331732481E-04 +5.17261318296E-04 -1.04368155882E-04 +5.71560664576E-04 -2.41746255490E-01 +8.94753885235E-01
1.40000000000E+09 -4.60338766467E-02 +8.93452197034E-01 -1.74424106457E-04 +6.24535485986E-04 -6.89899893020E-05 +6.14314596737E-04 -2.24312290414E-01 +8.95286132384E-01
1.40500000000E+09 -2.75441408302E-02 +8.89221847767E-01 -1.02827437094E-04 +6.10952161216E-04 -5.57454256884E-05 +5.87256364376E-04 -2.05591802599E-01 +8.95157497582E-01
1.41000000000E+09 -7.29154800534E-03 +8.83894354356E-01 -4.23215327281E-05 +7.37802938108E-04 -8.63127932144E-05 +7.15602589746E-04 -1.85494905027E-01 +8.94627223053E-01
1.41500000000E+09 +1.39397203661E-02 +8.77662825163E-01 +5.29356738341E-05 +7.08982721295E-04 +1.19159984718E-06 +7.05666836734E-04 -1.63803150939E-01 +8.93052335825E-01
1.42000000000E+09 +3.58983997444E-02 +8.70944273989E-01 -2.40118539401E-05 +6.93618092296E-04 +1.09154993316E-05 +7.30693394893E-04 -1.40892956114E-01 +8.90596636626E-01
1.42500000000E+09 +5.76296044556E-02 +8.63478981109E-01 +3.50188976220E-06 +8.37965143624E-04 +5.36858718798E-05 +9.52663861246E-04 -1.17118312853E-01 +8.86993741803E-01
1.43000000000E+09 +7.91328853766E-02 +8.55503823478E-01 +1.19482575196E-04 +1.02142815040E-03 +2.13476674647E-04 +1.07738489815E-03 -9.21897854914E-02 +8.82159965973E-01
1.43500000000E+09 +1.00936614374E-01 +8.46166081419E-01 +3.41348255082E-04 +1.07396499723E-03 +4.12274161694E-04 +1.08797301072E-03 -6.57545255420E-02 +8.75578337615E-01
1.44000000000E+09 +1.23045726971E-01 +8.35658123493E-01 +5.33853126507E-04 +9.73778368965E-04 +5.79552784027E-04 +9.61523305154E-04 -3.76434657724E-02 +8.66909337246E-01
1.44500000000E+09 +1.46765668508E-01 +8.22791827814E-01 +5.19225014675E-04 +9.09525350082E-04 +5.89571981202E-04 +8.98464929487E-04 -7.24515018943E-03 +8.55789307150E-01
1.45000000000E+09 +1.72405746520E-01 +8.06167749766E-01 +4.56114032710E-04 +1.12942745194E-03 +5.26476627188E-04 +1.11869876993E-03 +2.49136416693E-02 +8.41221157119E-01
1.45500000000E+09 +1.99921355255E-01 +7.85671885412E-01 +5.78060053005E-04 +1.44398969067E-03 +7.21330902903E-04 +1.40722410811E-03 +5.86326367658E-02 +8.23459724870E-01
1.46000000000E+09 +2.29668881884E-01 +7.60535693428E-01 +1.12586280315E-03 +1.72688731106E-03 +1.29906188792E-03 +1.56312305352E-03 +9.36755157025E-02 +8.01694523544E-01
1.46500000000E+09 +2.60933324182E-01 +7.30007734976E-01 +1.62429054601E-03 +1.66678390541E-03 +1.57048905410E-03 +1.45552183192E-03 +1.30453953445E-01 +7.74811139697E-01
1.47000000000E+09 +2.92722177563E-01 +6.94158926839E-01 +2.10023005228E-03 +1.67592101954E-03 +1.90542798292E-03 +1.54589111507E-03 +1.67993508612E-01 +7.40517724488E-01
1.47500000000E+09 +3.24046522701E-01 +6.51997991035E-01 +2.89375941801E-03 +1.57365043755E-03 +2.63233157070E-03 +1.63252869820E-03 +2.04912485813E-01 +6.98856276694E-01
1.48000000000E+09 +3.52768353650E-01 +6.03199094013E-01 +3.64825384912E-03 +1.20993038568E-03 +3.65516679604E-03 +1.29714792771E-03 +2.41487629793E-01 +6.49713390428E-01
1.48500000000E+09 +3.77394952197E-01 +5.48320040970E-01 +4.30367404705E-03 +5.76130991981E-04 +4.36945499709E-03 +5.04958350244E-04 +2.76558257882E-01 +5.90196106278E-01
1.49000000000E+09 +3.96616763965E-01 +4.85898185374E-01 +5.06408170141E-03 -2.58108706251E-04 +5.08163446652E-03 -4.76621687135E-04 +3.04767377188E-01 +5.19481960170E-01
1.49500000000E+09 +4.08129254251E-01 +4.15379133197E-01 +5.63988911533E-03 -1.59296505733E-03 +5.34573529314E-03 -1.72535657382E-03 +3.22879245554E-01 +4.38343380056E-01
1.50000000000E+09 +4.08956344986E-01 +3.36511594905E-01 +6.31098452141E-03 -2.80483473806E-03 +5.94183809905E-03 -2.64346586792E-03 +3.27373074039E-01 +3.48858806033E-01
1.50500000000E+09 +3.96924036580E-01 +2.50740617120E-01 +6.66324664008E-03 -5.90007934183E-03 +6.53659327086E-03 -5.41997469827E-03 +3.14972652818E-01 +2.51310143282E-01
1.51000000000E+09 +3.67995352449E-01 +1.58925087712E-01 +4.47558259441E-03 -9.07948942396E-03 +4.77477119428E-03 -8.74809367062E-03 +2.81313445393E-01 +1.50576221306E-01
1.51500000000E+09 +3.18224937490E-01 +6.76468447835E-02 +1.49207448398E-03 -1.03131173119E-02 +1.79117019752E-03 -1.03172328382E-02 +2.25483780171E-01 +5.44995067007E-02
1.52000000000E+09 +2.48340318715E-01 -1.46571590559E-02 -1.96491528456E-03 -1.08843116442E-02 -1.78468814227E-03 -1.10176332263E-02 +1.49208353358E-01 -3.08772187696E-02
1.52500000000E+09 +1.61443488852E-01 -8.39647458749E-02 -5.03161494195E-03 -9.27963378631E-03 -4.98201192864E-03 -9.42426785048E-03 +5.43216974750E-02 -9.92914115023E-02
1.53000000000E+09 +6.02221753340E-02 -1.32740313915E-01 -6.81620821530E-03 -8.52850171546E-03 -6.86681281969E-03 -8.64648912882E-03 -5.36068264019E-02 -1.44359460543E-01
1.53500000000E+09 -4.78044396560E-02 -1.58053900120E-01 -9.62519955665E-03 -6.58361000656E-03 -9.68452104986E-03 -6.62555051398E-03 -1.65323286358E-01 -1.63877852324E-01
1.54000000000E+09 -1.57538593814E-01 -1.59303803514E-01 -1.19615725488E-02 -3.58902442435E-03 -1.18321843792E-02 -3.60130047172E-03 -2.74907177287E-01 -1.59989779135E-01
1.54500000000E+09 -2.62676486702E-01 -1.37014362872E-01 -1.26235661408E-02 +1.40625834207E-03 -1.25226901547E-02 +1.06888815985E-03 -3.73338563090E-01 -1.35322894768E-01
1.55000000000E+09 -3.56213627576E-01 -9.46977454346E-02 -1.00611431420E-02 +4.97345792035E-03 -1.02759056228E-02 +4.53810319003E-03 -4.57874797924E-01 -9.74912873969E-02
1.55500000000E+09 -4.34033933629E-01 -3.91444292327E-02 -7.52318346097E-03 +6.76004303828E-03 -8.04592615657E-03 +6.59251006170E-03 -5.28717477345E-01 -5.03225660101E-02
1.56000000000E+09 -4.95212709413E-01 +2.08294831859E-02 -4.89041424251E-03 +7.94794018031E-03 -5.39437734207E-03 +8.15169031883E-03 -5.85467116947E-01 +3.28065982548E-03
1.56500000000E+09 -5.44233604399E-01 +8.19220288007E-02 -2.02279570760E-03 +7.68469245455E-03 -2.24960354462E-03 +8.14130909950E-03 -6.29615517098E-01 +5.83541976505E-02
1.57000000000E+09 -5.81460290191E-01 +1.41810127435E-01 -2.15886735570E-04 +6.54345559460E-03 -1.83912013543E-04 +6.95204783186E-03 -6.63062509959E-01 +1.13546166174E-01
