# Hz S RI R 50
! CMT, C1220, 16058040, 17.2.0/1
! Date: 14/08/2018 12:42:06
! Data: Format (Calibration Info)
! Freq                      S11: Re/Im (F2)                       S21: Re/Im (F2)                       S12: Re/Im (F2)                       S22: Re/Im (F2)            
1.00000000000E+09 -6.48117254694E-01 +7.13604342277E-01 +3.40029121801E-05 +3.27503660086E-05 -2.59112861094E-06 +8.59025663615E-06 -6.70405737984E-01 +5.41825709642E-01
1.00500000000E+09 -6.41295552417E-01 +7.18371159259E-01 -1.81849634218E-05 -4.59834453784E-05 +1.10219943519E-05 -2.65766122179E-05 -6.67321369142E-01 +5.45537539970E-01
1.01000000000E+09 -6.35246995595E-01 +7.22922871748E-01 -6.89483167702E-05 -5.08070857417E-05 +2.48440013552E-06 +1.97086940192E-05 -6.64470001845E-01 +5.48668735430E-01
1.01500000000E+09 -6.30763393508E-01 +7.26828553788E-01 -3.21528763191E-05 +1.16081743235E-05 -3.98846448668E-05 -2.28489716486E-05 -6.61886706947E-01 +5.51991795311E-01
1.02000000000E+09 -6.27189128773E-01 +7.30231511966E-01 +2.02083076924E-05 -2.69534540477E-06 -2.84394445006E-05 +2.19441557839E-05 -6.59169363489E-01 +5.54933265011E-01
1.02500000000E+09 -6.24618485363E-01 +7.33252246768E-01 -2.43786976287E-05 -1.09996435822E-05 -6.66440617909E-05 +2.27132471943E-05 -6.56918759235E-01 +5.58266202014E-01
1.03000000000E+09 -6.22648109660E-01 +7.35771006661E-01 -3.01525221958E-05 +2.84078281122E-05 -1.68551223372E-05 -3.17750340033E-05 -6.54184412572E-01 +5.61711729452E-01
1.03500000000E+09 -6.19999463764E-01 +7.38316410450E-01 +1.43174119997E-05 -1.71947276018E-06 +1.82864228445E-05 -6.58990729069E-06 -6.51181014723E-01 +5.65291061643E-01
1.04000000000E+09 -6.16372180973E-01 +7.41268048003E-01 -4.29499972213E-05 +3.66334527617E-05 +1.28115986139E-05 +1.05131622278E-05 -6.48068348502E-01 +5.68718217130E-01
1.04500000000E+09 -6.11485272885E-01 +7.44630061893E-01 +1.10902473111E-05 +2.12410424986E-05 -3.68293183562E-05 +1.25446850891E-05 -6.45221873821E-01 +5.71992461502E-01
1.05000000000E+09 -6.04918187979E-01 +7.48612441472E-01 +1.84816498114E-05 +3.99694488899E-05 -9.06687999551E-06 +3.84434285052E-05 -6.42553915546E-01 +5.75170498728E-01
1.05500000000E+09 -5.97393348640E-01 +7.52870210767E-01 -2.00427508010E-05 +7.41835823659E-05 +3.30337725028E-05 +1.75165048477E-05 -6.39958972044E-01 +5.78597838214E-01
1.06000000000E+09 -5.89407299211E-01 +7.57724021129E-01 +2.90129982904E-07 +5.88158016045E-05 +2.31977029183E-05 +5.65611141938E-06 -6.37206714480E-01 +5.82063314736E-01
1.06500000000E+09 -5.81475913636E-01 +7.62243702682E-01 +3.24244534582E-05 +5.26826109024E-05 +2.28824796828E-05 +1.80067814492E-05 -6.34007799866E-01 +5.85733951777E-01
1.07000000000E+09 -5.74445864153E-01 +7.66645835637E-01 +4.78162870607E-05 +1.21316203998E-05 +1.91194465003E-05 +1.79141549037E-05 -6.30574629257E-01 +5.89203014301E-01
1.07500000000E+09 -5.68624720198E-01 +7.70447916614E-01 +3.89362067782E-06 -2.68643107813E-05 -2.35665907035E-05 +3.11368131901E-05 -6.26942739186E-01 +5.92742201458E-01
1.08000000000E+09 -5.64239751977E-01 +7.73993132034E-01 -1.07880555314E-05 +5.05776532388E-05 -5.31067417585E-06 +4.53180482562E-05 -6.23762856635E-01 +5.96335739118E-01
1.08500000000E+09 -5.61011876930E-01 +7.76429142626E-01 +1.22994155330E-05 +5.36379566215E-05 +1.73816034941E-05 +3.16956444502E-05 -6.20691260161E-01 +5.99625589325E-01
1.09000000000E+09 -5.58402057939E-01 +7.78802774158E-01 +2.77321763644E-05 +1.63487097482E-05 +2.16048252149E-05 +1.26346940439E-05 -6.17700639610E-01 +6.03202752634E-01
1.09500000000E+09 -5.55990407083E-01 +7.80904235667E-01 +5.99830168312E-06 +1.60196754509E-05 +5.46447172655E-05 -3.05313567716E-06 -6.14558210142E-01 +6.06740155971E-01
1.10000000000E+09 -5.52744141088E-01 +7.83159073351E-01 +1.88644205074E-05 +4.37591984046E-05 +2.59525442425E-05 -5.22250314894E-06 -6.11381594751E-01 +6.10247615131E-01
1.10500000000E+09 -5.48508066810E-01 +7.85946206163E-01 +4.86014171277E-06 +1.96410664581E-05 +2.92420601547E-05 +2.32680210633E-05 -6.07868346555E-01 +6.13658722329E-01
1.11000000000E+09 -5.43037108300E-01 +7.89106522532E-01 -2.37525076771E-06 +1.85970034117E-05 +5.04809169606E-06 +3.21239429125E-05 -6.04451988352E-01 +6.16822273419E-01
1.11500000000E+09 -5.36396503912E-01 +7.92916196972E-01 +1.99866881082E-05 +2.50560670412E-05 -2.98439039599E-06 +3.96406258695E-06 -6.01112755913E-01 +6.20031038796E-01
1.12000000000E+09 -5.29084787826E-01 +7.96811244907E-01 +5.53216497938E-05 +3.04761483380E-05 +1.69817230501E-05 +2.87695234796E-05 -5.97896320111E-01 +6.23503550743E-01
1.12500000000E+09 -5.21625126350E-01 +8.00737543399E-01 +1.28972578107E-05 +1.72791486373E-05 +3.64988027759E-05 +2.49617845546E-05 -5.94363302326E-01 +6.27357849208E-01
1.13000000000E+09 -5.14793591222E-01 +8.04288255782E-01 +6.59229414192E-05 +4.41840506967E-05 +3.59813697016E-06 -5.37714487523E-06 -5.90761573144E-01 +6.31130299091E-01
1.13500000000E+09 -5.08392540368E-01 +8.07147383988E-01 +3.28225811762E-05 +2.18828914286E-05 +2.01758328039E-05 +2.07368382752E-05 -5.86833162821E-01 +6.34790050279E-01
1.14000000000E+09 -5.03168471376E-01 +8.09587576548E-01 +6.04136404933E-05 -5.68060307430E-06 +7.68625611283E-05 +3.88643811630E-05 -5.82838325503E-01 +6.38213172952E-01
1.14500000000E+09 -4.98600039157E-01 +8.11252103269E-01 +5.39007518325E-05 +5.62651553307E-06 +4.06105040409E-05 +4.30808442185E-06 -5.78758796747E-01 +6.41621827788E-01
1.15000000000E+09 -4.94755262329E-01 +8.12696447538E-01 +4.68782422674E-05 +5.71732372450E-05 +6.83988249869E-05 +6.99214845081E-05 -5.74824813634E-01 +6.45201100536E-01
1.15500000000E+09 -4.90784922980E-01 +8.14558386394E-01 +6.38488144683E-05 -1.30260488766E-05 +6.37564946008E-05 -1.46009367675E-05 -5.70796534611E-01 +6.48906459375E-01
1.16000000000E+09 -4.86129914939E-01 +8.16421077708E-01 +5.59144509402E-05 -5.26987176938E-06 +8.30778140156E-05 +2.23197371311E-05 -5.66786115650E-01 +6.52581572922E-01
1.16500000000E+09 -4.80637760377E-01 +8.19157808215E-01 +4.94551821776E-05 +1.39976946055E-05 +7.81783487570E-05 -9.25942240185E-06 -5.62637640185E-01 +6.56087362133E-01
1.17000000000E+09 -4.74174034003E-01 +8.22235964533E-01 +5.84689586236E-05 -6.90768325324E-05 +8.87658692368E-05 -6.45865112223E-05 -5.58126048880E-01 +6.59261861448E-01
1.17500000000E+09 -4.67073722629E-01 +8.25561516950E-01 +6.47611109512E-05 -2.73210509693E-05 +1.02864054782E-04 -3.52629447990E-05 -5.53296678857E-01 +6.62299458083E-01
1.18000000000E+09 -4.59448797066E-01 +8.29235435511E-01 +6.69719950466E-05 -3.70149519141E-05 +5.44830477221E-05 -3.08144058497E-05 -5.48674708891E-01 +6.65558388687E-01
1.18500000000E+09 -4.51846675398E-01 +8.32602723784E-01 +9.29951697639E-05 -3.15512757936E-05 +7.54634776092E-05 -6.98697802549E-06 -5.43572381126E-01 +6.68634600189E-01
1.19000000000E+09 -4.44892087469E-01 +8.35303468612E-01 +9.78679136482E-05 -5.33496752810E-05 +9.51914963794E-05 -9.41363971964E-05 -5.38287551574E-01 +6.71329522663E-01
1.19500000000E+09 -4.38594481065E-01 +8.37370837799E-01 +8.97312664026E-05 -6.18747813145E-05 +1.26299618686E-04 -1.18208797253E-04 -5.33221893664E-01 +6.72583836200E-01
1.20000000000E+09 -4.33165300251E-01 +8.38229756130E-01 +5.93665821753E-05 -1.46883049006E-04 +3.09406448318E-05 -1.43958105798E-04 -5.29089628870E-01 +6.73120436918E-01
1.20500000000E+09 -4.28118330477E-01 +8.39493776033E-01 -3.13279249562E-05 -2.15554699306E-04 -9.71161096509E-06 -1.60606385302E-04 -5.27103920823E-01 +6.73852677401E-01
1.21000000000E+09 -4.22942544434E-01 +8.40675863889E-01 -6.16795735061E-05 -9.33620667889E-05 -1.21550205172E-04 -7.52103540794E-05 -5.25589887226E-01 +6.76776575604E-01
1.21500000000E+09 -4.16650185269E-01 +8.42321810888E-01 -5.46954473271E-05 -7.99488595145E-05 -2.92371670286E-05 -4.74429148959E-05 -5.23271861672E-01 +6.80979313243E-01
1.22000000000E+09 -4.09240600730E-01 +8.44305689649E-01 -3.39259620719E-05 -4.84973104851E-05 -6.04977562315E-05 -8.07878698717E-05 -5.19981433243E-01 +6.86057789543E-01
1.22500000000E+09 -4.00863202687E-01 +8.47077864596E-01 +1.25655219839E-05 -4.16474042253E-05 -1.90027940928E-05 +4.11569130186E-06 -5.15664600029E-01 +6.91006569225E-01
1.23000000000E+09 -3.91447867913E-01 +8.50367869942E-01 -4.54741077791E-05 -5.29819532074E-05 +2.71353755794E-06 -7.10763472583E-05 -5.10908228011E-01 +6.95451068060E-01
1.23500000000E+09 -3.81958789835E-01 +8.53955329593E-01 +2.38302940921E-05 -6.75278514645E-05 -5.20296269434E-06 -5.81650946434E-05 -5.06055913688E-01 +6.99486926378E-01
1.24000000000E+09 -3.72868189591E-01 +8.57963929098E-01 -1.76436112192E-05 -6.96491616775E-05 -2.38005909275E-05 -1.31060535319E-04 -5.01084230072E-01 +7.03251022918E-01
1.24500000000E+09 -3.64295202444E-01 +8.62140617290E-01 -1.44659289211E-05 -8.19776580871E-05 -4.03059711034E-06 -1.07886889740E-04 -4.95869345682E-01 +7.06936065507E-01
1.25000000000E+09 -3.56608895876E-01 +8.65577691855E-01 -1.09634805053E-05 -1.27744319055E-04 -1.57257228315E-05 -7.28410528674E-05 -4.90499933626E-01 +7.11111468574E-01
1.25500000000E+09 -3.49494634955E-01 +8.68102036813E-01 -5.84114868716E-05 -1.05024317755E-04 -4.23567418513E-05 -1.57205955098E-04 -4.84833007229E-01 +7.15110214377E-01
1.26000000000E+09 -3.43051456458E-01 +8.69981271330E-01 -4.73044024963E-05 -1.18005994054E-04 -6.57091898390E-05 -9.89228152531E-05 -4.79170539869E-01 +7.19491829353E-01
1.26500000000E+09 -3.36815341795E-01 +8.70986055106E-01 -8.60394272625E-06 -1.27295076127E-04 -4.67609969995E-05 -1.30139168849E-04 -4.73391482046E-01 +7.23503033461E-01
1.27000000000E+09 -3.30302812895E-01 +8.71867831483E-01 -8.52182527309E-05 -1.39784217902E-04 -1.03587051097E-04 -1.47096326977E-04 -4.67591014223E-01 +7.27528946745E-01
1.27500000000E+09 -3.22564422337E-01 +8.72906348913E-01 -1.04580670945E-04 -1.35887009624E-04 -1.59553211153E-04 -1.35540596921E-04 -4.61518236940E-01 +7.31292442573E-01
1.28000000000E+09 -3.13241081795E-01 +8.74263124166E-01 -1.65091610101E-04 -1.32972272571E-04 -1.65423076571E-04 -1.47102534676E-04 -4.55325375855E-01 +7.35052383654E-01
1.28500000000E+09 -3.02407807261E-01 +8.76231548367E-01 -1.59025574012E-04 -9.10567230803E-05 -1.77443976616E-04 -1.30496210667E-04 -4.48855813463E-01 +7.39131613806E-01
1.29000000000E+09 -2.90960237788E-01 +8.78702355224E-01 -1.90822051269E-04 -4.64350020290E-05 -2.06541140124E-04 -6.33374007531E-05 -4.42237124068E-01 +7.42986426402E-01
1.29500000000E+09 -2.79424242950E-01 +8.81824307357E-01 -1.97031825476E-04 -6.70744669064E-05 -2.16247494768E-04 -2.51946248880E-05 -4.35387397427E-01 +7.46707229515E-01
1.30000000000E+09 -2.68291780476E-01 +8.85377147205E-01 -2.02579324445E-04 -7.72920401394E-05 -1.77628338668E-04 -1.97467021321E-05 -4.28441780347E-01 +7.50702534796E-01
1.30500000000E+09 -2.58180691962E-01 +8.88548674539E-01 -1.84515550667E-04 -6.77648261664E-05 -1.98162908209E-04 +1.24180425036E-06 -4.21473143880E-01 +7.54341979971E-01
1.31000000000E+09 -2.49263978291E-01 +8.91322614927E-01 -2.52026526302E-04 -2.56930031140E-05 -2.37177228494E-04 -3.97051316107E-05 -4.14229231920E-01 +7.57947315717E-01
1.31500000000E+09 -2.41813351470E-01 +8.92975702352E-01 -2.69292211541E-04 -2.71798975943E-05 -2.05379141201E-04 -7.42579599465E-05 -4.06436278079E-01 +7.61768793214E-01
1.32000000000E+09 -2.35432919577E-01 +8.93834691204E-01 -2.59629422302E-04 +1.62645259278E-05 -2.50561669298E-04 +4.06792623977E-05 -3.98477914801E-01 +7.65434686064E-01
1.32500000000E+09 -2.29080806626E-01 +8.93811629725E-01 -2.55590044891E-04 +3.02341837823E-05 -2.87995809451E-04 +8.61333150262E-05 -3.90169442002E-01 +7.68999179953E-01
1.33000000000E+09 -2.21716122360E-01 +8.93658566118E-01 -2.54241121151E-04 +9.28433819058E-05 -2.65567974698E-04 +1.03591530322E-04 -3.81811569610E-01 +7.72647289818E-01
1.33500000000E+09 -2.12614029595E-01 +8.93242957025E-01 -3.47684571407E-04 +8.28768445368E-05 -2.80071310771E-04 +1.19085107735E-04 -3.73148635694E-01 +7.76138676487E-01
1.34000000000E+09 -2.01222781255E-01 +8.93066762165E-01 -2.71829355316E-04 +1.50597850104E-04 -2.94286627031E-04 +1.34707307211E-04 -3.64269423683E-01 +7.79709851145E-01
1.34500000000E+09 -1.87495595078E-01 +8.93106255070E-01 -3.00002274041E-04 +2.18672109811E-04 -3.00572065049E-04 +1.51026652732E-04 -3.54672543649E-01 +7.83618928150E-01
1.35000000000E+09 -1.72207572608E-01 +8.93606707034E-01 -3.05765158909E-04 +2.53894148456E-04 -3.44111320734E-04 +2.26327562083E-04 -3.44796565936E-01 +7.87223328251E-01
1.35500000000E+09 -1.55889801835E-01 +8.94476340013E-01 -3.00441467784E-04 +2.63320082016E-04 -2.98924749477E-04 +2.56301488752E-04 -3.34245628239E-01 +7.90699434904E-01
1.36000000000E+09 -1.39622129131E-01 +8.95246126370E-01 -2.99978695053E-04 +3.46329523360E-04 -2.87235148256E-04 +3.00297542060E-04 -3.23612353188E-01 +7.94170528245E-01
1.36500000000E+09 -1.24024498133E-01 +8.96006105084E-01 -2.51778771662E-04 +4.39147976713E-04 -2.77784948595E-04 +3.44716650693E-04 -3.12841400156E-01 +7.97418042420E-01
1.37000000000E+09 -1.09958799263E-01 +8.95983352444E-01 -2.80774111812E-04 +4.57493736434E-04 -3.32932067566E-04 +4.21725586925E-04 -3.01318819768E-01 +8.00404039676E-01
1.37500000000E+09 -9.76635737753E-02 +8.95597569807E-01 -2.21029609475E-04 +5.15008264984E-04 -2.49756396454E-04 +4.75110781346E-04 -2.89096881569E-01 +8.03464110834E-01
1.38000000000E+09 -8.64080368248E-02 +8.94415132775E-01 -1.44574747031E-04 +5.49036926228E-04 -2.20303730065E-04 +5.30290675640E-04 -2.75930485672E-01 +8.06489722147E-01
1.38500000000E+09 -7.49248792881E-02 +8.92725312657E-01 -8.80507195321E-05 +6.05912016301E-04 -1.31654956448E-04 +6.46793743799E-04 -2.62007911525E-01 +8.09341983815E-01
1.39000000000E+09 -6.23392492801E-02 +8.90497653556E-01 -3.33645303177E-05 +6.07850360968E-04 -5.67297642362E-05 +6.87557077222E-04 -2.47556487933E-01 +8.12012265117E-01
1.39500000000E+09 -4.79926374310E-02 +8.87383026074E-01 -2.39084407458E-05 +6.06767252003E-04 +1.09875151575E-05 +6.71711377217E-04 -2.32533071698E-01 +8.14083939230E-01
1.40000000000E+09 -3.10001607361E-02 +8.83459847823E-01 -1.00830402104E-05 +6.90768622704E-04 +4.19129605101E-05 +7.01163701110E-04 -2.16560249529E-01 +8.15906359512E-01
1.40500000000E+09 -1.21405485971E-02 +8.79218752594E-01 +5.60928781190E-05 +8.69270670737E-04 +9.36645187161E-05 +8.39194237474E-04 -1.99633636419E-01 +8.17237247534E-01
1.41000000000E+09 +8.66325662795E-03 +8.74452310102E-01 +2.76559774687E-04 +9.84219467221E-04 +2.62009331661E-04 +9.00427489524E-04 -1.81159517850E-01 +8.18151514487E-01
1.41500000000E+09 +3.04714699210E-02 +8.69139312602E-01 +4.20241748410E-04 +9.90524478326E-04 +3.52657886074E-04 +1.02353349802E-03 -1.61322609346E-01 +8.18409415363E-01
1.42000000000E+09 +5.27180325068E-02 +8.63156277412E-01 +6.18335661706E-04 +9.58654440566E-04 +6.90534008318E-04 +1.00724904566E-03 -1.39893653799E-01 +8.18058962284E-01
1.42500000000E+09 +7.44731739651E-02 +8.55849969868E-01 +7.11052218562E-04 +8.76523477550E-04 +8.65007188969E-04 +9.60055154569E-04 -1.17501487231E-01 +8.16565415717E-01
1.43000000000E+09 +9.54165657070E-02 +8.47161741951E-01 +8.48734972856E-04 +9.49271894622E-04 +9.66256035601E-04 +9.66973998843E-04 -9.41889760103E-02 +8.14146102792E-01
1.43500000000E+09 +1.15762337927E-01 +8.36667964940E-01 +1.05280650093E-03 +9.99631821544E-04 +1.21283404640E-03 +9.43626066295E-04 -6.91994737530E-02 +8.10363227084E-01
1.44000000000E+09 +1.36465159608E-01 +8.24678891182E-01 +1.52846425334E-03 +9.00777538791E-04 +1.55978929074E-03 +8.11247668012E-04 -4.22779361868E-02 +8.04678513084E-01
1.44500000000E+09 +1.59275828787E-01 +8.09792776020E-01 +1.78286966047E-03 +6.51975298016E-04 +1.88358889472E-03 +5.43863103666E-04 -1.28834558999E-02 +7.96621765413E-01
1.45000000000E+09 +1.83775557881E-01 +7.91676150501E-01 +1.84206321805E-03 +3.76774244391E-04 +1.89386735561E-03 +2.74933517576E-04 +1.82636607306E-02 +7.85345623123E-01
1.45500000000E+09 +2.10546527164E-01 +7.69894190665E-01 +2.10149044009E-03 +2.91501682996E-04 +2.14085589456E-03 +8.48476876085E-05 +5.11218229100E-02 +7.71481194671E-01
1.46000000000E+09 +2.40439989546E-01 +7.44218744519E-01 +2.51923463546E-03 +6.71445876967E-05 +2.39335169473E-03 -2.06322096965E-04 +8.56054812812E-02 +7.53657096284E-01
1.46500000000E+09 +2.71675168431E-01 +7.14038734527E-01 +2.93250629974E-03 -4.09082639832E-04 +2.68566425104E-03 -5.65937051441E-04 +1.21757298119E-01 +7.31021251078E-01
1.47000000000E+09 +3.03832630203E-01 +6.79722604972E-01 +3.22536005239E-03 -1.27908586145E-03 +2.99595710923E-03 -1.20669984378E-03 +1.59274290717E-01 +7.01906492272E-01
1.47500000000E+09 +3.35599605210E-01 +6.39764419012E-01 +3.12886613870E-03 -2.35672703350E-03 +3.09901848923E-03 -2.05949780490E-03 +1.97492373048E-01 +6.65439826598E-01
1.48000000000E+09 +3.64856091601E-01 +5.93046883745E-01 +2.60118631378E-03 -3.10796237881E-03 +2.77142511618E-03 -3.06523388404E-03 +2.35562002325E-01 +6.20412955458E-01
1.48500000000E+09 +3.89003552294E-01 +5.39773126270E-01 +2.20996942873E-03 -3.61293129166E-03 +2.22980319295E-03 -3.71681274102E-03 +2.72080664361E-01 +5.66246123599E-01
1.49000000000E+09 +4.07449351447E-01 +4.78693681361E-01 +1.75187712787E-03 -4.48853893806E-03 +1.55841600938E-03 -4.56101238673E-03 +3.03445629116E-01 +5.00383301306E-01
1.49500000000E+09 +4.17925575820E-01 +4.09654465705E-01 +8.47465695469E-04 -5.48469191684E-03 +5.02228112148E-04 -5.26813580337E-03 +3.24279722325E-01 +4.24507483246E-01
1.50000000000E+09 +4.19498796657E-01 +3.31677845417E-01 -9.33057629827E-04 -6.16918985774E-03 -9.01722248539E-04 -5.82259770518E-03 +3.33883856282E-01 +3.39964352944E-01
1.50500000000E+09 +4.08177248649E-01 +2.43777194874E-01 -2.40647830427E-03 -6.00135519246E-03 -2.08541272275E-03 -5.84398838060E-03 +3.26945199502E-01 +2.46190608288E-01
1.51000000000E+09 +3.79714476833E-01 +1.50304506039E-01 -4.45233288588E-03 -5.54089299060E-03 -4.12326480773E-03 -5.73098595616E-03 +2.99299735939E-01 +1.48160383296E-01
1.51500000000E+09 +3.31332071659E-01 +5.66902533168E-02 -6.01755687634E-03 -4.72297804355E-03 -5.98285313588E-03 -4.87755185113E-03 +2.48790776289E-01 +5.43840672061E-02
1.52000000000E+09 +2.62646811017E-01 -2.84537774624E-02 -8.12727183588E-03 -2.60010046898E-03 -8.21959570729E-03 -2.69432161219E-03 +1.78448850313E-01 -2.97704617340E-02
1.52500000000E+09 +1.75935847358E-01 -9.97629097261E-02 -8.11812798334E-03 +7.26334113902E-04 -8.07863497447E-03 +7.04285558707E-04 +8.83578226512E-02 -9.57101908810E-02
1.53000000000E+09 +7.36401629311E-02 -1.49902892360E-01 -6.74549157094E-03 +2.31859889309E-03 -6.85245370383E-03 +2.26956865682E-03 -1.19402515167E-02 -1.38430540970E-01
1.53500000000E+09 -3.62644525156E-02 -1.74909906280E-01 -6.19062798888E-03 +4.08808851002E-03 -6.25223787118E-03 +4.12406168570E-03 -1.16175590288E-01 -1.57056562733E-01
1.54000000000E+09 -1.49749569538E-01 -1.73298492060E-01 -4.21659869007E-03 +5.10533164672E-03 -4.18080259215E-03 +5.07947376537E-03 -2.16046270920E-01 -1.53878972622E-01
1.54500000000E+09 -2.56862051789E-01 -1.47730235820E-01 -3.15068721216E-03 +5.63073804006E-03 -3.11895177608E-03 +5.54290368302E-03 -3.05693089714E-01 -1.33672306516E-01
1.55000000000E+09 -3.53199067307E-01 -1.01985895575E-01 -1.22401978367E-03 +6.42466287683E-03 -1.41056746104E-03 +6.32093500746E-03 -3.84006110349E-01 -1.00995497451E-01
1.55500000000E+09 -4.32343952342E-01 -4.42835993441E-02 +8.07226932957E-04 +5.53826279249E-03 +4.90117378995E-04 +5.61327447759E-03 -4.49070159654E-01 -5.90875208187E-02
1.56000000000E+09 -4.96044415575E-01 +1.65686740067E-02 +1.84164508403E-03 +4.44670432568E-03 +1.69857853900E-03 +4.82495851307E-03 -5.01285464102E-01 -1.15662123544E-02
1.56500000000E+09 -5.46685383045E-01 +7.86374425363E-02 +2.22752996530E-03 +3.31417064014E-03 +2.37407853736E-03 +3.61086820274E-03 -5.41526105717E-01 +3.76904078033E-02
1.57000000000E+09 -5.83765741364E-01 +1.39340115040E-01 +2.49771148796E-03 +2.69985029244E-03 +2.69137810215E-03 +2.79435424256E-03 -5.72464700721E-01 +8.57200575935E-02
