# Hz S RI R 50
! CMT, C1220, 16058040, 17.2.0/1
! Date: 14/08/2018 12:08:19
! Data: Format (Calibration Info)
! Freq                      S11: Re/Im (F2)                       S21: Re/Im (F2)                       S12: Re/Im (F2)                       S22: Re/Im (F2)            
1.00000000000E+09 -6.54701935733E-01 +7.09742020537E-01 -2.90484209405E-05 -1.53030503104E-06 +5.35611134285E-05 -1.39304831927E-05 -7.53584996402E-01 +6.25626166848E-01
1.00500000000E+09 -6.47798629737E-01 +7.14403210131E-01 +1.94089350154E-05 -2.46650881625E-06 -3.28548620648E-06 +1.63795697658E-05 -7.49896997703E-01 +6.29640441804E-01
1.01000000000E+09 -6.42129238491E-01 +7.18738837470E-01 -3.31408110376E-05 +4.68609207609E-06 -1.76287014701E-05 +1.61744600469E-05 -7.46275636916E-01 +6.33380197153E-01
1.01500000000E+09 -6.38056281406E-01 +7.22358322997E-01 +3.36967499457E-05 +1.28869946226E-05 -3.29488087198E-05 +1.45479175574E-05 -7.42880818151E-01 +6.37155587782E-01
1.02000000000E+09 -6.35144033996E-01 +7.25719345218E-01 -3.82993883112E-05 +5.04657408191E-05 -4.07975810884E-05 -1.23367878722E-05 -7.39427386560E-01 +6.40739846086E-01
1.02500000000E+09 -6.33104705001E-01 +7.28720817055E-01 +1.51191210136E-05 +1.94625516132E-05 -3.17048313942E-05 -1.57869047872E-05 -7.36700440479E-01 +6.44539483212E-01
1.03000000000E+09 -6.31739390547E-01 +7.31364290886E-01 -4.35832708894E-05 +5.45092680006E-05 -2.60776467235E-05 +3.05739399612E-05 -7.33098330615E-01 +6.48411426206E-01
1.03500000000E+09 -6.29527795827E-01 +7.34350929553E-01 -3.72265085992E-05 -1.04764302773E-05 -4.78670132578E-06 +2.00421253196E-05 -7.29290320388E-01 +6.52239183243E-01
1.04000000000E+09 -6.26182783517E-01 +7.37356816965E-01 +2.54998130840E-05 +7.10560405903E-05 -5.56571389864E-05 -1.62629508314E-05 -7.25385017414E-01 +6.55952887587E-01
1.04500000000E+09 -6.21452584973E-01 +7.41052571421E-01 -2.06725085418E-05 +4.36289070867E-05 -4.68964343407E-05 +2.87693730560E-05 -7.22103186237E-01 +6.59542366179E-01
1.05000000000E+09 -6.14787751730E-01 +7.44901433981E-01 +2.81945007885E-06 +2.23760042319E-05 -4.05178128712E-05 -4.03750065762E-06 -7.18534710785E-01 +6.62901561428E-01
1.05500000000E+09 -6.07126112346E-01 +7.49128333737E-01 -2.74198139074E-05 +1.27611486928E-05 -1.51661255233E-05 +5.21902382524E-05 -7.15180588864E-01 +6.66531438021E-01
1.06000000000E+09 -5.98807117740E-01 +7.53560151264E-01 -3.02977181649E-05 +3.19948358440E-05 -2.83897111764E-05 -5.78271732679E-06 -7.12066314745E-01 +6.70257072289E-01
1.06500000000E+09 -5.90934225582E-01 +7.58040790972E-01 +1.53542959721E-05 +4.29114709832E-05 -1.04812733596E-05 +5.68379279461E-05 -7.08227157793E-01 +6.73957428639E-01
1.07000000000E+09 -5.84215650848E-01 +7.61871868362E-01 +4.86605249766E-05 +9.93109917382E-05 -3.30705658624E-05 -2.48042917738E-05 -7.04274153762E-01 +6.77721138508E-01
1.07500000000E+09 -5.78604850911E-01 +7.65505548305E-01 +6.12605748364E-06 +4.96401222598E-05 -2.32344788796E-05 +3.86776073384E-05 -6.99799481632E-01 +6.81388961565E-01
1.08000000000E+09 -5.74916305167E-01 +7.68964062397E-01 +1.39314042157E-05 +5.80478775162E-05 +7.78961746569E-06 +7.12666898558E-05 -6.95810897222E-01 +6.85227381554E-01
1.08500000000E+09 -5.72184617080E-01 +7.71771493461E-01 +1.67459607854E-05 +3.11301289984E-05 +5.88951174489E-05 -3.87159221415E-06 -6.91875019499E-01 +6.88974111896E-01
1.09000000000E+09 -5.69881193524E-01 +7.74588274873E-01 +2.47887765806E-05 +1.84165789405E-06 +2.09194373905E-05 +4.18966209080E-05 -6.88055034009E-01 +6.93026049819E-01
1.09500000000E+09 -5.67714541080E-01 +7.77133075669E-01 -8.49761461625E-06 -9.18211767566E-06 +6.24187124679E-05 +2.48490752560E-05 -6.84149838947E-01 +6.96688058884E-01
1.10000000000E+09 -5.64311636470E-01 +7.79745037218E-01 -1.30389680932E-05 +5.16667432313E-05 +4.91564880283E-05 -1.76816346662E-05 -6.80281545357E-01 +7.00670081868E-01
1.10500000000E+09 -5.59840489192E-01 +7.82711792788E-01 +2.58583048764E-05 +4.75542069799E-05 +3.45296305835E-05 -9.38439731376E-08 -6.75858495046E-01 +7.04201062237E-01
1.11000000000E+09 -5.53900100366E-01 +7.86086800375E-01 +6.03432222122E-05 +6.58584122771E-05 +1.62472914006E-05 +2.42024889729E-05 -6.71765276775E-01 +7.07402377371E-01
1.11500000000E+09 -5.46916244847E-01 +7.89571865335E-01 -9.15732949686E-06 +1.73743435633E-05 -2.48561682039E-05 -1.54501812961E-06 -6.67538938714E-01 +7.10897916066E-01
1.12000000000E+09 -5.39298820806E-01 +7.93161614745E-01 +4.02763995393E-05 -2.13021437694E-05 +2.41147590066E-05 +2.84726552886E-05 -6.63611231736E-01 +7.14725058272E-01
1.12500000000E+09 -5.31719852094E-01 +7.96775846702E-01 +2.48676139678E-05 +8.33497132590E-05 +6.23298250051E-05 +4.00930609365E-05 -6.59267120027E-01 +7.18636567218E-01
1.13000000000E+09 -5.24963414756E-01 +8.00369140264E-01 +3.72319422964E-05 +2.89091131391E-05 +3.90744965771E-05 -1.15645089675E-06 -6.55004838941E-01 +7.22278053746E-01
1.13500000000E+09 -5.19317342320E-01 +8.03402645436E-01 +8.51612956124E-05 +5.11941138232E-05 +2.04552069244E-05 +4.11432252852E-05 -6.50579975553E-01 +7.26254435334E-01
1.14000000000E+09 -5.14605687309E-01 +8.06172134235E-01 +3.86363680914E-05 +8.69604306162E-05 +4.31225052778E-05 +1.89627398261E-05 -6.45761533060E-01 +7.29591642095E-01
1.14500000000E+09 -5.10964468662E-01 +8.08601745179E-01 +2.44614016753E-05 +7.96039325398E-05 +4.64473133325E-05 +2.66492253870E-05 -6.41153713283E-01 +7.32998655881E-01
1.15000000000E+09 -5.07676821449E-01 +8.10863700421E-01 +4.76659803047E-05 +8.56040808153E-05 +1.12975204374E-04 +5.14240804678E-05 -6.36402469306E-01 +7.36836340828E-01
1.15500000000E+09 -5.04039666944E-01 +8.13394026853E-01 +4.65124417165E-05 +1.18575580314E-05 +8.21251643498E-05 +3.59505312015E-05 -6.31587316055E-01 +7.40637654528E-01
1.16000000000E+09 -4.99493703902E-01 +8.15648710978E-01 +6.96831970385E-05 +7.14604435670E-06 +5.17648765554E-05 +6.49945142785E-05 -6.26795003438E-01 +7.44538372557E-01
1.16500000000E+09 -4.93712222218E-01 +8.18570771082E-01 +6.83471414026E-05 +2.19460624293E-05 +4.24213269354E-05 +4.19965401487E-05 -6.21738611917E-01 +7.48067719421E-01
1.17000000000E+09 -4.87018967418E-01 +8.21611558341E-01 +1.07789489292E-04 +5.60544632145E-06 +1.15371963955E-04 +5.44222506478E-05 -6.16257084430E-01 +7.51440478593E-01
1.17500000000E+09 -4.79239219494E-01 +8.24616161417E-01 +1.04354434407E-04 -2.48204596966E-05 +9.45760252327E-05 +1.66082876652E-05 -6.10540696527E-01 +7.54686613524E-01
1.18000000000E+09 -4.71364066094E-01 +8.27948629048E-01 +9.10400381210E-05 +3.31064088621E-05 +6.16275879621E-05 +4.33100735346E-05 -6.04956715921E-01 +7.57774627029E-01
1.18500000000E+09 -4.63521800650E-01 +8.30686354919E-01 +1.41619665872E-04 +2.30536616399E-05 +1.63077193358E-04 +9.93361875228E-06 -5.99041645272E-01 +7.60703055463E-01
1.19000000000E+09 -4.56462449181E-01 +8.33320438406E-01 +1.17936014458E-04 -1.14133302068E-05 +1.38052214105E-04 +1.68159088707E-05 -5.92918573657E-01 +7.63511500762E-01
1.19500000000E+09 -4.50485841577E-01 +8.35407157490E-01 +1.90583048903E-04 +2.63792726992E-05 +1.50882288146E-04 -6.51947213044E-05 -5.86917966645E-01 +7.64745346903E-01
1.20000000000E+09 -4.45667647017E-01 +8.36710412263E-01 +1.64968199591E-04 -1.09362609573E-04 +1.17481896264E-04 -8.27786651600E-05 -5.82360381399E-01 +7.64948991129E-01
1.20500000000E+09 -4.41623219170E-01 +8.38695013350E-01 +1.32045048865E-04 -1.57078728272E-04 +1.04844313602E-04 -1.25491500030E-04 -5.80057820424E-01 +7.65696009372E-01
1.21000000000E+09 -4.37499090443E-01 +8.40636794238E-01 +8.91906571374E-05 -1.52235695636E-04 +6.68580838568E-05 -8.89003611565E-05 -5.78322127878E-01 +7.68746586276E-01
1.21500000000E+09 -4.32267338474E-01 +8.43011589093E-01 +9.60958863201E-05 -1.42565478052E-04 +1.16871500369E-04 -1.52005359405E-04 -5.75524560526E-01 +7.73218204321E-01
1.22000000000E+09 -4.25663311495E-01 +8.45366356004E-01 +5.96256233568E-05 -1.26402038535E-04 +9.45735835736E-05 -9.33936089185E-05 -5.71389276312E-01 +7.78507780003E-01
1.22500000000E+09 -4.17523202328E-01 +8.48240238923E-01 +5.80904486254E-05 -1.47058083319E-04 +9.85750805618E-05 -1.42709651548E-04 -5.66246069729E-01 +7.83869811694E-01
1.23000000000E+09 -4.08181523441E-01 +8.51277713528E-01 +7.55765160736E-05 -8.49057544583E-05 +7.69678940542E-05 -7.75864043941E-05 -5.60409667572E-01 +7.88457171634E-01
1.23500000000E+09 -3.98286496156E-01 +8.54547464082E-01 +1.13091434927E-04 -1.17580708001E-04 +1.07567785905E-04 -1.64754399290E-04 -5.54625996579E-01 +7.92735353660E-01
1.24000000000E+09 -3.88234799772E-01 +8.57905503444E-01 +9.43401706464E-05 -1.24332369201E-04 +4.47739963923E-05 -1.34339086429E-04 -5.48558699560E-01 +7.96572087163E-01
1.24500000000E+09 -3.78673356888E-01 +8.61413811131E-01 +9.05116514884E-05 -1.93500604445E-04 +1.16108141757E-04 -2.11239599804E-04 -5.42313914561E-01 +8.00487428710E-01
1.25000000000E+09 -3.70212511932E-01 +8.64557441187E-01 +3.58175706684E-05 -2.72045096602E-04 +4.58954374517E-05 -2.13085842727E-04 -5.35606782767E-01 +8.04841643054E-01
1.25500000000E+09 -3.62972003948E-01 +8.67101646947E-01 -1.06254562502E-05 -2.37379296325E-04 +6.38212643844E-05 -2.59734730644E-04 -5.28794040015E-01 +8.08729704416E-01
1.26000000000E+09 -3.56753835447E-01 +8.69587826360E-01 -2.31955623162E-05 -2.43614020312E-04 -3.61988507512E-05 -2.47177711655E-04 -5.22106117563E-01 +8.13060643347E-01
1.26500000000E+09 -3.51297400018E-01 +8.71859513880E-01 -7.26529251991E-05 -2.33980208784E-04 -4.31192607002E-05 -2.33578287393E-04 -5.15104832638E-01 +8.16951363023E-01
1.27000000000E+09 -3.45563568552E-01 +8.73954068561E-01 -8.10910290595E-05 -2.73425106451E-04 -9.37467190921E-05 -2.19586333195E-04 -5.08303724083E-01 +8.20774060169E-01
1.27500000000E+09 -3.38961502560E-01 +8.76219911636E-01 -1.11154158148E-04 -2.57092672677E-04 -1.23146417927E-04 -2.55254009521E-04 -5.01224609680E-01 +8.24342072191E-01
1.28000000000E+09 -3.31055785935E-01 +8.78527035333E-01 -1.32141120449E-04 -2.44487567612E-04 -1.76657680682E-04 -2.49270907155E-04 -4.94314124772E-01 +8.27930248178E-01
1.28500000000E+09 -3.21404454677E-01 +8.81040163847E-01 -2.01506433637E-04 -2.37810322047E-04 -1.93994567280E-04 -2.58234810303E-04 -4.86874173163E-01 +8.31583946339E-01
1.29000000000E+09 -3.10530784245E-01 +8.83486490921E-01 -2.56804184751E-04 -2.04556214808E-04 -2.62088647516E-04 -2.15612817193E-04 -4.79309430097E-01 +8.35375224126E-01
1.29500000000E+09 -2.99101093412E-01 +8.86189238034E-01 -2.36032011096E-04 -1.92447024458E-04 -2.61095199020E-04 -1.72055555917E-04 -4.71459754828E-01 +8.38882717361E-01
1.30000000000E+09 -2.87558032465E-01 +8.88888302753E-01 -2.88428118368E-04 -1.79334091248E-04 -3.59616284598E-04 -1.65488446616E-04 -4.63508374975E-01 +8.42537255202E-01
1.30500000000E+09 -2.77041289648E-01 +8.91397262464E-01 -3.74769529215E-04 -1.55282286884E-04 -3.41608329768E-04 -1.26561431036E-04 -4.55345597483E-01 +8.45914765159E-01
1.31000000000E+09 -2.67585375316E-01 +8.93340411160E-01 -4.04642762948E-04 -6.31961767892E-05 -3.08319694008E-04 -8.99562757841E-05 -4.47030684135E-01 +8.49339984634E-01
1.31500000000E+09 -2.59609685709E-01 +8.95382275175E-01 -3.74394560299E-04 +7.79824982143E-07 -3.99750583050E-04 -2.65541733508E-05 -4.38194869194E-01 +8.52790248041E-01
1.32000000000E+09 -2.52763091897E-01 +8.96995599468E-01 -3.44207525108E-04 -1.94483290290E-05 -3.23235097128E-04 -7.83638138941E-06 -4.29022232137E-01 +8.56127937754E-01
1.32500000000E+09 -2.46210915806E-01 +8.98201948403E-01 -3.36260727916E-04 +1.72397225817E-05 -4.19806407743E-04 -6.21706362030E-06 -4.19366888733E-01 +8.59736776920E-01
1.33000000000E+09 -2.38894564021E-01 +8.99388906765E-01 -3.52428349857E-04 +4.58005131708E-05 -4.43808556347E-04 +6.52881590065E-05 -4.09721760850E-01 +8.63154808809E-01
1.33500000000E+09 -2.30164535817E-01 +9.00066215053E-01 -4.40108465195E-04 +4.36306149453E-05 -3.86720949524E-04 +1.04816309361E-04 -3.99757987513E-01 +8.66279471853E-01
1.34000000000E+09 -2.19111773610E-01 +9.00681826203E-01 -4.53514682613E-04 +1.31303542866E-04 -4.22455970955E-04 +1.33663454271E-04 -3.89502608768E-01 +8.69642215021E-01
1.34500000000E+09 -2.06005877921E-01 +9.01057505802E-01 -3.75418300063E-04 +1.88029754519E-04 -3.59282551142E-04 +1.74900850201E-04 -3.78514583775E-01 +8.73090825834E-01
1.35000000000E+09 -1.90941938141E-01 +9.01134608844E-01 -4.13739399968E-04 +2.20962372694E-04 -3.27929840817E-04 +2.30685590597E-04 -3.67295188709E-01 +8.76106517944E-01
1.35500000000E+09 -1.75081709345E-01 +9.01125936720E-01 -3.59587121101E-04 +2.77183380974E-04 -3.60860473618E-04 +2.37522271120E-04 -3.55678407754E-01 +8.78993715529E-01
1.36000000000E+09 -1.58795187328E-01 +9.00970245227E-01 -3.75050743939E-04 +3.05225158179E-04 -3.06551923520E-04 +2.22699958056E-04 -3.43663430646E-01 +8.81736843027E-01
1.36500000000E+09 -1.43004775402E-01 +9.01288259746E-01 -3.70543440886E-04 +2.94167664715E-04 -3.33005175122E-04 +2.49777386730E-04 -3.31491150288E-01 +8.84193028160E-01
1.37000000000E+09 -1.28392504636E-01 +9.01380286935E-01 -3.78567513038E-04 +3.57660571874E-04 -3.13392665292E-04 +2.92700218292E-04 -3.18486311525E-01 +8.86592739453E-01
1.37500000000E+09 -1.14949284229E-01 +9.01436264651E-01 -4.25271043545E-04 +4.30210044183E-04 -4.38248279714E-04 +3.17303940357E-04 -3.04672801488E-01 +8.88813758001E-01
1.38000000000E+09 -1.02595828702E-01 +9.01092897919E-01 -3.43041938291E-04 +5.43587976249E-04 -4.72606979064E-04 +5.47302486359E-04 -2.90167219111E-01 +8.90803061545E-01
1.38500000000E+09 -9.01586795082E-02 +9.00605806488E-01 -2.70948462122E-04 +5.71446975575E-04 -3.27237623329E-04 +6.41932765881E-04 -2.74529202885E-01 +8.92690688822E-01
1.39000000000E+09 -7.73603184594E-02 +8.99245655329E-01 -2.15945089156E-04 +5.70780853187E-04 -2.32073037565E-04 +6.60105982571E-04 -2.58638471114E-01 +8.94143623242E-01
1.39500000000E+09 -6.28336863951E-02 +8.97362214890E-01 -1.93264617574E-04 +5.90134089823E-04 -1.93516045434E-04 +7.09507014482E-04 -2.41547541025E-01 +8.94817465009E-01
1.40000000000E+09 -4.61992046246E-02 +8.94188901855E-01 -1.56547787313E-04 +6.84224064419E-04 -9.99110276068E-05 +7.18168085941E-04 -2.24096754015E-01 +8.95211662214E-01
1.40500000000E+09 -2.76467091794E-02 +8.89912791470E-01 -1.84454461187E-04 +6.81991691327E-04 -8.99917626330E-05 +6.93196812263E-04 -2.05296544590E-01 +8.95093412798E-01
1.41000000000E+09 -7.36608812988E-03 +8.84534449510E-01 -1.01866681534E-04 +8.76666500916E-04 -1.33762507176E-04 +7.92088758597E-04 -1.85073870478E-01 +8.94445229591E-01
1.41500000000E+09 +1.38207572094E-02 +8.78275003427E-01 +3.46279080273E-05 +8.40915648136E-04 +8.39809163196E-06 +8.72414372360E-04 -1.63384644389E-01 +8.92937243616E-01
1.42000000000E+09 +3.56804061457E-02 +8.71589847215E-01 +8.48384450551E-06 +8.87460808158E-04 +3.53797048828E-05 +9.71778707128E-04 -1.40361630528E-01 +8.90280053242E-01
1.42500000000E+09 +5.74588816150E-02 +8.64148185007E-01 +1.87677377318E-05 +1.00978752096E-03 +7.53427333501E-05 +1.13289449236E-03 -1.16636743570E-01 +8.86601945970E-01
1.43000000000E+09 +7.90696369089E-02 +8.56089904915E-01 +1.88026105144E-04 +1.23996667360E-03 +3.24091244772E-04 +1.36271789671E-03 -9.15981085548E-02 +8.81724454771E-01
1.43500000000E+09 +1.00797338967E-01 +8.46830536081E-01 +5.22655269006E-04 +1.26574744072E-03 +7.10312060519E-04 +1.29437860200E-03 -6.51578185993E-02 +8.74948324060E-01
1.44000000000E+09 +1.22876002962E-01 +8.36190560870E-01 +6.99298208773E-04 +1.15743946632E-03 +8.16582109658E-04 +1.08294344386E-03 -3.68499709737E-02 +8.66251028105E-01
1.44500000000E+09 +1.46716229093E-01 +8.23174383256E-01 +7.13292411695E-04 +1.00661226367E-03 +8.01337412039E-04 +9.78149106832E-04 -6.37918812017E-03 +8.54760446676E-01
1.45000000000E+09 +1.72468828811E-01 +8.06467520672E-01 +5.86862220085E-04 +1.25560019786E-03 +6.69758752002E-04 +1.21849366160E-03 +2.55867128151E-02 +8.39640296262E-01
1.45500000000E+09 +1.99841981241E-01 +7.85739445967E-01 +7.76547694608E-04 +1.63816684363E-03 +9.65495330580E-04 +1.57201226308E-03 +5.89957133065E-02 +8.21578289195E-01
1.46000000000E+09 +2.29593014447E-01 +7.60252022972E-01 +1.49270866532E-03 +1.97457689468E-03 +1.58737401252E-03 +1.78871952734E-03 +9.38409421178E-02 +7.99502036698E-01
1.46500000000E+09 +2.60636893383E-01 +7.29596852864E-01 +2.13399265802E-03 +1.89040517089E-03 +2.06396463267E-03 +1.57647675747E-03 +1.29981159340E-01 +7.72100461497E-01
1.47000000000E+09 +2.92290552871E-01 +6.93564707434E-01 +2.77836316767E-03 +1.70583340703E-03 +2.51668237808E-03 +1.53153628065E-03 +1.66656495487E-01 +7.37598188333E-01
1.47500000000E+09 +3.23433234805E-01 +6.51262092453E-01 +3.44074560654E-03 +1.40208844931E-03 +3.25640678229E-03 +1.42026558776E-03 +2.02764271068E-01 +6.96182330694E-01
1.48000000000E+09 +3.51951967807E-01 +6.02227203234E-01 +4.15639628428E-03 +8.49034722196E-04 +4.15392160622E-03 +9.49359832474E-04 +2.38588849701E-01 +6.47149813472E-01
1.48500000000E+09 +3.76066853235E-01 +5.46978820576E-01 +4.74206360627E-03 +2.34189541754E-04 +4.88517208983E-03 +1.39812771074E-04 +2.72624965707E-01 +5.88042961520E-01
1.49000000000E+09 +3.94829938789E-01 +4.84519327159E-01 +5.76711321164E-03 -7.06199365678E-04 +5.70974322615E-03 -9.67949245385E-04 +2.99849194986E-01 +5.18150489205E-01
1.49500000000E+09 +4.05974658626E-01 +4.14152509577E-01 +6.29129198909E-03 -2.42694490344E-03 +5.89718223581E-03 -2.56154696340E-03 +3.16765424628E-01 +4.38728583008E-01
1.50000000000E+09 +4.06297781093E-01 +3.35306416868E-01 +6.78591579734E-03 -3.97420761244E-03 +6.42725921086E-03 -3.77123313292E-03 +3.21499381982E-01 +3.51080981345E-01
1.50500000000E+09 +3.93711985659E-01 +2.49889723200E-01 +6.71755851212E-03 -7.39778107266E-03 +6.68745797898E-03 -6.90038944241E-03 +3.09615053434E-01 +2.55476237591E-01
1.51000000000E+09 +3.64071078075E-01 +1.58728952052E-01 +3.72297474224E-03 -1.07552280152E-02 +4.13893337771E-03 -1.04493512334E-02 +2.77427949693E-01 +1.56610278509E-01
1.51500000000E+09 +3.14101997282E-01 +6.84552622839E-02 +2.10583884207E-04 -1.14306741512E-02 +4.72688640809E-04 -1.14849821238E-02 +2.23967661850E-01 +6.13619851988E-02
1.52000000000E+09 +2.44215145367E-01 -1.27904403388E-02 -3.43188172503E-03 -1.16167662297E-02 -3.33917003215E-03 -1.18105422954E-02 +1.49470273057E-01 -2.44218269873E-02
1.52500000000E+09 +1.57836593545E-01 -8.07663584471E-02 -6.62670159552E-03 -9.54612832883E-03 -6.61185922331E-03 -9.73808189376E-03 +5.61778951998E-02 -9.30069100042E-02
1.53000000000E+09 +5.75788665869E-02 -1.28734531872E-01 -8.55083835622E-03 -8.36188487758E-03 -8.58738619501E-03 -8.43560224009E-03 -4.99802764774E-02 -1.39162284076E-01
1.53500000000E+09 -4.93455290024E-02 -1.53517145263E-01 -1.13172942775E-02 -6.04452815892E-03 -1.13581128446E-02 -6.07735324741E-03 -1.60966165950E-01 -1.60069255777E-01
1.54000000000E+09 -1.58058700155E-01 -1.54755303874E-01 -1.36476878661E-02 -2.26372903565E-03 -1.35303769786E-02 -2.29138462715E-03 -2.69630403240E-01 -1.57297228450E-01
1.54500000000E+09 -2.62046310152E-01 -1.32530086751E-01 -1.33967954606E-02 +3.21925379965E-03 -1.33401759099E-02 +2.97094708359E-03 -3.67904316297E-01 -1.34619888854E-01
1.55000000000E+09 -3.54601077367E-01 -9.07301932269E-02 -1.02075553748E-02 +6.82178796879E-03 -1.04630933322E-02 +6.39409317768E-03 -4.53384654725E-01 -9.78461829238E-02
1.55500000000E+09 -4.31691528676E-01 -3.62088819005E-02 -6.98969332979E-03 +8.41887205232E-03 -7.54708657450E-03 +8.33298525506E-03 -5.24601671430E-01 -5.11668130877E-02
1.56000000000E+09 -4.92902741274E-01 +2.27488296546E-02 -3.90532827172E-03 +9.08390550110E-03 -4.42791932491E-03 +9.35820513030E-03 -5.81858192168E-01 +1.86330680757E-03
1.56500000000E+09 -5.41960924402E-01 +8.33014838645E-02 -1.10460444279E-03 +8.30643441124E-03 -1.28401367839E-03 +8.86249564411E-03 -6.26522156623E-01 +5.67415208429E-02
1.57000000000E+09 -5.79180910404E-01 +1.42730986889E-01 +7.48066048192E-04 +6.94749755575E-03 +9.05904826926E-04 +7.41761348840E-03 -6.59980008312E-01 +1.11455036885E-01
