# Hz S RI R 50
! CMT, C1220, 16058040, 17.2.0/1
! Date: 14/08/2018 12:24:54
! Data: Format (Calibration Info)
! Freq                      S11: Re/Im (F2)                       S21: Re/Im (F2)                       S12: Re/Im (F2)                       S22: Re/Im (F2)            
1.00000000000E+09 -6.46370239565E-01 +7.15152363787E-01 -1.95434003735E-06 -4.42457974596E-06 -3.52580555113E-05 -2.41523929019E-05 -7.47674886652E-01 +6.24243086396E-01
1.00500000000E+09 -6.39198757451E-01 +7.20129600463E-01 +3.19073034586E-05 +5.82662044369E-06 -1.03112482469E-06 -1.90300968284E-05 -7.44175894889E-01 +6.28335295236E-01
1.01000000000E+09 -6.33335238901E-01 +7.24690325751E-01 -3.93074150913E-06 +5.01104495892E-05 -1.61060947463E-05 +1.04590705281E-07 -7.40631172553E-01 +6.31940952714E-01
1.01500000000E+09 -6.29216659039E-01 +7.28544607818E-01 +1.83029715241E-05 -2.77327584267E-05 +1.12100072756E-05 -4.00397579568E-05 -7.37301646073E-01 +6.35587757650E-01
1.02000000000E+09 -6.26734344409E-01 +7.31508166297E-01 +3.84402224345E-06 +1.83394316795E-05 -6.35177984546E-05 -7.76231636017E-06 -7.33863232619E-01 +6.39222563758E-01
1.02500000000E+09 -6.25272919458E-01 +7.34076428537E-01 +6.37515453306E-06 -1.94592976315E-05 +3.23229494866E-05 -1.34635866078E-05 -7.30871388314E-01 +6.42903755996E-01
1.03000000000E+09 -6.24253859014E-01 +7.36384289657E-01 -2.06310787289E-07 -1.92765903063E-05 +3.56989315018E-05 -3.65333820790E-05 -7.27539256443E-01 +6.46584351880E-01
1.03500000000E+09 -6.22347545960E-01 +7.38627049698E-01 +4.18725772662E-06 -2.22865074759E-05 +2.50403251931E-05 +6.13538471205E-05 -7.23641908650E-01 +6.50598100879E-01
1.04000000000E+09 -6.18794629385E-01 +7.41501550330E-01 -1.68147225917E-05 +1.14568168261E-05 +3.36394134395E-05 +6.10461502864E-05 -7.19949277713E-01 +6.54199477125E-01
1.04500000000E+09 -6.13773666810E-01 +7.44745811598E-01 -3.18265924478E-05 -3.00934300990E-05 +2.83605688682E-05 +3.77291671946E-05 -7.16401398132E-01 +6.57724540984E-01
1.05000000000E+09 -6.06572533960E-01 +7.48928335862E-01 +4.18398577696E-05 +2.42765667765E-05 -9.26937453076E-06 +2.95890912242E-06 -7.12840885132E-01 +6.61022041139E-01
1.05500000000E+09 -5.97945373340E-01 +7.53491961067E-01 +1.45011247024E-06 -1.25999799187E-05 +3.82987708778E-05 +6.71622704595E-06 -7.09812664924E-01 +6.64613258154E-01
1.06000000000E+09 -5.88637264048E-01 +7.58638852430E-01 -6.66403154344E-06 +3.56131792705E-05 +3.05500537159E-05 +1.70936525640E-05 -7.06424783547E-01 +6.68415175201E-01
1.06500000000E+09 -5.79676918354E-01 +7.63680158541E-01 +1.47782425984E-05 -1.02406343286E-05 +3.00003164138E-05 +5.02920473629E-05 -7.02662021453E-01 +6.72177401761E-01
1.07000000000E+09 -5.71789546222E-01 +7.68201282370E-01 +1.32545784581E-05 +1.97422221888E-05 +2.87382670901E-05 +5.05155753286E-05 -6.98491374165E-01 +6.75797518941E-01
1.07500000000E+09 -5.65557581760E-01 +7.72012744845E-01 +1.17718764097E-05 +1.33435782467E-06 +4.45815349945E-05 +2.85092379232E-05 -6.94126719335E-01 +6.79494134343E-01
1.08000000000E+09 -5.61257602779E-01 +7.75290854310E-01 +4.66112562724E-05 +5.26108813920E-05 +3.11648547015E-05 +4.59205784624E-05 -6.90212575988E-01 +6.83240897540E-01
1.08500000000E+09 -5.58569277685E-01 +7.77753469904E-01 -2.04109535376E-06 -1.81920713769E-05 +3.31630344524E-05 +4.54182151210E-07 -6.86184492489E-01 +6.86913612595E-01
1.09000000000E+09 -5.56618441276E-01 +7.79853015892E-01 +5.19167775708E-05 +2.58330383104E-05 +2.12459555466E-05 -8.28614573976E-06 -6.82505657373E-01 +6.90849870592E-01
1.09500000000E+09 -5.54920033322E-01 +7.81472728897E-01 +7.34203308963E-05 +4.43946005548E-06 +6.74044619580E-05 -5.13493275505E-05 -6.78633737497E-01 +6.94636433712E-01
1.10000000000E+09 -5.51920511371E-01 +7.83612259494E-01 +1.21678881927E-05 +4.74086461728E-05 +4.16404797853E-05 +8.73153563164E-06 -6.74614555557E-01 +6.98416664556E-01
1.10500000000E+09 -5.48040961539E-01 +7.86218441897E-01 +1.39130893411E-05 -4.09573747800E-05 +5.64285701162E-05 +3.75188379497E-06 -6.70577964590E-01 +7.01876984516E-01
1.11000000000E+09 -5.42231115567E-01 +7.89324253667E-01 +1.83932697897E-05 +2.95883754616E-07 +5.44451682789E-05 -1.24492976049E-05 -6.66208479024E-01 +7.05317780531E-01
1.11500000000E+09 -5.35158814595E-01 +7.93130804471E-01 +4.08546788007E-05 -3.69708575486E-05 +3.93666492720E-05 -2.81829877768E-05 -6.62091141521E-01 +7.08625730268E-01
1.12000000000E+09 -5.27208531130E-01 +7.97069919893E-01 +2.40174736130E-06 -4.90955371557E-05 +4.66887996419E-05 -3.07219339872E-05 -6.57959558736E-01 +7.12255398070E-01
1.12500000000E+09 -5.19050876928E-01 +8.01171946455E-01 +5.96303794976E-06 -1.83448722903E-05 -2.66708110263E-05 -5.10749029331E-05 -6.53984975249E-01 +7.16295881497E-01
1.13000000000E+09 -5.11736833768E-01 +8.04856017999E-01 +1.20514010388E-05 -2.89567536040E-05 +8.08664481811E-07 -3.79745936164E-05 -6.49742127444E-01 +7.19935354899E-01
1.13500000000E+09 -5.05296546581E-01 +8.07756477389E-01 -1.79825112581E-05 -4.89354991603E-05 -5.69734121128E-06 +8.43555273069E-06 -6.45023585518E-01 +7.23694442681E-01
1.14000000000E+09 -5.00165547101E-01 +8.10173150806E-01 -5.34988812153E-06 -4.56781276243E-05 -2.26733866680E-05 +1.90062487175E-05 -6.40511065638E-01 +7.27119825504E-01
1.14500000000E+09 -4.96085329724E-01 +8.11927921424E-01 +3.46494056412E-06 -8.10796127130E-05 -4.40781530618E-05 -4.38861207086E-05 -6.35876062386E-01 +7.30520534301E-01
1.15000000000E+09 -4.92624634635E-01 +8.13347262739E-01 +1.85433601236E-05 -1.37285828918E-05 +1.68797576699E-06 -6.02588830853E-06 -6.31124600846E-01 +7.34117276052E-01
1.15500000000E+09 -4.88787213035E-01 +8.15147258554E-01 -3.68258353164E-05 -7.08901219747E-05 +4.26212848478E-06 -5.02065837560E-05 -6.26477314163E-01 +7.37933522981E-01
1.16000000000E+09 -4.84050996125E-01 +8.16756302533E-01 -1.40847652281E-05 -2.63778205781E-05 -2.63162890164E-05 -2.24724352712E-05 -6.21674640850E-01 +7.41814874774E-01
1.16500000000E+09 -4.78283913002E-01 +8.19451256277E-01 -3.13561109129E-05 +1.08812800922E-05 -1.80526639289E-05 -1.08509681097E-05 -6.16471673648E-01 +7.45444830049E-01
1.17000000000E+09 -4.71298366307E-01 +8.22415004964E-01 -3.96351417928E-06 +1.65368117647E-06 +4.71829447604E-05 -5.48487602830E-06 -6.11106202690E-01 +7.48686540709E-01
1.17500000000E+09 -4.63425881786E-01 +8.25750563489E-01 +8.33808091518E-06 -6.71870477784E-05 +1.48011908199E-05 -3.13030929968E-05 -6.05422830969E-01 +7.51777552538E-01
1.18000000000E+09 -4.55252283707E-01 +8.29385886441E-01 +3.76797366158E-05 +7.96207842702E-07 +1.65446102825E-05 -1.34316018445E-05 -5.99921954831E-01 +7.54967100742E-01
1.18500000000E+09 -4.47250987710E-01 +8.32688262103E-01 +8.34145246895E-06 -3.11019041615E-05 -4.05488656076E-05 -1.28184558209E-05 -5.93917490300E-01 +7.57960969523E-01
1.19000000000E+09 -4.40272573432E-01 +8.35400917719E-01 -5.39702054865E-06 -4.15979847795E-05 -9.42778991455E-06 -3.34403349157E-05 -5.87721756800E-01 +7.60744368698E-01
1.19500000000E+09 -4.34308753342E-01 +8.37346126857E-01 -1.83470792884E-05 -7.63313163872E-05 -3.06244881701E-05 -3.01024455750E-05 -5.81940687510E-01 +7.61931536866E-01
1.20000000000E+09 -4.29428701940E-01 +8.38216327895E-01 -7.48476259621E-05 -1.84738868121E-05 -8.08936940784E-05 +3.31404355974E-06 -5.77426344422E-01 +7.62143519200E-01
1.20500000000E+09 -4.25175458531E-01 +8.39345148500E-01 -8.52972518194E-05 -1.20199951575E-05 -6.18112364746E-05 +4.24736648480E-05 -5.75173630956E-01 +7.63059201218E-01
1.21000000000E+09 -4.20645840272E-01 +8.40388062055E-01 -2.47282764521E-05 +1.00322272123E-05 -1.31670586285E-05 +1.31459328345E-05 -5.73174509609E-01 +7.66016387856E-01
1.21500000000E+09 -4.14780813503E-01 +8.41620114834E-01 -1.66420560392E-05 +3.69740712010E-05 -4.11348270137E-05 +2.56018394613E-05 -5.70395337903E-01 +7.70460893869E-01
1.22000000000E+09 -4.07507709325E-01 +8.43411716317E-01 +1.19608242767E-05 -1.24858722221E-07 -1.58028502668E-05 +5.68372807956E-05 -5.66267281284E-01 +7.75784213999E-01
1.22500000000E+09 -3.98357823832E-01 +8.45932989144E-01 +1.84153530232E-05 -3.30345677153E-05 -3.79039905019E-05 +3.55607798205E-06 -5.61236858165E-01 +7.80814189245E-01
1.23000000000E+09 -3.87826489727E-01 +8.49000037946E-01 +2.22303679427E-06 +2.04893275938E-05 +2.26098245632E-05 +1.09657979999E-05 -5.55458732788E-01 +7.85468410999E-01
1.23500000000E+09 -3.77057769725E-01 +8.52432580772E-01 +1.33709335378E-05 -2.50864517905E-05 -2.13451448772E-05 -2.18222919015E-05 -5.49705961604E-01 +7.89721771499E-01
1.24000000000E+09 -3.66020841191E-01 +8.56210201930E-01 -4.36482834514E-06 -4.96314496222E-05 +8.89867693548E-08 +2.63948046542E-05 -5.43761801125E-01 +7.93498813122E-01
1.24500000000E+09 -3.56342663082E-01 +8.60109478116E-01 -1.25267181135E-05 -2.97305294963E-05 -3.90818700833E-06 -6.41779187955E-06 -5.37391201713E-01 +7.97214712157E-01
1.25000000000E+09 -3.47864862583E-01 +8.63422867454E-01 -2.25686771120E-05 -5.31207680934E-05 -6.32612274505E-05 -5.00217676753E-05 -5.30912664352E-01 +8.01564038460E-01
1.25500000000E+09 -3.41006331068E-01 +8.65748608492E-01 -3.65041118638E-05 -7.53366987771E-06 -1.44988578148E-05 -8.68674085307E-06 -5.24130667315E-01 +8.05464596729E-01
1.26000000000E+09 -3.35598158463E-01 +8.67487439130E-01 -5.74427902729E-05 -3.14902776791E-05 -7.64150533538E-05 -3.21579555865E-05 -5.17312344325E-01 +8.09777430481E-01
1.26500000000E+09 -3.30709211374E-01 +8.68730040428E-01 -5.36391193459E-05 +1.21775369062E-05 -4.15877683742E-05 -2.75019511969E-05 -5.10375596000E-01 +8.13689896891E-01
1.27000000000E+09 -3.25912139122E-01 +8.69731055748E-01 -3.15157620044E-05 +3.64674990107E-06 -6.06875273579E-05 -1.71091573990E-05 -5.03662820420E-01 +8.17337994001E-01
1.27500000000E+09 -3.19686177525E-01 +8.70764102857E-01 -2.81884432926E-05 +2.64114794057E-05 -9.24124018460E-05 +2.12989836073E-05 -4.96685528610E-01 +8.20807864673E-01
1.28000000000E+09 -3.11543283557E-01 +8.72281797688E-01 -5.13108417489E-05 +3.12080176758E-05 -6.99377962061E-05 +4.97543800239E-06 -4.89624890391E-01 +8.24371685173E-01
1.28500000000E+09 -3.01129051917E-01 +8.74121982563E-01 -7.37086787626E-05 +2.90976076111E-05 -1.23268578165E-04 +4.80758703668E-05 -4.82198941791E-01 +8.28069491946E-01
1.29000000000E+09 -2.89547978615E-01 +8.76659062274E-01 -4.00732597858E-05 +4.36703286114E-05 -3.73640290328E-05 +4.73485657929E-05 -4.74674822349E-01 +8.31740127869E-01
1.29500000000E+09 -2.77094848095E-01 +8.79573872336E-01 -5.22501416270E-05 +3.31284451406E-05 -6.75839200932E-05 +4.88089589163E-05 -4.66850834058E-01 +8.35250871527E-01
1.30000000000E+09 -2.64609915400E-01 +8.82836618848E-01 -4.88090128487E-05 +7.44507510353E-05 -5.17019984566E-05 +4.35823717900E-05 -4.59144414722E-01 +8.38567828231E-01
1.30500000000E+09 -2.53194935108E-01 +8.85823493972E-01 -4.63881412559E-05 +1.06072846121E-04 -7.05580903499E-05 +5.69665837583E-05 -4.51321045153E-01 +8.42119535809E-01
1.31000000000E+09 -2.43254980685E-01 +8.88165719756E-01 -1.08734484281E-05 +1.30554536337E-04 -5.41668889435E-05 +9.32176762011E-05 -4.42930713779E-01 +8.45493674402E-01
1.31500000000E+09 -2.35383782218E-01 +8.89643725902E-01 -1.04857610297E-08 +1.33188340503E-04 +2.51456944590E-05 +7.62723878114E-05 -4.34201128606E-01 +8.48866545150E-01
1.32000000000E+09 -2.29008768878E-01 +8.90198974456E-01 -1.06378472066E-05 +1.30015018358E-04 +1.16984662872E-05 +8.76739829659E-05 -4.25023859552E-01 +8.52330239882E-01
1.32500000000E+09 -2.23285151072E-01 +8.90107279484E-01 +4.66872532440E-06 +5.81265611988E-05 +1.47496801990E-05 +8.17886259751E-05 -4.15541474853E-01 +8.55758799869E-01
1.33000000000E+09 -2.16706401621E-01 +8.89732945861E-01 +2.68330915224E-05 +1.09625482141E-04 +1.11627519629E-05 +1.68893642670E-04 -4.05939015955E-01 +8.59024327776E-01
1.33500000000E+09 -2.08395918831E-01 +8.88933999202E-01 +3.15000004764E-05 +1.34534296642E-04 +8.36297909802E-05 +1.16818287295E-04 -3.96191649186E-01 +8.62412281309E-01
1.34000000000E+09 -1.97612609779E-01 +8.88306218524E-01 +5.94975637133E-05 +1.13735006121E-04 +9.73370402724E-05 +1.59269129302E-04 -3.85984231358E-01 +8.65713467611E-01
1.34500000000E+09 -1.84148452228E-01 +8.87925120493E-01 +9.54769942917E-05 +9.12470342999E-05 +7.93401915523E-05 +1.05681427731E-04 -3.75144569167E-01 +8.68916504752E-01
1.35000000000E+09 -1.68696678268E-01 +8.87931363298E-01 +6.16037070192E-05 +8.13302591372E-05 +2.40194416206E-05 +2.54273753855E-05 -3.64163925578E-01 +8.72125390206E-01
1.35500000000E+09 -1.51757899126E-01 +8.88341019879E-01 +1.22229481799E-04 +1.04217962835E-04 +3.59324515952E-05 +4.28211174516E-05 -3.52486177062E-01 +8.75095937001E-01
1.36000000000E+09 -1.34999522306E-01 +8.88902401242E-01 +7.13526404094E-05 +1.13769055418E-04 +5.80570982634E-05 +7.46624509454E-05 -3.40705314639E-01 +8.77757052741E-01
1.36500000000E+09 -1.18797224102E-01 +8.89578890108E-01 +7.85631122026E-05 +7.77642753487E-05 +5.95493168264E-05 +5.69088685120E-05 -3.28513513574E-01 +8.80374361183E-01
1.37000000000E+09 -1.04339126930E-01 +8.89621820326E-01 +7.10335173124E-05 +9.78748760019E-05 +1.09889084725E-04 +8.43918693554E-05 -3.15681852969E-01 +8.82724884963E-01
1.37500000000E+09 -9.21364355348E-02 +8.89383824406E-01 +8.90758662867E-05 +1.16970524340E-04 +8.97931075718E-05 +8.32218779724E-05 -3.02060348408E-01 +8.84951677288E-01
1.38000000000E+09 -8.12986126529E-02 +8.88752904110E-01 +1.42446624917E-04 +9.85431635326E-05 +1.17190044449E-04 +1.38314435968E-04 -2.87402371681E-01 +8.86973751720E-01
1.38500000000E+09 -7.04690252894E-02 +8.87272332536E-01 +1.82851427234E-04 +8.41032685112E-05 +1.63412574597E-04 +1.06777482711E-04 -2.71800284626E-01 +8.88908632446E-01
1.39000000000E+09 -5.88473183007E-02 +8.84815684100E-01 +1.99280218367E-04 +3.70450888658E-05 +2.23908439416E-04 +8.28731294877E-05 -2.55767823114E-01 +8.90355776367E-01
1.39500000000E+09 -4.51649156190E-02 +8.81706037074E-01 +1.94261340920E-04 +5.99311798888E-05 +2.82571633560E-04 -2.40486726013E-06 -2.38977368177E-01 +8.91020887541E-01
1.40000000000E+09 -2.88169278129E-02 +8.77498304189E-01 +2.13473657951E-04 -6.56077813005E-05 +2.06303411613E-04 -9.85931098379E-05 -2.21442145877E-01 +8.91590345757E-01
1.40500000000E+09 -1.02426793957E-02 +8.72581596704E-01 +1.27608473729E-04 -5.82515276465E-05 +1.15194385196E-04 -9.35317586532E-05 -2.02617246068E-01 +8.91515052394E-01
1.41000000000E+09 +1.05579331650E-02 +8.67253127627E-01 +4.55224268181E-05 -9.64268138912E-06 +1.03457624065E-04 -2.18335357437E-06 -1.82389072107E-01 +8.90648808577E-01
1.41500000000E+09 +3.26237079195E-02 +8.61525104269E-01 +1.03006582697E-04 +6.64037142503E-06 +1.22917335125E-04 +5.36114282812E-06 -1.60653544643E-01 +8.88901992198E-01
1.42000000000E+09 +5.52338787647E-02 +8.55466356527E-01 +2.14551408359E-04 -6.14433701460E-07 +2.16458685568E-04 +3.01240438207E-05 -1.37796177225E-01 +8.86127822371E-01
1.42500000000E+09 +7.73828798588E-02 +8.48316722644E-01 +2.38797858322E-04 -7.52914258325E-05 +3.00753122767E-04 -9.49937671538E-05 -1.14287336432E-01 +8.82408096170E-01
1.43000000000E+09 +9.79881460029E-02 +8.40198043883E-01 +1.40941485673E-04 -9.26812342294E-05 +7.77994047532E-05 -1.61393213678E-04 -8.94744995239E-02 +8.77650325971E-01
1.43500000000E+09 +1.17819102375E-01 +8.30724006610E-01 +8.02850899095E-05 -4.44685255701E-05 +8.22171740707E-05 -7.69623228825E-05 -6.31505063422E-02 +8.70831385941E-01
1.44000000000E+09 +1.37330641471E-01 +8.19779738471E-01 +6.09551895504E-05 +6.18289089570E-05 +1.15831702867E-04 +2.37814107782E-05 -3.51797181768E-02 +8.61878648675E-01
1.44500000000E+09 +1.58347166081E-01 +8.06356655115E-01 +2.53309099526E-04 +1.91258268190E-04 +2.19100519124E-04 +1.72373006155E-04 -5.26785121896E-03 +8.50280384880E-01
1.45000000000E+09 +1.81497284548E-01 +7.89454674111E-01 +4.86881594799E-04 +6.39942209132E-05 +5.09482551966E-04 +8.54018756550E-07 +2.66467909499E-02 +8.35813524307E-01
1.45500000000E+09 +2.07624768418E-01 +7.68435655079E-01 +4.47303776527E-04 +3.74046333319E-05 +4.32451386528E-04 -4.02028971674E-05 +5.99407710629E-02 +8.17761675404E-01
1.46000000000E+09 +2.36556887557E-01 +7.42541521958E-01 +7.26907587830E-04 +3.71716820914E-06 +7.29452565644E-04 -7.65779894076E-05 +9.44543466871E-02 +7.95458551114E-01
1.46500000000E+09 +2.67194371586E-01 +7.11800094179E-01 +8.47061650501E-04 -4.74187846853E-04 +7.61368182621E-04 -5.12381631308E-04 +1.29956452466E-01 +7.68688822057E-01
1.47000000000E+09 +2.99169801139E-01 +6.76434570417E-01 +8.39575014555E-04 -6.40160601823E-04 +7.61381662185E-04 -5.72208810893E-04 +1.66751704119E-01 +7.34896389974E-01
1.47500000000E+09 +3.30780013955E-01 +6.35867500717E-01 +6.92183712861E-04 -1.02164251448E-03 +7.12374335768E-04 -9.82605093979E-04 +2.03418187894E-01 +6.93673598606E-01
1.48000000000E+09 +3.59960398791E-01 +5.89597217992E-01 +4.25166515722E-04 -1.12292804418E-03 +5.14585564747E-04 -1.13156236682E-03 +2.39507629152E-01 +6.44013097280E-01
1.48500000000E+09 +3.85055525353E-01 +5.37095087086E-01 +5.85881698485E-04 -1.23922576631E-03 +6.01389516177E-04 -1.27325444499E-03 +2.72774349176E-01 +5.84747935081E-01
1.49000000000E+09 +4.04494149142E-01 +4.77725336729E-01 +6.21916258480E-04 -1.87773138947E-03 +4.75677888394E-04 -1.95531342113E-03 +2.99809919643E-01 +5.14805330467E-01
1.49500000000E+09 +4.16353795674E-01 +4.10133268012E-01 -5.23727891756E-05 -2.79342029266E-03 -1.47845803269E-04 -2.67638769165E-03 +3.16888796406E-01 +4.35927903587E-01
1.50000000000E+09 +4.17601117422E-01 +3.33673877020E-01 -1.53847632601E-03 -3.13894679178E-03 -1.46468553608E-03 -2.91288827259E-03 +3.21194000625E-01 +3.47053847457E-01
1.50500000000E+09 +4.06519194094E-01 +2.50342688712E-01 -2.85737055191E-03 -2.42347301162E-03 -2.63968684303E-03 -2.39049837976E-03 +3.08435377418E-01 +2.51517997575E-01
1.51000000000E+09 +3.80872734720E-01 +1.60409345649E-01 -3.71396255743E-03 -1.38091036242E-03 -3.58199593247E-03 -1.53085052193E-03 +2.74677122749E-01 +1.52809326032E-01
1.51500000000E+09 +3.36373428868E-01 +6.78025255130E-02 -4.23830450044E-03 -2.34665315237E-04 -4.22160689854E-03 -3.50560104217E-04 +2.19856623363E-01 +5.75922244097E-02
1.52000000000E+09 +2.71142730168E-01 -1.92987167385E-02 -4.18549275926E-03 +1.64746090143E-03 -4.30736089885E-03 +1.59323738185E-03 +1.42821362713E-01 -2.58942677310E-02
1.52500000000E+09 +1.86936587454E-01 -9.38712339850E-02 -2.93079016047E-03 +2.32175683332E-03 -2.93308749475E-03 +2.33698693057E-03 +4.87058333516E-02 -9.10283641924E-02
1.53000000000E+09 +8.56482261431E-02 -1.47861955705E-01 -2.39120216383E-03 +2.81735254063E-03 -2.42625365487E-03 +2.83899371648E-03 -5.52092233121E-02 -1.33340236751E-01
1.53500000000E+09 -2.44367673503E-02 -1.75820378633E-01 -2.19146403993E-03 +3.56806205657E-03 -2.20458488208E-03 +3.63211393755E-03 -1.64484221546E-01 -1.52909643038E-01
1.54000000000E+09 -1.36301840200E-01 -1.77036775313E-01 -7.10984567482E-04 +4.58556234339E-03 -7.47044187536E-04 +4.54826987275E-03 -2.70395343062E-01 -1.49466740610E-01
1.54500000000E+09 -2.42716109923E-01 -1.54214197459E-01 +1.16703315660E-03 +4.63534649974E-03 +1.01243869045E-03 +4.66346918249E-03 -3.66911092932E-01 -1.26337482067E-01
1.55000000000E+09 -3.39973261111E-01 -1.12460002793E-01 +2.74039280319E-03 +3.30993338811E-03 +2.54745669926E-03 +3.42912113108E-03 -4.49748564201E-01 -8.98226646682E-02
1.55500000000E+09 -4.22772467478E-01 -5.56098731297E-02 +2.98578324047E-03 +2.06310432349E-03 +2.96713205881E-03 +2.23699522175E-03 -5.19249639501E-01 -4.45254263259E-02
1.56000000000E+09 -4.89027976487E-01 +7.09808525786E-03 +3.00488673680E-03 +9.16906294591E-04 +3.08158359523E-03 +1.09494256905E-03 -5.75956723743E-01 +7.08399820607E-03
1.56500000000E+09 -5.40519933266E-01 +7.06842163312E-02 +2.63362333201E-03 +2.82696153010E-04 +2.74748901884E-03 +3.52712031167E-04 -6.19914412334E-01 +6.12874550792E-02
1.57000000000E+09 -5.79487527167E-01 +1.32377507981E-01 +2.24929887205E-03 -1.47775073202E-04 +2.43267579347E-03 -1.36485949681E-04 -6.53442110716E-01 +1.14843479620E-01
