# Hz S RI R 50
! CMT, C1220, 16058040, 17.2.0/1
! Date: 14/08/2018 12:38:40
! Data: Format (Calibration Info)
! Freq                      S11: Re/Im (F2)                       S21: Re/Im (F2)                       S12: Re/Im (F2)                       S22: Re/Im (F2)            
1.00000000000E+09 -6.47205094292E-01 +7.14329543317E-01 -3.82202613187E-05 +5.25534452661E-05 +3.38335131118E-05 +5.89987121508E-05 -6.70497388363E-01 +5.39258679777E-01
1.00500000000E+09 -6.40178634922E-01 +7.19725720329E-01 +2.22900316125E-07 +2.46125527010E-05 +2.89548017878E-05 +9.09869866987E-06 -6.67308244123E-01 +5.42788177284E-01
1.01000000000E+09 -6.34229278573E-01 +7.24369286209E-01 +1.76539302638E-05 +4.48486567863E-06 -2.57181294621E-06 -1.93561061361E-05 -6.64403608400E-01 +5.46006869606E-01
1.01500000000E+09 -6.29863073776E-01 +7.28313419964E-01 +4.15664231202E-05 -2.31599464388E-05 +1.39826339942E-05 +6.54683873678E-05 -6.61676394914E-01 +5.49196793960E-01
1.02000000000E+09 -6.26938244853E-01 +7.31854138345E-01 -1.77921005053E-05 -2.35761802780E-05 +2.84011944479E-05 -1.74524141170E-05 -6.59109296221E-01 +5.52135277827E-01
1.02500000000E+09 -6.24901447162E-01 +7.34457126274E-01 -1.03799238579E-04 +3.85617230945E-06 -4.91479385937E-06 +1.55115489450E-05 -6.56857576271E-01 +5.55696367837E-01
1.03000000000E+09 -6.23467008349E-01 +7.36906411992E-01 +4.26630468357E-06 +4.25961386083E-05 -4.12791325552E-05 +8.70146876631E-05 -6.54313316735E-01 +5.58968690158E-01
1.03500000000E+09 -6.21170293463E-01 +7.39140445067E-01 -3.21511725342E-05 -5.11862336752E-06 -6.41406475642E-05 -1.72044127826E-05 -6.51325518764E-01 +5.62724997968E-01
1.04000000000E+09 -6.17670876182E-01 +7.41857232129E-01 +1.48635588880E-06 +2.90489367078E-05 -2.58112447723E-05 +1.09777822248E-05 -6.48188761378E-01 +5.66047016447E-01
1.04500000000E+09 -6.12584308508E-01 +7.45244738928E-01 +1.75371720445E-05 +2.37924047648E-05 +7.48923636642E-06 +4.67472334513E-05 -6.45356422500E-01 +5.69504185862E-01
1.05000000000E+09 -6.05724393513E-01 +7.49212504133E-01 +3.35154210370E-06 +4.15825245438E-05 -1.45220957088E-05 +7.33057911410E-05 -6.42764663038E-01 +5.72473250857E-01
1.05500000000E+09 -5.97952155082E-01 +7.53891199836E-01 +4.74654290335E-06 +4.76444759844E-05 -2.11059315833E-06 +6.15257012316E-06 -6.40160756492E-01 +5.75962687767E-01
1.06000000000E+09 -5.89317649307E-01 +7.58814530004E-01 -1.86819570484E-05 +3.71718994391E-05 +8.67618904226E-05 +1.00106677111E-05 -6.37345097420E-01 +5.79458313270E-01
1.06500000000E+09 -5.81011938417E-01 +7.63966389154E-01 +4.48367976869E-05 +3.17965882716E-05 +6.81688122165E-07 +3.95364893014E-05 -6.34349819274E-01 +5.83033991334E-01
1.07000000000E+09 -5.73819603788E-01 +7.68066851591E-01 +2.91060046106E-05 +2.56778454263E-05 +2.40393822967E-05 -9.87598322121E-06 -6.30959902820E-01 +5.86614557369E-01
1.07500000000E+09 -5.68035253419E-01 +7.72152395972E-01 +4.30318531881E-05 +2.70368913774E-05 +4.16747312598E-05 +9.66644282921E-06 -6.27291569803E-01 +5.90029148137E-01
1.08000000000E+09 -5.64059845897E-01 +7.75346017026E-01 +5.03740340797E-05 +1.69506402262E-05 -1.30215762356E-05 -2.02338707574E-05 -6.24215170580E-01 +5.93529771855E-01
1.08500000000E+09 -5.61134336907E-01 +7.77829464848E-01 +4.12468112875E-05 -8.91173517120E-06 +7.60931475673E-06 -2.91273118776E-05 -6.20901801240E-01 +5.96958655421E-01
1.09000000000E+09 -5.59067832032E-01 +7.79733989575E-01 -2.99128160993E-05 -3.39936274908E-05 +7.42018323228E-05 -8.27031414729E-06 -6.18028239145E-01 +6.00496692103E-01
1.09500000000E+09 -5.57128276258E-01 +7.81236347593E-01 +3.56171472288E-05 +2.84759593960E-06 +7.56981727212E-05 +1.69105007069E-05 -6.15019462945E-01 +6.04332524281E-01
1.10000000000E+09 -5.54096775423E-01 +7.83431328567E-01 -7.20086507056E-06 -4.81776551792E-05 -5.20066262815E-05 +1.73616076499E-05 -6.11809792206E-01 +6.07695004733E-01
1.10500000000E+09 -5.50008543394E-01 +7.86089887332E-01 +9.96252408352E-06 +2.57768709739E-05 -1.70598097997E-05 +4.59448303488E-05 -6.08244010842E-01 +6.11123555687E-01
1.11000000000E+09 -5.44541948219E-01 +7.89625824523E-01 -1.94494602266E-06 -1.10810184687E-05 -1.43316398534E-05 +2.71963027750E-05 -6.04931619798E-01 +6.14372741007E-01
1.11500000000E+09 -5.37491821475E-01 +7.93740810688E-01 +3.26904955855E-05 +3.43844180141E-05 -1.41207657394E-05 +1.50769612153E-05 -6.01638817433E-01 +6.17561546691E-01
1.12000000000E+09 -5.30016228810E-01 +7.97948714870E-01 +2.34719733074E-05 -1.77800799518E-06 +5.55443274964E-05 -6.51725987351E-06 -5.98381458333E-01 +6.21125671985E-01
1.12500000000E+09 -5.22330015847E-01 +8.02250972797E-01 -1.34868041182E-05 +3.91988099193E-05 -6.85635262440E-06 +9.25698165756E-05 -5.94918665182E-01 +6.24896435040E-01
1.13000000000E+09 -5.15194987213E-01 +8.06152096824E-01 +3.42882884974E-05 +1.54939770603E-05 +3.36168936629E-05 +1.67098339554E-05 -5.91324149375E-01 +6.28529809798E-01
1.13500000000E+09 -5.09033148084E-01 +8.09040269501E-01 +5.34547378769E-05 +3.20374153480E-05 +3.98511517153E-05 +3.98701312275E-05 -5.87495688725E-01 +6.32367700776E-01
1.14000000000E+09 -5.03950914105E-01 +8.11497921672E-01 +8.49032315907E-05 +6.27957382916E-05 +7.29118929136E-05 +1.05667846101E-05 -5.83395672482E-01 +6.35879454917E-01
1.14500000000E+09 -4.99820947811E-01 +8.12892444663E-01 +6.15866507954E-05 -1.85833635474E-05 +6.46410306560E-05 +1.50284378809E-05 -5.79402359838E-01 +6.39139621543E-01
1.15000000000E+09 -4.96179368749E-01 +8.14070576990E-01 +7.34424552436E-05 -3.92711189078E-06 +2.50287639093E-05 +5.58968456658E-05 -5.75467493610E-01 +6.42888959941E-01
1.15500000000E+09 -4.92451648700E-01 +8.15692331054E-01 +2.65876644075E-05 -6.93130899071E-07 +3.15954568085E-05 +2.14089669618E-05 -5.71389419634E-01 +6.46613980216E-01
1.16000000000E+09 -4.87972595310E-01 +8.17352999291E-01 +3.98939820518E-05 +1.39690880830E-05 +6.21553092286E-05 -2.91611940260E-05 -5.67440600520E-01 +6.50130544957E-01
1.16500000000E+09 -4.82369106111E-01 +8.20195194379E-01 +5.37143514027E-05 +1.09232673360E-05 +6.62081358812E-05 +2.95985636322E-05 -5.63275295841E-01 +6.53786841746E-01
1.17000000000E+09 -4.75618614595E-01 +8.23406924640E-01 +8.61789117774E-05 -3.95267507648E-05 +5.29037909972E-05 +2.50575233664E-06 -5.58647148835E-01 +6.56884946850E-01
1.17500000000E+09 -4.68089436398E-01 +8.27095914141E-01 +4.53010723632E-05 -6.62049853399E-06 +5.86744177340E-05 -7.70431931146E-05 -5.53996461319E-01 +6.60109164985E-01
1.18000000000E+09 -4.60340179978E-01 +8.31132921480E-01 +8.56797171904E-05 -5.19716787860E-05 +7.74502599322E-05 -1.01639741754E-04 -5.49367112395E-01 +6.63100824618E-01
1.18500000000E+09 -4.52554016053E-01 +8.34786843358E-01 +8.22051838211E-05 -5.67693424544E-05 +1.65091659890E-05 -2.43182358502E-05 -5.44413760832E-01 +6.66143599270E-01
1.19000000000E+09 -4.45441737398E-01 +8.37789726309E-01 +8.11128255862E-05 -7.73339154348E-05 +4.00543274488E-05 -1.12773526411E-04 -5.39095398588E-01 +6.68947933968E-01
1.19500000000E+09 -4.39393837846E-01 +8.39938667980E-01 +6.91379827123E-05 -6.24829473058E-05 +8.88947515082E-05 -1.20448007710E-04 -5.34102303512E-01 +6.70386148169E-01
1.20000000000E+09 -4.34218449031E-01 +8.40900878070E-01 +3.43108104638E-05 -1.91945521050E-04 +4.36618592974E-05 -1.65543266804E-04 -5.29901259203E-01 +6.70809025024E-01
1.20500000000E+09 -4.29507613569E-01 +8.41923170517E-01 -6.81453574821E-05 -1.69911712292E-04 -6.28050311076E-05 -1.18214843147E-04 -5.27981918064E-01 +6.71622096816E-01
1.21000000000E+09 -4.24760279338E-01 +8.42887054991E-01 -9.16989818454E-05 -6.42986885127E-05 -2.72036866240E-05 -6.23829124717E-05 -5.26439308077E-01 +6.74557404924E-01
1.21500000000E+09 -4.18807992738E-01 +8.44241300079E-01 -3.52725314809E-05 +1.54656899121E-06 -3.13129423441E-05 -6.76338118070E-05 -5.24254730900E-01 +6.78840122820E-01
1.22000000000E+09 -4.11419667473E-01 +8.46035208934E-01 -1.92029619709E-05 -7.15870496331E-05 -3.71004834300E-05 -5.99112538734E-05 -5.20758519839E-01 +6.84024194388E-01
1.22500000000E+09 -4.02714016625E-01 +8.48746068091E-01 +4.66233102503E-06 -7.36739146822E-05 -4.21468869420E-05 -5.23881731909E-05 -5.16476875543E-01 +6.88764630323E-01
1.23000000000E+09 -3.93021897896E-01 +8.52049467588E-01 -4.96054081619E-07 -8.35961772810E-05 +1.15432828400E-05 -9.43300060062E-05 -5.11988706379E-01 +6.93256152576E-01
1.23500000000E+09 -3.83097813056E-01 +8.55947018601E-01 +1.73192968621E-05 -6.79821125036E-05 -1.57348808883E-05 -7.72672106182E-05 -5.07152547031E-01 +6.97423160547E-01
1.24000000000E+09 -3.73319135196E-01 +8.60073611107E-01 -3.77463188831E-05 -5.10958545594E-05 +2.53591947578E-06 -7.30882578048E-05 -5.02083449844E-01 +7.01164573376E-01
1.24500000000E+09 -3.64515632932E-01 +8.64469898476E-01 -6.88074501414E-05 -8.88655016942E-05 -5.15750328725E-05 -8.94231491624E-05 -4.96885259318E-01 +7.04890446966E-01
1.25000000000E+09 -3.56630543414E-01 +8.68236845980E-01 -1.44881254046E-05 -9.86829335132E-05 -1.91114517668E-06 -1.69554637711E-04 -4.91558270662E-01 +7.09072760527E-01
1.25500000000E+09 -3.49992837995E-01 +8.70858293289E-01 -5.36053539219E-05 -9.32860021991E-05 -7.08872144873E-05 -1.28119561556E-04 -4.85869096978E-01 +7.13093430130E-01
1.26000000000E+09 -3.44010852072E-01 +8.72623161367E-01 -6.15681173811E-05 -1.17832913773E-04 -5.78390363261E-05 -1.17770857766E-04 -4.80413059316E-01 +7.17529134053E-01
1.26500000000E+09 -3.38523855797E-01 +8.73674520595E-01 -6.56636447633E-05 -1.00488001897E-04 -3.27355348665E-05 -1.23856466000E-04 -4.74423417016E-01 +7.21601138910E-01
1.27000000000E+09 -3.32475587164E-01 +8.74614625127E-01 -6.12650178030E-05 -1.34423183444E-04 -1.05920173212E-04 -1.38482986416E-04 -4.68777366681E-01 +7.25525680725E-01
1.27500000000E+09 -3.25035159009E-01 +8.75586356440E-01 -1.50058815950E-04 -1.04816835659E-04 -1.41255705509E-04 -8.55051253121E-05 -4.62740563238E-01 +7.29340484226E-01
1.28000000000E+09 -3.15894566859E-01 +8.77176473109E-01 -1.65399357009E-04 -8.29255190546E-05 -1.65959205363E-04 -7.89682663120E-05 -4.56511799777E-01 +7.33139248474E-01
1.28500000000E+09 -3.04983234080E-01 +8.79337108459E-01 -1.25224152233E-04 -6.88384825412E-05 -1.91546580896E-04 -5.48658081308E-05 -4.49993024007E-01 +7.37126581105E-01
1.29000000000E+09 -2.93172250348E-01 +8.82097190958E-01 -1.24101446272E-04 +7.25633924549E-07 -1.70319309035E-04 -1.77339029942E-05 -4.43439832652E-01 +7.41198713412E-01
1.29500000000E+09 -2.80972686995E-01 +8.85476650999E-01 -1.80395483624E-04 -5.26863624257E-05 -1.93175746381E-04 -5.19966015454E-05 -4.36629283573E-01 +7.44815876850E-01
1.30000000000E+09 -2.69292177994E-01 +8.89312352644E-01 -1.82611950398E-04 -2.07140387168E-05 -1.88493136720E-04 +3.25017445811E-05 -4.29815896361E-01 +7.48693926795E-01
1.30500000000E+09 -2.58713828969E-01 +8.92892101238E-01 -1.85981023923E-04 -3.68052277953E-05 -1.85259841278E-04 -3.23041836489E-06 -4.22764230364E-01 +7.52568209734E-01
1.31000000000E+09 -2.49621704072E-01 +8.95484329385E-01 -2.12082611571E-04 -3.77757268716E-05 -2.40892584859E-04 -1.64985212413E-05 -4.15430723441E-01 +7.56199211785E-01
1.31500000000E+09 -2.42282582746E-01 +8.97152246360E-01 -2.05381827240E-04 +4.28835151641E-05 -1.98582417059E-04 +5.44738362566E-05 -4.07834606297E-01 +7.59945466384E-01
1.32000000000E+09 -2.36160566038E-01 +8.97786725284E-01 -2.13863617107E-04 +5.33382367107E-05 -2.55121005367E-04 +2.62566179574E-05 -3.99732774296E-01 +7.63693629429E-01
1.32500000000E+09 -2.30226387356E-01 +8.97592941642E-01 -2.30916026375E-04 +1.00268417063E-04 -2.36684096404E-04 +5.93060316726E-05 -3.91381527666E-01 +7.67307217546E-01
1.33000000000E+09 -2.23363012020E-01 +8.97174188960E-01 -2.22523939664E-04 +9.50653309995E-05 -2.34116445294E-04 +8.94906367322E-05 -3.83078474892E-01 +7.70953804726E-01
1.33500000000E+09 -2.14274358317E-01 +8.96576931994E-01 -2.50077143465E-04 +1.01583779687E-04 -2.24395206213E-04 +3.93588604213E-05 -3.74487095444E-01 +7.74595482823E-01
1.34000000000E+09 -2.02733493094E-01 +8.96275789166E-01 -2.86518429937E-04 +1.27443729625E-04 -2.23052256118E-04 +8.26375406889E-05 -3.65541816506E-01 +7.78191986594E-01
1.34500000000E+09 -1.88776617454E-01 +8.96362975377E-01 -2.55854698199E-04 +1.75446637493E-04 -2.00018142456E-04 +2.00732143428E-04 -3.56006594304E-01 +7.81990368491E-01
1.35000000000E+09 -1.72908673805E-01 +8.96986055913E-01 -2.63112690302E-04 +2.04078588775E-04 -2.10814615428E-04 +2.05941789361E-04 -3.46080328539E-01 +7.85842148654E-01
1.35500000000E+09 -1.56275407165E-01 +8.98018291404E-01 -2.84224125061E-04 +2.39684941253E-04 -2.38906259254E-04 +2.30068894382E-04 -3.35638882621E-01 +7.89208379968E-01
1.36000000000E+09 -1.39394526375E-01 +8.99230006227E-01 -2.13629910174E-04 +2.64648607673E-04 -2.09872277553E-04 +2.62539021936E-04 -3.24976885054E-01 +7.92637094174E-01
1.36500000000E+09 -1.23727025937E-01 +9.00113320993E-01 -2.31987240906E-04 +3.15592796683E-04 -2.37989223746E-04 +3.67233072513E-04 -3.14062063226E-01 +7.95937921692E-01
1.37000000000E+09 -1.09945551707E-01 +9.00222935908E-01 -2.10562760130E-04 +3.91293773916E-04 -2.17085055897E-04 +3.75299860992E-04 -3.02769659886E-01 +7.99162183464E-01
1.37500000000E+09 -9.80122095601E-02 +8.99809736907E-01 -1.19076651081E-04 +4.22248547075E-04 -1.54946322568E-04 +4.26805047819E-04 -2.90404242165E-01 +8.02125399482E-01
1.38000000000E+09 -8.71579197671E-02 +8.98999166351E-01 -1.15682028880E-04 +4.60050776674E-04 -1.89077860128E-04 +4.71081864776E-04 -2.77221210291E-01 +8.05211185558E-01
1.38500000000E+09 -7.59519936828E-02 +8.97214383998E-01 -2.85787489074E-05 +5.01938660254E-04 -1.21881164309E-04 +5.26877503498E-04 -2.63317050921E-01 +8.08059859555E-01
1.39000000000E+09 -6.36556317351E-02 +8.94773603318E-01 -4.12491150463E-05 +5.19014738330E-04 -7.16882979975E-05 +6.30603931274E-04 -2.48964281408E-01 +8.10831451291E-01
1.39500000000E+09 -4.88624522564E-02 +8.91733641727E-01 -1.78460545064E-05 +5.41372258734E-04 +5.64822834374E-05 +6.22683827219E-04 -2.33794542892E-01 +8.12970145481E-01
1.40000000000E+09 -3.13946542755E-02 +8.87752625299E-01 -3.40813420093E-05 +6.53423983770E-04 +4.15452591980E-05 +6.46746727266E-04 -2.17797496657E-01 +8.14794186754E-01
1.40500000000E+09 -1.16352239398E-02 +8.83314209651E-01 +6.89598908802E-05 +7.78169887541E-04 +9.99869983931E-05 +7.62334466553E-04 -2.00963268202E-01 +8.16111719925E-01
1.41000000000E+09 +1.01312408773E-02 +8.78393704304E-01 +2.25170365177E-04 +7.81697969345E-04 +2.83396396965E-04 +7.97810725419E-04 -1.82413776488E-01 +8.17130082515E-01
1.41500000000E+09 +3.28372378197E-02 +8.72966095615E-01 +4.02390517357E-04 +8.31291174940E-04 +3.67477634476E-04 +9.09681985150E-04 -1.62520944742E-01 +8.17398922756E-01
1.42000000000E+09 +5.54823872645E-02 +8.66896638563E-01 +5.73831307460E-04 +8.07913421967E-04 +6.10052691772E-04 +9.15311652576E-04 -1.41122160041E-01 +8.17102339107E-01
1.42500000000E+09 +7.72463067121E-02 +8.59736555446E-01 +6.45623716481E-04 +7.71681189670E-04 +7.76481649021E-04 +8.27794253831E-04 -1.18687720034E-01 +8.15711417300E-01
1.43000000000E+09 +9.79149846403E-02 +8.51369209883E-01 +7.74525941410E-04 +8.17136132837E-04 +8.56542761466E-04 +8.19229120461E-04 -9.53509772773E-02 +8.13560857814E-01
1.43500000000E+09 +1.17629539232E-01 +8.41024718524E-01 +9.84592215687E-04 +9.54873962459E-04 +1.09356034071E-03 +8.37166459668E-04 -7.02500880127E-02 +8.09718876537E-01
1.44000000000E+09 +1.37839302892E-01 +8.29051375885E-01 +1.41697885410E-03 +8.20040642285E-04 +1.47242002226E-03 +7.35168963483E-04 -4.32591790085E-02 +8.03956998554E-01
1.44500000000E+09 +1.59980966024E-01 +8.14060136390E-01 +1.64396249997E-03 +5.02809919527E-04 +1.67098652218E-03 +4.00325057327E-04 -1.36842401789E-02 +7.95953112215E-01
1.45000000000E+09 +1.84360776289E-01 +7.95467063363E-01 +1.64870701455E-03 +2.95327397399E-04 +1.69385828191E-03 +1.92808962807E-04 +1.75376921058E-02 +7.84750582661E-01
1.45500000000E+09 +2.11475707406E-01 +7.73362355958E-01 +1.87292883756E-03 +2.26908307559E-04 +1.86519258296E-03 +5.39437185287E-05 +5.04714555416E-02 +7.70955186293E-01
1.46000000000E+09 +2.41838000815E-01 +7.47159608593E-01 +2.21019326936E-03 +8.28821232806E-06 +2.07512252523E-03 -2.36796494581E-04 +8.51575120144E-02 +7.52956924353E-01
1.46500000000E+09 +2.73882231686E-01 +7.16266703081E-01 +2.56642141496E-03 -3.67646169313E-04 +2.34648747997E-03 -4.57893727417E-04 +1.21395626500E-01 +7.30565212011E-01
1.47000000000E+09 +3.06878425391E-01 +6.81203381902E-01 +2.83494756285E-03 -1.15560233232E-03 +2.59945330059E-03 -1.08640147602E-03 +1.59060714133E-01 +7.01112860878E-01
1.47500000000E+09 +3.39242855603E-01 +6.40548943089E-01 +2.85346453479E-03 -2.09129321371E-03 +2.75638973537E-03 -1.89186331871E-03 +1.97396891316E-01 +6.64687515324E-01
1.48000000000E+09 +3.68750743168E-01 +5.93741581082E-01 +2.27675532664E-03 -2.78804138163E-03 +2.42664040862E-03 -2.73152574758E-03 +2.35546972253E-01 +6.19534065869E-01
1.48500000000E+09 +3.92925214406E-01 +5.40164456208E-01 +1.93708269648E-03 -3.16215196938E-03 +1.93142671856E-03 -3.30363033300E-03 +2.72065077590E-01 +5.65202303532E-01
1.49000000000E+09 +4.10848595504E-01 +4.79188481928E-01 +1.59634818877E-03 -4.02092623602E-03 +1.41914122179E-03 -3.99259162762E-03 +3.03775833433E-01 +4.99213921541E-01
1.49500000000E+09 +4.20535189628E-01 +4.09955475100E-01 +7.15983242968E-04 -4.88923543269E-03 +5.30711857406E-04 -4.70589272929E-03 +3.24653207084E-01 +4.23110148959E-01
1.50000000000E+09 +4.21510572915E-01 +3.31490703844E-01 -6.44361831483E-04 -5.43214827098E-03 -6.16910474332E-04 -5.10616325957E-03 +3.34482153665E-01 +3.38151392158E-01
1.50500000000E+09 +4.08985247079E-01 +2.42575003821E-01 -1.96011839667E-03 -5.57264673722E-03 -1.73547421572E-03 -5.37064328249E-03 +3.27345801068E-01 +2.44057067423E-01
1.51000000000E+09 +3.78989596255E-01 +1.48074640776E-01 -3.86938746019E-03 -5.17360926932E-03 -3.57391483417E-03 -5.24977744571E-03 +2.99379289221E-01 +1.45388855492E-01
1.51500000000E+09 +3.28770722677E-01 +5.35116767633E-02 -5.27449639983E-03 -4.50567014995E-03 -5.24585984252E-03 -4.67147137814E-03 +2.48267577233E-01 +5.13525468235E-02
1.52000000000E+09 +2.58166269512E-01 -3.15887388242E-02 -7.46747158756E-03 -2.73504251827E-03 -7.52073644144E-03 -2.80795002372E-03 +1.77258116705E-01 -3.26400306056E-02
1.52500000000E+09 +1.70371874896E-01 -1.01731099344E-01 -7.65169050826E-03 +4.65299231362E-04 -7.69860633914E-03 +4.31360241588E-04 +8.68376470051E-02 -9.82756536771E-02
1.53000000000E+09 +6.84405422109E-02 -1.50030794189E-01 -6.37889190151E-03 +2.33080345197E-03 -6.43773417632E-03 +2.26033090661E-03 -1.37953431831E-02 -1.40773212026E-01
1.53500000000E+09 -4.08658407626E-02 -1.74019333235E-01 -5.61652159346E-03 +3.82410920865E-03 -5.61916261819E-03 +3.88430480534E-03 -1.18338330699E-01 -1.58956497630E-01
1.54000000000E+09 -1.53658149600E-01 -1.70580233282E-01 -3.84372241876E-03 +4.66367906440E-03 -3.84279869720E-03 +4.58518822151E-03 -2.18463509436E-01 -1.55514652277E-01
1.54500000000E+09 -2.59921990803E-01 -1.43771779350E-01 -2.75484555164E-03 +5.15344953811E-03 -2.82723892190E-03 +5.00264592999E-03 -3.08158727671E-01 -1.34138468061E-01
1.55000000000E+09 -3.55630055211E-01 -9.66054787889E-02 -1.19688544662E-03 +5.73809257177E-03 -1.46036095163E-03 +5.62487270863E-03 -3.85665623132E-01 -1.01321242845E-01
1.55500000000E+09 -4.33954905840E-01 -3.83551976587E-02 +6.06930403734E-04 +5.31635856792E-03 +3.66777281412E-04 +5.45857764540E-03 -4.50308465191E-01 -5.90487613618E-02
1.56000000000E+09 -4.97528037279E-01 +2.25891892739E-02 +1.82978257368E-03 +4.08301205326E-03 +1.76126779758E-03 +4.31553514408E-03 -5.02156444124E-01 -1.20650253116E-02
1.56500000000E+09 -5.48180450993E-01 +8.44313009926E-02 +2.12160445090E-03 +3.01912542393E-03 +2.19448186649E-03 +3.18532892269E-03 -5.42558392607E-01 +3.71946309119E-02
1.57000000000E+09 -5.85404482960E-01 +1.44441047305E-01 +2.27872371856E-03 +2.24675578585E-03 +2.42065377208E-03 +2.32878905947E-03 -5.73193506311E-01 +8.55098181482E-02
