# Hz S RI R 50
! CMT, C1220, 16058040, 17.2.0/1
! Date: 14/08/2018 12:58:28
! Data: Format (Calibration Info)
! Freq                      S11: Re/Im (F2)                       S21: Re/Im (F2)                       S12: Re/Im (F2)                       S22: Re/Im (F2)            
1.00000000000E+09 -6.47424437022E-01 +7.11675196545E-01 +3.23080400274E-05 -1.20436844445E-06 -4.13917392316E-05 -2.30827404557E-06 -7.19198169058E-01 +6.45811662503E-01
1.00500000000E+09 -6.40788191945E-01 +7.16232596735E-01 +1.53358640954E-05 -4.77790451612E-07 +7.89196352198E-06 -1.98195591237E-05 -7.15409667536E-01 +6.49843324328E-01
1.01000000000E+09 -6.35153513200E-01 +7.20583953499E-01 +1.54921820001E-05 +3.15016791222E-05 -1.62944160632E-05 +7.62006568811E-05 -7.11670858162E-01 +6.53363586901E-01
1.01500000000E+09 -6.30233118767E-01 +7.24442693185E-01 +4.97341837656E-06 -9.69839309304E-06 -5.08062945744E-05 +6.19344111444E-05 -7.08381006105E-01 +6.56696496156E-01
1.02000000000E+09 -6.26458781758E-01 +7.27917005943E-01 -2.33103014650E-05 +6.30764608791E-05 -5.83211722070E-05 +1.86818789774E-05 -7.04720319660E-01 +6.60048431783E-01
1.02500000000E+09 -6.23144243006E-01 +7.31118499564E-01 -1.00211104715E-05 +1.78246544906E-05 -2.27411400154E-06 +4.34476124384E-05 -7.01889068052E-01 +6.63671109199E-01
1.03000000000E+09 -6.20128621255E-01 +7.34168052347E-01 -2.11918763898E-05 +2.74286714163E-05 -1.33369646527E-05 -3.16901731528E-05 -6.97956535021E-01 +6.67368698655E-01
1.03500000000E+09 -6.16379850771E-01 +7.37110348490E-01 -3.93199923555E-05 +9.01335633001E-06 +2.41174658103E-06 +3.57494755863E-05 -6.94020466418E-01 +6.71212424589E-01
1.04000000000E+09 -6.11952121448E-01 +7.40284580198E-01 +5.15802982027E-05 +4.06830681107E-05 +1.18708304657E-05 -1.31335894544E-05 -6.89981685184E-01 +6.74783877656E-01
1.04500000000E+09 -6.06419707586E-01 +7.43830376370E-01 +3.69187557177E-05 +1.43622738457E-05 +1.28978357587E-06 +1.81462462619E-05 -6.86324885938E-01 +6.78219354150E-01
1.05000000000E+09 -5.99528052255E-01 +7.47875945401E-01 -1.43378175566E-05 +4.90039977770E-06 +8.14403673013E-06 +2.58675125665E-05 -6.82735698540E-01 +6.81610396502E-01
1.05500000000E+09 -5.91994953757E-01 +7.52173076146E-01 -2.92370593556E-05 +1.23538702923E-05 -1.23451693911E-05 +1.22082413515E-05 -6.79204767487E-01 +6.85077606675E-01
1.06000000000E+09 -5.84158883326E-01 +7.56778882654E-01 +3.00161031232E-05 +4.93979120675E-05 -1.73036408329E-06 +4.28031108029E-05 -6.75720031385E-01 +6.88731909958E-01
1.06500000000E+09 -5.76475640283E-01 +7.61386589432E-01 -3.43421951813E-05 +5.40840604137E-05 -2.78642762774E-05 +5.32113720995E-05 -6.71698584552E-01 +6.92357691534E-01
1.07000000000E+09 -5.69366686075E-01 +7.65493421158E-01 +3.67991571435E-05 +2.92484038031E-05 +2.55950999295E-05 +2.62111550551E-05 -6.67393111228E-01 +6.95923874759E-01
1.07500000000E+09 -5.63328733587E-01 +7.69219833085E-01 +6.54786167064E-05 +3.02291313283E-05 +1.89465699605E-05 +4.66446236129E-05 -6.62928381526E-01 +6.99437785029E-01
1.08000000000E+09 -5.58422799914E-01 +7.72441671477E-01 +3.29663299592E-05 +6.81181877135E-06 -1.73543334787E-05 +1.98969774672E-05 -6.58780328179E-01 +7.03059216187E-01
1.08500000000E+09 -5.54603312649E-01 +7.75027653171E-01 +1.22919334610E-05 +2.09502349593E-05 +3.38441335435E-05 +2.10700991124E-05 -6.54816758371E-01 +7.06635959401E-01
1.09000000000E+09 -5.51374788677E-01 +7.77350387540E-01 +4.61688300225E-05 +3.47637831349E-05 +7.48288881607E-05 -2.72040418440E-05 -6.50965235474E-01 +7.10311715608E-01
1.09500000000E+09 -5.48613827985E-01 +7.79414438893E-01 +8.39541879612E-05 +3.02807426973E-05 +3.11253990570E-05 +2.90511986103E-05 -6.46975017694E-01 +7.13834284690E-01
1.10000000000E+09 -5.44877140787E-01 +7.81592766045E-01 +5.48549682306E-05 +7.86141802097E-05 +5.93714756592E-05 +3.89181714360E-05 -6.42810105778E-01 +7.17562265704E-01
1.10500000000E+09 -5.40718071958E-01 +7.84310761913E-01 +4.68963493668E-05 +1.72133953326E-05 +4.38072672585E-05 +2.53629870887E-05 -6.38297753023E-01 +7.20890651423E-01
1.11000000000E+09 -5.35463729021E-01 +7.87372524353E-01 +3.36212826802E-05 -3.49732170234E-05 +7.91559108379E-05 +1.58557397482E-05 -6.34101588769E-01 +7.24037225192E-01
1.11500000000E+09 -5.29096045919E-01 +7.90876750293E-01 +5.55385183290E-05 +1.56821178920E-05 +4.52467579401E-05 +7.03279884458E-05 -6.30017818227E-01 +7.27234492430E-01
1.12000000000E+09 -5.22335173392E-01 +7.94417292766E-01 +4.13808545203E-05 -3.68058154428E-05 +3.35506007279E-06 -6.83588322675E-07 -6.25857863181E-01 +7.30741192057E-01
1.12500000000E+09 -5.14884161619E-01 +7.97963685173E-01 +7.24809263370E-05 +1.19808030255E-06 +7.93674647370E-05 +1.19001690583E-05 -6.21322928663E-01 +7.34475428108E-01
1.13000000000E+09 -5.07767732884E-01 +8.01145698256E-01 +8.39948379714E-05 +2.96089614724E-05 +8.10489953537E-05 -4.49451568675E-06 -6.16945384569E-01 +7.38066402690E-01
1.13500000000E+09 -5.00912327738E-01 +8.03723639596E-01 +3.66010946922E-05 -8.72368020882E-07 +1.12751591795E-04 -3.69057709964E-05 -6.12021979855E-01 +7.41648478191E-01
1.14000000000E+09 -4.94720320971E-01 +8.06122363351E-01 +1.04834825138E-04 -6.09236773472E-06 +7.58002152215E-05 -1.50086493917E-05 -6.07051560358E-01 +7.44957538703E-01
1.14500000000E+09 -4.89333242447E-01 +8.07804385674E-01 +6.72542050593E-05 +3.18475649769E-05 +8.17794861445E-05 -3.27713064359E-05 -6.02140719409E-01 +7.48356361690E-01
1.15000000000E+09 -4.84320735459E-01 +8.09321210006E-01 +8.36103028048E-05 -5.61640613531E-05 +5.69691575825E-05 +3.35046802941E-05 -5.97509701939E-01 +7.51803580404E-01
1.15500000000E+09 -4.79407219348E-01 +8.11155006545E-01 +5.82896944229E-05 -4.49988248769E-05 +8.57232679977E-05 -2.59779760645E-05 -5.92524063178E-01 +7.55539561391E-01
1.16000000000E+09 -4.74088126855E-01 +8.13124360686E-01 +9.60838077370E-05 -6.08620423808E-06 +1.05161332652E-04 -2.11589603184E-07 -5.87520421023E-01 +7.59117957874E-01
1.16500000000E+09 -4.68423134812E-01 +8.15608892038E-01 +6.75941109497E-05 -2.86555143788E-05 +6.69220946871E-05 -3.30233053586E-05 -5.82267182895E-01 +7.62582348564E-01
1.17000000000E+09 -4.62059981764E-01 +8.18462774166E-01 +6.12420328305E-05 -3.67903162680E-05 +7.15648479201E-05 -3.70389813570E-05 -5.76736144972E-01 +7.65697851762E-01
1.17500000000E+09 -4.55003202522E-01 +8.21461984628E-01 +1.14759445006E-04 -5.85406759822E-05 +7.82689570121E-05 -5.13514092058E-05 -5.71049348426E-01 +7.68611252099E-01
1.18000000000E+09 -4.47736502836E-01 +8.24718242082E-01 +1.48457799071E-04 -5.38889233461E-05 +1.06054590083E-04 -1.12496240949E-04 -5.65662349982E-01 +7.71561584183E-01
1.18500000000E+09 -4.40045227786E-01 +8.27743493544E-01 +1.54977256559E-04 -1.42664696201E-04 +1.27580783447E-04 -1.59978454433E-04 -5.59752142831E-01 +7.74298164209E-01
1.19000000000E+09 -4.32383131281E-01 +8.30022745465E-01 +1.04420101908E-04 -1.70251603429E-04 +1.17224410155E-04 -2.30320461652E-04 -5.53532105775E-01 +7.76699750290E-01
1.19500000000E+09 -4.25169778445E-01 +8.31963635982E-01 +7.88028451042E-05 -2.23122614289E-04 +1.46179010048E-04 -2.88546829830E-04 -5.47692629221E-01 +7.77564570144E-01
1.20000000000E+09 -4.18330035818E-01 +8.32926226610E-01 -4.49782956930E-05 -3.09255096047E-04 +6.81730294444E-07 -2.71613325429E-04 -5.42956865084E-01 +7.77710180989E-01
1.20500000000E+09 -4.12005236768E-01 +8.34056462631E-01 -6.96124640206E-05 -1.97803473453E-04 -2.25587086699E-05 -2.10417443699E-04 -5.40557144471E-01 +7.78511313227E-01
1.21000000000E+09 -4.05494353264E-01 +8.35236829011E-01 -9.72981827398E-05 -8.94340216373E-05 -1.05536063628E-04 -9.29644865064E-05 -5.38392857022E-01 +7.81470996300E-01
1.21500000000E+09 -3.98244810012E-01 +8.36840137725E-01 -5.11566663264E-05 -1.00733579453E-04 -3.55686613034E-05 -1.21474731887E-04 -5.35273205413E-01 +7.85966888396E-01
1.22000000000E+09 -3.90683161038E-01 +8.38725952599E-01 -7.04273723857E-05 -1.31675189183E-04 -2.82867437786E-05 -1.39245584392E-04 -5.30719565493E-01 +7.91058303307E-01
1.22500000000E+09 -3.82494040714E-01 +8.41338951014E-01 +8.59428802009E-06 -1.53343789837E-04 -1.05889258708E-05 -1.11077142838E-04 -5.25474047139E-01 +7.95827354141E-01
1.23000000000E+09 -3.73992262183E-01 +8.44198859951E-01 -3.38052960454E-05 -1.06998622960E-04 -5.57802241153E-05 -1.15076169052E-04 -5.19690104793E-01 +8.00186819456E-01
1.23500000000E+09 -3.65682716794E-01 +8.47242244483E-01 -6.60245944610E-05 -1.02270299484E-04 -5.63776720724E-05 -1.55642805918E-04 -5.13703749740E-01 +8.04217772728E-01
1.24000000000E+09 -3.57583275567E-01 +8.50298988493E-01 -3.77710517120E-05 -1.62580513089E-04 -1.01364991428E-04 -1.86066463766E-04 -5.07852484780E-01 +8.07724787071E-01
1.24500000000E+09 -3.49728976217E-01 +8.53638702325E-01 -7.11029449702E-05 -2.06264334071E-04 -1.27188118719E-04 -1.53611745813E-04 -5.01550989492E-01 +8.11220234244E-01
1.25000000000E+09 -3.42224295373E-01 +8.56353538385E-01 -7.39274446704E-05 -9.47723033233E-05 -9.61483465856E-05 -1.48431411270E-04 -4.94903605342E-01 +8.15112663755E-01
1.25500000000E+09 -3.34798640349E-01 +8.58144555748E-01 -7.81445393011E-05 -1.32251295255E-04 -9.61982556345E-05 -1.76707630496E-04 -4.88066953247E-01 +8.18694209634E-01
1.26000000000E+09 -3.27356694461E-01 +8.59289070403E-01 -1.40643957514E-04 -1.95011725107E-04 -1.25239740578E-04 -1.96513739303E-04 -4.81293803659E-01 +8.22685553064E-01
1.26500000000E+09 -3.19669004981E-01 +8.59969447951E-01 -1.01653220180E-04 -2.29830637754E-04 -1.47929427140E-04 -2.10808669253E-04 -4.74338602539E-01 +8.26223286081E-01
1.27000000000E+09 -3.11611430310E-01 +8.60387660502E-01 -2.07627709024E-04 -2.14564191653E-04 -2.14604120573E-04 -2.34748469063E-04 -4.67487593482E-01 +8.29548844240E-01
1.27500000000E+09 -3.02583167608E-01 +8.60969665202E-01 -2.86028450202E-04 -1.78705699662E-04 -2.77123531820E-04 -2.21815517419E-04 -4.60278026425E-01 +8.32827034816E-01
1.28000000000E+09 -2.92626854588E-01 +8.62011465439E-01 -3.08535567115E-04 -1.48431396215E-04 -3.79696064413E-04 -1.86703679970E-04 -4.53163886142E-01 +8.36044151804E-01
1.28500000000E+09 -2.81652947550E-01 +8.63286883732E-01 -3.04435304880E-04 -1.36072623131E-04 -3.58041421211E-04 -1.75249697913E-04 -4.45716559685E-01 +8.39452468736E-01
1.29000000000E+09 -2.70755077608E-01 +8.65132608788E-01 -3.45046700857E-04 -1.33954320368E-04 -3.96817601472E-04 -1.53453383817E-04 -4.38088215381E-01 +8.42965026243E-01
1.29500000000E+09 -2.60052658359E-01 +8.67515583230E-01 -4.12281036335E-04 -1.63868311476E-04 -4.39956016160E-04 -6.66309578334E-05 -4.30246487568E-01 +8.45970932224E-01
1.30000000000E+09 -2.49806111722E-01 +8.70315022117E-01 -4.73767252910E-04 -9.98423096706E-05 -5.15254981607E-04 -3.84165181740E-05 -4.22456439338E-01 +8.49139695743E-01
1.30500000000E+09 -2.40507417019E-01 +8.73025919750E-01 -5.76790941803E-04 -5.81767230497E-05 -5.06902489561E-04 +3.71420267553E-05 -4.14337472789E-01 +8.52226165908E-01
1.31000000000E+09 -2.31716357785E-01 +8.75328944365E-01 -5.56813956370E-04 +5.06348711867E-05 -5.49411441832E-04 +6.03244194197E-05 -4.06077310810E-01 +8.55188596355E-01
1.31500000000E+09 -2.23653949181E-01 +8.76596939085E-01 -5.73437846096E-04 +1.63724805534E-04 -5.53902482253E-04 +1.48780498109E-04 -3.97403673975E-01 +8.58416474016E-01
1.32000000000E+09 -2.16279324997E-01 +8.76896574965E-01 -5.02592649361E-04 +2.04916925532E-04 -5.69081384821E-04 +2.33394042114E-04 -3.88446372876E-01 +8.61432220611E-01
1.32500000000E+09 -2.08878339027E-01 +8.76595583657E-01 -5.41487328100E-04 +2.44571746413E-04 -5.64378675229E-04 +2.40646778472E-04 -3.78996055027E-01 +8.64341146620E-01
1.33000000000E+09 -2.00535805632E-01 +8.75991861016E-01 -5.97762395004E-04 +2.70513690514E-04 -5.72963712335E-04 +3.41363982290E-04 -3.69624235986E-01 +8.67119549601E-01
1.33500000000E+09 -1.90746256185E-01 +8.74977739804E-01 -6.39232394215E-04 +4.29488118920E-04 -5.40653920261E-04 +4.93423348333E-04 -3.59949551690E-01 +8.70000682451E-01
1.34000000000E+09 -1.79434306490E-01 +8.74454693863E-01 -5.99302630103E-04 +5.23527323050E-04 -5.34845625435E-04 +5.22358024436E-04 -3.49978351041E-01 +8.72732261629E-01
1.34500000000E+09 -1.66593212354E-01 +8.74038496955E-01 -5.67300515953E-04 +6.10150913824E-04 -5.66990092502E-04 +6.09094885093E-04 -3.39205560843E-01 +8.75422730247E-01
1.35000000000E+09 -1.52433780618E-01 +8.73995500028E-01 -4.83292806302E-04 +7.24693239451E-04 -4.56133959103E-04 +7.08108646497E-04 -3.28176687638E-01 +8.78122505825E-01
1.35500000000E+09 -1.37632551384E-01 +8.74392770900E-01 -4.48404341068E-04 +7.67715235402E-04 -4.24889190775E-04 +7.13780596601E-04 -3.16917028443E-01 +8.80501308987E-01
1.36000000000E+09 -1.22526605445E-01 +8.74953628518E-01 -4.22118002899E-04 +9.11013199597E-04 -3.85212920058E-04 +8.71930922091E-04 -3.05345179985E-01 +8.82568254103E-01
1.36500000000E+09 -1.07400661684E-01 +8.75034597469E-01 -4.00636835945E-04 +9.97992166617E-04 -3.82395440700E-04 +9.58621327014E-04 -2.93547048738E-01 +8.84450418439E-01
1.37000000000E+09 -9.31483079592E-02 +8.74045824772E-01 -2.81865365156E-04 +1.23487622621E-03 -3.45638603203E-04 +1.12161318886E-03 -2.81054662476E-01 +8.86468760444E-01
1.37500000000E+09 -8.03501223632E-02 +8.72334048414E-01 -6.82294925181E-05 +1.32217837566E-03 -2.42581367641E-04 +1.26274899263E-03 -2.67510064711E-01 +8.88182204280E-01
1.38000000000E+09 -6.78389208713E-02 +8.69892823511E-01 +6.45910105660E-05 +1.28536407001E-03 -1.08885320314E-04 +1.36524678824E-03 -2.53184063228E-01 +8.89648102854E-01
1.38500000000E+09 -5.54524781154E-02 +8.66789908669E-01 +1.34716588288E-04 +1.42153250939E-03 +4.78256361332E-05 +1.62351520935E-03 -2.38330357708E-01 +8.91053169234E-01
1.39000000000E+09 -4.27893201157E-02 +8.63054561025E-01 +2.30194003497E-04 +1.52842073654E-03 +2.99161444754E-04 +1.76843308768E-03 -2.22906715756E-01 +8.92039964673E-01
1.39500000000E+09 -2.87459090192E-02 +8.59192704654E-01 +4.99466053986E-04 +1.69903606007E-03 +6.55901588733E-04 +1.81707557341E-03 -2.06924796071E-01 +8.92349402261E-01
1.40000000000E+09 -1.31642333833E-02 +8.54526095887E-01 +7.43130478233E-04 +1.82786027510E-03 +8.98868184276E-04 +1.75892856011E-03 -1.90264365786E-01 +8.92146923126E-01
1.40500000000E+09 +3.47736342002E-03 +8.49864248553E-01 +1.18448867506E-03 +1.96025879711E-03 +1.23589993506E-03 +1.85562715481E-03 -1.72575568815E-01 +8.91482375013E-01
1.41000000000E+09 +2.13879414532E-02 +8.45113071226E-01 +1.63776564725E-03 +1.76858811269E-03 +1.56146382453E-03 +1.72489328672E-03 -1.53213879931E-01 +8.90385857015E-01
1.41500000000E+09 +4.05749257710E-02 +8.40184115886E-01 +1.83404482793E-03 +1.63286588771E-03 +1.80952743250E-03 +1.77650764742E-03 -1.32351709441E-01 +8.88160724425E-01
1.42000000000E+09 +6.12624587148E-02 +8.34605093337E-01 +2.14438135333E-03 +1.59828892742E-03 +2.31683385079E-03 +1.81967454066E-03 -1.10459561594E-01 +8.85089918229E-01
1.42500000000E+09 +8.22178212593E-02 +8.27007117863E-01 +2.52445575581E-03 +1.45924818072E-03 +2.88389592406E-03 +1.55456862932E-03 -8.78132436744E-02 +8.81049534300E-01
1.43000000000E+09 +1.03333163085E-01 +8.17277237038E-01 +3.02223824087E-03 +1.50815465275E-03 +3.39355896774E-03 +1.36983219326E-03 -6.44638526817E-02 +8.75936774391E-01
1.43500000000E+09 +1.24208858458E-01 +8.05032501755E-01 +3.92413766164E-03 +1.13280314136E-03 +4.11070919276E-03 +7.95869644643E-04 -3.92661575874E-02 +8.68992853183E-01
1.44000000000E+09 +1.45363803772E-01 +7.91345452275E-01 +4.55897218164E-03 +1.75996518267E-04 +4.60828329804E-03 -9.34168901063E-05 -1.26673990555E-02 +8.60034781004E-01
1.44500000000E+09 +1.67949913259E-01 +7.74882855618E-01 +4.64590231551E-03 -7.73358716752E-04 +4.62866626538E-03 -1.00540742248E-03 +1.59847627822E-02 +8.48443326965E-01
1.45000000000E+09 +1.91647718884E-01 +7.55856134961E-01 +4.64854382593E-03 -1.29590167169E-03 +4.60542865462E-03 -1.64714031285E-03 +4.61522498471E-02 +8.33884857153E-01
1.45500000000E+09 +2.16757432728E-01 +7.33863090474E-01 +4.91011344147E-03 -1.88032110113E-03 +4.74129478225E-03 -2.31832608935E-03 +7.73967168851E-02 +8.16668827849E-01
1.46000000000E+09 +2.43157965174E-01 +7.09434113997E-01 +5.29039711836E-03 -2.79554890764E-03 +4.88044422533E-03 -3.16419902642E-03 +1.10544582818E-01 +7.95714607991E-01
1.46500000000E+09 +2.70882267750E-01 +6.81996541909E-01 +5.69530169755E-03 -3.97978374929E-03 +4.95579714079E-03 -3.94926405555E-03 +1.44493051302E-01 +7.69427396843E-01
1.47000000000E+09 +3.00037051730E-01 +6.50875759712E-01 +5.73839822835E-03 -5.94588776424E-03 +5.29658952138E-03 -5.47189888013E-03 +1.79245353224E-01 +7.36795616735E-01
1.47500000000E+09 +3.29280522846E-01 +6.13743085520E-01 +4.63738986069E-03 -8.14945267389E-03 +4.74420888534E-03 -7.65869770588E-03 +2.13969580945E-01 +6.97060238061E-01
1.48000000000E+09 +3.56309491807E-01 +5.69938460157E-01 +2.92422931319E-03 -9.51354846794E-03 +3.25252942596E-03 -9.53321029886E-03 +2.48461400778E-01 +6.49593137198E-01
1.48500000000E+09 +3.79272531384E-01 +5.17731839858E-01 +1.46869137398E-03 -1.07957143187E-02 +1.39252639464E-03 -1.11350450509E-02 +2.80504827950E-01 +5.93044121351E-01
1.49000000000E+09 +3.95712303104E-01 +4.57926446921E-01 -6.48606588167E-04 -1.25558709866E-02 -1.21979412146E-03 -1.25008644242E-02 +3.07970760889E-01 +5.26488335062E-01
1.49500000000E+09 +4.04873424331E-01 +3.90926308262E-01 -4.34237051398E-03 -1.37277727314E-02 -4.68340363285E-03 -1.29421729335E-02 +3.26175489790E-01 +4.49285073080E-01
1.50000000000E+09 +4.05524913930E-01 +3.14968149257E-01 -8.27681869298E-03 -1.32874790216E-02 -7.81650520373E-03 -1.24639087955E-02 +3.31563305232E-01 +3.62397340398E-01
1.50500000000E+09 +3.93288202505E-01 +2.31085908130E-01 -1.25930720764E-02 -1.19723991474E-02 -1.16262248924E-02 -1.18726628917E-02 +3.20377017235E-01 +2.67349342431E-01
1.51000000000E+09 +3.65995313670E-01 +1.43517373146E-01 -1.64933336892E-02 -8.43066105663E-03 -1.59526347442E-02 -9.03398866277E-03 +2.88199400786E-01 +1.67770212725E-01
1.51500000000E+09 +3.20166659739E-01 +5.47770021705E-02 -1.91848808036E-02 -4.43810407028E-03 -1.92732899188E-02 -5.00831307751E-03 +2.32459554283E-01 +7.20966658274E-02
1.52000000000E+09 +2.54263276386E-01 -2.53538729953E-02 -2.13240350638E-02 +7.29835617854E-04 -2.15793469894E-02 +4.84998183906E-04 +1.54804310825E-01 -1.16240395728E-02
1.52500000000E+09 +1.71560679416E-01 -9.16779126998E-02 -2.16079639750E-02 +8.41918523904E-03 -2.18423824816E-02 +8.38609736701E-03 +6.08950608388E-02 -7.78162426090E-02
1.53000000000E+09 +7.55818356922E-02 -1.39111175364E-01 -1.67034048872E-02 +1.49156265092E-02 -1.68610613391E-02 +1.49969016045E-02 -4.86093293820E-02 -1.21292345831E-01
1.53500000000E+09 -2.94795087035E-02 -1.64853280532E-01 -1.16974206551E-02 +1.82274418674E-02 -1.17077954355E-02 +1.82078332580E-02 -1.60747215453E-01 -1.37717405489E-01
1.54000000000E+09 -1.39294295976E-01 -1.65683201497E-01 -6.20460812881E-03 +2.00726149716E-02 -6.25147147149E-03 +1.98637750202E-02 -2.70508148199E-01 -1.30612425074E-01
1.54500000000E+09 -2.42972047265E-01 -1.41801560696E-01 +1.90763281435E-04 +2.06624228463E-02 -2.98673108387E-04 +2.03659340427E-02 -3.69036242720E-01 -1.01933505180E-01
1.55000000000E+09 -3.35576756949E-01 -1.00884334131E-01 +5.41995409417E-03 +1.77584268673E-02 +4.72060022968E-03 +1.79772372697E-02 -4.51760793809E-01 -5.91659851345E-02
1.55500000000E+09 -4.13550601749E-01 -4.70517444274E-02 +8.70216617708E-03 +1.48892228703E-02 +8.21094886636E-03 +1.55864510670E-02 -5.19391252136E-01 -8.01471608682E-03
1.56000000000E+09 -4.75068617645E-01 +1.09583964959E-02 +1.14411832051E-02 +1.12065547465E-02 +1.15463367750E-02 +1.21706472627E-02 -5.72383351521E-01 +4.78922076950E-02
1.56500000000E+09 -5.24482925964E-01 +7.00868596826E-02 +1.20258381935E-02 +7.13527647229E-03 +1.26471533801E-02 +7.81019935773E-03 -6.13493576539E-01 +1.05327673799E-01
1.57000000000E+09 -5.62021789733E-01 +1.29291501074E-01 +1.16841854446E-02 +4.43050007411E-03 +1.24461706431E-02 +4.64464696474E-03 -6.43143281573E-01 +1.62343059968E-01
