# Hz S RI R 50
! CMT, C1220, 16058040, 17.2.0/1
! Date: 14/08/2018 12:38:04
! Data: Format (Calibration Info)
! Freq                      S11: Re/Im (F2)                       S21: Re/Im (F2)                       S12: Re/Im (F2)                       S22: Re/Im (F2)            
1.00000000000E+09 -6.46906455793E-01 +7.14500904929E-01 +1.95483891991E-05 +4.22332635163E-05 -1.85282207020E-05 -2.09750714690E-05 -6.70416028363E-01 +5.38542483286E-01
1.00500000000E+09 -6.39886298266E-01 +7.19818506534E-01 +4.48169528748E-05 -4.10017247609E-06 +9.10506653507E-06 -5.23234237871E-05 -6.67312549604E-01 +5.42185143665E-01
1.01000000000E+09 -6.33901651452E-01 +7.24630369279E-01 -4.37548563644E-05 +1.27642426603E-05 -5.55598762165E-06 +4.25294170388E-05 -6.64485516836E-01 +5.45342688299E-01
1.01500000000E+09 -6.29415400047E-01 +7.28586491262E-01 +5.76598715440E-06 +5.72080076614E-05 +4.92028040835E-05 -3.45507573484E-05 -6.61756698920E-01 +5.48566633654E-01
1.02000000000E+09 -6.26762393897E-01 +7.31980824544E-01 -6.44946227806E-05 +2.95097946393E-05 -4.01613194856E-05 +5.48159430544E-05 -6.59258234379E-01 +5.51729591650E-01
1.02500000000E+09 -6.24631319091E-01 +7.34610524269E-01 -2.41138696628E-05 +1.31705059061E-05 -3.10699946605E-06 +1.21917649462E-05 -6.56958207696E-01 +5.54973628843E-01
1.03000000000E+09 -6.23126735458E-01 +7.36852119841E-01 +1.88673926143E-05 -2.49498689742E-05 -2.48526683734E-05 +6.50853608797E-06 -6.54363064341E-01 +5.58254566919E-01
1.03500000000E+09 -6.20708262862E-01 +7.39054390570E-01 -4.27818754043E-05 +1.05351386096E-05 -4.93823136054E-05 +3.68967119405E-05 -6.51372810892E-01 +5.61973813865E-01
1.04000000000E+09 -6.17292367794E-01 +7.41871796424E-01 -2.97191253950E-05 -1.41194890793E-05 +3.66677800314E-05 +4.46294637017E-05 -6.48243898529E-01 +5.65414308406E-01
1.04500000000E+09 -6.12254603972E-01 +7.45070056218E-01 -2.02786793690E-05 +4.26762481072E-05 -2.54063761904E-05 -1.25681366618E-05 -6.45444632525E-01 +5.68666727565E-01
1.05000000000E+09 -6.05469588289E-01 +7.49236241292E-01 +7.01373153061E-06 -4.48911794510E-06 +1.91465091074E-05 +7.51570882357E-05 -6.42715031064E-01 +5.71912756111E-01
1.05500000000E+09 -5.97412635258E-01 +7.53880922477E-01 +4.70274127486E-05 +4.98422821503E-05 +2.27723088326E-05 +5.56738106960E-05 -6.40234688795E-01 +5.75261882249E-01
1.06000000000E+09 -5.88940113453E-01 +7.59085456217E-01 -1.16001019514E-05 +6.22655519076E-05 +4.19028969426E-05 +4.25328787168E-05 -6.37576071482E-01 +5.78807214210E-01
1.06500000000E+09 -5.80630743844E-01 +7.64277441565E-01 +7.60098972992E-06 +5.22763255096E-05 +3.25468061071E-05 +3.10996113975E-05 -6.34432794605E-01 +5.82419552733E-01
1.07000000000E+09 -5.73515769759E-01 +7.68850227204E-01 +3.91882868649E-05 +2.91254528251E-05 +9.42761920197E-05 +3.39557620880E-06 -6.31074460019E-01 +5.85955080278E-01
1.07500000000E+09 -5.67622660249E-01 +7.72552178945E-01 +1.61279620542E-05 +7.51379237478E-06 +6.61387765615E-05 +1.31638088164E-05 -6.27500713231E-01 +5.89324242111E-01
1.08000000000E+09 -5.63646375251E-01 +7.75726102162E-01 -1.15859366983E-05 +1.72999253323E-05 +1.04762831399E-05 +1.71734217223E-05 -6.24208659671E-01 +5.93082253833E-01
1.08500000000E+09 -5.60881188695E-01 +7.77994549206E-01 +1.79588895797E-06 +1.04347911028E-05 +5.91253380727E-05 -1.40051052308E-05 -6.21240373781E-01 +5.96334385097E-01
1.09000000000E+09 -5.58622917589E-01 +7.79772970338E-01 +2.53199716597E-05 -1.10628332689E-05 +4.03554494057E-05 -1.54285368209E-05 -6.18166622369E-01 +5.99952805943E-01
1.09500000000E+09 -5.56886270170E-01 +7.81494242791E-01 +3.42588597628E-05 +6.49935275646E-06 +7.21959946382E-05 -3.18388438163E-05 -6.15179214978E-01 +6.03617530358E-01
1.10000000000E+09 -5.53673737257E-01 +7.83475704392E-01 -2.38153364594E-05 +2.67462477117E-05 +1.48282277247E-05 +9.53161466510E-06 -6.11966291333E-01 +6.07145007038E-01
1.10500000000E+09 -5.49735195637E-01 +7.86245706236E-01 +5.75584520921E-05 +1.29472122144E-05 +4.91923813356E-05 -1.83241721107E-05 -6.08378478637E-01 +6.10461729032E-01
1.11000000000E+09 -5.44049507058E-01 +7.89588623533E-01 +6.55855648290E-05 +1.44387004660E-05 +1.70338209007E-05 -6.09659441415E-06 -6.04935777920E-01 +6.13746814338E-01
1.11500000000E+09 -5.37113496581E-01 +7.93840490989E-01 +7.74579587037E-05 +8.57174970180E-06 +1.02574350360E-05 +5.78579727734E-05 -6.01893464886E-01 +6.16900550710E-01
1.12000000000E+09 -5.29607148305E-01 +7.98080678770E-01 +3.78042789442E-05 -1.36510368416E-05 +4.52404834424E-05 +3.76219791782E-05 -5.98466641658E-01 +6.20385270567E-01
1.12500000000E+09 -5.21816349050E-01 +8.02510139673E-01 +2.38490205926E-05 +6.75964628958E-06 +3.91740580156E-05 -1.37376116524E-05 -5.95108454425E-01 +6.24407358002E-01
1.13000000000E+09 -5.14746915544E-01 +8.06495950858E-01 +2.53954653219E-05 -1.08896115784E-06 +4.23188814818E-05 +3.44369364541E-05 -5.91619506193E-01 +6.28140768681E-01
1.13500000000E+09 -5.08589373236E-01 +8.09324635902E-01 +5.18417427865E-05 -3.41153407749E-06 +3.89444338574E-05 -2.78950622618E-05 -5.87600432320E-01 +6.31766817194E-01
1.14000000000E+09 -5.03405028925E-01 +8.11646123608E-01 +3.44403420318E-05 +2.86890146232E-06 +7.02677841591E-05 -9.34760222020E-07 -5.83599317723E-01 +6.35222114670E-01
1.14500000000E+09 -4.99604705061E-01 +8.13163729348E-01 +6.48589512244E-05 +1.89398239106E-06 +1.22297134869E-05 -1.19877805040E-05 -5.79626507017E-01 +6.38561792520E-01
1.15000000000E+09 -4.95930879081E-01 +8.14183270243E-01 +6.14091301537E-05 -4.07301947202E-05 +2.19940658875E-05 -1.26567169366E-06 -5.75623560772E-01 +6.42288622039E-01
1.15500000000E+09 -4.92288678531E-01 +8.15753557789E-01 +5.84068305901E-05 -3.67140095062E-05 +5.19774265641E-05 +2.86617812355E-05 -5.71741744650E-01 +6.45920281422E-01
1.16000000000E+09 -4.87744786492E-01 +8.17440321703E-01 +8.76096416453E-05 -2.87378429141E-05 +6.93687594207E-05 -7.33540191537E-05 -5.67629645631E-01 +6.49600185927E-01
1.16500000000E+09 -4.82200132559E-01 +8.20200000724E-01 +5.23056005468E-05 -7.63356260188E-06 +4.39627815522E-05 -3.20159793458E-05 -5.63509843269E-01 +6.53017582550E-01
1.17000000000E+09 -4.75358727639E-01 +8.23458994890E-01 +3.73218976401E-05 -6.64752794945E-05 +2.85934407177E-05 -2.85779711658E-05 -5.58918423330E-01 +6.56245538549E-01
1.17500000000E+09 -4.67687714659E-01 +8.27206473848E-01 +8.24515039726E-05 -4.38910574884E-05 +3.28532380150E-05 -2.34662146293E-05 -5.54306984115E-01 +6.59480464895E-01
1.18000000000E+09 -4.59871206915E-01 +8.31394982812E-01 +4.79332831868E-05 -1.00683741443E-05 +6.59249008446E-05 -5.00304082518E-05 -5.49576000312E-01 +6.62518264747E-01
1.18500000000E+09 -4.51954442588E-01 +8.34997452057E-01 +2.13540949915E-05 -5.28768127201E-05 +7.95414199067E-05 -3.99642725857E-05 -5.44678396792E-01 +6.65693014647E-01
1.19000000000E+09 -4.44880647846E-01 +8.38066526059E-01 +3.21832996896E-05 -4.79896424754E-05 +5.86361393522E-05 -8.67378659940E-05 -5.39423085814E-01 +6.68320099943E-01
1.19500000000E+09 -4.38637474633E-01 +8.40397066025E-01 +6.71329255591E-05 -9.73185528493E-05 +7.79916816185E-05 -7.80396869654E-05 -5.34395944246E-01 +6.69805009468E-01
1.20000000000E+09 -4.33556586941E-01 +8.41186763265E-01 +3.08397456186E-05 -1.67945612623E-04 -9.17498214227E-06 -1.66416927010E-04 -5.30392634399E-01 +6.70400937535E-01
1.20500000000E+09 -4.28888553959E-01 +8.42111624669E-01 -1.20994706330E-04 -1.47944010737E-04 -3.88067115361E-05 -1.43177777374E-04 -5.28354878665E-01 +6.71042192790E-01
1.21000000000E+09 -4.24311142989E-01 +8.43029171549E-01 -8.04162698099E-05 -4.31473125866E-05 -5.38221931819E-05 -1.18742228052E-05 -5.26677815535E-01 +6.74009714158E-01
1.21500000000E+09 -4.18245524771E-01 +8.44247691461E-01 -5.97043390566E-05 -5.33412517012E-05 -6.65791011483E-05 -5.14684071971E-05 -5.24511569189E-01 +6.78254541839E-01
1.22000000000E+09 -4.10987738477E-01 +8.46172588733E-01 -3.13136303080E-05 -4.85779551173E-05 +9.63912740130E-06 -5.93633485664E-05 -5.20981298206E-01 +6.83347045158E-01
1.22500000000E+09 -4.02250612824E-01 +8.48958422562E-01 +9.67072300507E-06 -5.21132284775E-05 +3.01176864790E-06 -1.10972052845E-05 -5.16930589119E-01 +6.88178553223E-01
1.23000000000E+09 -3.92450877772E-01 +8.52246982222E-01 -2.12686284146E-05 -8.59576931027E-05 -4.44049712637E-05 -6.72103111654E-05 -5.12241833340E-01 +6.92709147877E-01
1.23500000000E+09 -3.82435491011E-01 +8.56168481918E-01 -6.56042869842E-05 -4.54381146646E-05 +1.97510047011E-05 -6.12562043873E-05 -5.07362037044E-01 +6.96958357739E-01
1.24000000000E+09 -3.72730794424E-01 +8.60488234018E-01 -2.21066862205E-06 -1.19312340190E-04 -3.33770815240E-05 -6.48915678843E-05 -5.02509077192E-01 +7.00612083516E-01
1.24500000000E+09 -3.63754527417E-01 +8.64850422396E-01 -1.90474136654E-05 -9.25423699961E-05 -6.31673836786E-05 -9.54236252227E-05 -4.97291518224E-01 +7.04318974232E-01
1.25000000000E+09 -3.56003805786E-01 +8.68607493712E-01 -8.25735528433E-06 -9.68346392527E-05 -2.08152075494E-05 -6.88372956052E-05 -4.91927561954E-01 +7.08485326697E-01
1.25500000000E+09 -3.49259710005E-01 +8.71119010487E-01 -5.62856839542E-05 -9.61588609182E-05 -7.57918086094E-05 -1.04644043475E-04 -4.86304004072E-01 +7.12579790029E-01
1.26000000000E+09 -3.43336945807E-01 +8.72974445090E-01 -6.53916645407E-05 -8.61205111166E-05 -4.82864458395E-05 -9.26580381100E-05 -4.80806320692E-01 +7.16898690705E-01
1.26500000000E+09 -3.37806409231E-01 +8.73960542398E-01 -6.38391969485E-05 -1.22147431457E-04 -8.22367837062E-05 -7.73067372968E-05 -4.74899411736E-01 +7.20963949921E-01
1.27000000000E+09 -3.31853662791E-01 +8.74743813328E-01 -9.84453324003E-05 -1.20130454647E-04 -1.12573889254E-04 -1.36025115325E-04 -4.69002785414E-01 +7.25004353587E-01
1.27500000000E+09 -3.24514754823E-01 +8.75791861632E-01 -1.34383659357E-04 -1.11426325725E-04 -1.42519743739E-04 -8.20943094899E-05 -4.63036906410E-01 +7.28845286621E-01
1.28000000000E+09 -3.15264725693E-01 +8.77245834449E-01 -1.78803246144E-04 -7.51415522699E-05 -1.49840806655E-04 -9.55029056893E-05 -4.56800039139E-01 +7.32818054765E-01
1.28500000000E+09 -3.04212659384E-01 +8.79480673185E-01 -1.59860143472E-04 -5.26846562416E-05 -1.76145049713E-04 -6.33017048816E-05 -4.50356111052E-01 +7.36720713195E-01
1.29000000000E+09 -2.92296283345E-01 +8.82263369500E-01 -2.12509547529E-04 -4.68065145550E-05 -1.90133302421E-04 +5.49087040167E-06 -4.43796590783E-01 +7.40552447469E-01
1.29500000000E+09 -2.80093781749E-01 +8.85844802932E-01 -1.51081259104E-04 -2.20617179661E-05 -2.34830053227E-04 -3.17623557759E-05 -4.36995907103E-01 +7.44523743649E-01
1.30000000000E+09 -2.68375235782E-01 +8.89571623240E-01 -1.47820942253E-04 +1.36381861230E-06 -1.44541744839E-04 +3.56926340738E-06 -4.29986958402E-01 +7.48321412774E-01
1.30500000000E+09 -2.57641006979E-01 +8.93245417371E-01 -2.20139219224E-04 -5.12612556790E-05 -1.53080581949E-04 +3.92885299363E-05 -4.23046040978E-01 +7.52158385504E-01
1.31000000000E+09 -2.48513775850E-01 +8.95727201821E-01 -2.33433387220E-04 +5.19945117193E-05 -2.46902882325E-04 -9.54570739374E-06 -4.15805785945E-01 +7.55793877352E-01
1.31500000000E+09 -2.41317358494E-01 +8.97345300386E-01 -2.16892388326E-04 +6.54127829964E-05 -2.32007881894E-04 +1.42112147949E-05 -4.08135238522E-01 +7.59537130787E-01
1.32000000000E+09 -2.35364809653E-01 +8.98070105399E-01 -2.36805535576E-04 +4.76501402778E-05 -2.15420943024E-04 +8.58685629134E-05 -4.00109810175E-01 +7.63295735682E-01
1.32500000000E+09 -2.29354544599E-01 +8.97778296580E-01 -2.24246393271E-04 +9.55173271255E-05 -2.11899550532E-04 +1.18066556420E-04 -3.92006673454E-01 +7.66924901364E-01
1.33000000000E+09 -2.22416925445E-01 +8.97371551907E-01 -1.96282426745E-04 +1.52909754134E-04 -1.43427993680E-04 +1.17107134265E-04 -3.83513556104E-01 +7.70582705118E-01
1.33500000000E+09 -2.13408135291E-01 +8.96718575840E-01 -2.45343663883E-04 +1.26121458524E-04 -2.33890809715E-04 +1.16045300537E-04 -3.74927952364E-01 +7.74228949362E-01
1.34000000000E+09 -2.01763626433E-01 +8.96507176775E-01 -2.25387943598E-04 +1.33864985667E-04 -2.29617382740E-04 +1.54273067614E-04 -3.66017854232E-01 +7.77892935441E-01
1.34500000000E+09 -1.87658011645E-01 +8.96464700036E-01 -2.15780175355E-04 +2.30199754833E-04 -2.43217458680E-04 +2.16589921562E-04 -3.56394596251E-01 +7.81676355069E-01
1.35000000000E+09 -1.71598661711E-01 +8.97205519323E-01 -2.20158258786E-04 +2.19504766834E-04 -2.26253799539E-04 +2.99793565747E-04 -3.46462446770E-01 +7.85456518114E-01
1.35500000000E+09 -1.54544977540E-01 +8.98170361222E-01 -1.87318075852E-04 +2.78647650766E-04 -2.00598430631E-04 +2.34049437259E-04 -3.36121640722E-01 +7.89045552911E-01
1.36000000000E+09 -1.37844596216E-01 +8.99437012609E-01 -2.20500319657E-04 +3.30872290468E-04 -2.10746455617E-04 +3.30699764573E-04 -3.25414425408E-01 +7.92549474847E-01
1.36500000000E+09 -1.21950727565E-01 +9.00315377705E-01 -2.04010161832E-04 +3.85184921807E-04 -1.68179379833E-04 +3.62910088659E-04 -3.14566238719E-01 +7.95754402273E-01
1.37000000000E+09 -1.08030027630E-01 +9.00402873523E-01 -1.37577731679E-04 +4.44171244298E-04 -1.63349308632E-04 +4.34291472120E-04 -3.03093036486E-01 +7.98999792332E-01
1.37500000000E+09 -9.61166952331E-02 +9.00029703219E-01 -4.55441200274E-05 +4.73505792478E-04 -8.70448066229E-05 +4.35593188076E-04 -2.90762752134E-01 +8.02080932396E-01
1.38000000000E+09 -8.53020766966E-02 +8.98978019583E-01 -7.00598749427E-06 +4.93002775549E-04 -1.25252924482E-04 +5.17435570304E-04 -2.77539017252E-01 +8.05200496339E-01
1.38500000000E+09 -7.41621101200E-02 +8.97043962145E-01 +9.04634143170E-06 +5.38574270617E-04 -3.96760053765E-05 +6.09202028696E-04 -2.63539455649E-01 +8.08083528841E-01
1.39000000000E+09 -6.19204348700E-02 +8.94479964669E-01 +2.94192441089E-05 +5.37740272893E-04 +2.59537325951E-05 +6.20610123412E-04 -2.49326649227E-01 +8.10894933456E-01
1.39500000000E+09 -4.72027782466E-02 +8.91142109957E-01 +8.77976625647E-05 +5.67381382373E-04 +2.08013419865E-04 +6.26079887470E-04 -2.33956902088E-01 +8.12979086683E-01
1.40000000000E+09 -2.95536826654E-02 +8.87124854829E-01 +7.46835671838E-05 +6.41754129288E-04 +1.92985587310E-04 +6.30361820605E-04 -2.18140538610E-01 +8.14746118917E-01
1.40500000000E+09 -9.61648139996E-03 +8.82485925590E-01 +2.59265726495E-04 +7.56701149726E-04 +2.86187117628E-04 +7.25490812036E-04 -2.01175158295E-01 +8.16188441312E-01
1.41000000000E+09 +1.22865557601E-02 +8.77506608386E-01 +3.78721829420E-04 +7.28129954463E-04 +3.92816501456E-04 +7.14202998213E-04 -1.82486716218E-01 +8.17223389076E-01
1.41500000000E+09 +3.50536977028E-02 +8.71995459481E-01 +5.36703076090E-04 +8.06500822997E-04 +5.02868608748E-04 +8.41169319208E-04 -1.62497510231E-01 +8.17583763748E-01
1.42000000000E+09 +5.80477530695E-02 +8.65674033268E-01 +6.94349238569E-04 +7.37939863829E-04 +7.64069046557E-04 +7.89648809848E-04 -1.41041966058E-01 +8.17285192658E-01
1.42500000000E+09 +7.98179499778E-02 +8.58508196685E-01 +8.07080354790E-04 +6.98689727730E-04 +8.97921687109E-04 +7.03185473843E-04 -1.18443838663E-01 +8.15840553782E-01
1.43000000000E+09 +1.00289827930E-01 +8.49602057814E-01 +9.41227113523E-04 +6.79979448293E-04 +1.02589786283E-03 +6.89192970502E-04 -9.49611459919E-02 +8.13506769940E-01
1.43500000000E+09 +1.20254047244E-01 +8.39152966818E-01 +1.12994092840E-03 +7.50398399781E-04 +1.29276635209E-03 +7.00194892438E-04 -6.97118159634E-02 +8.09628242976E-01
1.44000000000E+09 +1.40284143908E-01 +8.26893332782E-01 +1.62299050901E-03 +5.91232493518E-04 +1.67110041243E-03 +4.59033433930E-04 -4.26095139091E-02 +8.03957409110E-01
1.44500000000E+09 +1.62295023644E-01 +8.11689849824E-01 +1.81020080698E-03 +1.67394823892E-04 +1.88162618660E-03 +2.93190004927E-05 -1.30816908697E-02 +7.95711433419E-01
1.45000000000E+09 +1.86750311518E-01 +7.92672105118E-01 +1.71163642330E-03 -7.02779370722E-05 +1.78513740401E-03 -1.86485412217E-04 +1.82529864301E-02 +7.84517517846E-01
1.45500000000E+09 +2.13817075922E-01 +7.69802000183E-01 +1.89798698073E-03 -1.73479306751E-04 +1.83680811060E-03 -3.21987478000E-04 +5.14927079921E-02 +7.70474234547E-01
1.46000000000E+09 +2.44023903381E-01 +7.42993687580E-01 +2.20559940649E-03 -3.65955772772E-04 +2.10642068497E-03 -5.88989807203E-04 +8.62634482357E-02 +7.52255756683E-01
1.46500000000E+09 +2.76177880023E-01 +7.11316650912E-01 +2.66245098821E-03 -9.50533018115E-04 +2.41083058821E-03 -1.02507379259E-03 +1.22639917482E-01 +7.29294740142E-01
1.47000000000E+09 +3.08878777579E-01 +6.75243580077E-01 +2.73650505501E-03 -1.88341045597E-03 +2.51121279662E-03 -1.77024342360E-03 +1.60394966515E-01 +6.99402093202E-01
1.47500000000E+09 +3.40566457176E-01 +6.33723062720E-01 +2.51848485749E-03 -2.91615461793E-03 +2.47611019712E-03 -2.68763509358E-03 +1.98334550943E-01 +6.62473193461E-01
1.48000000000E+09 +3.69098354002E-01 +5.86083929719E-01 +1.62528957801E-03 -3.56444076508E-03 +1.77372354461E-03 -3.58597864263E-03 +2.36258864736E-01 +6.16593226842E-01
1.48500000000E+09 +3.91727408618E-01 +5.31779952984E-01 +1.06734961648E-03 -3.89370371901E-03 +1.01831165870E-03 -3.95874037797E-03 +2.72065280364E-01 +5.61776427824E-01
1.49000000000E+09 +4.08054275200E-01 +4.70287728985E-01 +5.57565172515E-04 -4.48211999425E-03 +3.66385672121E-04 -4.50707300076E-03 +3.02967934198E-01 +4.95460306653E-01
1.49500000000E+09 +4.15370236949E-01 +4.00916313354E-01 -5.94867722898E-04 -5.38286151866E-03 -7.72684524585E-04 -5.15687810510E-03 +3.22731808090E-01 +4.19097393507E-01
1.50000000000E+09 +4.13666109922E-01 +3.22717711344E-01 -2.53609593588E-03 -5.39067494261E-03 -2.35844990072E-03 -5.07021573079E-03 +3.31153599475E-01 +3.34262914769E-01
1.50500000000E+09 +3.98250913150E-01 +2.35140519448E-01 -3.69874358712E-03 -4.93493768928E-03 -3.37105173113E-03 -4.86930113152E-03 +3.22581519211E-01 +2.40815930679E-01
1.51000000000E+09 +3.65671526843E-01 +1.43039006255E-01 -5.51646466231E-03 -4.16964601047E-03 -5.27365921257E-03 -4.33117856491E-03 +2.93277155642E-01 +1.43592978636E-01
1.51500000000E+09 +3.13936401514E-01 +5.15918618840E-02 -6.92382011396E-03 -2.96757137153E-03 -6.90668131011E-03 -3.12424117844E-03 +2.41447093691E-01 +5.18971282232E-02
1.52000000000E+09 +2.42556933918E-01 -3.02489076217E-02 -8.56179204960E-03 -3.63972752648E-04 -8.65773160506E-03 -5.37700411823E-04 +1.71060528579E-01 -2.98653407259E-02
1.52500000000E+09 +1.55039567861E-01 -9.59584834684E-02 -7.85785433308E-03 +3.32549054565E-03 -7.95603232381E-03 +3.31636160320E-03 +8.19318718981E-02 -9.36376316920E-02
1.53000000000E+09 +5.52221364725E-02 -1.41219106496E-01 -5.42825067907E-03 +4.85020789217E-03 -5.50866032743E-03 +4.82412556189E-03 -1.67686394319E-02 -1.34949333489E-01
1.53500000000E+09 -5.20130988446E-02 -1.61590013876E-01 -4.04246177578E-03 +5.70305604247E-03 -4.08639511673E-03 +5.60661335586E-03 -1.19197232729E-01 -1.52958687891E-01
1.54000000000E+09 -1.60368259334E-01 -1.55832959774E-01 -2.11680708790E-03 +5.86335614073E-03 -2.16300518544E-03 +5.79762827242E-03 -2.17578424870E-01 -1.49911208662E-01
1.54500000000E+09 -2.62968529564E-01 -1.28659858101E-01 -8.82416989369E-04 +6.18690984060E-03 -1.06805678377E-03 +6.10564091813E-03 -3.05666111058E-01 -1.29461020898E-01
1.55000000000E+09 -3.55206926293E-01 -8.18083470563E-02 +9.29910063564E-04 +6.02574006922E-03 +6.90396822000E-04 +6.05967991943E-03 -3.82326088402E-01 -9.79669370181E-02
1.55500000000E+09 -4.30889409098E-01 -2.50539527741E-02 +2.66195127343E-03 +4.86874285675E-03 +2.53093948631E-03 +5.15916819694E-03 -4.46770524872E-01 -5.69139582606E-02
1.56000000000E+09 -4.92640843320E-01 +3.42580158902E-02 +3.24978658241E-03 +3.24871256260E-03 +3.30072641610E-03 +3.53852890498E-03 -4.98494940164E-01 -1.08365940681E-02
1.56500000000E+09 -5.41842857832E-01 +9.42479193481E-02 +3.20447821658E-03 +2.13005901131E-03 +3.35728055028E-03 +2.32746183618E-03 -5.38941967900E-01 +3.75980001500E-02
1.57000000000E+09 -5.78587904798E-01 +1.52460647344E-01 +3.08795941901E-03 +1.34018520902E-03 +3.25890462981E-03 +1.40708579593E-03 -5.69567271355E-01 +8.51563746995E-02
