# Hz S RI R 50
! CMT, C1220, 16058040, 17.2.0/1
! Date: 14/08/2018 12:56:04
! Data: Format (Calibration Info)
! Freq                      S11: Re/Im (F2)                       S21: Re/Im (F2)                       S12: Re/Im (F2)                       S22: Re/Im (F2)            
1.00000000000E+09 -6.46668751749E-01 +7.13451746157E-01 +1.72333826389E-05 -1.87695294406E-05 +2.04048259285E-05 +5.52079326227E-05 -7.19046248296E-01 +6.45721060527E-01
1.00500000000E+09 -6.39990784867E-01 +7.18137022032E-01 +2.91117634472E-05 -2.88740837495E-05 -1.31484017760E-05 +3.84491458784E-05 -7.15217191629E-01 +6.49755644439E-01
1.01000000000E+09 -6.34024726070E-01 +7.22596051349E-01 -7.60128800892E-06 +2.11325045754E-05 +1.97897216322E-05 +6.73401070751E-06 -7.11503526747E-01 +6.53168718652E-01
1.01500000000E+09 -6.29234584709E-01 +7.26612577991E-01 +1.63137954102E-05 +1.78394529359E-05 +2.10632285785E-05 +6.57627849396E-05 -7.08209151318E-01 +6.56701943891E-01
1.02000000000E+09 -6.25283847819E-01 +7.30124925268E-01 +4.28469244722E-05 +7.09962675282E-05 +1.28771280820E-06 +1.77708456595E-05 -7.04639436212E-01 +6.60029082737E-01
1.02500000000E+09 -6.21775859977E-01 +7.33368198619E-01 -3.02419778546E-05 -2.63932194234E-05 +2.15684687939E-05 +3.54146358814E-05 -7.01636594270E-01 +6.63529641562E-01
1.03000000000E+09 -6.18672208812E-01 +7.36350596009E-01 +7.37952614476E-06 -4.62704351978E-06 +4.12965834351E-05 +4.63054083058E-05 -6.97911250119E-01 +6.67412888243E-01
1.03500000000E+09 -6.14786201336E-01 +7.39419196905E-01 -2.05357908980E-05 +6.85951070324E-05 +3.97775700586E-05 +6.02847984130E-05 -6.93796991523E-01 +6.71241719518E-01
1.04000000000E+09 -6.10281504400E-01 +7.42771936363E-01 +1.85066321754E-05 +2.10645175524E-05 -3.19152767818E-05 +2.14425996191E-05 -6.89784331720E-01 +6.74637279489E-01
1.04500000000E+09 -6.04708644014E-01 +7.46429560897E-01 +4.23126739617E-05 +3.33585790260E-05 +2.70505018268E-05 -8.61963194454E-06 -6.86026758343E-01 +6.78061567795E-01
1.05000000000E+09 -5.97698159218E-01 +7.50438915135E-01 +9.58647797807E-06 +3.07009599324E-05 -4.06784693646E-06 -3.44513555786E-06 -6.82569796670E-01 +6.81401317943E-01
1.05500000000E+09 -5.89874049069E-01 +7.54723389489E-01 -2.20660393143E-08 +3.69541924790E-05 +4.17571523637E-05 +4.17609434238E-05 -6.79115849382E-01 +6.84910959601E-01
1.06000000000E+09 -5.81754958969E-01 +7.59504973528E-01 +2.20331091400E-05 +3.84423713741E-05 -4.12656103441E-06 -8.96974936043E-06 -6.75584098409E-01 +6.88632323644E-01
1.06500000000E+09 -5.73681970133E-01 +7.64288319943E-01 -4.10931026865E-05 +3.67427406273E-06 +2.18979891456E-05 +1.21297956069E-06 -6.71453580923E-01 +6.92387194389E-01
1.07000000000E+09 -5.66525287636E-01 +7.68284421532E-01 +2.94784954207E-05 +2.29386741392E-05 +2.70986165089E-05 +4.49331507868E-05 -6.67149032870E-01 +6.95895985354E-01
1.07500000000E+09 -5.60376546960E-01 +7.72031854052E-01 +3.41142312881E-05 +5.14805717278E-05 -6.03415471368E-06 +4.75265756807E-05 -6.62646126901E-01 +6.99380205086E-01
1.08000000000E+09 -5.55391229598E-01 +7.75386334208E-01 +1.81643891765E-05 +6.04737929036E-05 +3.19729890090E-05 +3.63611450977E-05 -6.58689018720E-01 +7.03071984662E-01
1.08500000000E+09 -5.51508241660E-01 +7.78020611506E-01 +1.19580272301E-05 +1.50344427560E-05 -9.56426620988E-06 +6.84746977207E-05 -6.54642386091E-01 +7.06452986025E-01
1.09000000000E+09 -5.47988060179E-01 +7.80500166139E-01 +1.23301926023E-06 +5.82176521526E-06 +2.90830437186E-05 +4.57127758135E-05 -6.50840019290E-01 +7.10160837001E-01
1.09500000000E+09 -5.44960103418E-01 +7.82706129362E-01 +2.41502381765E-05 +4.68652136877E-05 +2.87955233296E-05 +4.30534095639E-05 -6.46872389214E-01 +7.13838208725E-01
1.10000000000E+09 -5.41286126314E-01 +7.84809690486E-01 +2.50235892492E-05 +1.59576344694E-05 +8.76682827398E-05 +3.50013482032E-05 -6.42598214419E-01 +7.17480759881E-01
1.10500000000E+09 -5.37100267153E-01 +7.87514266579E-01 +5.81336757816E-05 +5.19391487248E-05 +8.04344516486E-05 +7.30717945354E-06 -6.38226405010E-01 +7.20845854787E-01
1.11000000000E+09 -5.31627140040E-01 +7.90679556894E-01 +5.44584463640E-05 +4.02686697094E-05 +5.05339015529E-05 +1.77354123268E-05 -6.33958586667E-01 +7.23941270247E-01
1.11500000000E+09 -5.25240849821E-01 +7.94024198468E-01 +4.81890831385E-05 +6.00980991515E-05 +3.90767691297E-05 +7.57907746901E-06 -6.29652703121E-01 +7.27184298356E-01
1.12000000000E+09 -5.18117313908E-01 +7.97659697221E-01 +5.11543712319E-05 -1.28183349655E-05 +6.30896093136E-05 +1.74012176645E-05 -6.25590870744E-01 +7.30623924582E-01
1.12500000000E+09 -5.10653435361E-01 +8.01236157073E-01 +7.51762005311E-05 -7.08484116131E-06 +8.20009291648E-05 -1.18306596722E-05 -6.21263671977E-01 +7.34413417820E-01
1.13000000000E+09 -5.03321775442E-01 +8.04626868931E-01 +4.30169735467E-05 -1.46302640698E-05 +7.75198876444E-05 +4.51887441400E-05 -6.16598984139E-01 +7.37999869015E-01
1.13500000000E+09 -4.96343346324E-01 +8.07194732634E-01 +5.04398332167E-05 +3.73798152370E-05 +9.72484546742E-05 -1.52930927788E-05 -6.11858526233E-01 +7.41545816300E-01
1.14000000000E+09 -4.89982257835E-01 +8.09426631658E-01 +6.15327252948E-05 +3.45487616630E-06 +7.80133271077E-05 +1.89471655944E-05 -6.06970377853E-01 +7.44908315753E-01
1.14500000000E+09 -4.84391205702E-01 +8.11110954285E-01 +8.64947207454E-05 -2.52670193324E-05 +1.04683706955E-04 +2.61980770823E-05 -6.02003242352E-01 +7.48147788416E-01
1.15000000000E+09 -4.79094864480E-01 +8.12701197414E-01 +8.12190504624E-05 -5.65444668767E-05 +8.69532681076E-05 -2.02835646873E-05 -5.97235651408E-01 +7.51708809668E-01
1.15500000000E+09 -4.74109099344E-01 +8.14729285453E-01 +7.52702075412E-05 -2.34055440662E-05 +6.03110038010E-05 -8.49725995855E-06 -5.92425442370E-01 +7.55518247405E-01
1.16000000000E+09 -4.68602132698E-01 +8.16514519379E-01 +1.02803860736E-04 -6.70349969146E-05 +9.50062542383E-05 -2.45841355252E-06 -5.87384199651E-01 +7.59082441541E-01
1.16500000000E+09 -4.62504721870E-01 +8.18998389166E-01 +7.32071065698E-05 -1.63699638722E-05 +1.26982067793E-04 -5.54576183306E-05 -5.82180169201E-01 +7.62478705795E-01
1.17000000000E+09 -4.56077764203E-01 +8.21854101327E-01 +1.34232853607E-04 -3.00943371161E-05 +8.60330460093E-05 -7.39244588281E-05 -5.76691718232E-01 +7.65518438707E-01
1.17500000000E+09 -4.48758432521E-01 +8.24761367193E-01 +1.35922041848E-04 -5.99355304176E-05 +1.22775595347E-04 -7.09705953742E-05 -5.71052447421E-01 +7.68676172736E-01
1.18000000000E+09 -4.41186921014E-01 +8.28060410166E-01 +1.31722011805E-04 -9.10997013067E-05 +1.31714997248E-04 -6.84704824459E-05 -5.65588340676E-01 +7.71527127075E-01
1.18500000000E+09 -4.33432224041E-01 +8.30868716077E-01 +1.50413924482E-04 -1.13958486546E-04 +1.47476926662E-04 -1.10572739980E-04 -5.59625146284E-01 +7.74180101483E-01
1.19000000000E+09 -4.25522747638E-01 +8.33330618884E-01 +1.24199010286E-04 -1.74196502850E-04 +1.27038388348E-04 -1.94366076996E-04 -5.53398348270E-01 +7.76483768696E-01
1.19500000000E+09 -4.17954859843E-01 +8.35283661360E-01 +9.29993656061E-05 -2.65603590322E-04 +1.17971329385E-04 -2.91884851024E-04 -5.47615749365E-01 +7.77517134406E-01
1.20000000000E+09 -4.10971600362E-01 +8.36045819639E-01 +4.89048876441E-05 -3.21954989805E-04 +5.48641227878E-05 -3.14781750091E-04 -5.42872260385E-01 +7.77550423324E-01
1.20500000000E+09 -4.04277193674E-01 +8.37299505287E-01 -4.47007202533E-05 -2.15155892877E-04 -1.09716345172E-04 -2.36344010256E-04 -5.40337510537E-01 +7.78413975047E-01
1.21000000000E+09 -3.97494911570E-01 +8.38566322035E-01 -1.09205358196E-04 -1.50604885633E-04 -6.66818895588E-05 -1.33547562376E-04 -5.38305932352E-01 +7.81358475354E-01
1.21500000000E+09 -3.90029855382E-01 +8.40057805735E-01 -1.00768705338E-04 -1.04199309539E-04 -7.91313974295E-05 -8.81246669158E-05 -5.35116686785E-01 +7.85698769559E-01
1.22000000000E+09 -3.82106055681E-01 +8.41924158860E-01 +1.03359040950E-05 -1.54585364354E-04 +8.79885616978E-06 -9.91511653762E-05 -5.30738523936E-01 +7.91028066714E-01
1.22500000000E+09 -3.73615836915E-01 +8.44386472928E-01 -3.37759083223E-05 -1.90892184423E-04 -8.25742155221E-05 -1.65111748991E-04 -5.25431804746E-01 +7.95766212427E-01
1.23000000000E+09 -3.64955017116E-01 +8.46943173173E-01 -6.92791386928E-05 -1.50196265901E-04 -9.58313464211E-05 -1.66439233338E-04 -5.19598836905E-01 +8.00005818152E-01
1.23500000000E+09 -3.56423476574E-01 +8.50035396170E-01 -1.04289420724E-04 -1.59708277133E-04 -8.10834213544E-05 -2.05759154563E-04 -5.13631783822E-01 +8.04019389311E-01
1.24000000000E+09 -3.47990301625E-01 +8.53000138669E-01 -1.11291898335E-04 -2.24073771994E-04 -9.13990534223E-05 -1.88383932131E-04 -5.07608628354E-01 +8.07577114588E-01
1.24500000000E+09 -3.40111427689E-01 +8.56159958938E-01 -1.58237268334E-04 -2.08513025590E-04 -1.53937926501E-04 -2.04477873135E-04 -5.01470812476E-01 +8.11084549039E-01
1.25000000000E+09 -3.32427619001E-01 +8.58704142633E-01 -1.04975580611E-04 -1.74843607982E-04 -7.12743771798E-05 -2.13896424134E-04 -4.94779770682E-01 +8.14863745730E-01
1.25500000000E+09 -3.24828798610E-01 +8.60457156024E-01 -1.64423761023E-04 -2.03412547208E-04 -1.98720123175E-04 -2.19709377127E-04 -4.87931556035E-01 +8.18561852178E-01
1.26000000000E+09 -3.17216554836E-01 +8.61550293288E-01 -1.09572401058E-04 -2.46657946624E-04 -1.62146164912E-04 -2.77998972865E-04 -4.81084902351E-01 +8.22480954540E-01
1.26500000000E+09 -3.09346668853E-01 +8.62062610832E-01 -1.89771606032E-04 -2.38298887687E-04 -2.22162675034E-04 -2.58094880160E-04 -4.74169123097E-01 +8.25973721089E-01
1.27000000000E+09 -3.00727050247E-01 +8.62357618123E-01 -2.95178700449E-04 -2.81785691621E-04 -3.03377553084E-04 -2.58228131434E-04 -4.67356706648E-01 +8.29401340424E-01
1.27500000000E+09 -2.91623006233E-01 +8.62599951775E-01 -3.43495620093E-04 -2.31974084320E-04 -3.40556677044E-04 -2.31424313143E-04 -4.60333087359E-01 +8.32674292739E-01
1.28000000000E+09 -2.81272352117E-01 +8.63457460304E-01 -3.91909335831E-04 -1.68135278699E-04 -3.63698705378E-04 -1.78352561870E-04 -4.53065775093E-01 +8.35997916630E-01
1.28500000000E+09 -2.70036028803E-01 +8.64564946697E-01 -3.81215936008E-04 -1.18558511299E-04 -3.94912021977E-04 -1.74151084761E-04 -4.45567266614E-01 +8.39422463192E-01
1.29000000000E+09 -2.58959706901E-01 +8.66016222662E-01 -4.22776430203E-04 -1.02978578850E-04 -4.58313381696E-04 -1.22986715043E-04 -4.37942370345E-01 +8.42859322836E-01
1.29500000000E+09 -2.48131134881E-01 +8.68125489041E-01 -4.19656067073E-04 -1.22809791153E-04 -5.11090927461E-04 -7.17517534818E-05 -4.30044797266E-01 +8.45850879336E-01
1.30000000000E+09 -2.37955659537E-01 +8.70657913267E-01 -5.33836581077E-04 -4.28863401587E-05 -5.30801601205E-04 +8.52802460250E-06 -4.22326707281E-01 +8.48985188975E-01
1.30500000000E+09 -2.28538942795E-01 +8.73239114621E-01 -5.91763157016E-04 -1.70506648682E-05 -5.82583323450E-04 +8.20501219430E-05 -4.14240390441E-01 +8.52180488914E-01
1.31000000000E+09 -2.19508635286E-01 +8.75466429251E-01 -6.70743530328E-04 +1.22665746649E-04 -6.34100522038E-04 +1.14052582007E-04 -4.05831163448E-01 +8.55203088040E-01
1.31500000000E+09 -2.11328279540E-01 +8.76674345961E-01 -6.07694000458E-04 +2.70411193369E-04 -6.03276690330E-04 +2.32101566137E-04 -3.97263971108E-01 +8.58307838326E-01
1.32000000000E+09 -2.03476157626E-01 +8.76884794975E-01 -5.93180422010E-04 +2.62389971742E-04 -6.32050808032E-04 +2.82148913128E-04 -3.88177144910E-01 +8.61320217669E-01
1.32500000000E+09 -1.95776119159E-01 +8.76213091157E-01 -6.27417346411E-04 +3.44210452466E-04 -6.12488430530E-04 +3.29703079860E-04 -3.78821119081E-01 +8.64281755910E-01
1.33000000000E+09 -1.87055416699E-01 +8.75377503909E-01 -6.50898905366E-04 +3.66192567775E-04 -6.44720186095E-04 +4.48318295722E-04 -3.69525916747E-01 +8.67052793261E-01
1.33500000000E+09 -1.77180816263E-01 +8.73947022349E-01 -6.69461631925E-04 +5.47960720801E-04 -6.11730771701E-04 +5.75941153251E-04 -3.59924299694E-01 +8.69810133366E-01
1.34000000000E+09 -1.65723950484E-01 +8.73029551509E-01 -6.32028386753E-04 +6.67166156326E-04 -5.81515585110E-04 +6.38856788353E-04 -3.49794338870E-01 +8.72584158119E-01
1.34500000000E+09 -1.52744891179E-01 +8.72257591361E-01 -5.91192866345E-04 +7.40097391169E-04 -5.44862560161E-04 +6.99776927595E-04 -3.39026774613E-01 +8.75490828559E-01
1.35000000000E+09 -1.38522639474E-01 +8.71881616044E-01 -5.30435459105E-04 +8.66113592480E-04 -4.74419251479E-04 +8.45350470999E-04 -3.28096024627E-01 +8.78014343721E-01
1.35500000000E+09 -1.23810014888E-01 +8.71891490754E-01 -4.87232912688E-04 +9.11433313586E-04 -4.87735946793E-04 +9.22510033710E-04 -3.16789813158E-01 +8.80232862195E-01
1.36000000000E+09 -1.08781034367E-01 +8.72320606112E-01 -4.10681232612E-04 +1.07726934015E-03 -3.85176872457E-04 +1.02038489531E-03 -3.05233535216E-01 +8.82408183706E-01
1.36500000000E+09 -9.35148375514E-02 +8.72207296738E-01 -3.79611244409E-04 +1.20556837006E-03 -3.74359187788E-04 +1.11217419068E-03 -2.93364797913E-01 +8.84450620803E-01
1.37000000000E+09 -7.89803925097E-02 +8.71042571807E-01 -2.67193486544E-04 +1.43042426831E-03 -2.83811036319E-04 +1.34273292380E-03 -2.80869010034E-01 +8.86228361933E-01
1.37500000000E+09 -6.57585976266E-02 +8.69078066178E-01 -2.09319249322E-06 +1.48195893757E-03 -1.40527098997E-04 +1.45720646461E-03 -2.67386586606E-01 +8.88085191695E-01
1.38000000000E+09 -5.33173072620E-02 +8.66122078960E-01 +1.63868020580E-04 +1.53749150746E-03 -2.15272359700E-05 +1.62002043339E-03 -2.53092631558E-01 +8.89556698181E-01
1.38500000000E+09 -4.07505603488E-02 +8.62331105191E-01 +2.51227875678E-04 +1.63108122089E-03 +1.98159892149E-04 +1.89167424954E-03 -2.38112647307E-01 +8.91084200096E-01
1.39000000000E+09 -2.81405779940E-02 +8.58015643335E-01 +4.42183235503E-04 +1.76548470944E-03 +5.11488787129E-04 +2.04154421556E-03 -2.22793774298E-01 +8.91855358122E-01
1.39500000000E+09 -1.41932044719E-02 +8.53316957573E-01 +6.78917277907E-04 +1.90603929947E-03 +9.00499351178E-04 +2.07846578458E-03 -2.06818124189E-01 +8.92091319903E-01
1.40000000000E+09 +1.10532792185E-03 +8.47990102588E-01 +9.90769450692E-04 +2.06802524092E-03 +1.21479073337E-03 +2.05557920773E-03 -1.90049803403E-01 +8.92098736303E-01
1.40500000000E+09 +1.72101379989E-02 +8.42705417173E-01 +1.50756468099E-03 +2.16542256130E-03 +1.58328267025E-03 +1.99532371159E-03 -1.72381774470E-01 +8.91485024600E-01
1.41000000000E+09 +3.44225801648E-02 +8.37525997347E-01 +2.01725187354E-03 +1.93052846053E-03 +1.95653962904E-03 +1.88588908959E-03 -1.52893764444E-01 +8.90334651897E-01
1.41500000000E+09 +5.29990651425E-02 +8.32647978855E-01 +2.22908953589E-03 +1.74369793985E-03 +2.23963008089E-03 +1.86770016461E-03 -1.32183517624E-01 +8.88265087091E-01
1.42000000000E+09 +7.34055634144E-02 +8.26997786916E-01 +2.62437144603E-03 +1.71424909187E-03 +2.80943092342E-03 +1.86780026306E-03 -1.10343744054E-01 +8.85076825768E-01
1.42500000000E+09 +9.45738576245E-02 +8.19395053136E-01 +3.02673602166E-03 +1.51811858635E-03 +3.46909900336E-03 +1.56803204209E-03 -8.76209050809E-02 +8.80834542737E-01
1.43000000000E+09 +1.15822299574E-01 +8.09271141433E-01 +3.59485120629E-03 +1.45367206968E-03 +4.01899739034E-03 +1.18393415387E-03 -6.40633894508E-02 +8.75626685219E-01
1.43500000000E+09 +1.36690976669E-01 +7.96642109056E-01 +4.56026784292E-03 +9.56332068647E-04 +4.83294788438E-03 +5.52708628703E-04 -3.89143519668E-02 +8.68785293543E-01
1.44000000000E+09 +1.57781880562E-01 +7.82065540144E-01 +5.25765954145E-03 -1.78761416512E-04 +5.24738845588E-03 -5.24191875188E-04 -1.23461963525E-02 +8.59671297870E-01
1.44500000000E+09 +1.79988578236E-01 +7.64869533608E-01 +5.18529149794E-03 -1.30619473151E-03 +5.19917594911E-03 -1.56295447090E-03 +1.61708059701E-02 +8.48130272906E-01
1.45000000000E+09 +2.02908662860E-01 +7.44851161754E-01 +5.08416190105E-03 -1.96811434341E-03 +5.08943204792E-03 -2.28250793840E-03 +4.63649949088E-02 +8.33572186007E-01
1.45500000000E+09 +2.26825072602E-01 +7.22452891962E-01 +5.33490860077E-03 -2.53994007247E-03 +5.13456542278E-03 -3.01971755947E-03 +7.76592195636E-02 +8.16341563398E-01
1.46000000000E+09 +2.52217970417E-01 +6.97778945906E-01 +5.70742475345E-03 -3.50419253870E-03 +5.16887377783E-03 -3.92943565177E-03 +1.10611589600E-01 +7.95343718897E-01
1.46500000000E+09 +2.78998420990E-01 +6.70615432537E-01 +6.10278768521E-03 -4.91985992216E-03 +5.36578220943E-03 -4.87110638886E-03 +1.44710879688E-01 +7.69056357796E-01
1.47000000000E+09 +3.07476088983E-01 +6.39703144842E-01 +6.09443810641E-03 -7.17616263641E-03 +5.60715711907E-03 -6.58695511578E-03 +1.79498211125E-01 +7.36265401303E-01
1.47500000000E+09 +3.36172569393E-01 +6.02863160761E-01 +4.68423930403E-03 -9.70398311571E-03 +4.88908267003E-03 -9.08411714223E-03 +2.14136219355E-01 +6.96222701164E-01
1.48000000000E+09 +3.62751769042E-01 +5.59001634448E-01 +2.55655118449E-03 -1.11362058346E-02 +2.91015612625E-03 -1.11767170917E-02 +2.48293562337E-01 +6.48870232591E-01
1.48500000000E+09 +3.85066412907E-01 +5.06950312216E-01 +7.74405881310E-04 -1.24145503967E-02 +6.53478704698E-04 -1.27921789906E-02 +2.80357111332E-01 +5.92385638430E-01
1.49000000000E+09 +4.00901628448E-01 +4.47374737447E-01 -1.83138533219E-03 -1.41559937135E-02 -2.49926403691E-03 -1.39815364054E-02 +3.07703791904E-01 +5.25833191541E-01
1.49500000000E+09 +4.09208310030E-01 +3.80138097116E-01 -6.00729580066E-03 -1.50533484844E-02 -6.29200510307E-03 -1.42102870128E-02 +3.25737041652E-01 +4.48559314147E-01
1.50000000000E+09 +4.08528520358E-01 +3.04421845992E-01 -1.04355279739E-02 -1.45002531544E-02 -9.78891686383E-03 -1.35967437933E-02 +3.30788532597E-01 +3.61537245828E-01
1.50500000000E+09 +3.94773157889E-01 +2.21181592171E-01 -1.52510021637E-02 -1.25915266535E-02 -1.42296015241E-02 -1.25712556394E-02 +3.19169046258E-01 +2.66830581305E-01
1.51000000000E+09 +3.66280660253E-01 +1.34599171446E-01 -1.93793914871E-02 -8.16386411938E-03 -1.88451376042E-02 -8.80725568337E-03 +2.86887092102E-01 +1.67601222021E-01
1.51500000000E+09 +3.19265087814E-01 +4.71478623985E-02 -2.21054793029E-02 -3.56384499660E-03 -2.21882654680E-02 -4.20092722246E-03 +2.30993892358E-01 +7.21673429816E-02
1.52000000000E+09 +2.52659157093E-01 -3.12520137199E-02 -2.42085045884E-02 +2.77733820402E-03 -2.45024443159E-02 +2.47051787466E-03 +1.53236197344E-01 -1.08099708306E-02
1.52500000000E+09 +1.69775020547E-01 -9.59254910241E-02 -2.34908709208E-02 +1.14119531081E-02 -2.37758090348E-02 +1.13881351241E-02 +5.95933981594E-02 -7.65436821288E-02
1.53000000000E+09 +7.38681396941E-02 -1.41655122926E-01 -1.75749226301E-02 +1.81521642510E-02 -1.77464422616E-02 +1.82779898985E-02 -4.94833995674E-02 -1.19554188256E-01
1.53500000000E+09 -3.08351356599E-02 -1.65852662618E-01 -1.16470596465E-02 +2.14342755078E-02 -1.16368981449E-02 +2.15142679192E-02 -1.61005083920E-01 -1.35697176480E-01
1.54000000000E+09 -1.40176424902E-01 -1.65181365056E-01 -5.19398680535E-03 +2.30336399795E-02 -5.25948670837E-03 +2.27548870782E-02 -2.70227555278E-01 -1.28414994158E-01
1.54500000000E+09 -2.43191316379E-01 -1.39540352768E-01 +1.74440810911E-03 +2.29486970892E-02 +1.25372107111E-03 +2.26985176012E-02 -3.67609131224E-01 -1.00132818538E-01
1.55000000000E+09 -3.34277708023E-01 -9.72207344045E-02 +7.29696565670E-03 +1.95743032507E-02 +6.51164980099E-03 +1.98583184378E-02 -4.50107631943E-01 -5.81254324553E-02
1.55500000000E+09 -4.10482382983E-01 -4.25655328301E-02 +1.09315596441E-02 +1.60888391540E-02 +1.04209293957E-02 +1.68868405674E-02 -5.17745389753E-01 -7.50116375637E-03
1.56000000000E+09 -4.70472708517E-01 +1.57143223362E-02 +1.35422427067E-02 +1.16827286162E-02 +1.37133716605E-02 +1.26981691587E-02 -5.70866121236E-01 +4.79042826984E-02
1.56500000000E+09 -5.18525415539E-01 +7.43631762305E-02 +1.39607145946E-02 +7.21351342263E-03 +1.46811259157E-02 +7.93363853439E-03 -6.12044339593E-01 +1.05088934822E-01
1.57000000000E+09 -5.55563205056E-01 +1.33046509055E-01 +1.34954313306E-02 +4.16055385847E-03 +1.43764946499E-02 +4.35601385704E-03 -6.41879073482E-01 +1.61729076036E-01
