# Hz S RI R 50
! CMT, C1220, 16058040, 17.2.0/1
! Date: 14/08/2018 12:30:49
! Data: Format (Calibration Info)
! Freq                      S11: Re/Im (F2)                       S21: Re/Im (F2)                       S12: Re/Im (F2)                       S22: Re/Im (F2)            
1.00000000000E+09 -6.28461581373E-01 +7.09720046243E-01 -1.33148002121E-05 -3.44848271566E-05 +1.10838904129E-05 +1.63767661005E-05 -7.53221547438E-01 +6.23834183179E-01
1.00500000000E+09 -6.21268127257E-01 +7.14651543667E-01 +1.24134176812E-06 +6.63015116599E-06 -2.32551098630E-05 +1.79511727689E-06 -7.49636237920E-01 +6.27954147115E-01
1.01000000000E+09 -6.15561762124E-01 +7.19287679597E-01 -5.79612975333E-07 +1.52101255134E-05 -3.25539975722E-05 +2.35264492053E-05 -7.46177392411E-01 +6.31566880844E-01
1.01500000000E+09 -6.11062969660E-01 +7.23106374604E-01 +6.72317633703E-07 -4.25311269175E-05 +1.82683704531E-05 -1.35184273416E-05 -7.42959213344E-01 +6.35269774989E-01
1.02000000000E+09 -6.08266312736E-01 +7.26196500960E-01 -3.34576361032E-05 -3.21156890304E-05 +5.00849549573E-05 -1.71046211565E-06 -7.39691945219E-01 +6.38652450719E-01
1.02500000000E+09 -6.06159045298E-01 +7.28732963377E-01 -8.84969228387E-06 +2.68768928612E-07 -1.15120104918E-06 +1.25968175915E-05 -7.36754231023E-01 +6.42363314827E-01
1.03000000000E+09 -6.04840709582E-01 +7.31007799226E-01 -6.63627368510E-05 -1.18039139080E-05 -3.79444160155E-05 -1.31508162068E-05 -7.33320752454E-01 +6.46090330176E-01
1.03500000000E+09 -6.02424486337E-01 +7.33078365766E-01 -7.32769539806E-06 +2.15986563965E-05 +1.33695409048E-05 +2.61812927688E-05 -7.29426508659E-01 +6.50048721977E-01
1.04000000000E+09 -5.98870540708E-01 +7.35791210132E-01 -4.79104497055E-05 +2.82071700736E-05 -3.63500963957E-06 +1.59819857597E-05 -7.25766194513E-01 +6.53559274628E-01
1.04500000000E+09 -5.93390310974E-01 +7.38986651950E-01 +5.24410011275E-07 +3.32560043335E-05 -3.87628932298E-05 -5.33496782192E-06 -7.22232897653E-01 +6.57402680730E-01
1.05000000000E+09 -5.86311292822E-01 +7.43239724843E-01 -4.09663992442E-05 +2.30687047348E-05 -1.49486009515E-05 +7.71519492495E-06 -7.18743783988E-01 +6.60642196070E-01
1.05500000000E+09 -5.78020382453E-01 +7.47787697778E-01 -1.01029704369E-05 +5.37089898270E-05 -7.91506125785E-07 +2.51268676692E-05 -7.15605183853E-01 +6.64334416939E-01
1.06000000000E+09 -5.68941423706E-01 +7.53025296008E-01 -8.13265976748E-06 +9.16496571621E-06 -2.36761960561E-05 +2.86713663776E-05 -7.12202319714E-01 +6.68244437658E-01
1.06500000000E+09 -5.59980168547E-01 +7.58187150593E-01 -5.06346235564E-06 +6.81083107862E-05 +1.89613392654E-05 +5.46829128900E-06 -7.08478371707E-01 +6.71923913387E-01
1.07000000000E+09 -5.52422624550E-01 +7.62753349841E-01 -5.31026870109E-06 +8.21598143230E-05 -1.03967871887E-05 +8.70675468711E-05 -7.04183529406E-01 +6.75627466944E-01
1.07500000000E+09 -5.46229673760E-01 +7.66800657913E-01 -1.96614131884E-05 +5.99541758943E-06 -2.10203031424E-05 +4.83675315763E-05 -7.00054483996E-01 +6.79407780259E-01
1.08000000000E+09 -5.41889202259E-01 +7.70122689285E-01 +5.94897672615E-05 +6.18693147454E-05 -1.60062443851E-05 +1.92798025017E-05 -6.96056085742E-01 +6.83333515504E-01
1.08500000000E+09 -5.38906015084E-01 +7.72481289340E-01 -7.98317327102E-06 +5.58358844525E-05 +5.32394279861E-05 +9.85139722417E-05 -6.92456214762E-01 +6.86823162835E-01
1.09000000000E+09 -5.36665138872E-01 +7.74482689830E-01 +2.48784191488E-05 +2.43678244276E-05 +3.01546512501E-05 +1.76986976396E-05 -6.88604657039E-01 +6.90717820989E-01
1.09500000000E+09 -5.35037036587E-01 +7.76025612731E-01 +3.04523509205E-05 +2.30384055775E-05 +1.74292964466E-05 +4.14773259692E-05 -6.84837838684E-01 +6.94410134817E-01
1.10000000000E+09 -5.32167415757E-01 +7.77962246743E-01 +2.53055044710E-05 +4.05932019811E-05 -1.86706597336E-06 +5.18583135119E-05 -6.80959542690E-01 +6.98275279590E-01
1.10500000000E+09 -5.28125088374E-01 +7.80304860672E-01 -1.63419405617E-05 -1.23417033926E-05 -7.21387007402E-06 +2.59148813807E-05 -6.76602557744E-01 +7.01726239122E-01
1.11000000000E+09 -5.22594304807E-01 +7.83501435257E-01 +6.20089562641E-05 +3.07881379633E-05 +7.92856538858E-05 +1.92762129986E-05 -6.72458578850E-01 +7.05076415962E-01
1.11500000000E+09 -5.15862561955E-01 +7.87164628048E-01 +9.49725773562E-06 +6.21212430343E-07 +3.44706454639E-05 -3.79956023226E-05 -6.68359890638E-01 +7.08579846270E-01
1.12000000000E+09 -5.08200147641E-01 +7.91027878160E-01 +1.40624571414E-05 +3.13225273009E-06 +1.72948474497E-05 +1.10435125218E-05 -6.64337817766E-01 +7.12109728439E-01
1.12500000000E+09 -5.00222373382E-01 +7.95105587911E-01 +5.45324956789E-05 +2.83719793443E-05 +4.03257626096E-05 +5.81849177279E-06 -6.60029531795E-01 +7.16176428858E-01
1.13000000000E+09 -4.92901266391E-01 +7.98799815112E-01 +2.32405464253E-05 +4.58611098475E-05 -9.27648514919E-06 -4.60541953124E-06 -6.55890300022E-01 +7.19887195812E-01
1.13500000000E+09 -4.86393485354E-01 +8.01598268704E-01 +2.46051845879E-05 +2.29152481005E-05 +2.59941978898E-05 -3.16157127143E-05 -6.51175644017E-01 +7.23876531463E-01
1.14000000000E+09 -4.81136786219E-01 +8.03975993107E-01 +1.99765006480E-05 -8.75522423088E-06 +4.83659547691E-05 -2.26308227989E-05 -6.46365894598E-01 +7.27353706413E-01
1.14500000000E+09 -4.76924558080E-01 +8.05462890237E-01 +1.26148533131E-05 -1.19142263420E-05 +7.48848508039E-05 +3.71758262311E-05 -6.41760930345E-01 +7.30679681526E-01
1.15000000000E+09 -4.73089851534E-01 +8.06709723120E-01 +5.69448193966E-05 +1.37528986226E-05 +1.53711628079E-05 +1.26552267783E-06 -6.37020795453E-01 +7.34522897964E-01
1.15500000000E+09 -4.69241519719E-01 +8.08328215412E-01 +4.74151545152E-05 -4.55873960108E-06 +3.88693622802E-05 -1.64280695603E-05 -6.32297259132E-01 +7.38430467034E-01
1.16000000000E+09 -4.64570551581E-01 +8.09921896416E-01 +6.64975962722E-05 +3.78187576189E-06 +3.16797594358E-05 +4.01762634529E-05 -6.27590911166E-01 +7.42183877856E-01
1.16500000000E+09 -4.58825730743E-01 +8.12600788663E-01 +5.64577915749E-05 -2.34171552901E-05 +5.24609380872E-05 -2.40926752309E-05 -6.22510182639E-01 +7.45859773796E-01
1.17000000000E+09 -4.52093268951E-01 +8.15587195614E-01 +5.82160514341E-05 -5.15182776961E-05 +8.43317098016E-05 -3.08530610145E-05 -6.17203690271E-01 +7.49121415039E-01
1.17500000000E+09 -4.44462345874E-01 +8.18791634631E-01 +4.29408471817E-05 -2.54318252670E-05 +8.27356347019E-05 -1.08485288776E-05 -6.11464561009E-01 +7.52286722826E-01
1.18000000000E+09 -4.36823016179E-01 +8.22488823115E-01 +5.60826743447E-05 -2.32104248972E-05 +3.20754965639E-05 -9.17053501486E-06 -6.05939659167E-01 +7.55450078420E-01
1.18500000000E+09 -4.28923500484E-01 +8.25628068170E-01 +5.00369302780E-05 -7.03161174764E-05 +7.32716440848E-05 -5.65370872010E-05 -6.00035965452E-01 +7.58321414276E-01
1.19000000000E+09 -4.21834589550E-01 +8.28249214333E-01 +6.36032084823E-05 -6.25366752235E-05 +5.19684158167E-05 -2.95551046747E-05 -5.94048110286E-01 +7.60985061458E-01
1.19500000000E+09 -4.15850121700E-01 +8.30213965431E-01 +7.61779299081E-05 -9.01119706427E-05 +1.02793834650E-05 -1.28331553455E-04 -5.88113823577E-01 +7.62141060557E-01
1.20000000000E+09 -4.10539876105E-01 +8.30910989861E-01 -1.24698820896E-05 -1.35116983744E-04 +1.00115728470E-05 -9.81306896249E-05 -5.83530865554E-01 +7.62349685471E-01
1.20500000000E+09 -4.05917075056E-01 +8.31962815085E-01 -4.08707291696E-05 -1.19563503619E-04 -7.49690158046E-05 -7.12630957160E-05 -5.81385718852E-01 +7.63285215125E-01
1.21000000000E+09 -4.00804145077E-01 +8.32849023089E-01 +6.44562720556E-06 -6.43456395984E-05 -1.52811789583E-05 -7.37235855345E-05 -5.79312657502E-01 +7.66379222524E-01
1.21500000000E+09 -3.94509489138E-01 +8.34235568178E-01 -5.58817531493E-05 -3.96086228885E-05 -3.15409544864E-05 -4.20953667096E-05 -5.76571939931E-01 +7.71076647859E-01
1.22000000000E+09 -3.86796021549E-01 +8.35926323887E-01 -5.25283245632E-05 -1.86254713456E-05 +8.83242408248E-06 -4.18819837822E-06 -5.72159600945E-01 +7.76550713779E-01
1.22500000000E+09 -3.77583063292E-01 +8.38512922263E-01 -3.53644860958E-06 -2.99169585818E-05 -3.05331441705E-05 -5.90956725272E-05 -5.67103027469E-01 +7.81606367602E-01
1.23000000000E+09 -3.67464401963E-01 +8.41577274080E-01 -3.75479995090E-05 -2.55688274232E-05 -5.23075107720E-05 -5.91211289072E-05 -5.61460883166E-01 +7.86175031905E-01
1.23500000000E+09 -3.57093255702E-01 +8.45155534170E-01 -1.00368864714E-05 -7.06216358756E-05 +4.81330757662E-06 -3.13299290862E-05 -5.55603439297E-01 +7.90691867970E-01
1.24000000000E+09 -3.46845031116E-01 +8.49044055829E-01 -3.95357944378E-05 -7.82447967644E-05 -3.90847665754E-05 -7.95804129367E-05 -5.49618486219E-01 +7.94404187165E-01
1.24500000000E+09 -3.37696354485E-01 +8.53104929901E-01 -5.29986012684E-05 -5.10665868083E-05 -7.74575042660E-05 -5.66541714935E-05 -5.43414458698E-01 +7.98297348374E-01
1.25000000000E+09 -3.29620917930E-01 +8.56388766755E-01 -5.10489012666E-05 -8.30506257025E-05 -8.13238665544E-05 -5.10418316905E-05 -5.36948531217E-01 +8.02547397813E-01
1.25500000000E+09 -3.22789397209E-01 +8.58475569936E-01 -7.30228340713E-05 -6.11447067976E-05 -1.27060179557E-04 -5.26606421686E-05 -5.30212555531E-01 +8.06563633167E-01
1.26000000000E+09 -3.17049582538E-01 +8.59731297135E-01 -7.76671256452E-05 -8.07942076071E-05 -7.36834444188E-05 -7.05220067526E-05 -5.23624196376E-01 +8.10564888627E-01
1.26500000000E+09 -3.11610920925E-01 +8.60462259316E-01 -1.00632607291E-04 -1.51561945654E-05 -1.13404353247E-04 +6.56673660604E-06 -5.16686565474E-01 +8.14457158868E-01
1.27000000000E+09 -3.05732018329E-01 +8.60875635271E-01 -3.67565186724E-05 +6.57958411924E-06 -1.33489171137E-04 +9.77933942992E-06 -5.09806935398E-01 +8.18212755326E-01
1.27500000000E+09 -2.98460200238E-01 +8.61559236567E-01 -6.89286456757E-05 +4.16762264082E-06 -1.13793997776E-04 -7.31817283782E-05 -5.02699404673E-01 +8.21907739744E-01
1.28000000000E+09 -2.89440069060E-01 +8.62575786100E-01 -1.13473651474E-04 +1.88146906891E-05 -8.70169456698E-05 -1.74233909952E-06 -4.95427711048E-01 +8.25359581945E-01
1.28500000000E+09 -2.78625351308E-01 +8.64253895181E-01 -6.06353670215E-05 +1.44272328779E-05 -1.16208322280E-04 -6.65592094119E-07 -4.88037880905E-01 +8.29184362206E-01
1.29000000000E+09 -2.66616591241E-01 +8.66697631377E-01 -6.60907616674E-05 +1.58739108286E-05 -7.91411105631E-05 +2.29261515199E-05 -4.80483494321E-01 +8.32855274906E-01
1.29500000000E+09 -2.54260685334E-01 +8.69753501271E-01 -6.02605093789E-05 +3.00122927850E-06 -1.02116443360E-04 -2.70323767808E-05 -4.72468293572E-01 +8.36484833986E-01
1.30000000000E+09 -2.41994570780E-01 +8.73290480355E-01 -1.14518336241E-04 +1.80402977074E-05 -1.13750297137E-04 +1.52874336004E-05 -4.64633186872E-01 +8.40084769029E-01
1.30500000000E+09 -2.30710116559E-01 +8.76515946730E-01 -1.30239381762E-04 +4.01401269072E-07 -1.18463928714E-04 +5.80277727932E-05 -4.56516564254E-01 +8.43457725458E-01
1.31000000000E+09 -2.21303261161E-01 +8.78850885725E-01 -6.79520990835E-05 +2.63994122132E-05 -7.20009580393E-05 +3.26931368430E-05 -4.48273400428E-01 +8.46890472811E-01
1.31500000000E+09 -2.13765320309E-01 +8.80222059643E-01 -1.13993635651E-04 +8.10539161731E-06 -7.01184480870E-05 +3.29315451928E-05 -4.39498733993E-01 +8.50431701788E-01
1.32000000000E+09 -2.07735985593E-01 +8.80347809574E-01 -6.94133876044E-05 +1.80212197360E-05 -9.63843802848E-05 -9.62651222120E-06 -4.30427906792E-01 +8.53724436278E-01
1.32500000000E+09 -2.01993325661E-01 +8.79666591141E-01 -1.34802183696E-04 +2.23740782986E-05 -1.23830526397E-04 -1.02186428759E-05 -4.21012227607E-01 +8.56977804685E-01
1.33000000000E+09 -1.95463824330E-01 +8.78854196299E-01 -1.63544865784E-04 +4.50710064232E-05 -1.36848256098E-04 +2.08816023393E-05 -4.11535922677E-01 +8.60227035663E-01
1.33500000000E+09 -1.87172641846E-01 +8.77533964989E-01 -1.73377696568E-04 +6.20064657524E-05 -2.01710659052E-04 +6.79109948960E-05 -4.01689611383E-01 +8.63391526186E-01
1.34000000000E+09 -1.76257068318E-01 +8.76634129865E-01 -2.21714651829E-04 +1.24597900343E-04 -1.83577440441E-04 +1.56571305720E-04 -3.91400667816E-01 +8.66714954052E-01
1.34500000000E+09 -1.63189394421E-01 +8.75994341439E-01 -1.70500607234E-04 +1.73439463134E-04 -1.52204527308E-04 +1.69819577454E-04 -3.80569310825E-01 +8.69910482679E-01
1.35000000000E+09 -1.48011372018E-01 +8.75890169148E-01 -1.26574930373E-04 +1.56533031813E-04 -1.02014108664E-04 +1.47805263951E-04 -3.69518298557E-01 +8.73157116553E-01
1.35500000000E+09 -1.31770031358E-01 +8.76585409936E-01 -1.40669157584E-04 +2.19320685628E-04 -1.15184111283E-04 +1.92321997300E-04 -3.57643948860E-01 +8.76022036210E-01
1.36000000000E+09 -1.15332453370E-01 +8.77688592285E-01 -1.57888887507E-04 +1.97799828449E-04 -1.19158440483E-04 +2.11696683018E-04 -3.45628290191E-01 +8.78711633829E-01
1.36500000000E+09 -9.96411430303E-02 +8.78536139880E-01 -1.01815568243E-04 +2.79902718444E-04 -1.06214739585E-04 +3.07944654040E-04 -3.33582802335E-01 +8.81030441984E-01
1.37000000000E+09 -8.54963044768E-02 +8.78655857828E-01 -7.28437980533E-05 +3.23837353914E-04 -9.26195295786E-05 +2.83334218250E-04 -3.20625125093E-01 +8.83537026935E-01
1.37500000000E+09 -7.34325779164E-02 +8.78054218321E-01 +2.61296759298E-05 +3.85687311998E-04 -3.91915442093E-05 +3.69329654079E-04 -3.07021698847E-01 +8.85601971931E-01
1.38000000000E+09 -6.25931819110E-02 +8.76698893874E-01 +1.34904744518E-04 +3.15463678439E-04 +9.18703979119E-05 +3.60772281237E-04 -2.92377545760E-01 +8.87801595311E-01
1.38500000000E+09 -5.17525231702E-02 +8.74538591618E-01 +1.31951445059E-04 +3.16398127783E-04 +1.41154060633E-04 +3.47237404540E-04 -2.76826282988E-01 +8.89629669836E-01
1.39000000000E+09 -4.01056468969E-02 +8.71400638818E-01 +1.72560925123E-04 +2.74404157475E-04 +2.20387702458E-04 +3.57790752448E-04 -2.61036706809E-01 +8.91105331393E-01
1.39500000000E+09 -2.65596008216E-02 +8.67334656511E-01 +1.84688845969E-04 +2.84356459661E-04 +2.29509153084E-04 +3.01605799417E-04 -2.44189424942E-01 +8.91846550811E-01
1.40000000000E+09 -1.03321283802E-02 +8.62758969589E-01 +2.02888386110E-04 +3.26677101503E-04 +2.00390150613E-04 +2.79326746430E-04 -2.26915411034E-01 +8.92205859381E-01
1.40500000000E+09 +8.07668526587E-03 +8.57587694808E-01 +2.53825119207E-04 +3.32571270611E-04 +2.64221077064E-04 +3.19276104376E-04 -2.08591089451E-01 +8.91955649632E-01
1.41000000000E+09 +2.82897560060E-02 +8.52101648271E-01 +3.46374096089E-04 +3.69646135048E-04 +3.29605279718E-04 +3.18716014498E-04 -1.88587637808E-01 +8.91164856085E-01
1.41500000000E+09 +4.99666733974E-02 +8.46497759354E-01 +4.55631874672E-04 +2.92072792255E-04 +4.85413497092E-04 +3.39312534588E-04 -1.67254037530E-01 +8.89638662439E-01
1.42000000000E+09 +7.20817270765E-02 +8.40474564329E-01 +4.96599356642E-04 +1.78040720780E-04 +6.00706853390E-04 +2.07465594119E-04 -1.44482291865E-01 +8.87018057611E-01
1.42500000000E+09 +9.35867960132E-02 +8.33160604051E-01 +4.50107189915E-04 +1.37690050491E-04 +5.20181829571E-04 +1.48816399068E-04 -1.20935751541E-01 +8.83326615475E-01
1.43000000000E+09 +1.13811633724E-01 +8.24456174112E-01 +6.12652672552E-04 +1.91435626062E-04 +6.81417667016E-04 +1.16258394761E-04 -9.62979113167E-02 +8.78785971627E-01
1.43500000000E+09 +1.33163226421E-01 +8.14217764439E-01 +7.24378687286E-04 -1.02765954733E-04 +7.02022381458E-04 -1.64578986792E-04 -7.02450189901E-02 +8.72269500853E-01
1.44000000000E+09 +1.52846857214E-01 +8.02120456444E-01 +6.07983974206E-04 -1.73952347145E-04 +6.12090825411E-04 -1.90229049935E-04 -4.23140203890E-02 +8.64043684421E-01
1.44500000000E+09 +1.73645936030E-01 +7.86715788007E-01 +6.84956136069E-04 -1.46235598806E-04 +6.84697608229E-04 -1.80333276326E-04 -1.20030359919E-02 +8.52902784216E-01
1.45000000000E+09 +1.95994028418E-01 +7.68271893847E-01 +7.14570038770E-04 -2.84944030076E-04 +6.69202390421E-04 -3.71955028243E-04 +1.98587807146E-02 +8.38513190929E-01
1.45500000000E+09 +2.20778154056E-01 +7.46340478687E-01 +7.85312703333E-04 -3.03738140241E-04 +7.48530742137E-04 -3.91594473586E-04 +5.32275206654E-02 +8.21044062977E-01
1.46000000000E+09 +2.48150839015E-01 +7.20048042037E-01 +9.47247550965E-04 -5.52794296376E-04 +8.88267767166E-04 -6.50750546237E-04 +8.76143765992E-02 +7.99639112548E-01
1.46500000000E+09 +2.76856089414E-01 +6.90341623987E-01 +8.19031683410E-04 -1.01478703418E-03 +6.80996503852E-04 -9.66366808667E-04 +1.23611802647E-01 +7.73180389161E-01
1.47000000000E+09 +3.06739585279E-01 +6.56773063955E-01 +5.02222004851E-04 -1.20800023395E-03 +4.66126314041E-04 -1.10760026698E-03 +1.60290290423E-01 +7.40388405946E-01
1.47500000000E+09 +3.36396302142E-01 +6.18574220178E-01 +1.74168894776E-04 -1.26436125806E-03 +2.10187033904E-04 -1.20751166779E-03 +1.98172614590E-01 +7.00368929872E-01
1.48000000000E+09 +3.63699114129E-01 +5.74372845600E-01 +7.35026731825E-05 -1.10375479142E-03 +1.15571891151E-04 -1.08739641516E-03 +2.35101719898E-01 +6.51063878208E-01
1.48500000000E+09 +3.86265225292E-01 +5.24229053462E-01 +1.50885249415E-04 -1.41674654457E-03 +1.42204937229E-04 -1.46115605217E-03 +2.69581403637E-01 +5.92718883341E-01
1.49000000000E+09 +4.03506364942E-01 +4.67083451052E-01 -2.57246019771E-04 -1.71550195222E-03 -3.70329156797E-04 -1.68127447540E-03 +2.98694612370E-01 +5.23499163902E-01
1.49500000000E+09 +4.12839311953E-01 +4.01843231844E-01 -5.97904427135E-04 -1.69621951345E-03 -6.54016457789E-04 -1.62066807262E-03 +3.18246083363E-01 +4.43971035297E-01
1.50000000000E+09 +4.13301655743E-01 +3.28337443555E-01 -1.16100312981E-03 -2.22080977440E-03 -1.11402181879E-03 -2.07944256952E-03 +3.24550567155E-01 +3.54144748685E-01
1.50500000000E+09 +4.02016032110E-01 +2.46013317142E-01 -2.72057042953E-03 -1.67627747847E-03 -2.54088800763E-03 -1.70895505735E-03 +3.14067349858E-01 +2.57766628244E-01
1.51000000000E+09 +3.74568667419E-01 +1.57676182633E-01 -2.75941040508E-03 -6.00432890191E-05 -2.69301787300E-03 -1.44382563291E-04 +2.84016709057E-01 +1.55996650897E-01
1.51500000000E+09 +3.29728630071E-01 +6.94715693444E-02 -2.38625616012E-03 +2.48309825889E-04 -2.42907708235E-03 +2.14437619532E-04 +2.29791078173E-01 +5.67161665055E-02
1.52000000000E+09 +2.66200443236E-01 -1.34915589548E-02 -2.32822033655E-03 +1.01533480865E-03 -2.44409586462E-03 +1.01869865309E-03 +1.53015983318E-01 -3.10144981240E-02
1.52500000000E+09 +1.85172579054E-01 -8.38125839634E-02 -1.40034769653E-03 +1.49444786786E-03 -1.40577842944E-03 +1.57059266682E-03 +5.76496734394E-02 -1.00833374655E-01
1.53000000000E+09 +8.76003835881E-02 -1.34106658167E-01 -1.31686814572E-03 +9.99440310802E-04 -1.27630056122E-03 +9.98183429674E-04 -5.07332315637E-02 -1.47244302912E-01
1.53500000000E+09 -1.84981360431E-02 -1.59139105514E-01 -1.89532420158E-03 +1.84116258099E-03 -1.91269831976E-03 +1.86314379059E-03 -1.64533566000E-01 -1.67841248711E-01
1.54000000000E+09 -1.26654921526E-01 -1.57767948130E-01 -8.57804883710E-04 +2.87606475970E-03 -8.84277600271E-04 +2.87213247960E-03 -2.74672091341E-01 -1.64122235434E-01
1.54500000000E+09 -2.28983365774E-01 -1.33043348810E-01 +5.37103076091E-04 +2.70456214257E-03 +4.85433276403E-04 +2.63468655899E-03 -3.74232009384E-01 -1.40679870354E-01
1.55000000000E+09 -3.21102225140E-01 -9.05969888292E-02 +1.08331304797E-03 +2.29248439897E-03 +1.01419396989E-03 +2.32086703295E-03 -4.61510390089E-01 -1.02822389962E-01
1.55500000000E+09 -3.99733279014E-01 -3.62916334965E-02 +1.86180061206E-03 +1.63122866691E-03 +1.77567022943E-03 +1.73306739112E-03 -5.33438494881E-01 -5.31137440898E-02
1.56000000000E+09 -4.64030699059E-01 +2.33347100170E-02 +1.89663100486E-03 +4.78665656120E-04 +1.89968770556E-03 +5.74066394916E-04 -5.89711646058E-01 +9.91413316573E-04
1.56500000000E+09 -5.12977961716E-01 +8.43718393488E-02 +1.36475459155E-03 -4.79383012676E-05 +1.39678987549E-03 -1.51653825586E-05 -6.34382490113E-01 +5.71441183495E-02
1.57000000000E+09 -5.50255145684E-01 +1.42804159537E-01 +1.15467461865E-03 -8.83923996637E-06 +1.19632658520E-03 +2.09625426441E-05 -6.67210842604E-01 +1.13054124161E-01
