# Hz S RI R 50
! CMT, C1220, 16058040, 17.2.0/1
! Date: 14/08/2018 12:32:38
! Data: Format (Calibration Info)
! Freq                      S11: Re/Im (F2)                       S21: Re/Im (F2)                       S12: Re/Im (F2)                       S22: Re/Im (F2)            
1.00000000000E+09 -6.33076196234E-01 +7.08273176194E-01 -5.53430825683E-06 +5.42806990948E-06 +2.67261118330E-05 +1.30627558398E-05 -7.53269577836E-01 +6.23769977396E-01
1.00500000000E+09 -6.26170056784E-01 +7.13300035776E-01 -2.50012097000E-05 +2.01088477600E-05 -6.07927525455E-06 +2.54351301129E-05 -7.49647607261E-01 +6.27883558071E-01
1.01000000000E+09 -6.19710447185E-01 +7.17935340478E-01 -6.08664276017E-05 -6.54374305121E-06 +1.30184510543E-05 +2.52462956044E-05 -7.46124953505E-01 +6.31617559345E-01
1.01500000000E+09 -6.15082127156E-01 +7.21805709286E-01 -5.91847471518E-07 -6.04687325818E-05 +2.03523479111E-05 -9.16178155538E-06 -7.42964771266E-01 +6.35074769440E-01
1.02000000000E+09 -6.11588376389E-01 +7.25236168203E-01 -1.35548837692E-05 +4.03363125107E-05 +1.27972033042E-05 -6.44627339573E-05 -7.39689818584E-01 +6.38632648654E-01
1.02500000000E+09 -6.08954614041E-01 +7.28199345194E-01 -9.81420068095E-06 +9.32056847389E-06 -4.11226914609E-06 -1.65999701835E-05 -7.36908092857E-01 +6.42307330197E-01
1.03000000000E+09 -6.06842839371E-01 +7.30779785218E-01 -4.99395928527E-05 +7.86658645981E-06 -5.34176969696E-05 +9.11905317014E-06 -7.33341419821E-01 +6.45993032383E-01
1.03500000000E+09 -6.04021964110E-01 +7.33091667719E-01 +1.24880317817E-05 +5.03306687854E-05 -2.86491832203E-05 +1.38184870574E-05 -7.29574681886E-01 +6.50058491566E-01
1.04000000000E+09 -6.00250969784E-01 +7.35927719806E-01 -9.52347414890E-06 +2.08352452463E-05 +4.56277649452E-05 -1.14463369567E-06 -7.25936833999E-01 +6.53603563498E-01
1.04500000000E+09 -5.95017044466E-01 +7.39300124397E-01 -1.49600874359E-05 +6.72431965449E-05 +3.19615692596E-05 -3.52531535210E-05 -7.22184185875E-01 +6.57117393540E-01
1.05000000000E+09 -5.88374376598E-01 +7.43113483577E-01 +5.53215148598E-06 -1.13173288044E-05 -3.48284312406E-06 +5.17218156771E-05 -7.18886535326E-01 +6.60726365471E-01
1.05500000000E+09 -5.80359761518E-01 +7.47326989252E-01 -6.28419203076E-06 +1.06055270689E-05 -3.04438352255E-05 +2.71912894409E-05 -7.15573098632E-01 +6.64226296326E-01
1.06000000000E+09 -5.72002843211E-01 +7.52295600312E-01 +1.44370818748E-06 +1.20233857040E-05 -4.46979132606E-05 +2.29256852617E-05 -7.12309881810E-01 +6.67982468934E-01
1.06500000000E+09 -5.63748449677E-01 +7.57145602411E-01 -8.38259689206E-06 +5.45797312923E-05 -2.27374108426E-05 +1.87701557897E-05 -7.08350065321E-01 +6.71758615902E-01
1.07000000000E+09 -5.56737872803E-01 +7.61517453680E-01 -7.18042460859E-06 -1.49736810952E-05 +1.00137123812E-05 -4.19583733120E-06 -7.04317763407E-01 +6.75486237668E-01
1.07500000000E+09 -5.50986339337E-01 +7.65547644439E-01 +5.66894136151E-05 +1.95310912397E-05 +2.44118666793E-05 +4.00672284106E-05 -7.00042810275E-01 +6.79387541917E-01
1.08000000000E+09 -5.46763739990E-01 +7.68826219000E-01 +1.38325864473E-05 +3.19349953634E-05 -4.87744065121E-06 -1.24981491474E-05 -6.96181407535E-01 +6.83134124494E-01
1.08500000000E+09 -5.43724215379E-01 +7.71402832591E-01 +4.53591777010E-05 +1.49679241502E-05 +3.52204045045E-05 -1.70937765177E-05 -6.92275739609E-01 +6.86847798205E-01
1.09000000000E+09 -5.41057036666E-01 +7.73670833563E-01 +3.78020617636E-05 +1.12321598455E-05 +4.09035269680E-05 +1.78475838311E-06 -6.88552035460E-01 +6.90492740643E-01
1.09500000000E+09 -5.38705520343E-01 +7.75734240869E-01 +1.83971408965E-05 -4.65157230318E-05 +2.60831065941E-05 -3.86056931615E-05 -6.84846556559E-01 +6.94431264444E-01
1.10000000000E+09 -5.35284251199E-01 +7.77698237836E-01 +3.88598838511E-05 +1.16035800321E-05 +4.70441145787E-05 -3.21298200170E-05 -6.80840520688E-01 +6.97964012815E-01
1.10500000000E+09 -5.30862509166E-01 +7.80435528660E-01 -1.02265960952E-05 +1.39391833783E-05 +4.03834738133E-05 -9.67753430626E-06 -6.76521635058E-01 +7.01693374960E-01
1.11000000000E+09 -5.24828499504E-01 +7.83589648429E-01 +1.49258170686E-05 +2.01915081422E-05 +3.36893656871E-05 -1.83560386690E-05 -6.72498054065E-01 +7.04966228921E-01
1.11500000000E+09 -5.17644478212E-01 +7.87402619563E-01 +1.04320823345E-05 -1.56829845469E-07 +6.42135560591E-06 +1.26753732769E-05 -6.68484258844E-01 +7.08450964243E-01
1.12000000000E+09 -5.09968409811E-01 +7.91197150921E-01 +4.85321363613E-06 +5.04349037017E-05 +4.60857792749E-05 -1.66755583196E-05 -6.64455981582E-01 +7.12019068448E-01
1.12500000000E+09 -5.02215207809E-01 +7.95107226024E-01 +2.52287655690E-06 +1.57947347631E-06 +1.08030576640E-05 +4.67040672652E-05 -6.60240943216E-01 +7.16009786844E-01
1.13000000000E+09 -4.95368429425E-01 +7.98587836878E-01 +3.36249155977E-05 +1.47121262514E-05 +2.04903753448E-05 -8.49302334315E-06 -6.55885235814E-01 +7.19950066600E-01
1.13500000000E+09 -4.89442548608E-01 +8.01410352232E-01 +3.04608824224E-05 +2.91111731912E-05 +2.96172872332E-05 +4.00372508807E-05 -6.51276676736E-01 +7.23643545816E-01
1.14000000000E+09 -4.84618335746E-01 +8.03869553569E-01 +1.77334458072E-05 -3.04005334683E-06 -4.73874082256E-06 +2.04624861405E-05 -6.46313692942E-01 +7.27207964333E-01
1.14500000000E+09 -4.80996060477E-01 +8.05334691266E-01 +1.71666461321E-05 +1.53045650292E-05 +4.23389806509E-05 -1.27456918021E-05 -6.41736936469E-01 +7.30675334264E-01
1.15000000000E+09 -4.77395865141E-01 +8.06649861295E-01 +4.73696167754E-05 -8.02167708249E-06 +7.49461835118E-05 +2.81645410553E-05 -6.37099903215E-01 +7.34521959047E-01
1.15500000000E+09 -4.73817663374E-01 +8.08270908096E-01 +3.79375635192E-05 -1.67270803287E-05 +2.35154239823E-05 +4.89842094359E-05 -6.32317635189E-01 +7.38141994297E-01
1.16000000000E+09 -4.69131892844E-01 +8.10145554496E-01 +2.18655672787E-05 -2.86119612439E-05 +3.44408082688E-05 +3.49003174115E-05 -6.27697939357E-01 +7.42150286036E-01
1.16500000000E+09 -4.63285091208E-01 +8.12627311660E-01 +1.95725743537E-05 +5.12601382662E-06 +2.04132042679E-05 +1.28937396640E-05 -6.22608300386E-01 +7.45623589018E-01
1.17000000000E+09 -4.56264112306E-01 +8.15570752437E-01 +9.16234836530E-05 -1.22792920059E-05 +3.75935856983E-05 -2.36182509343E-05 -6.17203823848E-01 +7.49082425947E-01
1.17500000000E+09 -4.48253865320E-01 +8.18793079852E-01 +9.57886601657E-05 -6.23991353028E-05 +1.51807473375E-05 -4.55742731976E-05 -6.11542068855E-01 +7.52214939872E-01
1.18000000000E+09 -4.40038565546E-01 +8.22431196493E-01 +1.08139125722E-04 -2.67869932002E-05 +1.97537544011E-05 -5.82764976716E-05 -6.06110706813E-01 +7.55308659940E-01
1.18500000000E+09 -4.31873060913E-01 +8.25620084584E-01 +5.21278056660E-05 -5.15649506717E-05 +1.30701557017E-04 -3.69075769128E-05 -6.00364262916E-01 +7.58225580268E-01
1.19000000000E+09 -4.24773287574E-01 +8.28494105257E-01 +6.47816288469E-05 -1.13418843140E-04 +1.94801476802E-06 -8.71460493204E-05 -5.93996607309E-01 +7.60854214587E-01
1.19500000000E+09 -4.18587153497E-01 +8.30560650974E-01 +4.46169822462E-05 -1.41417208418E-04 +5.54805009012E-05 -1.58694094183E-04 -5.88219269535E-01 +7.62080030271E-01
1.20000000000E+09 -4.13429056000E-01 +8.31308367837E-01 -4.63243076634E-05 -1.44826904009E-04 -1.08480817821E-05 -1.63925333625E-04 -5.83731492008E-01 +7.62268244517E-01
1.20500000000E+09 -4.08993524817E-01 +8.32503455840E-01 -1.03791536857E-04 -1.21079834841E-04 -8.45892967481E-05 -1.19638717531E-04 -5.81387280766E-01 +7.63169316627E-01
1.21000000000E+09 -4.04249475958E-01 +8.33452540559E-01 -9.22422985975E-05 -4.91760564271E-05 -1.00707273688E-04 -4.53877715260E-05 -5.79508370228E-01 +7.66279660831E-01
1.21500000000E+09 -3.98417589867E-01 +8.34796688665E-01 -9.07765201479E-05 -3.18540700810E-05 -6.33022613927E-05 -4.15609462549E-05 -5.76628051876E-01 +7.70955411480E-01
1.22000000000E+09 -3.91109312502E-01 +8.36452205171E-01 -3.26098104023E-05 -3.65086237673E-05 -6.58963187084E-05 -3.72787203042E-05 -5.72405593370E-01 +7.76449125044E-01
1.22500000000E+09 -3.82294326049E-01 +8.38815668216E-01 -1.35338480706E-05 -5.35406287570E-06 -5.54017604455E-05 -1.64346186467E-05 -5.67098134726E-01 +7.81511372703E-01
1.23000000000E+09 -3.72574011055E-01 +8.41780404744E-01 -1.62283123501E-05 +2.90436656950E-06 -4.34423894422E-05 -5.03440156021E-05 -5.61428559895E-01 +7.86262999139E-01
1.23500000000E+09 -3.62179067165E-01 +8.45138396518E-01 -5.46841876401E-05 -5.57540631226E-05 -2.26988999630E-05 -4.01946789608E-05 -5.55826116034E-01 +7.90411154361E-01
1.24000000000E+09 -3.51939870643E-01 +8.48826388486E-01 -1.65252945028E-05 -7.14832878548E-05 -4.32076112608E-05 -3.90125297503E-05 -5.49733061263E-01 +7.94153858158E-01
1.24500000000E+09 -3.42773302796E-01 +8.53006633160E-01 -5.63515941817E-05 -6.02361669822E-05 -5.76405592486E-05 -4.25013784515E-05 -5.43520443999E-01 +7.98165197065E-01
1.25000000000E+09 -3.34637363197E-01 +8.56525857440E-01 -5.11632813133E-05 -2.51271615209E-05 -7.40724923201E-05 -3.65306753655E-06 -5.37158734074E-01 +8.02355462998E-01
1.25500000000E+09 -3.27525909040E-01 +8.58967396530E-01 -7.72243376653E-05 -6.69110986264E-06 -7.19675990650E-05 -4.23714887147E-05 -5.30261230744E-01 +8.06273452218E-01
1.26000000000E+09 -3.21341229580E-01 +8.60819415710E-01 -1.06412016057E-04 -3.02048446997E-05 -4.26682216801E-05 -1.49882249879E-05 -5.23780342068E-01 +8.10637060628E-01
1.26500000000E+09 -3.15684256538E-01 +8.61856185582E-01 -5.67779453110E-05 +4.77239251820E-06 -8.49616245685E-05 -3.68411744196E-05 -5.16722523326E-01 +8.14340632520E-01
1.27000000000E+09 -3.09581221694E-01 +8.62463215849E-01 -1.50969846658E-05 -1.25697345979E-05 -3.88007258788E-05 +1.90734240171E-05 -5.09896459067E-01 +8.18176253072E-01
1.27500000000E+09 -3.02239450295E-01 +8.63085539607E-01 -5.37552005159E-05 +3.03115495645E-05 -7.49463174408E-05 -3.81667545477E-06 -5.02821945680E-01 +8.21607391453E-01
1.28000000000E+09 -2.93169873247E-01 +8.63951629572E-01 -5.49117976621E-05 +1.96800354655E-06 -8.14261703494E-05 -3.24541628771E-05 -4.95651844643E-01 +8.25313727106E-01
1.28500000000E+09 -2.82252174390E-01 +8.65304522449E-01 -6.26688463965E-05 +7.66369181253E-07 -6.97528143317E-05 -3.10091666929E-05 -4.88150567420E-01 +8.28911055907E-01
1.29000000000E+09 -2.70492300236E-01 +8.67201039138E-01 -9.69887566688E-05 +3.32878955087E-05 -5.40680557161E-05 +1.76860433711E-05 -4.80536166414E-01 +8.32763027870E-01
1.29500000000E+09 -2.58444062592E-01 +8.69658910138E-01 -7.92246092350E-05 +6.69626511110E-05 -8.85976717981E-05 +2.31234363358E-05 -4.72654502990E-01 +8.36286894717E-01
1.30000000000E+09 -2.46767003054E-01 +8.72989483053E-01 -1.04560070687E-04 +8.98796428813E-06 -7.52359260484E-05 +4.87764648197E-05 -4.64798497201E-01 +8.39983812897E-01
1.30500000000E+09 -2.36198142438E-01 +8.76271581886E-01 -5.03896488878E-05 +3.30522473840E-05 -1.16776640745E-04 +4.12975848651E-05 -4.56782080982E-01 +8.43384287617E-01
1.31000000000E+09 -2.27058255455E-01 +8.79007766064E-01 -5.97071384317E-05 +4.28663778285E-05 -6.44261084717E-05 +3.47017922341E-05 -4.48377656756E-01 +8.46777847135E-01
1.31500000000E+09 -2.19704980435E-01 +8.80933582740E-01 -8.65906714021E-05 +1.12100318122E-05 -6.98524477645E-05 +4.61749584521E-05 -4.39619360026E-01 +8.50231762665E-01
1.32000000000E+09 -2.13392481029E-01 +8.81842858055E-01 -9.89266600183E-05 -2.85087967442E-05 -9.78613552273E-05 +1.17587164535E-05 -4.30574569110E-01 +8.53581555208E-01
1.32500000000E+09 -2.07463922754E-01 +8.81870455787E-01 -1.00417254152E-04 +2.84664094771E-05 -1.06355461283E-04 +4.80627898711E-05 -4.21230819009E-01 +8.57050525303E-01
1.33000000000E+09 -2.00707066041E-01 +8.81406784360E-01 -1.38003685832E-04 +3.81047484734E-05 -1.58521597402E-04 +4.32623758913E-05 -4.11612044553E-01 +8.60222790891E-01
1.33500000000E+09 -1.92017345746E-01 +8.80591811372E-01 -1.54610601137E-04 +1.01503754098E-04 -1.67467765849E-04 +9.20189343815E-05 -4.02028062579E-01 +8.63368294752E-01
1.34000000000E+09 -1.80834099209E-01 +8.79730869307E-01 -1.58671405717E-04 +8.70822390139E-05 -1.62015093842E-04 +1.23936381222E-04 -3.91824307720E-01 +8.66643453748E-01
1.34500000000E+09 -1.67378541809E-01 +8.78897987903E-01 -1.49831993694E-04 +1.75928069952E-04 -9.95804089382E-05 +1.70239782892E-04 -3.80945809938E-01 +8.69860283415E-01
1.35000000000E+09 -1.52073536326E-01 +8.78594024718E-01 -7.09022958599E-05 +1.60169738199E-04 -9.77406067369E-05 +1.60393525419E-04 -3.69709411603E-01 +8.73029774167E-01
1.35500000000E+09 -1.35825873871E-01 +8.78988291291E-01 -8.93374953992E-05 +2.04243847892E-04 -1.44617271028E-04 +1.91829407599E-04 -3.57994720314E-01 +8.75918790382E-01
1.36000000000E+09 -1.19388062935E-01 +8.79718245905E-01 -1.50735045541E-04 +2.12220050549E-04 -1.28016976406E-04 +2.35580208942E-04 -3.45833874073E-01 +8.78658317488E-01
1.36500000000E+09 -1.03764437412E-01 +8.80513500844E-01 -6.81106428082E-05 +3.23842746059E-04 -9.85113990181E-05 +2.98493348850E-04 -3.33744494188E-01 +8.81058528964E-01
1.37000000000E+09 -8.96146514544E-02 +8.80738780534E-01 -5.89286777987E-05 +3.00126119451E-04 -5.81612115625E-05 +3.56375129115E-04 -3.20942438559E-01 +8.83378318415E-01
1.37500000000E+09 -7.75453815260E-02 +8.80436446264E-01 +2.45710836640E-05 +4.24130076835E-04 -8.44181024090E-06 +4.18468078549E-04 -3.07267040622E-01 +8.85633378251E-01
1.38000000000E+09 -6.66356549519E-02 +8.79477469630E-01 +1.72618306276E-04 +4.00578722757E-04 +1.46479307678E-04 +4.51355212096E-04 -2.92635947316E-01 +8.87907229458E-01
1.38500000000E+09 -5.56293118292E-02 +8.77908147264E-01 +2.26899376254E-04 +3.33734760496E-04 +2.00799517605E-04 +3.39508969076E-04 -2.77142703607E-01 +8.89669762008E-01
1.39000000000E+09 -4.39450651259E-02 +8.75154333498E-01 +2.15082115239E-04 +2.75799507162E-04 +2.75216306418E-04 +3.52490329771E-04 -2.61318951178E-01 +8.91148893725E-01
1.39500000000E+09 -3.00718295453E-02 +8.71530968725E-01 +2.50713310866E-04 +2.90736490283E-04 +2.78233124928E-04 +2.97788298415E-04 -2.44663023935E-01 +8.91959862123E-01
1.40000000000E+09 -1.36965076352E-02 +8.67058573198E-01 +2.10608709442E-04 +3.28998544218E-04 +2.66475904175E-04 +3.11916820832E-04 -2.27304536898E-01 +8.92260836155E-01
1.40500000000E+09 +4.73007740233E-03 +8.61977772291E-01 +3.42866316414E-04 +3.49658436855E-04 +3.55534775767E-04 +3.43024517466E-04 -2.09056418323E-01 +8.91924058748E-01
1.41000000000E+09 +2.51774625875E-02 +8.56454506813E-01 +4.36707496028E-04 +3.53347947718E-04 +4.30364759451E-04 +3.24972019995E-04 -1.89023406384E-01 +8.91245949860E-01
1.41500000000E+09 +4.69175313797E-02 +8.50855085692E-01 +5.68682019347E-04 +2.92943917483E-04 +5.35546858177E-04 +3.25577991820E-04 -1.67628196883E-01 +8.89942316290E-01
1.42000000000E+09 +6.92197047845E-02 +8.45027323312E-01 +6.57605708150E-04 +1.12244503099E-04 +7.27720340298E-04 +1.22540795909E-04 -1.44863370269E-01 +8.87450134283E-01
1.42500000000E+09 +9.11195069560E-02 +8.37951961339E-01 +5.82444136543E-04 +7.03253361596E-05 +6.78760847749E-04 +2.45371710914E-05 -1.21253002618E-01 +8.83775418509E-01
1.43000000000E+09 +1.11858424711E-01 +8.29489710802E-01 +8.13186122744E-04 +6.57415441191E-05 +8.63664924146E-04 -3.75304614169E-06 -9.67011925904E-02 +8.79137066472E-01
1.43500000000E+09 +1.31834836316E-01 +8.19500999299E-01 +8.39116137194E-04 -1.96556382696E-04 +8.34122094018E-04 -2.79399103135E-04 -7.05594064314E-02 +8.72791004686E-01
1.44000000000E+09 +1.51828555662E-01 +8.07575817503E-01 +7.63655919662E-04 -3.57754102185E-04 +7.39305311451E-04 -3.85137407340E-04 -4.26060852846E-02 +8.64645974249E-01
1.44500000000E+09 +1.73174471109E-01 +7.92848708730E-01 +7.64837737989E-04 -4.24125479031E-04 +8.00402949945E-04 -4.54701147200E-04 -1.21927800349E-02 +8.53624470051E-01
1.45000000000E+09 +1.96270148876E-01 +7.74649503770E-01 +7.07211453350E-04 -5.28827205362E-04 +7.36577568475E-04 -6.36832307966E-04 +1.97527653847E-02 +8.39283181507E-01
1.45500000000E+09 +2.21864780776E-01 +7.52881191368E-01 +8.19185250957E-04 -6.28443737410E-04 +7.52623253760E-04 -6.97000929572E-04 +5.33046381237E-02 +8.21917321474E-01
1.46000000000E+09 +2.50403273429E-01 +7.26707794944E-01 +8.71251616277E-04 -8.58533145366E-04 +7.93492286669E-04 -9.08160656309E-04 +8.80122166351E-02 +8.00513877285E-01
1.46500000000E+09 +2.80292284475E-01 +6.96543746825E-01 +9.09071199376E-04 -1.32927452952E-03 +6.98296463256E-04 -1.27012512749E-03 +1.24105794143E-01 +7.73945836379E-01
1.47000000000E+09 +3.11991728595E-01 +6.62384935836E-01 +4.35114073640E-04 -1.65192080291E-03 +3.67964828533E-04 -1.45995217023E-03 +1.60789294984E-01 +7.41236697421E-01
1.47500000000E+09 +3.43507924992E-01 +6.22587365507E-01 +3.69963874941E-05 -1.79158110249E-03 +1.00097166823E-04 -1.70115665452E-03 +1.99029892325E-01 +7.01274237573E-01
1.48000000000E+09 +3.72288028160E-01 +5.76488269213E-01 -2.63795870824E-04 -1.59694524510E-03 -2.36939011595E-04 -1.66271758789E-03 +2.36433895335E-01 +6.51483472400E-01
1.48500000000E+09 +3.96336199067E-01 +5.24293277986E-01 -2.46261174114E-04 -1.84243701651E-03 -3.03168967701E-04 -1.89686998844E-03 +2.70979003381E-01 +5.92749232056E-01
1.49000000000E+09 +4.14396188019E-01 +4.64537248966E-01 -8.27116339235E-04 -2.26426522322E-03 -9.33320941302E-04 -2.24286452557E-03 +3.00347066107E-01 +5.23374979687E-01
1.49500000000E+09 +4.24342327974E-01 +3.96920299055E-01 -1.44216302153E-03 -2.30090522038E-03 -1.46380605563E-03 -2.16209533326E-03 +3.19845185555E-01 +4.43210346944E-01
1.50000000000E+09 +4.24526458765E-01 +3.19870950988E-01 -2.61302178518E-03 -2.54069007508E-03 -2.46337805101E-03 -2.39574705531E-03 +3.26003015078E-01 +3.52929159139E-01
1.50500000000E+09 +4.11549662292E-01 +2.33907518850E-01 -4.12060363690E-03 -1.33517857091E-03 -3.86705848455E-03 -1.35540098991E-03 +3.15023034911E-01 +2.56277306891E-01
1.51000000000E+09 +3.81048485012E-01 +1.42354764805E-01 -4.17384952604E-03 +7.32078651085E-04 -4.13506659148E-03 +5.26368594377E-04 +2.84927798283E-01 +1.54329370154E-01
1.51500000000E+09 +3.32067362862E-01 +5.14961840417E-02 -3.58399816648E-03 +1.56741733715E-03 -3.66917221448E-03 +1.43973811398E-03 +2.29974460036E-01 +5.42943402732E-02
1.52000000000E+09 +2.63811605258E-01 -3.28301893766E-02 -3.24779458115E-03 +2.68067269503E-03 -3.29591476331E-03 +2.65684429351E-03 +1.52280045064E-01 -3.35468420566E-02
1.52500000000E+09 +1.77818052638E-01 -1.03519364074E-01 -1.60004084551E-03 +3.51924955276E-03 -1.68133163209E-03 +3.53379161120E-03 +5.59179423492E-02 -1.02924332951E-01
1.53000000000E+09 +7.51426235506E-02 -1.53206289764E-01 -7.77537159606E-04 +3.06468967137E-03 -7.95098579753E-04 +3.07090218804E-03 -5.31470296855E-02 -1.48572195759E-01
1.53500000000E+09 -3.53459413517E-02 -1.75415357430E-01 -6.87187604502E-04 +3.41279703504E-03 -6.57690000006E-04 +3.40627334265E-03 -1.66987016255E-01 -1.68065282876E-01
1.54000000000E+09 -1.46151981945E-01 -1.70436844165E-01 +6.50302727904E-04 +3.86621589513E-03 +5.66585266577E-04 +3.86066621081E-03 -2.76999599851E-01 -1.63904722765E-01
1.54500000000E+09 -2.49774537032E-01 -1.41501678328E-01 +2.05390451605E-03 +3.27165510361E-03 +1.93672736012E-03 +3.30429070189E-03 -3.76492512951E-01 -1.39537846306E-01
1.55000000000E+09 -3.41508420272E-01 -9.47065588366E-02 +2.87118302824E-03 +2.48218944144E-03 +2.80796659077E-03 +2.56875320151E-03 -4.62923090806E-01 -1.00976238370E-01
1.55500000000E+09 -4.18716467917E-01 -3.67038047741E-02 +3.41308369623E-03 +9.73580689818E-04 +3.46596901783E-03 +1.19721983529E-03 -5.34298373957E-01 -5.13258358820E-02
1.56000000000E+09 -4.81181522778E-01 +2.59723683111E-02 +2.81184951086E-03 -4.59429502431E-04 +2.98628467048E-03 -3.75841621839E-04 -5.90164677238E-01 +3.01977806768E-03
1.56500000000E+09 -5.28518579835E-01 +8.92099155278E-02 +1.89273323835E-03 -7.63532021846E-04 +2.03753971948E-03 -7.93049602345E-04 -6.34098381812E-01 +5.92754851588E-02
1.57000000000E+09 -5.63980325274E-01 +1.49569914757E-01 +1.55096748515E-03 -8.09924208507E-04 +1.64658463975E-03 -9.03502493740E-04 -6.66296665349E-01 +1.14824765891E-01
