# Hz S RI R 50
! CMT, C1220, 16058040, 17.2.0/1
! Date: 14/08/2018 12:09:07
! Data: Format (Calibration Info)
! Freq                      S11: Re/Im (F2)                       S21: Re/Im (F2)                       S12: Re/Im (F2)                       S22: Re/Im (F2)            
1.00000000000E+09 -6.54744519078E-01 +7.09797902382E-01 +2.11131684617E-05 +2.83809680097E-05 +6.84464298986E-06 -6.04792715398E-07 -7.53458781388E-01 +6.25609208976E-01
1.00500000000E+09 -6.47885205545E-01 +7.14374034414E-01 -3.97873728109E-05 +3.68516483113E-06 -8.26064837558E-06 -1.70889528673E-05 -7.49751560784E-01 +6.29780565404E-01
1.01000000000E+09 -6.42150329442E-01 +7.18562348741E-01 -1.28612999963E-05 -2.57904948151E-05 -1.67924877365E-05 +4.90403359984E-05 -7.46311509728E-01 +6.33489699733E-01
1.01500000000E+09 -6.38008957932E-01 +7.22282779855E-01 -2.76181503762E-05 +3.34728853841E-05 -3.05557352985E-05 -2.70004184201E-05 -7.42890806383E-01 +6.37253583767E-01
1.02000000000E+09 -6.35185131099E-01 +7.25630230594E-01 -2.76792374570E-05 -2.69310672934E-05 -1.30904444707E-05 -1.47098926085E-05 -7.39393830768E-01 +6.40800181209E-01
1.02500000000E+09 -6.33172771254E-01 +7.28732562771E-01 -1.90025639416E-06 -2.90667241530E-06 -3.01285264599E-05 -1.38453750863E-05 -7.36632856895E-01 +6.44631394468E-01
1.03000000000E+09 -6.31741513367E-01 +7.31505449650E-01 -2.10903944077E-05 +2.00666476960E-05 -3.09337458256E-06 -1.52694084828E-05 -7.33064138611E-01 +6.48500675427E-01
1.03500000000E+09 -6.29697881263E-01 +7.34193692724E-01 +1.54953818708E-05 +5.10439646272E-06 -4.07296473207E-05 +1.33215241621E-05 -7.29360455980E-01 +6.52424886194E-01
1.04000000000E+09 -6.26381342836E-01 +7.37345242119E-01 +5.46946634441E-06 -6.35862633651E-06 -1.77972949105E-05 +6.31324981884E-06 -7.25463800416E-01 +6.56010212067E-01
1.04500000000E+09 -6.21412247102E-01 +7.40867941492E-01 -1.17052250817E-07 +1.77550086138E-05 -2.55669130277E-05 +2.30018479254E-05 -7.22012884334E-01 +6.59671353976E-01
1.05000000000E+09 -6.14996548630E-01 +7.44892312623E-01 -1.52234150916E-05 +4.60052325905E-05 -4.11047857707E-05 +1.51300249115E-05 -7.18447038635E-01 +6.62994681256E-01
1.05500000000E+09 -6.07143352707E-01 +7.49011271660E-01 -6.14789495208E-05 -1.94463401550E-05 -1.83323292130E-05 +5.55465460180E-05 -7.15214277188E-01 +6.66592382236E-01
1.06000000000E+09 -5.98883038953E-01 +7.53602583081E-01 -2.54519999154E-05 +8.80951957212E-06 -3.52069711391E-05 +6.21254528009E-05 -7.11882425833E-01 +6.70415400217E-01
1.06500000000E+09 -5.90991623696E-01 +7.58161445644E-01 -1.01119437182E-05 +5.88380554571E-05 -2.04699138372E-05 +7.90507506914E-05 -7.08302248636E-01 +6.74114464696E-01
1.07000000000E+09 -5.84284774537E-01 +7.61923628703E-01 -8.99040125530E-06 +6.31263226912E-05 -1.86035975854E-05 +2.60395455637E-05 -7.04188016276E-01 +6.77848114511E-01
1.07500000000E+09 -5.78680718562E-01 +7.65617959741E-01 +1.86033352348E-05 +6.64488392455E-05 +3.94193371139E-05 -5.22063753858E-06 -6.99821345470E-01 +6.81592322068E-01
1.08000000000E+09 -5.74854200845E-01 +7.68880805999E-01 -1.32694102900E-05 +6.96344863944E-05 -1.93475202320E-05 +4.42912092873E-05 -6.96039089031E-01 +6.85429120395E-01
1.08500000000E+09 -5.72208177178E-01 +7.71949007877E-01 +4.03488809798E-05 +5.14326097778E-05 -8.76709624426E-06 +5.66143512596E-05 -6.91920523770E-01 +6.89120119946E-01
1.09000000000E+09 -5.69821237980E-01 +7.74659027549E-01 +4.92954361013E-05 +3.91664116991E-05 +7.51946688835E-06 +7.66579055193E-05 -6.88024930338E-01 +6.92858668990E-01
1.09500000000E+09 -5.67771894079E-01 +7.77124532925E-01 +5.53460750874E-05 +2.57587755271E-05 -7.18817489773E-06 -8.51655128850E-06 -6.84353902990E-01 +6.96922309571E-01
1.10000000000E+09 -5.64441535263E-01 +7.79796735152E-01 +7.83802019055E-05 +5.54055079865E-05 +1.20513215792E-06 +3.38606609806E-05 -6.80376107646E-01 +7.00638116870E-01
1.10500000000E+09 -5.59833502313E-01 +7.82814665213E-01 +3.57234297892E-05 +4.74345821263E-05 +5.00589531134E-05 +4.70184272542E-05 -6.75904587741E-01 +7.04122884812E-01
1.11000000000E+09 -5.53927249182E-01 +7.86174361542E-01 +3.06271105459E-05 +4.07261260586E-05 -9.08644745376E-06 +3.49213151011E-05 -6.71720380408E-01 +7.07597093430E-01
1.11500000000E+09 -5.46913973081E-01 +7.89634324736E-01 +1.44288410547E-05 +7.20722015651E-05 +2.60568475881E-05 +2.63935069477E-05 -6.67643464587E-01 +7.10927359019E-01
1.12000000000E+09 -5.39357882082E-01 +7.93254062321E-01 +3.34034845219E-05 -7.44397149486E-06 +6.32248213680E-05 +2.82594161286E-05 -6.63518524240E-01 +7.14720538561E-01
1.12500000000E+09 -5.31721136197E-01 +7.96901916410E-01 +2.93609096090E-05 +3.52955237996E-05 +1.75669509408E-05 +7.91962812276E-06 -6.59439785564E-01 +7.18655620450E-01
1.13000000000E+09 -5.25013605236E-01 +8.00294500807E-01 +1.37141710368E-05 +6.02476048270E-05 +4.63303548750E-05 +5.29319356122E-05 -6.55043103379E-01 +7.22448531874E-01
1.13500000000E+09 -5.19289973298E-01 +8.03243805685E-01 +5.30402701307E-05 +1.16920806011E-05 +6.18599060806E-06 +7.24801355177E-05 -6.50575810373E-01 +7.26151600089E-01
1.14000000000E+09 -5.14824112422E-01 +8.06256679128E-01 +4.18289031012E-05 +4.40513071234E-05 +4.18588520167E-05 +5.85269313411E-05 -6.45814546989E-01 +7.29641916793E-01
1.14500000000E+09 -5.10920619461E-01 +8.08683790898E-01 +5.84547362769E-05 +2.91868329095E-05 +5.78179997610E-05 +9.90328945185E-05 -6.41085349419E-01 +7.33182415376E-01
1.15000000000E+09 -5.07583129365E-01 +8.10923112778E-01 +7.06600345986E-05 +5.86240107896E-05 +6.86241249607E-05 +2.19793867762E-05 -6.36407786955E-01 +7.36995164401E-01
1.15500000000E+09 -5.03941766837E-01 +8.13390720410E-01 +9.06923986359E-05 +6.08124850707E-05 +3.46777778976E-05 +3.54827559091E-05 -6.31639733117E-01 +7.40680201237E-01
1.16000000000E+09 -4.99450376581E-01 +8.15766607417E-01 +3.44140050057E-05 +1.37727735206E-05 +4.41980208869E-05 +7.12585816899E-05 -6.26708214369E-01 +7.44489403388E-01
1.16500000000E+09 -4.93783463547E-01 +8.18636536177E-01 +5.60494971799E-05 +7.90731664503E-05 +9.78216273188E-05 +4.73239651935E-05 -6.21698732305E-01 +7.48173332522E-01
1.17000000000E+09 -4.87048779749E-01 +8.21739853310E-01 +4.68191306317E-05 +3.07689579257E-05 +9.32881363371E-05 +3.54783016928E-05 -6.16267836621E-01 +7.51496050255E-01
1.17500000000E+09 -4.79298626478E-01 +8.24724410341E-01 +7.04378719509E-05 -3.56853549303E-05 +7.44367700863E-05 +4.56666174526E-05 -6.10524787927E-01 +7.54736127255E-01
1.18000000000E+09 -4.71224600604E-01 +8.27919586845E-01 +9.44544334346E-05 +3.71631833008E-05 +1.43211296921E-04 +3.86303291811E-06 -6.05041422520E-01 +7.57895204776E-01
1.18500000000E+09 -4.63464716709E-01 +8.30762577471E-01 +1.03448044046E-04 +2.33835729234E-05 +1.21649289237E-04 +2.01915817815E-05 -5.98913069799E-01 +7.60862558984E-01
1.19000000000E+09 -4.56415302692E-01 +8.33260778772E-01 +1.10018163646E-04 +3.42303661662E-05 +1.68181131469E-04 +2.34776235644E-05 -5.92605021350E-01 +7.63575698057E-01
1.19500000000E+09 -4.50474390424E-01 +8.35472617985E-01 +1.31317028591E-04 +5.22626845390E-06 +1.77501304750E-04 -1.79775467321E-05 -5.86693898524E-01 +7.64841524983E-01
1.20000000000E+09 -4.45563241939E-01 +8.36754510630E-01 +2.25411599400E-04 -5.62391609550E-05 +1.59131119693E-04 -9.83142176624E-05 -5.82364533557E-01 +7.65042113939E-01
1.20500000000E+09 -4.41655295174E-01 +8.38641974548E-01 +1.52973537952E-04 -1.01188587514E-04 +1.05570230495E-04 -1.08260365352E-04 -5.80059064263E-01 +7.65734339202E-01
1.21000000000E+09 -4.37432229801E-01 +8.40631786373E-01 +9.12608314436E-05 -1.46141648907E-04 +1.48847176495E-04 -1.49626457793E-04 -5.78226620442E-01 +7.68813197722E-01
1.21500000000E+09 -4.32299193949E-01 +8.42941469486E-01 +1.19865342785E-04 -1.00358181430E-04 +9.57947986479E-05 -1.23799578156E-04 -5.75570136946E-01 +7.73306772374E-01
1.22000000000E+09 -4.25749740290E-01 +8.45481562359E-01 +5.77111636872E-05 -1.24904690694E-04 +7.91169636595E-05 -1.36678740283E-04 -5.71390790518E-01 +7.78644995540E-01
1.22500000000E+09 -4.17623941501E-01 +8.48291235845E-01 +7.16100506233E-05 -1.35171164222E-04 +9.24424817482E-05 -9.65692235063E-05 -5.66181031525E-01 +7.83843897444E-01
1.23000000000E+09 -4.08211977221E-01 +8.51356482804E-01 +6.12518961901E-05 -1.10265277227E-04 +2.02728552938E-06 -1.40609404469E-04 -5.60308642314E-01 +7.88410542860E-01
1.23500000000E+09 -3.98263474544E-01 +8.54671218749E-01 +1.00912852986E-04 -1.37003700877E-04 +7.62730156030E-05 -9.02709753670E-05 -5.54440092806E-01 +7.92914951411E-01
1.24000000000E+09 -3.88184518130E-01 +8.57915371998E-01 +1.30768404107E-04 -1.09476277730E-04 +1.07845674693E-04 -1.57765927560E-04 -5.48583968180E-01 +7.96848397719E-01
1.24500000000E+09 -3.78649639535E-01 +8.61398825415E-01 +8.82309344066E-05 -2.27207060115E-04 +5.94596396875E-05 -1.75539531513E-04 -5.42130789255E-01 +8.00626559577E-01
1.25000000000E+09 -3.70061234380E-01 +8.64378146689E-01 +6.90441247557E-05 -2.56077414573E-04 +9.01602400237E-05 -2.19007870317E-04 -5.35546746155E-01 +8.04844356049E-01
1.25500000000E+09 -3.62839468347E-01 +8.67089667874E-01 +6.74241123293E-06 -2.61366483714E-04 +2.08203166171E-05 -2.73870562990E-04 -5.28632527428E-01 +8.08900458511E-01
1.26000000000E+09 -3.56780718135E-01 +8.69450504977E-01 -1.53191753666E-05 -2.54684618362E-04 +1.26861643308E-05 -2.97256706334E-04 -5.21859323000E-01 +8.13172778507E-01
1.26500000000E+09 -3.51211282827E-01 +8.71656868954E-01 -5.68147051958E-05 -2.61350020459E-04 -4.53659558481E-05 -2.71333843325E-04 -5.14936082962E-01 +8.16960130062E-01
1.27000000000E+09 -3.45597437927E-01 +8.73908964998E-01 -6.37798907437E-05 -2.65052298406E-04 -4.09019203148E-05 -2.40202216387E-04 -5.08270263033E-01 +8.20879188756E-01
1.27500000000E+09 -3.39030885326E-01 +8.75976118179E-01 -8.65368600270E-05 -2.72597719181E-04 -1.23165904394E-04 -2.49117022083E-04 -5.01104433314E-01 +8.24486381170E-01
1.28000000000E+09 -3.31008004313E-01 +8.78519356425E-01 -1.39677173777E-04 -2.57893510136E-04 -1.47443084239E-04 -3.48572643121E-04 -4.93994778265E-01 +8.27861996289E-01
1.28500000000E+09 -3.21295964307E-01 +8.80974064521E-01 -1.59684616390E-04 -2.34791957774E-04 -1.61057723936E-04 -2.48773447975E-04 -4.86673125629E-01 +8.31664781458E-01
1.29000000000E+09 -3.10513776911E-01 +8.83467697286E-01 -2.04860747683E-04 -2.23303839812E-04 -2.16380351361E-04 -2.32398318661E-04 -4.79183431410E-01 +8.35376878473E-01
1.29500000000E+09 -2.99114539446E-01 +8.86139798454E-01 -2.15859894951E-04 -2.71820611788E-04 -2.20825712599E-04 -2.49857687842E-04 -4.71329073489E-01 +8.38842986570E-01
1.30000000000E+09 -2.87531386733E-01 +8.88859158429E-01 -3.02520926445E-04 -2.25019422208E-04 -3.14258218231E-04 -1.71300135702E-04 -4.63435200167E-01 +8.42516882702E-01
1.30500000000E+09 -2.77029553890E-01 +8.91234569822E-01 -3.33110884578E-04 -1.65005594258E-04 -3.08522870188E-04 -1.62117304491E-04 -4.55156559199E-01 +8.45930701727E-01
1.31000000000E+09 -2.67697612215E-01 +8.93353939663E-01 -3.96079051492E-04 -1.16703928449E-04 -3.26194644258E-04 -1.61478402262E-04 -4.46915219453E-01 +8.49390266049E-01
1.31500000000E+09 -2.59682763154E-01 +8.95243337089E-01 -3.88651482248E-04 -6.49042330052E-05 -3.82604092368E-04 -5.67453849352E-05 -4.38211311247E-01 +8.52785988597E-01
1.32000000000E+09 -2.52800742406E-01 +8.96898312529E-01 -3.65383015583E-04 -6.93922253129E-05 -3.44690463477E-04 -9.77061747912E-05 -4.28816072882E-01 +8.56147416769E-01
1.32500000000E+09 -2.46265490893E-01 +8.98177627754E-01 -3.31647640132E-04 -6.27863417637E-05 -3.45483009017E-04 -6.18909028849E-05 -4.19202832776E-01 +8.59683912524E-01
1.33000000000E+09 -2.38962660580E-01 +8.99304432236E-01 -3.71523765638E-04 -1.18107990133E-05 -3.96221592445E-04 -3.88907279250E-05 -4.09421365781E-01 +8.62836533888E-01
1.33500000000E+09 -2.30106829147E-01 +8.99949209648E-01 -4.57458943561E-04 -1.02362229817E-05 -4.38182598165E-04 +9.94693344226E-05 -3.99663873728E-01 +8.66149148660E-01
1.34000000000E+09 -2.19202196248E-01 +9.00639179878E-01 -4.75955207530E-04 +1.16680374252E-04 -4.34095784732E-04 +1.31735412383E-04 -3.89479701500E-01 +8.69570495633E-01
1.34500000000E+09 -2.06087154038E-01 +9.01046451151E-01 -4.21068008378E-04 +1.07191237546E-04 -3.85908440310E-04 +1.21461511631E-04 -3.78374823020E-01 +8.72879380042E-01
1.35000000000E+09 -1.91095727884E-01 +9.01001473927E-01 -3.92130154847E-04 +1.66562442598E-04 -3.66771680273E-04 +1.67545443339E-04 -3.67226999574E-01 +8.75951652284E-01
1.35500000000E+09 -1.75090363104E-01 +9.01016096039E-01 -3.73138544781E-04 +1.92586874132E-04 -3.69974790464E-04 +1.36484440953E-04 -3.55740124249E-01 +8.78628293404E-01
1.36000000000E+09 -1.59025142224E-01 +9.00926692452E-01 -3.79376184926E-04 +2.05261631620E-04 -3.90224676599E-04 +1.63828396598E-04 -3.43863989984E-01 +8.81407783797E-01
1.36500000000E+09 -1.43311937288E-01 +9.01135721637E-01 -4.41237064172E-04 +2.13419435613E-04 -4.29367128342E-04 +1.93668643303E-04 -3.31499451461E-01 +8.83935873458E-01
1.37000000000E+09 -1.28542809453E-01 +9.01312934281E-01 -4.53447328895E-04 +2.15233464740E-04 -4.55738648826E-04 +1.49290526340E-04 -3.18698713745E-01 +8.86191258629E-01
1.37500000000E+09 -1.15235204482E-01 +9.01294097915E-01 -5.08196563557E-04 +2.91061110005E-04 -5.31191319701E-04 +2.56679145312E-04 -3.04982585545E-01 +8.88441168937E-01
1.38000000000E+09 -1.02872852602E-01 +9.01138153754E-01 -4.72723236318E-04 +5.33965672085E-04 -5.79617662463E-04 +4.79780261868E-04 -2.90452660943E-01 +8.90578466068E-01
1.38500000000E+09 -9.06113401514E-02 +9.00515660903E-01 -3.49248781289E-04 +5.52226718934E-04 -4.52571846865E-04 +5.66512426181E-04 -2.74957504934E-01 +8.92463058022E-01
1.39000000000E+09 -7.76778640276E-02 +8.99338547411E-01 -3.28967001590E-04 +4.87967083137E-04 -4.00701389671E-04 +6.24173467327E-04 -2.58934757722E-01 +8.93953680186E-01
1.39500000000E+09 -6.31659447210E-02 +8.97226427485E-01 -3.56111148455E-04 +5.53245682893E-04 -3.71540515133E-04 +6.45098980593E-04 -2.42102398497E-01 +8.94609513014E-01
1.40000000000E+09 -4.65517031201E-02 +8.94151484172E-01 -3.81997935882E-04 +6.33136947221E-04 -3.43618634460E-04 +7.21384887478E-04 -2.24634406768E-01 +8.95139093330E-01
1.40500000000E+09 -2.80118455209E-02 +8.89966270552E-01 -4.15013250173E-04 +7.07373985319E-04 -3.29365568746E-04 +7.09154645803E-04 -2.05958406517E-01 +8.94947477616E-01
1.41000000000E+09 -7.75713675433E-03 +8.84624316378E-01 -3.60659599354E-04 +8.86825437250E-04 -3.62760450312E-04 +8.46926186753E-04 -1.85947255302E-01 +8.94475052961E-01
1.41500000000E+09 +1.34304701818E-02 +8.78327493856E-01 -2.11901086399E-04 +9.49958498685E-04 -2.55369625974E-04 +9.82970270236E-04 -1.64165551640E-01 +8.93160028126E-01
1.42000000000E+09 +3.51685779280E-02 +8.71669715786E-01 -1.99367168517E-04 +9.77280796210E-04 -2.05388780736E-04 +1.03758851742E-03 -1.41328348903E-01 +8.90552954956E-01
1.42500000000E+09 +5.67619282149E-02 +8.64266136547E-01 -1.84589739286E-04 +1.16261768541E-03 -1.76343010792E-04 +1.30853086007E-03 -1.17314942932E-01 +8.86839543152E-01
1.43000000000E+09 +7.84550749492E-02 +8.56286660699E-01 -2.68079075222E-05 +1.39112366089E-03 +9.72484629888E-05 +1.54237940948E-03 -9.23731084647E-02 +8.82280581833E-01
1.43500000000E+09 +1.00078077070E-01 +8.47103771521E-01 +2.64651410144E-04 +1.51746499897E-03 +4.77607066406E-04 +1.49837677102E-03 -6.60181956954E-02 +8.75590602505E-01
1.44000000000E+09 +1.22391485962E-01 +8.36553874705E-01 +4.86469420822E-04 +1.39999656454E-03 +5.39150746714E-04 +1.36570765404E-03 -3.78759317929E-02 +8.67032431984E-01
1.44500000000E+09 +1.46125026079E-01 +8.23552987325E-01 +4.96322285243E-04 +1.39080926913E-03 +5.86465144457E-04 +1.41037419129E-03 -7.42763203300E-03 +8.55674842281E-01
1.45000000000E+09 +1.71602984171E-01 +8.06782360793E-01 +5.24121747671E-04 +1.68239088417E-03 +6.81746710036E-04 +1.66473350431E-03 +2.46575203379E-02 +8.40979677434E-01
1.45500000000E+09 +1.98995562606E-01 +7.86460234124E-01 +7.97800407747E-04 +2.04973398615E-03 +9.97360266465E-04 +2.00649913537E-03 +5.80439030410E-02 +8.23263434843E-01
1.46000000000E+09 +2.28857986847E-01 +7.61302691412E-01 +1.45989480616E-03 +2.36163276275E-03 +1.61692734555E-03 +2.10821645910E-03 +9.31600078974E-02 +8.01541032411E-01
1.46500000000E+09 +2.60125390081E-01 +7.30827795166E-01 +2.08121502299E-03 +2.34526469586E-03 +2.07336828557E-03 +1.99779277356E-03 +1.29680549589E-01 +7.74605102204E-01
1.47000000000E+09 +2.91834923180E-01 +6.94833282540E-01 +2.78688241882E-03 +2.19718344952E-03 +2.58690869094E-03 +2.00184038395E-03 +1.66974344097E-01 +7.40329702179E-01
1.47500000000E+09 +3.22932386835E-01 +6.52716239103E-01 +3.54027946249E-03 +1.97899702549E-03 +3.29861696628E-03 +2.03014064094E-03 +2.03531197026E-01 +6.98937951303E-01
1.48000000000E+09 +3.51403475705E-01 +6.03847795301E-01 +4.40578755001E-03 +1.61640791770E-03 +4.38111480295E-03 +1.76118476049E-03 +2.39882877093E-01 +6.50390333576E-01
1.48500000000E+09 +3.75642791162E-01 +5.49089814085E-01 +5.28256490068E-03 +8.91959155097E-04 +5.39027723457E-03 +8.60228393897E-04 +2.74879409509E-01 +5.91491265736E-01
1.49000000000E+09 +3.94847039021E-01 +4.87193253146E-01 +6.26235676901E-03 -6.92951532812E-05 +6.22908465877E-03 -4.03068320793E-04 +3.03325429251E-01 +5.21549575346E-01
1.49500000000E+09 +4.06736122529E-01 +4.17109577273E-01 +7.00118975828E-03 -1.54813100847E-03 +6.63137566737E-03 -1.73807599094E-03 +3.21780666759E-01 +4.41167785624E-01
1.50000000000E+09 +4.07894186465E-01 +3.37972718307E-01 +8.07110504584E-03 -3.23630426175E-03 +7.55471296347E-03 -3.08118439932E-03 +3.27274211686E-01 +3.52537054975E-01
1.50500000000E+09 +3.95816369803E-01 +2.52291429723E-01 +8.25347095047E-03 -6.97328771412E-03 +8.09430681859E-03 -6.47171501128E-03 +3.16439065256E-01 +2.55083790981E-01
1.51000000000E+09 +3.66633302223E-01 +1.60666819635E-01 +5.70763424124E-03 -1.05510945837E-02 +6.05923045519E-03 -1.01779075978E-02 +2.84281265211E-01 +1.53646752543E-01
1.51500000000E+09 +3.16974747345E-01 +7.01304882033E-02 +2.38424889486E-03 -1.23145493539E-02 +2.68865282861E-03 -1.23492945929E-02 +2.29418468844E-01 +5.63909299164E-02
1.52000000000E+09 +2.47985903465E-01 -1.12525504771E-02 -2.00445359368E-03 -1.29983882604E-02 -1.86502820191E-03 -1.31632359238E-02 +1.53576197525E-01 -3.05447958782E-02
1.52500000000E+09 +1.62424043023E-01 -8.06301823882E-02 -5.12155239206E-03 -1.10156667331E-02 -5.11284383020E-03 -1.11536113691E-02 +5.84559019349E-02 -1.00487476061E-01
1.53000000000E+09 +6.20003406204E-02 -1.30007605824E-01 -7.30828328667E-03 -1.06854493247E-02 -7.35905499804E-03 -1.07861943123E-02 -5.03598663803E-02 -1.46618002824E-01
1.53500000000E+09 -4.55425927537E-02 -1.56089197069E-01 -1.10225900111E-02 -8.77558744578E-03 -1.10443943521E-02 -8.74517466041E-03 -1.62953884483E-01 -1.67056670630E-01
1.54000000000E+09 -1.55247714277E-01 -1.58226249901E-01 -1.40787072752E-02 -4.86253949747E-03 -1.39030547372E-02 -4.88515659620E-03 -2.74006653371E-01 -1.63559708483E-01
1.54500000000E+09 -2.60850677803E-01 -1.36193931748E-01 -1.46415628597E-02 +7.47153051412E-04 -1.45458989091E-02 +3.98786611074E-04 -3.73679166966E-01 -1.38466714216E-01
1.55000000000E+09 -3.54194433361E-01 -9.36075784153E-02 -1.22711806650E-02 +4.95327906382E-03 -1.24591409812E-02 +4.49819715919E-03 -4.58890529763E-01 -9.99519646702E-02
1.55500000000E+09 -4.31217982001E-01 -3.90514643652E-02 -9.30988304941E-03 +7.44253992073E-03 -9.88158994364E-03 +7.18000898394E-03 -5.30114229710E-01 -5.21029239352E-02
1.56000000000E+09 -4.92903474372E-01 +1.97675648466E-02 -6.08908274374E-03 +8.88176870933E-03 -6.67495328843E-03 +9.00735012716E-03 -5.86944419440E-01 +2.36718811969E-03
1.56500000000E+09 -5.42743769940E-01 +8.03837714133E-02 -2.99142761225E-03 +8.47633583511E-03 -3.29189664742E-03 +8.90246226953E-03 -6.30847537019E-01 +5.79966203666E-02
1.57000000000E+09 -5.80785981791E-01 +1.40466138353E-01 -1.13420160064E-03 +7.37551918893E-03 -1.17062189300E-03 +7.80657467461E-03 -6.63761744583E-01 +1.13375040381E-01
