# Hz S RI R 50
! CMT, C1220, 16058040, 17.2.0/1
! Date: 14/08/2018 12:22:31
! Data: Format (Calibration Info)
! Freq                      S11: Re/Im (F2)                       S21: Re/Im (F2)                       S12: Re/Im (F2)                       S22: Re/Im (F2)            
1.00000000000E+09 -6.45343821362E-01 +7.15543902029E-01 +3.82698625462E-05 -7.06556230686E-05 +5.63302163875E-06 -9.46359616477E-06 -7.47783462251E-01 +6.24228600329E-01
1.00500000000E+09 -6.38088506411E-01 +7.20774616457E-01 +1.13412970182E-05 +5.14969072668E-06 -9.49019924846E-06 -6.66888643109E-06 -7.44299427427E-01 +6.28247572540E-01
1.01000000000E+09 -6.32292772886E-01 +7.25355618572E-01 -1.21229000033E-05 -1.24684713066E-05 -7.40640997256E-06 -9.05408606361E-06 -7.40670939075E-01 +6.31946500862E-01
1.01500000000E+09 -6.28101433737E-01 +7.29062871212E-01 +2.22421869994E-05 +1.75509921921E-06 +1.09796484015E-05 +1.65349169505E-05 -7.37501198574E-01 +6.35535378161E-01
1.02000000000E+09 -6.25717290074E-01 +7.32371846577E-01 -1.61672877693E-05 -2.33604807722E-05 +9.79764359283E-06 +3.68828682736E-06 -7.34082504157E-01 +6.39206544879E-01
1.02500000000E+09 -6.23935381106E-01 +7.34900826485E-01 +1.14541288041E-05 +1.26530868738E-05 -2.19279741145E-06 +3.05640117093E-05 -7.31185613779E-01 +6.42711449464E-01
1.03000000000E+09 -6.22827974659E-01 +7.37104491640E-01 +4.05532911515E-05 +1.06753778689E-05 +1.26486662213E-05 -3.44533088291E-05 -7.27630970864E-01 +6.46615254326E-01
1.03500000000E+09 -6.20938906271E-01 +7.39443594924E-01 +8.26209024057E-07 +2.09117982393E-05 +2.17517610167E-05 -1.89229137664E-05 -7.23745170516E-01 +6.50523815418E-01
1.04000000000E+09 -6.17495445723E-01 +7.42220938994E-01 +3.25694204924E-05 -1.06043762310E-05 +6.38965600672E-05 +6.25518691541E-06 -7.20186120753E-01 +6.54218817195E-01
1.04500000000E+09 -6.12351833618E-01 +7.45580130503E-01 -9.82932772621E-06 +8.92851229501E-06 -2.91105624619E-05 +1.97954737597E-05 -7.16557636898E-01 +6.57682553980E-01
1.05000000000E+09 -6.05041828189E-01 +7.49606106306E-01 +1.48909225757E-05 +3.91876130579E-06 -1.38656892520E-05 +1.13628299641E-05 -7.13278508908E-01 +6.61033534975E-01
1.05500000000E+09 -5.96377393996E-01 +7.54369538745E-01 +1.90993504102E-05 -2.74816720375E-06 -6.33945410693E-06 +1.49304488226E-05 -7.09856017491E-01 +6.64717788117E-01
1.06000000000E+09 -5.86899832549E-01 +7.59445937583E-01 -1.21363794562E-05 -4.62109729701E-07 +1.27367152136E-05 +4.29792570445E-05 -7.06638904420E-01 +6.68495939665E-01
1.06500000000E+09 -5.77887263688E-01 +7.64602885158E-01 +3.17321095037E-05 +6.01168096681E-05 -1.24716270927E-05 -1.20630397137E-05 -7.02928846546E-01 +6.71984645565E-01
1.07000000000E+09 -5.70024476142E-01 +7.68983676039E-01 +3.40204845533E-05 +1.06241637365E-05 +3.91394268560E-07 +5.29757059721E-05 -6.98948466316E-01 +6.75779185261E-01
1.07500000000E+09 -5.63820653147E-01 +7.72825317998E-01 +3.19634273891E-05 +6.17157351626E-05 +4.09909826186E-05 -9.46101220445E-06 -6.94441389110E-01 +6.79367601203E-01
1.08000000000E+09 -5.59444081097E-01 +7.76071364936E-01 +1.06592876077E-05 +3.40934802796E-06 +6.47256705422E-05 +6.58315548142E-05 -6.90448158508E-01 +6.83327713977E-01
1.08500000000E+09 -5.56750137909E-01 +7.78674349848E-01 +1.15081495508E-05 +3.38272781907E-05 +3.26462182765E-05 -4.92060895045E-07 -6.86511325904E-01 +6.86932589675E-01
1.09000000000E+09 -5.54386540305E-01 +7.80615892903E-01 +2.45032134847E-05 +4.00798895093E-05 +6.56833453158E-06 -4.44428500103E-05 -6.82753624103E-01 +6.90848409705E-01
1.09500000000E+09 -5.52629852549E-01 +7.82458310159E-01 +5.06084853434E-06 -8.08345141829E-06 +5.07630053067E-05 -2.58914870693E-05 -6.78918073644E-01 +6.94572247368E-01
1.10000000000E+09 -5.49853029243E-01 +7.84370226307E-01 +3.72307278090E-05 -3.35838776023E-05 +2.58513005218E-05 -3.86858346969E-05 -6.74998957306E-01 +6.98348256557E-01
1.10500000000E+09 -5.45720148966E-01 +7.87087385194E-01 +3.69743719359E-05 -3.42725757261E-05 +1.40673118596E-05 -2.86675330292E-05 -6.70808948420E-01 +7.02020509755E-01
1.11000000000E+09 -5.40055898092E-01 +7.90280010833E-01 +2.54845828688E-05 -8.72476768440E-05 -7.68438186683E-06 +6.60461480685E-06 -6.66478074212E-01 +7.05201763437E-01
1.11500000000E+09 -5.32776561513E-01 +7.94184976641E-01 +2.32052504339E-05 -1.66398750362E-05 +6.62041797874E-06 -5.11424764814E-05 -6.62379339967E-01 +7.08722713210E-01
1.12000000000E+09 -5.24816841494E-01 +7.98177376450E-01 +3.42532604858E-05 -3.33700139446E-05 +3.81904446209E-05 -1.25486815252E-05 -6.58365867220E-01 +7.12270032840E-01
1.12500000000E+09 -5.16613297354E-01 +8.02225038758E-01 +1.59740080825E-05 +6.60016343346E-07 +6.07537829067E-06 -6.26144623819E-05 -6.54100413651E-01 +7.16267596381E-01
1.13000000000E+09 -5.09215867025E-01 +8.05842928551E-01 +2.91613530702E-05 -1.40253026193E-05 -2.29318102130E-05 -6.83907068372E-05 -6.49858135337E-01 +7.19942466412E-01
1.13500000000E+09 -5.02820949818E-01 +8.08757877366E-01 -1.02576071476E-05 -6.28345357432E-05 -1.42813875322E-05 -6.85078421404E-05 -6.45466938724E-01 +7.23746737092E-01
1.14000000000E+09 -4.97475119040E-01 +8.11216277122E-01 -1.24737202565E-05 -2.29036333142E-05 +4.06845219367E-05 -4.48804347005E-05 -6.40808875268E-01 +7.27115361980E-01
1.14500000000E+09 -4.93459142071E-01 +8.12806909154E-01 -8.65797172636E-06 -4.04847331855E-05 +6.64738421633E-07 -5.03229108854E-05 -6.36081404151E-01 +7.30585309292E-01
1.15000000000E+09 -4.89659245913E-01 +8.14302664467E-01 -5.05816421439E-05 +3.49319669020E-05 -2.85507173660E-05 -1.71374249706E-05 -6.31455705773E-01 +7.34302587332E-01
1.15500000000E+09 -4.85905503343E-01 +8.16116645580E-01 -4.01338498049E-05 -2.78443687897E-05 -5.91013314489E-06 -4.07362921796E-05 -6.26650642482E-01 +7.38086455146E-01
1.16000000000E+09 -4.81056149870E-01 +8.17869080060E-01 +2.51944751337E-05 +3.58671532973E-06 -2.25691717988E-05 +2.82835840588E-06 -6.21884307164E-01 +7.42038248509E-01
1.16500000000E+09 -4.75044950599E-01 +8.20408130270E-01 +9.63231020827E-06 -4.32258072877E-05 +1.94135635799E-05 -4.83704493969E-05 -6.16791253331E-01 +7.45503667022E-01
1.17000000000E+09 -4.68003550822E-01 +8.23554705734E-01 +2.17465910924E-05 +1.79938991069E-06 +5.10657773393E-05 -1.88668414609E-05 -6.11339128543E-01 +7.48686293459E-01
1.17500000000E+09 -4.60026310912E-01 +8.26788004460E-01 -3.62756575206E-05 -3.48655867963E-05 +2.70880310602E-05 -1.07460457842E-05 -6.05702266175E-01 +7.51952831777E-01
1.18000000000E+09 -4.51846529137E-01 +8.30226788789E-01 +1.58478297550E-06 -3.24010366217E-05 +2.58474035968E-05 -4.92419813853E-05 -6.00081939270E-01 +7.55131621226E-01
1.18500000000E+09 -4.43857391139E-01 +8.33675960154E-01 +2.77395482788E-05 -3.56432769939E-05 -5.07033321614E-06 -5.51348294720E-06 -5.94098326130E-01 +7.58142858541E-01
1.19000000000E+09 -4.36622641844E-01 +8.36246715081E-01 +3.41446846935E-05 -9.64581359630E-05 +5.34829848453E-05 -5.05059064465E-05 -5.87932527352E-01 +7.60751105827E-01
1.19500000000E+09 -4.30598777522E-01 +8.38342280984E-01 -2.30272490650E-05 -7.96535724252E-05 -5.34454569248E-05 -7.14330387980E-05 -5.82245943653E-01 +7.62035128439E-01
1.20000000000E+09 -4.25793216133E-01 +8.39176023860E-01 -5.70139569726E-05 +9.63505920616E-07 -7.52608253044E-05 -6.05836232772E-05 -5.77610070032E-01 +7.62120023433E-01
1.20500000000E+09 -4.21476817897E-01 +8.40393561039E-01 -7.89460387110E-05 -1.38368075721E-05 -7.30630817864E-05 -1.85798332921E-05 -5.75290738182E-01 +7.63002641773E-01
1.21000000000E+09 -4.16707767200E-01 +8.41313721116E-01 -1.20063937681E-05 -2.85379089356E-05 -1.41914075058E-05 -3.32686165764E-05 -5.73339278840E-01 +7.66213292080E-01
1.21500000000E+09 -4.10814257041E-01 +8.42661395608E-01 -3.39046145647E-05 -3.62455512910E-05 -1.80848421589E-05 +1.10519231925E-05 -5.70637227053E-01 +7.70434724032E-01
1.22000000000E+09 -4.03173995260E-01 +8.44366980017E-01 -6.35118169500E-05 -3.55108907112E-06 -7.75172303426E-06 +1.22217940781E-05 -5.66389253051E-01 +7.75969111948E-01
1.22500000000E+09 -3.93913215016E-01 +8.46770394369E-01 -3.63413032774E-05 +2.47642236902E-05 -3.21711837963E-05 -3.29314021896E-05 -5.61455578842E-01 +7.80945784986E-01
1.23000000000E+09 -3.83270750890E-01 +8.49684383177E-01 -2.33504481958E-05 -5.15627503617E-06 -2.44568486463E-05 +7.18207824838E-06 -5.55652435341E-01 +7.85550413046E-01
1.23500000000E+09 -3.72256420793E-01 +8.53192187677E-01 +5.75309284917E-06 -3.79541745564E-05 +4.64242436378E-07 -1.41067223377E-05 -5.49869644833E-01 +7.89936891097E-01
1.24000000000E+09 -3.61346655163E-01 +8.56729017466E-01 -1.32272786112E-05 +1.69043940220E-05 +1.02704971903E-06 +4.09139124468E-05 -5.43859220286E-01 +7.93715971343E-01
1.24500000000E+09 -3.51414645659E-01 +8.60606879609E-01 -6.55518751301E-05 -7.27707209846E-05 -2.13832677900E-05 -1.51269212388E-05 -5.37537096851E-01 +7.97559645945E-01
1.25000000000E+09 -3.42989445505E-01 +8.63750308704E-01 -3.91837328095E-05 -4.42324398809E-05 -3.49799492042E-05 -3.54308085880E-05 -5.31013492335E-01 +8.01780288996E-01
1.25500000000E+09 -3.36204048881E-01 +8.66236371583E-01 -4.51715303030E-05 -4.70399270394E-06 -5.23358792559E-05 -5.09508877812E-05 -5.24151848305E-01 +8.05692940991E-01
1.26000000000E+09 -3.30495605605E-01 +8.68008542557E-01 -7.81428041900E-05 -3.74946447926E-05 -4.97043969569E-05 -2.32017076349E-05 -5.17463089821E-01 +8.09799389926E-01
1.26500000000E+09 -3.25717479589E-01 +8.69074284857E-01 -6.19085236067E-05 +9.06462115528E-06 -5.15262770549E-05 -1.84077803210E-05 -5.10506690985E-01 +8.13698991893E-01
1.27000000000E+09 -3.20504903398E-01 +8.70028420483E-01 -7.60300192950E-05 -4.11080566607E-07 -5.26442501529E-05 +3.66774462121E-05 -5.03683815401E-01 +8.17458790563E-01
1.27500000000E+09 -3.14118435147E-01 +8.70899544183E-01 -1.32985083700E-05 +3.30456162563E-05 -8.51219991993E-05 +5.74728061487E-05 -4.96646393562E-01 +8.20946967043E-01
1.28000000000E+09 -3.05922645423E-01 +8.72349857334E-01 -8.90784627970E-05 +1.62754195198E-05 -6.06206305508E-05 +4.91104077460E-05 -4.89572770042E-01 +8.24368049256E-01
1.28500000000E+09 -2.95575657755E-01 +8.74083001379E-01 -4.23731807750E-05 +6.01768558519E-05 -6.61235696104E-05 +2.98371456362E-05 -4.82202205084E-01 +8.28033165739E-01
1.29000000000E+09 -2.83881881365E-01 +8.76453995639E-01 -3.81844766903E-05 +4.08560154385E-05 -5.77543554524E-05 +7.92394100288E-05 -4.74766939396E-01 +8.31762994218E-01
1.29500000000E+09 -2.71494175853E-01 +8.79274979944E-01 -7.14938031245E-05 +7.02919918569E-05 -8.55864392107E-05 +8.70793926337E-05 -4.66875178989E-01 +8.35142859220E-01
1.30000000000E+09 -2.58981705732E-01 +8.82529166454E-01 -8.40701730796E-05 +6.10907155637E-05 -8.25194834749E-05 +7.28212314064E-05 -4.59130622353E-01 +8.38777298149E-01
1.30500000000E+09 -2.47484060401E-01 +8.85471426026E-01 -9.25375703165E-05 +7.67809195044E-05 -8.53117381709E-05 +1.10620192678E-04 -4.51059775521E-01 +8.41955050432E-01
1.31000000000E+09 -2.37548221863E-01 +8.87757122117E-01 -3.71160076412E-05 +1.11674058540E-04 -5.46771532580E-05 +1.24777273021E-04 -4.42876149515E-01 +8.45460026076E-01
1.31500000000E+09 -2.29527846900E-01 +8.89230666763E-01 +1.55489744468E-05 +9.83984357255E-05 -8.68995700331E-06 +1.12297744663E-04 -4.34229211584E-01 +8.48879121907E-01
1.32000000000E+09 -2.23013379030E-01 +8.89779544974E-01 +2.78210651070E-05 +8.25316879302E-05 -6.47805201032E-06 +1.32602775926E-04 -4.24918909578E-01 +8.52214389040E-01
1.32500000000E+09 -2.17032034174E-01 +8.89529853017E-01 -5.45270514734E-05 +6.22770064888E-05 +2.22424238871E-05 +5.61212989486E-05 -4.15561320344E-01 +8.55624514726E-01
1.33000000000E+09 -2.10238103289E-01 +8.88961547422E-01 +1.19332519380E-05 +9.82740555155E-05 -1.34379298785E-05 +1.21554375954E-04 -4.05893379931E-01 +8.58783035068E-01
1.33500000000E+09 -2.01775971689E-01 +8.87949091663E-01 +3.51510780824E-05 +1.39041436087E-04 +6.58677533124E-05 +1.00595831238E-04 -3.96094416483E-01 +8.62249843854E-01
1.34000000000E+09 -1.90830992640E-01 +8.87147551554E-01 +5.46239598248E-05 +1.23350633003E-04 +5.51739929574E-05 +8.46151182920E-05 -3.86025845413E-01 +8.65452378426E-01
1.34500000000E+09 -1.77363146132E-01 +8.86604771295E-01 +1.05051619604E-04 +3.85444885641E-05 +6.81490225003E-05 +7.77930386813E-05 -3.75155019427E-01 +8.68724660039E-01
1.35000000000E+09 -1.61836555423E-01 +8.86284737624E-01 +3.65649750731E-05 +3.81216158045E-05 +5.69760925800E-05 +7.41960429996E-05 -3.64097751242E-01 +8.71813282035E-01
1.35500000000E+09 -1.45057534009E-01 +8.86336047234E-01 +8.22705602277E-06 +7.64448868474E-05 +7.37529736745E-06 +8.18974219432E-05 -3.52464298875E-01 +8.74681964294E-01
1.36000000000E+09 -1.28277759622E-01 +8.86902927598E-01 +4.65815493685E-05 +8.89847561948E-05 -6.58263446949E-06 +5.27785840349E-05 -3.40690636838E-01 +8.77463857446E-01
1.36500000000E+09 -1.12121862507E-01 +8.87345403950E-01 -3.06278245215E-06 +9.22351574381E-05 -2.32485686760E-05 +9.04347039360E-05 -3.28669540219E-01 +8.79817087185E-01
1.37000000000E+09 -9.77714941613E-02 +8.87258106692E-01 +4.78702561173E-06 +1.53795244283E-04 +7.93339129712E-07 +1.10063682690E-04 -3.15743144140E-01 +8.82197979755E-01
1.37500000000E+09 -8.55028840524E-02 +8.86985735700E-01 +9.26779461665E-05 +1.82695443726E-04 +7.69456006328E-06 +1.99661902550E-04 -3.02232115987E-01 +8.84390641256E-01
1.38000000000E+09 -7.45483697271E-02 +8.85924973932E-01 +1.01266543232E-04 +1.45453745192E-04 +6.60613065455E-05 +1.77729507431E-04 -2.87684563700E-01 +8.86416998170E-01
1.38500000000E+09 -6.36908303321E-02 +8.84151146261E-01 +1.38936484238E-04 +1.16102396234E-04 +1.60848237742E-04 +1.86056964434E-04 -2.72218370020E-01 +8.88380628766E-01
1.39000000000E+09 -5.20801147864E-02 +8.81513473374E-01 +1.62357639089E-04 +1.49166228215E-04 +1.78847433826E-04 +1.75797059396E-04 -2.56460084652E-01 +8.89807590635E-01
1.39500000000E+09 -3.84165476000E-02 +8.78120967750E-01 +2.17454030927E-04 +1.82061982170E-04 +2.31713963588E-04 +1.13466335210E-04 -2.39735662903E-01 +8.90540949194E-01
1.40000000000E+09 -2.21524506705E-02 +8.73552547650E-01 +2.53928032791E-04 +1.12840571425E-04 +2.87315277371E-04 +8.42620677039E-05 -2.22160811833E-01 +8.91116102412E-01
1.40500000000E+09 -3.58988727502E-03 +8.68242907455E-01 +2.37243611699E-04 +6.95975925861E-05 +2.77054176307E-04 +2.05374385706E-05 -2.03558627135E-01 +8.90873066301E-01
1.41000000000E+09 +1.69568788247E-02 +8.62580266172E-01 +2.09683765397E-04 +3.14729474392E-05 +2.04881498505E-04 +5.67556484111E-05 -1.83425989232E-01 +8.90248886853E-01
1.41500000000E+09 +3.87353321822E-02 +8.56718079785E-01 +2.31824789370E-04 +1.86102683042E-05 +2.49991877680E-04 +1.15115818704E-05 -1.61992566833E-01 +8.88611943016E-01
1.42000000000E+09 +6.12966605925E-02 +8.50491812620E-01 +2.80967870095E-04 +6.79665771511E-05 +3.48541727682E-04 +6.44289429341E-05 -1.39135315515E-01 +8.85990727754E-01
1.42500000000E+09 +8.31534266535E-02 +8.43236787043E-01 +3.84288771952E-04 -3.83529132983E-05 +4.86718017462E-04 -1.19592675073E-04 -1.15598400352E-01 +8.82493435251E-01
1.43000000000E+09 +1.03814388594E-01 +8.34570671625E-01 +2.68468227446E-04 -1.88247419657E-04 +3.12185908909E-04 -1.86220055518E-04 -9.10337837846E-02 +8.77772121218E-01
1.43500000000E+09 +1.23421137771E-01 +8.24651171665E-01 +2.19908480482E-04 -1.48481937880E-04 +1.80376193662E-04 -1.68414964485E-04 -6.47517474488E-02 +8.71217479227E-01
1.44000000000E+09 +1.42654524336E-01 +8.13186825591E-01 +1.68530910107E-04 -3.55640791329E-05 +1.50614153758E-04 -3.24463663087E-05 -3.68438735331E-02 +8.62588947178E-01
1.44500000000E+09 +1.63090461591E-01 +7.99223515659E-01 +3.03427360222E-04 +4.85664256825E-05 +3.34891528309E-04 +3.86364724443E-05 -7.02405314583E-03 +8.51333161007E-01
1.45000000000E+09 +1.85597952847E-01 +7.81720792734E-01 +5.55688696670E-04 -9.49842784584E-05 +5.04896095896E-04 -1.31425584209E-04 +2.49981439695E-02 +8.37105330618E-01
1.45500000000E+09 +2.10949794411E-01 +7.59989532875E-01 +3.76789660029E-04 -1.90152841938E-04 +3.65974308455E-04 -2.14392535946E-04 +5.84242588751E-02 +8.19396285380E-01
1.46000000000E+09 +2.38747822814E-01 +7.33780053614E-01 +5.26175638427E-04 -1.33950812557E-04 +4.86549145749E-04 -1.28482692506E-04 +9.31309086548E-02 +7.97445584306E-01
1.46500000000E+09 +2.68307542600E-01 +7.02924013144E-01 +6.76983356744E-04 -3.87702351455E-04 +5.85128592828E-04 -3.45761758983E-04 +1.28649791165E-01 +7.71034441136E-01
1.47000000000E+09 +2.99006261830E-01 +6.67874831546E-01 +7.61129482569E-04 -4.27680527672E-04 +6.97686147218E-04 -3.65960714456E-04 +1.65696621527E-01 +7.37674085142E-01
1.47500000000E+09 +3.29587358003E-01 +6.27442219974E-01 +8.09966295791E-04 -8.32482139111E-04 +8.17615762448E-04 -7.39899691891E-04 +2.02834538386E-01 +6.96946087005E-01
1.48000000000E+09 +3.57365851372E-01 +5.81474051454E-01 +5.16225320909E-04 -1.08495997122E-03 +5.25682716387E-04 -1.09878511981E-03 +2.39503836685E-01 +6.47813220726E-01
1.48500000000E+09 +3.80942941760E-01 +5.29412160099E-01 +5.69853190317E-04 -1.09953158554E-03 +5.64903303332E-04 -1.17864055424E-03 +2.73746953033E-01 +5.89309744899E-01
1.49000000000E+09 +3.98722604009E-01 +4.71217200614E-01 +6.87746286855E-04 -1.50817365104E-03 +6.02148244563E-04 -1.54043950610E-03 +3.02181066064E-01 +5.19494418690E-01
1.49500000000E+09 +4.09106155141E-01 +4.05255867336E-01 +4.89944043808E-04 -2.43104741178E-03 +3.17427237571E-04 -2.39150076839E-03 +3.20657874064E-01 +4.40009243974E-01
1.50000000000E+09 +4.08929943899E-01 +3.30895109715E-01 -9.12298990133E-04 -3.11446735673E-03 -8.75370051561E-04 -2.91300707538E-03 +3.25978413705E-01 +3.50518144384E-01
1.50500000000E+09 +3.97134912559E-01 +2.50068061301E-01 -2.10114173737E-03 -2.64797628168E-03 -1.91054550117E-03 -2.53047274612E-03 +3.14661381367E-01 +2.54639220706E-01
1.51000000000E+09 +3.71248353113E-01 +1.62868634390E-01 -2.86804223191E-03 -1.95291504963E-03 -2.79571267636E-03 -1.98682892737E-03 +2.82817425498E-01 +1.54394071635E-01
1.51500000000E+09 +3.27118745690E-01 +7.35986731719E-02 -3.58388482099E-03 -1.46695735336E-03 -3.57174560067E-03 -1.49011158909E-03 +2.28990458144E-01 +5.64933475038E-02
1.52000000000E+09 +2.63649255806E-01 -1.03659941087E-02 -4.15593250578E-03 +3.38904888102E-04 -4.17807119549E-03 +3.16585239319E-04 +1.52254065942E-01 -3.03697738287E-02
1.52500000000E+09 +1.81934427974E-01 -8.26421902255E-02 -3.45378605477E-03 +9.29012510147E-04 -3.41634832295E-03 +9.60454675929E-04 +5.61388311845E-02 -9.89257495636E-02
1.53000000000E+09 +8.35182614800E-02 -1.34931363792E-01 -3.50398277340E-03 +1.86506657351E-03 -3.54254656146E-03 +1.88790381775E-03 -5.07587487269E-02 -1.43039394153E-01
1.53500000000E+09 -2.31498657661E-02 -1.61815783912E-01 -3.44119341700E-03 +3.08838610991E-03 -3.41627765094E-03 +3.05855825655E-03 -1.62700892146E-01 -1.63356791055E-01
1.54000000000E+09 -1.31443384346E-01 -1.63450021625E-01 -2.11627769681E-03 +4.40294946985E-03 -2.16434020439E-03 +4.30954465793E-03 -2.71726937406E-01 -1.60161685292E-01
1.54500000000E+09 -2.35026552510E-01 -1.41564940433E-01 -3.60629072224E-04 +5.07566148251E-03 -4.63944080874E-04 +4.97965722594E-03 -3.71149183911E-01 -1.35855550613E-01
1.55000000000E+09 -3.29742444061E-01 -1.01569976557E-01 +1.58994180340E-03 +4.11530078104E-03 +1.40695631684E-03 +4.15743711587E-03 -4.56106549377E-01 -9.77449162296E-02
1.55500000000E+09 -4.10754080413E-01 -4.68724057886E-02 +2.11991919879E-03 +3.28818392368E-03 +1.99580973186E-03 +3.41311303847E-03 -5.27158525587E-01 -5.01379811229E-02
1.56000000000E+09 -4.75627509056E-01 +1.32755468977E-02 +2.88780694079E-03 +2.28936879502E-03 +2.89747777762E-03 +2.51729832432E-03 -5.84459948937E-01 +3.63848451191E-03
1.56500000000E+09 -5.27281147094E-01 +7.43342603954E-02 +2.81951207763E-03 +1.32384687864E-03 +2.94726390564E-03 +1.46071105165E-03 -6.28553270377E-01 +6.01519193841E-02
1.57000000000E+09 -5.66603393971E-01 +1.34513382870E-01 +2.58130875366E-03 +5.61125470994E-04 +2.78509883508E-03 +5.76785557361E-04 -6.61652645896E-01 +1.16112257275E-01
