# Hz S RI R 50
! CMT, C1220, 16058040, 17.2.0/1
! Date: 14/08/2018 12:14:45
! Data: Format (Calibration Info)
! Freq                      S11: Re/Im (F2)                       S21: Re/Im (F2)                       S12: Re/Im (F2)                       S22: Re/Im (F2)            
1.00000000000E+09 -6.47312802079E-01 +7.14431188734E-01 -1.00314431632E-05 +2.41167053826E-06 +3.79738825056E-06 -2.03580149265E-07 -7.53580170285E-01 +6.24731904021E-01
1.00500000000E+09 -6.40242410327E-01 +7.19621364901E-01 -8.59409377729E-06 +9.99812272999E-06 +2.15448986470E-05 +3.06096325445E-05 -7.50092444798E-01 +6.28913946150E-01
1.01000000000E+09 -6.34385899123E-01 +7.24148783597E-01 +2.38435460056E-06 +1.62556950187E-05 +4.24618721162E-05 -1.47271728464E-05 -7.46552039577E-01 +6.32541095261E-01
1.01500000000E+09 -6.30529560719E-01 +7.27871086191E-01 +1.86908982801E-05 -3.31003707597E-05 +5.83409111985E-05 +4.86949020953E-06 -7.43216466418E-01 +6.36285786012E-01
1.02000000000E+09 -6.28201998781E-01 +7.31015693053E-01 +1.81188169609E-05 +1.82215480563E-05 +1.93375730377E-05 +3.29305329860E-05 -7.39655200544E-01 +6.39880462057E-01
1.02500000000E+09 -6.26924124581E-01 +7.33500260581E-01 +7.88622421268E-06 +4.25553940088E-05 -2.65434163298E-05 +2.96735264724E-05 -7.36837801882E-01 +6.43566487735E-01
1.03000000000E+09 -6.26440060087E-01 +7.35528475203E-01 -3.00491385473E-05 +3.37918637159E-05 -5.97377847117E-05 +3.66751858932E-05 -7.33421879768E-01 +6.47369021101E-01
1.03500000000E+09 -6.24754024658E-01 +7.37523087517E-01 +3.06202868142E-05 +1.57925117307E-05 -4.77485238934E-05 +2.78321430160E-05 -7.29602791143E-01 +6.51373850812E-01
1.04000000000E+09 -6.21416891787E-01 +7.40230108717E-01 -4.61383425961E-05 +1.60155116224E-05 -2.84994569457E-05 +2.74032434095E-05 -7.25923735115E-01 +6.55112285936E-01
1.04500000000E+09 -6.16360340647E-01 +7.43454344635E-01 +4.41049350274E-06 +3.89052132385E-05 +1.35703905177E-05 +1.48953750302E-05 -7.22188446666E-01 +6.58563637282E-01
1.05000000000E+09 -6.09134757640E-01 +7.47585869677E-01 -2.12721720670E-05 +3.92441047245E-05 -1.55826348165E-05 +1.23159997474E-05 -7.18924237945E-01 +6.61942199980E-01
1.05500000000E+09 -6.00471656355E-01 +7.52266961373E-01 -8.38348442221E-07 -1.10076845686E-05 -3.15536671201E-05 +4.78016531182E-05 -7.15722307053E-01 +6.65606989185E-01
1.06000000000E+09 -5.90875762076E-01 +7.57398785827E-01 -4.00229046853E-05 -6.63501503945E-06 -4.11965075402E-05 -5.56446238034E-06 -7.12436524838E-01 +6.69498610263E-01
1.06500000000E+09 -5.82000162138E-01 +7.62716150755E-01 +3.38359954486E-05 +1.45367931068E-06 -6.80685653608E-07 +7.47219310209E-05 -7.08584723602E-01 +6.73094734136E-01
1.07000000000E+09 -5.74350912724E-01 +7.67178104430E-01 -3.79862438644E-06 -8.68821572488E-06 +1.27139232035E-05 +2.87748582083E-05 -7.04547537317E-01 +6.76830729628E-01
1.07500000000E+09 -5.68599990619E-01 +7.71146530676E-01 +1.85837872637E-05 +1.53602116729E-05 +4.50975716442E-05 +2.37222721847E-05 -7.00235223000E-01 +6.80482091805E-01
1.08000000000E+09 -5.64942488969E-01 +7.74381958806E-01 +5.46986933438E-05 -2.30934918388E-06 +3.05826632797E-05 +4.96332516233E-05 -6.96202145003E-01 +6.84298571897E-01
1.08500000000E+09 -5.62706620297E-01 +7.76954371189E-01 +2.62490320920E-05 +4.22047703257E-05 +1.01891862367E-05 +2.63742019571E-05 -6.92371470157E-01 +6.88099367733E-01
1.09000000000E+09 -5.61170036556E-01 +7.78943758399E-01 -2.38499330847E-06 +2.74981120183E-05 +4.75023801171E-05 +1.68348990973E-05 -6.88574946335E-01 +6.91959327409E-01
1.09500000000E+09 -5.59955871283E-01 +7.80430978102E-01 +1.40482193840E-05 +2.12446584673E-05 +2.32271472274E-05 +5.56401546156E-06 -6.84703230910E-01 +6.95786684247E-01
1.10000000000E+09 -5.57157331828E-01 +7.82367999235E-01 +9.89426711903E-06 +3.26423858715E-06 +3.82211573050E-05 +2.95174987378E-05 -6.80690236420E-01 +6.99732985714E-01
1.10500000000E+09 -5.53108918238E-01 +7.84847513216E-01 +1.84928439734E-05 +5.34676293128E-05 +4.73928539149E-05 -5.80752206463E-05 -6.76474412078E-01 +7.03223649048E-01
1.11000000000E+09 -5.47061663134E-01 +7.88071877688E-01 +1.83086174006E-05 -6.64688292425E-06 +2.47095657736E-05 -1.57363218172E-05 -6.72119347318E-01 +7.06671716292E-01
1.11500000000E+09 -5.39552185094E-01 +7.92008851055E-01 +4.90132701700E-05 +2.20096490576E-05 +9.23071805794E-06 -1.53123501468E-05 -6.68086177166E-01 +7.10112788699E-01
1.12000000000E+09 -5.31245987303E-01 +7.95987803764E-01 -3.22952722704E-05 -8.52711805036E-06 -1.15170182487E-05 +6.59623711673E-05 -6.63918921891E-01 +7.13778850693E-01
1.12500000000E+09 -5.22997086734E-01 +8.00318467159E-01 +1.09314646103E-05 +1.83067301746E-05 +2.88877763630E-06 +1.99215986558E-05 -6.59768019074E-01 +7.17739173107E-01
1.13000000000E+09 -5.15442064045E-01 +8.04198815717E-01 +2.40056448277E-05 +4.24251841965E-05 -2.56913265234E-07 +2.52848159895E-05 -6.55486690722E-01 +7.21436866979E-01
1.13500000000E+09 -5.09367291450E-01 +8.07345386902E-01 +1.12644072812E-05 -1.90136248237E-05 +7.69182934901E-06 -8.47839648256E-07 -6.50947246013E-01 +7.25232800788E-01
1.14000000000E+09 -5.04702048912E-01 +8.10168963329E-01 +5.34905548660E-05 -3.09349909601E-06 +4.18065631242E-05 +6.11893907543E-06 -6.46178785474E-01 +7.28647125301E-01
1.14500000000E+09 -5.01363770063E-01 +8.12006344172E-01 +2.95239290838E-05 -3.16855606897E-05 +5.84633050014E-05 -3.12268717336E-05 -6.41642399397E-01 +7.32013532894E-01
1.15000000000E+09 -4.98326119859E-01 +8.13630625613E-01 +2.47226169982E-05 +4.59549776765E-06 +2.43472808820E-05 -5.61462213465E-06 -6.36979996223E-01 +7.35816724437E-01
1.15500000000E+09 -4.95296264675E-01 +8.15402962469E-01 +2.63358023563E-05 -2.01456958897E-05 +5.09063098107E-05 -3.87196203350E-05 -6.32284882667E-01 +7.39690780142E-01
1.16000000000E+09 -4.91019150258E-01 +8.17093055152E-01 +6.22434336282E-05 -5.47959203279E-06 -2.24562604125E-05 +6.27468869217E-05 -6.27393887541E-01 +7.43558844281E-01
1.16500000000E+09 -4.85315797762E-01 +8.19566293974E-01 +3.71962005815E-05 -2.90547852809E-06 +1.16481159557E-05 -5.00500402610E-05 -6.22311975258E-01 +7.47085447900E-01
1.17000000000E+09 -4.78293710096E-01 +8.22535199131E-01 +2.68290693437E-05 +2.46535037951E-05 +6.68925507706E-08 +6.36363543784E-06 -6.16892784745E-01 +7.50555426379E-01
1.17500000000E+09 -4.70261423394E-01 +8.25800046203E-01 +3.67500605216E-05 -6.04091231418E-05 +3.02441493899E-05 +1.98216400593E-05 -6.11071385855E-01 +7.53683998946E-01
1.18000000000E+09 -4.61795568643E-01 +8.29358035831E-01 +5.05605355410E-05 -1.46497238348E-05 +7.62767904400E-05 -1.22412133441E-05 -6.05550102929E-01 +7.56967528887E-01
1.18500000000E+09 -4.53517610310E-01 +8.32805885410E-01 +1.77845072822E-05 +4.46870792794E-06 +1.64843974841E-05 +3.62149466272E-05 -5.99546014175E-01 +7.59856038644E-01
1.19000000000E+09 -4.46321566938E-01 +8.35636651886E-01 +7.63800459105E-05 -2.02958180975E-05 +6.01621348369E-05 -4.52101982762E-05 -5.93225709418E-01 +7.62539481132E-01
1.19500000000E+09 -4.40532222465E-01 +8.37808446173E-01 +6.43004139612E-05 -3.90858560230E-05 +7.61206789775E-05 -6.31586096781E-05 -5.87444444336E-01 +7.63690352980E-01
1.20000000000E+09 -4.35994527401E-01 +8.39003463300E-01 +7.14523463920E-05 -9.38830407685E-05 +8.05924997171E-05 -1.23941050967E-04 -5.82929772357E-01 +7.63996011492E-01
1.20500000000E+09 -4.32222830116E-01 +8.40246670509E-01 +6.74668030349E-06 -7.32059211059E-05 +1.26218488194E-05 -7.23306476479E-05 -5.80595761688E-01 +7.64861856287E-01
1.21000000000E+09 -4.28349169112E-01 +8.41487480858E-01 +3.05419055069E-05 -6.89789053770E-05 +3.56227242966E-05 -8.53825674038E-05 -5.78846941519E-01 +7.67925005605E-01
1.21500000000E+09 -4.23005114299E-01 +8.43004317673E-01 +1.43006520697E-05 -1.11477705918E-04 +2.63525526536E-05 -7.48949967582E-05 -5.76039374819E-01 +7.72389669425E-01
1.22000000000E+09 -4.16097908348E-01 +8.44859485183E-01 +9.32718188656E-06 -7.04085155736E-05 -2.53936539477E-05 -2.95486758593E-05 -5.71877262633E-01 +7.77811237401E-01
1.22500000000E+09 -4.07328267705E-01 +8.47421192068E-01 +9.45222810263E-06 -6.51372522169E-05 +1.85493053068E-05 -6.44603151316E-05 -5.66761694261E-01 +7.82964917302E-01
1.23000000000E+09 -3.96921655732E-01 +8.50409805124E-01 -2.07857311252E-05 -4.91322315786E-05 +1.57067987865E-05 -4.27138722778E-05 -5.60964802625E-01 +7.87547830180E-01
1.23500000000E+09 -3.85868959572E-01 +8.54027272845E-01 +3.89060210028E-05 -4.94147520724E-05 -8.03978849383E-06 -8.98344431487E-05 -5.55227072902E-01 +7.91992900881E-01
1.24000000000E+09 -3.74791142683E-01 +8.57895458929E-01 +2.52379455602E-05 -8.10780493842E-05 +3.42768070163E-06 -6.00072916901E-05 -5.49151071103E-01 +7.95831461148E-01
1.24500000000E+09 -3.64781460413E-01 +8.62026312060E-01 +4.03450777241E-05 -1.30026248806E-04 -3.19920038275E-05 -1.16982743356E-04 -5.42951387114E-01 +7.99700717958E-01
1.25000000000E+09 -3.56280169919E-01 +8.65261924543E-01 -4.74528735534E-05 -1.52422722474E-04 +9.76457559330E-06 -1.22181146592E-04 -5.36348246292E-01 +8.04001562745E-01
1.25500000000E+09 -3.49557260132E-01 +8.67909668651E-01 -2.39516173275E-05 -1.04669965323E-04 -4.04013702445E-05 -1.53727938508E-04 -5.29381351671E-01 +8.07774204491E-01
1.26000000000E+09 -3.44453091225E-01 +8.69957626494E-01 -4.78937049204E-05 -1.30338943224E-04 -5.09229108021E-05 -1.49422914772E-04 -5.22601142915E-01 +8.12162759455E-01
1.26500000000E+09 -3.40088621781E-01 +8.71411246008E-01 -5.66663541309E-05 -9.35804742179E-05 -9.37572899436E-05 -1.16761262426E-04 -5.15652851789E-01 +8.16042074254E-01
1.27000000000E+09 -3.35543472279E-01 +8.72771501267E-01 -8.88973355143E-05 -1.03892421687E-04 -7.42065356238E-05 -1.39960582803E-04 -5.08804821663E-01 +8.20014580321E-01
1.27500000000E+09 -3.29762624856E-01 +8.73898857063E-01 -1.01302708125E-04 -9.19636634965E-05 -7.51788228796E-05 -1.09243366830E-04 -5.01771499023E-01 +8.23463456479E-01
1.28000000000E+09 -3.22030019259E-01 +8.75731442650E-01 -1.63577655393E-04 -1.37575396913E-04 -1.10688794914E-04 -1.76129476572E-04 -4.94672210432E-01 +8.27086512557E-01
1.28500000000E+09 -3.11890894223E-01 +8.77810691890E-01 -1.64553880580E-04 -6.73063645922E-05 -1.61598517913E-04 -8.68880113820E-05 -4.87211121556E-01 +8.30688063022E-01
1.29000000000E+09 -3.00189570654E-01 +8.80485391793E-01 -1.99821420638E-04 -7.65380914808E-05 -1.87527609343E-04 -8.70300542672E-05 -4.79564562832E-01 +8.34325039764E-01
1.29500000000E+09 -2.87416778157E-01 +8.83713046424E-01 -1.84680593429E-04 -9.39967605803E-05 -2.42228644685E-04 -8.91594854077E-05 -4.71882325409E-01 +8.37921872583E-01
1.30000000000E+09 -2.74588205388E-01 +8.87032092581E-01 -2.39441138908E-04 -5.32131431802E-05 -2.58576606400E-04 -1.24371659153E-05 -4.64110153134E-01 +8.41461105118E-01
1.30500000000E+09 -2.62917297451E-01 +8.90140417181E-01 -2.31381295157E-04 +2.21454051280E-05 -2.51199342279E-04 -2.28484917490E-05 -4.56035706502E-01 +8.44856013938E-01
1.31000000000E+09 -2.52969648005E-01 +8.92512093293E-01 -2.17690073596E-04 -1.17395819708E-05 -2.29537671147E-04 +8.51158151222E-06 -4.47693975957E-01 +8.48265847156E-01
1.31500000000E+09 -2.45211828338E-01 +8.94427069814E-01 -2.21972002967E-04 +8.22833678015E-05 -2.08711273020E-04 +8.24905733539E-05 -4.38866688829E-01 +8.51862208363E-01
1.32000000000E+09 -2.39363513716E-01 +8.95628508424E-01 -1.89722335290E-04 +3.60084552212E-05 -1.83467239086E-04 +6.97195495270E-05 -4.29719284241E-01 +8.55248866420E-01
1.32500000000E+09 -2.34003227244E-01 +8.95982139449E-01 -1.86230064056E-04 +8.63741747919E-05 -2.04639426831E-04 +8.23869015760E-05 -4.20071046748E-01 +8.58538938207E-01
1.33000000000E+09 -2.27909622031E-01 +8.96113726856E-01 -2.55301641564E-04 +8.29775838490E-05 -2.29340671826E-04 +1.18778930358E-04 -4.10484290525E-01 +8.61907333605E-01
1.33500000000E+09 -2.19910783714E-01 +8.95869926270E-01 -2.61061667467E-04 +1.75514322984E-04 -2.42961462417E-04 +1.78248117760E-04 -4.00557880480E-01 +8.65204141708E-01
1.34000000000E+09 -2.09305853236E-01 +8.95590961101E-01 -2.48251307306E-04 +1.73997849876E-04 -1.53452788503E-04 +2.01605294832E-04 -3.90384641888E-01 +8.68507215663E-01
1.34500000000E+09 -1.95812618594E-01 +8.95361851865E-01 -1.45448375586E-04 +1.97854316073E-04 -1.60274247379E-04 +2.04969441083E-04 -3.79468908027E-01 +8.71735803646E-01
1.35000000000E+09 -1.79937864267E-01 +8.95305536786E-01 -1.72459250453E-04 +1.64136485117E-04 -1.33057294970E-04 +2.42405840007E-04 -3.68279803137E-01 +8.74932962970E-01
1.35500000000E+09 -1.62457394495E-01 +8.95626654014E-01 -1.86294384293E-04 +2.16071601282E-04 -1.59365798745E-04 +2.15714179422E-04 -3.56747752768E-01 +8.77642671038E-01
1.36000000000E+09 -1.45074052118E-01 +8.96023234793E-01 -2.16502048780E-04 +2.79079068373E-04 -2.06039497625E-04 +2.60104171869E-04 -3.44909605561E-01 +8.80497324337E-01
1.36500000000E+09 -1.28543187405E-01 +8.96443437605E-01 -1.60606564153E-04 +3.50485895086E-04 -1.53420363015E-04 +2.96177499197E-04 -3.32674751103E-01 +8.82898310560E-01
1.37000000000E+09 -1.13958482024E-01 +8.96617798340E-01 -1.82739943417E-04 +3.42835179389E-04 -1.64090021624E-04 +3.24341842636E-04 -3.19889452491E-01 +8.85335095110E-01
1.37500000000E+09 -1.01665127674E-01 +8.96608611680E-01 -1.33657327245E-04 +4.38130290802E-04 -2.39426620485E-04 +3.90113831566E-04 -3.06223793995E-01 +8.87655252418E-01
1.38000000000E+09 -9.09777096357E-02 +8.96252048400E-01 -3.89751503200E-05 +5.13788507992E-04 -1.00577862392E-04 +5.56110006677E-04 -2.91551963371E-01 +8.89756933667E-01
1.38500000000E+09 -8.05420192650E-02 +8.95347996882E-01 +9.34586042705E-05 +5.00758255764E-04 +2.78200554636E-05 +5.93281604739E-04 -2.76061458645E-01 +8.91510012930E-01
1.39000000000E+09 -6.95337258619E-02 +8.93670112816E-01 +7.93453952765E-05 +4.56706916614E-04 +1.44753850554E-04 +5.26676085836E-04 -2.60109980917E-01 +8.93223756459E-01
1.39500000000E+09 -5.62492378177E-02 +8.91215317007E-01 +1.55741073528E-04 +5.25451041413E-04 +2.39465031029E-04 +5.41802634735E-04 -2.43202069853E-01 +8.93937401511E-01
1.40000000000E+09 -3.98639880754E-02 +8.87563561149E-01 +2.39490749954E-04 +4.92739912968E-04 +3.15598377044E-04 +4.59065417327E-04 -2.25738722986E-01 +8.94571993453E-01
1.40500000000E+09 -2.07679673586E-02 +8.82755224847E-01 +2.45181856196E-04 +4.15788349071E-04 +2.72378487172E-04 +3.92240172587E-04 -2.06915504812E-01 +8.94490535042E-01
1.41000000000E+09 +5.58052453631E-04 +8.77176042680E-01 +2.66476282089E-04 +4.85390250278E-04 +2.64042697180E-04 +4.57877838371E-04 -1.86656121662E-01 +8.93853423127E-01
1.41500000000E+09 +2.34436700499E-02 +8.70926417103E-01 +3.32232483752E-04 +4.19318500960E-04 +3.85611009909E-04 +4.76283618546E-04 -1.64931762286E-01 +8.92143377164E-01
1.42000000000E+09 +4.65707862148E-02 +8.64424129911E-01 +4.12717052526E-04 +5.11230687902E-04 +4.72076304233E-04 +5.53827190027E-04 -1.42069197235E-01 +8.89402354603E-01
1.42500000000E+09 +6.90968873913E-02 +8.57152798471E-01 +5.48194603159E-04 +3.91944788350E-04 +6.60983970348E-04 +4.09586099015E-04 -1.18500669777E-01 +8.85907275357E-01
1.43000000000E+09 +9.04828537122E-02 +8.49264377531E-01 +5.63279114693E-04 +3.46365583574E-04 +6.91357913602E-04 +3.02883134227E-04 -9.36483067304E-02 +8.81213617670E-01
1.43500000000E+09 +1.10877346406E-01 +8.39827436951E-01 +6.30488650573E-04 +3.56684356403E-04 +6.67385693657E-04 +2.79280529743E-04 -6.73109789086E-02 +8.74669725237E-01
1.44000000000E+09 +1.30886624121E-01 +8.29558620997E-01 +6.70777288346E-04 +2.39950459203E-04 +6.99212450310E-04 +2.40734634778E-04 -3.90606761544E-02 +8.65876975530E-01
1.44500000000E+09 +1.52313863848E-01 +8.16523219914E-01 +7.03637453386E-04 +2.91965782894E-04 +6.88701969988E-04 +2.40982455824E-04 -9.30648501939E-03 +8.54430591258E-01
1.45000000000E+09 +1.75591658468E-01 +7.99991661826E-01 +7.99885991273E-04 +4.07661420258E-04 +8.39414143536E-04 +3.64174591382E-04 +2.25388685721E-02 +8.40324184374E-01
1.45500000000E+09 +2.01460011186E-01 +7.79384465287E-01 +1.01209365507E-03 +3.90319630902E-04 +1.07306059729E-03 +3.20765814543E-04 +5.60712667824E-02 +8.22937290343E-01
1.46000000000E+09 +2.30414372038E-01 +7.54098915612E-01 +1.26596308457E-03 +3.60924117652E-04 +1.20845971178E-03 +2.49188871490E-04 +9.11230917435E-02 +8.01008110623E-01
1.46500000000E+09 +2.61897068066E-01 +7.23626227312E-01 +1.55668255000E-03 +2.44786578161E-04 +1.43783892267E-03 +1.21082138274E-04 +1.26893406694E-01 +7.74367377225E-01
1.47000000000E+09 +2.94555952628E-01 +6.87581111566E-01 +1.92295780476E-03 +8.41085385878E-05 +1.75631212817E-03 +9.46477139830E-05 +1.64042533022E-01 +7.41557766002E-01
1.47500000000E+09 +3.26548393184E-01 +6.45943234695E-01 +2.28608014688E-03 -5.07502158621E-04 +2.17090046420E-03 -4.07858184373E-04 +2.02044328452E-01 +7.01282192418E-01
1.48000000000E+09 +3.56054668376E-01 +5.98788466601E-01 +2.37698894721E-03 -9.87193394782E-04 +2.35035128284E-03 -9.20808209860E-04 +2.39706793378E-01 +6.51776840332E-01
1.48500000000E+09 +3.81330364555E-01 +5.45526150677E-01 +2.56403439394E-03 -1.60616231249E-03 +2.60361382481E-03 -1.67365695959E-03 +2.74602095004E-01 +5.92502127522E-01
1.49000000000E+09 +4.00718491681E-01 +4.85808635017E-01 +2.37736698364E-03 -2.39474261763E-03 +2.20925166028E-03 -2.50423855754E-03 +3.03158034734E-01 +5.22380946212E-01
1.49500000000E+09 +4.13166213445E-01 +4.18388096617E-01 +2.46128840115E-03 -3.12893175920E-03 +2.21284506718E-03 -3.05773599145E-03 +3.22410040310E-01 +4.42513546789E-01
1.50000000000E+09 +4.15460796256E-01 +3.41302046876E-01 +1.93510860664E-03 -4.77073730456E-03 +1.80091759036E-03 -4.49714240275E-03 +3.28880822638E-01 +3.52200987957E-01
1.50500000000E+09 +4.04283339523E-01 +2.56176380518E-01 +2.18503128460E-04 -5.80685779061E-03 +4.86994533668E-04 -5.48668354931E-03 +3.17437161606E-01 +2.53932211257E-01
1.51000000000E+09 +3.76644540452E-01 +1.65221811982E-01 -1.51279844417E-03 -6.10077222268E-03 -1.24297518191E-03 -6.05729985870E-03 +2.84471275547E-01 +1.52746158713E-01
1.51500000000E+09 +3.30418215205E-01 +7.39011835556E-02 -3.81971539759E-03 -6.08585687348E-03 -3.70723460669E-03 -6.24293062591E-03 +2.30014086891E-01 +5.46945500300E-02
1.52000000000E+09 +2.65314935350E-01 -1.25894104023E-02 -5.90814250658E-03 -4.02863301105E-03 -5.89505570095E-03 -4.18376822497E-03 +1.52477397628E-01 -3.27292292486E-02
1.52500000000E+09 +1.80637583251E-01 -8.69791876053E-02 -6.17497839725E-03 -2.46055351514E-03 -6.17499064967E-03 -2.55008420852E-03 +5.64040721767E-02 -1.00733564559E-01
1.53000000000E+09 +7.98333919444E-02 -1.41388094186E-01 -7.03659125148E-03 -1.11303451194E-03 -7.11759571075E-03 -1.14475161483E-03 -5.08778973712E-02 -1.46183376676E-01
1.53500000000E+09 -3.07959642306E-02 -1.69998407805E-01 -7.48626414099E-03 +1.39683787323E-03 -7.50810101288E-03 +1.40654621329E-03 -1.63798600643E-01 -1.66454468435E-01
1.54000000000E+09 -1.42948415103E-01 -1.70965888371E-01 -6.41455567893E-03 +3.25965663755E-03 -6.42699640048E-03 +3.18781593965E-03 -2.72317029725E-01 -1.62485539841E-01
1.54500000000E+09 -2.48719095761E-01 -1.47963171796E-01 -5.34579569825E-03 +5.38412872360E-03 -5.42472096505E-03 +5.21647222546E-03 -3.71778786824E-01 -1.39978534615E-01
1.55000000000E+09 -3.45252481594E-01 -1.05938243803E-01 -2.86327044094E-03 +6.20738331890E-03 -3.08656674458E-03 +6.10209468031E-03 -4.58223161866E-01 -1.01867692254E-01
1.55500000000E+09 -4.26947675092E-01 -4.95675938660E-02 -1.09668480038E-03 +6.15333653986E-03 -1.38978787268E-03 +6.24013509774E-03 -5.29694423979E-01 -5.38142133755E-02
1.56000000000E+09 -4.92524476959E-01 +1.28659984327E-02 +5.38632311024E-04 +5.86879125192E-03 +3.75203526739E-04 +6.13163635561E-03 -5.86825141976E-01 -3.69112329186E-04
1.56500000000E+09 -5.43797442240E-01 +7.56067339444E-02 +2.01947795149E-03 +4.90563052057E-03 +2.05098966498E-03 +5.22353322634E-03 -6.31362671426E-01 +5.56592004820E-02
1.57000000000E+09 -5.83361976410E-01 +1.36736069276E-01 +2.75237332221E-03 +3.41061388004E-03 +3.04654809569E-03 +3.63872885049E-03 -6.65180681744E-01 +1.10968098088E-01
