# Hz S RI R 50
! CMT, C1220, 16058040, 17.2.0/1
! Date: 14/08/2018 12:42:17
! Data: Format (Calibration Info)
! Freq                      S11: Re/Im (F2)                       S21: Re/Im (F2)                       S12: Re/Im (F2)                       S22: Re/Im (F2)            
1.00000000000E+09 -6.48276246121E-01 +7.13587668105E-01 +4.48301874196E-05 -2.02281333276E-06 -1.69890853828E-05 -2.13732168743E-05 -6.70524259718E-01 +5.41896753196E-01
1.00500000000E+09 -6.41386704153E-01 +7.18375619944E-01 -2.61603772872E-05 -1.88696808099E-05 -4.05670520580E-05 -6.65630062922E-05 -6.67395173872E-01 +5.45495816335E-01
1.01000000000E+09 -6.35467742680E-01 +7.22934289389E-01 +2.86810790034E-05 +2.55908054309E-07 +4.76033312667E-05 +1.60346103304E-05 -6.64464934194E-01 +5.48716702017E-01
1.01500000000E+09 -6.30741866556E-01 +7.26895510770E-01 -8.17547709147E-06 -4.06202138168E-05 +3.79922048002E-06 -3.70153122508E-05 -6.61713427270E-01 +5.52098367071E-01
1.02000000000E+09 -6.27405534497E-01 +7.30139593223E-01 -3.62011535706E-05 -2.17591624706E-05 +1.06302624045E-05 -1.39316310244E-05 -6.59064860505E-01 +5.55132399392E-01
1.02500000000E+09 -6.24820782515E-01 +7.33088802217E-01 +1.59441132429E-05 -1.15424232274E-05 -3.49939841798E-05 -1.58306984720E-05 -6.56942256041E-01 +5.58315469334E-01
1.03000000000E+09 -6.22845257650E-01 +7.35831802578E-01 +5.04716177984E-05 +1.51775484097E-05 +3.90778552558E-05 -6.20549782671E-06 -6.54229341556E-01 +5.61753220546E-01
1.03500000000E+09 -6.20120932091E-01 +7.38363212820E-01 +3.86766241892E-06 -5.35977861547E-06 -2.96497703601E-06 +5.18125724573E-05 -6.51210470635E-01 +5.65444890272E-01
1.04000000000E+09 -6.16624562950E-01 +7.41375361561E-01 -1.12085297729E-05 +5.95338068676E-05 -1.52001850028E-05 +3.42266196335E-05 -6.47996826490E-01 +5.68744563752E-01
1.04500000000E+09 -6.11537905941E-01 +7.44646596406E-01 -4.97712683582E-05 +6.26673696209E-05 +3.99370661244E-05 -6.80487152870E-06 -6.45196465320E-01 +5.72068693103E-01
1.05000000000E+09 -6.05125788097E-01 +7.48532070699E-01 -4.74502301023E-05 +8.67855402322E-05 -3.00740794222E-05 +6.06869889436E-05 -6.42445554629E-01 +5.75244106790E-01
1.05500000000E+09 -5.97539085880E-01 +7.52890483781E-01 -2.57878254577E-05 +2.34792113026E-05 -5.59116915176E-06 -5.45489825215E-06 -6.40033846146E-01 +5.78628113665E-01
1.06000000000E+09 -5.89617820766E-01 +7.57715477410E-01 +4.51949308075E-05 +1.82042787427E-05 +2.02725235751E-05 +3.77386297226E-05 -6.37317539211E-01 +5.82277331083E-01
1.06500000000E+09 -5.81683087394E-01 +7.62592399692E-01 +4.03657819426E-06 +7.10713558795E-05 +4.12872641058E-05 +9.05881066727E-05 -6.34140058864E-01 +5.85666930357E-01
1.07000000000E+09 -5.74658551260E-01 +7.66761325140E-01 +4.88613793311E-05 -7.32601766947E-06 +8.90710677223E-05 -8.57937215069E-06 -6.30673011911E-01 +5.89185052516E-01
1.07500000000E+09 -5.68877779667E-01 +7.70478177765E-01 +4.56534161631E-06 +1.60701787277E-05 +1.24485773248E-05 +3.79994200654E-05 -6.27132911856E-01 +5.92645555145E-01
1.08000000000E+09 -5.64455657991E-01 +7.73842608268E-01 +3.24174591986E-06 +4.62932711321E-05 +3.23327699199E-05 +1.24885481869E-05 -6.23828483074E-01 +5.96336712015E-01
1.08500000000E+09 -5.61212574813E-01 +7.76550804581E-01 +3.25042700079E-05 +2.94321903624E-05 +3.24869683863E-05 +9.75609241152E-06 -6.20729158635E-01 +5.99579069332E-01
1.09000000000E+09 -5.58555892542E-01 +7.78842194695E-01 +3.07242803417E-05 +7.68699357432E-06 +1.47596343599E-05 +3.92791198788E-05 -6.17646584939E-01 +6.03387692183E-01
1.09500000000E+09 -5.56227949347E-01 +7.80893985361E-01 +2.72270365002E-05 +7.54233229220E-06 +1.75707658566E-05 +1.75685019407E-05 -6.14546604780E-01 +6.06864367093E-01
1.10000000000E+09 -5.52878174747E-01 +7.83198750881E-01 +9.58022792020E-06 +1.68468788688E-05 +4.51756046222E-05 -2.17521359856E-06 -6.11303134069E-01 +6.10383482073E-01
1.10500000000E+09 -5.48729813127E-01 +7.85827861319E-01 +9.46863009030E-06 -2.47747611128E-05 +2.70201213125E-05 +1.57450251888E-05 -6.07781273969E-01 +6.13766752691E-01
1.11000000000E+09 -5.43237696587E-01 +7.89170494731E-01 +5.34944971517E-05 -1.00899567446E-05 +5.09459384187E-05 +3.15671748740E-06 -6.04407197675E-01 +6.16810093678E-01
1.11500000000E+09 -5.36553587786E-01 +7.92914620680E-01 -4.88766265064E-05 +3.37779577763E-05 -2.55109165449E-05 +2.54483185578E-05 -6.01063452135E-01 +6.20127240430E-01
1.12000000000E+09 -5.29290989475E-01 +7.96817771809E-01 +1.62452886132E-05 +3.86403792808E-05 +8.66624813258E-06 +2.38049652424E-05 -5.97887071401E-01 +6.23654767929E-01
1.12500000000E+09 -5.21783628437E-01 +8.00798668584E-01 +2.02468351805E-06 -4.67627655872E-06 +4.06365045502E-05 +1.03811010043E-05 -5.94411755616E-01 +6.27626852343E-01
1.13000000000E+09 -5.14841062441E-01 +8.04336025920E-01 +8.88447120824E-06 +7.58446350716E-06 +6.29037936774E-05 +4.04563386244E-05 -5.90670844030E-01 +6.31191875891E-01
1.13500000000E+09 -5.08553304071E-01 +8.07151875449E-01 +7.85785064364E-05 +1.46392141624E-05 +4.29654440027E-05 +1.01073151370E-05 -5.86838456286E-01 +6.34818869088E-01
1.14000000000E+09 -5.03305345662E-01 +8.09631994498E-01 +5.54778649803E-05 +5.03410297140E-05 +9.02832623519E-05 +3.61112089332E-05 -5.82735425429E-01 +6.38328512980E-01
1.14500000000E+09 -4.98933181212E-01 +8.11333222409E-01 +5.96098658616E-05 +2.09792316629E-05 +7.03741672791E-05 +3.77767513332E-05 -5.78704618904E-01 +6.41632751929E-01
1.15000000000E+09 -4.94933889299E-01 +8.12801695519E-01 +5.38943679697E-05 +1.03208768532E-05 +4.44926984702E-05 -2.52477424421E-05 -5.74869974312E-01 +6.45385117894E-01
1.15500000000E+09 -4.91058785123E-01 +8.14618812664E-01 +7.80185231028E-05 -3.39681566674E-05 +5.42777038586E-05 -1.41228359343E-05 -5.70771139555E-01 +6.49063024444E-01
1.16000000000E+09 -4.86346556896E-01 +8.16475500760E-01 +7.22968304513E-05 -1.56568227955E-05 +9.93897929453E-05 -1.43929694576E-05 -5.66817508615E-01 +6.52592063216E-01
1.16500000000E+09 -4.80790054997E-01 +8.19193579454E-01 +7.72300683505E-05 -2.57978870152E-05 +4.00842590875E-05 -8.08851255165E-06 -5.62584285963E-01 +6.56116352047E-01
1.17000000000E+09 -4.74350236712E-01 +8.22303142307E-01 +7.75597710359E-05 -3.20559700212E-05 +1.08745321494E-04 -4.45847781305E-05 -5.58040158769E-01 +6.59244870475E-01
1.17500000000E+09 -4.67170084230E-01 +8.25571388944E-01 +8.22802265167E-05 -8.63167823365E-05 +8.99402673596E-05 -6.02453427482E-05 -5.53271686708E-01 +6.62497302392E-01
1.18000000000E+09 -4.59779368727E-01 +8.29278968638E-01 +5.52779773663E-05 -1.82760404586E-05 +1.28498357361E-04 -4.38991025120E-05 -5.48592964724E-01 +6.65595404384E-01
1.18500000000E+09 -4.52104778832E-01 +8.32715616986E-01 +4.51191717527E-05 -5.74239807592E-06 +1.20556122387E-04 -2.64315390197E-05 -5.43743861875E-01 +6.68674311475E-01
1.19000000000E+09 -4.45043502211E-01 +8.35378058128E-01 +1.14089853751E-04 -8.46138513072E-05 +1.31291698306E-04 -2.04699532114E-05 -5.38318972244E-01 +6.71362804879E-01
1.19500000000E+09 -4.38920497925E-01 +8.37462633550E-01 +1.20157615548E-04 -1.43290242765E-04 +8.67632544413E-05 -9.49192466328E-05 -5.33114006908E-01 +6.72848329146E-01
1.20000000000E+09 -4.33261525435E-01 +8.38416432498E-01 +3.98655899870E-05 -1.61354064567E-04 +3.87190266441E-05 -1.89304589433E-04 -5.29026038054E-01 +6.73084356493E-01
1.20500000000E+09 -4.28226899045E-01 +8.39618912995E-01 -5.30904944553E-05 -1.81613965761E-04 -3.76405292029E-05 -1.82098202414E-04 -5.27067368038E-01 +6.74046593482E-01
1.21000000000E+09 -4.23127121239E-01 +8.40681276836E-01 -5.23091789262E-05 -1.00996812930E-04 -8.16849450890E-05 -1.27080571546E-04 -5.25521343157E-01 +6.76831151146E-01
1.21500000000E+09 -4.16814025190E-01 +8.42327318381E-01 -3.96291486756E-05 -1.38934852341E-05 -5.71963145343E-05 -7.54064209373E-05 -5.23335525758E-01 +6.81165062186E-01
1.22000000000E+09 -4.09410067000E-01 +8.44391225847E-01 -3.28756877315E-05 -4.79086869958E-05 -1.18380763210E-05 -4.52906605797E-05 -5.19827035201E-01 +6.86079408556E-01
1.22500000000E+09 -4.00935446767E-01 +8.47158078214E-01 +2.88017116933E-05 +9.36541040764E-06 -5.04194601104E-06 -2.79631934048E-05 -5.15593945605E-01 +6.91005543910E-01
1.23000000000E+09 -3.91736972029E-01 +8.50259479041E-01 +9.61647165879E-06 -5.07112659421E-05 -2.30055258560E-05 -2.25806174798E-05 -5.11035266915E-01 +6.95530024238E-01
1.23500000000E+09 -3.82317392150E-01 +8.53989363626E-01 -9.26386134785E-06 -5.78781927184E-05 -5.70301547376E-06 -6.22131257737E-05 -5.06144067872E-01 +6.99750888577E-01
1.24000000000E+09 -3.72973536341E-01 +8.57920691812E-01 +4.06609564453E-05 -5.07698112546E-05 +7.02969706356E-06 -1.01530416090E-04 -5.01202917631E-01 +7.03388522024E-01
1.24500000000E+09 -3.64422791575E-01 +8.62142951184E-01 -7.60363916200E-06 -1.13014120114E-04 +5.13463986318E-05 -4.35011948336E-05 -4.95938100248E-01 +7.07163616045E-01
1.25000000000E+09 -3.56713604857E-01 +8.65636956936E-01 -4.72705768604E-05 -8.97939723472E-05 -1.25509855958E-05 -9.15424631964E-05 -4.90379719452E-01 +7.11353812103E-01
1.25500000000E+09 -3.49749350796E-01 +8.68062694004E-01 -4.04552847992E-05 -1.12095888557E-04 -8.49532705339E-06 -1.02300591591E-04 -4.84712915002E-01 +7.15214079669E-01
1.26000000000E+09 -3.43282550192E-01 +8.69843729745E-01 -5.27698912163E-05 -9.14854274718E-05 -4.48903136648E-05 -9.63581599462E-05 -4.79129959863E-01 +7.19556991524E-01
1.26500000000E+09 -3.37186785201E-01 +8.70902895882E-01 -2.15595282220E-05 -1.06420821218E-04 -2.91888404448E-05 -1.63500964866E-04 -4.73405943605E-01 +7.23632500678E-01
1.27000000000E+09 -3.30546438118E-01 +8.71932132004E-01 -9.51798918649E-05 -1.16570352349E-04 -5.94189398334E-05 -1.74281158808E-04 -4.67492510335E-01 +7.27681694543E-01
1.27500000000E+09 -3.22792638309E-01 +8.72997409418E-01 -1.49466649946E-04 -1.30423834853E-04 -1.20029417273E-04 -1.80627614695E-04 -4.61571948875E-01 +7.31372999000E-01
1.28000000000E+09 -3.13495577491E-01 +8.74364119747E-01 -1.35440950564E-04 -1.40406615218E-04 -1.60516845632E-04 -8.82713380807E-05 -4.55248231315E-01 +7.35145781540E-01
1.28500000000E+09 -3.02712317724E-01 +8.76394329951E-01 -1.75500412245E-04 -9.02959314639E-05 -1.88107817573E-04 -1.06770348915E-04 -4.48734674859E-01 +7.39122964498E-01
1.29000000000E+09 -2.91227314312E-01 +8.78777098478E-01 -1.72242106955E-04 -9.35993394571E-05 -2.15464551433E-04 -4.03515334739E-05 -4.42236797662E-01 +7.43049303713E-01
1.29500000000E+09 -2.79683920129E-01 +8.81902979541E-01 -1.63114373895E-04 -1.09099760480E-04 -1.85118972800E-04 -1.01079551658E-04 -4.35356828038E-01 +7.46891853481E-01
1.30000000000E+09 -2.68455693171E-01 +8.85424260382E-01 -1.83411634866E-04 -1.08296241597E-04 -1.89045730482E-04 -7.54851181681E-05 -4.28494809362E-01 +7.50732450698E-01
1.30500000000E+09 -2.58344204145E-01 +8.88724501821E-01 -1.87601034368E-04 -5.24710134309E-05 -2.08177672061E-04 -7.85044141058E-05 -4.21533986511E-01 +7.54370709619E-01
1.31000000000E+09 -2.49461107719E-01 +8.91367994816E-01 -2.29553121073E-04 -6.36141250789E-05 -2.66073822808E-04 -5.27240276206E-05 -4.14141936403E-01 +7.58099730129E-01
1.31500000000E+09 -2.42050957294E-01 +8.93052178859E-01 -2.33834367211E-04 -1.49872349445E-05 -2.68601348949E-04 -7.78599559693E-06 -4.06431799982E-01 +7.61850427468E-01
1.32000000000E+09 -2.35490076838E-01 +8.93839100290E-01 -2.47068865521E-04 +5.70528785053E-06 -2.69353607490E-04 +6.81070114613E-06 -3.98485025259E-01 +7.65399384696E-01
1.32500000000E+09 -2.29153311473E-01 +8.93999267096E-01 -2.71410919014E-04 +6.01038586188E-05 -2.59310217606E-04 +6.32703918282E-05 -3.90114870952E-01 +7.69070868548E-01
1.33000000000E+09 -2.21910593663E-01 +8.93796116299E-01 -2.52445669900E-04 +7.41772422862E-05 -2.53699176628E-04 +9.34751649502E-05 -3.81704284627E-01 +7.72686984175E-01
1.33500000000E+09 -2.12815078096E-01 +8.93211157619E-01 -2.94423364645E-04 +8.05748299871E-05 -3.21649141890E-04 +8.40590769912E-05 -3.73150359619E-01 +7.76158778608E-01
1.34000000000E+09 -2.01469836620E-01 +8.93125235628E-01 -3.26125131728E-04 +1.39956996813E-04 -3.21390853471E-04 +1.31761287728E-04 -3.64315276614E-01 +7.79811030919E-01
1.34500000000E+09 -1.87697239197E-01 +8.93092122776E-01 -3.74796235644E-04 +1.85262419307E-04 -2.90078320227E-04 +2.09078499006E-04 -3.54604197144E-01 +7.83503811169E-01
1.35000000000E+09 -1.72485866765E-01 +8.93563420257E-01 -3.26363581495E-04 +2.20003621650E-04 -3.19363748222E-04 +1.60588135228E-04 -3.44753040811E-01 +7.87301041163E-01
1.35500000000E+09 -1.56127337285E-01 +8.94465049309E-01 -3.17166520817E-04 +2.60098707352E-04 -2.99258772068E-04 +2.62269584633E-04 -3.34274379320E-01 +7.90755837301E-01
1.36000000000E+09 -1.39858566960E-01 +8.95592424461E-01 -2.69085783098E-04 +2.70548414849E-04 -2.71610499026E-04 +3.31139789263E-04 -3.23697167937E-01 +7.94222022179E-01
1.36500000000E+09 -1.24302310263E-01 +8.96247437869E-01 -3.19488151757E-04 +3.83734082492E-04 -2.72599918960E-04 +3.28614134493E-04 -3.12736486096E-01 +7.97327828240E-01
1.37000000000E+09 -1.10280252248E-01 +8.96275510798E-01 -2.72521881693E-04 +4.45831794596E-04 -3.05748509951E-04 +4.19179267728E-04 -3.01286917943E-01 +8.00422883561E-01
1.37500000000E+09 -9.78872975248E-02 +8.95767279300E-01 -2.54969908809E-04 +4.89519339301E-04 -2.77991439426E-04 +4.23581105821E-04 -2.88991004036E-01 +8.03449454608E-01
1.38000000000E+09 -8.65979090007E-02 +8.94671861078E-01 -2.48205809838E-04 +5.21339409126E-04 -2.49640526961E-04 +5.23265746839E-04 -2.75827554169E-01 +8.06479995019E-01
1.38500000000E+09 -7.50132847936E-02 +8.93027159717E-01 -1.40032837258E-04 +6.24145788972E-04 -2.09347922826E-04 +5.95852899154E-04 -2.62012796070E-01 +8.09242501037E-01
1.39000000000E+09 -6.25538629728E-02 +8.90609051799E-01 -1.24355202651E-04 +6.18478286671E-04 -1.61465264621E-04 +6.90807628864E-04 -2.47601490293E-01 +8.11863257159E-01
1.39500000000E+09 -4.81254208318E-02 +8.87603317559E-01 -5.74728358808E-05 +6.45067991739E-04 -5.83612984735E-05 +7.09355513043E-04 -2.32477225723E-01 +8.14039085704E-01
1.40000000000E+09 -3.09349002734E-02 +8.83758849047E-01 -1.10659559003E-04 +7.64383152941E-04 -4.10661786000E-05 +7.74095946107E-04 -2.16620253498E-01 +8.15886692907E-01
1.40500000000E+09 -1.21715930023E-02 +8.79350420119E-01 +2.79746481213E-05 +9.26593926736E-04 +6.43114198660E-05 +9.22185346644E-04 -1.99742123900E-01 +8.17135256331E-01
1.41000000000E+09 +8.74371849410E-03 +8.74528065240E-01 +1.89302188924E-04 +9.94928530534E-04 +1.84324842628E-04 +9.89200446261E-04 -1.81223376817E-01 +8.18030860172E-01
1.41500000000E+09 +3.05344803876E-02 +8.69155702781E-01 +3.34965327964E-04 +1.04210208591E-03 +3.20822517563E-04 +1.06321261019E-03 -1.61393853781E-01 +8.18368201798E-01
1.42000000000E+09 +5.28007729898E-02 +8.63135421863E-01 +5.78926968027E-04 +1.04616960489E-03 +5.83084090364E-04 +1.14028378113E-03 -1.39985743096E-01 +8.17910960518E-01
1.42500000000E+09 +7.45098052909E-02 +8.55803637804E-01 +7.18597244539E-04 +9.73909762570E-04 +7.96516622143E-04 +1.04428967993E-03 -1.17620761476E-01 +8.16523914095E-01
1.43000000000E+09 +9.54096584322E-02 +8.47150369018E-01 +8.31971380039E-04 +1.04124232426E-03 +1.00658910713E-03 +1.04806079123E-03 -9.43849039681E-02 +8.14161050077E-01
1.43500000000E+09 +1.15716953013E-01 +8.36693731621E-01 +1.07423876288E-03 +1.15546230404E-03 +1.19762027673E-03 +1.04986928876E-03 -6.94106205837E-02 +8.10317582262E-01
1.44000000000E+09 +1.36426655302E-01 +8.24606248177E-01 +1.54570343278E-03 +1.07456075069E-03 +1.67136449496E-03 +9.27888197979E-04 -4.25848072639E-02 +8.04694382673E-01
1.44500000000E+09 +1.59071985521E-01 +8.09832458959E-01 +1.83666170722E-03 +7.03413351348E-04 +1.92859886784E-03 +6.38266258868E-04 -1.30901513706E-02 +7.96651554461E-01
1.45000000000E+09 +1.83513338574E-01 +7.91474181081E-01 +1.92836970264E-03 +4.76826171216E-04 +1.99845271586E-03 +3.56157023508E-04 +1.79796745615E-02 +7.85408121718E-01
1.45500000000E+09 +2.10390037588E-01 +7.69986679723E-01 +2.17601547460E-03 +3.99445225787E-04 +2.22654594915E-03 +2.31468159210E-04 +5.09244234339E-02 +7.71540986983E-01
1.46000000000E+09 +2.40220524598E-01 +7.44351912443E-01 +2.59599140428E-03 +1.20055062931E-04 +2.50140318792E-03 -8.65497782803E-05 +8.51812805142E-02 +7.53664692304E-01
1.46500000000E+09 +2.71469079747E-01 +7.14380948458E-01 +3.04267767433E-03 -3.43412510829E-04 +2.76039852035E-03 -4.84439952812E-04 +1.21451283032E-01 +7.31402278963E-01
1.47000000000E+09 +3.03810019653E-01 +6.80020417469E-01 +3.30857724475E-03 -1.21521459787E-03 +3.08542726576E-03 -1.14601699482E-03 +1.58894505386E-01 +7.02231624384E-01
1.47500000000E+09 +3.35726909538E-01 +6.40014872792E-01 +3.27540458822E-03 -2.22829096644E-03 +3.20281894612E-03 -2.04705819180E-03 +1.97282033757E-01 +6.66011665213E-01
1.48000000000E+09 +3.65009645054E-01 +5.93464780118E-01 +2.71862999598E-03 -3.03216280015E-03 +2.83169021267E-03 -2.96334083978E-03 +2.35447523115E-01 +6.20953301081E-01
1.48500000000E+09 +3.89504334362E-01 +5.39936910563E-01 +2.34445262810E-03 -3.39820497869E-03 +2.36411045926E-03 -3.61185749262E-03 +2.71707769149E-01 +5.66975650787E-01
1.49000000000E+09 +4.08135369207E-01 +4.78594661643E-01 +2.10307560080E-03 -4.43101261751E-03 +1.88780028226E-03 -4.48554824853E-03 +3.03612008949E-01 +5.01196334385E-01
1.49500000000E+09 +4.18554211621E-01 +4.09158468347E-01 +1.15528970997E-03 -5.50032190272E-03 +9.07457742607E-04 -5.28944653881E-03 +3.24364292031E-01 +4.25420470518E-01
1.50000000000E+09 +4.20056919840E-01 +3.30681944440E-01 -5.17332878837E-04 -6.20245528985E-03 -4.63668047094E-04 -5.84978655800E-03 +3.34437792917E-01 +3.40966215463E-01
1.50500000000E+09 +4.08281415076E-01 +2.42539565608E-01 -2.00341488294E-03 -6.34852034080E-03 -1.70939735851E-03 -6.09523141515E-03 +3.27959569331E-01 +2.47069629422E-01
1.51000000000E+09 +3.79415661966E-01 +1.48847020431E-01 -4.02219847449E-03 -5.99862698543E-03 -3.76712985440E-03 -6.04638486575E-03 +3.00491434342E-01 +1.48690768315E-01
1.51500000000E+09 +3.30168285934E-01 +5.51673784089E-02 -5.71113635237E-03 -5.29485959073E-03 -5.61659062855E-03 -5.45869967633E-03 +2.50214462647E-01 +5.45185497480E-02
1.52000000000E+09 +2.60835438431E-01 -2.94145255353E-02 -8.10597250258E-03 -3.45213548069E-03 -8.14921778995E-03 -3.53900182542E-03 +1.79796097502E-01 -2.99936529300E-02
1.52500000000E+09 +1.73851858415E-01 -9.99709466172E-02 -8.48095865864E-03 -1.77931531789E-05 -8.52006112567E-03 -2.59632331540E-05 +8.96602451291E-02 -9.60690206411E-02
1.53000000000E+09 +7.18799583563E-02 -1.49418887047E-01 -7.42209582926E-03 +1.94049482535E-03 -7.45491887881E-03 +1.94759104118E-03 -1.07652248486E-02 -1.39434247212E-01
1.53500000000E+09 -3.78951689626E-02 -1.74091194006E-01 -6.72279092227E-03 +3.92374438711E-03 -6.69281058662E-03 +3.92977952839E-03 -1.15486001620E-01 -1.58283922079E-01
1.54000000000E+09 -1.50790293746E-01 -1.71999343238E-01 -4.78745246863E-03 +5.15748118517E-03 -4.67843404950E-03 +5.07925219238E-03 -2.15821798602E-01 -1.55357855327E-01
1.54500000000E+09 -2.57563073508E-01 -1.46472504998E-01 -3.34723990060E-03 +5.74434976407E-03 -3.42895979565E-03 +5.54105612797E-03 -3.06088946997E-01 -1.34619329682E-01
1.55000000000E+09 -3.53340833913E-01 -1.00692533433E-01 -1.68210573514E-03 +6.42127235090E-03 -1.99549165361E-03 +6.37171268676E-03 -3.84271505649E-01 -1.01930391471E-01
1.55500000000E+09 -4.32149701810E-01 -4.34075336166E-02 +4.66885165928E-04 +5.98801537903E-03 +2.18544773022E-04 +6.16439152170E-03 -4.49409716224E-01 -5.96155203373E-02
1.56000000000E+09 -4.95731357638E-01 +1.71368540290E-02 +1.78349989064E-03 +4.65125429272E-03 +1.70716763428E-03 +4.87010597093E-03 -5.01667348036E-01 -1.24150187633E-02
1.56500000000E+09 -5.46488094700E-01 +7.89658530117E-02 +2.10357974500E-03 +3.56008530476E-03 +2.14934434978E-03 +3.77633758249E-03 -5.42335982805E-01 +3.71238310518E-02
1.57000000000E+09 -5.83697507083E-01 +1.39561768344E-01 +2.42866132934E-03 +2.88094931400E-03 +2.56036558607E-03 +3.01404811856E-03 -5.73137317105E-01 +8.53778826985E-02
