# Hz S RI R 50
! CMT, C1220, 16058040, 17.2.0/1
! Date: 14/08/2018 12:07:21
! Data: Format (Calibration Info)
! Freq                      S11: Re/Im (F2)                       S21: Re/Im (F2)                       S12: Re/Im (F2)                       S22: Re/Im (F2)            
1.00000000000E+09 -6.54108360701E-01 +7.09574193743E-01 +4.28769332156E-06 -3.14271285152E-06 -3.24560209378E-05 -2.56380122872E-07 -7.53503712290E-01 +6.25429023496E-01
1.00500000000E+09 -6.47308487256E-01 +7.14320702067E-01 +4.37271415216E-05 -8.71104612298E-06 -4.41317350504E-05 +1.02171706029E-05 -7.49981413024E-01 +6.29508430545E-01
1.01000000000E+09 -6.41615027683E-01 +7.18594336631E-01 -8.97966524988E-06 +2.75766239478E-05 -1.17497742199E-05 -3.35393820483E-05 -7.46279843310E-01 +6.33278541060E-01
1.01500000000E+09 -6.37533034623E-01 +7.22091330756E-01 -9.24279749971E-06 -2.26379951321E-05 +1.12352027282E-05 -1.40700438702E-05 -7.42966381070E-01 +6.37098606112E-01
1.02000000000E+09 -6.34665696950E-01 +7.25508629798E-01 +4.02589003070E-05 +3.32256879747E-06 -1.32481974647E-05 -1.97754675017E-05 -7.39555013931E-01 +6.40785594847E-01
1.02500000000E+09 -6.32695907423E-01 +7.28568761678E-01 -1.84217388433E-05 +1.04014503883E-05 -2.60110159356E-05 +2.30981367341E-05 -7.36677648939E-01 +6.44459250473E-01
1.03000000000E+09 -6.31287990873E-01 +7.31251598269E-01 -2.99922858013E-05 -2.04670736224E-06 -6.89053922434E-05 -2.26175729226E-05 -7.33215608008E-01 +6.48144270175E-01
1.03500000000E+09 -6.29112437634E-01 +7.34170125959E-01 -4.46322137672E-05 +2.43498085302E-05 -1.59287891880E-05 +1.75823551823E-05 -7.29399557323E-01 +6.52131900643E-01
1.04000000000E+09 -6.25699990522E-01 +7.37140886372E-01 -5.46022817859E-05 -2.52300478468E-05 -3.68035207334E-05 -7.76493315962E-06 -7.25699967142E-01 +6.55758484197E-01
1.04500000000E+09 -6.20775919661E-01 +7.40817529934E-01 -2.68040389900E-05 +1.16641614349E-05 -5.44784933391E-05 +6.81851075118E-07 -7.22071653197E-01 +6.59476618021E-01
1.05000000000E+09 -6.14222236160E-01 +7.44737815294E-01 -4.94347863537E-05 +6.50153703257E-05 +4.40208168808E-06 +7.77459992995E-06 -7.18646595692E-01 +6.62821840644E-01
1.05500000000E+09 -6.06540197876E-01 +7.48893468702E-01 +4.49801081799E-06 -1.14125416593E-05 -3.14227637735E-05 +5.12719650707E-05 -7.15343029486E-01 +6.66440027142E-01
1.06000000000E+09 -5.98275654770E-01 +7.53383477864E-01 -4.05361218616E-05 +8.52508084169E-05 -3.01162720294E-05 +7.69413129838E-05 -7.12216874778E-01 +6.70082031393E-01
1.06500000000E+09 -5.90469259797E-01 +7.57755366241E-01 -3.40962162600E-05 +6.41449290215E-05 +3.07011991256E-06 +3.18148234076E-05 -7.08296464964E-01 +6.73948661124E-01
1.07000000000E+09 -5.83429061967E-01 +7.61631899397E-01 -2.56950205254E-05 +2.65741800636E-05 -3.71051145870E-05 +4.68450391714E-05 -7.04319617817E-01 +6.77541204569E-01
1.07500000000E+09 -5.78156786642E-01 +7.65238107070E-01 -2.05614997212E-05 +8.50982042521E-05 -2.86833761576E-05 +3.16616792407E-05 -6.99968071752E-01 +6.81296914057E-01
1.08000000000E+09 -5.74178811693E-01 +7.68744123815E-01 -3.77210054412E-05 +5.08475492040E-05 +3.59599812561E-05 +6.86654184227E-05 -6.95909812163E-01 +6.85224619583E-01
1.08500000000E+09 -5.71588692795E-01 +7.71706068614E-01 +3.96710739626E-05 -1.46695682921E-05 +1.68160358306E-05 +3.87615999663E-05 -6.91968472855E-01 +6.88930809471E-01
1.09000000000E+09 -5.69271820910E-01 +7.74508798208E-01 -2.74952951296E-06 +1.09281037066E-06 -3.04755177271E-05 +3.18659006362E-05 -6.88233766086E-01 +6.92698327125E-01
1.09500000000E+09 -5.67307564533E-01 +7.76984256010E-01 -3.13831787915E-05 +4.91898941743E-05 +2.08217221947E-07 +1.14110001384E-05 -6.84431080430E-01 +6.96561224661E-01
1.10000000000E+09 -5.63613336881E-01 +7.79578608913E-01 -1.05373191185E-05 +6.04782132425E-05 +5.40221588472E-07 +9.70531762127E-05 -6.80402851526E-01 +7.00400450495E-01
1.10500000000E+09 -5.59382379455E-01 +7.82546621160E-01 +9.54646732127E-06 +5.98235864426E-05 +3.34719569737E-05 +3.15614064526E-05 -6.76077756484E-01 +7.04081102285E-01
1.11000000000E+09 -5.53417821409E-01 +7.85926936411E-01 -9.38853061021E-06 -6.39170622139E-06 -3.28959203588E-06 +1.80502082436E-05 -6.71891803245E-01 +7.07385807990E-01
1.11500000000E+09 -5.46215266495E-01 +7.89446013396E-01 -1.69896741778E-06 +5.03371253840E-05 +3.32162681110E-05 +7.32686626497E-05 -6.67736068512E-01 +7.10846022450E-01
1.12000000000E+09 -5.38675243582E-01 +7.93021291045E-01 -4.56624745726E-09 +6.18216195094E-05 +1.18829729868E-05 +1.50368205329E-05 -6.63634636899E-01 +7.14529122755E-01
1.12500000000E+09 -5.31116505550E-01 +7.96769878693E-01 +8.25022340059E-06 +7.36544078714E-05 +3.90372011748E-05 +6.57550676674E-05 -6.59461925561E-01 +7.18444214376E-01
1.13000000000E+09 -5.24408890113E-01 +8.00065668146E-01 +4.49270981688E-05 +3.55348538055E-05 +7.40918656903E-05 +7.14228848015E-05 -6.55230145166E-01 +7.22137499553E-01
1.13500000000E+09 -5.18648192581E-01 +8.02973205361E-01 +1.17673844678E-05 +6.38879070525E-05 +2.57682183267E-05 +6.41356813990E-05 -6.50687938673E-01 +7.26132713736E-01
1.14000000000E+09 -5.14188246663E-01 +8.06061838105E-01 +3.26101309890E-05 +2.60032664041E-05 +1.93706223522E-05 +6.68334433859E-05 -6.45855359926E-01 +7.29484076666E-01
1.14500000000E+09 -5.10430319984E-01 +8.08289620345E-01 +1.46512554175E-05 -1.13780141820E-06 +4.92203417268E-05 +5.13581353003E-05 -6.41311851046E-01 +7.32816919250E-01
1.15000000000E+09 -5.07051435007E-01 +8.10584682086E-01 +5.29776892514E-05 +3.47506942497E-05 +6.60730217044E-05 +4.13847987889E-05 -6.36581674742E-01 +7.36671374469E-01
1.15500000000E+09 -5.03386728323E-01 +8.13044707046E-01 +7.20595473499E-05 +5.31653284176E-05 +5.72743711124E-05 +6.29066951613E-06 -6.31732876305E-01 +7.40451426635E-01
1.16000000000E+09 -4.98862690307E-01 +8.15253811871E-01 +3.86035846047E-05 +2.37734831676E-05 +6.18559071596E-05 +3.09359899738E-05 -6.26851289144E-01 +7.44407780436E-01
1.16500000000E+09 -4.93225253728E-01 +8.18346793922E-01 +5.25665447902E-05 +4.34007273101E-05 +9.13117391522E-05 +5.36659468002E-05 -6.21938437205E-01 +7.48009339945E-01
1.17000000000E+09 -4.86487796674E-01 +8.21321902817E-01 +4.81629801086E-05 +3.25432324233E-05 +3.92456690771E-05 +6.15195578883E-05 -6.16317991860E-01 +7.51391078870E-01
1.17500000000E+09 -4.78509010116E-01 +8.24325983058E-01 +1.09434718363E-04 +2.09748081115E-05 +9.47358457081E-05 +6.43309037749E-05 -6.10581462122E-01 +7.54532958645E-01
1.18000000000E+09 -4.70629299900E-01 +8.27431798901E-01 +1.10456663106E-04 +5.59899087751E-05 +7.72413207457E-05 +6.14473154447E-05 -6.05141019346E-01 +7.57712622314E-01
1.18500000000E+09 -4.62825772196E-01 +8.30310387413E-01 +9.06075348984E-05 +1.27862680846E-05 +1.63888491788E-04 +6.30828519221E-05 -5.99088218846E-01 +7.60784389195E-01
1.19000000000E+09 -4.55715184790E-01 +8.32777385765E-01 +1.96433076293E-04 +7.86738418348E-05 +1.37804280698E-04 +3.26551828159E-05 -5.92863390201E-01 +7.63354225269E-01
1.19500000000E+09 -4.49841854116E-01 +8.35081947011E-01 +2.23748623915E-04 +1.75264290533E-05 +2.73439538648E-04 +3.94248290859E-06 -5.86870587633E-01 +7.64570553314E-01
1.20000000000E+09 -4.45142371161E-01 +8.36497501711E-01 +1.92752768401E-04 -7.34421681301E-05 +2.02472845215E-04 -1.25197611145E-04 -5.82503281279E-01 +7.64790682903E-01
1.20500000000E+09 -4.41030986859E-01 +8.38258806299E-01 +1.60394910862E-04 -1.26417415352E-04 +1.91149004801E-04 -1.91413348303E-04 -5.80101267148E-01 +7.65586829813E-01
1.21000000000E+09 -4.37017362083E-01 +8.40300986124E-01 +1.13871650798E-04 -1.72492488332E-04 +9.30801383936E-05 -1.19651000662E-04 -5.78339179092E-01 +7.68615658163E-01
1.21500000000E+09 -4.31706578776E-01 +8.42496742662E-01 +1.51585559820E-04 -1.41339312276E-04 +1.11179592457E-04 -1.56943616686E-04 -5.75701100734E-01 +7.73250058244E-01
1.22000000000E+09 -4.25247726180E-01 +8.44817907558E-01 +9.05459022803E-05 -1.63797729747E-04 +7.09390160787E-05 -8.71631281461E-05 -5.71496924541E-01 +7.78569315144E-01
1.22500000000E+09 -4.17209546318E-01 +8.47856213703E-01 +9.89401903794E-05 -1.40548371075E-04 +1.65812151393E-04 -1.64804001609E-04 -5.66399872724E-01 +7.83667997963E-01
1.23000000000E+09 -4.07697427817E-01 +8.50899151066E-01 +7.84725405822E-05 -1.42224011903E-04 +1.36710784384E-04 -1.39183248109E-04 -5.60520368036E-01 +7.88388956613E-01
1.23500000000E+09 -3.97773167714E-01 +8.54124353441E-01 +6.76355617977E-05 -1.50698752533E-04 +1.21866929128E-04 -1.58823419304E-04 -5.54753242647E-01 +7.92690118736E-01
1.24000000000E+09 -3.87543773223E-01 +8.57462027442E-01 +1.35511060006E-04 -1.74824052650E-04 +1.20141045674E-04 -1.42160382897E-04 -5.48694734982E-01 +7.96612588189E-01
1.24500000000E+09 -3.78125638894E-01 +8.61039802690E-01 +1.20766014159E-04 -2.19049617571E-04 +7.50389454441E-05 -2.33481514147E-04 -5.42246303517E-01 +8.00473378078E-01
1.25000000000E+09 -3.69735943428E-01 +8.63912276564E-01 +4.99020876653E-05 -2.77790960271E-04 +5.66608278124E-05 -2.33444298420E-04 -5.35767713803E-01 +8.04713421907E-01
1.25500000000E+09 -3.62461078317E-01 +8.66607377287E-01 -1.92554931454E-05 -2.79942221286E-04 +6.46326927238E-05 -2.67699223729E-04 -5.28764017525E-01 +8.08722375859E-01
1.26000000000E+09 -3.56387252318E-01 +8.69002436412E-01 -1.95883463291E-05 -2.87677651976E-04 -1.44955345460E-05 -2.86304307123E-04 -5.22125667943E-01 +8.12973974161E-01
1.26500000000E+09 -3.50841928959E-01 +8.71033508554E-01 +5.51151166068E-06 -2.79739642451E-04 -2.06868508417E-05 -3.30929329173E-04 -5.15208680035E-01 +8.16885906725E-01
1.27000000000E+09 -3.45053822332E-01 +8.73391126582E-01 -6.83514863210E-05 -2.81902862983E-04 -9.29549340694E-05 -2.93305193215E-04 -5.08295079608E-01 +8.20743741666E-01
1.27500000000E+09 -3.38686076742E-01 +8.75513531722E-01 -1.00909025486E-04 -3.17876142319E-04 -9.38666176889E-05 -3.11464593611E-04 -5.01234904392E-01 +8.24270802816E-01
1.28000000000E+09 -3.30716013247E-01 +8.77933757100E-01 -9.94288279205E-05 -3.10222693454E-04 -1.25447586136E-04 -2.74018712830E-04 -4.94258412237E-01 +8.27728896816E-01
1.28500000000E+09 -3.20954861711E-01 +8.80422679919E-01 -1.78323475150E-04 -2.34280217953E-04 -2.28537827417E-04 -3.10889215889E-04 -4.86846858733E-01 +8.31406125602E-01
1.29000000000E+09 -3.10229288690E-01 +8.82997930007E-01 -2.06351889258E-04 -2.48653816624E-04 -2.26705732344E-04 -3.10878424004E-04 -4.79199064516E-01 +8.35101473644E-01
1.29500000000E+09 -2.98789951544E-01 +8.85534863619E-01 -1.96856105663E-04 -2.69333548882E-04 -2.57422448116E-04 -2.57542438336E-04 -4.71511043038E-01 +8.38640297762E-01
1.30000000000E+09 -2.87312964273E-01 +8.88157908295E-01 -2.49061607122E-04 -2.56836135969E-04 -3.25068459739E-04 -2.56779574909E-04 -4.63561826861E-01 +8.42291365934E-01
1.30500000000E+09 -2.76625201996E-01 +8.90643215946E-01 -3.41034715603E-04 -2.49027554437E-04 -3.18254546878E-04 -2.03305694563E-04 -4.55415808287E-01 +8.45693802805E-01
1.31000000000E+09 -2.67299072226E-01 +8.92829819039E-01 -3.60634363284E-04 -1.30204926192E-04 -3.40230192474E-04 -1.78629341352E-04 -4.47053376381E-01 +8.49102510278E-01
1.31500000000E+09 -2.59236731024E-01 +8.94735417469E-01 -3.68458753606E-04 -1.45398338697E-04 -3.68601966539E-04 -1.05594247387E-04 -4.38230294528E-01 +8.52592856086E-01
1.32000000000E+09 -2.52537939491E-01 +8.96332229857E-01 -3.32352113760E-04 -1.22145291236E-04 -3.81371447491E-04 -1.50011804836E-04 -4.29081615615E-01 +8.55995701402E-01
1.32500000000E+09 -2.45988377123E-01 +8.97471515190E-01 -3.97256114662E-04 -1.36534672032E-04 -4.12861437310E-04 -1.06620904185E-04 -4.19530704745E-01 +8.59426953740E-01
1.33000000000E+09 -2.38626056751E-01 +8.98588678067E-01 -4.41027973005E-04 -9.14663783860E-05 -4.37776919059E-04 -3.68882084855E-05 -4.09720368278E-01 +8.62671690755E-01
1.33500000000E+09 -2.30079652462E-01 +8.99288654597E-01 -4.72523294227E-04 -3.96689877121E-05 -4.57966665081E-04 -4.04185132461E-05 -3.99789262246E-01 +8.66067209528E-01
1.34000000000E+09 -2.18976097701E-01 +9.00024342201E-01 -4.79131447780E-04 +1.69648353585E-05 -4.71266891026E-04 +4.77025607387E-05 -3.89613502451E-01 +8.69359659311E-01
1.34500000000E+09 -2.05911149294E-01 +9.00296002966E-01 -4.60103707846E-04 +4.76745809264E-05 -4.63820644681E-04 +8.43466374271E-05 -3.78604792599E-01 +8.72761770913E-01
1.35000000000E+09 -1.91041272340E-01 +9.00268060497E-01 -4.83427488909E-04 +1.18433113564E-04 -4.49169721006E-04 +1.07974220562E-04 -3.67607070761E-01 +8.75811618500E-01
1.35500000000E+09 -1.75070540312E-01 +9.00274216909E-01 -4.66704048235E-04 +1.47486670389E-04 -4.33102379102E-04 +1.37287554392E-04 -3.55840982252E-01 +8.78538534464E-01
1.36000000000E+09 -1.59070986802E-01 +9.00355032217E-01 -4.67341364323E-04 +1.46584971582E-04 -4.53596301338E-04 +1.51943930530E-04 -3.43937014325E-01 +8.81225614558E-01
1.36500000000E+09 -1.43391664088E-01 +9.00704855481E-01 -5.55317802988E-04 +1.74042523758E-04 -4.81239715342E-04 +1.93411952746E-04 -3.31716034922E-01 +8.83768349170E-01
1.37000000000E+09 -1.28776391653E-01 +9.00838872777E-01 -5.98260572981E-04 +2.31476547178E-04 -5.59277999453E-04 +1.91182978812E-04 -3.18875492480E-01 +8.86128625041E-01
1.37500000000E+09 -1.15499549504E-01 +9.00782827534E-01 -6.58460998464E-04 +3.39583560375E-04 -6.94910484032E-04 +2.85880675715E-04 -3.05122184424E-01 +8.88367495524E-01
1.38000000000E+09 -1.03298554658E-01 +9.00701296551E-01 -6.02799198745E-04 +5.42997193243E-04 -7.18489520420E-04 +4.85591631805E-04 -2.90552976868E-01 +8.90375678123E-01
1.38500000000E+09 -9.08148304729E-02 +9.00132629718E-01 -4.89625114410E-04 +6.44111445567E-04 -5.98051174163E-04 +6.60024065121E-04 -2.75136927882E-01 +8.92263335915E-01
1.39000000000E+09 -7.81687104634E-02 +8.98992253763E-01 -4.49594748741E-04 +5.99863362639E-04 -5.45730722446E-04 +6.94562530337E-04 -2.59096274876E-01 +8.93895739044E-01
1.39500000000E+09 -6.38119403114E-02 +8.97172786830E-01 -4.72404988149E-04 +6.25542964207E-04 -5.27823843463E-04 +7.28043083722E-04 -2.42152761599E-01 +8.94587138224E-01
1.40000000000E+09 -4.72325147240E-02 +8.94166819351E-01 -4.73777247488E-04 +7.74622551926E-04 -4.52626792494E-04 +8.12561489412E-04 -2.24753870432E-01 +8.95030993290E-01
1.40500000000E+09 -2.87210399008E-02 +8.90163042551E-01 -4.75268645302E-04 +8.40503670459E-04 -4.38696118051E-04 +8.44175669915E-04 -2.06088395111E-01 +8.94824860576E-01
1.41000000000E+09 -8.45273030979E-03 +8.84822892427E-01 -4.14992990992E-04 +1.02869743728E-03 -3.96148469165E-04 +1.00653745000E-03 -1.86027609931E-01 +8.94172636766E-01
1.41500000000E+09 +1.28236915922E-02 +8.78638357561E-01 -2.99346130024E-04 +1.11219546626E-03 -3.10159885691E-04 +1.13530144701E-03 -1.64339991887E-01 +8.92826959925E-01
1.42000000000E+09 +3.45472550471E-02 +8.72014000118E-01 -2.56794079839E-04 +1.18424541245E-03 -3.21674569697E-04 +1.24937960567E-03 -1.41451556807E-01 +8.90232122747E-01
1.42500000000E+09 +5.62576792129E-02 +8.64827318113E-01 -2.25073434444E-04 +1.35102044237E-03 -2.34728266043E-04 +1.47619049158E-03 -1.17736132284E-01 +8.86703219648E-01
1.43000000000E+09 +7.78787855721E-02 +8.57049158494E-01 -1.08805052194E-04 +1.54525237370E-03 +5.61973009721E-05 +1.72044226378E-03 -9.28624035677E-02 +8.81882387071E-01
1.43500000000E+09 +9.96417633729E-02 +8.47959253784E-01 +1.28823768813E-04 +1.72896942554E-03 +3.19835593925E-04 +1.77116864720E-03 -6.65546428793E-02 +8.75334944912E-01
1.44000000000E+09 +1.21915022417E-01 +8.37576197605E-01 +3.46282609756E-04 +1.69294066046E-03 +4.66113123411E-04 +1.70617543218E-03 -3.83205563486E-02 +8.66872907986E-01
1.44500000000E+09 +1.45744178781E-01 +8.24800796088E-01 +4.95298619472E-04 +1.74138182444E-03 +5.35225504998E-04 +1.81799093424E-03 -8.00153277326E-03 +8.55658535415E-01
1.45000000000E+09 +1.71296557591E-01 +8.08200630480E-01 +6.11415102134E-04 +2.10870359492E-03 +7.39585919702E-04 +2.16601157079E-03 +2.40786373583E-02 +8.41006089215E-01
1.45500000000E+09 +1.98618230463E-01 +7.88429759749E-01 +9.29462577983E-04 +2.44549438733E-03 +1.17181976029E-03 +2.42183488768E-03 +5.75893940867E-02 +8.23436292363E-01
1.46000000000E+09 +2.28730570381E-01 +7.63606804065E-01 +1.58029735907E-03 +2.75458732651E-03 +1.78557927516E-03 +2.48491225257E-03 +9.27266881410E-02 +8.02037567059E-01
1.46500000000E+09 +2.60406262489E-01 +7.33451357206E-01 +2.29539883854E-03 +2.86515455767E-03 +2.30873080013E-03 +2.49654608438E-03 +1.29447029348E-01 +7.75100130619E-01
1.47000000000E+09 +2.92484860666E-01 +6.97800504874E-01 +3.28370143046E-03 +2.81577310982E-03 +3.00567690815E-03 +2.52931273818E-03 +1.66919578496E-01 +7.41225806605E-01
1.47500000000E+09 +3.24258241516E-01 +6.55906599149E-01 +4.18752337801E-03 +2.40970911971E-03 +3.94518013704E-03 +2.44393601227E-03 +2.04021450182E-01 +6.99891430635E-01
1.48000000000E+09 +3.53335117749E-01 +6.07480429110E-01 +5.07586034303E-03 +1.91034467963E-03 +5.11675330360E-03 +2.05348016652E-03 +2.41019659287E-01 +6.50790478626E-01
1.48500000000E+09 +3.78544805662E-01 +5.53055252259E-01 +6.00777066805E-03 +1.19809931992E-03 +6.13944411244E-03 +1.06842123365E-03 +2.76134110861E-01 +5.91370073831E-01
1.49000000000E+09 +3.98750728522E-01 +4.90969707467E-01 +7.25414073592E-03 +2.10263471554E-04 +7.23856832782E-03 -1.08006051800E-04 +3.04574683213E-01 +5.20720812161E-01
1.49500000000E+09 +4.11785506057E-01 +4.20791322309E-01 +8.41765843846E-03 -1.56353420992E-03 +7.98107874602E-03 -1.88185416994E-03 +3.22689002682E-01 +4.39994403689E-01
1.50000000000E+09 +4.14431933567E-01 +3.41271350508E-01 +9.35836954818E-03 -3.92366524293E-03 +8.70872086544E-03 -3.71686595637E-03 +3.28284694615E-01 +3.50709889425E-01
1.50500000000E+09 +4.03888544820E-01 +2.54443098836E-01 +9.19766446382E-03 -7.76913808343E-03 +8.98817367925E-03 -7.13951435054E-03 +3.16483581429E-01 +2.52343571134E-01
1.51000000000E+09 +3.76213862353E-01 +1.61185294543E-01 +6.79976079240E-03 -1.15219405315E-02 +7.19388288885E-03 -1.10790417054E-02 +2.82886789741E-01 +1.51173019601E-01
1.51500000000E+09 +3.27564872752E-01 +6.81129114439E-02 +3.26655455238E-03 -1.37829430143E-02 +3.69861593361E-03 -1.37836973428E-02 +2.27319652349E-01 +5.47297726445E-02
1.52000000000E+09 +2.58247844703E-01 -1.68401147652E-02 -1.34052730351E-03 -1.49219760920E-02 -1.15189161400E-03 -1.51164983093E-02 +1.50972841454E-01 -3.13195183004E-02
1.52500000000E+09 +1.70990809844E-01 -8.85145161278E-02 -5.55384719598E-03 -1.35783676468E-02 -5.48638985289E-03 -1.37202949306E-02 +5.59229495281E-02 -1.00001499241E-01
1.53000000000E+09 +6.88962096205E-02 -1.40158692173E-01 -8.76010783740E-03 -1.24031570990E-02 -8.75925559008E-03 -1.24896434698E-02 -5.20807917962E-02 -1.45580119023E-01
1.53500000000E+09 -4.18052287559E-02 -1.68186871834E-01 -1.24108450414E-02 -9.58574942469E-03 -1.24194659790E-02 -9.57760776048E-03 -1.64352531370E-01 -1.65764048636E-01
1.54000000000E+09 -1.55055156987E-01 -1.70424902816E-01 -1.51588630299E-02 -5.70002128809E-03 -1.50099413237E-02 -5.73508480270E-03 -2.74446668896E-01 -1.61812780820E-01
1.54500000000E+09 -2.63598434412E-01 -1.47360866490E-01 -1.64698393388E-02 -7.03067757687E-05 -1.62549709423E-02 -4.58132650214E-04 -3.73290347808E-01 -1.37272211414E-01
1.55000000000E+09 -3.59289353134E-01 -1.03167764789E-01 -1.41053429347E-02 +5.01728901529E-03 -1.43423862401E-02 +4.47445299380E-03 -4.58372746869E-01 -9.90602252736E-02
1.55500000000E+09 -4.37892063575E-01 -4.61181532529E-02 -1.08127258418E-02 +7.94482692450E-03 -1.13644235996E-02 +7.61516135722E-03 -5.29361921496E-01 -5.17972486459E-02
1.56000000000E+09 -4.99610549452E-01 +1.50960445134E-02 -7.28955889536E-03 +9.49541369283E-03 -8.00700398379E-03 +9.64522280318E-03 -5.86331616005E-01 +2.15225983826E-03
1.56500000000E+09 -5.49310136685E-01 +7.69204465133E-02 -3.96017091328E-03 +9.33878185860E-03 -4.32659893136E-03 +9.82097069515E-03 -6.30549650456E-01 +5.75686966465E-02
1.57000000000E+09 -5.87250402371E-01 +1.38378574184E-01 -1.78006166732E-03 +8.34681482459E-03 -1.87944629485E-03 +8.86130504787E-03 -6.63912768159E-01 +1.12936125074E-01
