# Hz S RI R 50
! CMT, C1220, 16058040, 17.2.0/1
! Date: 14/08/2018 12:15:34
! Data: Format (Calibration Info)
! Freq                      S11: Re/Im (F2)                       S21: Re/Im (F2)                       S12: Re/Im (F2)                       S22: Re/Im (F2)            
1.00000000000E+09 -6.47930177664E-01 +7.14381937123E-01 -4.02614888096E-05 -1.90359565546E-05 +1.58348696756E-05 -4.97216619888E-06 -7.53732899210E-01 +6.24878715737E-01
1.00500000000E+09 -6.40814109917E-01 +7.19414516858E-01 -1.20177670406E-06 -2.90607782809E-05 -1.45994373395E-05 +1.24128277438E-06 -7.50011803192E-01 +6.28935637661E-01
1.01000000000E+09 -6.35143587935E-01 +7.24098085276E-01 -3.80601095879E-05 -1.43702419432E-05 -3.29135026829E-05 -3.06186740737E-05 -7.46609228430E-01 +6.32659168373E-01
1.01500000000E+09 -6.31209961443E-01 +7.27822039476E-01 -1.46851437368E-06 -4.23804990519E-07 +3.74227459619E-05 -1.80485343518E-05 -7.43259347794E-01 +6.36424236864E-01
1.02000000000E+09 -6.28917522480E-01 +7.30936651591E-01 -2.22320188173E-05 +6.81249116963E-06 +1.00845225753E-05 +2.00156586768E-05 -7.39827583919E-01 +6.39948641061E-01
1.02500000000E+09 -6.27668499896E-01 +7.33314781452E-01 -1.41484540753E-05 +1.83908991523E-05 -4.74308293638E-05 -2.46890975816E-05 -7.36780579079E-01 +6.43587859774E-01
1.03000000000E+09 -6.27075329382E-01 +7.35542062348E-01 -7.54610053613E-05 +1.61409940017E-05 -2.31976082601E-06 +1.07459243040E-05 -7.33263809368E-01 +6.47518881671E-01
1.03500000000E+09 -6.25273811921E-01 +7.37524822941E-01 -1.39652903151E-05 +1.05151175239E-05 -2.89190625112E-05 +2.05460341598E-05 -7.29538527532E-01 +6.51283960522E-01
1.04000000000E+09 -6.22142507549E-01 +7.40182330991E-01 -6.16787471167E-06 +7.73834739355E-07 -3.69970252215E-05 +4.04902764683E-05 -7.25779933203E-01 +6.55088497361E-01
1.04500000000E+09 -6.16941853075E-01 +7.43535597515E-01 -4.12769918526E-05 +2.60943987065E-05 -9.40885528755E-06 +5.45680016404E-05 -7.22288029433E-01 +6.58739248189E-01
1.05000000000E+09 -6.09665405091E-01 +7.47522020241E-01 +4.05330441013E-05 +6.35347071685E-06 -5.18802827564E-05 +7.71753970741E-10 -7.18799738174E-01 +6.62061480316E-01
1.05500000000E+09 -6.00950323423E-01 +7.52218227923E-01 +2.57124504439E-06 +5.84190756513E-07 -3.89343783139E-05 +5.81982508503E-06 -7.15697163862E-01 +6.65574726025E-01
1.06000000000E+09 -5.91539715515E-01 +7.57440650729E-01 +2.43758683605E-05 +3.47442122291E-05 +1.11824152018E-05 -2.70484533471E-05 -7.12348589249E-01 +6.69429450392E-01
1.06500000000E+09 -5.82662904684E-01 +7.62536646816E-01 +1.15020407822E-05 -1.03947448630E-05 -3.07240099713E-05 -5.82338815084E-06 -7.08563396542E-01 +6.73110572047E-01
1.07000000000E+09 -5.75020051556E-01 +7.67101439955E-01 +4.53389474781E-05 +1.67818159881E-05 -3.66197837257E-06 +5.15242908505E-05 -7.04552911854E-01 +6.76911531074E-01
1.07500000000E+09 -5.69327254005E-01 +7.71065936139E-01 +3.03549055201E-05 +3.74138739235E-05 +3.11363874097E-05 +3.08535804670E-05 -7.00067582497E-01 +6.80522694776E-01
1.08000000000E+09 -5.65686717047E-01 +7.74482108000E-01 +3.16939226332E-05 -1.68616094682E-05 +4.66758217656E-05 -6.57078012200E-06 -6.96188870028E-01 +6.84407236454E-01
1.08500000000E+09 -5.63575096107E-01 +7.76923324993E-01 +3.40389121888E-05 -2.89083175441E-06 +6.32895949306E-05 +7.21756417921E-06 -6.92341391519E-01 +6.88295026046E-01
1.09000000000E+09 -5.62135113879E-01 +7.78976632779E-01 +2.43183080857E-05 -2.09770771515E-05 +3.20451229237E-05 +5.90077780818E-05 -6.88559046900E-01 +6.92041016189E-01
1.09500000000E+09 -5.60798555965E-01 +7.80554032757E-01 +2.86421566813E-05 +1.71943012202E-05 +9.34160072449E-06 +3.41315801133E-05 -6.84768589455E-01 +6.95816532185E-01
1.10000000000E+09 -5.58182113310E-01 +7.82388209166E-01 +5.18058800999E-05 +5.14979611527E-07 -1.57755551455E-06 +1.46119197734E-05 -6.80694616434E-01 +6.99782117473E-01
1.10500000000E+09 -5.54057009132E-01 +7.84909014823E-01 +1.55796846319E-06 +1.75102675782E-05 +2.70791033631E-05 -1.41677050457E-05 -6.76274623473E-01 +7.03153433180E-01
1.11000000000E+09 -5.47972182688E-01 +7.88037329864E-01 +5.09109757286E-05 +3.94671797988E-05 +6.21365468381E-05 +1.21137481731E-05 -6.72167323452E-01 +7.06637438691E-01
1.11500000000E+09 -5.40274052524E-01 +7.92087724456E-01 +3.09730825971E-05 -6.47305971431E-06 +2.14551605173E-05 -4.00126827302E-05 -6.68114266662E-01 +7.10174750485E-01
1.12000000000E+09 -5.32247232074E-01 +7.96050716403E-01 +2.12750367380E-05 -7.38930303871E-06 -1.80253407357E-05 -2.98681142951E-05 -6.63906540987E-01 +7.13766283436E-01
1.12500000000E+09 -5.23801089584E-01 +8.00388065232E-01 +3.54109594791E-05 +6.94711196110E-06 -8.71188137180E-06 -5.64059219469E-06 -6.59731641519E-01 +7.17748828206E-01
1.13000000000E+09 -5.16282479432E-01 +8.04270239281E-01 +3.64805444873E-05 -4.88502155103E-05 +1.82698514051E-05 +2.27009658601E-05 -6.55557641593E-01 +7.21436160535E-01
1.13500000000E+09 -5.10343830617E-01 +8.07332709099E-01 +4.51002298467E-05 -1.95549612130E-05 +3.54830103645E-05 +2.02535349945E-05 -6.50976604735E-01 +7.25237229057E-01
1.14000000000E+09 -5.05743666336E-01 +8.10291838706E-01 +3.86378464455E-05 +3.54517744037E-05 +6.32663181213E-05 -1.97185990234E-05 -6.46244682928E-01 +7.28542963027E-01
1.14500000000E+09 -5.02327326702E-01 +8.12067305612E-01 +2.04461532420E-05 -1.88558360570E-05 +4.29791588095E-05 -2.64788050851E-05 -6.41586431499E-01 +7.32127501229E-01
1.15000000000E+09 -4.99314233535E-01 +8.13824492345E-01 +1.75934851404E-05 -3.25909245779E-06 -2.51442256125E-05 +1.24881517467E-05 -6.37048299876E-01 +7.35936233642E-01
1.15500000000E+09 -4.96299304616E-01 +8.15378633663E-01 +1.69861284300E-05 +1.42813865422E-05 +5.14252328123E-05 +2.20359005068E-05 -6.32277800241E-01 +7.39668479727E-01
1.16000000000E+09 -4.92025682514E-01 +8.17162878944E-01 +2.24053927511E-05 -5.52810719561E-06 +2.35982989734E-05 -2.14685160189E-05 -6.27328133728E-01 +7.43511286682E-01
1.16500000000E+09 -4.86330320964E-01 +8.19814925964E-01 +2.35072351447E-05 -1.45996257125E-05 +2.41097416689E-06 -1.33112479997E-05 -6.22226830192E-01 +7.47095107891E-01
1.17000000000E+09 -4.79245816873E-01 +8.22715672269E-01 +3.77201621193E-05 -1.23116689258E-05 +1.34536904578E-05 -3.71439052608E-05 -6.16834694564E-01 +7.50652193811E-01
1.17500000000E+09 -4.71153657648E-01 +8.26016514930E-01 +6.17833050303E-05 -2.07248803035E-05 +5.48330415373E-05 -1.96218698773E-05 -6.11171987348E-01 +7.53738071332E-01
1.18000000000E+09 -4.62747542768E-01 +8.29582442603E-01 +1.66840407511E-05 -3.97170052963E-05 +1.42389276552E-05 -1.20044209495E-05 -6.05502407979E-01 +7.56816776654E-01
1.18500000000E+09 -4.54544035772E-01 +8.33049062294E-01 +5.91856405894E-05 -2.07083603939E-05 +2.33796045816E-05 -3.65785854662E-06 -5.99520057444E-01 +7.59863096848E-01
1.19000000000E+09 -4.47452825045E-01 +8.35755548807E-01 +8.38012395819E-05 +4.17156405859E-06 +2.40783229300E-05 -1.26280808599E-05 -5.93352866822E-01 +7.62643105108E-01
1.19500000000E+09 -4.41647418621E-01 +8.38083032628E-01 +5.92545351227E-05 +6.90586244898E-07 +1.31691904892E-04 -4.57949491888E-05 -5.87556973054E-01 +7.63778226612E-01
1.20000000000E+09 -4.37175640934E-01 +8.39310796063E-01 +9.21860575363E-05 -7.33785902367E-05 +8.55489278676E-05 -6.93211994447E-05 -5.82952681992E-01 +7.63994282204E-01
1.20500000000E+09 -4.33411943088E-01 +8.40631442383E-01 +3.65115516839E-05 -8.99390552813E-05 +4.62186444086E-06 -9.50376842865E-05 -5.80704216851E-01 +7.64839126974E-01
1.21000000000E+09 -4.29445619002E-01 +8.41855163813E-01 +1.34009455635E-05 -6.28685174888E-05 -5.58780307589E-05 -1.03229149194E-04 -5.78846240665E-01 +7.67919596076E-01
1.21500000000E+09 -4.24212349711E-01 +8.43410162776E-01 +2.81332461539E-05 -8.87520382153E-05 +2.00764621321E-05 -7.00968288765E-05 -5.76033078008E-01 +7.72430970058E-01
1.22000000000E+09 -4.17266063704E-01 +8.45255314426E-01 +1.21387775846E-05 -6.30068336502E-05 +1.58107609702E-05 -3.84117893155E-05 -5.71884393677E-01 +7.77957874310E-01
1.22500000000E+09 -4.08469698293E-01 +8.47838396703E-01 +3.80404377726E-06 -4.74157815702E-05 -4.34662053409E-05 -6.12794460213E-05 -5.66758660548E-01 +7.82996493129E-01
1.23000000000E+09 -3.98119139321E-01 +8.50914780941E-01 -3.70384073714E-06 -2.42406595086E-05 +2.22788084685E-05 -9.48927733397E-05 -5.61056672602E-01 +7.87707486095E-01
1.23500000000E+09 -3.87109543476E-01 +8.54521109166E-01 +3.44919686719E-05 -7.09916830683E-05 -6.96432988992E-06 -4.47382726333E-05 -5.55416373836E-01 +7.91905384761E-01
1.24000000000E+09 -3.76045028020E-01 +8.58371415491E-01 +1.25610054338E-05 -8.79181605378E-05 -1.62786328929E-05 -7.85971729715E-05 -5.49168794912E-01 +7.95808307453E-01
1.24500000000E+09 -3.66049943112E-01 +8.62448413775E-01 +3.73350647661E-05 -1.40055863299E-04 -3.37988234472E-05 -9.81938335483E-05 -5.42922879814E-01 +7.99727661657E-01
1.25000000000E+09 -3.57635960830E-01 +8.65947614022E-01 -7.19169585218E-05 -1.01430334869E-04 -5.47326368860E-05 -1.20347135857E-04 -5.36264587167E-01 +8.03985216549E-01
1.25500000000E+09 -3.51006987923E-01 +8.68416468639E-01 -5.66540900852E-05 -1.19639118973E-04 -9.28785491609E-05 -8.14227417755E-05 -5.29521764792E-01 +8.07940598604E-01
1.26000000000E+09 -3.45795952406E-01 +8.70623610333E-01 -7.44998001954E-05 -1.14586232968E-04 -9.18417783972E-05 -1.01543812101E-04 -5.22807460420E-01 +8.12216558882E-01
1.26500000000E+09 -3.41545375555E-01 +8.71995730922E-01 -9.15571143549E-05 -1.43039794893E-04 -7.12199432607E-05 -1.13678182569E-04 -5.15684671189E-01 +8.16075458618E-01
1.27000000000E+09 -3.36854356513E-01 +8.73459338745E-01 -9.74832741793E-05 -1.49034996357E-04 -1.21775282519E-04 -1.13553338579E-04 -5.08916629856E-01 +8.19928586851E-01
1.27500000000E+09 -3.31282957974E-01 +8.74703594751E-01 -1.75134640930E-04 -9.05292935784E-05 -1.12889077252E-04 -1.47343876900E-04 -5.01835477066E-01 +8.23462976890E-01
1.28000000000E+09 -3.23488276676E-01 +8.76409169818E-01 -1.53124182440E-04 -8.05484300381E-05 -1.56445588374E-04 -9.38832571867E-05 -4.94744196211E-01 +8.26990063649E-01
1.28500000000E+09 -3.13437616508E-01 +8.78569811235E-01 -1.61532321278E-04 -7.45279738555E-05 -2.30392186915E-04 -6.43440460816E-05 -4.87364425668E-01 +8.30755257928E-01
1.29000000000E+09 -3.01640198646E-01 +8.81238422510E-01 -2.07391849600E-04 -2.14749476092E-05 -1.76897764853E-04 -4.16981874450E-05 -4.80024958987E-01 +8.34437527758E-01
1.29500000000E+09 -2.88857218717E-01 +8.84363686924E-01 -1.78975938652E-04 -2.26246945223E-05 -2.12088456618E-04 -2.85133065955E-05 -4.71987182366E-01 +8.37943119286E-01
1.30000000000E+09 -2.75985581044E-01 +8.87865359277E-01 -2.11812329797E-04 -3.70774400345E-05 -2.15201056892E-04 +1.24866958252E-06 -4.64203453254E-01 +8.41388544363E-01
1.30500000000E+09 -2.64144405827E-01 +8.90906432567E-01 -2.41887355751E-04 +5.13460635869E-06 -2.06873656227E-04 +5.79066310670E-05 -4.56060344850E-01 +8.44832449853E-01
1.31000000000E+09 -2.54351379316E-01 +8.93376779516E-01 -2.07590434031E-04 +3.96088682965E-05 -1.98901313015E-04 +1.67159799397E-05 -4.47737570242E-01 +8.48396612211E-01
1.31500000000E+09 -2.46637437041E-01 +8.95258855876E-01 -1.49802803141E-04 +1.07085104567E-04 -2.13318671016E-04 +5.05307061498E-05 -4.38903998870E-01 +8.51769620247E-01
1.32000000000E+09 -2.40713317970E-01 +8.96508118884E-01 -1.72555345513E-04 +4.43375351948E-05 -1.78059077724E-04 +1.16026673054E-04 -4.29825361948E-01 +8.55328808167E-01
1.32500000000E+09 -2.35460186757E-01 +8.96980305481E-01 -2.47718171188E-04 +7.05087646047E-05 -2.32340682844E-04 +9.75076735923E-05 -4.20254596745E-01 +8.58681978048E-01
1.33000000000E+09 -2.29472321874E-01 +8.97053610074E-01 -2.49635756567E-04 +1.17646484594E-04 -2.72379449309E-04 +1.63728688531E-04 -4.10547395785E-01 +8.61880715859E-01
1.33500000000E+09 -2.21600349879E-01 +8.96846766487E-01 -2.12577503201E-04 +1.84351435788E-04 -1.83896167699E-04 +2.69325431655E-04 -4.00722031111E-01 +8.65255806229E-01
1.34000000000E+09 -2.10984903398E-01 +8.96633339896E-01 -1.94285748645E-04 +2.02869403591E-04 -1.35077959570E-04 +2.14162895162E-04 -3.90460677485E-01 +8.68672315130E-01
1.34500000000E+09 -1.97472884455E-01 +8.96476768977E-01 -1.74153060501E-04 +2.32295567001E-04 -1.16076906755E-04 +1.91890904536E-04 -3.79592449672E-01 +8.71976220853E-01
1.35000000000E+09 -1.81555726167E-01 +8.96505046837E-01 -1.57305716084E-04 +2.05793905305E-04 -1.55643346933E-04 +2.30781611730E-04 -3.68477350631E-01 +8.74982278038E-01
1.35500000000E+09 -1.63999540866E-01 +8.96762191982E-01 -1.39493733313E-04 +2.61222304558E-04 -1.69893975043E-04 +2.35004111977E-04 -3.56855400690E-01 +8.77825775947E-01
1.36000000000E+09 -1.46618603764E-01 +8.97356858450E-01 -1.23617574656E-04 +3.27872566622E-04 -1.16056114107E-04 +3.29967444384E-04 -3.44914817854E-01 +8.80521011493E-01
1.36500000000E+09 -1.30202724695E-01 +8.97831307999E-01 -9.43872134615E-05 +3.38846617747E-04 -8.40447764484E-05 +3.05550032037E-04 -3.32851992303E-01 +8.82985537963E-01
1.37000000000E+09 -1.15530630820E-01 +8.98052198777E-01 -9.68785037203E-05 +3.40789904999E-04 -1.40830281038E-04 +2.85618534962E-04 -3.19900570368E-01 +8.85561990692E-01
1.37500000000E+09 -1.03248562651E-01 +8.98262003378E-01 -1.16869044316E-04 +4.32257975746E-04 -1.55012169704E-04 +4.35353442886E-04 -3.06210122843E-01 +8.87796090466E-01
1.38000000000E+09 -9.25258710941E-02 +8.97981910268E-01 +1.73683050024E-05 +4.82062226768E-04 -4.27844837100E-05 +5.17297658051E-04 -2.91580878656E-01 +8.90006821410E-01
1.38500000000E+09 -8.20442180740E-02 +8.97255479461E-01 +1.21424525619E-04 +4.63969366376E-04 +8.30091224716E-05 +5.68639980942E-04 -2.76025343161E-01 +8.91872130234E-01
1.39000000000E+09 -7.08869781404E-02 +8.95685459022E-01 +1.25011652350E-04 +4.52559053612E-04 +1.61977704963E-04 +5.26654919200E-04 -2.60052337476E-01 +8.93413717178E-01
1.39500000000E+09 -5.74794498676E-02 +8.93145767518E-01 +2.14971180746E-04 +4.89505213759E-04 +2.20119367916E-04 +5.29448107469E-04 -2.43175363867E-01 +8.94290685702E-01
1.40000000000E+09 -4.11083128805E-02 +8.89493129766E-01 +2.59826738191E-04 +4.99588589609E-04 +3.50724311241E-04 +4.88288098319E-04 -2.25507850401E-01 +8.94630127803E-01
1.40500000000E+09 -2.19192452602E-02 +8.84944726646E-01 +3.71397170168E-04 +3.94986557374E-04 +3.69576949396E-04 +3.86569622888E-04 -2.06730457711E-01 +8.94602730010E-01
1.41000000000E+09 -5.26956354269E-04 +8.79340493921E-01 +3.72142340080E-04 +4.05010601408E-04 +3.81292507481E-04 +4.01162942549E-04 -1.86473085967E-01 +8.93907189872E-01
1.41500000000E+09 +2.24929551933E-02 +8.73024819610E-01 +4.44716935841E-04 +3.56820740245E-04 +4.24291757438E-04 +3.35770654834E-04 -1.64803099737E-01 +8.92450293397E-01
1.42000000000E+09 +4.57013875226E-02 +8.66680218186E-01 +4.36634260277E-04 +3.80002269451E-04 +5.21385331392E-04 +4.61264748157E-04 -1.41933460394E-01 +8.89792419634E-01
1.42500000000E+09 +6.82521965965E-02 +8.59506961835E-01 +5.00412003399E-04 +2.98593932801E-04 +6.10739127431E-04 +3.44098982954E-04 -1.18211522059E-01 +8.86320788449E-01
1.43000000000E+09 +8.98748446093E-02 +8.51647465969E-01 +6.04695971240E-04 +2.59112969131E-04 +6.64780882558E-04 +2.58219652487E-04 -9.33334057799E-02 +8.81555145861E-01
1.43500000000E+09 +1.10408423572E-01 +8.42567371150E-01 +6.77829506303E-04 +3.27878038802E-04 +6.75251557632E-04 +2.28607524528E-04 -6.69413684649E-02 +8.74960664475E-01
1.44000000000E+09 +1.30673516770E-01 +8.32290644106E-01 +7.37052535763E-04 +1.51713389340E-04 +7.93926204019E-04 +7.60968694931E-05 -3.85254971804E-02 +8.66218512511E-01
1.44500000000E+09 +1.52195864231E-01 +8.19456765245E-01 +7.08484038383E-04 +9.35167404609E-05 +7.07055619847E-04 +1.26807613760E-05 -8.42107125529E-03 +8.54805697254E-01
1.45000000000E+09 +1.75704177367E-01 +8.03028085399E-01 +7.01156259658E-04 +1.32781008697E-04 +7.09832307092E-04 +7.11739260822E-05 +2.33269323971E-02 +8.40263367061E-01
1.45500000000E+09 +2.02011045391E-01 +7.82608327798E-01 +8.51957773176E-04 +2.08303703356E-04 +8.87321958124E-04 +1.55382262424E-04 +5.71280762769E-02 +8.22820103997E-01
1.46000000000E+09 +2.31486440307E-01 +7.57224176736E-01 +1.06825372885E-03 +9.68609589253E-05 +1.00055661183E-03 +3.72764699383E-05 +9.21638573591E-02 +8.00795237338E-01
1.46500000000E+09 +2.63436073634E-01 +7.26606753149E-01 +1.27024575195E-03 +1.06123054948E-04 +1.16583243116E-03 +1.66191396748E-05 +1.28045691866E-01 +7.73691620314E-01
1.47000000000E+09 +2.96226915348E-01 +6.90554852916E-01 +1.65563975705E-03 -1.09822726710E-04 +1.45482384570E-03 -1.28347027295E-04 +1.65041172418E-01 +7.40543991925E-01
1.47500000000E+09 +3.28655191512E-01 +6.49118003401E-01 +1.78604027889E-03 -6.08469073604E-04 +1.72880741577E-03 -5.28150118592E-04 +2.02851718623E-01 +6.99888945652E-01
1.48000000000E+09 +3.58994215399E-01 +6.01837864239E-01 +1.77586374540E-03 -8.78123195839E-04 +1.84192452734E-03 -8.03915409764E-04 +2.40225779088E-01 +6.49869394688E-01
1.48500000000E+09 +3.85032196168E-01 +5.48050023082E-01 +2.07680639758E-03 -1.31966175603E-03 +2.14502214319E-03 -1.43358636852E-03 +2.74617772699E-01 +5.90471855311E-01
1.49000000000E+09 +4.05106792906E-01 +4.87526519207E-01 +1.85262624706E-03 -2.12134019051E-03 +1.81434254636E-03 -2.22382822910E-03 +3.02850413837E-01 +5.20118302105E-01
1.49500000000E+09 +4.17837782044E-01 +4.19358825614E-01 +1.92442679902E-03 -2.50862829321E-03 +1.72062898807E-03 -2.56644316254E-03 +3.21177648027E-01 +4.39996217442E-01
1.50000000000E+09 +4.20920431585E-01 +3.41571782602E-01 +1.69050383633E-03 -3.75355408151E-03 +1.57210159380E-03 -3.55252875314E-03 +3.26608712809E-01 +3.50330329307E-01
1.50500000000E+09 +4.10299294901E-01 +2.54992105859E-01 +4.55023703427E-04 -4.93372698017E-03 +5.65939326205E-04 -4.74653501305E-03 +3.14703088778E-01 +2.52616635956E-01
1.51000000000E+09 +3.82867682631E-01 +1.62229247264E-01 -1.20281445275E-03 -5.30244754678E-03 -9.65318392652E-04 -5.27817035498E-03 +2.81246217438E-01 +1.52232318111E-01
1.51500000000E+09 +3.36329045929E-01 +6.84805071057E-02 -3.11191310285E-03 -5.31885026440E-03 -3.00552902788E-03 -5.43929138191E-03 +2.26935980511E-01 +5.50677664098E-02
1.52000000000E+09 +2.68596633208E-01 -2.03607847607E-02 -4.91615587601E-03 -3.93004406434E-03 -4.92778659678E-03 -4.01124815203E-03 +1.49302225168E-01 -3.18070401070E-02
1.52500000000E+09 +1.81611834087E-01 -9.45454705422E-02 -5.67764859263E-03 -2.52199237816E-03 -5.72706663507E-03 -2.60484811859E-03 +5.32151321656E-02 -9.87281514240E-02
1.53000000000E+09 +7.96122573149E-02 -1.49167536930E-01 -6.37543185033E-03 -1.14716879041E-03 -6.42909320635E-03 -1.13901737664E-03 -5.33814854618E-02 -1.43027905644E-01
1.53500000000E+09 -3.31062986961E-02 -1.78228543932E-01 -6.69782133045E-03 +7.82424578870E-04 -6.70026939704E-03 +8.51239734572E-04 -1.64945435739E-01 -1.62267971880E-01
1.54000000000E+09 -1.47440873471E-01 -1.78455118395E-01 -6.41542710228E-03 +2.41853295391E-03 -6.34741425008E-03 +2.37070874820E-03 -2.71899378092E-01 -1.58652208970E-01
1.54500000000E+09 -2.55365638812E-01 -1.54030057870E-01 -5.65687897932E-03 +4.90786530775E-03 -5.65246149368E-03 +4.70270978911E-03 -3.70488626303E-01 -1.36651753644E-01
1.55000000000E+09 -3.52518035273E-01 -1.09618041309E-01 -3.24349427298E-03 +6.22426921489E-03 -3.50027516724E-03 +6.05867974947E-03 -4.56041573893E-01 -9.92926504137E-02
1.55500000000E+09 -4.34323723008E-01 -5.18856385744E-02 -9.96995311531E-04 +6.14931658130E-03 -1.33166847918E-03 +6.20996115384E-03 -5.27140199248E-01 -5.26075150074E-02
1.56000000000E+09 -4.99802976035E-01 +1.21633396364E-02 +3.70618681824E-04 +5.71201057616E-03 +1.45760566015E-04 +6.00673829726E-03 -5.85052818452E-01 +4.29744948449E-04
1.56500000000E+09 -5.50425500503E-01 +7.62086748273E-02 +1.79680724769E-03 +5.03660123913E-03 +1.79576830979E-03 +5.36647559918E-03 -6.29684495342E-01 +5.65962493444E-02
1.57000000000E+09 -5.89353659457E-01 +1.38167748478E-01 +2.84963868019E-03 +3.80585414573E-03 +3.09996368299E-03 +4.03518880753E-03 -6.62785772417E-01 +1.11448685273E-01
