# Hz S RI R 50
! CMT, C1220, 16058040, 17.2.0/1
! Date: 14/08/2018 11:48:25
! Data: Format (Calibration Info)
! Freq                      S11: Re/Im (F2)                       S21: Re/Im (F2)                       S12: Re/Im (F2)                       S22: Re/Im (F2)            
1.00000000000E+09 -6.47292561105E-01 +7.14844968312E-01 -1.56287047909E-05 +1.64926927102E-05 -3.21114216666E-05 +4.69113829649E-05 -7.55036452533E-01 +6.24139213863E-01
1.00500000000E+09 -6.40291567032E-01 +7.19961772881E-01 -7.09001246474E-06 +3.86743036433E-06 -9.51734348022E-06 +4.25399804474E-06 -7.51553273952E-01 +6.28508133741E-01
1.01000000000E+09 -6.34084135260E-01 +7.24623146467E-01 +1.08828927167E-05 +1.28503623000E-05 +3.16409997953E-06 +1.24969395081E-05 -7.48188298296E-01 +6.32129738681E-01
1.01500000000E+09 -6.29213203996E-01 +7.28326030161E-01 -2.15259716792E-05 +1.20058045399E-05 +9.19456556467E-06 +3.10348487243E-05 -7.44576631256E-01 +6.36042357830E-01
1.02000000000E+09 -6.25513046644E-01 +7.31551054027E-01 +4.77962345969E-06 -6.55304114564E-06 -3.28255674060E-05 -7.49153731111E-06 -7.41149969008E-01 +6.39575621490E-01
1.02500000000E+09 -6.22828417396E-01 +7.34268136357E-01 +2.04915945550E-05 +8.69687367722E-06 -1.37338346367E-05 +1.51906092209E-05 -7.38240722442E-01 +6.43250099626E-01
1.03000000000E+09 -6.20484468050E-01 +7.36682730744E-01 +3.58213855512E-05 +5.04374602190E-06 -9.48110301056E-06 +6.45438191205E-05 -7.34737885676E-01 +6.47314234231E-01
1.03500000000E+09 -6.17466052775E-01 +7.39203175683E-01 +2.29617595820E-05 +4.95929183571E-05 -4.54302920703E-05 -3.61235891065E-05 -7.31069464808E-01 +6.51124811208E-01
1.04000000000E+09 -6.13393568181E-01 +7.42008919611E-01 -3.04142089365E-05 -4.40894909810E-05 -2.29990785458E-07 -3.52127403095E-06 -7.27326702864E-01 +6.54606491893E-01
1.04500000000E+09 -6.07863015207E-01 +7.45540116775E-01 +2.28758676429E-05 +3.12461620041E-05 -2.04906844292E-05 -5.35040212844E-05 -7.23795179697E-01 +6.58286991955E-01
1.05000000000E+09 -6.00833612508E-01 +7.49686028765E-01 +3.28107526010E-05 -1.71176963738E-05 +1.60000852116E-05 +6.57557358305E-05 -7.20415856619E-01 +6.61645480245E-01
1.05500000000E+09 -5.92585440698E-01 +7.54204317354E-01 +2.58407602505E-05 -1.40196508299E-05 -1.77026251031E-05 -2.30271774290E-05 -7.16937880094E-01 +6.65420719667E-01
1.06000000000E+09 -5.84042199315E-01 +7.59297625746E-01 +1.61365665349E-06 +2.18867968932E-05 +1.62367832755E-05 -1.73751498724E-05 -7.13747504230E-01 +6.69003276931E-01
1.06500000000E+09 -5.75754404139E-01 +7.64284272299E-01 -7.68774958509E-07 +4.02705197813E-05 +2.55255962457E-05 +3.35647050310E-05 -7.10034949540E-01 +6.72789564862E-01
1.07000000000E+09 -5.68631155528E-01 +7.68658084322E-01 +3.83261970727E-06 +4.42514407883E-05 -8.33300835927E-07 +1.92271934713E-05 -7.06274150954E-01 +6.76352705887E-01
1.07500000000E+09 -5.63057869037E-01 +7.72329873230E-01 +1.60509439189E-05 +1.61778390570E-05 +2.94147902164E-05 -1.53973598696E-05 -7.02109210606E-01 +6.80134532736E-01
1.08000000000E+09 -5.59106282758E-01 +7.75420865494E-01 -2.95995232783E-05 +2.90964412592E-06 -1.62435842584E-05 +1.07049801543E-05 -6.97787383998E-01 +6.84044874137E-01
1.08500000000E+09 -5.56365934733E-01 +7.77642115127E-01 +3.57031586019E-07 -1.10557816394E-05 +3.55893416609E-05 +3.11085169158E-05 -6.93898089238E-01 +6.87752948783E-01
1.09000000000E+09 -5.54125305059E-01 +7.79717097728E-01 -7.02353061215E-06 +5.83484470247E-05 -6.22226679451E-06 +1.29064907291E-05 -6.89814456568E-01 +6.91711011131E-01
1.09500000000E+09 -5.52429609819E-01 +7.81383363762E-01 +4.24332897408E-05 +9.91611823193E-06 -2.10581756414E-05 +5.13551670171E-06 -6.85954094432E-01 +6.95645973176E-01
1.10000000000E+09 -5.49165800997E-01 +7.83303821343E-01 +1.78187526491E-05 +5.01748874413E-05 -6.35227109601E-06 +1.26236419724E-06 -6.82105671065E-01 +6.99388972461E-01
1.10500000000E+09 -5.44762328301E-01 +7.85857948459E-01 +6.05951515120E-06 +4.20593121173E-05 -5.05468113945E-06 -7.44384084273E-06 -6.77923869683E-01 +7.03015239519E-01
1.11000000000E+09 -5.38921310955E-01 +7.88947435852E-01 +1.91667139204E-05 +9.75917323827E-06 +2.20707295336E-05 +3.80059331447E-05 -6.73708176773E-01 +7.06506804356E-01
1.11500000000E+09 -5.31708899059E-01 +7.92678024222E-01 +6.93878642620E-05 -2.78195321192E-05 +3.55136347834E-05 +3.37520949001E-05 -6.69501028593E-01 +7.09888326215E-01
1.12000000000E+09 -5.24096410073E-01 +7.96653761632E-01 +1.65352401704E-05 +3.89574204956E-05 -6.42320987006E-07 -1.32729343153E-05 -6.65346749281E-01 +7.13649723889E-01
1.12500000000E+09 -5.16220600427E-01 +8.00575004087E-01 -3.43161189127E-05 -1.82480710470E-05 +2.81208916683E-05 +2.94507164377E-06 -6.61214363474E-01 +7.17690501911E-01
1.13000000000E+09 -5.09097454661E-01 +8.04189828794E-01 +2.62277511634E-06 -1.05234514232E-05 +1.53532561170E-07 +1.91510704125E-05 -6.56879933167E-01 +7.21451158507E-01
1.13500000000E+09 -5.02833601593E-01 +8.06997460856E-01 +3.59041576280E-05 +1.05423124595E-05 -2.58311945172E-06 -3.46670741594E-05 -6.52367708689E-01 +7.25080347089E-01
1.14000000000E+09 -4.97724414888E-01 +8.09559091507E-01 -2.83038107694E-05 -2.53341662070E-05 +6.36881300416E-05 +2.51041105153E-05 -6.47724615098E-01 +7.28593762417E-01
1.14500000000E+09 -4.93505809482E-01 +8.11237590500E-01 -3.82289946856E-06 -2.41393467869E-05 +4.28349196911E-05 -4.18389723815E-05 -6.43218342873E-01 +7.31940704058E-01
1.15000000000E+09 -4.89666553120E-01 +8.12600707444E-01 +1.08916445610E-05 +1.79188949904E-05 +2.41627735213E-05 -2.69236482041E-05 -6.38424486018E-01 +7.35818437322E-01
1.15500000000E+09 -4.85660089367E-01 +8.14565401048E-01 +5.41488805958E-05 -6.92622984402E-06 +5.14778956627E-05 +1.81593069085E-05 -6.33622539518E-01 +7.39707633580E-01
1.16000000000E+09 -4.80654381885E-01 +8.16480424296E-01 +1.61357580342E-05 +2.44709302598E-05 +1.98017471551E-05 -1.51131224507E-06 -6.28629128230E-01 +7.43578115767E-01
1.16500000000E+09 -4.74652516726E-01 +8.19069992397E-01 +1.57555369251E-05 -2.84706355302E-05 +4.73470213176E-05 -1.57174986173E-05 -6.23797591290E-01 +7.47258140781E-01
1.17000000000E+09 -4.67477869920E-01 +8.22041468174E-01 +3.90120470707E-05 -6.66258894088E-05 +2.59025730301E-05 +4.01906875817E-07 -6.18239429929E-01 +7.50647303965E-01
1.17500000000E+09 -4.59395051831E-01 +8.25331545992E-01 +1.42538784663E-05 -2.74958584717E-05 +9.53463487464E-05 +2.15426041297E-06 -6.12645250109E-01 +7.53794520081E-01
1.18000000000E+09 -4.51003361645E-01 +8.28987426122E-01 +4.81493126181E-05 -2.95086874050E-05 +8.24965117085E-05 -2.50303363787E-05 -6.07147763507E-01 +7.57124909596E-01
1.18500000000E+09 -4.42847806442E-01 +8.32247905397E-01 +9.86278497661E-05 -3.07855830866E-05 +7.69480718722E-05 -8.14498241042E-05 -6.00904349613E-01 +7.60050148837E-01
1.19000000000E+09 -4.35525198890E-01 +8.34811744506E-01 +6.70162915734E-05 -8.91340308847E-05 +4.19456589840E-05 -1.11379388951E-04 -5.94627275159E-01 +7.62809298112E-01
1.19500000000E+09 -4.29263744550E-01 +8.36792057963E-01 +2.00244827374E-05 -1.03636676392E-04 +5.13706813475E-05 -1.49809981894E-04 -5.88821567985E-01 +7.64247565799E-01
1.20000000000E+09 -4.24112768070E-01 +8.37762573221E-01 -9.05846520561E-06 -1.08291002776E-04 -6.38935809508E-05 -8.57667620807E-05 -5.84013367414E-01 +7.64271701346E-01
1.20500000000E+09 -4.19552376641E-01 +8.38887538455E-01 -1.56965479074E-04 -7.59788622173E-05 -1.25144627506E-04 -5.62425231726E-05 -5.81718709992E-01 +7.65028159387E-01
1.21000000000E+09 -4.14761990055E-01 +8.40066962814E-01 -1.26367639456E-04 +5.48995359843E-06 -6.75329448605E-05 -3.90692164328E-06 -5.80023204353E-01 +7.68111276817E-01
1.21500000000E+09 -4.08957239929E-01 +8.41431680622E-01 -7.40876800233E-05 +3.70584057057E-05 -4.66028790128E-05 -6.37574338658E-06 -5.77271002061E-01 +7.72575094081E-01
1.22000000000E+09 -4.01744116733E-01 +8.43390764290E-01 -5.26837322864E-05 +6.86164788818E-05 -2.80980251802E-05 +3.50039027579E-05 -5.73219539903E-01 +7.77974992609E-01
1.22500000000E+09 -3.93354971598E-01 +8.45800421510E-01 -1.97920429944E-05 +1.05005929004E-05 +2.36498211863E-05 +1.95863508597E-05 -5.68021597883E-01 +7.83065807927E-01
1.23000000000E+09 -3.83833303622E-01 +8.48810463499E-01 +1.23229993626E-05 +1.54710031567E-05 -1.36347703529E-05 -5.08800952189E-05 -5.62296810723E-01 +7.87897026162E-01
1.23500000000E+09 -3.74077846733E-01 +8.52143831996E-01 -1.48152645219E-05 -6.94306869251E-05 -2.45369987172E-05 -2.27684012778E-05 -5.56393381000E-01 +7.92274603465E-01
1.24000000000E+09 -3.64474280310E-01 +8.55739488502E-01 -6.06225704436E-05 -4.20249149418E-05 -2.98696794404E-05 -3.29476536304E-05 -5.50472260244E-01 +7.96289344549E-01
1.24500000000E+09 -3.55779309737E-01 +8.59386636855E-01 -7.00586234490E-05 -3.76711571958E-05 +8.17051802872E-06 -1.57631526902E-05 -5.44170539717E-01 +8.00006368898E-01
1.25000000000E+09 -3.47974144299E-01 +8.62575247906E-01 -5.69403151705E-05 -4.78263290561E-05 -5.48301322610E-05 -2.63604225076E-05 -5.37641033416E-01 +8.04232446023E-01
1.25500000000E+09 -3.41297950712E-01 +8.64574047722E-01 -8.15177559180E-05 -2.75175717595E-05 -6.80425016669E-05 -3.57587538144E-05 -5.30626168385E-01 +8.08202242973E-01
1.26000000000E+09 -3.35184584929E-01 +8.66006397550E-01 +4.80078095147E-06 -1.48975065959E-06 -3.52241667575E-05 +2.36565327010E-06 -5.23784527356E-01 +8.12473724075E-01
1.26500000000E+09 -3.29257139889E-01 +8.66682710089E-01 -8.97853042610E-05 +5.61515372243E-06 -4.39781587058E-05 -9.71661060553E-06 -5.16942493187E-01 +8.16552551491E-01
1.27000000000E+09 -3.22901226192E-01 +8.67112434953E-01 -1.82617701146E-05 +3.11101675698E-06 -2.03505470973E-05 +1.13717486040E-05 -5.09984074966E-01 +8.20438954528E-01
1.27500000000E+09 -3.15062737339E-01 +8.67729004852E-01 -6.90538501945E-05 -3.44238584620E-05 -4.15789019638E-05 +1.79689252678E-05 -5.02951098711E-01 +8.24025234262E-01
1.28000000000E+09 -3.05538755299E-01 +8.68616764902E-01 -7.61038469907E-05 +8.13798204514E-06 -1.28767816221E-04 -3.63393860939E-05 -4.95923902927E-01 +8.27523260297E-01
1.28500000000E+09 -2.94127991660E-01 +8.70196853999E-01 -8.61563479921E-05 -3.31591156531E-05 -9.52218784355E-05 +8.59076573331E-06 -4.88584753078E-01 +8.31236496699E-01
1.29000000000E+09 -2.82031746054E-01 +8.72377695218E-01 -7.33571407719E-05 +4.84305570912E-05 -1.17591670214E-04 +3.35781968314E-05 -4.80936149408E-01 +8.34965036865E-01
1.29500000000E+09 -2.69623348145E-01 +8.75149301006E-01 -9.42442877896E-05 +1.50561535720E-05 -3.92059260115E-05 +1.99059148878E-05 -4.73016522512E-01 +8.38527794618E-01
1.30000000000E+09 -2.57557703092E-01 +8.78472806741E-01 -1.08094396389E-04 -2.35593485805E-05 -8.75191170547E-05 +1.28850526059E-05 -4.65000883220E-01 +8.42094157905E-01
1.30500000000E+09 -2.46737435204E-01 +8.81820328491E-01 -8.85743790869E-05 +7.58753953492E-05 -6.91923578028E-05 +4.92600309024E-05 -4.56850661671E-01 +8.45778287711E-01
1.31000000000E+09 -2.37526513280E-01 +8.84590017414E-01 -1.21277614528E-04 +7.26186721928E-05 -1.08503172008E-04 +3.80690909608E-05 -4.48663754059E-01 +8.49133617739E-01
1.31500000000E+09 -2.29874216623E-01 +8.86151342502E-01 -8.93350830119E-05 +1.02512515115E-04 -1.05131287160E-04 +1.83173949405E-04 -4.39748753721E-01 +8.52649093331E-01
1.32000000000E+09 -2.23733210556E-01 +8.87005541072E-01 -6.76565832167E-05 +1.03449089017E-04 -9.01247376764E-05 +1.49079430056E-04 -4.30597908582E-01 +8.56035492130E-01
1.32500000000E+09 -2.18130909975E-01 +8.86725988777E-01 -6.32327162766E-05 +1.50846706194E-04 -5.57555152116E-05 +1.57232685417E-04 -4.20742604462E-01 +8.59406860483E-01
1.33000000000E+09 -2.11565946812E-01 +8.86166699693E-01 -5.30194251545E-05 +1.68723452169E-04 -4.47932925223E-05 +1.60900294641E-04 -4.10917966600E-01 +8.62848517458E-01
1.33500000000E+09 -2.03366954434E-01 +8.85250536970E-01 +3.01425478696E-05 +1.62240908250E-04 +3.34882686750E-05 +1.76414768160E-04 -4.00811958821E-01 +8.66021254633E-01
1.34000000000E+09 -1.92643455592E-01 +8.84422166432E-01 -3.66416442652E-05 +9.03501555966E-05 +6.39626270028E-07 +1.35057609384E-04 -3.90659355710E-01 +8.69328379404E-01
1.34500000000E+09 -1.79551528455E-01 +8.83845194405E-01 -2.75607456246E-05 +1.42580575625E-04 -1.89515024616E-05 +1.01814809378E-04 -3.79775402610E-01 +8.72736033341E-01
1.35000000000E+09 -1.64506171978E-01 +8.83924173653E-01 +3.50959121401E-05 +1.86623509069E-04 -8.30253534623E-06 +1.50289676596E-04 -3.68475119536E-01 +8.75828709729E-01
1.35500000000E+09 -1.48166918212E-01 +8.84412929936E-01 +3.68131459682E-05 +1.77716877942E-04 +1.56144190314E-05 +1.98892859427E-04 -3.56778679003E-01 +8.78608218214E-01
1.36000000000E+09 -1.31690893416E-01 +8.85133961667E-01 -1.12057167677E-05 +1.99431581383E-04 +2.39913552611E-05 +2.10444862777E-04 -3.44834263673E-01 +8.81263648658E-01
1.36500000000E+09 -1.15896042170E-01 +8.85739836543E-01 +6.01723287730E-05 +2.27137819888E-04 +2.23867680630E-05 +2.41742564421E-04 -3.32518700188E-01 +8.83759737402E-01
1.37000000000E+09 -1.01688090911E-01 +8.85679801969E-01 +1.23218579559E-04 +2.99980443265E-04 +1.00505793561E-04 +3.02809987553E-04 -3.19582906477E-01 +8.86175225927E-01
1.37500000000E+09 -8.96823502497E-02 +8.85021293827E-01 +2.78996549247E-04 +2.58115754713E-04 +2.25620085523E-04 +2.79527129931E-04 -3.05860193037E-01 +8.88266973110E-01
1.38000000000E+09 -7.89739229684E-02 +8.83826959491E-01 +2.67221719525E-04 +8.85054954837E-05 +2.14154617550E-04 +1.62286356921E-04 -2.91278403112E-01 +8.90265015506E-01
1.38500000000E+09 -6.82608640729E-02 +8.81797316667E-01 +2.25313891196E-04 +1.24886032596E-04 +2.41209646507E-04 +1.86735456512E-04 -2.75817235003E-01 +8.91968299384E-01
1.39000000000E+09 -5.69120404016E-02 +8.78897303114E-01 +2.17302872230E-04 +1.19160738111E-04 +2.72033229654E-04 +1.67719267114E-04 -2.59734291927E-01 +8.93228244841E-01
1.39500000000E+09 -4.35470294639E-02 +8.74997528390E-01 +2.55484535368E-04 +1.58808084883E-04 +2.95970607709E-04 +1.59018210800E-04 -2.42955158469E-01 +8.93881890722E-01
1.40000000000E+09 -2.75411291998E-02 +8.70156832645E-01 +3.67848897096E-04 +2.07366948210E-04 +3.95770162715E-04 +1.82645375363E-04 -2.25317121217E-01 +8.94328747787E-01
1.40500000000E+09 -9.49702427498E-03 +8.64993709296E-01 +5.07110383951E-04 +7.82012990583E-05 +5.70773681116E-04 +5.54318673113E-05 -2.06459065658E-01 +8.93963383857E-01
1.41000000000E+09 +1.07843408537E-02 +8.59462727674E-01 +5.14402709967E-04 -1.03226833748E-04 +5.13483813473E-04 -8.77830400586E-05 -1.86382200271E-01 +8.93026622716E-01
1.41500000000E+09 +3.26061797792E-02 +8.53561838159E-01 +4.71573208870E-04 -1.47114074574E-04 +5.45517760781E-04 -1.21613684752E-04 -1.64938960339E-01 +8.91366608613E-01
1.42000000000E+09 +5.52279297757E-02 +8.47434468706E-01 +4.61165472958E-04 -3.24042801454E-04 +5.19587761931E-04 -3.20339531324E-04 -1.42368405641E-01 +8.88624854603E-01
1.42500000000E+09 +7.78006399604E-02 +8.39926667832E-01 +2.62163137638E-04 -3.47762198616E-04 +2.76169219924E-04 -4.43892584953E-04 -1.18796712126E-01 +8.85003362140E-01
1.43000000000E+09 +9.92675448833E-02 +8.30841120349E-01 +2.98350714098E-04 -2.40151246875E-04 +2.77415352882E-04 -2.97371531410E-04 -9.40485505598E-02 +8.80277754370E-01
1.43500000000E+09 +1.19727285943E-01 +8.20224286677E-01 +4.22809038301E-04 -3.39939067925E-04 +4.12357512936E-04 -4.00534587812E-04 -6.77934622789E-02 +8.73724785850E-01
1.44000000000E+09 +1.39947782934E-01 +8.07707850119E-01 +4.51427489864E-04 -4.90668435326E-04 +3.96427313677E-04 -5.17547725776E-04 -3.98566555531E-02 +8.65002886365E-01
1.44500000000E+09 +1.60710750715E-01 +7.92834899954E-01 +3.68925687613E-04 -7.72142538016E-04 +3.81446153279E-04 -8.22532010294E-04 -9.86084331555E-03 +8.53425194371E-01
1.45000000000E+09 +1.83205282002E-01 +7.74746685701E-01 +7.98629857230E-05 -8.95329251641E-04 +2.02617462197E-05 -8.91131396600E-04 +2.16781410294E-02 +8.38901464442E-01
1.45500000000E+09 +2.07292575454E-01 +7.53418330253E-01 -1.45641190727E-04 -7.98043271079E-04 -2.55370804952E-04 -8.16920908986E-04 +5.47119194766E-02 +8.21212591205E-01
1.46000000000E+09 +2.33979926898E-01 +7.28938828739E-01 -4.14960860554E-04 -8.24175962493E-04 -4.09573810377E-04 -7.48172610349E-04 +8.89637080990E-02 +7.99559842519E-01
1.46500000000E+09 +2.62818451566E-01 +7.00251275306E-01 -5.74631475494E-04 -3.67829891400E-04 -4.89662142498E-04 -3.77357900516E-04 +1.24637778857E-01 +7.73363111523E-01
1.47000000000E+09 +2.92368455735E-01 +6.67351851838E-01 -9.09996268779E-05 -3.73762150205E-04 -9.72264189638E-05 -4.06653953809E-04 +1.61476617362E-01 +7.40502573965E-01
1.47500000000E+09 +3.21863282799E-01 +6.29616251433E-01 -2.24964553093E-04 -7.67426946841E-04 -2.03920688484E-04 -7.34685161554E-04 +1.98835222467E-01 +7.00360986275E-01
1.48000000000E+09 +3.48946481385E-01 +5.86059707008E-01 -7.67510112462E-04 -8.67063530359E-04 -7.56598735615E-04 -8.64863835883E-04 +2.35365959970E-01 +6.51539991838E-01
1.48500000000E+09 +3.71997766484E-01 +5.36900804820E-01 -8.74608086248E-04 -6.23729863356E-04 -8.72388167840E-04 -6.35373785973E-04 +2.69349704523E-01 +5.93403451382E-01
1.49000000000E+09 +3.90259466469E-01 +4.80460815702E-01 -1.30338044264E-03 -4.41936728921E-04 -1.43007342958E-03 -4.05110381372E-04 +2.97830903599E-01 +5.25119017273E-01
1.49500000000E+09 +4.01381445438E-01 +4.16038537820E-01 -1.45257010670E-03 +3.67939401615E-05 -1.42267442444E-03 +7.06564884755E-05 +3.17817368087E-01 +4.46341304657E-01
1.50000000000E+09 +4.03906779326E-01 +3.42451178267E-01 -1.26723953191E-03 +6.42115744422E-04 -1.27136870862E-03 +6.39567176474E-04 +3.24477264117E-01 +3.57509823071E-01
1.50500000000E+09 +3.94161823307E-01 +2.60075951446E-01 -6.55349906096E-04 +1.01315776904E-03 -6.54882407878E-04 +9.51932017681E-04 +3.13854331076E-01 +2.60827718748E-01
1.51000000000E+09 +3.68932413248E-01 +1.71532650430E-01 -3.36131106703E-04 +3.15947025453E-04 -3.06335913758E-04 +4.06950737817E-04 +2.82516906117E-01 +1.61900319687E-01
1.51500000000E+09 +3.26458434738E-01 +8.16794640860E-02 -8.47529872925E-04 +4.19511629479E-04 -8.54455486208E-04 +4.24515541578E-04 +2.31324390032E-01 +6.52092463354E-02
1.52000000000E+09 +2.63537243070E-01 -3.77941074416E-03 -9.41288132415E-04 +7.98830411076E-04 -9.21130053449E-04 +7.87011267088E-04 +1.57497298663E-01 -2.28449342320E-02
1.52500000000E+09 +1.82901985036E-01 -7.53530467763E-02 -5.82539303841E-04 +1.35608337715E-03 -5.57546271859E-04 +1.37825948651E-03 +6.34883954458E-02 -9.26715478217E-02
1.53000000000E+09 +8.71092896612E-02 -1.28769752262E-01 -4.43164333987E-04 +1.46931644699E-03 -4.37928043424E-04 +1.46898869200E-03 -4.07334328303E-02 -1.39573732931E-01
1.53500000000E+09 -1.85644082066E-02 -1.58627980952E-01 +9.23059532363E-04 +1.77674020668E-03 +9.18470163355E-04 +1.76385282050E-03 -1.50947065442E-01 -1.64797232079E-01
1.54000000000E+09 -1.28446290358E-01 -1.61823476119E-01 +8.76488220467E-04 +5.71460143099E-04 +8.89373410727E-04 +5.58655765039E-04 -2.62321928810E-01 -1.64615852776E-01
1.54500000000E+09 -2.33181709347E-01 -1.40122577211E-01 +5.97594410388E-04 +5.36633727223E-04 +5.84757849114E-04 +5.73755518804E-04 -3.62409386732E-01 -1.43023948757E-01
1.55000000000E+09 -3.27102054398E-01 -9.96565555982E-02 +6.25463674610E-04 +3.51038389345E-04 +6.05046633940E-04 +3.63442160265E-04 -4.49992845860E-01 -1.07356713571E-01
1.55500000000E+09 -4.06957572535E-01 -4.69358831529E-02 +4.62334389227E-04 +3.97115929226E-04 +4.62789478679E-04 +4.75462344513E-04 -5.23423558877E-01 -6.06054630278E-02
1.56000000000E+09 -4.72041404384E-01 +1.13294094912E-02 +7.79583160005E-04 +7.77381147583E-04 +7.46295790208E-04 +8.29665644179E-04 -5.82528023657E-01 -7.80205345267E-03
1.56500000000E+09 -5.23333445290E-01 +7.08153476333E-02 +1.34310854864E-03 +3.53270806880E-04 +1.36706400014E-03 +3.55343220602E-04 -6.28655645954E-01 +4.83877602557E-02
1.57000000000E+09 -5.63006186174E-01 +1.28713993634E-01 +1.45239530584E-03 -5.84850137730E-04 +1.49420817198E-03 -6.00403860144E-04 -6.63659348432E-01 +1.03530102646E-01
