# Hz S RI R 50
! CMT, C1220, 16058040, 17.2.0/1
! Date: 14/08/2018 12:23:50
! Data: Format (Calibration Info)
! Freq                      S11: Re/Im (F2)                       S21: Re/Im (F2)                       S12: Re/Im (F2)                       S22: Re/Im (F2)            
1.00000000000E+09 -6.45699473846E-01 +7.15863233437E-01 -2.15443860471E-05 -3.96202165748E-05 +5.48800699428E-05 +1.56731212494E-05 -7.47934632152E-01 +6.24261868405E-01
1.00500000000E+09 -6.38625757001E-01 +7.20887216098E-01 +2.10580048602E-06 +3.13041304479E-05 +3.05778063009E-05 -1.06042826500E-05 -7.44396765248E-01 +6.28327902098E-01
1.01000000000E+09 -6.32663305263E-01 +7.25421019969E-01 +2.18329047004E-05 -1.34532480004E-05 +1.65090081082E-05 -1.30074086565E-05 -7.40624305679E-01 +6.31927012725E-01
1.01500000000E+09 -6.28581740514E-01 +7.29098331857E-01 +1.89032117238E-05 +1.43262537072E-05 -4.33330106726E-05 +1.72751744071E-05 -7.37540233630E-01 +6.35600315063E-01
1.02000000000E+09 -6.26049019049E-01 +7.32400909222E-01 +4.52724967430E-05 +4.11312660175E-05 -1.78506380528E-05 +1.56956042881E-05 -7.34131665106E-01 +6.39177774580E-01
1.02500000000E+09 -6.24559229894E-01 +7.35050389600E-01 +1.92228095263E-05 -1.86658089689E-05 +2.21789741441E-05 +2.57216344792E-05 -7.30974992395E-01 +6.42943256606E-01
1.03000000000E+09 -6.23313854030E-01 +7.37252731043E-01 +2.11725630491E-06 +1.28919123101E-05 -4.60080675942E-06 -5.07619769468E-05 -7.27761311580E-01 +6.46652461268E-01
1.03500000000E+09 -6.21458957517E-01 +7.39681399090E-01 +8.05378989815E-06 +6.88716701077E-05 -6.49974280934E-05 +1.05009541780E-05 -7.23890326767E-01 +6.50667937614E-01
1.04000000000E+09 -6.18054717458E-01 +7.42366503025E-01 +1.26862801063E-05 +3.10812954393E-06 +9.94382450113E-07 +2.03325521305E-05 -7.20091973662E-01 +6.54110570073E-01
1.04500000000E+09 -6.12817844779E-01 +7.45619437952E-01 +3.75779732220E-05 +2.95605922157E-05 +2.56993771141E-06 +2.39894925464E-05 -7.16530137049E-01 +6.57793956275E-01
1.05000000000E+09 -6.05532295438E-01 +7.49794287865E-01 +1.59367624006E-05 +2.78169406132E-05 -2.39595720739E-05 -7.74748735685E-06 -7.13200011310E-01 +6.61168071520E-01
1.05500000000E+09 -5.96886138697E-01 +7.54441742187E-01 +4.04875639458E-05 -1.18182642791E-05 -2.87936128661E-05 +2.38212356848E-05 -7.09962262667E-01 +6.64626415845E-01
1.06000000000E+09 -5.87438674780E-01 +7.59783463011E-01 +8.76498002951E-06 +6.04049160116E-05 -1.76844392539E-06 +1.50109951375E-05 -7.06593609961E-01 +6.68383574971E-01
1.06500000000E+09 -5.78452737210E-01 +7.64699620135E-01 +4.44121244177E-05 +1.41967708659E-05 +6.79968245124E-05 +1.49183472098E-05 -7.02924770643E-01 +6.72053481397E-01
1.07000000000E+09 -5.70527029852E-01 +7.69174620407E-01 +1.24982935680E-05 +5.54144048481E-05 +2.14691506228E-05 -2.82161752641E-05 -6.98895761376E-01 +6.75797864907E-01
1.07500000000E+09 -5.64308989738E-01 +7.73160245285E-01 +5.29172325675E-05 +5.98063393310E-06 +1.62004532467E-05 -9.69636644696E-06 -6.94740892704E-01 +6.79541842957E-01
1.08000000000E+09 -5.59943892562E-01 +7.76441916154E-01 +1.66491472224E-05 +1.19333598488E-05 +2.60652606240E-05 -1.67540909830E-05 -6.90505577896E-01 +6.83287851950E-01
1.08500000000E+09 -5.57149035295E-01 +7.78851230660E-01 +6.99096973139E-06 +4.12890590932E-06 +3.89000111038E-06 +7.99023012396E-06 -6.86703703005E-01 +6.86944142565E-01
1.09000000000E+09 -5.55222217212E-01 +7.80895821401E-01 +3.76396052773E-05 +3.17094800571E-05 +3.66917856868E-05 -5.88346674707E-06 -6.82917586534E-01 +6.90834787764E-01
1.09500000000E+09 -5.53248675034E-01 +7.82801709598E-01 +6.33075995901E-05 -3.48771977159E-05 +5.34395469463E-05 -7.31379463076E-07 -6.78883968916E-01 +6.94623421575E-01
1.10000000000E+09 -5.50477174682E-01 +7.84748490818E-01 +1.59313879512E-05 -3.21289875057E-05 +6.42801978248E-05 -1.56070687008E-05 -6.74968666819E-01 +6.98454238706E-01
1.10500000000E+09 -5.46288004133E-01 +7.87511706876E-01 +3.51092769795E-05 -6.63203121514E-05 +6.29468014132E-05 -2.54081649116E-05 -6.70684377164E-01 +7.02080235939E-01
1.11000000000E+09 -5.40534196917E-01 +7.90651098130E-01 +3.12932174916E-06 -5.39513430389E-05 -5.31898703153E-05 -5.14018938031E-05 -6.66428404225E-01 +7.05298264290E-01
1.11500000000E+09 -5.33449395182E-01 +7.94409839999E-01 +2.88044514814E-05 -5.92618953655E-05 +5.15760957569E-05 -2.35354215801E-05 -6.62471362567E-01 +7.08674187458E-01
1.12000000000E+09 -5.25345845400E-01 +7.98407650362E-01 +3.76047999774E-05 -9.37499021421E-06 -4.83063318651E-07 +5.31839597077E-06 -6.58295343708E-01 +7.12310282914E-01
1.12500000000E+09 -5.17236048307E-01 +8.02447210340E-01 +1.36842217888E-05 -2.52835782101E-05 +1.24800740651E-05 -2.54332850993E-05 -6.54190291771E-01 +7.16403256362E-01
1.13000000000E+09 -5.09794524516E-01 +8.06124193735E-01 +3.16797717637E-05 -2.74491648989E-05 +2.02283590923E-05 -4.94202121684E-05 -6.49837561026E-01 +7.20031876693E-01
1.13500000000E+09 -5.03360041371E-01 +8.09033570824E-01 +1.78006570542E-05 -4.62843374913E-05 -1.00820075635E-05 -3.25398581827E-05 -6.45319159749E-01 +7.23679944096E-01
1.14000000000E+09 -4.98105041910E-01 +8.11671347182E-01 -4.60631266112E-05 -4.92275556572E-05 -9.42845567586E-06 -3.66492346026E-05 -6.40611575233E-01 +7.27123149542E-01
1.14500000000E+09 -4.94117557844E-01 +8.13196079320E-01 +2.20987470734E-05 -2.42421011344E-05 +2.02350795286E-05 -4.54441526600E-05 -6.36035498822E-01 +7.30585028472E-01
1.15000000000E+09 -4.90277432589E-01 +8.14763819414E-01 -5.52973312489E-06 -3.56073297082E-05 +1.37090058201E-05 -1.23870399245E-05 -6.31366180963E-01 +7.34209724501E-01
1.15500000000E+09 -4.86464710913E-01 +8.16435601281E-01 -1.54127867301E-05 -1.28111025936E-06 +3.21794260693E-05 -9.37859361489E-06 -6.26754548268E-01 +7.38000641182E-01
1.16000000000E+09 -4.81803231251E-01 +8.18257742558E-01 -1.68620474020E-05 +2.62060070079E-05 -4.53393406810E-06 -1.53490539531E-06 -6.21869937261E-01 +7.41893492393E-01
1.16500000000E+09 -4.75815752028E-01 +8.20987444634E-01 +2.35693762107E-05 +2.68825537447E-06 +3.85116620301E-05 -1.38798338245E-05 -6.16906418657E-01 +7.45530519521E-01
1.17000000000E+09 -4.68737098809E-01 +8.23879283884E-01 +6.58407597367E-05 -4.78489478760E-05 -3.28592525556E-05 -1.75836296729E-05 -6.11261401737E-01 +7.48719247620E-01
1.17500000000E+09 -4.60613325336E-01 +8.27149396613E-01 +2.05768265349E-05 -1.60230640490E-05 -4.11449002467E-06 -3.20710659653E-05 -6.05642494130E-01 +7.52015090017E-01
1.18000000000E+09 -4.52415792473E-01 +8.30718569654E-01 +2.70188786558E-06 -2.77200573399E-05 +2.13104700287E-05 -2.42599884415E-05 -6.00120061927E-01 +7.55152044320E-01
1.18500000000E+09 -4.44557241233E-01 +8.34047124411E-01 -3.31777494379E-05 -1.03249237965E-04 -2.15910319498E-05 -1.39357739256E-05 -5.94219071400E-01 +7.58085363901E-01
1.19000000000E+09 -4.37298403882E-01 +8.36809855918E-01 -3.19655310150E-05 -7.93877173467E-05 -7.33186538012E-07 -3.67274272291E-05 -5.87922166364E-01 +7.60616499149E-01
1.19500000000E+09 -4.31301631698E-01 +8.38800737534E-01 -6.14810317909E-06 -1.09782068360E-04 -5.49696893871E-05 -8.99732158690E-05 -5.82050622260E-01 +7.61860507545E-01
1.20000000000E+09 -4.26506622505E-01 +8.39757159853E-01 -8.48456684713E-05 -3.75854324201E-05 -1.08488015191E-04 -7.51515720177E-05 -5.77609865894E-01 +7.62201445859E-01
1.20500000000E+09 -4.22190586007E-01 +8.40889033104E-01 -1.70474877072E-05 -3.07745756475E-05 -9.37332411772E-05 +2.80866238008E-06 -5.75303447035E-01 +7.62979355034E-01
1.21000000000E+09 -4.17484863703E-01 +8.41750343665E-01 -3.28559346011E-05 -6.32828757819E-06 -7.72486381474E-05 +1.26315908396E-05 -5.73464453879E-01 +7.66059566292E-01
1.21500000000E+09 -4.11422969350E-01 +8.43098485151E-01 +1.05104183200E-05 +3.44777102446E-05 -2.48401483537E-05 +7.72615386076E-06 -5.70602714471E-01 +7.70615828792E-01
1.22000000000E+09 -4.04017708370E-01 +8.44788758287E-01 -1.02765173578E-05 -8.96218423243E-06 -3.24860786384E-05 -2.71408125919E-05 -5.66497340013E-01 +7.75787179144E-01
1.22500000000E+09 -3.94592930963E-01 +8.47280401534E-01 -2.16122401153E-06 +3.98751638902E-05 -4.03717683393E-05 -8.56161065030E-06 -5.61259579522E-01 +7.80913797820E-01
1.23000000000E+09 -3.83989052919E-01 +8.50174859584E-01 -6.91105408406E-06 -3.53885966212E-05 -6.15454943295E-05 -4.10772394299E-05 -5.55765045442E-01 +7.85500639281E-01
1.23500000000E+09 -3.73040168907E-01 +8.53748050094E-01 -2.02001375329E-05 -6.99855455816E-06 -4.29153015600E-05 -1.09443375969E-05 -5.49938997917E-01 +7.89757922202E-01
1.24000000000E+09 -3.62224370387E-01 +8.57310541734E-01 -1.35868690451E-08 +2.43500359758E-05 -4.32191728188E-05 +9.22511901890E-06 -5.43896806669E-01 +7.93544621853E-01
1.24500000000E+09 -3.52245533008E-01 +8.61168308612E-01 -5.06373797636E-05 -6.81665819439E-05 -6.03470606172E-05 -3.55356520024E-05 -5.37654217381E-01 +7.97386722619E-01
1.25000000000E+09 -3.43674590839E-01 +8.64334787905E-01 -7.17237373798E-05 -1.81565505903E-05 -4.04164128766E-05 +6.16552708891E-06 -5.31094911396E-01 +8.01777078851E-01
1.25500000000E+09 -3.36969499267E-01 +8.66747185513E-01 -2.62537882462E-05 -2.37584777171E-05 -4.02787993823E-05 -2.42315519644E-05 -5.24193028051E-01 +8.05582430055E-01
1.26000000000E+09 -3.31360291736E-01 +8.68505758776E-01 -1.06691762058E-04 -1.23083822426E-05 -8.86341041686E-05 -1.74472992915E-05 -5.17524298338E-01 +8.09786645623E-01
1.26500000000E+09 -3.26443736053E-01 +8.69600690516E-01 -3.55440120701E-05 +1.26061215820E-06 -9.10872591809E-05 -1.01911501250E-05 -5.10534156785E-01 +8.13664996590E-01
1.27000000000E+09 -3.21389480223E-01 +8.70628200466E-01 -1.02954303307E-04 +3.14759209758E-05 -8.00842333013E-05 +2.15304446240E-05 -5.03772173682E-01 +8.17361374142E-01
1.27500000000E+09 -3.15224744457E-01 +8.71569955616E-01 -9.43628840798E-05 +4.01271220601E-05 -7.18356275340E-05 +1.20937550543E-05 -4.96814480312E-01 +8.20806636792E-01
1.28000000000E+09 -3.07038658872E-01 +8.72948464780E-01 -1.23600465976E-04 +2.29084193534E-05 -1.51797555720E-04 +2.20971469569E-05 -4.89705696521E-01 +8.24416976144E-01
1.28500000000E+09 -2.96511085985E-01 +8.74725814723E-01 -1.02411271462E-04 +3.40336428369E-05 -7.57335424569E-05 +1.15459433144E-04 -4.82310513554E-01 +8.28021701611E-01
1.29000000000E+09 -2.84818243759E-01 +8.77007752247E-01 -4.70941407948E-05 +5.51930972887E-05 -2.94650035672E-05 +3.13902180849E-05 -4.74786836481E-01 +8.31712387238E-01
1.29500000000E+09 -2.72321101161E-01 +8.79870901685E-01 -7.04023386827E-05 +9.33946706494E-05 -2.27133385452E-05 +1.20835439473E-04 -4.67056887160E-01 +8.35237856204E-01
1.30000000000E+09 -2.59854808477E-01 +8.83154876905E-01 -4.49183601137E-05 +3.30261721545E-05 -7.09084889469E-05 +8.48690196142E-05 -4.59295522455E-01 +8.38610782514E-01
1.30500000000E+09 -2.48417000327E-01 +8.86044801127E-01 -6.07329874320E-05 +1.34293653541E-04 -8.37450380290E-05 +1.22482174055E-04 -4.51275630160E-01 +8.42031419128E-01
1.31000000000E+09 -2.38419471897E-01 +8.88368929783E-01 -4.06505491144E-05 +1.14952819952E-04 -4.25423762102E-05 +1.01390967028E-04 -4.42994602411E-01 +8.45551841373E-01
1.31500000000E+09 -2.30515898134E-01 +8.89826154725E-01 +1.88671930245E-06 +1.68244890920E-04 +3.23267585859E-06 +1.32040985162E-04 -4.34285501698E-01 +8.48895732447E-01
1.32000000000E+09 -2.23950294570E-01 +8.90434301525E-01 -4.64693729304E-06 +1.25971220737E-04 +3.99466969873E-05 +9.17297984670E-05 -4.25161022915E-01 +8.52370616806E-01
1.32500000000E+09 -2.17994635565E-01 +8.90218643574E-01 -1.77067764775E-05 +1.19462056002E-04 +6.92960943185E-06 +1.34350535211E-04 -4.15597338057E-01 +8.55718374640E-01
1.33000000000E+09 -2.11395058804E-01 +8.89808044962E-01 +2.02148157001E-05 +1.08280701054E-04 +1.82546159414E-05 +1.19202386583E-04 -4.06082908591E-01 +8.58939218271E-01
1.33500000000E+09 -2.02903266883E-01 +8.88839796514E-01 +5.44316592959E-05 +1.17572514064E-04 +9.68219183956E-05 +1.68386356490E-04 -3.96189211136E-01 +8.62226727124E-01
1.34000000000E+09 -1.91979867475E-01 +8.88031622759E-01 +6.26082246484E-05 +1.20916202937E-04 +6.84194377795E-05 +1.12555330359E-04 -3.86008123260E-01 +8.65530295475E-01
1.34500000000E+09 -1.78535055421E-01 +8.87410351590E-01 +9.44226889068E-05 +4.63422105539E-05 +7.28752076857E-05 +1.17710589258E-04 -3.75163093388E-01 +8.68871858665E-01
1.35000000000E+09 -1.63041307644E-01 +8.87218590443E-01 +5.80607928845E-05 +6.73612506315E-05 +5.78319597289E-05 +5.60924751489E-05 -3.64219825698E-01 +8.71920365054E-01
1.35500000000E+09 -1.46229463389E-01 +8.87366783767E-01 +5.92998377526E-05 +1.04250037314E-04 +5.67010122208E-05 +9.97544459158E-05 -3.52691597942E-01 +8.74789568634E-01
1.36000000000E+09 -1.29560303231E-01 +8.87932651068E-01 +1.16723031103E-04 +9.85140208076E-05 +8.44973290683E-05 +1.28097105883E-04 -3.40855714034E-01 +8.77524202730E-01
1.36500000000E+09 -1.13478650763E-01 +8.88522999844E-01 +8.77345202909E-05 +1.48391158994E-04 +7.91303092622E-05 +4.56239471494E-05 -3.28750375912E-01 +8.80097215236E-01
1.37000000000E+09 -9.89610498343E-02 +8.88478598856E-01 +8.97209167316E-05 +6.97624042297E-05 +4.84151279570E-05 +9.17151817470E-05 -3.15894113167E-01 +8.82295836360E-01
1.37500000000E+09 -8.68052685897E-02 +8.88262829940E-01 +6.65446207372E-05 +1.25499477500E-04 +9.18827333746E-05 +1.44538262530E-04 -3.02262663612E-01 +8.84579155272E-01
1.38000000000E+09 -7.57422290731E-02 +8.87257885532E-01 +1.57209963808E-04 +1.39392947705E-04 +1.35153020701E-04 +1.94891384709E-04 -2.87721772896E-01 +8.86668547180E-01
1.38500000000E+09 -6.49384757583E-02 +8.85592517788E-01 +1.89372009493E-04 +7.82455326492E-05 +2.23103769135E-04 +1.27625808907E-04 -2.72300482207E-01 +8.88618333219E-01
1.39000000000E+09 -5.33818410426E-02 +8.82994888149E-01 +2.00235074010E-04 +1.11775675489E-04 +2.28270567329E-04 +1.18071555943E-04 -2.56466410979E-01 +8.89963328106E-01
1.39500000000E+09 -3.97739804808E-02 +8.79600620162E-01 +2.70031710820E-04 +6.86880732307E-05 +3.28426441821E-04 +4.81341263360E-05 -2.39597963041E-01 +8.90837370918E-01
1.40000000000E+09 -2.33638553275E-02 +8.75282098111E-01 +2.89441378848E-04 -2.80425054014E-05 +3.16320399946E-04 -3.06237486464E-05 -2.22293724229E-01 +8.91363114046E-01
1.40500000000E+09 -5.01410099979E-03 +8.70142852435E-01 +2.07485157460E-04 -1.07131252755E-04 +1.90360174030E-04 -1.35092654316E-04 -2.03592809464E-01 +8.91277376715E-01
1.41000000000E+09 +1.55936474242E-02 +8.64492300144E-01 +1.81887356259E-04 -9.86533540511E-05 +1.91886956015E-04 -8.19916468481E-05 -1.83316928462E-01 +8.90485811498E-01
1.41500000000E+09 +3.74221220221E-02 +8.58790944993E-01 +1.64344927925E-04 -8.51312476326E-05 +1.92557529954E-04 -1.21834188697E-04 -1.61651177008E-01 +8.89013448754E-01
1.42000000000E+09 +6.00327761105E-02 +8.52562241344E-01 +2.61208463461E-04 -4.42489321935E-05 +2.53898910035E-04 -8.61512303363E-06 -1.38919429157E-01 +8.86436227954E-01
1.42500000000E+09 +8.19319145296E-02 +8.45333553145E-01 +3.14860157592E-04 -1.54364131958E-04 +3.47542783978E-04 -2.33611418510E-04 -1.15292758635E-01 +8.82721516490E-01
1.43000000000E+09 +1.02296393683E-01 +8.37067435389E-01 +1.61189325764E-04 -2.25225197681E-04 +1.30624605219E-04 -2.66474354122E-04 -9.04662203511E-02 +8.77937418512E-01
1.43500000000E+09 +1.21954691276E-01 +8.27312247467E-01 +1.70278288985E-04 -2.39892477279E-04 +1.34111653722E-04 -2.49265339490E-04 -6.42296969993E-02 +8.71417861257E-01
1.44000000000E+09 +1.41273769525E-01 +8.16296150430E-01 +6.55279925089E-05 -1.44683471035E-04 +5.57087515455E-05 -1.85647123268E-04 -3.62088226751E-02 +8.62674180872E-01
1.44500000000E+09 +1.62042804400E-01 +8.02634677354E-01 +1.68074789469E-04 -3.04641210685E-05 +1.69716071528E-04 -6.55272313183E-05 -6.14415723466E-03 +8.51358141458E-01
1.45000000000E+09 +1.84816157641E-01 +7.85467015698E-01 +3.29551233309E-04 -1.93628096692E-04 +3.13574415411E-04 -2.05233312349E-04 +2.58264180909E-02 +8.36921709750E-01
1.45500000000E+09 +2.10176015434E-01 +7.64139764956E-01 +1.92650918359E-04 -2.03809363307E-04 +1.92354390279E-04 -2.05520406365E-04 +5.92696289630E-02 +8.19142936366E-01
1.46000000000E+09 +2.38384502076E-01 +7.38141550203E-01 +3.32644043696E-04 -1.47359228480E-04 +3.03021149791E-04 -1.47840151603E-04 +9.41131275188E-02 +7.96832111223E-01
1.46500000000E+09 +2.68080795068E-01 +7.07875596729E-01 +3.90972132349E-04 -3.79206993699E-04 +3.35349231381E-04 -3.83209983269E-04 +1.29464958866E-01 +7.70251586672E-01
1.47000000000E+09 +2.99674920036E-01 +6.73209537426E-01 +4.60403289825E-04 -4.13800755062E-04 +4.63486498833E-04 -3.45244943884E-04 +1.66538046039E-01 +7.36698381880E-01
1.47500000000E+09 +3.30843053413E-01 +6.33129746801E-01 +3.65597105185E-04 -7.89921871096E-04 +3.80502865431E-04 -7.49226289129E-04 +2.03500118313E-01 +6.95495438949E-01
1.48000000000E+09 +3.59687859993E-01 +5.87496735855E-01 +1.77584929820E-04 -7.21897478565E-04 +2.18163277326E-04 -7.45058330099E-04 +2.39735561597E-01 +6.46139464276E-01
1.48500000000E+09 +3.84619420761E-01 +5.35719070145E-01 +3.49705188960E-04 -8.18580708530E-04 +3.06260025225E-04 -8.23655832891E-04 +2.73753006924E-01 +5.87573428509E-01
1.49000000000E+09 +4.03717746316E-01 +4.76903581344E-01 +4.46737667124E-04 -1.21612207709E-03 +4.06885086669E-04 -1.21913971332E-03 +3.01846870137E-01 +5.17433084547E-01
1.49500000000E+09 +4.15043310769E-01 +4.10349926656E-01 +2.29704035196E-04 -1.98743963346E-03 +1.50878099057E-04 -1.90125488922E-03 +3.19509469561E-01 +4.38004249701E-01
1.50000000000E+09 +4.16691447114E-01 +3.35540401414E-01 -8.81167822378E-04 -2.48050015480E-03 -8.53634116193E-04 -2.30901519888E-03 +3.24200454967E-01 +3.48912621329E-01
1.50500000000E+09 +4.06569840277E-01 +2.53197410114E-01 -2.02013619915E-03 -2.26735426483E-03 -1.85444784899E-03 -2.25875785993E-03 +3.12360384070E-01 +2.52951898733E-01
1.51000000000E+09 +3.81675271582E-01 +1.63840019423E-01 -3.03079047920E-03 -1.31108286021E-03 -2.87700914195E-03 -1.45891861119E-03 +2.79800748065E-01 +1.53505090413E-01
1.51500000000E+09 +3.38413051959E-01 +7.21185678794E-02 -3.27402361495E-03 -6.21090008817E-04 -3.27493250950E-03 -7.39985335545E-04 +2.25864851714E-01 +5.64987989506E-02
1.52000000000E+09 +2.74937223751E-01 -1.51089241805E-02 -3.67867237484E-03 +9.07273008320E-04 -3.76907641660E-03 +8.51199460958E-04 +1.48871212388E-01 -2.93863400041E-02
1.52500000000E+09 +1.91441151361E-01 -9.04468421340E-02 -2.63736358236E-03 +1.67298047911E-03 -2.68515841261E-03 +1.65570638332E-03 +5.33679435965E-02 -9.69822740194E-02
1.53000000000E+09 +9.08266099502E-02 -1.44512313719E-01 -2.32330439325E-03 +1.89016103504E-03 -2.32596386409E-03 +1.84619990994E-03 -5.31571354166E-02 -1.40523000562E-01
1.53500000000E+09 -1.81231809363E-02 -1.73060518051E-01 -2.45469500291E-03 +2.55084594951E-03 -2.52525807352E-03 +2.50437291840E-03 -1.64336690259E-01 -1.60176920117E-01
1.54000000000E+09 -1.29435178166E-01 -1.75435593660E-01 -1.78234191167E-03 +3.90659134507E-03 -1.81669149161E-03 +3.85575199246E-03 -2.72425638729E-01 -1.56651936159E-01
1.54500000000E+09 -2.35943730268E-01 -1.53701532829E-01 +1.28281043143E-04 +4.76211438556E-03 -8.14548054729E-06 +4.70894179434E-03 -3.70993302344E-01 -1.32227768079E-01
1.55000000000E+09 -3.33564482026E-01 -1.12481609168E-01 +2.02376450905E-03 +3.73733492997E-03 +1.84279094833E-03 +3.82704734986E-03 -4.54980661259E-01 -9.44901606732E-02
1.55500000000E+09 -4.16424462106E-01 -5.62002154243E-02 +2.64421105739E-03 +2.54723912958E-03 +2.54034279543E-03 +2.70779162797E-03 -5.25534470771E-01 -4.74948980248E-02
1.56000000000E+09 -4.83243691376E-01 +5.78448812736E-03 +2.75117925535E-03 +1.39264563628E-03 +2.84332122020E-03 +1.60093274318E-03 -5.82307843066E-01 +6.00648295775E-03
1.56500000000E+09 -5.35229169175E-01 +6.96303607131E-02 +2.33804292241E-03 +8.66767027049E-04 +2.53233247200E-03 +9.50789742665E-04 -6.25846646104E-01 +6.19261756916E-02
1.57000000000E+09 -5.74310775234E-01 +1.31445239002E-01 +2.39076426905E-03 +3.86797532876E-04 +2.56195556763E-03 +3.55427552886E-04 -6.58746542797E-01 +1.16868654650E-01
