# Hz S RI R 50
! CMT, C1220, 16058040, 17.2.0/1
! Date: 14/08/2018 12:58:08
! Data: Format (Calibration Info)
! Freq                      S11: Re/Im (F2)                       S21: Re/Im (F2)                       S12: Re/Im (F2)                       S22: Re/Im (F2)            
1.00000000000E+09 -6.47030627366E-01 +7.11444886264E-01 -3.76424851711E-05 +3.25636935284E-05 -2.35738167713E-05 +1.22307519914E-05 -7.19200622388E-01 +6.45650776795E-01
1.00500000000E+09 -6.40404652144E-01 +7.16306121909E-01 -1.44224183072E-05 -2.39051740937E-05 -2.03411407966E-05 +1.93111890757E-05 -7.15364075244E-01 +6.49699994896E-01
1.01000000000E+09 -6.34730410130E-01 +7.20557994049E-01 +8.06482106669E-06 +4.37152767949E-05 +2.78400600911E-05 +8.41806534721E-05 -7.11723942076E-01 +6.53245366337E-01
1.01500000000E+09 -6.30038328497E-01 +7.24435272068E-01 +2.13536608499E-05 -4.02470097545E-06 +3.16975379413E-05 +3.09405785446E-05 -7.08396115279E-01 +6.56692488347E-01
1.02000000000E+09 -6.26028624509E-01 +7.27950990838E-01 +1.00060996181E-06 +7.12575894799E-05 -4.54284775941E-05 +4.97337236463E-05 -7.04767701767E-01 +6.60040647299E-01
1.02500000000E+09 -6.22560946646E-01 +7.31300225056E-01 +1.75146609911E-05 +6.41353150929E-05 +2.80596918151E-06 -5.73872643288E-06 -7.01704109163E-01 +6.63518808889E-01
1.03000000000E+09 -6.19566618467E-01 +7.34209782310E-01 +2.90668178935E-05 +9.91265289772E-06 +8.28132568895E-06 +7.05077810228E-05 -6.97969279125E-01 +6.67434126379E-01
1.03500000000E+09 -6.16084664620E-01 +7.37083672341E-01 +7.80256727349E-05 +2.40363353143E-05 +8.31251848265E-07 +3.80990435507E-05 -6.94059701915E-01 +6.71266567757E-01
1.04000000000E+09 -6.11476153058E-01 +7.40402902399E-01 -3.60762476729E-05 +3.53304322275E-05 -1.36354983113E-05 +2.83610350967E-05 -6.89895904078E-01 +6.74761221134E-01
1.04500000000E+09 -6.05875584237E-01 +7.43887146417E-01 +2.44250406539E-05 +1.57909249272E-06 +1.10154958291E-05 -6.73960183058E-06 -6.86263885051E-01 +6.78153617997E-01
1.05000000000E+09 -5.99125928971E-01 +7.47969537846E-01 +3.96049380593E-05 +5.81287148928E-06 -2.95593823322E-05 +8.93100757995E-06 -6.82549759167E-01 +6.81485917403E-01
1.05500000000E+09 -5.91685238412E-01 +7.52273270239E-01 +1.57026559982E-05 +2.13177515230E-05 +7.76659963700E-06 +1.84960770431E-05 -6.79105986667E-01 +6.85019768209E-01
1.06000000000E+09 -5.83566411690E-01 +7.56840555824E-01 -5.82719558243E-07 -2.17748232594E-06 +1.10026574441E-05 +7.16657592640E-06 -6.75708095616E-01 +6.88694862744E-01
1.06500000000E+09 -5.75781733995E-01 +7.61374271218E-01 +7.21789666760E-05 +3.07107669695E-05 +5.33125166514E-05 +1.58564414230E-05 -6.71739539186E-01 +6.92381693557E-01
1.07000000000E+09 -5.68717395459E-01 +7.65493088011E-01 -1.31156658514E-05 -8.21653351483E-06 +2.27454777337E-06 +3.31360319160E-05 -6.67415292050E-01 +6.95995307464E-01
1.07500000000E+09 -5.62702490972E-01 +7.69152311189E-01 +1.08396109889E-05 +5.43858455877E-05 -2.67421823925E-06 +1.90074044220E-05 -6.62836794825E-01 +6.99422316353E-01
1.08000000000E+09 -5.57878515435E-01 +7.72555399118E-01 +3.49362414224E-05 +2.61556753886E-05 +5.35946456863E-05 +1.16523552081E-05 -6.58876874465E-01 +7.03059673553E-01
1.08500000000E+09 -5.54042514619E-01 +7.75208400918E-01 +8.23305695711E-06 +6.34179199090E-05 +5.44343395387E-05 +2.79194783714E-05 -6.54856345675E-01 +7.06510160685E-01
1.09000000000E+09 -5.50650641458E-01 +7.77518068004E-01 +3.03527767052E-05 +1.64070794126E-05 +8.29739001980E-05 -2.15109994918E-05 -6.50957262770E-01 +7.10252355300E-01
1.09500000000E+09 -5.48041498202E-01 +7.79667125110E-01 +3.35223504355E-05 +3.69049935385E-05 +5.14307548245E-05 +3.21807807547E-05 -6.47030665843E-01 +7.13842165776E-01
1.10000000000E+09 -5.44423825814E-01 +7.81802063920E-01 +5.82782071625E-05 -1.05056870972E-05 +4.78849753585E-05 +1.11338742370E-04 -6.42807539649E-01 +7.17520139076E-01
1.10500000000E+09 -5.40020893660E-01 +7.84480333279E-01 -1.84977402601E-06 +2.02218236747E-05 +4.82560541329E-05 +2.91988844627E-05 -6.38363716436E-01 +7.20812746829E-01
1.11000000000E+09 -5.34812400786E-01 +7.87409662645E-01 +2.66131926758E-05 -8.76768899130E-06 +5.31803450171E-05 +2.54580150046E-05 -6.33958434475E-01 +7.24025944446E-01
1.11500000000E+09 -5.28748546337E-01 +7.91027702397E-01 +6.42442435849E-05 +3.08700530163E-05 +4.87526278896E-05 +5.00051764394E-05 -6.29980920170E-01 +7.27126891845E-01
1.12000000000E+09 -5.21737298427E-01 +7.94455988517E-01 +4.26667718832E-05 +2.00269726052E-05 +3.28657994849E-05 -1.35160842061E-05 -6.26023463591E-01 +7.30650278648E-01
1.12500000000E+09 -5.14436816749E-01 +7.98151643891E-01 +5.20857608480E-05 +6.22138028200E-06 +2.07008755013E-05 -3.49309813818E-05 -6.21309168657E-01 +7.34394227247E-01
1.13000000000E+09 -5.07249521926E-01 +8.01313188271E-01 +5.08893212519E-05 +1.13695168856E-05 +5.28200002316E-05 -9.40466864050E-06 -6.16831297686E-01 +7.37943887540E-01
1.13500000000E+09 -5.00383875070E-01 +8.03827453681E-01 +7.79114363708E-05 +3.45173665187E-05 +1.03200368554E-04 -1.77837832681E-05 -6.11884726304E-01 +7.41778269206E-01
1.14000000000E+09 -4.94262886590E-01 +8.06210224357E-01 +8.90230391706E-05 -6.40626823814E-06 +4.83791981614E-05 -1.29308371183E-05 -6.07008280917E-01 +7.44994312847E-01
1.14500000000E+09 -4.88775461795E-01 +8.07807949144E-01 +8.70370258104E-05 -2.30447424079E-05 +1.05870461293E-04 -1.66707932678E-05 -6.02162063976E-01 +7.48202684884E-01
1.15000000000E+09 -4.83765834218E-01 +8.09538633534E-01 +8.75068583380E-05 -2.29458175507E-05 +6.15585416969E-05 -5.12991533779E-05 -5.97339234090E-01 +7.51851083055E-01
1.15500000000E+09 -4.78797038527E-01 +8.11258440107E-01 +7.73923270895E-05 -8.41034926439E-05 +8.76475525506E-05 +3.26406982333E-07 -5.92374256355E-01 +7.55414365279E-01
1.16000000000E+09 -4.73590405076E-01 +8.13114652687E-01 +4.02771857791E-05 -2.96902207620E-05 +6.71312205760E-05 -4.92463260762E-05 -5.87400875098E-01 +7.59057570339E-01
1.16500000000E+09 -4.67802252746E-01 +8.15682583878E-01 +9.84575669066E-05 -2.07156759103E-05 +1.54437047045E-04 -1.95495160176E-05 -5.82326595270E-01 +7.62553928508E-01
1.17000000000E+09 -4.61359075728E-01 +8.18573730350E-01 +6.68102872754E-05 -5.24201017568E-05 +8.54398669714E-05 -4.12417433953E-05 -5.76814909101E-01 +7.65707783653E-01
1.17500000000E+09 -4.54407349728E-01 +8.21556345852E-01 +9.90875769593E-05 -4.10305808233E-05 +8.34710984742E-05 -6.85013648995E-05 -5.71040358255E-01 +7.68482748827E-01
1.18000000000E+09 -4.47010661211E-01 +8.24793637210E-01 +1.61615066171E-04 -6.32938513119E-05 +1.05955086789E-04 -7.03945414611E-05 -5.65579084525E-01 +7.71459504132E-01
1.18500000000E+09 -4.39354777436E-01 +8.27740771823E-01 +1.08046534292E-04 -1.19621006579E-04 +8.32001032538E-05 -1.01530791052E-04 -5.59692853697E-01 +7.74212614338E-01
1.19000000000E+09 -4.31788331754E-01 +8.30172111597E-01 +9.81811599856E-05 -1.72883940139E-04 +9.83834240854E-05 -1.94021096882E-04 -5.53488600756E-01 +7.76658994035E-01
1.19500000000E+09 -4.24351290683E-01 +8.32043895215E-01 +7.25238719321E-05 -2.29767461564E-04 +1.21725703892E-04 -2.01714943381E-04 -5.47586939431E-01 +7.77602150193E-01
1.20000000000E+09 -4.17557512774E-01 +8.32958214739E-01 -4.66220496546E-06 -2.59036480538E-04 -4.41174950652E-07 -2.53754300963E-04 -5.42936172977E-01 +7.77596650972E-01
1.20500000000E+09 -4.11141485679E-01 +8.33983530253E-01 -7.82480305701E-05 -2.47353174178E-04 -8.59342861417E-05 -2.01310033937E-04 -5.40626967158E-01 +7.78359506134E-01
1.21000000000E+09 -4.04634757393E-01 +8.35209127435E-01 -5.17644853625E-05 -1.25206928603E-04 -1.19414441846E-04 -8.24517056992E-05 -5.38424065400E-01 +7.81471952017E-01
1.21500000000E+09 -3.97413418453E-01 +8.36903532069E-01 -5.07014404459E-05 -1.31374984500E-04 -3.99085709259E-05 -8.51667765643E-05 -5.35283564718E-01 +7.85869466184E-01
1.22000000000E+09 -3.89854666961E-01 +8.38751292039E-01 -4.29566247695E-05 -9.53140408389E-05 -7.83544709887E-06 -7.35324261068E-05 -5.30818482168E-01 +7.90943356394E-01
1.22500000000E+09 -3.81510589861E-01 +8.41308966712E-01 +8.34406094145E-06 -1.27824489034E-04 -2.72117814648E-05 -1.27860502583E-04 -5.25547889174E-01 +7.95809158603E-01
1.23000000000E+09 -3.73146201623E-01 +8.44130405022E-01 -4.80437237646E-05 -1.62870971605E-04 -3.40951838417E-05 -1.50756493932E-04 -5.19789275444E-01 +8.00187845282E-01
1.23500000000E+09 -3.64829720967E-01 +8.47200931439E-01 -8.87874597293E-06 -1.52767210321E-04 -6.55519877765E-05 -7.01898687029E-05 -5.13918654053E-01 +8.04064623855E-01
1.24000000000E+09 -3.56624367597E-01 +8.50342086470E-01 -5.99911291755E-05 -1.44251521809E-04 -3.48591308592E-05 -1.54883463773E-04 -5.07636587207E-01 +8.07612202457E-01
1.24500000000E+09 -3.48806759407E-01 +8.53586952525E-01 -9.49476262260E-05 -1.45948396110E-04 -3.72018653937E-05 -1.38067995981E-04 -5.01412115201E-01 +8.11210480519E-01
1.25000000000E+09 -3.41293796772E-01 +8.56268479278E-01 -9.77185929890E-05 -1.13484493148E-04 -9.87726998523E-05 -1.75171084128E-04 -4.94888864271E-01 +8.15000694674E-01
1.25500000000E+09 -3.33829334089E-01 +8.58003284417E-01 -1.03757227920E-04 -1.90376903533E-04 -1.10724036642E-04 -1.98431871661E-04 -4.88019610246E-01 +8.18661654151E-01
1.26000000000E+09 -3.26348726366E-01 +8.59224673344E-01 -1.26015051504E-04 -1.92306762135E-04 -1.09286848925E-04 -2.14113140237E-04 -4.81280592864E-01 +8.22522313708E-01
1.26500000000E+09 -3.18750887786E-01 +8.59756084254E-01 -1.39205789463E-04 -2.19347729738E-04 -1.67054540292E-04 -2.08427443632E-04 -4.74315313304E-01 +8.25949113745E-01
1.27000000000E+09 -3.10664972736E-01 +8.60169074447E-01 -1.92492365776E-04 -2.14245467021E-04 -2.11032121728E-04 -2.19072409956E-04 -4.67386700322E-01 +8.29621244852E-01
1.27500000000E+09 -3.01768310109E-01 +8.60644448625E-01 -3.18351622277E-04 -1.84147691361E-04 -2.43697479696E-04 -2.68431500199E-04 -4.60271470971E-01 +8.32733110907E-01
1.28000000000E+09 -2.91709193540E-01 +8.61753669360E-01 -3.25370647766E-04 -1.87789937812E-04 -3.39298499986E-04 -1.79981728477E-04 -4.53258996122E-01 +8.36011869674E-01
1.28500000000E+09 -2.80739854804E-01 +8.63071737817E-01 -3.45213660346E-04 -1.24457932269E-04 -3.45222890094E-04 -1.41431773204E-04 -4.45605156049E-01 +8.39507400931E-01
1.29000000000E+09 -2.69858928778E-01 +8.64856296195E-01 -3.50356417801E-04 -1.02610019025E-04 -4.02666540068E-04 -1.40346037877E-04 -4.38097953064E-01 +8.42879984168E-01
1.29500000000E+09 -2.59124729450E-01 +8.67245585883E-01 -3.93256363798E-04 -1.54278276438E-04 -4.23603981555E-04 -7.55607205627E-05 -4.30223081792E-01 +8.45950476043E-01
1.30000000000E+09 -2.48972308498E-01 +8.70119785022E-01 -4.75474127033E-04 -9.02910162566E-05 -4.45370448610E-04 -5.92468445043E-05 -4.22490991163E-01 +8.49130727071E-01
1.30500000000E+09 -2.39572456321E-01 +8.72838417513E-01 -5.52086456764E-04 -8.73108022727E-05 -4.76572446521E-04 -3.78073737482E-05 -4.14294354208E-01 +8.52230869502E-01
1.31000000000E+09 -2.30692765857E-01 +8.74952219128E-01 -6.58126289516E-04 +1.00627361753E-04 -5.57846366923E-04 +4.49834387065E-05 -4.06209636679E-01 +8.55274877241E-01
1.31500000000E+09 -2.22722206374E-01 +8.76427097102E-01 -5.54516842723E-04 +1.69188698742E-04 -5.47310147443E-04 +1.82849357644E-04 -3.97359573882E-01 +8.58395146877E-01
1.32000000000E+09 -2.15214627872E-01 +8.76587905105E-01 -5.28600447693E-04 +2.00768566716E-04 -5.74537207471E-04 +2.51728720192E-04 -3.88306847529E-01 +8.61301803549E-01
1.32500000000E+09 -2.07769737390E-01 +8.76194237329E-01 -5.54774263884E-04 +2.22803900748E-04 -5.83500400674E-04 +2.78381864010E-04 -3.79077093679E-01 +8.64325378469E-01
1.33000000000E+09 -1.99460762860E-01 +8.75521804933E-01 -6.34519403148E-04 +3.18582287483E-04 -5.70002138799E-04 +3.62599671996E-04 -3.69617448702E-01 +8.67080220828E-01
1.33500000000E+09 -1.89727667804E-01 +8.74708443295E-01 -6.62782208450E-04 +4.46175511865E-04 -5.67752729524E-04 +4.26395296201E-04 -3.59939432007E-01 +8.69843720427E-01
1.34000000000E+09 -1.78403261903E-01 +8.74011596040E-01 -6.15339569388E-04 +5.38803056237E-04 -5.59212370510E-04 +5.45810551262E-04 -3.49936072970E-01 +8.72654635094E-01
1.34500000000E+09 -1.65571445553E-01 +8.73522536649E-01 -5.21525530018E-04 +6.15486689057E-04 -5.77536318908E-04 +6.17739685514E-04 -3.39229273909E-01 +8.75517619082E-01
1.35000000000E+09 -1.51444497440E-01 +8.73625856026E-01 -4.58136440122E-04 +7.01188056331E-04 -4.84972249877E-04 +6.91383919724E-04 -3.28434845803E-01 +8.78094351512E-01
1.35500000000E+09 -1.36596056415E-01 +8.73904781797E-01 -4.94010736794E-04 +7.61372558099E-04 -4.99437178760E-04 +7.71581544010E-04 -3.16826129705E-01 +8.80410317448E-01
1.36000000000E+09 -1.21514381462E-01 +8.74464253651E-01 -4.47949742894E-04 +9.16249714162E-04 -4.17127058274E-04 +8.46659269508E-04 -3.05434443125E-01 +8.82511160010E-01
1.36500000000E+09 -1.06575420829E-01 +8.74472470290E-01 -4.11604949809E-04 +9.95219901579E-04 -3.69705461341E-04 +9.43411816487E-04 -2.93532357096E-01 +8.84541609047E-01
1.37000000000E+09 -9.21832422533E-02 +8.73562389408E-01 -3.01847707142E-04 +1.22511996115E-03 -3.44863439946E-04 +1.11431101810E-03 -2.81081019691E-01 +8.86506861284E-01
1.37500000000E+09 -7.91406497579E-02 +8.71937197550E-01 -6.63421301280E-05 +1.33700864541E-03 -2.09441147505E-04 +1.25078669200E-03 -2.67499687023E-01 +8.88316070821E-01
1.38000000000E+09 -6.68854289128E-02 +8.69367087080E-01 +3.56456878775E-05 +1.33295038471E-03 -1.40859261037E-04 +1.36720670597E-03 -2.53229814732E-01 +8.89719637327E-01
1.38500000000E+09 -5.45674915084E-02 +8.66348048490E-01 +1.43843771179E-04 +1.44698412426E-03 +3.04464519143E-05 +1.60539391224E-03 -2.38185129057E-01 +8.91057041328E-01
1.39000000000E+09 -4.18108318987E-02 +8.62545060698E-01 +2.68566779859E-04 +1.56373257371E-03 +2.99070346205E-04 +1.77441318160E-03 -2.22841854425E-01 +8.92048719070E-01
1.39500000000E+09 -2.78912850441E-02 +8.58670727590E-01 +4.44890903041E-04 +1.68132314511E-03 +6.69789158014E-04 +1.80041180744E-03 -2.06898541703E-01 +8.92337095795E-01
1.40000000000E+09 -1.22666129224E-02 +8.53959096482E-01 +6.97907610730E-04 +1.86448579927E-03 +8.64850057382E-04 +1.85036398352E-03 -1.90120746366E-01 +8.92194523799E-01
1.40500000000E+09 +4.24582782809E-03 +8.49321973083E-01 +1.16806679472E-03 +1.97534586018E-03 +1.24477548268E-03 +1.86903516256E-03 -1.72277937075E-01 +8.91496184471E-01
1.41000000000E+09 +2.20870894091E-02 +8.44441420697E-01 +1.60127840600E-03 +1.77499194477E-03 +1.58084371754E-03 +1.80605010899E-03 -1.52969515312E-01 +8.90382563961E-01
1.41500000000E+09 +4.12782245856E-02 +8.39663389951E-01 +1.87804755489E-03 +1.62466842513E-03 +1.86734033177E-03 +1.78524674321E-03 -1.32131613758E-01 +8.88281575034E-01
1.42000000000E+09 +6.18644656162E-02 +8.33928680620E-01 +2.15215115000E-03 +1.63016844552E-03 +2.38732228897E-03 +1.77498874824E-03 -1.10202863972E-01 +8.85212425741E-01
1.42500000000E+09 +8.28887703737E-02 +8.26459203355E-01 +2.50132320725E-03 +1.52250544185E-03 +2.85493831110E-03 +1.55335411999E-03 -8.76238372345E-02 +8.81004668273E-01
1.43000000000E+09 +1.03982742720E-01 +8.16729906570E-01 +3.00352144996E-03 +1.53672008834E-03 +3.39479310151E-03 +1.34004522985E-03 -6.40736113904E-02 +8.75870640459E-01
1.43500000000E+09 +1.24814315181E-01 +8.04599227284E-01 +3.94109234029E-03 +1.15931084433E-03 +4.14325011051E-03 +7.91446076603E-04 -3.88854929590E-02 +8.68858632189E-01
1.44000000000E+09 +1.45955262244E-01 +7.90839909505E-01 +4.55530866519E-03 +2.03636833044E-04 +4.61606628295E-03 -1.29097980791E-04 -1.22041786694E-02 +8.59713260071E-01
1.44500000000E+09 +1.68395348752E-01 +7.74507271001E-01 +4.62137225385E-03 -8.03305121762E-04 +4.66267278205E-03 -1.03724997046E-03 +1.63622181914E-02 +8.48207711172E-01
1.45000000000E+09 +1.92040301593E-01 +7.55433417102E-01 +4.54736135637E-03 -1.32865727812E-03 +4.63647153112E-03 -1.63189070719E-03 +4.64825304701E-02 +8.33588876905E-01
1.45500000000E+09 +2.17103479736E-01 +7.33732862646E-01 +4.89586267312E-03 -1.92346229657E-03 +4.73809969469E-03 -2.34810958929E-03 +7.77864572350E-02 +8.16266531030E-01
1.46000000000E+09 +2.43514711610E-01 +7.09323680314E-01 +5.25259062295E-03 -2.81030366644E-03 +4.80206056223E-03 -3.10131597037E-03 +1.10914401458E-01 +7.95170844288E-01
1.46500000000E+09 +2.71382060955E-01 +6.82141273994E-01 +5.54102601185E-03 -4.05139556751E-03 +4.94748196822E-03 -4.01437159859E-03 +1.44902944403E-01 +7.68884040372E-01
1.47000000000E+09 +3.00815425398E-01 +6.51288549932E-01 +5.67901614399E-03 -5.90546376134E-03 +5.19038576539E-03 -5.41781159923E-03 +1.79753330215E-01 +7.35996226874E-01
1.47500000000E+09 +3.30321254810E-01 +6.14307237782E-01 +4.56817336418E-03 -8.08945171479E-03 +4.72200599293E-03 -7.57939407661E-03 +2.14302168164E-01 +6.95954940579E-01
1.48000000000E+09 +3.57743708983E-01 +5.70396025117E-01 +2.91541615212E-03 -9.47612818351E-03 +3.27969956944E-03 -9.45602884562E-03 +2.48419808915E-01 +6.48334461918E-01
1.48500000000E+09 +3.80934297070E-01 +5.18266476310E-01 +1.48601033187E-03 -1.07836730117E-02 +1.37703308527E-03 -1.10884925376E-02 +2.80254134833E-01 +5.91783710923E-01
1.49000000000E+09 +3.97831755767E-01 +4.58529758728E-01 -7.64376658433E-04 -1.24574354425E-02 -1.31203858707E-03 -1.24215516736E-02 +3.07129068446E-01 +5.25233634324E-01
1.49500000000E+09 +4.07498516008E-01 +3.91289134426E-01 -4.42396265333E-03 -1.35840677104E-02 -4.71397907648E-03 -1.27975790792E-02 +3.25002694791E-01 +4.48004392594E-01
1.50000000000E+09 +4.08477129854E-01 +3.14861026080E-01 -8.26918261433E-03 -1.30949430700E-02 -7.77206920135E-03 -1.22949642944E-02 +3.30035652772E-01 +3.61362487138E-01
1.50500000000E+09 +3.96518644948E-01 +2.30593213916E-01 -1.24031724910E-02 -1.17269808197E-02 -1.14708558321E-02 -1.16247322122E-02 +3.18384955683E-01 +2.66702740755E-01
1.51000000000E+09 +3.69483744862E-01 +1.42217915144E-01 -1.61833812766E-02 -8.37880873816E-03 -1.56529227040E-02 -8.93061718024E-03 +2.85973727607E-01 +1.67646974907E-01
1.51500000000E+09 +3.23531369237E-01 +5.26494485546E-02 -1.90158346460E-02 -4.44194629686E-03 -1.90001642443E-02 -4.96212488843E-03 +2.30025990135E-01 +7.26425173746E-02
1.52000000000E+09 +2.57249337818E-01 -2.83135450427E-02 -2.10391341826E-02 +6.89862892462E-04 -2.12655035889E-02 +4.04440392087E-04 +1.52504079352E-01 -1.02214101043E-02
1.52500000000E+09 +1.73963473712E-01 -9.54843308101E-02 -2.12037275348E-02 +8.27454053774E-03 -2.14516783967E-02 +8.18008914116E-03 +5.92171072386E-02 -7.56764118832E-02
1.53000000000E+09 +7.67384788845E-02 -1.43616739169E-01 -1.65778734701E-02 +1.45354428656E-02 -1.67021224274E-02 +1.46179066699E-02 -4.95780627840E-02 -1.18645031115E-01
1.53500000000E+09 -2.95707453403E-02 -1.69023948274E-01 -1.16651420145E-02 +1.79675539086E-02 -1.16768273402E-02 +1.79633335304E-02 -1.60628838275E-01 -1.34980850406E-01
1.54000000000E+09 -1.40112788615E-01 -1.69527366449E-01 -6.17497710438E-03 +1.98705916334E-02 -6.21622183255E-03 +1.96141374104E-02 -2.69601346481E-01 -1.28291378324E-01
1.54500000000E+09 -2.44729893913E-01 -1.45146990531E-01 +1.72900676610E-04 +2.02908208439E-02 -2.83292186716E-04 +2.00110420485E-02 -3.67648236720E-01 -1.00036056691E-01
1.55000000000E+09 -3.37828602791E-01 -1.03320691623E-01 +5.12011552353E-03 +1.75061924761E-02 +4.43272818302E-03 +1.76715357646E-02 -4.49982829640E-01 -5.79430869583E-02
1.55500000000E+09 -4.16023233591E-01 -4.86107210309E-02 +8.33783566332E-03 +1.47826775417E-02 +7.80904032162E-03 +1.54141734285E-02 -5.17519376639E-01 -7.39016341064E-03
1.56000000000E+09 -4.77525022438E-01 +1.01089794741E-02 +1.11089360890E-02 +1.13305385136E-02 +1.12116625999E-02 +1.22314302643E-02 -5.70680880410E-01 +4.79831885856E-02
1.56500000000E+09 -5.26748812528E-01 +6.98487229411E-02 +1.19057605646E-02 +7.29602526473E-03 +1.24658912641E-02 +7.97078378592E-03 -6.11955965323E-01 +1.05066061594E-01
1.57000000000E+09 -5.63986870955E-01 +1.29583515123E-01 +1.15733647200E-02 +4.46272356948E-03 +1.22889647822E-02 +4.67242478375E-03 -6.41809338922E-01 +1.61628625593E-01
