# Hz S RI R 50
! CMT, C1220, 16058040, 17.2.0/1
! Date: 14/08/2018 11:51:09
! Data: Format (Calibration Info)
! Freq                      S11: Re/Im (F2)                       S21: Re/Im (F2)                       S12: Re/Im (F2)                       S22: Re/Im (F2)            
1.00000000000E+09 -6.47021752794E-01 +7.15308581674E-01 -1.05732886403E-05 -5.26202114230E-06 +2.32046242133E-05 -1.73817990750E-05 -7.55388031597E-01 +6.23994749131E-01
1.00500000000E+09 -6.39852656898E-01 +7.20418371994E-01 +2.97415564221E-06 +2.09425709634E-05 -2.23050766538E-05 +2.63034453918E-05 -7.51817958355E-01 +6.27834246410E-01
1.01000000000E+09 -6.33641508326E-01 +7.25146857639E-01 -3.28969767540E-05 +1.67393312461E-05 +2.53401971496E-05 -6.86937160002E-06 -7.48227113400E-01 +6.31773158965E-01
1.01500000000E+09 -6.28701641721E-01 +7.28878343066E-01 +5.86780785272E-05 +2.41478818526E-05 -5.30433333190E-06 -5.92489250177E-06 -7.44877410572E-01 +6.35584407015E-01
1.02000000000E+09 -6.25463090000E-01 +7.31973808536E-01 -1.56288046802E-05 -2.59275085919E-05 +1.77198204032E-05 -3.72638218361E-05 -7.41343444244E-01 +6.39209818305E-01
1.02500000000E+09 -6.22829798200E-01 +7.34686594149E-01 -5.56145023228E-06 +3.04884547458E-05 +4.03238169601E-05 +5.27116494386E-07 -7.38439393065E-01 +6.42844198020E-01
1.03000000000E+09 -6.20878561898E-01 +7.36778832809E-01 -3.99119987852E-06 +4.61732407913E-05 +5.72890014370E-05 +6.30671414105E-05 -7.35068665829E-01 +6.46620888467E-01
1.03500000000E+09 -6.18159528403E-01 +7.39143130774E-01 -2.97530513325E-06 +1.48780380126E-05 -8.81938085810E-06 -4.27332529542E-05 -7.31278006960E-01 +6.50610940723E-01
1.04000000000E+09 -6.14172058671E-01 +7.41805902047E-01 -2.54329729580E-06 -2.31477154439E-06 +2.50339713487E-05 -2.65980971991E-05 -7.27608227822E-01 +6.54249373389E-01
1.04500000000E+09 -6.08758165058E-01 +7.45300693863E-01 -1.41132353622E-05 -2.52821066948E-05 -1.87964518452E-05 -2.25178564406E-05 -7.24172677568E-01 +6.57921357616E-01
1.05000000000E+09 -6.01462674042E-01 +7.49417559410E-01 +2.02343905857E-05 -5.42514475131E-06 -1.02966053223E-05 +2.81967165429E-06 -7.20603604963E-01 +6.61320346078E-01
1.05500000000E+09 -5.93183371442E-01 +7.54147042482E-01 -1.06384345811E-06 +2.93171956196E-05 +3.43765660195E-05 +3.39661558338E-05 -7.17378123405E-01 +6.64805244362E-01
1.06000000000E+09 -5.84432979650E-01 +7.59381223988E-01 -2.08794017316E-05 +5.13523762266E-06 +2.44491221986E-05 +5.13493571135E-05 -7.14113405928E-01 +6.68602815915E-01
1.06500000000E+09 -5.76106715171E-01 +7.64512340986E-01 -1.09532606274E-05 -6.63043170242E-06 +9.75288397166E-06 -2.26437972506E-05 -7.10423620837E-01 +6.72378650779E-01
1.07000000000E+09 -5.68694752403E-01 +7.68869025671E-01 +2.25742583514E-05 -3.17055162023E-06 -6.35251827792E-06 +2.61556728450E-05 -7.06507326679E-01 +6.75926831630E-01
1.07500000000E+09 -5.63128920358E-01 +7.72652247062E-01 -1.38636007233E-05 -1.06225781805E-05 +1.68440352244E-05 +2.70491509028E-05 -7.02204449486E-01 +6.79778906017E-01
1.08000000000E+09 -5.59245329661E-01 +7.75682318144E-01 -2.59434538873E-05 +4.91819919073E-05 +1.97940959954E-05 +9.43505784462E-05 -6.98141824619E-01 +6.83637221353E-01
1.08500000000E+09 -5.56736800446E-01 +7.77813396383E-01 +3.22342436958E-05 +1.93723912956E-05 +4.46077806157E-05 -2.18768840035E-06 -6.94053327149E-01 +6.87302628690E-01
1.09000000000E+09 -5.54856546471E-01 +7.79742683643E-01 +1.68714691894E-05 +1.54473002183E-05 +6.91337798467E-05 +2.07021579074E-05 -6.90287429675E-01 +6.91323514921E-01
1.09500000000E+09 -5.53209181650E-01 +7.81167456872E-01 +2.67977346776E-06 +1.02309364530E-05 +1.76931926626E-05 +1.82157215517E-05 -6.86367183551E-01 +6.95235268290E-01
1.10000000000E+09 -5.50213657968E-01 +7.82979961164E-01 +1.85019174382E-05 +1.99673719949E-05 +6.66268508701E-05 -5.05699124623E-06 -6.82420931302E-01 +6.99045938886E-01
1.10500000000E+09 -5.46095543632E-01 +7.85541250131E-01 -2.55820913239E-05 -1.01851243577E-05 -8.81438766310E-07 +2.36462844670E-05 -6.78256270229E-01 +7.02602999772E-01
1.11000000000E+09 -5.40359133161E-01 +7.88692454453E-01 +1.22635232353E-05 -6.98318648242E-06 +5.28628507677E-06 -1.91716088030E-05 -6.74014251785E-01 +7.05928345485E-01
1.11500000000E+09 -5.33014833461E-01 +7.92629778545E-01 +4.90596672262E-05 -1.77735932228E-05 -1.02195758417E-05 +4.00316674737E-05 -6.69962259097E-01 +7.09438399158E-01
1.12000000000E+09 -5.25125350775E-01 +7.96706114629E-01 +2.78299952009E-05 -1.98848767130E-05 +3.74636949524E-05 -1.05340164834E-05 -6.65699314204E-01 +7.13112904046E-01
1.12500000000E+09 -5.17077884158E-01 +8.00766829843E-01 -4.58066116961E-06 -3.36544263242E-05 +4.13736407420E-06 +4.17144475478E-05 -6.61580288984E-01 +7.17242071628E-01
1.13000000000E+09 -5.09807155316E-01 +8.04523650076E-01 +1.35992601642E-07 +3.10656196856E-08 +2.37383971811E-05 -9.00866150669E-08 -6.57397037927E-01 +7.20879947384E-01
1.13500000000E+09 -5.03557366491E-01 +8.07414077055E-01 +3.83100677946E-05 +7.51550005326E-06 +6.84781840777E-06 -1.71556219045E-05 -6.52727757377E-01 +7.24806935882E-01
1.14000000000E+09 -4.98595684070E-01 +8.09884497380E-01 +1.78878965162E-05 +2.39924382249E-05 +3.74913117894E-05 +2.25460516142E-05 -6.48196597094E-01 +7.28341975102E-01
1.14500000000E+09 -4.94615981666E-01 +8.11448633969E-01 -4.48647112097E-06 -6.81584935716E-06 +4.99234115758E-05 -3.43832516030E-05 -6.43505102340E-01 +7.31628749460E-01
1.15000000000E+09 -4.90867204774E-01 +8.12873710919E-01 +1.26268467579E-05 +3.82428753748E-05 -7.87777925111E-06 -2.21713279107E-05 -6.38797049566E-01 +7.35391355385E-01
1.15500000000E+09 -4.87197709190E-01 +8.14494674856E-01 -5.51130132319E-06 -4.62929317292E-05 +3.82987057985E-05 +2.58594416608E-05 -6.33932031882E-01 +7.39343957816E-01
1.16000000000E+09 -4.82330623447E-01 +8.16261407916E-01 +5.58505531341E-05 -2.97247158980E-05 +4.54455242863E-05 +2.39426576859E-06 -6.29091170462E-01 +7.43247723174E-01
1.16500000000E+09 -4.76402502182E-01 +8.18960848963E-01 +2.37686086979E-05 -7.94928866095E-06 -5.91077706362E-06 -6.19038107477E-05 -6.24080694024E-01 +7.46887422217E-01
1.17000000000E+09 -4.69079571748E-01 +8.22082115808E-01 +8.09771646854E-06 -3.81230069447E-05 +1.28962687120E-06 +2.37680550311E-05 -6.18613520726E-01 +7.50387100021E-01
1.17500000000E+09 -4.60930233869E-01 +8.25544918843E-01 +3.82967183369E-05 -6.21501961089E-05 -2.06904324741E-05 -1.63945320085E-05 -6.12819825074E-01 +7.53523678904E-01
1.18000000000E+09 -4.52523499108E-01 +8.29286385419E-01 +3.91079417771E-05 -4.51093631340E-05 +2.94658332583E-05 -4.06816707809E-05 -6.07272945165E-01 +7.56618716862E-01
1.18500000000E+09 -4.44341365304E-01 +8.32677381306E-01 +9.43970263014E-09 -5.46312984035E-05 +7.03491280437E-05 -6.41217430070E-07 -6.01360985288E-01 +7.59794396316E-01
1.19000000000E+09 -4.36837771204E-01 +8.35497944753E-01 +1.05284223303E-05 -6.84459764637E-05 +5.52470823964E-05 -5.19027593211E-05 -5.95010323464E-01 +7.62479183956E-01
1.19500000000E+09 -4.30609089118E-01 +8.37452186035E-01 -1.37791486089E-05 -9.35268626248E-05 +8.42557806375E-06 -1.34321562831E-04 -5.89015438978E-01 +7.63774802881E-01
1.20000000000E+09 -4.25590048489E-01 +8.38350085146E-01 -6.28475446512E-05 -1.18163537521E-04 -8.69261940296E-05 -1.17203047400E-04 -5.84530421755E-01 +7.63942410033E-01
1.20500000000E+09 -4.21181008864E-01 +8.39347006103E-01 -1.17474935477E-04 -1.05199151178E-04 -9.19615437993E-05 -8.09175744638E-05 -5.82269370608E-01 +7.64551226520E-01
1.21000000000E+09 -4.16659992392E-01 +8.40371724189E-01 -9.91478028063E-05 -1.39150323114E-06 -8.14597683170E-05 -6.56131284154E-05 -5.80453193226E-01 +7.67629669697E-01
1.21500000000E+09 -4.10964835258E-01 +8.41713982871E-01 -7.45242366912E-05 +3.63689102813E-05 -8.51736379722E-05 +9.21640837770E-06 -5.77712301212E-01 +7.72216462194E-01
1.22000000000E+09 -4.03860131130E-01 +8.43583436927E-01 -2.20570351263E-05 +7.70010369575E-05 -4.03726329684E-05 +5.86672167923E-05 -5.73529033808E-01 +7.77608039404E-01
1.22500000000E+09 -3.95413170347E-01 +8.46125655670E-01 +1.13832784212E-05 +2.34185698248E-05 +7.74965600315E-06 +2.63170642048E-05 -5.68356752809E-01 +7.82701783736E-01
1.23000000000E+09 -3.85885448946E-01 +8.49206720789E-01 -1.76272462855E-05 -1.66935539833E-05 -2.61250358458E-05 -2.18827317615E-05 -5.62708923925E-01 +7.87472977299E-01
1.23500000000E+09 -3.76036192812E-01 +8.52669721059E-01 +2.06177449037E-06 -5.65181761596E-06 -5.69879623679E-05 -1.69632324896E-05 -5.56829697880E-01 +7.91795232747E-01
1.24000000000E+09 -3.66246378959E-01 +8.56515675038E-01 -6.91526935226E-05 -5.71699792917E-05 -2.79499612303E-05 -4.19745211052E-05 -5.50786710907E-01 +7.95719517062E-01
1.24500000000E+09 -3.57408147574E-01 +8.60456251377E-01 -2.59099638792E-05 -3.34939200498E-05 -6.36145377309E-05 -8.72684918848E-05 -5.44481483274E-01 +7.99626088494E-01
1.25000000000E+09 -3.49647234352E-01 +8.63628841156E-01 -5.52552149840E-05 -2.60486075333E-05 -1.33573358947E-05 -8.80080015390E-06 -5.37848115024E-01 +8.03900830260E-01
1.25500000000E+09 -3.42873328251E-01 +8.65770939374E-01 -7.84229858711E-05 -2.45326656581E-05 -4.96274212726E-06 +3.89065683929E-05 -5.30908153583E-01 +8.07837756063E-01
1.26000000000E+09 -3.37007889482E-01 +8.67062815584E-01 -4.61481153355E-06 -1.22852273465E-05 -7.19074024214E-05 +4.39110090685E-05 -5.24304859372E-01 +8.12144080168E-01
1.26500000000E+09 -3.31539876890E-01 +8.67624460475E-01 -4.76991403285E-05 -2.19914646841E-05 -3.21625809308E-05 +3.11883546073E-05 -5.17234077245E-01 +8.16173489579E-01
1.27000000000E+09 -3.25379863256E-01 +8.67977705100E-01 -3.30333413880E-05 +2.19812788503E-05 -3.41725591112E-05 +1.72360577690E-05 -5.10406195685E-01 +8.19904315570E-01
1.27500000000E+09 -3.17945071731E-01 +8.68552758109E-01 -5.56086816049E-06 +6.71013324826E-06 -8.00380174669E-05 -3.00791153460E-06 -5.03380978106E-01 +8.23468117900E-01
1.28000000000E+09 -3.08468383998E-01 +8.69582679110E-01 -9.21552454374E-05 -6.03487479815E-06 -2.17790381972E-05 +1.08243951615E-05 -4.96464935065E-01 +8.26949073042E-01
1.28500000000E+09 -2.97209125908E-01 +8.71223696048E-01 -8.10035956791E-05 +3.25211957383E-05 -4.49521624773E-05 -3.49952537939E-07 -4.89014636826E-01 +8.30588259304E-01
1.29000000000E+09 -2.84730055514E-01 +8.73529262028E-01 -6.85393234626E-05 +4.83289758878E-05 -1.16576778101E-04 +3.86648971253E-05 -4.81314345401E-01 +8.34422752596E-01
1.29500000000E+09 -2.72029999312E-01 +8.76644148034E-01 -4.02643132308E-05 +1.01895503385E-05 -4.10890729059E-05 +2.41240887405E-05 -4.73413266811E-01 +8.37918207627E-01
1.30000000000E+09 -2.59654192729E-01 +8.80181915679E-01 -7.62658174284E-05 +6.42560839889E-05 -3.67006368241E-05 +3.37319214758E-05 -4.65469794686E-01 +8.41643950089E-01
1.30500000000E+09 -2.48462743510E-01 +8.83673083372E-01 -1.04131449698E-04 +5.77322934968E-05 -6.78698570263E-05 +6.10842937310E-05 -4.57434999977E-01 +8.45075104173E-01
1.31000000000E+09 -2.39070211490E-01 +8.86224582094E-01 -1.02777700402E-04 +8.45366149949E-05 -6.68381030374E-05 +4.95320146442E-05 -4.49049753002E-01 +8.48503490882E-01
1.31500000000E+09 -2.31748656993E-01 +8.87786319196E-01 -9.03273694845E-05 +7.18632840434E-05 -6.87352138743E-05 +1.02626972117E-04 -4.40230075489E-01 +8.51954584158E-01
1.32000000000E+09 -2.25767664751E-01 +8.88443228553E-01 -4.95061393225E-05 +1.22788111497E-04 -5.85025156974E-05 +7.41878309720E-05 -4.31080119304E-01 +8.55359949275E-01
1.32500000000E+09 -2.20472391628E-01 +8.88129294597E-01 -4.05191385752E-05 +9.63356883528E-05 -4.81920918674E-05 +1.25537716415E-04 -4.21351569380E-01 +8.58764701032E-01
1.33000000000E+09 -2.14307342355E-01 +8.87370004308E-01 +6.52981612534E-06 +9.05842253965E-05 -4.59354634839E-05 +1.65158210874E-04 -4.11497897098E-01 +8.62126717086E-01
1.33500000000E+09 -2.06362277523E-01 +8.86414003902E-01 -4.12339148445E-05 +1.16712839024E-04 +1.58509138376E-05 +9.70120164589E-05 -4.01638854542E-01 +8.65431726792E-01
1.34000000000E+09 -1.95646863031E-01 +8.85754310145E-01 -5.00318531879E-05 +1.44257322787E-04 +6.02911945637E-06 +9.32389826068E-05 -3.91479297336E-01 +8.68748460752E-01
1.34500000000E+09 -1.82455699650E-01 +8.85340023531E-01 -3.65506254015E-05 +1.39052331700E-04 -2.68665008094E-05 +1.77344131318E-04 -3.80517530493E-01 +8.72075538485E-01
1.35000000000E+09 -1.67039783716E-01 +8.85541358132E-01 -3.23388637268E-05 +1.47807148010E-04 -1.30021153145E-05 +1.48745848458E-04 -3.69467058919E-01 +8.74996936067E-01
1.35500000000E+09 -1.50353153021E-01 +8.86300395365E-01 +1.98540738913E-05 +1.80974388611E-04 +2.44090857062E-05 +1.97342379573E-04 -3.57634677364E-01 +8.77954352917E-01
1.36000000000E+09 -1.33519201504E-01 +8.87100392566E-01 +3.37759204780E-05 +2.42204720540E-04 -6.56238360806E-06 +2.16262789946E-04 -3.45796462564E-01 +8.80710270723E-01
1.36500000000E+09 -1.17556867702E-01 +8.87822803259E-01 +6.42411230082E-05 +2.70122761608E-04 +7.13342553683E-05 +2.17512197506E-04 -3.33558956848E-01 +8.83232588397E-01
1.37000000000E+09 -1.03600420601E-01 +8.87901885369E-01 +1.25428804131E-04 +2.93352065861E-04 +1.49556182889E-04 +3.06945880375E-04 -3.20630343498E-01 +8.85636373380E-01
1.37500000000E+09 -9.17507121844E-02 +8.87241650083E-01 +3.05017849580E-04 +2.04816619333E-04 +2.64400829002E-04 +1.74902617678E-04 -3.07067240928E-01 +8.87764072204E-01
1.38000000000E+09 -8.13858920464E-02 +8.86067750953E-01 +2.13473854972E-04 +5.12648330309E-05 +2.47376719549E-04 +1.14102956679E-04 -2.92557309121E-01 +8.89851328014E-01
1.38500000000E+09 -7.09506679407E-02 +8.84074110414E-01 +1.91874651020E-04 +1.18999873721E-04 +1.62578317748E-04 +1.85155410462E-04 -2.77079585776E-01 +8.91641603732E-01
1.39000000000E+09 -5.98765640191E-02 +8.81247313277E-01 +2.23716733054E-04 +1.38528583527E-04 +2.95624838456E-04 +1.79203787879E-04 -2.61286145294E-01 +8.93058257034E-01
1.39500000000E+09 -4.65442492940E-02 +8.77303742216E-01 +2.82128434904E-04 +1.81592086320E-04 +3.49299528308E-04 +1.70899711626E-04 -2.44507519274E-01 +8.93825005348E-01
1.40000000000E+09 -3.04528142134E-02 +8.72602010137E-01 +4.32761430544E-04 +1.56014714614E-04 +4.49314923907E-04 +1.14059162786E-04 -2.26732035678E-01 +8.94552124462E-01
1.40500000000E+09 -1.20948302063E-02 +8.67450111559E-01 +5.18913257292E-04 +8.98273566846E-06 +5.38143705135E-04 -4.03524011250E-05 -2.07981134714E-01 +8.94267547334E-01
1.41000000000E+09 +8.66279952768E-03 +8.61972408256E-01 +4.87841603225E-04 -1.82783072059E-04 +4.68970468596E-04 -1.84650747620E-04 -1.87997144594E-01 +8.93433997990E-01
1.41500000000E+09 +3.08774021182E-02 +8.56096134896E-01 +4.19321718017E-04 -2.29025620678E-04 +4.14837056927E-04 -1.70935909427E-04 -1.66493581399E-01 +8.92120708049E-01
1.42000000000E+09 +5.38521225542E-02 +8.49940521920E-01 +3.61102320117E-04 -2.53853640395E-04 +4.60931282533E-04 -3.37376832767E-04 -1.43773230964E-01 +8.89382899672E-01
1.42500000000E+09 +7.65275072015E-02 +8.42644362715E-01 +2.91437718969E-04 -3.23087275107E-04 +3.07948240331E-04 -3.69243199216E-04 -1.20117650837E-01 +8.86038700583E-01
1.43000000000E+09 +9.78529640090E-02 +8.33737332585E-01 +3.29009864738E-04 -3.03146551071E-04 +3.12512531446E-04 -3.36796763755E-04 -9.52266115106E-02 +8.81493104630E-01
1.43500000000E+09 +1.18030335069E-01 +8.23298465493E-01 +3.71578189377E-04 -4.31429296405E-04 +3.15302535024E-04 -4.87914342813E-04 -6.88355811520E-02 +8.74996368493E-01
1.44000000000E+09 +1.37981146176E-01 +8.11084809943E-01 +3.87236359010E-04 -5.12246264126E-04 +3.07775877596E-04 -5.53932269262E-04 -4.07748158066E-02 +8.66701183290E-01
1.44500000000E+09 +1.58589160051E-01 +7.96415580247E-01 +3.08081283372E-04 -8.29569353370E-04 +2.25576756086E-04 -8.32301678700E-04 -1.06576576318E-02 +8.55458231835E-01
1.45000000000E+09 +1.81180799341E-01 +7.78350077371E-01 -7.36535417745E-05 -8.43230068787E-04 -8.61706888799E-05 -8.75585070622E-04 +2.12718552662E-02 +8.41220120498E-01
1.45500000000E+09 +2.05623827382E-01 +7.56937254733E-01 -2.24802856163E-04 -7.75346644742E-04 -3.37924206659E-04 -7.82163804237E-04 +5.47150171381E-02 +8.23756926908E-01
1.46000000000E+09 +2.32673322998E-01 +7.32125897534E-01 -4.11475367005E-04 -6.72196927614E-04 -4.63264222310E-04 -5.62323089085E-04 +8.95185706119E-02 +8.02402998507E-01
1.46500000000E+09 +2.62153219248E-01 +7.02957357902E-01 -5.30929158055E-04 -4.18296226101E-04 -4.82639877514E-04 -2.96230586607E-04 +1.25878264354E-01 +7.76177828017E-01
1.47000000000E+09 +2.92319534338E-01 +6.69409944247E-01 -1.42356378522E-04 -3.67010896828E-04 -1.38395349176E-04 -3.32481204277E-04 +1.63382716845E-01 +7.43379434694E-01
1.47500000000E+09 +3.22250285631E-01 +6.31352118676E-01 -2.51206159088E-04 -6.95090579315E-04 -2.34590823409E-04 -6.88566839685E-04 +2.01582147265E-01 +7.03139348918E-01
1.48000000000E+09 +3.49260125786E-01 +5.87342996944E-01 -7.29644909611E-04 -7.68008277247E-04 -6.92026930925E-04 -7.53460169453E-04 +2.39150323809E-01 +6.53878394528E-01
1.48500000000E+09 +3.72033653665E-01 +5.38049775134E-01 -8.56821745294E-04 -5.45005895106E-04 -8.71885036111E-04 -5.17599509327E-04 +2.74102069504E-01 +5.95028771174E-01
1.49000000000E+09 +3.89468279686E-01 +4.81808971092E-01 -1.14252886163E-03 -3.34725676432E-04 -1.14051258026E-03 -3.06931518058E-04 +3.03470513672E-01 +5.25886566247E-01
1.49500000000E+09 +3.99917900233E-01 +4.18170252331E-01 -1.19616154903E-03 -1.56778109890E-04 -1.12674878503E-03 -8.62329204081E-05 +3.24448339591E-01 +4.45855717487E-01
1.50000000000E+09 +4.02126399893E-01 +3.45110550778E-01 -1.24245452618E-03 +4.52119556450E-04 -1.18740791845E-03 +3.85670574257E-04 +3.31796800805E-01 +3.54969681959E-01
1.50500000000E+09 +3.91956977591E-01 +2.63094491114E-01 -7.82596554439E-04 +6.43262078496E-04 -7.76534909166E-04 +6.09001633187E-04 +3.21146429338E-01 +2.55909080892E-01
1.51000000000E+09 +3.66648268551E-01 +1.75249564841E-01 -7.59426349111E-04 +2.14246350342E-04 -7.24158281306E-04 +1.35024714528E-04 +2.89121510752E-01 +1.54088513523E-01
1.51500000000E+09 +3.24876218103E-01 +8.53542184514E-02 -1.21509419402E-03 +6.87401340345E-04 -1.27134743843E-03 +6.43842375074E-04 +2.35388474340E-01 +5.46994653767E-02
1.52000000000E+09 +2.62210523988E-01 -3.10149154650E-04 -9.61323876445E-04 +9.14991829925E-04 -1.09117214553E-03 +8.57868569905E-04 +1.58063769367E-01 -3.44514611315E-02
1.52500000000E+09 +1.82449533992E-01 -7.15446276661E-02 -8.89597042453E-04 +1.56016955157E-03 -9.09435094794E-04 +1.61382675024E-03 +6.08824008226E-02 -1.04406411536E-01
1.53000000000E+09 +8.82954810313E-02 -1.25468397443E-01 -4.20956747568E-04 +1.93429715021E-03 -4.73635036362E-04 +2.00478634479E-03 -4.69261067507E-02 -1.50247455336E-01
1.53500000000E+09 -1.63332367162E-02 -1.56520639973E-01 +1.12773556978E-03 +2.01123054201E-03 +1.15110837526E-03 +2.07292100516E-03 -1.59938244248E-01 -1.72713311563E-01
1.54000000000E+09 -1.25624378137E-01 -1.60583553958E-01 +1.04958547989E-03 +7.73411106298E-04 +1.03849887080E-03 +8.05981067320E-04 -2.72551062982E-01 -1.69887125288E-01
1.54500000000E+09 -2.30480685780E-01 -1.39992306034E-01 +7.51435557738E-04 +8.75643063415E-04 +7.27978357857E-04 +9.16234294634E-04 -3.73475637910E-01 -1.45303952359E-01
1.55000000000E+09 -3.25268460652E-01 -1.00086538736E-01 +1.08029012722E-03 +4.28688823495E-04 +1.08580048804E-03 +4.67817515307E-04 -4.60456882552E-01 -1.06380317997E-01
1.55500000000E+09 -4.06005241757E-01 -4.73107577691E-02 +6.92417218956E-04 +2.94135065372E-04 +6.99659785933E-04 +3.29489968114E-04 -5.32240566695E-01 -5.71771101708E-02
1.56000000000E+09 -4.71819948619E-01 +1.10465380055E-02 +9.49041539717E-04 +7.27615419808E-04 +9.95683304631E-04 +8.11194594951E-04 -5.89237702765E-01 -2.89256594808E-03
1.56500000000E+09 -5.24135147607E-01 +7.06018470023E-02 +1.47281864618E-03 +1.40132669836E-04 +1.60908502400E-03 +1.65149643825E-04 -6.33531489978E-01 +5.37445841452E-02
1.57000000000E+09 -5.64221844725E-01 +1.28438351314E-01 +1.47623544242E-03 -7.14355329819E-04 +1.57675694678E-03 -7.53697176049E-04 -6.66860241154E-01 +1.09020887842E-01
