# Hz S RI R 50
! CMT, C1220, 16058040, 17.2.0/1
! Date: 14/08/2018 12:20:58
! Data: Format (Calibration Info)
! Freq                      S11: Re/Im (F2)                       S21: Re/Im (F2)                       S12: Re/Im (F2)                       S22: Re/Im (F2)            
1.00000000000E+09 -6.44329867345E-01 +7.15993398551E-01 -2.20058961193E-05 +3.76925660081E-05 +3.98846239057E-05 +4.78598522893E-06 -7.48175574283E-01 +6.24097016808E-01
1.00500000000E+09 -6.37183691642E-01 +7.21103646019E-01 +4.29534427077E-05 +6.44979942109E-05 +1.96457806635E-06 +5.48301480455E-05 -7.44640182408E-01 +6.28180544595E-01
1.01000000000E+09 -6.31301986617E-01 +7.25689880823E-01 +3.17125246661E-05 -3.00844481823E-05 -5.14199442473E-06 +2.18127947152E-05 -7.40912265128E-01 +6.31794886844E-01
1.01500000000E+09 -6.27107113816E-01 +7.29382233389E-01 +4.38676392738E-06 -1.78931493208E-05 -3.04434224282E-05 +2.28761613666E-05 -7.37656090931E-01 +6.35448773614E-01
1.02000000000E+09 -6.24433239648E-01 +7.32716143155E-01 +1.02715968962E-05 -4.30991776131E-05 +9.37746787348E-06 -1.71995288503E-05 -7.34286135285E-01 +6.39127475552E-01
1.02500000000E+09 -6.22758681618E-01 +7.35174754635E-01 +1.69222556461E-05 -2.41921613222E-05 -8.64256347958E-06 -3.62393592740E-05 -7.31315497754E-01 +6.42693129014E-01
1.03000000000E+09 -6.21821758566E-01 +7.37459083694E-01 +2.16494773181E-05 -2.47594751321E-05 +1.56854422938E-05 -4.32541271750E-05 -7.27929683295E-01 +6.46348742851E-01
1.03500000000E+09 -6.19672873742E-01 +7.39726212554E-01 -2.21364263552E-05 +5.19352401427E-06 +3.37626153626E-05 -5.82888341311E-06 -7.24061118157E-01 +6.50321068240E-01
1.04000000000E+09 -6.16324982770E-01 +7.42516734166E-01 +1.03291929905E-05 +3.87984392499E-06 +5.11128680055E-06 -1.03147913473E-05 -7.20310688790E-01 +6.54024898560E-01
1.04500000000E+09 -6.11029444352E-01 +7.45838901580E-01 -3.48482047729E-05 +8.43046597474E-06 +9.81042251891E-07 +1.11938110582E-06 -7.16659570542E-01 +6.57628643542E-01
1.05000000000E+09 -6.03656262878E-01 +7.49949422495E-01 +4.58351887783E-08 -2.14739956954E-05 +1.05691444659E-05 +2.16378329966E-05 -7.13429778607E-01 +6.60968149788E-01
1.05500000000E+09 -5.95098611389E-01 +7.54603230298E-01 -3.95296962216E-05 -1.35218310052E-05 -2.48150583925E-05 -5.83226517019E-06 -7.10117196488E-01 +6.64496208062E-01
1.06000000000E+09 -5.85501214348E-01 +7.59856714753E-01 +2.68008209605E-05 +2.98606399746E-05 -2.73430436564E-05 -1.70089955046E-05 -7.06783532509E-01 +6.68193651066E-01
1.06500000000E+09 -5.76359168171E-01 +7.64921216509E-01 +3.74339846333E-06 +3.93658564209E-06 +5.45588764390E-05 +1.07768260381E-04 -7.03041906477E-01 +6.72037222372E-01
1.07000000000E+09 -5.68253008526E-01 +7.69326394069E-01 +9.83505398097E-06 +5.87967135048E-06 -1.33897099534E-05 +1.77549838852E-05 -6.99007319712E-01 +6.75581333485E-01
1.07500000000E+09 -5.61949631508E-01 +7.73186337402E-01 +7.46954966375E-05 +2.56655996849E-05 +4.33790253779E-05 -1.96640381876E-05 -6.94768400465E-01 +6.79292705006E-01
1.08000000000E+09 -5.57728706891E-01 +7.76377169493E-01 +7.90418057810E-05 -5.46393884411E-06 +3.03910554497E-05 +3.67656526248E-06 -6.90534368758E-01 +6.83042567092E-01
1.08500000000E+09 -5.54824461523E-01 +7.78958939967E-01 -1.85708191297E-05 +8.84078836675E-06 -2.86596410759E-05 -2.42553045213E-06 -6.86825694730E-01 +6.86753984920E-01
1.09000000000E+09 -5.52664087392E-01 +7.81005331697E-01 +2.28401891995E-05 +3.49576966771E-06 +1.30510218962E-05 -5.96080692468E-06 -6.82964044121E-01 +6.90607013424E-01
1.09500000000E+09 -5.51006703654E-01 +7.82805490347E-01 +1.81694115100E-05 +9.09035981636E-06 -1.76103842355E-05 +2.51464930685E-05 -6.79157738747E-01 +6.94432611353E-01
1.10000000000E+09 -5.48024051816E-01 +7.84806690596E-01 +4.50525467192E-05 -4.01554028747E-05 +3.58574369332E-05 -1.91977144323E-07 -6.75158401057E-01 +6.98340144600E-01
1.10500000000E+09 -5.43829840909E-01 +7.87368925174E-01 +5.44692067721E-05 -3.00250088391E-05 -5.37532300325E-06 +1.89455238958E-05 -6.70790798026E-01 +7.01767576653E-01
1.11000000000E+09 -5.38071128183E-01 +7.90519358982E-01 -1.26159663819E-05 -4.59304134751E-05 +2.96367483521E-05 -9.43337926032E-06 -6.66615743388E-01 +7.05013384139E-01
1.11500000000E+09 -5.30782265028E-01 +7.94432032277E-01 +3.12312585717E-05 -1.54273057561E-06 -2.16002823480E-05 +7.79699552651E-07 -6.62566551166E-01 +7.08602194401E-01
1.12000000000E+09 -5.22774574183E-01 +7.98315325752E-01 -1.04862327217E-05 -5.36660325467E-05 -4.70080277216E-05 -3.48984305440E-05 -6.58534412007E-01 +7.12336479285E-01
1.12500000000E+09 -5.14644969454E-01 +8.02359530789E-01 +8.75038835463E-06 -1.21613169940E-05 +8.21639088421E-05 -7.06098093544E-05 -6.54192405992E-01 +7.15999208750E-01
1.13000000000E+09 -5.07099361147E-01 +8.06079336752E-01 -2.76082492755E-05 -1.44410606118E-05 +5.10383055622E-06 -1.38014066134E-05 -6.50041240182E-01 +7.19804189879E-01
1.13500000000E+09 -5.00625392341E-01 +8.08805210123E-01 -8.15450494169E-06 +4.64031731770E-06 +4.59547603004E-05 -1.82937751310E-05 -6.45533682588E-01 +7.23521826030E-01
1.14000000000E+09 -4.95243767429E-01 +8.11287406122E-01 -2.07767087735E-05 -6.31100352358E-05 -2.08223649088E-05 -1.57292804098E-05 -6.40911747484E-01 +7.26919151757E-01
1.14500000000E+09 -4.91177356842E-01 +8.12969952920E-01 -3.18199032853E-05 -4.58005308085E-06 -2.28255548414E-05 -6.43016093838E-06 -6.36134378684E-01 +7.30306142814E-01
1.15000000000E+09 -4.87429406607E-01 +8.14461271536E-01 -1.81003701305E-05 -4.63126282552E-05 -2.06369017775E-05 -1.80564516402E-05 -6.31653704711E-01 +7.34104026487E-01
1.15500000000E+09 -4.83513428674E-01 +8.16110654937E-01 -2.41932944264E-05 +4.02012112662E-05 -1.21681724511E-05 -8.52242344905E-06 -6.26945364904E-01 +7.37754044529E-01
1.16000000000E+09 -4.78742546326E-01 +8.17894599262E-01 -3.09984362642E-05 -4.43917276446E-05 -4.54644371403E-06 -1.01357573777E-05 -6.22092865241E-01 +7.41686465623E-01
1.16500000000E+09 -4.72731531314E-01 +8.20508503871E-01 +1.28934192162E-05 -2.18850986971E-05 +2.83763498959E-05 -1.78952521457E-05 -6.16976621129E-01 +7.45203581335E-01
1.17000000000E+09 -4.65577990805E-01 +8.23495304088E-01 +1.46412878087E-05 +2.70960335667E-05 +2.42177540125E-06 +4.26434333269E-06 -6.11410512568E-01 +7.48556757816E-01
1.17500000000E+09 -4.57611112912E-01 +8.26776441040E-01 +2.32809833383E-05 -4.05696659168E-05 +2.55167321792E-05 -4.05298314759E-05 -6.05871140535E-01 +7.51723756511E-01
1.18000000000E+09 -4.49334479784E-01 +8.30235334169E-01 -1.16344942411E-05 -7.13443632703E-05 -1.43820336204E-05 -1.10154197098E-04 -6.00192444300E-01 +7.54861737378E-01
1.18500000000E+09 -4.41150064087E-01 +8.33558612492E-01 +1.83083835105E-07 -1.90476970663E-05 -4.89932321422E-05 -1.09067724963E-04 -5.94392225380E-01 +7.57935749802E-01
1.19000000000E+09 -4.33981012367E-01 +8.36190847152E-01 +8.02631129221E-06 -7.17532654672E-05 -3.72037944055E-05 -7.47366166908E-05 -5.88172467640E-01 +7.60478332296E-01
1.19500000000E+09 -4.27945649551E-01 +8.38242303990E-01 -8.97652486954E-05 -5.71043018806E-05 -6.91949268718E-05 -1.02778727594E-04 -5.82382841597E-01 +7.61750238054E-01
1.20000000000E+09 -4.22834119564E-01 +8.39154623962E-01 -1.20941527627E-04 -3.40756928142E-05 -1.15740421952E-04 -4.08440552027E-05 -5.77903142768E-01 +7.61909284790E-01
1.20500000000E+09 -4.18505289459E-01 +8.40154567008E-01 -6.58314534238E-05 +9.74761829268E-06 -5.15013997213E-05 +4.64470426568E-05 -5.75464890493E-01 +7.62934297415E-01
1.21000000000E+09 -4.13682392641E-01 +8.41065235549E-01 -7.34757185740E-05 +3.80868570017E-05 -3.56277696881E-05 +4.61449545207E-05 -5.73612458734E-01 +7.65960859032E-01
1.21500000000E+09 -4.07705342049E-01 +8.42403802124E-01 -1.32531938063E-05 +1.00589238080E-05 -3.81866858096E-05 +3.86320656016E-05 -5.70797474632E-01 +7.70363836755E-01
1.22000000000E+09 -4.00222327240E-01 +8.43947202661E-01 +1.48915894790E-05 +1.89388517655E-05 -1.65928963964E-05 -1.38104714847E-05 -5.66594354593E-01 +7.75532731506E-01
1.22500000000E+09 -3.90807752338E-01 +8.46152251326E-01 -4.55334270123E-06 +3.70716702234E-05 -7.33512458354E-06 +4.47328916449E-05 -5.61576055325E-01 +7.80683045889E-01
1.23000000000E+09 -3.80053221633E-01 +8.49170528439E-01 -8.83643639889E-06 -3.20004158704E-06 -8.43982960825E-06 -1.38223104880E-06 -5.55885710587E-01 +7.85344308933E-01
1.23500000000E+09 -3.69061583467E-01 +8.52516520173E-01 +8.83439990356E-06 +6.03590196153E-06 -4.66952095475E-05 -1.56747530128E-05 -5.50216262223E-01 +7.89571906573E-01
1.24000000000E+09 -3.58085813916E-01 +8.56254033879E-01 -2.71250647073E-05 +1.37791189889E-05 +1.29175309816E-05 +4.29742221929E-05 -5.44231081649E-01 +7.93358165899E-01
1.24500000000E+09 -3.48307812829E-01 +8.59961705168E-01 -3.76103366395E-05 -2.33635585089E-05 -4.65338058615E-05 +3.67799367219E-06 -5.37883537791E-01 +7.97134451576E-01
1.25000000000E+09 -3.39664559493E-01 +8.63128180347E-01 -3.38521427532E-05 -8.13115142809E-06 -1.99719024168E-05 -4.05155921791E-05 -5.31381662301E-01 +8.01433734760E-01
1.25500000000E+09 -3.32724953897E-01 +8.65496325012E-01 -1.26780226040E-05 +1.06006621890E-05 -1.91603655612E-05 -1.37236219733E-05 -5.24407467198E-01 +8.05434165067E-01
1.26000000000E+09 -3.27069211042E-01 +8.67103683392E-01 -3.35636443775E-05 +1.24715918745E-05 -4.15576358580E-05 -4.36620876409E-06 -5.17823227943E-01 +8.09650587750E-01
1.26500000000E+09 -3.22146103136E-01 +8.68184125166E-01 -7.07488594700E-05 +2.92004568009E-05 -6.31741758502E-05 +8.84399050259E-06 -5.10736311362E-01 +8.13501881474E-01
1.27000000000E+09 -3.17091627849E-01 +8.69147196728E-01 -5.74471140616E-05 -1.46784235763E-05 -4.18083605480E-05 -5.69654198243E-06 -5.03971982424E-01 +8.17230356907E-01
1.27500000000E+09 -3.10631164094E-01 +8.70051405768E-01 -5.24558796124E-05 +2.40644561941E-05 -4.62259240429E-05 +7.97478622220E-05 -4.97021503360E-01 +8.20721319653E-01
1.28000000000E+09 -3.02407882037E-01 +8.71356494819E-01 -5.64123032557E-05 +3.35007834745E-05 -7.32567589275E-05 +4.74655555355E-05 -4.90126331831E-01 +8.24178639219E-01
1.28500000000E+09 -2.92067905744E-01 +8.72973353456E-01 -3.50694988367E-05 +7.35058225133E-05 -6.61693607466E-05 +1.06713566164E-04 -4.82649629101E-01 +8.27852119299E-01
1.29000000000E+09 -2.80353315611E-01 +8.75178953553E-01 -2.07252314782E-05 +6.89675394558E-05 -2.51032029268E-05 +9.74353298269E-05 -4.75156531502E-01 +8.31518932779E-01
1.29500000000E+09 -2.67823811307E-01 +8.78052445637E-01 -2.47782815945E-05 +8.45287291915E-05 -4.85542577259E-05 +9.39961735350E-05 -4.67401635431E-01 +8.35023553561E-01
1.30000000000E+09 -2.55226572269E-01 +8.81243643413E-01 -8.51346978985E-06 +3.19402008485E-05 +4.25670023182E-06 +1.04685665818E-04 -4.59498750269E-01 +8.38629954726E-01
1.30500000000E+09 -2.43970442602E-01 +8.84265932610E-01 -6.30145419517E-05 +1.10307942002E-04 -5.49760839370E-05 +1.23379701432E-04 -4.51610840998E-01 +8.42023390073E-01
1.31000000000E+09 -2.33874497923E-01 +8.86365036039E-01 +1.62156551666E-06 +1.49120111145E-04 -2.43851862333E-05 +1.01238483285E-04 -4.43358780813E-01 +8.45342063120E-01
1.31500000000E+09 -2.25768154165E-01 +8.87734981275E-01 +5.10896743800E-05 +1.19011229081E-04 +5.76733963341E-05 +1.19797956070E-04 -4.34578232137E-01 +8.48768280725E-01
1.32000000000E+09 -2.19267482650E-01 +8.88287715616E-01 +4.10644565361E-05 +6.96882424190E-05 +8.34455843389E-05 +8.64247434829E-05 -4.25658064365E-01 +8.52130748983E-01
1.32500000000E+09 -2.13236937076E-01 +8.87907610991E-01 +2.01658746007E-05 +9.69259855342E-05 +5.19762374924E-05 +4.89062664299E-07 -4.16028515783E-01 +8.55708083228E-01
1.33000000000E+09 -2.06539170778E-01 +8.87331704266E-01 +2.63852672606E-05 +1.23555665559E-04 +3.24061065682E-05 +1.29450820089E-04 -4.06457933654E-01 +8.58986130026E-01
1.33500000000E+09 -1.97974309397E-01 +8.86269014049E-01 +8.08415946578E-05 +1.08695271750E-04 +5.91748630153E-05 +7.43143421974E-05 -3.96592216083E-01 +8.62299716172E-01
1.34000000000E+09 -1.87096278930E-01 +8.85366874411E-01 +1.02611428649E-04 +1.34506594864E-04 +8.73136035385E-05 +1.51601600527E-04 -3.86378004877E-01 +8.65609797582E-01
1.34500000000E+09 -1.73704611890E-01 +8.84498843206E-01 +1.58461823854E-04 +5.00381547198E-05 +7.68609513859E-05 +8.70493276087E-05 -3.75584153993E-01 +8.68933758629E-01
1.35000000000E+09 -1.58286640109E-01 +8.84203518187E-01 +1.18613202448E-04 +2.33104772387E-05 +8.15113553403E-05 +3.55387525096E-05 -3.64488287790E-01 +8.71939833415E-01
1.35500000000E+09 -1.41617345656E-01 +8.84408986353E-01 +5.68630789623E-05 +7.49656025462E-05 +6.19606557583E-05 +6.18332147289E-05 -3.52916101378E-01 +8.74907284903E-01
1.36000000000E+09 -1.24725017172E-01 +8.84895573125E-01 +8.11309598922E-05 +5.77693415887E-05 +3.86360323019E-05 +2.77075302678E-05 -3.41177910328E-01 +8.77715887825E-01
1.36500000000E+09 -1.08685866737E-01 +8.85341217040E-01 +3.73803170925E-05 +6.40790827257E-05 +9.68330744217E-05 +3.93044272688E-05 -3.29061384013E-01 +8.80243602965E-01
1.37000000000E+09 -9.42870551510E-02 +8.85273725429E-01 +5.28351726344E-05 +9.38965337519E-05 +7.16578104631E-05 +1.01671856664E-04 -3.16205680175E-01 +8.82573439084E-01
1.37500000000E+09 -8.19432002419E-02 +8.84772293432E-01 +6.57680017964E-05 +1.08098390439E-04 +6.08400413280E-05 +1.04583786863E-04 -3.02585721998E-01 +8.84752197295E-01
1.38000000000E+09 -7.10601929602E-02 +8.83609971762E-01 +1.41246310835E-04 +1.25676856382E-04 +1.39043992474E-04 +1.16517452133E-04 -2.87956291780E-01 +8.86946497639E-01
1.38500000000E+09 -6.01706425705E-02 +8.81750764401E-01 +2.12752055680E-04 +5.86792532103E-05 +2.49847826040E-04 +6.62538140768E-05 -2.72323003889E-01 +8.88763411316E-01
1.39000000000E+09 -4.86891879137E-02 +8.79080826835E-01 +1.74743047187E-04 +8.82698983475E-05 +1.93692296988E-04 +8.03802039232E-05 -2.56448659617E-01 +8.90351454048E-01
1.39500000000E+09 -3.51357602513E-02 +8.75387659221E-01 +2.56342900578E-04 +5.52648263751E-05 +2.89548157534E-04 +2.49990469643E-05 -2.39547807367E-01 +8.91049081592E-01
1.40000000000E+09 -1.89730237647E-02 +8.70767226826E-01 +2.84024030579E-04 -4.12938677249E-05 +2.99948968641E-04 -5.73923020868E-05 -2.22071424724E-01 +8.91589582662E-01
1.40500000000E+09 -6.61102567793E-04 +8.65530986596E-01 +2.20573024419E-04 -1.30537006526E-04 +2.50122988674E-04 -1.33620022264E-04 -2.03282120790E-01 +8.91523750570E-01
1.41000000000E+09 +1.98745408060E-02 +8.59817182683E-01 +1.81455106429E-04 -1.06631936118E-04 +1.55357823714E-04 -9.85402598499E-05 -1.82951695754E-01 +8.90805749462E-01
1.41500000000E+09 +4.17680502984E-02 +8.54141819398E-01 +1.95198609916E-04 -1.00222813500E-04 +2.08258945918E-04 -1.15723229004E-04 -1.61379602776E-01 +8.89116653913E-01
1.42000000000E+09 +6.42902196610E-02 +8.47764984876E-01 +2.62831148711E-04 -9.36654160152E-05 +2.66790012240E-04 -1.16439892609E-05 -1.38483190581E-01 +8.86511093087E-01
1.42500000000E+09 +8.61230209201E-02 +8.40381933421E-01 +3.23299864794E-04 -2.38794094701E-04 +3.61740533307E-04 -2.91411276350E-04 -1.14721165809E-01 +8.82864891412E-01
1.43000000000E+09 +1.06554270037E-01 +8.31848078920E-01 +1.96093719795E-04 -3.65224729284E-04 +1.97575378069E-04 -3.87836494144E-04 -8.97834004278E-02 +8.78115706634E-01
1.43500000000E+09 +1.25925367029E-01 +8.21898303100E-01 +8.12648183320E-05 -3.02141130124E-04 +5.30420006408E-05 -3.72818519572E-04 -6.35150463651E-02 +8.71303726566E-01
1.44000000000E+09 +1.45163013619E-01 +8.10660471776E-01 -2.22248346030E-05 -2.68241217272E-04 -3.22374096253E-05 -2.78430007896E-04 -3.53004013485E-02 +8.62576590067E-01
1.44500000000E+09 +1.65548502732E-01 +7.96660873752E-01 +7.10336354692E-05 -1.10893285612E-04 +3.56136407470E-05 -8.85226784545E-05 -5.22945185808E-03 +8.50961063394E-01
1.45000000000E+09 +1.87996201164E-01 +7.79209507390E-01 +2.33368599563E-04 -2.38378465179E-04 +2.29136267744E-04 -2.48514546651E-04 +2.68757054386E-02 +8.36359040711E-01
1.45500000000E+09 +2.12978511425E-01 +7.57679237330E-01 +9.17194401219E-05 -3.32755499241E-04 +7.45775841358E-05 -3.17202694730E-04 +6.04038224669E-02 +8.18245033791E-01
1.46000000000E+09 +2.40666576505E-01 +7.31535185845E-01 +1.62308938921E-04 -3.11371171835E-04 +1.29731053296E-04 -3.29659649179E-04 +9.51888545657E-02 +7.95648130033E-01
1.46500000000E+09 +2.69970692200E-01 +7.01210444782E-01 +1.25675679534E-04 -4.99095524039E-04 +6.37759247912E-05 -4.84530941543E-04 +1.30706679425E-01 +7.68621922455E-01
1.47000000000E+09 +3.01207414777E-01 +6.66505113057E-01 +1.56472404099E-04 -4.57187090093E-04 +1.19770884644E-04 -3.87548869999E-04 +1.67580415587E-01 +7.34548138581E-01
1.47500000000E+09 +3.31818276349E-01 +6.26462905566E-01 -1.81776337722E-05 -7.36324204620E-04 -2.07156676696E-06 -7.35365826278E-04 +2.04401137997E-01 +6.92938202791E-01
1.48000000000E+09 +3.60026137106E-01 +5.80907598451E-01 -2.64228006917E-04 -6.08695609205E-04 -2.17399780087E-04 -6.47125314866E-04 +2.40252080055E-01 +6.42629529955E-01
1.48500000000E+09 +3.84437576355E-01 +5.29130095006E-01 -8.84117920669E-05 -5.08366902357E-04 -1.40667522084E-04 -5.45924248254E-04 +2.73363569361E-01 +5.83349799495E-01
1.49000000000E+09 +4.02765847794E-01 +4.70360223548E-01 +9.83904515719E-05 -8.26042181478E-04 +8.22953407952E-05 -7.89026418831E-04 +3.00144974122E-01 +5.13120284728E-01
1.49500000000E+09 +4.13194198458E-01 +4.04270519398E-01 -4.50143711554E-05 -1.54956996057E-03 -1.17032206955E-04 -1.51696309764E-03 +3.16434707013E-01 +4.33816658969E-01
1.50000000000E+09 +4.13589234117E-01 +3.30206716952E-01 -1.28595054118E-03 -1.88309079276E-03 -1.25091171854E-03 -1.75073644036E-03 +3.19984432764E-01 +3.45451625609E-01
1.50500000000E+09 +4.02753505791E-01 +2.48890749917E-01 -2.18855182903E-03 -1.31841509438E-03 -2.05653898963E-03 -1.27313717742E-03 +3.07102940659E-01 +2.50543000175E-01
1.51000000000E+09 +3.77280336725E-01 +1.60686624067E-01 -2.77341642627E-03 -2.73000890470E-04 -2.73706256084E-03 -3.56225128733E-04 +2.73578884670E-01 +1.52301048671E-01
1.51500000000E+09 +3.33554601765E-01 +7.02651003483E-02 -2.66442608283E-03 +4.03695445140E-04 -2.70852316805E-03 +3.31321774991E-04 +2.19129545170E-01 +5.70952496790E-02
1.52000000000E+09 +2.69846993943E-01 -1.52867475778E-02 -2.71418473716E-03 +1.65447920253E-03 -2.72252307042E-03 +1.64099218557E-03 +1.42152738896E-01 -2.65847905779E-02
1.52500000000E+09 +1.86848048445E-01 -8.88204769287E-02 -1.57808836284E-03 +1.92066699468E-03 -1.62943975593E-03 +1.90148273502E-03 +4.79538309218E-02 -9.18214731840E-02
1.53000000000E+09 +8.73163220990E-02 -1.41095418199E-01 -1.35301942148E-03 +2.02472684412E-03 -1.34976877331E-03 +2.04363509522E-03 -5.62360147446E-02 -1.34210291040E-01
1.53500000000E+09 -2.01131756679E-02 -1.68392092225E-01 -1.48115080301E-03 +2.62328733409E-03 -1.46332992552E-03 +2.60905503193E-03 -1.65350289984E-01 -1.53714313050E-01
1.54000000000E+09 -1.29581315093E-01 -1.70302332953E-01 -5.46487892438E-04 +3.59436372570E-03 -5.44172345107E-04 +3.52640442905E-03 -2.71480894600E-01 -1.50667386243E-01
1.54500000000E+09 -2.34498627861E-01 -1.48382748150E-01 +1.08790917708E-03 +3.91025701618E-03 +1.00394099513E-03 +3.92545549985E-03 -3.68707960903E-01 -1.27559306710E-01
1.55000000000E+09 -3.30672666651E-01 -1.07510727337E-01 +2.65036492913E-03 +2.77419820895E-03 +2.56389294305E-03 +2.79367220375E-03 -4.52095687865E-01 -9.07512970591E-02
1.55500000000E+09 -4.12332975452E-01 -5.16490733123E-02 +2.93736776165E-03 +1.48466252015E-03 +2.93878697483E-03 +1.62768945927E-03 -5.22020674991E-01 -4.48639133474E-02
1.56000000000E+09 -4.78177815302E-01 +9.56204619058E-03 +2.78628146508E-03 +2.96069083157E-04 +2.89081597135E-03 +4.80445566062E-04 -5.78807313492E-01 +7.49639045831E-03
1.56500000000E+09 -5.29482041069E-01 +7.23130267828E-02 +2.23603406848E-03 +9.87342516978E-06 +2.40809825814E-03 +5.58016446698E-05 -6.22495856865E-01 +6.26756974257E-02
1.57000000000E+09 -5.68405587254E-01 +1.33222692620E-01 +2.15010949588E-03 -4.99056671326E-04 +2.27268770529E-03 -5.31913659947E-04 -6.55313863666E-01 +1.17034681158E-01
