# Hz S RI R 50
! CMT, C1220, 16058040, 17.2.0/1
! Date: 14/08/2018 11:59:21
! Data: Format (Calibration Info)
! Freq                      S11: Re/Im (F2)                       S21: Re/Im (F2)                       S12: Re/Im (F2)                       S22: Re/Im (F2)            
1.00000000000E+09 -6.44479319410E-01 +7.12427158809E-01 -1.08266016958E-05 -1.58233790982E-05 -4.23094780194E-05 +1.69731357146E-05 -7.50142746625E-01 +6.26887276820E-01
1.00500000000E+09 -6.37346521976E-01 +7.17333533180E-01 -3.61510192901E-05 +1.53655391869E-05 -2.93426530277E-05 +1.21092850472E-06 -7.46458751172E-01 +6.30932255350E-01
1.01000000000E+09 -6.31309468503E-01 +7.21775942612E-01 -1.54503483130E-05 +1.97971378309E-05 +1.69816503539E-05 +1.89707787366E-05 -7.42922009328E-01 +6.34607698434E-01
1.01500000000E+09 -6.26840437336E-01 +7.25482996488E-01 -6.79704615096E-06 +2.06537561260E-05 -4.79810020145E-05 -3.72711353849E-05 -7.39510684106E-01 +6.38413191119E-01
1.02000000000E+09 -6.23775896945E-01 +7.28797199365E-01 -3.30069873463E-05 +4.82535695794E-06 +4.01177687512E-06 +5.90110290646E-06 -7.35891782657E-01 +6.42032474009E-01
1.02500000000E+09 -6.21653223695E-01 +7.31375998798E-01 +2.22364012559E-06 -2.83543474962E-05 -1.09073433194E-05 -1.23310993749E-05 -7.32961740860E-01 +6.45699619591E-01
1.03000000000E+09 -6.20076077606E-01 +7.33756277975E-01 -3.63701127580E-05 -6.36207223233E-05 +2.04622653388E-05 +2.52314080849E-06 -7.29450136932E-01 +6.49395458378E-01
1.03500000000E+09 -6.17679366625E-01 +7.36197990635E-01 -2.86143925008E-05 +4.18743531849E-05 -6.11147186465E-05 +4.76108313046E-05 -7.25642463940E-01 +6.53405655847E-01
1.04000000000E+09 -6.14098913031E-01 +7.38999497316E-01 -6.32449378889E-05 +1.82668645500E-05 -2.11544872409E-05 +3.82636614717E-06 -7.21986224311E-01 +6.56972415796E-01
1.04500000000E+09 -6.08977635893E-01 +7.42378634006E-01 -5.31541583470E-05 -2.54998670072E-06 -6.79986401657E-05 +6.33437149352E-06 -7.18566195354E-01 +6.60478429093E-01
1.05000000000E+09 -6.02233413544E-01 +7.46389937928E-01 -7.06279124897E-05 +2.75365702667E-05 -2.21331147301E-05 -7.92557910409E-06 -7.15013156005E-01 +6.64082435506E-01
1.05500000000E+09 -5.94216466391E-01 +7.51013224305E-01 -3.37176827168E-05 +3.06708833518E-05 -2.33022086657E-05 +7.82849786794E-05 -7.11678808098E-01 +6.67542825151E-01
1.06000000000E+09 -5.85786177075E-01 +7.55782907700E-01 -3.66825530699E-06 +3.08385786005E-05 -5.62985746756E-05 +3.93628040585E-05 -7.08384095394E-01 +6.71231545872E-01
1.06500000000E+09 -5.77628709609E-01 +7.60513146421E-01 -2.12593198738E-05 +7.31915249278E-05 -2.51310015992E-05 +5.23803374267E-05 -7.04684384071E-01 +6.74990562429E-01
1.07000000000E+09 -5.70629579324E-01 +7.64822742477E-01 -5.03457186497E-05 +5.73710562597E-05 -4.73113043942E-06 +7.03286921294E-05 -7.00547776261E-01 +6.78660866432E-01
1.07500000000E+09 -5.65243345931E-01 +7.68424991522E-01 +1.49646989771E-05 +7.96762172460E-05 +1.52784458780E-05 +4.89968005260E-05 -6.96263113228E-01 +6.82416421221E-01
1.08000000000E+09 -5.61641417668E-01 +7.71714027863E-01 +1.47123408419E-05 +4.15824710128E-05 -2.61864693592E-06 +6.40565715794E-05 -6.92287223857E-01 +6.86340689408E-01
1.08500000000E+09 -5.58982011054E-01 +7.73995935849E-01 +2.33176544667E-05 +6.45110005054E-05 -5.19602780345E-05 +1.77955839391E-05 -6.88312744900E-01 +6.89816565412E-01
1.09000000000E+09 -5.56999186831E-01 +7.76103194574E-01 -1.97884954155E-05 +6.68596544018E-05 +1.59738694703E-05 +3.91036869432E-05 -6.84431691848E-01 +6.93759358320E-01
1.09500000000E+09 -5.55017576364E-01 +7.78066762669E-01 +1.81509242545E-05 +7.06272317176E-05 +1.85259176037E-05 +7.83557949855E-05 -6.80571057976E-01 +6.97646112541E-01
1.10000000000E+09 -5.51751022808E-01 +7.80328193644E-01 +7.17245951634E-05 +5.06306298922E-05 +1.05981251974E-05 +4.79531983129E-05 -6.76636674168E-01 +7.01522761547E-01
1.10500000000E+09 -5.47325586897E-01 +7.82947017348E-01 -2.01791535855E-05 +7.53475369865E-05 +1.27875374691E-05 +4.75010281208E-05 -6.72402826550E-01 +7.04935056857E-01
1.11000000000E+09 -5.41185852709E-01 +7.86272616542E-01 -2.76670279314E-06 +6.20714845177E-05 +3.53836472077E-05 +4.21917054795E-05 -6.68044186970E-01 +7.08412901539E-01
1.11500000000E+09 -5.33743255047E-01 +7.90107477656E-01 +1.76679059113E-05 +6.58906106456E-05 +3.58536217473E-05 +1.09220931152E-04 -6.63829895147E-01 +7.11761417018E-01
1.12000000000E+09 -5.25723783840E-01 +7.93977049600E-01 +4.90181823974E-05 +8.31593747587E-05 +3.60249070385E-05 +6.84289781829E-05 -6.59883341576E-01 +7.15456340245E-01
1.12500000000E+09 -5.17568273329E-01 +7.97928762867E-01 +7.02888913956E-05 +1.00762093492E-04 +7.13122263304E-05 +9.96937365109E-05 -6.55479307221E-01 +7.19432766693E-01
1.13000000000E+09 -5.10496670787E-01 +8.01453222959E-01 +2.57840452569E-05 +1.65418541395E-05 +6.94774622174E-05 +5.62148417384E-05 -6.51284775103E-01 +7.23153799538E-01
1.13500000000E+09 -5.04498522346E-01 +8.04371608182E-01 +4.45006212363E-05 +6.96704016358E-05 +2.56978743969E-05 +1.25788120043E-04 -6.46777564719E-01 +7.26909022271E-01
1.14000000000E+09 -4.99736936997E-01 +8.07128406914E-01 +6.43232595099E-05 +6.74335306413E-05 +8.30121285340E-05 +7.39107246602E-05 -6.41978552865E-01 +7.30407024549E-01
1.14500000000E+09 -4.96037096781E-01 +8.09097320646E-01 +4.87858230661E-05 +2.62091959696E-05 +8.48260950518E-05 +1.07754445397E-04 -6.37458977425E-01 +7.33828046428E-01
1.15000000000E+09 -4.92532124429E-01 +8.10997183366E-01 +1.09914638419E-04 +6.73454712091E-05 +1.36135036307E-04 +6.52739594059E-05 -6.32665084965E-01 +7.37561095317E-01
1.15500000000E+09 -4.88877797158E-01 +8.13012334435E-01 +7.06134289235E-05 +6.48633499612E-05 +9.25498347273E-05 -4.10892248484E-06 -6.27711667713E-01 +7.41289219672E-01
1.16000000000E+09 -4.84155449770E-01 +8.15008684488E-01 +8.55155900452E-05 +3.33542904908E-05 +4.89057595506E-05 +3.70022368257E-05 -6.22903387614E-01 +7.45052408325E-01
1.16500000000E+09 -4.78066843773E-01 +8.17728781863E-01 +7.23037457885E-05 +1.52064066814E-05 +1.34661757455E-04 +6.34870982375E-05 -6.17737030954E-01 +7.48752070835E-01
1.17000000000E+09 -4.70912067518E-01 +8.20967279254E-01 +1.02620598737E-04 +2.90667119805E-05 +1.33262981018E-04 +3.61504747717E-05 -6.12343387463E-01 +7.51969081016E-01
1.17500000000E+09 -4.62513691212E-01 +8.24234346156E-01 +1.36450199490E-04 -2.20163121914E-06 +1.07322190233E-04 +5.60779866538E-05 -6.06592598982E-01 +7.55276443286E-01
1.18000000000E+09 -4.54047462589E-01 +8.27680569690E-01 +1.38366749498E-04 +1.83003261135E-05 +1.59910899177E-04 +2.39897458971E-05 -6.01062528349E-01 +7.58382322251E-01
1.18500000000E+09 -4.45796631226E-01 +8.30890533749E-01 +4.83249701055E-05 +1.45642320073E-05 +1.52801607363E-04 +1.69406722971E-05 -5.95232701625E-01 +7.61377110207E-01
1.19000000000E+09 -4.38425428075E-01 +8.33442586058E-01 +1.82331202660E-04 +4.05380341848E-05 +2.00549251694E-04 +3.24194210916E-05 -5.88910338661E-01 +7.63967146386E-01
1.19500000000E+09 -4.32463575250E-01 +8.35410878826E-01 +2.08137677686E-04 +6.65895915966E-06 +2.32156337237E-04 -1.79597370183E-05 -5.82889495547E-01 +7.65145099634E-01
1.20000000000E+09 -4.27994545260E-01 +8.36458274573E-01 +2.64094345402E-04 -9.24601711516E-05 +2.61006941792E-04 -1.00530425749E-04 -5.78429602101E-01 +7.65408931029E-01
1.20500000000E+09 -4.23989420120E-01 +8.37735324013E-01 +2.09404408751E-04 -1.46230080279E-04 +2.10196877745E-04 -1.22865259830E-04 -5.76052543316E-01 +7.66071507326E-01
1.21000000000E+09 -4.19958485896E-01 +8.39134195069E-01 +1.78195320772E-04 -1.84215845230E-04 +1.90711318969E-04 -1.54763590439E-04 -5.74202825415E-01 +7.69100508135E-01
1.21500000000E+09 -4.14963332380E-01 +8.40973769148E-01 +1.35881352369E-04 -1.85710750590E-04 +1.52284225644E-04 -1.63847404942E-04 -5.71458686957E-01 +7.73504125248E-01
1.22000000000E+09 -4.08265951019E-01 +8.43052880489E-01 +9.59121227560E-05 -1.51450025899E-04 +1.26610327729E-04 -1.68140463084E-04 -5.67242754054E-01 +7.79042133255E-01
1.22500000000E+09 -3.99966809866E-01 +8.45696291901E-01 +1.39097420473E-04 -1.56690312211E-04 +1.39838600435E-04 -2.30261875776E-04 -5.62090421257E-01 +7.84018406471E-01
1.23000000000E+09 -3.90540703273E-01 +8.48775201784E-01 +1.51167805887E-04 -2.08881170266E-04 +1.26851595073E-04 -2.35142329174E-04 -5.56414457135E-01 +7.88807968930E-01
1.23500000000E+09 -3.80360829046E-01 +8.52243933503E-01 +4.91775042624E-05 -2.27157010382E-04 +9.14052688979E-05 -2.18212767728E-04 -5.50579074990E-01 +7.93022252377E-01
1.24000000000E+09 -3.70109929284E-01 +8.55785377753E-01 +1.01109451937E-04 -2.35567729978E-04 +5.90451416816E-05 -2.34900834650E-04 -5.44612372666E-01 +7.96922703310E-01
1.24500000000E+09 -3.60804276445E-01 +8.59547021394E-01 +7.39765873563E-05 -2.71587543951E-04 +8.39791844519E-05 -2.77770258738E-04 -5.38288604363E-01 +8.00773652924E-01
1.25000000000E+09 -3.52694877217E-01 +8.62697713637E-01 +3.45099539049E-05 -2.93546095090E-04 +5.23630459669E-05 -2.82068196373E-04 -5.31636188164E-01 +8.05106100440E-01
1.25500000000E+09 -3.46025202821E-01 +8.65214470413E-01 +1.66724382105E-05 -2.88426595725E-04 +9.33040729153E-05 -3.16516336540E-04 -5.24671079375E-01 +8.08955128864E-01
1.26000000000E+09 -3.40278908533E-01 +8.67054782398E-01 +1.42143778085E-05 -2.92654929019E-04 +8.14887496013E-06 -3.32525741920E-04 -5.18012419315E-01 +8.13261469510E-01
1.26500000000E+09 -3.35230666432E-01 +8.68466344881E-01 -3.39098617504E-05 -3.17047271710E-04 -2.26970755290E-05 -3.25104020041E-04 -5.11026835901E-01 +8.17189578993E-01
1.27000000000E+09 -3.29835947839E-01 +8.69687536845E-01 -4.89050816403E-05 -3.24366664642E-04 -5.01180036730E-05 -3.60242692194E-04 -5.04369609228E-01 +8.20870857204E-01
1.27500000000E+09 -3.23348403888E-01 +8.70947012472E-01 -1.11421604294E-04 -3.91122074628E-04 -9.87500022665E-05 -3.68493886673E-04 -4.97249251167E-01 +8.24519966990E-01
1.28000000000E+09 -3.15050730163E-01 +8.72710503818E-01 -1.52800093682E-04 -3.76828781415E-04 -1.23594673551E-04 -3.64299262446E-04 -4.90249048104E-01 +8.27924756885E-01
1.28500000000E+09 -3.04566538457E-01 +8.74623756968E-01 -2.01086226013E-04 -3.29303967385E-04 -2.14247507818E-04 -3.92842746522E-04 -4.82762092045E-01 +8.31530559741E-01
1.29000000000E+09 -2.93074122455E-01 +8.76971902712E-01 -2.16228170808E-04 -2.90962247022E-04 -2.57273334109E-04 -3.48086630812E-04 -4.75345824977E-01 +8.35214776257E-01
1.29500000000E+09 -2.80642181779E-01 +8.79743026129E-01 -2.14597018410E-04 -3.47530764255E-04 -3.06305151458E-04 -3.06419062888E-04 -4.67513708021E-01 +8.38697910593E-01
1.30000000000E+09 -2.68498014778E-01 +8.82747854528E-01 -3.02161016237E-04 -3.20168335888E-04 -3.81683100843E-04 -2.80035548196E-04 -4.59592101029E-01 +8.42297159896E-01
1.30500000000E+09 -2.57361040911E-01 +8.85588853341E-01 -3.64330463703E-04 -3.31066872856E-04 -3.69912307946E-04 -3.05340264997E-04 -4.51434474970E-01 +8.45711205665E-01
1.31000000000E+09 -2.47805111535E-01 +8.88072042532E-01 -4.61571484787E-04 -2.67505612027E-04 -4.28338627756E-04 -2.39133942523E-04 -4.43056624791E-01 +8.49073456790E-01
1.31500000000E+09 -2.39912621966E-01 +8.90038398162E-01 -4.66832421793E-04 -2.40876020796E-04 -3.94469417015E-04 -2.70138553622E-04 -4.34265412856E-01 +8.52407907064E-01
1.32000000000E+09 -2.33561139923E-01 +8.91264776705E-01 -4.41262308066E-04 -1.96233730052E-04 -4.48562704898E-04 -2.26024858734E-04 -4.25111370595E-01 +8.55854452002E-01
1.32500000000E+09 -2.27667776068E-01 +8.91770368780E-01 -4.53983507879E-04 -1.63790531666E-04 -5.10784769067E-04 -2.31012509325E-04 -4.15455192572E-01 +8.59292293687E-01
1.33000000000E+09 -2.21130376917E-01 +8.91968427186E-01 -5.17595670353E-04 -1.86474037728E-04 -5.71551506592E-04 -9.46201854877E-05 -4.05816054305E-01 +8.62668332178E-01
1.33500000000E+09 -2.12998595575E-01 +8.91746803319E-01 -5.94193758362E-04 -1.60864342249E-04 -5.79445679810E-04 -9.03609039585E-05 -3.95813922885E-01 +8.65919838787E-01
1.34000000000E+09 -2.02438642059E-01 +8.91876179060E-01 -6.12821691144E-04 -1.07862033689E-04 -5.66582469910E-04 -5.76912060760E-05 -3.85612340301E-01 +8.69127832796E-01
1.34500000000E+09 -1.89038231292E-01 +8.91502627837E-01 -6.88101737353E-04 -8.12693873457E-05 -6.60646416019E-04 -6.26785775580E-05 -3.74629079658E-01 +8.72408213972E-01
1.35000000000E+09 -1.73672266639E-01 +8.91221554088E-01 -7.15343801902E-04 +7.03730233798E-05 -6.96865593184E-04 +3.12480909073E-05 -3.63447328810E-01 +8.75409606035E-01
1.35500000000E+09 -1.57269971583E-01 +8.91166530177E-01 -7.50522085786E-04 +1.66323939138E-04 -7.50004873556E-04 +1.48638928744E-04 -3.51830678134E-01 +8.78145099855E-01
1.36000000000E+09 -1.40642213466E-01 +8.91603508038E-01 -7.30671772416E-04 +2.05413251638E-04 -7.24209654366E-04 +1.97980984916E-04 -3.39996540099E-01 +8.80685524469E-01
1.36500000000E+09 -1.24930408234E-01 +8.91946119840E-01 -7.58325551590E-04 +2.31158303512E-04 -7.70250578992E-04 +2.53143767217E-04 -3.27902755913E-01 +8.83245577073E-01
1.37000000000E+09 -1.10426198641E-01 +8.92103345882E-01 -7.98804725737E-04 +3.46170218359E-04 -7.47327159796E-04 +2.45782993844E-04 -3.14986433972E-01 +8.85699840088E-01
1.37500000000E+09 -9.79469606745E-02 +8.92090233621E-01 -8.50718513862E-04 +4.23255707291E-04 -8.58725567589E-04 +3.56939059227E-04 -3.01203978924E-01 +8.87989975776E-01
1.38000000000E+09 -8.66931838188E-02 +8.91459865144E-01 -8.89321197420E-04 +6.14440035715E-04 -9.93208022509E-04 +4.75195614796E-04 -2.86603086274E-01 +8.89835991646E-01
1.38500000000E+09 -7.56765416059E-02 +8.90486004924E-01 -8.63944876471E-04 +7.46119007377E-04 -1.03951557733E-03 +8.17462822717E-04 -2.71353277034E-01 +8.91643104700E-01
1.39000000000E+09 -6.42801331633E-02 +8.88604093005E-01 -7.83784185163E-04 +8.11709182468E-04 -8.43597152742E-04 +9.15711199831E-04 -2.55265286595E-01 +8.93038290103E-01
1.39500000000E+09 -5.07267114954E-02 +8.85965531627E-01 -7.38585735200E-04 +9.11531308947E-04 -7.51775628384E-04 +1.10263798964E-03 -2.38569312730E-01 +8.93773231102E-01
1.40000000000E+09 -3.46950306425E-02 +8.82204314247E-01 -7.30308806391E-04 +1.04608387286E-03 -7.00676898940E-04 +1.19844611165E-03 -2.21008062767E-01 +8.94292783795E-01
1.40500000000E+09 -1.64485004272E-02 +8.77503036837E-01 -6.34834027368E-04 +1.23803109857E-03 -5.71513558504E-04 +1.28176490267E-03 -2.02188908083E-01 +8.94087937433E-01
1.41000000000E+09 +4.00409903315E-03 +8.72120381304E-01 -5.84468491496E-04 +1.32534236254E-03 -5.81298661496E-04 +1.36569316473E-03 -1.82104436979E-01 +8.93220054224E-01
1.41500000000E+09 +2.59040476044E-02 +8.65969211130E-01 -5.12404237943E-04 +1.52626896443E-03 -5.74334684258E-04 +1.59361042580E-03 -1.60752809472E-01 +8.91741582698E-01
1.42000000000E+09 +4.86815862562E-02 +8.59464436206E-01 -4.15855035020E-04 +1.62103300934E-03 -5.18713069160E-04 +1.77425967309E-03 -1.37703141878E-01 +8.89191803875E-01
1.42500000000E+09 +7.09402544042E-02 +8.52101103181E-01 -4.22973111279E-04 +1.88642532825E-03 -4.07926914733E-04 +2.16203143168E-03 -1.14142410617E-01 +8.85373829511E-01
1.43000000000E+09 +9.24515970807E-02 +8.43805437745E-01 -2.17268706158E-04 +2.34910593299E-03 +8.62635848007E-07 +2.56739424473E-03 -8.93624975160E-02 +8.80591839508E-01
1.43500000000E+09 +1.13145808277E-01 +8.34442097752E-01 +2.73976585662E-04 +2.52680519278E-03 +5.38929534473E-04 +2.57264828097E-03 -6.30416233302E-02 +8.73729977211E-01
1.44000000000E+09 +1.34096308507E-01 +8.23932570978E-01 +5.92667091572E-04 +2.64496438975E-03 +8.06529329898E-04 +2.57951072102E-03 -3.50842586368E-02 +8.64957173732E-01
1.44500000000E+09 +1.56244923161E-01 +8.10766341611E-01 +9.59489947684E-04 +2.66308031934E-03 +1.11689020398E-03 +2.61910615402E-03 -5.10261334819E-03 +8.53709639806E-01
1.45000000000E+09 +1.80217986150E-01 +7.93977271662E-01 +1.11326794074E-03 +2.75251339229E-03 +1.33318700289E-03 +2.79557173388E-03 +2.66739817348E-02 +8.38756283201E-01
1.45500000000E+09 +2.05942012209E-01 +7.73579552416E-01 +1.49174339000E-03 +3.28619932292E-03 +1.81421224161E-03 +3.21218889985E-03 +5.93916027060E-02 +8.20828670584E-01
1.46000000000E+09 +2.34143145405E-01 +7.48624112294E-01 +2.33421849704E-03 +3.74065869767E-03 +2.60174913450E-03 +3.38516398270E-03 +9.39094179524E-02 +7.99691107829E-01
1.46500000000E+09 +2.64178483704E-01 +7.19428824724E-01 +3.49072024479E-03 +3.83749355317E-03 +3.46605736540E-03 +3.32317270113E-03 +1.30266438135E-01 +7.73230821353E-01
1.47000000000E+09 +2.95744153484E-01 +6.84703654472E-01 +4.94599937924E-03 +3.64314696517E-03 +4.58175512684E-03 +3.34711420211E-03 +1.67359395098E-01 +7.39690884912E-01
1.47500000000E+09 +3.26837866401E-01 +6.44275891892E-01 +6.23880371165E-03 +2.66194464949E-03 +5.89662130519E-03 +2.80531906874E-03 +2.04246977424E-01 +6.98730432251E-01
1.48000000000E+09 +3.55523242548E-01 +5.97388045576E-01 +7.09505785983E-03 +1.74653412069E-03 +7.07997292753E-03 +1.98940432752E-03 +2.40444987930E-01 +6.49739612104E-01
1.48500000000E+09 +3.79503038651E-01 +5.44111645911E-01 +8.15662779931E-03 +6.89312935790E-04 +8.38527534075E-03 +5.22299809889E-04 +2.74325330659E-01 +5.91872559881E-01
1.49000000000E+09 +3.97538165464E-01 +4.84233123235E-01 +9.47233444543E-03 -8.27686360834E-04 +9.45754150451E-03 -1.31836478964E-03 +3.04234159399E-01 +5.23089776408E-01
1.49500000000E+09 +4.08033030036E-01 +4.17652437583E-01 +1.04198773638E-02 -3.14532664709E-03 +9.79286200303E-03 -3.46095773382E-03 +3.23364899877E-01 +4.41878740262E-01
1.50000000000E+09 +4.08964468698E-01 +3.42422105964E-01 +1.12315636330E-02 -6.00009949998E-03 +1.05429211264E-02 -5.69769984610E-03 +3.27841806422E-01 +3.53114506440E-01
1.50500000000E+09 +3.98098768328E-01 +2.59905800786E-01 +1.05859344276E-02 -1.06139748233E-02 +1.04768622815E-02 -9.82430452686E-03 +3.17626985629E-01 +2.57086814668E-01
1.51000000000E+09 +3.71522810937E-01 +1.70603115186E-01 +7.90882147840E-03 -1.48405076324E-02 +8.36407946689E-03 -1.43583689053E-02 +2.87217396381E-01 +1.55672411251E-01
1.51500000000E+09 +3.25890575004E-01 +8.06297130594E-02 +2.89602553149E-03 -1.77800026917E-02 +3.36345900726E-03 -1.78365701845E-02 +2.32282932209E-01 +5.66101892996E-02
1.52000000000E+09 +2.60746019168E-01 -4.18397969778E-03 -2.95832990991E-03 -1.84987598267E-02 -2.72346071819E-03 -1.87518361598E-02 +1.55407397434E-01 -3.12354465521E-02
1.52500000000E+09 +1.75989710148E-01 -7.64412681710E-02 -8.05264086520E-03 -1.63492937682E-02 -8.08166623493E-03 -1.64874814945E-02 +5.85767146112E-02 -1.00402231364E-01
1.53000000000E+09 +7.72272828631E-02 -1.27457735816E-01 -1.15071045716E-02 -1.39675201050E-02 -1.16374374296E-02 -1.40769113172E-02 -5.00411687509E-02 -1.45725752688E-01
1.53500000000E+09 -2.91505479563E-02 -1.55243304649E-01 -1.53565781510E-02 -1.10799929148E-02 -1.53979282403E-02 -1.10387428206E-02 -1.63847524713E-01 -1.64602291902E-01
1.54000000000E+09 -1.37906799696E-01 -1.59365178680E-01 -1.83749702060E-02 -6.21293043266E-03 -1.81943326057E-02 -6.18538380817E-03 -2.73661562815E-01 -1.59696992141E-01
1.54500000000E+09 -2.43530174165E-01 -1.39269706674E-01 -1.89181837855E-02 +6.74388387488E-05 -1.86773924566E-02 -3.08646791046E-04 -3.71554289786E-01 -1.33442518228E-01
1.55000000000E+09 -3.39364279691E-01 -9.80114016429E-02 -1.68338259952E-02 +4.99610786807E-03 -1.70579175411E-02 +4.38394248449E-03 -4.55634159479E-01 -9.52667880953E-02
1.55500000000E+09 -4.19010724223E-01 -4.18029152492E-02 -1.41272105916E-02 +8.88523853030E-03 -1.47582006695E-02 +8.46666537696E-03 -5.25271327833E-01 -4.74888254497E-02
1.56000000000E+09 -4.81115599709E-01 +1.92935481356E-02 -9.98072423257E-03 +1.15180089998E-02 -1.07268806452E-02 +1.16782948920E-02 -5.81554483154E-01 +5.44403934533E-03
1.56500000000E+09 -5.29777190270E-01 +7.96750014309E-02 -5.51832387078E-03 +1.18574699211E-02 -6.02218670786E-03 +1.24811929340E-02 -6.25049544858E-01 +6.00752852924E-02
1.57000000000E+09 -5.68440150019E-01 +1.38538662230E-01 -2.75457222203E-03 +1.06756527460E-02 -2.86197312380E-03 +1.14077054126E-02 -6.58543529417E-01 +1.14823098730E-01
