# Hz S RI R 50
! CMT, C1220, 16058040, 17.2.0/1
! Date: 14/08/2018 12:20:30
! Data: Format (Calibration Info)
! Freq                      S11: Re/Im (F2)                       S21: Re/Im (F2)                       S12: Re/Im (F2)                       S22: Re/Im (F2)            
1.00000000000E+09 -6.43781030457E-01 +7.16044188174E-01 +1.81889884547E-05 -3.98244582286E-05 -4.55029191546E-05 +6.76364096250E-05 -7.48117709531E-01 +6.24064994213E-01
1.00500000000E+09 -6.36561554812E-01 +7.21199843392E-01 +4.69426102465E-05 +7.86358529570E-06 +3.87146919709E-05 -5.29859302181E-05 -7.44404918492E-01 +6.27858398264E-01
1.01000000000E+09 -6.30586696131E-01 +7.25794126885E-01 +4.45324744974E-05 -7.86285428369E-06 +1.60131310241E-05 -8.23111685338E-06 -7.41078765534E-01 +6.31758745043E-01
1.01500000000E+09 -6.26399450790E-01 +7.29491027044E-01 -1.13870883850E-05 +2.04311772881E-05 +1.13243351151E-05 -3.11736071716E-05 -7.37625952502E-01 +6.35417707618E-01
1.02000000000E+09 -6.23840348602E-01 +7.32640857734E-01 -5.35711087654E-05 -1.62251418253E-05 -1.23007069387E-05 +5.16407529616E-05 -7.34180841734E-01 +6.38824238346E-01
1.02500000000E+09 -6.22181606282E-01 +7.35322492358E-01 +2.27818966517E-05 -7.97152200322E-06 -3.13051825656E-05 -1.99281401313E-05 -7.31428346373E-01 +6.42472055346E-01
1.03000000000E+09 -6.21090610715E-01 +7.37525626434E-01 +7.92414614398E-05 +2.58195881264E-05 -8.90606937776E-06 +2.88535606174E-05 -7.28029335130E-01 +6.46514103286E-01
1.03500000000E+09 -6.19249831591E-01 +7.39799914772E-01 +2.16072287185E-05 +5.39318956719E-05 +1.60873790697E-05 -8.10299405781E-06 -7.24038038570E-01 +6.50394113113E-01
1.04000000000E+09 -6.15582898750E-01 +7.42607578465E-01 +4.20975965837E-05 +1.27616970427E-05 +5.75751783158E-06 -1.89294687856E-06 -7.20379252609E-01 +6.53954818457E-01
1.04500000000E+09 -6.10339082352E-01 +7.45757554602E-01 -2.93645591351E-05 -2.89630309310E-06 +5.72372604490E-06 -3.42835118601E-05 -7.16739862013E-01 +6.57448451778E-01
1.05000000000E+09 -6.03012846529E-01 +7.49895025373E-01 -2.39083436494E-05 +1.06284696335E-05 -4.74459489568E-06 +3.25715986218E-05 -7.13475091793E-01 +6.60868657632E-01
1.05500000000E+09 -5.94276372153E-01 +7.54737916626E-01 +5.59872738362E-06 +3.20687766874E-05 -3.80699786240E-06 -1.79935717306E-05 -7.10081031253E-01 +6.64436667956E-01
1.06000000000E+09 -5.84792725303E-01 +7.59829720396E-01 +3.81284440388E-05 +1.08187021675E-05 -3.35748405179E-05 +5.29298142335E-05 -7.06972234992E-01 +6.68244821284E-01
1.06500000000E+09 -5.75542661979E-01 +7.64857214217E-01 +8.14512396251E-06 +4.14201145729E-05 +4.81488972402E-05 -1.93465713938E-05 -7.03025165697E-01 +6.71958155773E-01
1.07000000000E+09 -5.67479728163E-01 +7.69417139289E-01 +7.06640753342E-05 -2.77284121123E-05 -9.17447698567E-06 +4.53839755863E-05 -6.99100860587E-01 +6.75582521546E-01
1.07500000000E+09 -5.61258997958E-01 +7.73175554809E-01 -3.82395448474E-07 +2.51189407987E-05 +4.57787417671E-05 +7.70603840962E-06 -6.94661315002E-01 +6.79188972339E-01
1.08000000000E+09 -5.56724230876E-01 +7.76436723744E-01 +4.52850338761E-05 -2.81112334268E-06 +5.14106421175E-05 -1.94819040107E-05 -6.90730252384E-01 +6.83145015632E-01
1.08500000000E+09 -5.53832159267E-01 +7.78962882038E-01 +3.80379720029E-05 +3.70048676609E-05 +1.82388391059E-05 +2.93277274535E-05 -6.86868872530E-01 +6.86881682183E-01
1.09000000000E+09 -5.51728094045E-01 +7.80903707106E-01 +5.23622222656E-05 +1.88138022729E-05 +4.96730542997E-05 +1.20646834157E-06 -6.82885845052E-01 +6.90547371688E-01
1.09500000000E+09 -5.50040797992E-01 +7.82717000413E-01 +2.79100643713E-05 +1.37838618906E-06 -7.71449209023E-06 +8.38115720221E-06 -6.79212103068E-01 +6.94387185798E-01
1.10000000000E+09 -5.47049262927E-01 +7.84742539224E-01 +7.69555468011E-05 -9.79763747995E-06 +2.71101509871E-05 -3.36174418518E-05 -6.75124239449E-01 +6.98214803019E-01
1.10500000000E+09 -5.42778237027E-01 +7.87406555987E-01 +4.54385042066E-05 -1.81849779752E-05 -3.22421139852E-05 +1.18320091406E-06 -6.70905064670E-01 +7.01756401849E-01
1.11000000000E+09 -5.37152840180E-01 +7.90491622558E-01 +1.02738834997E-05 -2.44340790885E-05 +3.55042693008E-05 +1.04829903339E-05 -6.66740392447E-01 +7.05123787798E-01
1.11500000000E+09 -5.29749298751E-01 +7.94267455305E-01 -1.90507986086E-05 -4.50060992392E-05 +2.49304034829E-05 -3.25864096835E-05 -6.62629432760E-01 +7.08575020879E-01
1.12000000000E+09 -5.21881230230E-01 +7.98159718797E-01 +8.23115380796E-07 -7.27414237785E-06 -6.26680416806E-06 -8.86912403451E-06 -6.58466652935E-01 +7.12126974452E-01
1.12500000000E+09 -5.13583110716E-01 +8.02373033869E-01 -1.74942603040E-05 -2.44160510560E-05 -2.66071835150E-05 -5.49740027424E-05 -6.54299842519E-01 +7.15964608995E-01
1.13000000000E+09 -5.06091157053E-01 +8.05904041421E-01 +3.75435878550E-05 -5.25904148338E-06 +3.80186628031E-05 -5.16472887060E-05 -6.50120675881E-01 +7.19613259645E-01
1.13500000000E+09 -4.99533062200E-01 +8.08588633374E-01 +2.76150118834E-05 -5.11916190503E-05 +1.58149966027E-05 -4.22696946162E-06 -6.45651165020E-01 +7.23456820568E-01
1.14000000000E+09 -4.94154502543E-01 +8.11099975330E-01 +1.80859459526E-05 -5.26299788538E-05 +6.38252244018E-06 -6.55591223015E-05 -6.40848655646E-01 +7.26990997139E-01
1.14500000000E+09 -4.90091359469E-01 +8.12789232971E-01 -2.19148630369E-05 +1.12923575587E-05 -1.21233728960E-05 +1.02746413741E-05 -6.36216458517E-01 +7.30201096247E-01
1.15000000000E+09 -4.86238827741E-01 +8.14305325297E-01 +2.28220188233E-05 -7.02251750784E-05 +7.95517377781E-06 +1.13516060501E-05 -6.31614671834E-01 +7.33998203390E-01
1.15500000000E+09 -4.82320809642E-01 +8.15915095018E-01 +2.08473294407E-05 -6.24549716976E-05 -2.13421091997E-05 -6.59682702368E-05 -6.26881408704E-01 +7.37840367070E-01
1.16000000000E+09 -4.77482970998E-01 +8.17513063003E-01 +3.61443042165E-05 -9.89883353124E-06 -3.07748097968E-05 -5.07656988587E-05 -6.22050492125E-01 +7.41686400596E-01
1.16500000000E+09 -4.71632050524E-01 +8.20244472411E-01 +3.61797029915E-05 -1.04854362422E-05 +7.40378100451E-06 +1.13106525102E-05 -6.16880670030E-01 +7.45235479093E-01
1.17000000000E+09 -4.64273218684E-01 +8.23217820798E-01 +5.29196236834E-06 -4.65708890275E-05 -1.23084341539E-05 -1.33752769194E-05 -6.11640282123E-01 +7.48526988555E-01
1.17500000000E+09 -4.56271841931E-01 +8.26478931939E-01 +2.82895925698E-05 -4.99095272143E-05 -2.88927517070E-05 -4.58577984368E-05 -6.05770310380E-01 +7.51667400560E-01
1.18000000000E+09 -4.47993283010E-01 +8.30017845785E-01 -5.25101822638E-05 -3.61922098968E-05 -7.69588554595E-06 -5.39055513428E-05 -6.00257850712E-01 +7.54832365495E-01
1.18500000000E+09 -4.39989199016E-01 +8.33241794059E-01 -7.54037369159E-06 -5.08685623901E-05 -1.95142973572E-05 -2.69529944404E-05 -5.94307273395E-01 +7.57858315462E-01
1.19000000000E+09 -4.32630828115E-01 +8.35897242926E-01 -5.11327253495E-05 -2.65126775423E-05 -1.49903488159E-05 -5.38958856452E-05 -5.88118871407E-01 +7.60438205132E-01
1.19500000000E+09 -4.26521423941E-01 +8.37844277438E-01 -4.61826195025E-05 -7.19937421706E-05 -1.26362647317E-04 -7.50042358138E-05 -5.82322606052E-01 +7.61659764620E-01
1.20000000000E+09 -4.21504090985E-01 +8.38655423130E-01 -1.03044165568E-04 -7.63534730763E-05 -9.19201246710E-05 -1.65398788979E-05 -5.77961017895E-01 +7.61896373847E-01
1.20500000000E+09 -4.17100047554E-01 +8.39686267920E-01 -9.13266105274E-05 -3.28783464981E-06 -1.49137932094E-05 -1.10275501499E-05 -5.75585323426E-01 +7.62832352920E-01
1.21000000000E+09 -4.12309202454E-01 +8.40654765233E-01 -6.84650453415E-05 +2.00683508016E-05 -5.17188017928E-05 +3.97063062433E-05 -5.73628083125E-01 +7.65843410460E-01
1.21500000000E+09 -4.06189379977E-01 +8.41866504416E-01 -6.80415627520E-06 -2.79853352701E-05 -3.19007458366E-05 +1.99055288140E-05 -5.70817236381E-01 +7.70322087105E-01
1.22000000000E+09 -3.98531714571E-01 +8.43544396099E-01 -5.67098337136E-06 +3.32221619707E-05 -4.13558908391E-05 -1.09147219969E-05 -5.66674133807E-01 +7.75700742897E-01
1.22500000000E+09 -3.89217181649E-01 +8.45777591900E-01 -1.00060535177E-05 +6.38902103339E-06 +2.61297338282E-05 +4.07709365439E-06 -5.61662572536E-01 +7.80792135575E-01
1.23000000000E+09 -3.78495266364E-01 +8.48425506957E-01 +2.91583928136E-05 +1.65117860217E-05 +1.38931859538E-05 +8.35373934559E-06 -5.55950519769E-01 +7.85232079793E-01
1.23500000000E+09 -3.67404900483E-01 +8.51881740401E-01 -2.72024072897E-05 -2.65908339182E-05 -4.59519634554E-05 -5.56995928809E-06 -5.50293242950E-01 +7.89499162653E-01
1.24000000000E+09 -3.56333198907E-01 +8.55463800327E-01 -1.30159213039E-05 -4.53367091120E-05 -1.97414116532E-05 -5.75278515993E-05 -5.44248277368E-01 +7.93466204250E-01
1.24500000000E+09 -3.46560861035E-01 +8.59316685239E-01 -4.00969612311E-05 -3.34177148396E-05 -5.44403872294E-05 -5.38047190682E-05 -5.37840472752E-01 +7.97126479635E-01
1.25000000000E+09 -3.37900195025E-01 +8.62456977770E-01 -6.07762800906E-05 -3.96543115922E-06 -4.22798776137E-05 +3.02940703955E-05 -5.31343915074E-01 +8.01366829866E-01
1.25500000000E+09 -3.31000319166E-01 +8.64811050866E-01 -5.97420812562E-05 +1.00387767366E-05 -3.38282652078E-05 -8.80288912767E-06 -5.24499508284E-01 +8.05334263042E-01
1.26000000000E+09 -3.25304225999E-01 +8.66401763603E-01 -5.03825418259E-05 +1.44713447386E-06 -7.42654505107E-05 +6.29398618430E-06 -5.17886988022E-01 +8.09547843000E-01
1.26500000000E+09 -3.20495888882E-01 +8.67314638617E-01 -4.42194014442E-05 +1.35326803566E-06 -9.13115923141E-05 +1.97703278955E-05 -5.10907606978E-01 +8.13271269074E-01
1.27000000000E+09 -3.15198675668E-01 +8.68188226367E-01 -8.39517806615E-05 +3.80524995354E-05 -7.99942817309E-05 +2.93021623573E-05 -5.04066559805E-01 +8.17203292950E-01
1.27500000000E+09 -3.08907827852E-01 +8.68979439038E-01 -6.44804179507E-05 +3.74212151200E-05 -8.31843044593E-05 +1.91108732824E-05 -4.97039662059E-01 +8.20725577093E-01
1.28000000000E+09 -3.00622158741E-01 +8.70254917620E-01 -1.99484004590E-05 +2.86260341482E-05 -8.68025600832E-05 +3.68132535716E-05 -4.90128491081E-01 +8.24170992438E-01
1.28500000000E+09 -2.90245506759E-01 +8.71742500258E-01 -7.12839478902E-05 +8.98839778455E-05 -9.58620319157E-05 +6.37604119184E-05 -4.82686739681E-01 +8.27822643629E-01
1.29000000000E+09 -2.78547740727E-01 +8.73955385180E-01 -5.98110900881E-05 +7.19562382741E-05 -5.75555620546E-05 +7.59725782116E-05 -4.75095711833E-01 +8.31491855087E-01
1.29500000000E+09 -2.66113798242E-01 +8.76716654911E-01 -5.19041521700E-05 +7.89548570437E-05 -3.94303072175E-05 +7.63978670085E-05 -4.67376688485E-01 +8.34940394275E-01
1.30000000000E+09 -2.53713847141E-01 +8.80001431110E-01 -2.97503313702E-05 +9.90349436292E-05 -2.96497935383E-05 +3.16410029530E-05 -4.59700270567E-01 +8.38423176955E-01
1.30500000000E+09 -2.42132931788E-01 +8.82809193139E-01 -2.98670145764E-05 +9.81389565439E-05 -1.60699239385E-05 +1.39872975297E-04 -4.51793752454E-01 +8.41838183670E-01
1.31000000000E+09 -2.32046089635E-01 +8.85175627039E-01 -5.24270947809E-05 +1.69462267661E-04 -1.05450581537E-05 +1.08122064040E-04 -4.43340282782E-01 +8.45182337650E-01
1.31500000000E+09 -2.23934877251E-01 +8.86436912360E-01 +1.03288614970E-05 +1.02337485123E-04 +2.16572517746E-05 +1.18692622499E-04 -4.34584531512E-01 +8.48692374618E-01
1.32000000000E+09 -2.17366520694E-01 +8.86852410384E-01 +4.27064709946E-05 +1.05959024710E-04 +5.07403277594E-05 +9.98233860427E-05 -4.25580292974E-01 +8.52063784128E-01
1.32500000000E+09 -2.11401134699E-01 +8.86480838463E-01 +1.01140358142E-05 +9.34468434336E-05 -1.74934572974E-05 +1.07151306403E-04 -4.16067272940E-01 +8.55516335903E-01
1.33000000000E+09 -2.04586521523E-01 +8.85772486097E-01 -2.93023543513E-05 +1.15803801305E-04 -1.23523229158E-06 +1.09046353134E-04 -4.06400929948E-01 +8.58922678382E-01
1.33500000000E+09 -1.96125560089E-01 +8.84608728080E-01 +3.07935118216E-05 +1.41555422622E-04 +4.60196273000E-05 +1.45163813297E-04 -3.96719614456E-01 +8.62133361780E-01
1.34000000000E+09 -1.85103059378E-01 +8.83677027932E-01 +6.13697073843E-05 +1.09035721184E-04 +7.05024111382E-05 +1.20982907334E-04 -3.86542759345E-01 +8.65466771129E-01
1.34500000000E+09 -1.71643012194E-01 +8.82855040791E-01 +9.80970774521E-05 +5.31327195746E-05 +1.09791898532E-04 +8.31787814361E-05 -3.75617161560E-01 +8.68770224442E-01
1.35000000000E+09 -1.56239292787E-01 +8.82419026324E-01 +1.10464708692E-04 +5.55330221875E-05 +7.47920564096E-05 +6.49161159351E-05 -3.64642394754E-01 +8.71893340851E-01
1.35500000000E+09 -1.39597395199E-01 +8.82559317428E-01 +7.73595794382E-05 +5.81728633325E-05 +5.15800097239E-05 +7.70127467095E-05 -3.53006695244E-01 +8.74860046139E-01
1.36000000000E+09 -1.22802326340E-01 +8.82853883271E-01 +8.50650494882E-05 +1.02775960487E-04 +3.28323852425E-05 +6.99606087599E-05 -3.41282490844E-01 +8.77578693203E-01
1.36500000000E+09 -1.06715009244E-01 +8.83264260800E-01 +9.40607572227E-05 +9.20718304459E-05 +4.12672220897E-05 +8.36592306651E-05 -3.29092169488E-01 +8.80089635129E-01
1.37000000000E+09 -9.22520240466E-02 +8.83059028446E-01 +1.31604017724E-04 +1.07512333292E-04 +1.39839410402E-04 +6.92114345717E-05 -3.16332264897E-01 +8.82401615558E-01
1.37500000000E+09 -7.99483752828E-02 +8.82379464132E-01 +8.74917678134E-05 +1.10830381453E-04 +7.24025380761E-05 +1.30925695211E-04 -3.02590900558E-01 +8.84694544275E-01
1.38000000000E+09 -6.91079258775E-02 +8.81098973266E-01 +1.55011490464E-04 +1.49359582119E-04 +1.96438746839E-04 +1.14297595441E-04 -2.88000491883E-01 +8.86803091376E-01
1.38500000000E+09 -5.82657476466E-02 +8.78967422044E-01 +2.36793715209E-04 +5.61670857670E-05 +2.24902197486E-04 +9.16707898155E-05 -2.72591860324E-01 +8.88639863182E-01
1.39000000000E+09 -4.67933050894E-02 +8.75958604115E-01 +1.93968442907E-04 +6.40624357574E-05 +2.09612566567E-04 +9.04518219925E-05 -2.56563508129E-01 +8.90192091836E-01
1.39500000000E+09 -3.34278277519E-02 +8.72124924194E-01 +2.87662889193E-04 +5.29538773400E-05 +3.30300616346E-04 +4.78106982907E-05 -2.39888097170E-01 +8.90966060635E-01
1.40000000000E+09 -1.74747366305E-02 +8.67315352826E-01 +3.07885848168E-04 -6.53068454452E-05 +3.47615796223E-04 -1.14661964955E-04 -2.22345204227E-01 +8.91558398217E-01
1.40500000000E+09 +7.18099036312E-04 +8.61950766969E-01 +2.89105116362E-04 -2.29269611207E-04 +2.73698421716E-04 -2.43006646732E-04 -2.03564637054E-01 +8.91397152227E-01
1.41000000000E+09 +2.09963693455E-02 +8.56254709174E-01 +1.95056871223E-04 -1.44996423167E-04 +1.93175589793E-04 -1.39662193347E-04 -1.83213128716E-01 +8.90706403118E-01
1.41500000000E+09 +4.26813555780E-02 +8.50317440094E-01 +1.64832346144E-04 -1.23335135404E-04 +1.74614723931E-04 -1.31637655512E-04 -1.61622129002E-01 +8.89216922237E-01
1.42000000000E+09 +6.50608285383E-02 +8.44036546095E-01 +2.66299587944E-04 -9.59044220212E-05 +2.78987164190E-04 -1.01937815853E-04 -1.38808787312E-01 +8.86409846006E-01
1.42500000000E+09 +8.68962090687E-02 +8.36471188014E-01 +3.35185417218E-04 -2.95544817109E-04 +3.65279147611E-04 -3.36287966032E-04 -1.15116367764E-01 +8.82882021057E-01
1.43000000000E+09 +1.07023689796E-01 +8.27821732237E-01 +1.61491307793E-04 -3.90491163929E-04 +1.45840800226E-04 -4.48768352104E-04 -9.03247668982E-02 +8.78062880852E-01
1.43500000000E+09 +1.26218217760E-01 +8.17789548045E-01 +4.04850352900E-05 -3.24475867888E-04 -4.87521548538E-05 -3.82692975876E-04 -6.39775520436E-02 +8.71486071767E-01
1.44000000000E+09 +1.45161016500E-01 +8.06193474669E-01 -7.47030972921E-05 -2.68135268530E-04 -1.21379713336E-04 -2.73073582169E-04 -3.58853158718E-02 +8.62516296303E-01
1.44500000000E+09 +1.65266871891E-01 +7.91858904846E-01 -1.61572226504E-05 -1.00003577320E-04 -5.27032435789E-05 -7.69029459375E-05 -5.89285910697E-03 +8.51210935477E-01
1.45000000000E+09 +1.87248668189E-01 +7.74353613734E-01 +1.74353496182E-04 -2.06838678615E-04 +1.85423145816E-04 -1.87002161171E-04 +2.62285369373E-02 +8.36712175539E-01
1.45500000000E+09 +2.11793974431E-01 +7.52550365495E-01 -5.04314422983E-05 -2.65685914949E-04 -2.81783235570E-05 -2.56468839429E-04 +5.96523602414E-02 +8.18778486278E-01
1.46000000000E+09 +2.39000916484E-01 +7.26364167292E-01 +3.29994956674E-05 -6.20554667842E-05 +5.00829885671E-05 -1.07177915108E-04 +9.45929112584E-02 +7.96391258235E-01
1.46500000000E+09 +2.67642297044E-01 +6.95860935740E-01 +1.62854655392E-04 -2.54913783735E-04 +1.14034279710E-04 -1.95597065586E-04 +1.30067834256E-01 +7.69670756747E-01
1.47000000000E+09 +2.98088006069E-01 +6.61168110476E-01 +3.14730242913E-04 -3.03913829716E-04 +2.84353685777E-04 -2.60330682940E-04 +1.67266629727E-01 +7.35911126566E-01
1.47500000000E+09 +3.27933568760E-01 +6.20943217028E-01 +1.57656654370E-04 -6.21498151459E-04 +1.72251057409E-04 -6.12363348129E-04 +2.04314825055E-01 +6.94520089023E-01
1.48000000000E+09 +3.54929057737E-01 +5.75462582038E-01 -3.32485790999E-05 -4.83332027813E-04 -6.79599972462E-05 -5.32917382935E-04 +2.40554068071E-01 +6.44658744715E-01
1.48500000000E+09 +3.77920850773E-01 +5.24493621013E-01 +1.51619750729E-04 -4.44311412523E-04 +1.76527943585E-04 -4.25065333358E-04 +2.74308182612E-01 +5.85630256755E-01
1.49000000000E+09 +3.95088861828E-01 +4.66618805790E-01 +4.91924758242E-04 -6.18145816482E-04 +5.35296548004E-04 -6.26740674520E-04 +3.02168827434E-01 +5.15202514015E-01
1.49500000000E+09 +4.04095213718E-01 +4.01819471159E-01 +5.07648285837E-04 -1.76513461685E-03 +4.48800191193E-04 -1.66829038880E-03 +3.19576426318E-01 +4.35127668809E-01
1.50000000000E+09 +4.03490092555E-01 +3.29434845836E-01 -8.39758145253E-04 -2.39257990803E-03 -7.72232067234E-04 -2.19220208737E-03 +3.23395409739E-01 +3.45563852625E-01
1.50500000000E+09 +3.91552424182E-01 +2.50580668197E-01 -2.06472301150E-03 -2.07635313463E-03 -1.83539384913E-03 -1.99195443129E-03 +3.10524245302E-01 +2.49453742870E-01
1.51000000000E+09 +3.66067824546E-01 +1.65510424834E-01 -2.96894800219E-03 -8.71514932587E-04 -2.87872181480E-03 -1.00955981195E-03 +2.76554640580E-01 +1.50130415854E-01
1.51500000000E+09 +3.23256421803E-01 +7.84395854545E-02 -2.86618276254E-03 -9.07112204668E-05 -2.86378177656E-03 -1.77648877678E-04 +2.21483363037E-01 +5.42326949346E-02
1.52000000000E+09 +2.61947763896E-01 -4.21675299816E-03 -3.01112808949E-03 +1.14902916051E-03 -3.06681081440E-03 +1.05644891914E-03 +1.43828744384E-01 -3.03091662294E-02
1.52500000000E+09 +1.82133198575E-01 -7.58818640142E-02 -2.14318746043E-03 +1.50329297814E-03 -2.18250700099E-03 +1.46977441236E-03 +4.80998973512E-02 -9.64253087509E-02
1.53000000000E+09 +8.57298791596E-02 -1.27395779235E-01 -2.07038775887E-03 +2.00524413538E-03 -2.09675665098E-03 +2.03492549668E-03 -5.78786444690E-02 -1.38374535914E-01
1.53500000000E+09 -1.81121945171E-02 -1.54431292273E-01 -1.82953665001E-03 +2.67404120897E-03 -1.93070032383E-03 +2.69756545027E-03 -1.68304960273E-01 -1.56636301503E-01
1.54000000000E+09 -1.24191257310E-01 -1.57558973870E-01 -1.07781023977E-03 +3.64679343331E-03 -1.07307140824E-03 +3.60414536693E-03 -2.74720030271E-01 -1.52163711174E-01
1.54500000000E+09 -2.26339299484E-01 -1.37498244127E-01 +5.10223495912E-04 +4.26407805378E-03 +3.88926619716E-04 +4.26817135039E-03 -3.71754616849E-01 -1.27940658756E-01
1.55000000000E+09 -3.20670045406E-01 -9.92610978791E-02 +2.41298393959E-03 +3.23357579628E-03 +2.28253438468E-03 +3.37694593501E-03 -4.54394422658E-01 -9.05753455469E-02
1.55500000000E+09 -4.01658266615E-01 -4.61375173918E-02 +2.75766451938E-03 +1.99523091033E-03 +2.72963260952E-03 +2.17387446007E-03 -5.24084282938E-01 -4.43346688991E-02
1.56000000000E+09 -4.67239870102E-01 +1.25778956782E-02 +2.87042228590E-03 +7.83755265419E-04 +2.98942202409E-03 +8.98854011778E-04 -5.80588442039E-01 +8.12386586089E-03
1.56500000000E+09 -5.19409357412E-01 +7.32242477205E-02 +2.27438823595E-03 +2.70052998651E-04 +2.43667574968E-03 +3.48101152159E-04 -6.23941846774E-01 +6.34705149937E-02
1.57000000000E+09 -5.59071266419E-01 +1.32941716816E-01 +2.11209258471E-03 -1.42400469687E-04 +2.30124066957E-03 -2.26833829469E-04 -6.56685937229E-01 +1.17871754762E-01
