# Hz S RI R 50
! CMT, C1220, 16058040, 17.2.0/1
! Date: 14/08/2018 12:06:47
! Data: Format (Calibration Info)
! Freq                      S11: Re/Im (F2)                       S21: Re/Im (F2)                       S12: Re/Im (F2)                       S22: Re/Im (F2)            
1.00000000000E+09 -6.54301107450E-01 +7.09700095551E-01 -2.64781581968E-05 +1.60349579493E-05 +3.01428221917E-05 +8.53409493612E-06 -7.53423911460E-01 +6.25680373260E-01
1.00500000000E+09 -6.47667156029E-01 +7.14346070504E-01 -2.09151797854E-05 +4.12576471979E-05 +5.21356161017E-07 +2.36604005145E-05 -7.49708726326E-01 +6.29651568590E-01
1.01000000000E+09 -6.41755953064E-01 +7.18590223248E-01 -2.18033651552E-05 +3.67885770296E-05 -2.25412519810E-05 -1.07162011063E-05 -7.46295959876E-01 +6.33316026254E-01
1.01500000000E+09 -6.37802155669E-01 +7.22203954610E-01 -4.12301434530E-06 +5.72753247714E-05 -2.27697234806E-05 +4.08132629620E-05 -7.42894268246E-01 +6.37280030213E-01
1.02000000000E+09 -6.34834293121E-01 +7.25573452168E-01 -4.72043216662E-05 +5.24602629142E-06 -2.77671896803E-05 -1.78985989107E-05 -7.39425923062E-01 +6.40800900059E-01
1.02500000000E+09 -6.32828523691E-01 +7.28626690202E-01 -1.65783471960E-05 +1.03873885647E-05 -1.39169008303E-05 -1.48638823265E-05 -7.36523051302E-01 +6.44416702082E-01
1.03000000000E+09 -6.31548553201E-01 +7.31423962092E-01 -6.43839735722E-05 +3.07688913139E-05 -6.50109958346E-05 -2.26680173077E-05 -7.33037568566E-01 +6.48298672324E-01
1.03500000000E+09 -6.29162364508E-01 +7.34294372341E-01 -2.37801257720E-05 +5.28032593219E-05 -1.44379369110E-05 -1.65825983548E-06 -7.29189826645E-01 +6.52414107568E-01
1.04000000000E+09 -6.25936060078E-01 +7.37274834856E-01 -4.37476433012E-05 +2.85707874580E-06 +1.30233983924E-05 +7.72440189557E-05 -7.25467321780E-01 +6.55978883420E-01
1.04500000000E+09 -6.21115864877E-01 +7.40944447010E-01 -6.59719834579E-06 +5.15744305503E-05 +2.51145734389E-06 +1.03461311532E-05 -7.22046806766E-01 +6.59586089187E-01
1.05000000000E+09 -6.14342482107E-01 +7.44948378481E-01 -4.74596801568E-05 -4.11835832635E-06 -4.08976653022E-05 +5.07729564303E-06 -7.18475102286E-01 +6.62876168875E-01
1.05500000000E+09 -6.06707427970E-01 +7.49007895736E-01 -5.36911883756E-07 +5.75329335258E-05 -1.29890521036E-05 +1.40488872186E-05 -7.15284048704E-01 +6.66571558391E-01
1.06000000000E+09 -5.98431840172E-01 +7.53430764942E-01 -4.14877372490E-05 +8.52800453481E-06 -4.99243168288E-05 +4.20280528881E-05 -7.11979369614E-01 +6.70282868633E-01
1.06500000000E+09 -5.90479953197E-01 +7.58010194909E-01 -8.24120551296E-07 +5.17682447172E-05 +1.03557529105E-05 +7.50488375824E-05 -7.08267536031E-01 +6.74047700790E-01
1.07000000000E+09 -5.83629141018E-01 +7.61873737703E-01 -7.51112418351E-06 +3.11065503558E-05 -3.26060719576E-05 +3.79344891659E-05 -7.04309909065E-01 +6.77650797399E-01
1.07500000000E+09 -5.78357799036E-01 +7.65398202270E-01 +5.23334495870E-06 +7.66761042810E-06 +2.04972598798E-06 +6.72799389414E-05 -6.99825809763E-01 +6.81391733968E-01
1.08000000000E+09 -5.74426054923E-01 +7.68867251072E-01 +1.15961778038E-05 +4.73849339733E-05 +5.37923230682E-05 +4.28444554314E-05 -6.95930840613E-01 +6.85311166313E-01
1.08500000000E+09 -5.71705085542E-01 +7.71854793984E-01 -6.03976830561E-06 +5.21252092914E-05 -2.03004028474E-05 +1.03806020465E-05 -6.91910411100E-01 +6.88954893555E-01
1.09000000000E+09 -5.69448846420E-01 +7.74565288479E-01 +2.33799587830E-05 +5.21661020005E-05 -4.03484116733E-07 +5.87746186656E-05 -6.88114340806E-01 +6.92969277360E-01
1.09500000000E+09 -5.67327399085E-01 +7.77207798650E-01 -3.79714997553E-05 +6.92039580082E-05 +2.36988457281E-05 +4.50925610965E-05 -6.84251638529E-01 +6.96795964052E-01
1.10000000000E+09 -5.63973506454E-01 +7.79746406984E-01 +1.63507847245E-06 +6.96863269192E-05 +5.79676459565E-06 +4.21419155221E-05 -6.80387260891E-01 +7.00645419321E-01
1.10500000000E+09 -5.59430497239E-01 +7.82746048930E-01 +1.51702684204E-05 +4.95781495010E-05 +1.08635158915E-05 +4.83294315097E-05 -6.76082856820E-01 +7.04033130665E-01
1.11000000000E+09 -5.53526624173E-01 +7.85921181300E-01 +7.67817899269E-06 +6.39514031890E-05 +1.05046608423E-05 +6.15938321355E-05 -6.71826104385E-01 +7.07501195256E-01
1.11500000000E+09 -5.46505734126E-01 +7.89556196795E-01 +1.30639658883E-05 +7.93384944530E-05 +3.49658514533E-05 +8.10708688886E-05 -6.67628356910E-01 +7.10992241969E-01
1.12000000000E+09 -5.38845218653E-01 +7.93215431514E-01 +3.53851783836E-05 +6.94198069581E-05 +1.72397071395E-05 +7.23850904084E-06 -6.63517738978E-01 +7.14634133379E-01
1.12500000000E+09 -5.31261673120E-01 +7.96772154708E-01 +1.75782231784E-05 +8.10132454028E-05 +1.91898293495E-05 +2.88080388505E-05 -6.59458161886E-01 +7.18568098721E-01
1.13000000000E+09 -5.24573103649E-01 +8.00159221795E-01 +5.12412615718E-05 +4.51678536168E-05 +2.67249064375E-05 +2.63874792632E-06 -6.55138897778E-01 +7.22464296389E-01
1.13500000000E+09 -5.19003064849E-01 +8.03162762992E-01 +4.09528988077E-05 +4.44934466755E-05 +1.95928673903E-05 +7.01571088388E-05 -6.50557074099E-01 +7.26147895115E-01
1.14000000000E+09 -5.14159736456E-01 +8.05972254213E-01 +4.74211272675E-05 +6.04866120942E-05 +4.79372759662E-05 +8.84043340128E-05 -6.45724194312E-01 +7.29657599281E-01
1.14500000000E+09 -5.10659091701E-01 +8.08453164715E-01 +3.45305127064E-05 +5.95125976904E-05 +3.98844904746E-05 +2.84280512814E-05 -6.41114359248E-01 +7.33024500321E-01
1.15000000000E+09 -5.07045048267E-01 +8.10780004200E-01 +7.04018265759E-05 +5.74776829783E-05 +1.15496288704E-04 +1.13618030870E-04 -6.36360624800E-01 +7.36781192158E-01
1.15500000000E+09 -5.03673831131E-01 +8.13134687969E-01 +8.14437812693E-05 +3.36798302925E-05 +4.50229592928E-05 +7.89334019853E-05 -6.31659145840E-01 +7.40685786888E-01
1.16000000000E+09 -4.98876670458E-01 +8.15529940314E-01 +7.49257199759E-05 +2.47863722416E-05 +5.77087847962E-05 +2.09335734199E-05 -6.26736735633E-01 +7.44467907517E-01
1.16500000000E+09 -4.93373892563E-01 +8.18454798710E-01 +1.14074224761E-04 +4.52667126732E-05 +8.32206721962E-05 +2.03485164940E-05 -6.21727741581E-01 +7.48175460659E-01
1.17000000000E+09 -4.86564668327E-01 +8.21526638887E-01 +6.43645190175E-05 +6.64138886226E-05 +4.88117850811E-05 +2.21105800624E-05 -6.16342640102E-01 +7.51492379130E-01
1.17500000000E+09 -4.78718789070E-01 +8.24459378833E-01 +1.18408333330E-04 +6.07540973288E-05 +1.00254698042E-04 +1.68793412324E-05 -6.10577972967E-01 +7.54729549896E-01
1.18000000000E+09 -4.70831185611E-01 +8.27677737372E-01 +1.40389810239E-04 +4.61085829222E-05 +6.43966934762E-05 +3.14414151431E-05 -6.04910664761E-01 +7.57755459717E-01
1.18500000000E+09 -4.62901294368E-01 +8.30529638672E-01 +1.68070785183E-04 +2.09229460646E-05 +9.76879331913E-05 +3.64954768850E-05 -5.98904569820E-01 +7.60995278834E-01
1.19000000000E+09 -4.55893482616E-01 +8.33094495709E-01 +1.71614418130E-04 +3.36049348990E-05 +1.77744110800E-04 +7.75858495068E-05 -5.92770113802E-01 +7.63706703580E-01
1.19500000000E+09 -4.49934792388E-01 +8.35274429046E-01 +2.29468496564E-04 +1.01314514335E-05 +2.07525485895E-04 -7.61112633171E-06 -5.86644254676E-01 +7.64784683098E-01
1.20000000000E+09 -4.45217296168E-01 +8.36627671435E-01 +2.24931085849E-04 -1.35507982950E-04 +2.07626474044E-04 -1.21798862839E-04 -5.82315123511E-01 +7.64915128545E-01
1.20500000000E+09 -4.41266586663E-01 +8.38507981459E-01 +1.98864530058E-04 -1.45337482969E-04 +1.25106313364E-04 -1.68243542565E-04 -5.80026515213E-01 +7.65608003063E-01
1.21000000000E+09 -4.37025219756E-01 +8.40401770113E-01 +8.52781376064E-05 -1.63926727904E-04 +7.15179089473E-05 -1.47129918540E-04 -5.78197415329E-01 +7.68861962177E-01
1.21500000000E+09 -4.31728539854E-01 +8.42748498001E-01 +6.58732754461E-05 -1.55769524453E-04 +1.10562384237E-04 -1.38219166542E-04 -5.75575429804E-01 +7.73388772678E-01
1.22000000000E+09 -4.25133426268E-01 +8.45287374638E-01 +2.99911693789E-05 -1.35997727992E-04 +9.76829221307E-05 -1.54476565239E-04 -5.71190385639E-01 +7.78606869941E-01
1.22500000000E+09 -4.17001522714E-01 +8.48213806174E-01 +5.76296817679E-05 -1.10082717864E-04 +8.00812868425E-05 -1.06685673652E-04 -5.66151221978E-01 +7.83802002849E-01
1.23000000000E+09 -4.07680094947E-01 +8.50985716628E-01 +6.59675496976E-05 -1.26427013669E-04 +1.07336074269E-04 -1.25141315171E-04 -5.60326145958E-01 +7.88588370373E-01
1.23500000000E+09 -3.97801776646E-01 +8.54320936799E-01 +1.04545724710E-04 -1.46066282829E-04 +8.63940707124E-05 -1.65108311531E-04 -5.54531924228E-01 +7.92889548523E-01
1.24000000000E+09 -3.87569035676E-01 +8.57582043864E-01 +1.16590101928E-04 -1.77494911954E-04 +1.26555034165E-04 -1.32976134486E-04 -5.48425273701E-01 +7.96703385255E-01
1.24500000000E+09 -3.78112502201E-01 +8.61027199042E-01 +1.24419545165E-04 -2.14972050927E-04 +1.53778806275E-04 -2.25943486559E-04 -5.42206178463E-01 +8.00624749570E-01
1.25000000000E+09 -3.69709065833E-01 +8.64128405390E-01 +7.36902662540E-05 -2.38772912058E-04 +9.34229132909E-05 -2.26583338908E-04 -5.35473670003E-01 +8.04897327043E-01
1.25500000000E+09 -3.62423913662E-01 +8.66701565481E-01 +4.41541572256E-05 -2.51576892353E-04 +5.25376036589E-05 -2.61556798668E-04 -5.28515457081E-01 +8.08759597268E-01
1.26000000000E+09 -3.56346403294E-01 +8.69201198392E-01 -1.29097143372E-05 -2.37448948804E-04 -5.61839980504E-06 -2.48654231810E-04 -5.21880889617E-01 +8.13072262155E-01
1.26500000000E+09 -3.50827848357E-01 +8.71421692334E-01 +1.00209722865E-05 -2.80421725290E-04 -2.73763470502E-05 -2.88948011041E-04 -5.14928318044E-01 +8.17025176055E-01
1.27000000000E+09 -3.45104415069E-01 +8.73661044994E-01 -4.49599449509E-05 -3.05370573963E-04 -3.70858672552E-05 -2.72257570030E-04 -5.08084144995E-01 +8.20875993687E-01
1.27500000000E+09 -3.38565997822E-01 +8.75710072014E-01 -1.14619529342E-04 -3.07234626367E-04 -8.53085505037E-05 -2.94515318104E-04 -5.01010943659E-01 +8.24410533084E-01
1.28000000000E+09 -3.30662806274E-01 +8.78133913170E-01 -1.99116080214E-04 -2.96495221897E-04 -1.35601739110E-04 -2.88468029589E-04 -4.94097663544E-01 +8.27858586975E-01
1.28500000000E+09 -3.20949024323E-01 +8.80622807076E-01 -1.75270559259E-04 -2.72027801732E-04 -2.16429748058E-04 -3.20657101112E-04 -4.86697104859E-01 +8.31405785477E-01
1.29000000000E+09 -3.10135576076E-01 +8.83075756163E-01 -2.35883761318E-04 -2.68861844527E-04 -2.37699717683E-04 -2.51945293310E-04 -4.79173099611E-01 +8.35267408451E-01
1.29500000000E+09 -2.98645691610E-01 +8.85792422564E-01 -2.37034337620E-04 -2.70438560868E-04 -2.79518371385E-04 -2.75223037756E-04 -4.71182222142E-01 +8.38794976051E-01
1.30000000000E+09 -2.87201545154E-01 +8.88362681634E-01 -2.95210562144E-04 -2.94508648322E-04 -3.34930112871E-04 -2.79184006901E-04 -4.63360578278E-01 +8.42243720756E-01
1.30500000000E+09 -2.76591017813E-01 +8.90841746550E-01 -3.98526571287E-04 -2.55672392540E-04 -3.25651140951E-04 -1.51771215162E-04 -4.55219681529E-01 +8.45839733117E-01
1.31000000000E+09 -2.67128594710E-01 +8.92936939607E-01 -3.90391124694E-04 -1.51282535023E-04 -3.64749655095E-04 -1.14978062925E-04 -4.46795029767E-01 +8.49212349417E-01
1.31500000000E+09 -2.59233255867E-01 +8.94898776399E-01 -4.28335179279E-04 -8.89561060377E-05 -3.71365049592E-04 -7.39086921145E-05 -4.37982415120E-01 +8.52764550017E-01
1.32000000000E+09 -2.52195181366E-01 +8.96570612685E-01 -3.63826913040E-04 -9.29879824963E-05 -3.45925903400E-04 -7.89999342004E-05 -4.28842377354E-01 +8.56211713743E-01
1.32500000000E+09 -2.45745477914E-01 +8.97776432798E-01 -3.98250277334E-04 -8.80497833017E-05 -4.07087536666E-04 -9.08140477359E-05 -4.19166968162E-01 +8.59428019726E-01
1.33000000000E+09 -2.38583728743E-01 +8.98831250671E-01 -4.70664320968E-04 -5.24251710280E-05 -4.69226159761E-04 -3.38931343028E-05 -4.09456908905E-01 +8.62767027350E-01
1.33500000000E+09 -2.29704634669E-01 +8.99478358155E-01 -4.89594751295E-04 -5.87209343913E-06 -4.74710416563E-04 +3.32442143620E-05 -3.99656458581E-01 +8.66124418487E-01
1.34000000000E+09 -2.18717974682E-01 +9.00173577711E-01 -5.55847998654E-04 +7.49928971227E-05 -4.86599239104E-04 +1.02112143755E-04 -3.89464010608E-01 +8.69355009097E-01
1.34500000000E+09 -2.05511220835E-01 +9.00472443813E-01 -5.11841299330E-04 +1.30903686047E-04 -4.89555733368E-04 +1.29029603406E-04 -3.78496332613E-01 +8.72665659315E-01
1.35000000000E+09 -1.90723038892E-01 +9.00480246927E-01 -4.17745010835E-04 +1.88136851357E-04 -4.81384201954E-04 +1.57157146144E-04 -3.67262224304E-01 +8.75851468911E-01
1.35500000000E+09 -1.74639290840E-01 +9.00572002512E-01 -4.70266777370E-04 +1.91880233107E-04 -4.41622152587E-04 +1.15682766934E-04 -3.55581288146E-01 +8.78507023855E-01
1.36000000000E+09 -1.58608513388E-01 +9.00412456403E-01 -5.10027852365E-04 +1.63015851473E-04 -5.11628059368E-04 +1.73759425406E-04 -3.43549278109E-01 +8.81294955329E-01
1.36500000000E+09 -1.42965832461E-01 +9.00658091354E-01 -5.27002912059E-04 +2.10962195494E-04 -4.98979168973E-04 +2.10935586378E-04 -3.31511490867E-01 +8.83792505179E-01
1.37000000000E+09 -1.28202197464E-01 +9.00743585922E-01 -5.92492208650E-04 +3.10814470409E-04 -5.54918745924E-04 +2.76080674344E-04 -3.18685841176E-01 +8.86170070351E-01
1.37500000000E+09 -1.14985570020E-01 +9.00751715280E-01 -6.59282279159E-04 +4.88573726458E-04 -6.35163090032E-04 +3.51528102489E-04 -3.05002112142E-01 +8.88256315791E-01
1.38000000000E+09 -1.02704491352E-01 +9.00492473376E-01 -5.66183409202E-04 +6.10559374338E-04 -6.77912985327E-04 +5.37136174624E-04 -2.90413316262E-01 +8.90317291175E-01
1.38500000000E+09 -9.05105232993E-02 +8.99895372267E-01 -3.84316114305E-04 +7.04940058115E-04 -5.43571415598E-04 +7.43315292815E-04 -2.74935836320E-01 +8.92193336251E-01
1.39000000000E+09 -7.76711038981E-02 +8.98892854437E-01 -3.59080881489E-04 +6.97621090376E-04 -3.56092074910E-04 +7.79149350289E-04 -2.58905061184E-01 +8.93653086173E-01
1.39500000000E+09 -6.32788123237E-02 +8.96960769928E-01 -3.84571033935E-04 +6.69138674013E-04 -3.73949464769E-04 +7.76395971143E-04 -2.42141948574E-01 +8.94401906443E-01
1.40000000000E+09 -4.66099836974E-02 +8.93856848266E-01 -3.76808376705E-04 +7.18228657370E-04 -3.11966469467E-04 +8.16150550827E-04 -2.24684113151E-01 +8.94856034464E-01
1.40500000000E+09 -2.81552390000E-02 +8.89799852911E-01 -3.79867223156E-04 +8.43010244034E-04 -3.09390458414E-04 +8.43790445153E-04 -2.06119454540E-01 +8.94758702497E-01
1.41000000000E+09 -7.86938638905E-03 +8.84340863885E-01 -3.23364018786E-04 +1.05669406008E-03 -3.37054032105E-04 +1.02622211883E-03 -1.86000093670E-01 +8.94239780846E-01
1.41500000000E+09 +1.34241004802E-02 +8.78125648006E-01 -1.50229756024E-04 +1.06650898583E-03 -1.76031115094E-04 +1.13548241919E-03 -1.64398557113E-01 +8.92855142774E-01
1.42000000000E+09 +3.51750673964E-02 +8.71397297619E-01 -1.32335882158E-04 +1.09711988720E-03 -1.51654644371E-04 +1.17261432507E-03 -1.41551307925E-01 +8.90220944028E-01
1.42500000000E+09 +5.70567279935E-02 +8.64113289301E-01 -1.61617689588E-04 +1.27889092367E-03 -9.72050756689E-05 +1.45484920833E-03 -1.17795779919E-01 +8.86758817866E-01
1.43000000000E+09 +7.84938911144E-02 +8.56096753477E-01 +1.30761973084E-05 +1.51491752633E-03 +1.63426678269E-04 +1.61511529824E-03 -9.29356077366E-02 +8.82075054134E-01
1.43500000000E+09 +1.00132785906E-01 +8.46816927715E-01 +2.80169232467E-04 +1.60240493498E-03 +4.46871501968E-04 +1.64548239964E-03 -6.64955329089E-02 +8.75544374149E-01
1.44000000000E+09 +1.22316310936E-01 +8.36383933186E-01 +4.49698084847E-04 +1.63224980600E-03 +5.59360619585E-04 +1.57365888058E-03 -3.82653419907E-02 +8.67061796629E-01
1.44500000000E+09 +1.46161265604E-01 +8.23283878025E-01 +5.30050557701E-04 +1.70173146803E-03 +6.27980242187E-04 +1.68692610410E-03 -7.88312327205E-03 +8.55864276654E-01
1.45000000000E+09 +1.71536336525E-01 +8.06813064624E-01 +6.58811792677E-04 +2.00739414729E-03 +8.04476012132E-04 +1.98228264122E-03 +2.41245345203E-02 +8.41114347674E-01
1.45500000000E+09 +1.98900911931E-01 +7.86587964308E-01 +1.03042261428E-03 +2.33306589600E-03 +1.27509573232E-03 +2.20972695452E-03 +5.76516952518E-02 +8.23591542602E-01
1.46000000000E+09 +2.28861006698E-01 +7.61528349751E-01 +1.69340392110E-03 +2.67296252517E-03 +1.85569624613E-03 +2.40794875251E-03 +9.26318084972E-02 +8.02063816772E-01
1.46500000000E+09 +2.60239001253E-01 +7.31021821495E-01 +2.45060919661E-03 +2.67880132210E-03 +2.34669847329E-03 +2.33080198627E-03 +1.29197518121E-01 +7.75194712947E-01
1.47000000000E+09 +2.91888983159E-01 +6.95072306861E-01 +3.35437652739E-03 +2.49600051237E-03 +3.05042434898E-03 +2.35527605225E-03 +1.66793965298E-01 +7.41239547439E-01
1.47500000000E+09 +3.23263911337E-01 +6.53019772297E-01 +4.17361765021E-03 +2.11822639645E-03 +3.92678262075E-03 +2.17762872770E-03 +2.03728225739E-01 +7.00072310138E-01
1.48000000000E+09 +3.51901319445E-01 +6.04390409412E-01 +5.15919744979E-03 +1.69760022218E-03 +5.16985293211E-03 +1.89461937165E-03 +2.40370046185E-01 +6.51184952079E-01
1.48500000000E+09 +3.76336480671E-01 +5.49835133522E-01 +6.15524715166E-03 +8.29028279637E-04 +6.27248122759E-03 +7.98534830447E-04 +2.75552666633E-01 +5.92111259302E-01
1.49000000000E+09 +3.95820488164E-01 +4.88002471107E-01 +7.33842801184E-03 -2.44323076766E-04 +7.30950188606E-03 -5.79532503659E-04 +3.04094721386E-01 +5.21908870824E-01
1.49500000000E+09 +4.08209567975E-01 +4.17940322069E-01 +8.38246266460E-03 -2.26328283241E-03 +7.90519891444E-03 -2.47357055347E-03 +3.22466222334E-01 +4.41691627600E-01
1.50000000000E+09 +4.09841743679E-01 +3.38702098827E-01 +9.06211964543E-03 -4.83997229051E-03 +8.57187982009E-03 -4.48290985077E-03 +3.28749168265E-01 +3.52661787254E-01
1.50500000000E+09 +3.98042211690E-01 +2.52395330789E-01 +8.47098541194E-03 -8.74783544021E-03 +8.38323796489E-03 -8.06520763671E-03 +3.17709727447E-01 +2.54346243583E-01
1.51000000000E+09 +3.68974454669E-01 +1.60413784142E-01 +5.59812002912E-03 -1.22400266396E-02 +6.08324248260E-03 -1.19140809799E-02 +2.85040067534E-01 +1.52791845013E-01
1.51500000000E+09 +3.19463894420E-01 +6.95466898278E-02 +1.73207065303E-03 -1.41551618682E-02 +2.16011784518E-03 -1.42685893831E-02 +2.29874407257E-01 +5.55582171017E-02
1.52000000000E+09 +2.50794100123E-01 -1.27964634124E-02 -3.26892141777E-03 -1.46455460807E-02 -2.99813486956E-03 -1.48938196819E-02 +1.53887769783E-01 -3.12368870224E-02
1.52500000000E+09 +1.64666262247E-01 -8.32236933959E-02 -7.08602160992E-03 -1.24446059678E-02 -7.00555278845E-03 -1.26465676686E-02 +5.89039075125E-02 -1.01014923584E-01
1.53000000000E+09 +6.35087422389E-02 -1.33040538585E-01 -9.82844211501E-03 -1.10717899552E-02 -9.84247604756E-03 -1.12776944787E-02 -4.96638430314E-02 -1.47600245155E-01
1.53500000000E+09 -4.52006488033E-02 -1.59644363197E-01 -1.33968981613E-02 -8.01137581742E-03 -1.34450645095E-02 -8.10266695720E-03 -1.62742094775E-01 -1.68541043265E-01
1.54000000000E+09 -1.56040437215E-01 -1.61301709378E-01 -1.55598433011E-02 -3.34927105663E-03 -1.54556434614E-02 -3.49640924056E-03 -2.74103416918E-01 -1.64755157828E-01
1.54500000000E+09 -2.62096449455E-01 -1.38415932617E-01 -1.54502215532E-02 +2.07219008468E-03 -1.54034554334E-02 +1.72693706816E-03 -3.73954089666E-01 -1.39924001157E-01
1.55000000000E+09 -3.55563773571E-01 -9.53280239186E-02 -1.27749284226E-02 +6.36465181907E-03 -1.30677265237E-02 +5.84065466799E-03 -4.59840805133E-01 -1.01267211801E-01
1.55500000000E+09 -4.32501787115E-01 -4.04274910986E-02 -9.39780537984E-03 +8.81753757701E-03 -1.00939078367E-02 +8.63687625345E-03 -5.31455179990E-01 -5.30132293192E-02
1.56000000000E+09 -4.94397719941E-01 +1.87442123833E-02 -5.65317745869E-03 +1.00053789679E-02 -6.31833784322E-03 +1.03566272106E-02 -5.88321271046E-01 +1.83227585881E-03
1.56500000000E+09 -5.44163654969E-01 +7.97739237816E-02 -2.40299725987E-03 +9.23856296430E-03 -2.71528543476E-03 +9.85109996279E-03 -6.32270517242E-01 +5.77455266615E-02
1.57000000000E+09 -5.82235962174E-01 +1.40226640076E-01 -4.91251877575E-04 +7.84861186060E-03 -4.40542155359E-04 +8.44235977711E-03 -6.65170019369E-01 +1.13432846641E-01
