# Hz S RI R 50
! CMT, C1220, 16058040, 17.2.0/1
! Date: 14/08/2018 11:58:09
! Data: Format (Calibration Info)
! Freq                      S11: Re/Im (F2)                       S21: Re/Im (F2)                       S12: Re/Im (F2)                       S22: Re/Im (F2)            
1.00000000000E+09 -6.44625724970E-01 +7.12244720447E-01 -1.87031713811E-06 +7.33033280544E-07 -2.46542769496E-05 +3.19086443004E-05 -7.50046616912E-01 +6.26997400066E-01
1.00500000000E+09 -6.37744347712E-01 +7.17204408454E-01 -1.38699642025E-05 +3.43605983296E-05 -4.13837128832E-05 +3.62367853062E-05 -7.46603813970E-01 +6.31119406930E-01
1.01000000000E+09 -6.31646533924E-01 +7.21621800755E-01 -5.73680493895E-05 +3.81096373095E-05 -2.89084864907E-06 +2.29802715365E-05 -7.42830973687E-01 +6.34688164725E-01
1.01500000000E+09 -6.27052184007E-01 +7.25290655731E-01 -2.29203505622E-06 +9.88509967234E-06 -2.98507002393E-05 +1.50983296582E-06 -7.39490195244E-01 +6.38595724958E-01
1.02000000000E+09 -6.24030576275E-01 +7.28498170773E-01 -6.87047910339E-05 -1.87951047857E-05 -3.73350163071E-05 +1.31083900305E-05 -7.35926228290E-01 +6.42242976199E-01
1.02500000000E+09 -6.21920766899E-01 +7.31231508086E-01 -3.26132862622E-05 +1.19331724727E-06 +5.24610609285E-07 +9.85564367732E-06 -7.32966110375E-01 +6.45752413883E-01
1.03000000000E+09 -6.20325530425E-01 +7.33556805985E-01 -2.26041268379E-05 -8.34906761551E-06 -2.75276935731E-05 +2.78819861263E-06 -7.29352209572E-01 +6.49628038500E-01
1.03500000000E+09 -6.18020706328E-01 +7.35942650004E-01 -4.55097917678E-05 +1.55371286226E-05 -1.00823707974E-04 +3.08712792260E-05 -7.25838226010E-01 +6.53455322742E-01
1.04000000000E+09 -6.14458894260E-01 +7.38834606397E-01 +4.31737250481E-06 +4.21536928798E-05 -6.55159373646E-05 +9.09383292158E-06 -7.21941578226E-01 +6.57264356229E-01
1.04500000000E+09 -6.09441711210E-01 +7.42327990874E-01 -1.60032942773E-05 +5.52976525269E-05 -3.92731350505E-05 +2.91889858859E-05 -7.18434073748E-01 +6.60883694135E-01
1.05000000000E+09 -6.02606386695E-01 +7.46380582361E-01 -1.85600273694E-05 +1.58398299728E-05 -3.16351692979E-05 +4.04817826145E-05 -7.14950112020E-01 +6.64046736901E-01
1.05500000000E+09 -5.94698745505E-01 +7.50840351395E-01 -5.16087227519E-05 +3.22615888608E-05 -2.78310446662E-05 +3.15697352658E-05 -7.11747324300E-01 +6.67586482423E-01
1.06000000000E+09 -5.86160081689E-01 +7.55836639901E-01 -5.74231961316E-06 +1.45598813663E-05 -4.64304222337E-05 +4.78711659428E-05 -7.08351325360E-01 +6.71346471870E-01
1.06500000000E+09 -5.77972550492E-01 +7.60577085390E-01 -3.99278256258E-05 +5.91634934244E-05 +9.90325249052E-06 +5.25278839088E-05 -7.04536453698E-01 +6.75033171828E-01
1.07000000000E+09 -5.71139954842E-01 +7.64671582432E-01 -3.18607574801E-05 +1.54827956272E-05 -4.37695246672E-05 +3.96711607343E-05 -7.00582646670E-01 +6.78819447415E-01
1.07500000000E+09 -5.65888985597E-01 +7.68410357146E-01 +1.36631084667E-05 +7.43223517377E-05 -7.15971292943E-05 +8.22665945614E-05 -6.96298163296E-01 +6.82471923840E-01
1.08000000000E+09 -5.62091876479E-01 +7.71605057326E-01 -7.86552094361E-06 +9.06949447788E-05 -5.82893605737E-05 +6.32268850254E-05 -6.92428965387E-01 +6.86287529951E-01
1.08500000000E+09 -5.59690531800E-01 +7.73947901312E-01 +2.07197033595E-05 +6.63634734791E-05 +4.03613042388E-05 +3.63892995027E-05 -6.88338938612E-01 +6.90055997435E-01
1.09000000000E+09 -5.57638264849E-01 +7.76144786020E-01 +3.18410230740E-05 +8.04822591709E-05 +4.51129613590E-05 +8.02965257717E-05 -6.84404871120E-01 +6.93937535771E-01
1.09500000000E+09 -5.55676759011E-01 +7.78033715722E-01 +5.51436716317E-05 +7.49733206719E-05 +7.71616519792E-05 +6.81158523724E-05 -6.80568843808E-01 +6.97710447104E-01
1.10000000000E+09 -5.52439484052E-01 +7.80111770496E-01 +3.78532721212E-05 +8.13448888455E-05 +2.12868916599E-05 +2.46089957534E-05 -6.76564628664E-01 +7.01485082020E-01
1.10500000000E+09 -5.48074594256E-01 +7.82994509531E-01 +6.99037077950E-06 +3.48982255300E-05 +5.80675889629E-05 +9.17715645281E-05 -6.72272298983E-01 +7.05185191817E-01
1.11000000000E+09 -5.41797553738E-01 +7.86347585166E-01 +5.55974401688E-05 +8.76610134644E-05 -3.52136545632E-06 +6.03738920988E-05 -6.67933961569E-01 +7.08275776788E-01
1.11500000000E+09 -5.34402541200E-01 +7.90126037591E-01 +1.61808763354E-05 +1.68532019625E-05 +1.02683810501E-04 +8.20483365154E-05 -6.64022587126E-01 +7.11839372436E-01
1.12000000000E+09 -5.26509778857E-01 +7.94023397314E-01 +4.27016591394E-05 +9.20629378513E-05 +3.30078426548E-05 +8.57695682791E-06 -6.59873365390E-01 +7.15546582714E-01
1.12500000000E+09 -5.18563792191E-01 +7.97992204772E-01 +2.30496640664E-05 -5.90360901327E-06 +2.38500273422E-05 +4.96455282769E-05 -6.55513714572E-01 +7.19460381620E-01
1.13000000000E+09 -5.11412583364E-01 +8.01593992071E-01 +5.66824549427E-06 +5.52229279005E-05 +8.77107179524E-05 +1.16677715353E-04 -6.51248665782E-01 +7.23171395950E-01
1.13500000000E+09 -5.05386894752E-01 +8.04503027986E-01 +7.90562656759E-05 +7.42005537496E-05 +3.47582420060E-05 +8.76188009235E-05 -6.46504077814E-01 +7.27039851726E-01
1.14000000000E+09 -5.00726230459E-01 +8.07150538442E-01 +7.25869076926E-05 +8.09079590995E-05 +3.87681237929E-05 +6.65239854888E-05 -6.41837479626E-01 +7.30487593932E-01
1.14500000000E+09 -4.97023748745E-01 +8.09269511001E-01 +5.76342977160E-05 +4.68196614580E-05 +1.08454613577E-04 +5.58364869185E-05 -6.37303749769E-01 +7.33938454383E-01
1.15000000000E+09 -4.93592449995E-01 +8.11023666133E-01 +3.70823294003E-05 +2.87165100118E-05 +8.77019234647E-05 +4.81648735984E-05 -6.32640228472E-01 +7.37612134659E-01
1.15500000000E+09 -4.89874367508E-01 +8.13126907467E-01 +1.27676097347E-04 +6.76795926034E-05 +9.54777609678E-05 +6.17963471851E-05 -6.27812917628E-01 +7.41359847603E-01
1.16000000000E+09 -4.85152195396E-01 +8.15103049856E-01 +8.91672130653E-05 +5.59582630047E-05 +1.24302129117E-04 +5.25442324678E-05 -6.22860778700E-01 +7.45175793659E-01
1.16500000000E+09 -4.79204280297E-01 +8.17952545350E-01 +1.07173230414E-04 +3.40214505889E-05 +1.48575619772E-04 +5.16957619458E-05 -6.17836470651E-01 +7.48781284254E-01
1.17000000000E+09 -4.71902431132E-01 +8.21116864578E-01 +1.42885398487E-04 +7.50867945343E-05 +1.46075155322E-04 +4.64488438177E-05 -6.12268719470E-01 +7.52083884843E-01
1.17500000000E+09 -4.63709001460E-01 +8.24454247847E-01 +1.72844409646E-04 +2.84697774408E-05 +1.58187891379E-04 +4.55428391100E-05 -6.06574250872E-01 +7.55414629597E-01
1.18000000000E+09 -4.55143209008E-01 +8.27940627429E-01 +1.13018376959E-04 +2.48381666977E-05 +2.07506605964E-04 -5.60158081090E-06 -6.01109965631E-01 +7.58393619333E-01
1.18500000000E+09 -4.46981452923E-01 +8.31053427329E-01 +1.75657793387E-04 +3.64671660283E-05 +1.92202266795E-04 -3.09208588967E-05 -5.95105907073E-01 +7.61470145416E-01
1.19000000000E+09 -4.39713983498E-01 +8.33831166611E-01 +1.88446286752E-04 +1.42790594940E-05 +1.99358830758E-04 -4.23764466292E-05 -5.88841807205E-01 +7.64136855139E-01
1.19500000000E+09 -4.33774046741E-01 +8.35903302824E-01 +2.70341611404E-04 -4.68604298052E-05 +2.48550823412E-04 -4.57288110879E-05 -5.83008553032E-01 +7.65317216691E-01
1.20000000000E+09 -4.29179300182E-01 +8.36895282675E-01 +2.98774286184E-04 -1.01804325596E-04 +2.64472782560E-04 -1.05971926458E-04 -5.78408459105E-01 +7.65489273074E-01
1.20500000000E+09 -4.25311712943E-01 +8.38252731950E-01 +2.08013026498E-04 -1.40083552390E-04 +2.18963984224E-04 -1.96300991530E-04 -5.75946093961E-01 +7.66271039000E-01
1.21000000000E+09 -4.21319733471E-01 +8.39676442441E-01 +1.36400882160E-04 -2.27875871711E-04 +1.42353833616E-04 -1.56912759538E-04 -5.74300382948E-01 +7.69209951640E-01
1.21500000000E+09 -4.16198574447E-01 +8.41412401511E-01 +1.06544601550E-04 -2.02468076557E-04 +8.28718451943E-05 -1.94979400388E-04 -5.71483052148E-01 +7.73679585539E-01
1.22000000000E+09 -4.09617730623E-01 +8.43560706122E-01 +8.03766871880E-05 -1.39946140536E-04 +1.09855645205E-04 -1.77756500560E-04 -5.67372357918E-01 +7.79092759755E-01
1.22500000000E+09 -4.01417256029E-01 +8.46298354054E-01 +1.47446837132E-04 -1.71948945962E-04 +1.06830286169E-04 -1.67710878652E-04 -5.62091433841E-01 +7.84164780280E-01
1.23000000000E+09 -3.91902810125E-01 +8.49403929022E-01 +7.66694200540E-05 -2.07522392973E-04 +9.33185555593E-05 -2.10023583236E-04 -5.56444942756E-01 +7.88660287645E-01
1.23500000000E+09 -3.81845523983E-01 +8.52930026334E-01 +1.60896743983E-04 -2.26106061397E-04 +5.95615440982E-05 -2.27036721466E-04 -5.50598734314E-01 +7.93052465909E-01
1.24000000000E+09 -3.71483937643E-01 +8.56644256289E-01 +8.32201598125E-05 -2.46582390729E-04 +7.01000700637E-05 -2.46136707375E-04 -5.44623045861E-01 +7.96973944286E-01
1.24500000000E+09 -3.62302711168E-01 +8.60380485505E-01 +8.36656735371E-05 -2.51564253631E-04 +5.48434130001E-05 -3.20645259165E-04 -5.38242125863E-01 +8.00840768338E-01
1.25000000000E+09 -3.54155018443E-01 +8.63614597617E-01 +6.73470594581E-05 -2.59910378952E-04 +7.16753242101E-05 -3.16234154976E-04 -5.31489406808E-01 +8.05073762000E-01
1.25500000000E+09 -3.47272146151E-01 +8.65986650437E-01 +2.46148475891E-06 -2.51623034669E-04 +7.09564522440E-05 -3.35419271149E-04 -5.24745172928E-01 +8.09013769358E-01
1.26000000000E+09 -3.41688848013E-01 +8.68045266970E-01 -8.92024583542E-06 -3.14776070624E-04 +2.46260950558E-05 -3.63010054548E-04 -5.17918263304E-01 +8.13291646943E-01
1.26500000000E+09 -3.36670639897E-01 +8.69383235335E-01 -1.32120039797E-05 -2.66568247613E-04 -3.96280400110E-05 -3.38793882278E-04 -5.10956078866E-01 +8.17206507707E-01
1.27000000000E+09 -3.31414890357E-01 +8.70755995205E-01 -5.85747211017E-05 -3.58810825059E-04 -1.00749052566E-04 -3.95806036753E-04 -5.04212235153E-01 +8.20894857973E-01
1.27500000000E+09 -3.24940947091E-01 +8.72044523877E-01 -1.27840758796E-04 -3.96861466460E-04 -5.85401555504E-05 -3.51242429185E-04 -4.97151669159E-01 +8.24527957797E-01
1.28000000000E+09 -3.16627241094E-01 +8.73818751506E-01 -1.60604409400E-04 -3.44026488289E-04 -1.75522800051E-04 -3.82119525017E-04 -4.90172096894E-01 +8.28016305880E-01
1.28500000000E+09 -3.06229619152E-01 +8.75845512737E-01 -2.00986427684E-04 -3.23224399968E-04 -2.38355192574E-04 -3.28842804568E-04 -4.82847845904E-01 +8.31786635682E-01
1.29000000000E+09 -2.94442610702E-01 +8.78268156496E-01 -2.17231004998E-04 -3.32726975904E-04 -2.52320240988E-04 -3.24552037771E-04 -4.75184752689E-01 +8.35263754104E-01
1.29500000000E+09 -2.82231407847E-01 +8.81001843955E-01 -2.19116238995E-04 -3.53572352742E-04 -3.33960190959E-04 -3.40013684325E-04 -4.67392401359E-01 +8.38881185879E-01
1.30000000000E+09 -2.69992718435E-01 +8.84131820022E-01 -2.91685135312E-04 -3.16510445294E-04 -3.51723648992E-04 -3.07229290330E-04 -4.59462646004E-01 +8.42507253165E-01
1.30500000000E+09 -2.58972710492E-01 +8.86986791794E-01 -3.57173292107E-04 -3.32563347347E-04 -3.75893612045E-04 -3.23592850437E-04 -4.51305206559E-01 +8.45900088478E-01
1.31000000000E+09 -2.49232119444E-01 +8.89577467076E-01 -4.34700256365E-04 -3.03468775975E-04 -4.49344120315E-04 -3.13658758348E-04 -4.42982563803E-01 +8.49167489135E-01
1.31500000000E+09 -2.41490100989E-01 +8.91451557674E-01 -4.60123186371E-04 -2.28115236640E-04 -4.69529252854E-04 -2.42588563499E-04 -4.34293181761E-01 +8.52658426539E-01
1.32000000000E+09 -2.35032691119E-01 +8.92736725037E-01 -4.52088305371E-04 -1.81060709145E-04 -5.04415241140E-04 -1.97647032440E-04 -4.25085069841E-01 +8.56019712161E-01
1.32500000000E+09 -2.29281014620E-01 +8.93267508838E-01 -5.21391200491E-04 -2.00496387296E-04 -5.41365491380E-04 -1.70076164276E-04 -4.15490084992E-01 +8.59396148453E-01
1.33000000000E+09 -2.22687379063E-01 +8.93658012891E-01 -5.24602502603E-04 -1.51051536623E-04 -6.07794829836E-04 -1.33455137863E-04 -4.05582272010E-01 +8.62757356590E-01
1.33500000000E+09 -2.14390269894E-01 +8.93594276924E-01 -6.05552093656E-04 -1.31443608700E-04 -6.10331821204E-04 -8.77808428371E-05 -3.95634534396E-01 +8.65973945936E-01
1.34000000000E+09 -2.03795523417E-01 +8.93697781173E-01 -6.55574996867E-04 -1.02481543258E-04 -6.07982663275E-04 -5.98920218918E-05 -3.85513814729E-01 +8.69227257711E-01
1.34500000000E+09 -1.90427290831E-01 +8.93605700487E-01 -7.31155141530E-04 -3.44374104607E-05 -7.02172740426E-04 -4.66953097620E-05 -3.74575753339E-01 +8.72532120658E-01
1.35000000000E+09 -1.74994676534E-01 +8.93404420260E-01 -7.88940786342E-04 +8.11228465046E-05 -7.60599180299E-04 +5.38152812433E-05 -3.63326314146E-01 +8.75559766246E-01
1.35500000000E+09 -1.58407535645E-01 +8.93462886306E-01 -7.65264827617E-04 +1.81753709635E-04 -7.56575960624E-04 +1.77960558721E-04 -3.51803156653E-01 +8.78307942080E-01
1.36000000000E+09 -1.41773298032E-01 +8.93791196610E-01 -7.99951970896E-04 +2.38481870219E-04 -7.59455352579E-04 +2.34520516164E-04 -3.39912466614E-01 +8.80830502156E-01
1.36500000000E+09 -1.25793086908E-01 +8.94231492887E-01 -8.61319793941E-04 +2.93987405893E-04 -7.66212379866E-04 +2.72511805301E-04 -3.27658750011E-01 +8.83294824661E-01
1.37000000000E+09 -1.11342289223E-01 +8.94271041280E-01 -8.55034116043E-04 +4.10311193238E-04 -8.05236421196E-04 +3.18472447305E-04 -3.14877075694E-01 +8.85757779462E-01
1.37500000000E+09 -9.87643692892E-02 +8.94385072134E-01 -9.06135459939E-04 +5.07444116214E-04 -9.08961455300E-04 +3.91745689018E-04 -3.00963025623E-01 +8.87946479775E-01
1.38000000000E+09 -8.74993506307E-02 +8.93840588607E-01 -9.27384251022E-04 +6.41927655123E-04 -1.02154528864E-03 +5.05911102093E-04 -2.86452260835E-01 +8.89872864171E-01
1.38500000000E+09 -7.64725584349E-02 +8.92789073710E-01 -8.90083512074E-04 +7.99827666728E-04 -1.05346431460E-03 +8.14565634720E-04 -2.71089879206E-01 +8.91559287754E-01
1.39000000000E+09 -6.48240748358E-02 +8.91168109991E-01 -8.07683122756E-04 +9.08198124059E-04 -9.17774681767E-04 +1.02152645401E-03 -2.55153386828E-01 +8.93137193193E-01
1.39500000000E+09 -5.12813429392E-02 +8.88784748464E-01 -8.15163912085E-04 +1.03011136440E-03 -8.55904447034E-04 +1.20478401804E-03 -2.38360395528E-01 +8.93835098190E-01
1.40000000000E+09 -3.51442977016E-02 +8.85054003527E-01 -7.80660417799E-04 +1.22798653872E-03 -6.91787630089E-04 +1.30991424472E-03 -2.20742951258E-01 +8.94265584268E-01
1.40500000000E+09 -1.64592373853E-02 +8.80341461745E-01 -6.51949890611E-04 +1.35044368762E-03 -5.50026297397E-04 +1.36758313972E-03 -2.02022155677E-01 +8.93939245576E-01
1.41000000000E+09 +4.38966431680E-03 +8.74900516186E-01 -5.90279750469E-04 +1.47889999009E-03 -5.46585900066E-04 +1.44119307339E-03 -1.81951420505E-01 +8.93102034472E-01
1.41500000000E+09 +2.64690510812E-02 +8.68673926722E-01 -5.09696522582E-04 +1.65360621360E-03 -5.85824520699E-04 +1.67724507895E-03 -1.60676857436E-01 +8.91611589009E-01
1.42000000000E+09 +4.92468013950E-02 +8.62015132691E-01 -4.11630205292E-04 +1.77468706401E-03 -4.85929377380E-04 +1.95493119267E-03 -1.37691889076E-01 +8.88959110206E-01
1.42500000000E+09 +7.17849948186E-02 +8.54592313587E-01 -3.65844039950E-04 +2.04713832210E-03 -2.84062327574E-04 +2.30475897405E-03 -1.13961738821E-01 +8.85203355334E-01
1.43000000000E+09 +9.35051769653E-02 +8.46312622908E-01 -1.13590425425E-04 +2.43699213935E-03 +1.19704150958E-04 +2.65680140690E-03 -8.91308622332E-02 +8.80351996186E-01
1.43500000000E+09 +1.14652017702E-01 +8.36783058616E-01 +2.87874802400E-04 +2.62076978265E-03 +5.86346012098E-04 +2.64817642720E-03 -6.28659775434E-02 +8.73422160421E-01
1.44000000000E+09 +1.35818245620E-01 +8.26060433824E-01 +6.51370356026E-04 +2.74238291132E-03 +8.51505515870E-04 +2.71901758341E-03 -3.51207761917E-02 +8.64715021832E-01
1.44500000000E+09 +1.58261901291E-01 +8.12702360317E-01 +1.16555182051E-03 +2.82694326471E-03 +1.36155811201E-03 +2.79045308831E-03 -4.87258856216E-03 +8.53399741716E-01
1.45000000000E+09 +1.82554569248E-01 +7.95872806857E-01 +1.32954995629E-03 +2.85146689247E-03 +1.51882829872E-03 +2.86754948637E-03 +2.68560798025E-02 +8.38350932348E-01
1.45500000000E+09 +2.08746116142E-01 +7.75004150270E-01 +1.60434151282E-03 +3.32894294536E-03 +1.96569784359E-03 +3.21407525681E-03 +5.93766645380E-02 +8.20403155541E-01
1.46000000000E+09 +2.37230333170E-01 +7.49544823078E-01 +2.47240399037E-03 +3.87515218107E-03 +2.75405155034E-03 +3.45305682873E-03 +9.37316469010E-02 +7.99361313228E-01
1.46500000000E+09 +2.67515431213E-01 +7.19650004785E-01 +3.74718389815E-03 +4.04134189298E-03 +3.70471620466E-03 +3.49399086823E-03 +1.30033231156E-01 +7.72544960314E-01
1.47000000000E+09 +2.99233140334E-01 +6.84185701297E-01 +5.38167753207E-03 +3.80122034270E-03 +4.95896168390E-03 +3.44124054018E-03 +1.66906519128E-01 +7.38916464167E-01
1.47500000000E+09 +3.30321921616E-01 +6.42982132020E-01 +6.65630775395E-03 +2.64135569154E-03 +6.27576476766E-03 +2.78128191368E-03 +2.03568362590E-01 +6.98055443326E-01
1.48000000000E+09 +3.59257286062E-01 +5.95141820035E-01 +7.51095289914E-03 +1.65005937568E-03 +7.54643320728E-03 +1.80841955234E-03 +2.39366488466E-01 +6.49188161255E-01
1.48500000000E+09 +3.82932664983E-01 +5.40497652219E-01 +8.52495183607E-03 +6.40137132219E-04 +8.75573044648E-03 +5.39454630261E-04 +2.73317801223E-01 +5.91689110997E-01
1.49000000000E+09 +4.00087216825E-01 +4.79385952041E-01 +1.02020122531E-02 -8.86626471989E-04 +1.01027377794E-02 -1.39322946748E-03 +3.02838933641E-01 +5.22612299395E-01
1.49500000000E+09 +4.09362162123E-01 +4.11686469851E-01 +1.11890155958E-02 -3.73467479220E-03 +1.05266132996E-02 -4.04806890190E-03 +3.21343266253E-01 +4.42078409866E-01
1.50000000000E+09 +4.09033418212E-01 +3.35572585543E-01 +1.16867803075E-02 -6.96022973276E-03 +1.09509720419E-02 -6.57246760133E-03 +3.25981928548E-01 +3.54078760825E-01
1.50500000000E+09 +3.96098526840E-01 +2.52503182203E-01 +1.08521305497E-02 -1.14748720957E-02 +1.07415792492E-02 -1.06323624726E-02 +3.15618627332E-01 +2.58756158324E-01
1.51000000000E+09 +3.67376012832E-01 +1.63029334966E-01 +7.98456715247E-03 -1.59278771540E-02 +8.48711812512E-03 -1.54321712986E-02 +2.85596165385E-01 +1.58417233758E-01
1.51500000000E+09 +3.19495572044E-01 +7.34723129912E-02 +2.59670111885E-03 -1.90157817946E-02 +3.11727651150E-03 -1.90071574905E-02 +2.32204773074E-01 +5.98675959692E-02
1.52000000000E+09 +2.51451736981E-01 -1.00639203232E-02 -3.63184967297E-03 -1.97324617676E-02 -3.41703487173E-03 -2.00002985082E-02 +1.56086072344E-01 -2.81174940986E-02
1.52500000000E+09 +1.65058932302E-01 -7.93574009612E-02 -9.32469821254E-03 -1.71841802399E-02 -9.26231361071E-03 -1.73588321662E-02 +6.05098037657E-02 -9.73508499722E-02
1.53000000000E+09 +6.55592384566E-02 -1.27720548527E-01 -1.27988385026E-02 -1.42993294509E-02 -1.28504527810E-02 -1.43975666978E-02 -4.72190976005E-02 -1.43828719011E-01
1.53500000000E+09 -4.05570017950E-02 -1.52675592227E-01 -1.67537499112E-02 -1.11391623673E-02 -1.67500886187E-02 -1.11780990960E-02 -1.60710651597E-01 -1.63679974322E-01
1.54000000000E+09 -1.48339804020E-01 -1.54067973503E-01 -1.95724202230E-02 -5.90647095736E-03 -1.93355473573E-02 -5.98796885842E-03 -2.70302652501E-01 -1.59729471642E-01
1.54500000000E+09 -2.52191135646E-01 -1.32005287370E-01 -2.02512414593E-02 +9.26140305804E-04 -2.00747120907E-02 +3.89676484733E-04 -3.68809346191E-01 -1.34852360417E-01
1.55000000000E+09 -3.46013958720E-01 -8.95677791399E-02 -1.74435859867E-02 +6.36111637981E-03 -1.77860437171E-02 +5.67403459420E-03 -4.53893622236E-01 -9.69961692537E-02
1.55500000000E+09 -4.23464261088E-01 -3.26909955597E-02 -1.39679524954E-02 +9.90025066141E-03 -1.47587114107E-02 +9.56732346979E-03 -5.24051174478E-01 -4.94207605813E-02
1.56000000000E+09 -4.83652386100E-01 +2.84472706309E-02 -9.79306804673E-03 +1.19469341525E-02 -1.06756513216E-02 +1.21930649874E-02 -5.81069789248E-01 +3.51891448672E-03
1.56500000000E+09 -5.30501950877E-01 +8.84419855519E-02 -5.79083880043E-03 +1.23694843588E-02 -6.29495578553E-03 +1.30600164696E-02 -6.25054788746E-01 +5.86085427498E-02
1.57000000000E+09 -5.67774635360E-01 +1.46266880408E-01 -2.71276350091E-03 +1.14280897948E-02 -2.81949480108E-03 +1.22796619583E-02 -6.58646033931E-01 +1.13472910424E-01
