# Hz S RI R 50
! CMT, C1220, 16058040, 17.2.0/1
! Date: 14/08/2018 11:56:44
! Data: Format (Calibration Info)
! Freq                      S11: Re/Im (F2)                       S21: Re/Im (F2)                       S12: Re/Im (F2)                       S22: Re/Im (F2)            
1.00000000000E+09 -6.44314058150E-01 +7.11736129435E-01 -2.91790570187E-05 +8.69261655577E-05 +8.51935329656E-06 -1.60599532476E-05 -7.49795425880E-01 +6.27132459174E-01
1.00500000000E+09 -6.37187293540E-01 +7.16774290082E-01 +2.86216671333E-05 -1.94808563254E-05 -1.78339173566E-06 -1.24374118983E-05 -7.46244064160E-01 +6.31273653333E-01
1.01000000000E+09 -6.31364171080E-01 +7.21323907688E-01 -2.77508121466E-05 +4.63797546022E-07 +8.36468919790E-06 -2.43636458212E-05 -7.42667814785E-01 +6.34988800497E-01
1.01500000000E+09 -6.26959938611E-01 +7.24859394792E-01 +1.64055013733E-05 -3.57505370207E-05 -2.13216818161E-05 +1.81626430864E-05 -7.39233306504E-01 +6.38708108022E-01
1.02000000000E+09 -6.23858255491E-01 +7.28150852932E-01 -1.67495599374E-05 -3.20190172537E-05 -4.89152109296E-05 +4.03868678149E-05 -7.35685509175E-01 +6.42268768069E-01
1.02500000000E+09 -6.21771199137E-01 +7.30791200351E-01 -3.15778845009E-05 -2.36484568787E-05 -5.87111596134E-05 +3.48541351590E-05 -7.32780828069E-01 +6.46051401119E-01
1.03000000000E+09 -6.20177370396E-01 +7.33114141613E-01 -1.81409950117E-05 +4.97614719703E-05 -5.60606435574E-05 -1.08126447294E-05 -7.29313687113E-01 +6.49897697169E-01
1.03500000000E+09 -6.17863184749E-01 +7.35601563722E-01 -3.03940695744E-05 +5.34456421838E-05 -4.46157286408E-05 +1.81975912740E-05 -7.25450756372E-01 +6.53683345121E-01
1.04000000000E+09 -6.14401820197E-01 +7.38336376225E-01 -1.99977943235E-06 +3.47139576331E-05 -8.74207380853E-05 +5.22933082083E-05 -7.21773097317E-01 +6.57365692338E-01
1.04500000000E+09 -6.09420276125E-01 +7.41864147547E-01 -4.42850395048E-05 +6.30671960120E-05 -5.71094278257E-05 +6.94949365820E-05 -7.18233862660E-01 +6.60977905407E-01
1.05000000000E+09 -6.02618842923E-01 +7.45986715075E-01 -9.06650845839E-05 +5.44779793150E-05 -1.05752300532E-05 +2.58937827431E-06 -7.14759902165E-01 +6.64199874151E-01
1.05500000000E+09 -5.94533655970E-01 +7.50421441816E-01 -3.20156282423E-05 -1.49567098567E-05 -3.12344089075E-05 +9.00763938306E-05 -7.11473259972E-01 +6.67918011332E-01
1.06000000000E+09 -5.85990201710E-01 +7.55320802323E-01 -1.74486196304E-05 +5.80272925716E-05 -3.47630062929E-05 +6.24024156606E-05 -7.08197842889E-01 +6.71763151476E-01
1.06500000000E+09 -5.78079333934E-01 +7.60302920434E-01 +2.29277684945E-05 +6.73290901642E-05 -1.44015792098E-05 +3.53405078936E-05 -7.04275906030E-01 +6.75314941513E-01
1.07000000000E+09 -5.71067490852E-01 +7.64281237102E-01 +2.17189301585E-05 +6.16531157819E-05 +6.26120203353E-06 +4.62260739229E-05 -7.00391884325E-01 +6.79000667356E-01
1.07500000000E+09 -5.65604993743E-01 +7.68116235318E-01 -4.36244048211E-05 +8.35328937113E-05 -2.75678384572E-05 +6.71701274673E-05 -6.96142796457E-01 +6.82659061604E-01
1.08000000000E+09 -5.62023367746E-01 +7.71307772035E-01 -1.23638617705E-05 +7.54287271713E-05 -5.79406088508E-05 +1.01172138921E-05 -6.92077757149E-01 +6.86567393714E-01
1.08500000000E+09 -5.59579360742E-01 +7.73615540304E-01 -7.72467669773E-06 +4.65875363112E-05 -1.05582760422E-05 +7.97212077263E-05 -6.88054124762E-01 +6.90256888846E-01
1.09000000000E+09 -5.57407457099E-01 +7.75774499036E-01 -8.55001386197E-08 +6.99921976383E-05 +3.14711995851E-05 +1.05324806968E-04 -6.84114346257E-01 +6.94308092587E-01
1.09500000000E+09 -5.55673813521E-01 +7.77742171309E-01 +2.20075638963E-05 +5.12153987908E-05 -2.91314414363E-06 +6.65392400727E-05 -6.80276669659E-01 +6.97986388112E-01
1.10000000000E+09 -5.52432417691E-01 +7.79822607772E-01 +2.86689963367E-05 +7.85116423668E-05 +1.87160392165E-05 +9.92268801395E-05 -6.76388469122E-01 +7.01783293121E-01
1.10500000000E+09 -5.48091986910E-01 +7.82586052480E-01 +9.08766781860E-06 +8.75004934985E-05 +3.22228077691E-05 +1.89641390197E-05 -6.71912526274E-01 +7.05370114440E-01
1.11000000000E+09 -5.42005858356E-01 +7.86004007939E-01 +3.38133159176E-05 +7.29553217833E-05 -6.86477614187E-06 +3.33235105440E-05 -6.67670035462E-01 +7.08741742565E-01
1.11500000000E+09 -5.34386557174E-01 +7.89784149862E-01 +5.54969713476E-05 +7.24173998539E-05 +1.61297188499E-05 +4.98595750731E-05 -6.63693477664E-01 +7.11943622298E-01
1.12000000000E+09 -5.26498515697E-01 +7.93687336105E-01 +8.25213263550E-05 +7.49376843668E-05 +4.17316676477E-05 +3.91181465078E-05 -6.59606258846E-01 +7.15749638027E-01
1.12500000000E+09 -5.18592106646E-01 +7.97697515259E-01 +7.58539584902E-05 +7.24999758785E-05 +9.62211959457E-05 +3.58787252010E-05 -6.55161328370E-01 +7.19773738556E-01
1.13000000000E+09 -5.11587016998E-01 +8.01266938136E-01 +5.26851970615E-05 +6.89595060648E-05 +8.33470965473E-05 +5.61576189694E-05 -6.51029910487E-01 +7.23496074790E-01
1.13500000000E+09 -5.05486765672E-01 +8.04306236909E-01 -2.26393765185E-06 +8.11967927789E-05 +7.70965036898E-05 +7.29253997184E-05 -6.46364869622E-01 +7.27308930568E-01
1.14000000000E+09 -5.00927451656E-01 +8.07054280684E-01 +7.97388999189E-05 +7.83039701539E-05 +9.22487068396E-05 +7.68972685088E-05 -6.41693913724E-01 +7.30703955499E-01
1.14500000000E+09 -4.97167728863E-01 +8.09040556954E-01 +1.41552263265E-04 +3.05862002142E-05 +1.38521263028E-04 +3.43478312732E-05 -6.37141293826E-01 +7.34101224613E-01
1.15000000000E+09 -4.93754386792E-01 +8.10952459258E-01 +9.39622599034E-05 +4.75022171273E-05 +9.94386651631E-05 +5.38367364696E-05 -6.32322057013E-01 +7.37704994477E-01
1.15500000000E+09 -4.90033705251E-01 +8.12951412662E-01 +1.10270803663E-04 +5.09280209551E-05 +6.86295404056E-05 +4.29833410284E-05 -6.27521142579E-01 +7.41654198362E-01
1.16000000000E+09 -4.85378642568E-01 +8.14970514051E-01 +9.91095714234E-05 +2.59022825222E-05 +9.23195404233E-05 +7.39524162021E-05 -6.22577864889E-01 +7.45493390791E-01
1.16500000000E+09 -4.79349202722E-01 +8.17807246228E-01 +1.25034903367E-04 +5.85359485574E-05 +1.28220570848E-04 +4.43483746844E-05 -6.17464102528E-01 +7.49082917294E-01
1.17000000000E+09 -4.72028917011E-01 +8.21080707555E-01 +1.04990269699E-04 +4.34521107918E-05 +1.41798814095E-04 +3.36336209831E-05 -6.12023413894E-01 +7.52399684671E-01
1.17500000000E+09 -4.63859880242E-01 +8.24412980592E-01 +1.47648672815E-04 +4.82029410282E-05 +1.25145087812E-04 +1.17589201272E-05 -6.06344110731E-01 +7.55609549653E-01
1.18000000000E+09 -4.55371474605E-01 +8.27890830192E-01 +1.28331491436E-04 -7.19815577362E-06 +1.89942591689E-04 +2.42942384680E-05 -6.00668190878E-01 +7.58662545091E-01
1.18500000000E+09 -4.47212513259E-01 +8.31178188954E-01 +1.69611342915E-04 +3.61915628246E-05 +2.15912757397E-04 -5.67120616721E-06 -5.94862591271E-01 +7.61726656362E-01
1.19000000000E+09 -4.40012009769E-01 +8.33770441672E-01 +1.65290836386E-04 -9.70510407204E-06 +2.45179473695E-04 +6.46748538309E-06 -5.88465842235E-01 +7.64424427136E-01
1.19500000000E+09 -4.33957649285E-01 +8.35897932771E-01 +2.56609670373E-04 -5.53949503869E-05 +2.35560978698E-04 -3.33848895358E-05 -5.82506797771E-01 +7.65510123500E-01
1.20000000000E+09 -4.29305026438E-01 +8.36831130423E-01 +2.73260967652E-04 -1.38040073411E-04 +2.44041813995E-04 -1.54224938416E-04 -5.77960895295E-01 +7.65659248672E-01
1.20500000000E+09 -4.25489847998E-01 +8.38214595411E-01 +2.62500394964E-04 -1.96613437106E-04 +2.45771506912E-04 -1.66992036828E-04 -5.75685199543E-01 +7.66476529514E-01
1.21000000000E+09 -4.21531388396E-01 +8.39829265966E-01 +1.67138901017E-04 -2.23202472789E-04 +1.67601440403E-04 -2.24525950892E-04 -5.73930596207E-01 +7.69519634409E-01
1.21500000000E+09 -4.16460806995E-01 +8.41504300588E-01 +1.27129827351E-04 -1.81950842550E-04 +8.45792332793E-05 -1.58759546974E-04 -5.71137901199E-01 +7.74000757690E-01
1.22000000000E+09 -4.09746792446E-01 +8.43500143974E-01 +9.02912024493E-05 -1.36149087006E-04 +8.90827273720E-05 -1.89235806171E-04 -5.66975516044E-01 +7.79239354913E-01
1.22500000000E+09 -4.01658394591E-01 +8.46274830600E-01 +1.39656159615E-04 -1.85441028229E-04 +1.19092726953E-04 -1.81495327176E-04 -5.61748446338E-01 +7.84398613957E-01
1.23000000000E+09 -3.92079460664E-01 +8.49450915485E-01 +1.25202485478E-04 -2.17358693034E-04 +1.27480754583E-04 -1.93909904551E-04 -5.55990380934E-01 +7.89106715115E-01
1.23500000000E+09 -3.82060228683E-01 +8.53060053747E-01 +8.65894909615E-05 -2.66368559279E-04 +1.03466018202E-04 -2.24795955205E-04 -5.50268607220E-01 +7.93339154435E-01
1.24000000000E+09 -3.71800077618E-01 +8.56830775327E-01 +7.98342327488E-05 -2.12503359571E-04 +5.23818031304E-05 -2.24795134140E-04 -5.44045048484E-01 +7.97206258314E-01
1.24500000000E+09 -3.62522750713E-01 +8.60545679839E-01 +5.04882070493E-05 -2.85193853107E-04 +4.98567353281E-05 -2.71932942852E-04 -5.37832124195E-01 +8.01068797925E-01
1.25000000000E+09 -3.54358255548E-01 +8.63809407478E-01 +4.71370299524E-05 -3.11977717788E-04 +7.48661001910E-05 -2.63769033993E-04 -5.31176036595E-01 +8.05283624313E-01
1.25500000000E+09 -3.47652471134E-01 +8.66331143152E-01 +3.75190974151E-05 -3.47129255261E-04 +2.10649803568E-05 -3.17830237514E-04 -5.24380689971E-01 +8.09259255919E-01
1.26000000000E+09 -3.41987294484E-01 +8.68296658022E-01 +1.48385330185E-06 -2.85858351598E-04 -2.31889193686E-05 -3.56465971253E-04 -5.17547400504E-01 +8.13540813101E-01
1.26500000000E+09 -3.36918610987E-01 +8.69754148784E-01 -1.17830993452E-05 -3.61000518530E-04 -3.21674555288E-05 -3.35488124161E-04 -5.10490005961E-01 +8.17419433347E-01
1.27000000000E+09 -3.31567045219E-01 +8.70977550496E-01 -9.45657842995E-05 -3.67653386208E-04 -9.96840105783E-05 -3.39304866899E-04 -5.03720367801E-01 +8.21155761139E-01
1.27500000000E+09 -3.25174904237E-01 +8.72437276457E-01 -1.32464244621E-04 -3.57597914445E-04 -1.31568737111E-04 -4.08591664177E-04 -4.96727306015E-01 +8.24690355520E-01
1.28000000000E+09 -3.16750977096E-01 +8.74143796079E-01 -2.24488502015E-04 -3.84198856254E-04 -1.84445987553E-04 -3.86714912463E-04 -4.89717093003E-01 +8.28235552570E-01
1.28500000000E+09 -3.06319146381E-01 +8.76133959988E-01 -2.45622560010E-04 -3.42116851849E-04 -2.12499076696E-04 -3.53598602498E-04 -4.82398898736E-01 +8.31738987029E-01
1.29000000000E+09 -2.94773537145E-01 +8.78569270129E-01 -2.50827753910E-04 -2.87818451363E-04 -2.95193885125E-04 -3.53579757371E-04 -4.74901310865E-01 +8.35447950974E-01
1.29500000000E+09 -2.82310240220E-01 +8.81397795586E-01 -3.13837548008E-04 -3.44407714161E-04 -3.34155454238E-04 -3.71154423969E-04 -4.67032102342E-01 +8.38958673010E-01
1.30000000000E+09 -2.70053691762E-01 +8.84466771874E-01 -3.52299503885E-04 -3.73567782353E-04 -3.78152488603E-04 -3.16126125436E-04 -4.59145526503E-01 +8.42563583461E-01
1.30500000000E+09 -2.58874740308E-01 +8.87393550668E-01 -4.03615792424E-04 -3.23913985904E-04 -4.10370549598E-04 -2.64588077644E-04 -4.50922521442E-01 +8.45960947949E-01
1.31000000000E+09 -2.49241938261E-01 +8.89880917502E-01 -4.41230463969E-04 -2.72360642895E-04 -4.35969686450E-04 -2.12363947154E-04 -4.42620225850E-01 +8.49375480335E-01
1.31500000000E+09 -2.41400352567E-01 +8.91823248290E-01 -4.75753938063E-04 -1.86819193912E-04 -4.54849400207E-04 -1.88415150471E-04 -4.33771581056E-01 +8.52675557762E-01
1.32000000000E+09 -2.35041158147E-01 +8.93002117816E-01 -5.06970318084E-04 -1.92224779342E-04 -5.04439821108E-04 -1.90155493598E-04 -4.24696398352E-01 +8.56092446512E-01
1.32500000000E+09 -2.29203478468E-01 +8.93556168313E-01 -4.94188286954E-04 -1.68058958548E-04 -5.67629511846E-04 -1.50992102222E-04 -4.15135663412E-01 +8.59547085199E-01
1.33000000000E+09 -2.22725030278E-01 +8.93860525801E-01 -5.40879531487E-04 -1.92218390963E-04 -5.67097295416E-04 -1.06062796528E-04 -4.05447499039E-01 +8.62731610275E-01
1.33500000000E+09 -2.14598021376E-01 +8.93778994253E-01 -6.31820693217E-04 -1.48260238837E-04 -5.73858121794E-04 -5.13265694940E-05 -3.95478345615E-01 +8.66118323452E-01
1.34000000000E+09 -2.03954984762E-01 +8.93957516382E-01 -6.68699653699E-04 -8.36779280970E-05 -6.37500084122E-04 -9.71651055016E-06 -3.85084130842E-01 +8.69327285797E-01
1.34500000000E+09 -1.90780153295E-01 +8.93744784027E-01 -7.46929426191E-04 -9.35468895473E-05 -7.13804099020E-04 +9.63479113960E-07 -3.74201565314E-01 +8.72575500801E-01
1.35000000000E+09 -1.75231672842E-01 +8.93601479764E-01 -8.40360200788E-04 +9.57320006513E-05 -7.52980461308E-04 +7.84399866618E-05 -3.62995550956E-01 +8.75673367199E-01
1.35500000000E+09 -1.58656287766E-01 +8.93628477257E-01 -8.15068354803E-04 +1.88262246484E-04 -7.48646303557E-04 +1.59470683280E-04 -3.51371605903E-01 +8.78328045222E-01
1.36000000000E+09 -1.42031736968E-01 +8.93938873103E-01 -7.81147089370E-04 +2.45884377134E-04 -8.18645307736E-04 +2.96032316165E-04 -3.39604876176E-01 +8.80931901766E-01
1.36500000000E+09 -1.26136634391E-01 +8.94401485453E-01 -8.48002829813E-04 +3.17152287766E-04 -7.67249514697E-04 +2.51788459882E-04 -3.27417954106E-01 +8.83433019106E-01
1.37000000000E+09 -1.11703667107E-01 +8.94668248516E-01 -9.56877061815E-04 +4.09661646373E-04 -8.53772940997E-04 +3.07132722932E-04 -3.14581394929E-01 +8.85757942951E-01
1.37500000000E+09 -9.91644872412E-02 +8.94702007662E-01 -9.45876873124E-04 +5.30326346827E-04 -9.58779636661E-04 +3.68200130714E-04 -3.00755555009E-01 +8.88064467666E-01
1.38000000000E+09 -8.80143483461E-02 +8.94219993338E-01 -9.48074317574E-04 +6.94329006406E-04 -1.08162186505E-03 +6.30857137564E-04 -2.86235751697E-01 +8.89869391138E-01
1.38500000000E+09 -7.70743354554E-02 +8.93298080314E-01 -8.61518201061E-04 +9.02820959717E-04 -1.03480807723E-03 +9.17324979809E-04 -2.70931455644E-01 +8.91727949820E-01
1.39000000000E+09 -6.54631832360E-02 +8.91595929888E-01 -7.96924134739E-04 +9.86927079535E-04 -9.30367710086E-04 +1.11906383407E-03 -2.55107133245E-01 +8.93236108773E-01
1.39500000000E+09 -5.19142342476E-02 +8.89107835221E-01 -8.09735327157E-04 +1.07064871937E-03 -8.13629539314E-04 +1.26202823169E-03 -2.38250820359E-01 +8.93840784367E-01
1.40000000000E+09 -3.57906251337E-02 +8.85370073239E-01 -7.48207211457E-04 +1.28604681786E-03 -6.27673386252E-04 +1.36533844486E-03 -2.20686930899E-01 +8.94437518730E-01
1.40500000000E+09 -1.72107006556E-02 +8.80852247375E-01 -5.99097897849E-04 +1.47282815247E-03 -5.24888696959E-04 +1.48958501561E-03 -2.02067036082E-01 +8.94339191767E-01
1.41000000000E+09 +3.51626162596E-03 +8.75473247074E-01 -5.39424401254E-04 +1.61308180871E-03 -5.01205022125E-04 +1.57335207936E-03 -1.82081592410E-01 +8.93443703983E-01
1.41500000000E+09 +2.56155150202E-02 +8.69236247618E-01 -3.83518566138E-04 +1.73513360705E-03 -4.59995342638E-04 +1.77861435343E-03 -1.60700844794E-01 +8.92122855366E-01
1.42000000000E+09 +4.85033461727E-02 +8.62613888398E-01 -3.04586669787E-04 +1.82218777653E-03 -3.46246462966E-04 +2.03169068899E-03 -1.37770756057E-01 +8.89704895109E-01
1.42500000000E+09 +7.08496646875E-02 +8.55193015985E-01 -2.39098278602E-04 +2.13981202700E-03 -1.53851423723E-04 +2.39441467260E-03 -1.13962649480E-01 +8.85980477657E-01
1.43000000000E+09 +9.23783626557E-02 +8.46938669117E-01 +5.88687313272E-05 +2.51724890058E-03 +2.83893987905E-04 +2.74484135199E-03 -8.91609334975E-02 +8.81209175239E-01
1.43500000000E+09 +1.13380177274E-01 +8.37581459217E-01 +6.01606320015E-04 +2.68612208418E-03 +8.67433520438E-04 +2.69093072758E-03 -6.26880457666E-02 +8.74519476343E-01
1.44000000000E+09 +1.34413173065E-01 +8.27124584469E-01 +9.32687674911E-04 +2.74306043842E-03 +1.08823630602E-03 +2.70367935761E-03 -3.48012587848E-02 +8.65888432476E-01
1.44500000000E+09 +1.56737242515E-01 +8.14021070429E-01 +1.37157878019E-03 +2.76509098989E-03 +1.54458875489E-03 +2.69824471686E-03 -4.55010117878E-03 +8.54594390990E-01
1.45000000000E+09 +1.80744161037E-01 +7.97294679551E-01 +1.55317510161E-03 +2.79655893969E-03 +1.75783261559E-03 +2.70429895805E-03 +2.74746669018E-02 +8.39699881054E-01
1.45500000000E+09 +2.06721298111E-01 +7.76742283534E-01 +1.96782815262E-03 +3.17402241835E-03 +2.27327522248E-03 +2.96142041531E-03 +6.04905054473E-02 +8.21850895526E-01
1.46000000000E+09 +2.35181525308E-01 +7.51837375803E-01 +2.72976113041E-03 +3.56097548651E-03 +2.98836805175E-03 +3.16344764914E-03 +9.51592235993E-02 +8.00588267397E-01
1.46500000000E+09 +2.65499529388E-01 +7.22149429635E-01 +3.87409645217E-03 +3.70057880734E-03 +3.75875365541E-03 +3.16439304199E-03 +1.31797084285E-01 +7.73726432430E-01
1.47000000000E+09 +2.97078921655E-01 +6.87076803267E-01 +5.44995834760E-03 +3.37884279967E-03 +4.97679737011E-03 +3.09429613781E-03 +1.68954945964E-01 +7.39819725036E-01
1.47500000000E+09 +3.28112507521E-01 +6.46485204258E-01 +6.62270196044E-03 +2.30959032170E-03 +6.26876736339E-03 +2.41095886022E-03 +2.05774772423E-01 +6.98649274148E-01
1.48000000000E+09 +3.56862832914E-01 +5.99540541355E-01 +7.44677713885E-03 +1.30257063072E-03 +7.45924010398E-03 +1.53501933080E-03 +2.41962404004E-01 +6.49360522510E-01
1.48500000000E+09 +3.81007081167E-01 +5.46350754314E-01 +8.51267851825E-03 +2.36056108506E-04 +8.70365804316E-03 +1.03038634281E-04 +2.75817128380E-01 +5.91176212300E-01
1.49000000000E+09 +3.99301843107E-01 +4.86284777207E-01 +9.91380194088E-03 -1.36080768041E-03 +9.85069597723E-03 -1.87171952887E-03 +3.05425537032E-01 +5.22163259763E-01
1.49500000000E+09 +4.09964021341E-01 +4.19510255910E-01 +1.09656023606E-02 -3.99914799362E-03 +1.02887222590E-02 -4.31113024756E-03 +3.24380591624E-01 +4.40924764724E-01
1.50000000000E+09 +4.11049306343E-01 +3.43798322757E-01 +1.14931436341E-02 -7.39771439429E-03 +1.08181451945E-02 -7.02643651041E-03 +3.28859655328E-01 +3.52241344142E-01
1.50500000000E+09 +4.00061194753E-01 +2.60552301884E-01 +1.03527465052E-02 -1.20910049047E-02 +1.02531657492E-02 -1.13084654217E-02 +3.18344231678E-01 +2.56069311164E-01
1.51000000000E+09 +3.72951854703E-01 +1.71099134129E-01 +7.20754297802E-03 -1.63625312573E-02 +7.67208695621E-03 -1.58788866723E-02 +2.88027222148E-01 +1.54571367994E-01
1.51500000000E+09 +3.27323104461E-01 +8.10790390734E-02 +1.60337409885E-03 -1.92295868390E-02 +2.08012728425E-03 -1.93024133988E-02 +2.33034375992E-01 +5.51696760362E-02
1.52000000000E+09 +2.62194925898E-01 -4.41240701414E-03 -4.84496612154E-03 -1.94732624024E-02 -4.64345221260E-03 -1.97051824677E-02 +1.55898844659E-01 -3.27974040765E-02
1.52500000000E+09 +1.76849516892E-01 -7.70825505506E-02 -1.03028219204E-02 -1.65570931018E-02 -1.03209284519E-02 -1.67891333880E-02 +5.90132587104E-02 -1.02260278724E-01
1.53000000000E+09 +7.75001728822E-02 -1.28445291549E-01 -1.37154398325E-02 -1.34935886201E-02 -1.38067197586E-02 -1.35834945473E-02 -5.05302432881E-02 -1.48130246307E-01
1.53500000000E+09 -2.94933153133E-02 -1.56206797449E-01 -1.72958265590E-02 -9.77521562858E-03 -1.73122448394E-02 -9.78955952163E-03 -1.65131217712E-01 -1.66692058173E-01
1.54000000000E+09 -1.38673178081E-01 -1.60043067141E-01 -1.95113035353E-02 -4.24805395488E-03 -1.92885209158E-02 -4.28607348437E-03 -2.75401436067E-01 -1.61453637814E-01
1.54500000000E+09 -2.44723869401E-01 -1.39490601108E-01 -1.93298212602E-02 +2.00134943538E-03 -1.91760161139E-02 +1.55737754564E-03 -3.74186332280E-01 -1.34963850140E-01
1.55000000000E+09 -3.40644827408E-01 -9.78677643481E-02 -1.66831136931E-02 +6.85240851763E-03 -1.69047858987E-02 +6.21788251341E-03 -4.58939968800E-01 -9.55454437055E-02
1.55500000000E+09 -4.20086162819E-01 -4.13401571968E-02 -1.34123450609E-02 +1.03278281181E-02 -1.41613860619E-02 +9.98616830138E-03 -5.28491870386E-01 -4.66659566881E-02
1.56000000000E+09 -4.82390204809E-01 +1.97028972234E-02 -8.90634807776E-03 +1.25512269232E-02 -9.71829145171E-03 +1.27359449370E-02 -5.84232824232E-01 +7.22349058510E-03
1.56500000000E+09 -5.31274664565E-01 +8.02848917939E-02 -4.62508363040E-03 +1.23911776938E-02 -5.08235594223E-03 +1.30234031459E-02 -6.26811689524E-01 +6.24637229710E-02
1.57000000000E+09 -5.70227602432E-01 +1.39530327658E-01 -1.95929042506E-03 +1.09340041455E-02 -2.05055088338E-03 +1.16475847935E-02 -6.59592038278E-01 +1.17323527145E-01
