# Hz S RI R 50
! CMT, C1220, 16058040, 17.2.0/1
! Date: 14/08/2018 12:05:04
! Data: Format (Calibration Info)
! Freq                      S11: Re/Im (F2)                       S21: Re/Im (F2)                       S12: Re/Im (F2)                       S22: Re/Im (F2)            
1.00000000000E+09 -6.53911947189E-01 +7.09713493666E-01 +1.18485400812E-05 -3.77395403908E-06 -6.40982979518E-05 -8.22702670125E-06 -7.53375773757E-01 +6.25682019146E-01
1.00500000000E+09 -6.46997651211E-01 +7.14418787165E-01 -5.28250758504E-05 +1.70321075270E-05 -5.14467831007E-05 -9.94638545133E-06 -7.49876082137E-01 +6.29908420063E-01
1.01000000000E+09 -6.41369513321E-01 +7.18557700495E-01 -2.14020569503E-05 -4.02537416276E-05 -1.17835719302E-05 +8.00529194733E-07 -7.46421687413E-01 +6.33498967107E-01
1.01500000000E+09 -6.37269810116E-01 +7.22214465908E-01 -1.81446939455E-05 +5.31679985567E-06 +2.56568028548E-05 -3.93066781668E-05 -7.42822323054E-01 +6.37385215699E-01
1.02000000000E+09 -6.34362633189E-01 +7.25648290826E-01 -1.26785523839E-06 -1.34373295365E-05 +1.03041339171E-05 +3.13774456219E-06 -7.39576431962E-01 +6.40928683531E-01
1.02500000000E+09 -6.32357311171E-01 +7.28647867174E-01 -5.18693434239E-05 -2.71405842991E-05 -2.23248109339E-05 -2.37745833908E-05 -7.36514011990E-01 +6.44646140631E-01
1.03000000000E+09 -6.30979805007E-01 +7.31370072624E-01 -2.42790783106E-05 +3.43000019240E-06 -3.76699783573E-05 -2.91443577400E-05 -7.32968475971E-01 +6.48415681820E-01
1.03500000000E+09 -6.28689219638E-01 +7.34270926264E-01 -2.54013010398E-06 -4.02263526903E-05 +1.28588581978E-05 +3.72227891189E-05 -7.29354699502E-01 +6.52543099654E-01
1.04000000000E+09 -6.25333169627E-01 +7.37422277964E-01 -5.30626113439E-05 +9.85118403048E-06 -2.59060496678E-05 +7.57539719207E-06 -7.25373289324E-01 +6.55951319325E-01
1.04500000000E+09 -6.20463064503E-01 +7.41027994736E-01 -3.31677044454E-06 +2.55772198399E-05 -9.33924994139E-05 -2.32150924668E-05 -7.21993655860E-01 +6.59591598401E-01
1.05000000000E+09 -6.13704704602E-01 +7.45068030568E-01 -3.75574650903E-05 +5.39690124518E-05 -5.09568612773E-05 +7.12089773700E-05 -7.18513621967E-01 +6.63042890064E-01
1.05500000000E+09 -6.05976498071E-01 +7.49141488860E-01 -1.10746455724E-05 -3.43903795145E-06 -5.39610580275E-05 -7.77592657924E-08 -7.15309077352E-01 +6.66675139573E-01
1.06000000000E+09 -5.97677637603E-01 +7.53568492104E-01 -6.66893371014E-05 +3.26068102802E-05 -1.19345962514E-05 +3.51699687531E-05 -7.11857217697E-01 +6.70455545777E-01
1.06500000000E+09 -5.89690145104E-01 +7.58032106822E-01 -1.71007312385E-06 +3.85980037140E-06 -4.03297342466E-06 +5.12768198250E-05 -7.08188016731E-01 +6.74226861113E-01
1.07000000000E+09 -5.82875217435E-01 +7.61902535285E-01 -4.64864009339E-05 +5.32103382275E-05 -3.46847848738E-06 +4.13109332746E-06 -7.04149578489E-01 +6.77807458881E-01
1.07500000000E+09 -5.77372050701E-01 +7.65599955678E-01 -3.74409682538E-06 +1.26781427908E-05 +1.09375664354E-05 +8.79480594082E-06 -6.99843444539E-01 +6.81605286409E-01
1.08000000000E+09 -5.73548935917E-01 +7.69086339071E-01 +3.18865705271E-05 +5.35393810570E-05 +1.88962818028E-05 +7.84015617283E-05 -6.95914073546E-01 +6.85376987553E-01
1.08500000000E+09 -5.70824048122E-01 +7.71937349578E-01 +3.76928842886E-05 -2.67947776274E-06 +2.00946751218E-05 +4.76056728849E-05 -6.91881313837E-01 +6.89197336024E-01
1.09000000000E+09 -5.68588713120E-01 +7.74440344829E-01 +3.56267484040E-05 +6.20168001157E-05 +6.15385836990E-05 +3.74444364056E-05 -6.87870102713E-01 +6.92982908494E-01
1.09500000000E+09 -5.66473194255E-01 +7.77139771767E-01 +2.91541200374E-05 +3.03306469677E-05 -1.07664657046E-05 -1.16115344773E-06 -6.84164990243E-01 +6.96917523319E-01
1.10000000000E+09 -5.63293363576E-01 +7.79753071316E-01 +5.52043935597E-05 +2.56223994695E-05 +7.55549761912E-06 +4.51934600457E-05 -6.80196428785E-01 +7.00770775146E-01
1.10500000000E+09 -5.58711866784E-01 +7.82776357090E-01 +1.31205062635E-05 +1.33361208293E-05 +5.56325506914E-05 +3.86073273013E-05 -6.75871663337E-01 +7.04268629579E-01
1.11000000000E+09 -5.52783087069E-01 +7.85885796474E-01 -7.04331334183E-06 +3.74454735673E-05 +4.53029751138E-05 +6.20969109429E-05 -6.71705570191E-01 +7.07561018992E-01
1.11500000000E+09 -5.45616702333E-01 +7.89500135015E-01 +1.74739231647E-06 +3.54761954400E-05 +1.17448940528E-05 +3.05650471985E-05 -6.67689074504E-01 +7.11069080189E-01
1.12000000000E+09 -5.38073985923E-01 +7.93038606173E-01 +3.23050552522E-05 +5.35696619921E-05 +1.05989680248E-05 +3.13162751399E-05 -6.63570200538E-01 +7.14756919288E-01
1.12500000000E+09 -5.30427730307E-01 +7.96625762344E-01 +4.74125134429E-06 +2.40216348065E-05 +2.87694943119E-05 +2.07826356467E-05 -6.59240825460E-01 +7.18798875564E-01
1.13000000000E+09 -5.23901948096E-01 +8.00163218115E-01 +4.77663941584E-05 +3.48148462951E-05 -2.30571873547E-05 -1.74331722102E-06 -6.54924073523E-01 +7.22301545036E-01
1.13500000000E+09 -5.18186604135E-01 +8.02903855025E-01 +2.06315177795E-05 +5.64311032794E-05 +5.64681407892E-06 +1.62972187315E-05 -6.50371605108E-01 +7.26227870631E-01
1.14000000000E+09 -5.13548127701E-01 +8.05968637385E-01 +6.72189161803E-05 +2.70032690947E-05 +4.13171836337E-05 +3.14625384933E-05 -6.45624300309E-01 +7.29756115990E-01
1.14500000000E+09 -5.09890136673E-01 +8.08412590678E-01 +5.75384249946E-05 -2.12645751071E-06 +4.67062691405E-05 +4.20458340052E-05 -6.41050911582E-01 +7.33107153282E-01
1.15000000000E+09 -5.06409282042E-01 +8.10650556367E-01 +3.67581576914E-05 +3.07899153482E-05 +6.04606469634E-05 +6.76832719211E-05 -6.36401815947E-01 +7.36982137381E-01
1.15500000000E+09 -5.02677429492E-01 +8.12981034809E-01 +7.77908045184E-05 +2.81318315802E-05 +5.86946098478E-05 +4.49659223215E-05 -6.31489652399E-01 +7.40727329014E-01
1.16000000000E+09 -4.98241848895E-01 +8.15316228774E-01 +8.07197040033E-05 +4.42044733820E-05 +1.64437795707E-04 +4.92341536830E-05 -6.26669460950E-01 +7.44548232716E-01
1.16500000000E+09 -4.92501337103E-01 +8.18171131850E-01 +7.67844225699E-05 +5.14167893464E-05 +8.62710222179E-05 +4.43068655443E-05 -6.21632210555E-01 +7.48316715252E-01
1.17000000000E+09 -4.85683355884E-01 +8.21250837496E-01 +6.37932477914E-05 -1.48105922437E-05 +1.00811678579E-04 -9.06206277341E-06 -6.16101952812E-01 +7.51557912829E-01
1.17500000000E+09 -4.77839095773E-01 +8.24241517943E-01 +9.31089175695E-05 +3.10641988413E-05 +6.96654625523E-05 +5.02681249341E-05 -6.10404349196E-01 +7.54686821327E-01
1.18000000000E+09 -4.69843134184E-01 +8.27375888485E-01 +9.51190429180E-05 +4.58699651676E-05 +1.11939507815E-04 +2.38143521052E-05 -6.04842693686E-01 +7.57806504364E-01
1.18500000000E+09 -4.61951672519E-01 +8.30376649959E-01 +1.05177066666E-04 +2.19031217200E-05 +7.78571925176E-05 -1.51421630374E-05 -5.98828519814E-01 +7.60877982426E-01
1.19000000000E+09 -4.54947084277E-01 +8.32701517434E-01 +8.30914299128E-05 +4.67739142486E-05 +1.79853203207E-04 +8.06541024231E-05 -5.92723110562E-01 +7.63522451783E-01
1.19500000000E+09 -4.48955598841E-01 +8.35045344209E-01 +1.93513586305E-04 -4.26927445077E-06 +1.85720910464E-04 -1.30624927536E-05 -5.86801183054E-01 +7.64787873148E-01
1.20000000000E+09 -4.44288822670E-01 +8.36464784330E-01 +1.60325146025E-04 -4.33981192545E-05 +2.27982670868E-04 -5.69575380538E-05 -5.82318481834E-01 +7.64998538220E-01
1.20500000000E+09 -4.40071495629E-01 +8.38371373950E-01 +1.20695098335E-04 -1.19864493475E-04 +1.70095951446E-04 -1.05808661684E-04 -5.80081717952E-01 +7.65842880904E-01
1.21000000000E+09 -4.36066529832E-01 +8.40246041844E-01 +5.12306481100E-05 -1.48387667327E-04 +1.06193547983E-04 -1.14815999294E-04 -5.78165663575E-01 +7.68855820038E-01
1.21500000000E+09 -4.30760581922E-01 +8.42389462750E-01 +9.99339087135E-05 -8.36513460757E-05 +9.72862258147E-05 -1.41494891959E-04 -5.75360229438E-01 +7.73511179863E-01
1.22000000000E+09 -4.24338744396E-01 +8.44926592777E-01 +8.94187238353E-05 -1.41376333479E-04 +5.61502734225E-05 -1.28065325211E-04 -5.71143754417E-01 +7.78776553425E-01
1.22500000000E+09 -4.16242995512E-01 +8.47764676963E-01 +2.88499383828E-05 -8.93231251876E-05 +7.90383712856E-05 -1.13741990093E-04 -5.66023210994E-01 +7.83864797178E-01
1.23000000000E+09 -4.06833020891E-01 +8.50820658980E-01 +6.23668514050E-05 -8.97014688287E-05 +2.32650085278E-05 -1.32722577577E-04 -5.60213307774E-01 +7.88584280857E-01
1.23500000000E+09 -3.96826102386E-01 +8.53967091835E-01 +8.57940463876E-05 -1.11974787793E-04 +6.04917733646E-05 -1.32140378503E-04 -5.54508267652E-01 +7.92853554752E-01
1.24000000000E+09 -3.86714019012E-01 +8.57289385027E-01 +7.72521059238E-05 -1.33287288482E-04 +6.58359431868E-05 -1.24733635968E-04 -5.48387628581E-01 +7.96752894009E-01
1.24500000000E+09 -3.77225808606E-01 +8.60777346722E-01 +6.22441446110E-05 -2.30874603535E-04 +5.32836880526E-05 -2.11150391447E-04 -5.42136331240E-01 +8.00623290441E-01
1.25000000000E+09 -3.68871799248E-01 +8.63844661700E-01 +4.93421840125E-05 -2.33403776899E-04 +1.53155659919E-05 -2.68322723456E-04 -5.35534236553E-01 +8.04850743996E-01
1.25500000000E+09 -3.61557191819E-01 +8.66333543563E-01 -3.71363238262E-05 -2.13459074474E-04 +8.17775828023E-06 -2.51137288927E-04 -5.28634227304E-01 +8.08828395611E-01
1.26000000000E+09 -3.55421131189E-01 +8.68751709074E-01 -1.78945606091E-05 -1.79856817337E-04 -5.45733804691E-05 -2.32276375360E-04 -5.21883619783E-01 +8.13248469177E-01
1.26500000000E+09 -3.49937148819E-01 +8.70929962256E-01 -1.63648112811E-05 -2.25646931349E-04 -4.55387124600E-05 -2.25689836815E-04 -5.14892551887E-01 +8.17003296988E-01
1.27000000000E+09 -3.44304753361E-01 +8.73037237179E-01 -1.53158468016E-04 -2.37248553769E-04 -8.47403850504E-05 -1.88767984827E-04 -5.08192263094E-01 +8.21053138174E-01
1.27500000000E+09 -3.37833692312E-01 +8.75264483449E-01 -1.65443604565E-04 -2.33997168820E-04 -1.17978278228E-04 -2.57041941825E-04 -5.01094548098E-01 +8.24532579175E-01
1.28000000000E+09 -3.29932711793E-01 +8.77472703361E-01 -1.20836356430E-04 -2.52363680494E-04 -1.95868058876E-04 -2.38379840722E-04 -4.94067087857E-01 +8.28012214296E-01
1.28500000000E+09 -3.20192779758E-01 +8.80026731985E-01 -2.58463514698E-04 -2.07067256715E-04 -1.81997916552E-04 -2.09409574031E-04 -4.86709058622E-01 +8.31691309200E-01
1.29000000000E+09 -3.09287542469E-01 +8.82483876425E-01 -1.67192380976E-04 -1.86877003176E-04 -2.45248283433E-04 -1.78747055231E-04 -4.79078811161E-01 +8.35274103842E-01
1.29500000000E+09 -2.97931083886E-01 +8.85102701833E-01 -1.97204920658E-04 -1.96233937592E-04 -2.74605168846E-04 -2.04062900488E-04 -4.71213532019E-01 +8.39058361480E-01
1.30000000000E+09 -2.86426888301E-01 +8.87821924199E-01 -2.48901431566E-04 -1.74280916439E-04 -2.70860248840E-04 -1.15100312660E-04 -4.63387156602E-01 +8.42573289456E-01
1.30500000000E+09 -2.75778332703E-01 +8.90259398927E-01 -3.67933376813E-04 -1.70426424289E-04 -3.08854459683E-04 -1.12231469280E-04 -4.55323962025E-01 +8.45957658720E-01
1.31000000000E+09 -2.66247464413E-01 +8.92465661912E-01 -3.16643212204E-04 -8.92847176939E-05 -3.68192638418E-04 -6.12477700484E-05 -4.46962807557E-01 +8.49381052071E-01
1.31500000000E+09 -2.58318814418E-01 +8.94472547816E-01 -3.36213187360E-04 -1.05208427843E-05 -3.42297496058E-04 -3.39864214193E-05 -4.38149000180E-01 +8.52759848186E-01
1.32000000000E+09 -2.51286020170E-01 +8.95982363449E-01 -2.73005336222E-04 -2.82184115400E-05 -3.47028877840E-04 -1.67030451588E-05 -4.28948668801E-01 +8.56344456160E-01
1.32500000000E+09 -2.44853647081E-01 +8.97329991155E-01 -3.52615232318E-04 -3.82974842612E-05 -3.41872941137E-04 +1.09603717022E-05 -4.19291254127E-01 +8.59734352608E-01
1.33000000000E+09 -2.37643688970E-01 +8.98292759133E-01 -3.70549144977E-04 +6.60155265070E-06 -3.85247801601E-04 +2.93789923861E-05 -4.09518257697E-01 +8.63010778940E-01
1.33500000000E+09 -2.28802364137E-01 +8.99122169579E-01 -3.57943345399E-04 +4.27753760407E-05 -3.78760140538E-04 +9.09673494984E-05 -3.99807140288E-01 +8.66393493332E-01
1.34000000000E+09 -2.17997643086E-01 +8.99643729691E-01 -4.22928886710E-04 +9.42576068078E-05 -3.68782016826E-04 +1.03278866670E-04 -3.89438226062E-01 +8.69708709046E-01
1.34500000000E+09 -2.04835943991E-01 +8.99947807502E-01 -3.88351880663E-04 +2.01654900019E-04 -3.44034676410E-04 +1.90627584042E-04 -3.78474369124E-01 +8.73057975505E-01
1.35000000000E+09 -1.89956245013E-01 +9.00040486619E-01 -3.20980923123E-04 +1.83955457511E-04 -3.10087512339E-04 +2.45660312608E-04 -3.67276082965E-01 +8.76154169457E-01
1.35500000000E+09 -1.74006812522E-01 +9.00062865061E-01 -3.43289123764E-04 +2.24379833465E-04 -3.10451161960E-04 +1.51694076298E-04 -3.55549119377E-01 +8.78909622422E-01
1.36000000000E+09 -1.57940487807E-01 +9.00198426856E-01 -3.13220520886E-04 +2.06188394714E-04 -3.18656616693E-04 +2.05126739574E-04 -3.43697368119E-01 +8.81643206675E-01
1.36500000000E+09 -1.42279772848E-01 +9.00287236228E-01 -3.64321974242E-04 +2.80016099544E-04 -3.51920102864E-04 +2.72487048753E-04 -3.31473027768E-01 +8.84266114559E-01
1.37000000000E+09 -1.27714178500E-01 +9.00316840356E-01 -3.96155740608E-04 +3.34154858807E-04 -3.64906319289E-04 +2.54890060446E-04 -3.18508877400E-01 +8.86706027093E-01
1.37500000000E+09 -1.14596910703E-01 +9.00322037602E-01 -4.17785767075E-04 +3.62310865319E-04 -4.66319197620E-04 +2.99165452773E-04 -3.04844926638E-01 +8.88867334047E-01
1.38000000000E+09 -1.02331773151E-01 +9.00194913908E-01 -3.47790644383E-04 +5.19630764821E-04 -4.55473658260E-04 +4.89257051404E-04 -2.90138034816E-01 +8.90944398689E-01
1.38500000000E+09 -8.99760969140E-02 +8.99697207054E-01 -2.30239875838E-04 +5.64723014071E-04 -3.42332421391E-04 +5.85978699359E-04 -2.74662304921E-01 +8.92810532455E-01
1.39000000000E+09 -7.72899161342E-02 +8.98522921632E-01 -1.69301978641E-04 +5.06929503635E-04 -2.32158436773E-04 +5.72483446411E-04 -2.58764308593E-01 +8.94434480830E-01
1.39500000000E+09 -6.29398709971E-02 +8.96588739896E-01 -2.17240882185E-04 +5.59556146876E-04 -1.97573552840E-04 +6.08256827521E-04 -2.41678914385E-01 +8.95113912302E-01
1.40000000000E+09 -4.63292068449E-02 +8.93534101005E-01 -2.08865994651E-04 +6.22839976978E-04 -1.43367551389E-04 +6.33301058358E-04 -2.24118042423E-01 +8.95516381584E-01
1.40500000000E+09 -2.78768700971E-02 +8.89433596863E-01 -1.22995403503E-04 +6.89225922509E-04 -7.82139622189E-05 +6.83666869553E-04 -2.05471666820E-01 +8.95371424690E-01
1.41000000000E+09 -7.56974237254E-03 +8.84140554488E-01 -1.20424541242E-04 +7.17546427034E-04 -9.40234033140E-05 +7.08444144186E-04 -1.85138058566E-01 +8.94709201355E-01
1.41500000000E+09 +1.36671468229E-02 +8.77982639418E-01 -1.43679963304E-05 +7.33189297727E-04 -1.36343763657E-05 +7.52087311340E-04 -1.63415959954E-01 +8.93327569479E-01
1.42000000000E+09 +3.56346397948E-02 +8.71304405452E-01 -1.23210649293E-05 +8.06098929355E-04 -7.34655881171E-06 +8.58101463904E-04 -1.40362255864E-01 +8.90620330385E-01
1.42500000000E+09 +5.72887160883E-02 +8.64042133026E-01 +5.92891786383E-06 +8.94547746904E-04 +1.00673465792E-04 +1.00627536755E-03 -1.16459648911E-01 +8.87148919071E-01
1.43000000000E+09 +7.89547866313E-02 +8.56195005757E-01 +1.46615203206E-04 +1.01550456176E-03 +2.82216613335E-04 +1.08308242879E-03 -9.14148422445E-02 +8.82019390068E-01
1.43500000000E+09 +1.00684261342E-01 +8.47108200887E-01 +3.71234255558E-04 +1.07602127102E-03 +5.32097492942E-04 +1.06350536466E-03 -6.49367272120E-02 +8.75390192258E-01
1.44000000000E+09 +1.22987246703E-01 +8.36845689023E-01 +5.11503506562E-04 +9.87848526304E-04 +6.01328426073E-04 +9.79452165640E-04 -3.66710928022E-02 +8.66591152596E-01
1.44500000000E+09 +1.46820450739E-01 +8.23973314075E-01 +5.16157825927E-04 +9.84758234368E-04 +5.94321282636E-04 +9.69664424825E-04 -6.41732764755E-03 +8.55160411369E-01
1.45000000000E+09 +1.72560736870E-01 +8.07564023068E-01 +5.00587539033E-04 +1.16045718596E-03 +5.56871340312E-04 +1.18430951025E-03 +2.58397009841E-02 +8.40179915591E-01
1.45500000000E+09 +2.00081793315E-01 +7.87392044646E-01 +6.67831713943E-04 +1.49485799262E-03 +7.81842332117E-04 +1.42643233410E-03 +5.93340647306E-02 +8.22199096684E-01
1.46000000000E+09 +2.30114767316E-01 +7.62462290645E-01 +1.13613224468E-03 +1.76730448382E-03 +1.25687768885E-03 +1.60353905780E-03 +9.40973496756E-02 +8.00290583248E-01
1.46500000000E+09 +2.61633987546E-01 +7.32344211142E-01 +1.66754024540E-03 +1.82897694291E-03 +1.60576291625E-03 +1.56024465922E-03 +1.30738855709E-01 +7.73008649550E-01
1.47000000000E+09 +2.93938604355E-01 +6.96651592928E-01 +2.24291322032E-03 +1.73859992321E-03 +2.08276898288E-03 +1.59368689616E-03 +1.67776554146E-01 +7.38396440822E-01
1.47500000000E+09 +3.25732698557E-01 +6.54807148727E-01 +2.95860479014E-03 +1.61903193538E-03 +2.77243641014E-03 +1.64269379049E-03 +2.03952704593E-01 +6.96791206152E-01
1.48000000000E+09 +3.55133556500E-01 +6.06222473149E-01 +3.71241827900E-03 +1.16053303710E-03 +3.71291789340E-03 +1.28728093397E-03 +2.40083798146E-01 +6.47656406943E-01
1.48500000000E+09 +3.80746930504E-01 +5.51374896444E-01 +4.39551345847E-03 +6.24985138985E-04 +4.48900804108E-03 +5.30254204262E-04 +2.74496050175E-01 +5.88584457601E-01
1.49000000000E+09 +4.00872785760E-01 +4.88699079801E-01 +5.27180946601E-03 -3.31007784728E-04 +5.26284424392E-03 -6.02214526240E-04 +3.02582018642E-01 +5.17996216985E-01
1.49500000000E+09 +4.13576348267E-01 +4.17791954336E-01 +5.68439268553E-03 -1.77787892621E-03 +5.39111728063E-03 -1.97712546151E-03 +3.19672203767E-01 +4.37336646261E-01
1.50000000000E+09 +4.15647468358E-01 +3.37928511350E-01 +6.26966536154E-03 -2.91207496275E-03 +5.92178196229E-03 -2.77557300253E-03 +3.23828099629E-01 +3.48834003705E-01
1.50500000000E+09 +4.04310881766E-01 +2.50943111412E-01 +6.59808201098E-03 -6.01766179535E-03 +6.52348030010E-03 -5.54867428554E-03 +3.11651946617E-01 +2.52341866416E-01
1.51000000000E+09 +3.76167330099E-01 +1.57573612002E-01 +4.33480183206E-03 -9.16423917689E-03 +4.64792147607E-03 -8.91019016348E-03 +2.78264302610E-01 +1.52189200941E-01
1.51500000000E+09 +3.26986377657E-01 +6.40034586799E-02 +1.37080032652E-03 -1.03903413634E-02 +1.63831116400E-03 -1.04853038967E-02 +2.22788357066E-01 +5.69090609947E-02
1.52000000000E+09 +2.56048356071E-01 -2.12372085810E-02 -2.22031713426E-03 -1.08163416183E-02 -2.13344624001E-03 -1.09667261263E-02 +1.46794384147E-01 -2.81033238233E-02
1.52500000000E+09 +1.67345465396E-01 -9.20500147370E-02 -5.13422598122E-03 -9.10647432369E-03 -5.13960204692E-03 -9.20861084250E-03 +5.22552947254E-02 -9.55654966615E-02
1.53000000000E+09 +6.40908752745E-02 -1.42305678128E-01 -6.88459857145E-03 -8.28922839392E-03 -6.94812801935E-03 -8.32137369639E-03 -5.43397231507E-02 -1.39748916985E-01
1.53500000000E+09 -4.66373024470E-02 -1.68132309207E-01 -9.41419094069E-03 -6.33713053510E-03 -9.44214688729E-03 -6.30631472377E-03 -1.64834417154E-01 -1.59412017461E-01
1.54000000000E+09 -1.58834973248E-01 -1.68987075891E-01 -1.16878361129E-02 -3.50909479948E-03 -1.15275989259E-02 -3.50100692531E-03 -2.73067404428E-01 -1.55476338477E-01
1.54500000000E+09 -2.66005357646E-01 -1.45587486454E-01 -1.24619922148E-02 +1.19340314952E-03 -1.23411904851E-02 +8.56250254480E-04 -3.69992345106E-01 -1.31759738526E-01
1.55000000000E+09 -3.60870229992E-01 -1.01716405919E-01 -1.01759895157E-02 +5.05923589542E-03 -1.03700819476E-02 +4.65091978429E-03 -4.54043767566E-01 -9.50859015735E-02
1.55500000000E+09 -4.39525161219E-01 -4.49438737477E-02 -7.26979718970E-03 +7.10806213338E-03 -7.70285525901E-03 +6.92820427084E-03 -5.24390077068E-01 -4.92010328958E-02
1.56000000000E+09 -5.01435583084E-01 +1.68593534137E-02 -4.31021624815E-03 +7.79987894239E-03 -4.76891205059E-03 +7.96795197509E-03 -5.81465566900E-01 +3.13953729873E-03
1.56500000000E+09 -5.50375377177E-01 +7.93556230682E-02 -1.75446683810E-03 +7.21174608659E-03 -1.96650928404E-03 +7.61706325798E-03 -6.26281917110E-01 +5.75550850469E-02
1.57000000000E+09 -5.87313471214E-01 +1.40778091785E-01 -2.63128753428E-04 +6.12451256296E-03 -2.35410118590E-04 +6.51752343670E-03 -6.59962569637E-01 +1.12411943448E-01
