# Hz S RI R 50
! CMT, C1220, 16058040, 17.2.0/1
! Date: 14/08/2018 11:55:48
! Data: Format (Calibration Info)
! Freq                      S11: Re/Im (F2)                       S21: Re/Im (F2)                       S12: Re/Im (F2)                       S22: Re/Im (F2)            
1.00000000000E+09 -6.43855689289E-01 +7.11331295393E-01 -6.96927390012E-05 -5.12175258186E-05 +1.91147080371E-05 +3.83884427522E-06 -7.49819467524E-01 +6.27231807616E-01
1.00500000000E+09 -6.36802521741E-01 +7.16388138189E-01 +1.97135121048E-05 -1.58305397376E-05 -5.91790934206E-06 +2.22778999038E-05 -7.46359291332E-01 +6.31178978934E-01
1.01000000000E+09 -6.30853179010E-01 +7.20760449549E-01 -1.89227703746E-05 +5.11275257363E-05 -3.50451881942E-05 +1.30296534308E-05 -7.42777408241E-01 +6.34813466145E-01
1.01500000000E+09 -6.26405976391E-01 +7.24549846073E-01 -1.20777316160E-05 +1.65215705098E-05 +2.59363387868E-05 -4.37877080128E-06 -7.39361771834E-01 +6.38531039920E-01
1.02000000000E+09 -6.23296959807E-01 +7.27639977110E-01 -2.80159623116E-05 +1.06117351905E-05 -3.36254503760E-05 +1.83342157282E-05 -7.35907118438E-01 +6.42287007579E-01
1.02500000000E+09 -6.21329049575E-01 +7.30247699677E-01 +1.34766470071E-06 -5.30216666173E-05 +1.61661996244E-06 +4.75485778158E-06 -7.32859562744E-01 +6.45974021964E-01
1.03000000000E+09 -6.19730762645E-01 +7.32588451182E-01 -4.12472482972E-05 -2.32653503819E-05 -7.16105361613E-05 -6.39786573062E-06 -7.29426150167E-01 +6.49665020867E-01
1.03500000000E+09 -6.17319159262E-01 +7.34938900257E-01 -2.50287375625E-05 +5.92362769449E-06 -2.09172852188E-05 +4.25850549983E-05 -7.25470527255E-01 +6.53769664721E-01
1.04000000000E+09 -6.13921103267E-01 +7.37858276146E-01 -4.59933300286E-05 -1.99619023253E-05 -3.65330708338E-05 +3.72825255030E-05 -7.21888588410E-01 +6.57308132657E-01
1.04500000000E+09 -6.08873084101E-01 +7.41282256588E-01 -4.12873247192E-05 +3.21508247901E-05 -4.85230073003E-05 +5.00854253279E-05 -7.18269659695E-01 +6.60838743446E-01
1.05000000000E+09 -6.02060087245E-01 +7.45440251500E-01 -1.03562328578E-05 +4.11667095881E-05 -8.32037437842E-05 +1.99338953804E-05 -7.14784443027E-01 +6.64237154348E-01
1.05500000000E+09 -5.94078723951E-01 +7.49893868125E-01 -6.47622656616E-05 +3.14382386993E-05 +9.54744223633E-06 -1.71449353278E-05 -7.11571926993E-01 +6.67917746510E-01
1.06000000000E+09 -5.85676377659E-01 +7.54878676672E-01 -8.62901563034E-06 +2.82660237729E-05 +2.44090449927E-05 +8.27013529993E-05 -7.08201732909E-01 +6.71568014419E-01
1.06500000000E+09 -5.77448609179E-01 +7.59677484569E-01 -4.04130275875E-05 +7.72408572253E-05 -3.58981872652E-05 +7.64233291679E-05 -7.04463898399E-01 +6.75316757130E-01
1.07000000000E+09 -5.70610874519E-01 +7.63773392406E-01 +2.45463040732E-05 +7.85311811627E-05 -1.98553208404E-05 +5.92041160189E-05 -7.00461725324E-01 +6.79008239341E-01
1.07500000000E+09 -5.65180110109E-01 +7.67580805575E-01 -2.59859280547E-06 +3.93177641129E-05 +2.43670458923E-05 +4.37477140977E-05 -6.96142709250E-01 +6.82690644952E-01
1.08000000000E+09 -5.61565498290E-01 +7.70702522683E-01 -1.57312130018E-05 +4.73573433900E-05 -1.43308418652E-05 +1.95460184949E-05 -6.92063678593E-01 +6.86417770407E-01
1.08500000000E+09 -5.59113051264E-01 +7.73263294968E-01 +1.69484043915E-05 +6.64902250272E-05 +1.11636522199E-05 +4.09034179717E-05 -6.88115957963E-01 +6.90291884003E-01
1.09000000000E+09 -5.57142482712E-01 +7.75300606134E-01 +2.34078497421E-05 +1.11767163485E-04 +2.58207370229E-05 +9.31147688795E-05 -6.84199353209E-01 +6.93941581918E-01
1.09500000000E+09 -5.55329183330E-01 +7.77191764328E-01 -3.35485981437E-05 +4.45171475876E-05 +6.84930498791E-05 +8.72815485423E-05 -6.80470856675E-01 +6.97933718822E-01
1.10000000000E+09 -5.52045168024E-01 +7.79467098560E-01 +4.77233879809E-05 +3.64788808045E-05 -1.10254742090E-05 +3.81986418615E-05 -6.76388155007E-01 +7.01685436491E-01
1.10500000000E+09 -5.47605957493E-01 +7.81998640791E-01 +2.25247530011E-05 +5.26382569784E-05 +2.48970134747E-05 +5.75235661620E-05 -6.71998178809E-01 +7.05321768739E-01
1.11000000000E+09 -5.41527289612E-01 +7.85257122490E-01 +4.37108068224E-05 +3.99062365018E-05 +5.39013160230E-05 +4.78360209637E-05 -6.67786613192E-01 +7.08630447431E-01
1.11500000000E+09 -5.34033714255E-01 +7.89278586465E-01 +6.27516626393E-06 +3.26321004839E-05 +3.48621952354E-05 +6.10315254752E-05 -6.63685240894E-01 +7.12077439465E-01
1.12000000000E+09 -5.26133357407E-01 +7.93179725826E-01 +5.21008929682E-05 +5.65754402429E-05 +1.35632224534E-04 +4.70285479094E-05 -6.59588639235E-01 +7.15742243752E-01
1.12500000000E+09 -5.18107483982E-01 +7.97089853805E-01 -6.40015409559E-07 +5.23506570916E-05 +3.41331548035E-05 +7.04198244910E-05 -6.55210774484E-01 +7.19620249100E-01
1.13000000000E+09 -5.11085132996E-01 +8.00788369202E-01 +2.30521798822E-05 +7.15153770679E-05 +6.86315635571E-05 +4.49234714326E-05 -6.51031154877E-01 +7.23423528561E-01
1.13500000000E+09 -5.05105853429E-01 +8.03800082470E-01 +8.52010302265E-05 +9.49102355091E-05 +7.02412681851E-05 +4.39797421015E-05 -6.46428456297E-01 +7.27242186834E-01
1.14000000000E+09 -5.00447535660E-01 +8.06566853777E-01 +7.03586123707E-05 +2.48040334267E-05 +1.05875020916E-04 +4.59384977366E-05 -6.41713184823E-01 +7.30506672951E-01
1.14500000000E+09 -4.96655013941E-01 +8.08534052388E-01 +8.99801778760E-05 +2.81912366617E-05 +8.69615271502E-05 +8.25613590398E-05 -6.37096716450E-01 +7.33827818147E-01
1.15000000000E+09 -4.93388999214E-01 +8.10414971621E-01 +7.32962609961E-05 +3.06376528163E-05 +7.60505324638E-05 +3.89898551896E-05 -6.32445251914E-01 +7.37827002948E-01
1.15500000000E+09 -4.89675908994E-01 +8.12401509968E-01 +1.01107582006E-04 +8.70475875572E-05 +8.44488517835E-05 +2.94099007698E-05 -6.27380413843E-01 +7.41448332993E-01
1.16000000000E+09 -4.85076703622E-01 +8.14565612096E-01 +9.44777742565E-05 +3.36610646262E-05 +8.96286146663E-05 +2.18823939569E-05 -6.22660528532E-01 +7.45311331183E-01
1.16500000000E+09 -4.79111424057E-01 +8.17353769334E-01 +1.16681849484E-04 +6.01295217293E-05 +1.00700932350E-04 +3.26431136354E-05 -6.17600291645E-01 +7.48974133655E-01
1.17000000000E+09 -4.71748300605E-01 +8.20388725020E-01 +9.47688921970E-05 +3.48578913925E-05 +1.25927756513E-04 +5.05487755908E-05 -6.12152634958E-01 +7.52279616010E-01
1.17500000000E+09 -4.63507811510E-01 +8.23762558917E-01 +6.04620067166E-05 +1.45485265644E-05 +1.31980846696E-04 +3.64796405393E-06 -6.06446821304E-01 +7.55457535086E-01
1.18000000000E+09 -4.55004194349E-01 +8.27434088081E-01 +1.19321951840E-04 -2.68531199655E-05 +1.12310818602E-04 +2.10428474233E-05 -6.00803825403E-01 +7.58588986284E-01
1.18500000000E+09 -4.46839645682E-01 +8.30664276679E-01 +1.46380131968E-04 +3.52698726602E-05 +1.61961931985E-04 +1.89887594893E-05 -5.94771980101E-01 +7.61485403448E-01
1.19000000000E+09 -4.39539970142E-01 +8.33304385446E-01 +1.52900295826E-04 +1.15618057271E-05 +1.65478243780E-04 +1.31231410168E-05 -5.88620996938E-01 +7.64260596527E-01
1.19500000000E+09 -4.33631162133E-01 +8.35430167371E-01 +2.18467265719E-04 +2.30884012527E-05 +1.97110071578E-04 -1.73705817064E-05 -5.82638279599E-01 +7.65473553174E-01
1.20000000000E+09 -4.28931580330E-01 +8.36399475779E-01 +2.17187519840E-04 -8.37877468172E-05 +2.22900894649E-04 -6.97993463723E-05 -5.78130139661E-01 +7.65496733839E-01
1.20500000000E+09 -4.25011944515E-01 +8.37792927481E-01 +1.92721778968E-04 -1.11102543413E-04 +1.59001333935E-04 -1.64291199057E-04 -5.75816425033E-01 +7.66195148366E-01
1.21000000000E+09 -4.21295350000E-01 +8.39191680843E-01 +1.30372629169E-04 -1.62559114701E-04 +1.16126281961E-04 -1.70666514747E-04 -5.74023107074E-01 +7.69414785998E-01
1.21500000000E+09 -4.16150934099E-01 +8.40933606573E-01 +1.12632345740E-04 -1.52399541614E-04 +1.28830070355E-04 -1.51965172815E-04 -5.71213838367E-01 +7.73770978980E-01
1.22000000000E+09 -4.09599123980E-01 +8.43252958133E-01 +8.30435145782E-05 -1.64439151196E-04 +1.28527663505E-04 -1.68888714745E-04 -5.67072172072E-01 +7.79204397326E-01
1.22500000000E+09 -4.01438534138E-01 +8.45909058178E-01 +1.41901005463E-04 -2.07016168682E-04 +1.12223349422E-04 -1.65386993066E-04 -5.61822411240E-01 +7.84251890711E-01
1.23000000000E+09 -3.91783685396E-01 +8.49044385618E-01 +1.25153543149E-04 -2.06378348384E-04 +1.36990528964E-04 -1.66368807157E-04 -5.56154855057E-01 +7.88926836745E-01
1.23500000000E+09 -3.81785580251E-01 +8.52674056666E-01 +8.65270711548E-05 -2.54601922751E-04 +7.54636928948E-05 -2.19508549356E-04 -5.50300142584E-01 +7.93315230870E-01
1.24000000000E+09 -3.71456377457E-01 +8.56269916212E-01 +9.22036327664E-05 -2.30735594083E-04 +7.05963283946E-05 -2.19971884143E-04 -5.44327583931E-01 +7.97209299728E-01
1.24500000000E+09 -3.62072478615E-01 +8.60210908289E-01 +5.55575034388E-05 -2.45296848873E-04 +6.38643153895E-05 -2.15966245298E-04 -5.37949958451E-01 +8.00915551411E-01
1.25000000000E+09 -3.53900631167E-01 +8.63480425462E-01 +2.89721456515E-05 -2.70688176302E-04 +6.10397713274E-05 -2.44167458052E-04 -5.31340750479E-01 +8.05143512525E-01
1.25500000000E+09 -3.47138334479E-01 +8.65951180246E-01 +3.96043606058E-06 -2.67252015308E-04 +1.90458529044E-05 -2.95163057795E-04 -5.24564756474E-01 +8.09136805176E-01
1.26000000000E+09 -3.41668272403E-01 +8.67964051588E-01 -1.10534359321E-05 -2.55275559340E-04 +1.04605931399E-05 -3.00112707909E-04 -5.17808265684E-01 +8.13433645862E-01
1.26500000000E+09 -3.36658068029E-01 +8.69335125541E-01 -3.44307076684E-05 -3.04399582571E-04 -3.28554301820E-05 -3.32071769882E-04 -5.10705599145E-01 +8.17210360928E-01
1.27000000000E+09 -3.31300589452E-01 +8.70650500965E-01 -6.92722789113E-05 -2.51464311358E-04 -6.29055308157E-05 -3.24622116991E-04 -5.04164875903E-01 +8.21129860030E-01
1.27500000000E+09 -3.24878208546E-01 +8.71896322852E-01 -1.09653517328E-04 -3.45149864528E-04 -1.04486544586E-04 -2.91746647056E-04 -4.96896369963E-01 +8.24611356728E-01
1.28000000000E+09 -3.16594516875E-01 +8.73752502146E-01 -1.69302991570E-04 -3.24348030728E-04 -1.52376356621E-04 -3.26252964211E-04 -4.89853399316E-01 +8.28108013144E-01
1.28500000000E+09 -3.06299488959E-01 +8.75679103816E-01 -1.83538293210E-04 -2.88210840896E-04 -2.23678842695E-04 -3.16577173318E-04 -4.82528252307E-01 +8.31744196843E-01
1.29000000000E+09 -2.94556937595E-01 +8.78171369889E-01 -1.93862372974E-04 -2.84976067304E-04 -2.24556858323E-04 -3.28272409267E-04 -4.75004922641E-01 +8.35419762449E-01
1.29500000000E+09 -2.82112724406E-01 +8.81003862083E-01 -2.21802067488E-04 -2.58663539174E-04 -2.50703682853E-04 -2.62503498066E-04 -4.67153296108E-01 +8.38889625131E-01
1.30000000000E+09 -2.69785031979E-01 +8.84233523282E-01 -2.53901297162E-04 -2.91173782488E-04 -2.95932636454E-04 -2.74626679413E-04 -4.59320468962E-01 +8.42427114921E-01
1.30500000000E+09 -2.58661061502E-01 +8.87164341656E-01 -3.02037035261E-04 -2.80759637188E-04 -3.12249255103E-04 -2.35950278130E-04 -4.51064358065E-01 +8.45864010239E-01
1.31000000000E+09 -2.48930504127E-01 +8.89508837425E-01 -3.76263643924E-04 -2.54774414207E-04 -3.57204018495E-04 -2.58843744396E-04 -4.42814192805E-01 +8.49280684570E-01
1.31500000000E+09 -2.41106536332E-01 +8.91585756442E-01 -3.90551947581E-04 -2.45067641305E-04 -3.66821675697E-04 -2.36258536682E-04 -4.33980876629E-01 +8.52666561336E-01
1.32000000000E+09 -2.34695483923E-01 +8.92906883186E-01 -4.14932643754E-04 -1.45934616722E-04 -3.99961501995E-04 -1.92777203145E-04 -4.24855966161E-01 +8.56076949194E-01
1.32500000000E+09 -2.28890644883E-01 +8.93434340934E-01 -4.23055787529E-04 -1.44156497711E-04 -4.44329996861E-04 -1.35240654612E-04 -4.15291589406E-01 +8.59410806388E-01
1.33000000000E+09 -2.22327691163E-01 +8.93710605637E-01 -4.58686486743E-04 -1.44492256207E-04 -5.08564389312E-04 -1.33555644110E-04 -4.05540597936E-01 +8.62886511068E-01
1.33500000000E+09 -2.14246245863E-01 +8.93553035032E-01 -5.53606206756E-04 -1.38834292977E-04 -5.09461419221E-04 -7.57117471701E-05 -3.95560514527E-01 +8.66233734269E-01
1.34000000000E+09 -2.03657428358E-01 +8.93688230374E-01 -5.21960422188E-04 -1.23016619505E-04 -5.22491719771E-04 -6.75668055827E-05 -3.85288302036E-01 +8.69364503937E-01
1.34500000000E+09 -1.90362280921E-01 +8.93589372254E-01 -6.50871992086E-04 -1.75676425355E-05 -5.78201191002E-04 -5.76369502010E-05 -3.74250923552E-01 +8.72567461043E-01
1.35000000000E+09 -1.74844552600E-01 +8.93373373639E-01 -6.86493120564E-04 +5.22627662949E-05 -6.31886845167E-04 +6.44099045889E-05 -3.63085499739E-01 +8.75553664730E-01
1.35500000000E+09 -1.58187820562E-01 +8.93481826894E-01 -6.59339540682E-04 +1.34169515644E-04 -6.63840651110E-04 +1.24634212589E-04 -3.51441947375E-01 +8.78326634726E-01
1.36000000000E+09 -1.41490857114E-01 +8.93765364013E-01 -6.87299049909E-04 +2.13691479521E-04 -6.59537657287E-04 +1.96599789043E-04 -3.39719844407E-01 +8.80949159497E-01
1.36500000000E+09 -1.25542658823E-01 +8.94298407519E-01 -6.98846017634E-04 +2.73669659398E-04 -6.63971806409E-04 +2.41117240945E-04 -3.27552400160E-01 +8.83326136231E-01
1.37000000000E+09 -1.11066521396E-01 +8.94362112329E-01 -6.96590835522E-04 +3.07096257908E-04 -6.84419689303E-04 +2.49597867845E-04 -3.14658058983E-01 +8.85894897084E-01
1.37500000000E+09 -9.86061166169E-02 +8.94537522030E-01 -7.32296710522E-04 +3.63156833174E-04 -7.57518571104E-04 +2.75713626008E-04 -3.00826102843E-01 +8.88074268194E-01
1.38000000000E+09 -8.74092932186E-02 +8.94070957301E-01 -7.81187789979E-04 +4.84173272830E-04 -8.91173026477E-04 +4.37408488625E-04 -2.86165484294E-01 +8.89905482310E-01
1.38500000000E+09 -7.63351770967E-02 +8.93061885149E-01 -7.29717218524E-04 +6.57265343420E-04 -8.68139361490E-04 +6.51518720732E-04 -2.70852196848E-01 +8.91744967715E-01
1.39000000000E+09 -6.48639393918E-02 +8.91372554389E-01 -7.38827169249E-04 +7.39930566356E-04 -8.04210142131E-04 +8.75126681344E-04 -2.54936154026E-01 +8.93184570460E-01
1.39500000000E+09 -5.13196193690E-02 +8.88726415368E-01 -6.69977462582E-04 +8.12327932520E-04 -6.98623092744E-04 +9.76766166444E-04 -2.38208264368E-01 +8.93983641650E-01
1.40000000000E+09 -3.50165778614E-02 +8.85082688336E-01 -6.69580754641E-04 +9.32352555519E-04 -6.41025947543E-04 +1.05146077747E-03 -2.20562761511E-01 +8.94458100784E-01
1.40500000000E+09 -1.64999814314E-02 +8.80404486478E-01 -6.28581252918E-04 +1.10477939126E-03 -5.55471309042E-04 +1.09739979466E-03 -2.01850054409E-01 +8.94304420185E-01
1.41000000000E+09 +4.26819595132E-03 +8.75003954661E-01 -5.71251079060E-04 +1.21310082383E-03 -5.65689610603E-04 +1.18164871988E-03 -1.81698275280E-01 +8.93336179075E-01
1.41500000000E+09 +2.65564977067E-02 +8.68775505536E-01 -4.95231657170E-04 +1.31245513360E-03 -5.23518789013E-04 +1.41240011910E-03 -1.60366450318E-01 +8.91811071433E-01
1.42000000000E+09 +4.95833790329E-02 +8.62101612825E-01 -4.51329176019E-04 +1.45079311907E-03 -5.04129369441E-04 +1.61072511097E-03 -1.37427418172E-01 +8.89362975281E-01
1.42500000000E+09 +7.20342670395E-02 +8.54643312279E-01 -3.91184192623E-04 +1.71073039164E-03 -3.72470445993E-04 +1.93604205716E-03 -1.13594169263E-01 +8.85611993342E-01
1.43000000000E+09 +9.36231846723E-02 +8.46239428106E-01 -2.67432437532E-04 +2.04340145597E-03 -7.41193908291E-05 +2.29576935126E-03 -8.87375196394E-02 +8.80693922784E-01
1.43500000000E+09 +1.14538541874E-01 +8.36864384670E-01 +1.13492690140E-04 +2.25660649473E-03 +3.85501818269E-04 +2.36486346484E-03 -6.23922455145E-02 +8.73875977800E-01
1.44000000000E+09 +1.35494004710E-01 +8.26170771575E-01 +4.43901777015E-04 +2.42445888573E-03 +6.02978480474E-04 +2.40100231427E-03 -3.44097935662E-02 +8.65152685872E-01
1.44500000000E+09 +1.57916386976E-01 +8.12999722856E-01 +8.34601757309E-04 +2.49810477291E-03 +9.55648104093E-04 +2.45800051024E-03 -4.21140304428E-03 +8.53794063602E-01
1.45000000000E+09 +1.81977866689E-01 +7.96173636521E-01 +9.56363058830E-04 +2.54483842610E-03 +1.14527886952E-03 +2.57058701764E-03 +2.77483342296E-02 +8.38735741343E-01
1.45500000000E+09 +2.08049430364E-01 +7.75356643017E-01 +1.23122148529E-03 +3.02017174460E-03 +1.46894603087E-03 +2.97292241163E-03 +6.04493697771E-02 +8.20446369543E-01
1.46000000000E+09 +2.36440841049E-01 +7.50015916704E-01 +2.02310820193E-03 +3.56608505224E-03 +2.31726252651E-03 +3.16368239064E-03 +9.49998941715E-02 +7.99281387681E-01
1.46500000000E+09 +2.66694635780E-01 +7.20241355457E-01 +3.06943996362E-03 +3.70920770456E-03 +3.01071773491E-03 +3.21743861971E-03 +1.31266993228E-01 +7.72541918067E-01
1.47000000000E+09 +2.98218085162E-01 +6.84796262901E-01 +4.45024258485E-03 +3.57218824149E-03 +4.18602397294E-03 +3.29500738346E-03 +1.68406866949E-01 +7.38697729933E-01
1.47500000000E+09 +3.29075068155E-01 +6.44013429280E-01 +5.77707579352E-03 +2.70647870860E-03 +5.47429842262E-03 +2.77494761728E-03 +2.05082308200E-01 +6.97432964183E-01
1.48000000000E+09 +3.57863746450E-01 +5.96714812280E-01 +6.60804251096E-03 +1.71148222749E-03 +6.59542407420E-03 +1.95249392360E-03 +2.41091874328E-01 +6.48081424503E-01
1.48500000000E+09 +3.81756598432E-01 +5.42641534422E-01 +7.50996964303E-03 +8.00878178037E-04 +7.78714591987E-03 +6.84459442900E-04 +2.74471913326E-01 +5.90095900379E-01
1.49000000000E+09 +3.99198422685E-01 +4.82157338566E-01 +8.88030555891E-03 -5.69080759328E-04 +8.88881810395E-03 -1.00705372560E-03 +3.03829130575E-01 +5.21249714485E-01
1.49500000000E+09 +4.08733356674E-01 +4.14764607819E-01 +9.69776024074E-03 -2.94882949534E-03 +9.17846791694E-03 -3.28542852776E-03 +3.22461806321E-01 +4.40146987109E-01
1.50000000000E+09 +4.08588260156E-01 +3.39358424286E-01 +1.02440124348E-02 -5.44450499599E-03 +9.62642602276E-03 -5.22797803175E-03 +3.26312400848E-01 +3.51689862545E-01
1.50500000000E+09 +3.96401612247E-01 +2.56787602300E-01 +9.78698820440E-03 -9.47439339810E-03 +9.60511837621E-03 -8.81208055019E-03 +3.15795269991E-01 +2.56432400953E-01
1.51000000000E+09 +3.68618223396E-01 +1.67845497294E-01 +7.63952760137E-03 -1.33688818935E-02 +7.96570661945E-03 -1.29076943527E-02 +2.85411712436E-01 +1.55508559730E-01
1.51500000000E+09 +3.21847025365E-01 +7.83176132262E-02 +3.16899919376E-03 -1.62384278332E-02 +3.51196221855E-03 -1.62668759587E-02 +2.30677337791E-01 +5.69929810629E-02
1.52000000000E+09 +2.55113500613E-01 -5.83275388475E-03 -2.23394755836E-03 -1.73350406690E-02 -2.06477810155E-03 -1.75147693091E-02 +1.54218839819E-01 -3.03768035562E-02
1.52500000000E+09 +1.69404051254E-01 -7.58691414922E-02 -7.35811769267E-03 -1.53425616834E-02 -7.34670627502E-03 -1.54674413160E-02 +5.78726086164E-02 -9.96498691593E-02
1.53000000000E+09 +7.06658618509E-02 -1.25013605541E-01 -1.05637324120E-02 -1.29479286381E-02 -1.06262789819E-02 -1.30272163514E-02 -5.06422833022E-02 -1.45111943602E-01
1.53500000000E+09 -3.47136203861E-02 -1.50832254615E-01 -1.38103101986E-02 -1.01119438606E-02 -1.38087788767E-02 -1.00639452067E-02 -1.64491571203E-01 -1.64139098151E-01
1.54000000000E+09 -1.41730709290E-01 -1.53620249049E-01 -1.64831095793E-02 -6.12900155069E-03 -1.63076749879E-02 -6.11030529098E-03 -2.74355113884E-01 -1.59014686846E-01
1.54500000000E+09 -2.45793331905E-01 -1.33485100056E-01 -1.73248161937E-02 -3.97539782131E-04 -1.70730761887E-02 -7.20174685592E-04 -3.72377191998E-01 -1.32758911365E-01
1.55000000000E+09 -3.40729683016E-01 -9.24076708585E-02 -1.55178636508E-02 +4.21570526164E-03 -1.56285120329E-02 +3.55759801230E-03 -4.56479478156E-01 -9.42880602406E-02
1.55500000000E+09 -4.19705011493E-01 -3.58971832887E-02 -1.32257659145E-02 +7.73718408886E-03 -1.37517957622E-02 +7.29921770960E-03 -5.25919550176E-01 -4.62622476165E-02
1.56000000000E+09 -4.80686103645E-01 +2.52446081597E-02 -9.51939882956E-03 +1.02771259481E-02 -1.03405826681E-02 +1.03357257285E-02 -5.81882782987E-01 +6.77691206732E-03
1.56500000000E+09 -5.28311514449E-01 +8.51895885813E-02 -5.50896933638E-03 +1.08369709861E-02 -6.02144281499E-03 +1.13778571857E-02 -6.25246784194E-01 +6.15487306025E-02
1.57000000000E+09 -5.66345717049E-01 +1.43140390721E-01 -2.80123461396E-03 +9.82856522836E-03 -2.90840866966E-03 +1.05101751245E-02 -6.58330879804E-01 +1.16343780833E-01
