# Hz S RI R 50
! CMT, C1220, 16058040, 17.2.0/1
! Date: 14/08/2018 12:31:30
! Data: Format (Calibration Info)
! Freq                      S11: Re/Im (F2)                       S21: Re/Im (F2)                       S12: Re/Im (F2)                       S22: Re/Im (F2)            
1.00000000000E+09 -6.30989886701E-01 +7.06734489537E-01 -1.22488715059E-05 +7.73443462203E-06 -1.22569827656E-05 -7.03099985925E-06 -7.53390170584E-01 +6.23864557370E-01
1.00500000000E+09 -6.23916363278E-01 +7.11813381179E-01 -2.08919169718E-06 +3.11733027496E-05 +8.44691914146E-07 -2.81272371882E-05 -7.49910293870E-01 +6.27815628458E-01
1.01000000000E+09 -6.17659265840E-01 +7.16205766688E-01 -3.30715513410E-07 -1.98076032078E-05 -4.28252922530E-05 -2.96558274039E-05 -7.46341092609E-01 +6.31539607970E-01
1.01500000000E+09 -6.12644001801E-01 +7.20240211596E-01 +5.13863773945E-05 +1.33879956331E-05 -2.79512549472E-05 +3.99228352989E-05 -7.43164415255E-01 +6.35057829950E-01
1.02000000000E+09 -6.09107816135E-01 +7.23727036107E-01 -4.85016649842E-06 +1.50417508238E-05 -2.26882381342E-05 +8.65317672075E-06 -7.39964783368E-01 +6.38511941505E-01
1.02500000000E+09 -6.06630847504E-01 +7.26704638855E-01 -1.36426014170E-05 -1.46570067506E-05 -9.21920749324E-06 +2.75379560520E-05 -7.36892177100E-01 +6.42215637393E-01
1.03000000000E+09 -6.04556770847E-01 +7.29275977342E-01 -4.62345833842E-06 -2.53240367459E-06 +3.50844934936E-05 -9.12064641157E-07 -7.33462635610E-01 +6.45842572404E-01
1.03500000000E+09 -6.01952865626E-01 +7.31724332195E-01 +9.81290369540E-06 -1.99136974719E-05 -3.05109500757E-05 +5.15011834901E-05 -7.29671437736E-01 +6.50062891029E-01
1.04000000000E+09 -5.98106644976E-01 +7.34616914885E-01 +1.11418649707E-05 +6.80147684921E-05 +1.16139387170E-05 +3.50588398096E-05 -7.25951679553E-01 +6.53683078494E-01
1.04500000000E+09 -5.92959396461E-01 +7.37806761707E-01 -5.49036510439E-06 +2.47191284396E-05 -4.25529923628E-05 +5.09604638779E-05 -7.22399645827E-01 +6.57157905127E-01
1.05000000000E+09 -5.86362687340E-01 +7.41685308998E-01 +3.61901854579E-06 +1.81399043900E-05 +2.47094084911E-05 -1.18149279484E-07 -7.18886132846E-01 +6.60537778797E-01
1.05500000000E+09 -5.78380066743E-01 +7.45999189383E-01 -1.72732204972E-05 +6.55796842066E-05 +1.92377262986E-05 -9.92531046902E-06 -7.15757393924E-01 +6.64180817126E-01
1.06000000000E+09 -5.70100578782E-01 +7.50779203016E-01 -2.56128002800E-05 +1.16344347218E-05 +1.65001739664E-05 +3.83260770936E-05 -7.12389053696E-01 +6.68132192347E-01
1.06500000000E+09 -5.61684673172E-01 +7.55694865888E-01 -2.93970795243E-05 +6.25867355159E-06 -2.35570893907E-05 +2.74563918523E-05 -7.08460857359E-01 +6.71886229132E-01
1.07000000000E+09 -5.54409914872E-01 +7.59923893269E-01 -2.26498545276E-05 +4.03118328341E-05 +3.42962718085E-05 +2.92814146351E-05 -7.04578894598E-01 +6.75482587101E-01
1.07500000000E+09 -5.48583951236E-01 +7.63812056901E-01 +5.57163763894E-06 +1.81606687737E-05 +3.13278825141E-06 +5.77996920467E-05 -7.00160351033E-01 +6.79277209445E-01
1.08000000000E+09 -5.44243629551E-01 +7.67286675555E-01 +5.01639302278E-05 +3.35118416939E-05 +1.09023564064E-05 +5.77538143083E-05 -6.96229942697E-01 +6.83025947562E-01
1.08500000000E+09 -5.41240248878E-01 +7.70003009966E-01 +2.18085080375E-05 +2.91942375192E-05 +5.51168826158E-06 +2.85479418240E-05 -6.92417219023E-01 +6.86655450607E-01
1.09000000000E+09 -5.38711585525E-01 +7.72172694575E-01 -9.18679794019E-06 +2.87054373915E-05 +3.31362086432E-05 +2.91920030181E-05 -6.88626964374E-01 +6.90451643469E-01
1.09500000000E+09 -5.36516064294E-01 +7.74075518296E-01 +4.17766697515E-05 +4.32775355857E-05 +2.13222729684E-05 +3.31789357229E-05 -6.85102230566E-01 +6.94235146970E-01
1.10000000000E+09 -5.33004901424E-01 +7.76329425504E-01 +4.47880428281E-05 -2.46729223750E-05 +2.65193512617E-05 +4.36289094615E-05 -6.81109629982E-01 +6.97965754672E-01
1.10500000000E+09 -5.28600492852E-01 +7.78953435105E-01 +1.37251811581E-05 +3.04572156592E-05 -6.71530189159E-06 -1.90639363471E-06 -6.76779435779E-01 +7.01581331617E-01
1.11000000000E+09 -5.22790333759E-01 +7.82066110878E-01 +2.20843776801E-05 +6.05698339477E-05 +1.52632337264E-06 +2.57345185435E-05 -6.72645201238E-01 +7.05082993075E-01
1.11500000000E+09 -5.15435428384E-01 +7.85928701485E-01 -1.24982220678E-05 +7.45380246185E-06 -6.16764089122E-06 -1.21592965359E-05 -6.68550012463E-01 +7.08362350752E-01
1.12000000000E+09 -5.07983032549E-01 +7.89796811760E-01 +6.03624766745E-05 +4.21002364036E-05 +1.77928579036E-05 +1.51202622878E-06 -6.64683200263E-01 +7.12011173955E-01
1.12500000000E+09 -5.00197887741E-01 +7.93439567957E-01 +6.82035639001E-05 +1.87520178308E-06 +6.93249014970E-05 +2.40327573056E-05 -6.60223811581E-01 +7.16063910925E-01
1.13000000000E+09 -4.93259080723E-01 +7.97163601416E-01 +5.29020759077E-05 +8.28492560225E-06 +1.21308035515E-05 +2.31237224285E-05 -6.56018758592E-01 +7.19819103113E-01
1.13500000000E+09 -4.87281569855E-01 +7.99847293660E-01 +2.68917748048E-05 -1.88263199456E-05 +3.65271253303E-05 -3.26470895174E-05 -6.51469786343E-01 +7.23648251962E-01
1.14000000000E+09 -4.82514023976E-01 +8.02173035507E-01 +2.67870447129E-05 -3.07800950913E-05 +1.07978317319E-05 +5.67152981253E-06 -6.46491475566E-01 +7.27105420835E-01
1.14500000000E+09 -4.78637683713E-01 +8.03975100174E-01 +3.22247330857E-05 -3.93133184229E-05 +4.48805946221E-05 -8.96831848083E-06 -6.41828274208E-01 +7.30586955115E-01
1.15000000000E+09 -4.75207653218E-01 +8.05181748938E-01 +7.95180019480E-05 -1.84743630868E-05 +6.34486844374E-05 -4.64280492774E-06 -6.37346372946E-01 +7.34509818435E-01
1.15500000000E+09 -4.71525189677E-01 +8.06778275923E-01 -8.01304000041E-07 -3.51171060370E-05 +4.22125662134E-05 -6.15874828551E-06 -6.32489943089E-01 +7.38217381922E-01
1.16000000000E+09 -4.66885464695E-01 +8.08554349067E-01 +4.71831462466E-05 -1.04664046463E-05 +5.74997903966E-05 +1.77496148919E-05 -6.27739687805E-01 +7.42056246872E-01
1.16500000000E+09 -4.61095969462E-01 +8.11225971878E-01 +6.92344715706E-05 +2.08986789631E-05 +4.03598697444E-05 -1.87791653006E-05 -6.22877443894E-01 +7.45687754220E-01
1.17000000000E+09 -4.54027554179E-01 +8.14147420459E-01 +2.65968444301E-05 -5.11142062310E-05 +2.41443067694E-05 -7.76811902013E-05 -6.17499309035E-01 +7.49042467293E-01
1.17500000000E+09 -4.45933072734E-01 +8.17295545992E-01 +4.68694523880E-05 -1.04743279564E-05 +3.87750901569E-05 -6.90570298709E-05 -6.11679861662E-01 +7.52199945040E-01
1.18000000000E+09 -4.37790001975E-01 +8.20854756595E-01 -4.60836929488E-06 -4.84803060675E-05 +8.51125288074E-05 -2.34042063262E-05 -6.06250177952E-01 +7.55295054511E-01
1.18500000000E+09 -4.29737995402E-01 +8.24089752205E-01 +7.12273988427E-05 -6.02096759064E-05 +5.83902561486E-05 -7.02738286676E-05 -6.00428359662E-01 +7.58215935346E-01
1.19000000000E+09 -4.22388457386E-01 +8.26857802230E-01 +5.68244884570E-05 -6.01265250681E-05 +1.00768583800E-04 -3.77908079810E-05 -5.94213342735E-01 +7.60872846615E-01
1.19500000000E+09 -4.16383338415E-01 +8.28752624447E-01 +9.50590626671E-05 -1.04665791128E-04 +3.11845724324E-05 -8.34935755454E-05 -5.88389775827E-01 +7.61924000092E-01
1.20000000000E+09 -4.11304862809E-01 +8.29875118647E-01 -2.88005143457E-05 -1.92844313937E-04 +9.27149975041E-06 -1.51466006038E-04 -5.83919884590E-01 +7.62191754187E-01
1.20500000000E+09 -4.06665388339E-01 +8.30905338931E-01 -4.33584816525E-05 -9.92296769456E-05 -6.80620060416E-05 -1.29484690757E-04 -5.81590067198E-01 +7.63147355676E-01
1.21000000000E+09 -4.01892201793E-01 +8.31979142477E-01 -3.82994898950E-05 -7.21554415025E-05 -7.83044991594E-05 -8.10448583991E-05 -5.79728045929E-01 +7.66337732620E-01
1.21500000000E+09 -3.96012616963E-01 +8.33186892261E-01 -6.43685632862E-05 -6.55957070316E-05 -4.11077699592E-05 -2.16467474372E-05 -5.76664873000E-01 +7.70952370783E-01
1.22000000000E+09 -3.88655019324E-01 +8.34931738262E-01 -2.42885667981E-05 -5.41915323507E-05 +6.31029100195E-06 -2.46225571976E-06 -5.72546426132E-01 +7.76338584774E-01
1.22500000000E+09 -3.79778789628E-01 +8.37253682243E-01 -1.87566496300E-05 -7.74737986023E-05 -3.06129610281E-05 -3.86527075256E-05 -5.67458627468E-01 +7.81378121306E-01
1.23000000000E+09 -3.69773435686E-01 +8.40199417808E-01 -1.93937229013E-05 -4.01774989045E-05 -1.04347950279E-05 -7.60155070900E-05 -5.61711961586E-01 +7.86225673357E-01
1.23500000000E+09 -3.59503712900E-01 +8.43695450413E-01 -3.28389509998E-05 -9.84417680225E-05 -2.05752639676E-05 -4.45533793440E-05 -5.55957158074E-01 +7.90332554820E-01
1.24000000000E+09 -3.49337585984E-01 +8.47280070334E-01 -5.14837137475E-05 -5.90188209702E-05 -6.07732610721E-05 -2.24198237891E-05 -5.49839871726E-01 +7.94332994483E-01
1.24500000000E+09 -3.40087618775E-01 +8.51315752436E-01 -5.34971099477E-05 -6.26774939803E-05 -3.27445432109E-05 -3.77130673773E-05 -5.43696972304E-01 +7.98178417233E-01
1.25000000000E+09 -3.31951048758E-01 +8.54795430595E-01 -2.90224436222E-05 -6.11479829906E-05 -6.24730614004E-05 -4.19862880642E-05 -5.37314931552E-01 +8.02278264468E-01
1.25500000000E+09 -3.24874760205E-01 +8.57288283110E-01 -9.25861476870E-05 -3.66845155267E-05 -1.25442330665E-04 -6.06208804074E-05 -5.30530808850E-01 +8.06299119120E-01
1.26000000000E+09 -3.18712324917E-01 +8.58993975389E-01 -4.02802297287E-05 +1.36217713883E-05 -8.07013482225E-05 -3.68354758777E-05 -5.23805996289E-01 +8.10604214170E-01
1.26500000000E+09 -3.13108053583E-01 +8.59939295781E-01 -5.09767423351E-05 +1.15619277740E-05 -8.94343442081E-05 -5.58287221198E-05 -5.16934571429E-01 +8.14353726442E-01
1.27000000000E+09 -3.06959698967E-01 +8.60718617316E-01 -6.73766479367E-05 -1.16242163013E-05 -5.33256753115E-05 +3.44214813349E-05 -5.10137725833E-01 +8.18173653638E-01
1.27500000000E+09 -2.99699390937E-01 +8.61214316430E-01 -8.55245969301E-05 +4.87670349023E-06 -4.49612907307E-05 -4.77720573658E-05 -5.03007026271E-01 +8.21821421881E-01
1.28000000000E+09 -2.90596037845E-01 +8.62036912344E-01 -7.01295917475E-05 -1.51150119940E-05 -6.37821882056E-05 -4.17667295451E-05 -4.95775576718E-01 +8.25330815008E-01
1.28500000000E+09 -2.79675431888E-01 +8.63287099259E-01 -7.67460632431E-05 +3.29709025348E-05 -4.68849488531E-05 +1.76397842383E-05 -4.88342814338E-01 +8.29053794487E-01
1.29000000000E+09 -2.67928113496E-01 +8.65217112570E-01 -7.92561357151E-05 +1.03338734678E-06 -8.29776679742E-05 -4.58472177570E-05 -4.80712129327E-01 +8.32834059873E-01
1.29500000000E+09 -2.55813500242E-01 +8.67724374661E-01 -8.00812361457E-05 -1.18466328312E-06 -1.11930576747E-04 -6.86496256047E-05 -4.72699728078E-01 +8.36479770160E-01
1.30000000000E+09 -2.44016691490E-01 +8.71021960321E-01 -9.93428711638E-05 +3.20334676541E-06 -8.14612510808E-05 -2.76042259096E-05 -4.64925869089E-01 +8.40010865952E-01
1.30500000000E+09 -2.33365104934E-01 +8.74221042723E-01 -6.21052783464E-05 +1.29504344521E-05 -5.16545106621E-05 +2.56384986365E-05 -4.56948341184E-01 +8.43411329328E-01
1.31000000000E+09 -2.24061067955E-01 +8.76792927023E-01 -6.96183936651E-05 -1.92944330032E-05 -5.03601519149E-05 +2.29832613324E-05 -4.48552514651E-01 +8.46769840731E-01
1.31500000000E+09 -2.16549901321E-01 +8.78722978570E-01 -1.02743897092E-04 +4.83030543769E-06 -7.83975959337E-05 -1.05704327416E-05 -4.39749892870E-01 +8.50350289751E-01
1.32000000000E+09 -2.10366434809E-01 +8.79577816952E-01 -9.41469184741E-05 -3.15242587793E-05 -8.45313912657E-05 -6.41288849666E-06 -4.30767341273E-01 +8.53658275815E-01
1.32500000000E+09 -2.04590938059E-01 +8.79356217758E-01 -1.34305566187E-04 -2.50961389902E-05 -1.54846068993E-04 -4.71247678066E-05 -4.21251675086E-01 +8.57123864380E-01
1.33000000000E+09 -1.97778785822E-01 +8.78948080198E-01 -1.35053076619E-04 -1.74487599391E-05 -1.67459570322E-04 -5.42669209852E-06 -4.11682373924E-01 +8.60261063948E-01
1.33500000000E+09 -1.89130608724E-01 +8.77955835811E-01 -2.24257685137E-04 -1.19637467878E-05 -2.17516781939E-04 +4.04222891375E-05 -4.01910568066E-01 +8.63542145003E-01
1.34000000000E+09 -1.78020565355E-01 +8.77045245702E-01 -2.14171773302E-04 +1.04570344023E-04 -2.19511634037E-04 +1.62755377475E-04 -3.91791466953E-01 +8.66770539676E-01
1.34500000000E+09 -1.64595778292E-01 +8.76003315215E-01 -2.24012960710E-04 +1.28647314414E-04 -1.44087087646E-04 +1.28243758351E-04 -3.80821963237E-01 +8.70005980682E-01
1.35000000000E+09 -1.49450271717E-01 +8.75695977348E-01 -1.62529086701E-04 +1.60519165131E-04 -1.78702290425E-04 +1.49127211612E-04 -3.69689526794E-01 +8.73004723130E-01
1.35500000000E+09 -1.33034206615E-01 +8.75970889343E-01 -1.98528433702E-04 +2.23289710905E-04 -1.47511065729E-04 +1.53581109781E-04 -3.57863862902E-01 +8.75902755465E-01
1.36000000000E+09 -1.16634600875E-01 +8.76573667198E-01 -1.81805862654E-04 +1.68408041635E-04 -1.81963114147E-04 +2.41838072312E-04 -3.45872265760E-01 +8.78701046187E-01
1.36500000000E+09 -1.01091336800E-01 +8.77125194031E-01 -1.50857563557E-04 +2.73435629068E-04 -1.40484241125E-04 +2.67204692967E-04 -3.33724933974E-01 +8.81162528034E-01
1.37000000000E+09 -8.71072024417E-02 +8.77243023300E-01 -9.62507667903E-05 +3.26879968068E-04 -1.43192862917E-04 +2.62266153211E-04 -3.20805043015E-01 +8.83440835001E-01
1.37500000000E+09 -7.50258871314E-02 +8.76818458186E-01 -6.37536023493E-05 +3.72984748874E-04 -1.11312216578E-04 +3.92286278965E-04 -3.07022905757E-01 +8.85667683903E-01
1.38000000000E+09 -6.42449119352E-02 +8.75690392100E-01 +6.86482969571E-05 +3.94179228129E-04 +1.81847788846E-05 +4.38118494663E-04 -2.92642629544E-01 +8.87718309365E-01
1.38500000000E+09 -5.35639113553E-02 +8.73927133604E-01 +9.22871183473E-05 +3.81707203547E-04 +8.22798534634E-05 +3.96183256901E-04 -2.76980196032E-01 +8.89516024683E-01
1.39000000000E+09 -4.19400636538E-02 +8.71105004655E-01 +1.07627750596E-04 +3.42579489471E-04 +1.65573182891E-04 +3.65661068527E-04 -2.61059034604E-01 +8.91238656141E-01
1.39500000000E+09 -2.84066613617E-02 +8.67493520771E-01 +1.12602826164E-04 +3.24436553420E-04 +1.58765758638E-04 +3.42146879237E-04 -2.44395081668E-01 +8.91745362662E-01
1.40000000000E+09 -1.21470521203E-02 +8.62839754517E-01 +1.55173119070E-04 +3.71723430761E-04 +1.45505657989E-04 +3.57285965952E-04 -2.27134725444E-01 +8.91985734810E-01
1.40500000000E+09 +6.13784574102E-03 +8.57640345168E-01 +1.79038321576E-04 +4.46299010282E-04 +2.23853210589E-04 +4.39511765004E-04 -2.08690921357E-01 +8.91660782485E-01
1.41000000000E+09 +2.63033187434E-02 +8.52077750334E-01 +3.35766175864E-04 +4.94352863776E-04 +3.18597660394E-04 +4.66550375830E-04 -1.88835044782E-01 +8.90987396345E-01
1.41500000000E+09 +4.79084413810E-02 +8.46173401092E-01 +4.65201512832E-04 +4.50678009371E-04 +4.29940206704E-04 +4.51290566643E-04 -1.67273893815E-01 +8.89401539275E-01
1.42000000000E+09 +6.99592750104E-02 +8.40067600919E-01 +5.83083425145E-04 +2.37039329241E-04 +5.87394937398E-04 +3.04069797138E-04 -1.44539638836E-01 +8.86781127364E-01
1.42500000000E+09 +9.17019680227E-02 +8.32795677716E-01 +4.96932247759E-04 +2.35403765335E-04 +5.38133790579E-04 +2.51541722112E-04 -1.20984520927E-01 +8.83006712075E-01
1.43000000000E+09 +1.11984515898E-01 +8.24112910827E-01 +6.59939130414E-04 +3.15589650291E-04 +7.49465621009E-04 +2.61910568037E-04 -9.64443146302E-02 +8.78383253789E-01
1.43500000000E+09 +1.31497517338E-01 +8.13929416430E-01 +8.02746234131E-04 +8.20743209600E-05 +8.27636219480E-04 -3.22274667047E-06 -7.04033108020E-02 +8.71855561463E-01
1.44000000000E+09 +1.51088317497E-01 +8.01810773117E-01 +7.25474188014E-04 +1.00554967681E-05 +7.13296160243E-04 -1.10748735168E-05 -4.24490279235E-02 +8.63510581096E-01
1.44500000000E+09 +1.71779529826E-01 +7.86736603750E-01 +8.13801048989E-04 -2.02719174250E-05 +8.46647731715E-04 -5.35268091985E-05 -1.22115840451E-02 +8.52332153528E-01
1.45000000000E+09 +1.94112282590E-01 +7.68314090463E-01 +8.16562340348E-04 -1.09928971241E-04 +8.49378230047E-04 -2.08555781464E-04 +1.95664956409E-02 +8.37838707431E-01
1.45500000000E+09 +2.18742978385E-01 +7.46586606882E-01 +9.93082360028E-04 -1.89448152799E-04 +9.57725631363E-04 -2.81055492045E-04 +5.28041417524E-02 +8.20327853997E-01
1.46000000000E+09 +2.46164216377E-01 +7.20384437546E-01 +1.18827525734E-03 -4.74318486056E-04 +1.13538266070E-03 -5.38579920229E-04 +8.71491119847E-02 +7.98612827108E-01
1.46500000000E+09 +2.75044603138E-01 +6.90419605271E-01 +1.25850566625E-03 -9.22449576097E-04 +1.07728830491E-03 -9.42391882098E-04 +1.22936262798E-01 +7.72234174887E-01
1.47000000000E+09 +3.05119711751E-01 +6.56577646507E-01 +8.89908875714E-04 -1.23771596800E-03 +8.45788774306E-04 -1.12125731637E-03 +1.59082380525E-01 +7.39453858793E-01
1.47500000000E+09 +3.34706469350E-01 +6.17901599019E-01 +6.05399320062E-04 -1.46649070882E-03 +6.78460846718E-04 -1.40513531874E-03 +1.96806182423E-01 +6.99646601930E-01
1.48000000000E+09 +3.61968332339E-01 +5.73286124448E-01 +3.93894142618E-04 -1.39121393007E-03 +5.21957338743E-04 -1.41686153247E-03 +2.33753717620E-01 +6.50362333691E-01
1.48500000000E+09 +3.84320139752E-01 +5.23127871718E-01 +4.52974563342E-04 -1.70205624384E-03 +4.80954923428E-04 -1.78432943768E-03 +2.67813269291E-01 +5.92233496769E-01
1.49000000000E+09 +4.01438582379E-01 +4.66158762082E-01 +2.52433428807E-05 -2.23897589693E-03 -9.92822805668E-05 -2.25059721367E-03 +2.96597444913E-01 +5.23258938542E-01
1.49500000000E+09 +4.10543546227E-01 +4.01544268871E-01 -5.03277258129E-04 -2.36849575757E-03 -5.81843770839E-04 -2.26131026418E-03 +3.15752814843E-01 +4.44099799356E-01
1.50000000000E+09 +4.10797311369E-01 +3.28163984225E-01 -1.28597834738E-03 -2.98137531931E-03 -1.26321290580E-03 -2.82132467021E-03 +3.22013070265E-01 +3.54884990749E-01
1.50500000000E+09 +3.98661251453E-01 +2.46279196768E-01 -3.10679253355E-03 -2.18980037568E-03 -2.98363960342E-03 -2.20682894152E-03 +3.11238862377E-01 +2.59161602334E-01
1.51000000000E+09 +3.70678123167E-01 +1.59010557584E-01 -3.23135516830E-03 -4.00433900103E-04 -3.18910032398E-03 -4.68337027308E-04 +2.81413464085E-01 +1.58792472371E-01
1.51500000000E+09 +3.25451023363E-01 +7.15373352920E-02 -2.71823885663E-03 +1.06459321043E-04 -2.78385710119E-03 +2.17426013623E-05 +2.28333520939E-01 +6.01927419977E-02
1.52000000000E+09 +2.61939873133E-01 -1.04707547748E-02 -2.88255804471E-03 +7.19882673294E-04 -2.88580418719E-03 +7.23215268465E-04 +1.52299918145E-01 -2.73261804639E-02
1.52500000000E+09 +1.81672231973E-01 -7.98427465237E-02 -2.01977088618E-03 +1.50116908583E-03 -2.04625578062E-03 +1.56089025135E-03 +5.81733425677E-02 -9.67779793131E-02
1.53000000000E+09 +8.55924015605E-02 -1.30508083465E-01 -1.89236241384E-03 +1.16311392053E-03 -1.87116711927E-03 +1.21862241150E-03 -4.89531570907E-02 -1.43894615539E-01
1.53500000000E+09 -1.98744186007E-02 -1.56292588676E-01 -2.27092760992E-03 +2.15556997432E-03 -2.25739816137E-03 +2.13506717110E-03 -1.62192992282E-01 -1.65355836648E-01
1.54000000000E+09 -1.27017475718E-01 -1.55085242228E-01 -1.11054677269E-03 +3.14398741244E-03 -1.10846121946E-03 +3.15346609195E-03 -2.72116330771E-01 -1.62132698368E-01
1.54500000000E+09 -2.28248415092E-01 -1.30716497476E-01 +3.99695583858E-04 +2.98107319422E-03 +3.57088848747E-04 +2.90661858629E-03 -3.71150346738E-01 -1.39283890089E-01
1.55000000000E+09 -3.18704967910E-01 -8.87816304422E-02 +9.25935050043E-04 +2.48490847152E-03 +9.19484273612E-04 +2.50691860104E-03 -4.58204970354E-01 -1.02257926816E-01
1.55500000000E+09 -3.96913987204E-01 -3.57865545366E-02 +1.63057461371E-03 +1.87220148563E-03 +1.54922706472E-03 +1.99525278047E-03 -5.30146394123E-01 -5.33977629273E-02
1.56000000000E+09 -4.61235019648E-01 +2.40039377040E-02 +1.78708269275E-03 +8.97352355836E-04 +1.82173251982E-03 +9.40574347457E-04 -5.86849422725E-01 -8.26908578796E-06
1.56500000000E+09 -5.09934516630E-01 +8.48572251207E-02 +1.43481980901E-03 +3.46617786240E-04 +1.50199422245E-03 +4.07263506954E-04 -6.32062533099E-01 +5.57384043710E-02
1.57000000000E+09 -5.47240394457E-01 +1.42921036979E-01 +1.25783603686E-03 +9.84652408476E-05 +1.30676636747E-03 +1.20199402566E-04 -6.65268871050E-01 +1.11322175567E-01
