# Hz S RI R 50
! CMT, C1220, 16058040, 17.2.0/1
! Date: 14/08/2018 12:56:26
! Data: Format (Calibration Info)
! Freq                      S11: Re/Im (F2)                       S21: Re/Im (F2)                       S12: Re/Im (F2)                       S22: Re/Im (F2)            
1.00000000000E+09 -6.46786180517E-01 +7.13382690569E-01 -1.85340717612E-05 +1.20756804180E-06 -3.27199359763E-06 +2.27222858870E-05 -7.18957511496E-01 +6.45683758992E-01
1.00500000000E+09 -6.40271924519E-01 +7.18038299889E-01 -1.98347786982E-05 -3.42140568689E-07 +7.28483793861E-05 +3.48896275889E-06 -7.15160813405E-01 +6.49520719023E-01
1.01000000000E+09 -6.34389199351E-01 +7.22486673258E-01 -1.86077224743E-05 -4.05247780421E-05 -1.25169187217E-05 +4.51345562825E-05 -7.11520494396E-01 +6.53314288790E-01
1.01500000000E+09 -6.29544776108E-01 +7.26251639808E-01 +1.83177386177E-05 +5.60894340998E-05 +1.51993379547E-05 +3.19345810451E-05 -7.08124238874E-01 +6.56842820440E-01
1.02000000000E+09 -6.25518425649E-01 +7.29826126614E-01 -2.74421860540E-06 +4.69374081403E-05 +1.40242911305E-05 -7.36533107733E-06 -7.04582843635E-01 +6.60125267538E-01
1.02500000000E+09 -6.22160357176E-01 +7.33147261675E-01 -1.79947661116E-05 +1.02597667992E-06 +4.19071169048E-05 +6.55427599719E-06 -7.01599217147E-01 +6.63755557088E-01
1.03000000000E+09 -6.19003299371E-01 +7.36135759296E-01 -2.42723855355E-07 +3.71616100144E-05 -8.95586442100E-06 +1.54105549486E-05 -6.97919878988E-01 +6.67449324487E-01
1.03500000000E+09 -6.15177660646E-01 +7.39146966449E-01 -1.76986214923E-05 +1.25513292234E-05 -2.72857268644E-05 +6.23326828356E-05 -6.93839036542E-01 +6.71275052075E-01
1.04000000000E+09 -6.10610310691E-01 +7.42424126295E-01 -4.42536582761E-06 +3.48808031955E-05 -7.46921063967E-06 +1.11116215710E-05 -6.89817672784E-01 +6.74783475438E-01
1.04500000000E+09 -6.04939038293E-01 +7.46224561602E-01 -7.83718625004E-06 +5.46725911699E-05 +4.81013928746E-06 +4.89012492842E-05 -6.86277557099E-01 +6.78260377960E-01
1.05000000000E+09 -5.98116707651E-01 +7.50231590260E-01 +7.79187218193E-05 -1.11770727158E-05 +3.12787915070E-05 +2.59267216963E-05 -6.82504962602E-01 +6.81621386222E-01
1.05500000000E+09 -5.90400501680E-01 +7.54560101235E-01 +4.17362902863E-05 +2.21962704304E-05 +2.72117395609E-05 +5.22342424334E-05 -6.79111527584E-01 +6.84950429700E-01
1.06000000000E+09 -5.82190859751E-01 +7.59298618694E-01 +1.73859825820E-05 +5.76914054308E-05 -5.12143971705E-06 +1.08696809089E-05 -6.75626131692E-01 +6.88810071420E-01
1.06500000000E+09 -5.74295307261E-01 +7.63882265566E-01 +1.32982842918E-05 +6.58391707542E-06 -7.51260235822E-06 +2.13086129705E-05 -6.71482660494E-01 +6.92324140911E-01
1.07000000000E+09 -5.67076158688E-01 +7.67934158261E-01 -1.18545887821E-05 -2.80682524989E-05 -2.93724730445E-05 +2.96844321199E-05 -6.67251824396E-01 +6.95952023728E-01
1.07500000000E+09 -5.60978164761E-01 +7.71597788908E-01 +3.15444878768E-06 +6.81864171577E-05 +4.52742419919E-05 -2.48687313421E-05 -6.62743039678E-01 +6.99500082361E-01
1.08000000000E+09 -5.55952489653E-01 +7.74965665399E-01 +4.67891484415E-05 +6.99105479417E-06 +3.13940334428E-05 +2.60026927101E-05 -6.58576023866E-01 +7.03107521675E-01
1.08500000000E+09 -5.52100328010E-01 +7.77593033785E-01 -1.02950815532E-05 +1.82369688140E-05 -1.25227118093E-07 +4.44911163057E-05 -6.54754611078E-01 +7.06685451725E-01
1.09000000000E+09 -5.48670306913E-01 +7.79965298490E-01 +3.85627263042E-05 +6.87188485921E-06 +4.71444393748E-05 +4.45101163469E-05 -6.50774386613E-01 +7.10182645795E-01
1.09500000000E+09 -5.45729089957E-01 +7.82250401253E-01 +4.22697426902E-05 -1.01847110388E-06 +3.14653371271E-05 +3.74534811262E-05 -6.46834424635E-01 +7.13859049402E-01
1.10000000000E+09 -5.42051022912E-01 +7.84452605404E-01 +3.06361386416E-05 +9.17167075082E-05 +4.63507044070E-05 +5.60101839368E-05 -6.42672293233E-01 +7.17671970990E-01
1.10500000000E+09 -5.37708632517E-01 +7.87195327926E-01 +4.91053884375E-05 -5.44592712020E-07 +3.06333739436E-05 +8.83796541947E-06 -6.38121803588E-01 +7.20992766892E-01
1.11000000000E+09 -5.32217763328E-01 +7.90101264463E-01 +6.73957511436E-05 +2.37186235839E-05 +7.46622268133E-05 +2.61091703011E-05 -6.33804811159E-01 +7.24083949391E-01
1.11500000000E+09 -5.25864595663E-01 +7.93751620016E-01 +4.45966094939E-05 +3.08127805814E-05 +1.02496683117E-04 +4.16521238986E-05 -6.29753543741E-01 +7.27164530856E-01
1.12000000000E+09 -5.18885092045E-01 +7.97179868128E-01 +6.41652866191E-05 +1.10823503030E-06 +5.28456575274E-05 +2.04932081024E-05 -6.25587642025E-01 +7.30612136102E-01
1.12500000000E+09 -5.11337615384E-01 +8.00730195028E-01 +4.82564079305E-05 +6.43537390726E-06 +4.95304799667E-05 -1.70595576730E-05 -6.21281336199E-01 +7.34444194505E-01
1.13000000000E+09 -5.03899223503E-01 +8.04103272833E-01 +9.06542359405E-05 +2.10155914820E-05 +5.78915936397E-05 -1.73777161962E-05 -6.16659860867E-01 +7.38086404986E-01
1.13500000000E+09 -4.97028266192E-01 +8.06581266736E-01 +9.19194709688E-05 -2.39942306901E-05 +1.10260373274E-04 -2.07037894235E-05 -6.11991475437E-01 +7.41725788183E-01
1.14000000000E+09 -4.90652927854E-01 +8.09007513660E-01 +7.19138871617E-05 -2.63181819069E-05 +1.08672733417E-04 +3.62138442157E-05 -6.06980469147E-01 +7.44879438189E-01
1.14500000000E+09 -4.85108659575E-01 +8.10591088010E-01 +9.75603325954E-05 +4.57547146683E-05 +1.10637383499E-04 +6.15968111374E-06 -6.02064911938E-01 +7.48272239656E-01
1.15000000000E+09 -4.79959033750E-01 +8.12420240115E-01 +7.99470698124E-05 -7.57747034763E-05 +1.18136024098E-04 -1.24843595930E-05 -5.97119567512E-01 +7.51878493196E-01
1.15500000000E+09 -4.74767543849E-01 +8.14130561578E-01 +1.08145859943E-04 -3.36212277503E-05 +1.27001759014E-04 +3.15813018662E-05 -5.92296935216E-01 +7.55570195954E-01
1.16000000000E+09 -4.69410606586E-01 +8.16154470586E-01 +6.83437224204E-05 -5.83392420065E-05 +1.27574218779E-04 -4.88343462456E-05 -5.87362663992E-01 +7.59039549347E-01
1.16500000000E+09 -4.63525574620E-01 +8.18616341239E-01 +1.35048346959E-04 -1.12925304501E-04 +8.50031708853E-05 -4.68386508387E-05 -5.82177783442E-01 +7.62566436425E-01
1.17000000000E+09 -4.56979352804E-01 +8.21506462156E-01 +6.81303369348E-05 -5.33661690654E-05 +1.09744209334E-04 -9.99232794648E-05 -5.76615901998E-01 +7.65571894528E-01
1.17500000000E+09 -4.49722954262E-01 +8.24456586896E-01 +1.68703465735E-04 -1.75772114131E-05 +1.67056518981E-04 -5.53124903254E-05 -5.70929578471E-01 +7.68548702527E-01
1.18000000000E+09 -4.42172682828E-01 +8.27595885076E-01 +1.50987425692E-04 -7.48385550899E-05 +1.52975597827E-04 -1.15603764276E-04 -5.65348319894E-01 +7.71466311203E-01
1.18500000000E+09 -4.34329514830E-01 +8.30595683629E-01 +1.54170887424E-04 -1.79085316156E-04 +1.36420116997E-04 -1.26073732433E-04 -5.59632232069E-01 +7.74122621438E-01
1.19000000000E+09 -4.26614004787E-01 +8.32971337385E-01 +1.20862630646E-04 -1.56047969157E-04 +1.23805799126E-04 -2.19791267131E-04 -5.53491726028E-01 +7.76691369366E-01
1.19500000000E+09 -4.19068977346E-01 +8.34723788345E-01 +1.27752757577E-04 -2.16634289393E-04 +1.45940624033E-04 -2.04015626386E-04 -5.47498162948E-01 +7.77580940299E-01
1.20000000000E+09 -4.12083332466E-01 +8.35662105893E-01 -5.24132904068E-06 -2.91044227643E-04 -2.49564871978E-05 -2.85313421179E-04 -5.42929989517E-01 +7.77670301348E-01
1.20500000000E+09 -4.05272836741E-01 +8.36795621468E-01 -1.16141363775E-04 -2.35380485831E-04 -9.16605180661E-05 -2.40128840292E-04 -5.40338987401E-01 +7.78460442714E-01
1.21000000000E+09 -3.98622774127E-01 +8.38062245339E-01 -7.15651591303E-05 -1.51453864053E-04 -9.51489117788E-05 -1.67276547539E-04 -5.38122331288E-01 +7.81408757975E-01
1.21500000000E+09 -3.91254867940E-01 +8.39489744973E-01 -4.76283515685E-05 -1.71775331686E-04 -4.98511255311E-05 -1.37953496230E-04 -5.35101004893E-01 +7.85896672773E-01
1.22000000000E+09 -3.83251353629E-01 +8.41489769782E-01 -2.30469375373E-05 -1.65884200023E-04 -3.28764156813E-05 -1.72106033427E-04 -5.30622058962E-01 +7.91042338759E-01
1.22500000000E+09 -3.74913996027E-01 +8.43842549075E-01 -4.80948486959E-05 -1.82791899987E-04 -2.79330044005E-05 -1.64655796599E-04 -5.25329428939E-01 +7.95723584413E-01
1.23000000000E+09 -3.66290340497E-01 +8.46524414100E-01 -7.15121954899E-05 -1.96918819062E-04 -1.21176698124E-04 -2.24156886668E-04 -5.19539610625E-01 +8.00104069609E-01
1.23500000000E+09 -3.57808138700E-01 +8.49439324303E-01 -7.87505845676E-05 -1.49901400378E-04 -2.31667223566E-05 -1.38887852598E-04 -5.13577227272E-01 +8.04047541110E-01
1.24000000000E+09 -3.49391058031E-01 +8.52447968592E-01 -8.79458086010E-05 -2.62885384089E-04 -1.36738204036E-04 -2.17702236880E-04 -5.07597247022E-01 +8.07717310715E-01
1.24500000000E+09 -3.41479508185E-01 +8.55670326621E-01 -8.52089415417E-05 -2.17657066853E-04 -1.47146591093E-04 -1.85878292155E-04 -5.01298264338E-01 +8.11175328086E-01
1.25000000000E+09 -3.33877508289E-01 +8.58113595333E-01 -1.71566385357E-04 -2.13431143322E-04 -1.26216090803E-04 -2.13789619240E-04 -4.94826593771E-01 +8.14937340786E-01
1.25500000000E+09 -3.26198258119E-01 +8.60066957321E-01 -1.46401255351E-04 -1.64897408494E-04 -1.39015136867E-04 -1.99607807264E-04 -4.87914767439E-01 +8.18718565541E-01
1.26000000000E+09 -3.18651962187E-01 +8.61219472311E-01 -1.45962017962E-04 -2.39886475028E-04 -1.57248825996E-04 -2.31076099602E-04 -4.81237144044E-01 +8.22651215716E-01
1.26500000000E+09 -3.10766920422E-01 +8.61622689216E-01 -1.96613835899E-04 -2.25026324917E-04 -2.27209652153E-04 -2.56221462285E-04 -4.74115751895E-01 +8.26135919837E-01
1.27000000000E+09 -3.02399134090E-01 +8.61861132556E-01 -2.75780303683E-04 -2.23978398449E-04 -2.94673813942E-04 -2.64718223095E-04 -4.67320793026E-01 +8.29569962312E-01
1.27500000000E+09 -2.93058039849E-01 +8.62310249292E-01 -3.68181545908E-04 -2.25806145778E-04 -3.33646029531E-04 -2.21731090506E-04 -4.60063678947E-01 +8.32968807416E-01
1.28000000000E+09 -2.82943267111E-01 +8.63066916991E-01 -3.55225174728E-04 -1.47242614230E-04 -4.09305379216E-04 -1.95828542366E-04 -4.53076199841E-01 +8.36022074641E-01
1.28500000000E+09 -2.71731581178E-01 +8.64263571747E-01 -4.18111657347E-04 -1.40439045586E-04 -4.31197360500E-04 -1.48287460376E-04 -4.45628193470E-01 +8.39483001120E-01
1.29000000000E+09 -2.60656206173E-01 +8.65649636979E-01 -4.04193702398E-04 -1.10483759603E-04 -4.81466313060E-04 -1.36940305682E-04 -4.38050816664E-01 +8.42786823323E-01
1.29500000000E+09 -2.49933263929E-01 +8.67748830555E-01 -4.78682771001E-04 -8.62111946177E-05 -4.89085018987E-04 -6.62523614061E-05 -4.30096627067E-01 +8.45963197395E-01
1.30000000000E+09 -2.39722790020E-01 +8.70528271782E-01 -5.66360396532E-04 -6.02730995745E-05 -5.55625418203E-04 +7.30347625376E-06 -4.22448060191E-01 +8.49106068462E-01
1.30500000000E+09 -2.30337348445E-01 +8.73176962972E-01 -5.91428912908E-04 +1.42861840804E-05 -5.64538513296E-04 +3.53781276155E-05 -4.14283368404E-01 +8.52157745045E-01
1.31000000000E+09 -2.21362387018E-01 +8.75247928953E-01 -6.95367352308E-04 +1.07246789805E-04 -6.39281192691E-04 +1.25933001860E-04 -4.05959873916E-01 +8.55324642036E-01
1.31500000000E+09 -2.13165059237E-01 +8.76639025163E-01 -6.55084170210E-04 +2.34590447760E-04 -6.22487264325E-04 +2.04765147871E-04 -3.97227194658E-01 +8.58336817088E-01
1.32000000000E+09 -2.05480833344E-01 +8.76747421727E-01 -5.81526634017E-04 +3.05838343257E-04 -6.13202009691E-04 +3.05494832038E-04 -3.88216304834E-01 +8.61431322919E-01
1.32500000000E+09 -1.97685755155E-01 +8.76290025842E-01 -6.04653195223E-04 +3.22773687178E-04 -6.28933818457E-04 +3.70067690883E-04 -3.78772244501E-01 +8.64370219987E-01
1.33000000000E+09 -1.89086945363E-01 +8.75287581250E-01 -6.65622855101E-04 +3.74603841246E-04 -6.71033218606E-04 +5.00085545348E-04 -3.69422278985E-01 +8.67137418493E-01
1.33500000000E+09 -1.79140355027E-01 +8.74048253968E-01 -6.97353446217E-04 +4.71064746657E-04 -6.38402849739E-04 +6.01501871045E-04 -3.59848805826E-01 +8.69921421393E-01
1.34000000000E+09 -1.67703628888E-01 +8.73010789300E-01 -6.60634935189E-04 +6.48893743850E-04 -5.74615913686E-04 +6.70878428719E-04 -3.49748702208E-01 +8.72857880855E-01
1.34500000000E+09 -1.54879477119E-01 +8.72239557493E-01 -6.15794352868E-04 +8.46211744626E-04 -5.54325711956E-04 +7.69292955289E-04 -3.39059346142E-01 +8.75524027356E-01
1.35000000000E+09 -1.40761189186E-01 +8.71919070771E-01 -4.94255071943E-04 +8.88839781678E-04 -4.78382581674E-04 +8.58405519578E-04 -3.28052350908E-01 +8.78143875425E-01
1.35500000000E+09 -1.26036360572E-01 +8.71975635427E-01 -4.49246953339E-04 +9.14267515348E-04 -4.87408451607E-04 +9.39956064883E-04 -3.16718510172E-01 +8.80279647465E-01
1.36000000000E+09 -1.10970740629E-01 +8.72477158742E-01 -4.16470876003E-04 +1.08558099068E-03 -3.46921640858E-04 +1.08534319571E-03 -3.05203087615E-01 +8.82625030774E-01
1.36500000000E+09 -9.57061555121E-02 +8.72492744366E-01 -3.86521533624E-04 +1.20677823681E-03 -3.81676990097E-04 +1.16233424345E-03 -2.93403774634E-01 +8.84613014720E-01
1.37000000000E+09 -8.12562098100E-02 +8.71292210334E-01 -2.37682767288E-04 +1.44546140573E-03 -2.85496662176E-04 +1.31058347028E-03 -2.80942888594E-01 +8.86450848012E-01
1.37500000000E+09 -6.80176939271E-02 +8.69326610836E-01 +3.72020547886E-05 +1.55809792936E-03 -1.52641642653E-04 +1.45313519258E-03 -2.67376110554E-01 +8.88229594563E-01
1.38000000000E+09 -5.54626950850E-02 +8.66471424987E-01 +1.62673247492E-04 +1.52564095723E-03 -7.99684275198E-05 +1.63918721636E-03 -2.53099443809E-01 +8.89847316156E-01
1.38500000000E+09 -4.30903316513E-02 +8.62853856955E-01 +2.72453537841E-04 +1.67223775705E-03 +1.75476741330E-04 +1.94092031234E-03 -2.38133500887E-01 +8.91175070313E-01
1.39000000000E+09 -3.03004829715E-02 +8.58469731561E-01 +4.77779897933E-04 +1.74682038810E-03 +5.41223398276E-04 +2.01948566959E-03 -2.22875918916E-01 +8.92133547857E-01
1.39500000000E+09 -1.64228035987E-02 +8.53947832076E-01 +6.64530701050E-04 +1.92483235214E-03 +9.02193082363E-04 +2.09146833808E-03 -2.06657678004E-01 +8.92410212321E-01
1.40000000000E+09 -1.19956632901E-03 +8.48682455322E-01 +9.97095371690E-04 +2.06626039494E-03 +1.23608062829E-03 +2.09696914887E-03 -1.89993845717E-01 +8.92341664049E-01
1.40500000000E+09 +1.50001043652E-02 +8.43506349943E-01 +1.57899488491E-03 +2.21968439667E-03 +1.62382141988E-03 +2.06942108758E-03 -1.72173875911E-01 +8.91649413479E-01
1.41000000000E+09 +3.23619451874E-02 +8.38423446264E-01 +2.08225072926E-03 +1.98369023860E-03 +2.03655515175E-03 +1.95259901086E-03 -1.52750614883E-01 +8.90467173134E-01
1.41500000000E+09 +5.10653359469E-02 +8.33515083242E-01 +2.33251447143E-03 +1.77200343353E-03 +2.36996117303E-03 +1.90513314570E-03 -1.31935574204E-01 +8.88291446807E-01
1.42000000000E+09 +7.14581703536E-02 +8.27900936963E-01 +2.70488536383E-03 +1.69420100892E-03 +2.89222473221E-03 +1.89772428816E-03 -1.10012807057E-01 +8.85293227373E-01
1.42500000000E+09 +9.24853626549E-02 +8.20303026247E-01 +3.12838134360E-03 +1.49152249917E-03 +3.52925102484E-03 +1.57151129641E-03 -8.72164058467E-02 +8.81009277385E-01
1.43000000000E+09 +1.13786940624E-01 +8.10309610839E-01 +3.67387932880E-03 +1.45299294680E-03 +4.07990372580E-03 +1.18296700422E-03 -6.36517159545E-02 +8.75819373757E-01
1.43500000000E+09 +1.34636405844E-01 +7.97671200860E-01 +4.64898500451E-03 +9.86948133875E-04 +4.87183085182E-03 +6.29385067755E-04 -3.84542022591E-02 +8.68881744442E-01
1.44000000000E+09 +1.55596018207E-01 +7.83195644520E-01 +5.34760601445E-03 -1.26924082080E-04 +5.31548454866E-03 -5.42814140194E-04 -1.17652379907E-02 +8.59700053982E-01
1.44500000000E+09 +1.77878160216E-01 +7.66294725647E-01 +5.38336275312E-03 -1.26172986463E-03 +5.38083355255E-03 -1.53567276102E-03 +1.68617986232E-02 +8.48168874589E-01
1.45000000000E+09 +2.00761940531E-01 +7.46416767349E-01 +5.32778763710E-03 -2.03374538608E-03 +5.32511542502E-03 -2.36655982456E-03 +4.69996568345E-02 +8.33479478644E-01
1.45500000000E+09 +2.24785298722E-01 +7.24186609025E-01 +5.54496790040E-03 -2.66960066109E-03 +5.33091814752E-03 -3.20631730989E-03 +7.82248844102E-02 +8.16193059887E-01
1.46000000000E+09 +2.50266888319E-01 +6.99664017764E-01 +5.92030840273E-03 -3.76119549954E-03 +5.29426131968E-03 -4.11869865045E-03 +1.11304218133E-01 +7.94897172853E-01
1.46500000000E+09 +2.77229064041E-01 +6.72685145013E-01 +6.22233602505E-03 -5.22067858696E-03 +5.43576494811E-03 -5.13718724678E-03 +1.45310692561E-01 +7.68599457992E-01
1.47000000000E+09 +3.05958925876E-01 +6.41848799000E-01 +6.15418358765E-03 -7.43164941436E-03 +5.68950642510E-03 -6.81533594463E-03 +1.80156931927E-01 +7.35465861314E-01
1.47500000000E+09 +3.34876736801E-01 +6.05111175752E-01 +4.79288930223E-03 -1.00346760642E-02 +4.94797615001E-03 -9.43986937492E-03 +2.14539713591E-01 +6.95250981307E-01
1.48000000000E+09 +3.61561134366E-01 +5.61199876030E-01 +2.60738749963E-03 -1.15416105745E-02 +2.97649275488E-03 -1.15756841698E-02 +2.48512664987E-01 +6.47751526565E-01
1.48500000000E+09 +3.84095673512E-01 +5.09408004560E-01 +7.41407353514E-04 -1.29315071679E-02 +5.46720109109E-04 -1.33398108072E-02 +2.80409706185E-01 +5.91138617254E-01
1.49000000000E+09 +4.00290179015E-01 +4.49877016800E-01 -2.19770181404E-03 -1.46668301672E-02 -2.87622254380E-03 -1.45458406712E-02 +3.07310959249E-01 +5.24417080221E-01
1.49500000000E+09 +4.09076751081E-01 +3.82368478704E-01 -6.49303423101E-03 -1.55215635570E-02 -6.76886006459E-03 -1.45827713028E-02 +3.24803092920E-01 +4.47120928432E-01
1.50000000000E+09 +4.08758337120E-01 +3.06504620965E-01 -1.09830783349E-02 -1.47743568289E-02 -1.03356357822E-02 -1.38902270758E-02 +3.29385279877E-01 +3.60324785176E-01
1.50500000000E+09 +3.95338641779E-01 +2.23065766625E-01 -1.59637534809E-02 -1.27199305471E-02 -1.49062112357E-02 -1.26871552838E-02 +3.17349923910E-01 +2.66049349167E-01
1.51000000000E+09 +3.67202226785E-01 +1.35999309666E-01 -1.99817087164E-02 -8.09441040118E-03 -1.94736929322E-02 -8.85347622868E-03 +2.84844296237E-01 +1.67278995709E-01
1.51500000000E+09 +3.20390976763E-01 +4.83095901018E-02 -2.27836122531E-02 -3.44138666203E-03 -2.29355305770E-02 -4.05055465556E-03 +2.28535324555E-01 +7.24831552014E-02
1.52000000000E+09 +2.54019917545E-01 -3.03983826625E-02 -2.49006245214E-02 +3.18614766830E-03 -2.52678294272E-02 +2.92484145679E-03 +1.50994553700E-01 -9.58547803848E-03
1.52500000000E+09 +1.71406227681E-01 -9.54455648068E-02 -2.41125367250E-02 +1.19787973358E-02 -2.43297115478E-02 +1.19808458416E-02 +5.79339795572E-02 -7.46296265310E-02
1.53000000000E+09 +7.55054204125E-02 -1.41987400827E-01 -1.80791731851E-02 +1.90111743129E-02 -1.82504327843E-02 +1.91549223624E-02 -5.05580503104E-02 -1.17242923864E-01
1.53500000000E+09 -2.93234409655E-02 -1.66697736172E-01 -1.17523028494E-02 +2.24385969753E-02 -1.17216755207E-02 +2.24822266594E-02 -1.61187728830E-01 -1.33130298474E-01
1.54000000000E+09 -1.38944296988E-01 -1.66656266415E-01 -4.88987460841E-03 +2.38631498826E-02 -4.90652805881E-03 +2.36071616513E-02 -2.69602131274E-01 -1.26072609639E-01
1.54500000000E+09 -2.42388670578E-01 -1.41470417703E-01 +2.04806961724E-03 +2.36139496317E-02 +1.57382790111E-03 +2.33854498442E-02 -3.66384666410E-01 -9.82381671844E-02
1.55000000000E+09 -3.33952360085E-01 -9.96091163112E-02 +7.86559446581E-03 +2.02088385870E-02 +7.00308534499E-03 +2.04338404096E-02 -4.48638511977E-01 -5.67960753970E-02
1.55500000000E+09 -4.10847517356E-01 -4.51684919458E-02 +1.15948786850E-02 +1.64991714284E-02 +1.10973173751E-02 +1.73513730345E-02 -5.16055147006E-01 -6.66556114740E-03
1.56000000000E+09 -4.71541766272E-01 +1.30113292654E-02 +1.42564285436E-02 +1.19779284116E-02 +1.44703972584E-02 +1.29539449201E-02 -5.69319025502E-01 +4.83532287715E-02
1.56500000000E+09 -5.20193829501E-01 +7.19069807148E-02 +1.47253246571E-02 +7.28785917879E-03 +1.54296441318E-02 +7.99327675881E-03 -6.10664343865E-01 +1.05119939465E-01
1.57000000000E+09 -5.57664739167E-01 +1.30983214720E-01 +1.41655829677E-02 +4.04679993793E-03 +1.50496033468E-02 +4.17453557804E-03 -6.40691551462E-01 +1.61488181280E-01
