# Hz S RI R 50
! CMT, C1220, 16058040, 17.2.0/1
! Date: 14/08/2018 12:46:56
! Data: Format (Calibration Info)
! Freq                      S11: Re/Im (F2)                       S21: Re/Im (F2)                       S12: Re/Im (F2)                       S22: Re/Im (F2)            
1.00000000000E+09 -6.51293140088E-01 +7.13368233737E-01 +1.43324813447E-05 +3.14658512580E-05 -4.66593061410E-05 +7.39382220526E-06 -7.53695090107E-01 +6.21454748786E-01
1.00500000000E+09 -6.44291415953E-01 +7.18331353109E-01 +2.36143311791E-05 +4.22587662649E-05 +2.90943561487E-05 -4.08209407221E-05 -7.50215119828E-01 +6.25448033324E-01
1.01000000000E+09 -6.38152951199E-01 +7.22875755490E-01 -1.12409876555E-05 +3.94848523478E-05 -1.05126237289E-05 -2.01742926316E-05 -7.46874290650E-01 +6.29046874947E-01
1.01500000000E+09 -6.33799527737E-01 +7.26771430238E-01 -2.55815788451E-05 +1.54105852321E-05 -8.43280400596E-06 -2.22741643148E-05 -7.43675118941E-01 +6.32874184627E-01
1.02000000000E+09 -6.30870257502E-01 +7.30297125804E-01 -1.77493475229E-05 +1.09120415004E-05 -3.20554667571E-05 +2.79323621692E-06 -7.40383326135E-01 +6.36181226223E-01
1.02500000000E+09 -6.28612578038E-01 +7.32995381182E-01 -2.34543604129E-05 -1.21057812574E-05 +2.91371657454E-05 -6.38331562808E-06 -7.37504870479E-01 +6.39734212746E-01
1.03000000000E+09 -6.27212633395E-01 +7.35657332697E-01 +2.72084706979E-05 -3.93055401273E-06 -5.40225966062E-05 -2.35976489721E-06 -7.34130420982E-01 +6.43493330796E-01
1.03500000000E+09 -6.25073547891E-01 +7.38221988106E-01 -7.39489931389E-06 +4.91234971454E-05 -1.76081913456E-05 +5.85360314381E-05 -7.30415039745E-01 +6.47812931257E-01
1.04000000000E+09 -6.21739614466E-01 +7.41108914134E-01 +5.55038262522E-06 -1.43400603422E-05 -1.11931366353E-05 +4.73917921077E-05 -7.26566859209E-01 +6.51403941641E-01
1.04500000000E+09 -6.16720292311E-01 +7.44447713409E-01 -1.10024461776E-05 +1.34286231340E-05 -1.68460551113E-05 +5.44197633354E-05 -7.22981187443E-01 +6.54925469352E-01
1.05000000000E+09 -6.10263661606E-01 +7.48615193308E-01 +2.65773555786E-05 +4.69593278318E-05 -1.56933572819E-05 -7.18218404373E-07 -7.19640815817E-01 +6.58157844377E-01
1.05500000000E+09 -6.02357723267E-01 +7.53224738826E-01 +3.98119824173E-05 +5.84227120671E-05 +1.15290781274E-05 +5.74966595640E-05 -7.16337363336E-01 +6.61886504797E-01
1.06000000000E+09 -5.93830536228E-01 +7.58294060857E-01 +2.33910019887E-05 +4.26412605810E-05 +5.20728700880E-05 -6.05324306920E-06 -7.12920357669E-01 +6.65655563022E-01
1.06500000000E+09 -5.85405245834E-01 +7.63440373617E-01 +2.69984045290E-05 +7.40474707653E-05 +1.34711020056E-05 +3.14782096244E-05 -7.09188251368E-01 +6.69457676440E-01
1.07000000000E+09 -5.78141196211E-01 +7.67761888257E-01 +9.43277716387E-06 +5.28635822890E-05 +4.49421858392E-05 +1.00549185551E-04 -7.05308670363E-01 +6.73193640004E-01
1.07500000000E+09 -5.72150103047E-01 +7.71658324339E-01 +8.70313829981E-06 +8.78499768115E-06 -2.34488639990E-05 +6.90628015040E-05 -7.00877060579E-01 +6.76926750146E-01
1.08000000000E+09 -5.68178974915E-01 +7.74986488777E-01 +2.24488815882E-05 +7.47080743253E-06 +1.20392115756E-05 +4.51815727702E-05 -6.97008677941E-01 +6.80637637488E-01
1.08500000000E+09 -5.65428465450E-01 +7.77569837821E-01 +1.73258775571E-05 +5.49088310123E-05 -2.25393475664E-05 +6.03917981679E-05 -6.93220645813E-01 +6.84316330197E-01
1.09000000000E+09 -5.63407886388E-01 +7.79674507465E-01 +3.03130228006E-05 +3.87108084606E-05 +2.72639659180E-05 +5.80021261732E-05 -6.89502073716E-01 +6.88131594592E-01
1.09500000000E+09 -5.61867457953E-01 +7.81508576699E-01 +5.92782626451E-06 +2.29645516226E-05 -1.78447302389E-05 +1.16807861454E-05 -6.85841136398E-01 +6.91887031078E-01
1.10000000000E+09 -5.59182776813E-01 +7.83464170196E-01 +4.41154244801E-06 +3.40597307364E-05 +4.51199730705E-05 -4.98609861087E-07 -6.81869352060E-01 +6.95815127907E-01
1.10500000000E+09 -5.55410046280E-01 +7.86016873691E-01 +1.58020993399E-05 +2.15553753062E-05 +1.28828373066E-05 +7.55088019126E-06 -6.77628259590E-01 +6.99283085058E-01
1.11000000000E+09 -5.50076119492E-01 +7.89277226835E-01 +6.80351609772E-05 +3.59672513778E-05 +1.60132343939E-05 +7.40405171887E-05 -6.73471134080E-01 +7.02539561303E-01
1.11500000000E+09 -5.43224453749E-01 +7.92995561263E-01 +7.61274572200E-05 +2.80229945099E-05 +3.10643610668E-05 +4.02829846448E-05 -6.69561226483E-01 +7.06026010848E-01
1.12000000000E+09 -5.35695164850E-01 +7.97002763004E-01 +5.16867165582E-05 +2.14928877703E-05 +7.63965428251E-05 +3.70684195300E-05 -6.65585381001E-01 +7.09598799084E-01
1.12500000000E+09 -5.27760294062E-01 +8.01057872330E-01 +6.35745138309E-05 +2.75921980439E-05 +6.99114157535E-05 -1.17006347188E-06 -6.61322655373E-01 +7.13549503433E-01
1.13000000000E+09 -5.20376437664E-01 +8.04698308224E-01 +6.05973251411E-05 +3.84952969494E-05 +5.36657609369E-05 +4.41553559997E-05 -6.56959683275E-01 +7.17426801384E-01
1.13500000000E+09 -5.13616067845E-01 +8.07587945628E-01 +2.74651284066E-05 +7.30400080618E-05 +7.02193537510E-06 +6.57785073329E-05 -6.52241049881E-01 +7.21244153346E-01
1.14000000000E+09 -5.08377546590E-01 +8.10186819087E-01 +4.38564316590E-05 +3.93450578838E-05 +6.73027208199E-05 +5.34300823502E-05 -6.47487621779E-01 +7.24695023177E-01
1.14500000000E+09 -5.04174696727E-01 +8.11999310668E-01 +3.99948058856E-05 -1.89967084650E-06 +9.90862643668E-05 -2.30097568556E-05 -6.42872272678E-01 +7.28169575391E-01
1.15000000000E+09 -5.00440644972E-01 +8.13638755544E-01 +6.55405603675E-05 -1.49984610748E-05 +5.44414660021E-05 +2.20196701485E-05 -6.38363600962E-01 +7.31895274099E-01
1.15500000000E+09 -4.96947756325E-01 +8.15479438486E-01 +6.46543204759E-05 -8.59058379400E-06 +4.46133139499E-05 +1.48606996941E-05 -6.33590557660E-01 +7.35762242427E-01
1.16000000000E+09 -4.92553651549E-01 +8.17608969393E-01 +6.52555276437E-05 +8.54001586048E-06 +1.00581040032E-04 -8.62993983347E-07 -6.28839683743E-01 +7.39698428338E-01
1.16500000000E+09 -4.87312914245E-01 +8.20499970489E-01 +6.64042539165E-05 +1.39673195910E-05 +9.03238755985E-05 -8.27338490015E-06 -6.23912419074E-01 +7.43385978202E-01
1.17000000000E+09 -4.80918927807E-01 +8.23716718823E-01 +1.29033123997E-04 -1.84838688454E-05 +7.53478395560E-05 +3.10913297759E-05 -6.18401091542E-01 +7.46567875166E-01
1.17500000000E+09 -4.73729986703E-01 +8.27242339534E-01 +1.18085664126E-04 +3.30848568858E-06 +1.01827016964E-04 -4.00534932373E-05 -6.12839440301E-01 +7.49747985219E-01
1.18000000000E+09 -4.65935848923E-01 +8.31021380166E-01 +1.22195357630E-04 +3.73930874318E-06 +9.95795336997E-05 -7.00115834091E-05 -6.07365439289E-01 +7.52837699336E-01
1.18500000000E+09 -4.58066778295E-01 +8.34368686175E-01 +1.17781783929E-04 -1.06050584554E-04 +1.94415712987E-04 -6.75528614505E-05 -6.01558301137E-01 +7.55948214260E-01
1.19000000000E+09 -4.50615737442E-01 +8.37161412945E-01 +1.15483745026E-04 -8.97762744753E-05 +1.47745301914E-04 -1.52685277098E-04 -5.95637139258E-01 +7.58517280562E-01
1.19500000000E+09 -4.44251022860E-01 +8.39242190837E-01 +1.05824455401E-04 -2.02770682181E-04 +1.70904297169E-04 -1.66120581215E-04 -5.89727208612E-01 +7.59705457945E-01
1.20000000000E+09 -4.38853411307E-01 +8.40273805925E-01 +2.45091105136E-05 -2.63416827734E-04 +1.84889188547E-05 -2.08761690322E-04 -5.85118443974E-01 +7.59901545768E-01
1.20500000000E+09 -4.34078971462E-01 +8.41653277489E-01 -5.21937713227E-05 -1.75738996042E-04 -1.66902057694E-05 -2.10645699601E-04 -5.82855260670E-01 +7.60751269364E-01
1.21000000000E+09 -4.29351895757E-01 +8.43234962783E-01 -2.87163436758E-05 -1.06210791512E-04 -7.51259587141E-05 -1.08783742194E-04 -5.80893575145E-01 +7.63926585859E-01
1.21500000000E+09 -4.23502144646E-01 +8.45135132512E-01 -2.73085984650E-05 -1.06638987698E-04 -1.46732165674E-05 -8.83067759187E-05 -5.78060493580E-01 +7.68512850472E-01
1.22000000000E+09 -4.16550927122E-01 +8.47484410785E-01 -5.06759435429E-06 -1.00470033947E-04 +1.40214608215E-05 -1.52164716270E-04 -5.73857371201E-01 +7.73932115278E-01
1.22500000000E+09 -4.08412524611E-01 +8.50519484887E-01 +2.71970559526E-05 -1.42291154047E-04 -2.65422209011E-05 -1.93162358302E-04 -5.68958271567E-01 +7.78950659182E-01
1.23000000000E+09 -3.99186167825E-01 +8.54015350351E-01 +1.42161451160E-05 -1.91670503596E-04 -1.24978449555E-05 -1.79511416397E-04 -5.63220098894E-01 +7.83680968640E-01
1.23500000000E+09 -3.89704785155E-01 +8.57858294358E-01 +4.17285899810E-06 -1.68088512310E-04 -5.29634620766E-05 -1.71689417608E-04 -5.57544021933E-01 +7.88084979868E-01
1.24000000000E+09 -3.80222281462E-01 +8.61862381235E-01 -2.96625623000E-05 -1.89483101521E-04 -5.70742146227E-06 -1.74616968010E-04 -5.51489637837E-01 +7.91894485115E-01
1.24500000000E+09 -3.71303123206E-01 +8.65581291271E-01 -7.08255681571E-05 -2.01056609679E-04 -6.36617263799E-05 -2.11373755648E-04 -5.45246229367E-01 +7.95751993095E-01
1.25000000000E+09 -3.63175895383E-01 +8.68761997497E-01 -9.33253082044E-05 -1.72038253412E-04 -6.50402673944E-05 -1.86197495523E-04 -5.38863291381E-01 +7.99751412582E-01
1.25500000000E+09 -3.56418527036E-01 +8.70924707359E-01 -1.33294118484E-04 -2.04240838312E-04 -1.31137451473E-04 -1.86006920464E-04 -5.32203690357E-01 +8.03929783924E-01
1.26000000000E+09 -3.50223700958E-01 +8.72405096874E-01 -1.48170077244E-04 -1.96874674757E-04 -1.38777772455E-04 -2.15462197317E-04 -5.25511759138E-01 +8.08209181933E-01
1.26500000000E+09 -3.44369098223E-01 +8.73578947412E-01 -1.54266147729E-04 -2.12182993793E-04 -1.46581575845E-04 -2.34189868025E-04 -5.18686782793E-01 +8.12059501540E-01
1.27000000000E+09 -3.38053902784E-01 +8.74609701908E-01 -2.19497113192E-04 -2.03576653060E-04 -2.05288335212E-04 -2.25772274038E-04 -5.11793396781E-01 +8.15844491707E-01
1.27500000000E+09 -3.30542047403E-01 +8.75940037369E-01 -2.58102457455E-04 -1.85394903298E-04 -2.41380403819E-04 -1.93895350303E-04 -5.04582295839E-01 +8.19454063844E-01
1.28000000000E+09 -3.21296166314E-01 +8.77986769839E-01 -2.56565543477E-04 -1.65447327578E-04 -2.56168073762E-04 -1.79545577441E-04 -4.97492928752E-01 +8.23156352022E-01
1.28500000000E+09 -3.10205011186E-01 +8.80278625639E-01 -3.10370845941E-04 -1.11651524733E-04 -3.08054333848E-04 -1.49757677538E-04 -4.89971989786E-01 +8.26970920869E-01
1.29000000000E+09 -2.98238308331E-01 +8.83315690266E-01 -3.24082476110E-04 -1.21353920291E-04 -4.12980291670E-04 -1.16396510029E-04 -4.82577302180E-01 +8.30621862164E-01
1.29500000000E+09 -2.85915626471E-01 +8.86743833514E-01 -3.82090436976E-04 -1.49106476159E-04 -4.24687944249E-04 -1.08038799584E-04 -4.74602497869E-01 +8.34277318174E-01
1.30000000000E+09 -2.73859001465E-01 +8.90244939362E-01 -3.85759198383E-04 -1.03397912354E-04 -4.17448969011E-04 -2.58449220879E-05 -4.66756589132E-01 +8.37893070609E-01
1.30500000000E+09 -2.62896621946E-01 +8.93324193801E-01 -5.09906399858E-04 -8.73172579337E-05 -4.12285565440E-04 -3.07270487360E-05 -4.58734001703E-01 +8.41266284552E-01
1.31000000000E+09 -2.53681114147E-01 +8.95448055174E-01 -4.97421572112E-04 +2.17889112333E-05 -4.72076181627E-04 +4.08926274769E-05 -4.50403659116E-01 +8.44760367849E-01
1.31500000000E+09 -2.46272194710E-01 +8.96936526877E-01 -4.64668298484E-04 +1.34796385208E-04 -4.89589087179E-04 +8.83369344352E-05 -4.41775344840E-01 +8.48374084834E-01
1.32000000000E+09 -2.40147262148E-01 +8.97752206003E-01 -4.98305871827E-04 +1.50808360791E-04 -5.40909396406E-04 +1.31202084118E-04 -4.32723941148E-01 +8.51775218790E-01
1.32500000000E+09 -2.34206794431E-01 +8.97867619285E-01 -5.05984136111E-04 +1.61165136570E-04 -5.66128129643E-04 +1.83714854719E-04 -4.23326706615E-01 +8.55156528336E-01
1.33000000000E+09 -2.27490179035E-01 +8.98047873123E-01 -5.80226472511E-04 +2.21630489495E-04 -5.71010492444E-04 +3.22349682389E-04 -4.13758582165E-01 +8.58384003877E-01
1.33500000000E+09 -2.18953455709E-01 +8.98044853848E-01 -5.77136942866E-04 +3.79562786528E-04 -5.89095178008E-04 +4.17997458142E-04 -4.04007825197E-01 +8.61525645735E-01
1.34000000000E+09 -2.07616751644E-01 +8.98348883777E-01 -6.30600063904E-04 +4.73330162448E-04 -5.50381644301E-04 +4.42592210499E-04 -3.93889920484E-01 +8.64859346584E-01
1.34500000000E+09 -1.93928830472E-01 +8.98664306030E-01 -5.25738341918E-04 +6.18556300020E-04 -4.85683846380E-04 +6.21898506517E-04 -3.83010144452E-01 +8.68225022246E-01
1.35000000000E+09 -1.78235847566E-01 +8.99547173463E-01 -4.47397809708E-04 +6.78211136056E-04 -4.23944815143E-04 +7.30965060877E-04 -3.71932387672E-01 +8.71329470965E-01
1.35500000000E+09 -1.61298004001E-01 +9.00269187685E-01 -4.26052877258E-04 +7.27073274370E-04 -3.96736710889E-04 +6.98862021548E-04 -3.60205753805E-01 +8.74192386173E-01
1.36000000000E+09 -1.44436286954E-01 +9.00924659204E-01 -3.66548418609E-04 +7.97668657459E-04 -2.77570100853E-04 +7.69173000640E-04 -3.48413777338E-01 +8.76838695867E-01
1.36500000000E+09 -1.28474936910E-01 +9.01301083428E-01 -3.29258350344E-04 +8.87240387061E-04 -2.85762258900E-04 +8.40085343265E-04 -3.36353357783E-01 +8.79368480878E-01
1.37000000000E+09 -1.14166265443E-01 +9.01039623575E-01 -2.43093555849E-04 +1.01366345392E-03 -2.81707807909E-04 +9.55098337452E-04 -3.23445901363E-01 +8.81975185112E-01
1.37500000000E+09 -1.01660045250E-01 +9.00538466152E-01 -1.09395558500E-05 +1.10045959054E-03 -1.63853363597E-04 +1.05043291116E-03 -3.09600243902E-01 +8.84336288867E-01
1.38000000000E+09 -9.05235452808E-02 +8.99691553748E-01 -3.21142356085E-06 +1.12759691030E-03 -1.01027983280E-04 +1.15811187100E-03 -2.95076642711E-01 +8.86520428825E-01
1.38500000000E+09 -7.89564768327E-02 +8.98111480978E-01 +1.37616946186E-04 +1.17023098834E-03 +6.60810165525E-06 +1.32373729633E-03 -2.79499368488E-01 +8.88554986472E-01
1.39000000000E+09 -6.66071642508E-02 +8.95900728885E-01 +2.47051654239E-04 +1.28735641853E-03 +3.43030939023E-04 +1.49683330149E-03 -2.63420293098E-01 +8.90017050680E-01
1.39500000000E+09 -5.21772116009E-02 +8.93152426070E-01 +4.13291696518E-04 +1.34113673227E-03 +6.26127416869E-04 +1.43775662966E-03 -2.46930320227E-01 +8.90818802874E-01
1.40000000000E+09 -3.50539740527E-02 +8.89358793507E-01 +6.23661302758E-04 +1.47078594858E-03 +7.30012393740E-04 +1.41927831025E-03 -2.29541425074E-01 +8.91271174103E-01
1.40500000000E+09 -1.58490771544E-02 +8.84970853152E-01 +8.72850003877E-04 +1.47254429550E-03 +9.67238228886E-04 +1.41971613126E-03 -2.11059129091E-01 +8.91171703456E-01
1.41000000000E+09 +5.41221874896E-03 +8.79752679917E-01 +1.25130069298E-03 +1.48538151451E-03 +1.17732686971E-03 +1.44894577728E-03 -1.90886973584E-01 +8.90593007693E-01
1.41500000000E+09 +2.77617448203E-02 +8.73808441191E-01 +1.52491015988E-03 +1.37097040052E-03 +1.56648610967E-03 +1.52647058340E-03 -1.69316590520E-01 +8.89178513673E-01
1.42000000000E+09 +5.06393620619E-02 +8.66864413997E-01 +1.76628082786E-03 +1.23264334526E-03 +1.90871514276E-03 +1.40097908127E-03 -1.46249809669E-01 +8.86712205160E-01
1.42500000000E+09 +7.26024639129E-02 +8.58879699194E-01 +2.00172677428E-03 +1.20605987869E-03 +2.28629114237E-03 +1.28765914142E-03 -1.22562204850E-01 +8.82907803327E-01
1.43000000000E+09 +9.39004343366E-02 +8.49801704008E-01 +2.46004665034E-03 +1.17601148476E-03 +2.73492333652E-03 +1.06666930690E-03 -9.79562944689E-02 +8.78259973577E-01
1.43500000000E+09 +1.14678532607E-01 +8.39030987057E-01 +3.14417174609E-03 +7.88244892402E-04 +3.26616487152E-03 +5.36996027699E-04 -7.15021429627E-02 +8.71557264373E-01
1.44000000000E+09 +1.35833972163E-01 +8.27027870311E-01 +3.45659148014E-03 +6.66434681869E-05 +3.51535157916E-03 -1.96529831526E-04 -4.34564486548E-02 +8.62957952603E-01
1.44500000000E+09 +1.58902083774E-01 +8.12120427897E-01 +3.54586043949E-03 -5.54056282709E-04 +3.57298052754E-03 -7.68617234303E-04 -1.30983174827E-02 +8.51530150868E-01
1.45000000000E+09 +1.83690355961E-01 +7.93724846907E-01 +3.44990336244E-03 -1.08266647010E-03 +3.48945509589E-03 -1.38367449903E-03 +1.85155508117E-02 +8.37132486016E-01
1.45500000000E+09 +2.10624522315E-01 +7.71499677898E-01 +3.60276621363E-03 -1.33914217610E-03 +3.49083956098E-03 -1.70225734507E-03 +5.18444758685E-02 +8.19891140510E-01
1.46000000000E+09 +2.40439326101E-01 +7.45515123207E-01 +4.02774010364E-03 -1.97488696080E-03 +3.69891030352E-03 -2.26449035514E-03 +8.65755461481E-02 +7.98114943221E-01
1.46500000000E+09 +2.71865313119E-01 +7.14504370116E-01 +4.43926836201E-03 -2.97651406142E-03 +3.84956039773E-03 -2.96078006496E-03 +1.22475792468E-01 +7.71542916537E-01
1.47000000000E+09 +3.03571272646E-01 +6.78589174139E-01 +4.35496582737E-03 -4.56559080681E-03 +3.99757541466E-03 -4.22528399024E-03 +1.59431181207E-01 +7.37806759289E-01
1.47500000000E+09 +3.34168419779E-01 +6.37365212732E-01 +3.41102849811E-03 -6.12119631698E-03 +3.53906634338E-03 -5.68139345667E-03 +1.95994895219E-01 +6.97171883300E-01
1.48000000000E+09 +3.62380776829E-01 +5.90019409787E-01 +2.33627208261E-03 -7.14458011404E-03 +2.55912981050E-03 -7.09830740857E-03 +2.32512639934E-01 +6.47894054844E-01
1.48500000000E+09 +3.85567959864E-01 +5.35664865547E-01 +1.02643975952E-03 -8.20442108892E-03 +9.34125775725E-04 -8.39589888479E-03 +2.65948888154E-01 +5.89754186120E-01
1.49000000000E+09 +4.03173782825E-01 +4.73891379515E-01 -6.76752723079E-04 -9.24307589912E-03 -1.11236759084E-03 -9.12891387575E-03 +2.94470415258E-01 +5.20539018533E-01
1.49500000000E+09 +4.12296013964E-01 +4.03789891159E-01 -3.25975448546E-03 -9.66804776499E-03 -3.50608464190E-03 -9.11283424215E-03 +3.12440227738E-01 +4.41903205786E-01
1.50000000000E+09 +4.11566957785E-01 +3.25007923533E-01 -5.98229939696E-03 -9.69376943074E-03 -5.61832006756E-03 -9.08276987648E-03 +3.18190452492E-01 +3.54300298865E-01
1.50500000000E+09 +3.97062140463E-01 +2.37714562054E-01 -9.07056970696E-03 -8.39402651977E-03 -8.41164405753E-03 -8.32714251192E-03 +3.08881665030E-01 +2.58708105709E-01
1.51000000000E+09 +3.66290200704E-01 +1.46254492328E-01 -1.14874478260E-02 -5.58243632459E-03 -1.10823869898E-02 -5.98107061355E-03 +2.78179521480E-01 +1.56966954198E-01
1.51500000000E+09 +3.15691117842E-01 +5.42355825650E-02 -1.30356662700E-02 -3.41598414641E-03 -1.29943417087E-02 -3.79297101612E-03 +2.22888391388E-01 +6.10826384903E-02
1.52000000000E+09 +2.44395192308E-01 -2.81246075780E-02 -1.52071274724E-02 +2.00973276615E-04 -1.53529506755E-02 -1.22913771235E-05 +1.48833793768E-01 -2.42953289442E-02
1.52500000000E+09 +1.56323181183E-01 -9.50844855933E-02 -1.47580567845E-02 +6.30107445783E-03 -1.49456710155E-02 +6.20721433901E-03 +5.59342862387E-02 -9.33850694750E-02
1.53000000000E+09 +5.57979058679E-02 -1.40541332829E-01 -1.08638884317E-02 +9.75958994197E-03 -1.09299013205E-02 +9.80143064858E-03 -4.99757087939E-02 -1.38798939219E-01
1.53500000000E+09 -5.21322662267E-02 -1.62931388700E-01 -7.90179849824E-03 +1.18810659570E-02 -7.90216840136E-03 +1.19054103484E-02 -1.59967967806E-01 -1.60670930614E-01
1.54000000000E+09 -1.62806886302E-01 -1.58627166352E-01 -4.13357852991E-03 +1.26516190148E-02 -4.19636074674E-03 +1.24872001411E-02 -2.68027322724E-01 -1.59052328915E-01
1.54500000000E+09 -2.64710622884E-01 -1.31132260919E-01 -7.08067134870E-04 +1.27860038834E-02 -9.29353577783E-04 +1.26498365192E-02 -3.66327655177E-01 -1.38534102165E-01
1.55000000000E+09 -3.56511355520E-01 -8.72766213155E-02 +1.97959323050E-03 +1.18280372315E-02 +1.51304591104E-03 +1.19428108043E-02 -4.53405024003E-01 -1.02810903870E-01
1.55500000000E+09 -4.33763392125E-01 -3.07881661606E-02 +5.30780560210E-03 +1.05220204414E-02 +4.91014467706E-03 +1.10271454156E-02 -5.25508736948E-01 -5.62415920669E-02
1.56000000000E+09 -4.94924225630E-01 +2.91528555048E-02 +7.08815826912E-03 +7.17647505739E-03 +7.15492719319E-03 +7.84040835144E-03 -5.84189462694E-01 -3.39905394732E-03
1.56500000000E+09 -5.43417064152E-01 +8.96854322633E-02 +6.94362995092E-03 +5.14145428490E-03 +7.28035541311E-03 +5.63927239507E-03 -6.28893529825E-01 +5.25210573676E-02
1.57000000000E+09 -5.79967953932E-01 +1.48051550141E-01 +7.16372730624E-03 +3.51798946248E-03 +7.64405039581E-03 +3.71400504067E-03 -6.63033434482E-01 +1.06334500412E-01
