# Hz S RI R 50
! CMT, C1220, 16058040, 17.2.0/1
! Date: 14/08/2018 12:58:59
! Data: Format (Calibration Info)
! Freq                      S11: Re/Im (F2)                       S21: Re/Im (F2)                       S12: Re/Im (F2)                       S22: Re/Im (F2)            
1.00000000000E+09 -6.47797019662E-01 +7.11657714648E-01 -5.00214374713E-05 +9.73505112718E-06 +1.56748862715E-05 +4.23383392018E-06 -7.19042330458E-01 +6.45799078921E-01
1.00500000000E+09 -6.41331187125E-01 +7.16328688721E-01 -3.49084780452E-05 +1.97449816797E-05 -8.39647641142E-06 -3.75162799305E-05 -7.15338029454E-01 +6.49791298620E-01
1.01000000000E+09 -6.35418731032E-01 +7.20598471089E-01 -1.04126960387E-06 +4.24029254255E-05 -1.10323873014E-05 -2.55095262104E-05 -7.11488437999E-01 +6.53249165581E-01
1.01500000000E+09 -6.30906372560E-01 +7.24512712697E-01 +1.91744237935E-05 -1.69567143589E-06 -5.88350652052E-05 +1.52950905851E-05 -7.08280550231E-01 +6.56796431336E-01
1.02000000000E+09 -6.26933282149E-01 +7.27937820296E-01 +8.35262927241E-06 +4.28759974516E-05 -3.60538915729E-06 -1.10435194201E-05 -7.04664461355E-01 +6.60247229448E-01
1.02500000000E+09 -6.23517580503E-01 +7.31284067587E-01 +4.37357330415E-05 +6.50797452917E-05 +4.79222575231E-07 -1.38792819716E-05 -7.01738699358E-01 +6.63766253200E-01
1.03000000000E+09 -6.20563553347E-01 +7.34099986774E-01 +3.61520213737E-05 +4.72738952809E-05 +3.11348270065E-05 +3.04536222822E-05 -6.97950538736E-01 +6.67669442396E-01
1.03500000000E+09 -6.16836632157E-01 +7.37101905975E-01 +2.07111230421E-05 +4.37589182022E-06 +1.61304222084E-05 +3.08116590569E-05 -6.93976532292E-01 +6.71458110977E-01
1.04000000000E+09 -6.12560599935E-01 +7.40382020712E-01 -5.54562163762E-08 +1.28625783423E-05 +1.37805930815E-05 +3.66065402056E-06 -6.89954476568E-01 +6.74926978854E-01
1.04500000000E+09 -6.06849595551E-01 +7.43953815735E-01 +4.10992928772E-05 -2.68863387279E-05 +1.06083000884E-05 +2.56644724867E-05 -6.86219618235E-01 +6.78309392868E-01
1.05000000000E+09 -6.00208564361E-01 +7.48080550303E-01 +1.83300701491E-06 +2.15793545492E-05 +4.43982022719E-05 +8.28544750431E-05 -6.82590755481E-01 +6.81669789651E-01
1.05500000000E+09 -5.92683084438E-01 +7.52204877261E-01 -1.16262208593E-05 +1.10622541344E-05 -2.67176395764E-05 +3.61178114364E-05 -6.79147260840E-01 +6.85124777315E-01
1.06000000000E+09 -5.84680380163E-01 +7.56826964785E-01 +4.25851628877E-05 +4.84455114693E-05 -2.68231541081E-06 +1.59992054954E-05 -6.75616552380E-01 +6.88681153265E-01
1.06500000000E+09 -5.77012723192E-01 +7.61489903911E-01 +2.92991246306E-05 -2.13336488258E-06 +3.36500731704E-05 +6.67281942581E-05 -6.71616339856E-01 +6.92501176838E-01
1.07000000000E+09 -5.69873098252E-01 +7.65520382669E-01 -1.98971631927E-06 +1.42426049307E-05 -5.80632766387E-05 +7.40573824312E-05 -6.67230965581E-01 +6.95961112389E-01
1.07500000000E+09 -5.63900661960E-01 +7.69235078347E-01 +2.48370699865E-05 +6.20769304390E-05 +7.81032389626E-05 +1.99126192759E-05 -6.62599529895E-01 +6.99558604150E-01
1.08000000000E+09 -5.59102551086E-01 +7.72443686174E-01 +1.18392617264E-05 +3.30370874105E-05 +3.20211196210E-06 +2.87681395593E-05 -6.58695972657E-01 +7.03203380835E-01
1.08500000000E+09 -5.55351040246E-01 +7.75067291080E-01 +1.43109120977E-05 +4.89485066060E-05 +5.96273757903E-06 +5.59503696024E-05 -6.54714166188E-01 +7.06621773978E-01
1.09000000000E+09 -5.51902917816E-01 +7.77430701828E-01 +1.47405287972E-05 +2.84417011191E-05 +3.28470620103E-05 +1.51384308400E-05 -6.50815163776E-01 +7.10416249329E-01
1.09500000000E+09 -5.49219062984E-01 +7.79472818794E-01 +3.06954823007E-06 +2.70243978064E-05 +2.92259599151E-05 -7.32185429495E-06 -6.46907897536E-01 +7.13975813627E-01
1.10000000000E+09 -5.45546004784E-01 +7.81722175438E-01 +1.09296045172E-04 +7.33571635304E-06 +4.24712712310E-05 +6.10244298199E-05 -6.42525156204E-01 +7.17727236151E-01
1.10500000000E+09 -5.41407487269E-01 +7.84320385279E-01 +3.92581998429E-05 +2.70673162368E-05 +6.64805121166E-05 +3.12847103880E-05 -6.38422463256E-01 +7.20979815786E-01
1.11000000000E+09 -5.36089264259E-01 +7.87489324278E-01 +4.89120523092E-05 +4.94779716830E-05 +4.55505648374E-05 +6.79194218218E-05 -6.33882665787E-01 +7.24010210053E-01
1.11500000000E+09 -5.29750750122E-01 +7.90844138824E-01 +7.79758553537E-05 +6.34214415123E-05 +7.63288559787E-05 +2.75850417420E-06 -6.29815243177E-01 +7.27303186668E-01
1.12000000000E+09 -5.22947771303E-01 +7.94349446649E-01 +7.45986644558E-05 -1.37215788953E-05 +7.23944909022E-05 -2.27156054293E-05 -6.25569878838E-01 +7.30826118163E-01
1.12500000000E+09 -5.15579820253E-01 +7.98029712490E-01 +3.65727538980E-05 +4.81725595686E-05 +4.24811235211E-05 +1.30449208352E-05 -6.21171395259E-01 +7.34515890309E-01
1.13000000000E+09 -5.08620899992E-01 +8.01228966644E-01 +6.05026641790E-05 +2.01208333652E-05 +6.40784718064E-05 -8.16147635415E-06 -6.16743933555E-01 +7.38128384764E-01
1.13500000000E+09 -5.01707957240E-01 +8.03734600594E-01 +9.02276574557E-05 -8.15130595589E-07 +5.62432812274E-05 +1.02736810646E-05 -6.11992844144E-01 +7.41798848848E-01
1.14000000000E+09 -4.95575962666E-01 +8.06048004250E-01 +1.00357619212E-04 -2.58357483928E-05 +1.21184164099E-04 -3.94248111996E-05 -6.06888534315E-01 +7.45060118937E-01
1.14500000000E+09 -4.90161585780E-01 +8.07827917089E-01 +8.16646441828E-05 -5.98517337466E-05 +5.77885694476E-05 -4.23459218527E-05 -6.02124031694E-01 +7.48265793961E-01
1.15000000000E+09 -4.85171530700E-01 +8.09476915721E-01 +1.22679678618E-04 -4.56004346490E-05 +6.98974344395E-05 -6.47003152358E-06 -5.97386657778E-01 +7.52093832693E-01
1.15500000000E+09 -4.80393608427E-01 +8.11192300401E-01 +6.62705381383E-05 +4.37015477868E-06 +8.05066616274E-05 -4.28027049266E-05 -5.92331812774E-01 +7.55672292091E-01
1.16000000000E+09 -4.74962735032E-01 +8.13126860960E-01 +9.37010073812E-05 -4.43900400198E-05 +9.35204151091E-05 -3.99966176282E-05 -5.87336087218E-01 +7.59281698308E-01
1.16500000000E+09 -4.69324775647E-01 +8.15762339987E-01 +7.85917353992E-05 -3.50205278548E-05 +1.00695610442E-04 -7.87724353222E-05 -5.82270863280E-01 +7.62624018589E-01
1.17000000000E+09 -4.62928948841E-01 +8.18537249025E-01 +7.61342451928E-05 -3.87487421098E-05 +9.72498326273E-05 -9.10398648152E-06 -5.76680830383E-01 +7.65706901827E-01
1.17500000000E+09 -4.55963874097E-01 +8.21609091168E-01 +1.19224509916E-04 -4.90624750214E-05 +9.02628146068E-05 -8.48121557091E-05 -5.71046587041E-01 +7.68717912626E-01
1.18000000000E+09 -4.48674220527E-01 +8.24900138562E-01 +1.63354037690E-04 -9.37190402270E-05 +1.08203019531E-04 -9.21622725224E-05 -5.65530007770E-01 +7.71645038160E-01
1.18500000000E+09 -4.40965684600E-01 +8.27801600074E-01 +1.06763790568E-04 -1.05008294165E-04 +1.21709216951E-04 -1.34466465945E-04 -5.59749950527E-01 +7.74417988396E-01
1.19000000000E+09 -4.33443839485E-01 +8.30235837345E-01 +1.08710762502E-04 -1.63012518240E-04 +1.21537153082E-04 -1.52078933027E-04 -5.53368696519E-01 +7.76670927076E-01
1.19500000000E+09 -4.26243264631E-01 +8.32078096804E-01 +9.33895521364E-05 -2.31134878121E-04 +1.54320445067E-04 -2.38276380208E-04 -5.47431253679E-01 +7.77654651383E-01
1.20000000000E+09 -4.19389047565E-01 +8.33005875128E-01 +3.83031145461E-05 -2.60970071441E-04 -5.57950315304E-06 -3.30079901672E-04 -5.42772921902E-01 +7.77685416299E-01
1.20500000000E+09 -4.12895178015E-01 +8.34192191223E-01 -6.64616911490E-05 -1.85130168819E-04 -1.34149616339E-04 -1.63535546954E-04 -5.40336547253E-01 +7.78571200747E-01
1.21000000000E+09 -4.06367667275E-01 +8.35376055490E-01 -9.12980802061E-05 -1.25149858542E-04 -1.41485391448E-04 -1.40291884076E-04 -5.38155110068E-01 +7.81420072589E-01
1.21500000000E+09 -3.99344743302E-01 +8.37109487743E-01 -2.41196927142E-05 -1.35714046661E-04 -3.90964510651E-05 -1.51497003642E-04 -5.35154615968E-01 +7.85878636434E-01
1.22000000000E+09 -3.91629336189E-01 +8.39047185539E-01 -4.85898150934E-05 -1.12383501601E-04 -1.72067471025E-05 -1.63745621071E-04 -5.30644426619E-01 +7.91142555186E-01
1.22500000000E+09 -3.83584365503E-01 +8.41613494508E-01 -4.74201495140E-05 -1.37590566083E-04 -1.41671536232E-05 -1.77287885834E-04 -5.25437361173E-01 +7.95935261773E-01
1.23000000000E+09 -3.75048110833E-01 +8.44445786024E-01 -4.34566766880E-05 -1.32208419489E-04 -2.47130804015E-05 -1.90971278996E-04 -5.19608893682E-01 +8.00332031700E-01
1.23500000000E+09 -3.66745761330E-01 +8.47608266816E-01 -1.16724017629E-04 -1.48056096553E-04 -1.07494756905E-04 -1.49704374634E-04 -5.13791716234E-01 +8.04267760755E-01
1.24000000000E+09 -3.58559758182E-01 +8.50728456482E-01 -9.10322378435E-05 -1.88775081655E-04 -9.50361227104E-05 -1.75288056744E-04 -5.07525489637E-01 +8.07750040955E-01
1.24500000000E+09 -3.50815067596E-01 +8.54105498187E-01 -9.33763384651E-05 -2.02650144356E-04 -7.43874821266E-05 -1.45845181055E-04 -5.01300253131E-01 +8.11442413045E-01
1.25000000000E+09 -3.43155143054E-01 +8.56703577219E-01 -9.76695164419E-05 -1.64648564782E-04 -1.16235681174E-04 -1.90763655233E-04 -4.94722501239E-01 +8.15212371173E-01
1.25500000000E+09 -3.35845233011E-01 +8.58466577290E-01 -1.43129590411E-04 -1.54249123680E-04 -1.31863834393E-04 -1.40680656843E-04 -4.87818980932E-01 +8.18938878636E-01
1.26000000000E+09 -3.28573126335E-01 +8.59656019746E-01 -1.22677208715E-04 -2.01101873914E-04 -1.13553162191E-04 -2.09817217623E-04 -4.81199961491E-01 +8.22847169757E-01
1.26500000000E+09 -3.21094701741E-01 +8.60327358594E-01 -2.25549644914E-04 -1.83088388432E-04 -1.95404988856E-04 -2.28392850600E-04 -4.74237618668E-01 +8.26234521476E-01
1.27000000000E+09 -3.12872206170E-01 +8.60676380498E-01 -2.56027701680E-04 -1.99214227031E-04 -2.28722957580E-04 -2.47502292957E-04 -4.67186677790E-01 +8.29638414803E-01
1.27500000000E+09 -3.04055226206E-01 +8.61436693154E-01 -3.08758392929E-04 -1.77547783812E-04 -2.89586363539E-04 -2.20554657942E-04 -4.60054108312E-01 +8.32917075472E-01
1.28000000000E+09 -2.94033566444E-01 +8.62477124078E-01 -3.40681813149E-04 -1.21429588363E-04 -3.27741016696E-04 -1.87908121671E-04 -4.52951221120E-01 +8.36128667398E-01
1.28500000000E+09 -2.83106608035E-01 +8.63832050512E-01 -3.24606699904E-04 -1.00679271856E-04 -3.87675052597E-04 -1.70676132529E-04 -4.45497109681E-01 +8.39487044736E-01
1.29000000000E+09 -2.72090347911E-01 +8.65759297826E-01 -3.69308052655E-04 -9.87359212579E-05 -3.97784500647E-04 -5.66859894901E-05 -4.37703663200E-01 +8.42828010973E-01
1.29500000000E+09 -2.61364904127E-01 +8.68160175844E-01 -3.81988108893E-04 -1.03676325501E-04 -4.44286488371E-04 -1.08938944645E-04 -4.29992899005E-01 +8.46116188633E-01
1.30000000000E+09 -2.51219647470E-01 +8.70981020148E-01 -4.72695980131E-04 -5.61687167110E-05 -4.82272610393E-04 +2.34218101040E-05 -4.22271520398E-01 +8.49129951953E-01
1.30500000000E+09 -2.41662558243E-01 +8.73751571485E-01 -5.41989331612E-04 -1.37406520833E-05 -5.12558837800E-04 +4.27379607937E-06 -4.14237104729E-01 +8.52276990974E-01
1.31000000000E+09 -2.32975994647E-01 +8.75775276781E-01 -5.87543370337E-04 +9.86048571536E-05 -5.63724811896E-04 +9.92181291360E-05 -4.05838382169E-01 +8.55339348521E-01
1.31500000000E+09 -2.25056536466E-01 +8.77316641242E-01 -5.64348631225E-04 +2.08252975181E-04 -5.52770932350E-04 +1.54595006299E-04 -3.97088476149E-01 +8.58339952409E-01
1.32000000000E+09 -2.17375956482E-01 +8.77565950073E-01 -5.41815187536E-04 +2.67836430384E-04 -5.63795234365E-04 +2.53150428027E-04 -3.88099183831E-01 +8.61420575353E-01
1.32500000000E+09 -2.09998279485E-01 +8.77226538603E-01 -5.73174900343E-04 +2.61468267409E-04 -5.58444045377E-04 +2.89380375529E-04 -3.78782570434E-01 +8.64247094915E-01
1.33000000000E+09 -2.01669552704E-01 +8.76488875527E-01 -6.17647570699E-04 +3.04901863992E-04 -6.11044765684E-04 +3.71898735781E-04 -3.69301844919E-01 +8.67095157681E-01
1.33500000000E+09 -1.92055231350E-01 +8.75800021173E-01 -6.28215502510E-04 +4.52756190783E-04 -6.00479299548E-04 +5.02225954427E-04 -3.59689108076E-01 +8.69991220422E-01
1.34000000000E+09 -1.80698853537E-01 +8.75207698219E-01 -5.67563334286E-04 +5.99402409873E-04 -5.43931471414E-04 +5.66534904436E-04 -3.49705852581E-01 +8.72626278918E-01
1.34500000000E+09 -1.67874589505E-01 +8.74967392932E-01 -5.43343677315E-04 +6.99237921048E-04 -5.26614924323E-04 +6.71650387562E-04 -3.38850059573E-01 +8.75427664638E-01
1.35000000000E+09 -1.53691426670E-01 +8.74809729297E-01 -4.94511363472E-04 +7.84595252539E-04 -4.18594745341E-04 +7.73158624786E-04 -3.28176005910E-01 +8.77964902229E-01
1.35500000000E+09 -1.38870255909E-01 +8.75320425896E-01 -4.27691664299E-04 +8.32021943456E-04 -4.70496420600E-04 +8.58504080893E-04 -3.16659106529E-01 +8.80179060569E-01
1.36000000000E+09 -1.23717492802E-01 +8.75896891696E-01 -4.07387926539E-04 +9.70463388950E-04 -3.56418635417E-04 +9.53067286964E-04 -3.05190553913E-01 +8.82391173514E-01
1.36500000000E+09 -1.08693357436E-01 +8.76111891855E-01 -3.57780877042E-04 +1.08073861918E-03 -3.52587018524E-04 +1.02565572576E-03 -2.93347722112E-01 +8.84290954068E-01
1.37000000000E+09 -9.44456370095E-02 +8.75166216837E-01 -2.43163149534E-04 +1.28197598928E-03 -3.18395022317E-04 +1.20178317279E-03 -2.80900338821E-01 +8.86335452969E-01
1.37500000000E+09 -8.13961878250E-02 +8.73425717235E-01 +1.81164191131E-05 +1.33126316418E-03 -1.52115466426E-04 +1.32282103355E-03 -2.67487004781E-01 +8.88012652170E-01
1.38000000000E+09 -6.92046491219E-02 +8.71077653505E-01 +1.02484930540E-04 +1.36018156779E-03 -5.64594370182E-05 +1.44724863636E-03 -2.53108306576E-01 +8.89422609369E-01
1.38500000000E+09 -5.67280564591E-02 +8.68001225634E-01 +2.20613301507E-04 +1.50127060520E-03 +1.23488579955E-04 +1.67357717257E-03 -2.38384503897E-01 +8.90791267606E-01
1.39000000000E+09 -4.39530765190E-02 +8.64319205904E-01 +3.83102264653E-04 +1.55010663976E-03 +4.66007214863E-04 +1.80221266893E-03 -2.23040692220E-01 +8.91839897699E-01
1.39500000000E+09 -2.98354325748E-02 +8.60432495725E-01 +5.66606888035E-04 +1.70409299018E-03 +7.91765515663E-04 +1.86047051456E-03 -2.07173502113E-01 +8.91950415918E-01
1.40000000000E+09 -1.42307630548E-02 +8.55955929598E-01 +8.34096688068E-04 +1.84467068979E-03 +1.09754700218E-03 +1.78759931606E-03 -1.90450996244E-01 +8.92020208434E-01
1.40500000000E+09 +2.50744273726E-03 +8.51335342701E-01 +1.30271531429E-03 +1.91497945916E-03 +1.36170124506E-03 +1.79771585583E-03 -1.72727322662E-01 +8.91360187945E-01
1.41000000000E+09 +2.05675822494E-02 +8.46458744437E-01 +1.74291812992E-03 +1.72840624381E-03 +1.64310252089E-03 +1.76690991197E-03 -1.53443735592E-01 +8.90161259619E-01
1.41500000000E+09 +3.98461824849E-02 +8.41699748427E-01 +1.95185587085E-03 +1.60754747065E-03 +1.94921560629E-03 +1.73133162467E-03 -1.32661027310E-01 +8.88143348639E-01
1.42000000000E+09 +6.05726177136E-02 +8.35847614744E-01 +2.25858807889E-03 +1.58968328719E-03 +2.49267857850E-03 +1.75630658242E-03 -1.10802148364E-01 +8.85224802131E-01
1.42500000000E+09 +8.15552464244E-02 +8.28228056867E-01 +2.69167626535E-03 +1.45061442356E-03 +3.09349652101E-03 +1.48781957038E-03 -8.82576501465E-02 +8.80943365048E-01
1.43000000000E+09 +1.02684210019E-01 +8.18523923589E-01 +3.20508309392E-03 +1.38610582727E-03 +3.62073357920E-03 +1.22426709189E-03 -6.49398148801E-02 +8.75967283129E-01
1.43500000000E+09 +1.23638545475E-01 +8.06295353867E-01 +4.07187190796E-03 +9.12349215671E-04 +4.28290952792E-03 +5.60961900345E-04 -3.98637167162E-02 +8.69295859207E-01
1.44000000000E+09 +1.44790651237E-01 +7.92616090667E-01 +4.61085322698E-03 -4.67587062924E-05 +4.64484503017E-03 -4.01776471053E-04 -1.32141681142E-02 +8.60375902612E-01
1.44500000000E+09 +1.67523867136E-01 +7.76309091493E-01 +4.61863183671E-03 -9.87498583824E-04 +4.58318965173E-03 -1.30091939094E-03 +1.54235553545E-02 +8.49198096497E-01
1.45000000000E+09 +1.91347944838E-01 +7.57078275537E-01 +4.52735283867E-03 -1.48292962245E-03 +4.57336643398E-03 -1.80268658917E-03 +4.57535202537E-02 +8.34666998739E-01
1.45500000000E+09 +2.16708324128E-01 +7.35042585708E-01 +4.82858730758E-03 -2.02695263031E-03 +4.71993510321E-03 -2.47650426392E-03 +7.71119052149E-02 +8.17731580782E-01
1.46000000000E+09 +2.43192795448E-01 +7.10528201377E-01 +5.34102480295E-03 -2.91295001186E-03 +4.80345066453E-03 -3.31333570004E-03 +1.10348872269E-01 +7.96794429165E-01
1.46500000000E+09 +2.71137624125E-01 +6.83024508714E-01 +5.68055675225E-03 -4.24194236356E-03 +4.92460253441E-03 -4.20065480490E-03 +1.44361276250E-01 +7.70815207196E-01
1.47000000000E+09 +3.00434863513E-01 +6.51728743574E-01 +5.66181473788E-03 -6.21649581923E-03 +5.16778945618E-03 -5.69708091695E-03 +1.79570934465E-01 +7.38386883543E-01
1.47500000000E+09 +3.29766625008E-01 +6.14183869230E-01 +4.51189586927E-03 -8.46916072040E-03 +4.66925517177E-03 -7.88527432434E-03 +2.14685634037E-01 +6.98673720725E-01
1.48000000000E+09 +3.56676837537E-01 +5.70041968913E-01 +2.66487289736E-03 -9.77515869181E-03 +3.01160423304E-03 -9.76884045418E-03 +2.49547354868E-01 +6.51306231908E-01
1.48500000000E+09 +3.79765337167E-01 +5.17747774843E-01 +1.22090421123E-03 -1.09449304413E-02 +1.13655247393E-03 -1.12966034167E-02 +2.82270220272E-01 +5.94805736208E-01
1.49000000000E+09 +3.96243574229E-01 +4.57610566064E-01 -8.46582404274E-04 -1.26737788602E-02 -1.47677580175E-03 -1.26270723671E-02 +3.10255145645E-01 +5.27917678638E-01
1.49500000000E+09 +4.05277926795E-01 +3.89924447936E-01 -4.59160267881E-03 -1.39301335777E-02 -4.92212732693E-03 -1.31148486886E-02 +3.29088454030E-01 +4.50110693295E-01
1.50000000000E+09 +4.05484222876E-01 +3.13723444959E-01 -8.72849817610E-03 -1.35403259264E-02 -8.19649346766E-03 -1.27229437625E-02 +3.34740729730E-01 +3.62353028997E-01
1.50500000000E+09 +3.92677486773E-01 +2.29350951541E-01 -1.31210127084E-02 -1.21068029486E-02 -1.22029964668E-02 -1.20349014242E-02 +3.23587421835E-01 +2.66354480658E-01
1.51000000000E+09 +3.64538490119E-01 +1.41582062167E-01 -1.72558236183E-02 -8.25658203298E-03 -1.67488921838E-02 -8.90532889718E-03 +2.91044256147E-01 +1.66027407797E-01
1.51500000000E+09 +3.17809561169E-01 +5.29436552966E-02 -1.98045788322E-02 -3.93394333193E-03 -1.98572502950E-02 -4.50048624694E-03 +2.35138308302E-01 +6.93799739875E-02
1.52000000000E+09 +2.50942572003E-01 -2.65676219428E-02 -2.17028794333E-02 +1.54764853532E-03 -2.19881618543E-02 +1.21088426004E-03 +1.56374937151E-01 -1.52341535057E-02
1.52500000000E+09 +1.67600656020E-01 -9.21712879943E-02 -2.14712865399E-02 +9.11147804621E-03 -2.17268215544E-02 +9.12399345513E-03 +6.11858461149E-02 -8.16763794321E-02
1.53000000000E+09 +7.12952771473E-02 -1.38342530535E-01 -1.64996878753E-02 +1.53642914803E-02 -1.66671070844E-02 +1.54810056300E-02 -4.95587245637E-02 -1.25122707479E-01
1.53500000000E+09 -3.35250175007E-02 -1.63126677467E-01 -1.15354706394E-02 +1.85438924332E-02 -1.14725071911E-02 +1.85698416750E-02 -1.63065263736E-01 -1.40779007795E-01
1.54000000000E+09 -1.42919884603E-01 -1.62919524798E-01 -6.01206270227E-03 +2.03660232111E-02 -6.01505686512E-03 +2.01355703092E-02 -2.73399032333E-01 -1.32227315024E-01
1.54500000000E+09 -2.45744774206E-01 -1.38308450287E-01 +3.80007862062E-04 +2.08481582152E-02 -1.36291110946E-04 +2.06540233467E-02 -3.71501187187E-01 -1.02862835625E-01
1.55000000000E+09 -3.37231777041E-01 -9.72754639442E-02 +5.62725576635E-03 +1.79681031920E-02 +4.98936468517E-03 +1.82001439710E-02 -4.54564680422E-01 -5.94844185060E-02
1.55500000000E+09 -4.14523055404E-01 -4.36648377794E-02 +8.96545220104E-03 +1.49700456551E-02 +8.46933409093E-03 +1.57071720122E-02 -5.21726940211E-01 -7.51493343199E-03
1.56000000000E+09 -4.75417816899E-01 +1.42571879139E-02 +1.15807868909E-02 +1.11849881574E-02 +1.17048579045E-02 +1.21141134916E-02 -5.74472259168E-01 +4.88177206502E-02
1.56500000000E+09 -5.24157473723E-01 +7.28405632327E-02 +1.20831321135E-02 +7.20205633174E-03 +1.26137300921E-02 +7.85957208580E-03 -6.15251152563E-01 +1.06625032835E-01
1.57000000000E+09 -5.61465462711E-01 +1.31393253707E-01 +1.16894300727E-02 +4.63633120110E-03 +1.24716658604E-02 +4.80219178981E-03 -6.44240322812E-01 +1.63920132778E-01
