# Hz S RI R 50
! CMT, C1220, 16058040, 17.2.0/1
! Date: 14/08/2018 11:50:37
! Data: Format (Calibration Info)
! Freq                      S11: Re/Im (F2)                       S21: Re/Im (F2)                       S12: Re/Im (F2)                       S22: Re/Im (F2)            
1.00000000000E+09 -6.48280857531E-01 +7.14615052067E-01 +1.65981211962E-05 +1.56029992095E-05 -5.02860205522E-06 +2.31719628261E-06 -7.55341968498E-01 +6.23930923031E-01
1.00500000000E+09 -6.41219306868E-01 +7.19732430009E-01 +6.71675382914E-05 -1.00941105084E-05 -1.13329960605E-05 -3.02837750294E-05 -7.51829188543E-01 +6.27992776334E-01
1.01000000000E+09 -6.35033982546E-01 +7.24333238071E-01 -2.75660729236E-06 +1.52691243241E-05 +9.65297408624E-06 -9.24519405684E-06 -7.48293667921E-01 +6.31826561706E-01
1.01500000000E+09 -6.30271035843E-01 +7.28106179265E-01 +3.35174663618E-05 +2.58415937484E-05 +2.85833691848E-05 +3.76448532844E-05 -7.44866154841E-01 +6.35662431787E-01
1.02000000000E+09 -6.26787655697E-01 +7.31451501238E-01 -2.65466447896E-05 +7.05089104021E-06 +2.41650474483E-05 +1.88739773945E-05 -7.41319328658E-01 +6.39171296166E-01
1.02500000000E+09 -6.24041521863E-01 +7.34051463275E-01 +1.25801941036E-05 +7.75909567349E-06 -7.88731148033E-06 -1.84806392701E-05 -7.38474207879E-01 +6.42951587527E-01
1.03000000000E+09 -6.21921875334E-01 +7.36271097822E-01 +7.13206972215E-06 -4.76397398328E-07 +4.39514821897E-05 -6.26059608620E-05 -7.35029221411E-01 +6.46820207140E-01
1.03500000000E+09 -6.18925272795E-01 +7.38666262212E-01 -1.87829199905E-05 +2.80745231803E-05 -2.89464687441E-05 +3.14192150083E-05 -7.31183078329E-01 +6.50763641934E-01
1.04000000000E+09 -6.14883429079E-01 +7.41383293001E-01 -2.24921338525E-05 -2.76809138545E-05 -4.90225889152E-05 +4.22271061023E-06 -7.27614652649E-01 +6.54235279060E-01
1.04500000000E+09 -6.09210473168E-01 +7.44883262735E-01 +5.53469603610E-06 +8.73553394896E-06 -2.96670752571E-05 +3.35161482121E-05 -7.24080534258E-01 +6.57999278324E-01
1.05000000000E+09 -6.02351393165E-01 +7.49201391669E-01 +3.04259572132E-05 -1.09255737182E-05 +2.99746056983E-05 +3.48516706753E-05 -7.20519669031E-01 +6.61350287304E-01
1.05500000000E+09 -5.94218695174E-01 +7.53782500037E-01 +6.37410853952E-06 -1.41876624699E-05 -2.34123246341E-05 -2.13684397029E-05 -7.17384599808E-01 +6.64931673260E-01
1.06000000000E+09 -5.85519297191E-01 +7.58771052637E-01 +2.93386564548E-07 +5.29309756412E-05 -1.32098066572E-05 +2.82517490439E-05 -7.14172957537E-01 +6.68822031414E-01
1.06500000000E+09 -5.77401128995E-01 +7.63956447719E-01 +3.16713651323E-05 +3.10120623956E-05 -5.38949030830E-06 +1.05635666663E-05 -7.10339804018E-01 +6.72495189081E-01
1.07000000000E+09 -5.70334451213E-01 +7.68393337398E-01 -2.10132673101E-06 +9.30589968420E-06 +1.40159576534E-05 +4.35557281642E-05 -7.06373679538E-01 +6.76109531454E-01
1.07500000000E+09 -5.64656034968E-01 +7.71994407499E-01 +3.37124573148E-05 -1.40733368011E-06 +4.91181841532E-05 +4.72629109344E-05 -7.02202330063E-01 +6.79892706981E-01
1.08000000000E+09 -5.60823048489E-01 +7.75084335098E-01 -3.84331283218E-05 -8.33276231333E-06 +6.08141854878E-05 +3.47902269156E-06 -6.98191223039E-01 +6.83700967024E-01
1.08500000000E+09 -5.58157434569E-01 +7.77294240631E-01 -2.06657503489E-05 -2.72125014410E-05 +1.00153889704E-05 +1.77226352361E-05 -6.93882721164E-01 +6.87586898558E-01
1.09000000000E+09 -5.56077285457E-01 +7.79101892580E-01 +2.10680148947E-05 -9.11641520217E-07 -1.94163539240E-05 +3.25561802862E-05 -6.90147465594E-01 +6.91458306900E-01
1.09500000000E+09 -5.54281856894E-01 +7.80755810628E-01 -1.70125996013E-05 +1.39611070179E-05 +2.03021757147E-05 +2.63030952223E-06 -6.86436930540E-01 +6.95284715765E-01
1.10000000000E+09 -5.51121657276E-01 +7.82676161594E-01 +8.80102042012E-06 +9.96865181225E-06 +2.89560996329E-05 +1.23603358162E-06 -6.82477957345E-01 +6.99219570956E-01
1.10500000000E+09 -5.46865588740E-01 +7.85252469412E-01 -1.20453903955E-05 +6.04046687618E-06 +3.25810011464E-05 -2.55805903290E-05 -6.78246697777E-01 +7.02746744681E-01
1.11000000000E+09 -5.41029125528E-01 +7.88428105087E-01 +2.42131810261E-05 -7.24317746348E-06 -1.49420708927E-05 +4.23587122411E-05 -6.73976853522E-01 +7.06096782878E-01
1.11500000000E+09 -5.33847938933E-01 +7.92269059420E-01 +3.28974337465E-05 -2.41549440663E-05 +1.34835701748E-05 -5.62852655755E-05 -6.69873478508E-01 +7.09681089493E-01
1.12000000000E+09 -5.26286424848E-01 +7.96165918136E-01 +1.58866371842E-05 +3.40805884249E-06 +2.84207283852E-05 -3.75118082403E-05 -6.65707933643E-01 +7.13274112393E-01
1.12500000000E+09 -5.18244199538E-01 +8.00303869914E-01 +7.18403495781E-06 -2.67741016564E-05 +5.69701134062E-05 +1.69967645959E-06 -6.61493091040E-01 +7.17242954507E-01
1.13000000000E+09 -5.11231126169E-01 +8.03930481789E-01 +1.53670816246E-05 -1.21168468096E-06 +2.54681373395E-05 -3.54948823215E-05 -6.57355394231E-01 +7.21006284393E-01
1.13500000000E+09 -5.04950272753E-01 +8.06832109823E-01 +2.67370181897E-05 +1.89446856794E-05 -6.61498835588E-06 -1.25465248279E-05 -6.52846366441E-01 +7.24849902109E-01
1.14000000000E+09 -4.99937440419E-01 +8.09294062177E-01 -8.42659693740E-06 -1.23711404529E-05 +4.95904795948E-05 -7.00710417722E-06 -6.48107172521E-01 +7.28308882159E-01
1.14500000000E+09 -4.95834681644E-01 +8.11025498728E-01 +2.03491046334E-05 -4.07278233773E-05 +6.26174273848E-05 -3.15108418765E-05 -6.43538730722E-01 +7.31699667191E-01
1.15000000000E+09 -4.91977692478E-01 +8.12307800761E-01 -6.74733657043E-08 +1.56551301984E-05 +3.74639798972E-05 -8.02353684987E-06 -6.38750347421E-01 +7.35491914726E-01
1.15500000000E+09 -4.88029249812E-01 +8.14092987655E-01 +1.51146508977E-05 -3.27917770605E-05 +4.22798217808E-07 -2.56378297849E-05 -6.33944690105E-01 +7.39413639703E-01
1.16000000000E+09 -4.83194654090E-01 +8.15965612583E-01 -1.07057072502E-05 +5.15020245616E-06 -1.56336293243E-05 +1.78155179243E-05 -6.29003901166E-01 +7.43244788383E-01
1.16500000000E+09 -4.77273017632E-01 +8.18586701492E-01 +2.48443520247E-05 -2.35052041815E-05 +4.61789392603E-05 -1.17929559729E-05 -6.23996803725E-01 +7.47059617512E-01
1.17000000000E+09 -4.70061832773E-01 +8.21729912568E-01 +6.02634183276E-05 +8.60862890873E-06 +1.09883993057E-05 -3.54054395432E-05 -6.18548632865E-01 +7.50271632853E-01
1.17500000000E+09 -4.61955266901E-01 +8.25128127314E-01 +1.03030416174E-05 -1.90344473432E-05 +3.31634134495E-05 +2.74622902008E-05 -6.12873125622E-01 +7.53714464731E-01
1.18000000000E+09 -4.53732523083E-01 +8.28777118277E-01 +2.19270620674E-05 -2.88349232256E-05 +7.08298362357E-05 -3.55813361847E-05 -6.07347381185E-01 +7.56859146788E-01
1.18500000000E+09 -4.45619889032E-01 +8.32123069857E-01 +5.28462761057E-05 -1.85985938978E-05 +4.93900391552E-05 -1.10586705079E-05 -6.01322774414E-01 +7.59919504769E-01
1.19000000000E+09 -4.38444196308E-01 +8.34731595454E-01 +2.15654844810E-05 -5.01056860237E-05 +2.57128099409E-05 -1.09095224217E-04 -5.94901613530E-01 +7.62524988648E-01
1.19500000000E+09 -4.32145697891E-01 +8.36913140031E-01 -1.85464830709E-05 -1.27874187602E-04 +4.12607551925E-05 -1.13619705249E-04 -5.88873265398E-01 +7.63787667628E-01
1.20000000000E+09 -4.27043514802E-01 +8.37625516737E-01 -2.45061029515E-05 -1.28529233684E-04 -8.23817115738E-05 -1.39049990555E-04 -5.84435232525E-01 +7.64100445732E-01
1.20500000000E+09 -4.22442527612E-01 +8.38873011098E-01 -1.11069748788E-04 -8.87999801157E-05 -1.57537620601E-04 -1.03107172880E-04 -5.82183498885E-01 +7.64788260274E-01
1.21000000000E+09 -4.17847898190E-01 +8.39841078383E-01 -1.38240602946E-04 -4.45340991362E-05 -8.51486482217E-05 -2.79748531725E-05 -5.80527808612E-01 +7.67805195876E-01
1.21500000000E+09 -4.11978116648E-01 +8.41295228324E-01 -7.32678821120E-05 -1.30132267141E-05 -1.34215675877E-04 +3.63104237628E-05 -5.77706027347E-01 +7.72392955200E-01
1.22000000000E+09 -4.04984662387E-01 +8.43119053777E-01 -5.11599581288E-05 +4.32540070433E-05 -6.76828344573E-05 +1.14011099527E-05 -5.73611864655E-01 +7.77667163442E-01
1.22500000000E+09 -3.96521354997E-01 +8.45697191273E-01 -4.08223409123E-05 +8.70914356920E-05 -1.52387364574E-05 +5.47697841111E-05 -5.68346635609E-01 +7.82841083756E-01
1.23000000000E+09 -3.87188393208E-01 +8.48685918984E-01 -1.06122724793E-05 +5.80127629281E-06 -4.09033852774E-05 -2.27675840507E-06 -5.62548997740E-01 +7.87541905305E-01
1.23500000000E+09 -3.77498302679E-01 +8.52276142411E-01 -3.39664507396E-05 -3.20086208907E-06 +4.14676091663E-05 +3.18835381935E-06 -5.56867267745E-01 +7.91979122564E-01
1.24000000000E+09 -3.67955111480E-01 +8.56029247725E-01 -4.04193521429E-05 -2.41238888473E-05 -3.86906908454E-05 -2.99193171092E-05 -5.50682006336E-01 +7.95790655996E-01
1.24500000000E+09 -3.59270593207E-01 +8.59844275302E-01 -6.29841054545E-05 -7.60436075621E-05 -5.11888232501E-05 +2.03013416973E-05 -5.44420733619E-01 +7.99658230921E-01
1.25000000000E+09 -3.51370238786E-01 +8.63078983443E-01 -8.27701490755E-05 +3.66658107357E-06 -6.13839696162E-05 -7.28180175323E-05 -5.37774556003E-01 +8.03918486309E-01
1.25500000000E+09 -3.44796254231E-01 +8.65224877416E-01 -2.59811789909E-05 +6.11533500097E-07 -5.72139528956E-05 -2.67457347091E-05 -5.30826229908E-01 +8.07855376076E-01
1.26000000000E+09 -3.38643055198E-01 +8.66498251084E-01 -5.87746092632E-05 -1.29517108870E-05 -2.79566198035E-05 -7.17963442531E-06 -5.24132950351E-01 +8.12298921735E-01
1.26500000000E+09 -3.32970544881E-01 +8.67302865316E-01 -5.95166567616E-05 +3.67864176326E-05 -6.32969353517E-05 +1.03253962207E-05 -5.17184936097E-01 +8.16077949371E-01
1.27000000000E+09 -3.26600072310E-01 +8.67760515809E-01 -4.91108714191E-05 -1.57721053248E-05 +1.22706066988E-05 +2.53876603909E-05 -5.10380417750E-01 +8.20015394137E-01
1.27500000000E+09 -3.18898310997E-01 +8.68347909127E-01 -6.01766162739E-05 +6.63699431313E-06 -5.92382686386E-05 -2.52544955901E-06 -5.03268997102E-01 +8.23522096168E-01
1.28000000000E+09 -3.09486737395E-01 +8.69370362598E-01 -9.13616526726E-05 -5.55455515082E-07 -9.15308474851E-05 +1.83674938076E-05 -4.96306697883E-01 +8.27105897165E-01
1.28500000000E+09 -2.98211928252E-01 +8.70937422682E-01 -4.10181473446E-05 +5.48017144644E-05 -7.43218678706E-05 +2.51896748902E-05 -4.88874366261E-01 +8.30661097778E-01
1.29000000000E+09 -2.86021270130E-01 +8.73097232653E-01 -6.01289271522E-05 +4.85482396321E-05 -2.90007624295E-05 +6.12017253700E-05 -4.81316671166E-01 +8.34466141338E-01
1.29500000000E+09 -2.73560201062E-01 +8.75994770084E-01 -3.68146798987E-05 -1.80068335750E-05 -7.40130161191E-05 +8.06385301312E-06 -4.73302198391E-01 +8.38058290589E-01
1.30000000000E+09 -2.61441521855E-01 +8.79485193559E-01 -7.59303937215E-05 +5.99464431940E-05 -3.28756250295E-05 +8.07509219815E-05 -4.65513965502E-01 +8.41596887393E-01
1.30500000000E+09 -2.50794593856E-01 +8.82894024817E-01 -5.14745442878E-05 +7.58274471916E-05 -6.74606431205E-05 +4.80684076336E-05 -4.57325070600E-01 +8.45233870510E-01
1.31000000000E+09 -2.41448963925E-01 +8.85563992174E-01 -7.04429752362E-05 +1.02315541867E-04 -2.96137273696E-05 +8.40038295352E-05 -4.48936126077E-01 +8.48577635523E-01
1.31500000000E+09 -2.34050973070E-01 +8.87339682031E-01 +4.74594290416E-06 +1.42006940452E-04 -9.01541029988E-05 +1.03963971411E-04 -4.40202808742E-01 +8.52123283332E-01
1.32000000000E+09 -2.28113006691E-01 +8.88010378019E-01 +2.10262981286E-05 +1.10339907150E-04 -3.32135506529E-05 +8.18350182246E-05 -4.30967024596E-01 +8.55432826493E-01
1.32500000000E+09 -2.22533054406E-01 +8.87887922645E-01 -6.68839256918E-06 +1.14125412113E-04 -1.76515910980E-05 +1.08110542854E-04 -4.21414788955E-01 +8.59004420342E-01
1.33000000000E+09 -2.16130758618E-01 +8.87505017228E-01 -4.09940781369E-07 +1.12860385751E-04 -4.16642695306E-05 +1.35593882660E-04 -4.11577219502E-01 +8.62264243643E-01
1.33500000000E+09 -2.07915687345E-01 +8.86609585808E-01 +3.96825336292E-05 +9.79688602304E-05 +8.76741710960E-06 +7.65952858102E-05 -4.01625055032E-01 +8.65539740914E-01
1.34000000000E+09 -1.97249926295E-01 +8.86182291757E-01 -1.83756881381E-05 +8.39725133308E-05 +3.65023714967E-05 +6.68675954674E-05 -3.91309206041E-01 +8.68950110125E-01
1.34500000000E+09 -1.84207411265E-01 +8.85846062617E-01 +1.77246530946E-05 +7.91654419263E-05 +2.68995662543E-05 +9.52370449605E-05 -3.80392770688E-01 +8.72123926571E-01
1.35000000000E+09 -1.69053250912E-01 +8.85977590953E-01 +1.25231516269E-05 +1.38101874183E-04 -1.44864639072E-05 +1.73273945563E-04 -3.69332778420E-01 +8.75185624567E-01
1.35500000000E+09 -1.52549636876E-01 +8.86750587861E-01 +4.99222880964E-05 +1.56855087846E-04 +2.05341187140E-06 +1.18963477475E-04 -3.57581192002E-01 +8.78080546413E-01
1.36000000000E+09 -1.36046509477E-01 +8.87421126210E-01 +4.82762301395E-05 +1.82415516770E-04 +5.56665504466E-06 +1.71766430087E-04 -3.45682740496E-01 +8.80772543151E-01
1.36500000000E+09 -1.20243523468E-01 +8.88248378651E-01 +7.70208157182E-05 +2.18541057946E-04 +5.71256489062E-05 +2.08268527141E-04 -3.33545426757E-01 +8.83263303311E-01
1.37000000000E+09 -1.06207630944E-01 +8.88184477930E-01 +1.49414423431E-04 +2.21891391024E-04 +1.26401700041E-04 +2.48662736328E-04 -3.20517045861E-01 +8.85601034717E-01
1.37500000000E+09 -9.42641101425E-02 +8.87944497893E-01 +2.47419182413E-04 +1.38251085947E-04 +2.08017132344E-04 +1.65142651036E-04 -3.06892496466E-01 +8.87981402974E-01
1.38000000000E+09 -8.34923204941E-02 +8.86601874770E-01 +2.18290642650E-04 +9.04508353621E-05 +1.83846409734E-04 +1.02233183250E-04 -2.92349854332E-01 +8.89749495046E-01
1.38500000000E+09 -7.28309777114E-02 +8.84793766753E-01 +2.01599714221E-04 +1.25187103395E-04 +1.60166511650E-04 +1.56634896871E-04 -2.76858097495E-01 +8.91706565191E-01
1.39000000000E+09 -6.13976192713E-02 +8.82074015186E-01 +2.37436966149E-04 +1.60375617863E-04 +2.45233265293E-04 +2.02680673886E-04 -2.61137513264E-01 +8.93193919727E-01
1.39500000000E+09 -4.78252461036E-02 +8.78445280305E-01 +2.79815859107E-04 +1.63420557490E-04 +3.64887134072E-04 +1.75148753110E-04 -2.44259370983E-01 +8.93865491324E-01
1.40000000000E+09 -3.16769687220E-02 +8.74044036597E-01 +4.26968387135E-04 +1.13949611158E-04 +4.89748374194E-04 +8.93860630814E-05 -2.26616685551E-01 +8.94627108465E-01
1.40500000000E+09 -1.35580758220E-02 +8.68963665871E-01 +5.35992427344E-04 -5.63431667123E-06 +5.56552132714E-04 -3.53308513855E-05 -2.07804530473E-01 +8.94234383424E-01
1.41000000000E+09 +6.99748421979E-03 +8.63754106398E-01 +5.03264932432E-04 -2.41152618057E-04 +4.75872426457E-04 -1.77349637809E-04 -1.87900702184E-01 +8.93475575516E-01
1.41500000000E+09 +2.87636228925E-02 +8.58012539866E-01 +4.50269413640E-04 -2.16398792124E-04 +4.35622458983E-04 -2.04961010758E-04 -1.66404850285E-01 +8.92010975370E-01
1.42000000000E+09 +5.15394232752E-02 +8.52183952622E-01 +4.32759016914E-04 -3.81081997133E-04 +4.66462060490E-04 -3.79579901487E-04 -1.43646050503E-01 +8.89396359622E-01
1.42500000000E+09 +7.40859708665E-02 +8.45005211425E-01 +2.49508081601E-04 -3.93978033750E-04 +2.50314514275E-04 -4.53550267768E-04 -1.20122805704E-01 +8.86062723673E-01
1.43000000000E+09 +9.55795255820E-02 +8.36296744465E-01 +2.51551472180E-04 -3.63338139737E-04 +2.61368017373E-04 -4.16225626828E-04 -9.51552578874E-02 +8.81532201256E-01
1.43500000000E+09 +1.16138971757E-01 +8.25913378722E-01 +3.40538751168E-04 -4.46912967419E-04 +3.46587601601E-04 -5.07243265729E-04 -6.88194962012E-02 +8.75198087042E-01
1.44000000000E+09 +1.36354354461E-01 +8.13829921917E-01 +3.96963761280E-04 -6.54851188124E-04 +2.69184225943E-04 -6.43202372692E-04 -4.07962088604E-02 +8.66752228634E-01
1.44500000000E+09 +1.57652000433E-01 +7.99576190154E-01 +1.05296170160E-04 -8.72192983504E-04 +1.47551449401E-04 -8.24601033399E-04 -1.06876305043E-02 +8.55569405687E-01
1.45000000000E+09 +1.80843501346E-01 +7.81993341647E-01 -2.05067331896E-04 -7.82050640214E-04 -2.03968757108E-04 -8.15694723138E-04 +2.12309034378E-02 +8.41377586009E-01
1.45500000000E+09 +2.05824151761E-01 +7.61148207985E-01 -3.13900184873E-04 -6.58334532549E-04 -3.72676294654E-04 -6.68332855020E-04 +5.46728311937E-02 +8.23965454788E-01
1.46000000000E+09 +2.33619927384E-01 +7.36907167029E-01 -3.88875910246E-04 -5.67768093562E-04 -4.82657430101E-04 -5.40174086470E-04 +8.95536185831E-02 +8.02761901822E-01
1.46500000000E+09 +2.63814503779E-01 +7.08454619066E-01 -3.62851192091E-04 -2.77968279795E-04 -3.50546612850E-04 -2.43167447047E-04 +1.26091089882E-01 +7.76395048647E-01
1.47000000000E+09 +2.94909004965E-01 +6.75531154918E-01 -3.99576454266E-07 -4.60196618770E-04 -8.59149549264E-06 -4.44095974330E-04 +1.63782989688E-01 +7.43560116194E-01
1.47500000000E+09 +3.25949789267E-01 +6.37332821066E-01 -3.12495562502E-04 -8.83015427378E-04 -2.67990276686E-04 -8.80644069049E-04 +2.01897698300E-01 +7.03101892149E-01
1.48000000000E+09 +3.54106689937E-01 +5.93195837449E-01 -7.97983222272E-04 -8.03880260608E-04 -7.70022644262E-04 -8.63106621053E-04 +2.39455620709E-01 +6.53870450108E-01
1.48500000000E+09 +3.78339521720E-01 +5.43195010200E-01 -8.50550980635E-04 -6.64625284259E-04 -8.98815482308E-04 -7.12656286717E-04 +2.74539140176E-01 +5.95003523932E-01
1.49000000000E+09 +3.97660193194E-01 +4.85576810481E-01 -1.28308184912E-03 -5.15551977407E-04 -1.31007401022E-03 -4.97750342429E-04 +3.03891874465E-01 +5.25696506124E-01
1.49500000000E+09 +4.09867912586E-01 +4.19999425342E-01 -1.54524633704E-03 -2.64805298783E-04 -1.53247310512E-03 -1.87069784597E-04 +3.24847456800E-01 +4.45555095743E-01
1.50000000000E+09 +4.13524462707E-01 +3.44287479911E-01 -1.64924672591E-03 +3.87862819451E-04 -1.56126440670E-03 +3.73237093785E-04 +3.32255516948E-01 +3.54162805812E-01
1.50500000000E+09 +4.04043740004E-01 +2.59189875071E-01 -1.21555647703E-03 +8.74887610755E-04 -1.22189336033E-03 +8.25132033215E-04 +3.20822614215E-01 +2.54778690470E-01
1.51000000000E+09 +3.78737051425E-01 +1.68628471541E-01 -9.18679506109E-04 +8.16231721664E-04 -9.27104633900E-04 +7.32608445201E-04 +2.88230705865E-01 +1.53584563907E-01
1.51500000000E+09 +3.36001573265E-01 +7.56012926231E-02 -1.25396064130E-03 +8.75359794463E-04 -1.25237470623E-03 +8.28539078605E-04 +2.34587842279E-01 +5.46152651807E-02
1.52000000000E+09 +2.71447166299E-01 -1.22397056517E-02 -1.20495054838E-03 +1.34471936494E-03 -1.27886611118E-03 +1.33980185344E-03 +1.57282254652E-01 -3.45917886369E-02
1.52500000000E+09 +1.89437964288E-01 -8.59557496152E-02 -6.58995667065E-04 +2.12958484048E-03 -6.52850936836E-04 +2.15807773837E-03 +5.99230783924E-02 -1.03943597025E-01
1.53000000000E+09 +9.10059808880E-02 -1.41364835881E-01 -1.40428258855E-04 +2.23707623646E-03 -1.18514815923E-04 +2.26278231102E-03 -4.76086146660E-02 -1.49646828717E-01
1.53500000000E+09 -1.77975651208E-02 -1.72340039627E-01 +1.23877418051E-03 +2.14834474938E-03 +1.31346709139E-03 +2.16957853303E-03 -1.60652828278E-01 -1.71811232000E-01
1.54000000000E+09 -1.30733606008E-01 -1.75303683399E-01 +1.35809856767E-03 +1.29568626574E-03 +1.29252513548E-03 +1.26117972851E-03 -2.72530599289E-01 -1.68412843946E-01
1.54500000000E+09 -2.38250928591E-01 -1.53064634477E-01 +1.38753835595E-03 +8.48777188755E-04 +1.29644683347E-03 +8.51860464604E-04 -3.72667996780E-01 -1.44314706465E-01
1.55000000000E+09 -3.35152277094E-01 -1.11579543686E-01 +1.30939448380E-03 +4.91686774847E-04 +1.33856124771E-03 +5.56858822134E-04 -4.59873438700E-01 -1.05802732886E-01
1.55500000000E+09 -4.17315685911E-01 -5.64881789826E-02 +1.27249121687E-03 +3.32056911862E-04 +1.17888266439E-03 +4.05264044929E-04 -5.31548559704E-01 -5.67794940076E-02
1.56000000000E+09 -4.83720575485E-01 +3.99909504506E-03 +1.47640665715E-03 +4.29293330538E-04 +1.52626918578E-03 +5.06442647821E-04 -5.88570041154E-01 -2.73540171793E-03
1.56500000000E+09 -5.35783087853E-01 +6.57369312765E-02 +1.76447846108E-03 -1.39954623972E-04 +1.85051103285E-03 -1.31373062806E-04 -6.33145553582E-01 +5.36770476582E-02
1.57000000000E+09 -5.75674033509E-01 +1.25491016658E-01 +1.76989742150E-03 -1.02345211573E-03 +1.89647572914E-03 -1.12994587944E-03 -6.66554032932E-01 +1.09149429182E-01
