# Hz S RI R 50
! CMT, C1220, 16058040, 17.2.0/1
! Date: 14/08/2018 12:40:43
! Data: Format (Calibration Info)
! Freq                      S11: Re/Im (F2)                       S21: Re/Im (F2)                       S12: Re/Im (F2)                       S22: Re/Im (F2)            
1.00000000000E+09 -6.47123660079E-01 +7.13765496416E-01 +1.62689144847E-05 -2.09020408815E-05 -1.10854097213E-05 +2.73968286684E-05 -6.70541668013E-01 +5.40933517625E-01
1.00500000000E+09 -6.40131932234E-01 +7.18707958325E-01 +7.73270178460E-06 +1.10680972682E-05 +4.32252047954E-05 -8.01793549361E-06 -6.67510653929E-01 +5.44582661797E-01
1.01000000000E+09 -6.34060782457E-01 +7.23208416935E-01 +2.42901608490E-05 -2.11798124155E-05 +2.51732472851E-06 -1.01610801853E-05 -6.64427765208E-01 +5.47879027700E-01
1.01500000000E+09 -6.29417438904E-01 +7.27186010288E-01 -1.05768982383E-05 -3.59119162916E-05 -4.83526248549E-05 +4.29732092631E-05 -6.61852823548E-01 +5.51094473296E-01
1.02000000000E+09 -6.26001239378E-01 +7.30634918238E-01 -5.62829379094E-06 -2.94289331270E-05 -6.74479202650E-06 -2.35290426730E-05 -6.59211794527E-01 +5.54104801189E-01
1.02500000000E+09 -6.23271577042E-01 +7.33575315264E-01 -1.37990776396E-05 +2.26134082654E-05 -7.26171753089E-06 +3.66837628705E-05 -6.56950274335E-01 +5.57393742348E-01
1.03000000000E+09 -6.21294215600E-01 +7.36353649018E-01 +2.16393658972E-05 +6.10057413655E-05 -3.61695614608E-06 +1.88036143762E-05 -6.54158667636E-01 +5.60704796514E-01
1.03500000000E+09 -6.18622549116E-01 +7.38905206792E-01 -2.55166108089E-05 +1.40112287183E-06 +1.93136229275E-05 +4.85184765372E-06 -6.51258393400E-01 +5.64393311295E-01
1.04000000000E+09 -6.14947620101E-01 +7.41829288772E-01 +8.92993370694E-06 -9.32212780297E-06 -1.91288770631E-05 -1.52168499792E-05 -6.48090952878E-01 +5.67834546209E-01
1.04500000000E+09 -6.09962971456E-01 +7.45214366389E-01 -8.35406385619E-06 +3.48391371885E-06 -3.39028249266E-05 +5.89785643485E-05 -6.45341223048E-01 +5.71114408832E-01
1.05000000000E+09 -6.03588961883E-01 +7.49237930069E-01 -1.57477993891E-05 -1.40140466905E-05 +9.92596443497E-06 +6.51168378269E-05 -6.42574587284E-01 +5.74216048680E-01
1.05500000000E+09 -5.96147453785E-01 +7.53403214010E-01 -3.92098224357E-05 +1.19731989294E-04 -5.93834658742E-06 +1.20004361380E-06 -6.39960745243E-01 +5.77645055015E-01
1.06000000000E+09 -5.87990234270E-01 +7.58225198255E-01 +6.44481594926E-07 +2.47606416885E-05 +4.04390595654E-05 +6.10408945111E-05 -6.37194512724E-01 +5.81259032632E-01
1.06500000000E+09 -5.80203184422E-01 +7.62927751488E-01 +2.12555971245E-05 +1.81939805396E-05 +3.28552839035E-05 -3.07915784529E-05 -6.34181216273E-01 +5.84886050731E-01
1.07000000000E+09 -5.72996107164E-01 +7.67193683677E-01 +1.65347071516E-05 +3.73662326298E-05 +1.38150733829E-06 +6.39348713061E-05 -6.30752010472E-01 +5.88295647607E-01
1.07500000000E+09 -5.67077506116E-01 +7.71065589656E-01 +2.60343138922E-05 +4.50469607002E-05 +2.59931016314E-05 +1.48562525364E-05 -6.27104419411E-01 +5.91750678215E-01
1.08000000000E+09 -5.62645220933E-01 +7.74325542916E-01 +2.34072835576E-06 -4.42377869622E-06 -2.57592807253E-05 +4.10794312722E-06 -6.23849020499E-01 +5.95404029355E-01
1.08500000000E+09 -5.59476862742E-01 +7.77034888214E-01 -4.08267133411E-06 -4.23247177026E-06 -6.19089806241E-07 -1.24840508691E-06 -6.20769161251E-01 +5.98597521154E-01
1.09000000000E+09 -5.56794599706E-01 +7.79218332344E-01 -5.32849374542E-06 -1.16523774755E-05 +5.86331783567E-05 +2.50612457324E-05 -6.17797036531E-01 +6.02298350721E-01
1.09500000000E+09 -5.54469504448E-01 +7.81250010700E-01 +2.27174948595E-05 +3.83211517139E-06 +5.56630491249E-05 +5.59860469742E-05 -6.14818007785E-01 +6.05915384290E-01
1.10000000000E+09 -5.51124131800E-01 +7.83507233410E-01 +1.13413635081E-05 +2.27738997997E-05 +4.07709696341E-05 +2.90405245425E-05 -6.11668745697E-01 +6.09386696130E-01
1.10500000000E+09 -5.47038490692E-01 +7.86208184744E-01 +1.69176503788E-05 +8.11568839869E-06 -1.21260355836E-05 -9.81975456973E-06 -6.08187498420E-01 +6.12754881250E-01
1.11000000000E+09 -5.41575474594E-01 +7.89411313004E-01 -9.58535245845E-06 +2.95553899316E-05 -2.08908686283E-05 -3.39727769215E-05 -6.04618081385E-01 +6.15993340020E-01
1.11500000000E+09 -5.34934641019E-01 +7.93333849295E-01 +1.93214916998E-05 +2.94384830778E-05 +1.14292322621E-05 +1.08490688699E-05 -6.01305148320E-01 +6.19187461337E-01
1.12000000000E+09 -5.27655981923E-01 +7.97126602846E-01 +4.59066307287E-05 +1.82056100404E-05 +3.83717942197E-05 +2.29904206765E-05 -5.98099798269E-01 +6.22691319451E-01
1.12500000000E+09 -5.20159416608E-01 +8.01017786374E-01 +4.59634510242E-05 +4.14149372265E-05 +4.16911994557E-05 +7.83917139431E-06 -5.94509952190E-01 +6.26626840616E-01
1.13000000000E+09 -5.13247563521E-01 +8.04584708289E-01 +9.85898803717E-06 +1.78281559517E-05 +3.96280380332E-05 +2.12307295605E-05 -5.90932730981E-01 +6.30328288022E-01
1.13500000000E+09 -5.06807143683E-01 +8.07364065275E-01 +8.38855615484E-06 -1.74474158438E-05 +5.32942648034E-05 +8.67326235500E-06 -5.87163153714E-01 +6.33995284306E-01
1.14000000000E+09 -5.01357731918E-01 +8.09753587784E-01 +1.01162111348E-04 -1.82395600425E-05 +1.25806548855E-05 -3.16761587182E-05 -5.82948165607E-01 +6.37304148026E-01
1.14500000000E+09 -4.96960660706E-01 +8.11418035466E-01 +6.01740454309E-05 +3.28699386692E-06 +4.50647688174E-05 -4.83417087239E-05 -5.79001976195E-01 +6.40831069335E-01
1.15000000000E+09 -4.92896044265E-01 +8.13109458727E-01 +1.98187193744E-05 -2.83351676775E-05 +9.46719744042E-05 -3.07334976124E-05 -5.75072381758E-01 +6.44437862120E-01
1.15500000000E+09 -4.88911732650E-01 +8.14748780989E-01 +7.02666233747E-05 +1.09222493532E-06 +6.51262840748E-05 -1.95762006148E-05 -5.71014629217E-01 +6.48100414621E-01
1.16000000000E+09 -4.84198896226E-01 +8.16713440047E-01 +4.17064455234E-05 -1.49853969287E-06 +4.65764422635E-05 -1.98181818680E-05 -5.67041536705E-01 +6.51894894012E-01
1.16500000000E+09 -4.78621455163E-01 +8.19494512048E-01 +3.05755738877E-05 -2.76921273551E-06 +8.56471724902E-05 -3.39999922545E-05 -5.62844285374E-01 +6.55383025386E-01
1.17000000000E+09 -4.72119891917E-01 +8.22656370860E-01 +2.72727088052E-05 -4.43475550560E-05 +1.18633053930E-04 +1.30855673699E-05 -5.58344350351E-01 +6.58408426185E-01
1.17500000000E+09 -4.64941448920E-01 +8.25888999945E-01 +2.27289571909E-05 -2.93675121893E-05 +4.42569745396E-05 -3.31105640109E-05 -5.53607286822E-01 +6.61682418318E-01
1.18000000000E+09 -4.57315275094E-01 +8.29681079489E-01 +5.78451425790E-05 -4.03316783716E-05 +1.37394456323E-05 -6.85596560959E-05 -5.48941560587E-01 +6.64658892743E-01
1.18500000000E+09 -4.49874371900E-01 +8.32855893324E-01 +8.57645412325E-05 -2.32275466534E-05 +7.76962276172E-05 -5.95562758662E-05 -5.43930365533E-01 +6.67815163789E-01
1.19000000000E+09 -4.42865515310E-01 +8.35663558285E-01 +6.48838055787E-05 -5.28989806211E-05 +8.34585082294E-05 -1.18968521867E-04 -5.38554102162E-01 +6.70485874034E-01
1.19500000000E+09 -4.36411220666E-01 +8.37714794931E-01 +4.78167281244E-05 -1.05856772010E-04 +6.36129137595E-05 -9.89740780414E-05 -5.33614151968E-01 +6.71989855766E-01
1.20000000000E+09 -4.30949709863E-01 +8.38665883949E-01 +4.69760807957E-05 -1.27826205260E-04 +2.72198040758E-05 -2.01016849746E-04 -5.29321562024E-01 +6.72400244925E-01
1.20500000000E+09 -4.26097371775E-01 +8.39740684351E-01 -3.36967681423E-05 -1.64487281135E-04 -9.05881358287E-05 -1.65126324950E-04 -5.27459989838E-01 +6.73235237143E-01
1.21000000000E+09 -4.20784392946E-01 +8.40957552248E-01 -1.38780545157E-04 -5.47563947188E-05 -1.02291726907E-04 -2.79459237678E-05 -5.25885117363E-01 +6.76069169780E-01
1.21500000000E+09 -4.14575686151E-01 +8.42515956276E-01 -2.06406488412E-05 -2.19410873226E-05 -5.84035297370E-05 -7.11470552279E-05 -5.23768860056E-01 +6.80322669835E-01
1.22000000000E+09 -4.07123566432E-01 +8.44553325863E-01 -4.36127392324E-05 -3.70210117927E-05 -3.63143916968E-05 -2.12565434539E-05 -5.20244591471E-01 +6.85376700910E-01
1.22500000000E+09 -3.98566564185E-01 +8.47266498335E-01 +3.73152417189E-06 -2.56446263263E-05 +2.25097657502E-06 -6.71282614918E-05 -5.15967556683E-01 +6.90252193267E-01
1.23000000000E+09 -3.89324133317E-01 +8.50389672253E-01 -8.44089589981E-06 -3.67765475689E-05 -1.49396487902E-05 -8.24755734901E-05 -5.11370200574E-01 +6.94760383942E-01
1.23500000000E+09 -3.79870735900E-01 +8.54149513511E-01 -1.08635390098E-05 -4.23913657259E-05 -2.76482916821E-05 -9.59092723527E-06 -5.06452832723E-01 +6.98836615401E-01
1.24000000000E+09 -3.70669869940E-01 +8.57955702588E-01 -4.01456500161E-05 -5.57038006618E-05 -1.08275610143E-05 -6.39772397220E-05 -5.01473001398E-01 +7.02600651814E-01
1.24500000000E+09 -3.62129308955E-01 +8.62252272656E-01 +2.18143505241E-06 -9.65335003512E-05 -6.73532000352E-06 -4.91843649687E-05 -4.96311240986E-01 +7.06334367871E-01
1.25000000000E+09 -3.54259467543E-01 +8.65575293121E-01 -2.36070997453E-05 -7.26826432205E-05 -4.26949418145E-05 -7.41249136382E-05 -4.90859978715E-01 +7.10500064164E-01
1.25500000000E+09 -3.47319159221E-01 +8.67995229175E-01 -1.77235111350E-05 -9.67705758030E-05 -5.00870208035E-05 -9.16528793373E-05 -4.85210236311E-01 +7.14513606750E-01
1.26000000000E+09 -3.40803425069E-01 +8.69697916738E-01 -7.74693893448E-05 -6.50993894034E-05 -3.41524776876E-05 -5.52072281127E-05 -4.79698682015E-01 +7.18897352393E-01
1.26500000000E+09 -3.34453808860E-01 +8.70702673038E-01 -6.44348469728E-05 -7.95042321024E-05 -9.73533632188E-05 -9.56999136005E-05 -4.73740863216E-01 +7.22789611452E-01
1.27000000000E+09 -3.27773983490E-01 +8.71620548398E-01 -5.80682561682E-05 -8.16753801573E-05 -5.17871729945E-05 -1.26974244060E-04 -4.68015978179E-01 +7.26835995362E-01
1.27500000000E+09 -3.20013700658E-01 +8.72579310910E-01 -1.05349965477E-04 -8.13663445385E-05 -1.34098811587E-04 -7.39091056788E-05 -4.61815449235E-01 +7.30755205621E-01
1.28000000000E+09 -3.10728479687E-01 +8.74085440630E-01 -9.26240762478E-05 -9.55648449001E-05 -1.82261275412E-04 -6.86112609242E-05 -4.55727237429E-01 +7.34420858643E-01
1.28500000000E+09 -2.99879684438E-01 +8.75858847937E-01 -1.24340741803E-04 -4.01390518915E-05 -1.19727386970E-04 -3.82831063474E-05 -4.49189153716E-01 +7.38517303224E-01
1.29000000000E+09 -2.88462569873E-01 +8.78390731209E-01 -1.49884366179E-04 -5.94764159945E-05 -1.27560358081E-04 -3.71041374707E-05 -4.42734281276E-01 +7.42294874787E-01
1.29500000000E+09 -2.76865090629E-01 +8.81457773185E-01 -1.44388950463E-04 -5.60104083325E-05 -1.56695947448E-04 +1.41545559283E-05 -4.35936504706E-01 +7.46205012492E-01
1.30000000000E+09 -2.65783320194E-01 +8.85169208595E-01 -1.25171458196E-04 -2.07695097271E-05 -1.18703217689E-04 -3.19321938879E-05 -4.28984991513E-01 +7.50070838548E-01
1.30500000000E+09 -2.55547094059E-01 +8.88581616644E-01 -1.69253146349E-04 -1.59437143990E-05 -1.54668145552E-04 -3.86075755284E-05 -4.22020830542E-01 +7.53791773312E-01
1.31000000000E+09 -2.46362327616E-01 +8.91185148236E-01 -2.14185852832E-04 +2.24562718625E-05 -1.84651000078E-04 +4.59169994336E-06 -4.14663905334E-01 +7.57421565056E-01
1.31500000000E+09 -2.38865785942E-01 +8.92877390245E-01 -2.10724707982E-04 +7.27929098854E-05 -2.15634373455E-04 +2.71752474773E-05 -4.06967601792E-01 +7.61037897091E-01
1.32000000000E+09 -2.32445571058E-01 +8.93652105100E-01 -2.30258615016E-04 +1.30529511036E-04 -2.59209758743E-04 +1.03833321940E-04 -3.98942970112E-01 +7.64811511914E-01
1.32500000000E+09 -2.26109445139E-01 +8.93688352084E-01 -2.14679278773E-04 +7.97942689664E-05 -2.69639073497E-04 +1.15107620484E-04 -3.90619954896E-01 +7.68471976654E-01
1.33000000000E+09 -2.18613219820E-01 +8.93480454032E-01 -1.98102884012E-04 +9.51827190733E-05 -2.14994845844E-04 +1.41586249679E-04 -3.82373114799E-01 +7.71991362782E-01
1.33500000000E+09 -2.09540951955E-01 +8.93012971087E-01 -2.00230870889E-04 +1.34465549742E-04 -1.54679385297E-04 +1.00921414249E-04 -3.73721740875E-01 +7.75653550587E-01
1.34000000000E+09 -1.98051350726E-01 +8.92695894935E-01 -2.18955377201E-04 +1.65384386385E-04 -1.98555706343E-04 +9.08272950241E-05 -3.64895885138E-01 +7.79353540782E-01
1.34500000000E+09 -1.84421959764E-01 +8.92714839169E-01 -2.21252982680E-04 +2.12807508778E-04 -2.12774033809E-04 +1.78395694095E-04 -3.55143815239E-01 +7.83091415635E-01
1.35000000000E+09 -1.69205805866E-01 +8.93237584913E-01 -2.08653262250E-04 +2.45691186446E-04 -2.38092476645E-04 +2.40007851614E-04 -3.45308639465E-01 +7.86816264725E-01
1.35500000000E+09 -1.52897563634E-01 +8.94142569652E-01 -2.26863164464E-04 +2.69369899699E-04 -2.47961356730E-04 +3.18419864049E-04 -3.34798702503E-01 +7.90314463382E-01
1.36000000000E+09 -1.36553632449E-01 +8.95027666479E-01 -1.71273844428E-04 +2.88003585361E-04 -2.22253056709E-04 +3.10129724876E-04 -3.24126391113E-01 +7.93833609155E-01
1.36500000000E+09 -1.20922924464E-01 +8.95656088932E-01 -1.84553428670E-04 +4.03883639863E-04 -1.59963800101E-04 +4.04339565132E-04 -3.13309508497E-01 +7.97002035555E-01
1.37000000000E+09 -1.06857691344E-01 +8.95503111946E-01 -9.72385209051E-05 +4.69537691157E-04 -1.27055867293E-04 +4.30510430871E-04 -3.01936777842E-01 +8.00095729828E-01
1.37500000000E+09 -9.46581758741E-02 +8.94898805862E-01 -3.90532658224E-05 +4.87069699506E-04 -1.16575272199E-05 +4.02311032342E-04 -2.89503283657E-01 +8.03081801374E-01
1.38000000000E+09 -8.32275528917E-02 +8.93687036040E-01 +4.95289252426E-05 +4.66016717254E-04 -5.52016838746E-05 +4.85682714157E-04 -2.76412596872E-01 +8.06120828244E-01
1.38500000000E+09 -7.15533701641E-02 +8.91820308786E-01 +7.17942430196E-05 +4.39416649726E-04 -1.21404678210E-05 +5.03810365021E-04 -2.62488855049E-01 +8.09139110007E-01
1.39000000000E+09 -5.91237040389E-02 +8.89269524759E-01 +5.88382333712E-05 +4.77276029343E-04 +6.71158107802E-05 +5.61059159086E-04 -2.48079220493E-01 +8.11715244364E-01
1.39500000000E+09 -4.44835566103E-02 +8.86148893297E-01 +1.11215943501E-04 +5.01436596496E-04 +1.62761516545E-04 +5.49100747204E-04 -2.32958535524E-01 +8.13791757629E-01
1.40000000000E+09 -2.73975381061E-02 +8.82141906485E-01 +6.26307368953E-05 +5.80752622901E-04 +1.41967601886E-04 +6.32096850534E-04 -2.16949652795E-01 +8.15566870272E-01
1.40500000000E+09 -8.38684921862E-03 +8.77632668167E-01 +2.65908465211E-04 +7.34847701495E-04 +2.69979830286E-04 +6.45141951968E-04 -2.00109591834E-01 +8.17009674777E-01
1.41000000000E+09 +1.24940772981E-02 +8.72729910170E-01 +3.96637644858E-04 +6.89056928032E-04 +3.92395624677E-04 +7.29210809522E-04 -1.81678206706E-01 +8.17903603429E-01
1.41500000000E+09 +3.45249439187E-02 +8.67304655466E-01 +4.73972076543E-04 +7.34569315215E-04 +5.07689235191E-04 +7.47262194579E-04 -1.61660701414E-01 +8.18189520976E-01
1.42000000000E+09 +5.70457321087E-02 +8.61020388540E-01 +6.79497615531E-04 +6.80935494505E-04 +7.61243901567E-04 +7.66853401425E-04 -1.40207052411E-01 +8.17867690300E-01
1.42500000000E+09 +7.87528076129E-02 +8.53501471023E-01 +7.84779586826E-04 +5.86450080307E-04 +8.89109051170E-04 +6.31127243855E-04 -1.17879598832E-01 +8.16425927326E-01
1.43000000000E+09 +9.97665375550E-02 +8.44570743182E-01 +8.84491522206E-04 +5.42171506790E-04 +9.77443773223E-04 +5.41360174176E-04 -9.43699479553E-02 +8.14173969439E-01
1.43500000000E+09 +1.20219914264E-01 +8.33916909059E-01 +1.00317134017E-03 +6.23752346614E-04 +1.14378574896E-03 +5.36656757746E-04 -6.93874356772E-02 +8.10215617694E-01
1.44000000000E+09 +1.40841238345E-01 +8.21448768798E-01 +1.44194084855E-03 +5.22851890056E-04 +1.50698243558E-03 +4.36434549446E-04 -4.24433662753E-02 +8.04604829660E-01
1.44500000000E+09 +1.63326445153E-01 +8.06215241297E-01 +1.68061137534E-03 +4.32183648715E-05 +1.71486781545E-03 -4.25296827778E-05 -1.30070510386E-02 +7.96589910557E-01
1.45000000000E+09 +1.87933497656E-01 +7.87568508673E-01 +1.60747787363E-03 -2.07108376586E-04 +1.64001480073E-03 -3.53261416767E-04 +1.83220325748E-02 +7.85441257821E-01
1.45500000000E+09 +2.14734230563E-01 +7.65332796172E-01 +1.69558640236E-03 -3.52026743045E-04 +1.68236260314E-03 -4.85876528757E-04 +5.14722651195E-02 +7.71536808170E-01
1.46000000000E+09 +2.44547663203E-01 +7.39287582624E-01 +1.90447730934E-03 -5.54456841337E-04 +1.75507623206E-03 -7.00135180198E-04 +8.61153313698E-02 +7.53418969193E-01
1.46500000000E+09 +2.75713778110E-01 +7.08589212139E-01 +2.11471832976E-03 -9.27545873865E-04 +1.92401492046E-03 -9.85831375937E-04 +1.22460222643E-01 +7.30882533764E-01
1.47000000000E+09 +3.07855595113E-01 +6.73348996012E-01 +2.22560056255E-03 -1.56817297682E-03 +2.04215896751E-03 -1.45423687848E-03 +1.60236103553E-01 +7.01162125828E-01
1.47500000000E+09 +3.39115122948E-01 +6.32297410162E-01 +2.15519846057E-03 -2.49159846177E-03 +2.17172831118E-03 -2.26586492310E-03 +1.98392734637E-01 +6.64260419393E-01
1.48000000000E+09 +3.67713731019E-01 +5.84732786197E-01 +1.37894607191E-03 -3.14772539569E-03 +1.48986597968E-03 -3.08309355001E-03 +2.36272248653E-01 +6.18994456864E-01
1.48500000000E+09 +3.90749758570E-01 +5.29922472383E-01 +9.45484714275E-04 -3.37085672586E-03 +8.79986059207E-04 -3.51614263086E-03 +2.72415131304E-01 +5.64461491236E-01
1.49000000000E+09 +4.07680249054E-01 +4.67880295760E-01 +3.51809896178E-04 -4.07434153527E-03 +2.17558318698E-04 -4.05861804935E-03 +3.03517216804E-01 +4.98537355480E-01
1.49500000000E+09 +4.15642515973E-01 +3.97921786571E-01 -7.87551551806E-04 -4.55889395680E-03 -8.98243086744E-04 -4.37191320175E-03 +3.24127847033E-01 +4.22459419181E-01
1.50000000000E+09 +4.14624806092E-01 +3.19705642591E-01 -2.28158605822E-03 -4.40475629194E-03 -2.15327759413E-03 -4.20230089345E-03 +3.33617993775E-01 +3.37532062034E-01
1.50500000000E+09 +4.00021415084E-01 +2.32114539838E-01 -3.05490978495E-03 -4.02284030920E-03 -2.79650775325E-03 -3.99397465379E-03 +3.25673332458E-01 +2.43516675354E-01
1.51000000000E+09 +3.68249889440E-01 +1.40323146122E-01 -4.71111201464E-03 -3.52654814719E-03 -4.53657705786E-03 -3.72343813316E-03 +2.96970217854E-01 +1.45589624975E-01
1.51500000000E+09 +3.17057547141E-01 +4.91620914514E-02 -5.80047955179E-03 -2.42588063322E-03 -5.82226450664E-03 -2.60504387200E-03 +2.45778267929E-01 +5.30053730896E-02
1.52000000000E+09 +2.45896148595E-01 -3.23785587315E-02 -7.39318144922E-03 -5.13973121391E-04 -7.44191268009E-03 -5.85628455143E-04 +1.75098994498E-01 -3.01049831540E-02
1.52500000000E+09 +1.58182308694E-01 -9.82929116822E-02 -6.81287860018E-03 +3.00671692594E-03 -6.95118190425E-03 +2.97033514916E-03 +8.58504919565E-02 -9.45457612249E-02
1.53000000000E+09 +5.76996474796E-02 -1.44044543322E-01 -4.49951667551E-03 +4.28117938948E-03 -4.52861405017E-03 +4.26383756590E-03 -1.36286602312E-02 -1.37475187382E-01
1.53500000000E+09 -5.06351207318E-02 -1.65291769434E-01 -3.29978613869E-03 +4.91575248601E-03 -3.28329610099E-03 +4.90071975241E-03 -1.17636760028E-01 -1.56146932969E-01
1.54000000000E+09 -1.60403105805E-01 -1.59910201052E-01 -1.57473280673E-03 +4.80681817095E-03 -1.58448530390E-03 +4.74407854673E-03 -2.17424109700E-01 -1.52981507254E-01
1.54500000000E+09 -2.63420804768E-01 -1.33159782950E-01 -8.65133268121E-04 +4.99231437070E-03 -9.51183913589E-04 +4.85483887155E-03 -3.06744429772E-01 -1.31703876856E-01
1.55000000000E+09 -3.55824171617E-01 -8.68299133169E-02 +6.03312686478E-04 +5.03648911952E-03 +3.74059922825E-04 +5.08936723993E-03 -3.83847030977E-01 -9.95109461597E-02
1.55500000000E+09 -4.31401205671E-01 -3.03399120201E-02 +2.09791161488E-03 +4.25518431851E-03 +1.93172460442E-03 +4.42709536290E-03 -4.48631761356E-01 -5.77222305270E-02
1.56000000000E+09 -4.92882425911E-01 +2.91043068715E-02 +2.75512733112E-03 +2.89602389730E-03 +2.81547341609E-03 +3.12983526882E-03 -5.00414996980E-01 -1.09055602480E-02
1.56500000000E+09 -5.41758639245E-01 +8.96246462023E-02 +2.73728145792E-03 +1.80566605489E-03 +2.95087861150E-03 +1.97889040526E-03 -5.41006946346E-01 +3.79634144000E-02
1.57000000000E+09 -5.77790231957E-01 +1.48793399437E-01 +2.63907845746E-03 +1.06119017901E-03 +2.83303836025E-03 +1.10496463965E-03 -5.71959822047E-01 +8.59574832890E-02
