# Hz S RI R 50
! CMT, C1220, 16058040, 17.2.0/1
! Date: 14/08/2018 12:49:33
! Data: Format (Calibration Info)
! Freq                      S11: Re/Im (F2)                       S21: Re/Im (F2)                       S12: Re/Im (F2)                       S22: Re/Im (F2)            
1.00000000000E+09 -6.51861450746E-01 +7.12789491801E-01 -4.12807363793E-05 +6.95666969614E-06 +5.08319815716E-05 -2.73911597788E-06 -7.53675506645E-01 +6.21520406282E-01
1.00500000000E+09 -6.44907809944E-01 +7.18020874117E-01 +1.63381461368E-05 -1.24029099407E-05 -2.18144281262E-05 +6.96239913116E-07 -7.50076680748E-01 +6.25636983542E-01
1.01000000000E+09 -6.38893738263E-01 +7.22585518981E-01 -3.52390268074E-05 +6.40234691306E-05 +1.87952088895E-05 +2.82989028449E-05 -7.46580311019E-01 +6.29156796384E-01
1.01500000000E+09 -6.34463117522E-01 +7.26420727858E-01 +1.84766417085E-05 -9.69479378626E-06 -3.45497906254E-05 +2.90008684357E-05 -7.43449132669E-01 +6.33012906351E-01
1.02000000000E+09 -6.31501309256E-01 +7.29654028908E-01 -4.05046442070E-05 -2.36469951129E-05 +3.04206927894E-05 +1.77675017800E-05 -7.40279083308E-01 +6.36407695149E-01
1.02500000000E+09 -6.29398487021E-01 +7.32552776422E-01 +7.49008250387E-06 -2.28795370015E-05 -1.33177265951E-05 -2.95887121368E-05 -7.37439454957E-01 +6.40045737340E-01
1.03000000000E+09 -6.27846453690E-01 +7.35245457592E-01 -2.61327939061E-05 -7.18415784725E-06 +7.57260988645E-05 +9.32542540737E-07 -7.33920432775E-01 +6.43832062397E-01
1.03500000000E+09 -6.25585360740E-01 +7.37752886159E-01 -1.14794735531E-05 -8.65342719298E-06 -1.25232314865E-05 +5.92687788589E-05 -7.30166826640E-01 +6.48003682143E-01
1.04000000000E+09 -6.22364178158E-01 +7.40622062916E-01 -4.64288909880E-05 +3.80099355952E-05 -2.24810894454E-05 +9.93104610804E-06 -7.26326955156E-01 +6.51534533152E-01
1.04500000000E+09 -6.17579330692E-01 +7.44160688972E-01 -1.51379615009E-05 +2.33081637649E-05 +3.65795216526E-06 +4.76540317922E-05 -7.22818320880E-01 +6.55010201627E-01
1.05000000000E+09 -6.10984141079E-01 +7.48177705087E-01 -5.99644623163E-06 +7.02874378764E-05 -2.01811566998E-05 -9.71221323856E-07 -7.19379485242E-01 +6.58446416307E-01
1.05500000000E+09 -6.03156429786E-01 +7.52869047424E-01 +3.51999470690E-05 -1.00329065894E-05 -1.41332457192E-05 -9.62977653002E-06 -7.16313353827E-01 +6.62046674445E-01
1.06000000000E+09 -5.94615619598E-01 +7.57862059278E-01 -2.23448219760E-05 +2.11060514379E-05 +3.10143788471E-05 -4.95710070917E-06 -7.12741657586E-01 +6.65838386937E-01
1.06500000000E+09 -5.86386713649E-01 +7.62793598537E-01 -3.46291386220E-05 -6.59239016759E-08 -2.38324979968E-05 +4.34025938931E-05 -7.09053989663E-01 +6.69856644923E-01
1.07000000000E+09 -5.79165770185E-01 +7.67263236035E-01 +2.39608200847E-07 +2.48180896015E-05 -1.55406707381E-05 +6.51044824758E-06 -7.04944836957E-01 +6.73478947754E-01
1.07500000000E+09 -5.73216070883E-01 +7.71136375347E-01 +5.12830233791E-06 -9.06184121230E-06 -3.72393872167E-05 +5.05628361514E-05 -7.00721268646E-01 +6.77126415552E-01
1.08000000000E+09 -5.69252262351E-01 +7.74261619311E-01 -1.86146995228E-05 +2.56810944866E-05 +3.70150089380E-05 +1.69505160181E-05 -6.96857238859E-01 +6.80921900820E-01
1.08500000000E+09 -5.66419594232E-01 +7.76878783832E-01 +8.02234118818E-05 +3.95161400497E-05 +1.70426437008E-05 +5.68721408552E-06 -6.93185550776E-01 +6.84446666212E-01
1.09000000000E+09 -5.64450708187E-01 +7.78914674593E-01 +5.71192908002E-06 +1.56493208597E-05 +2.03468028895E-05 +7.78711083521E-05 -6.89339026034E-01 +6.88341872845E-01
1.09500000000E+09 -5.62789036791E-01 +7.80903006235E-01 +2.02082684552E-05 +1.79166967571E-05 +2.57647439459E-05 +5.49155036024E-06 -6.85683770534E-01 +6.92135532385E-01
1.10000000000E+09 -5.59998390839E-01 +7.82813049848E-01 +8.86639468272E-06 +4.71850844945E-05 -4.03466416744E-06 +1.34717214329E-05 -6.81708796236E-01 +6.95918742134E-01
1.10500000000E+09 -5.56230843556E-01 +7.85437370960E-01 +4.01274463428E-05 -6.97356364925E-06 +2.01707697319E-05 -2.42001765839E-05 -6.77472412157E-01 +6.99543476912E-01
1.11000000000E+09 -5.50902091435E-01 +7.88605876335E-01 +6.75209640682E-05 +4.29046722008E-07 +4.48905646889E-05 +4.37691754120E-05 -6.73390367992E-01 +7.02859243602E-01
1.11500000000E+09 -5.44054348978E-01 +7.92390445561E-01 +4.39110376488E-05 +4.20822870495E-05 +2.22170994306E-05 +7.40336428909E-06 -6.69291549151E-01 +7.06071233772E-01
1.12000000000E+09 -5.36513074618E-01 +7.96380123629E-01 +4.66485928678E-05 +8.53264049381E-06 +6.41087518769E-05 -1.04305497568E-05 -6.65374962175E-01 +7.09889208144E-01
1.12500000000E+09 -5.28593132167E-01 +8.00410120099E-01 +8.60752411173E-05 +4.57849485954E-05 +5.00518183582E-05 +6.20036559834E-05 -6.61108215489E-01 +7.13672350530E-01
1.13000000000E+09 -5.21280139134E-01 +8.04036600847E-01 +4.02513236848E-05 -1.31793434876E-06 +6.20986480980E-05 +5.98819825536E-05 -6.56665298725E-01 +7.17589276149E-01
1.13500000000E+09 -5.14647574904E-01 +8.06959343168E-01 +6.67921162356E-05 +4.66582959297E-05 +3.66720758579E-05 +2.99211697108E-05 -6.51994690994E-01 +7.21364226122E-01
1.14000000000E+09 -5.09145426144E-01 +8.09467369225E-01 +4.03572178924E-05 +6.36390063920E-05 +5.65160097828E-05 +5.21644001311E-05 -6.47210580832E-01 +7.24867446077E-01
1.14500000000E+09 -5.05148049555E-01 +8.11284417392E-01 +3.11290953251E-05 -8.73053900187E-06 +1.06274739491E-04 +2.18734844993E-05 -6.42626415703E-01 +7.28375429549E-01
1.15000000000E+09 -5.01359523644E-01 +8.12913432477E-01 +6.72869943175E-05 -1.20680750602E-05 +6.17131327934E-05 -1.10062978802E-07 -6.38085389268E-01 +7.32214780966E-01
1.15500000000E+09 -4.97811454495E-01 +8.14889373634E-01 +1.08013994686E-04 -9.03980523179E-06 +6.26357318027E-05 -1.64916631448E-05 -6.33400284579E-01 +7.35917948504E-01
1.16000000000E+09 -4.93380060033E-01 +8.17000187780E-01 +5.60389502206E-05 -1.33079280685E-06 +3.80463949551E-05 -4.69234718813E-05 -6.28686441522E-01 +7.39784226456E-01
1.16500000000E+09 -4.88190088451E-01 +8.19827693771E-01 +9.95511041943E-05 -3.51728380031E-05 +1.04529207695E-04 +2.95854700627E-05 -6.23572734281E-01 +7.43453226209E-01
1.17000000000E+09 -4.81909456479E-01 +8.23100694927E-01 +6.11403127133E-05 -4.57001058041E-05 +9.79764014723E-05 -5.91809751964E-05 -6.18164297065E-01 +7.46812213034E-01
1.17500000000E+09 -4.74646578340E-01 +8.26605123237E-01 +1.07494325021E-04 -7.88047694744E-06 +8.32809429036E-05 -4.14023922767E-05 -6.12464443558E-01 +7.50022320589E-01
1.18000000000E+09 -4.66882330884E-01 +8.30305318855E-01 +9.27294592050E-05 -3.95823229780E-05 +1.68160417139E-04 -9.29674142531E-05 -6.07147648570E-01 +7.53062036368E-01
1.18500000000E+09 -4.59011731706E-01 +8.33746025959E-01 +1.33942571393E-04 -7.52685271016E-05 +1.26860699088E-04 -1.24350848171E-04 -6.01522397264E-01 +7.56121178297E-01
1.19000000000E+09 -4.51744582075E-01 +8.36416154473E-01 +9.96521157140E-05 -1.06236797705E-04 +1.44463881596E-04 -1.30834272953E-04 -5.95428306556E-01 +7.58742323351E-01
1.19500000000E+09 -4.45363547979E-01 +8.38530127814E-01 +9.61076192639E-05 -1.83244421693E-04 +1.32854452336E-04 -2.37503745659E-04 -5.89562844105E-01 +7.59913399616E-01
1.20000000000E+09 -4.40001102934E-01 +8.39579502917E-01 +2.80800538637E-07 -2.55596544664E-04 +2.79972151657E-05 -2.65828242915E-04 -5.84904430130E-01 +7.60121760247E-01
1.20500000000E+09 -4.35336014739E-01 +8.40936554428E-01 -1.06106603560E-04 -1.92777259662E-04 -1.08456579747E-04 -1.70508985717E-04 -5.82592225120E-01 +7.60977147770E-01
1.21000000000E+09 -4.30501857712E-01 +8.42433842995E-01 -1.10169464344E-04 -1.35523747594E-04 -2.76861526347E-05 -1.17960965747E-04 -5.80621060588E-01 +7.64102695922E-01
1.21500000000E+09 -4.24714277944E-01 +8.44322043221E-01 -8.37256174361E-06 -5.60034076587E-05 -2.30262158176E-05 -9.90297396940E-05 -5.77789386862E-01 +7.68591924917E-01
1.22000000000E+09 -4.17720445022E-01 +8.46729039177E-01 -1.00113987211E-05 -5.76462513949E-05 +2.72782490958E-05 -7.83965847556E-05 -5.73765684040E-01 +7.74058484252E-01
1.22500000000E+09 -4.09544974024E-01 +8.49894236314E-01 -2.03121640940E-05 -1.35989834043E-04 -1.31634373855E-05 -1.56338618907E-04 -5.68695745221E-01 +7.79132364202E-01
1.23000000000E+09 -4.00486289268E-01 +8.53310458143E-01 -2.21354617197E-05 -1.44325386462E-04 -3.12567036190E-05 -1.37443472145E-04 -5.63095551858E-01 +7.83924239497E-01
1.23500000000E+09 -3.91021070936E-01 +8.57201950948E-01 -4.19983227428E-06 -1.39045084886E-04 -3.76142571013E-05 -1.23362736478E-04 -5.57111324237E-01 +7.88186326842E-01
1.24000000000E+09 -3.81576869878E-01 +8.61114681640E-01 -5.50850467471E-05 -1.95193528788E-04 -6.17835638816E-05 -1.58512799072E-04 -5.51152084730E-01 +7.92089068414E-01
1.24500000000E+09 -3.72641681196E-01 +8.64885853293E-01 -1.04325624279E-04 -1.94243180191E-04 -8.58953670142E-05 -1.50951507032E-04 -5.45128169181E-01 +7.95853262887E-01
1.25000000000E+09 -3.64682432921E-01 +8.68086968031E-01 -9.41831815017E-05 -1.35240363312E-04 -7.52971520572E-05 -1.44565248108E-04 -5.38714545992E-01 +8.00100417961E-01
1.25500000000E+09 -3.57795338156E-01 +8.70280250516E-01 -7.01043829059E-05 -1.30009147424E-04 -5.84849058317E-05 -1.89374677548E-04 -5.31909505407E-01 +8.04076188936E-01
1.26000000000E+09 -3.51606998244E-01 +8.71817365148E-01 -1.11085225754E-04 -2.01420656792E-04 -8.21028469384E-05 -1.42670412632E-04 -5.25451645464E-01 +8.08312346707E-01
1.26500000000E+09 -3.45709175593E-01 +8.72921346803E-01 -1.12438334472E-04 -2.15730067559E-04 -1.20880836414E-04 -1.93160127709E-04 -5.18425058547E-01 +8.12191055185E-01
1.27000000000E+09 -3.39458368115E-01 +8.73945800451E-01 -2.47978293717E-04 -1.89951590863E-04 -2.14844973778E-04 -1.46406425076E-04 -5.11567630875E-01 +8.16048952414E-01
1.27500000000E+09 -3.31876094543E-01 +8.75213733237E-01 -1.77631276738E-04 -1.80079120593E-04 -2.28114653886E-04 -1.38985562736E-04 -5.04335553501E-01 +8.19605886791E-01
1.28000000000E+09 -3.22586627359E-01 +8.77253044887E-01 -2.57545584913E-04 -1.16567193174E-04 -2.58165552044E-04 -1.50220337011E-04 -4.97205923774E-01 +8.23385477592E-01
1.28500000000E+09 -3.11567669298E-01 +8.79609003538E-01 -2.69296306639E-04 -1.34380381182E-04 -2.32653695226E-04 -1.72002775229E-04 -4.89713048169E-01 +8.27147522816E-01
1.29000000000E+09 -2.99682998973E-01 +8.82715574417E-01 -3.02911347445E-04 -1.30396281013E-04 -3.41182571595E-04 -9.86936532852E-05 -4.82222579722E-01 +8.30966061028E-01
1.29500000000E+09 -2.87491618402E-01 +8.86052021079E-01 -3.41772834447E-04 -1.45170107076E-04 -3.76492169853E-04 -9.61328712568E-05 -4.74324173834E-01 +8.34504038612E-01
1.30000000000E+09 -2.75441986758E-01 +8.89502162778E-01 -3.91864597983E-04 -7.72462928043E-05 -4.22932797026E-04 -4.15582129044E-05 -4.66400348687E-01 +8.38049570013E-01
1.30500000000E+09 -2.64655000885E-01 +8.92551092702E-01 -4.20453392063E-04 -5.94514389809E-05 -4.37796987454E-04 -2.56301278366E-05 -4.58445841564E-01 +8.41534277882E-01
1.31000000000E+09 -2.55498695001E-01 +8.94751413425E-01 -4.87915107160E-04 +9.40354595407E-06 -4.53318281508E-04 +6.23130183752E-07 -4.50129409162E-01 +8.45048157499E-01
1.31500000000E+09 -2.48083805133E-01 +8.96379812233E-01 -4.62503512756E-04 +9.96133258086E-05 -4.56942393310E-04 +1.02567012049E-04 -4.41459898054E-01 +8.48649891960E-01
1.32000000000E+09 -2.41898292026E-01 +8.97193634477E-01 -4.33364533883E-04 +1.28572617024E-04 -4.54170079411E-04 +1.18340304130E-04 -4.32445271389E-01 +8.51996036977E-01
1.32500000000E+09 -2.36084339413E-01 +8.97462612973E-01 -4.84766509574E-04 +1.73449315278E-04 -4.76282788455E-04 +1.63697026898E-04 -4.22844289490E-01 +8.55315029505E-01
1.33000000000E+09 -2.29267589260E-01 +8.97548031237E-01 -5.27296765318E-04 +2.18783642155E-04 -4.85408416254E-04 +3.25835933284E-04 -4.13433436588E-01 +8.58426991560E-01
1.33500000000E+09 -2.20573326359E-01 +8.97631661083E-01 -5.47065104169E-04 +2.98206927100E-04 -5.32728994626E-04 +3.84498775993E-04 -4.03723798129E-01 +8.61709108817E-01
1.34000000000E+09 -2.09447441815E-01 +8.97838472362E-01 -5.32258070517E-04 +4.19787505453E-04 -4.43679979810E-04 +4.67788139852E-04 -3.93465780581E-01 +8.65005015532E-01
1.34500000000E+09 -1.95604838733E-01 +8.98334341192E-01 -5.02634262262E-04 +5.88696697241E-04 -4.10470047311E-04 +5.20847883637E-04 -3.82688323770E-01 +8.68219501041E-01
1.35000000000E+09 -1.79907240663E-01 +8.99110373880E-01 -3.51996898764E-04 +6.51092850316E-04 -3.85437170377E-04 +6.37757689853E-04 -3.71493103493E-01 +8.71366800310E-01
1.35500000000E+09 -1.63045361266E-01 +8.99930784152E-01 -3.25578783650E-04 +6.38274110478E-04 -3.23575216471E-04 +6.85282792159E-04 -3.59877925685E-01 +8.74239324798E-01
1.36000000000E+09 -1.46281314322E-01 +9.00514428321E-01 -2.65573748776E-04 +7.40051148893E-04 -2.79432434018E-04 +7.36214672755E-04 -3.48165820017E-01 +8.76974909729E-01
1.36500000000E+09 -1.30185380111E-01 +9.00960341073E-01 -2.32782568190E-04 +8.02913211964E-04 -1.86603755119E-04 +7.77572436737E-04 -3.35939559938E-01 +8.79471370973E-01
1.37000000000E+09 -1.15917310687E-01 +9.00772168390E-01 -1.74089781019E-04 +9.27772005581E-04 -1.71689798173E-04 +8.77114159686E-04 -3.23168822696E-01 +8.81954126900E-01
1.37500000000E+09 -1.03539220416E-01 +9.00217829340E-01 +3.23218789466E-05 +1.02101187118E-03 -1.05455593755E-04 +9.56728273944E-04 -3.09247319806E-01 +8.84348076546E-01
1.38000000000E+09 -9.22774926918E-02 +8.99354129160E-01 +1.05619540755E-04 +9.86367413533E-04 -3.87279646086E-05 +1.03615259682E-03 -2.94520230758E-01 +8.86359146031E-01
1.38500000000E+09 -8.07572771172E-02 +8.97909482494E-01 +1.83915777599E-04 +1.06625242674E-03 +1.18758291202E-04 +1.17514688509E-03 -2.79074965136E-01 +8.88427132596E-01
1.39000000000E+09 -6.82976647976E-02 +8.95823299318E-01 +2.86405583600E-04 +1.13798308910E-03 +3.56023111682E-04 +1.32762050312E-03 -2.63254008834E-01 +8.89863188163E-01
1.39500000000E+09 -5.38521153909E-02 +8.93052061469E-01 +4.97596135968E-04 +1.18051215924E-03 +6.40149955919E-04 +1.29541842595E-03 -2.46582724493E-01 +8.90657484772E-01
1.40000000000E+09 -3.67727864258E-02 +8.89205418600E-01 +6.17508076564E-04 +1.20216181158E-03 +7.85394500369E-04 +1.22717598019E-03 -2.29313731919E-01 +8.90990812267E-01
1.40500000000E+09 -1.75086525941E-02 +8.84933182408E-01 +8.32159150709E-04 +1.27144631387E-03 +9.26203241917E-04 +1.20170048962E-03 -2.10818675174E-01 +8.91100143986E-01
1.41000000000E+09 +3.73535439856E-03 +8.79789084766E-01 +1.16028636427E-03 +1.24821364286E-03 +1.12497591950E-03 +1.24448644080E-03 -1.90620906731E-01 +8.90578616850E-01
1.41500000000E+09 +2.61442958595E-02 +8.73902293439E-01 +1.42734713602E-03 +1.16948677111E-03 +1.40306592425E-03 +1.28357092283E-03 -1.69011377633E-01 +8.88927189461E-01
1.42000000000E+09 +4.88893536765E-02 +8.66997504267E-01 +1.67418527118E-03 +1.07850865932E-03 +1.78694446224E-03 +1.16899643319E-03 -1.46156363821E-01 +8.86356103158E-01
1.42500000000E+09 +7.08343223106E-02 +8.58934080871E-01 +1.84697208683E-03 +9.62746179739E-04 +2.11130664670E-03 +9.95190025649E-04 -1.22485165142E-01 +8.82500227088E-01
1.43000000000E+09 +9.22040141705E-02 +8.50032153739E-01 +2.27936390399E-03 +9.56650647288E-04 +2.52963810006E-03 +7.97921763458E-04 -9.80011892766E-02 +8.77917289441E-01
1.43500000000E+09 +1.12935566293E-01 +8.39259767114E-01 +2.80006565881E-03 +5.08939126130E-04 +2.95443382026E-03 +2.80349474378E-04 -7.17468884755E-02 +8.71341503259E-01
1.44000000000E+09 +1.34125873204E-01 +8.27201820954E-01 +3.08360097720E-03 -1.43421022502E-04 +3.05286446277E-03 -3.43754339581E-04 -4.37381080225E-02 +8.62751212399E-01
1.44500000000E+09 +1.57376865192E-01 +8.12265681371E-01 +3.08488550230E-03 -7.22799467978E-04 +3.08210836923E-03 -8.70742572764E-04 -1.34753000573E-02 +8.51551517209E-01
1.45000000000E+09 +1.82128221656E-01 +7.93627132770E-01 +2.99992238128E-03 -1.12535212125E-03 +2.99739955531E-03 -1.33321415374E-03 +1.80730820299E-02 +8.37037201329E-01
1.45500000000E+09 +2.09243288660E-01 +7.71532555614E-01 +3.16649216415E-03 -1.34612235626E-03 +3.04389035905E-03 -1.64933015925E-03 +5.12832845012E-02 +8.19972349306E-01
1.46000000000E+09 +2.38757671002E-01 +7.45423772108E-01 +3.47660521584E-03 -1.92418913417E-03 +3.19228104853E-03 -2.20458527313E-03 +8.59492545867E-02 +7.98262880929E-01
1.46500000000E+09 +2.69985193123E-01 +7.14425105639E-01 +3.80863227173E-03 -2.84099461885E-03 +3.28446828624E-03 -2.83351295597E-03 +1.21670674773E-01 +7.71838950975E-01
1.47000000000E+09 +3.01738267479E-01 +6.78536471265E-01 +3.73912698025E-03 -4.30828172044E-03 +3.42512348839E-03 -3.97402772684E-03 +1.58467727320E-01 +7.38201729234E-01
1.47500000000E+09 +3.32143479439E-01 +6.37381187016E-01 +2.77765607546E-03 -5.71387192803E-03 +2.81909457863E-03 -5.35424428197E-03 +1.94799630089E-01 +6.98052908489E-01
1.48000000000E+09 +3.60169109978E-01 +5.90149761056E-01 +1.67577050487E-03 -6.57194923892E-03 +1.84910742221E-03 -6.57282497464E-03 +2.31553701399E-01 +6.49273866115E-01
1.48500000000E+09 +3.83216104065E-01 +5.35771383176E-01 +3.83370006679E-04 -7.44530237332E-03 +3.36543265309E-04 -7.68893463396E-03 +2.65161750099E-01 +5.91462575332E-01
1.49000000000E+09 +4.00651446015E-01 +4.74227257576E-01 -1.24297601160E-03 -8.18843890532E-03 -1.65106365852E-03 -8.14032405136E-03 +2.94144124911E-01 +5.23146591689E-01
1.49500000000E+09 +4.09655659272E-01 +4.04321802836E-01 -3.63904926754E-03 -8.47055788352E-03 -3.76984655314E-03 -7.94272238927E-03 +3.12865977963E-01 +4.44600427679E-01
1.50000000000E+09 +4.08844309974E-01 +3.25692601100E-01 -6.12954492773E-03 -8.25157420160E-03 -5.71440482521E-03 -7.73781623434E-03 +3.19382707790E-01 +3.57193736862E-01
1.50500000000E+09 +3.94242428076E-01 +2.38882480072E-01 -8.71987161605E-03 -6.85174626860E-03 -8.15767005277E-03 -6.86657795642E-03 +3.10836237770E-01 +2.61478206199E-01
1.51000000000E+09 +3.63530708945E-01 +1.48032031350E-01 -1.08625111277E-02 -4.09782623126E-03 -1.05540846841E-02 -4.49653971141E-03 +2.80765949775E-01 +1.59484948560E-01
1.51500000000E+09 +3.13550215558E-01 +5.67501788619E-02 -1.18773276198E-02 -1.63864444345E-03 -1.19337720543E-02 -2.02385376861E-03 +2.26756322464E-01 +6.31454950428E-02
1.52000000000E+09 +2.43068591872E-01 -2.55411188949E-02 -1.31628711198E-02 +1.45757782577E-03 -1.33352293395E-02 +1.33469114498E-03 +1.53692191652E-01 -2.36429901260E-02
1.52500000000E+09 +1.55499084770E-01 -9.24034992058E-02 -1.23888677132E-02 +6.83057857208E-03 -1.25516670164E-02 +6.75365069002E-03 +6.09290787613E-02 -9.46510946115E-02
1.53000000000E+09 +5.55761124583E-02 -1.37973771510E-01 -8.41879864885E-03 +9.45413335389E-03 -8.52055156685E-03 +9.49759960534E-03 -4.60649211241E-02 -1.41698064816E-01
1.53500000000E+09 -5.19714250231E-02 -1.60518707895E-01 -5.76740963673E-03 +1.09153341983E-02 -5.78357713496E-03 +1.09353560126E-02 -1.57338211527E-01 -1.64405936557E-01
1.54000000000E+09 -1.62159685306E-01 -1.56447754135E-01 -2.51146892580E-03 +1.09963177022E-02 -2.54978888878E-03 +1.08315099696E-02 -2.66643494947E-01 -1.63256178947E-01
1.54500000000E+09 -2.63481171318E-01 -1.29388986297E-01 +2.61788306353E-04 +1.09249144252E-02 +1.16433532434E-05 +1.08036316426E-02 -3.66672861068E-01 -1.42593910875E-01
1.55000000000E+09 -3.54988817475E-01 -8.61555229502E-02 +2.41968144061E-03 +1.00592050696E-02 +2.07259894676E-03 +1.01596882360E-02 -4.54594071186E-01 -1.05956502546E-01
1.55500000000E+09 -4.32211628157E-01 -3.04421876035E-02 +5.33624427731E-03 +8.81471717962E-03 +5.06489710493E-03 +9.26132182000E-03 -5.26984034250E-01 -5.87097811162E-02
1.56000000000E+09 -4.93501835365E-01 +2.90848088878E-02 +6.76138564998E-03 +5.71033767499E-03 +6.85628027348E-03 +6.26919618851E-03 -5.86018308242E-01 -5.50610541788E-03
1.56500000000E+09 -5.41980289868E-01 +8.91662001562E-02 +6.37915111418E-03 +3.85575568845E-03 +6.69060641459E-03 +4.18489192201E-03 -6.31171491381E-01 +5.10432580267E-02
1.57000000000E+09 -5.78622923330E-01 +1.47213822460E-01 +6.36196599700E-03 +2.47886284843E-03 +6.80586359901E-03 +2.64046869323E-03 -6.65413176467E-01 +1.05609977017E-01
