# Hz S RI R 50
! CMT, C1220, 16058040, 17.2.0/1
! Date: 14/08/2018 11:48:15
! Data: Format (Calibration Info)
! Freq                      S11: Re/Im (F2)                       S21: Re/Im (F2)                       S12: Re/Im (F2)                       S22: Re/Im (F2)            
1.00000000000E+09 -6.47674575890E-01 +7.15164282549E-01 -1.10836984559E-05 -2.66911075361E-05 -6.92908041843E-06 -3.14457914129E-05 -7.55230743502E-01 +6.24258242948E-01
1.00500000000E+09 -6.40367929907E-01 +7.20203326178E-01 -4.53827214868E-05 +2.62541860611E-07 -9.90301849053E-06 -1.22978217951E-05 -7.51523638145E-01 +6.28459614851E-01
1.01000000000E+09 -6.34222642883E-01 +7.24703624250E-01 -3.76494016223E-05 +4.15239802218E-05 -4.31391154204E-05 -1.15625453069E-05 -7.48030895943E-01 +6.32252295656E-01
1.01500000000E+09 -6.29328623263E-01 +7.28473397248E-01 +2.26438950234E-05 +5.36136790215E-06 +2.91955246502E-05 -2.27405120145E-06 -7.44633656716E-01 +6.36125831604E-01
1.02000000000E+09 -6.25850169719E-01 +7.31859277333E-01 +2.96013882272E-05 -2.41534531263E-05 +1.62298418797E-05 -3.10144460918E-05 -7.41045117427E-01 +6.39786124272E-01
1.02500000000E+09 -6.22966570551E-01 +7.34493933455E-01 +3.54936729943E-05 +3.96343668796E-06 +1.28572554258E-05 +1.83789439413E-05 -7.38095810361E-01 +6.43473556094E-01
1.03000000000E+09 -6.20754364191E-01 +7.36935020746E-01 -3.65708827815E-06 -4.15173618499E-05 -3.11677681088E-06 +6.72294583576E-05 -7.34751282372E-01 +6.47119392132E-01
1.03500000000E+09 -6.17726464658E-01 +7.39184120873E-01 +4.04147885409E-06 -4.59406589329E-05 +1.78389390671E-06 +3.04644681145E-05 -7.31137199375E-01 +6.51100459463E-01
1.04000000000E+09 -6.13503948502E-01 +7.42172372426E-01 -4.11927554632E-06 -4.54861898180E-05 -6.18909317086E-05 +1.42219110668E-05 -7.27354011160E-01 +6.54825041575E-01
1.04500000000E+09 -6.08094923974E-01 +7.45672301789E-01 -1.59586493855E-05 +1.07718543380E-06 +3.37426340005E-05 -2.73380476449E-06 -7.23734253522E-01 +6.58258246542E-01
1.05000000000E+09 -6.01005114118E-01 +7.49811682311E-01 +2.65490438133E-05 -1.65999809418E-05 -4.25090337378E-06 +4.70655907558E-05 -7.20304241609E-01 +6.61693865514E-01
1.05500000000E+09 -5.92734956752E-01 +7.54526861696E-01 +1.06028990640E-05 -6.43286363348E-06 +2.06235079938E-05 -3.54667756880E-05 -7.16996537130E-01 +6.65444245615E-01
1.06000000000E+09 -5.84166274246E-01 +7.59439992857E-01 -2.85739149241E-05 +2.15586186499E-05 -1.34065249087E-05 +2.24952141729E-05 -7.13787442796E-01 +6.69183299565E-01
1.06500000000E+09 -5.76065998488E-01 +7.64621989036E-01 -2.18414345654E-05 +3.53623878158E-05 -2.51831594214E-06 +3.94422740014E-05 -7.10187010340E-01 +6.72705925717E-01
1.07000000000E+09 -5.68873258356E-01 +7.68863294911E-01 +1.36217943615E-05 -5.36822214987E-06 +5.35500736117E-06 +1.25904027965E-05 -7.06258206396E-01 +6.76411620610E-01
1.07500000000E+09 -5.63280852337E-01 +7.72510085454E-01 -3.56634960472E-06 -3.49950484969E-06 +4.07888342015E-05 +3.52687659905E-05 -7.01947616322E-01 +6.80220791580E-01
1.08000000000E+09 -5.59205622457E-01 +7.75688992103E-01 +5.38333182471E-05 +4.01576116657E-05 -3.82569629301E-06 -2.58688394571E-05 -6.97842157758E-01 +6.84062407220E-01
1.08500000000E+09 -5.56462213696E-01 +7.78018061704E-01 -6.36779342317E-06 -3.77735282285E-05 -2.22461483183E-06 -9.51090039233E-06 -6.93752414740E-01 +6.87891316403E-01
1.09000000000E+09 -5.54316792398E-01 +7.79829176530E-01 +1.42343216676E-05 -2.28751818909E-05 -2.20376391161E-05 -3.10132927403E-05 -6.89818868309E-01 +6.91748815557E-01
1.09500000000E+09 -5.52360185953E-01 +7.81510072516E-01 +1.11499808568E-05 -2.66276718793E-06 +3.75337323715E-05 +1.54443160246E-05 -6.86150869865E-01 +6.95697987638E-01
1.10000000000E+09 -5.49238557493E-01 +7.83372178657E-01 +5.34013912655E-05 +1.09833514675E-05 -7.59895999734E-06 +2.15341425367E-05 -6.82108699180E-01 +6.99481753751E-01
1.10500000000E+09 -5.44948905776E-01 +7.85982707648E-01 +4.82515285090E-05 +4.48410271337E-05 -1.29100734756E-05 -1.77244324816E-05 -6.77840516171E-01 +7.03031914692E-01
1.11000000000E+09 -5.39071580930E-01 +7.89001400487E-01 +2.73592053450E-06 +3.12046563394E-05 +1.52957042095E-05 -9.29149990312E-06 -6.73702350157E-01 +7.06456304033E-01
1.11500000000E+09 -5.31851001190E-01 +7.92969506208E-01 +2.85367538995E-05 -1.32213672155E-06 -2.20409020139E-06 -1.35655257971E-05 -6.69730457997E-01 +7.10023698888E-01
1.12000000000E+09 -5.24183202364E-01 +7.96891578214E-01 -1.64333012044E-05 -1.24558818234E-05 -2.39686437483E-06 -1.53315501213E-05 -6.65405200465E-01 +7.13707904654E-01
1.12500000000E+09 -5.16368511717E-01 +8.00839068613E-01 +1.85652400333E-05 +2.48345039658E-06 +1.92281561624E-05 +3.60970904589E-05 -6.61151437477E-01 +7.17545406729E-01
1.13000000000E+09 -5.09087290435E-01 +8.04427570549E-01 -2.46983735051E-05 -6.42486004129E-05 -1.26540379407E-05 -2.59202122426E-05 -6.56772520449E-01 +7.21314899156E-01
1.13500000000E+09 -5.02959544696E-01 +8.07317216260E-01 +3.38508523259E-06 +1.23987871734E-05 +4.25157129368E-05 -2.53900113015E-05 -6.52382243951E-01 +7.25205035779E-01
1.14000000000E+09 -4.97736496613E-01 +8.09847719338E-01 +1.69413688470E-06 +1.69658708470E-05 +6.22656731468E-05 -1.27304476544E-05 -6.47754004443E-01 +7.28617522963E-01
1.14500000000E+09 -4.93553467644E-01 +8.11451100774E-01 -1.13574578341E-05 -5.74822182277E-05 +8.47897107749E-06 +1.32115868405E-06 -6.43171495019E-01 +7.32074011782E-01
1.15000000000E+09 -4.89643034497E-01 +8.13071073153E-01 +1.20311119673E-05 -7.07087774536E-07 -1.21653666568E-06 -4.92397247578E-06 -6.38524741123E-01 +7.35889911100E-01
1.15500000000E+09 -4.85667918130E-01 +8.14798167534E-01 +4.18280422098E-05 -4.51280319902E-05 +3.99372531723E-05 -2.92165459786E-05 -6.33585546471E-01 +7.39956574893E-01
1.16000000000E+09 -4.80814150875E-01 +8.16732819464E-01 -7.60358319561E-06 -1.32553912346E-05 +2.16396697936E-05 -4.73369343303E-05 -6.28702368403E-01 +7.43705139620E-01
1.16500000000E+09 -4.74723493325E-01 +8.19366960565E-01 +2.41316702682E-05 +2.68332065734E-06 +3.49098469111E-05 +8.57482686631E-06 -6.23759631276E-01 +7.47361116040E-01
1.17000000000E+09 -4.67498007141E-01 +8.22300248114E-01 +3.63743449601E-05 -5.40182327520E-05 +2.67592199591E-05 -2.53317698114E-05 -6.18283704300E-01 +7.50718217046E-01
1.17500000000E+09 -4.59286007090E-01 +8.25592810207E-01 +7.81168764005E-05 -2.79786653032E-05 +2.52664487103E-05 -2.38817479219E-05 -6.12683764760E-01 +7.54038749468E-01
1.18000000000E+09 -4.51042643090E-01 +8.29082956542E-01 +8.71088076311E-05 -1.96129493201E-05 +2.13603604703E-05 -4.37725668903E-05 -6.07108544964E-01 +7.57148648316E-01
1.18500000000E+09 -4.43059254290E-01 +8.32429398117E-01 +3.82911503040E-05 -4.02556094057E-05 +7.96353197779E-05 -1.32707775129E-04 -6.00914900761E-01 +7.60239060480E-01
1.19000000000E+09 -4.35560928878E-01 +8.34990897294E-01 +4.82806305315E-05 -6.72049641194E-05 -1.88703502799E-05 -8.58013932725E-05 -5.94709013823E-01 +7.63036324289E-01
1.19500000000E+09 -4.29449065757E-01 +8.36995146399E-01 +6.39700256805E-05 -1.36390508316E-04 +8.47886040369E-05 -1.30530646933E-04 -5.88534030027E-01 +7.64214964514E-01
1.20000000000E+09 -4.24190502233E-01 +8.38018011399E-01 -8.62941179505E-05 -1.40147347074E-04 -9.91499484344E-05 -1.23382937898E-04 -5.84253603424E-01 +7.64529077121E-01
1.20500000000E+09 -4.19391682165E-01 +8.39045503960E-01 -1.59229169007E-04 -6.13263019079E-05 -9.31943793209E-05 -4.08874917066E-05 -5.81747136335E-01 +7.65139805257E-01
1.21000000000E+09 -4.14696163637E-01 +8.40291037048E-01 -1.13632425485E-04 -7.91195665917E-08 -7.88567661089E-05 -3.75088763087E-05 -5.80101061844E-01 +7.68157038927E-01
1.21500000000E+09 -4.08836915669E-01 +8.41788435333E-01 -7.53256624768E-05 +4.31925020315E-06 -7.26337631193E-05 +1.10403564707E-04 -5.77323782069E-01 +7.72585624645E-01
1.22000000000E+09 -4.01714771175E-01 +8.43577512252E-01 -4.53986423058E-05 +3.57684428578E-05 -1.56071328734E-05 +5.67243128177E-05 -5.73248522329E-01 +7.77972417688E-01
1.22500000000E+09 -3.93195313632E-01 +8.45866729504E-01 -1.50887413482E-05 +4.31738593900E-05 -2.61186490013E-05 +3.04516020734E-05 -5.68003507009E-01 +7.83034189023E-01
1.23000000000E+09 -3.83822088021E-01 +8.48843200283E-01 +1.28092725608E-05 -1.83373395259E-05 +5.14721209396E-06 -5.59623600385E-06 -5.62343555672E-01 +7.87876530997E-01
1.23500000000E+09 -3.74098602919E-01 +8.52155283322E-01 +1.93456759272E-05 -9.05693722899E-06 -1.34561280891E-05 -3.22044926684E-05 -5.56485579122E-01 +7.92424964498E-01
1.24000000000E+09 -3.64477650051E-01 +8.55809098281E-01 -3.69363088046E-05 -6.00008554392E-05 -4.37374630075E-05 +2.17483322722E-05 -5.50343907513E-01 +7.96305847690E-01
1.24500000000E+09 -3.55744855739E-01 +8.59586495473E-01 -4.51284525948E-05 -5.51174853474E-05 -4.25367077520E-05 -2.97356171740E-05 -5.44211012548E-01 +7.99975526200E-01
1.25000000000E+09 -3.48013262627E-01 +8.62634386148E-01 -3.90835721760E-05 -3.02251992766E-05 -2.90731099037E-05 -5.28343146356E-05 -5.37588439413E-01 +8.04229429656E-01
1.25500000000E+09 -3.41342288931E-01 +8.64752908345E-01 -4.06596434561E-05 -4.06620080871E-05 -3.31374942266E-05 -1.73804808267E-05 -5.30564689803E-01 +8.08284177282E-01
1.26000000000E+09 -3.35224980166E-01 +8.66227761825E-01 -1.14073961911E-05 -1.21701767345E-05 -5.36193631768E-05 -2.72115790791E-06 -5.23743321632E-01 +8.12716892956E-01
1.26500000000E+09 -3.29310629634E-01 +8.66863004240E-01 -4.33950018764E-05 -4.02159311573E-06 -7.73114111841E-05 -2.75359858919E-05 -5.16820569349E-01 +8.16535596426E-01
1.27000000000E+09 -3.22946727522E-01 +8.67404209632E-01 -3.76004974440E-05 +1.55688254837E-05 -1.72400316999E-05 -6.64165147409E-05 -5.10065782782E-01 +8.20579415289E-01
1.27500000000E+09 -3.15153825086E-01 +8.67928916586E-01 -7.06139237896E-05 -3.08912512251E-05 -1.15374193135E-04 +1.76144374386E-05 -5.02992229302E-01 +8.24038389595E-01
1.28000000000E+09 -3.05588050229E-01 +8.68831773141E-01 -1.05223521445E-04 -4.91690012362E-05 -8.49537713254E-05 +1.26197160348E-05 -4.96015484050E-01 +8.27593444132E-01
1.28500000000E+09 -2.94334976188E-01 +8.70433980274E-01 -9.64444425003E-05 +9.65225103070E-06 -6.91842343228E-05 -2.61214327003E-05 -4.88545402779E-01 +8.31229535810E-01
1.29000000000E+09 -2.82085070613E-01 +8.72447939506E-01 -9.16264103546E-05 +8.74373166654E-06 -7.21124962013E-05 -3.35907873370E-06 -4.81046705847E-01 +8.35017882536E-01
1.29500000000E+09 -2.69632384125E-01 +8.75436110871E-01 -1.81536844096E-05 +3.81245564123E-05 -4.97508204990E-05 +4.82450072171E-06 -4.73051478335E-01 +8.38426030185E-01
1.30000000000E+09 -2.57742578337E-01 +8.78749552503E-01 -1.13101881804E-04 -1.11320745476E-05 -1.27689824416E-04 +6.97220280402E-05 -4.65010510550E-01 +8.42296250880E-01
1.30500000000E+09 -2.46849436525E-01 +8.82019140712E-01 -1.21090596117E-04 +4.03306966858E-05 -9.85397813972E-05 +5.20285987155E-05 -4.56834310554E-01 +8.45681198649E-01
1.31000000000E+09 -2.37433641912E-01 +8.84836971626E-01 -8.80492024171E-05 +1.10996480586E-04 -1.01099599988E-04 +3.84994015046E-05 -4.48489917276E-01 +8.49044364570E-01
1.31500000000E+09 -2.30037923289E-01 +8.86401369200E-01 -1.08897456555E-04 +1.48921289777E-04 -1.22240362225E-04 +1.17526794055E-04 -4.39740412721E-01 +8.52693350883E-01
1.32000000000E+09 -2.23807388073E-01 +8.87252061193E-01 -1.17219803290E-04 +1.46889704423E-04 -8.92128700214E-05 +1.01847449344E-04 -4.30544250192E-01 +8.55959376155E-01
1.32500000000E+09 -2.18088616087E-01 +8.87005751980E-01 -8.96761128683E-05 +1.59663586690E-04 -9.74116566615E-05 +1.41877624245E-04 -4.20762045068E-01 +8.59437688349E-01
1.33000000000E+09 -2.11653952258E-01 +8.86394673313E-01 -7.82844270684E-05 +1.18534073661E-04 -4.02294806037E-05 +1.35676179833E-04 -4.10869179121E-01 +8.62774007097E-01
1.33500000000E+09 -2.03474556688E-01 +8.85441784910E-01 -4.14836913763E-05 +1.24167179206E-04 +1.14693308403E-06 +1.47198934720E-04 -4.00973590280E-01 +8.66051677972E-01
1.34000000000E+09 -1.92781782735E-01 +8.84680259556E-01 -2.20325399996E-05 +1.48378912706E-04 -1.42513735733E-05 +1.32932105815E-04 -3.90644852420E-01 +8.69413281065E-01
1.34500000000E+09 -1.79689504980E-01 +8.84201978082E-01 +4.55701511883E-06 +1.63515637442E-04 +1.03240809434E-05 +1.41445278755E-04 -3.79720971306E-01 +8.72713958563E-01
1.35000000000E+09 -1.64645010598E-01 +8.84156656195E-01 +2.34013925632E-05 +2.11241187283E-04 +1.96007020829E-05 +2.07520575063E-04 -3.68493514136E-01 +8.75629098174E-01
1.35500000000E+09 -1.48408410057E-01 +8.84793071383E-01 +4.98859142325E-05 +1.57227706709E-04 +4.46813993396E-05 +1.90668611251E-04 -3.56882315207E-01 +8.78530023449E-01
1.36000000000E+09 -1.31849822273E-01 +8.85588533362E-01 +1.98540127925E-06 +1.98633072831E-04 +4.15079643671E-05 +1.74866225335E-04 -3.44844275988E-01 +8.81213766561E-01
1.36500000000E+09 -1.16030632812E-01 +8.86214528428E-01 +8.09570179673E-05 +2.29732413171E-04 +9.21222095493E-05 +2.69300988350E-04 -3.32576355828E-01 +8.83679434939E-01
1.37000000000E+09 -1.01931609568E-01 +8.86123062562E-01 +1.64570823296E-04 +3.04866994678E-04 +1.65390982209E-04 +2.83025690792E-04 -3.19562928114E-01 +8.86214027275E-01
1.37500000000E+09 -8.98945385350E-02 +8.85568997944E-01 +2.68195170134E-04 +1.75073169378E-04 +2.94129650005E-04 +2.05944721272E-04 -3.05762808678E-01 +8.88285793200E-01
1.38000000000E+09 -7.91644710473E-02 +8.84243184881E-01 +2.26022198548E-04 +6.67481451052E-05 +2.33679623509E-04 +8.78295649539E-05 -2.91277184994E-01 +8.90159517876E-01
1.38500000000E+09 -6.85716219927E-02 +8.82287664201E-01 +2.28805549882E-04 +1.21419751538E-04 +2.24708053929E-04 +1.57916318981E-04 -2.75889354608E-01 +8.91907316006E-01
1.39000000000E+09 -5.71150765480E-02 +8.79342951531E-01 +2.23894680326E-04 +8.97015725521E-05 +2.89163471487E-04 +1.49275996747E-04 -2.59863642534E-01 +8.93259729520E-01
1.39500000000E+09 -4.37244957521E-02 +8.75576062817E-01 +2.89755382810E-04 +1.42089801235E-04 +3.26131469944E-04 +1.07022417950E-04 -2.43095320526E-01 +8.93902625041E-01
1.40000000000E+09 -2.79854647133E-02 +8.70966468415E-01 +3.83471697797E-04 +1.84706293958E-04 +4.38011211539E-04 +1.20943465457E-04 -2.25500718267E-01 +8.94367707221E-01
1.40500000000E+09 -9.90463498330E-03 +8.65701683160E-01 +5.55654747797E-04 +6.99145061893E-05 +5.80255668326E-04 +3.39250658203E-05 -2.06520289858E-01 +8.94174474488E-01
1.41000000000E+09 +1.04585532833E-02 +8.60405339676E-01 +5.06595062684E-04 -1.92398183535E-04 +5.15535336672E-04 -1.89111098919E-04 -1.86578462534E-01 +8.93166410501E-01
1.41500000000E+09 +3.22475617285E-02 +8.54628057024E-01 +4.99795939021E-04 -2.06198981167E-04 +5.24274999780E-04 -1.48713818773E-04 -1.65031468495E-01 +8.91604680871E-01
1.42000000000E+09 +5.49760792204E-02 +8.48684702540E-01 +4.86168753237E-04 -3.56051197627E-04 +5.15375060141E-04 -4.27907913923E-04 -1.42387272475E-01 +8.88691975962E-01
1.42500000000E+09 +7.76128805813E-02 +8.41405561693E-01 +2.70297114002E-04 -4.03680454705E-04 +3.12495294037E-04 -4.33862479605E-04 -1.18925999851E-01 +8.85115437328E-01
1.43000000000E+09 +9.91666561900E-02 +8.32493269206E-01 +2.90893453389E-04 -2.85050904932E-04 +2.67542970493E-04 -3.32355409435E-04 -9.42767613891E-02 +8.80476398707E-01
1.43500000000E+09 +1.19760726293E-01 +8.21924229229E-01 +3.63523138306E-04 -4.43811474170E-04 +3.43487833647E-04 -4.64647588853E-04 -6.80371665635E-02 +8.73803347391E-01
1.44000000000E+09 +1.40047083241E-01 +8.09539574987E-01 +3.64608801246E-04 -5.46419981513E-04 +2.91385995062E-04 -6.21715903015E-04 -4.00085069686E-02 +8.65226891601E-01
1.44500000000E+09 +1.61135393678E-01 +7.94902968571E-01 +2.35924608075E-04 -8.17798743889E-04 +2.25338804372E-04 -8.21593664094E-04 -9.99674712785E-03 +8.53835955036E-01
1.45000000000E+09 +1.83816012280E-01 +7.76892749231E-01 -8.03725813889E-05 -8.96832682328E-04 -7.96242151123E-05 -9.10026989067E-04 +2.14884091482E-02 +8.39358623200E-01
1.45500000000E+09 +2.08164999461E-01 +7.55804745791E-01 -3.16771389606E-04 -7.88051733167E-04 -3.78118079858E-04 -7.59188771167E-04 +5.45247670803E-02 +8.21612993369E-01
1.46000000000E+09 +2.35228727938E-01 +7.31233757835E-01 -5.02317138855E-04 -7.54433076440E-04 -5.69865198783E-04 -6.35202376084E-04 +8.87368484191E-02 +8.00061313406E-01
1.46500000000E+09 +2.64413786782E-01 +7.02667277264E-01 -6.62892585513E-04 -2.84300978681E-04 -6.36814555870E-04 -2.24653698132E-04 +1.24569873820E-01 +7.73885679359E-01
1.47000000000E+09 +2.94482852071E-01 +6.69787125634E-01 -1.67624506971E-04 -2.45172675430E-04 -1.97170207524E-04 -2.48159841158E-04 +1.61517857484E-01 +7.41210037147E-01
1.47500000000E+09 +3.24717999057E-01 +6.32118068688E-01 -3.08740369099E-04 -5.15990644775E-04 -2.56357184605E-04 -5.34766500397E-04 +1.99038477469E-01 +7.01147687445E-01
1.48000000000E+09 +3.52223407486E-01 +5.88308106502E-01 -6.18018827233E-04 -5.97212096781E-04 -6.39082087031E-04 -6.00850302503E-04 +2.35766967974E-01 +6.52249261659E-01
1.48500000000E+09 +3.75958159896E-01 +5.38942074695E-01 -5.94805796210E-04 -4.80209508717E-04 -6.40094364938E-04 -4.30438286787E-04 +2.69941687063E-01 +5.94102452524E-01
1.49000000000E+09 +3.94849657486E-01 +4.81986428530E-01 -1.07972019704E-03 -4.83872823574E-04 -1.08633181152E-03 -3.81371114293E-04 +2.98525828758E-01 +5.25979534476E-01
1.49500000000E+09 +4.06458423134E-01 +4.17034086882E-01 -1.26000876875E-03 -6.89972710465E-05 -1.18670184350E-03 +2.41004517822E-06 +3.19014781679E-01 +4.47114232041E-01
1.50000000000E+09 +4.09590542157E-01 +3.42733153591E-01 -1.09269554309E-03 +4.68000561059E-04 -1.06287972312E-03 +4.67859916287E-04 +3.25948304994E-01 +3.57913406583E-01
1.50500000000E+09 +4.00285901618E-01 +2.59330750889E-01 -6.07587655433E-04 +6.73286934361E-04 -6.27494717777E-04 +6.56320985229E-04 +3.15549404108E-01 +2.60795203263E-01
1.51000000000E+09 +3.75460597318E-01 +1.69881049505E-01 -5.39990925453E-04 +9.21975367665E-05 -5.20431129533E-04 +3.60317211493E-05 +2.84252945929E-01 +1.61137283499E-01
1.51500000000E+09 +3.33372088071E-01 +7.84304767349E-02 -1.17736281462E-03 +3.81392832049E-04 -1.23274368202E-03 +3.77200997876E-04 +2.32627992090E-01 +6.39707065304E-02
1.52000000000E+09 +2.70178309914E-01 -8.77667135097E-03 -1.24276870192E-03 +9.02062223396E-04 -1.25370385687E-03 +8.84079845773E-04 +1.58446602520E-01 -2.43011593883E-02
1.52500000000E+09 +1.88904084363E-01 -8.22550161402E-02 -8.06151228792E-04 +1.63022411146E-03 -8.24588786520E-04 +1.59334473933E-03 +6.41469769173E-02 -9.43965208545E-02
1.53000000000E+09 +9.13831790633E-02 -1.37496691504E-01 -4.14527015058E-04 +1.77561650642E-03 -4.07540187612E-04 +1.79221775776E-03 -4.05884840897E-02 -1.41549488523E-01
1.53500000000E+09 -1.63856566452E-02 -1.68220128428E-01 +9.08590762767E-04 +1.99835234218E-03 +8.92433286026E-04 +1.97610439760E-03 -1.51558298090E-01 -1.66598049080E-01
1.54000000000E+09 -1.28357854006E-01 -1.71935146340E-01 +1.05078268920E-03 +9.08283266583E-04 +1.04870763020E-03 +9.09220430310E-04 -2.63525866952E-01 -1.66076699106E-01
1.54500000000E+09 -2.35646961442E-01 -1.50142696446E-01 +8.43598297981E-04 +7.06831232581E-04 +8.19743507867E-04 +7.08190326102E-04 -3.63778950384E-01 -1.43961074108E-01
1.55000000000E+09 -3.32133132755E-01 -1.08553852187E-01 +8.73844678621E-04 +4.20589581979E-04 +8.34026695151E-04 +5.00064586505E-04 -4.51299938886E-01 -1.07722676416E-01
1.55500000000E+09 -4.13587933101E-01 -5.38706536990E-02 +8.00814214472E-04 +4.50222181528E-04 +7.64160328045E-04 +4.70242959120E-04 -5.24606239312E-01 -6.07310927990E-02
1.56000000000E+09 -4.79410607860E-01 +6.39332877817E-03 +9.97361288250E-04 +6.31214607809E-04 +1.04782923914E-03 +7.38159642137E-04 -5.83675183098E-01 -7.66946595009E-03
1.56500000000E+09 -5.31093545056E-01 +6.76222635801E-02 +1.48736823620E-03 +1.51627286390E-04 +1.54855721997E-03 +1.35437244272E-04 -6.29577031073E-01 +4.86878754024E-02
1.57000000000E+09 -5.70635239095E-01 +1.27284565193E-01 +1.52967921912E-03 -8.09435899303E-04 +1.61503871774E-03 -8.57203822577E-04 -6.64451239016E-01 +1.03997993909E-01
