# Hz S RI R 50
! CMT, C1220, 16058040, 17.2.0/1
! Date: 14/08/2018 12:48:41
! Data: Format (Calibration Info)
! Freq                      S11: Re/Im (F2)                       S21: Re/Im (F2)                       S12: Re/Im (F2)                       S22: Re/Im (F2)            
1.00000000000E+09 -6.51924038427E-01 +7.13349904520E-01 +5.00701179152E-05 +5.00245117326E-05 -3.39692302309E-05 -5.91465779899E-05 -7.53762080081E-01 +6.21666141468E-01
1.00500000000E+09 -6.44988180366E-01 +7.18239852228E-01 +2.16436452943E-05 -8.23303600624E-06 -4.14400889955E-05 -2.97262624310E-05 -7.50147887861E-01 +6.25549786418E-01
1.01000000000E+09 -6.38951088237E-01 +7.22844480815E-01 +4.30569766175E-05 -2.12249569273E-05 -2.10154495417E-05 +6.25841988897E-06 -7.46516881827E-01 +6.29260259688E-01
1.01500000000E+09 -6.34669108852E-01 +7.26642737596E-01 -2.07776254119E-05 +8.95686482161E-05 +9.54211181145E-06 +7.19237991080E-06 -7.43556096414E-01 +6.32750408301E-01
1.02000000000E+09 -6.31550332512E-01 +7.30134112368E-01 -8.12203314833E-06 +8.12245898062E-06 -3.13113395528E-05 +1.22153896096E-05 -7.40372759584E-01 +6.36115076229E-01
1.02500000000E+09 -6.29436542471E-01 +7.33137984940E-01 +1.69354111857E-05 +9.29624359381E-06 +4.79435546860E-06 +2.86176657766E-05 -7.37350947852E-01 +6.39820383535E-01
1.03000000000E+09 -6.28020524492E-01 +7.35572743045E-01 -7.25595336262E-06 +2.55029503280E-05 +2.14965814339E-05 +7.66055817192E-06 -7.34170318140E-01 +6.43707923568E-01
1.03500000000E+09 -6.25812950374E-01 +7.38065417779E-01 -2.14965051476E-05 +4.88229264334E-05 -8.82230233748E-06 +5.97875230484E-05 -7.30209325668E-01 +6.47799930172E-01
1.04000000000E+09 -6.22371123826E-01 +7.41029437734E-01 +4.54225226164E-06 +1.27356697033E-05 -1.11192321124E-05 +5.21823769778E-05 -7.26437823954E-01 +6.51536477404E-01
1.04500000000E+09 -6.17603319990E-01 +7.44555105004E-01 -8.87302249196E-06 -5.55844603486E-06 +2.52841095830E-05 +1.44582358302E-05 -7.22920937684E-01 +6.54973279863E-01
1.05000000000E+09 -6.11072139866E-01 +7.48656551162E-01 -2.02852569371E-05 +2.05529301932E-05 +4.11931475405E-06 +2.47328245214E-05 -7.19513479326E-01 +6.58420109878E-01
1.05500000000E+09 -6.03169266007E-01 +7.53390240012E-01 -1.58014837084E-05 -3.18100082756E-05 -3.01884986846E-05 -1.29020753469E-05 -7.16243016090E-01 +6.61957710194E-01
1.06000000000E+09 -5.94748482309E-01 +7.58358747882E-01 -3.52749841935E-05 +4.55555435702E-05 -5.83225778630E-05 +6.77629152805E-05 -7.12853236979E-01 +6.65761951102E-01
1.06500000000E+09 -5.86428046978E-01 +7.63352554111E-01 -1.45753788079E-05 -2.38836847717E-06 +1.28178428599E-05 +1.28877365177E-05 -7.09095652194E-01 +6.69620572663E-01
1.07000000000E+09 -5.79110858513E-01 +7.67672073356E-01 +1.70648578574E-05 +5.17932434400E-05 +7.31389902276E-05 +5.63030618361E-05 -7.05059678363E-01 +6.73410637055E-01
1.07500000000E+09 -5.73278605494E-01 +7.71697841423E-01 +3.03754048407E-05 -1.58582373067E-05 -8.99394162949E-06 +3.78124791795E-05 -7.00858197938E-01 +6.77215226515E-01
1.08000000000E+09 -5.69110733681E-01 +7.74950685136E-01 +7.13359815953E-05 +6.50603842450E-05 +7.03370122442E-05 +6.13715626763E-05 -6.96888172041E-01 +6.80800046159E-01
1.08500000000E+09 -5.66517376827E-01 +7.77505181945E-01 +3.32930701808E-05 +5.86361902164E-05 +1.01556845171E-05 +2.99100422000E-05 -6.93149349543E-01 +6.84356274300E-01
1.09000000000E+09 -5.64472477143E-01 +7.79626853822E-01 +3.96441165647E-06 -7.38667075000E-06 +2.45346921616E-05 +6.16151936095E-05 -6.89379406950E-01 +6.88338702713E-01
1.09500000000E+09 -5.62806106580E-01 +7.81434663917E-01 +1.90928435751E-05 -5.04140577522E-06 +5.85580241180E-05 +7.97690580014E-05 -6.85593042692E-01 +6.92004919541E-01
1.10000000000E+09 -5.60070545586E-01 +7.83554664212E-01 +9.85549722074E-06 +7.72210302286E-06 +6.02341595002E-05 +2.94718691577E-05 -6.81686370291E-01 +6.95895026276E-01
1.10500000000E+09 -5.56282267631E-01 +7.86204821605E-01 +2.65950521159E-05 -1.76261233994E-06 +4.60136314890E-05 +7.17538402382E-05 -6.77523582315E-01 +6.99475771990E-01
1.11000000000E+09 -5.50987081890E-01 +7.89302047651E-01 +5.15756611492E-05 +3.65291389630E-06 +4.25822047786E-05 +2.89975913353E-05 -6.73289970716E-01 +7.02620460201E-01
1.11500000000E+09 -5.44196601745E-01 +7.93105773483E-01 +2.08062955902E-05 +1.68041144861E-05 -5.91588258915E-07 +1.55397854955E-05 -6.69397614111E-01 +7.06192318281E-01
1.12000000000E+09 -5.36706199197E-01 +7.97034773796E-01 +6.35579541035E-05 -4.87725325408E-06 -4.49332130212E-06 +4.18214031689E-05 -6.65349724903E-01 +7.09834390748E-01
1.12500000000E+09 -5.28702885041E-01 +8.01023886836E-01 +7.08144733987E-05 +2.80261434451E-05 +4.85933810002E-05 +5.34416040217E-05 -6.61200117435E-01 +7.13668785307E-01
1.13000000000E+09 -5.21356124012E-01 +8.04880630573E-01 +4.77066998719E-05 +2.88536096205E-05 +3.11025386647E-06 +1.59855928987E-05 -6.56911763201E-01 +7.17504927809E-01
1.13500000000E+09 -5.14703693449E-01 +8.07650681364E-01 -1.10134474176E-05 +1.26913364282E-05 +7.51755583158E-05 +8.65970907161E-06 -6.52125296093E-01 +7.21369786220E-01
1.14000000000E+09 -5.09338998078E-01 +8.10327877131E-01 +3.40038139308E-05 +2.51943572605E-06 +2.92691487186E-05 +3.06094340582E-05 -6.47380019019E-01 +7.24827937671E-01
1.14500000000E+09 -5.05098446967E-01 +8.12137272783E-01 +7.36271430197E-05 -1.06333197258E-05 +4.95367429455E-05 +5.11590899310E-05 -6.42701059768E-01 +7.28395959014E-01
1.15000000000E+09 -5.01351188591E-01 +8.13856072265E-01 +4.45415195010E-05 -3.53911903465E-05 +3.97267269477E-05 +3.70732393516E-05 -6.38063620688E-01 +7.32185318372E-01
1.15500000000E+09 -4.97832887809E-01 +8.15825772259E-01 +2.60065162122E-05 -2.17996216556E-07 +1.06037698272E-04 -4.54052582156E-05 -6.33470504476E-01 +7.35962711987E-01
1.16000000000E+09 -4.93568050428E-01 +8.17869820644E-01 +5.64754937900E-05 -5.81388542745E-08 +6.99844630564E-05 -3.79392913957E-05 -6.28632195931E-01 +7.39741222421E-01
1.16500000000E+09 -4.88126045291E-01 +8.20723088118E-01 +6.00394194153E-05 -2.02805047745E-05 +4.58833639284E-05 +3.66357887545E-05 -6.23607486075E-01 +7.43438957629E-01
1.17000000000E+09 -4.81822031139E-01 +8.23992897558E-01 +6.77514291228E-05 -1.72950316701E-05 +4.64503904478E-05 +1.13578089694E-05 -6.18210816953E-01 +7.46763194502E-01
1.17500000000E+09 -4.74432083991E-01 +8.27499495412E-01 +1.02957736949E-04 -3.79489609354E-05 +1.06023673988E-04 -1.65847355547E-07 -6.12790309565E-01 +7.49921697303E-01
1.18000000000E+09 -4.66785311484E-01 +8.31291950628E-01 +1.04502212074E-04 -4.11629019343E-05 +8.55825895782E-05 -5.09647420054E-05 -6.07106306929E-01 +7.52954111299E-01
1.18500000000E+09 -4.59012041450E-01 +8.34649378706E-01 +1.46750068082E-04 -5.94592196483E-05 +1.28463297887E-04 -7.27714519528E-05 -6.01466064277E-01 +7.55924213139E-01
1.19000000000E+09 -4.51549573681E-01 +8.37353736799E-01 +1.69106200769E-04 -1.08318131558E-04 +1.42890727446E-04 -1.41464422879E-04 -5.95396118624E-01 +7.58568107544E-01
1.19500000000E+09 -4.45220736987E-01 +8.39405225137E-01 +1.49070080680E-04 -1.58799594979E-04 +1.12738403915E-04 -1.72464797290E-04 -5.89531882768E-01 +7.59784297611E-01
1.20000000000E+09 -4.39883113833E-01 +8.40556142015E-01 +5.52432055704E-05 -1.68615605716E-04 +3.94765455877E-05 -1.91580726079E-04 -5.84998159081E-01 +7.60012454001E-01
1.20500000000E+09 -4.35095008586E-01 +8.41919088234E-01 -8.21114273109E-05 -1.32842416165E-04 -5.00486802260E-05 -1.69928831758E-04 -5.82560309724E-01 +7.60965136735E-01
1.21000000000E+09 -4.30258466429E-01 +8.43405607263E-01 -6.29329852620E-05 -1.57291141502E-04 -3.94437250565E-05 -3.40349159178E-05 -5.80660157878E-01 +7.64146825836E-01
1.21500000000E+09 -4.24418407259E-01 +8.45394874316E-01 +8.07667073230E-06 -8.73292137486E-05 -3.51685221950E-05 -8.24912599301E-05 -5.77927748032E-01 +7.68613472502E-01
1.22000000000E+09 -4.17498574692E-01 +8.47924017909E-01 +4.57530800538E-05 -1.01239886728E-04 +4.50242179370E-05 -8.67524064739E-05 -5.73701930125E-01 +7.74005298257E-01
1.22500000000E+09 -4.09180435090E-01 +8.50937847199E-01 +3.70445768304E-06 -1.44628067248E-04 +1.62866414715E-05 -1.50969263535E-04 -5.68653159431E-01 +7.79069470766E-01
1.23000000000E+09 -4.00166886752E-01 +8.54491739568E-01 +2.60894035389E-05 -1.22814865484E-04 +9.73923785390E-07 -1.79618497015E-04 -5.62967475957E-01 +7.83742327600E-01
1.23500000000E+09 -3.90583163477E-01 +8.58288211250E-01 -2.46409666098E-05 -1.41073027900E-04 -2.38036502963E-05 -1.50173513401E-04 -5.57217428054E-01 +7.88087999728E-01
1.24000000000E+09 -3.81115499810E-01 +8.62168200647E-01 -3.32577277429E-05 -1.80383813037E-04 -7.12176836088E-05 -1.20472658563E-04 -5.51229592359E-01 +7.91995195447E-01
1.24500000000E+09 -3.72346779447E-01 +8.66075485061E-01 -5.07361539400E-05 -1.36187100940E-04 -7.27801113079E-05 -1.81524583069E-04 -5.45088811320E-01 +7.95741100953E-01
1.25000000000E+09 -3.64349909294E-01 +8.69177226389E-01 -1.19806871920E-04 -1.45389132440E-04 -8.20801832604E-05 -1.45363000971E-04 -5.38703692415E-01 +7.99945343620E-01
1.25500000000E+09 -3.57403869080E-01 +8.71245673912E-01 -1.02655038791E-04 -1.77238281457E-04 -5.45895679011E-05 -1.95373737929E-04 -5.31956634483E-01 +8.04031604131E-01
1.26000000000E+09 -3.51184616684E-01 +8.72873974628E-01 -1.03234782559E-04 -2.04423830040E-04 -9.54223847356E-05 -1.85361633295E-04 -5.25344665652E-01 +8.08250095609E-01
1.26500000000E+09 -3.45373903880E-01 +8.73844937927E-01 -1.23937999415E-04 -2.11655177360E-04 -1.39258053444E-04 -2.04987044555E-04 -5.18391231913E-01 +8.12123084846E-01
1.27000000000E+09 -3.38991709757E-01 +8.75013052369E-01 -1.74899934390E-04 -2.11111637350E-04 -1.78140174693E-04 -2.17527568888E-04 -5.11521907824E-01 +8.15877769312E-01
1.27500000000E+09 -3.31480226035E-01 +8.76485856782E-01 -2.20671504333E-04 -1.97213997950E-04 -2.31263923309E-04 -1.96860400516E-04 -5.04355272723E-01 +8.19573134739E-01
1.28000000000E+09 -3.22128181466E-01 +8.78329662878E-01 -2.30305465882E-04 -1.30218518301E-04 -2.70579565026E-04 -1.51789285209E-04 -4.97347411446E-01 +8.23131403016E-01
1.28500000000E+09 -3.11069475978E-01 +8.80786923728E-01 -2.67036649151E-04 -1.56868107176E-04 -2.62161608661E-04 -1.30214680782E-04 -4.89954063152E-01 +8.27016386860E-01
1.29000000000E+09 -2.99063619724E-01 +8.83814861177E-01 -2.99189143144E-04 -1.27212683933E-04 -3.38325928331E-04 -1.18127375855E-04 -4.82310033263E-01 +8.30881786579E-01
1.29500000000E+09 -2.86687782774E-01 +8.87131896377E-01 -3.05217908944E-04 -1.03266993628E-04 -3.54380275288E-04 -5.32062182337E-05 -4.74344034025E-01 +8.34373764580E-01
1.30000000000E+09 -2.74734171394E-01 +8.90623016100E-01 -3.54815959759E-04 -6.61282259573E-05 -3.63440189142E-04 -3.59798374286E-05 -4.66721587973E-01 +8.37868316448E-01
1.30500000000E+09 -2.63923648583E-01 +8.93685573833E-01 -3.79320753416E-04 -5.72794101300E-05 -3.51953671105E-04 -2.41634947178E-05 -4.58548767586E-01 +8.41390624568E-01
1.31000000000E+09 -2.54516832062E-01 +8.95829290476E-01 -4.99059084966E-04 +5.71807135622E-05 -4.81556002811E-04 +3.23884912422E-05 -4.50252552203E-01 +8.44935343855E-01
1.31500000000E+09 -2.47312328846E-01 +8.97266795621E-01 -4.46569134822E-04 +1.23132284910E-04 -4.15915930988E-04 +7.61620553271E-05 -4.41569776330E-01 +8.48399867849E-01
1.32000000000E+09 -2.41038126397E-01 +8.98078260568E-01 -4.34650957863E-04 +1.19868591334E-04 -4.77948720635E-04 +8.03886357940E-05 -4.32556912969E-01 +8.51769445001E-01
1.32500000000E+09 -2.35252437410E-01 +8.98254712017E-01 -4.83195035285E-04 +1.23933143071E-04 -5.61658120790E-04 +1.76385163759E-04 -4.23181215573E-01 +8.55105605362E-01
1.33000000000E+09 -2.28412113800E-01 +8.98497263678E-01 -5.34496631305E-04 +2.03370889359E-04 -5.84335795439E-04 +2.81074912450E-04 -4.13723174975E-01 +8.58449260579E-01
1.33500000000E+09 -2.19596606072E-01 +8.98362330473E-01 -5.81643575538E-04 +3.55614832092E-04 -5.59671355397E-04 +4.36507203255E-04 -4.04000418975E-01 +8.61555127565E-01
1.34000000000E+09 -2.08542411308E-01 +8.98666190790E-01 -5.39858948940E-04 +4.16658455534E-04 -4.84271237836E-04 +4.48931062039E-04 -3.93761172653E-01 +8.64954587875E-01
1.34500000000E+09 -1.94717763787E-01 +8.99073660101E-01 -5.02380997184E-04 +5.91005281325E-04 -4.74310637459E-04 +5.29268621011E-04 -3.82959285504E-01 +8.68058906025E-01
1.35000000000E+09 -1.79030775747E-01 +8.99739535508E-01 -3.82294237680E-04 +6.46018104783E-04 -3.64321508318E-04 +6.28742316601E-04 -3.71863641696E-01 +8.71401023824E-01
1.35500000000E+09 -1.62202061479E-01 +9.00499466325E-01 -3.51964078725E-04 +6.84919617523E-04 -3.83273220390E-04 +6.44485676221E-04 -3.60100063840E-01 +8.74355011076E-01
1.36000000000E+09 -1.45379489092E-01 +9.01158660579E-01 -2.94215653214E-04 +7.12149083120E-04 -2.72273220010E-04 +7.38811599500E-04 -3.48389729403E-01 +8.77062354887E-01
1.36500000000E+09 -1.29276250244E-01 +9.01536015393E-01 -2.58490439310E-04 +8.87971903882E-04 -2.33121194177E-04 +7.76759144244E-04 -3.36135980793E-01 +8.79612307345E-01
1.37000000000E+09 -1.15082152014E-01 +9.01237835523E-01 -1.68049748470E-04 +9.73350940948E-04 -2.18346657487E-04 +8.72011067842E-04 -3.23415547393E-01 +8.82078833568E-01
1.37500000000E+09 -1.02620807555E-01 +9.00748555340E-01 -1.57794201986E-05 +1.01912881131E-03 -9.70331620191E-05 +9.70917462928E-04 -3.09597278271E-01 +8.84648042537E-01
1.38000000000E+09 -9.13609075475E-02 +8.99737283654E-01 +7.23953362378E-05 +1.00887413979E-03 -4.46526257715E-05 +1.08060785396E-03 -2.94923200454E-01 +8.86806997047E-01
1.38500000000E+09 -7.97011681010E-02 +8.98173113779E-01 +1.59387754459E-04 +1.12983330613E-03 +9.96413844944E-05 +1.20981261644E-03 -2.79454689517E-01 +8.88711812072E-01
1.39000000000E+09 -6.73967063590E-02 +8.95998484922E-01 +2.76762192105E-04 +1.17603531519E-03 +3.07333183187E-04 +1.33659377648E-03 -2.63457180872E-01 +8.90303633003E-01
1.39500000000E+09 -5.29776267111E-02 +8.93151443927E-01 +4.50433380583E-04 +1.23951715997E-03 +6.19164467241E-04 +1.29276901282E-03 -2.46857515405E-01 +8.91013196185E-01
1.40000000000E+09 -3.57776154747E-02 +8.89329654903E-01 +5.67761359811E-04 +1.30111130431E-03 +7.43255811240E-04 +1.29361552164E-03 -2.29430056165E-01 +8.91578633897E-01
1.40500000000E+09 -1.67343734054E-02 +8.84743883543E-01 +8.78416965690E-04 +1.38472286928E-03 +8.99682146195E-04 +1.29740508796E-03 -2.10944240203E-01 +8.91470281710E-01
1.41000000000E+09 +4.54338981966E-03 +8.79412084939E-01 +1.18627894197E-03 +1.33560369383E-03 +1.13756772741E-03 +1.30023454955E-03 -1.90706259111E-01 +8.90936715111E-01
1.41500000000E+09 +2.67828879246E-02 +8.73394170115E-01 +1.49190091548E-03 +1.23316719594E-03 +1.48214235046E-03 +1.33332621210E-03 -1.69133346299E-01 +8.89515346888E-01
1.42000000000E+09 +4.92950352388E-02 +8.66313085409E-01 +1.74101651082E-03 +1.01970491801E-03 +1.84974904716E-03 +1.12544656668E-03 -1.46077530444E-01 +8.87052029509E-01
1.42500000000E+09 +7.10776949580E-02 +8.58339520323E-01 +1.86454003274E-03 +9.55702756291E-04 +2.10419367620E-03 +9.77041615828E-04 -1.22328714004E-01 +8.83391239980E-01
1.43000000000E+09 +9.22082769954E-02 +8.49076843178E-01 +2.24559014287E-03 +9.56973877962E-04 +2.52017005094E-03 +8.12613628937E-04 -9.75684456677E-02 +8.78744101491E-01
1.43500000000E+09 +1.12685853747E-01 +8.38291836737E-01 +2.86133557040E-03 +6.25080628608E-04 +2.98191443421E-03 +4.00094973736E-04 -7.11414127967E-02 +8.72012425964E-01
1.44000000000E+09 +1.33628395015E-01 +8.26315975057E-01 +3.22595661695E-03 -4.16049412165E-05 +3.23587830437E-03 -3.19482408737E-04 -4.30486998659E-02 +8.63311192791E-01
1.44500000000E+09 +1.56258295979E-01 +8.11240465127E-01 +3.27036069376E-03 -6.86995097523E-04 +3.27086580798E-03 -8.62919518852E-04 -1.27259190527E-02 +8.51996557775E-01
1.45000000000E+09 +1.80607959418E-01 +7.92936273702E-01 +3.16233298315E-03 -1.22540861410E-03 +3.11008166629E-03 -1.48641518574E-03 +1.89662014911E-02 +8.37555023086E-01
1.45500000000E+09 +2.07356543977E-01 +7.70982759668E-01 +3.21985942265E-03 -1.52810860153E-03 +3.14681447394E-03 -1.84289467844E-03 +5.23807836153E-02 +8.20383005486E-01
1.46000000000E+09 +2.36626905881E-01 +7.45003573935E-01 +3.52010102042E-03 -2.04926701449E-03 +3.18728447837E-03 -2.30333851310E-03 +8.75113720561E-02 +7.98689667860E-01
1.46500000000E+09 +2.67215306120E-01 +7.14175898831E-01 +3.77826993966E-03 -2.94048641923E-03 +3.33795123488E-03 -2.94104943586E-03 +1.23519409543E-01 +7.72016627751E-01
1.47000000000E+09 +2.98149569703E-01 +6.78891731079E-01 +3.66116287735E-03 -4.35784498498E-03 +3.33487300750E-03 -4.03277089657E-03 +1.60691717909E-01 +7.37929800917E-01
1.47500000000E+09 +3.28238852437E-01 +6.38701532119E-01 +2.70780936337E-03 -5.65404220024E-03 +2.77258915125E-03 -5.36940823631E-03 +1.97371898288E-01 +6.97054655936E-01
1.48000000000E+09 +3.56156468572E-01 +5.92174499146E-01 +1.66405369552E-03 -6.56638415077E-03 +1.87346499620E-03 -6.56999171373E-03 +2.33995606245E-01 +6.47571390154E-01
1.48500000000E+09 +3.78706712268E-01 +5.38808260331E-01 +4.15631660869E-04 -7.50459702207E-03 +2.90859341580E-04 -7.68117742866E-03 +2.67393551299E-01 +5.88963373781E-01
1.49000000000E+09 +3.96325106717E-01 +4.78428878139E-01 -1.31557056922E-03 -8.26581464635E-03 -1.71375164460E-03 -8.20836349705E-03 +2.96068284755E-01 +5.19808782159E-01
1.49500000000E+09 +4.05410916031E-01 +4.10029830156E-01 -3.74945031455E-03 -8.39522208709E-03 -3.94388445049E-03 -7.88884782971E-03 +3.14104659318E-01 +4.40298956098E-01
1.50000000000E+09 +4.05236389021E-01 +3.32980236856E-01 -5.94654005245E-03 -7.96063306401E-03 -5.64159589352E-03 -7.44549732842E-03 +3.19453492340E-01 +3.52131035345E-01
1.50500000000E+09 +3.91926197672E-01 +2.47980964172E-01 -8.55652642555E-03 -6.83055785304E-03 -7.98096161445E-03 -6.79415504515E-03 +3.09382199923E-01 +2.56030968166E-01
1.51000000000E+09 +3.63265659405E-01 +1.58352380363E-01 -1.05384051583E-02 -4.24720673610E-03 -1.02422265812E-02 -4.54632254040E-03 +2.77815502489E-01 +1.54243980456E-01
1.51500000000E+09 +3.15567554015E-01 +6.77876175134E-02 -1.18493483369E-02 -2.09806362914E-03 -1.18470663307E-02 -2.42887999049E-03 +2.21674548931E-01 +5.82266843978E-02
1.52000000000E+09 +2.47966975829E-01 -1.43199920605E-02 -1.35633238333E-02 +1.20774285350E-03 -1.37003426614E-02 +1.03079415932E-03 +1.46744932150E-01 -2.65937933478E-02
1.52500000000E+09 +1.63916183320E-01 -8.21321886588E-02 -1.25444373621E-02 +6.87419955814E-03 -1.27147921279E-02 +6.85216773893E-03 +5.33692708199E-02 -9.51810076168E-02
1.53000000000E+09 +6.63544231173E-02 -1.30933756783E-01 -8.72839157340E-03 +9.19834500183E-03 -8.82900298180E-03 +9.21540754067E-03 -5.36221206251E-02 -1.39673221423E-01
1.53500000000E+09 -4.06112382900E-02 -1.55717321847E-01 -6.10957710539E-03 +1.10836605565E-02 -6.18228006502E-03 +1.10899208743E-02 -1.63280802094E-01 -1.59911148152E-01
1.54000000000E+09 -1.49266162997E-01 -1.54274834602E-01 -2.82285597141E-03 +1.13297735609E-02 -2.90342377559E-03 +1.12050603529E-02 -2.70827448000E-01 -1.58045044270E-01
1.54500000000E+09 -2.51068471564E-01 -1.30814495412E-01 +3.90952228345E-04 +1.14014979649E-02 +5.53606198795E-05 +1.12676141837E-02 -3.69199401602E-01 -1.36465927646E-01
1.55000000000E+09 -3.44064815917E-01 -9.04693414105E-02 +2.62376693832E-03 +1.03849249979E-02 +2.20339664894E-03 +1.04965003692E-02 -4.55021160472E-01 -9.99436912290E-02
1.55500000000E+09 -4.23622561989E-01 -3.64911240547E-02 +5.52851150745E-03 +8.76286348741E-03 +5.19733925145E-03 +9.19045606613E-03 -5.26086380020E-01 -5.34018293326E-02
1.56000000000E+09 -4.86969668466E-01 +2.19445261611E-02 +6.75690513782E-03 +5.79893305372E-03 +6.86402733979E-03 +6.34320212965E-03 -5.84104481080E-01 -1.12572113168E-03
1.56500000000E+09 -5.37636207570E-01 +8.16502741313E-02 +6.54684835438E-03 +4.07432295475E-03 +6.87677903464E-03 +4.47055111044E-03 -6.28448333018E-01 +5.47399287340E-02
1.57000000000E+09 -5.76332809777E-01 +1.40135055704E-01 +6.65527889403E-03 +2.46661748422E-03 +7.12865207478E-03 +2.56535984782E-03 -6.62291523867E-01 +1.08147207566E-01
