# Hz S RI R 50
! CMT, C1220, 16058040, 17.2.0/1
! Date: 14/08/2018 12:58:40
! Data: Format (Calibration Info)
! Freq                      S11: Re/Im (F2)                       S21: Re/Im (F2)                       S12: Re/Im (F2)                       S22: Re/Im (F2)            
1.00000000000E+09 -6.47934972790E-01 +7.11922394403E-01 +2.44177920791E-05 -1.51286468635E-05 -4.12864190836E-05 +7.62710629213E-05 -7.19262377873E-01 +6.45819809896E-01
1.00500000000E+09 -6.41424012151E-01 +7.16532644386E-01 +2.68230190487E-05 -7.76111493683E-06 +4.32862142931E-05 +3.57760859100E-05 -7.15435465924E-01 +6.49854708224E-01
1.01000000000E+09 -6.35606162693E-01 +7.20830257094E-01 -4.25454027788E-05 +3.22729149002E-05 +1.76465692889E-05 +4.50588876593E-06 -7.11614048076E-01 +6.53296160088E-01
1.01500000000E+09 -6.30905611790E-01 +7.24565401375E-01 -3.87671460278E-05 +1.45561275557E-05 -1.36163216207E-05 +9.02331454736E-05 -7.08209127064E-01 +6.56722008325E-01
1.02000000000E+09 -6.26959418981E-01 +7.28126076462E-01 +2.69092363943E-05 +3.85327141140E-05 -4.04433850275E-05 -3.18860558998E-05 -7.04798030477E-01 +6.60216023506E-01
1.02500000000E+09 -6.23585110753E-01 +7.31336894959E-01 -2.08074496880E-05 +4.40390916943E-05 +5.97254709616E-05 +6.25671472457E-06 -7.01811762213E-01 +6.63786580771E-01
1.03000000000E+09 -6.20675902432E-01 +7.34294532140E-01 -3.23103496739E-05 -4.24793747897E-05 -1.79193170262E-05 +5.32704730286E-05 -6.98011115056E-01 +6.67613787915E-01
1.03500000000E+09 -6.16927819974E-01 +7.37333494791E-01 +3.46285258543E-06 -5.29181919022E-06 -1.72294785718E-05 +1.45523283236E-06 -6.93857116933E-01 +6.71282650727E-01
1.04000000000E+09 -6.12535019461E-01 +7.40645384533E-01 +1.38087570491E-05 +6.45554439046E-05 +1.55995202525E-05 +1.25671418157E-05 -6.89927089675E-01 +6.74781164870E-01
1.04500000000E+09 -6.06790919848E-01 +7.44271992954E-01 +1.70613860968E-05 +3.81051032485E-05 -4.35932611789E-06 +2.98268189289E-07 -6.86204067808E-01 +6.78162567785E-01
1.05000000000E+09 -6.00090218810E-01 +7.48167060379E-01 -1.67963360738E-05 +3.82545309201E-05 +1.68405740989E-05 +2.24369708671E-05 -6.82632979716E-01 +6.81537017472E-01
1.05500000000E+09 -5.92544477605E-01 +7.52387372498E-01 -2.43192778568E-06 +3.08539108923E-05 +1.30556873975E-05 +3.22645412501E-05 -6.79176931819E-01 +6.84968707043E-01
1.06000000000E+09 -5.84624027367E-01 +7.57078972601E-01 -6.40675712217E-05 +1.71847740290E-05 +1.66082618497E-05 +5.12962519031E-05 -6.75679826498E-01 +6.88682708104E-01
1.06500000000E+09 -5.76723420782E-01 +7.61783336662E-01 +1.88260829824E-05 -1.60760897161E-05 +5.19116638612E-07 +1.79276032720E-05 -6.71549735201E-01 +6.92480851076E-01
1.07000000000E+09 -5.69871657293E-01 +7.65804069521E-01 +2.62058336373E-05 +1.61074644106E-05 +5.48217952134E-05 +2.51200399308E-05 -6.67318647192E-01 +6.96020854410E-01
1.07500000000E+09 -5.63757988550E-01 +7.69635785544E-01 +1.60348388691E-05 +5.49885348174E-05 -1.55724320944E-05 +4.26689863158E-05 -6.62746770339E-01 +6.99441530089E-01
1.08000000000E+09 -5.58939931462E-01 +7.72688190743E-01 +1.64308880123E-05 +3.30572053596E-05 +2.89042837951E-05 +2.15966874817E-05 -6.58814204201E-01 +7.03250926371E-01
1.08500000000E+09 -5.55186179423E-01 +7.75397620970E-01 +3.89649928849E-05 +1.06710796733E-05 -4.70258246595E-06 +2.85075219877E-05 -6.54714129869E-01 +7.06616021231E-01
1.09000000000E+09 -5.51818721974E-01 +7.77672640749E-01 +1.72974965740E-05 +4.46918703900E-05 +6.19290552821E-05 +1.94805364361E-05 -6.50878659432E-01 +7.10270175879E-01
1.09500000000E+09 -5.48963349018E-01 +7.79758365134E-01 +6.73709254629E-06 +4.34158159259E-05 +1.41477424160E-05 +3.00418746946E-05 -6.46918110659E-01 +7.14066387611E-01
1.10000000000E+09 -5.45288665683E-01 +7.82078276638E-01 +1.02879298239E-05 +1.81760558211E-05 +2.72600567493E-05 +3.43243112302E-05 -6.42796091946E-01 +7.17548465673E-01
1.10500000000E+09 -5.41123255392E-01 +7.84554105307E-01 -1.59356385435E-05 +1.74880712252E-05 +6.21548445192E-05 +1.73531812684E-06 -6.38220317242E-01 +7.21005562740E-01
1.11000000000E+09 -5.35794285531E-01 +7.87727129114E-01 +5.89876783600E-05 +2.27843622791E-05 +2.29005356771E-05 +1.00249821808E-05 -6.34122849938E-01 +7.24272443388E-01
1.11500000000E+09 -5.29616672450E-01 +7.91196460280E-01 +7.54403474751E-05 -6.15121831400E-07 +6.52621518338E-05 -9.10779723917E-07 -6.29852444131E-01 +7.27194650491E-01
1.12000000000E+09 -5.22703093470E-01 +7.94702522309E-01 +5.43053837433E-05 +3.21033296836E-05 +9.83150558050E-05 +2.46021528918E-05 -6.25716131768E-01 +7.30813995969E-01
1.12500000000E+09 -5.15340962959E-01 +7.98212071819E-01 +6.34942793306E-05 +1.68161346508E-05 +1.17657733997E-04 -1.67124374689E-05 -6.21283898945E-01 +7.34456678628E-01
1.13000000000E+09 -5.08199131092E-01 +8.01508899226E-01 +7.10394481023E-05 +3.02138713501E-06 +5.41687705604E-05 +2.06827696142E-05 -6.16814797822E-01 +7.38107093649E-01
1.13500000000E+09 -5.01409680127E-01 +8.04012573603E-01 +6.57092978957E-05 -5.40305913015E-06 +5.32387839549E-05 +1.60243868067E-05 -6.11917663445E-01 +7.41719685581E-01
1.14000000000E+09 -4.95190978967E-01 +8.06288943049E-01 +8.68364898183E-05 -4.64602304167E-05 +9.93960050659E-05 -1.15783098285E-05 -6.07057623010E-01 +7.45051901058E-01
1.14500000000E+09 -4.89788672771E-01 +8.08038827957E-01 +7.97052635504E-05 -3.79560380121E-06 +8.35091280315E-05 -2.04601417297E-05 -6.02140923721E-01 +7.48341425607E-01
1.15000000000E+09 -4.84747678072E-01 +8.09615543709E-01 +7.28165274769E-05 -4.50551212480E-05 +7.99447083088E-05 -4.86861073320E-05 -5.97321636076E-01 +7.51873879378E-01
1.15500000000E+09 -4.79828007045E-01 +8.11512752360E-01 +7.05160948326E-05 -3.35269557519E-05 +8.34208671322E-05 -2.62501340224E-05 -5.92414637401E-01 +7.55592633070E-01
1.16000000000E+09 -4.74599249276E-01 +8.13404174758E-01 +5.64475315330E-05 -3.21875576154E-05 +1.04149650857E-04 -3.88473726610E-05 -5.87422105025E-01 +7.59184568992E-01
1.16500000000E+09 -4.68817291399E-01 +8.16066280751E-01 +9.79596048095E-05 -7.64869194093E-05 +8.98218000641E-05 -2.51523736801E-05 -5.82335357964E-01 +7.62687532941E-01
1.17000000000E+09 -4.62473341465E-01 +8.18928966533E-01 +8.52321018019E-05 -6.64413556559E-05 +6.74892900477E-05 -3.17924102019E-05 -5.76695650812E-01 +7.65634211087E-01
1.17500000000E+09 -4.55545413858E-01 +8.21888037336E-01 +1.19647043083E-04 -5.24457501054E-05 +1.20822018081E-04 -2.60809070892E-05 -5.71047087444E-01 +7.68665508063E-01
1.18000000000E+09 -4.48113499705E-01 +8.25251020256E-01 +1.23751143191E-04 -1.04527692170E-04 +1.64157216233E-04 -9.04572969490E-05 -5.65584112828E-01 +7.71697838236E-01
1.18500000000E+09 -4.40448318729E-01 +8.28049457269E-01 +1.15384270173E-04 -1.51827844110E-04 +1.36341493865E-04 -1.47407584101E-04 -5.59580076361E-01 +7.74346429238E-01
1.19000000000E+09 -4.32854318616E-01 +8.30448000152E-01 +9.83468784487E-05 -1.64357759182E-04 +1.25119947547E-04 -1.75936444491E-04 -5.53545381062E-01 +7.76729376752E-01
1.19500000000E+09 -4.25568373452E-01 +8.32352963112E-01 +6.51839820790E-05 -2.39287761869E-04 +6.38277983722E-05 -1.88466401209E-04 -5.47596503405E-01 +7.77691553380E-01
1.20000000000E+09 -4.18777624146E-01 +8.33334225724E-01 +9.45591752604E-06 -2.75849218924E-04 -3.24316953491E-05 -2.55051519503E-04 -5.42952751737E-01 +7.77679177815E-01
1.20500000000E+09 -4.12263013585E-01 +8.34467987887E-01 -3.20322524309E-05 -2.25006479832E-04 -1.09307135644E-04 -1.51155397644E-04 -5.40367587916E-01 +7.78531555773E-01
1.21000000000E+09 -4.05729485006E-01 +8.35718396487E-01 -1.30670845645E-04 -8.67144530010E-05 -5.31218239979E-05 -8.33369493726E-05 -5.38177672471E-01 +7.81458554941E-01
1.21500000000E+09 -3.98598471894E-01 +8.37350609254E-01 -9.83063705465E-05 -1.15868384472E-04 -6.04821020897E-05 -1.37453837779E-04 -5.35109620899E-01 +7.86019730244E-01
1.22000000000E+09 -3.90966248160E-01 +8.39288030569E-01 -3.48729081099E-05 -6.76973681302E-05 -2.42862833066E-05 -1.33919143858E-04 -5.30762384120E-01 +7.90989610617E-01
1.22500000000E+09 -3.82804706487E-01 +8.41764460226E-01 -2.70700656596E-05 -1.05161878428E-04 -2.20661887157E-05 -1.62500590909E-04 -5.25455127445E-01 +7.95872048472E-01
1.23000000000E+09 -3.74389298727E-01 +8.44602126389E-01 -3.63565097469E-05 -1.62012010930E-04 -5.95158077823E-05 -1.76697956766E-04 -5.19731629163E-01 +8.00263983203E-01
1.23500000000E+09 -3.66044153787E-01 +8.47723064994E-01 -3.38908235323E-05 -1.44620786176E-04 -5.50756199510E-05 -1.29155596347E-04 -5.13856973820E-01 +8.04197596684E-01
1.24000000000E+09 -3.57856739002E-01 +8.50887010815E-01 -7.26522590045E-05 -1.70594608417E-04 -5.34560771135E-05 -1.51915690055E-04 -5.07559121844E-01 +8.07859988518E-01
1.24500000000E+09 -3.50020225494E-01 +8.54189731331E-01 -8.48535759930E-05 -1.57860079276E-04 -1.24826174183E-04 -1.63359116775E-04 -5.01338948450E-01 +8.11218255194E-01
1.25000000000E+09 -3.42422475488E-01 +8.56805671928E-01 -1.04618143488E-04 -1.63002893089E-04 -6.38199038557E-05 -1.54534746957E-04 -4.94728935118E-01 +8.15235124605E-01
1.25500000000E+09 -3.35086769271E-01 +8.58628149940E-01 -6.39769385171E-05 -1.54836412693E-04 -8.29442925629E-05 -1.95503292462E-04 -4.87954638468E-01 +8.18809577908E-01
1.26000000000E+09 -3.27756674883E-01 +8.59755962168E-01 -1.15630129708E-04 -1.80509761398E-04 -1.23929566330E-04 -2.70596527618E-04 -4.81285094825E-01 +8.22773552160E-01
1.26500000000E+09 -3.20127300500E-01 +8.60339413884E-01 -1.68962463831E-04 -2.35139040294E-04 -1.84144724205E-04 -2.38487370116E-04 -4.74196585505E-01 +8.26059137970E-01
1.27000000000E+09 -3.11925367240E-01 +8.60889940512E-01 -2.22830412951E-04 -1.49207637883E-04 -1.91881929837E-04 -2.19090759616E-04 -4.67342965522E-01 +8.29623037388E-01
1.27500000000E+09 -3.02967140185E-01 +8.61448039113E-01 -3.01282844107E-04 -2.01359263772E-04 -2.83045565647E-04 -2.13861973330E-04 -4.60144419094E-01 +8.32912827177E-01
1.28000000000E+09 -2.92984720819E-01 +8.62451588546E-01 -3.13600096554E-04 -1.77596776114E-04 -3.17034954597E-04 -1.72014124842E-04 -4.52944731049E-01 +8.36016358792E-01
1.28500000000E+09 -2.82045896964E-01 +8.63849649200E-01 -2.90862264772E-04 -1.21778707659E-04 -3.08974183620E-04 -1.04431174798E-04 -4.45632427889E-01 +8.39550260920E-01
1.29000000000E+09 -2.71030044388E-01 +8.65690381981E-01 -3.51981493937E-04 -1.21278083473E-04 -3.62659308413E-04 -1.12290855233E-04 -4.37970074026E-01 +8.43052964280E-01
1.29500000000E+09 -2.60336905883E-01 +8.68030607605E-01 -3.51078902136E-04 -1.34714185656E-04 -3.72646607057E-04 -1.02523227442E-04 -4.30070783556E-01 +8.45928598474E-01
1.30000000000E+09 -2.50046942011E-01 +8.70774391850E-01 -4.45098224189E-04 -1.21393397831E-04 -4.86021392683E-04 -8.04786803173E-05 -4.22316490293E-01 +8.49199611805E-01
1.30500000000E+09 -2.40690498146E-01 +8.73595723946E-01 -5.39148330307E-04 -2.45841240760E-05 -4.93391562744E-04 +2.06143661883E-05 -4.14343090220E-01 +8.52284153885E-01
1.31000000000E+09 -2.31876013214E-01 +8.75770399169E-01 -5.82426226783E-04 +7.81270067930E-05 -5.79409672491E-04 +8.45027243828E-05 -4.05908513721E-01 +8.55272261350E-01
1.31500000000E+09 -2.23884298221E-01 +8.77063313820E-01 -5.55070424811E-04 +1.77624996280E-04 -5.76238783959E-04 +1.71464839453E-04 -3.97218173187E-01 +8.58404366382E-01
1.32000000000E+09 -2.16441292353E-01 +8.77394742010E-01 -5.10976710065E-04 +2.32166228673E-04 -5.45807067520E-04 +2.25188896515E-04 -3.88231212625E-01 +8.61449212966E-01
1.32500000000E+09 -2.08857014789E-01 +8.77018900697E-01 -5.28863672003E-04 +2.49894613144E-04 -5.69349770383E-04 +2.93750413572E-04 -3.78831622877E-01 +8.64275860758E-01
1.33000000000E+09 -2.00642280512E-01 +8.76253874236E-01 -5.80423590475E-04 +3.05969136897E-04 -5.57192188872E-04 +3.83349253047E-04 -3.69492003609E-01 +8.67201213207E-01
1.33500000000E+09 -1.90917156868E-01 +8.75415495169E-01 -6.08833841512E-04 +4.58277106284E-04 -6.09395522402E-04 +5.13679396010E-04 -3.59919496486E-01 +8.69909849727E-01
1.34000000000E+09 -1.79666815453E-01 +8.74997555539E-01 -5.44737210191E-04 +5.45313688272E-04 -5.41748775355E-04 +5.38674151176E-04 -3.49902333886E-01 +8.72616602593E-01
1.34500000000E+09 -1.66714298186E-01 +8.74518681716E-01 -5.50521047528E-04 +6.73242532977E-04 -5.10532030767E-04 +6.51829601671E-04 -3.39099264933E-01 +8.75493220782E-01
1.35000000000E+09 -1.52615736679E-01 +8.74573471507E-01 -4.72165158135E-04 +7.77138787972E-04 -4.81816534299E-04 +7.06334417403E-04 -3.28161514388E-01 +8.78141234581E-01
1.35500000000E+09 -1.37753053823E-01 +8.75020830935E-01 -4.33408963514E-04 +8.25926873395E-04 -3.64221094057E-04 +7.84690206574E-04 -3.16754677013E-01 +8.80224557699E-01
1.36000000000E+09 -1.22680362179E-01 +8.75540987495E-01 -4.04606886285E-04 +9.10814894392E-04 -3.36791896293E-04 +8.80589238915E-04 -3.05194323500E-01 +8.82499961839E-01
1.36500000000E+09 -1.07459108951E-01 +8.75602990761E-01 -4.10479378845E-04 +1.03787768417E-03 -3.60845590425E-04 +9.31804137362E-04 -2.93463340389E-01 +8.84385807324E-01
1.37000000000E+09 -9.33131048453E-02 +8.74602370718E-01 -2.75043413213E-04 +1.22371716608E-03 -3.13407974553E-04 +1.11120461606E-03 -2.81027414957E-01 +8.86314513734E-01
1.37500000000E+09 -8.03333712731E-02 +8.72931143208E-01 -4.15401897190E-05 +1.27486520291E-03 -1.93914785257E-04 +1.23080151868E-03 -2.67435789566E-01 +8.88086524310E-01
1.38000000000E+09 -6.80389770260E-02 +8.70507595928E-01 +4.44133082423E-05 +1.31542406253E-03 -1.34118908919E-04 +1.36570716608E-03 -2.53156819055E-01 +8.89549428776E-01
1.38500000000E+09 -5.54880834751E-02 +8.67416921615E-01 +1.72049181668E-04 +1.43800661041E-03 +4.65937372330E-06 +1.59693152188E-03 -2.38255178025E-01 +8.90784866796E-01
1.39000000000E+09 -4.27668703273E-02 +8.63666288545E-01 +2.94241412633E-04 +1.51020899002E-03 +3.38531454969E-04 +1.70641406800E-03 -2.22978876504E-01 +8.91871746760E-01
1.39500000000E+09 -2.87634432371E-02 +8.59736348105E-01 +4.76296546232E-04 +1.66473055142E-03 +6.50585501017E-04 +1.75750132421E-03 -2.06971901804E-01 +8.92079567901E-01
1.40000000000E+09 -1.31067770519E-02 +8.55175056181E-01 +7.59202401177E-04 +1.79823016125E-03 +9.31279124096E-04 +1.83434442220E-03 -1.90328980924E-01 +8.92129447377E-01
1.40500000000E+09 +3.58026826033E-03 +8.50373817529E-01 +1.18116668053E-03 +1.95534223273E-03 +1.24533772330E-03 +1.86981067927E-03 -1.72508709453E-01 +8.91377624726E-01
1.41000000000E+09 +2.14831850841E-02 +8.45572284120E-01 +1.61290525451E-03 +1.83057520743E-03 +1.56860390437E-03 +1.76761577791E-03 -1.53251460697E-01 +8.90270768315E-01
1.41500000000E+09 +4.06883689859E-02 +8.40723073173E-01 +1.86202306803E-03 +1.66271989032E-03 +1.83707666153E-03 +1.78550585653E-03 -1.32376655053E-01 +8.88164730976E-01
1.42000000000E+09 +6.13654813665E-02 +8.34984092408E-01 +2.20316515008E-03 +1.60518254887E-03 +2.34170381356E-03 +1.81655023941E-03 -1.10585056882E-01 +8.85037779992E-01
1.42500000000E+09 +8.23157425411E-02 +8.27392814945E-01 +2.59668771371E-03 +1.45421646241E-03 +2.99341189374E-03 +1.52254319192E-03 -8.79668444068E-02 +8.80915697258E-01
1.43000000000E+09 +1.03457084908E-01 +8.17614462305E-01 +3.08867037752E-03 +1.42905166086E-03 +3.45317066211E-03 +1.30890128394E-03 -6.46549411703E-02 +8.75808971312E-01
1.43500000000E+09 +1.24317298972E-01 +8.05390749316E-01 +3.94545634399E-03 +1.07517792395E-03 +4.16441523297E-03 +7.35892563586E-04 -3.94993730009E-02 +8.69048233018E-01
1.44000000000E+09 +1.45548324386E-01 +7.91630092534E-01 +4.55973781677E-03 +1.20522793431E-04 +4.59250187018E-03 -1.83694890251E-04 -1.29293599921E-02 +8.60097463626E-01
1.44500000000E+09 +1.68136749813E-01 +7.75258294167E-01 +4.57649573448E-03 -8.50928360690E-04 +4.59364003415E-03 -1.04345337413E-03 +1.57382491778E-02 +8.48781646772E-01
1.45000000000E+09 +1.91919482147E-01 +7.55930223176E-01 +4.54375470727E-03 -1.36100354888E-03 +4.56944838980E-03 -1.67678145372E-03 +4.59755391558E-02 +8.34203960531E-01
1.45500000000E+09 +2.16895909653E-01 +7.34088001479E-01 +4.81105871722E-03 -1.96788405621E-03 +4.70633411123E-03 -2.37291399868E-03 +7.72403554764E-02 +8.17177456422E-01
1.46000000000E+09 +2.43430177937E-01 +7.09517151426E-01 +5.25835001115E-03 -2.80628845258E-03 +4.77384374424E-03 -3.18024473107E-03 +1.10425221810E-01 +7.96087168566E-01
1.46500000000E+09 +2.71221601448E-01 +6.82114407258E-01 +5.56042703004E-03 -3.99305571448E-03 +4.89737583597E-03 -3.98869225622E-03 +1.44415322232E-01 +7.70008517037E-01
1.47000000000E+09 +3.00473422240E-01 +6.50767793065E-01 +5.71661351547E-03 -5.93191155723E-03 +5.29351572519E-03 -5.44775215321E-03 +1.79393503577E-01 +7.37409299052E-01
1.47500000000E+09 +3.29687285784E-01 +6.13531485409E-01 +4.62399233374E-03 -8.20808212826E-03 +4.72515093450E-03 -7.67221752337E-03 +2.14311522167E-01 +6.97703319720E-01
1.48000000000E+09 +3.56679616384E-01 +5.69480711565E-01 +2.88546022221E-03 -9.60598836211E-03 +3.22805184420E-03 -9.57725967951E-03 +2.48887094494E-01 +6.50311224810E-01
1.48500000000E+09 +3.79499681304E-01 +5.17335562013E-01 +1.41911943625E-03 -1.08246862840E-02 +1.32682330095E-03 -1.11424139998E-02 +2.81199752332E-01 +5.93801454020E-01
1.49000000000E+09 +3.96031445683E-01 +4.57412981157E-01 -7.24523999861E-04 -1.24816747505E-02 -1.28328347355E-03 -1.24420014132E-02 +3.08864139805E-01 +5.27209418887E-01
1.49500000000E+09 +4.05076165762E-01 +3.90091262516E-01 -4.32292385788E-03 -1.37404913114E-02 -4.64554392615E-03 -1.29577967838E-02 +3.27261643414E-01 +4.49792671345E-01
1.50000000000E+09 +4.05492127282E-01 +3.14072280924E-01 -8.37412318179E-03 -1.33121453358E-02 -7.90513700320E-03 -1.25632286627E-02 +3.32901503851E-01 +3.62692988644E-01
1.50500000000E+09 +3.92727609260E-01 +2.30098602166E-01 -1.26271104066E-02 -1.20101293346E-02 -1.17283258641E-02 -1.19291353996E-02 +3.21945018745E-01 +2.67274307808E-01
1.51000000000E+09 +3.65138874164E-01 +1.42720730823E-01 -1.66879130369E-02 -8.33708756266E-03 -1.61422988067E-02 -8.95003891231E-03 +2.89782379263E-01 +1.67208486409E-01
1.51500000000E+09 +3.19144347006E-01 +5.38861177247E-02 -1.93030201973E-02 -4.24045290405E-03 -1.93146592545E-02 -4.74360050171E-03 +2.34094708210E-01 +7.10744940254E-02
1.52000000000E+09 +2.52753251530E-01 -2.60135272433E-02 -2.13163599005E-02 +1.00475758415E-03 -2.15301176245E-02 +7.64153981945E-04 +1.55911986515E-01 -1.34090843693E-02
1.52500000000E+09 +1.69714712873E-01 -9.21122640845E-02 -2.13367840161E-02 +8.61489119786E-03 -2.16130998816E-02 +8.55816573796E-03 +6.13191296417E-02 -7.99474654781E-02
1.53000000000E+09 +7.35942519824E-02 -1.38984425563E-01 -1.65168849370E-02 +1.49063112188E-02 -1.66756324436E-02 +1.49885216777E-02 -4.90334296194E-02 -1.23414920445E-01
1.53500000000E+09 -3.16313712197E-02 -1.64187885897E-01 -1.15111144076E-02 +1.82059547211E-02 -1.14804870878E-02 +1.82549527643E-02 -1.61790358174E-01 -1.39532412926E-01
1.54000000000E+09 -1.41238797117E-01 -1.64477269565E-01 -6.05075727400E-03 +1.98968707362E-02 -6.08071514161E-03 +1.96825040937E-02 -2.72059942762E-01 -1.31742031160E-01
1.54500000000E+09 -2.44530343182E-01 -1.40067457907E-01 +2.53881317590E-04 +2.05426555486E-02 -2.52995303061E-04 +2.02606848875E-02 -3.70625083697E-01 -1.02543128732E-01
1.55000000000E+09 -3.36493631153E-01 -9.89038619189E-02 +5.38254854287E-03 +1.75992108047E-02 +4.72995468859E-03 +1.77982268927E-02 -4.53388180285E-01 -5.92540525221E-02
1.55500000000E+09 -4.14069912255E-01 -4.52064852376E-02 +8.60007424558E-03 +1.47213680788E-02 +8.15554340216E-03 +1.53925801800E-02 -5.20587600754E-01 -7.59404384660E-03
1.56000000000E+09 -4.75214716108E-01 +1.28776656286E-02 +1.12292971367E-02 +1.11222452424E-02 +1.13169063555E-02 +1.20079431040E-02 -5.73443027053E-01 +4.84079000474E-02
1.56500000000E+09 -5.24127417926E-01 +7.16532649614E-02 +1.18142584753E-02 +7.17624369659E-03 +1.24120773589E-02 +7.82611545293E-03 -6.14451328006E-01 +1.06030252088E-01
1.57000000000E+09 -5.61541678590E-01 +1.30441168116E-01 +1.14660585379E-02 +4.56611325728E-03 +1.22372787621E-02 +4.77402003480E-03 -6.43713899700E-01 +1.63306854294E-01
