# Hz S RI R 50
! CMT, C1220, 16058040, 17.2.0/1
! Date: 14/08/2018 12:47:33
! Data: Format (Calibration Info)
! Freq                      S11: Re/Im (F2)                       S21: Re/Im (F2)                       S12: Re/Im (F2)                       S22: Re/Im (F2)            
1.00000000000E+09 -6.51620690486E-01 +7.13316615378E-01 -1.09451889538E-06 +3.18823053669E-05 -1.47681973730E-05 +1.61628236125E-05 -7.53822811763E-01 +6.21400623402E-01
1.00500000000E+09 -6.44581577712E-01 +7.18487642120E-01 +1.91460541559E-05 +4.34087219953E-05 +7.20656837982E-06 +1.16639961399E-05 -7.50176659375E-01 +6.25543050902E-01
1.01000000000E+09 -6.38670236260E-01 +7.22906570281E-01 -3.93003873795E-05 +1.95233588502E-05 +2.65424610442E-05 +6.23228845519E-06 -7.46811666266E-01 +6.29181730875E-01
1.01500000000E+09 -6.34178407741E-01 +7.26898997682E-01 +3.08726898424E-05 -4.92204052086E-05 -3.47757136573E-06 +7.76586876096E-06 -7.43589739235E-01 +6.32771241189E-01
1.02000000000E+09 -6.31256402776E-01 +7.30191775614E-01 +3.26484306511E-05 +1.24347570025E-06 +8.58182945936E-06 -4.97164322893E-05 -7.40298469329E-01 +6.36163933995E-01
1.02500000000E+09 -6.29181138251E-01 +7.33050707615E-01 -4.03861121669E-05 +5.62033415215E-05 -3.07915499172E-06 -4.86707549836E-06 -7.37399486182E-01 +6.39743074646E-01
1.03000000000E+09 -6.27621368541E-01 +7.35791671614E-01 -2.02204994149E-05 +2.75770523255E-05 -6.82947115565E-05 +6.10003065371E-05 -7.34160821816E-01 +6.43656238818E-01
1.03500000000E+09 -6.25501558617E-01 +7.38157529970E-01 -9.61692636513E-06 +1.67221486540E-05 +7.53348832168E-06 +1.92902519892E-06 -7.30278541817E-01 +6.47652419917E-01
1.04000000000E+09 -6.22088914145E-01 +7.41187491392E-01 +2.53209287093E-05 +2.92217590815E-05 -1.48375535058E-05 +2.04964861139E-05 -7.26453216781E-01 +6.51237244854E-01
1.04500000000E+09 -6.17306374847E-01 +7.44617509723E-01 -3.04203557140E-05 +5.77557531981E-05 +1.90412764838E-05 +3.02272274891E-05 -7.22958590413E-01 +6.54847397625E-01
1.05000000000E+09 -6.10655234099E-01 +7.48702178318E-01 +3.74425781353E-05 -1.32305249349E-05 -8.57169937088E-07 +7.79648330672E-05 -7.19575179957E-01 +6.58164559719E-01
1.05500000000E+09 -6.02792239616E-01 +7.53372096949E-01 -3.93451679107E-05 +1.84732257575E-05 +3.29608308246E-06 -1.75742354233E-05 -7.16345654315E-01 +6.61788193241E-01
1.06000000000E+09 -5.94277542160E-01 +7.58505826125E-01 -6.12554369529E-06 +1.58475536092E-05 -3.06760838718E-05 +4.17984288313E-06 -7.12931743577E-01 +6.65742720417E-01
1.06500000000E+09 -5.85979849247E-01 +7.63485582948E-01 -1.90960855020E-05 +3.50182930871E-05 +3.45726474874E-05 +2.24795343474E-05 -7.09165475375E-01 +6.69689731290E-01
1.07000000000E+09 -5.78751091294E-01 +7.67823299058E-01 -3.55148929798E-05 +3.51160401021E-05 -3.19487972393E-05 +8.48632561924E-05 -7.04994330316E-01 +6.73349445354E-01
1.07500000000E+09 -5.72840906581E-01 +7.71822789090E-01 -1.57713724359E-05 +2.10460819147E-05 -1.36985063902E-06 +4.77182897560E-05 -7.00824191954E-01 +6.76999160531E-01
1.08000000000E+09 -5.68651152938E-01 +7.75166926974E-01 -1.53512931872E-05 +6.34753143532E-05 -1.21253338457E-05 -1.57370256808E-05 -6.97076163873E-01 +6.80762065572E-01
1.08500000000E+09 -5.66005501396E-01 +7.77698158835E-01 +3.97211498615E-05 +3.71669651421E-05 +4.98229492068E-05 +2.67011419740E-06 -6.93200213012E-01 +6.84413659742E-01
1.09000000000E+09 -5.63841148262E-01 +7.79643093042E-01 +5.92837798558E-07 +4.85196601033E-05 -1.66478123384E-05 +1.54942885355E-05 -6.89495192552E-01 +6.88182066157E-01
1.09500000000E+09 -5.62434254988E-01 +7.81627425755E-01 +3.37513540132E-05 +4.92961067076E-05 +2.46254770192E-05 +2.39710433277E-05 -6.85711299063E-01 +6.92097826986E-01
1.10000000000E+09 -5.59779327599E-01 +7.83587443559E-01 -6.10706286918E-07 +6.62351695015E-05 +4.65533970808E-05 +5.74960794460E-05 -6.81777289088E-01 +6.95831776093E-01
1.10500000000E+09 -5.55888043724E-01 +7.86270886839E-01 +5.03244477646E-05 +3.30714358140E-05 +1.08704339751E-05 +5.22302689580E-05 -6.77410193626E-01 +6.99275887585E-01
1.11000000000E+09 -5.50571282464E-01 +7.89424697748E-01 +4.10618864132E-05 +5.10102223879E-05 +4.21007825609E-05 +1.64860134382E-06 -6.73571071229E-01 +7.02741502943E-01
1.11500000000E+09 -5.43795944835E-01 +7.93415641158E-01 +6.08644739968E-05 +2.77886653508E-05 +3.33351572550E-05 +3.09121258734E-05 -6.69470013302E-01 +7.05924143471E-01
1.12000000000E+09 -5.36325919506E-01 +7.97282031251E-01 +2.53260499071E-05 +4.20884104643E-05 +4.67994954809E-05 +5.26825975250E-05 -6.65470144384E-01 +7.09601929990E-01
1.12500000000E+09 -5.28294679366E-01 +8.01189614330E-01 +4.07294415628E-05 +3.50222534302E-05 +5.16618038901E-05 +6.79039952598E-05 -6.61333031397E-01 +7.13703925192E-01
1.13000000000E+09 -5.20955992015E-01 +8.04925313622E-01 +4.06426445620E-05 +3.38206169349E-05 +7.26964915406E-05 -2.72537005324E-05 -6.56897156831E-01 +7.17499760381E-01
1.13500000000E+09 -5.14244015687E-01 +8.07879134534E-01 +6.39325043956E-05 +2.63771351609E-05 +6.10341048211E-05 +2.37790056563E-05 -6.52275675036E-01 +7.21291773585E-01
1.14000000000E+09 -5.08834459147E-01 +8.10375786751E-01 +8.98632818597E-05 +2.74221048749E-05 +7.64354350034E-05 -4.86559434878E-06 -6.47412212418E-01 +7.24838199820E-01
1.14500000000E+09 -5.04725203501E-01 +8.12160625822E-01 +7.25338498300E-05 -2.82197633033E-06 +6.02682037006E-05 +2.44819161041E-05 -6.42819713407E-01 +7.28273909539E-01
1.15000000000E+09 -5.00997424299E-01 +8.14148798786E-01 +9.66071343622E-05 -2.77692866258E-05 +5.61448146417E-05 +1.04514406547E-05 -6.38237172060E-01 +7.32112553494E-01
1.15500000000E+09 -4.97456645700E-01 +8.15880066836E-01 +6.73407065573E-05 +2.94074065237E-06 +1.11382011528E-04 +4.32822835147E-06 -6.33540765012E-01 +7.35923165305E-01
1.16000000000E+09 -4.93022342176E-01 +8.17974161113E-01 +1.09148999238E-04 -1.94882684592E-05 +1.05307374645E-04 -1.24328561205E-05 -6.28734618014E-01 +7.39719533387E-01
1.16500000000E+09 -4.87870916833E-01 +8.20815579849E-01 +7.71015674361E-05 -1.38424210316E-05 +8.13669480695E-05 +9.86979792737E-06 -6.23751313927E-01 +7.43484824658E-01
1.17000000000E+09 -4.81440537344E-01 +8.24061339419E-01 +9.50832844321E-05 -3.09133160815E-05 +1.25462617469E-04 -5.71441887046E-05 -6.18268070718E-01 +7.46648030063E-01
1.17500000000E+09 -4.74123674952E-01 +8.27714392056E-01 +1.11842027771E-04 -2.99832152524E-05 +1.22568390421E-04 -2.16194876263E-05 -6.12642341689E-01 +7.49841891886E-01
1.18000000000E+09 -4.66373041481E-01 +8.31352641175E-01 +1.52746144399E-04 -4.00675599522E-05 +2.08781667586E-04 -5.32177819399E-05 -6.07463683704E-01 +7.52925885129E-01
1.18500000000E+09 -4.58519505723E-01 +8.34679515732E-01 +1.62469601242E-04 -8.43904372115E-05 +1.77658042495E-04 -1.15138073663E-04 -6.01682288669E-01 +7.55955631052E-01
1.19000000000E+09 -4.51095809249E-01 +8.37424550353E-01 +1.39465886227E-04 -1.37206996416E-04 +1.36635399993E-04 -1.49646242143E-04 -5.95451328938E-01 +7.58688221599E-01
1.19500000000E+09 -4.44657706538E-01 +8.39623484043E-01 +1.43525526166E-04 -1.97446818889E-04 +1.44700350430E-04 -2.22230885310E-04 -5.89557917999E-01 +7.59714396030E-01
1.20000000000E+09 -4.39436429057E-01 +8.40628596376E-01 +5.98892711582E-05 -2.40696021416E-04 +3.50351045892E-05 -2.72258997945E-04 -5.85056364144E-01 +7.59919539028E-01
1.20500000000E+09 -4.34581905016E-01 +8.42098369708E-01 -4.13018074030E-05 -1.97890012900E-04 -1.27189729852E-05 -1.99519348038E-04 -5.82715891763E-01 +7.60939088096E-01
1.21000000000E+09 -4.29715116823E-01 +8.43551676296E-01 -5.09367854242E-05 -7.66179780042E-05 -7.08422382277E-05 -1.03436280305E-04 -5.80753844775E-01 +7.64057187803E-01
1.21500000000E+09 -4.23951584380E-01 +8.45518660006E-01 +4.74597877658E-06 -1.24735648086E-04 -2.80200600460E-05 -1.18167769550E-04 -5.78035131471E-01 +7.68628186331E-01
1.22000000000E+09 -4.17089159400E-01 +8.48065143406E-01 -1.06710370287E-05 -1.04054724302E-04 +3.35385560659E-05 -8.25432892500E-05 -5.73949988780E-01 +7.73855385485E-01
1.22500000000E+09 -4.08922383581E-01 +8.51135294749E-01 +5.87902052836E-06 -1.16527655915E-04 +4.77509401938E-05 -1.07681967782E-04 -5.68773864610E-01 +7.79042806697E-01
1.23000000000E+09 -3.99747580456E-01 +8.54477063322E-01 +5.00016774137E-05 -1.27974922836E-04 -1.32995810311E-05 -1.55669052637E-04 -5.63061818061E-01 +7.83664285520E-01
1.23500000000E+09 -3.90136148673E-01 +8.58316626809E-01 +1.30561326669E-05 -1.77219560064E-04 +1.70566988458E-05 -1.88874571418E-04 -5.57344134659E-01 +7.88081154882E-01
1.24000000000E+09 -3.80566409402E-01 +8.62295106555E-01 -2.28641605405E-05 -2.18725789918E-04 -1.16428355737E-05 -1.73783548041E-04 -5.51421226783E-01 +7.91911851006E-01
1.24500000000E+09 -3.71853580363E-01 +8.66143986315E-01 -3.64661581680E-05 -2.54820511967E-04 -3.84709241053E-05 -1.61939404744E-04 -5.45317894202E-01 +7.95650817383E-01
1.25000000000E+09 -3.63831874877E-01 +8.69182237436E-01 -1.10640928540E-04 -2.19569378347E-04 -9.06454064484E-05 -1.86603649808E-04 -5.38770673915E-01 +7.99921981082E-01
1.25500000000E+09 -3.56876762539E-01 +8.71445114928E-01 -8.54644079012E-05 -1.98538316395E-04 -3.98257089511E-05 -1.95237147670E-04 -5.32122983698E-01 +8.03839125676E-01
1.26000000000E+09 -3.50626160449E-01 +8.72876085628E-01 -1.31557991687E-04 -2.09010830816E-04 -1.29997104864E-04 -2.23346586289E-04 -5.25437098314E-01 +8.08076135086E-01
1.26500000000E+09 -3.44780700676E-01 +8.73909631252E-01 -1.56893153732E-04 -2.36452881356E-04 -1.38137991426E-04 -2.65791316801E-04 -5.18593075916E-01 +8.12040818609E-01
1.27000000000E+09 -3.38485038137E-01 +8.75115831111E-01 -2.18288682279E-04 -2.62275840155E-04 -1.91676514317E-04 -2.37893401018E-04 -5.11615958348E-01 +8.15877250491E-01
1.27500000000E+09 -3.30948846404E-01 +8.76515211368E-01 -2.52090150630E-04 -1.99832788377E-04 -3.14363863521E-04 -2.58201834852E-04 -5.04575366134E-01 +8.19521149585E-01
1.28000000000E+09 -3.21676108912E-01 +8.78347631173E-01 -2.81168740577E-04 -1.66390870158E-04 -2.55798407697E-04 -2.56291942822E-04 -4.97490370597E-01 +8.23173468934E-01
1.28500000000E+09 -3.10590459490E-01 +8.80836985146E-01 -2.99051833540E-04 -2.20821394743E-04 -3.64083759462E-04 -2.39467564386E-04 -4.89974154538E-01 +8.26886103599E-01
1.29000000000E+09 -2.98583753009E-01 +8.83802271749E-01 -3.04575021267E-04 -1.83018788125E-04 -3.99860705522E-04 -1.74551091266E-04 -4.82460652126E-01 +8.30643835778E-01
1.29500000000E+09 -2.86289898051E-01 +8.87147300998E-01 -4.32455107442E-04 -1.88014475987E-04 -4.69123339245E-04 -1.13124756798E-04 -4.74552383817E-01 +8.34179399749E-01
1.30000000000E+09 -2.74187654373E-01 +8.90623317990E-01 -4.67449149257E-04 -1.65257393218E-04 -4.65403649644E-04 -8.03351548265E-05 -4.66792508144E-01 +8.37835219535E-01
1.30500000000E+09 -2.63371306895E-01 +8.93773920468E-01 -4.89788554242E-04 -7.86458136223E-05 -4.89185242185E-04 -4.54436503785E-05 -4.58690997715E-01 +8.41351916475E-01
1.31000000000E+09 -2.54184132158E-01 +8.95941023868E-01 -5.40009386787E-04 +1.99549984839E-05 -5.67520727874E-04 +1.98545429604E-05 -4.50426987571E-01 +8.44843749937E-01
1.31500000000E+09 -2.46660504237E-01 +8.97452995952E-01 -5.41624720837E-04 +7.80412262841E-05 -5.04631620746E-04 +1.10872187364E-04 -4.41742086386E-01 +8.48323521350E-01
1.32000000000E+09 -2.40613437333E-01 +8.98221602055E-01 -4.99724526979E-04 +1.10840168413E-04 -5.70927322689E-04 +1.31422861995E-04 -4.32575571242E-01 +8.51676111570E-01
1.32500000000E+09 -2.34755228001E-01 +8.98425028569E-01 -5.51830514470E-04 +1.73256563539E-04 -6.30316537955E-04 +1.81892368089E-04 -4.23322280327E-01 +8.54986278726E-01
1.33000000000E+09 -2.28003315756E-01 +8.98708835828E-01 -5.94653903118E-04 +2.21049138924E-04 -6.23448310552E-04 +3.16269695638E-04 -4.13928530746E-01 +8.58246324983E-01
1.33500000000E+09 -2.19227968544E-01 +8.98717296907E-01 -6.51259144143E-04 +3.49799053173E-04 -6.13453149821E-04 +4.01674770053E-04 -4.04111932519E-01 +8.61413979215E-01
1.34000000000E+09 -2.08053541568E-01 +8.99059917275E-01 -6.08471453251E-04 +4.97876703486E-04 -5.88816188169E-04 +4.80726684659E-04 -3.94015465285E-01 +8.64727695538E-01
1.34500000000E+09 -1.94129224662E-01 +8.99409752187E-01 -5.44835641500E-04 +6.05318492087E-04 -5.54118315247E-04 +6.36742866349E-04 -3.83052269784E-01 +8.68094175405E-01
1.35000000000E+09 -1.78394360805E-01 +9.00085956710E-01 -4.50105269868E-04 +6.44730515176E-04 -4.62146782406E-04 +6.86488685013E-04 -3.71969527691E-01 +8.71298460059E-01
1.35500000000E+09 -1.61483728302E-01 +9.00718048783E-01 -4.68639785304E-04 +7.23631054489E-04 -4.16290040209E-04 +7.11119743505E-04 -3.60259209280E-01 +8.74187010231E-01
1.36000000000E+09 -1.44643946066E-01 +9.01411742106E-01 -4.29987526744E-04 +8.28259462097E-04 -3.76529356451E-04 +8.21157126599E-04 -3.48621693367E-01 +8.77089421819E-01
1.36500000000E+09 -1.28637096516E-01 +9.01867392316E-01 -3.54587922308E-04 +9.19366955739E-04 -3.31706267924E-04 +8.72008351276E-04 -3.36518249179E-01 +8.79508893340E-01
1.37000000000E+09 -1.14395197354E-01 +9.01555368052E-01 -3.07520649724E-04 +1.11669561320E-03 -3.15438657646E-04 +1.01753687638E-03 -3.23691302372E-01 +8.82011569815E-01
1.37500000000E+09 -1.02034187050E-01 +9.00964304817E-01 -9.54265066645E-05 +1.18594940042E-03 -2.54616448696E-04 +1.11310164517E-03 -3.09835050516E-01 +8.84554872649E-01
1.38000000000E+09 -9.06846758340E-02 +9.00103978369E-01 +1.49967029786E-07 +1.17645172694E-03 -1.81532367628E-04 +1.23277083686E-03 -2.95059232602E-01 +8.86657512838E-01
1.38500000000E+09 -7.91673926568E-02 +8.98577571983E-01 +1.33194092959E-04 +1.30804672340E-03 -2.44976184383E-05 +1.44660812761E-03 -2.79687670163E-01 +8.88734944833E-01
1.39000000000E+09 -6.67855189445E-02 +8.96385929241E-01 +2.48375906036E-04 +1.40203587590E-03 +2.55724593691E-04 +1.59603104735E-03 -2.63672112124E-01 +8.90334960301E-01
1.39500000000E+09 -5.24356174512E-02 +8.93604755436E-01 +4.19432786947E-04 +1.44639027246E-03 +5.94473660885E-04 +1.55237750578E-03 -2.47114581261E-01 +8.91086964444E-01
1.40000000000E+09 -3.53451101938E-02 +8.89844006857E-01 +5.65938694294E-04 +1.57662678568E-03 +7.27744599244E-04 +1.58347346771E-03 -2.29619962248E-01 +8.91602762676E-01
1.40500000000E+09 -1.60585213995E-02 +8.85485670909E-01 +8.91754797791E-04 +1.74545259779E-03 +9.60809483040E-04 +1.64901148473E-03 -2.11163257545E-01 +8.91589318924E-01
1.41000000000E+09 +5.25231961356E-03 +8.80315406796E-01 +1.26931588309E-03 +1.65717139791E-03 +1.23980501685E-03 +1.70094081905E-03 -1.90928896259E-01 +8.91100418521E-01
1.41500000000E+09 +2.77547890597E-02 +8.74200975512E-01 +1.57848889265E-03 +1.63295631265E-03 +1.57914045305E-03 +1.71021656199E-03 -1.69266458282E-01 +8.89674409311E-01
1.42000000000E+09 +5.04679932896E-02 +8.67196345354E-01 +1.91305986972E-03 +1.42825027403E-03 +2.08164274518E-03 +1.63515857714E-03 -1.46118381072E-01 +8.87209245268E-01
1.42500000000E+09 +7.24543425660E-02 +8.59221039679E-01 +2.12867028845E-03 +1.31578830703E-03 +2.46133150661E-03 +1.39386233787E-03 -1.22445154035E-01 +8.83580035636E-01
1.43000000000E+09 +9.37522575854E-02 +8.50042709342E-01 +2.53869958612E-03 +1.37821671227E-03 +2.91942629180E-03 +1.21766491969E-03 -9.76252999540E-02 +8.79010511892E-01
1.43500000000E+09 +1.14552390327E-01 +8.39418913992E-01 +3.25844325533E-03 +1.00555001481E-03 +3.48521829382E-03 +7.47736421040E-04 -7.11737498424E-02 +8.72273354459E-01
1.44000000000E+09 +1.35790774330E-01 +8.27250363254E-01 +3.73337937435E-03 +3.04594069741E-04 +3.78588824171E-03 +1.05212881108E-04 -4.28356568493E-02 +8.63637815071E-01
1.44500000000E+09 +1.58848263067E-01 +8.12020793719E-01 +3.94650909465E-03 -3.19468905462E-04 +3.95714111496E-03 -5.40609674835E-04 -1.24803858398E-02 +8.52143572168E-01
1.45000000000E+09 +1.83423700003E-01 +7.93554062798E-01 +3.98225773632E-03 -9.90648176027E-04 +4.03840942035E-03 -1.29643771055E-03 +1.92282157030E-02 +8.37555420780E-01
1.45500000000E+09 +2.10486198436E-01 +7.71219906912E-01 +4.19123725736E-03 -1.41045989807E-03 +4.07551804886E-03 -1.76874708724E-03 +5.28139735583E-02 +8.20367308206E-01
1.46000000000E+09 +2.39908873423E-01 +7.44981978358E-01 +4.56382140306E-03 -2.05777451761E-03 +4.20167354258E-03 -2.47150233197E-03 +8.77865920483E-02 +7.98619554373E-01
1.46500000000E+09 +2.70868334598E-01 +7.13891112659E-01 +4.97104791040E-03 -3.16547532221E-03 +4.42012253460E-03 -3.18558802056E-03 +1.23844740906E-01 +7.71831368294E-01
1.47000000000E+09 +3.02269562395E-01 +6.78088177281E-01 +5.01539273253E-03 -4.89913876359E-03 +4.56904078297E-03 -4.50756627717E-03 +1.61032491815E-01 +7.37800033664E-01
1.47500000000E+09 +3.32508096436E-01 +6.36953380143E-01 +4.05813041940E-03 -6.63468759745E-03 +4.13006615147E-03 -6.15654858684E-03 +1.97596897218E-01 +6.96629890954E-01
1.48000000000E+09 +3.60355375604E-01 +5.89771957606E-01 +2.84601266036E-03 -7.85287045623E-03 +3.13020142700E-03 -7.85278555537E-03 +2.34097559917E-01 +6.47303703415E-01
1.48500000000E+09 +3.82977496722E-01 +5.35758877719E-01 +1.49178805613E-03 -9.14852692883E-03 +1.39705165743E-03 -9.44111470605E-03 +2.67636485735E-01 +5.88726957881E-01
1.49000000000E+09 +4.00392743114E-01 +4.74547725756E-01 -5.60213855656E-04 -1.03848658145E-02 -1.04571405933E-03 -1.03404283810E-02 +2.96263383660E-01 +5.19075617904E-01
1.49500000000E+09 +4.09397695577E-01 +4.05113164553E-01 -3.43039034424E-03 -1.08727920611E-02 -3.67205703382E-03 -1.02480449295E-02 +3.13985916175E-01 +4.39751845955E-01
1.50000000000E+09 +4.08497433964E-01 +3.26936418414E-01 -6.48516037608E-03 -1.09977466473E-02 -6.04927277037E-03 -1.03394102354E-02 +3.19273822166E-01 +3.51604929760E-01
1.50500000000E+09 +3.94249983645E-01 +2.40780723015E-01 -1.01277338072E-02 -9.52814661432E-03 -9.39884870187E-03 -9.40388135688E-03 +3.09090793998E-01 +2.55405771266E-01
1.51000000000E+09 +3.64059667354E-01 +1.49863915223E-01 -1.25764335979E-02 -6.31888387920E-03 -1.21507946772E-02 -6.73549335973E-03 +2.77653511112E-01 +1.53632033519E-01
1.51500000000E+09 +3.13888838967E-01 +5.85400787632E-02 -1.43155673496E-02 -4.07285532054E-03 -1.43325197162E-02 -4.51899203315E-03 +2.21151708373E-01 +5.75768008042E-02
1.52000000000E+09 +2.43821102716E-01 -2.28580358593E-02 -1.68853568869E-02 -9.61237243786E-05 -1.70415563884E-02 -3.62715271101E-04 +1.46024891512E-01 -2.70810712220E-02
1.52500000000E+09 +1.57329147928E-01 -8.99557347340E-02 -1.64547931221E-02 +6.62792971255E-03 -1.67137579014E-02 +6.49971883037E-03 +5.25243498101E-02 -9.54185650850E-02
1.53000000000E+09 +5.78542841495E-02 -1.36109069909E-01 -1.25364403381E-02 +1.04660183416E-02 -1.26057897940E-02 +1.04854985924E-02 -5.42750966389E-02 -1.39825265145E-01
1.53500000000E+09 -4.95034606070E-02 -1.58902172905E-01 -9.27050783168E-03 +1.31346371227E-02 -9.33811519747E-03 +1.31079843254E-02 -1.64125195960E-01 -1.60116876299E-01
1.54000000000E+09 -1.58953203948E-01 -1.55344538587E-01 -5.03561167648E-03 +1.42543160261E-02 -5.11814666350E-03 +1.41154723688E-02 -2.71670384903E-01 -1.57562890778E-01
1.54500000000E+09 -2.60563288312E-01 -1.29075755423E-01 -9.76570047897E-04 +1.44900480999E-02 -1.32292882967E-03 +1.43260606798E-02 -3.69434054866E-01 -1.35974610858E-01
1.55000000000E+09 -3.52031642997E-01 -8.63232993028E-02 +2.17410967689E-03 +1.34883592825E-02 +1.61835117156E-03 +1.35620129296E-02 -4.55269883262E-01 -9.97849350120E-02
1.55500000000E+09 -4.29530882910E-01 -3.11362212009E-02 +5.83352743648E-03 +1.18846010868E-02 +5.42505979423E-03 +1.24400290480E-02 -5.26453106499E-01 -5.31212508347E-02
1.56000000000E+09 -4.91550993573E-01 +2.78071963026E-02 +7.83809974432E-03 +8.32135077524E-03 +7.82398068850E-03 +9.02268569940E-03 -5.84403732470E-01 -7.62861412129E-04
1.56500000000E+09 -5.40493653885E-01 +8.81428180305E-02 +7.97338087363E-03 +6.05630352523E-03 +8.32477784291E-03 +6.63415866685E-03 -6.28534301441E-01 +5.50518282304E-02
1.57000000000E+09 -5.77694898910E-01 +1.46122857167E-01 +8.26547617380E-03 +4.05898591600E-03 +8.80059436786E-03 +4.22587270338E-03 -6.62434352838E-01 +1.08574210205E-01
