# Hz S RI R 50
! CMT, C1220, 16058040, 17.2.0/1
! Date: 14/08/2018 12:20:00
! Data: Format (Calibration Info)
! Freq                      S11: Re/Im (F2)                       S21: Re/Im (F2)                       S12: Re/Im (F2)                       S22: Re/Im (F2)            
1.00000000000E+09 -6.43241338614E-01 +7.16128927248E-01 +3.38002313693E-05 -1.88073603169E-05 -8.55345503838E-05 +1.08873176173E-05 -7.48115927899E-01 +6.24013641585E-01
1.00500000000E+09 -6.35939642656E-01 +7.21239322479E-01 +2.12285973518E-05 -1.38521937136E-05 -1.70495004632E-05 +4.33608442638E-05 -7.44360817997E-01 +6.27988530719E-01
1.01000000000E+09 -6.29892775852E-01 +7.25931469866E-01 +1.38707451808E-05 +1.80136642392E-05 -4.31510758918E-05 +3.87686686980E-06 -7.40716193671E-01 +6.31656900094E-01
1.01500000000E+09 -6.25882310395E-01 +7.29675939692E-01 -1.29079692543E-06 +6.59929011187E-06 +1.80955341135E-05 +1.39069882997E-05 -7.37503094319E-01 +6.35248615129E-01
1.02000000000E+09 -6.23229823799E-01 +7.32906597046E-01 +1.74879361615E-05 -3.27249957546E-06 +1.38553767847E-05 +3.81834692207E-05 -7.34089642498E-01 +6.38839630380E-01
1.02500000000E+09 -6.21540079796E-01 +7.35355939749E-01 +1.14246180226E-05 +1.75419480278E-05 -2.22245396076E-05 -2.43548647552E-05 -7.31234356173E-01 +6.42552775401E-01
1.03000000000E+09 -6.20521997962E-01 +7.37681513062E-01 +3.85835048428E-05 +2.28820846300E-06 -1.08186511651E-05 +8.39623978399E-06 -7.27754566862E-01 +6.46359446248E-01
1.03500000000E+09 -6.18434524356E-01 +7.39912666417E-01 +6.59103330019E-06 -2.48480990952E-05 -1.56465212016E-05 -8.30291504352E-06 -7.24022931612E-01 +6.50272772650E-01
1.04000000000E+09 -6.14951586284E-01 +7.42783151092E-01 +2.46378362859E-06 +4.95691553396E-07 -2.75380624401E-06 -7.90487426000E-06 -7.20123699527E-01 +6.54076909721E-01
1.04500000000E+09 -6.09706998410E-01 +7.45984878858E-01 +2.53655437463E-05 +1.15382454502E-05 +8.81339730690E-06 +3.27699900159E-05 -7.16634363529E-01 +6.57332235515E-01
1.05000000000E+09 -6.02246639113E-01 +7.50105601546E-01 +3.33188436989E-05 -3.02937839490E-05 +1.47949708071E-05 +1.71805707936E-05 -7.13123640424E-01 +6.60745221146E-01
1.05500000000E+09 -5.93702289543E-01 +7.54748368549E-01 +3.95096964532E-05 +1.17492081644E-05 +2.44949233252E-05 +2.44155487758E-05 -7.09887234124E-01 +6.64439947901E-01
1.06000000000E+09 -5.83979568579E-01 +7.59823825746E-01 +9.55077003657E-06 +3.42517334234E-05 -2.55926268231E-05 +5.84020887682E-05 -7.06677959202E-01 +6.68171750930E-01
1.06500000000E+09 -5.74822588753E-01 +7.64957367517E-01 +4.22646933935E-05 +9.22361649409E-06 +2.43768933124E-06 +2.04302036651E-05 -7.02986986392E-01 +6.71921959808E-01
1.07000000000E+09 -5.66663164111E-01 +7.69421533001E-01 +1.36187369317E-05 +3.99004152838E-06 +1.40768930607E-05 +4.22093302852E-05 -6.98977679836E-01 +6.75442707394E-01
1.07500000000E+09 -5.60382551158E-01 +7.73327116129E-01 +4.27469864954E-05 -3.08227027484E-05 +4.76473297229E-05 -2.66412408194E-05 -6.94616585276E-01 +6.79233113898E-01
1.08000000000E+09 -5.55871167045E-01 +7.76518108773E-01 +3.51629181457E-05 -4.94388505221E-05 +5.95344552112E-06 -7.81482960967E-06 -6.90624836124E-01 +6.83001988888E-01
1.08500000000E+09 -5.53139472369E-01 +7.78999372193E-01 +5.82248471827E-05 -3.36057079183E-05 +5.41185580733E-05 -4.87909519294E-05 -6.86557574889E-01 +6.86725826070E-01
1.09000000000E+09 -5.50931519831E-01 +7.81065488571E-01 +4.85242207031E-05 +1.28435273245E-05 +4.70497082461E-05 +2.98741335628E-05 -6.82904668957E-01 +6.90502082785E-01
1.09500000000E+09 -5.49098995072E-01 +7.82870524842E-01 +2.62209563768E-05 +7.69691883479E-07 +4.30806497672E-05 -1.16262012324E-05 -6.79255049164E-01 +6.94288332132E-01
1.10000000000E+09 -5.46218695264E-01 +7.84850580404E-01 +6.22798493259E-05 -1.13232089253E-05 +1.87522584710E-05 +1.55988098246E-05 -6.75054015172E-01 +6.98259101329E-01
1.10500000000E+09 -5.42066366100E-01 +7.87419864527E-01 +4.96297085584E-05 -3.71325838283E-05 +1.60709623037E-05 -1.86128948848E-05 -6.70771904681E-01 +7.01694794161E-01
1.11000000000E+09 -5.36161773621E-01 +7.90469611653E-01 +5.07814418192E-05 -2.10676978519E-05 +3.45281859678E-05 -4.51531343480E-05 -6.66557784813E-01 +7.05023532458E-01
1.11500000000E+09 -5.28881085898E-01 +7.94380984627E-01 +1.61164973423E-05 -1.14120788957E-04 +1.65978179118E-05 -4.62088602602E-05 -6.62397715587E-01 +7.08427104457E-01
1.12000000000E+09 -5.20872488635E-01 +7.98257597734E-01 +4.86995117807E-06 -4.05464335426E-05 -8.66951831594E-06 -9.12840020796E-05 -6.58397982487E-01 +7.12172990774E-01
1.12500000000E+09 -5.12623799109E-01 +8.02284284754E-01 -1.54158606944E-05 +2.29563659801E-06 -4.67230125495E-06 -3.11966801345E-05 -6.54194877649E-01 +7.16074737005E-01
1.13000000000E+09 -5.05104673173E-01 +8.05916981249E-01 +1.21054303429E-05 -4.10191980460E-05 -1.27590948112E-05 -2.06773500579E-05 -6.50087039494E-01 +7.19623860046E-01
1.13500000000E+09 -4.98455859990E-01 +8.08786023464E-01 +1.06361984533E-05 -2.60876381156E-05 +1.86790061660E-06 -3.72511939448E-05 -6.45491463483E-01 +7.23545968808E-01
1.14000000000E+09 -4.93159335448E-01 +8.11132916752E-01 -6.52678675292E-06 -1.94736952636E-05 +1.60388056604E-05 -6.66972261830E-05 -6.40791940663E-01 +7.26891921225E-01
1.14500000000E+09 -4.88917213356E-01 +8.12807190629E-01 -2.64714613101E-05 -1.71516241689E-05 +2.50886003079E-05 -2.88636462292E-05 -6.36217457876E-01 +7.30275961009E-01
1.15000000000E+09 -4.85111834831E-01 +8.14259254340E-01 -4.01346669825E-05 -2.22428327529E-05 -3.16512637131E-05 -2.30932776849E-05 -6.31594347156E-01 +7.34039919853E-01
1.15500000000E+09 -4.81176208397E-01 +8.15858375157E-01 +3.79115192445E-05 -1.56296835525E-05 +1.02867192796E-05 -2.51145943202E-05 -6.26830423535E-01 +7.37831081802E-01
1.16000000000E+09 -4.76345190725E-01 +8.17696433291E-01 -8.92023121157E-06 -3.87526866994E-06 -3.84580474448E-05 -1.07064775059E-05 -6.21988222577E-01 +7.41624809795E-01
1.16500000000E+09 -4.70358285193E-01 +8.20178491960E-01 -1.00398268129E-05 -2.41344398026E-05 +1.78229076989E-05 -1.79104788819E-05 -6.16920974803E-01 +7.45121909287E-01
1.17000000000E+09 -4.63133055792E-01 +8.23111128993E-01 -1.12332360756E-05 -3.57697994147E-05 +2.89385056737E-05 -2.19284172545E-05 -6.11427793903E-01 +7.48579938751E-01
1.17500000000E+09 -4.55083070887E-01 +8.26397402779E-01 -1.57360762062E-05 -4.15671138764E-05 +2.89670702493E-05 -4.47379724378E-05 -6.05718116840E-01 +7.51705622776E-01
1.18000000000E+09 -4.46771925196E-01 +8.29992875361E-01 +3.21531442059E-05 -1.29878939307E-05 +3.06556619221E-05 -4.47633150581E-05 -6.00162823302E-01 +7.54872937047E-01
1.18500000000E+09 -4.38664557409E-01 +8.32901707140E-01 -6.81350098264E-07 -1.30654824725E-05 -2.61437297043E-05 -4.70711055341E-05 -5.94290042781E-01 +7.57857590080E-01
1.19000000000E+09 -4.31439552194E-01 +8.35638712435E-01 +3.31803743929E-06 -8.58581838604E-05 -3.36969346828E-05 -5.59571479302E-05 -5.88108418846E-01 +7.60535063469E-01
1.19500000000E+09 -4.25219404982E-01 +8.37574094246E-01 -1.05667006026E-05 -7.04795087036E-05 -4.26822695276E-05 -1.07147278509E-04 -5.82266393068E-01 +7.61694891877E-01
1.20000000000E+09 -4.20327658985E-01 +8.38374201744E-01 -1.00297300135E-04 -4.15731812275E-05 -9.12591060760E-05 -2.29704572828E-05 -5.77747712507E-01 +7.61931190602E-01
1.20500000000E+09 -4.15826108764E-01 +8.39375812791E-01 -6.68415781789E-05 +5.34095737776E-05 -1.09973862603E-04 -5.82434814587E-06 -5.75332773500E-01 +7.62809440320E-01
1.21000000000E+09 -4.11014336899E-01 +8.40454190735E-01 -1.72421667845E-05 +1.14636038418E-05 -2.99234854294E-05 -3.49743799684E-05 -5.73573134974E-01 +7.65875797241E-01
1.21500000000E+09 -4.04972042973E-01 +8.41603594478E-01 -2.75919047540E-05 +2.90739165152E-05 +1.41174839227E-05 +1.22639216353E-05 -5.70866577219E-01 +7.70279328772E-01
1.22000000000E+09 -3.97205450682E-01 +8.43142555641E-01 -5.61222538239E-05 -8.04801199117E-06 -3.30254744039E-05 +2.37078252273E-05 -5.66701666135E-01 +7.75644797264E-01
1.22500000000E+09 -3.87729341388E-01 +8.45366887012E-01 -1.63347346688E-06 -3.06795859572E-05 -3.18951255587E-05 -9.70116059499E-06 -5.61471407549E-01 +7.80726103780E-01
1.23000000000E+09 -3.77047044881E-01 +8.48189608329E-01 -2.24859669886E-05 -4.01902884387E-05 +8.36560078691E-06 -3.33096083188E-05 -5.55855362623E-01 +7.85353366275E-01
1.23500000000E+09 -3.65909662513E-01 +8.51464822277E-01 -7.98432138416E-05 +1.25492032063E-05 -3.81919370923E-06 -2.59344142576E-06 -5.50037730710E-01 +7.89543415203E-01
1.24000000000E+09 -3.54848765641E-01 +8.55078550563E-01 -3.80478595344E-05 -1.12222182429E-05 -3.21323830083E-05 +8.99107344072E-07 -5.44036470004E-01 +7.93418424989E-01
1.24500000000E+09 -3.44893730676E-01 +8.58793563611E-01 -3.11756803914E-05 -1.85729913964E-05 -1.64426423693E-05 -1.42835038335E-05 -5.37832082051E-01 +7.97299085849E-01
1.25000000000E+09 -3.36270379730E-01 +8.61960161520E-01 -4.57807883969E-05 -6.03884292221E-05 +2.04131755836E-06 -4.91544157205E-06 -5.31168942588E-01 +8.01428667633E-01
1.25500000000E+09 -3.29332372238E-01 +8.64184011341E-01 -8.11545367105E-05 -1.87708259737E-06 -5.38111133979E-05 -1.09388711015E-05 -5.24376049634E-01 +8.05458132526E-01
1.26000000000E+09 -3.23645695693E-01 +8.65903678444E-01 -7.29304267362E-05 -1.78128643833E-06 -9.74148001019E-05 -1.21396636442E-05 -5.17624556447E-01 +8.09556460170E-01
1.26500000000E+09 -3.18677707132E-01 +8.66823088134E-01 -4.37810099451E-05 +3.51904527381E-05 -7.04275251269E-05 -4.76676519623E-06 -5.10731356383E-01 +8.13483129659E-01
1.27000000000E+09 -3.13467302833E-01 +8.67607661745E-01 -6.74551293409E-05 +4.96556774896E-05 -8.88221678389E-05 +1.76302527744E-05 -5.03876006287E-01 +8.17354435464E-01
1.27500000000E+09 -3.07157300319E-01 +8.68296366284E-01 -9.10717617358E-05 +2.57469088837E-05 -7.69942124462E-05 +3.87216380859E-05 -4.96832381940E-01 +8.20726690810E-01
1.28000000000E+09 -2.98889749324E-01 +8.69437539092E-01 -8.14819326246E-05 +4.90873312060E-05 -1.08913164244E-04 +3.21614947073E-05 -4.89774803426E-01 +8.24218962424E-01
1.28500000000E+09 -2.88558967067E-01 +8.71095651327E-01 -1.04004579772E-04 +7.12724449777E-05 -1.19759807264E-04 +4.52620363300E-05 -4.82391853655E-01 +8.27830059614E-01
1.29000000000E+09 -2.76938223691E-01 +8.73238863385E-01 -5.78980951137E-05 +5.74786670904E-05 -8.25978678547E-05 +3.54590645150E-05 -4.74958594860E-01 +8.31470816166E-01
1.29500000000E+09 -2.64449764808E-01 +8.76048492443E-01 -5.75440468074E-05 +7.42048855616E-05 -5.56100206316E-05 +1.00991629705E-04 -4.67124717020E-01 +8.34945182558E-01
1.30000000000E+09 -2.51935906237E-01 +8.79273912237E-01 -6.80947025399E-05 +5.42286664489E-05 -4.74859756620E-05 +5.31439519051E-05 -4.59434194926E-01 +8.38412327710E-01
1.30500000000E+09 -2.40291184360E-01 +8.82213898752E-01 -7.46198120092E-05 +8.90096347604E-05 -6.32791762813E-05 +8.97225777679E-05 -4.51364611169E-01 +8.41855154529E-01
1.31000000000E+09 -2.30318455769E-01 +8.84398912782E-01 -3.41694346045E-06 +1.51223519635E-04 -1.29194675808E-05 +1.53586241484E-04 -4.43107121853E-01 +8.45268055044E-01
1.31500000000E+09 -2.22252002349E-01 +8.85654844242E-01 +7.08809376055E-06 +1.18551798804E-04 -7.22572556250E-06 +1.53088506033E-04 -4.34228886363E-01 +8.48542947880E-01
1.32000000000E+09 -2.15501850016E-01 +8.85963023214E-01 +3.93973983624E-05 +7.26019919377E-05 +9.02528207511E-06 +1.06692283683E-04 -4.25311008551E-01 +8.52048702268E-01
1.32500000000E+09 -2.09412252685E-01 +8.85611188826E-01 +3.77265737721E-05 +5.19037151749E-05 +3.21241204796E-05 +6.75502013326E-05 -4.15736743856E-01 +8.55494335147E-01
1.33000000000E+09 -2.02619775231E-01 +8.84883741887E-01 +1.39893300181E-05 +8.79435284090E-05 +1.73074866714E-06 +5.99445318594E-05 -4.06118173052E-01 +8.58702582189E-01
1.33500000000E+09 -1.94086040914E-01 +8.83664936155E-01 +5.38564109130E-05 +1.29028800807E-04 +1.95051885419E-05 +1.18391849979E-04 -3.96220696053E-01 +8.61996468757E-01
1.34000000000E+09 -1.83069002433E-01 +8.82646646009E-01 +5.17697995270E-05 +1.21865563064E-04 +3.72668347611E-05 +1.11529816902E-04 -3.86113272578E-01 +8.65253107192E-01
1.34500000000E+09 -1.69807601233E-01 +8.81657400821E-01 +6.06631510398E-05 +7.88601624322E-05 +4.05087972912E-05 +1.06006997738E-04 -3.75328997834E-01 +8.68606543718E-01
1.35000000000E+09 -1.54266281678E-01 +8.81268176923E-01 +2.20399541160E-05 +8.35160790553E-05 +6.47651127844E-05 +5.44240029140E-05 -3.64163147848E-01 +8.71778993221E-01
1.35500000000E+09 -1.37675986183E-01 +8.81325692541E-01 +3.03060361590E-05 +1.50480335086E-04 +3.49609412823E-05 +9.25686816194E-05 -3.52780952093E-01 +8.74515812497E-01
1.36000000000E+09 -1.20802759914E-01 +8.81670100257E-01 +8.97450264341E-06 +1.15804317588E-04 +3.25493019709E-05 +3.26335377026E-05 -3.40923917113E-01 +8.77225602660E-01
1.36500000000E+09 -1.04778754363E-01 +8.81850027717E-01 +5.79049490297E-05 +7.04811980552E-05 +3.70470322445E-05 +7.56372205695E-05 -3.28735598250E-01 +8.79738254847E-01
1.37000000000E+09 -9.03065431694E-02 +8.81657040632E-01 +9.31372035648E-05 +1.34411115572E-04 +6.03892450333E-05 +1.24927382594E-04 -3.15973371732E-01 +8.82048170008E-01
1.37500000000E+09 -7.81654578205E-02 +8.80925713164E-01 +8.42106539395E-05 +1.42789046716E-04 +6.94822066478E-05 +1.26535287983E-04 -3.02416894232E-01 +8.84255724569E-01
1.38000000000E+09 -6.72849052261E-02 +8.79527534019E-01 +1.58265497427E-04 +1.53461325540E-04 +1.21647117171E-04 +1.80039019893E-04 -2.88001142538E-01 +8.86321335726E-01
1.38500000000E+09 -5.63736745953E-02 +8.77459330688E-01 +2.15334330366E-04 +6.66520601674E-05 +1.31174934836E-04 +1.02897187571E-04 -2.72486276376E-01 +8.88260797913E-01
1.39000000000E+09 -4.49830701267E-02 +8.74360753909E-01 +1.59070181209E-04 +1.14069771513E-04 +2.15742943055E-04 +1.02837618714E-04 -2.56576815397E-01 +8.89615335257E-01
1.39500000000E+09 -3.16894127467E-02 +8.70464498677E-01 +2.41557291562E-04 +1.33590060562E-04 +3.01945182823E-04 +5.85949448836E-05 -2.39898738848E-01 +8.90319781695E-01
1.40000000000E+09 -1.54740059260E-02 +8.65505729849E-01 +3.15512350064E-04 +4.56844785748E-05 +3.26868788140E-04 +4.40007606444E-06 -2.22468339437E-01 +8.91003039965E-01
1.40500000000E+09 +2.79963618992E-03 +8.60117853085E-01 +2.76758528087E-04 -7.17057403570E-05 +2.69554103239E-04 -1.08381850858E-04 -2.03816905371E-01 +8.90915948075E-01
1.41000000000E+09 +2.30930650736E-02 +8.54238234887E-01 +1.26652913317E-04 -1.23926406687E-04 +1.34264343023E-04 -1.26202705743E-04 -1.83674620995E-01 +8.90217498295E-01
1.41500000000E+09 +4.47172105207E-02 +8.48153865192E-01 +1.22273932236E-04 -8.38361772466E-05 +1.74330282709E-04 -7.86762203598E-05 -1.62028573664E-01 +8.88667769614E-01
1.42000000000E+09 +6.71645536450E-02 +8.41830486223E-01 +2.35360962633E-04 +1.97122082720E-05 +2.71400893183E-04 +1.18255465452E-05 -1.39237880395E-01 +8.86057223858E-01
1.42500000000E+09 +8.89781774952E-02 +8.34184103235E-01 +3.72391358390E-04 -1.41018619324E-04 +3.55756447417E-04 -1.51025151460E-04 -1.15680057822E-01 +8.82518212960E-01
1.43000000000E+09 +1.09318616872E-01 +8.25278291482E-01 +1.74801253578E-04 -2.79330211145E-04 +1.10575994900E-04 -3.27983601208E-04 -9.09892629425E-02 +8.77797706397E-01
1.43500000000E+09 +1.28364149403E-01 +8.14867099201E-01 +4.92068047190E-05 -2.31650799387E-04 +2.39510662567E-06 -2.76248582896E-04 -6.46056486837E-02 +8.71244734033E-01
1.44000000000E+09 +1.47080921552E-01 +8.03068557018E-01 -7.84906503238E-05 -1.54490923305E-04 -6.21783703995E-05 -1.08054650278E-04 -3.66842998271E-02 +8.62490415712E-01
1.44500000000E+09 +1.67031579547E-01 +7.88587625989E-01 +5.64224958250E-05 +1.47717104063E-04 +9.50259024284E-05 +9.90047277260E-05 -6.72919088014E-03 +8.51151343544E-01
1.45000000000E+09 +1.88851972269E-01 +7.70720518104E-01 +3.61947198690E-04 -4.65134429438E-05 +3.65588461236E-04 -6.82939691336E-05 +2.52123098680E-02 +8.36745067694E-01
1.45500000000E+09 +2.13293630424E-01 +7.48787280677E-01 +1.87370442525E-04 -1.53282069722E-04 +1.28916814651E-04 -1.70981293960E-04 +5.86932811006E-02 +8.19168775595E-01
1.46000000000E+09 +2.40188474390E-01 +7.22337576869E-01 +3.19498106782E-04 +7.94793594296E-05 +2.21558183309E-04 +1.49519925170E-05 +9.34050190974E-02 +7.96991466972E-01
1.46500000000E+09 +2.68779393765E-01 +6.91380342472E-01 +4.79927445077E-04 -1.63422128657E-04 +4.33384174582E-04 -1.40982780213E-04 +1.28895229331E-01 +7.70412169948E-01
1.47000000000E+09 +2.98631921661E-01 +6.56341099511E-01 +6.80637571885E-04 -2.81283743861E-04 +6.32345869781E-04 -2.55573053847E-04 +1.65891882335E-01 +7.36997906281E-01
1.47500000000E+09 +3.28141524596E-01 +6.15859572215E-01 +6.83613181345E-04 -7.19050422483E-04 +6.38435666603E-04 -6.21343348585E-04 +2.02964808811E-01 +6.96244548680E-01
1.48000000000E+09 +3.54507617842E-01 +5.70002841445E-01 +3.64812436017E-04 -8.28816110244E-04 +3.83231195745E-04 -8.27510988933E-04 +2.39301651194E-01 +6.46955198824E-01
1.48500000000E+09 +3.76807275914E-01 +5.18851592059E-01 +3.82984216768E-04 -7.93746368735E-04 +3.80204889720E-04 -8.16327128347E-04 +2.73628490343E-01 +5.88615455579E-01
1.49000000000E+09 +3.92998354328E-01 +4.60988325598E-01 +6.39686205615E-04 -1.04462041245E-03 +6.28241574826E-04 -1.08618135949E-03 +3.02225790576E-01 +5.18717544752E-01
1.49500000000E+09 +4.01155844091E-01 +3.96140882343E-01 +6.76093911005E-04 -2.15133390717E-03 +5.87509612525E-04 -2.09548012294E-03 +3.20608754714E-01 +4.39090853232E-01
1.50000000000E+09 +3.99041540109E-01 +3.23711364384E-01 -7.02674369142E-04 -2.90489013547E-03 -6.72140483559E-04 -2.73663735966E-03 +3.25713055949E-01 +3.49611349844E-01
1.50500000000E+09 +3.85300012817E-01 +2.45740918489E-01 -2.08815927038E-03 -2.55730710126E-03 -1.94570582829E-03 -2.53143567087E-03 +3.14383777372E-01 +2.53500102571E-01
1.51000000000E+09 +3.58326092840E-01 +1.62082092779E-01 -3.16723876097E-03 -1.38485529311E-03 -3.01698050591E-03 -1.54548922717E-03 +2.82155188585E-01 +1.52987730337E-01
1.51500000000E+09 +3.14528842699E-01 +7.70462158810E-02 -3.28561903756E-03 -6.03365162029E-04 -3.27827031566E-03 -7.50060555605E-04 +2.27964866568E-01 +5.51189669441E-02
1.52000000000E+09 +2.52625023158E-01 -3.05757101870E-03 -3.49377854490E-03 +8.73013568797E-04 -3.62967077517E-03 +7.81712688789E-04 +1.50745861656E-01 -3.14322310419E-02
1.52500000000E+09 +1.73533724930E-01 -7.17648173716E-02 -2.64333822414E-03 +1.37199047982E-03 -2.76028781647E-03 +1.33310869616E-03 +5.43812215927E-02 -9.98882632768E-02
1.53000000000E+09 +7.87880435489E-02 -1.21166228012E-01 -2.48897459112E-03 +2.03831157600E-03 -2.59303546406E-03 +2.03507601222E-03 -5.30351588162E-02 -1.43601302789E-01
1.53500000000E+09 -2.31240268302E-02 -1.46765952226E-01 -2.24940735407E-03 +2.68390855150E-03 -2.27881524120E-03 +2.70337696849E-03 -1.65132113671E-01 -1.63157369628E-01
1.54000000000E+09 -1.26971220381E-01 -1.48937125003E-01 -1.44665440013E-03 +3.65388957856E-03 -1.50827778174E-03 +3.67882269630E-03 -2.74079255103E-01 -1.59175491498E-01
1.54500000000E+09 -2.26589129658E-01 -1.28384314759E-01 +1.27399977036E-04 +4.34015920403E-03 -3.49012836227E-05 +4.36141144076E-03 -3.73118156218E-01 -1.34290382559E-01
1.55000000000E+09 -3.18435357558E-01 -9.10760733850E-02 +1.96831370894E-03 +3.47675533364E-03 +1.83410489057E-03 +3.57915493890E-03 -4.57429839529E-01 -9.58313189128E-02
1.55500000000E+09 -3.97948061752E-01 -3.91964448935E-02 +2.49509833472E-03 +2.42765888852E-03 +2.39233205544E-03 +2.59466173196E-03 -5.27880831741E-01 -4.80873867769E-02
1.56000000000E+09 -4.62407451795E-01 +1.82912943955E-02 +2.80159632968E-03 +1.18491528856E-03 +2.90753397043E-03 +1.35751535317E-03 -5.84503918437E-01 +5.68356120154E-03
1.56500000000E+09 -5.14008373392E-01 +7.73244947303E-02 +2.26178210669E-03 +3.89543953818E-04 +2.49036147076E-03 +4.72948968617E-04 -6.28077796525E-01 +6.19522892392E-02
1.57000000000E+09 -5.53698574644E-01 +1.35842326728E-01 +1.88599706744E-03 -9.95625981245E-05 +2.05695474282E-03 -7.00407826969E-05 -6.60661712763E-01 +1.17527771108E-01
