# Hz S RI R 50
! CMT, C1220, 16058040, 17.2.0/1
! Date: 14/08/2018 12:36:58
! Data: Format (Calibration Info)
! Freq                      S11: Re/Im (F2)                       S21: Re/Im (F2)                       S12: Re/Im (F2)                       S22: Re/Im (F2)            
1.00000000000E+09 -6.46045767048E-01 +7.14592537319E-01 +6.64912223244E-05 +2.04606702854E-05 +2.56556218102E-05 +5.06063542531E-05 -6.70538501041E-01 +5.35593660279E-01
1.00500000000E+09 -6.39067243619E-01 +7.20036703756E-01 -4.28504986679E-06 +2.71470056677E-05 +3.04330658448E-05 +8.09513473038E-05 -6.67347918486E-01 +5.39348211057E-01
1.01000000000E+09 -6.33125687860E-01 +7.24761304469E-01 -4.07505756184E-05 -1.54032313488E-05 -4.55493452391E-05 +2.89634359912E-05 -6.64484992455E-01 +5.42688184554E-01
1.01500000000E+09 -6.28668855089E-01 +7.28756550488E-01 -3.25931786827E-05 +1.69774029574E-05 -7.90672333428E-07 +3.62775353900E-05 -6.62010906912E-01 +5.45742508905E-01
1.02000000000E+09 -6.25736541533E-01 +7.32159116522E-01 -2.04713553439E-05 -5.79758095252E-06 -2.44492274719E-06 +5.12427828934E-05 -6.59346383498E-01 +5.48904766270E-01
1.02500000000E+09 -6.23844332410E-01 +7.34814987144E-01 -2.71556350402E-05 +4.35325047678E-05 +2.33389811432E-05 -3.79079840934E-06 -6.57259634704E-01 +5.52071006731E-01
1.03000000000E+09 -6.22393205126E-01 +7.37070661802E-01 +7.75570771947E-06 -2.44237855407E-05 +5.03986436674E-05 -2.44894258082E-05 -6.54653053600E-01 +5.55528732540E-01
1.03500000000E+09 -6.20122768251E-01 +7.39293259875E-01 +1.59585027116E-06 +2.47918219560E-05 +2.88698688276E-05 +1.97830710439E-05 -6.51624186609E-01 +5.59066380938E-01
1.04000000000E+09 -6.16610402355E-01 +7.41986191630E-01 -2.50294632171E-05 -6.14837648543E-06 -3.00778287077E-05 +1.22636320728E-05 -6.48615167325E-01 +5.62725473010E-01
1.04500000000E+09 -6.11664518883E-01 +7.45381049537E-01 +1.10796902407E-05 +4.99337824762E-05 -6.52286669577E-06 +5.17674671564E-05 -6.45841075279E-01 +5.65956683907E-01
1.05000000000E+09 -6.04722212277E-01 +7.49405708548E-01 -2.17174533653E-05 +8.21519881747E-05 -3.16902041079E-05 +1.24030376149E-05 -6.43124703667E-01 +5.69118251594E-01
1.05500000000E+09 -5.96641860191E-01 +7.54008253741E-01 +3.32424421105E-05 +5.06089415844E-05 -2.35032942248E-05 +4.07319105493E-05 -6.40571335650E-01 +5.72526984051E-01
1.06000000000E+09 -5.88061211387E-01 +7.59147615803E-01 +1.37502009439E-05 +1.84704761128E-05 -1.94976109472E-05 +6.11836913721E-05 -6.37807472325E-01 +5.76177726957E-01
1.06500000000E+09 -5.79719266720E-01 +7.64344131954E-01 +4.98910628001E-06 +6.88597722195E-05 +5.09304641937E-05 +1.58053084604E-05 -6.34894257604E-01 +5.79734742637E-01
1.07000000000E+09 -5.72397857569E-01 +7.68693696768E-01 +3.71712255290E-05 +1.86076385942E-05 +6.99394803050E-07 +2.10214479051E-05 -6.31407487127E-01 +5.83280557108E-01
1.07500000000E+09 -5.66521718304E-01 +7.72633541894E-01 -5.97043825131E-06 +3.15720145703E-05 +1.60148853033E-05 +5.17777988040E-06 -6.27814950438E-01 +5.86758261774E-01
1.08000000000E+09 -5.62454700430E-01 +7.75705859299E-01 +2.55683816673E-05 +9.09450870133E-06 +3.61049662796E-05 +5.48320437674E-05 -6.24714746941E-01 +5.90161054861E-01
1.08500000000E+09 -5.59702830604E-01 +7.77973945488E-01 -1.45697586287E-05 +5.01352515526E-05 +7.36600539205E-05 +1.85072293374E-05 -6.21712727488E-01 +5.93567182121E-01
1.09000000000E+09 -5.57614748463E-01 +7.79871181521E-01 +2.56664713869E-05 +1.02828685104E-05 +3.45684978078E-05 +2.89592463933E-05 -6.18659234798E-01 +5.97302420529E-01
1.09500000000E+09 -5.55842242935E-01 +7.81474127013E-01 +1.83000429056E-05 -2.11169620699E-06 +9.42302109947E-06 +1.65061632378E-05 -6.15713306855E-01 +6.00917608702E-01
1.10000000000E+09 -5.52996213473E-01 +7.83531186878E-01 +1.77003765653E-05 -1.84681169756E-05 +7.11446356867E-05 +2.68267403084E-05 -6.12439923686E-01 +6.04478817809E-01
1.10500000000E+09 -5.48791688130E-01 +7.86261121337E-01 +8.05039701996E-05 +9.94379513213E-07 +4.11903635023E-05 +7.26183786813E-05 -6.09085434814E-01 +6.07952416282E-01
1.11000000000E+09 -5.43184028468E-01 +7.89723397394E-01 +4.47346805655E-05 +1.84784748050E-05 +4.63763228765E-05 +6.02276920264E-06 -6.05769699633E-01 +6.11055765009E-01
1.11500000000E+09 -5.36224507648E-01 +7.93766966206E-01 +2.40243434514E-05 -1.18983214040E-05 +1.37207876880E-05 +2.08295578009E-05 -6.02437695055E-01 +6.14164498029E-01
1.12000000000E+09 -5.28692318074E-01 +7.98115543433E-01 +4.68848071897E-06 +3.31199683485E-05 +1.54087570797E-05 +4.48133126836E-05 -5.99262589575E-01 +6.17818316153E-01
1.12500000000E+09 -5.20818937712E-01 +8.02474732030E-01 +4.91845737487E-06 +2.74501384332E-05 +9.39707013149E-07 +1.57568210190E-05 -5.95832953955E-01 +6.21774530823E-01
1.13000000000E+09 -5.13746098629E-01 +8.06253574950E-01 +4.11236723352E-05 +4.26845144972E-05 +5.21632517120E-05 +3.06607899092E-05 -5.92322191815E-01 +6.25417276842E-01
1.13500000000E+09 -5.07462916728E-01 +8.09209931930E-01 +1.30560966795E-05 +2.00143183939E-05 +5.97094114108E-05 +2.40879423292E-05 -5.88300296065E-01 +6.29211936108E-01
1.14000000000E+09 -5.02372102108E-01 +8.11678465041E-01 +5.88247947947E-05 +1.12474573993E-05 +6.02976638600E-05 +3.33237936802E-05 -5.84413016295E-01 +6.32824067960E-01
1.14500000000E+09 -4.98368210947E-01 +8.13067935642E-01 +3.98209014518E-05 -2.74214247383E-06 +5.52027012374E-05 -2.76649402954E-05 -5.80394785064E-01 +6.36049844559E-01
1.15000000000E+09 -4.94695579646E-01 +8.14141662189E-01 +6.94707686464E-05 +2.77125713205E-05 +7.65502861974E-05 -3.31381154573E-07 -5.76562041552E-01 +6.39730502528E-01
1.15500000000E+09 -4.91130438686E-01 +8.15623313613E-01 +7.98150826502E-05 -3.26367638219E-05 +8.65771719873E-05 -2.80634321350E-05 -5.72548480984E-01 +6.43421741036E-01
1.16000000000E+09 -4.86642611523E-01 +8.17230257519E-01 +2.10875769051E-06 -2.03468048227E-05 +4.37318070763E-05 -9.55650367578E-06 -5.68599690219E-01 +6.47120060485E-01
1.16500000000E+09 -4.80962148116E-01 +8.20046500571E-01 +8.74918552482E-05 -8.08520924740E-05 +1.03613320061E-04 -3.67684651873E-05 -5.64328489352E-01 +6.50657651731E-01
1.17000000000E+09 -4.74255207331E-01 +8.23341038814E-01 +3.19201026081E-05 +1.54802108052E-05 +8.16673317291E-05 -6.81749770529E-05 -5.59917543399E-01 +6.53895876495E-01
1.17500000000E+09 -4.66629242497E-01 +8.26946475430E-01 +4.17049523343E-05 -6.38107681707E-05 +1.28130988613E-04 -6.08403613126E-05 -5.55191983144E-01 +6.57076996287E-01
1.18000000000E+09 -4.58736884073E-01 +8.31222107156E-01 +5.50395853444E-05 +1.31348940163E-05 +4.35097052037E-05 -4.64963140173E-05 -5.50619375920E-01 +6.60213255683E-01
1.18500000000E+09 -4.50832161563E-01 +8.34936171127E-01 +3.89016428654E-05 -6.75265044015E-05 +7.56777469140E-05 -8.03425923045E-05 -5.45520892859E-01 +6.63258448873E-01
1.19000000000E+09 -4.43692712258E-01 +8.37926182946E-01 +4.75977947760E-05 -5.41097314965E-05 +9.38215407615E-05 +2.47588222455E-06 -5.40420543085E-01 +6.65994374211E-01
1.19500000000E+09 -4.37592667405E-01 +8.40052923340E-01 +8.64983485659E-05 -1.14767869868E-04 +1.00065907079E-04 -5.61250183492E-05 -5.35093264677E-01 +6.67515759862E-01
1.20000000000E+09 -4.32362094709E-01 +8.40906225463E-01 +5.57387786377E-05 -1.34273274741E-04 +6.63945700225E-05 -1.83672694673E-04 -5.31155123468E-01 +6.68040845025E-01
1.20500000000E+09 -4.27797072918E-01 +8.41796071462E-01 -5.58824606046E-05 -1.51832742847E-04 -5.28119657883E-05 -1.54986579347E-04 -5.29209052496E-01 +6.68749740234E-01
1.21000000000E+09 -4.23072107041E-01 +8.42679523289E-01 -9.57735637846E-05 -5.92300645788E-05 -9.13225391759E-05 -8.20131399754E-05 -5.27826495798E-01 +6.71710580375E-01
1.21500000000E+09 -4.17208785531E-01 +8.43949747201E-01 -2.18040416083E-05 -1.62315034368E-05 +1.73708094315E-05 +1.32966527836E-06 -5.25679734265E-01 +6.76067902666E-01
1.22000000000E+09 -4.09785444406E-01 +8.45808639217E-01 -4.21163185575E-05 -2.97321070197E-05 -3.12209176266E-05 -4.79672367261E-05 -5.22232923181E-01 +6.81003861041E-01
1.22500000000E+09 -4.01059529474E-01 +8.48436007229E-01 -1.29586142364E-05 -4.86201390326E-05 -4.53794854379E-05 -5.59864226017E-05 -5.18117556636E-01 +6.86039846058E-01
1.23000000000E+09 -3.91240274838E-01 +8.51787153136E-01 +1.75615992655E-05 -4.80227637845E-05 -6.28240820725E-05 -9.73973663436E-05 -5.13245618278E-01 +6.90585417420E-01
1.23500000000E+09 -3.81299526043E-01 +8.55756853161E-01 -1.99094945179E-05 -7.47966075061E-05 +2.42052372512E-05 -6.36890092179E-05 -5.08540196341E-01 +6.94666901168E-01
1.24000000000E+09 -3.71367957893E-01 +8.60067585954E-01 -2.75437951163E-05 -6.36515007221E-05 -1.12267157926E-05 -5.88141382324E-05 -5.03559504482E-01 +6.98502934602E-01
1.24500000000E+09 -3.62511772566E-01 +8.64436380579E-01 -7.08554244586E-06 -7.22979481998E-05 -6.71146359757E-06 -7.47264767560E-05 -4.98442256311E-01 +7.02347671958E-01
1.25000000000E+09 -3.54534869018E-01 +8.68194914188E-01 -3.39250054183E-05 -8.13400902530E-05 -1.90522754911E-05 -9.52143852794E-05 -4.92971204288E-01 +7.06446758346E-01
1.25500000000E+09 -3.47817703661E-01 +8.70632564766E-01 -1.46326830063E-05 -9.33488753870E-05 -4.02924501292E-05 -7.56767714206E-05 -4.87485097919E-01 +7.10529103333E-01
1.26000000000E+09 -3.42033084716E-01 +8.72314895575E-01 -3.81390643989E-05 -7.78309764939E-05 -5.53836793014E-05 -1.29570504957E-04 -4.81974787619E-01 +7.15033047557E-01
1.26500000000E+09 -3.36532384797E-01 +8.73488353060E-01 -1.37058455901E-05 -1.43853783444E-04 -1.04862455146E-04 -1.31925805629E-04 -4.76242449955E-01 +7.19047317858E-01
1.27000000000E+09 -3.30570979442E-01 +8.74219279519E-01 -9.43968919350E-05 -1.39100352498E-04 -7.81979496471E-05 -1.41813395384E-04 -4.70394259253E-01 +7.23039867498E-01
1.27500000000E+09 -3.23248602972E-01 +8.75225753064E-01 -1.40362527693E-04 -1.42597820512E-04 -9.66232904674E-05 -1.33128366427E-04 -4.64308888428E-01 +7.26889955614E-01
1.28000000000E+09 -3.14150796266E-01 +8.76565817302E-01 -1.64584876470E-04 -1.17219068572E-04 -1.42913746682E-04 -1.21165997140E-04 -4.58167978791E-01 +7.30696415645E-01
1.28500000000E+09 -3.03210093130E-01 +8.78817883298E-01 -1.72896344904E-04 -1.00123342636E-04 -2.08400054991E-04 -6.62197224044E-05 -4.51689699172E-01 +7.34879856535E-01
1.29000000000E+09 -2.91249710267E-01 +8.81614372793E-01 -2.16594228696E-04 -7.77929953846E-05 -2.00364865380E-04 -6.41546312717E-05 -4.45037482741E-01 +7.38802649884E-01
1.29500000000E+09 -2.79058668255E-01 +8.85044578509E-01 -1.99587555568E-04 -4.88621755878E-05 -1.99885616717E-04 -2.90240685168E-05 -4.38282083036E-01 +7.42661631971E-01
1.30000000000E+09 -2.67170787812E-01 +8.89002856188E-01 -1.82539989649E-04 -3.11271261233E-05 -1.97184747197E-04 -1.88262889119E-05 -4.31500498962E-01 +7.46545368728E-01
1.30500000000E+09 -2.56522473879E-01 +8.92475160388E-01 -2.16121763940E-04 -1.29971670361E-04 -1.86005618197E-04 -3.39387638886E-05 -4.24482497432E-01 +7.50365763566E-01
1.31000000000E+09 -2.47286341498E-01 +8.95047667290E-01 -2.70908021714E-04 -4.73730040368E-05 -2.75202077884E-04 -9.22484343874E-06 -4.17166496347E-01 +7.54030839818E-01
1.31500000000E+09 -2.40024538132E-01 +8.96576351684E-01 -2.47678550756E-04 +3.96686176608E-05 -2.82236168192E-04 +2.72035112526E-05 -4.09461669587E-01 +7.57843554517E-01
1.32000000000E+09 -2.33984887228E-01 +8.97169707118E-01 -2.49371887290E-04 +2.10726322327E-05 -2.65548351374E-04 +2.71004010279E-05 -4.01464314637E-01 +7.61559688005E-01
1.32500000000E+09 -2.28411740678E-01 +8.96915177663E-01 -2.57065121230E-04 +6.65921061146E-05 -2.03642902463E-04 +9.98366939728E-05 -3.93211192025E-01 +7.65267794241E-01
1.33000000000E+09 -2.21353669387E-01 +8.96509554026E-01 -2.41513862759E-04 +9.07351623245E-05 -2.87574084578E-04 +8.38612939871E-05 -3.84796016054E-01 +7.68912860228E-01
1.33500000000E+09 -2.12409627942E-01 +8.95864667654E-01 -2.36272901070E-04 +6.92475433310E-05 -2.35723910389E-04 +1.22481365117E-04 -3.76176057252E-01 +7.72479358740E-01
1.34000000000E+09 -2.00786917456E-01 +8.95646574468E-01 -2.59486843668E-04 +1.18918287915E-04 -2.63026038118E-04 +1.09274312954E-04 -3.67431549246E-01 +7.76239703754E-01
1.34500000000E+09 -1.86671506744E-01 +8.95769088654E-01 -2.91639882261E-04 +1.34958290148E-04 -2.61103724351E-04 +1.62591687624E-04 -3.57867997968E-01 +7.80035294471E-01
1.35000000000E+09 -1.70690300207E-01 +8.96282976321E-01 -3.25149200753E-04 +2.26645586685E-04 -3.08174489582E-04 +2.16523438965E-04 -3.47971391923E-01 +7.83737320040E-01
1.35500000000E+09 -1.53668806773E-01 +8.97272962666E-01 -2.68397432302E-04 +2.69238789308E-04 -2.65430057153E-04 +2.53916687825E-04 -3.37501194432E-01 +7.87456494247E-01
1.36000000000E+09 -1.36892463991E-01 +8.98501663231E-01 -3.10628316314E-04 +3.03491880828E-04 -2.78890975926E-04 +2.67907387965E-04 -3.26835946214E-01 +7.90857083334E-01
1.36500000000E+09 -1.21074329890E-01 +8.99416883210E-01 -2.98624815422E-04 +3.69038004005E-04 -2.86198159578E-04 +3.37720189332E-04 -3.16094129634E-01 +7.94089540798E-01
1.37000000000E+09 -1.07106742886E-01 +8.99457915713E-01 -2.76440909235E-04 +4.36714862440E-04 -2.96028459667E-04 +3.59032033802E-04 -3.04508846376E-01 +7.97299286621E-01
1.37500000000E+09 -9.53781134061E-02 +8.99143790224E-01 -2.02807276618E-04 +4.98261804855E-04 -2.40744741787E-04 +4.44295870018E-04 -2.92244182628E-01 +8.00371158633E-01
1.38000000000E+09 -8.45052144497E-02 +8.97871360964E-01 -1.78861489243E-04 +5.63289819044E-04 -2.55113181613E-04 +5.18316104206E-04 -2.79158136931E-01 +8.03481175197E-01
1.38500000000E+09 -7.36591258115E-02 +8.96046802338E-01 -8.98543366002E-05 +5.92797005885E-04 -1.55975198409E-04 +6.46499132437E-04 -2.65250375951E-01 +8.06583004431E-01
1.39000000000E+09 -6.15175371693E-02 +8.93416421001E-01 -7.78166343486E-05 +5.89487364120E-04 -1.21718421721E-04 +6.80473684971E-04 -2.50820714645E-01 +8.09344543525E-01
1.39500000000E+09 -4.68514032956E-02 +8.90312482428E-01 -6.95045623765E-05 +6.33734784595E-04 +3.88118333198E-06 +7.26531840930E-04 -2.35677862667E-01 +8.11487269203E-01
1.40000000000E+09 -2.92661201347E-02 +8.86223696592E-01 -9.70552535887E-05 +7.36661459868E-04 -5.31932723528E-05 +7.74898890001E-04 -2.19874745465E-01 +8.13375021843E-01
1.40500000000E+09 -9.45176182934E-03 +8.81759031649E-01 +6.04224344772E-05 +9.60153116244E-04 +1.04993119277E-04 +9.29010692974E-04 -2.02897897881E-01 +8.14620604650E-01
1.41000000000E+09 +1.26142884002E-02 +8.76710002836E-01 +2.50128494817E-04 +9.89190919306E-04 +2.79803746661E-04 +9.85002678579E-04 -1.84255899101E-01 +8.15821439422E-01
1.41500000000E+09 +3.54339854201E-02 +8.71354380315E-01 +4.32883098777E-04 +9.93776914586E-04 +4.51943243434E-04 +1.08498452346E-03 -1.64357079175E-01 +8.16079137117E-01
1.42000000000E+09 +5.82496554455E-02 +8.65022256276E-01 +6.36373297484E-04 +9.52570246352E-04 +7.19504035828E-04 +1.04425806359E-03 -1.43012435101E-01 +8.15993782950E-01
1.42500000000E+09 +7.99086519719E-02 +8.57890847886E-01 +7.52937797292E-04 +9.00345026721E-04 +8.72473951513E-04 +9.77472091182E-04 -1.20547291101E-01 +8.14518812272E-01
1.43000000000E+09 +1.00354820578E-01 +8.49360360961E-01 +8.53452251876E-04 +9.58042209221E-04 +1.03047905255E-03 +9.56292012541E-04 -9.71145931753E-02 +8.12344524135E-01
1.43500000000E+09 +1.20030116713E-01 +8.39170423482E-01 +1.07950516861E-03 +1.11485199440E-03 +1.26362874986E-03 +1.06170711922E-03 -7.19832176773E-02 +8.08468222312E-01
1.44000000000E+09 +1.40243106679E-01 +8.27077900509E-01 +1.61954886754E-03 +1.01138766904E-03 +1.67716003846E-03 +9.53179109712E-04 -4.51041700665E-02 +8.03006627202E-01
1.44500000000E+09 +1.62180811876E-01 +8.11887134987E-01 +1.94774913951E-03 +6.24690031958E-04 +2.00871362365E-03 +5.10051646031E-04 -1.55696716302E-02 +7.94931930271E-01
1.45000000000E+09 +1.86479989690E-01 +7.93114883053E-01 +1.97133800416E-03 +3.73123780607E-04 +2.02412898422E-03 +1.78249464336E-04 +1.56259061025E-02 +7.83891567046E-01
1.45500000000E+09 +2.13833194144E-01 +7.70715468815E-01 +2.19387550380E-03 +1.80322210898E-04 +2.21521709156E-03 -1.80210541803E-05 +4.86235828400E-02 +7.70156720869E-01
1.46000000000E+09 +2.44130537779E-01 +7.43923835573E-01 +2.47363369037E-03 -9.56537895261E-05 +2.37391431418E-03 -3.36211047182E-04 +8.32048497198E-02 +7.52232026642E-01
1.46500000000E+09 +2.76403663624E-01 +7.12705440831E-01 +2.92263091350E-03 -4.68830348556E-04 +2.66441393500E-03 -5.98856218678E-04 +1.19651016666E-01 +7.30086280267E-01
1.47000000000E+09 +3.09491262612E-01 +6.76814851804E-01 +3.26570458557E-03 -1.24807605625E-03 +2.97814344235E-03 -1.18023515754E-03 +1.57396663360E-01 +7.00751549795E-01
1.47500000000E+09 +3.41620764179E-01 +6.35612551507E-01 +3.25311801761E-03 -2.39893532975E-03 +3.27090184037E-03 -2.19953935846E-03 +1.95799112876E-01 +6.64276885159E-01
1.48000000000E+09 +3.70603015797E-01 +5.87848990055E-01 +2.60440940367E-03 -3.26268063025E-03 +2.71045993682E-03 -3.19965294357E-03 +2.33949147611E-01 +6.19431187198E-01
1.48500000000E+09 +3.93841696360E-01 +5.33926862562E-01 +2.30141500363E-03 -3.73422647187E-03 +2.33573821337E-03 -3.89217874373E-03 +2.70488202535E-01 +5.65462094088E-01
1.49000000000E+09 +4.10812987346E-01 +4.72328077961E-01 +1.87399372152E-03 -4.77882911160E-03 +1.62014095062E-03 -4.85587933664E-03 +3.02289562027E-01 +4.99753147649E-01
1.49500000000E+09 +4.18629785209E-01 +4.03002482225E-01 +7.11391858750E-04 -5.87749234011E-03 +4.31951393609E-04 -5.60909468009E-03 +3.23798324298E-01 +4.24123894152E-01
1.50000000000E+09 +4.17809042980E-01 +3.25100143566E-01 -1.12123231239E-03 -6.17811398956E-03 -1.04917496644E-03 -5.83652190006E-03 +3.34483195130E-01 +3.38988917668E-01
1.50500000000E+09 +4.03649341933E-01 +2.37060159670E-01 -2.48476080310E-03 -6.26060062752E-03 -2.19599128793E-03 -6.12135297067E-03 +3.27773996622E-01 +2.44579424901E-01
1.51000000000E+09 +3.72119532675E-01 +1.43592958396E-01 -4.57218389295E-03 -5.76458668263E-03 -4.27920973700E-03 -5.88619641278E-03 +3.00181436482E-01 +1.45738541620E-01
1.51500000000E+09 +3.20470862053E-01 +5.09322099794E-02 -6.03522362494E-03 -5.02840646210E-03 -5.92352692593E-03 -5.23407336995E-03 +2.49720321117E-01 +5.13606037851E-02
1.52000000000E+09 +2.49473548959E-01 -3.19463594759E-02 -8.64988237777E-03 -3.20841169519E-03 -8.72078575171E-03 -3.31259027748E-03 +1.78808588400E-01 -3.32769375503E-02
1.52500000000E+09 +1.61991635781E-01 -9.99431787645E-02 -9.06356037457E-03 +7.00261515202E-04 -9.11438725479E-03 +6.63704047688E-04 +8.87047523396E-02 -9.90730601185E-02
1.53000000000E+09 +6.07936283369E-02 -1.46695609778E-01 -7.58522727673E-03 +2.86573342931E-03 -7.63448415618E-03 +2.86225061483E-03 -1.15954255750E-02 -1.42945245951E-01
1.53500000000E+09 -4.77228517422E-02 -1.67801669100E-01 -6.45182231406E-03 +4.90832195504E-03 -6.41135143355E-03 +4.84618160134E-03 -1.16781653594E-01 -1.62024326595E-01
1.54000000000E+09 -1.57119693111E-01 -1.62661740995E-01 -4.14411686714E-03 +5.67697151698E-03 -4.14602418868E-03 +5.61413799309E-03 -2.17532601940E-01 -1.58765967082E-01
1.54500000000E+09 -2.61211934892E-01 -1.36028417619E-01 -2.85335104562E-03 +6.06226794298E-03 -2.96173558157E-03 +5.95046981731E-03 -3.07805497988E-01 -1.37381609931E-01
1.55000000000E+09 -3.54843895683E-01 -8.92829873513E-02 -1.14226126995E-03 +6.42995392742E-03 -1.42840234995E-03 +6.45773983706E-03 -3.85464625143E-01 -1.04635382809E-01
1.55500000000E+09 -4.32278172611E-01 -3.20865659108E-02 +8.30665985399E-04 +6.03999420555E-03 +5.97115974458E-04 +6.21881819475E-03 -4.50409565920E-01 -6.25316839179E-02
1.56000000000E+09 -4.95333455942E-01 +2.82356502409E-02 +2.09392106528E-03 +4.56406472913E-03 +1.99405710346E-03 +4.85298669202E-03 -5.02522313929E-01 -1.56263553532E-02
1.56500000000E+09 -5.45439775837E-01 +8.95358286908E-02 +2.33527662948E-03 +3.55350166290E-03 +2.39296814707E-03 +3.81308304398E-03 -5.43388464876E-01 +3.37310832114E-02
1.57000000000E+09 -5.82174755002E-01 +1.48820084020E-01 +2.74242520592E-03 +2.80123410594E-03 +2.90857037320E-03 +2.97304086340E-03 -5.74440816501E-01 +8.21100162810E-02
