# Hz S RI R 50
! CMT, C1220, 16058040, 17.2.0/1
! Date: 14/08/2018 12:39:17
! Data: Format (Calibration Info)
! Freq                      S11: Re/Im (F2)                       S21: Re/Im (F2)                       S12: Re/Im (F2)                       S22: Re/Im (F2)            
1.00000000000E+09 -6.48038842800E-01 +7.14331872089E-01 +3.68075068611E-05 +3.44569453527E-06 +4.39880785520E-05 -8.73000885802E-06 -6.70494685860E-01 +5.39891557910E-01
1.00500000000E+09 -6.40938871325E-01 +7.19517428275E-01 -1.13630943380E-06 +1.06488649815E-05 -2.26330898235E-05 -2.53308496409E-05 -6.67364683549E-01 +5.43633726172E-01
1.01000000000E+09 -6.35081655645E-01 +7.24275699713E-01 -2.10161855284E-05 -4.30140698881E-05 +2.33214210013E-05 -6.97792521136E-06 -6.64538329707E-01 +5.46702938629E-01
1.01500000000E+09 -6.30464964058E-01 +7.28197146456E-01 -3.05771605049E-05 -1.96564946287E-05 +2.37856112735E-05 -2.62939769538E-05 -6.61719587392E-01 +5.49993875310E-01
1.02000000000E+09 -6.27214021222E-01 +7.31612448475E-01 -5.73390985702E-05 -5.12141678348E-05 -3.82015448308E-05 +1.46887727091E-05 -6.59142174148E-01 +5.53221404659E-01
1.02500000000E+09 -6.24966693283E-01 +7.34461490346E-01 +1.24578008382E-05 -3.86247211543E-06 -6.18998159141E-05 -3.68106295831E-05 -6.56878945741E-01 +5.56280381897E-01
1.03000000000E+09 -6.23241145484E-01 +7.36890013241E-01 -4.47687983445E-05 +3.67677689391E-05 +2.03807534049E-05 +2.38726923098E-05 -6.54308513072E-01 +5.59732335563E-01
1.03500000000E+09 -6.20709776768E-01 +7.39250482080E-01 -2.68523069196E-05 -2.76932419238E-06 +1.53749461977E-05 +3.08522889165E-05 -6.51262158717E-01 +5.63438965524E-01
1.04000000000E+09 -6.17095400698E-01 +7.41991056752E-01 -3.13685476238E-05 +1.24610270336E-05 -6.13023080768E-06 +5.54443470690E-05 -6.48205741797E-01 +5.66739184439E-01
1.04500000000E+09 -6.12156912181E-01 +7.45331378599E-01 -1.08931242449E-05 +8.69527667734E-06 +5.05349529347E-06 +4.72488734072E-05 -6.45347998974E-01 +5.70056352047E-01
1.05000000000E+09 -6.05575217816E-01 +7.49378824521E-01 -1.47776957058E-05 +2.29171032025E-06 -2.39183826320E-05 +2.42260337152E-05 -6.42658108012E-01 +5.73379334971E-01
1.05500000000E+09 -5.97721428777E-01 +7.53910821155E-01 +2.64408080047E-05 +5.59752183141E-05 +3.52321238318E-05 +7.31025045078E-05 -6.40052443154E-01 +5.76671412752E-01
1.06000000000E+09 -5.89522887110E-01 +7.58949465201E-01 +1.81634331187E-06 +4.91569090999E-05 +2.65099391167E-06 +3.87729282731E-05 -6.37394441243E-01 +5.80282650656E-01
1.06500000000E+09 -5.81515887474E-01 +7.63918965220E-01 -6.82817800075E-06 +2.22441656531E-05 +4.26838900101E-05 +2.29819115251E-05 -6.34325048800E-01 +5.83784526832E-01
1.07000000000E+09 -5.74434044630E-01 +7.68290212392E-01 +5.54075847216E-05 +5.75610919559E-05 +7.11377559156E-05 +6.01611976265E-05 -6.30840338362E-01 +5.87279434164E-01
1.07500000000E+09 -5.68906065191E-01 +7.72313149654E-01 +2.57088632997E-05 +1.46259077205E-06 +3.27017477539E-05 +3.81741689123E-06 -6.27225842304E-01 +5.90859338402E-01
1.08000000000E+09 -5.64773808994E-01 +7.75409564668E-01 +2.86991829134E-05 +2.27301107463E-05 -6.73091582143E-06 +2.65984155127E-05 -6.24010495653E-01 +5.94342094559E-01
1.08500000000E+09 -5.61728279896E-01 +7.77895591496E-01 +4.95910133454E-05 +1.85558984684E-05 +4.50516214690E-06 +3.43404319361E-05 -6.20816566915E-01 +5.97629201960E-01
1.09000000000E+09 -5.59328264808E-01 +7.79829854234E-01 +1.75247827450E-06 -3.90416025158E-05 -3.46460341728E-05 +5.68635927499E-06 -6.17766358623E-01 +6.01308602590E-01
1.09500000000E+09 -5.57284193022E-01 +7.81487591371E-01 +7.85739461079E-07 +2.76319414506E-05 +2.32204373962E-05 +5.55430127502E-05 -6.14897667384E-01 +6.04867420849E-01
1.10000000000E+09 -5.54159792679E-01 +7.83603842380E-01 +1.28395838535E-05 +1.97617631171E-05 +2.93909903018E-05 +4.41860352733E-06 -6.11670501999E-01 +6.08487328735E-01
1.10500000000E+09 -5.49997093783E-01 +7.86438136504E-01 +8.49183376424E-06 -4.80199779018E-06 +4.62831789679E-05 +2.41826853102E-06 -6.08241914486E-01 +6.11748675114E-01
1.11000000000E+09 -5.44540801086E-01 +7.89804381585E-01 +9.11774820011E-06 +2.04939980238E-05 -5.24772385377E-06 +1.18031317800E-05 -6.04796954093E-01 +6.15106145793E-01
1.11500000000E+09 -5.37627744736E-01 +7.93827810673E-01 +1.22351702925E-05 +5.64704864487E-06 -1.38674566514E-05 -3.50503794386E-05 -6.01519185456E-01 +6.18295932800E-01
1.12000000000E+09 -5.30131545159E-01 +7.98010983595E-01 +1.11524794281E-05 -1.16696595149E-05 +5.89215854757E-05 -1.11405147078E-05 -5.98206199360E-01 +6.21802846377E-01
1.12500000000E+09 -5.22459909903E-01 +8.02102282118E-01 -7.42806567190E-06 +4.10273823468E-05 +2.95294295877E-05 +5.50216500718E-05 -5.94758692183E-01 +6.25699854806E-01
1.13000000000E+09 -5.15557570663E-01 +8.06032072527E-01 +2.69170652457E-05 +3.26670510622E-05 +2.04561339200E-05 +1.94421698118E-05 -5.91236994257E-01 +6.29305542957E-01
1.13500000000E+09 -5.09451250964E-01 +8.08908078058E-01 +5.28885868750E-05 +1.20096780729E-05 +4.60664510740E-05 +4.87863788706E-05 -5.87304300382E-01 +6.33130192585E-01
1.14000000000E+09 -5.04328814678E-01 +8.11313448063E-01 +3.44711485335E-05 -4.08847198296E-06 +7.32755767885E-05 -1.00609247872E-05 -5.83293711865E-01 +6.36581485259E-01
1.14500000000E+09 -5.00253738576E-01 +8.12940200374E-01 +3.77428184056E-05 +8.29391224911E-06 +8.11538536753E-05 +2.50318537875E-07 -5.79081994173E-01 +6.39746651115E-01
1.15000000000E+09 -4.96485253114E-01 +8.14176369302E-01 +2.80288150672E-06 -3.87265063114E-05 +9.64129721743E-05 -5.12189447113E-05 -5.75318660345E-01 +6.43616024409E-01
1.15500000000E+09 -4.92811497264E-01 +8.15657281586E-01 +2.79616033847E-05 -3.18381824609E-06 +4.93940322463E-05 -1.21183952845E-05 -5.71247373025E-01 +6.47354770493E-01
1.16000000000E+09 -4.88051435141E-01 +8.17530785403E-01 +6.96671888234E-05 -4.72469360675E-05 +1.99736460910E-05 -1.44027470118E-06 -5.67269365898E-01 +6.50976839938E-01
1.16500000000E+09 -4.82427085839E-01 +8.20295126065E-01 +8.26341762059E-05 +1.03316716226E-05 +1.10402544187E-04 +1.65575355238E-05 -5.63109382405E-01 +6.54377888737E-01
1.17000000000E+09 -4.75564772118E-01 +8.23725111165E-01 +2.06937881361E-05 -5.53988385094E-05 +8.19334930970E-05 -7.00642748402E-05 -5.58568917223E-01 +6.57498409064E-01
1.17500000000E+09 -4.68261708677E-01 +8.27366927523E-01 +5.01874421323E-05 -5.31695348123E-05 +5.91987272338E-05 -5.21543623382E-05 -5.53821788904E-01 +6.60791526835E-01
1.18000000000E+09 -4.60568638257E-01 +8.31235545840E-01 +3.18478052551E-05 -2.98142803458E-05 +5.87268483774E-05 -5.04119524865E-05 -5.49165352314E-01 +6.63804535078E-01
1.18500000000E+09 -4.52858889464E-01 +8.34839120844E-01 +5.13114569431E-05 -3.51565891642E-05 +8.09674563371E-05 -6.63181806602E-05 -5.44298325871E-01 +6.66823065870E-01
1.19000000000E+09 -4.45596943528E-01 +8.37759898661E-01 +5.57559454586E-05 -3.90205625790E-05 +1.09901158649E-04 -8.99425541223E-05 -5.38944308366E-01 +6.69648747617E-01
1.19500000000E+09 -4.39522370864E-01 +8.39894267849E-01 +9.84345168064E-05 -9.13471203362E-05 +4.12514977575E-05 -1.08419564758E-04 -5.33780109619E-01 +6.70991572685E-01
1.20000000000E+09 -4.34432497553E-01 +8.40793370171E-01 +4.69283111090E-05 -1.30777792496E-04 +3.70806545108E-05 -1.75890992098E-04 -5.29753470971E-01 +6.71469476660E-01
1.20500000000E+09 -4.29641580379E-01 +8.41586276786E-01 -4.86126486895E-05 -1.58470392225E-04 -2.72877165729E-05 -1.27908016733E-04 -5.27606038483E-01 +6.72295997596E-01
1.21000000000E+09 -4.24803352659E-01 +8.42715635292E-01 -7.59078974864E-05 -8.73658525539E-05 -4.01338202746E-05 -1.11214745256E-04 -5.26143343256E-01 +6.75218423329E-01
1.21500000000E+09 -4.18883102439E-01 +8.44019759832E-01 -6.73784508484E-05 -3.95040958058E-05 -3.10390729074E-05 -3.34491649364E-05 -5.23978696936E-01 +6.79410564834E-01
1.22000000000E+09 -4.11485577379E-01 +8.46028947295E-01 -3.54828159761E-05 -6.31538662983E-05 -6.99450517102E-07 -4.08885701540E-05 -5.20595817355E-01 +6.84549978063E-01
1.22500000000E+09 -4.02843466100E-01 +8.48843253375E-01 -3.29610179060E-05 -1.65244953605E-05 -5.56099374603E-05 -6.58069613945E-05 -5.16271476506E-01 +6.89516794568E-01
1.23000000000E+09 -3.93206207158E-01 +8.52249033112E-01 -1.30814512171E-05 -8.08012443452E-05 +2.03504478017E-05 -1.48141286334E-05 -5.11562906103E-01 +6.94002687891E-01
1.23500000000E+09 -3.83389045506E-01 +8.56154359462E-01 -1.60104371390E-05 -5.76250226105E-05 -2.24521504875E-05 -4.24861533102E-05 -5.06741351630E-01 +6.98052022682E-01
1.24000000000E+09 -3.73797308275E-01 +8.60457035520E-01 -7.13545921110E-06 -1.19576152783E-04 -3.06922730913E-05 -8.23484154837E-05 -5.01735317208E-01 +7.01904905756E-01
1.24500000000E+09 -3.65176906492E-01 +8.64895295017E-01 -1.37730767665E-05 -7.00209603744E-05 -6.43268798621E-06 -6.34268127758E-05 -4.96601892890E-01 +7.05541757871E-01
1.25000000000E+09 -3.57370058820E-01 +8.68547135510E-01 -2.43536550781E-05 -1.05832535500E-04 -2.36028984758E-05 -1.10711900815E-04 -4.91201762047E-01 +7.09699404344E-01
1.25500000000E+09 -3.50652787217E-01 +8.71220813181E-01 -7.19050721508E-05 -1.02362452773E-04 -1.92416812105E-05 -1.32251357016E-04 -4.85570054409E-01 +7.13709435204E-01
1.26000000000E+09 -3.44710298658E-01 +8.72901519972E-01 -4.36085749918E-05 -1.21292012095E-04 -3.53309336041E-05 -1.18050494057E-04 -4.80028503172E-01 +7.18059879847E-01
1.26500000000E+09 -3.38987757440E-01 +8.73818954238E-01 -5.23123029966E-05 -6.51421241837E-05 -6.48148674682E-05 -1.06032740875E-04 -4.74135189809E-01 +7.22151651621E-01
1.27000000000E+09 -3.32735786370E-01 +8.74667602615E-01 -8.07753698424E-05 -1.37878357925E-04 -7.86290058389E-05 -1.68515853791E-04 -4.68313898628E-01 +7.26130183014E-01
1.27500000000E+09 -3.25187914899E-01 +8.75758536249E-01 -1.23177623589E-04 -1.47481400194E-04 -1.04614763080E-04 -1.07662950335E-04 -4.62279870895E-01 +7.29957918611E-01
1.28000000000E+09 -3.15910339630E-01 +8.77260802586E-01 -1.44062301042E-04 -9.50095278488E-05 -1.34790389775E-04 -1.17399465162E-04 -4.56203231205E-01 +7.33887550203E-01
1.28500000000E+09 -3.04724759197E-01 +8.79272345196E-01 -1.50038735565E-04 -8.03836465476E-05 -2.23821418226E-04 -6.15447859626E-05 -4.49650744367E-01 +7.37720236990E-01
1.29000000000E+09 -2.92883331581E-01 +8.82057217548E-01 -1.67146765203E-04 -8.42069177974E-05 -2.13793962112E-04 -7.33246141200E-05 -4.42971981615E-01 +7.41657308116E-01
1.29500000000E+09 -2.80642037441E-01 +8.85472014144E-01 -1.85151581435E-04 -4.87428158994E-05 -2.08119667264E-04 -6.94408894414E-05 -4.36204327886E-01 +7.45559607232E-01
1.30000000000E+09 -2.69050872724E-01 +8.89306755315E-01 -1.98355451714E-04 -3.99735874759E-05 -2.37904315370E-04 -3.13628381066E-05 -4.29362624703E-01 +7.49357576565E-01
1.30500000000E+09 -2.58606570041E-01 +8.92772118640E-01 -1.66855586114E-04 -8.95709712595E-05 -2.09828061887E-04 -2.18821065468E-05 -4.22325908040E-01 +7.53015085273E-01
1.31000000000E+09 -2.49606027054E-01 +8.95514841443E-01 -2.34608152419E-04 -2.91665244670E-05 -2.62852639308E-04 -7.26208357063E-06 -4.14996795263E-01 +7.56709478448E-01
1.31500000000E+09 -2.42475715094E-01 +8.97179448358E-01 -2.77917673343E-04 +4.43552531371E-05 -2.17626375499E-04 +2.56149216898E-05 -4.07370200545E-01 +7.60466982674E-01
1.32000000000E+09 -2.36469456558E-01 +8.97861280883E-01 -2.08012332417E-04 +4.28425658644E-05 -2.19539095059E-04 +2.88771032561E-05 -3.99208427271E-01 +7.64143038945E-01
1.32500000000E+09 -2.30687065515E-01 +8.97810753771E-01 -2.31062917694E-04 +4.01417843737E-05 -2.66661309587E-04 +6.99805069044E-05 -3.91047704830E-01 +7.67786021104E-01
1.33000000000E+09 -2.23824158231E-01 +8.97379446137E-01 -2.47767155261E-04 +8.55580866433E-05 -2.40305578512E-04 +8.26870087802E-05 -3.82615276094E-01 +7.71439018456E-01
1.33500000000E+09 -2.14826066214E-01 +8.96929336961E-01 -2.51566934927E-04 +6.87806393630E-05 -2.49974760553E-04 +1.16006995302E-04 -3.73974326467E-01 +7.74916105991E-01
1.34000000000E+09 -2.03095513385E-01 +8.96801715809E-01 -2.78772902920E-04 +1.19958104371E-04 -2.90484878027E-04 +1.01908303997E-04 -3.65005805839E-01 +7.78529234481E-01
1.34500000000E+09 -1.89125119303E-01 +8.96727563582E-01 -3.11083215815E-04 +1.73869882816E-04 -2.96243309982E-04 +1.81264219265E-04 -3.55648127624E-01 +7.82377963743E-01
1.35000000000E+09 -1.73085841576E-01 +8.97418483824E-01 -3.17516450689E-04 +2.67879279005E-04 -3.13134705157E-04 +1.64365406504E-04 -3.45701747834E-01 +7.86097637913E-01
1.35500000000E+09 -1.56105524086E-01 +8.98300922583E-01 -3.36081493806E-04 +2.55889983504E-04 -2.97498476300E-04 +2.61804693175E-04 -3.35135981506E-01 +7.89633545541E-01
1.36000000000E+09 -1.39293508491E-01 +8.99470029122E-01 -2.95169050056E-04 +3.13683693664E-04 -2.98686788229E-04 +2.68236607154E-04 -3.24537087660E-01 +7.92999565608E-01
1.36500000000E+09 -1.23640202470E-01 +9.00164661446E-01 -3.14617598193E-04 +3.86642993379E-04 -2.51731631379E-04 +3.33455564522E-04 -3.13754002046E-01 +7.96215133720E-01
1.37000000000E+09 -1.09588563076E-01 +9.00395373162E-01 -2.58675704637E-04 +4.37623022157E-04 -2.54405987528E-04 +3.88877574995E-04 -3.02128888847E-01 +7.99297343528E-01
1.37500000000E+09 -9.75613804287E-02 +8.99875630569E-01 -2.27107579422E-04 +5.12254797636E-04 -2.88048641539E-04 +4.23064227016E-04 -2.89944180434E-01 +8.02402756372E-01
1.38000000000E+09 -8.68707433423E-02 +8.98883579059E-01 -1.55385248323E-04 +5.54770406639E-04 -2.58244193442E-04 +5.33786517546E-04 -2.76805363608E-01 +8.05406553079E-01
1.38500000000E+09 -7.56388744377E-02 +8.97089339256E-01 -7.92947248935E-05 +5.82573437157E-04 -1.48842841313E-04 +5.67990591629E-04 -2.62983325739E-01 +8.08290980592E-01
1.39000000000E+09 -6.33898327729E-02 +8.94625373216E-01 -9.86122204838E-05 +5.81400599400E-04 -5.99760584294E-05 +6.69068025422E-04 -2.48631072954E-01 +8.10991793693E-01
1.39500000000E+09 -4.88286107983E-02 +8.91615898516E-01 -5.99534496535E-05 +5.85083833837E-04 +1.50229799406E-05 +6.64528724028E-04 -2.33336674496E-01 +8.13099847616E-01
1.40000000000E+09 -3.14285306687E-02 +8.87760578340E-01 -1.16317468489E-04 +7.03630645752E-04 -5.18266963793E-05 +7.42558430900E-04 -2.17521252520E-01 +8.14897244162E-01
1.40500000000E+09 -1.17267490883E-02 +8.83359304813E-01 +6.98212727685E-05 +9.48184029545E-04 +1.12700398064E-04 +9.28220874895E-04 -2.00612319831E-01 +8.16177687959E-01
1.41000000000E+09 +9.93506521825E-03 +8.78545160571E-01 +2.34293747540E-04 +9.20889853862E-04 +2.65445092837E-04 +9.64272754099E-04 -1.82179822951E-01 +8.17136143277E-01
1.41500000000E+09 +3.26778814405E-02 +8.73153520657E-01 +4.10353174281E-04 +9.55880968286E-04 +3.95800151505E-04 +1.04252967637E-03 -1.62324625496E-01 +8.17530331481E-01
1.42000000000E+09 +5.55515646780E-02 +8.66980292306E-01 +6.37616564875E-04 +9.55194711196E-04 +6.90085308978E-04 +1.02657042803E-03 -1.40812170276E-01 +8.17138454267E-01
1.42500000000E+09 +7.74223934847E-02 +8.59743264557E-01 +6.97086346717E-04 +8.83553786770E-04 +8.67276407561E-04 +9.55209629592E-04 -1.18585600958E-01 +8.15616239286E-01
1.43000000000E+09 +9.80780558659E-02 +8.51104958679E-01 +8.32792557639E-04 +9.23615483165E-04 +1.00347928963E-03 +9.14870734256E-04 -9.52291283370E-02 +8.13543610540E-01
1.43500000000E+09 +1.18112871141E-01 +8.40689527785E-01 +1.03942248889E-03 +1.02365874164E-03 +1.18704585282E-03 +9.36187608973E-04 -7.02865635827E-02 +8.09695080624E-01
1.44000000000E+09 +1.38509027432E-01 +8.28618796068E-01 +1.56412646512E-03 +9.71212936111E-04 +1.64558123736E-03 +8.87618917103E-04 -4.33738067681E-02 +8.04002366173E-01
1.44500000000E+09 +1.60840268395E-01 +8.13604610572E-01 +1.85776479354E-03 +5.98299619414E-04 +1.87337471654E-03 +5.04706112475E-04 -1.39283792926E-02 +7.96103244560E-01
1.45000000000E+09 +1.85337748833E-01 +7.94941908140E-01 +1.90600944009E-03 +3.22602941630E-04 +1.96527586450E-03 +1.94693509080E-04 +1.72263092462E-02 +7.84879634935E-01
1.45500000000E+09 +2.12663877224E-01 +7.72887510772E-01 +2.06488527508E-03 +1.99234650842E-04 +2.08356446735E-03 +3.77938516067E-06 +5.01597036318E-02 +7.71099478091E-01
1.46000000000E+09 +2.43118301147E-01 +7.46360332574E-01 +2.33938969706E-03 -4.14385768960E-05 +2.27616107798E-03 -3.16564093205E-04 +8.44878290719E-02 +7.53280383871E-01
1.46500000000E+09 +2.75084951159E-01 +7.15347850203E-01 +2.85331522862E-03 -4.30327675359E-04 +2.57339820466E-03 -5.45120939098E-04 +1.20831485989E-01 +7.31067122177E-01
1.47000000000E+09 +3.08258405638E-01 +6.79816389202E-01 +3.09713068454E-03 -1.24607920629E-03 +2.86959209543E-03 -1.16258755780E-03 +1.58257703779E-01 +7.01758647240E-01
1.47500000000E+09 +3.40242436694E-01 +6.38781003683E-01 +3.10989888025E-03 -2.30294894927E-03 +3.08594806526E-03 -2.06547917720E-03 +1.96746785261E-01 +6.65528939954E-01
1.48000000000E+09 +3.69318267691E-01 +5.91320395214E-01 +2.47447835935E-03 -3.03546550793E-03 +2.58111948292E-03 -3.04056762791E-03 +2.34801582449E-01 +6.20565837247E-01
1.48500000000E+09 +3.92886974161E-01 +5.37226197164E-01 +2.15073268894E-03 -3.53206679321E-03 +2.14993229614E-03 -3.64406425394E-03 +2.71229874047E-01 +5.66675387166E-01
1.49000000000E+09 +4.10285581866E-01 +4.75422907812E-01 +1.79940024929E-03 -4.48596728899E-03 +1.53893084305E-03 -4.57734666186E-03 +3.03087987128E-01 +5.01063387586E-01
1.49500000000E+09 +4.18793397523E-01 +4.05607595121E-01 +7.22770350126E-04 -5.46317264586E-03 +4.94974452952E-04 -5.22882883648E-03 +3.24312072167E-01 +4.25468652018E-01
1.50000000000E+09 +4.18301830924E-01 +3.27169317034E-01 -9.85505320616E-04 -5.96592127302E-03 -9.00834180977E-04 -5.60677148077E-03 +3.34736011398E-01 +3.40768373422E-01
1.50500000000E+09 +4.04509448689E-01 +2.39021171739E-01 -2.36052153696E-03 -5.97649946707E-03 -2.09342804316E-03 -5.80499943610E-03 +3.28139368914E-01 +2.46856810414E-01
1.51000000000E+09 +3.73761900598E-01 +1.45430427280E-01 -4.36368918465E-03 -5.42741912332E-03 -4.10939584089E-03 -5.48909791681E-03 +3.01069916165E-01 +1.48244235659E-01
1.51500000000E+09 +3.22757931900E-01 +5.23058327610E-02 -5.69153110993E-03 -4.65854453667E-03 -5.62572881084E-03 -4.84747699839E-03 +2.51012209467E-01 +5.37340848708E-02
1.52000000000E+09 +2.52231408798E-01 -3.09991408897E-02 -8.03838447534E-03 -2.79828016126E-03 -8.10955176168E-03 -3.00120181168E-03 +1.80483593903E-01 -3.10966997623E-02
1.52500000000E+09 +1.65031853421E-01 -1.00042344099E-01 -8.28291869220E-03 +6.39733736711E-04 -8.36318635641E-03 +6.22272359037E-04 +9.05213177359E-02 -9.73364116515E-02
1.53000000000E+09 +6.32161699091E-02 -1.47762207314E-01 -6.88147287588E-03 +2.58522970003E-03 -6.92908222760E-03 +2.54086805387E-03 -9.95758460030E-03 -1.41428282326E-01
1.53500000000E+09 -4.61613180446E-02 -1.69816999717E-01 -6.02155911424E-03 +4.27042924131E-03 -6.02776261572E-03 +4.29514642288E-03 -1.15293150179E-01 -1.60583134536E-01
1.54000000000E+09 -1.56906218373E-01 -1.65060181616E-01 -4.03078190154E-03 +5.16747852362E-03 -4.06575565573E-03 +5.06496199603E-03 -2.16064025941E-01 -1.57687720748E-01
1.54500000000E+09 -2.61838304542E-01 -1.38538095976E-01 -2.84130124550E-03 +5.63026551010E-03 -2.91177769055E-03 +5.50794578966E-03 -3.06763521683E-01 -1.36678226250E-01
1.55000000000E+09 -3.56026214809E-01 -9.19656565658E-02 -1.12319206197E-03 +6.14829554385E-03 -1.36667819452E-03 +6.03587305327E-03 -3.84947662939E-01 -1.03688849843E-01
1.55500000000E+09 -4.33972659561E-01 -3.46163324078E-02 +7.53088163083E-04 +5.66601508554E-03 +5.47050854870E-04 +5.82437783324E-03 -4.50117738693E-01 -6.13597685732E-02
1.56000000000E+09 -4.97222225701E-01 +2.58651948776E-02 +1.94117066441E-03 +4.25188333129E-03 +1.86665412796E-03 +4.52860428711E-03 -5.02364496566E-01 -1.42665236875E-02
1.56500000000E+09 -5.47385166848E-01 +8.74242233508E-02 +2.12924229062E-03 +3.30266571903E-03 +2.24470193912E-03 +3.48935597576E-03 -5.43354708269E-01 +3.53393262448E-02
1.57000000000E+09 -5.84017745449E-01 +1.47155750193E-01 +2.43648130523E-03 +2.65900078736E-03 +2.61369942793E-03 +2.75441686919E-03 -5.74390603482E-01 +8.39999270598E-02
