# Hz S RI R 50
! CMT, C1220, 16058040, 17.2.0/1
! Date: 14/08/2018 12:54:05
! Data: Format (Calibration Info)
! Freq                      S11: Re/Im (F2)                       S21: Re/Im (F2)                       S12: Re/Im (F2)                       S22: Re/Im (F2)            
1.00000000000E+09 -6.45189872724E-01 +7.13036397464E-01 -6.31250597274E-06 -5.85608135943E-06 +7.01918641945E-06 -5.82705687966E-06 -7.19301106218E-01 +6.45173504079E-01
1.00500000000E+09 -6.38843972655E-01 +7.17560434945E-01 -5.11140408674E-05 +3.02438100669E-05 +2.60960101406E-05 +5.03718022375E-06 -7.15560858997E-01 +6.49111577804E-01
1.01000000000E+09 -6.32907227872E-01 +7.22006623069E-01 +1.30364919455E-05 -2.39891308215E-05 -5.16023565835E-06 +2.30543612245E-05 -7.11899249719E-01 +6.52799962564E-01
1.01500000000E+09 -6.28039740093E-01 +7.25971152537E-01 -2.31206024614E-05 -2.92484087556E-06 -3.47271214837E-05 +1.45843440426E-05 -7.08559156259E-01 +6.55954446932E-01
1.02000000000E+09 -6.24299955263E-01 +7.29563854373E-01 -5.90489707541E-05 +5.71442530027E-05 -7.36143467241E-06 +2.11026741216E-05 -7.05083547165E-01 +6.59383179011E-01
1.02500000000E+09 -6.20636284167E-01 +7.32823950107E-01 -3.21488527733E-05 -2.47777667417E-06 -2.01446869203E-05 +3.85403138821E-05 -7.01908674410E-01 +6.63028380118E-01
1.03000000000E+09 -6.17316887303E-01 +7.35955282302E-01 -6.79579471096E-06 -3.70910579659E-06 +1.72083672886E-05 +1.46287875334E-05 -6.98207653936E-01 +6.66754926825E-01
1.03500000000E+09 -6.13349938763E-01 +7.39132453977E-01 +3.46946720418E-05 +3.45995897070E-05 +3.12806911166E-05 +1.02192002318E-04 -6.94114802154E-01 +6.70836579439E-01
1.04000000000E+09 -6.08471306966E-01 +7.42528279959E-01 +3.68330571595E-05 +7.56494846460E-05 -6.69041085538E-06 +3.43869020366E-05 -6.90189632421E-01 +6.74158413571E-01
1.04500000000E+09 -6.02607702549E-01 +7.46119193448E-01 +2.98787541632E-06 +3.11237180887E-05 +2.00536452191E-05 +6.36996069961E-05 -6.86415905919E-01 +6.77643108761E-01
1.05000000000E+09 -5.95544417617E-01 +7.50217337203E-01 +1.49849388792E-05 +1.71722091232E-05 -9.60091172087E-06 +1.24364529053E-05 -6.83078882248E-01 +6.80902614614E-01
1.05500000000E+09 -5.87822705198E-01 +7.54615727581E-01 -2.27990417906E-06 +3.82507464630E-05 -2.07675629521E-05 +2.25581096655E-05 -6.79483832962E-01 +6.84302878131E-01
1.06000000000E+09 -5.79627320881E-01 +7.59292613372E-01 +5.32013549039E-05 +3.56554601321E-05 +1.09966266960E-05 +1.29773504313E-05 -6.75909200436E-01 +6.87971145477E-01
1.06500000000E+09 -5.71582645344E-01 +7.63918083828E-01 +1.48728543903E-05 +2.08815013895E-05 +1.96262326457E-05 +1.34957707852E-05 -6.71917643725E-01 +6.91880333725E-01
1.07000000000E+09 -5.64392463577E-01 +7.67972177768E-01 +1.05233058760E-05 +2.68727710245E-05 +3.76816480347E-06 +4.06120328775E-05 -6.67652282502E-01 +6.95278522952E-01
1.07500000000E+09 -5.58120814958E-01 +7.71714390116E-01 +2.25063572633E-05 +3.11051321665E-05 +1.59092525298E-05 +5.94561543097E-05 -6.63038861835E-01 +6.98776729929E-01
1.08000000000E+09 -5.53110153360E-01 +7.75021816349E-01 +4.54275406579E-05 +3.09805771302E-05 +4.51849623411E-05 -2.25637174435E-05 -6.59080011454E-01 +7.02462354000E-01
1.08500000000E+09 -5.49043682853E-01 +7.77888233376E-01 +5.14333486193E-05 +1.75766247789E-05 +1.65591885768E-05 +4.18660835971E-05 -6.55037163817E-01 +7.05932959543E-01
1.09000000000E+09 -5.45531358437E-01 +7.80271780723E-01 +5.10356913285E-05 -4.85033433709E-06 +2.11636956123E-05 +3.56092615691E-06 -6.51180030835E-01 +7.09619112330E-01
1.09500000000E+09 -5.42315988917E-01 +7.82556204785E-01 +3.50100118645E-05 -2.33534506151E-06 +1.76897058063E-05 +3.12485394531E-05 -6.47262253256E-01 +7.13302330850E-01
1.10000000000E+09 -5.38445884157E-01 +7.84771832321E-01 +3.76798932718E-05 +2.68872770590E-05 +1.00197742547E-04 +8.56360193581E-05 -6.43107317572E-01 +7.16917863411E-01
1.10500000000E+09 -5.33938186563E-01 +7.87612927006E-01 +3.10583950663E-05 -7.69347770027E-06 +8.96233292308E-05 -1.47678033646E-05 -6.38625653624E-01 +7.20260931556E-01
1.11000000000E+09 -5.28353384891E-01 +7.90888975464E-01 +3.05933960699E-05 +2.89835746782E-05 +2.94024819941E-05 -7.55378172707E-07 -6.34357026970E-01 +7.23437844394E-01
1.11500000000E+09 -5.22063021532E-01 +7.94404035464E-01 +5.04937000051E-05 +3.68245467810E-05 +7.96675684227E-05 -1.21187126045E-05 -6.30229221091E-01 +7.26699137026E-01
1.12000000000E+09 -5.14996462910E-01 +7.97740631878E-01 +8.69389512515E-05 -7.06042348927E-06 +3.40315768125E-05 -2.44456004563E-05 -6.25960990544E-01 +7.30098669929E-01
1.12500000000E+09 -5.07513861781E-01 +8.01330901354E-01 +1.02727620848E-04 +1.02583362333E-05 +8.97454039248E-05 +3.79227671139E-05 -6.21707344123E-01 +7.33790787373E-01
1.13000000000E+09 -5.00146223077E-01 +8.04487457445E-01 +9.40966386146E-05 -9.92382499801E-06 +5.76123550435E-05 -4.88380674189E-05 -6.17150717042E-01 +7.37447927647E-01
1.13500000000E+09 -4.93115726092E-01 +8.06999226727E-01 +8.35281575384E-05 +2.81428744382E-05 +8.58423922011E-05 -1.47273810710E-06 -6.12381397382E-01 +7.40973163434E-01
1.14000000000E+09 -4.86745094386E-01 +8.09131451462E-01 +8.78593480236E-05 -4.83191404753E-06 +1.05542622084E-04 -4.07945413937E-05 -6.07173486423E-01 +7.44331051111E-01
1.14500000000E+09 -4.80912806109E-01 +8.10811062096E-01 +9.08548338884E-05 -1.18603273901E-05 +9.73259702562E-05 -4.33681645524E-05 -6.02464216316E-01 +7.47510450807E-01
1.15000000000E+09 -4.75571976296E-01 +8.12380036621E-01 +6.62833630988E-05 +4.61132642824E-06 +4.80744295421E-05 -5.96041810800E-05 -5.97695468035E-01 +7.51281923736E-01
1.15500000000E+09 -4.70194003111E-01 +8.14331028163E-01 +1.09565777769E-04 +1.93213908467E-05 +5.58561440017E-05 -2.75283854105E-05 -5.92692088569E-01 +7.55026863943E-01
1.16000000000E+09 -4.64518244988E-01 +8.16369447331E-01 +1.01280164652E-04 -9.46339397675E-06 +1.13573224183E-04 -4.83099769501E-05 -5.87857204321E-01 +7.58671894636E-01
1.16500000000E+09 -4.58392438914E-01 +8.18966624970E-01 +7.47802710113E-05 -7.00003244275E-05 +7.66841891088E-05 -3.30937512763E-05 -5.82711930802E-01 +7.62055154267E-01
1.17000000000E+09 -4.51688995079E-01 +8.21888009175E-01 +1.50123206696E-04 -5.78680765397E-05 +9.95479262651E-05 -6.07090135784E-06 -5.77247838214E-01 +7.65104154016E-01
1.17500000000E+09 -4.44140845262E-01 +8.24940335090E-01 +1.64269167440E-04 -9.47489664440E-05 +1.71848079174E-04 -9.03849089162E-05 -5.71319665874E-01 +7.67908208642E-01
1.18000000000E+09 -4.36593667277E-01 +8.28132192335E-01 +1.51250226289E-04 -1.22504267132E-04 +1.50443659119E-04 -1.36341277560E-04 -5.65930700824E-01 +7.70824387969E-01
1.18500000000E+09 -4.28703408154E-01 +8.31066085280E-01 +1.26355869896E-04 -1.20422395774E-04 +1.34712437964E-04 -1.83724800792E-04 -5.59974853319E-01 +7.73630891905E-01
1.19000000000E+09 -4.20907221075E-01 +8.33291706542E-01 +1.38128183322E-04 -2.00571368108E-04 +9.22497253764E-05 -1.87288748177E-04 -5.53877322100E-01 +7.76023072372E-01
1.19500000000E+09 -4.13404090264E-01 +8.35048726506E-01 +8.30179631484E-05 -2.16269563225E-04 +5.59714029315E-05 -2.01702142464E-04 -5.48037149882E-01 +7.76888257030E-01
1.20000000000E+09 -4.06239383779E-01 +8.35789507112E-01 -4.39666616358E-06 -2.79457314344E-04 -6.61985700289E-06 -3.20173402185E-04 -5.43420490250E-01 +7.76966591283E-01
1.20500000000E+09 -3.99268291685E-01 +8.36863765844E-01 -1.84475168614E-06 -2.54632674170E-04 -1.30238296872E-04 -2.65781328510E-04 -5.40904192148E-01 +7.77956965364E-01
1.21000000000E+09 -3.92279845542E-01 +8.38053541868E-01 -8.19654185649E-05 -1.75006228843E-04 -5.89934958537E-05 -1.73624472462E-04 -5.38636038371E-01 +7.80841896139E-01
1.21500000000E+09 -3.84629753382E-01 +8.39412698289E-01 -6.37360265192E-05 -1.56102028407E-04 -5.37171365226E-05 -1.55846738198E-04 -5.35575414596E-01 +7.85336393429E-01
1.22000000000E+09 -3.76311566899E-01 +8.41255217899E-01 -3.69973156210E-05 -1.43457860480E-04 -2.63093311563E-05 -1.09792148413E-04 -5.31293377079E-01 +7.90378868317E-01
1.22500000000E+09 -3.67719496668E-01 +8.43715038539E-01 -2.93690249047E-05 -1.75833013163E-04 -6.55416921044E-05 -1.86567859431E-04 -5.25902062832E-01 +7.95159085101E-01
1.23000000000E+09 -3.58968630004E-01 +8.46254578681E-01 -6.09349297706E-05 -1.85446395204E-04 -5.07956358380E-05 -1.72175074880E-04 -5.20053346490E-01 +7.99428297150E-01
1.23500000000E+09 -3.50251632091E-01 +8.49306591707E-01 -8.54541017567E-05 -1.77782302593E-04 -1.59994891523E-05 -1.96077612063E-04 -5.14297492535E-01 +8.03538738432E-01
1.24000000000E+09 -3.41768834849E-01 +8.52273979662E-01 -9.70597986793E-05 -1.56325935294E-04 -6.59840711613E-05 -1.87501301185E-04 -5.08163397607E-01 +8.07037395406E-01
1.24500000000E+09 -3.33926386088E-01 +8.55313990438E-01 -1.67358770436E-04 -1.96493124582E-04 -1.26631131618E-04 -1.92243105538E-04 -5.01834654334E-01 +8.10529720883E-01
1.25000000000E+09 -3.26020652904E-01 +8.57804764724E-01 -1.74673539124E-04 -1.67521533458E-04 -1.10072911698E-04 -1.91580602696E-04 -4.95504095069E-01 +8.14399293747E-01
1.25500000000E+09 -3.18426663231E-01 +8.59378441960E-01 -1.36456114834E-04 -1.57558036033E-04 -1.46330757052E-04 -2.03819356614E-04 -4.88439129538E-01 +8.18088041736E-01
1.26000000000E+09 -3.10774976032E-01 +8.60323101324E-01 -2.01373161602E-04 -2.07752377949E-04 -1.75528506095E-04 -2.29207530972E-04 -4.81819246238E-01 +8.22011758795E-01
1.26500000000E+09 -3.02790636931E-01 +8.60694619810E-01 -2.51990769741E-04 -2.48884495802E-04 -2.76530489522E-04 -2.37929436196E-04 -4.74778636353E-01 +8.25333998476E-01
1.27000000000E+09 -2.94250358441E-01 +8.60698020882E-01 -3.39286738283E-04 -2.11199770397E-04 -3.38045511019E-04 -2.23455271175E-04 -4.67800127980E-01 +8.28829437112E-01
1.27500000000E+09 -2.84782854197E-01 +8.60900253082E-01 -3.59814826383E-04 -2.12827469991E-04 -3.30756029289E-04 -1.82713889121E-04 -4.60686883826E-01 +8.32064717617E-01
1.28000000000E+09 -2.74282610732E-01 +8.61404759754E-01 -3.66362860242E-04 -1.67605629287E-04 -4.12964288567E-04 -2.01239497834E-04 -4.53631601940E-01 +8.35474940273E-01
1.28500000000E+09 -2.62863936445E-01 +8.62415226520E-01 -4.24730205556E-04 -8.64389899325E-05 -4.35121297018E-04 -1.38126534075E-04 -4.46202752629E-01 +8.38861289526E-01
1.29000000000E+09 -2.51740159880E-01 +8.63826195475E-01 -4.62884293325E-04 -6.90647862076E-05 -5.02188226630E-04 -9.36497920811E-05 -4.38644990485E-01 +8.42274092145E-01
1.29500000000E+09 -2.40889381614E-01 +8.65891214986E-01 -4.77038029929E-04 -8.92370530708E-05 -4.76213333820E-04 +1.21869865253E-05 -4.30687583070E-01 +8.45302632603E-01
1.30000000000E+09 -2.30405598933E-01 +8.68388524315E-01 -5.69168876927E-04 -3.17102655521E-05 -5.64315037731E-04 +2.59873037617E-05 -4.22992975512E-01 +8.48600306165E-01
1.30500000000E+09 -2.20992534634E-01 +8.70899746292E-01 -6.11909104838E-04 +5.10574599979E-05 -5.51671719996E-04 +9.36353220211E-05 -4.14979093655E-01 +8.51581504436E-01
1.31000000000E+09 -2.11994014415E-01 +8.73005111139E-01 -6.88614562847E-04 +1.52923766734E-04 -6.12509199230E-04 +1.37397719774E-04 -4.06667359064E-01 +8.54659539140E-01
1.31500000000E+09 -2.03603692797E-01 +8.73865148277E-01 -6.07311200125E-04 +2.90304871276E-04 -6.14971994297E-04 +2.27301480669E-04 -3.97945552649E-01 +8.57832715226E-01
1.32000000000E+09 -1.95870765854E-01 +8.74126483564E-01 -5.81503421321E-04 +3.39101595906E-04 -5.85091668409E-04 +3.07816070897E-04 -3.88954308375E-01 +8.60917184336E-01
1.32500000000E+09 -1.87765662099E-01 +8.73124966786E-01 -6.04841833184E-04 +3.54061650426E-04 -6.58738915335E-04 +4.15936830776E-04 -3.79682017154E-01 +8.63749685285E-01
1.33000000000E+09 -1.79071595033E-01 +8.71832437919E-01 -6.71349141207E-04 +3.81205905416E-04 -6.16101306089E-04 +4.89439594838E-04 -3.70222091536E-01 +8.66571285067E-01
1.33500000000E+09 -1.68925674162E-01 +8.70371019759E-01 -6.46198172478E-04 +5.48004681988E-04 -6.00977082013E-04 +6.23217476443E-04 -3.60572640969E-01 +8.69408825026E-01
1.34000000000E+09 -1.57453008967E-01 +8.69073631364E-01 -6.05576532773E-04 +7.07750799860E-04 -5.13480606696E-04 +7.03361567760E-04 -3.50660366442E-01 +8.72273681837E-01
1.34500000000E+09 -1.44455442332E-01 +8.67939000464E-01 -5.08554392567E-04 +8.21660074764E-04 -5.04910194236E-04 +7.47376551007E-04 -3.39759150999E-01 +8.75061486139E-01
1.35000000000E+09 -1.30443709731E-01 +8.67393717558E-01 -4.41658447950E-04 +9.15992762058E-04 -4.23318358103E-04 +8.77395796086E-04 -3.28872669496E-01 +8.77655929659E-01
1.35500000000E+09 -1.15742523462E-01 +8.67351386583E-01 -3.91392778145E-04 +9.63846103979E-04 -3.80857612973E-04 +9.77835987600E-04 -3.17437804517E-01 +8.79978435024E-01
1.36000000000E+09 -1.00693464795E-01 +8.67635316838E-01 -3.49634523782E-04 +1.06464346319E-03 -3.12503398644E-04 +1.00712640954E-03 -3.05977560803E-01 +8.82106894585E-01
1.36500000000E+09 -8.55643508634E-02 +8.67430205889E-01 -2.96896094404E-04 +1.24948243340E-03 -2.97247635905E-04 +1.13750403867E-03 -2.94184635011E-01 +8.84162150132E-01
1.37000000000E+09 -7.10055065751E-02 +8.66170746090E-01 -1.44886548838E-04 +1.36926791108E-03 -2.19696276018E-04 +1.31767418426E-03 -2.81712028031E-01 +8.86078789831E-01
1.37500000000E+09 -5.76395057094E-02 +8.63943314284E-01 +1.20127243216E-04 +1.48153077413E-03 -7.80635262221E-05 +1.43866476437E-03 -2.68218021010E-01 +8.87994574664E-01
1.38000000000E+09 -4.50296816436E-02 +8.60724437686E-01 +2.53193003840E-04 +1.49124242785E-03 +7.94092388220E-05 +1.56645953125E-03 -2.53844820833E-01 +8.89486017436E-01
1.38500000000E+09 -3.23925965991E-02 +8.56570960744E-01 +4.01651176144E-04 +1.58694116034E-03 +2.91229943912E-04 +1.78745323271E-03 -2.38856523632E-01 +8.90947970463E-01
1.39000000000E+09 -1.98363736695E-02 +8.51912039566E-01 +5.23804867957E-04 +1.66393264717E-03 +5.75666990593E-04 +1.92062832762E-03 -2.23466928558E-01 +8.91860875456E-01
1.39500000000E+09 -6.23127102414E-03 +8.46807650322E-01 +7.46583840868E-04 +1.82204676922E-03 +1.01285792501E-03 +1.90283616177E-03 -2.07429244526E-01 +8.92175871328E-01
1.40000000000E+09 +8.64777875597E-03 +8.41220133777E-01 +1.01335787541E-03 +1.95765185552E-03 +1.26868270648E-03 +1.87805352979E-03 -1.90703522135E-01 +8.92138124955E-01
1.40500000000E+09 +2.41639692954E-02 +8.35681104350E-01 +1.56667303941E-03 +2.07032409713E-03 +1.61614654573E-03 +1.89999487397E-03 -1.72883488021E-01 +8.91490571731E-01
1.41000000000E+09 +4.09381199220E-02 +8.30629881931E-01 +2.05751906834E-03 +1.82037355905E-03 +2.02163547108E-03 +1.82274888170E-03 -1.53420189760E-01 +8.90333300567E-01
1.41500000000E+09 +5.92044716059E-02 +8.25855603123E-01 +2.32167332210E-03 +1.64458526170E-03 +2.33211987883E-03 +1.81307662732E-03 -1.32609211786E-01 +8.88170474186E-01
1.42000000000E+09 +7.95122132615E-02 +8.20253390038E-01 +2.64994585719E-03 +1.50904714587E-03 +2.91456740005E-03 +1.68528473354E-03 -1.10534607676E-01 +8.85217979119E-01
1.42500000000E+09 +1.00480419005E-01 +8.12596340680E-01 +3.07176642649E-03 +1.31693089821E-03 +3.52408278804E-03 +1.31509281149E-03 -8.77978812112E-02 +8.80876550004E-01
1.43000000000E+09 +1.21806711183E-01 +8.02351033511E-01 +3.59535422453E-03 +1.19194933943E-03 +3.97098045702E-03 +9.59087053900E-04 -6.41886620983E-02 +8.75777678456E-01
1.43500000000E+09 +1.42792910895E-01 +7.89412418478E-01 +4.49081058945E-03 +6.98296033546E-04 +4.67800930799E-03 +3.20042836340E-04 -3.89162010489E-02 +8.68729618478E-01
1.44000000000E+09 +1.63848806848E-01 +7.74308529259E-01 +5.11102053448E-03 -3.58622567992E-04 +5.15661312059E-03 -7.20367930514E-04 -1.21734562215E-02 +8.59446486175E-01
1.44500000000E+09 +1.85900137946E-01 +7.56672473347E-01 +5.16094877804E-03 -1.46162344630E-03 +5.11632775475E-03 -1.69029626865E-03 +1.65169039004E-02 +8.47740366026E-01
1.45000000000E+09 +2.08477265762E-01 +7.36429014195E-01 +5.01540458999E-03 -2.14458436108E-03 +5.04011000333E-03 -2.48603805169E-03 +4.65403553248E-02 +8.33059610445E-01
1.45500000000E+09 +2.32070180165E-01 +7.14095930217E-01 +5.21291112676E-03 -2.85476703037E-03 +4.99476692427E-03 -3.31119642989E-03 +7.77926556575E-02 +8.15852729279E-01
1.46000000000E+09 +2.56801107822E-01 +6.89672590720E-01 +5.52920849667E-03 -3.83602072784E-03 +4.94074743979E-03 -4.20415986243E-03 +1.10884626339E-01 +7.94623824895E-01
1.46500000000E+09 +2.82947675650E-01 +6.63067777507E-01 +5.66734384329E-03 -5.25269777315E-03 +4.86676589884E-03 -5.15299987387E-03 +1.44946525215E-01 +7.68211138065E-01
1.47000000000E+09 +3.11165085725E-01 +6.33061766371E-01 +5.49160860921E-03 -7.30804702544E-03 +5.07653416714E-03 -6.69678637418E-03 +1.79871145903E-01 +7.35092160422E-01
1.47500000000E+09 +3.40030063388E-01 +5.96701421594E-01 +4.09110743741E-03 -9.57147148415E-03 +4.32099524692E-03 -9.00945461563E-03 +2.14310983478E-01 +6.94817678209E-01
1.48000000000E+09 +3.66675623107E-01 +5.53043483802E-01 +2.21394011170E-03 -1.09590109796E-02 +2.47343957316E-03 -1.10301815502E-02 +2.48409640405E-01 +6.47186611501E-01
1.48500000000E+09 +3.89051937488E-01 +5.01236189716E-01 +3.89035700527E-04 -1.23315274695E-02 +2.15527301610E-04 -1.26572673378E-02 +2.80060018245E-01 +5.90385342920E-01
1.49000000000E+09 +4.05192256330E-01 +4.41510898257E-01 -2.41649869086E-03 -1.38815318095E-02 -3.04212420873E-03 -1.37237759517E-02 +3.06820665669E-01 +5.23602016469E-01
1.49500000000E+09 +4.13782635629E-01 +3.73702228400E-01 -6.48922372943E-03 -1.47599446729E-02 -6.77583792848E-03 -1.38576135278E-02 +3.24276201382E-01 +4.46264236792E-01
1.50000000000E+09 +4.13063593620E-01 +2.97504379346E-01 -1.10491704673E-02 -1.39500925187E-02 -1.03500349745E-02 -1.30534236577E-02 +3.28797544902E-01 +3.59536213331E-01
1.50500000000E+09 +3.99407933035E-01 +2.13809862218E-01 -1.56562981940E-02 -1.17160791307E-02 -1.45829267615E-02 -1.17333301957E-02 +3.16728413691E-01 +2.65185992564E-01
1.51000000000E+09 +3.70614248822E-01 +1.26550695174E-01 -1.93836475253E-02 -7.30759602179E-03 -1.89129885300E-02 -8.00174809677E-03 +2.84097828589E-01 +1.66089750009E-01
1.51500000000E+09 +3.23135150796E-01 +3.89908430622E-02 -2.19882866687E-02 -2.60618668437E-03 -2.21191424217E-02 -3.27062113902E-03 +2.27214252383E-01 +7.14262431529E-02
1.52000000000E+09 +2.55954124067E-01 -3.94228061208E-02 -2.37257877220E-02 +3.63147835507E-03 -2.41029883861E-02 +3.37939357607E-03 +1.49464743341E-01 -1.03754310397E-02
1.52500000000E+09 +1.72355906055E-01 -1.04150507262E-01 -2.28827541352E-02 +1.21099754407E-02 -2.31988554386E-02 +1.20637573963E-02 +5.62805011923E-02 -7.49890201853E-02
1.53000000000E+09 +7.47542378689E-02 -1.50036885918E-01 -1.69997482169E-02 +1.87259050706E-02 -1.71629934599E-02 +1.88423382563E-02 -5.21959142884E-02 -1.17344571100E-01
1.53500000000E+09 -3.16076264118E-02 -1.73024312572E-01 -1.07942493822E-02 +2.20386209657E-02 -1.07882424282E-02 +2.20463884495E-02 -1.62589422545E-01 -1.32893782533E-01
1.54000000000E+09 -1.41947326183E-01 -1.70735397350E-01 -4.04961719903E-03 +2.32439834897E-02 -4.03774428333E-03 +2.30074069543E-02 -2.70730392925E-01 -1.25708629510E-01
1.54500000000E+09 -2.45334945979E-01 -1.43440632991E-01 +2.76136220905E-03 +2.27540984185E-02 +2.29744685557E-03 +2.25380605773E-02 -3.67613572028E-01 -9.78112038849E-02
1.55000000000E+09 -3.36033897205E-01 -9.95383139005E-02 +8.29652463498E-03 +1.91296580457E-02 +7.53178200989E-03 +1.93493408866E-02 -4.49473337492E-01 -5.61447665215E-02
1.55500000000E+09 -4.11535263725E-01 -4.41978378457E-02 +1.15796853494E-02 +1.52896600783E-02 +1.11030250835E-02 +1.61592079199E-02 -5.16683844244E-01 -6.06743287336E-03
1.56000000000E+09 -4.70968774845E-01 +1.46251226060E-02 +1.38986787299E-02 +1.10006772144E-02 +1.41276673401E-02 +1.20218932882E-02 -5.69575930681E-01 +4.89804659355E-02
1.56500000000E+09 -5.18444325771E-01 +7.39976071560E-02 +1.42311745594E-02 +6.57787532613E-03 +1.49715520244E-02 +7.22209342057E-03 -6.10703799223E-01 +1.05593337810E-01
1.57000000000E+09 -5.54479861929E-01 +1.33603349222E-01 +1.35793196234E-02 +3.47292789737E-03 +1.44823153027E-02 +3.60275896947E-03 -6.40594020866E-01 +1.61797210637E-01
