# Hz S RI R 50
! CMT, C1220, 16058040, 17.2.0/1
! Date: 14/08/2018 12:23:59
! Data: Format (Calibration Info)
! Freq                      S11: Re/Im (F2)                       S21: Re/Im (F2)                       S12: Re/Im (F2)                       S22: Re/Im (F2)            
1.00000000000E+09 -6.45805875376E-01 +7.15604461471E-01 -2.28905899428E-05 +1.11885647494E-05 -6.07148497489E-07 +5.28649662491E-06 -7.47947341569E-01 +6.24225379399E-01
1.00500000000E+09 -6.38595616841E-01 +7.20616211604E-01 +2.65205330882E-05 +3.30136960749E-05 +3.73906995846E-06 -7.55531963993E-06 -7.44245719004E-01 +6.28269935107E-01
1.01000000000E+09 -6.32742318966E-01 +7.25327112945E-01 -3.38842824750E-05 +1.64086990308E-05 +3.56566709717E-06 +3.87121560468E-05 -7.40787852098E-01 +6.32023937853E-01
1.01500000000E+09 -6.28668452229E-01 +7.29023674275E-01 -9.58834745952E-06 +1.81634550997E-05 +3.43551510650E-05 -1.58477700596E-05 -7.37397739385E-01 +6.35761445717E-01
1.02000000000E+09 -6.26109166246E-01 +7.32127655425E-01 -1.80023216726E-07 -1.48416367356E-05 -6.00352323576E-05 +1.63405268319E-05 -7.34116484906E-01 +6.39179285808E-01
1.02500000000E+09 -6.24586466560E-01 +7.34842840256E-01 +2.82553412952E-05 -5.38229935239E-06 +1.04973692859E-05 -1.65148173738E-05 -7.31153024917E-01 +6.42854501951E-01
1.03000000000E+09 -6.23531186495E-01 +7.37073226466E-01 +2.40550497147E-05 +9.73584076702E-06 -3.40873442194E-06 +3.86514347017E-05 -7.27569836222E-01 +6.46605317836E-01
1.03500000000E+09 -6.21525299828E-01 +7.39420261157E-01 -5.18545817373E-05 +4.53627285621E-05 +2.40877881975E-05 +2.90151691824E-05 -7.23962892551E-01 +6.50550782106E-01
1.04000000000E+09 -6.18100905230E-01 +7.42097928723E-01 +1.52698184376E-05 +2.65865073254E-05 -1.67214878087E-05 +8.75409798226E-06 -7.20138725622E-01 +6.54320488772E-01
1.04500000000E+09 -6.12858895456E-01 +7.45494122341E-01 -2.09616573415E-05 -2.32633693483E-05 -1.24904536946E-05 +3.67426838226E-05 -7.16462551785E-01 +6.57729197852E-01
1.05000000000E+09 -6.05548544587E-01 +7.49570942619E-01 -3.95791048745E-05 +5.20528213011E-05 -2.67264777510E-05 -1.98062371675E-05 -7.13279669240E-01 +6.61104142284E-01
1.05500000000E+09 -5.96983934375E-01 +7.54337633138E-01 +3.29156998761E-05 -1.81684251292E-05 -7.74301680575E-06 +7.95962519581E-06 -7.09850865544E-01 +6.64638973489E-01
1.06000000000E+09 -5.87600880863E-01 +7.59500435141E-01 +4.24899674046E-05 -1.97254082707E-05 +5.97822482531E-05 +1.38960162004E-05 -7.06683276556E-01 +6.68461479991E-01
1.06500000000E+09 -5.78635233976E-01 +7.64513153259E-01 -2.97970627064E-06 +2.29912544979E-05 +2.41038845422E-06 +3.04525965975E-05 -7.02852848799E-01 +6.72176346563E-01
1.07000000000E+09 -5.70703855777E-01 +7.68751991708E-01 +3.15886569585E-05 +5.77955597914E-05 +1.66438543373E-06 -1.72103645784E-05 -6.98727997556E-01 +6.75810251838E-01
1.07500000000E+09 -5.64573084932E-01 +7.72864239103E-01 +6.85992474788E-05 +2.64329764020E-05 +6.19383146487E-05 +3.42667508050E-05 -6.94400916091E-01 +6.79597530485E-01
1.08000000000E+09 -5.60046895637E-01 +7.76017968304E-01 +4.35296278070E-06 +1.28944649135E-05 +3.39456168413E-05 +1.76897138051E-05 -6.90568844550E-01 +6.83302436814E-01
1.08500000000E+09 -5.57302405330E-01 +7.78568544730E-01 +3.86926674142E-05 -9.29677780261E-06 +2.88877026677E-06 -1.83840748670E-05 -6.86456560912E-01 +6.87029577410E-01
1.09000000000E+09 -5.55285583624E-01 +7.80715557263E-01 +1.44345939594E-05 -2.12874248005E-05 +2.78481270375E-05 -1.73298716977E-05 -6.82795158441E-01 +6.90836601237E-01
1.09500000000E+09 -5.53467878628E-01 +7.82543001051E-01 +1.92883084016E-05 -2.80618605752E-05 +5.63457601188E-05 -1.91681420044E-05 -6.78826174293E-01 +6.94662911224E-01
1.10000000000E+09 -5.50581707536E-01 +7.84378028127E-01 +1.82543792297E-05 +3.66119610413E-05 -6.74846637608E-06 +1.16332145021E-05 -6.74854992501E-01 +6.98547523673E-01
1.10500000000E+09 -5.46564901573E-01 +7.86975086914E-01 +1.62833106988E-05 -6.88638663873E-05 +8.56141475349E-05 -1.18656003509E-05 -6.70659615108E-01 +7.02097335277E-01
1.11000000000E+09 -5.40853437384E-01 +7.90344394534E-01 +2.84206303482E-05 -1.11236582299E-05 +1.92974468350E-05 -4.66491030169E-05 -6.66283134478E-01 +7.05390353768E-01
1.11500000000E+09 -5.33640727115E-01 +7.94091332273E-01 -6.01058169916E-06 -1.17573804526E-05 +3.27039307339E-05 -1.18924412916E-05 -6.62221892434E-01 +7.08760317081E-01
1.12000000000E+09 -5.25497789940E-01 +7.98031357074E-01 -1.49431905213E-05 -3.59942976459E-05 -3.90507157736E-06 -5.31662297873E-05 -6.58432487054E-01 +7.12397606276E-01
1.12500000000E+09 -5.17542608351E-01 +8.02134676896E-01 +2.56156051766E-05 -2.59093027916E-05 +5.50860850660E-06 +1.09366958877E-05 -6.54098410789E-01 +7.16262898699E-01
1.13000000000E+09 -5.10109360159E-01 +8.05894342063E-01 -1.22918460293E-05 -2.56786646197E-05 -9.15283450987E-06 -3.42614029871E-05 -6.49875285620E-01 +7.19965837250E-01
1.13500000000E+09 -5.03749300296E-01 +8.08773618943E-01 -3.28456914711E-06 -3.64626226940E-05 +5.18092803806E-05 -5.10415889284E-06 -6.45339311032E-01 +7.23721094809E-01
1.14000000000E+09 -4.98377034127E-01 +8.11177757416E-01 -6.40998280118E-06 -5.66658067121E-06 +6.28073561860E-05 -2.12380949389E-05 -6.40658178246E-01 +7.27123100107E-01
1.14500000000E+09 -4.94436747481E-01 +8.12920083683E-01 +2.23341504621E-05 -2.58068182249E-05 -5.83721014345E-06 -2.66453825237E-05 -6.36019439732E-01 +7.30558947127E-01
1.15000000000E+09 -4.90603478161E-01 +8.14345393863E-01 -4.17472103074E-05 -1.71672371920E-06 +2.38412299233E-05 -3.03199794862E-05 -6.31553767780E-01 +7.34250921831E-01
1.15500000000E+09 -4.86860409352E-01 +8.16107379077E-01 -3.58356056810E-05 -2.37168006594E-05 -3.01419925243E-05 -5.14668556082E-05 -6.26620094645E-01 +7.38099734078E-01
1.16000000000E+09 -4.82200832890E-01 +8.17901445987E-01 +3.27151880512E-05 -5.05165534422E-06 +5.23608780417E-06 +1.44323159323E-05 -6.21721145785E-01 +7.41866548291E-01
1.16500000000E+09 -4.76199861093E-01 +8.20364190152E-01 +1.31954364699E-05 -2.17714110350E-06 -1.06010371542E-05 -2.06591311005E-05 -6.16711641808E-01 +7.45416526145E-01
1.17000000000E+09 -4.69136516650E-01 +8.23658090431E-01 +5.24530432357E-05 -3.94223771789E-05 +1.29170540857E-05 -1.81036375509E-05 -6.11126112265E-01 +7.48780090146E-01
1.17500000000E+09 -4.61081216712E-01 +8.26991583159E-01 +1.45232869939E-05 -2.76233186307E-05 -1.77898200144E-05 -1.54367277933E-05 -6.05570807784E-01 +7.51989459941E-01
1.18000000000E+09 -4.52948446230E-01 +8.30480726946E-01 -3.44435415014E-05 -3.51428693849E-05 -1.30322027975E-05 -5.06793613697E-05 -5.99962456032E-01 +7.55029996382E-01
1.18500000000E+09 -4.44951876245E-01 +8.33698062789E-01 -7.13593256160E-06 -6.44785719223E-05 +6.50968380999E-05 -5.97126745993E-05 -5.94068598919E-01 +7.58138593912E-01
1.19000000000E+09 -4.37773323130E-01 +8.36362033952E-01 -2.79293110553E-05 -4.43025561354E-05 -2.73580764015E-05 -5.45278519038E-05 -5.87877532589E-01 +7.60720964221E-01
1.19500000000E+09 -4.31817876103E-01 +8.38443185702E-01 -5.42748648520E-05 -1.20652453689E-04 -9.22001034200E-05 -8.16459390935E-05 -5.82154916665E-01 +7.61869295811E-01
1.20000000000E+09 -4.26935322185E-01 +8.39371085182E-01 -4.90072970871E-05 -4.41562677262E-05 -1.14859100041E-04 -6.12244935037E-07 -5.77530813599E-01 +7.62313404185E-01
1.20500000000E+09 -4.22651437879E-01 +8.40463958804E-01 -8.85393260503E-05 +2.22666452415E-05 -6.33789251581E-05 +1.93487182859E-07 -5.75206328493E-01 +7.63053287564E-01
1.21000000000E+09 -4.17975745627E-01 +8.41534971496E-01 -2.78436676355E-05 -1.56531202834E-05 -3.01563170710E-05 +5.81349559768E-06 -5.73331063140E-01 +7.66067035380E-01
1.21500000000E+09 -4.12098392560E-01 +8.42715842817E-01 -3.09240211339E-05 +3.51518327258E-05 -5.86780209114E-05 +1.22210781325E-05 -5.70564853412E-01 +7.70580906093E-01
1.22000000000E+09 -4.04548029115E-01 +8.44531550318E-01 -3.00969240008E-05 -6.05607002039E-06 -2.63426469014E-05 -1.57202739140E-05 -5.66366800163E-01 +7.75724377376E-01
1.22500000000E+09 -3.95303518804E-01 +8.46871044861E-01 -2.05018244220E-05 +1.28778964321E-05 +1.13089514545E-05 +1.95705281005E-05 -5.61313779743E-01 +7.80965140618E-01
1.23000000000E+09 -3.84724976900E-01 +8.49785218374E-01 -6.13519180612E-06 -2.73705805061E-06 -3.76226421926E-05 +1.70393292344E-05 -5.55643296407E-01 +7.85595677988E-01
1.23500000000E+09 -3.73826168689E-01 +8.53280825533E-01 -2.23500696227E-05 +1.24084258238E-05 -1.13375198755E-05 -1.16638644015E-05 -5.49903748753E-01 +7.89841136702E-01
1.24000000000E+09 -3.62857651192E-01 +8.57065654225E-01 -4.22701099560E-06 -3.64071922140E-05 -2.26391260220E-06 -5.28138042399E-06 -5.43795484007E-01 +7.93660796587E-01
1.24500000000E+09 -3.53082517368E-01 +8.60696838757E-01 -5.42103645859E-05 -2.35215624093E-05 -3.07164303985E-05 -5.42446142492E-05 -5.37507773938E-01 +7.97469451344E-01
1.25000000000E+09 -3.44520220908E-01 +8.64062479521E-01 -4.52892013549E-05 -1.77246935111E-05 +1.59329511081E-05 -2.74092820809E-05 -5.31088543392E-01 +8.01699499885E-01
1.25500000000E+09 -3.37829981350E-01 +8.66454225626E-01 -1.67885645520E-06 -1.92045825384E-05 -8.23981217176E-05 +3.60947613016E-06 -5.24072064989E-01 +8.05736087591E-01
1.26000000000E+09 -3.32126372866E-01 +8.68203404839E-01 -6.98092553655E-05 +2.56225500180E-06 -3.60022565575E-05 -2.58136435428E-05 -5.17448139350E-01 +8.09821018363E-01
1.26500000000E+09 -3.27339107461E-01 +8.69283546814E-01 -5.18160530155E-05 +7.96520624374E-06 -7.26247604252E-05 +3.00079647340E-06 -5.10403838780E-01 +8.13708164786E-01
1.27000000000E+09 -3.22232801701E-01 +8.70380047317E-01 -8.03416409381E-05 -1.27318981420E-05 -1.10926585052E-04 -1.25103257962E-05 -5.03632254892E-01 +8.17525390781E-01
1.27500000000E+09 -3.15978456548E-01 +8.71227826278E-01 -1.09604021597E-04 +2.11590328333E-05 -6.58149047270E-05 +1.67796360951E-05 -4.96625879950E-01 +8.20991858280E-01
1.28000000000E+09 -3.07717662053E-01 +8.72705251586E-01 -1.03425034935E-04 +6.20534791897E-05 -1.16856264069E-04 +4.82218364981E-05 -4.89607295928E-01 +8.24480178051E-01
1.28500000000E+09 -2.97462411161E-01 +8.74631374980E-01 -7.11131541782E-05 +4.31785457747E-05 -8.02681322449E-05 +6.49629296731E-05 -4.82273371214E-01 +8.28055864815E-01
1.29000000000E+09 -2.85755987227E-01 +8.76798132837E-01 -5.71430628577E-05 +8.33182612079E-05 -5.25853071011E-05 +1.02943301410E-04 -4.74880653557E-01 +8.31771463885E-01
1.29500000000E+09 -2.73234394854E-01 +8.79785546773E-01 -6.73016646372E-05 +5.48570567824E-05 +3.48399531043E-06 +4.96594942027E-05 -4.67097539831E-01 +8.35250038790E-01
1.30000000000E+09 -2.60698154996E-01 +8.83029746412E-01 -6.86105471079E-05 +8.93692393415E-05 -5.85109235028E-05 +8.02399295974E-05 -4.59262532157E-01 +8.38777626569E-01
1.30500000000E+09 -2.49413296770E-01 +8.85985631191E-01 -4.00011726828E-05 +1.07407523910E-04 -3.04046871758E-05 +8.34841100363E-05 -4.51244040203E-01 +8.42058570828E-01
1.31000000000E+09 -2.39483854311E-01 +8.88211430274E-01 -2.72845715455E-05 +1.13255234608E-04 -2.54822600294E-05 +1.54217005967E-04 -4.43045020511E-01 +8.45553726079E-01
1.31500000000E+09 -2.31461839924E-01 +8.89783284707E-01 -3.15913095514E-05 +1.36608244407E-04 +1.12121406093E-05 +1.10185003475E-04 -4.34177302213E-01 +8.48929417754E-01
1.32000000000E+09 -2.25119684272E-01 +8.90380666385E-01 +8.83118703349E-06 +8.59005656406E-05 +2.65030897768E-05 +1.01477002836E-04 -4.25172851132E-01 +8.52288610667E-01
1.32500000000E+09 -2.19036581866E-01 +8.90126878297E-01 -8.63566516460E-06 +9.76802067447E-05 +1.93033794582E-05 +8.89502422151E-05 -4.15606973654E-01 +8.55711285324E-01
1.33000000000E+09 -2.12445615836E-01 +8.89731794598E-01 +6.34946502704E-06 +1.04103956851E-04 +2.62130676292E-05 +1.22413028322E-04 -4.05985731320E-01 +8.59104885688E-01
1.33500000000E+09 -2.04019977655E-01 +8.88759726892E-01 +2.81601136652E-05 +1.37253040387E-04 +6.25078936715E-05 +8.90353086383E-05 -3.96167288111E-01 +8.62354219937E-01
1.34000000000E+09 -1.93028920112E-01 +8.88107787970E-01 +3.76186422948E-05 +9.02282065543E-05 +6.12722304359E-05 +8.64783166259E-05 -3.86001040248E-01 +8.65675657307E-01
1.34500000000E+09 -1.79802309965E-01 +8.87523650251E-01 +9.24763368529E-05 +8.60124057503E-05 +8.88469738607E-05 +8.21407339324E-05 -3.75191408880E-01 +8.68932193623E-01
1.35000000000E+09 -1.64316451783E-01 +8.87377891309E-01 +4.14008912093E-05 +1.05417791565E-04 +6.18450079134E-05 +1.07255461509E-04 -3.64152949543E-01 +8.71984717976E-01
1.35500000000E+09 -1.47468939170E-01 +8.87637808650E-01 +7.20003656180E-05 +1.38751488358E-04 +4.24734600555E-05 +5.35524018144E-05 -3.52641124584E-01 +8.74906816898E-01
1.36000000000E+09 -1.30705974011E-01 +8.88217680876E-01 +7.08145839549E-05 +1.02621360995E-04 +1.48397607151E-05 +4.53100516480E-05 -3.40871285297E-01 +8.77688901642E-01
1.36500000000E+09 -1.14598096886E-01 +8.88882761169E-01 +5.00024189923E-05 +8.71263789899E-05 +3.38418207615E-05 +8.20904859812E-05 -3.28698357525E-01 +8.80157238714E-01
1.37000000000E+09 -1.00233785385E-01 +8.88996696238E-01 +9.14230177873E-05 +9.00206831461E-05 +3.70312419305E-05 +9.91169590015E-05 -3.15836750227E-01 +8.82482633185E-01
1.37500000000E+09 -8.78685263087E-02 +8.88557128687E-01 +9.20054401586E-05 +1.41833902423E-04 +3.58510288345E-05 +1.36295821337E-04 -3.02199210834E-01 +8.84662018833E-01
1.38000000000E+09 -7.69458450939E-02 +8.87722668549E-01 +1.55860947410E-04 +1.86214169947E-04 +1.23767406454E-04 +2.38345832411E-04 -2.87700973427E-01 +8.86907234397E-01
1.38500000000E+09 -6.59982526399E-02 +8.86154142237E-01 +2.11517865615E-04 +1.21233819646E-04 +2.46245126832E-04 +1.09470197064E-04 -2.72196465844E-01 +8.88616131376E-01
1.39000000000E+09 -5.44740365905E-02 +8.83746476383E-01 +1.93329286814E-04 +1.20329791041E-04 +2.51346593564E-04 +1.20949730850E-04 -2.56286470361E-01 +8.90140516835E-01
1.39500000000E+09 -4.07306812047E-02 +8.80345191704E-01 +3.01412646705E-04 +7.10833813383E-05 +3.16670758456E-04 +1.04165674998E-04 -2.39556112243E-01 +8.90978995390E-01
1.40000000000E+09 -2.43825709168E-02 +8.76046594001E-01 +3.51639762212E-04 -1.05201780171E-05 +3.47273004552E-04 -5.20794073430E-05 -2.22052847073E-01 +8.91581881572E-01
1.40500000000E+09 -5.97756716178E-03 +8.70958352080E-01 +2.69804404147E-04 -1.05368177364E-04 +2.92450966801E-04 -6.34996388447E-05 -2.03261018502E-01 +8.91448964128E-01
1.41000000000E+09 +1.46945676769E-02 +8.65593873108E-01 +2.39910638240E-04 -1.05626948706E-04 +2.53103747461E-04 -6.20195857461E-05 -1.83125877405E-01 +8.90702718881E-01
1.41500000000E+09 +3.66424675717E-02 +8.59817697066E-01 +2.30465902332E-04 -1.07935162574E-04 +2.44580904959E-04 -9.44013830242E-05 -1.61390383581E-01 +8.89087084149E-01
1.42000000000E+09 +5.93051430218E-02 +8.53818480613E-01 +2.55324696077E-04 -5.22995365083E-05 +3.38538094647E-04 -6.15816127519E-06 -1.38623642645E-01 +8.86464261186E-01
1.42500000000E+09 +8.13193224288E-02 +8.46652228166E-01 +3.37004042378E-04 -1.69736273857E-04 +3.62620079579E-04 -2.04960249083E-04 -1.14969478486E-01 +8.82863981967E-01
1.43000000000E+09 +1.01893631147E-01 +8.38278504560E-01 +2.31875158145E-04 -2.60948885026E-04 +1.90547758491E-04 -2.87285366748E-04 -9.00128872440E-02 +8.78034531465E-01
1.43500000000E+09 +1.21529949992E-01 +8.28706957736E-01 +2.14939360336E-04 -2.59710955931E-04 +1.71936597469E-04 -2.92618583215E-04 -6.38837048147E-02 +8.71417947206E-01
1.44000000000E+09 +1.41042858192E-01 +8.17851433977E-01 +1.13042699785E-04 -2.16635389466E-04 +1.15622478635E-04 -1.85235086184E-04 -3.57793469665E-02 +8.62726167055E-01
1.44500000000E+09 +1.61996757149E-01 +8.04252140181E-01 +1.49548403815E-04 -6.53418290844E-05 +1.43627352892E-04 -1.25801329186E-04 -5.80462944802E-03 +8.51207287718E-01
1.45000000000E+09 +1.84927126042E-01 +7.87164785181E-01 +3.18694894495E-04 -2.48018727108E-04 +3.09987991332E-04 -2.46537110222E-04 +2.62714340789E-02 +8.36782995271E-01
1.45500000000E+09 +2.10713626947E-01 +7.65879127766E-01 +2.33562489491E-04 -2.30534355752E-04 +2.03302746817E-04 -2.56952161111E-04 +5.97526687495E-02 +8.18788020609E-01
1.46000000000E+09 +2.39290480142E-01 +7.40092052088E-01 +4.46424960046E-04 -2.12099956762E-04 +3.83655186693E-04 -2.09627914684E-04 +9.46002371195E-02 +7.96538986650E-01
1.46500000000E+09 +2.69401346952E-01 +7.09742165757E-01 +4.21926605354E-04 -5.22979809449E-04 +2.97475074731E-04 -5.22392772955E-04 +1.29829762847E-01 +7.69671852316E-01
1.47000000000E+09 +3.01449292237E-01 +6.74815358059E-01 +4.22780828679E-04 -5.95749640900E-04 +3.64789948195E-04 -5.32191005444E-04 +1.66753556831E-01 +7.36056591794E-01
1.47500000000E+09 +3.33117892016E-01 +6.34514329242E-01 +3.26275075056E-04 -8.61537849557E-04 +2.65113934081E-04 -8.57032027380E-04 +2.03670989186E-01 +6.94778692944E-01
1.48000000000E+09 +3.62425558408E-01 +5.88659305063E-01 +1.81489265156E-04 -7.66335797889E-04 +1.80702949968E-04 -8.26694679235E-04 +2.39614449789E-01 +6.45245304073E-01
1.48500000000E+09 +3.87896324585E-01 +5.36257798709E-01 +2.90728679300E-04 -9.41648995362E-04 +2.89767407942E-04 -9.37071902499E-04 +2.73498653894E-01 +5.86489554664E-01
1.49000000000E+09 +4.07506569949E-01 +4.76771412783E-01 +3.42310572621E-04 -1.36238297381E-03 +2.87235331001E-04 -1.35138319666E-03 +3.01196424163E-01 +5.16511148794E-01
1.49500000000E+09 +4.19258534041E-01 +4.09392646767E-01 -2.28889109831E-05 -2.09628341893E-03 -6.98410604960E-05 -1.96948126718E-03 +3.18578410489E-01 +4.37157906992E-01
1.50000000000E+09 +4.21025677529E-01 +3.33532144349E-01 -1.17624679473E-03 -2.54320365564E-03 -1.05797014479E-03 -2.32291019619E-03 +3.22964078649E-01 +3.48444216859E-01
1.50500000000E+09 +4.10875103615E-01 +2.49781605264E-01 -2.36491299764E-03 -2.21006846048E-03 -2.17491870155E-03 -2.13133309483E-03 +3.10983796138E-01 +2.52912395352E-01
1.51000000000E+09 +3.85515267019E-01 +1.59042614316E-01 -3.22526992209E-03 -1.15849831638E-03 -3.10460560624E-03 -1.27715074830E-03 +2.78284142306E-01 +1.53728365446E-01
1.51500000000E+09 +3.41194003415E-01 +6.58651784419E-02 -3.51015368650E-03 -3.53141789485E-04 -3.48179201701E-03 -4.56015668399E-04 +2.24577793291E-01 +5.72485884421E-02
1.52000000000E+09 +2.75992455659E-01 -2.24048037727E-02 -3.91439955784E-03 +1.29362787978E-03 -3.98948725152E-03 +1.21630499244E-03 +1.47625096664E-01 -2.82294577384E-02
1.52500000000E+09 +1.90677560483E-01 -9.80641866216E-02 -2.55081151568E-03 +2.18027145707E-03 -2.64442392308E-03 +2.16994647168E-03 +5.26185829587E-02 -9.53358817085E-02
1.53000000000E+09 +8.81821052216E-02 -1.51961994742E-01 -2.08530700216E-03 +2.22053050839E-03 -2.09033609422E-03 +2.23789660152E-03 -5.34411848343E-02 -1.38704384982E-01
1.53500000000E+09 -2.25318422994E-02 -1.79732579575E-01 -2.29229239598E-03 +2.83165933578E-03 -2.34817282536E-03 +2.76453472623E-03 -1.63948890731E-01 -1.58389788268E-01
1.54000000000E+09 -1.35238330576E-01 -1.80821294342E-01 -1.47277880946E-03 +4.30496206492E-03 -1.44613330875E-03 +4.24549152217E-03 -2.71607168113E-01 -1.55109256310E-01
1.54500000000E+09 -2.42729081987E-01 -1.57581936863E-01 +5.67634875031E-04 +4.85637025077E-03 +5.18370357043E-04 +4.83647815313E-03 -3.69924592584E-01 -1.31272478126E-01
1.55000000000E+09 -3.40484980440E-01 -1.14628129996E-01 +2.51334623956E-03 +3.63732398008E-03 +2.33786443602E-03 +3.76206365822E-03 -4.53775605553E-01 -9.38731008281E-02
1.55500000000E+09 -4.23211530875E-01 -5.69915919279E-02 +2.90061190130E-03 +2.26512532467E-03 +2.91385444456E-03 +2.47922334142E-03 -5.24380955053E-01 -4.71827974491E-02
1.56000000000E+09 -4.89583573723E-01 +6.37358585179E-03 +2.99246536813E-03 +1.15986420824E-03 +3.08461612982E-03 +1.37083810009E-03 -5.81432377083E-01 +6.17557444951E-03
1.56500000000E+09 -5.40722634076E-01 +7.10208739206E-02 +2.55745430914E-03 +6.34750608370E-04 +2.74302641852E-03 +7.27227324287E-04 -6.24874245428E-01 +6.19082238114E-02
1.57000000000E+09 -5.79102063254E-01 +1.33132537185E-01 +2.54591825431E-03 +1.13234228017E-04 +2.72390789582E-03 +5.62110931050E-05 -6.57790776801E-01 +1.16662359512E-01
