# Hz S RI R 50
! CMT, C1220, 16058040, 17.2.0/1
! Date: 14/08/2018 11:55:03
! Data: Format (Calibration Info)
! Freq                      S11: Re/Im (F2)                       S21: Re/Im (F2)                       S12: Re/Im (F2)                       S22: Re/Im (F2)            
1.00000000000E+09 -6.43395279014E-01 +7.10951360591E-01 -2.94075184617E-05 +5.19024110086E-06 -2.15238296316E-05 -1.58606887503E-05 -7.49923406922E-01 +6.26722845792E-01
1.00500000000E+09 -6.36419934895E-01 +7.15768580701E-01 -2.16352236465E-06 -1.72023158011E-05 -8.18762886245E-06 -3.51697172876E-05 -7.46402752052E-01 +6.30942702424E-01
1.01000000000E+09 -6.30285645710E-01 +7.20280305635E-01 -1.67618485940E-05 +2.08188481109E-05 -4.76845724135E-05 +4.71280061503E-05 -7.42928389795E-01 +6.34579007207E-01
1.01500000000E+09 -6.25878715532E-01 +7.23998966348E-01 -3.53604928651E-05 -3.71710581322E-05 +1.24326159905E-06 +4.53383132502E-05 -7.39464969649E-01 +6.38427444642E-01
1.02000000000E+09 -6.22900885106E-01 +7.27098731401E-01 -5.58789965016E-05 +2.07296958973E-06 -5.99737494892E-05 -4.37634882683E-05 -7.35981688823E-01 +6.41991085330E-01
1.02500000000E+09 -6.20756462161E-01 +7.29798458847E-01 -3.80501857267E-05 +2.18584345113E-05 -1.49144645288E-05 +5.24273022095E-05 -7.32931585979E-01 +6.45563394435E-01
1.03000000000E+09 -6.19230544156E-01 +7.32094850957E-01 -6.83648483177E-05 +3.94240003130E-05 -6.72428779132E-05 -2.36518281114E-05 -7.29524053069E-01 +6.49349090065E-01
1.03500000000E+09 -6.16829063593E-01 +7.34396019672E-01 -3.48945005790E-05 +4.85806372542E-05 -3.94135439774E-05 +1.55399708138E-05 -7.25696216150E-01 +6.53392596025E-01
1.04000000000E+09 -6.13344952299E-01 +7.37377040331E-01 -4.66350999789E-05 +4.31155090995E-05 -6.03430184217E-05 -8.09457708027E-06 -7.22048819263E-01 +6.57122758729E-01
1.04500000000E+09 -6.08391765514E-01 +7.40735735768E-01 -3.13688946114E-05 +5.06188652777E-05 -1.67581492486E-06 +4.67326639993E-05 -7.18519134790E-01 +6.60502366418E-01
1.05000000000E+09 -6.01520868057E-01 +7.44919136369E-01 -5.05235371352E-05 +5.91551238988E-05 -5.93198649059E-05 +4.40125410776E-05 -7.14869661857E-01 +6.63836353867E-01
1.05500000000E+09 -5.93740674358E-01 +7.49441078938E-01 -3.00632063867E-05 +5.92751623239E-05 -7.47511825491E-06 +6.35997932026E-05 -7.11722414525E-01 +6.67574173061E-01
1.06000000000E+09 -5.85240922356E-01 +7.54274986087E-01 -1.86009858571E-05 +4.65390173471E-05 -8.37178951217E-05 +5.10122778295E-05 -7.08364114460E-01 +6.71241490088E-01
1.06500000000E+09 -5.77086376086E-01 +7.59232168810E-01 -4.28937847881E-05 +1.20259734546E-05 -2.84477541180E-05 +8.30227202992E-05 -7.04565815526E-01 +6.74986672606E-01
1.07000000000E+09 -5.70115595647E-01 +7.63338898294E-01 -2.16110009664E-05 +3.19552081275E-05 -4.40083985605E-05 -6.31503272295E-06 -7.00645325106E-01 +6.78705204521E-01
1.07500000000E+09 -5.64786722893E-01 +7.67089421961E-01 -2.13081920972E-05 +7.56308936033E-05 +4.26471170681E-05 +2.72363667698E-05 -6.96429963618E-01 +6.82173899662E-01
1.08000000000E+09 -5.61093277901E-01 +7.70267473185E-01 +2.02176243413E-05 +5.23859773598E-05 +1.43275006507E-05 +4.21331623622E-05 -6.92261888084E-01 +6.86118285507E-01
1.08500000000E+09 -5.58662268496E-01 +7.72773446200E-01 -1.64418307223E-06 +1.14698829251E-05 +5.12297927214E-06 +8.46376646778E-05 -6.88344689620E-01 +6.89779887587E-01
1.09000000000E+09 -5.56732748705E-01 +7.74848320875E-01 -5.98197129479E-06 +3.26112577570E-05 +4.72392041459E-05 +1.30400412911E-05 -6.84287631684E-01 +6.93754089769E-01
1.09500000000E+09 -5.54971710924E-01 +7.76695286156E-01 +1.25863495940E-05 +4.53008519826E-05 +1.93197480464E-05 +6.55028433927E-05 -6.80600959146E-01 +6.97635152924E-01
1.10000000000E+09 -5.51663234249E-01 +7.78863227426E-01 +7.85000389870E-06 +6.55698094291E-05 +3.31154093788E-05 +6.35154375352E-05 -6.76586534919E-01 +7.01422192230E-01
1.10500000000E+09 -5.47312675118E-01 +7.81641070137E-01 -7.38322513946E-06 +4.13159801621E-05 +3.80427966808E-05 +8.02175606595E-05 -6.72431304052E-01 +7.04880848510E-01
1.11000000000E+09 -5.41175845988E-01 +7.84822428420E-01 +3.56481333089E-05 +7.37657132676E-05 +4.09216163578E-06 +1.04588590153E-04 -6.68177794092E-01 +7.08422629724E-01
1.11500000000E+09 -5.33635631841E-01 +7.88746169458E-01 +1.75836864437E-05 +1.04339637480E-04 +7.51419584621E-05 +6.41544792402E-05 -6.63972030672E-01 +7.11628080023E-01
1.12000000000E+09 -5.25656752661E-01 +7.92627008937E-01 +7.45100787399E-05 +6.24350950448E-05 -1.63046851220E-05 +9.75882559237E-05 -6.59832940719E-01 +7.15453129313E-01
1.12500000000E+09 -5.17693893593E-01 +7.96650886033E-01 +4.16152290627E-05 +5.75138861272E-05 +4.42459560900E-05 +6.69724983205E-05 -6.55608163658E-01 +7.19465656602E-01
1.13000000000E+09 -5.10673271072E-01 +8.00286729115E-01 +5.98211773681E-05 +1.76861661516E-05 +1.93399515121E-05 +7.05120143008E-05 -6.51197360948E-01 +7.23126127511E-01
1.13500000000E+09 -5.04746145656E-01 +8.03386223030E-01 +2.44395917055E-05 +7.14987619263E-05 +7.04127482974E-05 +2.35593541719E-05 -6.46819800196E-01 +7.26972511589E-01
1.14000000000E+09 -4.99960221267E-01 +8.06153646226E-01 +6.73277438219E-05 +3.47098935678E-05 +8.37006388980E-05 +2.64467084959E-05 -6.41975435699E-01 +7.30317673517E-01
1.14500000000E+09 -4.96221606339E-01 +8.07993244447E-01 +5.01469209357E-05 +7.88933028408E-05 +5.11652687546E-05 +3.92223708132E-05 -6.37434903222E-01 +7.33792243472E-01
1.15000000000E+09 -4.92879118552E-01 +8.09884049227E-01 +7.59841309314E-05 +5.29125958931E-05 +1.05253682300E-04 +4.40013490775E-05 -6.32717834836E-01 +7.37443566315E-01
1.15500000000E+09 -4.89278177557E-01 +8.11887874160E-01 +6.65539518803E-05 +8.28897000719E-05 +9.98557758130E-05 +6.01748413356E-05 -6.27772802923E-01 +7.41093124485E-01
1.16000000000E+09 -4.84687954965E-01 +8.13864697294E-01 +8.62545975888E-05 +4.07950337367E-05 +1.03139628645E-04 +9.84037478105E-05 -6.22886569546E-01 +7.45005201590E-01
1.16500000000E+09 -4.78613493985E-01 +8.16831151896E-01 +1.65986387374E-04 +5.06917837554E-05 +1.46228970931E-04 +3.74076859720E-05 -6.17845967901E-01 +7.48613356415E-01
1.17000000000E+09 -4.71416769846E-01 +8.19830746138E-01 +1.53660941676E-04 +4.15999087439E-05 +1.46195598725E-04 +3.57445422226E-05 -6.12385247854E-01 +7.52111474767E-01
1.17500000000E+09 -4.63048316505E-01 +8.23227019801E-01 +1.31819020444E-04 +3.81266231849E-05 +1.39598412505E-04 +7.51753495360E-05 -6.06647755931E-01 +7.55194431876E-01
1.18000000000E+09 -4.54658617532E-01 +8.26867062036E-01 +1.33648711048E-04 +2.83230736227E-07 +1.24825122261E-04 -1.67538467893E-05 -6.01212396692E-01 +7.58299700511E-01
1.18500000000E+09 -4.46406364246E-01 +8.30103771459E-01 +1.80774701053E-04 -1.77916252717E-05 +1.62872436913E-04 -4.57753824140E-05 -5.95201387932E-01 +7.61224346984E-01
1.19000000000E+09 -4.39169904722E-01 +8.32729738932E-01 +1.92715698112E-04 +1.05953366361E-05 +1.90631444746E-04 -2.20498319883E-05 -5.88866006452E-01 +7.63980186485E-01
1.19500000000E+09 -4.33187497588E-01 +8.34958770718E-01 +2.04892578782E-04 -1.36545038309E-05 +2.26291422596E-04 -5.79467185955E-05 -5.83029512470E-01 +7.65173735606E-01
1.20000000000E+09 -4.28657242822E-01 +8.35999443824E-01 +2.72365038476E-04 -1.41015554544E-04 +2.56816134957E-04 -1.32918095684E-04 -5.78497090429E-01 +7.65487025461E-01
1.20500000000E+09 -4.24837240616E-01 +8.37295139189E-01 +2.10193828766E-04 -1.93190159979E-04 +1.63254738757E-04 -1.87651068056E-04 -5.76227937992E-01 +7.66095354686E-01
1.21000000000E+09 -4.20891392047E-01 +8.38777209882E-01 +1.75021600484E-04 -1.97107989618E-04 +1.51625634231E-04 -1.73559663335E-04 -5.74272134154E-01 +7.69107150614E-01
1.21500000000E+09 -4.15820116179E-01 +8.40481938177E-01 +1.25015668197E-04 -1.83555277923E-04 +7.45234497076E-05 -1.86665043052E-04 -5.71656227935E-01 +7.73517483024E-01
1.22000000000E+09 -4.09249940033E-01 +8.42616215254E-01 +7.96878484836E-05 -1.71841120665E-04 +8.24489557484E-05 -1.61891467979E-04 -5.67386517661E-01 +7.78996023794E-01
1.22500000000E+09 -4.01049400902E-01 +8.45470295452E-01 +1.03345971771E-04 -2.31924208541E-04 +1.02027214830E-04 -1.50927744209E-04 -5.62207636666E-01 +7.84043777068E-01
1.23000000000E+09 -3.91533715016E-01 +8.48594265485E-01 +1.06544008254E-04 -1.73505708694E-04 +1.01836686838E-04 -2.73202658072E-04 -5.56529842778E-01 +7.88675371206E-01
1.23500000000E+09 -3.81411288826E-01 +8.52177334275E-01 +1.12293379278E-04 -1.83090083006E-04 +1.16170753052E-04 -2.49929151778E-04 -5.50687025055E-01 +7.93017094283E-01
1.24000000000E+09 -3.71061485645E-01 +8.55902002816E-01 +8.19942685982E-05 -2.54407591199E-04 +2.47385050946E-05 -2.09421652991E-04 -5.44725720434E-01 +7.96983523780E-01
1.24500000000E+09 -3.61791857783E-01 +8.59665678890E-01 +7.40829314725E-05 -2.74330622219E-04 +7.18137226524E-05 -2.46964859173E-04 -5.38336414967E-01 +8.00633290047E-01
1.25000000000E+09 -3.53642695961E-01 +8.62887467241E-01 +3.75385905822E-05 -2.34309688663E-04 +4.31977902573E-05 -2.69496935365E-04 -5.31758593572E-01 +8.04914399215E-01
1.25500000000E+09 -3.46796063446E-01 +8.65454304638E-01 +4.69111339611E-05 -2.84247638083E-04 +2.68215360830E-05 -3.22775696799E-04 -5.24909231024E-01 +8.08999835891E-01
1.26000000000E+09 -3.41350102417E-01 +8.67477529873E-01 -1.02196914687E-05 -2.69028306799E-04 +2.04879524190E-05 -3.45453437340E-04 -5.18145689785E-01 +8.13158136651E-01
1.26500000000E+09 -3.36371463725E-01 +8.68937249491E-01 +1.27850452319E-05 -3.33224225780E-04 -5.02488570786E-05 -3.09969558641E-04 -5.11195395558E-01 +8.17095483881E-01
1.27000000000E+09 -3.30915709764E-01 +8.70179449327E-01 -8.86525888114E-05 -3.40598786413E-04 -4.29903661766E-05 -3.34405748356E-04 -5.04355767377E-01 +8.20883698808E-01
1.27500000000E+09 -3.24571359250E-01 +8.71378663640E-01 -1.16178031594E-04 -3.53409403293E-04 -1.07030058532E-04 -3.36138285961E-04 -4.97308134918E-01 +8.24491684825E-01
1.28000000000E+09 -3.16330628135E-01 +8.73233763518E-01 -1.82162184279E-04 -3.18673648945E-04 -1.54868302439E-04 -3.73125218036E-04 -4.90166652342E-01 +8.27962079556E-01
1.28500000000E+09 -3.05915955165E-01 +8.75157490887E-01 -2.02089826243E-04 -2.93997673418E-04 -2.34515616989E-04 -3.55552620763E-04 -4.82923668216E-01 +8.31480774728E-01
1.29000000000E+09 -2.94129773246E-01 +8.77643791064E-01 -1.98777287254E-04 -2.73881642824E-04 -2.35964663887E-04 -3.02276539510E-04 -4.75236593891E-01 +8.35117672394E-01
1.29500000000E+09 -2.81848647227E-01 +8.80524506047E-01 -2.02801987440E-04 -2.97053417949E-04 -2.51680473118E-04 -3.38936739910E-04 -4.67446848507E-01 +8.38710079923E-01
1.30000000000E+09 -2.69522599925E-01 +8.83618210668E-01 -2.66653878314E-04 -3.40825359100E-04 -3.26492368928E-04 -3.39933666715E-04 -4.59622681356E-01 +8.42317358440E-01
1.30500000000E+09 -2.58332893904E-01 +8.86680507796E-01 -3.41976282259E-04 -3.00084456637E-04 -3.68634786530E-04 -2.60228868389E-04 -4.51478695637E-01 +8.45709885255E-01
1.31000000000E+09 -2.48501556219E-01 +8.89328357977E-01 -4.01347931106E-04 -2.76487052521E-04 -3.96765210500E-04 -2.48273224789E-04 -4.43121806993E-01 +8.49050689815E-01
1.31500000000E+09 -2.40694905165E-01 +8.91330671005E-01 -4.47054274390E-04 -2.10407469591E-04 -4.33876594773E-04 -1.72860496753E-04 -4.34361531897E-01 +8.52447495312E-01
1.32000000000E+09 -2.34281922790E-01 +8.92540806404E-01 -4.26679475305E-04 -1.53262273329E-04 -4.61494608997E-04 -2.24969904612E-04 -4.25188679515E-01 +8.55950874581E-01
1.32500000000E+09 -2.28557623636E-01 +8.93071511914E-01 -4.50428983017E-04 -1.37500344762E-04 -4.89347774989E-04 -1.08309644357E-04 -4.15545242316E-01 +8.59447065068E-01
1.33000000000E+09 -2.22057127054E-01 +8.93538504159E-01 -5.32497775006E-04 -1.36465843432E-04 -5.28358602985E-04 -1.11717547244E-04 -4.05818959966E-01 +8.62700034432E-01
1.33500000000E+09 -2.14037988510E-01 +8.93273809250E-01 -5.51416737073E-04 -9.47893673843E-05 -5.60369343073E-04 -8.77567009361E-05 -3.95761986785E-01 +8.65806668353E-01
1.34000000000E+09 -2.03324734380E-01 +8.93399595451E-01 -5.98280919865E-04 -3.91698231171E-05 -5.85410052028E-04 -3.10881357560E-05 -3.85604369793E-01 +8.69258026693E-01
1.34500000000E+09 -1.90015080865E-01 +8.93412375470E-01 -6.46330697800E-04 -2.55895481643E-05 -5.90537387948E-04 -2.20182957327E-05 -3.74551650326E-01 +8.72463024109E-01
1.35000000000E+09 -1.74570454743E-01 +8.93266259404E-01 -6.81113353170E-04 +8.58106155046E-05 -6.57069633320E-04 +4.56021108510E-05 -3.63293980720E-01 +8.75454096190E-01
1.35500000000E+09 -1.57818340504E-01 +8.93470397723E-01 -7.05093520876E-04 +1.25894310084E-04 -6.83099266289E-04 +1.82580914284E-04 -3.51729641192E-01 +8.78250586925E-01
1.36000000000E+09 -1.41116381663E-01 +8.93692527152E-01 -6.72448111562E-04 +2.46763461708E-04 -6.60210085019E-04 +2.58299980520E-04 -3.39924932086E-01 +8.80892285704E-01
1.36500000000E+09 -1.24924686321E-01 +8.94210568587E-01 -6.91722665936E-04 +2.68025346214E-04 -6.33650679174E-04 +2.49086206263E-04 -3.27695942510E-01 +8.83453068643E-01
1.37000000000E+09 -1.10518897834E-01 +8.94403309584E-01 -6.80821039012E-04 +3.24718565259E-04 -6.92086123282E-04 +2.47734838849E-04 -3.14716424094E-01 +8.85853997750E-01
1.37500000000E+09 -9.80020021325E-02 +8.94450668551E-01 -7.10629016807E-04 +4.13979934450E-04 -7.96352344798E-04 +2.95152276375E-04 -3.00896730352E-01 +8.88030977165E-01
1.38000000000E+09 -8.68252577461E-02 +8.94010583002E-01 -7.82100184520E-04 +5.04791139375E-04 -8.87486239565E-04 +4.85395436629E-04 -2.86186726619E-01 +8.89817853612E-01
1.38500000000E+09 -7.58661298200E-02 +8.93016500376E-01 -7.57944615258E-04 +6.60931239813E-04 -9.39115460179E-04 +7.00531560944E-04 -2.70786465806E-01 +8.91616037020E-01
1.39000000000E+09 -6.42266711623E-02 +8.91339638223E-01 -7.10860374248E-04 +7.54697109596E-04 -8.32783001170E-04 +8.68768039353E-04 -2.54859413955E-01 +8.92890874427E-01
1.39500000000E+09 -5.06236592641E-02 +8.88690488266E-01 -7.28954935738E-04 +8.74702063800E-04 -7.14928865448E-04 +1.03497697990E-03 -2.37975939461E-01 +8.93619657304E-01
1.40000000000E+09 -3.43995722686E-02 +8.84964879529E-01 -6.83138872563E-04 +1.05888707077E-03 -6.26139570633E-04 +1.12584249450E-03 -2.20475453437E-01 +8.94011655787E-01
1.40500000000E+09 -1.58485286274E-02 +8.80409487662E-01 -5.92462653331E-04 +1.14179690597E-03 -4.95076679957E-04 +1.17761136123E-03 -2.01763398167E-01 +8.93683603599E-01
1.41000000000E+09 +5.06398171548E-03 +8.74987879269E-01 -5.50853565183E-04 +1.17329259196E-03 -5.62202989589E-04 +1.12597872241E-03 -1.81653998020E-01 +8.92663202712E-01
1.41500000000E+09 +2.72996047831E-02 +8.68744285649E-01 -5.60667603587E-04 +1.36280865194E-03 -6.58338320962E-04 +1.41313549317E-03 -1.60254017433E-01 +8.91162596964E-01
1.42000000000E+09 +5.03624716891E-02 +8.62125197631E-01 -4.97452889374E-04 +1.54520589248E-03 -5.17711082034E-04 +1.67217881666E-03 -1.37446482755E-01 +8.88422760076E-01
1.42500000000E+09 +7.29571241719E-02 +8.54652191313E-01 -4.07406825167E-04 +1.81927584976E-03 -4.10638097457E-04 +2.05348346971E-03 -1.13782287862E-01 +8.84609996018E-01
1.43000000000E+09 +9.47382105916E-02 +8.46425486112E-01 -2.08934292253E-04 +2.23521504964E-03 -2.82517525278E-05 +2.40877151140E-03 -8.89715371063E-02 +8.79595009922E-01
1.43500000000E+09 +1.15844385903E-01 +8.36875029243E-01 +2.01501685870E-04 +2.42340699273E-03 +4.15751390448E-04 +2.44657408930E-03 -6.27661277081E-02 +8.72596459556E-01
1.44000000000E+09 +1.37058194077E-01 +8.26231610934E-01 +4.98192584839E-04 +2.56305184760E-03 +6.85467528342E-04 +2.54366436270E-03 -3.51118581723E-02 +8.63970997129E-01
1.44500000000E+09 +1.59420283483E-01 +8.13044952792E-01 +9.58368061950E-04 +2.57753447152E-03 +1.11310580034E-03 +2.55920016547E-03 -5.07954622355E-03 +8.52635232351E-01
1.45000000000E+09 +1.83760275093E-01 +7.96271955232E-01 +1.03759884274E-03 +2.60150864014E-03 +1.24041459193E-03 +2.59047618134E-03 +2.68080549447E-02 +8.37516614248E-01
1.45500000000E+09 +2.10120051338E-01 +7.75172251722E-01 +1.32578105622E-03 +3.06748257624E-03 +1.59431292699E-03 +2.96943639677E-03 +5.93124551497E-02 +8.19658957613E-01
1.46000000000E+09 +2.38676453064E-01 +7.49685442261E-01 +2.09057176462E-03 +3.65909607504E-03 +2.34750488274E-03 +3.27606960292E-03 +9.36763143738E-02 +7.98443431387E-01
1.46500000000E+09 +2.69154016148E-01 +7.19663859942E-01 +3.31443303505E-03 +3.82617271793E-03 +3.22128272645E-03 +3.32588603602E-03 +1.29915560380E-01 +7.71752361418E-01
1.47000000000E+09 +3.01006548342E-01 +6.84054227027E-01 +4.83672362272E-03 +3.60648198758E-03 +4.45888589408E-03 +3.27336555338E-03 +1.66769153755E-01 +7.37848309242E-01
1.47500000000E+09 +3.32299996624E-01 +6.42672312849E-01 +6.00616051463E-03 +2.62837361532E-03 +5.71282508932E-03 +2.74003147652E-03 +2.03207344101E-01 +6.96970019542E-01
1.48000000000E+09 +3.61389434618E-01 +5.94775051502E-01 +6.77741761099E-03 +1.61759312307E-03 +6.77748487015E-03 +1.83193187215E-03 +2.39057121236E-01 +6.47795854817E-01
1.48500000000E+09 +3.85314677823E-01 +5.39780178738E-01 +7.64444448516E-03 +7.80137489083E-04 +7.85036259986E-03 +6.89589527451E-04 +2.72683500208E-01 +5.90143350497E-01
1.49000000000E+09 +4.02290650870E-01 +4.78420175771E-01 +9.21433676707E-03 -5.00027887080E-04 +9.13759162089E-03 -9.23580176365E-04 +3.01773032352E-01 +5.21069716367E-01
1.49500000000E+09 +4.11541436225E-01 +4.10345813243E-01 +1.01522979646E-02 -3.03715330733E-03 +9.56179617849E-03 -3.35841336199E-03 +3.19855341105E-01 +4.40217396573E-01
1.50000000000E+09 +4.10882165620E-01 +3.33836154140E-01 +1.06969248418E-02 -5.78109100278E-03 +1.00547273594E-02 -5.51611015633E-03 +3.23499070877E-01 +3.52215688479E-01
1.50500000000E+09 +3.97329322873E-01 +2.50363087250E-01 +1.02629165424E-02 -9.89758538259E-03 +1.01581419783E-02 -9.15621759005E-03 +3.12300627631E-01 +2.57691695397E-01
1.51000000000E+09 +3.68146069306E-01 +1.61061435088E-01 +7.81357083083E-03 -1.41291183710E-02 +8.17897070399E-03 -1.37062860370E-02 +2.82004967357E-01 +1.58588545948E-01
1.51500000000E+09 +3.19721883354E-01 +7.10310081301E-02 +3.04922028784E-03 -1.69074932334E-02 +3.46406044230E-03 -1.69714246334E-02 +2.28413213554E-01 +6.12841300076E-02
1.52000000000E+09 +2.50656496462E-01 -1.25802232806E-02 -2.45590353511E-03 -1.79842821098E-02 -2.30618350620E-03 -1.82090037632E-02 +1.52905185844E-01 -2.52596781952E-02
1.52500000000E+09 +1.63499373479E-01 -8.13207194899E-02 -7.76912863984E-03 -1.59027755648E-02 -7.74950279631E-03 -1.60957694211E-02 +5.85705772933E-02 -9.34499952839E-02
1.53000000000E+09 +6.32915332709E-02 -1.29094258106E-01 -1.09908204245E-02 -1.34465739261E-02 -1.10855074721E-02 -1.35495596044E-02 -4.74342060090E-02 -1.39421130679E-01
1.53500000000E+09 -4.31704050561E-02 -1.52584898612E-01 -1.45849428622E-02 -1.06830664955E-02 -1.46408864318E-02 -1.07015124242E-02 -1.59079778712E-01 -1.59700225344E-01
1.54000000000E+09 -1.50092670310E-01 -1.52984752071E-01 -1.75279376076E-02 -6.09192326160E-03 -1.73375771676E-02 -6.13870806861E-03 -2.67502321201E-01 -1.56880372879E-01
1.54500000000E+09 -2.53222186726E-01 -1.30367316805E-01 -1.81642344815E-02 +2.60592439097E-05 -1.79688323821E-02 -3.36712669121E-04 -3.65154019660E-01 -1.33486343391E-01
1.55000000000E+09 -3.46357325113E-01 -8.77522093797E-02 -1.60702922698E-02 +4.84633976920E-03 -1.62728298934E-02 +4.31455183265E-03 -4.50434509615E-01 -9.73880807551E-02
1.55500000000E+09 -4.23425512846E-01 -3.06912387815E-02 -1.30667631426E-02 +8.49859752366E-03 -1.36876711074E-02 +8.05599795080E-03 -5.21453054632E-01 -5.10287367926E-02
1.56000000000E+09 -4.83285646512E-01 +3.05910492916E-02 -9.32332532519E-03 +1.04577177393E-02 -1.01270211446E-02 +1.06139629335E-02 -5.79564331399E-01 +1.30070110992E-03
1.56500000000E+09 -5.29606421944E-01 +9.08257197062E-02 -5.71309788234E-03 +1.08845407768E-02 -6.13823585922E-03 +1.14042151956E-02 -6.24463706492E-01 +5.62753076199E-02
1.57000000000E+09 -5.66283070974E-01 +1.48401668860E-01 -2.95710426302E-03 +1.01739688064E-02 -3.09385767363E-03 +1.08380781370E-02 -6.58764577924E-01 +1.11385931626E-01
