# Hz S RI R 50
! CMT, C1220, 16058040, 17.2.0/1
! Date: 14/08/2018 12:59:41
! Data: Format (Calibration Info)
! Freq                      S11: Re/Im (F2)                       S21: Re/Im (F2)                       S12: Re/Im (F2)                       S22: Re/Im (F2)            
1.00000000000E+09 -6.48088241447E-01 +7.11734826171E-01 -1.13530828700E-06 -8.58911380065E-06 +3.57938946802E-05 +4.35566981787E-05 -7.18968284793E-01 +6.45960788524E-01
1.00500000000E+09 -6.41599813851E-01 +7.16220315595E-01 -3.55424671444E-05 +1.58375789645E-05 -1.48680012963E-05 -2.78110757580E-05 -7.15279991872E-01 +6.49823211213E-01
1.01000000000E+09 -6.35867274954E-01 +7.20483413325E-01 +3.12754801299E-06 +2.07790363997E-05 -1.58973618594E-05 +3.04238221185E-05 -7.11635565566E-01 +6.53527323149E-01
1.01500000000E+09 -6.31090028482E-01 +7.24312834906E-01 -3.65657530636E-05 -5.12067407389E-06 -2.37944967222E-05 +4.90032839391E-05 -7.08182166549E-01 +6.56697410711E-01
1.02000000000E+09 -6.27166986194E-01 +7.27768839539E-01 -1.29226685724E-05 +2.30219445110E-05 -6.21265456197E-06 +3.57884893221E-05 -7.04644487647E-01 +6.60386682394E-01
1.02500000000E+09 -6.23905222744E-01 +7.30974284434E-01 -1.31342470455E-05 +2.72375359650E-05 +3.52115606351E-05 +9.79145277592E-06 -7.01678266544E-01 +6.63937739011E-01
1.03000000000E+09 -6.21019014259E-01 +7.33934386323E-01 +4.69162023215E-06 +3.33589555746E-05 +6.04999187205E-06 +1.74589628367E-05 -6.97919433146E-01 +6.67735843876E-01
1.03500000000E+09 -6.17145933032E-01 +7.36756994479E-01 +5.35272923029E-06 +2.72110560188E-05 -1.48704404768E-05 +3.37055265530E-05 -6.93882324039E-01 +6.71471012443E-01
1.04000000000E+09 -6.12866828470E-01 +7.40227434323E-01 +7.78143441937E-06 +3.05111527005E-05 +1.67124723181E-05 +2.00611285377E-05 -6.89754290004E-01 +6.75052517103E-01
1.04500000000E+09 -6.07326089476E-01 +7.43677470563E-01 -1.61812181087E-05 +2.22420536590E-06 -3.24040996068E-06 +2.71046422095E-05 -6.86144786216E-01 +6.78532700184E-01
1.05000000000E+09 -6.00422130677E-01 +7.47798349234E-01 -3.12596855127E-05 +2.27710933189E-05 -3.54846179656E-06 +2.65174301815E-05 -6.82545268844E-01 +6.81650060204E-01
1.05500000000E+09 -5.93024871981E-01 +7.52074953367E-01 +2.11727133233E-05 +7.42667449664E-05 +3.81142633352E-05 +1.88070753895E-05 -6.79027094737E-01 +6.85106428155E-01
1.06000000000E+09 -5.85119987554E-01 +7.56628249528E-01 +1.70879343080E-05 +2.87341805382E-05 +4.11054774208E-05 +4.59794684585E-05 -6.75527965410E-01 +6.88838991986E-01
1.06500000000E+09 -5.77305175663E-01 +7.61310946890E-01 -1.07293154133E-05 +7.79851013834E-05 -2.21731304733E-05 +2.80785116812E-05 -6.71562613114E-01 +6.92663830080E-01
1.07000000000E+09 -5.70428642661E-01 +7.65205785585E-01 +1.40869154863E-05 +4.94665758229E-06 +4.23941242617E-05 +5.56148107028E-05 -6.67217875591E-01 +6.96147334114E-01
1.07500000000E+09 -5.64472510944E-01 +7.69046282350E-01 +3.49513164517E-06 +6.31962094218E-05 +7.75582530035E-05 +2.95256095981E-05 -6.62841847796E-01 +6.99723271560E-01
1.08000000000E+09 -5.59742599580E-01 +7.72210155124E-01 +3.47128489225E-05 +8.54976067721E-05 +5.87385830639E-05 +3.75266494294E-05 -6.58682204001E-01 +7.03352921176E-01
1.08500000000E+09 -5.55831400128E-01 +7.74808570757E-01 +2.05512710118E-05 +3.73348087323E-05 +5.45711007551E-05 +5.16869961429E-05 -6.54676086223E-01 +7.06717511586E-01
1.09000000000E+09 -5.52697871482E-01 +7.77174537172E-01 +4.08635809205E-05 +3.06428865654E-05 +3.08266640043E-05 -4.51477468737E-05 -6.50717627978E-01 +7.10424272139E-01
1.09500000000E+09 -5.49830921838E-01 +7.79303284916E-01 +8.96486898870E-05 +3.54033798990E-05 +5.68505177213E-05 +6.03948835046E-05 -6.46947228315E-01 +7.14166672589E-01
1.10000000000E+09 -5.46197103079E-01 +7.81568756107E-01 +1.77750398451E-05 +1.17621252782E-06 +4.99159005310E-05 +7.97980453248E-05 -6.42678473171E-01 +7.17665162385E-01
1.10500000000E+09 -5.42048639029E-01 +7.84182232964E-01 +6.39990983970E-05 +9.67161327685E-06 +3.28270965880E-05 +4.64331168758E-05 -6.38084454648E-01 +7.21081580035E-01
1.11000000000E+09 -5.36765072623E-01 +7.87275401903E-01 +5.67919217120E-05 -1.79993682770E-05 +7.73747587170E-05 +4.05574684929E-05 -6.33820232910E-01 +7.24297385393E-01
1.11500000000E+09 -5.30495228272E-01 +7.90724176640E-01 +6.87671713099E-05 +3.58016165289E-05 +5.54862211606E-05 +7.41731793537E-05 -6.29815096002E-01 +7.27464726798E-01
1.12000000000E+09 -5.23809908101E-01 +7.94241963740E-01 +7.25837625659E-05 +2.01844834152E-05 +6.08043642956E-05 -8.44664458433E-06 -6.25541475637E-01 +7.31022143470E-01
1.12500000000E+09 -5.16598452412E-01 +7.97676755528E-01 +9.41899100854E-05 +2.53915015572E-06 +6.78694969512E-05 +6.69155558511E-05 -6.21290272015E-01 +7.34635969195E-01
1.13000000000E+09 -5.09422334821E-01 +8.00929700685E-01 +4.63296102290E-05 +2.26104663844E-05 +5.98071576044E-05 -2.53096053394E-05 -6.16697307454E-01 +7.38252726036E-01
1.13500000000E+09 -5.02694942927E-01 +8.03393485459E-01 +6.07959424052E-05 -1.92296942323E-06 +6.11799077240E-05 +6.63436697616E-06 -6.11831151876E-01 +7.41971663310E-01
1.14000000000E+09 -4.96550138417E-01 +8.05769401936E-01 +1.17742583807E-04 -7.02630421346E-06 +7.22646920446E-05 -1.41291891038E-06 -6.06853023092E-01 +7.45051576480E-01
1.14500000000E+09 -4.91117495901E-01 +8.07555920367E-01 +1.17201179025E-04 -3.65823142176E-05 +1.30626432690E-04 -5.33935002150E-05 -6.01996002758E-01 +7.48510336897E-01
1.15000000000E+09 -4.86171657297E-01 +8.09102470378E-01 +7.68561877163E-05 -2.82786465688E-05 +1.21617779041E-04 +1.01704475047E-05 -5.97224895856E-01 +7.52233815180E-01
1.15500000000E+09 -4.81324944873E-01 +8.11074607296E-01 +1.21485293816E-04 -4.28554106112E-05 +9.87946746187E-05 -6.77800721417E-06 -5.92352144714E-01 +7.55742037743E-01
1.16000000000E+09 -4.76102135418E-01 +8.12926665273E-01 +1.25072510227E-04 -7.32669897199E-05 +9.87532443204E-05 -1.01940529489E-04 -5.87274301309E-01 +7.59454316454E-01
1.16500000000E+09 -4.70341318670E-01 +8.15470123736E-01 +1.23635077698E-04 -8.92597318529E-05 +9.23518700869E-05 -4.97680875363E-05 -5.81968184537E-01 +7.62847194123E-01
1.17000000000E+09 -4.63954746741E-01 +8.18295586407E-01 +1.13134798365E-04 -8.34103887486E-05 +1.16013240761E-04 -3.75713214029E-05 -5.76492741239E-01 +7.65812500771E-01
1.17500000000E+09 -4.57071125323E-01 +8.21601473890E-01 +1.54716601807E-04 -7.34494799761E-05 +9.03796451877E-05 -2.25289700744E-05 -5.70848376678E-01 +7.68837489231E-01
1.18000000000E+09 -4.49733634748E-01 +8.24726728283E-01 +1.28350184456E-04 -1.07471923374E-04 +1.38609420198E-04 -1.27276318324E-04 -5.65455530828E-01 +7.71755553522E-01
1.18500000000E+09 -4.42245849498E-01 +8.27706151396E-01 +1.42300870552E-04 -1.46683697487E-04 +1.62759763924E-04 -1.24406018512E-04 -5.59483902417E-01 +7.74358840332E-01
1.19000000000E+09 -4.34677389926E-01 +8.30094609217E-01 +7.92728888675E-05 -1.73659847522E-04 +1.11941216770E-04 -2.16146072122E-04 -5.53335582908E-01 +7.76760430287E-01
1.19500000000E+09 -4.27418661087E-01 +8.31898832273E-01 +1.19598292633E-04 -2.13834995639E-04 +1.29305196772E-04 -2.47900153805E-04 -5.47335388995E-01 +7.77772127306E-01
1.20000000000E+09 -4.20732159126E-01 +8.32898291806E-01 +2.58776898222E-05 -3.08844021133E-04 -2.72327717555E-05 -2.83378691001E-04 -5.42695423565E-01 +7.77903503119E-01
1.20500000000E+09 -4.14327138405E-01 +8.34135643431E-01 -8.68102506386E-05 -2.65110824538E-04 -9.44783729478E-05 -2.65452590707E-04 -5.40171755842E-01 +7.78541740548E-01
1.21000000000E+09 -4.07807395598E-01 +8.35337592566E-01 -1.00359325401E-04 -1.38692664733E-04 -7.35035691561E-05 -1.81216427882E-04 -5.38072734657E-01 +7.81614918353E-01
1.21500000000E+09 -4.00795144869E-01 +8.36986866574E-01 -9.26892953233E-05 -1.48542300113E-04 -4.54806102501E-05 -1.47123148954E-04 -5.35075045530E-01 +7.86072834613E-01
1.22000000000E+09 -3.93262068840E-01 +8.38961194828E-01 -2.82866299528E-07 -1.29260725469E-04 -4.43373055316E-05 -1.90497813805E-04 -5.30598518296E-01 +7.91333232952E-01
1.22500000000E+09 -3.85000467172E-01 +8.41516699167E-01 -3.64555442747E-05 -1.55160262018E-04 -2.03031501742E-05 -1.75541396904E-04 -5.25322290811E-01 +7.95947422280E-01
1.23000000000E+09 -3.76692330870E-01 +8.44363836882E-01 -7.17696613720E-05 -2.38668363618E-04 -4.93915231099E-05 -2.24999556284E-04 -5.19490910997E-01 +8.00283607922E-01
1.23500000000E+09 -3.68355989696E-01 +8.47478584176E-01 -5.35934368033E-05 -1.67337141970E-04 -1.42519375852E-04 -2.08429071965E-04 -5.13566865414E-01 +8.04265584744E-01
1.24000000000E+09 -3.60181019707E-01 +8.50890838170E-01 -9.41646651264E-05 -2.01112584147E-04 -6.50832080860E-05 -2.16170303530E-04 -5.07534147534E-01 +8.07897091181E-01
1.24500000000E+09 -3.52481052281E-01 +8.54133940000E-01 -1.65982064765E-04 -2.61862661956E-04 -1.02851484000E-04 -1.42542501659E-04 -5.01168882073E-01 +8.11379319683E-01
1.25000000000E+09 -3.44886848727E-01 +8.56858246152E-01 -1.82583721171E-04 -1.80929050543E-04 -1.78851468572E-04 -1.85629243688E-04 -4.94681961679E-01 +8.15198666681E-01
1.25500000000E+09 -3.37598618120E-01 +8.58633933217E-01 -1.67319342184E-04 -1.75432986336E-04 -1.59916005658E-04 -2.02393010041E-04 -4.87728737388E-01 +8.18897684722E-01
1.26000000000E+09 -3.30259132866E-01 +8.59897178771E-01 -1.72966477904E-04 -1.93314612804E-04 -1.87264966130E-04 -2.06799082566E-04 -4.81107517662E-01 +8.22773311160E-01
1.26500000000E+09 -3.22702352422E-01 +8.60429697932E-01 -2.37498809049E-04 -2.31748159043E-04 -2.15638997773E-04 -2.67229086102E-04 -4.74037606274E-01 +8.26243192007E-01
1.27000000000E+09 -3.14608546451E-01 +8.60960096920E-01 -2.86936503122E-04 -2.23252767525E-04 -2.45203206790E-04 -2.48651153897E-04 -4.67126095643E-01 +8.29685828614E-01
1.27500000000E+09 -3.05889795070E-01 +8.61557349660E-01 -3.67913784048E-04 -1.91710769287E-04 -3.48026048413E-04 -2.50072840832E-04 -4.60092341735E-01 +8.33018070309E-01
1.28000000000E+09 -2.95861133821E-01 +8.62752679378E-01 -3.91144988967E-04 -1.33608374493E-04 -3.98461619902E-04 -2.02689521253E-04 -4.52892051796E-01 +8.36234279569E-01
1.28500000000E+09 -2.85019791837E-01 +8.64174246952E-01 -4.44200153853E-04 -1.29019028567E-04 -4.38003811252E-04 -1.57040832638E-04 -4.45419197845E-01 +8.39667574501E-01
1.29000000000E+09 -2.73985291446E-01 +8.66146331725E-01 -4.36591678178E-04 -1.03703772217E-04 -4.64831717030E-04 -9.38204445786E-05 -4.37820604159E-01 +8.43030111035E-01
1.29500000000E+09 -2.63256227932E-01 +8.68512856604E-01 -4.48298636533E-04 -9.34146298718E-05 -4.96245452830E-04 -4.54433698458E-05 -4.29926254896E-01 +8.46080671125E-01
1.30000000000E+09 -2.53092431522E-01 +8.71429832691E-01 -5.78465222888E-04 -6.16691025094E-05 -5.62321682236E-04 -1.31148789327E-06 -4.22249055587E-01 +8.49450147929E-01
1.30500000000E+09 -2.43813916622E-01 +8.74171870015E-01 -5.93715285348E-04 +5.12914811311E-06 -5.47819544352E-04 +7.80230557222E-05 -4.14091636248E-01 +8.52319964140E-01
1.31000000000E+09 -2.34988646801E-01 +8.76377727072E-01 -6.39539459184E-04 +1.69940724827E-04 -5.86398087954E-04 +1.31890173942E-04 -4.05911288175E-01 +8.55484394972E-01
1.31500000000E+09 -2.27118278388E-01 +8.77797940515E-01 -6.17893255826E-04 +2.53200289789E-04 -6.21581094635E-04 +2.32919009327E-04 -3.97151914949E-01 +8.58570492344E-01
1.32000000000E+09 -2.19595245547E-01 +8.78211241821E-01 -6.16689061235E-04 +3.05516917488E-04 -6.20284073394E-04 +2.76769825357E-04 -3.88160445015E-01 +8.61561769739E-01
1.32500000000E+09 -2.12104312471E-01 +8.77823693915E-01 -6.07426629082E-04 +3.22642239940E-04 -6.76011124489E-04 +3.75245629087E-04 -3.78800821785E-01 +8.64410117560E-01
1.33000000000E+09 -2.03839682247E-01 +8.77339247572E-01 -6.26001734115E-04 +4.31501201607E-04 -6.09844246710E-04 +5.03200016204E-04 -3.69331130829E-01 +8.67355655576E-01
1.33500000000E+09 -1.94172432156E-01 +8.76466729048E-01 -6.87545331491E-04 +5.37753873653E-04 -5.99969325102E-04 +6.38384149758E-04 -3.59738848385E-01 +8.70057822138E-01
1.34000000000E+09 -1.82926819178E-01 +8.76051603337E-01 -6.28876203537E-04 +6.69901465224E-04 -5.62687585566E-04 +6.80551711121E-04 -3.49714064921E-01 +8.72996425312E-01
1.34500000000E+09 -1.70029752444E-01 +8.75750785321E-01 -5.84772055739E-04 +8.05492058325E-04 -4.86180987309E-04 +7.53761370070E-04 -3.38914401788E-01 +8.75633605346E-01
1.35000000000E+09 -1.55790382814E-01 +8.75896464416E-01 -5.04417410911E-04 +8.91005540887E-04 -5.00341367903E-04 +8.81572846448E-04 -3.28052701480E-01 +8.78202968474E-01
1.35500000000E+09 -1.41041714348E-01 +8.76412430187E-01 -4.23226349372E-04 +9.83635183623E-04 -4.32357616726E-04 +9.70218040190E-04 -3.16614895202E-01 +8.80503467902E-01
1.36000000000E+09 -1.25806856722E-01 +8.76969670182E-01 -3.90721311838E-04 +1.07736676063E-03 -3.73383527293E-04 +1.02862492119E-03 -3.05148738674E-01 +8.82610367260E-01
1.36500000000E+09 -1.10742180751E-01 +8.77053223679E-01 -3.24279144941E-04 +1.21705145034E-03 -3.11931220606E-04 +1.14875686211E-03 -2.93166070509E-01 +8.84638569478E-01
1.37000000000E+09 -9.65810206214E-02 +8.76145280093E-01 -2.13357388698E-04 +1.40961592592E-03 -2.38578288981E-04 +1.28017352965E-03 -2.80854412658E-01 +8.86531287816E-01
1.37500000000E+09 -8.36456007757E-02 +8.74565129674E-01 +4.91484280870E-05 +1.49123384330E-03 -1.08596139473E-04 +1.47437124537E-03 -2.67468230913E-01 +8.88389900082E-01
1.38000000000E+09 -7.13458141371E-02 +8.72233832472E-01 +2.12288565798E-04 +1.54554739490E-03 +7.83529647701E-06 +1.66351135376E-03 -2.53109033541E-01 +8.89878331405E-01
1.38500000000E+09 -5.88071251377E-02 +8.69280839509E-01 +3.23783158038E-04 +1.65986984941E-03 +2.22454680703E-04 +1.91999772167E-03 -2.37985380778E-01 +8.91207872575E-01
1.39000000000E+09 -4.61102924698E-02 +8.65754352906E-01 +4.85112430913E-04 +1.72420239589E-03 +5.68233323966E-04 +2.00209578735E-03 -2.22666107853E-01 +8.92149705235E-01
1.39500000000E+09 -3.20176464988E-02 +8.62054088688E-01 +6.99595820463E-04 +1.89852535286E-03 +9.51530503915E-04 +2.02421126827E-03 -2.06643791667E-01 +8.92494463105E-01
1.40000000000E+09 -1.62843536740E-02 +8.57564125046E-01 +1.02573596923E-03 +2.09325082932E-03 +1.27171316134E-03 +2.05863752774E-03 -1.89945037073E-01 +8.92544695073E-01
1.40500000000E+09 +5.88651759015E-04 +8.53054712475E-01 +1.51664362110E-03 +2.16323927830E-03 +1.65617094416E-03 +2.06776020817E-03 -1.72164915405E-01 +8.91804857232E-01
1.41000000000E+09 +1.86637610247E-02 +8.48204188681E-01 +2.06948346471E-03 +1.92508279637E-03 +2.00776972210E-03 +1.93007636648E-03 -1.52744844717E-01 +8.90530843179E-01
1.41500000000E+09 +3.81303350109E-02 +8.43300847042E-01 +2.35724808568E-03 +1.75295091066E-03 +2.38414134265E-03 +1.93976815198E-03 -1.31852847704E-01 +8.88486948950E-01
1.42000000000E+09 +5.87504322614E-02 +8.37569451630E-01 +2.69396028748E-03 +1.61995913545E-03 +2.94521484783E-03 +1.84534730663E-03 -1.10035205894E-01 +8.85524664196E-01
1.42500000000E+09 +7.97184536916E-02 +8.29928815710E-01 +3.10510354008E-03 +1.47126987256E-03 +3.56472445355E-03 +1.47485126714E-03 -8.72531739990E-02 +8.81197369004E-01
1.43000000000E+09 +1.00963459869E-01 +8.20300400739E-01 +3.70608792161E-03 +1.39708555676E-03 +4.07049528969E-03 +1.21571893833E-03 -6.37881181386E-02 +8.76088722040E-01
1.43500000000E+09 +1.21915247594E-01 +8.08223209967E-01 +4.70302544219E-03 +9.37273255133E-04 +4.87702365391E-03 +4.86132851500E-04 -3.85984392519E-02 +8.69078742964E-01
1.44000000000E+09 +1.43173758768E-01 +7.94487221443E-01 +5.31318441189E-03 -2.22480776890E-04 +5.34869474414E-03 -6.38363640882E-04 -1.18278669068E-02 +8.60074728410E-01
1.44500000000E+09 +1.65985869124E-01 +7.78262701335E-01 +5.34656242422E-03 -1.36950518151E-03 +5.34577202790E-03 -1.62651748758E-03 +1.67371307253E-02 +8.48504620845E-01
1.45000000000E+09 +1.89798448922E-01 +7.59181548384E-01 +5.19838768649E-03 -2.11816901351E-03 +5.25619771869E-03 -2.44663969407E-03 +4.69030657076E-02 +8.33889399515E-01
1.45500000000E+09 +2.15150726694E-01 +7.37386820250E-01 +5.46409448669E-03 -2.74982109217E-03 +5.26357164949E-03 -3.18690790442E-03 +7.81551899119E-02 +8.16530228733E-01
1.46000000000E+09 +2.41989629070E-01 +7.12814776404E-01 +5.85700978731E-03 -3.76843708644E-03 +5.24257951653E-03 -4.13899764674E-03 +1.11381808806E-01 +7.95418924475E-01
1.46500000000E+09 +2.70044112323E-01 +6.85202007946E-01 +6.15394597952E-03 -5.28402683887E-03 +5.35114073386E-03 -5.21834141632E-03 +1.45462312922E-01 +7.69183905861E-01
1.47000000000E+09 +2.99393021039E-01 +6.53774854886E-01 +6.03448514413E-03 -7.52203155511E-03 +5.56405318113E-03 -6.88690899422E-03 +1.80222110535E-01 +7.36226595538E-01
1.47500000000E+09 +3.28668801850E-01 +6.16393404871E-01 +4.60069773215E-03 -1.00257348750E-02 +4.74963830766E-03 -9.39549271904E-03 +2.14892488980E-01 +6.96044105437E-01
1.48000000000E+09 +3.55711307443E-01 +5.72201862755E-01 +2.38860162126E-03 -1.14484631807E-02 +2.74659816968E-03 -1.15393587497E-02 +2.48993490955E-01 +6.48591250028E-01
1.48500000000E+09 +3.78584917156E-01 +5.20089153637E-01 +5.89883955470E-04 -1.28132555792E-02 +3.86328978309E-04 -1.31520953272E-02 +2.80976842607E-01 +5.91912979546E-01
1.49000000000E+09 +3.95433679629E-01 +4.60340210451E-01 -2.25372269638E-03 -1.45921869420E-02 -2.95161420158E-03 -1.44995425768E-02 +3.08060970472E-01 +5.25068061083E-01
1.49500000000E+09 +4.04857344275E-01 +3.92832847884E-01 -6.61553123134E-03 -1.53819923829E-02 -6.91083046983E-03 -1.44473962015E-02 +3.25910565380E-01 +4.47781755354E-01
1.50000000000E+09 +4.05380171656E-01 +3.16385664531E-01 -1.11941299324E-02 -1.45808011744E-02 -1.05249284283E-02 -1.36942701315E-02 +3.30768731421E-01 +3.60687182775E-01
1.50500000000E+09 +3.92908659900E-01 +2.32194972164E-01 -1.59747144245E-02 -1.24051944430E-02 -1.48734100822E-02 -1.24203283732E-02 +3.18655716994E-01 +2.66039046924E-01
1.51000000000E+09 +3.65381325468E-01 +1.44211628939E-01 -1.99530520184E-02 -7.88650417789E-03 -1.93828407101E-02 -8.59269055974E-03 +2.86061216898E-01 +1.66904921894E-01
1.51500000000E+09 +3.18983231250E-01 +5.54460961541E-02 -2.27298120327E-02 -3.20332832440E-03 -2.28267510122E-02 -3.77799612668E-03 +2.29786123883E-01 +7.20042082806E-02
1.52000000000E+09 +2.52861570956E-01 -2.44637385689E-02 -2.46746241880E-02 +3.42745704883E-03 -2.50169176942E-02 +3.10327544108E-03 +1.52100324116E-01 -1.04687148293E-02
1.52500000000E+09 +1.70090619964E-01 -9.08096729080E-02 -2.38660661607E-02 +1.21310150482E-02 -2.41185759453E-02 +1.21417955263E-02 +5.87949687843E-02 -7.59165096789E-02
1.53000000000E+09 +7.40150335152E-02 -1.38116210781E-01 -1.77667734681E-02 +1.90762998910E-02 -1.79167162843E-02 +1.92001563779E-02 -5.01400613111E-02 -1.18730177979E-01
1.53500000000E+09 -3.09964451293E-02 -1.63834681974E-01 -1.14875860982E-02 +2.23664614774E-02 -1.14675710434E-02 +2.23431917962E-02 -1.61480373765E-01 -1.34631064847E-01
1.54000000000E+09 -1.40962152175E-01 -1.64874838471E-01 -4.69117864510E-03 +2.37669033403E-02 -4.83177553862E-03 +2.34736630489E-02 -2.70212754354E-01 -1.27137110951E-01
1.54500000000E+09 -2.44902642466E-01 -1.40706854934E-01 +2.33442959456E-03 +2.34932990447E-02 +1.73063565541E-03 +2.32584191954E-02 -3.67204041018E-01 -9.91084153702E-02
1.55000000000E+09 -3.37140445457E-01 -9.98137890788E-02 +7.83336504295E-03 +2.00194601375E-02 +7.12694909928E-03 +2.02890516704E-02 -4.49630486922E-01 -5.73801668539E-02
1.55500000000E+09 -4.15151985023E-01 -4.61318789262E-02 +1.16539902611E-02 +1.62830849190E-02 +1.11471135051E-02 +1.72195409125E-02 -5.17093711988E-01 -6.91105335769E-03
1.56000000000E+09 -4.76816385065E-01 +1.18757193581E-02 +1.42207720128E-02 +1.17708653200E-02 +1.43884614880E-02 +1.28527653067E-02 -5.70355827411E-01 +4.84032321863E-02
1.56500000000E+09 -5.26116052408E-01 +7.07243952778E-02 +1.46541108451E-02 +7.22973196862E-03 +1.54311810115E-02 +7.95332627200E-03 -6.11513856638E-01 +1.05428164484E-01
1.57000000000E+09 -5.63959469300E-01 +1.29845234156E-01 +1.40750046764E-02 +3.96566721719E-03 +1.50017662872E-02 +4.10955129284E-03 -6.41465851762E-01 +1.62027423420E-01
