# Hz S RI R 50
! CMT, C1220, 16058040, 17.2.0/1
! Date: 14/08/2018 12:12:28
! Data: Format (Calibration Info)
! Freq                      S11: Re/Im (F2)                       S21: Re/Im (F2)                       S12: Re/Im (F2)                       S22: Re/Im (F2)            
1.00000000000E+09 -6.45858229075E-01 +7.14606578351E-01 +2.80118108235E-05 -2.19773231745E-05 +2.50036194687E-05 -2.29651531305E-05 -7.53325099520E-01 +6.25000417716E-01
1.00500000000E+09 -6.38563075154E-01 +7.19944641966E-01 +2.65316315448E-05 +4.85729801490E-05 +2.79460409145E-05 -7.28162902556E-06 -7.49912155081E-01 +6.29153064923E-01
1.01000000000E+09 -6.32846157562E-01 +7.24459643898E-01 +2.16711337319E-05 +9.39381878932E-06 +1.90079784369E-05 +7.68748299874E-06 -7.46213224482E-01 +6.32855148848E-01
1.01500000000E+09 -6.28745268472E-01 +7.28190389386E-01 +2.82063848672E-05 -8.74446182188E-06 -5.24062150711E-06 -1.99504394599E-05 -7.42839910358E-01 +6.36656300438E-01
1.02000000000E+09 -6.26698669808E-01 +7.31232819558E-01 -1.98856991916E-05 +4.37781754085E-06 +2.17823358677E-05 -1.09306453464E-05 -7.39521148062E-01 +6.40333756804E-01
1.02500000000E+09 -6.25435575005E-01 +7.33643145193E-01 +4.69482025990E-06 +3.81435511615E-05 +2.05440115470E-05 -2.81490986458E-05 -7.36507923608E-01 +6.43928371344E-01
1.03000000000E+09 -6.24758744716E-01 +7.35705695750E-01 +3.31039865051E-06 +7.40329413867E-06 +1.30494697968E-05 +6.43163656941E-06 -7.33301011222E-01 +6.47854269550E-01
1.03500000000E+09 -6.23139217971E-01 +7.37743639331E-01 -3.47531731438E-05 +8.30455277226E-06 +1.31147991332E-05 +2.80980501936E-05 -7.29209468559E-01 +6.51704140334E-01
1.04000000000E+09 -6.19911793912E-01 +7.40364617228E-01 -3.80938814099E-05 +2.58320188033E-05 +1.47198129057E-05 -6.08040406426E-05 -7.25560226098E-01 +6.55411797197E-01
1.04500000000E+09 -6.14594179520E-01 +7.43618349686E-01 +8.65013339563E-06 +3.35381369451E-05 -1.87585890701E-05 +2.48905030730E-05 -7.21984851442E-01 +6.58961995977E-01
1.05000000000E+09 -6.07265835977E-01 +7.47745778414E-01 +2.78565987209E-05 +6.89816234864E-05 +4.47273926330E-05 +4.57515716920E-05 -7.18666917931E-01 +6.62313323560E-01
1.05500000000E+09 -5.98458782626E-01 +7.52409581766E-01 -1.38094206653E-05 +1.65086932547E-05 +3.11892282422E-05 +2.36990269533E-05 -7.15448220545E-01 +6.65935327423E-01
1.06000000000E+09 -5.88932176784E-01 +7.57664286650E-01 +1.70747310550E-05 +4.46671180786E-05 +7.16740446366E-06 +3.35154738055E-05 -7.12028446669E-01 +6.69755644564E-01
1.06500000000E+09 -5.79873332959E-01 +7.62935521892E-01 +1.10102965079E-07 +5.75004983993E-05 -5.57985331870E-06 +2.27020085566E-06 -7.08296106570E-01 +6.73467022454E-01
1.07000000000E+09 -5.72164726314E-01 +7.67318378318E-01 +3.52632715088E-05 +2.49684449332E-05 +5.76674793002E-06 -2.97211229868E-05 -7.04339048244E-01 +6.77230479277E-01
1.07500000000E+09 -5.66301943996E-01 +7.71384709369E-01 +5.16565274545E-05 +3.80596016678E-05 +3.24736676488E-05 +2.51440840153E-05 -6.99905819338E-01 +6.80858813076E-01
1.08000000000E+09 -5.62592739198E-01 +7.74672562841E-01 +4.48162174156E-05 +7.53637503138E-05 +3.96084925137E-05 +1.99712873246E-05 -6.95912492646E-01 +6.84756644877E-01
1.08500000000E+09 -5.60328040261E-01 +7.77145131378E-01 +4.68785407148E-05 +8.15839006382E-07 -1.88692435319E-05 +3.46453613757E-05 -6.91887714390E-01 +6.88480744490E-01
1.09000000000E+09 -5.58935241462E-01 +7.79103172799E-01 +4.90754586572E-05 -1.24041650149E-05 +3.20533400604E-05 +2.51837999392E-05 -6.88220313739E-01 +6.92311848127E-01
1.09500000000E+09 -5.57773250748E-01 +7.80678836985E-01 +7.69077324609E-05 +9.11748780325E-06 +2.45804055461E-05 -8.29869378059E-06 -6.84347866225E-01 +6.96288991457E-01
1.10000000000E+09 -5.55003475881E-01 +7.82676641389E-01 +6.12219720343E-05 -2.90153167655E-05 +3.47244740075E-05 -3.77275437867E-05 -6.80297871727E-01 +7.00051226647E-01
1.10500000000E+09 -5.50822948549E-01 +7.85054225672E-01 +3.30496086451E-05 -1.93784130493E-05 +3.24610851240E-05 -1.27407030697E-05 -6.75880955640E-01 +7.03608508029E-01
1.11000000000E+09 -5.44809958579E-01 +7.88132504271E-01 +2.87114940705E-05 +1.51286579907E-05 +3.32204343472E-05 +5.72554167570E-06 -6.71790989664E-01 +7.06902260986E-01
1.11500000000E+09 -5.37346143924E-01 +7.91932439183E-01 +3.43647390784E-05 -4.39042720464E-05 +5.01470038756E-06 -1.24198638739E-05 -6.67672709219E-01 +7.10517117906E-01
1.12000000000E+09 -5.28993085488E-01 +7.96188681001E-01 -3.58025030116E-05 -1.78582362811E-05 +2.24255140907E-05 +4.44188275149E-06 -6.63725535237E-01 +7.14134731389E-01
1.12500000000E+09 -5.20665276163E-01 +8.00336273956E-01 +2.21753071321E-06 +4.83536875087E-05 +3.20162455367E-05 +1.38545880096E-05 -6.59420662757E-01 +7.18022709128E-01
1.13000000000E+09 -5.13108071927E-01 +8.04179706608E-01 +3.72457890544E-06 +3.26902875500E-06 -2.41771728941E-05 -1.62348622606E-05 -6.55080384731E-01 +7.21846165144E-01
1.13500000000E+09 -5.06975870455E-01 +8.07252977012E-01 +2.82626407324E-05 +7.59568269976E-07 +9.53117494410E-06 -1.53692290366E-06 -6.50604571862E-01 +7.25596981451E-01
1.14000000000E+09 -5.02281063786E-01 +8.10054149130E-01 +4.89630288743E-05 -5.31437437844E-05 +1.75053695663E-05 -5.30217040741E-06 -6.45982875063E-01 +7.29006644199E-01
1.14500000000E+09 -4.98952949094E-01 +8.11854502698E-01 +1.98559369862E-05 -3.78063552350E-05 +4.88215714384E-05 +1.66330765523E-05 -6.41200881396E-01 +7.32476193723E-01
1.15000000000E+09 -4.95820026520E-01 +8.13399207242E-01 +2.79107424824E-05 +2.64324321646E-05 +1.51215893796E-05 -3.18017727750E-06 -6.36580635134E-01 +7.36230748705E-01
1.15500000000E+09 -4.92799218744E-01 +8.15055722522E-01 -6.78438246319E-07 +2.92253511380E-06 -8.52508239450E-06 +7.63989324364E-06 -6.31817430302E-01 +7.40053115059E-01
1.16000000000E+09 -4.88480055685E-01 +8.16713158292E-01 +4.17664611136E-05 -1.42025391227E-05 -1.56482953453E-06 +4.89995574022E-06 -6.27090665310E-01 +7.43906391180E-01
1.16500000000E+09 -4.82846330657E-01 +8.19332506162E-01 +3.99262942866E-05 -8.18531502532E-07 +2.84294102114E-05 -2.55072179314E-05 -6.21881354623E-01 +7.47521556754E-01
1.17000000000E+09 -4.75841484294E-01 +8.22259330217E-01 +4.02379555567E-05 -8.33904670259E-06 +4.90129452836E-05 -2.77368375185E-05 -6.16429543821E-01 +7.50722970268E-01
1.17500000000E+09 -4.67486746444E-01 +8.25564515155E-01 +1.04689981938E-05 -1.04408372580E-05 +7.10537919542E-05 -3.77704533716E-05 -6.10588989208E-01 +7.54080744789E-01
1.18000000000E+09 -4.59067456061E-01 +8.29163191393E-01 +1.68795751283E-05 -3.70272823102E-05 +2.73347386557E-05 -5.84839444260E-05 -6.05170760531E-01 +7.57098263332E-01
1.18500000000E+09 -4.50722811346E-01 +8.32460962950E-01 +1.92445981132E-05 -4.79443003088E-05 +1.03275088431E-04 -2.11564825034E-05 -5.99202381904E-01 +7.60173844466E-01
1.19000000000E+09 -4.43459853435E-01 +8.35232081947E-01 +5.34513602511E-05 -3.49085572928E-05 +2.38314622593E-06 -8.10428977363E-06 -5.92940162074E-01 +7.62841481856E-01
1.19500000000E+09 -4.37662995993E-01 +8.37520976005E-01 +2.80891183599E-05 -6.34468098423E-05 +4.53288295229E-05 -6.83101248498E-05 -5.87070311899E-01 +7.63991577052E-01
1.20000000000E+09 -4.33088864309E-01 +8.38535575540E-01 -8.42660204736E-06 -8.84811757114E-05 +3.95831004225E-05 -9.74070718934E-05 -5.82671300192E-01 +7.64381473734E-01
1.20500000000E+09 -4.29383492426E-01 +8.39850398420E-01 -3.47729953045E-05 -1.12359231852E-04 -4.29416884832E-05 -6.57914426485E-05 -5.80290514576E-01 +7.65077879279E-01
1.21000000000E+09 -4.25298978724E-01 +8.40981065737E-01 -3.52992405173E-05 -4.80070108001E-05 -5.06692042060E-06 -3.35031305342E-05 -5.78521010714E-01 +7.68240879282E-01
1.21500000000E+09 -4.20063577961E-01 +8.42367294334E-01 -1.79971495432E-07 -7.94643161303E-05 -2.32453007928E-05 +5.85559748037E-07 -5.75606801697E-01 +7.72783121344E-01
1.22000000000E+09 -4.12988477247E-01 +8.44222487049E-01 -2.17025069690E-05 -7.48482100134E-06 -1.67382350190E-05 -3.99379583847E-05 -5.71486521368E-01 +7.78127250870E-01
1.22500000000E+09 -4.04078898136E-01 +8.46622614779E-01 +3.38872265453E-07 -4.09145567887E-05 -3.24888362264E-05 -2.22300088027E-05 -5.66339241012E-01 +7.83302415913E-01
1.23000000000E+09 -3.93696873964E-01 +8.49693793153E-01 +6.34977167323E-06 -8.60600367621E-05 -4.74725319599E-05 -9.70306386334E-05 -5.60669626472E-01 +7.87884845663E-01
1.23500000000E+09 -3.82600187865E-01 +8.53330614239E-01 +4.10970767560E-05 -6.05807390509E-05 +2.39104220613E-05 -2.43519041247E-05 -5.54747093401E-01 +7.92118078927E-01
1.24000000000E+09 -3.71493970408E-01 +8.57142159675E-01 -1.35970318759E-05 -7.09537299825E-05 -3.72264320852E-05 -8.40782649577E-05 -5.48777673295E-01 +7.96125521696E-01
1.24500000000E+09 -3.61459608715E-01 +8.61186033321E-01 -4.63223405763E-05 -1.17861115706E-04 -2.45596089095E-05 -1.03191851445E-04 -5.42576146638E-01 +7.99949632523E-01
1.25000000000E+09 -3.52890010076E-01 +8.64619084261E-01 -5.24323031243E-05 -5.67026261300E-05 -5.89853723742E-05 -1.31660094772E-04 -5.35993734175E-01 +8.04274356260E-01
1.25500000000E+09 -3.46146323673E-01 +8.67131994544E-01 -9.58487034569E-05 -1.51710323780E-04 -1.29261576137E-04 -8.94109832335E-05 -5.29075836038E-01 +8.08074275412E-01
1.26000000000E+09 -3.40929116814E-01 +8.69026893767E-01 -8.89070183347E-05 -5.21003800509E-05 -5.85726061223E-05 -3.77850788063E-05 -5.22284651769E-01 +8.12420553624E-01
1.26500000000E+09 -3.36656326248E-01 +8.70514466389E-01 -1.11626320088E-04 -9.54645419463E-05 -7.00593194843E-05 -1.21448211423E-04 -5.15312312171E-01 +8.16301731348E-01
1.27000000000E+09 -3.32081202143E-01 +8.71677877282E-01 -1.40622968356E-04 -9.56915013545E-05 -1.05859169272E-04 -8.57069596750E-05 -5.08391881725E-01 +8.20191703124E-01
1.27500000000E+09 -3.26381309880E-01 +8.72750648618E-01 -1.76664886154E-04 -8.91730683516E-05 -1.16794855608E-04 -1.12474578467E-04 -5.01385614436E-01 +8.23793829333E-01
1.28000000000E+09 -3.18628174412E-01 +8.74384506185E-01 -1.46448499268E-04 -5.95805539610E-05 -1.00909618090E-04 -5.45533434789E-05 -4.94451404122E-01 +8.27179527005E-01
1.28500000000E+09 -3.08451477460E-01 +8.76444284102E-01 -1.74817749248E-04 -5.55883686068E-05 -1.88824824184E-04 -3.82189368154E-05 -4.87009341170E-01 +8.30927257089E-01
1.29000000000E+09 -2.96807604907E-01 +8.79000640824E-01 -1.19154209777E-04 -3.76890050237E-05 -1.59617031994E-04 -2.06446349414E-05 -4.79605568553E-01 +8.34647553129E-01
1.29500000000E+09 -2.84003824597E-01 +8.82117053633E-01 -1.64421892312E-04 -2.43633841431E-05 -1.95995543284E-04 +1.81115579799E-05 -4.71675107537E-01 +8.38205054702E-01
1.30000000000E+09 -2.71164229859E-01 +8.85457434604E-01 -2.04270816328E-04 +2.88251923501E-06 -2.23406522983E-04 +4.38404364732E-05 -4.63696423062E-01 +8.41769236097E-01
1.30500000000E+09 -2.59330293221E-01 +8.88613750495E-01 -2.24114429510E-04 +5.90930612139E-05 -1.96344552118E-04 +5.44215805779E-05 -4.55600162186E-01 +8.45094831903E-01
1.31000000000E+09 -2.49380792617E-01 +8.91123193662E-01 -2.22387678355E-04 +1.30561437832E-04 -2.11469495004E-04 +3.07908532275E-05 -4.47255201536E-01 +8.48609021217E-01
1.31500000000E+09 -2.41662073385E-01 +8.92878482285E-01 -1.29458703123E-04 +1.51862313348E-04 -1.68418312972E-04 +1.11589917212E-04 -4.38443012164E-01 +8.52150998926E-01
1.32000000000E+09 -2.35677553859E-01 +8.93906970217E-01 -9.51135424022E-05 +1.18318809803E-04 -1.50421793615E-04 +1.32603140051E-04 -4.29400250540E-01 +8.55521214727E-01
1.32500000000E+09 -2.30333112906E-01 +8.94320632678E-01 -2.01795979259E-04 +1.13888721373E-04 -1.28420136536E-04 +1.11189933483E-04 -4.19720429031E-01 +8.58992036170E-01
1.33000000000E+09 -2.24308426131E-01 +8.94343206791E-01 -1.81989208247E-04 +1.53912955546E-04 -1.79575365562E-04 +1.95929904839E-04 -4.10046433063E-01 +8.62291651137E-01
1.33500000000E+09 -2.16256542264E-01 +8.93868526093E-01 -1.76605578358E-04 +1.91092184976E-04 -1.56910610515E-04 +2.37041927956E-04 -4.00237662292E-01 +8.65576925213E-01
1.34000000000E+09 -2.05676148972E-01 +8.93603962330E-01 -8.35215562107E-05 +2.76462711535E-04 -1.01370907102E-04 +3.04880213139E-04 -3.90034141791E-01 +8.69029808793E-01
1.34500000000E+09 -1.92260682096E-01 +8.93253831082E-01 -7.16539680816E-05 +2.83617298578E-04 -6.41456520707E-05 +2.34017435958E-04 -3.79079793832E-01 +8.72272446633E-01
1.35000000000E+09 -1.76360448067E-01 +8.93136049953E-01 -7.37591930988E-05 +2.17878499214E-04 -6.70109390234E-05 +2.37493228080E-04 -3.67948134449E-01 +8.75362235072E-01
1.35500000000E+09 -1.58878674910E-01 +8.93563749684E-01 -9.44960867665E-05 +2.64251241738E-04 -9.21953884809E-05 +2.45975820864E-04 -3.56183153258E-01 +8.78276243199E-01
1.36000000000E+09 -1.41544543717E-01 +8.93838253787E-01 -3.62625742605E-05 +3.21621727292E-04 -6.20634651490E-05 +3.09945083719E-04 -3.44347100295E-01 +8.81071013763E-01
1.36500000000E+09 -1.25106901008E-01 +8.94357821558E-01 +7.28130610246E-06 +3.38637370230E-04 +1.11772672411E-05 +3.42368875563E-04 -3.32062367606E-01 +8.83574752466E-01
1.37000000000E+09 -1.10589876599E-01 +8.94414520054E-01 +1.64197595320E-06 +3.11587701845E-04 -1.61230209642E-05 +3.01639826995E-04 -3.19188726632E-01 +8.85834691427E-01
1.37500000000E+09 -9.84338053472E-02 +8.94397972664E-01 +5.75566032421E-06 +3.70995763249E-04 -1.81915040677E-05 +4.00121176189E-04 -3.05541717552E-01 +8.88191916982E-01
1.38000000000E+09 -8.78593170019E-02 +8.93857448060E-01 +1.25844739006E-04 +4.58748682877E-04 +1.53464305127E-05 +4.89079799090E-04 -2.90872153206E-01 +8.90400400729E-01
1.38500000000E+09 -7.76027347444E-02 +8.92914417299E-01 +2.03354829496E-04 +4.22227624064E-04 +2.05580770883E-04 +4.73521166274E-04 -2.75263091609E-01 +8.92251148366E-01
1.39000000000E+09 -6.66240275815E-02 +8.91072058146E-01 +2.35976105442E-04 +3.83998907487E-04 +2.94553520863E-04 +4.74293762718E-04 -2.59283702460E-01 +8.93762571884E-01
1.39500000000E+09 -5.34193572037E-02 +8.88298331323E-01 +3.03515469566E-04 +4.26415310249E-04 +4.11396378463E-04 +3.82079983575E-04 -2.42171818297E-01 +8.94555438532E-01
1.40000000000E+09 -3.72517559016E-02 +8.84417584177E-01 +4.81317388831E-04 +3.50432469507E-04 +5.33564432845E-04 +3.23820704560E-04 -2.24490630551E-01 +8.95049567682E-01
1.40500000000E+09 -1.83942162344E-02 +8.79634535323E-01 +5.09566707996E-04 +1.65181796931E-04 +5.16078924641E-04 +1.54969466957E-04 -2.05644481262E-01 +8.95027939383E-01
1.41000000000E+09 +2.96730443045E-03 +8.74022460004E-01 +4.48664765167E-04 +1.48282728801E-04 +4.38544181339E-04 +1.42553795881E-04 -1.85295078032E-01 +8.94231943135E-01
1.41500000000E+09 +2.56706856592E-02 +8.67836221286E-01 +4.29044797174E-04 +2.08588592842E-04 +4.10298841946E-04 +1.64833439209E-04 -1.63314584159E-01 +8.92588013801E-01
1.42000000000E+09 +4.87920661428E-02 +8.61171298159E-01 +4.60420688176E-04 +2.14920841737E-04 +5.73292900937E-04 +1.89794728621E-04 -1.40448400896E-01 +8.89756851343E-01
1.42500000000E+09 +7.12260673154E-02 +8.54050118496E-01 +6.27638072718E-04 +9.24071168640E-05 +7.10309557735E-04 +1.01351122155E-04 -1.16710404797E-01 +8.86180556333E-01
1.43000000000E+09 +9.24831842620E-02 +8.46100610730E-01 +6.27538946928E-04 -2.72257746902E-06 +6.98673352186E-04 -7.09983451663E-05 -9.15868927256E-02 +8.81369228748E-01
1.43500000000E+09 +1.12590029151E-01 +8.36692688720E-01 +6.72995253434E-04 -3.90850940675E-05 +6.75690622080E-04 -1.48279734542E-04 -6.50445539221E-02 +8.74498204234E-01
1.44000000000E+09 +1.32314571699E-01 +8.26393407179E-01 +6.53084227505E-04 -2.41177385445E-04 +5.92509102294E-04 -2.60548750774E-04 -3.67662274611E-02 +8.65498904875E-01
1.44500000000E+09 +1.53477034959E-01 +8.13579061786E-01 +5.40362518223E-04 -2.22034457235E-04 +4.96381901381E-04 -2.79981011891E-04 -6.74929746804E-03 +8.53665284592E-01
1.45000000000E+09 +1.76552069086E-01 +7.96878817163E-01 +5.05410254073E-04 -1.82783066841E-04 +5.26955064067E-04 -2.43167989611E-04 +2.50450347959E-02 +8.39034969782E-01
1.45500000000E+09 +2.02193103262E-01 +7.76312923459E-01 +5.87405381700E-04 -1.72166793224E-04 +5.60811990647E-04 -2.08881848632E-04 +5.87337564850E-02 +8.21347996118E-01
1.46000000000E+09 +2.31071314918E-01 +7.51166005531E-01 +6.51188006536E-04 -1.77161775717E-04 +5.82198612736E-04 -2.69202898328E-04 +9.37130635376E-02 +7.98762778676E-01
1.46500000000E+09 +2.62260452190E-01 +7.20780412703E-01 +8.17342353092E-04 -1.73045929286E-04 +7.43305305630E-04 -1.40360805787E-04 +1.29203867168E-01 +7.71391584992E-01
1.47000000000E+09 +2.94623661489E-01 +6.85113728316E-01 +1.17967500024E-03 -2.81107838970E-04 +1.08491526304E-03 -2.77159032677E-04 +1.65826214930E-01 +7.37873570152E-01
1.47500000000E+09 +3.26531270470E-01 +6.43746372112E-01 +1.31973538466E-03 -9.55980494139E-04 +1.24335276121E-03 -8.13741683342E-04 +2.03280842729E-01 +6.96982543862E-01
1.48000000000E+09 +3.55940148839E-01 +5.97224456610E-01 +1.07230838289E-03 -1.16048802464E-03 +1.08045196348E-03 -1.13051434855E-03 +2.40025335294E-01 +6.46737697161E-01
1.48500000000E+09 +3.81198720615E-01 +5.44513049951E-01 +1.16838215220E-03 -1.33153361479E-03 +1.22878955416E-03 -1.42912686400E-03 +2.73797381775E-01 +5.87139682792E-01
1.49000000000E+09 +4.00365097727E-01 +4.85206587768E-01 +9.86899879920E-04 -1.97955505502E-03 +8.98474404058E-04 -2.03359765204E-03 +3.01231091479E-01 +5.16737620003E-01
1.49500000000E+09 +4.12546284097E-01 +4.18975291988E-01 +1.00767728727E-03 -2.30598314699E-03 +8.98729215027E-04 -2.22888983797E-03 +3.18535998635E-01 +4.36973730517E-01
1.50000000000E+09 +4.15275883832E-01 +3.43165345190E-01 +6.83035837499E-04 -3.39035809373E-03 +6.54183393074E-04 -3.14134091326E-03 +3.23363510611E-01 +3.47647244814E-01
1.50500000000E+09 +4.05019747361E-01 +2.58932261140E-01 -6.03862733827E-04 -4.37898880482E-03 -4.62954063566E-04 -4.23377510306E-03 +3.10460758365E-01 +2.50742825771E-01
1.51000000000E+09 +3.78603784672E-01 +1.68389803667E-01 -2.51771282165E-03 -4.18504981774E-03 -2.32041018357E-03 -4.20107180831E-03 +2.76653383458E-01 +1.51651387492E-01
1.51500000000E+09 +3.33741044310E-01 +7.67802043365E-02 -3.96204702594E-03 -3.51599667505E-03 -3.91541399538E-03 -3.62024800972E-03 +2.21932406909E-01 +5.54537295360E-02
1.52000000000E+09 +2.69290204360E-01 -1.04819409824E-02 -5.01727681870E-03 -1.73291765164E-03 -5.07385743586E-03 -1.85454052062E-03 +1.44251456638E-01 -2.96704068946E-02
1.52500000000E+09 +1.85437162976E-01 -8.50367592802E-02 -5.17159360215E-03 -5.01231753768E-04 -5.19094435081E-03 -5.55807242496E-04 +4.93396972736E-02 -9.51640393938E-02
1.53000000000E+09 +8.60018437714E-02 -1.40449102345E-01 -5.33216361132E-03 +7.23957182116E-04 -5.41003433494E-03 +6.90436754512E-04 -5.58684339709E-02 -1.38916983342E-01
1.53500000000E+09 -2.42187957387E-02 -1.70842199537E-01 -5.07281177348E-03 +2.50369134797E-03 -5.07258431948E-03 +2.44166214732E-03 -1.66873608342E-01 -1.58113795274E-01
1.54000000000E+09 -1.36771366668E-01 -1.72907225723E-01 -4.37579372959E-03 +3.47969534679E-03 -4.36210346706E-03 +3.46526378394E-03 -2.72723402825E-01 -1.54045609207E-01
1.54500000000E+09 -2.43042743358E-01 -1.50915497054E-01 -3.30149063555E-03 +5.20845161216E-03 -3.40057064984E-03 +5.07949715595E-03 -3.70169039701E-01 -1.32277155884E-01
1.55000000000E+09 -3.40564662107E-01 -1.09427953811E-01 -1.11127000934E-03 +5.82458989388E-03 -1.31364398797E-03 +5.78377976453E-03 -4.54852157925E-01 -9.51514878435E-02
1.55500000000E+09 -4.23357917160E-01 -5.31580138956E-02 +6.81209980198E-04 +5.29383788896E-03 +4.41552954231E-04 +5.42902088518E-03 -5.25072603144E-01 -4.89759007020E-02
1.56000000000E+09 -4.89724193847E-01 +9.54539102255E-03 +1.79774706861E-03 +4.61690065315E-03 +1.70638398044E-03 +4.85995354761E-03 -5.82377724644E-01 +3.09860046216E-03
1.56500000000E+09 -5.41562992061E-01 +7.24950630771E-02 +2.88936569178E-03 +3.62735132347E-03 +3.03783272290E-03 +3.90210830615E-03 -6.26747861374E-01 +5.85061057868E-02
1.57000000000E+09 -5.81693077919E-01 +1.33986897283E-01 +3.37417606969E-03 +2.16071963800E-03 +3.66168347815E-03 +2.25480192712E-03 -6.59927281850E-01 +1.12595411292E-01
