# Hz S RI R 50
! CMT, C1220, 16058040, 17.2.0/1
! Date: 14/08/2018 11:50:27
! Data: Format (Calibration Info)
! Freq                      S11: Re/Im (F2)                       S21: Re/Im (F2)                       S12: Re/Im (F2)                       S22: Re/Im (F2)            
1.00000000000E+09 -6.48122279683E-01 +7.14765488364E-01 +2.80999208579E-05 -2.33146606790E-05 +4.79358409009E-05 -4.44140942739E-06 -7.55352457470E-01 +6.23968741385E-01
1.00500000000E+09 -6.40971365219E-01 +7.19790126096E-01 +2.26102775122E-05 +2.26203682553E-05 -3.61365317397E-05 +6.07134354230E-06 -7.51851934120E-01 +6.28007870555E-01
1.01000000000E+09 -6.34818063385E-01 +7.24318500061E-01 -3.02988662460E-06 +2.89989135746E-05 +3.55566386907E-05 -1.19542220463E-05 -7.48214133065E-01 +6.31807026743E-01
1.01500000000E+09 -6.30136034096E-01 +7.28156997832E-01 +4.55843737085E-06 -9.74472091511E-06 +2.91944631329E-05 -2.16586958669E-05 -7.44773349950E-01 +6.35587821749E-01
1.02000000000E+09 -6.26582151221E-01 +7.31403496062E-01 -2.41632464266E-05 +1.05958367977E-05 +6.57767526855E-05 -9.13146620407E-06 -7.41421562001E-01 +6.39217068450E-01
1.02500000000E+09 -6.23804935624E-01 +7.33956535966E-01 -5.30790254433E-06 +5.68820602674E-06 +1.86917656867E-05 -1.38461845161E-06 -7.38400861344E-01 +6.42938091891E-01
1.03000000000E+09 -6.21683027406E-01 +7.36314236123E-01 +2.77370246659E-05 +4.06677064203E-05 -1.22203642037E-05 -3.84806448403E-05 -7.34910456174E-01 +6.46860033372E-01
1.03500000000E+09 -6.18779875090E-01 +7.38665303904E-01 +3.08167313948E-05 -1.57649078166E-06 +4.23280552906E-06 -6.96167018521E-06 -7.31252781614E-01 +6.50690023415E-01
1.04000000000E+09 -6.14665609857E-01 +7.41345926837E-01 -1.23816815752E-05 -8.29725347432E-06 -1.44644206131E-05 +1.34629849721E-05 -7.27601811558E-01 +6.54384502615E-01
1.04500000000E+09 -6.09213428014E-01 +7.44851467723E-01 +3.25868496759E-05 +6.11988862508E-06 +3.79916191795E-05 +2.70855776270E-06 -7.24110377881E-01 +6.57982581915E-01
1.05000000000E+09 -6.02103027057E-01 +7.49022042443E-01 -2.44470591697E-05 +2.32074765269E-05 +1.54102225739E-05 +1.86974969731E-05 -7.20567692365E-01 +6.61355320225E-01
1.05500000000E+09 -5.94031692974E-01 +7.53850127086E-01 +4.45294771503E-05 +1.70536652781E-05 +1.09097025731E-06 +2.33216829144E-05 -7.17366593285E-01 +6.64982201600E-01
1.06000000000E+09 -5.85341591696E-01 +7.58738334031E-01 +4.34408043740E-06 -3.31074884328E-05 +7.53062981925E-05 -1.55145567514E-06 -7.14274296127E-01 +6.68649480044E-01
1.06500000000E+09 -5.77232856314E-01 +7.63828761031E-01 -4.53832748608E-06 +1.70280546503E-05 -3.60734013312E-05 +1.81205615112E-05 -7.10359525683E-01 +6.72429489162E-01
1.07000000000E+09 -5.70032212197E-01 +7.68136350333E-01 -1.70944056446E-05 -1.26860928307E-05 +2.27020870565E-05 +4.35825238058E-05 -7.06458121775E-01 +6.76026903503E-01
1.07500000000E+09 -5.64692704327E-01 +7.72008601699E-01 +1.44623228731E-05 +1.43564823226E-06 -1.63310593464E-05 -1.62646927540E-05 -7.02136000924E-01 +6.79804028737E-01
1.08000000000E+09 -5.60572557112E-01 +7.74986290759E-01 +1.97756600960E-05 +7.83341316657E-08 +5.44542856116E-05 -1.10444422681E-05 -6.98205135735E-01 +6.83832508689E-01
1.08500000000E+09 -5.57969926195E-01 +7.77284948057E-01 +4.65150739604E-05 -7.51654559456E-06 +2.06811325864E-05 -2.66145662102E-06 -6.94079403805E-01 +6.87495278235E-01
1.09000000000E+09 -5.55853286543E-01 +7.78955280333E-01 +2.00779346051E-05 +5.69941130688E-06 +2.58687608078E-05 +2.94961062599E-05 -6.90121101293E-01 +6.91374384053E-01
1.09500000000E+09 -5.54071747855E-01 +7.80660152845E-01 +1.42639538827E-05 -4.48523153396E-05 +8.97084980628E-06 +4.22157722387E-05 -6.86478658039E-01 +6.95183324988E-01
1.10000000000E+09 -5.50878711478E-01 +7.82518245976E-01 +5.02673057561E-06 +4.51714424166E-08 -1.41857504929E-05 +5.75336225718E-05 -6.82529433374E-01 +6.99131670133E-01
1.10500000000E+09 -5.46799372786E-01 +7.85266232583E-01 +8.35444628666E-06 +1.07535899991E-05 +5.48244471803E-05 +2.71473781539E-05 -6.78212681292E-01 +7.02689567210E-01
1.11000000000E+09 -5.40877151017E-01 +7.88388630026E-01 +3.82184461375E-05 +2.09347975200E-05 +3.07877615819E-05 +4.48097402504E-05 -6.74029141643E-01 +7.06165810792E-01
1.11500000000E+09 -5.33805903776E-01 +7.92255580153E-01 +6.48418669797E-05 +2.30313976671E-06 +5.16323883967E-05 -3.69461067073E-05 -6.69945195192E-01 +7.09510257976E-01
1.12000000000E+09 -5.26041568929E-01 +7.96241846647E-01 +4.53939842898E-05 +3.33745291804E-06 +4.91572496438E-05 -4.86072191457E-05 -6.65842651155E-01 +7.13283848251E-01
1.12500000000E+09 -5.18087984770E-01 +8.00309983940E-01 +3.24701178957E-05 +8.83539718018E-06 +4.81352959245E-05 +1.44151418315E-05 -6.61583544429E-01 +7.17276003624E-01
1.13000000000E+09 -5.10951241164E-01 +8.04005544814E-01 +2.47185992359E-05 -9.49114207399E-06 +1.91246838966E-05 -8.64266437346E-06 -6.57200147427E-01 +7.20962183940E-01
1.13500000000E+09 -5.04764779682E-01 +8.06746439602E-01 +3.86240792564E-06 -4.47232990633E-05 +3.73949580849E-05 +8.42282622592E-07 -6.52750939609E-01 +7.24788068671E-01
1.14000000000E+09 -4.99671519167E-01 +8.09172223876E-01 -2.26876457758E-05 -1.74795402540E-05 +1.87251829014E-05 -1.32576637138E-06 -6.48043899032E-01 +7.28237534006E-01
1.14500000000E+09 -4.95668864105E-01 +8.10850142773E-01 -3.48903930557E-05 -3.74603982516E-05 +2.19736856783E-05 -3.17608225626E-05 -6.43492583948E-01 +7.31765685304E-01
1.15000000000E+09 -4.91828432545E-01 +8.12388345271E-01 +3.53703709145E-05 +3.21124077788E-05 +1.04229661462E-05 -2.76185692908E-06 -6.38730364907E-01 +7.35494360926E-01
1.15500000000E+09 -4.87933225141E-01 +8.14013349449E-01 +2.96877166268E-05 +1.64520348911E-05 +2.89518539216E-05 -7.69465729612E-05 -6.33893806795E-01 +7.39404848945E-01
1.16000000000E+09 -4.83026302427E-01 +8.15887333174E-01 +2.20379254651E-05 +9.27341695787E-06 -1.08501848822E-05 +3.20080544326E-05 -6.29056823689E-01 +7.43208718797E-01
1.16500000000E+09 -4.77050761692E-01 +8.18425453999E-01 +4.43303555084E-05 -1.23484719026E-05 +2.80517021913E-05 -2.12619378334E-05 -6.24004713702E-01 +7.46802374900E-01
1.17000000000E+09 -4.69895774236E-01 +8.21637738851E-01 +4.55658965390E-05 -3.75859993931E-05 +3.02516732377E-05 -1.15086465585E-05 -6.18524016028E-01 +7.50429232147E-01
1.17500000000E+09 -4.61943156521E-01 +8.25055757052E-01 +1.58490263829E-05 -5.79352809146E-06 +4.95367279399E-05 +3.87199628811E-05 -6.13038760973E-01 +7.53555870270E-01
1.18000000000E+09 -4.53559513323E-01 +8.28765016813E-01 +3.46366261044E-05 -2.52766235367E-05 -3.49317473429E-06 -1.22467440403E-05 -6.07300107593E-01 +7.56652026162E-01
1.18500000000E+09 -4.45510911959E-01 +8.32013677822E-01 +6.60807270817E-05 -5.07744833955E-05 +5.84344119568E-05 +1.55817926185E-05 -6.01326222669E-01 +7.59795877744E-01
1.19000000000E+09 -4.38144057606E-01 +8.34797948138E-01 +1.44406232537E-05 -1.21459772627E-04 +8.71760383429E-05 -8.39970461708E-05 -5.94917697273E-01 +7.62465930013E-01
1.19500000000E+09 -4.31929443561E-01 +8.36704398721E-01 +4.40059317920E-05 -1.33590804561E-04 -5.85873498596E-06 -1.08594585479E-04 -5.89122911622E-01 +7.63696863002E-01
1.20000000000E+09 -4.26949856946E-01 +8.37617736803E-01 -7.33388945923E-05 -1.08320264093E-04 -6.39847326985E-05 -1.51739828856E-04 -5.84502390012E-01 +7.63949742426E-01
1.20500000000E+09 -4.22239093513E-01 +8.38676475313E-01 -1.14310340839E-04 -5.97955250543E-05 -8.72309940689E-05 -1.00761111127E-04 -5.82288143094E-01 +7.64668483972E-01
1.21000000000E+09 -4.17693750470E-01 +8.39788178101E-01 -1.18346219403E-04 -3.49322052909E-05 -1.18559077221E-04 -3.40618969934E-05 -5.80466009577E-01 +7.67679421152E-01
1.21500000000E+09 -4.11951180995E-01 +8.41199581999E-01 -6.99375635561E-05 +4.06022283763E-05 -8.70715335994E-05 +4.79243475484E-05 -5.77672304353E-01 +7.72277806339E-01
1.22000000000E+09 -4.04879456272E-01 +8.42903272952E-01 -7.23347353998E-05 +5.10893141157E-05 -8.29920067645E-05 +4.89541006138E-05 -5.73570092376E-01 +7.77661979801E-01
1.22500000000E+09 -3.96603531456E-01 +8.45518037216E-01 -3.71220443951E-05 +3.13476228648E-05 -7.37929467312E-05 +3.68501442117E-05 -5.68337768483E-01 +7.82739395482E-01
1.23000000000E+09 -3.87113981092E-01 +8.48623711200E-01 +2.25762322668E-05 -1.17491647358E-05 +1.22525494269E-05 +1.43268946680E-05 -5.62806764329E-01 +7.87460371314E-01
1.23500000000E+09 -3.77457581098E-01 +8.52150635076E-01 +5.78738274587E-06 -5.83013868457E-05 -2.33381488217E-06 -2.76302474395E-05 -5.56835142219E-01 +7.91878193321E-01
1.24000000000E+09 -3.67916534035E-01 +8.55997363489E-01 -5.46002691410E-05 -4.29298462645E-05 -6.29491885796E-05 -1.48031240265E-05 -5.50724018013E-01 +7.95891368349E-01
1.24500000000E+09 -3.59160750215E-01 +8.59762771800E-01 -3.61707169539E-05 +1.75147178976E-05 -9.31166165106E-05 -4.44494404787E-06 -5.44625555918E-01 +7.99744006188E-01
1.25000000000E+09 -3.51390064010E-01 +8.62921128066E-01 -3.26392578744E-05 -2.62241264639E-05 -3.40993458378E-05 +1.53173419008E-05 -5.37965269149E-01 +8.03808768310E-01
1.25500000000E+09 -3.44731172513E-01 +8.64988926245E-01 -8.46153825739E-05 +2.12777946009E-05 -7.93904651626E-05 +1.56177056544E-06 -5.30943721944E-01 +8.07956078055E-01
1.26000000000E+09 -3.38687105495E-01 +8.66452176711E-01 -2.24603308110E-05 +3.12770272221E-05 -1.42170301682E-05 +7.84280640167E-06 -5.24192748636E-01 +8.12255663412E-01
1.26500000000E+09 -3.32814972574E-01 +8.67236956153E-01 -4.10986726425E-05 +1.72701953401E-05 -7.31568247976E-05 +4.60358232978E-05 -5.17208895836E-01 +8.16173566785E-01
1.27000000000E+09 -3.26612873872E-01 +8.67784524514E-01 -3.12728495670E-05 +8.58994502271E-06 -6.81954356592E-05 +1.00030044250E-05 -5.10387019711E-01 +8.20080923663E-01
1.27500000000E+09 -3.18978618569E-01 +8.68242504350E-01 -7.36851823379E-05 +1.02444103290E-05 -4.05896509180E-05 +1.09093737155E-06 -5.03483678932E-01 +8.23502478946E-01
1.28000000000E+09 -3.09456309095E-01 +8.69227014823E-01 -9.32206738556E-05 +2.37668504523E-05 -4.70902247873E-05 +3.22670322219E-05 -4.96375588299E-01 +8.27043044772E-01
1.28500000000E+09 -2.98194125221E-01 +8.70911823336E-01 -6.83107912502E-05 +1.76761327435E-05 -8.51616297319E-05 +6.91568670124E-05 -4.88972617233E-01 +8.30809946890E-01
1.29000000000E+09 -2.86047856964E-01 +8.73162717244E-01 -5.98670244607E-05 +9.52003453136E-06 -7.04189941200E-05 +4.09591522078E-05 -4.81356695680E-01 +8.34500115898E-01
1.29500000000E+09 -2.73483922833E-01 +8.76143777862E-01 -7.64197444495E-05 +4.19220270030E-05 -6.81556351306E-05 +4.46283484126E-05 -4.73412816784E-01 +8.38069098007E-01
1.30000000000E+09 -2.61383750729E-01 +8.79472748575E-01 -5.53427733453E-05 +9.24033842145E-06 -1.07438433093E-04 +5.26418969833E-05 -4.65489543495E-01 +8.41722962034E-01
1.30500000000E+09 -2.50702808136E-01 +8.82839834394E-01 -8.36043067015E-05 +6.87291657391E-05 -9.17416442630E-05 +4.68288767011E-05 -4.57409817940E-01 +8.45118396604E-01
1.31000000000E+09 -2.41574192337E-01 +8.85564077210E-01 -6.79634073459E-05 +1.25302611030E-04 -5.08360838899E-05 +1.35223799725E-04 -4.48966716667E-01 +8.48667208116E-01
1.31500000000E+09 -2.34094174831E-01 +8.87308051592E-01 -5.71544256258E-05 +1.49058006025E-04 -5.25316141566E-05 +1.01132791679E-04 -4.40079576269E-01 +8.52123305393E-01
1.32000000000E+09 -2.28095126267E-01 +8.88075946667E-01 -5.11379542671E-05 +1.06543410661E-04 -4.45286160241E-05 +1.25366767021E-04 -4.31023268545E-01 +8.55524561170E-01
1.32500000000E+09 -2.22499473322E-01 +8.87928358191E-01 -4.69602092608E-06 +1.34595839798E-04 +7.89879358478E-06 +1.17689221136E-04 -4.21249970173E-01 +8.59006422864E-01
1.33000000000E+09 -2.16308684973E-01 +8.87440476899E-01 -3.21289100063E-05 +1.64928859567E-04 +4.14511773076E-05 +1.70272778577E-04 -4.11452303464E-01 +8.62257873529E-01
1.33500000000E+09 -2.07907593653E-01 +8.86654451127E-01 +6.79781515887E-05 +7.31026877362E-05 +3.92308443427E-05 +9.88630606512E-05 -4.01500654528E-01 +8.65576638105E-01
1.34000000000E+09 -1.97409137140E-01 +8.86137717574E-01 -3.02955874019E-05 +1.46020431821E-04 +1.62424367803E-05 +1.04743884614E-04 -3.91324675094E-01 +8.68897003249E-01
1.34500000000E+09 -1.84079850911E-01 +8.85764880509E-01 -2.52382527008E-05 +1.28194337199E-04 +3.48574215116E-05 +8.59904929296E-05 -3.80423499524E-01 +8.72099824386E-01
1.35000000000E+09 -1.69067745438E-01 +8.86035627830E-01 +6.41337927677E-06 +1.61896823387E-04 -1.83051897304E-05 +1.51617424283E-04 -3.69278692448E-01 +8.75242875464E-01
1.35500000000E+09 -1.52502393988E-01 +8.86759351386E-01 +5.46483444906E-05 +1.65162240675E-04 +5.38000028178E-05 +1.38003546339E-04 -3.57558938050E-01 +8.78079780312E-01
1.36000000000E+09 -1.36019044667E-01 +8.87639053695E-01 +6.35842930722E-05 +1.63282657986E-04 +1.73624024354E-05 +1.75276541277E-04 -3.45609055898E-01 +8.80821232072E-01
1.36500000000E+09 -1.20214015540E-01 +8.88396165600E-01 +9.22151822861E-05 +1.66018808778E-04 +1.13609058833E-04 +1.76989497918E-04 -3.33447019609E-01 +8.83292495349E-01
1.37000000000E+09 -1.06232236806E-01 +8.88407998630E-01 +1.68279964869E-04 +2.23890447462E-04 +1.56822667747E-04 +2.47303656857E-04 -3.20421499631E-01 +8.85772747023E-01
1.37500000000E+09 -9.42146714988E-02 +8.87926483063E-01 +2.71977228782E-04 +1.62925638737E-04 +2.62189544647E-04 +1.71613761812E-04 -3.06766125524E-01 +8.87886729364E-01
1.38000000000E+09 -8.35246108554E-02 +8.86831239030E-01 +2.16471547820E-04 +6.64992625514E-05 +1.74508357918E-04 +1.03601450256E-04 -2.92288758791E-01 +8.89854540986E-01
1.38500000000E+09 -7.26982125277E-02 +8.85054595616E-01 +1.69703716804E-04 +1.25468778081E-04 +2.02764157738E-04 +1.69349478827E-04 -2.76875560546E-01 +8.91751893660E-01
1.39000000000E+09 -6.12473176481E-02 +8.82325473144E-01 +2.44158241783E-04 +1.40542796166E-04 +2.58565140414E-04 +1.51310926170E-04 -2.60879399303E-01 +8.93183344182E-01
1.39500000000E+09 -4.76363057829E-02 +8.78797282013E-01 +3.23780420605E-04 +1.37924389420E-04 +3.28011707796E-04 +1.17594455368E-04 -2.44012736959E-01 +8.93813184402E-01
1.40000000000E+09 -3.15259059975E-02 +8.74293590026E-01 +4.29164403496E-04 +1.49504137076E-04 +3.97170699862E-04 +1.12277477819E-04 -2.26355297895E-01 +8.94428394652E-01
1.40500000000E+09 -1.32558619728E-02 +8.69269519775E-01 +5.31905863811E-04 +1.07242985612E-05 +5.63454317283E-04 -2.97087813480E-05 -2.07738633789E-01 +8.94021230620E-01
1.41000000000E+09 +7.18577404916E-03 +8.64111226361E-01 +4.98629690383E-04 -2.24399600886E-04 +5.06699534107E-04 -2.17222017493E-04 -1.87576118042E-01 +8.93363995629E-01
1.41500000000E+09 +2.90883658374E-02 +8.58477641640E-01 +4.45546827153E-04 -2.23305377360E-04 +4.54584854799E-04 -2.05896481273E-04 -1.66183953356E-01 +8.91733290073E-01
1.42000000000E+09 +5.19005341709E-02 +8.52667525956E-01 +4.21427450815E-04 -3.55940720878E-04 +5.06429278078E-04 -3.75103105443E-04 -1.43485025491E-01 +8.89011310613E-01
1.42500000000E+09 +7.45420807765E-02 +8.45475135181E-01 +2.55583740683E-04 -4.01326907451E-04 +2.56930194242E-04 -4.52657111142E-04 -1.20085308646E-01 +8.85683806942E-01
1.43000000000E+09 +9.60345248550E-02 +8.36746237100E-01 +2.89236843323E-04 -2.75776581906E-04 +2.92637323916E-04 -3.64779719904E-04 -9.51300147256E-02 +8.81150078696E-01
1.43500000000E+09 +1.16683296948E-01 +8.26382494490E-01 +3.83608614561E-04 -4.51242346815E-04 +3.88077862621E-04 -4.85903824285E-04 -6.89279841770E-02 +8.74547546488E-01
1.44000000000E+09 +1.36936396861E-01 +8.14244464005E-01 +4.88448075420E-04 -6.83240550459E-04 +3.96696062688E-04 -7.31036013773E-04 -4.09614471629E-02 +8.66171388202E-01
1.44500000000E+09 +1.58274597954E-01 +8.00013561586E-01 +2.05965610405E-04 -9.59042130428E-04 +1.45761467363E-04 -1.00729724656E-03 -1.08808007207E-02 +8.55068023269E-01
1.45000000000E+09 +1.81523766095E-01 +7.82410703302E-01 -1.78899261483E-04 -9.13616867578E-04 -2.24589252127E-04 -9.53769852402E-04 +2.10395847911E-02 +8.40888730528E-01
1.45500000000E+09 +2.06566028256E-01 +7.61511496800E-01 -3.17561488561E-04 -7.38369752150E-04 -4.21026942809E-04 -7.36406367530E-04 +5.43358380774E-02 +8.23394898371E-01
1.46000000000E+09 +2.34569250647E-01 +7.37280811327E-01 -4.59024397590E-04 -6.09641564337E-04 -4.96308806407E-04 -5.95223055613E-04 +8.91235834337E-02 +8.02190423453E-01
1.46500000000E+09 +2.64675589700E-01 +7.08729074126E-01 -4.29875265774E-04 -3.42094831505E-04 -4.67420134872E-04 -3.21560417029E-04 +1.25357213348E-01 +7.75964523983E-01
1.47000000000E+09 +2.96027299894E-01 +6.75762836153E-01 -1.21076697759E-04 -5.17206447043E-04 -1.51034207803E-04 -5.13239075552E-04 +1.62921992214E-01 +7.43094619656E-01
1.47500000000E+09 +3.27143453989E-01 +6.37333776599E-01 -4.43045555325E-04 -8.34184855687E-04 -3.65870795467E-04 -8.04469459356E-04 +2.01047708314E-01 +7.02915986905E-01
1.48000000000E+09 +3.55594941730E-01 +5.93250322343E-01 -8.15879930066E-04 -7.27486845553E-04 -7.72823026494E-04 -7.37864469347E-04 +2.38604875527E-01 +6.53808835947E-01
1.48500000000E+09 +3.80089420853E-01 +5.43076405311E-01 -8.36279801375E-04 -6.28419490724E-04 -8.50317237114E-04 -6.85292050586E-04 +2.73403540182E-01 +5.94849815854E-01
1.49000000000E+09 +3.99472205254E-01 +4.85278555456E-01 -1.29410492828E-03 -6.15092202332E-04 -1.35725200174E-03 -5.37034205168E-04 +3.02573432295E-01 +5.25687640602E-01
1.49500000000E+09 +4.11966937638E-01 +4.19496410391E-01 -1.67428085063E-03 -3.24094639111E-04 -1.62574860524E-03 -2.55824293979E-04 +3.23441468497E-01 +4.46023101575E-01
1.50000000000E+09 +4.15794762522E-01 +3.43240227801E-01 -1.78383528798E-03 +4.54882410882E-04 -1.63927826760E-03 +4.84159369086E-04 +3.30948753496E-01 +3.54980902062E-01
1.50500000000E+09 +4.06327530703E-01 +2.57753109192E-01 -1.43647547819E-03 +9.39858883692E-04 -1.39309084325E-03 +8.79795834884E-04 +3.19229462194E-01 +2.56219865234E-01
1.51000000000E+09 +3.81090239131E-01 +1.66414650165E-01 -9.71386942450E-04 +9.30894211108E-04 -9.40841952328E-04 +8.57494705625E-04 +2.87058719827E-01 +1.55516888293E-01
1.51500000000E+09 +3.37957731903E-01 +7.27619991435E-02 -1.26302971181E-03 +9.33871622972E-04 -1.34824642063E-03 +8.75091460318E-04 +2.33836665003E-01 +5.71633374105E-02
1.52000000000E+09 +2.72902230290E-01 -1.57044860568E-02 -1.37662840107E-03 +1.50188618260E-03 -1.43836440453E-03 +1.57406001623E-03 +1.57550413935E-01 -3.15283612442E-02
1.52500000000E+09 +1.90021019776E-01 -9.00804165275E-02 -6.30700120436E-04 +2.48596049958E-03 -6.12069817061E-04 +2.51979043629E-03 +6.13040266331E-02 -1.01336684452E-01
1.53000000000E+09 +9.05080525510E-02 -1.45820666782E-01 +2.22992318299E-04 +2.51802009041E-03 +1.74482322053E-04 +2.49720194884E-03 -4.52290449587E-02 -1.47553167703E-01
1.53500000000E+09 -1.97090396185E-02 -1.76488830618E-01 +1.51116574341E-03 +2.07767905571E-03 +1.52920847206E-03 +2.13278330560E-03 -1.58215079533E-01 -1.70858850518E-01
1.54000000000E+09 -1.33533193282E-01 -1.78579091847E-01 +1.50865391307E-03 +1.36130968871E-03 +1.49733105319E-03 +1.34278544881E-03 -2.70146340068E-01 -1.68023365992E-01
1.54500000000E+09 -2.41653253094E-01 -1.55561363127E-01 +1.64433965135E-03 +7.17141814721E-04 +1.58139100382E-03 +7.50830585965E-04 -3.70298360647E-01 -1.44642171758E-01
1.55000000000E+09 -3.38917676294E-01 -1.12851631953E-01 +1.41376267804E-03 +3.06264889765E-04 +1.47599468394E-03 +3.69272563488E-04 -4.57657174866E-01 -1.06471067880E-01
1.55500000000E+09 -4.20949018638E-01 -5.67720434841E-02 +1.25166870140E-03 +1.35342941356E-04 +1.34755772661E-03 +1.79848202150E-04 -5.29516872806E-01 -5.79683130286E-02
1.56000000000E+09 -4.87126027845E-01 +4.56537568816E-03 +1.34773282331E-03 +2.10669583012E-04 +1.37987332764E-03 +2.73217005896E-04 -5.87135247272E-01 -4.57217781100E-03
1.56500000000E+09 -5.38623408783E-01 +6.68185549500E-02 +1.61505358608E-03 -8.49079661684E-05 +1.72106442138E-03 -7.13484436849E-05 -6.32278303606E-01 +5.17310490117E-02
1.57000000000E+09 -5.77911582945E-01 +1.27036525564E-01 +1.79762651000E-03 -1.02280944189E-03 +1.90737613023E-03 -1.04927957068E-03 -6.66293233594E-01 +1.07211120229E-01
