# Hz S RI R 50
! CMT, C1220, 16058040, 17.2.0/1
! Date: 14/08/2018 12:21:21
! Data: Format (Calibration Info)
! Freq                      S11: Re/Im (F2)                       S21: Re/Im (F2)                       S12: Re/Im (F2)                       S22: Re/Im (F2)            
1.00000000000E+09 -6.44664472356E-01 +7.15930893350E-01 +1.06446125943E-05 +1.26973089922E-05 -3.52998526011E-05 -1.22397586305E-05 -7.48106035626E-01 +6.23937637684E-01
1.00500000000E+09 -6.37550557932E-01 +7.20929245362E-01 +4.22572128563E-05 -2.39717106133E-05 -5.49865105719E-07 -1.55039295089E-05 -7.44519760877E-01 +6.28112307714E-01
1.01000000000E+09 -6.31618356078E-01 +7.25589972163E-01 -1.65332343572E-05 +3.02745136758E-06 -1.50358588198E-05 -4.16075423723E-05 -7.40946625319E-01 +6.31781465278E-01
1.01500000000E+09 -6.27506758525E-01 +7.29374401343E-01 +1.69769474187E-05 +2.74079840903E-05 +2.44798653492E-05 -7.02575127435E-05 -7.37553999555E-01 +6.35478444297E-01
1.02000000000E+09 -6.24871368088E-01 +7.32642685722E-01 +6.14082002491E-06 -1.27258916311E-05 -1.17993749630E-05 +1.75799617092E-05 -7.34260151590E-01 +6.39021129702E-01
1.02500000000E+09 -6.23257539688E-01 +7.35092329350E-01 -9.51248898670E-06 +1.61326994909E-05 +1.54003426808E-05 +1.99794731745E-05 -7.31398191135E-01 +6.42682610274E-01
1.03000000000E+09 -6.22108948609E-01 +7.37446800194E-01 -4.11754624852E-05 -8.79598716259E-06 +1.12420375726E-05 -5.37133140672E-05 -7.27950924591E-01 +6.46421238802E-01
1.03500000000E+09 -6.20018176705E-01 +7.39776929731E-01 -9.70143221644E-06 +3.56737352414E-06 +2.04664047709E-05 -9.84094713922E-06 -7.24190238165E-01 +6.50474930553E-01
1.04000000000E+09 -6.16712743534E-01 +7.42575040474E-01 -3.42607421030E-06 +1.90753954839E-05 +1.55243316923E-06 +3.93070268226E-05 -7.20192656274E-01 +6.53920660153E-01
1.04500000000E+09 -6.11476430378E-01 +7.45979991106E-01 -2.26582570781E-05 +1.53201414762E-05 -2.29247887434E-05 -7.06958788222E-06 -7.16812757390E-01 +6.57602912927E-01
1.05000000000E+09 -6.04265313233E-01 +7.50022312590E-01 +7.26359047307E-05 +9.19071058900E-06 -7.76859396522E-06 +9.00671729940E-06 -7.13431889890E-01 +6.60896619366E-01
1.05500000000E+09 -5.95438132232E-01 +7.54627882071E-01 +1.79134086057E-05 -3.47604447921E-05 +3.62775437141E-05 -1.90546946100E-05 -7.10150268159E-01 +6.64318650795E-01
1.06000000000E+09 -5.85987743793E-01 +7.59766981266E-01 -6.89474688720E-06 +2.00846742231E-05 -2.38659233328E-05 -3.36666842641E-05 -7.06854885662E-01 +6.68187994610E-01
1.06500000000E+09 -5.76918430712E-01 +7.64891067636E-01 -1.11056509966E-05 +3.60101377226E-05 -1.68246595470E-05 -1.38672238555E-06 -7.03024361631E-01 +6.71966437636E-01
1.07000000000E+09 -5.69038276449E-01 +7.69250994956E-01 -9.19501116122E-06 +8.03798442970E-05 +1.00674199497E-05 +3.27045330918E-05 -6.99128582239E-01 +6.75466593791E-01
1.07500000000E+09 -5.62727917146E-01 +7.73329899429E-01 +4.75414848708E-05 -1.15709320980E-06 +4.47291071930E-05 -2.41009303432E-05 -6.94656655365E-01 +6.79352318264E-01
1.08000000000E+09 -5.58323686961E-01 +7.76457875419E-01 +1.25396761924E-05 -3.22162423917E-05 +6.02858594024E-05 -2.59037631876E-05 -6.90752073812E-01 +6.83310552694E-01
1.08500000000E+09 -5.55481628148E-01 +7.78962082555E-01 +3.04174920721E-05 +1.36867945815E-05 +5.42188684408E-07 -2.82534633442E-05 -6.86778518478E-01 +6.86848151722E-01
1.09000000000E+09 -5.53335984325E-01 +7.80946964348E-01 -1.32744664634E-05 +2.06392394909E-05 -4.90161322696E-05 +3.00833372805E-05 -6.83071818169E-01 +6.90706174769E-01
1.09500000000E+09 -5.51645421824E-01 +7.82682486945E-01 +7.33973687343E-06 +9.17420394872E-06 +1.96378904508E-05 -1.98537667480E-06 -6.79283582890E-01 +6.94591760530E-01
1.10000000000E+09 -5.48648221799E-01 +7.84829906652E-01 +3.98218537475E-05 -4.24004295461E-06 +2.14767270527E-05 -9.89542067904E-06 -6.75192716875E-01 +6.98239505448E-01
1.10500000000E+09 -5.44540408486E-01 +7.87486229788E-01 +8.93061929946E-06 -2.33249041613E-05 -3.57689847221E-06 -4.53843497737E-05 -6.70997796278E-01 +7.01849627865E-01
1.11000000000E+09 -5.38783493672E-01 +7.90644029744E-01 +1.84469895527E-05 -5.18688354137E-05 +2.87336462611E-05 +1.30502960835E-05 -6.66720392908E-01 +7.05137335373E-01
1.11500000000E+09 -5.31468715161E-01 +7.94509568479E-01 +1.01794686599E-06 -4.28775839363E-05 +3.16413390327E-06 -3.20620805534E-05 -6.62615138065E-01 +7.08538985043E-01
1.12000000000E+09 -5.23478065594E-01 +7.98301762621E-01 +3.85640715901E-05 -6.75358499217E-05 -3.44829088549E-05 -1.55034424746E-05 -6.58715579171E-01 +7.12120216309E-01
1.12500000000E+09 -5.15324068402E-01 +8.02554094311E-01 +6.20537069513E-06 -3.37997239749E-06 -1.65809740522E-05 -2.99531758839E-05 -6.54415164379E-01 +7.16016058324E-01
1.13000000000E+09 -5.07912308580E-01 +8.06079896669E-01 +3.06181005017E-06 -4.55105827400E-05 +2.47727709196E-05 -5.20821172084E-05 -6.50193869228E-01 +7.19787885843E-01
1.13500000000E+09 -5.01320431943E-01 +8.08961353710E-01 -2.07481416203E-06 -1.60922133483E-05 -2.38982878163E-05 -3.62769604252E-05 -6.45641319356E-01 +7.23591834203E-01
1.14000000000E+09 -4.96083625838E-01 +8.11562952064E-01 +1.03081365230E-05 -6.82599625597E-06 -2.94437831955E-05 -3.61416956248E-05 -6.41022446395E-01 +7.26822911219E-01
1.14500000000E+09 -4.92066946367E-01 +8.13136193774E-01 -1.45168829350E-05 -1.39607167190E-05 +1.21250644823E-05 +3.39896111990E-05 -6.36198714671E-01 +7.30269984732E-01
1.15000000000E+09 -4.88286079051E-01 +8.14700816340E-01 -3.90989237215E-05 -8.36048859479E-06 +3.56170285228E-05 +1.65441693851E-05 -6.31795775885E-01 +7.34061449288E-01
1.15500000000E+09 -4.84367109467E-01 +8.16327269342E-01 -3.08176954677E-06 -2.47870770164E-05 -7.50672385584E-06 +1.54861049467E-06 -6.26933220139E-01 +7.37903169217E-01
1.16000000000E+09 -4.79640336579E-01 +8.18160384488E-01 -6.93497259322E-06 -6.75620099968E-06 -2.69788936990E-06 +1.08052351776E-05 -6.22121620121E-01 +7.41699884711E-01
1.16500000000E+09 -4.73671918979E-01 +8.20798614263E-01 -1.22760144965E-05 +9.32487013538E-06 +4.63395060243E-07 +1.96202950359E-05 -6.16962561744E-01 +7.45337445977E-01
1.17000000000E+09 -4.66534546319E-01 +8.23636265173E-01 +2.23474919689E-05 -7.45348074048E-05 +3.47548397962E-05 -5.74983890375E-05 -6.11572093230E-01 +7.48617573521E-01
1.17500000000E+09 -4.58512002682E-01 +8.27014383046E-01 +4.17193695520E-05 -1.10106684292E-05 -1.62003791407E-05 -2.23252557959E-05 -6.05946782598E-01 +7.51842163726E-01
1.18000000000E+09 -4.50339194934E-01 +8.30630232192E-01 +1.95268321604E-05 -5.19556184841E-05 -4.84070962264E-05 -5.85479148861E-05 -6.00413108036E-01 +7.54826905190E-01
1.18500000000E+09 -4.42198012529E-01 +8.33822269030E-01 -1.52141139219E-05 -5.57008109654E-05 -4.09660625473E-05 -3.49398029608E-05 -5.94486555420E-01 +7.57866835980E-01
1.19000000000E+09 -4.34958889857E-01 +8.36532531406E-01 +1.02096446475E-05 -6.54732003132E-05 -3.33670027146E-05 -6.25080127737E-05 -5.88253571767E-01 +7.60663819780E-01
1.19500000000E+09 -4.28858577510E-01 +8.38503906435E-01 -5.13316934212E-05 -7.85160196290E-05 -7.95497816962E-05 -8.62061091841E-05 -5.82399988930E-01 +7.61745125903E-01
1.20000000000E+09 -4.23851473291E-01 +8.39570519994E-01 -9.97598300205E-05 -2.45780895123E-05 -1.13469447069E-04 -2.62334593842E-05 -5.78006099766E-01 +7.62018847913E-01
1.20500000000E+09 -4.19552878664E-01 +8.40471070598E-01 -1.10848113699E-04 +4.29315400049E-05 -1.27110583360E-04 +5.92093143995E-05 -5.75528527768E-01 +7.62833457930E-01
1.21000000000E+09 -4.14829190073E-01 +8.41462000986E-01 -4.10062492274E-05 +2.65916665953E-05 -2.31420202426E-05 +5.01551474185E-05 -5.73604666176E-01 +7.65996599226E-01
1.21500000000E+09 -4.08776001413E-01 +8.42655305298E-01 -2.71666579098E-05 +5.75539845026E-05 -3.25168907611E-05 +7.62782329573E-05 -5.70937754030E-01 +7.70465968989E-01
1.22000000000E+09 -4.01161995685E-01 +8.44530635694E-01 -4.19694953317E-06 +6.61247803575E-05 -2.79738197351E-05 -2.15920228768E-06 -5.66698362534E-01 +7.75743061628E-01
1.22500000000E+09 -3.91827580767E-01 +8.46784588326E-01 +2.02247405502E-05 +2.43878237743E-05 +2.83618103537E-05 +3.31458343889E-05 -5.61609005293E-01 +7.80807281078E-01
1.23000000000E+09 -3.81268099607E-01 +8.49674767543E-01 -4.45273080879E-06 +4.67686880871E-05 -2.21888761858E-05 -1.23992175070E-05 -5.55928536780E-01 +7.85298887441E-01
1.23500000000E+09 -3.70162872003E-01 +8.53055329000E-01 +1.23259559871E-05 -1.82614548210E-05 -1.71992004987E-05 +1.57076093041E-05 -5.50204457907E-01 +7.89600248764E-01
1.24000000000E+09 -3.59226643238E-01 +8.56791103011E-01 -1.50215306393E-05 -1.19012657052E-05 +1.74020777893E-05 +1.47509763557E-05 -5.44222582387E-01 +7.93517160308E-01
1.24500000000E+09 -3.49391011750E-01 +8.60613990343E-01 -2.16690278198E-05 +1.43218725905E-05 -1.68856052165E-05 -6.30858903239E-05 -5.37952252209E-01 +7.97248502997E-01
1.25000000000E+09 -3.40962920990E-01 +8.63826735957E-01 +1.89317541749E-05 +2.23204727859E-06 -5.25794785959E-05 -1.79170579661E-05 -5.31459659272E-01 +8.01518478043E-01
1.25500000000E+09 -3.33991658383E-01 +8.66214444836E-01 -3.32531692690E-05 -1.20797377146E-05 -3.77712064840E-05 -5.93278176999E-05 -5.24509675017E-01 +8.05397654915E-01
1.26000000000E+09 -3.28385101912E-01 +8.67975046553E-01 -5.46265776047E-05 -3.14257729373E-05 -7.37669399893E-05 -2.99686558181E-05 -5.17791142651E-01 +8.09686809914E-01
1.26500000000E+09 -3.23466007808E-01 +8.68914485958E-01 -6.42794806773E-05 +2.39181835491E-05 -8.20748753195E-05 -1.96515366523E-05 -5.10919328348E-01 +8.13509881399E-01
1.27000000000E+09 -3.18267370368E-01 +8.69902569909E-01 -7.86065639455E-05 +2.41367261997E-06 -9.26210362985E-05 +2.00272504602E-05 -5.04011649301E-01 +8.17241675933E-01
1.27500000000E+09 -3.12017378804E-01 +8.70757760972E-01 -1.60588841580E-05 +1.64677460713E-05 -8.26723679843E-05 +6.60447432622E-05 -4.97067544605E-01 +8.20701112768E-01
1.28000000000E+09 -3.03670518087E-01 +8.72133578459E-01 -4.98983226741E-05 +7.36653532050E-05 -7.20955350371E-05 +8.04597097909E-05 -4.90117390422E-01 +8.24224792234E-01
1.28500000000E+09 -2.93182009809E-01 +8.73891775975E-01 -6.86719403750E-05 +2.73320113563E-05 -5.25550086061E-05 +5.82830480157E-05 -4.82762024222E-01 +8.27835678143E-01
1.29000000000E+09 -2.81611032214E-01 +8.76183037400E-01 -7.26934895069E-05 +2.32833869396E-05 -3.69908711458E-05 +5.39074455065E-05 -4.75277351138E-01 +8.31610803723E-01
1.29500000000E+09 -2.69007042419E-01 +8.79012314074E-01 -2.99288593000E-05 +7.71437696020E-05 -3.83172357917E-05 +1.78890112626E-05 -4.67446241734E-01 +8.35097465691E-01
1.30000000000E+09 -2.56517886467E-01 +8.82264167111E-01 -5.26626240586E-05 +5.34849572584E-05 -5.25165724556E-05 +8.97308315720E-05 -4.59588156089E-01 +8.38556811531E-01
1.30500000000E+09 -2.45146457415E-01 +8.85173719337E-01 -4.33587368778E-05 +1.00887861914E-04 -4.33193275746E-05 +6.16248476552E-05 -4.51607588378E-01 +8.41876773464E-01
1.31000000000E+09 -2.35068504650E-01 +8.87459667532E-01 +1.29413347493E-05 +1.16794196528E-04 +5.68322669670E-06 +7.64785808709E-05 -4.43374572210E-01 +8.45326652678E-01
1.31500000000E+09 -2.27122145403E-01 +8.88853608478E-01 +4.29282685801E-05 +5.38183968579E-05 +9.69485891378E-05 +5.73009226799E-05 -4.34691653805E-01 +8.48669457018E-01
1.32000000000E+09 -2.20581995061E-01 +8.89335110830E-01 +3.48022493279E-05 +8.88481139180E-05 +5.73539874882E-05 +4.69456997066E-05 -4.25542665645E-01 +8.52142138980E-01
1.32500000000E+09 -2.14625837219E-01 +8.89057930661E-01 -3.32753994227E-06 +5.00863706937E-05 -2.77553625084E-05 +5.54001376267E-05 -4.15957025069E-01 +8.55637993078E-01
1.33000000000E+09 -2.07792744816E-01 +8.88588513667E-01 +2.16554825708E-05 +5.52532480209E-05 +5.40217462026E-06 +7.89389095387E-05 -4.06347164262E-01 +8.58841265577E-01
1.33500000000E+09 -1.99345940037E-01 +8.87650436071E-01 +5.84252260605E-05 +1.03663692995E-04 +3.40108231647E-05 +1.27681902655E-04 -3.96579277685E-01 +8.62180425492E-01
1.34000000000E+09 -1.88473566858E-01 +8.86837029973E-01 +1.17880207053E-04 +1.36032466634E-04 +6.47618283922E-05 +7.55287125865E-05 -3.86466982283E-01 +8.65494132000E-01
1.34500000000E+09 -1.75003451647E-01 +8.86108182498E-01 +1.18360173487E-04 +3.07547168035E-05 +7.06579720239E-05 +4.85675018793E-05 -3.75631442577E-01 +8.68807994846E-01
1.35000000000E+09 -1.59508279568E-01 +8.85875903109E-01 +1.77796224401E-05 +2.12388759217E-05 +1.36843199998E-05 +5.88265982900E-05 -3.64633397383E-01 +8.72005610686E-01
1.35500000000E+09 -1.42766370326E-01 +8.86113131197E-01 +5.56168263353E-05 +6.49253315947E-05 +7.45426005122E-05 +5.47119819708E-05 -3.53163904066E-01 +8.74855674968E-01
1.36000000000E+09 -1.25884142350E-01 +8.86634457139E-01 +3.77522224349E-05 +4.72168992506E-05 +5.50806052732E-05 +2.95493119093E-05 -3.41238744907E-01 +8.77498944631E-01
1.36500000000E+09 -1.09674395707E-01 +8.87262371036E-01 +8.19533408168E-06 +1.04451489535E-04 +3.63890860688E-05 +6.19244364633E-05 -3.29179501054E-01 +8.80028992925E-01
1.37000000000E+09 -9.52596415584E-02 +8.87155342248E-01 +3.14986960013E-05 +1.02780858773E-04 -2.90284627200E-05 +1.15855776187E-04 -3.16169373782E-01 +8.82415705046E-01
1.37500000000E+09 -8.29543803713E-02 +8.86712359022E-01 +7.14123193856E-05 +1.47494712956E-04 +6.79936235230E-05 +1.21328512441E-04 -3.02608494399E-01 +8.84675463897E-01
1.38000000000E+09 -7.19676845058E-02 +8.85754776643E-01 +1.78654942679E-04 +1.57052807993E-04 +1.62425879119E-04 +2.03153530336E-04 -2.88093083737E-01 +8.86789308406E-01
1.38500000000E+09 -6.09957795400E-02 +8.84009007044E-01 +2.10152006289E-04 +8.25248144104E-05 +2.26807857668E-04 +9.98609734752E-05 -2.72514334871E-01 +8.88656434283E-01
1.39000000000E+09 -4.93845530407E-02 +8.81336167954E-01 +2.03613204568E-04 +7.36584464809E-05 +2.20983282771E-04 +9.38817898279E-05 -2.56567756706E-01 +8.90242314270E-01
1.39500000000E+09 -3.57447547974E-02 +8.77793794870E-01 +2.51757556537E-04 +8.05498271645E-05 +2.90961496050E-04 +6.59016275600E-05 -2.39873820031E-01 +8.90925806281E-01
1.40000000000E+09 -1.94007338261E-02 +8.73228101005E-01 +2.67839757090E-04 -3.95349170501E-05 +2.82346017936E-04 -7.83903496274E-05 -2.22294406031E-01 +8.91613690956E-01
1.40500000000E+09 -1.03608189486E-03 +8.67982657213E-01 +2.35666226133E-04 -5.51825516680E-05 +1.97943595902E-04 -1.58966739229E-04 -2.03631272210E-01 +8.91595383353E-01
1.41000000000E+09 +1.95302338850E-02 +8.62414053791E-01 +2.22971557810E-04 -1.05355593887E-04 +2.09479176616E-04 -9.81270394412E-05 -1.83255020764E-01 +8.90873595313E-01
1.41500000000E+09 +4.14967183828E-02 +8.56701198460E-01 +1.87529451307E-04 -1.25541915732E-04 +1.73494798226E-04 -9.29267353284E-05 -1.61642053830E-01 +8.89172759776E-01
1.42000000000E+09 +6.41532781276E-02 +8.50519289167E-01 +2.48800608155E-04 -8.16167756525E-05 +2.47941203646E-04 -2.08315060726E-05 -1.38692676248E-01 +8.86534927704E-01
1.42500000000E+09 +8.61658961685E-02 +8.43297834296E-01 +2.75172815693E-04 -1.73223971107E-04 +3.55091588957E-04 -1.92812083183E-04 -1.15046736997E-01 +8.82950379856E-01
1.43000000000E+09 +1.06839161271E-01 +8.34923745799E-01 +1.78821021425E-04 -3.03655429319E-04 +1.95533800781E-04 -3.12781469871E-04 -9.02057854949E-02 +8.78116374987E-01
1.43500000000E+09 +1.26532181994E-01 +8.25082171418E-01 +8.90102294504E-05 -2.74846894160E-04 +9.94946862934E-05 -3.40524689055E-04 -6.38359870399E-02 +8.71465543690E-01
1.44000000000E+09 +1.46010246534E-01 +8.13894086317E-01 -3.80425459945E-06 -2.31126696053E-04 +3.79696480894E-05 -1.99031251706E-04 -3.56081268506E-02 +8.62653615163E-01
1.44500000000E+09 +1.66930959318E-01 +7.99913616891E-01 +1.03201828428E-04 -7.13622407980E-05 +9.34646700000E-05 -9.72408670715E-05 -5.59170420950E-03 +8.51078631619E-01
1.45000000000E+09 +1.89745637825E-01 +7.82442985861E-01 +2.91108636820E-04 -1.82481062866E-04 +3.03390083194E-04 -2.22976571395E-04 +2.64444533967E-02 +8.36496215411E-01
1.45500000000E+09 +2.15401353734E-01 +7.61038506342E-01 +2.43241460299E-04 -2.67666317751E-04 +2.01819156401E-04 -3.06721273524E-04 +5.98927100861E-02 +8.18437597123E-01
1.46000000000E+09 +2.43758185106E-01 +7.34900290829E-01 +3.36142935485E-04 -3.78366061444E-04 +2.76518101837E-04 -3.64633373789E-04 +9.45832422039E-02 +7.96008187376E-01
1.46500000000E+09 +2.73646966972E-01 +7.04253714827E-01 +2.00583493029E-04 -5.50752591926E-04 +1.55496457331E-04 -5.52855274001E-04 +1.30031927719E-01 +7.69352712348E-01
1.47000000000E+09 +3.05549681483E-01 +6.69224457452E-01 +2.60301676934E-04 -4.86504361284E-04 +1.97511535827E-04 -4.24479729961E-04 +1.67020144454E-01 +7.35469190192E-01
1.47500000000E+09 +3.36937982072E-01 +6.28341879461E-01 +1.35862106836E-04 -8.14106988996E-04 +1.93669149504E-04 -7.75826749782E-04 +2.03897530823E-01 +6.94181167208E-01
1.48000000000E+09 +3.65853327413E-01 +5.82069381180E-01 -3.95743280349E-05 -7.79200625918E-04 -2.84809591807E-05 -7.65589603289E-04 +2.40010623087E-01 +6.44270246190E-01
1.48500000000E+09 +3.90770363989E-01 +5.29191212120E-01 -5.58916207231E-06 -8.32812708902E-04 +2.59575377464E-05 -8.19160123063E-04 +2.73572913681E-01 +5.85069204656E-01
1.49000000000E+09 +4.09613600329E-01 +4.69326289640E-01 +9.64421630315E-05 -1.20583671538E-03 +4.68327856052E-05 -1.22067303728E-03 +3.00755013952E-01 +5.14917886667E-01
1.49500000000E+09 +4.20262169305E-01 +4.01443260130E-01 -3.35872069371E-04 -1.81970889317E-03 -3.28471363884E-04 -1.72669666444E-03 +3.17802751769E-01 +4.35711114520E-01
1.50000000000E+09 +4.20581564527E-01 +3.25516121991E-01 -1.41244908102E-03 -2.10852933301E-03 -1.32690461483E-03 -1.97216509075E-03 +3.22211421385E-01 +3.46893415346E-01
1.50500000000E+09 +4.08959749631E-01 +2.42069733192E-01 -2.54182278787E-03 -1.51779249407E-03 -2.37781714895E-03 -1.53730565533E-03 +3.09968961031E-01 +2.51210262857E-01
1.51000000000E+09 +3.82033903822E-01 +1.51992985257E-01 -3.07504431462E-03 -4.83455428955E-04 -3.00387324405E-03 -6.04120298979E-04 +2.76759867529E-01 +1.51760533800E-01
1.51500000000E+09 +3.36126563570E-01 +6.00489143268E-02 -3.21671173581E-03 +4.18204795996E-04 -3.28512598749E-03 +2.84605451915E-04 +2.21935897694E-01 +5.55146427459E-02
1.52000000000E+09 +2.69739785126E-01 -2.62847021006E-02 -3.15071390505E-03 +2.04240127450E-03 -3.26274386577E-03 +2.01380641090E-03 +1.44272587552E-01 -2.90116861875E-02
1.52500000000E+09 +1.84047012136E-01 -9.94720800552E-02 -1.67539899226E-03 +2.34568991648E-03 -1.67377660008E-03 +2.33801535519E-03 +4.90314626811E-02 -9.48855886844E-02
1.53000000000E+09 +8.22275290382E-02 -1.51114847464E-01 -1.40881732295E-03 +2.29940510293E-03 -1.43899972791E-03 +2.33309131300E-03 -5.60121394431E-02 -1.37310065323E-01
1.53500000000E+09 -2.75867215067E-02 -1.77254223054E-01 -1.41311104703E-03 +2.97289143875E-03 -1.43106850799E-03 +2.99520287289E-03 -1.66304344420E-01 -1.56833875465E-01
1.54000000000E+09 -1.38766226072E-01 -1.77046649828E-01 -2.45983396776E-04 +3.87281592179E-03 -2.57144471114E-04 +3.83094106164E-03 -2.73371271525E-01 -1.52935274655E-01
1.54500000000E+09 -2.44874794122E-01 -1.53004920559E-01 +1.45702568434E-03 +3.96494637951E-03 +1.34559682650E-03 +3.89187750077E-03 -3.70927442536E-01 -1.28904189777E-01
1.55000000000E+09 -3.41326971504E-01 -1.09562582566E-01 +2.78355311128E-03 +2.62081595486E-03 +2.69704259905E-03 +2.77779251895E-03 -4.54363125636E-01 -9.12764846820E-02
1.55500000000E+09 -4.22719743075E-01 -5.18134873954E-02 +2.94863480419E-03 +1.36716024072E-03 +2.93525624176E-03 +1.52680579289E-03 -5.23854306694E-01 -4.47658211388E-02
1.56000000000E+09 -4.87916053121E-01 +1.15144962809E-02 +2.73993964546E-03 +4.15414210631E-04 +2.84901801002E-03 +5.59294457491E-04 -5.80257756097E-01 +8.01785711228E-03
1.56500000000E+09 -5.37924086260E-01 +7.55683706017E-02 +2.41072338785E-03 +6.16699614943E-05 +2.56745660101E-03 +1.22489429753E-04 -6.23574604479E-01 +6.31091026519E-02
1.57000000000E+09 -5.75716352950E-01 +1.37269846343E-01 +2.20365859267E-03 -5.68212346980E-04 +2.34788863245E-03 -6.06832919431E-04 -6.56158394923E-01 +1.17465949982E-01
