# Hz S RI R 50
! CMT, C1220, 16058040, 17.2.0/1
! Date: 14/08/2018 12:46:07
! Data: Format (Calibration Info)
! Freq                      S11: Re/Im (F2)                       S21: Re/Im (F2)                       S12: Re/Im (F2)                       S22: Re/Im (F2)            
1.00000000000E+09 -6.51206185063E-01 +7.12770639522E-01 -9.77884848082E-06 +1.73725088259E-05 +2.61320810066E-06 -4.54428588107E-05 -7.54006540835E-01 +6.21457430261E-01
1.00500000000E+09 -6.44225454564E-01 +7.18014666790E-01 +4.07003593795E-06 +3.31948362285E-06 +2.54282579591E-05 -3.21023770901E-05 -7.50355921772E-01 +6.25622758398E-01
1.01000000000E+09 -6.38336099335E-01 +7.22515245253E-01 +2.43893581602E-06 +2.36622511970E-05 -3.07987642438E-05 -7.88372705638E-06 -7.46818511252E-01 +6.28926410680E-01
1.01500000000E+09 -6.33762684899E-01 +7.26460363333E-01 +1.70451500072E-06 +6.81947138138E-05 -4.41656125281E-05 -2.90192481296E-05 -7.43611597893E-01 +6.32585889890E-01
1.02000000000E+09 -6.30613971145E-01 +7.29995073226E-01 +1.52745457353E-05 -1.73471705272E-05 -7.30642540751E-05 +4.67549349005E-05 -7.40479433341E-01 +6.36215062638E-01
1.02500000000E+09 -6.28459604828E-01 +7.32820622978E-01 -8.02444736912E-06 -3.51290064213E-05 -2.51073736754E-05 +3.12971709393E-05 -7.37686056230E-01 +6.39828112313E-01
1.03000000000E+09 -6.26877766367E-01 +7.35377490397E-01 -2.34009117386E-05 +1.31019813948E-05 -3.76406059800E-08 +7.22483702907E-05 -7.34150928311E-01 +6.43532207868E-01
1.03500000000E+09 -6.24635283639E-01 +7.37982956813E-01 -2.71518934976E-05 -5.24066142019E-06 +3.44752266547E-06 +2.34926712497E-05 -7.30307465327E-01 +6.47737558613E-01
1.04000000000E+09 -6.21311875827E-01 +7.40949387865E-01 -2.20626802008E-05 +3.33893974754E-05 +5.28783157231E-06 -2.18848482672E-05 -7.26489519754E-01 +6.51364991408E-01
1.04500000000E+09 -6.16562322978E-01 +7.44338135934E-01 -1.86634318233E-05 -1.87709488475E-05 +8.19308854353E-06 +2.09178163411E-05 -7.22948619305E-01 +6.54771271013E-01
1.05000000000E+09 -6.09882304204E-01 +7.48552924271E-01 -6.58098285839E-05 -2.33581346968E-05 +3.07607052434E-05 -4.79358170842E-05 -7.19614434375E-01 +6.58134400150E-01
1.05500000000E+09 -6.02090983688E-01 +7.53151408855E-01 +3.26203906934E-05 +2.77047673147E-05 -1.73093098833E-05 +2.62539331817E-05 -7.16414481105E-01 +6.61829980382E-01
1.06000000000E+09 -5.93624067126E-01 +7.58084680881E-01 -1.89261370753E-05 +1.10479222334E-05 +4.06395797537E-05 +2.24627520302E-05 -7.13048997449E-01 +6.65600417234E-01
1.06500000000E+09 -5.85332050601E-01 +7.63122863065E-01 -1.82397493987E-06 -2.14897917159E-05 +1.13580554859E-06 +3.11492508538E-05 -7.09256032025E-01 +6.69551275554E-01
1.07000000000E+09 -5.77923896266E-01 +7.67559451543E-01 +1.59989724426E-05 -1.20123839763E-05 +5.11133484009E-06 +3.09257301493E-05 -7.05091316728E-01 +6.73301790473E-01
1.07500000000E+09 -5.72113669750E-01 +7.71454610969E-01 -5.07812598939E-06 +7.02521103719E-05 +1.67126131045E-05 +5.57539757544E-05 -7.00843141717E-01 +6.76996013957E-01
1.08000000000E+09 -5.67808612779E-01 +7.74704584904E-01 +6.48190350924E-06 +1.22605478200E-05 +1.60287778081E-05 +5.01075262840E-06 -6.96996543571E-01 +6.80741829727E-01
1.08500000000E+09 -5.65066506824E-01 +7.77389806449E-01 +6.02008125618E-06 -6.69024014153E-06 +1.77290102131E-05 +1.20723371419E-05 -6.93138712189E-01 +6.84464269276E-01
1.09000000000E+09 -5.63140257877E-01 +7.79624457961E-01 +1.11979837417E-07 +4.36019293282E-05 +2.48607546182E-05 +3.21690652899E-05 -6.89591296559E-01 +6.87838112664E-01
1.09500000000E+09 -5.61459894257E-01 +7.81451689806E-01 -7.65723032911E-06 +9.50674048589E-06 -1.18379215435E-06 +4.29761269293E-05 -6.85836128329E-01 +6.91940200578E-01
1.10000000000E+09 -5.58704380610E-01 +7.83447984145E-01 +2.47407685937E-05 +5.40071002258E-05 -2.87497894889E-06 +5.00955583781E-05 -6.81886776947E-01 +6.95814089230E-01
1.10500000000E+09 -5.55074275948E-01 +7.86061690528E-01 +1.41251770335E-05 +1.92854910783E-05 +6.43530361357E-05 +6.80335415465E-05 -6.77681099114E-01 +6.99312136158E-01
1.11000000000E+09 -5.49734002755E-01 +7.89049818302E-01 +8.63058405790E-05 +1.52154412830E-05 +3.45226780832E-05 +2.22650669440E-05 -6.73590337313E-01 +7.02650906613E-01
1.11500000000E+09 -5.43023451035E-01 +7.92905564075E-01 +1.04112983706E-04 -1.84670332404E-05 +1.73056042660E-05 +5.00678520473E-05 -6.69441742744E-01 +7.05883083015E-01
1.12000000000E+09 -5.35357572041E-01 +7.96919521068E-01 +8.84730656210E-05 -1.00057833652E-05 +4.11910085041E-05 -2.08651521770E-05 -6.65541550670E-01 +7.09707534846E-01
1.12500000000E+09 -5.27506151411E-01 +8.01036469377E-01 +6.47268782137E-05 +2.17506508042E-05 +5.55061653760E-05 +4.49871572371E-05 -6.61313018952E-01 +7.13593364823E-01
1.13000000000E+09 -5.20069606555E-01 +8.04725137362E-01 +8.18635646806E-05 -4.71616859348E-07 +7.69643134210E-05 +2.48579777037E-05 -6.56982082853E-01 +7.17426333688E-01
1.13500000000E+09 -5.13454829731E-01 +8.07568327352E-01 +4.24948829367E-05 +3.78075107380E-06 +3.40728310834E-05 +2.86255562821E-05 -6.52279026308E-01 +7.21265271622E-01
1.14000000000E+09 -5.08040778891E-01 +8.10247493969E-01 +4.34748887192E-05 +5.64953656694E-06 +6.90976847008E-05 +3.45501140726E-05 -6.47484268137E-01 +7.24781931126E-01
1.14500000000E+09 -5.03739675001E-01 +8.12158107759E-01 +8.50868282723E-05 +1.67577787931E-05 +2.75978116543E-05 -1.10307756391E-05 -6.42726555894E-01 +7.28208416185E-01
1.15000000000E+09 -5.00075453246E-01 +8.13841354973E-01 +6.52372990442E-05 -4.82805909990E-06 +2.75521389344E-05 -2.26061273488E-05 -6.38277942475E-01 +7.31935210519E-01
1.15500000000E+09 -4.96430128082E-01 +8.15664285349E-01 +3.62133587866E-05 -3.44077611757E-07 +8.37992748057E-05 +3.25802382684E-05 -6.33540640942E-01 +7.35833769203E-01
1.16000000000E+09 -4.92194788185E-01 +8.17700935255E-01 +7.15371212855E-05 +5.02498676645E-06 +7.42863173278E-05 +5.30033758282E-05 -6.28819169060E-01 +7.39637690903E-01
1.16500000000E+09 -4.86833063985E-01 +8.20480998575E-01 +1.20617503252E-04 -1.14227515235E-05 +5.51686588674E-05 -1.28537258422E-05 -6.23844655783E-01 +7.43273908749E-01
1.17000000000E+09 -4.80511564479E-01 +8.23713502418E-01 +7.16459276267E-05 -2.27662727258E-06 +8.88318454820E-05 -8.93042678299E-06 -6.18482715535E-01 +7.46579899962E-01
1.17500000000E+09 -4.73271999499E-01 +8.27218229535E-01 +1.02866232477E-04 -1.79877790235E-05 +1.27448203791E-04 +4.05993758332E-05 -6.12923081843E-01 +7.49731160985E-01
1.18000000000E+09 -4.65477991574E-01 +8.31002452832E-01 +8.61902000136E-05 -2.82207393267E-05 +1.05707593767E-04 -1.52428585938E-05 -6.07504866107E-01 +7.52835235375E-01
1.18500000000E+09 -4.57635301682E-01 +8.34487321912E-01 +1.83726030221E-04 -6.59593736595E-05 +1.36586430055E-04 -6.67897096806E-05 -6.01703625779E-01 +7.55902437927E-01
1.19000000000E+09 -4.50200707944E-01 +8.37203940246E-01 +1.28583176202E-04 -1.15896003553E-04 +1.55623315355E-04 -1.36384567909E-04 -5.95565926662E-01 +7.58458924087E-01
1.19500000000E+09 -4.43580458793E-01 +8.39286321842E-01 +9.18599248451E-05 -1.57360629028E-04 +1.19544326755E-04 -1.79140608125E-04 -5.89746263098E-01 +7.59679217032E-01
1.20000000000E+09 -4.38194069417E-01 +8.40387800767E-01 +2.28987343774E-05 -2.25852104786E-04 +1.30745266314E-05 -2.43322244804E-04 -5.85142361775E-01 +7.59878590831E-01
1.20500000000E+09 -4.33265099032E-01 +8.41827650029E-01 -3.30087620592E-05 -1.47976334157E-04 -4.28567665680E-05 -1.57651866963E-04 -5.82755228990E-01 +7.60853255524E-01
1.21000000000E+09 -4.28673189906E-01 +8.43371843990E-01 -6.85227919370E-05 -1.34730078396E-04 -5.30101532210E-05 -9.70582924680E-05 -5.80757028664E-01 +7.64019606826E-01
1.21500000000E+09 -4.22851908629E-01 +8.45364875208E-01 -3.34391881716E-05 -1.08495302266E-04 +1.50761523759E-05 -1.10937697137E-04 -5.78047396058E-01 +7.68455011291E-01
1.22000000000E+09 -4.15954198758E-01 +8.47698581159E-01 +2.14037217240E-05 -7.35296835775E-05 +2.27967670813E-05 -1.06645321179E-04 -5.73964887483E-01 +7.73974771455E-01
1.22500000000E+09 -4.07634912164E-01 +8.50667245934E-01 +2.72928956841E-05 -1.38196771337E-04 -6.73990055720E-06 -1.29404973719E-04 -5.68832672736E-01 +7.78929267386E-01
1.23000000000E+09 -3.98665142917E-01 +8.54102245626E-01 -6.46784387647E-06 -1.14517101412E-04 +1.47321108182E-05 -1.39152054673E-04 -5.63245882750E-01 +7.83533862621E-01
1.23500000000E+09 -3.89115673474E-01 +8.57924022197E-01 -2.53059626044E-05 -1.20263195780E-04 -2.88944369950E-05 -1.51683650259E-04 -5.57491918893E-01 +7.87989190804E-01
1.24000000000E+09 -3.79492388381E-01 +8.61738229997E-01 -2.11285184412E-05 -1.67176833213E-04 -4.68051777370E-05 -1.05272386879E-04 -5.51566336662E-01 +7.91879310446E-01
1.24500000000E+09 -3.70692161129E-01 +8.65691692287E-01 -1.01203833887E-04 -2.06553038080E-04 -4.93082498940E-05 -1.42136770755E-04 -5.45417545400E-01 +7.95707656408E-01
1.25000000000E+09 -3.62480051451E-01 +8.68850987993E-01 -1.08953083771E-04 -1.72711302785E-04 -7.36305885475E-05 -1.54206483701E-04 -5.38910946097E-01 +7.99889153125E-01
1.25500000000E+09 -3.55506406164E-01 +8.70928532507E-01 -1.21487989742E-04 -1.44291712045E-04 -7.64336018149E-05 -1.61587078973E-04 -5.32297225678E-01 +8.03869984554E-01
1.26000000000E+09 -3.49329261664E-01 +8.72520309797E-01 -1.15949920299E-04 -1.36457166883E-04 -1.04028350352E-04 -1.97461152223E-04 -5.25678365814E-01 +8.08128481037E-01
1.26500000000E+09 -3.43236548377E-01 +8.73582331173E-01 -1.50487156479E-04 -1.88871989866E-04 -1.17040548837E-04 -1.55027269300E-04 -5.18717636943E-01 +8.11919712728E-01
1.27000000000E+09 -3.36875317602E-01 +8.74616480405E-01 -2.41446426027E-04 -2.05381542757E-04 -1.99138413483E-04 -1.86275260224E-04 -5.11733516662E-01 +8.15837379933E-01
1.27500000000E+09 -3.29351442346E-01 +8.76040040311E-01 -2.09852277640E-04 -1.42307815229E-04 -2.47182642924E-04 -1.98300841050E-04 -5.04713928458E-01 +8.19445713127E-01
1.28000000000E+09 -3.20267229142E-01 +8.77842238336E-01 -2.07178948356E-04 -1.07394445375E-04 -2.35163578562E-04 -1.39264428586E-04 -4.97480976244E-01 +8.23148923158E-01
1.28500000000E+09 -3.09259874190E-01 +8.80197062897E-01 -2.96327262800E-04 -1.33811272732E-04 -2.77695098336E-04 -1.24917009958E-04 -4.90038843834E-01 +8.27036652137E-01
1.29000000000E+09 -2.97448379631E-01 +8.83056103551E-01 -2.95049048228E-04 -1.17957050766E-04 -3.23162662821E-04 -8.61432986859E-05 -4.82541526369E-01 +8.30669328346E-01
1.29500000000E+09 -2.85058785067E-01 +8.86352583346E-01 -3.21741167639E-04 -1.14028200015E-04 -3.66771267126E-04 -8.26900006013E-05 -4.74635732544E-01 +8.34300183235E-01
1.30000000000E+09 -2.72992267974E-01 +8.89905419455E-01 -3.83460820229E-04 -4.70477119990E-05 -3.67310413285E-04 -1.47280147920E-05 -4.66726602426E-01 +8.37982063474E-01
1.30500000000E+09 -2.61939218632E-01 +8.92960739100E-01 -4.49767384700E-04 -7.01450484567E-05 -4.05225066770E-04 -2.35922452355E-05 -4.58644817006E-01 +8.41348421883E-01
1.31000000000E+09 -2.52661043067E-01 +8.95106314186E-01 -4.80149170094E-04 +3.71971596368E-05 -4.84083506411E-04 +6.47255537444E-05 -4.50414803712E-01 +8.44926585439E-01
1.31500000000E+09 -2.45150906060E-01 +8.96664127230E-01 -4.82839503402E-04 +1.12523968437E-04 -4.73505460719E-04 +1.07483409976E-04 -4.41736915537E-01 +8.48434604394E-01
1.32000000000E+09 -2.38809983800E-01 +8.97412986300E-01 -4.53612631455E-04 +2.09335918628E-04 -4.39057747703E-04 +1.18571093021E-04 -4.32756241731E-01 +8.51823353086E-01
1.32500000000E+09 -2.33098106684E-01 +8.97587553559E-01 -4.48370918362E-04 +1.52649326151E-04 -4.95160884287E-04 +2.00683868878E-04 -4.23313430955E-01 +8.55148264256E-01
1.33000000000E+09 -2.26266877822E-01 +8.97722863946E-01 -5.52684081235E-04 +2.45375673086E-04 -5.25800937485E-04 +3.00384004283E-04 -4.13786069864E-01 +8.58413759566E-01
1.33500000000E+09 -2.17619028484E-01 +8.97608056346E-01 -5.41063760558E-04 +3.22802024874E-04 -5.49902622089E-04 +4.10702889905E-04 -4.04032461370E-01 +8.61590008761E-01
1.34000000000E+09 -2.06617765627E-01 +8.97810765387E-01 -5.35537534506E-04 +4.75008188137E-04 -4.79172660135E-04 +4.72226539822E-04 -3.93798742105E-01 +8.64912511198E-01
1.34500000000E+09 -1.92918081989E-01 +8.98137765738E-01 -4.72892278171E-04 +6.42417887022E-04 -4.29317113794E-04 +5.67949291562E-04 -3.83046126181E-01 +8.68244167408E-01
1.35000000000E+09 -1.77252145852E-01 +8.98793523189E-01 -3.78288243946E-04 +6.64223408398E-04 -3.53599315612E-04 +6.18574906137E-04 -3.71818915611E-01 +8.71319318058E-01
1.35500000000E+09 -1.60451181127E-01 +8.99464413392E-01 -3.39384668330E-04 +7.12770264710E-04 -3.49701063287E-04 +6.85709365964E-04 -3.60148978544E-01 +8.74240827954E-01
1.36000000000E+09 -1.43561233737E-01 +8.99993282587E-01 -2.77333180956E-04 +7.95477354441E-04 -2.60501353758E-04 +7.75661296689E-04 -3.48440058169E-01 +8.76990334856E-01
1.36500000000E+09 -1.27470387422E-01 +9.00265076238E-01 -1.94707321568E-04 +8.94121923852E-04 -2.36624415707E-04 +8.19188724616E-04 -3.36233927461E-01 +8.79452666035E-01
1.37000000000E+09 -1.13143519314E-01 +9.00060170561E-01 -7.97018022402E-05 +9.78229147514E-04 -1.54299964580E-04 +9.00658565745E-04 -3.23376702504E-01 +8.82018499182E-01
1.37500000000E+09 -1.00761040360E-01 +8.99469285180E-01 +7.24960538433E-05 +1.02052271436E-03 -4.95936872575E-05 +1.00299364469E-03 -3.09523854818E-01 +8.84337782754E-01
1.38000000000E+09 -8.94639266080E-02 +8.98426510754E-01 +1.15989148485E-04 +1.02136920414E-03 +1.74598073273E-05 +1.11695888922E-03 -2.94703130059E-01 +8.86437782045E-01
1.38500000000E+09 -7.79158388970E-02 +8.96851737403E-01 +2.00399853332E-04 +1.12742133114E-03 +1.03419509965E-04 +1.27922873603E-03 -2.79243778331E-01 +8.88547549420E-01
1.39000000000E+09 -6.58380729156E-02 +8.94557967635E-01 +3.81515535050E-04 +1.23218631974E-03 +4.24830604329E-04 +1.43762785508E-03 -2.63362801425E-01 +8.89998889653E-01
1.39500000000E+09 -5.16788405635E-02 +8.91602543550E-01 +5.67359716606E-04 +1.24918321537E-03 +7.43242256776E-04 +1.34695694096E-03 -2.46873464766E-01 +8.90625104723E-01
1.40000000000E+09 -3.47130347045E-02 +8.87841840073E-01 +7.24824671744E-04 +1.32662767726E-03 +8.58748278753E-04 +1.27306737049E-03 -2.29336334645E-01 +8.91112484911E-01
1.40500000000E+09 -1.57088039508E-02 +8.83246273386E-01 +1.02420827661E-03 +1.36803681491E-03 +1.03701520135E-03 +1.28980429920E-03 -2.10937520574E-01 +8.90982321671E-01
1.41000000000E+09 +5.25159188450E-03 +8.77992205201E-01 +1.31314000807E-03 +1.31982841418E-03 +1.29768657787E-03 +1.29217565338E-03 -1.90693808498E-01 +8.90361311945E-01
1.41500000000E+09 +2.76657118714E-02 +8.71853174538E-01 +1.67918126782E-03 +1.22002303273E-03 +1.61446554754E-03 +1.32965781699E-03 -1.69113552730E-01 +8.88846038375E-01
1.42000000000E+09 +5.01797491798E-02 +8.64702693388E-01 +1.82677562416E-03 +1.01209114049E-03 +1.98387776501E-03 +1.12078627123E-03 -1.46115899581E-01 +8.86266591615E-01
1.42500000000E+09 +7.20714895982E-02 +8.56794388068E-01 +2.07012983240E-03 +9.68607410760E-04 +2.33831468436E-03 +9.63130126757E-04 -1.22479923150E-01 +8.82397238723E-01
1.43000000000E+09 +9.32070701430E-02 +8.47462909284E-01 +2.51453597763E-03 +8.48944182757E-04 +2.79654169426E-03 +6.40792160808E-04 -9.79559660365E-02 +8.77826684605E-01
1.43500000000E+09 +1.13639637936E-01 +8.36657487078E-01 +3.09342782300E-03 +4.02278042570E-04 +3.21904784611E-03 +1.42848249311E-04 -7.15584822267E-02 +8.71081837063E-01
1.44000000000E+09 +1.34413994983E-01 +8.24783471279E-01 +3.37440081687E-03 -3.82753803948E-04 +3.34240403794E-03 -6.29191117410E-04 -4.36058149131E-02 +8.62437636919E-01
1.44500000000E+09 +1.57014526457E-01 +8.09849837510E-01 +3.34698070261E-03 -1.05693715629E-03 +3.30934595155E-03 -1.24905599928E-03 -1.35206979495E-02 +8.50932039268E-01
1.45000000000E+09 +1.81202852400E-01 +7.91717332258E-01 +3.18581222507E-03 -1.45546501556E-03 +3.16777721055E-03 -1.74092671841E-03 +1.80740111834E-02 +8.36611091827E-01
1.45500000000E+09 +2.07555194359E-01 +7.69972779605E-01 +3.28862232849E-03 -1.80982209774E-03 +3.12462701475E-03 -2.09950055626E-03 +5.12438686413E-02 +8.19312366359E-01
1.46000000000E+09 +2.36581719456E-01 +7.44113060498E-01 +3.61782581847E-03 -2.43040611775E-03 +3.28151328240E-03 -2.64250892155E-03 +8.59468525113E-02 +7.97576450304E-01
1.46500000000E+09 +2.66975954593E-01 +7.13492742479E-01 +3.88322097157E-03 -3.56175130476E-03 +3.36220249787E-03 -3.49287633174E-03 +1.21520141768E-01 +7.71023685417E-01
1.47000000000E+09 +2.97828060904E-01 +6.78529185695E-01 +3.45688022327E-03 -5.13717606596E-03 +3.19580003981E-03 -4.71676168050E-03 +1.58102110148E-01 +7.37281344918E-01
1.47500000000E+09 +3.27977545378E-01 +6.38437018289E-01 +2.28539662410E-03 -6.42586024680E-03 +2.39103764105E-03 -6.06906601791E-03 +1.94284520550E-01 +6.97000522865E-01
1.48000000000E+09 +3.55878256651E-01 +5.92124494253E-01 +9.70863406357E-04 -7.21774244384E-03 +1.20910084978E-03 -7.21467204603E-03 +2.30634708479E-01 +6.48231365697E-01
1.48500000000E+09 +3.78638846706E-01 +5.39314828266E-01 -4.99963058969E-04 -8.04767891556E-03 -5.86544017799E-04 -8.25095157941E-03 +2.64052873518E-01 +5.90524767485E-01
1.49000000000E+09 +3.96376574728E-01 +4.79418556012E-01 -2.40513298240E-03 -8.53630446279E-03 -2.81331299801E-03 -8.42614837707E-03 +2.92706927618E-01 +5.22234447186E-01
1.49500000000E+09 +4.05952726834E-01 +4.11758072191E-01 -4.99279841980E-03 -8.44566441737E-03 -5.12712901713E-03 -7.84571612284E-03 +3.11089630941E-01 +4.44010749411E-01
1.50000000000E+09 +4.06383260291E-01 +3.35088415642E-01 -7.36350231485E-03 -7.70670762084E-03 -6.93686682749E-03 -7.23506065345E-03 +3.17466894984E-01 +3.56932837231E-01
1.50500000000E+09 +3.93961456097E-01 +2.50467349318E-01 -9.85255975876E-03 -6.06002049550E-03 -9.30030548129E-03 -6.04936549422E-03 +3.08686061067E-01 +2.61680119584E-01
1.51000000000E+09 +3.65861319131E-01 +1.60971782586E-01 -1.17072276868E-02 -3.07932693322E-03 -1.14917495814E-02 -3.55405852168E-03 +2.78755878166E-01 +1.60221137337E-01
1.51500000000E+09 +3.19349556165E-01 +7.03383838618E-02 -1.27695877017E-02 -2.59194594545E-04 -1.28699766663E-02 -6.17441859904E-04 +2.24904890876E-01 +6.44395213636E-02
1.52000000000E+09 +2.52539680344E-01 -1.26750013784E-02 -1.36841602842E-02 +3.43160109060E-03 -1.38433692488E-02 +3.25598629194E-03 +1.52215713510E-01 -2.16505442626E-02
1.52500000000E+09 +1.69114948288E-01 -8.17676166952E-02 -1.16872481178E-02 +8.84544609914E-03 -1.18765842969E-02 +8.79616755503E-03 +6.02793849273E-02 -9.22652937227E-02
1.53000000000E+09 +7.09759015874E-02 -1.32031596473E-01 -7.49042931785E-03 +1.06380974561E-02 -7.53082110642E-03 +1.06891126962E-02 -4.57489467647E-02 -1.39253969489E-01
1.53500000000E+09 -3.62173581453E-02 -1.57234617386E-01 -4.70912701560E-03 +1.19401515427E-02 -4.70449070660E-03 +1.19381954056E-02 -1.56201015401E-01 -1.62455235606E-01
1.54000000000E+09 -1.44926428687E-01 -1.56885551265E-01 -1.33003247906E-03 +1.19295809621E-02 -1.42207177374E-03 +1.18270199654E-02 -2.65066300520E-01 -1.61851186640E-01
1.54500000000E+09 -2.47519266395E-01 -1.34038755192E-01 +2.06438145453E-03 +1.14505012397E-02 +1.76539615782E-03 +1.13552047509E-02 -3.64857947389E-01 -1.41943302079E-01
1.55000000000E+09 -3.41114000273E-01 -9.39903753058E-02 +4.06396992680E-03 +9.89150294456E-03 +3.66044497654E-03 +1.00409311561E-02 -4.52944153077E-01 -1.05926727847E-01
1.55500000000E+09 -4.21301141995E-01 -3.98577802927E-02 +6.54710028082E-03 +8.00782333765E-03 +6.33816629400E-03 +8.46971643133E-03 -5.25608992514E-01 -5.91028860582E-02
1.56000000000E+09 -4.85167065355E-01 +1.86987432848E-02 +7.48351885747E-03 +5.02664523440E-03 +7.59875427898E-03 +5.53434685883E-03 -5.84909189076E-01 -6.16189232316E-03
1.56500000000E+09 -5.36558411322E-01 +7.89395918776E-02 +7.19102475255E-03 +3.19586564980E-03 +7.53687022757E-03 +3.51931629014E-03 -6.30226573262E-01 +5.02453536632E-02
1.57000000000E+09 -5.75340929764E-01 +1.37868381338E-01 +6.86492533643E-03 +1.51865553453E-03 +7.31225184563E-03 +1.59696546798E-03 -6.64815279526E-01 +1.04673257588E-01
