# Hz S RI R 50
! CMT, C1220, 16058040, 17.2.0/1
! Date: 14/08/2018 12:30:40
! Data: Format (Calibration Info)
! Freq                      S11: Re/Im (F2)                       S21: Re/Im (F2)                       S12: Re/Im (F2)                       S22: Re/Im (F2)            
1.00000000000E+09 -6.28008512641E-01 +7.09368495788E-01 -1.74216612605E-05 +9.72424166272E-06 +5.34295851434E-05 +3.92838967942E-05 -7.53090266616E-01 +6.23865550833E-01
1.00500000000E+09 -6.21048558505E-01 +7.14364226762E-01 +1.57692654261E-05 +5.95820473237E-07 -1.92919310691E-05 +7.30751045216E-06 -7.49658156318E-01 +6.28091734933E-01
1.01000000000E+09 -6.15053749392E-01 +7.18974979663E-01 +1.46855887934E-05 +3.71930250660E-05 -2.62676924360E-05 -1.15500060359E-05 -7.46041799152E-01 +6.31721826708E-01
1.01500000000E+09 -6.10850526862E-01 +7.22797417138E-01 -3.29663080819E-05 +1.59990388166E-05 +1.90843668267E-05 +3.68147926891E-05 -7.42928077124E-01 +6.35301405068E-01
1.02000000000E+09 -6.07858136236E-01 +7.25836167393E-01 -1.94460690948E-05 +2.13923173347E-05 -2.50004565094E-05 +3.06220226928E-05 -7.39637836734E-01 +6.38901782091E-01
1.02500000000E+09 -6.05876496486E-01 +7.28551132775E-01 -1.44583412787E-05 -2.79613904349E-06 +2.71359994575E-05 +3.46945317148E-05 -7.36725916642E-01 +6.42470605917E-01
1.03000000000E+09 -6.04415210533E-01 +7.30586836113E-01 +2.46442259951E-05 -5.01730392455E-05 +3.06675219764E-06 -8.02794513459E-06 -7.33273502451E-01 +6.46204383775E-01
1.03500000000E+09 -6.02025817850E-01 +7.32811245198E-01 +1.21010676993E-05 +2.61725022814E-05 -3.88704672935E-05 +3.51282757181E-05 -7.29456802503E-01 +6.50104742699E-01
1.04000000000E+09 -5.98496198320E-01 +7.35398148762E-01 -4.31813860321E-05 +6.20763818759E-06 -6.39428822296E-05 +6.69302434825E-06 -7.25819301705E-01 +6.53994494943E-01
1.04500000000E+09 -5.93071534371E-01 +7.38665829658E-01 -3.31450886753E-05 -1.30222402232E-05 -1.85625307587E-05 +4.09748978342E-05 -7.22100093462E-01 +6.57355528930E-01
1.05000000000E+09 -5.86013092527E-01 +7.42685843976E-01 +2.16756567719E-06 +1.39809864885E-05 +5.33232117489E-06 +2.26866324911E-05 -7.18781067223E-01 +6.60940384896E-01
1.05500000000E+09 -5.77605836069E-01 +7.47496256285E-01 +8.15823056899E-06 -1.73735979112E-05 +3.52302518072E-05 +5.19470958590E-06 -7.15423895945E-01 +6.64463992781E-01
1.06000000000E+09 -5.68547490883E-01 +7.52596233236E-01 -4.94907216736E-06 +5.97499298408E-05 -1.41261980441E-05 +5.78322636377E-05 -7.12229239449E-01 +6.68112503481E-01
1.06500000000E+09 -5.59658388790E-01 +7.57866520760E-01 -1.31715009887E-05 -7.67980331863E-06 -4.63511629542E-05 +6.40109286218E-05 -7.08270816093E-01 +6.72080798800E-01
1.07000000000E+09 -5.52088468121E-01 +7.62376035142E-01 +3.78187317801E-05 +5.55526321019E-05 +3.74483272997E-05 +2.88437772749E-05 -7.04231564296E-01 +6.75982496317E-01
1.07500000000E+09 -5.45903932030E-01 +7.66575124059E-01 +1.79917027340E-06 +6.17134091331E-05 -8.14856758935E-06 +1.55763115197E-06 -6.99933299302E-01 +6.79420006331E-01
1.08000000000E+09 -5.41405400911E-01 +7.69701449548E-01 +1.28747621559E-05 +1.99265628207E-05 +4.13781129184E-05 -2.83800882425E-05 -6.96042071677E-01 +6.83274946493E-01
1.08500000000E+09 -5.38600475996E-01 +7.72190197210E-01 -4.31042052109E-05 +6.20075128817E-06 +3.34374325375E-05 -1.67270725591E-06 -6.92292821472E-01 +6.86950898256E-01
1.09000000000E+09 -5.36435776658E-01 +7.74171025819E-01 -5.04404771185E-06 +2.03159722590E-05 +1.05771929308E-04 +1.59666334397E-05 -6.88457414027E-01 +6.90743575068E-01
1.09500000000E+09 -5.34690235508E-01 +7.75841951437E-01 +2.20050012766E-06 +2.97199739183E-06 +5.75389400417E-05 +2.08673853570E-05 -6.84852323313E-01 +6.94526077270E-01
1.10000000000E+09 -5.31787903621E-01 +7.77743636709E-01 +4.18195139297E-05 +1.43550011144E-06 -1.60231784488E-05 +1.46093368033E-05 -6.80751989449E-01 +6.98317874306E-01
1.10500000000E+09 -5.27803145987E-01 +7.80100945954E-01 +2.41959293485E-05 -6.20467815904E-06 +3.65823600311E-05 +6.54777772230E-06 -6.76460088019E-01 +7.01857416039E-01
1.11000000000E+09 -5.22259229322E-01 +7.83106403693E-01 +6.28558520739E-05 +3.16242042411E-05 -3.08294183200E-06 +2.54627955772E-05 -6.72277321966E-01 +7.05142740808E-01
1.11500000000E+09 -5.15493729310E-01 +7.86898538849E-01 +6.15279964327E-06 +3.87082914272E-05 +1.17771748944E-05 +2.27366617039E-05 -6.68197342300E-01 +7.08541182116E-01
1.12000000000E+09 -5.07778065501E-01 +7.90885643443E-01 +2.93293308990E-05 +3.23854577717E-05 +2.81019254693E-05 +2.08880020801E-05 -6.64342434997E-01 +7.12161966055E-01
1.12500000000E+09 -4.99928350549E-01 +7.94972958081E-01 +1.91879847689E-05 +3.62923266614E-05 +1.71741792858E-05 +5.35440991415E-05 -6.60052787736E-01 +7.16382909418E-01
1.13000000000E+09 -4.92616682670E-01 +7.98532010032E-01 +5.20047039255E-06 -2.67536265287E-05 +1.05215332504E-05 -9.63140857922E-06 -6.55796754603E-01 +7.20094983229E-01
1.13500000000E+09 -4.86079284516E-01 +8.01237283662E-01 +4.23331393794E-05 +3.19883006533E-05 +3.19788119170E-05 +7.35980142037E-06 -6.50988526183E-01 +7.24048193900E-01
1.14000000000E+09 -4.80950913451E-01 +8.03656591354E-01 +3.71505485263E-05 -1.02851991924E-07 +5.61288574661E-05 -1.94286723934E-05 -6.46313900308E-01 +7.27395524692E-01
1.14500000000E+09 -4.76643545290E-01 +8.05177465675E-01 +7.34410308566E-05 -2.56485649588E-06 -1.07501456092E-05 -1.60322667919E-05 -6.41589908846E-01 +7.30930919730E-01
1.15000000000E+09 -4.72687854279E-01 +8.06473594724E-01 +2.42476541558E-05 +2.02028230223E-05 +7.40364717759E-05 +2.37403698747E-05 -6.36949968577E-01 +7.34805433053E-01
1.15500000000E+09 -4.68942657015E-01 +8.08107148559E-01 +6.93804548415E-05 +6.46850510929E-08 +4.47578757940E-05 -3.37885966103E-05 -6.32201179625E-01 +7.38505212286E-01
1.16000000000E+09 -4.64219685183E-01 +8.09682507171E-01 +3.22956438367E-05 -5.72511694196E-06 +8.71452997949E-06 +2.01182499710E-05 -6.27497607201E-01 +7.42374707028E-01
1.16500000000E+09 -4.58483583461E-01 +8.12217642586E-01 +3.75834842818E-05 -9.30441750264E-06 +6.49455590912E-05 -2.15831980165E-05 -6.22432980005E-01 +7.45821073079E-01
1.17000000000E+09 -4.51746105633E-01 +8.15191622595E-01 +1.49753026383E-05 -1.11520687165E-06 +4.70961634511E-05 -3.06768603395E-05 -6.17073803795E-01 +7.49281040349E-01
1.17500000000E+09 -4.44256025321E-01 +8.18594378317E-01 +2.27550226496E-05 -1.74326110291E-05 +7.32322731798E-05 -8.86940664749E-06 -6.11493884943E-01 +7.52373178608E-01
1.18000000000E+09 -4.36426480321E-01 +8.22134725029E-01 +6.50030178153E-05 -6.70391854877E-05 +4.61465483155E-05 -3.87375697503E-05 -6.05941096433E-01 +7.55474350671E-01
1.18500000000E+09 -4.28692807053E-01 +8.25406742942E-01 +4.35719151284E-05 -7.82480451926E-05 +6.75766133679E-05 -7.15407773295E-05 -6.00019868523E-01 +7.58477820412E-01
1.19000000000E+09 -4.21600339799E-01 +8.27938305149E-01 +5.13570849636E-05 -7.61789597486E-05 +5.03336038351E-05 -9.67621566582E-05 -5.93961806666E-01 +7.61021133027E-01
1.19500000000E+09 -4.15483540843E-01 +8.29943358855E-01 +6.22744943343E-05 -8.81512321358E-05 +5.02965092781E-05 -9.33700008781E-05 -5.87930847029E-01 +7.62224999771E-01
1.20000000000E+09 -4.10317074499E-01 +8.30681240613E-01 -1.30267599587E-05 -1.37851498497E-04 -8.46878844209E-06 -1.07941701226E-04 -5.83613892834E-01 +7.62420808380E-01
1.20500000000E+09 -4.05631703767E-01 +8.31692982429E-01 -4.66846850861E-05 -9.13270313962E-05 -9.09044661615E-05 -1.37743539835E-04 -5.81245200760E-01 +7.63406875023E-01
1.21000000000E+09 -4.00496670776E-01 +8.32613204048E-01 -9.54456452964E-05 -9.85576745453E-05 -5.58575059198E-05 -3.59154258712E-05 -5.79355973618E-01 +7.66679272836E-01
1.21500000000E+09 -3.94235130745E-01 +8.33919645300E-01 -4.41950937951E-05 -1.79255313011E-05 -4.86076761000E-05 -3.69931073873E-05 -5.76477689235E-01 +7.71163709450E-01
1.22000000000E+09 -3.86442590619E-01 +8.35782208792E-01 -8.73524415571E-05 -5.21865270762E-05 -3.68875251362E-05 -4.37259981453E-05 -5.72162686470E-01 +7.76522416195E-01
1.22500000000E+09 -3.77353432310E-01 +8.38222276700E-01 +8.64777884941E-06 -1.62513290632E-05 -2.03094135895E-05 -8.86765683425E-05 -5.67066515084E-01 +7.81756407070E-01
1.23000000000E+09 -3.67207709620E-01 +8.41336592518E-01 -2.40314515462E-05 -7.77506140213E-05 -1.35896978478E-05 -2.07008045234E-05 -5.61326869447E-01 +7.86459312637E-01
1.23500000000E+09 -3.56719079058E-01 +8.45008478204E-01 -2.23925021950E-05 -8.27329371021E-05 -9.46370530855E-06 -2.98275286115E-05 -5.55609081817E-01 +7.90649359430E-01
1.24000000000E+09 -3.46525759924E-01 +8.48789948625E-01 -4.69943540608E-06 -4.03711114295E-05 -6.18433384704E-05 -9.15786976653E-05 -5.49593000632E-01 +7.94396080922E-01
1.24500000000E+09 -3.37422672847E-01 +8.52767883260E-01 -2.96859048679E-05 -9.35317359743E-05 -9.73945657139E-05 -6.28540576342E-05 -5.43317204626E-01 +7.98211401037E-01
1.25000000000E+09 -3.29409503625E-01 +8.56007585693E-01 -6.63355971224E-05 -6.53342606022E-05 -6.52865194178E-05 -3.83815486765E-05 -5.36912159233E-01 +8.02538061553E-01
1.25500000000E+09 -3.22482577448E-01 +8.58195820101E-01 -4.92046827033E-05 -6.60037602222E-06 -6.84123486264E-05 -7.81304856145E-05 -5.30107644160E-01 +8.06490626692E-01
1.26000000000E+09 -3.16835250503E-01 +8.59560864134E-01 -9.39276606010E-05 -6.15323183489E-05 -7.92938391056E-05 -2.17150211210E-06 -5.23379361844E-01 +8.10785563688E-01
1.26500000000E+09 -3.11367818339E-01 +8.60261112865E-01 -4.51959581556E-05 +1.89633854046E-05 -9.03459717634E-05 +6.44164975380E-06 -5.16570046823E-01 +8.14537949667E-01
1.27000000000E+09 -3.05580441252E-01 +8.60774517676E-01 -8.39718751123E-05 -2.71957526489E-05 -9.79225417154E-05 +9.20593223151E-06 -5.09540065258E-01 +8.18255568931E-01
1.27500000000E+09 -2.98255580694E-01 +8.61320447696E-01 -6.23168018132E-05 -2.61405178617E-05 -9.88698009379E-05 -3.71641392722E-05 -5.02561821056E-01 +8.21868720981E-01
1.28000000000E+09 -2.89338421378E-01 +8.62250031338E-01 -9.35524075663E-05 -1.18847838046E-05 -1.19280641187E-04 -4.98483822824E-05 -4.95422990729E-01 +8.25410461455E-01
1.28500000000E+09 -2.78361690140E-01 +8.63944064982E-01 -7.71518926235E-05 +8.28014334810E-06 -9.99704783532E-05 -4.64211316492E-06 -4.88002627593E-01 +8.29226639821E-01
1.29000000000E+09 -2.66303360770E-01 +8.66435690341E-01 -7.11540520913E-05 +1.56048215109E-05 -5.55272286927E-05 +7.32490641800E-06 -4.80307859691E-01 +8.33007202086E-01
1.29500000000E+09 -2.53980157718E-01 +8.69531062086E-01 -1.23947434827E-04 -4.00814278621E-06 -4.29177629831E-05 -1.59477394328E-06 -4.72301682173E-01 +8.36577210406E-01
1.30000000000E+09 -2.41844793239E-01 +8.73083389306E-01 -7.49331187732E-05 +2.49945073787E-06 -9.91961623182E-05 +1.56163619448E-05 -4.64593633947E-01 +8.40048335094E-01
1.30500000000E+09 -2.30739863988E-01 +8.76349405181E-01 -7.83530454262E-05 +1.48256965199E-05 -1.22440991843E-04 +1.70115028315E-05 -4.56503866289E-01 +8.43594292238E-01
1.31000000000E+09 -2.21117398632E-01 +8.78585895307E-01 -9.91306521820E-05 +6.23396381766E-05 -8.01423584202E-05 +4.13826989868E-05 -4.48262424515E-01 +8.47108893503E-01
1.31500000000E+09 -2.13563914958E-01 +8.79899372873E-01 -1.38610566298E-04 +1.26730147804E-05 -8.39673575343E-05 +4.66046333485E-05 -4.39468512515E-01 +8.50537189166E-01
1.32000000000E+09 -2.07516708174E-01 +8.80223274618E-01 -9.56376177909E-05 +8.55091305926E-05 -1.51578648298E-04 +2.40227177806E-05 -4.30319059766E-01 +8.53894972353E-01
1.32500000000E+09 -2.01882507242E-01 +8.79622523975E-01 -1.34328408605E-04 -3.27530657245E-05 -1.44120077214E-04 +3.57445313965E-06 -4.20925259461E-01 +8.57189588437E-01
1.33000000000E+09 -1.95421294916E-01 +8.78660428934E-01 -1.60595666969E-04 +4.09023149695E-05 -1.08149544086E-04 +4.64371117829E-05 -4.11329090812E-01 +8.60387585567E-01
1.33500000000E+09 -1.87079792198E-01 +8.77507958686E-01 -1.86546423923E-04 +7.00068322263E-05 -1.45425828066E-04 +9.76715757291E-05 -4.01601837445E-01 +8.63622168514E-01
1.34000000000E+09 -1.76309418100E-01 +8.76571702246E-01 -1.69238182482E-04 +1.18032792029E-04 -1.44620231288E-04 +1.46490933561E-04 -3.91514200663E-01 +8.66860098020E-01
1.34500000000E+09 -1.63096310474E-01 +8.75852569683E-01 -1.66738292339E-04 +1.74107013131E-04 -1.10349511658E-04 +1.51848822803E-04 -3.80578050193E-01 +8.70036359862E-01
1.35000000000E+09 -1.47958272768E-01 +8.75986479904E-01 -1.19278085271E-04 +2.10967981676E-04 -9.29822115320E-05 +1.60668730725E-04 -3.69365861218E-01 +8.73199279727E-01
1.35500000000E+09 -1.31580239736E-01 +8.76725986990E-01 -1.53618324574E-04 +1.49978243904E-04 -1.21602320415E-04 +1.96807313076E-04 -3.57567164875E-01 +8.76069395732E-01
1.36000000000E+09 -1.15082241624E-01 +8.77706650333E-01 -1.32013125608E-04 +2.22656803596E-04 -1.37272334562E-04 +2.33248492871E-04 -3.45643466130E-01 +8.78781940324E-01
1.36500000000E+09 -9.93833270629E-02 +8.78579049736E-01 -1.29318825045E-04 +2.75405252805E-04 -5.76785519359E-05 +2.70779469401E-04 -3.33471982595E-01 +8.81246369822E-01
1.37000000000E+09 -8.52088225022E-02 +8.78710712091E-01 -3.49807751968E-05 +3.32704497057E-04 -7.50711612617E-05 +2.82399031427E-04 -3.20582537547E-01 +8.83675580849E-01
1.37500000000E+09 -7.31183065405E-02 +8.78174183174E-01 +5.13915635864E-06 +3.60042213842E-04 -3.75267767820E-05 +3.70520853971E-04 -3.07045094668E-01 +8.85811414633E-01
1.38000000000E+09 -6.24464280741E-02 +8.76772094695E-01 +1.17171654879E-04 +3.77137380508E-04 +6.60002454825E-05 +3.66133608952E-04 -2.92301350859E-01 +8.87994011026E-01
1.38500000000E+09 -5.15182878378E-02 +8.74657590452E-01 +2.13380955376E-04 +3.35484612679E-04 +1.58049579121E-04 +3.79724302704E-04 -2.76836228149E-01 +8.89827631278E-01
1.39000000000E+09 -3.98895898065E-02 +8.71490681284E-01 +1.83726152805E-04 +3.13368467993E-04 +2.32789289925E-04 +3.01506599725E-04 -2.61068392410E-01 +8.91321064016E-01
1.39500000000E+09 -2.63696784721E-02 +8.67589700597E-01 +2.05460356953E-04 +2.61590645038E-04 +2.56175180756E-04 +2.85989755157E-04 -2.44260602404E-01 +8.91992885292E-01
1.40000000000E+09 -1.01914690214E-02 +8.62936329629E-01 +1.91327703819E-04 +2.86152078813E-04 +2.40842776631E-04 +2.68447231674E-04 -2.26946556750E-01 +8.92337693117E-01
1.40500000000E+09 +8.38078589124E-03 +8.57875964188E-01 +2.83764116964E-04 +3.42950621619E-04 +3.40803302948E-04 +3.49228931253E-04 -2.08588569287E-01 +8.92074470482E-01
1.41000000000E+09 +2.86280881979E-02 +8.52577964374E-01 +4.20825845158E-04 +3.17796786688E-04 +3.94497906901E-04 +3.55516168476E-04 -1.88698590028E-01 +8.91323432006E-01
1.41500000000E+09 +5.02660196043E-02 +8.46950867557E-01 +4.74725983741E-04 +2.99544451198E-04 +4.96272544085E-04 +3.19702179665E-04 -1.67094640083E-01 +8.89950507589E-01
1.42000000000E+09 +7.24942219533E-02 +8.41030545825E-01 +5.40804374924E-04 +1.40647770828E-04 +6.13122039362E-04 +1.42277232225E-04 -1.44406689334E-01 +8.87302208004E-01
1.42500000000E+09 +9.40490201911E-02 +8.33820371273E-01 +5.14374751726E-04 +1.27670138570E-04 +5.47942708940E-04 +1.30068423986E-04 -1.20917156150E-01 +8.83708051587E-01
1.43000000000E+09 +1.14402496855E-01 +8.25118033447E-01 +6.95662373371E-04 +1.57873417115E-04 +7.08781447950E-04 +1.11220242431E-04 -9.63281140820E-02 +8.79178033342E-01
1.43500000000E+09 +1.33782951212E-01 +8.14964689671E-01 +6.93661244403E-04 -6.31966645376E-05 +7.29441014307E-04 -2.12352933679E-04 -7.01617616252E-02 +8.72780641063E-01
1.44000000000E+09 +1.53543351602E-01 +8.02959236691E-01 +6.24604251864E-04 -2.07901999575E-04 +5.62183348329E-04 -2.17267587215E-04 -4.21139347662E-02 +8.64433683364E-01
1.44500000000E+09 +1.74422588497E-01 +7.87695330507E-01 +7.04454412455E-04 -1.36586442347E-04 +7.54861536511E-04 -2.07521893346E-04 -1.17300109411E-02 +8.53232807334E-01
1.45000000000E+09 +1.97031961597E-01 +7.69265468171E-01 +7.19415902801E-04 -3.34388101492E-04 +7.23912597201E-04 -3.88356776667E-04 +2.00609440329E-02 +8.38792300165E-01
1.45500000000E+09 +2.21862695206E-01 +7.47340754602E-01 +7.93456589627E-04 -3.75073907877E-04 +7.94179285108E-04 -4.38371764182E-04 +5.34433628101E-02 +8.21390478653E-01
1.46000000000E+09 +2.49495886806E-01 +7.21327118793E-01 +9.75030120383E-04 -6.05893962088E-04 +8.86801837550E-04 -7.01924704115E-04 +8.80401363792E-02 +8.00162601714E-01
1.46500000000E+09 +2.78394514903E-01 +6.91625077632E-01 +8.90566124090E-04 -1.08907416417E-03 +7.48371575811E-04 -1.07062101723E-03 +1.24241206272E-01 +7.73745353908E-01
1.47000000000E+09 +3.08851377768E-01 +6.58373907487E-01 +5.36689153803E-04 -1.34347601156E-03 +4.19076707530E-04 -1.21357182394E-03 +1.60930211837E-01 +7.40830163992E-01
1.47500000000E+09 +3.38990859863E-01 +6.19911302001E-01 +1.50605005517E-04 -1.40386172001E-03 +1.70360610133E-04 -1.36291763894E-03 +1.98969925408E-01 +7.00740715264E-01
1.48000000000E+09 +3.66972218450E-01 +5.75559359820E-01 +4.99636406477E-05 -1.22816202755E-03 +1.07368627932E-04 -1.19803432056E-03 +2.36227166916E-01 +6.51284313981E-01
1.48500000000E+09 +3.90202921828E-01 +5.25051036387E-01 +6.77329339316E-05 -1.53451663260E-03 +2.33835494978E-05 -1.55671417747E-03 +2.70839511575E-01 +5.92647111775E-01
1.49000000000E+09 +4.07939218101E-01 +4.67282045699E-01 -4.23285055519E-04 -1.85947474329E-03 -4.83430571000E-04 -1.82184598097E-03 +3.00012403379E-01 +5.23082303406E-01
1.49500000000E+09 +4.17706647330E-01 +4.01433339779E-01 -7.47204895289E-04 -1.84819586522E-03 -7.90396074193E-04 -1.78621422398E-03 +3.19523912177E-01 +4.43209498851E-01
1.50000000000E+09 +4.18652277717E-01 +3.27020471098E-01 -1.46322846521E-03 -2.29724331067E-03 -1.37903515185E-03 -2.14628925296E-03 +3.25831650372E-01 +3.52953495499E-01
1.50500000000E+09 +4.07807686935E-01 +2.43269000278E-01 -2.90389363512E-03 -1.68263492013E-03 -2.75304850909E-03 -1.71580022800E-03 +3.14999056585E-01 +2.56208076716E-01
1.51000000000E+09 +3.80002198282E-01 +1.53454336235E-01 -3.02206340837E-03 +1.15749468940E-06 -2.99883522536E-03 -1.05298140747E-04 +2.84465480586E-01 +1.54176993723E-01
1.51500000000E+09 +3.34591779914E-01 +6.35008370315E-02 -2.72285381881E-03 +3.98479143005E-04 -2.75605573309E-03 +3.53164022126E-04 +2.29552560159E-01 +5.46902258876E-02
1.52000000000E+09 +2.69582677881E-01 -2.09251310295E-02 -2.63056967807E-03 +1.26475642330E-03 -2.69587382408E-03 +1.25177120838E-03 +1.52196289710E-01 -3.28818455319E-02
1.52500000000E+09 +1.86483184510E-01 -9.20152587566E-02 -1.68133917169E-03 +1.85004549219E-03 -1.72172302753E-03 +1.93107080613E-03 +5.62911695743E-02 -1.02354956401E-01
1.53000000000E+09 +8.68053229324E-02 -1.42487809959E-01 -1.41354274070E-03 +1.50196020228E-03 -1.39993216962E-03 +1.54182453283E-03 -5.24579128772E-02 -1.48311600375E-01
1.53500000000E+09 -2.11929948223E-02 -1.66684072567E-01 -1.73626292603E-03 +2.32880592410E-03 -1.69659060256E-03 +2.36035469176E-03 -1.66460709793E-01 -1.68454234242E-01
1.54000000000E+09 -1.30932936189E-01 -1.64281472349E-01 -5.99234502223E-04 +3.24086820212E-03 -6.15340524298E-04 +3.20891441708E-03 -2.76608222418E-01 -1.64059931772E-01
1.54500000000E+09 -2.34350963826E-01 -1.38034206707E-01 +8.82675134739E-04 +2.95255718873E-03 +8.02120094076E-04 +2.91012459063E-03 -3.76046888982E-01 -1.40256723719E-01
1.55000000000E+09 -3.27247121797E-01 -9.39226997400E-02 +1.48609988096E-03 +2.49079265809E-03 +1.46512659415E-03 +2.53358764239E-03 -4.63176555482E-01 -1.01958611742E-01
1.55500000000E+09 -4.05595883911E-01 -3.77918313852E-02 +2.30771186909E-03 +1.58129536072E-03 +2.33401873216E-03 +1.75426615060E-03 -5.34785532335E-01 -5.18860862386E-02
1.56000000000E+09 -4.69337462587E-01 +2.29646307690E-02 +2.18502339053E-03 +3.25063722781E-04 +2.30092792195E-03 +4.26282532523E-04 -5.90631983033E-01 +2.55588586812E-03
1.56500000000E+09 -5.17875907874E-01 +8.47808976106E-02 +1.54074572721E-03 -2.50962019920E-04 +1.65993051590E-03 -2.05591241422E-04 -6.34903127376E-01 +5.85737014694E-02
1.57000000000E+09 -5.54539073148E-01 +1.43913543521E-01 +1.27277062087E-03 -2.04667977378E-04 +1.33407598675E-03 -2.67615307400E-04 -6.67376015934E-01 +1.14546120320E-01
