# Hz S RI R 50
! CMT, C1220, 16058040, 17.2.0/1
! Date: 14/08/2018 12:55:36
! Data: Format (Calibration Info)
! Freq                      S11: Re/Im (F2)                       S21: Re/Im (F2)                       S12: Re/Im (F2)                       S22: Re/Im (F2)            
1.00000000000E+09 -6.46128293759E-01 +7.13386971548E-01 +2.03570909974E-05 +1.11019739220E-05 +1.96798730758E-05 +1.53897564614E-05 -7.19107186200E-01 +6.45451513139E-01
1.00500000000E+09 -6.39261797523E-01 +7.18048293588E-01 +1.29000725789E-05 +8.39716807470E-06 -6.58008649955E-05 +5.85299783970E-05 -7.15281232842E-01 +6.49518942331E-01
1.01000000000E+09 -6.33431571902E-01 +7.22459616951E-01 +1.68260078836E-05 +2.96509040850E-05 -4.70988902568E-05 -9.48296641821E-06 -7.11509951513E-01 +6.53016782194E-01
1.01500000000E+09 -6.28641606384E-01 +7.26476331263E-01 -5.28877100583E-05 +2.28996791167E-05 -4.23587848338E-05 +1.10782239794E-05 -7.08171324105E-01 +6.56492887332E-01
1.02000000000E+09 -6.24622853585E-01 +7.29852965256E-01 -1.66225013902E-05 -9.22635326331E-06 +1.94297019024E-05 +4.99716213074E-05 -7.04694325368E-01 +6.59890201061E-01
1.02500000000E+09 -6.21139549743E-01 +7.33165799489E-01 +1.30087360742E-05 +2.33377763189E-05 +6.67314533156E-06 +1.23225184390E-06 -7.01736525371E-01 +6.63391415769E-01
1.03000000000E+09 -6.18087009167E-01 +7.36221177007E-01 +7.87474002398E-06 +4.14429764644E-05 +3.24582006707E-06 -2.82823253923E-05 -6.98032595940E-01 +6.67165416081E-01
1.03500000000E+09 -6.14260741711E-01 +7.39391642886E-01 +1.05414954510E-05 -6.11021130437E-06 -2.37401572527E-06 +1.10393592047E-05 -6.94000738694E-01 +6.71222678023E-01
1.04000000000E+09 -6.09519624474E-01 +7.42629297804E-01 +4.08568574597E-05 +4.50654457793E-05 -3.84709691524E-06 -2.57303564699E-05 -6.89844002712E-01 +6.74401389350E-01
1.04500000000E+09 -6.03887890910E-01 +7.46136011265E-01 +2.05104414455E-05 -2.46647083423E-06 +4.39172075747E-06 +3.18528547396E-05 -6.86194389188E-01 +6.77944482059E-01
1.05000000000E+09 -5.96842907787E-01 +7.50428203375E-01 +1.95200095928E-05 +2.10069520491E-05 -1.10388866597E-06 +3.05425294993E-06 -6.82446900870E-01 +6.81333212940E-01
1.05500000000E+09 -5.89056127822E-01 +7.54657711036E-01 +3.21189356733E-05 +1.54079624652E-05 -2.91152782364E-05 +1.69528258133E-05 -6.79188740134E-01 +6.84697562781E-01
1.06000000000E+09 -5.80854907532E-01 +7.59488483365E-01 +2.06362646155E-05 +5.72921846554E-05 -6.71911315772E-06 +1.85819069881E-05 -6.75663753653E-01 +6.88502179937E-01
1.06500000000E+09 -5.72890575739E-01 +7.64206741650E-01 +3.91579556127E-05 +1.70295469120E-05 +1.04984991158E-05 +1.38886449829E-05 -6.71618642917E-01 +6.92209090857E-01
1.07000000000E+09 -5.65658984605E-01 +7.68132416668E-01 +3.63374016144E-06 -2.14752740996E-06 -5.03587791432E-06 +3.68682610598E-06 -6.67325281844E-01 +6.95706504410E-01
1.07500000000E+09 -5.59413384937E-01 +7.71944104401E-01 +9.57724553149E-06 +5.46673009678E-05 -1.65988223559E-05 +4.69871674422E-05 -6.62863670627E-01 +6.99254868362E-01
1.08000000000E+09 -5.54434247866E-01 +7.75259259609E-01 +7.59369407848E-06 +2.40393786274E-05 +4.17003053948E-05 +4.28538077345E-05 -6.58741096427E-01 +7.02887541568E-01
1.08500000000E+09 -5.50506567645E-01 +7.78059570712E-01 +2.16133476020E-05 -1.55744183206E-05 -1.43102154242E-05 +1.39973870398E-05 -6.54811774602E-01 +7.06397058241E-01
1.09000000000E+09 -5.46952268665E-01 +7.80382222404E-01 +2.25001328009E-05 +7.04795471183E-05 +3.28300776603E-05 +2.52590784721E-05 -6.50919046585E-01 +7.09992414784E-01
1.09500000000E+09 -5.44228678934E-01 +7.82412698080E-01 +4.48915483664E-05 +1.64739579791E-05 +6.37087322691E-05 +4.78908411795E-05 -6.46892712944E-01 +7.13819844088E-01
1.10000000000E+09 -5.40419432851E-01 +7.84904114659E-01 +5.82634643527E-05 +2.46190812171E-05 +7.24372421322E-05 +1.47136768046E-05 -6.42826284328E-01 +7.17262029361E-01
1.10500000000E+09 -5.36098006466E-01 +7.87498848224E-01 +3.37076283199E-05 +1.70176573274E-06 +1.12517941328E-04 +5.72379292317E-05 -6.38291496994E-01 +7.20659708627E-01
1.11000000000E+09 -5.30685584101E-01 +7.90623479897E-01 +4.73327854219E-05 +1.87886864012E-05 +7.77941811958E-05 +4.51536970142E-05 -6.34003841242E-01 +7.23827065986E-01
1.11500000000E+09 -5.24366204655E-01 +7.94072043373E-01 +8.05011126589E-05 +4.40891319054E-05 +4.51804504595E-05 +4.14280074608E-05 -6.29875841183E-01 +7.26882954640E-01
1.12000000000E+09 -5.17171153420E-01 +7.97587723747E-01 +7.67801309262E-05 +1.83618408777E-05 +3.53310257212E-05 +2.10042067796E-05 -6.25821420116E-01 +7.30589222938E-01
1.12500000000E+09 -5.09673027941E-01 +8.01263093730E-01 +6.35801854305E-05 +1.11142372746E-06 +1.50919579681E-05 +4.70939833581E-05 -6.21317596048E-01 +7.34288558940E-01
1.13000000000E+09 -5.02288856557E-01 +8.04553155093E-01 +6.48226022910E-05 +6.18110790091E-06 +1.00398148605E-04 +2.88216023916E-05 -6.16722693042E-01 +7.37725913897E-01
1.13500000000E+09 -4.95246460255E-01 +8.07026663986E-01 +8.58865646487E-05 -7.75985829376E-06 +7.09207682400E-05 +1.68020651330E-07 -6.11989185627E-01 +7.41503848617E-01
1.14000000000E+09 -4.88851126228E-01 +8.09458869085E-01 +7.54209957517E-05 -1.74831101902E-05 +6.67770513156E-05 -5.06768578874E-05 -6.07068757997E-01 +7.44744737352E-01
1.14500000000E+09 -4.83320808075E-01 +8.11168123299E-01 +6.38407173648E-05 -3.88146808609E-05 +8.63728162010E-05 +1.13469264909E-05 -6.02127770544E-01 +7.48097414179E-01
1.15000000000E+09 -4.77986731614E-01 +8.12799519926E-01 +6.66602366186E-05 -9.36928780690E-05 +3.93008345267E-05 -1.99661000951E-05 -5.97463466272E-01 +7.51785845174E-01
1.15500000000E+09 -4.73009747744E-01 +8.14669464061E-01 +5.91777951392E-05 -1.32034128490E-05 +1.09895696218E-04 -7.41379482600E-05 -5.92608060271E-01 +7.55288831720E-01
1.16000000000E+09 -4.67451640425E-01 +8.16479869712E-01 +7.31994486758E-05 -7.00131926056E-05 +5.95516310074E-05 -4.38346509415E-05 -5.87441604081E-01 +7.58999026657E-01
1.16500000000E+09 -4.61435861434E-01 +8.19127287442E-01 +8.59970448062E-05 -9.95133326363E-06 +1.29243669741E-04 -3.12212434527E-05 -5.82316570951E-01 +7.62347927867E-01
1.17000000000E+09 -4.54873960537E-01 +8.21848924247E-01 +8.87113023729E-05 -5.31693402502E-05 +1.31898026117E-04 -8.40632507254E-05 -5.76774275616E-01 +7.65406583184E-01
1.17500000000E+09 -4.47644841612E-01 +8.24890347862E-01 +8.95965508977E-05 -1.49832787976E-05 +1.08983811291E-04 -1.02645935321E-04 -5.71050582479E-01 +7.68399631168E-01
1.18000000000E+09 -4.39980291550E-01 +8.28019842224E-01 +1.08543008642E-04 -1.12816068302E-04 +1.28170295898E-04 -6.56847929065E-05 -5.65557157884E-01 +7.71318579828E-01
1.18500000000E+09 -4.32097787936E-01 +8.30978872674E-01 +1.22528276610E-04 -1.25890175422E-04 +8.09010917095E-05 -9.11564438648E-05 -5.59653467162E-01 +7.74065478613E-01
1.19000000000E+09 -4.24188455169E-01 +8.33346876378E-01 +1.14713217354E-04 -2.09088242798E-04 +7.83145805513E-05 -1.77174150732E-04 -5.53694433986E-01 +7.76367163666E-01
1.19500000000E+09 -4.16685577651E-01 +8.35169886663E-01 +1.11676571835E-04 -2.46913608249E-04 +1.14647873071E-04 -1.70191448297E-04 -5.47709107771E-01 +7.77459823111E-01
1.20000000000E+09 -4.09684618427E-01 +8.36013194446E-01 -4.49786312575E-05 -2.86666638708E-04 -2.70931330395E-06 -2.71118677251E-04 -5.43025992680E-01 +7.77499781079E-01
1.20500000000E+09 -4.02855201240E-01 +8.37359166771E-01 -7.59794216379E-05 -2.26277370772E-04 -9.66700073210E-05 -2.26773451125E-04 -5.40536977099E-01 +7.78133947470E-01
1.21000000000E+09 -3.95962548577E-01 +8.38618798151E-01 -1.05836266768E-04 -1.48366016736E-04 -1.14987333340E-04 -1.28144008435E-04 -5.38365697389E-01 +7.81153196291E-01
1.21500000000E+09 -3.88489012762E-01 +8.39855020235E-01 -8.96709355546E-05 -1.26488285522E-04 +8.27389308458E-06 -1.21967957506E-04 -5.35358084897E-01 +7.85597801510E-01
1.22000000000E+09 -3.80431010885E-01 +8.41955816443E-01 -4.69128298012E-05 -1.05504884604E-04 -3.31334647953E-06 -1.70591175137E-04 -5.30704672700E-01 +7.90706844948E-01
1.22500000000E+09 -3.72131551074E-01 +8.44259820178E-01 -2.30276289529E-05 -1.48267936272E-04 -4.28762921262E-05 -1.52811361301E-04 -5.25587362305E-01 +7.95748152993E-01
1.23000000000E+09 -3.63338791365E-01 +8.46944471862E-01 -1.09066938311E-04 -1.60048351992E-04 -8.94966043151E-05 -1.48932836305E-04 -5.19776654268E-01 +8.00023017331E-01
1.23500000000E+09 -3.54696109495E-01 +8.49843831974E-01 -6.20845728827E-05 -1.55198800372E-04 -2.83260353942E-05 -1.39463805700E-04 -5.13789261601E-01 +8.03948386047E-01
1.24000000000E+09 -3.46411143871E-01 +8.52843780957E-01 -8.48219031469E-05 -1.87148999540E-04 -7.44254954955E-05 -1.37409139090E-04 -5.07767057704E-01 +8.07557307214E-01
1.24500000000E+09 -3.38460976819E-01 +8.56027292722E-01 -1.05132316364E-04 -1.76549899476E-04 -6.68548879513E-05 -1.81948982483E-04 -5.01376015028E-01 +8.11103715659E-01
1.25000000000E+09 -3.30759457672E-01 +8.58564565191E-01 -1.12408362864E-04 -1.86527845580E-04 -1.09383444233E-04 -1.73680129372E-04 -4.94903153273E-01 +8.14912333019E-01
1.25500000000E+09 -3.23166078558E-01 +8.60165260968E-01 -1.28763379897E-04 -1.72593001910E-04 -9.44033145634E-05 -1.96380834370E-04 -4.87959553013E-01 +8.18682086028E-01
1.26000000000E+09 -3.15469951269E-01 +8.61451217290E-01 -1.57949163099E-04 -1.85785124829E-04 -2.02954403853E-04 -2.18377366136E-04 -4.81477967289E-01 +8.22622730759E-01
1.26500000000E+09 -3.07609775334E-01 +8.61740115247E-01 -1.98763835350E-04 -1.91321507014E-04 -2.53729212382E-04 -2.01786702989E-04 -4.74333287149E-01 +8.25865704529E-01
1.27000000000E+09 -2.99069116210E-01 +8.62112811413E-01 -2.36023488295E-04 -1.95452639166E-04 -2.59386146276E-04 -2.31475128909E-04 -4.67453642279E-01 +8.29427265942E-01
1.27500000000E+09 -2.89858559442E-01 +8.62415439898E-01 -3.03884133061E-04 -2.28770240609E-04 -3.04803744760E-04 -2.27046827706E-04 -4.60186966225E-01 +8.32672363941E-01
1.28000000000E+09 -2.79500990692E-01 +8.63077274566E-01 -3.44677603946E-04 -1.19234702965E-04 -3.62870187891E-04 -1.78614447006E-04 -4.53216403418E-01 +8.35862124288E-01
1.28500000000E+09 -2.68216468433E-01 +8.64096354741E-01 -3.09068429119E-04 -8.46022000286E-05 -3.94520173114E-04 -1.40738971334E-04 -4.45783117722E-01 +8.39304740255E-01
1.29000000000E+09 -2.57152195941E-01 +8.65510401630E-01 -3.88709790370E-04 -6.97658769434E-05 -4.41990492358E-04 -1.22780954616E-04 -4.38055556462E-01 +8.42777549460E-01
1.29500000000E+09 -2.46315774066E-01 +8.67513842873E-01 -3.96445880636E-04 -1.35889655698E-04 -4.29201845583E-04 -8.14557862292E-05 -4.30203768103E-01 +8.45747023837E-01
1.30000000000E+09 -2.36050271900E-01 +8.70192203697E-01 -5.12324965170E-04 -7.44753019503E-05 -4.66646782658E-04 -3.43087645915E-05 -4.22421023349E-01 +8.48994933595E-01
1.30500000000E+09 -2.26487675666E-01 +8.72915973941E-01 -5.59197698525E-04 +2.90331551628E-05 -5.05847826177E-04 +3.09071772618E-05 -4.14354788155E-01 +8.52028085571E-01
1.31000000000E+09 -2.17596362091E-01 +8.74963170949E-01 -6.27017487829E-04 +7.56253983028E-05 -5.93132747431E-04 +1.23050251344E-04 -4.06101254498E-01 +8.55087691382E-01
1.31500000000E+09 -2.09305312029E-01 +8.76246155629E-01 -5.13936615138E-04 +1.91873302924E-04 -5.71000188395E-04 +1.78574988780E-04 -3.97523476445E-01 +8.58229345006E-01
1.32000000000E+09 -2.01513167132E-01 +8.76358361106E-01 -5.51401783447E-04 +2.34952001780E-04 -5.30109283652E-04 +2.42701786050E-04 -3.88371624327E-01 +8.61257986832E-01
1.32500000000E+09 -1.93625281344E-01 +8.75692672146E-01 -5.83942481787E-04 +2.54376127335E-04 -5.94491202412E-04 +2.83953699132E-04 -3.78957791756E-01 +8.64132653161E-01
1.33000000000E+09 -1.85094129005E-01 +8.74612118956E-01 -6.16172297846E-04 +3.62870329097E-04 -5.85736416171E-04 +4.03230392581E-04 -3.69619708636E-01 +8.67007500009E-01
1.33500000000E+09 -1.75221842259E-01 +8.73323142653E-01 -6.45741022892E-04 +4.38597629741E-04 -5.82894274738E-04 +5.38070955294E-04 -3.59935977478E-01 +8.69662736056E-01
1.34000000000E+09 -1.63655310415E-01 +8.72307593250E-01 -5.74688231753E-04 +6.12694978535E-04 -5.27625918576E-04 +5.60330781681E-04 -3.49958373443E-01 +8.72546769585E-01
1.34500000000E+09 -1.50708238423E-01 +8.71385284529E-01 -5.46227572297E-04 +7.10792369273E-04 -5.21371505233E-04 +6.93874122400E-04 -3.39069692706E-01 +8.75160712980E-01
1.35000000000E+09 -1.36561654994E-01 +8.70945268476E-01 -4.99014404305E-04 +8.22214629764E-04 -4.83744821756E-04 +7.79886924493E-04 -3.28255791999E-01 +8.77778235606E-01
1.35500000000E+09 -1.21755623517E-01 +8.71029115309E-01 -4.20838228535E-04 +8.76087373703E-04 -4.61293047610E-04 +8.49886485388E-04 -3.16864390011E-01 +8.80131914627E-01
1.36000000000E+09 -1.06727122422E-01 +8.71443115493E-01 -4.00226448746E-04 +9.81517989971E-04 -3.87265402149E-04 +9.14766162662E-04 -3.05313833220E-01 +8.82270739780E-01
1.36500000000E+09 -9.16343601136E-02 +8.71341732364E-01 -3.53296734490E-04 +1.10006335031E-03 -3.18375238099E-04 +1.04451420770E-03 -2.93537178922E-01 +8.84179927448E-01
1.37000000000E+09 -7.70123931483E-02 +8.70221947910E-01 -1.89059782446E-04 +1.25658847619E-03 -2.36539387517E-04 +1.19113683102E-03 -2.81056570949E-01 +8.86109215759E-01
1.37500000000E+09 -6.37450405332E-02 +8.68204279843E-01 -8.78975631597E-08 +1.37678689885E-03 -1.59357664203E-04 +1.29438401730E-03 -2.67509298145E-01 +8.87972340777E-01
1.38000000000E+09 -5.14028100461E-02 +8.65159956877E-01 +1.29105785575E-04 +1.37830831634E-03 -2.89207268703E-05 +1.45814344157E-03 -2.53301369048E-01 +8.89280684291E-01
1.38500000000E+09 -3.87657608538E-02 +8.61376738620E-01 +2.59516819993E-04 +1.48575027472E-03 +1.27289344966E-04 +1.68655003806E-03 -2.38367037201E-01 +8.90784978298E-01
1.39000000000E+09 -2.61009948221E-02 +8.57007579555E-01 +4.06465511000E-04 +1.61655982128E-03 +4.44496806664E-04 +1.77950639575E-03 -2.22931096742E-01 +8.91766514735E-01
1.39500000000E+09 -1.24577849032E-02 +8.52229332982E-01 +6.33786219879E-04 +1.76699666945E-03 +7.80000834275E-04 +1.86962230309E-03 -2.06989612058E-01 +8.91928717993E-01
1.40000000000E+09 +2.79278372158E-03 +8.46862822856E-01 +9.02854245005E-04 +1.89939860489E-03 +1.11896896995E-03 +1.82844984869E-03 -1.90473691926E-01 +8.91831436321E-01
1.40500000000E+09 +1.87711861999E-02 +8.41390355050E-01 +1.32532784498E-03 +1.93187366313E-03 +1.40876595100E-03 +1.80231814720E-03 -1.72564529927E-01 +8.91170605800E-01
1.41000000000E+09 +3.60535222784E-02 +8.36295411433E-01 +1.75493266723E-03 +1.73433703855E-03 +1.72271661373E-03 +1.74853084196E-03 -1.53463393879E-01 +8.90028259383E-01
1.41500000000E+09 +5.46656122629E-02 +8.31467099980E-01 +2.00014911480E-03 +1.57878321089E-03 +1.98356900737E-03 +1.74275263762E-03 -1.32646432839E-01 +8.88011930401E-01
1.42000000000E+09 +7.50362390533E-02 +8.25814580521E-01 +2.32082774660E-03 +1.51551733619E-03 +2.50804770751E-03 +1.73232684691E-03 -1.10691676382E-01 +8.84976072174E-01
1.42500000000E+09 +9.61526868354E-02 +8.18134209107E-01 +2.73400581911E-03 +1.38793924260E-03 +3.13163746238E-03 +1.43945719553E-03 -8.81357616529E-02 +8.80769450938E-01
1.43000000000E+09 +1.17418416730E-01 +8.08047182088E-01 +3.24537628331E-03 +1.37323226179E-03 +3.64044275880E-03 +1.17076243933E-03 -6.47780745533E-02 +8.75696498256E-01
1.43500000000E+09 +1.38308748162E-01 +7.95230160753E-01 +4.12796371485E-03 +8.54735724119E-04 +4.34086767286E-03 +5.34209205296E-04 -3.96109660182E-02 +8.68794246858E-01
1.44000000000E+09 +1.59177102279E-01 +7.80699473717E-01 +4.75465874488E-03 -1.55858754364E-04 +4.73389320940E-03 -4.79721922374E-04 -1.31404198135E-02 +8.59857855843E-01
1.44500000000E+09 +1.81263464450E-01 +7.63577749929E-01 +4.64770911488E-03 -1.15995340424E-03 +4.63309678793E-03 -1.38536486010E-03 +1.55369247108E-02 +8.48277999388E-01
1.45000000000E+09 +2.04169724231E-01 +7.43597958778E-01 +4.53502060818E-03 -1.71094323711E-03 +4.57840035515E-03 -1.98146906394E-03 +4.57048389646E-02 +8.33953390007E-01
1.45500000000E+09 +2.28152049500E-01 +7.21105246609E-01 +4.83708062243E-03 -2.21057637128E-03 +4.68908236794E-03 -2.64948856090E-03 +7.70195955390E-02 +8.16802414655E-01
1.46000000000E+09 +2.53390745957E-01 +6.96545265740E-01 +5.25292257798E-03 -3.07657869718E-03 +4.71518831848E-03 -3.39213471945E-03 +1.10139251059E-01 +7.95898421400E-01
1.46500000000E+09 +2.79971685524E-01 +6.69501224521E-01 +5.58444242681E-03 -4.40898623480E-03 +4.84331931962E-03 -4.39601728540E-03 +1.44074418188E-01 +7.69756181180E-01
1.47000000000E+09 +3.08535750356E-01 +6.38807121903E-01 +5.55439105661E-03 -6.41350749953E-03 +5.06597986047E-03 -5.88890150049E-03 +1.79061555343E-01 +7.37238091867E-01
1.47500000000E+09 +3.37340294133E-01 +6.02179627245E-01 +4.29039493703E-03 -8.62366419645E-03 +4.47173675289E-03 -8.07934516210E-03 +2.13822679416E-01 +6.97518318003E-01
1.48000000000E+09 +3.64019599707E-01 +5.58472275811E-01 +2.42535785308E-03 -9.96005615347E-03 +2.75967179993E-03 -9.97302755970E-03 +2.48343043791E-01 +6.50136029986E-01
1.48500000000E+09 +3.86555015823E-01 +5.06429026951E-01 +8.48199842099E-04 -1.10962333876E-02 +7.35211088322E-04 -1.14073500795E-02 +2.80885185228E-01 +5.93725298802E-01
1.49000000000E+09 +4.02335224170E-01 +4.46746311069E-01 -1.35723036776E-03 -1.27334102152E-02 -1.95413647718E-03 -1.26521903887E-02 +3.08339453638E-01 +5.27259934825E-01
1.49500000000E+09 +4.10678234409E-01 +3.79821876955E-01 -5.18276154657E-03 -1.37804339846E-02 -5.46082176016E-03 -1.29674378467E-02 +3.26799145978E-01 +4.49968423981E-01
1.50000000000E+09 +4.10307943251E-01 +3.04003422178E-01 -9.19377433448E-03 -1.32257465475E-02 -8.60526700132E-03 -1.24614787791E-02 +3.32489241458E-01 +3.62816225206E-01
1.50500000000E+09 +3.96751614581E-01 +2.20692744663E-01 -1.34926991908E-02 -1.16059554535E-02 -1.25030914711E-02 -1.15738617751E-02 +3.21415160133E-01 +2.67571105689E-01
1.51000000000E+09 +3.68528603921E-01 +1.34006067223E-01 -1.73449674332E-02 -7.80634238422E-03 -1.68447703601E-02 -8.46151495998E-03 +2.89361602914E-01 +1.67645590304E-01
1.51500000000E+09 +3.21770382155E-01 +4.62136743763E-02 -2.00424327468E-02 -3.45783648210E-03 -2.01125345172E-02 -4.05677679616E-03 +2.33769408975E-01 +7.16437712188E-02
1.52000000000E+09 +2.55096746765E-01 -3.26017940159E-02 -2.18380504821E-02 +2.17876826951E-03 -2.21335377398E-02 +1.84477069581E-03 +1.55885021969E-01 -1.25882765932E-02
1.52500000000E+09 +1.72235166833E-01 -9.76925733523E-02 -2.13085541856E-02 +1.00212758496E-02 -2.15673476818E-02 +1.00057473591E-02 +6.16885591216E-02 -7.91446813864E-02
1.53000000000E+09 +7.56863889416E-02 -1.44056475392E-01 -1.60060257937E-02 +1.60528799447E-02 -1.61569051388E-02 +1.61342791242E-02 -4.81629540986E-02 -1.22844565861E-01
1.53500000000E+09 -2.97256197949E-02 -1.67988205525E-01 -1.08804122741E-02 +1.90077947862E-02 -1.08517660899E-02 +1.90654387054E-02 -1.60913700099E-01 -1.39342724925E-01
1.54000000000E+09 -1.39283638358E-01 -1.66866718534E-01 -5.15218813503E-03 +2.06816382802E-02 -5.22301829339E-03 +2.04602245978E-02 -2.71194250595E-01 -1.31874142754E-01
1.54500000000E+09 -2.42256302193E-01 -1.41110203783E-01 +1.38772727797E-03 +2.08120182008E-02 +9.55831545509E-04 +2.05633193611E-02 -3.69684766584E-01 -1.02970083821E-01
1.55000000000E+09 -3.33341534987E-01 -9.85253825184E-02 +6.30996949203E-03 +1.75489240057E-02 +5.59090188555E-03 +1.77902336590E-02 -4.52741975112E-01 -6.00091263553E-02
1.55500000000E+09 -4.09665995411E-01 -4.40660196361E-02 +9.43915877291E-03 +1.45296393107E-02 +8.98951762768E-03 +1.52936756614E-02 -5.20256345075E-01 -8.46052020124E-03
1.56000000000E+09 -4.70040564891E-01 +1.41630420184E-02 +1.19505598213E-02 +1.07682042207E-02 +1.21247927994E-02 +1.16819472540E-02 -5.73438159251E-01 +4.76507080491E-02
1.56500000000E+09 -5.18380954264E-01 +7.33754589803E-02 +1.23849211246E-02 +6.69650355458E-03 +1.30441109306E-02 +7.26902477294E-03 -6.14474174986E-01 +1.05327618423E-01
1.57000000000E+09 -5.54989693642E-01 +1.32363008493E-01 +1.18935243530E-02 +3.95399779078E-03 +1.26801163396E-02 +4.06818761478E-03 -6.43905894137E-01 +1.62548922880E-01
