# Hz S RI R 50
! CMT, C1220, 16058040, 17.2.0/1
! Date: 14/08/2018 11:59:56
! Data: Format (Calibration Info)
! Freq                      S11: Re/Im (F2)                       S21: Re/Im (F2)                       S12: Re/Im (F2)                       S22: Re/Im (F2)            
1.00000000000E+09 -6.44340119138E-01 +7.12383579365E-01 -1.01060534244E-05 -1.94186762211E-05 +3.85363462237E-05 +3.42163277976E-06 -7.49982815788E-01 +6.26782388615E-01
1.00500000000E+09 -6.37209402245E-01 +7.17354562336E-01 -4.10236557539E-05 -6.07435959451E-05 +7.62438579510E-06 +4.00205526554E-06 -7.46468512081E-01 +6.31046032886E-01
1.01000000000E+09 -6.31350392684E-01 +7.21714145270E-01 -6.32770888884E-05 -6.90176236128E-06 +1.00918735127E-05 -3.11741230406E-05 -7.42866408834E-01 +6.34617444612E-01
1.01500000000E+09 -6.26964833671E-01 +7.25468653959E-01 -1.09974916075E-05 +2.71541884995E-05 +1.26094435019E-05 +2.15073518883E-05 -7.39487034933E-01 +6.38555459304E-01
1.02000000000E+09 -6.23736741341E-01 +7.28638663669E-01 -7.11248764957E-05 +3.56516855881E-05 -6.57410166109E-05 -2.03032235394E-05 -7.35926693231E-01 +6.42031406772E-01
1.02500000000E+09 -6.21624997369E-01 +7.31345100296E-01 -4.78171497414E-05 +5.84700319673E-07 +8.19689891272E-06 +2.23028123932E-06 -7.33089122133E-01 +6.45709803900E-01
1.03000000000E+09 -6.19944457778E-01 +7.33551106833E-01 +1.13914324563E-05 +2.97706550919E-05 -3.09743532802E-05 +2.13634804154E-05 -7.29313819337E-01 +6.49726515422E-01
1.03500000000E+09 -6.17744640824E-01 +7.36068557964E-01 -3.72744966454E-05 -1.01961019044E-05 -1.41704468978E-05 +4.27590361271E-05 -7.25684019550E-01 +6.53541068400E-01
1.04000000000E+09 -6.14129410785E-01 +7.38878590422E-01 -1.12713777433E-05 +1.96727185137E-05 -7.13561104783E-06 +6.06343381763E-05 -7.21814320503E-01 +6.57127318184E-01
1.04500000000E+09 -6.08996809058E-01 +7.42335217590E-01 -2.16850206718E-05 +4.86054039483E-05 +4.53528504871E-05 +7.35327591254E-05 -7.18371808535E-01 +6.60629955946E-01
1.05000000000E+09 -6.02152190973E-01 +7.46386979205E-01 -6.63500426333E-05 +3.43445852771E-05 -7.62179723491E-05 +3.53576847896E-05 -7.14896646942E-01 +6.64053469877E-01
1.05500000000E+09 -5.94202688723E-01 +7.50815022227E-01 -3.94312799756E-05 +6.37350151063E-05 -6.11071355587E-05 +1.40490206329E-05 -7.11552327541E-01 +6.67568906155E-01
1.06000000000E+09 -5.85706985320E-01 +7.55901360554E-01 -2.64685769248E-05 +4.59222196450E-05 -3.74405501050E-05 +5.07327439228E-05 -7.08404836851E-01 +6.71392848934E-01
1.06500000000E+09 -5.77579419854E-01 +7.60530070210E-01 -2.11527170310E-05 +2.83993807704E-05 +1.51751444115E-05 +4.22527557029E-05 -7.04648411968E-01 +6.75270410433E-01
1.07000000000E+09 -5.70641906261E-01 +7.64591447336E-01 -3.79975844870E-05 +8.16711299409E-05 -2.32418315017E-05 +1.02611216491E-04 -7.00641548007E-01 +6.78813489486E-01
1.07500000000E+09 -5.65229781641E-01 +7.68358257108E-01 -6.08790301596E-07 +5.98751959464E-05 -1.38356992477E-05 +5.01330248608E-05 -6.96322557304E-01 +6.82494878466E-01
1.08000000000E+09 -5.61522857451E-01 +7.71408659361E-01 -3.93608127664E-05 +9.29536854403E-05 -1.57807533019E-05 +4.58865472225E-05 -6.92148220282E-01 +6.86178663932E-01
1.08500000000E+09 -5.59127658081E-01 +7.73810703958E-01 +5.73880380915E-07 +8.99695145497E-05 +3.67520798677E-06 +7.28800795039E-05 -6.88159913087E-01 +6.89964853633E-01
1.09000000000E+09 -5.57034529647E-01 +7.76189456150E-01 +1.19427162225E-05 +7.98012083221E-05 +1.29467988099E-05 +6.93465785533E-05 -6.84253720591E-01 +6.93952720539E-01
1.09500000000E+09 -5.55089241220E-01 +7.78013186767E-01 -2.84173749600E-05 +6.10860895725E-05 -1.41941060984E-05 +4.27549112980E-05 -6.80468082969E-01 +6.97739866871E-01
1.10000000000E+09 -5.51799460408E-01 +7.80146275649E-01 -1.24646106761E-05 +5.35596547459E-05 -4.78556260296E-06 +7.25418873227E-05 -6.76378533434E-01 +7.01539832396E-01
1.10500000000E+09 -5.47277827688E-01 +7.82876876316E-01 +6.98737835644E-06 +7.00945872157E-05 -1.88917078271E-05 +6.35417399679E-05 -6.72117348684E-01 +7.05259838666E-01
1.11000000000E+09 -5.41221856773E-01 +7.86078550249E-01 +5.67972312600E-05 +5.55760295239E-05 +2.55374916505E-05 +1.07157156359E-04 -6.68062304676E-01 +7.08564526318E-01
1.11500000000E+09 -5.33681354043E-01 +7.90070787947E-01 +4.22511173986E-05 +8.74625444902E-05 +4.07347914601E-05 +2.79158476373E-05 -6.63878380564E-01 +7.11787603570E-01
1.12000000000E+09 -5.25649480484E-01 +7.93798544820E-01 +4.83855718584E-05 +9.71902871676E-05 +9.70415006788E-05 +8.21001469728E-05 -6.59762777762E-01 +7.15578782291E-01
1.12500000000E+09 -5.17574569490E-01 +7.97844806963E-01 +2.15712429452E-05 +7.23193273712E-05 +4.77643416258E-05 +7.76763313597E-05 -6.55511560961E-01 +7.19537407903E-01
1.13000000000E+09 -5.10611206030E-01 +8.01417100382E-01 +5.39013599893E-05 +9.24348071959E-05 +4.23575311398E-05 +5.48975822183E-05 -6.51232002968E-01 +7.23322538934E-01
1.13500000000E+09 -5.04574800916E-01 +8.04244352290E-01 +2.30161168691E-05 +9.54715076938E-05 +4.43851565178E-05 +8.54963763342E-05 -6.46569922156E-01 +7.26966077172E-01
1.14000000000E+09 -4.99885028841E-01 +8.06934334851E-01 +7.67275963715E-05 +9.62748174338E-05 +6.01740835450E-05 +1.06757304923E-04 -6.41795371072E-01 +7.30473633169E-01
1.14500000000E+09 -4.95956395340E-01 +8.08997715351E-01 +1.31255664413E-04 +1.11963532058E-04 +4.56509063325E-05 +1.05491434120E-04 -6.37189818733E-01 +7.33788991394E-01
1.15000000000E+09 -4.92450746656E-01 +8.10818619059E-01 +6.57407103184E-05 +3.88833197135E-05 +1.25099258088E-04 +1.24350363541E-04 -6.32545159084E-01 +7.37576582726E-01
1.15500000000E+09 -4.88851431534E-01 +8.12867469371E-01 +1.15290429870E-04 +4.76549490422E-05 +1.57315532806E-04 +4.47944006636E-05 -6.27771556445E-01 +7.41389894323E-01
1.16000000000E+09 -4.84174681798E-01 +8.14832915328E-01 +7.87669280196E-05 +4.18400722483E-05 +1.16725022070E-04 +5.05347983779E-05 -6.22937192518E-01 +7.45159480188E-01
1.16500000000E+09 -4.78186655821E-01 +8.17686549597E-01 +8.94023997488E-05 +3.93308207595E-05 +1.41949867664E-04 +4.60266186119E-05 -6.17849493966E-01 +7.48901975974E-01
1.17000000000E+09 -4.70789126536E-01 +8.20809156326E-01 +1.01691921654E-04 +7.02459579380E-05 +1.55337296606E-04 +1.57137125125E-05 -6.12284316066E-01 +7.52112035627E-01
1.17500000000E+09 -4.62515109605E-01 +8.24153182443E-01 +1.77175088199E-04 +2.88824191499E-06 +1.97100796417E-04 +6.10324338285E-05 -6.06656332914E-01 +7.55390441117E-01
1.18000000000E+09 -4.54071531693E-01 +8.27540599758E-01 +1.97357490552E-04 +5.59991197635E-05 +1.47038272380E-04 +6.55316182279E-05 -6.01053661352E-01 +7.58404245022E-01
1.18500000000E+09 -4.45876518884E-01 +8.30659267214E-01 +1.87554079939E-04 +1.88589947345E-05 +1.66010501422E-04 +2.20377106002E-05 -5.95007274008E-01 +7.61498159090E-01
1.19000000000E+09 -4.38524012972E-01 +8.33352907083E-01 +2.02603084724E-04 +1.01072861214E-05 +2.79744480358E-04 -7.11314156077E-06 -5.88765082537E-01 +7.64133491822E-01
1.19500000000E+09 -4.32526430970E-01 +8.35293767691E-01 +2.53281782151E-04 -3.66365966094E-05 +2.54694124699E-04 -7.43818537575E-05 -5.82808588437E-01 +7.65388473236E-01
1.20000000000E+09 -4.27895496008E-01 +8.36423315298E-01 +2.89921806719E-04 -1.53105252953E-04 +2.42637546275E-04 -1.39261239909E-04 -5.78129002539E-01 +7.65578636628E-01
1.20500000000E+09 -4.24046931789E-01 +8.37653244604E-01 +2.00516090643E-04 -1.66665523240E-04 +1.65362131316E-04 -1.96496441036E-04 -5.75973512910E-01 +7.66207457655E-01
1.21000000000E+09 -4.20047352709E-01 +8.39079579718E-01 +1.52448196470E-04 -2.08089516183E-04 +9.51569079020E-05 -2.19082689396E-04 -5.74101056960E-01 +7.69231243318E-01
1.21500000000E+09 -4.14967289554E-01 +8.40856249493E-01 +1.20636804633E-04 -1.91564598247E-04 +1.44672479515E-04 -1.57273443878E-04 -5.71435922798E-01 +7.73720622406E-01
1.22000000000E+09 -4.08218104380E-01 +8.42921884038E-01 +1.03736411625E-04 -1.58851949415E-04 +1.44111882028E-04 -1.84851322271E-04 -5.67293370382E-01 +7.78983460660E-01
1.22500000000E+09 -3.99929983124E-01 +8.45543135768E-01 +1.27155845743E-04 -2.18215266035E-04 +1.19340825825E-04 -2.13592959756E-04 -5.62083487455E-01 +7.84163419604E-01
1.23000000000E+09 -3.90548231905E-01 +8.48642780504E-01 +1.16030979551E-04 -2.17815617809E-04 +8.60849850628E-05 -2.52270338367E-04 -5.56336822728E-01 +7.88792416630E-01
1.23500000000E+09 -3.80372062808E-01 +8.52188474450E-01 +1.05138630899E-04 -2.35328844129E-04 +8.07324578724E-05 -2.31072507787E-04 -5.50572277147E-01 +7.93024384064E-01
1.24000000000E+09 -3.70105472500E-01 +8.55726312005E-01 +1.26538085400E-04 -1.82233773450E-04 +6.72178499052E-05 -2.11863411144E-04 -5.44505789428E-01 +7.97012520363E-01
1.24500000000E+09 -3.60880668920E-01 +8.59342741787E-01 +9.76999069857E-05 -3.14384526256E-04 +9.16207140988E-05 -2.67759607308E-04 -5.38130846715E-01 +8.00773851187E-01
1.25000000000E+09 -3.52740093423E-01 +8.62623135801E-01 +3.63564481593E-05 -2.98843626133E-04 +9.00976128674E-05 -2.71767923481E-04 -5.31571721198E-01 +8.05032086083E-01
1.25500000000E+09 -3.46093612293E-01 +8.65071434940E-01 +1.27123774940E-05 -3.37261065274E-04 +1.18487461791E-04 -3.28784735587E-04 -5.24546444368E-01 +8.08972022372E-01
1.26000000000E+09 -3.40386835727E-01 +8.66950836135E-01 +1.98784605971E-05 -3.07104571658E-04 -4.42260276271E-06 -3.39989716929E-04 -5.17808224413E-01 +8.13319236825E-01
1.26500000000E+09 -3.35245061237E-01 +8.68350961194E-01 -1.86256893548E-05 -3.14784070139E-04 -1.87712673451E-05 -3.79873584033E-04 -5.10936089259E-01 +8.17073514626E-01
1.27000000000E+09 -3.29878807261E-01 +8.69511371303E-01 -6.58300058444E-05 -3.58303219606E-04 -3.98598764313E-05 -3.87615261591E-04 -5.04183248724E-01 +8.20876911755E-01
1.27500000000E+09 -3.23411896635E-01 +8.70877584789E-01 -1.07447104901E-04 -4.02056413087E-04 -1.00202688422E-04 -4.12025316702E-04 -4.97072150742E-01 +8.24587501875E-01
1.28000000000E+09 -3.15124917936E-01 +8.72497556973E-01 -1.60932755007E-04 -4.13487040361E-04 -1.54651333629E-04 -4.16199359086E-04 -4.90140686635E-01 +8.27876738437E-01
1.28500000000E+09 -3.04744127395E-01 +8.74542811113E-01 -1.74531364947E-04 -3.37664646076E-04 -2.16623726003E-04 -3.99174510861E-04 -4.82704342664E-01 +8.31567383528E-01
1.29000000000E+09 -2.93056087103E-01 +8.76851655616E-01 -1.96184734295E-04 -3.38869685732E-04 -2.13949822591E-04 -3.60853950720E-04 -4.75158968929E-01 +8.35149457177E-01
1.29500000000E+09 -2.80760090952E-01 +8.79567325845E-01 -2.46381427590E-04 -3.73717895754E-04 -2.75833024098E-04 -3.27461475951E-04 -4.67318838499E-01 +8.38751562798E-01
1.30000000000E+09 -2.68581450211E-01 +8.82655000252E-01 -3.13343511839E-04 -3.69040222164E-04 -3.43817447276E-04 -3.68360105194E-04 -4.59471088027E-01 +8.42273321086E-01
1.30500000000E+09 -2.57536460258E-01 +8.85578442636E-01 -3.76722038314E-04 -3.53377618266E-04 -3.72089805071E-04 -3.22266398830E-04 -4.51440563734E-01 +8.45701294090E-01
1.31000000000E+09 -2.47918037533E-01 +8.88010608474E-01 -4.55345716820E-04 -3.09515309349E-04 -4.25266619279E-04 -2.59696543224E-04 -4.43106863758E-01 +8.49126347348E-01
1.31500000000E+09 -2.40074481787E-01 +8.89947117608E-01 -4.61482449319E-04 -2.45798131107E-04 -4.46642281701E-04 -2.92957331311E-04 -4.34172006052E-01 +8.52552200868E-01
1.32000000000E+09 -2.33789488400E-01 +8.91204536099E-01 -4.40474121920E-04 -2.27091695229E-04 -5.01635068233E-04 -2.57587563951E-04 -4.25056999212E-01 +8.55963793904E-01
1.32500000000E+09 -2.27863189432E-01 +8.91724099518E-01 -4.87050623875E-04 -2.50949249843E-04 -5.59505273442E-04 -2.04003276421E-04 -4.15436472723E-01 +8.59299749947E-01
1.33000000000E+09 -2.21420256816E-01 +8.91997104030E-01 -5.50102570621E-04 -2.11213692871E-04 -5.66827061343E-04 -1.66923351154E-04 -4.05736311195E-01 +8.62585575159E-01
1.33500000000E+09 -2.13053333112E-01 +8.91836495185E-01 -6.51134905038E-04 -2.24217771290E-04 -6.42086283676E-04 -9.14969976518E-05 -3.95737076270E-01 +8.65893553512E-01
1.34000000000E+09 -2.02411371778E-01 +8.91737616948E-01 -6.87459421513E-04 -1.42181656663E-04 -6.23567565245E-04 -1.24260708434E-04 -3.85569162323E-01 +8.69121867850E-01
1.34500000000E+09 -1.88989697140E-01 +8.91549944565E-01 -7.55773742335E-04 -9.39198420631E-05 -6.86392100121E-04 -9.94746262073E-05 -3.74553438638E-01 +8.72442203574E-01
1.35000000000E+09 -1.73746292589E-01 +8.91313765979E-01 -7.58670455255E-04 +1.05247069554E-05 -7.72167063036E-04 +1.76625069573E-06 -3.63390281940E-01 +8.75385491874E-01
1.35500000000E+09 -1.57291546752E-01 +8.91336898554E-01 -7.99174359542E-04 +9.91380465359E-05 -7.77923533357E-04 +8.05062547176E-05 -3.51780484983E-01 +8.78171121448E-01
1.36000000000E+09 -1.40746527132E-01 +8.91628130534E-01 -7.73685588713E-04 +1.37602068079E-04 -7.62828194308E-04 +1.39689183666E-04 -3.39966165740E-01 +8.80793726379E-01
1.36500000000E+09 -1.24789435086E-01 +8.91972994223E-01 -8.58530628148E-04 +2.03609485780E-04 -8.00258747448E-04 +2.14917579771E-04 -3.27890950078E-01 +8.83264665083E-01
1.37000000000E+09 -1.10333180864E-01 +8.92051745453E-01 -9.21807815749E-04 +3.03042207664E-04 -8.90510819793E-04 +2.16182935220E-04 -3.14979761697E-01 +8.85757988926E-01
1.37500000000E+09 -9.77793834694E-02 +8.92066442076E-01 -1.00923425761E-03 +4.04936772202E-04 -9.73875886772E-04 +2.69088060993E-04 -3.01171894637E-01 +8.87824181433E-01
1.38000000000E+09 -8.65546509002E-02 +8.91573552629E-01 -1.04359623255E-03 +6.29845829177E-04 -1.17018963763E-03 +5.31312079579E-04 -2.86577967534E-01 +8.89773957110E-01
1.38500000000E+09 -7.56227796665E-02 +8.90476349902E-01 -9.60105122651E-04 +7.89572435104E-04 -1.19522413756E-03 +7.83391502097E-04 -2.71276759140E-01 +8.91577719065E-01
1.39000000000E+09 -6.40612575497E-02 +8.88766616572E-01 -9.56774139027E-04 +8.88379347107E-04 -1.02374942651E-03 +1.05027423991E-03 -2.55223498862E-01 +8.93009287484E-01
1.39500000000E+09 -5.05819685855E-02 +8.86078487249E-01 -9.73520021207E-04 +9.87040699874E-04 -9.69548384068E-04 +1.16316233860E-03 -2.38681496270E-01 +8.93725764651E-01
1.40000000000E+09 -3.45340459733E-02 +8.82392967411E-01 -9.70329787080E-04 +1.15946219849E-03 -8.89236620270E-04 +1.31257861124E-03 -2.21208872999E-01 +8.94259307147E-01
1.40500000000E+09 -1.60472465827E-02 +8.77745848378E-01 -8.44493540381E-04 +1.36552997619E-03 -7.65454885585E-04 +1.42816322776E-03 -2.02517207686E-01 +8.94028690288E-01
1.41000000000E+09 +4.51402790053E-03 +8.72255947598E-01 -7.96560563888E-04 +1.54134401144E-03 -8.23816060074E-04 +1.53702379451E-03 -1.82403816303E-01 +8.93128064714E-01
1.41500000000E+09 +2.64763672074E-02 +8.66011168171E-01 -7.14828556458E-04 +1.81893677535E-03 -7.66620165396E-04 +1.79981936653E-03 -1.61102693879E-01 +8.91829230191E-01
1.42000000000E+09 +4.90610743777E-02 +8.59471406496E-01 -5.66334330174E-04 +1.93839943297E-03 -7.23487626142E-04 +2.13446376975E-03 -1.38215507481E-01 +8.89396633553E-01
1.42500000000E+09 +7.14039539572E-02 +8.52129803038E-01 -5.15351626046E-04 +2.26215396762E-03 -4.76854731570E-04 +2.58455695317E-03 -1.14540507009E-01 +8.85697770680E-01
1.43000000000E+09 +9.30095501441E-02 +8.43753397068E-01 -2.50704516850E-04 +2.71188428816E-03 -7.77923151271E-06 +2.98903235810E-03 -8.96891201404E-02 +8.81081823521E-01
1.43500000000E+09 +1.13899979294E-01 +8.34266406253E-01 +2.25241906907E-04 +2.96532735308E-03 +5.68888987331E-04 +3.04050077655E-03 -6.33001380102E-02 +8.74317686069E-01
1.44000000000E+09 +1.34821228451E-01 +8.23581728674E-01 +6.38501601462E-04 +3.09798713744E-03 +9.11188291014E-04 +3.08612697419E-03 -3.53487190529E-02 +8.65680814428E-01
1.44500000000E+09 +1.57100171765E-01 +8.10299409647E-01 +1.13524741441E-03 +3.17312488581E-03 +1.34953337535E-03 +3.13548074272E-03 -5.07868003217E-03 +8.54539299209E-01
1.45000000000E+09 +1.80979331614E-01 +7.93553644017E-01 +1.35250226589E-03 +3.29580744990E-03 +1.62700661460E-03 +3.26335772600E-03 +2.69477916032E-02 +8.39829940568E-01
1.45500000000E+09 +2.06812920151E-01 +7.72910235533E-01 +1.77303872579E-03 +3.83013102176E-03 +2.15205876764E-03 +3.67754748082E-03 +5.98715424262E-02 +8.21880513356E-01
1.46000000000E+09 +2.35026615515E-01 +7.47811885978E-01 +2.82469988701E-03 +4.33844200816E-03 +3.11954563077E-03 +3.91464009315E-03 +9.45962191347E-02 +8.00700395285E-01
1.46500000000E+09 +2.65136126103E-01 +7.18378272465E-01 +4.15143913707E-03 +4.44118411434E-03 +4.10403308852E-03 +3.80512671040E-03 +1.31089197409E-01 +7.73986910758E-01
1.47000000000E+09 +2.96457564100E-01 +6.83479321694E-01 +5.90730852365E-03 +4.15550140709E-03 +5.40371655128E-03 +3.72789464861E-03 +1.68480072652E-01 +7.40266886779E-01
1.47500000000E+09 +3.27565512666E-01 +6.42809191379E-01 +7.27554504707E-03 +2.94860853193E-03 +6.81740243841E-03 +3.01242678179E-03 +2.05583457581E-01 +6.99172393691E-01
1.48000000000E+09 +3.56164116769E-01 +5.95643955002E-01 +8.23601180192E-03 +1.86933822692E-03 +8.24400592535E-03 +2.15100394329E-03 +2.41940171749E-01 +6.49811813824E-01
1.48500000000E+09 +3.79865467211E-01 +5.42106283629E-01 +9.49469928653E-03 +6.23682032819E-04 +9.73691710650E-03 +5.39622457689E-04 +2.75929174342E-01 +5.91452681341E-01
1.49000000000E+09 +3.97545739805E-01 +4.81981131469E-01 +1.10605750766E-02 -1.36266698880E-03 +1.09915365810E-02 -1.86137145675E-03 +3.05363078883E-01 +5.22090158583E-01
1.49500000000E+09 +4.07734330765E-01 +4.15214430724E-01 +1.19212403568E-02 -4.26602557676E-03 +1.12300697537E-02 -4.50568188815E-03 +3.24084675829E-01 +4.40974136640E-01
1.50000000000E+09 +4.08370289917E-01 +3.39564688620E-01 +1.25496594591E-02 -7.70847400090E-03 +1.17815289426E-02 -7.24268729173E-03 +3.28673353925E-01 +3.51960709410E-01
1.50500000000E+09 +3.96913786808E-01 +2.56797055309E-01 +1.12733157394E-02 -1.25978953390E-02 +1.11968765928E-02 -1.17209397160E-02 +3.17704002065E-01 +2.55674641586E-01
1.51000000000E+09 +3.69138205176E-01 +1.67329781689E-01 +8.18476563511E-03 -1.70342025479E-02 +8.77173118836E-03 -1.65419235067E-02 +2.86758375435E-01 +1.54580169250E-01
1.51500000000E+09 +3.22368914428E-01 +7.79138564354E-02 +2.46500030738E-03 -2.02891390166E-02 +3.03960974116E-03 -2.04329818010E-02 +2.31599810503E-01 +5.62638882093E-02
1.52000000000E+09 +2.56341680044E-01 -5.71167464450E-03 -4.51701936482E-03 -2.07661388603E-02 -4.26484419363E-03 -2.11171577287E-02 +1.55427856396E-01 -3.08529829610E-02
1.52500000000E+09 +1.71418961598E-01 -7.67123245977E-02 -1.01718350350E-02 -1.76748740894E-02 -1.01607201921E-02 -1.80125618588E-02 +5.93048191726E-02 -1.00448914903E-01
1.53000000000E+09 +7.26720547095E-02 -1.26717129683E-01 -1.37410892337E-02 -1.45483742945E-02 -1.38527350344E-02 -1.47417781946E-02 -4.93789701984E-02 -1.46416229967E-01
1.53500000000E+09 -3.36138035495E-02 -1.53337115517E-01 -1.73120092303E-02 -1.09850485059E-02 -1.74363189052E-02 -1.10322522632E-02 -1.63344773212E-01 -1.65476714829E-01
1.54000000000E+09 -1.41765142789E-01 -1.56313394018E-01 -2.00295717567E-02 -5.72533870561E-03 -1.99041244257E-02 -5.72240298506E-03 -2.73066768220E-01 -1.61170258218E-01
1.54500000000E+09 -2.46348013974E-01 -1.35205740993E-01 -2.03645819257E-02 +8.89623539389E-04 -2.02089330095E-02 +5.03003753568E-04 -3.72114779980E-01 -1.35514201774E-01
1.55000000000E+09 -3.40981236200E-01 -9.35731602802E-02 -1.77127736837E-02 +6.19089791953E-03 -1.79918904100E-02 +5.59125752932E-03 -4.57156603484E-01 -9.68100411915E-02
1.55500000000E+09 -4.19199858173E-01 -3.73374034987E-02 -1.45296045752E-02 +9.74130133947E-03 -1.52934279091E-02 +9.42374513234E-03 -5.27267165437E-01 -4.84234271731E-02
1.56000000000E+09 -4.80290475290E-01 +2.31584213107E-02 -1.02979148637E-02 +1.22054033082E-02 -1.12014037011E-02 +1.24621295535E-02 -5.83671407971E-01 +5.24083082244E-03
1.56500000000E+09 -5.28209477124E-01 +8.29933999288E-02 -6.02463544487E-03 +1.25021920126E-02 -6.50681475207E-03 +1.32480861907E-02 -6.26978283782E-01 +6.08147465006E-02
1.57000000000E+09 -5.66458059920E-01 +1.41041708581E-01 -3.11064070651E-03 +1.14272964214E-02 -3.11350868428E-03 +1.21800572149E-02 -6.59987030420E-01 +1.15817469585E-01
