# Hz S RI R 50
! CMT, C1220, 16058040, 17.2.0/1
! Date: 14/08/2018 12:54:52
! Data: Format (Calibration Info)
! Freq                      S11: Re/Im (F2)                       S21: Re/Im (F2)                       S12: Re/Im (F2)                       S22: Re/Im (F2)            
1.00000000000E+09 -6.46142912972E-01 +7.13254051591E-01 +1.99114269900E-05 +5.10726879117E-05 -2.79781990331E-05 +1.13103713071E-05 -7.19177027188E-01 +6.45510783269E-01
1.00500000000E+09 -6.39560826853E-01 +7.17778045614E-01 +1.81163091758E-05 +9.88114264512E-06 +1.65259470107E-05 -2.58142223796E-06 -7.15310533630E-01 +6.49475387640E-01
1.01000000000E+09 -6.33762314513E-01 +7.22121814626E-01 -5.53342796907E-05 +2.60218317773E-06 -2.20876906374E-05 -1.15928154490E-05 -7.11594909931E-01 +6.52984776475E-01
1.01500000000E+09 -6.29049812898E-01 +7.25998601087E-01 -2.22426971631E-05 +2.37320778024E-05 -6.87170422322E-05 +2.02654274762E-05 -7.08439174829E-01 +6.56423794187E-01
1.02000000000E+09 -6.25093157198E-01 +7.29717762889E-01 +4.79508675541E-05 +6.46670115040E-05 +4.31582885936E-05 +1.31023686907E-05 -7.04743918011E-01 +6.59937322682E-01
1.02500000000E+09 -6.21583387207E-01 +7.32796886193E-01 +3.34185751107E-05 -2.90064937114E-06 -4.99583394831E-05 +4.29217813936E-05 -7.01855541684E-01 +6.63483114931E-01
1.03000000000E+09 -6.18262056008E-01 +7.36065465211E-01 +7.71629945934E-06 -2.08209090318E-06 -1.56757605545E-05 +9.59589534351E-06 -6.98094593280E-01 +6.67259300674E-01
1.03500000000E+09 -6.14221451501E-01 +7.39195010264E-01 -1.26911730547E-05 -1.19646528566E-05 +8.78632413460E-06 -4.56780100713E-06 -6.94034705203E-01 +6.71189014286E-01
1.04000000000E+09 -6.09382333628E-01 +7.42439620264E-01 +1.77744577657E-05 -1.00018095237E-05 -1.16610046815E-05 +6.05777122357E-05 -6.89973573351E-01 +6.74498482564E-01
1.04500000000E+09 -6.03602766268E-01 +7.46264470907E-01 +4.34709010496E-06 +3.28658956688E-06 -1.10799464091E-05 -2.81358673324E-06 -6.86250789098E-01 +6.77974828091E-01
1.05000000000E+09 -5.96442348636E-01 +7.50252779769E-01 +2.72447750599E-05 +2.94294692722E-05 +3.18538956676E-05 -2.72838562591E-06 -6.82719714512E-01 +6.81256488996E-01
1.05500000000E+09 -5.88726923279E-01 +7.54711825250E-01 -9.08407087490E-06 +1.35588978399E-05 +2.06376707004E-05 +7.12774460552E-06 -6.79340938665E-01 +6.84606653168E-01
1.06000000000E+09 -5.80626013031E-01 +7.59354498219E-01 +1.80744755255E-05 +3.37314307709E-05 -7.86605299066E-06 +2.93863344393E-05 -6.75673698740E-01 +6.88363139617E-01
1.06500000000E+09 -5.72933242006E-01 +7.63932947211E-01 +1.85613469658E-05 +5.60423109505E-05 +8.80918780507E-06 +4.27650512207E-05 -6.71789281285E-01 +6.92093506439E-01
1.07000000000E+09 -5.65683770045E-01 +7.67872073400E-01 -8.54631993120E-06 +3.64279358080E-05 +1.57546693314E-05 +4.37177046675E-05 -6.67375090566E-01 +6.95691607288E-01
1.07500000000E+09 -5.59563977734E-01 +7.71775752326E-01 +1.15960978721E-05 +4.24904495524E-05 +2.85135193523E-06 -3.66362233462E-05 -6.63015737349E-01 +6.99237091208E-01
1.08000000000E+09 -5.54497937916E-01 +7.74953947066E-01 +2.89544503407E-05 +3.71282027253E-05 +9.32824248689E-06 +3.16312711712E-05 -6.58851002284E-01 +7.02790174116E-01
1.08500000000E+09 -5.50471927011E-01 +7.77724316201E-01 +2.26216714661E-05 -6.74141906282E-06 -2.68223513156E-07 +4.19361158067E-05 -6.54915016730E-01 +7.06189986030E-01
1.09000000000E+09 -5.46894434024E-01 +7.80192255151E-01 +3.23803669732E-05 +2.37884491191E-05 +5.28045495201E-05 +1.10103885442E-05 -6.50922504771E-01 +7.09998004081E-01
1.09500000000E+09 -5.43615071307E-01 +7.82319861385E-01 +2.28046410657E-05 +3.93033807079E-05 +4.64190403183E-05 -8.89992680018E-06 -6.47135053609E-01 +7.13642935287E-01
1.10000000000E+09 -5.39753295465E-01 +7.84905900871E-01 +3.83495378338E-05 -2.97923057236E-06 +7.56149827858E-05 +3.36359388238E-05 -6.42928232106E-01 +7.17233930408E-01
1.10500000000E+09 -5.35303256808E-01 +7.87535123474E-01 +6.70049678665E-05 +3.84495964559E-05 +7.26200767833E-05 +5.54595795204E-05 -6.38422400526E-01 +7.20635237864E-01
1.11000000000E+09 -5.29795153225E-01 +7.90657099953E-01 +7.31049968104E-05 +4.24309909514E-05 +7.34051316236E-05 +3.83684695819E-05 -6.34035062475E-01 +7.23784174067E-01
1.11500000000E+09 -5.23532094624E-01 +7.94179417370E-01 +5.28658969522E-05 +2.80496949869E-05 +4.76319712111E-05 +1.61038560176E-05 -6.30012086461E-01 +7.26997390969E-01
1.12000000000E+09 -5.16519595411E-01 +7.97538027790E-01 +3.08937442010E-05 -1.32991498290E-05 +3.77451687535E-05 +2.09069950560E-05 -6.25889443027E-01 +7.30460021620E-01
1.12500000000E+09 -5.09129505150E-01 +8.01012759896E-01 +7.25602177782E-05 +2.30583280715E-05 +4.15876907973E-05 -2.87101790842E-05 -6.21418847794E-01 +7.34207896942E-01
1.13000000000E+09 -5.01927787966E-01 +8.04222854148E-01 +9.54347749590E-05 +2.54972818563E-05 +4.64331017177E-05 -1.52724710865E-05 -6.16946395930E-01 +7.37740632803E-01
1.13500000000E+09 -4.94966258787E-01 +8.06549835107E-01 +8.83251022764E-05 +6.02497669091E-06 +9.12254778522E-05 -2.02476035334E-05 -6.11992311648E-01 +7.41347834365E-01
1.14000000000E+09 -4.88660825120E-01 +8.08818629245E-01 +2.23256884762E-05 -5.73736733204E-06 +1.01658884606E-04 -4.55034428245E-06 -6.07174690715E-01 +7.44668137476E-01
1.14500000000E+09 -4.82848866136E-01 +8.10619089425E-01 +5.17360676339E-05 -9.68228971304E-06 +1.01530456728E-04 -4.03122864429E-05 -6.02330147955E-01 +7.47960262003E-01
1.15000000000E+09 -4.77560593736E-01 +8.12198580040E-01 +9.23293900402E-05 -3.19575795847E-05 +7.08410861748E-05 -6.15278365048E-05 -5.97393724147E-01 +7.51608205588E-01
1.15500000000E+09 -4.72266970969E-01 +8.14071022500E-01 +6.38810114040E-05 -1.71942480161E-05 +1.06705756866E-04 -4.94823486227E-05 -5.92403116256E-01 +7.55263093331E-01
1.16000000000E+09 -4.66533088022E-01 +8.15963763069E-01 +8.46853757944E-05 -3.81317960070E-05 +9.89178036914E-05 -4.14456559553E-05 -5.87564021075E-01 +7.58861671712E-01
1.16500000000E+09 -4.60525774430E-01 +8.18671829287E-01 +7.44993083467E-05 -5.37055115813E-05 +8.34340172880E-05 -2.15975580044E-05 -5.82504646271E-01 +7.62300424877E-01
1.17000000000E+09 -4.53784248043E-01 +8.21566127080E-01 +9.49164152892E-05 -4.26921162023E-05 +6.45725622845E-05 -9.87692371144E-05 -5.76915121042E-01 +7.65296159271E-01
1.17500000000E+09 -4.46583236216E-01 +8.24463423292E-01 +9.81437108465E-05 -6.31009431522E-05 +7.45552376387E-05 -6.80136428438E-05 -5.71173073543E-01 +7.68288954983E-01
1.18000000000E+09 -4.39016454248E-01 +8.27722818609E-01 +1.28352016782E-04 -9.24642197639E-05 +9.82061617134E-05 -1.23500276374E-04 -5.65718355592E-01 +7.71107975931E-01
1.18500000000E+09 -4.31042408820E-01 +8.30555215151E-01 +1.25011660352E-04 -1.01251928582E-04 +1.27713877101E-04 -1.40813540951E-04 -5.59874628442E-01 +7.73930596395E-01
1.19000000000E+09 -4.23400392711E-01 +8.32916555670E-01 +1.11788862750E-04 -1.26200054768E-04 +7.72715961962E-05 -1.60580800313E-04 -5.53630238260E-01 +7.76285844611E-01
1.19500000000E+09 -4.15962795270E-01 +8.34602827325E-01 +1.48329207292E-04 -2.10826078404E-04 +1.17247673326E-04 -2.23838337725E-04 -5.47759985275E-01 +7.77341663283E-01
1.20000000000E+09 -4.08844743244E-01 +8.35353255451E-01 +2.43338819069E-05 -2.86475565525E-04 +3.93997035794E-05 -2.72093890737E-04 -5.43108416759E-01 +7.77360083499E-01
1.20500000000E+09 -4.01968832074E-01 +8.36490418616E-01 -1.18178144651E-04 -2.00400015118E-04 -1.21415557287E-04 -2.09508798401E-04 -5.40529253617E-01 +7.78098594268E-01
1.21000000000E+09 -3.95076222972E-01 +8.37574797364E-01 -7.72914697987E-05 -1.07796244409E-04 -1.10537991669E-04 -6.11462960116E-05 -5.38388898816E-01 +7.81112816276E-01
1.21500000000E+09 -3.87588818748E-01 +8.39106773144E-01 -7.38804354616E-05 -1.39892901155E-04 -4.11515065403E-05 -1.74586161759E-04 -5.35379259733E-01 +7.85483891017E-01
1.22000000000E+09 -3.79388377057E-01 +8.40840206901E-01 -1.52814049919E-05 -1.52834172352E-04 -4.57165470154E-05 -1.43274822422E-04 -5.30980269036E-01 +7.90721549378E-01
1.22500000000E+09 -3.70788153080E-01 +8.43363338788E-01 -6.13272427956E-05 -1.73409477004E-04 -6.50162181244E-05 -1.45708459715E-04 -5.25672005327E-01 +7.95382350572E-01
1.23000000000E+09 -3.62150407254E-01 +8.45951021646E-01 -5.24940760481E-05 -1.40456941207E-04 -4.68512154921E-05 -2.10181217393E-04 -5.19895218420E-01 +7.99793081175E-01
1.23500000000E+09 -3.53623104678E-01 +8.48914173657E-01 -6.82013356907E-05 -1.32026600440E-04 -9.74626771960E-05 -1.45812348607E-04 -5.13956888057E-01 +8.03888863717E-01
1.24000000000E+09 -3.45123380535E-01 +8.52011524361E-01 -3.06683581041E-05 -1.43178248723E-04 -1.18049145219E-04 -1.89569370364E-04 -5.07866790494E-01 +8.07272966878E-01
1.24500000000E+09 -3.37329047454E-01 +8.55050097967E-01 -1.16598168342E-04 -1.59122257047E-04 -9.72749207889E-05 -1.53527057840E-04 -5.01537928033E-01 +8.10835579606E-01
1.25000000000E+09 -3.29681291045E-01 +8.57530567864E-01 -1.21247366154E-04 -1.32974958484E-04 -7.48330127864E-05 -1.60935858062E-04 -4.95080042854E-01 +8.14790760119E-01
1.25500000000E+09 -3.22114527931E-01 +8.59227156973E-01 -1.57159258368E-04 -1.85785118748E-04 -1.44834143513E-04 -1.60148949619E-04 -4.88186647355E-01 +8.18522335416E-01
1.26000000000E+09 -3.14420982594E-01 +8.60184208054E-01 -1.61453775251E-04 -2.06119042964E-04 -1.53073287485E-04 -2.17939878697E-04 -4.81546295170E-01 +8.22354447658E-01
1.26500000000E+09 -3.06550026858E-01 +8.60395655899E-01 -2.05255399836E-04 -2.13365080187E-04 -2.16410713930E-04 -2.04809406072E-04 -4.74498245133E-01 +8.25741078186E-01
1.27000000000E+09 -2.98073898610E-01 +8.60659992309E-01 -2.00327553447E-04 -1.57008314048E-04 -2.27137527274E-04 -1.96297129261E-04 -4.67587646526E-01 +8.29333126491E-01
1.27500000000E+09 -2.88672644640E-01 +8.60986326634E-01 -3.42413912665E-04 -1.69125394288E-04 -3.09574100590E-04 -2.08683929572E-04 -4.60490047983E-01 +8.32523019395E-01
1.28000000000E+09 -2.78394964082E-01 +8.61547780492E-01 -3.02763908647E-04 -1.38037049654E-04 -3.20818810647E-04 -1.46383473156E-04 -4.53434437834E-01 +8.35793041856E-01
1.28500000000E+09 -2.67156838768E-01 +8.62566500055E-01 -3.13859968054E-04 -1.23250607836E-04 -3.86885319904E-04 -1.17962251730E-04 -4.45885810795E-01 +8.39217737097E-01
1.29000000000E+09 -2.55886562352E-01 +8.64045692775E-01 -3.44354071141E-04 -1.07067154153E-04 -3.98248689950E-04 -7.14381080252E-05 -4.38301839420E-01 +8.42499453488E-01
1.29500000000E+09 -2.45274621497E-01 +8.66122053503E-01 -4.04649373766E-04 -1.21035142948E-04 -4.78832070135E-04 -1.15855788037E-04 -4.30330384339E-01 +8.45707162676E-01
1.30000000000E+09 -2.35119841870E-01 +8.68645497574E-01 -4.63070075717E-04 -8.99304547577E-05 -5.31013818318E-04 -6.24855708317E-05 -4.22517970937E-01 +8.48767747123E-01
1.30500000000E+09 -2.25757325741E-01 +8.71272189508E-01 -5.53596115987E-04 -5.10057252597E-06 -5.59027916121E-04 +5.44046594642E-05 -4.14537871279E-01 +8.51978157870E-01
1.31000000000E+09 -2.16716817287E-01 +8.73396611154E-01 -5.83830056079E-04 +8.90853988641E-05 -5.55786994357E-04 +7.08190526743E-05 -4.06199962150E-01 +8.55115944201E-01
1.31500000000E+09 -2.08476954703E-01 +8.74566682185E-01 -4.96027370464E-04 +2.22146343237E-04 -5.00394231373E-04 +2.17236135772E-04 -3.97525662731E-01 +8.58074477361E-01
1.32000000000E+09 -2.00657066769E-01 +8.74701706255E-01 -5.12304138734E-04 +2.59890392646E-04 -5.29951297845E-04 +2.22837070728E-04 -3.88411349965E-01 +8.61103253152E-01
1.32500000000E+09 -1.92869636795E-01 +8.73872130614E-01 -5.14980827527E-04 +3.22960134110E-04 -5.77449472523E-04 +2.34761394819E-04 -3.79012377265E-01 +8.64058390862E-01
1.33000000000E+09 -1.84131992884E-01 +8.72855781176E-01 -5.38865061745E-04 +3.83314471592E-04 -5.89736252624E-04 +4.28623148226E-04 -3.69743066930E-01 +8.66827019376E-01
1.33500000000E+09 -1.74286009594E-01 +8.71447577552E-01 -6.32687676258E-04 +4.66256173446E-04 -5.43512075957E-04 +5.00192834805E-04 -3.60035567245E-01 +8.69574743852E-01
1.34000000000E+09 -1.62686370466E-01 +8.70294366986E-01 -5.36540439352E-04 +5.97612921487E-04 -4.32397852195E-04 +5.68330372096E-04 -3.50044365722E-01 +8.72587534877E-01
1.34500000000E+09 -1.49876695168E-01 +8.69533436968E-01 -4.98427162586E-04 +6.67779400454E-04 -4.52939205166E-04 +6.83901586409E-04 -3.39304033011E-01 +8.75324438761E-01
1.35000000000E+09 -1.35822715542E-01 +8.68899337699E-01 -4.56976409698E-04 +7.82517936389E-04 -4.34839705802E-04 +7.61010509654E-04 -3.28389164577E-01 +8.77791908395E-01
1.35500000000E+09 -1.21131075759E-01 +8.69132985823E-01 -4.12189923932E-04 +8.20539097073E-04 -3.67869063389E-04 +7.93914963007E-04 -3.16996525507E-01 +8.80011699598E-01
1.36000000000E+09 -1.06121400410E-01 +8.69414275128E-01 -3.64726396436E-04 +9.21991411937E-04 -3.55176914806E-04 +9.13040399825E-04 -3.05402851068E-01 +8.82240378094E-01
1.36500000000E+09 -9.09995647091E-02 +8.69436342654E-01 -2.67976605568E-04 +1.04075439533E-03 -2.86597578099E-04 +9.97350592223E-04 -2.93590391523E-01 +8.84264041083E-01
1.37000000000E+09 -7.64729872442E-02 +8.68325331371E-01 -1.90928158006E-04 +1.25924670575E-03 -2.49385045376E-04 +1.12260364660E-03 -2.81136773632E-01 +8.86086402568E-01
1.37500000000E+09 -6.31861709401E-02 +8.66251341591E-01 +1.85032835369E-05 +1.30204692461E-03 -1.25606151855E-04 +1.27210779884E-03 -2.67655769263E-01 +8.87904755877E-01
1.38000000000E+09 -5.05487412296E-02 +8.63240982747E-01 +1.25131984449E-04 +1.33364216022E-03 -3.41928525172E-05 +1.37947503409E-03 -2.53370252703E-01 +8.89335031713E-01
1.38500000000E+09 -3.78800902802E-02 +8.59313198468E-01 +2.35834019341E-04 +1.42902072164E-03 +1.40365658686E-04 +1.65675950524E-03 -2.38333349414E-01 +8.90717353667E-01
1.39000000000E+09 -2.52643536819E-02 +8.54830590473E-01 +3.95821000655E-04 +1.54216770259E-03 +4.46861129127E-04 +1.79752127493E-03 -2.23138443000E-01 +8.91641355163E-01
1.39500000000E+09 -1.15615958194E-02 +8.50011825397E-01 +5.80161314518E-04 +1.66662801642E-03 +8.33213653830E-04 +1.77272910527E-03 -2.07062767531E-01 +8.91873647213E-01
1.40000000000E+09 +3.42027186358E-03 +8.44528738703E-01 +8.82576340972E-04 +1.80635209342E-03 +1.05000081870E-03 +1.74725893248E-03 -1.90336264434E-01 +8.91850046088E-01
1.40500000000E+09 +1.91000767753E-02 +8.39335444411E-01 +1.30671562485E-03 +1.91038119456E-03 +1.35402759068E-03 +1.78303361586E-03 -1.72581812245E-01 +8.91121096063E-01
1.41000000000E+09 +3.60042536984E-02 +8.34472701436E-01 +1.73963666272E-03 +1.70356886491E-03 +1.71712503534E-03 +1.70018781610E-03 -1.53203429420E-01 +8.89838056959E-01
1.41500000000E+09 +5.43311437905E-02 +8.29853067981E-01 +1.95796249970E-03 +1.51550966664E-03 +2.01005356532E-03 +1.63672770566E-03 -1.32426499213E-01 +8.87829971587E-01
1.42000000000E+09 +7.45383829722E-02 +8.24367710760E-01 +2.25464414618E-03 +1.39361161453E-03 +2.48348184372E-03 +1.59227205661E-03 -1.10640492448E-01 +8.84709169641E-01
1.42500000000E+09 +9.56744715973E-02 +8.16990397555E-01 +2.64339086530E-03 +1.28563352026E-03 +3.00154667139E-03 +1.24891639096E-03 -8.79146636367E-02 +8.80501039976E-01
1.43000000000E+09 +1.17159473152E-01 +8.06985625400E-01 +3.12690268162E-03 +1.19692004410E-03 +3.49468952960E-03 +1.04120144795E-03 -6.45986014899E-02 +8.75478826345E-01
1.43500000000E+09 +1.38189112842E-01 +7.94098109308E-01 +3.99007398161E-03 +7.97532796922E-04 +4.13205866145E-03 +4.54910486642E-04 -3.94231006802E-02 +8.68518105007E-01
1.44000000000E+09 +1.59575682176E-01 +7.79547179971E-01 +4.57154751421E-03 -1.96224663653E-04 +4.53690700255E-03 -5.40069566485E-04 -1.29612957200E-02 +8.59466080169E-01
1.44500000000E+09 +1.81917125018E-01 +7.62246101776E-01 +4.44848308443E-03 -1.17842463437E-03 +4.51720410968E-03 -1.42094032731E-03 +1.55685060467E-02 +8.48083260475E-01
1.45000000000E+09 +2.04942125045E-01 +7.42237890686E-01 +4.43462490769E-03 -1.69025687373E-03 +4.41605950287E-03 -1.96957290402E-03 +4.58285984016E-02 +8.33520880138E-01
1.45500000000E+09 +2.29173355473E-01 +7.20021287335E-01 +4.64551985610E-03 -2.23959029863E-03 +4.47157810438E-03 -2.70848517410E-03 +7.69933049988E-02 +8.16268882272E-01
1.46000000000E+09 +2.54522377648E-01 +6.95659673675E-01 +4.98873839114E-03 -3.16168215455E-03 +4.51364083526E-03 -3.44811571266E-03 +1.09994301451E-01 +7.95245756930E-01
1.46500000000E+09 +2.81289470429E-01 +6.69047930545E-01 +5.10045761658E-03 -4.42692027987E-03 +4.48498024402E-03 -4.32128119845E-03 +1.43939340005E-01 +7.69030905428E-01
1.47000000000E+09 +3.10086571615E-01 +6.38705001065E-01 +5.08603704757E-03 -6.17144283966E-03 +4.65286884612E-03 -5.68942182182E-03 +1.78694433086E-01 +7.36448181353E-01
1.47500000000E+09 +3.39510621735E-01 +6.02242849211E-01 +3.90560642304E-03 -8.24049925380E-03 +4.05316091121E-03 -7.70451370538E-03 +2.13386846457E-01 +6.96647516131E-01
1.48000000000E+09 +3.66842182788E-01 +5.58303865443E-01 +2.20655388903E-03 -9.59951594579E-03 +2.55382252923E-03 -9.51817711456E-03 +2.47715818443E-01 +6.49304464783E-01
1.48500000000E+09 +3.89762982767E-01 +5.05935088170E-01 +5.85636724841E-04 -1.07230897757E-02 +5.03718264774E-04 -1.09676667365E-02 +2.79853997831E-01 +5.92932103141E-01
1.49000000000E+09 +4.06391498224E-01 +4.45440508205E-01 -1.68062378416E-03 -1.20744141436E-02 -2.27952841774E-03 -1.19489452530E-02 +3.07077489677E-01 +5.26571229993E-01
1.49500000000E+09 +4.15571828709E-01 +3.77156257694E-01 -5.15874106350E-03 -1.28162947046E-02 -5.48173982533E-03 -1.20886235907E-02 +3.25173094876E-01 +4.49496689939E-01
1.50000000000E+09 +4.15335752480E-01 +2.99824215611E-01 -8.94058811798E-03 -1.22173589272E-02 -8.37976362906E-03 -1.14748187020E-02 +3.30633781227E-01 +3.62854511974E-01
1.50500000000E+09 +4.02081568884E-01 +2.15041983198E-01 -1.27875406814E-02 -1.06420716285E-02 -1.19197601428E-02 -1.06457688479E-02 +3.19549922364E-01 +2.68172279429E-01
1.51000000000E+09 +3.73190988530E-01 +1.26325306829E-01 -1.64879427694E-02 -7.23785774139E-03 -1.59711477655E-02 -7.86419796382E-03 +2.87743484563E-01 +1.68639249556E-01
1.51500000000E+09 +3.25207235735E-01 +3.74646144341E-02 -1.89845628191E-02 -2.83980950571E-03 -1.90823502637E-02 -3.40366875613E-03 +2.32171349351E-01 +7.31447295303E-02
1.52000000000E+09 +2.57207601417E-01 -4.24132694516E-02 -2.02445938031E-02 +2.41163118103E-03 -2.05540098457E-02 +2.15696829453E-03 +1.54980285649E-01 -1.05545154720E-02
1.52500000000E+09 +1.72060666907E-01 -1.08380829894E-01 -1.96924149567E-02 +9.43413828180E-03 -1.99687402630E-02 +9.38037783072E-03 +6.13467215843E-02 -7.69809051993E-02
1.53000000000E+09 +7.21738747914E-02 -1.54494849409E-01 -1.49909699241E-02 +1.48952249769E-02 -1.51532207564E-02 +1.49889375407E-02 -4.81154564902E-02 -1.20615426557E-01
1.53500000000E+09 -3.56855849834E-02 -1.76809792760E-01 -1.02499084798E-02 +1.78514904514E-02 -1.02385914467E-02 +1.78486773916E-02 -1.59809536216E-01 -1.37201734829E-01
1.54000000000E+09 -1.46951243212E-01 -1.73874722605E-01 -4.82898075959E-03 +1.94850132608E-02 -4.86716586868E-03 +1.92566019990E-02 -2.69434824825E-01 -1.30273328766E-01
1.54500000000E+09 -2.51349237728E-01 -1.45968438956E-01 +1.12500172711E-03 +1.93876633808E-02 +7.23448178013E-04 +1.91839308745E-02 -3.67835321641E-01 -1.02237750802E-01
1.55000000000E+09 -3.42782403415E-01 -1.00945624845E-01 +5.76551380631E-03 +1.66412532722E-02 +5.10364127736E-03 +1.68052901261E-02 -4.50820522973E-01 -5.97428390050E-02
1.55500000000E+09 -4.18496327826E-01 -4.43982191055E-02 +8.67067249723E-03 +1.38008784775E-02 +8.24617185189E-03 +1.45419533565E-02 -5.18549134276E-01 -8.59957043695E-03
1.56000000000E+09 -4.77870401040E-01 +1.52981710249E-02 +1.11593637030E-02 +1.04949586075E-02 +1.12915673419E-02 +1.13926055006E-02 -5.71770560203E-01 +4.70519617056E-02
1.56500000000E+09 -5.24744405790E-01 +7.58238993268E-02 +1.18268375661E-02 +6.52046997998E-03 +1.24632837156E-02 +7.09308134458E-03 -6.13014144351E-01 +1.04344212047E-01
1.57000000000E+09 -5.59806070783E-01 +1.35673684198E-01 +1.12754750084E-02 +3.92350948590E-03 +1.20547974358E-02 +4.01748715788E-03 -6.42917882694E-01 +1.61252927995E-01
