# Hz S RI R 50
! CMT, C1220, 16058040, 17.2.0/1
! Date: 14/08/2018 12:55:55
! Data: Format (Calibration Info)
! Freq                      S11: Re/Im (F2)                       S21: Re/Im (F2)                       S12: Re/Im (F2)                       S22: Re/Im (F2)            
1.00000000000E+09 -6.46432220186E-01 +7.13482824068E-01 +6.85098412150E-06 +7.90055654831E-05 -1.23291588908E-05 +4.06028363291E-06 -7.19012162202E-01 +6.45658918893E-01
1.00500000000E+09 -6.39752023127E-01 +7.18200402995E-01 +8.87950559676E-06 +1.91436611854E-05 +1.10734957775E-05 +5.31238406160E-05 -7.15310584278E-01 +6.49624167995E-01
1.01000000000E+09 -6.33850753081E-01 +7.22636722687E-01 -1.72582558640E-05 -1.97129481580E-05 +4.57813925908E-05 +1.83590755609E-05 -7.11653323152E-01 +6.53109995881E-01
1.01500000000E+09 -6.29021344599E-01 +7.26558876515E-01 +1.40041715738E-05 +5.33431496700E-06 +1.79124418467E-05 -1.36833847126E-05 -7.08274953597E-01 +6.56683982383E-01
1.02000000000E+09 -6.25108012006E-01 +7.30127930368E-01 +6.84983195025E-06 +1.25262729660E-05 +2.28429925848E-05 +2.52560898841E-05 -7.04713287108E-01 +6.59996939639E-01
1.02500000000E+09 -6.21611623268E-01 +7.33510797359E-01 +3.46272431557E-05 +3.61876712203E-05 -6.24611545448E-06 +6.72124726057E-05 -7.01665895660E-01 +6.63614253971E-01
1.03000000000E+09 -6.18524269224E-01 +7.36470616698E-01 +4.95330782123E-05 +6.64781522335E-05 +2.50452432934E-05 -1.16500489328E-05 -6.97896589947E-01 +6.67333415205E-01
1.03500000000E+09 -6.14660855105E-01 +7.39427684563E-01 -1.69926685192E-05 +3.21014014169E-05 -3.01152238721E-05 +2.71669215479E-05 -6.93837404430E-01 +6.71459320096E-01
1.04000000000E+09 -6.10041984594E-01 +7.42785657798E-01 -1.57637972879E-05 +2.61512440146E-05 +4.14330926291E-05 -8.52126115071E-06 -6.89861208415E-01 +6.74729254998E-01
1.04500000000E+09 -6.04339158900E-01 +7.46438249414E-01 -2.85840024197E-05 +2.25966743619E-05 +4.73116888778E-05 -1.25737105826E-06 -6.86110952091E-01 +6.78167963405E-01
1.05000000000E+09 -5.97338050918E-01 +7.50549791168E-01 -1.20275507539E-06 +4.35780242601E-05 -3.35218082617E-06 +4.91687279631E-05 -6.82707198759E-01 +6.81539107132E-01
1.05500000000E+09 -5.89729680565E-01 +7.54820887943E-01 +2.67695415347E-06 +2.68150352713E-05 -1.28460870591E-05 +8.47017986081E-05 -6.79160040095E-01 +6.84839390815E-01
1.06000000000E+09 -5.81559097534E-01 +7.59634423867E-01 +3.25677017690E-05 +9.96066313803E-06 -3.60984749828E-07 +3.05004393302E-05 -6.75656801904E-01 +6.88750145942E-01
1.06500000000E+09 -5.73424749338E-01 +7.64268307998E-01 +4.92511603257E-05 +1.36480171711E-05 +5.53076855739E-05 -9.77609422607E-06 -6.71558133083E-01 +6.92347463250E-01
1.07000000000E+09 -5.66271571894E-01 +7.68345559782E-01 +1.98955107423E-05 +2.19868321138E-05 +6.76461880487E-05 +1.85475070339E-05 -6.67141526821E-01 +6.95843721556E-01
1.07500000000E+09 -5.60135111584E-01 +7.72110209230E-01 +6.22204868781E-05 +3.07594694398E-05 -2.10003610338E-05 +5.10696091090E-05 -6.62780961826E-01 +6.99299174875E-01
1.08000000000E+09 -5.54967989429E-01 +7.75354964332E-01 +2.41334639151E-05 +2.09400218677E-06 +5.08874779851E-06 +3.25939614456E-05 -6.58768015129E-01 +7.03001225896E-01
1.08500000000E+09 -5.51108400087E-01 +7.78176118139E-01 +5.54162707203E-05 +4.91522282321E-05 -1.93804317854E-05 +3.82285104549E-05 -6.54648139060E-01 +7.06548262687E-01
1.09000000000E+09 -5.47738154895E-01 +7.80497064086E-01 +3.70024519550E-05 +2.73458992849E-06 +4.57806151644E-06 +2.83046287959E-05 -6.50719720030E-01 +7.10213060914E-01
1.09500000000E+09 -5.44737935383E-01 +7.82563431283E-01 +3.64377817305E-05 -2.27160303493E-06 +4.27620965006E-05 +3.45766683486E-05 -6.46827486556E-01 +7.13817465790E-01
1.10000000000E+09 -5.41088129614E-01 +7.84943780806E-01 +7.16924525558E-05 +7.53543246840E-07 +4.02785413480E-05 +5.50462147780E-05 -6.42685571700E-01 +7.17362960436E-01
1.10500000000E+09 -5.36763816448E-01 +7.87502258094E-01 +3.24942401605E-05 -6.41580988700E-06 -6.04471949150E-06 +8.18141129498E-06 -6.38271029073E-01 +7.20729040942E-01
1.11000000000E+09 -5.31317234160E-01 +7.90718470991E-01 +7.94855182672E-05 +4.04863948378E-05 +4.67267883766E-05 +2.41126930776E-05 -6.33984331016E-01 +7.24091627551E-01
1.11500000000E+09 -5.24869926611E-01 +7.94107538706E-01 +8.41031364366E-05 +4.60987808897E-06 +9.57189976385E-05 +4.69476269852E-05 -6.29916519351E-01 +7.27133149814E-01
1.12000000000E+09 -5.17918810701E-01 +7.97784456173E-01 +6.01551047713E-05 +2.80835701863E-05 +7.99628545664E-05 +2.41482121782E-05 -6.25706847708E-01 +7.30669192144E-01
1.12500000000E+09 -5.10307397257E-01 +8.01322515934E-01 +6.92757662188E-05 +2.35842842916E-05 +7.84711306663E-05 -4.80944015957E-06 -6.21302983717E-01 +7.34325348058E-01
1.13000000000E+09 -5.02950314126E-01 +8.04602014476E-01 +7.88610875161E-05 +8.61521773985E-06 +5.53907867858E-05 +5.68755406099E-06 -6.16770123799E-01 +7.38027380907E-01
1.13500000000E+09 -4.95876087965E-01 +8.07092675370E-01 +4.14511342908E-05 +5.02004863181E-05 +8.14744104571E-05 +1.90408946011E-05 -6.11848494558E-01 +7.41587876947E-01
1.14000000000E+09 -4.89508684962E-01 +8.09516401691E-01 +1.00024262609E-04 -3.84222259415E-05 +1.04162068453E-04 -7.90779056657E-07 -6.06933390891E-01 +7.44801039242E-01
1.14500000000E+09 -4.84012107623E-01 +8.11158418242E-01 +1.02419739158E-04 -2.20685088749E-05 +1.08233496000E-04 +1.09370373666E-05 -6.02121417047E-01 +7.48156824122E-01
1.15000000000E+09 -4.78814057295E-01 +8.12887252163E-01 +1.00238308215E-04 -2.17845942190E-05 +7.92213030830E-05 -1.98828602242E-05 -5.97235344442E-01 +7.51720656838E-01
1.15500000000E+09 -4.73696739322E-01 +8.14760276269E-01 +1.00751334568E-04 -2.99103603736E-05 +8.34417239160E-05 -1.24141347919E-05 -5.92437491805E-01 +7.55367783105E-01
1.16000000000E+09 -4.68132308699E-01 +8.16659112646E-01 +8.13479594263E-05 -2.66046274365E-05 +1.06092933564E-04 -5.41441313879E-05 -5.87368827668E-01 +7.59033546993E-01
1.16500000000E+09 -4.62329847617E-01 +8.19117489856E-01 +8.56727350161E-05 -2.47636636652E-05 +6.60336189931E-05 -2.93163742094E-05 -5.82166327499E-01 +7.62456008335E-01
1.17000000000E+09 -4.55625389299E-01 +8.21849475867E-01 +5.41769881322E-05 -5.65653418544E-05 +1.27343418715E-04 -6.02204701764E-06 -5.76709174916E-01 +7.65662601508E-01
1.17500000000E+09 -4.48407198891E-01 +8.24902855334E-01 +9.84302374905E-05 -8.23541457860E-05 +1.15282098098E-04 -6.68038285040E-05 -5.71038467799E-01 +7.68430712897E-01
1.18000000000E+09 -4.40899626603E-01 +8.28165054105E-01 +1.20829888212E-04 -1.02456520576E-04 +1.71372631815E-04 -1.17177772147E-04 -5.65436053144E-01 +7.71349624384E-01
1.18500000000E+09 -4.32916402852E-01 +8.31082584847E-01 +1.22369892159E-04 -1.43981834022E-04 +1.45914349734E-04 -1.41553904375E-04 -5.59690318965E-01 +7.74226538392E-01
1.19000000000E+09 -4.25082663212E-01 +8.33349183194E-01 +1.09673163362E-04 -1.78910474075E-04 +1.34832539480E-04 -1.97237036539E-04 -5.53504587181E-01 +7.76564377637E-01
1.19500000000E+09 -4.17490396650E-01 +8.35342622720E-01 +1.14684643733E-04 -2.27038762064E-04 +9.85438852460E-05 -2.35750610349E-04 -5.47542478699E-01 +7.77573397687E-01
1.20000000000E+09 -4.10471608903E-01 +8.36078894648E-01 -2.99936207688E-06 -3.06860658976E-04 -5.41133382315E-06 -3.31783629712E-04 -5.42970559097E-01 +7.77557678163E-01
1.20500000000E+09 -4.03814055812E-01 +8.37307959309E-01 -5.00399107537E-05 -2.67108614563E-04 -7.00374022840E-05 -2.40013856685E-04 -5.40434242935E-01 +7.78298953380E-01
1.21000000000E+09 -3.96930372400E-01 +8.38556974336E-01 -1.16318795552E-04 -1.61467138172E-04 -8.58277603246E-05 -1.30823879612E-04 -5.38194616227E-01 +7.81345200240E-01
1.21500000000E+09 -3.89497844808E-01 +8.40175501246E-01 -8.63108892830E-05 -1.13071030921E-04 -5.58942405938E-05 -1.45836664015E-04 -5.35193254038E-01 +7.85720755335E-01
1.22000000000E+09 -3.81606128408E-01 +8.42052976126E-01 -2.80181826638E-05 -1.20223753566E-04 -7.17985909727E-05 -1.57902219581E-04 -5.30658461765E-01 +7.90933857460E-01
1.22500000000E+09 -3.73150277346E-01 +8.44435441961E-01 -3.97998659406E-05 -1.71955702548E-04 -3.88206009350E-05 -1.98098265191E-04 -5.25510678442E-01 +7.95662295317E-01
1.23000000000E+09 -3.64419938929E-01 +8.46951864267E-01 -5.35225786569E-05 -1.94036817519E-04 -6.68339491130E-05 -2.12000381853E-04 -5.19597562001E-01 +8.00034057274E-01
1.23500000000E+09 -3.55873979212E-01 +8.49929584353E-01 -7.64585451442E-05 -1.54158675703E-04 -5.76040136587E-05 -1.75160843038E-04 -5.13642023560E-01 +8.03925488259E-01
1.24000000000E+09 -3.47468119544E-01 +8.52915254771E-01 -1.04563614000E-04 -2.32248149394E-04 -8.18720560231E-05 -1.76713013305E-04 -5.07617833930E-01 +8.07502891522E-01
1.24500000000E+09 -3.39586243451E-01 +8.56168866982E-01 -1.11112981091E-04 -1.97876442104E-04 -9.35209843273E-05 -2.40417607442E-04 -5.01391800296E-01 +8.11175010307E-01
1.25000000000E+09 -3.31853669148E-01 +8.58715793939E-01 -1.33773380447E-04 -2.16890682907E-04 -1.02065276174E-04 -2.36424099812E-04 -4.94818629958E-01 +8.14942792064E-01
1.25500000000E+09 -3.24303389002E-01 +8.60355404090E-01 -1.34547845791E-04 -1.67531119738E-04 -1.14867042915E-04 -1.88536273994E-04 -4.88029778427E-01 +8.18601169697E-01
1.26000000000E+09 -3.16567947509E-01 +8.61577564602E-01 -2.08635484029E-04 -2.60886674113E-04 -1.76464054081E-04 -2.31419710788E-04 -4.81237560007E-01 +8.22528392500E-01
1.26500000000E+09 -3.08703837612E-01 +8.62044510571E-01 -2.04608321397E-04 -2.64528895142E-04 -2.02586610858E-04 -2.24994756903E-04 -4.74384423149E-01 +8.25974994430E-01
1.27000000000E+09 -3.00245308465E-01 +8.62296926015E-01 -2.45084757784E-04 -2.26969515372E-04 -2.95093307981E-04 -2.20487360425E-04 -4.67368700607E-01 +8.29493282241E-01
1.27500000000E+09 -2.91013679991E-01 +8.62648611650E-01 -3.23585862693E-04 -2.25411303001E-04 -3.49395080335E-04 -2.33912684411E-04 -4.60155955513E-01 +8.32740396270E-01
1.28000000000E+09 -2.80688789722E-01 +8.63394161791E-01 -3.29263851329E-04 -1.50843405649E-04 -3.91564284450E-04 -1.69876250320E-04 -4.53070735774E-01 +8.36064791391E-01
1.28500000000E+09 -2.69507254897E-01 +8.64300725744E-01 -3.73788794084E-04 -1.19853776586E-04 -4.30942076906E-04 -1.26034379458E-04 -4.45647692301E-01 +8.39347956438E-01
1.29000000000E+09 -2.58348770610E-01 +8.65847614698E-01 -4.15897539553E-04 -5.67015537588E-05 -4.48359336839E-04 -8.89707856348E-05 -4.38008118466E-01 +8.42838313257E-01
1.29500000000E+09 -2.47470925726E-01 +8.67856352194E-01 -4.26871122160E-04 -1.32501447430E-04 -4.54110092242E-04 -7.35496916047E-05 -4.30105175119E-01 +8.45949043473E-01
1.30000000000E+09 -2.37263664619E-01 +8.70415525490E-01 -5.44313404142E-04 -6.59601656203E-05 -5.10695407766E-04 -1.90091700769E-05 -4.22427641128E-01 +8.49037200338E-01
1.30500000000E+09 -2.27805405105E-01 +8.73148842665E-01 -6.01373382532E-04 -1.44454016796E-05 -5.50149065581E-04 +5.35491237632E-05 -4.14344909440E-01 +8.52197016795E-01
1.31000000000E+09 -2.18939598235E-01 +8.75278155297E-01 -6.44080376851E-04 +1.17492186517E-04 -5.80545708832E-04 +1.25015656404E-04 -4.05887388878E-01 +8.55114156527E-01
1.31500000000E+09 -2.10670285244E-01 +8.76594498442E-01 -6.22147156529E-04 +2.27309611180E-04 -6.04516828166E-04 +2.40331951550E-04 -3.97285158428E-01 +8.58277038975E-01
1.32000000000E+09 -2.02825107521E-01 +8.76929535458E-01 -5.75771946434E-04 +3.18568818523E-04 -6.24120559636E-04 +2.33762413947E-04 -3.88168562525E-01 +8.61254113047E-01
1.32500000000E+09 -1.95096749144E-01 +8.76169456005E-01 -6.30096969762E-04 +2.95207343146E-04 -5.88950731243E-04 +3.12446796199E-04 -3.78876646922E-01 +8.64182457500E-01
1.33000000000E+09 -1.86382032420E-01 +8.75198864091E-01 -6.10055058440E-04 +3.39279292181E-04 -5.93602523658E-04 +4.26473179156E-04 -3.69494439580E-01 +8.66971466646E-01
1.33500000000E+09 -1.76481467019E-01 +8.73811975598E-01 -7.09048963972E-04 +4.89672016234E-04 -5.94634089632E-04 +5.13818252712E-04 -3.59798533293E-01 +8.69824629574E-01
1.34000000000E+09 -1.64894282375E-01 +8.72825789523E-01 -6.14486365039E-04 +6.08893812399E-04 -5.29416613929E-04 +6.54765694741E-04 -3.49875049945E-01 +8.72617924288E-01
1.34500000000E+09 -1.51964839925E-01 +8.71901197243E-01 -6.03208384594E-04 +7.60433806056E-04 -5.39440098211E-04 +7.26988761725E-04 -3.39086439752E-01 +8.75405131496E-01
1.35000000000E+09 -1.37795377909E-01 +8.71486981792E-01 -4.90042154774E-04 +8.40664981613E-04 -5.08859817243E-04 +7.97363463105E-04 -3.28187876895E-01 +8.77953987757E-01
1.35500000000E+09 -1.23085059984E-01 +8.71580867330E-01 -4.49628250150E-04 +9.35760989779E-04 -4.39191658719E-04 +9.16787724805E-04 -3.16683751159E-01 +8.80329380495E-01
1.36000000000E+09 -1.08022969237E-01 +8.71953204361E-01 -4.22904652797E-04 +1.03170435712E-03 -3.68459242899E-04 +1.00326388479E-03 -3.05171493705E-01 +8.82382858285E-01
1.36500000000E+09 -9.29229511482E-02 +8.72004100806E-01 -4.09079947065E-04 +1.17917619611E-03 -3.34080439989E-04 +1.07681550676E-03 -2.93403328093E-01 +8.84350457486E-01
1.37000000000E+09 -7.84507557128E-02 +8.70701208879E-01 -2.42470655004E-04 +1.37264982428E-03 -2.83629939117E-04 +1.26602529047E-03 -2.80983787056E-01 +8.86283500674E-01
1.37500000000E+09 -6.50928184427E-02 +8.68733826313E-01 +9.78574934833E-06 +1.47461291593E-03 -1.75694008836E-04 +1.39874615159E-03 -2.67547644380E-01 +8.88053800077E-01
1.38000000000E+09 -5.26861096082E-02 +8.65775698087E-01 +1.21003449432E-04 +1.45441553122E-03 -3.91809393798E-05 +1.57079303687E-03 -2.53075172844E-01 +8.89616222409E-01
1.38500000000E+09 -4.01306179147E-02 +8.62091624766E-01 +2.92332465901E-04 +1.59204655157E-03 +1.70500841251E-04 +1.85817568058E-03 -2.38179059451E-01 +8.90864887206E-01
1.39000000000E+09 -2.75004166715E-02 +8.57646586726E-01 +4.29089989587E-04 +1.66953937127E-03 +4.89791962236E-04 +1.91515563262E-03 -2.22883434895E-01 +8.91961791408E-01
1.39500000000E+09 -1.36274925268E-02 +8.52909227145E-01 +6.66235915591E-04 +1.85348678688E-03 +8.88295607464E-04 +1.95442752303E-03 -2.06876292504E-01 +8.92123363853E-01
1.40000000000E+09 +1.66960237544E-03 +8.47569884210E-01 +9.62303503726E-04 +2.02231529526E-03 +1.17747515303E-03 +1.95718339060E-03 -1.90238319661E-01 +8.91989621187E-01
1.40500000000E+09 +1.77049591412E-02 +8.42252097107E-01 +1.49813505939E-03 +2.07053461471E-03 +1.51064296463E-03 +1.93328713067E-03 -1.72492038113E-01 +8.91372817255E-01
1.41000000000E+09 +3.49630957982E-02 +8.37165038994E-01 +1.93753761326E-03 +1.83869197968E-03 +1.85099687020E-03 +1.78465678844E-03 -1.53137917850E-01 +8.90096947622E-01
1.41500000000E+09 +5.35898460888E-02 +8.32325937493E-01 +2.14401244334E-03 +1.67757147473E-03 +2.19131445909E-03 +1.80073730040E-03 -1.32300984249E-01 +8.88090880870E-01
1.42000000000E+09 +7.41751604706E-02 +8.26662639447E-01 +2.47748354391E-03 +1.61186916987E-03 +2.70621384454E-03 +1.80435353509E-03 -1.10508318712E-01 +8.85066304949E-01
1.42500000000E+09 +9.52443911867E-02 +8.18895337328E-01 +2.92109666916E-03 +1.45438866236E-03 +3.35485123199E-03 +1.50920624491E-03 -8.77449978909E-02 +8.80759983280E-01
1.43000000000E+09 +1.16523639267E-01 +8.08975735190E-01 +3.45538035549E-03 +1.38334304207E-03 +3.84266829534E-03 +1.24965271111E-03 -6.43402391797E-02 +8.75747565872E-01
1.43500000000E+09 +1.37471800205E-01 +7.96093806763E-01 +4.45254229933E-03 +9.63578483296E-04 +4.62884892106E-03 +5.38182569516E-04 -3.92562113032E-02 +8.68722988739E-01
1.44000000000E+09 +1.58450024751E-01 +7.81471523711E-01 +5.05098828824E-03 -1.51205436817E-04 +5.04630876469E-03 -5.36097449333E-04 -1.25925931677E-02 +8.59750980903E-01
1.44500000000E+09 +1.80535281616E-01 +7.64286756979E-01 +4.99812995983E-03 -1.20855804786E-03 +5.02368254374E-03 -1.46147137562E-03 +1.59831210425E-02 +8.48193817332E-01
1.45000000000E+09 +2.03414851470E-01 +7.44178976895E-01 +4.85885142269E-03 -1.85345500188E-03 +4.86237842063E-03 -2.16611532851E-03 +4.60689899519E-02 +8.33670340504E-01
1.45500000000E+09 +2.27360751907E-01 +7.21713066186E-01 +5.14936902649E-03 -2.39311330388E-03 +4.96498450291E-03 -2.83658337845E-03 +7.73408332694E-02 +8.16623012732E-01
1.46000000000E+09 +2.52609110940E-01 +6.97158657084E-01 +5.54375852044E-03 -3.31521747742E-03 +5.02617706449E-03 -3.70079580019E-03 +1.10349191593E-01 +7.95548745139E-01
1.46500000000E+09 +2.79254702901E-01 +6.69866600284E-01 +5.96711119451E-03 -4.68840186453E-03 +5.17119052107E-03 -4.61244520100E-03 +1.44485811520E-01 +7.69385888746E-01
1.47000000000E+09 +3.07719726646E-01 +6.39200829336E-01 +5.95662471646E-03 -6.88541512969E-03 +5.42011451083E-03 -6.31418372146E-03 +1.79297041694E-01 +7.36683689735E-01
1.47500000000E+09 +3.36407358408E-01 +6.02268207834E-01 +4.60282872871E-03 -9.28735713346E-03 +4.77592170851E-03 -8.74967674261E-03 +2.14087036545E-01 +6.96799377021E-01
1.48000000000E+09 +3.62937709952E-01 +5.58440517802E-01 +2.54472273849E-03 -1.07102717041E-02 +2.87303691308E-03 -1.07274231291E-02 +2.48336272343E-01 +6.49426037071E-01
1.48500000000E+09 +3.85245425909E-01 +5.06565973298E-01 +8.81012989896E-04 -1.19485162269E-02 +7.43829604775E-04 -1.22788576912E-02 +2.80552742730E-01 +5.93106495726E-01
1.49000000000E+09 +4.01094948497E-01 +4.46870013367E-01 -1.54383686592E-03 -1.36075404345E-02 -2.22781306492E-03 -1.35413864249E-02 +3.07983578490E-01 +5.26473153661E-01
1.49500000000E+09 +4.09323100519E-01 +3.79655085502E-01 -5.58482886928E-03 -1.47028190447E-02 -5.88890333268E-03 -1.38679620851E-02 +3.26245901771E-01 +4.49197443225E-01
1.50000000000E+09 +4.08693327504E-01 +3.04027498421E-01 -9.87601647170E-03 -1.41131975653E-02 -9.30375618575E-03 -1.32660010310E-02 +3.31505479271E-01 +3.61948151973E-01
1.50500000000E+09 +3.94971207255E-01 +2.20637734343E-01 -1.45865721328E-02 -1.23922688827E-02 -1.35238986046E-02 -1.23102050545E-02 +3.20089381358E-01 +2.67100369556E-01
1.51000000000E+09 +3.66311059846E-01 +1.34018126136E-01 -1.86535442627E-02 -8.12350597885E-03 -1.81477359955E-02 -8.81928977400E-03 +2.87903089586E-01 +1.67594805018E-01
1.51500000000E+09 +3.19351881385E-01 +4.66070880937E-02 -2.13302693161E-02 -3.69932787736E-03 -2.14417800814E-02 -4.32588084542E-03 +2.32093690016E-01 +7.19854946560E-02
1.52000000000E+09 +2.52452646537E-01 -3.18223389020E-02 -2.34459205989E-02 +2.38521842314E-03 -2.37446861792E-02 +2.07976287758E-03 +1.54368055043E-01 -1.14524289145E-02
1.52500000000E+09 +1.69307249528E-01 -9.63146999375E-02 -2.28535674842E-02 +1.07505274589E-02 -2.31248310677E-02 +1.07304607980E-02 +6.04914194891E-02 -7.75494727368E-02
1.53000000000E+09 +7.32494066979E-02 -1.41795222382E-01 -1.72263883831E-02 +1.73608613543E-02 -1.74127253595E-02 +1.74434138980E-02 -4.88599503074E-02 -1.20864304167E-01
1.53500000000E+09 -3.15257576869E-02 -1.65532044452E-01 -1.15281219322E-02 +2.06256611461E-02 -1.15618526107E-02 +2.06287586480E-02 -1.60880155010E-01 -1.37236994220E-01
1.54000000000E+09 -1.40585159371E-01 -1.64453653128E-01 -5.32966019714E-03 +2.21985356119E-02 -5.40077952245E-03 +2.19602379943E-02 -2.70563584481E-01 -1.29824807591E-01
1.54500000000E+09 -2.43172381424E-01 -1.38615429332E-01 +1.47914643969E-03 +2.22801676265E-02 +9.52978366450E-04 +2.20636044482E-02 -3.68268792799E-01 -1.01208234052E-01
1.55000000000E+09 -3.33803837468E-01 -9.61858757997E-02 +6.80346977702E-03 +1.89900466832E-02 +6.08861517042E-03 +1.92376647599E-02 -4.51098521178E-01 -5.90071278171E-02
1.55500000000E+09 -4.09727834953E-01 -4.17933614995E-02 +1.03588509543E-02 +1.57268322437E-02 +9.88208810243E-03 +1.64797603120E-02 -5.18690182808E-01 -7.98245664911E-03
1.56000000000E+09 -4.69472220808E-01 +1.61571409254E-02 +1.30018778020E-02 +1.14679315092E-02 +1.31661800619E-02 +1.24624276240E-02 -5.71902593413E-01 +4.77118711948E-02
1.56500000000E+09 -5.17504407248E-01 +7.45746293001E-02 +1.34352867151E-02 +7.19948900356E-03 +1.40862110762E-02 +7.79693640789E-03 -6.13057383524E-01 +1.05015671989E-01
1.57000000000E+09 -5.54522221454E-01 +1.33072571657E-01 +1.28946145298E-02 +4.22847586631E-03 +1.37640634937E-02 +4.38449579121E-03 -6.42744108622E-01 +1.61947135107E-01
