# Hz S RI R 50
! CMT, C1220, 16058040, 17.2.0/1
! Date: 14/08/2018 12:34:16
! Data: Format (Calibration Info)
! Freq                      S11: Re/Im (F2)                       S21: Re/Im (F2)                       S12: Re/Im (F2)                       S22: Re/Im (F2)            
1.00000000000E+09 -6.34221039268E-01 +7.09022665508E-01 -2.38806992166E-05 -2.00281486123E-05 -1.38137206835E-05 -1.41954208588E-05 -7.53140855726E-01 +6.24032326881E-01
1.00500000000E+09 -6.27138093475E-01 +7.14030533189E-01 +4.44098996351E-05 -7.79635170411E-05 +5.45155275488E-06 -1.92832273976E-05 -7.49469966097E-01 +6.27987338639E-01
1.01000000000E+09 -6.20958245863E-01 +7.18665352944E-01 +3.25164418794E-05 +3.74750180720E-05 +1.04239097806E-05 +2.18320023645E-05 -7.45997944225E-01 +6.31582177331E-01
1.01500000000E+09 -6.16087239396E-01 +7.22686715574E-01 +1.07476221959E-05 +2.09660052403E-05 +9.61123970497E-06 +1.20538641844E-06 -7.42831658032E-01 +6.35348212751E-01
1.02000000000E+09 -6.12442193317E-01 +7.26137456315E-01 +7.44373418509E-06 -1.05275077730E-06 +1.91157745994E-05 -1.51738127697E-05 -7.39526256861E-01 +6.38719381836E-01
1.02500000000E+09 -6.09930407511E-01 +7.28965270873E-01 -6.90434549057E-06 +2.13890141285E-05 -5.72979089966E-05 +1.95741365349E-05 -7.36755032892E-01 +6.42433551397E-01
1.03000000000E+09 -6.07758891403E-01 +7.31480518857E-01 -1.88669786047E-05 +7.49374580995E-06 +3.65829142141E-05 +2.19571644500E-05 -7.33288813987E-01 +6.46197901599E-01
1.03500000000E+09 -6.04989437542E-01 +7.34043736048E-01 +2.13624938672E-06 +2.54384515927E-06 -2.83031801250E-05 +1.85504054571E-05 -7.29534214253E-01 +6.50207917456E-01
1.04000000000E+09 -6.01268038180E-01 +7.36820267351E-01 +1.19618341561E-05 +7.38075340736E-05 +5.12728798641E-05 +3.25883542486E-05 -7.25546417502E-01 +6.53898053692E-01
1.04500000000E+09 -5.95985956614E-01 +7.40136254202E-01 +3.02542639233E-05 +2.71125105319E-05 -1.05710219178E-05 +4.38858474856E-06 -7.21970768816E-01 +6.57459882726E-01
1.05000000000E+09 -5.89296959924E-01 +7.44075181097E-01 -2.06153357538E-05 -7.26206395039E-06 -2.75168740824E-05 +1.93254037132E-05 -7.18674538151E-01 +6.60878958729E-01
1.05500000000E+09 -5.81443206645E-01 +7.48253696470E-01 +2.02112504128E-05 -9.50953068908E-06 -9.42941842613E-06 -5.22345696297E-06 -7.15373194258E-01 +6.64368498223E-01
1.06000000000E+09 -5.72976345175E-01 +7.53128281079E-01 +1.81818223607E-05 -7.21009204563E-06 -1.71056581603E-05 +2.89137801231E-05 -7.12211688253E-01 +6.68165013756E-01
1.06500000000E+09 -5.65031691770E-01 +7.58128127636E-01 +1.51301202909E-05 +1.31421629402E-05 -6.66979360690E-06 +1.62608771645E-05 -7.08362839783E-01 +6.72042313828E-01
1.07000000000E+09 -5.57726349534E-01 +7.62513863728E-01 -3.92289085962E-06 -4.90426766006E-06 +3.13224503227E-05 +5.62090977805E-05 -7.04173986416E-01 +6.75766524832E-01
1.07500000000E+09 -5.52087696768E-01 +7.66243953976E-01 -1.69682314089E-05 +4.97505526691E-05 -9.36662368522E-06 +2.51328273794E-05 -6.99866914428E-01 +6.79484397754E-01
1.08000000000E+09 -5.47789365708E-01 +7.69799591710E-01 +3.02958139696E-05 +3.19011617888E-05 -4.75289516175E-06 +5.85785650390E-05 -6.95974410139E-01 +6.83358109123E-01
1.08500000000E+09 -5.44847909292E-01 +7.72373934873E-01 +1.25135517288E-05 +6.71201634781E-06 +2.98697228729E-05 +1.93531424179E-05 -6.92219165805E-01 +6.86924800176E-01
1.09000000000E+09 -5.42099423247E-01 +7.74472670087E-01 +5.44619030654E-05 +6.92449204437E-05 +3.66586293766E-05 -2.84710931130E-05 -6.88399984566E-01 +6.90816027565E-01
1.09500000000E+09 -5.39746873304E-01 +7.76639346099E-01 +1.44279476552E-05 +4.24645209166E-05 +4.22388387889E-05 +1.60772208031E-05 -6.84637488819E-01 +6.94574110277E-01
1.10000000000E+09 -5.36230486059E-01 +7.78522889208E-01 +3.95455326140E-05 +1.84778874876E-05 -1.33241047605E-05 +2.98374017416E-05 -6.80802513074E-01 +6.98335336785E-01
1.10500000000E+09 -5.31748783308E-01 +7.81333966844E-01 -2.27731709990E-06 -9.67009490464E-06 +3.54970853287E-05 +4.34060848814E-05 -6.76347989682E-01 +7.01877745510E-01
1.11000000000E+09 -5.25756287710E-01 +7.84494316883E-01 +5.66426410306E-05 +1.11201705849E-05 -1.78982041884E-05 +4.74295367073E-05 -6.72129070053E-01 +7.05252947859E-01
1.11500000000E+09 -5.18623692214E-01 +7.88204287164E-01 +2.04282205924E-05 +4.78734056438E-05 +5.48699797443E-05 +4.66266052939E-05 -6.68356450502E-01 +7.08611487145E-01
1.12000000000E+09 -5.10987233925E-01 +7.91989371333E-01 +4.42087695897E-05 +7.27181075570E-05 +4.49965846671E-05 -1.67630695913E-06 -6.64165375043E-01 +7.12231804450E-01
1.12500000000E+09 -5.03317643835E-01 +7.95940161370E-01 +2.00001744283E-06 +1.02568305020E-05 +2.67343890141E-05 +1.30765132631E-05 -6.60029895863E-01 +7.16115508675E-01
1.13000000000E+09 -4.96445034928E-01 +7.99614020248E-01 +4.43970209667E-05 +1.30565441896E-05 -2.27741045334E-05 -3.58746922168E-05 -6.55683242238E-01 +7.20005417813E-01
1.13500000000E+09 -4.90464013392E-01 +8.02411535661E-01 +2.27189739038E-05 +1.85527766565E-05 +4.03673811031E-05 -2.84681457876E-05 -6.50981285126E-01 +7.23944535728E-01
1.14000000000E+09 -4.85658205870E-01 +8.04708902254E-01 +4.83959492655E-05 +1.10235161986E-05 +2.19584998202E-05 -4.09666157703E-05 -6.46297582256E-01 +7.27494997303E-01
1.14500000000E+09 -4.81796532464E-01 +8.06457768768E-01 +3.56734021201E-05 +1.67654943561E-05 -7.33643466979E-07 +6.36461880528E-05 -6.41621330936E-01 +7.30754699075E-01
1.15000000000E+09 -4.78314532705E-01 +8.07789065949E-01 +2.58687723772E-05 +2.34088122798E-05 -1.65743199150E-05 -1.43307249375E-05 -6.36853474066E-01 +7.34607259634E-01
1.15500000000E+09 -4.74771409392E-01 +8.09230172641E-01 +8.72490957702E-05 +5.73129428428E-05 +3.98687575435E-05 -1.50029260443E-05 -6.32157027135E-01 +7.38368134544E-01
1.16000000000E+09 -4.69920972734E-01 +8.11041181285E-01 +4.70384673657E-05 -2.27990929347E-05 +6.30727096533E-05 -4.47060848871E-06 -6.27417506175E-01 +7.42296231072E-01
1.16500000000E+09 -4.64089583891E-01 +8.13444869317E-01 +5.82930108291E-05 -2.38872925795E-06 +7.66266733589E-05 -1.63488537919E-05 -6.22503337279E-01 +7.45851334776E-01
1.17000000000E+09 -4.57134441600E-01 +8.16626819330E-01 +5.66865104185E-05 -3.86086892228E-05 +6.83183387525E-05 -2.71329069729E-06 -6.17151216845E-01 +7.49204595036E-01
1.17500000000E+09 -4.49074317173E-01 +8.19894700599E-01 +6.28339454014E-05 -8.96831998850E-06 +9.49921510844E-05 -4.42938926115E-05 -6.11431788525E-01 +7.52478576798E-01
1.18000000000E+09 -4.40934210465E-01 +8.23374025846E-01 +4.09386513594E-05 -3.53830584265E-05 +4.07085778596E-05 -4.03039083782E-05 -6.05842481136E-01 +7.55519507616E-01
1.18500000000E+09 -4.32806310312E-01 +8.26710565187E-01 +6.54903159062E-05 -1.10737751734E-05 +1.12603290384E-04 -4.63879399734E-05 -5.99993713378E-01 +7.58573050871E-01
1.19000000000E+09 -4.25556775282E-01 +8.29327545805E-01 +7.10896088557E-05 -5.25615114090E-05 +3.91800884328E-05 -7.40542629121E-05 -5.93886804168E-01 +7.61103749033E-01
1.19500000000E+09 -4.19359124845E-01 +8.31362286447E-01 +8.03186400985E-05 -7.37129393647E-05 +9.12550358672E-05 -8.26223253909E-05 -5.88169231411E-01 +7.62404479999E-01
1.20000000000E+09 -4.14336596534E-01 +8.32402387598E-01 +1.17235382740E-05 -9.31208270079E-05 +2.31975976037E-05 -2.03005107963E-04 -5.83593063642E-01 +7.62562346572E-01
1.20500000000E+09 -4.09771146827E-01 +8.33497905614E-01 -4.84024319723E-05 -1.31696828574E-04 -6.20944175860E-06 -1.61486103049E-04 -5.81172028739E-01 +7.63346406192E-01
1.21000000000E+09 -4.04884985591E-01 +8.34470796044E-01 -4.51335940943E-05 -9.00150937155E-05 -4.77045887174E-05 -5.85361305855E-05 -5.79140694285E-01 +7.66539239391E-01
1.21500000000E+09 -3.99066182493E-01 +8.35644181756E-01 -3.31541309968E-05 -6.84231332903E-05 -2.42024448147E-05 -5.37192494691E-05 -5.76410737522E-01 +7.71171374877E-01
1.22000000000E+09 -3.91855571429E-01 +8.37359849865E-01 -6.00048833580E-05 -6.94942891035E-05 -4.07969502780E-05 -3.78932476303E-05 -5.72202720482E-01 +7.76523625137E-01
1.22500000000E+09 -3.82895509541E-01 +8.39797156474E-01 +2.59628280708E-06 -6.17799642976E-05 -2.86996235645E-05 -5.84563594550E-05 -5.67135987256E-01 +7.81562143157E-01
1.23000000000E+09 -3.72941246388E-01 +8.42599262593E-01 -3.64655481931E-05 -7.42271890894E-05 -5.05523857819E-05 -1.01337009803E-04 -5.61359287544E-01 +7.86240692006E-01
1.23500000000E+09 -3.62689043884E-01 +8.46014431059E-01 -3.31613916561E-05 -3.92840752192E-05 +4.86898318520E-06 -6.82936499452E-05 -5.55552313598E-01 +7.90715506263E-01
1.24000000000E+09 -3.52560600217E-01 +8.49738234534E-01 -1.57002528829E-05 -4.79855652752E-05 -8.50033327295E-05 -1.81928535361E-05 -5.49633032090E-01 +7.94495691117E-01
1.24500000000E+09 -3.43501218787E-01 +8.53650992065E-01 -4.85903944740E-05 -3.98632775530E-05 -7.24274769896E-05 -5.10195057092E-05 -5.43481021514E-01 +7.98329057059E-01
1.25000000000E+09 -3.35284363992E-01 +8.57159078559E-01 -9.18798586922E-05 -5.73267940278E-05 -7.19452506412E-05 -5.42262333729E-05 -5.36875628296E-01 +8.02452207300E-01
1.25500000000E+09 -3.28316333689E-01 +8.59753340747E-01 -6.45350074333E-05 -3.52307481203E-05 -6.72985739507E-05 -1.78540744514E-05 -5.30092685589E-01 +8.06375676628E-01
1.26000000000E+09 -3.22124063101E-01 +8.61551672743E-01 -6.18990412016E-05 -6.76906195975E-05 -6.81823308711E-05 -3.92283006182E-05 -5.23422892606E-01 +8.10660268990E-01
1.26500000000E+09 -3.16330571537E-01 +8.62567934588E-01 -1.03431015402E-04 -3.61926448068E-05 -7.46058763723E-05 -1.32046111389E-05 -5.16613959869E-01 +8.14513388569E-01
1.27000000000E+09 -3.10229936014E-01 +8.63203396961E-01 -8.82200114032E-05 -3.76602173674E-06 -7.98984227035E-05 +4.99545580288E-05 -5.09604271738E-01 +8.18400468973E-01
1.27500000000E+09 -3.02822577363E-01 +8.63902955790E-01 -6.40322229254E-05 +2.91906813145E-05 -3.51317797361E-05 -1.62200219533E-05 -5.02554947496E-01 +8.21953713094E-01
1.28000000000E+09 -2.93816177324E-01 +8.64767788355E-01 -6.90705761063E-05 -4.80839801768E-05 -3.50959750598E-05 +6.90024041116E-06 -4.95513120440E-01 +8.25550157654E-01
1.28500000000E+09 -2.82797287177E-01 +8.66215083918E-01 -7.48000539828E-05 +2.11843628333E-05 -4.97254673422E-05 +1.00171617697E-06 -4.88102014526E-01 +8.29225774559E-01
1.29000000000E+09 -2.71078680995E-01 +8.67918222517E-01 -9.43967044076E-05 -3.04544415716E-06 -7.67460059256E-05 -1.08090587190E-05 -4.80356398100E-01 +8.33105387659E-01
1.29500000000E+09 -2.59022867541E-01 +8.70567905789E-01 -8.13535573865E-05 -5.64813682739E-06 -4.79358411269E-05 -2.18520697502E-05 -4.72411320552E-01 +8.36403084047E-01
1.30000000000E+09 -2.47371486752E-01 +8.73793948419E-01 -1.05857386198E-04 -5.80223208238E-05 -1.01008465841E-04 -2.94329669866E-05 -4.64702050881E-01 +8.40121330375E-01
1.30500000000E+09 -2.36693834489E-01 +8.76955587725E-01 -4.70880033743E-05 +1.92022328238E-05 -1.18296120093E-04 -1.32433965527E-05 -4.56516118110E-01 +8.43705318219E-01
1.31000000000E+09 -2.27495583553E-01 +8.79704506772E-01 -9.36225776294E-05 +3.18798192086E-05 -2.89319861749E-05 +4.17058547939E-05 -4.48129674762E-01 +8.47016174454E-01
1.31500000000E+09 -2.19937214211E-01 +8.81583494731E-01 -6.27109812607E-05 -1.80584832383E-05 -9.61693277690E-05 +1.00158730413E-05 -4.39399007319E-01 +8.50384644836E-01
1.32000000000E+09 -2.13549062032E-01 +8.82414261394E-01 -6.56449472045E-05 +1.46310900908E-06 -1.14625111677E-04 -3.60956367546E-07 -4.30423110267E-01 +8.53808587159E-01
1.32500000000E+09 -2.07716837436E-01 +8.82338440210E-01 -1.51448202050E-04 +7.75780715044E-06 -1.22320731870E-04 -3.64774325120E-05 -4.20969133590E-01 +8.57279555766E-01
1.33000000000E+09 -2.00794286283E-01 +8.81737603397E-01 -1.67359552273E-04 -1.42056610412E-05 -1.76305838956E-04 -2.88971784698E-06 -4.11274801674E-01 +8.60477689599E-01
1.33500000000E+09 -1.92084441718E-01 +8.80737598701E-01 -1.83122706884E-04 +2.17330085076E-05 -2.06345986192E-04 +6.13005571399E-05 -4.01593579225E-01 +8.63613468045E-01
1.34000000000E+09 -1.80961086209E-01 +8.79728231820E-01 -2.46736802932E-04 +1.58191272015E-04 -1.95522929115E-04 +1.37528068231E-04 -3.91443738790E-01 +8.66794155469E-01
1.34500000000E+09 -1.67578523038E-01 +8.78665510820E-01 -1.60514648062E-04 +1.17774918639E-04 -1.90371735317E-04 +1.56070901612E-04 -3.80517134804E-01 +8.70173539547E-01
1.35000000000E+09 -1.52343911055E-01 +8.78187742096E-01 -1.49740559169E-04 +1.15869909063E-04 -1.66126869889E-04 +1.62287680400E-04 -3.69281401877E-01 +8.73173741786E-01
1.35500000000E+09 -1.36289431916E-01 +8.78431027509E-01 -1.51965848229E-04 +2.03138855229E-04 -1.48481993619E-04 +1.79839030894E-04 -3.57542284276E-01 +8.76139520675E-01
1.36000000000E+09 -1.20049808284E-01 +8.79190291784E-01 -1.74776372420E-04 +2.07460407778E-04 -1.73280324154E-04 +1.86737493998E-04 -3.45555649148E-01 +8.78806813234E-01
1.36500000000E+09 -1.04463361676E-01 +8.79780690174E-01 -1.40500651716E-04 +3.25352442264E-04 -1.02203073929E-04 +2.66620058740E-04 -3.33366053069E-01 +8.81210824757E-01
1.37000000000E+09 -9.04423901278E-02 +8.80118350354E-01 -1.21356469635E-04 +3.43957150151E-04 -1.73229243686E-04 +2.92342674872E-04 -3.20589685544E-01 +8.83648470784E-01
1.37500000000E+09 -7.82607623657E-02 +8.79688979726E-01 -3.77132495124E-05 +4.79807930828E-04 -8.08212004463E-05 +3.99578993613E-04 -3.06817882503E-01 +8.85882452156E-01
1.38000000000E+09 -6.74069877359E-02 +8.78668512264E-01 +6.50527425179E-05 +3.85137851921E-04 +1.89203622598E-05 +4.07747981599E-04 -2.92217209560E-01 +8.87982282787E-01
1.38500000000E+09 -5.65170310561E-02 +8.76969692956E-01 +6.46435896247E-05 +3.50405600889E-04 +8.00864254543E-05 +3.75267807351E-04 -2.76681086705E-01 +8.89761532547E-01
1.39000000000E+09 -4.47201344267E-02 +8.74128972885E-01 +8.68202140088E-05 +3.52771630563E-04 +1.21220688076E-04 +4.03350926120E-04 -2.60857298564E-01 +8.91343478953E-01
1.39500000000E+09 -3.10698925427E-02 +8.70328176511E-01 +1.32962630124E-04 +3.49614874738E-04 +1.48455565087E-04 +3.50642388377E-04 -2.44057770777E-01 +8.91989286520E-01
1.40000000000E+09 -1.48027360726E-02 +8.65658342418E-01 +1.37891810511E-04 +4.08648449442E-04 +1.79603904613E-04 +3.78941485956E-04 -2.26856416032E-01 +8.92314777417E-01
1.40500000000E+09 +3.58344072198E-03 +8.60320518895E-01 +2.06339673649E-04 +4.67119758925E-04 +2.46667708963E-04 +3.88019526306E-04 -2.08481625616E-01 +8.91886134646E-01
1.41000000000E+09 +2.38473484236E-02 +8.54735837911E-01 +3.31110588986E-04 +4.81496117824E-04 +3.43554178684E-04 +5.02771493478E-04 -1.88477299494E-01 +8.91220657274E-01
1.41500000000E+09 +4.53413303863E-02 +8.48869884299E-01 +4.68037580355E-04 +4.53547388866E-04 +4.41359926119E-04 +4.41711397774E-04 -1.67145828531E-01 +8.89596017887E-01
1.42000000000E+09 +6.72918653604E-02 +8.42785587470E-01 +5.80875883314E-04 +2.78287134702E-04 +6.11517930420E-04 +3.56204562041E-04 -1.44285876399E-01 +8.87041012107E-01
1.42500000000E+09 +8.89320649886E-02 +8.35487166825E-01 +4.94000622580E-04 +2.38806587247E-04 +5.49608440088E-04 +2.53803805568E-04 -1.20889451999E-01 +8.83474888536E-01
1.43000000000E+09 +1.09298965863E-01 +8.26707606586E-01 +6.47294808141E-04 +2.96235133040E-04 +7.22109018757E-04 +2.41774753469E-04 -9.63895602033E-02 +8.78775054682E-01
1.43500000000E+09 +1.28838977002E-01 +8.16433775525E-01 +8.05545374792E-04 +8.73724473405E-05 +8.22718835667E-04 -2.91228434370E-05 -7.02376385266E-02 +8.72185174010E-01
1.44000000000E+09 +1.48593412356E-01 +8.04317354393E-01 +7.36300910254E-04 -4.87185187762E-05 +7.12191008260E-04 -7.31084243190E-05 -4.22594437510E-02 +8.64002849346E-01
1.44500000000E+09 +1.69311125970E-01 +7.89169633052E-01 +8.11375646722E-04 -4.85704309405E-07 +8.59907126766E-04 -3.62946315202E-05 -1.20408402456E-02 +8.52866126668E-01
1.45000000000E+09 +1.91459196797E-01 +7.70549649860E-01 +8.48898967162E-04 -1.56910634856E-04 +8.89838514619E-04 -1.74315977433E-04 +1.97630456235E-02 +8.38443264603E-01
1.45500000000E+09 +2.16010379541E-01 +7.48401414139E-01 +9.87507360739E-04 -1.93035199044E-04 +9.50586944351E-04 -2.91396776017E-04 +5.31859504141E-02 +8.20879417922E-01
1.46000000000E+09 +2.43106847989E-01 +7.22076073911E-01 +1.16798661931E-03 -4.41099376141E-04 +1.06791989821E-03 -5.42250510534E-04 +8.74427318216E-02 +7.99519888986E-01
1.46500000000E+09 +2.71521791262E-01 +6.92172226031E-01 +1.14854033987E-03 -9.04905353890E-04 +1.00825002070E-03 -8.93509530200E-04 +1.23358846731E-01 +7.72977041926E-01
1.47000000000E+09 +3.01195981738E-01 +6.58277639551E-01 +9.10093276253E-04 -1.06377557537E-03 +8.96032328608E-04 -9.79237924556E-04 +1.59866061842E-01 +7.40333326301E-01
1.47500000000E+09 +3.30331263384E-01 +6.19883166279E-01 +7.01333073697E-04 -1.36976573833E-03 +6.81691064712E-04 -1.31327954723E-03 +1.97592036319E-01 +7.00383376226E-01
1.48000000000E+09 +3.57444501587E-01 +5.75715060753E-01 +5.69939433381E-04 -1.35140959339E-03 +6.09953414005E-04 -1.35338318272E-03 +2.34498892233E-01 +6.51058661616E-01
1.48500000000E+09 +3.79600518638E-01 +5.25731812294E-01 +5.38658397123E-04 -1.76037410473E-03 +5.30642586238E-04 -1.78504900520E-03 +2.68783764042E-01 +5.92814332020E-01
1.49000000000E+09 +3.96399141177E-01 +4.69047015295E-01 +5.23334151380E-05 -2.06283948935E-03 -6.52742291812E-05 -2.09852378213E-03 +2.97852895317E-01 +5.23811061608E-01
1.49500000000E+09 +4.05490642909E-01 +4.04621601960E-01 -2.23607801880E-04 -2.13412842867E-03 -3.00213480563E-04 -2.03523617914E-03 +3.17090723667E-01 +4.44507118909E-01
1.50000000000E+09 +4.05494515813E-01 +3.31945251931E-01 -7.99273282643E-04 -3.05419267764E-03 -7.20769763629E-04 -2.87921012117E-03 +3.23198260393E-01 +3.55095516604E-01
1.50500000000E+09 +3.93522932015E-01 +2.50797492106E-01 -2.78303846110E-03 -2.58132987264E-03 -2.57391620601E-03 -2.57579384919E-03 +3.12758733050E-01 +2.59321316311E-01
1.51000000000E+09 +3.65556855594E-01 +1.64256583592E-01 -3.02790282331E-03 -1.02259975389E-03 -2.92456148840E-03 -1.13450536817E-03 +2.82958793186E-01 +1.58234458677E-01
1.51500000000E+09 +3.20815475094E-01 +7.81895896235E-02 -3.09519546206E-03 -5.83181864693E-04 -3.06791330920E-03 -6.97491284466E-04 +2.29363289508E-01 +5.95051517073E-02
1.52000000000E+09 +2.58817155414E-01 -2.81148669757E-03 -3.34168324237E-03 +3.81100844165E-04 -3.36297569376E-03 +3.87175283995E-04 +1.53347734597E-01 -2.80020118717E-02
1.52500000000E+09 +1.79930895730E-01 -7.19652833003E-02 -2.44118437683E-03 +1.50638228662E-03 -2.51617454269E-03 +1.51854544514E-03 +5.86663816261E-02 -9.77465514569E-02
1.53000000000E+09 +8.51754221135E-02 -1.22732155413E-01 -2.29028899565E-03 +1.09499653180E-03 -2.26404727549E-03 +1.07736842937E-03 -4.88574016967E-02 -1.44513479727E-01
1.53500000000E+09 -1.85352272140E-02 -1.49201973254E-01 -2.67666315234E-03 +2.12978754968E-03 -2.74577414669E-03 +2.12258015440E-03 -1.61968122044E-01 -1.65487590714E-01
1.54000000000E+09 -1.24651184580E-01 -1.49362386108E-01 -1.62019024694E-03 +3.39625078581E-03 -1.65967913517E-03 +3.36489799192E-03 -2.71700353852E-01 -1.62418897305E-01
1.54500000000E+09 -2.25313127414E-01 -1.26575555736E-01 +6.03370980619E-05 +3.44160769747E-03 -2.89388515785E-05 +3.42235018753E-03 -3.70935826298E-01 -1.39851277076E-01
1.55000000000E+09 -3.15857155404E-01 -8.62103906660E-02 +8.09248913413E-04 +2.92944358992E-03 +6.51655124739E-04 +3.02316017604E-03 -4.58340606410E-01 -1.02718223968E-01
1.55500000000E+09 -3.94244424471E-01 -3.45123404451E-02 +1.71514794006E-03 +2.32240714344E-03 +1.69687470148E-03 +2.45579817649E-03 -5.30438436964E-01 -5.35527549137E-02
1.56000000000E+09 -4.58949008732E-01 +2.39605850520E-02 +2.05748747411E-03 +1.25331354141E-03 +2.08056942923E-03 +1.39058768492E-03 -5.87048241466E-01 +9.71875247763E-05
1.56500000000E+09 -5.08465175645E-01 +8.39661210866E-02 +1.73662863685E-03 +4.45268933382E-04 +1.82302401059E-03 +5.15332231358E-04 -6.32136105406E-01 +5.58980112204E-02
1.57000000000E+09 -5.46587667730E-01 +1.41549824651E-01 +1.41775029621E-03 +1.94985716475E-04 +1.50797891838E-03 +1.79083808634E-04 -6.65194151080E-01 +1.11576584358E-01
