# Hz S RI R 50
! CMT, C1220, 16058040, 17.2.0/1
! Date: 14/08/2018 11:49:06
! Data: Format (Calibration Info)
! Freq                      S11: Re/Im (F2)                       S21: Re/Im (F2)                       S12: Re/Im (F2)                       S22: Re/Im (F2)            
1.00000000000E+09 -6.47863935103E-01 +7.14681708647E-01 +9.26968652747E-06 +6.03249179490E-05 +3.15604834673E-05 -4.16123516393E-06 -7.54878368139E-01 +6.24497973473E-01
1.00500000000E+09 -6.40744838803E-01 +7.19801327592E-01 +2.09008352136E-05 +7.55367577601E-05 -4.41531336209E-06 -5.78272790011E-06 -7.51355345780E-01 +6.28501086965E-01
1.01000000000E+09 -6.34684000457E-01 +7.24461475170E-01 -7.15440298703E-06 +6.03063729696E-06 +3.09137974725E-05 +3.20513362119E-05 -7.47796179536E-01 +6.32337450919E-01
1.01500000000E+09 -6.29867249496E-01 +7.28128714949E-01 +2.34335867838E-05 -1.04777195504E-05 -1.27333955786E-05 -1.05718232105E-05 -7.44497170159E-01 +6.36137159234E-01
1.02000000000E+09 -6.26118969923E-01 +7.31362736638E-01 +1.64840354711E-05 +3.31755473076E-05 -9.15546395185E-06 +2.76308927812E-05 -7.40918360165E-01 +6.39773297513E-01
1.02500000000E+09 -6.23343680360E-01 +7.34133978901E-01 -3.33855643723E-06 -2.71065796221E-05 -2.30622588695E-05 +4.00610125426E-05 -7.37909565170E-01 +6.43496567432E-01
1.03000000000E+09 -6.21158570988E-01 +7.36536828240E-01 +1.67239736940E-05 +3.16401999399E-05 +1.09102525578E-05 +3.48755228912E-05 -7.34534563557E-01 +6.47325112998E-01
1.03500000000E+09 -6.18068414880E-01 +7.38889662235E-01 +5.95266864488E-05 +2.68523074258E-05 +1.08152824620E-05 +4.98788967332E-06 -7.30762515553E-01 +6.51261285211E-01
1.04000000000E+09 -6.13955873744E-01 +7.41777036784E-01 +2.45143759497E-05 -2.18224065514E-05 -1.73473251124E-05 +4.36240754455E-05 -7.27050685791E-01 +6.54976553051E-01
1.04500000000E+09 -6.08477228092E-01 +7.45236588733E-01 -7.68225471886E-05 +1.89850766283E-05 -2.50690289372E-05 +1.53090890790E-06 -7.23554302724E-01 +6.58251206105E-01
1.05000000000E+09 -6.01334814538E-01 +7.49348806224E-01 +2.74189573567E-05 +5.10409610573E-05 +1.68337958221E-05 -4.47560332369E-06 -7.20147714005E-01 +6.61879553871E-01
1.05500000000E+09 -5.93298296429E-01 +7.53965533107E-01 -1.48543020128E-05 -4.31199998151E-05 -1.68364505808E-05 +2.96627533898E-05 -7.16875272954E-01 +6.65455123516E-01
1.06000000000E+09 -5.84741763861E-01 +7.59188991512E-01 -4.51933262932E-05 +3.10838629494E-05 -9.82878414437E-06 +1.27037470834E-05 -7.13577983632E-01 +6.69246222641E-01
1.06500000000E+09 -5.76460859748E-01 +7.64119474756E-01 +3.78002961229E-05 +4.46431611296E-05 +7.62380987279E-06 +2.35509042399E-05 -7.09911353509E-01 +6.72868977966E-01
1.07000000000E+09 -5.69406031173E-01 +7.68274582151E-01 -1.21004066191E-05 +2.52762871194E-05 +1.35658316062E-05 +3.12884054172E-05 -7.05943348062E-01 +6.76648081291E-01
1.07500000000E+09 -5.63829561931E-01 +7.72126265548E-01 +2.29317814036E-05 +7.81361316975E-06 -2.02806361249E-05 +3.79241275864E-05 -7.01748998605E-01 +6.80435919127E-01
1.08000000000E+09 -5.59839285980E-01 +7.75281039497E-01 +5.25090880619E-05 +4.94146739195E-06 +2.45722616612E-05 -2.98819024620E-05 -6.97739112943E-01 +6.84353551240E-01
1.08500000000E+09 -5.57162191329E-01 +7.77454169093E-01 +2.02677883782E-05 +5.01587689631E-06 +1.78298399981E-06 +4.71839299256E-05 -6.93541541388E-01 +6.87835193880E-01
1.09000000000E+09 -5.54938825010E-01 +7.79383653735E-01 -2.06327667405E-06 -1.60436164907E-06 +3.17488278261E-05 +2.46451662288E-05 -6.89631823127E-01 +6.91813544372E-01
1.09500000000E+09 -5.53060866867E-01 +7.80952393740E-01 +3.28830891114E-05 +1.79891245436E-05 +2.75551483663E-05 +2.63463292618E-06 -6.85788241499E-01 +6.95696635039E-01
1.10000000000E+09 -5.49874615043E-01 +7.83020030653E-01 +7.50515814771E-06 -1.02362221156E-05 -1.06385445208E-05 +2.43118723459E-05 -6.81859531303E-01 +6.99716980477E-01
1.10500000000E+09 -5.45579647929E-01 +7.85472647187E-01 +9.67203332057E-06 -1.96712702642E-05 +2.83365707027E-05 +2.31822238880E-05 -6.77627169473E-01 +7.03216026920E-01
1.11000000000E+09 -5.39872883230E-01 +7.88563650385E-01 +1.32045732015E-05 +5.28182077856E-06 -2.81923276517E-06 +5.43604202322E-06 -6.73560991949E-01 +7.06556854727E-01
1.11500000000E+09 -5.32628255369E-01 +7.92357581718E-01 +2.38746951733E-05 -3.32801056481E-05 +6.32601168911E-05 -1.47305105948E-05 -6.69398718535E-01 +7.10046244532E-01
1.12000000000E+09 -5.25020131246E-01 +7.96395514667E-01 -1.68235888267E-05 +1.93257912544E-06 +5.47546205711E-06 -1.41983744773E-05 -6.65258346757E-01 +7.13740088804E-01
1.12500000000E+09 -5.17028110507E-01 +8.00388027263E-01 +1.70189618885E-05 -5.61557407811E-06 +7.25555396857E-06 -1.29197490787E-05 -6.60902330316E-01 +7.17732743216E-01
1.13000000000E+09 -5.09955888315E-01 +8.04009882494E-01 +2.85937669611E-05 -1.60484636899E-05 +2.04509104026E-05 -3.53841144896E-05 -6.56658387511E-01 +7.21362955768E-01
1.13500000000E+09 -5.03809514849E-01 +8.06773687798E-01 +3.96775280532E-06 -2.60331099338E-05 +1.59168864329E-05 -4.35192605555E-05 -6.52198665949E-01 +7.25321265421E-01
1.14000000000E+09 -4.98600421654E-01 +8.09366014494E-01 +3.66359259814E-05 +2.42813031056E-06 +4.78337287634E-05 -5.62137925398E-06 -6.47777022350E-01 +7.28742616600E-01
1.14500000000E+09 -4.94474767925E-01 +8.11070191933E-01 +3.67249780745E-05 -5.42683733438E-05 +2.01156196434E-05 -2.29091989473E-06 -6.42814561435E-01 +7.32246338864E-01
1.15000000000E+09 -4.90685641041E-01 +8.12662722563E-01 +3.13078810372E-05 -1.37805283781E-05 +3.13250869916E-05 +6.49231231785E-06 -6.38285413330E-01 +7.35970545682E-01
1.15500000000E+09 -4.86787355410E-01 +8.14406695128E-01 +1.31901223873E-05 -5.07294047928E-05 +1.05276961978E-05 -3.38690128182E-05 -6.33260036741E-01 +7.39899035416E-01
1.16000000000E+09 -4.81685317967E-01 +8.16190061892E-01 +2.44196599030E-05 -3.01141433824E-05 +3.74271802388E-05 -2.11657692650E-05 -6.28473425941E-01 +7.43692141458E-01
1.16500000000E+09 -4.75693296064E-01 +8.18891471187E-01 +3.11856136550E-05 -2.15038158691E-05 +8.21379980601E-06 -1.18234888388E-05 -6.23455092191E-01 +7.47325705055E-01
1.17000000000E+09 -4.68509702608E-01 +8.21840020480E-01 +7.10587177647E-05 -2.94086877993E-06 +5.44178179280E-05 -1.72030366216E-05 -6.18055738847E-01 +7.50706285721E-01
1.17500000000E+09 -4.60410652190E-01 +8.25154693780E-01 +3.78021121687E-05 -2.63903408853E-05 +5.45581057523E-05 +7.14831106058E-06 -6.12401753838E-01 +7.53863648845E-01
1.18000000000E+09 -4.52191698879E-01 +8.28781765748E-01 +2.18224934341E-05 +3.78699657230E-06 +5.27590450900E-05 +2.70790410587E-05 -6.06830986643E-01 +7.57140942900E-01
1.18500000000E+09 -4.44107222572E-01 +8.32037785646E-01 +4.89326421782E-05 -2.99603359368E-05 +6.69007399904E-05 -3.42213824199E-05 -6.00826554988E-01 +7.60209559262E-01
1.19000000000E+09 -4.36787535564E-01 +8.34661981977E-01 +3.05928016134E-05 -8.59342518806E-05 +6.64590521197E-05 -2.84290874441E-05 -5.94435021863E-01 +7.63001894347E-01
1.19500000000E+09 -4.30560464700E-01 +8.36570738450E-01 +4.41505748030E-05 -7.17584562550E-05 +2.20561564361E-05 -1.97232484940E-04 -5.88524199161E-01 +7.64310425734E-01
1.20000000000E+09 -4.25314226741E-01 +8.37594450418E-01 -1.70231794599E-05 -1.48820162779E-04 -2.83497832613E-05 -1.50609228259E-04 -5.83969128198E-01 +7.64495614689E-01
1.20500000000E+09 -4.20680412578E-01 +8.38680667125E-01 -7.83244290886E-05 -1.15874146534E-04 -1.40541285909E-04 -1.05865485134E-04 -5.81511693740E-01 +7.65228728502E-01
1.21000000000E+09 -4.16026208322E-01 +8.39924848480E-01 -1.38655719743E-04 -3.15226666857E-05 -1.41442917026E-04 -3.79317078265E-05 -5.79833058606E-01 +7.68311110314E-01
1.21500000000E+09 -4.10046297997E-01 +8.41384496271E-01 -1.01150319787E-04 +2.96485975573E-05 -5.51379670985E-05 +1.16337434380E-06 -5.77074068634E-01 +7.72754472603E-01
1.22000000000E+09 -4.03121502645E-01 +8.43191245930E-01 +6.07968121032E-06 +3.83731213318E-05 -7.10107114276E-05 +1.37453830811E-05 -5.72943578866E-01 +7.78075258303E-01
1.22500000000E+09 -3.94619452262E-01 +8.45710878293E-01 -1.74515742436E-05 -6.10048133435E-06 -1.98148053295E-05 -2.00411728072E-05 -5.67777329822E-01 +7.83149351784E-01
1.23000000000E+09 -3.85097610039E-01 +8.48718405818E-01 -4.82416467149E-06 -4.57462873615E-05 +1.34533231973E-05 +3.93906819347E-05 -5.62095685293E-01 +7.88064156158E-01
1.23500000000E+09 -3.75409305320E-01 +8.52078198189E-01 -4.13740080984E-05 -9.18891286972E-05 +7.21975045487E-06 -4.78019286680E-05 -5.56301603336E-01 +7.92337938961E-01
1.24000000000E+09 -3.65873770529E-01 +8.55666323693E-01 -1.34941746666E-06 -1.11108862791E-04 -1.68680770082E-05 -5.76374536393E-05 -5.50272975838E-01 +7.96396557867E-01
1.24500000000E+09 -3.57188198309E-01 +8.59465541212E-01 -6.20737897925E-06 -8.64413913820E-06 -5.22963259821E-05 -1.96277557133E-05 -5.44025245199E-01 +8.00131445452E-01
1.25000000000E+09 -3.49453080071E-01 +8.62517342875E-01 -7.79940567258E-05 +8.01831365087E-07 -3.85438895476E-05 -7.85643156275E-06 -5.37264360746E-01 +8.04403061887E-01
1.25500000000E+09 -3.42599936082E-01 +8.64660996992E-01 -7.62953758058E-05 -2.30224630153E-06 -9.38131987708E-05 -1.89955466968E-05 -5.30425596480E-01 +8.08503700532E-01
1.26000000000E+09 -3.36543452771E-01 +8.66089210728E-01 -7.72080419194E-05 +1.41581358423E-05 -7.08061429603E-05 -8.53654833775E-06 -5.23516418066E-01 +8.12830943672E-01
1.26500000000E+09 -3.30675947865E-01 +8.66812387394E-01 -6.89432867984E-05 -5.67520726369E-06 -4.62495872101E-05 +1.71720759247E-05 -5.16569062613E-01 +8.16732950948E-01
1.27000000000E+09 -3.24255924159E-01 +8.67287085351E-01 -4.81794017441E-05 -4.20474460061E-06 -2.32857849304E-05 -2.34573911244E-05 -5.09813688455E-01 +8.20601798177E-01
1.27500000000E+09 -3.16569780447E-01 +8.67989278440E-01 -7.12006225710E-05 -3.28911660889E-05 -6.77473630625E-05 -1.23655447432E-05 -5.02711842361E-01 +8.24216717122E-01
1.28000000000E+09 -3.07145209415E-01 +8.68929642810E-01 -1.03568123818E-04 -4.22960453912E-05 -9.05297025482E-05 -3.92899161570E-05 -4.95754002594E-01 +8.27651735835E-01
1.28500000000E+09 -2.95648651736E-01 +8.70466787201E-01 -9.45149852870E-05 -1.19136754170E-05 -1.01573561038E-04 -3.83177182195E-05 -4.88380123748E-01 +8.31335230527E-01
1.29000000000E+09 -2.83490825680E-01 +8.72502562062E-01 -7.11473405164E-05 -2.11483683075E-05 -1.03676817453E-04 +3.10209596431E-05 -4.80782751592E-01 +8.34921484790E-01
1.29500000000E+09 -2.70950049851E-01 +8.75585422463E-01 -5.67094244516E-05 +3.65820330663E-05 -8.08990682492E-05 +1.44200443561E-05 -4.72753312664E-01 +8.38605325867E-01
1.30000000000E+09 -2.59048599480E-01 +8.78824330123E-01 -1.22435209781E-04 -8.59819071028E-06 -1.09304319097E-04 +2.67409605282E-05 -4.64885511262E-01 +8.42280501218E-01
1.30500000000E+09 -2.48168136359E-01 +8.82157161565E-01 -9.85057684386E-05 +4.48720876909E-05 -1.01473906949E-04 +4.26362930292E-05 -4.56589389909E-01 +8.45795224774E-01
1.31000000000E+09 -2.38717669328E-01 +8.84710180091E-01 -1.34765181268E-04 +7.28877233687E-05 -1.09240316406E-04 +4.39201085017E-05 -4.48295927933E-01 +8.49193406776E-01
1.31500000000E+09 -2.31258508066E-01 +8.86582922360E-01 -1.17810766614E-04 +8.67980205617E-05 -7.63171085980E-05 +6.69442913869E-05 -4.39447352991E-01 +8.52728932833E-01
1.32000000000E+09 -2.25084719785E-01 +8.87301310539E-01 -9.59372449681E-05 +1.00235481128E-04 -8.39621717990E-05 +5.70454875198E-05 -4.30168282438E-01 +8.56124761636E-01
1.32500000000E+09 -2.19425030927E-01 +8.87121387375E-01 -1.13070736269E-04 +1.07644756536E-04 -1.09495629619E-04 +1.30411873006E-04 -4.20544413587E-01 +8.59464819618E-01
1.33000000000E+09 -2.12887086391E-01 +8.86678292863E-01 -6.05458077860E-05 +1.60228239328E-04 -5.98471320151E-05 +1.27466620218E-04 -4.10692497001E-01 +8.62834026181E-01
1.33500000000E+09 -2.04555349309E-01 +8.85615561932E-01 -6.22280844528E-05 +8.12075487436E-05 -1.90043946585E-06 +1.42523160208E-04 -4.00721911254E-01 +8.66191525034E-01
1.34000000000E+09 -1.93850929334E-01 +8.84867567449E-01 -8.06126890701E-05 +1.31328427780E-04 -3.31639840935E-05 +1.32090021851E-04 -3.90426702393E-01 +8.69551795779E-01
1.34500000000E+09 -1.80732319393E-01 +8.84417443397E-01 -3.06045211464E-05 +1.14659934482E-04 -4.59167909070E-05 +1.81631706398E-04 -3.79483792487E-01 +8.72855948680E-01
1.35000000000E+09 -1.65656466501E-01 +8.84319110155E-01 -3.94987910436E-05 +1.45087351104E-04 -7.24228961235E-05 +1.63975362973E-04 -3.68337768866E-01 +8.75800598356E-01
1.35500000000E+09 -1.49313178073E-01 +8.84914839554E-01 -3.43138541479E-05 +1.80850067788E-04 -1.80825099527E-06 +1.82538303092E-04 -3.56544313495E-01 +8.78750440534E-01
1.36000000000E+09 -1.32703202786E-01 +8.85618337600E-01 -6.42285842745E-08 +1.81399244742E-04 -9.89102045219E-06 +1.83201474285E-04 -3.44570884893E-01 +8.81433073536E-01
1.36500000000E+09 -1.16820244705E-01 +8.86017047391E-01 +1.69585055489E-05 +2.36883025822E-04 +1.65557414006E-05 +2.48798457266E-04 -3.32263077984E-01 +8.83973968903E-01
1.37000000000E+09 -1.02823944973E-01 +8.85907270952E-01 +1.01605913254E-04 +2.87000399756E-04 +3.86785113048E-05 +3.02092952143E-04 -3.19300486206E-01 +8.86282899290E-01
1.37500000000E+09 -9.06651571307E-02 +8.85364035117E-01 +2.04457644286E-04 +2.62955968634E-04 +2.33043445296E-04 +2.26755390319E-04 -3.05520059953E-01 +8.88502081654E-01
1.38000000000E+09 -7.99373423610E-02 +8.84065572831E-01 +1.71204369164E-04 +1.16364057747E-04 +2.00568280593E-04 +1.76289669016E-04 -2.90833774020E-01 +8.90378699715E-01
1.38500000000E+09 -6.92717788638E-02 +8.82051144190E-01 +1.47766900415E-04 +1.53209601065E-04 +1.59513865862E-04 +2.09120445749E-04 -2.75461074151E-01 +8.92196942868E-01
1.39000000000E+09 -5.77390833370E-02 +8.79069470291E-01 +1.34519269973E-04 +2.09726775989E-04 +1.62529732751E-04 +2.02521777756E-04 -2.59401055184E-01 +8.93430152662E-01
1.39500000000E+09 -4.42705556316E-02 +8.75338553933E-01 +1.72936833486E-04 +2.55961119398E-04 +2.61006592855E-04 +2.56476135323E-04 -2.42639314182E-01 +8.94170352116E-01
1.40000000000E+09 -2.81565318937E-02 +8.70491645567E-01 +3.13932092000E-04 +2.94363816241E-04 +3.71586345886E-04 +2.56427854165E-04 -2.24787768116E-01 +8.94642419034E-01
1.40500000000E+09 -1.00971875897E-02 +8.65131350108E-01 +5.00131169768E-04 +1.66041653074E-04 +4.87406416034E-04 +1.55818249208E-04 -2.06015435493E-01 +8.94203936457E-01
1.41000000000E+09 +1.03346948385E-02 +8.59572473203E-01 +5.32624461194E-04 -1.02044643941E-06 +5.32842916264E-04 +1.54477190455E-05 -1.85952595481E-01 +8.93208776680E-01
1.41500000000E+09 +3.21984912735E-02 +8.53623411516E-01 +4.60309209114E-04 -9.95673422899E-06 +4.94739204184E-04 -1.83297374760E-05 -1.64329528646E-01 +8.91630151459E-01
1.42000000000E+09 +5.49981574078E-02 +8.47244685208E-01 +5.07339321339E-04 -1.31967855039E-04 +5.86911459162E-04 -2.02452927939E-04 -1.41593572397E-01 +8.88700475773E-01
1.42500000000E+09 +7.77048036044E-02 +8.39607404364E-01 +3.79275352519E-04 -2.69015002311E-04 +4.17061992837E-04 -3.00882030320E-04 -1.18248031584E-01 +8.84981449316E-01
1.43000000000E+09 +9.91914863685E-02 +8.30339661652E-01 +3.77683882629E-04 -1.70972967184E-04 +3.68448985833E-04 -2.20804832194E-04 -9.34273105894E-02 +8.80301865810E-01
1.43500000000E+09 +1.19827462135E-01 +8.19352770473E-01 +4.54369271488E-04 -3.27376704347E-04 +4.51823098443E-04 -3.54621937634E-04 -6.72571184961E-02 +8.73637992527E-01
1.44000000000E+09 +1.40259272817E-01 +8.06459845636E-01 +4.39312017569E-04 -3.99340412602E-04 +4.45328964890E-04 -4.72731604005E-04 -3.90246707148E-02 +8.64927201625E-01
1.44500000000E+09 +1.60937553842E-01 +7.91142757686E-01 +4.55660406933E-04 -6.54029114133E-04 +4.29781515603E-04 -6.95233244697E-04 -9.12585459823E-03 +8.53420442447E-01
1.45000000000E+09 +1.83513974084E-01 +7.72708385921E-01 +1.11004756619E-04 -8.14160617089E-04 +6.23344306077E-05 -7.75727005845E-04 +2.24999267969E-02 +8.38776237256E-01
1.45500000000E+09 +2.07579335295E-01 +7.50856638194E-01 -1.03103529043E-04 -7.32750331226E-04 -1.89094974294E-04 -7.22238843675E-04 +5.55778519681E-02 +8.20933587338E-01
1.46000000000E+09 +2.34143089406E-01 +7.25492488606E-01 -3.37395791104E-04 -6.62329552560E-04 -3.48773509234E-04 -5.93133307588E-04 +8.96587841122E-02 +7.99037816009E-01
1.46500000000E+09 +2.62561843818E-01 +6.96113773090E-01 -3.83962882307E-04 -2.36739520141E-04 -3.82913512858E-04 -1.62308391880E-04 +1.25307474782E-01 +7.72872010425E-01
1.47000000000E+09 +2.91621851993E-01 +6.62235478829E-01 +3.28325750879E-05 -1.72813895301E-04 +3.04458963122E-05 -1.26919099202E-04 +1.62186295038E-01 +7.39797370392E-01
1.47500000000E+09 +3.20198596433E-01 +6.23671935409E-01 +1.12309973500E-04 -4.30217885091E-04 +1.29127449331E-04 -4.13357981353E-04 +1.99590504976E-01 +6.99528784046E-01
1.48000000000E+09 +3.46061656136E-01 +5.79409252342E-01 -7.93857835809E-05 -7.88186396077E-04 -3.78782462930E-05 -7.44488401996E-04 +2.35914753809E-01 +6.50419149653E-01
1.48500000000E+09 +3.67542334306E-01 +5.29651412653E-01 -2.63409501593E-04 -8.07605424301E-04 -3.19999044686E-04 -8.31944686976E-04 +2.69899816902E-01 +5.91981170199E-01
1.49000000000E+09 +3.83834043230E-01 +4.73023035382E-01 -7.78394037911E-04 -6.44962890754E-04 -7.69975756312E-04 -6.55138047841E-04 +2.97940752756E-01 +5.23324940882E-01
1.49500000000E+09 +3.93108442862E-01 +4.09067363090E-01 -7.75978436961E-04 -4.82555182871E-04 -7.47259584621E-04 -4.07633295800E-04 +3.17410598313E-01 +4.44531616362E-01
1.50000000000E+09 +3.93454740485E-01 +3.36031826041E-01 -7.49799233248E-04 -1.99049494458E-04 -7.24940072047E-04 -1.59897159735E-04 +3.23733343967E-01 +3.55792661643E-01
1.50500000000E+09 +3.80974414493E-01 +2.55148742989E-01 -5.91663651909E-04 -1.27672920341E-04 -5.62826947074E-04 -1.06523216565E-04 +3.12483726811E-01 +2.58852791442E-01
1.51000000000E+09 +3.53860416377E-01 +1.69453995073E-01 -7.04108937833E-04 -5.95760565332E-04 -6.31658462739E-04 -6.13920622545E-04 +2.80250237220E-01 +1.60198362280E-01
1.51500000000E+09 +3.10640725873E-01 +8.26964355215E-02 -1.31705254200E-03 -3.20545051684E-04 -1.26612833893E-03 -3.27011898389E-04 +2.28444912439E-01 +6.41900869629E-02
1.52000000000E+09 +2.46884927577E-01 +6.58541267771E-04 -1.47949190944E-03 -3.01658779349E-05 -1.55822148116E-03 -3.28407586370E-05 +1.54078481637E-01 -2.28102166018E-02
1.52500000000E+09 +1.67056439077E-01 -6.65169739929E-02 -1.75035237665E-03 +7.50825367012E-04 -1.72824984681E-03 +7.70612486484E-04 +6.02400126330E-02 -9.15793806801E-02
1.53000000000E+09 +7.39497487767E-02 -1.16249105932E-01 -1.69770751412E-03 +1.57729012308E-03 -1.65849395185E-03 +1.56521279016E-03 -4.37063539961E-02 -1.37511695316E-01
1.53500000000E+09 -2.82834341624E-02 -1.44030038123E-01 +1.42582568125E-04 +2.30901549327E-03 +1.97700907929E-04 +2.27394535755E-03 -1.53296802486E-01 -1.61597922084E-01
1.54000000000E+09 -1.34637972574E-01 -1.45946174893E-01 +3.41019013177E-04 +1.03394741127E-03 +3.79005787394E-04 +1.05090815570E-03 -2.63477742453E-01 -1.60960631791E-01
1.54500000000E+09 -2.35682783578E-01 -1.24381074157E-01 +2.88582249492E-04 +1.08965691509E-03 +2.93145270611E-04 +1.09824772957E-03 -3.62272074973E-01 -1.39202492302E-01
1.55000000000E+09 -3.26554054013E-01 -8.46496073212E-02 +4.73655943474E-04 +7.31596387326E-04 +4.14093490937E-04 +6.98442305532E-04 -4.48842468244E-01 -1.04014781271E-01
1.55500000000E+09 -4.03567815289E-01 -3.33711849030E-02 +1.42178564329E-04 +6.34585286062E-04 +1.45269593882E-04 +6.41126669116E-04 -5.21467435763E-01 -5.77297236722E-02
1.56000000000E+09 -4.66311476463E-01 +2.27022502510E-02 +2.86388980331E-04 +1.31875672702E-03 +2.64480322389E-04 +1.38795273221E-03 -5.80192311886E-01 -5.80061325253E-03
1.56500000000E+09 -5.16958126028E-01 +7.97807228763E-02 +1.26770207035E-03 +1.22263038982E-03 +1.29631262041E-03 +1.26568978661E-03 -6.26389854262E-01 +4.94996750918E-02
1.57000000000E+09 -5.55832129266E-01 +1.36023496434E-01 +1.87208950502E-03 +5.48791678641E-06 +2.01039829339E-03 -3.27259965743E-05 -6.61504116042E-01 +1.04210858874E-01
