# Hz S RI R 50
! CMT, C1220, 16058040, 17.2.0/1
! Date: 15/08/2018 11:35:59
! Data: Format (Calibration Info)
! Freq                      S11: Re/Im (F2)                       S21: Re/Im (F2)                       S12: Re/Im (F2)                       S22: Re/Im (F2)            
4.00000000000E+09 +6.69699431096E-01 -3.55870164491E-01 +1.34243001055E-03 -3.55205602189E-03 +1.52773795941E-03 -3.54417705302E-03 +7.75207921804E-01 -3.53387369515E-01
4.00500000000E+09 +6.61655592389E-01 -3.64165124813E-01 +9.64157938915E-04 -3.96145606827E-03 +1.15076824054E-03 -4.03128222837E-03 +7.66773588451E-01 -3.64584886147E-01
4.01000000000E+09 +6.53033478247E-01 -3.71620735490E-01 +2.90965900888E-04 -4.20235100246E-03 +4.29174228591E-04 -4.21333928745E-03 +7.57954189786E-01 -3.75920605191E-01
4.01500000000E+09 +6.43775862449E-01 -3.79354595431E-01 -4.09024807151E-04 -4.04182291201E-03 -2.44034511879E-04 -4.16570110682E-03 +7.48360978923E-01 -3.86520377181E-01
4.02000000000E+09 +6.33755398398E-01 -3.88047586779E-01 -6.37993375946E-04 -3.74279230266E-03 -5.17101325514E-04 -3.84742304751E-03 +7.38618052205E-01 -3.97090384840E-01
4.02500000000E+09 +6.22843821050E-01 -3.97504668282E-01 -6.83884830615E-04 -3.74060450709E-03 -5.54233451264E-04 -3.83790973542E-03 +7.28240110001E-01 -4.07320747433E-01
4.03000000000E+09 +6.10881847122E-01 -4.07478606638E-01 -9.37727310282E-04 -3.91920517298E-03 -8.12698218611E-04 -4.07309938682E-03 +7.17925508564E-01 -4.17918968090E-01
4.03500000000E+09 +5.98824723823E-01 -4.16956655246E-01 -1.59091724819E-03 -3.94065744714E-03 -1.51473715147E-03 -4.17874598799E-03 +7.06814225906E-01 -4.29180327354E-01
4.04000000000E+09 +5.87318471010E-01 -4.27018642541E-01 -1.94856119293E-03 -3.72833227041E-03 -1.90137508231E-03 -3.90218736604E-03 +6.95426385182E-01 -4.40114775229E-01
4.04500000000E+09 +5.75472368927E-01 -4.36360517265E-01 -2.43283342022E-03 -3.58592738447E-03 -2.40159596426E-03 -3.81078480973E-03 +6.83561282439E-01 -4.50900269140E-01
4.05000000000E+09 +5.64089233805E-01 -4.45216647844E-01 -2.66323397274E-03 -3.28936554495E-03 -2.71135020165E-03 -3.48830562471E-03 +6.71834642131E-01 -4.60696779769E-01
4.05500000000E+09 +5.52179729027E-01 -4.53859627881E-01 -2.75537426046E-03 -3.25910697642E-03 -2.74325879872E-03 -3.49789712596E-03 +6.59522482517E-01 -4.70229776901E-01
4.06000000000E+09 +5.38746682092E-01 -4.61688700457E-01 -3.45054158124E-03 -3.39195962886E-03 -3.54884452991E-03 -3.63859679902E-03 +6.47027702449E-01 -4.79643265327E-01
4.06500000000E+09 +5.24869893351E-01 -4.67574562804E-01 -4.28070819615E-03 -2.68291135347E-03 -4.36860626699E-03 -2.83316501204E-03 +6.33755614738E-01 -4.88581441675E-01
4.07000000000E+09 +5.11161740148E-01 -4.74139996456E-01 -4.26222507108E-03 -2.15687517698E-03 -4.31646995777E-03 -2.27043946049E-03 +6.20146606866E-01 -4.98130086356E-01
4.07500000000E+09 +4.95678282757E-01 -4.81470929183E-01 -4.33260974505E-03 -1.81070439124E-03 -4.35763393903E-03 -1.93751179001E-03 +6.06420157628E-01 -5.07235328987E-01
4.08000000000E+09 +4.79546289397E-01 -4.88260712109E-01 -4.53833612672E-03 -1.57284968705E-03 -4.57381105303E-03 -1.77836062002E-03 +5.92903062264E-01 -5.16767804595E-01
4.08500000000E+09 +4.62824894369E-01 -4.95488358810E-01 -4.85368147435E-03 -1.20472557345E-03 -4.92011731750E-03 -1.40664758514E-03 +5.78959034720E-01 -5.26119977433E-01
4.09000000000E+09 +4.46217994627E-01 -5.02753117129E-01 -5.29934815357E-03 -7.43612471838E-04 -5.48213771001E-03 -9.03175064449E-04 +5.64568728025E-01 -5.34770942019E-01
4.09500000000E+09 +4.29438436509E-01 -5.09574814241E-01 -5.51447046986E-03 +1.20288450446E-04 -5.72226928661E-03 -1.73224863889E-05 +5.49343340682E-01 -5.42489922676E-01
4.10000000000E+09 +4.14047353858E-01 -5.16116621345E-01 -4.91112947363E-03 +8.04127262541E-04 -5.09234734473E-03 +7.36590642092E-04 +5.33520264724E-01 -5.49664843168E-01
4.10500000000E+09 +3.97788806088E-01 -5.22626381484E-01 -4.97530040063E-03 +8.10031760772E-04 -5.13970666877E-03 +7.76890258181E-04 +5.17498206601E-01 -5.56755158780E-01
4.11000000000E+09 +3.80938548910E-01 -5.27095204200E-01 -5.23479304845E-03 +1.38268044912E-03 -5.45400894176E-03 +1.28261380508E-03 +5.00675643178E-01 -5.64645830723E-01
4.11500000000E+09 +3.64375312845E-01 -5.29736581762E-01 -5.16385702318E-03 +2.16080041372E-03 -5.39023141082E-03 +2.10390351064E-03 +4.83246288313E-01 -5.72366783827E-01
4.12000000000E+09 +3.47679747509E-01 -5.31723278281E-01 -4.99325527475E-03 +2.80548300717E-03 -5.20912716502E-03 +2.79315859139E-03 +4.65757852149E-01 -5.79125724433E-01
4.12500000000E+09 +3.31007864112E-01 -5.33230944977E-01 -4.57235146777E-03 +3.39758578386E-03 -4.80924029799E-03 +3.44417080070E-03 +4.48473701552E-01 -5.84986034099E-01
4.13000000000E+09 +3.13542937646E-01 -5.35638207067E-01 -3.83834821353E-03 +3.86399238798E-03 -4.02843983865E-03 +3.84771849862E-03 +4.31382470496E-01 -5.90628233020E-01
4.13500000000E+09 +2.94374451641E-01 -5.39243325545E-01 -3.39103695739E-03 +3.74919277395E-03 -3.55892524012E-03 +3.71278785147E-03 +4.13464402363E-01 -5.96157973965E-01
4.14000000000E+09 +2.73883271222E-01 -5.42471275641E-01 -3.53020440199E-03 +3.65197929558E-03 -3.71225646435E-03 +3.68111269701E-03 +3.93717847653E-01 -6.01572561197E-01
4.14500000000E+09 +2.53413139369E-01 -5.44940759400E-01 -3.86222227603E-03 +4.45454500745E-03 -4.07386434938E-03 +4.56082334182E-03 +3.73783571490E-01 -6.06265855963E-01
4.15000000000E+09 +2.34742226521E-01 -5.48541548563E-01 -2.85302077521E-03 +5.24065201937E-03 -3.05355067089E-03 +5.39686766879E-03 +3.54456103362E-01 -6.10496925502E-01
4.15500000000E+09 +2.15164202343E-01 -5.51580046956E-01 -2.41070736296E-03 +5.36842489701E-03 -2.50048461456E-03 +5.50820558288E-03 +3.34792003409E-01 -6.14200663025E-01
4.16000000000E+09 +1.97450275455E-01 -5.53485001956E-01 -1.91029958570E-03 +5.72966103374E-03 -1.98323359859E-03 +5.73031838779E-03 +3.15305870232E-01 -6.17149256227E-01
4.16500000000E+09 +1.80023091830E-01 -5.54674938999E-01 -1.47251551391E-03 +5.73576675162E-03 -1.49254777439E-03 +5.85539144181E-03 +2.95286414000E-01 -6.18984978806E-01
4.17000000000E+09 +1.62269562851E-01 -5.53969787514E-01 -1.42397980817E-03 +6.07493499900E-03 -1.50009745076E-03 +6.17307053932E-03 +2.74964221459E-01 -6.19811925634E-01
4.17500000000E+09 +1.44884714457E-01 -5.50627562422E-01 -5.75693922399E-04 +6.90087612504E-03 -7.69707541604E-04 +7.03555606950E-03 +2.54702599805E-01 -6.20344693551E-01
4.18000000000E+09 +1.28486007883E-01 -5.46181383327E-01 +9.56496113411E-04 +7.03519575373E-03 +9.11239919865E-04 +7.22768107752E-03 +2.33649631596E-01 -6.21181505705E-01
4.18500000000E+09 +1.09761952774E-01 -5.42596447483E-01 +1.57444643040E-03 +6.14053259856E-03 +1.49512673419E-03 +6.36988268273E-03 +2.11171965215E-01 -6.21875106654E-01
4.19000000000E+09 +8.97027032720E-02 -5.37075633389E-01 +1.57329854365E-03 +5.84739749350E-03 +1.53534168444E-03 +6.08390984031E-03 +1.88682298157E-01 -6.20916850208E-01
4.19500000000E+09 +6.94604900450E-02 -5.31555395235E-01 +1.55971567580E-03 +6.15719674195E-03 +1.51755020129E-03 +6.36272968506E-03 +1.66407120787E-01 -6.18962129177E-01
4.20000000000E+09 +4.84250851492E-02 -5.26483427037E-01 +2.33931109133E-03 +6.81250580924E-03 +2.27786225759E-03 +7.00947820631E-03 +1.44608948381E-01 -6.16330435156E-01
4.20500000000E+09 +2.77245427765E-02 -5.21683812284E-01 +3.83241459241E-03 +6.97885601356E-03 +3.88702104754E-03 +7.25661682085E-03 +1.22306137819E-01 -6.13027581554E-01
4.21000000000E+09 +7.56886493194E-03 -5.16655444831E-01 +5.26919294823E-03 +6.37453301246E-03 +5.32822544778E-03 +6.62389198959E-03 +9.92780163938E-02 -6.09192070070E-01
4.21500000000E+09 -1.11827256229E-02 -5.12758993809E-01 +5.67626881740E-03 +5.09030667896E-03 +5.82404447575E-03 +5.25311627607E-03 +7.61167421416E-02 -6.04033820464E-01
4.22000000000E+09 -3.02071505522E-02 -5.07126012486E-01 +5.93903375758E-03 +4.61470540607E-03 +6.01551614712E-03 +4.71187745217E-03 +5.40518948596E-02 -5.98011967457E-01
4.22500000000E+09 -4.71847091442E-02 -4.99520405607E-01 +6.38981120735E-03 +4.26829627005E-03 +6.48123521174E-03 +4.37988919738E-03 +3.22887385631E-02 -5.92167913584E-01
4.23000000000E+09 -6.30074243249E-02 -4.91342649224E-01 +7.31892803594E-03 +3.53676129125E-03 +7.45341231428E-03 +3.70921064389E-03 +1.13455241673E-02 -5.84995417053E-01
4.23500000000E+09 -8.00521848194E-02 -4.81225810393E-01 +7.33330107328E-03 +2.43426015048E-03 +7.48478575772E-03 +2.57062820740E-03 -1.08880042891E-02 -5.77945945130E-01
4.24000000000E+09 -9.66492628796E-02 -4.69286076699E-01 +7.35691194593E-03 +2.14796169727E-03 +7.52965503606E-03 +2.27652758154E-03 -3.36769967380E-02 -5.68738710791E-01
4.24500000000E+09 -1.14036218108E-01 -4.56880466870E-01 +7.62393153062E-03 +1.50885521693E-03 +7.82881133578E-03 +1.55071662864E-03 -5.60173444909E-02 -5.57622101948E-01
4.25000000000E+09 -1.33435697017E-01 -4.43478573324E-01 +8.04316068952E-03 +1.27453758034E-03 +8.23862268093E-03 +1.33517414176E-03 -7.68627847025E-02 -5.46502991681E-01
4.25500000000E+09 -1.52851002374E-01 -4.30103187744E-01 +8.98016151784E-03 +4.36740358750E-04 +9.19675902966E-03 +4.65924932304E-04 -9.71591130993E-02 -5.34805977039E-01
4.26000000000E+09 -1.72398788336E-01 -4.17523091758E-01 +9.80793946544E-03 -1.44247373102E-03 +1.00739063734E-02 -1.55140683165E-03 -1.17670528121E-01 -5.22831310048E-01
4.26500000000E+09 -1.92769214818E-01 -4.06586821624E-01 +8.66662139970E-03 -3.03589337788E-03 +8.85070002477E-03 -3.14825707328E-03 -1.37552224163E-01 -5.09379031925E-01
4.27000000000E+09 -2.12638675168E-01 -3.94159383558E-01 +7.98014711353E-03 -3.87678295482E-03 +8.18574231335E-03 -3.97545088721E-03 -1.58909365326E-01 -4.95540595520E-01
4.27500000000E+09 -2.30429975661E-01 -3.82258702436E-01 +7.23897780165E-03 -4.74879646552E-03 +7.39039083836E-03 -4.83915882947E-03 -1.79191374936E-01 -4.79099081365E-01
4.28000000000E+09 -2.46758601614E-01 -3.69218905186E-01 +6.52324583511E-03 -4.54432401490E-03 +6.67158619639E-03 -4.68141102241E-03 -1.97994783678E-01 -4.64553847036E-01
4.28500000000E+09 -2.60039168654E-01 -3.55593081758E-01 +6.97714199266E-03 -4.80781296649E-03 +7.08131077181E-03 -4.93123220734E-03 -2.19226330686E-01 -4.49152596022E-01
4.29000000000E+09 -2.72115113697E-01 -3.41268860926E-01 +7.19599741185E-03 -6.45474837906E-03 +7.36366207341E-03 -6.63114626137E-03 -2.38749541187E-01 -4.31358733737E-01
4.29500000000E+09 -2.83677331614E-01 -3.26587106907E-01 +5.48131907738E-03 -7.78405519556E-03 +5.48351946501E-03 -7.97562443124E-03 -2.56017429622E-01 -4.11787081675E-01
4.30000000000E+09 -2.96455324499E-01 -3.09991165379E-01 +4.98679312776E-03 -7.77564774784E-03 +5.01199914383E-03 -7.99597111928E-03 -2.71403415573E-01 -3.93316493040E-01
4.30500000000E+09 -3.09589190128E-01 -2.91778622371E-01 +3.87124929996E-03 -8.81131249690E-03 +3.94060960545E-03 -9.00093347080E-03 -2.86413696536E-01 -3.74108098302E-01
4.31000000000E+09 -3.22695164134E-01 -2.71865535491E-01 +2.78207791965E-03 -9.00473846003E-03 +2.75619653805E-03 -9.27245389712E-03 -3.01703069292E-01 -3.54634033100E-01
4.31500000000E+09 -3.35286695535E-01 -2.52047637179E-01 +2.00518563263E-03 -9.05052600680E-03 +1.90417440663E-03 -9.28782985255E-03 -3.17547038096E-01 -3.34091720271E-01
4.32000000000E+09 -3.46910158753E-01 -2.32846729770E-01 +8.16277329555E-04 -9.79835593254E-03 +7.54018701430E-04 -1.00359952556E-02 -3.31774476557E-01 -3.11626943528E-01
4.32500000000E+09 -3.57461051319E-01 -2.15578957590E-01 -2.26846331655E-03 -5.42046376221E-03 -1.46947545935E-03 -9.54811959698E-03 -3.43991953213E-01 -2.89370877296E-01
4.33000000000E+09 -3.68697388333E-01 -1.99542497907E-01 -1.05742483333E-03 -7.88289918157E-03 -1.21304326287E-03 -8.00105949122E-03 -3.55465873256E-01 -2.68512665566E-01
4.33500000000E+09 -3.78838893081E-01 -1.82095137321E-01 -8.06101476037E-04 -8.51287884155E-03 -9.97474586600E-04 -8.59403796748E-03 -3.67365551156E-01 -2.44967749172E-01
4.34000000000E+09 -3.86457052000E-01 -1.63508345285E-01 -1.96523268162E-03 -9.33026284295E-03 -2.15492683277E-03 -9.36391705674E-03 -3.77931414080E-01 -2.20493558212E-01
4.34500000000E+09 -3.91786643332E-01 -1.44391334189E-01 -3.13173111420E-03 -9.53873968037E-03 -3.26770428492E-03 -9.52861974900E-03 -3.86635374158E-01 -1.95313305736E-01
4.35000000000E+09 -3.95613644409E-01 -1.24310898809E-01 -5.00745452729E-03 -9.39577281216E-03 -5.22182395331E-03 -9.38243572411E-03 -3.95178501849E-01 -1.71498264991E-01
4.35500000000E+09 -3.99094662600E-01 -1.03167832949E-01 -6.24438556963E-03 -8.04018536653E-03 -6.41831968055E-03 -7.97321255717E-03 -4.03960106410E-01 -1.48369266079E-01
4.36000000000E+09 -4.02589827742E-01 -8.13681531155E-02 -6.25112201938E-03 -6.85234912298E-03 -6.42304146250E-03 -6.82747482435E-03 -4.12019677767E-01 -1.24932726924E-01
4.36500000000E+09 -4.07294457881E-01 -5.82771036668E-02 -6.93961856313E-03 -7.19601354533E-03 -7.10812267595E-03 -7.12361657377E-03 -4.17945562335E-01 -9.96852837812E-02
4.37000000000E+09 -4.12519030949E-01 -3.47142389359E-02 -8.10721828368E-03 -6.20660912300E-03 -8.27361785475E-03 -6.08824085956E-03 -4.21662209181E-01 -7.46309078028E-02
4.37500000000E+09 -4.17125076244E-01 -1.24306174919E-02 -8.78081797064E-03 -5.53504020654E-03 -8.92251781853E-03 -5.36588415492E-03 -4.22807872354E-01 -4.95961362289E-02
4.38000000000E+09 -4.22839731031E-01 +9.00146916908E-03 -9.21105839736E-03 -4.32066217793E-03 -9.37977247072E-03 -4.17689986052E-03 -4.25604034956E-01 -2.66405249296E-02
4.38500000000E+09 -4.27405183579E-01 +2.97788356831E-02 -9.88875201179E-03 -3.46686872237E-03 -1.00175308427E-02 -3.19732787029E-03 -4.28505400656E-01 -1.43448830970E-03
4.39000000000E+09 -4.30075746367E-01 +4.90630351979E-02 -9.91651065245E-03 -2.61571474792E-03 -9.96746606414E-03 -2.39172049034E-03 -4.30647471272E-01 +2.49872436084E-02
4.39500000000E+09 -4.30781561225E-01 +6.64430902048E-02 -1.08749306717E-02 -1.89623497680E-03 -1.09797435973E-02 -1.61704726260E-03 -4.29631805736E-01 +5.07918835986E-02
4.40000000000E+09 -4.30001658819E-01 +8.39413683192E-02 -1.16400041310E-02 +1.70177640870E-04 -1.16042861304E-02 +4.04841032207E-04 -4.27239625680E-01 +7.42570163301E-02
4.40500000000E+09 -4.27454022940E-01 +1.00816188966E-01 -1.12345058369E-02 +1.48048355585E-03 -1.11612503138E-02 +1.65353120637E-03 -4.24893544269E-01 +9.73156352367E-02
4.41000000000E+09 -4.25291704956E-01 +1.19305753630E-01 -1.07607905230E-02 +3.55076309984E-03 -1.06910272165E-02 +3.64233470053E-03 -4.22854820147E-01 +1.19738324383E-01
4.41500000000E+09 -4.22247618039E-01 +1.40845215835E-01 -9.94984390594E-03 +4.30021913479E-03 -9.81234213456E-03 +4.44782683504E-03 -4.19639592434E-01 +1.45158935658E-01
4.42000000000E+09 -4.17606441563E-01 +1.63401409685E-01 -9.45932388703E-03 +5.18434450503E-03 -9.29801376403E-03 +5.31944995735E-03 -4.13385602916E-01 +1.70016910835E-01
4.42500000000E+09 -4.13495278907E-01 +1.86136311598E-01 -8.81194978482E-03 +6.07531366357E-03 -8.57918403643E-03 +6.13743109689E-03 -4.06377463559E-01 +1.92032899239E-01
4.43000000000E+09 -4.09657611183E-01 +2.08143128338E-01 -8.50728237982E-03 +7.01541804645E-03 -8.31253935888E-03 +6.98281941554E-03 -4.01917363549E-01 +2.13942631189E-01
4.43500000000E+09 -4.06922981101E-01 +2.28578665024E-01 -7.48583203056E-03 +8.41238421055E-03 -7.38085863123E-03 +8.37051539834E-03 -3.96334105349E-01 +2.37194011035E-01
4.44000000000E+09 -4.05051865447E-01 +2.47095730829E-01 -6.06255748894E-03 +9.55494868104E-03 -6.03707645331E-03 +9.56539663095E-03 -3.88163814117E-01 +2.60394351944E-01
4.44500000000E+09 -4.03368570846E-01 +2.64265063201E-01 -4.42205872028E-03 +9.25325964279E-03 -4.37069851028E-03 +9.21425784554E-03 -3.77571292023E-01 +2.81586073987E-01
4.45000000000E+09 -4.01083661594E-01 +2.80093730938E-01 -3.79869501741E-03 +9.28401037370E-03 -3.70169566514E-03 +9.32951602262E-03 -3.67393765012E-01 +3.00214478847E-01
4.45500000000E+09 -3.96062755132E-01 +2.95295097195E-01 -3.63457916705E-03 +9.92002293734E-03 -3.48597540076E-03 +1.00253552015E-02 -3.57888994608E-01 +3.18424701658E-01
4.46000000000E+09 -3.89414651408E-01 +3.09222021490E-01 -1.90900679910E-03 +1.10560683600E-02 -1.66347098565E-03 +1.11383501589E-02 -3.49236945192E-01 +3.38651893448E-01
4.46500000000E+09 -3.80180279896E-01 +3.24831483703E-01 -7.06921969966E-05 +1.07640239657E-02 +1.91985360984E-04 +1.08205879668E-02 -3.36378065065E-01 +3.57757529687E-01
4.47000000000E+09 -3.68298905628E-01 +3.40141314645E-01 +1.39948009943E-03 +1.00642714142E-02 +1.63382862245E-03 +1.00581904916E-02 -3.24217966727E-01 +3.75581798758E-01
4.47500000000E+09 -3.56222451383E-01 +3.55938459311E-01 +1.97914467950E-03 +9.06656279162E-03 +2.27728120510E-03 +9.02225436309E-03 -3.11976454897E-01 +3.92132798942E-01
4.48000000000E+09 -3.44801507267E-01 +3.73405604932E-01 +1.97693392597E-03 +9.05164905927E-03 +2.22761990964E-03 +8.96721250294E-03 -3.01092683934E-01 +4.09589008328E-01
4.48500000000E+09 -3.33335075727E-01 +3.91842070128E-01 +3.02452139547E-03 +9.32822561129E-03 +3.21017660369E-03 +9.08411144032E-03 -2.88403518079E-01 +4.26909777054E-01
4.49000000000E+09 -3.24414190840E-01 +4.09693371578E-01 +4.43244500952E-03 +9.33499560667E-03 +4.59258818948E-03 +9.06446895385E-03 -2.75117769735E-01 +4.43280831235E-01
4.49500000000E+09 -3.16131993312E-01 +4.28374456140E-01 +5.69219302863E-03 +8.41652419036E-03 +5.73413351934E-03 +8.13764639259E-03 -2.60191940426E-01 +4.57528465034E-01
4.50000000000E+09 -3.08014962599E-01 +4.44624179213E-01 +6.50854764949E-03 +7.52251150108E-03 +6.48278820915E-03 +7.30800550742E-03 -2.46599003568E-01 +4.70676111126E-01
4.50500000000E+09 -3.00588085186E-01 +4.58680591103E-01 +7.40264789670E-03 +6.60436250850E-03 +7.42747902703E-03 +6.28129148023E-03 -2.33015889774E-01 +4.83405178455E-01
4.51000000000E+09 -2.92683047514E-01 +4.70081967379E-01 +7.59667602735E-03 +5.35044491725E-03 +7.61705277860E-03 +5.14425809238E-03 -2.20477678351E-01 +4.97627383918E-01
4.51500000000E+09 -2.83954059563E-01 +4.79146946562E-01 +7.86574921273E-03 +4.74420433749E-03 +7.86980955511E-03 +4.44737774174E-03 -2.06171346225E-01 +5.10887840353E-01
4.52000000000E+09 -2.74301585256E-01 +4.87232701681E-01 +8.47733678857E-03 +3.84019033360E-03 +8.34237435568E-03 +3.55699634710E-03 -1.92017642450E-01 +5.23538635258E-01
4.52500000000E+09 -2.62855801197E-01 +4.96054458105E-01 +8.38208573088E-03 +2.45613631117E-03 +8.25829840408E-03 +2.22014397171E-03 -1.77396206808E-01 +5.34107162506E-01
4.53000000000E+09 -2.48983199246E-01 +5.05928190160E-01 +8.24952169683E-03 +2.31350602839E-03 +8.05896504297E-03 +2.02308453386E-03 -1.63515283332E-01 +5.45006576696E-01
4.53500000000E+09 -2.32696810437E-01 +5.16174485197E-01 +8.74927777429E-03 +1.78458713059E-03 +8.50578372585E-03 +1.44531893122E-03 -1.48246076702E-01 +5.55307722563E-01
4.54000000000E+09 -2.15601334994E-01 +5.26984066469E-01 +9.13719778000E-03 +6.15807827540E-04 +8.89269829236E-03 +3.73847066932E-04 -1.32379063065E-01 +5.66393081186E-01
4.54500000000E+09 -1.99123734060E-01 +5.38059771468E-01 +9.41388373051E-03 -5.57303866181E-04 +9.02039337411E-03 -7.75166462545E-04 -1.15239974343E-01 +5.75062837453E-01
4.55000000000E+09 -1.83962899299E-01 +5.48946249423E-01 +9.16925834711E-03 -1.91153557469E-03 +8.75553670528E-03 -2.06896882035E-03 -9.94229330764E-02 +5.83549109117E-01
4.55500000000E+09 -1.71496032293E-01 +5.59623815132E-01 +8.43461130888E-03 -3.69637346372E-03 +8.06375537874E-03 -3.72495686726E-03 -8.46345737233E-02 +5.90786490664E-01
4.56000000000E+09 -1.60529233483E-01 +5.70400624665E-01 +6.71034678263E-03 -4.18790356736E-03 +6.43256435976E-03 -4.10196160232E-03 -7.12012225574E-02 +5.99558869782E-01
4.56500000000E+09 -1.50542880913E-01 +5.80602405210E-01 +6.13286138799E-03 -3.97274634295E-03 +5.79206076685E-03 -3.93062249982E-03 -5.58615815783E-02 +6.07940154785E-01
4.57000000000E+09 -1.40395719505E-01 +5.89558697743E-01 +5.76051571090E-03 -4.02251403070E-03 +5.47254278429E-03 -3.94816915533E-03 -4.00836837952E-02 +6.14647732412E-01
