# Hz S RI R 50
! CMT, C1220, 16058040, 17.2.0/1
! Date: 15/08/2018 11:37:03
! Data: Format (Calibration Info)
! Freq                      S11: Re/Im (F2)                       S21: Re/Im (F2)                       S12: Re/Im (F2)                       S22: Re/Im (F2)            
4.00000000000E+09 +6.69283116056E-01 -3.55259044918E-01 +3.23016797755E-04 -3.06052401663E-03 +4.36236560783E-04 -3.14722256624E-03 +7.75482966323E-01 -3.52897425941E-01
4.00500000000E+09 +6.61324148721E-01 -3.63267547563E-01 -1.17996029883E-04 -3.21880263869E-03 -1.04231774863E-05 -3.32130893349E-03 +7.67089551712E-01 -3.64064284108E-01
4.01000000000E+09 +6.52668454201E-01 -3.70693677425E-01 -6.46031150652E-04 -3.14714004281E-03 -5.61068752661E-04 -3.23093800502E-03 +7.58321091017E-01 -3.75579300461E-01
4.01500000000E+09 +6.43552740372E-01 -3.78290096196E-01 -1.07967801399E-03 -2.96781972562E-03 -9.62765178519E-04 -3.04987457688E-03 +7.48439239401E-01 -3.86182590144E-01
4.02000000000E+09 +6.33510896498E-01 -3.87089473585E-01 -1.25544110999E-03 -2.71782907832E-03 -1.11131850700E-03 -2.84737807097E-03 +7.38627113610E-01 -3.96564865172E-01
4.02500000000E+09 +6.22469147672E-01 -3.96431893860E-01 -1.35877789707E-03 -2.67733236326E-03 -1.30487404068E-03 -2.85661796850E-03 +7.28471261835E-01 -4.06652351225E-01
4.03000000000E+09 +6.10635568861E-01 -4.06279266781E-01 -1.71273233689E-03 -2.71785547899E-03 -1.65116568827E-03 -2.87222647464E-03 +7.18237916846E-01 -4.17335447877E-01
4.03500000000E+09 +5.98595100997E-01 -4.15920757790E-01 -2.18548450980E-03 -2.42719330215E-03 -2.15172035106E-03 -2.63345544541E-03 +7.07107679343E-01 -4.28540444026E-01
4.04000000000E+09 +5.86960267338E-01 -4.25545245829E-01 -2.21839954913E-03 -2.05855049546E-03 -2.18278392854E-03 -2.24427757289E-03 +6.95701075897E-01 -4.39637311092E-01
4.04500000000E+09 +5.75398506091E-01 -4.34816190008E-01 -2.41984544757E-03 -1.98514793292E-03 -2.44914014415E-03 -2.17480130608E-03 +6.83887751717E-01 -4.50290028979E-01
4.05000000000E+09 +5.64173351256E-01 -4.43593839332E-01 -2.58924575807E-03 -1.77447340452E-03 -2.64727200685E-03 -1.93022541783E-03 +6.72190256567E-01 -4.60106031544E-01
4.05500000000E+09 +5.52336818417E-01 -4.52035737718E-01 -2.57073947265E-03 -1.67558950090E-03 -2.66909438488E-03 -1.80653349988E-03 +6.59893230507E-01 -4.69775408356E-01
4.06000000000E+09 +5.39206563847E-01 -4.59962245961E-01 -3.09742281257E-03 -1.66792472619E-03 -3.22020189425E-03 -1.79625161742E-03 +6.47384276449E-01 -4.79197556638E-01
4.06500000000E+09 +5.25489968880E-01 -4.66083696868E-01 -3.50515783245E-03 -8.88839682097E-04 -3.63984103218E-03 -9.57708970259E-04 +6.34279370978E-01 -4.88227607883E-01
4.07000000000E+09 +5.11720528905E-01 -4.72693682917E-01 -3.13529322842E-03 -5.75863414806E-04 -3.23092372552E-03 -6.82437634514E-04 +6.20402872587E-01 -4.97876644990E-01
4.07500000000E+09 +4.96169133222E-01 -4.79737971569E-01 -3.28783178789E-03 -4.90909263783E-04 -3.35227907437E-03 -5.73414496218E-04 +6.06545277386E-01 -5.06823262456E-01
4.08000000000E+09 +4.80392320808E-01 -4.86219079539E-01 -3.35958838873E-03 -1.60335522760E-04 -3.50419285318E-03 -2.52834408373E-04 +5.93292663747E-01 -5.16362698781E-01
4.08500000000E+09 +4.64266672453E-01 -4.93700732500E-01 -3.38170109857E-03 +1.22598219214E-04 -3.50248168735E-03 +8.18131777846E-05 +5.79221813968E-01 -5.25790128396E-01
4.09000000000E+09 +4.47584051072E-01 -5.01368579331E-01 -3.62883421491E-03 +4.76162340160E-04 -3.75117975199E-03 +4.56848589141E-04 +5.64748418458E-01 -5.34314588543E-01
4.09500000000E+09 +4.30957811977E-01 -5.08364413198E-01 -3.54986961630E-03 +1.13905590195E-03 -3.66255032663E-03 +1.10517177827E-03 +5.49499783894E-01 -5.41847311313E-01
4.10000000000E+09 +4.15431437406E-01 -5.15186529537E-01 -2.88127077514E-03 +1.27938692578E-03 -2.94793858061E-03 +1.26471452652E-03 +5.33920924288E-01 -5.49011659326E-01
4.10500000000E+09 +3.98876698402E-01 -5.21729543046E-01 -3.13502164030E-03 +1.13453985915E-03 -3.21576232002E-03 +1.14577826573E-03 +5.17869373420E-01 -5.56193323405E-01
4.11000000000E+09 +3.82251019917E-01 -5.25685514952E-01 -3.35139108127E-03 +1.69981172340E-03 -3.39763222025E-03 +1.66834595575E-03 +5.00919810285E-01 -5.64150071339E-01
4.11500000000E+09 +3.66391501188E-01 -5.28645957062E-01 -3.08344903120E-03 +2.19311279485E-03 -3.25483456082E-03 +2.19706056975E-03 +4.83460291098E-01 -5.71549843131E-01
4.12000000000E+09 +3.49708711514E-01 -5.31094724979E-01 -2.85092486336E-03 +2.61803613237E-03 -2.95512763011E-03 +2.59974010369E-03 +4.66167129818E-01 -5.78115931643E-01
4.12500000000E+09 +3.32911101398E-01 -5.32813975636E-01 -2.56013943162E-03 +2.99889623580E-03 -2.66517223185E-03 +3.04383080383E-03 +4.49054722756E-01 -5.84040247926E-01
4.13000000000E+09 +3.15374535170E-01 -5.35504687322E-01 -1.77869850518E-03 +3.17230390446E-03 -1.91882320851E-03 +3.15155716631E-03 +4.32243073295E-01 -5.89797943274E-01
4.13500000000E+09 +2.95956026756E-01 -5.38984372808E-01 -1.49898109698E-03 +2.89425958952E-03 -1.67340923081E-03 +2.87446597609E-03 +4.14182983188E-01 -5.95664578317E-01
4.14000000000E+09 +2.75587722781E-01 -5.41955970023E-01 -1.53326405275E-03 +2.80489402074E-03 -1.73564497922E-03 +2.82021168779E-03 +3.94234706322E-01 -6.01058951032E-01
4.14500000000E+09 +2.55817582150E-01 -5.44695417363E-01 -1.69667769842E-03 +3.28835878576E-03 -1.85850505223E-03 +3.33131816135E-03 +3.74294075628E-01 -6.05474748781E-01
4.15000000000E+09 +2.36664285257E-01 -5.48838829769E-01 -9.63206859602E-04 +3.45328353954E-03 -1.06916014105E-03 +3.59451522231E-03 +3.55367099842E-01 -6.09521059827E-01
4.15500000000E+09 +2.16982678290E-01 -5.51564927272E-01 -1.00209316725E-03 +3.47039217587E-03 -1.06625786908E-03 +3.60630058640E-03 +3.35967941427E-01 -6.13567541124E-01
4.16000000000E+09 +1.99523599020E-01 -5.53504197812E-01 -6.14072383867E-04 +3.76774616211E-03 -6.92153250008E-04 +3.89690368572E-03 +3.16655127889E-01 -6.17008326500E-01
4.16500000000E+09 +1.82283456295E-01 -5.54711062305E-01 -1.51844347354E-04 +3.74916584005E-03 -2.24945794056E-04 +3.89744440042E-03 +2.96170810027E-01 -6.18844118333E-01
4.17000000000E+09 +1.64914108773E-01 -5.54452731559E-01 -1.07350396475E-04 +3.72810685488E-03 -2.48861318992E-04 +3.86317759220E-03 +2.75942390753E-01 -6.19649717550E-01
4.17500000000E+09 +1.47547842312E-01 -5.51889901672E-01 +3.47532593146E-04 +4.31183356266E-03 +3.25607048410E-04 +4.45464968357E-03 +2.55691423049E-01 -6.20219197112E-01
4.18000000000E+09 +1.30076967356E-01 -5.48001054537E-01 +1.41144332103E-03 +4.09946659548E-03 +1.36029285747E-03 +4.26473505908E-03 +2.34447697060E-01 -6.21339656990E-01
4.18500000000E+09 +1.11046612462E-01 -5.43818051517E-01 +1.44965462504E-03 +3.34797794700E-03 +1.50726398588E-03 +3.48021891198E-03 +2.11868444518E-01 -6.22041009785E-01
4.19000000000E+09 +9.10872407566E-02 -5.37798236405E-01 +1.24555733114E-03 +3.23141362606E-03 +1.32594821926E-03 +3.38106693059E-03 +1.89089163750E-01 -6.20755846926E-01
4.19500000000E+09 +7.15016318211E-02 -5.32387147305E-01 +1.23691132907E-03 +3.51733394731E-03 +1.28852652105E-03 +3.63122802211E-03 +1.67180070436E-01 -6.18631840006E-01
4.20000000000E+09 +5.07159649349E-02 -5.28200049304E-01 +1.50795403677E-03 +3.83148852394E-03 +1.53122758171E-03 +3.99027122043E-03 +1.45597302544E-01 -6.16345866345E-01
4.20500000000E+09 +2.93303335545E-02 -5.24195966723E-01 +2.46033889808E-03 +4.25927628661E-03 +2.57123481015E-03 +4.43123122497E-03 +1.22986771685E-01 -6.13340943029E-01
4.21000000000E+09 +8.36456105813E-03 -5.19294445116E-01 +3.65374122155E-03 +3.88663962754E-03 +3.75712139835E-03 +4.06407301658E-03 +9.97671893805E-02 -6.09154047270E-01
4.21500000000E+09 -1.10845192669E-02 -5.14837731037E-01 +3.85658581822E-03 +2.66926348573E-03 +3.93387235036E-03 +2.76838349656E-03 +7.65170099882E-02 -6.03874548420E-01
4.22000000000E+09 -2.97273030900E-02 -5.08465326073E-01 +3.79979344773E-03 +2.46585864249E-03 +3.88483457195E-03 +2.50487782401E-03 +5.46613085382E-02 -5.97623082599E-01
4.22500000000E+09 -4.62091285570E-02 -5.01368326498E-01 +4.01242135358E-03 +2.19991804625E-03 +4.10034204076E-03 +2.19453422930E-03 +3.33441246489E-02 -5.91681136225E-01
4.23000000000E+09 -6.25122402148E-02 -4.93632715774E-01 +4.29602164440E-03 +1.75430265246E-03 +4.37998664436E-03 +1.77880687517E-03 +1.25526768866E-02 -5.85023873444E-01
4.23500000000E+09 -7.97940839068E-02 -4.83581682612E-01 +4.21860540586E-03 +1.52023250003E-03 +4.24442545444E-03 +1.57694313288E-03 -9.73942748230E-03 -5.77971458309E-01
4.24000000000E+09 -9.69206409667E-02 -4.71576895445E-01 +4.40954555887E-03 +1.32084751294E-03 +4.49505508451E-03 +1.34947820238E-03 -3.25017619255E-02 -5.69014748875E-01
4.24500000000E+09 -1.14331382677E-01 -4.58675824207E-01 +4.53340664601E-03 +8.46066244186E-04 +4.67578553308E-03 +8.88611429990E-04 -5.47802117285E-02 -5.58054582660E-01
4.25000000000E+09 -1.33598604813E-01 -4.45639658348E-01 +4.85703125253E-03 +1.02898494673E-03 +4.95041008118E-03 +1.03147978362E-03 -7.56115996560E-02 -5.47273099595E-01
4.25500000000E+09 -1.53270663278E-01 -4.32242725224E-01 +5.65947219969E-03 +4.25818342171E-04 +5.73873974975E-03 +4.20939345490E-04 -9.62939206486E-02 -5.35964799716E-01
4.26000000000E+09 -1.73371443220E-01 -4.19580220294E-01 +6.21140770752E-03 -7.39364645591E-04 +6.32526099947E-03 -7.54632976082E-04 -1.17351398239E-01 -5.23911992109E-01
4.26500000000E+09 -1.93842533533E-01 -4.07918008849E-01 +5.61567405248E-03 -1.81518875266E-03 +5.69092344527E-03 -1.88541617233E-03 -1.37399650718E-01 -5.10237060081E-01
4.27000000000E+09 -2.13270825140E-01 -3.95403203413E-01 +5.11892921521E-03 -2.58832752146E-03 +5.18691167230E-03 -2.71674869430E-03 -1.58362853150E-01 -4.95929420375E-01
4.27500000000E+09 -2.30884413017E-01 -3.83474371456E-01 +4.33450657129E-03 -3.11594355488E-03 +4.37070703985E-03 -3.18631727531E-03 -1.78431365557E-01 -4.79916329784E-01
4.28000000000E+09 -2.47054596197E-01 -3.70849526160E-01 +3.67222979645E-03 -2.45959483242E-03 +3.70998982852E-03 -2.55783487788E-03 -1.97654363127E-01 -4.65864177825E-01
4.28500000000E+09 -2.61072238636E-01 -3.57647224865E-01 +4.43215097794E-03 -2.33157162168E-03 +4.47961461476E-03 -2.42454967785E-03 -2.19567276162E-01 -4.50466544516E-01
4.29000000000E+09 -2.73813805578E-01 -3.42770822032E-01 +4.91128787891E-03 -3.55150524949E-03 +5.01851954647E-03 -3.65971660399E-03 -2.39669251451E-01 -4.31848582910E-01
4.29500000000E+09 -2.85228788531E-01 -3.27375885506E-01 +3.80381746385E-03 -4.59437888803E-03 +3.78824562325E-03 -4.78346377607E-03 -2.56253743877E-01 -4.11842158858E-01
4.30000000000E+09 -2.97639265594E-01 -3.10700207676E-01 +3.61548300238E-03 -4.67756581943E-03 +3.68412449284E-03 -4.80721106000E-03 -2.71663549277E-01 -3.93657654360E-01
4.30500000000E+09 -3.10770038762E-01 -2.92689575235E-01 +2.71789184862E-03 -5.50437515497E-03 +2.72832266006E-03 -5.58566000396E-03 -2.86619250666E-01 -3.74447726393E-01
4.31000000000E+09 -3.23965640981E-01 -2.72951264271E-01 +2.04253832211E-03 -5.29197722844E-03 +2.02885569761E-03 -5.41793400057E-03 -3.02196493197E-01 -3.54892641307E-01
4.31500000000E+09 -3.37137596088E-01 -2.53115116147E-01 +1.95545039472E-03 -5.40977792751E-03 +1.89106987972E-03 -5.51849044309E-03 -3.17861657998E-01 -3.33738646812E-01
4.32000000000E+09 -3.49070458965E-01 -2.33431730739E-01 +1.21805838133E-03 -6.26906364500E-03 +1.17028894694E-03 -6.42628553971E-03 -3.31257410526E-01 -3.11346836649E-01
4.32500000000E+09 -3.59494983369E-01 -2.15649245464E-01 -5.42643257860E-04 -6.01941206052E-03 -6.94810182346E-04 -6.06662856388E-03 -3.43442341493E-01 -2.89750599168E-01
4.33000000000E+09 -3.70443593169E-01 -1.99504106017E-01 -3.64416525930E-05 -4.45124722974E-03 -1.06686265555E-04 -4.48791780397E-03 -3.55245776785E-01 -2.68927024185E-01
4.33500000000E+09 -3.80503843747E-01 -1.82164711805E-01 +5.53990382216E-04 -5.07993298335E-03 +5.07153152577E-04 -5.03095446648E-03 -3.67302255824E-01 -2.45436120891E-01
4.34000000000E+09 -3.88565857833E-01 -1.63753610881E-01 +4.35696473108E-04 -5.80801001212E-03 +3.53926157255E-04 -5.85872236814E-03 -3.77935631012E-01 -2.21038403051E-01
4.34500000000E+09 -3.94354559924E-01 -1.43986771229E-01 -1.93256832569E-04 -7.15045661084E-03 -2.19041965341E-04 -7.15012783152E-03 -3.86633795520E-01 -1.95658897145E-01
4.35000000000E+09 -3.97969799567E-01 -1.23139367889E-01 -2.23579401173E-03 -7.66313909689E-03 -2.31887218941E-03 -7.71728427656E-03 -3.95189021040E-01 -1.72080982114E-01
4.35500000000E+09 -4.00496302213E-01 -1.01833518147E-01 -3.90931705433E-03 -6.56397867767E-03 -3.95123041795E-03 -6.64080218694E-03 -4.04073579396E-01 -1.49171513763E-01
4.36000000000E+09 -4.03989723861E-01 -8.07172580761E-02 -3.83074886269E-03 -5.07367362020E-03 -3.95524627876E-03 -5.06265974333E-03 -4.12650113452E-01 -1.25683474372E-01
4.36500000000E+09 -4.09124263971E-01 -5.76107035058E-02 -3.97531104334E-03 -5.43429411327E-03 -4.10835867070E-03 -5.43374845558E-03 -4.18829224139E-01 -1.00204278291E-01
4.37000000000E+09 -4.14417775647E-01 -3.36039292580E-02 -4.53861074336E-03 -5.01579436140E-03 -4.65908253993E-03 -5.00323563705E-03 -4.22308845086E-01 -7.48763590443E-02
4.37500000000E+09 -4.19367549338E-01 -1.05579935153E-02 -5.12689939553E-03 -5.08469951519E-03 -5.23581764945E-03 -5.10898210089E-03 -4.23603339542E-01 -5.01445311629E-02
4.38000000000E+09 -4.23981782760E-01 +1.11662966104E-02 -6.00798334776E-03 -4.47003783241E-03 -6.20958512835E-03 -4.44656177443E-03 -4.27131089978E-01 -2.65790256527E-02
4.38500000000E+09 -4.27842301715E-01 +3.18585376274E-02 -6.91713092746E-03 -3.60157110785E-03 -7.08114832661E-03 -3.50216485299E-03 -4.29769289492E-01 -5.20956509758E-04
4.39000000000E+09 -4.30444281529E-01 +5.04719958253E-02 -6.74576327435E-03 -2.91762829361E-03 -6.93366637531E-03 -2.79264271781E-03 -4.31330814970E-01 +2.62117910794E-02
4.39500000000E+09 -4.31189959662E-01 +6.78234179716E-02 -7.73395843988E-03 -2.72653757780E-03 -7.83245618763E-03 -2.53451684522E-03 -4.29655559487E-01 +5.20124214086E-02
4.40000000000E+09 -4.30752478415E-01 +8.52198477846E-02 -8.61967759834E-03 -1.09331325978E-03 -8.73084219475E-03 -9.35670466856E-04 -4.26879966270E-01 +7.50548308705E-02
4.40500000000E+09 -4.28398456763E-01 +1.02897648510E-01 -8.65467617085E-03 +8.88028505069E-05 -8.71794970376E-03 +2.96703611909E-04 -4.24756443818E-01 +9.78547459079E-02
4.41000000000E+09 -4.25075745773E-01 +1.21521945275E-01 -8.11452558378E-03 +2.08331910745E-03 -8.09006418640E-03 +2.24254773709E-03 -4.22548237405E-01 +1.20575359043E-01
4.41500000000E+09 -4.21960979988E-01 +1.42600879392E-01 -7.10587009924E-03 +2.49927956006E-03 -7.03614839785E-03 +2.64707115657E-03 -4.19093018609E-01 +1.45795947030E-01
4.42000000000E+09 -4.17093702094E-01 +1.64937904441E-01 -6.72667322532E-03 +2.62130203357E-03 -6.64408609507E-03 +2.72105725996E-03 -4.12505448605E-01 +1.70359491462E-01
4.42500000000E+09 -4.13177396577E-01 +1.87155409046E-01 -6.68500012186E-03 +2.87469191200E-03 -6.54566594155E-03 +3.02569086807E-03 -4.05507422761E-01 +1.91830482036E-01
4.43000000000E+09 -4.09792941868E-01 +2.09676749143E-01 -6.97879083585E-03 +3.57705400757E-03 -6.80380651481E-03 +3.66343762452E-03 -4.01415069455E-01 +2.13940433182E-01
4.43500000000E+09 -4.06536383373E-01 +2.30300747729E-01 -6.87712414377E-03 +5.06534976237E-03 -6.68844326900E-03 +5.14250154438E-03 -3.95574877539E-01 +2.37103838378E-01
4.44000000000E+09 -4.04307326206E-01 +2.48745079181E-01 -5.62315784600E-03 +6.69236781031E-03 -5.46800122952E-03 +6.76740685465E-03 -3.87346678879E-01 +2.59997809624E-01
4.44500000000E+09 -4.02664335902E-01 +2.65451221047E-01 -3.92243186786E-03 +6.16060608511E-03 -3.80320292212E-03 +6.23753891837E-03 -3.77106388439E-01 +2.80810357239E-01
4.45000000000E+09 -4.00361031396E-01 +2.81454346798E-01 -3.60772213330E-03 +5.97919640933E-03 -3.42356275146E-03 +5.99184757708E-03 -3.67468000390E-01 +2.99556994003E-01
4.45500000000E+09 -3.95512096848E-01 +2.96618126316E-01 -3.98781088192E-03 +6.28642250401E-03 -3.83133472589E-03 +6.32475373835E-03 -3.57912148881E-01 +3.17884108313E-01
4.46000000000E+09 -3.88561197770E-01 +3.10974969968E-01 -3.15817805046E-03 +7.57493371897E-03 -2.97876436303E-03 +7.66288771591E-03 -3.49402445031E-01 +3.38264513021E-01
4.46500000000E+09 -3.78763704989E-01 +3.26409249566E-01 -1.85709409027E-03 +8.08917112934E-03 -1.64613309167E-03 +8.08041390408E-03 -3.36328108388E-01 +3.57486199995E-01
4.47000000000E+09 -3.66518407170E-01 +3.41129217676E-01 -3.72889605400E-04 +7.72468783609E-03 -1.13679082656E-04 +7.72554284697E-03 -3.24304991065E-01 +3.75140847485E-01
4.47500000000E+09 -3.54899301717E-01 +3.56336184065E-01 +2.01743961039E-05 +6.84181053088E-03 +2.14950045150E-04 +6.73206199241E-03 -3.12215673789E-01 +3.91724730173E-01
4.48000000000E+09 -3.43925710898E-01 +3.73903987794E-01 -4.03001518519E-04 +7.41726980123E-03 -1.65968537102E-04 +7.25832336996E-03 -3.01150357415E-01 +4.09500245629E-01
4.48500000000E+09 -3.32683707163E-01 +3.92901715072E-01 +8.60319893692E-04 +8.22053911157E-03 +1.04850988264E-03 +7.98890471304E-03 -2.88385850005E-01 +4.26600021338E-01
4.49000000000E+09 -3.22789790106E-01 +4.11044913661E-01 +2.37003832432E-03 +8.48301924722E-03 +2.42441871295E-03 +8.26094962043E-03 -2.75126487325E-01 +4.43122638333E-01
4.49500000000E+09 -3.14280090851E-01 +4.29025296267E-01 +3.92544405895E-03 +7.48196974456E-03 +3.88577229425E-03 +7.29864730827E-03 -2.60233129591E-01 +4.57072889838E-01
4.50000000000E+09 -3.06007493352E-01 +4.44872102196E-01 +4.60096805026E-03 +6.55702752081E-03 +4.54080715624E-03 +6.39715641824E-03 -2.46594730621E-01 +4.70414154871E-01
4.50500000000E+09 -2.98850060342E-01 +4.58615789360E-01 +5.18586625852E-03 +5.66316369895E-03 +5.14060354346E-03 +5.52280912376E-03 -2.32901885915E-01 +4.82797684942E-01
4.51000000000E+09 -2.91356963717E-01 +4.70085969766E-01 +5.15568591252E-03 +4.97799413231E-03 +5.15157148134E-03 +4.86964021626E-03 -2.20420233503E-01 +4.97167517784E-01
4.51500000000E+09 -2.82388163424E-01 +4.79206239174E-01 +5.58180488147E-03 +5.00642726009E-03 +5.63516842733E-03 +4.82673077772E-03 -2.06074706299E-01 +5.10364138553E-01
4.52000000000E+09 -2.72770175845E-01 +4.87068869573E-01 +6.68784025046E-03 +4.24556196549E-03 +6.62951997057E-03 +4.01621797134E-03 -1.91644200728E-01 +5.22891099681E-01
4.52500000000E+09 -2.61461679488E-01 +4.95846785793E-01 +6.73700735258E-03 +2.53573166157E-03 +6.60901063904E-03 +2.36584707269E-03 -1.77359226545E-01 +5.32772343954E-01
4.53000000000E+09 -2.47635839062E-01 +5.05737573564E-01 +6.44460691920E-03 +2.44086455441E-03 +6.27899719180E-03 +2.25388727257E-03 -1.63986058112E-01 +5.43711565791E-01
4.53500000000E+09 -2.31131455419E-01 +5.16306113405E-01 +6.70803351259E-03 +1.90994144963E-03 +6.65257676914E-03 +1.78450967575E-03 -1.49136913007E-01 +5.54137729244E-01
4.54000000000E+09 -2.13849044182E-01 +5.26865581818E-01 +7.06124873895E-03 +1.37863116910E-03 +6.89665640526E-03 +1.12794445374E-03 -1.33339361428E-01 +5.65553538452E-01
4.54500000000E+09 -1.97096696088E-01 +5.37474275638E-01 +7.54568455201E-03 +4.44318608520E-04 +7.34068079700E-03 +2.23444880793E-04 -1.16304921733E-01 +5.74379969856E-01
4.55000000000E+09 -1.82412045859E-01 +5.47811338633E-01 +7.52461177398E-03 -9.58830148155E-04 +7.29516625640E-03 -1.03617158087E-03 -1.00379874005E-01 +5.82872661769E-01
4.55500000000E+09 -1.70367921945E-01 +5.58390851664E-01 +6.76567279973E-03 -2.68466103776E-03 +6.57105724597E-03 -2.70888197603E-03 -8.60242911337E-02 +5.90149611167E-01
4.56000000000E+09 -1.59859392302E-01 +5.69552484468E-01 +5.03540177947E-03 -2.70758609684E-03 +4.85404728832E-03 -2.68600698114E-03 -7.25486393804E-02 +5.99543534732E-01
4.56500000000E+09 -1.49541048966E-01 +5.80181091664E-01 +4.79014519147E-03 -2.24163588560E-03 +4.63118493984E-03 -2.32716763993E-03 -5.69091488957E-02 +6.07935939284E-01
4.57000000000E+09 -1.38878772237E-01 +5.89134569533E-01 +4.90328156510E-03 -2.21437789604E-03 +4.70759471506E-03 -2.18374459071E-03 -4.10754003371E-02 +6.14585948014E-01
