# Hz S RI R 50
! CMT, C1220, 16058040, 17.2.0/1
! Date: 15/08/2018 11:14:46
! Data: Format (Calibration Info)
! Freq                      S11: Re/Im (F2)                       S21: Re/Im (F2)                       S12: Re/Im (F2)                       S22: Re/Im (F2)            
4.00000000000E+09 +6.69450803553E-01 -3.63535548043E-01 +2.01182983959E-03 -2.33049179846E-03 +2.13926353405E-03 -2.32917665490E-03 +7.65467159004E-01 -3.54983874271E-01
4.00500000000E+09 +6.61988294113E-01 -3.70910747691E-01 +1.50385279065E-03 -2.42145327411E-03 +1.61781853745E-03 -2.43897534225E-03 +7.56422896471E-01 -3.66675841686E-01
4.01000000000E+09 +6.53627887083E-01 -3.78218914999E-01 +1.43445270628E-03 -2.21730560778E-03 +1.52729844920E-03 -2.19676085336E-03 +7.46597151979E-01 -3.78326251637E-01
4.01500000000E+09 +6.44069276449E-01 -3.85594077685E-01 +1.59036712147E-03 -2.54316180665E-03 +1.68815472223E-03 -2.49042296731E-03 +7.35982489924E-01 -3.88845171813E-01
4.02000000000E+09 +6.33176261992E-01 -3.94211351213E-01 +1.30320678639E-03 -3.05961765371E-03 +1.47443676979E-03 -3.03036231616E-03 +7.26000561382E-01 -3.98998898312E-01
4.02500000000E+09 +6.21350246536E-01 -4.02970245894E-01 +6.93091697725E-04 -3.23558915975E-03 +8.60366420406E-04 -3.31472820568E-03 +7.15889085234E-01 -4.09004555627E-01
4.03000000000E+09 +6.09212620915E-01 -4.12615544190E-01 +2.50079204206E-04 -3.42706002996E-03 +3.64730937851E-04 -3.53833224002E-03 +7.05200154401E-01 -4.19590667714E-01
4.03500000000E+09 +5.97316071789E-01 -4.22797577421E-01 -4.18247680421E-04 -2.94698517334E-03 -3.52112413168E-04 -3.07716706771E-03 +6.93673683596E-01 -4.30155215829E-01
4.04000000000E+09 +5.85430211286E-01 -4.33682529051E-01 -1.99637819482E-04 -2.51523511914E-03 -9.74294462386E-05 -2.64287783913E-03 +6.81996784889E-01 -4.40609882077E-01
4.04500000000E+09 +5.72801471543E-01 -4.43759678859E-01 -3.16413945722E-05 -2.90826783151E-03 +1.21362958827E-04 -3.05032384142E-03 +6.69845117410E-01 -4.50971307916E-01
4.05000000000E+09 +5.61315929861E-01 -4.52032690519E-01 -6.48957669102E-04 -3.46563946766E-03 -5.55862345044E-04 -3.62867029960E-03 +6.57788888178E-01 -4.60500212613E-01
4.05500000000E+09 +5.49808388604E-01 -4.59844976741E-01 -1.11343113828E-03 -3.16686840339E-03 -1.09328441954E-03 -3.34672265707E-03 +6.45144738469E-01 -4.69836407317E-01
4.06000000000E+09 +5.37674104866E-01 -4.66993333799E-01 -1.49356008353E-03 -2.98224572043E-03 -1.52960530591E-03 -3.14567695524E-03 +6.32276098578E-01 -4.78910674762E-01
4.06500000000E+09 +5.24949260609E-01 -4.73079533232E-01 -1.75869758350E-03 -2.53098800386E-03 -1.77619481737E-03 -2.65817432809E-03 +6.18740841385E-01 -4.87508916116E-01
4.07000000000E+09 +5.11099822488E-01 -4.79328194400E-01 -1.59907246803E-03 -2.55880393031E-03 -1.56418234571E-03 -2.66292512916E-03 +6.04501008255E-01 -4.96827714423E-01
4.07500000000E+09 +4.95532523227E-01 -4.85720789101E-01 -1.96426367870E-03 -2.85439024567E-03 -1.97411204458E-03 -2.99282208002E-03 +5.90003186364E-01 -5.05423471620E-01
4.08000000000E+09 +4.79156794756E-01 -4.91029778635E-01 -2.65552296438E-03 -2.67703276649E-03 -2.67225875226E-03 -2.80792317373E-03 +5.75867977846E-01 -5.14744599467E-01
4.08500000000E+09 +4.63340264823E-01 -4.97974659717E-01 -2.80274508582E-03 -2.03512874130E-03 -2.82257858617E-03 -2.18931201004E-03 +5.61239940842E-01 -5.24064901969E-01
4.09000000000E+09 +4.46261846263E-01 -5.05761864546E-01 -2.92137421257E-03 -1.83374810430E-03 -3.05004578260E-03 -1.91911616868E-03 +5.46106972567E-01 -5.32446919738E-01
4.09500000000E+09 +4.29104120707E-01 -5.13272574482E-01 -3.10724035575E-03 -1.56056989814E-03 -3.22745992976E-03 -1.60823210417E-03 +5.30302565653E-01 -5.39799011087E-01
4.10000000000E+09 +4.11983797591E-01 -5.20291649493E-01 -3.01410485196E-03 -1.31607239778E-03 -3.07246506179E-03 -1.39021130630E-03 +5.14236146056E-01 -5.46506939867E-01
4.10500000000E+09 +3.95348379020E-01 -5.26038299267E-01 -3.29440898058E-03 -1.49256848211E-03 -3.33536257509E-03 -1.55193209574E-03 +4.98069375641E-01 -5.53087662050E-01
4.11000000000E+09 +3.79042023619E-01 -5.29976790375E-01 -3.91982134333E-03 -1.09827079264E-03 -3.99858880890E-03 -1.15498201465E-03 +4.80718630035E-01 -5.60735624547E-01
4.11500000000E+09 +3.64194582241E-01 -5.33240766047E-01 -3.93630712005E-03 -2.28966619950E-04 -3.96461757941E-03 -2.97671132015E-04 +4.62110588234E-01 -5.67461522412E-01
4.12000000000E+09 +3.47620265967E-01 -5.36902919954E-01 -3.72921600026E-03 +2.16162608237E-04 -3.83689141155E-03 +1.16290065486E-04 +4.44575543005E-01 -5.72701445284E-01
4.12500000000E+09 +3.29790071847E-01 -5.38487516484E-01 -3.66076179401E-03 +5.15606141081E-04 -3.77951203453E-03 +4.51325952704E-04 +4.27617821541E-01 -5.77849070921E-01
4.13000000000E+09 +3.11773479413E-01 -5.40156683981E-01 -3.52382840367E-03 +6.03710367517E-04 -3.57960234851E-03 +5.63614273175E-04 +4.10337502777E-01 -5.83229864747E-01
4.13500000000E+09 +2.92580851558E-01 -5.42327430177E-01 -3.45242488455E-03 +8.67729768690E-04 -3.55172618235E-03 +7.83877217730E-04 +3.91153990997E-01 -5.88090907358E-01
4.14000000000E+09 +2.72615886709E-01 -5.44549187008E-01 -3.61681033518E-03 +1.10029807504E-03 -3.75492694788E-03 +1.05709796363E-03 +3.70511336667E-01 -5.91877836324E-01
4.14500000000E+09 +2.53133183245E-01 -5.47352659885E-01 -3.59192457362E-03 +1.96443045967E-03 -3.74312822909E-03 +1.93019792056E-03 +3.50319426188E-01 -5.95187172681E-01
4.15000000000E+09 +2.33546445881E-01 -5.52045810227E-01 -2.67824772350E-03 +1.94130535959E-03 -2.83037144730E-03 +1.94569281885E-03 +3.31182962490E-01 -5.98670973999E-01
4.15500000000E+09 +2.12801033231E-01 -5.55488852826E-01 -2.85634019212E-03 +1.46419808532E-03 -2.98611662870E-03 +1.48779027080E-03 +3.11296884297E-01 -6.02448659552E-01
4.16000000000E+09 +1.93719154418E-01 -5.57233016997E-01 -3.43958332483E-03 +1.63386935772E-03 -3.58931092836E-03 +1.68453732342E-03 +2.90920359945E-01 -6.05025094257E-01
4.16500000000E+09 +1.76008205420E-01 -5.58001499535E-01 -3.61932072743E-03 +2.63964393112E-03 -3.75294636237E-03 +2.69805106533E-03 +2.70115721417E-01 -6.05281515318E-01
4.17000000000E+09 +1.58619513555E-01 -5.56875524234E-01 -3.33001946327E-03 +3.43107519938E-03 -3.41572563617E-03 +3.48509442216E-03 +2.49894693634E-01 -6.04829496375E-01
4.17500000000E+09 +1.41909294578E-01 -5.54226645301E-01 -2.56746791223E-03 +3.98991212679E-03 -2.71536894306E-03 +4.09518193371E-03 +2.29467160375E-01 -6.04728183546E-01
4.18000000000E+09 +1.25135594809E-01 -5.50367230364E-01 -1.63131417734E-03 +3.91676009306E-03 -1.73735435137E-03 +4.07044404092E-03 +2.07781622539E-01 -6.04997787162E-01
4.18500000000E+09 +1.06389763565E-01 -5.46262753069E-01 -1.60137706458E-03 +3.47345032218E-03 -1.68854718255E-03 +3.55338838371E-03 +1.85077706411E-01 -6.04080880419E-01
4.19000000000E+09 +8.64846145685E-02 -5.40302024045E-01 -1.86064637331E-03 +3.72365756165E-03 -1.95276224285E-03 +3.84701743761E-03 +1.62950511179E-01 -6.01568776948E-01
4.19500000000E+09 +6.60574164436E-02 -5.34439937254E-01 -1.68279483303E-03 +4.74628220014E-03 -1.71011618868E-03 +4.89788570522E-03 +1.41422594466E-01 -5.98225039884E-01
4.20000000000E+09 +4.45806670069E-02 -5.29173229375E-01 -6.94457242444E-04 +4.47640400202E-03 -6.86108559112E-04 +4.58170911164E-03 +1.19999942015E-01 -5.94713358354E-01
4.20500000000E+09 +2.31230724727E-02 -5.23886197953E-01 -6.61210482476E-04 +4.56494237093E-03 -6.85678529851E-04 +4.64093373098E-03 +9.75070156390E-02 -5.89597066904E-01
4.21000000000E+09 +2.22205658757E-03 -5.18933042158E-01 -4.07684927982E-04 +4.92384232942E-03 -3.90422197305E-04 +5.05616466993E-03 +7.44949805417E-02 -5.83984401860E-01
4.21500000000E+09 -1.76388914341E-02 -5.13861993737E-01 +1.79252132986E-04 +5.59549638142E-03 +1.72866874996E-04 +5.70665651540E-03 +5.14756433264E-02 -5.77146761362E-01
4.22000000000E+09 -3.61895400628E-02 -5.07632988575E-01 +1.37811138720E-03 +5.72922965330E-03 +1.33182652199E-03 +5.82350908616E-03 +2.97613002084E-02 -5.69482471035E-01
4.22500000000E+09 -5.30547901493E-02 -5.00282172442E-01 +2.41750388188E-03 +5.45959305744E-03 +2.47446151445E-03 +5.48392202715E-03 +8.87759821681E-03 -5.62167866851E-01
4.23000000000E+09 -6.88112543245E-02 -4.92758899841E-01 +3.30856374584E-03 +3.90572919868E-03 +3.32797291036E-03 +3.92872976547E-03 -1.14668570795E-02 -5.54529877181E-01
4.23500000000E+09 -8.59475811076E-02 -4.82849970876E-01 +2.30206470953E-03 +3.31939773455E-03 +2.29632487350E-03 +3.39206486736E-03 -3.29700942480E-02 -5.46213726494E-01
4.24000000000E+09 -1.03339932774E-01 -4.70773341082E-01 +1.91340237730E-03 +3.94719059212E-03 +1.88247415784E-03 +4.07522104027E-03 -5.53405946412E-02 -5.35908250432E-01
4.24500000000E+09 -1.21243581214E-01 -4.57317641292E-01 +2.76240397989E-03 +4.71720777282E-03 +2.77401878188E-03 +4.83966382396E-03 -7.65063922534E-02 -5.23360429388E-01
4.25000000000E+09 -1.40570077059E-01 -4.42809475008E-01 +3.51294277061E-03 +4.72054690621E-03 +3.53952923182E-03 +4.92146826271E-03 -9.67706233947E-02 -5.11843706879E-01
4.25500000000E+09 -1.60078339133E-01 -4.28493155246E-01 +4.96442776886E-03 +4.52554576519E-03 +5.04722148057E-03 +4.63814881768E-03 -1.16827928870E-01 -4.99973000256E-01
4.26000000000E+09 -1.79749575352E-01 -4.15338117474E-01 +5.84645802179E-03 +2.99286297562E-03 +5.97424172664E-03 +3.08907513179E-03 -1.38036621976E-01 -4.86348953402E-01
4.26500000000E+09 -2.01017637581E-01 -4.03661677199E-01 +5.31856435136E-03 +2.35552975702E-03 +5.53046735175E-03 +2.41109574680E-03 -1.56360337436E-01 -4.70133978971E-01
4.27000000000E+09 -2.21383182393E-01 -3.90657604972E-01 +5.36840072376E-03 +2.08432356526E-03 +5.50757259216E-03 +2.13822770007E-03 -1.74494067469E-01 -4.54196997649E-01
4.27500000000E+09 -2.39765739669E-01 -3.78441152638E-01 +6.05126762643E-03 +1.85313054673E-03 +6.22007680179E-03 +1.86322723060E-03 -1.92257150299E-01 -4.38364775143E-01
4.28000000000E+09 -2.56188599371E-01 -3.65244013554E-01 +6.17822120028E-03 +6.40268201508E-04 +6.29695765374E-03 +6.02646103332E-04 -2.11308084775E-01 -4.23497024293E-01
4.28500000000E+09 -2.70002686596E-01 -3.51476615565E-01 +6.07100743032E-03 +5.69576771681E-04 +6.19842443400E-03 +5.06568912057E-04 -2.32101109864E-01 -4.06056572570E-01
4.29000000000E+09 -2.81584564468E-01 -3.36805144555E-01 +6.44283258642E-03 -4.10533242122E-04 +6.60882065521E-03 -5.50764019881E-04 -2.50076543635E-01 -3.85675548980E-01
4.29500000000E+09 -2.92505291160E-01 -3.21953492160E-01 +5.69263739878E-03 -6.07749055983E-04 +5.78360729911E-03 -7.44785036968E-04 -2.63860622679E-01 -3.65484482459E-01
4.30000000000E+09 -3.04325773811E-01 -3.05277194950E-01 +6.63625738255E-03 -3.48579114117E-04 +6.70730050310E-03 -4.63324268867E-04 -2.78595897367E-01 -3.47502405664E-01
4.30500000000E+09 -3.16732970373E-01 -2.86977394270E-01 +7.54415027473E-03 -2.05122367229E-03 +7.67329203424E-03 -2.17779963515E-03 -2.92937201691E-01 -3.27416036237E-01
4.31000000000E+09 -3.29625691813E-01 -2.66872901078E-01 +6.94362702949E-03 -3.89039041370E-03 +6.95123645832E-03 -4.04852544231E-03 -3.06604221138E-01 -3.06647501662E-01
4.31500000000E+09 -3.43131569903E-01 -2.46608637617E-01 +5.89643742656E-03 -4.34003074872E-03 +5.90670425581E-03 -4.48955579737E-03 -3.20100546913E-01 -2.85522208902E-01
4.32000000000E+09 -3.55685454235E-01 -2.25576193150E-01 +4.75647286288E-03 -5.49951228799E-03 +4.92346099521E-03 -5.34455319614E-03 -3.32096300759E-01 -2.63569741746E-01
4.32500000000E+09 -3.66851778137E-01 -2.06059279125E-01 +3.67682269096E-03 -4.71716112127E-03 +3.57588310267E-03 -4.83454393640E-03 -3.42834875571E-01 -2.41649576829E-01
4.33000000000E+09 -3.76902947608E-01 -1.87617851390E-01 +4.52792625641E-03 -4.36864839080E-03 +4.43789822106E-03 -4.50683336249E-03 -3.53404611564E-01 -2.20742648375E-01
4.33500000000E+09 -3.85840804687E-01 -1.69992354099E-01 +4.65869569179E-03 -5.61632065728E-03 +4.53946760772E-03 -5.73724817259E-03 -3.63284161571E-01 -1.96675456112E-01
4.34000000000E+09 -3.92661653565E-01 -1.52091110324E-01 +3.72016059252E-03 -6.57042147865E-03 +3.63330835329E-03 -6.60904184997E-03 -3.71584980001E-01 -1.72076411314E-01
4.34500000000E+09 -3.98627755995E-01 -1.34614274561E-01 +3.07530509927E-03 -6.69937959180E-03 +3.00580264961E-03 -6.63958834019E-03 -3.78028561220E-01 -1.47781094139E-01
4.35000000000E+09 -4.04198846828E-01 -1.13937876740E-01 +2.60313901337E-03 -7.46622535823E-03 +2.60452950046E-03 -7.43753493195E-03 -3.85182822938E-01 -1.24345165644E-01
4.35500000000E+09 -4.07361941455E-01 -9.07921293473E-02 +1.45596956492E-03 -8.08498760050E-03 +1.48709557741E-03 -8.09687495452E-03 -3.92157456457E-01 -1.01524268202E-01
4.36000000000E+09 -4.09227542367E-01 -6.74869905885E-02 +7.89242614614E-04 -8.37151392578E-03 +7.86440967015E-04 -8.45615513418E-03 -3.99226930655E-01 -7.79670207846E-02
4.36500000000E+09 -4.11470785466E-01 -4.47005391301E-02 -1.05256979886E-03 -8.85744748183E-03 -1.15408600424E-03 -8.97660819918E-03 -4.03373021713E-01 -5.29245800678E-02
4.37000000000E+09 -4.15842300628E-01 -2.17768805470E-02 -2.48300665610E-03 -7.54577659979E-03 -2.55015837942E-03 -7.56132342590E-03 -4.05075545096E-01 -2.78275345591E-02
4.37500000000E+09 -4.20849667699E-01 +1.15302279968E-03 -2.53227095206E-03 -6.71593558380E-03 -2.70462049086E-03 -6.83434460896E-03 -4.04456803460E-01 -4.37803757480E-03
4.38000000000E+09 -4.26294731373E-01 +2.40081959044E-02 -2.49327553843E-03 -6.81988507994E-03 -2.67314133451E-03 -6.85400122827E-03 -4.07728286509E-01 +1.81399142659E-02
4.38500000000E+09 -4.30612330898E-01 +4.54601843039E-02 -3.07402858711E-03 -7.10745036386E-03 -3.28967786518E-03 -7.09787730112E-03 -4.09600063079E-01 +4.39511034851E-02
4.39000000000E+09 -4.33068622808E-01 +6.52525383484E-02 -3.76417652819E-03 -7.50261839654E-03 -4.02599368725E-03 -7.43927283349E-03 -4.09655564930E-01 +7.02777296491E-02
4.39500000000E+09 -4.34260982457E-01 +8.32814101477E-02 -5.70888888275E-03 -7.39999733172E-03 -5.94023059077E-03 -7.31745833415E-03 -4.05945058833E-01 +9.41364164750E-02
4.40000000000E+09 -4.33484694595E-01 +1.01535688809E-01 -7.31447532615E-03 -6.14134872424E-03 -7.52174532574E-03 -5.91338010126E-03 -4.02297581963E-01 +1.15443257265E-01
4.40500000000E+09 -4.30591857286E-01 +1.18953209888E-01 -7.76855822240E-03 -4.54330113739E-03 -7.86232006585E-03 -4.38649638877E-03 -4.00241026673E-01 +1.36999201824E-01
4.41000000000E+09 -4.27652041422E-01 +1.37670419429E-01 -7.49371498310E-03 -3.13260253656E-03 -7.54578189602E-03 -2.93875601806E-03 -3.97373451879E-01 +1.60369297939E-01
4.41500000000E+09 -4.23462045606E-01 +1.58903228649E-01 -7.56963154831E-03 -2.79923924689E-03 -7.63126668883E-03 -2.61813556116E-03 -3.90985711508E-01 +1.84759147357E-01
4.42000000000E+09 -4.17792828495E-01 +1.81055527136E-01 -7.79631253533E-03 -2.34642750411E-03 -7.82102158291E-03 -2.08918340613E-03 -3.83501321538E-01 +2.06737342811E-01
4.42500000000E+09 -4.13069114988E-01 +2.03351639434E-01 -8.52360024584E-03 -1.26617882424E-03 -8.41575226692E-03 -1.01197254289E-03 -3.76640183299E-01 +2.26401175206E-01
4.43000000000E+09 -4.09077567238E-01 +2.25746408574E-01 -8.24304007188E-03 +2.81137697128E-05 -8.12456435513E-03 +2.40405644263E-04 -3.72369852979E-01 +2.48678763152E-01
4.43500000000E+09 -4.05182612602E-01 +2.47147866260E-01 -7.72563799087E-03 +7.64956959001E-04 -7.52994055036E-03 +8.42989864670E-04 -3.64593295478E-01 +2.71884979259E-01
4.44000000000E+09 -4.02184797987E-01 +2.66112225988E-01 -7.72625098678E-03 +1.02150153866E-03 -7.57854256897E-03 +1.03727921071E-03 -3.54277052565E-01 +2.93727580301E-01
4.44500000000E+09 -3.99430178018E-01 +2.83643649407E-01 -8.16725946390E-03 +1.81378827859E-03 -8.06472687929E-03 +1.91531563136E-03 -3.43717530679E-01 +3.11929287963E-01
4.45000000000E+09 -3.95445475133E-01 +2.98908492200E-01 -8.10066233750E-03 +2.90706033595E-03 -7.90662445222E-03 +3.07344365360E-03 -3.35020793736E-01 +3.30212486701E-01
4.45500000000E+09 -3.90401334496E-01 +3.12481841328E-01 -8.03962608632E-03 +4.22255531653E-03 -7.89471265346E-03 +4.37792008491E-03 -3.25299387819E-01 +3.48716700353E-01
4.46000000000E+09 -3.84514604445E-01 +3.26212896004E-01 -6.54369295996E-03 +5.57831030304E-03 -6.35598843418E-03 +5.68192474554E-03 -3.15225117099E-01 +3.68832015703E-01
4.46500000000E+09 -3.75232123382E-01 +3.41152262666E-01 -5.49951679176E-03 +5.55342951751E-03 -5.33917248648E-03 +5.58913096929E-03 -3.01683881428E-01 +3.85631417274E-01
4.47000000000E+09 -3.63706261433E-01 +3.56448164495E-01 -5.22623269638E-03 +5.55629310305E-03 -5.05353753814E-03 +5.60585090132E-03 -2.89582513677E-01 +4.02184784360E-01
4.47500000000E+09 -3.50645524372E-01 +3.72608420585E-01 -5.20515585926E-03 +6.41578304500E-03 -5.01012900212E-03 +6.47529516632E-03 -2.77380785215E-01 +4.17532248254E-01
4.48000000000E+09 -3.37828176839E-01 +3.89653534041E-01 -4.17276255235E-03 +7.02128498263E-03 -3.94853143002E-03 +7.02033925738E-03 -2.65670757503E-01 +4.34430355093E-01
4.48500000000E+09 -3.26079537826E-01 +4.07079871581E-01 -3.32283464564E-03 +7.61330245061E-03 -3.02586938384E-03 +7.51597542946E-03 -2.52471732289E-01 +4.50581678797E-01
4.49000000000E+09 -3.15656187893E-01 +4.24490830162E-01 -2.01980013127E-03 +7.93510533876E-03 -1.86243870854E-03 +7.80111125217E-03 -2.38001240910E-01 +4.65797698810E-01
4.49500000000E+09 -3.07332028757E-01 +4.41553635886E-01 -1.38972190899E-03 +7.60445757858E-03 -1.30228362167E-03 +7.44628651007E-03 -2.23253422868E-01 +4.77831217862E-01
4.50000000000E+09 -2.99928243050E-01 +4.57435215732E-01 -7.07425107196E-04 +7.93097563365E-03 -6.16064815666E-04 +7.79774978339E-03 -2.09615992089E-01 +4.90351995743E-01
4.50500000000E+09 -2.93598999935E-01 +4.71584826846E-01 +2.07085654309E-04 +8.39000043525E-03 +3.14212789850E-04 +8.25108451361E-03 -1.96044603863E-01 +5.02147996617E-01
4.51000000000E+09 -2.85929219530E-01 +4.83697621273E-01 +1.88562275629E-03 +8.12943041556E-03 +2.00466683858E-03 +7.94435693979E-03 -1.82531728340E-01 +5.16269992996E-01
4.51500000000E+09 -2.76844568915E-01 +4.93401275097E-01 +2.80475592113E-03 +7.33289402977E-03 +2.88528447117E-03 +7.15014313472E-03 -1.67360314702E-01 +5.28685972697E-01
4.52000000000E+09 -2.66163041444E-01 +5.01295800686E-01 +3.62774737383E-03 +6.46169172359E-03 +3.63238278912E-03 +6.27602972736E-03 -1.52370441389E-01 +5.39313615073E-01
4.52500000000E+09 -2.54674416183E-01 +5.08851105328E-01 +3.55638259723E-03 +5.37297418270E-03 +3.58102693531E-03 +5.08532843473E-03 -1.38888248521E-01 +5.47970678793E-01
4.53000000000E+09 -2.40915009261E-01 +5.17548325611E-01 +3.44802349886E-03 +5.67403983085E-03 +3.52075460956E-03 +5.39918750345E-03 -1.25753788614E-01 +5.58527961054E-01
4.53500000000E+09 -2.25390576128E-01 +5.27680474225E-01 +4.07550885485E-03 +5.68529855297E-03 +4.04186072247E-03 +5.36920341291E-03 -1.10660892616E-01 +5.68720919731E-01
4.54000000000E+09 -2.08649406054E-01 +5.39169312585E-01 +5.60640384762E-03 +5.23227948761E-03 +5.43505727759E-03 +4.94092306166E-03 -9.36999047629E-02 +5.78998012322E-01
4.54500000000E+09 -1.91745748111E-01 +5.51033015195E-01 +6.10259179056E-03 +3.86139230862E-03 +5.91096586474E-03 +3.62164172860E-03 -7.70233208944E-02 +5.85770788861E-01
4.55000000000E+09 -1.75613607906E-01 +5.62638628894E-01 +5.97047623837E-03 +2.53661940198E-03 +5.79473378661E-03 +2.41150532122E-03 -6.20902009781E-02 +5.92671483611E-01
4.55500000000E+09 -1.62140942608E-01 +5.73718243002E-01 +5.39129100935E-03 +1.57932552879E-03 +5.24289832226E-03 +1.47468315800E-03 -4.84570127449E-02 +5.99935219241E-01
4.56000000000E+09 -1.50217603257E-01 +5.84367522753E-01 +4.89080707052E-03 +1.88148254437E-03 +4.73129175788E-03 +1.72934856260E-03 -3.35496735507E-02 +6.07993066209E-01
4.56500000000E+09 -1.40027175238E-01 +5.93929769235E-01 +5.34631729030E-03 +1.67636330178E-03 +5.20086808911E-03 +1.55604370832E-03 -1.74961323918E-02 +6.14229027678E-01
4.57000000000E+09 -1.30245323067E-01 +6.02175210523E-01 +5.63084789994E-03 +1.08723297197E-03 +5.55252302881E-03 +1.01213237457E-03 -1.80700092998E-03 +6.18553639958E-01
