# Hz S RI R 50
! CMT, C1220, 16058040, 17.2.0/1
! Date: 15/08/2018 11:32:57
! Data: Format (Calibration Info)
! Freq                      S11: Re/Im (F2)                       S21: Re/Im (F2)                       S12: Re/Im (F2)                       S22: Re/Im (F2)            
4.00000000000E+09 +6.66701801951E-01 -3.57062299589E-01 +1.29701393595E-03 -3.54674249965E-03 +1.43979436997E-03 -3.63751648724E-03 +7.74372560446E-01 -3.55438919979E-01
4.00500000000E+09 +6.58571266337E-01 -3.65126978120E-01 +7.97643927067E-04 -3.85016587643E-03 +9.46411845084E-04 -3.97219629382E-03 +7.65949212839E-01 -3.66701583152E-01
4.01000000000E+09 +6.49901702548E-01 -3.72382861471E-01 +1.29330977203E-04 -4.00738194367E-03 +2.07408118695E-04 -4.07014048416E-03 +7.56988852760E-01 -3.77891958870E-01
4.01500000000E+09 +6.40609524756E-01 -3.80045755766E-01 -4.08006336210E-04 -3.79324522619E-03 -2.77379025771E-04 -3.90239307606E-03 +7.47372640969E-01 -3.88380820414E-01
4.02000000000E+09 +6.30610147224E-01 -3.88558866398E-01 -5.65717005156E-04 -3.60218553667E-03 -4.25502320582E-04 -3.70891670412E-03 +7.37572661181E-01 -3.98974873751E-01
4.02500000000E+09 +6.19484948528E-01 -3.97724523463E-01 -7.32650255657E-04 -3.71034125286E-03 -6.16417813283E-04 -3.83925637541E-03 +7.27227473060E-01 -4.09296315725E-01
4.03000000000E+09 +6.07773656010E-01 -4.07415074582E-01 -1.13839440919E-03 -3.88644180296E-03 -1.02448391616E-03 -4.02856194081E-03 +7.16950862189E-01 -4.19814792892E-01
4.03500000000E+09 +5.95905694861E-01 -4.16839272115E-01 -1.76012906698E-03 -3.71005458887E-03 -1.68657108751E-03 -3.88184483532E-03 +7.05744735048E-01 -4.30972614647E-01
4.04000000000E+09 +5.84180874569E-01 -4.26716242962E-01 -1.95805188676E-03 -3.44810486551E-03 -1.89961706685E-03 -3.61196846329E-03 +6.94304124166E-01 -4.41960159956E-01
4.04500000000E+09 +5.72351370982E-01 -4.36172844418E-01 -2.33215830624E-03 -3.36681768459E-03 -2.25924892147E-03 -3.57668977069E-03 +6.82455868561E-01 -4.52689664119E-01
4.05000000000E+09 +5.60769629548E-01 -4.44802186463E-01 -2.68460471296E-03 -3.25095886634E-03 -2.68068205903E-03 -3.42348183418E-03 +6.70727312261E-01 -4.62444527859E-01
4.05500000000E+09 +5.48905856228E-01 -4.53038446527E-01 -2.84651583233E-03 -3.06075372953E-03 -2.87716034165E-03 -3.32815834263E-03 +6.58283411221E-01 -4.72084415274E-01
4.06000000000E+09 +5.35667526205E-01 -4.60595213614E-01 -3.58882919481E-03 -3.11036480918E-03 -3.65767193386E-03 -3.28113765700E-03 +6.45775451386E-01 -4.81411755033E-01
4.06500000000E+09 +5.22119993471E-01 -4.66547737385E-01 -4.13899932134E-03 -2.24055876236E-03 -4.25681379264E-03 -2.37542392050E-03 +6.32512826513E-01 -4.90396937088E-01
4.07000000000E+09 +5.08370576342E-01 -4.73269535694E-01 -3.94398635216E-03 -1.77907212940E-03 -4.02567640117E-03 -1.95774256609E-03 +6.18837484849E-01 -4.99773350495E-01
4.07500000000E+09 +4.92773065535E-01 -4.80254321746E-01 -4.12659741098E-03 -1.63890451870E-03 -4.17152576849E-03 -1.80462721232E-03 +6.05099154676E-01 -5.08880834122E-01
4.08000000000E+09 +4.76801195137E-01 -4.86714177605E-01 -4.41019101753E-03 -1.30844541694E-03 -4.47822107566E-03 -1.54458740584E-03 +5.91633252615E-01 -5.18241189849E-01
4.08500000000E+09 +4.60464963487E-01 -4.93763662420E-01 -4.57701976642E-03 -8.27981480523E-04 -4.73875180648E-03 -1.01918935520E-03 +5.77740991835E-01 -5.27747442297E-01
4.09000000000E+09 +4.43983258375E-01 -5.01176571025E-01 -4.81625465565E-03 -3.72913135556E-04 -4.99235056599E-03 -4.89747382174E-04 +5.63142855053E-01 -5.36539029309E-01
4.09500000000E+09 +4.27468709100E-01 -5.07779826262E-01 -4.95489859156E-03 +2.90063694231E-04 -5.16142662250E-03 +2.58249268171E-04 +5.47693790123E-01 -5.44061557449E-01
4.10000000000E+09 +4.12045514422E-01 -5.14513465285E-01 -4.41380826685E-03 +6.92528149497E-04 -4.53950183902E-03 +6.46852634672E-04 +5.31999095828E-01 -5.50934885106E-01
4.10500000000E+09 +3.95627767650E-01 -5.20804210502E-01 -4.64316067218E-03 +6.69795865836E-04 -4.78499605556E-03 +6.52246868729E-04 +5.16060704706E-01 -5.57882934024E-01
4.11000000000E+09 +3.78787685390E-01 -5.24812395767E-01 -4.99049158147E-03 +1.36759105599E-03 -5.13142448408E-03 +1.27472836632E-03 +4.99185077082E-01 -5.65682880103E-01
4.11500000000E+09 +3.62906325988E-01 -5.27272024729E-01 -4.78502065402E-03 +2.16493647374E-03 -4.93188399812E-03 +2.03812989845E-03 +4.81817705090E-01 -5.73400780696E-01
4.12000000000E+09 +3.46580089161E-01 -5.29543884276E-01 -4.47965266143E-03 +2.62849645575E-03 -4.65219296877E-03 +2.57162933385E-03 +4.64330407939E-01 -5.79992785274E-01
4.12500000000E+09 +3.29787525527E-01 -5.31199594959E-01 -4.23827770162E-03 +3.13634239242E-03 -4.47917224689E-03 +3.14216671413E-03 +4.47254622266E-01 -5.85850903283E-01
4.13000000000E+09 +3.12317858567E-01 -5.33689712203E-01 -3.57690803154E-03 +3.49099104262E-03 -3.73678859539E-03 +3.45748843829E-03 +4.30065451442E-01 -5.91472435384E-01
4.13500000000E+09 +2.93054392803E-01 -5.36970852382E-01 -3.16814595974E-03 +3.39766937784E-03 -3.38675023147E-03 +3.42267731259E-03 +4.12039048133E-01 -5.97112467768E-01
4.14000000000E+09 +2.72855961723E-01 -5.39779944529E-01 -3.36716815385E-03 +3.46592903647E-03 -3.56672067517E-03 +3.45639502458E-03 +3.92302651087E-01 -6.02390735309E-01
4.14500000000E+09 +2.53324494566E-01 -5.42175752648E-01 -3.53027178035E-03 +4.31218838655E-03 -3.77807354401E-03 +4.36658133742E-03 +3.72301676419E-01 -6.07007613209E-01
4.15000000000E+09 +2.34731277690E-01 -5.46393891879E-01 -2.49022260215E-03 +4.82215728319E-03 -2.67817732333E-03 +4.95711320696E-03 +3.53223656205E-01 -6.10907328254E-01
4.15500000000E+09 +2.15095101451E-01 -5.49441669911E-01 -2.27075869438E-03 +4.81455318840E-03 -2.46723952219E-03 +4.96677264066E-03 +3.33751429933E-01 -6.14981236204E-01
4.16000000000E+09 +1.97413299821E-01 -5.51175994689E-01 -1.86684445797E-03 +5.29456575083E-03 -1.98213695840E-03 +5.43867939968E-03 +3.14332832842E-01 -6.18007269514E-01
4.16500000000E+09 +1.80275397540E-01 -5.52205807713E-01 -1.33007674313E-03 +5.43001689442E-03 -1.41082502341E-03 +5.50364345100E-03 +2.94123250286E-01 -6.19832479770E-01
4.17000000000E+09 +1.62911186135E-01 -5.51298280258E-01 -1.12076747193E-03 +5.63334274373E-03 -1.21090610276E-03 +5.78548427193E-03 +2.73812707931E-01 -6.20722178067E-01
4.17500000000E+09 +1.46138089710E-01 -5.48408488747E-01 -4.47665315286E-04 +6.27203461388E-03 -5.76308028936E-04 +6.43384253022E-03 +2.53427559528E-01 -6.20996828750E-01
4.18000000000E+09 +1.29385285311E-01 -5.44569731009E-01 +8.39811327023E-04 +6.21468252715E-03 +7.65870215912E-04 +6.49996396582E-03 +2.32285611311E-01 -6.22133023948E-01
4.18500000000E+09 +1.10468862973E-01 -5.40572520285E-01 +1.25290849973E-03 +5.52381006914E-03 +1.14355275491E-03 +5.77609732847E-03 +2.09656744465E-01 -6.22503996064E-01
4.19000000000E+09 +9.06652172303E-02 -5.34789711543E-01 +1.28817950553E-03 +5.44754544974E-03 +1.23475869230E-03 +5.72246194209E-03 +1.87195741259E-01 -6.21344613242E-01
4.19500000000E+09 +7.11004871158E-02 -5.29258401068E-01 +1.51748841545E-03 +5.80955405636E-03 +1.50387696856E-03 +6.05272644026E-03 +1.65185680260E-01 -6.19227400219E-01
4.20000000000E+09 +5.04120814978E-02 -5.24843407239E-01 +2.21796961412E-03 +5.97371604312E-03 +2.19760155230E-03 +6.22940783640E-03 +1.43572756685E-01 -6.16694737986E-01
4.20500000000E+09 +2.96097508143E-02 -5.20686083711E-01 +3.30256121464E-03 +6.24070286021E-03 +3.35222330696E-03 +6.46750974508E-03 +1.21234951551E-01 -6.13501233280E-01
4.21000000000E+09 +8.97504102910E-03 -5.15995070374E-01 +4.44245387460E-03 +5.85219773166E-03 +4.56838294570E-03 +6.07125260702E-03 +9.81996552778E-02 -6.09626173050E-01
4.21500000000E+09 -9.89531133173E-03 -5.11512493414E-01 +5.04189834743E-03 +4.84357551984E-03 +5.14367708956E-03 +4.98630397246E-03 +7.48255671811E-02 -6.04476090004E-01
4.22000000000E+09 -2.83305525712E-02 -5.05605358370E-01 +5.32684962289E-03 +4.31959480864E-03 +5.46687373553E-03 +4.40558892624E-03 +5.28248191843E-02 -5.98258862632E-01
4.22500000000E+09 -4.45797936480E-02 -4.98677914281E-01 +5.70789750344E-03 +3.89330397526E-03 +5.80432303884E-03 +3.96434295626E-03 +3.11801176329E-02 -5.92081778001E-01
4.23000000000E+09 -6.06794432720E-02 -4.91154035173E-01 +6.24175183524E-03 +3.20676678469E-03 +6.38298738889E-03 +3.26727575514E-03 +1.04700812042E-02 -5.85113918360E-01
4.23500000000E+09 -7.78333560833E-02 -4.81036431790E-01 +6.10182231877E-03 +2.60157387843E-03 +6.26515513482E-03 +2.69621724230E-03 -1.16437701321E-02 -5.78154764123E-01
4.24000000000E+09 -9.47206800310E-02 -4.69405024854E-01 +6.50386353450E-03 +2.53876671457E-03 +6.67390832702E-03 +2.61069411582E-03 -3.44170832107E-02 -5.69089380949E-01
4.24500000000E+09 -1.12137907212E-01 -4.56505658879E-01 +6.98385716342E-03 +1.80780407125E-03 +7.19484307287E-03 +1.81183784781E-03 -5.67494225974E-02 -5.57946780009E-01
4.25000000000E+09 -1.30883145474E-01 -4.43477817450E-01 +7.23206818246E-03 +1.61144698628E-03 +7.32869578058E-03 +1.60177854136E-03 -7.75855154813E-02 -5.47079913925E-01
4.25500000000E+09 -1.50418984508E-01 -4.30840708300E-01 +8.08546411760E-03 +8.85690907022E-04 +8.26129914806E-03 +9.17735562875E-04 -9.80939194078E-02 -5.35381353866E-01
4.26000000000E+09 -1.70495748957E-01 -4.18855362770E-01 +8.86720609105E-03 -6.67083300102E-04 +9.04916295388E-03 -6.96611036309E-04 -1.18674352644E-01 -5.23257052631E-01
4.26500000000E+09 -1.91323652313E-01 -4.07758328844E-01 +8.10935150445E-03 -1.89912089338E-03 +8.26526906257E-03 -2.06076210878E-03 -1.38606354339E-01 -5.09783062037E-01
4.27000000000E+09 -2.11140840244E-01 -3.95523930637E-01 +7.86988930112E-03 -2.82398546475E-03 +8.01333348115E-03 -2.90959815689E-03 -1.59767482900E-01 -4.95769606283E-01
4.27500000000E+09 -2.29206916647E-01 -3.83666097797E-01 +7.31691480852E-03 -3.92349259202E-03 +7.35176586489E-03 -4.06726941371E-03 -1.80077559037E-01 -4.79638487564E-01
4.28000000000E+09 -2.45119240448E-01 -3.71077085209E-01 +6.36973392068E-03 -4.01280598911E-03 +6.45679276319E-03 -4.09396211449E-03 -1.99289728617E-01 -4.65015484996E-01
4.28500000000E+09 -2.59079554175E-01 -3.58399571706E-01 +6.73990142054E-03 -4.16643832184E-03 +6.81171015436E-03 -4.19530571172E-03 -2.20499567259E-01 -4.49195880143E-01
4.29000000000E+09 -2.72122070836E-01 -3.44240703106E-01 +6.99091891201E-03 -5.40420257997E-03 +7.06611431018E-03 -5.57327300758E-03 -2.39926298986E-01 -4.31282972522E-01
4.29500000000E+09 -2.84125830764E-01 -3.29039444850E-01 +5.84342265818E-03 -6.69577917044E-03 +5.93911385328E-03 -6.93718626811E-03 -2.57016459911E-01 -4.11795219119E-01
4.30000000000E+09 -2.96936431256E-01 -3.12349021862E-01 +5.54466954442E-03 -7.04964036892E-03 +5.56963103445E-03 -7.20308740903E-03 -2.72567542155E-01 -3.93358187986E-01
4.30500000000E+09 -3.10062790843E-01 -2.94167306311E-01 +4.39780204548E-03 -8.27542190951E-03 +4.42807120459E-03 -8.50803034468E-03 -2.87534620613E-01 -3.73987403379E-01
4.31000000000E+09 -3.23369119790E-01 -2.74637048966E-01 +3.09449265105E-03 -8.48312673747E-03 +3.14620995289E-03 -8.64794112621E-03 -3.02890902192E-01 -3.54377693880E-01
4.31500000000E+09 -3.36794708395E-01 -2.54919755833E-01 +2.33526166419E-03 -8.55340934039E-03 +2.36082133527E-03 -8.68957570384E-03 -3.18398846220E-01 -3.33530012781E-01
4.32000000000E+09 -3.48968770562E-01 -2.35365242931E-01 +1.36223663188E-03 -9.29702448288E-03 +1.28572153126E-03 -9.50036431806E-03 -3.32075067551E-01 -3.11197098723E-01
4.32500000000E+09 -3.59685942710E-01 -2.17429414307E-01 -6.81623758535E-04 -9.03942048086E-03 -7.66321335579E-04 -9.24105527438E-03 -3.44226000676E-01 -2.89266627405E-01
4.33000000000E+09 -3.70808419693E-01 -2.01216429758E-01 -7.72175246266E-04 -7.58074201240E-03 -8.22937516027E-04 -7.63880230667E-03 -3.55880271238E-01 -2.68600790243E-01
4.33500000000E+09 -3.81042837761E-01 -1.83657465543E-01 -5.39710182932E-04 -7.94220855911E-03 -6.19683505351E-04 -8.05192582363E-03 -3.67921355789E-01 -2.45176243921E-01
4.34000000000E+09 -3.88797915584E-01 -1.65142147975E-01 -1.28746324052E-03 -8.56041799275E-03 -1.34819842154E-03 -8.64279002937E-03 -3.78738046060E-01 -2.20710566012E-01
4.34500000000E+09 -3.94757723374E-01 -1.45772813703E-01 -2.11396592205E-03 -9.13115727934E-03 -2.13721194090E-03 -9.20598520733E-03 -3.87561166395E-01 -1.95313239179E-01
4.35000000000E+09 -3.98845670531E-01 -1.24940506089E-01 -3.95314335672E-03 -9.39063083668E-03 -4.05900323352E-03 -9.45216936698E-03 -3.96124019085E-01 -1.71515206422E-01
4.35500000000E+09 -4.01999884437E-01 -1.03196604563E-01 -5.65796226660E-03 -8.28914145933E-03 -5.78446066321E-03 -8.37825395057E-03 -4.04830465407E-01 -1.48255599022E-01
4.36000000000E+09 -4.05170974870E-01 -8.13570532925E-02 -5.89710078685E-03 -6.69904146215E-03 -6.06382732932E-03 -6.72421964678E-03 -4.12886222824E-01 -1.24861982880E-01
4.36500000000E+09 -4.10100905040E-01 -5.84162608809E-02 -6.15654494979E-03 -6.75916477925E-03 -6.45573110752E-03 -6.75229932645E-03 -4.18995366203E-01 -9.95707212474E-02
4.37000000000E+09 -4.15628496715E-01 -3.42286475791E-02 -6.77778740326E-03 -6.08041590012E-03 -7.04787406055E-03 -6.02302945864E-03 -4.22632805433E-01 -7.44757964596E-02
4.37500000000E+09 -4.20502011953E-01 -1.12704708664E-02 -7.37308270243E-03 -5.93285171512E-03 -7.61088268725E-03 -5.87563236863E-03 -4.23926328642E-01 -4.94406162605E-02
4.38000000000E+09 -4.25557474341E-01 +1.07531366663E-02 -8.35437356618E-03 -5.15930256143E-03 -8.59783886863E-03 -4.97754323996E-03 -4.27049422392E-01 -2.60268488418E-02
4.38500000000E+09 -4.29490935247E-01 +3.16506082775E-02 -9.38787907554E-03 -4.13297802080E-03 -9.59177067833E-03 -3.92770829644E-03 -4.29805641551E-01 -3.24817703451E-04
4.39000000000E+09 -4.31996802627E-01 +5.05598672843E-02 -9.33676575560E-03 -3.14887189643E-03 -9.53989765871E-03 -2.84998794832E-03 -4.31382383375E-01 +2.64723041469E-02
4.39500000000E+09 -4.32797568856E-01 +6.81845492735E-02 -1.02005255214E-02 -2.53701636033E-03 -1.03679897142E-02 -2.22730404906E-03 -4.29962858598E-01 +5.19267527556E-02
4.40000000000E+09 -4.32303503796E-01 +8.57494617661E-02 -1.10936065391E-02 -8.50074579630E-04 -1.10748841369E-02 -5.02799860632E-04 -4.27491020795E-01 +7.54435633468E-02
4.40500000000E+09 -4.29824114912E-01 +1.03409524457E-01 -1.10831302496E-02 +5.15309737140E-04 -1.10674367350E-02 +7.70591867019E-04 -4.25051768877E-01 +9.85654660194E-02
4.41000000000E+09 -4.26729679545E-01 +1.22501782571E-01 -1.06424947681E-02 +2.87810471375E-03 -1.06471289386E-02 +3.14872342749E-03 -4.22552543109E-01 +1.20787895690E-01
4.41500000000E+09 -4.23349105321E-01 +1.43682620519E-01 -9.61164527099E-03 +3.65575996642E-03 -9.49364585514E-03 +3.89352229946E-03 -4.19486237265E-01 +1.45747772174E-01
4.42000000000E+09 -4.18514344098E-01 +1.66168905243E-01 -9.05988371883E-03 +4.21875093679E-03 -8.88605453150E-03 +4.44296185022E-03 -4.13448963230E-01 +1.70765590492E-01
4.42500000000E+09 -4.14785186052E-01 +1.88864154430E-01 -8.60561444250E-03 +4.88756165719E-03 -8.33977444443E-03 +5.00824788302E-03 -4.06381589076E-01 +1.92966199280E-01
4.43000000000E+09 -4.11188541674E-01 +2.11407310878E-01 -8.75315660624E-03 +5.69318881443E-03 -8.44762780564E-03 +5.71552311625E-03 -4.01876861394E-01 +2.15079047164E-01
4.43500000000E+09 -4.07989249939E-01 +2.32512677417E-01 -8.19793665434E-03 +7.37758913935E-03 -7.96391390285E-03 +7.30602768133E-03 -3.95663762794E-01 +2.38378132502E-01
4.44000000000E+09 -4.05288192427E-01 +2.51322911472E-01 -6.89869689099E-03 +9.09156067667E-03 -6.68723519507E-03 +9.01925114088E-03 -3.87265661633E-01 +2.61023907911E-01
4.44500000000E+09 -4.03302545007E-01 +2.67875210482E-01 -4.70071311295E-03 +8.84026208034E-03 -4.54567586658E-03 +8.80693487445E-03 -3.77059700411E-01 +2.82017648524E-01
4.45000000000E+09 -4.00886985591E-01 +2.83785691565E-01 -3.91908576757E-03 +8.44380686673E-03 -3.78366990892E-03 +8.46145640503E-03 -3.67150927805E-01 +3.00735735287E-01
4.45500000000E+09 -3.95939114640E-01 +2.98976484012E-01 -4.16896343940E-03 +8.71787260799E-03 -3.92024683455E-03 +8.71356346783E-03 -3.57587740779E-01 +3.19003018663E-01
4.46000000000E+09 -3.88630776864E-01 +3.13505514163E-01 -3.11979620662E-03 +1.00192014929E-02 -2.85653672836E-03 +9.96645522360E-03 -3.48816400566E-01 +3.39213755841E-01
4.46500000000E+09 -3.78681948300E-01 +3.29073295973E-01 -1.58799324544E-03 +1.04238781693E-02 -1.35059234477E-03 +1.03703046194E-02 -3.35987810547E-01 +3.58356089957E-01
4.47000000000E+09 -3.65960711938E-01 +3.44108632901E-01 +1.69801016357E-04 +1.03013822512E-02 +3.74053606034E-04 +1.02883426824E-02 -3.23767407397E-01 +3.76171281283E-01
4.47500000000E+09 -3.53918483441E-01 +3.59358016326E-01 +1.27391386463E-03 +9.09671560995E-03 +1.47344475591E-03 +9.06358274660E-03 -3.11385190398E-01 +3.92833911150E-01
4.48000000000E+09 -3.42513248893E-01 +3.76942999121E-01 +1.08831577585E-03 +9.08018177307E-03 +1.26527853132E-03 +8.88146140144E-03 -3.00319681111E-01 +4.10189728099E-01
4.48500000000E+09 -3.30942251396E-01 +3.95706279330E-01 +2.08312956361E-03 +9.55815253281E-03 +2.24840864095E-03 +9.31141962195E-03 -2.87598162094E-01 +4.27407511810E-01
4.49000000000E+09 -3.20953652163E-01 +4.13878237077E-01 +3.54235712580E-03 +9.84761318960E-03 +3.59475293897E-03 +9.53850728705E-03 -2.74265475935E-01 +4.43826224742E-01
4.49500000000E+09 -3.12133503036E-01 +4.31733805246E-01 +5.15503981062E-03 +8.82887476794E-03 +5.13610866571E-03 +8.64870427716E-03 -2.59347496741E-01 +4.57997439838E-01
4.50000000000E+09 -3.03711880081E-01 +4.47266162738E-01 +5.93494227767E-03 +7.86148978764E-03 +5.87766247131E-03 +7.73053789042E-03 -2.45624879542E-01 +4.71335168822E-01
4.50500000000E+09 -2.96764269468E-01 +4.60898796163E-01 +6.80704080385E-03 +6.84276545117E-03 +6.83445643040E-03 +6.64656279145E-03 -2.31723744692E-01 +4.83922556860E-01
4.51000000000E+09 -2.89036836357E-01 +4.72463748536E-01 +6.84295580439E-03 +5.97682345913E-03 +6.83436957771E-03 +5.76905587033E-03 -2.19096399792E-01 +4.97824344872E-01
4.51500000000E+09 -2.79869556228E-01 +4.81601783684E-01 +7.28574705210E-03 +5.68432928124E-03 +7.30364005613E-03 +5.47083185252E-03 -2.04860889826E-01 +5.11031250490E-01
4.52000000000E+09 -2.69455302664E-01 +4.89365577985E-01 +8.48308965985E-03 +4.85697233895E-03 +8.39989803954E-03 +4.59476814466E-03 -1.90644050785E-01 +5.23463906743E-01
4.52500000000E+09 -2.57745204106E-01 +4.97229358729E-01 +8.64466179919E-03 +2.95853939557E-03 +8.52345196830E-03 +2.69124502125E-03 -1.76108488375E-01 +5.33939831886E-01
4.53000000000E+09 -2.44093969483E-01 +5.06691482353E-01 +8.29035465225E-03 +2.53060190576E-03 +8.19227532720E-03 +2.31159550963E-03 -1.62179209741E-01 +5.44633540184E-01
4.53500000000E+09 -2.27990315522E-01 +5.16922404849E-01 +8.43026321406E-03 +1.90252005343E-03 +8.35628055295E-03 +1.63561145392E-03 -1.47074813504E-01 +5.54591826117E-01
4.54000000000E+09 -2.10772013697E-01 +5.27615195037E-01 +8.74225068168E-03 +1.25583762765E-03 +8.57534999128E-03 +1.00899086815E-03 -1.31622640994E-01 +5.65722869003E-01
4.54500000000E+09 -1.93868980235E-01 +5.38614820828E-01 +9.15378645053E-03 +1.25047372616E-04 +8.92165113752E-03 -1.20108323341E-04 -1.14685422579E-01 +5.74429421206E-01
4.55000000000E+09 -1.78479994858E-01 +5.48849371625E-01 +9.25296537101E-03 -1.14864716010E-03 +9.01528469032E-03 -1.36741287624E-03 -9.88417234718E-02 +5.83110690681E-01
4.55500000000E+09 -1.66218248563E-01 +5.58876057717E-01 +8.76131390016E-03 -3.34520199577E-03 +8.43936783403E-03 -3.35225908056E-03 -8.40468375735E-02 +5.90526249046E-01
4.56000000000E+09 -1.55908249363E-01 +5.69372344412E-01 +6.75150649581E-03 -3.84633707524E-03 +6.49990909381E-03 -3.84316102921E-03 -7.05999054495E-02 +5.99324514557E-01
4.56500000000E+09 -1.45979275736E-01 +5.79751768885E-01 +6.13498269895E-03 -3.50223863590E-03 +5.89442117590E-03 -3.53357041747E-03 -5.51811676968E-02 +6.07656165120E-01
4.57000000000E+09 -1.35703108304E-01 +5.88741735953E-01 +5.97812870301E-03 -3.40638430790E-03 +5.69942350334E-03 -3.40476335122E-03 -3.95720053006E-02 +6.14372418502E-01
