# Hz S RI R 50
! CMT, C1220, 16058040, 17.2.0/1
! Date: 15/08/2018 10:10:23
! Data: Format (Calibration Info)
! Freq                      S11: Re/Im (F2)                       S21: Re/Im (F2)                       S12: Re/Im (F2)                       S22: Re/Im (F2)            
2.50000000000E+09 +5.99972677438E-01 +6.35367567754E-01 -5.37190218580E-04 -1.21051885701E-04 -5.66346315808E-04 -1.39037576647E-04 +5.73176654581E-01 +7.16754119567E-01
2.50500000000E+09 +6.06179505705E-01 +6.27881596459E-01 -4.64314094505E-04 -1.62584410339E-04 -5.04034378724E-04 -1.03104610985E-04 +5.78892318824E-01 +7.11413686380E-01
2.51000000000E+09 +6.12685446265E-01 +6.19892678843E-01 -4.88539183992E-04 -1.45456883294E-04 -4.90335924351E-04 -1.28882355437E-04 +5.84698289358E-01 +7.06195921433E-01
2.51500000000E+09 +6.19024330491E-01 +6.11837507845E-01 -5.42590683845E-04 -2.11163078281E-04 -5.29274766228E-04 -2.11821134897E-04 +5.90005190434E-01 +7.00712826473E-01
2.52000000000E+09 +6.24817390352E-01 +6.03750300910E-01 -7.12347711175E-04 -1.10241384436E-04 -6.79041535155E-04 -1.52774044531E-04 +5.95240596213E-01 +6.94741154322E-01
2.52500000000E+09 +6.29823229265E-01 +5.96159194176E-01 -7.09070861523E-04 +5.70651826544E-05 -7.48644266349E-04 +3.47387482925E-05 +6.01006972171E-01 +6.88196980958E-01
2.53000000000E+09 +6.34304594576E-01 +5.88952512163E-01 -6.58701949834E-04 +1.71686121605E-04 -6.57375602207E-04 +1.93057208116E-04 +6.07078192710E-01 +6.81209515260E-01
2.53500000000E+09 +6.38477761178E-01 +5.82496859862E-01 -5.66525136981E-04 +1.60628687504E-04 -5.83490530325E-04 +1.36436885518E-04 +6.13036358790E-01 +6.74374827569E-01
2.54000000000E+09 +6.42607005193E-01 +5.76134708415E-01 -5.91743383171E-04 +8.51054062290E-05 -5.72631759577E-04 +1.50814766754E-04 +6.19196487429E-01 +6.67667570440E-01
2.54500000000E+09 +6.47100335560E-01 +5.70082844498E-01 -6.92838024718E-04 +2.57129940894E-04 -7.00924721656E-04 +1.93724598736E-04 +6.24815004237E-01 +6.60937897776E-01
2.55000000000E+09 +6.51672006465E-01 +5.63711687872E-01 -6.14780141125E-04 +3.61164843005E-04 -6.54194908969E-04 +3.32638982601E-04 +6.30202149196E-01 +6.54715728235E-01
2.55500000000E+09 +6.56757490728E-01 +5.56659306954E-01 -5.45484958469E-04 +4.52262148210E-04 -6.79706643126E-04 +5.18422787972E-04 +6.35295694359E-01 +6.47964034987E-01
2.56000000000E+09 +6.62486245543E-01 +5.49701930839E-01 -4.32307623312E-04 +4.40954951105E-04 -4.56480550439E-04 +5.70723211092E-04 +6.40649225612E-01 +6.40889986638E-01
2.56500000000E+09 +6.68664221710E-01 +5.41566210484E-01 -3.94497290736E-04 +3.53209868384E-04 -3.45769725180E-04 +5.15327662696E-04 +6.45982011925E-01 +6.33318581564E-01
2.57000000000E+09 +6.74912900380E-01 +5.32938428516E-01 -5.68171357751E-04 +2.97013862256E-04 -4.32034192235E-04 +4.05723521197E-04 +6.51421697878E-01 +6.25153280140E-01
2.57500000000E+09 +6.80975667121E-01 +5.23729631443E-01 -6.63306529306E-04 +5.68498016099E-04 -4.89087439651E-04 +6.10436583469E-04 +6.56666671283E-01 +6.17502141248E-01
2.58000000000E+09 +6.85975078143E-01 +5.14929124100E-01 -4.10164230636E-04 +7.89921788461E-04 -2.88467070024E-04 +6.94236724425E-04 +6.61661327069E-01 +6.09925791945E-01
2.58500000000E+09 +6.90673559290E-01 +5.06048035291E-01 -2.84152739636E-04 +7.29234722594E-04 -2.64305092770E-04 +6.45419584516E-04 +6.66594039869E-01 +6.02352736663E-01
2.59000000000E+09 +6.94995678035E-01 +4.97467348344E-01 -2.08997446280E-04 +7.52039119092E-04 -2.44272680621E-04 +7.03407381187E-04 +6.71445805211E-01 +5.94688084688E-01
2.59500000000E+09 +6.99057276454E-01 +4.89065593633E-01 -1.78761432059E-04 +6.60339042414E-04 -2.28377577019E-04 +6.69102880571E-04 +6.76100695813E-01 +5.86603626755E-01
2.60000000000E+09 +7.03012211153E-01 +4.80636126153E-01 -1.78334777493E-04 +7.17993688232E-04 -2.22354822355E-04 +7.04309573024E-04 +6.81038276270E-01 +5.78196266967E-01
2.60500000000E+09 +7.07285913135E-01 +4.71406154184E-01 -1.55333359763E-04 +9.08378107644E-04 -1.35052619496E-04 +8.82077292051E-04 +6.86121740092E-01 +5.69360685760E-01
2.61000000000E+09 +7.11500333120E-01 +4.61391917569E-01 +4.74237046128E-05 +9.70989191519E-04 +6.10498485827E-05 +9.75024270317E-04 +6.90932964622E-01 +5.60733876298E-01
2.61500000000E+09 +7.15937582637E-01 +4.50438551511E-01 +2.27182327700E-04 +8.33523879141E-04 +2.14081303321E-04 +8.40589848064E-04 +6.95925855472E-01 +5.51996344598E-01
2.62000000000E+09 +7.20040506598E-01 +4.38307073583E-01 +2.93064881064E-04 +7.24345319137E-04 +3.26015815517E-04 +7.74944374063E-04 +7.00298671608E-01 +5.42831078271E-01
2.62500000000E+09 +7.24055916058E-01 +4.25458602518E-01 +2.59486806414E-04 +6.56946812087E-04 +3.40773144727E-04 +6.90440741156E-04 +7.04939117620E-01 +5.34080220796E-01
2.63000000000E+09 +7.27500403070E-01 +4.12204176910E-01 +2.96080907625E-04 +7.70943082204E-04 +3.70934686062E-04 +7.25827858395E-04 +7.09873905044E-01 +5.25090222825E-01
2.63500000000E+09 +7.30599065511E-01 +3.98984643886E-01 +3.24893695643E-04 +7.57423422858E-04 +3.53008173859E-04 +6.47596070607E-04 +7.14553298044E-01 +5.15640246577E-01
2.64000000000E+09 +7.33266442722E-01 +3.86166730596E-01 +4.41613086379E-04 +8.63586949798E-04 +3.72978339558E-04 +7.51205350612E-04 +7.19086489412E-01 +5.06110336336E-01
2.64500000000E+09 +7.35832302746E-01 +3.73949155079E-01 +6.14316319397E-04 +7.50757035605E-04 +5.11491564831E-04 +6.46909251422E-04 +7.23579421488E-01 +4.96499587206E-01
2.65000000000E+09 +7.37999339981E-01 +3.62332124385E-01 +6.15846989453E-04 +6.86150061067E-04 +4.97900128970E-04 +7.11508485495E-04 +7.27661191344E-01 +4.86737056874E-01
2.65500000000E+09 +7.40336850670E-01 +3.50529187870E-01 +6.89168330290E-04 +6.43127803923E-04 +6.50111258099E-04 +7.34437784413E-04 +7.32162967423E-01 +4.76675069176E-01
2.66000000000E+09 +7.42289547919E-01 +3.38826596026E-01 +7.74301039782E-04 +6.15351896117E-04 +8.66920442264E-04 +7.11635783960E-04 +7.36433306205E-01 +4.65195043922E-01
2.66500000000E+09 +7.44263257823E-01 +3.27381452971E-01 +6.99127782833E-04 +5.68523756422E-04 +8.33755324396E-04 +5.71629665756E-04 +7.40551894159E-01 +4.53769856857E-01
2.67000000000E+09 +7.46033632793E-01 +3.14890467847E-01 +1.02847743700E-03 +7.36053521858E-04 +1.05388378997E-03 +5.97970545383E-04 +7.44674838050E-01 +4.42769392611E-01
2.67500000000E+09 +7.47122822702E-01 +3.01552067867E-01 +1.21357676567E-03 +4.35703796963E-04 +1.14197656890E-03 +3.42143784182E-04 +7.48505349906E-01 +4.31786623100E-01
2.68000000000E+09 +7.47651237642E-01 +2.88107603857E-01 +1.17466631753E-03 +1.85743473176E-04 +1.06512404510E-03 +1.90226967726E-04 +7.52302539747E-01 +4.20808304449E-01
2.68500000000E+09 +7.47848485782E-01 +2.74096498540E-01 +1.18783080742E-03 +1.55624360240E-04 +1.13474966501E-03 +1.97899545161E-04 +7.55540842353E-01 +4.09317925465E-01
2.69000000000E+09 +7.47343947924E-01 +2.60240565524E-01 +1.17073207125E-03 +7.11452866906E-05 +1.19859666060E-03 +3.45995733777E-05 +7.58222923220E-01 +3.97253554025E-01
2.69500000000E+09 +7.46762942351E-01 +2.46999903060E-01 +1.21817326630E-03 -1.70582229351E-05 +1.24632796235E-03 -6.20605129513E-06 +7.60756755102E-01 +3.84410229291E-01
2.70000000000E+09 +7.46524029847E-01 +2.33898780288E-01 +1.30242480435E-03 -7.71079175935E-05 +1.25859795908E-03 -8.51787837887E-05 +7.63398945866E-01 +3.71213444479E-01
2.70500000000E+09 +7.46591821333E-01 +2.21067845824E-01 +1.39300495090E-03 -3.73896580367E-04 +1.36998323823E-03 -3.36103695186E-04 +7.66302243271E-01 +3.58016402754E-01
2.71000000000E+09 +7.46992869255E-01 +2.08140890238E-01 +1.32486728663E-03 -5.70612972106E-04 +1.36896360009E-03 -5.30300219683E-04 +7.69139574665E-01 +3.44894028639E-01
2.71500000000E+09 +7.48166626855E-01 +1.94647530170E-01 +1.28758319238E-03 -7.73763138194E-04 +1.34858184188E-03 -8.30069100270E-04 +7.71522914834E-01 +3.32271289747E-01
2.72000000000E+09 +7.48802605924E-01 +1.80550561433E-01 +1.00765960641E-03 -1.00444637411E-03 +9.96728617772E-04 -1.11387906269E-03 +7.73441952697E-01 +3.19473281337E-01
2.72500000000E+09 +7.49431846307E-01 +1.65548790517E-01 +8.09870541883E-04 -9.33420020776E-04 +7.51006804627E-04 -1.02152763348E-03 +7.74487806335E-01 +3.06320798852E-01
2.73000000000E+09 +7.49021519053E-01 +1.49461139698E-01 +8.19085873937E-04 -8.71949310439E-04 +6.76226486889E-04 -8.24491666340E-04 +7.75994589592E-01 +2.92600791139E-01
2.73500000000E+09 +7.47366757085E-01 +1.32480875305E-01 +8.43798681449E-04 -1.01677157919E-03 +7.82155895703E-04 -8.56113598578E-04 +7.77338969557E-01 +2.77525142860E-01
2.74000000000E+09 +7.44132101333E-01 +1.16383977667E-01 +9.30540664506E-04 -1.16249921426E-03 +9.29860926385E-04 -9.96713757667E-04 +7.78540549060E-01 +2.62391457144E-01
2.74500000000E+09 +7.40398994076E-01 +1.00172516577E-01 +7.58085782642E-04 -1.47577405652E-03 +8.84814133599E-04 -1.28103258707E-03 +7.79592405355E-01 +2.47506178888E-01
2.75000000000E+09 +7.35977774265E-01 +8.42109916629E-02 +3.68310144117E-04 -1.50340305750E-03 +5.75683156761E-04 -1.48044674897E-03 +7.80504754857E-01 +2.32557503379E-01
2.75500000000E+09 +7.31266342533E-01 +6.83925051341E-02 +3.37307625554E-04 -1.43404143150E-03 +4.88276927822E-04 -1.51006519210E-03 +7.80787873688E-01 +2.17239976997E-01
2.76000000000E+09 +7.26732957071E-01 +5.28895186719E-02 +3.68010372052E-04 -1.45893416817E-03 +3.75019861995E-04 -1.53197631820E-03 +7.80307582544E-01 +2.01476045334E-01
2.76500000000E+09 +7.22191467143E-01 +3.67871614845E-02 +2.72417671378E-04 -1.76154060316E-03 +2.54476605042E-04 -1.89102181162E-03 +7.78837800153E-01 +1.84212893153E-01
2.77000000000E+09 +7.17862302771E-01 +1.98291897841E-02 -1.68573830264E-04 -1.84746598822E-03 -2.50026790380E-04 -1.97663535711E-03 +7.77088480110E-01 +1.67355756990E-01
2.77500000000E+09 +7.13464804418E-01 +1.87801511444E-03 -5.02564972627E-04 -1.77862661079E-03 -6.10412152257E-04 -1.82265782900E-03 +7.75598469056E-01 +1.49425144578E-01
2.78000000000E+09 +7.08616491941E-01 -1.73782381147E-02 -6.86331798706E-04 -1.62911544491E-03 -8.32793206571E-04 -1.60526947922E-03 +7.73575127271E-01 +1.31489099575E-01
2.78500000000E+09 +7.02313337528E-01 -3.74544523568E-02 -7.69512340445E-04 -1.47579053542E-03 -8.50976287012E-04 -1.40539844746E-03 +7.71130760435E-01 +1.13693926156E-01
2.79000000000E+09 +6.95005182428E-01 -5.78616670202E-02 -7.76664485125E-04 -1.56154202558E-03 -8.63780346173E-04 -1.47531227791E-03 +7.67642444140E-01 +9.61630038229E-02
2.79500000000E+09 +6.86429936921E-01 -7.80984234813E-02 -1.23962944249E-03 -1.63479351839E-03 -1.22692761283E-03 -1.50576004290E-03 +7.63260125276E-01 +7.85079914200E-02
2.80000000000E+09 +6.76705295210E-01 -9.78008789625E-02 -1.36461437777E-03 -1.29811430992E-03 -1.25687783902E-03 -1.27813293627E-03 +7.58436113162E-01 +6.02556554415E-02
2.80500000000E+09 +6.65786973997E-01 -1.16760157531E-01 -1.67033747374E-03 -1.24977070864E-03 -1.58012829877E-03 -1.30445159934E-03 +7.52679616916E-01 +4.12981679724E-02
2.81000000000E+09 +6.54270502451E-01 -1.34239422000E-01 -1.82217286953E-03 -7.79301030035E-04 -1.81649708394E-03 -7.91511659246E-04 +7.46325828689E-01 +2.23481046120E-02
2.81500000000E+09 +6.41785592088E-01 -1.51434932633E-01 -1.73914817506E-03 -4.41405843881E-04 -1.79156432337E-03 -3.90001223936E-04 +7.39745129367E-01 +3.09212669705E-03
2.82000000000E+09 +6.28443253936E-01 -1.67881362145E-01 -1.65341777354E-03 -7.08887521575E-04 -1.72863609968E-03 -6.14692103001E-04 +7.32342822555E-01 -1.65584615504E-02
2.82500000000E+09 +6.14416534432E-01 -1.84055118406E-01 -2.24769002358E-03 -2.95135493957E-04 -2.16050231583E-03 -1.82086437074E-04 +7.23934747223E-01 -3.65544598516E-02
2.83000000000E+09 +5.99208572147E-01 -2.01423793578E-01 -1.93601570736E-03 +4.03347239935E-04 -1.79428980881E-03 +3.57398783465E-04 +7.14408297654E-01 -5.62420871195E-02
2.83500000000E+09 +5.81516459514E-01 -2.19598422567E-01 -1.72388333761E-03 +4.63989049869E-04 -1.62011953967E-03 +3.90765140586E-04 +7.04378710868E-01 -7.67001076396E-02
2.84000000000E+09 +5.61734672669E-01 -2.37054399937E-01 -1.40413470864E-03 +6.67920501722E-04 -1.44735429879E-03 +5.54911136297E-04 +6.92859066126E-01 -9.76271255378E-02
2.84500000000E+09 +5.40519298564E-01 -2.54896938303E-01 -1.19485168068E-03 +5.14799602099E-04 -1.22054509599E-03 +4.66639558844E-04 +6.80444630115E-01 -1.18035419831E-01
2.85000000000E+09 +5.17682910427E-01 -2.72008830119E-01 -1.40394253490E-03 +4.61774920288E-04 -1.39478295433E-03 +4.67543374956E-04 +6.67396583704E-01 -1.39056119645E-01
2.85500000000E+09 +4.94214914992E-01 -2.88765978352E-01 -1.42869802688E-03 +8.80430333318E-04 -1.41939746966E-03 +8.48149285251E-04 +6.52281608909E-01 -1.60333294922E-01
2.86000000000E+09 +4.70261191799E-01 -3.05433431643E-01 -9.07676609519E-04 +7.89556223186E-04 -9.35991775024E-04 +7.59885345730E-04 +6.35270742976E-01 -1.80891557509E-01
2.86500000000E+09 +4.44811709053E-01 -3.20870051757E-01 -1.22926180565E-03 +6.49864446065E-04 -1.24231530799E-03 +6.05493078063E-04 +6.17379938516E-01 -2.01152905458E-01
2.87000000000E+09 +4.19946556277E-01 -3.34402698047E-01 -9.97940403343E-04 +1.16910775497E-03 -1.03053166530E-03 +1.19358957019E-03 +5.98271476650E-01 -2.20144857462E-01
2.87500000000E+09 +3.95647850686E-01 -3.47340194225E-01 -9.28118296519E-04 +8.88875206597E-04 -9.02814496682E-04 +9.12015502898E-04 +5.79290366117E-01 -2.39996068147E-01
2.88000000000E+09 +3.70391173211E-01 -3.59574272030E-01 -1.05139150708E-03 +1.03127036059E-03 -1.00796703806E-03 +1.04362699905E-03 +5.57876126634E-01 -2.60124346448E-01
2.88500000000E+09 +3.44794900452E-01 -3.70530258329E-01 -5.84364261502E-04 +1.37135816245E-03 -5.39194383085E-04 +1.26475685005E-03 +5.34130677198E-01 -2.78594943208E-01
2.89000000000E+09 +3.17396710687E-01 -3.80536541661E-01 -5.00356493530E-04 +5.90428547834E-04 -4.40252328481E-04 +5.23907805508E-04 +5.09231900582E-01 -2.96139599129E-01
2.89500000000E+09 +2.88058049842E-01 -3.88659119928E-01 -1.15507993327E-03 +1.00253417322E-03 -1.16144263700E-03 +9.59036976042E-04 +4.81772855530E-01 -3.13608096886E-01
2.90000000000E+09 +2.56956476830E-01 -3.94563463837E-01 -9.79594231699E-04 +1.41725964340E-03 -9.88510129873E-04 +1.38434353372E-03 +4.53453435566E-01 -3.29176986322E-01
2.90500000000E+09 +2.24041115747E-01 -3.97873379942E-01 -6.19262639365E-04 +1.65513747301E-03 -5.86536730264E-04 +1.70021732555E-03 +4.24058600786E-01 -3.45221049080E-01
2.91000000000E+09 +1.90172858603E-01 -3.98539822603E-01 -9.21403019022E-05 +1.24413496531E-03 -5.24128200239E-05 +1.19390390147E-03 +3.92590071764E-01 -3.59284228451E-01
2.91500000000E+09 +1.55814547013E-01 -3.97194594068E-01 -9.69299173071E-04 +9.84037714158E-04 -8.91993965043E-04 +9.95090812322E-04 +3.60190284443E-01 -3.70967189338E-01
2.92000000000E+09 +1.21014437159E-01 -3.93619493066E-01 -1.05965453741E-03 +1.99605411285E-03 -9.71602534796E-04 +1.89643159387E-03 +3.27487819137E-01 -3.81215497783E-01
2.92500000000E+09 +8.58813553296E-02 -3.89217581105E-01 -1.52141392933E-04 +2.35712590918E-03 -2.88441813945E-04 +2.21870422323E-03 +2.91455086048E-01 -3.89767431034E-01
2.93000000000E+09 +5.00448780437E-02 -3.81712992875E-01 +2.21821820856E-04 +1.92253822800E-03 +1.11570652783E-04 +1.95761204119E-03 +2.54282950825E-01 -3.96257470305E-01
2.93500000000E+09 +1.44707090539E-02 -3.72095120289E-01 +2.81268992044E-04 +1.81000728643E-03 +2.02161264956E-04 +1.82635106367E-03 +2.14897281824E-01 -4.00550239170E-01
2.94000000000E+09 -1.99922776396E-02 -3.60182957491E-01 -3.64838037503E-04 +1.81796825069E-03 -4.05080598120E-04 +1.81915339116E-03 +1.75415829797E-01 -4.01095955302E-01
2.94500000000E+09 -5.39602029644E-02 -3.45922395128E-01 +1.88458814566E-04 +3.13993560769E-03 +1.55111533048E-04 +3.10612923402E-03 +1.37915137257E-01 -4.01055666826E-01
2.95000000000E+09 -8.68321847275E-02 -3.29262281042E-01 +1.58354745443E-03 +2.42890897523E-03 +1.54421724171E-03 +2.52726208622E-03 +9.75735541841E-02 -4.00327859950E-01
2.95500000000E+09 -1.19131259685E-01 -3.09558004882E-01 +1.42225084506E-03 +1.94061995659E-03 +1.32938073928E-03 +2.01571489969E-03 +5.59847761599E-02 -3.93786551585E-01
2.96000000000E+09 -1.49482242242E-01 -2.87114122089E-01 +1.55446483563E-03 +1.96161145789E-03 +1.59548698397E-03 +2.08906321074E-03 +1.53812646712E-02 -3.83577691605E-01
2.96500000000E+09 -1.79165882041E-01 -2.62048245693E-01 +1.91350217153E-03 +1.68499764492E-03 +2.02628032320E-03 +1.63684071615E-03 -2.44857484589E-02 -3.69984721827E-01
2.97000000000E+09 -2.06733737036E-01 -2.33286180109E-01 +1.67677408808E-03 +1.70133719394E-03 +1.71906643863E-03 +1.61492051656E-03 -6.31297658334E-02 -3.55058919644E-01
2.97500000000E+09 -2.31033980452E-01 -2.02507428752E-01 +2.50559929153E-03 +1.83861463120E-03 +2.45228726801E-03 +1.79017979769E-03 -1.02620876944E-01 -3.38570491256E-01
2.98000000000E+09 -2.53347396389E-01 -1.72034976305E-01 +2.82830235461E-03 +1.24918748403E-03 +2.74147655842E-03 +1.28573119160E-03 -1.41150104665E-01 -3.18335451685E-01
2.98500000000E+09 -2.75358367538E-01 -1.39798650802E-01 +2.99298057858E-03 +7.87399253268E-04 +3.01535529802E-03 +8.99052854899E-04 -1.77950190022E-01 -2.94033056730E-01
2.99000000000E+09 -2.95013478292E-01 -1.06351093445E-01 +2.92955047787E-03 +3.23065146796E-04 +3.02591283005E-03 +4.22319369990E-04 -2.10795563914E-01 -2.68358059808E-01
2.99500000000E+09 -3.12216339352E-01 -7.21220169779E-02 +2.91276512005E-03 +1.01261114775E-04 +3.02278719639E-03 +2.28885483463E-05 -2.44407923024E-01 -2.40785204061E-01
3.00000000000E+09 -3.27144418789E-01 -3.71987100719E-02 +3.10756526434E-03 +1.62368626651E-04 +3.12797036862E-03 +1.46902142924E-05 -2.76232010748E-01 -2.09278785132E-01
3.00500000000E+09 -3.38900319522E-01 -3.08214318253E-03 +3.85231283756E-03 -6.10039321383E-04 +3.65427250950E-03 -6.80146421671E-04 -3.05258668912E-01 -1.75100494069E-01
3.01000000000E+09 -3.48033664311E-01 +3.00379263292E-02 +3.45646167049E-03 -1.77650077538E-03 +3.27812907809E-03 -1.64960605073E-03 -3.31555081919E-01 -1.39542985923E-01
3.01500000000E+09 -3.55479353948E-01 +6.31914611124E-02 +2.76474466702E-03 -2.16046070767E-03 +2.79052098293E-03 -2.01356050982E-03 -3.53583819648E-01 -1.02669091887E-01
3.02000000000E+09 -3.59622332410E-01 +9.63879610771E-02 +2.14599915021E-03 -2.32919731783E-03 +2.28711128963E-03 -2.28934633249E-03 -3.73055743748E-01 -6.69019081617E-02
3.02500000000E+09 -3.60075928719E-01 +1.29591643003E-01 +2.27135607026E-03 -2.24597557537E-03 +2.31865089843E-03 -2.24134034825E-03 -3.91424933190E-01 -2.87990156213E-02
3.03000000000E+09 -3.56991912900E-01 +1.61816637466E-01 +1.85809371551E-03 -2.91231585017E-03 +1.84235903200E-03 -2.89259607652E-03 -4.06280996277E-01 +1.24146350844E-02
3.03500000000E+09 -3.51507128075E-01 +1.92393668467E-01 +1.32937365184E-03 -3.32624762341E-03 +1.40982318939E-03 -3.34869760659E-03 -4.16300655999E-01 +5.29446591533E-02
3.04000000000E+09 -3.44341318100E-01 +2.22916840768E-01 +2.46235638047E-04 -3.30812441440E-03 +3.59829061023E-04 -3.37335279086E-03 -4.24333982324E-01 +9.29476032930E-02
3.04500000000E+09 -3.35508626994E-01 +2.53066251951E-01 +1.17450345691E-04 -2.49407311438E-03 +1.69462726054E-04 -2.67325214035E-03 -4.29853243310E-01 +1.32737584921E-01
3.05000000000E+09 -3.24531524068E-01 +2.83384053418E-01 +1.67449343632E-04 -2.48874903019E-03 +1.25004245547E-04 -2.64435053290E-03 -4.33230916060E-01 +1.72261493991E-01
3.05500000000E+09 -3.11178222873E-01 +3.12694946414E-01 +2.27439479694E-04 -2.76860298083E-03 +3.78234781358E-05 -2.83385370011E-03 -4.32920188878E-01 +2.12199005979E-01
3.06000000000E+09 -2.96855675789E-01 +3.39902175899E-01 -3.82361397884E-04 -3.35160616959E-03 -4.97490337136E-04 -3.21884185505E-03 -4.29532849463E-01 +2.49282886102E-01
3.06500000000E+09 -2.82663467704E-01 +3.65776873991E-01 -1.47374277782E-03 -2.83003082605E-03 -1.35576260967E-03 -2.66540663076E-03 -4.25274403964E-01 +2.85091229219E-01
3.07000000000E+09 -2.67882037949E-01 +3.90704109340E-01 -1.54491221321E-03 -1.98523469380E-03 -1.38398518453E-03 -2.04284465332E-03 -4.20107477304E-01 +3.19826553585E-01
