# Hz S RI R 50
! CMT, C1220, 16058040, 17.2.0/1
! Date: 15/08/2018 10:11:47
! Data: Format (Calibration Info)
! Freq                      S11: Re/Im (F2)                       S21: Re/Im (F2)                       S12: Re/Im (F2)                       S22: Re/Im (F2)            
2.50000000000E+09 +5.99815767785E-01 +6.36270036806E-01 -5.14208099747E-04 -3.84723542747E-04 -5.69355734348E-04 -3.95485854675E-04 +5.72877072392E-01 +7.16740186219E-01
2.50500000000E+09 +6.06038968473E-01 +6.28779285104E-01 -5.32163289287E-04 -3.62976596922E-04 -5.51757702740E-04 -3.26550335392E-04 +5.78558094837E-01 +7.11406352597E-01
2.51000000000E+09 +6.12463082548E-01 +6.20819063653E-01 -5.73953609299E-04 -3.29510394728E-04 -5.86027591154E-04 -2.90017403534E-04 +5.84315478615E-01 +7.06212405903E-01
2.51500000000E+09 +6.18911907702E-01 +6.12734032092E-01 -6.36357089045E-04 -2.45981865019E-04 -6.43236181407E-04 -2.49620241207E-04 +5.89744976264E-01 +7.00673433768E-01
2.52000000000E+09 +6.24610664441E-01 +6.04481834433E-01 -6.91909610848E-04 -2.41963147220E-04 -6.95079777264E-04 -2.05547110282E-04 +5.94839166635E-01 +6.94760153158E-01
2.52500000000E+09 +6.29647308187E-01 +5.96819349137E-01 -7.32665142642E-04 -9.09720779773E-05 -7.45480019393E-04 -1.05873816559E-04 +6.00634154022E-01 +6.88174912105E-01
2.53000000000E+09 +6.34195488525E-01 +5.89702048537E-01 -7.18674185978E-04 -8.38010935530E-06 -6.94722929258E-04 +1.09977263640E-05 +6.06685609974E-01 +6.81256489228E-01
2.53500000000E+09 +6.38487019748E-01 +5.83020481471E-01 -6.41743248892E-04 +1.02597636095E-05 -6.52473426929E-04 +2.95624641205E-05 +6.12682258817E-01 +6.74564044543E-01
2.54000000000E+09 +6.42618842075E-01 +5.76840279586E-01 -7.19305156488E-04 +4.84126182323E-05 -6.64020512903E-04 +1.54721648410E-05 +6.18765303562E-01 +6.67722694811E-01
2.54500000000E+09 +6.46915240984E-01 +5.70815092047E-01 -7.52555824479E-04 +2.05740471292E-04 -7.92423552808E-04 +1.37488945707E-04 +6.24435117041E-01 +6.61290813696E-01
2.55000000000E+09 +6.51631468842E-01 +5.64635867618E-01 -6.96124551836E-04 +3.32929385846E-04 -7.13562893731E-04 +3.11192657758E-04 +6.29831898257E-01 +6.54928331652E-01
2.55500000000E+09 +6.56888164996E-01 +5.57663026009E-01 -6.19599362620E-04 +3.95451532990E-04 -6.76278549727E-04 +4.42661393636E-04 +6.34919767342E-01 +6.48345386515E-01
2.56000000000E+09 +6.62720447030E-01 +5.50814908621E-01 -4.53935565701E-04 +3.70477021650E-04 -5.67984762834E-04 +4.21651680224E-04 +6.40215500682E-01 +6.41371716798E-01
2.56500000000E+09 +6.69045611177E-01 +5.42742417338E-01 -5.01056901564E-04 +2.52371830820E-04 -4.66471560265E-04 +3.67950526244E-04 +6.45727645697E-01 +6.33769806371E-01
2.57000000000E+09 +6.75264016942E-01 +5.34177175792E-01 -6.21855656977E-04 +2.12474039875E-04 -5.82067931622E-04 +4.08253571872E-04 +6.51156571622E-01 +6.25722066146E-01
2.57500000000E+09 +6.81167911599E-01 +5.25213437614E-01 -7.55468974056E-04 +4.25042329046E-04 -6.17330350553E-04 +4.80688200196E-04 +6.56644802257E-01 +6.18096940190E-01
2.58000000000E+09 +6.86359770818E-01 +5.16351656460E-01 -6.34743843964E-04 +7.07038070405E-04 -5.08363234494E-04 +5.89361767824E-04 +6.61610142588E-01 +6.10461785921E-01
2.58500000000E+09 +6.91334110757E-01 +5.07595434741E-01 -4.39440590674E-04 +7.38446523088E-04 -4.00799586229E-04 +5.88025087038E-04 +6.66469580427E-01 +6.02974247050E-01
2.59000000000E+09 +6.95643778051E-01 +4.99149222371E-01 -3.37061969303E-04 +7.04325579197E-04 -3.53087980158E-04 +6.34472372970E-04 +6.71442594409E-01 +5.95263047010E-01
2.59500000000E+09 +6.99875448388E-01 +4.90761569663E-01 -3.24394974375E-04 +6.32747185010E-04 -3.53288930466E-04 +6.14699359840E-04 +6.76102771700E-01 +5.87216092685E-01
2.60000000000E+09 +7.03829967959E-01 +4.82143468674E-01 -4.03599072811E-04 +6.27673863351E-04 -3.75792368975E-04 +6.41499657940E-04 +6.81228706484E-01 +5.78725580017E-01
2.60500000000E+09 +7.07918660545E-01 +4.72990940427E-01 -3.82438258969E-04 +7.70685844342E-04 -3.42099344286E-04 +7.67618370060E-04 +6.86433792655E-01 +5.70004925643E-01
2.61000000000E+09 +7.12075115907E-01 +4.62920059245E-01 -2.95314317314E-04 +1.01124501334E-03 -2.63559866676E-04 +9.86023384615E-04 +6.91257022477E-01 +5.61187714429E-01
2.61500000000E+09 +7.16432323426E-01 +4.51990167349E-01 +3.01882416381E-05 +9.67795508375E-04 -8.02662113760E-06 +9.17032625378E-04 +6.96181501333E-01 +5.52523947142E-01
2.62000000000E+09 +7.20471748099E-01 +4.39856281659E-01 +9.13694562225E-05 +9.25068097794E-04 +1.19770368073E-04 +9.08380554229E-04 +7.00666350035E-01 +5.43333899617E-01
2.62500000000E+09 +7.24436361468E-01 +4.26978030047E-01 +1.41259187783E-04 +8.06451431794E-04 +1.81058592870E-04 +8.54278277890E-04 +7.05263986605E-01 +5.34741242179E-01
2.63000000000E+09 +7.27955972247E-01 +4.13777590891E-01 +1.60702784363E-04 +8.33532820530E-04 +2.55217109546E-04 +7.70321158925E-04 +7.10186416126E-01 +5.25653859231E-01
2.63500000000E+09 +7.30837365655E-01 +4.00624455178E-01 +9.05447264707E-05 +8.37605307071E-04 +1.92329539797E-04 +7.31557041981E-04 +7.14974138955E-01 +5.16348307950E-01
2.64000000000E+09 +7.33647776990E-01 +3.87951194108E-01 +2.27398824405E-04 +9.18270602441E-04 +2.66304018493E-04 +7.50033855017E-04 +7.19745286570E-01 +5.06562261570E-01
2.64500000000E+09 +7.36420231691E-01 +3.75840772429E-01 +4.25006220017E-04 +8.11737443657E-04 +2.90082230301E-04 +7.50673961842E-04 +7.24245774570E-01 +4.96955663605E-01
2.65000000000E+09 +7.38788923185E-01 +3.64011126050E-01 +3.52127363999E-04 +7.97813140954E-04 +2.65067208226E-04 +7.62297312161E-04 +7.28420135568E-01 +4.87156091115E-01
2.65500000000E+09 +7.41061853976E-01 +3.52217543178E-01 +3.97046866415E-04 +8.21949125392E-04 +3.55446044103E-04 +9.11427692006E-04 +7.32730701939E-01 +4.77179938634E-01
2.66000000000E+09 +7.43200534796E-01 +3.40664807349E-01 +5.38472533337E-04 +8.29716167514E-04 +5.69488554544E-04 +8.86052865942E-04 +7.37353500354E-01 +4.65601531258E-01
2.66500000000E+09 +7.45397954662E-01 +3.29139352870E-01 +4.99188384856E-04 +8.90739001129E-04 +5.98811259310E-04 +8.71485022290E-04 +7.41395446645E-01 +4.54225547498E-01
2.67000000000E+09 +7.47554780541E-01 +3.16588153443E-01 +7.84511323500E-04 +9.67180173163E-04 +9.16120324101E-04 +8.93120455206E-04 +7.45597073719E-01 +4.43049607096E-01
2.67500000000E+09 +7.48738078220E-01 +3.03133706197E-01 +1.03622785410E-03 +6.44595708901E-04 +9.78963219318E-04 +5.80778019910E-04 +7.49596035387E-01 +4.31923016444E-01
2.68000000000E+09 +7.49116724519E-01 +2.89573724610E-01 +8.70335643185E-04 +5.43170622901E-04 +8.60865085134E-04 +5.35011667055E-04 +7.53458663151E-01 +4.20800647981E-01
2.68500000000E+09 +7.49503731661E-01 +2.75819512968E-01 +9.13276243620E-04 +6.47615862761E-04 +8.93987037251E-04 +6.26332822753E-04 +7.56612039339E-01 +4.09054593225E-01
2.69000000000E+09 +7.49200915664E-01 +2.61832073003E-01 +1.12088390334E-03 +6.76073809571E-04 +1.09489042742E-03 +7.01486666954E-04 +7.59378139302E-01 +3.96898103782E-01
2.69500000000E+09 +7.48817257617E-01 +2.48431918461E-01 +1.32818291339E-03 +5.27662601700E-04 +1.26123192363E-03 +5.32787188669E-04 +7.61680346021E-01 +3.83965961875E-01
2.70000000000E+09 +7.48609264411E-01 +2.35352950152E-01 +1.56297378765E-03 +3.84347189960E-04 +1.44869095263E-03 +4.65319139022E-04 +7.64321762837E-01 +3.70724307030E-01
2.70500000000E+09 +7.48795491378E-01 +2.22361346016E-01 +1.65210320548E-03 +2.67894003405E-05 +1.62853141330E-03 +1.27187568554E-04 +7.67179346140E-01 +3.57566642285E-01
2.71000000000E+09 +7.49137996966E-01 +2.09557634526E-01 +1.57720933192E-03 -1.79933881431E-04 +1.62646351785E-03 -1.32730013044E-04 +7.70130428787E-01 +3.44135017313E-01
2.71500000000E+09 +7.50361480919E-01 +1.96160961665E-01 +1.47231655148E-03 -4.17645785700E-04 +1.59263843917E-03 -4.39450204686E-04 +7.72278744497E-01 +3.31364382905E-01
2.72000000000E+09 +7.51380454023E-01 +1.81977904642E-01 +1.29491661444E-03 -5.04282102333E-04 +1.36348670662E-03 -6.22483294132E-04 +7.74293803664E-01 +3.18592202185E-01
2.72500000000E+09 +7.52008588267E-01 +1.66876481080E-01 +1.18845873462E-03 -5.27474731920E-04 +1.08330532336E-03 -6.64715790835E-04 +7.75305272855E-01 +3.05299292614E-01
2.73000000000E+09 +7.51735394969E-01 +1.50770939520E-01 +1.26406121188E-03 -4.61618988651E-04 +1.10903760338E-03 -5.15710749771E-04 +7.76739787581E-01 +2.91534256215E-01
2.73500000000E+09 +7.49909965400E-01 +1.33884554310E-01 +1.33881569407E-03 -6.89564663680E-04 +1.20917870401E-03 -6.45209670362E-04 +7.77944828584E-01 +2.76363377625E-01
2.74000000000E+09 +7.46774122026E-01 +1.17871265511E-01 +1.46477558613E-03 -9.90772355711E-04 +1.40497968407E-03 -7.31416435134E-04 +7.78993824297E-01 +2.61017809719E-01
2.74500000000E+09 +7.43290691420E-01 +1.01438382765E-01 +1.28418108535E-03 -1.29897449710E-03 +1.40011209437E-03 -1.07942232819E-03 +7.79951247755E-01 +2.45964408855E-01
2.75000000000E+09 +7.39044537489E-01 +8.51350343471E-02 +8.44622087253E-04 -1.53783807350E-03 +1.09807171163E-03 -1.46549227616E-03 +7.80439261660E-01 +2.31107922652E-01
2.75500000000E+09 +7.34168596584E-01 +6.90513980697E-02 +6.66724248314E-04 -1.21281715442E-03 +8.21576353850E-04 -1.30561181259E-03 +7.80691577915E-01 +2.15987724796E-01
2.76000000000E+09 +7.29319560077E-01 +5.32338598584E-02 +9.16128742688E-04 -1.24266536893E-03 +9.25272294365E-04 -1.28757854296E-03 +7.80260592390E-01 +1.99988682013E-01
2.76500000000E+09 +7.24740181105E-01 +3.72695217127E-02 +8.16908803100E-04 -1.57959646652E-03 +8.61573099938E-04 -1.68135059162E-03 +7.78571050218E-01 +1.82690253307E-01
2.77000000000E+09 +7.20682629540E-01 +2.01581261170E-02 +6.33400739463E-04 -1.66197133032E-03 +5.87714557591E-04 -1.78941410975E-03 +7.76753111421E-01 +1.65757144254E-01
2.77500000000E+09 +7.16279941073E-01 +1.78645128972E-03 +4.57284507294E-04 -1.82086156036E-03 +3.88212588874E-04 -1.89832022617E-03 +7.74935829388E-01 +1.47676727925E-01
2.78000000000E+09 +7.11448387987E-01 -1.77883961029E-02 +1.62486621101E-04 -1.94263928068E-03 +6.26404503809E-05 -1.98918425552E-03 +7.72388305003E-01 +1.29823212787E-01
2.78500000000E+09 +7.05040506034E-01 -3.81543903559E-02 +6.10210661005E-06 -1.75243364612E-03 -1.12261696114E-04 -1.74571456140E-03 +7.69678737860E-01 +1.12509753768E-01
2.79000000000E+09 +6.97788619218E-01 -5.88896743720E-02 -2.60869135347E-05 -1.93496698707E-03 -1.04844966935E-04 -1.86133244470E-03 +7.66208172914E-01 +9.51554744280E-02
2.79500000000E+09 +6.89079965204E-01 -7.93103160397E-02 -4.79921931615E-04 -2.08150061088E-03 -5.59168945916E-04 -1.95697981889E-03 +7.61727794000E-01 +7.75314374642E-02
2.80000000000E+09 +6.79364654819E-01 -9.93736628700E-02 -7.04438781101E-04 -1.78593955373E-03 -5.32317941216E-04 -1.68964231245E-03 +7.56727793396E-01 +5.96187684012E-02
2.80500000000E+09 +6.68247000408E-01 -1.18283696151E-01 -7.58353166299E-04 -1.88215675763E-03 -6.84424771594E-04 -1.89308270167E-03 +7.51068696693E-01 +4.07352554977E-02
2.81000000000E+09 +6.56652099569E-01 -1.35953037342E-01 -9.32896206842E-04 -1.78423073148E-03 -9.57352677502E-04 -1.89528279662E-03 +7.44466298340E-01 +2.16480776659E-02
2.81500000000E+09 +6.44329039208E-01 -1.53213913789E-01 -1.21400160307E-03 -1.82243089726E-03 -1.26006507469E-03 -1.86741646476E-03 +7.37478228640E-01 +2.51289976520E-03
2.82000000000E+09 +6.30879737751E-01 -1.69941014978E-01 -1.53156138192E-03 -1.93504933964E-03 -1.74104396673E-03 -1.86762252425E-03 +7.29769346033E-01 -1.65631627425E-02
2.82500000000E+09 +6.16784772916E-01 -1.86371261614E-01 -2.17423457482E-03 -1.57339184944E-03 -2.14782751063E-03 -1.46069566155E-03 +7.21469320860E-01 -3.57944986143E-02
2.83000000000E+09 +6.01077804615E-01 -2.04135972892E-01 -2.30605542140E-03 -7.45044961585E-04 -2.18397349397E-03 -7.19435172874E-04 +7.12122913023E-01 -5.52735306925E-02
2.83500000000E+09 +5.83050581477E-01 -2.22011255203E-01 -1.89071928653E-03 -3.23787512097E-04 -1.82707905714E-03 -4.03032756671E-04 +7.02296741341E-01 -7.54490021495E-02
2.84000000000E+09 +5.63060046430E-01 -2.39191772948E-01 -1.53316570992E-03 -2.62515269328E-04 -1.52470968363E-03 -3.14232206443E-04 +6.90766429411E-01 -9.62527041894E-02
2.84500000000E+09 +5.42012248007E-01 -2.57025528428E-01 -1.30417072383E-03 -6.59822190590E-04 -1.38468662468E-03 -6.89407125944E-04 +6.78366817084E-01 -1.16542968479E-01
2.85000000000E+09 +5.19124539275E-01 -2.74669603301E-01 -1.94682415669E-03 -8.99296543921E-04 -1.98693392121E-03 -9.06762303696E-04 +6.65149132181E-01 -1.37009083420E-01
2.85500000000E+09 +4.95264963167E-01 -2.91740648324E-01 -2.25731569400E-03 -3.20424394385E-04 -2.21997389869E-03 -3.53441663832E-04 +6.50467177073E-01 -1.57404665870E-01
2.86000000000E+09 +4.70537545713E-01 -3.08466876186E-01 -1.94091932912E-03 -1.70054009526E-04 -1.89807088601E-03 -1.95800076321E-04 +6.34133567366E-01 -1.77849658149E-01
2.86500000000E+09 +4.44710457816E-01 -3.23791783293E-01 -2.40081252567E-03 -2.44787537594E-04 -2.37562878062E-03 -2.75563658066E-04 +6.16669583705E-01 -1.97896276844E-01
2.87000000000E+09 +4.19248438395E-01 -3.36777745279E-01 -2.50825614727E-03 +7.11358293792E-04 -2.51558803986E-03 +7.19969048879E-04 +5.98041344992E-01 -2.17061388365E-01
2.87500000000E+09 +3.95094974400E-01 -3.49485446730E-01 -1.97993422259E-03 +6.67265105549E-04 -2.01394873169E-03 +7.71391466733E-04 +5.79322521425E-01 -2.36857564018E-01
2.88000000000E+09 +3.69748862428E-01 -3.62245206400E-01 -2.00822428606E-03 +7.07192749601E-04 -1.92974887257E-03 +7.14391533225E-04 +5.58332214276E-01 -2.56704775392E-01
2.88500000000E+09 +3.42991362965E-01 -3.73362318484E-01 -1.83699565308E-03 +9.19207226124E-04 -1.73391446968E-03 +8.85533666782E-04 +5.34812943994E-01 -2.75328326474E-01
2.89000000000E+09 +3.15095164749E-01 -3.82730825518E-01 -1.87806911105E-03 +4.48514542140E-04 -1.84007367317E-03 +3.77406224982E-04 +5.10404908838E-01 -2.92649596667E-01
2.89500000000E+09 +2.85307141345E-01 -3.90566181843E-01 -2.66359724375E-03 +8.25133722315E-04 -2.63123034768E-03 +7.31875159927E-04 +4.83837979219E-01 -3.10420565402E-01
2.90000000000E+09 +2.53861790290E-01 -3.95968775664E-01 -2.67977065685E-03 +1.74775655708E-03 -2.77359042771E-03 +1.61139326283E-03 +4.55819391439E-01 -3.26261661614E-01
2.90500000000E+09 +2.20792000313E-01 -3.98790217481E-01 -2.32511413323E-03 +2.28018970523E-03 -2.43390175906E-03 +2.34367349093E-03 +4.26916774823E-01 -3.42624625681E-01
2.91000000000E+09 +1.86540003749E-01 -3.99301169826E-01 -1.47823393833E-03 +2.42622266106E-03 -1.42935991954E-03 +2.52814025775E-03 +3.95583838666E-01 -3.57182050155E-01
2.91500000000E+09 +1.52223787713E-01 -3.97500972228E-01 -1.69770431299E-03 +2.03501654648E-03 -1.52197871545E-03 +1.98049309599E-03 +3.63210215034E-01 -3.69332161486E-01
2.92000000000E+09 +1.17186691601E-01 -3.93654581997E-01 -1.84187926285E-03 +2.78207928528E-03 -1.77108014515E-03 +2.56403998212E-03 +3.30416306642E-01 -3.79439500752E-01
2.92500000000E+09 +8.21559454896E-02 -3.88742733750E-01 -1.11894172526E-03 +3.11348252838E-03 -1.18990359908E-03 +2.87535046805E-03 +2.95130207259E-01 -3.87948333389E-01
2.93000000000E+09 +4.63838507957E-02 -3.81092673429E-01 -8.85529359381E-04 +2.90566064189E-03 -1.06910433188E-03 +2.82064443370E-03 +2.58693485712E-01 -3.94810557941E-01
2.93500000000E+09 +1.07338892437E-02 -3.71364518567E-01 -8.14058378197E-04 +3.27647651490E-03 -8.79319955916E-04 +3.25801713373E-03 +2.19804348757E-01 -4.00162805044E-01
2.94000000000E+09 -2.37171907576E-02 -3.58759504759E-01 -9.03576487867E-04 +3.34603276430E-03 -1.00440333447E-03 +3.34081605943E-03 +1.80253449191E-01 -4.01711983369E-01
2.94500000000E+09 -5.73875068302E-02 -3.44168162806E-01 -4.14906075206E-04 +4.80190804649E-03 -4.67443834785E-04 +4.76798348105E-03 +1.42003537069E-01 -4.02639651755E-01
2.95000000000E+09 -9.02290487950E-02 -3.26787933888E-01 +1.43755838429E-03 +4.54447270671E-03 +1.27716551289E-03 +4.59884152541E-03 +1.01333330588E-01 -4.01707310740E-01
2.95500000000E+09 -1.21600535338E-01 -3.06982487462E-01 +2.00033987342E-03 +3.84555530364E-03 +1.93804831181E-03 +3.97844212039E-03 +5.95929069549E-02 -3.95321766712E-01
2.96000000000E+09 -1.52174828126E-01 -2.84538090102E-01 +2.06265989034E-03 +3.11173202351E-03 +2.10164070413E-03 +3.27563206798E-03 +1.97244835984E-02 -3.85614562553E-01
2.96500000000E+09 -1.81776381637E-01 -2.58984671798E-01 +2.03658312568E-03 +3.23407941123E-03 +2.15592045413E-03 +3.24707020508E-03 -2.07213166248E-02 -3.72919725381E-01
2.97000000000E+09 -2.08652660170E-01 -2.29573364532E-01 +2.24016377141E-03 +3.48765470564E-03 +2.33608086281E-03 +3.42296380779E-03 -5.93584137971E-02 -3.58684249390E-01
2.97500000000E+09 -2.32658162073E-01 -1.99088035170E-01 +3.45423559533E-03 +3.93363812966E-03 +3.35385677274E-03 +3.76288666502E-03 -9.95480210408E-02 -3.43308511338E-01
2.98000000000E+09 -2.54798040589E-01 -1.67777817653E-01 +4.63419537239E-03 +2.93133461009E-03 +4.45737788253E-03 +3.02655815550E-03 -1.39467946352E-01 -3.23611707788E-01
2.98500000000E+09 -2.76040002353E-01 -1.35828120737E-01 +5.17960944297E-03 +1.65687189701E-03 +5.18996484913E-03 +1.96260750436E-03 -1.77487600874E-01 -2.98778282723E-01
2.99000000000E+09 -2.95621468928E-01 -1.02125002108E-01 +4.71948224578E-03 +3.98499447319E-04 +4.90851805764E-03 +4.83472295916E-04 -2.10843100997E-01 -2.72378461220E-01
2.99500000000E+09 -3.12518305947E-01 -6.76524962487E-02 +4.26319121088E-03 +4.15870522109E-04 +4.43630062332E-03 +3.18090454537E-04 -2.44273753014E-01 -2.44500829332E-01
3.00000000000E+09 -3.26972104321E-01 -3.28379910243E-02 +4.68015217264E-03 +4.26440850233E-04 +4.60829317205E-03 +1.89498465549E-04 -2.76445057063E-01 -2.13236889746E-01
3.00500000000E+09 -3.38704474833E-01 +9.25951077485E-04 +5.38884676276E-03 -3.78221222936E-04 +5.15584898979E-03 -5.12622287447E-04 -3.05477373449E-01 -1.79218230721E-01
3.01000000000E+09 -3.47743566373E-01 +3.45414604659E-02 +5.35158576451E-03 -1.99108577437E-03 +5.10723010425E-03 -1.75572307916E-03 -3.32511512419E-01 -1.44089627943E-01
3.01500000000E+09 -3.54808583072E-01 +6.76182984095E-02 +4.41255831224E-03 -2.79320649064E-03 +4.40966235431E-03 -2.61420938674E-03 -3.55602026315E-01 -1.07302111717E-01
3.02000000000E+09 -3.58205870696E-01 +1.00756342029E-01 +3.56033513913E-03 -2.97307896003E-03 +3.72098690886E-03 -2.93312651234E-03 -3.76183134223E-01 -7.04931230263E-02
3.02500000000E+09 -3.58767272706E-01 +1.33279512450E-01 +3.83214859589E-03 -3.13201897039E-03 +3.94097642912E-03 -3.17725194032E-03 -3.94766871375E-01 -3.09772539545E-02
3.03000000000E+09 -3.55515803950E-01 +1.65676730110E-01 +3.10381758888E-03 -4.37703307556E-03 +3.18994842483E-03 -4.39294574720E-03 -4.09003603127E-01 +1.03135816174E-02
3.03500000000E+09 -3.49558697407E-01 +1.95585263190E-01 +1.82923605127E-03 -4.97921077697E-03 +1.89293093861E-03 -4.95997652300E-03 -4.19084240434E-01 +5.11293270262E-02
3.04000000000E+09 -3.42825277203E-01 +2.25830713806E-01 +1.63737099624E-04 -4.20021469111E-03 +3.62484759837E-04 -4.31927570515E-03 -4.26919725279E-01 +9.11202180445E-02
3.04500000000E+09 -3.33945648276E-01 +2.55811758846E-01 +4.14006643563E-04 -2.96740219978E-03 +4.69535530223E-04 -3.19884513764E-03 -4.32995803364E-01 +1.30542407195E-01
3.05000000000E+09 -3.22984613620E-01 +2.85937815973E-01 +9.11181194880E-04 -3.09163936069E-03 +8.21966667081E-04 -3.27214055327E-03 -4.37573105175E-01 +1.70811532532E-01
3.05500000000E+09 -3.09795554959E-01 +3.15009898689E-01 +1.14334066262E-03 -3.91111579382E-03 +8.82668237892E-04 -3.98503769735E-03 -4.36951894314E-01 +2.11818708394E-01
3.06000000000E+09 -2.95745435557E-01 +3.42255155999E-01 +6.85673502280E-05 -5.02810249307E-03 -1.62358312959E-04 -4.84702698908E-03 -4.33507811479E-01 +2.49366387822E-01
3.06500000000E+09 -2.81056400792E-01 +3.67899833578E-01 -1.94499327692E-03 -4.43047367665E-03 -1.84301191798E-03 -4.23218089838E-03 -4.28828463335E-01 +2.85992645555E-01
3.07000000000E+09 -2.66405029277E-01 +3.92310937600E-01 -2.30429266157E-03 -2.81895964894E-03 -2.07647941546E-03 -2.82532716452E-03 -4.23242753161E-01 +3.21043340091E-01
