# Hz S RI R 50
! CMT, C1220, 16058040, 17.2.0/1
! Date: 15/08/2018 10:12:16
! Data: Format (Calibration Info)
! Freq                      S11: Re/Im (F2)                       S21: Re/Im (F2)                       S12: Re/Im (F2)                       S22: Re/Im (F2)            
2.50000000000E+09 +5.99529957201E-01 +6.37171698401E-01 -5.52584602649E-04 -3.85830369545E-04 -6.21552833359E-04 -4.20211617380E-04 +5.72741364265E-01 +7.16704890679E-01
2.50500000000E+09 +6.05788093761E-01 +6.29655381588E-01 -4.99227298931E-04 -3.66273221424E-04 -5.76272165558E-04 -3.11820401778E-04 +5.78416499566E-01 +7.11265494654E-01
2.51000000000E+09 +6.12349933846E-01 +6.21658770744E-01 -5.53295490187E-04 -3.34197119822E-04 -5.57176917968E-04 -3.18006274049E-04 +5.84088207031E-01 +7.06069927622E-01
2.51500000000E+09 +6.18675253303E-01 +6.13534356670E-01 -6.58442749514E-04 -2.95477076263E-04 -6.39500506850E-04 -2.72771347451E-04 +5.89514730732E-01 +7.00680987953E-01
2.52000000000E+09 +6.24605716406E-01 +6.05417816802E-01 -6.74067288170E-04 -2.27813692801E-04 -6.06057204548E-04 -2.24524585966E-04 +5.94713424087E-01 +6.94735738052E-01
2.52500000000E+09 +6.29441584592E-01 +5.97799584020E-01 -7.31671234388E-04 -1.44013099929E-04 -7.11832205657E-04 -1.44726976390E-04 +6.00516453388E-01 +6.88309947885E-01
2.53000000000E+09 +6.34343288146E-01 +5.90558310221E-01 -7.09899135545E-04 -4.25121086218E-05 -6.89886777058E-04 -4.17903154310E-05 +6.06404524611E-01 +6.81321994959E-01
2.53500000000E+09 +6.38620421399E-01 +5.84110886385E-01 -6.87816168621E-04 -2.58976256960E-05 -6.82235267955E-04 +1.19361110084E-05 +6.12465455197E-01 +6.74533950171E-01
2.54000000000E+09 +6.42779048913E-01 +5.77877973594E-01 -7.00841439367E-04 -4.44771533629E-05 -6.70911323014E-04 -6.82893429327E-05 +6.18436255361E-01 +6.67767577862E-01
2.54500000000E+09 +6.47179082883E-01 +5.71896235444E-01 -7.85451158398E-04 +1.34494190320E-04 -7.92614307842E-04 +5.29443825080E-05 +6.24215600355E-01 +6.61236819095E-01
2.55000000000E+09 +6.51975597883E-01 +5.65631929479E-01 -6.93527501304E-04 +2.22955913567E-04 -7.47666537479E-04 +1.50848306657E-04 +6.29625965803E-01 +6.55007494797E-01
2.55500000000E+09 +6.57180921111E-01 +5.58814185216E-01 -6.49057826972E-04 +2.76449608105E-04 -7.71859413620E-04 +2.80492346615E-04 +6.34724332144E-01 +6.48416274835E-01
2.56000000000E+09 +6.63054856227E-01 +5.51977262437E-01 -5.42589298089E-04 +2.58310980680E-04 -6.50485278188E-04 +4.35119380540E-04 +6.40071000452E-01 +6.41271866281E-01
2.56500000000E+09 +6.69260551283E-01 +5.43921465898E-01 -5.59710672262E-04 +1.83799729863E-04 -5.46252760001E-04 +2.66727168692E-04 +6.45757162187E-01 +6.33781028599E-01
2.57000000000E+09 +6.75626269900E-01 +5.35585298496E-01 -7.02868706463E-04 +1.35307912895E-04 -6.55795840013E-04 +3.26265243199E-04 +6.50924809809E-01 +6.25642600743E-01
2.57500000000E+09 +6.81466000571E-01 +5.26545284769E-01 -8.69441113905E-04 +3.83116366702E-04 -6.94323521235E-04 +4.49738981053E-04 +6.56251111231E-01 +6.18101173814E-01
2.58000000000E+09 +6.86709847722E-01 +5.17905603131E-01 -8.05148217004E-04 +6.91913304827E-04 -6.05246735021E-04 +6.25105623220E-04 +6.61255305174E-01 +6.10488420285E-01
2.58500000000E+09 +6.91608369590E-01 +5.09266212160E-01 -5.78456299216E-04 +7.24836724092E-04 -5.43357437322E-04 +6.17374338014E-04 +6.66114828963E-01 +6.03010020377E-01
2.59000000000E+09 +6.95977288686E-01 +5.00722557754E-01 -4.31686978525E-04 +7.63618000720E-04 -4.55903115288E-04 +6.12713150046E-04 +6.70988681394E-01 +5.95518406882E-01
2.59500000000E+09 +7.00308468391E-01 +4.92421835202E-01 -4.03930491973E-04 +7.17551940149E-04 -4.82071337422E-04 +6.50996442357E-04 +6.75791845538E-01 +5.87377205057E-01
2.60000000000E+09 +7.04281998413E-01 +4.83843669183E-01 -4.57536604408E-04 +6.76889821691E-04 -4.57683545429E-04 +6.88600787504E-04 +6.80789209199E-01 +5.78977699240E-01
2.60500000000E+09 +7.08576025124E-01 +4.74586407042E-01 -5.22423710613E-04 +7.98669865580E-04 -5.41731413952E-04 +7.83107556001E-04 +6.86098945519E-01 +5.70192399312E-01
2.61000000000E+09 +7.12645903067E-01 +4.64545406842E-01 -3.79091021369E-04 +1.11005843788E-03 -4.18892526689E-04 +1.09984548190E-03 +6.90829411882E-01 +5.61496846706E-01
2.61500000000E+09 +7.17181747670E-01 +4.53590477811E-01 -4.34380638694E-05 +1.11404682378E-03 -9.64809898968E-05 +1.07581396750E-03 +6.95907654394E-01 +5.52875149288E-01
2.62000000000E+09 +7.21374786399E-01 +4.41449762249E-01 +4.85449246779E-05 +9.78847094763E-04 +7.02650585830E-05 +1.03614239292E-03 +7.00392288505E-01 +5.43768866907E-01
2.62500000000E+09 +7.25404420961E-01 +4.28379736534E-01 +7.43868903130E-05 +9.15468322070E-04 +1.32395244530E-04 +9.27807953986E-04 +7.05136223110E-01 +5.35222801174E-01
2.63000000000E+09 +7.28945536744E-01 +4.15031055556E-01 +7.27419813354E-05 +8.83264922883E-04 +1.92252324685E-04 +8.90733969358E-04 +7.10110668822E-01 +5.26069765457E-01
2.63500000000E+09 +7.31982215491E-01 +4.01905873476E-01 +1.10498706451E-04 +9.59006715101E-04 +1.50653542378E-04 +8.69782579310E-04 +7.14975450242E-01 +5.16606734772E-01
2.64000000000E+09 +7.34788681579E-01 +3.89144685450E-01 +2.21434532507E-04 +1.06730505290E-03 +2.08112793635E-04 +9.16470532420E-04 +7.19754810003E-01 +5.06773790870E-01
2.64500000000E+09 +7.37571130252E-01 +3.77007815822E-01 +4.78653194363E-04 +9.81921166009E-04 +3.55568090487E-04 +9.30681465321E-04 +7.24142651256E-01 +4.97113384733E-01
2.65000000000E+09 +7.40157788267E-01 +3.65181331366E-01 +4.64633075252E-04 +8.00894056370E-04 +3.07203176314E-04 +9.08785448717E-04 +7.28233946210E-01 +4.87275716820E-01
2.65500000000E+09 +7.42461735531E-01 +3.53398480956E-01 +4.37784681154E-04 +8.36495551535E-04 +4.23965994744E-04 +9.75872454393E-04 +7.32685337754E-01 +4.77224118528E-01
2.66000000000E+09 +7.44638110438E-01 +3.41750384412E-01 +5.37005449887E-04 +9.61471096055E-04 +6.11039910617E-04 +9.54035834464E-04 +7.37101223153E-01 +4.65755316393E-01
2.66500000000E+09 +7.47019843665E-01 +3.30277781068E-01 +5.27781093517E-04 +9.73195224872E-04 +6.37970376136E-04 +9.97244403195E-04 +7.41203116725E-01 +4.54345414357E-01
2.67000000000E+09 +7.49157996623E-01 +3.17695147105E-01 +8.81009607672E-04 +1.12791437433E-03 +9.27427295344E-04 +1.01382793289E-03 +7.45356791533E-01 +4.43311459174E-01
2.67500000000E+09 +7.50561962788E-01 +3.04366116852E-01 +1.16358613252E-03 +7.97484167755E-04 +1.09798741561E-03 +7.50739800201E-04 +7.49197097982E-01 +4.32160755452E-01
2.68000000000E+09 +7.51303579744E-01 +2.90716821869E-01 +1.06732246626E-03 +5.93531498953E-04 +1.00425245260E-03 +5.66489328484E-04 +7.53111032890E-01 +4.21065379041E-01
2.68500000000E+09 +7.51521373285E-01 +2.76871586920E-01 +1.02990202265E-03 +6.01302998045E-04 +1.03530489186E-03 +5.97861119579E-04 +7.56336541492E-01 +4.09571061313E-01
2.69000000000E+09 +7.51396314285E-01 +2.63008305605E-01 +1.17082152116E-03 +6.38300684197E-04 +1.16727830523E-03 +6.75260128388E-04 +7.59041366235E-01 +3.97455790562E-01
2.69500000000E+09 +7.51101821839E-01 +2.49603002403E-01 +1.39754975804E-03 +5.81589424629E-04 +1.43994949481E-03 +5.28904762317E-04 +7.61653956387E-01 +3.84600500420E-01
2.70000000000E+09 +7.51227546341E-01 +2.36284340657E-01 +1.67078704123E-03 +4.15690087676E-04 +1.57270021969E-03 +3.77967588746E-04 +7.64351712024E-01 +3.71258509917E-01
2.70500000000E+09 +7.51415308046E-01 +2.23238472852E-01 +1.73328578916E-03 -4.88664738335E-06 +1.67032390062E-03 +5.75869014596E-05 +7.67195235384E-01 +3.57992505697E-01
2.71000000000E+09 +7.51804469109E-01 +2.10109065428E-01 +1.67629341828E-03 -1.54366221550E-04 +1.65720272172E-03 -1.45201239465E-04 +7.70186502616E-01 +3.44550995883E-01
2.71500000000E+09 +7.52915546337E-01 +1.96661081453E-01 +1.56748884001E-03 -4.30898428420E-04 +1.66269951973E-03 -4.35526198043E-04 +7.72377774078E-01 +3.31847984822E-01
2.72000000000E+09 +7.53945962646E-01 +1.82582747869E-01 +1.40626353259E-03 -5.98945298698E-04 +1.47871505587E-03 -7.04876545378E-04 +7.74362970228E-01 +3.19155157634E-01
2.72500000000E+09 +7.54851007889E-01 +1.67342370416E-01 +1.28386952795E-03 -6.58820980083E-04 +1.12897467867E-03 -7.84031500258E-04 +7.75535595246E-01 +3.05916078926E-01
2.73000000000E+09 +7.54669173434E-01 +1.50892485570E-01 +1.23913185091E-03 -5.76763117112E-04 +1.10949564573E-03 -6.09454268154E-04 +7.76987761678E-01 +2.91908331102E-01
2.73500000000E+09 +7.52684069310E-01 +1.33726158540E-01 +1.32721862257E-03 -7.53556439448E-04 +1.14032211382E-03 -6.61129042138E-04 +7.78233691781E-01 +2.76721501919E-01
2.74000000000E+09 +7.49590983453E-01 +1.17554660563E-01 +1.45527235849E-03 -9.69679923677E-04 +1.31333719804E-03 -7.33266285210E-04 +7.79464868814E-01 +2.61287844323E-01
2.74500000000E+09 +7.46110695534E-01 +1.01011049381E-01 +1.34024621422E-03 -1.29864373686E-03 +1.45337392062E-03 -1.04621136585E-03 +7.80225519085E-01 +2.46193959666E-01
2.75000000000E+09 +7.41813482410E-01 +8.44621731146E-02 +9.57778096862E-04 -1.48987459787E-03 +1.12477106198E-03 -1.40177289829E-03 +7.80663872664E-01 +2.31275368060E-01
2.75500000000E+09 +7.36971125533E-01 +6.80779239492E-02 +7.46803480477E-04 -1.31460825664E-03 +9.30743408579E-04 -1.34531325187E-03 +7.80902611453E-01 +2.16360743488E-01
2.76000000000E+09 +7.32137960244E-01 +5.18841115573E-02 +9.01041591300E-04 -1.28810264996E-03 +1.02203329741E-03 -1.36220008141E-03 +7.80440818610E-01 +2.00312534849E-01
2.76500000000E+09 +7.27387885418E-01 +3.56534916046E-02 +7.96530170409E-04 -1.66307025864E-03 +8.37302730882E-04 -1.75390065532E-03 +7.78912949844E-01 +1.83181405223E-01
2.77000000000E+09 +7.23225485636E-01 +1.83749466515E-02 +5.59417174124E-04 -1.73771315413E-03 +5.65077853028E-04 -1.84933502800E-03 +7.77298523079E-01 +1.66107504821E-01
2.77500000000E+09 +7.19011076708E-01 -1.56594396539E-05 +3.49282173793E-04 -1.87387493032E-03 +3.45832523027E-04 -1.98785218425E-03 +7.75495928436E-01 +1.47840797581E-01
2.78000000000E+09 +7.14237531740E-01 -1.99953768062E-02 +8.61620943123E-05 -1.96824685594E-03 -5.70077714075E-05 -1.92579898350E-03 +7.73121542741E-01 +1.29873443982E-01
2.78500000000E+09 +7.07842621084E-01 -4.06632296361E-02 -9.31855035918E-05 -1.72220368818E-03 -1.81859406039E-04 -1.67834865576E-03 +7.70308377757E-01 +1.12187678449E-01
2.79000000000E+09 +7.00576214201E-01 -6.18070287496E-02 -4.62898959109E-05 -1.91134437599E-03 -1.26895741006E-04 -1.82275332842E-03 +7.66556001878E-01 +9.50389466605E-02
2.79500000000E+09 +6.91642605757E-01 -8.22843765448E-02 -5.58788218793E-04 -2.06996732737E-03 -5.01594745552E-04 -1.94413463595E-03 +7.62102895933E-01 +7.77194031266E-02
2.80000000000E+09 +6.81981319048E-01 -1.02360532103E-01 -7.71813058843E-04 -1.70438282839E-03 -6.32008964619E-04 -1.66545275338E-03 +7.57546530466E-01 +5.95976393286E-02
2.80500000000E+09 +6.71020945603E-01 -1.21744814685E-01 -8.22826081000E-04 -1.82323288388E-03 -7.47462476451E-04 -1.88877326908E-03 +7.51971969445E-01 +4.04448477083E-02
2.81000000000E+09 +6.59320138023E-01 -1.39976426922E-01 -1.14297816470E-03 -1.62353980695E-03 -1.10610132313E-03 -1.68437908848E-03 +7.45374107799E-01 +2.11322828424E-02
2.81500000000E+09 +6.46462147872E-01 -1.57401441074E-01 -1.18184102118E-03 -1.43878331614E-03 -1.29088787417E-03 -1.45430492156E-03 +7.38121611638E-01 +1.77418894236E-03
2.82000000000E+09 +6.32891486975E-01 -1.74163668689E-01 -1.26288473991E-03 -1.63701284795E-03 -1.36595849833E-03 -1.52965821582E-03 +7.30247989093E-01 -1.72892099536E-02
2.82500000000E+09 +6.18615095728E-01 -1.90657338890E-01 -1.76881259473E-03 -1.63271884559E-03 -1.76321239065E-03 -1.44805417177E-03 +7.21742838917E-01 -3.67931966789E-02
2.83000000000E+09 +6.02936707478E-01 -2.08757811339E-01 -2.18806230317E-03 -8.40331674166E-04 -2.03790912753E-03 -8.35353701191E-04 +7.12291404963E-01 -5.61689005917E-02
2.83500000000E+09 +5.84669157103E-01 -2.27109306357E-01 -1.73410017423E-03 -3.33188135721E-04 -1.72805980412E-03 -3.70884625051E-04 +7.02504802164E-01 -7.64147928956E-02
2.84000000000E+09 +5.64109285995E-01 -2.44918240375E-01 -1.34164899052E-03 -3.27629723767E-04 -1.32985414540E-03 -3.27281270329E-04 +6.90939785797E-01 -9.76188428719E-02
2.84500000000E+09 +5.42238927183E-01 -2.62698482183E-01 -1.18718237029E-03 -6.62668434530E-04 -1.13964612445E-03 -6.06880532125E-04 +6.78121480711E-01 -1.17905788204E-01
2.85000000000E+09 +5.18785970974E-01 -2.80119292838E-01 -1.68491638484E-03 -8.56281445988E-04 -1.63096711999E-03 -8.84912556519E-04 +6.64595649548E-01 -1.38384207660E-01
2.85500000000E+09 +4.94787412606E-01 -2.97290284449E-01 -1.88426623640E-03 -3.60828810126E-04 -1.83869262447E-03 -3.59803978544E-04 +6.49486894457E-01 -1.58929182495E-01
2.86000000000E+09 +4.69518991540E-01 -3.14299868833E-01 -1.57043324432E-03 -3.42589868472E-04 -1.50566824138E-03 -4.07197505505E-04 +6.32823376798E-01 -1.78844207710E-01
2.86500000000E+09 +4.43123319761E-01 -3.29784581325E-01 -1.92600714616E-03 -5.35951549918E-04 -1.89282568503E-03 -5.63579189081E-04 +6.15231781583E-01 -1.98616066425E-01
2.87000000000E+09 +4.16819379957E-01 -3.43073407586E-01 -2.21338820925E-03 +6.33653407698E-05 -2.27991927157E-03 -2.70473522721E-06 +5.96761652150E-01 -2.17411591709E-01
2.87500000000E+09 +3.92054430396E-01 -3.55416639527E-01 -2.01561119931E-03 +1.26610305610E-04 -2.00500420545E-03 +1.66179284178E-04 +5.78029597166E-01 -2.37249800183E-01
2.88000000000E+09 +3.66124856632E-01 -3.67827636685E-01 -2.13029860816E-03 +1.51223058128E-04 -2.02929995837E-03 +2.25080354430E-04 +5.56792652683E-01 -2.57080554442E-01
2.88500000000E+09 +3.39298206595E-01 -3.78940261175E-01 -1.97208552746E-03 +4.84938997694E-04 -1.80837121007E-03 +4.67505389458E-04 +5.33482824187E-01 -2.75235242091E-01
2.89000000000E+09 +3.10714787186E-01 -3.88616859692E-01 -1.99938362562E-03 +6.81402197406E-05 -1.88534578187E-03 +3.10443899484E-05 +5.09179767880E-01 -2.92715148749E-01
2.89500000000E+09 +2.80043601162E-01 -3.96455929842E-01 -2.69671735377E-03 +2.63767489883E-04 -2.58789462412E-03 +1.66133231119E-04 +4.82139666275E-01 -3.10305540365E-01
2.90000000000E+09 +2.47711053904E-01 -4.01497379327E-01 -3.09765186090E-03 +9.88666640770E-04 -3.17611854644E-03 +8.73824315337E-04 +4.54254970252E-01 -3.25715006959E-01
2.90500000000E+09 +2.13989553835E-01 -4.03695926771E-01 -2.94498190536E-03 +1.81379430106E-03 -3.04770406393E-03 +1.83924190379E-03 +4.25429283001E-01 -3.41917620023E-01
2.91000000000E+09 +1.79609149913E-01 -4.03985203753E-01 -2.14099636909E-03 +2.24375849083E-03 -2.07791589151E-03 +2.26585001383E-03 +3.94159408652E-01 -3.56460426029E-01
2.91500000000E+09 +1.44637799333E-01 -4.01813564385E-01 -2.45841769529E-03 +1.84426091064E-03 -2.26521473952E-03 +1.87589818561E-03 +3.61765122258E-01 -3.68319149702E-01
2.92000000000E+09 +1.09025188784E-01 -3.97715406560E-01 -2.67763341742E-03 +3.02809313115E-03 -2.53055280954E-03 +2.83214627241E-03 +3.29093269509E-01 -3.78150520760E-01
2.92500000000E+09 +7.32242390634E-02 -3.91742721330E-01 -1.71828535869E-03 +3.31452453828E-03 -1.73193674056E-03 +3.09105714377E-03 +2.93935958118E-01 -3.86636688447E-01
2.93000000000E+09 +3.72853136811E-02 -3.83413271081E-01 -1.34554587616E-03 +3.29447059774E-03 -1.54557119117E-03 +3.20928163954E-03 +2.57395923521E-01 -3.93370740162E-01
2.93500000000E+09 +1.44657369874E-03 -3.73008136922E-01 -9.70410971931E-04 +3.58538561442E-03 -1.18339139981E-03 +3.59784191501E-03 +2.18755577575E-01 -3.98046090192E-01
2.94000000000E+09 -3.34864848845E-02 -3.59510610874E-01 -1.03503218234E-03 +3.47293424873E-03 -1.15943531113E-03 +3.55424523425E-03 +1.79797889856E-01 -3.99253862481E-01
2.94500000000E+09 -6.72076433006E-02 -3.43812686334E-01 -8.66626977310E-04 +4.66332283177E-03 -1.02245790715E-03 +4.69974651436E-03 +1.42020297819E-01 -4.00410873882E-01
2.95000000000E+09 -9.99812293833E-02 -3.25830937534E-01 +8.13952815668E-04 +4.97459318026E-03 +6.62396725385E-04 +5.03892907732E-03 +1.01712152761E-01 -3.99465993350E-01
2.95500000000E+09 -1.31366870863E-01 -3.04825672418E-01 +1.74891333460E-03 +4.32844765787E-03 +1.59584603109E-03 +4.46750582821E-03 +6.03846731277E-02 -3.93344470869E-01
2.96000000000E+09 -1.61689693325E-01 -2.81595561470E-01 +1.96002814262E-03 +3.74035639095E-03 +2.01032537598E-03 +3.93511443624E-03 +2.03975567340E-02 -3.83543857671E-01
2.96500000000E+09 -1.91103721955E-01 -2.55070093663E-01 +2.11213758071E-03 +3.42693415653E-03 +2.28679660059E-03 +3.52192582468E-03 -1.92636003344E-02 -3.70792349461E-01
2.97000000000E+09 -2.18005525755E-01 -2.24588566021E-01 +2.13215248067E-03 +3.59761336436E-03 +2.27498682949E-03 +3.51790813411E-03 -5.75878965275E-02 -3.57337846204E-01
2.97500000000E+09 -2.41197741215E-01 -1.92866071339E-01 +2.84184547450E-03 +4.01094570524E-03 +2.76407213760E-03 +3.84999161029E-03 -9.79146071165E-02 -3.42107785759E-01
2.98000000000E+09 -2.62642979964E-01 -1.60850196746E-01 +4.12801123838E-03 +3.61593490204E-03 +3.88763756517E-03 +3.61501041850E-03 -1.37426450258E-01 -3.22593933454E-01
2.98500000000E+09 -2.83061082204E-01 -1.28197961119E-01 +4.95879756744E-03 +2.50211937792E-03 +4.92053797729E-03 +2.69687184018E-03 -1.75202077708E-01 -2.98345437243E-01
2.99000000000E+09 -3.02116306855E-01 -9.42009326831E-02 +4.73163129985E-03 +1.24894952312E-03 +4.94805446735E-03 +1.37692525194E-03 -2.08923114075E-01 -2.72667430532E-01
2.99500000000E+09 -3.18527758245E-01 -5.89847020716E-02 +4.31403576868E-03 +1.32242215517E-03 +4.48308377810E-03 +1.23906120541E-03 -2.42884257946E-01 -2.44843328754E-01
3.00000000000E+09 -3.31951277447E-01 -2.35152639248E-02 +5.22268537242E-03 +1.42976483633E-03 +5.28774270549E-03 +1.18991748601E-03 -2.74897346047E-01 -2.13266540868E-01
3.00500000000E+09 -3.42403208554E-01 +1.04613193056E-02 +6.03791390510E-03 +1.58693139287E-04 +5.78178348296E-03 +1.40824112670E-05 -3.03928856685E-01 -1.79992856087E-01
3.01000000000E+09 -3.50793750260E-01 +4.37726250453E-02 +5.91748758406E-03 -1.52058707309E-03 +5.67185616741E-03 -1.39733528419E-03 -3.31443738764E-01 -1.44916159253E-01
3.01500000000E+09 -3.57283714085E-01 +7.70803145202E-02 +5.05152558246E-03 -2.46011963186E-03 +5.07737412997E-03 -2.27519865668E-03 -3.54490208922E-01 -1.07836218502E-01
3.02000000000E+09 -3.60033465183E-01 +1.10261783641E-01 +3.95382704690E-03 -2.81784071706E-03 +4.13860129412E-03 -2.72507960328E-03 -3.74978657287E-01 -7.15913505395E-02
3.02500000000E+09 -3.59416262860E-01 +1.42842896611E-01 +4.19523113078E-03 -2.48370240450E-03 +4.28751216267E-03 -2.43300282600E-03 -3.94307890512E-01 -3.22389654121E-02
3.03000000000E+09 -3.55661228590E-01 +1.74689771505E-01 +4.20146922966E-03 -3.76024079371E-03 +4.30841013422E-03 -3.74089827377E-03 -4.08489988387E-01 +9.71109656002E-03
3.03500000000E+09 -3.48926100871E-01 +2.04564132154E-01 +3.18776822227E-03 -4.99033647578E-03 +3.28942056277E-03 -4.94229033510E-03 -4.18498522559E-01 +5.03030723777E-02
3.04000000000E+09 -3.41487850487E-01 +2.34340463722E-01 +1.24323366797E-03 -4.97957517928E-03 +1.44355106145E-03 -5.10630375361E-03 -4.26638939460E-01 +9.02912706553E-02
3.04500000000E+09 -3.31802408595E-01 +2.63780660137E-01 +6.56954228274E-04 -3.67007791789E-03 +8.15837965272E-04 -3.87323909668E-03 -4.32596235913E-01 +1.30004416822E-01
3.05000000000E+09 -3.20426051498E-01 +2.93399671861E-01 +1.13808852879E-03 -3.32346487918E-03 +1.09990475503E-03 -3.55081686021E-03 -4.36806947222E-01 +1.70177847835E-01
3.05500000000E+09 -3.06827383940E-01 +3.22131399634E-01 +1.61048149270E-03 -3.93746055282E-03 +1.40263713366E-03 -4.09915907134E-03 -4.36072038061E-01 +2.10777172798E-01
3.06000000000E+09 -2.92076109726E-01 +3.48555867237E-01 +7.48605183705E-04 -5.44492478147E-03 +4.27271765503E-04 -5.23743776625E-03 -4.32856353194E-01 +2.47907386522E-01
3.06500000000E+09 -2.77389798304E-01 +3.73879957638E-01 -1.44615523942E-03 -4.91294561086E-03 -1.30058602482E-03 -4.63490316706E-03 -4.28855084740E-01 +2.84356335336E-01
3.07000000000E+09 -2.62358948900E-01 +3.97847738731E-01 -1.84971108982E-03 -3.53225726084E-03 -1.64332319036E-03 -3.57140678194E-03 -4.23598315550E-01 +3.19701167571E-01
