# Hz S RI R 50
! CMT, C1220, 16058040, 17.2.0/1
! Date: 15/08/2018 10:06:58
! Data: Format (Calibration Info)
! Freq                      S11: Re/Im (F2)                       S21: Re/Im (F2)                       S12: Re/Im (F2)                       S22: Re/Im (F2)            
2.50000000000E+09 +5.98970921704E-01 +6.32301890307E-01 -5.07873681759E-04 -2.29068192486E-04 -5.89623567449E-04 -1.89644531065E-04 +5.72652366485E-01 +7.17504753632E-01
2.50500000000E+09 +6.05286425066E-01 +6.24735740569E-01 -4.73264871754E-04 -2.18064793055E-04 -5.47286063799E-04 -2.09148803181E-04 +5.78217204554E-01 +7.12010670292E-01
2.51000000000E+09 +6.11759083592E-01 +6.16612315411E-01 -4.90944964327E-04 -1.99255447868E-04 -5.23162341845E-04 -1.64979988702E-04 +5.83952972634E-01 +7.06794539071E-01
2.51500000000E+09 +6.18128436270E-01 +6.08583367819E-01 -6.06927585185E-04 -2.21872713059E-04 -5.43635407234E-04 -1.91903603915E-04 +5.89249133207E-01 +7.01283418692E-01
2.52000000000E+09 +6.23816120237E-01 +6.00332754696E-01 -6.53940570507E-04 -1.22069306287E-04 -6.35771780737E-04 -1.70004968961E-04 +5.94510961509E-01 +6.95452872214E-01
2.52500000000E+09 +6.28679791574E-01 +5.92803989007E-01 -7.16754331346E-04 -2.90149764983E-05 -7.05274579159E-04 -6.17422021383E-05 +6.00275472187E-01 +6.88807318405E-01
2.53000000000E+09 +6.33126297337E-01 +5.85837631879E-01 -6.66197415674E-04 +1.07048878061E-04 -7.02662815357E-04 +1.36277047081E-04 +6.06346511024E-01 +6.81767626149E-01
2.53500000000E+09 +6.37282448839E-01 +5.79421795739E-01 -6.35845796121E-04 +1.43494101950E-04 -6.49133875238E-04 +1.34779659499E-04 +6.12494584393E-01 +6.74896576593E-01
2.54000000000E+09 +6.41359215898E-01 +5.73257779744E-01 -6.09615739886E-04 +1.41847256598E-04 -5.96003279631E-04 +1.94708626292E-04 +6.18568036221E-01 +6.68144310222E-01
2.54500000000E+09 +6.45751597814E-01 +5.67324213878E-01 -6.37373081482E-04 +3.40359331311E-04 -6.71453863556E-04 +2.89396162947E-04 +6.24211944655E-01 +6.61686476038E-01
2.55000000000E+09 +6.50529524680E-01 +5.61328672887E-01 -5.51468068403E-04 +3.88971045580E-04 -5.59886183887E-04 +3.45495258379E-04 +6.29675059382E-01 +6.55374108791E-01
2.55500000000E+09 +6.55634458969E-01 +5.54355985221E-01 -4.75745581498E-04 +3.96919661094E-04 -5.94624269802E-04 +4.90741813796E-04 +6.34815168892E-01 +6.48915279135E-01
2.56000000000E+09 +6.61531195989E-01 +5.47396021629E-01 -4.64059417868E-04 +4.45834446624E-04 -4.45493748150E-04 +5.90922831978E-04 +6.39898233874E-01 +6.41669756403E-01
2.56500000000E+09 +6.67869119950E-01 +5.39295521547E-01 -3.89373211200E-04 +3.54282883646E-04 -3.32963249632E-04 +5.18931916516E-04 +6.45553477413E-01 +6.34066535534E-01
2.57000000000E+09 +6.74087139133E-01 +5.30725107010E-01 -4.86257321653E-04 +3.67312640977E-04 -3.85064334747E-04 +4.63764661815E-04 +6.51025046877E-01 +6.25942083468E-01
2.57500000000E+09 +6.80126494642E-01 +5.21596226478E-01 -6.03529590714E-04 +5.62003835354E-04 -4.19035671779E-04 +5.78176102338E-04 +6.56419951599E-01 +6.18053974930E-01
2.58000000000E+09 +6.85047265499E-01 +5.12826439027E-01 -4.47585906438E-04 +7.69683411583E-04 -2.69055854565E-04 +6.27462507468E-04 +6.61647196584E-01 +6.10498117014E-01
2.58500000000E+09 +6.89757273384E-01 +5.04032853390E-01 -1.88353448971E-04 +7.02970655125E-04 -1.99303414293E-04 +6.54326410344E-04 +6.66353683456E-01 +6.02885090059E-01
2.59000000000E+09 +6.94075067157E-01 +4.95543302376E-01 -1.69901824335E-04 +6.73497273668E-04 -1.92668900173E-04 +5.98585530576E-04 +6.71110717085E-01 +5.95248001789E-01
2.59500000000E+09 +6.98192069329E-01 +4.87301397054E-01 -1.56089019645E-04 +6.51734328509E-04 -1.83437319699E-04 +7.05073577122E-04 +6.75851052206E-01 +5.87206227123E-01
2.60000000000E+09 +7.02159779220E-01 +4.78685162292E-01 -1.00420395945E-04 +6.52859702759E-04 -1.21577792625E-04 +7.04755658943E-04 +6.80888464028E-01 +5.78633827507E-01
2.60500000000E+09 +7.06342564843E-01 +4.69572644177E-01 -1.85053801310E-04 +7.00946566007E-04 -1.83493706840E-04 +7.49389812724E-04 +6.85945320173E-01 +5.69674895879E-01
2.61000000000E+09 +7.10570322423E-01 +4.59424957744E-01 -1.68361247419E-05 +9.62751434128E-04 -8.00306375251E-06 +9.81110126516E-04 +6.90584978291E-01 +5.60760826793E-01
2.61500000000E+09 +7.15127988010E-01 +4.48590446596E-01 +2.64653033833E-04 +8.56959643474E-04 +2.16483078086E-04 +8.95986433697E-04 +6.95524319604E-01 +5.52295433134E-01
2.62000000000E+09 +7.19389223044E-01 +4.36314854311E-01 +3.10353231497E-04 +6.86280264194E-04 +3.89004449770E-04 +7.25591863716E-04 +7.00130201070E-01 +5.43150137058E-01
2.62500000000E+09 +7.23376549409E-01 +4.23185031235E-01 +2.84727291217E-04 +6.07248770277E-04 +3.04429465690E-04 +6.28052012626E-04 +7.04703856410E-01 +5.34536287639E-01
2.63000000000E+09 +7.27057237588E-01 +4.09858368458E-01 +2.84278702010E-04 +6.58656847707E-04 +3.90540680334E-04 +6.16958197471E-04 +7.09630006997E-01 +5.25499851698E-01
2.63500000000E+09 +7.29989522505E-01 +3.96684621567E-01 +3.09890133525E-04 +7.17038002815E-04 +3.60989421379E-04 +6.07350621187E-04 +7.14300583537E-01 +5.16008058504E-01
2.64000000000E+09 +7.32668215819E-01 +3.83777268385E-01 +4.44164068147E-04 +8.20154225273E-04 +4.04336303884E-04 +7.08650520741E-04 +7.18985830513E-01 +5.06157738592E-01
2.64500000000E+09 +7.35353507992E-01 +3.71625452566E-01 +7.14529771876E-04 +7.15913931786E-04 +5.59078801293E-04 +6.92114153736E-04 +7.23333438108E-01 +4.96594375739E-01
2.65000000000E+09 +7.37670059570E-01 +3.59759073797E-01 +7.47340997336E-04 +5.25507569993E-04 +6.40002622884E-04 +5.62791599087E-04 +7.27501456701E-01 +4.86738371357E-01
2.65500000000E+09 +7.39880714529E-01 +3.48030892877E-01 +7.06282080671E-04 +4.00396310838E-04 +6.88132558025E-04 +4.36605811892E-04 +7.31708589881E-01 +4.76647028749E-01
2.66000000000E+09 +7.42020322839E-01 +3.36267282756E-01 +7.03104517494E-04 +4.04793876857E-04 +7.80612922102E-04 +4.67503839665E-04 +7.36073078498E-01 +4.65212084496E-01
2.66500000000E+09 +7.44139888897E-01 +3.24633738246E-01 +6.76940348627E-04 +3.88140976613E-04 +6.87536696224E-04 +3.88739215444E-04 +7.40229938225E-01 +4.53798333516E-01
2.67000000000E+09 +7.46250015344E-01 +3.11913404746E-01 +8.51335790077E-04 +5.16885527286E-04 +7.92996149288E-04 +4.51889276388E-04 +7.44342316901E-01 +4.42767717707E-01
2.67500000000E+09 +7.47557060509E-01 +2.98454227916E-01 +1.01986324788E-03 +2.59125615844E-04 +9.66786763356E-04 +2.49492794455E-04 +7.48125548060E-01 +4.31528219706E-01
2.68000000000E+09 +7.48173858700E-01 +2.84611706960E-01 +8.98718937278E-04 +7.57479936269E-05 +8.53326775329E-04 +1.12357941312E-04 +7.51716024194E-01 +4.20454939676E-01
2.68500000000E+09 +7.48263537458E-01 +2.70851936406E-01 +8.54636909245E-04 +5.86627078944E-05 +8.70119541245E-04 +1.25174804077E-04 +7.54665535566E-01 +4.09079883308E-01
2.69000000000E+09 +7.47913677739E-01 +2.56906245558E-01 +9.32520462085E-04 +1.13577005268E-04 +9.31390839202E-04 +1.06560147831E-04 +7.57335696431E-01 +3.97064066851E-01
2.69500000000E+09 +7.47451577123E-01 +2.43737911653E-01 +9.95636163305E-04 +1.04272256619E-05 +1.01480750878E-03 -1.15117527196E-05 +7.59995721229E-01 +3.84304402081E-01
2.70000000000E+09 +7.47372118685E-01 +2.30610199800E-01 +1.06653351448E-03 -4.78428700962E-05 +1.06356656748E-03 -5.42766415911E-05 +7.62527765722E-01 +3.71239756918E-01
2.70500000000E+09 +7.47514882691E-01 +2.17742151591E-01 +1.16769631357E-03 -3.51710792011E-04 +1.12756968959E-03 -2.79864372479E-04 +7.65462907414E-01 +3.57941585641E-01
2.71000000000E+09 +7.47832842067E-01 +2.04911044856E-01 +1.06959494841E-03 -4.75333703599E-04 +1.06838807403E-03 -4.31413097717E-04 +7.68223449703E-01 +3.44702137986E-01
2.71500000000E+09 +7.48992674665E-01 +1.91568268827E-01 +1.02967496539E-03 -5.47307638103E-04 +1.11297662895E-03 -5.77098917597E-04 +7.70486363125E-01 +3.32191099247E-01
2.72000000000E+09 +7.49819614972E-01 +1.77235916590E-01 +1.00673315186E-03 -7.50489226011E-04 +1.00939293206E-03 -8.52838866939E-04 +7.72466792303E-01 +3.19601828736E-01
2.72500000000E+09 +7.50611592670E-01 +1.61973684653E-01 +8.12515000425E-04 -8.37717797496E-04 +7.51506611205E-04 -9.23703585221E-04 +7.73514721891E-01 +3.06341922389E-01
2.73000000000E+09 +7.50168556066E-01 +1.45440749373E-01 +7.46833322717E-04 -7.59866487985E-04 +6.28147858496E-04 -7.97660018786E-04 +7.74877125271E-01 +2.92644050232E-01
2.73500000000E+09 +7.48267915100E-01 +1.28081402781E-01 +7.39803799336E-04 -8.78750985834E-04 +6.61598024479E-04 -7.58039517401E-04 +7.76281812126E-01 +2.77520753822E-01
2.74000000000E+09 +7.45008245683E-01 +1.11467303119E-01 +7.77072090155E-04 -1.05762268432E-03 +7.69100426192E-04 -8.56156560451E-04 +7.77304956173E-01 +2.62225002493E-01
2.74500000000E+09 +7.41075006296E-01 +9.51597019347E-02 +6.20580199565E-04 -1.30566919397E-03 +7.23225494435E-04 -1.14335393963E-03 +7.78178327233E-01 +2.47310321719E-01
2.75000000000E+09 +7.36712130208E-01 +7.87725567055E-02 +1.85933943602E-04 -1.34508422322E-03 +3.93762498789E-04 -1.34153641221E-03 +7.78955229613E-01 +2.32569931173E-01
2.75500000000E+09 +7.31687729556E-01 +6.26496630848E-02 +1.78185524130E-04 -1.11844333290E-03 +2.45098753267E-04 -1.22095998455E-03 +7.79112848776E-01 +2.17680642441E-01
2.76000000000E+09 +7.27029118563E-01 +4.68049971195E-02 +2.18743083181E-04 -1.14759791463E-03 +2.22323261956E-04 -1.22524773978E-03 +7.78678080813E-01 +2.02013454584E-01
2.76500000000E+09 +7.22342152104E-01 +3.07275580082E-02 +1.33590001247E-04 -1.38169360691E-03 +1.49457672327E-04 -1.41437861034E-03 +7.77246991659E-01 +1.84955493542E-01
2.77000000000E+09 +7.18209251283E-01 +1.36966959120E-02 -1.16700036449E-04 -1.40399028615E-03 -1.45498105935E-04 -1.46911825819E-03 +7.75582764229E-01 +1.68060629702E-01
2.77500000000E+09 +7.13925569267E-01 -4.63921156330E-03 -3.97380625164E-04 -1.39474861616E-03 -5.13373232471E-04 -1.48015816343E-03 +7.73982057772E-01 +1.50170498490E-01
2.78000000000E+09 +7.09017727628E-01 -2.43840405483E-02 -6.91640431053E-04 -1.24773606380E-03 -7.37820840848E-04 -1.21950734237E-03 +7.71826221292E-01 +1.32411405694E-01
2.78500000000E+09 +7.02449321881E-01 -4.49866999528E-02 -6.96926274766E-04 -8.53821421209E-04 -6.90056566913E-04 -7.98230599324E-04 +7.69526680731E-01 +1.15059417492E-01
2.79000000000E+09 +6.94827968993E-01 -6.60823377553E-02 -4.38286855916E-04 -9.39003029806E-04 -4.08076263764E-04 -9.12336053112E-04 +7.66570744304E-01 +9.75626849050E-02
2.79500000000E+09 +6.85556063469E-01 -8.66150962325E-02 -7.66086995896E-04 -1.17770200370E-03 -7.25284623817E-04 -1.10473754012E-03 +7.62215462864E-01 +7.99276438219E-02
2.80000000000E+09 +6.75608406739E-01 -1.06507785324E-01 -7.78487307164E-04 -8.55336393154E-04 -7.03035824336E-04 -8.48162844435E-04 +7.57632138501E-01 +6.20286115215E-02
2.80500000000E+09 +6.64453895928E-01 -1.25772358532E-01 -8.52021494876E-04 -1.03462531287E-03 -7.53386558047E-04 -1.14881612167E-03 +7.52263731615E-01 +4.27911426805E-02
2.81000000000E+09 +6.52440634085E-01 -1.43926723526E-01 -1.16587233644E-03 -8.57216285116E-04 -1.15461294977E-03 -9.06292343521E-04 +7.45577383921E-01 +2.35595562183E-02
2.81500000000E+09 +6.39303256916E-01 -1.61035016541E-01 -1.10705426953E-03 -5.66907198441E-04 -1.21781768974E-03 -5.66005780684E-04 +7.38763265092E-01 +4.23213546396E-03
2.82000000000E+09 +6.25692836603E-01 -1.77451060935E-01 -1.00984642601E-03 -7.86805001710E-04 -1.03348902741E-03 -7.28695749061E-04 +7.31447926921E-01 -1.51871519578E-02
2.82500000000E+09 +6.11399010751E-01 -1.93720700201E-01 -1.56337136019E-03 -7.23203080003E-04 -1.53565375111E-03 -6.36066717786E-04 +7.23119444315E-01 -3.49341016875E-02
2.83000000000E+09 +5.95850588484E-01 -2.11389365555E-01 -1.56683285282E-03 +5.84104064020E-05 -1.50910577374E-03 +8.23185597833E-05 +7.13905720238E-01 -5.45657544902E-02
2.83500000000E+09 +5.77631744651E-01 -2.29697913289E-01 -1.00095393357E-03 +7.99108809997E-05 -9.89414348772E-04 +4.81237410841E-05 +7.04184086839E-01 -7.51366007057E-02
2.84000000000E+09 +5.56993167947E-01 -2.47298302479E-01 -1.04431103522E-03 -5.01371195975E-05 -1.08444788562E-03 -1.20192572429E-04 +6.92582308689E-01 -9.61893082721E-02
2.84500000000E+09 +5.34974504672E-01 -2.64863024182E-01 -1.13173485009E-03 -6.41390717330E-05 -1.15821810459E-03 -1.00584736507E-04 +6.80031331861E-01 -1.16220839820E-01
2.85000000000E+09 +5.11424378237E-01 -2.82006459922E-01 -1.41418347956E-03 -6.33133826472E-05 -1.40023976148E-03 +2.77170196385E-05 +6.67029116375E-01 -1.37074854023E-01
2.85500000000E+09 +4.87299270523E-01 -2.98563029074E-01 -1.33831134788E-03 +4.83841380721E-04 -1.36653302029E-03 +5.19716890039E-04 +6.52499007866E-01 -1.58400833403E-01
2.86000000000E+09 +4.62098169657E-01 -3.15144055518E-01 -7.57735339756E-04 +5.36209096516E-04 -7.74670304554E-04 +5.18530848846E-04 +6.35853994960E-01 -1.79180312902E-01
2.86500000000E+09 +4.35891260922E-01 -3.30309042402E-01 -9.66141449565E-04 +2.89716458032E-05 -9.72723816233E-04 -2.51977230777E-05 +6.18062739909E-01 -1.99445292791E-01
2.87000000000E+09 +4.09855213061E-01 -3.43234400527E-01 -1.22625974685E-03 +4.49412917652E-04 -1.25252521854E-03 +4.27955497154E-04 +5.99495657061E-01 -2.18613766591E-01
2.87500000000E+09 +3.84915424279E-01 -3.55288190751E-01 -1.16717052858E-03 +4.13208325813E-04 -1.14914746655E-03 +4.48221256598E-04 +5.80817665013E-01 -2.38748966508E-01
2.88000000000E+09 +3.59065282740E-01 -3.67394089427E-01 -1.21974196006E-03 +5.60625336611E-04 -1.19280151364E-03 +5.73866690499E-04 +5.59717282507E-01 -2.59415170293E-01
2.88500000000E+09 +3.32403668541E-01 -3.77624731157E-01 -9.31370157394E-04 +8.25225083556E-04 -8.75864703487E-04 +7.82473473312E-04 +5.35738057231E-01 -2.78285804490E-01
2.89000000000E+09 +3.04386225962E-01 -3.86831408549E-01 -8.97671435521E-04 +3.32101644223E-04 -8.40469657646E-04 +2.84848595214E-04 +5.10845208889E-01 -2.96333967740E-01
2.89500000000E+09 +2.73921710651E-01 -3.94184898036E-01 -1.47573144600E-03 +5.84348435535E-04 -1.48619679003E-03 +4.85389085020E-04 +4.83037676995E-01 -3.14398301413E-01
2.90000000000E+09 +2.42094407028E-01 -3.98555905645E-01 -1.54810070129E-03 +1.14396520076E-03 -1.60856635746E-03 +1.07215273966E-03 +4.54368087411E-01 -3.29989897045E-01
2.90500000000E+09 +2.09273980846E-01 -4.00234145093E-01 -1.13852207364E-03 +1.58429827732E-03 -1.20417933506E-03 +1.61087125833E-03 +4.24909315054E-01 -3.46105808799E-01
2.91000000000E+09 +1.75674080107E-01 -4.00375649254E-01 -4.11540104943E-04 +1.37342247110E-03 -4.25515053746E-04 +1.46035758653E-03 +3.93117773001E-01 -3.60583721004E-01
2.91500000000E+09 +1.40941985780E-01 -3.98223709838E-01 -1.03502064104E-03 +7.35541963884E-04 -9.59123837789E-04 +6.94067525874E-04 +3.60267697457E-01 -3.72054839186E-01
2.92000000000E+09 +1.05737898755E-01 -3.93186353502E-01 -1.57367735811E-03 +1.74477669916E-03 -1.49335889067E-03 +1.61238167324E-03 +3.27565740926E-01 -3.82034866307E-01
2.92500000000E+09 +7.08484371909E-02 -3.86972884119E-01 -8.72138200316E-04 +2.22111783290E-03 -9.62129552334E-04 +1.99329795771E-03 +2.91522500545E-01 -3.90696012881E-01
2.93000000000E+09 +3.58008895561E-02 -3.78270068501E-01 -4.14161622327E-04 +2.27133414054E-03 -5.49482621626E-04 +2.27124177572E-03 +2.54349771784E-01 -3.97215450107E-01
2.93500000000E+09 +8.45555231299E-04 -3.68031406171E-01 +2.97538707341E-06 +2.28544160371E-03 -6.30554139983E-05 +2.38490263584E-03 +2.14961203608E-01 -4.01973155619E-01
2.94000000000E+09 -3.36378479670E-02 -3.54658093130E-01 -1.04272786372E-05 +1.77219526936E-03 -9.29345073676E-05 +1.77218662923E-03 +1.74912679131E-01 -4.02902282072E-01
2.94500000000E+09 -6.68781956599E-02 -3.38785555286E-01 -3.92525845433E-04 +2.56994023247E-03 -4.22018122488E-04 +2.58481630075E-03 +1.36869276645E-01 -4.02647263069E-01
2.95000000000E+09 -9.87085603510E-02 -3.20562642035E-01 +8.18897716286E-04 +2.91178658589E-03 +7.37693817366E-04 +2.88952626915E-03 +9.67775928122E-02 -4.01707923271E-01
2.95500000000E+09 -1.29204325918E-01 -2.99929340601E-01 +1.30887635350E-03 +2.31926715062E-03 +1.25468546339E-03 +2.40775805895E-03 +5.50177036997E-02 -3.95297959271E-01
2.96000000000E+09 -1.59030748178E-01 -2.76986075817E-01 +1.24023222738E-03 +2.04529245945E-03 +1.25092883325E-03 +2.14248287582E-03 +1.43741116398E-02 -3.85300414488E-01
2.96500000000E+09 -1.87550762835E-01 -2.50616259050E-01 +1.43988281727E-03 +2.00865543590E-03 +1.60356336228E-03 +2.09885892728E-03 -2.61760858649E-02 -3.72004947122E-01
2.97000000000E+09 -2.13659782353E-01 -2.20530275895E-01 +1.44262764263E-03 +2.00734138516E-03 +1.54149293734E-03 +1.93718351218E-03 -6.58406259127E-02 -3.57297545335E-01
2.97500000000E+09 -2.35955804354E-01 -1.89106443371E-01 +1.89489924566E-03 +2.38840473125E-03 +1.85086678774E-03 +2.28105270876E-03 -1.06141893703E-01 -3.40308365514E-01
2.98000000000E+09 -2.56192890651E-01 -1.57891928780E-01 +2.81269946070E-03 +2.08957994286E-03 +2.63547946910E-03 +2.14631499308E-03 -1.45148601256E-01 -3.19193513392E-01
2.98500000000E+09 -2.76142490897E-01 -1.26315365980E-01 +3.28730985567E-03 +1.23655138864E-03 +3.30882428481E-03 +1.36118226295E-03 -1.82023352596E-01 -2.94302475304E-01
2.99000000000E+09 -2.94600886445E-01 -9.26483967922E-02 +3.01832590530E-03 +4.45035823969E-04 +3.16121343446E-03 +4.81908261814E-04 -2.15065089865E-01 -2.67687656350E-01
2.99500000000E+09 -3.10094934993E-01 -5.83163986543E-02 +2.70777852851E-03 +5.82569081182E-04 +2.84028456648E-03 +5.43950113168E-04 -2.48141773774E-01 -2.39438493552E-01
3.00000000000E+09 -3.23365383236E-01 -2.38925913100E-02 +3.20566816980E-03 +8.08223192451E-04 +3.28396247519E-03 +5.88926927124E-04 -2.79771839660E-01 -2.07512765914E-01
3.00500000000E+09 -3.33445568128E-01 +9.63065549479E-03 +4.04606479271E-03 +1.31913271740E-04 +3.88108333911E-03 -1.38797445558E-05 -3.08450430291E-01 -1.73080581703E-01
3.01000000000E+09 -3.41353002175E-01 +4.20525117166E-02 +4.06596841224E-03 -1.40856645849E-03 +3.97742744932E-03 -1.26277457419E-03 -3.34703077355E-01 -1.37188221174E-01
3.01500000000E+09 -3.47535310690E-01 +7.43341192817E-02 +3.31395458623E-03 -2.18702637602E-03 +3.37107233221E-03 -2.01319020398E-03 -3.56623666238E-01 -9.99844698524E-02
3.02000000000E+09 -3.50277047068E-01 +1.06623830235E-01 +2.26616472907E-03 -2.52786135548E-03 +2.38358501891E-03 -2.44699057517E-03 -3.75870858693E-01 -6.34602415198E-02
3.02500000000E+09 -3.49716943658E-01 +1.38484757068E-01 +2.16642572326E-03 -1.95250418776E-03 +2.25014652490E-03 -1.96189716540E-03 -3.93372644457E-01 -2.50218739343E-02
3.03000000000E+09 -3.46026656408E-01 +1.69469658162E-01 +2.22020317541E-03 -2.39303770136E-03 +2.23996629186E-03 -2.39431331068E-03 -4.07654168674E-01 +1.58757290141E-02
3.03500000000E+09 -3.39512961963E-01 +1.98791595001E-01 +1.99764473548E-03 -3.24199851272E-03 +2.11332478028E-03 -3.16198904381E-03 -4.17286369707E-01 +5.65280617775E-02
3.04000000000E+09 -3.31869197303E-01 +2.27978322619E-01 +5.69054327975E-04 -3.54296533990E-03 +7.03135538901E-04 -3.57458964751E-03 -4.24876120697E-01 +9.64327028220E-02
3.04500000000E+09 -3.22319032227E-01 +2.56517278084E-01 +1.40896944012E-04 -2.45138212123E-03 +2.37967193147E-04 -2.59218995614E-03 -4.30200741082E-01 +1.36043913829E-01
3.05000000000E+09 -3.11024151195E-01 +2.85347535039E-01 +5.79247916136E-04 -2.22256575159E-03 +5.34614407907E-04 -2.35332740489E-03 -4.33464970983E-01 +1.75949709952E-01
3.05500000000E+09 -2.97815436551E-01 +3.13390120602E-01 +8.25807581795E-04 -2.72742441013E-03 +7.06759492274E-04 -2.81863663491E-03 -4.32454235490E-01 +2.15513393509E-01
3.06000000000E+09 -2.83192353687E-01 +3.39517982809E-01 +1.03414232815E-04 -3.62841716773E-03 -9.42522647054E-05 -3.49043589443E-03 -4.28925526346E-01 +2.52542632276E-01
3.06500000000E+09 -2.68702424589E-01 +3.64261091208E-01 -1.26464732723E-03 -3.12187589411E-03 -1.18834760016E-03 -2.96847868237E-03 -4.24222143647E-01 +2.88250836746E-01
3.07000000000E+09 -2.54013660457E-01 +3.87762399210E-01 -1.45854367289E-03 -2.13610712242E-03 -1.31454974497E-03 -2.19446227293E-03 -4.18734951829E-01 +3.22569423189E-01
