# Hz S RI R 50
! CMT, C1220, 16058040, 17.2.0/1
! Date: 15/08/2018 10:09:22
! Data: Format (Calibration Info)
! Freq                      S11: Re/Im (F2)                       S21: Re/Im (F2)                       S12: Re/Im (F2)                       S22: Re/Im (F2)            
2.50000000000E+09 +5.99562420861E-01 +6.34811533685E-01 -5.00001285091E-04 -5.30535930099E-04 -6.23263377576E-04 -5.68731185119E-04 +5.73051402044E-01 +7.16460685725E-01
2.50500000000E+09 +6.05792844586E-01 +6.27336044383E-01 -5.57665202796E-04 -5.58404089739E-04 -6.16747291395E-04 -5.41947197952E-04 +5.78742143593E-01 +7.11016729116E-01
2.51000000000E+09 +6.12343008449E-01 +6.19401692163E-01 -6.46337100006E-04 -5.19666977108E-04 -6.69501953119E-04 -4.68527604521E-04 +5.84394855340E-01 +7.05809399617E-01
2.51500000000E+09 +6.18560740176E-01 +6.11296701740E-01 -7.80943676219E-04 -5.26403777694E-04 -7.77647843049E-04 -5.10172001493E-04 +5.89768047279E-01 +7.00355443097E-01
2.52000000000E+09 +6.24225490610E-01 +6.03155365911E-01 -8.91148962719E-04 -3.69867032972E-04 -8.62101170424E-04 -4.02816796191E-04 +5.94944807845E-01 +6.94523612999E-01
2.52500000000E+09 +6.29245774312E-01 +5.95606912508E-01 -9.75280455966E-04 -2.36930590621E-04 -9.31653758941E-04 -2.99366827983E-04 +6.00621787889E-01 +6.87905591585E-01
2.53000000000E+09 +6.33820267354E-01 +5.88442243353E-01 -8.94125124036E-04 -1.57746738506E-04 -9.34340307678E-04 -1.61426663676E-04 +6.06634648445E-01 +6.80974154955E-01
2.53500000000E+09 +6.37909884663E-01 +5.81903194424E-01 -9.15555662869E-04 -1.42702218392E-04 -8.77205925963E-04 -1.09399037246E-04 +6.12684808842E-01 +6.74162174334E-01
2.54000000000E+09 +6.41929164404E-01 +5.75774524628E-01 -9.50308211203E-04 -4.58316642301E-05 -9.34119897041E-04 -8.37243263521E-05 +6.18729601091E-01 +6.67343757818E-01
2.54500000000E+09 +6.46240018261E-01 +5.69596192230E-01 -9.86209323567E-04 +9.42371834464E-05 -1.02198162483E-03 +3.73781314670E-05 +6.24261411640E-01 +6.60848273704E-01
2.55000000000E+09 +6.50978471922E-01 +5.63469909324E-01 -8.99076495676E-04 +2.78718424195E-04 -1.03167964637E-03 +1.86405461302E-04 +6.29665874954E-01 +6.54561249140E-01
2.55500000000E+09 +6.56089625874E-01 +5.56617523555E-01 -8.55458801753E-04 +3.22076384821E-04 -9.74245152583E-04 +3.73148972841E-04 +6.34862234611E-01 +6.48193808842E-01
2.56000000000E+09 +6.62081173139E-01 +5.49499820284E-01 -7.62632011614E-04 +3.58218893857E-04 -8.22241549243E-04 +4.55279315325E-04 +6.40159399875E-01 +6.41137869451E-01
2.56500000000E+09 +6.68336794208E-01 +5.41304061032E-01 -7.26111014802E-04 +2.54638340942E-04 -7.07264293401E-04 +4.15080025892E-04 +6.45651793955E-01 +6.33445594151E-01
2.57000000000E+09 +6.74520647190E-01 +5.32696715079E-01 -9.40065555934E-04 +1.63061141368E-04 -9.03133670456E-04 +3.91717731071E-04 +6.50976651259E-01 +6.25347964916E-01
2.57500000000E+09 +6.80385261027E-01 +5.23569762461E-01 -1.11851192044E-03 +5.14527098701E-04 -8.66290315246E-04 +5.50713581635E-04 +6.56367532045E-01 +6.17766103521E-01
2.58000000000E+09 +6.85401399119E-01 +5.14642424684E-01 -9.54276935130E-04 +8.30338451643E-04 -7.74836249505E-04 +7.47248634573E-04 +6.61336654823E-01 +6.10230203064E-01
2.58500000000E+09 +6.90239288949E-01 +5.05907510441E-01 -6.87535169788E-04 +9.23257256111E-04 -6.38104713782E-04 +7.62989693077E-04 +6.66275904791E-01 +6.02716217587E-01
2.59000000000E+09 +6.94641967908E-01 +4.97416966030E-01 -5.39437574936E-04 +8.80346879572E-04 -6.09549720973E-04 +7.74201088641E-04 +6.71011076016E-01 +5.95152785716E-01
2.59500000000E+09 +6.98792172299E-01 +4.89050968597E-01 -5.59936983947E-04 +8.31216315439E-04 -5.68198887340E-04 +7.99623427332E-04 +6.75797026189E-01 +5.87081914942E-01
2.60000000000E+09 +7.02679505985E-01 +4.80420017135E-01 -5.39811780671E-04 +7.96926974105E-04 -5.89932624236E-04 +7.93330429996E-04 +6.80858858761E-01 +5.78685966007E-01
2.60500000000E+09 +7.06874325687E-01 +4.71351463048E-01 -6.54888798819E-04 +9.78076318468E-04 -6.52153444348E-04 +9.76988239121E-04 +6.86052730379E-01 +5.69833745673E-01
2.61000000000E+09 +7.11141575335E-01 +4.61246817976E-01 -5.06159244260E-04 +1.28386560121E-03 -4.89322925160E-04 +1.30059595731E-03 +6.90939319886E-01 +5.61195316840E-01
2.61500000000E+09 +7.15657376348E-01 +4.50157684446E-01 -1.15384585879E-04 +1.21374499638E-03 -1.68996169448E-04 +1.30871617826E-03 +6.95920926538E-01 +5.52493640992E-01
2.62000000000E+09 +7.19763336543E-01 +4.38152267107E-01 +1.17462970046E-06 +1.16915354744E-03 +1.30097203315E-05 +1.24487985207E-03 +7.00396066102E-01 +5.43439267045E-01
2.62500000000E+09 +7.23687270200E-01 +4.25273710409E-01 -2.01600710266E-05 +1.03131593837E-03 +7.86424068513E-05 +1.10159531376E-03 +7.05072816170E-01 +5.34921637417E-01
2.63000000000E+09 +7.27252742188E-01 +4.12087432517E-01 -1.11415624638E-05 +1.10207100175E-03 +1.00372696114E-04 +1.08550471938E-03 +7.10187531421E-01 +5.25946371040E-01
2.63500000000E+09 +7.30236925856E-01 +3.99026245667E-01 -5.76145988422E-05 +1.23841414976E-03 +6.08323787289E-05 +1.08350954163E-03 +7.15016355912E-01 +5.16528289867E-01
2.64000000000E+09 +7.32990699625E-01 +3.86230251265E-01 +1.67714093610E-04 +1.43085937753E-03 +1.96777986503E-04 +1.20335079726E-03 +7.19695258599E-01 +5.06648722759E-01
2.64500000000E+09 +7.35646838701E-01 +3.74121427595E-01 +4.96025661404E-04 +1.27312149435E-03 +3.05854048519E-04 +1.16776582821E-03 +7.24137702152E-01 +4.96926483762E-01
2.65000000000E+09 +7.38017710633E-01 +3.62280540816E-01 +4.38263443652E-04 +1.16706918193E-03 +3.11162321313E-04 +1.20918239068E-03 +7.28421924592E-01 +4.87326234010E-01
2.65500000000E+09 +7.40131405439E-01 +3.50554983267E-01 +4.96723357228E-04 +1.20543012452E-03 +4.10305323289E-04 +1.38408884971E-03 +7.32826511468E-01 +4.77110562663E-01
2.66000000000E+09 +7.42282225692E-01 +3.39010087920E-01 +6.46255443984E-04 +1.23153081681E-03 +6.92840760938E-04 +1.32258616151E-03 +7.37111434357E-01 +4.65574056880E-01
2.66500000000E+09 +7.44508041927E-01 +3.27599072728E-01 +6.79449966770E-04 +1.32745562895E-03 +7.31106195087E-04 +1.34086742732E-03 +7.41504440187E-01 +4.54210467661E-01
2.67000000000E+09 +7.46506777601E-01 +3.14784709246E-01 +1.05733374700E-03 +1.47090706204E-03 +1.16719566969E-03 +1.35348688190E-03 +7.45691566937E-01 +4.43165989485E-01
2.67500000000E+09 +7.47602750073E-01 +3.01439044651E-01 +1.39565216114E-03 +1.10301019026E-03 +1.31565113680E-03 +1.00187802696E-03 +7.49615921307E-01 +4.31910150710E-01
2.68000000000E+09 +7.48116272528E-01 +2.87750240679E-01 +1.28024477647E-03 +8.69832069175E-04 +1.20824473191E-03 +9.00386964526E-04 +7.53394785755E-01 +4.20747385193E-01
2.68500000000E+09 +7.48260657449E-01 +2.74025176116E-01 +1.34737816921E-03 +8.82669655679E-04 +1.32695158379E-03 +9.36997455122E-04 +7.56522108957E-01 +4.09257954481E-01
2.69000000000E+09 +7.47935000146E-01 +2.60049274003E-01 +1.55476032850E-03 +8.45119035873E-04 +1.53879042655E-03 +8.73760645815E-04 +7.59300177643E-01 +3.97144013504E-01
2.69500000000E+09 +7.47424517006E-01 +2.46675128337E-01 +1.76151572280E-03 +7.00598938749E-04 +1.71429569179E-03 +6.68174174535E-04 +7.61934415822E-01 +3.84324862894E-01
2.70000000000E+09 +7.47377175668E-01 +2.33587391137E-01 +1.95662046090E-03 +5.35946631174E-04 +1.87434136059E-03 +5.23813188767E-04 +7.64639283718E-01 +3.70922204413E-01
2.70500000000E+09 +7.47529595928E-01 +2.20699773116E-01 +2.00117663031E-03 +1.61401296299E-04 +1.95485936503E-03 +1.83413157052E-04 +7.67584614038E-01 +3.57505308402E-01
2.71000000000E+09 +7.47975356437E-01 +2.07713812567E-01 +1.95258247671E-03 -5.32619575479E-05 +2.05231046486E-03 +7.62092734506E-06 +7.70395302260E-01 +3.44092602694E-01
2.71500000000E+09 +7.49211502214E-01 +1.94296954843E-01 +1.97358959429E-03 -3.55611731582E-04 +2.05130511188E-03 -3.68731006986E-04 +7.72656545004E-01 +3.31312288628E-01
2.72000000000E+09 +7.50206011152E-01 +1.80018051880E-01 +1.74564664581E-03 -4.62641681663E-04 +1.81932770162E-03 -6.08534002240E-04 +7.74463098716E-01 +3.18418542276E-01
2.72500000000E+09 +7.50963534421E-01 +1.64826247015E-01 +1.70193668749E-03 -5.32233513961E-04 +1.65379769089E-03 -6.81874080108E-04 +7.75524534016E-01 +3.05247271332E-01
2.73000000000E+09 +7.50619390529E-01 +1.48444524619E-01 +1.90017765476E-03 -5.29843963720E-04 +1.66569081114E-03 -6.31635236028E-04 +7.77028468338E-01 +2.91363865981E-01
2.73500000000E+09 +7.48755787639E-01 +1.31441553357E-01 +1.94033322038E-03 -8.30399674786E-04 +1.66118394641E-03 -7.29332441536E-04 +7.78225664064E-01 +2.76215352564E-01
2.74000000000E+09 +7.45855796918E-01 +1.15140080646E-01 +1.95284647438E-03 -1.12438197146E-03 +1.83930829050E-03 -8.99233242206E-04 +7.79329345478E-01 +2.60811209271E-01
2.74500000000E+09 +7.42229792586E-01 +9.86344862680E-02 +1.82361206560E-03 -1.54704652596E-03 +1.91438279594E-03 -1.27187189914E-03 +7.79994385766E-01 +2.45588523939E-01
2.75000000000E+09 +7.37779848010E-01 +8.22338173927E-02 +1.29951278176E-03 -1.73448856574E-03 +1.53187732931E-03 -1.67591222017E-03 +7.80675172255E-01 +2.30757909795E-01
2.75500000000E+09 +7.33009996919E-01 +6.59639286746E-02 +1.22107298811E-03 -1.48533759255E-03 +1.41692035655E-03 -1.51026891567E-03 +7.80902586359E-01 +2.15763256940E-01
2.76000000000E+09 +7.28070675623E-01 +5.00920514867E-02 +1.55734849299E-03 -1.66530403759E-03 +1.70260002436E-03 -1.74412182323E-03 +7.80392423287E-01 +1.99702968678E-01
2.76500000000E+09 +7.23308412737E-01 +3.42080284605E-02 +1.36840357238E-03 -2.24298958620E-03 +1.34671973476E-03 -2.39406917663E-03 +7.78792984324E-01 +1.82576224515E-01
2.77000000000E+09 +7.19129238260E-01 +1.71956739374E-02 +1.02064863835E-03 -2.41195413610E-03 +1.01769990708E-03 -2.45696539529E-03 +7.76967662402E-01 +1.65482480588E-01
2.77500000000E+09 +7.14788079600E-01 -1.00156696996E-03 +7.10164666776E-04 -2.72566595902E-03 +6.24219831322E-04 -2.82221311495E-03 +7.75193967213E-01 +1.47544351150E-01
2.78000000000E+09 +7.09808117748E-01 -2.05805282190E-02 +2.20413316732E-04 -2.73244608466E-03 +7.33338790161E-05 -2.76320388352E-03 +7.72967485952E-01 +1.29567642672E-01
2.78500000000E+09 +7.03520060874E-01 -4.08732747868E-02 +4.14513420884E-06 -2.52568426803E-03 -1.41152299783E-04 -2.50300284476E-03 +7.70141047743E-01 +1.11709670727E-01
2.79000000000E+09 +6.95975124536E-01 -6.19844047396E-02 -1.09361264299E-04 -2.72192103643E-03 -2.39095078329E-04 -2.58226183713E-03 +7.66413439988E-01 +9.42781392105E-02
2.79500000000E+09 +6.86882016152E-01 -8.23864583338E-02 -8.32112217331E-04 -2.81852354190E-03 -7.50497955958E-04 -2.64777309827E-03 +7.61779397200E-01 +7.70306421627E-02
2.80000000000E+09 +6.76788803490E-01 -1.02234672268E-01 -9.83614880530E-04 -2.32687719443E-03 -8.69654230417E-04 -2.25052819588E-03 +7.56922397873E-01 +5.91060936576E-02
2.80500000000E+09 +6.65643141092E-01 -1.21098767075E-01 -1.12233605034E-03 -2.42980642728E-03 -9.90665369459E-04 -2.44570546464E-03 +7.51413485455E-01 +4.01847164355E-02
2.81000000000E+09 +6.54010216268E-01 -1.38904330417E-01 -1.39246355941E-03 -2.29117305001E-03 -1.29707403279E-03 -2.36359537799E-03 +7.44799961736E-01 +2.09005466183E-02
2.81500000000E+09 +6.41294371111E-01 -1.56393656656E-01 -1.56522960679E-03 -2.10066443123E-03 -1.66401528531E-03 -2.17123969937E-03 +7.37583621232E-01 +1.51854167446E-03
2.82000000000E+09 +6.27557180156E-01 -1.73001299847E-01 -1.83380609953E-03 -2.25745172983E-03 -1.96500867579E-03 -2.16122377387E-03 +7.29865447991E-01 -1.75058207122E-02
2.82500000000E+09 +6.13085770001E-01 -1.89317949003E-01 -2.50255785895E-03 -1.90383147588E-03 -2.43441644716E-03 -1.79669725796E-03 +7.21404454316E-01 -3.70229761118E-02
2.83000000000E+09 +5.97402520909E-01 -2.06804535448E-01 -2.63066900194E-03 -9.95083171156E-04 -2.50199684203E-03 -1.00322898884E-03 +7.11837483680E-01 -5.64451361866E-02
2.83500000000E+09 +5.79358009327E-01 -2.24887313600E-01 -2.12945152686E-03 -6.11122906392E-04 -2.05068004298E-03 -6.03241062760E-04 +7.02000057979E-01 -7.65067344861E-02
2.84000000000E+09 +5.59049139241E-01 -2.42360270752E-01 -1.74527371679E-03 -7.55127922371E-04 -1.72102001497E-03 -7.70353559408E-04 +6.90399574418E-01 -9.73576857465E-02
2.84500000000E+09 +5.37581675087E-01 -2.59813183753E-01 -1.82267892672E-03 -1.22463726397E-03 -1.74948091625E-03 -1.23454596974E-03 +6.77811325586E-01 -1.17515282245E-01
2.85000000000E+09 +5.14398050660E-01 -2.77243238653E-01 -2.48961854477E-03 -1.30060432612E-03 -2.47682400563E-03 -1.22957658307E-03 +6.64700063519E-01 -1.38077406192E-01
2.85500000000E+09 +4.90489252983E-01 -2.94006381929E-01 -2.76172214164E-03 -6.68328349090E-04 -2.69218079868E-03 -5.79544276824E-04 +6.49899052347E-01 -1.59031019644E-01
2.86000000000E+09 +4.65771894130E-01 -3.10528534180E-01 -2.41497963911E-03 -5.28916053993E-04 -2.35229761152E-03 -5.76625046641E-04 +6.32940069268E-01 -1.79360903598E-01
2.86500000000E+09 +4.39797626222E-01 -3.25775122999E-01 -2.95418911220E-03 -6.89166584060E-04 -2.94216888256E-03 -7.68058547229E-04 +6.15163987003E-01 -1.99245522352E-01
2.87000000000E+09 +4.14081622127E-01 -3.38621061267E-01 -3.28507950625E-03 +2.26972528383E-04 -3.23820029079E-03 +1.93962670426E-04 +5.96468195770E-01 -2.17858448681E-01
2.87500000000E+09 +3.89955205176E-01 -3.50765368538E-01 -2.98196639236E-03 +2.57938098623E-04 -2.98751847284E-03 +3.20393467480E-04 +5.78071578331E-01 -2.37604068153E-01
2.88000000000E+09 +3.64705557257E-01 -3.63324328766E-01 -3.25436102319E-03 +4.96867245464E-04 -3.08737364540E-03 +5.24519485049E-04 +5.56860590742E-01 -2.57683615847E-01
2.88500000000E+09 +3.38199743127E-01 -3.74203156339E-01 -3.12429199791E-03 +1.07507165118E-03 -2.94310898913E-03 +9.71273197775E-04 +5.33224886689E-01 -2.75996005281E-01
2.89000000000E+09 +3.10267886747E-01 -3.83394214335E-01 -2.90485478071E-03 +7.62162303475E-04 -2.79602353245E-03 +6.36761435233E-04 +5.08861231937E-01 -2.93454682051E-01
2.89500000000E+09 +2.80314109849E-01 -3.90987435303E-01 -3.81154653526E-03 +1.17967621601E-03 -3.78876171877E-03 +9.70467412067E-04 +4.81658554269E-01 -3.11247362262E-01
2.90000000000E+09 +2.48776725620E-01 -3.95783969888E-01 -3.82580565880E-03 +2.45667422595E-03 -4.04041124014E-03 +2.25734056683E-03 +4.53413705788E-01 -3.26667888645E-01
2.90500000000E+09 +2.16273730091E-01 -3.97979071798E-01 -2.94904394832E-03 +3.22866258317E-03 -3.08469229133E-03 +3.27633633844E-03 +4.24331199624E-01 -3.42630161935E-01
2.91000000000E+09 +1.82273444397E-01 -3.98415409957E-01 -2.10550844494E-03 +3.04732627113E-03 -2.09329517976E-03 +3.14958125380E-03 +3.93070241799E-01 -3.56696302037E-01
2.91500000000E+09 +1.48020148939E-01 -3.96436795618E-01 -2.63602411576E-03 +2.78240953891E-03 -2.46254228356E-03 +2.79844967440E-03 +3.60731468748E-01 -3.68267523916E-01
2.92000000000E+09 +1.12848265213E-01 -3.92161247045E-01 -2.51622645601E-03 +4.03277744105E-03 -2.45770997217E-03 +3.91200900278E-03 +3.28577219586E-01 -3.77983381827E-01
2.92500000000E+09 +7.79936748971E-02 -3.86431563510E-01 -1.47953514878E-03 +4.15619886947E-03 -1.62407832999E-03 +3.97406779312E-03 +2.93523931501E-01 -3.86847244692E-01
2.93000000000E+09 +4.29431516634E-02 -3.78427442145E-01 -1.07149297936E-03 +4.17882272735E-03 -1.17827286053E-03 +4.11732360943E-03 +2.56627496614E-01 -3.93823967826E-01
2.93500000000E+09 +7.74313036222E-03 -3.68677806494E-01 -6.33893398868E-04 +4.26602049306E-03 -7.91597500830E-04 +4.29940105410E-03 +2.17493308855E-01 -3.98422851427E-01
2.94000000000E+09 -2.66022350749E-02 -3.56078417314E-01 -9.43936056235E-04 +4.31289783375E-03 -9.53270097596E-04 +4.24440888741E-03 +1.78517587426E-01 -3.99261259151E-01
2.94500000000E+09 -6.03538630131E-02 -3.41197437150E-01 -3.88307545613E-04 +5.63111394777E-03 -4.36051034250E-04 +5.61872041898E-03 +1.41306745232E-01 -4.00029810445E-01
2.95000000000E+09 -9.28960099723E-02 -3.23479458091E-01 +1.30272966478E-03 +5.55472139169E-03 +1.14192975463E-03 +5.53070086560E-03 +1.00964689267E-01 -3.99502790300E-01
2.95500000000E+09 -1.23616202037E-01 -3.03209031021E-01 +2.06438468749E-03 +5.03050991523E-03 +1.90195327631E-03 +5.12800289477E-03 +5.94198550355E-02 -3.93430240126E-01
2.96000000000E+09 -1.53595992086E-01 -2.81193070483E-01 +2.39787158531E-03 +4.38849771946E-03 +2.50069215265E-03 +4.58832017600E-03 +1.91879494974E-02 -3.83526073711E-01
2.96500000000E+09 -1.83039067341E-01 -2.55815096193E-01 +2.58927266743E-03 +4.35953423006E-03 +2.72753593679E-03 +4.36877079123E-03 -2.03884637177E-02 -3.70684128376E-01
2.97000000000E+09 -2.10075620204E-01 -2.26192239239E-01 +2.97787472989E-03 +4.58784289360E-03 +3.08790994802E-03 +4.41979114382E-03 -5.89906441677E-02 -3.57094095481E-01
2.97500000000E+09 -2.33456500203E-01 -1.95259427305E-01 +4.22788894595E-03 +4.79495940207E-03 +4.10562221445E-03 +4.58327385309E-03 -9.94864510174E-02 -3.41613490555E-01
2.98000000000E+09 -2.54820563817E-01 -1.64018966985E-01 +5.45473233149E-03 +3.69984013753E-03 +5.13703032441E-03 +3.69957902733E-03 -1.38932869910E-01 -3.21554850908E-01
2.98500000000E+09 -2.75486987602E-01 -1.32359080016E-01 +5.77555042919E-03 +2.42180670165E-03 +5.70471029807E-03 +2.72411756973E-03 -1.76344407709E-01 -2.97299223548E-01
2.99000000000E+09 -2.94826146670E-01 -9.90135954203E-02 +5.55789097675E-03 +1.50759481229E-03 +5.67240986859E-03 +1.70007913862E-03 -2.09862566198E-01 -2.71603496906E-01
2.99500000000E+09 -3.11260202533E-01 -6.42907216101E-02 +5.45538358334E-03 +1.56726090930E-03 +5.68316555851E-03 +1.46254281767E-03 -2.43872736907E-01 -2.43660928929E-01
3.00000000000E+09 -3.24699935074E-01 -2.97078988323E-02 +6.62239097349E-03 +1.43153425704E-03 +6.66072176694E-03 +1.16359834794E-03 -2.75812154217E-01 -2.12002918584E-01
3.00500000000E+09 -3.35853831976E-01 +3.37390441384E-03 +7.50533876563E-03 -3.23960250661E-04 +7.18693779821E-03 -4.35780885707E-04 -3.04797664849E-01 -1.78066179425E-01
3.01000000000E+09 -3.44699699828E-01 +3.65127995941E-02 +7.08157564978E-03 -2.46396624689E-03 +6.80875041781E-03 -2.16631834568E-03 -3.31621674929E-01 -1.43066884266E-01
3.01500000000E+09 -3.51388720636E-01 +6.93466010227E-02 +5.70584216896E-03 -3.48395035774E-03 +5.78474464769E-03 -3.16808882706E-03 -3.54398923123E-01 -1.06245555526E-01
3.02000000000E+09 -3.54659633174E-01 +1.02096082045E-01 +4.61773552308E-03 -3.44691766415E-03 +4.76498155168E-03 -3.32092243869E-03 -3.74685360432E-01 -7.01326676476E-02
3.02500000000E+09 -3.54822058332E-01 +1.34679988929E-01 +4.93739995408E-03 -3.51951557080E-03 +5.10624349911E-03 -3.44796527519E-03 -3.93746100498E-01 -3.12407148837E-02
3.03000000000E+09 -3.50862552438E-01 +1.66586322334E-01 +4.56487851868E-03 -4.81456885601E-03 +4.67386794310E-03 -4.84368831199E-03 -4.08180648603E-01 +1.05293977741E-02
3.03500000000E+09 -3.44809780457E-01 +1.95543567365E-01 +3.28020384511E-03 -5.83819453962E-03 +3.46894187397E-03 -5.85353512587E-03 -4.18380923609E-01 +5.10379737216E-02
3.04000000000E+09 -3.38270894609E-01 +2.25455241724E-01 +1.40168620723E-03 -5.70218742303E-03 +1.65413315098E-03 -5.85753501073E-03 -4.26691845572E-01 +9.10666635846E-02
3.04500000000E+09 -3.29105939981E-01 +2.55167045937E-01 +9.73939987434E-04 -4.42714489736E-03 +1.23225531335E-03 -4.72359756271E-03 -4.32789253615E-01 +1.31051969174E-01
3.05000000000E+09 -3.17911994182E-01 +2.84909043554E-01 +1.39256517665E-03 -4.44957552134E-03 +1.30101244547E-03 -4.85186642070E-03 -4.36760252442E-01 +1.71493782687E-01
3.05500000000E+09 -3.04805285779E-01 +3.13418133693E-01 +1.40043043107E-03 -5.25248888831E-03 +1.12688061524E-03 -5.45118477599E-03 -4.35664918745E-01 +2.12052596031E-01
3.06000000000E+09 -2.90668913159E-01 +3.40462301592E-01 +8.42928822202E-05 -6.36349885321E-03 -2.88363327187E-04 -6.21030814234E-03 -4.32378241153E-01 +2.48963204739E-01
3.06500000000E+09 -2.75969735203E-01 +3.65592744750E-01 -2.16207181199E-03 -5.38373205992E-03 -1.96520126182E-03 -5.18369658693E-03 -4.28560779759E-01 +2.85255691672E-01
3.07000000000E+09 -2.61607459059E-01 +3.89535221409E-01 -2.22025682891E-03 -3.66375681866E-03 -2.05903169810E-03 -3.72659954387E-03 -4.23270554431E-01 +3.20786231812E-01
