# Hz S RI R 50
! CMT, C1220, 16058040, 17.2.0/1
! Date: 15/08/2018 10:07:59
! Data: Format (Calibration Info)
! Freq                      S11: Re/Im (F2)                       S21: Re/Im (F2)                       S12: Re/Im (F2)                       S22: Re/Im (F2)            
2.50000000000E+09 +5.99266164849E-01 +6.32124153252E-01 -4.00933950094E-04 -1.91741989496E-04 -4.44326694644E-04 -2.33488069768E-04 +5.72853131126E-01 +7.17046063964E-01
2.50500000000E+09 +6.05458226476E-01 +6.24509051151E-01 -3.50516665596E-04 -2.17539112372E-04 -3.88265108470E-04 -2.24428005957E-04 +5.78417511189E-01 +7.11607140452E-01
2.51000000000E+09 +6.11947607893E-01 +6.16285454203E-01 -4.70201752618E-04 -2.10532377747E-04 -4.39258555125E-04 -1.70383438778E-04 +5.84274073530E-01 +7.06414140684E-01
2.51500000000E+09 +6.18113566183E-01 +6.08196746351E-01 -4.83663822165E-04 -2.60141574107E-04 -5.22874385935E-04 -2.58473860893E-04 +5.89516853220E-01 +7.00935638833E-01
2.52000000000E+09 +6.23821221674E-01 +6.00031897028E-01 -6.79111064395E-04 -1.37914438932E-04 -6.11037784740E-04 -9.38331504009E-05 +5.94700027430E-01 +6.95176377999E-01
2.52500000000E+09 +6.28651645164E-01 +5.92397595413E-01 -6.07875506011E-04 +5.41368793794E-05 -6.09888607781E-04 +1.28663619214E-05 +6.00569027852E-01 +6.88623677047E-01
2.53000000000E+09 +6.33002079973E-01 +5.85413710624E-01 -5.61036407917E-04 +8.12684364465E-05 -5.40626036538E-04 +6.95478933801E-05 +6.06606205820E-01 +6.81584212222E-01
2.53500000000E+09 +6.37283119898E-01 +5.78890027389E-01 -5.14053209206E-04 +8.27684281625E-05 -5.53982219080E-04 +1.04891081463E-04 +6.12698502258E-01 +6.74744350539E-01
2.54000000000E+09 +6.41234032291E-01 +5.72762408702E-01 -5.59202547441E-04 +3.23204014976E-05 -5.91727529437E-04 +8.14272424132E-05 +6.18781755319E-01 +6.67920831438E-01
2.54500000000E+09 +6.45520321742E-01 +5.66725473298E-01 -7.07221455724E-04 +2.23419230726E-04 -7.08111139924E-04 +1.98201779716E-04 +6.24619522386E-01 +6.61350398389E-01
2.55000000000E+09 +6.50167166723E-01 +5.60637923030E-01 -6.01572737503E-04 +3.62496449801E-04 -6.42410782677E-04 +3.43864031330E-04 +6.29956774951E-01 +6.55042466081E-01
2.55500000000E+09 +6.55272445106E-01 +5.53732139781E-01 -4.88165093873E-04 +5.04941329276E-04 -5.99236143545E-04 +4.94581746956E-04 +6.35108698556E-01 +6.48493618885E-01
2.56000000000E+09 +6.61129304866E-01 +5.46915914289E-01 -4.08858390631E-04 +4.24090295007E-04 -4.30668428611E-04 +5.38284147822E-04 +6.40293430628E-01 +6.41254746047E-01
2.56500000000E+09 +6.67299861075E-01 +5.38833622892E-01 -3.70066927492E-04 +3.66097313000E-04 -3.51922873107E-04 +4.69043036217E-04 +6.45715369481E-01 +6.33705596969E-01
2.57000000000E+09 +6.73469330578E-01 +5.30345455398E-01 -5.48178100779E-04 +3.14653653200E-04 -4.24889579642E-04 +4.54610457312E-04 +6.51268923653E-01 +6.25754340050E-01
2.57500000000E+09 +6.79369686802E-01 +5.21142505727E-01 -5.68314909445E-04 +5.90455507200E-04 -4.13717677765E-04 +6.40741052945E-04 +6.56634584231E-01 +6.18037490198E-01
2.58000000000E+09 +6.84395852703E-01 +5.12343740489E-01 -3.80375540169E-04 +7.69616272180E-04 -2.93092224158E-04 +6.61173793715E-04 +6.61783550947E-01 +6.10365467161E-01
2.58500000000E+09 +6.88925114381E-01 +5.03486685666E-01 -2.04962097919E-04 +7.17522228551E-04 -2.80600774542E-04 +6.34820966707E-04 +6.66605357557E-01 +6.02683765765E-01
2.59000000000E+09 +6.93156485453E-01 +4.95072098974E-01 -1.14635021016E-04 +7.89630654778E-04 -1.48144249058E-04 +7.51611833683E-04 +6.71433239012E-01 +5.95114664529E-01
2.59500000000E+09 +6.97178578473E-01 +4.86905882873E-01 -3.36374820409E-05 +7.04308479030E-04 -1.44602432973E-04 +6.91838629979E-04 +6.76061672383E-01 +5.87100129782E-01
2.60000000000E+09 +7.01087240848E-01 +4.78397109546E-01 -3.26260841674E-05 +7.11715163262E-04 -4.75063987967E-05 +7.14980327947E-04 +6.81075902205E-01 +5.78648432195E-01
2.60500000000E+09 +7.05141408017E-01 +4.69299589711E-01 +2.95252870941E-05 +7.55423677057E-04 -2.43086592999E-05 +8.06084202243E-04 +6.86311404096E-01 +5.69690637997E-01
2.61000000000E+09 +7.09292527936E-01 +4.59204374732E-01 +1.41983923728E-04 +8.44975468817E-04 +1.45950421733E-04 +8.05245213432E-04 +6.91032850742E-01 +5.60850332946E-01
2.61500000000E+09 +7.13649052553E-01 +4.48201848987E-01 +2.73842340471E-04 +7.87146876804E-04 +2.47640618082E-04 +8.22197094664E-04 +6.95944291432E-01 +5.52280951615E-01
2.62000000000E+09 +7.17708775180E-01 +4.36147483767E-01 +3.42788095862E-04 +6.43311738210E-04 +3.63771052704E-04 +6.91132312615E-04 +7.00560936536E-01 +5.43216022092E-01
2.62500000000E+09 +7.21766879801E-01 +4.23324773891E-01 +2.86653675602E-04 +6.18392405096E-04 +3.45174117456E-04 +6.00624748067E-04 +7.05201202027E-01 +5.34407077420E-01
2.63000000000E+09 +7.25129455395E-01 +4.09936182342E-01 +3.75706311404E-04 +6.64486209209E-04 +3.76718395734E-04 +6.09550185892E-04 +7.10151526773E-01 +5.25394118946E-01
2.63500000000E+09 +7.28030136984E-01 +3.96757050519E-01 +2.90740023661E-04 +6.92919484240E-04 +3.86785140649E-04 +5.63190808246E-04 +7.14849031472E-01 +5.15868902926E-01
2.64000000000E+09 +7.30664087662E-01 +3.83980491397E-01 +4.59231563013E-04 +7.49097973212E-04 +4.28015503379E-04 +6.02667004807E-04 +7.19539560103E-01 +5.06182578216E-01
2.64500000000E+09 +7.33416474825E-01 +3.71898028618E-01 +7.35040649524E-04 +6.41214821548E-04 +5.91991545379E-04 +5.83846209004E-04 +7.23860016395E-01 +4.96441331817E-01
2.65000000000E+09 +7.35447420284E-01 +3.60247520449E-01 +6.95672191089E-04 +4.72078040409E-04 +5.96470796287E-04 +5.41574854343E-04 +7.27968404223E-01 +4.86513484130E-01
2.65500000000E+09 +7.37626761114E-01 +3.48468587424E-01 +6.87129451408E-04 +4.42257520798E-04 +6.20528911224E-04 +5.14074542187E-04 +7.32279659212E-01 +4.76517362388E-01
2.66000000000E+09 +7.39583609384E-01 +3.36845450765E-01 +7.37999887474E-04 +4.34203783662E-04 +8.09623849281E-04 +5.30211037244E-04 +7.36735451725E-01 +4.65114320383E-01
2.66500000000E+09 +7.41718464746E-01 +3.25533809056E-01 +7.07238053509E-04 +4.83097413197E-04 +7.34367269135E-04 +4.39590327833E-04 +7.40830771538E-01 +4.53849485792E-01
2.67000000000E+09 +7.43632195753E-01 +3.12931313153E-01 +9.98459119641E-04 +6.05614714850E-04 +9.90236088873E-04 +5.23255577760E-04 +7.45132639087E-01 +4.42636620847E-01
2.67500000000E+09 +7.44784019881E-01 +2.99772683355E-01 +1.25969280920E-03 +2.89155067311E-04 +1.12717779994E-03 +2.52601399752E-04 +7.48887767238E-01 +4.31436304533E-01
2.68000000000E+09 +7.45368408818E-01 +2.86281179927E-01 +1.18550843376E-03 +2.62712171893E-05 +1.08861057798E-03 +8.22994063412E-05 +7.52521653461E-01 +4.20415103050E-01
2.68500000000E+09 +7.45687601536E-01 +2.72450432816E-01 +1.04444497125E-03 -1.11374309193E-04 +1.05827918128E-03 -6.10347887275E-05 +7.55492406885E-01 +4.08911144121E-01
2.69000000000E+09 +7.45115504270E-01 +2.58667590783E-01 +1.03556284233E-03 -8.57567441842E-05 +1.04329628085E-03 -1.45888371591E-04 +7.58411682632E-01 +3.96765145741E-01
2.69500000000E+09 +7.44597600580E-01 +2.45657333252E-01 +1.15812780195E-03 -1.50515889683E-04 +1.08080241477E-03 -1.76782000418E-04 +7.60955242168E-01 +3.83923565846E-01
2.70000000000E+09 +7.44381321496E-01 +2.32866517746E-01 +1.12486903209E-03 -2.67652518783E-04 +1.18787108041E-03 -2.91523623104E-04 +7.63450587196E-01 +3.70708662144E-01
2.70500000000E+09 +7.44462709643E-01 +2.20433522214E-01 +1.29271258545E-03 -5.28652928242E-04 +1.26929705673E-03 -4.28966456898E-04 +7.66389231243E-01 +3.57489416876E-01
2.71000000000E+09 +7.45019430624E-01 +2.08004484544E-01 +1.20331832054E-03 -7.50301113527E-04 +1.26161087564E-03 -7.23143731951E-04 +7.69210571312E-01 +3.44061863034E-01
2.71500000000E+09 +7.46214509655E-01 +1.94613682745E-01 +1.08873034645E-03 -1.04815555398E-03 +1.16849020244E-03 -1.09836006856E-03 +7.71472178885E-01 +3.31284196113E-01
2.72000000000E+09 +7.47133334168E-01 +1.80678499670E-01 +7.59657455405E-04 -1.09522469242E-03 +7.06966198801E-04 -1.15230070660E-03 +7.73326803969E-01 +3.18602757207E-01
2.72500000000E+09 +7.47824493231E-01 +1.65810232982E-01 +6.43750323446E-04 -1.06892030435E-03 +5.73281558598E-04 -1.13107149340E-03 +7.74148208263E-01 +3.05428398807E-01
2.73000000000E+09 +7.47616084410E-01 +1.49667997974E-01 +5.81929466001E-04 -1.06199713317E-03 +4.47439510356E-04 -9.92927414419E-04 +7.75570223884E-01 +2.91852655743E-01
2.73500000000E+09 +7.45856632529E-01 +1.32643658568E-01 +5.28616347204E-04 -1.13470726681E-03 +4.55210964701E-04 -9.55959957426E-04 +7.76872970428E-01 +2.76672385260E-01
2.74000000000E+09 +7.42760542359E-01 +1.16498440700E-01 +5.81222973827E-04 -1.24017426795E-03 +5.92913207068E-04 -1.07371271259E-03 +7.77983961916E-01 +2.61371927057E-01
2.74500000000E+09 +7.39238866571E-01 +1.00342252595E-01 +3.59297243655E-04 -1.41727503017E-03 +5.31800738447E-04 -1.27116030650E-03 +7.78792488637E-01 +2.46375118499E-01
2.75000000000E+09 +7.35169313559E-01 +8.41353318926E-02 +6.78314306011E-05 -1.48172194217E-03 +2.58915739333E-04 -1.58816406691E-03 +7.79432315157E-01 +2.31631920112E-01
2.75500000000E+09 +7.30292906761E-01 +6.82452869233E-02 -6.00266549609E-05 -1.38099134321E-03 +3.09893562633E-05 -1.55543159118E-03 +7.79490950305E-01 +2.16591833674E-01
2.76000000000E+09 +7.25981163272E-01 +5.26434020861E-02 -5.26558527014E-05 -1.40846350299E-03 -6.69610190279E-05 -1.54637268770E-03 +7.79168372660E-01 +2.00837398282E-01
2.76500000000E+09 +7.21427168498E-01 +3.64715293012E-02 -3.08204318306E-04 -1.65483580249E-03 -3.61268740827E-04 -1.73799371297E-03 +7.77575573864E-01 +1.83646317833E-01
2.77000000000E+09 +7.17324285182E-01 +1.96407612700E-02 -6.28810847058E-04 -1.50317787110E-03 -6.99764577712E-04 -1.58633576248E-03 +7.75861247230E-01 +1.66989899043E-01
2.77500000000E+09 +7.13238539089E-01 +1.60354446155E-03 -7.96781861753E-04 -1.42968228963E-03 -9.10214861858E-04 -1.42252499246E-03 +7.74118382768E-01 +1.48919647140E-01
2.78000000000E+09 +7.08601407790E-01 -1.78972274452E-02 -1.01890526559E-03 -1.34882885639E-03 -1.12839707981E-03 -1.32309331288E-03 +7.71769170195E-01 +1.31104762977E-01
2.78500000000E+09 +7.02566088108E-01 -3.80904385776E-02 -1.21415857479E-03 -1.14971476397E-03 -1.28063327056E-03 -9.95224697066E-04 +7.69167282289E-01 +1.13686310399E-01
2.79000000000E+09 +6.95561768542E-01 -5.89052185254E-02 -1.25118944582E-03 -9.61063166735E-04 -1.28103020823E-03 -8.42261545031E-04 +7.66000377579E-01 +9.64788250858E-02
2.79500000000E+09 +6.86952866628E-01 -7.96012958483E-02 -1.47036786508E-03 -9.41423649636E-04 -1.42352905316E-03 -8.75993707936E-04 +7.61598690047E-01 +7.88163290603E-02
2.80000000000E+09 +6.77187460782E-01 -9.96414155720E-02 -1.54342619011E-03 -5.77556086171E-04 -1.42339617191E-03 -5.41739098998E-04 +7.56872003531E-01 +6.09807737647E-02
2.80500000000E+09 +6.66200044878E-01 -1.18594307400E-01 -1.57921276234E-03 -5.11423355708E-04 -1.57470517366E-03 -4.98915098651E-04 +7.51238248482E-01 +4.19480205515E-02
2.81000000000E+09 +6.54857971705E-01 -1.36257206934E-01 -1.63621946386E-03 -1.85927097657E-04 -1.68381128775E-03 -2.13944048756E-04 +7.44712673549E-01 +2.29736541327E-02
2.81500000000E+09 +6.42545597276E-01 -1.53552761100E-01 -1.55649091359E-03 +1.02370044312E-05 -1.59365533190E-03 +5.29128567429E-05 +7.38081863735E-01 +3.83165912437E-03
2.82000000000E+09 +6.29326405833E-01 -1.70212015149E-01 -1.64107699984E-03 -8.36529082706E-05 -1.57850283803E-03 -1.54135028600E-06 +7.30409469505E-01 -1.54879279304E-02
2.82500000000E+09 +6.15643512089E-01 -1.86453615287E-01 -1.84673758542E-03 +3.65169442395E-04 -1.74457967491E-03 +4.39340690477E-04 +7.22115624802E-01 -3.48658490071E-02
2.83000000000E+09 +6.00529948520E-01 -2.04408543922E-01 -1.50184869329E-03 +8.41526206293E-04 -1.35085470438E-03 +7.96983843170E-04 +7.13173747777E-01 -5.42063317961E-02
2.83500000000E+09 +5.82612179545E-01 -2.22555417926E-01 -1.38330846706E-03 +9.04772436260E-04 -1.29338327603E-03 +8.04108680117E-04 +7.03538038272E-01 -7.46555848144E-02
2.84000000000E+09 +5.62943393740E-01 -2.40111599947E-01 -1.01224877166E-03 +1.10413272241E-03 -1.05562510223E-03 +1.04720383463E-03 +6.92143310338E-01 -9.56596991380E-02
2.84500000000E+09 +5.41703726342E-01 -2.58225402394E-01 -7.60794531508E-04 +8.95393405906E-04 -7.54300794295E-04 +8.53774935546E-04 +6.79632587030E-01 -1.16035165781E-01
2.85000000000E+09 +5.18634289794E-01 -2.75685686948E-01 -9.49089774438E-04 +7.88235606015E-04 -1.01263500612E-03 +7.55973495663E-04 +6.66630531363E-01 -1.36612383221E-01
2.85500000000E+09 +4.94913174749E-01 -2.92755294243E-01 -9.28458509619E-04 +1.24311842894E-03 -9.98843344187E-04 +1.21125804474E-03 +6.52026628552E-01 -1.57643501928E-01
2.86000000000E+09 +4.70210597537E-01 -3.09490375255E-01 -4.48048690864E-04 +1.20984632725E-03 -4.95004799047E-04 +1.12806564199E-03 +6.35779831406E-01 -1.78314284602E-01
2.86500000000E+09 +4.44735131068E-01 -3.24812266651E-01 -5.81666757037E-04 +1.06573458289E-03 -5.74160232093E-04 +1.05888035972E-03 +6.18076928176E-01 -1.98706894049E-01
2.87000000000E+09 +4.19579505822E-01 -3.38840711891E-01 -2.40700632476E-04 +1.37728227741E-03 -3.11641017544E-04 +1.36374492912E-03 +5.99589905866E-01 -2.17926421780E-01
2.87500000000E+09 +3.94681606138E-01 -3.51746533674E-01 -2.02810457610E-04 +1.12322000386E-03 -1.82328488960E-04 +1.13077746771E-03 +5.81039581789E-01 -2.38047154684E-01
2.88000000000E+09 +3.69103439347E-01 -3.64076674243E-01 -7.31873195272E-05 +1.28348244609E-03 -3.26201695589E-05 +1.28731201630E-03 +5.59778834911E-01 -2.58633252054E-01
2.88500000000E+09 +3.42978247284E-01 -3.75093193678E-01 +4.72054825405E-04 +1.22250687552E-03 +4.60998542797E-04 +1.24093030651E-03 +5.35881293728E-01 -2.77571392273E-01
2.89000000000E+09 +3.15201409546E-01 -3.84819489681E-01 +4.51219593012E-04 +5.30131049717E-04 +4.29245392679E-04 +5.16374295296E-04 +5.10983064855E-01 -2.95297656330E-01
2.89500000000E+09 +2.85687005614E-01 -3.93063460277E-01 +4.28544833626E-05 +7.66307751628E-04 -7.53610475627E-06 +7.73622513870E-04 +4.83602915844E-01 -3.13105996470E-01
2.90000000000E+09 +2.54116290224E-01 -3.99024760659E-01 +1.26978387558E-04 +6.09241902972E-04 +1.18254158937E-04 +6.92757270329E-04 +4.55212458724E-01 -3.28787961812E-01
2.90500000000E+09 +2.20948417263E-01 -4.02247850728E-01 +1.09264280432E-04 +8.66918125394E-04 +1.27208816262E-04 +8.59621567750E-04 +4.26269059332E-01 -3.44742709133E-01
2.91000000000E+09 +1.86738891444E-01 -4.02930200491E-01 +4.76810612199E-04 +5.41503758692E-04 +4.87300502603E-04 +5.80199525502E-04 +3.94875468738E-01 -3.59739843189E-01
2.91500000000E+09 +1.52183886255E-01 -4.01274039979E-01 +8.38030174594E-06 +2.39451277946E-04 +7.26084761422E-05 +2.12066994214E-04 +3.62129082313E-01 -3.71842345980E-01
2.92000000000E+09 +1.17207710095E-01 -3.97533436053E-01 -2.60408404780E-04 +6.02580013142E-04 -2.00556238684E-04 +5.24820360717E-04 +3.28883680009E-01 -3.81916997259E-01
2.92500000000E+09 +8.17652052224E-02 -3.92811359663E-01 +7.85877213516E-05 +6.59518004155E-04 +1.86776595881E-04 +5.90003284048E-04 +2.92949381250E-01 -3.90489626918E-01
2.93000000000E+09 +4.61010251536E-02 -3.85131529875E-01 -2.03136228490E-04 +5.15975195192E-04 -2.38081735818E-04 +4.79621318851E-04 +2.55742677147E-01 -3.96864585331E-01
2.93500000000E+09 +1.06354736990E-02 -3.75531397039E-01 -2.75577620826E-04 +8.65833442317E-04 -3.25035119454E-04 +8.38408664536E-04 +2.16839993580E-01 -4.01500672082E-01
2.94000000000E+09 -2.44530216693E-02 -3.63349904436E-01 -4.82800081786E-04 +1.23497309135E-03 -5.46554771004E-04 +1.17702925432E-03 +1.77234892769E-01 -4.02988770009E-01
2.94500000000E+09 -5.83423034688E-02 -3.48397159317E-01 +2.37022711036E-04 +1.94577246291E-03 +2.31854502737E-04 +1.97788240299E-03 +1.39108948743E-01 -4.03763591247E-01
2.95000000000E+09 -9.11291789336E-02 -3.31484737848E-01 +9.72239000746E-04 +1.27640393556E-03 +8.43255465636E-04 +1.24776694965E-03 +9.81236293447E-02 -4.02573976641E-01
2.95500000000E+09 -1.23255911767E-01 -3.11258744201E-01 +6.00730811440E-04 +1.27864824726E-03 +5.29138021243E-04 +1.30875022888E-03 +5.61242518748E-02 -3.96052201237E-01
2.96000000000E+09 -1.53754372574E-01 -2.88673635935E-01 +1.02433290270E-03 +1.29337295260E-03 +9.97578227542E-04 +1.31750080969E-03 +1.57798608055E-02 -3.85890108665E-01
2.96500000000E+09 -1.83469984150E-01 -2.63018004488E-01 +1.12067154916E-03 +9.99880446641E-04 +1.14470442971E-03 +1.04609292701E-03 -2.47116099611E-02 -3.72782211725E-01
2.97000000000E+09 -2.10859317908E-01 -2.33248808939E-01 +1.05392533120E-03 +1.14491070516E-03 +1.08667579916E-03 +1.16411224663E-03 -6.37515071743E-02 -3.57693639636E-01
2.97500000000E+09 -2.34373382548E-01 -2.02212908048E-01 +1.57680966695E-03 +1.22817108432E-03 +1.54206069469E-03 +1.15154004436E-03 -1.03353462004E-01 -3.41504832367E-01
2.98000000000E+09 -2.56586693471E-01 -1.71281765918E-01 +1.75542054544E-03 +9.70308623609E-04 +1.73460332392E-03 +9.71340998130E-04 -1.42881704530E-01 -3.21781722155E-01
2.98500000000E+09 -2.78075184177E-01 -1.38796175463E-01 +2.20841316134E-03 +7.89161830098E-04 +2.22910411054E-03 +9.13653270475E-04 -1.80824492359E-01 -2.96804908311E-01
2.99000000000E+09 -2.97432500972E-01 -1.04843231216E-01 +2.33253335905E-03 -3.03771072685E-05 +2.48824867626E-03 +5.52302357741E-05 -2.14444299037E-01 -2.70231680049E-01
2.99500000000E+09 -3.14237409797E-01 -7.03240452358E-02 +1.97512859427E-03 -3.22726955829E-04 +2.08185778368E-03 -4.15953961618E-04 -2.47791738064E-01 -2.41506159356E-01
3.00000000000E+09 -3.28636003810E-01 -3.51727614845E-02 +1.93320793398E-03 -4.75848549862E-05 +1.95794998203E-03 -2.32495636180E-04 -2.79460816006E-01 -2.09568837874E-01
3.00500000000E+09 -3.39985791919E-01 -9.22474057399E-04 +2.34078268354E-03 -5.47991400230E-04 +2.22186650478E-03 -6.17030022612E-04 -3.08061849823E-01 -1.75046024671E-01
3.01000000000E+09 -3.48586148795E-01 +3.22916682917E-02 +2.26410818360E-03 -1.03658959831E-03 +2.16067788023E-03 -9.36063121019E-04 -3.34290770518E-01 -1.39473337002E-01
3.01500000000E+09 -3.55823102012E-01 +6.52690978898E-02 +2.14230405179E-03 -1.51145154279E-03 +2.20189796563E-03 -1.45676081947E-03 -3.56522237560E-01 -1.02811885119E-01
3.02000000000E+09 -3.59466368276E-01 +9.87608649456E-02 +1.43534155065E-03 -2.03883513395E-03 +1.54101362694E-03 -1.97838586593E-03 -3.76632776749E-01 -6.61333869791E-02
3.02500000000E+09 -3.59256530419E-01 +1.31749509522E-01 +1.20970343532E-03 -1.74664071235E-03 +1.23124672721E-03 -1.78496528279E-03 -3.94762088711E-01 -2.71902695206E-02
3.03000000000E+09 -3.56072523769E-01 +1.63494460434E-01 +9.34840749264E-04 -2.03633514683E-03 +1.02522442634E-03 -2.09632666148E-03 -4.08910896545E-01 +1.44466982221E-02
3.03500000000E+09 -3.50191173831E-01 +1.94187434487E-01 +5.33467114742E-04 -2.29578131414E-03 +6.15015582369E-04 -2.27315789191E-03 -4.18357578093E-01 +5.51985321482E-02
3.04000000000E+09 -3.42386164710E-01 +2.24245738253E-01 -2.36334765048E-04 -2.04593138364E-03 -1.66874157115E-04 -2.09546275346E-03 -4.25747427057E-01 +9.49996438415E-02
3.04500000000E+09 -3.33231084204E-01 +2.53854687004E-01 +1.42112655222E-05 -1.40326311398E-03 -5.16111524229E-05 -1.53413731320E-03 -4.31277056919E-01 +1.34169672646E-01
3.05000000000E+09 -3.21915923477E-01 +2.83654672392E-01 +1.86039512509E-04 -1.47876179747E-03 +1.73134951112E-04 -1.62964328023E-03 -4.35402942087E-01 +1.73822379081E-01
3.05500000000E+09 -3.08542660033E-01 +3.12419197741E-01 +2.18821957366E-04 -1.93231488397E-03 +6.09241177761E-05 -1.90126079536E-03 -4.34994338975E-01 +2.14481597100E-01
3.06000000000E+09 -2.94157303497E-01 +3.39491944585E-01 -2.77339364748E-04 -2.25977439060E-03 -4.12288363559E-04 -2.14108379955E-03 -4.31590921091E-01 +2.52171935596E-01
3.06500000000E+09 -2.79503199737E-01 +3.65209059955E-01 -1.19022873357E-03 -1.86936419788E-03 -1.13452073871E-03 -1.75875958913E-03 -4.26516789888E-01 +2.88746647450E-01
3.07000000000E+09 -2.64102187209E-01 +3.89690973876E-01 -1.19546863265E-03 -1.06445448171E-03 -1.10339513033E-03 -1.16798849632E-03 -4.20221034544E-01 +3.23257921256E-01
