# Hz S RI R 50
! CMT, C1220, 16058040, 17.2.0/1
! Date: 15/08/2018 10:10:51
! Data: Format (Calibration Info)
! Freq                      S11: Re/Im (F2)                       S21: Re/Im (F2)                       S12: Re/Im (F2)                       S22: Re/Im (F2)            
2.50000000000E+09 +5.99353080491E-01 +6.35045157116E-01 -4.70148499780E-04 -1.67959835322E-04 -5.09699573208E-04 -1.54601779982E-04 +5.73437395130E-01 +7.16232407494E-01
2.50500000000E+09 +6.05554674670E-01 +6.27600285633E-01 -4.13709267515E-04 -1.98287130829E-04 -4.93239266089E-04 -2.11152196524E-04 +5.79000462256E-01 +7.10835050725E-01
2.51000000000E+09 +6.12036069102E-01 +6.19671922330E-01 -4.88882022068E-04 -2.31578153561E-04 -5.15833103747E-04 -2.24572375877E-04 +5.84678075625E-01 +7.05635578250E-01
2.51500000000E+09 +6.18217309036E-01 +6.11659198594E-01 -5.93133317608E-04 -2.03576611926E-04 -5.35863806290E-04 -2.05665205578E-04 +5.90030850448E-01 +7.00194857056E-01
2.52000000000E+09 +6.23958330271E-01 +6.03439552175E-01 -6.89538518802E-04 -1.63301501060E-04 -6.47929953502E-04 -1.75716019753E-04 +5.95194419100E-01 +6.94175729180E-01
2.52500000000E+09 +6.28883361170E-01 +5.95858654701E-01 -7.16175552673E-04 -3.20913349184E-05 -7.18442712899E-04 -9.20888906954E-07 +6.00939242762E-01 +6.87671446426E-01
2.53000000000E+09 +6.33176186742E-01 +5.88828087119E-01 -6.52486684450E-04 +7.44357080904E-05 -6.59567363162E-04 +9.18082291585E-05 +6.06925936725E-01 +6.80674522062E-01
2.53500000000E+09 +6.37440173207E-01 +5.82443363092E-01 -6.46836474393E-04 +9.69580457605E-05 -6.49078318621E-04 +1.44079831077E-04 +6.12906046112E-01 +6.73737137834E-01
2.54000000000E+09 +6.41562427825E-01 +5.76119270991E-01 -6.84937708611E-04 +1.31349262380E-04 -7.18590778172E-04 +1.05855761058E-04 +6.18885547439E-01 +6.67004898126E-01
2.54500000000E+09 +6.45796959898E-01 +5.70080906990E-01 -7.98057895746E-04 +3.29426818207E-04 -8.04014414154E-04 +2.75540220418E-04 +6.24479729356E-01 +6.60402268957E-01
2.55000000000E+09 +6.50402632165E-01 +5.63927086579E-01 -6.66185407507E-04 +4.41311580385E-04 -7.23376725537E-04 +3.97527363554E-04 +6.29878018979E-01 +6.54150933878E-01
2.55500000000E+09 +6.55528412580E-01 +5.56957532915E-01 -5.60005482899E-04 +5.49991128395E-04 -6.57826055623E-04 +5.59515007545E-04 +6.34927687678E-01 +6.47541029289E-01
2.56000000000E+09 +6.61288810263E-01 +5.49952945501E-01 -4.38597372442E-04 +4.86294874311E-04 -4.82198218055E-04 +5.88629929745E-04 +6.40098952838E-01 +6.40496217004E-01
2.56500000000E+09 +6.67505602086E-01 +5.41906861833E-01 -4.33589267797E-04 +4.25936015695E-04 -3.74011111427E-04 +5.30095936521E-04 +6.45560919013E-01 +6.32965426146E-01
2.57000000000E+09 +6.73709358243E-01 +5.33430406053E-01 -6.26294437482E-04 +4.58944774119E-04 -4.71569294559E-04 +5.07287973795E-04 +6.50827124600E-01 +6.24827823386E-01
2.57500000000E+09 +6.79511734058E-01 +5.24449579914E-01 -6.24286129702E-04 +7.57056780294E-04 -4.47522222310E-04 +7.30186278785E-04 +6.56108265089E-01 +6.17305004637E-01
2.58000000000E+09 +6.84526947489E-01 +5.15651791256E-01 -3.43247202765E-04 +9.34013248510E-04 -2.44842485786E-04 +8.01561786297E-04 +6.61022701814E-01 +6.09673139469E-01
2.58500000000E+09 +6.89259321123E-01 +5.06826723592E-01 -1.70231913431E-04 +8.79616373625E-04 -1.77176001104E-04 +7.10478276921E-04 +6.65804973545E-01 +6.02156456908E-01
2.59000000000E+09 +6.93522455906E-01 +4.98352228046E-01 -5.45259977772E-05 +8.75229278786E-04 -1.61266888968E-04 +8.01311765449E-04 +6.70578801285E-01 +5.94671250910E-01
2.59500000000E+09 +6.97733253648E-01 +4.90316774276E-01 -2.60117869978E-05 +7.46731854056E-04 -7.81632142702E-05 +8.01299635360E-04 +6.75199973029E-01 +5.86720375180E-01
2.60000000000E+09 +7.01645645900E-01 +4.81768742189E-01 -3.51097833557E-05 +7.62997598419E-04 -5.55987231274E-05 +8.06668996065E-04 +6.80298088501E-01 +5.78335339944E-01
2.60500000000E+09 +7.05975184870E-01 +4.72639554129E-01 +5.74411309403E-05 +8.72339004710E-04 +4.24121505445E-05 +8.46213557740E-04 +6.85527187413E-01 +5.69615410559E-01
2.61000000000E+09 +7.10182704546E-01 +4.62544867209E-01 +1.37950813516E-04 +8.95466601429E-04 +1.95304751078E-04 +9.55699347221E-04 +6.90315886599E-01 +5.60873717380E-01
2.61500000000E+09 +7.14521251576E-01 +4.51770468922E-01 +2.97908811723E-04 +8.54045440047E-04 +2.99066147882E-04 +8.76023808913E-04 +6.95173818778E-01 +5.52301258880E-01
2.62000000000E+09 +7.18577487093E-01 +4.39858732770E-01 +4.26215629085E-04 +7.68635978035E-04 +4.76088302903E-04 +8.27746563390E-04 +6.99678525001E-01 +5.43283431112E-01
2.62500000000E+09 +7.22594981471E-01 +4.26990079985E-01 +3.89358300967E-04 +6.68385797960E-04 +5.05483067624E-04 +7.13377070589E-04 +7.04427144145E-01 +5.34645086313E-01
2.63000000000E+09 +7.26038818195E-01 +4.13927728470E-01 +4.15439461033E-04 +6.91836153528E-04 +5.27406695043E-04 +6.38945963192E-04 +7.09191071793E-01 +5.25620781323E-01
2.63500000000E+09 +7.29126201228E-01 +4.00885829049E-01 +4.09677961700E-04 +7.06604846159E-04 +4.82483262533E-04 +5.92924010790E-04 +7.13946411201E-01 +5.16485737442E-01
2.64000000000E+09 +7.31794065929E-01 +3.88346080814E-01 +5.49850325406E-04 +7.01921641972E-04 +4.73927425315E-04 +5.76926595629E-04 +7.18661844365E-01 +5.06880483733E-01
2.64500000000E+09 +7.34557431585E-01 +3.76300419313E-01 +6.77982784039E-04 +6.59581222575E-04 +5.12016129064E-04 +5.85571399266E-04 +7.23138713598E-01 +4.97258632404E-01
2.65000000000E+09 +7.36970136576E-01 +3.64631740506E-01 +6.72547872670E-04 +5.96869875500E-04 +5.91905383363E-04 +5.99454744708E-04 +7.27488123650E-01 +4.87749996709E-01
2.65500000000E+09 +7.39190116143E-01 +3.53076022584E-01 +6.45561552851E-04 +5.78354820846E-04 +6.79760180088E-04 +6.50192977566E-04 +7.31875585985E-01 +4.77634358275E-01
2.66000000000E+09 +7.41294022348E-01 +3.41524954731E-01 +8.60950493212E-04 +5.53523635959E-04 +9.20635362575E-04 +6.49823679756E-04 +7.36275641742E-01 +4.66242675317E-01
2.66500000000E+09 +7.43466149605E-01 +3.30096583984E-01 +8.56574017118E-04 +5.69347639728E-04 +9.16496577860E-04 +5.19821327542E-04 +7.40393647798E-01 +4.54954362412E-01
2.67000000000E+09 +7.45473136533E-01 +3.17615452720E-01 +1.14876072543E-03 +6.08623797846E-04 +1.14499485311E-03 +4.76381645571E-04 +7.44784743142E-01 +4.44073517319E-01
2.67500000000E+09 +7.46434776240E-01 +3.04403302050E-01 +1.33240746929E-03 +2.29441779377E-04 +1.24974338683E-03 +1.95775462810E-04 +7.48860919276E-01 +4.32853777023E-01
2.68000000000E+09 +7.47052515193E-01 +2.91145064511E-01 +1.18968410821E-03 -5.10810667034E-05 +1.07318746719E-03 +3.31965528139E-06 +7.52620705856E-01 +4.21843734179E-01
2.68500000000E+09 +7.47441622381E-01 +2.77360147383E-01 +1.07446656280E-03 -1.81869035441E-05 +1.10695497073E-03 +1.50721130274E-05 +7.55911659333E-01 +4.10439564156E-01
2.69000000000E+09 +7.47111311877E-01 +2.63398430435E-01 +1.15110148020E-03 -1.34286892536E-05 +1.21086640873E-03 -1.33510484595E-05 +7.58856267433E-01 +3.98271792032E-01
2.69500000000E+09 +7.46567895498E-01 +2.50366467096E-01 +1.30546144192E-03 -1.62142104684E-04 +1.25476204729E-03 -1.16997423365E-04 +7.61624534459E-01 +3.85543467137E-01
2.70000000000E+09 +7.46653971129E-01 +2.37318601484E-01 +1.39343931472E-03 -2.79884134063E-04 +1.30657504246E-03 -2.53106700862E-04 +7.64448435786E-01 +3.72190441192E-01
2.70500000000E+09 +7.46605141681E-01 +2.24514429615E-01 +1.44546113780E-03 -6.78104422524E-04 +1.44995333113E-03 -5.97154583498E-04 +7.67435536242E-01 +3.58757056560E-01
2.71000000000E+09 +7.47292079446E-01 +2.11943698956E-01 +1.26059577824E-03 -8.72672062154E-04 +1.38596590380E-03 -7.90499961053E-04 +7.70352995795E-01 +3.45348594286E-01
2.71500000000E+09 +7.48590508252E-01 +1.98662409513E-01 +1.15208313763E-03 -1.11665666592E-03 +1.30833715042E-03 -1.11085124620E-03 +7.72688210298E-01 +3.32670320159E-01
2.72000000000E+09 +7.49600891985E-01 +1.84724713267E-01 +7.82329492721E-04 -1.22975568213E-03 +8.22895320573E-04 -1.34205805977E-03 +7.74729819215E-01 +3.19985044672E-01
2.72500000000E+09 +7.50625849160E-01 +1.69934506968E-01 +6.06324716873E-04 -1.09254513829E-03 +5.07855309908E-04 -1.16215273316E-03 +7.75867908687E-01 +3.06667925525E-01
2.73000000000E+09 +7.50671831863E-01 +1.54032132003E-01 +6.53778648305E-04 -1.04782002152E-03 +5.46142701003E-04 -9.67400938804E-04 +7.77627743032E-01 +2.92761136808E-01
2.73500000000E+09 +7.49105470745E-01 +1.37044054644E-01 +6.64785186101E-04 -1.18205183549E-03 +5.59600022030E-04 -1.02093521541E-03 +7.78849649866E-01 +2.77497905212E-01
2.74000000000E+09 +7.46371293912E-01 +1.21003098574E-01 +6.54939715314E-04 -1.31818747606E-03 +6.95470514245E-04 -1.17087839647E-03 +7.80080345520E-01 +2.62146988489E-01
2.74500000000E+09 +7.43210727009E-01 +1.04769438214E-01 +4.61634193257E-04 -1.53695897878E-03 +6.41136656381E-04 -1.42035105663E-03 +7.81068549911E-01 +2.46922765689E-01
2.75000000000E+09 +7.39107543866E-01 +8.86724941391E-02 +1.92920573532E-04 -1.62371761694E-03 +3.74816038260E-04 -1.59818278256E-03 +7.81783313612E-01 +2.31910911460E-01
2.75500000000E+09 +7.34720969323E-01 +7.27090724488E-02 +3.50415551822E-05 -1.50628436246E-03 +1.08074939820E-04 -1.63073706551E-03 +7.82063025657E-01 +2.16809866285E-01
2.76000000000E+09 +7.30662620160E-01 +5.69363559510E-02 +4.87442981085E-05 -1.52648961044E-03 +5.37889349528E-05 -1.64826089838E-03 +7.81743047942E-01 +2.00809935355E-01
2.76500000000E+09 +7.26419053997E-01 +4.04084372918E-02 -2.12389458103E-04 -1.80346906665E-03 -2.73090196774E-04 -1.84066086987E-03 +7.80243880620E-01 +1.83466883667E-01
2.77000000000E+09 +7.22221263645E-01 +2.31791364612E-02 -5.22178422641E-04 -1.61380283954E-03 -5.82355535679E-04 -1.68694142285E-03 +7.78625561433E-01 +1.66221931616E-01
2.77500000000E+09 +7.18087733288E-01 +4.98336427906E-03 -6.76027874058E-04 -1.68177213876E-03 -7.52172298707E-04 -1.69736692932E-03 +7.76981075686E-01 +1.47905728308E-01
2.78000000000E+09 +7.13548196114E-01 -1.45395930416E-02 -9.43383219662E-04 -1.68872647635E-03 -1.00401426306E-03 -1.67491239417E-03 +7.74623675108E-01 +1.29673080546E-01
2.78500000000E+09 +7.07424243692E-01 -3.48535318782E-02 -1.22914756780E-03 -1.41840566501E-03 -1.27485150297E-03 -1.35010611043E-03 +7.71816272210E-01 +1.11875381161E-01
2.79000000000E+09 +7.00658008873E-01 -5.55510383270E-02 -1.20270391291E-03 -1.33287370528E-03 -1.21295859140E-03 -1.19658767442E-03 +7.68224390317E-01 +9.42834386007E-02
2.79500000000E+09 +6.92176195568E-01 -7.64565010562E-02 -1.62907479451E-03 -1.31458215403E-03 -1.56053426739E-03 -1.20773682323E-03 +7.63607386468E-01 +7.65052681434E-02
2.80000000000E+09 +6.82401640539E-01 -9.63757042308E-02 -1.87107448089E-03 -8.81392294280E-04 -1.76229343533E-03 -8.76591421011E-04 +7.58627676962E-01 +5.83291195751E-02
2.80500000000E+09 +6.71666950744E-01 -1.15453275670E-01 -1.92269530237E-03 -5.70690746045E-04 -1.88052176069E-03 -6.49010861779E-04 +7.52672345934E-01 +3.91756544751E-02
2.81000000000E+09 +6.60598938108E-01 -1.33400750682E-01 -1.86173705780E-03 -3.35024360980E-04 -1.89428135744E-03 -3.45967818668E-04 +7.45933108597E-01 +2.01227876710E-02
2.81500000000E+09 +6.48194729725E-01 -1.51031795677E-01 -1.75946089304E-03 -2.33193968936E-05 -1.87063673612E-03 -8.95769171312E-07 +7.39002455488E-01 +7.99550615544E-04
2.82000000000E+09 +6.35020364997E-01 -1.67806025567E-01 -1.63607654936E-03 -1.38950539403E-04 -1.62258603006E-03 -1.21052685640E-04 +7.31045029755E-01 -1.87608750001E-02
2.82500000000E+09 +6.21137665816E-01 -1.84639357188E-01 -2.03142172051E-03 +7.53241128818E-05 -1.87690566275E-03 +1.62806037268E-04 +7.22427572828E-01 -3.83331272494E-02
2.83000000000E+09 +6.05941420196E-01 -2.02432428275E-01 -2.04541154701E-03 +6.22974888105E-04 -1.91234156311E-03 +6.36566510104E-04 +7.12644784605E-01 -5.77549808357E-02
2.83500000000E+09 +5.88558876769E-01 -2.20799641820E-01 -1.67779853480E-03 +1.10579080975E-03 -1.66150242826E-03 +9.53624904165E-04 +7.02670032122E-01 -7.79332240012E-02
2.84000000000E+09 +5.69111514399E-01 -2.38943873195E-01 -1.17065373999E-03 +1.26727141520E-03 -1.26442397064E-03 +1.19352232412E-03 +6.91122499856E-01 -9.87665891118E-02
2.84500000000E+09 +5.47779044052E-01 -2.57580930178E-01 -8.06571300419E-04 +1.00409501779E-03 -8.32549426319E-04 +9.70639720775E-04 +6.78415857735E-01 -1.19123680054E-01
2.85000000000E+09 +5.24875998162E-01 -2.75625189783E-01 -9.37311534084E-04 +7.12889839279E-04 -9.20286083351E-04 +7.71751948327E-04 +6.64998778297E-01 -1.39855310213E-01
2.85500000000E+09 +5.01083385265E-01 -2.93117660634E-01 -1.05371834439E-03 +9.96790769356E-04 -1.03007216068E-03 +9.61810262452E-04 +6.49952895862E-01 -1.60609925149E-01
2.86000000000E+09 +4.76658648961E-01 -3.10337946718E-01 -7.23763846431E-04 +9.22339686442E-04 -7.32607650086E-04 +9.34091712640E-04 +6.33121319614E-01 -1.81284018184E-01
2.86500000000E+09 +4.51162906719E-01 -3.26371045545E-01 -9.69339146814E-04 +9.23881634753E-04 -9.77392151074E-04 +9.07199725387E-04 +6.14813840327E-01 -2.01123967342E-01
2.87000000000E+09 +4.25950256799E-01 -3.40850136662E-01 -8.57230656452E-04 +1.38047199357E-03 -8.78550754817E-04 +1.41605890881E-03 +5.95904307781E-01 -2.19762058712E-01
2.87500000000E+09 +4.00793388574E-01 -3.54360559924E-01 -5.85245989443E-04 +1.31194242385E-03 -5.39558402194E-04 +1.29134233354E-03 +5.76949803365E-01 -2.39705217967E-01
2.88000000000E+09 +3.75057592713E-01 -3.67275945079E-01 -4.15132837521E-04 +1.31463329214E-03 -3.76810134696E-04 +1.23841882153E-03 +5.55289832735E-01 -2.59400064950E-01
2.88500000000E+09 +3.48363815294E-01 -3.78758670097E-01 -1.29411404117E-04 +1.39650400553E-03 -1.33214723474E-04 +1.29421372299E-03 +5.31433970378E-01 -2.77514695002E-01
2.89000000000E+09 +3.20254294391E-01 -3.89050690748E-01 -6.69035380151E-05 +8.16881690119E-04 -1.15759015710E-04 +7.15262646222E-04 +5.06635319102E-01 -2.94582896642E-01
2.89500000000E+09 +2.89862727624E-01 -3.97341697827E-01 -5.49297899743E-04 +1.05249247554E-03 -5.98751009011E-04 +1.07476143836E-03 +4.79491227499E-01 -3.11564225110E-01
2.90000000000E+09 +2.57816996846E-01 -4.03372682402E-01 -4.39530620506E-04 +1.20234818384E-03 -4.58515121260E-04 +1.19086881262E-03 +4.51500777031E-01 -3.26751461168E-01
2.90500000000E+09 +2.23926302624E-01 -4.06496091130E-01 -4.36228537978E-04 +1.51915505110E-03 -4.78375990341E-04 +1.54554559890E-03 +4.22584595759E-01 -3.42533891366E-01
2.91000000000E+09 +1.89810455460E-01 -4.07117804855E-01 +2.02449808880E-04 +1.61776245805E-03 +1.71488315048E-04 +1.57820376255E-03 +3.91404579750E-01 -3.56749231499E-01
2.91500000000E+09 +1.54751600308E-01 -4.06073766463E-01 +8.70124780715E-05 +1.26230084342E-03 +8.04453984849E-05 +1.24028397391E-03 +3.58789200978E-01 -3.68430193013E-01
2.92000000000E+09 +1.18831940795E-01 -4.02747738842E-01 +4.66159804928E-05 +1.68954583521E-03 +1.24627835924E-05 +1.54847604319E-03 +3.26015809544E-01 -3.77652757466E-01
2.92500000000E+09 +8.26057630894E-02 -3.97781281744E-01 +7.74698328502E-04 +1.51652970790E-03 +6.13908505840E-04 +1.50113169410E-03 +2.91038190585E-01 -3.85645764109E-01
2.93000000000E+09 +4.60982161237E-02 -3.90055714509E-01 +5.22676963187E-04 +1.01871024550E-03 +4.66363254202E-04 +1.12228321679E-03 +2.54631450729E-01 -3.91954719083E-01
2.93500000000E+09 +9.95636488437E-03 -3.80059315727E-01 +4.51132335862E-04 +1.33168307228E-03 +4.18316988887E-04 +1.39015900918E-03 +2.16266082286E-01 -3.96246593270E-01
2.94000000000E+09 -2.51821859684E-02 -3.67866176620E-01 +1.43010055334E-04 +1.41824070033E-03 +1.68295240227E-04 +1.47344389480E-03 +1.77667309588E-01 -3.97539333662E-01
2.94500000000E+09 -5.98209121475E-02 -3.53447304628E-01 +8.80947924795E-04 +2.24468271584E-03 +8.56351101621E-04 +2.31729125552E-03 +1.40029032112E-01 -3.98492038267E-01
2.95000000000E+09 -9.37821959174E-02 -3.36088529501E-01 +1.68072283312E-03 +1.40813106663E-03 +1.66782693392E-03 +1.44713028654E-03 +9.96356925715E-02 -3.97185755689E-01
2.95500000000E+09 -1.26407312595E-01 -3.15632790909E-01 +1.40722126482E-03 +1.14057500027E-03 +1.42048464062E-03 +1.21629960069E-03 +5.86224629031E-02 -3.90783307531E-01
2.96000000000E+09 -1.57658586548E-01 -2.92847589609E-01 +1.55805541026E-03 +1.16855590475E-03 +1.64607460695E-03 +1.25063704059E-03 +1.86284245350E-02 -3.80608450615E-01
2.96500000000E+09 -1.88039527755E-01 -2.66774886436E-01 +1.86126825882E-03 +6.80273327388E-04 +1.97946211358E-03 +6.70591960086E-04 -2.06160056318E-02 -3.67400528514E-01
2.97000000000E+09 -2.16074804520E-01 -2.37126495574E-01 +1.30324327695E-03 +6.10242973722E-04 +1.29030484223E-03 +5.63683821697E-04 -5.81000313811E-02 -3.53213930647E-01
2.97500000000E+09 -2.40914517083E-01 -2.05288891377E-01 +1.59927906622E-03 +1.10334748120E-03 +1.56660189991E-03 +1.00142039434E-03 -9.72529754265E-02 -3.38248214209E-01
2.98000000000E+09 -2.63440137243E-01 -1.73299921225E-01 +2.00095724886E-03 +1.01749191922E-03 +1.90809563315E-03 +9.92956098437E-04 -1.36351333413E-01 -3.19162780318E-01
2.98500000000E+09 -2.85091402313E-01 -1.39992568757E-01 +2.60216051437E-03 +6.93038902655E-04 +2.60718260302E-03 +7.68442805964E-04 -1.73844318334E-01 -2.95407250343E-01
2.99000000000E+09 -3.04420098703E-01 -1.05609869126E-01 +2.79565620550E-03 -4.49956763155E-05 +2.91782905389E-03 -2.30198188294E-05 -2.07681134613E-01 -2.69831981701E-01
2.99500000000E+09 -3.21474116143E-01 -7.05876639606E-02 +2.50065307899E-03 -5.61825351668E-04 +2.57113018222E-03 -7.16357908400E-04 -2.41040288403E-01 -2.41638832829E-01
3.00000000000E+09 -3.36333318155E-01 -3.49135716496E-02 +2.35013416963E-03 -4.68830779351E-04 +2.31620682721E-03 -5.77331328157E-04 -2.72075418314E-01 -2.10387768216E-01
3.00500000000E+09 -3.47562506877E-01 +1.77593902856E-04 +2.77768787007E-03 -9.32887781864E-04 +2.69172846495E-03 -9.17552684661E-04 -3.00751148904E-01 -1.77634779270E-01
3.01000000000E+09 -3.56175646445E-01 +3.40787694283E-02 +2.62833483499E-03 -1.64577500049E-03 +2.48226635531E-03 -1.52856424293E-03 -3.27735555147E-01 -1.43184979857E-01
3.01500000000E+09 -3.63164696151E-01 +6.77691911622E-02 +2.27847573516E-03 -2.13248646997E-03 +2.34819779636E-03 -1.95942954142E-03 -3.50535907086E-01 -1.07105498419E-01
3.02000000000E+09 -3.66517339946E-01 +1.01514009035E-01 +1.50449008688E-03 -2.63159956929E-03 +1.68989415057E-03 -2.58939739043E-03 -3.71297113231E-01 -7.15550218300E-02
3.02500000000E+09 -3.66438023262E-01 +1.34918101712E-01 +1.24044317269E-03 -2.30670201387E-03 +1.30606283350E-03 -2.25076965407E-03 -3.90393370636E-01 -3.30128388546E-02
3.03000000000E+09 -3.62927309855E-01 +1.67504898500E-01 +1.07667394292E-03 -2.66605307177E-03 +1.14871817768E-03 -2.59854564485E-03 -4.05456102590E-01 +8.06531713941E-03
3.03500000000E+09 -3.56704166629E-01 +1.98451151466E-01 +5.22132397123E-04 -2.98978566164E-03 +6.16209912665E-04 -2.94945601753E-03 -4.16098057498E-01 +4.83782312933E-02
3.04000000000E+09 -3.49228379101E-01 +2.28968689959E-01 -3.56752099110E-04 -2.87269040168E-03 -2.51079041016E-04 -2.92830734676E-03 -4.24566216713E-01 +8.84753777092E-02
3.04500000000E+09 -3.39803911113E-01 +2.59432088672E-01 -5.18617953470E-04 -2.17726282027E-03 -4.77851503486E-04 -2.32244428434E-03 -4.30684762043E-01 +1.27765822485E-01
3.05000000000E+09 -3.28353640452E-01 +2.89718857151E-01 -5.43041418261E-04 -2.05098688851E-03 -6.18827568240E-04 -2.16204145133E-03 -4.35401370486E-01 +1.67628889204E-01
3.05500000000E+09 -3.14596929418E-01 +3.19248820550E-01 -4.26681757833E-04 -1.96961559012E-03 -5.67775174965E-04 -1.95234425506E-03 -4.35572077886E-01 +2.08295821613E-01
3.06000000000E+09 -2.99906395678E-01 +3.46616470033E-01 -6.38616666259E-04 -2.36869591359E-03 -7.03999023262E-04 -2.33671161054E-03 -4.32639633200E-01 +2.45948128943E-01
3.06500000000E+09 -2.84760404188E-01 +3.72574265241E-01 -1.64748945575E-03 -2.13866012482E-03 -1.56656020342E-03 -2.09365569418E-03 -4.28683221558E-01 +2.82338979682E-01
3.07000000000E+09 -2.69678564646E-01 +3.97187148994E-01 -1.88521114207E-03 -1.30102432944E-03 -1.72349596919E-03 -1.49821350869E-03 -4.23779359042E-01 +3.17764105330E-01
