# Hz S RI R 50
! CMT, C1220, 16058040, 17.2.0/1
! Date: 15/08/2018 10:11:37
! Data: Format (Calibration Info)
! Freq                      S11: Re/Im (F2)                       S21: Re/Im (F2)                       S12: Re/Im (F2)                       S22: Re/Im (F2)            
2.50000000000E+09 +5.99870016995E-01 +6.36048912443E-01 -5.22121061808E-04 -3.07901326105E-04 -5.74488363775E-04 -3.99518057190E-04 +5.73019772283E-01 +7.17047191601E-01
2.50500000000E+09 +6.05939445941E-01 +6.28534738303E-01 -4.90103827269E-04 -3.38542537660E-04 -5.94594976236E-04 -3.09891397578E-04 +5.78589252291E-01 +7.11593425960E-01
2.51000000000E+09 +6.12555395735E-01 +6.20628807818E-01 -5.56455123029E-04 -3.32169334533E-04 -5.73025446507E-04 -3.04163779255E-04 +5.84475241471E-01 +7.06414779996E-01
2.51500000000E+09 +6.18880161803E-01 +6.12647723868E-01 -6.37374983356E-04 -2.90444441739E-04 -6.73128046279E-04 -2.02605336687E-04 +5.89787474175E-01 +7.00786435111E-01
2.52000000000E+09 +6.24629114226E-01 +6.04335186293E-01 -7.36225057851E-04 -1.74502555607E-04 -7.32860565810E-04 -1.93454669254E-04 +5.94929386020E-01 +6.94906194419E-01
2.52500000000E+09 +6.29519819924E-01 +5.96721608240E-01 -7.77203613951E-04 -7.06799266337E-05 -7.56295880743E-04 -2.83272564466E-05 +6.00841571236E-01 +6.88413404158E-01
2.53000000000E+09 +6.34048148590E-01 +5.89461620113E-01 -7.22943192778E-04 +7.28561901541E-05 -7.54422069016E-04 +5.99246463497E-05 +6.06794950932E-01 +6.81529277208E-01
2.53500000000E+09 +6.38224567241E-01 +5.82929411719E-01 -6.87321961280E-04 +8.70579774875E-05 -7.19238211993E-04 +6.51809989832E-05 +6.12817132603E-01 +6.74701193438E-01
2.54000000000E+09 +6.42384999827E-01 +5.76714488617E-01 -7.59264942875E-04 +9.52634193764E-05 -7.71564136957E-04 +8.75129280677E-05 +6.18918277221E-01 +6.67810432902E-01
2.54500000000E+09 +6.46748219196E-01 +5.70547101481E-01 -7.93371890410E-04 +2.79732988116E-04 -8.06288281833E-04 +2.47697169712E-04 +6.24609865047E-01 +6.61302938825E-01
2.55000000000E+09 +6.51359509700E-01 +5.64333271531E-01 -6.57970357228E-04 +4.46076094525E-04 -7.05806651809E-04 +4.22329032317E-04 +6.30008971035E-01 +6.54952760209E-01
2.55500000000E+09 +6.56469479627E-01 +5.57372012697E-01 -5.34618589557E-04 +5.09943194843E-04 -5.73440058607E-04 +5.91803448430E-04 +6.35109666056E-01 +6.48477654814E-01
2.56000000000E+09 +6.62258513792E-01 +5.50343537397E-01 -4.11741342940E-04 +4.38627328499E-04 -4.52288465220E-04 +5.49133807305E-04 +6.40511907371E-01 +6.41365044244E-01
2.56500000000E+09 +6.68412239882E-01 +5.42339538727E-01 -3.93147949803E-04 +3.55258959115E-04 -3.72051974244E-04 +4.11342982659E-04 +6.45993578601E-01 +6.33764005409E-01
2.57000000000E+09 +6.74691453763E-01 +5.33808381972E-01 -5.77245221051E-04 +2.78047180565E-04 -4.30545037198E-04 +3.97586961520E-04 +6.51358770382E-01 +6.25609184132E-01
2.57500000000E+09 +6.80447476472E-01 +5.24818210107E-01 -6.72809139315E-04 +4.91892479234E-04 -5.38028129309E-04 +5.42429369597E-04 +6.56849213455E-01 +6.18073515528E-01
2.58000000000E+09 +6.85446462781E-01 +5.16077687893E-01 -4.80140880901E-04 +7.17773356654E-04 -4.21257055827E-04 +6.57893158777E-04 +6.61909176044E-01 +6.10375975265E-01
2.58500000000E+09 +6.90419060727E-01 +5.07389319411E-01 -2.91644458964E-04 +7.20012824137E-04 -3.19944088683E-04 +6.32414982107E-04 +6.66719706076E-01 +6.02793142208E-01
2.59000000000E+09 +6.94812915215E-01 +4.99024224004E-01 -2.08768808755E-04 +6.22967560044E-04 -2.53029288701E-04 +5.80750026417E-04 +6.71607486967E-01 +5.95081642010E-01
2.59500000000E+09 +6.99141214076E-01 +4.90662902225E-01 -1.96445433360E-04 +5.88908249786E-04 -2.75037047503E-04 +5.75131583925E-04 +6.76322308309E-01 +5.86936273512E-01
2.60000000000E+09 +7.02954771370E-01 +4.82089073526E-01 -2.43612309226E-04 +6.15964781385E-04 -2.52052662684E-04 +6.34106037097E-04 +6.81333977879E-01 +5.78682826387E-01
2.60500000000E+09 +7.07136406293E-01 +4.73106593195E-01 -3.17657303862E-04 +7.07782007372E-04 -3.18358945489E-04 +7.06503024474E-04 +6.86617063084E-01 +5.69777671446E-01
2.61000000000E+09 +7.11393215707E-01 +4.62977259098E-01 -1.96876107281E-04 +9.02172814820E-04 -1.58657180010E-04 +9.18481277494E-04 +6.91324379079E-01 +5.60978924827E-01
2.61500000000E+09 +7.15829780791E-01 +4.52058696139E-01 +1.79359527480E-05 +8.60978412338E-04 -1.45383772075E-05 +8.85602385952E-04 +6.96186799012E-01 +5.52407731510E-01
2.62000000000E+09 +7.19923046309E-01 +4.40078208432E-01 +6.91854512952E-05 +8.92436211267E-04 +1.46041591918E-04 +9.02605269613E-04 +7.00720366850E-01 +5.43155528632E-01
2.62500000000E+09 +7.23909651474E-01 +4.27112152311E-01 +1.63580561788E-04 +7.55156056375E-04 +2.58619135597E-04 +7.88174129448E-04 +7.05343709622E-01 +5.34508636554E-01
2.63000000000E+09 +7.27335370712E-01 +4.13929944070E-01 +2.01607010292E-04 +7.90368898677E-04 +2.61013954850E-04 +7.48096843425E-04 +7.10292151453E-01 +5.25550517320E-01
2.63500000000E+09 +7.30412656562E-01 +4.00878178539E-01 +1.78303818692E-04 +8.50051413461E-04 +2.44203490527E-04 +6.93073129331E-04 +7.15107893809E-01 +5.16029544363E-01
2.64000000000E+09 +7.33162299025E-01 +3.88056367813E-01 +3.26053156473E-04 +9.39030684411E-04 +2.52796362942E-04 +7.78113583316E-04 +7.19737704437E-01 +5.06365516098E-01
2.64500000000E+09 +7.35797711460E-01 +3.76044793145E-01 +5.32360130481E-04 +7.94708569473E-04 +4.42363309899E-04 +7.33504334847E-04 +7.24235921605E-01 +4.96639723099E-01
2.65000000000E+09 +7.38108268519E-01 +3.64279487959E-01 +4.61841737273E-04 +6.94776529044E-04 +3.59134269330E-04 +7.13659901574E-04 +7.28447238681E-01 +4.86872139130E-01
2.65500000000E+09 +7.40422079223E-01 +3.52550246795E-01 +4.71187349572E-04 +7.66379572788E-04 +4.10530781379E-04 +8.25972080698E-04 +7.32765135745E-01 +4.76733482563E-01
2.66000000000E+09 +7.42407871148E-01 +3.41008009978E-01 +6.20814478330E-04 +7.56204422575E-04 +6.19502163031E-04 +7.98304294879E-04 +7.37091024378E-01 +4.65318825954E-01
2.66500000000E+09 +7.44668985261E-01 +3.29606334567E-01 +6.00162137635E-04 +8.02165541864E-04 +6.55692766040E-04 +7.93366191345E-04 +7.41197384470E-01 +4.53851263626E-01
2.67000000000E+09 +7.46752523036E-01 +3.16923757083E-01 +9.03541511607E-04 +9.08508329695E-04 +9.20829584038E-04 +8.05535540838E-04 +7.45354360475E-01 +4.42838327201E-01
2.67500000000E+09 +7.47657586723E-01 +3.03574884169E-01 +1.11074311847E-03 +5.10084487320E-04 +1.08423427197E-03 +4.38112157435E-04 +7.49273438285E-01 +4.31666805672E-01
2.68000000000E+09 +7.48079346851E-01 +2.90254829534E-01 +9.18170399500E-04 +2.95917219090E-04 +8.39547751243E-04 +3.55374415232E-04 +7.53204807719E-01 +4.20636080818E-01
2.68500000000E+09 +7.48415819555E-01 +2.76543987131E-01 +8.92094281693E-04 +4.84980783737E-04 +8.90435368288E-04 +5.07353633772E-04 +7.56314581725E-01 +4.08795739785E-01
2.69000000000E+09 +7.48246633146E-01 +2.62675604951E-01 +1.03029092092E-03 +4.78900379545E-04 +1.01184409835E-03 +5.61744056338E-04 +7.58893073441E-01 +3.96820858730E-01
2.69500000000E+09 +7.47713423854E-01 +2.49226294171E-01 +1.22302559994E-03 +4.08699423979E-04 +1.23955928873E-03 +3.72586463731E-04 +7.61475491723E-01 +3.83946006593E-01
2.70000000000E+09 +7.47682831348E-01 +2.36180997145E-01 +1.39417407397E-03 +2.69836867810E-04 +1.36615821272E-03 +2.95510294232E-04 +7.63955575376E-01 +3.70769936503E-01
2.70500000000E+09 +7.47777076272E-01 +2.23321312699E-01 +1.50081765356E-03 -3.24104518112E-05 +1.47146475604E-03 +3.56081812568E-05 +7.66811225283E-01 +3.57470152411E-01
2.71000000000E+09 +7.48385424304E-01 +2.10586835320E-01 +1.45294141586E-03 -2.99592986273E-04 +1.57157571667E-03 -2.19688551046E-04 +7.69760013287E-01 +3.44010743195E-01
2.71500000000E+09 +7.49711073839E-01 +1.97191359059E-01 +1.38139416471E-03 -4.87159323660E-04 +1.45060294224E-03 -5.02233403670E-04 +7.71959169430E-01 +3.31446707448E-01
2.72000000000E+09 +7.50729938587E-01 +1.82990394110E-01 +1.18112817479E-03 -5.61645869169E-04 +1.24482169308E-03 -6.91802915482E-04 +7.73782389088E-01 +3.18619700544E-01
2.72500000000E+09 +7.51467107079E-01 +1.68035158695E-01 +1.06272396444E-03 -5.82587056569E-04 +9.83083015260E-04 -7.12697618789E-04 +7.74883165445E-01 +3.05398210732E-01
2.73000000000E+09 +7.51269757092E-01 +1.52001984299E-01 +1.15127697108E-03 -5.48977412482E-04 +9.80679633689E-04 -5.55541908445E-04 +7.76222350229E-01 +2.91474827807E-01
2.73500000000E+09 +7.49572867058E-01 +1.34978681034E-01 +1.30617982186E-03 -6.26213154135E-04 +1.10829918947E-03 -5.77663553363E-04 +7.77404719994E-01 +2.76493133876E-01
2.74000000000E+09 +7.46599850198E-01 +1.18949360933E-01 +1.42363839847E-03 -9.79106253079E-04 +1.33427599581E-03 -7.85030516395E-04 +7.78304129263E-01 +2.61222003112E-01
2.74500000000E+09 +7.43181577534E-01 +1.02538195512E-01 +1.22273195157E-03 -1.38514960120E-03 +1.29950274938E-03 -1.12160470553E-03 +7.79389334143E-01 +2.46236269117E-01
2.75000000000E+09 +7.38853677057E-01 +8.62709706231E-02 +7.85678438497E-04 -1.54335193895E-03 +1.02616698211E-03 -1.47323259741E-03 +7.79962441351E-01 +2.31504498571E-01
2.75500000000E+09 +7.34024039872E-01 +7.02355703609E-02 +5.85927372419E-04 -1.28628448456E-03 +7.68445231684E-04 -1.38032963196E-03 +7.80157848730E-01 +2.16274029766E-01
2.76000000000E+09 +7.29470187429E-01 +5.44333092277E-02 +8.16891728183E-04 -1.30251332563E-03 +8.77614392218E-04 -1.39653918959E-03 +7.79599981913E-01 +2.00488490902E-01
2.76500000000E+09 +7.24989028509E-01 +3.82698100465E-02 +6.74689519280E-04 -1.68344246735E-03 +6.65185682213E-04 -1.77437951285E-03 +7.78019564275E-01 +1.83439768330E-01
2.77000000000E+09 +7.20724518198E-01 +2.11495288884E-02 +4.42001234748E-04 -1.77173809789E-03 +4.70692294032E-04 -1.84721139176E-03 +7.76189094202E-01 +1.66507324115E-01
2.77500000000E+09 +7.16342081675E-01 +2.86852611702E-03 +2.16626722814E-04 -1.90218990488E-03 +1.59542905809E-04 -2.04845383532E-03 +7.74507908823E-01 +1.48520279806E-01
2.78000000000E+09 +7.11467888080E-01 -1.65005177292E-02 -8.34539191429E-05 -1.98978733872E-03 -2.30709833564E-04 -2.02198855541E-03 +7.72138331381E-01 +1.30823573160E-01
2.78500000000E+09 +7.05296734469E-01 -3.67660272794E-02 -3.53081215667E-04 -1.80018362353E-03 -4.58181464980E-04 -1.72441142206E-03 +7.69625442717E-01 +1.13417908843E-01
2.79000000000E+09 +6.98036854727E-01 -5.75059819781E-02 -3.79530526864E-04 -1.83466844156E-03 -4.19161648535E-04 -1.73465912934E-03 +7.66285882232E-01 +9.60931752994E-02
2.79500000000E+09 +6.89491936344E-01 -7.78629082341E-02 -8.24412104296E-04 -1.88930052449E-03 -8.02017329778E-04 -1.77112635310E-03 +7.61746255012E-01 +7.84651544411E-02
2.80000000000E+09 +6.79596615600E-01 -9.80056063454E-02 -9.06835301298E-04 -1.61556527247E-03 -8.31070530526E-04 -1.49214809800E-03 +7.56919323830E-01 +6.05074018313E-02
2.80500000000E+09 +6.68616470024E-01 -1.16655469446E-01 -9.98874089874E-04 -1.62394045204E-03 -9.23298633929E-04 -1.63659766743E-03 +7.51400875905E-01 +4.15711736841E-02
2.81000000000E+09 +6.57393927358E-01 -1.34086850223E-01 -1.08648235137E-03 -1.47800018666E-03 -1.13210526542E-03 -1.54515959744E-03 +7.44856156225E-01 +2.25263056396E-02
2.81500000000E+09 +6.45211389264E-01 -1.51573223996E-01 -1.30140394657E-03 -1.46374551133E-03 -1.39833106668E-03 -1.49633559260E-03 +7.38085965783E-01 +3.44217263920E-03
2.82000000000E+09 +6.31939369483E-01 -1.68244923615E-01 -1.52720950738E-03 -1.53226372975E-03 -1.53806847863E-03 -1.48651078888E-03 +7.30348272189E-01 -1.56956205246E-02
2.82500000000E+09 +6.18048233713E-01 -1.84925345412E-01 -2.03719645487E-03 -1.45542391536E-03 -1.95750381223E-03 -1.29145055624E-03 +7.22114269341E-01 -3.50815323216E-02
2.83000000000E+09 +6.02243965323E-01 -2.02754125070E-01 -2.27379073004E-03 -6.75271723525E-04 -2.10225705178E-03 -6.50275911787E-04 +7.12835705724E-01 -5.45618608386E-02
2.83500000000E+09 +5.84584513919E-01 -2.20551570515E-01 -1.98429280729E-03 -2.63764584921E-04 -1.88847320538E-03 -2.86169874152E-04 +7.03173741462E-01 -7.47673796410E-02
2.84000000000E+09 +5.65010962403E-01 -2.38169251816E-01 -1.59438885388E-03 -1.63254698890E-04 -1.63378999749E-03 -2.04782523421E-04 +6.91585982448E-01 -9.55170422584E-02
2.84500000000E+09 +5.43968877553E-01 -2.56327938108E-01 -1.44709985145E-03 -4.68990361692E-04 -1.43888014960E-03 -5.11818146854E-04 +6.79444503796E-01 -1.15799197380E-01
2.85000000000E+09 +5.20989654858E-01 -2.74123027193E-01 -1.96642168067E-03 -6.99420707979E-04 -1.92849319003E-03 -7.06721184767E-04 +6.66328439160E-01 -1.36366358696E-01
2.85500000000E+09 +4.97229234740E-01 -2.91359123765E-01 -2.37298966248E-03 -1.16993762311E-04 -2.32763989352E-03 -8.11796771744E-05 +6.51936069062E-01 -1.56986888701E-01
2.86000000000E+09 +4.72482827445E-01 -3.08282951941E-01 -2.13052828056E-03 +7.76905653120E-05 -2.12407554756E-03 +5.05372917317E-05 +6.35714566848E-01 -1.77635275672E-01
2.86500000000E+09 +4.46909807586E-01 -3.23664549104E-01 -2.48525314279E-03 +2.45416876876E-04 -2.50093859784E-03 +2.54130936284E-04 +6.18338151029E-01 -1.97951382393E-01
2.87000000000E+09 +4.21679934221E-01 -3.37247448804E-01 -2.38228113884E-03 +1.14544332925E-03 -2.43729760067E-03 +1.15591970100E-03 +5.99700742231E-01 -2.17308425183E-01
2.87500000000E+09 +3.97299981491E-01 -3.50320923621E-01 -1.79676218027E-03 +1.08863965333E-03 -1.79062540442E-03 +1.14806384456E-03 +5.81006076009E-01 -2.37397252312E-01
2.88000000000E+09 +3.71632837731E-01 -3.63066985627E-01 -1.78767698382E-03 +1.00686470434E-03 -1.71750209270E-03 +1.08114141310E-03 +5.59934144501E-01 -2.57653902994E-01
2.88500000000E+09 +3.44961220981E-01 -3.74163186574E-01 -1.67913841348E-03 +1.26224889473E-03 -1.61051463063E-03 +1.23359099409E-03 +5.36337822170E-01 -2.76456624898E-01
2.89000000000E+09 +3.17119536593E-01 -3.83681953035E-01 -1.63736780000E-03 +1.01850959775E-03 -1.50591068742E-03 +9.26472876102E-04 +5.11565301085E-01 -2.94091867130E-01
2.89500000000E+09 +2.87500254808E-01 -3.91781677542E-01 -2.06037186500E-03 +1.36700096250E-03 -2.01764410157E-03 +1.28660348789E-03 +4.84768444794E-01 -3.11935740571E-01
2.90000000000E+09 +2.55922875579E-01 -3.97531480513E-01 -1.98726923624E-03 +1.89060886372E-03 -2.06004128553E-03 +1.82903453883E-03 +4.56441036817E-01 -3.27886161152E-01
2.90500000000E+09 +2.22570908229E-01 -4.00667894334E-01 -1.68549816463E-03 +2.39218855801E-03 -1.72130307957E-03 +2.40319360222E-03 +4.27298863459E-01 -3.44015143845E-01
2.91000000000E+09 +1.88296112569E-01 -4.01004451693E-01 -9.09390108998E-04 +2.45897417600E-03 -7.54976795334E-04 +2.47276829584E-03 +3.96069261861E-01 -3.58652667091E-01
2.91500000000E+09 +1.54048019162E-01 -3.99531198594E-01 -1.05767025178E-03 +2.06022831633E-03 -9.33159454264E-04 +1.99469886925E-03 +3.63546054191E-01 -3.70931959320E-01
2.92000000000E+09 +1.18978131113E-01 -3.96093638264E-01 -1.11131109255E-03 +2.71498130417E-03 -1.06580018369E-03 +2.49162169313E-03 +3.30425072688E-01 -3.81045025157E-01
2.92500000000E+09 +8.34152438430E-02 -3.91485817100E-01 -4.23248890993E-04 +2.68717465451E-03 -5.49568929585E-04 +2.59250591659E-03 +2.95051968348E-01 -3.89689057594E-01
2.93000000000E+09 +4.73439027558E-02 -3.83839633912E-01 -5.54145448300E-04 +2.49713272801E-03 -6.33966060235E-04 +2.45467909714E-03 +2.58337827590E-01 -3.96698737546E-01
2.93500000000E+09 +1.15046967034E-02 -3.74235031434E-01 -3.83827425654E-04 +3.01124816404E-03 -4.62914890342E-04 +2.96968935117E-03 +2.19233597212E-01 -4.01744938696E-01
2.94000000000E+09 -2.30906629818E-02 -3.61743870682E-01 -3.70098204111E-04 +3.13050100210E-03 -4.42803284188E-04 +3.13934010437E-03 +1.79606497618E-01 -4.03451754585E-01
2.94500000000E+09 -5.70390394440E-02 -3.47556959489E-01 +3.24538689698E-04 +4.19120422490E-03 +2.50343611627E-04 +4.19426159433E-03 +1.41119990311E-01 -4.04319929801E-01
2.95000000000E+09 -9.05288982679E-02 -3.30466271672E-01 +1.84262144918E-03 +3.57348085564E-03 +1.72833172371E-03 +3.61819879366E-03 +1.00275887539E-01 -4.03093836689E-01
2.95500000000E+09 -1.22455912243E-01 -3.10310655136E-01 +1.97236688123E-03 +3.03961327337E-03 +1.88948628774E-03 +3.15108594691E-03 +5.85852839878E-02 -3.96957896026E-01
2.96000000000E+09 -1.53294190182E-01 -2.87794640383E-01 +2.01656224813E-03 +2.54498212596E-03 +2.03734529659E-03 +2.70130364537E-03 +1.81174415059E-02 -3.87432521670E-01
2.96500000000E+09 -1.83126793056E-01 -2.62219455074E-01 +2.11037091682E-03 +2.69395993483E-03 +2.20266957676E-03 +2.72427392507E-03 -2.29147458958E-02 -3.74576383881E-01
2.97000000000E+09 -2.10600614446E-01 -2.32908773077E-01 +2.36366443683E-03 +2.95195359065E-03 +2.46000875197E-03 +2.92906470281E-03 -6.21429846161E-02 -3.59696560281E-01
2.97500000000E+09 -2.35161124391E-01 -2.01963203996E-01 +3.54451683147E-03 +3.01643124395E-03 +3.44826767555E-03 +2.87515348078E-03 -1.02300597704E-01 -3.43458517968E-01
2.98000000000E+09 -2.57502567163E-01 -1.70175898527E-01 +4.28243447605E-03 +2.08906994773E-03 +4.16478995523E-03 +2.23047191975E-03 -1.42050498193E-01 -3.23359362604E-01
2.98500000000E+09 -2.78948045627E-01 -1.37933354507E-01 +4.75379911919E-03 +1.07590250523E-03 +4.75300768595E-03 +1.35115141253E-03 -1.79937341103E-01 -2.98228563753E-01
2.99000000000E+09 -2.98424327878E-01 -1.03902125068E-01 +4.39365794816E-03 -2.21111485179E-05 +4.57187524979E-03 +2.20058330547E-05 -2.13248258725E-01 -2.71570081317E-01
2.99500000000E+09 -3.15487727321E-01 -6.93040304460E-02 +4.01316184890E-03 -2.43988400851E-04 +4.14429148000E-03 -3.34527871178E-04 -2.46472606226E-01 -2.43198925013E-01
3.00000000000E+09 -3.30010354004E-01 -3.43726308923E-02 +4.06780599718E-03 -2.20322899623E-04 +4.04494960506E-03 -4.35690965239E-04 -2.78267689241E-01 -2.11562851203E-01
3.00500000000E+09 -3.41947822894E-01 -9.26999570217E-05 +4.58420610801E-03 -9.48053510932E-04 +4.39694836740E-03 -1.05336248797E-03 -3.07085686759E-01 -1.77497254288E-01
3.01000000000E+09 -3.50710412216E-01 +3.36948803857E-02 +4.46783554210E-03 -2.18779739439E-03 +4.29589680896E-03 -1.99157533007E-03 -3.33790119287E-01 -1.41951724248E-01
3.01500000000E+09 -3.57759402382E-01 +6.69099812423E-02 +3.66869602610E-03 -2.86433573048E-03 +3.74015784817E-03 -2.70338982868E-03 -3.56484684313E-01 -1.04970829425E-01
3.02000000000E+09 -3.61148405970E-01 +1.00173083604E-01 +2.92709438467E-03 -3.18875782655E-03 +3.09505879088E-03 -3.19611772346E-03 -3.76604712145E-01 -6.82711789315E-02
3.02500000000E+09 -3.61873783350E-01 +1.33125834609E-01 +2.81265949983E-03 -3.33100687170E-03 +2.84816178990E-03 -3.34023417036E-03 -3.94817632820E-01 -2.90541359363E-02
3.03000000000E+09 -3.58371355682E-01 +1.65751793194E-01 +2.02124431615E-03 -4.13878991735E-03 +2.03862831276E-03 -4.18020443083E-03 -4.08983644488E-01 +1.21017438846E-02
3.03500000000E+09 -3.52465397254E-01 +1.95816677936E-01 +8.72725769254E-04 -4.32003632392E-03 +9.40223577131E-04 -4.30634714551E-03 -4.19096322003E-01 +5.27546275420E-02
3.04000000000E+09 -3.45806363144E-01 +2.26303172525E-01 -2.14937110050E-04 -3.51214324254E-03 -6.79311290852E-05 -3.65567239334E-03 -4.26873208825E-01 +9.29301351013E-02
3.04500000000E+09 -3.36695408149E-01 +2.56632882976E-01 +8.17248781740E-05 -2.54703141086E-03 +1.04557168902E-04 -2.72262112322E-03 -4.32727715304E-01 +1.32469603102E-01
3.05000000000E+09 -3.25655826325E-01 +2.86963568337E-01 +4.83551446051E-04 -2.65652984116E-03 +4.32080616480E-04 -2.84401401291E-03 -4.36984794057E-01 +1.72826268664E-01
3.05500000000E+09 -3.12343463990E-01 +3.16298496035E-01 +5.99896615532E-04 -3.35353088091E-03 +3.72562431560E-04 -3.42642837336E-03 -4.36141339568E-01 +2.13706655561E-01
3.06000000000E+09 -2.97953745853E-01 +3.43809567487E-01 -3.14224696203E-04 -4.24213156130E-03 -4.77514059795E-04 -4.12593538284E-03 -4.32517315598E-01 +2.51134693243E-01
3.06500000000E+09 -2.83140141759E-01 +3.69480056947E-01 -1.99760295053E-03 -3.53593265322E-03 -1.82768535171E-03 -3.41608781343E-03 -4.27486855567E-01 +2.87749911274E-01
3.07000000000E+09 -2.68275551581E-01 +3.94021943671E-01 -2.15814512770E-03 -2.23531105444E-03 -1.91432916512E-03 -2.35768425464E-03 -4.21482090554E-01 +3.22420617849E-01
