# Hz S RI R 50
! CMT, C1220, 16058040, 17.2.0/1
! Date: 15/08/2018 10:10:14
! Data: Format (Calibration Info)
! Freq                      S11: Re/Im (F2)                       S21: Re/Im (F2)                       S12: Re/Im (F2)                       S22: Re/Im (F2)            
2.50000000000E+09 +6.00149830120E-01 +6.35693627366E-01 -5.67350547356E-04 -2.53716779106E-04 -6.02908437424E-04 -2.66703668149E-04 +5.73111639963E-01 +7.16924830684E-01
2.50500000000E+09 +6.06428495575E-01 +6.28293442283E-01 -5.12283718655E-04 -2.62676636797E-04 -5.51425601426E-04 -2.35261295825E-04 +5.78713433092E-01 +7.11471037660E-01
2.51000000000E+09 +6.12895923134E-01 +6.20317020394E-01 -5.78807717913E-04 -2.68284242231E-04 -5.97066168278E-04 -2.04999083337E-04 +5.84570281912E-01 +7.06364618613E-01
2.51500000000E+09 +6.19229635996E-01 +6.12210839702E-01 -6.35639872017E-04 -2.85718254198E-04 -5.93369061790E-04 -2.56839500283E-04 +5.89908265312E-01 +7.00841164461E-01
2.52000000000E+09 +6.25030419486E-01 +6.04081186174E-01 -7.82889337634E-04 -1.41646802582E-04 -7.48213598703E-04 -1.61993569014E-04 +5.95224629442E-01 +6.94830853764E-01
2.52500000000E+09 +6.30002725897E-01 +5.96502936812E-01 -7.80780319625E-04 -3.97905825408E-06 -8.02861849346E-04 -5.43235707259E-05 +6.00932877498E-01 +6.88427475568E-01
2.53000000000E+09 +6.34520776059E-01 +5.89348697014E-01 -7.26669195895E-04 +1.19068464375E-04 -7.49675260586E-04 +1.33188374694E-04 +6.07010528470E-01 +6.81288178872E-01
2.53500000000E+09 +6.38764929653E-01 +5.82817600169E-01 -6.48053931589E-04 +1.36527139224E-04 -5.98613667582E-04 +1.40865389410E-04 +6.13094658456E-01 +6.74480754701E-01
2.54000000000E+09 +6.42892845618E-01 +5.76635290725E-01 -6.50104527316E-04 +1.27344283488E-04 -6.41399176888E-04 +9.86882189461E-05 +6.19119937572E-01 +6.67653638853E-01
2.54500000000E+09 +6.47294421642E-01 +5.70428996384E-01 -7.00143643900E-04 +1.86359912018E-04 -7.36229467848E-04 +1.71932501407E-04 +6.24802831763E-01 +6.61107898464E-01
2.55000000000E+09 +6.51969396506E-01 +5.64241315594E-01 -6.66604792945E-04 +3.79809794498E-04 -7.48489283839E-04 +3.39079352464E-04 +6.30154682766E-01 +6.54814370318E-01
2.55500000000E+09 +6.57128618092E-01 +5.57242741603E-01 -6.06236420355E-04 +4.50967156586E-04 -6.60866898505E-04 +5.21705508571E-04 +6.35339485249E-01 +6.48224298954E-01
2.56000000000E+09 +6.62927546824E-01 +5.50129131619E-01 -4.20133116363E-04 +4.75605417881E-04 -4.87317011945E-04 +6.14173475601E-04 +6.40608580553E-01 +6.41001725774E-01
2.56500000000E+09 +6.69138052358E-01 +5.42051308326E-01 -3.93700973612E-04 +3.54750445084E-04 -3.91672412183E-04 +5.25246743783E-04 +6.46063863615E-01 +6.33468603376E-01
2.57000000000E+09 +6.75358349063E-01 +5.33502762065E-01 -5.52200066987E-04 +2.86888669594E-04 -4.96323296951E-04 +4.17171665748E-04 +6.51472307879E-01 +6.25361370690E-01
2.57500000000E+09 +6.81381558252E-01 +5.24304882953E-01 -7.21932894578E-04 +5.49840958628E-04 -4.95447974298E-04 +5.54195157608E-04 +6.56785117875E-01 +6.17647370989E-01
2.58000000000E+09 +6.86426314526E-01 +5.15375765015E-01 -5.29382312979E-04 +7.96650818458E-04 -3.84162256969E-04 +6.81480707802E-04 +6.61799863246E-01 +6.10150052512E-01
2.58500000000E+09 +6.91276695027E-01 +5.06452453945E-01 -3.37878254658E-04 +7.46912297937E-04 -2.64783651644E-04 +6.25972369928E-04 +6.66773776466E-01 +6.02384865003E-01
2.59000000000E+09 +6.95632003694E-01 +4.98024432559E-01 -2.48931448862E-04 +7.14131364317E-04 -2.89197645685E-04 +6.41450813192E-04 +6.71605521580E-01 +5.94750807241E-01
2.59500000000E+09 +6.99761637706E-01 +4.89672843277E-01 -2.50193312358E-04 +6.89981157018E-04 -2.27312704884E-04 +6.42171005263E-04 +6.76248397008E-01 +5.86740823086E-01
2.60000000000E+09 +7.03781780343E-01 +4.81063572370E-01 -2.51218776289E-04 +6.63156953782E-04 -2.87061011499E-04 +7.11519550404E-04 +6.81384010991E-01 +5.78200227255E-01
2.60500000000E+09 +7.08076078578E-01 +4.71678190511E-01 -2.83560646239E-04 +8.71535318679E-04 -2.93690670947E-04 +9.12858197198E-04 +6.86376724269E-01 +5.69376842638E-01
2.61000000000E+09 +7.12324575913E-01 +4.61609638809E-01 -1.39555754443E-05 +1.04267927443E-03 -4.74655530206E-05 +1.06503463669E-03 +6.91175771538E-01 +5.60726416882E-01
2.61500000000E+09 +7.16816033683E-01 +4.50629864779E-01 +2.26128056051E-04 +9.95101602089E-04 +1.86583313173E-04 +9.11856058173E-04 +6.96140161137E-01 +5.52041102710E-01
2.62000000000E+09 +7.20951200134E-01 +4.38552755284E-01 +2.47996362985E-04 +8.17270262695E-04 +2.75971606244E-04 +8.53494274346E-04 +7.00616266894E-01 +5.42815580281E-01
2.62500000000E+09 +7.24858961646E-01 +4.25544627255E-01 +2.00719529042E-04 +7.53326454959E-04 +2.77272604578E-04 +7.70347440177E-04 +7.05258155314E-01 +5.34102057005E-01
2.63000000000E+09 +7.28346963127E-01 +4.12350396647E-01 +2.05890559536E-04 +7.93285689478E-04 +3.15629524084E-04 +7.36830825313E-04 +7.10153434244E-01 +5.25075258981E-01
2.63500000000E+09 +7.31409893767E-01 +3.99062815026E-01 +2.82875677969E-04 +8.48289440010E-04 +2.93161199597E-04 +7.04924174954E-04 +7.14851496161E-01 +5.15537324669E-01
2.64000000000E+09 +7.34060493260E-01 +3.86242273573E-01 +3.98047478139E-04 +9.65241410890E-04 +3.51279915607E-04 +7.64396651452E-04 +7.19340000417E-01 +5.05783571912E-01
2.64500000000E+09 +7.36757619304E-01 +3.74185577807E-01 +6.27580902292E-04 +7.97598371545E-04 +4.95111869141E-04 +7.18043129615E-04 +7.23805955992E-01 +4.96337864778E-01
2.65000000000E+09 +7.38950464743E-01 +3.62347680772E-01 +5.42093620525E-04 +6.62030825108E-04 +4.63703950351E-04 +6.65635170089E-04 +7.27948588642E-01 +4.86577709798E-01
2.65500000000E+09 +7.41161193090E-01 +3.50752771969E-01 +5.26551667407E-04 +7.04147453468E-04 +4.84301280063E-04 +8.04744100376E-04 +7.32206995548E-01 +4.76603168865E-01
2.66000000000E+09 +7.43302123837E-01 +3.38870228688E-01 +7.02146100641E-04 +7.06089377391E-04 +7.68764439255E-04 +7.84131672045E-04 +7.36593014196E-01 +4.65079658841E-01
2.66500000000E+09 +7.45230269286E-01 +3.27478210703E-01 +6.56871178552E-04 +6.62113062032E-04 +6.89981966420E-04 +7.10307898559E-04 +7.40726912940E-01 +4.53628811740E-01
2.67000000000E+09 +7.47161513450E-01 +3.14742947625E-01 +8.44028335050E-04 +8.95177789411E-04 +9.11047158103E-04 +7.81710309167E-04 +7.44762619830E-01 +4.42610042529E-01
2.67500000000E+09 +7.48352563776E-01 +3.01487484654E-01 +1.16112922766E-03 +5.47522184561E-04 +1.04175565900E-03 +4.89567125410E-04 +7.48664886558E-01 +4.31547243676E-01
2.68000000000E+09 +7.48875489879E-01 +2.87847160487E-01 +1.12735551878E-03 +4.06372551742E-04 +1.03445958893E-03 +3.90785252069E-04 +7.52421895770E-01 +4.20507319126E-01
2.68500000000E+09 +7.49083669706E-01 +2.73883029862E-01 +1.13781893786E-03 +3.75875780784E-04 +1.06095386473E-03 +3.92270130425E-04 +7.55605390080E-01 +4.08924342212E-01
2.69000000000E+09 +7.48730676302E-01 +2.59821830008E-01 +1.22590242084E-03 +3.18638366203E-04 +1.20257615267E-03 +3.62404609993E-04 +7.58216764866E-01 +3.96863198393E-01
2.69500000000E+09 +7.48113890084E-01 +2.46440045923E-01 +1.31427647882E-03 +1.99519013721E-04 +1.32040784484E-03 +2.05001482136E-04 +7.60784053554E-01 +3.84146197929E-01
2.70000000000E+09 +7.47859876236E-01 +2.33303476833E-01 +1.44739914411E-03 +4.42794963380E-05 +1.40041480578E-03 +1.02702784669E-04 +7.63381791631E-01 +3.71089069603E-01
2.70500000000E+09 +7.47911253340E-01 +2.20353438139E-01 +1.49228883170E-03 -2.65623209027E-04 +1.45407377955E-03 -1.62906725921E-04 +7.66256841876E-01 +3.57674805568E-01
2.71000000000E+09 +7.48306038667E-01 +2.07411721873E-01 +1.43040139003E-03 -4.36946694150E-04 +1.44092809715E-03 -3.58564280712E-04 +7.68938402845E-01 +3.44378067730E-01
2.71500000000E+09 +7.49602175423E-01 +1.93925094132E-01 +1.41464729013E-03 -5.97102477151E-04 +1.45720780991E-03 -6.28200542368E-04 +7.71342527600E-01 +3.31824534695E-01
2.72000000000E+09 +7.50364066225E-01 +1.79581036197E-01 +1.15095121647E-03 -7.94708648516E-04 +1.23870077382E-03 -9.50976629448E-04 +7.73159754729E-01 +3.19145000000E-01
2.72500000000E+09 +7.50964210473E-01 +1.64367458645E-01 +1.02553198886E-03 -8.23136720243E-04 +9.34115725995E-04 -9.56470926018E-04 +7.74202683816E-01 +3.05858395765E-01
2.73000000000E+09 +7.50418061552E-01 +1.48204329594E-01 +9.67725946448E-04 -7.58488766497E-04 +8.42600538244E-04 -7.91877420412E-04 +7.75728556432E-01 +2.92219243712E-01
2.73500000000E+09 +7.48481664035E-01 +1.31154260515E-01 +1.04892109221E-03 -9.25351861330E-04 +9.26043267217E-04 -8.07084683146E-04 +7.76930712980E-01 +2.77212918971E-01
2.74000000000E+09 +7.45241567788E-01 +1.14730213575E-01 +1.13204523603E-03 -1.08144616538E-03 +1.10124349441E-03 -8.86035657470E-04 +7.77956540175E-01 +2.62079753283E-01
2.74500000000E+09 +7.41548137325E-01 +9.85517643002E-02 +8.75258073914E-04 -1.40663605607E-03 +1.06353757420E-03 -1.20166414144E-03 +7.79026165947E-01 +2.47205084491E-01
2.75000000000E+09 +7.36922353894E-01 +8.23709306537E-02 +5.06888163087E-04 -1.43941718204E-03 +7.38567166242E-04 -1.42597211428E-03 +7.79971773012E-01 +2.32355923738E-01
2.75500000000E+09 +7.32170165555E-01 +6.65407552753E-02 +5.39060188013E-04 -1.31776516629E-03 +6.31991281682E-04 -1.38817409994E-03 +7.80196037843E-01 +2.17071005677E-01
2.76000000000E+09 +7.27390268622E-01 +5.08287479066E-02 +5.87640315587E-04 -1.38554706629E-03 +6.60663368956E-04 -1.44069572492E-03 +7.79830967175E-01 +2.01377214494E-01
2.76500000000E+09 +7.22780405912E-01 +3.47625378781E-02 +4.93337965386E-04 -1.65652300638E-03 +5.18277355546E-04 -1.77688828174E-03 +7.78307185011E-01 +1.84262309401E-01
2.77000000000E+09 +7.18505491756E-01 +1.76345029345E-02 +2.47697602869E-04 -1.79774516845E-03 +1.91014718205E-04 -1.84842319977E-03 +7.76438597587E-01 +1.67432257733E-01
2.77500000000E+09 +7.13981939511E-01 -3.43815409866E-04 -9.73089735488E-05 -1.75546758785E-03 -1.67204078670E-04 -1.90612201887E-03 +7.75040932092E-01 +1.49706465734E-01
2.78000000000E+09 +7.08910779338E-01 -1.96459087799E-02 -3.39792344404E-04 -1.69987988815E-03 -4.11834736288E-04 -1.74419129279E-03 +7.73135145099E-01 +1.31713281516E-01
2.78500000000E+09 +7.02584119240E-01 -3.98146114347E-02 -4.17007268540E-04 -1.50698449707E-03 -4.93226034756E-04 -1.50658253610E-03 +7.70637931813E-01 +1.13958839739E-01
2.79000000000E+09 +6.95215558627E-01 -6.03885356040E-02 -3.75673040559E-04 -1.66907018353E-03 -4.50622506460E-04 -1.58864259469E-03 +7.67316670360E-01 +9.64758547566E-02
2.79500000000E+09 +6.86598175377E-01 -8.08103329419E-02 -7.76035382658E-04 -1.70822357480E-03 -7.84431886196E-04 -1.69783163304E-03 +7.62897920470E-01 +7.88795786603E-02
2.80000000000E+09 +6.76557920299E-01 -1.00699856165E-01 -8.55157294086E-04 -1.66845345799E-03 -7.73644351373E-04 -1.59392223768E-03 +7.58050388932E-01 +6.08461658780E-02
2.80500000000E+09 +6.65463573627E-01 -1.19685370518E-01 -1.30081544744E-03 -1.80322921449E-03 -1.19599218954E-03 -1.80435042045E-03 +7.52591491001E-01 +4.18605874326E-02
2.81000000000E+09 +6.53561174259E-01 -1.37260745911E-01 -1.56198717133E-03 -1.34630025447E-03 -1.57330193804E-03 -1.35310577866E-03 +7.46120425492E-01 +2.27067936557E-02
2.81500000000E+09 +6.40986729337E-01 -1.54453783201E-01 -1.51125371729E-03 -9.99563998215E-04 -1.55166015126E-03 -1.03838264555E-03 +7.39518980978E-01 +3.45263751222E-03
2.82000000000E+09 +6.27480930222E-01 -1.70987041173E-01 -1.60042981044E-03 -1.28101347079E-03 -1.62405189881E-03 -1.24884452483E-03 +7.32101353443E-01 -1.61068794679E-02
2.82500000000E+09 +6.13339615797E-01 -1.87315379908E-01 -2.24759750513E-03 -8.97519375644E-04 -2.20940541865E-03 -7.77875867043E-04 +7.23743895752E-01 -3.58676111202E-02
2.83000000000E+09 +5.97626714276E-01 -2.04842457108E-01 -2.05673454484E-03 -1.25938432273E-04 -1.98980012290E-03 -1.07712798297E-04 +7.14261813354E-01 -5.57731708378E-02
2.83500000000E+09 +5.79725088208E-01 -2.22960301071E-01 -1.75421955693E-03 -2.63584942411E-05 -1.69308577115E-03 -7.28061513617E-05 +7.04233263469E-01 -7.60683205839E-02
2.84000000000E+09 +5.59378248541E-01 -2.40189265705E-01 -1.62714344500E-03 +1.27826800150E-04 -1.60485553577E-03 +1.11688206593E-04 +6.92630447705E-01 -9.68301872996E-02
2.84500000000E+09 +5.37951797291E-01 -2.57855021086E-01 -1.43162572795E-03 +6.68157033598E-05 -1.44541388648E-03 +2.33659292198E-06 +6.80610807936E-01 -1.17063729618E-01
2.85000000000E+09 +5.14704666449E-01 -2.74967876314E-01 -1.64310842021E-03 -9.11786054835E-05 -1.66189282047E-03 -6.90701137731E-05 +6.67617280426E-01 -1.38113233706E-01
2.85500000000E+09 +4.91018748041E-01 -2.91547299169E-01 -1.83569405093E-03 +2.95724541255E-04 -1.78813860885E-03 +3.85844030546E-04 +6.52656302253E-01 -1.59447560027E-01
2.86000000000E+09 +4.66487851317E-01 -3.08034290824E-01 -1.33167218278E-03 +3.39930982430E-04 -1.34363138197E-03 +3.26223830190E-04 +6.35958619973E-01 -1.79953374599E-01
2.86500000000E+09 +4.40771538868E-01 -3.23366509346E-01 -1.75562137727E-03 +2.46175332379E-04 -1.76762307733E-03 +1.69174188521E-04 +6.18126713057E-01 -2.00369630618E-01
2.87000000000E+09 +4.15563573962E-01 -3.36354159441E-01 -1.60690356539E-03 +8.32872680650E-04 -1.66380594082E-03 +8.11744258069E-04 +5.99274940558E-01 -2.19613344852E-01
2.87500000000E+09 +3.91269125830E-01 -3.48993690764E-01 -1.59590253332E-03 +5.70891592720E-04 -1.53217846805E-03 +5.67631466391E-04 +5.80422176819E-01 -2.39529619405E-01
2.88000000000E+09 +3.65478752336E-01 -3.61140428013E-01 -1.77020204977E-03 +8.78121855851E-04 -1.68230322815E-03 +9.24138486043E-04 +5.59027670483E-01 -2.59889905484E-01
2.88500000000E+09 +3.39648480018E-01 -3.71401868621E-01 -1.38989728359E-03 +1.20073215500E-03 -1.31455089135E-03 +1.16990874071E-03 +5.35303608173E-01 -2.78613551331E-01
2.89000000000E+09 +3.12073263382E-01 -3.81006481220E-01 -1.30584374132E-03 +6.96173108259E-04 -1.19972018037E-03 +6.32132153843E-04 +5.10306888361E-01 -2.96361516109E-01
2.89500000000E+09 +2.82684710128E-01 -3.88395598736E-01 -1.95415475335E-03 +1.14949306500E-03 -1.92144226633E-03 +9.81601900797E-04 +4.82739185499E-01 -3.14069090824E-01
2.90000000000E+09 +2.51729509550E-01 -3.93821021369E-01 -1.71623720096E-03 +1.76016877202E-03 -1.79612355150E-03 +1.69044761187E-03 +4.54297398651E-01 -3.29754687844E-01
2.90500000000E+09 +2.19007192930E-01 -3.96764165496E-01 -1.27564198405E-03 +2.14418646985E-03 -1.35454442674E-03 +2.18094234161E-03 +4.24657613589E-01 -3.45802200337E-01
2.91000000000E+09 +1.84896476259E-01 -3.97283300171E-01 -5.90389084498E-04 +1.83569880526E-03 -4.94813560299E-04 +1.83477796952E-03 +3.93158570881E-01 -3.59571951575E-01
2.91500000000E+09 +1.50611214350E-01 -3.95379984863E-01 -1.25308850222E-03 +1.40833458585E-03 -1.16682011703E-03 +1.39137015485E-03 +3.60857500759E-01 -3.71398542959E-01
2.92000000000E+09 +1.15828995855E-01 -3.91163064287E-01 -1.46694123907E-03 +2.44400620913E-03 -1.39139818532E-03 +2.28546857948E-03 +3.28052892792E-01 -3.81729803906E-01
2.92500000000E+09 +8.09876510043E-02 -3.86242870263E-01 -6.11257264059E-04 +2.92383338383E-03 -7.21698285847E-04 +2.69752516116E-03 +2.92007141503E-01 -3.90460500267E-01
2.93000000000E+09 +4.54173228316E-02 -3.78420612678E-01 -4.47785214458E-05 +2.67612762332E-03 -1.83995222751E-04 +2.61116979578E-03 +2.54739024050E-01 -3.96929551525E-01
2.93500000000E+09 +9.96521375694E-03 -3.68401105124E-01 +2.55846305957E-04 +2.48070552923E-03 +1.80810315307E-04 +2.50256512118E-03 +2.15307708510E-01 -4.01225880720E-01
2.94000000000E+09 -2.41761471585E-02 -3.55983011445E-01 -3.63366456640E-04 +2.17559888134E-03 -4.07479029730E-04 +2.19023012191E-03 +1.75731341893E-01 -4.01809971339E-01
2.94500000000E+09 -5.78450945172E-02 -3.41186161712E-01 -7.64402254196E-05 +3.51215554878E-03 -1.07274704550E-04 +3.43012433700E-03 +1.38296394952E-01 -4.01654038872E-01
2.95000000000E+09 -9.01066058615E-02 -3.24035789645E-01 +1.28243047298E-03 +3.18602856344E-03 +1.19653707799E-03 +3.20360689983E-03 +9.82083917850E-02 -4.01248740614E-01
2.95500000000E+09 -1.21853126041E-01 -3.04307402308E-01 +1.47184983844E-03 +2.63646811139E-03 +1.39067104187E-03 +2.79031566788E-03 +5.63576547583E-02 -3.94971353024E-01
2.96000000000E+09 -1.52013819859E-01 -2.81435644151E-01 +1.54221454026E-03 +2.53976912470E-03 +1.67351245165E-03 +2.66588099247E-03 +1.57188599551E-02 -3.84911205178E-01
2.96500000000E+09 -1.80988420836E-01 -2.56022793902E-01 +1.86084960670E-03 +2.37350509163E-03 +2.00747720216E-03 +2.47964481781E-03 -2.45018816650E-02 -3.71848216582E-01
2.97000000000E+09 -2.07751112149E-01 -2.26982232057E-01 +1.90621488959E-03 +2.57173406421E-03 +1.99977180865E-03 +2.54550223738E-03 -6.38105421986E-02 -3.56952457273E-01
2.97500000000E+09 -2.31422050134E-01 -1.96333707510E-01 +2.84233365073E-03 +2.83756718965E-03 +2.78095512800E-03 +2.74181870977E-03 -1.03778396649E-01 -3.40135694560E-01
2.98000000000E+09 -2.52955319515E-01 -1.65827526492E-01 +3.52420712741E-03 +1.97962674232E-03 +3.42938673561E-03 +2.03673031223E-03 -1.42538541922E-01 -3.19442916988E-01
2.98500000000E+09 -2.74634109141E-01 -1.34044695179E-01 +3.69914518926E-03 +1.26107482550E-03 +3.70867197408E-03 +1.39957257846E-03 -1.79538281524E-01 -2.94820912583E-01
2.99000000000E+09 -2.93624744138E-01 -1.00361310743E-01 +3.46389341551E-03 +6.71350231199E-04 +3.61435353266E-03 +7.47289758746E-04 -2.12320537159E-01 -2.68930900420E-01
2.99500000000E+09 -3.10236821689E-01 -6.64337757459E-02 +3.51340390237E-03 +8.05647742947E-04 +3.70410255033E-03 +7.24812468831E-04 -2.46028156213E-01 -2.40958573158E-01
3.00000000000E+09 -3.24605668477E-01 -3.18717340567E-02 +4.17763920802E-03 +6.81616046003E-04 +4.20955717641E-03 +4.91446338741E-04 -2.77906889803E-01 -2.09179189241E-01
3.00500000000E+09 -3.35930978837E-01 +1.87686244677E-03 +4.95692669568E-03 -4.96565761441E-04 +4.74121442780E-03 -5.73364612638E-04 -3.07010659356E-01 -1.74763640084E-01
3.01000000000E+09 -3.44687364339E-01 +3.47608971627E-02 +4.31521626208E-03 -1.99269068303E-03 +4.15785866461E-03 -1.81495088625E-03 -3.33054555979E-01 -1.38705873877E-01
3.01500000000E+09 -3.51677306285E-01 +6.73169883682E-02 +3.60680458906E-03 -2.32202456037E-03 +3.59461169029E-03 -2.17486458927E-03 -3.54493312585E-01 -1.01648744149E-01
3.02000000000E+09 -3.55574826027E-01 +9.99504080294E-02 +2.90605667272E-03 -2.60807258738E-03 +3.00034432789E-03 -2.50634299277E-03 -3.73769070617E-01 -6.60081191658E-02
3.02500000000E+09 -3.55890170700E-01 +1.32702347171E-01 +3.13560014601E-03 -2.52193966718E-03 +3.25057216297E-03 -2.50177705299E-03 -3.92165804937E-01 -2.77342609890E-02
3.03000000000E+09 -3.52796221504E-01 +1.64634741340E-01 +2.63781388976E-03 -3.50839515014E-03 +2.71191940296E-03 -3.51677487940E-03 -4.06716299840E-01 +1.32742594354E-02
3.03500000000E+09 -3.47133173543E-01 +1.94726618082E-01 +1.80725498284E-03 -4.04151982223E-03 +1.84720328977E-03 -4.05639823539E-03 -4.16535070482E-01 +5.37070227986E-02
3.04000000000E+09 -3.39814674053E-01 +2.24927504713E-01 +5.41820830403E-04 -3.88805179104E-03 +7.00306970727E-04 -4.04945839585E-03 -4.24602676561E-01 +9.35101527707E-02
3.04500000000E+09 -3.30980223548E-01 +2.54508128302E-01 +4.19324567318E-04 -2.97045085650E-03 +5.18319996717E-04 -3.19517685951E-03 -4.30255824481E-01 +1.33490180359E-01
3.05000000000E+09 -3.19941716251E-01 +2.84356463277E-01 +5.66348798061E-04 -3.02487347946E-03 +5.12067950812E-04 -3.22303061272E-03 -4.33566382868E-01 +1.73080293774E-01
3.05500000000E+09 -3.06887701326E-01 +3.13367967480E-01 +6.03846300481E-04 -3.52877307509E-03 +3.98607040882E-04 -3.61497297271E-03 -4.32983198533E-01 +2.12876263090E-01
3.06000000000E+09 -2.92634774361E-01 +3.40215974437E-01 -3.39826296458E-04 -4.17128803901E-03 -5.42526815844E-04 -4.02101932883E-03 -4.29793216531E-01 +2.49789662559E-01
3.06500000000E+09 -2.78347104895E-01 +3.65854710273E-01 -1.61376966088E-03 -3.45748975419E-03 -1.53614985820E-03 -3.25282483182E-03 -4.25697819383E-01 +2.85866034243E-01
3.07000000000E+09 -2.63850103319E-01 +3.90389666250E-01 -1.73970471687E-03 -2.50160125854E-03 -1.61098073904E-03 -2.59808462899E-03 -4.20384172594E-01 +3.20849887814E-01
