# Hz S RI R 50
! CMT, C1220, 16058040, 17.2.0/1
! Date: 15/08/2018 10:10:41
! Data: Format (Calibration Info)
! Freq                      S11: Re/Im (F2)                       S21: Re/Im (F2)                       S12: Re/Im (F2)                       S22: Re/Im (F2)            
2.50000000000E+09 +5.99720910960E-01 +6.34924430011E-01 -5.80105864576E-04 -1.89782480900E-04 -5.58721091090E-04 -2.08842733979E-04 +5.73386213271E-01 +7.16380235536E-01
2.50500000000E+09 +6.05811904159E-01 +6.27446294895E-01 -5.24190810020E-04 -2.51784404360E-04 -5.34243669153E-04 -1.84360168272E-04 +5.79018947095E-01 +7.10932763364E-01
2.51000000000E+09 +6.12303634826E-01 +6.19476082679E-01 -5.63379342461E-04 -2.49169718113E-04 -5.51221029408E-04 -1.79331534316E-04 +5.84717920924E-01 +7.05736374972E-01
2.51500000000E+09 +6.18444261466E-01 +6.11499850568E-01 -6.49451440328E-04 -1.97612743263E-04 -6.22131822282E-04 -1.59467381950E-04 +5.90006006979E-01 +7.00210733610E-01
2.52000000000E+09 +6.24004497353E-01 +6.03322646341E-01 -7.48909162132E-04 -5.60432932822E-05 -7.25372775796E-04 -6.56466506694E-05 +5.95193470327E-01 +6.94237059289E-01
2.52500000000E+09 +6.28934121269E-01 +5.95762093551E-01 -7.64545882938E-04 +1.07993858725E-04 -7.05824089726E-04 +5.36858014028E-05 +6.00901968450E-01 +6.87781797313E-01
2.53000000000E+09 +6.33354651587E-01 +5.88649943439E-01 -6.99477023415E-04 +1.98453276536E-04 -6.75160769233E-04 +1.96312084666E-04 +6.06903405335E-01 +6.80739827425E-01
2.53500000000E+09 +6.37539063046E-01 +5.82267280039E-01 -6.57646673088E-04 +2.56019657142E-04 -6.26366999696E-04 +2.11620701515E-04 +6.12760475793E-01 +6.73851992591E-01
2.54000000000E+09 +6.41729598336E-01 +5.76036460556E-01 -6.43870142261E-04 +2.21769365886E-04 -6.19634575550E-04 +2.10261061054E-04 +6.18876491545E-01 +6.67090906187E-01
2.54500000000E+09 +6.45953436444E-01 +5.69985843063E-01 -7.19647248658E-04 +4.36994278720E-04 -7.53436418041E-04 +3.29559463046E-04 +6.24414270522E-01 +6.60619654830E-01
2.55000000000E+09 +6.50598553327E-01 +5.63804855140E-01 -5.35356310272E-04 +4.84061632722E-04 -6.32580757120E-04 +4.90340689428E-04 +6.29836817505E-01 +6.54363255064E-01
2.55500000000E+09 +6.55661274446E-01 +5.56775368444E-01 -4.43172810075E-04 +5.54338691371E-04 -5.27164914687E-04 +6.04037254822E-04 +6.34949853086E-01 +6.47760564879E-01
2.56000000000E+09 +6.61462887113E-01 +5.49830797480E-01 -3.61596854537E-04 +5.02239320353E-04 -3.30827767485E-04 +5.89143931632E-04 +6.40090919204E-01 +6.40677301524E-01
2.56500000000E+09 +6.67646767182E-01 +5.41733397286E-01 -2.95623618928E-04 +4.33608378383E-04 -2.73129685466E-04 +5.11367522041E-04 +6.45622551121E-01 +6.33129568059E-01
2.57000000000E+09 +6.73910882803E-01 +5.33205682666E-01 -4.80476700197E-04 +3.71176615554E-04 -3.73330247120E-04 +4.96074993201E-04 +6.50976807779E-01 +6.25101809284E-01
2.57500000000E+09 +6.79789784774E-01 +5.23977275745E-01 -5.18187509167E-04 +6.88338357156E-04 -3.74297820942E-04 +6.70195711959E-04 +6.56285530063E-01 +6.17449178532E-01
2.58000000000E+09 +6.84923966983E-01 +5.15258759371E-01 -3.05175001243E-04 +7.92806714381E-04 -1.74735136066E-04 +6.85387996543E-04 +6.61350059750E-01 +6.09832347600E-01
2.58500000000E+09 +6.89601303819E-01 +5.06368604837E-01 -1.56776395601E-04 +7.08913631877E-04 -1.57734468949E-04 +5.73163295305E-04 +6.66185966201E-01 +6.02235192813E-01
2.59000000000E+09 +6.93842834058E-01 +4.97910786722E-01 -8.95935813012E-05 +7.31786384112E-04 -1.72134906405E-04 +7.04659289918E-04 +6.70826932809E-01 +5.94606245566E-01
2.59500000000E+09 +6.97913070801E-01 +4.89738413910E-01 -8.60967573800E-05 +6.61594291277E-04 -1.60806140830E-04 +6.56280108366E-04 +6.75578517054E-01 +5.86614642700E-01
2.60000000000E+09 +7.01931895666E-01 +4.81187472604E-01 -1.86405462330E-04 +6.94154620350E-04 -1.67186053694E-04 +7.16607139746E-04 +6.80433041231E-01 +5.78131982333E-01
2.60500000000E+09 +7.06106363794E-01 +4.72156619757E-01 -7.48155856205E-05 +8.11058111078E-04 -6.61263033317E-05 +7.97926039606E-04 +6.85481614726E-01 +5.69441409055E-01
2.61000000000E+09 +7.10254861393E-01 +4.62137166460E-01 +5.73369062672E-05 +9.48046997269E-04 +5.91960471588E-05 +8.63875098894E-04 +6.90366269958E-01 +5.60916616866E-01
2.61500000000E+09 +7.14629156714E-01 +4.51233496155E-01 +1.85777509171E-04 +8.20864095458E-04 +1.76070386594E-04 +8.60121066264E-04 +6.95149753423E-01 +5.52330341484E-01
2.62000000000E+09 +7.18603937838E-01 +4.39290702260E-01 +2.87793752889E-04 +8.29463008799E-04 +3.54446280282E-04 +8.24577743196E-04 +6.99685568539E-01 +5.43377734219E-01
2.62500000000E+09 +7.22623335136E-01 +4.26475093999E-01 +3.60431724185E-04 +7.23936388801E-04 +4.46865843639E-04 +7.17998233844E-04 +7.04424372349E-01 +5.34653313934E-01
2.63000000000E+09 +7.26135839629E-01 +4.13476298157E-01 +3.63387248717E-04 +7.69501658024E-04 +4.40641375548E-04 +6.82702445872E-04 +7.09351857095E-01 +5.25681270275E-01
2.63500000000E+09 +7.29044034154E-01 +4.00429927929E-01 +4.24498838289E-04 +8.32985881773E-04 +4.45080170216E-04 +6.90923389604E-04 +7.14078367597E-01 +5.16435846896E-01
2.64000000000E+09 +7.31806589740E-01 +3.87805305840E-01 +5.86987272984E-04 +8.39781213557E-04 +5.21649413477E-04 +7.12631378845E-04 +7.18920769305E-01 +5.06815855194E-01
2.64500000000E+09 +7.34531727406E-01 +3.75873756560E-01 +7.45693873072E-04 +7.37248847950E-04 +6.14492296735E-04 +7.09992264261E-04 +7.23329055108E-01 +4.97251238940E-01
2.65000000000E+09 +7.36937472357E-01 +3.64251139566E-01 +7.99957870173E-04 +5.78504174660E-04 +6.46416674573E-04 +6.72977427389E-04 +7.27604109024E-01 +4.87585593572E-01
2.65500000000E+09 +7.39114746971E-01 +3.52666216973E-01 +7.66698637852E-04 +5.65974828327E-04 +7.57187590390E-04 +6.56151357513E-04 +7.32080183784E-01 +4.77385261797E-01
2.66000000000E+09 +7.41233677487E-01 +3.40876361759E-01 +9.26458911835E-04 +5.70685127018E-04 +1.00129821222E-03 +6.08219343541E-04 +7.36328598901E-01 +4.65925853732E-01
2.66500000000E+09 +7.43385878030E-01 +3.29584288619E-01 +9.23858485745E-04 +4.77826984821E-04 +9.78202567002E-04 +4.96758722802E-04 +7.40603639678E-01 +4.54657133702E-01
2.67000000000E+09 +7.45353195247E-01 +3.16967968123E-01 +1.23490944466E-03 +4.54385314279E-04 +1.17945705438E-03 +4.57251756296E-04 +7.44958908154E-01 +4.43681162957E-01
2.67500000000E+09 +7.46347959751E-01 +3.03761676188E-01 +1.34856250528E-03 +1.62737874793E-04 +1.26223151433E-03 +1.13210881553E-04 +7.48830195713E-01 +4.32406065509E-01
2.68000000000E+09 +7.46858823862E-01 +2.90507763732E-01 +1.18610660488E-03 -1.00087988036E-04 +1.15532556352E-03 -1.00773596160E-04 +7.52537947832E-01 +4.21522655516E-01
2.68500000000E+09 +7.47267456158E-01 +2.76545219234E-01 +1.11945332810E-03 -1.09786943595E-04 +1.06379250656E-03 -7.00494960025E-05 +7.55727002393E-01 +4.10074917349E-01
2.69000000000E+09 +7.46701328232E-01 +2.62601062726E-01 +1.06222433872E-03 -1.17230601625E-04 +1.09205227926E-03 -6.13729472227E-05 +7.58623662056E-01 +3.98124196789E-01
2.69500000000E+09 +7.46332716264E-01 +2.49629234122E-01 +1.18072156969E-03 -1.60966294021E-04 +1.19785696759E-03 -2.12071883383E-04 +7.61398683901E-01 +3.85297986782E-01
2.70000000000E+09 +7.46166693952E-01 +2.36624996504E-01 +1.25128515181E-03 -3.01826728680E-04 +1.24985661469E-03 -2.76353809328E-04 +7.64117553754E-01 +3.72046364309E-01
2.70500000000E+09 +7.46217215213E-01 +2.23884623789E-01 +1.34900697345E-03 -6.16358573863E-04 +1.37216028412E-03 -5.86682551455E-04 +7.67037440092E-01 +3.58722904352E-01
2.71000000000E+09 +7.46837312163E-01 +2.11239706058E-01 +1.17366169111E-03 -8.11587128398E-04 +1.20533832726E-03 -7.81721130170E-04 +7.69981156355E-01 +3.45415773767E-01
2.71500000000E+09 +7.48184141542E-01 +1.97928495442E-01 +1.10656616973E-03 -9.79113873700E-04 +1.18492017606E-03 -1.05205380871E-03 +7.72574902811E-01 +3.32882778990E-01
2.72000000000E+09 +7.48989471355E-01 +1.83956944126E-01 +7.75528088135E-04 -1.09280663872E-03 +7.46536311879E-04 -1.22825372651E-03 +7.74430634425E-01 +3.20029771227E-01
2.72500000000E+09 +7.49929930856E-01 +1.69138212208E-01 +7.35091059776E-04 -9.90042008732E-04 +5.96024872957E-04 -1.07127881682E-03 +7.75718970007E-01 +3.06698214910E-01
2.73000000000E+09 +7.49944928496E-01 +1.53269004132E-01 +7.67814660919E-04 -1.01585173689E-03 +5.88678909738E-04 -9.76587425922E-04 +7.77344287164E-01 +2.92879756574E-01
2.73500000000E+09 +7.48414428360E-01 +1.36407248603E-01 +7.18530587812E-04 -1.14595812085E-03 +5.94865017868E-04 -1.02502131214E-03 +7.78873405020E-01 +2.77734550956E-01
2.74000000000E+09 +7.45440255044E-01 +1.20377106890E-01 +6.39087532363E-04 -1.29036024600E-03 +7.25867600427E-04 -1.07190333570E-03 +7.79999878921E-01 +2.62262217415E-01
2.74500000000E+09 +7.42258161432E-01 +1.04214283893E-01 +4.99534536875E-04 -1.51459905113E-03 +6.59340655336E-04 -1.34395147488E-03 +7.81047713407E-01 +2.46994646292E-01
2.75000000000E+09 +7.38085408550E-01 +8.81780395969E-02 +2.77137170072E-04 -1.56201313456E-03 +4.95544827686E-04 -1.57495860382E-03 +7.81832045204E-01 +2.32051978749E-01
2.75500000000E+09 +7.33683388164E-01 +7.22570946514E-02 +1.41683225307E-04 -1.61347150745E-03 +2.26414131209E-04 -1.71237137790E-03 +7.81966660013E-01 +2.16730717767E-01
2.76000000000E+09 +7.29566272605E-01 +5.66548076377E-02 +7.90773800611E-05 -1.63186709824E-03 +1.25399490028E-04 -1.76192397139E-03 +7.81608772547E-01 +2.00776793327E-01
2.76500000000E+09 +7.25299831440E-01 +4.02111899135E-02 -2.26272631116E-04 -1.91088951324E-03 -2.54544542927E-04 -1.98827709062E-03 +7.80126614073E-01 +1.83542315354E-01
2.77000000000E+09 +7.21133548266E-01 +2.31116645689E-02 -6.16017752238E-04 -1.72569654859E-03 -6.37603229515E-04 -1.79070621852E-03 +7.78479864541E-01 +1.66304062394E-01
2.77500000000E+09 +7.16997432071E-01 +5.02706893413E-03 -8.21847669049E-04 -1.66103051293E-03 -9.03813901805E-04 -1.71885143329E-03 +7.76779937449E-01 +1.48070748667E-01
2.78000000000E+09 +7.12431335794E-01 -1.44128593138E-02 -1.05447804744E-03 -1.57379277393E-03 -1.13363881295E-03 -1.50352691687E-03 +7.74406817792E-01 +1.29893970485E-01
2.78500000000E+09 +7.06263437975E-01 -3.45969971917E-02 -1.24273199397E-03 -1.38191295836E-03 -1.35330622963E-03 -1.26447855459E-03 +7.71832171494E-01 +1.12262676650E-01
2.79000000000E+09 +6.99475791088E-01 -5.53312564396E-02 -1.24511641261E-03 -1.24069826840E-03 -1.27399077171E-03 -1.10702775463E-03 +7.68330614036E-01 +9.45997726727E-02
2.79500000000E+09 +6.91065909281E-01 -7.60795229805E-02 -1.60727716000E-03 -1.22588596689E-03 -1.54168656296E-03 -1.13251395642E-03 +7.63831266978E-01 +7.68262703297E-02
2.80000000000E+09 +6.81350495811E-01 -9.61309074903E-02 -1.83965618972E-03 -8.03882530105E-04 -1.73645960048E-03 -7.73741596979E-04 +7.58848547986E-01 +5.85022773677E-02
2.80500000000E+09 +6.70571335219E-01 -1.15112748444E-01 -1.91668674192E-03 -5.57883203553E-04 -1.82280451223E-03 -5.68200581985E-04 +7.53045904207E-01 +3.92194373722E-02
2.81000000000E+09 +6.59478221128E-01 -1.32928449970E-01 -1.81439417824E-03 -2.52276052935E-04 -1.89005536471E-03 -2.53289193048E-04 +7.46311982639E-01 +2.01001515316E-02
2.81500000000E+09 +6.47085425262E-01 -1.50462575099E-01 -1.74375053348E-03 +3.36184218346E-05 -1.72751482021E-03 +7.67327636037E-05 +7.39330330235E-01 +7.08865647168E-04
2.82000000000E+09 +6.33970601804E-01 -1.67200470288E-01 -1.61266752015E-03 -7.31546081305E-05 -1.60116328850E-03 -1.19045952362E-05 +7.31487882064E-01 -1.89480166554E-02
2.82500000000E+09 +6.20288340127E-01 -1.83806221359E-01 -1.96588429578E-03 +1.56675326648E-04 -1.92153798845E-03 +1.80160790688E-04 +7.22607309556E-01 -3.85626970384E-02
2.83000000000E+09 +6.04966742177E-01 -2.01601032374E-01 -1.89310915875E-03 +7.54621495453E-04 -1.79593048380E-03 +7.53943330647E-04 +7.12866071926E-01 -5.79390053722E-02
2.83500000000E+09 +5.87649038201E-01 -2.19926508444E-01 -1.59238222390E-03 +9.85723736157E-04 -1.45140481890E-03 +9.02250987113E-04 +7.02863535047E-01 -7.82819547938E-02
2.84000000000E+09 +5.68172509975E-01 -2.38097103639E-01 -1.18544002042E-03 +1.16485549305E-03 -1.17289471328E-03 +1.08033426616E-03 +6.90955103804E-01 -9.91696069488E-02
2.84500000000E+09 +5.46908174320E-01 -2.56548317994E-01 -8.30449768887E-04 +9.00410847247E-04 -8.07840341074E-04 +8.64363006667E-04 +6.78269082736E-01 -1.19448839463E-01
2.85000000000E+09 +5.24019159816E-01 -2.74427220470E-01 -9.05361737214E-04 +7.35193581035E-04 -8.97305856862E-04 +7.01636496101E-04 +6.64629970734E-01 -1.39953117701E-01
2.85500000000E+09 +5.00476513939E-01 -2.91742958796E-01 -1.08251066322E-03 +9.44283597023E-04 -1.09553864087E-03 +9.12721174593E-04 +6.49589242403E-01 -1.60615683334E-01
2.86000000000E+09 +4.76061389321E-01 -3.08943053596E-01 -7.33794751558E-04 +1.02962959331E-03 -6.85953348933E-04 +9.85244592873E-04 +6.32909624306E-01 -1.81016934761E-01
2.86500000000E+09 +4.50729820647E-01 -3.24886656550E-01 -9.45618293332E-04 +9.27919286922E-04 -1.01415716626E-03 +9.50658260425E-04 +6.14754320377E-01 -2.00777214037E-01
2.87000000000E+09 +4.25664465849E-01 -3.39292215579E-01 -7.74973676571E-04 +1.38396054020E-03 -8.09516138471E-04 +1.43555547880E-03 +5.95971638968E-01 -2.19616116497E-01
2.87500000000E+09 +4.00715988685E-01 -3.52809835602E-01 -5.09927163191E-04 +1.32935764408E-03 -4.72254352263E-04 +1.35546761714E-03 +5.77067835274E-01 -2.39503241730E-01
2.88000000000E+09 +3.75082983823E-01 -3.65548642363E-01 -3.90276037005E-04 +1.45116627620E-03 -3.62946212890E-04 +1.40256347076E-03 +5.55391965789E-01 -2.59318004348E-01
2.88500000000E+09 +3.48703837848E-01 -3.76898145835E-01 +1.72444816717E-05 +1.49294417071E-03 +5.66180815975E-05 +1.41992603131E-03 +5.31534175875E-01 -2.77273975479E-01
2.89000000000E+09 +3.20731334358E-01 -3.87307438104E-01 +1.60849817034E-04 +8.11181201105E-04 +1.21388593242E-04 +7.92388142525E-04 +5.06890457406E-01 -2.94417625828E-01
2.89500000000E+09 +2.90691475116E-01 -3.95751445049E-01 -3.48594177671E-04 +1.06633417621E-03 -3.04567581739E-04 +1.08824985265E-03 +4.79752736722E-01 -3.11475070654E-01
2.90000000000E+09 +2.58908050619E-01 -4.01873937584E-01 -6.11657608745E-05 +1.10600039807E-03 -5.49350808068E-05 +1.13036831338E-03 +4.51826965666E-01 -3.26640443672E-01
2.90500000000E+09 +2.25161801897E-01 -4.05179571496E-01 +8.82864014528E-06 +1.20805713477E-03 +5.37261197076E-05 +1.16921160152E-03 +4.22844592668E-01 -3.42738704365E-01
2.91000000000E+09 +1.91048093692E-01 -4.05977371952E-01 +3.62317183628E-04 +1.01082982548E-03 +4.08181627536E-04 +9.97077751302E-04 +3.91590162422E-01 -3.56739772098E-01
2.91500000000E+09 +1.56230739555E-01 -4.05098960514E-01 +2.35844009611E-05 +7.41003187889E-04 -1.04892123180E-05 +7.16619533721E-04 +3.59088656366E-01 -3.68379069604E-01
2.92000000000E+09 +1.20373248679E-01 -4.01989015048E-01 -1.31865180950E-04 +1.21846479568E-03 -1.07263333053E-04 +1.08509636888E-03 +3.26577538959E-01 -3.77894946638E-01
2.92500000000E+09 +8.41187502893E-02 -3.97360533436E-01 +4.44515743125E-04 +1.19914326064E-03 +3.70673646642E-04 +1.10040348986E-03 +2.91353609686E-01 -3.86101984497E-01
2.93000000000E+09 +4.75552054870E-02 -3.89764085423E-01 +1.70573021794E-04 +7.89003714717E-04 +1.00064963713E-04 +7.11842239730E-04 +2.54741928971E-01 -3.92438289716E-01
2.93500000000E+09 +1.13853333812E-02 -3.79990527001E-01 +4.33318788594E-05 +1.02021163969E-03 -7.70500232134E-05 +1.05185333736E-03 +2.16300466400E-01 -3.96696517464E-01
2.94000000000E+09 -2.40212619738E-02 -3.68035926394E-01 -3.96690117429E-04 +1.25809586710E-03 -4.83290765696E-04 +1.27690783052E-03 +1.77692470717E-01 -3.97901309645E-01
2.94500000000E+09 -5.88757404858E-02 -3.53471001081E-01 +2.03417740817E-04 +2.35743336337E-03 +1.60302264901E-04 +2.36111077210E-03 +1.40204417036E-01 -3.98798930375E-01
2.95000000000E+09 -9.27721978404E-02 -3.36087740521E-01 +1.23075441044E-03 +1.71698516920E-03 +1.17442525060E-03 +1.76000963438E-03 +9.98944774995E-02 -3.97868155283E-01
2.95500000000E+09 -1.25418714106E-01 -3.15650699596E-01 +9.84557765422E-04 +1.47754480291E-03 +9.46784032311E-04 +1.55043149276E-03 +5.87747215111E-02 -3.91552247453E-01
2.96000000000E+09 -1.56630907488E-01 -2.92965982262E-01 +1.27170424097E-03 +1.65490884230E-03 +1.34120529766E-03 +1.78195751157E-03 +1.85658646662E-02 -3.81790252127E-01
2.96500000000E+09 -1.87033743718E-01 -2.66885405402E-01 +1.75620187060E-03 +1.22107990166E-03 +1.86213752843E-03 +1.26410009544E-03 -2.10493708664E-02 -3.68323612651E-01
2.97000000000E+09 -2.15187905336E-01 -2.37118648178E-01 +1.40485456755E-03 +1.14227117983E-03 +1.53415640738E-03 +1.10689342854E-03 -5.90266961622E-02 -3.54283210651E-01
2.97500000000E+09 -2.39649042109E-01 -2.05268673672E-01 +1.91822026332E-03 +1.35253044438E-03 +1.96540662043E-03 +1.34598928024E-03 -9.86070752346E-02 -3.38830617572E-01
2.98000000000E+09 -2.62081924178E-01 -1.73624073284E-01 +2.27951729000E-03 +1.10524018734E-03 +2.26369227535E-03 +1.15451955281E-03 -1.37556568680E-01 -3.19272585790E-01
2.98500000000E+09 -2.83774111431E-01 -1.40517923856E-01 +2.82512369456E-03 +6.88013846077E-04 +2.81069000679E-03 +8.19342277406E-04 -1.74883142246E-01 -2.95338511181E-01
2.99000000000E+09 -3.03165958646E-01 -1.06301955848E-01 +2.93447357836E-03 -2.73303755923E-05 +3.12348755067E-03 -3.74800131157E-05 -2.08588015942E-01 -2.69773656156E-01
2.99500000000E+09 -3.20426827650E-01 -7.15527813125E-02 +2.67894456870E-03 -5.21637300308E-04 +2.69299720438E-03 -6.50938003805E-04 -2.41999580877E-01 -2.41502223373E-01
3.00000000000E+09 -3.35382731464E-01 -3.57508256107E-02 +2.64660028310E-03 -4.51158117141E-04 +2.59717203721E-03 -5.48060099930E-04 -2.73264876411E-01 -2.10345764217E-01
3.00500000000E+09 -3.46618429275E-01 -8.78333169711E-04 +2.99522143065E-03 -1.06565146876E-03 +2.92216127895E-03 -1.07943043292E-03 -3.02025052668E-01 -1.76998634246E-01
3.01000000000E+09 -3.55346285547E-01 +3.29065937639E-02 +2.62771138600E-03 -1.89131723343E-03 +2.48687913012E-03 -1.87415699989E-03 -3.28620236138E-01 -1.42170384468E-01
3.01500000000E+09 -3.62488104078E-01 +6.65472478880E-02 +2.00797476962E-03 -2.35676461826E-03 +2.11557661384E-03 -2.16017465934E-03 -3.51188772722E-01 -1.06024033237E-01
3.02000000000E+09 -3.66164252481E-01 +1.00157164069E-01 +1.36025828144E-03 -2.45299629363E-03 +1.44425437870E-03 -2.46912148738E-03 -3.71508972055E-01 -7.04440313978E-02
3.02500000000E+09 -3.66275206856E-01 +1.33735318240E-01 +1.14932181562E-03 -2.24853741054E-03 +1.17567244143E-03 -2.22688675503E-03 -3.90540350262E-01 -3.22388062066E-02
3.03000000000E+09 -3.62938105907E-01 +1.66466049324E-01 +9.44439002398E-04 -2.49975262327E-03 +9.29888145834E-04 -2.54487820406E-03 -4.05686578420E-01 +8.93780384205E-03
3.03500000000E+09 -3.56756090474E-01 +1.97473435735E-01 +4.68384555338E-04 -2.77594569058E-03 +5.67852528051E-04 -2.76689582809E-03 -4.16100250131E-01 +4.94014177732E-02
3.04000000000E+09 -3.49249777073E-01 +2.28229022752E-01 -4.22527440473E-04 -2.59992767577E-03 -3.56593161217E-04 -2.66606608017E-03 -4.24506886484E-01 +8.92782601652E-02
3.04500000000E+09 -3.39793575593E-01 +2.58670649914E-01 -4.75234435278E-04 -1.85505128815E-03 -5.41430030412E-04 -1.88234166478E-03 -4.30785431201E-01 +1.28772433482E-01
3.05000000000E+09 -3.28405991999E-01 +2.89034597436E-01 -3.78279416697E-04 -1.65917081196E-03 -3.85884178959E-04 -1.77491195983E-03 -4.35153129486E-01 +1.68574283961E-01
3.05500000000E+09 -3.14731411325E-01 +3.18678806735E-01 -1.82520671025E-04 -1.74688077409E-03 -3.33936766408E-04 -1.78640501906E-03 -4.35255305393E-01 +2.09222978498E-01
3.06000000000E+09 -2.99925464052E-01 +3.46019797984E-01 -3.18887008773E-04 -2.17828254877E-03 -4.34373873620E-04 -2.04442745442E-03 -4.32118460670E-01 +2.46840717529E-01
3.06500000000E+09 -2.84926927405E-01 +3.71933681054E-01 -1.28825481026E-03 -2.00374950632E-03 -1.18540884478E-03 -1.92208140565E-03 -4.27984319912E-01 +2.83048350021E-01
3.07000000000E+09 -2.69621964332E-01 +3.96759491826E-01 -1.36019650762E-03 -1.34311769100E-03 -1.24689360380E-03 -1.37846777234E-03 -4.23009987619E-01 +3.18427022417E-01
