# Hz S RI R 50
! CMT, C1220, 16058040, 17.2.0/1
! Date: 15/08/2018 10:08:52
! Data: Format (Calibration Info)
! Freq                      S11: Re/Im (F2)                       S21: Re/Im (F2)                       S12: Re/Im (F2)                       S22: Re/Im (F2)            
2.50000000000E+09 +5.98587133432E-01 +6.33845563211E-01 -6.41216054000E-04 -2.31870116963E-04 -6.96959561948E-04 -3.34373507973E-04 +5.73038493648E-01 +7.16345541951E-01
2.50500000000E+09 +6.04763253143E-01 +6.26336715301E-01 -5.87999034746E-04 -2.72414637544E-04 -6.25552569607E-04 -2.04382917000E-04 +5.78679256600E-01 +7.10964062397E-01
2.51000000000E+09 +6.11350653609E-01 +6.18500852947E-01 -6.20785724778E-04 -2.43881310204E-04 -6.20498487803E-04 -2.27920350418E-04 +5.84537695083E-01 +7.05847518442E-01
2.51500000000E+09 +6.17570839333E-01 +6.10474886742E-01 -7.35141587082E-04 -2.58018315208E-04 -6.90749213284E-04 -2.32329139316E-04 +5.89712193001E-01 +7.00247910079E-01
2.52000000000E+09 +6.23182483485E-01 +6.02342190805E-01 -7.56006674677E-04 -1.71840135518E-04 -7.32090761591E-04 -1.75665691536E-04 +5.94867876431E-01 +6.94368661303E-01
2.52500000000E+09 +6.27995674181E-01 +5.94815484662E-01 -8.07293028096E-04 -1.14546322068E-05 -8.56606969563E-04 -5.27086834696E-05 +6.00595177346E-01 +6.87789745424E-01
2.53000000000E+09 +6.32526394099E-01 +5.87897680853E-01 -7.35960238807E-04 +9.17409243241E-05 -7.57120383365E-04 +1.18400908143E-04 +6.06532597965E-01 +6.80786967999E-01
2.53500000000E+09 +6.36771691991E-01 +5.81412409404E-01 -7.21300297956E-04 +1.30875600558E-04 -7.39396081038E-04 +1.41807957940E-04 +6.12521573466E-01 +6.74013068868E-01
2.54000000000E+09 +6.40757517806E-01 +5.75085926507E-01 -7.42610768509E-04 +1.57599876857E-04 -7.47785824797E-04 +1.68375371200E-04 +6.18542712671E-01 +6.67263117460E-01
2.54500000000E+09 +6.45009448403E-01 +5.69214344374E-01 -7.34338688044E-04 +3.65160390805E-04 -7.78124913500E-04 +3.26960644761E-04 +6.24205840563E-01 +6.60861492214E-01
2.55000000000E+09 +6.49769123996E-01 +5.63104878077E-01 -6.43637599596E-04 +4.54886046608E-04 -6.97406005306E-04 +4.03151630197E-04 +6.29549750270E-01 +6.54615833353E-01
2.55500000000E+09 +6.55066248079E-01 +5.56170590946E-01 -5.51608794467E-04 +4.84470298592E-04 -6.40964689985E-04 +5.44937043099E-04 +6.34625898868E-01 +6.48225093110E-01
2.56000000000E+09 +6.60869023394E-01 +5.49115061288E-01 -4.51345313842E-04 +4.47708661356E-04 -4.75976023346E-04 +5.51925074383E-04 +6.39999351498E-01 +6.41170627906E-01
2.56500000000E+09 +6.67155664306E-01 +5.41139539367E-01 -4.17913584459E-04 +3.86313706848E-04 -4.03560153422E-04 +4.74703157286E-04 +6.45640738146E-01 +6.33467613114E-01
2.57000000000E+09 +6.73298303606E-01 +5.32500676902E-01 -6.02030972664E-04 +3.05690304925E-04 -4.93399706930E-04 +4.37477404424E-04 +6.50895085835E-01 +6.25532647569E-01
2.57500000000E+09 +6.79246815910E-01 +5.23369371523E-01 -7.06099667933E-04 +5.71209745645E-04 -5.46523592478E-04 +5.86000419177E-04 +6.56358851718E-01 +6.17864481837E-01
2.58000000000E+09 +6.84260263054E-01 +5.14542908825E-01 -4.84483597139E-04 +8.27509066046E-04 -3.77095994196E-04 +6.80906946281E-04 +6.61400678316E-01 +6.10204182548E-01
2.58500000000E+09 +6.88947091676E-01 +5.05667759824E-01 -3.24956049382E-04 +7.61791475523E-04 -3.00157003711E-04 +6.68707562145E-04 +6.66197201455E-01 +6.02538627720E-01
2.59000000000E+09 +6.93287169366E-01 +4.97478530033E-01 -2.23923082889E-04 +6.66898538696E-04 -2.53345522936E-04 +6.81880780125E-04 +6.70945879824E-01 +5.95047896195E-01
2.59500000000E+09 +6.97396871537E-01 +4.89136752974E-01 -2.48111670950E-04 +6.02517055453E-04 -2.82107425403E-04 +6.51545622658E-04 +6.75708053807E-01 +5.87077474757E-01
2.60000000000E+09 +7.01406469522E-01 +4.80755124352E-01 -2.58030507318E-04 +7.61409069666E-04 -2.88811622017E-04 +7.08953186284E-04 +6.80642701596E-01 +5.78559295123E-01
2.60500000000E+09 +7.05536441223E-01 +4.71601249853E-01 -2.80236057430E-04 +7.77321687201E-04 -2.86600410793E-04 +8.20365927761E-04 +6.85929873911E-01 +5.69750365577E-01
2.61000000000E+09 +7.09795170392E-01 +4.61611541667E-01 -2.34533700639E-04 +9.86676971415E-04 -2.39749353254E-04 +1.00018954871E-03 +6.90753405674E-01 +5.61126073772E-01
2.61500000000E+09 +7.14201346756E-01 +4.50788049975E-01 +5.51596595235E-05 +1.02291814685E-03 +1.16921011289E-05 +1.01616333100E-03 +6.95533538858E-01 +5.52473164462E-01
2.62000000000E+09 +7.18482981768E-01 +4.38765886140E-01 +2.52345283394E-04 +9.14075842541E-04 +2.72255519985E-04 +9.63814016575E-04 +7.00069308605E-01 +5.43495912085E-01
2.62500000000E+09 +7.22420963341E-01 +4.25935714072E-01 +1.82284635766E-04 +7.80210728914E-04 +2.23338165981E-04 +8.18361239164E-04 +7.04731025386E-01 +5.34979276948E-01
2.63000000000E+09 +7.25886236071E-01 +4.12854852507E-01 +1.40368601317E-04 +8.29734044878E-04 +2.50616297329E-04 +8.00111603634E-04 +7.09852141029E-01 +5.26028910976E-01
2.63500000000E+09 +7.29163756012E-01 +3.99728476379E-01 +1.84776833905E-04 +9.20766308388E-04 +2.47142815405E-04 +7.96683841329E-04 +7.14685448710E-01 +5.16722135568E-01
2.64000000000E+09 +7.31814633487E-01 +3.86917336276E-01 +3.76605588377E-04 +1.02173989646E-03 +3.18405977167E-04 +8.50615086301E-04 +7.19508643463E-01 +5.06984997583E-01
2.64500000000E+09 +7.34425474782E-01 +3.74751580708E-01 +5.53967728034E-04 +8.75413536778E-04 +4.25495528674E-04 +8.14896927921E-04 +7.24075617529E-01 +4.97124989899E-01
2.65000000000E+09 +7.36718846123E-01 +3.63039072777E-01 +5.68379055147E-04 +8.19534269286E-04 +4.20968372273E-04 +8.95866531031E-04 +7.28196664937E-01 +4.87460888395E-01
2.65500000000E+09 +7.38892419682E-01 +3.51285375414E-01 +6.52038013089E-04 +8.65977733420E-04 +6.06405761387E-04 +9.99071378155E-04 +7.32743161324E-01 +4.77345395784E-01
2.66000000000E+09 +7.40909035979E-01 +3.39874024850E-01 +8.72267160183E-04 +7.99329369358E-04 +9.51156677485E-04 +8.26805929206E-04 +7.37100663898E-01 +4.65803900208E-01
2.66500000000E+09 +7.43154877042E-01 +3.28362920392E-01 +8.03892179999E-04 +7.55090136403E-04 +8.54260722739E-04 +7.27375681562E-04 +7.41374467019E-01 +4.54442579101E-01
2.67000000000E+09 +7.45038529679E-01 +3.15681742103E-01 +1.02486045562E-03 +7.34949257800E-04 +1.11783502947E-03 +6.78718178024E-04 +7.45560186118E-01 +4.43308397658E-01
2.67500000000E+09 +7.46091210080E-01 +3.02548394225E-01 +1.14680185380E-03 +4.14972910011E-04 +1.08959541961E-03 +4.00463995891E-04 +7.49398539795E-01 +4.32081068721E-01
2.68000000000E+09 +7.46982951194E-01 +2.89156733166E-01 +9.98512554261E-04 +3.61531698262E-04 +9.17632518544E-04 +3.38260371705E-04 +7.53257383276E-01 +4.20969780599E-01
2.68500000000E+09 +7.47315903862E-01 +2.75167964892E-01 +1.05120426809E-03 +4.17298200383E-04 +9.98822338273E-04 +4.82337772828E-04 +7.56417449907E-01 +4.09371999955E-01
2.69000000000E+09 +7.46797652795E-01 +2.61335261741E-01 +1.16660469398E-03 +4.10243030983E-04 +1.18366796341E-03 +4.16475578083E-04 +7.59200301223E-01 +3.97341454300E-01
2.69500000000E+09 +7.46274627840E-01 +2.48153696185E-01 +1.33135212748E-03 +3.06554693271E-04 +1.27854775852E-03 +2.78462196612E-04 +7.61918806735E-01 +3.84507706372E-01
2.70000000000E+09 +7.46335937613E-01 +2.35201699419E-01 +1.51902562371E-03 +2.21054635744E-04 +1.46447206559E-03 +2.22208722488E-04 +7.64573034002E-01 +3.71251311020E-01
2.70500000000E+09 +7.46481062416E-01 +2.22434699793E-01 +1.58792650793E-03 -2.09843997997E-04 +1.54692673282E-03 -7.25458044973E-05 +7.67417859366E-01 +3.57922487252E-01
2.71000000000E+09 +7.47181201861E-01 +2.09745711667E-01 +1.49638383935E-03 -3.59627353746E-04 +1.58769748504E-03 -2.74869885016E-04 +7.70496431945E-01 +3.44550762446E-01
2.71500000000E+09 +7.48635663821E-01 +1.96276996178E-01 +1.46103106401E-03 -5.73438043601E-04 +1.59020844498E-03 -5.81154905446E-04 +7.72676777471E-01 +3.31849826142E-01
2.72000000000E+09 +7.49583471471E-01 +1.82175108220E-01 +1.27484921900E-03 -6.93783218313E-04 +1.30851035241E-03 -8.13484592350E-04 +7.74625759450E-01 +3.19029004726E-01
2.72500000000E+09 +7.50462639194E-01 +1.67097015655E-01 +1.16966013713E-03 -6.77951776588E-04 +1.13325211220E-03 -7.79188677348E-04 +7.75792231784E-01 +3.05775585904E-01
2.73000000000E+09 +7.50379241599E-01 +1.50949855396E-01 +1.27737128925E-03 -6.74899474117E-04 +1.17127416331E-03 -7.40556372687E-04 +7.77302498923E-01 +2.91794417139E-01
2.73500000000E+09 +7.48726927979E-01 +1.33980576397E-01 +1.42765055148E-03 -9.84852451661E-04 +1.23476131762E-03 -8.68559284924E-04 +7.78689225918E-01 +2.76479664973E-01
2.74000000000E+09 +7.46052908710E-01 +1.17760881859E-01 +1.37211631275E-03 -1.26642960587E-03 +1.32862324994E-03 -1.06008801347E-03 +7.79790034926E-01 +2.61063971687E-01
2.74500000000E+09 +7.42625511602E-01 +1.01070574006E-01 +1.12132069682E-03 -1.59665404302E-03 +1.31828216123E-03 -1.41456282281E-03 +7.80736575325E-01 +2.45742727882E-01
2.75000000000E+09 +7.38109360994E-01 +8.47363028060E-02 +7.36503364633E-04 -1.75343199138E-03 +9.17530856831E-04 -1.74868671935E-03 +7.81199562194E-01 +2.30710337686E-01
2.75500000000E+09 +7.33360152678E-01 +6.88466699376E-02 +6.13341434975E-04 -1.56755347827E-03 +7.22083731527E-04 -1.60554394643E-03 +7.81252904475E-01 +2.15676074272E-01
2.76000000000E+09 +7.28898207869E-01 +5.32309574166E-02 +6.37311670493E-04 -1.62915851317E-03 +6.60402096511E-04 -1.79661337993E-03 +7.80694034537E-01 +1.99701015457E-01
2.76500000000E+09 +7.24572413117E-01 +3.69332989331E-02 +4.32005848299E-04 -1.95159921869E-03 +3.77973086017E-04 -2.10601267358E-03 +7.79145209227E-01 +1.82632903987E-01
2.77000000000E+09 +7.20450549742E-01 +1.98337106579E-02 +1.17261324261E-04 -1.85837714663E-03 +5.23614750882E-05 -1.97707741635E-03 +7.77391933323E-01 +1.65569130939E-01
2.77500000000E+09 +7.16147167109E-01 +1.67160194383E-03 -1.22829459371E-04 -2.01322853229E-03 -2.30740914117E-04 -2.10572493878E-03 +7.75760714692E-01 +1.47431088694E-01
2.78000000000E+09 +7.11457139422E-01 -1.77796996269E-02 -4.15993850911E-04 -2.01198582375E-03 -5.82228128258E-04 -1.99126741775E-03 +7.73361653946E-01 +1.29270800259E-01
2.78500000000E+09 +7.05257211216E-01 -3.80893315889E-02 -6.50226059439E-04 -1.76217600351E-03 -7.39360334932E-04 -1.67505821713E-03 +7.70628676499E-01 +1.11504386569E-01
2.79000000000E+09 +6.98204312708E-01 -5.90283475888E-02 -6.37479429036E-04 -1.67119856750E-03 -7.44333452168E-04 -1.53835533839E-03 +7.66827758322E-01 +9.40565500695E-02
2.79500000000E+09 +6.89585047961E-01 -7.96345195319E-02 -9.22890319625E-04 -1.74602587559E-03 -8.62569221943E-04 -1.61120339545E-03 +7.62300334639E-01 +7.66042997866E-02
2.80000000000E+09 +6.79684894823E-01 -9.96996490905E-02 -1.10231645621E-03 -1.51352843398E-03 -9.63570800999E-04 -1.42832057804E-03 +7.57377715833E-01 +5.86960334745E-02
2.80500000000E+09 +6.68738765685E-01 -1.18617814312E-01 -1.12540020522E-03 -1.55526826825E-03 -1.12402062062E-03 -1.60347732786E-03 +7.51868983571E-01 +3.96283047726E-02
2.81000000000E+09 +6.57650752967E-01 -1.36363523034E-01 -1.40599845461E-03 -1.44742385233E-03 -1.37990631729E-03 -1.53364430944E-03 +7.45251684698E-01 +2.03209310684E-02
2.81500000000E+09 +6.45313030768E-01 -1.54193722134E-01 -1.56016138525E-03 -1.24986561378E-03 -1.55668082205E-03 -1.27772754485E-03 +7.38212635736E-01 +9.04377137926E-04
2.82000000000E+09 +6.32058232199E-01 -1.71070811784E-01 -1.68806762819E-03 -1.33188366728E-03 -1.70151417978E-03 -1.22847050799E-03 +7.30095452247E-01 -1.86165507114E-02
2.82500000000E+09 +6.18083307543E-01 -1.88037902464E-01 -2.17471356112E-03 -1.13287254923E-03 -2.06785680454E-03 -1.05957575034E-03 +7.21376987022E-01 -3.80803793258E-02
2.83000000000E+09 +6.02477247010E-01 -2.05809005722E-01 -2.41290054873E-03 -4.29441113843E-04 -2.25180020919E-03 -4.18391273911E-04 +7.11722247220E-01 -5.73392220938E-02
2.83500000000E+09 +5.84769911415E-01 -2.24059113595E-01 -1.96366981325E-03 +4.82527210300E-05 -1.91924174807E-03 -3.55763141572E-05 +7.01739349091E-01 -7.72724468355E-02
2.84000000000E+09 +5.65238597937E-01 -2.42115993647E-01 -1.66097556890E-03 +5.01935355188E-05 -1.64398851849E-03 -2.49058662010E-05 +6.90317340526E-01 -9.80960563470E-02
2.84500000000E+09 +5.43704655080E-01 -2.60706947520E-01 -1.56819860488E-03 -2.07614105023E-04 -1.55291643114E-03 -2.09110243262E-04 +6.77623679447E-01 -1.18427461003E-01
2.85000000000E+09 +5.20428972443E-01 -2.78452091866E-01 -1.90919829543E-03 -3.82757479063E-04 -1.95355664833E-03 -2.68815866268E-04 +6.64159730151E-01 -1.39139537421E-01
2.85500000000E+09 +4.96463515066E-01 -2.95626233502E-01 -2.26910373976E-03 +2.59759757301E-04 -2.30256564885E-03 +2.34861068749E-04 +6.49239613029E-01 -1.59725281306E-01
2.86000000000E+09 +4.71819073464E-01 -3.12671828409E-01 -1.78806258165E-03 +5.06597149448E-04 -1.76243786517E-03 +4.43602947787E-04 +6.32293587002E-01 -1.80250108249E-01
2.86500000000E+09 +4.45974943537E-01 -3.28428998250E-01 -2.12452233865E-03 +4.92807237325E-04 -2.14091497110E-03 +4.39489575045E-04 +6.14350671039E-01 -2.00058567591E-01
2.87000000000E+09 +4.20338540357E-01 -3.42320942772E-01 -1.92274526518E-03 +1.20330684774E-03 -1.91105242186E-03 +1.24762742727E-03 +5.95484069641E-01 -2.18546256583E-01
2.87500000000E+09 +3.95406515506E-01 -3.55163687825E-01 -1.51354293955E-03 +8.75292561107E-04 -1.53273442802E-03 +9.21029323808E-04 +5.76888340154E-01 -2.38253886394E-01
2.88000000000E+09 +3.69731457833E-01 -3.67752217401E-01 -1.70396374857E-03 +8.31151352693E-04 -1.64659690464E-03 +9.50510829991E-04 +5.55677935792E-01 -2.57983390214E-01
2.88500000000E+09 +3.43219616143E-01 -3.78697715324E-01 -1.68409202215E-03 +1.39731112059E-03 -1.60709088653E-03 +1.37045560113E-03 +5.32051879843E-01 -2.76268037085E-01
2.89000000000E+09 +3.15388914474E-01 -3.88757191678E-01 -1.21145497508E-03 +1.07141483205E-03 -1.22494442619E-03 +1.03779922764E-03 +5.07384172534E-01 -2.93654906224E-01
2.89500000000E+09 +2.85210280211E-01 -3.97189344097E-01 -1.74945348666E-03 +1.12041946980E-03 -1.70936443762E-03 +1.09697458013E-03 +4.80260973363E-01 -3.11075370015E-01
2.90000000000E+09 +2.53091019532E-01 -4.03055079516E-01 -1.79558859641E-03 +1.52175118745E-03 -1.84625514533E-03 +1.52200793201E-03 +4.51990273602E-01 -3.26275965790E-01
2.90500000000E+09 +2.19154354095E-01 -4.05771431738E-01 -1.72725887901E-03 +2.02218341479E-03 -1.72188401876E-03 +2.07637368662E-03 +4.23020905617E-01 -3.41992517477E-01
2.91000000000E+09 +1.84990787277E-01 -4.06028766857E-01 -1.16347510668E-03 +2.25656709794E-03 -1.07284682069E-03 +2.26547011287E-03 +3.92112255129E-01 -3.56151560898E-01
2.91500000000E+09 +1.50315122621E-01 -4.04597123351E-01 -1.25689650147E-03 +2.21151126966E-03 -1.14015492967E-03 +2.05494766572E-03 +3.59690492572E-01 -3.67929987963E-01
2.92000000000E+09 +1.14708126424E-01 -4.01149574757E-01 -1.15574027344E-03 +2.81768009338E-03 -1.14609461469E-03 +2.61999130735E-03 +3.27099336056E-01 -3.77384496342E-01
2.92500000000E+09 +7.84859427827E-02 -3.96194966493E-01 -4.71359341970E-04 +2.87444210510E-03 -5.48234405474E-04 +2.68106648065E-03 +2.92108065528E-01 -3.85739522794E-01
2.93000000000E+09 +4.20066683297E-02 -3.88085115028E-01 -4.51202347908E-04 +2.69369807150E-03 -5.57779894964E-04 +2.57564623037E-03 +2.55593444140E-01 -3.92342559528E-01
2.93500000000E+09 +5.97661703534E-03 -3.77860344609E-01 -2.24667435260E-04 +3.08809099795E-03 -3.61571333510E-04 +3.05834330523E-03 +2.16845219368E-01 -3.96678303027E-01
2.94000000000E+09 -2.91556158436E-02 -3.65350896382E-01 -1.91185184926E-04 +3.23485979568E-03 -2.83267166202E-04 +3.19726973955E-03 +1.78231767709E-01 -3.97739327348E-01
2.94500000000E+09 -6.36760641397E-02 -3.50265114046E-01 +5.75432562425E-04 +4.07328283120E-03 +5.01291712617E-04 +4.00398747765E-03 +1.41193934004E-01 -3.98672042739E-01
2.95000000000E+09 -9.68445976893E-02 -3.32346017071E-01 +1.67874456284E-03 +3.58932439016E-03 +1.52346196459E-03 +3.63428388782E-03 +1.00948557142E-01 -3.98227800238E-01
2.95500000000E+09 -1.28949084696E-01 -3.11890233020E-01 +2.11017049583E-03 +3.15847781551E-03 +1.98845873227E-03 +3.34360111187E-03 +5.94125690962E-02 -3.92112325624E-01
2.96000000000E+09 -1.59790585636E-01 -2.88783001301E-01 +2.26580493231E-03 +2.71814563189E-03 +2.27448576368E-03 +2.81819828871E-03 +1.92415901812E-02 -3.82295797221E-01
2.96500000000E+09 -1.89608180822E-01 -2.62527066329E-01 +2.61465906066E-03 +2.60477924261E-03 +2.75793890591E-03 +2.64826846557E-03 -2.05491566895E-02 -3.69278502566E-01
2.97000000000E+09 -2.17118786237E-01 -2.32708048848E-01 +2.75485542862E-03 +2.42315349268E-03 +2.85234129065E-03 +2.35204030528E-03 -5.86789455990E-02 -3.55126390051E-01
2.97500000000E+09 -2.41266184554E-01 -2.01002964103E-01 +3.42862042458E-03 +2.28929212968E-03 +3.37324481019E-03 +2.25069108775E-03 -9.84124991532E-02 -3.39745955854E-01
2.98000000000E+09 -2.63035361757E-01 -1.68894369776E-01 +3.74151256976E-03 +1.58111070773E-03 +3.61180785478E-03 +1.65275153227E-03 -1.37279815242E-01 -3.20301189876E-01
2.98500000000E+09 -2.84001328444E-01 -1.36094231097E-01 +4.09375429661E-03 +1.21919547104E-03 +4.12879566757E-03 +1.42520041775E-03 -1.74991478526E-01 -2.96520147291E-01
2.99000000000E+09 -3.03074738930E-01 -1.02004245014E-01 +4.14398175385E-03 +3.19012927784E-04 +4.34177058269E-03 +3.26843502029E-04 -2.08707887218E-01 -2.70933487350E-01
2.99500000000E+09 -3.19865372841E-01 -6.70246202103E-02 +3.99751761058E-03 -6.65757596715E-07 +4.14602883277E-03 -1.36872940222E-04 -2.42632033186E-01 -2.43044888158E-01
3.00000000000E+09 -3.33991976890E-01 -3.16143163554E-02 +4.12565910093E-03 -1.59167872796E-04 +4.15741602604E-03 -3.65511156655E-04 -2.74398244631E-01 -2.11145536848E-01
3.00500000000E+09 -3.45112752849E-01 +3.21879714815E-03 +4.53639372481E-03 -1.00829241275E-03 +4.33064064459E-03 -1.18525880735E-03 -3.02924480014E-01 -1.77546851439E-01
3.01000000000E+09 -3.53222479037E-01 +3.69513472214E-02 +4.20667508870E-03 -2.13316488616E-03 +4.10364079740E-03 -2.02119561904E-03 -3.29589766579E-01 -1.42969567535E-01
3.01500000000E+09 -3.59832228413E-01 +7.03183028611E-02 +3.56153731614E-03 -2.68864139277E-03 +3.65356652102E-03 -2.56170374542E-03 -3.52407139720E-01 -1.06872308455E-01
3.02000000000E+09 -3.62920296820E-01 +1.03796110528E-01 +2.84892802699E-03 -3.07344866545E-03 +2.96649994122E-03 -3.01127605912E-03 -3.73124284314E-01 -7.10137580798E-02
3.02500000000E+09 -3.62588712378E-01 +1.37158153522E-01 +2.68055001801E-03 -2.98039606038E-03 +2.74131886175E-03 -3.04590253081E-03 -3.92598541711E-01 -3.23340284922E-02
3.03000000000E+09 -3.58526002544E-01 +1.69212622553E-01 +2.23351238242E-03 -3.50702236047E-03 +2.23480979825E-03 -3.49622784999E-03 -4.07312603085E-01 +9.22930480813E-03
3.03500000000E+09 -3.52235559057E-01 +1.99485962720E-01 +1.63628855127E-03 -4.03804805249E-03 +1.71018475941E-03 -4.04927258557E-03 -4.17984627925E-01 +4.99766775398E-02
3.04000000000E+09 -3.44777583788E-01 +2.29824249342E-01 +4.74804705457E-04 -4.01055497313E-03 +5.83685526435E-04 -4.09405819235E-03 -4.26199427503E-01 +9.03307858750E-02
3.04500000000E+09 -3.35022083191E-01 +2.59872543934E-01 +1.13466421042E-04 -3.27787632161E-03 +1.42023346614E-04 -3.40619993415E-03 -4.32031687015E-01 +1.30107779537E-01
3.05000000000E+09 -3.23402574015E-01 +2.89924556505E-01 +6.19645018329E-05 -2.99648028878E-03 -1.50225615358E-05 -3.19457900371E-03 -4.36261032920E-01 +1.70098022512E-01
3.05500000000E+09 -3.09399960044E-01 +3.19046982582E-01 +3.92994139681E-04 -3.12282149664E-03 +1.88104393291E-04 -3.15605673176E-03 -4.35858464588E-01 +2.10731870741E-01
3.06000000000E+09 -2.94231444705E-01 +3.45881378210E-01 -1.19704303850E-04 -4.05424589745E-03 -2.78914932433E-04 -3.96248646341E-03 -4.32813832345E-01 +2.48031170378E-01
3.06500000000E+09 -2.79081653776E-01 +3.70933864290E-01 -1.63912295395E-03 -3.77782572530E-03 -1.54900968063E-03 -3.54857646865E-03 -4.28779465962E-01 +2.84894179791E-01
3.07000000000E+09 -2.64064067488E-01 +3.95031432165E-01 -1.98786017544E-03 -2.64810127453E-03 -1.77418724746E-03 -2.62823990075E-03 -4.23117438335E-01 +3.20284441088E-01
