# Hz S RI R 50
! CMT, C1220, 16058040, 17.2.0/1
! Date: 15/08/2018 10:10:05
! Data: Format (Calibration Info)
! Freq                      S11: Re/Im (F2)                       S21: Re/Im (F2)                       S12: Re/Im (F2)                       S22: Re/Im (F2)            
2.50000000000E+09 +5.99878599803E-01 +6.35904028227E-01 -5.51752240108E-04 -3.12366840355E-04 -6.19614602831E-04 -3.80694274113E-04 +5.73022182601E-01 +7.16846106369E-01
2.50500000000E+09 +6.06098079165E-01 +6.28366557174E-01 -5.28537483713E-04 -2.99713435706E-04 -5.93444266303E-04 -2.92523701102E-04 +5.78631710649E-01 +7.11438401300E-01
2.51000000000E+09 +6.12658151732E-01 +6.20435745370E-01 -5.83693798041E-04 -2.84836371749E-04 -5.85890980781E-04 -3.16575668746E-04 +5.84389689518E-01 +7.06250108966E-01
2.51500000000E+09 +6.19046329378E-01 +6.12372455403E-01 -6.12590740348E-04 -3.31878787991E-04 -6.08043219246E-04 -3.17042967995E-04 +5.89769695091E-01 +7.00773165414E-01
2.52000000000E+09 +6.24766772082E-01 +6.04206937368E-01 -7.66673473575E-04 -2.35027161785E-04 -7.57477463572E-04 -2.69928395341E-04 +5.94976343871E-01 +6.94965916468E-01
2.52500000000E+09 +6.29686510126E-01 +5.96689246713E-01 -8.05239085965E-04 -1.25775888264E-04 -8.34571696073E-04 -1.45964447690E-04 +6.00748112434E-01 +6.88423883817E-01
2.53000000000E+09 +6.34399457885E-01 +5.89585127731E-01 -7.76127040385E-04 -3.80515756900E-05 -8.15667209875E-04 +3.40245754370E-05 +6.06854706948E-01 +6.81431136354E-01
2.53500000000E+09 +6.38504934479E-01 +5.83009583345E-01 -7.26159753932E-04 +1.03465397440E-04 -6.56544580214E-04 +1.20139269951E-04 +6.12848329685E-01 +6.74643701084E-01
2.54000000000E+09 +6.42667194110E-01 +5.76733070525E-01 -7.22737978765E-04 +2.90668909256E-05 -6.86317314629E-04 +5.80800392787E-05 +6.18978929207E-01 +6.67811467636E-01
2.54500000000E+09 +6.47065585757E-01 +5.70632045350E-01 -8.09872613119E-04 +1.86699030591E-04 -7.71855174291E-04 +1.12898261955E-04 +6.24710192664E-01 +6.61264763066E-01
2.55000000000E+09 +6.51724248206E-01 +5.64396883082E-01 -7.20887455297E-04 +2.74975652569E-04 -7.85093127463E-04 +2.38568738254E-04 +6.30108585617E-01 +6.54988661990E-01
2.55500000000E+09 +6.56835120945E-01 +5.57329802984E-01 -6.90568825378E-04 +3.88871329902E-04 -8.42890234750E-04 +3.96384027552E-04 +6.35216564312E-01 +6.48380191089E-01
2.56000000000E+09 +6.62569037531E-01 +5.50429949136E-01 -5.57419941589E-04 +4.25108805447E-04 -6.64639838559E-04 +5.65527956382E-04 +6.40659651384E-01 +6.41188723981E-01
2.56500000000E+09 +6.68910482937E-01 +5.42336793022E-01 -5.32130282043E-04 +3.62277645835E-04 -4.82483963308E-04 +4.99823018669E-04 +6.46119643922E-01 +6.33591284964E-01
2.57000000000E+09 +6.75066807750E-01 +5.33827416764E-01 -6.79729201471E-04 +2.65563062313E-04 -5.77443940179E-04 +3.97103032000E-04 +6.51489050350E-01 +6.25480080475E-01
2.57500000000E+09 +6.81120201216E-01 +5.24642585175E-01 -7.82433020734E-04 +4.30211077059E-04 -6.20036441972E-04 +5.64670058651E-04 +6.56806615126E-01 +6.17830216695E-01
2.58000000000E+09 +6.86116283381E-01 +5.15683642905E-01 -6.40737924890E-04 +7.56945682440E-04 -5.19953309201E-04 +7.07736707838E-04 +6.61895453121E-01 +6.10249740802E-01
2.58500000000E+09 +6.91013065914E-01 +5.07034942070E-01 -4.25819252441E-04 +7.89313174196E-04 -4.21015281311E-04 +6.00316912118E-04 +6.66794506394E-01 +6.02686820218E-01
2.59000000000E+09 +6.95394175383E-01 +4.98514864631E-01 -3.94851290964E-04 +7.24675409444E-04 -4.36714945126E-04 +6.58523631802E-04 +6.71650717807E-01 +5.94892897003E-01
2.59500000000E+09 +6.99553403463E-01 +4.90072522947E-01 -3.22340103205E-04 +6.80725451215E-04 -3.34497270407E-04 +6.95780512937E-04 +6.76346765865E-01 +5.86857548219E-01
2.60000000000E+09 +7.03690133036E-01 +4.81513753793E-01 -3.49541111980E-04 +6.95644784574E-04 -3.70849629087E-04 +6.84825176685E-04 +6.81245604462E-01 +5.78481868973E-01
2.60500000000E+09 +7.07912269771E-01 +4.72366690547E-01 -4.15491099165E-04 +8.96220624469E-04 -4.12441331838E-04 +9.11168179482E-04 +6.86366334565E-01 +5.69547347810E-01
2.61000000000E+09 +7.12156276255E-01 +4.62258014773E-01 -1.81965305367E-04 +1.17699168390E-03 -2.44269654510E-04 +1.13206933359E-03 +6.91255055490E-01 +5.60853649425E-01
2.61500000000E+09 +7.16678964946E-01 +4.51290292810E-01 +1.52812971953E-04 +9.63771795817E-04 +9.47521744883E-05 +1.00532093519E-03 +6.96259961273E-01 +5.52099661398E-01
2.62000000000E+09 +7.20925152025E-01 +4.39080590837E-01 +1.40104480768E-04 +8.44992652517E-04 +1.94551746768E-04 +8.71537334588E-04 +7.00635032252E-01 +5.42950925369E-01
2.62500000000E+09 +7.24900489482E-01 +4.26165755933E-01 +8.02791640575E-05 +7.78629751288E-04 +1.33990865663E-04 +8.13509014208E-04 +7.05229402392E-01 +5.34187754862E-01
2.63000000000E+09 +7.28561519328E-01 +4.12933007359E-01 +8.96056451909E-05 +9.21032042075E-04 +2.03996957873E-04 +8.54509468194E-04 +7.10230077839E-01 +5.25354829501E-01
2.63500000000E+09 +7.31661898469E-01 +3.99763709228E-01 +1.44566884063E-04 +9.55836873502E-04 +1.54549591818E-04 +7.71093983230E-04 +7.15041504503E-01 +5.15768477405E-01
2.64000000000E+09 +7.34408256655E-01 +3.86935330135E-01 +2.86867618996E-04 +1.13627481970E-03 +2.66675089399E-04 +9.87942412736E-04 +7.19619062529E-01 +5.05967987146E-01
2.64500000000E+09 +7.37143597599E-01 +3.74794682637E-01 +5.63671366488E-04 +9.35939898121E-04 +4.14447166714E-04 +8.69149728180E-04 +7.24049130821E-01 +4.96300437787E-01
2.65000000000E+09 +7.39368898467E-01 +3.62978546496E-01 +5.55891432551E-04 +8.14234647268E-04 +4.67090436842E-04 +8.44770639414E-04 +7.28247598008E-01 +4.86613454785E-01
2.65500000000E+09 +7.41558918793E-01 +3.51359648033E-01 +5.14400763377E-04 +7.83402634163E-04 +5.09095764236E-04 +8.56642791526E-04 +7.32499390996E-01 +4.76381087535E-01
2.66000000000E+09 +7.43699563213E-01 +3.39500527059E-01 +5.91314366095E-04 +8.32283059565E-04 +6.50414434382E-04 +9.00745751876E-04 +7.36836266802E-01 +4.65002913546E-01
2.66500000000E+09 +7.45747699774E-01 +3.27936131273E-01 +5.51468954062E-04 +8.78322554681E-04 +6.38447163485E-04 +8.21980279132E-04 +7.40992889716E-01 +4.53512350339E-01
2.67000000000E+09 +7.47806532104E-01 +3.15347094808E-01 +9.10341696314E-04 +1.02478450128E-03 +8.72222278607E-04 +9.48634271176E-04 +7.45008749963E-01 +4.42427068089E-01
2.67500000000E+09 +7.48923960067E-01 +3.02014086565E-01 +1.13098784792E-03 +7.14818216445E-04 +1.06211269997E-03 +6.59633946782E-04 +7.48846605057E-01 +4.31314493321E-01
2.68000000000E+09 +7.49456791274E-01 +2.88289964231E-01 +1.04983579951E-03 +5.40128478446E-04 +1.00427419498E-03 +5.03655092124E-04 +7.52703406202E-01 +4.20196178470E-01
2.68500000000E+09 +7.49706737465E-01 +2.74419237348E-01 +1.08290999822E-03 +5.64005253312E-04 +1.11021276474E-03 +5.75121151965E-04 +7.55630272552E-01 +4.08684127878E-01
2.69000000000E+09 +7.49439235442E-01 +2.60341000451E-01 +1.23436093245E-03 +4.81075433500E-04 +1.24659361609E-03 +5.04638783763E-04 +7.58253192312E-01 +3.96622234385E-01
2.69500000000E+09 +7.48809976118E-01 +2.47021117757E-01 +1.35957834759E-03 +3.86608526146E-04 +1.30673078498E-03 +3.34622047003E-04 +7.60784491457E-01 +3.83875865536E-01
2.70000000000E+09 +7.48774793061E-01 +2.33824314653E-01 +1.41891431753E-03 +3.00998982032E-04 +1.34972656529E-03 +2.69027650690E-04 +7.63412107562E-01 +3.70782665878E-01
2.70500000000E+09 +7.48914021866E-01 +2.20865916634E-01 +1.51851439583E-03 -1.45242427062E-05 +1.52335684999E-03 +4.80366351484E-05 +7.66365515995E-01 +3.57383414371E-01
2.71000000000E+09 +7.49375816248E-01 +2.07808755869E-01 +1.43902423148E-03 -1.81669857808E-04 +1.48252168970E-03 -7.02016479614E-05 +7.69005361027E-01 +3.44033572843E-01
2.71500000000E+09 +7.50715797264E-01 +1.94229698578E-01 +1.50783747628E-03 -3.04011992917E-04 +1.66460415425E-03 -2.92166276213E-04 +7.71259652167E-01 +3.31625576345E-01
2.72000000000E+09 +7.51581998863E-01 +1.79857773496E-01 +1.37839338983E-03 -5.98258009295E-04 +1.47314392081E-03 -6.95405932154E-04 +7.73214544945E-01 +3.18791974379E-01
2.72500000000E+09 +7.52335751830E-01 +1.64528207486E-01 +1.20825521154E-03 -5.99275344417E-04 +1.17592184615E-03 -7.45158671417E-04 +7.74090917714E-01 +3.05741437030E-01
2.73000000000E+09 +7.51882771017E-01 +1.48115346547E-01 +1.27355575861E-03 -5.81246652780E-04 +1.13171484014E-03 -5.99851628271E-04 +7.75623424228E-01 +2.92063439901E-01
2.73500000000E+09 +7.50061305263E-01 +1.30925278361E-01 +1.36216278115E-03 -7.06652816446E-04 +1.20064562967E-03 -6.34228941551E-04 +7.76827907241E-01 +2.76951865290E-01
2.74000000000E+09 +7.46756846584E-01 +1.14619467347E-01 +1.45878824031E-03 -9.50121777784E-04 +1.37674405334E-03 -7.36721753406E-04 +7.77965766617E-01 +2.61692858300E-01
2.74500000000E+09 +7.43142590525E-01 +9.81921999707E-02 +1.21911303807E-03 -1.27551882620E-03 +1.35598512270E-03 -1.14305468576E-03 +7.78856299158E-01 +2.46869802036E-01
2.75000000000E+09 +7.38678007308E-01 +8.18432401454E-02 +8.90146105784E-04 -1.40744114821E-03 +1.05881078901E-03 -1.31684251332E-03 +7.79663237939E-01 +2.32115331577E-01
2.75500000000E+09 +7.33790182920E-01 +6.56626921563E-02 +8.58537032332E-04 -1.25709345508E-03 +9.94930105946E-04 -1.24560263705E-03 +7.80026878082E-01 +2.16963263861E-01
2.76000000000E+09 +7.29022740302E-01 +4.97640357741E-02 +1.04369673204E-03 -1.36154002532E-03 +1.15903489000E-03 -1.49326318404E-03 +7.79439885700E-01 +2.01141033697E-01
2.76500000000E+09 +7.24294277267E-01 +3.37400499669E-02 +8.87140752297E-04 -1.79550090380E-03 +9.16235310867E-04 -1.85684961172E-03 +7.77839333037E-01 +1.83964354064E-01
2.77000000000E+09 +7.19920462084E-01 +1.65685205338E-02 +6.18077873215E-04 -1.96859001629E-03 +6.41893400021E-04 -2.06280945511E-03 +7.76109305145E-01 +1.67098953084E-01
2.77500000000E+09 +7.15373853018E-01 -1.55649647238E-03 +2.19529110312E-04 -2.07125893859E-03 +1.81248129595E-04 -2.15121154462E-03 +7.74477530048E-01 +1.49439336684E-01
2.78000000000E+09 +7.10387863966E-01 -2.11095267501E-02 -3.30453903469E-05 -1.91265829233E-03 -1.69911682970E-04 -2.02608474179E-03 +7.72518736118E-01 +1.31640093553E-01
2.78500000000E+09 +7.03871215706E-01 -4.14423173892E-02 -1.35429891711E-04 -1.80730509388E-03 -2.43285535150E-04 -1.80413145767E-03 +7.70007823555E-01 +1.14042683442E-01
2.79000000000E+09 +6.96380070650E-01 -6.21762748689E-02 -1.31579549583E-04 -1.98948445051E-03 -2.15669735592E-04 -1.90219755296E-03 +7.66595133880E-01 +9.65589045682E-02
2.79500000000E+09 +6.87588244118E-01 -8.23942722922E-02 -5.99873394205E-04 -2.12059741892E-03 -6.31569936228E-04 -2.02387148861E-03 +7.62262278155E-01 +7.90422012413E-02
2.80000000000E+09 +6.77603280771E-01 -1.02353240099E-01 -7.26386963062E-04 -1.83440959769E-03 -6.52312275086E-04 -1.78925759265E-03 +7.57699133244E-01 +6.12669529440E-02
2.80500000000E+09 +6.66505231830E-01 -1.21480840504E-01 -1.05751684512E-03 -2.05598115504E-03 -1.00141918773E-03 -2.07188847142E-03 +7.52100654733E-01 +4.21336380243E-02
2.81000000000E+09 +6.54624792384E-01 -1.39354823822E-01 -1.39388239817E-03 -1.67544430319E-03 -1.37266587787E-03 -1.69969998504E-03 +7.45634400548E-01 +2.30522856472E-02
2.81500000000E+09 +6.41908488658E-01 -1.56449459728E-01 -1.35543558540E-03 -1.45359856516E-03 -1.42563955189E-03 -1.44988795260E-03 +7.39099215895E-01 +3.93382339568E-03
2.82000000000E+09 +6.28347936872E-01 -1.73150643155E-01 -1.42023249522E-03 -1.68318630368E-03 -1.50554902396E-03 -1.60387086525E-03 +7.31800014975E-01 -1.54943631420E-02
2.82500000000E+09 +6.14107586245E-01 -1.89532831529E-01 -2.19170438868E-03 -1.39961358439E-03 -2.12417355648E-03 -1.30528750838E-03 +7.23613930509E-01 -3.55053310130E-02
2.83000000000E+09 +5.98506059867E-01 -2.07453055686E-01 -2.10395206057E-03 -5.33073302018E-04 -2.01631959766E-03 -4.98813514150E-04 +7.14129443897E-01 -5.52347863306E-02
2.83500000000E+09 +5.80303027737E-01 -2.25886452204E-01 -1.66502764432E-03 -4.95400196073E-04 -1.60676051412E-03 -5.42514254018E-04 +7.04068788343E-01 -7.57418164550E-02
2.84000000000E+09 +5.59645422380E-01 -2.43423919142E-01 -1.63884283993E-03 -5.09036666079E-04 -1.64952879910E-03 -5.79677706019E-04 +6.92463668286E-01 -9.65299394293E-02
2.84500000000E+09 +5.37943762785E-01 -2.61017217439E-01 -1.69988631868E-03 -5.85452486065E-04 -1.69735481285E-03 -5.53429371313E-04 +6.80221158827E-01 -1.16695350649E-01
2.85000000000E+09 +5.14516990120E-01 -2.78348076347E-01 -1.93024227669E-03 -5.84793542736E-04 -1.94569778389E-03 -5.43297376735E-04 +6.67253614375E-01 -1.37558126699E-01
2.85500000000E+09 +4.90644221106E-01 -2.95132171345E-01 -2.18756494017E-03 -1.71758827933E-04 -2.10363509520E-03 -1.19506921462E-04 +6.52331092567E-01 -1.58834681149E-01
2.86000000000E+09 +4.65690023366E-01 -3.11710798604E-01 -1.71811006107E-03 -5.33126169584E-05 -1.66377272591E-03 -5.78585924607E-05 +6.35622557411E-01 -1.79314225445E-01
2.86500000000E+09 +4.39626124489E-01 -3.27085302667E-01 -2.16583650176E-03 -3.35931531734E-04 -2.16927166317E-03 -3.71742358011E-04 +6.17838430348E-01 -1.99609467896E-01
2.87000000000E+09 +4.13812911487E-01 -3.39973482983E-01 -2.26620827787E-03 +3.63289497857E-04 -2.27662908471E-03 +3.89003252487E-04 +5.98892188506E-01 -2.18503890787E-01
2.87500000000E+09 +3.89345022641E-01 -3.52500140388E-01 -2.17781657162E-03 +3.10162693491E-04 -2.13176209083E-03 +3.33041645322E-04 +5.80504679205E-01 -2.38314969018E-01
2.88000000000E+09 +3.63199665475E-01 -3.64683208966E-01 -2.41647473941E-03 +5.74994511626E-04 -2.28135960098E-03 +5.93283297792E-04 +5.59369018884E-01 -2.58614839302E-01
2.88500000000E+09 +3.36896660853E-01 -3.74846939080E-01 -2.16687118787E-03 +1.08238511507E-03 -2.01640318975E-03 +1.03192975364E-03 +5.35935674575E-01 -2.77428861330E-01
2.89000000000E+09 +3.09088330329E-01 -3.84220114697E-01 -1.91569374537E-03 +7.10483316035E-04 -1.82823179833E-03 +6.61995540404E-04 +5.11283384256E-01 -2.95345773213E-01
2.89500000000E+09 +2.79152887239E-01 -3.91478610161E-01 -2.62908068530E-03 +1.08570157726E-03 -2.57915067150E-03 +8.52549561494E-04 +4.83914594780E-01 -3.13256005793E-01
2.90000000000E+09 +2.47810607840E-01 -3.96436990622E-01 -2.55486857165E-03 +1.79316246444E-03 -2.61993688997E-03 +1.78998506156E-03 +4.55620123477E-01 -3.29035712475E-01
2.90500000000E+09 +2.14902552273E-01 -3.98979442145E-01 -2.02396988292E-03 +2.33274443137E-03 -2.08174807101E-03 +2.41442946681E-03 +4.26172076539E-01 -3.45612219194E-01
2.91000000000E+09 +1.80620379650E-01 -3.99354795303E-01 -1.29976782446E-03 +2.07769209271E-03 -1.27651118236E-03 +2.11271412418E-03 +3.94556825237E-01 -3.59668862129E-01
2.91500000000E+09 +1.45852315359E-01 -3.96973864605E-01 -1.98793308248E-03 +1.76554523625E-03 -1.93354083948E-03 +1.70143163466E-03 +3.62230007664E-01 -3.71654608729E-01
2.92000000000E+09 +1.10821425117E-01 -3.92237189621E-01 -2.20182473497E-03 +2.98837523724E-03 -2.08480861606E-03 +2.81080236062E-03 +3.29411143841E-01 -3.82191668647E-01
2.92500000000E+09 +7.61292819117E-02 -3.86558026385E-01 -1.27695548209E-03 +3.50346202822E-03 -1.34282379881E-03 +3.26564270502E-03 +2.93364345312E-01 -3.91061716826E-01
2.93000000000E+09 +4.07108512738E-02 -3.78456069006E-01 -6.88122028743E-04 +3.46442994895E-03 -8.30937744759E-04 +3.40668908923E-03 +2.56052708379E-01 -3.97967395157E-01
2.93500000000E+09 +5.31043541203E-03 -3.68369505285E-01 -1.50170541810E-04 +3.36694245665E-03 -3.01937833205E-04 +3.36615617664E-03 +2.15981636774E-01 -4.02538470407E-01
2.94000000000E+09 -2.91931247596E-02 -3.55421468956E-01 -5.29511090943E-04 +3.06738838683E-03 -5.28193162449E-04 +3.07365258890E-03 +1.76191029998E-01 -4.02822233102E-01
2.94500000000E+09 -6.27726304978E-02 -3.40184369318E-01 -2.62464035077E-04 +4.36463857008E-03 -3.78839691984E-04 +4.35356693776E-03 +1.38480328089E-01 -4.02813327440E-01
2.95000000000E+09 -9.50668168395E-02 -3.22373260665E-01 +1.29559417859E-03 +4.19437217302E-03 +1.15312325587E-03 +4.24453398805E-03 +9.81436897772E-02 -4.02067501601E-01
2.95500000000E+09 -1.26273527999E-01 -3.02142473664E-01 +1.69406203826E-03 +3.63909890742E-03 +1.56050929830E-03 +3.77756478428E-03 +5.64666298833E-02 -3.95434206912E-01
2.96000000000E+09 -1.56548647835E-01 -2.79171379907E-01 +1.97824137259E-03 +3.38740587264E-03 +2.08546572123E-03 +3.53186954310E-03 +1.60482472774E-02 -3.85612830722E-01
2.96500000000E+09 -1.85427606914E-01 -2.53256213577E-01 +2.34934993902E-03 +3.07699757899E-03 +2.42262299597E-03 +3.10916786767E-03 -2.41269570149E-02 -3.72597429440E-01
2.97000000000E+09 -2.11903262364E-01 -2.23591560925E-01 +2.29061613386E-03 +3.18247919353E-03 +2.33791303443E-03 +3.05698697315E-03 -6.34502416173E-02 -3.58085522503E-01
2.97500000000E+09 -2.35161166056E-01 -1.92646316735E-01 +3.22272558714E-03 +3.53296208685E-03 +3.17275640987E-03 +3.39861470394E-03 -1.03864711217E-01 -3.41484628072E-01
2.98000000000E+09 -2.56164688377E-01 -1.61606053123E-01 +4.26701736640E-03 +2.64436092915E-03 +4.11366659634E-03 +2.66146323178E-03 -1.42747048422E-01 -3.20645829699E-01
2.98500000000E+09 -2.77306079431E-01 -1.29808662076E-01 +4.49642352936E-03 +1.52943641435E-03 +4.47639527867E-03 +1.77500005665E-03 -1.79781167032E-01 -2.96003443879E-01
2.99000000000E+09 -2.96261416567E-01 -9.59017018315E-02 +4.01953216998E-03 +7.51190060678E-04 +4.11504089433E-03 +8.86913298989E-04 -2.12783219464E-01 -2.70131115648E-01
2.99500000000E+09 -3.12325098026E-01 -6.13990848619E-02 +3.89859456371E-03 +1.09334178225E-03 +4.08840482838E-03 +1.00510121194E-03 -2.46623358978E-01 -2.42372961624E-01
3.00000000000E+09 -3.25986511145E-01 -2.66236091980E-02 +4.76560180369E-03 +1.10906863638E-03 +4.75935101885E-03 +8.39740870573E-04 -2.78876009892E-01 -2.10659077850E-01
3.00500000000E+09 -3.36718818822E-01 +6.96169161266E-03 +5.76411077564E-03 -9.31027437572E-05 +5.44148418361E-03 -2.71494805052E-04 -3.08292453765E-01 -1.75820210609E-01
3.01000000000E+09 -3.44984530593E-01 +3.97289133739E-02 +5.24789501498E-03 -1.92148334544E-03 +5.05585588025E-03 -1.70344471656E-03 -3.34644364842E-01 -1.39812847231E-01
3.01500000000E+09 -3.51460031750E-01 +7.23704731261E-02 +4.30771758253E-03 -2.42230070194E-03 +4.36946514440E-03 -2.24443824321E-03 -3.56649557234E-01 -1.02351009536E-01
3.02000000000E+09 -3.54766900347E-01 +1.04943012681E-01 +3.51926369324E-03 -2.73206208342E-03 +3.64381542128E-03 -2.68284760082E-03 -3.75942649128E-01 -6.58758970589E-02
3.02500000000E+09 -3.54727311191E-01 +1.37469340385E-01 +3.68216930077E-03 -2.57879875147E-03 +3.80292694283E-03 -2.56146092690E-03 -3.94225937584E-01 -2.72221468015E-02
3.03000000000E+09 -3.51060224243E-01 +1.69194120477E-01 +3.47830613449E-03 -3.59313984172E-03 +3.50888382158E-03 -3.59346467109E-03 -4.08419251229E-01 +1.44023974023E-02
3.03500000000E+09 -3.44665420658E-01 +1.98850504276E-01 +2.62984593097E-03 -4.42868117679E-03 +2.74907043204E-03 -4.43016833422E-03 -4.17676277146E-01 +5.50000232242E-02
3.04000000000E+09 -3.37299265181E-01 +2.28671295378E-01 +1.11129608616E-03 -4.42111668412E-03 +1.27816974203E-03 -4.48770436522E-03 -4.25634154613E-01 +9.47821179963E-02
3.04500000000E+09 -3.28164130035E-01 +2.57784445035E-01 +8.67111358622E-04 -3.40762854018E-03 +9.20335726193E-04 -3.58397724784E-03 -4.30949453892E-01 +1.34831378165E-01
3.05000000000E+09 -3.16966412745E-01 +2.87252512608E-01 +1.15244075686E-03 -3.41007749631E-03 +1.04356430996E-03 -3.58982550487E-03 -4.34050042548E-01 +1.74463371034E-01
3.05500000000E+09 -3.03843002596E-01 +3.15911179680E-01 +1.24689517954E-03 -4.00193124347E-03 +9.84325538025E-04 -4.14734263332E-03 -4.33012188770E-01 +2.14256409346E-01
3.06000000000E+09 -2.89399325651E-01 +3.42472582460E-01 +2.35259035152E-04 -4.99414458020E-03 +4.21794752076E-05 -4.84116865808E-03 -4.29433446745E-01 +2.50959981180E-01
3.06500000000E+09 -2.75070222875E-01 +3.67654275528E-01 -1.37974488155E-03 -4.41569528524E-03 -1.26634422897E-03 -4.19472333653E-03 -4.25404708221E-01 +2.86712928434E-01
3.07000000000E+09 -2.60510842534E-01 +3.91751744219E-01 -1.70135226404E-03 -3.31233127171E-03 -1.48420709141E-03 -3.38266627239E-03 -4.20054281166E-01 +3.21673039836E-01
