# Hz S RI R 50
! CMT, C1220, 16058040, 17.2.0/1
! Date: 15/08/2018 10:08:43
! Data: Format (Calibration Info)
! Freq                      S11: Re/Im (F2)                       S21: Re/Im (F2)                       S12: Re/Im (F2)                       S22: Re/Im (F2)            
2.50000000000E+09 +5.98116927575E-01 +6.33960116452E-01 -5.60347682278E-04 -2.53127542355E-04 -5.28640827118E-04 -2.33413909065E-04 +5.72891586878E-01 +7.16422809317E-01
2.50500000000E+09 +6.04415514120E-01 +6.26525080885E-01 -5.14282470579E-04 -2.90275787558E-04 -5.33435305105E-04 -2.43560481170E-04 +5.78534293461E-01 +7.10974167497E-01
2.51000000000E+09 +6.10987146528E-01 +6.18530410873E-01 -5.40505388802E-04 -2.74911372623E-04 -5.87609782407E-04 -2.40170450791E-04 +5.84332995941E-01 +7.05799681474E-01
2.51500000000E+09 +6.17235914000E-01 +6.10581669624E-01 -6.83736418540E-04 -2.44000393034E-04 -6.74793957310E-04 -2.35680890658E-04 +5.89511030411E-01 +7.00284946526E-01
2.52000000000E+09 +6.23056923752E-01 +6.02380056097E-01 -7.56091483006E-04 -8.49205547729E-05 -7.06151752912E-04 -1.12776698195E-04 +5.94767173784E-01 +6.94412447427E-01
2.52500000000E+09 +6.27710462032E-01 +5.94744734800E-01 -7.73695192377E-04 +1.22368081158E-05 -7.69081880040E-04 -2.14045192312E-05 +6.00550599989E-01 +6.87963875430E-01
2.53000000000E+09 +6.32300608865E-01 +5.87809409748E-01 -7.13768922382E-04 +1.10645055491E-04 -7.67435586692E-04 +1.41269439888E-04 +6.06480490564E-01 +6.80885295067E-01
2.53500000000E+09 +6.36468556587E-01 +5.81300239913E-01 -7.29384464769E-04 +1.29497548954E-04 -7.40306170821E-04 +1.28819360643E-04 +6.12537915927E-01 +6.74082138672E-01
2.54000000000E+09 +6.40362896154E-01 +5.75141504381E-01 -7.82190704222E-04 +2.18385994502E-04 -7.59544919413E-04 +1.56894520333E-04 +6.18471218064E-01 +6.67265475067E-01
2.54500000000E+09 +6.44675307636E-01 +5.69198904224E-01 -7.54700297626E-04 +3.52714637576E-04 -7.69133281629E-04 +3.24232679121E-04 +6.24155496664E-01 +6.60775118175E-01
2.55000000000E+09 +6.49415892320E-01 +5.63166611147E-01 -6.40058297773E-04 +4.79666110376E-04 -6.92008083334E-04 +4.67644078500E-04 +6.29547863923E-01 +6.54594959716E-01
2.55500000000E+09 +6.54560135334E-01 +5.56265580198E-01 -5.32112925008E-04 +5.04037675940E-04 -5.89202031131E-04 +6.35498911267E-04 +6.34643984113E-01 +6.47993749936E-01
2.56000000000E+09 +6.60415432752E-01 +5.49328154505E-01 -4.15047520032E-04 +4.96571697947E-04 -4.72998009031E-04 +6.47797123525E-04 +6.39892822204E-01 +6.41001836961E-01
2.56500000000E+09 +6.66607101592E-01 +5.41290490911E-01 -4.33496123657E-04 +4.53562895347E-04 -3.57831938846E-04 +6.13634562073E-04 +6.45311736863E-01 +6.33383709311E-01
2.57000000000E+09 +6.72850490458E-01 +5.32892761140E-01 -5.31418606384E-04 +4.32627158667E-04 -3.80156429058E-04 +5.18996486378E-04 +6.50715454028E-01 +6.25347153951E-01
2.57500000000E+09 +6.78838990645E-01 +5.24000701262E-01 -5.91845602642E-04 +6.63901498120E-04 -3.93165218947E-04 +6.14328254145E-04 +6.56151088623E-01 +6.17727655532E-01
2.58000000000E+09 +6.83890845249E-01 +5.15133889131E-01 -3.58000911375E-04 +8.03857717587E-04 -2.62173859697E-04 +7.21968698468E-04 +6.61218954309E-01 +6.10223222882E-01
2.58500000000E+09 +6.88726697558E-01 +5.06481607423E-01 -2.01039559326E-04 +7.61767441179E-04 -2.32894937930E-04 +6.58257491346E-04 +6.66020635958E-01 +6.02663606897E-01
2.59000000000E+09 +6.93033567073E-01 +4.98321481466E-01 -1.49065081180E-04 +7.39397362807E-04 -2.55135064393E-04 +7.33852954167E-04 +6.70795347236E-01 +5.95197216572E-01
2.59500000000E+09 +6.97376809518E-01 +4.90014136218E-01 -1.00074333462E-04 +7.36321226194E-04 -1.25484332051E-04 +7.08759974658E-04 +6.75615136971E-01 +5.87280668048E-01
2.60000000000E+09 +7.01368864961E-01 +4.81478752453E-01 -7.84330958960E-05 +7.19560588649E-04 -1.05723439926E-04 +7.09244981903E-04 +6.80681892997E-01 +5.78887476805E-01
2.60500000000E+09 +7.05590508785E-01 +4.72565979658E-01 -7.71469978318E-05 +7.40404205940E-04 -1.17567079564E-04 +7.27801239241E-04 +6.85928957280E-01 +5.70059714912E-01
2.61000000000E+09 +7.09926916108E-01 +4.62522433263E-01 -1.37098905613E-05 +9.27237213513E-04 -1.48781897403E-05 +9.20195834585E-04 +6.90718934632E-01 +5.61197170554E-01
2.61500000000E+09 +7.14544756475E-01 +4.51617360385E-01 +2.15259229898E-04 +9.13038162494E-04 +2.36223524100E-04 +9.78050117357E-04 +6.95711466663E-01 +5.52622380086E-01
2.62000000000E+09 +7.18811656471E-01 +4.39541867440E-01 +3.77806123693E-04 +7.72533576688E-04 +3.85332878807E-04 +8.20886762052E-04 +7.00290249918E-01 +5.43552750532E-01
2.62500000000E+09 +7.22855250977E-01 +4.26613925142E-01 +3.13968091728E-04 +6.20310189835E-04 +3.93125651149E-04 +6.06716879619E-04 +7.04956692436E-01 +5.34927551157E-01
2.63000000000E+09 +7.26502578240E-01 +4.13426825863E-01 +3.15733294975E-04 +7.06517378559E-04 +3.83713293582E-04 +6.31203978561E-04 +7.09979400108E-01 +5.25867651808E-01
2.63500000000E+09 +7.29572121870E-01 +4.00189634690E-01 +3.31223696666E-04 +7.12156195566E-04 +3.65987309525E-04 +5.81687983991E-04 +7.14627769333E-01 +5.16642677849E-01
2.64000000000E+09 +7.32261496193E-01 +3.87329549890E-01 +4.24182885663E-04 +7.71982305274E-04 +3.92436122725E-04 +6.33438932295E-04 +7.19478850426E-01 +5.06867147487E-01
2.64500000000E+09 +7.34862573755E-01 +3.75168583550E-01 +5.65341096634E-04 +6.16498219783E-04 +4.51635062404E-04 +6.09187397488E-04 +7.24012478753E-01 +4.97151842578E-01
2.65000000000E+09 +7.37185997950E-01 +3.63470668762E-01 +5.05052202504E-04 +5.36240725255E-04 +4.26918813179E-04 +5.98577016617E-04 +7.28198268670E-01 +4.87427278295E-01
2.65500000000E+09 +7.39361445359E-01 +3.51744299479E-01 +5.50672329853E-04 +6.04816404202E-04 +5.33891197230E-04 +6.54759249346E-04 +7.32480884490E-01 +4.77257975762E-01
2.66000000000E+09 +7.41450184657E-01 +3.40324699249E-01 +7.00430364031E-04 +6.04303021730E-04 +7.89540094102E-04 +6.06480777623E-04 +7.37016627179E-01 +4.65798750132E-01
2.66500000000E+09 +7.43747845879E-01 +3.28743853204E-01 +6.47628689540E-04 +5.71519368662E-04 +7.00915828784E-04 +5.74118673778E-04 +7.41160550466E-01 +4.54536313848E-01
2.67000000000E+09 +7.45686122274E-01 +3.16085554451E-01 +8.79431318530E-04 +6.34696182683E-04 +8.87042983061E-04 +5.41784651374E-04 +7.45429182404E-01 +4.43465899070E-01
2.67500000000E+09 +7.46948763633E-01 +3.03071901246E-01 +1.00923767950E-03 +3.51625547685E-04 +9.86552050019E-04 +3.62634148220E-04 +7.49440605616E-01 +4.32256294175E-01
2.68000000000E+09 +7.47864456213E-01 +2.89629765175E-01 +9.29280647749E-04 +2.56422276768E-04 +8.88740355036E-04 +2.37981336661E-04 +7.53349673014E-01 +4.21259498801E-01
2.68500000000E+09 +7.48187290096E-01 +2.75676307311E-01 +9.33014404973E-04 +3.12167402115E-04 +8.97333855879E-04 +3.51336749010E-04 +7.56664949495E-01 +4.09578996678E-01
2.69000000000E+09 +7.47879533149E-01 +2.61905712035E-01 +1.04517893206E-03 +2.90524915244E-04 +1.05229020732E-03 +2.84301616510E-04 +7.59362137911E-01 +3.97456882850E-01
2.69500000000E+09 +7.47582837641E-01 +2.48826285836E-01 +1.15520595206E-03 +1.73059136883E-04 +1.17642881205E-03 +2.33951004330E-04 +7.62107749910E-01 +3.84571111680E-01
2.70000000000E+09 +7.47685423017E-01 +2.35692995938E-01 +1.38476303128E-03 +8.19919364340E-05 +1.35312567485E-03 +1.44075867014E-04 +7.64761038361E-01 +3.71198510001E-01
2.70500000000E+09 +7.48033797040E-01 +2.23028565872E-01 +1.42763164684E-03 -3.17196741120E-04 +1.40314658768E-03 -2.56470418917E-04 +7.67780117773E-01 +3.57799780659E-01
2.71000000000E+09 +7.48983318521E-01 +2.10068598297E-01 +1.27722514731E-03 -4.63317982579E-04 +1.32232262812E-03 -4.18726580513E-04 +7.70590279050E-01 +3.44206743046E-01
2.71500000000E+09 +7.50279267644E-01 +1.96524042155E-01 +1.20308120699E-03 -6.48265920829E-04 +1.31535502515E-03 -6.72139742056E-04 +7.72787809387E-01 +3.31367737238E-01
2.72000000000E+09 +7.51468765298E-01 +1.82313854780E-01 +9.87647010190E-04 -7.51042517443E-04 +1.02514348350E-03 -8.40563943076E-04 +7.74626403946E-01 +3.18654246915E-01
2.72500000000E+09 +7.52419746936E-01 +1.67093563510E-01 +9.32454368729E-04 -7.01672189990E-04 +8.38208842138E-04 -7.48408912467E-04 +7.75760419415E-01 +3.05393238810E-01
2.73000000000E+09 +7.52406899317E-01 +1.50691364990E-01 +9.81869128246E-04 -6.42130917972E-04 +8.65942739006E-04 -6.86487758632E-04 +7.77229549023E-01 +2.91384088001E-01
2.73500000000E+09 +7.50683635260E-01 +1.33485820573E-01 +1.04135262668E-03 -8.72769368420E-04 +9.41071419194E-04 -8.12955634283E-04 +7.78452388020E-01 +2.76244413957E-01
2.74000000000E+09 +7.47891017899E-01 +1.16957141958E-01 +1.04290451319E-03 -1.07699166511E-03 +9.92177107765E-04 -8.85033480309E-04 +7.79563865079E-01 +2.60852009946E-01
2.74500000000E+09 +7.44380147075E-01 +1.00308744354E-01 +9.20411953119E-04 -1.30834744534E-03 +1.00961765123E-03 -1.18103355246E-03 +7.80399532002E-01 +2.45722714497E-01
2.75000000000E+09 +7.40057740559E-01 +8.37776767932E-02 +5.37475283575E-04 -1.49665752684E-03 +6.82171841148E-04 -1.50379803556E-03 +7.81001281095E-01 +2.30744894511E-01
2.75500000000E+09 +7.35346999790E-01 +6.77131997862E-02 +4.18313559980E-04 -1.32274381963E-03 +4.92983459809E-04 -1.41539127566E-03 +7.81143529862E-01 +2.15683308595E-01
2.76000000000E+09 +7.30786812185E-01 +5.17497579438E-02 +4.34679777892E-04 -1.36853277139E-03 +5.27089574447E-04 -1.45714706020E-03 +7.80588933346E-01 +1.99778602926E-01
2.76500000000E+09 +7.26350704645E-01 +3.54486920514E-02 +2.60972965451E-04 -1.59890566138E-03 +2.68825468149E-04 -1.70918748831E-03 +7.79103233447E-01 +1.82619631808E-01
2.77000000000E+09 +7.22157574954E-01 +1.82888756836E-02 +1.16305563154E-04 -1.57234845725E-03 +4.94939472577E-05 -1.66352146515E-03 +7.77395521993E-01 +1.65474976407E-01
2.77500000000E+09 +7.17984815916E-01 -1.13745948531E-05 -6.93493002366E-05 -1.76953717034E-03 -1.37139919986E-04 -1.79349315189E-03 +7.75675271040E-01 +1.47278885629E-01
2.78000000000E+09 +7.13241509407E-01 -1.97818550854E-02 -4.59028898385E-04 -1.74917122028E-03 -5.20155507998E-04 -1.79822831127E-03 +7.73356725119E-01 +1.29186515615E-01
2.78500000000E+09 +7.07041347846E-01 -4.03988924100E-02 -7.29855913975E-04 -1.47482836126E-03 -8.19673009805E-04 -1.39547154324E-03 +7.70428046779E-01 +1.11363459323E-01
2.79000000000E+09 +6.99928044062E-01 -6.16262106677E-02 -6.42771014531E-04 -1.33568316096E-03 -6.42699786591E-04 -1.21402442917E-03 +7.66752913594E-01 +9.40601041946E-02
2.79500000000E+09 +6.91111466797E-01 -8.25733716658E-02 -7.82533929343E-04 -1.45030431311E-03 -7.30123621822E-04 -1.34438970486E-03 +7.62191627248E-01 +7.65257019687E-02
2.80000000000E+09 +6.81142270080E-01 -1.02855746824E-01 -9.90292868120E-04 -1.20918158013E-03 -9.50183260090E-04 -1.16691741093E-03 +7.57345558215E-01 +5.85680608138E-02
2.80500000000E+09 +6.70059272485E-01 -1.21969758645E-01 -9.98153221925E-04 -1.23811072685E-03 -9.07350007125E-04 -1.24610787781E-03 +7.51644578871E-01 +3.94689764220E-02
2.81000000000E+09 +6.58749753509E-01 -1.40206202250E-01 -1.23761104945E-03 -1.15973847313E-03 -1.23388739833E-03 -1.17453762044E-03 +7.44921931095E-01 +2.03044088825E-02
2.81500000000E+09 +6.45955250741E-01 -1.57973305907E-01 -1.31623400995E-03 -9.22483972809E-04 -1.31437811456E-03 -8.95572594935E-04 +7.37841536636E-01 +8.61109980862E-04
2.82000000000E+09 +6.32426474672E-01 -1.75063044094E-01 -1.22264661721E-03 -1.13785926115E-03 -1.30830387845E-03 -1.07076386894E-03 +7.29855039849E-01 -1.85702572051E-02
2.82500000000E+09 +6.18007560313E-01 -1.92107701268E-01 -1.80118456553E-03 -1.09500216147E-03 -1.78655309435E-03 -1.03610676957E-03 +7.21033257908E-01 -3.80750294158E-02
2.83000000000E+09 +6.02256794225E-01 -2.09910308126E-01 -2.10807647934E-03 -3.75536873094E-04 -1.98412053048E-03 -3.73416110347E-04 +7.11401981522E-01 -5.71571909921E-02
2.83500000000E+09 +5.84285009770E-01 -2.28310779481E-01 -1.73410845727E-03 +8.77918922756E-05 -1.64564114064E-03 +8.40871970901E-05 +7.01577604883E-01 -7.70260570485E-02
2.84000000000E+09 +5.64285940100E-01 -2.46638449116E-01 -1.31788198040E-03 +1.58870407549E-04 -1.33035463525E-03 +8.37449158718E-05 +6.90041765641E-01 -9.78654695970E-02
2.84500000000E+09 +5.42021866589E-01 -2.65103803912E-01 -1.12445998957E-03 -1.36467395794E-04 -1.14293554758E-03 -1.53155287460E-04 +6.77384365338E-01 -1.18280794273E-01
2.85000000000E+09 +5.18330987542E-01 -2.82661308739E-01 -1.51594102221E-03 -4.78916378192E-04 -1.54635220733E-03 -5.21126950319E-04 +6.63911527617E-01 -1.38725187140E-01
2.85500000000E+09 +4.94036542506E-01 -2.99558982794E-01 -2.03037481250E-03 +6.72708477134E-05 -1.95781724496E-03 +4.73940858614E-05 +6.48995031453E-01 -1.59324234809E-01
2.86000000000E+09 +4.69054835845E-01 -3.16436300158E-01 -1.63209865025E-03 +3.10901705050E-04 -1.58736428318E-03 +2.76067971814E-04 +6.32346079594E-01 -1.79703185387E-01
2.86500000000E+09 +4.43029044945E-01 -3.32319819021E-01 -1.90363706241E-03 +2.32764890814E-04 -1.83449889286E-03 +2.15269999115E-04 +6.14512611169E-01 -1.99507072257E-01
2.87000000000E+09 +4.16760020186E-01 -3.46143162224E-01 -1.77861456455E-03 +8.65576213797E-04 -1.80711656819E-03 +8.88544639441E-04 +5.95775454857E-01 -2.18173903960E-01
2.87500000000E+09 +3.91251321211E-01 -3.58688249425E-01 -1.52656530920E-03 +7.02378077368E-04 -1.54502633593E-03 +6.62516351379E-04 +5.77217010146E-01 -2.37962456095E-01
2.88000000000E+09 +3.65173313282E-01 -3.70972038021E-01 -1.72380635557E-03 +7.31028756197E-04 -1.69423783654E-03 +7.60076220854E-04 +5.55987401487E-01 -2.57882284062E-01
2.88500000000E+09 +3.38281732958E-01 -3.81476358763E-01 -1.62042075473E-03 +1.35064123433E-03 -1.52328386470E-03 +1.25791522741E-03 +5.32296247372E-01 -2.76252482136E-01
2.89000000000E+09 +3.10039512028E-01 -3.91153907808E-01 -1.11187258012E-03 +9.97298724680E-04 -1.11201727349E-03 +9.33711798031E-04 +5.07534970275E-01 -2.93640829520E-01
2.89500000000E+09 +2.79482053272E-01 -3.99079873373E-01 -1.68087570421E-03 +1.05214125299E-03 -1.63696360774E-03 +9.40824324846E-04 +4.80429170585E-01 -3.11117451084E-01
2.90000000000E+09 +2.47078822672E-01 -4.04357410456E-01 -1.81879779604E-03 +1.44509585743E-03 -1.89400616010E-03 +1.34722595354E-03 +4.52076742706E-01 -3.26463685427E-01
2.90500000000E+09 +2.12814003341E-01 -4.06409893850E-01 -1.82699484203E-03 +2.14259485695E-03 -1.83634866170E-03 +2.17312721837E-03 +4.23042138517E-01 -3.41900765485E-01
2.91000000000E+09 +1.78613044572E-01 -4.05967023166E-01 -9.77739564801E-04 +2.51354573923E-03 -8.94131688191E-04 +2.52539948701E-03 +3.92371073859E-01 -3.56007952344E-01
2.91500000000E+09 +1.44000829434E-01 -4.03893131029E-01 -7.04998325709E-04 +2.06427888371E-03 -6.39161644143E-04 +2.01571307022E-03 +3.59875700637E-01 -3.68044233458E-01
2.92000000000E+09 +1.08292238032E-01 -3.99876135462E-01 -8.82193508114E-04 +2.48963457636E-03 -8.00025725838E-04 +2.31032769741E-03 +3.27169170316E-01 -3.77482781944E-01
2.92500000000E+09 +7.20709466091E-02 -3.94162290330E-01 -1.96807469063E-04 +2.46730829564E-03 -3.00135498330E-04 +2.29660247267E-03 +2.92091007397E-01 -3.85793581916E-01
2.93000000000E+09 +3.60652243789E-02 -3.85135835321E-01 -3.27936272546E-04 +2.32675003592E-03 -4.77408456221E-04 +2.32208869485E-03 +2.55549561750E-01 -3.92234223378E-01
2.93500000000E+09 +7.72353695130E-04 -3.74549796380E-01 +5.13774817245E-05 +2.78212926009E-03 -6.09298949773E-05 +2.80768315080E-03 +2.17042118506E-01 -3.96584700448E-01
2.94000000000E+09 -3.40135539632E-02 -3.61970911120E-01 +1.30875521885E-04 +2.61024666689E-03 +6.72454690473E-05 +2.66435704879E-03 +1.78384057005E-01 -3.97727647704E-01
2.94500000000E+09 -6.85483171062E-02 -3.46457585598E-01 +5.06031270049E-04 +3.16874806761E-03 +4.77806877960E-04 +3.22223788475E-03 +1.41186130817E-01 -3.98683579450E-01
2.95000000000E+09 -1.01597815441E-01 -3.27858032316E-01 +1.23229200565E-03 +2.99322968131E-03 +1.18109423206E-03 +3.07797301911E-03 +1.00975541806E-01 -3.98086096442E-01
2.95500000000E+09 -1.33071299436E-01 -3.06708635348E-01 +1.69427259412E-03 +2.92694525243E-03 +1.64101275176E-03 +2.99190163333E-03 +5.96394422379E-02 -3.92133473725E-01
2.96000000000E+09 -1.63134707456E-01 -2.83315470394E-01 +2.05253848792E-03 +2.56649370908E-03 +2.13169407728E-03 +2.61652741883E-03 +1.95512127213E-02 -3.82326155886E-01
2.96500000000E+09 -1.92320190426E-01 -2.57064199195E-01 +2.34552568480E-03 +2.12006381466E-03 +2.52860281608E-03 +2.15481480337E-03 -2.04042640361E-02 -3.69575390100E-01
2.97000000000E+09 -2.19633654331E-01 -2.26944874896E-01 +2.25399380405E-03 +2.02914542973E-03 +2.30133132238E-03 +1.93323989774E-03 -5.88340222991E-02 -3.55323518051E-01
2.97500000000E+09 -2.43121124447E-01 -1.94535095695E-01 +2.83214969841E-03 +2.18857743992E-03 +2.80532474876E-03 +2.09569137007E-03 -9.82775085712E-02 -3.39759411716E-01
2.98000000000E+09 -2.63979346663E-01 -1.62236021351E-01 +3.37268344324E-03 +1.83710719144E-03 +3.20817700292E-03 +1.94090532861E-03 -1.37300835290E-01 -3.20677894433E-01
2.98500000000E+09 -2.84152992408E-01 -1.29583846899E-01 +4.11098701212E-03 +1.26447028969E-03 +4.07444372345E-03 +1.46265173524E-03 -1.75301634764E-01 -2.96745710503E-01
2.99000000000E+09 -3.02560587265E-01 -9.54879595760E-02 +4.06344002745E-03 +1.16583111516E-04 +4.23554543662E-03 +1.37616986981E-04 -2.08994057306E-01 -2.70806911099E-01
2.99500000000E+09 -3.18753353080E-01 -6.04776166535E-02 +3.65956179466E-03 -4.08346951143E-04 +3.75147576067E-03 -4.65449532096E-04 -2.42736906014E-01 -2.42667763761E-01
3.00000000000E+09 -3.32209016736E-01 -2.50733345459E-02 +3.57216905381E-03 -2.53521630970E-04 +3.57138179205E-03 -3.79806921408E-04 -2.74160672053E-01 -2.11044512241E-01
3.00500000000E+09 -3.42366634080E-01 +9.42408987043E-03 +4.09502837978E-03 -8.60237595931E-04 +3.91605426241E-03 -9.20994264732E-04 -3.02843009560E-01 -1.77589897011E-01
3.01000000000E+09 -3.49940762834E-01 +4.25025596526E-02 +4.03161043980E-03 -1.92232473562E-03 +3.82070214667E-03 -1.73906322459E-03 -3.29561853100E-01 -1.42943720200E-01
3.01500000000E+09 -3.56027241870E-01 +7.53917067967E-02 +3.44370528674E-03 -2.76544426971E-03 +3.53812482732E-03 -2.55567813515E-03 -3.52149214917E-01 -1.06794279216E-01
3.02000000000E+09 -3.58852818118E-01 +1.08359619530E-01 +2.40280442539E-03 -3.17686019930E-03 +2.52418140519E-03 -3.14661211138E-03 -3.72965411278E-01 -7.10963080970E-02
3.02500000000E+09 -3.58184848329E-01 +1.41179914496E-01 +2.14586021737E-03 -2.77207536641E-03 +2.25435820012E-03 -2.74844634946E-03 -3.92432292755E-01 -3.23245546092E-02
3.03000000000E+09 -3.53798622002E-01 +1.72802788953E-01 +1.98883761312E-03 -3.23408630385E-03 +2.09469773524E-03 -3.26177477453E-03 -4.07129725885E-01 +9.02199166582E-03
3.03500000000E+09 -3.47047430939E-01 +2.02490138392E-01 +1.41107823041E-03 -3.88220150918E-03 +1.58774739009E-03 -3.91354439826E-03 -4.17887060762E-01 +4.97649949306E-02
3.04000000000E+09 -3.39576219147E-01 +2.32013095516E-01 +1.39844111512E-04 -3.90042088739E-03 +3.05157645344E-04 -4.08627885977E-03 -4.25966622691E-01 +9.01002771026E-02
3.04500000000E+09 -3.29994593109E-01 +2.61486336189E-01 -3.67756606465E-04 -3.00032631102E-03 -3.28238998372E-04 -3.23542199326E-03 -4.31808642017E-01 +1.29592518234E-01
3.05000000000E+09 -3.18432655268E-01 +2.91246999937E-01 -2.55527047875E-04 -2.42304158575E-03 -3.60790936753E-04 -2.58294213368E-03 -4.36289633544E-01 +1.69590882055E-01
3.05500000000E+09 -3.04317032974E-01 +3.19885534528E-01 +3.60068324782E-04 -2.58799790760E-03 +1.94304781835E-04 -2.63298736280E-03 -4.36097182273E-01 +2.10168793700E-01
3.06000000000E+09 -2.89208398776E-01 +3.46031431257E-01 -7.62110425845E-06 -3.71437624134E-03 -1.58606692602E-04 -3.63726982061E-03 -4.33348629159E-01 +2.47595436990E-01
3.06500000000E+09 -2.74438336106E-01 +3.70784755560E-01 -1.78204233103E-03 -3.51579381342E-03 -1.64734119041E-03 -3.35046918011E-03 -4.29251475862E-01 +2.84802469960E-01
3.07000000000E+09 -2.59628462006E-01 +3.94475865624E-01 -2.24542591941E-03 -2.19544171577E-03 -2.07273798147E-03 -2.32309158166E-03 -4.23482596068E-01 +3.20193860573E-01
