# Hz S RI R 50
! CMT, C1220, 16058040, 17.2.0/1
! Date: 15/08/2018 10:08:07
! Data: Format (Calibration Info)
! Freq                      S11: Re/Im (F2)                       S21: Re/Im (F2)                       S12: Re/Im (F2)                       S22: Re/Im (F2)            
2.50000000000E+09 +5.98641751105E-01 +6.32356053816E-01 -3.33771225097E-04 -1.07316187941E-04 -3.82156006587E-04 -1.44024110021E-04 +5.72795218048E-01 +7.16941496139E-01
2.50500000000E+09 +6.04887855609E-01 +6.24672109084E-01 -3.49765286268E-04 -2.15325228353E-04 -3.99251442303E-04 -2.16591668310E-04 +5.78499249542E-01 +7.11521207945E-01
2.51000000000E+09 +6.11462550203E-01 +6.16614758897E-01 -3.95416052568E-04 -2.05223363098E-04 -4.22055793631E-04 -1.99311484570E-04 +5.84175471955E-01 +7.06319085556E-01
2.51500000000E+09 +6.17697753337E-01 +6.08447057684E-01 -5.28769088634E-04 -2.42272554281E-04 -4.95306051938E-04 -2.66484074126E-04 +5.89440862557E-01 +7.00934908588E-01
2.52000000000E+09 +6.23336664441E-01 +6.00263900358E-01 -5.88327707535E-04 -9.93845605985E-05 -5.61911409487E-04 -9.88893256161E-05 +5.94640415650E-01 +6.94993368519E-01
2.52500000000E+09 +6.28169418672E-01 +5.92606767606E-01 -5.52577039333E-04 +6.54836146508E-07 -5.76892830971E-04 -6.03190900141E-06 +6.00481181227E-01 +6.88507989908E-01
2.53000000000E+09 +6.32558017018E-01 +5.85684296912E-01 -5.07094004278E-04 -9.30472566229E-06 -5.10196779759E-04 +9.15683211329E-06 +6.06548080217E-01 +6.81477183552E-01
2.53500000000E+09 +6.36716011327E-01 +5.79182554107E-01 -5.37815882301E-04 +2.89515099339E-06 -5.32889410182E-04 -1.86116614745E-06 +6.12504514044E-01 +6.74603550263E-01
2.54000000000E+09 +6.40692209199E-01 +5.73046194248E-01 -6.33652800709E-04 -2.19648356895E-05 -5.91823585988E-04 -4.20333604562E-05 +6.18645519382E-01 +6.67945093924E-01
2.54500000000E+09 +6.44936733674E-01 +5.67085050066E-01 -7.38062370836E-04 +1.70022448708E-04 -7.29600403610E-04 +1.23025168446E-04 +6.24487353917E-01 +6.61464891797E-01
2.55000000000E+09 +6.49566645706E-01 +5.61071684943E-01 -6.42674026794E-04 +3.17114298316E-04 -6.76732678621E-04 +2.91789743015E-04 +6.29720380494E-01 +6.55131104951E-01
2.55500000000E+09 +6.54577882453E-01 +5.54210422323E-01 -5.53468006215E-04 +3.96390618300E-04 -6.45006105601E-04 +4.25418620808E-04 +6.34948967907E-01 +6.48450050842E-01
2.56000000000E+09 +6.60593555774E-01 +5.47388254669E-01 -5.08580175335E-04 +4.00650954562E-04 -5.08536808499E-04 +5.07355227992E-04 +6.40248541916E-01 +6.41466679575E-01
2.56500000000E+09 +6.66771344436E-01 +5.39238228822E-01 -4.52516191872E-04 +3.46487807932E-04 -4.31556559230E-04 +4.81061981161E-04 +6.45737031777E-01 +6.33890416911E-01
2.57000000000E+09 +6.72953826930E-01 +5.30821164241E-01 -6.22908761520E-04 +3.75980538925E-04 -5.22627965372E-04 +4.93172622584E-04 +6.51119930715E-01 +6.25758460841E-01
2.57500000000E+09 +6.78784044033E-01 +5.21770875638E-01 -6.52875681757E-04 +7.18876284514E-04 -4.99547245515E-04 +6.70021964100E-04 +6.56604387394E-01 +6.18116975984E-01
2.58000000000E+09 +6.83683621682E-01 +5.13088132017E-01 -4.34319795185E-04 +8.35996937568E-04 -3.15016681972E-04 +6.68525820081E-04 +6.61665403941E-01 +6.10445274246E-01
2.58500000000E+09 +6.88493566751E-01 +5.04369967238E-01 -2.60806272278E-04 +8.52584715618E-04 -2.63768558489E-04 +7.51952674369E-04 +6.66525244092E-01 +6.02880923724E-01
2.59000000000E+09 +6.92592181763E-01 +4.95848425332E-01 -1.15647119751E-04 +8.38770964106E-04 -1.84885074136E-04 +7.73339284798E-04 +6.71306992227E-01 +5.95413691730E-01
2.59500000000E+09 +6.96788570978E-01 +4.87717609050E-01 -7.59551565323E-05 +7.64900932289E-04 -1.13942565420E-04 +7.81852104429E-04 +6.76037461630E-01 +5.87183432972E-01
2.60000000000E+09 +7.00651025014E-01 +4.79321048405E-01 -1.22914912548E-05 +7.39238792650E-04 -4.32107284126E-05 +7.28565857995E-04 +6.81076254180E-01 +5.78910631966E-01
2.60500000000E+09 +7.04752703167E-01 +4.70204783105E-01 +6.05092801050E-05 +7.80012888632E-04 +3.57445749372E-05 +8.09005512398E-04 +6.86311622928E-01 +5.69995029385E-01
2.61000000000E+09 +7.08855158921E-01 +4.60150217574E-01 +1.83928726599E-04 +8.01272892598E-04 +1.65025645447E-04 +8.74682480730E-04 +6.91230114878E-01 +5.61172038832E-01
2.61500000000E+09 +7.13301809413E-01 +4.49257941465E-01 +2.93434545488E-04 +7.81222649452E-04 +3.16557724241E-04 +8.11169667472E-04 +6.96040430704E-01 +5.52409519896E-01
2.62000000000E+09 +7.17481661665E-01 +4.37101883572E-01 +3.53700079715E-04 +6.51622782579E-04 +4.20994102756E-04 +6.72599255552E-04 +7.00585493452E-01 +5.43383695052E-01
2.62500000000E+09 +7.21434843284E-01 +4.24276826792E-01 +2.90693389264E-04 +5.90122185431E-04 +4.03969803543E-04 +6.14067147669E-04 +7.05434161100E-01 +5.34664561819E-01
2.63000000000E+09 +7.24901112976E-01 +4.11095474349E-01 +3.49918874904E-04 +6.23857627593E-04 +4.77833841790E-04 +5.78880647948E-04 +7.10355360593E-01 +5.25656708019E-01
2.63500000000E+09 +7.27931281501E-01 +3.97893684654E-01 +3.45275628379E-04 +6.76047649695E-04 +3.78163395594E-04 +5.24933869427E-04 +7.15044344426E-01 +5.16159211639E-01
2.64000000000E+09 +7.30630938890E-01 +3.85173081935E-01 +4.60071079253E-04 +7.38943038537E-04 +4.10981601196E-04 +5.76527058366E-04 +7.19754555316E-01 +5.06440620347E-01
2.64500000000E+09 +7.33300650646E-01 +3.73018104544E-01 +6.00403372154E-04 +6.50074065238E-04 +5.13476828682E-04 +6.01040679738E-04 +7.24237762936E-01 +4.96620093148E-01
2.65000000000E+09 +7.35399871684E-01 +3.61351855336E-01 +6.06579047320E-04 +5.72117425890E-04 +5.09134017026E-04 +5.97525646679E-04 +7.28333544994E-01 +4.86781038853E-01
2.65500000000E+09 +7.37805648092E-01 +3.49644802694E-01 +6.25329013569E-04 +5.78721080450E-04 +5.86385666971E-04 +5.86700289896E-04 +7.32650172442E-01 +4.76759113840E-01
2.66000000000E+09 +7.39701112185E-01 +3.38068349245E-01 +7.39895280727E-04 +5.24672023604E-04 +8.11550701179E-04 +5.48377582183E-04 +7.37021709325E-01 +4.65155557976E-01
2.66500000000E+09 +7.41943414848E-01 +3.26619328023E-01 +6.82295863603E-04 +6.07832113603E-04 +7.12851369550E-04 +6.02372273473E-04 +7.41164607015E-01 +4.53934119405E-01
2.67000000000E+09 +7.43905308853E-01 +3.14054031966E-01 +1.02798184612E-03 +7.33439495366E-04 +1.07502407607E-03 +6.34596170852E-04 +7.45381237344E-01 +4.42789718411E-01
2.67500000000E+09 +7.44908142713E-01 +3.00860166095E-01 +1.33614908826E-03 +3.38461853694E-04 +1.19926340132E-03 +3.23626911589E-04 +7.49204415013E-01 +4.31638005786E-01
2.68000000000E+09 +7.45647032199E-01 +2.87631072050E-01 +1.22840143680E-03 +3.20357038162E-05 +1.15812339253E-03 +9.69725810010E-05 +7.53082041088E-01 +4.20520718807E-01
2.68500000000E+09 +7.45940382626E-01 +2.73724617603E-01 +1.11363037115E-03 -3.86639196703E-05 +1.16529634887E-03 -7.56176714851E-06 +7.56148720920E-01 +4.08825385810E-01
2.69000000000E+09 +7.45421091295E-01 +2.60078020298E-01 +1.14897500703E-03 -1.14197688749E-04 +1.08323538700E-03 -3.54325633859E-05 +7.58854721951E-01 +3.96719900454E-01
2.69500000000E+09 +7.44940378671E-01 +2.47130295738E-01 +1.31933956242E-03 -1.34164924084E-04 +1.25069270758E-03 -1.19951625681E-04 +7.61405255127E-01 +3.83946360381E-01
2.70000000000E+09 +7.44828772091E-01 +2.34324623513E-01 +1.33399310911E-03 -3.13905368632E-04 +1.32132133449E-03 -3.32538523825E-04 +7.63994247341E-01 +3.70644818076E-01
2.70500000000E+09 +7.45091298639E-01 +2.21874488993E-01 +1.36270127466E-03 -7.08525561388E-04 +1.35512252969E-03 -6.33684974525E-04 +7.66820933581E-01 +3.57282850759E-01
2.71000000000E+09 +7.45803416392E-01 +2.09435619144E-01 +1.13096377381E-03 -8.44435865081E-04 +1.22086124866E-03 -8.07576821140E-04 +7.69737247228E-01 +3.43942844509E-01
2.71500000000E+09 +7.47136973986E-01 +1.96078670573E-01 +1.00519130881E-03 -1.13071712811E-03 +1.09879658367E-03 -1.17914540212E-03 +7.71890318316E-01 +3.31093812806E-01
2.72000000000E+09 +7.48136276123E-01 +1.82167671795E-01 +6.46818117570E-04 -1.08789120207E-03 +6.40297058277E-04 -1.25178676116E-03 +7.73684895495E-01 +3.18345020906E-01
2.72500000000E+09 +7.48960066768E-01 +1.67137045380E-01 +5.36347340719E-04 -1.09529847576E-03 +4.69898850360E-04 -1.14317373916E-03 +7.74719306927E-01 +3.05242467912E-01
2.73000000000E+09 +7.48975453237E-01 +1.51061766763E-01 +4.66854263512E-04 -1.05030886689E-03 +3.00031906222E-04 -9.86817174813E-04 +7.76029361580E-01 +2.91458262346E-01
2.73500000000E+09 +7.47280613824E-01 +1.33817681746E-01 +4.51099813661E-04 -1.02532068083E-03 +3.37272529589E-04 -9.12582101785E-04 +7.77331734750E-01 +2.76405766739E-01
2.74000000000E+09 +7.44385397870E-01 +1.17537476477E-01 +5.58440963231E-04 -1.10699018636E-03 +5.34747888516E-04 -9.22035664642E-04 +7.78399729528E-01 +2.61117102717E-01
2.74500000000E+09 +7.40721983676E-01 +1.01172257910E-01 +3.71886507513E-04 -1.24965101383E-03 +4.85950261458E-04 -1.13464575303E-03 +7.79222134567E-01 +2.45965788298E-01
2.75000000000E+09 +7.36759943495E-01 +8.50045024945E-02 +2.17771093229E-04 -1.36182083513E-03 +3.67737000269E-04 -1.37163688081E-03 +7.79808704088E-01 +2.31061824889E-01
2.75500000000E+09 +7.31985489104E-01 +6.90039250460E-02 +1.00104119598E-04 -1.33068670723E-03 +1.82925313624E-04 -1.41177643011E-03 +7.80025774772E-01 +2.15973643874E-01
2.76000000000E+09 +7.27718157868E-01 +5.31468109561E-02 +8.75338702765E-05 -1.34669209770E-03 +1.01645117292E-04 -1.40354204268E-03 +7.79474527170E-01 +2.00176921509E-01
2.76500000000E+09 +7.23162249345E-01 +3.67912320398E-02 -6.96795794086E-05 -1.51177046105E-03 -1.67884405173E-04 -1.58414929797E-03 +7.77854859177E-01 +1.83049855391E-01
2.77000000000E+09 +7.19047480254E-01 +1.99221624084E-02 -3.25677712320E-04 -1.54281934092E-03 -3.84331131654E-04 -1.55090580538E-03 +7.75996508003E-01 +1.66179515264E-01
2.77500000000E+09 +7.15067743950E-01 +1.85567625696E-03 -5.21105909316E-04 -1.53821484997E-03 -5.84486998601E-04 -1.55424495761E-03 +7.74182425839E-01 +1.48136082326E-01
2.78000000000E+09 +7.10591989768E-01 -1.76068083413E-02 -8.10926065421E-04 -1.61603172733E-03 -8.54711869943E-04 -1.59088116555E-03 +7.71760187851E-01 +1.30168558118E-01
2.78500000000E+09 +7.04469614367E-01 -3.80970385344E-02 -1.15481469561E-03 -1.43107244566E-03 -1.14844972059E-03 -1.27894644073E-03 +7.69057328054E-01 +1.12859875509E-01
2.79000000000E+09 +6.97523093977E-01 -5.90614654828E-02 -1.13304274163E-03 -1.27447444973E-03 -1.04921541845E-03 -1.14686351355E-03 +7.65625605878E-01 +9.57438804067E-02
2.79500000000E+09 +6.88925990956E-01 -7.98067010496E-02 -1.45581943611E-03 -1.32855118701E-03 -1.34150397744E-03 -1.28949383563E-03 +7.61313642528E-01 +7.82842336680E-02
2.80000000000E+09 +6.79226808490E-01 -9.98503057255E-02 -1.66352704547E-03 -9.16453891155E-04 -1.57745244636E-03 -9.44728396834E-04 +7.56513165206E-01 +6.02600531488E-02
2.80500000000E+09 +6.68489395642E-01 -1.18959697449E-01 -1.83398926387E-03 -7.54058378786E-04 -1.75897513736E-03 -8.03809062749E-04 +7.50729208628E-01 +4.13873255232E-02
2.81000000000E+09 +6.57126046022E-01 -1.36914239513E-01 -1.90776766146E-03 -3.78695021859E-04 -1.98893638477E-03 -4.59032984153E-04 +7.44182698593E-01 +2.25506861638E-02
2.81500000000E+09 +6.44741464426E-01 -1.54430762094E-01 -1.85974310015E-03 -8.61270233398E-06 -1.89761740738E-03 -4.31257608115E-05 +7.37430817345E-01 +3.32616771191E-03
2.82000000000E+09 +6.31527497640E-01 -1.71199967639E-01 -1.84171533453E-03 +3.89212345499E-05 -1.86250027568E-03 +4.41376690587E-05 +7.29849196327E-01 -1.59196401261E-02
2.82500000000E+09 +6.17608529731E-01 -1.87678597529E-01 -2.05760568344E-03 +4.01131207333E-04 -2.06297506104E-03 +3.40617505458E-04 +7.21499065472E-01 -3.52944832555E-02
2.83000000000E+09 +6.02510100018E-01 -2.05674706732E-01 -1.79535005589E-03 +1.00308364367E-03 -1.74887025701E-03 +9.10776179068E-04 +7.12304369907E-01 -5.47115953296E-02
2.83500000000E+09 +5.84576691635E-01 -2.24205313478E-01 -1.43437977551E-03 +1.22359322607E-03 -1.47564596924E-03 +1.15195564814E-03 +7.02670524100E-01 -7.48382036120E-02
2.84000000000E+09 +5.64751409558E-01 -2.41995894915E-01 -8.82855485680E-04 +1.45921822795E-03 -1.01322449908E-03 +1.42617818302E-03 +6.91357584387E-01 -9.59464379705E-02
2.84500000000E+09 +5.43130473557E-01 -2.59994798957E-01 -4.69525451506E-04 +1.05196442801E-03 -5.87339970440E-04 +1.15075648940E-03 +6.78699718637E-01 -1.16376412094E-01
2.85000000000E+09 +5.20247679901E-01 -2.77589560365E-01 -7.00790573133E-04 +7.76240923697E-04 -7.48075885955E-04 +9.08849117483E-04 +6.65415779170E-01 -1.36876927411E-01
2.85500000000E+09 +4.96503176325E-01 -2.94950950959E-01 -6.79566843275E-04 +1.12680861942E-03 -6.77915736226E-04 +1.23435836056E-03 +6.50653108516E-01 -1.57574807905E-01
2.86000000000E+09 +4.71531133446E-01 -3.12070153391E-01 -2.44109158375E-04 +1.00007450138E-03 -2.09438552137E-04 +1.04881430260E-03 +6.34353312381E-01 -1.77983599587E-01
2.86500000000E+09 +4.45914722374E-01 -3.27533129842E-01 -3.65613596648E-04 +7.51857481398E-04 -3.02289413395E-04 +8.13789042026E-04 +6.16607078068E-01 -1.98006378512E-01
2.87000000000E+09 +4.20410635279E-01 -3.41716767636E-01 -3.42865135926E-04 +9.19943159480E-04 -2.84094189724E-04 +1.00995935945E-03 +5.98146336928E-01 -2.17050819254E-01
2.87500000000E+09 +3.95242625982E-01 -3.54580718242E-01 -3.40660789239E-04 +7.56224956435E-04 -2.33931179589E-04 +7.82975449752E-04 +5.79660991519E-01 -2.36805201199E-01
2.88000000000E+09 +3.69643703002E-01 -3.67232194577E-01 -3.02553953722E-04 +9.06328467806E-04 -1.55539901626E-04 +8.19947674163E-04 +5.58562612188E-01 -2.57077018213E-01
2.88500000000E+09 +3.43220792071E-01 -3.78545981873E-01 -3.54802413075E-05 +8.49757930988E-04 +3.12259637221E-05 +8.11291117269E-04 +5.35081530453E-01 -2.75638182138E-01
2.89000000000E+09 +3.14934612685E-01 -3.88459955212E-01 -2.17071996228E-04 +3.55752628333E-04 -1.73441729661E-04 +3.13242207788E-04 +5.10699552508E-01 -2.93319861376E-01
2.89500000000E+09 +2.85126943021E-01 -3.96725834575E-01 -5.21974025076E-04 +7.87621652902E-04 -5.31985355950E-04 +6.50561747388E-04 +4.83619409184E-01 -3.11141698780E-01
2.90000000000E+09 +2.52958505343E-01 -4.02751192607E-01 -6.09881100929E-04 +8.95312827484E-04 -6.99423140880E-04 +7.43960063517E-04 +4.55439790367E-01 -3.26943783776E-01
2.90500000000E+09 +2.19409022781E-01 -4.05669150761E-01 -4.95649525291E-04 +1.41592363667E-03 -5.96460422819E-04 +1.38254331006E-03 +4.26580093579E-01 -3.42873825413E-01
2.91000000000E+09 +1.84760422986E-01 -4.06340817234E-01 +1.21869551010E-04 +1.32981881119E-03 +1.22154126748E-04 +1.24431240682E-03 +3.95752936115E-01 -3.57712685284E-01
2.91500000000E+09 +1.49784644338E-01 -4.04559203501E-01 +1.51163094536E-06 +1.04922264126E-03 -7.37970156573E-05 +9.60658882200E-04 +3.63322631196E-01 -3.70072575376E-01
2.92000000000E+09 +1.14331191246E-01 -4.00448515759E-01 -9.77334956326E-05 +1.37316449625E-03 -1.87751789955E-04 +1.25755822714E-03 +3.30362108375E-01 -3.80572270844E-01
2.92500000000E+09 +7.89150815038E-02 -3.95346493885E-01 +5.04842591931E-04 +1.28076629018E-03 +3.07819115079E-04 +1.27603709711E-03 +2.94502462746E-01 -3.89365116087E-01
2.93000000000E+09 +4.29245794023E-02 -3.87459674918E-01 +2.57320852831E-04 +9.57112870644E-04 +1.52088905721E-04 +1.06820744621E-03 +2.57355019486E-01 -3.96143295967E-01
2.93500000000E+09 +7.16637360939E-03 -3.77599758418E-01 +3.66692049437E-04 +1.21373429899E-03 +2.52154118101E-04 +1.37151355938E-03 +2.18258022868E-01 -4.00860297502E-01
2.94000000000E+09 -2.81781572298E-02 -3.64821163996E-01 +2.39303400034E-04 +1.32481191347E-03 +2.33430064049E-04 +1.48371323027E-03 +1.78852969206E-01 -4.02208137000E-01
2.94500000000E+09 -6.20443650903E-02 -3.49569597479E-01 +9.38622744094E-04 +1.82358894914E-03 +9.10720675184E-04 +1.93282101295E-03 +1.40904646614E-01 -4.03185488945E-01
2.95000000000E+09 -9.50157007486E-02 -3.32242358807E-01 +1.45898494435E-03 +9.87362372533E-04 +1.50142103754E-03 +1.07129117391E-03 +1.00191690561E-01 -4.02214161655E-01
2.95500000000E+09 -1.27112745331E-01 -3.11728016877E-01 +1.00694581860E-03 +9.10315816848E-04 +1.10871630372E-03 +9.70508634880E-04 +5.84005740804E-02 -3.96092325231E-01
2.96000000000E+09 -1.57668443560E-01 -2.88757605633E-01 +1.37046389391E-03 +7.20134511939E-04 +1.48445712085E-03 +8.10169070004E-04 +1.78569863014E-02 -3.86138539385E-01
2.96500000000E+09 -1.87582648573E-01 -2.62929705092E-01 +1.09019162402E-03 +4.01730850671E-04 +1.24640354466E-03 +3.88360389400E-04 -2.26046889384E-02 -3.73351409516E-01
2.97000000000E+09 -2.14755851867E-01 -2.32651550564E-01 +8.03550753944E-04 +7.29440685822E-04 +9.16066677005E-04 +6.10701375572E-04 -6.16314867262E-02 -3.58607051771E-01
2.97500000000E+09 -2.38297133431E-01 -2.01604283595E-01 +1.16736367463E-03 +9.66043969093E-04 +1.19824228903E-03 +8.83891869839E-04 -1.01502956603E-01 -3.42690015891E-01
2.98000000000E+09 -2.60656570215E-01 -1.70081243096E-01 +1.43120371023E-03 +9.75762155643E-04 +1.37134780338E-03 +8.97346322000E-04 -1.40925466076E-01 -3.23197520276E-01
2.98500000000E+09 -2.81862106397E-01 -1.37349569493E-01 +2.04659765574E-03 +8.87732437855E-04 +1.98111815025E-03 +8.93225490074E-04 -1.79206438796E-01 -2.98796566073E-01
2.99000000000E+09 -3.01256009736E-01 -1.02982881829E-01 +2.35798067095E-03 +4.48807990065E-06 +2.42565029252E-03 +4.54286508922E-05 -2.13155378519E-01 -2.72407140504E-01
2.99500000000E+09 -3.17930349165E-01 -6.79290398113E-02 +1.78440039021E-03 -2.84345363011E-04 +1.85327674762E-03 -3.97177001489E-04 -2.46922701685E-01 -2.43706789948E-01
3.00000000000E+09 -3.31992564965E-01 -3.25196415482E-02 +1.82979235667E-03 +4.93915106516E-05 +1.74677233955E-03 -1.08962457565E-04 -2.78640374027E-01 -2.11906076476E-01
3.00500000000E+09 -3.43035834351E-01 +1.82925301698E-03 +2.27539308071E-03 -2.94501069318E-04 +2.09986462470E-03 -3.49762295213E-04 -3.07712512274E-01 -1.77846942397E-01
3.01000000000E+09 -3.51671528250E-01 +3.54260439190E-02 +2.34905640326E-03 -8.02230629547E-04 +2.20665520014E-03 -7.15913389115E-04 -3.34702498505E-01 -1.42383507213E-01
3.01500000000E+09 -3.58393166634E-01 +6.89109325211E-02 +2.31826945487E-03 -1.40933410570E-03 +2.32629729566E-03 -1.26785305020E-03 -3.57629495769E-01 -1.05327413647E-01
3.02000000000E+09 -3.61560183416E-01 +1.02487255635E-01 +1.56428636147E-03 -2.05131120689E-03 +1.68901680415E-03 -2.02108414709E-03 -3.78093543874E-01 -6.83936014668E-02
3.02500000000E+09 -3.60952454028E-01 +1.35559197292E-01 +1.34185072981E-03 -1.68340120101E-03 +1.39212000816E-03 -1.66643410541E-03 -3.96662224720E-01 -2.86928025676E-02
3.03000000000E+09 -3.57274386942E-01 +1.67352170006E-01 +1.28229957925E-03 -2.07001172396E-03 +1.26151698527E-03 -2.02518210264E-03 -4.10677015773E-01 +1.33171036829E-02
3.03500000000E+09 -3.50916659540E-01 +1.98039633160E-01 +8.46665492419E-04 -2.49880121546E-03 +8.98333679485E-04 -2.40347509748E-03 -4.20308952470E-01 +5.42942817468E-02
3.04000000000E+09 -3.42843203018E-01 +2.27925599461E-01 -1.58691949872E-04 -2.38203964244E-03 -7.90074125220E-06 -2.42410291532E-03 -4.27645637782E-01 +9.47929394354E-02
3.04500000000E+09 -3.33299623676E-01 +2.57548102446E-01 -1.91792425115E-04 -1.65913659014E-03 -9.20098505506E-05 -1.65118185653E-03 -4.32825279088E-01 +1.34234661669E-01
3.05000000000E+09 -3.21662795854E-01 +2.87256759786E-01 +5.01167981862E-05 -1.58099654703E-03 +6.65415185325E-05 -1.63519908126E-03 -4.36756125188E-01 +1.73966421088E-01
3.05500000000E+09 -3.08011596361E-01 +3.15853890912E-01 +2.42978545223E-04 -1.84149908419E-03 +1.14395394277E-04 -1.88592795742E-03 -4.36223652839E-01 +2.14882978997E-01
3.06000000000E+09 -2.93374329092E-01 +3.42734047884E-01 -1.64026039324E-04 -2.52504453465E-03 -1.77187161835E-04 -2.38114138484E-03 -4.32529817587E-01 +2.52499579298E-01
3.06500000000E+09 -2.78427311341E-01 +3.68287268446E-01 -1.29572979540E-03 -2.19521927040E-03 -1.14279438395E-03 -2.07870816450E-03 -4.27264814031E-01 +2.89150859889E-01
3.07000000000E+09 -2.62895441109E-01 +3.92478269506E-01 -1.55889724629E-03 -1.29609464904E-03 -1.45107025124E-03 -1.38099154078E-03 -4.20897119868E-01 +3.23673655722E-01
