# Hz S RI R 50
! CMT, C1220, 16058040, 17.2.0/1
! Date: 15/08/2018 10:07:51
! Data: Format (Calibration Info)
! Freq                      S11: Re/Im (F2)                       S21: Re/Im (F2)                       S12: Re/Im (F2)                       S22: Re/Im (F2)            
2.50000000000E+09 +5.99557878372E-01 +6.32278381497E-01 -4.13907462264E-04 -1.38282685314E-04 -4.19568881960E-04 -1.43952904953E-04 +5.72890992276E-01 +7.16954401734E-01
2.50500000000E+09 +6.05834894745E-01 +6.24549150434E-01 -3.90491120672E-04 -2.10420842439E-04 -3.96419591628E-04 -1.34436972786E-04 +5.78552055873E-01 +7.11567372590E-01
2.51000000000E+09 +6.12328826983E-01 +6.16483375404E-01 -4.67666292008E-04 -1.79490023870E-04 -4.25833508117E-04 -1.13455639098E-04 +5.84279098569E-01 +7.06367067170E-01
2.51500000000E+09 +6.18515648260E-01 +6.08363102684E-01 -4.83460278391E-04 -1.66071679073E-04 -5.04401090750E-04 -1.95018330823E-04 +5.89609140878E-01 +7.00900144520E-01
2.52000000000E+09 +6.24317495640E-01 +6.00214009474E-01 -5.86116912948E-04 -8.83302601766E-05 -5.72926408807E-04 -1.05647772468E-04 +5.94769005893E-01 +6.95071195609E-01
2.52500000000E+09 +6.29190441700E-01 +5.92593651512E-01 -5.96477199927E-04 +4.08993080123E-05 -6.01446067191E-04 +6.08250643718E-05 +6.00574788666E-01 +6.88648517743E-01
2.53000000000E+09 +6.33594136776E-01 +5.85394752177E-01 -4.92821632615E-04 +1.19607528018E-04 -5.11290140615E-04 +1.02319789041E-04 +6.06721515708E-01 +6.81590533781E-01
2.53500000000E+09 +6.37717848773E-01 +5.79047801211E-01 -4.81759978414E-04 +1.38049086485E-04 -5.01832729041E-04 +1.02760279629E-04 +6.12797010943E-01 +6.74675331672E-01
2.54000000000E+09 +6.41802103396E-01 +5.72865648491E-01 -5.40875116145E-04 +6.07649874542E-05 -5.33265874020E-04 +5.70014017244E-05 +6.18867962023E-01 +6.67886004057E-01
2.54500000000E+09 +6.46064177854E-01 +5.66882692995E-01 -6.18425228137E-04 +2.11122633640E-04 -6.43448898997E-04 +1.33738654586E-04 +6.24660617365E-01 +6.61418581191E-01
2.55000000000E+09 +6.50710262872E-01 +5.60709571623E-01 -5.57899165165E-04 +3.54195303832E-04 -6.34614585684E-04 +3.27276163986E-04 +6.30073948761E-01 +6.55054344052E-01
2.55500000000E+09 +6.55848380357E-01 +5.53799750768E-01 -4.77088711308E-04 +4.53405508157E-04 -5.97439646862E-04 +4.53499814523E-04 +6.35186967885E-01 +6.48366199607E-01
2.56000000000E+09 +6.61661409884E-01 +5.46876522016E-01 -3.66456301246E-04 +3.93412005099E-04 -3.88361389133E-04 +5.14506972421E-04 +6.40382786494E-01 +6.41222795589E-01
2.56500000000E+09 +6.67774251556E-01 +5.38787238274E-01 -3.66722492305E-04 +3.75070331137E-04 -2.89072382337E-04 +3.99371140450E-04 +6.45786417873E-01 +6.33700696857E-01
2.57000000000E+09 +6.74053482018E-01 +5.30280694376E-01 -5.00796656815E-04 +3.45568488908E-04 -4.40230223956E-04 +3.90957823831E-04 +6.51240747652E-01 +6.25531404244E-01
2.57500000000E+09 +6.80058225194E-01 +5.21193165311E-01 -5.60099386962E-04 +6.05031554342E-04 -4.38997518715E-04 +6.17985060702E-04 +6.56640068332E-01 +6.17898352605E-01
2.58000000000E+09 +6.84884181410E-01 +5.12206326148E-01 -3.57373866190E-04 +7.42735783886E-04 -2.26564193979E-04 +6.57563382683E-04 +6.61732546030E-01 +6.10105795824E-01
2.58500000000E+09 +6.89623472824E-01 +5.03423015122E-01 -2.21030996829E-04 +7.50950458709E-04 -2.72826333080E-04 +6.13289502495E-04 +6.66493766062E-01 +6.02521784429E-01
2.59000000000E+09 +6.93675245443E-01 +4.94970463428E-01 -9.57056654487E-05 +7.69604968088E-04 -1.29536809162E-04 +7.17137031489E-04 +6.71303310437E-01 +5.94977169953E-01
2.59500000000E+09 +6.97676461814E-01 +4.86684589768E-01 -6.83640303209E-05 +6.96198452279E-04 -6.58326947549E-05 +7.13498147088E-04 +6.76012842814E-01 +5.86870971335E-01
2.60000000000E+09 +7.01541950211E-01 +4.78188106189E-01 -5.22477205145E-05 +7.18470353590E-04 -7.85649194385E-05 +7.22671110809E-04 +6.81095878357E-01 +5.78500842848E-01
2.60500000000E+09 +7.05645417751E-01 +4.69001777557E-01 -1.46338965785E-05 +7.65664657439E-04 +2.44107620049E-05 +7.69291862293E-04 +6.86196251186E-01 +5.69603491001E-01
2.61000000000E+09 +7.09785851440E-01 +4.58940754515E-01 +1.88018734033E-04 +8.50666314247E-04 +1.56056550844E-04 +8.43029798883E-04 +6.90928530989E-01 +5.60687369380E-01
2.61500000000E+09 +7.14177110081E-01 +4.47914946559E-01 +2.71517918787E-04 +6.94677523961E-04 +2.76990830155E-04 +7.56574905772E-04 +6.95829851106E-01 +5.52178901282E-01
2.62000000000E+09 +7.18290129946E-01 +4.35806413410E-01 +3.03819279126E-04 +6.16861382900E-04 +3.60363940298E-04 +6.66653758405E-04 +7.00382485786E-01 +5.43093857685E-01
2.62500000000E+09 +7.22220288224E-01 +4.22866403317E-01 +2.68700063479E-04 +5.64511094861E-04 +3.29564561166E-04 +5.89433059690E-04 +7.05162450420E-01 +5.34316645888E-01
2.63000000000E+09 +7.25686143792E-01 +4.09589606095E-01 +3.55359797821E-04 +6.17422431899E-04 +4.06248275365E-04 +6.03037437053E-04 +7.10095484138E-01 +5.25257972308E-01
2.63500000000E+09 +7.28677932779E-01 +3.96341174397E-01 +3.46468867914E-04 +6.87506210782E-04 +3.52136953096E-04 +5.20858098567E-04 +7.14590003257E-01 +5.15684632520E-01
2.64000000000E+09 +7.31292640319E-01 +3.83486544595E-01 +5.05413011376E-04 +7.33298237029E-04 +4.47870638023E-04 +6.17614831239E-04 +7.19286130365E-01 +5.06012205977E-01
2.64500000000E+09 +7.33828424376E-01 +3.71256292065E-01 +7.02175415547E-04 +5.80606044307E-04 +5.67495177589E-04 +5.86084963698E-04 +7.23710960786E-01 +4.96306161633E-01
2.65000000000E+09 +7.35992616010E-01 +3.59582241544E-01 +6.92471530915E-04 +4.68952940973E-04 +5.84748684140E-04 +5.08849116637E-04 +7.27793210572E-01 +4.86437962258E-01
2.65500000000E+09 +7.38314466346E-01 +3.47884174627E-01 +5.97740446568E-04 +4.50422412348E-04 +6.07559755213E-04 +5.08896904205E-04 +7.32067106466E-01 +4.76476509019E-01
2.66000000000E+09 +7.40238339229E-01 +3.36140383814E-01 +7.52586558315E-04 +4.53455068536E-04 +8.22628770726E-04 +4.88824419852E-04 +7.36340532579E-01 +4.65029707430E-01
2.66500000000E+09 +7.42202924827E-01 +3.24704001490E-01 +6.45713009089E-04 +4.25044263900E-04 +6.89871651227E-04 +4.43611910852E-04 +7.40564830346E-01 +4.53622744490E-01
2.67000000000E+09 +7.44219474261E-01 +3.12135357256E-01 +9.67299089760E-04 +6.09073392076E-04 +9.80610554487E-04 +4.90385911723E-04 +7.44587050013E-01 +4.42604534255E-01
2.67500000000E+09 +7.45375667313E-01 +2.98857232299E-01 +1.21953195380E-03 +2.73648580180E-04 +1.15336038171E-03 +2.07679819749E-04 +7.48403388120E-01 +4.31329483528E-01
2.68000000000E+09 +7.45933832555E-01 +2.85362282691E-01 +1.11598571572E-03 -3.11983374380E-05 +1.10994423735E-03 +1.35943197395E-05 +7.52055455603E-01 +4.20523004879E-01
2.68500000000E+09 +7.46112235318E-01 +2.71512481826E-01 +1.05073819300E-03 -1.19045818173E-04 +1.05366032456E-03 -1.01326550853E-04 +7.55141154385E-01 +4.09148986745E-01
2.69000000000E+09 +7.45504600235E-01 +2.57713799119E-01 +1.05035047353E-03 -1.33012348923E-04 +1.06067970271E-03 -1.30245338992E-04 +7.58002708035E-01 +3.97199641124E-01
2.69500000000E+09 +7.44825853427E-01 +2.44648609118E-01 +1.12587670151E-03 -1.89334146226E-04 +1.11604175314E-03 -2.27973889793E-04 +7.60532677187E-01 +3.84338492822E-01
2.70000000000E+09 +7.44619617942E-01 +2.31855596730E-01 +1.14974267842E-03 -3.26036419210E-04 +1.12338301163E-03 -3.35177940520E-04 +7.63155842124E-01 +3.71080426664E-01
2.70500000000E+09 +7.44543323832E-01 +2.19201162002E-01 +1.25272562012E-03 -5.79887877652E-04 +1.23128899230E-03 -5.05854695175E-04 +7.66176105343E-01 +3.57770086227E-01
2.71000000000E+09 +7.44924005019E-01 +2.06727313661E-01 +1.15450232765E-03 -8.04389218285E-04 +1.18326187477E-03 -7.26165056836E-04 +7.69035199206E-01 +3.44470404346E-01
2.71500000000E+09 +7.46221791376E-01 +1.93407297403E-01 +1.01520707982E-03 -1.02840038855E-03 +1.10269907450E-03 -1.04889519999E-03 +7.71288031588E-01 +3.31736094361E-01
2.72000000000E+09 +7.46831885450E-01 +1.79247374707E-01 +6.84963227604E-04 -1.08279534456E-03 +6.44916855540E-04 -1.23073647019E-03 +7.73130959755E-01 +3.19038934420E-01
2.72500000000E+09 +7.47409856817E-01 +1.64223694251E-01 +5.30941537363E-04 -1.08187683750E-03 +4.69001457154E-04 -1.12048786506E-03 +7.74114488835E-01 +3.05853837749E-01
2.73000000000E+09 +7.47073124368E-01 +1.48249016736E-01 +4.71140368214E-04 -1.03080415078E-03 +3.41537156230E-04 -9.31032237854E-04 +7.75560543785E-01 +2.92239994058E-01
2.73500000000E+09 +7.45209766102E-01 +1.31321171657E-01 +4.32083430610E-04 -1.02030239009E-03 +4.10803060580E-04 -9.20409716946E-04 +7.76899809465E-01 +2.77092562443E-01
2.74000000000E+09 +7.41907847694E-01 +1.15245357041E-01 +5.60961369548E-04 -1.20124240416E-03 +5.69015050929E-04 -1.03038283670E-03 +7.78015643507E-01 +2.61841703908E-01
2.74500000000E+09 +7.38349417920E-01 +9.89454691312E-02 +2.89956279789E-04 -1.34657957196E-03 +5.28934367641E-04 -1.29474304741E-03 +7.78935865966E-01 +2.46772252383E-01
2.75000000000E+09 +7.34096438528E-01 +8.29397000094E-02 +6.05143383455E-05 -1.43007721484E-03 +2.34875984375E-04 -1.48001508882E-03 +7.79606345278E-01 +2.31973771956E-01
2.75500000000E+09 +7.29247862829E-01 +6.70051705067E-02 -4.87037618645E-05 -1.41282449807E-03 +6.43417817640E-05 -1.50583122400E-03 +7.79609188398E-01 +2.17067088032E-01
2.76000000000E+09 +7.24806058597E-01 +5.14243223784E-02 -9.90484336999E-05 -1.41201641601E-03 -8.49875611261E-05 -1.53703214976E-03 +7.79190600050E-01 +2.01325929008E-01
2.76500000000E+09 +7.20372216127E-01 +3.52620760423E-02 -3.04718853390E-04 -1.60087008927E-03 -3.74190950239E-04 -1.70424763293E-03 +7.77817938199E-01 +1.84207384572E-01
2.77000000000E+09 +7.16107993437E-01 +1.84742429572E-02 -6.65757429422E-04 -1.49908567626E-03 -7.39031685382E-04 -1.55429857946E-03 +7.76053962451E-01 +1.67407243356E-01
2.77500000000E+09 +7.12024037846E-01 +4.12419556679E-04 -9.39169796895E-04 -1.39493243067E-03 -1.03478676250E-03 -1.35623414231E-03 +7.74530905662E-01 +1.49390896805E-01
2.78000000000E+09 +7.07253504815E-01 -1.89959133756E-02 -1.12110222058E-03 -1.28869480938E-03 -1.21866702766E-03 -1.24446776409E-03 +7.72355351823E-01 +1.31595287722E-01
2.78500000000E+09 +7.01096056537E-01 -3.92347151638E-02 -1.31979751190E-03 -1.00041773959E-03 -1.35879068657E-03 -9.43002867964E-04 +7.69788419846E-01 +1.14025051183E-01
2.79000000000E+09 +6.93978546719E-01 -5.99441069633E-02 -1.27408107962E-03 -8.59777504660E-04 -1.21616392090E-03 -7.49800708132E-04 +7.66628599388E-01 +9.66838217030E-02
2.79500000000E+09 +6.85296979456E-01 -8.05169309106E-02 -1.57972386533E-03 -7.85838317170E-04 -1.48655277228E-03 -7.62501852214E-04 +7.62390261544E-01 +7.89292058309E-02
2.80000000000E+09 +6.75417708108E-01 -1.00504267146E-01 -1.50512881394E-03 -4.07091516050E-04 -1.41851307611E-03 -4.02711083924E-04 +7.57496309725E-01 +6.08943400678E-02
2.80500000000E+09 +6.64288815803E-01 -1.19309452309E-01 -1.57124190919E-03 -3.28334210043E-04 -1.60148115096E-03 -4.02295618654E-04 +7.52057577966E-01 +4.19326976577E-02
2.81000000000E+09 +6.52612638744E-01 -1.36796306602E-01 -1.62068745361E-03 +2.10840605185E-06 -1.63232833688E-03 -2.33896486638E-05 +7.45529052864E-01 +2.28566940671E-02
2.81500000000E+09 +6.40300766211E-01 -1.53790951809E-01 -1.44712985013E-03 +2.06824880186E-04 -1.46137973426E-03 +3.01268500140E-04 +7.38716294133E-01 +3.48646302018E-03
2.82000000000E+09 +6.26908269380E-01 -1.70192241126E-01 -1.38752656842E-03 +8.04981149793E-05 -1.39168338553E-03 +1.50574122622E-04 +7.31137635825E-01 -1.59559433249E-02
2.82500000000E+09 +6.13202016421E-01 -1.86300166085E-01 -1.62522632334E-03 +4.98343711304E-04 -1.58222491339E-03 +5.35040533374E-04 +7.22608261215E-01 -3.53967974338E-02
2.83000000000E+09 +5.97985623262E-01 -2.03982111625E-01 -1.26696500385E-03 +9.26015660082E-04 -1.16628599640E-03 +8.61619684714E-04 +7.13598942454E-01 -5.49408893343E-02
2.83500000000E+09 +5.80066598076E-01 -2.21943839502E-01 -1.05530410361E-03 +7.99072306432E-04 -1.03368902117E-03 +7.76110343687E-04 +7.03919906905E-01 -7.52851289234E-02
2.84000000000E+09 +5.60212459966E-01 -2.39020984062E-01 -8.12108281372E-04 +9.74868146990E-04 -8.38296023447E-04 +9.44747102897E-04 +6.92417926666E-01 -9.63778140880E-02
2.84500000000E+09 +5.39130410701E-01 -2.56930258105E-01 -6.14978799792E-04 +7.23411179983E-04 -5.69432446964E-04 +7.00677045647E-04 +6.79851480101E-01 -1.16724114790E-01
2.85000000000E+09 +5.16170137533E-01 -2.74237120483E-01 -8.49711962830E-04 +6.91728070010E-04 -8.46228617365E-04 +7.13417119225E-04 +6.66814900727E-01 -1.37329962809E-01
2.85500000000E+09 +4.92551881655E-01 -2.90908454777E-01 -7.78608711253E-04 +1.06376570634E-03 -7.37527867235E-04 +1.08695877043E-03 +6.52206731848E-01 -1.58371865336E-01
2.86000000000E+09 +4.68200144938E-01 -3.07597828703E-01 -2.91430020902E-04 +1.01403810365E-03 -2.72219401163E-04 +9.82064474654E-04 +6.35913102765E-01 -1.79245289938E-01
2.86500000000E+09 +4.42765771483E-01 -3.22868618195E-01 -5.27844799248E-04 +8.22846176922E-04 -5.54015861479E-04 +7.92355656359E-04 +6.17985879493E-01 -1.99589095062E-01
2.87000000000E+09 +4.17746259021E-01 -3.36518126059E-01 -3.09148655103E-04 +1.23262354827E-03 -3.34874858743E-04 +1.22853632134E-03 +5.99422317319E-01 -2.18648786389E-01
2.87500000000E+09 +3.93056496932E-01 -3.49435832425E-01 -2.61496515517E-04 +9.40386439324E-04 -2.50085443619E-04 +8.83269196610E-04 +5.80840310016E-01 -2.38963319047E-01
2.88000000000E+09 +3.67535368636E-01 -3.61653855769E-01 -1.94876612134E-04 +1.18314881368E-03 -1.43860932474E-04 +1.15067477998E-03 +5.59403401966E-01 -2.59636586762E-01
2.88500000000E+09 +3.41647684731E-01 -3.72480333639E-01 +3.40198410107E-04 +1.31608146408E-03 +3.97727134686E-04 +1.20492066018E-03 +5.35393915727E-01 -2.78491516452E-01
2.89000000000E+09 +3.14000068722E-01 -3.82353569897E-01 +4.74637810704E-04 +4.43224977404E-04 +4.53210430307E-04 +4.34124581114E-04 +5.10419542386E-01 -2.96328164850E-01
2.89500000000E+09 +2.84725514123E-01 -3.90240221680E-01 +1.05350439721E-04 +6.72681044824E-04 +7.40777418699E-05 +6.50447818486E-04 +4.82824563752E-01 -3.14014608799E-01
2.90000000000E+09 +2.53441627865E-01 -3.96171950294E-01 +4.11904830947E-05 +5.71195919640E-04 +1.05833508824E-04 +6.02306230105E-04 +4.54166673100E-01 -3.29510450553E-01
2.90500000000E+09 +2.20348882669E-01 -3.99329581600E-01 +1.06310339949E-04 +7.77975637281E-04 +1.76033492861E-04 +7.62549949464E-04 +4.25172151448E-01 -3.45409814743E-01
2.91000000000E+09 +1.86246911536E-01 -3.99667369106E-01 +4.67102627116E-04 +3.46627770433E-04 +4.79101402237E-04 +3.69518668411E-04 +3.93808036785E-01 -3.60159593403E-01
2.91500000000E+09 +1.52146201791E-01 -3.97914742418E-01 -9.91963088856E-05 +5.27730056532E-05 -8.08388330791E-05 +1.38810555463E-04 +3.60944170278E-01 -3.72241766771E-01
2.92000000000E+09 +1.17541926945E-01 -3.94043359098E-01 -3.31051493218E-04 +5.27913731239E-04 -3.23818867114E-04 +5.44611638839E-04 +3.27630423213E-01 -3.82278912100E-01
2.92500000000E+09 +8.25625529535E-02 -3.89412023974E-01 +9.52388913176E-06 +5.82214800324E-04 +1.53703640216E-05 +6.14272854278E-04 +2.91516743684E-01 -3.90737120688E-01
2.93000000000E+09 +4.70915396243E-02 -3.81656716379E-01 -2.51463526027E-04 +4.80488745307E-04 -2.28235565623E-04 +4.08039806077E-04 +2.54240522311E-01 -3.96836920884E-01
2.93500000000E+09 +1.20347947067E-02 -3.72004000368E-01 -3.25881128624E-04 +8.25858459448E-04 -2.84444613107E-04 +8.26478117513E-04 +2.15456637574E-01 -4.01345218227E-01
2.94000000000E+09 -2.23877189535E-02 -3.59970315986E-01 -5.95742588285E-04 +1.06851174824E-03 -6.72453119881E-04 +1.03425447352E-03 +1.75961990587E-01 -4.02592499387E-01
2.94500000000E+09 -5.60209721086E-02 -3.45226102614E-01 -2.29554083322E-05 +1.89514395599E-03 -7.75431810382E-05 +1.90823340789E-03 +1.37974642487E-01 -4.03312032220E-01
2.95000000000E+09 -8.85250707604E-02 -3.28547216672E-01 +7.49354910683E-04 +1.31221416011E-03 +7.79854893308E-04 +1.33153171471E-03 +9.68071397320E-02 -4.02130971223E-01
2.95500000000E+09 -1.20469527490E-01 -3.08656026755E-01 +4.13128705773E-04 +1.27252956128E-03 +3.72621173590E-04 +1.24632708976E-03 +5.49402670844E-02 -3.95465394504E-01
2.96000000000E+09 -1.50743055068E-01 -2.86253907602E-01 +7.45435149904E-04 +1.40400449448E-03 +7.47622093676E-04 +1.42519008535E-03 +1.42714716451E-02 -3.85098480624E-01
2.96500000000E+09 -1.80050065908E-01 -2.61001174534E-01 +1.00392481970E-03 +1.20445922964E-03 +1.07485285711E-03 +1.21811411617E-03 -2.62242721652E-02 -3.71540571405E-01
2.97000000000E+09 -2.07426109733E-01 -2.31809800600E-01 +9.66215731501E-04 +1.28104586141E-03 +9.99283641852E-04 +1.22313226150E-03 -6.50987656911E-02 -3.56129848428E-01
2.97500000000E+09 -2.31052710242E-01 -2.00944089794E-01 +1.47211594082E-03 +1.40563206923E-03 +1.43628489369E-03 +1.26357860468E-03 -1.04459338284E-01 -3.39725946670E-01
2.98000000000E+09 -2.53089574219E-01 -1.70448354710E-01 +1.68607070502E-03 +1.12502930769E-03 +1.59797054455E-03 +1.15152395402E-03 -1.43572191712E-01 -3.19681908093E-01
2.98500000000E+09 -2.74692152005E-01 -1.38271764181E-01 +2.18485312239E-03 +9.46916898110E-04 +2.16689795066E-03 +1.04517814844E-03 -1.81023414305E-01 -2.94665219487E-01
2.99000000000E+09 -2.93999210911E-01 -1.04610983016E-01 +2.28668373646E-03 +2.63727071514E-04 +2.41470435985E-03 +3.37110803007E-04 -2.14316301322E-01 -2.68360235035E-01
2.99500000000E+09 -3.10867164592E-01 -7.03448707583E-02 +2.05559377205E-03 -2.80823812152E-05 +2.13954992162E-03 -7.03524612956E-05 -2.47613302993E-01 -2.39689089916E-01
3.00000000000E+09 -3.25445480449E-01 -3.55517996079E-02 +2.09275476384E-03 +1.61495555022E-04 +2.08413194546E-03 +7.01248070932E-05 -2.79043372356E-01 -2.07582582879E-01
3.00500000000E+09 -3.36721733380E-01 -1.45768137308E-03 +2.59426380655E-03 -3.44890795929E-04 +2.49845198662E-03 -3.81136654603E-04 -3.07226238428E-01 -1.73265397625E-01
3.01000000000E+09 -3.45483571490E-01 +3.14998021141E-02 +2.46250628017E-03 -9.72569726442E-04 +2.39010186206E-03 -8.70233211338E-04 -3.33210875134E-01 -1.37924254031E-01
3.01500000000E+09 -3.52789759626E-01 +6.41823163817E-02 +2.31449821145E-03 -1.49082947907E-03 +2.30632225217E-03 -1.38904897899E-03 -3.55317041155E-01 -1.01323619977E-01
3.02000000000E+09 -3.56635060368E-01 +9.72826254363E-02 +1.69426813352E-03 -2.09258357967E-03 +1.72685660335E-03 -2.06713669116E-03 -3.75166134842E-01 -6.50151072058E-02
3.02500000000E+09 -3.56697345760E-01 +1.30202505250E-01 +1.41210289935E-03 -1.80546461201E-03 +1.47813154556E-03 -1.84156993505E-03 -3.93102555306E-01 -2.62734257703E-02
3.03000000000E+09 -3.53469252619E-01 +1.61990188168E-01 +1.14827100143E-03 -2.20342543830E-03 +1.15313515213E-03 -2.19456424707E-03 -4.07282253616E-01 +1.49841517528E-02
3.03500000000E+09 -3.47670311552E-01 +1.92292355866E-01 +6.70662615123E-04 -2.38306521786E-03 +7.28859280338E-04 -2.48880686940E-03 -4.16823994480E-01 +5.54845743913E-02
3.04000000000E+09 -3.40119376703E-01 +2.22098365567E-01 -1.38071270594E-04 -2.22392768898E-03 -2.45934417397E-05 -2.27939852040E-03 -4.24414169267E-01 +9.51339100434E-02
3.04500000000E+09 -3.31142094081E-01 +2.51619660893E-01 +5.04254252983E-05 -1.58380968857E-03 +8.85988503741E-05 -1.66732851230E-03 -4.29955965333E-01 +1.34237296190E-01
3.05000000000E+09 -3.20163492387E-01 +2.81304824105E-01 +2.43238742246E-04 -1.70108366597E-03 +1.81230649399E-04 -1.87150925042E-03 -4.33980443763E-01 +1.73849572098E-01
3.05500000000E+09 -3.06814965446E-01 +3.10137327983E-01 +3.51294729189E-05 -2.09700776288E-03 -6.12084047165E-05 -2.17250765405E-03 -4.33564099843E-01 +2.14195512821E-01
3.06000000000E+09 -2.92581483786E-01 +3.36953231100E-01 -5.84038817930E-04 -2.40481954151E-03 -6.48320383887E-04 -2.35147933367E-03 -4.30060312267E-01 +2.51736275603E-01
3.06500000000E+09 -2.78165457952E-01 +3.62587096719E-01 -1.37461916346E-03 -1.77189127302E-03 -1.31860423937E-03 -1.69523131779E-03 -4.25052617800E-01 +2.87863277580E-01
3.07000000000E+09 -2.63261495843E-01 +3.87133239917E-01 -1.17512206694E-03 -9.56712982433E-04 -1.12630123793E-03 -1.01891426145E-03 -4.19234690940E-01 +3.22093078629E-01
