# Hz S RI R 50
! CMT, C1220, 16058040, 17.2.0/1
! Date: 15/08/2018 10:11:55
! Data: Format (Calibration Info)
! Freq                      S11: Re/Im (F2)                       S21: Re/Im (F2)                       S12: Re/Im (F2)                       S22: Re/Im (F2)            
2.50000000000E+09 +5.99949073407E-01 +6.36713651346E-01 -5.55281469108E-04 -3.67424973773E-04 -6.41174507365E-04 -3.98077100618E-04 +5.72754364004E-01 +7.16715769598E-01
2.50500000000E+09 +6.06110148962E-01 +6.29176439151E-01 -5.26730949990E-04 -3.31606403172E-04 -5.56769726066E-04 -2.87874213011E-04 +5.78417772423E-01 +7.11256046626E-01
2.51000000000E+09 +6.12695908303E-01 +6.21187945270E-01 -5.67184974325E-04 -3.12919389702E-04 -6.08182728204E-04 -2.97786872148E-04 +5.84166577893E-01 +7.06157435494E-01
2.51500000000E+09 +6.19098880451E-01 +6.13147310000E-01 -6.36359144291E-04 -2.20432861108E-04 -6.20076024103E-04 -2.30892301710E-04 +5.89583187732E-01 +7.00638302586E-01
2.52000000000E+09 +6.24951052174E-01 +6.04912197916E-01 -6.43508303449E-04 -1.97352971226E-04 -6.24341841904E-04 -2.22165945829E-04 +5.94758043482E-01 +6.94754152450E-01
2.52500000000E+09 +6.30038151662E-01 +5.97243169773E-01 -6.80481170952E-04 -7.31057558879E-05 -7.28663323045E-04 -1.11637243382E-04 +6.00508834820E-01 +6.88199343073E-01
2.53000000000E+09 +6.34716435017E-01 +5.90096690020E-01 -6.22608996991E-04 +2.26264902026E-05 -6.42418464100E-04 -3.06287209710E-05 +6.06542573812E-01 +6.81359111201E-01
2.53500000000E+09 +6.38970278724E-01 +5.83446953191E-01 -6.22435722535E-04 -2.62284952828E-05 -5.93658874311E-04 +2.07450487774E-05 +6.12534451976E-01 +6.74515964606E-01
2.54000000000E+09 +6.43062040404E-01 +5.77124755005E-01 -6.90994835400E-04 +2.56341027421E-05 -6.92178946253E-04 -3.80656428514E-05 +6.18654529986E-01 +6.67736834257E-01
2.54500000000E+09 +6.47605560925E-01 +5.71102623043E-01 -7.30590803813E-04 +1.11454611898E-04 -7.66533432479E-04 +7.16723762917E-05 +6.24368818825E-01 +6.61212682972E-01
2.55000000000E+09 +6.52208700105E-01 +5.64848123806E-01 -6.48773894954E-04 +2.45126982825E-04 -7.33748766844E-04 +1.52436603357E-04 +6.29780347063E-01 +6.54960909740E-01
2.55500000000E+09 +6.57402032246E-01 +5.57975693426E-01 -5.74761865826E-04 +2.63134484963E-04 -7.14338501787E-04 +2.76266665884E-04 +6.34933897089E-01 +6.48332416818E-01
2.56000000000E+09 +6.63286712565E-01 +5.50939490137E-01 -5.13890354399E-04 +2.58547217767E-04 -5.87717854413E-04 +3.66526991559E-04 +6.40283133927E-01 +6.41266353230E-01
2.56500000000E+09 +6.69477822875E-01 +5.42909502667E-01 -5.37428153807E-04 +1.70826324331E-04 -5.21621514970E-04 +2.64672944386E-04 +6.45735957937E-01 +6.33532818046E-01
2.57000000000E+09 +6.75707856628E-01 +5.34535498347E-01 -6.74953601158E-04 +1.30412303338E-04 -6.26301577173E-04 +2.35320942925E-04 +6.51019559997E-01 +6.25587641370E-01
2.57500000000E+09 +6.81668942541E-01 +5.25507772073E-01 -8.34475883918E-04 +3.24129565526E-04 -7.11550610089E-04 +4.48774844449E-04 +6.56342210926E-01 +6.17938151191E-01
2.58000000000E+09 +6.86675808173E-01 +5.16718951989E-01 -7.78500714276E-04 +5.86996958930E-04 -6.21239156958E-04 +5.83738320537E-04 +6.61488711404E-01 +6.10432327601E-01
2.58500000000E+09 +6.91698474686E-01 +5.08070632267E-01 -5.79088880899E-04 +6.92013993224E-04 -5.18200365170E-04 +6.11645893957E-04 +6.66274949337E-01 +6.02900963118E-01
2.59000000000E+09 +6.96061199013E-01 +4.99605549990E-01 -4.37496438153E-04 +7.21113811204E-04 -5.10952359721E-04 +6.93535341475E-04 +6.71017066371E-01 +5.95314000083E-01
2.59500000000E+09 +7.00400328444E-01 +4.91190867986E-01 -4.23700044344E-04 +6.59409229659E-04 -3.96354385290E-04 +6.90250252622E-04 +6.75831170987E-01 +5.87225210348E-01
2.60000000000E+09 +7.04326552086E-01 +4.82526557763E-01 -4.46554337988E-04 +6.42553204575E-04 -4.25276153716E-04 +6.66252747294E-04 +6.80978974751E-01 +5.79012019026E-01
2.60500000000E+09 +7.08493776112E-01 +4.73388122140E-01 -4.93532987996E-04 +7.57577210404E-04 -4.98349786080E-04 +7.88169397530E-04 +6.86213395992E-01 +5.70151079876E-01
2.61000000000E+09 +7.12658907762E-01 +4.63268261334E-01 -3.52976449153E-04 +1.03274773484E-03 -3.21209099195E-04 +1.00421065522E-03 +6.91108366994E-01 +5.61472428208E-01
2.61500000000E+09 +7.17141938719E-01 +4.52170717025E-01 -8.63979628741E-05 +1.04396693708E-03 -1.55678312436E-04 +1.05724567239E-03 +6.96064386171E-01 +5.52754299303E-01
2.62000000000E+09 +7.21168796341E-01 +4.40005508617E-01 +2.02760183902E-05 +1.00501745028E-03 +1.99672179645E-05 +1.02531309475E-03 +7.00552163821E-01 +5.43565146235E-01
2.62500000000E+09 +7.25128274183E-01 +4.26988568020E-01 +1.20115021086E-04 +8.97563963977E-04 +1.53468391429E-04 +8.94532309631E-04 +7.05236026777E-01 +5.34789360993E-01
2.63000000000E+09 +7.28555672069E-01 +4.13694223478E-01 +1.29130302853E-04 +8.50468859886E-04 +2.18085003476E-04 +8.33936382133E-04 +7.10316478158E-01 +5.25742177172E-01
2.63500000000E+09 +7.31573321401E-01 +4.00523707179E-01 +5.95485224268E-05 +9.08655001936E-04 +1.18677083186E-04 +8.02621821158E-04 +7.15053854608E-01 +5.16368107144E-01
2.64000000000E+09 +7.34235592485E-01 +3.87703209239E-01 +1.68158125399E-04 +1.03976400603E-03 +1.68048258013E-04 +8.82531760892E-04 +7.19834971094E-01 +5.06669272342E-01
2.64500000000E+09 +7.37097115382E-01 +3.75531997665E-01 +4.11319407981E-04 +9.41565299956E-04 +2.92249602035E-04 +8.52811305607E-04 +7.24266480371E-01 +4.96860163604E-01
2.65000000000E+09 +7.39481521136E-01 +3.63593427821E-01 +3.45301483047E-04 +8.90173710587E-04 +2.56176473459E-04 +9.05446036322E-04 +7.28334585608E-01 +4.87209735583E-01
2.65500000000E+09 +7.41636808396E-01 +3.51888211960E-01 +3.72682141557E-04 +9.20321180370E-04 +3.29302296770E-04 +1.00421910164E-03 +7.32739865252E-01 +4.77052740889E-01
2.66000000000E+09 +7.43884524510E-01 +3.40345928872E-01 +4.84777140672E-04 +9.27287239912E-04 +5.04898024635E-04 +9.72529762004E-04 +7.37041256782E-01 +4.65589041533E-01
2.66500000000E+09 +7.46046870797E-01 +3.28791613092E-01 +5.30883873476E-04 +1.01649907473E-03 +5.64799576421E-04 +9.87506471790E-04 +7.41145632953E-01 +4.54271893768E-01
2.67000000000E+09 +7.48110489105E-01 +3.16194409681E-01 +8.72295161121E-04 +1.11883192489E-03 +9.10865232060E-04 +1.05804828681E-03 +7.45412830131E-01 +4.43254838662E-01
2.67500000000E+09 +7.49343262096E-01 +3.02714015673E-01 +1.08127452175E-03 +7.35804791676E-04 +1.00461043095E-03 +7.11668561000E-04 +7.49369335657E-01 +4.32103114993E-01
2.68000000000E+09 +7.49882939503E-01 +2.89176062465E-01 +9.51911306104E-04 +5.85096975142E-04 +8.69895601290E-04 +5.46989989438E-04 +7.53264820630E-01 +4.21052380501E-01
2.68500000000E+09 +7.50079625616E-01 +2.75433393601E-01 +8.73332422067E-04 +6.92325567602E-04 +8.43047156656E-04 +6.95762788998E-04 +7.56589186469E-01 +4.09397778405E-01
2.69000000000E+09 +7.49883189368E-01 +2.61436149258E-01 +1.09493105802E-03 +7.90822305430E-04 +1.09944788576E-03 +7.75932164242E-04 +7.59291509552E-01 +3.97202806453E-01
2.69500000000E+09 +7.49402393404E-01 +2.48013821210E-01 +1.35879696594E-03 +6.51736631626E-04 +1.35619177450E-03 +6.23773982716E-04 +7.61768195408E-01 +3.84348667861E-01
2.70000000000E+09 +7.49394263977E-01 +2.34835154652E-01 +1.59785462871E-03 +5.34443286491E-04 +1.54015751757E-03 +4.85307968768E-04 +7.64362821347E-01 +3.71085209696E-01
2.70500000000E+09 +7.49479690542E-01 +2.21827316617E-01 +1.68556904106E-03 +1.15142078479E-04 +1.65121688969E-03 +1.50064557311E-04 +7.67426569720E-01 +3.57836370635E-01
2.71000000000E+09 +7.49856905630E-01 +2.08958301326E-01 +1.66895246234E-03 -8.43418255107E-05 +1.67120960489E-03 -1.98428695795E-05 +7.70324657261E-01 +3.44248676543E-01
2.71500000000E+09 +7.50945799893E-01 +1.95608463579E-01 +1.60496754909E-03 -3.32697673461E-04 +1.64817111000E-03 -3.44422756849E-04 +7.72492189837E-01 +3.31558154788E-01
2.72000000000E+09 +7.51901997365E-01 +1.81415491514E-01 +1.39709620529E-03 -4.94141389150E-04 +1.41972176952E-03 -5.72082269487E-04 +7.74407175949E-01 +3.18825260568E-01
2.72500000000E+09 +7.52652699408E-01 +1.66235958100E-01 +1.24854462895E-03 -5.22494089215E-04 +1.21209178624E-03 -6.48611692370E-04 +7.75393600675E-01 +3.05483388612E-01
2.73000000000E+09 +7.52220709580E-01 +1.49927411628E-01 +1.35092502954E-03 -4.14697733438E-04 +1.18509399321E-03 -4.69364955004E-04 +7.76881167841E-01 +2.91669386372E-01
2.73500000000E+09 +7.50285585038E-01 +1.33092905142E-01 +1.50546696343E-03 -6.28778392584E-04 +1.28481498786E-03 -5.10655198911E-04 +7.78129450388E-01 +2.76450773442E-01
2.74000000000E+09 +7.47300074973E-01 +1.16868980372E-01 +1.65591705432E-03 -8.88007865527E-04 +1.51053446480E-03 -6.78976257373E-04 +7.79133297527E-01 +2.61073505881E-01
2.74500000000E+09 +7.43643524706E-01 +1.00407436341E-01 +1.48686323678E-03 -1.30735180293E-03 +1.62212196616E-03 -1.10162438425E-03 +7.79956294292E-01 +2.46044293828E-01
2.75000000000E+09 +7.39342864832E-01 +8.40147387558E-02 +1.05217042153E-03 -1.55275350721E-03 +1.24371421677E-03 -1.48447748078E-03 +7.80509805743E-01 +2.31255837857E-01
2.75500000000E+09 +7.34338603286E-01 +6.78723206167E-02 +8.50133878925E-04 -1.33622758466E-03 +9.55365233850E-04 -1.38317769874E-03 +7.80780247699E-01 +2.16280550022E-01
2.76000000000E+09 +7.29478894737E-01 +5.19421136730E-02 +9.87570459934E-04 -1.30094884360E-03 +1.10120798637E-03 -1.38215962884E-03 +7.80438686174E-01 +2.00259467586E-01
2.76500000000E+09 +7.24703222552E-01 +3.59675476344E-02 +8.99248840131E-04 -1.68371984445E-03 +9.47234385742E-04 -1.77400296643E-03 +7.78894378895E-01 +1.82999665095E-01
2.77000000000E+09 +7.20626130919E-01 +1.87689428753E-02 +6.46098559812E-04 -1.69441683165E-03 +6.79813687484E-04 -1.83899827890E-03 +7.77189953582E-01 +1.65997487067E-01
2.77500000000E+09 +7.16238990175E-01 +4.69652753190E-04 +5.36702590419E-04 -1.88435347680E-03 +4.84847120375E-04 -1.97808431788E-03 +7.75593675260E-01 +1.47759322650E-01
2.78000000000E+09 +7.11294874310E-01 -1.92976267025E-02 +2.48365363179E-04 -1.92089590169E-03 +8.62265200241E-05 -2.05528078761E-03 +7.72887613089E-01 +1.29777094208E-01
2.78500000000E+09 +7.04808182354E-01 -3.96229551731E-02 +7.03124637889E-05 -1.78835722665E-03 -1.25780033082E-05 -1.79324569527E-03 +7.70189980620E-01 +1.12201615367E-01
2.79000000000E+09 +6.97529011542E-01 -6.05105776553E-02 +1.15384174045E-04 -2.09774025982E-03 +1.56224459132E-05 -2.02350190545E-03 +7.66530969419E-01 +9.47960831108E-02
2.79500000000E+09 +6.88823830211E-01 -8.06985203055E-02 -4.46516360354E-04 -2.30665162376E-03 -4.85262131565E-04 -2.16765006402E-03 +7.62062825235E-01 +7.73971364199E-02
2.80000000000E+09 +6.79021714909E-01 -1.00860300748E-01 -6.43374975936E-04 -1.86748275312E-03 -5.77134891704E-04 -1.85195245237E-03 +7.57138031268E-01 +5.92318698888E-02
2.80500000000E+09 +6.67831206723E-01 -1.19704347493E-01 -7.42916051133E-04 -1.98503369757E-03 -7.13744601775E-04 -2.08548950417E-03 +7.51454447280E-01 +4.00980988431E-02
2.81000000000E+09 +6.56257122912E-01 -1.37470930111E-01 -9.99490780141E-04 -1.80129076006E-03 -1.00888734271E-03 -1.88884442654E-03 +7.44780958135E-01 +2.12484275612E-02
2.81500000000E+09 +6.43768319108E-01 -1.54756223222E-01 -1.15764486733E-03 -1.83393978442E-03 -1.23774005622E-03 -1.85759329854E-03 +7.37664794127E-01 +1.94928015357E-03
2.82000000000E+09 +6.30365075469E-01 -1.71407590539E-01 -1.45070766821E-03 -2.08674230116E-03 -1.54524720718E-03 -1.96520571591E-03 +7.29707430522E-01 -1.70962528065E-02
2.82500000000E+09 +6.16227942536E-01 -1.87808992546E-01 -2.16205017209E-03 -1.82809838606E-03 -2.12465001495E-03 -1.70888396050E-03 +7.21417851109E-01 -3.63534974607E-02
2.83000000000E+09 +6.00459189581E-01 -2.05672472274E-01 -2.44650262963E-03 -9.51398798068E-04 -2.33718874680E-03 -8.50799316202E-04 +7.12031618978E-01 -5.57539109974E-02
2.83500000000E+09 +5.82393255615E-01 -2.23581499112E-01 -2.05062878710E-03 -4.18237009602E-04 -1.92841786024E-03 -4.68653048159E-04 +7.02206328520E-01 -7.57707955017E-02
2.84000000000E+09 +5.62232582896E-01 -2.40940630836E-01 -1.62640905971E-03 -3.40621460266E-04 -1.54538525473E-03 -3.78951957494E-04 +6.90837946024E-01 -9.67422422380E-02
2.84500000000E+09 +5.40863928020E-01 -2.58718533400E-01 -1.45011638662E-03 -6.95751448526E-04 -1.38466417685E-03 -7.42846957365E-04 +6.78326355076E-01 -1.17069282630E-01
2.85000000000E+09 +5.17739029073E-01 -2.76075294558E-01 -1.96890995340E-03 -9.12488442720E-04 -1.95086463036E-03 -8.68626461055E-04 +6.65021442748E-01 -1.37720525720E-01
2.85500000000E+09 +4.93997652838E-01 -2.93133866762E-01 -2.16285444658E-03 -3.16751845671E-04 -2.12846401554E-03 -3.19848250331E-04 +6.50169769466E-01 -1.58292955557E-01
2.86000000000E+09 +4.69003939903E-01 -3.09954457214E-01 -1.88166288985E-03 -2.42220934965E-04 -1.82459971068E-03 -3.11550148817E-04 +6.33554317921E-01 -1.78561278769E-01
2.86500000000E+09 +4.43088035610E-01 -3.25187809732E-01 -2.29288197546E-03 -3.44301812450E-04 -2.25670938415E-03 -4.52247661214E-04 +6.16015658725E-01 -1.98541433755E-01
2.87000000000E+09 +4.17306054882E-01 -3.38375091552E-01 -2.45793034265E-03 +4.58718875904E-04 -2.45138401632E-03 +3.74036759956E-04 +5.97248647597E-01 -2.17567902451E-01
2.87500000000E+09 +3.92838720000E-01 -3.50825060872E-01 -2.03552215343E-03 +4.93466101982E-04 -2.02968625369E-03 +4.98889726056E-04 +5.78506864790E-01 -2.37307043597E-01
2.88000000000E+09 +3.67316062789E-01 -3.63019630221E-01 -2.08414353225E-03 +4.28647900349E-04 -1.99200374232E-03 +5.03075827518E-04 +5.57171249358E-01 -2.57176040046E-01
2.88500000000E+09 +3.41052709494E-01 -3.74053747796E-01 -1.96476828882E-03 +6.80082206868E-04 -1.83795423073E-03 +7.25307317130E-04 +5.33725461784E-01 -2.75383588825E-01
2.89000000000E+09 +3.12968570038E-01 -3.83744273079E-01 -2.00852646658E-03 +1.62977694254E-04 -1.92644266740E-03 +1.21737270176E-04 +5.09565428751E-01 -2.92645749350E-01
2.89500000000E+09 +2.82894022401E-01 -3.91509435875E-01 -2.79570723570E-03 +5.74133175432E-04 -2.73102117328E-03 +4.17036152596E-04 +4.82555464045E-01 -3.10340558845E-01
2.90000000000E+09 +2.51219971847E-01 -3.96983185194E-01 -3.07323027209E-03 +1.34187940679E-03 -3.08174858535E-03 +1.26563262726E-03 +4.54630582097E-01 -3.25684738032E-01
2.90500000000E+09 +2.17903862739E-01 -3.99382103001E-01 -2.86027461412E-03 +2.09965002448E-03 -2.91811684717E-03 +2.07954894045E-03 +4.25966058477E-01 -3.41793295198E-01
2.91000000000E+09 +1.83783245956E-01 -3.99723611845E-01 -1.97028374098E-03 +2.45489547749E-03 -1.92965632823E-03 +2.56640949179E-03 +3.94679380651E-01 -3.56378532909E-01
2.91500000000E+09 +1.49563046045E-01 -3.97789588104E-01 -2.12338212266E-03 +2.20233800774E-03 -1.97910326512E-03 +2.12594186629E-03 +3.62459497584E-01 -3.68365959316E-01
2.92000000000E+09 +1.14492622017E-01 -3.93997085147E-01 -2.28133411068E-03 +3.12873967210E-03 -2.15012068280E-03 +2.96099261595E-03 +3.29713661659E-01 -3.78381335702E-01
2.92500000000E+09 +7.92476224962E-02 -3.88958894561E-01 -1.26652357711E-03 +3.31080548993E-03 -1.31688098834E-03 +3.07528492311E-03 +2.94615791113E-01 -3.86893673429E-01
2.93000000000E+09 +4.34199134654E-02 -3.81201795002E-01 -1.12028609970E-03 +3.01949453739E-03 -1.27718082895E-03 +2.90816591571E-03 +2.58421188062E-01 -3.93624159293E-01
2.93500000000E+09 +7.66638938825E-03 -3.71240396127E-01 -1.02469317570E-03 +3.37216298585E-03 -1.11331969467E-03 +3.36595292479E-03 +2.19781478517E-01 -3.98999482580E-01
2.94000000000E+09 -2.68521739915E-02 -3.58206422825E-01 -1.21276926158E-03 +3.51460992883E-03 -1.28754274134E-03 +3.49263538362E-03 +1.80586074183E-01 -4.00582085335E-01
2.94500000000E+09 -6.04843962611E-02 -3.43474911362E-01 -7.73071766048E-04 +5.03368486183E-03 -8.41628334341E-04 +4.99787928991E-03 +1.42323357098E-01 -4.01995502940E-01
2.95000000000E+09 -9.32858500611E-02 -3.25966758043E-01 +1.15859574309E-03 +5.06658750004E-03 +9.87541466124E-04 +5.09627254613E-03 +1.01455466482E-01 -4.00894900110E-01
2.95500000000E+09 -1.24612483051E-01 -3.05622286035E-01 +1.90277028835E-03 +4.23811043689E-03 +1.77121461462E-03 +4.39307162190E-03 +5.98484330213E-02 -3.94424035975E-01
2.96000000000E+09 -1.54951772194E-01 -2.82955451032E-01 +2.03168534466E-03 +3.46125992330E-03 +2.08561166059E-03 +3.65161121796E-03 +1.99095070261E-02 -3.84697321542E-01
2.96500000000E+09 -1.84440958597E-01 -2.57267591933E-01 +1.96722738926E-03 +3.53524690347E-03 +2.16088504486E-03 +3.63511203711E-03 -2.03640701593E-02 -3.71819562062E-01
2.97000000000E+09 -2.11396991104E-01 -2.27504615500E-01 +2.19311930769E-03 +3.85307694474E-03 +2.35237687759E-03 +3.75761066465E-03 -5.86596245898E-02 -3.57602852751E-01
2.97500000000E+09 -2.35064013703E-01 -1.96656822964E-01 +3.36915096550E-03 +4.25999226293E-03 +3.32443128384E-03 +4.06130842167E-03 -9.86076562305E-02 -3.42362356708E-01
2.98000000000E+09 -2.57004879686E-01 -1.65271534789E-01 +4.66991485559E-03 +3.51800286710E-03 +4.42390575554E-03 +3.59207812535E-03 -1.38356295834E-01 -3.22852489345E-01
2.98500000000E+09 -2.77925043689E-01 -1.33041459419E-01 +5.43960992392E-03 +2.19096952403E-03 +5.46307102966E-03 +2.36423182764E-03 -1.76205010427E-01 -2.98165670542E-01
2.99000000000E+09 -2.97389000202E-01 -9.93863537313E-02 +5.09640650897E-03 +6.89385235511E-04 +5.26691085227E-03 +7.93064687895E-04 -2.09583516821E-01 -2.72163230622E-01
2.99500000000E+09 -3.14119823719E-01 -6.45436417886E-02 +4.40336545247E-03 +7.20116318522E-04 +4.58461317739E-03 +5.79434966041E-04 -2.43131703469E-01 -2.44355647702E-01
3.00000000000E+09 -3.28118841887E-01 -2.97039523124E-02 +5.03980523000E-03 +7.74174457265E-04 +4.97134370007E-03 +5.13626351420E-04 -2.74937082197E-01 -2.13202833370E-01
3.00500000000E+09 -3.39499525237E-01 +3.88505234384E-03 +5.80358406253E-03 -1.65789291793E-04 +5.54360677170E-03 -3.07963411532E-04 -3.04071500789E-01 -1.79705910557E-01
3.01000000000E+09 -3.48474055177E-01 +3.73446871975E-02 +5.68470921889E-03 -1.77087819134E-03 +5.42584265023E-03 -1.61656389207E-03 -3.31328630246E-01 -1.44699586543E-01
3.01500000000E+09 -3.55367898889E-01 +7.06365596626E-02 +4.76604712950E-03 -2.65097106841E-03 +4.79764453276E-03 -2.41928592297E-03 -3.54513521811E-01 -1.08166170515E-01
3.02000000000E+09 -3.58552643240E-01 +1.03749746189E-01 +3.84876769496E-03 -2.88871554343E-03 +3.91058746561E-03 -2.77490682627E-03 -3.75354585009E-01 -7.15117685252E-02
3.02500000000E+09 -3.58768411639E-01 +1.36156211491E-01 +4.09917189399E-03 -2.82177585353E-03 +4.15730600746E-03 -2.73756360355E-03 -3.94396355914E-01 -3.21125132089E-02
3.03000000000E+09 -3.55369115765E-01 +1.68462918882E-01 +3.77157588372E-03 -4.09654416699E-03 +3.77907415374E-03 -4.10088958329E-03 -4.08637385246E-01 +9.48266733129E-03
3.03500000000E+09 -3.49137566306E-01 +1.98224049284E-01 +2.51623573992E-03 -4.97999885251E-03 +2.67321236762E-03 -4.97802279855E-03 -4.18966393214E-01 +5.03034918458E-02
3.04000000000E+09 -3.42387580328E-01 +2.28248324204E-01 +8.12283949686E-04 -4.56873863054E-03 +9.74167669467E-04 -4.64244968753E-03 -4.26902286666E-01 +9.04706538102E-02
3.04500000000E+09 -3.33267362879E-01 +2.58041311808E-01 +7.01398661732E-04 -3.33446263440E-03 +8.49915914140E-04 -3.52153561857E-03 -4.32931214327E-01 +1.30068082647E-01
3.05000000000E+09 -3.22261277587E-01 +2.88094383385E-01 +1.16271906990E-03 -3.27768867236E-03 +1.10306084323E-03 -3.53929982180E-03 -4.37299627012E-01 +1.70278399551E-01
3.05500000000E+09 -3.08914413603E-01 +3.17168954989E-01 +1.58219171565E-03 -3.93799251265E-03 +1.33541089529E-03 -4.12625119713E-03 -4.36712331390E-01 +2.11226159182E-01
3.06000000000E+09 -2.94645147156E-01 +3.44107131068E-01 +7.13569540079E-04 -5.39624405087E-03 +4.73550097362E-04 -5.25809007430E-03 -4.33235856374E-01 +2.48747488358E-01
3.06500000000E+09 -2.79950038318E-01 +3.69706993947E-01 -1.54884102809E-03 -4.99051584195E-03 -1.44211117937E-03 -4.79502389437E-03 -4.28838222118E-01 +2.85301595700E-01
3.07000000000E+09 -2.65201896986E-01 +3.93866904977E-01 -2.02312807601E-03 -3.49733743955E-03 -1.77590161977E-03 -3.56087182197E-03 -4.23209397300E-01 +3.20428671092E-01
