# Hz S RI R 50
! CMT, C1220, 16058040, 17.2.0/1
! Date: 15/08/2018 10:07:13
! Data: Format (Calibration Info)
! Freq                      S11: Re/Im (F2)                       S21: Re/Im (F2)                       S12: Re/Im (F2)                       S22: Re/Im (F2)            
2.50000000000E+09 +5.99393309372E-01 +6.32568609302E-01 -5.49292132962E-04 -1.65022443477E-04 -5.90568308921E-04 -2.01373900933E-04 +5.72965382108E-01 +7.17274217294E-01
2.50500000000E+09 +6.05766742316E-01 +6.24853530443E-01 -5.09936968483E-04 -1.15617835637E-04 -5.23500263529E-04 -1.56656756257E-04 +5.78579089171E-01 +7.11770320731E-01
2.51000000000E+09 +6.12269310216E-01 +6.16800255912E-01 -5.13410608248E-04 -1.01536500442E-04 -5.15056678865E-04 -6.36269015471E-05 +5.84411044267E-01 +7.06577394036E-01
2.51500000000E+09 +6.18600933297E-01 +6.08742339046E-01 -5.37792812458E-04 -8.07900285665E-05 -5.27744942275E-04 -6.18161259359E-05 +5.89619335879E-01 +7.01097952243E-01
2.52000000000E+09 +6.24368765907E-01 +6.00478484173E-01 -5.72674822440E-04 -2.00428667829E-05 -5.36426629619E-04 -2.51190714485E-05 +5.94798726252E-01 +6.95178313286E-01
2.52500000000E+09 +6.29302284811E-01 +5.92996616972E-01 -5.94011326934E-04 +5.21358040766E-05 -6.50074975039E-04 +4.20576394350E-05 +6.00608967382E-01 +6.88599608077E-01
2.53000000000E+09 +6.33819384269E-01 +5.85934408705E-01 -6.12831801379E-04 +1.96723192203E-04 -6.41896422414E-04 +1.99750097661E-04 +6.06598024678E-01 +6.81508059236E-01
2.53500000000E+09 +6.38016873121E-01 +5.79445764849E-01 -5.16535978369E-04 +2.65583046605E-04 -4.91878091222E-04 +2.68027286075E-04 +6.12700690123E-01 +6.74661545143E-01
2.54000000000E+09 +6.42082912132E-01 +5.73366670857E-01 -5.09350832878E-04 +2.32999426488E-04 -4.88505971983E-04 +2.12070919620E-04 +6.18721786200E-01 +6.67778356715E-01
2.54500000000E+09 +6.46351135395E-01 +5.67300285535E-01 -5.44600424210E-04 +3.35123923753E-04 -5.35803854912E-04 +2.80228096136E-04 +6.24596437758E-01 +6.61320637952E-01
2.55000000000E+09 +6.51124674893E-01 +5.61192162243E-01 -4.46884650370E-04 +4.10468199708E-04 -4.74265432253E-04 +4.32254475408E-04 +6.29866491247E-01 +6.55035622702E-01
2.55500000000E+09 +6.56441840260E-01 +5.54256673660E-01 -3.70059364218E-04 +4.72444230266E-04 -4.78883231620E-04 +4.98894218862E-04 +6.35007218176E-01 +6.48355799462E-01
2.56000000000E+09 +6.62221497399E-01 +5.47200686526E-01 -2.75593765391E-04 +4.30016187618E-04 -3.10308458506E-04 +5.35737985789E-04 +6.40140639878E-01 +6.41101292259E-01
2.56500000000E+09 +6.68531162135E-01 +5.39033141642E-01 -2.34573712501E-04 +3.51307952671E-04 -2.16656526563E-04 +4.35193977962E-04 +6.45731145251E-01 +6.33538743012E-01
2.57000000000E+09 +6.74712884765E-01 +5.30593555690E-01 -4.02928143362E-04 +3.36798458641E-04 -2.98697014985E-04 +3.81092380521E-04 +6.51080828639E-01 +6.25520835183E-01
2.57500000000E+09 +6.80761742338E-01 +5.21340525450E-01 -4.34828427469E-04 +4.56584317830E-04 -3.17813983867E-04 +4.70479636216E-04 +6.56561535253E-01 +6.17704639680E-01
2.58000000000E+09 +6.85798731954E-01 +5.12374305990E-01 -3.45737135422E-04 +7.04299706130E-04 -2.32896274245E-04 +5.78493842005E-04 +6.61630706002E-01 +6.10004915771E-01
2.58500000000E+09 +6.90537876039E-01 +5.03610250774E-01 -2.16015541872E-04 +6.12696794862E-04 -1.43482704886E-04 +5.50446235572E-04 +6.66393897437E-01 +6.02388333755E-01
2.59000000000E+09 +6.94705507573E-01 +4.95137261967E-01 -1.20722752519E-04 +6.39243859612E-04 -1.23051816320E-04 +6.04213125340E-04 +6.70955304110E-01 +5.94798538022E-01
2.59500000000E+09 +6.98701336977E-01 +4.86730162474E-01 -6.42600771597E-05 +5.88720437072E-04 -7.14520857916E-05 +6.28910002979E-04 +6.75719884241E-01 +5.86719598259E-01
2.60000000000E+09 +7.02723387427E-01 +4.78163984946E-01 -9.86016896589E-05 +5.76364544737E-04 -7.23204059282E-05 +6.12426385581E-04 +6.80656115002E-01 +5.78300073541E-01
2.60500000000E+09 +7.06817370886E-01 +4.68872293810E-01 -1.53190736477E-04 +7.25243265268E-04 -1.18625193216E-04 +7.00927995611E-04 +6.85771902477E-01 +5.69333710372E-01
2.61000000000E+09 +7.10988837875E-01 +4.58813866008E-01 +1.27087026377E-04 +8.78111927728E-04 +1.27004312121E-04 +8.67718975589E-04 +6.90399379906E-01 +5.60577012748E-01
2.61500000000E+09 +7.15496616792E-01 +4.47860576886E-01 +3.22127419199E-04 +7.41182286096E-04 +3.55621102340E-04 +7.18084732804E-04 +6.95276372717E-01 +5.52124481111E-01
2.62000000000E+09 +7.19694548835E-01 +4.35547389542E-01 +3.58737911532E-04 +5.85787141413E-04 +3.95060570947E-04 +6.10450232181E-04 +6.99687675595E-01 +5.42950865424E-01
2.62500000000E+09 +7.23593838310E-01 +4.22451937813E-01 +3.28267738641E-04 +5.52022099023E-04 +3.96992963787E-04 +5.88079656235E-04 +7.04451048947E-01 +5.34271864479E-01
2.63000000000E+09 +7.27120641939E-01 +4.09280851964E-01 +3.82688585727E-04 +6.47735178161E-04 +3.91631665917E-04 +6.18389058382E-04 +7.09423689971E-01 +5.25257176572E-01
2.63500000000E+09 +7.30173627904E-01 +3.95921932730E-01 +3.95984827474E-04 +6.11032250209E-04 +3.64437938344E-04 +5.26308888535E-04 +7.13931178816E-01 +5.15788566895E-01
2.64000000000E+09 +7.32689301852E-01 +3.82927922869E-01 +5.19492904598E-04 +7.73205710799E-04 +4.66323580953E-04 +5.99062986911E-04 +7.18553395192E-01 +5.06177850457E-01
2.64500000000E+09 +7.35406903022E-01 +3.70791856220E-01 +7.94851177585E-04 +5.47147648607E-04 +5.88035413913E-04 +5.03173980568E-04 +7.22896009200E-01 +4.96470255032E-01
2.65000000000E+09 +7.37599518685E-01 +3.58891418754E-01 +6.67195657729E-04 +3.53792518077E-04 +5.84348590041E-04 +4.49975215252E-04 +7.27024997619E-01 +4.86785565286E-01
2.65500000000E+09 +7.39792031949E-01 +3.47180137199E-01 +6.69255202225E-04 +3.62864367206E-04 +6.44345632129E-04 +4.32295036915E-04 +7.31405762354E-01 +4.76826324557E-01
2.66000000000E+09 +7.41849288878E-01 +3.35436244280E-01 +7.47698456806E-04 +3.25444841769E-04 +8.27136699545E-04 +3.62280709178E-04 +7.35727819180E-01 +4.65301563184E-01
2.66500000000E+09 +7.43943442339E-01 +3.23754536934E-01 +7.04202162127E-04 +2.18636788334E-04 +7.18498912120E-04 +2.20201336571E-04 +7.39777929996E-01 +4.54061747596E-01
2.67000000000E+09 +7.45927786634E-01 +3.11140908947E-01 +8.95362391749E-04 +3.61319813243E-04 +8.56313807497E-04 +3.01755211418E-04 +7.43955955559E-01 +4.43018845764E-01
2.67500000000E+09 +7.47114181648E-01 +2.97666526585E-01 +9.60957433491E-04 +1.61560194510E-05 +9.23114576906E-04 -1.63853779419E-06 +7.47704567226E-01 +4.31800795676E-01
2.68000000000E+09 +7.47681877689E-01 +2.83959976658E-01 +8.30050785722E-04 -6.59232275712E-05 +7.16984696060E-04 -7.17261054376E-05 +7.51258338907E-01 +4.20876568439E-01
2.68500000000E+09 +7.47791448450E-01 +2.70101904404E-01 +7.84269893929E-04 -7.91928068416E-05 +7.77525620769E-04 -6.28975104750E-05 +7.54312941034E-01 +4.09591535666E-01
2.69000000000E+09 +7.47317679314E-01 +2.56232788075E-01 +8.45258584553E-04 -9.33917837260E-05 +8.28306169533E-04 -6.54457813971E-05 +7.57183977306E-01 +3.97789019869E-01
2.69500000000E+09 +7.46689329661E-01 +2.42946370847E-01 +8.91241723436E-04 -1.12444831664E-04 +8.54446204171E-04 -1.20894808876E-04 +7.59810830401E-01 +3.85062566070E-01
2.70000000000E+09 +7.46713412042E-01 +2.29860579566E-01 +9.29388760612E-04 -1.56807664380E-04 +8.96868600844E-04 -1.73279228550E-04 +7.62552029887E-01 +3.71873533614E-01
2.70500000000E+09 +7.46669217372E-01 +2.17068280645E-01 +9.86041352677E-04 -4.06741060520E-04 +1.00989486707E-03 -3.14939823982E-04 +7.65468662540E-01 +3.58659260663E-01
2.71000000000E+09 +7.46909179518E-01 +2.04234733428E-01 +8.79717152595E-04 -5.27319783242E-04 +9.49541496157E-04 -4.96965489701E-04 +7.68300899893E-01 +3.45255516762E-01
2.71500000000E+09 +7.47976745987E-01 +1.90890853546E-01 +9.07928520851E-04 -6.23954122915E-04 +9.70942887708E-04 -6.23117575341E-04 +7.70656420232E-01 +3.32869287560E-01
2.72000000000E+09 +7.48771194160E-01 +1.76501167107E-01 +7.69558300354E-04 -7.93206498032E-04 +7.73507473031E-04 -8.78093769105E-04 +7.72707925170E-01 +3.20244300473E-01
2.72500000000E+09 +7.49340247354E-01 +1.61281237959E-01 +6.31912410142E-04 -8.86086065771E-04 +5.31270981504E-04 -9.22467566032E-04 +7.73929154312E-01 +3.07107966926E-01
2.73000000000E+09 +7.48706794169E-01 +1.44881523587E-01 +5.36394984064E-04 -7.76059099201E-04 +4.30072808868E-04 -7.55065021313E-04 +7.75323217577E-01 +2.93449723869E-01
2.73500000000E+09 +7.46406017089E-01 +1.27737034998E-01 +5.82032729338E-04 -7.82112224871E-04 +5.05403059824E-04 -7.58354989125E-04 +7.76819756164E-01 +2.78307374242E-01
2.74000000000E+09 +7.43074318703E-01 +1.11377272770E-01 +6.47846439902E-04 -9.96879489567E-04 +6.41345668227E-04 -8.31269076040E-04 +7.78104501483E-01 +2.63014547202E-01
2.74500000000E+09 +7.39241651858E-01 +9.50831907258E-02 +4.47002938754E-04 -1.17635180774E-03 +6.11671580911E-04 -1.13738428623E-03 +7.79042128835E-01 +2.47793127868E-01
2.75000000000E+09 +7.34727444668E-01 +7.87926485855E-02 +1.22594289090E-04 -1.29125247574E-03 +2.87145984780E-04 -1.30157974205E-03 +7.79740021017E-01 +2.32926601065E-01
2.75500000000E+09 +7.29698543846E-01 +6.28697898566E-02 +7.30608504015E-05 -1.19501890714E-03 +1.05152884357E-04 -1.24359414805E-03 +7.79934525629E-01 +2.17953495437E-01
2.76000000000E+09 +7.24905919943E-01 +4.72956976052E-02 +3.62632386740E-05 -1.21250351256E-03 +6.09772288780E-05 -1.30183608465E-03 +7.79596740386E-01 +2.02361643430E-01
2.76500000000E+09 +7.20279946692E-01 +3.13197685460E-02 -1.64934472006E-04 -1.41464921889E-03 -1.98545171040E-04 -1.48221590248E-03 +7.78250919710E-01 +1.85348129643E-01
2.77000000000E+09 +7.16041439261E-01 +1.44735465815E-02 -3.77679663946E-04 -1.34586590134E-03 -4.59220140156E-04 -1.41496256095E-03 +7.76705342667E-01 +1.68417101607E-01
2.77500000000E+09 +7.11814288362E-01 -3.62316107494E-03 -6.81333030305E-04 -1.35164609288E-03 -7.69030341731E-04 -1.35191686028E-03 +7.75194610701E-01 +1.50427699056E-01
2.78000000000E+09 +7.06878971879E-01 -2.32334545886E-02 -9.24500561189E-04 -1.12069305492E-03 -9.75474667815E-04 -1.06735978683E-03 +7.73050762480E-01 +1.32474159475E-01
2.78500000000E+09 +7.00308153765E-01 -4.36326650298E-02 -9.61825147188E-04 -7.91471678926E-04 -9.55496374316E-04 -7.10111926042E-04 +7.70754061771E-01 +1.14916173813E-01
2.79000000000E+09 +6.92735526522E-01 -6.43774501050E-02 -7.59477689859E-04 -7.70765693583E-04 -6.97676087798E-04 -6.74639091398E-04 +7.67748222618E-01 +9.74996493455E-02
2.79500000000E+09 +6.83941890252E-01 -8.47290156071E-02 -9.47567943830E-04 -8.46704893055E-04 -9.22337378738E-04 -7.79490884919E-04 +7.63663170908E-01 +7.97595623724E-02
2.80000000000E+09 +6.74014921150E-01 -1.04753640210E-01 -9.77582243366E-04 -5.60217503668E-04 -8.93257974249E-04 -5.99050175470E-04 +7.59107019278E-01 +6.14817185423E-02
2.80500000000E+09 +6.62739184765E-01 -1.23840189771E-01 -1.04233749348E-03 -7.22378073543E-04 -1.10639565215E-03 -7.41012892347E-04 +7.53703413235E-01 +4.21382515874E-02
2.81000000000E+09 +6.50628893784E-01 -1.41647686742E-01 -1.29710135379E-03 -4.31813262932E-04 -1.32641813612E-03 -4.43788059471E-04 +7.47127241330E-01 +2.27071253504E-02
2.81500000000E+09 +6.37770509187E-01 -1.58439868489E-01 -1.22180933854E-03 -1.61707435248E-04 -1.26114443359E-03 -1.95132336767E-04 +7.40345958103E-01 +3.13821129884E-03
2.82000000000E+09 +6.24265069087E-01 -1.74802248122E-01 -1.10057877619E-03 -3.31345727237E-04 -1.16726244315E-03 -2.93030648071E-04 +7.32859523725E-01 -1.67222114698E-02
2.82500000000E+09 +6.10217789041E-01 -1.90881135037E-01 -1.54137309421E-03 -1.63912661344E-04 -1.50846256427E-03 -8.27418889288E-05 +7.24229154168E-01 -3.66015755213E-02
2.83000000000E+09 +5.94756279247E-01 -2.08505705837E-01 -1.35869598721E-03 +4.71443422841E-04 -1.27010811319E-03 +4.42932052749E-04 +7.14809688922E-01 -5.62685063528E-02
2.83500000000E+09 +5.76599429473E-01 -2.26668381440E-01 -9.67997515697E-04 +3.39022919049E-04 -1.00770302941E-03 +3.37239252633E-04 +7.04970704581E-01 -7.66478121290E-02
2.84000000000E+09 +5.55966218992E-01 -2.43986373647E-01 -1.00107115711E-03 +4.29052584821E-04 -1.01188888056E-03 +3.89494803917E-04 +6.93277907021E-01 -9.80600357973E-02
2.84500000000E+09 +5.34356963964E-01 -2.61330274121E-01 -9.06765297029E-04 +3.56188595997E-04 -9.43169409072E-04 +3.49125683235E-04 +6.80524589033E-01 -1.18536856953E-01
2.85000000000E+09 +5.11011043812E-01 -2.78341149090E-01 -1.16929120077E-03 +4.06126865105E-04 -1.15199535983E-03 +4.71605201965E-04 +6.67146595920E-01 -1.39235063892E-01
2.85500000000E+09 +4.87120027624E-01 -2.94864934782E-01 -1.09590501364E-03 +9.32047018777E-04 -1.05974910319E-03 +9.00767411048E-04 +6.52289022373E-01 -1.60488331613E-01
2.86000000000E+09 +4.62309927786E-01 -3.11159243542E-01 -3.80847323829E-04 +8.92525134817E-04 -3.82795649586E-04 +8.77984065805E-04 +6.35605469379E-01 -1.81272242701E-01
2.86500000000E+09 +4.36325188913E-01 -3.26260114071E-01 -6.23919354285E-04 +3.65990317947E-04 -6.57880597628E-04 +3.78573167595E-04 +6.17524272487E-01 -2.01488697791E-01
2.87000000000E+09 +4.10558393328E-01 -3.39134165577E-01 -6.90596557366E-04 +9.64622767294E-04 -6.31228452402E-04 +9.20650711736E-04 +5.98850188693E-01 -2.20678180065E-01
2.87500000000E+09 +3.86156106135E-01 -3.51448234888E-01 -4.58095088674E-04 +6.90452261553E-04 -4.80405453363E-04 +7.43192028040E-04 +5.79772415182E-01 -2.41063409206E-01
2.88000000000E+09 +3.60249241143E-01 -3.63495685824E-01 -5.71593650935E-04 +7.81355077540E-04 -5.76364003896E-04 +7.96042712458E-04 +5.58115546287E-01 -2.61577704534E-01
2.88500000000E+09 +3.33976708820E-01 -3.73695019988E-01 -1.37872011729E-04 +1.08924740570E-03 -1.12890945470E-04 +1.04047580828E-03 +5.33732779318E-01 -2.80277645599E-01
2.89000000000E+09 +3.06149503815E-01 -3.83017263154E-01 +1.37042212372E-04 +2.86049675335E-04 +1.56062361396E-04 +2.86267773343E-04 +5.08557516803E-01 -2.98020016006E-01
2.89500000000E+09 +2.76138271990E-01 -3.90169516408E-01 -6.59199431596E-04 +2.71910978900E-04 -6.12395294301E-04 +1.81465608817E-04 +4.80602047753E-01 -3.15532940620E-01
2.90000000000E+09 +2.45001927698E-01 -3.94794182378E-01 -7.82424380736E-04 +7.48338688301E-04 -7.47494074622E-04 +7.08738760824E-04 +4.51777899346E-01 -3.30816903025E-01
2.90500000000E+09 +2.12496971128E-01 -3.97133792014E-01 -4.83328102741E-04 +1.03036402813E-03 -4.93307268877E-04 +1.01487467846E-03 +4.22414841791E-01 -3.46567602798E-01
2.91000000000E+09 +1.78576653977E-01 -3.97436311050E-01 +1.16127904709E-05 +6.61061818753E-04 -3.75388610256E-05 +6.76890168177E-04 +3.90510284558E-01 -3.60977228447E-01
2.91500000000E+09 +1.44169083355E-01 -3.95132311631E-01 -6.83210288447E-04 +1.30031067007E-04 -6.78022067021E-04 +1.43539175501E-04 +3.57503775410E-01 -3.72271047513E-01
2.92000000000E+09 +1.09296606396E-01 -3.90205080631E-01 -1.20655113027E-03 +1.11526228449E-03 -1.10159295237E-03 +1.05573639284E-03 +3.24413118683E-01 -3.81719094484E-01
2.92500000000E+09 +7.50264890205E-02 -3.84175187864E-01 -6.20414083670E-04 +1.55044585801E-03 -6.43570567590E-04 +1.46688885809E-03 +2.88279185066E-01 -3.89703751843E-01
2.93000000000E+09 +4.03198356474E-02 -3.76184749329E-01 -2.40732196685E-04 +1.52151906568E-03 -3.38592335102E-04 +1.50396414362E-03 +2.51210595832E-01 -3.95479384869E-01
2.93500000000E+09 +5.36737887618E-03 -3.66288190787E-01 +1.14602079148E-04 +1.52171432123E-03 +9.31802203283E-05 +1.54317743965E-03 +2.12391614229E-01 -3.99573853920E-01
2.94000000000E+09 -2.89143486049E-02 -3.53320712918E-01 -2.29121387129E-04 +1.02187113539E-03 -2.48058348822E-04 +1.00814664218E-03 +1.72942125327E-01 -4.00198414640E-01
2.94500000000E+09 -6.19815374233E-02 -3.37809572146E-01 -5.39739782635E-04 +2.15283138036E-03 -5.47895999444E-04 +2.12171669127E-03 +1.35384664263E-01 -4.00115021863E-01
2.95000000000E+09 -9.35711013690E-02 -3.20023955787E-01 +8.37691494518E-04 +2.36615925979E-03 +7.39900973232E-04 +2.38045586521E-03 +9.52260518536E-02 -3.98848100721E-01
2.95500000000E+09 -1.24110793874E-01 -3.00209766945E-01 +1.16614692085E-03 +1.72770945345E-03 +1.12562450534E-03 +1.85046035278E-03 +5.39075569603E-02 -3.92181389169E-01
2.96000000000E+09 -1.54277228387E-01 -2.77538429689E-01 +9.68477656307E-04 +1.46506107091E-03 +1.05059951699E-03 +1.50485434147E-03 +1.35161919368E-02 -3.82021643216E-01
2.96500000000E+09 -1.82832480401E-01 -2.51593665333E-01 +1.23981595583E-03 +1.45371197208E-03 +1.39042111975E-03 +1.49928426069E-03 -2.67478150289E-02 -3.68364003775E-01
2.97000000000E+09 -2.08956964367E-01 -2.21954776599E-01 +1.19326784253E-03 +1.32614161742E-03 +1.23789433305E-03 +1.28323679326E-03 -6.53540912427E-02 -3.53069329628E-01
2.97500000000E+09 -2.31483406478E-01 -1.91072269507E-01 +1.55596796560E-03 +1.76239208216E-03 +1.46552519016E-03 +1.67391775139E-03 -1.04734905433E-01 -3.36234918399E-01
2.98000000000E+09 -2.52120981899E-01 -1.60443574987E-01 +2.09014163047E-03 +1.41767152405E-03 +2.04068947516E-03 +1.46688109585E-03 -1.42993841333E-01 -3.15673409503E-01
2.98500000000E+09 -2.72978596241E-01 -1.29006748247E-01 +2.52880920888E-03 +8.99433610076E-04 +2.57955652717E-03 +9.84600055721E-04 -1.79369875799E-01 -2.91073135806E-01
2.99000000000E+09 -2.91599877698E-01 -9.52399526337E-02 +2.29186789591E-03 +2.15967854050E-04 +2.37816692534E-03 +2.54118944014E-04 -2.12059740341E-01 -2.65334513600E-01
2.99500000000E+09 -3.07260035218E-01 -6.11328151628E-02 +2.11219471874E-03 +3.80308745264E-04 +2.19304298931E-03 +3.52784282379E-04 -2.45021512266E-01 -2.37208266588E-01
3.00000000000E+09 -3.20951100344E-01 -2.69685373438E-02 +2.47359076453E-03 +5.41560470922E-04 +2.49934408482E-03 +3.94915650759E-04 -2.76139067533E-01 -2.05608104014E-01
3.00500000000E+09 -3.31544270162E-01 +6.48915560847E-03 +3.21851506343E-03 +6.13080975955E-05 +3.07126480047E-03 -1.85115124784E-05 -3.04283431622E-01 -1.71919610915E-01
3.01000000000E+09 -3.39616474425E-01 +3.89358126817E-02 +3.18953245458E-03 -1.21515315615E-03 +3.04377597221E-03 -1.10194216668E-03 -3.30480203218E-01 -1.36996234146E-01
3.01500000000E+09 -3.46171524769E-01 +7.11386960025E-02 +2.67762757740E-03 -1.79815954408E-03 +2.66220853900E-03 -1.65340645732E-03 -3.52471814540E-01 -1.00317364827E-01
3.02000000000E+09 -3.49214466224E-01 +1.03405138742E-01 +1.79990060912E-03 -2.18328754702E-03 +1.83085466739E-03 -2.17754236870E-03 -3.71834667349E-01 -6.46563391363E-02
3.02500000000E+09 -3.48960122320E-01 +1.35233449088E-01 +1.75857879404E-03 -1.56632107908E-03 +1.81902003285E-03 -1.59439221209E-03 -3.89760837650E-01 -2.70254857822E-02
3.03000000000E+09 -3.45603214039E-01 +1.66221289598E-01 +1.85947330596E-03 -2.28074021949E-03 +1.89103828275E-03 -2.19076307118E-03 -4.04703313673E-01 +1.36175424286E-02
3.03500000000E+09 -3.39606849851E-01 +1.95640510543E-01 +1.39693527453E-03 -2.99037473883E-03 +1.47217900803E-03 -3.00169028308E-03 -4.14717178309E-01 +5.38152528255E-02
3.04000000000E+09 -3.32084581918E-01 +2.24987745180E-01 +1.18784611222E-04 -2.91868785173E-03 +1.74270486893E-04 -3.01419059901E-03 -4.23113950349E-01 +9.35856924480E-02
3.04500000000E+09 -3.22881404342E-01 +2.53711234918E-01 -4.84884055840E-05 -1.97104201121E-03 -3.85419916617E-05 -2.14521794371E-03 -4.28843780516E-01 +1.33392911842E-01
3.05000000000E+09 -3.11762878712E-01 +2.82610627632E-01 +3.16188810248E-04 -1.92611161602E-03 +2.94233610506E-04 -1.98566750981E-03 -4.32426773896E-01 +1.72964156800E-01
3.05500000000E+09 -2.98716224197E-01 +3.10881035745E-01 +5.04598015081E-04 -2.42775124649E-03 +3.10471672013E-04 -2.45092550140E-03 -4.31955265087E-01 +2.12745618256E-01
3.06000000000E+09 -2.84369247501E-01 +3.37076346004E-01 -3.18599014100E-04 -3.05217009070E-03 -4.01722494509E-04 -2.95319852114E-03 -4.28670342553E-01 +2.49890975372E-01
3.06500000000E+09 -2.70166728241E-01 +3.61970746939E-01 -1.49697476711E-03 -2.42660620829E-03 -1.36809616127E-03 -2.33198703982E-03 -4.24183323794E-01 +2.85640114645E-01
3.07000000000E+09 -2.55641238090E-01 +3.86001542612E-01 -1.49411293228E-03 -1.42244410886E-03 -1.38351904642E-03 -1.41932406205E-03 -4.18999949493E-01 +3.19951146403E-01
