# Hz S RI R 50
! CMT, C1220, 16058040, 17.2.0/1
! Date: 15/08/2018 10:11:28
! Data: Format (Calibration Info)
! Freq                      S11: Re/Im (F2)                       S21: Re/Im (F2)                       S12: Re/Im (F2)                       S22: Re/Im (F2)            
2.50000000000E+09 +5.99777760792E-01 +6.35536019675E-01 -5.42249385455E-04 -3.31863752928E-04 -5.88167218396E-04 -3.34690872033E-04 +5.72962278567E-01 +7.17060390391E-01
2.50500000000E+09 +6.05911097995E-01 +6.28141150953E-01 -5.58280278206E-04 -2.83441454737E-04 -5.98255384061E-04 -2.36034455019E-04 +5.78833451154E-01 +7.11756951128E-01
2.51000000000E+09 +6.12492173221E-01 +6.20158455657E-01 -6.26346917625E-04 -2.48767540587E-04 -6.14019324038E-04 -2.47476716307E-04 +5.84528586132E-01 +7.06421361345E-01
2.51500000000E+09 +6.18706214377E-01 +6.12168765644E-01 -6.43911409510E-04 -2.13717588827E-04 -6.09383599694E-04 -1.82782944833E-04 +5.89870048865E-01 +7.00967102821E-01
2.52000000000E+09 +6.24364625029E-01 +6.03957702220E-01 -7.36991855032E-04 -1.10887770818E-04 -7.23683589447E-04 -1.77365432507E-04 +5.95219793814E-01 +6.95036637153E-01
2.52500000000E+09 +6.29286485569E-01 +5.96396861495E-01 -7.42562542656E-04 +7.04502337847E-06 -7.72031776996E-04 -2.50907968946E-05 +6.00974740526E-01 +6.88526285561E-01
2.53000000000E+09 +6.33812309462E-01 +5.89326884039E-01 -7.04569902258E-04 +8.71723882729E-05 -6.93575213252E-04 +1.16470575966E-04 +6.07121048157E-01 +6.81576248938E-01
2.53500000000E+09 +6.37882780651E-01 +5.82754925944E-01 -6.08885889227E-04 +1.17947712369E-04 -6.66408787681E-04 +9.55612451633E-05 +6.13135913819E-01 +6.74698875427E-01
2.54000000000E+09 +6.41945237096E-01 +5.76445608413E-01 -7.08233204981E-04 +1.02107053974E-04 -7.11284390582E-04 +8.14136599205E-05 +6.19183570528E-01 +6.67808097897E-01
2.54500000000E+09 +6.46270011172E-01 +5.70351551386E-01 -7.89072052948E-04 +3.03723596234E-04 -8.16460810995E-04 +2.44053362389E-04 +6.24815004823E-01 +6.61196414449E-01
2.55000000000E+09 +6.50933321743E-01 +5.64164885302E-01 -6.37365572480E-04 +4.87990593268E-04 -7.36310327882E-04 +4.65678822825E-04 +6.30260242694E-01 +6.54811265398E-01
2.55500000000E+09 +6.55999031128E-01 +5.57261218889E-01 -5.24804333884E-04 +5.12981297562E-04 -6.32846182306E-04 +5.75731263339E-04 +6.35289621440E-01 +6.48258249068E-01
2.56000000000E+09 +6.61758606179E-01 +5.50254708015E-01 -3.98313231415E-04 +4.75205776053E-04 -4.32600442769E-04 +6.10971651600E-04 +6.40489435878E-01 +6.41195896496E-01
2.56500000000E+09 +6.67949028531E-01 +5.42199290462E-01 -3.93340971953E-04 +3.85992100903E-04 -3.86471623838E-04 +5.19220864196E-04 +6.46031594216E-01 +6.33606924426E-01
2.57000000000E+09 +6.74072900728E-01 +5.33635527765E-01 -5.36096263395E-04 +2.99753217972E-04 -4.24458908140E-04 +4.39374057189E-04 +6.51445125777E-01 +6.25519479174E-01
2.57500000000E+09 +6.79953571507E-01 +5.24707249994E-01 -6.79254272740E-04 +5.48121526126E-04 -5.02077652886E-04 +5.71287582564E-04 +6.56890686838E-01 +6.17872365525E-01
2.58000000000E+09 +6.84923782587E-01 +5.15919023980E-01 -4.86054714728E-04 +7.85651616179E-04 -3.86477507532E-04 +6.91172503709E-04 +6.61877177579E-01 +6.10169148075E-01
2.58500000000E+09 +6.89830452153E-01 +5.07148039810E-01 -3.33655976701E-04 +8.12077131682E-04 -2.88172445939E-04 +6.94586555831E-04 +6.66798086961E-01 +6.02553949249E-01
2.59000000000E+09 +6.94221600366E-01 +4.98693700515E-01 -1.46678132122E-04 +7.72251690005E-04 -2.54722501467E-04 +6.88866362239E-04 +6.71564502050E-01 +5.94941698017E-01
2.59500000000E+09 +6.98473623757E-01 +4.90514701259E-01 -1.59095465603E-04 +7.09249875789E-04 -1.95346557067E-04 +7.13443044515E-04 +6.76290446819E-01 +5.86899005193E-01
2.60000000000E+09 +7.02346641005E-01 +4.81881124258E-01 -1.96775051925E-04 +7.23789481486E-04 -1.92027235238E-04 +7.45177024118E-04 +6.81322539190E-01 +5.78431191282E-01
2.60500000000E+09 +7.06450700029E-01 +4.72796908639E-01 -2.26038197270E-04 +8.25568944508E-04 -1.51562023060E-04 +8.22050978009E-04 +6.86508101830E-01 +5.69605287773E-01
2.61000000000E+09 +7.10652217495E-01 +4.62764600547E-01 -1.05669887637E-05 +9.69755771840E-04 -8.76996777045E-06 +9.95234961612E-04 +6.91296014394E-01 +5.60789914875E-01
2.61500000000E+09 +7.14996900250E-01 +4.51847314202E-01 +1.33177359228E-04 +8.91826904112E-04 +1.12329060675E-04 +9.38694475029E-04 +6.96154978890E-01 +5.52214825568E-01
2.62000000000E+09 +7.19059813117E-01 +4.39931322601E-01 +2.56412425826E-04 +9.48979386873E-04 +2.77613748542E-04 +9.60990329000E-04 +7.00732567351E-01 +5.43010937264E-01
2.62500000000E+09 +7.23088379416E-01 +4.27128559326E-01 +2.74084930850E-04 +7.61854184115E-04 +3.45467594008E-04 +7.79811341909E-04 +7.05219585340E-01 +5.34307079594E-01
2.63000000000E+09 +7.26626942969E-01 +4.13949174994E-01 +3.69495458414E-04 +7.98342302854E-04 +3.93732444980E-04 +7.20443638139E-04 +7.10227350129E-01 +5.25140386341E-01
2.63500000000E+09 +7.29481226035E-01 +4.01026894203E-01 +3.51337029974E-04 +8.42206097044E-04 +3.99672504718E-04 +7.11808655451E-04 +7.14936746937E-01 +5.15800035378E-01
2.64000000000E+09 +7.32212973694E-01 +3.88407583617E-01 +5.01038327611E-04 +8.43100648342E-04 +4.48350169797E-04 +7.29241374581E-04 +7.19632425006E-01 +5.06079691195E-01
2.64500000000E+09 +7.34983044543E-01 +3.76406954392E-01 +6.76515580894E-04 +6.62304726706E-04 +5.28926596621E-04 +6.43124068566E-04 +7.24049051143E-01 +4.96482885027E-01
2.65000000000E+09 +7.37224911795E-01 +3.64702354123E-01 +5.73623376127E-04 +5.51153981119E-04 +4.80218363097E-04 +6.08819172889E-04 +7.28075414695E-01 +4.86561717109E-01
2.65500000000E+09 +7.39502768986E-01 +3.53179425009E-01 +5.71901801033E-04 +6.04903891059E-04 +5.20193802886E-04 +6.94967592609E-04 +7.32365842666E-01 +4.76534351897E-01
2.66000000000E+09 +7.41655931845E-01 +3.41723973909E-01 +6.96150471827E-04 +6.39692030550E-04 +7.56912443011E-04 +6.88474358829E-04 +7.36799531019E-01 +4.65078110945E-01
2.66500000000E+09 +7.43886289821E-01 +3.30462688876E-01 +6.75626476434E-04 +6.85658657975E-04 +7.73438719132E-04 +6.70742221699E-04 +7.40817280736E-01 +4.53647796506E-01
2.67000000000E+09 +7.46012421354E-01 +3.17905507346E-01 +1.04655960392E-03 +7.64202871841E-04 +1.02196149478E-03 +7.03592198109E-04 +7.44927759430E-01 +4.42614377620E-01
2.67500000000E+09 +7.46988186573E-01 +3.04618366432E-01 +1.21318621094E-03 +3.02238467685E-04 +1.10383097707E-03 +2.72911318853E-04 +7.48775705633E-01 +4.31650463963E-01
2.68000000000E+09 +7.47541765672E-01 +2.91333523412E-01 +9.37746828338E-04 +1.42653524642E-04 +8.76386811923E-04 +1.27028929790E-04 +7.52640759565E-01 +4.20608455092E-01
2.68500000000E+09 +7.47952682958E-01 +2.77538147666E-01 +9.51169764799E-04 +2.91131975528E-04 +8.76681684256E-04 +3.16199155360E-04 +7.55685227013E-01 +4.08940265922E-01
2.69000000000E+09 +7.47735372590E-01 +2.63570195764E-01 +1.02313573089E-03 +3.22734280482E-04 +1.04721857679E-03 +2.96873137604E-04 +7.58434493550E-01 +3.96992521352E-01
2.69500000000E+09 +7.47363151392E-01 +2.50307425470E-01 +1.18756871522E-03 +2.20350197244E-04 +1.24567246739E-03 +1.71519426218E-04 +7.60959185625E-01 +3.84137131776E-01
2.70000000000E+09 +7.47340508290E-01 +2.37113061574E-01 +1.28347778304E-03 +1.54446702973E-04 +1.22462646390E-03 +1.36141491371E-04 +7.63611379633E-01 +3.70950425520E-01
2.70500000000E+09 +7.47422253549E-01 +2.24181398547E-01 +1.51910964861E-03 -1.79549154669E-04 +1.44843147753E-03 -1.01704851403E-04 +7.66586919305E-01 +3.57698733481E-01
2.71000000000E+09 +7.48097780203E-01 +2.11363608672E-01 +1.41494915722E-03 -4.02242299435E-04 +1.47118893098E-03 -3.87007980370E-04 +7.69400524037E-01 +3.44240459956E-01
2.71500000000E+09 +7.49321890917E-01 +1.97876005807E-01 +1.37257325249E-03 -6.35081825570E-04 +1.45954529403E-03 -6.56005021645E-04 +7.71659766241E-01 +3.31552443869E-01
2.72000000000E+09 +7.50226974908E-01 +1.83760336668E-01 +1.16733079495E-03 -8.25917423779E-04 +1.15777253351E-03 -9.46295629889E-04 +7.73480477352E-01 +3.18758143304E-01
2.72500000000E+09 +7.50866527406E-01 +1.68745654313E-01 +9.70866654377E-04 -7.87756887284E-04 +8.64715912487E-04 -9.24851420357E-04 +7.74464294167E-01 +3.05625725780E-01
2.73000000000E+09 +7.50875436678E-01 +1.52832700618E-01 +9.63508260583E-04 -6.81946882453E-04 +8.57744209253E-04 -7.10791086809E-04 +7.75793132648E-01 +2.91839662067E-01
2.73500000000E+09 +7.49266150216E-01 +1.36047457962E-01 +1.10282301976E-03 -8.22335219143E-04 +9.71285987480E-04 -7.18968320932E-04 +7.77010567619E-01 +2.76785170596E-01
2.74000000000E+09 +7.46358574693E-01 +1.19858678519E-01 +1.21220423739E-03 -1.05042137483E-03 +1.18265072045E-03 -9.00415668482E-04 +7.77974564961E-01 +2.61669894162E-01
2.74500000000E+09 +7.42934051478E-01 +1.03631834005E-01 +1.05030126090E-03 -1.54703197585E-03 +1.21606976354E-03 -1.28470094784E-03 +7.78942166362E-01 +2.46620288206E-01
2.75000000000E+09 +7.38792622446E-01 +8.75465099194E-02 +5.90919676509E-04 -1.67861342738E-03 +8.09953007382E-04 -1.66544709637E-03 +7.79596232424E-01 +2.31847435088E-01
2.75500000000E+09 +7.34271537756E-01 +7.15463328566E-02 +3.24931852265E-04 -1.47550562743E-03 +4.92189499919E-04 -1.56080446061E-03 +7.79650815392E-01 +2.16967128769E-01
2.76000000000E+09 +7.29918401599E-01 +5.58181241356E-02 +5.19174831111E-04 -1.45203129960E-03 +5.84216657314E-04 -1.52072450029E-03 +7.79274925622E-01 +2.01236269904E-01
2.76500000000E+09 +7.25560499832E-01 +3.96476037350E-02 +3.74938900865E-04 -1.76049523716E-03 +3.89576832965E-04 -1.89845708277E-03 +7.77626640509E-01 +1.84159485293E-01
2.77000000000E+09 +7.21525963046E-01 +2.24141718041E-02 +3.28662774293E-05 -1.78182829512E-03 -8.83688721966E-06 -1.91806836282E-03 +7.76117247528E-01 +1.67463926415E-01
2.77500000000E+09 +7.17439902139E-01 +4.22475427893E-03 -1.91793474145E-04 -1.86540245946E-03 -2.05637489118E-04 -1.95698377586E-03 +7.74541940737E-01 +1.49552612332E-01
2.78000000000E+09 +7.12715577123E-01 -1.52813302388E-02 -4.95422152215E-04 -1.84525228714E-03 -5.82742007515E-04 -1.92323397462E-03 +7.72337142760E-01 +1.31836880048E-01
2.78500000000E+09 +7.06587060620E-01 -3.56771152016E-02 -6.69581309371E-04 -1.65729665768E-03 -7.73711804939E-04 -1.62642846034E-03 +7.69937852602E-01 +1.14269864200E-01
2.79000000000E+09 +6.99621724874E-01 -5.66033731835E-02 -7.92700330517E-04 -1.63560801241E-03 -8.73166657323E-04 -1.59488515571E-03 +7.66782797398E-01 +9.68610444101E-02
2.79500000000E+09 +6.90973959799E-01 -7.74503572211E-02 -1.16926338445E-03 -1.54738623635E-03 -1.14753534442E-03 -1.47134065018E-03 +7.62354293569E-01 +7.92129110463E-02
2.80000000000E+09 +6.81015813888E-01 -9.74558847478E-02 -1.17114700507E-03 -1.26571936250E-03 -1.12935804175E-03 -1.25655404488E-03 +7.57557116045E-01 +6.12443687320E-02
2.80500000000E+09 +6.69943600097E-01 -1.16246408868E-01 -1.31332149540E-03 -1.26804484066E-03 -1.30971114719E-03 -1.32463348249E-03 +7.52118231952E-01 +4.23457110882E-02
2.81000000000E+09 +6.58819665483E-01 -1.33804909117E-01 -1.34251676199E-03 -1.06980837899E-03 -1.42000615419E-03 -1.14738043349E-03 +7.45681619137E-01 +2.32768155362E-02
2.81500000000E+09 +6.46527285940E-01 -1.51451185672E-01 -1.54267615845E-03 -9.31492521110E-04 -1.59790761438E-03 -8.53588837540E-04 +7.38874137383E-01 +3.96760878275E-03
2.82000000000E+09 +6.33112806584E-01 -1.68185415367E-01 -1.46618501942E-03 -9.98891547404E-04 -1.62312294796E-03 -8.95440092683E-04 +7.31354071234E-01 -1.53055136759E-02
2.82500000000E+09 +6.19071903825E-01 -1.84952499621E-01 -1.93344603944E-03 -8.98388243836E-04 -1.94091745245E-03 -7.24706908122E-04 +7.23134723993E-01 -3.48061461880E-02
2.83000000000E+09 +6.03307071175E-01 -2.02691126320E-01 -2.11572253829E-03 -2.00641046128E-04 -1.97913528140E-03 -1.76114507989E-04 +7.13811387655E-01 -5.44029472562E-02
2.83500000000E+09 +5.85565681700E-01 -2.20590493155E-01 -1.83941239899E-03 +1.11709391284E-04 -1.76893526671E-03 +1.47004334739E-04 +7.04149318695E-01 -7.47925126323E-02
2.84000000000E+09 +5.66090467905E-01 -2.38138034424E-01 -1.45677704032E-03 +1.94289876740E-04 -1.40899727266E-03 +2.04906610793E-04 +6.92686008508E-01 -9.56710627515E-02
2.84500000000E+09 +5.44991513020E-01 -2.56504716687E-01 -1.31458543252E-03 -8.86803087121E-05 -1.24519311124E-03 -3.74810242761E-05 +6.80393981024E-01 -1.15880930051E-01
2.85000000000E+09 +5.22107388932E-01 -2.74306258061E-01 -1.71992168634E-03 -2.53970860452E-04 -1.64820794522E-03 -2.85079676414E-04 +6.67564524345E-01 -1.36734597836E-01
2.85500000000E+09 +4.98249876288E-01 -2.91550125749E-01 -2.08178785526E-03 +2.88778135675E-04 -1.91248119040E-03 +2.62720695420E-04 +6.52868593114E-01 -1.57447714344E-01
2.86000000000E+09 +4.73729965294E-01 -3.08660321540E-01 -1.66767331938E-03 +4.40156975691E-04 -1.63089793746E-03 +3.75123536205E-04 +6.36836866232E-01 -1.78121186993E-01
2.86500000000E+09 +4.48317986780E-01 -3.24145934624E-01 -1.98421220622E-03 +4.86666285341E-04 -1.94606420790E-03 +4.25643577872E-04 +6.19228079180E-01 -1.98713541969E-01
2.87000000000E+09 +4.23213959647E-01 -3.38063758127E-01 -1.88365721731E-03 +1.22440706160E-03 -1.90292233255E-03 +1.18602399385E-03 +6.00567195409E-01 -2.18028790124E-01
2.87500000000E+09 +3.98707434727E-01 -3.51356379696E-01 -1.42369239848E-03 +1.10581646511E-03 -1.38774423918E-03 +1.12575544626E-03 +5.82065384453E-01 -2.38204317906E-01
2.88000000000E+09 +3.72933678665E-01 -3.64193799649E-01 -1.38080918897E-03 +1.10633215999E-03 -1.31096739803E-03 +1.07179474008E-03 +5.60668419845E-01 -2.58902631237E-01
2.88500000000E+09 +3.46330441437E-01 -3.75224290025E-01 -1.30984494651E-03 +1.32810687087E-03 -1.28790306104E-03 +1.24293819297E-03 +5.37102337082E-01 -2.77542591283E-01
2.89000000000E+09 +3.18772749045E-01 -3.84832670634E-01 -1.23136986341E-03 +1.09568406991E-03 -1.21449087528E-03 +9.90878335194E-04 +5.12421005732E-01 -2.95479109845E-01
2.89500000000E+09 +2.89078263896E-01 -3.93312090309E-01 -1.62693108272E-03 +1.41783873609E-03 -1.64680870558E-03 +1.33823305809E-03 +4.85400690746E-01 -3.13457067928E-01
2.90000000000E+09 +2.57372508966E-01 -3.99339042923E-01 -1.43897621323E-03 +1.86409522556E-03 -1.58215141164E-03 +1.85096514025E-03 +4.56905656009E-01 -3.29607933779E-01
2.90500000000E+09 +2.23846783808E-01 -4.02651084599E-01 -1.22411084374E-03 +2.26014633084E-03 -1.29085612672E-03 +2.29415335370E-03 +4.27510506244E-01 -3.46066984685E-01
2.91000000000E+09 +1.89409442581E-01 -4.03070262858E-01 -4.32522714364E-04 +2.30565046209E-03 -4.24245318257E-04 +2.34270064867E-03 +3.95831908534E-01 -3.60850131316E-01
2.91500000000E+09 +1.54955088902E-01 -4.01582597284E-01 -6.25048530904E-04 +1.90836042074E-03 -5.48736454521E-04 +1.92223578856E-03 +3.62778886347E-01 -3.73250066977E-01
2.92000000000E+09 +1.19711766882E-01 -3.98149870419E-01 -6.92158015906E-04 +2.52388045254E-03 -6.49373722645E-04 +2.40207378619E-03 +3.29264321253E-01 -3.83284545750E-01
2.92500000000E+09 +8.38686548428E-02 -3.93609130671E-01 +1.33639125638E-04 +2.46641564355E-03 +7.46379664828E-05 +2.39543757824E-03 +2.93358503917E-01 -3.91729910848E-01
2.93000000000E+09 +4.77974518337E-02 -3.85923042636E-01 -7.73582451635E-05 +2.10553569858E-03 -1.17752194726E-04 +2.11098787456E-03 +2.56253109052E-01 -3.98276705506E-01
2.93500000000E+09 +1.17034468437E-02 -3.76198272616E-01 +4.34361054916E-05 +2.63109587318E-03 +3.05248598447E-05 +2.68393498617E-03 +2.16906289554E-01 -4.03033429550E-01
2.94000000000E+09 -2.29032952336E-02 -3.63828732706E-01 +2.33040926982E-04 +2.68843460412E-03 +1.67084675507E-04 +2.60847814327E-03 +1.76970048237E-01 -4.04230653675E-01
2.94500000000E+09 -5.72742682994E-02 -3.49822066185E-01 +9.35575162462E-04 +3.52109033679E-03 +8.40211290482E-04 +3.46720173395E-03 +1.38382863152E-01 -4.04390641239E-01
2.95000000000E+09 -9.08397827768E-02 -3.32513866637E-01 +2.05468644021E-03 +2.68792097125E-03 +1.95074375207E-03 +2.76976709352E-03 +9.78071380701E-02 -4.02749979697E-01
2.95500000000E+09 -1.23052055622E-01 -3.12452928841E-01 +2.09400884169E-03 +2.23643623674E-03 +2.07242165989E-03 +2.33382829509E-03 +5.62736148226E-02 -3.96406337173E-01
2.96000000000E+09 -1.53949449011E-01 -2.89936332988E-01 +1.97535604603E-03 +1.83881217356E-03 +2.07686311212E-03 +1.87971513438E-03 +1.57210220486E-02 -3.86384733786E-01
2.96500000000E+09 -1.84046746516E-01 -2.64304913694E-01 +2.11477707419E-03 +1.91014069604E-03 +2.21708750451E-03 +1.88917932514E-03 -2.47880432517E-02 -3.73128889301E-01
2.97000000000E+09 -2.11650239830E-01 -2.35120751715E-01 +2.34822941295E-03 +1.94967685640E-03 +2.32822594711E-03 +1.86566030469E-03 -6.36898724189E-02 -3.58043429394E-01
2.97500000000E+09 -2.36458700099E-01 -2.04176367157E-01 +3.18333976682E-03 +1.81594503861E-03 +3.04414247446E-03 +1.80773572690E-03 -1.03394081435E-01 -3.41733068485E-01
2.98000000000E+09 -2.59257815972E-01 -1.72484484646E-01 +3.52302985882E-03 +1.10906390391E-03 +3.36421537934E-03 +1.24873744606E-03 -1.42560927311E-01 -3.21807650002E-01
2.98500000000E+09 -2.80872747076E-01 -1.39829238843E-01 +3.70845152135E-03 +4.61385432989E-04 +3.70919164522E-03 +6.75466425012E-04 -1.80448194270E-01 -2.97010306920E-01
2.99000000000E+09 -3.00458046131E-01 -1.05616351049E-01 +3.45684372396E-03 -3.44583423242E-04 +3.64672953019E-03 -3.08647924946E-04 -2.13936748078E-01 -2.70612742630E-01
2.99500000000E+09 -3.17522612929E-01 -7.10008329562E-02 +3.07776977372E-03 -4.49181624250E-04 +3.13588881600E-03 -5.66690165829E-04 -2.47501141731E-01 -2.42157574816E-01
3.00000000000E+09 -3.32222537269E-01 -3.60664525048E-02 +3.11511413069E-03 -3.13477369206E-04 +3.12798973226E-03 -4.77526228823E-04 -2.79413300799E-01 -2.10130024624E-01
3.00500000000E+09 -3.44393070857E-01 -1.49396352318E-03 +3.66863810443E-03 -8.58948751034E-04 +3.55116209208E-03 -9.39404307208E-04 -3.08307227551E-01 -1.75585127205E-01
3.01000000000E+09 -3.53326069650E-01 +3.24363778150E-02 +3.67226813163E-03 -1.92235280472E-03 +3.48029878406E-03 -1.82119308245E-03 -3.34730148748E-01 -1.39669270447E-01
3.01500000000E+09 -3.60440520828E-01 +6.61020325373E-02 +3.04100483016E-03 -2.62265563681E-03 +3.07289778615E-03 -2.45824826051E-03 -3.56714615839E-01 -1.02312494368E-01
3.02000000000E+09 -3.63793010360E-01 +9.95766708036E-02 +2.28889415750E-03 -2.89165440145E-03 +2.47433150817E-03 -2.88376765267E-03 -3.76219922003E-01 -6.56295912910E-02
3.02500000000E+09 -3.64248279861E-01 +1.32828555033E-01 +2.08824884515E-03 -2.95450132920E-03 +2.15269286580E-03 -2.97865097104E-03 -3.94141511076E-01 -2.65949288018E-02
3.03000000000E+09 -3.60799247347E-01 +1.65457169654E-01 +1.48200659470E-03 -3.44540729362E-03 +1.47851645288E-03 -3.45014589543E-03 -4.07779068174E-01 +1.46743311124E-02
3.03500000000E+09 -3.54895522593E-01 +1.95823675497E-01 +6.31420310671E-04 -3.55760631274E-03 +7.27551773409E-04 -3.58977094425E-03 -4.17447054383E-01 +5.49583238618E-02
3.04000000000E+09 -3.48006497240E-01 +2.26527879976E-01 -1.41362353034E-04 -3.00989366335E-03 -5.61736516467E-05 -3.08968238282E-03 -4.24839275752E-01 +9.49883460540E-02
3.04500000000E+09 -3.38764206866E-01 +2.57057006174E-01 -3.14496089010E-05 -2.43378882967E-03 +1.43947452164E-05 -2.51450831787E-03 -4.30162656802E-01 +1.34246189377E-01
3.05000000000E+09 -3.27551220289E-01 +2.87474144430E-01 +1.91609228818E-04 -2.41515976932E-03 +7.90332044070E-05 -2.51242349442E-03 -4.34111299657E-01 +1.73736723227E-01
3.05500000000E+09 -3.14251556561E-01 +3.16989065232E-01 +2.55264526490E-04 -2.83621194905E-03 +6.94845540445E-05 -2.88873173437E-03 -4.33185011844E-01 +2.14238460220E-01
3.06000000000E+09 -2.99843197043E-01 +3.44689327721E-01 -4.42701836275E-04 -3.58937445401E-03 -5.47082746247E-04 -3.42691325437E-03 -4.29445511438E-01 +2.50955379028E-01
3.06500000000E+09 -2.84785940814E-01 +3.70640533240E-01 -1.85291693478E-03 -3.00919277511E-03 -1.75641999798E-03 -2.83887071191E-03 -4.24782044032E-01 +2.86760253234E-01
3.07000000000E+09 -2.69849238326E-01 +3.95291921812E-01 -1.99609520233E-03 -1.88637192796E-03 -1.76675986554E-03 -1.93137271097E-03 -4.19300342431E-01 +3.21154300313E-01
