# Hz S RI R 50
! CMT, C1220, 16058040, 17.2.0/1
! Date: 15/08/2018 10:09:11
! Data: Format (Calibration Info)
! Freq                      S11: Re/Im (F2)                       S21: Re/Im (F2)                       S12: Re/Im (F2)                       S22: Re/Im (F2)            
2.50000000000E+09 +5.99838862703E-01 +6.34281844211E-01 -5.47891799153E-04 -5.08130060845E-04 -6.03551353948E-04 -5.44702027030E-04 +5.73040800122E-01 +7.16410679704E-01
2.50500000000E+09 +6.05962654205E-01 +6.26766042251E-01 -5.29221268736E-04 -4.60888265279E-04 -6.29879148413E-04 -4.51067415546E-04 +5.78653818863E-01 +7.10884495020E-01
2.51000000000E+09 +6.12505823247E-01 +6.18817510381E-01 -6.23415475352E-04 -5.03791977815E-04 -6.69612646069E-04 -4.47005422936E-04 +5.84456017615E-01 +7.05838720161E-01
2.51500000000E+09 +6.18765479395E-01 +6.10725385692E-01 -8.10061372662E-04 -4.60840233379E-04 -7.45346236197E-04 -4.17201876086E-04 +5.89748811761E-01 +7.00366787355E-01
2.52000000000E+09 +6.24449956260E-01 +6.02662996212E-01 -8.39377365479E-04 -3.44313756976E-04 -8.31048325915E-04 -4.13832920154E-04 +5.94941397103E-01 +6.94443258695E-01
2.52500000000E+09 +6.29294167516E-01 +5.95032250301E-01 -9.16569446783E-04 -2.62998554470E-04 -9.27924109240E-04 -2.49615214806E-04 +6.00703533444E-01 +6.87875946595E-01
2.53000000000E+09 +6.33781927481E-01 +5.87982585279E-01 -8.87686968370E-04 -8.75243798346E-05 -9.19036144023E-04 -9.63314805132E-05 +6.06722116249E-01 +6.80844479241E-01
2.53500000000E+09 +6.37956147914E-01 +5.81440033981E-01 -9.29286506362E-04 -7.13862428561E-05 -9.18529137174E-04 -6.07717432885E-05 +6.12727779850E-01 +6.74020040095E-01
2.54000000000E+09 +6.42013821006E-01 +5.75240303448E-01 -9.67843007790E-04 +1.09703619472E-05 -9.94085968497E-04 +1.40068366798E-05 +6.18619863537E-01 +6.67210712977E-01
2.54500000000E+09 +6.46277558571E-01 +5.69071652176E-01 -9.94277822185E-04 +2.58991565687E-04 -1.02513869538E-03 +1.67931049281E-04 +6.24396528848E-01 +6.60737171002E-01
2.55000000000E+09 +6.50969943598E-01 +5.63009514414E-01 -8.57606587756E-04 +3.58917249552E-04 -9.51975042772E-04 +3.43812197440E-04 +6.29692158870E-01 +6.54588532842E-01
2.55500000000E+09 +6.56198342828E-01 +5.56094887322E-01 -7.61402491546E-04 +4.17884849028E-04 -8.85390654494E-04 +4.59588652001E-04 +6.34818300987E-01 +6.48094128795E-01
2.56000000000E+09 +6.62095879601E-01 +5.48964418002E-01 -5.85056457591E-04 +4.37380121138E-04 -7.35788001149E-04 +5.37711293047E-04 +6.40065663420E-01 +6.40987867952E-01
2.56500000000E+09 +6.68387549256E-01 +5.40707132028E-01 -6.06019805966E-04 +3.24276880893E-04 -6.54206954871E-04 +4.95600846199E-04 +6.45588910307E-01 +6.33408744676E-01
2.57000000000E+09 +6.74505591915E-01 +5.32114175650E-01 -8.05801112237E-04 +2.77597354473E-04 -7.09600623122E-04 +4.28827691772E-04 +6.50966637749E-01 +6.25216171182E-01
2.57500000000E+09 +6.80487863561E-01 +5.22881819796E-01 -9.24599976492E-04 +5.45466257084E-04 -7.02572815309E-04 +6.39621127104E-04 +6.56285353515E-01 +6.17691112075E-01
2.58000000000E+09 +6.85334566303E-01 +5.14018217720E-01 -7.54118969833E-04 +8.12490809330E-04 -6.43794371847E-04 +6.94857372311E-04 +6.61341876788E-01 +6.10161662696E-01
2.58500000000E+09 +6.90154071299E-01 +5.05158450934E-01 -4.89334398980E-04 +7.96779840279E-04 -4.97438108368E-04 +6.19406753526E-04 +6.66127025411E-01 +6.02698954282E-01
2.59000000000E+09 +6.94474027415E-01 +4.96602169785E-01 -4.42414842063E-04 +8.13501773043E-04 -5.18445469425E-04 +6.91953880956E-04 +6.71116837861E-01 +5.95151201929E-01
2.59500000000E+09 +6.98469279372E-01 +4.88150967403E-01 -4.81787992800E-04 +7.01356730497E-04 -4.74311928726E-04 +6.77209843651E-04 +6.75838680923E-01 +5.87155018725E-01
2.60000000000E+09 +7.02366890486E-01 +4.79757565920E-01 -4.83238294114E-04 +7.29128611835E-04 -4.97736439350E-04 +7.28856870388E-04 +6.80827946582E-01 +5.78811676004E-01
2.60500000000E+09 +7.06423669141E-01 +4.70772657484E-01 -5.98686644918E-04 +8.41442683109E-04 -5.68999341267E-04 +8.24451998613E-04 +6.86128400872E-01 +5.69910906547E-01
2.61000000000E+09 +7.10653515066E-01 +4.60593261733E-01 -5.21342846163E-04 +1.14173533781E-03 -5.06516723642E-04 +1.17139969393E-03 +6.91038735116E-01 +5.61148568594E-01
2.61500000000E+09 +7.15038884272E-01 +4.49683367276E-01 -2.83372109375E-04 +1.20438865088E-03 -2.90841341659E-04 +1.22168184986E-03 +6.95942667221E-01 +5.52497643931E-01
2.62000000000E+09 +7.19071859197E-01 +4.37663177820E-01 -6.88633089589E-05 +1.19964770083E-03 -4.43217814972E-05 +1.28771655213E-03 +7.00400101554E-01 +5.43387635133E-01
2.62500000000E+09 +7.23063335912E-01 +4.24836660296E-01 -2.63365143245E-05 +1.09164217159E-03 +6.91398581902E-05 +1.12655026330E-03 +7.05082425430E-01 +5.34764109456E-01
2.63000000000E+09 +7.26492077208E-01 +4.11652022219E-01 -1.88152921248E-05 +1.11951718914E-03 +1.43555007637E-04 +1.13273193511E-03 +7.10094223631E-01 +5.25910400699E-01
2.63500000000E+09 +7.29505173375E-01 +3.98570524831E-01 +1.23903876610E-05 +1.27427042992E-03 +1.08976974885E-04 +1.11125164158E-03 +7.14935333199E-01 +5.16419458484E-01
2.64000000000E+09 +7.32273506480E-01 +3.85775429661E-01 +2.05519288089E-04 +1.38182834702E-03 +2.37935962473E-04 +1.21708213661E-03 +7.19654796692E-01 +5.06640941818E-01
2.64500000000E+09 +7.34922440862E-01 +3.73625017492E-01 +5.08311153796E-04 +1.29872119468E-03 +3.74972693975E-04 +1.15018817387E-03 +7.24098599318E-01 +4.96906598628E-01
2.65000000000E+09 +7.37166620307E-01 +3.61854024287E-01 +5.01665049593E-04 +1.21022113130E-03 +3.55984994608E-04 +1.20983288718E-03 +7.28286592492E-01 +4.87142778497E-01
2.65500000000E+09 +7.39242240702E-01 +3.50154423106E-01 +6.90185483394E-04 +1.23927390532E-03 +5.89713686974E-04 +1.37324128069E-03 +7.32703827501E-01 +4.77096678041E-01
2.66000000000E+09 +7.41330583724E-01 +3.38713882617E-01 +8.18888467179E-04 +1.19692403963E-03 +9.04757173313E-04 +1.28469669247E-03 +7.37153621373E-01 +4.65706444860E-01
2.66500000000E+09 +7.43506772439E-01 +3.27320620744E-01 +8.79171448766E-04 +1.22299764219E-03 +9.79830613492E-04 +1.15563948086E-03 +7.41159002441E-01 +4.54297360690E-01
2.67000000000E+09 +7.45592774270E-01 +3.14366502971E-01 +1.25019137468E-03 +1.25413833102E-03 +1.29417601333E-03 +1.09778184400E-03 +7.45442880729E-01 +4.43307997251E-01
2.67500000000E+09 +7.46551426978E-01 +3.01066115591E-01 +1.43872581712E-03 +8.05693911604E-04 +1.33082061643E-03 +6.85573273442E-04 +7.49392126687E-01 +4.32079217733E-01
2.68000000000E+09 +7.47012800957E-01 +2.87568685322E-01 +1.25174489332E-03 +6.45836653348E-04 +1.16005621607E-03 +6.04516261033E-04 +7.53248716413E-01 +4.21021284091E-01
2.68500000000E+09 +7.47309040434E-01 +2.73714755570E-01 +1.26377342446E-03 +7.12570894775E-04 +1.27321773330E-03 +7.70471862773E-04 +7.56519199848E-01 +4.09356946800E-01
2.69000000000E+09 +7.46850735740E-01 +2.59777790344E-01 +1.45449186694E-03 +6.76998837180E-04 +1.45590113389E-03 +6.95413760314E-04 +7.59244908839E-01 +3.97346256329E-01
2.69500000000E+09 +7.46221657184E-01 +2.46448839100E-01 +1.64115685576E-03 +5.11581329038E-04 +1.57732089998E-03 +4.96366145952E-04 +7.61916056477E-01 +3.84511686936E-01
2.70000000000E+09 +7.46074311905E-01 +2.33351551766E-01 +1.79759450486E-03 +3.95442277882E-04 +1.72239089850E-03 +3.93676671839E-04 +7.64600621682E-01 +3.71199231908E-01
2.70500000000E+09 +7.46097228435E-01 +2.20582059053E-01 +1.85689692920E-03 +4.87239582189E-05 +1.83189537421E-03 +1.38386602594E-04 +7.67667783563E-01 +3.57724176551E-01
2.71000000000E+09 +7.46477146614E-01 +2.07963091952E-01 +1.85338352294E-03 -1.52257552560E-04 +1.87449223191E-03 -1.08403727562E-04 +7.70515341080E-01 +3.44262789151E-01
2.71500000000E+09 +7.47803605288E-01 +1.94626242714E-01 +1.74014089040E-03 -3.20848070123E-04 +1.83416875213E-03 -3.66165715277E-04 +7.72704193609E-01 +3.31472855969E-01
2.72000000000E+09 +7.48655809044E-01 +1.80374727067E-01 +1.67993713394E-03 -4.92891317479E-04 +1.80855634250E-03 -6.13346067202E-04 +7.74633245790E-01 +3.18749214767E-01
2.72500000000E+09 +7.49410951942E-01 +1.65401463854E-01 +1.67117233891E-03 -5.33337207869E-04 +1.59681792892E-03 -6.54396243630E-04 +7.75751165590E-01 +3.05493434955E-01
2.73000000000E+09 +7.48866766356E-01 +1.49194617091E-01 +1.84863333883E-03 -5.60790011290E-04 +1.64606214180E-03 -6.75843923643E-04 +7.77168836079E-01 +2.91610018609E-01
2.73500000000E+09 +7.47095555682E-01 +1.32599423623E-01 +1.91143448360E-03 -8.69190487707E-04 +1.68192913274E-03 -7.56175532466E-04 +7.78485310843E-01 +2.76302041718E-01
2.74000000000E+09 +7.44243225038E-01 +1.16426552597E-01 +1.99065316255E-03 -1.28981634624E-03 +1.88590280198E-03 -1.00502519324E-03 +7.79575054680E-01 +2.60990443039E-01
2.74500000000E+09 +7.40917791596E-01 +9.99452274973E-02 +1.78645723791E-03 -1.68974108728E-03 +1.88301612200E-03 -1.42597947120E-03 +7.80368524672E-01 +2.45753090145E-01
2.75000000000E+09 +7.36563426851E-01 +8.36333961100E-02 +1.27626580061E-03 -1.96049683917E-03 +1.50097688347E-03 -1.84975464913E-03 +7.80917949409E-01 +2.30831210149E-01
2.75500000000E+09 +7.31782057759E-01 +6.76185667645E-02 +1.14936034137E-03 -1.73079490572E-03 +1.32380921260E-03 -1.74735756136E-03 +7.81066262695E-01 +2.15872580099E-01
2.76000000000E+09 +7.26898901821E-01 +5.18589835403E-02 +1.28232606779E-03 -1.97921090588E-03 +1.43271419728E-03 -2.09690293056E-03 +7.80750490989E-01 +1.99857128196E-01
2.76500000000E+09 +7.22367840242E-01 +3.61006959498E-02 +9.54229928016E-04 -2.48168832844E-03 +1.00739464668E-03 -2.64604528945E-03 +7.79063588475E-01 +1.82791708118E-01
2.77000000000E+09 +7.18350515667E-01 +1.90995420288E-02 +5.63644136177E-04 -2.43808105400E-03 +5.30599580388E-04 -2.57775334453E-03 +7.77479083593E-01 +1.65776119658E-01
2.77500000000E+09 +7.14115532165E-01 +8.94559677583E-04 +2.26526231123E-04 -2.69609826949E-03 +1.51303630184E-04 -2.74796573451E-03 +7.75882795033E-01 +1.47567494514E-01
2.78000000000E+09 +7.09129652554E-01 -1.86544119079E-02 -1.89936725489E-04 -2.58193415362E-03 -3.15869162068E-04 -2.62872341076E-03 +7.73507336132E-01 +1.29415079275E-01
2.78500000000E+09 +7.02887302893E-01 -3.89961670925E-02 -4.50077067527E-04 -2.36813055675E-03 -6.10347121036E-04 -2.30963889861E-03 +7.70923602198E-01 +1.11725267495E-01
2.79000000000E+09 +6.95447038455E-01 -5.98341776547E-02 -5.96549232493E-04 -2.41660814438E-03 -7.03733897737E-04 -2.31046546600E-03 +7.67231779085E-01 +9.39679321390E-02
2.79500000000E+09 +6.86539329387E-01 -8.02731946907E-02 -1.11663139992E-03 -2.37585626673E-03 -1.01154503661E-03 -2.22267697292E-03 +7.62459422700E-01 +7.64835915892E-02
2.80000000000E+09 +6.76486255865E-01 -1.00086210407E-01 -1.18113585263E-03 -1.92293310276E-03 -1.01173942923E-03 -1.89077007267E-03 +7.57671107852E-01 +5.85124013934E-02
2.80500000000E+09 +6.65341919226E-01 -1.18693362416E-01 -1.14229143641E-03 -2.01251368415E-03 -1.01972593233E-03 -2.08628043318E-03 +7.52041328858E-01 +3.92655478469E-02
2.81000000000E+09 +6.54094884680E-01 -1.36232073448E-01 -1.36504030934E-03 -1.93172271630E-03 -1.39025023818E-03 -2.04436546547E-03 +7.45296698376E-01 +1.99879698902E-02
2.81500000000E+09 +6.41593627691E-01 -1.53633433103E-01 -1.63438803797E-03 -1.78078746178E-03 -1.73913883359E-03 -1.77315583088E-03 +7.37981621932E-01 +6.22626608944E-04
2.82000000000E+09 +6.28218679734E-01 -1.70246804493E-01 -1.84575358049E-03 -1.78403187744E-03 -1.90895646365E-03 -1.78945566359E-03 +7.30129474674E-01 -1.85957705306E-02
2.82500000000E+09 +6.14084373834E-01 -1.86553663918E-01 -2.27118269416E-03 -1.57669703234E-03 -2.24028613330E-03 -1.45034908770E-03 +7.21344757571E-01 -3.81272506419E-02
2.83000000000E+09 +5.98527959022E-01 -2.04077823332E-01 -2.48257618525E-03 -8.89302267974E-04 -2.35096437130E-03 -8.47158638405E-04 +7.11680984008E-01 -5.74568902911E-02
2.83500000000E+09 +5.80827364620E-01 -2.22012527908E-01 -2.01479370498E-03 -4.64419742183E-04 -1.92982159283E-03 -4.91347922861E-04 +7.01669443236E-01 -7.73833571776E-02
2.84000000000E+09 +5.60906760371E-01 -2.39393557262E-01 -1.75057051914E-03 -5.97586737728E-04 -1.73499016132E-03 -6.77943943915E-04 +6.90062448753E-01 -9.81813994743E-02
2.84500000000E+09 +5.40148704281E-01 -2.57245236176E-01 -1.79845939855E-03 -9.85536399006E-04 -1.82368945690E-03 -1.00186258258E-03 +6.77441735796E-01 -1.18255809370E-01
2.85000000000E+09 +5.17059820854E-01 -2.74888904574E-01 -2.44765287753E-03 -9.71484178323E-04 -2.42955654513E-03 -9.85357268520E-04 +6.64181671258E-01 -1.38806601125E-01
2.85500000000E+09 +4.93348669476E-01 -2.91937112198E-01 -2.67734622753E-03 -3.81783408798E-04 -2.69297198331E-03 -3.38968473867E-04 +6.49430930077E-01 -1.59566926022E-01
2.86000000000E+09 +4.68712951792E-01 -3.08637694725E-01 -2.37726398036E-03 -2.65081783968E-04 -2.39170821555E-03 -2.83095181626E-04 +6.32558854324E-01 -1.80036158433E-01
2.86500000000E+09 +4.43120683234E-01 -3.24152584242E-01 -2.87600778810E-03 -3.30579876434E-04 -2.87774911422E-03 -3.33077758118E-04 +6.14567427713E-01 -1.99949832861E-01
2.87000000000E+09 +4.17713304873E-01 -3.37366984274E-01 -2.98790104011E-03 +7.87103146354E-04 -2.99452137757E-03 +7.92739394598E-04 +5.95753603791E-01 -2.18500789118E-01
2.87500000000E+09 +3.93441129306E-01 -3.50031797606E-01 -2.49782935030E-03 +6.44423874310E-04 -2.49085137046E-03 +7.48732988191E-04 +5.77248615342E-01 -2.38238542810E-01
2.88000000000E+09 +3.68171974373E-01 -3.62676861013E-01 -2.67452023450E-03 +7.48862977672E-04 -2.58774241433E-03 +7.19400364105E-04 +5.56008145479E-01 -2.58187800390E-01
2.88500000000E+09 +3.41592771798E-01 -3.73613304118E-01 -2.63630261320E-03 +1.25676587797E-03 -2.44707738163E-03 +1.22336322165E-03 +5.32203490527E-01 -2.76633783066E-01
2.89000000000E+09 +3.13895293412E-01 -3.82953418528E-01 -2.42371252286E-03 +9.68401638527E-04 -2.35415084175E-03 +7.84113749995E-04 +5.07457893020E-01 -2.93946843563E-01
2.89500000000E+09 +2.84132868523E-01 -3.90966959928E-01 -3.23541020935E-03 +1.29181645181E-03 -3.21098143483E-03 +1.09162631628E-03 +4.80190958488E-01 -3.11403451123E-01
2.90000000000E+09 +2.52568827383E-01 -3.96267522163E-01 -3.09481650024E-03 +2.36856626824E-03 -3.18636454426E-03 +2.28026222266E-03 +4.51739407532E-01 -3.26576820586E-01
2.90500000000E+09 +2.19794822503E-01 -3.98837635200E-01 -2.45094295508E-03 +2.78657942153E-03 -2.46894113399E-03 +2.79235362890E-03 +4.22729731497E-01 -3.42260870563E-01
2.91000000000E+09 +1.85818431848E-01 -3.99198170176E-01 -1.90214388826E-03 +2.67900298237E-03 -1.86258696892E-03 +2.70779826185E-03 +3.91647357545E-01 -3.56162473923E-01
2.91500000000E+09 +1.51905077753E-01 -3.97593035742E-01 -2.46286887039E-03 +2.70781318738E-03 -2.30895447190E-03 +2.65043612558E-03 +3.59267790752E-01 -3.67636207362E-01
2.92000000000E+09 +1.16925626421E-01 -3.93803872095E-01 -2.21584291845E-03 +3.96349040536E-03 -2.15999903877E-03 +3.68422869968E-03 +3.26990561575E-01 -3.77002031715E-01
2.92500000000E+09 +8.19220045136E-02 -3.88824120451E-01 -1.14760913849E-03 +4.11180491965E-03 -1.20686085652E-03 +3.85419148200E-03 +2.92122382821E-01 -3.85445781254E-01
2.93000000000E+09 +4.63923703819E-02 -3.81476267916E-01 -6.99547516418E-04 +3.81372355588E-03 -8.97029528871E-04 +3.74867017090E-03 +2.55572690985E-01 -3.92101368625E-01
2.93500000000E+09 +1.07019832813E-02 -3.71837236430E-01 -5.27906892267E-04 +3.91205175364E-03 -6.15642322400E-04 +3.96013462714E-03 +2.16912429616E-01 -3.96366714173E-01
2.94000000000E+09 -2.36309164994E-02 -3.59349666164E-01 -7.91432749309E-04 +4.22952460173E-03 -8.86235662541E-04 +4.24628204897E-03 +1.78447509738E-01 -3.97269693320E-01
2.94500000000E+09 -5.75789340210E-02 -3.45002194690E-01 +7.83130001718E-05 +5.39644128287E-03 -4.88098391513E-05 +5.34796168031E-03 +1.41495263935E-01 -3.98373672782E-01
2.95000000000E+09 -9.04414110239E-02 -3.27537523692E-01 +1.63306295787E-03 +5.16026413379E-03 +1.54270520177E-03 +5.23828953671E-03 +1.01301062451E-01 -3.97951234616E-01
2.95500000000E+09 -1.21594523392E-01 -3.07905486559E-01 +2.43300614247E-03 +4.54702264981E-03 +2.28549635752E-03 +4.74349666989E-03 +6.00460172994E-02 -3.91891003484E-01
2.96000000000E+09 -1.52417528729E-01 -2.86012534327E-01 +2.52666408317E-03 +3.90460928968E-03 +2.59656477972E-03 +4.11471409668E-03 +1.99227495898E-02 -3.82262222722E-01
2.96500000000E+09 -1.82466761080E-01 -2.60519539836E-01 +2.84313882712E-03 +3.97400002121E-03 +2.98888931874E-03 +4.03683566096E-03 -1.96431372421E-02 -3.69510030101E-01
2.97000000000E+09 -2.09629720343E-01 -2.30815453941E-01 +3.40732310913E-03 +3.97773392578E-03 +3.55890836492E-03 +3.86888331715E-03 -5.81394814091E-02 -3.55896326269E-01
2.97500000000E+09 -2.33593975552E-01 -2.00151471400E-01 +4.48551623414E-03 +3.82521762288E-03 +4.36411529834E-03 +3.64464023918E-03 -9.83057301704E-02 -3.40477773429E-01
2.98000000000E+09 -2.55595742726E-01 -1.68562277897E-01 +5.17670288167E-03 +2.68066636290E-03 +5.00406782233E-03 +2.74481576424E-03 -1.37572092701E-01 -3.20790318451E-01
2.98500000000E+09 -2.76599413795E-01 -1.36738804194E-01 +5.36126241201E-03 +1.74404730947E-03 +5.41539022272E-03 +2.03969394652E-03 -1.74976964875E-01 -2.96711317995E-01
2.99000000000E+09 -2.96251388698E-01 -1.03058101350E-01 +5.15300026889E-03 +9.00344365593E-04 +5.39103333018E-03 +9.99967579220E-04 -2.08538998490E-01 -2.71277512404E-01
2.99500000000E+09 -3.12777795075E-01 -6.82912577666E-02 +5.07379880016E-03 +9.60314624853E-04 +5.30149143917E-03 +8.67982698613E-04 -2.42533174276E-01 -2.43303410842E-01
3.00000000000E+09 -3.26923588317E-01 -3.36733235798E-02 +6.02964716649E-03 +7.06581982640E-04 +6.02529947402E-03 +4.61890991904E-04 -2.74472591547E-01 -2.11745244770E-01
3.00500000000E+09 -3.38395843362E-01 +1.84990889250E-04 +6.70726309574E-03 -8.23426553103E-04 +6.46283608045E-03 -9.72445634377E-04 -3.03231352467E-01 -1.78049543426E-01
3.01000000000E+09 -3.47241178136E-01 +3.34820665940E-02 +6.27354847502E-03 -2.72168101117E-03 +5.99443198927E-03 -2.49792253145E-03 -3.29964789392E-01 -1.43281356071E-01
3.01500000000E+09 -3.54179413065E-01 +6.65389874466E-02 +4.91834627203E-03 -3.57848408607E-03 +4.98304679732E-03 -3.29202691669E-03 -3.52781384591E-01 -1.06846472577E-01
3.02000000000E+09 -3.57634427252E-01 +9.95552971329E-02 +3.97853383402E-03 -3.44082761428E-03 +4.10885447715E-03 -3.34799948804E-03 -3.73281922701E-01 -7.09006883755E-02
3.02500000000E+09 -3.57844120289E-01 +1.32550606409E-01 +4.26424283237E-03 -3.58819504161E-03 +4.40604385256E-03 -3.55546916986E-03 -3.92413473473E-01 -3.23087499525E-02
3.03000000000E+09 -3.53861939041E-01 +1.64208873966E-01 +3.79967724868E-03 -4.78484143852E-03 +3.78635102790E-03 -4.78593422643E-03 -4.07258907303E-01 +8.99343597278E-03
3.03500000000E+09 -3.48496262498E-01 +1.93581240205E-01 +2.44336431011E-03 -5.51570368792E-03 +2.63751883570E-03 -5.50539048249E-03 -4.17796462666E-01 +4.94853895040E-02
3.04000000000E+09 -3.42059577577E-01 +2.24180139429E-01 +9.16991399076E-04 -5.18549896842E-03 +1.06078437047E-03 -5.33881404896E-03 -4.26403836188E-01 +8.95356166771E-02
3.04500000000E+09 -3.32831528118E-01 +2.54200263807E-01 +6.55668280444E-04 -4.16042586274E-03 +7.51543734745E-04 -4.39301814162E-03 -4.32640058613E-01 +1.29484033799E-01
3.05000000000E+09 -3.21552238395E-01 +2.84264625839E-01 +8.96406023106E-04 -4.11150118376E-03 +8.04821938323E-04 -4.44327804599E-03 -4.36972321668E-01 +1.69925661221E-01
3.05500000000E+09 -3.08437027328E-01 +3.13103514680E-01 +9.09692445402E-04 -4.80094744541E-03 +6.27540028887E-04 -4.88289854312E-03 -4.36287870276E-01 +2.10676410820E-01
3.06000000000E+09 -2.94079896506E-01 +3.40392670998E-01 -3.88833919709E-04 -5.80988103346E-03 -7.17883806324E-04 -5.57836921726E-03 -4.33270887344E-01 +2.47852556925E-01
3.06500000000E+09 -2.79537958933E-01 +3.65780315055E-01 -2.20135953275E-03 -4.66697571486E-03 -2.10477245973E-03 -4.43560832703E-03 -4.29500934719E-01 +2.84698490130E-01
3.07000000000E+09 -2.64966949364E-01 +3.90256768717E-01 -2.14277233534E-03 -3.27182815487E-03 -1.90610741848E-03 -3.37396033444E-03 -4.24117652736E-01 +3.20330128718E-01
