# Hz S RI R 50
! CMT, C1220, 16058040, 17.2.0/1
! Date: 15/08/2018 10:09:01
! Data: Format (Calibration Info)
! Freq                      S11: Re/Im (F2)                       S21: Re/Im (F2)                       S12: Re/Im (F2)                       S22: Re/Im (F2)            
2.50000000000E+09 +5.99426398033E-01 +6.34005245768E-01 -5.46716577843E-04 -3.10323571106E-04 -6.53745413813E-04 -4.02441417849E-04 +5.72916798919E-01 +7.16441826650E-01
2.50500000000E+09 +6.05600666676E-01 +6.26492970538E-01 -5.38628751353E-04 -3.89005245550E-04 -5.75591711351E-04 -3.27728598935E-04 +5.78559582355E-01 +7.10981700407E-01
2.51000000000E+09 +6.12076665948E-01 +6.18547289234E-01 -5.51661973518E-04 -3.45087231789E-04 -5.95692925435E-04 -3.62150152548E-04 +5.84413391434E-01 +7.05924240555E-01
2.51500000000E+09 +6.18205660542E-01 +6.10399663900E-01 -7.21945274982E-04 -3.83254097521E-04 -6.42196685509E-04 -3.53891444291E-04 +5.89718568935E-01 +7.00432645365E-01
2.52000000000E+09 +6.23814506447E-01 +6.02207882814E-01 -7.77663048097E-04 -2.65657723364E-04 -7.21213185806E-04 -2.42596262138E-04 +5.94896400492E-01 +6.94486482504E-01
2.52500000000E+09 +6.28710996365E-01 +5.94541959712E-01 -8.38330435913E-04 -1.50387057530E-04 -8.26304982796E-04 -1.49269351045E-04 +6.00649036931E-01 +6.87928497579E-01
2.53000000000E+09 +6.33116298983E-01 +5.87555401069E-01 -7.87779133732E-04 -5.55666780036E-05 -7.71422014095E-04 -2.49068910844E-05 +6.06717371012E-01 +6.80850627510E-01
2.53500000000E+09 +6.37174259171E-01 +5.81070048590E-01 -8.27108482500E-04 -3.38874428626E-05 -7.91454825974E-04 -5.86890587278E-06 +6.12614830777E-01 +6.74065517241E-01
2.54000000000E+09 +6.41290342728E-01 +5.74911716934E-01 -9.14294975914E-04 +8.24325730879E-05 -8.88854776498E-04 +8.27399928142E-05 +6.18735294438E-01 +6.67310612711E-01
2.54500000000E+09 +6.45582689456E-01 +5.68849818212E-01 -9.35468152379E-04 +2.58818365504E-04 -9.91975457912E-04 +2.20797574298E-04 +6.24326571222E-01 +6.60710489386E-01
2.55000000000E+09 +6.50336471342E-01 +5.62741252467E-01 -8.10515320593E-04 +4.31385686882E-04 -8.35235947641E-04 +3.77882964550E-04 +6.29679613316E-01 +6.54493229325E-01
2.55500000000E+09 +6.55586166119E-01 +5.55827352092E-01 -7.17671030597E-04 +4.73628994011E-04 -8.47081416758E-04 +5.34228996145E-04 +6.34799794213E-01 +6.47985545200E-01
2.56000000000E+09 +6.61501501044E-01 +5.48708254404E-01 -5.46943567940E-04 +4.46545685357E-04 -6.46979207673E-04 +6.12443726845E-04 +6.40105994514E-01 +6.40883570078E-01
2.56500000000E+09 +6.67775317639E-01 +5.40560042971E-01 -5.57866005077E-04 +3.78549173300E-04 -5.50272843491E-04 +4.86974322580E-04 +6.45701873685E-01 +6.33365317829E-01
2.57000000000E+09 +6.73899375351E-01 +5.31884281058E-01 -7.43181465558E-04 +3.55936271473E-04 -6.35311154417E-04 +4.50399680039E-04 +6.50873782353E-01 +6.25156625939E-01
2.57500000000E+09 +6.79849024938E-01 +5.22724454396E-01 -8.27493331577E-04 +6.05878135044E-04 -6.02780773379E-04 +6.64866745199E-04 +6.56140731080E-01 +6.17632455043E-01
2.58000000000E+09 +6.85043318478E-01 +5.13816704331E-01 -6.02888693052E-04 +8.93128163422E-04 -4.95849241563E-04 +7.72589673678E-04 +6.61235792414E-01 +6.10039455077E-01
2.58500000000E+09 +6.89759162743E-01 +5.05003050977E-01 -3.52512538839E-04 +7.94970216222E-04 -3.62377723642E-04 +7.13623185197E-04 +6.65999704471E-01 +6.02617286826E-01
2.59000000000E+09 +6.93878632989E-01 +4.96456902890E-01 -2.89890594044E-04 +7.45934552809E-04 -3.48637230251E-04 +7.17386368453E-04 +6.70791949559E-01 +5.95135228679E-01
2.59500000000E+09 +6.97893841868E-01 +4.88232054993E-01 -3.32576576600E-04 +7.19279931943E-04 -3.61847691321E-04 +6.96553173214E-04 +6.75649771061E-01 +5.87124919848E-01
2.60000000000E+09 +7.01658611018E-01 +4.79774893594E-01 -3.19805006636E-04 +6.91681264874E-04 -3.86958743364E-04 +7.29811862059E-04 +6.80672182279E-01 +5.78783004131E-01
2.60500000000E+09 +7.05844213932E-01 +4.70767720902E-01 -4.05375793910E-04 +8.11332581938E-04 -3.86544441039E-04 +7.75443728538E-04 +6.86037452288E-01 +5.69948720348E-01
2.61000000000E+09 +7.10094089836E-01 +4.60720667921E-01 -2.79824604822E-04 +1.00380786241E-03 -3.43130693801E-04 +1.02372636755E-03 +6.90836865039E-01 +5.61268385804E-01
2.61500000000E+09 +7.14354762308E-01 +4.49735833613E-01 -1.00372280244E-04 +9.89710267820E-04 -8.93549540614E-05 +1.03772168589E-03 +6.95824537615E-01 +5.52581504132E-01
2.62000000000E+09 +7.18435012701E-01 +4.37881055071E-01 +7.10082564839E-05 +1.00678060500E-03 +8.82737959998E-05 +1.07718929707E-03 +7.00370968952E-01 +5.43419630112E-01
2.62500000000E+09 +7.22428023751E-01 +4.25035512172E-01 +2.59888371332E-05 +9.05414991360E-04 +1.62468274971E-04 +9.26518468462E-04 +7.04955802348E-01 +5.34834229396E-01
2.63000000000E+09 +7.25954834387E-01 +4.11877356933E-01 +5.44447224621E-05 +9.78267439215E-04 +1.72158406456E-04 +9.28346238451E-04 +7.10098110679E-01 +5.25836580913E-01
2.63500000000E+09 +7.28871357290E-01 +3.98861530181E-01 +4.11728640307E-05 +1.07284272320E-03 +1.48952740424E-04 +9.28026233457E-04 +7.14838085855E-01 +5.16444939304E-01
2.64000000000E+09 +7.31632462890E-01 +3.86026957988E-01 +2.44456110170E-04 +1.20050547780E-03 +2.84103235115E-04 +1.02578930310E-03 +7.19505986708E-01 +5.06650328200E-01
2.64500000000E+09 +7.34259179388E-01 +3.73936042268E-01 +4.74559943663E-04 +1.09052063901E-03 +3.26296790793E-04 +1.02769365362E-03 +7.23972315045E-01 +4.96898840084E-01
2.65000000000E+09 +7.36454323022E-01 +3.62198793266E-01 +4.62122465859E-04 +1.04861899895E-03 +3.36619327096E-04 +1.04475748051E-03 +7.28160829070E-01 +4.87130904761E-01
2.65500000000E+09 +7.38528988975E-01 +3.50452216704E-01 +6.59010148874E-04 +1.14309759154E-03 +5.70521985813E-04 +1.26080231447E-03 +7.32508705248E-01 +4.77029836597E-01
2.66000000000E+09 +7.40488895465E-01 +3.39044375077E-01 +8.34207193229E-04 +1.07056785219E-03 +8.69972209525E-04 +1.14450554323E-03 +7.36895462109E-01 +4.65604578511E-01
2.66500000000E+09 +7.42800839327E-01 +3.27532043741E-01 +8.66995453426E-04 +1.05846623443E-03 +9.75664332297E-04 +1.07591970264E-03 +7.41061969262E-01 +4.54369195204E-01
2.67000000000E+09 +7.44621586115E-01 +3.14760381570E-01 +1.23385911091E-03 +1.07365497444E-03 +1.27370352900E-03 +8.82798783310E-04 +7.45339820974E-01 +4.43328218981E-01
2.67500000000E+09 +7.45650288698E-01 +3.01487120972E-01 +1.36304086332E-03 +6.37053633461E-04 +1.26217748578E-03 +5.85378574814E-04 +7.49268800063E-01 +4.32193365642E-01
2.68000000000E+09 +7.46279447799E-01 +2.88041482731E-01 +1.22251860680E-03 +5.31736676746E-04 +1.15328365622E-03 +5.55672459413E-04 +7.53246821009E-01 +4.21073667507E-01
2.68500000000E+09 +7.46561689259E-01 +2.74182730904E-01 +1.29472776542E-03 +5.39217123519E-04 +1.25843438385E-03 +6.02532822088E-04 +7.56304514285E-01 +4.09588013961E-01
2.69000000000E+09 +7.46017593243E-01 +2.60256752192E-01 +1.40171305197E-03 +5.06415937070E-04 +1.40877027610E-03 +5.23807930832E-04 +7.59098881062E-01 +3.97418385011E-01
2.69500000000E+09 +7.45603080806E-01 +2.46974838770E-01 +1.52507606980E-03 +3.13088430217E-04 +1.48160364976E-03 +2.99445501720E-04 +7.61849303309E-01 +3.84632117775E-01
2.70000000000E+09 +7.45474397126E-01 +2.34108956460E-01 +1.67216598946E-03 +2.69573385014E-04 +1.63825883058E-03 +2.17372676471E-04 +7.64551689100E-01 +3.71237994652E-01
2.70500000000E+09 +7.45437920698E-01 +2.21400898318E-01 +1.75159945045E-03 -1.41868099062E-04 +1.71218623073E-03 -3.83325527504E-05 +7.67571217521E-01 +3.57885247030E-01
2.71000000000E+09 +7.45996434322E-01 +2.08797579044E-01 +1.60204999376E-03 -3.84033997941E-04 +1.63059680371E-03 -3.49769367399E-04 +7.70490505833E-01 +3.44439025279E-01
2.71500000000E+09 +7.47329358906E-01 +1.95541074896E-01 +1.45557389972E-03 -5.53059696824E-04 +1.60051733421E-03 -5.60859892867E-04 +7.72727567558E-01 +3.31719656013E-01
2.72000000000E+09 +7.48311615138E-01 +1.81342938036E-01 +1.39365681339E-03 -5.92601705079E-04 +1.42070826795E-03 -7.44937380832E-04 +7.74613506807E-01 +3.18829650644E-01
2.72500000000E+09 +7.48928299095E-01 +1.66519832390E-01 +1.37249585962E-03 -5.44253389933E-04 +1.27429398918E-03 -6.89645671562E-04 +7.75740826161E-01 +3.05661185710E-01
2.73000000000E+09 +7.48645747712E-01 +1.50510193340E-01 +1.49058623826E-03 -5.79469500543E-04 +1.30284577671E-03 -6.31718278227E-04 +7.77320821063E-01 +2.91733865812E-01
2.73500000000E+09 +7.46953869218E-01 +1.33834370352E-01 +1.63637633323E-03 -8.27858452305E-04 +1.45282559990E-03 -7.39829006632E-04 +7.78631685092E-01 +2.76508722821E-01
2.74000000000E+09 +7.44199346798E-01 +1.17812436470E-01 +1.70370917377E-03 -1.21363108515E-03 +1.60300031895E-03 -9.27638285092E-04 +7.79585607469E-01 +2.61072175482E-01
2.74500000000E+09 +7.40687856166E-01 +1.01345667849E-01 +1.57484150934E-03 -1.58165834386E-03 +1.65215570303E-03 -1.30942126489E-03 +7.80405571037E-01 +2.45840908557E-01
2.75000000000E+09 +7.36420076511E-01 +8.50493231355E-02 +1.08098198019E-03 -1.78924306443E-03 +1.29466952154E-03 -1.74080106821E-03 +7.81034314651E-01 +2.30903038373E-01
2.75500000000E+09 +7.31539331841E-01 +6.91184343559E-02 +1.00987599527E-03 -1.60795927478E-03 +1.16314323370E-03 -1.71005745987E-03 +7.81176773164E-01 +2.15815469498E-01
2.76000000000E+09 +7.26934197033E-01 +5.36261772222E-02 +1.10990598759E-03 -1.93649346805E-03 +1.22268352504E-03 -2.01900443959E-03 +7.80656862423E-01 +1.99765099009E-01
2.76500000000E+09 +7.22637938700E-01 +3.77701928646E-02 +7.45761081592E-04 -2.38100664703E-03 +8.31490943010E-04 -2.50984046998E-03 +7.79145096493E-01 +1.82763842262E-01
2.77000000000E+09 +7.18546126773E-01 +2.07008338749E-02 +3.54687592248E-04 -2.33564982517E-03 +3.34877200508E-04 -2.48086616886E-03 +7.77463334114E-01 +1.65625420132E-01
2.77500000000E+09 +7.14338111377E-01 +2.56131362014E-03 +8.06142698434E-05 -2.52297399212E-03 -4.76927984348E-05 -2.64195574720E-03 +7.75759437916E-01 +1.47540473786E-01
2.78000000000E+09 +7.09582079302E-01 -1.69072313976E-02 -4.13631758526E-04 -2.46227110405E-03 -5.11370532279E-04 -2.46174820891E-03 +7.73493902807E-01 +1.29488082305E-01
2.78500000000E+09 +7.03368120515E-01 -3.71922928074E-02 -7.08823194763E-04 -2.21359242991E-03 -8.16123654472E-04 -2.10622597465E-03 +7.70836716455E-01 +1.11608211336E-01
2.79000000000E+09 +6.96352747754E-01 -5.79081811785E-02 -8.73510987580E-04 -2.12237941634E-03 -8.76007868244E-04 -2.02634595119E-03 +7.67214540362E-01 +9.40348586241E-02
2.79500000000E+09 +6.87599031333E-01 -7.84852334538E-02 -1.19633053253E-03 -2.04578591203E-03 -1.14928629634E-03 -1.94797057789E-03 +7.62560542057E-01 +7.65360026364E-02
2.80000000000E+09 +6.77684066183E-01 -9.84381192803E-02 -1.31528222709E-03 -1.63569754329E-03 -1.18982013800E-03 -1.59135885126E-03 +7.57698824773E-01 +5.85923227134E-02
2.80500000000E+09 +6.66725212984E-01 -1.17068587567E-01 -1.29240889380E-03 -1.70011080694E-03 -1.23846368145E-03 -1.73164340815E-03 +7.52041663034E-01 +3.93405006141E-02
2.81000000000E+09 +6.55759289124E-01 -1.34629547531E-01 -1.51998021958E-03 -1.59831326683E-03 -1.54704719067E-03 -1.68825245628E-03 +7.45347827285E-01 +2.00360932462E-02
2.81500000000E+09 +6.43601758832E-01 -1.52181100822E-01 -1.73850812457E-03 -1.33051196515E-03 -1.85483904710E-03 -1.28474453655E-03 +7.38119570960E-01 +6.22690638831E-04
2.82000000000E+09 +6.30308074153E-01 -1.68903189350E-01 -1.76897220058E-03 -1.29848944121E-03 -1.82808746183E-03 -1.21361150076E-03 +7.30175528962E-01 -1.87206703422E-02
2.82500000000E+09 +6.16437782536E-01 -1.85483046902E-01 -2.09258748698E-03 -1.15220956948E-03 -2.05552310244E-03 -9.92490949105E-04 +7.21441649760E-01 -3.82949878093E-02
2.83000000000E+09 +6.01034182846E-01 -2.03140945683E-01 -2.21378420368E-03 -5.21144642500E-04 -2.13466733205E-03 -4.80402628833E-04 +7.11672352447E-01 -5.76280985758E-02
2.83500000000E+09 +5.83584373484E-01 -2.21108697437E-01 -1.84112318770E-03 -2.11421503360E-04 -1.74942788805E-03 -2.58446598061E-04 +7.01694725916E-01 -7.75826930304E-02
2.84000000000E+09 +5.64208728994E-01 -2.38624216398E-01 -1.55397241936E-03 -3.14797540635E-04 -1.49793968255E-03 -3.80383201611E-04 +6.90088956454E-01 -9.83856830279E-02
2.84500000000E+09 +5.43384546605E-01 -2.57039449464E-01 -1.59124533785E-03 -6.62583327517E-04 -1.64250467082E-03 -6.98908198153E-04 +6.77417148179E-01 -1.18499555776E-01
2.85000000000E+09 +5.20485692238E-01 -2.74855772211E-01 -2.09870517952E-03 -7.74203359176E-04 -2.06300008724E-03 -7.67360301263E-04 +6.63963399493E-01 -1.39006708412E-01
2.85500000000E+09 +4.96673550716E-01 -2.92051456124E-01 -2.40988969301E-03 -2.11862513777E-04 -2.35293832904E-03 -2.22074347512E-04 +6.49130364472E-01 -1.59749355333E-01
2.86000000000E+09 +4.72235207956E-01 -3.08975604373E-01 -2.17477483929E-03 -1.19376698641E-04 -2.13909939489E-03 -8.27936912692E-05 +6.32284933980E-01 -1.80098858882E-01
2.86500000000E+09 +4.46808028119E-01 -3.24694313081E-01 -2.72755572731E-03 -5.88921300758E-05 -2.64145319805E-03 -1.27172461294E-04 +6.14311863638E-01 -2.00003855068E-01
2.87000000000E+09 +4.21547256959E-01 -3.38586277997E-01 -2.64949217316E-03 +9.83746679483E-04 -2.64665864599E-03 +9.61373720762E-04 +5.95391173828E-01 -2.18407379698E-01
2.87500000000E+09 +3.96880566509E-01 -3.51500149340E-01 -2.25468510334E-03 +7.44715290635E-04 -2.20908861440E-03 +8.14434105094E-04 +5.77026900689E-01 -2.38135362679E-01
2.88000000000E+09 +3.71354411089E-01 -3.64181098528E-01 -2.45134634230E-03 +8.48901048077E-04 -2.38213345884E-03 +8.90599008567E-04 +5.55762309563E-01 -2.58094980539E-01
2.88500000000E+09 +3.44963204979E-01 -3.75260117709E-01 -2.43856614639E-03 +1.48153403114E-03 -2.22824844871E-03 +1.51278599454E-03 +5.32092539392E-01 -2.76510276038E-01
2.89000000000E+09 +3.17378671957E-01 -3.85141469709E-01 -2.02775948132E-03 +1.27146278983E-03 -1.91689828242E-03 +1.15309741326E-03 +5.07343841625E-01 -2.93833561929E-01
2.89500000000E+09 +2.87546787164E-01 -3.93739954384E-01 -2.56147482797E-03 +1.61708371969E-03 -2.55367285510E-03 +1.49354752962E-03 +4.80181996731E-01 -3.11310037547E-01
2.90000000000E+09 +2.55575107638E-01 -3.99579097292E-01 -2.32521500218E-03 +2.32657412779E-03 -2.40168700146E-03 +2.24220467263E-03 +4.51775862772E-01 -3.26433931973E-01
2.90500000000E+09 +2.22126423716E-01 -4.02466840603E-01 -1.89482154421E-03 +2.60659350264E-03 -1.89244494044E-03 +2.66186916944E-03 +4.22954898452E-01 -3.42105103363E-01
2.91000000000E+09 +1.88121615399E-01 -4.02819605303E-01 -1.42065338428E-03 +2.58708653915E-03 -1.35665678795E-03 +2.58050394278E-03 +3.91945730728E-01 -3.56243008815E-01
2.91500000000E+09 +1.53954997774E-01 -4.01679045325E-01 -1.74085183160E-03 +2.67129562947E-03 -1.62054396990E-03 +2.59415579224E-03 +3.59452389808E-01 -3.67946709174E-01
2.92000000000E+09 +1.18620637553E-01 -3.98361864365E-01 -1.42552932367E-03 +3.59511298531E-03 -1.34391848061E-03 +3.31477184961E-03 +3.26904348852E-01 -3.77448842786E-01
2.92500000000E+09 +8.31225037122E-02 -3.93809088979E-01 -4.55150299989E-04 +3.54949836811E-03 -5.55347351891E-04 +3.29504561033E-03 +2.91789887696E-01 -3.85688912186E-01
2.93000000000E+09 +4.69243947069E-02 -3.86500291515E-01 -2.58459398384E-04 +3.19578936105E-03 -4.45670565117E-04 +3.14089659279E-03 +2.55246136321E-01 -3.92232869288E-01
2.93500000000E+09 +1.08730113910E-02 -3.76749712983E-01 -1.61999506978E-04 +3.33469529063E-03 -2.29502947408E-04 +3.39151028323E-03 +2.16532052804E-01 -3.96531558051E-01
2.94000000000E+09 -2.38835572627E-02 -3.64592019100E-01 -3.10348033196E-04 +3.64552067297E-03 -3.86747356435E-04 +3.67169500330E-03 +1.78019734069E-01 -3.97361406462E-01
2.94500000000E+09 -5.82294161071E-02 -3.50099720833E-01 +6.45786849517E-04 +4.54332806873E-03 +4.89922626676E-04 +4.54717048099E-03 +1.41123059569E-01 -3.98268919710E-01
2.95000000000E+09 -9.13972075701E-02 -3.32743607122E-01 +1.83968229322E-03 +4.07655515203E-03 +1.71412149017E-03 +4.15689697657E-03 +1.00911714753E-01 -3.97818397180E-01
2.95500000000E+09 -1.23344510671E-01 -3.13133750146E-01 +2.25375695667E-03 +3.63352422551E-03 +2.16682844525E-03 +3.80969907800E-03 +5.96363185952E-02 -3.91653350067E-01
2.96000000000E+09 -1.54546974756E-01 -2.90747490803E-01 +2.34002225301E-03 +3.11510498821E-03 +2.41071686621E-03 +3.34873303792E-03 +1.95562724730E-02 -3.81844002128E-01
2.96500000000E+09 -1.84815987609E-01 -2.64931291083E-01 +2.69825586583E-03 +3.26718655723E-03 +2.86908328113E-03 +3.36025358020E-03 -1.99117666384E-02 -3.68923093418E-01
2.97000000000E+09 -2.12203885488E-01 -2.35361825801E-01 +3.18358305278E-03 +3.10357395051E-03 +3.25448577374E-03 +3.03553412475E-03 -5.81305478702E-02 -3.55242662115E-01
2.97500000000E+09 -2.36752726661E-01 -2.04365555579E-01 +4.00306653267E-03 +2.92631923293E-03 +3.88978541228E-03 +2.81813463891E-03 -9.79404134991E-02 -3.40027636787E-01
2.98000000000E+09 -2.59092878502E-01 -1.72420760009E-01 +4.47614936026E-03 +1.99891721504E-03 +4.32612084061E-03 +2.05524788850E-03 -1.37107050058E-01 -3.20710982376E-01
2.98500000000E+09 -2.80463855638E-01 -1.40081026108E-01 +4.71265955526E-03 +1.40995915948E-03 +4.73277551739E-03 +1.59636930569E-03 -1.74824939180E-01 -2.96868824127E-01
2.99000000000E+09 -3.00039197752E-01 -1.05941545693E-01 +4.61198222764E-03 +5.51168326911E-04 +4.85795197191E-03 +6.71295171003E-04 -2.08605401214E-01 -2.71351962672E-01
2.99500000000E+09 -3.17043399382E-01 -7.11203511561E-02 +4.62545495867E-03 +4.06404229205E-04 +4.78676375413E-03 +2.88794288760E-04 -2.42694993017E-01 -2.43433863775E-01
3.00000000000E+09 -3.31620914248E-01 -3.59178648460E-02 +5.20916228171E-03 +9.05385590490E-05 +5.24607152398E-03 -1.92845862229E-04 -2.74614445973E-01 -2.11777738249E-01
3.00500000000E+09 -3.43299346495E-01 -1.27520170087E-03 +5.65838070203E-03 -1.20209798832E-03 +5.32377882805E-03 -1.32434749410E-03 -3.03472744024E-01 -1.78097876492E-01
3.01000000000E+09 -3.51942940868E-01 +3.25107502938E-02 +5.06103245361E-03 -2.64110554120E-03 +4.88831425700E-03 -2.44554748580E-03 -3.30402820003E-01 -1.43085665593E-01
3.01500000000E+09 -3.58919172602E-01 +6.58544179708E-02 +4.08533235935E-03 -3.20378660977E-03 +4.09606191506E-03 -2.94575910418E-03 -3.53151682298E-01 -1.06464632327E-01
3.02000000000E+09 -3.62419942280E-01 +9.94471571777E-02 +3.36414850663E-03 -3.29761699054E-03 +3.55596568498E-03 -3.18903084726E-03 -3.73488480389E-01 -7.04188431486E-02
3.02500000000E+09 -3.62572593127E-01 +1.32766488837E-01 +3.43323304115E-03 -3.46261564437E-03 +3.55194544188E-03 -3.44101489015E-03 -3.92534651361E-01 -3.16252148545E-02
3.03000000000E+09 -3.58740501644E-01 +1.64809475320E-01 +2.75285670390E-03 -4.37517059179E-03 +2.82619918001E-03 -4.38490729963E-03 -4.07048523612E-01 +9.69086861724E-03
3.03500000000E+09 -3.53257611938E-01 +1.94916609324E-01 +1.79083511615E-03 -4.77856842748E-03 +1.88354143487E-03 -4.80112117459E-03 -4.17643069710E-01 +5.03123106801E-02
3.04000000000E+09 -3.46260662555E-01 +2.25861148509E-01 +5.02705951263E-04 -4.55373342797E-03 +6.21424247819E-04 -4.68054849841E-03 -4.25805855873E-01 +9.04127199009E-02
3.04500000000E+09 -3.36878871661E-01 +2.56133659088E-01 +2.73739664599E-04 -3.70545064114E-03 +3.64170244850E-04 -3.90031101692E-03 -4.31733152044E-01 +1.30020575536E-01
3.05000000000E+09 -3.25429039650E-01 +2.86391138726E-01 +2.72479365250E-04 -3.56896670274E-03 +2.21523991872E-04 -3.84571647981E-03 -4.35971870775E-01 +1.70090818067E-01
3.05500000000E+09 -3.11893110033E-01 +3.15583036138E-01 +4.19043879801E-04 -3.98084128346E-03 +1.96122804296E-04 -4.06651368666E-03 -4.35641140755E-01 +2.10617230581E-01
3.06000000000E+09 -2.97170707782E-01 +3.42974244706E-01 -5.59685428281E-04 -4.75711138088E-03 -7.21142521760E-04 -4.56572473195E-03 -4.32671927836E-01 +2.47659716474E-01
3.06500000000E+09 -2.82220682227E-01 +3.68385760639E-01 -2.00532821454E-03 -3.89588739371E-03 -1.80727207307E-03 -3.74573316131E-03 -4.28755738085E-01 +2.84455970972E-01
3.07000000000E+09 -2.67210933614E-01 +3.93059503379E-01 -2.00322400701E-03 -2.87308631127E-03 -1.83222413964E-03 -2.90233870242E-03 -4.23390453275E-01 +3.19925578065E-01
