# Hz S RI R 50
! CMT, C1220, 16058040, 17.2.0/1
! Date: 15/08/2018 09:45:37
! Data: Format (Calibration Info)
! Freq                      S11: Re/Im (F2)                       S21: Re/Im (F2)                       S12: Re/Im (F2)                       S22: Re/Im (F2)            
2.50000000000E+09 +5.80169834485E-01 +6.61832344501E-01 +2.66807028849E-04 -1.51476090542E-03 +2.32528673318E-04 -1.67538866020E-03 +5.74132899612E-01 +7.18126326794E-01
2.50500000000E+09 +5.87248753166E-01 +6.54273936849E-01 +1.34908836579E-04 -1.61082669979E-03 +7.03125393164E-05 -1.69156809766E-03 +5.79689051268E-01 +7.12759611651E-01
2.51000000000E+09 +5.94614848201E-01 +6.46137559707E-01 -5.91382673758E-05 -1.68940111103E-03 -9.54695995654E-05 -1.66731556901E-03 +5.85123866891E-01 +7.07476581102E-01
2.51500000000E+09 +6.01909707885E-01 +6.37742177363E-01 -2.40526360632E-04 -1.72336098038E-03 -2.57629720467E-04 -1.67169423473E-03 +5.90182110196E-01 +7.01985323599E-01
2.52000000000E+09 +6.08601159037E-01 +6.28992494807E-01 -4.37635830879E-04 -1.68132319640E-03 -3.71451338766E-04 -1.69777403778E-03 +5.95412629736E-01 +6.96014011432E-01
2.52500000000E+09 +6.14512408164E-01 +6.20397464155E-01 -6.24108112855E-04 -1.58016945192E-03 -5.07022783735E-04 -1.60011332518E-03 +6.01370263398E-01 +6.89436317536E-01
2.53000000000E+09 +6.19970638728E-01 +6.12071969352E-01 -7.24727822516E-04 -1.53088420384E-03 -7.20880423970E-04 -1.57041237879E-03 +6.07615241184E-01 +6.82274524715E-01
2.53500000000E+09 +6.24773589877E-01 +6.03939574832E-01 -8.17908294519E-04 -1.51185812644E-03 -8.15669439968E-04 -1.55825785461E-03 +6.13469791555E-01 +6.75537646115E-01
2.54000000000E+09 +6.28954031130E-01 +5.96192565941E-01 -9.73840765077E-04 -1.53918416662E-03 -9.11517659968E-04 -1.55567421716E-03 +6.19220096535E-01 +6.69062888794E-01
2.54500000000E+09 +6.33203815910E-01 +5.88967505138E-01 -1.22645552612E-03 -1.55808435206E-03 -1.15303564434E-03 -1.61857588389E-03 +6.24719123026E-01 +6.62831863028E-01
2.55000000000E+09 +6.38025102257E-01 +5.81826339111E-01 -1.47485957666E-03 -1.32362985554E-03 -1.45128882886E-03 -1.56576976275E-03 +6.29854463779E-01 +6.56402318863E-01
2.55500000000E+09 +6.43692414328E-01 +5.74260478598E-01 -1.57808550406E-03 -1.15840591190E-03 -1.82940118345E-03 -1.32956239130E-03 +6.35272304333E-01 +6.49990646155E-01
2.56000000000E+09 +6.50158951689E-01 +5.66511868185E-01 -1.49672645239E-03 -9.05064285318E-04 -1.94968430819E-03 -9.45981267491E-04 +6.40636928687E-01 +6.42618896041E-01
2.56500000000E+09 +6.57190725806E-01 +5.57673549779E-01 -1.53145438442E-03 -9.39191708775E-04 -1.89662526715E-03 -7.78780774436E-04 +6.46349595331E-01 +6.34981821859E-01
2.57000000000E+09 +6.64238598411E-01 +5.48507626780E-01 -1.71266332131E-03 -9.48724894554E-04 -1.85915232148E-03 -5.52670689624E-04 +6.51852709478E-01 +6.27566434126E-01
2.57500000000E+09 +6.71392724004E-01 +5.38727363004E-01 -1.93264146783E-03 -8.40550988157E-04 -1.80459841488E-03 -4.20416091831E-04 +6.57107839174E-01 +6.20216857068E-01
2.58000000000E+09 +6.77590928386E-01 +5.28895786006E-01 -2.18819402769E-03 -5.21080447714E-04 -1.83771222369E-03 -3.11795283123E-04 +6.61904500532E-01 +6.12791736601E-01
2.58500000000E+09 +6.83352534745E-01 +5.19079123997E-01 -2.08372118862E-03 -1.04425724429E-04 -1.81127330526E-03 -1.66954187072E-04 +6.66689371861E-01 +6.05277895957E-01
2.59000000000E+09 +6.88392202189E-01 +5.09576579545E-01 -1.85565032479E-03 +4.56613691977E-06 -1.73136486286E-03 -1.60075826014E-04 +6.71744449759E-01 +5.97459554620E-01
2.59500000000E+09 +6.93133106684E-01 +4.99867106632E-01 -1.98424422341E-03 -1.79553760971E-04 -1.94308009820E-03 -2.17687567542E-04 +6.76726094172E-01 +5.88895521252E-01
2.60000000000E+09 +6.96846387190E-01 +4.90308930962E-01 -2.18352556819E-03 -2.81313579761E-05 -2.22425758977E-03 -1.15247629785E-04 +6.81970226040E-01 +5.80439057556E-01
2.60500000000E+09 +7.00890843009E-01 +4.80509587408E-01 -2.46961156981E-03 +2.57822805909E-04 -2.44264824678E-03 +2.28097542293E-04 +6.87154739049E-01 +5.71934124834E-01
2.61000000000E+09 +7.05260471044E-01 +4.70372977105E-01 -2.60360205104E-03 +6.50294179108E-04 -2.54888553516E-03 +6.06624975600E-04 +6.92010032588E-01 +5.63321175903E-01
2.61500000000E+09 +7.10054578019E-01 +4.59366857660E-01 -2.31117211105E-03 +1.22439667810E-03 -2.37471344249E-03 +1.15416625731E-03 +6.96239356546E-01 +5.55045852371E-01
2.62000000000E+09 +7.14847637999E-01 +4.47123736663E-01 -1.92574371336E-03 +1.21610501380E-03 -2.02052950689E-03 +1.30889567289E-03 +7.01053303797E-01 +5.46179498696E-01
2.62500000000E+09 +7.19768579797E-01 +4.33845617880E-01 -1.97004264498E-03 +1.09880620542E-03 -1.95870945019E-03 +1.34735609310E-03 +7.06190434075E-01 +5.36971941603E-01
2.63000000000E+09 +7.24127313741E-01 +4.20125894400E-01 -2.01603022200E-03 +1.34838743679E-03 -1.80683868658E-03 +1.58729813804E-03 +7.11085272312E-01 +5.27674084301E-01
2.63500000000E+09 +7.28010343927E-01 +4.05996496760E-01 -2.08326153105E-03 +1.52592641225E-03 -1.70607544874E-03 +1.57732883422E-03 +7.16137866063E-01 +5.18269223414E-01
2.64000000000E+09 +7.31449221143E-01 +3.92228583191E-01 -2.05771902432E-03 +1.99149923795E-03 -1.73532691471E-03 +1.74611459570E-03 +7.20978836455E-01 +5.08840246324E-01
2.64500000000E+09 +7.34447504478E-01 +3.79061987485E-01 -1.64319123691E-03 +2.44338298326E-03 -1.60030764286E-03 +2.02880869006E-03 +7.25661931739E-01 +4.99522469964E-01
2.65000000000E+09 +7.37038073155E-01 +3.66630282456E-01 -1.27125438467E-03 +2.38725523366E-03 -1.50589288664E-03 +2.14735286776E-03 +7.29938027580E-01 +4.89912604298E-01
2.65500000000E+09 +7.39532167241E-01 +3.54306070701E-01 -1.13434186767E-03 +2.32127302216E-03 -1.41201825854E-03 +2.27779217046E-03 +7.34064239053E-01 +4.79306295695E-01
2.66000000000E+09 +7.42399136533E-01 +3.42504092916E-01 -1.15872776596E-03 +2.49080691119E-03 -1.25904769169E-03 +2.71383963179E-03 +7.38031301942E-01 +4.68164735447E-01
2.66500000000E+09 +7.45521010060E-01 +3.30453967814E-01 -9.24992003123E-04 +2.73899823307E-03 -7.77710690733E-04 +2.93443198102E-03 +7.42748104098E-01 +4.56793159829E-01
2.67000000000E+09 +7.48245126951E-01 +3.17247593541E-01 -5.64076601385E-04 +2.93596389637E-03 -3.43047764164E-04 +2.85808280383E-03 +7.47452449583E-01 +4.45683561922E-01
2.67500000000E+09 +7.50343812533E-01 +3.03221636941E-01 -2.75949482872E-04 +2.87417587206E-03 -1.65547946330E-04 +2.66108744037E-03 +7.51750800624E-01 +4.34487283051E-01
2.68000000000E+09 +7.52016841255E-01 +2.88562451542E-01 -7.75279144921E-05 +2.82571602952E-03 -1.53500468385E-04 +2.66032082129E-03 +7.55552736614E-01 +4.23735659587E-01
2.68500000000E+09 +7.53116797072E-01 +2.73274612286E-01 -1.49820270243E-04 +2.84747830921E-03 -1.78578317673E-04 +2.87717175965E-03 +7.58771737943E-01 +4.12147702738E-01
2.69000000000E+09 +7.53322493309E-01 +2.57738275404E-01 +1.37296389568E-04 +3.23361096723E-03 +8.49068023171E-05 +3.22340761117E-03 +7.61329523816E-01 +4.00012760458E-01
2.69500000000E+09 +7.53358011821E-01 +2.42238469160E-01 +6.65683902577E-04 +3.40576989260E-03 +7.26721050902E-04 +3.34004040643E-03 +7.64319142302E-01 +3.86868428830E-01
2.70000000000E+09 +7.53320749149E-01 +2.26698575265E-01 +1.18055692641E-03 +3.40980337130E-03 +1.10947412614E-03 +3.28047014952E-03 +7.67557318057E-01 +3.73182164271E-01
2.70500000000E+09 +7.52963583018E-01 +2.11790111609E-01 +1.60620378773E-03 +2.96318894998E-03 +1.44705891943E-03 +2.95739344874E-03 +7.70729353017E-01 +3.59193108540E-01
2.71000000000E+09 +7.52983932318E-01 +1.97256395682E-01 +1.69228335105E-03 +2.71106281160E-03 +1.59918986222E-03 +2.84344502990E-03 +7.73195189943E-01 +3.46204777533E-01
2.71500000000E+09 +7.53543346480E-01 +1.82472522860E-01 +1.66408594424E-03 +2.61909776022E-03 +1.72474325013E-03 +2.81483356467E-03 +7.75942031871E-01 +3.33791243698E-01
2.72000000000E+09 +7.54120214493E-01 +1.67343691823E-01 +1.78659460163E-03 +2.80688009637E-03 +2.05661685251E-03 +2.84232030745E-03 +7.78272897734E-01 +3.20719691608E-01
2.72500000000E+09 +7.54485542839E-01 +1.51740123780E-01 +2.26366556057E-03 +2.79204528810E-03 +2.54690478171E-03 +2.53030304853E-03 +7.79383530949E-01 +3.06414122860E-01
2.73000000000E+09 +7.54170958183E-01 +1.35471869655E-01 +2.37663514237E-03 +2.69805370349E-03 +2.35618863710E-03 +2.23595714489E-03 +7.80397006654E-01 +2.91703393279E-01
2.73500000000E+09 +7.53010704548E-01 +1.18230045491E-01 +2.76332749338E-03 +2.96542504561E-03 +2.38184010991E-03 +2.51631528759E-03 +7.81115276770E-01 +2.76561897356E-01
2.74000000000E+09 +7.50626453682E-01 +1.00856971353E-01 +3.73207697866E-03 +2.73478464739E-03 +3.07363444964E-03 +2.70036902341E-03 +7.82619511759E-01 +2.61810347146E-01
2.74500000000E+09 +7.46846828152E-01 +8.29898869243E-02 +4.04693305732E-03 +2.01318007496E-03 +3.56920393046E-03 +2.37088968913E-03 +7.83710001141E-01 +2.46339841447E-01
2.75000000000E+09 +7.41598576464E-01 +6.52002906289E-02 +4.12893495400E-03 +1.61455687385E-03 +4.09740456622E-03 +2.13254052116E-03 +7.84021156093E-01 +2.31187749451E-01
2.75500000000E+09 +7.35514334887E-01 +4.78205791742E-02 +4.21102428215E-03 +1.31366765463E-03 +4.40842998425E-03 +1.63883858671E-03 +7.83123132931E-01 +2.16068408848E-01
2.76000000000E+09 +7.29533838611E-01 +3.07474090344E-02 +4.31326745352E-03 +1.24241964481E-03 +4.57963824823E-03 +1.38848605452E-03 +7.82315578717E-01 +2.00785181295E-01
2.76500000000E+09 +7.23740667678E-01 +1.36694547622E-02 +4.84656317557E-03 +1.14013753401E-03 +5.14600618689E-03 +1.16037931941E-03 +7.81315747802E-01 +1.83581548972E-01
2.77000000000E+09 +7.18564917716E-01 -4.05955810532E-03 +5.62887316691E-03 +4.54122698043E-04 +5.86180862568E-03 +3.78844538708E-04 +7.80362011462E-01 +1.65880939419E-01
2.77500000000E+09 +7.13752980223E-01 -2.29805342297E-02 +5.74681253592E-03 -6.48281408464E-04 +5.96626871275E-03 -9.43825631149E-04 +7.78312959982E-01 +1.47594892595E-01
2.78000000000E+09 +7.08990382007E-01 -4.27067162004E-02 +5.37968572846E-03 -1.21410813253E-03 +5.45146578984E-03 -1.56655714991E-03 +7.75938708407E-01 +1.30181352153E-01
2.78500000000E+09 +7.03607589694E-01 -6.34605601433E-02 +5.38868174631E-03 -1.65231206520E-03 +5.21809352139E-03 -1.96361078469E-03 +7.73561250562E-01 +1.13104433047E-01
2.79000000000E+09 +6.97368070299E-01 -8.50789401868E-02 +5.43933402673E-03 -2.26311731984E-03 +5.08925403575E-03 -2.41577874819E-03 +7.70165354211E-01 +9.55274541040E-02
2.79500000000E+09 +6.89654921147E-01 -1.06268033368E-01 +5.29018105665E-03 -2.75907241886E-03 +4.96207239563E-03 -2.66472770825E-03 +7.65773371710E-01 +7.73183512418E-02
2.80000000000E+09 +6.80330917660E-01 -1.26825318304E-01 +5.49740982420E-03 -3.55674636249E-03 +5.34560171123E-03 -3.20098463989E-03 +7.60559335004E-01 +5.80558522001E-02
2.80500000000E+09 +6.70462132862E-01 -1.46234653589E-01 +4.97269835940E-03 -4.78476840637E-03 +5.18209713538E-03 -4.49628699299E-03 +7.54624156754E-01 +3.92180601860E-02
2.81000000000E+09 +6.59347931825E-01 -1.64579111532E-01 +4.01356953966E-03 -4.97367220525E-03 +4.19981966229E-03 -5.03216889595E-03 +7.48906851472E-01 +2.00218937709E-02
2.81500000000E+09 +6.47489551468E-01 -1.82230235617E-01 +3.99327223730E-03 -5.19722753708E-03 +3.93251968619E-03 -5.46436690057E-03 +7.41826565997E-01 +5.42600733937E-04
2.82000000000E+09 +6.34529394587E-01 -1.99682037447E-01 +3.85418942896E-03 -6.04959903736E-03 +3.48270742004E-03 -6.20970098971E-03 +7.33949544119E-01 -1.89441348979E-02
2.82500000000E+09 +6.20650445202E-01 -2.17129945108E-01 +2.86915723713E-03 -6.89787740455E-03 +2.57314511451E-03 -6.67127759587E-03 +7.24407669561E-01 -3.86961830075E-02
2.83000000000E+09 +6.04704868243E-01 -2.35222187096E-01 +2.11752676685E-03 -7.23953692080E-03 +2.01789064300E-03 -6.87536462091E-03 +7.14045846299E-01 -5.85926263314E-02
2.83500000000E+09 +5.87841702183E-01 -2.53211777373E-01 +1.02678031144E-03 -7.37353072186E-03 +1.15291242197E-03 -7.10688247471E-03 +7.03474849272E-01 -7.83705505293E-02
2.84000000000E+09 +5.69074247323E-01 -2.71850945838E-01 +4.89138014375E-04 -6.96245532316E-03 +7.40318217186E-04 -6.92246385081E-03 +6.92719210236E-01 -9.91170513671E-02
2.84500000000E+09 +5.48429526519E-01 -2.90921630654E-01 +7.63851154848E-04 -7.48453964130E-03 +9.03572243666E-04 -7.49882976696E-03 +6.80586908408E-01 -1.20024900830E-01
2.85000000000E+09 +5.26220902738E-01 -3.09575205713E-01 -4.90492273191E-05 -8.82504063281E-03 -9.39746573290E-05 -8.83509760103E-03 +6.66655534331E-01 -1.40633517695E-01
2.85500000000E+09 +5.02918583941E-01 -3.27591131814E-01 -2.02638660121E-03 -9.46033249847E-03 -2.05854487868E-03 -9.37225725146E-03 +6.51271399202E-01 -1.60152617956E-01
2.86000000000E+09 +4.78622610648E-01 -3.45283525643E-01 -3.79200863380E-03 -9.03199168632E-03 -3.69944786630E-03 -8.98155390353E-03 +6.35591984105E-01 -1.80102866141E-01
2.86500000000E+09 +4.53847501054E-01 -3.61430232912E-01 -5.55679616186E-03 -8.24848360714E-03 -5.47366512043E-03 -8.20878022220E-03 +6.18339401774E-01 -2.01202182671E-01
2.87000000000E+09 +4.28549132400E-01 -3.76860080474E-01 -6.29588635906E-03 -6.56590129929E-03 -6.38325547048E-03 -6.61305496136E-03 +5.98641870987E-01 -2.22419305217E-01
2.87500000000E+09 +4.02801049571E-01 -3.90779109878E-01 -5.96810257742E-03 -5.96145281086E-03 -6.10526452155E-03 -5.77064410428E-03 +5.78300490161E-01 -2.41701398846E-01
2.88000000000E+09 +3.76986676563E-01 -4.03501285981E-01 -6.47953521070E-03 -6.35743053113E-03 -6.51177769864E-03 -5.91804727262E-03 +5.57311506063E-01 -2.60925317135E-01
2.88500000000E+09 +3.50596313527E-01 -4.15288158103E-01 -8.30395804007E-03 -5.70184989088E-03 -7.94662065605E-03 -5.19854775559E-03 +5.34528347856E-01 -2.78953680963E-01
2.89000000000E+09 +3.23190810490E-01 -4.26195807692E-01 -8.80773599233E-03 -4.07815717376E-03 -8.19106418801E-03 -4.09543509173E-03 +5.09795368631E-01 -2.97391873092E-01
2.89500000000E+09 +2.94432781739E-01 -4.36044376895E-01 -9.10110612528E-03 -3.38255255547E-03 -8.61394962127E-03 -3.63393578310E-03 +4.81472516530E-01 -3.15093736205E-01
2.90000000000E+09 +2.63804678267E-01 -4.44977122462E-01 -9.83429733732E-03 -2.28658599234E-03 -9.78033361911E-03 -2.66188747587E-03 +4.51507584209E-01 -3.30340475394E-01
2.90500000000E+09 +2.30180619433E-01 -4.51807088419E-01 -9.82740662060E-03 -1.08419316088E-03 -9.94028266362E-03 -1.15274344347E-03 +4.22501604468E-01 -3.45355985178E-01
2.91000000000E+09 +1.95434702110E-01 -4.55160901101E-01 -1.02141606496E-02 -3.75840836870E-04 -1.01170757816E-02 -8.32535942527E-05 +3.91262940377E-01 -3.60426136326E-01
2.91500000000E+09 +1.60259876826E-01 -4.56196958012E-01 -1.07268268370E-02 +1.27704919998E-03 -1.01841979129E-02 +1.52054194676E-03 +3.58246974952E-01 -3.72282704080E-01
2.92000000000E+09 +1.24879167673E-01 -4.54948895201E-01 -9.82375739529E-03 +2.95572593784E-03 -9.24149662089E-03 +2.67596676945E-03 +3.24096809978E-01 -3.81489913207E-01
2.92500000000E+09 +9.00435037380E-02 -4.51694760303E-01 -9.19318732480E-03 +3.05218617585E-03 -8.84050464444E-03 +2.50071321289E-03 +2.88547677314E-01 -3.87921133331E-01
2.93000000000E+09 +5.56766573001E-02 -4.47441005519E-01 -9.78818476853E-03 +3.92536935594E-03 -9.81084554576E-03 +3.33459837587E-03 +2.52815691820E-01 -3.93405700455E-01
2.93500000000E+09 +2.07764534958E-02 -4.42051709984E-01 -9.54048571873E-03 +5.45101037313E-03 -9.80486715512E-03 +5.10989508742E-03 +2.15277867102E-01 -3.98741837024E-01
2.94000000000E+09 -1.40251350879E-02 -4.34417765099E-01 -9.10036874159E-03 +6.66942984280E-03 -9.32203552892E-03 +6.51329500242E-03 +1.75307130852E-01 -4.02478224928E-01
2.94500000000E+09 -4.87408059839E-02 -4.25323143930E-01 -8.32577553566E-03 +8.51682274916E-03 -8.48142418051E-03 +8.30968742351E-03 +1.34506889413E-01 -4.02093994484E-01
2.95000000000E+09 -8.41512152212E-02 -4.12054719702E-01 -6.54550264035E-03 +9.36355326891E-03 -6.90062843476E-03 +9.10637597429E-03 +9.46528048386E-02 -3.97161770798E-01
2.95500000000E+09 -1.17719576467E-01 -3.95365731318E-01 -5.46759230946E-03 +9.48170894982E-03 -5.96918109047E-03 +9.53188668034E-03 +5.69445781014E-02 -3.90652647569E-01
2.96000000000E+09 -1.49017903990E-01 -3.76270730708E-01 -4.98685806751E-03 +9.98008886113E-03 -5.36547824104E-03 +1.04418053020E-02 +1.68139465460E-02 -3.82412246388E-01
2.96500000000E+09 -1.79872755410E-01 -3.55290742563E-01 -4.09741247350E-03 +1.09721980345E-02 -3.93894669612E-03 +1.14703130427E-02 -2.40708269991E-02 -3.70568133356E-01
2.97000000000E+09 -2.09690173564E-01 -3.30905913324E-01 -2.66673419910E-03 +1.17828657650E-02 -2.27925213533E-03 +1.18688593382E-02 -6.46393375027E-02 -3.56256347007E-01
2.97500000000E+09 -2.37532516447E-01 -3.04795698052E-01 -1.34502444501E-03 +1.24941555610E-02 -1.13716204226E-03 +1.21051775561E-02 -1.04286654415E-01 -3.39172675335E-01
2.98000000000E+09 -2.65190757942E-01 -2.76795764768E-01 +1.11573279393E-03 +1.24922856259E-02 +7.16983057694E-04 +1.21519786816E-02 -1.43026234478E-01 -3.19427574190E-01
2.98500000000E+09 -2.91717504635E-01 -2.46383304032E-01 +2.20157226344E-03 +1.14647834745E-02 +1.69289447782E-03 +1.17488872939E-02 -1.80348771817E-01 -2.95794707826E-01
2.99000000000E+09 -3.16362200835E-01 -2.14368947168E-01 +2.61100610288E-03 +1.15230085858E-02 +2.60059255166E-03 +1.21155039060E-02 -2.15956022414E-01 -2.68660339786E-01
2.99500000000E+09 -3.39615545431E-01 -1.81061498876E-01 +4.10530887865E-03 +1.23925734387E-02 +4.65773649288E-03 +1.28203666326E-02 -2.49541650895E-01 -2.38926531780E-01
3.00000000000E+09 -3.59561111580E-01 -1.46994058756E-01 +6.90876136261E-03 +1.17792522774E-02 +7.52884334285E-03 +1.14354804551E-02 -2.80778391802E-01 -2.06527732797E-01
3.00500000000E+09 -3.77709341142E-01 -1.13871155769E-01 +8.08045513691E-03 +1.01923927186E-02 +8.20808945593E-03 +9.54466640804E-03 -3.09410517756E-01 -1.73075620061E-01
3.01000000000E+09 -3.94134962934E-01 -8.04718655477E-02 +9.21655395272E-03 +9.09416365869E-03 +8.78986267308E-03 +8.65849682743E-03 -3.36102616191E-01 -1.38096747288E-01
3.01500000000E+09 -4.08189402839E-01 -4.64551654125E-02 +1.02101071019E-02 +8.12012872798E-03 +9.75970795428E-03 +8.18682337350E-03 -3.60108916340E-01 -1.01539765337E-01
3.02000000000E+09 -4.18897294521E-01 -1.16713700507E-02 +1.12337261522E-02 +6.90550241143E-03 +1.11035253221E-02 +7.14480265018E-03 -3.80653609424E-01 -6.14466562630E-02
3.02500000000E+09 -4.26375074478E-01 +2.30467635429E-02 +1.20539194846E-02 +5.59363717975E-03 +1.19636577173E-02 +5.70317362981E-03 -3.96283348037E-01 -2.09314755904E-02
3.03000000000E+09 -4.30448502811E-01 +5.84375044075E-02 +1.28986417463E-02 +4.02465335733E-03 +1.27227437389E-02 +4.10978450109E-03 -4.09360447421E-01 +1.96177835074E-02
3.03500000000E+09 -4.30684729376E-01 +9.39455302239E-02 +1.35406194735E-02 +2.41721612981E-03 +1.33584624052E-02 +2.72229584192E-03 -4.20074450526E-01 +5.96287067183E-02
3.04000000000E+09 -4.28101557504E-01 +1.28018320952E-01 +1.39389744536E-02 +1.69734429543E-04 +1.42895956113E-02 +6.95802141710E-04 -4.28876421733E-01 +1.00435789261E-01
3.04500000000E+09 -4.23977729071E-01 +1.62210536658E-01 +1.35311343668E-02 -1.91181913983E-03 +1.43579387699E-02 -1.79947023242E-03 -4.33797461305E-01 +1.41697180725E-01
3.05000000000E+09 -4.17684511120E-01 +1.96561171260E-01 +1.27278736830E-02 -3.53561290974E-03 +1.33480355179E-02 -4.33469239824E-03 -4.34488778400E-01 +1.81737708819E-01
3.05500000000E+09 -4.09590588572E-01 +2.30378039385E-01 +1.18310231010E-02 -4.81472958976E-03 +1.16636773256E-02 -5.70720115090E-03 -4.33626523170E-01 +2.19617792336E-01
3.06000000000E+09 -3.99859938019E-01 +2.64030738837E-01 +1.15368911240E-02 -6.05106138322E-03 +1.06602142572E-02 -6.40539935449E-03 -4.31666375787E-01 +2.58333737107E-01
3.06500000000E+09 -3.87693859956E-01 +2.96613664695E-01 +1.07702747147E-02 -8.03376286675E-03 +1.00480440968E-02 -7.51150130282E-03 -4.26329688280E-01 +2.96209581188E-01
3.07000000000E+09 -3.74349036397E-01 +3.26238565221E-01 +8.85795635005E-03 -9.64580381750E-03 +9.07934307700E-03 -8.78149865565E-03 -4.18989397325E-01 +3.32455785156E-01
