# Hz S RI R 50
! CMT, C1220, 16058040, 17.2.0/1
! Date: 15/08/2018 09:50:17
! Data: Format (Calibration Info)
! Freq                      S11: Re/Im (F2)                       S21: Re/Im (F2)                       S12: Re/Im (F2)                       S22: Re/Im (F2)            
2.50000000000E+09 +5.76144301225E-01 +6.70459775128E-01 +1.80364568380E-04 -1.49776594379E-03 +2.40453009834E-04 -1.59280898318E-03 +5.75223378078E-01 +7.17523636670E-01
2.50500000000E+09 +5.82883099417E-01 +6.62904059533E-01 +8.81217183733E-05 -1.59152977921E-03 -1.87506322369E-06 -1.63659517264E-03 +5.80672763034E-01 +7.12100778192E-01
2.51000000000E+09 +5.90038539227E-01 +6.54939083243E-01 -1.41824083091E-04 -1.72638747232E-03 -1.80254334252E-04 -1.65634980622E-03 +5.86022623339E-01 +7.06861699976E-01
2.51500000000E+09 +5.97262282258E-01 +6.46854172107E-01 -2.78382943606E-04 -1.67983474154E-03 -3.26765762651E-04 -1.62522433989E-03 +5.91254383843E-01 +7.01430233242E-01
2.52000000000E+09 +6.04203743611E-01 +6.38224016000E-01 -5.49375826244E-04 -1.64754964216E-03 -4.77094465861E-04 -1.64182285981E-03 +5.96584591512E-01 +6.95300195972E-01
2.52500000000E+09 +6.10185212163E-01 +6.29652577048E-01 -7.06442353006E-04 -1.58976801801E-03 -6.29933616375E-04 -1.61982163761E-03 +6.02393031741E-01 +6.88673570477E-01
2.53000000000E+09 +6.15917340331E-01 +6.21423439583E-01 -8.71705741811E-04 -1.53387836678E-03 -8.56327616266E-04 -1.60218514935E-03 +6.08637211250E-01 +6.81676094178E-01
2.53500000000E+09 +6.21032139346E-01 +6.13308619975E-01 -1.03320635167E-03 -1.43958344066E-03 -9.97635297198E-04 -1.42757852970E-03 +6.14572902452E-01 +6.75062676315E-01
2.54000000000E+09 +6.25687613087E-01 +6.05299337113E-01 -1.13872615623E-03 -1.31941070202E-03 -1.08716129632E-03 -1.34039131239E-03 +6.20339870400E-01 +6.68599864912E-01
2.54500000000E+09 +6.30199158062E-01 +5.97967745215E-01 -1.28864078714E-03 -1.30070074361E-03 -1.22698545360E-03 -1.40853511613E-03 +6.25755675177E-01 +6.62293473144E-01
2.55000000000E+09 +6.35047741322E-01 +5.90713111528E-01 -1.44918107175E-03 -1.08608871739E-03 -1.51477782278E-03 -1.34852424548E-03 +6.30987916456E-01 +6.55858755454E-01
2.55500000000E+09 +6.40579833509E-01 +5.82844353776E-01 -1.56141239746E-03 -9.95347623805E-04 -1.77033193436E-03 -1.21040330421E-03 +6.36394576298E-01 +6.49286456475E-01
2.56000000000E+09 +6.46933594445E-01 +5.75126167269E-01 -1.56790919059E-03 -7.44754685365E-04 -1.93434665484E-03 -7.49217310453E-04 +6.41957434569E-01 +6.41856105693E-01
2.56500000000E+09 +6.53720731866E-01 +5.66296036767E-01 -1.54494568753E-03 -7.16071098775E-04 -1.81223460148E-03 -4.26143632253E-04 +6.47617398543E-01 +6.34279559055E-01
2.57000000000E+09 +6.60655781236E-01 +5.57341818439E-01 -1.66274811344E-03 -6.23721061841E-04 -1.72641602048E-03 -3.03835541225E-04 +6.53087840690E-01 +6.26731501573E-01
2.57500000000E+09 +6.67807345633E-01 +5.47782824011E-01 -1.71345754368E-03 -5.42327495334E-04 -1.60503274036E-03 -2.14888250204E-04 +6.58379916446E-01 +6.19414604148E-01
2.58000000000E+09 +6.74169825589E-01 +5.37974894229E-01 -1.96978028266E-03 -4.08150546732E-04 -1.69317850616E-03 -2.40222113369E-04 +6.63123060662E-01 +6.12072312826E-01
2.58500000000E+09 +6.80153813728E-01 +5.27927218513E-01 -1.90654011694E-03 +8.14378748324E-06 -1.68243162705E-03 -7.19600666528E-05 +6.67834830980E-01 +6.04443328922E-01
2.59000000000E+09 +6.85503690395E-01 +5.18335888792E-01 -1.61079048144E-03 +2.03179101550E-05 -1.58443394155E-03 -8.69911194284E-05 +6.72837455937E-01 +5.96477394827E-01
2.59500000000E+09 +6.90211290844E-01 +5.08574410795E-01 -1.71853513619E-03 -1.25553060086E-04 -1.74510844735E-03 -2.30142913604E-04 +6.77992583040E-01 +5.87903660925E-01
2.60000000000E+09 +6.94192525720E-01 +4.99045079178E-01 -1.98379987911E-03 -9.51368739463E-05 -2.02037100737E-03 -3.30196295703E-05 +6.82951517343E-01 +5.79211448741E-01
2.60500000000E+09 +6.98554497987E-01 +4.89406306708E-01 -2.21841097375E-03 +1.36710781753E-04 -2.18569054727E-03 +1.11624588928E-04 +6.88159053964E-01 +5.70838220707E-01
2.61000000000E+09 +7.02749088618E-01 +4.79297252656E-01 -2.54258882119E-03 +5.39761224736E-04 -2.49767581146E-03 +4.79825481383E-04 +6.93069072490E-01 +5.62287767630E-01
2.61500000000E+09 +7.07427741083E-01 +4.68646219940E-01 -2.29839639054E-03 +1.18568586851E-03 -2.31947593395E-03 +1.06963372351E-03 +6.97315124776E-01 +5.54060161011E-01
2.62000000000E+09 +7.12151219313E-01 +4.56944581904E-01 -1.87970898323E-03 +1.25602152201E-03 -1.96980937836E-03 +1.34397520795E-03 +7.01991223568E-01 +5.45375761530E-01
2.62500000000E+09 +7.16929269453E-01 +4.44175550243E-01 -1.84488499205E-03 +1.04266516447E-03 -1.83416538340E-03 +1.28345147618E-03 +7.06914048710E-01 +5.36055936519E-01
2.63000000000E+09 +7.21276582935E-01 +4.30829518565E-01 -1.92607964464E-03 +1.31282602343E-03 -1.72066406209E-03 +1.49143015162E-03 +7.11753817314E-01 +5.26628134130E-01
2.63500000000E+09 +7.25237697518E-01 +4.17248969808E-01 -1.95672087473E-03 +1.43289097011E-03 -1.66649202384E-03 +1.45262615650E-03 +7.16886005305E-01 +5.17276939125E-01
2.64000000000E+09 +7.28683111077E-01 +4.03680055195E-01 -2.13618929761E-03 +1.87486767512E-03 -1.80311918774E-03 +1.64793223006E-03 +7.21933754818E-01 +5.07866782484E-01
2.64500000000E+09 +7.31793651945E-01 +3.90655331955E-01 -1.75545979238E-03 +2.53009908043E-03 -1.68669164091E-03 +2.10271446013E-03 +7.26422952009E-01 +4.98386784884E-01
2.65000000000E+09 +7.34362875362E-01 +3.78241860715E-01 -1.13305950130E-03 +2.47176824822E-03 -1.39107870799E-03 +2.21316604288E-03 +7.30727411262E-01 +4.88975947360E-01
2.65500000000E+09 +7.37044607800E-01 +3.66045673262E-01 -9.70082019524E-04 +2.32976191108E-03 -1.27493547090E-03 +2.36406634655E-03 +7.34771825817E-01 +4.78460939801E-01
2.66000000000E+09 +7.39867020204E-01 +3.54256058512E-01 -1.04309010558E-03 +2.52481252870E-03 -1.16233720742E-03 +2.67239197245E-03 +7.38770834012E-01 +4.67356521997E-01
2.66500000000E+09 +7.42838856835E-01 +3.42143502745E-01 -8.03729503952E-04 +2.80878082533E-03 -6.53437666160E-04 +2.96564816790E-03 +7.43556241440E-01 +4.55884539260E-01
2.67000000000E+09 +7.45470616807E-01 +3.29144580109E-01 -2.81577667364E-04 +2.92614291607E-03 -8.80402981987E-05 +2.85716780117E-03 +7.48196080545E-01 +4.44616196758E-01
2.67500000000E+09 +7.47732234110E-01 +3.15703850712E-01 -1.59060551496E-05 +2.70090839884E-03 +4.57856684899E-05 +2.59852909018E-03 +7.52267519925E-01 +4.33210070747E-01
2.68000000000E+09 +7.49486298972E-01 +3.01153655980E-01 +2.33663441983E-05 +2.63112646530E-03 -3.78184520630E-05 +2.45159941154E-03 +7.55949324287E-01 +4.22445865456E-01
2.68500000000E+09 +7.50807207678E-01 +2.85953929364E-01 -7.15657053690E-05 +2.74621102585E-03 -1.77420399089E-04 +2.63186731809E-03 +7.59202440666E-01 +4.10957455143E-01
2.69000000000E+09 +7.51335260691E-01 +2.70443937817E-01 +1.00705542388E-04 +3.13164372487E-03 +9.29893823677E-05 +3.16862845745E-03 +7.61642849272E-01 +3.98925468538E-01
2.69500000000E+09 +7.51589155546E-01 +2.55143977552E-01 +7.87438026543E-04 +3.26011794728E-03 +8.31585958817E-04 +3.26742454713E-03 +7.64603760690E-01 +3.86117508123E-01
2.70000000000E+09 +7.51876517347E-01 +2.39511539792E-01 +1.26075465809E-03 +3.12951449378E-03 +1.19865121058E-03 +3.00191189459E-03 +7.67661476809E-01 +3.72564142664E-01
2.70500000000E+09 +7.51743252801E-01 +2.24421789162E-01 +1.51917482585E-03 +2.62724282586E-03 +1.44173041950E-03 +2.60408655192E-03 +7.70730879820E-01 +3.58792947130E-01
2.71000000000E+09 +7.52080091649E-01 +2.09587338471E-01 +1.46561853093E-03 +2.43603846153E-03 +1.37411210409E-03 +2.54003766683E-03 +7.73378856667E-01 +3.45867198038E-01
2.71500000000E+09 +7.52772212339E-01 +1.94519295976E-01 +1.26284206931E-03 +2.51853815976E-03 +1.36958778002E-03 +2.69917075094E-03 +7.76166258471E-01 +3.33450124300E-01
2.72000000000E+09 +7.53342028286E-01 +1.79508559710E-01 +1.51117937917E-03 +2.95872638026E-03 +1.80683764667E-03 +3.08652607538E-03 +7.78337747444E-01 +3.20432008133E-01
2.72500000000E+09 +7.53988945732E-01 +1.64111717385E-01 +2.13942394885E-03 +2.94118329474E-03 +2.43728997383E-03 +2.65195605196E-03 +7.79473119271E-01 +3.06533600967E-01
2.73000000000E+09 +7.54051979537E-01 +1.48135702415E-01 +2.33496503679E-03 +2.77915690143E-03 +2.33973913803E-03 +2.35490895799E-03 +7.80872239688E-01 +2.91992456938E-01
2.73500000000E+09 +7.53069401077E-01 +1.31262156196E-01 +2.73159058829E-03 +3.00187348740E-03 +2.43301046744E-03 +2.55188130811E-03 +7.81749789265E-01 +2.76848962322E-01
2.74000000000E+09 +7.50945281699E-01 +1.14190956394E-01 +3.60473391962E-03 +2.79988758748E-03 +3.00005558331E-03 +2.76892530103E-03 +7.83456221491E-01 +2.62068229447E-01
2.74500000000E+09 +7.47410860399E-01 +9.65652583502E-02 +3.93935382566E-03 +2.15009095103E-03 +3.49177426029E-03 +2.49042647850E-03 +7.84691969166E-01 +2.46662986473E-01
2.75000000000E+09 +7.42613188397E-01 +7.93923871869E-02 +4.16020116723E-03 +1.82226474778E-03 +4.05213756858E-03 +2.31233746716E-03 +7.85054872943E-01 +2.31415222453E-01
2.75500000000E+09 +7.37238496926E-01 +6.19032002379E-02 +4.27907449929E-03 +1.52349245459E-03 +4.49367661616E-03 +1.87099562375E-03 +7.84174778575E-01 +2.16100661933E-01
2.76000000000E+09 +7.31434899453E-01 +4.45573700971E-02 +4.51996639339E-03 +1.42451427896E-03 +4.77905150750E-03 +1.53421889817E-03 +7.83547096904E-01 +2.00609251033E-01
2.76500000000E+09 +7.25655577533E-01 +2.73638081942E-02 +5.16785109159E-03 +1.24130173906E-03 +5.39342878416E-03 +1.20901665914E-03 +7.82495992608E-01 +1.83200536985E-01
2.77000000000E+09 +7.20496732071E-01 +9.48995500466E-03 +5.97695843241E-03 +4.87771295891E-04 +6.15068192757E-03 +3.84069765165E-04 +7.81517521789E-01 +1.65407113759E-01
2.77500000000E+09 +7.15675170833E-01 -9.05239446112E-03 +6.15530220192E-03 -7.62393015805E-04 +6.32965667777E-03 -1.03096029508E-03 +7.79576974417E-01 +1.47262180575E-01
2.78000000000E+09 +7.11087875575E-01 -2.84971737134E-02 +5.70171347661E-03 -1.56787468077E-03 +5.79832758690E-03 -1.85885601066E-03 +7.77215147902E-01 +1.29982096548E-01
2.78500000000E+09 +7.06154763320E-01 -4.88236264220E-02 +5.43521690804E-03 -2.07133945915E-03 +5.20419424215E-03 -2.37824231720E-03 +7.74787969989E-01 +1.12749813902E-01
2.79000000000E+09 +7.00592027259E-01 -7.02772961710E-02 +5.34313867726E-03 -2.39525111367E-03 +4.95243727890E-03 -2.51591524339E-03 +7.71077419769E-01 +9.52806712273E-02
2.79500000000E+09 +6.93248647235E-01 -9.13350753819E-02 +5.43368548382E-03 -2.72519737194E-03 +5.09868818338E-03 -2.56976154871E-03 +7.66647394518E-01 +7.69647323483E-02
2.80000000000E+09 +6.84629529996E-01 -1.11447238486E-01 +5.83923667791E-03 -3.76521785286E-03 +5.72897894206E-03 -3.36871653456E-03 +7.61556212642E-01 +5.79276435705E-02
2.80500000000E+09 +6.75542536007E-01 -1.30846400516E-01 +5.28598373295E-03 -5.14232326337E-03 +5.48366267884E-03 -4.85431349774E-03 +7.55879432088E-01 +3.89359950097E-02
2.81000000000E+09 +6.65271997298E-01 -1.49491224130E-01 +4.31888990159E-03 -5.50004217967E-03 +4.51379151163E-03 -5.56239529599E-03 +7.50274227212E-01 +1.94097729232E-02
2.81500000000E+09 +6.53696448030E-01 -1.67451101866E-01 +4.00015385846E-03 -6.01229892939E-03 +3.91712122507E-03 -6.25231740376E-03 +7.43034981284E-01 +4.22873867234E-05
2.82000000000E+09 +6.41168364796E-01 -1.85023984375E-01 +3.40229944987E-03 -6.64814532767E-03 +3.15610170194E-03 -6.72282849019E-03 +7.35139246604E-01 -1.92575917244E-02
2.82500000000E+09 +6.27803604780E-01 -2.02464298907E-01 +2.64553785313E-03 -7.26354006705E-03 +2.26794881561E-03 -7.04884175206E-03 +7.25686261541E-01 -3.90025958791E-02
2.83000000000E+09 +6.12765011671E-01 -2.20899553403E-01 +1.58751903197E-03 -7.74939904313E-03 +1.55141282180E-03 -7.38756530534E-03 +7.15350748723E-01 -5.87736676036E-02
2.83500000000E+09 +5.96700199788E-01 -2.39484291763E-01 +3.08043171782E-04 -7.59532444740E-03 +5.21525699590E-04 -7.35805704074E-03 +7.04650421861E-01 -7.86481467183E-02
2.84000000000E+09 +5.78507237490E-01 -2.58696924822E-01 +8.31453557564E-05 -6.92124824804E-03 +3.16248798747E-04 -6.91671454506E-03 +6.94237326835E-01 -9.93886572574E-02
2.84500000000E+09 +5.58568482506E-01 -2.77922741107E-01 +4.30734228751E-04 -7.67458498892E-03 +4.92500183754E-04 -7.82275606622E-03 +6.82358317066E-01 -1.20414311458E-01
2.85000000000E+09 +5.37436714365E-01 -2.97066630276E-01 -6.40295747666E-04 -9.00115678822E-03 -6.83580223336E-04 -9.06710551090E-03 +6.68557367042E-01 -1.41415037642E-01
2.85500000000E+09 +5.15125450417E-01 -3.15551086992E-01 -2.54714962371E-03 -9.58039520408E-03 -2.61582804096E-03 -9.47469616473E-03 +6.53044367262E-01 -1.61133285826E-01
2.86000000000E+09 +4.91834710168E-01 -3.34203625722E-01 -4.59069594904E-03 -8.97562552146E-03 -4.46988696614E-03 -8.95045249053E-03 +6.37274561961E-01 -1.81042957583E-01
2.86500000000E+09 +4.67351240160E-01 -3.51277010397E-01 -6.33396562043E-03 -7.76410690737E-03 -6.22480215505E-03 -7.81809890717E-03 +6.19780793000E-01 -2.02132125764E-01
2.87000000000E+09 +4.42143272265E-01 -3.67272427584E-01 -6.60299575757E-03 -5.89888177283E-03 -6.73880993213E-03 -5.92013987739E-03 +6.00024419986E-01 -2.23098154818E-01
2.87500000000E+09 +4.16768783771E-01 -3.81353813972E-01 -6.08265182671E-03 -5.55034435499E-03 -6.26556806859E-03 -5.39738832687E-03 +5.79984255889E-01 -2.42764393693E-01
2.88000000000E+09 +3.91742788666E-01 -3.94538262611E-01 -6.61257310611E-03 -6.01878604026E-03 -6.70271958011E-03 -5.66246217042E-03 +5.58782545401E-01 -2.62345127350E-01
2.88500000000E+09 +3.65962710758E-01 -4.07013004275E-01 -8.30349810539E-03 -5.50467280746E-03 -7.94709224383E-03 -4.99991064174E-03 +5.35729988959E-01 -2.80316929811E-01
2.89000000000E+09 +3.39155824836E-01 -4.19160673554E-01 -8.91086446129E-03 -4.13027228632E-03 -8.34740488121E-03 -4.02134564666E-03 +5.10923934957E-01 -2.98887165930E-01
2.89500000000E+09 +3.10540671929E-01 -4.30163415144E-01 -9.49156604576E-03 -3.39868190619E-03 -9.03460843652E-03 -3.67958356016E-03 +4.82383418390E-01 -3.16477397649E-01
2.90000000000E+09 +2.79795246794E-01 -4.40243285269E-01 -1.03803994105E-02 -1.92861450281E-03 -1.03296672001E-02 -2.27856434073E-03 +4.52196590635E-01 -3.31440192288E-01
2.90500000000E+09 +2.46244907346E-01 -4.47527636239E-01 -1.00925853799E-02 -7.04799100576E-04 -1.02836393685E-02 -6.63976444063E-04 +4.23237905167E-01 -3.45984728547E-01
2.91000000000E+09 +2.12380495889E-01 -4.52202389765E-01 -1.03910434409E-02 +1.21300006450E-04 -1.03225863138E-02 +3.97284845694E-04 +3.92363980968E-01 -3.60869788811E-01
2.91500000000E+09 +1.77121370655E-01 -4.55184236300E-01 -1.07941218545E-02 +1.53136646488E-03 -1.02480709929E-02 +1.80524412392E-03 +3.59450873071E-01 -3.72946288975E-01
2.92000000000E+09 +1.41055272772E-01 -4.55213420352E-01 -1.02686177907E-02 +3.27023782811E-03 -9.55338564371E-03 +3.02381155299E-03 +3.25349811228E-01 -3.82459531987E-01
2.92500000000E+09 +1.05936689079E-01 -4.53047068742E-01 -9.53516482934E-03 +3.48288490607E-03 -9.08761726368E-03 +2.90962607173E-03 +2.89730435434E-01 -3.89088981454E-01
2.93000000000E+09 +7.10464252021E-02 -4.50062858813E-01 -1.01640843808E-02 +4.47136715905E-03 -1.01928258207E-02 +3.81287748040E-03 +2.53539916869E-01 -3.94444505989E-01
2.93500000000E+09 +3.56708019048E-02 -4.45599566662E-01 -1.00483852657E-02 +6.23525819437E-03 -1.02217202591E-02 +5.77394850956E-03 +2.16410307748E-01 -3.99147686913E-01
2.94000000000E+09 +2.62293405065E-04 -4.39925310068E-01 -9.34726802570E-03 +7.97588142328E-03 -9.51985452787E-03 +7.68261566575E-03 +1.76634612314E-01 -4.02837810528E-01
2.94500000000E+09 -3.63329518341E-02 -4.31879911977E-01 -8.13710303366E-03 +9.71152406798E-03 -8.35006975291E-03 +9.39835652978E-03 +1.36288156952E-01 -4.02448449228E-01
2.95000000000E+09 -7.26952271970E-02 -4.19068398785E-01 -6.02569437712E-03 +1.05633768943E-02 -6.43170066175E-03 +1.02147836934E-02 +9.65551182789E-02 -3.98011265864E-01
2.95500000000E+09 -1.06455683191E-01 -4.03300659005E-01 -4.69680821270E-03 +1.05088148311E-02 -5.29819114851E-03 +1.05799705797E-02 +5.85185243694E-02 -3.91729555712E-01
2.96000000000E+09 -1.38836603543E-01 -3.86270503291E-01 -3.91787312917E-03 +1.08412584543E-02 -4.40075907015E-03 +1.12683946762E-02 +1.83744526235E-02 -3.83615880256E-01
2.96500000000E+09 -1.71417227768E-01 -3.66684714108E-01 -3.14083448602E-03 +1.14560172432E-02 -2.98716466331E-03 +1.19824614671E-02 -2.26508969304E-02 -3.72152363281E-01
2.97000000000E+09 -2.03135113329E-01 -3.43309237562E-01 -1.71666779985E-03 +1.22475319616E-02 -1.29913724710E-03 +1.23635229244E-02 -6.36094733526E-02 -3.57796233314E-01
2.97500000000E+09 -2.32731654088E-01 -3.17362427416E-01 -3.92211248460E-04 +1.27413777550E-02 -2.49338633076E-04 +1.24265689200E-02 -1.03365107538E-01 -3.40291525838E-01
2.98000000000E+09 -2.61260854525E-01 -2.89546314889E-01 +2.11346443560E-03 +1.28890277837E-02 +1.69801852318E-03 +1.26600203128E-02 -1.41582505049E-01 -3.20002057688E-01
2.98500000000E+09 -2.88565787379E-01 -2.60086286243E-01 +3.46543227232E-03 +1.17808077324E-02 +2.98334601367E-03 +1.21292007882E-02 -1.78416252726E-01 -2.96809742571E-01
2.99000000000E+09 -3.14826849793E-01 -2.28908266958E-01 +4.36563004318E-03 +1.12539984325E-02 +4.41828480403E-03 +1.20072381260E-02 -2.14052315068E-01 -2.69958650872E-01
2.99500000000E+09 -3.39896478553E-01 -1.95737126786E-01 +5.35193085946E-03 +1.15155591119E-02 +6.00713701016E-03 +1.19433359050E-02 -2.47732331980E-01 -2.40379077162E-01
3.00000000000E+09 -3.61196470462E-01 -1.61522573829E-01 +7.57111799573E-03 +1.09243298412E-02 +8.28094396453E-03 +1.05697023261E-02 -2.79219773747E-01 -2.08087523712E-01
3.00500000000E+09 -3.80665232314E-01 -1.28175511451E-01 +8.59113051853E-03 +9.63312905381E-03 +8.71128918462E-03 +8.92617317721E-03 -3.07826711620E-01 -1.75019403584E-01
3.01000000000E+09 -3.98456832779E-01 -9.45024112635E-02 +1.00743253365E-02 +8.70506347941E-03 +9.62889696270E-03 +8.22220842395E-03 -3.34480122102E-01 -1.40171902373E-01
3.01500000000E+09 -4.13949917456E-01 -6.00703275307E-02 +1.10815185854E-02 +7.22730667497E-03 +1.06278144216E-02 +7.23948261669E-03 -3.58591166369E-01 -1.03710792431E-01
3.02000000000E+09 -4.26420210078E-01 -2.47631530081E-02 +1.16829629609E-02 +5.85115508115E-03 +1.15147101295E-02 +5.99068518427E-03 -3.79116716123E-01 -6.37051066255E-02
3.02500000000E+09 -4.35393202347E-01 +1.17390033709E-02 +1.24152672281E-02 +5.01912338413E-03 +1.23487637174E-02 +4.98268098163E-03 -3.94882524062E-01 -2.33022397960E-02
3.03000000000E+09 -4.39503609138E-01 +4.83906840106E-02 +1.37468442408E-02 +3.04419714832E-03 +1.34878071001E-02 +3.14020187403E-03 -4.08073684994E-01 +1.72030967833E-02
3.03500000000E+09 -4.40127221175E-01 +8.38193285065E-02 +1.37195023098E-02 +8.88897437128E-04 +1.35999928842E-02 +1.19565423324E-03 -4.19150471864E-01 +5.68461899015E-02
3.04000000000E+09 -4.39339827631E-01 +1.18600538112E-01 +1.36109435602E-02 -1.12146507683E-03 +1.40014213702E-02 -6.33584892144E-04 -4.28186668539E-01 +9.74351418505E-02
3.04500000000E+09 -4.36454444336E-01 +1.54272811823E-01 +1.29899084066E-02 -2.76043994045E-03 +1.37555379979E-02 -2.70431374323E-03 -4.33946045103E-01 +1.38500788820E-01
3.05000000000E+09 -4.30621243581E-01 +1.90485037763E-01 +1.25132555916E-02 -4.24048748193E-03 +1.30101900368E-02 -5.03719882634E-03 -4.35006992107E-01 +1.79042852138E-01
3.05500000000E+09 -4.22376441294E-01 +2.25289118579E-01 +1.18096894195E-02 -5.51701928066E-03 +1.15453748542E-02 -6.46469677941E-03 -4.34058772765E-01 +2.17493471933E-01
3.06000000000E+09 -4.12929043822E-01 +2.59573456373E-01 +1.13842298701E-02 -7.17873536480E-03 +1.04303686123E-02 -7.49824622109E-03 -4.31698156047E-01 +2.56270039415E-01
3.06500000000E+09 -4.01086594054E-01 +2.92640149012E-01 +1.01316312493E-02 -9.17376793448E-03 +9.40546328914E-03 -8.57353676359E-03 -4.26511591509E-01 +2.94140011712E-01
3.07000000000E+09 -3.88810798510E-01 +3.22878824368E-01 +7.83072268119E-03 -1.05156491204E-02 +8.11194003962E-03 -9.66162477351E-03 -4.19271893389E-01 +3.30254486835E-01
