# Hz S RI R 50
! CMT, C1220, 16058040, 17.2.0/1
! Date: 15/08/2018 09:50:36
! Data: Format (Calibration Info)
! Freq                      S11: Re/Im (F2)                       S21: Re/Im (F2)                       S12: Re/Im (F2)                       S22: Re/Im (F2)            
2.50000000000E+09 +5.75794805588E-01 +6.70592001341E-01 +9.72323650669E-05 -1.53856304990E-03 +1.35631210196E-04 -1.67943909209E-03 +5.75447416326E-01 +7.17573996539E-01
2.50500000000E+09 +5.82678951334E-01 +6.63048855172E-01 -9.47708499856E-06 -1.63317599775E-03 -8.11975040482E-05 -1.72017441706E-03 +5.80858685736E-01 +7.11966021213E-01
2.51000000000E+09 +5.89843708600E-01 +6.55137215725E-01 -1.89430139334E-04 -1.75278981378E-03 -2.54411084861E-04 -1.70551811078E-03 +5.86306129570E-01 +7.06739503648E-01
2.51500000000E+09 +5.97134881234E-01 +6.46928911774E-01 -3.80186008481E-04 -1.75357941338E-03 -4.04607550653E-04 -1.71181209830E-03 +5.91399823403E-01 +7.01242379298E-01
2.52000000000E+09 +6.04040566500E-01 +6.38279179771E-01 -6.44823222053E-04 -1.69396560417E-03 -5.55204302970E-04 -1.67191015741E-03 +5.96662014419E-01 +6.95113710111E-01
2.52500000000E+09 +6.10027339884E-01 +6.29790451845E-01 -7.78567429834E-04 -1.59182859642E-03 -7.32733341757E-04 -1.64647115893E-03 +6.02592427242E-01 +6.88527818879E-01
2.53000000000E+09 +6.15693961311E-01 +6.21526982519E-01 -8.68552915070E-04 -1.56175112224E-03 -8.83563339763E-04 -1.60155676592E-03 +6.08761333849E-01 +6.81485158858E-01
2.53500000000E+09 +6.20919839010E-01 +6.13448421754E-01 -1.04662705077E-03 -1.53559745575E-03 -1.02130448790E-03 -1.50378369805E-03 +6.14696870207E-01 +6.74875914398E-01
2.54000000000E+09 +6.25476410799E-01 +6.05469571918E-01 -1.16731623338E-03 -1.43146409962E-03 -1.11988923690E-03 -1.45570425372E-03 +6.20349121468E-01 +6.68261052072E-01
2.54500000000E+09 +6.29912940412E-01 +5.98039459251E-01 -1.37924044232E-03 -1.46221550543E-03 -1.31032336814E-03 -1.49372109605E-03 +6.25792781694E-01 +6.62023725934E-01
2.55000000000E+09 +6.34933270379E-01 +5.90855610569E-01 -1.56017322606E-03 -1.19095370636E-03 -1.53894348871E-03 -1.46621057115E-03 +6.30896521036E-01 +6.55529903428E-01
2.55500000000E+09 +6.40465455326E-01 +5.83035985170E-01 -1.72100659627E-03 -1.03961506217E-03 -1.93809589176E-03 -1.33656351382E-03 +6.36260771795E-01 +6.48970141842E-01
2.56000000000E+09 +6.46776534788E-01 +5.75218230509E-01 -1.71361787360E-03 -8.36717557909E-04 -2.14772667041E-03 -8.21435842972E-04 +6.41727244058E-01 +6.41590128610E-01
2.56500000000E+09 +6.53598099951E-01 +5.66368357931E-01 -1.72492375260E-03 -7.92451466758E-04 -2.09601727356E-03 -4.84442608974E-04 +6.47530649688E-01 +6.33950195269E-01
2.57000000000E+09 +6.60550941445E-01 +5.57425736700E-01 -1.86299755034E-03 -7.37170197540E-04 -1.95816808379E-03 -2.46546663702E-04 +6.52891162389E-01 +6.26479954054E-01
2.57500000000E+09 +6.67628701637E-01 +5.47773384781E-01 -2.03756366606E-03 -5.88286333899E-04 -1.83103510954E-03 -1.60979007779E-04 +6.58225805604E-01 +6.19224277954E-01
2.58000000000E+09 +6.74177674474E-01 +5.37907154055E-01 -2.23346954125E-03 -3.30224872890E-04 -1.85941251344E-03 -1.91736079980E-04 +6.62945496161E-01 +6.11824893936E-01
2.58500000000E+09 +6.79967142085E-01 +5.27873195231E-01 -2.19196783115E-03 +9.50012130550E-05 -1.87929624187E-03 -1.17525703984E-05 +6.67570269495E-01 +6.04216343676E-01
2.59000000000E+09 +6.85357205180E-01 +5.18478468405E-01 -1.89256501859E-03 +1.72365340918E-04 -1.77988192462E-03 +4.93319747061E-06 +6.72670077600E-01 +5.96220447264E-01
2.59500000000E+09 +6.90190944823E-01 +5.08655272114E-01 -1.98845093921E-03 +7.71141232551E-05 -1.94812035814E-03 -5.35519658576E-05 +6.77650491523E-01 +5.87596872111E-01
2.60000000000E+09 +6.94193275897E-01 +4.99134169228E-01 -2.19996487926E-03 +1.43110294609E-04 -2.24135942484E-03 +1.29387179180E-04 +6.82712706514E-01 +5.78975842039E-01
2.60500000000E+09 +6.98442561068E-01 +4.89635821734E-01 -2.45251549192E-03 +4.24270340324E-04 -2.36405064294E-03 +4.43098734706E-04 +6.88075947488E-01 +5.70588812487E-01
2.61000000000E+09 +7.02701781735E-01 +4.79480547844E-01 -2.60466470539E-03 +8.70553135318E-04 -2.60728335212E-03 +7.59531437904E-04 +6.92693954903E-01 +5.61963309059E-01
2.61500000000E+09 +7.07423456130E-01 +4.68887424102E-01 -2.27479731080E-03 +1.48730597613E-03 -2.34819888398E-03 +1.46009785371E-03 +6.96957193765E-01 +5.53903110927E-01
2.62000000000E+09 +7.12184682175E-01 +4.57194541730E-01 -1.77158550080E-03 +1.50663627193E-03 -1.94494831159E-03 +1.56977516453E-03 +7.01633467378E-01 +5.45124105152E-01
2.62500000000E+09 +7.16932852069E-01 +4.44238559114E-01 -1.78936451832E-03 +1.32307797129E-03 -1.77627569151E-03 +1.54196242284E-03 +7.06472268057E-01 +5.35927985216E-01
2.63000000000E+09 +7.21201032876E-01 +4.30956360897E-01 -1.85462777842E-03 +1.55313028719E-03 -1.64016104352E-03 +1.75639283234E-03 +7.11339586889E-01 +5.26465089044E-01
2.63500000000E+09 +7.25174565213E-01 +4.17371999822E-01 -1.85458825449E-03 +1.70941932390E-03 -1.54181873329E-03 +1.67123631851E-03 +7.16361660271E-01 +5.17079768833E-01
2.64000000000E+09 +7.28704877457E-01 +4.03694226677E-01 -1.96970399520E-03 +2.13621225649E-03 -1.65587643966E-03 +1.85244940986E-03 +7.21266852169E-01 +5.07594675086E-01
2.64500000000E+09 +7.31723812977E-01 +3.90712480573E-01 -1.50167794077E-03 +2.73317527315E-03 -1.49574037197E-03 +2.22221739189E-03 +7.25795113219E-01 +4.98348407604E-01
2.65000000000E+09 +7.34340869865E-01 +3.78317102884E-01 -9.96064199056E-04 +2.52882268374E-03 -1.21808234719E-03 +2.29815532949E-03 +7.30021468620E-01 +4.88994084108E-01
2.65500000000E+09 +7.37155064595E-01 +3.66065689658E-01 -9.03117049714E-04 +2.40232690139E-03 -1.16242700799E-03 +2.42029934989E-03 +7.34093568792E-01 +4.78455133064E-01
2.66000000000E+09 +7.39892716885E-01 +3.54307941366E-01 -1.00613381605E-03 +2.51080320411E-03 -1.07185937945E-03 +2.76596817223E-03 +7.38098147743E-01 +4.67554072785E-01
2.66500000000E+09 +7.42950313043E-01 +3.42228488271E-01 -7.58024513773E-04 +2.86049811946E-03 -6.03935603474E-04 +2.99086992841E-03 +7.42829276286E-01 +4.56341867950E-01
2.67000000000E+09 +7.45587575822E-01 +3.29210303398E-01 -3.54252497172E-04 +3.00879244820E-03 -1.04695820575E-04 +2.96352947383E-03 +7.47519366492E-01 +4.45089279084E-01
2.67500000000E+09 +7.47627573679E-01 +3.15502689287E-01 -3.43247982904E-05 +2.98779228908E-03 +9.84161207829E-05 +2.71754609502E-03 +7.51554462196E-01 +4.33748684179E-01
2.68000000000E+09 +7.49404977789E-01 +3.01243827952E-01 +8.74331701318E-05 +2.85956336060E-03 +5.14108107776E-05 +2.71943055537E-03 +7.55421309458E-01 +4.23136510644E-01
2.68500000000E+09 +7.50660793135E-01 +2.86110120087E-01 +8.32312209152E-05 +2.99011818575E-03 +1.92840737636E-05 +2.93907843024E-03 +7.58527943830E-01 +4.11591188339E-01
2.69000000000E+09 +7.51106489140E-01 +2.70723722677E-01 +4.00040295936E-04 +3.39183714484E-03 +3.65916696833E-04 +3.35802253620E-03 +7.61230486196E-01 +3.99775355382E-01
2.69500000000E+09 +7.51387573365E-01 +2.55281380284E-01 +1.01611728002E-03 +3.46358618880E-03 +1.06309629922E-03 +3.41992652823E-03 +7.64334324177E-01 +3.86850515087E-01
2.70000000000E+09 +7.51673564376E-01 +2.39810097521E-01 +1.50140760257E-03 +3.35886465039E-03 +1.45545640183E-03 +3.24807912374E-03 +7.67566590743E-01 +3.73267107246E-01
2.70500000000E+09 +7.51577098594E-01 +2.24742847276E-01 +1.95827473393E-03 +2.94679506200E-03 +1.80182901662E-03 +2.97267357305E-03 +7.70639270919E-01 +3.59448313227E-01
2.71000000000E+09 +7.51934366212E-01 +2.09927234959E-01 +2.02144226237E-03 +2.63784086422E-03 +1.89014485447E-03 +2.77120515105E-03 +7.73332538138E-01 +3.46523498255E-01
2.71500000000E+09 +7.52789160199E-01 +1.94943983701E-01 +1.90652168960E-03 +2.58454231467E-03 +2.01700175349E-03 +2.74165759816E-03 +7.76048073736E-01 +3.33962702241E-01
2.72000000000E+09 +7.53387963961E-01 +1.79881354958E-01 +2.17864693749E-03 +2.78819044398E-03 +2.46326609257E-03 +2.82717217493E-03 +7.78240222138E-01 +3.20986183552E-01
2.72500000000E+09 +7.53997654502E-01 +1.64353058519E-01 +2.73433566820E-03 +2.63479816027E-03 +2.93869244774E-03 +2.32813304267E-03 +7.79465440475E-01 +3.06959908435E-01
2.73000000000E+09 +7.54015777316E-01 +1.48360257713E-01 +2.84417989817E-03 +2.38438136825E-03 +2.69904636184E-03 +1.95945274449E-03 +7.80678558142E-01 +2.92505681214E-01
2.73500000000E+09 +7.52987585943E-01 +1.31385690197E-01 +3.00303656648E-03 +2.58589986508E-03 +2.64310251009E-03 +2.18392486963E-03 +7.81723102955E-01 +2.77642003174E-01
2.74000000000E+09 +7.51055668777E-01 +1.14474039709E-01 +3.85459917761E-03 +2.38597580788E-03 +3.25158702374E-03 +2.38200461891E-03 +7.83629550131E-01 +2.62914196404E-01
2.74500000000E+09 +7.47456291566E-01 +9.67030828909E-02 +4.12083186052E-03 +1.76093672562E-03 +3.72994669001E-03 +2.19780017759E-03 +7.84983279114E-01 +2.47305242507E-01
2.75000000000E+09 +7.42600120318E-01 +7.92787666992E-02 +4.40210898727E-03 +1.45691113625E-03 +4.38118136508E-03 +2.04071424929E-03 +7.85204176708E-01 +2.31981649850E-01
2.75500000000E+09 +7.37082201935E-01 +6.19182328867E-02 +4.57084694958E-03 +1.08322409926E-03 +4.81872475385E-03 +1.42115404746E-03 +7.84261090391E-01 +2.16896253667E-01
2.76000000000E+09 +7.31422188969E-01 +4.47432503763E-02 +4.70809663939E-03 +8.05950806653E-04 +5.00995102726E-03 +9.45603026568E-04 +7.83791023278E-01 +2.01520770043E-01
2.76500000000E+09 +7.25688151488E-01 +2.76326701176E-02 +5.11060133493E-03 +5.49584177354E-04 +5.42162825955E-03 +5.19103739815E-04 +7.82940846551E-01 +1.84186658607E-01
2.77000000000E+09 +7.20676630085E-01 +9.88182877288E-03 +5.77949653825E-03 -1.20658764184E-04 +6.00623894704E-03 -1.88302961805E-04 +7.82295888280E-01 +1.66387732350E-01
2.77500000000E+09 +7.15798921777E-01 -8.64892055317E-03 +5.89190559877E-03 -1.34297624571E-03 +6.05712260773E-03 -1.51977321131E-03 +7.80463091289E-01 +1.47988841667E-01
2.78000000000E+09 +7.11200123410E-01 -2.80473158505E-02 +5.43115211867E-03 -1.95307940077E-03 +5.43498501193E-03 -2.25790032007E-03 +7.78277711762E-01 +1.30570458509E-01
2.78500000000E+09 +7.06265717436E-01 -4.82565466498E-02 +5.26189409793E-03 -2.35552046948E-03 +5.08645936649E-03 -2.72584763455E-03 +7.75960556263E-01 +1.13122428613E-01
2.79000000000E+09 +7.00720905371E-01 -6.97545461599E-02 +5.18145162841E-03 -2.86675079045E-03 +4.84731004448E-03 -2.91794284148E-03 +7.72492722906E-01 +9.54601055480E-02
2.79500000000E+09 +6.93340173108E-01 -9.08774997450E-02 +5.17987181155E-03 -3.26325710127E-03 +4.79384702254E-03 -3.14458914853E-03 +7.68006763117E-01 +7.68235236654E-02
2.80000000000E+09 +6.84583694018E-01 -1.11122375130E-01 +5.35973402144E-03 -4.18310295179E-03 +5.23556906709E-03 -3.85725617542E-03 +7.62688255604E-01 +5.76231254450E-02
2.80500000000E+09 +6.75281158176E-01 -1.30403702241E-01 +4.78839505618E-03 -5.46220392852E-03 +4.95592014583E-03 -5.26558318707E-03 +7.57016901340E-01 +3.86568161680E-02
2.81000000000E+09 +6.64938991081E-01 -1.48883347503E-01 +3.64219881683E-03 -5.79805378541E-03 +3.82999916652E-03 -5.94007815305E-03 +7.51371042629E-01 +1.91319258541E-02
2.81500000000E+09 +6.53601152966E-01 -1.66836889950E-01 +3.24999468378E-03 -6.08583682730E-03 +3.17954180276E-03 -6.33499685257E-03 +7.44413674807E-01 -4.16880549829E-04
2.82000000000E+09 +6.41301623234E-01 -1.84499912592E-01 +2.83217033691E-03 -6.61434717651E-03 +2.45694218476E-03 -6.64282697399E-03 +7.36327635841E-01 -2.02092295517E-02
2.82500000000E+09 +6.28099883431E-01 -2.02191761628E-01 +2.03206868335E-03 -7.10830951899E-03 +1.71918589363E-03 -6.86760480890E-03 +7.26611632198E-01 -4.00847388575E-02
2.83000000000E+09 +6.12993474845E-01 -2.20844226362E-01 +1.26206514177E-03 -7.50296700284E-03 +1.20867659619E-03 -7.07720905277E-03 +7.16058490307E-01 -5.99842524451E-02
2.83500000000E+09 +5.96801275203E-01 -2.39347321981E-01 +1.40655476763E-04 -7.45040092587E-03 +3.47909690506E-04 -7.21486670015E-03 +7.05229814370E-01 -7.98108883368E-02
2.84000000000E+09 +5.78693302213E-01 -2.58339784008E-01 -2.52178636021E-04 -6.95166015179E-03 -3.70112623966E-05 -6.90728465755E-03 +6.94768576008E-01 -1.00670799005E-01
2.84500000000E+09 +5.58966232868E-01 -2.77533676268E-01 -1.11399511628E-04 -7.67504120777E-03 -4.29392623479E-05 -7.68600555204E-03 +6.82453007051E-01 -1.21996855246E-01
2.85000000000E+09 +5.37802097440E-01 -2.96716181542E-01 -1.17075158042E-03 -8.68457234279E-03 -1.21426526770E-03 -8.66239735484E-03 +6.68411526058E-01 -1.42630707694E-01
2.85500000000E+09 +5.15460919081E-01 -3.15122592320E-01 -2.92362093094E-03 -8.98709497796E-03 -2.91803371075E-03 -8.94089445378E-03 +6.52946742673E-01 -1.62088637646E-01
2.86000000000E+09 +4.92214643228E-01 -3.33599884132E-01 -4.57204189321E-03 -8.55322035586E-03 -4.44620324947E-03 -8.51665926330E-03 +6.37384743511E-01 -1.82240057403E-01
2.86500000000E+09 +4.68002683918E-01 -3.50696003660E-01 -6.22149041878E-03 -7.62496031559E-03 -6.12869058473E-03 -7.67711253918E-03 +6.20036710615E-01 -2.03607485186E-01
2.87000000000E+09 +4.42844088356E-01 -3.67008999927E-01 -6.71143855742E-03 -5.99529008074E-03 -6.81526091552E-03 -6.01772956337E-03 +5.99766997832E-01 -2.24871496914E-01
2.87500000000E+09 +4.17163758667E-01 -3.81289138160E-01 -6.35860585064E-03 -5.58586090130E-03 -6.48176205415E-03 -5.40544742332E-03 +5.79119247575E-01 -2.44255758479E-01
2.88000000000E+09 +3.91810580619E-01 -3.94420989978E-01 -7.09572850982E-03 -5.98335610145E-03 -7.08731611855E-03 -5.57081711380E-03 +5.57850540190E-01 -2.63602363702E-01
2.88500000000E+09 +3.66191135260E-01 -4.06747381420E-01 -8.91987473980E-03 -5.07915683084E-03 -8.49104638651E-03 -4.62523349233E-03 +5.34947761704E-01 -2.81669488478E-01
2.89000000000E+09 +3.39596201454E-01 -4.18873248725E-01 -9.27359290954E-03 -3.52222287657E-03 -8.63642018156E-03 -3.51245763014E-03 +5.09764933711E-01 -3.00375642676E-01
2.89500000000E+09 +3.11058813887E-01 -4.30279459842E-01 -9.75016655836E-03 -2.71312281530E-03 -9.28750871311E-03 -3.12591048557E-03 +4.81014844373E-01 -3.17929235365E-01
2.90000000000E+09 +2.80129030061E-01 -4.40392213048E-01 -1.03222707132E-02 -1.36069049335E-03 -1.03316495737E-02 -1.75821647080E-03 +4.50447591538E-01 -3.32884343440E-01
2.90500000000E+09 +2.46482153664E-01 -4.47643996837E-01 -1.00225259674E-02 -2.19215251312E-04 -1.01927853790E-02 -1.88984421122E-04 +4.21051959587E-01 -3.47031817638E-01
2.91000000000E+09 +2.12538549100E-01 -4.52139873951E-01 -1.03258003352E-02 +4.11997560328E-04 -1.02435584152E-02 +6.49999885986E-04 +3.90159155325E-01 -3.61505359184E-01
2.91500000000E+09 +1.77353194182E-01 -4.55031574374E-01 -1.09467204830E-02 +1.95271225937E-03 -1.03928766725E-02 +2.07238474301E-03 +3.56971748910E-01 -3.73652588503E-01
2.92000000000E+09 +1.41399748311E-01 -4.55141167248E-01 -1.02932352793E-02 +3.93609625162E-03 -9.65057379978E-03 +3.58042479136E-03 +3.22260635814E-01 -3.82414610555E-01
2.92500000000E+09 +1.06066094886E-01 -4.52996279231E-01 -9.27404278508E-03 +4.23036964325E-03 -8.98013093080E-03 +3.67063506856E-03 +2.86913181778E-01 -3.88354858207E-01
2.93000000000E+09 +7.08828783477E-02 -4.49993766925E-01 -9.67936644025E-03 +5.01319868552E-03 -9.75719509456E-03 +4.38085514772E-03 +2.51038065262E-01 -3.93062632579E-01
2.93500000000E+09 +3.55563919794E-02 -4.45478561425E-01 -9.38629958925E-03 +6.78011158641E-03 -9.71162084150E-03 +6.38151003633E-03 +2.14157857210E-01 -3.97639653619E-01
2.94000000000E+09 +5.09112888345E-05 -4.39562504019E-01 -8.57316600801E-03 +7.94328281633E-03 -8.79915737014E-03 +7.76398170276E-03 +1.74800912066E-01 -4.01244709158E-01
2.94500000000E+09 -3.62008390786E-02 -4.31500061619E-01 -7.75119397669E-03 +9.49095176998E-03 -7.92367646773E-03 +9.30769431500E-03 +1.34438394467E-01 -4.00609731330E-01
2.95000000000E+09 -7.26391004491E-02 -4.18889009991E-01 -5.88529966378E-03 +1.03851462058E-02 -6.26888359523E-03 +1.02374037239E-02 +9.47851697682E-02 -3.95725034413E-01
2.95500000000E+09 -1.06658115218E-01 -4.03138913808E-01 -4.51616544004E-03 +1.04895881197E-02 -5.04273367923E-03 +1.05304720318E-02 +5.73070810871E-02 -3.89132506925E-01
2.96000000000E+09 -1.38805502126E-01 -3.85998803202E-01 -3.94594279756E-03 +1.07871453904E-02 -4.23650363586E-03 +1.12455483349E-02 +1.73588368967E-02 -3.80819066684E-01
2.96500000000E+09 -1.71358144796E-01 -3.66440121675E-01 -3.04235901241E-03 +1.16325526738E-02 -2.89096085628E-03 +1.21733412498E-02 -2.32399357558E-02 -3.68968659866E-01
2.97000000000E+09 -2.02910748516E-01 -3.43024240322E-01 -1.43864525304E-03 +1.25239146005E-02 -9.28741569694E-04 +1.25480898669E-02 -6.33404817263E-02 -3.54504986159E-01
2.97500000000E+09 -2.32394539336E-01 -3.17199575773E-01 +1.08111135434E-04 +1.28136043094E-02 +3.05828393139E-04 +1.24214515567E-02 -1.02443666846E-01 -3.37443991245E-01
2.98000000000E+09 -2.61106933409E-01 -2.89548475434E-01 +2.30458885222E-03 +1.26768452757E-02 +1.96472805753E-03 +1.23572686398E-02 -1.40222714628E-01 -3.17662115642E-01
2.98500000000E+09 -2.88595457185E-01 -2.59724953065E-01 +3.59590362875E-03 +1.18003686368E-02 +3.15759522379E-03 +1.20660816162E-02 -1.77279749625E-01 -2.94826165980E-01
2.99000000000E+09 -3.14409702218E-01 -2.28318224065E-01 +4.34888761933E-03 +1.13577670040E-02 +4.36787493020E-03 +1.19580551579E-02 -2.12627936284E-01 -2.67931555417E-01
2.99500000000E+09 -3.39252032513E-01 -1.95460145998E-01 +5.34041426461E-03 +1.17780497556E-02 +6.03751883962E-03 +1.21716028804E-02 -2.46515780361E-01 -2.38462048373E-01
3.00000000000E+09 -3.60909910334E-01 -1.61261455849E-01 +7.82905442711E-03 +1.14667932673E-02 +8.50644097016E-03 +1.10705512279E-02 -2.77361586021E-01 -2.05842773629E-01
3.00500000000E+09 -3.80319899999E-01 -1.27679001568E-01 +9.25908606216E-03 +1.01111095374E-02 +9.34854024155E-03 +9.31426661927E-03 -3.05395314523E-01 -1.72863414229E-01
3.01000000000E+09 -3.97946408910E-01 -9.41059708765E-02 +1.09469910981E-02 +8.80765415042E-03 +1.04470800817E-02 +8.36886027524E-03 -3.31416599626E-01 -1.38806913366E-01
3.01500000000E+09 -4.13268712484E-01 -5.96279302044E-02 +1.18929112395E-02 +6.98487812564E-03 +1.14109917555E-02 +6.98557986655E-03 -3.55454637859E-01 -1.03068024551E-01
3.02000000000E+09 -4.25544774330E-01 -2.46268435338E-02 +1.22484040733E-02 +5.38159873188E-03 +1.20030912262E-02 +5.56744723201E-03 -3.75796918632E-01 -6.37621421927E-02
3.02500000000E+09 -4.34548996455E-01 +1.15749807526E-02 +1.26113963204E-02 +4.61962056205E-03 +1.24898305063E-02 +4.72705301936E-03 -3.91941090716E-01 -2.41344209020E-02
3.03000000000E+09 -4.39007742748E-01 +4.80245704278E-02 +1.40350107551E-02 +2.98454356985E-03 +1.38356036720E-02 +3.10104091355E-03 -4.05663053528E-01 +1.62126585702E-02
3.03500000000E+09 -4.39769938028E-01 +8.35596292830E-02 +1.44169294669E-02 +8.17233241315E-04 +1.42100788726E-02 +1.22556591302E-03 -4.17120693964E-01 +5.57075171244E-02
3.04000000000E+09 -4.38804113641E-01 +1.18390331533E-01 +1.44895594888E-02 -1.70539129453E-03 +1.47926312289E-02 -1.12368701819E-03 -4.26233580734E-01 +9.63175992992E-02
3.04500000000E+09 -4.35935256557E-01 +1.53736256678E-01 +1.35142044077E-02 -3.62625748260E-03 +1.44211045253E-02 -3.61919529986E-03 -4.31705635161E-01 +1.37352989529E-01
3.05000000000E+09 -4.30336217548E-01 +1.89652033148E-01 +1.26758132952E-02 -5.17351794271E-03 +1.32530357376E-02 -5.94358051990E-03 -4.32827954715E-01 +1.77073052184E-01
3.05500000000E+09 -4.22426579500E-01 +2.24536375608E-01 +1.17901331006E-02 -6.44793071309E-03 +1.14429775530E-02 -7.32382381980E-03 -4.32639772242E-01 +2.15043543031E-01
3.06000000000E+09 -4.13038117668E-01 +2.59017748718E-01 +1.11729747454E-02 -7.88841668415E-03 +1.02272428359E-02 -8.11571320551E-03 -4.31122228910E-01 +2.53736543744E-01
3.06500000000E+09 -4.01217982723E-01 +2.92172064758E-01 +1.00544049827E-02 -9.83376881929E-03 +9.36804579754E-03 -9.16775937662E-03 -4.26331155779E-01 +2.92017998472E-01
3.07000000000E+09 -3.88862160416E-01 +3.22371827823E-01 +7.65729834858E-03 -1.12131699867E-02 +7.97393066216E-03 -1.03207599297E-02 -4.19386122352E-01 +3.28374535199E-01
