# Hz S RI R 50
! CMT, C1220, 16058040, 17.2.0/1
! Date: 15/08/2018 09:49:31
! Data: Format (Calibration Info)
! Freq                      S11: Re/Im (F2)                       S21: Re/Im (F2)                       S12: Re/Im (F2)                       S22: Re/Im (F2)            
2.50000000000E+09 +5.75651366837E-01 +6.70000103029E-01 +1.63789452698E-05 -1.65567277661E-03 +3.71632162998E-05 -1.83659507650E-03 +5.74854532941E-01 +7.17837565972E-01
2.50500000000E+09 +5.82465412276E-01 +6.62659067179E-01 -1.14812704472E-04 -1.68149608359E-03 -1.79123788167E-04 -1.79036541314E-03 +5.80365093074E-01 +7.12423091580E-01
2.51000000000E+09 +5.89683562007E-01 +6.54721314730E-01 -3.00819355987E-04 -1.81929700459E-03 -4.10621372546E-04 -1.75861245518E-03 +5.85837017697E-01 +7.07265477127E-01
2.51500000000E+09 +5.96955998946E-01 +6.46532679087E-01 -5.73651580786E-04 -1.81890502117E-03 -5.72563307272E-04 -1.74764699278E-03 +5.91032218773E-01 +7.01748741170E-01
2.52000000000E+09 +6.03876956402E-01 +6.37974512447E-01 -8.07098548894E-04 -1.72550178567E-03 -7.25001373828E-04 -1.73600467957E-03 +5.96333130942E-01 +6.95582470640E-01
2.52500000000E+09 +6.10025674848E-01 +6.29499466511E-01 -9.29279470369E-04 -1.53492174731E-03 -9.10242946463E-04 -1.64020156188E-03 +6.02231958208E-01 +6.89043941911E-01
2.53000000000E+09 +6.15721959202E-01 +6.21224449066E-01 -1.03672395674E-03 -1.49565406616E-03 -1.05950598039E-03 -1.54639015430E-03 +6.08508147340E-01 +6.81987969089E-01
2.53500000000E+09 +6.20902504206E-01 +6.13069272485E-01 -1.20882617735E-03 -1.46349969505E-03 -1.18164240628E-03 -1.46394208029E-03 +6.14288290371E-01 +6.75417396912E-01
2.54000000000E+09 +6.25473887778E-01 +6.05121060042E-01 -1.36913864951E-03 -1.41727810864E-03 -1.35835197460E-03 -1.41594816847E-03 +6.20054023811E-01 +6.68765771022E-01
2.54500000000E+09 +6.30132416149E-01 +5.97774290418E-01 -1.61189990658E-03 -1.32345915019E-03 -1.52511222048E-03 -1.42655656711E-03 +6.25653318084E-01 +6.62408858893E-01
2.55000000000E+09 +6.35008112562E-01 +5.90546700445E-01 -1.77625443852E-03 -1.03785686851E-03 -1.85540716302E-03 -1.28411890892E-03 +6.30732938086E-01 +6.55890347271E-01
2.55500000000E+09 +6.40653352654E-01 +5.82797916588E-01 -1.80669023642E-03 -7.96074880732E-04 -2.05561621234E-03 -9.88251890223E-04 +6.35979979595E-01 +6.49355164030E-01
2.56000000000E+09 +6.47075282219E-01 +5.75011229891E-01 -1.73443222908E-03 -6.42456506148E-04 -2.11254775155E-03 -6.39638808004E-04 +6.41499502620E-01 +6.41888176727E-01
2.56500000000E+09 +6.53962542677E-01 +5.66311171158E-01 -1.73858025257E-03 -6.65978986101E-04 -2.09182124639E-03 -4.32950059944E-04 +6.47193350425E-01 +6.34376209327E-01
2.57000000000E+09 +6.60880650961E-01 +5.57210661736E-01 -1.92541921088E-03 -6.44552550994E-04 -2.00560243008E-03 -2.66573227020E-04 +6.52705298238E-01 +6.26819514020E-01
2.57500000000E+09 +6.67928318373E-01 +5.47577127060E-01 -2.11438583739E-03 -5.06896205387E-04 -1.90083329395E-03 -1.01415886511E-04 +6.57962086060E-01 +6.19713270116E-01
2.58000000000E+09 +6.74350562621E-01 +5.37916597528E-01 -2.33128334913E-03 -1.89346290832E-04 -1.97354377751E-03 -1.00842217758E-05 +6.62752849844E-01 +6.12309835272E-01
2.58500000000E+09 +6.80211794224E-01 +5.28002985336E-01 -2.23348516741E-03 +2.55850147885E-04 -1.95570025785E-03 +1.49096805316E-04 +6.67403917499E-01 +6.04686873209E-01
2.59000000000E+09 +6.85608909681E-01 +5.18469672782E-01 -1.93010679547E-03 +3.21329393752E-04 -1.85581482636E-03 +1.30661167826E-04 +6.72508662261E-01 +5.96870298154E-01
2.59500000000E+09 +6.90513254497E-01 +5.08660343905E-01 -2.04731419639E-03 +1.25886579849E-04 -2.01505672628E-03 +1.70842366009E-05 +6.77564398950E-01 +5.88321073073E-01
2.60000000000E+09 +6.94469794578E-01 +4.99154535578E-01 -2.25317194496E-03 +2.99274358146E-04 -2.31693818111E-03 +2.52866173735E-04 +6.82606300890E-01 +5.79793106955E-01
2.60500000000E+09 +6.98659751927E-01 +4.89572158697E-01 -2.55721776169E-03 +5.96115199710E-04 -2.50807004739E-03 +6.09596435120E-04 +6.87947595144E-01 +5.71538125326E-01
2.61000000000E+09 +7.02819422740E-01 +4.79490651515E-01 -2.59657800539E-03 +1.07614550110E-03 -2.58259003605E-03 +1.04798341676E-03 +6.93079662517E-01 +5.62918611501E-01
2.61500000000E+09 +7.07661429672E-01 +4.68827689041E-01 -2.30863732951E-03 +1.66407789573E-03 -2.38656453946E-03 +1.58706572791E-03 +6.97528892079E-01 +5.54571642213E-01
2.62000000000E+09 +7.12419250841E-01 +4.57245780528E-01 -1.87629433469E-03 +1.69215561053E-03 -1.97263118036E-03 +1.79760533557E-03 +7.02005646513E-01 +5.45588480284E-01
2.62500000000E+09 +7.17339079638E-01 +4.44383556702E-01 -1.94559862461E-03 +1.59322550145E-03 -1.88599391977E-03 +1.83982742641E-03 +7.06979115668E-01 +5.36392235975E-01
2.63000000000E+09 +7.21955057539E-01 +4.31025208791E-01 -1.89909032945E-03 +1.89718936789E-03 -1.67654934581E-03 +2.15477151243E-03 +7.11800359808E-01 +5.26979548535E-01
2.63500000000E+09 +7.25982753190E-01 +4.17199216025E-01 -1.87387919408E-03 +2.11844134867E-03 -1.48384710691E-03 +2.08561708101E-03 +7.17013200433E-01 +5.17481486413E-01
2.64000000000E+09 +7.29512149136E-01 +4.03622481272E-01 -1.78125306916E-03 +2.53384277402E-03 -1.45934834145E-03 +2.15161318588E-03 +7.21987799594E-01 +5.08039440713E-01
2.64500000000E+09 +7.32784235979E-01 +3.90410545949E-01 -1.33036381236E-03 +2.97382568603E-03 -1.31912498842E-03 +2.48921413226E-03 +7.26573773040E-01 +4.98564419612E-01
2.65000000000E+09 +7.35447605578E-01 +3.78006803438E-01 -8.25827538380E-04 +2.92548496699E-03 -1.08870118782E-03 +2.68209657763E-03 +7.30679363723E-01 +4.88925272191E-01
2.65500000000E+09 +7.38226396126E-01 +3.65680129295E-01 -6.00742717327E-04 +2.74667855290E-03 -9.07038014253E-04 +2.80600210988E-03 +7.34608221164E-01 +4.78409173390E-01
2.66000000000E+09 +7.41161442475E-01 +3.53779794281E-01 -5.67894898977E-04 +2.85963819679E-03 -6.33837656178E-04 +3.08420909207E-03 +7.38705815194E-01 +4.67370350474E-01
2.66500000000E+09 +7.44233946500E-01 +3.41703588714E-01 -3.63200445542E-04 +3.10818750766E-03 -1.95496137018E-04 +3.24220312523E-03 +7.43278912048E-01 +4.55866082310E-01
2.67000000000E+09 +7.47009060751E-01 +3.28540075408E-01 +1.00249826172E-04 +3.29776698796E-03 +3.34161798194E-04 +3.12059260454E-03 +7.47839025684E-01 +4.44703778331E-01
2.67500000000E+09 +7.49276484272E-01 +3.14757667839E-01 +5.81468283125E-04 +3.07599662091E-03 +6.11499842194E-04 +2.86917829684E-03 +7.51899286787E-01 +4.33447211227E-01
2.68000000000E+09 +7.51061794603E-01 +3.00307389113E-01 +7.16862453314E-04 +2.81146262900E-03 +6.10856454014E-04 +2.73672812080E-03 +7.55717279571E-01 +4.22929392753E-01
2.68500000000E+09 +7.52264026327E-01 +2.84988588129E-01 +6.18031400768E-04 +2.81972622553E-03 +5.37639036832E-04 +2.85547566227E-03 +7.59010074560E-01 +4.11271228690E-01
2.69000000000E+09 +7.52784068349E-01 +2.69455183661E-01 +7.98777757621E-04 +3.16454767119E-03 +7.86495604265E-04 +3.19520047283E-03 +7.61517316981E-01 +3.99174850254E-01
2.69500000000E+09 +7.53092393927E-01 +2.53897501080E-01 +1.39383685803E-03 +3.31085536639E-03 +1.42363288621E-03 +3.27961518415E-03 +7.64464855536E-01 +3.86117615878E-01
2.70000000000E+09 +7.53454700769E-01 +2.38345369204E-01 +1.91119122500E-03 +3.16785116785E-03 +1.85140762894E-03 +3.06694613818E-03 +7.67459080957E-01 +3.72478665275E-01
2.70500000000E+09 +7.53410854196E-01 +2.22995367591E-01 +2.34295260316E-03 +2.71810688596E-03 +2.18569937488E-03 +2.71473597993E-03 +7.70560841935E-01 +3.58798598795E-01
2.71000000000E+09 +7.53513540412E-01 +2.08061576937E-01 +2.43993802834E-03 +2.31780213430E-03 +2.39009709448E-03 +2.51317458774E-03 +7.73054450925E-01 +3.46027535268E-01
2.71500000000E+09 +7.54281625332E-01 +1.93065579492E-01 +2.22647442164E-03 +2.14477359253E-03 +2.39100833746E-03 +2.31539939475E-03 +7.76127380482E-01 +3.33600703295E-01
2.72000000000E+09 +7.54745024069E-01 +1.77910978420E-01 +2.36604613193E-03 +2.38212601284E-03 +2.61200369808E-03 +2.37959305608E-03 +7.78122206230E-01 +3.20329526126E-01
2.72500000000E+09 +7.55273567728E-01 +1.62480557830E-01 +2.90394291997E-03 +2.32741478322E-03 +3.14041582527E-03 +2.01052430333E-03 +7.79093869962E-01 +3.06334992678E-01
2.73000000000E+09 +7.55165117924E-01 +1.46564949907E-01 +3.09435819698E-03 +2.14454239579E-03 +2.98723589821E-03 +1.72831151199E-03 +7.80442261930E-01 +2.91911657224E-01
2.73500000000E+09 +7.54263798205E-01 +1.29812319055E-01 +3.35163507772E-03 +2.14225220192E-03 +2.94329984158E-03 +1.80617445649E-03 +7.81291376740E-01 +2.76819257974E-01
2.74000000000E+09 +7.52364542647E-01 +1.12788180851E-01 +4.11257750152E-03 +1.96131004568E-03 +3.45330163138E-03 +2.03482423770E-03 +7.82873971931E-01 +2.62073465098E-01
2.74500000000E+09 +7.49175838528E-01 +9.48252327907E-02 +4.33669734525E-03 +1.21519328442E-03 +3.98694412213E-03 +1.68668957490E-03 +7.84136807652E-01 +2.46884905687E-01
2.75000000000E+09 +7.44276516730E-01 +7.69404233922E-02 +4.44077623022E-03 +8.94935004394E-04 +4.50091322908E-03 +1.39334336184E-03 +7.84659239365E-01 +2.31699128778E-01
2.75500000000E+09 +7.38541152670E-01 +5.93828424095E-02 +4.58849451619E-03 +4.81205907927E-04 +4.91776215390E-03 +8.21648693588E-04 +7.83600361763E-01 +2.16267266485E-01
2.76000000000E+09 +7.32727854966E-01 +4.20214106732E-02 +4.78128279328E-03 +2.58400133339E-04 +5.09641534693E-03 +3.38512617995E-04 +7.82932715062E-01 +2.00765623247E-01
2.76500000000E+09 +7.26933647148E-01 +2.44910374933E-02 +5.11267377310E-03 -1.01973867955E-04 +5.41236160499E-03 -1.79495962563E-04 +7.81736119934E-01 +1.83587103406E-01
2.77000000000E+09 +7.21771971361E-01 +6.46382971040E-03 +5.61911004593E-03 -8.05607455528E-04 +5.83044101521E-03 -9.64160625416E-04 +7.80904832483E-01 +1.65954107856E-01
2.77500000000E+09 +7.16890295086E-01 -1.24936908749E-02 +5.48119904770E-03 -1.90630127159E-03 +5.69467654292E-03 -2.14746353955E-03 +7.78929988672E-01 +1.47844990904E-01
2.78000000000E+09 +7.12068038522E-01 -3.22190707773E-02 +5.03648283501E-03 -2.46437472758E-03 +5.02616860338E-03 -2.78904773981E-03 +7.76774677443E-01 +1.30579575619E-01
2.78500000000E+09 +7.07040881505E-01 -5.27853144663E-02 +4.87754712323E-03 -2.82303127965E-03 +4.66629151796E-03 -3.02378141409E-03 +7.74445198129E-01 +1.13408400689E-01
2.79000000000E+09 +7.01089087320E-01 -7.44189682794E-02 +4.89325739842E-03 -3.39650253870E-03 +4.52708217928E-03 -3.47943349123E-03 +7.70881301600E-01 +9.58158478236E-02
2.79500000000E+09 +6.93574743194E-01 -9.55393664963E-02 +4.58526325834E-03 -3.87045736535E-03 +4.33140403831E-03 -3.69051281368E-03 +7.66512606644E-01 +7.73877596029E-02
2.80000000000E+09 +6.84609673362E-01 -1.15841439072E-01 +4.70184687286E-03 -4.65634733421E-03 +4.68069163713E-03 -4.28032493917E-03 +7.61115290285E-01 +5.81716274608E-02
2.80500000000E+09 +6.75011934350E-01 -1.35192559381E-01 +3.97516056619E-03 -5.88663782596E-03 +4.25910445768E-03 -5.66696236139E-03 +7.55118124745E-01 +3.95012890956E-02
2.81000000000E+09 +6.64318812976E-01 -1.53458298474E-01 +2.88198721716E-03 -5.90674270500E-03 +3.07405596360E-03 -6.04766948788E-03 +7.49498165624E-01 +2.05513098149E-02
2.81500000000E+09 +6.52862796945E-01 -1.71418001208E-01 +2.77241395873E-03 -6.07366628097E-03 +2.64354656788E-03 -6.39288242395E-03 +7.42805798632E-01 +1.38775153257E-03
2.82000000000E+09 +6.40238139266E-01 -1.89170442338E-01 +2.28535669313E-03 -6.82275411065E-03 +1.96371876378E-03 -6.90177667734E-03 +7.35405819896E-01 -1.80292968820E-02
2.82500000000E+09 +6.26267199813E-01 -2.07070189388E-01 +1.24281074206E-03 -7.30168069627E-03 +9.35926741071E-04 -7.02708955173E-03 +7.25971151434E-01 -3.79635480480E-02
2.83000000000E+09 +6.10554651979E-01 -2.25123268032E-01 +4.77269176349E-04 -7.45919429065E-03 +4.89625785019E-04 -7.09094318650E-03 +7.15701076033E-01 -5.79417776661E-02
2.83500000000E+09 +5.94081031970E-01 -2.43336963634E-01 -5.75196995269E-04 -7.47994835431E-03 -3.54203919606E-04 -7.22822039501E-03 +7.05126887788E-01 -7.78614438437E-02
2.84000000000E+09 +5.76048059264E-01 -2.62156875286E-01 -1.08797809673E-03 -6.89137633532E-03 -9.24757004982E-04 -6.89887764392E-03 +6.94567387745E-01 -9.87463352139E-02
2.84500000000E+09 +5.56152964679E-01 -2.81806100994E-01 -8.92039228350E-04 -7.33354272080E-03 -7.51926674791E-04 -7.41029792156E-03 +6.82652911139E-01 -1.19606956117E-01
2.85000000000E+09 +5.34393652582E-01 -3.01047698010E-01 -1.98928125961E-03 -8.47044350985E-03 -1.99850206596E-03 -8.52577922716E-03 +6.69347327152E-01 -1.40508946225E-01
2.85500000000E+09 +5.11671344905E-01 -3.19382479431E-01 -3.93336013292E-03 -8.64290950670E-03 -3.91965419159E-03 -8.57629836015E-03 +6.54158066070E-01 -1.60619631726E-01
2.86000000000E+09 +4.88085925559E-01 -3.37624596885E-01 -5.45716138627E-03 -7.95468326779E-03 -5.31441547842E-03 -7.82099851273E-03 +6.38292119792E-01 -1.80940509604E-01
2.86500000000E+09 +4.63702736298E-01 -3.54545413883E-01 -6.93228399248E-03 -6.92780405326E-03 -6.86897471642E-03 -6.96329414782E-03 +6.20816059996E-01 -2.02363716906E-01
2.87000000000E+09 +4.38362855428E-01 -3.70819887942E-01 -7.51604399245E-03 -5.30778439570E-03 -7.63837638052E-03 -5.31183114898E-03 +6.00486892631E-01 -2.23829511303E-01
2.87500000000E+09 +4.12333296932E-01 -3.85004182718E-01 -7.11487724639E-03 -4.52304768624E-03 -7.23209402383E-03 -4.37036596533E-03 +5.79869628999E-01 -2.42841125273E-01
2.88000000000E+09 +3.86392818197E-01 -3.97555678271E-01 -7.59505495564E-03 -4.79453697381E-03 -7.52384758741E-03 -4.39148180625E-03 +5.58920870209E-01 -2.62071428351E-01
2.88500000000E+09 +3.60426582387E-01 -4.09446188955E-01 -9.32824575762E-03 -3.87161535753E-03 -8.84889190423E-03 -3.56696560947E-03 +5.36176622210E-01 -2.80353479284E-01
2.89000000000E+09 +3.33355488164E-01 -4.21053796566E-01 -9.48895834998E-03 -2.10803379849E-03 -8.90409557650E-03 -2.14783782044E-03 +5.11105684150E-01 -2.98625833380E-01
2.89500000000E+09 +3.04691468147E-01 -4.31850044022E-01 -9.50575726055E-03 -1.38678739193E-03 -9.18294298437E-03 -1.77683526526E-03 +4.83180288769E-01 -3.16237310473E-01
2.90000000000E+09 +2.73608590745E-01 -4.41609246020E-01 -1.02087024807E-02 -2.83120630857E-04 -1.02180683845E-02 -6.62691151808E-04 +4.53098313689E-01 -3.31801043543E-01
2.90500000000E+09 +2.39204899369E-01 -4.48878855455E-01 -9.96391985677E-03 +1.06840358664E-03 -1.01821346079E-02 +1.16866215421E-03 +4.23836816326E-01 -3.46740468832E-01
2.91000000000E+09 +2.04490602607E-01 -4.52254089681E-01 -1.00405199596E-02 +1.98121469357E-03 -9.84911802162E-03 +2.29807751456E-03 +3.92751981623E-01 -3.61541272197E-01
2.91500000000E+09 +1.69530048093E-01 -4.53932480268E-01 -1.00851540033E-02 +3.67310193551E-03 -9.51967387726E-03 +3.74189413805E-03 +3.59619989790E-01 -3.73612699471E-01
2.92000000000E+09 +1.34100117809E-01 -4.53378933199E-01 -8.83420941008E-03 +5.22503324145E-03 -8.32386242950E-03 +4.82423323814E-03 +3.25545817601E-01 -3.83004383288E-01
2.92500000000E+09 +9.91755962026E-02 -4.51018112187E-01 -7.87736617571E-03 +5.14102290362E-03 -7.71883357580E-03 +4.47982766258E-03 +2.89992453581E-01 -3.89898132862E-01
2.93000000000E+09 +6.43191744258E-02 -4.47401517374E-01 -8.28003834048E-03 +5.77170343109E-03 -8.43173422573E-03 +5.21153021786E-03 +2.53841009677E-01 -3.95573534747E-01
2.93500000000E+09 +2.89912054951E-02 -4.42442005024E-01 -8.01178162148E-03 +7.15300341803E-03 -8.31830457255E-03 +6.85845985380E-03 +2.16146909594E-01 -4.00565741646E-01
2.94000000000E+09 -6.03437283557E-03 -4.35084174860E-01 -7.22073452600E-03 +8.44645713874E-03 -7.43887521794E-03 +8.29205917509E-03 +1.75972332325E-01 -4.04111255410E-01
2.94500000000E+09 -4.10330413640E-02 -4.26581685403E-01 -6.10862265679E-03 +9.95515952563E-03 -6.36871553497E-03 +9.71860273155E-03 +1.35359246654E-01 -4.03439697032E-01
2.95000000000E+09 -7.69696109088E-02 -4.13831008177E-01 -3.88689565332E-03 +1.04390803068E-02 -4.36518483256E-03 +1.03060358053E-02 +9.54626647150E-02 -3.98955542307E-01
2.95500000000E+09 -1.10742826640E-01 -3.97338662700E-01 -2.76116527248E-03 +9.93057722489E-03 -3.20546512838E-03 +1.00890643396E-02 +5.73170256206E-02 -3.92613017605E-01
2.96000000000E+09 -1.41990217416E-01 -3.79159927791E-01 -2.37662236379E-03 +1.00788832992E-02 -2.63310633529E-03 +1.05562411454E-02 +1.68040498643E-02 -3.84171943294E-01
2.96500000000E+09 -1.73496156760E-01 -3.59250610454E-01 -1.63469601680E-03 +1.06758660873E-02 -1.44088933116E-03 +1.11315521265E-02 -2.43535509557E-02 -3.72597238688E-01
2.97000000000E+09 -2.03888072579E-01 -3.35768290981E-01 -3.45121215726E-04 +1.12705785672E-02 +4.46912774834E-05 +1.12945322937E-02 -6.54839630302E-02 -3.57711617702E-01
2.97500000000E+09 -2.32825320819E-01 -3.10841165836E-01 +8.49629620820E-04 +1.16527121337E-02 +9.11892907514E-04 +1.12982624520E-02 -1.05204641367E-01 -3.39943759752E-01
2.98000000000E+09 -2.61764932268E-01 -2.83146405147E-01 +2.96693973787E-03 +1.17025615494E-02 +2.65505618898E-03 +1.14233374224E-02 -1.43165765352E-01 -3.19294309727E-01
2.98500000000E+09 -2.88985632696E-01 -2.52740584025E-01 +4.24452773886E-03 +1.06206267993E-02 +3.83051005763E-03 +1.09287065541E-02 -1.79980496008E-01 -2.95933067078E-01
2.99000000000E+09 -3.13955674905E-01 -2.21067665444E-01 +4.80457225336E-03 +1.02806109018E-02 +4.93046045689E-03 +1.08395589680E-02 -2.15593467962E-01 -2.69016014025E-01
2.99500000000E+09 -3.37712086125E-01 -1.88202398313E-01 +6.05184746387E-03 +1.06788937239E-02 +6.64963622752E-03 +1.09953964884E-02 -2.49206962661E-01 -2.39164795003E-01
3.00000000000E+09 -3.58171417939E-01 -1.54693870515E-01 +8.47688168863E-03 +9.67296886395E-03 +9.07133881059E-03 +9.18390788361E-03 -2.80418693220E-01 -2.06625526367E-01
3.00500000000E+09 -3.77304402049E-01 -1.21845086909E-01 +9.10200076428E-03 +8.13806369981E-03 +9.13845952884E-03 +7.51459697488E-03 -3.08987326603E-01 -1.72737047619E-01
3.01000000000E+09 -3.94617666879E-01 -8.84445906330E-02 +1.02222311712E-02 +7.19993416421E-03 +9.85199164818E-03 +6.78999105677E-03 -3.34621821215E-01 -1.37738397305E-01
3.01500000000E+09 -4.09425623440E-01 -5.42539454981E-02 +1.10410816631E-02 +5.89097922938E-03 +1.06392166957E-02 +6.02583600644E-03 -3.57996792901E-01 -1.01687186776E-01
3.02000000000E+09 -4.20833926405E-01 -1.92640780464E-02 +1.16526201079E-02 +4.53404618849E-03 +1.15355527918E-02 +4.73007494402E-03 -3.78145709027E-01 -6.22354120919E-02
3.02500000000E+09 -4.29140663016E-01 +1.56708460500E-02 +1.20793428651E-02 +3.40064664891E-03 +1.20169905528E-02 +3.42655319728E-03 -3.93825500480E-01 -2.26078906925E-02
3.03000000000E+09 -4.33702252957E-01 +5.15434745389E-02 +1.28448046004E-02 +1.75557008619E-03 +1.27082668445E-02 +1.83897624638E-03 -4.07582692011E-01 +1.75830849690E-02
3.03500000000E+09 -4.34378662850E-01 +8.71460685317E-02 +1.30829671403E-02 +3.41426106697E-05 +1.29368371053E-02 +4.27803527202E-04 -4.19023769571E-01 +5.73017139803E-02
3.04000000000E+09 -4.32305074386E-01 +1.21249701764E-01 +1.31693165853E-02 -2.05526451606E-03 +1.35081423436E-02 -1.60107311425E-03 -4.28201585270E-01 +9.86158127692E-02
3.04500000000E+09 -4.29031409868E-01 +1.55332705117E-01 +1.23806485324E-02 -3.90361609513E-03 +1.31444126669E-02 -3.95401413644E-03 -4.33010469773E-01 +1.39847466874E-01
3.05000000000E+09 -4.23784078666E-01 +1.90063002969E-01 +1.14049446897E-02 -5.23458617463E-03 +1.18339130935E-02 -6.08847381493E-03 -4.33596301181E-01 +1.79516953405E-01
3.05500000000E+09 -4.16636132847E-01 +2.24305248527E-01 +1.05165987085E-02 -6.13373372413E-03 +1.01610256335E-02 -6.92876299512E-03 -4.33117435412E-01 +2.17400817231E-01
3.06000000000E+09 -4.07545747192E-01 +2.58738553522E-01 +1.02608688638E-02 -7.35690782754E-03 +9.41491820430E-03 -7.57800640144E-03 -4.31295070852E-01 +2.56175720801E-01
3.06500000000E+09 -3.95803375619E-01 +2.91806009639E-01 +9.31256773787E-03 -9.26000972624E-03 +8.66655942288E-03 -8.66849731594E-03 -4.26163790059E-01 +2.94242599933E-01
3.07000000000E+09 -3.82987669857E-01 +3.21460172815E-01 +7.08113440503E-03 -1.07158769593E-02 +7.51002168373E-03 -9.85817768615E-03 -4.19037702919E-01 +3.30384879946E-01
