# Hz S RI R 50
! CMT, C1220, 16058040, 17.2.0/1
! Date: 14/08/2018 12:16:18
! Data: Format (Calibration Info)
! Freq                      S11: Re/Im (F2)                       S21: Re/Im (F2)                       S12: Re/Im (F2)                       S22: Re/Im (F2)            
1.00000000000E+09 -6.48025477399E-01 +7.14492378819E-01 -8.48472988652E-06 +1.56162527044E-05 -9.58921476245E-06 +2.05760101168E-05 -7.53456428364E-01 +6.24934514878E-01
1.00500000000E+09 -6.40902547080E-01 +7.19560767961E-01 +1.52252437074E-05 +3.97583268949E-05 +2.00753819379E-05 -2.65344879773E-05 -7.49975361878E-01 +6.28943822206E-01
1.01000000000E+09 -6.35036982265E-01 +7.24117681942E-01 -1.99899611010E-05 -1.66811816976E-05 +4.02427440776E-06 +2.61194425748E-05 -7.46423898204E-01 +6.32681771283E-01
1.01500000000E+09 -6.31206713299E-01 +7.27881948489E-01 -4.55763242052E-06 +1.15142611612E-05 +4.56840911709E-06 -5.62408945599E-06 -7.43086152854E-01 +6.36307779391E-01
1.02000000000E+09 -6.28993649484E-01 +7.31050161116E-01 -9.01881859756E-06 +3.64248106090E-05 -5.11668154859E-06 +2.91963395137E-05 -7.39813166483E-01 +6.40049575228E-01
1.02500000000E+09 -6.27752799536E-01 +7.33289953918E-01 -1.33366856913E-05 -2.23674473815E-05 +1.26507019589E-05 +1.48686432081E-05 -7.36831409465E-01 +6.43827104755E-01
1.03000000000E+09 -6.27140088431E-01 +7.35403919688E-01 -1.26053703570E-05 +1.50541849894E-05 +8.06917568361E-07 +1.49548998440E-06 -7.33323252418E-01 +6.47534535781E-01
1.03500000000E+09 -6.25365750134E-01 +7.37406820938E-01 +1.28543044069E-05 -2.78638659170E-05 -7.08014865876E-06 +6.39527595452E-06 -7.29515543691E-01 +6.51585345194E-01
1.04000000000E+09 -6.22303050942E-01 +7.39991615318E-01 -1.42456803925E-05 +1.32623559126E-05 -2.91904367658E-05 +8.39022765412E-06 -7.25749801360E-01 +6.55112029693E-01
1.04500000000E+09 -6.17150939887E-01 +7.43333988664E-01 -4.21693092206E-05 +2.16190741236E-05 -2.34726916908E-05 -2.18452061982E-05 -7.22301401823E-01 +6.58745210193E-01
1.05000000000E+09 -6.09905061415E-01 +7.47484434533E-01 -2.77656977996E-05 +5.01341319646E-05 +6.72102157662E-06 +1.27485110841E-05 -7.18804165365E-01 +6.62291031937E-01
1.05500000000E+09 -6.01095853904E-01 +7.52216726863E-01 +1.31187697350E-05 +6.30569997282E-05 +4.16316771174E-05 +5.87459709755E-05 -7.15570021238E-01 +6.65711437646E-01
1.06000000000E+09 -5.91681183861E-01 +7.57552921753E-01 -5.23724280346E-05 +1.34898140099E-05 +4.11755945774E-05 -2.07653601411E-05 -7.12205241295E-01 +6.69404806333E-01
1.06500000000E+09 -5.82738666177E-01 +7.62746401988E-01 +8.78070636356E-06 +4.12635662146E-05 +3.58164027119E-05 +4.14625050299E-05 -7.08423088122E-01 +6.73227772218E-01
1.07000000000E+09 -5.75338702860E-01 +7.67326560838E-01 -1.20578433267E-05 +2.68815017248E-05 -1.18715477904E-05 +5.26191646903E-05 -7.04439532571E-01 +6.76962816501E-01
1.07500000000E+09 -5.69537855323E-01 +7.71151207741E-01 -1.24228838856E-05 +3.72195332519E-05 -1.65745751676E-05 +3.25911545452E-05 -7.00115886192E-01 +6.80479623623E-01
1.08000000000E+09 -5.65881265838E-01 +7.74444112907E-01 +2.71086854077E-05 -2.99764644647E-06 +2.20871643794E-05 +1.70800956250E-05 -6.96118330831E-01 +6.84492504222E-01
1.08500000000E+09 -5.63842407006E-01 +7.76863530911E-01 +1.08071262164E-05 -2.31007059669E-06 +8.01348769578E-05 -1.34977829572E-06 -6.92189879560E-01 +6.88136849555E-01
1.09000000000E+09 -5.62312683578E-01 +7.78973272417E-01 -1.48526093578E-05 -7.98420824663E-06 +2.16105274872E-05 -4.04664850331E-06 -6.88481032406E-01 +6.92055348892E-01
1.09500000000E+09 -5.61063144331E-01 +7.80535069589E-01 +3.47006757232E-05 +4.47637813147E-05 +2.21808950190E-05 +1.53825499712E-05 -6.84593635058E-01 +6.95936771131E-01
1.10000000000E+09 -5.58378267251E-01 +7.82549105902E-01 +4.00081478522E-05 -3.23934563714E-05 +4.27536537553E-06 -1.98663203418E-05 -6.80636855685E-01 +6.99773146453E-01
1.10500000000E+09 -5.54266823920E-01 +7.84980086740E-01 +3.17102172799E-05 -9.55173061147E-06 +5.01135324865E-05 -2.19512614343E-05 -6.76278626315E-01 +7.03357811007E-01
1.11000000000E+09 -5.48292928100E-01 +7.88127433710E-01 +1.94363699677E-05 -6.95828324350E-06 +7.69493753688E-06 -1.71140743634E-05 -6.72120163299E-01 +7.06663648929E-01
1.11500000000E+09 -5.40691808214E-01 +7.92009262894E-01 +2.41460466123E-05 -6.91758709331E-06 +4.79558323121E-05 -1.30496347150E-05 -6.67914621450E-01 +7.10106558731E-01
1.12000000000E+09 -5.32537216118E-01 +7.96184218333E-01 +1.44903355505E-06 -6.09283705474E-06 +2.09593533814E-05 +2.68645757765E-06 -6.63924051736E-01 +7.13834665648E-01
1.12500000000E+09 -5.24188870456E-01 +8.00470256648E-01 +1.38597999288E-05 -1.75910194805E-05 +2.93204126688E-05 +1.31365560575E-05 -6.59487338791E-01 +7.17784877369E-01
1.13000000000E+09 -5.16726464082E-01 +8.04423114640E-01 +3.03361525647E-05 +3.69683415907E-06 +3.22220696862E-05 -3.22784056702E-05 -6.55488406099E-01 +7.21413785999E-01
1.13500000000E+09 -5.10722669348E-01 +8.07686653723E-01 +3.24943122634E-05 +1.51503938140E-05 +1.50737073878E-05 -6.03378157530E-06 -6.50680902039E-01 +7.25292273831E-01
1.14000000000E+09 -5.06041809744E-01 +8.10579922096E-01 +2.13480722669E-05 +1.09851709120E-05 +3.51913300502E-05 -4.75751913784E-05 -6.46130071945E-01 +7.28760184132E-01
1.14500000000E+09 -5.02628926798E-01 +8.12442312901E-01 +2.37469633611E-05 -5.91850453167E-05 -3.38826688914E-05 -7.70186076113E-06 -6.41511308823E-01 +7.32115680224E-01
1.15000000000E+09 -4.99633082863E-01 +8.13925534532E-01 +4.10618481416E-05 -3.94763712230E-07 +4.92561887421E-05 +3.29651023177E-05 -6.36910621632E-01 +7.36075886770E-01
1.15500000000E+09 -4.96599419215E-01 +8.15523313502E-01 +2.15198388844E-05 -3.71252676319E-05 +3.37263831028E-05 -4.32628555726E-05 -6.32009717001E-01 +7.39778407437E-01
1.16000000000E+09 -4.92297713585E-01 +8.17328503334E-01 +2.20020001850E-05 -4.32329717387E-05 +3.73126343170E-05 -8.85259451450E-05 -6.27216799977E-01 +7.43666388031E-01
1.16500000000E+09 -4.86782013518E-01 +8.19887514412E-01 +2.95783598678E-05 -3.88894826891E-05 +3.93736778177E-05 -8.65367179556E-06 -6.22154724265E-01 +7.47200560421E-01
1.17000000000E+09 -4.79686734349E-01 +8.22841838037E-01 +3.78726710722E-05 -7.87612734940E-06 -2.08556757977E-05 -1.23632104802E-05 -6.16687891688E-01 +7.50455267292E-01
1.17500000000E+09 -4.71740327021E-01 +8.26214755762E-01 +2.81787176532E-05 -5.64461118758E-05 +7.59546746553E-07 -1.78614048402E-05 -6.10846704878E-01 +7.53913554855E-01
1.18000000000E+09 -4.63425909777E-01 +8.29866240818E-01 +4.17379929633E-06 -9.68819265460E-06 +6.72250023178E-06 -2.45853605901E-05 -6.05396808455E-01 +7.56868571169E-01
1.18500000000E+09 -4.55355190561E-01 +8.33195720110E-01 +3.18273003158E-05 -2.51919952321E-05 +1.78086306370E-05 -1.41126401521E-05 -5.99363596930E-01 +7.59901756498E-01
1.19000000000E+09 -4.47877489616E-01 +8.36142616652E-01 +4.62669765227E-05 +2.02618617730E-05 +4.06740896397E-05 -1.63528731884E-06 -5.93231629838E-01 +7.62685902676E-01
1.19500000000E+09 -4.42148679440E-01 +8.38443832334E-01 +9.79308497618E-06 -8.22863493536E-05 +3.76052211124E-05 -1.75360470778E-05 -5.87321246325E-01 +7.63915963772E-01
1.20000000000E+09 -4.37691003239E-01 +8.39445533837E-01 +4.25007709918E-05 -4.92004500691E-05 +3.03134410019E-05 -4.80185736199E-05 -5.82758552595E-01 +7.64004084885E-01
1.20500000000E+09 -4.33844462924E-01 +8.40811498793E-01 -2.20722363973E-05 -1.44091590828E-05 -1.32880304069E-05 -3.90255296587E-05 -5.80525033533E-01 +7.64947111695E-01
1.21000000000E+09 -4.29819299582E-01 +8.42098044101E-01 +5.15914123920E-05 -8.41949465022E-05 -1.08194832056E-06 -6.74256482608E-05 -5.78657185044E-01 +7.67967990387E-01
1.21500000000E+09 -4.24579884353E-01 +8.43705654256E-01 -1.53235006242E-05 -2.56461102330E-05 +3.25664862547E-05 +4.24629236011E-06 -5.75866585051E-01 +7.72531214833E-01
1.22000000000E+09 -4.17617368127E-01 +8.45551150943E-01 -7.70469219751E-06 -2.09973952331E-05 +3.14065627895E-05 -5.97432120333E-05 -5.71814137385E-01 +7.77780656563E-01
1.22500000000E+09 -4.08906872779E-01 +8.48276933814E-01 +4.17652638822E-05 -6.02043915470E-05 +3.68001294812E-05 +2.06301539423E-05 -5.66729562685E-01 +7.82960541143E-01
1.23000000000E+09 -3.98620803309E-01 +8.51350955553E-01 +5.24541710857E-05 -3.30989688811E-05 -2.35201361061E-05 -5.72653363631E-05 -5.61034982743E-01 +7.87609308439E-01
1.23500000000E+09 -3.87695716412E-01 +8.55018316801E-01 +1.24636354182E-05 -4.41786296558E-05 +2.00492212179E-05 -7.06129318889E-05 -5.55130310185E-01 +7.91904305386E-01
1.24000000000E+09 -3.76743899264E-01 +8.59131905131E-01 +8.17584782085E-05 -7.43222515667E-05 +8.38231404396E-05 -1.02953679338E-04 -5.49073839315E-01 +7.95768477327E-01
1.24500000000E+09 -3.66740291380E-01 +8.63206037661E-01 -1.50065900004E-05 -1.58103487350E-04 +3.27375454415E-05 -1.73122145401E-04 -5.42726461467E-01 +7.99650701894E-01
1.25000000000E+09 -3.58353024994E-01 +8.66680381679E-01 -3.09604018131E-05 -1.58298588077E-04 -7.40468069612E-06 -1.19484380461E-04 -5.36139915660E-01 +8.03870263048E-01
1.25500000000E+09 -3.51710858768E-01 +8.69134256683E-01 -8.08384305677E-05 -1.21980339521E-04 -4.29114426649E-05 -1.26361442108E-04 -5.29415018239E-01 +8.07942475589E-01
1.26000000000E+09 -3.46492120174E-01 +8.71173461954E-01 -6.86794593138E-05 -1.10293164137E-04 -5.00907434501E-05 -9.28767001605E-05 -5.22620039769E-01 +8.12301838938E-01
1.26500000000E+09 -3.42119048412E-01 +8.72636232905E-01 -6.18817971081E-05 -1.09548424607E-04 -6.68770544103E-05 -1.51541327813E-04 -5.15683365538E-01 +8.16065296693E-01
1.27000000000E+09 -3.37530420815E-01 +8.73936589766E-01 -4.63765691599E-05 -1.41804072995E-04 -6.01313195029E-05 -1.31951166588E-04 -5.08820277262E-01 +8.19963961065E-01
1.27500000000E+09 -3.31702718869E-01 +8.75231112500E-01 -1.13981860288E-04 -1.23980547469E-04 -1.12162406742E-04 -6.65025714779E-05 -5.01812157313E-01 +8.23380536038E-01
1.28000000000E+09 -3.23973270086E-01 +8.77019502461E-01 -1.51733824822E-04 -1.27733720356E-04 -1.68082375219E-04 -1.29732586509E-04 -4.94738810179E-01 +8.26930068852E-01
1.28500000000E+09 -3.13770889996E-01 +8.79137909410E-01 -1.63709473171E-04 -7.86632951550E-05 -1.61888970898E-04 -1.58721967134E-04 -4.87293231002E-01 +8.30751831361E-01
1.29000000000E+09 -3.02106076186E-01 +8.81968754086E-01 -1.72483509001E-04 -3.96926522240E-05 -2.27258277928E-04 -9.90359104020E-05 -4.79837888329E-01 +8.34486828215E-01
1.29500000000E+09 -2.89273612991E-01 +8.85337929640E-01 -2.43041072413E-04 -7.85064466984E-05 -2.08309819157E-04 -6.73124865841E-05 -4.72003034954E-01 +8.38055637745E-01
1.30000000000E+09 -2.76507768953E-01 +8.88834803082E-01 -2.24780764981E-04 -6.85169280094E-05 -2.09646774347E-04 -1.47980442357E-05 -4.64080894709E-01 +8.41543531686E-01
1.30500000000E+09 -2.64825221900E-01 +8.91946178639E-01 -2.34835845163E-04 +1.62774701021E-05 -2.30537164737E-04 -4.61577026661E-06 -4.56011209323E-01 +8.44870705110E-01
1.31000000000E+09 -2.54947308689E-01 +8.94403997239E-01 -2.92640751621E-04 +6.77008896724E-05 -2.38317092616E-04 +5.62527918122E-05 -4.47665195211E-01 +8.48556725568E-01
1.31500000000E+09 -2.47410646255E-01 +8.96262718323E-01 -2.52215008023E-04 +9.34511946218E-05 -2.47004256703E-04 +7.70478080514E-05 -4.38865321337E-01 +8.51911956732E-01
1.32000000000E+09 -2.41455489747E-01 +8.97522556283E-01 -1.91373078084E-04 +9.14247024515E-05 -2.16909811108E-04 +9.35365522108E-05 -4.29839974031E-01 +8.55297538470E-01
1.32500000000E+09 -2.35933724807E-01 +8.97925942314E-01 -2.50669524910E-04 +9.97656313969E-05 -2.34335077849E-04 +1.72367790665E-04 -4.20253965145E-01 +8.58765117559E-01
1.33000000000E+09 -2.29831023356E-01 +8.98134521454E-01 -2.63165732904E-04 +1.60170937360E-04 -2.34014339639E-04 +1.85528203790E-04 -4.10542025496E-01 +8.62059868749E-01
1.33500000000E+09 -2.21811127210E-01 +8.97954483342E-01 -2.54449814178E-04 +2.14504419326E-04 -2.12915411115E-04 +2.42097857365E-04 -4.00519105610E-01 +8.65473463069E-01
1.34000000000E+09 -2.11199945117E-01 +8.97938700121E-01 -1.82074091192E-04 +2.79468716479E-04 -1.47987753228E-04 +2.79585243258E-04 -3.90454155280E-01 +8.68814290223E-01
1.34500000000E+09 -1.97579014626E-01 +8.97835685104E-01 -1.38328958659E-04 +2.43379244057E-04 -1.31155857372E-04 +2.40723398512E-04 -3.79413497861E-01 +8.72086589847E-01
1.35000000000E+09 -1.81632194354E-01 +8.97951294034E-01 -1.11109121992E-04 +2.87290649815E-04 -1.74003471938E-04 +2.23784798068E-04 -3.68345737081E-01 +8.75194869835E-01
1.35500000000E+09 -1.64079136352E-01 +8.98415320176E-01 -1.35479951509E-04 +2.77519501957E-04 -9.28668731943E-05 +2.50687533268E-04 -3.56709693523E-01 +8.78138104268E-01
1.36000000000E+09 -1.46530408435E-01 +8.98989480922E-01 -1.06034005791E-04 +3.01217876345E-04 -6.40519089373E-05 +3.42601791407E-04 -3.44834827836E-01 +8.80881240109E-01
1.36500000000E+09 -1.29934540769E-01 +8.99584926135E-01 -7.19840331102E-05 +3.59851332188E-04 -6.32065732816E-05 +3.08783735469E-04 -3.32660814980E-01 +8.83500838179E-01
1.37000000000E+09 -1.15289071604E-01 +8.99850886022E-01 -5.71036882721E-05 +3.62411937511E-04 -9.10678679934E-05 +3.50444248612E-04 -3.19721495335E-01 +8.85884634560E-01
1.37500000000E+09 -1.02830130089E-01 +8.99918600439E-01 -3.07584647613E-05 +4.54008954836E-04 -9.45742256529E-05 +3.99213097848E-04 -3.05978946105E-01 +8.88117190642E-01
1.38000000000E+09 -9.20421104861E-02 +8.99564243927E-01 +5.71273034701E-05 +4.91880713177E-04 -1.32713665501E-06 +5.01852682768E-04 -2.91432234839E-01 +8.90393206978E-01
1.38500000000E+09 -8.14016273246E-02 +8.98789852395E-01 +1.83884526173E-04 +4.44889158829E-04 +1.35427759178E-04 +4.72029994775E-04 -2.75661889181E-01 +8.92370259324E-01
1.39000000000E+09 -7.00422881811E-02 +8.97143815006E-01 +1.60013439380E-04 +4.14132316334E-04 +1.79500202214E-04 +4.85433636481E-04 -2.59702033669E-01 +8.93865456377E-01
1.39500000000E+09 -5.65231423944E-02 +8.94590781165E-01 +2.22210706913E-04 +4.44843380531E-04 +2.48164272688E-04 +4.76466559045E-04 -2.42629859504E-01 +8.94647642685E-01
1.40000000000E+09 -3.99741557626E-02 +8.90925437044E-01 +2.61012059395E-04 +4.23522829671E-04 +3.49483671598E-04 +3.88891212920E-04 -2.25061207719E-01 +8.95177758837E-01
1.40500000000E+09 -2.07127122889E-02 +8.86287978449E-01 +3.17683603666E-04 +3.39121366537E-04 +3.57517131521E-04 +3.32840457517E-04 -2.06101117577E-01 +8.95156655364E-01
1.41000000000E+09 +9.49991235459E-04 +8.80824770622E-01 +3.89248450308E-04 +3.66789226067E-04 +3.75512622407E-04 +3.58528695880E-04 -1.85634512686E-01 +8.94332370517E-01
1.41500000000E+09 +2.40799272439E-02 +8.74519834579E-01 +4.05790156001E-04 +3.28362665317E-04 +4.23540133323E-04 +3.78141150835E-04 -1.63952734265E-01 +8.92741385951E-01
1.42000000000E+09 +4.73300087909E-02 +8.67969624329E-01 +4.76871875281E-04 +3.68924256473E-04 +4.64924118932E-04 +3.79473080810E-04 -1.40797316792E-01 +8.89952423824E-01
1.42500000000E+09 +7.01443391899E-02 +8.60801107031E-01 +5.39261431196E-04 +2.96634094771E-04 +5.88677302627E-04 +2.99178212147E-04 -1.17099071621E-01 +8.86361490299E-01
1.43000000000E+09 +9.20074556022E-02 +8.52997574967E-01 +5.98185887640E-04 +2.99039515922E-04 +6.51398949475E-04 +2.16561961895E-04 -9.20670915798E-02 +8.81419076684E-01
1.43500000000E+09 +1.12847296951E-01 +8.43563571818E-01 +6.85008528879E-04 +2.48814770916E-04 +7.17164141896E-04 +2.45804315269E-04 -6.56195833330E-02 +8.74669882555E-01
1.44000000000E+09 +1.33314858837E-01 +8.32922399564E-01 +7.50268795983E-04 +1.33690382555E-04 +7.49583888048E-04 +3.28488133025E-05 -3.73391785958E-02 +8.65693081284E-01
1.44500000000E+09 +1.55306428093E-01 +8.19896344080E-01 +6.66538539844E-04 +3.05849048260E-05 +7.17660906689E-04 -4.42435217855E-06 -7.16328146280E-03 +8.53990023964E-01
1.45000000000E+09 +1.79287162851E-01 +8.03177403752E-01 +6.61965666086E-04 +1.33954367870E-04 +6.98784603963E-04 +1.19274076191E-04 +2.47282692226E-02 +8.39305060408E-01
1.45500000000E+09 +2.06087783508E-01 +7.82356593711E-01 +8.75088514570E-04 +1.83474146747E-04 +8.55621512630E-04 +1.20177213622E-04 +5.81882597229E-02 +8.21279459252E-01
1.46000000000E+09 +2.36161024557E-01 +7.56251272777E-01 +1.09548328275E-03 +1.62750599554E-04 +1.05027592855E-03 +3.42920770213E-05 +9.29732439546E-02 +7.99034191375E-01
1.46500000000E+09 +2.68272704512E-01 +7.25040378527E-01 +1.36999931652E-03 -1.37285459703E-05 +1.28330963914E-03 -1.03392070659E-04 +1.28770226481E-01 +7.72100331458E-01
1.47000000000E+09 +3.01325352283E-01 +6.87897101679E-01 +1.62980968274E-03 -2.38800318805E-04 +1.47505352715E-03 -1.97114321416E-04 +1.65842932713E-01 +7.38353302033E-01
1.47500000000E+09 +3.33821940665E-01 +6.45532842551E-01 +1.73874711941E-03 -6.99426558613E-04 +1.73394912371E-03 -5.62719742574E-04 +2.03110229591E-01 +6.97235058221E-01
1.48000000000E+09 +3.64141160946E-01 +5.96920529944E-01 +1.93890104693E-03 -9.81577807420E-04 +1.98438002213E-03 -9.51258733234E-04 +2.39456963567E-01 +6.47301944327E-01
1.48500000000E+09 +3.89762843844E-01 +5.41596866100E-01 +2.05173740416E-03 -1.60301197864E-03 +2.11447701624E-03 -1.66615181609E-03 +2.73471801475E-01 +5.87893075849E-01
1.49000000000E+09 +4.08998113867E-01 +4.79307833837E-01 +1.84356216278E-03 -2.42180508610E-03 +1.73876201644E-03 -2.49891024404E-03 +3.01174424936E-01 +5.17583480790E-01
1.49500000000E+09 +4.20350048814E-01 +4.09200535625E-01 +1.84146835958E-03 -2.98912131423E-03 +1.64861584969E-03 -2.89738742252E-03 +3.18866762419E-01 +4.37745552511E-01
1.50000000000E+09 +4.21060405627E-01 +3.29618882923E-01 +1.29117080440E-03 -4.41318564068E-03 +1.22274185863E-03 -4.16820790132E-03 +3.23500916771E-01 +3.48309571497E-01
1.50500000000E+09 +4.07781680316E-01 +2.41855011893E-01 -3.38432316666E-04 -5.23037533521E-03 -1.66439585066E-04 -5.07677927606E-03 +3.10988344446E-01 +2.51443457874E-01
1.51000000000E+09 +3.76654565343E-01 +1.48643129773E-01 -2.11819287049E-03 -5.38193158750E-03 -1.92101006158E-03 -5.44572205721E-03 +2.77158230913E-01 +1.51721796155E-01
1.51500000000E+09 +3.26232284772E-01 +5.57332188639E-02 -4.15629552218E-03 -4.83260549238E-03 -4.07027673184E-03 -5.01853835394E-03 +2.22270037106E-01 +5.55847976711E-02
1.52000000000E+09 +2.54835084715E-01 -3.00766849854E-02 -5.68576884549E-03 -3.04871169671E-03 -5.72036203146E-03 -3.13808316693E-03 +1.44515655624E-01 -2.98687900781E-02
1.52500000000E+09 +1.65760195161E-01 -1.00936521838E-01 -5.85483675319E-03 -1.36550488064E-03 -5.86971508194E-03 -1.47648428772E-03 +4.91190335775E-02 -9.51120874514E-02
1.53000000000E+09 +6.19656698170E-02 -1.51706096975E-01 -6.27010584302E-03 -3.41258995251E-04 -6.29891693812E-03 -3.41323705771E-04 -5.61653348329E-02 -1.38637308513E-01
1.53500000000E+09 -5.09812937207E-02 -1.75618594145E-01 -6.75093274166E-03 +1.69221079134E-03 -6.85080441490E-03 +1.62059592066E-03 -1.66877401109E-01 -1.57436485290E-01
1.54000000000E+09 -1.63538911930E-01 -1.71456688622E-01 -5.96750264530E-03 +3.87022278295E-03 -5.88796630927E-03 +3.78295914332E-03 -2.72640033892E-01 -1.53028631719E-01
1.54500000000E+09 -2.68638553472E-01 -1.43991688361E-01 -4.36489909383E-03 +5.78653177205E-03 -4.39711351821E-03 +5.61346338911E-03 -3.69447898639E-01 -1.31245733661E-01
1.55000000000E+09 -3.62710501018E-01 -9.79123201707E-02 -1.90992152617E-03 +6.18732299288E-03 -2.20448677964E-03 +6.13793947997E-03 -4.54058166820E-01 -9.41608579283E-02
1.55500000000E+09 -4.41737818893E-01 -3.94472159452E-02 -9.24199859183E-05 +5.88232207364E-03 -4.00353815431E-04 +6.03693532420E-03 -5.23532804187E-01 -4.79600560265E-02
1.56000000000E+09 -5.04735628935E-01 +2.48198969519E-02 +1.21268161174E-03 +5.27026466060E-03 +1.09811415717E-03 +5.60649763340E-03 -5.80114450070E-01 +3.38183723401E-03
1.56500000000E+09 -5.52624487671E-01 +8.85407559282E-02 +2.44826356264E-03 +4.44015985768E-03 +2.55534849271E-03 +4.75270784275E-03 -6.24864680495E-01 +5.81009170398E-02
1.57000000000E+09 -5.89182860606E-01 +1.49127438811E-01 +3.28127745107E-03 +2.99274440458E-03 +3.52361782314E-03 +3.21330875161E-03 -6.58080174287E-01 +1.11862534511E-01
