# Hz S RI R 50
! CMT, C1220, 16058040, 17.2.0/1
! Date: 14/08/2018 12:15:42
! Data: Format (Calibration Info)
! Freq                      S11: Re/Im (F2)                       S21: Re/Im (F2)                       S12: Re/Im (F2)                       S22: Re/Im (F2)            
1.00000000000E+09 -6.48077203088E-01 +7.14245270825E-01 +2.18619446160E-05 +1.81620302576E-05 -2.35085917667E-06 +3.26166720619E-05 -7.53762953370E-01 +6.24849868270E-01
1.00500000000E+09 -6.40900405754E-01 +7.19417506943E-01 +2.01127167409E-05 -2.25375804033E-05 +3.42108102542E-05 -2.65495308018E-05 -7.50083839438E-01 +6.28790978853E-01
1.01000000000E+09 -6.35054208823E-01 +7.24061150760E-01 -8.28715057317E-06 -1.00415487849E-05 -9.66075999525E-06 +2.28399852293E-05 -7.46384211732E-01 +6.32527230204E-01
1.01500000000E+09 -6.31235856743E-01 +7.27823811281E-01 -1.77821447882E-05 +2.76482142046E-05 +5.29168784313E-05 +5.99676210907E-06 -7.43177205643E-01 +6.36418505439E-01
1.02000000000E+09 -6.29000861873E-01 +7.30947667386E-01 -2.85179051471E-05 -3.32709921990E-06 +6.52833781726E-06 +2.35053196905E-05 -7.39774053826E-01 +6.39854981793E-01
1.02500000000E+09 -6.27847604873E-01 +7.33348456394E-01 -6.76981883484E-05 +6.22119459317E-05 +1.57547964166E-05 +8.83607791220E-06 -7.37027159599E-01 +6.43740392182E-01
1.03000000000E+09 -6.27189749244E-01 +7.35599006806E-01 -3.70591324020E-05 +2.97320275136E-05 -7.10755721957E-05 -6.39511358512E-05 -7.33472887441E-01 +6.47436051660E-01
1.03500000000E+09 -6.25410829828E-01 +7.37598999576E-01 -4.18374420558E-05 -1.11214978933E-05 +4.75356547726E-06 -5.10754178103E-05 -7.29490828705E-01 +6.51289613790E-01
1.04000000000E+09 -6.22256515828E-01 +7.40092894423E-01 -1.51319476447E-05 +3.54979429459E-05 -2.46921949150E-07 +8.90587508151E-05 -7.25760180104E-01 +6.55023914364E-01
1.04500000000E+09 -6.17137979752E-01 +7.43558671622E-01 +1.58034175708E-05 +3.15631196683E-05 -1.43512663807E-05 -9.76562963561E-06 -7.22309692848E-01 +6.58619206136E-01
1.05000000000E+09 -6.09755262295E-01 +7.47491427805E-01 -2.28298687786E-05 +5.19227664809E-05 -6.57028074057E-05 +2.74559030093E-05 -7.18881914042E-01 +6.62146361534E-01
1.05500000000E+09 -6.01104743372E-01 +7.52286740429E-01 +2.82285808442E-05 +1.40629930619E-05 +3.14443020957E-05 +2.12388488115E-05 -7.15766392605E-01 +6.65529051104E-01
1.06000000000E+09 -5.91745824376E-01 +7.57390530282E-01 +1.40153089519E-05 +5.13142957923E-05 +2.52413798785E-05 +1.94749331468E-05 -7.12438103558E-01 +6.69364722663E-01
1.06500000000E+09 -5.82867168999E-01 +7.62761674392E-01 +2.33423540898E-05 +3.09371539286E-05 -1.55254551065E-05 +4.37082519864E-05 -7.08685613964E-01 +6.73177794557E-01
1.07000000000E+09 -5.75235551095E-01 +7.67210709832E-01 +1.33466852938E-05 +4.02133151088E-05 +1.29116324838E-05 +7.40001377852E-05 -7.04484626772E-01 +6.76839055556E-01
1.07500000000E+09 -5.69538633017E-01 +7.71138775449E-01 +4.64217023411E-05 +1.33769969623E-05 +3.03398397805E-05 +2.45762194255E-05 -7.00286656773E-01 +6.80526137692E-01
1.08000000000E+09 -5.65840173633E-01 +7.74443893772E-01 +2.67837023433E-05 +6.28372356468E-06 +7.76262912107E-05 +3.88075258783E-05 -6.96212854156E-01 +6.84293512106E-01
1.08500000000E+09 -5.63746617745E-01 +7.76892242798E-01 +3.30717963083E-05 -2.35608678861E-06 +2.46334720789E-05 +7.95373594344E-06 -6.92377074697E-01 +6.88046613473E-01
1.09000000000E+09 -5.62337075420E-01 +7.78909601496E-01 +5.86405060648E-05 -6.99423675180E-06 +3.74673158747E-05 +9.37676114867E-06 -6.88392296966E-01 +6.92007775273E-01
1.09500000000E+09 -5.61163137910E-01 +7.80439724633E-01 +5.14458990907E-05 +2.41839001134E-05 +7.20862568979E-05 -1.74711228341E-05 -6.84649428162E-01 +6.95811850669E-01
1.10000000000E+09 -5.58376992127E-01 +7.82334486045E-01 +3.01482962115E-05 -7.15325119734E-07 +3.18074657942E-05 -3.48467713814E-06 -6.80728637270E-01 +6.99706049547E-01
1.10500000000E+09 -5.54169114489E-01 +7.85029690369E-01 +7.16969735388E-05 -2.07941934676E-06 -1.76585455287E-05 -4.78917093304E-06 -6.76371022329E-01 +7.03333193150E-01
1.11000000000E+09 -5.48083310212E-01 +7.88126174722E-01 +7.45850133071E-05 -8.32432906603E-06 +5.46562021503E-05 -2.55188135411E-05 -6.72058266197E-01 +7.06689258086E-01
1.11500000000E+09 -5.40590798524E-01 +7.92012097792E-01 +6.70021862722E-05 -3.24492087964E-05 +5.51486426872E-05 -3.70996511764E-06 -6.68047246888E-01 +7.10164807086E-01
1.12000000000E+09 -5.32398102582E-01 +7.96138415887E-01 +2.30651787317E-05 -4.85314285528E-05 -4.62961270547E-06 +1.98531499316E-05 -6.63954270192E-01 +7.13681068591E-01
1.12500000000E+09 -5.23939813904E-01 +8.00541812326E-01 +6.89158590073E-06 -3.20311521720E-05 +4.41549039617E-05 +1.00981164958E-05 -6.59836950694E-01 +7.17917832935E-01
1.13000000000E+09 -5.16671451382E-01 +8.04345544846E-01 -8.29815065348E-06 -1.79850221026E-05 +3.76865733954E-05 +1.43490163638E-05 -6.55564245574E-01 +7.21341764112E-01
1.13500000000E+09 -5.10511807527E-01 +8.07524360451E-01 +4.45203900946E-05 +3.51786713055E-05 -1.64370884381E-05 +7.20393292335E-06 -6.51004519943E-01 +7.25385537570E-01
1.14000000000E+09 -5.05836739220E-01 +8.10346959009E-01 +2.23943973318E-05 -3.06584654511E-06 +1.99671566269E-05 +9.57463646414E-06 -6.46204348306E-01 +7.28712160075E-01
1.14500000000E+09 -5.02509144830E-01 +8.12266264901E-01 +1.42931088668E-05 -2.96277781291E-05 +4.39100500661E-05 -7.79949657908E-07 -6.41596344176E-01 +7.32198695110E-01
1.15000000000E+09 -4.99532273208E-01 +8.13683753160E-01 +8.53737802693E-06 -1.81417939337E-05 +1.57303562917E-05 +1.94976441803E-05 -6.36918761957E-01 +7.35923489212E-01
1.15500000000E+09 -4.96463922161E-01 +8.15389362924E-01 +2.72746761009E-05 -2.09322498402E-05 -3.29030442780E-05 -2.04931599377E-05 -6.32179076987E-01 +7.39724399566E-01
1.16000000000E+09 -4.92106935238E-01 +8.17220649208E-01 +2.52726723365E-05 -2.60941487152E-05 +2.84814460554E-05 -4.23795423134E-05 -6.27355720668E-01 +7.43496819339E-01
1.16500000000E+09 -4.86591663593E-01 +8.19806930247E-01 +4.06952106651E-05 -3.20404741014E-05 +6.84608270213E-05 -5.50549608581E-06 -6.22329266684E-01 +7.47093215439E-01
1.17000000000E+09 -4.79642500014E-01 +8.22781192158E-01 -1.54792208319E-05 -2.34700671171E-05 +7.86136823747E-05 -2.67816660351E-05 -6.16910919606E-01 +7.50577462896E-01
1.17500000000E+09 -4.71458175776E-01 +8.26036349538E-01 +2.20067886619E-05 -3.62240950145E-05 +3.31053896375E-05 -5.10026871789E-06 -6.11191562154E-01 +7.53736110602E-01
1.18000000000E+09 -4.63052431697E-01 +8.29635576498E-01 +5.30426438838E-05 -9.08178357158E-06 +4.90672693122E-05 -1.66668227838E-05 -6.05512955577E-01 +7.56787099068E-01
1.18500000000E+09 -4.54835991734E-01 +8.33086769798E-01 +6.72817848620E-05 -6.37645463189E-05 +4.83790240584E-05 +1.84101674534E-05 -5.99658189214E-01 +7.60007232144E-01
1.19000000000E+09 -4.47634466084E-01 +8.35971036958E-01 +5.34772905487E-05 -3.99951823245E-05 +8.02283645530E-05 -2.29527445580E-05 -5.93506294133E-01 +7.62631543813E-01
1.19500000000E+09 -4.41731674087E-01 +8.38125876928E-01 +8.05482918558E-05 -7.79991082533E-06 +5.51396229776E-05 -7.37572548402E-05 -5.87606930004E-01 +7.63877405644E-01
1.20000000000E+09 -4.37398432542E-01 +8.39383250866E-01 +6.25852874410E-05 -8.20642416431E-05 +3.94717228382E-05 -4.41217517773E-05 -5.82986178906E-01 +7.64022458187E-01
1.20500000000E+09 -4.33741147113E-01 +8.40637775680E-01 +2.08603062075E-05 -1.00614095204E-04 -2.77621641393E-05 -7.51235228717E-05 -5.80692990414E-01 +7.64953097477E-01
1.21000000000E+09 -4.29688234450E-01 +8.42001496640E-01 -1.25326392348E-05 -1.02375036531E-04 +1.10765441661E-05 -7.51741640211E-05 -5.78880511641E-01 +7.67953272657E-01
1.21500000000E+09 -4.24505816250E-01 +8.43409683899E-01 -3.73559308959E-05 -6.70635492014E-05 +1.20233416934E-05 -8.48549335939E-05 -5.76114785489E-01 +7.72448716615E-01
1.22000000000E+09 -4.17549244756E-01 +8.45361823863E-01 -2.18253651651E-05 -7.87770943530E-05 +6.01630833924E-07 -5.40865854541E-05 -5.71796864897E-01 +7.77737483207E-01
1.22500000000E+09 -4.08812289689E-01 +8.47968534353E-01 +1.29350437706E-05 -7.18386511120E-05 +1.53832809615E-06 -9.56434530046E-05 -5.66706409051E-01 +7.83010114738E-01
1.23000000000E+09 -3.98463317637E-01 +8.50941359929E-01 +3.26531497396E-05 -7.58840468415E-05 -8.49880940003E-06 -8.40419998805E-05 -5.61022305002E-01 +7.87648071921E-01
1.23500000000E+09 -3.87476536238E-01 +8.54717033203E-01 -5.99833717226E-06 -5.82516727390E-05 +1.09716546149E-06 -8.61972252455E-05 -5.55408337403E-01 +7.91930377901E-01
1.24000000000E+09 -3.76424990037E-01 +8.58550025177E-01 +4.61328968092E-05 -8.61927052700E-05 -3.77476190449E-06 -1.09281563901E-04 -5.49179141623E-01 +7.95819131864E-01
1.24500000000E+09 -3.66420714321E-01 +8.62590671070E-01 +2.11547047672E-05 -1.33301666723E-04 +1.31142121005E-06 -1.26923518183E-04 -5.43024745777E-01 +7.99625133955E-01
1.25000000000E+09 -3.57908094246E-01 +8.65997386772E-01 -5.27461952350E-05 -9.95317108645E-05 -1.78077866452E-05 -8.66820666933E-05 -5.36422328890E-01 +8.03844769933E-01
1.25500000000E+09 -3.51265708276E-01 +8.68626313150E-01 -6.34989990510E-05 -1.09874427645E-04 -1.09376668614E-04 -1.10334525501E-04 -5.29457772190E-01 +8.07771396784E-01
1.26000000000E+09 -3.46185490892E-01 +8.70774327734E-01 -7.07971066270E-05 -8.99838578449E-05 -5.03485472683E-05 -1.77440332216E-04 -5.22615042180E-01 +8.12223363014E-01
1.26500000000E+09 -3.41842549269E-01 +8.72335932449E-01 -6.67642994725E-05 -1.07549265949E-04 -1.02185498952E-04 -6.24802811437E-05 -5.15747964905E-01 +8.16126499591E-01
1.27000000000E+09 -3.37288977889E-01 +8.73618835640E-01 -1.03669677625E-04 -1.21882464007E-04 -1.35197918745E-04 -1.02553655504E-04 -5.08876880620E-01 +8.19873008433E-01
1.27500000000E+09 -3.31553122769E-01 +8.74822866416E-01 -1.27499082943E-04 -1.20040038035E-04 -1.18100742502E-04 -1.06197615737E-04 -5.01803986071E-01 +8.23474462068E-01
1.28000000000E+09 -3.23916286793E-01 +8.76654150867E-01 -1.38499659133E-04 -3.37091292934E-05 -1.66080217466E-04 -1.13117505081E-04 -4.94893506822E-01 +8.27013004077E-01
1.28500000000E+09 -3.13548394669E-01 +8.78767126817E-01 -1.15071162668E-04 -6.10036385594E-05 -1.62248259180E-04 -8.80609338299E-05 -4.87367397120E-01 +8.30621478176E-01
1.29000000000E+09 -3.01863339058E-01 +8.81581224733E-01 -1.48921896359E-04 -6.64955431534E-05 -1.93369627541E-04 -7.48720949946E-05 -4.79963541187E-01 +8.34376867239E-01
1.29500000000E+09 -2.89125525162E-01 +8.84695647497E-01 -1.65598938151E-04 -3.88459742277E-05 -1.91394590094E-04 +1.75938457232E-05 -4.72004576501E-01 +8.37843265640E-01
1.30000000000E+09 -2.76162798607E-01 +8.88213704546E-01 -1.99831929141E-04 -6.72586838715E-05 -1.99885022434E-04 -6.92465463187E-06 -4.64111665014E-01 +8.41360179752E-01
1.30500000000E+09 -2.64639875233E-01 +8.91206153287E-01 -2.05125433159E-04 +1.81711051843E-05 -2.54755679097E-04 +3.70217121649E-05 -4.56170457928E-01 +8.44745829921E-01
1.31000000000E+09 -2.54673125936E-01 +8.93726122198E-01 -2.39055489304E-04 +7.16237810768E-05 -2.26788025943E-04 +8.66522174011E-05 -4.47828428314E-01 +8.48267202616E-01
1.31500000000E+09 -2.47138569105E-01 +8.95631992012E-01 -2.11533760309E-04 +9.30394119987E-05 -2.06285503339E-04 +1.00964352625E-04 -4.39015391652E-01 +8.51784424399E-01
1.32000000000E+09 -2.41147249255E-01 +8.96783444263E-01 -1.69521758277E-04 +1.19760703972E-04 -1.70662717917E-04 +5.34306165341E-05 -4.29915830863E-01 +8.55256972652E-01
1.32500000000E+09 -2.35848663145E-01 +8.97318723225E-01 -2.23825847276E-04 +1.01597769354E-04 -2.32046861804E-04 +1.39937849326E-04 -4.20283877467E-01 +8.58743824788E-01
1.33000000000E+09 -2.29750491371E-01 +8.97501160352E-01 -2.20780359424E-04 +9.95185066362E-05 -2.23241867436E-04 +1.58312867752E-04 -4.10534287681E-01 +8.61864587244E-01
1.33500000000E+09 -2.21975929649E-01 +8.97159176043E-01 -2.52974094976E-04 +1.55753467208E-04 -2.40691734373E-04 +1.90438151256E-04 -4.00628252187E-01 +8.65182105564E-01
1.34000000000E+09 -2.11259754598E-01 +8.97150908098E-01 -1.84744313356E-04 +2.30004320441E-04 -1.40709296454E-04 +2.54362349130E-04 -3.90475000597E-01 +8.68643210546E-01
1.34500000000E+09 -1.97779574661E-01 +8.96985326742E-01 -1.33086382466E-04 +2.54464841547E-04 -1.13221851688E-04 +2.39502717723E-04 -3.79510669586E-01 +8.71968328109E-01
1.35000000000E+09 -1.81894284137E-01 +8.97239839939E-01 -1.52035418941E-04 +1.85991176716E-04 -1.36774517244E-04 +2.38188349246E-04 -3.68445972486E-01 +8.75040348380E-01
1.35500000000E+09 -1.64434881207E-01 +8.97412407614E-01 -1.17277555431E-04 +2.31969404107E-04 -1.97099927798E-04 +2.96191941914E-04 -3.56831874325E-01 +8.77897834424E-01
1.36000000000E+09 -1.46874161185E-01 +8.98110568210E-01 -1.24986547903E-04 +3.21585236766E-04 -1.52904410429E-04 +2.65223401524E-04 -3.44985918413E-01 +8.80669539381E-01
1.36500000000E+09 -1.30394578126E-01 +8.98574527459E-01 -1.21711541950E-04 +3.38485483818E-04 -1.00508425769E-04 +2.69708605966E-04 -3.32682842398E-01 +8.83265205180E-01
1.37000000000E+09 -1.15679808164E-01 +8.98810904699E-01 -1.17656393088E-04 +3.44965567784E-04 -1.28028666431E-04 +3.14420251869E-04 -3.19950047383E-01 +8.85643769029E-01
1.37500000000E+09 -1.03378245847E-01 +8.98905116037E-01 -9.14579610006E-05 +4.35855857022E-04 -1.36109617835E-04 +4.24938383579E-04 -3.06222325600E-01 +8.87934996391E-01
1.38000000000E+09 -9.24866825048E-02 +8.98725425389E-01 +5.66592271413E-05 +5.31034118656E-04 -3.96561082553E-05 +4.96457858632E-04 -2.91636827110E-01 +8.89970310044E-01
1.38500000000E+09 -8.20590594343E-02 +8.98040606067E-01 +1.11631758650E-04 +5.04693953603E-04 +7.98832386402E-05 +5.44966733414E-04 -2.76008649796E-01 +8.91884040792E-01
1.39000000000E+09 -7.07647162700E-02 +8.96450476296E-01 +1.55958154133E-04 +4.87111670749E-04 +2.01092128166E-04 +6.12827918550E-04 -2.60041292281E-01 +8.93531684281E-01
1.39500000000E+09 -5.73064760464E-02 +8.93960691812E-01 +2.19732845033E-04 +4.94379418726E-04 +2.90533613103E-04 +5.41288990976E-04 -2.43059903926E-01 +8.94314307901E-01
1.40000000000E+09 -4.08909624328E-02 +8.90323664379E-01 +3.28043705281E-04 +5.31706847750E-04 +3.42023407968E-04 +4.99894872650E-04 -2.25463451651E-01 +8.94813021793E-01
1.40500000000E+09 -2.17522771914E-02 +8.85627859206E-01 +4.09101737427E-04 +4.35687852982E-04 +4.12012402381E-04 +3.76184657248E-04 -2.06677445963E-01 +8.94833060807E-01
1.41000000000E+09 -1.22858931251E-04 +8.80112316331E-01 +4.46644820237E-04 +3.76111652627E-04 +4.51441225883E-04 +3.99814752217E-04 -1.86390174388E-01 +8.93987201968E-01
1.41500000000E+09 +2.27433447487E-02 +8.73896112193E-01 +4.66555168673E-04 +3.46354084055E-04 +4.94696060103E-04 +4.06501763049E-04 -1.64686033292E-01 +8.92511602189E-01
1.42000000000E+09 +4.61244443686E-02 +8.67425719538E-01 +4.97233238998E-04 +3.82104724160E-04 +5.99661736404E-04 +4.69336284072E-04 -1.41720482187E-01 +8.89856143263E-01
1.42500000000E+09 +6.87796725490E-02 +8.60229255112E-01 +5.85613245924E-04 +3.26509706530E-04 +6.62634300979E-04 +3.17602472727E-04 -1.18090444581E-01 +8.86440119241E-01
1.43000000000E+09 +9.04152319452E-02 +8.52326614657E-01 +6.47447715438E-04 +2.63615040762E-04 +7.04807762154E-04 +2.24742087237E-04 -9.31068970715E-02 +8.81672163568E-01
1.43500000000E+09 +1.11019337639E-01 +8.43295294097E-01 +7.79099648890E-04 +2.45397523911E-04 +8.10317616486E-04 +1.87315531180E-04 -6.65864874862E-02 +8.75038897204E-01
1.44000000000E+09 +1.31403047522E-01 +8.32932963179E-01 +8.22967869264E-04 +3.16339814592E-05 +8.38825421085E-04 -4.04874750046E-05 -3.82103896702E-02 +8.66341511731E-01
1.44500000000E+09 +1.53079758769E-01 +8.20261947338E-01 +7.32479501077E-04 -8.51382183445E-05 +7.58201598968E-04 -8.18077244652E-05 -8.00497482520E-03 +8.54652947452E-01
1.45000000000E+09 +1.77019610141E-01 +8.03818498957E-01 +6.82332818099E-04 +1.96598926360E-05 +7.36388795701E-04 -2.72494976981E-05 +2.38895135792E-02 +8.40089250844E-01
1.45500000000E+09 +2.03543012204E-01 +7.83340826778E-01 +8.79708451795E-04 +1.58436092001E-04 +8.95612796939E-04 +2.97271239867E-05 +5.76320357213E-02 +8.22408611068E-01
1.46000000000E+09 +2.33275665781E-01 +7.57797998067E-01 +1.08785272368E-03 +1.52046945323E-05 +1.05529296682E-03 -8.65197513816E-05 +9.27127241829E-02 +8.00240839428E-01
1.46500000000E+09 +2.65214676640E-01 +7.27070669447E-01 +1.20649619194E-03 -1.06335513018E-04 +1.13368268571E-03 -1.62677153194E-04 +1.28424674889E-01 +7.73053628292E-01
1.47000000000E+09 +2.98346974014E-01 +6.90568672514E-01 +1.49121273875E-03 -2.51199586228E-04 +1.37797554326E-03 -2.73652826338E-04 +1.65343280883E-01 +7.39644963252E-01
1.47500000000E+09 +3.31071881235E-01 +6.48803183260E-01 +1.66365993266E-03 -6.75372389941E-04 +1.58247728296E-03 -6.14631092758E-04 +2.03099754746E-01 +6.98820231006E-01
1.48000000000E+09 +3.61744981851E-01 +6.01031036396E-01 +1.70481514579E-03 -9.65422065492E-04 +1.73123097962E-03 -9.10869916953E-04 +2.39943083273E-01 +6.48738736153E-01
1.48500000000E+09 +3.87847312313E-01 +5.46549998618E-01 +1.99320538528E-03 -1.43195706187E-03 +1.99843403422E-03 -1.54438485410E-03 +2.73976513178E-01 +5.89333634494E-01
1.49000000000E+09 +4.07847172461E-01 +4.85317886858E-01 +1.72358295723E-03 -2.23917379345E-03 +1.57459543939E-03 -2.35100065670E-03 +3.01764031868E-01 +5.18954384426E-01
1.49500000000E+09 +4.20359025692E-01 +4.16359651162E-01 +1.75137169516E-03 -2.66442397793E-03 +1.54908956421E-03 -2.62366202535E-03 +3.19419815486E-01 +4.39225685302E-01
1.50000000000E+09 +4.22818280032E-01 +3.37703515122E-01 +1.47394194792E-03 -3.86182248272E-03 +1.37137020992E-03 -3.60426766656E-03 +3.24815843536E-01 +3.50172696936E-01
1.50500000000E+09 +4.11660245541E-01 +2.50287321277E-01 +1.78652076749E-04 -5.02231302496E-03 +3.52475453165E-04 -4.75149753320E-03 +3.12845798163E-01 +2.53225246455E-01
1.51000000000E+09 +3.83229419020E-01 +1.56777077523E-01 -1.55484726153E-03 -5.38179444917E-03 -1.32057380889E-03 -5.39154385565E-03 +2.79842329258E-01 +1.53443983489E-01
1.51500000000E+09 +3.35373912078E-01 +6.25172994900E-02 -3.61531063745E-03 -5.15548263939E-03 -3.50816020308E-03 -5.30136105186E-03 +2.26063243861E-01 +5.66072055850E-02
1.52000000000E+09 +2.65764417832E-01 -2.61608288670E-02 -5.47057895828E-03 -3.51290861638E-03 -5.42662732236E-03 -3.62890508080E-03 +1.48969724107E-01 -3.01073735417E-02
1.52500000000E+09 +1.77391658195E-01 -9.96335230343E-02 -5.83294095230E-03 -1.80156082778E-03 -5.89891176085E-03 -1.86958597200E-03 +5.35911708691E-02 -9.72039215739E-02
1.53000000000E+09 +7.40645122197E-02 -1.53391177559E-01 -6.18934997108E-03 -6.14257205838E-04 -6.27127636831E-03 -6.16536332268E-04 -5.26320671841E-02 -1.41974028188E-01
1.53500000000E+09 -3.97265568994E-02 -1.80823084388E-01 -6.59661766536E-03 +1.20817687089E-03 -6.57749321448E-03 +1.15085653447E-03 -1.64073079942E-01 -1.61614071045E-01
1.54000000000E+09 -1.54351672487E-01 -1.79190940956E-01 -6.33379144834E-03 +3.04885432693E-03 -6.29346361498E-03 +2.92641754031E-03 -2.70996183864E-01 -1.58516494751E-01
1.54500000000E+09 -2.62094860717E-01 -1.53156894225E-01 -5.18825350856E-03 +5.49989875730E-03 -5.25162856722E-03 +5.31824066506E-03 -3.70013021559E-01 -1.36876525842E-01
1.55000000000E+09 -3.58377289874E-01 -1.07376960070E-01 -2.48469303858E-03 +6.50352837558E-03 -2.79133241951E-03 +6.44844622692E-03 -4.56027029916E-01 -9.93293049944E-02
1.55500000000E+09 -4.39202924189E-01 -4.86745987659E-02 -3.36583149527E-04 +6.02615632349E-03 -6.84774734068E-04 +6.19126635175E-03 -5.27167983289E-01 -5.23243485061E-02
1.56000000000E+09 -5.03727464224E-01 +1.59631551835E-02 +8.47204473248E-04 +5.42412649769E-03 +6.57074408377E-04 +5.73443216470E-03 -5.85003169424E-01 +7.94797137305E-04
1.56500000000E+09 -5.53217159658E-01 +8.02579562429E-02 +2.10199151002E-03 +4.74165103079E-03 +2.14349845256E-03 +5.08222112867E-03 -6.29352442716E-01 +5.72081895070E-02
1.57000000000E+09 -5.91188306764E-01 +1.42152012207E-01 +3.16589499165E-03 +3.52918931980E-03 +3.36002868001E-03 +3.72687556169E-03 -6.62234007898E-01 +1.12071613409E-01
