# Hz S RI R 50
! CMT, C1220, 16058040, 17.2.0/1
! Date: 14/08/2018 12:14:22
! Data: Format (Calibration Info)
! Freq                      S11: Re/Im (F2)                       S21: Re/Im (F2)                       S12: Re/Im (F2)                       S22: Re/Im (F2)            
1.00000000000E+09 -6.47188558919E-01 +7.14312056993E-01 -1.20100355951E-05 -3.36554518840E-05 +1.57803580382E-05 +1.44562159051E-06 -7.53515676764E-01 +6.24940155095E-01
1.00500000000E+09 -6.39760876645E-01 +7.19525174418E-01 -2.65127351478E-05 +2.84347329149E-05 -5.65962581169E-06 -2.50793317149E-05 -7.49975030716E-01 +6.29059513635E-01
1.01000000000E+09 -6.34015334863E-01 +7.24153524134E-01 -4.16953857966E-05 +3.46576651136E-06 +1.06579634246E-05 -3.59598847722E-05 -7.46241389938E-01 +6.32826531805E-01
1.01500000000E+09 -6.30170769221E-01 +7.27897176800E-01 -1.23800620693E-05 -4.65538276323E-05 +3.38224581463E-05 +3.49350817753E-05 -7.42905186563E-01 +6.36649685151E-01
1.02000000000E+09 -6.27901830944E-01 +7.31068062688E-01 +5.64631185087E-05 +1.78347438812E-05 -2.67878626460E-05 +8.96365986927E-06 -7.39575896654E-01 +6.40197196468E-01
1.02500000000E+09 -6.26792563067E-01 +7.33456397509E-01 -1.29081011254E-05 +7.55437686073E-06 -1.01100763124E-05 +3.06433161340E-05 -7.36637542660E-01 +6.43840377013E-01
1.03000000000E+09 -6.26039726674E-01 +7.35514942033E-01 -2.91527155155E-05 +2.24677074679E-06 -2.10477481884E-05 +7.64415057939E-05 -7.33307622703E-01 +6.47533660890E-01
1.03500000000E+09 -6.24315490869E-01 +7.37608426430E-01 -1.01905673426E-05 +1.62800299976E-05 +2.70927509635E-06 +9.01746417624E-06 -7.29384844569E-01 +6.51629302503E-01
1.04000000000E+09 -6.21040374382E-01 +7.40244076597E-01 -7.75281160184E-06 -1.02533955768E-05 +8.31309421561E-06 -3.37944310575E-05 -7.25778207746E-01 +6.55271438996E-01
1.04500000000E+09 -6.15844687261E-01 +7.43405245496E-01 +3.25424760943E-05 +1.69077738510E-05 -2.87921021730E-06 +6.17890333177E-06 -7.22282788897E-01 +6.58916150955E-01
1.05000000000E+09 -6.08549470961E-01 +7.47427317297E-01 +3.80159217421E-06 +6.01026490420E-05 +2.24761569878E-05 -6.94730308805E-06 -7.18702091696E-01 +6.62320969559E-01
1.05500000000E+09 -5.99751666857E-01 +7.52242570973E-01 +3.06900082576E-06 +2.00002449343E-06 -2.01457036251E-05 +2.14387647473E-05 -7.15503304856E-01 +6.65760897344E-01
1.06000000000E+09 -5.90319190753E-01 +7.57487304453E-01 -2.47649847302E-05 +3.99769214066E-05 +1.10975064997E-05 +5.64806347992E-05 -7.12259883861E-01 +6.69604985087E-01
1.06500000000E+09 -5.81454207749E-01 +7.62743500970E-01 +2.36692855773E-05 +5.71060400098E-05 +2.50924453901E-05 +1.35343427614E-05 -7.08564872371E-01 +6.73360596779E-01
1.07000000000E+09 -5.73870303240E-01 +7.67111973182E-01 +2.01386968129E-05 -5.35353618784E-06 -2.37550976139E-05 -5.88731181300E-06 -7.04552211083E-01 +6.77016606433E-01
1.07500000000E+09 -5.67995393668E-01 +7.71256058301E-01 +1.04353851480E-05 -7.27858440807E-06 +2.23907902293E-05 +4.32926536230E-05 -7.00221269576E-01 +6.80626344605E-01
1.08000000000E+09 -5.64404307543E-01 +7.74414134152E-01 -2.90075507645E-05 +9.89747796461E-06 +4.72041890010E-05 +1.10790564884E-05 -6.96146820132E-01 +6.84714173049E-01
1.08500000000E+09 -5.62202815774E-01 +7.76826714214E-01 +4.01235995458E-05 +1.43532572053E-05 +2.62772260908E-05 +6.67064377909E-05 -6.92283013455E-01 +6.88272983345E-01
1.09000000000E+09 -5.60755370663E-01 +7.78779053131E-01 +1.39448817681E-05 -1.28705023023E-06 +4.13467226582E-08 -3.72432409998E-06 -6.88331971917E-01 +6.92141779004E-01
1.09500000000E+09 -5.59397306729E-01 +7.80383719118E-01 -4.74118234857E-06 -4.31183979833E-06 +6.34877252556E-05 +3.85971633900E-05 -6.84408950502E-01 +6.96047960999E-01
1.10000000000E+09 -5.56592670525E-01 +7.82371520692E-01 +1.16007579782E-05 +6.22899430167E-06 -4.08835335928E-05 +2.97613430040E-05 -6.80497281208E-01 +6.99874664917E-01
1.10500000000E+09 -5.52483718608E-01 +7.84701391661E-01 +7.46686436984E-06 -4.32463284473E-06 +4.16627286144E-05 +2.42319871660E-05 -6.76157984225E-01 +7.03297897764E-01
1.11000000000E+09 -5.46508606988E-01 +7.88014702322E-01 +2.76746966058E-05 +1.72084311696E-05 +1.87611376791E-05 -3.16980654897E-05 -6.71973593615E-01 +7.06630410353E-01
1.11500000000E+09 -5.38959584960E-01 +7.91979094176E-01 -1.07980791405E-05 +3.60960912137E-05 -2.80788587490E-05 +2.30238384734E-05 -6.67933340571E-01 +7.10337279156E-01
1.12000000000E+09 -5.30853631829E-01 +7.95936157879E-01 +6.23244103094E-05 +1.62901633478E-06 +2.74026331224E-05 -2.43348550259E-06 -6.63858021171E-01 +7.13913296242E-01
1.12500000000E+09 -5.22297414933E-01 +8.00276294859E-01 +2.06896304966E-05 +9.77713190416E-06 +1.49317688998E-05 -4.42074940178E-05 -6.59633934927E-01 +7.17871881678E-01
1.13000000000E+09 -5.14966386880E-01 +8.04119038888E-01 +4.47652654992E-05 -2.66437813828E-05 +4.10626815485E-05 -5.46277302475E-05 -6.55362779586E-01 +7.21623263867E-01
1.13500000000E+09 -5.08831174617E-01 +8.07208549081E-01 +4.37022848883E-05 -2.29084141915E-05 +2.57298389090E-05 -1.64470518696E-05 -6.50789555374E-01 +7.25514499298E-01
1.14000000000E+09 -5.04180722163E-01 +8.10003890648E-01 -1.07162839443E-05 -2.08505845379E-05 +5.03664439780E-05 -2.70910249301E-05 -6.46061632317E-01 +7.28922057646E-01
1.14500000000E+09 -5.00935678697E-01 +8.11898845247E-01 +2.68851307600E-05 -7.50792220325E-06 +2.43120913310E-05 -2.97569391968E-06 -6.41410542104E-01 +7.32246605873E-01
1.15000000000E+09 -4.97824864894E-01 +8.13555622260E-01 +8.56643472803E-05 -2.53789696124E-05 +2.66219814736E-05 -3.81772475472E-05 -6.36871823051E-01 +7.36094705441E-01
1.15500000000E+09 -4.94749563893E-01 +8.15019865502E-01 +5.65346754212E-05 -2.35571080968E-05 +2.70283287890E-05 -3.10478041603E-06 -6.32093061744E-01 +7.39917616905E-01
1.16000000000E+09 -4.90453701023E-01 +8.16946627473E-01 +2.61343514018E-05 +1.92934985223E-05 +4.05240920990E-05 -6.67300752441E-06 -6.27183545101E-01 +7.43825718633E-01
1.16500000000E+09 -4.84801165577E-01 +8.19271163472E-01 +4.99906633038E-05 +7.53711340448E-06 +3.42593771689E-05 -4.94790893748E-05 -6.22099194889E-01 +7.47362924362E-01
1.17000000000E+09 -4.77797952760E-01 +8.22330603255E-01 +4.21812295240E-05 +1.19338104729E-05 +7.07782849806E-05 -1.07981436811E-05 -6.16758244177E-01 +7.50693736219E-01
1.17500000000E+09 -4.69626620026E-01 +8.25604333124E-01 +6.82225842172E-05 +7.57659023726E-06 +6.97798288391E-05 -4.53224091151E-06 -6.10886356276E-01 +7.54037316968E-01
1.18000000000E+09 -4.61167594353E-01 +8.29189577454E-01 +4.90542218091E-05 -2.19455063414E-05 +9.73307207878E-06 -2.66821509958E-07 -6.05271187745E-01 +7.57099954701E-01
1.18500000000E+09 -4.52964026950E-01 +8.32605949966E-01 +3.36499061259E-06 -3.28917712951E-07 +5.25574367109E-05 -2.31916508652E-05 -5.99402127626E-01 +7.60126479573E-01
1.19000000000E+09 -4.45768771228E-01 +8.35477745181E-01 +9.36770442089E-05 -4.40815920641E-05 +9.87122948971E-05 +8.23184919348E-06 -5.93073186170E-01 +7.62792171527E-01
1.19500000000E+09 -4.39967134043E-01 +8.37679032001E-01 +7.18405377774E-05 -5.95662568076E-05 +4.45359633491E-05 -5.67435947119E-05 -5.87223863644E-01 +7.64014274793E-01
1.20000000000E+09 -4.35364661579E-01 +8.38846523295E-01 +6.35800273794E-05 -7.76778643906E-05 +7.89250742568E-05 -1.13056678015E-04 -5.82630318632E-01 +7.64242411499E-01
1.20500000000E+09 -4.31653731923E-01 +8.40121017739E-01 +1.69791300306E-05 -5.42356040351E-05 +2.48780021253E-05 -9.25821487525E-05 -5.80537262374E-01 +7.64926003351E-01
1.21000000000E+09 -4.27514857796E-01 +8.41275917834E-01 -3.85766006577E-05 -1.01888399505E-04 +1.23312577152E-05 -1.06837863732E-04 -5.78683875835E-01 +7.68214823451E-01
1.21500000000E+09 -4.22332373376E-01 +8.42712733284E-01 -1.66285506731E-05 -8.58987649701E-05 -3.55237214596E-05 -7.66109802919E-05 -5.75838756351E-01 +7.72802922671E-01
1.22000000000E+09 -4.15328729338E-01 +8.44515582265E-01 -4.94407564884E-05 -6.25713081544E-05 +8.92053157862E-06 -5.61278315841E-05 -5.71718296324E-01 +7.77966787053E-01
1.22500000000E+09 -4.06662635794E-01 +8.47148718828E-01 -2.65459966141E-05 -6.42418258843E-05 +2.32850090510E-05 -5.15033455116E-05 -5.66447430461E-01 +7.83148515205E-01
1.23000000000E+09 -3.96154715076E-01 +8.50118623471E-01 +4.12464480306E-06 -8.18349553388E-05 +1.40136068598E-05 -3.82120608030E-05 -5.60972686540E-01 +7.87861774094E-01
1.23500000000E+09 -3.85273064814E-01 +8.53883749113E-01 +9.33524541320E-06 -5.69794089109E-05 +1.13041437719E-05 -5.21333151201E-05 -5.55041014841E-01 +7.92160760924E-01
1.24000000000E+09 -3.74133025247E-01 +8.57717172198E-01 -5.11810476208E-07 -8.64594247952E-05 -3.85022752782E-06 -7.61719425645E-05 -5.49080510161E-01 +7.95994910781E-01
1.24500000000E+09 -3.64249291724E-01 +8.61746790019E-01 +4.58410037459E-06 -9.23882284172E-05 -2.57436599085E-05 -1.18222612084E-04 -5.42715844882E-01 +7.99792116736E-01
1.25000000000E+09 -3.55587448975E-01 +8.65090203917E-01 -3.48708456892E-05 -1.17978821456E-04 +7.76320260177E-06 -1.14216933545E-04 -5.36035189946E-01 +8.04085364111E-01
1.25500000000E+09 -3.48936873235E-01 +8.67765354883E-01 -6.23864962371E-05 -9.36392552795E-05 -3.27088954862E-05 -1.42010824959E-04 -5.29188496805E-01 +8.08164769604E-01
1.26000000000E+09 -3.43729421730E-01 +8.69753961863E-01 -7.75413851478E-05 -1.35904776551E-04 -8.81700589959E-05 -1.58786958763E-04 -5.22531169649E-01 +8.12298092104E-01
1.26500000000E+09 -3.39503621694E-01 +8.71179876288E-01 -1.00155894674E-04 -1.53549172034E-04 -6.70096776223E-05 -1.04892640710E-04 -5.15396400081E-01 +8.16233426859E-01
1.27000000000E+09 -3.34919711598E-01 +8.72472427450E-01 -1.16228241065E-04 -1.15748137075E-04 -9.43388623818E-05 -1.47579974948E-04 -5.08745828225E-01 +8.20102621956E-01
1.27500000000E+09 -3.29140272836E-01 +8.73730085341E-01 -1.12408125869E-04 -9.02647419830E-05 -9.48444008511E-05 -9.21369958507E-05 -5.01700145380E-01 +8.23690283878E-01
1.28000000000E+09 -3.21397754720E-01 +8.75224824501E-01 -1.47877087616E-04 -9.37237162639E-05 -1.37680558665E-04 -8.25469859898E-05 -4.94483438932E-01 +8.27162835761E-01
1.28500000000E+09 -3.11215157006E-01 +8.77526390342E-01 -1.76497430881E-04 -9.69300380771E-05 -1.81080492540E-04 -8.59127855628E-05 -4.87095863695E-01 +8.30822750021E-01
1.29000000000E+09 -2.99517589823E-01 +8.80051770278E-01 -1.79669508506E-04 -8.65470753293E-05 -2.07150211997E-04 -4.74333846412E-05 -4.79512887247E-01 +8.34632279031E-01
1.29500000000E+09 -2.86770656344E-01 +8.83258820262E-01 -2.60352023280E-04 -3.72401278891E-05 -2.25237761781E-04 -5.33834028450E-05 -4.71736099114E-01 +8.38032257625E-01
1.30000000000E+09 -2.73977309798E-01 +8.86702437325E-01 -1.80267605298E-04 -3.64002055753E-05 -1.71945816777E-04 -7.33815141561E-06 -4.63836944394E-01 +8.41586656649E-01
1.30500000000E+09 -2.62178948921E-01 +8.89714437517E-01 -2.73195040983E-04 -2.66538018677E-05 -2.43476698478E-04 +3.61317693719E-05 -4.55683273301E-01 +8.44958634421E-01
1.31000000000E+09 -2.52333618255E-01 +8.92143297364E-01 -2.32837517066E-04 +8.87807697565E-05 -2.26368213919E-04 +7.80022548779E-05 -4.47382006326E-01 +8.48577413436E-01
1.31500000000E+09 -2.44628617457E-01 +8.94131084039E-01 -1.84058206029E-04 +8.09834090999E-05 -2.01610848387E-04 +8.63233705379E-05 -4.38583634601E-01 +8.51932320093E-01
1.32000000000E+09 -2.38712540937E-01 +8.95308190463E-01 -1.81539370023E-04 +7.35745143876E-05 -1.88392241399E-04 +9.80004543447E-05 -4.29408538139E-01 +8.55254157583E-01
1.32500000000E+09 -2.33344336930E-01 +8.95711577816E-01 -1.67948136126E-04 +8.59609070652E-05 -1.94911609466E-04 +9.02389274577E-05 -4.19892510908E-01 +8.58808541620E-01
1.33000000000E+09 -2.27242371162E-01 +8.95877673126E-01 -2.43083212852E-04 +1.08748873509E-04 -1.98558918064E-04 +1.08202497065E-04 -4.10207773425E-01 +8.61969872211E-01
1.33500000000E+09 -2.19211311684E-01 +8.95610156279E-01 -2.77086328400E-04 +1.66881951507E-04 -2.37451359240E-04 +2.01282985204E-04 -4.00363266459E-01 +8.65312619070E-01
1.34000000000E+09 -2.08668190405E-01 +8.95359741106E-01 -2.80407983483E-04 +2.06645988504E-04 -1.68582983179E-04 +2.41454462170E-04 -3.90123267955E-01 +8.68669070551E-01
1.34500000000E+09 -1.95114880661E-01 +8.95135818581E-01 -2.04745544540E-04 +2.59366053331E-04 -1.62554653895E-04 +2.04071091989E-04 -3.79345869644E-01 +8.71829906036E-01
1.35000000000E+09 -1.79200668846E-01 +8.95115114515E-01 -1.79534061306E-04 +2.28001899688E-04 -1.56942709242E-04 +2.69414061406E-04 -3.68161771376E-01 +8.74973926384E-01
1.35500000000E+09 -1.61721131888E-01 +8.95470369115E-01 -1.82513044600E-04 +2.86051500976E-04 -2.21049136558E-04 +2.61666331285E-04 -3.56563761808E-01 +8.77974314206E-01
1.36000000000E+09 -1.44323078713E-01 +8.95850878939E-01 -1.63119608777E-04 +3.30107689129E-04 -1.97194886198E-04 +3.04410085070E-04 -3.44730016707E-01 +8.80578989778E-01
1.36500000000E+09 -1.27785102899E-01 +8.96463371720E-01 -1.24458346439E-04 +3.64234793412E-04 -1.33372006907E-04 +3.57245769316E-04 -3.32444083768E-01 +8.83038478417E-01
1.37000000000E+09 -1.13178917687E-01 +8.96696145122E-01 -1.18144359127E-04 +4.17771630879E-04 -1.10295755407E-04 +3.31295818833E-04 -3.19647008682E-01 +8.85429197764E-01
1.37500000000E+09 -1.00864551811E-01 +8.96661704318E-01 -8.63100516836E-05 +5.58858455176E-04 -1.64336588828E-04 +4.96988104561E-04 -3.06044692525E-01 +8.87697388513E-01
1.38000000000E+09 -9.02197931593E-02 +8.96214707579E-01 +5.88204962420E-05 +5.81184370285E-04 +2.57817998403E-05 +6.08270504549E-04 -2.91376819677E-01 +8.89884360342E-01
1.38500000000E+09 -7.96864452778E-02 +8.95422725574E-01 +2.17274141579E-04 +5.28196824774E-04 +1.57073100755E-04 +6.27444585069E-04 -2.75862029797E-01 +8.91800534740E-01
1.39000000000E+09 -6.85926701689E-02 +8.93598874216E-01 +1.96298476532E-04 +4.54663530678E-04 +2.94302440328E-04 +5.63340660179E-04 -2.59778063963E-01 +8.93423813621E-01
1.39500000000E+09 -5.53219102356E-02 +8.91142390209E-01 +2.87055955990E-04 +4.85722204636E-04 +3.69025639994E-04 +4.59981610013E-04 -2.42980462936E-01 +8.94108218118E-01
1.40000000000E+09 -3.88542344796E-02 +8.87404439376E-01 +3.67958426133E-04 +4.39279101787E-04 +4.33438266852E-04 +4.54749683475E-04 -2.25351509758E-01 +8.94669664779E-01
1.40500000000E+09 -1.98858017259E-02 +8.82594018376E-01 +3.88793153881E-04 +3.61612608589E-04 +4.03056875952E-04 +3.67039680226E-04 -2.06563478076E-01 +8.94523656115E-01
1.41000000000E+09 +1.57566344536E-03 +8.76996747868E-01 +4.14347065574E-04 +3.71732130815E-04 +4.10115905197E-04 +3.75875011729E-04 -1.86262437974E-01 +8.93838894573E-01
1.41500000000E+09 +2.44207168476E-02 +8.70741305705E-01 +4.33843570665E-04 +3.42592948861E-04 +4.52268511446E-04 +3.43058679691E-04 -1.64551252895E-01 +8.92269192450E-01
1.42000000000E+09 +4.77203989656E-02 +8.64257130917E-01 +4.82137249955E-04 +3.38475362138E-04 +4.88059471640E-04 +3.93191682863E-04 -1.41701514214E-01 +8.89435351023E-01
1.42500000000E+09 +7.03678225786E-02 +8.57081101353E-01 +5.62599267328E-04 +2.94349840325E-04 +6.78370140579E-04 +2.90099125758E-04 -1.18117006798E-01 +8.85893412714E-01
1.43000000000E+09 +9.18179220454E-02 +8.49197258805E-01 +6.33941454922E-04 +2.51355889758E-04 +6.79783626481E-04 +1.89621279900E-04 -9.33183868476E-02 +8.81225576938E-01
1.43500000000E+09 +1.12318579079E-01 +8.39828248872E-01 +6.95013354351E-04 +2.69905050210E-04 +7.25408551003E-04 +2.18271386109E-04 -6.70113369345E-02 +8.74592360442E-01
1.44000000000E+09 +1.32437840426E-01 +8.29548849202E-01 +6.98440486468E-04 +1.23673496965E-04 +7.08156623459E-04 +5.10190701841E-05 -3.88025379503E-02 +8.65790887025E-01
1.44500000000E+09 +1.53915564461E-01 +8.16613193978E-01 +6.45612548690E-04 +1.57735072385E-04 +6.79018304613E-04 +1.65730330392E-04 -8.97976992401E-03 +8.54326130222E-01
1.45000000000E+09 +1.77509887127E-01 +8.00118060519E-01 +7.66122143498E-04 +2.52393026803E-04 +8.49604944231E-04 +2.21991100296E-04 +2.26873097277E-02 +8.40174076427E-01
1.45500000000E+09 +2.04029163730E-01 +7.79503149045E-01 +9.56983547938E-04 +2.83610331277E-04 +1.00905588979E-03 +2.27890936576E-04 +5.61292796337E-02 +8.22955742128E-01
1.46000000000E+09 +2.33589176137E-01 +7.53774205083E-01 +1.25563680207E-03 +1.74369705814E-04 +1.23620189939E-03 +6.90174266407E-05 +9.11443679527E-02 +8.01059414743E-01
1.46500000000E+09 +2.65378311718E-01 +7.22921382872E-01 +1.42828976357E-03 -5.00417023457E-06 +1.32678142914E-03 -9.06948640145E-05 +1.27021430736E-01 +7.74550796090E-01
1.47000000000E+09 +2.98139887402E-01 +6.86473715206E-01 +1.73736797435E-03 -1.11097916726E-04 +1.60633812234E-03 -1.02873414604E-04 +1.64176062012E-01 +7.41670360486E-01
1.47500000000E+09 +3.30471483242E-01 +6.44499714735E-01 +2.07067359434E-03 -6.41841881853E-04 +1.99257699688E-03 -5.06026067412E-04 +2.02264372205E-01 +7.01330089810E-01
1.48000000000E+09 +3.60416225495E-01 +5.96644881567E-01 +2.17400008468E-03 -1.13516960208E-03 +2.25926827310E-03 -1.05876252405E-03 +2.39954689175E-01 +6.51900440888E-01
1.48500000000E+09 +3.85707926929E-01 +5.42423042224E-01 +2.36606140637E-03 -1.90519666783E-03 +2.39744798115E-03 -1.94754679886E-03 +2.75005421230E-01 +5.92538733564E-01
1.49000000000E+09 +4.05098436020E-01 +4.81805640732E-01 +1.92499939859E-03 -2.61998379773E-03 +1.76308392000E-03 -2.73599740554E-03 +3.03429488663E-01 +5.22163339533E-01
1.49500000000E+09 +4.17245470583E-01 +4.13093539902E-01 +1.96327674167E-03 -3.19763415384E-03 +1.74066093419E-03 -3.12932156786E-03 +3.22665720637E-01 +4.42541169672E-01
1.50000000000E+09 +4.18493988713E-01 +3.34830769121E-01 +1.29135185553E-03 -4.68037658173E-03 +1.24695770659E-03 -4.44359951050E-03 +3.29296381718E-01 +3.52196175474E-01
1.50500000000E+09 +4.06327656227E-01 +2.48746358917E-01 -2.18600657881E-04 -5.46435232986E-03 -1.36108589797E-05 -5.26960715488E-03 +3.18062870215E-01 +2.53580019272E-01
1.51000000000E+09 +3.77221066302E-01 +1.57025014997E-01 -1.85470693644E-03 -5.85108838714E-03 -1.64150286206E-03 -5.89458708189E-03 +2.84605692924E-01 +1.52103668223E-01
1.51500000000E+09 +3.28980567641E-01 +6.51429120108E-02 -4.37195034193E-03 -5.79006684695E-03 -4.26969236350E-03 -5.95782780813E-03 +2.29766211089E-01 +5.42921678407E-02
1.52000000000E+09 +2.62076011170E-01 -2.08202813742E-02 -6.39511025987E-03 -3.43550060199E-03 -6.45381301063E-03 -3.52716565747E-03 +1.52252949224E-01 -3.28176221218E-02
1.52500000000E+09 +1.75627932862E-01 -9.48927864422E-02 -6.33008949828E-03 -1.72026674352E-03 -6.42186442967E-03 -1.77328444935E-03 +5.64022559344E-02 -1.00821632970E-01
1.53000000000E+09 +7.25699989787E-02 -1.48262372835E-01 -7.06017336336E-03 -4.46817852129E-04 -7.09286985837E-03 -4.70966584174E-04 -5.08991251124E-02 -1.46470942683E-01
1.53500000000E+09 -3.95955335115E-02 -1.74454285395E-01 -7.61438251715E-03 +2.07645522171E-03 -7.64249346994E-03 +2.16361307885E-03 -1.64036050413E-01 -1.66701501622E-01
1.54000000000E+09 -1.52179685320E-01 -1.73030334862E-01 -6.04702747619E-03 +4.32292495210E-03 -6.00229883626E-03 +4.26594565561E-03 -2.72784989045E-01 -1.62517674114E-01
1.54500000000E+09 -2.57872113304E-01 -1.47855516501E-01 -4.37529992133E-03 +5.95483586433E-03 -4.39857453912E-03 +5.79678944295E-03 -3.72173441021E-01 -1.39751601518E-01
1.55000000000E+09 -3.53369578452E-01 -1.03665371567E-01 -2.15475091283E-03 +6.19420196759E-03 -2.38560902664E-03 +6.09666080508E-03 -4.58440756836E-01 -1.01718199186E-01
1.55500000000E+09 -4.33787022336E-01 -4.61074117319E-02 -6.63877706866E-04 +6.13037457414E-03 -9.64275732126E-04 +6.22031392655E-03 -5.29976137091E-01 -5.36667833416E-02
1.56000000000E+09 -4.98459968443E-01 +1.72738918410E-02 +1.10061950912E-03 +5.88026385283E-03 +9.13605475922E-04 +6.13580834848E-03 -5.86833595888E-01 -1.10442523530E-04
1.56500000000E+09 -5.48254285144E-01 +8.09503291172E-02 +2.42628332001E-03 +4.72215453120E-03 +2.49181369669E-03 +5.03528355691E-03 -6.31505328539E-01 +5.57611954035E-02
1.57000000000E+09 -5.86282110090E-01 +1.42462736408E-01 +3.16263484763E-03 +3.37622854061E-03 +3.39419943886E-03 +3.56484144179E-03 -6.65185872605E-01 +1.10949821780E-01
