# Hz S RI R 50
! CMT, C1220, 16058040, 17.2.0/1
! Date: 14/08/2018 12:16:39
! Data: Format (Calibration Info)
! Freq                      S11: Re/Im (F2)                       S21: Re/Im (F2)                       S12: Re/Im (F2)                       S22: Re/Im (F2)            
1.00000000000E+09 -6.48376655196E-01 +7.14487087440E-01 +2.93657875487E-05 -1.54648682410E-05 +1.15275646493E-05 +2.31308516001E-05 -7.53590499928E-01 +6.24966262909E-01
1.00500000000E+09 -6.41164902460E-01 +7.19660619838E-01 -7.26673404796E-07 -9.55651715898E-06 +2.66660398670E-05 -3.01524253305E-05 -7.49824995543E-01 +6.29024154517E-01
1.01000000000E+09 -6.35402655029E-01 +7.24287733884E-01 +2.91128351032E-05 -2.52316907167E-05 -1.78681544601E-05 +3.42655330836E-05 -7.46452010755E-01 +6.32672626984E-01
1.01500000000E+09 -6.31667730893E-01 +7.28019731954E-01 +3.95838553977E-05 -9.28461242504E-06 -2.74831615702E-05 +2.99266926512E-05 -7.43089494634E-01 +6.36425644989E-01
1.02000000000E+09 -6.29349119227E-01 +7.31097612266E-01 -2.33241156691E-05 +2.43820951621E-05 -2.16965820829E-06 -7.24225048957E-05 -7.39676588940E-01 +6.39864026332E-01
1.02500000000E+09 -6.28277740121E-01 +7.33402093437E-01 -2.78516215479E-05 -3.05908121991E-06 -3.76866522725E-05 +3.74108781758E-05 -7.36876921771E-01 +6.43852198515E-01
1.03000000000E+09 -6.27540458954E-01 +7.35529273453E-01 -1.71892330093E-05 +4.58347232094E-06 -1.48396359931E-05 +2.22508238725E-05 -7.33230862452E-01 +6.47532559071E-01
1.03500000000E+09 -6.25684154993E-01 +7.37427648573E-01 +2.10061292868E-05 -7.56776392589E-06 -8.40876305929E-06 +3.13126340466E-07 -7.29639274867E-01 +6.51644362326E-01
1.04000000000E+09 -6.22534803661E-01 +7.40231690465E-01 -1.49867527897E-05 -1.90726998734E-05 -3.24905663283E-05 -2.69148752093E-05 -7.25601246249E-01 +6.55113622328E-01
1.04500000000E+09 -6.17382535273E-01 +7.43510625190E-01 +3.08592546525E-05 +3.65345783017E-05 +3.53781286525E-05 +5.48017286743E-06 -7.22032376970E-01 +6.58617888861E-01
1.05000000000E+09 -6.10180773860E-01 +7.47711233418E-01 -4.58201990377E-06 +2.06729446639E-05 -3.22381722434E-05 -2.01327165200E-06 -7.18771066957E-01 +6.62090840572E-01
1.05500000000E+09 -6.01627885510E-01 +7.52455520561E-01 -1.70763773707E-05 +5.86258800352E-05 -5.37670505645E-05 +3.02867149560E-05 -7.15478943077E-01 +6.65719707273E-01
1.06000000000E+09 -5.92195548988E-01 +7.57720120142E-01 -7.87369079065E-07 +2.61585760954E-05 +4.08468868692E-06 +3.30309778765E-05 -7.12318430811E-01 +6.69478366889E-01
1.06500000000E+09 -5.83399458083E-01 +7.62962880808E-01 +2.37567912480E-05 +4.38072102782E-05 +2.02735746312E-05 +1.78828164221E-05 -7.08562309824E-01 +6.73244453187E-01
1.07000000000E+09 -5.75860265662E-01 +7.67444699084E-01 +1.27167329635E-05 +2.41834941209E-05 +1.21956744091E-05 +5.02253322030E-05 -7.04440972280E-01 +6.77112860364E-01
1.07500000000E+09 -5.70207370690E-01 +7.71426107052E-01 +9.26732189315E-05 -2.95657821312E-05 +5.53063185268E-05 -3.90147281721E-06 -7.00151694246E-01 +6.80684240719E-01
1.08000000000E+09 -5.66447278231E-01 +7.74749938795E-01 -1.22931822180E-05 +1.30638270661E-05 +9.09830667214E-05 +3.43465938336E-05 -6.96091499177E-01 +6.84526147129E-01
1.08500000000E+09 -5.64405193965E-01 +7.77153612585E-01 +4.89773113171E-05 -1.27147089930E-05 +3.06249840755E-05 +4.48495831070E-06 -6.92085920966E-01 +6.88216259706E-01
1.09000000000E+09 -5.62761819272E-01 +7.79098089517E-01 +5.95390287856E-05 +3.25933864948E-05 +2.73031468831E-05 +7.74168640552E-07 -6.88550811976E-01 +6.92061018889E-01
1.09500000000E+09 -5.61516060037E-01 +7.80689958403E-01 +5.78205732178E-05 +4.32028864369E-05 +1.42299098559E-05 +4.54928138742E-05 -6.84619684599E-01 +6.95977500465E-01
1.10000000000E+09 -5.58942850505E-01 +7.82634118856E-01 +7.16705122231E-05 +3.10728436762E-05 +1.62677967568E-05 -2.92865724265E-05 -6.80618910480E-01 +6.99751132457E-01
1.10500000000E+09 -5.54716571526E-01 +7.85075107739E-01 +2.74109005564E-05 -4.88685070887E-05 +5.99428347557E-05 -3.58864685537E-05 -6.76227329154E-01 +7.03524905095E-01
1.11000000000E+09 -5.48666243697E-01 +7.88389440775E-01 +1.51438469365E-05 -3.48769550520E-06 +8.35497584659E-05 -6.91840541667E-06 -6.72031268594E-01 +7.06780876982E-01
1.11500000000E+09 -5.41232276816E-01 +7.92313255208E-01 +2.59297071635E-05 -2.49974702143E-05 +1.66043883902E-05 -1.93155026565E-06 -6.67988672086E-01 +7.10131595894E-01
1.12000000000E+09 -5.33095947658E-01 +7.96366278919E-01 +1.95108114178E-05 +8.36933683379E-06 +2.85099979446E-05 -1.77223646484E-05 -6.63814609473E-01 +7.13847691221E-01
1.12500000000E+09 -5.24632286942E-01 +8.00682233871E-01 +3.82176471965E-05 -6.43996677592E-07 +3.46198536174E-05 -8.76775437621E-06 -6.59525156251E-01 +7.17748486541E-01
1.13000000000E+09 -5.17425420511E-01 +8.04613716168E-01 +2.78731283135E-05 -4.99018712455E-05 +9.80678406303E-07 -2.34176203013E-05 -6.55377656460E-01 +7.21546975659E-01
1.13500000000E+09 -5.11238400152E-01 +8.07937334719E-01 +3.22461060729E-05 -1.52172335248E-05 +1.83184334977E-05 -8.01880119439E-06 -6.50834769009E-01 +7.25314807482E-01
1.14000000000E+09 -5.06601585759E-01 +8.10725271366E-01 +3.06048851181E-05 +2.17645780388E-05 -1.19688297958E-05 +1.09364179211E-05 -6.46049924040E-01 +7.28693718848E-01
1.14500000000E+09 -5.03266685134E-01 +8.12650867796E-01 +1.19626716276E-05 -8.77107688228E-06 -3.54773043891E-05 -7.30444630249E-06 -6.41504836292E-01 +7.32163485048E-01
1.15000000000E+09 -5.00153973787E-01 +8.14303922848E-01 +2.67315085209E-05 -2.27694792871E-05 +1.91887063781E-05 +1.58681123037E-05 -6.36875562092E-01 +7.35922615203E-01
1.15500000000E+09 -4.97191271421E-01 +8.15890614886E-01 +5.73089929749E-05 +1.84326944089E-05 +2.78247640893E-05 +6.46566209938E-05 -6.32084044025E-01 +7.39939206392E-01
1.16000000000E+09 -4.92832061839E-01 +8.17708579081E-01 +1.50242957807E-05 +1.09040836516E-05 +2.02257905560E-06 +1.90066161633E-05 -6.27306594795E-01 +7.43719721631E-01
1.16500000000E+09 -4.87335757437E-01 +8.20261434485E-01 +5.32894092099E-05 -1.27514177227E-05 +5.07732099577E-05 -1.64114900047E-05 -6.22073338424E-01 +7.47151038103E-01
1.17000000000E+09 -4.80388477876E-01 +8.23297136779E-01 +5.03160085171E-05 -5.66849656074E-05 +4.78414202971E-05 +5.88602234550E-06 -6.16646290061E-01 +7.50634618308E-01
1.17500000000E+09 -4.72419397365E-01 +8.26621470238E-01 +1.29912952747E-06 -3.55715268674E-05 +1.87650127601E-06 -6.36828361573E-06 -6.10960686904E-01 +7.53822387899E-01
1.18000000000E+09 -4.63969097861E-01 +8.30332907711E-01 +2.69366019296E-05 -9.42424713019E-06 +5.11761470605E-05 -1.53315496441E-05 -6.05460250992E-01 +7.56999409251E-01
1.18500000000E+09 -4.55840336268E-01 +8.33665502060E-01 +2.83976398208E-05 -3.44121997098E-05 -3.65773523524E-06 +9.12436679279E-07 -5.99435856216E-01 +7.60003248833E-01
1.19000000000E+09 -4.48635522333E-01 +8.36648561290E-01 +7.31934559559E-05 +3.74317569226E-06 +8.55350108700E-05 +4.81342918356E-05 -5.93243476403E-01 +7.62586514171E-01
1.19500000000E+09 -4.42718294060E-01 +8.38876151657E-01 +7.77364932423E-05 -4.64857283425E-06 +1.15947924713E-04 -7.32206607221E-05 -5.87317966697E-01 +7.63874586177E-01
1.20000000000E+09 -4.38296355237E-01 +8.40109241737E-01 +4.54820134664E-05 -8.06808219641E-05 +5.10675654829E-05 -1.26326445866E-04 -5.82908778545E-01 +7.64189173700E-01
1.20500000000E+09 -4.34401636766E-01 +8.41252714384E-01 -1.84439852883E-05 -8.83284678825E-05 -2.14369295210E-05 -1.22020079769E-04 -5.80581807934E-01 +7.64934731339E-01
1.21000000000E+09 -4.30396993019E-01 +8.42606724351E-01 +1.80556883066E-05 -7.15253261422E-05 +2.73390710603E-06 -5.67142491258E-05 -5.78772129378E-01 +7.67948875785E-01
1.21500000000E+09 -4.25240720829E-01 +8.44164947424E-01 -2.78358131844E-05 -5.11725362623E-05 -3.67887663100E-05 -9.24563552686E-05 -5.75855972372E-01 +7.72496816368E-01
1.22000000000E+09 -4.18382558595E-01 +8.46091632994E-01 -3.61285231308E-05 -2.01150036113E-05 -2.23704063126E-05 -2.23543055113E-05 -5.71790700863E-01 +7.77881330142E-01
1.22500000000E+09 -4.09680346210E-01 +8.48907793885E-01 -8.36674487575E-06 -5.04685424069E-05 +3.17815481513E-05 -2.95685888381E-05 -5.66557280856E-01 +7.82968808814E-01
1.23000000000E+09 -3.99294290106E-01 +8.51933730158E-01 +1.71762764606E-05 -2.07688659081E-05 +3.32798774917E-05 -2.56918686747E-05 -5.60935867577E-01 +7.87720344867E-01
1.23500000000E+09 -3.88355031050E-01 +8.55770052067E-01 +5.90609759414E-05 -6.45609866255E-05 +5.15033324378E-06 -4.62809993489E-05 -5.55055315598E-01 +7.91981236688E-01
1.24000000000E+09 -3.77334573804E-01 +8.59625303548E-01 +7.98635241591E-05 -4.76667921591E-05 +2.81758676012E-05 -1.11465729590E-04 -5.49101113631E-01 +7.95811165819E-01
1.24500000000E+09 -3.67507996229E-01 +8.63644887850E-01 +2.50961573208E-05 -1.02063671039E-04 +2.36710466443E-05 -1.20768519841E-04 -5.42761408354E-01 +7.99789279019E-01
1.25000000000E+09 -3.58996288243E-01 +8.67196202598E-01 -4.50200056805E-05 -1.16287404600E-04 -5.07901303826E-06 -1.35508730507E-04 -5.36051048746E-01 +8.03971838403E-01
1.25500000000E+09 -3.52271554405E-01 +8.69757068939E-01 +2.60964814258E-06 -1.78979077760E-04 -4.44721068455E-05 -1.49716068304E-04 -5.29370496956E-01 +8.07922856940E-01
1.26000000000E+09 -3.47075333712E-01 +8.71757225331E-01 -7.19803030827E-05 -1.41942960198E-04 -5.98684822649E-05 -1.11758148170E-04 -5.22645901783E-01 +8.12234350930E-01
1.26500000000E+09 -3.42703049022E-01 +8.73228476830E-01 -8.71634270662E-05 -1.32446801464E-04 -7.67172920887E-05 -1.76550706282E-04 -5.15666821971E-01 +8.16206830940E-01
1.27000000000E+09 -3.38069282172E-01 +8.74698789382E-01 -7.57493471845E-05 -1.20561868080E-04 -7.74648552863E-05 -1.17787779211E-04 -5.08732383967E-01 +8.19904640026E-01
1.27500000000E+09 -3.32330997199E-01 +8.76005157987E-01 -6.78671845439E-05 -1.41856410314E-04 -7.96208221584E-05 -8.05117388426E-05 -5.01797245052E-01 +8.23504128657E-01
1.28000000000E+09 -3.24422811205E-01 +8.77801163256E-01 -1.15127095836E-04 -9.16747914671E-05 -1.59736015668E-04 -1.35994362585E-04 -4.94789727459E-01 +8.27016950850E-01
1.28500000000E+09 -3.14258341686E-01 +8.80052998255E-01 -1.70259165695E-04 -9.10464313514E-05 -1.44206436295E-04 -1.00620781604E-04 -4.87402544042E-01 +8.30877030507E-01
1.29000000000E+09 -3.02606861438E-01 +8.82828479155E-01 -1.85753865998E-04 -4.59600984984E-05 -2.08249699884E-04 -6.85390500959E-05 -4.79898014726E-01 +8.34470122127E-01
1.29500000000E+09 -2.89835961928E-01 +8.86080978752E-01 -1.92827978629E-04 -6.01757318516E-05 -1.60578002068E-04 -4.74146989027E-05 -4.71988757052E-01 +8.37974214341E-01
1.30000000000E+09 -2.76934802485E-01 +8.89487879951E-01 -2.35311934259E-04 -5.04227252311E-05 -1.67321748506E-04 +6.16901486083E-06 -4.64284614500E-01 +8.41652480762E-01
1.30500000000E+09 -2.65358662749E-01 +8.92708579451E-01 -2.67899442130E-04 -1.91581112498E-05 -2.08699333233E-04 +4.23583547917E-05 -4.55984684693E-01 +8.45043303150E-01
1.31000000000E+09 -2.55605589027E-01 +8.95066017643E-01 -2.17885438083E-04 +2.81627216218E-05 -1.96137404625E-04 +3.16472305662E-05 -4.47810262439E-01 +8.48344587744E-01
1.31500000000E+09 -2.47880864764E-01 +8.97084730067E-01 -2.05125606169E-04 +9.50613212085E-05 -1.89616017238E-04 +7.21788785022E-05 -4.38950339933E-01 +8.52061153700E-01
1.32000000000E+09 -2.41897009482E-01 +8.98193208706E-01 -1.91472139748E-04 +4.83103981386E-05 -1.96637473189E-04 +3.02739324572E-05 -4.29756489940E-01 +8.55397659826E-01
1.32500000000E+09 -2.36634341647E-01 +8.98710692735E-01 -2.20206016145E-04 +6.23006700075E-05 -2.24469227589E-04 +2.95770459363E-05 -4.20227828896E-01 +8.58706037802E-01
1.33000000000E+09 -2.30411231884E-01 +8.98805103504E-01 -2.56520981194E-04 +9.66788572444E-05 -2.26673435426E-04 +1.26101317410E-04 -4.10554013907E-01 +8.61997453464E-01
1.33500000000E+09 -2.22396354733E-01 +8.98656217999E-01 -2.81106158002E-04 +1.44848179773E-04 -2.29295777521E-04 +1.65053542347E-04 -4.00629565784E-01 +8.65468391327E-01
1.34000000000E+09 -2.11717417991E-01 +8.98596152872E-01 -2.38331061758E-04 +2.41068046164E-04 -1.72885432368E-04 +2.37267541964E-04 -3.90409845003E-01 +8.68757784674E-01
1.34500000000E+09 -1.98156875817E-01 +8.98560042025E-01 -1.26682654927E-04 +2.07015698320E-04 -1.56265996083E-04 +2.02637878194E-04 -3.79627593977E-01 +8.72117446949E-01
1.35000000000E+09 -1.82136133469E-01 +8.98685151196E-01 -1.52013212452E-04 +1.72499695545E-04 -1.69077133322E-04 +2.29289407157E-04 -3.68443158003E-01 +8.75251980740E-01
1.35500000000E+09 -1.64686592957E-01 +8.99260434229E-01 -1.98188561494E-04 +2.08678185745E-04 -1.68812782596E-04 +1.94220690268E-04 -3.56761761691E-01 +8.78221086765E-01
1.36000000000E+09 -1.47291480338E-01 +8.99684239731E-01 -1.97937476996E-04 +2.69991483118E-04 -1.91323228570E-04 +2.75948273723E-04 -3.44916074011E-01 +8.80909728747E-01
1.36500000000E+09 -1.30654369133E-01 +9.00315040623E-01 -1.68876750582E-04 +3.22622082480E-04 -1.61768253339E-04 +2.80988987708E-04 -3.32673481566E-01 +8.83354863825E-01
1.37000000000E+09 -1.15830317445E-01 +9.00651597800E-01 -1.43540068158E-04 +3.90639770505E-04 -1.72487107953E-04 +3.41702162569E-04 -3.19676118146E-01 +8.85729234848E-01
1.37500000000E+09 -1.03467897094E-01 +9.00713655880E-01 -1.06898252651E-04 +4.17012077689E-04 -1.72473368040E-04 +3.83940918395E-04 -3.06024780806E-01 +8.88018134383E-01
1.38000000000E+09 -9.26975605423E-02 +9.00483236763E-01 -4.10106901797E-05 +5.24543943851E-04 -9.23750101208E-05 +4.94250801813E-04 -2.91506356797E-01 +8.90244923056E-01
1.38500000000E+09 -8.19701117154E-02 +8.99757409473E-01 +1.21998165665E-04 +4.64295691790E-04 +5.31446714316E-05 +5.10831898590E-04 -2.75840387424E-01 +8.92173324541E-01
1.39000000000E+09 -7.06185270721E-02 +8.98104912993E-01 +1.32141621385E-04 +4.74551750300E-04 +1.17549809310E-04 +5.51930152530E-04 -2.59716540363E-01 +8.93846324664E-01
1.39500000000E+09 -5.68995159365E-02 +8.95488387019E-01 +2.03821659309E-04 +4.79295363081E-04 +1.80418686336E-04 +5.53201587933E-04 -2.42875986488E-01 +8.94502380778E-01
1.40000000000E+09 -4.02650627665E-02 +8.91923661685E-01 +2.48987237668E-04 +5.08400132091E-04 +3.21161537395E-04 +5.31170971010E-04 -2.25290971083E-01 +8.94984153447E-01
1.40500000000E+09 -2.10788424865E-02 +8.87257758978E-01 +3.21684306560E-04 +4.36138866578E-04 +3.60997018713E-04 +4.59277538339E-04 -2.06583281061E-01 +8.94899358995E-01
1.41000000000E+09 +5.88264056196E-04 +8.81623788962E-01 +4.38609845297E-04 +4.53937899621E-04 +3.98731429187E-04 +4.59739039474E-04 -1.86204484485E-01 +8.94299368712E-01
1.41500000000E+09 +2.36462933108E-02 +8.75435902661E-01 +4.48135300468E-04 +3.81065158311E-04 +4.77689174638E-04 +4.36014760942E-04 -1.64384655420E-01 +8.92773051184E-01
1.42000000000E+09 +4.70126303817E-02 +8.68854985435E-01 +4.93029097876E-04 +3.76178455598E-04 +5.28472338701E-04 +3.84742518702E-04 -1.41458651503E-01 +8.90172862549E-01
1.42500000000E+09 +6.98796684199E-02 +8.61680693706E-01 +5.16790925603E-04 +3.26008364391E-04 +6.04683925540E-04 +2.90618677131E-04 -1.17667757474E-01 +8.86672508183E-01
1.43000000000E+09 +9.16250976737E-02 +8.53694599345E-01 +5.68911824090E-04 +2.66543239229E-04 +6.11045047035E-04 +2.54451882508E-04 -9.25696070321E-02 +8.81825281291E-01
1.43500000000E+09 +1.12319641091E-01 +8.44289712096E-01 +6.48705894541E-04 +2.58589245658E-04 +6.83587343988E-04 +2.31332286092E-04 -6.60741937437E-02 +8.75208522853E-01
1.44000000000E+09 +1.32744794285E-01 +8.33847817977E-01 +7.32595206953E-04 +1.46634782907E-04 +7.72564637172E-04 +8.56586100530E-05 -3.75269772567E-02 +8.66386481053E-01
1.44500000000E+09 +1.54696636197E-01 +8.20730431565E-01 +6.48724246810E-04 +4.62923018297E-05 +6.49816210303E-04 +2.64752778278E-05 -7.33105330083E-03 +8.54772229208E-01
1.45000000000E+09 +1.78809731028E-01 +8.04066666188E-01 +6.83577525635E-04 +1.29303331308E-04 +7.03035877038E-04 +8.70235132643E-05 +2.46400655125E-02 +8.40070402756E-01
1.45500000000E+09 +2.05448599577E-01 +7.83079392076E-01 +8.31636860173E-04 +1.85424470787E-04 +8.78966058174E-04 +9.78270289956E-05 +5.84811318984E-02 +8.22254648552E-01
1.46000000000E+09 +2.35311655011E-01 +7.57090065955E-01 +1.05417983685E-03 +1.11322247717E-04 +9.83405117910E-04 +1.50498121995E-05 +9.34046634452E-02 +7.99849895582E-01
1.46500000000E+09 +2.67193147875E-01 +7.25827299124E-01 +1.14825972351E-03 -1.04468229696E-04 +1.04012769576E-03 -1.40680382322E-04 +1.29418149901E-01 +7.72730758002E-01
1.47000000000E+09 +3.00166307766E-01 +6.89052523201E-01 +1.23334852185E-03 -4.45890008705E-05 +1.12516729997E-03 -4.33884608587E-05 +1.66306640120E-01 +7.38764242062E-01
1.47500000000E+09 +3.32765053025E-01 +6.46736470531E-01 +1.59443179401E-03 -2.82647826973E-04 +1.57965130442E-03 -2.42383624689E-04 +2.03571004003E-01 +6.97512435046E-01
1.48000000000E+09 +3.62880402486E-01 +5.98314839047E-01 +1.88204376537E-03 -5.68704058189E-04 +1.89346410684E-03 -5.19142428481E-04 +2.40137504265E-01 +6.47533930333E-01
1.48500000000E+09 +3.88313248047E-01 +5.43242840511E-01 +2.20979350305E-03 -1.16618637624E-03 +2.17663029893E-03 -1.17755639950E-03 +2.73997407115E-01 +5.87997886959E-01
1.49000000000E+09 +4.07578000716E-01 +4.81324483914E-01 +1.97657212913E-03 -1.99640457555E-03 +1.87439240116E-03 -2.09378339358E-03 +3.01273411281E-01 +5.17797055954E-01
1.49500000000E+09 +4.19278615866E-01 +4.11630055508E-01 +2.03112652065E-03 -2.45987320039E-03 +1.85229808736E-03 -2.40691808922E-03 +3.19066272056E-01 +4.38389864288E-01
1.50000000000E+09 +4.20131156344E-01 +3.32352423422E-01 +1.73492354401E-03 -3.77932348295E-03 +1.61583568524E-03 -3.53064418334E-03 +3.24299080637E-01 +3.48907338358E-01
1.50500000000E+09 +4.07292289887E-01 +2.45116753864E-01 +5.86580747711E-04 -4.59689429366E-03 +6.55638425456E-04 -4.33038562458E-03 +3.11722916551E-01 +2.52002409479E-01
1.51000000000E+09 +3.77155464485E-01 +1.52170128176E-01 -6.39804727818E-04 -5.27366190587E-03 -4.42452290125E-04 -5.16509728076E-03 +2.78142673108E-01 +1.52395360306E-01
1.51500000000E+09 +3.27382054749E-01 +5.92065672852E-02 -2.86457285872E-03 -5.65397280978E-03 -2.71663788057E-03 -5.74905826169E-03 +2.23900381352E-01 +5.62240746251E-02
1.52000000000E+09 +2.57030279576E-01 -2.66819684361E-02 -4.93588214321E-03 -4.12149584100E-03 -4.86900263075E-03 -4.18806239489E-03 +1.46784314286E-01 -2.98329737173E-02
1.52500000000E+09 +1.68676730982E-01 -9.83651931167E-02 -5.26657519306E-03 -2.60508969643E-03 -5.28090860816E-03 -2.65856641576E-03 +5.15325832936E-02 -9.58455135290E-02
1.53000000000E+09 +6.52694876469E-02 -1.49903505811E-01 -6.18099380564E-03 -1.85094486316E-03 -6.19973258506E-03 -1.84840809989E-03 -5.37962821414E-02 -1.40441153345E-01
1.53500000000E+09 -4.74781341883E-02 -1.74556126983E-01 -7.32232883977E-03 +3.25033227152E-04 -7.27874300795E-03 +2.79413038072E-04 -1.64999370028E-01 -1.60228164663E-01
1.54000000000E+09 -1.59891851602E-01 -1.71422492271E-01 -6.84518549805E-03 +2.77523885145E-03 -6.79416220233E-03 +2.61188403297E-03 -2.71876396995E-01 -1.56733140074E-01
1.54500000000E+09 -2.65412972198E-01 -1.45163362061E-01 -5.48476323372E-03 +5.16606960931E-03 -5.54881414121E-03 +4.95149355107E-03 -3.70281129290E-01 -1.35044388633E-01
1.55000000000E+09 -3.60454942211E-01 -9.96502282588E-02 -3.09750647555E-03 +6.02525551412E-03 -3.37049191801E-03 +5.81594212786E-03 -4.56157927693E-01 -9.73182867545E-02
1.55500000000E+09 -4.39714014594E-01 -4.14107325747E-02 -1.33621384550E-03 +6.02275527235E-03 -1.67720339402E-03 +6.04147113428E-03 -5.26520971259E-01 -5.02191751766E-02
1.56000000000E+09 -5.03411648993E-01 +2.22971381083E-02 +2.09000104055E-04 +5.99192621742E-03 -5.58348355879E-05 +6.26238934610E-03 -5.83493515230E-01 +2.39046975483E-03
1.56500000000E+09 -5.52409887159E-01 +8.59730708401E-02 +1.99157739230E-03 +5.10482843866E-03 +2.03737319019E-03 +5.45730380513E-03 -6.27961187074E-01 +5.79588770083E-02
1.57000000000E+09 -5.89719347479E-01 +1.47097766881E-01 +2.93003104508E-03 +3.66691470741E-03 +3.18445090921E-03 +3.92681519647E-03 -6.61152435415E-01 +1.12582950074E-01
