# Hz S RI R 50
! CMT, C1220, 16058040, 17.2.0/1
! Date: 14/08/2018 12:16:04
! Data: Format (Calibration Info)
! Freq                      S11: Re/Im (F2)                       S21: Re/Im (F2)                       S12: Re/Im (F2)                       S22: Re/Im (F2)            
1.00000000000E+09 -6.47731775909E-01 +7.14557378916E-01 -4.11553388876E-05 -5.84889609978E-06 +3.54250409076E-05 +5.70923022947E-06 -7.53728269012E-01 +6.24978561674E-01
1.00500000000E+09 -6.40447896497E-01 +7.19800870734E-01 +6.91280677995E-05 -1.72695738085E-05 -3.73153335922E-06 -4.76198034756E-05 -7.49987380939E-01 +6.28963761512E-01
1.01000000000E+09 -6.34647602030E-01 +7.24250826457E-01 -5.25997861194E-05 -8.29050619122E-07 +3.45141257366E-05 -2.05230878856E-05 -7.46599309598E-01 +6.32702254714E-01
1.01500000000E+09 -6.30829036540E-01 +7.28016124655E-01 -3.05880401291E-05 -3.94186208080E-05 -3.12444475477E-05 +2.38034895001E-05 -7.43276638592E-01 +6.36552412869E-01
1.02000000000E+09 -6.28705804486E-01 +7.31009543569E-01 -6.16919483809E-06 +2.50630389936E-05 -9.98101194828E-06 -8.90419900027E-06 -7.39866958515E-01 +6.40050067183E-01
1.02500000000E+09 -6.27339349402E-01 +7.33458780864E-01 +1.53121144464E-05 -2.15782536133E-05 -1.94205357158E-05 -2.90349409832E-07 -7.36805759556E-01 +6.43656179409E-01
1.03000000000E+09 -6.26949978727E-01 +7.35504633639E-01 -4.66016910298E-06 +3.27912559541E-05 -5.94780491662E-05 -8.80755729319E-06 -7.33484549294E-01 +6.47607394591E-01
1.03500000000E+09 -6.25081712513E-01 +7.37581298603E-01 -5.49835465382E-06 +4.59871655664E-07 -1.77865220585E-05 +3.84929755669E-05 -7.29492977735E-01 +6.51570015696E-01
1.04000000000E+09 -6.21783430146E-01 +7.40127589381E-01 -4.88213559532E-06 +1.33481480353E-05 -2.23626586949E-05 +8.34052187276E-07 -7.25857423506E-01 +6.55186245343E-01
1.04500000000E+09 -6.16715347198E-01 +7.43392990741E-01 +1.71057862442E-05 -2.07897868091E-05 +9.99043604788E-06 +2.48029320116E-05 -7.22170349017E-01 +6.58713149539E-01
1.05000000000E+09 -6.09295872776E-01 +7.47562359727E-01 -3.99930742936E-05 +1.85820253746E-05 -1.48423018005E-05 +6.23952348276E-05 -7.18813109854E-01 +6.62119366481E-01
1.05500000000E+09 -6.00666783187E-01 +7.52301342301E-01 -4.50335843890E-05 +9.99224976019E-06 +4.66810985864E-05 -4.31948407280E-05 -7.15741638282E-01 +6.65828250598E-01
1.06000000000E+09 -5.91115411881E-01 +7.57634545398E-01 -4.04914155522E-05 +1.39369610809E-05 -9.53916035527E-07 +1.59967239052E-05 -7.12276923352E-01 +6.69483133473E-01
1.06500000000E+09 -5.82227684852E-01 +7.62770788464E-01 -9.49091377211E-06 +6.05195701170E-05 -8.45910420871E-06 +9.73802500962E-06 -7.08580716960E-01 +6.73245314654E-01
1.07000000000E+09 -5.74716472463E-01 +7.67349111974E-01 +2.01898620545E-05 +3.41618047957E-05 -1.10102695147E-05 +1.94098754465E-05 -7.04482756485E-01 +6.76835152488E-01
1.07500000000E+09 -5.68964625215E-01 +7.71361702412E-01 +2.70801485934E-05 +2.26889143809E-05 +3.70198998560E-05 +3.96171790135E-05 -7.00178719756E-01 +6.80765173464E-01
1.08000000000E+09 -5.65280943804E-01 +7.74746540367E-01 +3.31603957363E-05 -2.77068666992E-05 -4.74076532716E-06 +3.72645655687E-05 -6.96265393664E-01 +6.84582829154E-01
1.08500000000E+09 -5.63146240382E-01 +7.77037431679E-01 +3.60431096290E-05 +5.01443968193E-05 +4.92774389723E-06 -3.63803132277E-05 -6.92261555499E-01 +6.88211675357E-01
1.09000000000E+09 -5.61675262020E-01 +7.79055803496E-01 +1.06027518826E-05 +4.37929367138E-05 +1.24331533436E-05 +2.34554100662E-05 -6.88373050286E-01 +6.91912559947E-01
1.09500000000E+09 -5.60572929164E-01 +7.80577392662E-01 +2.12241266421E-05 +2.75884476895E-05 +4.08139657093E-05 +9.91598649387E-06 -6.84595632726E-01 +6.95911527917E-01
1.10000000000E+09 -5.57806443164E-01 +7.82369822039E-01 +2.59497057539E-05 +4.58453422443E-06 +2.51365353552E-05 +2.53971454167E-05 -6.80644113731E-01 +6.99790318084E-01
1.10500000000E+09 -5.53790288052E-01 +7.84888911287E-01 +2.79362932101E-05 -1.64439590946E-06 +8.21237985324E-06 -2.21993558778E-05 -6.76170333385E-01 +7.03311368237E-01
1.11000000000E+09 -5.47679579281E-01 +7.88073101729E-01 +7.02848354649E-05 -3.48059035789E-05 +2.90014748459E-05 +2.41045525770E-05 -6.72116248881E-01 +7.06738956829E-01
1.11500000000E+09 -5.40219919980E-01 +7.92024764188E-01 +3.43172566166E-05 -1.22933051716E-06 +1.76654657800E-05 -1.08969332962E-05 -6.68101317286E-01 +7.10165454217E-01
1.12000000000E+09 -5.32053526109E-01 +7.96212867713E-01 -4.89901166126E-06 +2.23563457368E-06 +9.19765294551E-06 -1.89976571863E-05 -6.63959592726E-01 +7.13874224482E-01
1.12500000000E+09 -5.23519110657E-01 +8.00492396605E-01 +3.54940271045E-05 +6.97504248775E-05 +2.51754601428E-05 +1.23501352488E-05 -6.59575481172E-01 +7.17684183948E-01
1.13000000000E+09 -5.16268303865E-01 +8.04419247849E-01 -7.95247022915E-06 -6.16729859077E-06 +4.96848826396E-05 -6.31496030881E-06 -6.55500268236E-01 +7.21532676669E-01
1.13500000000E+09 -5.09985915683E-01 +8.07551044590E-01 +2.24456163798E-05 -6.75483335764E-06 -1.39822334159E-05 +3.12966958936E-05 -6.50894187409E-01 +7.25366693409E-01
1.14000000000E+09 -5.05407902374E-01 +8.10371820154E-01 +5.39815918563E-05 -3.02765191448E-05 +5.01723888523E-05 -1.12153671314E-05 -6.46161205802E-01 +7.28708742736E-01
1.14500000000E+09 -5.01962074353E-01 +8.12360619713E-01 +3.35917734865E-05 -1.38071923643E-05 +3.00072401457E-05 -6.89262250221E-05 -6.41602865575E-01 +7.32212847067E-01
1.15000000000E+09 -4.98814647800E-01 +8.13868905783E-01 +1.08578394288E-05 -1.86676223317E-05 +1.51284111368E-05 -1.47721017434E-05 -6.36833993932E-01 +7.35928793914E-01
1.15500000000E+09 -4.95839858663E-01 +8.15509861451E-01 +6.43279382737E-05 -3.99628699023E-05 +4.25118662779E-05 -2.92154397675E-06 -6.32106797008E-01 +7.39667204437E-01
1.16000000000E+09 -4.91569708417E-01 +8.17303534875E-01 -8.94280167182E-06 +2.45521670261E-05 +3.77129873690E-05 +3.23633945669E-06 -6.27275611962E-01 +7.43658922110E-01
1.16500000000E+09 -4.85937915421E-01 +8.19820504790E-01 -2.34942178868E-05 -4.07067154878E-05 +2.35730387552E-05 -5.08362887296E-05 -6.22189877606E-01 +7.47284362075E-01
1.17000000000E+09 -4.79006745790E-01 +8.22795509010E-01 +3.36207175344E-05 -1.10660523680E-05 +7.68503979137E-05 -3.16711604446E-05 -6.16689364283E-01 +7.50638666124E-01
1.17500000000E+09 -4.71004089490E-01 +8.26088690097E-01 +2.50497464195E-05 -4.34787074707E-05 +3.42645641397E-05 -1.36218041102E-05 -6.11002460170E-01 +7.53811556453E-01
1.18000000000E+09 -4.62692782143E-01 +8.29689048591E-01 +3.37803875617E-05 -3.07148286234E-05 +3.60724550424E-05 -8.60120799766E-05 -6.05461178143E-01 +7.56983271453E-01
1.18500000000E+09 -4.54518548742E-01 +8.33147257142E-01 +2.45274683536E-05 -6.06775661229E-05 +1.79122352832E-05 -4.04461778786E-05 -5.99582776898E-01 +7.59925696946E-01
1.19000000000E+09 -4.47299961378E-01 +8.35919335650E-01 +1.15553866553E-05 -4.34664146894E-05 +2.12545735881E-05 -1.85380940668E-05 -5.93375652914E-01 +7.62711614029E-01
1.19500000000E+09 -4.41386607695E-01 +8.38167885112E-01 +4.84882593810E-05 -6.14344703511E-05 +5.92840172344E-05 -8.88263345288E-05 -5.87490619877E-01 +7.63829057244E-01
1.20000000000E+09 -4.36858842283E-01 +8.39226644090E-01 +4.68017983946E-05 -8.44120051991E-05 +2.92888632872E-05 -9.55241820084E-05 -5.82926987235E-01 +7.64139853935E-01
1.20500000000E+09 -4.33056791500E-01 +8.40646098227E-01 +2.69793982495E-05 -8.60880442430E-05 -3.70116733558E-05 -1.18860112905E-04 -5.80512352282E-01 +7.65029917350E-01
1.21000000000E+09 -4.29154611705E-01 +8.41757944344E-01 +2.94860667517E-05 -1.01656915722E-04 +4.96274627391E-05 -1.29383006248E-05 -5.78811607355E-01 +7.67978882627E-01
1.21500000000E+09 -4.23826385803E-01 +8.43358025467E-01 -1.54075041728E-05 -4.61948688559E-05 +1.40654595595E-05 -3.17726095554E-05 -5.75896570821E-01 +7.72639389876E-01
1.22000000000E+09 -4.16969507490E-01 +8.45221327876E-01 -3.76830600365E-05 -4.05665540505E-05 -2.99748355665E-05 -1.88269902303E-05 -5.71880650338E-01 +7.77902651926E-01
1.22500000000E+09 -4.08091315724E-01 +8.47974160797E-01 +9.91142102758E-06 -8.99345810088E-06 +2.03681989882E-05 -7.25762743674E-05 -5.66762978132E-01 +7.82905252758E-01
1.23000000000E+09 -3.97982350749E-01 +8.51112615791E-01 +5.71381169317E-06 -3.03258602741E-05 +1.88025109648E-05 -6.31382602659E-05 -5.61023881185E-01 +7.87723637902E-01
1.23500000000E+09 -3.86963255430E-01 +8.54827577038E-01 +3.51899658353E-05 -5.05447553697E-05 +8.08918762448E-06 -8.78321853615E-05 -5.55234933781E-01 +7.91936234566E-01
1.24000000000E+09 -3.76004245214E-01 +8.58794326097E-01 +7.90391461368E-06 -4.57474845331E-05 +3.38059050589E-05 -7.36889111876E-05 -5.49172032819E-01 +7.95875640063E-01
1.24500000000E+09 -3.66010618669E-01 +8.62818660832E-01 +1.52758576066E-05 -1.47893497131E-04 -1.71617926634E-05 -1.22771201844E-04 -5.42738409347E-01 +7.99653272641E-01
1.25000000000E+09 -3.57562478179E-01 +8.66311597360E-01 -3.31427712839E-05 -1.31305096433E-04 -1.02915688592E-05 -1.09643210747E-04 -5.36220608563E-01 +8.03988463463E-01
1.25500000000E+09 -3.50873839881E-01 +8.68845497106E-01 -4.07965051065E-05 -1.02006584239E-04 -5.64864531871E-05 -1.00167396065E-04 -5.29406082438E-01 +8.07930887730E-01
1.26000000000E+09 -3.45680435196E-01 +8.70895652748E-01 -5.91969964960E-05 -1.21132167886E-04 -7.11533078171E-05 -8.91790055290E-05 -5.22728694594E-01 +8.12206318063E-01
1.26500000000E+09 -3.41248571620E-01 +8.72402136589E-01 -8.54189036272E-05 -6.17802823648E-05 -1.00866169498E-04 -7.24802524734E-05 -5.15683536524E-01 +8.16070117423E-01
1.27000000000E+09 -3.36633031424E-01 +8.73567334574E-01 -6.58481020402E-05 -8.10824019439E-05 -4.44766486836E-05 -7.65963603444E-05 -5.08840266106E-01 +8.20020178224E-01
1.27500000000E+09 -3.30977278965E-01 +8.74794666742E-01 -9.98302124147E-05 -1.07138419607E-04 -7.65432644735E-05 -1.06148584324E-04 -5.01844046992E-01 +8.23436665732E-01
1.28000000000E+09 -3.23135438652E-01 +8.76550133872E-01 -1.03161036834E-04 -8.87657992992E-05 -1.23753200758E-04 -1.01901424767E-04 -4.94835379534E-01 +8.26929468253E-01
1.28500000000E+09 -3.12967029692E-01 +8.78855711961E-01 -1.00576718196E-04 -6.23929736227E-05 -1.41539598831E-04 -1.08580265198E-04 -4.87410504282E-01 +8.30779156344E-01
1.29000000000E+09 -3.01286001900E-01 +8.81520880349E-01 -1.31721800892E-04 -4.86618756365E-05 -1.78885434823E-04 -6.23456649057E-05 -4.79864731712E-01 +8.34439423782E-01
1.29500000000E+09 -2.88532736133E-01 +8.84716864082E-01 -1.38295379519E-04 -6.55627442747E-05 -1.66313412873E-04 -6.33539973757E-05 -4.71950697152E-01 +8.38044237322E-01
1.30000000000E+09 -2.75770971508E-01 +8.88265312445E-01 -2.05859783252E-04 -8.98063274359E-05 -1.82765464954E-04 -5.52888771113E-05 -4.64093848383E-01 +8.41537835877E-01
1.30500000000E+09 -2.64144169136E-01 +8.91408830849E-01 -2.30163564466E-04 -4.59406691683E-05 -2.19308989312E-04 -5.55590289129E-06 -4.56136922281E-01 +8.45046118389E-01
1.31000000000E+09 -2.54153699859E-01 +8.93972351817E-01 -2.52022429274E-04 -1.24464081937E-05 -2.42300304578E-04 +1.47449996831E-05 -4.47793389234E-01 +8.48425756276E-01
1.31500000000E+09 -2.46614486045E-01 +8.95915600788E-01 -2.19002664919E-04 +4.79606358481E-05 -2.35316986218E-04 +9.24089624048E-05 -4.38888736525E-01 +8.51801097561E-01
1.32000000000E+09 -2.40526866672E-01 +8.97089769181E-01 -1.62831840019E-04 +7.66926220586E-05 -2.53489801206E-04 +8.16005979535E-05 -4.29804199760E-01 +8.55295171619E-01
1.32500000000E+09 -2.35310436067E-01 +8.97395837282E-01 -2.19383617903E-04 +9.64948483088E-05 -2.59603462952E-04 +8.70965758767E-05 -4.20152683806E-01 +8.58846696812E-01
1.33000000000E+09 -2.29146472145E-01 +8.97639445931E-01 -2.54719343253E-04 +9.30833126179E-05 -2.60358004037E-04 +1.27480331324E-04 -4.10594324655E-01 +8.62142244863E-01
1.33500000000E+09 -2.21200750381E-01 +8.97378324091E-01 -2.35141471803E-04 +2.00044574501E-04 -2.21211141066E-04 +2.07552748103E-04 -4.00637801315E-01 +8.65448223934E-01
1.34000000000E+09 -2.10457260399E-01 +8.97255275897E-01 -2.17472054908E-04 +2.52234580361E-04 -2.08098489723E-04 +2.44233241970E-04 -3.90420727666E-01 +8.68751811803E-01
1.34500000000E+09 -1.96696340547E-01 +8.97189176069E-01 -1.91489176266E-04 +2.09961959114E-04 -1.51613817077E-04 +2.21292970550E-04 -3.79462785235E-01 +8.72108275094E-01
1.35000000000E+09 -1.80870219048E-01 +8.97385651227E-01 -1.94671364216E-04 +2.64597274156E-04 -1.59369285100E-04 +2.48044546729E-04 -3.68319342170E-01 +8.75243545820E-01
1.35500000000E+09 -1.63478942418E-01 +8.97811131612E-01 -1.88122667928E-04 +2.80068726033E-04 -2.11555426629E-04 +2.91620328751E-04 -3.56739389995E-01 +8.78183785615E-01
1.36000000000E+09 -1.45882290239E-01 +8.98369724812E-01 -1.96358499328E-04 +3.46288833864E-04 -1.84790030017E-04 +3.38891435700E-04 -3.44818321279E-01 +8.80809549582E-01
1.36500000000E+09 -1.29333005871E-01 +8.98908733940E-01 -1.08217727855E-04 +3.89696080881E-04 -8.47072752535E-05 +4.04300716440E-04 -3.32653506321E-01 +8.83446511445E-01
1.37000000000E+09 -1.14667523219E-01 +8.99194979999E-01 -1.12724762027E-04 +4.06498370358E-04 -1.39079990087E-04 +3.76620622385E-04 -3.19813536590E-01 +8.85752339908E-01
1.37500000000E+09 -1.02340079945E-01 +8.99303559268E-01 -6.09491609726E-05 +4.95713060306E-04 -8.97247290390E-05 +4.60570513831E-04 -3.06042336916E-01 +8.88027704314E-01
1.38000000000E+09 -9.15238380953E-02 +8.98850134067E-01 +4.00421182340E-05 +5.74536243564E-04 -1.22737941704E-05 +5.63952758858E-04 -2.91418984873E-01 +8.90310815542E-01
1.38500000000E+09 -8.10782623049E-02 +8.98162106635E-01 +1.50330295180E-04 +5.32146447839E-04 +1.59992421782E-04 +6.27150762250E-04 -2.75822842962E-01 +8.92171763555E-01
1.39000000000E+09 -6.96703551757E-02 +8.96553270905E-01 +1.71369203746E-04 +5.18373739133E-04 +1.93027366888E-04 +5.73842283464E-04 -2.59712197038E-01 +8.93696477072E-01
1.39500000000E+09 -5.61978809479E-02 +8.93733221448E-01 +2.40936102613E-04 +5.23049787156E-04 +3.69202518783E-04 +5.86826449522E-04 -2.42784154687E-01 +8.94557905585E-01
1.40000000000E+09 -3.96240014524E-02 +8.90188997228E-01 +3.89569405832E-04 +5.21552100696E-04 +4.40371811076E-04 +4.94961653353E-04 -2.25202283263E-01 +8.94987292429E-01
1.40500000000E+09 -2.03719435655E-02 +8.85546280422E-01 +4.75361327622E-04 +4.32149956909E-04 +5.19953711285E-04 +4.03594475711E-04 -2.06489601502E-01 +8.95092870851E-01
1.41000000000E+09 +1.30478005702E-03 +8.80083264050E-01 +5.27494138085E-04 +3.58786442218E-04 +4.75060239418E-04 +3.41526993834E-04 -1.86070170460E-01 +8.94249444112E-01
1.41500000000E+09 +2.43329258656E-02 +8.73937951598E-01 +5.90720762273E-04 +3.03628887465E-04 +5.53946001472E-04 +3.29152154101E-04 -1.64189148352E-01 +8.92861448022E-01
1.42000000000E+09 +4.77609908356E-02 +8.67439435070E-01 +5.61267143826E-04 +2.63268721490E-04 +5.89850086375E-04 +3.18146227695E-04 -1.41224744097E-01 +8.90074111965E-01
1.42500000000E+09 +7.05449779403E-02 +8.60355875338E-01 +6.63157275513E-04 +2.15449517043E-04 +7.56742424349E-04 +2.24684377437E-04 -1.17316025573E-01 +8.86484499224E-01
1.43000000000E+09 +9.21814825971E-02 +8.52327466409E-01 +6.81353099409E-04 +1.68514052769E-04 +7.28742338895E-04 +1.04381166843E-04 -9.23582593880E-02 +8.81507691086E-01
1.43500000000E+09 +1.13009926710E-01 +8.42971708409E-01 +8.35727016611E-04 +1.24679565167E-04 +8.27537017906E-04 +4.26386391377E-05 -6.59164023534E-02 +8.74843467400E-01
1.44000000000E+09 +1.33464615927E-01 +8.32595891032E-01 +8.42700041815E-04 -9.92342834523E-05 +8.21296609446E-04 -1.97670523497E-04 -3.73424308548E-02 +8.66021556516E-01
1.44500000000E+09 +1.55410406958E-01 +8.19600718663E-01 +6.29181060703E-04 -2.12280526020E-04 +6.03177499466E-04 -2.57686067441E-04 -7.18698948017E-03 +8.54325527687E-01
1.45000000000E+09 +1.79370468432E-01 +8.02810121081E-01 +5.49393745789E-04 -9.44447267891E-05 +6.04890218123E-04 -1.26488314450E-04 +2.47972676027E-02 +8.39494910862E-01
1.45500000000E+09 +2.06126516220E-01 +7.82000080356E-01 +7.16288942244E-04 -8.34007882916E-06 +7.04017850066E-04 -1.11125170549E-04 +5.83019517992E-02 +8.21663600249E-01
1.46000000000E+09 +2.36050660628E-01 +7.56104773390E-01 +8.55396732880E-04 -3.01393518774E-06 +8.18397173367E-04 -5.15333553282E-05 +9.32571378757E-02 +7.99410400911E-01
1.46500000000E+09 +2.68315879789E-01 +7.25022066785E-01 +1.07534480812E-03 -1.83090189050E-04 +9.65104964096E-04 -2.20708245386E-04 +1.28941306866E-01 +7.71979942205E-01
1.47000000000E+09 +3.01487678662E-01 +6.88177656245E-01 +1.28715916008E-03 -2.15200532379E-04 +1.15369206972E-03 -2.33505313816E-04 +1.65585711630E-01 +7.38341668733E-01
1.47500000000E+09 +3.34222726639E-01 +6.45808722494E-01 +1.46934806352E-03 -5.37165271300E-04 +1.42103460504E-03 -4.28368499855E-04 +2.02959068944E-01 +6.97322810349E-01
1.48000000000E+09 +3.64585731128E-01 +5.97220163353E-01 +1.68433966997E-03 -7.42285517648E-04 +1.71998432100E-03 -7.51085632721E-04 +2.39489555509E-01 +6.47293280017E-01
1.48500000000E+09 +3.90307587526E-01 +5.42107145291E-01 +1.92269371062E-03 -1.36957715973E-03 +1.92978476407E-03 -1.41668199094E-03 +2.73271100958E-01 +5.87846269486E-01
1.49000000000E+09 +4.09722616449E-01 +4.79874193622E-01 +1.62099050566E-03 -2.08212396808E-03 +1.52125148591E-03 -2.15937350261E-03 +3.00717625603E-01 +5.17554765334E-01
1.49500000000E+09 +4.21348510300E-01 +4.09977358698E-01 +1.79648465009E-03 -2.47759921794E-03 +1.54792472372E-03 -2.43857697865E-03 +3.18130772689E-01 +4.38116804676E-01
1.50000000000E+09 +4.22586454163E-01 +3.30410863827E-01 +1.60874598852E-03 -3.85744447975E-03 +1.47849761888E-03 -3.60881247781E-03 +3.23184339944E-01 +3.49101690307E-01
1.50500000000E+09 +4.09562905537E-01 +2.42366020105E-01 +9.78848429745E-05 -4.92591145048E-03 +2.42854991180E-04 -4.68974464579E-03 +3.10709058351E-01 +2.52380006010E-01
1.51000000000E+09 +3.78918149519E-01 +1.48769586199E-01 -1.53981971253E-03 -5.30619786963E-03 -1.30018208380E-03 -5.27530454679E-03 +2.77166604076E-01 +1.53089118302E-01
1.51500000000E+09 +3.28664592317E-01 +5.52847456560E-02 -3.61654453301E-03 -5.06679558536E-03 -3.49570376153E-03 -5.20971911180E-03 +2.23123165609E-01 +5.71176632194E-02
1.52000000000E+09 +2.57024221431E-01 -3.14139661397E-02 -5.29508212985E-03 -3.36747506068E-03 -5.33044210773E-03 -3.53600254424E-03 +1.45989878941E-01 -2.86542133942E-02
1.52500000000E+09 +1.67604799365E-01 -1.02386022398E-01 -5.60909942118E-03 -1.85941939317E-03 -5.65368968955E-03 -1.91987339484E-03 +5.11790579225E-02 -9.45633438635E-02
1.53000000000E+09 +6.37777648622E-02 -1.53458289277E-01 -6.16512661488E-03 -9.11623181821E-04 -6.18693659164E-03 -9.16154360156E-04 -5.41061002245E-02 -1.39010063755E-01
1.53500000000E+09 -4.95070495887E-02 -1.77889174577E-01 -6.98007983205E-03 +1.03076534514E-03 -7.00038440049E-03 +1.02306559167E-03 -1.64926745398E-01 -1.58280044783E-01
1.54000000000E+09 -1.62892011439E-01 -1.73864521614E-01 -6.68780187578E-03 +3.43676718375E-03 -6.59318806768E-03 +3.37887992337E-03 -2.70874162930E-01 -1.54786195863E-01
1.54500000000E+09 -2.68601812963E-01 -1.46012844603E-01 -4.95867201989E-03 +5.95421615189E-03 -5.03066952192E-03 +5.81575071120E-03 -3.68662203655E-01 -1.33537599344E-01
1.55000000000E+09 -3.62757120169E-01 -9.96483394783E-02 -2.18169237498E-03 +6.51547490541E-03 -2.39619498793E-03 +6.42119803235E-03 -4.54046886175E-01 -9.66097182235E-02
1.55500000000E+09 -4.42021518602E-01 -4.10477105882E-02 -3.20872804359E-04 +5.99750663678E-03 -6.01868671414E-04 +6.11035231424E-03 -5.24511470512E-01 -5.03941213270E-02
1.56000000000E+09 -5.05178051113E-01 +2.35089232679E-02 +9.52674109789E-04 +5.52677616713E-03 +7.27107185661E-04 +5.84423139408E-03 -5.82147933464E-01 +1.73073110174E-03
1.56500000000E+09 -5.53222326260E-01 +8.73980183711E-02 +2.28801602076E-03 +4.79786456501E-03 +2.35753234003E-03 +5.19485328140E-03 -6.26788009970E-01 +5.74111292605E-02
1.57000000000E+09 -5.89944410857E-01 +1.48259445670E-01 +3.30892853722E-03 +3.43493399411E-03 +3.56237031039E-03 +3.62503144115E-03 -6.59790255040E-01 +1.11750014178E-01
