# Hz S RI R 50
! CMT, C1220, 16058040, 17.2.0/1
! Date: 14/08/2018 12:16:56
! Data: Format (Calibration Info)
! Freq                      S11: Re/Im (F2)                       S21: Re/Im (F2)                       S12: Re/Im (F2)                       S22: Re/Im (F2)            
1.00000000000E+09 -6.48413612226E-01 +7.14468866883E-01 -3.19660986261E-05 +4.94611121459E-06 -2.60930868335E-05 +5.28800141020E-05 -7.53692485690E-01 +6.24880854237E-01
1.00500000000E+09 -6.41350197868E-01 +7.19474671106E-01 -3.49770736278E-05 +6.17545130188E-06 +2.51302748781E-05 +2.87139581332E-05 -7.49950672139E-01 +6.28827685636E-01
1.01000000000E+09 -6.35339786357E-01 +7.24160326541E-01 -5.88956320302E-06 +1.40149159100E-05 -3.19855095442E-05 -1.28566432235E-05 -7.46492388800E-01 +6.32274187453E-01
1.01500000000E+09 -6.31669975905E-01 +7.27922509991E-01 -4.31796036341E-05 -4.30930695942E-05 -2.69114565634E-05 -1.01858986381E-05 -7.43156828022E-01 +6.36171348303E-01
1.02000000000E+09 -6.29386934165E-01 +7.30918296723E-01 -5.83761724823E-06 +2.98933428647E-05 -4.48774640296E-06 +1.61783273001E-05 -7.39783869545E-01 +6.39962223285E-01
1.02500000000E+09 -6.28262881593E-01 +7.33429647073E-01 +2.89482452143E-05 -2.97528552729E-05 +2.81295459493E-05 +2.22134445911E-05 -7.36878247876E-01 +6.43343496013E-01
1.03000000000E+09 -6.27511846211E-01 +7.35417341484E-01 -6.98295137938E-06 +1.16310752325E-05 -3.96533700329E-05 +5.41126585237E-06 -7.33349399438E-01 +6.47260190106E-01
1.03500000000E+09 -6.25829224394E-01 +7.37490128221E-01 -4.24628409123E-07 -2.91729139614E-05 -4.88560157918E-05 -2.39308621186E-05 -7.29590551250E-01 +6.51288035276E-01
1.04000000000E+09 -6.22576553564E-01 +7.40048149271E-01 +3.58811992622E-05 +5.30285655653E-05 -1.31443859553E-05 +1.68951443348E-05 -7.25864239922E-01 +6.55019798379E-01
1.04500000000E+09 -6.17459183179E-01 +7.43474317217E-01 -1.20785921765E-05 +4.51199243975E-06 -5.81816310858E-06 +4.97991623848E-05 -7.22370281170E-01 +6.58522060762E-01
1.05000000000E+09 -6.10135624148E-01 +7.47668789943E-01 +1.08661203130E-05 +2.64177089929E-06 -2.16030654767E-05 +2.35338081467E-05 -7.18763126256E-01 +6.61984374707E-01
1.05500000000E+09 -6.01587256845E-01 +7.52421480568E-01 -3.37362235179E-05 +1.33085356488E-05 -2.93532141632E-05 +1.98715132454E-05 -7.15598976913E-01 +6.65539264735E-01
1.06000000000E+09 -5.92171893190E-01 +7.57606861185E-01 +1.14475443041E-05 +5.90895141488E-05 -4.11708257983E-05 +3.15461049072E-07 -7.12322538211E-01 +6.69386457749E-01
1.06500000000E+09 -5.83344983247E-01 +7.62766723924E-01 +2.03970917744E-05 +6.09626955156E-05 +1.03659020895E-05 +7.67087616132E-05 -7.08596183366E-01 +6.73080973189E-01
1.07000000000E+09 -5.75800508538E-01 +7.67361582302E-01 -2.20515555422E-05 -3.52780327395E-05 +1.11666572284E-06 +3.61729407089E-05 -7.04580770524E-01 +6.76822378384E-01
1.07500000000E+09 -5.70259063319E-01 +7.71323656421E-01 -9.05534975507E-06 +2.42261666793E-05 -1.92610786835E-05 +4.57200807856E-05 -7.00246068236E-01 +6.80464939353E-01
1.08000000000E+09 -5.66348020085E-01 +7.74571579688E-01 +2.06541691337E-05 +7.02079613867E-06 +3.75130065594E-05 +1.00157029241E-05 -6.96301082328E-01 +6.84355455514E-01
1.08500000000E+09 -5.64236745052E-01 +7.77064199506E-01 +3.25146553926E-05 +6.90388391031E-05 +2.22767503083E-05 +4.34747455246E-05 -6.92325444762E-01 +6.87980665278E-01
1.09000000000E+09 -5.62714715271E-01 +7.78993785310E-01 +3.41886019639E-05 +2.28109182149E-05 +5.41743616336E-05 +5.18138877150E-05 -6.88454166540E-01 +6.91899625707E-01
1.09500000000E+09 -5.61371411306E-01 +7.80588317989E-01 +3.95666769080E-05 -3.39346640331E-06 +1.65563772748E-05 -2.06179953746E-05 -6.84703678871E-01 +6.95790926980E-01
1.10000000000E+09 -5.58645984814E-01 +7.82485693561E-01 +4.46941019085E-05 +3.42074154637E-05 +1.14249530925E-05 +9.30312376771E-07 -6.80785934013E-01 +6.99698178510E-01
1.10500000000E+09 -5.54685654583E-01 +7.85037798271E-01 +3.27143300295E-05 -9.85627008407E-06 +4.31335163427E-05 +4.12008682608E-06 -6.76319379574E-01 +7.03170508781E-01
1.11000000000E+09 -5.48600478737E-01 +7.88364568222E-01 +3.40010588114E-05 +7.33946653506E-06 +8.85230255625E-05 -1.11469181472E-05 -6.72125471722E-01 +7.06547430417E-01
1.11500000000E+09 -5.41078234039E-01 +7.92212777370E-01 +4.70280637778E-05 -1.08996765419E-05 -2.63122070116E-05 -3.64279545922E-05 -6.68175759999E-01 +7.10015314329E-01
1.12000000000E+09 -5.32922035817E-01 +7.96271932114E-01 +7.13893222674E-06 -1.49619848183E-05 +3.98543848009E-05 -2.70053209819E-05 -6.63993151989E-01 +7.13619918411E-01
1.12500000000E+09 -5.24753005793E-01 +8.00684937678E-01 +2.10975663280E-05 +1.25715024159E-05 +2.40161424403E-07 +1.47992261461E-05 -6.59882794640E-01 +7.17600177101E-01
1.13000000000E+09 -5.17332093279E-01 +8.04537420718E-01 +4.23599030378E-06 +1.46075297435E-05 +4.39411663318E-05 -7.45541032952E-06 -6.55552013355E-01 +7.21412789618E-01
1.13500000000E+09 -5.11108211322E-01 +8.07703112680E-01 +1.99618136214E-05 +2.62595089329E-05 +2.55752113076E-05 -1.35953401448E-05 -6.51007702772E-01 +7.25255577425E-01
1.14000000000E+09 -5.06465188755E-01 +8.10512082951E-01 +2.77732886516E-05 +6.13589900170E-06 +6.01116061151E-06 +2.21427203492E-06 -6.46417659383E-01 +7.28585194166E-01
1.14500000000E+09 -5.02996694150E-01 +8.12486743783E-01 +5.73893168265E-05 -4.34145056245E-06 +4.66783366377E-05 +8.10273777271E-06 -6.41635582943E-01 +7.32058180239E-01
1.15000000000E+09 -4.99885238742E-01 +8.14039040917E-01 +3.24320820156E-05 +1.67738462396E-07 +6.70462733589E-05 +2.93255368013E-05 -6.37045523256E-01 +7.35807171335E-01
1.15500000000E+09 -4.96959642910E-01 +8.15842150421E-01 +2.89853605387E-05 -2.18525924701E-06 +7.36273769165E-05 +2.71554863462E-06 -6.32168299369E-01 +7.39541864765E-01
1.16000000000E+09 -4.92723471342E-01 +8.17528883554E-01 +4.08762903074E-05 +4.22847993926E-06 +1.60328327842E-05 +2.04333490034E-05 -6.27425210553E-01 +7.43474510211E-01
1.16500000000E+09 -4.87163144159E-01 +8.20005698985E-01 +5.13200149420E-05 -2.14439794782E-05 +1.12626915021E-05 -3.44878191544E-05 -6.22238411417E-01 +7.47185642393E-01
1.17000000000E+09 -4.80267920378E-01 +8.23015247718E-01 +2.09590554147E-05 +2.03717716840E-06 +7.21472132910E-05 -2.31643360142E-05 -6.16741844811E-01 +7.50501482213E-01
1.17500000000E+09 -4.72184991053E-01 +8.26450807680E-01 +1.02701844460E-04 -2.50560983211E-05 +5.30371866609E-05 -8.10584803121E-06 -6.11130871861E-01 +7.53728005643E-01
1.18000000000E+09 -4.63864888427E-01 +8.30084274868E-01 +3.75361780781E-05 +1.86480765393E-05 +2.49249180514E-05 -2.87192612612E-05 -6.05597556642E-01 +7.56869633905E-01
1.18500000000E+09 -4.55741111865E-01 +8.33367759137E-01 +6.67323562141E-05 -4.21238403218E-05 +4.81786967344E-05 -3.61041073915E-05 -5.99689812667E-01 +7.59942868654E-01
1.19000000000E+09 -4.48460392160E-01 +8.36332631296E-01 +8.56424438599E-05 +2.12439761643E-05 +7.78915094163E-05 +1.29755613502E-05 -5.93344439621E-01 +7.62469075090E-01
1.19500000000E+09 -4.42562493943E-01 +8.38481436161E-01 +8.52185435389E-05 -3.56529769641E-05 +5.41512257383E-05 -7.74524736091E-05 -5.87485797129E-01 +7.63812643559E-01
1.20000000000E+09 -4.38176547036E-01 +8.39701431634E-01 +9.37431406313E-05 -9.86173764087E-05 +2.63765085677E-05 -9.58219840196E-05 -5.83002398658E-01 +7.64055028677E-01
1.20500000000E+09 -4.34324767002E-01 +8.41235560548E-01 +4.75844768690E-05 -6.56799241523E-05 +8.25685031985E-05 -3.65761460708E-05 -5.80650057355E-01 +7.64768073713E-01
1.21000000000E+09 -4.30331472975E-01 +8.42415825517E-01 +3.55138171051E-05 -6.51144319128E-05 -9.84257389216E-06 -9.47195629962E-05 -5.78819906989E-01 +7.67850908126E-01
1.21500000000E+09 -4.25051182547E-01 +8.44014235744E-01 -1.20558344920E-05 -5.93773309212E-05 +1.28778651581E-05 -4.87768303230E-05 -5.76103392388E-01 +7.72458324769E-01
1.22000000000E+09 -4.18116142394E-01 +8.46048898741E-01 +4.18852833108E-05 -6.69253923971E-05 +1.98359877277E-05 -4.61369821076E-05 -5.71886834659E-01 +7.77702262099E-01
1.22500000000E+09 -4.09268355204E-01 +8.48550867017E-01 +5.45362999869E-05 -5.00658407040E-05 -1.45141390373E-05 -5.60954301466E-05 -5.66863508961E-01 +7.82862083324E-01
1.23000000000E+09 -3.99047225736E-01 +8.51746867727E-01 -7.63495564082E-06 -4.72755036728E-05 +5.70592640222E-05 -4.55053939852E-05 -5.61117230471E-01 +7.87676867387E-01
1.23500000000E+09 -3.88161961970E-01 +8.55385827890E-01 +2.79374573778E-05 -3.11600684249E-05 +2.43980266433E-05 -7.59082835442E-05 -5.55233023888E-01 +7.91868883638E-01
1.24000000000E+09 -3.77165399186E-01 +8.59328660515E-01 +3.46456355154E-05 -9.67382301029E-05 -8.54823414414E-06 -6.59036426333E-05 -5.49351898131E-01 +7.95739573168E-01
1.24500000000E+09 -3.67285284915E-01 +8.63442647291E-01 +1.57218656230E-05 -1.14994850928E-04 +2.07641455137E-05 -1.23936883064E-04 -5.42922909898E-01 +7.99598006533E-01
1.25000000000E+09 -3.58815360404E-01 +8.66800091173E-01 +2.43547974820E-05 -1.10613255851E-04 +7.88075800752E-06 -1.35446581480E-04 -5.36362616756E-01 +8.03878146535E-01
1.25500000000E+09 -3.52139417211E-01 +8.69340765910E-01 -7.36416391771E-05 -1.18575532356E-04 -3.02165330824E-05 -1.37496625996E-04 -5.29349368631E-01 +8.07872484564E-01
1.26000000000E+09 -3.46940966916E-01 +8.71403984832E-01 -7.83035853744E-05 -1.05134510771E-04 -6.74210650287E-05 -1.28210889962E-04 -5.22793771984E-01 +8.12133907643E-01
1.26500000000E+09 -3.42510874219E-01 +8.72762870174E-01 -1.06782018714E-04 -8.33663318605E-05 -6.82774527192E-05 -1.34902223329E-04 -5.15774004675E-01 +8.16061710122E-01
1.27000000000E+09 -3.37831560608E-01 +8.74236796620E-01 -9.35116975998E-05 -1.11151649743E-04 -8.86493084660E-05 -1.40115240740E-04 -5.08913798280E-01 +8.19862879920E-01
1.27500000000E+09 -3.31922007348E-01 +8.75581702221E-01 -7.93781875643E-05 -1.25799591167E-04 -1.16503789811E-04 -1.37392121902E-04 -5.01921558579E-01 +8.23417310195E-01
1.28000000000E+09 -3.24386247691E-01 +8.77350422210E-01 -7.87221458748E-05 -1.35261535748E-04 -1.23441201354E-04 -1.11431952453E-04 -4.94954354017E-01 +8.26888482908E-01
1.28500000000E+09 -3.14179124626E-01 +8.79576844869E-01 -1.32058294119E-04 -9.65261868758E-05 -1.85118525816E-04 -1.25650104573E-04 -4.87423088715E-01 +8.30609945344E-01
1.29000000000E+09 -3.02515318631E-01 +8.82345975582E-01 -1.96717865456E-04 -1.26832287065E-04 -1.32546807062E-04 -1.10110350646E-04 -4.79985213406E-01 +8.34239469523E-01
1.29500000000E+09 -2.89748094471E-01 +8.85572683649E-01 -1.58560007227E-04 -5.87460274883E-05 -2.11237371674E-04 -7.58068238597E-05 -4.72021925319E-01 +8.37829678186E-01
1.30000000000E+09 -2.76930623716E-01 +8.89027334792E-01 -2.28156939808E-04 -1.15343174413E-04 -2.17768771017E-04 -2.17757665151E-05 -4.64147225669E-01 +8.41355840772E-01
1.30500000000E+09 -2.65301346351E-01 +8.92145483300E-01 -2.18277089473E-04 -4.64415119394E-05 -2.13567857254E-04 -5.24537080715E-06 -4.56115423906E-01 +8.44900771421E-01
1.31000000000E+09 -2.55478019748E-01 +8.94543277908E-01 -2.47351568243E-04 -1.41733302045E-06 -1.95260065232E-04 +2.54912798472E-05 -4.47752181708E-01 +8.48137671820E-01
1.31500000000E+09 -2.47992060162E-01 +8.96488117048E-01 -2.01905818939E-04 +5.30698703060E-05 -2.08167015652E-04 +5.81865209066E-05 -4.38906522432E-01 +8.51685675297E-01
1.32000000000E+09 -2.41919066378E-01 +8.97645278045E-01 -1.93775763101E-04 +6.10324073409E-05 -2.33988262383E-04 +4.14706293560E-05 -4.29805887334E-01 +8.55102372256E-01
1.32500000000E+09 -2.36539941702E-01 +8.98209645525E-01 -2.22112100246E-04 +1.20779653033E-05 -2.26772750179E-04 +3.33891299574E-05 -4.20253254700E-01 +8.58637610712E-01
1.33000000000E+09 -2.30366838372E-01 +8.98342755349E-01 -2.91353911780E-04 +6.65466399981E-05 -2.99916119267E-04 +9.14544692659E-05 -4.10496501889E-01 +8.61859784950E-01
1.33500000000E+09 -2.22402649213E-01 +8.98035811357E-01 -2.87863445166E-04 +1.50807320345E-04 -2.81913763063E-04 +1.80483368579E-04 -4.00729702041E-01 +8.65228371372E-01
1.34000000000E+09 -2.11676511188E-01 +8.98084008173E-01 -2.43396106909E-04 +2.31994500916E-04 -1.99623816373E-04 +2.73665748443E-04 -3.90493471882E-01 +8.68502540244E-01
1.34500000000E+09 -1.98130608657E-01 +8.97986969506E-01 -1.69412288105E-04 +2.50650072600E-04 -1.29251699332E-04 +2.32645470745E-04 -3.79574569637E-01 +8.71728899742E-01
1.35000000000E+09 -1.82139046217E-01 +8.98047510835E-01 -1.83186073486E-04 +2.39892597735E-04 -1.68802230150E-04 +1.97248441852E-04 -3.68477998163E-01 +8.74926938296E-01
1.35500000000E+09 -1.64693546259E-01 +8.98466219915E-01 -1.70537683665E-04 +1.82133333358E-04 -1.48282813451E-04 +2.15589726519E-04 -3.56904159977E-01 +8.77721297826E-01
1.36000000000E+09 -1.47220496285E-01 +8.98989278199E-01 -1.89975963618E-04 +3.09311173992E-04 -1.39272487125E-04 +2.86185117201E-04 -3.44956682399E-01 +8.80464138852E-01
1.36500000000E+09 -1.30658102664E-01 +8.99684765693E-01 -1.81039990323E-04 +3.25307844695E-04 -1.33850969180E-04 +3.29092424464E-04 -3.32871904254E-01 +8.82981288970E-01
1.37000000000E+09 -1.16077671826E-01 +8.99916371275E-01 -1.28261517790E-04 +3.60143943973E-04 -1.48317163353E-04 +3.08770074758E-04 -3.19915843262E-01 +8.85351797741E-01
1.37500000000E+09 -1.03619815384E-01 +9.00018813787E-01 -1.20866171477E-04 +4.30874566053E-04 -1.81426986157E-04 +3.95168666611E-04 -3.06305406870E-01 +8.87669923596E-01
1.38000000000E+09 -9.28927655793E-02 +8.99698769371E-01 -8.33848367876E-06 +4.79243632259E-04 -7.53713993241E-05 +5.16675808277E-04 -2.91732377973E-01 +8.89922277399E-01
1.38500000000E+09 -8.22326584375E-02 +8.98912441160E-01 +9.83831317931E-05 +4.24911201840E-04 +8.10693810090E-05 +5.10828744250E-04 -2.76162865665E-01 +8.91634055100E-01
1.39000000000E+09 -7.09128347598E-02 +8.97249782195E-01 +7.37531412424E-05 +4.17297565562E-04 +9.09161649650E-05 +4.47128371519E-04 -2.60161745947E-01 +8.93296627493E-01
1.39500000000E+09 -5.74352163098E-02 +8.94720194619E-01 +1.27286318838E-04 +4.23809629772E-04 +1.72782235005E-04 +4.60152292674E-04 -2.43293168537E-01 +8.94029335306E-01
1.40000000000E+09 -4.09632757410E-02 +8.91009495164E-01 +2.06938921182E-04 +4.40354158645E-04 +2.35565420527E-04 +3.84003116128E-04 -2.25684765907E-01 +8.94657983013E-01
1.40500000000E+09 -2.17396758113E-02 +8.86541229020E-01 +2.79433920937E-04 +3.58118326489E-04 +2.79292900404E-04 +3.24433918983E-04 -2.07005261064E-01 +8.94538609705E-01
1.41000000000E+09 -2.49201093650E-04 +8.80945230058E-01 +2.34520314820E-04 +3.65119109933E-04 +2.51133866199E-04 +3.87677441086E-04 -1.86665704871E-01 +8.93855432261E-01
1.41500000000E+09 +2.26430250878E-02 +8.74724981952E-01 +2.92350319821E-04 +3.94929048581E-04 +3.42640253532E-04 +3.96254739890E-04 -1.64983939488E-01 +8.92435275350E-01
1.42000000000E+09 +4.60133803309E-02 +8.68205662501E-01 +4.20168802612E-04 +3.38312176086E-04 +4.11461119274E-04 +4.01038665027E-04 -1.42142112264E-01 +8.89846508643E-01
1.42500000000E+09 +6.87121321473E-02 +8.61017241829E-01 +4.35731901159E-04 +3.42478155942E-04 +4.66626318104E-04 +3.68170501579E-04 -1.18422141063E-01 +8.86355531742E-01
1.43000000000E+09 +9.02817573865E-02 +8.53214379336E-01 +3.96311548614E-04 +2.63089975752E-04 +4.51940973331E-04 +2.41957191792E-04 -9.34212028245E-02 +8.81485772431E-01
1.43500000000E+09 +1.10936678389E-01 +8.43891388224E-01 +4.48527189064E-04 +3.71259849911E-04 +4.99613364836E-04 +3.28358484959E-04 -6.70677220292E-02 +8.74984986054E-01
1.44000000000E+09 +1.31416124812E-01 +8.33601886932E-01 +5.34584917098E-04 +3.48724021561E-04 +5.74422496239E-04 +3.11516560111E-04 -3.86619127916E-02 +8.66270671592E-01
1.44500000000E+09 +1.53293424182E-01 +8.20679055904E-01 +5.35424582468E-04 +3.05521585071E-04 +5.29691343011E-04 +3.09952521516E-04 -8.60850391611E-03 +8.54633901996E-01
1.45000000000E+09 +1.77189548800E-01 +8.04168091493E-01 +5.91418416768E-04 +3.73268158546E-04 +6.54008991917E-04 +2.98817514798E-04 +2.33193230924E-02 +8.40083490727E-01
1.45500000000E+09 +2.03818045757E-01 +7.83241488545E-01 +7.70203785025E-04 +3.62049307708E-04 +8.32537891175E-04 +3.39928669297E-04 +5.67369696629E-02 +8.22513693767E-01
1.46000000000E+09 +2.33438174604E-01 +7.57660319783E-01 +9.32477436046E-04 +3.04535243009E-04 +9.78373827769E-04 +2.07304945723E-04 +9.16893154606E-02 +8.00495271535E-01
1.46500000000E+09 +2.65397968746E-01 +7.26801749722E-01 +1.04532309337E-03 +2.66791892670E-04 +1.01356285197E-03 +1.69277987555E-04 +1.27667514547E-01 +7.73856604447E-01
1.47000000000E+09 +2.98355659915E-01 +6.90287793853E-01 +1.34364313256E-03 +3.90735938833E-04 +1.20399130294E-03 +3.64683042465E-04 +1.64686567904E-01 +7.40407851707E-01
1.47500000000E+09 +3.30841808344E-01 +6.48350913319E-01 +1.83839365304E-03 +9.41467759231E-05 +1.74134182276E-03 +1.18647163758E-04 +2.02026246340E-01 +6.99716499030E-01
1.48000000000E+09 +3.60972929974E-01 +6.00353721088E-01 +2.11782471369E-03 -2.25299021684E-04 +2.18351228007E-03 -2.34496099940E-04 +2.38992215910E-01 +6.50276124869E-01
1.48500000000E+09 +3.86556583470E-01 +5.45928780161E-01 +2.51193299405E-03 -8.88025816659E-04 +2.54949871021E-03 -9.47237926666E-04 +2.73462813350E-01 +5.91282186343E-01
1.49000000000E+09 +4.06183689182E-01 +4.84867047719E-01 +2.39842362035E-03 -1.77251399848E-03 +2.31149874190E-03 -1.86074064381E-03 +3.01442598880E-01 +5.21558755334E-01
1.49500000000E+09 +4.18595496492E-01 +4.15674620567E-01 +2.47843783301E-03 -2.31386264511E-03 +2.23065389789E-03 -2.30159460023E-03 +3.20673582209E-01 +4.42638101566E-01
1.50000000000E+09 +4.20232795702E-01 +3.36963454127E-01 +2.22695440272E-03 -3.57678929860E-03 +2.07274868530E-03 -3.36344792717E-03 +3.27432336645E-01 +3.52773663159E-01
1.50500000000E+09 +4.08394075389E-01 +2.50296715438E-01 +1.17425531928E-03 -4.59246110105E-03 +1.22534916616E-03 -4.35509627104E-03 +3.16148586832E-01 +2.54919942380E-01
1.51000000000E+09 +3.79683506447E-01 +1.57566249289E-01 -9.84306711879E-06 -5.29254979352E-03 +1.83290201022E-04 -5.25118134506E-03 +2.83742169731E-01 +1.53900488336E-01
1.51500000000E+09 +3.31452383011E-01 +6.44323136369E-02 -2.13293719175E-03 -5.86113919613E-03 -2.00493565365E-03 -5.97941684211E-03 +2.29719679081E-01 +5.60639195072E-02
1.52000000000E+09 +2.63186038109E-01 -2.25593909189E-02 -4.21943652043E-03 -4.48341396233E-03 -4.23205581971E-03 -4.58861249705E-03 +1.52650905808E-01 -3.16547914485E-02
1.52500000000E+09 +1.76006827273E-01 -9.63537265541E-02 -4.74451444602E-03 -3.17090984223E-03 -4.71704963508E-03 -3.24259157551E-03 +5.68610987634E-02 -9.97490578855E-02
1.53000000000E+09 +7.25254770674E-02 -1.49847390172E-01 -5.60658486428E-03 -2.53362929083E-03 -5.68870759714E-03 -2.57447264991E-03 -5.02189596962E-02 -1.45846274717E-01
1.53500000000E+09 -4.04780213851E-02 -1.76201091986E-01 -6.88225020548E-03 -4.89457280235E-04 -6.90346645468E-03 -4.69242504933E-04 -1.63292282461E-01 -1.66410094824E-01
1.54000000000E+09 -1.53848274856E-01 -1.74587034396E-01 -6.55452826784E-03 +1.61109467478E-03 -6.52974847344E-03 +1.59182003887E-03 -2.72643355876E-01 -1.62679314708E-01
1.54500000000E+09 -2.60357127437E-01 -1.49307402560E-01 -5.73777668191E-03 +3.80574507877E-03 -5.76671829754E-03 +3.71229614148E-03 -3.72291697832E-01 -1.39533104495E-01
1.55000000000E+09 -3.56702885349E-01 -1.04588548673E-01 -3.84062572943E-03 +4.86574181972E-03 -3.95018651457E-03 +4.75050626079E-03 -4.58543859259E-01 -1.00926101293E-01
1.55500000000E+09 -4.37278275658E-01 -4.64575780595E-02 -2.22384835370E-03 +5.22381808111E-03 -2.47835361385E-03 +5.22013550292E-03 -5.29283520548E-01 -5.28421589094E-02
1.56000000000E+09 -5.01932580177E-01 +1.71345354763E-02 -7.98449541633E-04 +5.48401279281E-03 -1.06266886836E-03 +5.65085959372E-03 -5.86242859694E-01 +4.01939357744E-04
1.56500000000E+09 -5.51922595529E-01 +8.11260963563E-02 +8.50139648627E-04 +4.96542926656E-03 +8.25457587725E-04 +5.26928293045E-03 -6.30907082685E-01 +5.64016851632E-02
1.57000000000E+09 -5.89934867957E-01 +1.42819608925E-01 +1.98689372875E-03 +3.82643486143E-03 +2.09129028246E-03 +4.09640953766E-03 -6.64063623560E-01 +1.11810348042E-01
