# Hz S RI R 50
! CMT, C1220, 16058040, 17.2.0/1
! Date: 14/08/2018 12:13:15
! Data: Format (Calibration Info)
! Freq                      S11: Re/Im (F2)                       S21: Re/Im (F2)                       S12: Re/Im (F2)                       S22: Re/Im (F2)            
1.00000000000E+09 -6.46714938684E-01 +7.14656058720E-01 -5.11733918776E-06 -2.27549130205E-05 -2.05229788479E-05 -2.85976693742E-05 -7.53353380171E-01 +6.24865838720E-01
1.00500000000E+09 -6.39537397847E-01 +7.19776075026E-01 -4.60180357627E-05 -1.50251088927E-05 +3.30710762785E-05 -1.07130646676E-05 -7.49815515940E-01 +6.29147337384E-01
1.01000000000E+09 -6.33716350086E-01 +7.24477041692E-01 -2.06904067982E-05 -7.82490198915E-07 +1.05530089749E-05 +1.14359652201E-06 -7.46243718341E-01 +6.32725157592E-01
1.01500000000E+09 -6.29762594698E-01 +7.28176725177E-01 -2.41107109407E-05 -1.30934100251E-05 -2.65806997855E-05 +2.42552711237E-06 -7.42903019012E-01 +6.36600229636E-01
1.02000000000E+09 -6.27451731879E-01 +7.31199481455E-01 -3.18724446322E-06 +3.15980918027E-05 -3.98362250989E-05 -2.88608318044E-05 -7.39620074929E-01 +6.40119625866E-01
1.02500000000E+09 -6.26171276319E-01 +7.33676556006E-01 +7.76545656566E-06 +3.23401970385E-05 -3.88921505452E-06 -2.72655890011E-05 -7.36610258220E-01 +6.43741244254E-01
1.03000000000E+09 -6.25821803332E-01 +7.35743017136E-01 +1.85974424399E-05 -6.25676199208E-06 -2.81363746301E-05 -1.99510486252E-05 -7.33205481438E-01 +6.47634394393E-01
1.03500000000E+09 -6.23925168195E-01 +7.37814494352E-01 -3.89101672614E-05 -2.27186544217E-06 -2.02464524810E-05 +9.27395235766E-06 -7.29430350304E-01 +6.51596791515E-01
1.04000000000E+09 -6.20671592901E-01 +7.40405635292E-01 +2.85695675473E-05 -1.17066912391E-05 -5.36480364561E-05 -1.08226025701E-05 -7.25609487287E-01 +6.55211791864E-01
1.04500000000E+09 -6.15620440305E-01 +7.43753790071E-01 -9.03483707507E-06 -2.63086655519E-05 +3.79560971215E-05 +5.16875772104E-05 -7.22165193568E-01 +6.58774840509E-01
1.05000000000E+09 -6.08265190563E-01 +7.47622516770E-01 +7.68392791938E-06 +1.27821145173E-05 -1.95704235953E-05 -8.05886744959E-06 -7.18681858154E-01 +6.62113526223E-01
1.05500000000E+09 -5.99426531933E-01 +7.52326849149E-01 +2.26770519603E-05 -1.99091789703E-05 +6.80601309094E-06 +1.19314592576E-05 -7.15445153394E-01 +6.65785951969E-01
1.06000000000E+09 -5.89805445500E-01 +7.57790090370E-01 +9.14568293218E-06 -6.38504713095E-06 -3.17237818926E-05 +2.09503103847E-05 -7.12118312701E-01 +6.69551137605E-01
1.06500000000E+09 -5.80793200935E-01 +7.62929909391E-01 +4.05722545291E-05 +2.89386994182E-05 +4.70571285617E-06 +1.78182027372E-05 -7.08321909362E-01 +6.73346935295E-01
1.07000000000E+09 -5.73244159839E-01 +7.67311670051E-01 +8.63539151612E-06 +2.36477752315E-05 +4.87129456290E-05 +3.17276898992E-05 -7.04429752675E-01 +6.76995542651E-01
1.07500000000E+09 -5.67480590985E-01 +7.71444962406E-01 -8.49483160854E-06 +2.39872298484E-05 -2.53534478168E-05 +4.62245633480E-05 -7.00100716089E-01 +6.80673210665E-01
1.08000000000E+09 -5.63715804180E-01 +7.74688959028E-01 +4.35607419918E-05 +5.22432108884E-05 -1.15773834058E-05 -2.61196135115E-06 -6.95994282311E-01 +6.84603451053E-01
1.08500000000E+09 -5.61624747352E-01 +7.77149434528E-01 +3.55046318220E-05 +6.61865125288E-06 +3.82407187168E-05 -1.01512157149E-05 -6.91974279335E-01 +6.88259165312E-01
1.09000000000E+09 -5.59943916381E-01 +7.79130177251E-01 +1.29699384188E-05 -2.52995902824E-06 -1.78243756947E-05 -4.25451428239E-06 -6.88179283954E-01 +6.92191787194E-01
1.09500000000E+09 -5.58735407147E-01 +7.80768161924E-01 +5.06841948992E-05 +2.14920126903E-05 -1.88038006171E-05 -6.90754245698E-06 -6.84495804802E-01 +6.96126217497E-01
1.10000000000E+09 -5.56077885623E-01 +7.82564534722E-01 +2.45275699223E-05 -3.08702504604E-05 +4.52190544294E-05 -4.25172331802E-05 -6.80366178226E-01 +6.99846179496E-01
1.10500000000E+09 -5.51928081006E-01 +7.85095854635E-01 +2.54067523598E-05 +2.13014110605E-05 +3.14150805137E-05 -4.74932737180E-06 -6.76079923775E-01 +7.03311264238E-01
1.11000000000E+09 -5.45956914614E-01 +7.88186471155E-01 +3.48906070991E-05 +1.00372356312E-05 +3.24847760660E-05 -6.09535389461E-05 -6.72034807771E-01 +7.06882090847E-01
1.11500000000E+09 -5.38312829665E-01 +7.92085021417E-01 +4.13381958945E-05 +2.62171602906E-05 -1.16411167503E-05 -1.14270831774E-05 -6.67753653266E-01 +7.10318089863E-01
1.12000000000E+09 -5.30060262532E-01 +7.96224160020E-01 +5.29657826802E-06 +2.37405127082E-05 +2.47281842116E-05 -5.63125017710E-06 -6.63721453077E-01 +7.13949840961E-01
1.12500000000E+09 -5.21676675949E-01 +8.00549711778E-01 +3.51499072386E-06 -4.19323953370E-05 +2.57133654183E-05 -4.63709565173E-07 -6.59466806489E-01 +7.17856599254E-01
1.13000000000E+09 -5.14405308895E-01 +8.04362005481E-01 +2.57027175459E-05 +9.60674980867E-06 +1.19100479715E-05 -1.04054819651E-05 -6.55355915738E-01 +7.21689130965E-01
1.13500000000E+09 -5.08307973488E-01 +8.07468291107E-01 +2.68618935722E-05 +1.29556105017E-05 +2.03597093943E-07 -3.22231811646E-06 -6.50725222503E-01 +7.25328725375E-01
1.14000000000E+09 -5.03514285785E-01 +8.10268134540E-01 +8.21537032591E-06 -1.74273339270E-06 -3.11261414746E-06 +2.85724305914E-06 -6.46040621796E-01 +7.28738654856E-01
1.14500000000E+09 -5.00096630700E-01 +8.12171215551E-01 -2.07298698174E-05 +3.54492177586E-06 +6.60926171870E-05 +3.88021700425E-05 -6.41443763743E-01 +7.32275857999E-01
1.15000000000E+09 -4.97162514160E-01 +8.13707874884E-01 +4.37469171991E-05 +1.38078002517E-05 +1.68637921109E-05 -6.32809088793E-05 -6.36748811034E-01 +7.35937090006E-01
1.15500000000E+09 -4.94133892075E-01 +8.15186555769E-01 +2.31848623399E-05 -5.32082303507E-06 +3.91263666645E-05 +2.39183472310E-05 -6.31919692214E-01 +7.39784095392E-01
1.16000000000E+09 -4.89800613323E-01 +8.17075490623E-01 +2.85389685375E-05 -3.79761302688E-05 +3.22079594963E-05 -1.11201881694E-05 -6.27041542671E-01 +7.43646878910E-01
1.16500000000E+09 -4.84176370699E-01 +8.19409584536E-01 +3.21365794876E-05 -1.32115500111E-05 +3.74364410258E-05 +3.81132902540E-05 -6.22152919072E-01 +7.47349705315E-01
1.17000000000E+09 -4.77186669586E-01 +8.22511083177E-01 -6.65800363629E-06 -2.48943963774E-05 -3.42932070930E-06 +8.16796708318E-06 -6.16586445491E-01 +7.50712471152E-01
1.17500000000E+09 -4.68956452103E-01 +8.25790978872E-01 +5.30373370598E-05 -2.25946151977E-05 +1.58522666791E-05 -7.24360259387E-05 -6.10893681655E-01 +7.53879489972E-01
1.18000000000E+09 -4.60452260356E-01 +8.29432470711E-01 +3.27950411660E-05 +2.43075379432E-05 +4.96813017132E-05 -7.29996113997E-06 -6.05296680321E-01 +7.56969992588E-01
1.18500000000E+09 -4.52276933238E-01 +8.32810060019E-01 +1.79106317638E-05 +2.21328313474E-07 +3.52533103104E-05 -3.68313873208E-05 -5.99188604751E-01 +7.59999899301E-01
1.19000000000E+09 -4.44869812146E-01 +8.35610636865E-01 +7.76306993580E-05 -2.86257575806E-05 +7.61205229514E-05 -3.57940836529E-05 -5.93098914559E-01 +7.62649316804E-01
1.19500000000E+09 -4.39167013152E-01 +8.37771614546E-01 +1.46403630897E-05 -7.04363119891E-05 +2.38177699689E-05 -7.18800564551E-05 -5.87245321541E-01 +7.63879188885E-01
1.20000000000E+09 -4.34553283242E-01 +8.38985380558E-01 +3.49849575865E-06 -9.36854076067E-05 +3.90002534481E-05 -9.93586409643E-05 -5.82670422985E-01 +7.64117786641E-01
1.20500000000E+09 -4.30837223601E-01 +8.40141734471E-01 -2.46999039787E-05 -5.54090463726E-05 -3.44194125546E-05 -1.12249030204E-04 -5.80392928207E-01 +7.65028645049E-01
1.21000000000E+09 -4.26833236058E-01 +8.41375262073E-01 -1.77049337302E-05 -3.10777595753E-05 -2.22261976448E-05 -4.00391580319E-05 -5.78648186403E-01 +7.67991709887E-01
1.21500000000E+09 -4.21667928813E-01 +8.42923688152E-01 -1.81625884194E-05 -3.07997406878E-05 -3.10381211127E-05 -5.43659183551E-05 -5.75745518407E-01 +7.72628150033E-01
1.22000000000E+09 -4.14663804749E-01 +8.44654463266E-01 -2.23351435538E-05 -1.70111677557E-05 -3.00846532726E-05 -5.52088063067E-05 -5.71681010024E-01 +7.77906107657E-01
1.22500000000E+09 -4.05747401688E-01 +8.47341701985E-01 +1.33941934406E-05 -5.49878091635E-05 +5.59254443356E-05 -2.50195311798E-06 -5.66541040409E-01 +7.82965088276E-01
1.23000000000E+09 -3.95419501145E-01 +8.50432115975E-01 +2.03386181302E-05 -3.36804164655E-05 +7.47928631200E-06 -7.01330583199E-05 -5.60832949518E-01 +7.87635562715E-01
1.23500000000E+09 -3.84286610248E-01 +8.53991735421E-01 -7.39884181966E-08 -8.94801167486E-05 +2.89858012208E-06 -5.23874954623E-05 -5.54907917214E-01 +7.92055070704E-01
1.24000000000E+09 -3.73263802364E-01 +8.57788255483E-01 +2.15030922179E-05 -8.72178683493E-05 +1.56774156959E-06 -6.59504939844E-05 -5.48942154497E-01 +7.95973548170E-01
1.24500000000E+09 -3.63165156728E-01 +8.61980590472E-01 -4.58211373184E-05 -9.23940174269E-05 -1.10257590867E-05 -1.14797829882E-04 -5.42626666750E-01 +7.99642789948E-01
1.25000000000E+09 -3.54632596362E-01 +8.65388421050E-01 -6.70637927666E-05 -1.02561027682E-04 -1.80727289741E-05 -1.19069068448E-04 -5.36067765738E-01 +8.04100338647E-01
1.25500000000E+09 -3.48035682207E-01 +8.67909439373E-01 -4.63102282436E-05 -1.37684894245E-04 -1.01494366508E-04 -1.60396674385E-04 -5.29117137173E-01 +8.08023272310E-01
1.26000000000E+09 -3.42703864002E-01 +8.69924155554E-01 -9.05862850810E-05 -6.91983688435E-05 -7.34556233882E-05 -5.03178659943E-05 -5.22504667306E-01 +8.12365350118E-01
1.26500000000E+09 -3.38483096012E-01 +8.71350243132E-01 -3.67694184903E-05 -8.88790124546E-05 -7.71573818962E-05 -1.00358425136E-04 -5.15535391533E-01 +8.16199370626E-01
1.27000000000E+09 -3.33873934704E-01 +8.72517645316E-01 -9.45380356071E-05 -7.93496486927E-05 -1.39249862850E-04 -8.76021447251E-05 -5.08682771794E-01 +8.20080534567E-01
1.27500000000E+09 -3.28304144928E-01 +8.73803800388E-01 -1.59248843182E-04 -9.44997765518E-05 -1.94277003637E-04 -5.45892914817E-05 -5.01559751681E-01 +8.23623460235E-01
1.28000000000E+09 -3.20268478821E-01 +8.75447135064E-01 -1.93377421836E-04 -8.33836303682E-05 -1.40374427570E-04 -7.42813723708E-05 -4.94537958211E-01 +8.27133499623E-01
1.28500000000E+09 -3.10285496523E-01 +8.77474027928E-01 -1.60037324186E-04 -5.86242663289E-05 -2.23466700726E-04 -7.51452466060E-05 -4.87114512457E-01 +8.30858985139E-01
1.29000000000E+09 -2.98399245824E-01 +8.80082049208E-01 -2.05715852226E-04 -3.39740816475E-05 -2.22635466409E-04 -4.35113246529E-05 -4.79579439058E-01 +8.34408939903E-01
1.29500000000E+09 -2.85754095442E-01 +8.83287448297E-01 -2.13055868967E-04 +4.69161995160E-06 -2.07364834770E-04 +2.25707700184E-05 -4.71753078193E-01 +8.38053862506E-01
1.30000000000E+09 -2.72928309405E-01 +8.86770763864E-01 -1.94476656063E-04 +1.09131556803E-05 -2.13927212601E-04 +2.89552694882E-05 -4.63908001388E-01 +8.41615079927E-01
1.30500000000E+09 -2.61075870022E-01 +8.89894245495E-01 -2.44395040815E-04 +6.49343311917E-05 -1.97403151417E-04 +1.26745989710E-04 -4.55843756848E-01 +8.44925294528E-01
1.31000000000E+09 -2.51197687582E-01 +8.92358399605E-01 -2.24730572685E-04 +1.01190013302E-04 -1.92492219094E-04 +1.14128299148E-04 -4.47406111828E-01 +8.48533961496E-01
1.31500000000E+09 -2.43549159525E-01 +8.94134368783E-01 -2.38655947989E-04 +1.70784471558E-04 -2.21452462181E-04 +1.71324754971E-04 -4.38580626976E-01 +8.51938963420E-01
1.32000000000E+09 -2.37426917685E-01 +8.95320418285E-01 -1.81032874915E-04 +1.27465958938E-04 -1.58292006142E-04 +1.49314381949E-04 -4.29597621213E-01 +8.55261836387E-01
1.32500000000E+09 -2.32201766379E-01 +8.95754079619E-01 -1.47590750271E-04 +1.44293161993E-04 -1.58154233604E-04 +1.57753357704E-04 -4.19914443471E-01 +8.58614627227E-01
1.33000000000E+09 -2.26075634121E-01 +8.95929002208E-01 -2.09819218743E-04 +2.32683657574E-04 -1.56752237843E-04 +2.10041618115E-04 -4.10251903421E-01 +8.61977473580E-01
1.33500000000E+09 -2.18152461017E-01 +8.95422212393E-01 -1.73953740654E-04 +2.49514171908E-04 -1.23910969966E-04 +2.66937490698E-04 -4.00364675417E-01 +8.65452345022E-01
1.34000000000E+09 -2.07596046387E-01 +8.95255383638E-01 -1.24252680704E-04 +2.69332588072E-04 -9.17240916238E-05 +2.40119048214E-04 -3.90197173961E-01 +8.68598655191E-01
1.34500000000E+09 -1.93985574757E-01 +8.94966977205E-01 -1.89982471727E-05 +2.86948117579E-04 -5.73417768086E-05 +2.52515512661E-04 -3.79285885931E-01 +8.71947490824E-01
1.35000000000E+09 -1.78003571562E-01 +8.95043379375E-01 -1.20067817027E-05 +2.66459716505E-04 -6.30909105280E-05 +2.64692855934E-04 -3.68275530505E-01 +8.75202241364E-01
1.35500000000E+09 -1.60644394671E-01 +8.95376928947E-01 +1.62289780461E-05 +2.80265902407E-04 -5.12821382699E-05 +2.82658608433E-04 -3.56500467792E-01 +8.78113236667E-01
1.36000000000E+09 -1.43175046802E-01 +8.95875802998E-01 -3.06226026489E-05 +3.50306586749E-04 -1.89759534205E-05 +2.99962947645E-04 -3.44576406084E-01 +8.80924828600E-01
1.36500000000E+09 -1.26618037136E-01 +8.96398089242E-01 +4.22727395066E-05 +2.66826490392E-04 +2.34406256816E-05 +3.31552824971E-04 -3.32457155642E-01 +8.83356635202E-01
1.37000000000E+09 -1.12050407481E-01 +8.96634274069E-01 +9.61462534097E-06 +3.57242007868E-04 +4.60490856096E-05 +3.31355316206E-04 -3.19513177546E-01 +8.85823448672E-01
1.37500000000E+09 -9.97770018930E-02 +8.96703756386E-01 +4.40530901986E-05 +4.56584136045E-04 +2.03809802739E-05 +4.16160142984E-04 -3.05751205113E-01 +8.88017856929E-01
1.38000000000E+09 -8.91085139750E-02 +8.96356333017E-01 +1.96515943106E-04 +4.47729390839E-04 +1.41518132552E-04 +4.78630550766E-04 -2.90887055539E-01 +8.90225949818E-01
1.38500000000E+09 -7.85830290404E-02 +8.95440738757E-01 +2.66621923995E-04 +3.58494738329E-04 +3.10665963133E-04 +4.75059231141E-04 -2.75476580806E-01 +8.92135759659E-01
1.39000000000E+09 -6.74370643667E-02 +8.93690992142E-01 +3.07047650416E-04 +3.49700346286E-04 +3.16057054946E-04 +4.29942874087E-04 -2.59451476314E-01 +8.93544870459E-01
1.39500000000E+09 -5.40532549658E-02 +8.90948254677E-01 +3.53290336044E-04 +3.65459259104E-04 +4.15108323998E-04 +3.74963615720E-04 -2.42433437435E-01 +8.94340538448E-01
1.40000000000E+09 -3.75674379016E-02 +8.87215402611E-01 +4.83920158351E-04 +3.32178499493E-04 +5.28868121755E-04 +2.77806493100E-04 -2.24770859554E-01 +8.94869993091E-01
1.40500000000E+09 -1.85120123059E-02 +8.82584715900E-01 +5.36092026479E-04 +2.13473131866E-04 +5.35593584255E-04 +2.12189425082E-04 -2.05935776586E-01 +8.94718183063E-01
1.41000000000E+09 +2.94079298085E-03 +8.76962677433E-01 +4.99756683935E-04 +1.66696554222E-04 +4.74508989004E-04 +1.45881260814E-04 -1.85622668756E-01 +8.93930682968E-01
1.41500000000E+09 +2.59195020556E-02 +8.70659121137E-01 +4.82124143044E-04 +1.32799861968E-04 +5.69241945982E-04 +1.00375644051E-04 -1.63843581576E-01 +8.92336442718E-01
1.42000000000E+09 +4.91506916481E-02 +8.64070994355E-01 +5.32068783379E-04 +1.19281113775E-04 +6.01383184431E-04 +1.42961499789E-04 -1.40950372501E-01 +8.89525482077E-01
1.42500000000E+09 +7.17555064721E-02 +8.56865276463E-01 +5.83543100534E-04 +2.75947282494E-05 +6.73301590134E-04 -4.01207559730E-06 -1.17312137223E-01 +8.86060865624E-01
1.43000000000E+09 +9.33840426088E-02 +8.48957055720E-01 +5.76705563142E-04 +3.96688903638E-07 +6.20857459519E-04 -1.04723947327E-04 -9.22831330318E-02 +8.81226298443E-01
1.43500000000E+09 +1.13813514176E-01 +8.39615015398E-01 +6.96258201355E-04 -3.51485705718E-05 +7.14203090617E-04 -1.25525985420E-04 -6.58073219371E-02 +8.74628215627E-01
1.44000000000E+09 +1.33964378240E-01 +8.29150430722E-01 +7.22631007003E-04 -2.59186408117E-04 +7.28816047684E-04 -2.65904195187E-04 -3.75164611521E-02 +8.65570237404E-01
1.44500000000E+09 +1.55493334525E-01 +8.16115450572E-01 +6.09261915972E-04 -3.07690111808E-04 +6.34082581636E-04 -3.78733877255E-04 -7.51815469027E-03 +8.54054506858E-01
1.45000000000E+09 +1.79001339968E-01 +7.99473049882E-01 +5.97533388720E-04 -2.96150171854E-04 +5.73689099721E-04 -3.34210343930E-04 +2.44171403789E-02 +8.39652410267E-01
1.45500000000E+09 +2.05272340553E-01 +7.78816863960E-01 +7.09259671069E-04 -2.84490974056E-04 +6.52428408142E-04 -3.08193556144E-04 +5.80286830061E-02 +8.21982259995E-01
1.46000000000E+09 +2.34813485906E-01 +7.53262830287E-01 +7.86365799141E-04 -3.08974047697E-04 +6.53206276803E-04 -3.72380882342E-04 +9.30761888024E-02 +7.99655394071E-01
1.46500000000E+09 +2.66798058211E-01 +7.22338373094E-01 +9.58092790543E-04 -4.76376380640E-04 +8.07445404372E-04 -4.88063758532E-04 +1.28909124197E-01 +7.72508923188E-01
1.47000000000E+09 +2.99640012187E-01 +6.85747584267E-01 +1.16595472900E-03 -6.00394947502E-04 +1.02942878706E-03 -5.76906234695E-04 +1.65987515339E-01 +7.38767840540E-01
1.47500000000E+09 +3.32123628630E-01 +6.43900557445E-01 +1.27270602066E-03 -1.18687009077E-03 +1.21769539030E-03 -1.08715608940E-03 +2.03395207778E-01 +6.97783852439E-01
1.48000000000E+09 +3.62212383967E-01 +5.95919929261E-01 +1.11410824754E-03 -1.57390599587E-03 +1.17851970923E-03 -1.55544321315E-03 +2.40262104514E-01 +6.47692075345E-01
1.48500000000E+09 +3.87846965968E-01 +5.41647534792E-01 +9.75224032829E-04 -2.07251137076E-03 +9.48419677383E-04 -2.16065473776E-03 +2.74260682385E-01 +5.88015064088E-01
1.49000000000E+09 +4.07134969713E-01 +4.80467847668E-01 +2.94553608532E-04 -2.58460706161E-03 +1.86036400813E-04 -2.57062551837E-03 +3.01737885859E-01 +5.17564951344E-01
1.49500000000E+09 +4.18928021227E-01 +4.11834522422E-01 +1.00250723304E-04 -2.58632912457E-03 +2.69845372937E-05 -2.47160556754E-03 +3.19694991750E-01 +4.37878643100E-01
1.50000000000E+09 +4.20703812651E-01 +3.33612805505E-01 -3.55082175208E-04 -3.38770242317E-03 -3.40398356893E-04 -3.19143118925E-03 +3.24667460926E-01 +3.47913624978E-01
1.50500000000E+09 +4.08387095126E-01 +2.46891975493E-01 -1.74858428901E-03 -3.89955312569E-03 -1.50586510060E-03 -3.77556431281E-03 +3.11691700036E-01 +2.50690730759E-01
1.51000000000E+09 +3.79145677965E-01 +1.54558789186E-01 -3.37891117277E-03 -3.61451318030E-03 -3.16375413162E-03 -3.67580985127E-03 +2.77543931562E-01 +1.51445140119E-01
1.51500000000E+09 +3.30948058842E-01 +6.16870350660E-02 -4.94968334027E-03 -2.52740577268E-03 -4.90472997442E-03 -2.68119071191E-03 +2.22919407367E-01 +5.54283532225E-02
1.52000000000E+09 +2.61370146989E-01 -2.52898459995E-02 -5.64290500100E-03 -2.32635468178E-04 -5.72731256020E-03 -3.44230412397E-04 +1.45361288923E-01 -2.98616749905E-02
1.52500000000E+09 +1.74030709620E-01 -9.71216875757E-02 -4.89212744166E-03 +1.40373478185E-03 -4.96638109949E-03 +1.35354346641E-03 +5.09232474152E-02 -9.55264018039E-02
1.53000000000E+09 +7.17581747004E-02 -1.49910155717E-01 -4.46849414612E-03 +2.13854205768E-03 -4.47975240267E-03 +2.20364567069E-03 -5.42969176854E-02 -1.40375472228E-01
1.53500000000E+09 -4.04664847277E-02 -1.76486939767E-01 -3.83293690382E-03 +3.48900975551E-03 -3.82864471207E-03 +3.54396442930E-03 -1.65814255832E-01 -1.60183747415E-01
1.54000000000E+09 -1.53497969413E-01 -1.74680676521E-01 -2.84214100468E-03 +4.03894612885E-03 -2.84358068451E-03 +4.00439860489E-03 -2.72875321143E-01 -1.56146826057E-01
1.54500000000E+09 -2.59711114124E-01 -1.49011970059E-01 -1.80695374993E-03 +5.18179427201E-03 -1.89045944293E-03 +5.04995292957E-03 -3.70667230903E-01 -1.33777438838E-01
1.55000000000E+09 -3.55060262367E-01 -1.03877457892E-01 +2.07224674117E-04 +5.26002308869E-03 -5.15024723192E-06 +5.29924409557E-03 -4.55591953164E-01 -9.63301661454E-02
1.55500000000E+09 -4.35373367876E-01 -4.59904155276E-02 +1.52618972204E-03 +4.45675731029E-03 +1.35229167717E-03 +4.68088112871E-03 -5.25815932375E-01 -4.98614732891E-02
1.56000000000E+09 -4.99656167963E-01 +1.79892087551E-02 +2.39688996321E-03 +3.88980404031E-03 +2.34235684417E-03 +4.16166746760E-03 -5.82908351202E-01 +2.17570686406E-03
1.56500000000E+09 -5.49071205246E-01 +8.15581345445E-02 +3.42305122096E-03 +2.76249739960E-03 +3.56237732435E-03 +3.00797854921E-03 -6.27679312659E-01 +5.73297787668E-02
1.57000000000E+09 -5.87145879023E-01 +1.42943886313E-01 +3.66795279583E-03 +1.09658468799E-03 +3.90907288626E-03 +1.19064858306E-03 -6.61353161315E-01 +1.12069668551E-01
