# Hz S RI R 50
! CMT, C1220, 16058040, 17.2.0/1
! Date: 14/08/2018 12:12:18
! Data: Format (Calibration Info)
! Freq                      S11: Re/Im (F2)                       S21: Re/Im (F2)                       S12: Re/Im (F2)                       S22: Re/Im (F2)            
1.00000000000E+09 -6.45559464358E-01 +7.14701026652E-01 -3.07057357813E-05 +6.22732521567E-06 -9.93937474831E-06 +8.39017369727E-06 -7.53274281058E-01 +6.25146385314E-01
1.00500000000E+09 -6.38349326066E-01 +7.19774962466E-01 -3.70505162802E-05 -1.57480588988E-05 +5.44697141156E-05 +4.13886655772E-05 -7.49683216488E-01 +6.29269130326E-01
1.01000000000E+09 -6.32562746841E-01 +7.24606292651E-01 -3.61713456963E-05 -3.42331266678E-06 -3.25826403874E-05 +1.12596897756E-05 -7.46111471989E-01 +6.32944550149E-01
1.01500000000E+09 -6.28613033438E-01 +7.28302349587E-01 +3.40807685932E-06 -1.31224204586E-06 -1.53171420196E-05 +5.09965062307E-06 -7.42836793867E-01 +6.36743521116E-01
1.02000000000E+09 -6.26342935130E-01 +7.31271684148E-01 -1.99095164546E-05 -2.51595595231E-05 -3.62325516410E-05 +2.79879317194E-06 -7.39407541861E-01 +6.40388862047E-01
1.02500000000E+09 -6.25313505916E-01 +7.33740212913E-01 -1.91590550563E-05 +5.84071244205E-06 +8.95178773124E-06 -9.33456846918E-06 -7.36576920211E-01 +6.43880682651E-01
1.03000000000E+09 -6.24548895566E-01 +7.35764560373E-01 -2.68359532058E-05 -1.40260219925E-05 -4.85417182904E-06 +3.85773781359E-07 -7.33034187908E-01 +6.47776267206E-01
1.03500000000E+09 -6.22937850071E-01 +7.37866511713E-01 -3.57987473245E-05 +2.30482990066E-05 +1.31656019726E-05 -3.73251698115E-05 -7.29322148440E-01 +6.51767752875E-01
1.04000000000E+09 -6.19571006489E-01 +7.40277257468E-01 -3.44140593657E-05 -2.59038145010E-05 +2.72542798419E-05 +5.13306664758E-05 -7.25557674140E-01 +6.55363261451E-01
1.04500000000E+09 -6.14408648180E-01 +7.43751930811E-01 -3.21190816308E-05 +2.45765561241E-06 -8.10676077666E-07 +3.24294332518E-05 -7.22062868708E-01 +6.58939001016E-01
1.05000000000E+09 -6.07140791383E-01 +7.47756570115E-01 +3.74670313727E-05 +2.63162125394E-05 +8.34347786689E-06 -1.42705249376E-06 -7.18580933352E-01 +6.62277657336E-01
1.05500000000E+09 -5.98251161090E-01 +7.52439190264E-01 -1.37640534814E-05 -2.26278898327E-06 -6.28113692202E-06 -4.35455884944E-05 -7.15267132186E-01 +6.65937249029E-01
1.06000000000E+09 -5.88561559882E-01 +7.57649646435E-01 +4.52875419096E-05 -4.07402194807E-05 +4.30248600146E-05 +4.99420296745E-05 -7.12145383384E-01 +6.69677983046E-01
1.06500000000E+09 -5.79553199433E-01 +7.62918878607E-01 +3.42901504201E-05 +2.65407758943E-06 +6.41452362410E-05 +7.06357948036E-05 -7.08335471463E-01 +6.73461464389E-01
1.07000000000E+09 -5.71802449464E-01 +7.67387522895E-01 -1.70512481886E-05 +3.08681577453E-05 -3.44456774525E-05 +5.44837551701E-05 -7.04358037475E-01 +6.77314160373E-01
1.07500000000E+09 -5.65948596760E-01 +7.71417348797E-01 +5.40578018673E-05 -4.93599439454E-07 +3.85384672583E-05 +5.38298951848E-05 -6.99944072001E-01 +6.80894651186E-01
1.08000000000E+09 -5.62222113739E-01 +7.74836059116E-01 +1.20534921471E-05 -2.55573211101E-05 +6.00607424673E-05 +3.36447173264E-05 -6.95932931934E-01 +6.84794687350E-01
1.08500000000E+09 -5.60139446607E-01 +7.77245059234E-01 +4.69593979975E-05 +8.88661151404E-06 +5.08307836991E-06 +7.12520940940E-06 -6.92035105263E-01 +6.88434421559E-01
1.09000000000E+09 -5.58465622434E-01 +7.79286985993E-01 +3.53878195645E-05 +1.86705636902E-05 +1.39162784674E-05 -4.76301813297E-06 -6.88114853407E-01 +6.92397908203E-01
1.09500000000E+09 -5.57454480022E-01 +7.80803833427E-01 +1.12556289224E-05 +5.83881243617E-06 +3.83994789241E-05 -2.43266849360E-06 -6.84276869544E-01 +6.96175775469E-01
1.10000000000E+09 -5.54620531222E-01 +7.82638007865E-01 +1.00721602225E-05 +2.65525608109E-05 +4.23793899139E-05 -7.13315028634E-06 -6.80247953994E-01 +6.99990847178E-01
1.10500000000E+09 -5.50563598884E-01 +7.85111887538E-01 +6.59183946080E-05 +2.38137639571E-06 +8.69437920701E-06 +1.15479094706E-05 -6.76019331171E-01 +7.03602154803E-01
1.11000000000E+09 -5.44432500421E-01 +7.88355339830E-01 +2.09325447657E-05 +3.03869187805E-05 +1.12420813346E-05 -2.84820313826E-05 -6.71680212671E-01 +7.07128825386E-01
1.11500000000E+09 -5.36845938912E-01 +7.92217064690E-01 -2.64784718459E-05 -3.06238837093E-05 -8.64516490978E-06 +6.27593724678E-06 -6.67737897112E-01 +7.10483127516E-01
1.12000000000E+09 -5.28459800071E-01 +7.96138000095E-01 +6.12737559423E-06 -3.68469689031E-05 -2.51603523691E-05 -2.74948869322E-05 -6.63700556882E-01 +7.14285373930E-01
1.12500000000E+09 -5.20110875634E-01 +8.00416341970E-01 +1.28707056709E-05 +1.31821947093E-05 +2.30415989021E-05 -2.95533545757E-05 -6.59323836592E-01 +7.18121725570E-01
1.13000000000E+09 -5.12768273101E-01 +8.04299292233E-01 +1.21534780765E-05 -6.25809622464E-05 +2.72921462222E-05 +5.43496944192E-05 -6.55195722883E-01 +7.21810845278E-01
1.13500000000E+09 -5.06643197680E-01 +8.07465729394E-01 +1.00802003205E-05 +1.19735803319E-05 -2.84075477130E-05 +7.55223007834E-05 -6.50591967959E-01 +7.25586797898E-01
1.14000000000E+09 -5.01778366231E-01 +8.10032993200E-01 -2.32312464325E-05 -2.35215427312E-05 +4.88261773799E-05 +8.84861137464E-06 -6.45864575165E-01 +7.29009860438E-01
1.14500000000E+09 -4.98433602589E-01 +8.11984359097E-01 +2.08370394506E-05 -2.24843701592E-05 +2.30361130206E-05 -7.59322102781E-08 -6.41376786051E-01 +7.32547684538E-01
1.15000000000E+09 -4.95333125265E-01 +8.13588260222E-01 +2.44030144962E-05 -2.10310181802E-05 +7.40600647501E-06 -2.29365152033E-05 -6.36545504889E-01 +7.36157464230E-01
1.15500000000E+09 -4.92394983036E-01 +8.15147847710E-01 +9.18087193139E-06 +4.64875040725E-06 +1.15127587189E-05 +6.66347283225E-06 -6.31719478337E-01 +7.40133828513E-01
1.16000000000E+09 -4.88065064293E-01 +8.16788679332E-01 -4.20608399731E-05 -3.06839724441E-05 -1.68985759776E-05 -2.10557457089E-05 -6.26852852144E-01 +7.43892986871E-01
1.16500000000E+09 -4.82300720403E-01 +8.19213850527E-01 +2.45797413368E-05 -3.64347921804E-05 -2.56653660100E-05 -8.14560843167E-06 -6.21827043678E-01 +7.47452270727E-01
1.17000000000E+09 -4.75188518653E-01 +8.22277165584E-01 +7.39685412867E-05 -1.03977767551E-05 +4.21016540423E-05 +1.84750724108E-05 -6.16412135145E-01 +7.50825151688E-01
1.17500000000E+09 -4.67043141171E-01 +8.25501558167E-01 +6.63368119280E-05 +2.37794016626E-05 +3.95845776291E-05 -4.58152807108E-05 -6.10673655015E-01 +7.54129150007E-01
1.18000000000E+09 -4.58570847379E-01 +8.29092124152E-01 +1.65200154487E-05 -3.58857445192E-05 +1.23585247872E-05 -3.67854390916E-05 -6.05120159404E-01 +7.57239427526E-01
1.18500000000E+09 -4.50297958248E-01 +8.32426032539E-01 +3.40678374030E-05 -2.01403068484E-05 +1.12204011874E-04 -1.20518889892E-05 -5.99061875920E-01 +7.60289687277E-01
1.19000000000E+09 -4.42977186938E-01 +8.35261436162E-01 +7.13857159941E-05 -2.19144297928E-05 +5.04008474326E-05 -5.12957108473E-06 -5.92931427905E-01 +7.62878509566E-01
1.19500000000E+09 -4.37110908635E-01 +8.37380645206E-01 +6.96274835472E-05 -6.65566892372E-05 +8.46489187490E-05 -7.40720506663E-05 -5.86989468325E-01 +7.63998589667E-01
1.20000000000E+09 -4.32636072460E-01 +8.38471526960E-01 +3.33386951489E-05 -1.41331257757E-04 +4.30983406878E-05 -1.11657939558E-04 -5.82622488719E-01 +7.64483658676E-01
1.20500000000E+09 -4.28809219039E-01 +8.39827945213E-01 -1.40891155998E-05 -1.09677376390E-04 -2.61035239264E-05 -7.55045794608E-05 -5.80319885666E-01 +7.65328254247E-01
1.21000000000E+09 -4.24778234481E-01 +8.40918556959E-01 +2.26011267612E-05 -3.55283878648E-05 -2.43626648089E-05 -8.27243870981E-05 -5.78435266238E-01 +7.68268851145E-01
1.21500000000E+09 -4.19407191226E-01 +8.42406061687E-01 +1.98298508368E-06 -2.05278241054E-05 -1.44773295881E-05 -7.75211175765E-05 -5.75522674011E-01 +7.72772985092E-01
1.22000000000E+09 -4.12489026291E-01 +8.44230015128E-01 +2.51261651931E-06 -6.73880245617E-05 -9.26390854992E-06 -8.89750002050E-05 -5.71439637099E-01 +7.78211535377E-01
1.22500000000E+09 -4.03485492989E-01 +8.46646062168E-01 +4.03671568482E-05 -4.42137696759E-05 -2.65736769429E-06 -2.28719668260E-05 -5.66292720417E-01 +7.83234563748E-01
1.23000000000E+09 -3.93132970477E-01 +8.49725739060E-01 +1.40068858033E-05 -8.29609226520E-05 -6.34268062403E-06 -4.99298129391E-05 -5.60573092944E-01 +7.87909667185E-01
1.23500000000E+09 -3.82079823040E-01 +8.53281788943E-01 +8.41388924339E-07 -7.24366408161E-05 -1.61048009446E-05 -7.61169017278E-05 -5.54771111963E-01 +7.92119821367E-01
1.24000000000E+09 -3.70858682185E-01 +8.57099051746E-01 -3.14866766901E-07 -7.98841815404E-05 -1.59200968476E-05 -7.33073110225E-06 -5.48795723780E-01 +7.96154872621E-01
1.24500000000E+09 -3.60789493514E-01 +8.61120722295E-01 -4.92967773592E-05 -1.25590913250E-04 -6.66839202984E-05 -6.59780873118E-05 -5.42408998707E-01 +7.99951360632E-01
1.25000000000E+09 -3.52240037415E-01 +8.64547408814E-01 -1.52609104698E-05 -1.54019427732E-04 -5.38880915098E-05 -9.76208652950E-05 -5.35857078486E-01 +8.04062228191E-01
1.25500000000E+09 -3.45429016446E-01 +8.67021042778E-01 -9.63957160141E-05 -9.98258628577E-05 -1.94663155122E-05 -7.39733065133E-05 -5.28924048309E-01 +8.08083804680E-01
1.26000000000E+09 -3.40234167715E-01 +8.69110915080E-01 -8.97270996787E-05 -8.31301398398E-05 -1.28516172410E-04 -9.86882264356E-05 -5.22185055745E-01 +8.12427298473E-01
1.26500000000E+09 -3.35945237224E-01 +8.70412761605E-01 -1.09923635193E-04 -8.20652033527E-05 -7.56630860343E-05 -1.22690727696E-04 -5.15356361980E-01 +8.16363001813E-01
1.27000000000E+09 -3.31407872111E-01 +8.71547766316E-01 -1.02928286888E-04 -8.87869060582E-05 -1.67176456662E-04 -8.66697309953E-05 -5.08433522548E-01 +8.20179200212E-01
1.27500000000E+09 -3.25658995757E-01 +8.72850856982E-01 -1.09161019422E-04 -7.82448250364E-05 -1.58733539961E-04 -1.13796694683E-04 -5.01416279969E-01 +8.23750278206E-01
1.28000000000E+09 -3.17803499643E-01 +8.74194625099E-01 -1.35570486053E-04 -8.92752068069E-05 -1.23134468014E-04 -8.11378807942E-05 -4.94372689469E-01 +8.27329225888E-01
1.28500000000E+09 -3.07695839614E-01 +8.76297298063E-01 -1.53278485346E-04 -5.97324410149E-05 -1.28739924237E-04 -3.25018091415E-05 -4.87040699433E-01 +8.31067487076E-01
1.29000000000E+09 -2.96018074366E-01 +8.78800889229E-01 -1.73377166946E-04 -9.42507780463E-06 -1.79070605080E-04 +2.41292388217E-05 -4.79451882987E-01 +8.34733213643E-01
1.29500000000E+09 -2.83252208230E-01 +8.81930166650E-01 -1.84562125925E-04 +6.11335450771E-06 -2.00689107531E-04 +3.18783702984E-05 -4.71577145866E-01 +8.38105659523E-01
1.30000000000E+09 -2.70508270374E-01 +8.85388422383E-01 -1.85461069773E-04 +3.50821123636E-05 -1.96160227281E-04 +4.67289127354E-05 -4.63627335781E-01 +8.41737269691E-01
1.30500000000E+09 -2.58630146988E-01 +8.88492986649E-01 -2.30922404570E-04 +3.17342513892E-05 -1.91507987954E-04 -3.02322119283E-06 -4.55618376277E-01 +8.45134428563E-01
1.31000000000E+09 -2.48678118843E-01 +8.90877978482E-01 -1.89023463517E-04 +1.45284964325E-04 -1.89345532259E-04 +7.01823786119E-05 -4.47225637454E-01 +8.48690160155E-01
1.31500000000E+09 -2.40976568623E-01 +8.92805400558E-01 -1.77758741597E-04 +1.31518198304E-04 -1.74698519025E-04 +1.21772113789E-04 -4.38423216609E-01 +8.52167996735E-01
1.32000000000E+09 -2.34947541364E-01 +8.93730425708E-01 -9.84945272013E-05 +8.15519968997E-05 -1.42565945211E-04 +1.14775296367E-04 -4.29304970048E-01 +8.55533772582E-01
1.32500000000E+09 -2.29605500571E-01 +8.94038572646E-01 -1.55231364750E-04 +9.43784994149E-05 -1.80002820058E-04 +6.30106601737E-05 -4.19790221762E-01 +8.58964247943E-01
1.33000000000E+09 -2.23385124098E-01 +8.94099496425E-01 -2.20932138730E-04 +1.30814767207E-04 -1.89538756419E-04 +1.58003915256E-04 -4.10060676556E-01 +8.62347734788E-01
1.33500000000E+09 -2.15514202284E-01 +8.93703004026E-01 -1.53865189560E-04 +2.36901274326E-04 -1.51645328545E-04 +2.00947507827E-04 -4.00091537552E-01 +8.65576435167E-01
1.34000000000E+09 -2.04841305813E-01 +8.93264405933E-01 -1.05569058427E-04 +2.34404266541E-04 -1.33771019674E-04 +2.16964056077E-04 -3.89877594171E-01 +8.68930406594E-01
1.34500000000E+09 -1.91321337683E-01 +8.92868981335E-01 -9.80634017109E-05 +2.62259915986E-04 -6.01967962866E-05 +2.28771855092E-04 -3.78968032199E-01 +8.72239994475E-01
1.35000000000E+09 -1.75490087586E-01 +8.92825560193E-01 -5.25428764156E-05 +2.29385810505E-04 -1.02034118168E-04 +2.45695341585E-04 -3.67820237117E-01 +8.75296347984E-01
1.35500000000E+09 -1.58050754734E-01 +8.93074593586E-01 -6.87824133585E-05 +2.62116801615E-04 -8.95803719495E-05 +2.74528978829E-04 -3.56140016377E-01 +8.78229941231E-01
1.36000000000E+09 -1.40768035422E-01 +8.93461985927E-01 -8.35391029740E-05 +2.98076523210E-04 -5.88275298725E-05 +2.92922944514E-04 -3.44309160071E-01 +8.80902198950E-01
1.36500000000E+09 -1.24370058106E-01 +8.93954596860E-01 -4.15245675505E-05 +3.19689735765E-04 -2.32961109559E-05 +2.98693505349E-04 -3.32054420121E-01 +8.83507946778E-01
1.37000000000E+09 -1.09776437836E-01 +8.94028760919E-01 -2.65670439544E-05 +2.63272925801E-04 -1.78420803282E-05 +2.79188546687E-04 -3.19207634438E-01 +8.85776935944E-01
1.37500000000E+09 -9.77842256064E-02 +8.94021568971E-01 -4.02169993040E-05 +3.46509562122E-04 -7.25810747996E-05 +3.65213076394E-04 -3.05452915258E-01 +8.88152348333E-01
1.38000000000E+09 -8.71731686103E-02 +8.93452929579E-01 +9.73653986014E-05 +4.30081684177E-04 +4.02920962363E-05 +4.68549371211E-04 -2.90753363142E-01 +8.90173950240E-01
1.38500000000E+09 -7.69146716397E-02 +8.92451830157E-01 +2.06378137039E-04 +4.07843527285E-04 +1.51707025512E-04 +4.79215889808E-04 -2.75333603750E-01 +8.92121649425E-01
1.39000000000E+09 -6.58383744559E-02 +8.90463936044E-01 +1.89699073711E-04 +4.12779877601E-04 +2.17421174361E-04 +4.65076389113E-04 -2.59197357731E-01 +8.93695088940E-01
1.39500000000E+09 -5.27167242505E-02 +8.87731100162E-01 +3.05769196229E-04 +4.40196346456E-04 +3.32722849519E-04 +4.89351312725E-04 -2.42335716115E-01 +8.94361816051E-01
1.40000000000E+09 -3.65880800135E-02 +8.83790075261E-01 +4.19992991997E-04 +3.83393897179E-04 +5.08727802792E-04 +3.52016847790E-04 -2.24715495206E-01 +8.94995402763E-01
1.40500000000E+09 -1.77404567165E-02 +8.79072279488E-01 +5.08286732949E-04 +2.53077873147E-04 +4.45624213152E-04 +2.08158736697E-04 -2.05839312431E-01 +8.95002252319E-01
1.41000000000E+09 +3.59688872314E-03 +8.73380828532E-01 +4.18373188357E-04 +1.79486770540E-04 +4.14087811684E-04 +1.65987946486E-04 -1.85400377814E-01 +8.94255658015E-01
1.41500000000E+09 +2.64446211137E-02 +8.67071535352E-01 +3.78660478651E-04 +1.96628456906E-04 +3.79160544732E-04 +2.09515330602E-04 -1.63542715192E-01 +8.92579708728E-01
1.42000000000E+09 +4.94274650591E-02 +8.60549012653E-01 +4.38389806271E-04 +2.38575683813E-04 +4.86831228455E-04 +3.09235860185E-04 -1.40677410848E-01 +8.89878128881E-01
1.42500000000E+09 +7.19202400715E-02 +8.53349608284E-01 +6.36904650174E-04 +2.08191678805E-04 +6.89916891910E-04 +1.45549828049E-04 -1.17078091186E-01 +8.86336967004E-01
1.43000000000E+09 +9.30541269989E-02 +8.45243366419E-01 +6.03769557192E-04 +6.75125693049E-05 +6.87502648593E-04 +1.21029235204E-05 -9.18095539442E-02 +8.81424289131E-01
1.43500000000E+09 +1.13025623847E-01 +8.35897929394E-01 +6.73502348774E-04 -5.73845745291E-07 +7.20635802212E-04 -7.45260181478E-05 -6.53345456903E-02 +8.74740968519E-01
1.44000000000E+09 +1.32739008913E-01 +8.25616902699E-01 +6.08323602469E-04 -1.65441211178E-04 +6.31698947441E-04 -2.03617693408E-04 -3.70358728236E-02 +8.65833598251E-01
1.44500000000E+09 +1.53909467376E-01 +8.12700988028E-01 +5.65756468074E-04 -1.35715846873E-04 +5.35501222794E-04 -2.03164396760E-04 -6.90448345784E-03 +8.54039592579E-01
1.45000000000E+09 +1.76860154007E-01 +7.95958720939E-01 +5.73414312306E-04 -1.14318922916E-04 +5.75687602683E-04 -1.55751159706E-04 +2.49479262260E-02 +8.39441339560E-01
1.45500000000E+09 +2.02377423698E-01 +7.75481997027E-01 +6.39925444737E-04 -9.20137580550E-05 +6.29232645595E-04 -1.23963636235E-04 +5.86142646377E-02 +8.21779501335E-01
1.46000000000E+09 +2.31312119251E-01 +7.50061803891E-01 +7.11477171304E-04 -1.09080503380E-04 +7.01850706526E-04 -1.39381944459E-04 +9.37521783544E-02 +7.99213953674E-01
1.46500000000E+09 +2.62293007786E-01 +7.19704724023E-01 +9.38421375774E-04 -1.53508559009E-05 +8.66260007881E-04 -6.98846581492E-05 +1.29233064374E-01 +7.71997788834E-01
1.47000000000E+09 +2.94587252329E-01 +6.83907178785E-01 +1.35411420325E-03 -1.68420093284E-04 +1.28419456853E-03 -1.57939290312E-04 +1.65982376318E-01 +7.38632769973E-01
1.47500000000E+09 +3.26338864370E-01 +6.42703346306E-01 +1.53626126304E-03 -8.13609731049E-04 +1.53400648728E-03 -7.69784338920E-04 +2.03540869579E-01 +6.97703466162E-01
1.48000000000E+09 +3.55650184231E-01 +5.96110332108E-01 +1.29958184555E-03 -1.18142813209E-03 +1.35825571999E-03 -1.13614729954E-03 +2.40432284486E-01 +6.47569005520E-01
1.48500000000E+09 +3.80628962509E-01 +5.43418505810E-01 +1.43575079673E-03 -1.43103801821E-03 +1.48130804109E-03 -1.41886568958E-03 +2.74510125276E-01 +5.87991794569E-01
1.49000000000E+09 +3.99374771428E-01 +4.84343197039E-01 +1.26104114337E-03 -2.06552613147E-03 +1.15775811833E-03 -2.05765655250E-03 +3.02275364330E-01 +5.17453810218E-01
1.49500000000E+09 +4.11226999036E-01 +4.18256123872E-01 +1.37238729590E-03 -2.44662086098E-03 +1.19226609947E-03 -2.38151440700E-03 +3.19953537284E-01 +4.37425373819E-01
1.50000000000E+09 +4.13718389165E-01 +3.42940990100E-01 +9.90082553693E-04 -3.69393434058E-03 +9.19460189712E-04 -3.47283900910E-03 +3.24978800918E-01 +3.47875767145E-01
1.50500000000E+09 +4.03374809778E-01 +2.59156669728E-01 -4.83220372771E-04 -4.77433656564E-03 -2.73819041311E-04 -4.53876459237E-03 +3.12380242461E-01 +2.50516400649E-01
1.51000000000E+09 +3.76996814771E-01 +1.69173153631E-01 -2.44508390212E-03 -4.61422485503E-03 -2.18485500346E-03 -4.63088248419E-03 +2.78643387221E-01 +1.50756670009E-01
1.51500000000E+09 +3.32242211066E-01 +7.80236572958E-02 -4.05128356215E-03 -3.97339531651E-03 -3.97377628703E-03 -4.11039901822E-03 +2.23719145057E-01 +5.37395249548E-02
1.52000000000E+09 +2.68203899736E-01 -8.48352354018E-03 -5.25340867270E-03 -2.14457305072E-03 -5.25260436209E-03 -2.30804373761E-03 +1.45418536965E-01 -3.19288315707E-02
1.52500000000E+09 +1.85076664739E-01 -8.26904282321E-02 -5.39674794215E-03 -7.69653896883E-04 -5.45806872564E-03 -8.08046671096E-04 +4.96872536165E-02 -9.78542045277E-02
1.53000000000E+09 +8.63287616476E-02 -1.37852573690E-01 -5.58006943571E-03 +4.76618424957E-04 -5.65203235163E-03 +4.95691419756E-04 -5.63893125051E-02 -1.41446789221E-01
1.53500000000E+09 -2.30180895275E-02 -1.68503691156E-01 -5.50111603021E-03 +2.21361441202E-03 -5.45918681045E-03 +2.23631381987E-03 -1.67979842576E-01 -1.60424580266E-01
1.54000000000E+09 -1.35108344998E-01 -1.71036571526E-01 -4.80588336371E-03 +3.42907257196E-03 -4.79897110939E-03 +3.34046891289E-03 -2.74522259728E-01 -1.55873295003E-01
1.54500000000E+09 -2.41167105354E-01 -1.49445508645E-01 -3.75565804260E-03 +5.35744184688E-03 -3.82586720741E-03 +5.23808214773E-03 -3.72376842167E-01 -1.33309782087E-01
1.55000000000E+09 -3.38503223623E-01 -1.08501347724E-01 -1.34914228264E-03 +5.98847964277E-03 -1.57142834972E-03 +5.90036507679E-03 -4.56996691185E-01 -9.53526562325E-02
1.55500000000E+09 -4.21333496407E-01 -5.25584097598E-02 +4.61354797003E-04 +5.41986378765E-03 +2.05276257838E-04 +5.59509091751E-03 -5.27084790362E-01 -4.87320851930E-02
1.56000000000E+09 -4.87667200976E-01 +9.76641924323E-03 +1.58185359664E-03 +4.73966202855E-03 +1.49025889989E-03 +5.03579332875E-03 -5.84013649821E-01 +3.78817140662E-03
1.56500000000E+09 -5.39666521057E-01 +7.23974321971E-02 +2.69833307640E-03 +3.83692215901E-03 +2.82544429648E-03 +4.12223031315E-03 -6.28071153078E-01 +5.93620193862E-02
1.57000000000E+09 -5.80183390559E-01 +1.33722765848E-01 +3.25264610447E-03 +2.48474497123E-03 +3.50606351732E-03 +2.60919870620E-03 -6.60971771541E-01 +1.13787790869E-01
