# Hz S RI R 50
! CMT, C1220, 16058040, 17.2.0/1
! Date: 14/08/2018 12:12:10
! Data: Format (Calibration Info)
! Freq                      S11: Re/Im (F2)                       S21: Re/Im (F2)                       S12: Re/Im (F2)                       S22: Re/Im (F2)            
1.00000000000E+09 -6.45443621688E-01 +7.14684035790E-01 +2.34506188080E-05 +2.98495416686E-07 +3.32997771463E-05 -1.98618978606E-05 -7.53422797552E-01 +6.25126800933E-01
1.00500000000E+09 -6.38238014330E-01 +7.19845250490E-01 -2.41842276285E-05 -7.66807247216E-06 +1.28075292610E-05 -3.00858901984E-05 -7.49722745397E-01 +6.29306752170E-01
1.01000000000E+09 -6.32358115913E-01 +7.24430992527E-01 -2.58414592707E-05 +3.63656399403E-05 -2.28076644758E-05 -5.13322911009E-05 -7.46224005470E-01 +6.32983688636E-01
1.01500000000E+09 -6.28412784149E-01 +7.28439841177E-01 +1.54697618074E-05 -9.15238879218E-06 -1.51379273714E-05 -2.84475348425E-06 -7.42875558490E-01 +6.36749428300E-01
1.02000000000E+09 -6.26123836616E-01 +7.31297926616E-01 -2.35057013959E-05 +4.26058079695E-05 +1.54867081637E-05 +4.86905787186E-05 -7.39346091253E-01 +6.40267550849E-01
1.02500000000E+09 -6.24936365310E-01 +7.33538507404E-01 +4.89379643714E-06 +4.28045644940E-05 -2.79250324329E-05 -1.85957927792E-05 -7.36361908377E-01 +6.43978574243E-01
1.03000000000E+09 -6.24381590015E-01 +7.35742549228E-01 -2.36150339872E-05 -3.25694201958E-06 +1.13777576790E-05 -1.33518611560E-05 -7.33049522354E-01 +6.47829415066E-01
1.03500000000E+09 -6.22545937546E-01 +7.37764578957E-01 +1.63003127555E-05 +3.73958840014E-05 -3.03688113496E-05 -1.35966920008E-06 -7.29351378872E-01 +6.51700748959E-01
1.04000000000E+09 -6.19401299988E-01 +7.40383665697E-01 -2.18331146815E-05 +3.54112107160E-05 +1.57054193465E-05 +2.37036577436E-05 -7.25521787923E-01 +6.55464860168E-01
1.04500000000E+09 -6.14201772017E-01 +7.43667436086E-01 +1.16934805818E-05 +5.36892354067E-06 +8.34265513492E-06 +1.90821007982E-05 -7.21897936243E-01 +6.58839575036E-01
1.05000000000E+09 -6.06842864401E-01 +7.47674869949E-01 +1.00235665663E-05 +1.78478402551E-05 +7.06020930870E-06 +4.71079650815E-05 -7.18525241907E-01 +6.62452146763E-01
1.05500000000E+09 -5.97747848517E-01 +7.52555322052E-01 +7.85047354447E-05 +5.21496674507E-05 -4.81281772714E-06 +3.18076810178E-05 -7.15271711126E-01 +6.66113818072E-01
1.06000000000E+09 -5.88289000560E-01 +7.57664217020E-01 -6.90957078459E-06 +8.25860359692E-07 +6.25525275763E-05 +4.19311125170E-05 -7.12110510070E-01 +6.69744073387E-01
1.06500000000E+09 -5.79182536361E-01 +7.62899085152E-01 +2.06079999393E-05 +3.64863286641E-05 +4.75759162314E-05 +6.45607562918E-05 -7.08225838259E-01 +6.73393045666E-01
1.07000000000E+09 -5.71503993027E-01 +7.67527484807E-01 +1.27664932831E-05 +3.08093336116E-05 +7.64246816764E-06 +3.07131594424E-05 -7.04268944089E-01 +6.77058057273E-01
1.07500000000E+09 -5.65622187026E-01 +7.71482845246E-01 +1.47405651267E-05 -1.44573815215E-05 +3.37140380518E-05 +4.10476878648E-05 -6.99829145477E-01 +6.80947507269E-01
1.08000000000E+09 -5.61958283054E-01 +7.74832607788E-01 -1.86957799478E-06 +4.99246882834E-05 +1.76674309150E-05 +6.69952400469E-05 -6.95819563624E-01 +6.84895593412E-01
1.08500000000E+09 -5.59801905631E-01 +7.77204943431E-01 +3.93432626781E-05 +1.19147536745E-05 +3.67392854497E-06 -8.38220151187E-06 -6.91897289671E-01 +6.88373184777E-01
1.09000000000E+09 -5.58214460360E-01 +7.79049487568E-01 -2.48339997084E-05 -1.77904582808E-05 +3.10659176467E-05 +1.82558222349E-05 -6.88145624164E-01 +6.92423083682E-01
1.09500000000E+09 -5.56985519690E-01 +7.80780728350E-01 +5.13105269271E-05 -1.51850143980E-05 +4.95864647785E-05 -1.20098639219E-05 -6.84267695428E-01 +6.96225073034E-01
1.10000000000E+09 -5.54353177829E-01 +7.82613903084E-01 +4.48075892386E-05 +6.04802545861E-06 +4.55245532262E-05 -4.58884001303E-05 -6.80199160401E-01 +7.00075574988E-01
1.10500000000E+09 -5.50140521235E-01 +7.85098205342E-01 +6.38632698655E-05 +3.61752223740E-05 +9.98797087028E-06 -2.79144577817E-06 -6.75940853484E-01 +7.03610575498E-01
1.11000000000E+09 -5.44160398482E-01 +7.88258515441E-01 -8.48927219995E-06 +1.62671007814E-06 +2.42373200896E-05 -4.13611086861E-05 -6.71789036494E-01 +7.06977962360E-01
1.11500000000E+09 -5.36560071511E-01 +7.92056204171E-01 +1.08313239373E-06 -3.78200629396E-05 +2.16404625815E-05 +1.52444956064E-05 -6.67659244362E-01 +7.10410701277E-01
1.12000000000E+09 -5.28237045944E-01 +7.96161722046E-01 +1.81244909541E-05 -2.87785320365E-05 +3.93312783926E-07 -1.57671388180E-05 -6.63617918169E-01 +7.14153287990E-01
1.12500000000E+09 -5.19837652142E-01 +8.00450926738E-01 +4.54418544660E-05 +4.23215906116E-06 +1.08744719344E-05 -5.23631590160E-05 -6.59372849424E-01 +7.18147012905E-01
1.13000000000E+09 -5.12464841575E-01 +8.04229658682E-01 +8.63153630739E-06 +2.10455957853E-05 +1.65535428811E-05 +2.93943074045E-05 -6.55112186295E-01 +7.21848648226E-01
1.13500000000E+09 -5.06194453839E-01 +8.07232253337E-01 +4.64320970129E-05 -2.38661477208E-05 +4.13969540353E-05 -3.13812482724E-05 -6.50549536321E-01 +7.25524421027E-01
1.14000000000E+09 -5.01648215607E-01 +8.09998269023E-01 +3.34974007374E-05 +1.48246734231E-05 -1.09321987569E-05 -2.78642581107E-05 -6.45851487261E-01 +7.29054289066E-01
1.14500000000E+09 -4.98170897733E-01 +8.11833150451E-01 +9.21858278250E-06 -4.20708949465E-05 +6.21797036132E-05 -3.80799529674E-05 -6.41171725193E-01 +7.32409810394E-01
1.15000000000E+09 -4.95034664360E-01 +8.13441957575E-01 +2.81708582052E-05 +6.24354789147E-06 -4.99914871151E-07 +1.08390674613E-05 -6.36489423969E-01 +7.36187965646E-01
1.15500000000E+09 -4.92146135546E-01 +8.15103858869E-01 +1.29845240012E-05 +4.39013446238E-05 +1.21148912879E-05 +1.15306762451E-05 -6.31657480799E-01 +7.40016311601E-01
1.16000000000E+09 -4.87774538533E-01 +8.16621130515E-01 +1.90421816666E-06 +2.95337932030E-06 +2.01327374838E-05 +1.98580646530E-05 -6.27010052997E-01 +7.43749006829E-01
1.16500000000E+09 -4.82025251826E-01 +8.19170902935E-01 +1.73563590039E-05 +2.48255858951E-05 +2.50499983333E-05 -1.01930886062E-08 -6.21901721092E-01 +7.47465583061E-01
1.17000000000E+09 -4.74893074333E-01 +8.22157506648E-01 +6.03585632243E-05 +1.56993823591E-05 +2.49099640994E-05 +7.24179608795E-06 -6.16416008962E-01 +7.50895430130E-01
1.17500000000E+09 -4.66736611255E-01 +8.25466925541E-01 +9.07793704868E-05 -3.18019169444E-05 +1.01031795967E-05 -6.26604393790E-05 -6.10744622518E-01 +7.54101011516E-01
1.18000000000E+09 -4.58270861032E-01 +8.29123031136E-01 +1.16995373151E-05 -2.82000959133E-05 -4.32919227656E-06 -5.05863177692E-05 -6.05079302537E-01 +7.57339328773E-01
1.18500000000E+09 -4.49943961156E-01 +8.32389772943E-01 +4.91407545179E-05 -2.87165552480E-05 +7.68939981931E-05 -2.10296320783E-05 -5.99126512576E-01 +7.60233827791E-01
1.19000000000E+09 -4.42584234995E-01 +8.35073568550E-01 +6.29811603502E-05 -1.91244013402E-05 +4.67765148278E-05 -3.16350512583E-05 -5.92995813040E-01 +7.62825355334E-01
1.19500000000E+09 -4.36760393895E-01 +8.37283220324E-01 +4.23893887481E-05 -7.13582618652E-05 +8.24961296984E-05 -6.63753723852E-05 -5.87088336463E-01 +7.63956690511E-01
1.20000000000E+09 -4.32239727819E-01 +8.38404105925E-01 +2.28547996607E-05 -8.03112674029E-05 +7.87618958473E-06 -1.17163653880E-04 -5.82490115266E-01 +7.64367791456E-01
1.20500000000E+09 -4.28419687202E-01 +8.39559620285E-01 -5.05794472478E-05 -7.31825848027E-05 -2.86123330960E-05 -9.81590919882E-05 -5.80191003321E-01 +7.65163987097E-01
1.21000000000E+09 -4.24433140693E-01 +8.41021012219E-01 +6.05369710253E-06 -6.37158722267E-05 -2.71550759740E-05 -8.51892191063E-05 -5.78312738227E-01 +7.68261862811E-01
1.21500000000E+09 -4.19138707061E-01 +8.42367084685E-01 -7.34577588709E-06 -5.12978068435E-05 -4.49421924832E-05 -3.22837098789E-05 -5.75581565949E-01 +7.72816096667E-01
1.22000000000E+09 -4.12083628695E-01 +8.44101944472E-01 +8.99534025318E-06 -5.58922155010E-05 -3.12768223406E-05 -6.01725046835E-05 -5.71413810128E-01 +7.78262314783E-01
1.22500000000E+09 -4.03257288206E-01 +8.46629761109E-01 +4.08980144947E-06 -3.24240941327E-05 +1.15383090305E-05 -2.44290992496E-05 -5.66170693022E-01 +7.83290891302E-01
1.23000000000E+09 -3.92763200469E-01 +8.49656558249E-01 +9.52289802503E-06 -7.77003348963E-05 -2.74375174010E-05 -8.27890477630E-05 -5.60517686302E-01 +7.87928610974E-01
1.23500000000E+09 -3.81677061491E-01 +8.53201568154E-01 -9.07708657100E-06 -4.90506070311E-05 -6.23383912084E-05 -6.67517726693E-05 -5.54775505556E-01 +7.92211172500E-01
1.24000000000E+09 -3.70533707156E-01 +8.57041749355E-01 -4.92289445349E-05 -9.70757368278E-05 +6.83809121485E-06 -5.54647978635E-05 -5.48526731494E-01 +7.96158295127E-01
1.24500000000E+09 -3.60459030453E-01 +8.61050208981E-01 -1.43987567348E-05 -1.16081169555E-04 -1.87823488700E-05 -1.57173390357E-04 -5.42295382388E-01 +7.99982547254E-01
1.25000000000E+09 -3.51898003705E-01 +8.64619090507E-01 -6.63269908551E-05 -9.06752223281E-05 -5.29481396971E-05 -1.16748337533E-04 -5.35719339150E-01 +8.04030384746E-01
1.25500000000E+09 -3.45011193654E-01 +8.67004274191E-01 -6.18884601281E-05 -6.73064643242E-05 -4.04382344171E-05 -9.92589812549E-05 -5.28891212172E-01 +8.08235493563E-01
1.26000000000E+09 -3.39840895907E-01 +8.68913042005E-01 -1.00069648792E-04 -1.17739924834E-04 -1.15051884677E-04 -9.96458398263E-05 -5.22240033714E-01 +8.12622793615E-01
1.26500000000E+09 -3.35488936373E-01 +8.70220108553E-01 -8.08797765489E-05 -7.21160885490E-05 -7.68924104298E-05 -9.27628609107E-05 -5.15265739110E-01 +8.16470986562E-01
1.27000000000E+09 -3.30882107734E-01 +8.71399042295E-01 -1.15404812630E-04 -7.41413288600E-05 -7.95712248694E-05 -7.51017762432E-05 -5.08372716771E-01 +8.20257735050E-01
1.27500000000E+09 -3.25266903638E-01 +8.72492931051E-01 -1.24936681067E-04 -6.70188941780E-05 -1.33094166561E-04 -7.32425381253E-05 -5.01195429717E-01 +8.23733139969E-01
1.28000000000E+09 -3.17476517526E-01 +8.74023818597E-01 -1.55002259260E-04 -3.40850771002E-05 -1.41093360526E-04 -1.09922678686E-04 -4.94349989689E-01 +8.27230053063E-01
1.28500000000E+09 -3.07409342417E-01 +8.76192676819E-01 -1.44089166571E-04 -6.17062421055E-05 -1.26742653480E-04 -5.53701677728E-05 -4.86969500260E-01 +8.30884234461E-01
1.29000000000E+09 -2.95651846803E-01 +8.78646799252E-01 -1.77579237684E-04 -3.20170313578E-05 -2.22959255652E-04 -2.63743927595E-05 -4.79374280277E-01 +8.34670893428E-01
1.29500000000E+09 -2.82798566866E-01 +8.81738068797E-01 -1.42328373598E-04 -1.03448676600E-05 -2.05600165738E-04 +6.14461652055E-06 -4.71528240869E-01 +8.38157129553E-01
1.30000000000E+09 -2.70015492817E-01 +8.85089275360E-01 -1.74261967290E-04 +6.94200921225E-07 -1.82388408480E-04 +2.29142042561E-05 -4.63522652906E-01 +8.41749563593E-01
1.30500000000E+09 -2.58224512023E-01 +8.88249500273E-01 -2.20251610372E-04 +7.78386899368E-05 -2.07987132216E-04 +3.04644880785E-05 -4.55472291962E-01 +8.45155422542E-01
1.31000000000E+09 -2.48243774173E-01 +8.90667793450E-01 -2.06979586608E-04 +7.33840929783E-05 -2.14725400425E-04 +8.38916830525E-05 -4.47184484128E-01 +8.48604338806E-01
1.31500000000E+09 -2.40615925399E-01 +8.92589314074E-01 -1.38896576556E-04 +1.52707519079E-04 -1.56396268063E-04 +1.07519129764E-04 -4.38244508617E-01 +8.52074474793E-01
1.32000000000E+09 -2.34420245593E-01 +8.93586905466E-01 -1.35800772497E-04 +9.95590868824E-05 -1.24160032155E-04 +1.12088537019E-04 -4.29207681308E-01 +8.55474200944E-01
1.32500000000E+09 -2.29110574148E-01 +8.93918536999E-01 -1.82544186105E-04 +9.33529338328E-05 -1.86407219235E-04 +1.01134890423E-04 -4.19646392115E-01 +8.58946673332E-01
1.33000000000E+09 -2.23019382419E-01 +8.94068783315E-01 -2.26102260317E-04 +1.29547195892E-04 -2.03890676194E-04 +1.61138422841E-04 -4.09881616388E-01 +8.62242516582E-01
1.33500000000E+09 -2.15032199084E-01 +8.93547198251E-01 -1.85231557233E-04 +2.17139199369E-04 -1.71025235925E-04 +1.88768345308E-04 -4.00059447007E-01 +8.65529679535E-01
1.34000000000E+09 -2.04440879763E-01 +8.93149099680E-01 -1.08864421839E-04 +2.35526803327E-04 -9.23915885040E-05 +2.00358747035E-04 -3.89714711765E-01 +8.68874409159E-01
1.34500000000E+09 -1.90897472487E-01 +8.92741755271E-01 -7.91085753317E-05 +1.60703132871E-04 -9.91812933749E-05 +2.24400490437E-04 -3.78910992980E-01 +8.72221859621E-01
1.35000000000E+09 -1.74892084052E-01 +8.92759062732E-01 -1.00239152523E-04 +2.18169922768E-04 -9.15776375322E-05 +2.46794547629E-04 -3.67808415450E-01 +8.75266052940E-01
1.35500000000E+09 -1.57487011788E-01 +8.92937425504E-01 -1.15550940643E-04 +2.52858760122E-04 -8.15246457845E-05 +2.25813901741E-04 -3.56153781596E-01 +8.78147665481E-01
1.36000000000E+09 -1.40233199816E-01 +8.93280084000E-01 -1.09600037909E-04 +3.03584724750E-04 -9.08950354319E-05 +3.07564419834E-04 -3.44190734878E-01 +8.80828275305E-01
1.36500000000E+09 -1.23798980418E-01 +8.93849209005E-01 -5.54566910572E-05 +3.83724401678E-04 -5.16157791239E-05 +3.38984085154E-04 -3.32086486317E-01 +8.83296676509E-01
1.37000000000E+09 -1.09380736651E-01 +8.93797382238E-01 -4.28166478278E-05 +3.15971315020E-04 -3.55892381038E-05 +2.80252460749E-04 -3.19135643017E-01 +8.85779102281E-01
1.37500000000E+09 -9.71947771954E-02 +8.93758598821E-01 -3.53633833323E-05 +4.18128108550E-04 -9.74883808014E-05 +3.79123173596E-04 -3.05512139073E-01 +8.87999539244E-01
1.38000000000E+09 -8.66823339502E-02 +8.93180500668E-01 +5.61742168294E-05 +4.75844804870E-04 +1.48180153747E-05 +4.90001890214E-04 -2.90865956629E-01 +8.90116776158E-01
1.38500000000E+09 -7.64035957656E-02 +8.92149209773E-01 +1.77862861809E-04 +4.45430990123E-04 +1.37714099824E-04 +5.34058512462E-04 -2.75214689797E-01 +8.92025492445E-01
1.39000000000E+09 -6.54943932299E-02 +8.90139377026E-01 +2.12328150388E-04 +4.22693024745E-04 +2.06175049126E-04 +4.48253977823E-04 -2.59293950420E-01 +8.93602847942E-01
1.39500000000E+09 -5.22057402554E-02 +8.87447534844E-01 +2.65144773398E-04 +4.53247068395E-04 +3.48890485704E-04 +4.65572959401E-04 -2.42445496394E-01 +8.94246007482E-01
1.40000000000E+09 -3.60864650457E-02 +8.83448831517E-01 +4.09435318916E-04 +3.92179061574E-04 +4.40359137710E-04 +3.76851423836E-04 -2.24633656701E-01 +8.94827212074E-01
1.40500000000E+09 -1.72717116724E-02 +8.78552798229E-01 +4.50662381186E-04 +2.11592965579E-04 +4.55462071274E-04 +2.68587696748E-04 -2.05872594701E-01 +8.94813476728E-01
1.41000000000E+09 +4.14375772497E-03 +8.73058205450E-01 +4.08415036133E-04 +1.98622343012E-04 +3.55618303712E-04 +2.07334132104E-04 -1.85480148016E-01 +8.94046363434E-01
1.41500000000E+09 +2.67956238328E-02 +8.66670373028E-01 +3.97324328762E-04 +2.47467278702E-04 +3.93582648896E-04 +2.75037180505E-04 -1.63807872498E-01 +8.92469755888E-01
1.42000000000E+09 +4.99081798735E-02 +8.60102395871E-01 +4.50836221216E-04 +2.79978635586E-04 +4.83560383974E-04 +3.21011417842E-04 -1.40997311301E-01 +8.89595054903E-01
1.42500000000E+09 +7.24837643754E-02 +8.52860537839E-01 +5.85674693020E-04 +2.06871455465E-04 +6.75198452386E-04 +2.31297456013E-04 -1.17122049937E-01 +8.86183682015E-01
1.43000000000E+09 +9.35140342359E-02 +8.44927894181E-01 +6.22481720244E-04 +8.44502172288E-05 +6.51648203378E-04 +4.38214893306E-05 -9.20843335157E-02 +8.81349637697E-01
1.43500000000E+09 +1.13531342112E-01 +8.35446993946E-01 +6.15972153688E-04 +4.92237448000E-05 +6.39610677948E-04 +3.73397396108E-06 -6.57384476163E-02 +8.74703282186E-01
1.44000000000E+09 +1.33117395310E-01 +8.25037095389E-01 +5.69032297536E-04 -7.16586216044E-05 +6.00902817330E-04 -1.81621290010E-04 -3.74388367721E-02 +8.65783889313E-01
1.44500000000E+09 +1.54157262387E-01 +8.12057861383E-01 +5.20567916069E-04 -2.08603918968E-05 +5.31003897898E-04 -1.08587914057E-04 -7.46924738187E-03 +8.54195960201E-01
1.45000000000E+09 +1.77127959374E-01 +7.95361466245E-01 +5.55707273878E-04 -8.61206067229E-06 +5.96473002802E-04 -5.76537200474E-05 +2.44982653444E-02 +8.39655480426E-01
1.45500000000E+09 +2.02753180450E-01 +7.74824716153E-01 +6.20274491342E-04 +2.88840306576E-05 +6.71986071171E-04 -4.63831753936E-05 +5.80914773501E-02 +8.22070011012E-01
1.46000000000E+09 +2.31395722967E-01 +7.49304431220E-01 +7.84150882543E-04 +6.73328949377E-05 +7.85200441865E-04 -3.41149985758E-05 +9.32467014951E-02 +7.99851070379E-01
1.46500000000E+09 +2.62359032813E-01 +7.18978133137E-01 +1.01950593351E-03 +9.75321373716E-05 +9.02692973452E-04 +1.86387163053E-05 +1.28817473824E-01 +7.72729367637E-01
1.47000000000E+09 +2.94705388724E-01 +6.83249249097E-01 +1.45228810433E-03 -8.01301249051E-05 +1.35040373966E-03 -9.28145388159E-05 +1.65715359458E-01 +7.39590474534E-01
1.47500000000E+09 +3.26369208122E-01 +6.41971175598E-01 +1.68733525649E-03 -7.26931452003E-04 +1.61582717559E-03 -6.19554739286E-04 +2.03495838831E-01 +6.98982561304E-01
1.48000000000E+09 +3.55413370027E-01 +5.95337935629E-01 +1.49238364112E-03 -1.06002104882E-03 +1.53962845947E-03 -9.98513490115E-04 +2.40810714325E-01 +6.48845703685E-01
1.48500000000E+09 +3.80368539129E-01 +5.42714579006E-01 +1.71088263380E-03 -1.33994437718E-03 +1.69960882675E-03 -1.37739651652E-03 +2.75222277814E-01 +5.89240716072E-01
1.49000000000E+09 +3.99081302315E-01 +4.83806152270E-01 +1.53750438678E-03 -2.03447846462E-03 +1.44841790096E-03 -2.05581458990E-03 +3.03385820565E-01 +5.18648593971E-01
1.49500000000E+09 +4.10745526813E-01 +4.17704507948E-01 +1.67176809691E-03 -2.51281701013E-03 +1.49983484294E-03 -2.42110272058E-03 +3.21459379116E-01 +4.38347555137E-01
1.50000000000E+09 +4.12989225371E-01 +3.42499857892E-01 +1.26796013006E-03 -3.86334957647E-03 +1.21558006187E-03 -3.60837262520E-03 +3.26834583459E-01 +3.48404786340E-01
1.50500000000E+09 +4.02567156111E-01 +2.59026472479E-01 -1.71076447438E-04 -4.94350675925E-03 +2.91975474830E-05 -4.77371711772E-03 +3.14518952429E-01 +2.50430956430E-01
1.51000000000E+09 +3.76114260514E-01 +1.69234560673E-01 -2.08329903690E-03 -4.91718805831E-03 -1.85730230928E-03 -4.93354017145E-03 +2.80609944932E-01 +1.49908697884E-01
1.51500000000E+09 +3.31363650870E-01 +7.86248879539E-02 -3.81016983784E-03 -4.45312287687E-03 -3.73153396511E-03 -4.62512301083E-03 +2.25232977431E-01 +5.26390802450E-02
1.52000000000E+09 +2.67631275864E-01 -7.64049875447E-03 -5.24875758388E-03 -2.73706581147E-03 -5.19249204192E-03 -2.82077552656E-03 +1.46951496454E-01 -3.34935059075E-02
1.52500000000E+09 +1.84668417982E-01 -8.17938459710E-02 -5.49142664416E-03 -1.31450705982E-03 -5.53718921239E-03 -1.42714142574E-03 +5.07143346982E-02 -9.98865362394E-02
1.53000000000E+09 +8.60196787485E-02 -1.36738277959E-01 -5.94370585414E-03 -1.09732675197E-04 -6.10999357760E-03 -1.36140712279E-04 -5.60720108527E-02 -1.43710446653E-01
1.53500000000E+09 -2.28578055732E-02 -1.67044256013E-01 -5.96519582997E-03 +1.88428740550E-03 -5.98835520051E-03 +1.97081909600E-03 -1.68340181919E-01 -1.62656210835E-01
1.54000000000E+09 -1.34424321620E-01 -1.69758275996E-01 -5.22804976607E-03 +3.25345822798E-03 -5.22643072919E-03 +3.14525929190E-03 -2.75445380963E-01 -1.57725847500E-01
1.54500000000E+09 -2.40100707937E-01 -1.48407615518E-01 -4.29055658898E-03 +5.29492951437E-03 -4.31492225895E-03 +5.13825860262E-03 -3.73483073411E-01 -1.34628248137E-01
1.55000000000E+09 -3.37321092351E-01 -1.07861550006E-01 -1.89767255504E-03 +5.92511926211E-03 -2.09771567258E-03 +5.88922826645E-03 -4.58503269408E-01 -9.66887414658E-02
1.55500000000E+09 -4.20111105503E-01 -5.21385654035E-02 -1.14651443151E-04 +5.61957006561E-03 -3.98170444774E-04 +5.77522709139E-03 -5.28774253458E-01 -4.93129087078E-02
1.56000000000E+09 -4.86545465072E-01 +1.00360476786E-02 +1.17741301133E-03 +5.15539013111E-03 +1.07670937727E-03 +5.46643012559E-03 -5.85531794127E-01 +3.45018075464E-03
1.56500000000E+09 -5.38588124368E-01 +7.24330386852E-02 +2.49518113205E-03 +4.25278582909E-03 +2.63113053105E-03 +4.53073066336E-03 -6.29563228537E-01 +5.92877166697E-02
1.57000000000E+09 -5.79202015049E-01 +1.33653168146E-01 +3.16909973729E-03 +2.75767623258E-03 +3.42105724944E-03 +2.95694807611E-03 -6.62406354988E-01 +1.13984976004E-01
