# Hz S RI R 50
! CMT, C1220, 16058040, 17.2.0/1
! Date: 14/08/2018 12:13:04
! Data: Format (Calibration Info)
! Freq                      S11: Re/Im (F2)                       S21: Re/Im (F2)                       S12: Re/Im (F2)                       S22: Re/Im (F2)            
1.00000000000E+09 -6.46585910732E-01 +7.14562662740E-01 +8.29509361897E-06 -4.05909504212E-07 +1.03167152794E-06 +5.24453124586E-05 -7.53526839042E-01 +6.25063224947E-01
1.00500000000E+09 -6.39210804983E-01 +7.19726268931E-01 -1.54373862969E-05 +1.08056604404E-05 -2.38540623727E-05 +3.42994169912E-05 -7.49973946596E-01 +6.29064929270E-01
1.01000000000E+09 -6.33565631573E-01 +7.24462346298E-01 +3.32436742293E-05 +3.05140526410E-05 -8.03700738979E-06 +5.86331026797E-05 -7.46445211575E-01 +6.32694085229E-01
1.01500000000E+09 -6.29514341672E-01 +7.28241626306E-01 -4.17149450846E-06 -1.94507755287E-05 -2.01808452279E-05 +1.09105827493E-06 -7.43074206086E-01 +6.36490396102E-01
1.02000000000E+09 -6.27229502232E-01 +7.31284083016E-01 +1.66122915112E-05 +8.09723421728E-06 +5.65812969127E-05 -6.06294423689E-06 -7.39710165110E-01 +6.40189940630E-01
1.02500000000E+09 -6.26047602633E-01 +7.33597694096E-01 +3.80136273014E-06 -1.60593256791E-05 -2.05619275819E-06 -4.77074105799E-06 -7.36768766444E-01 +6.43719950188E-01
1.03000000000E+09 -6.25424404891E-01 +7.35826365701E-01 +1.82915627012E-05 -1.22863360828E-05 +3.75997114124E-05 +4.41679229009E-05 -7.33274077472E-01 +6.47629750006E-01
1.03500000000E+09 -6.23726751531E-01 +7.37773841727E-01 -3.80271786822E-05 +5.56410116844E-05 -3.60680604204E-05 -1.85374601268E-05 -7.29346703883E-01 +6.51639450737E-01
1.04000000000E+09 -6.20556226996E-01 +7.40448342474E-01 +1.97854852443E-05 +4.21184627190E-05 -1.75450892089E-05 -3.20386584172E-06 -7.25735826987E-01 +6.55294996754E-01
1.04500000000E+09 -6.15407972739E-01 +7.43560622552E-01 +9.54062648055E-06 +2.63644793027E-05 -5.07249110232E-05 +1.30004836924E-05 -7.22154869162E-01 +6.58771742951E-01
1.05000000000E+09 -6.08000761117E-01 +7.47732653533E-01 -1.69225608810E-05 -1.86225461000E-05 +4.54883396955E-05 +2.54168111762E-06 -7.18707287129E-01 +6.62122184983E-01
1.05500000000E+09 -5.99166903182E-01 +7.52503838695E-01 +1.95905099713E-05 +2.34817504035E-05 -1.82677897959E-05 +5.77101216528E-05 -7.15395864503E-01 +6.65757778093E-01
1.06000000000E+09 -5.89704793903E-01 +7.57675752630E-01 +3.08019561111E-05 +3.71692858714E-05 +3.58429580786E-05 +1.66796918856E-05 -7.12252568222E-01 +6.69476519135E-01
1.06500000000E+09 -5.80610251657E-01 +7.62868108324E-01 +3.91833315519E-06 +3.41442479225E-05 -2.75890665474E-05 +4.16788880104E-05 -7.08424858486E-01 +6.73325271303E-01
1.07000000000E+09 -5.72946226480E-01 +7.67374712315E-01 -1.49593844034E-05 +1.80772192750E-05 +2.23934920057E-05 -2.60975473345E-05 -7.04408710206E-01 +6.76959702911E-01
1.07500000000E+09 -5.67232452365E-01 +7.71497237603E-01 +2.59136086375E-05 +1.06637860475E-05 +2.52184958936E-07 +1.97966008108E-05 -6.99986690895E-01 +6.80690109767E-01
1.08000000000E+09 -5.63487882614E-01 +7.74678027394E-01 +5.62600018074E-05 +5.35385826510E-05 +1.24851232412E-05 -9.08743248101E-06 -6.96059470841E-01 +6.84611847571E-01
1.08500000000E+09 -5.61378458205E-01 +7.76972089313E-01 +1.35628173021E-05 -9.44299178104E-06 -1.65765852602E-05 -5.45478952309E-06 -6.92053917958E-01 +6.88194599939E-01
1.09000000000E+09 -5.59832183492E-01 +7.79025631772E-01 -7.88796805442E-06 -7.62615024470E-06 +1.07567198115E-05 -1.05815089183E-05 -6.88316264475E-01 +6.92091587816E-01
1.09500000000E+09 -5.58681658208E-01 +7.80597842848E-01 +6.43312868240E-06 +1.57237990851E-05 +2.38637895282E-05 -1.19691712580E-05 -6.84440353617E-01 +6.96077389529E-01
1.10000000000E+09 -5.55899527531E-01 +7.82603481066E-01 -2.54853989799E-06 -3.29307407080E-05 +2.42350484563E-05 -1.24507502385E-05 -6.80427676483E-01 +6.99844980258E-01
1.10500000000E+09 -5.51806268093E-01 +7.85025465454E-01 +1.13203037122E-06 +1.10054920796E-05 +3.50259103094E-05 -1.68642934407E-05 -6.76052965383E-01 +7.03476636633E-01
1.11000000000E+09 -5.45817073328E-01 +7.88071310315E-01 -2.10114813683E-05 +2.93487345478E-05 -4.76080621585E-05 +3.78616837965E-05 -6.72051092387E-01 +7.06825246454E-01
1.11500000000E+09 -5.38106995632E-01 +7.92129834653E-01 +2.26089573953E-05 -5.50486096605E-06 +7.26143628885E-06 +2.75961458320E-05 -6.67958034752E-01 +7.10262220172E-01
1.12000000000E+09 -5.29850153286E-01 +7.96257384751E-01 +2.02851090440E-05 +5.35925192636E-06 -9.64595470605E-06 -4.56877103502E-06 -6.63751978046E-01 +7.13904798593E-01
1.12500000000E+09 -5.21434975863E-01 +8.00438851097E-01 +2.62624268297E-05 -2.13959263623E-05 +4.30931116678E-05 +4.40537981859E-05 -6.59642378031E-01 +7.17847678951E-01
1.13000000000E+09 -5.14176980545E-01 +8.04289915599E-01 +2.37946646667E-05 +1.86006337817E-05 +7.15581119732E-05 -1.85050088155E-05 -6.55226925923E-01 +7.21630401023E-01
1.13500000000E+09 -5.08005460585E-01 +8.07322757049E-01 +1.09341187611E-05 -2.62665644439E-05 +8.35525166001E-05 +3.22316234650E-05 -6.50786505153E-01 +7.25408604226E-01
1.14000000000E+09 -5.03173853486E-01 +8.10127134524E-01 +5.77560316873E-05 -6.31254642562E-07 -1.22728378550E-06 -4.19664148768E-05 -6.45976633659E-01 +7.28783822023E-01
1.14500000000E+09 -4.99822326637E-01 +8.11972459637E-01 +3.50614348785E-05 +3.26073443283E-05 +7.77140311994E-05 -1.29271656088E-05 -6.41356460892E-01 +7.32248833515E-01
1.15000000000E+09 -4.96957140040E-01 +8.13529469072E-01 +7.83016722176E-06 -6.17865240010E-05 +7.09578391446E-05 +5.94233200243E-06 -6.36732481690E-01 +7.36105006770E-01
1.15500000000E+09 -4.93869181690E-01 +8.15356143956E-01 +4.50993996340E-05 -1.80064136028E-05 +7.72307573818E-06 -6.20706774740E-05 -6.32016969375E-01 +7.39801478314E-01
1.16000000000E+09 -4.89526579988E-01 +8.16933220086E-01 +1.15762833890E-05 +9.23174279709E-06 +4.93159066999E-05 -2.43629016881E-05 -6.27133572847E-01 +7.43662563483E-01
1.16500000000E+09 -4.83840064409E-01 +8.19549767482E-01 +1.66535456393E-05 -1.18627441264E-05 +1.10540752077E-05 +5.26848427687E-06 -6.22078120379E-01 +7.47333755517E-01
1.17000000000E+09 -4.76845710892E-01 +8.22319253642E-01 +5.25868270600E-05 -3.13257601393E-05 +9.28565982667E-06 -1.17216170516E-05 -6.16499196646E-01 +7.50656136175E-01
1.17500000000E+09 -4.68672795051E-01 +8.25753403475E-01 +8.40417608415E-05 -6.89944216272E-05 +1.63457463986E-05 -6.60132882430E-05 -6.10844150046E-01 +7.53863057912E-01
1.18000000000E+09 -4.60153362225E-01 +8.29378492546E-01 +1.46152435132E-05 -3.85849448059E-05 +3.75104018904E-05 -3.92892024225E-05 -6.05233653118E-01 +7.57147740199E-01
1.18500000000E+09 -4.51866422686E-01 +8.32788722632E-01 +2.63809574694E-05 -4.34630081595E-05 +1.15279907317E-05 -4.97389654769E-05 -5.99265722938E-01 +7.60087146179E-01
1.19000000000E+09 -4.44721978351E-01 +8.35567680028E-01 +4.89223359234E-05 -7.28416052024E-05 +3.03396132269E-05 -3.76036263130E-05 -5.93083066804E-01 +7.62805684500E-01
1.19500000000E+09 -4.38782556694E-01 +8.37668077973E-01 +3.35170616520E-05 -6.04658422737E-05 +4.92564902410E-05 -8.81494906116E-05 -5.87262595608E-01 +7.64032415929E-01
1.20000000000E+09 -4.34412692062E-01 +8.38795428192E-01 -2.37399838041E-05 -8.11603388416E-05 +2.33098460502E-06 -7.60404611212E-05 -5.82719350672E-01 +7.64122349239E-01
1.20500000000E+09 -4.30577081642E-01 +8.40083210468E-01 -2.14749970217E-05 -5.72912408476E-05 -3.36211765471E-05 -2.53461084508E-05 -5.80456567288E-01 +7.65053840257E-01
1.21000000000E+09 -4.26693903535E-01 +8.41243970922E-01 -3.91044800471E-05 -3.82993134851E-05 -5.25465833830E-05 -3.79930452014E-05 -5.78624196906E-01 +7.68124612424E-01
1.21500000000E+09 -4.21363101398E-01 +8.42700226312E-01 -8.48928104283E-07 -2.11965388845E-05 -5.37466915368E-05 -2.83946926242E-05 -5.75835277268E-01 +7.72681330505E-01
1.22000000000E+09 -4.14347257814E-01 +8.44483040913E-01 -7.28779050365E-05 -3.04596592275E-05 -3.43909976844E-05 -3.19338594986E-05 -5.71691271786E-01 +7.77997634881E-01
1.22500000000E+09 -4.05444678911E-01 +8.47023020750E-01 +3.36679452739E-05 -1.39573378965E-05 -1.31736892476E-05 -9.23740712806E-06 -5.66496252932E-01 +7.82947352470E-01
1.23000000000E+09 -3.95198058701E-01 +8.50185873253E-01 -1.91218056439E-05 -2.96265853566E-05 -2.34594636866E-05 -5.27526993692E-05 -5.60784370332E-01 +7.87846146600E-01
1.23500000000E+09 -3.84044507943E-01 +8.53696734214E-01 +9.21073682729E-06 -6.07719568228E-05 -2.71638934058E-05 -5.56509542153E-05 -5.55010222715E-01 +7.92075069778E-01
1.24000000000E+09 -3.73054621225E-01 +8.57577698497E-01 +3.94864665097E-05 -4.56407769301E-05 +1.04058409741E-05 -9.33507082067E-05 -5.48922667522E-01 +7.96038130392E-01
1.24500000000E+09 -3.62930046761E-01 +8.61724544627E-01 -3.39368782734E-05 -8.20088561429E-05 -2.59860829166E-05 -9.57386072995E-05 -5.42744909982E-01 +7.99758676905E-01
1.25000000000E+09 -3.54474140728E-01 +8.65080925807E-01 -6.46219325760E-05 -1.12320483008E-04 -1.08995709250E-05 -8.48577200801E-05 -5.36017066582E-01 +8.03949140395E-01
1.25500000000E+09 -3.47693082327E-01 +8.67639591336E-01 -7.93449698324E-05 -9.21763279314E-05 -8.99832773983E-05 -1.27208959304E-04 -5.29268053079E-01 +8.08019843554E-01
1.26000000000E+09 -3.42378756578E-01 +8.69839792682E-01 -9.03870767186E-05 -1.04750383166E-04 -4.39968919881E-05 -9.36553679045E-05 -5.22476176506E-01 +8.12328894931E-01
1.26500000000E+09 -3.38165239253E-01 +8.71154266571E-01 -6.01491378596E-05 -7.89651884904E-05 -7.80010244542E-05 -5.73451086801E-05 -5.15489993051E-01 +8.16220208516E-01
1.27000000000E+09 -3.33572662570E-01 +8.72283448761E-01 -1.22490681334E-04 -4.84507152007E-05 -9.28432885226E-05 -6.25978354206E-05 -5.08712131449E-01 +8.20018508357E-01
1.27500000000E+09 -3.27807611542E-01 +8.73490389131E-01 -1.21472398776E-04 -8.57748551273E-05 -1.27313028224E-04 -6.56335462801E-05 -5.01777184653E-01 +8.23604027128E-01
1.28000000000E+09 -3.20062592755E-01 +8.75158794161E-01 -1.33339556901E-04 -6.06637241393E-05 -1.01641767628E-04 -3.70842593721E-05 -4.94621205601E-01 +8.27127621937E-01
1.28500000000E+09 -3.09913694694E-01 +8.77235162860E-01 -2.03212184622E-04 -3.17731771224E-05 -1.76581758542E-04 -1.07843234740E-05 -4.87397827769E-01 +8.30889694335E-01
1.29000000000E+09 -2.98155670868E-01 +8.79817704769E-01 -1.92068264155E-04 -2.97782861355E-05 -1.78555627493E-04 -1.99919849156E-05 -4.79718150200E-01 +8.34528756179E-01
1.29500000000E+09 -2.85445979248E-01 +8.83015986859E-01 -1.81840221013E-04 -8.02948420426E-06 -2.02778124423E-04 +1.33971177030E-05 -4.71810514230E-01 +8.38019238660E-01
1.30000000000E+09 -2.72587914032E-01 +8.86493986629E-01 -1.94236623311E-04 +4.06686299360E-07 -1.86401270358E-04 +3.70941334670E-05 -4.63863505913E-01 +8.41595622109E-01
1.30500000000E+09 -2.60950115815E-01 +8.89672123900E-01 -2.26023902861E-04 +4.26551698259E-05 -1.67739691831E-04 +7.68365069215E-05 -4.55852951182E-01 +8.45061311637E-01
1.31000000000E+09 -2.50927529846E-01 +8.92005714599E-01 -2.43712993515E-04 +9.60924572018E-05 -2.23149983692E-04 +9.16932992963E-05 -4.47530326949E-01 +8.48617718112E-01
1.31500000000E+09 -2.43193175550E-01 +8.93925595748E-01 -1.72098969402E-04 +1.30441360627E-04 -1.61021462225E-04 +9.53407324157E-05 -4.38655972813E-01 +8.51931741844E-01
1.32000000000E+09 -2.37385153411E-01 +8.95060822522E-01 -1.48873490297E-04 +1.31742195795E-04 -1.24679818912E-04 +1.32868224249E-04 -4.29576400124E-01 +8.55376651014E-01
1.32500000000E+09 -2.31925522641E-01 +8.95420620834E-01 -1.85275150030E-04 +1.28146707671E-04 -1.90093613128E-04 +1.06872266003E-04 -4.20016735340E-01 +8.58788852255E-01
1.33000000000E+09 -2.25818668327E-01 +8.95560580922E-01 -1.85614075066E-04 +1.88709697807E-04 -2.10332824533E-04 +2.30403178577E-04 -4.10337262829E-01 +8.62176960532E-01
1.33500000000E+09 -2.17967667205E-01 +8.95132653150E-01 -1.81999972515E-04 +2.44223188933E-04 -1.13226555285E-04 +2.48227301149E-04 -4.00369256384E-01 +8.65465816113E-01
1.34000000000E+09 -2.07310512495E-01 +8.95016450663E-01 -1.25404065805E-04 +2.51012005049E-04 -8.82348699742E-05 +2.65526573182E-04 -3.90236612396E-01 +8.68838264065E-01
1.34500000000E+09 -1.93784190928E-01 +8.94594450737E-01 -3.84905535101E-05 +2.27624996093E-04 -5.93237396542E-05 +2.33838894663E-04 -3.79178241423E-01 +8.72155967848E-01
1.35000000000E+09 -1.77887427298E-01 +8.94860843758E-01 -6.53733245155E-05 +2.70912063923E-04 -8.90843824437E-05 +2.57519441806E-04 -3.68104508729E-01 +8.75252973343E-01
1.35500000000E+09 -1.60460192617E-01 +8.94831189290E-01 -4.30304818928E-05 +2.72424914524E-04 -6.27335498111E-05 +2.78308190628E-04 -3.56433175306E-01 +8.78176391895E-01
1.36000000000E+09 -1.43082593943E-01 +8.95410465953E-01 -3.97252736405E-05 +2.94898653644E-04 -9.22948830013E-06 +2.92075881320E-04 -3.44624649380E-01 +8.80911405788E-01
1.36500000000E+09 -1.26525815314E-01 +8.95861505574E-01 -5.95486624356E-05 +3.58352731406E-04 -9.92262251085E-06 +3.11925270472E-04 -3.32380656122E-01 +8.83313084109E-01
1.37000000000E+09 -1.11906432088E-01 +8.96144504584E-01 +3.90025872139E-05 +3.89248392790E-04 -2.25089775831E-05 +3.57463334171E-04 -3.19447762605E-01 +8.85790713980E-01
1.37500000000E+09 -9.96111586465E-02 +8.96078444642E-01 +1.13224551980E-04 +4.65377196477E-04 +3.95721420794E-05 +4.36219384518E-04 -3.05824606964E-01 +8.88082966716E-01
1.38000000000E+09 -8.90346866256E-02 +8.95757463624E-01 +2.26705109191E-04 +4.46050265817E-04 +1.07131444867E-04 +4.84493798907E-04 -2.91058194245E-01 +8.90261877297E-01
1.38500000000E+09 -7.86650833583E-02 +8.94838778266E-01 +2.82754268902E-04 +4.04337525860E-04 +3.01381800325E-04 +4.72945191911E-04 -2.75479487075E-01 +8.92263167331E-01
1.39000000000E+09 -6.74630086788E-02 +8.93096379303E-01 +3.11814018644E-04 +3.72938219738E-04 +3.80343685715E-04 +4.14137658925E-04 -2.59348940744E-01 +8.93622297947E-01
1.39500000000E+09 -5.40628910817E-02 +8.90437258990E-01 +3.56280425604E-04 +3.60284110593E-04 +4.21057815402E-04 +4.09714475835E-04 -2.42527409104E-01 +8.94406403508E-01
1.40000000000E+09 -3.77982300908E-02 +8.86653565563E-01 +4.71681587921E-04 +3.58828122551E-04 +5.14576392478E-04 +2.61103734246E-04 -2.24884431152E-01 +8.94962877212E-01
1.40500000000E+09 -1.88853446388E-02 +8.82080667730E-01 +5.82735994641E-04 +1.74422926734E-04 +5.55086935206E-04 +1.89886298278E-04 -2.05910363412E-01 +8.95011108367E-01
1.41000000000E+09 +2.72296874394E-03 +8.76495946031E-01 +5.28736997562E-04 +1.81265438734E-04 +5.67632739899E-04 +1.51478942907E-04 -1.85595353855E-01 +8.94309967417E-01
1.41500000000E+09 +2.56943383985E-02 +8.70209479027E-01 +4.98802489569E-04 +8.64582758353E-05 +5.51675317035E-04 +1.56034853470E-04 -1.63722304721E-01 +8.92554771640E-01
1.42000000000E+09 +4.87933861550E-02 +8.63626822352E-01 +5.75069423577E-04 +8.20944798668E-05 +6.42085502978E-04 +1.47101172335E-04 -1.40763903997E-01 +8.89868720803E-01
1.42500000000E+09 +7.13543745641E-02 +8.56495144343E-01 +6.28363992804E-04 +8.79267482593E-06 +7.22261332778E-04 +2.69702403118E-06 -1.17014674295E-01 +8.86288944713E-01
1.43000000000E+09 +9.29107802622E-02 +8.48600741625E-01 +7.24081906108E-04 -1.73641879369E-05 +6.84785969167E-04 -1.60769744991E-04 -9.18420317506E-02 +8.81300475233E-01
1.43500000000E+09 +1.13095755397E-01 +8.39269834134E-01 +7.41971706678E-04 -1.39269688757E-04 +7.18756151193E-04 -1.95547349246E-04 -6.52619476041E-02 +8.74490467036E-01
1.44000000000E+09 +1.33243437375E-01 +8.28991253353E-01 +7.26457663548E-04 -3.30109326950E-04 +7.71595509200E-04 -4.24272115112E-04 -3.69944871900E-02 +8.65237898821E-01
1.44500000000E+09 +1.54686571611E-01 +8.16131163132E-01 +5.92997597608E-04 -4.31016179654E-04 +5.65639640798E-04 -4.94676386769E-04 -7.05521745095E-03 +8.53543187541E-01
1.45000000000E+09 +1.78149497638E-01 +7.99457859807E-01 +5.49325313977E-04 -3.62514811460E-04 +5.11051194312E-04 -4.40924516056E-04 +2.47881888864E-02 +8.38992731705E-01
1.45500000000E+09 +2.04340012765E-01 +7.78797683626E-01 +6.26204732348E-04 -3.49827877216E-04 +6.01321855132E-04 -4.60818844767E-04 +5.83179535334E-02 +8.21009134100E-01
1.46000000000E+09 +2.33596771875E-01 +7.53341587024E-01 +5.93190865624E-04 -4.65642278152E-04 +5.76200592878E-04 -5.31816570141E-04 +9.30433863150E-02 +7.98712428414E-01
1.46500000000E+09 +2.65406776054E-01 +7.22645272918E-01 +7.73903080817E-04 -5.30172253413E-04 +6.13149114668E-04 -5.79765933329E-04 +1.28669989617E-01 +7.71604023153E-01
1.47000000000E+09 +2.98279581808E-01 +6.86514124459E-01 +8.97953749308E-04 -6.52731582976E-04 +8.61582165638E-04 -6.14228391669E-04 +1.65279641166E-01 +7.37937006856E-01
1.47500000000E+09 +3.30728823767E-01 +6.44884402275E-01 +9.71974389779E-04 -1.09757409135E-03 +9.83086720980E-04 -1.03168363196E-03 +2.02604875173E-01 +6.97211915101E-01
1.48000000000E+09 +3.61023623547E-01 +5.97225710348E-01 +8.49705860264E-04 -1.37287510498E-03 +9.02525014242E-04 -1.34836292093E-03 +2.39407067087E-01 +6.47226091887E-01
1.48500000000E+09 +3.86603478734E-01 +5.43185738453E-01 +7.72938847469E-04 -1.77417026004E-03 +8.12752909521E-04 -1.82433108259E-03 +2.73210850761E-01 +5.87827008658E-01
1.49000000000E+09 +4.06049502455E-01 +4.82594081678E-01 +1.91769508838E-04 -2.29276314675E-03 +1.07695193083E-04 -2.26711462308E-03 +3.00716782018E-01 +5.17722879875E-01
1.49500000000E+09 +4.18201461345E-01 +4.14587093221E-01 +4.44599735729E-05 -2.24709353679E-03 -3.93689670226E-05 -2.10818078131E-03 +3.18661286844E-01 +4.38369874209E-01
1.50000000000E+09 +4.20577360221E-01 +3.36775844154E-01 -2.04099857489E-04 -2.89124071137E-03 -2.28225224509E-04 -2.69427477248E-03 +3.24024020168E-01 +3.48650402541E-01
1.50500000000E+09 +4.09173572993E-01 +2.50382910029E-01 -1.29143849215E-03 -3.54692048517E-03 -1.15641231156E-03 -3.47758716972E-03 +3.11299053054E-01 +2.51436770007E-01
1.51000000000E+09 +3.80773735075E-01 +1.58166980000E-01 -2.92806359758E-03 -3.43371632954E-03 -2.76003705416E-03 -3.55451004022E-03 +2.77381989418E-01 +1.52135312925E-01
1.51500000000E+09 +3.33695008094E-01 +6.50518867231E-02 -4.39892500644E-03 -2.47244610926E-03 -4.37051846243E-03 -2.61931634196E-03 +2.22885687782E-01 +5.57639386513E-02
1.52000000000E+09 +2.65222250087E-01 -2.26196668775E-02 -5.18536413383E-03 -4.09787461588E-04 -5.25151797410E-03 -5.03645356125E-04 +1.45289999189E-01 -2.97199195787E-02
1.52500000000E+09 +1.78374876612E-01 -9.56712257657E-02 -4.52092047208E-03 +9.31706705140E-04 -4.52566324434E-03 +9.08692608072E-04 +5.05078762188E-02 -9.54143065597E-02
1.53000000000E+09 +7.65040463023E-02 -1.49391811867E-01 -4.28441465602E-03 +1.65451120582E-03 -4.34440746033E-03 +1.69953234829E-03 -5.49661479976E-02 -1.39900138782E-01
1.53500000000E+09 -3.57919373727E-02 -1.77207551292E-01 -3.84532908677E-03 +2.97310612689E-03 -3.86121791590E-03 +2.99864613758E-03 -1.66230438040E-01 -1.59054174065E-01
1.54000000000E+09 -1.49333593485E-01 -1.76303896115E-01 -3.18865212941E-03 +3.58099464014E-03 -3.15501181490E-03 +3.54028443395E-03 -2.72691996107E-01 -1.55126806576E-01
1.54500000000E+09 -2.56085613862E-01 -1.51286688025E-01 -2.32226114677E-03 +5.03375632019E-03 -2.39363543869E-03 +4.91090196329E-03 -3.70296182395E-01 -1.33067468222E-01
1.55000000000E+09 -3.52285891506E-01 -1.06570079604E-01 -1.19430587909E-04 +5.42464457733E-03 -3.60940062749E-04 +5.40513092352E-03 -4.55259533164E-01 -9.55886720042E-02
1.55500000000E+09 -4.33218397468E-01 -4.87968960025E-02 +1.33673818682E-03 +4.58513613353E-03 +1.14395152387E-03 +4.77290835030E-03 -5.25188014967E-01 -4.91052903253E-02
1.56000000000E+09 -4.98066628552E-01 +1.50493835621E-02 +2.18274482253E-03 +4.02998230690E-03 +2.11863429223E-03 +4.32348547364E-03 -5.82001260010E-01 +2.83265352144E-03
1.56500000000E+09 -5.48063015192E-01 +7.87269602540E-02 +3.34979371222E-03 +3.07029554504E-03 +3.44471381925E-03 +3.30906506104E-03 -6.26421599406E-01 +5.77735146324E-02
1.57000000000E+09 -5.86682436176E-01 +1.40173298469E-01 +3.70398054702E-03 +1.33968878106E-03 +3.94467276344E-03 +1.45017050877E-03 -6.60041487311E-01 +1.11792084281E-01
