# Hz S RI R 50
! CMT, C1220, 16058040, 17.2.0/1
! Date: 14/08/2018 12:14:12
! Data: Format (Calibration Info)
! Freq                      S11: Re/Im (F2)                       S21: Re/Im (F2)                       S12: Re/Im (F2)                       S22: Re/Im (F2)            
1.00000000000E+09 -6.46967589648E-01 +7.14575808041E-01 +4.54409791531E-05 +2.07674582477E-05 -2.55207560322E-05 -3.97703591168E-05 -7.53422847158E-01 +6.25043806891E-01
1.00500000000E+09 -6.39852117375E-01 +7.19546511574E-01 -6.01131977165E-05 +2.43168960215E-05 +2.55562050227E-05 -9.54332829398E-06 -7.49768150699E-01 +6.29082230375E-01
1.01000000000E+09 -6.34003249934E-01 +7.24078124920E-01 -2.13682314135E-05 -1.92230386407E-05 -2.00305390675E-05 +1.07161224148E-05 -7.46158058471E-01 +6.32761723724E-01
1.01500000000E+09 -6.30048229676E-01 +7.27826240083E-01 -5.03970374339E-05 -4.09923342877E-07 -4.13394028911E-05 +2.65246673657E-05 -7.42963420445E-01 +6.36630967909E-01
1.02000000000E+09 -6.27768199786E-01 +7.30943555661E-01 -7.28859668149E-05 -1.21305903978E-05 +3.17459322017E-05 -5.33693588582E-06 -7.39560108398E-01 +6.40205393346E-01
1.02500000000E+09 -6.26646655003E-01 +7.33324482696E-01 -2.22235065909E-05 +1.06229010037E-05 +2.47375793199E-05 -2.20204506299E-05 -7.36684674854E-01 +6.43870006042E-01
1.03000000000E+09 -6.25975769179E-01 +7.35538733865E-01 +9.63154471871E-06 +2.40948369128E-05 -3.20406724714E-05 -3.89247305024E-06 -7.33216609658E-01 +6.47676540301E-01
1.03500000000E+09 -6.24218405898E-01 +7.37578038759E-01 -1.66491827479E-05 -1.04653357930E-05 -6.03007943253E-06 +1.93954600410E-05 -7.29381753226E-01 +6.51665930397E-01
1.04000000000E+09 -6.21067777806E-01 +7.40067018316E-01 -1.64949281095E-05 +2.31263924173E-05 -3.92248405384E-05 +1.14549837242E-05 -7.25611026675E-01 +6.55310330016E-01
1.04500000000E+09 -6.15840195475E-01 +7.43422391685E-01 +4.69512424167E-05 +5.35900362488E-05 -5.09166662626E-05 +2.39818936327E-05 -7.22072158374E-01 +6.58721000430E-01
1.05000000000E+09 -6.08556767103E-01 +7.47452781019E-01 -5.15722574288E-05 +8.77634664276E-06 -2.69469135590E-05 -1.58215526590E-05 -7.18596283280E-01 +6.62123959667E-01
1.05500000000E+09 -5.99792921766E-01 +7.52198237831E-01 -1.94910463471E-05 +4.29202159152E-05 -3.25408743848E-05 +2.74684123909E-05 -7.15409506926E-01 +6.65862186987E-01
1.06000000000E+09 -5.90304447089E-01 +7.57468885137E-01 +1.85249188150E-05 +1.67518948966E-05 +1.68494357633E-05 -7.50838965789E-06 -7.12110970679E-01 +6.69618822280E-01
1.06500000000E+09 -5.81304229040E-01 +7.62499512344E-01 +3.09712048246E-05 -2.66089988756E-05 +2.04937425344E-05 +1.04242592774E-06 -7.08381514509E-01 +6.73468733577E-01
1.07000000000E+09 -5.73670306147E-01 +7.67178585988E-01 +2.41044364112E-05 +5.05780940835E-05 +2.42616852025E-05 +3.06930206172E-05 -7.04401459200E-01 +6.77013799546E-01
1.07500000000E+09 -5.68003253893E-01 +7.70991395857E-01 -2.20144626662E-05 +1.52607510535E-05 +5.21364527074E-05 +4.65673400760E-05 -6.99950050707E-01 +6.80896321009E-01
1.08000000000E+09 -5.64136771904E-01 +7.74477920291E-01 +2.20763909067E-05 +1.76729481117E-05 +1.07475727469E-05 +4.30871907748E-05 -6.95993615163E-01 +6.84693334266E-01
1.08500000000E+09 -5.62161692809E-01 +7.76861023972E-01 +3.14794675304E-05 -6.91886013487E-06 +6.52298752683E-05 +6.63208531020E-05 -6.92025288159E-01 +6.88406812366E-01
1.09000000000E+09 -5.60585171640E-01 +7.78869958025E-01 +2.79777998275E-05 -1.18862656712E-05 -9.80261055739E-06 -1.56978521341E-05 -6.88090297061E-01 +6.92278761074E-01
1.09500000000E+09 -5.59392498551E-01 +7.80308561526E-01 +8.74056807925E-06 -3.79638295734E-07 +4.38898071222E-05 +1.25715851536E-05 -6.84269886500E-01 +6.96238836364E-01
1.10000000000E+09 -5.56553487754E-01 +7.82379854641E-01 +1.33794280112E-05 +3.37203348621E-05 +3.52599852653E-05 -1.44423066801E-05 -6.80299261215E-01 +6.99936576712E-01
1.10500000000E+09 -5.52409000468E-01 +7.84820196884E-01 +2.64529541244E-05 -4.13203312637E-05 -1.84825784858E-05 -2.13804860680E-05 -6.76060919455E-01 +7.03538806750E-01
1.11000000000E+09 -5.46366084154E-01 +7.87989992798E-01 +2.23647622610E-05 -2.16052640916E-05 +2.94666278749E-05 -1.56883310559E-05 -6.71938844528E-01 +7.06761253783E-01
1.11500000000E+09 -5.38875983592E-01 +7.91864049459E-01 +2.63335843540E-05 +7.57989485071E-06 +4.26199837935E-06 -2.70973216036E-05 -6.67790250141E-01 +7.10204300230E-01
1.12000000000E+09 -5.30502063258E-01 +7.96000479863E-01 +2.96333790839E-05 +7.54665356520E-06 +5.77650813049E-05 +9.95158546633E-06 -6.63602762978E-01 +7.14095575500E-01
1.12500000000E+09 -5.22163887418E-01 +8.00303356497E-01 +4.51612780934E-05 -2.21494132469E-05 +1.06078742843E-05 -4.37694799482E-05 -6.59424781438E-01 +7.17955313282E-01
1.13000000000E+09 -5.14891490372E-01 +8.04040866361E-01 +1.19688371273E-05 -2.72847719827E-05 +3.47188677994E-05 +2.13117903151E-05 -6.55172864838E-01 +7.21679785831E-01
1.13500000000E+09 -5.08703540944E-01 +8.07175998773E-01 +3.79621802449E-05 +6.86213987884E-06 -1.07250039575E-05 -1.38538544997E-05 -6.50734635160E-01 +7.25544635480E-01
1.14000000000E+09 -5.04188775884E-01 +8.09934413055E-01 +2.33261252016E-05 +1.44302820289E-05 +6.38787117883E-06 -4.02811614236E-05 -6.46015192832E-01 +7.28830141072E-01
1.14500000000E+09 -5.00711367806E-01 +8.11833963150E-01 +5.04678916790E-05 -1.46880573476E-05 +8.29801080264E-06 +2.11525209739E-05 -6.41333182857E-01 +7.32301730673E-01
1.15000000000E+09 -4.97600342763E-01 +8.13339675392E-01 -2.36760678870E-06 +2.20521992209E-05 +2.54437789573E-05 -3.72965678267E-05 -6.36742848138E-01 +7.36091101749E-01
1.15500000000E+09 -4.94515471491E-01 +8.15061979341E-01 +7.27117336682E-05 -1.39023090847E-05 +8.67945800866E-05 -8.32230093118E-06 -6.31969809110E-01 +7.39888629053E-01
1.16000000000E+09 -4.90326316254E-01 +8.16900202575E-01 +5.23055190465E-06 -4.48559290828E-06 +5.89182491833E-05 -5.65726673844E-05 -6.27173171301E-01 +7.43740595030E-01
1.16500000000E+09 -4.84588338125E-01 +8.19359482058E-01 +2.91857107810E-05 -2.36059289516E-06 -2.44273207356E-06 +4.06954763684E-06 -6.21961692211E-01 +7.47532890456E-01
1.17000000000E+09 -4.77728768683E-01 +8.22300121139E-01 +7.07768995342E-05 -1.53497519522E-05 +5.42858413640E-05 -1.27961029448E-05 -6.16602706603E-01 +7.50865250039E-01
1.17500000000E+09 -4.69526934407E-01 +8.25777990662E-01 +7.37014813223E-05 -4.43529626152E-06 +6.49530753441E-05 -1.21639043234E-05 -6.10907338849E-01 +7.54032664855E-01
1.18000000000E+09 -4.61241027107E-01 +8.29212736715E-01 +1.13685371443E-05 -1.66345340662E-05 +3.41213606456E-05 -4.01775272676E-05 -6.05203123966E-01 +7.57189275875E-01
1.18500000000E+09 -4.52984066058E-01 +8.32639136312E-01 +4.07207656418E-05 -8.65667270760E-05 +3.24353177546E-05 -2.18392756994E-05 -5.99270226319E-01 +7.60256373734E-01
1.19000000000E+09 -4.45682071573E-01 +8.35407785851E-01 +8.01760601734E-05 +1.91007663702E-05 +6.13456090873E-05 -3.88968057888E-05 -5.92992961006E-01 +7.62900917262E-01
1.19500000000E+09 -4.39858204778E-01 +8.37605079469E-01 +4.97832584899E-05 -4.40594407095E-05 +5.87720480806E-05 -6.69707153808E-05 -5.87125215847E-01 +7.63953870236E-01
1.20000000000E+09 -4.35301862204E-01 +8.38767076196E-01 +5.01731356745E-05 -1.13211046040E-04 +5.44648704700E-05 -8.50309039844E-05 -5.82617613625E-01 +7.64275793465E-01
1.20500000000E+09 -4.31530592458E-01 +8.40108101461E-01 +3.35024940889E-06 -1.27103615510E-04 +3.04986736970E-05 -5.52837800801E-05 -5.80335001800E-01 +7.65245146739E-01
1.21000000000E+09 -4.27529439997E-01 +8.41190927239E-01 -8.58148839400E-06 -1.09663771872E-04 +3.70913562983E-05 -9.46202253572E-05 -5.78565828683E-01 +7.68111390768E-01
1.21500000000E+09 -4.22452982063E-01 +8.42692055917E-01 -8.10208017903E-06 -8.62911740450E-05 +1.37289318421E-05 -6.01675639333E-05 -5.75735614490E-01 +7.72731426587E-01
1.22000000000E+09 -4.15418743549E-01 +8.44562809267E-01 -1.73286134301E-05 -9.74415629973E-05 -3.94479131769E-06 -4.84666617708E-05 -5.71447598603E-01 +7.78048150818E-01
1.22500000000E+09 -4.06650743416E-01 +8.47152682549E-01 +1.03675869525E-05 -5.26596995400E-05 +1.80770501059E-05 -6.80252398206E-05 -5.66431191119E-01 +7.83202428170E-01
1.23000000000E+09 -3.96273173327E-01 +8.50306450877E-01 -4.53886028534E-05 -7.79128855133E-05 -2.22141959700E-05 -6.88593526045E-05 -5.60753876257E-01 +7.87996057666E-01
1.23500000000E+09 -3.85202196507E-01 +8.53849790989E-01 +1.07401059689E-05 -1.04281710966E-04 +3.32513695954E-05 -8.34977576229E-05 -5.54908303052E-01 +7.92201985259E-01
1.24000000000E+09 -3.74082415094E-01 +8.57685790192E-01 +9.55311855798E-06 -9.81109998906E-05 -3.11534896771E-06 -1.13988641264E-04 -5.48916078486E-01 +7.96076521975E-01
1.24500000000E+09 -3.64151163370E-01 +8.61760852527E-01 -2.35542585306E-05 -1.05332128154E-04 -3.53028966555E-05 -8.75345042478E-05 -5.42557847866E-01 +8.00010958247E-01
1.25000000000E+09 -3.55661683376E-01 +8.65225426658E-01 -3.33960681454E-05 -1.13751826857E-04 -5.67548374918E-05 -1.71299168220E-04 -5.35959972389E-01 +8.04162579831E-01
1.25500000000E+09 -3.48868248222E-01 +8.67723694171E-01 -1.03511041145E-04 -1.13517299669E-04 -3.17874942696E-05 -1.14962321488E-04 -5.29090410543E-01 +8.08172823151E-01
1.26000000000E+09 -3.43749016284E-01 +8.69783665417E-01 -7.33053932952E-05 -8.63382342168E-05 -1.12346348868E-04 -1.39915892768E-04 -5.22304051890E-01 +8.12474515845E-01
1.26500000000E+09 -3.39400081144E-01 +8.71145964026E-01 -5.73602617147E-05 -1.14478040944E-04 -8.97821622446E-05 -1.21430117381E-04 -5.15338680132E-01 +8.16314047331E-01
1.27000000000E+09 -3.34818669085E-01 +8.72506781651E-01 -1.20813759558E-04 -7.86163185911E-05 -1.29974323168E-04 -8.89952462129E-05 -5.08470235033E-01 +8.20141931376E-01
1.27500000000E+09 -3.29038453505E-01 +8.73710871904E-01 -1.51675187129E-04 -7.57553199829E-05 -1.44665398888E-04 -7.63532733077E-05 -5.01423327968E-01 +8.23727068920E-01
1.28000000000E+09 -3.21335372148E-01 +8.75278477099E-01 -1.58403044278E-04 -8.54361119679E-05 -1.36827638566E-04 -7.82551007632E-05 -4.94416514490E-01 +8.27256302611E-01
1.28500000000E+09 -3.11091748842E-01 +8.77528667686E-01 -1.62080347259E-04 -6.38819150776E-05 -1.46991325147E-04 -3.25263872015E-05 -4.87109524928E-01 +8.30913604606E-01
1.29000000000E+09 -2.99506353964E-01 +8.80075584469E-01 -1.84499452200E-04 -6.07297078603E-05 -1.92501952113E-04 -6.13340490981E-05 -4.79418938291E-01 +8.34664498603E-01
1.29500000000E+09 -2.86651843307E-01 +8.83270141011E-01 -2.20824551354E-04 -3.48961195317E-05 -1.74946725318E-04 +3.48457842951E-05 -4.71471220022E-01 +8.38195038043E-01
1.30000000000E+09 -2.73824650258E-01 +8.86568439686E-01 -2.16280764559E-04 -2.09105759003E-05 -2.22921992866E-04 +2.71662512463E-06 -4.63605525909E-01 +8.41664126841E-01
1.30500000000E+09 -2.62123219326E-01 +8.89825927012E-01 -2.82469450766E-04 +3.60373469171E-05 -2.52959005439E-04 +6.51271616224E-05 -4.55650834214E-01 +8.45179914045E-01
1.31000000000E+09 -2.52321704848E-01 +8.92320529080E-01 -2.37610596121E-04 +7.04703169827E-05 -2.71107884536E-04 +7.34260124408E-05 -4.47360303508E-01 +8.48423652596E-01
1.31500000000E+09 -2.44575764687E-01 +8.94177425471E-01 -1.41794003731E-04 +9.97559330509E-05 -1.85044494520E-04 +1.30672482040E-04 -4.38545576429E-01 +8.51922696983E-01
1.32000000000E+09 -2.38538421351E-01 +8.95326046272E-01 -2.07233629420E-04 +1.33021244181E-04 -1.80517537197E-04 +1.14302707320E-04 -4.29357000711E-01 +8.55405515491E-01
1.32500000000E+09 -2.33206664543E-01 +8.95854609800E-01 -2.01228527642E-04 +5.90845217734E-05 -2.40115772477E-04 +7.80367651470E-05 -4.19619174271E-01 +8.58795403038E-01
1.33000000000E+09 -2.27049900552E-01 +8.96006412410E-01 -2.33317628680E-04 +1.33029733443E-04 -2.75033254489E-04 +1.72227488583E-04 -4.09971778286E-01 +8.62078722179E-01
1.33500000000E+09 -2.19078515476E-01 +8.95716078724E-01 -2.78275201388E-04 +2.00903950295E-04 -2.34866458084E-04 +2.19074875426E-04 -4.00139773400E-01 +8.65407718328E-01
1.34000000000E+09 -2.08529636954E-01 +8.95480782117E-01 -1.56481034148E-04 +2.35332409993E-04 -1.92139380883E-04 +2.44438975561E-04 -3.89997106848E-01 +8.68690966156E-01
1.34500000000E+09 -1.94878168153E-01 +8.95221622657E-01 -1.25802205263E-04 +2.60548926810E-04 -1.07823705032E-04 +2.43463926345E-04 -3.79064110794E-01 +8.71960428809E-01
1.35000000000E+09 -1.79130661996E-01 +8.95245953900E-01 -1.61943223616E-04 +2.80300418060E-04 -1.31584643447E-04 +2.81969668352E-04 -3.67997669111E-01 +8.75090876042E-01
1.35500000000E+09 -1.61651542625E-01 +8.95626574267E-01 -1.46484357219E-04 +2.94615146330E-04 -1.45249693789E-04 +3.17686736825E-04 -3.56359454112E-01 +8.77960681287E-01
1.36000000000E+09 -1.44204826963E-01 +8.96006245938E-01 -1.17006406382E-04 +3.09038804292E-04 -1.59040090460E-04 +2.64927759195E-04 -3.44509987497E-01 +8.80782437966E-01
1.36500000000E+09 -1.27666466552E-01 +8.96676849955E-01 -9.06834271974E-05 +3.34635961462E-04 -1.20778486156E-04 +3.38799572632E-04 -3.32275946934E-01 +8.83204070514E-01
1.37000000000E+09 -1.12941859963E-01 +8.96844522952E-01 -1.02415500318E-04 +4.24633846876E-04 -9.31359583976E-05 +3.39184761676E-04 -3.19419129399E-01 +8.85494860057E-01
1.37500000000E+09 -1.00656397471E-01 +8.96943929959E-01 -5.33165004687E-05 +5.05645832832E-04 -1.80814410319E-04 +4.43209407635E-04 -3.05780851019E-01 +8.87856762224E-01
1.38000000000E+09 -8.99854485777E-02 +8.96685605079E-01 +9.03866745069E-05 +5.67662995375E-04 +1.74089200802E-05 +5.91182695769E-04 -2.91031224218E-01 +8.89928561303E-01
1.38500000000E+09 -7.93413947173E-02 +8.95754281495E-01 +2.06525951537E-04 +4.60334881220E-04 +1.73013303289E-04 +6.04507495213E-04 -2.75614890193E-01 +8.91852905403E-01
1.39000000000E+09 -6.81819513259E-02 +8.94059048827E-01 +2.35845425268E-04 +4.42111097168E-04 +2.78381224044E-04 +5.24643891049E-04 -2.59615240706E-01 +8.93337095165E-01
1.39500000000E+09 -5.47411043154E-02 +8.91422738257E-01 +2.79630088354E-04 +4.63150175325E-04 +3.72003031140E-04 +4.46339490341E-04 -2.42833031837E-01 +8.94022828353E-01
1.40000000000E+09 -3.82133490146E-02 +8.87635814033E-01 +4.02202854645E-04 +4.40156371067E-04 +4.18295271073E-04 +3.74202275392E-04 -2.25283162648E-01 +8.94584584211E-01
1.40500000000E+09 -1.91220284389E-02 +8.82933643703E-01 +4.22377189015E-04 +4.04431584388E-04 +4.29790973815E-04 +3.16168385885E-04 -2.06515067565E-01 +8.94526473513E-01
1.41000000000E+09 +2.34889520980E-03 +8.77310663938E-01 +5.01191325388E-04 +3.47993886073E-04 +4.87775685741E-04 +3.69362235324E-04 -1.86299061886E-01 +8.93863517458E-01
1.41500000000E+09 +2.51634255753E-02 +8.70993754391E-01 +5.13362046354E-04 +2.71531535427E-04 +5.14536661426E-04 +2.91432038390E-04 -1.64638196254E-01 +8.92229848351E-01
1.42000000000E+09 +4.86337808070E-02 +8.64395762677E-01 +5.42387148595E-04 +3.10361055998E-04 +5.34894161403E-04 +3.21000206323E-04 -1.41792507543E-01 +8.89605383806E-01
1.42500000000E+09 +7.13198865851E-02 +8.57153947049E-01 +5.81201465851E-04 +2.37135427183E-04 +7.01615621117E-04 +2.35936200370E-04 -1.18374718630E-01 +8.86134868223E-01
1.43000000000E+09 +9.29287122043E-02 +8.49162748845E-01 +6.29663076346E-04 +2.33019496228E-04 +6.91993298433E-04 +1.94977849487E-04 -9.32918047577E-02 +8.81588449022E-01
1.43500000000E+09 +1.13396211108E-01 +8.39674850775E-01 +7.63597145038E-04 +1.96968328542E-04 +8.06089863060E-04 +1.16878994862E-04 -6.68608197132E-02 +8.74922728240E-01
1.44000000000E+09 +1.33493335480E-01 +8.29397158136E-01 +7.68600817279E-04 +4.46565125409E-05 +7.85988577126E-04 -6.44353916690E-06 -3.85070076546E-02 +8.66238128148E-01
1.44500000000E+09 +1.55127246607E-01 +8.16368083894E-01 +6.79362699795E-04 -6.10356295152E-06 +7.37603323784E-04 +4.54365032235E-06 -8.62343496926E-03 +8.54770537517E-01
1.45000000000E+09 +1.78845836973E-01 +7.99732158885E-01 +7.85136151159E-04 +1.43360703875E-04 +8.01196000822E-04 +1.04488112332E-04 +2.33452869737E-02 +8.40504810470E-01
1.45500000000E+09 +2.05378327649E-01 +7.78812621213E-01 +1.01068433123E-03 +1.34585823002E-04 +9.85749882765E-04 +1.96329977968E-05 +5.69165384230E-02 +8.22948312734E-01
1.46000000000E+09 +2.34907450195E-01 +7.53143468521E-01 +1.29493028555E-03 -8.54767113264E-05 +1.21169335128E-03 -1.53383679498E-04 +9.20110701333E-02 +8.00937346836E-01
1.46500000000E+09 +2.66626317109E-01 +7.22088999948E-01 +1.36552673967E-03 -3.31123511643E-04 +1.18366070921E-03 -4.20481824792E-04 +1.27726446935E-01 +7.74196208546E-01
1.47000000000E+09 +2.99530333202E-01 +6.85422290311E-01 +1.49693457766E-03 -2.85391759406E-04 +1.36560089004E-03 -3.06856986702E-04 +1.64946456802E-01 +7.41106394788E-01
1.47500000000E+09 +3.31998801298E-01 +6.43408829942E-01 +1.79240169570E-03 -7.79114653793E-04 +1.74542246882E-03 -6.77746068124E-04 +2.02776026117E-01 +7.00527000525E-01
1.48000000000E+09 +3.62034510810E-01 +5.95078299164E-01 +1.94437587676E-03 -1.23551835666E-03 +1.97639091847E-03 -1.19422232169E-03 +2.39993308322E-01 +6.50873037183E-01
1.48500000000E+09 +3.87636022863E-01 +5.40469956132E-01 +2.03764767714E-03 -1.96499572520E-03 +2.07359062500E-03 -2.00817446730E-03 +2.74567744049E-01 +5.91599896121E-01
1.49000000000E+09 +4.06826462628E-01 +4.79000487882E-01 +1.62812153117E-03 -2.75293789310E-03 +1.45579693089E-03 -2.79359713318E-03 +3.02743731966E-01 +5.21567255323E-01
1.49500000000E+09 +4.18594052566E-01 +4.09600105126E-01 +1.45848793608E-03 -3.23511782986E-03 +1.26541072540E-03 -3.11594467082E-03 +3.21776434235E-01 +4.42240815891E-01
1.50000000000E+09 +4.19224854138E-01 +3.30848314041E-01 +7.69718872143E-04 -4.53086523333E-03 +6.96899917732E-04 -4.21735638317E-03 +3.28145590716E-01 +3.52160391330E-01
1.50500000000E+09 +4.06485521720E-01 +2.44205819817E-01 -6.58731464820E-04 -4.95259488864E-03 -4.90934907232E-04 -4.73483232551E-03 +3.16637629194E-01 +2.54414419767E-01
1.51000000000E+09 +3.76461684272E-01 +1.51835083734E-01 -1.99999542832E-03 -5.26957394456E-03 -1.70817677984E-03 -5.24695692281E-03 +2.84139611254E-01 +1.53877361328E-01
1.51500000000E+09 +3.26847967544E-01 +5.93422150916E-02 -4.41999728312E-03 -5.33886305065E-03 -4.23554017738E-03 -5.47132140685E-03 +2.30613807016E-01 +5.56459233458E-02
1.52000000000E+09 +2.57504957444E-01 -2.62254577859E-02 -6.39769285435E-03 -2.89518393017E-03 -6.41091465057E-03 -3.07583165730E-03 +1.53226268264E-01 -3.20932142871E-02
1.52500000000E+09 +1.69632890685E-01 -9.87235629170E-02 -6.19909151017E-03 -1.05558323637E-03 -6.22548090144E-03 -1.13842165340E-03 +5.75278810235E-02 -1.00306764400E-01
1.53000000000E+09 +6.57194481912E-02 -1.50462967957E-01 -6.57954731789E-03 -3.35415101322E-05 -6.67174168448E-03 -3.33180010169E-05 -4.95416014432E-02 -1.46425249236E-01
1.53500000000E+09 -4.67765002860E-02 -1.74568709813E-01 -7.22477526003E-03 +2.20116686668E-03 -7.20290870248E-03 +2.18117614123E-03 -1.62624931110E-01 -1.67377529976E-01
1.54000000000E+09 -1.58837085037E-01 -1.71408092181E-01 -5.85369784147E-03 +4.47122219895E-03 -5.83524272106E-03 +4.41890728666E-03 -2.72050206309E-01 -1.63908993159E-01
1.54500000000E+09 -2.63783228996E-01 -1.44751119371E-01 -4.03705962086E-03 +6.14761434082E-03 -4.11224592023E-03 +5.98671730690E-03 -3.72349291333E-01 -1.41245288832E-01
1.55000000000E+09 -3.58025377055E-01 -9.92921385555E-02 -1.87383520329E-03 +6.25618369583E-03 -2.13205691764E-03 +6.15217395312E-03 -4.59164109822E-01 -1.02625624443E-01
1.55500000000E+09 -4.36849525876E-01 -4.12647963062E-02 -3.18152625871E-04 +6.26271678276E-03 -6.07819144180E-04 +6.41827203925E-03 -5.30828579413E-01 -5.41767282068E-02
1.56000000000E+09 -5.00301064649E-01 +2.20567881864E-02 +1.49701040202E-03 +5.99977662536E-03 +1.29973940444E-03 +6.29548635592E-03 -5.88023415806E-01 -2.40636675940E-04
1.56500000000E+09 -5.49307617421E-01 +8.57380891179E-02 +2.91617591246E-03 +4.69845047419E-03 +3.03236388918E-03 +5.01992926370E-03 -6.32711158771E-01 +5.61673667132E-02
1.57000000000E+09 -5.86398959091E-01 +1.46744182488E-01 +3.59062902405E-03 +3.20390733971E-03 +3.89021295703E-03 +3.37716307521E-03 -6.66120238006E-01 +1.12190895186E-01
