# Hz S RI R 50
! CMT, C1220, 16058040, 17.2.0/1
! Date: 14/08/2018 12:12:36
! Data: Format (Calibration Info)
! Freq                      S11: Re/Im (F2)                       S21: Re/Im (F2)                       S12: Re/Im (F2)                       S22: Re/Im (F2)            
1.00000000000E+09 -6.46054171768E-01 +7.14655222184E-01 -3.32888359031E-05 -2.33818320301E-05 +2.44082690718E-05 +2.67393992037E-06 -7.53517599641E-01 +6.25195828685E-01
1.00500000000E+09 -6.38903897870E-01 +7.19814238559E-01 +4.98988039360E-06 -6.99575196440E-06 +6.99962884607E-06 +5.67093934081E-05 -7.49859100188E-01 +6.29227880106E-01
1.01000000000E+09 -6.33122336270E-01 +7.24259203330E-01 -2.40961112899E-05 +3.68510262997E-05 -1.58640054530E-05 +3.30696361260E-05 -7.46290874369E-01 +6.33114593135E-01
1.01500000000E+09 -6.29104472525E-01 +7.28220806150E-01 -2.36079188167E-05 +1.55642158127E-05 -2.52151584166E-05 +2.47926893790E-05 -7.42929133944E-01 +6.36615007551E-01
1.02000000000E+09 -6.26722061900E-01 +7.31271894290E-01 -7.52071175258E-06 +4.20312938520E-06 +2.36587497173E-05 -2.31353063125E-06 -7.39443900516E-01 +6.40273644222E-01
1.02500000000E+09 -6.25660224230E-01 +7.33632244839E-01 +1.75392493370E-05 -5.49139901401E-06 -2.48709052079E-05 -2.43655120227E-05 -7.36572562548E-01 +6.43853983208E-01
1.03000000000E+09 -6.25000330124E-01 +7.35577525761E-01 -2.21574360076E-05 -2.18217391767E-05 +3.33765834629E-05 +5.12080344006E-05 -7.33302261962E-01 +6.47801363163E-01
1.03500000000E+09 -6.23258020284E-01 +7.37798615854E-01 -2.59821203085E-05 +8.95397262822E-05 +4.14511138259E-05 -5.68149392945E-06 -7.29442589639E-01 +6.51752900122E-01
1.04000000000E+09 -6.20107932885E-01 +7.40309829841E-01 +3.47265144066E-06 +6.78476707346E-05 +1.52827990188E-05 -6.38196759586E-06 -7.25621092774E-01 +6.55416399159E-01
1.04500000000E+09 -6.14922195515E-01 +7.43737733224E-01 +5.23506877092E-05 +1.22513724834E-06 +2.49743551819E-05 -1.44152730050E-05 -7.22050639773E-01 +6.58761241039E-01
1.05000000000E+09 -6.07603112310E-01 +7.47782517552E-01 +1.11248818905E-05 +1.94004542846E-05 +4.36110020721E-05 -1.49792686744E-05 -7.18625214646E-01 +6.62257585925E-01
1.05500000000E+09 -5.98589553483E-01 +7.52548006830E-01 +9.13184238617E-06 +2.46748460713E-05 +2.26083013896E-05 +3.04095097380E-06 -7.15290609077E-01 +6.65874014184E-01
1.06000000000E+09 -5.89173216573E-01 +7.57650468547E-01 -9.02357474824E-06 +6.09131491591E-05 -1.49931271853E-05 +1.41951146784E-05 -7.12014065908E-01 +6.69674957731E-01
1.06500000000E+09 -5.80075765367E-01 +7.62913613998E-01 +5.22292623194E-05 +3.14485086176E-05 +1.33990196951E-05 +5.01365763403E-05 -7.08313259440E-01 +6.73522750832E-01
1.07000000000E+09 -5.72288757771E-01 +7.67341145419E-01 +1.29326564949E-05 -8.19016312289E-06 +1.54269875821E-05 +4.28068942576E-05 -7.04254277790E-01 +6.77097275014E-01
1.07500000000E+09 -5.66614241397E-01 +7.71380098559E-01 -1.30625615337E-06 +4.63348595204E-05 +2.93593165312E-05 +6.10293826456E-06 -7.00003784146E-01 +6.80907532587E-01
1.08000000000E+09 -5.62737967851E-01 +7.74732547237E-01 -1.15964586348E-05 +5.83290740773E-05 -1.30697345867E-05 +1.41586652671E-05 -6.95964384735E-01 +6.84776176456E-01
1.08500000000E+09 -5.60664015646E-01 +7.77134894808E-01 -1.53689820650E-05 +2.95433285639E-05 +6.26626477933E-06 -5.24667797172E-05 -6.92088143107E-01 +6.88522057444E-01
1.09000000000E+09 -5.59231432216E-01 +7.79055306756E-01 +3.63724529218E-05 +4.18148278160E-05 -1.09042078371E-05 -2.90518550141E-05 -6.88258707737E-01 +6.92270318121E-01
1.09500000000E+09 -5.57950586229E-01 +7.80633868302E-01 +1.93924996577E-05 -1.42870075059E-05 +2.71805184064E-05 +3.09404052542E-05 -6.84333865975E-01 +6.96182461707E-01
1.10000000000E+09 -5.55383584889E-01 +7.82622217918E-01 +2.62474874205E-05 +2.94573600732E-05 -7.74487954361E-06 -1.21636934329E-05 -6.80436105695E-01 +7.00062269878E-01
1.10500000000E+09 -5.51173917847E-01 +7.85095448061E-01 -1.67161185030E-05 +3.03511026546E-05 +4.57387571212E-05 -5.00783634594E-06 -6.75983732802E-01 +7.03530109559E-01
1.11000000000E+09 -5.45194333252E-01 +7.88190424752E-01 +3.79764850671E-05 -2.58056653106E-05 -5.94907672285E-06 -9.42399296312E-06 -6.71824395416E-01 +7.06987668338E-01
1.11500000000E+09 -5.37535865197E-01 +7.92118496502E-01 +3.96494052521E-05 +2.29177192098E-05 +1.20269494300E-05 +2.90466361073E-05 -6.67674554982E-01 +7.10253884518E-01
1.12000000000E+09 -5.29217222463E-01 +7.96103011150E-01 -4.28474224163E-06 +3.06917190766E-05 +8.56468250422E-05 +2.11898132434E-05 -6.63728849395E-01 +7.14045019300E-01
1.12500000000E+09 -5.20824082831E-01 +8.00200856149E-01 +3.71252900478E-05 -1.81771422798E-05 +3.32633719949E-05 -2.79657967535E-05 -6.59369956208E-01 +7.17891387016E-01
1.13000000000E+09 -5.13471331877E-01 +8.04280201149E-01 +1.22557764157E-05 +2.57014279613E-05 +2.39672695392E-05 -8.61885644172E-06 -6.55232028221E-01 +7.21851100027E-01
1.13500000000E+09 -5.07324134933E-01 +8.07366651202E-01 -8.13871721559E-06 -2.30723824572E-05 +4.95611762704E-06 +3.26893314488E-05 -6.50623382188E-01 +7.25655174666E-01
1.14000000000E+09 -5.02711784596E-01 +8.10040786251E-01 +1.00268536821E-05 -1.90903620528E-05 +5.68983602138E-05 -1.23081239566E-06 -6.45946384619E-01 +7.29050931482E-01
1.14500000000E+09 -4.99248497577E-01 +8.11973922632E-01 +6.19347830583E-05 -4.60586675486E-05 +4.11203107428E-05 +1.07305717043E-05 -6.41301959350E-01 +7.32397206135E-01
1.15000000000E+09 -4.96120404422E-01 +8.13457141057E-01 +2.79039419312E-05 -2.25534939002E-05 +3.63479299789E-05 -3.42726277154E-05 -6.36709931631E-01 +7.36214024245E-01
1.15500000000E+09 -4.93081118127E-01 +8.15059057355E-01 +1.85806599381E-05 -8.33910239075E-07 +3.54056243734E-05 +1.93109757883E-06 -6.31855190799E-01 +7.39818866940E-01
1.16000000000E+09 -4.88784295436E-01 +8.16818349535E-01 +2.16506372948E-05 -2.81066845305E-05 -1.32739558417E-05 -4.37426237378E-05 -6.26942441148E-01 +7.43836895789E-01
1.16500000000E+09 -4.83193116389E-01 +8.19329522645E-01 +2.07806656901E-05 -2.89354326431E-06 +3.21244874965E-05 -3.68403742448E-05 -6.21849795033E-01 +7.47402925464E-01
1.17000000000E+09 -4.76043924808E-01 +8.22197324690E-01 +2.17001870145E-05 -4.41867220920E-05 +5.46057856558E-05 -3.81205353157E-05 -6.16454189284E-01 +7.50794960302E-01
1.17500000000E+09 -4.67917896120E-01 +8.25615623225E-01 +3.63833438264E-05 -2.45793470983E-05 -3.30523594523E-07 +2.13632767811E-06 -6.10807891375E-01 +7.54031507824E-01
1.18000000000E+09 -4.59446946231E-01 +8.29046776225E-01 +1.37088836206E-05 -1.94820630075E-05 +4.19146755504E-05 -5.27953287075E-05 -6.05095700123E-01 +7.57013434162E-01
1.18500000000E+09 -4.51180346250E-01 +8.32501625412E-01 -1.45107669230E-05 -2.26301642893E-05 +7.51965223821E-05 -2.87667014707E-05 -5.99082055619E-01 +7.60235495957E-01
1.19000000000E+09 -4.43888948486E-01 +8.35321893306E-01 +3.73150550933E-05 -1.97091097060E-05 -6.08663601604E-06 -6.57334585857E-05 -5.92948333256E-01 +7.62849135165E-01
1.19500000000E+09 -4.38156925007E-01 +8.37547718366E-01 +3.84368583549E-05 -5.87289158455E-05 +1.76970769213E-05 -5.89043572027E-05 -5.87071082264E-01 +7.64015974292E-01
1.20000000000E+09 -4.33370425488E-01 +8.38652794774E-01 +1.06736310242E-05 -7.01259619603E-05 +1.42603520194E-05 -7.78969394370E-05 -5.82599097332E-01 +7.64341590313E-01
1.20500000000E+09 -4.29696905747E-01 +8.39941088123E-01 +6.99055662123E-06 -6.12834664766E-05 -6.14090751984E-06 -1.08939442158E-04 -5.80342185181E-01 +7.65346033062E-01
1.21000000000E+09 -4.25735967838E-01 +8.41145959801E-01 +7.90535807159E-06 -5.73056595068E-05 +8.83917173431E-06 -2.98957801470E-05 -5.78359638884E-01 +7.68211187281E-01
1.21500000000E+09 -4.20405846931E-01 +8.42564949372E-01 -2.22116082651E-05 -5.14502973952E-05 -1.44974671630E-05 -4.19624301737E-05 -5.75641776361E-01 +7.72677800410E-01
1.22000000000E+09 -4.13326117945E-01 +8.44307945169E-01 -4.31534148090E-05 -3.80500575718E-05 -6.83542559461E-06 -5.39552365540E-07 -5.71483185118E-01 +7.78049822820E-01
1.22500000000E+09 -4.04537572935E-01 +8.46889692684E-01 -5.31833069392E-06 -5.89365146944E-05 +4.26566953571E-05 -4.07681284152E-05 -5.66363948774E-01 +7.83134935870E-01
1.23000000000E+09 -3.94159734253E-01 +8.49773272470E-01 -1.04174500911E-05 -3.70103495597E-05 +1.29980131770E-05 -3.42799581177E-05 -5.60670194403E-01 +7.87921131514E-01
1.23500000000E+09 -3.83108963001E-01 +8.53348232689E-01 -6.03710398053E-06 -7.28092913245E-05 +3.51692245241E-08 -6.31055764007E-05 -5.54811006431E-01 +7.92097993318E-01
1.24000000000E+09 -3.71872039042E-01 +8.57280090174E-01 +4.21276032947E-05 -5.79593153486E-05 +3.61376000040E-05 -7.51833873289E-05 -5.48851877478E-01 +7.96090802630E-01
1.24500000000E+09 -3.62015962853E-01 +8.61354850674E-01 -2.77611970588E-05 -1.11172996450E-04 +6.62282551255E-06 -6.37703010514E-05 -5.42553649081E-01 +7.99908071609E-01
1.25000000000E+09 -3.53457657731E-01 +8.64598172820E-01 -3.79287322506E-05 -8.08658270209E-05 -2.46603490887E-05 -1.61761799147E-04 -5.36013509683E-01 +8.04042286973E-01
1.25500000000E+09 -3.46674225027E-01 +8.67257185148E-01 -8.94803316464E-05 -9.55101567236E-05 -6.44268051637E-05 -8.30939664658E-05 -5.29053057056E-01 +8.08066565519E-01
1.26000000000E+09 -3.41380114150E-01 +8.69271795899E-01 -6.25317264773E-05 -5.15177955362E-05 -1.49269557318E-04 -8.68212920307E-05 -5.22377283851E-01 +8.12379288471E-01
1.26500000000E+09 -3.37197228937E-01 +8.70575930870E-01 -7.02396748517E-05 -7.90368723749E-05 -8.31400801374E-05 -7.38865910196E-05 -5.15406720006E-01 +8.16257649007E-01
1.27000000000E+09 -3.32601856898E-01 +8.71762294033E-01 -1.05332075777E-04 -5.35615031700E-05 -1.07346914932E-04 -7.26350614547E-05 -5.08577115251E-01 +8.20130371630E-01
1.27500000000E+09 -3.26939643582E-01 +8.72969250927E-01 -1.03142564954E-04 -8.38757210025E-05 -1.02886017292E-04 -9.92962281831E-05 -5.01453394924E-01 +8.23719760940E-01
1.28000000000E+09 -3.19098804348E-01 +8.74532599401E-01 -1.40672478137E-04 -3.27944248343E-05 -1.39981477975E-04 -9.42931893431E-05 -4.94480889863E-01 +8.27196013811E-01
1.28500000000E+09 -3.08967573352E-01 +8.76551037037E-01 -1.37256604630E-04 -1.97150071040E-05 -1.57028760849E-04 -2.79463279966E-05 -4.87071596836E-01 +8.31063582862E-01
1.29000000000E+09 -2.97268524044E-01 +8.79287844250E-01 -1.87009214725E-04 -4.25389548924E-05 -2.15616646711E-04 +3.19433639428E-05 -4.79462449820E-01 +8.34638375433E-01
1.29500000000E+09 -2.84454553426E-01 +8.82366145055E-01 -1.37682991263E-04 +7.35436984406E-06 -2.15928635802E-04 +1.78513664827E-05 -4.71721913649E-01 +8.38253196086E-01
1.30000000000E+09 -2.71628147617E-01 +8.85775286023E-01 -1.83190553358E-04 +2.64027355716E-05 -2.06823479800E-04 +1.45613009917E-05 -4.63728968745E-01 +8.41813217828E-01
1.30500000000E+09 -2.59985389316E-01 +8.88909390267E-01 -1.81209249977E-04 +5.62698226918E-05 -1.96290823746E-04 +4.90925488423E-05 -4.55761325100E-01 +8.45169816661E-01
1.31000000000E+09 -2.49838500211E-01 +8.91390277091E-01 -1.74603674726E-04 +1.07805510972E-04 -1.85239672967E-04 +1.04054948061E-04 -4.47406031572E-01 +8.48687301198E-01
1.31500000000E+09 -2.42268482576E-01 +8.93083640187E-01 -1.42103736229E-04 +1.64089329918E-04 -1.62143507855E-04 +9.22888390824E-05 -4.38573374115E-01 +8.52112120032E-01
1.32000000000E+09 -2.36263157050E-01 +8.94227402871E-01 -1.47308714636E-04 +1.26770942771E-04 -1.96303254471E-04 +1.06987453206E-04 -4.29423953473E-01 +8.55535713470E-01
1.32500000000E+09 -2.30858310219E-01 +8.94617936424E-01 -1.52246119196E-04 +1.32475456981E-04 -1.44818766307E-04 +1.72730083489E-04 -4.19886791986E-01 +8.58881728178E-01
1.33000000000E+09 -2.24808139936E-01 +8.94614763650E-01 -1.75484229406E-04 +1.48350018967E-04 -1.73672937266E-04 +2.16734783903E-04 -4.10188112075E-01 +8.62309769598E-01
1.33500000000E+09 -2.16839408428E-01 +8.94156387896E-01 -1.74887698845E-04 +2.25231038575E-04 -1.43863028948E-04 +2.75663072871E-04 -4.00261505877E-01 +8.65688078187E-01
1.34000000000E+09 -2.06150491958E-01 +8.93867827284E-01 -1.79613871017E-04 +2.85948069693E-04 -8.32688456991E-05 +2.44416292175E-04 -3.90076000679E-01 +8.68948101953E-01
1.34500000000E+09 -1.92625353952E-01 +8.93416166617E-01 -1.00728712846E-04 +2.33003814780E-04 -6.76644706297E-05 +2.66863183564E-04 -3.79104136989E-01 +8.72255276829E-01
1.35000000000E+09 -1.76782366654E-01 +8.93537767524E-01 -8.12689574051E-05 +2.61100545651E-04 -1.10032900409E-04 +2.33963096378E-04 -3.67984231814E-01 +8.75491592942E-01
1.35500000000E+09 -1.59425108633E-01 +8.93857569476E-01 -8.11700605159E-05 +2.76409986263E-04 -8.35432341375E-05 +2.57949681484E-04 -3.56355322600E-01 +8.78329260452E-01
1.36000000000E+09 -1.42065853183E-01 +8.94205969302E-01 -1.23801878694E-05 +3.23376608336E-04 -4.79599617575E-05 +3.12993683536E-04 -3.44452528257E-01 +8.81117384833E-01
1.36500000000E+09 -1.25613310945E-01 +8.94655211983E-01 +2.63213234257E-05 +3.84721243975E-04 +4.53783676852E-05 +3.40323469140E-04 -3.32278259556E-01 +8.83638260231E-01
1.37000000000E+09 -1.11106011095E-01 +8.94758017585E-01 +5.37896365142E-05 +3.23259435423E-04 -1.03556058923E-05 +2.92802276928E-04 -3.19258317492E-01 +8.85971928889E-01
1.37500000000E+09 -9.90636233978E-02 +8.94805090677E-01 +4.00861670555E-05 +3.63162809602E-04 +1.70295274873E-05 +4.17060514965E-04 -3.05554128595E-01 +8.88305915267E-01
1.38000000000E+09 -8.84458778672E-02 +8.94258155906E-01 +1.72704371023E-04 +4.34995706784E-04 +7.73700940688E-05 +4.83921839354E-04 -2.90835133736E-01 +8.90458696991E-01
1.38500000000E+09 -7.80960059433E-02 +8.93370777691E-01 +2.28790407194E-04 +3.72057534437E-04 +2.39960509225E-04 +4.70060564236E-04 -2.75222012053E-01 +8.92369743041E-01
1.39000000000E+09 -6.71640998048E-02 +8.91553750223E-01 +2.73711702808E-04 +3.51728081411E-04 +3.30363149413E-04 +3.97273535818E-04 -2.59094246926E-01 +8.93861879115E-01
1.39500000000E+09 -5.40069622089E-02 +8.88901556219E-01 +3.55071654743E-04 +3.89945864648E-04 +3.91734129750E-04 +3.87315339402E-04 -2.42089950599E-01 +8.94586590554E-01
1.40000000000E+09 -3.77292856930E-02 +8.85074975781E-01 +4.67083533436E-04 +3.11683076907E-04 +5.16758448979E-04 +3.02624680917E-04 -2.24396981209E-01 +8.95099729155E-01
1.40500000000E+09 -1.87143261612E-02 +8.80432772857E-01 +5.49066098885E-04 +1.81924787360E-04 +4.80912210064E-04 +1.51807254819E-04 -2.05453035046E-01 +8.95095168879E-01
1.41000000000E+09 +2.74178186534E-03 +8.74809443049E-01 +4.60059901802E-04 +1.58459501946E-04 +4.48035564520E-04 +1.35414839649E-04 -1.85130216811E-01 +8.94150628580E-01
1.41500000000E+09 +2.54374467329E-02 +8.68561098184E-01 +3.86389637854E-04 +8.59776626716E-05 +4.66051083391E-04 +1.59034781887E-04 -1.63239938134E-01 +8.92565192557E-01
1.42000000000E+09 +4.86492628238E-02 +8.61957308357E-01 +5.05779462195E-04 +1.90908672555E-04 +5.29573797235E-04 +1.97220074661E-04 -1.40283377249E-01 +8.89759376349E-01
1.42500000000E+09 +7.11294389842E-02 +8.54721477219E-01 +6.20578138920E-04 +4.54158650845E-05 +6.95221902589E-04 +1.80893402905E-05 -1.16557617587E-01 +8.86068842235E-01
1.43000000000E+09 +9.23784125412E-02 +8.46790383097E-01 +6.54924935110E-04 -6.55211873164E-05 +6.86840188012E-04 -1.01408325135E-04 -9.15394696375E-02 +8.81200215231E-01
1.43500000000E+09 +1.12418959835E-01 +8.37418404929E-01 +6.73330015505E-04 -9.70137270417E-05 +6.53067076602E-04 -1.34076938350E-04 -6.49634478689E-02 +8.74278617207E-01
1.44000000000E+09 +1.32339383100E-01 +8.27216009078E-01 +6.43184859875E-04 -3.16895899780E-04 +6.67121279613E-04 -3.26078836848E-04 -3.67247593056E-02 +8.65232714955E-01
1.44500000000E+09 +1.53442719361E-01 +8.14261490162E-01 +5.28334345423E-04 -3.01967457193E-04 +5.20152467291E-04 -3.66204810962E-04 -6.80159510788E-03 +8.53435069889E-01
1.45000000000E+09 +1.76554258353E-01 +7.97692406960E-01 +5.10740518494E-04 -2.51414705610E-04 +4.21200715410E-04 -3.45312490143E-04 +2.50689401564E-02 +8.38779923081E-01
1.45500000000E+09 +2.02243767020E-01 +7.77179666371E-01 +5.38290109756E-04 -2.92156389233E-04 +5.91767505121E-04 -3.23997670599E-04 +5.85645298228E-02 +8.21027633662E-01
1.46000000000E+09 +2.31282138111E-01 +7.51971383698E-01 +5.68101867187E-04 -2.69663347945E-04 +5.42418861672E-04 -3.16181534880E-04 +9.36895376165E-02 +7.98497199361E-01
1.46500000000E+09 +2.62497506639E-01 +7.21655769305E-01 +7.68261019332E-04 -2.08785978223E-04 +7.01053775963E-04 -2.62413806504E-04 +1.29059879383E-01 +7.71150679695E-01
1.47000000000E+09 +2.95077656180E-01 +6.86025763656E-01 +1.16006780115E-03 -4.14683753194E-04 +9.77353912535E-04 -4.07800677253E-04 +1.65764530955E-01 +7.37611489099E-01
1.47500000000E+09 +3.27316641065E-01 +6.44828661809E-01 +1.16234505356E-03 -9.91234908266E-04 +1.12006399546E-03 -8.95109472623E-04 +2.03284489761E-01 +6.96667910591E-01
1.48000000000E+09 +3.57029989597E-01 +5.98041594007E-01 +9.20258199997E-04 -1.23916960186E-03 +9.82389602931E-04 -1.21815524857E-03 +2.39753097907E-01 +6.46305446497E-01
1.48500000000E+09 +3.82402272011E-01 +5.45118336957E-01 +1.02714204353E-03 -1.46297466071E-03 +1.03933258292E-03 -1.50752974519E-03 +2.73295627361E-01 +5.86765126522E-01
1.49000000000E+09 +4.01816152449E-01 +4.85649772243E-01 +7.38188827828E-04 -2.03718370310E-03 +6.17124687552E-04 -2.06031273849E-03 +3.00633129083E-01 +5.16353741430E-01
1.49500000000E+09 +4.14157955695E-01 +4.18950646351E-01 +7.11996270480E-04 -2.29084879672E-03 +5.77626064033E-04 -2.18727164871E-03 +3.17887934246E-01 +4.36792098678E-01
1.50000000000E+09 +4.17141340670E-01 +3.42631357292E-01 +3.76492507305E-04 -3.15336633133E-03 +3.39739615593E-04 -2.89851700584E-03 +3.22464022019E-01 +3.47461669910E-01
1.50500000000E+09 +4.06780433917E-01 +2.57769448266E-01 -8.78735387152E-04 -4.05501453741E-03 -6.75203838529E-04 -3.94249862846E-03 +3.09417107291E-01 +2.50884207268E-01
1.51000000000E+09 +3.80058134233E-01 +1.66679554109E-01 -2.71486193975E-03 -3.85882734478E-03 -2.45810462620E-03 -3.90804216912E-03 +2.75436152892E-01 +1.52098186715E-01
1.51500000000E+09 +3.34936486557E-01 +7.44923627376E-02 -4.05249777872E-03 -3.06246367192E-03 -3.98467152311E-03 -3.19686474572E-03 +2.20803036563E-01 +5.63462383730E-02
1.52000000000E+09 +2.69643121743E-01 -1.31632704597E-02 -5.00062054866E-03 -1.25412577235E-03 -5.02320521107E-03 -1.41961541695E-03 +1.43267324863E-01 -2.82476822193E-02
1.52500000000E+09 +1.85052351232E-01 -8.77534491945E-02 -4.87803396036E-03 -2.30261807133E-05 -4.94279534470E-03 -1.16299799330E-04 +4.90001512057E-02 -9.32509531647E-02
1.53000000000E+09 +8.48463720820E-02 -1.42989845866E-01 -5.01514488031E-03 +1.05978457545E-03 -5.04428554278E-03 +1.01404457980E-03 -5.54215746655E-02 -1.37087572867E-01
1.53500000000E+09 -2.59141249384E-02 -1.72924900875E-01 -4.61628646918E-03 +2.68882081604E-03 -4.64049834127E-03 +2.71597196862E-03 -1.65755851406E-01 -1.56242141993E-01
1.54000000000E+09 -1.38864826713E-01 -1.74603024302E-01 -3.83930128911E-03 +3.51572722138E-03 -3.87773482625E-03 +3.51146256944E-03 -2.70918492192E-01 -1.52879302990E-01
1.54500000000E+09 -2.45643425619E-01 -1.52045267716E-01 -2.90877243628E-03 +5.09334248403E-03 -2.98363743529E-03 +5.02643560991E-03 -3.68291376271E-01 -1.31744136015E-01
1.55000000000E+09 -3.43056175050E-01 -1.09825159615E-01 -7.10349970635E-04 +5.62715115783E-03 -8.94240835322E-04 +5.57476167486E-03 -4.53078868020E-01 -9.51500018010E-02
1.55500000000E+09 -4.25588376262E-01 -5.31282464016E-02 +9.72598558605E-04 +5.01257019594E-03 +7.75884476585E-04 +5.10774485000E-03 -5.23381265294E-01 -4.94789133081E-02
1.56000000000E+09 -4.91696341359E-01 +9.79228072745E-03 +1.94563427204E-03 +4.30065988572E-03 +1.90380701836E-03 +4.54012187328E-03 -5.81010810946E-01 +2.12731294718E-03
1.56500000000E+09 -5.43410532141E-01 +7.30135619983E-02 +3.00756051142E-03 +3.37257383745E-03 +3.17527910065E-03 +3.62332029479E-03 -6.25741716451E-01 +5.72333812637E-02
1.57000000000E+09 -5.83244863856E-01 +1.34616567781E-01 +3.46285442729E-03 +1.83144640850E-03 +3.68808856535E-03 +1.91562807213E-03 -6.59481237351E-01 +1.11202886909E-01
