# Hz S RI R 50
! CMT, C1220, 16058040, 17.2.0/1
! Date: 14/08/2018 12:14:32
! Data: Format (Calibration Info)
! Freq                      S11: Re/Im (F2)                       S21: Re/Im (F2)                       S12: Re/Im (F2)                       S22: Re/Im (F2)            
1.00000000000E+09 -6.47184474827E-01 +7.14506177521E-01 -2.55008007958E-05 +4.22352571186E-06 -5.49763044085E-05 -3.94275815774E-06 -7.53600756814E-01 +6.24836640991E-01
1.00500000000E+09 -6.40041619444E-01 +7.19564885730E-01 +6.68061805157E-06 -2.58237922177E-05 -1.26841035880E-05 +1.37383782409E-05 -7.50074754483E-01 +6.29006247477E-01
1.01000000000E+09 -6.34164064169E-01 +7.24223500570E-01 -2.93683040649E-05 -3.67809934798E-06 +1.29277711242E-05 -2.04929365696E-05 -7.46494992803E-01 +6.32707324196E-01
1.01500000000E+09 -6.30292436258E-01 +7.27849990905E-01 +4.34407026792E-06 +3.82807846482E-05 +3.37473808989E-06 -2.80125588508E-05 -7.43073605378E-01 +6.36393585062E-01
1.02000000000E+09 -6.28028304230E-01 +7.31135425232E-01 +2.28432815653E-05 +6.74686687995E-05 -1.99787644087E-05 +5.71167740835E-06 -7.39755576086E-01 +6.39988311366E-01
1.02500000000E+09 -6.26837822567E-01 +7.33507120235E-01 -1.94866845284E-05 +1.01049356608E-05 -2.62916575308E-05 +1.50125664248E-06 -7.36859346762E-01 +6.43591301189E-01
1.03000000000E+09 -6.26117730452E-01 +7.35700187403E-01 +3.95729700121E-05 +5.60576354590E-06 -2.14603705254E-06 -6.98435581761E-07 -7.33322878460E-01 +6.47467592880E-01
1.03500000000E+09 -6.24460486962E-01 +7.37640188013E-01 -2.92376542341E-05 -2.99023157863E-06 +5.04442665586E-05 -1.47490930946E-05 -7.29592927679E-01 +6.51560960565E-01
1.04000000000E+09 -6.21362024968E-01 +7.40207000545E-01 -4.81507104304E-06 +2.85025710477E-05 -5.62912048052E-05 +6.14761869899E-05 -7.25765843945E-01 +6.55143967732E-01
1.04500000000E+09 -6.16084664065E-01 +7.43515784314E-01 -1.35103941362E-05 +1.73959468177E-05 -3.79519088868E-05 +6.94996322642E-05 -7.22320636878E-01 +6.58581198466E-01
1.05000000000E+09 -6.08650238402E-01 +7.47713697853E-01 -2.72926613441E-05 +7.85101600167E-06 -1.36287252212E-05 +5.09724096786E-05 -7.18963021549E-01 +6.62024060959E-01
1.05500000000E+09 -6.00019637781E-01 +7.52276564646E-01 +1.52624933573E-05 +1.53860224603E-05 -1.34642931030E-05 +2.66761089353E-05 -7.15581352000E-01 +6.65533721554E-01
1.06000000000E+09 -5.90682723759E-01 +7.57608436120E-01 +3.79502017764E-05 -4.15651288125E-06 -4.55100993549E-06 -3.90654394862E-05 -7.12372089406E-01 +6.69358434475E-01
1.06500000000E+09 -5.81664729554E-01 +7.62839674693E-01 -2.72653527347E-05 +5.19692346602E-05 +3.35479262377E-05 +3.92408820508E-05 -7.08373130644E-01 +6.73242764088E-01
1.07000000000E+09 -5.73946443556E-01 +7.67176401494E-01 +2.38230696747E-05 +4.23700547688E-05 -4.27995292456E-06 +4.69434543094E-05 -7.04564069530E-01 +6.76883309952E-01
1.07500000000E+09 -5.68238505329E-01 +7.71055653127E-01 -1.67646334138E-05 +4.86819968528E-05 +4.03643796339E-05 +2.49056238446E-07 -7.00136841404E-01 +6.80679245424E-01
1.08000000000E+09 -5.64478381522E-01 +7.74444553785E-01 -3.10418625535E-05 -3.56686186708E-05 -2.38348212629E-05 +3.65452956141E-05 -6.96254656643E-01 +6.84497049967E-01
1.08500000000E+09 -5.62385659274E-01 +7.76870849019E-01 +1.97248507544E-05 -2.46619902617E-05 +2.36204568613E-05 +4.57125666654E-05 -6.92221412215E-01 +6.88274970014E-01
1.09000000000E+09 -5.60956348312E-01 +7.78814173006E-01 +4.12019166907E-05 +2.07263715922E-05 +5.09376193428E-05 +2.82829136765E-05 -6.88427991951E-01 +6.92074507107E-01
1.09500000000E+09 -5.59645766916E-01 +7.80439431886E-01 -3.20292293124E-06 +2.06423697996E-05 -3.42416726251E-06 +1.23368387793E-07 -6.84562299044E-01 +6.95802589756E-01
1.10000000000E+09 -5.56906713013E-01 +7.82496710427E-01 +3.62122364144E-05 +1.21144355750E-05 +7.65024721279E-06 +2.43690591031E-05 -6.80633845807E-01 +6.99741037420E-01
1.10500000000E+09 -5.52740234357E-01 +7.84935066594E-01 +2.62848198378E-05 +3.16981816179E-05 +4.75298884653E-05 +9.73785152021E-06 -6.76376951387E-01 +7.03376129445E-01
1.11000000000E+09 -5.46799088278E-01 +7.87968330391E-01 +7.20406847666E-05 -1.80019099365E-05 +5.81225597925E-05 +1.64105940996E-05 -6.72152056713E-01 +7.06677829446E-01
1.11500000000E+09 -5.39239577342E-01 +7.92031407358E-01 +5.05862093324E-05 -4.37811943114E-05 +1.45630785313E-05 -3.08884943629E-05 -6.68120141855E-01 +7.10121134366E-01
1.12000000000E+09 -5.30992898699E-01 +7.95962639921E-01 +1.15636904979E-05 -2.49344537600E-05 +4.35385329510E-05 -4.10049811839E-05 -6.63951004063E-01 +7.13721552324E-01
1.12500000000E+09 -5.22632464777E-01 +8.00191752803E-01 +1.85274950690E-05 -5.85837414215E-06 +5.28294095137E-06 +4.78305776653E-05 -6.59640416745E-01 +7.17745715339E-01
1.13000000000E+09 -5.15322234992E-01 +8.04156586470E-01 +2.27044131681E-05 +3.13812767453E-05 -2.18278350384E-05 -3.04436187526E-05 -6.55526852617E-01 +7.21462106677E-01
1.13500000000E+09 -5.09073233223E-01 +8.07204289421E-01 +9.36861349842E-06 -2.12021739004E-06 +7.45745500107E-05 -1.98662589903E-05 -6.50924338330E-01 +7.25281936517E-01
1.14000000000E+09 -5.04513239313E-01 +8.09979046882E-01 +3.75290068467E-05 +1.91319125196E-06 +2.86605146626E-05 +1.30821289136E-05 -6.46354822093E-01 +7.28738165109E-01
1.14500000000E+09 -5.00984597793E-01 +8.11921868361E-01 +4.12655708828E-05 -3.03725029790E-05 -2.09592695761E-05 -8.49557861725E-06 -6.41633433065E-01 +7.32003680785E-01
1.15000000000E+09 -4.98022350609E-01 +8.13497851774E-01 +4.20724099483E-05 +3.56946318677E-06 +1.52878279558E-05 -1.77765840694E-05 -6.36919328111E-01 +7.36059934467E-01
1.15500000000E+09 -4.94938243508E-01 +8.15198224733E-01 +3.70149840478E-05 +5.23991270320E-06 +2.97836674439E-05 -1.24585456587E-05 -6.32152447348E-01 +7.39733988889E-01
1.16000000000E+09 -4.90628712086E-01 +8.16958724550E-01 -8.84166003729E-06 +1.56201748276E-05 -2.09376826921E-05 +1.74401289724E-05 -6.27364168749E-01 +7.43567394764E-01
1.16500000000E+09 -4.85007328782E-01 +8.19557325047E-01 +3.73014585710E-05 -1.33019502553E-05 +2.07290606454E-05 -1.64914267995E-05 -6.22295898601E-01 +7.47342613517E-01
1.17000000000E+09 -4.78027686063E-01 +8.22506286918E-01 +3.71084916389E-05 +1.02071903261E-05 +2.47141151993E-05 +3.37767936382E-05 -6.16781037345E-01 +7.50644096522E-01
1.17500000000E+09 -4.69898438992E-01 +8.25792638169E-01 +7.15591806003E-05 -1.22258458377E-05 +9.51498295056E-06 -9.25900022313E-07 -6.11152685224E-01 +7.53788485864E-01
1.18000000000E+09 -4.61479727167E-01 +8.29382534739E-01 +2.93563280902E-05 -2.16418730997E-05 +2.80131631794E-05 +9.55616576539E-06 -6.05412920691E-01 +7.57107896792E-01
1.18500000000E+09 -4.53284505489E-01 +8.32689215078E-01 +2.49518315592E-05 +4.28130296867E-06 +5.16942544198E-05 -1.29117587475E-05 -5.99560015741E-01 +7.60005431325E-01
1.19000000000E+09 -4.45996202687E-01 +8.35517830154E-01 +8.90878948257E-05 +1.39691733537E-05 +6.36370023994E-05 -2.97524737538E-05 -5.93305823600E-01 +7.62611718201E-01
1.19500000000E+09 -4.40107388308E-01 +8.37775119522E-01 +5.44493188327E-05 -7.11093239464E-05 +7.42846374651E-05 -6.85142930699E-05 -5.87391352331E-01 +7.64039608765E-01
1.20000000000E+09 -4.35664777791E-01 +8.38922097922E-01 +5.75782869038E-05 -9.07256263468E-05 +3.21034666393E-05 -6.26625636593E-05 -5.82967491663E-01 +7.64205687449E-01
1.20500000000E+09 -4.31893867009E-01 +8.40234080790E-01 +3.81541742550E-06 -1.02764724378E-04 -1.72105797881E-05 -1.12439774367E-04 -5.80555405396E-01 +7.64866915707E-01
1.21000000000E+09 -4.27923517129E-01 +8.41511576276E-01 +1.13221727166E-05 -1.03393256367E-04 -1.66352838474E-05 -7.24104897636E-05 -5.78756207299E-01 +7.67959972181E-01
1.21500000000E+09 -4.22636677009E-01 +8.42754960006E-01 -4.16309183561E-05 -5.02178596752E-05 -3.12140191199E-05 -1.27808918676E-04 -5.76067783427E-01 +7.72537228235E-01
1.22000000000E+09 -4.15643032258E-01 +8.44641442920E-01 -1.25314983941E-05 -7.73850324728E-05 -2.84413050997E-05 -6.75901540956E-05 -5.71826467994E-01 +7.77912735621E-01
1.22500000000E+09 -4.06927603892E-01 +8.47343031709E-01 -2.27554396303E-06 -4.62424216794E-05 +2.38528175359E-05 -5.60930156284E-05 -5.66727707893E-01 +7.83098284042E-01
1.23000000000E+09 -3.96493436754E-01 +8.50323263332E-01 +1.48803997249E-06 -9.00992012720E-05 -4.34340571006E-05 -8.11111150204E-05 -5.60996384271E-01 +7.87689573134E-01
1.23500000000E+09 -3.85565851851E-01 +8.53866888991E-01 -9.94455856320E-06 -9.41057472446E-05 -1.88756191901E-05 -7.37274836007E-05 -5.55182026789E-01 +7.92087015194E-01
1.24000000000E+09 -3.74443092080E-01 +8.57826845327E-01 -3.98401832510E-05 -7.77956361948E-05 +1.10817957594E-05 -8.81693412086E-05 -5.49206486510E-01 +7.95872974588E-01
1.24500000000E+09 -3.64467430327E-01 +8.61889842843E-01 -2.05387201042E-05 -9.39339798935E-05 +1.16796800946E-05 -1.03985119296E-04 -5.42775566432E-01 +7.99800736083E-01
1.25000000000E+09 -3.55887380189E-01 +8.65292260610E-01 +5.18971350933E-06 -1.24273982102E-04 -8.78933518790E-06 -1.16279860488E-04 -5.36115535718E-01 +8.03992560338E-01
1.25500000000E+09 -3.49239326269E-01 +8.67838461155E-01 -5.76202991740E-05 -1.51304109022E-04 -3.45886678999E-05 -1.41770108280E-04 -5.29239813538E-01 +8.07894221193E-01
1.26000000000E+09 -3.44053099289E-01 +8.69911388487E-01 -7.16212645483E-05 -8.86921150266E-05 -5.66939885024E-05 -1.05650175556E-04 -5.22596665350E-01 +8.12316198695E-01
1.26500000000E+09 -3.39654740342E-01 +8.71333658974E-01 -4.88599966556E-05 -1.01660433348E-04 -8.93557679131E-05 -1.23236527990E-04 -5.15601593488E-01 +8.16195068079E-01
1.27000000000E+09 -3.35080130628E-01 +8.72503538448E-01 -7.05229423864E-05 -1.03862934809E-04 -8.94985047154E-05 -1.00963748049E-04 -5.08846930871E-01 +8.19942156262E-01
1.27500000000E+09 -3.29379298361E-01 +8.73788026534E-01 -1.26612955724E-04 -1.22493866656E-04 -1.08590633365E-04 -1.12255648721E-04 -5.01654707663E-01 +8.23595505450E-01
1.28000000000E+09 -3.21601364943E-01 +8.75446532889E-01 -1.49801274196E-04 -1.24899169422E-04 -1.45614800807E-04 -8.77028404004E-05 -4.94663433861E-01 +8.27000092254E-01
1.28500000000E+09 -3.11516607246E-01 +8.77684908901E-01 -1.55545101944E-04 -1.05237884539E-04 -1.66882439839E-04 -1.02331641506E-04 -4.87150955824E-01 +8.30825204416E-01
1.29000000000E+09 -2.99794138431E-01 +8.80247286286E-01 -1.67712983538E-04 -8.06035898896E-05 -2.24421024099E-04 -6.93551862543E-05 -4.79677916042E-01 +8.34371638597E-01
1.29500000000E+09 -2.86996625852E-01 +8.83361393204E-01 -2.13247421390E-04 -5.89315505185E-05 -2.33103176995E-04 -7.26795218372E-05 -4.71773430377E-01 +8.37880006826E-01
1.30000000000E+09 -2.74225003196E-01 +8.86734086223E-01 -2.25149209017E-04 -5.08231385922E-05 -1.89730636496E-04 -1.08265243536E-05 -4.64019511099E-01 +8.41549542973E-01
1.30500000000E+09 -2.62611139059E-01 +8.89890958935E-01 -2.52044738388E-04 -1.14773604331E-05 -1.84933115918E-04 -1.20087759066E-05 -4.55839862525E-01 +8.44890221432E-01
1.31000000000E+09 -2.52659525988E-01 +8.92472051989E-01 -2.25637038110E-04 +2.50293188162E-05 -1.95645919195E-04 +4.03924128639E-05 -4.47482200449E-01 +8.48414291117E-01
1.31500000000E+09 -2.44902854572E-01 +8.94220977589E-01 -2.20369027201E-04 +7.61568691849E-05 -2.35838602350E-04 +7.77582490022E-05 -4.38719875267E-01 +8.51803219466E-01
1.32000000000E+09 -2.38973556439E-01 +8.95402120583E-01 -1.80425323613E-04 +3.99189936475E-05 -1.93064036453E-04 +6.34482210893E-05 -4.29611424894E-01 +8.55332992560E-01
1.32500000000E+09 -2.33632642315E-01 +8.95952418350E-01 -1.95222051136E-04 +8.04642333236E-05 -2.26329478075E-04 +5.54358044690E-05 -4.20022382444E-01 +8.58637626287E-01
1.33000000000E+09 -2.27516586684E-01 +8.95991196525E-01 -2.73186791234E-04 +1.23489366704E-04 -2.35631701554E-04 +1.70533452212E-04 -4.10352305529E-01 +8.61914138664E-01
1.33500000000E+09 -2.19618810645E-01 +8.95695038551E-01 -2.06848132448E-04 +1.53843629761E-04 -2.57976354533E-04 +1.99405354863E-04 -4.00548791971E-01 +8.65172680976E-01
1.34000000000E+09 -2.09069499667E-01 +8.95395689932E-01 -2.50123734153E-04 +2.28560955969E-04 -2.16722719434E-04 +2.48799168693E-04 -3.90308142278E-01 +8.68490991293E-01
1.34500000000E+09 -1.95430227388E-01 +8.95122786235E-01 -1.60390327986E-04 +2.23304444165E-04 -1.40604563509E-04 +2.09854382657E-04 -3.79293791409E-01 +8.71924098199E-01
1.35000000000E+09 -1.79552170664E-01 +8.95229719902E-01 -1.33196624625E-04 +2.45733737289E-04 -1.60063321163E-04 +2.25936281228E-04 -3.68373289554E-01 +8.74847674920E-01
1.35500000000E+09 -1.62201055982E-01 +8.95619540660E-01 -1.64334957455E-04 +2.81040379327E-04 -2.02488106382E-04 +2.54193416230E-04 -3.56708370661E-01 +8.77796243663E-01
1.36000000000E+09 -1.44759054824E-01 +8.95903921360E-01 -2.01917753161E-04 +2.74735566701E-04 -1.74201734172E-04 +2.73316117188E-04 -3.44812005707E-01 +8.80548427037E-01
1.36500000000E+09 -1.28292457545E-01 +8.96469674809E-01 -1.59066090196E-04 +3.39036100050E-04 -1.49839737926E-04 +3.07956162707E-04 -3.32568823280E-01 +8.83055807078E-01
1.37000000000E+09 -1.13580877428E-01 +8.96653410292E-01 -1.83092748017E-04 +3.56855840401E-04 -1.48132042714E-04 +3.42849250954E-04 -3.19788037866E-01 +8.85273605189E-01
1.37500000000E+09 -1.01309124289E-01 +8.96720885629E-01 -1.25007145841E-04 +4.79683017121E-04 -1.97053673970E-04 +4.43011088441E-04 -3.06230301677E-01 +8.87627046987E-01
1.38000000000E+09 -9.06568875187E-02 +8.96271165272E-01 +1.43180601571E-05 +6.09551636028E-04 -6.60337698749E-05 +5.59960316972E-04 -2.91571278836E-01 +8.89754491272E-01
1.38500000000E+09 -8.02254205012E-02 +8.95382791518E-01 +1.52349889837E-04 +5.06710166335E-04 +1.04293395183E-04 +5.60854563350E-04 -2.76058217411E-01 +8.91563883550E-01
1.39000000000E+09 -6.91310317588E-02 +8.93712404058E-01 +1.56452315931E-04 +4.98104816847E-04 +2.07254673909E-04 +5.67762037929E-04 -2.60031921610E-01 +8.93362215956E-01
1.39500000000E+09 -5.58430635427E-02 +8.91214680022E-01 +2.46236096248E-04 +5.11067357732E-04 +2.82556591834E-04 +5.52034632116E-04 -2.43167886618E-01 +8.93941400958E-01
1.40000000000E+09 -3.94670456378E-02 +8.87385542848E-01 +2.60959491301E-04 +4.91156855686E-04 +3.50002692750E-04 +4.84828466062E-04 -2.25431904163E-01 +8.94544978597E-01
1.40500000000E+09 -2.04861929923E-02 +8.82747403962E-01 +3.23619728497E-04 +4.14226078366E-04 +3.35923507829E-04 +3.92127353428E-04 -2.06910519692E-01 +8.94438103937E-01
1.41000000000E+09 +1.07362325513E-03 +8.77185462639E-01 +3.29514377331E-04 +4.68027997705E-04 +3.57041844702E-04 +4.13406802615E-04 -1.86509163746E-01 +8.93804860881E-01
1.41500000000E+09 +2.39665387317E-02 +8.70940466042E-01 +4.07018947332E-04 +4.21992426066E-04 +3.61674276661E-04 +4.62156485128E-04 -1.64754555122E-01 +8.92207066765E-01
1.42000000000E+09 +4.71664093586E-02 +8.64393132140E-01 +4.50783505189E-04 +4.68166681400E-04 +5.12763903378E-04 +5.50807737204E-04 -1.42004470361E-01 +8.89432071160E-01
1.42500000000E+09 +6.97024078169E-02 +8.57187234154E-01 +6.19177826082E-04 +4.08062450802E-04 +6.47863007515E-04 +4.01032829817E-04 -1.18342094154E-01 +8.86007811315E-01
1.43000000000E+09 +9.11653753506E-02 +8.49334106403E-01 +5.94940846025E-04 +2.75461537103E-04 +6.80502815411E-04 +2.72594693381E-04 -9.35323649458E-02 +8.81285931725E-01
1.43500000000E+09 +1.11627013170E-01 +8.39965587121E-01 +6.28607568311E-04 +3.40174257297E-04 +7.01762325368E-04 +2.86715693365E-04 -6.70133828788E-02 +8.74735899332E-01
1.44000000000E+09 +1.31591451875E-01 +8.29534183937E-01 +7.29235925184E-04 +2.70318371591E-04 +7.43391572055E-04 +2.17395065431E-04 -3.87860084730E-02 +8.65907886597E-01
1.44500000000E+09 +1.53163738368E-01 +8.16705039746E-01 +7.54058420835E-04 +2.66389548231E-04 +7.86906769375E-04 +2.26515275893E-04 -8.94674040523E-03 +8.54505695518E-01
1.45000000000E+09 +1.76574034598E-01 +8.00114794174E-01 +8.47179405027E-04 +3.15700000535E-04 +8.76636110795E-04 +2.81498611805E-04 +2.26595951507E-02 +8.40079196680E-01
1.45500000000E+09 +2.02761219170E-01 +7.79495984433E-01 +1.08751302093E-03 +3.17015202105E-04 +1.05611044288E-03 +2.27346082700E-04 +5.61515553886E-02 +8.22720865719E-01
1.46000000000E+09 +2.31949211197E-01 +7.54017386039E-01 +1.31769349801E-03 +1.58657646362E-04 +1.28543397536E-03 +6.49793053846E-05 +9.11399642410E-02 +8.00762521048E-01
1.46500000000E+09 +2.63445976769E-01 +7.23423254590E-01 +1.51764543845E-03 -7.98175682319E-06 +1.41916551652E-03 -5.86478254453E-05 +1.26796362421E-01 +7.74249837753E-01
1.47000000000E+09 +2.96194673789E-01 +6.87296239923E-01 +1.89077607807E-03 -3.76245619396E-05 +1.73537214973E-03 -2.15328371034E-05 +1.63935841100E-01 +7.41487502173E-01
1.47500000000E+09 +3.28489317039E-01 +6.45584053763E-01 +2.18174126224E-03 -6.82741293626E-04 +2.17063566424E-03 -5.77598282487E-04 +2.01926511988E-01 +7.01083415882E-01
1.48000000000E+09 +3.58097913709E-01 +5.98121500531E-01 +2.23777649229E-03 -1.14268737891E-03 +2.29764335317E-03 -1.09295178185E-03 +2.39481635801E-01 +6.51900456872E-01
1.48500000000E+09 +3.83570411415E-01 +5.44539733251E-01 +2.40422354777E-03 -1.80294005810E-03 +2.44873484634E-03 -1.91895921374E-03 +2.74312482821E-01 +5.92644838047E-01
1.49000000000E+09 +4.02999339785E-01 +4.84432820616E-01 +2.05734951705E-03 -2.58650643214E-03 +1.95130504321E-03 -2.65514595575E-03 +3.02960984495E-01 +5.22605856183E-01
1.49500000000E+09 +4.15613823347E-01 +4.16356324727E-01 +2.12282393515E-03 -3.26161447038E-03 +1.91630285926E-03 -3.22646713558E-03 +3.22457774049E-01 +4.43039527777E-01
1.50000000000E+09 +4.17527049964E-01 +3.38650175838E-01 +1.47510327579E-03 -4.77762435835E-03 +1.32046183358E-03 -4.48643435868E-03 +3.29168541206E-01 +3.52650910874E-01
1.50500000000E+09 +4.06172368488E-01 +2.52888278842E-01 -1.37352661246E-04 -5.54079790905E-03 +2.39780523798E-05 -5.30065148577E-03 +3.17972203086E-01 +2.54200322867E-01
1.51000000000E+09 +3.78045182346E-01 +1.61274769655E-01 -1.76914814796E-03 -5.78481329325E-03 -1.54622270860E-03 -5.79623193110E-03 +2.85186140651E-01 +1.52815979912E-01
1.51500000000E+09 +3.30837765724E-01 +6.92310294627E-02 -4.04685780794E-03 -5.78808519349E-03 -3.93962843655E-03 -5.97127353933E-03 +2.30738728062E-01 +5.42436975852E-02
1.52000000000E+09 +2.64651262123E-01 -1.73646892578E-02 -5.97981015393E-03 -3.61279097032E-03 -5.98664170153E-03 -3.71997528083E-03 +1.52865859948E-01 -3.33487508559E-02
1.52500000000E+09 +1.78926025860E-01 -9.18385707328E-02 -6.09027692743E-03 -2.17053989836E-03 -6.10555657007E-03 -2.21932109318E-03 +5.65147001269E-02 -1.01538354264E-01
1.53000000000E+09 +7.65692061604E-02 -1.45941969620E-01 -7.00793413914E-03 -9.54290685398E-04 -6.98021714617E-03 -9.92816231611E-04 -5.10475264568E-02 -1.46874879164E-01
1.53500000000E+09 -3.52644835533E-02 -1.73134145050E-01 -7.70718980788E-03 +1.57733577204E-03 -7.66841237737E-03 +1.59914444509E-03 -1.64212547309E-01 -1.67076860357E-01
1.54000000000E+09 -1.47720950876E-01 -1.72703678081E-01 -6.46788158740E-03 +3.75508657880E-03 -6.42082002825E-03 +3.68170185463E-03 -2.72960130348E-01 -1.63002706476E-01
1.54500000000E+09 -2.53509217082E-01 -1.48484331818E-01 -5.01203209106E-03 +5.82286327500E-03 -5.06399719133E-03 +5.61380576291E-03 -3.72641370184E-01 -1.40042288223E-01
1.55000000000E+09 -3.49586783319E-01 -1.05199181574E-01 -2.59675000429E-03 +6.28925591237E-03 -2.86334257587E-03 +6.14555838019E-03 -4.58929617800E-01 -1.01614449069E-01
1.55500000000E+09 -4.30501646307E-01 -4.82745137742E-02 -9.28400865290E-04 +6.29829854669E-03 -1.30590152441E-03 +6.33150235924E-03 -5.30201618079E-01 -5.34518592581E-02
1.56000000000E+09 -4.95697078352E-01 +1.46448544470E-02 +8.30822579983E-04 +6.03352978662E-03 +6.15303735438E-04 +6.33953810865E-03 -5.87002604539E-01 +1.09136348501E-04
1.56500000000E+09 -5.46517870200E-01 +7.79059363674E-02 +2.29423129550E-03 +4.98135710575E-03 +2.35303269209E-03 +5.30911345579E-03 -6.31658246885E-01 +5.60560404407E-02
1.57000000000E+09 -5.85210785178E-01 +1.39369459943E-01 +3.11843667702E-03 +3.52753223663E-03 +3.35372434805E-03 +3.69894169887E-03 -6.65121641881E-01 +1.11352666077E-01
