# Hz S RI R 50
! CMT, C1220, 16058040, 17.2.0/1
! Date: 14/08/2018 12:13:44
! Data: Format (Calibration Info)
! Freq                      S11: Re/Im (F2)                       S21: Re/Im (F2)                       S12: Re/Im (F2)                       S22: Re/Im (F2)            
1.00000000000E+09 -6.47053380118E-01 +7.14610335253E-01 -9.79950041516E-08 -5.37523476411E-06 +6.00369481854E-06 +8.07005428201E-06 -7.53582638148E-01 +6.24991927432E-01
1.00500000000E+09 -6.39865856364E-01 +7.19663118420E-01 -1.29986193612E-05 +1.54273253776E-05 +8.36531367776E-06 -3.66183023815E-05 -7.49977990395E-01 +6.29073467106E-01
1.01000000000E+09 -6.33953776184E-01 +7.24208587944E-01 +2.23261663975E-05 +4.46931067970E-05 +2.81345961916E-06 -2.69067003060E-05 -7.46345032446E-01 +6.32717529664E-01
1.01500000000E+09 -6.30099642157E-01 +7.28039388803E-01 +1.90588420776E-05 +1.92540151638E-05 +4.81888812499E-06 +2.99972527035E-05 -7.43209623221E-01 +6.36377774952E-01
1.02000000000E+09 -6.27808745732E-01 +7.31010259133E-01 +4.96667048494E-06 -1.35550609361E-05 +3.35858274589E-06 +2.08848355555E-05 -7.39590610797E-01 +6.39970167014E-01
1.02500000000E+09 -6.26625650661E-01 +7.33534108274E-01 -7.15224395542E-07 +1.64088761579E-05 -3.56459543889E-05 -4.09301891309E-05 -7.36664625235E-01 +6.43817007102E-01
1.03000000000E+09 -6.25977625642E-01 +7.35582964281E-01 +1.60870383413E-05 -1.66688525783E-05 +1.52524880625E-06 -2.13260002775E-05 -7.33409894409E-01 +6.47689438936E-01
1.03500000000E+09 -6.24336571980E-01 +7.37729111632E-01 +2.08237315510E-05 -2.15508644868E-05 -1.19680257340E-06 +5.08302611334E-05 -7.29489292926E-01 +6.51637235069E-01
1.04000000000E+09 -6.20970568858E-01 +7.40262643164E-01 -3.07634494413E-05 +2.23874380072E-05 +1.82709372883E-06 +4.50373326097E-06 -7.25727249962E-01 +6.55246373835E-01
1.04500000000E+09 -6.15794278707E-01 +7.43445498387E-01 -1.04423150615E-06 +3.60278058266E-05 +3.01278989975E-05 -2.49234434655E-05 -7.22161959694E-01 +6.58907000861E-01
1.05000000000E+09 -6.08619955276E-01 +7.47601855643E-01 -1.31929577547E-05 -3.57762742881E-07 -2.02432307796E-05 -9.64547470949E-06 -7.18622337464E-01 +6.62313776169E-01
1.05500000000E+09 -5.99691980581E-01 +7.52268172743E-01 +7.35751317222E-06 +5.32189785881E-05 +3.27151445062E-08 +6.34952687406E-05 -7.15494996911E-01 +6.65793581112E-01
1.06000000000E+09 -5.90267970954E-01 +7.57455122063E-01 +2.61984057988E-05 -8.91381947241E-06 -6.72109879737E-06 +2.45860737489E-05 -7.12329206228E-01 +6.69577849378E-01
1.06500000000E+09 -5.81288939447E-01 +7.62668070263E-01 +3.37480858034E-05 -2.66976311979E-06 +1.34508242758E-05 +1.49675592732E-06 -7.08543170264E-01 +6.73495946701E-01
1.07000000000E+09 -5.73531290660E-01 +7.67234255283E-01 +1.36747765694E-05 +1.60761557085E-05 +1.01681157568E-05 +6.23266864938E-05 -7.04361048133E-01 +6.77074083075E-01
1.07500000000E+09 -5.67932191594E-01 +7.71210358796E-01 -6.88964024331E-06 +2.85249546077E-05 -7.95590933002E-06 +3.16954057411E-05 -7.00138935893E-01 +6.80702951514E-01
1.08000000000E+09 -5.64178384343E-01 +7.74360335442E-01 +8.46540265963E-05 -3.75753133525E-06 +8.59247459131E-06 +5.43818360712E-06 -6.96076916620E-01 +6.84707824200E-01
1.08500000000E+09 -5.62104368150E-01 +7.76994395695E-01 +1.81954351439E-05 +4.36682837235E-05 +6.27940012226E-05 -1.56188408927E-05 -6.92141149161E-01 +6.88301602399E-01
1.09000000000E+09 -5.60443223141E-01 +7.78890228963E-01 +1.60729985350E-05 -1.10787111419E-05 +8.86907784838E-06 +4.77285318161E-06 -6.88321378183E-01 +6.92227140692E-01
1.09500000000E+09 -5.59307360511E-01 +7.80719770618E-01 +3.36504505007E-05 +7.84971007776E-05 +7.99082833386E-06 +2.96173784119E-05 -6.84501289486E-01 +6.96030393149E-01
1.10000000000E+09 -5.56563669610E-01 +7.82458333092E-01 +1.24349253319E-05 -7.36839889586E-06 +1.13331858664E-05 +4.05604656087E-06 -6.80442687698E-01 +6.99950994058E-01
1.10500000000E+09 -5.52608068289E-01 +7.84968798010E-01 -2.61712959968E-05 -9.32761182646E-06 +4.73365078057E-05 -5.34537312325E-05 -6.76263678598E-01 +7.03332840643E-01
1.11000000000E+09 -5.46405607136E-01 +7.88162329777E-01 +4.22538680998E-05 +1.04145983826E-05 +3.71448559151E-05 -3.99281764060E-07 -6.71949810085E-01 +7.06776679553E-01
1.11500000000E+09 -5.38896188647E-01 +7.92000794417E-01 +2.37524705539E-05 +5.04496691955E-05 +2.23245893337E-05 -6.51904173544E-06 -6.67911431758E-01 +7.10259309536E-01
1.12000000000E+09 -5.30635649932E-01 +7.96215119314E-01 -4.90673495060E-06 +6.16516315285E-06 +1.43264917815E-05 -9.83369691094E-06 -6.63787236205E-01 +7.13926045866E-01
1.12500000000E+09 -5.22180417758E-01 +8.00319364753E-01 +1.21417792940E-05 +3.07186262581E-05 +2.06163846913E-05 +6.22892778649E-07 -6.59501197130E-01 +7.17817228990E-01
1.13000000000E+09 -5.14883089198E-01 +8.04229520531E-01 +2.76706239399E-05 -3.33469796089E-06 +7.84067825362E-05 +8.26964004625E-06 -6.55308456475E-01 +7.21679814011E-01
1.13500000000E+09 -5.08685854778E-01 +8.07307901595E-01 +4.83245660012E-05 -4.28069457488E-06 +3.23277564978E-05 +7.07327573809E-06 -6.50770134233E-01 +7.25460747241E-01
1.14000000000E+09 -5.04153006037E-01 +8.10004403598E-01 +1.22879566389E-05 +8.56555761997E-06 +1.45467001991E-05 +4.78789101937E-05 -6.46127672642E-01 +7.28964478230E-01
1.14500000000E+09 -5.00689182023E-01 +8.12017606530E-01 +3.97359378336E-05 -2.28292779021E-05 +2.65909754016E-05 -9.36757539088E-06 -6.41338754522E-01 +7.32430159326E-01
1.15000000000E+09 -4.97767860341E-01 +8.13504681505E-01 +3.56545241240E-05 -1.95006669124E-05 +4.04548584895E-05 +2.09029295596E-05 -6.36813171520E-01 +7.36160430597E-01
1.15500000000E+09 -4.94748280437E-01 +8.15156236791E-01 +1.47540108231E-05 -1.62858127899E-05 +3.39994791624E-05 -3.76474832857E-05 -6.31991111936E-01 +7.39923510447E-01
1.16000000000E+09 -4.90379006156E-01 +8.16933740909E-01 +5.43487454188E-07 -1.24142806637E-05 -1.57472670887E-05 -1.15503199694E-05 -6.27216443487E-01 +7.43837902062E-01
1.16500000000E+09 -4.84811472780E-01 +8.19583621321E-01 +2.24800137934E-05 -2.58912590428E-05 -1.82411763171E-05 +1.95171810769E-06 -6.22040551198E-01 +7.47484991877E-01
1.17000000000E+09 -4.77776998700E-01 +8.22422929073E-01 +7.27348752747E-06 -2.46276963490E-05 +5.24619778855E-05 -4.20845620646E-05 -6.16625525383E-01 +7.50750672743E-01
1.17500000000E+09 -4.69590636676E-01 +8.25758334585E-01 +1.96956679382E-05 -3.71355487146E-05 +2.11185432260E-05 +1.80309628762E-05 -6.10918483108E-01 +7.53869482941E-01
1.18000000000E+09 -4.61161325538E-01 +8.29300827028E-01 +4.15549856040E-05 -5.11724678488E-05 +7.20993474654E-05 -2.08392042730E-05 -6.05227326362E-01 +7.57105775341E-01
1.18500000000E+09 -4.52941179219E-01 +8.32656345478E-01 +7.33515902947E-05 -3.04322446515E-05 +4.31538374305E-05 -1.30279620037E-06 -5.99381399343E-01 +7.60173479303E-01
1.19000000000E+09 -4.45630458340E-01 +8.35460008741E-01 +9.57718910146E-05 -9.53839569871E-05 +5.26293254188E-05 -7.19852154253E-05 -5.93022130803E-01 +7.62844893758E-01
1.19500000000E+09 -4.39858316228E-01 +8.37857009634E-01 +6.91861194812E-05 -7.60835036081E-05 +9.97117222197E-05 -8.32764830586E-05 -5.87221381191E-01 +7.63942707297E-01
1.20000000000E+09 -4.35216417629E-01 +8.38798193744E-01 +2.22968257963E-05 -1.09076744935E-04 +2.37945588069E-05 -1.06223869431E-04 -5.82752826673E-01 +7.64128999397E-01
1.20500000000E+09 -4.31517345468E-01 +8.40184770633E-01 -1.04947594175E-05 -8.08983552428E-05 -7.93452730398E-06 -1.28152497203E-04 -5.80487249807E-01 +7.65047775083E-01
1.21000000000E+09 -4.27488773475E-01 +8.41293197863E-01 -7.00092493710E-05 -8.79503680076E-05 -3.79671597789E-05 -1.05953130106E-04 -5.78571245090E-01 +7.67977848642E-01
1.21500000000E+09 -4.22318285892E-01 +8.42898834801E-01 -4.03825175017E-05 -8.53704432482E-05 +4.56678104292E-06 -2.39167301412E-05 -5.75804546321E-01 +7.72654120505E-01
1.22000000000E+09 -4.15299742155E-01 +8.44708537182E-01 -3.44261178104E-07 -5.39406484381E-06 -3.52076101679E-05 -1.86012691437E-05 -5.71683157747E-01 +7.78113066814E-01
1.22500000000E+09 -4.06418400367E-01 +8.47260885144E-01 +9.14596188052E-07 -5.44529762777E-05 -2.55832280169E-05 -9.68110316196E-06 -5.66560783823E-01 +7.83104462549E-01
1.23000000000E+09 -3.96290142987E-01 +8.50355045858E-01 +3.50120099138E-05 -3.54951524123E-05 -3.09740276530E-05 -7.28902748737E-05 -5.60890815880E-01 +7.87819815916E-01
1.23500000000E+09 -3.85157096194E-01 +8.53859061315E-01 -6.61437025220E-06 -4.87990345888E-05 -3.81207872633E-05 -7.04796664876E-05 -5.55008998279E-01 +7.92212201547E-01
1.24000000000E+09 -3.74128928378E-01 +8.57887428243E-01 -6.57461487356E-06 -8.65675510426E-05 -2.12679558753E-05 -9.29679494151E-05 -5.49077332744E-01 +7.96020652868E-01
1.24500000000E+09 -3.64176405276E-01 +8.61891489566E-01 -5.80132421793E-05 -8.66475098093E-05 -9.62446158089E-06 -8.48556013378E-05 -5.42640851538E-01 +7.99862221518E-01
1.25000000000E+09 -3.55561901837E-01 +8.65385089502E-01 -7.37700597048E-05 -1.41693300257E-04 -4.87167254512E-05 -1.29390836572E-04 -5.36016627999E-01 +8.04034974397E-01
1.25500000000E+09 -3.48905814712E-01 +8.67936214152E-01 -7.78723100411E-05 -9.76513263434E-05 -3.52152968768E-05 -1.49842559493E-04 -5.29349051597E-01 +8.08202013248E-01
1.26000000000E+09 -3.43745115953E-01 +8.69897751790E-01 -9.53364385013E-05 -1.05534533316E-04 -1.15341366459E-04 -1.31633568939E-04 -5.22523780534E-01 +8.12492459351E-01
1.26500000000E+09 -3.39338073406E-01 +8.71445768216E-01 -7.67160732352E-05 -5.56084071213E-05 -1.13578070638E-04 -8.44441676595E-05 -5.15487559135E-01 +8.16264871123E-01
1.27000000000E+09 -3.34789494569E-01 +8.72736061065E-01 -9.29547101710E-05 -8.37229555068E-05 -1.28831900925E-04 -7.58436954435E-05 -5.08604593300E-01 +8.20113244711E-01
1.27500000000E+09 -3.29066214022E-01 +8.73970163040E-01 -1.30683519794E-04 -9.87405460678E-05 -1.48195242968E-04 -6.16704626827E-05 -5.01530638505E-01 +8.23693134837E-01
1.28000000000E+09 -3.21218578020E-01 +8.75587844019E-01 -1.55187577807E-04 -6.59045899076E-05 -1.83895178892E-04 -5.39543139292E-05 -4.94539199391E-01 +8.27237780694E-01
1.28500000000E+09 -3.11150320453E-01 +8.77742993437E-01 -1.54973708535E-04 -5.12607355395E-05 -1.77837196208E-04 -1.55354282991E-05 -4.87161822818E-01 +8.30880817919E-01
1.29000000000E+09 -2.99258790258E-01 +8.80378101555E-01 -2.09385491062E-04 -9.87752443385E-06 -2.20816870071E-04 +2.95506765757E-05 -4.79596456944E-01 +8.34557159006E-01
1.29500000000E+09 -2.86693866382E-01 +8.83580744926E-01 -1.72226312304E-04 +1.38444270108E-05 -2.08314720961E-04 +3.38197426012E-05 -4.71699383030E-01 +8.38139837088E-01
1.30000000000E+09 -2.73883536007E-01 +8.86982173930E-01 -2.15939472356E-04 +2.79289719120E-05 -2.42443417986E-04 +3.94569167293E-05 -4.63789494211E-01 +8.41534687334E-01
1.30500000000E+09 -2.62089463101E-01 +8.90109874189E-01 -2.61073883762E-04 +5.42485649590E-05 -2.22494476379E-04 +5.04300001602E-05 -4.55734476191E-01 +8.45071986879E-01
1.31000000000E+09 -2.52122793299E-01 +8.92682426720E-01 -1.69404141398E-04 +8.58019566365E-05 -1.94110108242E-04 +1.14150932988E-04 -4.47567697994E-01 +8.48557104666E-01
1.31500000000E+09 -2.44470006488E-01 +8.94526904241E-01 -1.59580361608E-04 +1.28148941267E-04 -2.02073028190E-04 +1.42853728227E-04 -4.38591434588E-01 +8.51973194994E-01
1.32000000000E+09 -2.38419690925E-01 +8.95606096770E-01 -1.45298605640E-04 +1.08698712342E-04 -1.90912749606E-04 +1.45711503918E-04 -4.29589766061E-01 +8.55229235844E-01
1.32500000000E+09 -2.33172643438E-01 +8.96125027549E-01 -1.43964011481E-04 +1.12104861035E-04 -2.51821334559E-04 +1.43313757241E-04 -4.19920423296E-01 +8.58727716751E-01
1.33000000000E+09 -2.27004215561E-01 +8.96264746637E-01 -1.59375721834E-04 +1.52200178433E-04 -1.82542732685E-04 +1.72125945909E-04 -4.10122719381E-01 +8.62053897972E-01
1.33500000000E+09 -2.19014694559E-01 +8.95990230728E-01 -1.36392038942E-04 +2.26745128370E-04 -1.31344728957E-04 +2.24612711188E-04 -4.00443114780E-01 +8.65442565428E-01
1.34000000000E+09 -2.08407052935E-01 +8.95812218255E-01 -1.60234735864E-04 +2.63119385703E-04 -1.08242421144E-04 +2.50709075005E-04 -3.90134691263E-01 +8.68718772521E-01
1.34500000000E+09 -1.94847666087E-01 +8.95670412799E-01 -4.10365148239E-05 +2.25204467233E-04 -1.01044071815E-04 +3.11903905437E-04 -3.79209508659E-01 +8.71977651216E-01
1.35000000000E+09 -1.78926284032E-01 +8.95715157017E-01 -8.09013943723E-05 +2.37345642319E-04 -7.55170680530E-05 +2.29225989402E-04 -3.68142443213E-01 +8.75001479973E-01
1.35500000000E+09 -1.61377229699E-01 +8.96104663593E-01 -8.73382442195E-05 +2.86908639630E-04 -7.28909450833E-05 +2.44639541259E-04 -3.56480136764E-01 +8.78099104335E-01
1.36000000000E+09 -1.43793332708E-01 +8.96532389050E-01 -1.06862518656E-04 +3.22996661603E-04 -7.00393175814E-05 +3.10259996389E-04 -3.44666057725E-01 +8.80739444770E-01
1.36500000000E+09 -1.27274850267E-01 +8.97186256286E-01 -4.19921874225E-05 +3.39201098418E-04 -3.50723380148E-05 +3.30612106376E-04 -3.32504724293E-01 +8.83229813505E-01
1.37000000000E+09 -1.12598503839E-01 +8.97343843310E-01 -1.10722687651E-05 +4.07112009263E-04 -3.72764165643E-05 +3.39882303306E-04 -3.19706853722E-01 +8.85519191044E-01
1.37500000000E+09 -1.00099796450E-01 +8.97441155600E-01 +2.56142838470E-05 +4.73052067029E-04 -3.49928037407E-05 +4.86497165053E-04 -3.05938417796E-01 +8.87917514272E-01
1.38000000000E+09 -8.94613590008E-02 +8.97004919016E-01 +1.88406652241E-04 +5.19880519510E-04 +1.31946214359E-04 +5.28802538603E-04 -2.91262882860E-01 +8.89981688897E-01
1.38500000000E+09 -7.89045185308E-02 +8.96234315354E-01 +2.85285175586E-04 +4.19967788594E-04 +2.59101870869E-04 +5.08074502324E-04 -2.75848825031E-01 +8.91967958717E-01
1.39000000000E+09 -6.74936997197E-02 +8.94539899151E-01 +2.82157371369E-04 +3.70618899702E-04 +3.40212495127E-04 +4.42311669724E-04 -2.59759581136E-01 +8.93467302398E-01
1.39500000000E+09 -5.40900717929E-02 +8.91892908371E-01 +3.31082158694E-04 +4.06797135870E-04 +3.79641499916E-04 +3.83655940086E-04 -2.42906059775E-01 +8.94306982460E-01
1.40000000000E+09 -3.75996129303E-02 +8.88070135314E-01 +4.34750094413E-04 +3.86728292045E-04 +4.40941300127E-04 +3.37883760343E-04 -2.25258350883E-01 +8.94891261623E-01
1.40500000000E+09 -1.84300993150E-02 +8.83431186798E-01 +4.59799829362E-04 +3.06000582043E-04 +4.74363768265E-04 +2.34223381514E-04 -2.06474727089E-01 +8.94806396509E-01
1.41000000000E+09 +3.25248693081E-03 +8.77765742034E-01 +4.81660153584E-04 +2.32447505946E-04 +5.46500079630E-04 +2.80507146806E-04 -1.86208501514E-01 +8.94080694417E-01
1.41500000000E+09 +2.62969778742E-02 +8.71380527758E-01 +5.77618511616E-04 +1.58194417797E-04 +5.94923151110E-04 +2.09954588049E-04 -1.64520687379E-01 +8.92451394977E-01
1.42000000000E+09 +4.97274313535E-02 +8.64740221612E-01 +5.76312191094E-04 +1.52172197250E-04 +6.14904379559E-04 +1.16477899245E-04 -1.41515207419E-01 +8.89741195722E-01
1.42500000000E+09 +7.24849549189E-02 +8.57397297723E-01 +6.20299092790E-04 +1.08610891341E-04 +6.81549945075E-04 +9.56508958454E-05 -1.18047645368E-01 +8.86232116825E-01
1.43000000000E+09 +9.41451696496E-02 +8.49307477424E-01 +6.92813304942E-04 +5.85763050848E-05 +7.91721073419E-04 +2.61072970455E-05 -9.30735311796E-02 +8.81520917639E-01
1.43500000000E+09 +1.14833192795E-01 +8.39935958982E-01 +7.37205418960E-04 -4.95106002535E-05 +8.25672188060E-04 -1.20967546310E-04 -6.65775780426E-02 +8.75035042537E-01
1.44000000000E+09 +1.35048907585E-01 +8.29314326743E-01 +7.91111969483E-04 -2.48537804721E-04 +7.56871338541E-04 -2.97993114707E-04 -3.82390148109E-02 +8.66086927199E-01
1.44500000000E+09 +1.56925284744E-01 +8.16017440975E-01 +5.85699768210E-04 -3.00004708382E-04 +5.91631836419E-04 -3.77742849617E-04 -8.39235640318E-03 +8.54741160536E-01
1.45000000000E+09 +1.80840149719E-01 +7.99236387590E-01 +5.81591488272E-04 -1.80578090605E-04 +5.86088187152E-04 -2.10399829527E-04 +2.36190429568E-02 +8.40380409788E-01
1.45500000000E+09 +2.07105863626E-01 +7.78067772948E-01 +7.89770451346E-04 -1.87020260735E-04 +7.65671743074E-04 -2.26576111612E-04 +5.71868070935E-02 +8.22960566261E-01
1.46000000000E+09 +2.36880904320E-01 +7.52041144301E-01 +9.16569440407E-04 -4.32007811071E-04 +8.12940347564E-04 -4.93408721988E-04 +9.23184769260E-02 +8.01059334968E-01
1.46500000000E+09 +2.68776237882E-01 +7.20662930305E-01 +8.18216983877E-04 -5.83098137526E-04 +7.24219612909E-04 -6.19369934428E-04 +1.28272567725E-01 +7.74313655581E-01
1.47000000000E+09 +3.01683155513E-01 +6.83610990384E-01 +9.09203166613E-04 -4.64473734212E-04 +8.32582839725E-04 -4.63294931639E-04 +1.65699945667E-01 +7.40855772274E-01
1.47500000000E+09 +3.34175900172E-01 +6.41010030581E-01 +1.20443255280E-03 -7.73671448373E-04 +1.18930623496E-03 -6.76925378345E-04 +2.03408558648E-01 +7.00031380166E-01
1.48000000000E+09 +3.64208300502E-01 +5.92102569072E-01 +1.32909547976E-03 -1.15137128725E-03 +1.40771271198E-03 -1.09880923559E-03 +2.40773358034E-01 +6.50227545706E-01
1.48500000000E+09 +3.89236643875E-01 +5.36812770396E-01 +1.39321038957E-03 -1.77376090934E-03 +1.42553789528E-03 -1.88510744226E-03 +2.75368634145E-01 +5.90447166253E-01
1.49000000000E+09 +4.08061381447E-01 +4.74705390186E-01 +7.92262146679E-04 -2.43175053463E-03 +6.46403822886E-04 -2.46664497622E-03 +3.03368594326E-01 +5.20267839198E-01
1.49500000000E+09 +4.18819056259E-01 +4.04829083234E-01 +6.49402355316E-04 -2.41013617627E-03 +5.17470131727E-04 -2.30413075143E-03 +3.22340586064E-01 +4.40359264641E-01
1.50000000000E+09 +4.18860023835E-01 +3.25664763498E-01 +5.68809524539E-04 -3.43912030538E-03 +5.21740529192E-04 -3.22899315781E-03 +3.28321089389E-01 +3.49687387419E-01
1.50500000000E+09 +4.04637480197E-01 +2.38512605762E-01 -6.77798555050E-04 -4.22053973814E-03 -5.19623419734E-04 -4.12100551850E-03 +3.15812988484E-01 +2.51537970778E-01
1.51000000000E+09 +3.72942144113E-01 +1.46306948303E-01 -2.33284631896E-03 -4.63988974587E-03 -2.13386957841E-03 -4.66425981611E-03 +2.82041579412E-01 +1.51093397539E-01
1.51500000000E+09 +3.21989679475E-01 +5.42937643101E-02 -4.53887023631E-03 -4.06419560881E-03 -4.47766486155E-03 -4.14389726495E-03 +2.27449113942E-01 +5.36370002865E-02
1.52000000000E+09 +2.50198475700E-01 -3.01715764765E-02 -5.89997402450E-03 -1.73095332404E-03 -5.97643616671E-03 -1.79733609654E-03 +1.49434540848E-01 -3.30442567762E-02
1.52500000000E+09 +1.61615631584E-01 -9.96030968520E-02 -5.35718402451E-03 -1.79633093397E-04 -5.39451422457E-03 -2.14775631453E-04 +5.35870792719E-02 -1.00071653036E-01
1.53000000000E+09 +5.84908279160E-02 -1.49452466112E-01 -5.81221829369E-03 +5.82603027381E-04 -5.84301812795E-03 +5.65453157851E-04 -5.32235394684E-02 -1.45106951849E-01
1.53500000000E+09 -5.34726596677E-02 -1.72344704409E-01 -6.04468906594E-03 +2.90884237662E-03 -6.05981480107E-03 +2.88793369768E-03 -1.65996986954E-01 -1.65182090375E-01
1.54000000000E+09 -1.64537859726E-01 -1.67624472372E-01 -4.55954085845E-03 +4.56426804655E-03 -4.56139139841E-03 +4.51015641016E-03 -2.74772737005E-01 -1.60458444135E-01
1.54500000000E+09 -2.68284598113E-01 -1.40066232678E-01 -2.96489771446E-03 +5.95793941458E-03 -3.01824364252E-03 +5.78954729802E-03 -3.73353660087E-01 -1.37158580244E-01
1.55000000000E+09 -3.60819273120E-01 -9.43702026770E-02 -7.83135807040E-04 +5.89166970638E-03 -9.93112956500E-04 +5.87252873488E-03 -4.58843224459E-01 -9.87596450910E-02
1.55500000000E+09 -4.39116046740E-01 -3.66406332458E-02 +4.45556997439E-04 +5.51650535490E-03 +1.92353210786E-04 +5.67693220384E-03 -5.29393335661E-01 -5.10772782371E-02
1.56000000000E+09 -5.01643402381E-01 +2.71581328742E-02 +1.95859511094E-03 +5.35908222019E-03 +1.81956015312E-03 +5.69589338048E-03 -5.85898988026E-01 +2.04455358990E-03
1.56500000000E+09 -5.49396827777E-01 +9.05199229015E-02 +3.55852906319E-03 +4.12168381262E-03 +3.76599810159E-03 +4.44054901043E-03 -6.30537749714E-01 +5.76299883798E-02
1.57000000000E+09 -5.85848958249E-01 +1.51026178588E-01 +4.12379324521E-03 +2.14333655329E-03 +4.41399290754E-03 +2.27759309215E-03 -6.63812963230E-01 +1.12845140502E-01
