# Hz S RI R 50
! CMT, C1220, 16058040, 17.2.0/1
! Date: 14/08/2018 12:12:54
! Data: Format (Calibration Info)
! Freq                      S11: Re/Im (F2)                       S21: Re/Im (F2)                       S12: Re/Im (F2)                       S22: Re/Im (F2)            
1.00000000000E+09 -6.46362620500E-01 +7.14594752272E-01 -4.17012021327E-06 -3.60814862711E-05 +3.05869988414E-05 +1.23096856768E-06 -7.53467111052E-01 +6.25062878902E-01
1.00500000000E+09 -6.39033005054E-01 +7.19670589241E-01 -9.47531111914E-06 -2.47752115987E-05 +2.95745365769E-05 +4.90799601667E-05 -7.49893665327E-01 +6.29101043693E-01
1.01000000000E+09 -6.33277099667E-01 +7.24435939473E-01 -7.23221258941E-05 +1.01376278996E-05 +7.74325546136E-05 +3.67610016865E-05 -7.46319733290E-01 +6.32943104216E-01
1.01500000000E+09 -6.29171793224E-01 +7.28289728767E-01 -5.95577304736E-06 +3.12181184281E-05 -4.54612924448E-06 +3.30245921470E-05 -7.42963549809E-01 +6.36439195974E-01
1.02000000000E+09 -6.26995171985E-01 +7.31182130201E-01 +7.71046911556E-06 +6.65614496401E-05 +4.16024491957E-06 +1.73350196494E-05 -7.39466070009E-01 +6.40260061590E-01
1.02500000000E+09 -6.25958590478E-01 +7.33809034358E-01 -1.35753941055E-05 +1.42742847142E-05 +6.65017892609E-05 +1.85893899127E-05 -7.36726860204E-01 +6.43907546467E-01
1.03000000000E+09 -6.25284598346E-01 +7.35617875774E-01 -3.24886444089E-05 -2.39432930105E-05 -3.12985350479E-06 +1.70356882941E-05 -7.33280339428E-01 +6.47720557139E-01
1.03500000000E+09 -6.23536404366E-01 +7.37872029662E-01 +1.59690327337E-05 +4.65771802669E-05 +8.02816865666E-06 +1.74920777521E-05 -7.29493700269E-01 +6.51695158353E-01
1.04000000000E+09 -6.20420835729E-01 +7.40379892731E-01 +1.91949111635E-05 -1.25763928061E-05 +2.62868112484E-05 +8.58290284852E-06 -7.25662259006E-01 +6.55219066945E-01
1.04500000000E+09 -6.15263447038E-01 +7.43648915269E-01 -8.83321169262E-06 +3.56528886378E-05 -7.05744100567E-05 +4.59862399044E-05 -7.22143571330E-01 +6.58818292411E-01
1.05000000000E+09 -6.07841671403E-01 +7.47714828792E-01 +2.24127586910E-05 -7.31370199763E-06 +4.43105257095E-05 -2.35768972274E-05 -7.18664671142E-01 +6.62254345040E-01
1.05500000000E+09 -5.99031532653E-01 +7.52382348505E-01 +1.76323932234E-05 +3.49029193226E-05 -2.77521680822E-05 +4.32085665883E-05 -7.15447680581E-01 +6.65855887286E-01
1.06000000000E+09 -5.89561310761E-01 +7.57782439291E-01 +1.50397950779E-05 +3.31501445262E-05 +1.52625977968E-05 -7.48492765872E-06 -7.12151338838E-01 +6.69604793614E-01
1.06500000000E+09 -5.80575513292E-01 +7.62932432097E-01 +3.22992568881E-05 +1.31792682600E-05 -7.48005608163E-06 +3.97491963125E-05 -7.08484018891E-01 +6.73309025957E-01
1.07000000000E+09 -5.72679431050E-01 +7.67441493629E-01 +6.07382306535E-06 +3.57743152504E-05 +1.34139419702E-05 +2.20319606739E-06 -7.04430106160E-01 +6.77029640125E-01
1.07500000000E+09 -5.67064920267E-01 +7.71374949656E-01 -2.27956734169E-05 +1.46279065632E-05 +1.90700017689E-05 +2.85318433626E-05 -7.00115697029E-01 +6.80827092589E-01
1.08000000000E+09 -5.63336949144E-01 +7.74570679762E-01 +4.05214029539E-05 -2.49371150321E-05 -7.93062677185E-06 -4.80082505815E-06 -6.96056879585E-01 +6.84517270566E-01
1.08500000000E+09 -5.61121991575E-01 +7.76994415233E-01 +3.01728879736E-05 +2.09247181452E-05 +1.32321776026E-05 +3.00116679044E-05 -6.92133000661E-01 +6.88351680467E-01
1.09000000000E+09 -5.59732504258E-01 +7.79102763722E-01 +2.81752717772E-05 +5.54429198858E-05 +2.02864139130E-05 +2.37297357338E-05 -6.88157951606E-01 +6.92260839759E-01
1.09500000000E+09 -5.58547060107E-01 +7.80650529490E-01 +4.47790813087E-05 +1.80279434961E-05 -2.36236758368E-08 +2.39633500387E-05 -6.84322101568E-01 +6.96119397904E-01
1.10000000000E+09 -5.55808361191E-01 +7.82549816618E-01 +9.96266420214E-06 +1.24877434790E-05 -5.74898790347E-06 +1.71229271929E-05 -6.80443084233E-01 +6.99920042546E-01
1.10500000000E+09 -5.51628675160E-01 +7.84944758690E-01 +6.45099906311E-05 -4.87671658144E-06 -3.70691422707E-05 -3.56017616302E-05 -6.76150282489E-01 +7.03528451903E-01
1.11000000000E+09 -5.45635636546E-01 +7.88223753740E-01 +2.86399537291E-06 -2.73011115536E-05 +4.60083847695E-05 -2.43476208475E-05 -6.71975851526E-01 +7.06817339124E-01
1.11500000000E+09 -5.37963923770E-01 +7.92031645051E-01 +3.29387004423E-05 +3.59166969335E-05 +1.33752642445E-05 -2.93272852478E-05 -6.67773213615E-01 +7.10303390883E-01
1.12000000000E+09 -5.29701334743E-01 +7.96013296516E-01 +1.76014280356E-05 -7.99990643232E-06 +9.74239611065E-06 +1.02315933161E-05 -6.63753494186E-01 +7.13874732175E-01
1.12500000000E+09 -5.21304373523E-01 +8.00273918234E-01 +9.45832355550E-06 -8.13370693722E-06 +2.69233435990E-05 +3.15135746743E-06 -6.59456687759E-01 +7.17949399719E-01
1.13000000000E+09 -5.13867353976E-01 +8.04268157313E-01 +4.39376501337E-05 -8.78127173691E-06 +4.23081953836E-05 +2.65240339224E-05 -6.55362396998E-01 +7.21692331285E-01
1.13500000000E+09 -5.07875266015E-01 +8.07314608639E-01 +1.58857069841E-05 +2.23600466878E-05 -2.79850779770E-06 -2.08922364466E-05 -6.50700848805E-01 +7.25545084512E-01
1.14000000000E+09 -5.03084359654E-01 +8.10179526302E-01 +3.63625172771E-05 -3.98016615066E-05 +3.97128690690E-06 -2.86680996891E-05 -6.45977621567E-01 +7.28946755349E-01
1.14500000000E+09 -4.99655862379E-01 +8.11910224108E-01 +6.52795313397E-06 -2.87849245426E-05 -2.46546029442E-05 -4.97547621058E-05 -6.41321810010E-01 +7.32338409186E-01
1.15000000000E+09 -4.96696782784E-01 +8.13542738639E-01 +3.57397166493E-05 -3.10904600055E-05 +6.38950801685E-05 -5.29149830069E-06 -6.36739879674E-01 +7.35973922756E-01
1.15500000000E+09 -4.93639986592E-01 +8.15164344367E-01 -2.72400018186E-05 -8.06194980277E-05 -3.60604606265E-06 -2.06961665199E-05 -6.31909655073E-01 +7.39933245500E-01
1.16000000000E+09 -4.89308149138E-01 +8.16940070350E-01 +2.06454381441E-05 -8.38464896340E-05 +3.75939063578E-05 +5.07274617145E-06 -6.27176431688E-01 +7.43729820539E-01
1.16500000000E+09 -4.83743275811E-01 +8.19567749303E-01 +1.98193506369E-05 -3.62891625022E-06 +4.71695035785E-05 -1.46872288310E-05 -6.21992026111E-01 +7.47411350626E-01
1.17000000000E+09 -4.76657154569E-01 +8.22351004492E-01 -1.57079139960E-05 +1.37675209092E-06 +3.20771751762E-05 -3.87696985520E-05 -6.16565756817E-01 +7.50694913644E-01
1.17500000000E+09 -4.68496965662E-01 +8.25760847802E-01 +4.50046714147E-05 -2.55222719429E-05 -1.03384245261E-05 -9.15827954195E-06 -6.10899315830E-01 +7.54045749749E-01
1.18000000000E+09 -4.60056807796E-01 +8.29226259853E-01 +3.08633794567E-05 -6.13758250931E-05 +6.66786214071E-05 -5.16191078287E-05 -6.05361176489E-01 +7.57005173929E-01
1.18500000000E+09 -4.51663555153E-01 +8.32689977004E-01 +1.94933930967E-05 -6.23936283619E-05 +2.48209414590E-05 -5.94915376396E-05 -5.99209373850E-01 +7.60128051822E-01
1.19000000000E+09 -4.44502417993E-01 +8.35400357825E-01 +5.63116217909E-05 -3.53258495005E-05 +4.31160864495E-05 -4.60420708369E-05 -5.93061357635E-01 +7.62682161353E-01
1.19500000000E+09 -4.38672547412E-01 +8.37704332369E-01 +3.25229000505E-05 -7.24478726031E-05 +6.63983025223E-05 -7.51089479533E-05 -5.87329640457E-01 +7.63933484047E-01
1.20000000000E+09 -4.34180376608E-01 +8.38730687729E-01 -9.76999840117E-06 -9.02582519826E-05 +1.48538628810E-06 -1.25126938004E-04 -5.82703381532E-01 +7.64275968746E-01
1.20500000000E+09 -4.30377847320E-01 +8.39988488310E-01 -4.99386584631E-05 -6.89235292212E-05 -6.58257775638E-05 -4.25803425058E-05 -5.80551609173E-01 +7.65073917292E-01
1.21000000000E+09 -4.26332750565E-01 +8.41234214174E-01 -2.55428350705E-05 -2.67485000457E-05 +1.38464659374E-05 -5.17414004756E-05 -5.78596913346E-01 +7.68150279326E-01
1.21500000000E+09 -4.21201110862E-01 +8.42649761938E-01 +5.05855753822E-06 -2.58713462416E-05 -7.27932993752E-05 -5.52191725803E-06 -5.75844166330E-01 +7.72726458334E-01
1.22000000000E+09 -4.14120019995E-01 +8.44370623791E-01 -1.35401445861E-05 -1.67019070633E-05 -3.71325531957E-05 -2.32354345157E-05 -5.71628823241E-01 +7.78024090412E-01
1.22500000000E+09 -4.05326891406E-01 +8.46984881210E-01 +2.04334304723E-05 -5.54428665235E-05 +3.82419064394E-05 -5.24129882902E-05 -5.66455069127E-01 +7.83081541324E-01
1.23000000000E+09 -3.94723259408E-01 +8.50056915818E-01 +2.11588152663E-05 -3.48063517799E-05 -1.64806343995E-05 -6.51891468609E-05 -5.60805434166E-01 +7.87715721446E-01
1.23500000000E+09 -3.83739983557E-01 +8.53556697885E-01 +1.77686161243E-05 -6.43652574390E-05 +5.84004837838E-06 -4.31789377414E-05 -5.54937146877E-01 +7.92158607256E-01
1.24000000000E+09 -3.72583520833E-01 +8.57479392577E-01 +5.06769015674E-05 -6.14796528378E-05 -1.37654259902E-05 -3.82005078336E-05 -5.48898206992E-01 +7.95959032197E-01
1.24500000000E+09 -3.62662765656E-01 +8.61451588975E-01 -1.62638182651E-05 -7.30970957013E-05 -2.10206496127E-05 -1.34841360567E-04 -5.42663605526E-01 +7.99929213792E-01
1.25000000000E+09 -3.54017321200E-01 +8.64873404087E-01 -9.15109091370E-05 -1.32518091300E-04 -7.90699813128E-05 -9.33858897909E-05 -5.36062874978E-01 +8.04050428629E-01
1.25500000000E+09 -3.47311729792E-01 +8.67336985620E-01 -5.33247833852E-05 -8.08787123525E-05 -2.37150677893E-05 -1.12312372366E-04 -5.29218149741E-01 +8.08079280249E-01
1.26000000000E+09 -3.42101602059E-01 +8.69470301577E-01 -4.34208936160E-05 -8.15286839125E-05 -9.75582772962E-05 -9.45279755626E-05 -5.22436550847E-01 +8.12264439070E-01
1.26500000000E+09 -3.37793826873E-01 +8.70894550013E-01 -5.57921558843E-05 -9.76714712285E-05 -1.26619727897E-04 -7.40260942454E-05 -5.15366643598E-01 +8.16275971046E-01
1.27000000000E+09 -3.33282742776E-01 +8.72158518457E-01 -9.40481603813E-05 -8.22843693343E-05 -1.01218512185E-04 -6.19418900081E-05 -5.08654377890E-01 +8.20070842650E-01
1.27500000000E+09 -3.27617589978E-01 +8.73262207517E-01 -1.40452737895E-04 -4.13276795824E-05 -6.02653326689E-05 -4.77370491738E-05 -5.01720392822E-01 +8.23705605295E-01
1.28000000000E+09 -3.19720973143E-01 +8.74869132922E-01 -1.93263521502E-04 -1.83234173238E-05 -1.19827225041E-04 -7.64574450802E-05 -4.94549994695E-01 +8.27161206242E-01
1.28500000000E+09 -3.09658280342E-01 +8.77039616127E-01 -1.25124687973E-04 -4.81998319888E-05 -1.82383369798E-04 -3.80452582952E-05 -4.87148877681E-01 +8.30867784550E-01
1.29000000000E+09 -2.97920829125E-01 +8.79716985065E-01 -1.65966169066E-04 -4.30230811124E-05 -1.79666554805E-04 -2.41241780025E-05 -4.79641957586E-01 +8.34514273650E-01
1.29500000000E+09 -2.85192185675E-01 +8.82877602332E-01 -1.71506688167E-04 -1.81522322142E-06 -2.04450716131E-04 -4.52636368281E-05 -4.71751875143E-01 +8.38190104004E-01
1.30000000000E+09 -2.72424279182E-01 +8.86188247582E-01 -1.91114724824E-04 +8.72562224043E-06 -1.80354133164E-04 +3.69462964246E-05 -4.63928335862E-01 +8.41781825490E-01
1.30500000000E+09 -2.60543660814E-01 +8.89419764819E-01 -2.11628539463E-04 +3.03850457281E-05 -2.02596025687E-04 +3.93050893680E-05 -4.55716992254E-01 +8.45106460568E-01
1.31000000000E+09 -2.50724879377E-01 +8.91749363465E-01 -1.66014304988E-04 +9.64024575929E-05 -1.84769212376E-04 +8.94410567833E-05 -4.47591787369E-01 +8.48663720588E-01
1.31500000000E+09 -2.43042397725E-01 +8.93599265918E-01 -1.80141844603E-04 +1.17917755476E-04 -1.76009004656E-04 +1.25603616528E-04 -4.38664886752E-01 +8.52057870069E-01
1.32000000000E+09 -2.36991613246E-01 +8.94754716703E-01 -1.13475807321E-04 +1.08982220095E-04 -1.24594290255E-04 +9.00742079100E-05 -4.29521179301E-01 +8.55391063055E-01
1.32500000000E+09 -2.31668395136E-01 +8.95214067974E-01 -1.65455079136E-04 +1.35146180876E-04 -1.64086504121E-04 +1.36824447704E-04 -4.19854308871E-01 +8.58921041197E-01
1.33000000000E+09 -2.25614696839E-01 +8.95218159201E-01 -2.08461946821E-04 +1.69060188092E-04 -1.54138361189E-04 +1.61802919195E-04 -4.10169557473E-01 +8.62309792096E-01
1.33500000000E+09 -2.17664083656E-01 +8.94800972433E-01 -1.74082411120E-04 +2.19229393076E-04 -1.14319838934E-04 +2.58569151089E-04 -4.00342765839E-01 +8.65508965394E-01
1.34000000000E+09 -2.07078565613E-01 +8.94488492039E-01 -1.46196362332E-04 +2.81124707843E-04 -1.51593351605E-04 +2.19585653844E-04 -3.89996749564E-01 +8.68859334859E-01
1.34500000000E+09 -1.93452842267E-01 +8.94350741540E-01 -9.11363681603E-05 +2.58582593143E-04 -7.05342659814E-05 +2.58603130099E-04 -3.79044247721E-01 +8.72289090550E-01
1.35000000000E+09 -1.77607861539E-01 +8.94279317377E-01 -1.00917465146E-04 +2.90516663502E-04 -6.19677039146E-05 +2.61589733142E-04 -3.67984951066E-01 +8.75372720452E-01
1.35500000000E+09 -1.60164599639E-01 +8.94483319913E-01 -4.34734067148E-05 +3.05814770298E-04 -4.32486192008E-05 +2.87382296366E-04 -3.56465588551E-01 +8.78233992481E-01
1.36000000000E+09 -1.42678740618E-01 +8.94865779022E-01 -5.99737469831E-05 +3.14935065562E-04 -3.92604010719E-05 +2.94997349799E-04 -3.44489015620E-01 +8.80983977239E-01
1.36500000000E+09 -1.26258319872E-01 +8.95411468663E-01 -2.55942290769E-05 +3.69391362429E-04 +1.63598288950E-05 +3.26446314631E-04 -3.32384354635E-01 +8.83612084523E-01
1.37000000000E+09 -1.11785778142E-01 +8.95637951954E-01 +1.34476014495E-05 +3.57238154536E-04 -2.29139210395E-05 +3.52365537967E-04 -3.19441569758E-01 +8.85840046170E-01
1.37500000000E+09 -9.94499478590E-02 +8.95657589724E-01 +2.41901485665E-05 +4.49085425419E-04 +1.04452152751E-05 +4.78169747845E-04 -3.05637047094E-01 +8.88207357737E-01
1.38000000000E+09 -8.89263116994E-02 +8.95313200183E-01 +1.71654083532E-04 +4.64849654369E-04 +1.59611438120E-04 +5.13821376642E-04 -2.90975546862E-01 +8.90302017174E-01
1.38500000000E+09 -7.85676004819E-02 +8.94395023558E-01 +3.13328649632E-04 +4.43850438805E-04 +2.84222278300E-04 +5.09058745760E-04 -2.75396826496E-01 +8.92304382543E-01
1.39000000000E+09 -6.74931033055E-02 +8.92555000435E-01 +3.50052088042E-04 +3.98602483628E-04 +3.91105959919E-04 +4.23693078498E-04 -2.59253570574E-01 +8.93790233815E-01
1.39500000000E+09 -5.42666516781E-02 +8.89981881369E-01 +4.08747751097E-04 +3.84249671499E-04 +4.75305452170E-04 +4.13350982505E-04 -2.42420613799E-01 +8.94580671929E-01
1.40000000000E+09 -3.78606465353E-02 +8.86157677341E-01 +5.07379756659E-04 +3.25598054883E-04 +5.66875170439E-04 +2.97311767240E-04 -2.24708824803E-01 +8.94987298871E-01
1.40500000000E+09 -1.89033436195E-02 +8.81500617952E-01 +6.00664301340E-04 +2.23034558369E-04 +5.98822041963E-04 +1.53863175318E-04 -2.05750900269E-01 +8.94966413689E-01
1.41000000000E+09 +2.57881494633E-03 +8.75946077325E-01 +5.60347928958E-04 +1.00361823587E-04 +5.57757818528E-04 +1.36942294982E-04 -1.85350510486E-01 +8.94307158981E-01
1.41500000000E+09 +2.55574777331E-02 +8.69617599422E-01 +5.22827013110E-04 +7.41619832881E-05 +5.61994740245E-04 +1.01199520011E-04 -1.63473304894E-01 +8.92645746816E-01
1.42000000000E+09 +4.87053356685E-02 +8.63050276981E-01 +5.99546830296E-04 +4.88296924581E-05 +6.43245990762E-04 +5.17356560062E-05 -1.40491046302E-01 +8.89782314811E-01
1.42500000000E+09 +7.12986970159E-02 +8.55977833305E-01 +6.50340663751E-04 -3.46764565259E-06 +7.58095834427E-04 -7.13196048678E-05 -1.16785465627E-01 +8.86197556445E-01
1.43000000000E+09 +9.26138816577E-02 +8.48053282208E-01 +6.92765559982E-04 -1.11986783592E-04 +7.00988663083E-04 -2.21534362219E-04 -9.17000273810E-02 +8.81287933234E-01
1.43500000000E+09 +1.12898948576E-01 +8.38828818579E-01 +7.28850777279E-04 -1.78541144604E-04 +7.33128921812E-04 -2.42669054999E-04 -6.50373166421E-02 +8.74386277764E-01
1.44000000000E+09 +1.32846410350E-01 +8.28525653696E-01 +6.91220956887E-04 -3.87509103471E-04 +6.79228324732E-04 -4.62976561877E-04 -3.68722054407E-02 +8.65268962054E-01
1.44500000000E+09 +1.54162678588E-01 +8.15659897397E-01 +5.46455635604E-04 -4.66094457025E-04 +5.10969204534E-04 -5.38615330592E-04 -6.85375783952E-03 +8.53487412551E-01
1.45000000000E+09 +1.77409265307E-01 +7.99053033989E-01 +4.17754524680E-04 -4.20090650610E-04 +3.64678342100E-04 -4.80923921480E-04 +2.50834188452E-02 +8.38707871090E-01
1.45500000000E+09 +2.03394403528E-01 +7.78594905692E-01 +4.50570339960E-04 -4.13517848799E-04 +4.50019965382E-04 -4.62014102515E-04 +5.85336928885E-02 +8.20839744976E-01
1.46000000000E+09 +2.32813096071E-01 +7.53251149173E-01 +4.65750062561E-04 -4.19541158434E-04 +4.35819467748E-04 -4.42763358710E-04 +9.33545078962E-02 +7.98192260836E-01
1.46500000000E+09 +2.64350208209E-01 +7.22657527818E-01 +5.87515579770E-04 -3.81511086095E-04 +4.80984785121E-04 -4.31192531991E-04 +1.28849412223E-01 +7.71038737662E-01
1.47000000000E+09 +2.97139141438E-01 +6.86710863696E-01 +8.57961491555E-04 -4.86387202434E-04 +7.58328119466E-04 -4.66158838709E-04 +1.65310020242E-01 +7.37398156187E-01
1.47500000000E+09 +3.29610310677E-01 +6.45229368613E-01 +9.31537096474E-04 -9.69876316228E-04 +8.62198546608E-04 -9.18558262799E-04 +2.02473268177E-01 +6.96661988266E-01
1.48000000000E+09 +3.59714407122E-01 +5.97895640360E-01 +7.53130712133E-04 -1.12481884877E-03 +7.84509257547E-04 -1.14240424103E-03 +2.39002789879E-01 +6.46643560310E-01
1.48500000000E+09 +3.85493498473E-01 +5.44390390878E-01 +8.46234402336E-04 -1.46353671403E-03 +8.59641513734E-04 -1.52824850390E-03 +2.72608999776E-01 +5.87406288754E-01
1.49000000000E+09 +4.05095940147E-01 +4.84025696050E-01 +3.67968028900E-04 -2.01406725237E-03 +2.45238345777E-04 -1.99207145275E-03 +3.00069725855E-01 +5.17346650964E-01
1.49500000000E+09 +4.17383446728E-01 +4.16433170139E-01 +3.23514370507E-04 -2.00357125821E-03 +2.25606199347E-04 -1.89896926879E-03 +3.17714783256E-01 +4.38316091535E-01
1.50000000000E+09 +4.20165413942E-01 +3.38951711087E-01 +1.73581905782E-04 -2.73979118117E-03 +1.71819559601E-04 -2.60214204657E-03 +3.23070114237E-01 +3.48899278330E-01
1.50500000000E+09 +4.09174857699E-01 +2.52872632556E-01 -8.82217866557E-04 -3.61870496861E-03 -7.43663073645E-04 -3.48782467458E-03 +3.10429706879E-01 +2.51963459992E-01
1.51000000000E+09 +3.81494705719E-01 +1.60789106694E-01 -2.57460146979E-03 -3.63001252286E-03 -2.35390899788E-03 -3.71804588548E-03 +2.76790643476E-01 +1.52902049262E-01
1.51500000000E+09 +3.34975782456E-01 +6.76389121338E-02 -4.12564648223E-03 -2.86248499270E-03 -4.01149020622E-03 -3.02050060691E-03 +2.22549509898E-01 +5.67183443526E-02
1.52000000000E+09 +2.67335370989E-01 -2.04594072289E-02 -5.08515744454E-03 -9.74849662439E-04 -5.14814714784E-03 -1.12135002225E-03 +1.45320534124E-01 -2.87104244327E-02
1.52500000000E+09 +1.80831400551E-01 -9.39264802415E-02 -4.74280129252E-03 +5.13858421791E-04 -4.83281108267E-03 +4.71593521699E-04 +5.07734504209E-02 -9.46486729960E-02
1.53000000000E+09 +7.93864397637E-02 -1.47998541553E-01 -4.61226360015E-03 +1.41700641339E-03 -4.66103758064E-03 +1.44451168197E-03 -5.46170442970E-02 -1.39169016800E-01
1.53500000000E+09 -3.25075385375E-02 -1.76595168342E-01 -4.13826344025E-03 +2.85138471295E-03 -4.14009022626E-03 +2.86654693103E-03 -1.65751087507E-01 -1.58470588109E-01
1.54000000000E+09 -1.46040393465E-01 -1.76483364669E-01 -3.43508161734E-03 +3.49722498277E-03 -3.44947338702E-03 +3.49859301894E-03 -2.71988888734E-01 -1.54621293687E-01
1.54500000000E+09 -2.52921202192E-01 -1.52030595689E-01 -2.55950978575E-03 +5.09347760142E-03 -2.64360084235E-03 +5.00334121636E-03 -3.69736324692E-01 -1.32996828839E-01
1.55000000000E+09 -3.49673663549E-01 -1.08027862665E-01 -2.84747105327E-04 +5.58054090952E-03 -5.24955469084E-04 +5.58321687074E-03 -4.54772599751E-01 -9.56701032347E-02
1.55500000000E+09 -4.31004969791E-01 -5.04276854680E-02 +1.34243672682E-03 +4.78019030970E-03 +1.14191881138E-03 +4.96225265352E-03 -5.24899471599E-01 -4.92525238215E-02
1.56000000000E+09 -4.96227735442E-01 +1.32100923410E-02 +2.20272392105E-03 +4.04887204892E-03 +2.12445800560E-03 +4.30452103305E-03 -5.81927921967E-01 +3.02115014498E-03
1.56500000000E+09 -5.46737416217E-01 +7.67010178195E-02 +3.22845463474E-03 +3.02367395675E-03 +3.38281229122E-03 +3.28675668689E-03 -6.26204943779E-01 +5.80155101252E-02
1.57000000000E+09 -5.85772245169E-01 +1.38216048045E-01 +3.58770312558E-03 +1.43933269452E-03 +3.83054580271E-03 +1.52023271838E-03 -6.59536005334E-01 +1.12036276165E-01
