# Hz S RI R 50
! CMT, C1220, 16058040, 17.2.0/1
! Date: 14/08/2018 12:17:14
! Data: Format (Calibration Info)
! Freq                      S11: Re/Im (F2)                       S21: Re/Im (F2)                       S12: Re/Im (F2)                       S22: Re/Im (F2)            
1.00000000000E+09 -6.48737534298E-01 +7.14515525756E-01 +2.47540181236E-05 -2.76009389804E-05 +1.71315842681E-05 -1.50520938418E-05 -7.53629565463E-01 +6.24697165847E-01
1.00500000000E+09 -6.41394450109E-01 +7.19534073889E-01 +3.69089318660E-05 +3.40392424531E-05 -5.44616276274E-05 +3.52622199571E-06 -7.49947604399E-01 +6.28683200820E-01
1.01000000000E+09 -6.35687702848E-01 +7.24155646490E-01 -3.17670412078E-05 +8.42557849953E-06 -3.92176989784E-05 +2.09730762780E-05 -7.46604006933E-01 +6.32422782867E-01
1.01500000000E+09 -6.31860150681E-01 +7.27996997108E-01 +3.14317215928E-05 -1.21489413271E-05 +2.04395144674E-05 +1.44129118471E-05 -7.43359820818E-01 +6.36248533331E-01
1.02000000000E+09 -6.29623387791E-01 +7.31050504741E-01 -1.40066745934E-05 +4.78566251659E-06 -2.25927086008E-05 +3.74448801925E-05 -7.39638283054E-01 +6.39777414041E-01
1.02500000000E+09 -6.28575868909E-01 +7.33371089951E-01 +6.50185571823E-05 -4.99131118167E-05 +9.84868634066E-06 +2.95703779816E-05 -7.36879236651E-01 +6.43385684109E-01
1.03000000000E+09 -6.27827792120E-01 +7.35524216820E-01 -3.65647312550E-05 +6.59461337899E-06 -5.65855742729E-05 +4.44570249416E-05 -7.33376562429E-01 +6.47382683576E-01
1.03500000000E+09 -6.26074548953E-01 +7.37608596734E-01 -3.44529560294E-05 +2.88939498614E-05 -3.64034129472E-05 +1.85711734958E-05 -7.29659232786E-01 +6.51254661666E-01
1.04000000000E+09 -6.22764921388E-01 +7.40141577458E-01 -1.44117841578E-05 +1.96777010195E-05 -3.88709938115E-05 +2.53095791444E-05 -7.26008745149E-01 +6.54919383389E-01
1.04500000000E+09 -6.17739657151E-01 +7.43485970383E-01 +7.21055314838E-06 +2.61304104812E-05 +3.94068331732E-05 +1.23090897912E-05 -7.22456386120E-01 +6.58468098834E-01
1.05000000000E+09 -6.10593439161E-01 +7.47647986352E-01 +3.67155448517E-06 -1.21622091591E-05 -3.50901205943E-05 +6.35571397272E-05 -7.18939589428E-01 +6.61897917258E-01
1.05500000000E+09 -6.01801150676E-01 +7.52327087502E-01 +3.30687119006E-06 +4.92263337128E-05 -6.08211757585E-07 +6.20775028545E-05 -7.15747047923E-01 +6.65489443976E-01
1.06000000000E+09 -5.92585479122E-01 +7.57704467539E-01 -1.53524369518E-05 +2.91231018958E-05 +2.79675698941E-05 +6.41459223789E-05 -7.12551354720E-01 +6.69257467719E-01
1.06500000000E+09 -5.83745692808E-01 +7.62843879657E-01 -2.12473656275E-05 +2.38194850507E-05 +1.79896154910E-05 +7.33903920709E-05 -7.08623944045E-01 +6.73032765805E-01
1.07000000000E+09 -5.76091698810E-01 +7.67362607134E-01 -1.24173627218E-05 +1.73936593409E-05 -1.00771804198E-05 +2.92527726596E-05 -7.04680005829E-01 +6.76861983952E-01
1.07500000000E+09 -5.70425443344E-01 +7.71411474170E-01 +2.47095166767E-05 +9.36646626176E-05 +1.56863224825E-05 -8.32799686139E-07 -7.00403956014E-01 +6.80490268533E-01
1.08000000000E+09 -5.66733218405E-01 +7.74690075175E-01 -2.05900028375E-06 +3.27765337461E-05 +6.39694009923E-05 +6.34387713215E-06 -6.96409782285E-01 +6.84341220532E-01
1.08500000000E+09 -5.64580946550E-01 +7.77102262351E-01 -1.95947275062E-05 +1.87011895737E-05 +6.22975978631E-06 -5.59913296956E-06 -6.92468520972E-01 +6.87900931422E-01
1.09000000000E+09 -5.63154306576E-01 +7.79165803706E-01 +3.29226616652E-06 -1.31802760781E-07 +6.85893214076E-06 +3.55018805375E-06 -6.88554567880E-01 +6.91827635977E-01
1.09500000000E+09 -5.61726590748E-01 +7.80706755311E-01 +2.64757320567E-05 -1.41617438748E-05 +2.59421529461E-05 +4.50613946484E-05 -6.84737623704E-01 +6.95775759389E-01
1.10000000000E+09 -5.59064181214E-01 +7.82554329606E-01 +4.53823792461E-05 +7.02080944958E-06 +2.99004036067E-05 +3.57558496950E-05 -6.80874583483E-01 +6.99569666714E-01
1.10500000000E+09 -5.55014833638E-01 +7.85210207167E-01 +5.37175897374E-05 -1.10317868378E-05 +2.51024304922E-05 -1.74931213797E-05 -6.76456385449E-01 +7.03218603148E-01
1.11000000000E+09 -5.49084788813E-01 +7.88269135400E-01 +4.88110095404E-05 -9.06339167742E-06 +3.64828189976E-05 +3.18235132796E-05 -6.72236847620E-01 +7.06560388476E-01
1.11500000000E+09 -5.41480356026E-01 +7.92195103344E-01 -3.96170556784E-06 +9.52599243151E-07 +6.03669036894E-05 -5.93458142219E-06 -6.68208280979E-01 +7.10035499160E-01
1.12000000000E+09 -5.33323389470E-01 +7.96447446754E-01 +1.02765194875E-05 -9.30566547276E-06 +5.34536835594E-06 +1.66287032682E-05 -6.64084078761E-01 +7.13571917187E-01
1.12500000000E+09 -5.24990460899E-01 +8.00742858241E-01 +4.78418662738E-05 +1.24357752345E-05 +3.21314049360E-05 -2.81393611288E-05 -6.59973659862E-01 +7.17567836770E-01
1.13000000000E+09 -5.17642970398E-01 +8.04717270627E-01 +1.97932938661E-06 -2.07549478169E-05 -1.26804465752E-06 -8.66034586759E-06 -6.55749830820E-01 +7.21288456732E-01
1.13500000000E+09 -5.11550653391E-01 +8.07874832496E-01 +6.29916579548E-05 +1.31995622097E-05 +2.88892731470E-05 -4.21818365000E-05 -6.51113760216E-01 +7.25074835807E-01
1.14000000000E+09 -5.06850993751E-01 +8.10732182562E-01 +1.02519491363E-05 -1.33850818433E-05 -3.63331172516E-05 +1.71451007621E-05 -6.46416484744E-01 +7.28497475118E-01
1.14500000000E+09 -5.03273044554E-01 +8.12634396703E-01 -1.17811235536E-05 -2.28100784976E-05 +1.08132870408E-05 -3.02748493194E-05 -6.41842283517E-01 +7.31900900498E-01
1.15000000000E+09 -5.00241044671E-01 +8.14214125864E-01 +3.63893229228E-05 -3.17907968171E-05 +3.43349860496E-05 -3.95968265081E-05 -6.37031511996E-01 +7.35759895736E-01
1.15500000000E+09 -4.97325471777E-01 +8.15931815040E-01 +3.02050275650E-05 -1.52924238531E-05 +6.55597837067E-06 -2.52074479284E-05 -6.32268875918E-01 +7.39609760346E-01
1.16000000000E+09 -4.93098533858E-01 +8.17701368969E-01 +6.09449016314E-06 -2.71939722722E-06 +5.11941820583E-05 -7.36393145476E-06 -6.27541543768E-01 +7.43383184827E-01
1.16500000000E+09 -4.87597215837E-01 +8.20204888346E-01 -1.30899601359E-05 +1.78649473677E-06 +1.39381695206E-05 +4.95069605361E-06 -6.22340234828E-01 +7.47202505277E-01
1.17000000000E+09 -4.80659194696E-01 +8.23206664585E-01 +2.22332364350E-05 -2.50589162358E-05 +1.91318032258E-05 +1.53855465413E-05 -6.17100451336E-01 +7.50380142214E-01
1.17500000000E+09 -4.72606604559E-01 +8.26600103813E-01 +3.48473300108E-05 -2.30187220894E-06 +4.59163915065E-05 -1.58005655397E-05 -6.11266246572E-01 +7.53705946268E-01
1.18000000000E+09 -4.64232601326E-01 +8.30185582693E-01 +9.58792110319E-06 +7.64960411373E-06 +5.65354607447E-05 +1.03019768234E-05 -6.05712081380E-01 +7.56805677290E-01
1.18500000000E+09 -4.56095267005E-01 +8.33561947492E-01 +1.18179440688E-05 +4.39467465529E-06 +5.74547983289E-06 +4.75114369366E-05 -5.99826256709E-01 +7.59831267543E-01
1.19000000000E+09 -4.48866123289E-01 +8.36477884408E-01 +5.18026945204E-05 -1.18469236198E-05 +1.03960109027E-04 -4.15762629274E-05 -5.93551455463E-01 +7.62479229909E-01
1.19500000000E+09 -4.43150744025E-01 +8.38694861397E-01 +1.27641829882E-04 -6.49333161608E-05 +1.15993698680E-04 -4.76427840358E-05 -5.87728091519E-01 +7.63752835132E-01
1.20000000000E+09 -4.38537500674E-01 +8.39910805108E-01 +4.89509285237E-05 -9.07288510975E-05 +1.61985401195E-05 -8.05601812582E-05 -5.83087654991E-01 +7.63939979710E-01
1.20500000000E+09 -4.34676965838E-01 +8.41286194596E-01 +5.84735998650E-05 -9.81683832299E-05 +6.98923928093E-05 -8.89766857176E-05 -5.80883678171E-01 +7.64699082467E-01
1.21000000000E+09 -4.30754234035E-01 +8.42581056977E-01 +5.86748998836E-05 -1.19983074033E-04 +3.22788294531E-05 -5.13165838649E-05 -5.79027367200E-01 +7.67829445716E-01
1.21500000000E+09 -4.25425925660E-01 +8.44273545423E-01 -1.19230727803E-05 -8.15061853927E-05 +2.05867083910E-05 -6.91257243232E-05 -5.76178580682E-01 +7.72320364024E-01
1.22000000000E+09 -4.18440576586E-01 +8.46073226549E-01 +6.44811029114E-06 -7.69566651495E-05 +2.59992807699E-05 -3.64435637599E-05 -5.72067046242E-01 +7.77739175057E-01
1.22500000000E+09 -4.09740836809E-01 +8.48845310768E-01 +1.95253523916E-05 -5.73839124273E-05 +4.65011641535E-05 -7.12163154149E-05 -5.66901648241E-01 +7.82858822216E-01
1.23000000000E+09 -3.99349271589E-01 +8.51949613624E-01 -6.29858913089E-06 -5.92073852626E-05 +6.70853681991E-06 -4.81251188753E-05 -5.61243636548E-01 +7.87533702178E-01
1.23500000000E+09 -3.88553541682E-01 +8.55604116365E-01 +3.73219829990E-05 -4.47134637305E-05 +3.95816589532E-05 -6.70229261898E-05 -5.55482670118E-01 +7.91917452479E-01
1.24000000000E+09 -3.77578820350E-01 +8.59555290121E-01 +2.82488624900E-05 -9.75002777768E-05 +7.07844499783E-05 -9.12817728138E-05 -5.49416430629E-01 +7.95833566870E-01
1.24500000000E+09 -3.67728218471E-01 +8.63632998286E-01 +4.80444006503E-05 -1.25080955995E-04 +7.81433481636E-06 -1.02226665924E-04 -5.43047372652E-01 +7.99658382857E-01
1.25000000000E+09 -3.59305651087E-01 +8.66910632834E-01 +7.93583038227E-06 -1.50301311023E-04 +1.99406915368E-05 -1.32728902747E-04 -5.36349919392E-01 +8.03912167289E-01
1.25500000000E+09 -3.52673497203E-01 +8.69483375024E-01 -2.21956058592E-05 -1.44678585384E-04 -9.17335691705E-06 -1.73676857778E-04 -5.29665557189E-01 +8.07889878593E-01
1.26000000000E+09 -3.47402050529E-01 +8.71656029117E-01 -6.46907867641E-05 -9.48491097684E-05 -1.63314872854E-05 -1.21505144916E-04 -5.22937928424E-01 +8.12122260403E-01
1.26500000000E+09 -3.43024115364E-01 +8.73152308480E-01 -9.01533797858E-05 -1.08912343590E-04 -3.71049833456E-05 -1.71429995130E-04 -5.15912269983E-01 +8.16014036289E-01
1.27000000000E+09 -3.38350498453E-01 +8.74448965567E-01 -8.30938562976E-05 -1.04372930909E-04 -7.17182946475E-05 -1.42639437928E-04 -5.09004774645E-01 +8.19884962495E-01
1.27500000000E+09 -3.32568279283E-01 +8.75763526673E-01 -1.36242614658E-04 -1.18426009041E-04 -8.95889485714E-05 -1.26079899098E-04 -5.01961470630E-01 +8.23366749667E-01
1.28000000000E+09 -3.24763079473E-01 +8.77533262599E-01 -1.15224998594E-04 -9.96773885639E-05 -8.73587447066E-05 -1.24778270024E-04 -4.94972263099E-01 +8.26913401800E-01
1.28500000000E+09 -3.14679930894E-01 +8.79975026114E-01 -1.24670981987E-04 -9.36344660976E-05 -1.27063935912E-04 -8.90981951439E-05 -4.87469710013E-01 +8.30637047600E-01
1.29000000000E+09 -3.02892160326E-01 +8.82687526014E-01 -1.63222365119E-04 -1.08935812458E-04 -1.84636026134E-04 -4.83780382365E-05 -4.79943615231E-01 +8.34358750042E-01
1.29500000000E+09 -2.90122661964E-01 +8.85896061262E-01 -1.46026105733E-04 -5.79885320519E-05 -1.61409948358E-04 -6.10998094031E-05 -4.72170429526E-01 +8.37910923486E-01
1.30000000000E+09 -2.77402422831E-01 +8.89308160180E-01 -1.87877738929E-04 -7.31832565884E-05 -2.32420163127E-04 -5.35061889017E-05 -4.64264399087E-01 +8.41393456221E-01
1.30500000000E+09 -2.65647065203E-01 +8.92369338723E-01 -2.36915678619E-04 -4.24952598606E-05 -2.07067607815E-04 -9.29228698982E-06 -4.56141850622E-01 +8.44927701726E-01
1.31000000000E+09 -2.55893632408E-01 +8.94851961452E-01 -2.14173018219E-04 +4.36672447547E-05 -2.26633100041E-04 +4.70398905428E-06 -4.47878854213E-01 +8.48239661148E-01
1.31500000000E+09 -2.48211573642E-01 +8.96729025549E-01 -1.65257656174E-04 +7.20173641153E-05 -2.11659292142E-04 +8.70865251257E-05 -4.38938087601E-01 +8.51605976535E-01
1.32000000000E+09 -2.42377808633E-01 +8.97885003475E-01 -1.76020602574E-04 +2.92741296197E-05 -2.37045900133E-04 +7.64705521970E-06 -4.29876352990E-01 +8.55137475088E-01
1.32500000000E+09 -2.36939374393E-01 +8.98390564657E-01 -2.40933575481E-04 -4.06255697097E-06 -2.15951506233E-04 +3.38224244210E-05 -4.20309437699E-01 +8.58527366238E-01
1.33000000000E+09 -2.30806625952E-01 +8.98650648534E-01 -2.47456064840E-04 +3.43676874287E-05 -2.62674589454E-04 +5.43448962066E-05 -4.10658614593E-01 +8.61854828126E-01
1.33500000000E+09 -2.22784914355E-01 +8.98229612471E-01 -2.47664377021E-04 +1.20866849651E-04 -2.41284559406E-04 +1.63511908164E-04 -4.00844976588E-01 +8.65110268734E-01
1.34000000000E+09 -2.12098181093E-01 +8.98233748887E-01 -1.75893384222E-04 +1.74974101665E-04 -1.68662211407E-04 +1.72823269387E-04 -3.90572536074E-01 +8.68490846348E-01
1.34500000000E+09 -1.98584400362E-01 +8.98178409497E-01 -1.57926961275E-04 +1.89690922081E-04 -1.16969859197E-04 +1.66823652178E-04 -3.79666736108E-01 +8.71784544139E-01
1.35000000000E+09 -1.82668330754E-01 +8.98250175098E-01 -2.04864871214E-04 +1.52701440076E-04 -1.75622836938E-04 +1.35797938899E-04 -3.68482127375E-01 +8.74835829820E-01
1.35500000000E+09 -1.65241142277E-01 +8.98771766174E-01 -1.08370464459E-04 +1.57799481003E-04 -1.80967774123E-04 +2.00429265888E-04 -3.56823559903E-01 +8.77754821980E-01
1.36000000000E+09 -1.47796813544E-01 +8.99182021513E-01 -1.63562003135E-04 +1.97045421057E-04 -1.65771042798E-04 +1.68179144935E-04 -3.45074909127E-01 +8.80390797155E-01
1.36500000000E+09 -1.31380790280E-01 +8.99819920194E-01 -2.00586178930E-04 +2.39925449661E-04 -1.81952028364E-04 +2.76807190816E-04 -3.32927668012E-01 +8.82786118456E-01
1.37000000000E+09 -1.16633546326E-01 +9.00087702276E-01 -1.83247860739E-04 +2.76259959914E-04 -1.62090356084E-04 +2.40087669801E-04 -3.20082946094E-01 +8.85198869209E-01
1.37500000000E+09 -1.04407044359E-01 +9.00169356526E-01 -1.84806548287E-04 +4.15326738824E-04 -2.15715688641E-04 +3.62382058371E-04 -3.06373317209E-01 +8.87420188859E-01
1.38000000000E+09 -9.36043156471E-02 +8.99819973582E-01 -8.16157034097E-05 +5.32202109750E-04 -1.39826625390E-04 +4.91397254048E-04 -2.91797497065E-01 +8.89595181379E-01
1.38500000000E+09 -8.29428753208E-02 +8.99039083979E-01 +4.54263200827E-05 +4.58777508992E-04 +4.28720343652E-05 +4.48239364285E-04 -2.76317244568E-01 +8.91557640979E-01
1.39000000000E+09 -7.17714096943E-02 +8.97349169060E-01 +6.08739359588E-05 +4.06483689273E-04 +6.30274116244E-05 +4.69267398125E-04 -2.60235228701E-01 +8.92997457175E-01
1.39500000000E+09 -5.82487685667E-02 +8.94879425018E-01 +6.55833654566E-05 +4.34721040871E-04 +1.03438410164E-04 +5.21422538620E-04 -2.43442370910E-01 +8.93847139993E-01
1.40000000000E+09 -4.17358741636E-02 +8.91324186484E-01 +1.73184163903E-04 +4.51634808928E-04 +2.40174796457E-04 +4.33931840570E-04 -2.25863345338E-01 +8.94342205169E-01
1.40500000000E+09 -2.27000676355E-02 +8.86675342698E-01 +2.15917597897E-04 +3.39141898206E-04 +1.73274012671E-04 +3.38895094249E-04 -2.07177988268E-01 +8.94274210139E-01
1.41000000000E+09 -1.10348556891E-03 +8.81136733361E-01 +2.25596274353E-04 +4.38053939443E-04 +2.41845878544E-04 +4.20125831927E-04 -1.87003468855E-01 +8.93452932580E-01
1.41500000000E+09 +2.16784058755E-02 +8.75050909773E-01 +2.87716056111E-04 +3.90266145397E-04 +2.76163594396E-04 +4.37451269931E-04 -1.65411966819E-01 +8.92146492109E-01
1.42000000000E+09 +4.50004481063E-02 +8.68492583737E-01 +3.61309249182E-04 +3.72131902981E-04 +3.34727915731E-04 +4.38221840765E-04 -1.42504831253E-01 +8.89487054911E-01
1.42500000000E+09 +6.75431273263E-02 +8.61335654871E-01 +3.87642929031E-04 +3.48421845492E-04 +5.07540687367E-04 +3.40743604336E-04 -1.18888598297E-01 +8.86045726277E-01
1.43000000000E+09 +8.92191537595E-02 +8.53434272123E-01 +3.45714076292E-04 +2.45274302615E-04 +3.99618927914E-04 +2.99504592897E-04 -9.40122899783E-02 +8.81335033678E-01
1.43500000000E+09 +1.09861479976E-01 +8.44113230326E-01 +3.38324774559E-04 +2.99066273241E-04 +3.97899325691E-04 +2.99059518071E-04 -6.75527894057E-02 +8.74858896721E-01
1.44000000000E+09 +1.29985402972E-01 +8.33884470481E-01 +4.05803382636E-04 +3.50448579962E-04 +3.99881732739E-04 +2.84918561457E-04 -3.93683561389E-02 +8.66241136658E-01
1.44500000000E+09 +1.51805963207E-01 +8.21055269146E-01 +4.21085791346E-04 +3.65580166248E-04 +3.69578426463E-04 +3.63756520576E-04 -9.21671724048E-03 +8.54682713148E-01
1.45000000000E+09 +1.75554719139E-01 +8.04525244504E-01 +5.29976213033E-04 +4.90263129331E-04 +5.54062146446E-04 +5.06872818349E-04 +2.26308957504E-02 +8.40202572810E-01
1.45500000000E+09 +2.02042824882E-01 +7.83949376083E-01 +6.39048571742E-04 +5.38082730770E-04 +6.39359709764E-04 +4.70363092667E-04 +5.59414274310E-02 +8.22694985876E-01
1.46000000000E+09 +2.31574947062E-01 +7.58541060565E-01 +8.59442228737E-04 +5.16209573482E-04 +8.47469001165E-04 +4.20132801094E-04 +9.08565959598E-02 +8.00848239923E-01
1.46500000000E+09 +2.63295084958E-01 +7.27895727954E-01 +9.47889295346E-04 +5.38870843279E-04 +8.77487044820E-04 +4.34044966884E-04 +1.26750673811E-01 +7.74421461246E-01
1.47000000000E+09 +2.96089447408E-01 +6.91794527038E-01 +1.33484593437E-03 +7.24261619035E-04 +1.20841534236E-03 +6.81139531074E-04 +1.63911820212E-01 +7.41239968102E-01
1.47500000000E+09 +3.28551183461E-01 +6.50107903003E-01 +1.89061407388E-03 +4.26927127079E-04 +1.71504023328E-03 +4.61000340427E-04 +2.01412578705E-01 +7.00609417989E-01
1.48000000000E+09 +3.58588756390E-01 +6.02716419346E-01 +2.20064493402E-03 +1.23018559834E-04 +2.20824329388E-03 +1.74458895961E-04 +2.38568983060E-01 +6.51322750178E-01
1.48500000000E+09 +3.84311527507E-01 +5.48772870923E-01 +2.66755400925E-03 -4.15250875512E-04 +2.74845077044E-03 -5.08756737718E-04 +2.73216011264E-01 +5.92338341795E-01
1.49000000000E+09 +4.04001534743E-01 +4.88283262236E-01 +2.77742029557E-03 -1.29130408347E-03 +2.69023922054E-03 -1.40849117399E-03 +3.01290353060E-01 +5.22608350965E-01
1.49500000000E+09 +4.16812123565E-01 +4.19890097462E-01 +3.01018715018E-03 -1.89020434827E-03 +2.82131545789E-03 -1.89550613876E-03 +3.20529856888E-01 +4.43957117433E-01
1.50000000000E+09 +4.19254603966E-01 +3.41922272407E-01 +2.96240713737E-03 -3.36049701300E-03 +2.76956496623E-03 -3.15306393548E-03 +3.27456936494E-01 +3.54407714026E-01
1.50500000000E+09 +4.08410629871E-01 +2.55586280838E-01 +1.94222161924E-03 -4.62529909417E-03 +2.04601320479E-03 -4.31081790622E-03 +3.16665814255E-01 +2.56705437871E-01
1.51000000000E+09 +3.80843245845E-01 +1.63045713748E-01 +7.79252168406E-04 -5.49155072828E-03 +1.03902305727E-03 -5.38555406584E-03 +2.84752717591E-01 +1.55802510669E-01
1.51500000000E+09 +3.33757614670E-01 +6.98524543428E-02 -1.31407865135E-03 -6.46974505142E-03 -1.12634195102E-03 -6.56470369220E-03 +2.31513499146E-01 +5.77793421454E-02
1.52000000000E+09 +2.66994498299E-01 -1.75342859062E-02 -3.67492554442E-03 -5.33528741264E-03 -3.60769520787E-03 -5.52384892519E-03 +1.54975412471E-01 -3.06091483127E-02
1.52500000000E+09 +1.80899881599E-01 -9.23406468659E-02 -4.65623089059E-03 -4.18494442875E-03 -4.76108022258E-03 -4.29684866477E-03 +5.94221335803E-02 -9.92997078494E-02
1.53000000000E+09 +7.84023114046E-02 -1.47064446128E-01 -5.85749809712E-03 -3.11346752361E-03 -5.89995777355E-03 -3.17843688058E-03 -4.74379282060E-02 -1.46068567446E-01
1.53500000000E+09 -3.42048037998E-02 -1.75139608141E-01 -7.01136331678E-03 -1.03374673791E-03 -7.02020891928E-03 -1.05883317998E-03 -1.60318353604E-01 -1.67588367513E-01
1.54000000000E+09 -1.47949391786E-01 -1.75160300626E-01 -6.83131974893E-03 +9.93402615335E-04 -6.83224888730E-03 +9.21793079080E-04 -2.70229678825E-01 -1.64808580720E-01
1.54500000000E+09 -2.54988441681E-01 -1.50965954981E-01 -6.25750209302E-03 +3.36740908804E-03 -6.21595984190E-03 +3.18456056161E-03 -3.70660739309E-01 -1.42284557848E-01
1.55000000000E+09 -3.52273065514E-01 -1.07257123029E-01 -4.30723118593E-03 +4.75979282829E-03 -4.51298734443E-03 +4.59929913228E-03 -4.57930455858E-01 -1.03960230596E-01
1.55500000000E+09 -4.33861764661E-01 -4.95916116709E-02 -2.49542443008E-03 +5.05679327144E-03 -2.80153112790E-03 +5.10623559623E-03 -5.29679562107E-01 -5.58463465501E-02
1.56000000000E+09 -4.99104824596E-01 +1.37599049759E-02 -1.16963261698E-03 +5.21180555026E-03 -1.37152495808E-03 +5.42169329503E-03 -5.87281357947E-01 -1.94659375558E-03
1.56500000000E+09 -5.49947068967E-01 +7.72994277640E-02 +3.55259816974E-04 +4.76443553633E-03 +2.99669808650E-04 +5.08413576175E-03 -6.32326297350E-01 +5.46013005605E-02
1.57000000000E+09 -5.88806317453E-01 +1.39067052970E-01 +1.41794939183E-03 +3.77581711113E-03 +1.53930168515E-03 +4.03631024533E-03 -6.65724809425E-01 +1.10455353164E-01
