# Hz S RI R 50
! CMT, C1220, 16058040, 17.2.0/1
! Date: 14/08/2018 12:15:24
! Data: Format (Calibration Info)
! Freq                      S11: Re/Im (F2)                       S21: Re/Im (F2)                       S12: Re/Im (F2)                       S22: Re/Im (F2)            
1.00000000000E+09 -6.47891892860E-01 +7.14215865364E-01 -5.00252967945E-05 +1.00397405071E-05 -2.28083266956E-05 +1.79849048159E-06 -7.53649566376E-01 +6.24974592537E-01
1.00500000000E+09 -6.40646064412E-01 +7.19379585517E-01 -2.89754029820E-05 +3.58126244974E-05 -4.60385796114E-06 +7.63681710946E-05 -7.49945283682E-01 +6.28991211252E-01
1.01000000000E+09 -6.34807857768E-01 +7.24053557902E-01 -1.43792422457E-05 +3.84545823226E-05 -8.83210526908E-06 -7.12141267627E-07 -7.46522606862E-01 +6.32423096212E-01
1.01500000000E+09 -6.30878723265E-01 +7.27788653009E-01 +1.26966014872E-05 +8.12731956148E-06 +2.12645334824E-06 -2.79076515063E-05 -7.43210091002E-01 +6.36258025035E-01
1.02000000000E+09 -6.28569959113E-01 +7.30788500783E-01 +9.98962904030E-06 +6.46076690977E-06 -3.38900977932E-05 +3.23342963486E-05 -7.39773258863E-01 +6.39989831846E-01
1.02500000000E+09 -6.27395186901E-01 +7.33379730050E-01 -1.19397976982E-05 +6.21656631370E-06 +8.54385327788E-06 -4.17874453142E-05 -7.36928971179E-01 +6.43525647727E-01
1.03000000000E+09 -6.26865699710E-01 +7.35557641741E-01 -1.23216808765E-05 -4.82176685864E-06 -1.95606038899E-05 +4.94648932659E-06 -7.33545062147E-01 +6.47493412068E-01
1.03500000000E+09 -6.25118071062E-01 +7.37608420372E-01 +1.81656039506E-05 +5.05577204149E-05 +3.92935368155E-05 +4.48426135693E-05 -7.29644929158E-01 +6.51423015107E-01
1.04000000000E+09 -6.22121197377E-01 +7.39998883957E-01 +1.94243972614E-05 +4.01393742277E-05 +4.57418427740E-05 +1.23430385826E-05 -7.25827582276E-01 +6.55055585726E-01
1.04500000000E+09 -6.16824577242E-01 +7.43460640440E-01 +4.86977729914E-06 +1.30171327903E-05 +1.36324311759E-05 -3.22370862947E-05 -7.22311346597E-01 +6.58638961150E-01
1.05000000000E+09 -6.09520608366E-01 +7.47540039734E-01 -3.04830992153E-05 +1.65190430765E-05 -2.77012329304E-05 +5.70172701384E-05 -7.18953095792E-01 +6.62236203756E-01
1.05500000000E+09 -6.00736322671E-01 +7.52164665310E-01 -2.15312028022E-05 +5.25834220109E-05 -2.56929111332E-05 +2.14758715228E-05 -7.15608867538E-01 +6.65577184926E-01
1.06000000000E+09 -5.91286455661E-01 +7.57489087711E-01 +1.73738110545E-05 -4.91177743285E-06 -2.30033243512E-06 +4.82027670863E-05 -7.12387727743E-01 +6.69411670593E-01
1.06500000000E+09 -5.82452551733E-01 +7.62662829364E-01 +3.02318238327E-05 -2.08504807026E-06 -3.47669075964E-05 +1.93428498354E-05 -7.08504595207E-01 +6.73131463323E-01
1.07000000000E+09 -5.74813072917E-01 +7.67138668361E-01 -1.15611994323E-05 +3.17843719425E-05 -1.84668886996E-05 -1.93080790042E-06 -7.04582495817E-01 +6.76797201866E-01
1.07500000000E+09 -5.69032001992E-01 +7.71134548643E-01 +2.20933675339E-05 +1.95770825296E-05 -1.65504288589E-05 +4.89496832505E-05 -7.00169609375E-01 +6.80414324522E-01
1.08000000000E+09 -5.65441850832E-01 +7.74413495131E-01 +3.04756497021E-05 +3.77049867201E-05 -7.55913231925E-06 -1.87572179754E-05 -6.96248431230E-01 +6.84430178528E-01
1.08500000000E+09 -5.63421270202E-01 +7.76856251768E-01 +8.29950242434E-06 +1.31940393583E-06 +2.78084974314E-05 +3.48306819823E-05 -6.92146387661E-01 +6.88188524850E-01
1.09000000000E+09 -5.61941338670E-01 +7.78751098395E-01 +4.32614997690E-05 +3.74501093299E-05 -2.72256770995E-05 +4.08747342288E-05 -6.88368939141E-01 +6.91967508902E-01
1.09500000000E+09 -5.60630302207E-01 +7.80432532336E-01 +3.21018094682E-05 -6.00273573613E-06 -1.57350868942E-06 +4.18522182813E-05 -6.84635761946E-01 +6.95823191552E-01
1.10000000000E+09 -5.57826543303E-01 +7.82365801352E-01 +5.19436281767E-05 +2.32117599098E-05 +3.18678481505E-05 +2.30041579923E-05 -6.80651738395E-01 +6.99674798712E-01
1.10500000000E+09 -5.53723610828E-01 +7.84875480514E-01 +2.52022797119E-05 -3.08027305309E-05 +6.80283923599E-05 +7.53910704361E-05 -6.76307387014E-01 +7.03355413289E-01
1.11000000000E+09 -5.47737273762E-01 +7.88103283912E-01 +4.55945812411E-05 -2.74430572870E-05 +1.51704590457E-05 -3.80645412708E-05 -6.72098459181E-01 +7.06729592387E-01
1.11500000000E+09 -5.40095559531E-01 +7.91987155357E-01 +2.62925042157E-05 -3.27642567238E-05 +2.93323763639E-05 -1.97481456650E-05 -6.68053114748E-01 +7.10094845107E-01
1.12000000000E+09 -5.31819702808E-01 +7.96023297478E-01 +6.51582567091E-06 +1.06071307323E-05 +6.89992302530E-06 -7.12825960933E-06 -6.63919708512E-01 +7.13821741122E-01
1.12500000000E+09 -5.23534945616E-01 +8.00207306035E-01 +1.31808462597E-05 -1.62109318916E-05 -5.72214337144E-06 -3.26105065113E-05 -6.59677720144E-01 +7.17766310775E-01
1.13000000000E+09 -5.16179169297E-01 +8.04242876138E-01 +3.09091108322E-06 +1.25315529625E-05 +2.96898535976E-05 +3.63747735565E-05 -6.55524484010E-01 +7.21570039253E-01
1.13500000000E+09 -5.09991122585E-01 +8.07357725949E-01 -8.36335545568E-06 +1.21128994900E-05 +2.84760229075E-06 -1.55117593976E-06 -6.50950812989E-01 +7.25190247800E-01
1.14000000000E+09 -5.05506897388E-01 +8.10269795728E-01 +6.82738893583E-05 +5.89221266768E-05 +7.99757292190E-06 -5.24446633878E-06 -6.46297558714E-01 +7.28748993462E-01
1.14500000000E+09 -5.02154675384E-01 +8.12070566555E-01 +4.93281459777E-06 +3.73255114534E-05 +7.99820667784E-06 +1.50663918495E-05 -6.41542418045E-01 +7.32174511384E-01
1.15000000000E+09 -4.99086157588E-01 +8.13640790814E-01 +1.70885626889E-05 +8.07586180644E-06 +6.62139964014E-05 -6.45956278165E-07 -6.37094331352E-01 +7.36037556349E-01
1.15500000000E+09 -4.96077807515E-01 +8.15313785976E-01 +6.13891864673E-05 -6.96361191718E-06 +5.11116076635E-05 +1.90281532028E-05 -6.32050027658E-01 +7.39710797571E-01
1.16000000000E+09 -4.91739876148E-01 +8.17103010936E-01 +5.48901727800E-05 -3.04715334313E-06 +3.00637115131E-05 -1.13707730706E-05 -6.27332588814E-01 +7.43552420677E-01
1.16500000000E+09 -4.86171002321E-01 +8.19583024572E-01 +6.14726843511E-06 +3.38436967328E-05 +3.70995981589E-05 +2.74835292456E-05 -6.22258629504E-01 +7.47176770233E-01
1.17000000000E+09 -4.79100298775E-01 +8.22517855018E-01 +3.49011613914E-05 +2.79480466503E-05 +7.12037298562E-05 -5.80087210108E-06 -6.16760048185E-01 +7.50573244216E-01
1.17500000000E+09 -4.70942468353E-01 +8.25854296248E-01 +9.95055829819E-06 -1.68040215517E-05 +3.46954475916E-05 +6.04957222773E-06 -6.11137569665E-01 +7.53773737055E-01
1.18000000000E+09 -4.62591440614E-01 +8.29459388267E-01 +3.57775305124E-05 +4.69897849188E-05 +4.50942932241E-05 +2.07304271070E-05 -6.05473715377E-01 +7.56898542180E-01
1.18500000000E+09 -4.54316758615E-01 +8.32949933026E-01 +5.43062815377E-05 -2.73988557209E-06 +4.33164590916E-05 +5.52702010929E-06 -5.99524509866E-01 +7.59987152057E-01
1.19000000000E+09 -4.47024278398E-01 +8.35675539954E-01 +1.13845144603E-04 +5.87982550838E-06 +8.72856382927E-05 +1.55575720075E-05 -5.93309448552E-01 +7.62658052993E-01
1.19500000000E+09 -4.41230452250E-01 +8.37971488065E-01 +4.89436921783E-05 -3.84569309831E-05 +1.21933787620E-04 -7.89846404545E-05 -5.87381332984E-01 +7.63800992752E-01
1.20000000000E+09 -4.36927579051E-01 +8.38970752374E-01 +6.19368527020E-05 -8.76349808289E-05 +7.34484190497E-05 -1.23269864973E-04 -5.82966120514E-01 +7.64151437839E-01
1.20500000000E+09 -4.33179434123E-01 +8.40374678923E-01 -1.02942248773E-05 -1.11692185993E-04 +4.11403701203E-05 -1.45789153292E-04 -5.80528862117E-01 +7.64855431697E-01
1.21000000000E+09 -4.29193227010E-01 +8.41701187402E-01 -3.08457181800E-05 -1.29357828429E-04 -3.85977665328E-05 -5.79494095860E-05 -5.78862555237E-01 +7.67989888383E-01
1.21500000000E+09 -4.23918948395E-01 +8.43150091790E-01 +3.49162179215E-05 -5.84336174355E-05 +6.88312810819E-06 -1.17645657768E-04 -5.76104658052E-01 +7.72519918040E-01
1.22000000000E+09 -4.17011214688E-01 +8.45160583184E-01 -2.71295773734E-05 -4.57898881539E-05 +1.95788452706E-05 -9.61591010823E-05 -5.71897560398E-01 +7.77821761398E-01
1.22500000000E+09 -4.08267096570E-01 +8.47698640289E-01 +4.54369771542E-05 -1.00416378348E-04 -5.63134853887E-06 -1.03223542020E-04 -5.66780452681E-01 +7.82849762683E-01
1.23000000000E+09 -3.97867804558E-01 +8.50846151356E-01 +9.08613435530E-06 -8.94455682904E-05 +1.49463005965E-05 -1.31526771024E-04 -5.61083318071E-01 +7.87591978135E-01
1.23500000000E+09 -3.86757947026E-01 +8.54396216117E-01 -2.54272447495E-05 -8.14887041419E-05 -2.89126557158E-05 -5.22908544447E-05 -5.55195818234E-01 +7.91793505036E-01
1.24000000000E+09 -3.75803325009E-01 +8.58347626075E-01 +8.56403832250E-06 -7.34066907082E-05 +3.46487808346E-05 -9.54912731723E-05 -5.49050145873E-01 +7.95922373782E-01
1.24500000000E+09 -3.65772541898E-01 +8.62308310036E-01 +3.70364960961E-06 -1.08880632061E-04 -2.40253282550E-05 -1.51729722220E-04 -5.42764474743E-01 +7.99710154761E-01
1.25000000000E+09 -3.57216593465E-01 +8.65768844418E-01 -4.34534581851E-05 -1.51588438048E-04 -5.22888897946E-05 -9.42190583004E-05 -5.36307502795E-01 +8.03962644623E-01
1.25500000000E+09 -3.50588211272E-01 +8.68465617727E-01 -6.71985997261E-05 -8.89607849743E-05 -5.71456028704E-05 -1.39543257512E-04 -5.29422897305E-01 +8.07996881822E-01
1.26000000000E+09 -3.45409951865E-01 +8.70416252088E-01 -9.79397756450E-05 -1.17446773182E-04 -6.13203565654E-05 -1.07746434003E-04 -5.22605966065E-01 +8.12239140479E-01
1.26500000000E+09 -3.41191205288E-01 +8.71771548303E-01 -7.25891834442E-05 -1.27457851064E-04 -8.24884220559E-05 -6.73895593208E-05 -5.15730691662E-01 +8.16076304120E-01
1.27000000000E+09 -3.36610421043E-01 +8.73025262975E-01 -9.48421334701E-05 -1.12130198426E-04 -9.30661251207E-05 -1.49522193268E-04 -5.08991757304E-01 +8.19930869359E-01
1.27500000000E+09 -3.30934670402E-01 +8.74430598351E-01 -1.29220156550E-04 -1.28105497709E-04 -1.41880258299E-04 -9.46865848310E-05 -5.01714470980E-01 +8.23566483999E-01
1.28000000000E+09 -3.23213458140E-01 +8.76125880621E-01 -1.46190630486E-04 -6.47874579753E-05 -1.56245443235E-04 -1.20088946689E-04 -4.94752349257E-01 +8.26932358618E-01
1.28500000000E+09 -3.12892188012E-01 +8.78305019869E-01 -1.29627055086E-04 -7.99439091844E-05 -1.65897906826E-04 -9.19857100296E-05 -4.87361651964E-01 +8.30743706014E-01
1.29000000000E+09 -3.01177155608E-01 +8.80919278474E-01 -1.74262753966E-04 -5.01414275091E-05 -1.80364382567E-04 -9.17244095840E-05 -4.79796512627E-01 +8.34345496053E-01
1.29500000000E+09 -2.88376507549E-01 +8.84140227036E-01 -1.75864863446E-04 -3.92575475655E-05 -1.80344673376E-04 -3.75798211396E-05 -4.72010796268E-01 +8.37877930116E-01
1.30000000000E+09 -2.75543639443E-01 +8.87521275560E-01 -1.59670375617E-04 -2.71363082646E-05 -2.33513011879E-04 -3.35932427827E-05 -4.64091547318E-01 +8.41388809214E-01
1.30500000000E+09 -2.63836223745E-01 +8.90599897496E-01 -2.41700376093E-04 +1.60275262795E-05 -2.00727403686E-04 +1.82682760368E-05 -4.55941863109E-01 +8.44869845580E-01
1.31000000000E+09 -2.53943954263E-01 +8.93097681916E-01 -1.95614001427E-04 +2.74454738399E-05 -2.14476517982E-04 +1.65730239876E-05 -4.47651950336E-01 +8.48395812236E-01
1.31500000000E+09 -2.46406473627E-01 +8.94906006054E-01 -2.10857057467E-04 +8.96911349557E-05 -2.40039793042E-04 +6.79701380645E-05 -4.38876731569E-01 +8.51825001668E-01
1.32000000000E+09 -2.40394408104E-01 +8.96068960304E-01 -1.68747061784E-04 +5.06267346914E-05 -1.70797638977E-04 +5.64116715068E-05 -4.29782438073E-01 +8.55171651004E-01
1.32500000000E+09 -2.35219698391E-01 +8.96587822334E-01 -2.09378407637E-04 +6.69906656215E-05 -2.31120325670E-04 +4.37091830555E-05 -4.20195160644E-01 +8.58505980946E-01
1.33000000000E+09 -2.29115029263E-01 +8.96779332598E-01 -2.66574095858E-04 +1.16967010164E-04 -2.87883807330E-04 +1.24120944946E-04 -4.10399863329E-01 +8.61991720513E-01
1.33500000000E+09 -2.21199337066E-01 +8.96326592902E-01 -2.37617597590E-04 +1.78433997560E-04 -2.05989305611E-04 +1.80707572383E-04 -4.00565320849E-01 +8.65174875856E-01
1.34000000000E+09 -2.10645270653E-01 +8.96236358908E-01 -2.01093493391E-04 +2.08999870163E-04 -1.95505365277E-04 +1.90329298018E-04 -3.90411489112E-01 +8.68471746278E-01
1.34500000000E+09 -1.97079621650E-01 +8.96009639291E-01 -1.49319078340E-04 +2.40867828222E-04 -1.02390896719E-04 +2.22254336939E-04 -3.79497683766E-01 +8.71881033489E-01
1.35000000000E+09 -1.81187173804E-01 +8.96038780706E-01 -1.34676554002E-04 +2.17185226524E-04 -1.26261274957E-04 +2.25880180886E-04 -3.68315985168E-01 +8.74987615138E-01
1.35500000000E+09 -1.63827474188E-01 +8.96381759698E-01 -1.45661387268E-04 +2.19676931936E-04 -1.23835615855E-04 +2.21320490447E-04 -3.56741104279E-01 +8.77895721682E-01
1.36000000000E+09 -1.46347932633E-01 +8.96714160309E-01 -1.50370648289E-04 +3.01013624685E-04 -1.52296339283E-04 +2.92641781332E-04 -3.44922547823E-01 +8.80502694436E-01
1.36500000000E+09 -1.29846124814E-01 +8.97303709804E-01 -1.05052680349E-04 +2.97527871465E-04 -8.84900119986E-05 +2.88251990078E-04 -3.32906961791E-01 +8.83113254384E-01
1.37000000000E+09 -1.15169437612E-01 +8.97462305038E-01 -9.42639607341E-05 +3.35482104079E-04 -1.06742010261E-04 +2.52118161648E-04 -3.19831073815E-01 +8.85406977252E-01
1.37500000000E+09 -1.02953951768E-01 +8.97687730514E-01 -1.52629199197E-04 +4.21528814784E-04 -1.66875000751E-04 +3.60415498073E-04 -3.06217392357E-01 +8.87723131869E-01
1.38000000000E+09 -9.21318070423E-02 +8.97225264829E-01 +1.23907010690E-05 +4.96232998957E-04 -4.73035435472E-05 +4.79773508379E-04 -2.91533645715E-01 +8.89824811987E-01
1.38500000000E+09 -8.16980276563E-02 +8.96481060907E-01 +9.90538992146E-05 +4.51479356418E-04 +5.62986403684E-05 +5.11146612851E-04 -2.76066887922E-01 +8.91709185997E-01
1.39000000000E+09 -7.06831645993E-02 +8.94822549283E-01 +1.28059511337E-04 +4.64273943625E-04 +1.31764058708E-04 +5.33093069140E-04 -2.60116655563E-01 +8.93285544602E-01
1.39500000000E+09 -5.73749882620E-02 +8.92245443171E-01 +1.60200264459E-04 +4.96819889133E-04 +2.06341206786E-04 +5.85338347736E-04 -2.43225021618E-01 +8.94169865862E-01
1.40000000000E+09 -4.09914739212E-02 +8.88721135841E-01 +2.63654304213E-04 +4.76450575234E-04 +3.06316753934E-04 +4.32817210660E-04 -2.25688454325E-01 +8.94634669357E-01
1.40500000000E+09 -2.19745952386E-02 +8.83937240241E-01 +2.87919893286E-04 +4.07193151215E-04 +2.85738244952E-04 +3.40212435726E-04 -2.06959467621E-01 +8.94768483874E-01
1.41000000000E+09 -5.56729068379E-04 +8.78447839243E-01 +3.54252515513E-04 +3.79545488040E-04 +3.19297148683E-04 +3.63991123607E-04 -1.86512635906E-01 +8.93935771871E-01
1.41500000000E+09 +2.23047060265E-02 +8.72139617012E-01 +3.29276695526E-04 +3.13070867052E-04 +3.28513791587E-04 +3.52288870278E-04 -1.64817238153E-01 +8.92441322804E-01
1.42000000000E+09 +4.54547555731E-02 +8.65627453316E-01 +3.72229460864E-04 +4.04668525228E-04 +4.18338089343E-04 +4.34586914053E-04 -1.42006956203E-01 +8.89813890588E-01
1.42500000000E+09 +6.80382828505E-02 +8.58483654907E-01 +4.82950485821E-04 +3.49237281318E-04 +5.41225073438E-04 +3.75115119845E-04 -1.18273891170E-01 +8.86392580675E-01
1.43000000000E+09 +8.94450238248E-02 +8.50702738474E-01 +5.09452075209E-04 +3.09555303833E-04 +5.56281975719E-04 +2.89872110045E-04 -9.31920582190E-02 +8.81709893602E-01
1.43500000000E+09 +1.09816790700E-01 +8.41402600145E-01 +5.56878571554E-04 +3.12022088155E-04 +6.04176495979E-04 +2.68267222853E-04 -6.68470622261E-02 +8.75011251419E-01
1.44000000000E+09 +1.29867939312E-01 +8.31234821033E-01 +6.65901963794E-04 +2.59994103632E-04 +6.86270312974E-04 +1.42069895490E-04 -3.85330396568E-02 +8.66270227334E-01
1.44500000000E+09 +1.51416240925E-01 +8.18411666010E-01 +6.37688989503E-04 +2.27305739759E-04 +5.98007889486E-04 +2.39797092091E-04 -8.24854157390E-03 +8.54664481998E-01
1.45000000000E+09 +1.74900709259E-01 +8.02009969260E-01 +6.93056790847E-04 +2.69511103753E-04 +7.06377880393E-04 +2.67886648508E-04 +2.35535059921E-02 +8.40147764451E-01
1.45500000000E+09 +2.00888699828E-01 +7.81568569596E-01 +8.23115012168E-04 +3.10696288644E-04 +8.73077541216E-04 +2.71276055522E-04 +5.71080248981E-02 +8.22648895062E-01
1.46000000000E+09 +2.30111337666E-01 +7.56262241753E-01 +1.05064496165E-03 +2.59739333898E-04 +1.01773422137E-03 +1.26815514448E-04 +9.21901578429E-02 +8.00575896148E-01
1.46500000000E+09 +2.61746866477E-01 +7.25799036289E-01 +1.20846550646E-03 +3.30304417744E-04 +1.12842709768E-03 +2.31291481378E-04 +1.27820342377E-01 +7.73557122876E-01
1.47000000000E+09 +2.94414004049E-01 +6.89916310133E-01 +1.74745398813E-03 +1.95892551366E-04 +1.57201837885E-03 +1.75819009377E-04 +1.64664283659E-01 +7.40336475603E-01
1.47500000000E+09 +3.26637568113E-01 +6.48602578052E-01 +2.03026190334E-03 -3.64483716134E-04 +1.92848511136E-03 -3.21870287208E-04 +2.02443248538E-01 +6.99811367100E-01
1.48000000000E+09 +3.56658108550E-01 +6.01482678268E-01 +2.03636860280E-03 -7.56402719350E-04 +2.04785721753E-03 -6.86483292832E-04 +2.39522948007E-01 +6.50102201008E-01
1.48500000000E+09 +3.82250433723E-01 +5.48111300776E-01 +2.33084789283E-03 -1.23599164576E-03 +2.39140541340E-03 -1.28424133015E-03 +2.73916306545E-01 +5.91031141942E-01
1.49000000000E+09 +4.02000616616E-01 +4.88196494006E-01 +2.14522344231E-03 -2.03927363248E-03 +2.00859091679E-03 -2.16774421815E-03 +3.02082236552E-01 +5.21008247439E-01
1.49500000000E+09 +4.14549344444E-01 +4.20768874751E-01 +2.29465502486E-03 -2.55964348795E-03 +2.07715927448E-03 -2.53841056471E-03 +3.20793294260E-01 +4.41469082518E-01
1.50000000000E+09 +4.17462474272E-01 +3.43838498805E-01 +2.04571268679E-03 -3.97086643604E-03 +1.91628136002E-03 -3.68582176081E-03 +3.27025423361E-01 +3.52140027478E-01
1.50500000000E+09 +4.07209120375E-01 +2.58410094162E-01 +8.17994931838E-04 -5.27209830974E-03 +9.22029652949E-04 -5.01280212475E-03 +3.15852837240E-01 +2.54523509526E-01
1.51000000000E+09 +3.80344331425E-01 +1.66509502037E-01 -1.08624368882E-03 -5.73537169869E-03 -7.90156755716E-04 -5.64641603775E-03 +2.83366083847E-01 +1.53621845761E-01
1.51500000000E+09 +3.34601114475E-01 +7.38682144086E-02 -3.11493636047E-03 -5.65811190388E-03 -2.92549320916E-03 -5.75966113155E-03 +2.29540864791E-01 +5.55162918085E-02
1.52000000000E+09 +2.68494151912E-01 -1.41198764297E-02 -4.96791798951E-03 -4.22265486952E-03 -4.91476700935E-03 -4.36110419912E-03 +1.52097238776E-01 -3.22414583325E-02
1.52500000000E+09 +1.83206084719E-01 -8.83811815746E-02 -5.64822305582E-03 -2.75817123066E-03 -5.70906751518E-03 -2.85455849155E-03 +5.58504868174E-02 -1.00432581039E-01
1.53000000000E+09 +8.28445892188E-02 -1.43432776274E-01 -6.45481748775E-03 -1.50317544783E-03 -6.48620129475E-03 -1.51791439331E-03 -5.16556696873E-02 -1.45611933329E-01
1.53500000000E+09 -2.84212590735E-02 -1.73514057231E-01 -6.89836511550E-03 +6.11791836265E-04 -6.87624910612E-03 +6.16450741691E-04 -1.64362783796E-01 -1.65631295814E-01
1.54000000000E+09 -1.41912731671E-01 -1.75086512930E-01 -6.53919944492E-03 +2.30655676457E-03 -6.48484837591E-03 +2.25873727826E-03 -2.72821115249E-01 -1.61764311149E-01
1.54500000000E+09 -2.49211060620E-01 -1.52178048962E-01 -5.85104313588E-03 +4.70627857887E-03 -5.85043081427E-03 +4.53645722410E-03 -3.72415530847E-01 -1.38982114653E-01
1.55000000000E+09 -3.46643587048E-01 -1.09306778055E-01 -3.40613609316E-03 +6.12061056683E-03 -3.69017693063E-03 +6.00635385166E-03 -4.58635428859E-01 -1.00461600970E-01
1.55500000000E+09 -4.28927746345E-01 -5.25748012809E-02 -1.22651995259E-03 +6.02969441215E-03 -1.51923567234E-03 +6.11132373041E-03 -5.29718721810E-01 -5.25213315119E-02
1.56000000000E+09 -4.94937203595E-01 +1.04935242027E-02 +1.60979232888E-04 +5.65070926452E-03 -2.55618206026E-05 +5.89757103907E-03 -5.86844223967E-01 +1.18585296627E-03
1.56500000000E+09 -5.46353786236E-01 +7.37553317075E-02 +1.57775900138E-03 +4.99839404142E-03 +1.52061570618E-03 +5.34940315842E-03 -6.30817086874E-01 +5.76564262715E-02
1.57000000000E+09 -5.86198699605E-01 +1.35374798487E-01 +2.62477114688E-03 +3.78016663585E-03 +2.83494885308E-03 +3.99927681401E-03 -6.63504744025E-01 +1.12662822068E-01
