# Hz S RI R 50
! CMT, C1220, 16058040, 17.2.0/1
! Date: 14/08/2018 12:15:52
! Data: Format (Calibration Info)
! Freq                      S11: Re/Im (F2)                       S21: Re/Im (F2)                       S12: Re/Im (F2)                       S22: Re/Im (F2)            
1.00000000000E+09 -6.48334844010E-01 +7.14274887878E-01 +2.00945814325E-05 +1.38878453451E-05 +3.78848489960E-05 -1.68867579665E-05 -7.53604723029E-01 +6.24742686155E-01
1.00500000000E+09 -6.40930364457E-01 +7.19376639617E-01 -7.94818073796E-06 +1.56163997863E-06 +1.24534325453E-05 +6.58426092365E-06 -7.50018253751E-01 +6.28883393910E-01
1.01000000000E+09 -6.35220162392E-01 +7.24067635741E-01 -6.77318727117E-05 -2.95361499650E-05 -2.06150498596E-05 +1.38253504567E-05 -7.46518233951E-01 +6.32823023925E-01
1.01500000000E+09 -6.31311355301E-01 +7.27856321904E-01 -3.36799124429E-05 +4.14086254624E-05 -2.38129639909E-05 +8.01469985731E-06 -7.43186050905E-01 +6.36401374226E-01
1.02000000000E+09 -6.29207891590E-01 +7.30894909992E-01 -1.24957844162E-05 +3.69021767909E-05 +4.05821175308E-05 +4.78129724491E-05 -7.39624448595E-01 +6.39926983299E-01
1.02500000000E+09 -6.27741577162E-01 +7.33446662828E-01 +1.63037615780E-05 -1.87155421756E-05 -5.49673509333E-05 +3.08932216885E-05 -7.36753673961E-01 +6.43633058286E-01
1.03000000000E+09 -6.27261710433E-01 +7.35396744443E-01 -3.61195467002E-06 +1.00494000189E-05 -4.24975236551E-05 -1.78044429732E-05 -7.33488007425E-01 +6.47539081174E-01
1.03500000000E+09 -6.25573061334E-01 +7.37611607944E-01 -1.37020196086E-05 +1.83759237666E-05 -3.92022687028E-05 -4.61728140160E-05 -7.29525538345E-01 +6.51387606152E-01
1.04000000000E+09 -6.22363736612E-01 +7.40167972832E-01 +1.10590065556E-05 -3.56664038255E-05 +1.30437907680E-05 -4.93991077451E-05 -7.25786547511E-01 +6.55175261031E-01
1.04500000000E+09 -6.17367029118E-01 +7.43446249181E-01 -3.94898124792E-06 +3.23509204416E-05 -4.80128426752E-06 +6.68905999962E-05 -7.22243925716E-01 +6.58584072855E-01
1.05000000000E+09 -6.09908012338E-01 +7.47619359055E-01 +1.14137436508E-05 +3.56413006944E-05 +1.95810029650E-05 -6.87083677535E-06 -7.18788935472E-01 +6.61984870931E-01
1.05500000000E+09 -6.01297034894E-01 +7.52188356327E-01 -4.77635581814E-05 +2.52413303072E-05 +3.24340009962E-06 +3.92111404226E-05 -7.15521126459E-01 +6.65560301322E-01
1.06000000000E+09 -5.91850224384E-01 +7.57401411779E-01 +1.24691354183E-05 +2.80147572422E-05 +4.97023045935E-06 +4.37270288675E-05 -7.12321127097E-01 +6.69389564245E-01
1.06500000000E+09 -5.82888450659E-01 +7.62678142488E-01 +2.62067520920E-05 -5.22544632762E-06 +2.65697572555E-06 +2.31072183195E-05 -7.08484899808E-01 +6.73174394517E-01
1.07000000000E+09 -5.75453988580E-01 +7.67205710685E-01 -1.84578420994E-05 +7.07986621899E-05 -3.72202198365E-05 +2.28260487345E-05 -7.04531531658E-01 +6.76844892263E-01
1.07500000000E+09 -5.69819119030E-01 +7.71104599939E-01 +2.16287770301E-05 +3.86939142457E-05 +6.30635173943E-05 -3.57163694691E-07 -7.00212486473E-01 +6.80706297441E-01
1.08000000000E+09 -5.66033966561E-01 +7.74503943913E-01 +5.32037991982E-05 +1.08989213371E-05 +6.42418634862E-05 +5.25190630019E-06 -6.96199791398E-01 +6.84316882917E-01
1.08500000000E+09 -5.63878263921E-01 +7.76892273682E-01 -7.55536137264E-06 +4.47492864562E-05 +4.98185808092E-05 -3.33022346575E-05 -6.92202052431E-01 +6.88146007941E-01
1.09000000000E+09 -5.62510890181E-01 +7.78927941280E-01 +4.21754488041E-05 -9.33528333658E-06 +1.88309562439E-05 +2.55475821816E-05 -6.88366104119E-01 +6.92071981497E-01
1.09500000000E+09 -5.61208457974E-01 +7.80499378012E-01 +3.05595592821E-05 -9.38991656815E-06 +2.27309970392E-05 +2.67011366907E-05 -6.84530835644E-01 +6.95805166082E-01
1.10000000000E+09 -5.58460672047E-01 +7.82513300372E-01 +2.80115414344E-05 -2.89466077762E-05 +2.84649730225E-05 +6.02779095447E-06 -6.80585163751E-01 +6.99705175541E-01
1.10500000000E+09 -5.54376154309E-01 +7.84933600041E-01 +7.79762056139E-05 -7.30147051734E-06 +3.48239175063E-05 -3.18890301094E-05 -6.76064249154E-01 +7.03257178920E-01
1.11000000000E+09 -5.48268703628E-01 +7.88134366740E-01 +2.30843158550E-05 -2.92303252163E-05 -2.43377551958E-05 +9.07072446146E-06 -6.72043010682E-01 +7.06653273762E-01
1.11500000000E+09 -5.40767890977E-01 +7.92030493956E-01 -3.53233483006E-06 -1.02405354939E-05 +4.52816163465E-05 +7.20050913618E-06 -6.68096882340E-01 +7.10124043610E-01
1.12000000000E+09 -5.32545589067E-01 +7.96200959495E-01 +2.48102427348E-05 -1.93500776186E-05 +1.68460059064E-05 +1.13299975385E-06 -6.63792219681E-01 +7.13622195861E-01
1.12500000000E+09 -5.24095629698E-01 +8.00408385780E-01 -2.24149048097E-05 +1.08842127051E-05 +3.42298534974E-05 +1.24642863213E-05 -6.59615594722E-01 +7.17671543200E-01
1.13000000000E+09 -5.16838369374E-01 +8.04402732859E-01 -3.80845772718E-06 +6.24943364607E-06 +2.00408235781E-05 -1.54118679359E-05 -6.55362730023E-01 +7.21487767383E-01
1.13500000000E+09 -5.10763504387E-01 +8.07450198831E-01 +1.93020758232E-05 -2.50138483607E-05 -1.38884810496E-05 +2.60178006978E-06 -6.50799649631E-01 +7.25370873675E-01
1.14000000000E+09 -5.06022994162E-01 +8.10231316330E-01 +3.39796346780E-05 +1.39639755873E-05 +2.96008413050E-05 +1.10325995918E-05 -6.46206976926E-01 +7.28680156022E-01
1.14500000000E+09 -5.02696452974E-01 +8.12330007450E-01 +4.55077293106E-05 +6.78165916524E-06 +5.88060890378E-05 -1.50162914417E-05 -6.41472853319E-01 +7.32120998681E-01
1.15000000000E+09 -4.99676760791E-01 +8.13812277175E-01 +2.53827919633E-05 -4.24475558849E-05 +3.11395297174E-05 -1.73928962467E-05 -6.36894290780E-01 +7.35937303568E-01
1.15500000000E+09 -4.96761900736E-01 +8.15491945577E-01 +2.16860971663E-05 -3.06743207632E-06 +3.74300314571E-05 +1.89489298822E-05 -6.32190455544E-01 +7.39838611339E-01
1.16000000000E+09 -4.92365497782E-01 +8.17325070650E-01 +3.50207085269E-05 -1.97766218279E-05 +2.60542295151E-05 -1.71621110083E-05 -6.27447751137E-01 +7.43568681633E-01
1.16500000000E+09 -4.86795993768E-01 +8.19753337922E-01 -1.63783067057E-05 +9.78508758459E-08 +4.41605387131E-05 -2.92172911006E-05 -6.22238848570E-01 +7.47192692446E-01
1.17000000000E+09 -4.79752519388E-01 +8.22847214230E-01 +3.47041074318E-05 +3.59789771606E-07 +4.76786429910E-05 -2.15645610175E-05 -6.16805980250E-01 +7.50618556016E-01
1.17500000000E+09 -4.71631855032E-01 +8.26202755595E-01 +6.32598811629E-05 -1.85366578564E-05 +1.66110488169E-05 -2.84081657351E-05 -6.11095825427E-01 +7.53774654967E-01
1.18000000000E+09 -4.63233807272E-01 +8.29791665029E-01 +6.48863325394E-05 -2.21584288669E-05 +7.24436002641E-05 -1.21065988722E-05 -6.05509856550E-01 +7.56947784736E-01
1.18500000000E+09 -4.55162232641E-01 +8.33177393887E-01 +2.59324351393E-05 -5.49178220027E-05 +2.92634416602E-05 +5.18700722029E-05 -5.99521894939E-01 +7.60055395576E-01
1.19000000000E+09 -4.47844088476E-01 +8.36082133854E-01 +4.67792336171E-05 -1.88379698307E-05 +5.71021033425E-05 -1.20507161682E-05 -5.93269308723E-01 +7.62687796845E-01
1.19500000000E+09 -4.42047159080E-01 +8.38360994562E-01 +6.07800479736E-05 -3.64157750310E-05 +1.27083428217E-05 -4.29824191529E-05 -5.87448355907E-01 +7.63841777213E-01
1.20000000000E+09 -4.37664821052E-01 +8.39529741088E-01 +7.39873498171E-05 -6.84880032193E-05 +6.76000791430E-05 -6.66758287797E-05 -5.83034507877E-01 +7.64110869719E-01
1.20500000000E+09 -4.33899536594E-01 +8.40795750508E-01 +5.06729389401E-05 -5.31013442583E-05 -2.00053435518E-05 -8.89713704331E-05 -5.80517588970E-01 +7.64936948118E-01
1.21000000000E+09 -4.30033031606E-01 +8.42072457088E-01 +3.61368277158E-05 -9.00977114214E-05 +1.04137975254E-05 -8.94959337105E-05 -5.78817844280E-01 +7.67836778349E-01
1.21500000000E+09 -4.24812669068E-01 +8.43648707267E-01 +2.26568836497E-05 -8.49360546218E-05 +2.94823496444E-05 -7.96637898381E-05 -5.75964456346E-01 +7.72502394102E-01
1.22000000000E+09 -4.17985400278E-01 +8.45483160367E-01 -3.55597469692E-06 -3.79921912274E-05 +2.35919577434E-05 -7.34114602220E-05 -5.71922841576E-01 +7.77761899753E-01
1.22500000000E+09 -4.09084044691E-01 +8.48024090845E-01 -3.66996884976E-06 -7.81900571354E-05 +1.56020335640E-05 -2.91666239363E-05 -5.66674277510E-01 +7.82867402167E-01
1.23000000000E+09 -3.98733196925E-01 +8.51115609528E-01 +3.04258347879E-05 -8.62107363404E-05 -3.24333755672E-05 -1.02381982119E-04 -5.61008734280E-01 +7.87619003926E-01
1.23500000000E+09 -3.87684458241E-01 +8.54769978411E-01 +4.94579196030E-06 -4.87021117139E-05 +3.29261590873E-05 -7.00256753618E-05 -5.55247619014E-01 +7.91994667476E-01
1.24000000000E+09 -3.76779118364E-01 +8.58787543015E-01 -3.38770766016E-05 -9.52372581833E-05 +5.25294414071E-05 -8.68640516851E-05 -5.49228168277E-01 +7.95840688144E-01
1.24500000000E+09 -3.66780741153E-01 +8.62766980392E-01 +2.75321936344E-05 -1.23279334863E-04 -1.89159762846E-05 -8.32106939765E-05 -5.42887315968E-01 +7.99608155678E-01
1.25000000000E+09 -3.58278101511E-01 +8.66187329975E-01 -4.70043779810E-05 -1.68114923849E-04 -3.41185587353E-05 -1.45195162463E-04 -5.36246087921E-01 +8.03810340148E-01
1.25500000000E+09 -3.51543215448E-01 +8.68890912032E-01 -2.58494943831E-05 -1.49658898161E-04 -8.65795438413E-05 -1.94271564046E-04 -5.29278411863E-01 +8.07974000495E-01
1.26000000000E+09 -3.46471117342E-01 +8.70942037794E-01 -7.02907523603E-05 -8.91229470613E-05 -4.32372163702E-05 -7.91965172705E-05 -5.22874321935E-01 +8.12145009599E-01
1.26500000000E+09 -3.42039656176E-01 +8.72463280031E-01 -4.78701709284E-05 -1.28898644587E-04 -8.83185400347E-05 -1.42455437185E-04 -5.15686623425E-01 +8.16146967753E-01
1.27000000000E+09 -3.37618967575E-01 +8.73850666073E-01 -7.54610707929E-05 -9.82690058214E-05 -8.09811271181E-05 -1.26423696809E-04 -5.08810484065E-01 +8.19914129585E-01
1.27500000000E+09 -3.31841569742E-01 +8.75147463957E-01 -1.24345060919E-04 -8.97737633238E-05 -1.07675321769E-04 -8.89816270199E-05 -5.01870846672E-01 +8.23620240065E-01
1.28000000000E+09 -3.24059589219E-01 +8.76944242152E-01 -1.06555121526E-04 -8.38646216531E-05 -1.57910303012E-04 -9.36558726836E-05 -4.94838668531E-01 +8.26887512446E-01
1.28500000000E+09 -3.13928607875E-01 +8.79181200516E-01 -1.70942296963E-04 -9.92937068075E-05 -1.18407805769E-04 -1.09796606625E-04 -4.87460254272E-01 +8.30754919632E-01
1.29000000000E+09 -3.02193792574E-01 +8.81882831698E-01 -2.18417800881E-04 -7.12574426575E-05 -2.17612693385E-04 -6.37304564858E-05 -4.79869750846E-01 +8.34446048683E-01
1.29500000000E+09 -2.89335332590E-01 +8.84998335712E-01 -1.99551380862E-04 -4.95930825105E-05 -1.98260002263E-04 -3.65885777855E-05 -4.71945307390E-01 +8.37938535721E-01
1.30000000000E+09 -2.76580435610E-01 +8.88433407430E-01 -2.16060313181E-04 -4.49434762930E-05 -2.04173830932E-04 -1.50789745622E-05 -4.64121695036E-01 +8.41530508247E-01
1.30500000000E+09 -2.64775039165E-01 +8.91594800098E-01 -2.09539466357E-04 -1.43477623389E-07 -1.99830085412E-04 +1.94824374786E-05 -4.55987600118E-01 +8.44998715024E-01
1.31000000000E+09 -2.54984945751E-01 +8.94072952727E-01 -2.28599278004E-04 +6.92187121336E-05 -2.19802916192E-04 +5.98405536141E-05 -4.47820067291E-01 +8.48373916213E-01
1.31500000000E+09 -2.47236436422E-01 +8.95976222244E-01 -2.08588072004E-04 +1.00674238543E-04 -1.97417079964E-04 +7.27469903574E-05 -4.38972256811E-01 +8.51908508093E-01
1.32000000000E+09 -2.41313359295E-01 +8.97104435978E-01 -1.95351467227E-04 +8.81424731127E-05 -2.11479609490E-04 +1.02803349705E-04 -4.29763070094E-01 +8.55320888978E-01
1.32500000000E+09 -2.36132754748E-01 +8.97750427211E-01 -2.04803438374E-04 +8.63945820463E-05 -1.68015177547E-04 +1.13643449722E-04 -4.20247979780E-01 +8.58683310594E-01
1.33000000000E+09 -2.30043006452E-01 +8.98003200510E-01 -2.53728827419E-04 +1.37244015043E-04 -1.89310954215E-04 +1.90331273851E-04 -4.10568563765E-01 +8.62060488135E-01
1.33500000000E+09 -2.22149135913E-01 +8.97691088945E-01 -2.17981719982E-04 +1.88079246428E-04 -2.08709330348E-04 +2.24305786020E-04 -4.00576021770E-01 +8.65302817085E-01
1.34000000000E+09 -2.11509632248E-01 +8.97658207149E-01 -1.48064215232E-04 +2.47399034051E-04 -1.33058234326E-04 +2.01851604619E-04 -3.90473321317E-01 +8.68551882771E-01
1.34500000000E+09 -1.97962945283E-01 +8.97472444478E-01 -1.41309397961E-04 +2.49603339653E-04 -1.26075080856E-04 +2.13021935969E-04 -3.79490420734E-01 +8.71997171902E-01
1.35000000000E+09 -1.81953041039E-01 +8.97554738090E-01 -1.17242825841E-04 +2.62676045938E-04 -1.20398083163E-04 +2.19219844348E-04 -3.68473251643E-01 +8.75117647504E-01
1.35500000000E+09 -1.64477244334E-01 +8.97993679608E-01 -1.28891048593E-04 +2.86225390902E-04 -1.45271740752E-04 +2.63802820332E-04 -3.56792624601E-01 +8.77985016113E-01
1.36000000000E+09 -1.47028268990E-01 +8.98439670535E-01 -1.30052995158E-04 +3.11139617469E-04 -1.30443666065E-04 +3.07701850702E-04 -3.44972364272E-01 +8.80729011695E-01
1.36500000000E+09 -1.30442529263E-01 +8.99025870103E-01 -6.56813565461E-05 +3.22436269581E-04 -4.82689759060E-05 +3.94560139861E-04 -3.32727107968E-01 +8.83402678696E-01
1.37000000000E+09 -1.15712721139E-01 +8.99346863946E-01 -1.29741628965E-04 +3.31082332661E-04 -1.14575735532E-04 +3.41142539160E-04 -3.19786735677E-01 +8.85706658935E-01
1.37500000000E+09 -1.03328147033E-01 +8.99571412164E-01 -1.05110489600E-04 +4.04151103437E-04 -1.32447983942E-04 +4.05002975791E-04 -3.06118208751E-01 +8.88050124358E-01
1.38000000000E+09 -9.25650950835E-02 +8.99290288681E-01 +1.75642320498E-05 +5.28888833446E-04 -6.30112808489E-05 +5.05938916805E-04 -2.91412560225E-01 +8.90130594941E-01
1.38500000000E+09 -8.19823608189E-02 +8.98580676784E-01 +8.82215341710E-05 +4.69174550639E-04 +8.64539863291E-05 +5.34310581673E-04 -2.75882480667E-01 +8.92125517345E-01
1.39000000000E+09 -7.06032579548E-02 +8.97055012776E-01 +1.13617676587E-04 +4.44282296378E-04 +1.75561297857E-04 +5.53503942041E-04 -2.59812439589E-01 +8.93627324047E-01
1.39500000000E+09 -5.70526588164E-02 +8.94484377157E-01 +1.89653000977E-04 +4.85615131377E-04 +2.53528179026E-04 +5.17485399118E-04 -2.42896589251E-01 +8.94389764670E-01
1.40000000000E+09 -4.07469125175E-02 +8.90769244325E-01 +3.31402553166E-04 +4.66807596252E-04 +3.35014643201E-04 +5.00110562845E-04 -2.25159998692E-01 +8.94956284001E-01
1.40500000000E+09 -2.13906687778E-02 +8.86329651520E-01 +3.82718435252E-04 +3.78841073188E-04 +4.34080739049E-04 +3.79524799013E-04 -2.06412078359E-01 +8.94798799306E-01
1.41000000000E+09 +2.30429413516E-04 +8.80743338716E-01 +4.26603789857E-04 +4.06356650240E-04 +4.27465660695E-04 +3.75576780523E-04 -1.86062928036E-01 +8.94093210418E-01
1.41500000000E+09 +2.33164809864E-02 +8.74479310494E-01 +4.21676994533E-04 +3.43732268607E-04 +4.95406529036E-04 +3.94222384154E-04 -1.64328615274E-01 +8.92530534686E-01
1.42000000000E+09 +4.66670800890E-02 +8.67933476086E-01 +5.02911856691E-04 +3.41471810795E-04 +5.39966265993E-04 +3.97436601430E-04 -1.41318082186E-01 +8.89738095750E-01
1.42500000000E+09 +6.94134085700E-02 +8.60805542654E-01 +5.67807751532E-04 +2.73050236024E-04 +6.80316623385E-04 +3.24955839891E-04 -1.17617797353E-01 +8.86300652374E-01
1.43000000000E+09 +9.11082130085E-02 +8.52978782891E-01 +6.27807390732E-04 +2.60330164933E-04 +7.38760374153E-04 +2.05973740762E-04 -9.25890787161E-02 +8.81481200335E-01
1.43500000000E+09 +1.11865601714E-01 +8.43719597730E-01 +7.67660662072E-04 +2.51478530013E-04 +8.26083853943E-04 +2.06489863670E-04 -6.62215121915E-02 +8.74802850942E-01
1.44000000000E+09 +1.32376713146E-01 +8.33341842166E-01 +8.69288554986E-04 +6.85616920849E-05 +8.78685334731E-04 -2.22891148811E-06 -3.79670595999E-02 +8.65904126745E-01
1.44500000000E+09 +1.54211134637E-01 +8.20542138411E-01 +7.26151957450E-04 -4.29263418040E-05 +7.94420002250E-04 -1.00229182404E-04 -7.78408023755E-03 +8.54197734165E-01
1.45000000000E+09 +1.78157008586E-01 +8.04025991230E-01 +7.32014094564E-04 -8.91858261212E-06 +7.25616376959E-04 -6.99737746267E-05 +2.41242964798E-02 +8.39719331155E-01
1.45500000000E+09 +2.04823096994E-01 +7.83290075805E-01 +8.66425482189E-04 +4.32423164212E-05 +9.31098374333E-04 +2.50435501273E-05 +5.75957580003E-02 +8.22013291836E-01
1.46000000000E+09 +2.34718167692E-01 +7.57601119456E-01 +1.12561468990E-03 -2.61610937252E-06 +1.09525036572E-03 -8.57055246605E-05 +9.26542721805E-02 +7.99744978489E-01
1.46500000000E+09 +2.66953542138E-01 +7.26543279981E-01 +1.31587254280E-03 -1.76453497535E-04 +1.21417212038E-03 -2.60096400630E-04 +1.28242996905E-01 +7.72872144452E-01
1.47000000000E+09 +3.00096221801E-01 +6.89807619396E-01 +1.53368584389E-03 -4.66826340003E-04 +1.44159384324E-03 -4.34600676294E-04 +1.65000910646E-01 +7.39445935109E-01
1.47500000000E+09 +3.32829342035E-01 +6.47596413730E-01 +1.56774454420E-03 -8.69743432126E-04 +1.56754793555E-03 -7.52324361365E-04 +2.02865837368E-01 +6.98715987269E-01
1.48000000000E+09 +3.63287261473E-01 +5.99368347096E-01 +1.62946774266E-03 -1.07655911419E-03 +1.65110328573E-03 -1.06251469514E-03 +2.39905462695E-01 +6.48680085334E-01
1.48500000000E+09 +3.89352743406E-01 +5.44509852798E-01 +1.79554201267E-03 -1.57585113117E-03 +1.78861438381E-03 -1.66951169514E-03 +2.74022688215E-01 +5.89162496010E-01
1.49000000000E+09 +4.08989022217E-01 +4.82607942303E-01 +1.50103682796E-03 -2.29781775983E-03 +1.31635538957E-03 -2.40734684484E-03 +3.01893502257E-01 +5.18667869965E-01
1.49500000000E+09 +4.21183885393E-01 +4.13098865079E-01 +1.37213882737E-03 -2.64222780058E-03 +1.25288022231E-03 -2.57344026909E-03 +3.19726092163E-01 +4.38920831395E-01
1.50000000000E+09 +4.23064959674E-01 +3.33905703687E-01 +1.17858030171E-03 -3.78784192896E-03 +1.11515449596E-03 -3.59938080099E-03 +3.24954533007E-01 +3.49453063046E-01
1.50500000000E+09 +4.10914125576E-01 +2.46166672136E-01 -1.74331189872E-04 -4.70759168774E-03 -4.82241213619E-05 -4.54249980325E-03 +3.12557337679E-01 +2.52138835193E-01
1.51000000000E+09 +3.81399377613E-01 +1.52556326329E-01 -1.70786806691E-03 -4.92328686998E-03 -1.56422880634E-03 -4.85815172471E-03 +2.78988957633E-01 +1.52267257621E-01
1.51500000000E+09 +3.32223075559E-01 +5.84364627840E-02 -3.46411626409E-03 -4.67612037319E-03 -3.34493255234E-03 -4.77784219083E-03 +2.24565113264E-01 +5.56798258666E-02
1.52000000000E+09 +2.61493308911E-01 -2.94577786152E-02 -5.12722313532E-03 -3.27056589981E-03 -5.13266902433E-03 -3.31705356111E-03 +1.46834077109E-01 -3.03984625176E-02
1.52500000000E+09 +1.72292815742E-01 -1.01835575763E-01 -5.39302234787E-03 -1.73863112227E-03 -5.45928491075E-03 -1.75651623832E-03 +5.12400105346E-02 -9.63807930902E-02
1.53000000000E+09 +6.84058516964E-02 -1.54297679324E-01 -5.94536644922E-03 -7.70210733888E-04 -5.95063236479E-03 -7.68393327949E-04 -5.45208224112E-02 -1.40399014736E-01
1.53500000000E+09 -4.54144531285E-02 -1.80065379089E-01 -6.56956843456E-03 +1.05108351867E-03 -6.53884653628E-03 +1.02534840303E-03 -1.65519596749E-01 -1.59231526232E-01
1.54000000000E+09 -1.59431008005E-01 -1.77210285772E-01 -6.28277141889E-03 +3.03369994110E-03 -6.21779889164E-03 +2.94865194792E-03 -2.71456570235E-01 -1.55663091152E-01
1.54500000000E+09 -2.66339512715E-01 -1.50172593582E-01 -4.99009240472E-03 +5.47946351096E-03 -5.07527776404E-03 +5.23907285083E-03 -3.69306374385E-01 -1.34067305094E-01
1.55000000000E+09 -3.61569161132E-01 -1.03897962374E-01 -2.44526002192E-03 +6.25292913720E-03 -2.67577825058E-03 +6.15548931981E-03 -4.54392870494E-01 -9.70217746910E-02
1.55500000000E+09 -4.41585216558E-01 -4.50705080426E-02 -5.12909942802E-04 +5.88143154577E-03 -8.22830760453E-04 +5.98618449911E-03 -5.24912389115E-01 -5.09408531568E-02
1.56000000000E+09 -5.05426995677E-01 +1.96804544261E-02 +6.38177269247E-04 +5.52944832591E-03 +4.60750434039E-04 +5.84172363230E-03 -5.82682905553E-01 +1.24783203115E-03
1.56500000000E+09 -5.54243106468E-01 +8.39288167451E-02 +2.06895328391E-03 +4.89006831217E-03 +2.17326287882E-03 +5.25811014958E-03 -6.27357657175E-01 +5.69551752554E-02
1.57000000000E+09 -5.91403383221E-01 +1.45553046767E-01 +3.21976336309E-03 +3.56527880629E-03 +3.48603038957E-03 +3.78053192107E-03 -6.60537627334E-01 +1.11358897852E-01
