# Hz S RI R 50
! CMT, C1220, 16058040, 17.2.0/1
! Date: 14/08/2018 12:16:47
! Data: Format (Calibration Info)
! Freq                      S11: Re/Im (F2)                       S21: Re/Im (F2)                       S12: Re/Im (F2)                       S22: Re/Im (F2)            
1.00000000000E+09 -6.48280226383E-01 +7.14306713682E-01 -7.24189826466E-06 -2.32777864412E-05 +1.24798912018E-05 -3.11168686649E-05 -7.53489564092E-01 +6.24933152041E-01
1.00500000000E+09 -6.41188928073E-01 +7.19412741990E-01 -4.09119284543E-05 +9.85481591753E-08 -1.73847803945E-06 +8.09483211378E-06 -7.49905823202E-01 +6.28873715068E-01
1.01000000000E+09 -6.35350485328E-01 +7.24111729896E-01 -9.31839311567E-06 -2.90581541501E-06 -3.90494909441E-05 -3.57316256628E-05 -7.46355321187E-01 +6.32566528225E-01
1.01500000000E+09 -6.31638703594E-01 +7.27858666708E-01 +2.91140125073E-05 +1.04699967162E-05 -8.82806870915E-06 -1.75598104064E-05 -7.43082528133E-01 +6.36325303748E-01
1.02000000000E+09 -6.29241321283E-01 +7.30901160684E-01 -1.07778574296E-05 +4.92494150388E-05 +3.79591590617E-05 -9.60075990175E-06 -7.39729204826E-01 +6.39947265418E-01
1.02500000000E+09 -6.28081236115E-01 +7.33412820743E-01 +2.48041632492E-05 +1.57205234738E-05 -2.85285243554E-05 +2.78538844025E-05 -7.36815392850E-01 +6.43589779687E-01
1.03000000000E+09 -6.27302677188E-01 +7.35348291872E-01 -5.93154931369E-07 -1.18684202812E-05 +2.01717614847E-05 -5.66126451547E-06 -7.33440208541E-01 +6.47452587064E-01
1.03500000000E+09 -6.25552575122E-01 +7.37383366911E-01 -3.14143930271E-06 +3.04952487485E-05 -2.20438011261E-05 +5.08937861806E-05 -7.29547703806E-01 +6.51561289449E-01
1.04000000000E+09 -6.22443070055E-01 +7.39981423084E-01 -2.38715477042E-05 +1.41812921079E-05 +3.24928822165E-05 +9.06153020348E-06 -7.25683044251E-01 +6.55160054521E-01
1.04500000000E+09 -6.17246577950E-01 +7.43310248162E-01 +1.36498708936E-05 +6.69138811128E-06 +1.05884303986E-06 +6.61732795318E-06 -7.22162418234E-01 +6.58682685097E-01
1.05000000000E+09 -6.10002571983E-01 +7.47556780268E-01 -1.96036889706E-06 +1.78059055893E-05 -1.61349913294E-05 -4.23861501799E-05 -7.18858666630E-01 +6.62074201531E-01
1.05500000000E+09 -6.01368825446E-01 +7.52237550307E-01 -1.07166154593E-06 +1.02896379779E-06 -4.90329959696E-05 +1.43043833035E-05 -7.15549591691E-01 +6.65594425830E-01
1.06000000000E+09 -5.92003373785E-01 +7.57519657198E-01 +1.46403287557E-05 +3.54101594904E-05 -2.00091777041E-06 +2.65277550497E-05 -7.12351472495E-01 +6.69552002515E-01
1.06500000000E+09 -5.83151852484E-01 +7.62823775624E-01 +5.25769823872E-05 +8.22736442579E-05 +1.52415085599E-06 +4.24867493637E-05 -7.08426976113E-01 +6.73211073656E-01
1.07000000000E+09 -5.75511334344E-01 +7.67192100828E-01 +1.51013740914E-05 +4.18122273574E-05 +1.62996305618E-05 +6.58869517761E-05 -7.04466125405E-01 +6.76951602697E-01
1.07500000000E+09 -5.69876731294E-01 +7.71244913778E-01 -3.37219128936E-05 +1.71583540313E-05 -1.03926629717E-05 +3.16919447202E-05 -7.00231626712E-01 +6.80618726830E-01
1.08000000000E+09 -5.66178259449E-01 +7.74603563100E-01 +3.41772849462E-06 +1.03593897635E-05 -7.81416521973E-06 +3.10643195603E-05 -6.96313005148E-01 +6.84406667272E-01
1.08500000000E+09 -5.64027111852E-01 +7.77004053116E-01 +4.24342303837E-05 -1.75594067328E-05 +2.82714077011E-05 +2.72379214339E-07 -6.92323086270E-01 +6.88105852933E-01
1.09000000000E+09 -5.62513811614E-01 +7.78893972956E-01 +1.04697928786E-05 -1.91984968674E-05 +2.47944986401E-05 +3.27453305009E-05 -6.88444263658E-01 +6.92051728627E-01
1.09500000000E+09 -5.61220975204E-01 +7.80639072218E-01 +1.45154919146E-05 -1.21187054132E-05 +5.94869602181E-05 -4.52873663479E-06 -6.84656630308E-01 +6.95788455024E-01
1.10000000000E+09 -5.58540515933E-01 +7.82463708164E-01 -7.01990828198E-06 +4.53635027726E-05 +5.31750865340E-05 -7.96335795867E-06 -6.80568808709E-01 +6.99831282882E-01
1.10500000000E+09 -5.54459989532E-01 +7.85103645943E-01 +6.68029168713E-05 +2.59357497456E-05 +4.33734467627E-05 +6.51400760385E-05 -6.76291113495E-01 +7.03328307721E-01
1.11000000000E+09 -5.48468561527E-01 +7.88125680202E-01 +3.09036921704E-05 -4.68170433959E-06 +5.51866976492E-05 -2.41455668400E-05 -6.71998081786E-01 +7.06700616337E-01
1.11500000000E+09 -5.40884204025E-01 +7.92079150903E-01 +5.04857572118E-05 -2.98513137811E-05 +1.75318261614E-05 +1.06948692956E-05 -6.67938374782E-01 +7.10226804177E-01
1.12000000000E+09 -5.32804004610E-01 +7.96267643646E-01 +3.67382246378E-05 +2.10903955709E-05 -1.46392234197E-05 +2.92443367585E-05 -6.63889603089E-01 +7.13834747038E-01
1.12500000000E+09 -5.24507364115E-01 +8.00600341749E-01 +5.50293514423E-05 +1.33304107996E-06 +6.20050549003E-05 +1.08484931625E-05 -6.59791073119E-01 +7.17615941650E-01
1.13000000000E+09 -5.17122463823E-01 +8.04522811728E-01 +1.23085047945E-05 +2.24280784997E-05 +1.30466520041E-05 -2.54737488839E-05 -6.55404029871E-01 +7.21591107638E-01
1.13500000000E+09 -5.10915914966E-01 +8.07619903012E-01 +4.80621471782E-07 +5.35505274189E-06 +3.80831754677E-05 -3.60545009082E-06 -6.50853573776E-01 +7.25379992766E-01
1.14000000000E+09 -5.06221558398E-01 +8.10422054168E-01 +3.14700339907E-05 +2.72581763396E-05 +3.37655538423E-05 +2.06124305299E-05 -6.46127895970E-01 +7.28701644974E-01
1.14500000000E+09 -5.02889478067E-01 +8.12452910837E-01 +6.16481623000E-05 -5.60732106076E-06 +2.64098233560E-05 +1.25222374370E-05 -6.41623786662E-01 +7.32137706499E-01
1.15000000000E+09 -4.99868270342E-01 +8.13976077643E-01 +3.95626166927E-05 -6.18785748965E-06 -7.55189479970E-07 +5.45148639819E-05 -6.36833031856E-01 +7.35799515101E-01
1.15500000000E+09 -4.96807096106E-01 +8.15792720388E-01 +4.23792537309E-05 -2.80842889115E-05 +2.47255124486E-05 -2.18968604148E-05 -6.32262623322E-01 +7.39565081267E-01
1.16000000000E+09 -4.92560604848E-01 +8.17447412613E-01 +3.84684851862E-05 -2.73290807741E-05 +5.45310170699E-05 -3.84025287673E-05 -6.27349306377E-01 +7.43574702145E-01
1.16500000000E+09 -4.87009630639E-01 +8.20110405121E-01 +1.83141631320E-05 -1.71923950117E-05 +5.46665812860E-05 -2.10402514808E-05 -6.22200888302E-01 +7.47339799894E-01
1.17000000000E+09 -4.79991133108E-01 +8.23008676696E-01 -4.56525948698E-06 -1.72344478110E-05 +6.01550855106E-05 -2.98740438758E-05 -6.16836834190E-01 +7.50526777528E-01
1.17500000000E+09 -4.71985858077E-01 +8.26360613662E-01 +8.15715477449E-06 -1.15730908503E-05 +5.53939713650E-05 -2.67516029849E-05 -6.11016052775E-01 +7.53877524008E-01
1.18000000000E+09 -4.63596754209E-01 +8.30052504221E-01 +3.19044338186E-05 -2.52916468622E-06 +3.80124461444E-05 +2.88153677432E-06 -6.05602174301E-01 +7.56886132588E-01
1.18500000000E+09 -4.55415635402E-01 +8.33346452344E-01 +2.59478987130E-05 -1.65414353303E-05 +6.70293662568E-05 +6.87122217102E-06 -5.99465321332E-01 +7.59845902882E-01
1.19000000000E+09 -4.48243264782E-01 +8.36370439941E-01 +1.79940633557E-05 -3.00339038610E-05 +4.99157810676E-05 -4.39251119277E-05 -5.93213457715E-01 +7.62647810318E-01
1.19500000000E+09 -4.42489634237E-01 +8.38730931045E-01 +1.03131740241E-04 -3.75603869807E-05 +3.73431168140E-05 -6.15029029135E-05 -5.87393529532E-01 +7.63766285630E-01
1.20000000000E+09 -4.37824670649E-01 +8.39680705998E-01 +7.40619502619E-05 -8.64381852483E-05 +4.73325130981E-05 -9.57987801613E-05 -5.82978781562E-01 +7.64132008653E-01
1.20500000000E+09 -4.34028144989E-01 +8.41070187616E-01 +1.13564819830E-05 -9.47436277094E-05 -2.37732195317E-05 -7.02385484847E-05 -5.80542798413E-01 +7.64813999132E-01
1.21000000000E+09 -4.30032719969E-01 +8.42312848856E-01 -3.18607725821E-05 -2.18138186003E-05 -1.04511278310E-05 -5.55494524559E-05 -5.78644473633E-01 +7.67959955860E-01
1.21500000000E+09 -4.24784934998E-01 +8.43885032752E-01 -3.47365583261E-05 -1.59449319173E-05 -2.03277048404E-06 -5.80387282924E-05 -5.75891098324E-01 +7.72526012534E-01
1.22000000000E+09 -4.17798545656E-01 +8.45813923149E-01 -1.51443854928E-05 -4.40066776505E-05 -4.75369868740E-06 -9.92026905986E-05 -5.71896063507E-01 +7.77879347221E-01
1.22500000000E+09 -4.09142292073E-01 +8.48507176194E-01 +2.56114722774E-05 -3.68680274807E-05 +8.59591241451E-06 -3.57011064386E-05 -5.66651097367E-01 +7.83050305670E-01
1.23000000000E+09 -3.98803104082E-01 +8.51683067846E-01 +3.99468101572E-05 -9.00197388411E-06 +4.32524544338E-05 -6.72121492942E-05 -5.61091364605E-01 +7.87613588374E-01
1.23500000000E+09 -3.87912287680E-01 +8.55293685715E-01 -1.41324580696E-05 -7.44398732286E-05 +2.21159264473E-05 -4.79836349445E-05 -5.55106750480E-01 +7.91924319625E-01
1.24000000000E+09 -3.77010889758E-01 +8.59222130835E-01 +3.19071597537E-05 -6.36106741746E-05 +3.85388421533E-05 -5.83571487324E-05 -5.49118170440E-01 +7.95773789361E-01
1.24500000000E+09 -3.67070456019E-01 +8.63264075147E-01 +1.90103799138E-05 -1.13835617534E-04 +5.87216040732E-05 -1.25250374367E-04 -5.42878537899E-01 +7.99676220299E-01
1.25000000000E+09 -3.58599562483E-01 +8.66603078002E-01 -1.25883512802E-05 -1.85671690073E-04 -1.36482687351E-05 -1.27103630564E-04 -5.36227223300E-01 +8.03867694558E-01
1.25500000000E+09 -3.51930779851E-01 +8.69273654668E-01 -5.54263513411E-05 -1.14152353522E-04 -3.36092972205E-05 -8.89425272455E-05 -5.29390948738E-01 +8.07906892327E-01
1.26000000000E+09 -3.46721344691E-01 +8.71289988838E-01 -2.52936991737E-05 -1.39854278831E-04 -6.80446557154E-05 -1.31613907152E-04 -5.22760196818E-01 +8.12152820759E-01
1.26500000000E+09 -3.42305254225E-01 +8.72775046325E-01 -6.07613674940E-05 -1.12201823411E-04 -5.72582881607E-05 -1.34984189395E-04 -5.15647503229E-01 +8.15858037364E-01
1.27000000000E+09 -3.37795694489E-01 +8.74116209844E-01 -5.23528171124E-05 -7.31054866092E-05 -4.03052068771E-05 -1.58743753565E-04 -5.08920282835E-01 +8.19868904958E-01
1.27500000000E+09 -3.31943392823E-01 +8.75433020116E-01 -9.46001248770E-05 -1.20827787279E-04 -1.18251016671E-04 -1.39516557701E-04 -5.01722077711E-01 +8.23461925429E-01
1.28000000000E+09 -3.24122154521E-01 +8.77205586708E-01 -1.51239767661E-04 -1.41139700218E-04 -8.61821116582E-05 -1.30964593665E-04 -4.94823925040E-01 +8.27071608063E-01
1.28500000000E+09 -3.13906972456E-01 +8.79507207350E-01 -1.65078827853E-04 -1.01435319653E-04 -1.74260374468E-04 -8.79959171692E-05 -4.87395387646E-01 +8.30696384228E-01
1.29000000000E+09 -3.02188096423E-01 +8.82341316099E-01 -1.42369632397E-04 -1.20806163490E-04 -1.57341529544E-04 -1.16268971404E-04 -4.79945438217E-01 +8.34411652258E-01
1.29500000000E+09 -2.89491514451E-01 +8.85586415924E-01 -2.01330699466E-04 -6.01862954796E-05 -2.15405223941E-04 -6.05827902267E-05 -4.72007619720E-01 +8.38005868112E-01
1.30000000000E+09 -2.76623620720E-01 +8.89077637971E-01 -2.11774722414E-04 -5.40010123036E-05 -2.12891231536E-04 -2.49186257778E-05 -4.64159384018E-01 +8.41487559201E-01
1.30500000000E+09 -2.65051515200E-01 +8.92072400541E-01 -2.48975787505E-04 -5.82905794922E-06 -2.38042199587E-04 +1.75384128546E-05 -4.56039624860E-01 +8.44816359153E-01
1.31000000000E+09 -2.55256065455E-01 +8.94627193766E-01 -2.50325466874E-04 +6.24735629306E-05 -2.11238516691E-04 +3.61438143921E-05 -4.47715196362E-01 +8.48461409032E-01
1.31500000000E+09 -2.47597583566E-01 +8.96521835627E-01 -2.15565879348E-04 +8.08921075005E-05 -2.33878889651E-04 +4.43768560015E-05 -4.38801324561E-01 +8.51674374025E-01
1.32000000000E+09 -2.41667165824E-01 +8.97580285604E-01 -1.94735006784E-04 +6.85371536728E-05 -2.20560345864E-04 +6.69516899290E-05 -4.29851892346E-01 +8.55256929348E-01
1.32500000000E+09 -2.36286653840E-01 +8.97952424426E-01 -2.60374406999E-04 +9.84904895900E-05 -2.31797139541E-04 +4.29938500295E-05 -4.20192735089E-01 +8.58614419339E-01
1.33000000000E+09 -2.30200995692E-01 +8.98398056226E-01 -2.44315899379E-04 +9.72813508066E-05 -2.34837087539E-04 +1.13474737300E-04 -4.10588732718E-01 +8.62017515394E-01
1.33500000000E+09 -2.22101102186E-01 +8.97997645286E-01 -2.59019753737E-04 +1.92258372858E-04 -2.72701815842E-04 +1.77513423343E-04 -4.00627933883E-01 +8.65151321009E-01
1.34000000000E+09 -2.11363647093E-01 +8.97978707716E-01 -2.13662826290E-04 +2.29827686053E-04 -1.57891133994E-04 +2.29146751261E-04 -3.90493375691E-01 +8.68502467900E-01
1.34500000000E+09 -1.97925848042E-01 +8.97905717489E-01 -1.63148345632E-04 +2.49275323233E-04 -1.32390287737E-04 +2.09811881313E-04 -3.79430593481E-01 +8.71963990562E-01
1.35000000000E+09 -1.82049990678E-01 +8.98080685512E-01 -1.46867954397E-04 +1.88117440084E-04 -1.17505843992E-04 +1.70281959249E-04 -3.68291111130E-01 +8.75004003772E-01
1.35500000000E+09 -1.64417872752E-01 +8.98519206987E-01 -1.78866855911E-04 +2.17155081220E-04 -1.38174436762E-04 +2.50750763584E-04 -3.56726886092E-01 +8.78030769334E-01
1.36000000000E+09 -1.47066658621E-01 +8.99024778634E-01 -1.80014448824E-04 +2.43601351317E-04 -1.35707931960E-04 +2.53674010748E-04 -3.44900823551E-01 +8.80623559253E-01
1.36500000000E+09 -1.30411630979E-01 +8.99656014141E-01 -1.38616510393E-04 +2.67588995999E-04 -1.26115659559E-04 +2.46557401274E-04 -3.32788270656E-01 +8.83125240447E-01
1.37000000000E+09 -1.15772613897E-01 +8.99884707799E-01 -1.34856129990E-04 +2.93632897053E-04 -9.60630487325E-05 +2.87599754169E-04 -3.19876909352E-01 +8.85559984273E-01
1.37500000000E+09 -1.03406091837E-01 +9.00057305748E-01 -1.16810140121E-04 +4.30041242947E-04 -1.56487102590E-04 +3.64388072435E-04 -3.06260494190E-01 +8.87826550346E-01
1.38000000000E+09 -9.25365255095E-02 +8.99684485810E-01 -4.69672764105E-06 +4.67249044484E-04 -8.75150612922E-05 +4.52186127210E-04 -2.91554812365E-01 +8.89981610476E-01
1.38500000000E+09 -8.19528023639E-02 +8.98871446647E-01 +9.07829996641E-05 +3.97146832748E-04 +4.98625391718E-05 +4.53253804925E-04 -2.75896153964E-01 +8.92005434768E-01
1.39000000000E+09 -7.06379663848E-02 +8.97257161295E-01 +8.94802547220E-05 +4.30859741813E-04 +1.16532826272E-04 +4.85663199849E-04 -2.59994380492E-01 +8.93423956988E-01
1.39500000000E+09 -5.70318489583E-02 +8.94717814681E-01 +1.63986573506E-04 +4.11357190126E-04 +2.44666409039E-04 +4.60019740070E-04 -2.43067025441E-01 +8.94197429441E-01
1.40000000000E+09 -4.06121418573E-02 +8.91032800048E-01 +1.83787456904E-04 +4.33953880965E-04 +2.53038718165E-04 +4.20053347114E-04 -2.25469066023E-01 +8.94889848807E-01
1.40500000000E+09 -2.13532300115E-02 +8.86462265759E-01 +2.28313592774E-04 +4.19113088225E-04 +2.51459234729E-04 +3.87970128599E-04 -2.06639030339E-01 +8.94760365189E-01
1.41000000000E+09 +2.70593056675E-04 +8.81012649861E-01 +2.53090997647E-04 +5.04753347712E-04 +2.67563517051E-04 +4.59690815908E-04 -1.86301569402E-01 +8.94045843658E-01
1.41500000000E+09 +2.33185178241E-02 +8.74766495141E-01 +3.54779632615E-04 +4.29915275449E-04 +3.90082437852E-04 +4.41416364363E-04 -1.64642794621E-01 +8.92587994759E-01
1.42000000000E+09 +4.66884292766E-02 +8.68041393173E-01 +4.13075996687E-04 +3.49081490360E-04 +4.52683120091E-04 +4.26709137765E-04 -1.41709442551E-01 +8.89858868491E-01
1.42500000000E+09 +6.93920523349E-02 +8.60925306082E-01 +5.14014693898E-04 +3.01953090979E-04 +5.67227108914E-04 +3.34893362023E-04 -1.17912539998E-01 +8.86269037431E-01
1.43000000000E+09 +9.10395710678E-02 +8.53060058507E-01 +4.79862862602E-04 +3.02679824456E-04 +5.50757033184E-04 +2.65727420722E-04 -9.29490422731E-02 +8.81496334404E-01
1.43500000000E+09 +1.11829408528E-01 +8.43677323763E-01 +5.63991525064E-04 +3.41135327793E-04 +5.89579359040E-04 +2.96558975521E-04 -6.66029315835E-02 +8.74915861710E-01
1.44000000000E+09 +1.32250010189E-01 +8.33310495234E-01 +6.14100410525E-04 +2.36999861022E-04 +6.82207981014E-04 +2.12375816147E-04 -3.82629522770E-02 +8.66104181502E-01
1.44500000000E+09 +1.54159027806E-01 +8.20319144995E-01 +6.38046590603E-04 +1.52140001527E-04 +6.69270588888E-04 +1.19287767149E-04 -8.14053730889E-03 +8.54529970438E-01
1.45000000000E+09 +1.78115641062E-01 +8.03617653712E-01 +7.23534622680E-04 +2.32604605332E-04 +7.29313949801E-04 +2.07489704216E-04 +2.36387555888E-02 +8.40043544014E-01
1.45500000000E+09 +2.04669856292E-01 +7.82784836234E-01 +8.29969555036E-04 +1.77744695152E-04 +8.54714756879E-04 +8.94157138083E-05 +5.70936022047E-02 +8.22356193633E-01
1.46000000000E+09 +2.34363042727E-01 +7.56976192925E-01 +9.53496907036E-04 +1.69819407047E-04 +9.10561522214E-04 +5.81913926235E-05 +9.20209222489E-02 +8.00561384162E-01
1.46500000000E+09 +2.66364795897E-01 +7.26016002881E-01 +1.04748970737E-03 +3.13603042059E-05 +9.68536094037E-04 -1.21760485301E-06 +1.28133875489E-01 +7.73821360120E-01
1.47000000000E+09 +2.99315212321E-01 +6.89452433170E-01 +1.26631736351E-03 +1.65024503759E-04 +1.15712921816E-03 +1.46856718073E-04 +1.65319519028E-01 +7.40228192360E-01
1.47500000000E+09 +3.31774661080E-01 +6.47300499296E-01 +1.57616933650E-03 -8.18760082294E-05 +1.54588088028E-03 -5.39421165748E-05 +2.02861429362E-01 +6.99338732985E-01
1.48000000000E+09 +3.61909193244E-01 +5.99249696411E-01 +1.87966597636E-03 -3.53057700918E-04 +1.88879610993E-03 -2.92203368825E-04 +2.39724765786E-01 +6.49751613976E-01
1.48500000000E+09 +3.87640547334E-01 +5.44513938015E-01 +2.26113249034E-03 -8.54406993295E-04 +2.35293070148E-03 -8.69729289462E-04 +2.74405943486E-01 +5.90402079454E-01
1.49000000000E+09 +4.07067781224E-01 +4.82962221317E-01 +2.20017944906E-03 -1.72534776374E-03 +2.11086249695E-03 -1.79650390189E-03 +3.02459677518E-01 +5.20127022103E-01
1.49500000000E+09 +4.19234003138E-01 +4.13444193946E-01 +2.28709964866E-03 -2.09775031325E-03 +2.12280902427E-03 -2.10900601995E-03 +3.21238234833E-01 +4.40645207003E-01
1.50000000000E+09 +4.20444677966E-01 +3.34279597436E-01 +2.27024102918E-03 -3.46999409523E-03 +2.12067785535E-03 -3.22046642363E-03 +3.27278617666E-01 +3.50306544911E-01
1.50500000000E+09 +4.08023984304E-01 +2.47307863503E-01 +1.14486857016E-03 -4.56708021406E-03 +1.26852681279E-03 -4.34478451967E-03 +3.15066646371E-01 +2.52283755109E-01
1.51000000000E+09 +3.78542147273E-01 +1.54516119574E-01 -4.39580499787E-05 -5.37336612867E-03 +1.49540234351E-04 -5.28071583721E-03 +2.81389147670E-01 +1.51582638585E-01
1.51500000000E+09 +3.29514182207E-01 +6.14495504162E-02 -2.23852174923E-03 -5.94558418473E-03 -2.07814351750E-03 -6.08515653979E-03 +2.26534203319E-01 +5.47660770461E-02
1.52000000000E+09 +2.60134258258E-01 -2.52047081539E-02 -4.43159240830E-03 -4.60636693052E-03 -4.47160246466E-03 -4.73950568737E-03 +1.48998812219E-01 -3.17864404961E-02
1.52500000000E+09 +1.72173236261E-01 -9.78213129807E-02 -5.02247322542E-03 -3.30281842091E-03 -5.06335607289E-03 -3.36473757828E-03 +5.32418164138E-02 -9.86031007419E-02
1.53000000000E+09 +6.85752334280E-02 -1.50187947317E-01 -6.19993416678E-03 -2.50338013626E-03 -6.22322302847E-03 -2.51696097615E-03 -5.31417159521E-02 -1.43520606027E-01
1.53500000000E+09 -4.41647484113E-02 -1.75430631208E-01 -7.49707120540E-03 -3.08179201300E-05 -7.46758886442E-03 -3.96405198998E-05 -1.65284229689E-01 -1.63105444607E-01
1.54000000000E+09 -1.56893182050E-01 -1.73108759635E-01 -6.82485859128E-03 +2.31182362235E-03 -6.78987960569E-03 +2.20224198027E-03 -2.73103308813E-01 -1.59071652372E-01
1.54500000000E+09 -2.62854223213E-01 -1.47466317966E-01 -5.75977014628E-03 +4.57711530694E-03 -5.75130793827E-03 +4.42277327301E-03 -3.71567163797E-01 -1.36427059192E-01
1.55000000000E+09 -3.58654743041E-01 -1.02375959448E-01 -3.54158420386E-03 +5.62431663690E-03 -3.71739520151E-03 +5.43146155897E-03 -4.57257440966E-01 -9.84491709364E-02
1.55500000000E+09 -4.38673400118E-01 -4.41640798034E-02 -1.75920062051E-03 +5.73022534910E-03 -2.06594629629E-03 +5.77035852635E-03 -5.27701406988E-01 -5.11455476458E-02
1.56000000000E+09 -5.02898965413E-01 +1.96575255705E-02 -1.86349033376E-04 +5.81772604564E-03 -4.34040098311E-04 +6.08808783483E-03 -5.84549391378E-01 +1.73717920732E-03
1.56500000000E+09 -5.52285509788E-01 +8.35630826983E-02 +1.64124768922E-03 +5.02348994986E-03 +1.59970529848E-03 +5.38060241669E-03 -6.29009721750E-01 +5.73064882187E-02
1.57000000000E+09 -5.89862090189E-01 +1.45125533423E-01 +2.54424355155E-03 +3.56508059180E-03 +2.71378050883E-03 +3.80248998950E-03 -6.62266526350E-01 +1.11987525851E-01
