# Hz S RI R 50
! CMT, C1220, 16058040, 17.2.0/1
! Date: 14/08/2018 12:17:24
! Data: Format (Calibration Info)
! Freq                      S11: Re/Im (F2)                       S21: Re/Im (F2)                       S12: Re/Im (F2)                       S22: Re/Im (F2)            
1.00000000000E+09 -6.48664905348E-01 +7.14502276074E-01 +1.66637606723E-05 +3.99023833495E-06 -9.20648978436E-06 +3.36783713521E-06 -7.53754522733E-01 +6.24807656554E-01
1.00500000000E+09 -6.41577363570E-01 +7.19520104539E-01 +3.64946420257E-05 +4.56933418649E-05 -5.33390780293E-06 +9.24876397347E-06 -7.50104660002E-01 +6.28834391672E-01
1.01000000000E+09 -6.35913198095E-01 +7.24193182381E-01 -2.76625176769E-05 +2.76249564094E-05 -2.10478068083E-05 +1.21088373462E-06 -7.46643252504E-01 +6.32523707488E-01
1.01500000000E+09 -6.32128539761E-01 +7.27866422773E-01 +3.96469207894E-06 +3.11933665587E-06 -5.13423027123E-05 +4.24311873027E-05 -7.43255731744E-01 +6.36394764845E-01
1.02000000000E+09 -6.29796548262E-01 +7.30860351081E-01 +7.86424310025E-06 -3.64256615474E-06 -2.55696658268E-05 -7.37201750840E-06 -7.39942013292E-01 +6.39783160824E-01
1.02500000000E+09 -6.28822561829E-01 +7.33391676835E-01 -2.54892673576E-05 -9.76558163940E-06 +1.16262155918E-06 +1.99793153928E-05 -7.36877279091E-01 +6.43355628916E-01
1.03000000000E+09 -6.28029160923E-01 +7.35536595630E-01 -4.04245400502E-05 -1.24493092217E-05 +4.13752118649E-07 +4.48878419679E-05 -7.33609037209E-01 +6.47441570753E-01
1.03500000000E+09 -6.26194999232E-01 +7.37603563752E-01 -1.06382806976E-05 -2.24655101477E-05 -1.54487869524E-05 +2.62256372257E-05 -7.29754148926E-01 +6.51351951981E-01
1.04000000000E+09 -6.22973512542E-01 +7.40094249658E-01 -2.48559507398E-05 +2.59306624073E-05 -3.00381766523E-05 -6.67690819356E-06 -7.25921537342E-01 +6.54931384085E-01
1.04500000000E+09 -6.17957787541E-01 +7.43509439933E-01 -1.64527448773E-05 +2.86563802176E-05 -6.13494581655E-06 +3.24394536008E-05 -7.22448609005E-01 +6.58558314770E-01
1.05000000000E+09 -6.10691244132E-01 +7.47697829742E-01 +4.99012746505E-05 +3.25333781365E-05 -2.25177526991E-05 +3.45529898284E-05 -7.19071408609E-01 +6.61896891319E-01
1.05500000000E+09 -6.02159247243E-01 +7.52332532933E-01 +2.31660385915E-06 +7.91337482179E-06 -2.02877474295E-05 +2.49457485784E-05 -7.15755283272E-01 +6.65271368575E-01
1.06000000000E+09 -5.92786209203E-01 +7.57799130382E-01 -3.16126939753E-05 +1.76988923010E-05 +1.21283384556E-05 +7.89606936501E-06 -7.12557571062E-01 +6.69260231256E-01
1.06500000000E+09 -5.83851737533E-01 +7.62911892820E-01 +1.09357987337E-05 +4.47641136198E-05 -3.67541563603E-05 +3.26231409669E-05 -7.08842869014E-01 +6.73106693166E-01
1.07000000000E+09 -5.76360038265E-01 +7.67391651843E-01 +8.83294692832E-06 +9.01546128729E-05 +1.60494781278E-05 +6.91195710574E-05 -7.04640732936E-01 +6.76818908364E-01
1.07500000000E+09 -5.70632329405E-01 +7.71511048458E-01 +8.27546267253E-06 +5.00277343186E-05 +1.29983641366E-05 +3.58634112871E-05 -7.00415881762E-01 +6.80501331932E-01
1.08000000000E+09 -5.67026152106E-01 +7.74739435852E-01 +1.80294236595E-05 +1.11787611551E-05 +4.68773619466E-05 +5.08189915543E-06 -6.96403745759E-01 +6.84361930041E-01
1.08500000000E+09 -5.64821161737E-01 +7.77138770831E-01 +3.27058428227E-05 +5.62637976882E-05 +1.53482195515E-06 -9.04698101323E-06 -6.92536702970E-01 +6.87956095943E-01
1.09000000000E+09 -5.63332187456E-01 +7.79197901762E-01 +6.66433334194E-06 +2.44997237053E-05 +6.16762777805E-05 -2.50449361292E-05 -6.88645894149E-01 +6.91888257137E-01
1.09500000000E+09 -5.61979727903E-01 +7.80763975392E-01 +5.28128846122E-05 +8.94334871836E-06 +2.30371418749E-05 +1.58935648086E-05 -6.84899405120E-01 +6.95749554781E-01
1.10000000000E+09 -5.59317273079E-01 +7.82822510712E-01 -1.69744962377E-05 -3.21469554684E-05 +4.31916543906E-05 +1.04361403941E-05 -6.80795715239E-01 +6.99599369980E-01
1.10500000000E+09 -5.55295733928E-01 +7.85121715712E-01 +3.21421119596E-05 +3.07822494455E-05 +5.18494475776E-05 -4.64007080245E-06 -6.76424025043E-01 +7.03093540334E-01
1.11000000000E+09 -5.49215073499E-01 +7.88439256301E-01 +5.50874500619E-05 -3.19309719868E-05 +7.37262265354E-05 -1.34677726153E-05 -6.72311526727E-01 +7.06480315715E-01
1.11500000000E+09 -5.41738579059E-01 +7.92322645162E-01 -2.34991415132E-06 +9.59903494899E-06 +5.75471256603E-05 -8.51111673084E-06 -6.68295780498E-01 +7.09865557687E-01
1.12000000000E+09 -5.33560643626E-01 +7.96487873713E-01 -1.26431348683E-06 -1.31189632933E-05 +2.22628811207E-05 -3.48443882062E-06 -6.64120044160E-01 +7.13712824341E-01
1.12500000000E+09 -5.25162196464E-01 +8.00839556195E-01 -1.51623580558E-05 -1.55004028868E-05 +1.30387955883E-05 +9.28236627906E-06 -6.59897197435E-01 +7.17524479545E-01
1.13000000000E+09 -5.17979650792E-01 +8.04806232902E-01 +9.56060587706E-06 -4.96533233214E-06 +3.24221025587E-05 -2.37259848756E-06 -6.55595467425E-01 +7.21352002681E-01
1.13500000000E+09 -5.11766042669E-01 +8.07958253273E-01 -2.46375414211E-05 +3.99928655128E-06 +2.70762425982E-06 +3.72144846332E-06 -6.51126664517E-01 +7.25170621891E-01
1.14000000000E+09 -5.07110979130E-01 +8.10706860592E-01 +3.62211867260E-05 -4.31881255128E-06 +3.76229289706E-05 -2.16158572632E-05 -6.46416277800E-01 +7.28667514883E-01
1.14500000000E+09 -5.03733792972E-01 +8.12738881182E-01 +3.72698867236E-05 +2.97782961563E-05 +3.40694121437E-05 -6.60160450245E-06 -6.41769811841E-01 +7.31989213111E-01
1.15000000000E+09 -5.00776962287E-01 +8.14289175427E-01 +3.54063762499E-05 -4.56945833169E-06 +2.78786814695E-05 -2.85767810501E-05 -6.37163788795E-01 +7.35725659940E-01
1.15500000000E+09 -4.97531303519E-01 +8.15967289079E-01 +3.70362071521E-05 +2.10020535043E-06 +1.76894562654E-05 +3.12610124550E-05 -6.32384790269E-01 +7.39706775307E-01
1.16000000000E+09 -4.93364476696E-01 +8.17791143324E-01 +4.35722391498E-05 +2.81744121057E-05 +7.58664061436E-06 +2.26692964709E-06 -6.27584021852E-01 +7.43568220716E-01
1.16500000000E+09 -4.87882159438E-01 +8.20409566127E-01 +2.58842507286E-05 +1.75656731188E-06 +2.37586400132E-05 -1.86760126103E-05 -6.22457051346E-01 +7.47061251108E-01
1.17000000000E+09 -4.80967938317E-01 +8.23416771001E-01 +5.55345130159E-05 +2.35040093290E-05 +1.59405897653E-05 -5.60843059047E-06 -6.17043873427E-01 +7.50445188492E-01
1.17500000000E+09 -4.72869265816E-01 +8.26771122125E-01 +7.98007877931E-05 -2.27485686897E-06 +2.56168956890E-05 -1.00666923656E-05 -6.11236122538E-01 +7.53724009744E-01
1.18000000000E+09 -4.64536072039E-01 +8.30415127706E-01 +4.19752035167E-05 -2.01453603528E-05 +5.93143250381E-05 +1.27475677566E-05 -6.05660268345E-01 +7.56850802549E-01
1.18500000000E+09 -4.56335527558E-01 +8.33790389270E-01 +1.51358183044E-05 +4.88947922540E-06 +5.56109826233E-05 -1.10620387048E-05 -5.99780252704E-01 +7.59997979762E-01
1.19000000000E+09 -4.49238621247E-01 +8.36566050381E-01 +6.36989610078E-05 +1.25427009821E-05 +6.98912016208E-05 +3.03034259487E-05 -5.93488816081E-01 +7.62614940252E-01
1.19500000000E+09 -4.43406749299E-01 +8.39032334033E-01 +6.10792979586E-05 -4.63286071011E-05 +9.14260144256E-05 -4.83002537509E-05 -5.87526651599E-01 +7.63741103639E-01
1.20000000000E+09 -4.38854828181E-01 +8.40204142596E-01 +1.02829034461E-04 -7.15377699226E-05 +7.34067755143E-05 -1.08614891707E-04 -5.83157807613E-01 +7.63879293208E-01
1.20500000000E+09 -4.35002268704E-01 +8.41588107454E-01 +2.27406999640E-05 -7.39846141415E-05 +4.18075171320E-05 -7.33538990952E-05 -5.80802409739E-01 +7.64801872416E-01
1.21000000000E+09 -4.31060730268E-01 +8.42941333515E-01 +1.49922110346E-05 -1.11020288770E-04 -3.22033998418E-06 -4.02275216488E-05 -5.78897037095E-01 +7.67824380566E-01
1.21500000000E+09 -4.25752267921E-01 +8.44390551827E-01 +2.48455451738E-05 -1.47705981369E-05 +2.25790698636E-05 -9.41290423136E-05 -5.76282819804E-01 +7.72452077709E-01
1.22000000000E+09 -4.18887760733E-01 +8.46329106091E-01 +3.61910622830E-05 -7.73679409966E-05 +4.87822251054E-05 -5.48627884701E-05 -5.72074269140E-01 +7.77804149131E-01
1.22500000000E+09 -4.10098142020E-01 +8.49032474004E-01 +1.94402375931E-06 -7.48953443282E-05 +3.51606029073E-05 -8.79606633929E-05 -5.67009248005E-01 +7.82961792536E-01
1.23000000000E+09 -3.99804300578E-01 +8.52185843647E-01 -3.35507181448E-06 -8.26805035509E-05 +4.41063844676E-05 -5.00271231117E-05 -5.61283785488E-01 +7.87521497906E-01
1.23500000000E+09 -3.88970788773E-01 +8.55970090350E-01 +3.85922399012E-05 -8.50119311126E-05 +3.48388938016E-05 -9.73386577526E-05 -5.55365231946E-01 +7.91843594275E-01
1.24000000000E+09 -3.77944732439E-01 +8.59777386293E-01 -1.52855161220E-05 -9.35459404537E-05 +6.12859038352E-05 -7.75599306131E-05 -5.49425986518E-01 +7.95750480189E-01
1.24500000000E+09 -3.68013125318E-01 +8.63853891798E-01 +9.83135362242E-06 -1.12955956601E-04 -1.32612673914E-06 -1.04738830652E-04 -5.43114394884E-01 +7.99613103136E-01
1.25000000000E+09 -3.59517770597E-01 +8.67354980303E-01 +8.27761190924E-06 -1.69884343744E-04 +8.88872602170E-06 -1.20778241106E-04 -5.36369279872E-01 +8.03976756108E-01
1.25500000000E+09 -3.52860790172E-01 +8.69854596412E-01 -3.97423569117E-05 -1.29549839784E-04 -1.31617062134E-05 -1.21861050493E-04 -5.29511408947E-01 +8.07825176174E-01
1.26000000000E+09 -3.47665615294E-01 +8.71843643448E-01 -4.56363218763E-05 -1.27037983574E-04 -3.50146708296E-05 -1.08306583625E-04 -5.22844937058E-01 +8.12099141953E-01
1.26500000000E+09 -3.43315819391E-01 +8.73532919052E-01 -6.91081702428E-05 -1.20551844766E-04 -9.62672000821E-05 -1.00857115747E-04 -5.15929195935E-01 +8.15999260948E-01
1.27000000000E+09 -3.38640030410E-01 +8.74715712803E-01 -7.23488247916E-05 -1.19927580465E-04 -2.86447415144E-05 -1.32066610572E-04 -5.08981297997E-01 +8.19918523395E-01
1.27500000000E+09 -3.32914021594E-01 +8.76059907834E-01 -7.97045639013E-05 -9.95753002000E-05 -8.04253570194E-05 -1.78347025269E-04 -5.01973845716E-01 +8.23319338976E-01
1.28000000000E+09 -3.25163229879E-01 +8.77991496163E-01 -9.52289607085E-05 -1.45163055814E-04 -1.46528803583E-04 -1.12128644046E-04 -4.95017702205E-01 +8.26964692245E-01
1.28500000000E+09 -3.14956778579E-01 +8.80188564137E-01 -1.61424575899E-04 -1.23796599107E-04 -1.30959685018E-04 -9.17792031297E-05 -4.87472238015E-01 +8.30675202937E-01
1.29000000000E+09 -3.03259683673E-01 +8.82911977886E-01 -1.39602526507E-04 -1.02334103470E-04 -1.96350073926E-04 -1.00986160316E-04 -4.80027542618E-01 +8.34269401207E-01
1.29500000000E+09 -2.90422444698E-01 +8.86244922930E-01 -1.91826999900E-04 -7.56077378453E-05 -1.87201369565E-04 +6.45477553734E-06 -4.72075323314E-01 +8.37869991335E-01
1.30000000000E+09 -2.77569922584E-01 +8.89743910724E-01 -2.18492973174E-04 -8.80557185863E-05 -1.90880875922E-04 -8.05366560692E-05 -4.64346502911E-01 +8.41464116985E-01
1.30500000000E+09 -2.66056668490E-01 +8.92835340528E-01 -2.64208816097E-04 -1.51263317637E-05 -2.19389665170E-04 -3.73820519187E-05 -4.56260506917E-01 +8.44760303099E-01
1.31000000000E+09 -2.56172691993E-01 +8.95243994486E-01 -2.55930593686E-04 +4.11297553914E-05 -2.12481251926E-04 +6.12298496765E-05 -4.47873458349E-01 +8.48288250350E-01
1.31500000000E+09 -2.48564430498E-01 +8.97091442765E-01 -1.83034950242E-04 +3.56803099080E-05 -2.04556875568E-04 +5.70053856308E-05 -4.39039263190E-01 +8.51710424401E-01
1.32000000000E+09 -2.42612938372E-01 +8.98197046576E-01 -1.68208039548E-04 +2.41332491237E-05 -1.69638931505E-04 +6.61443722666E-05 -4.29916411029E-01 +8.55102502592E-01
1.32500000000E+09 -2.37352154836E-01 +8.98886981686E-01 -1.89847710210E-04 +1.16339223926E-05 -1.67894978303E-04 +3.78510812020E-05 -4.20303604700E-01 +8.58503860538E-01
1.33000000000E+09 -2.31104814254E-01 +8.99007643408E-01 -2.23975914861E-04 +6.77118437176E-05 -2.45665920609E-04 +8.84852188950E-05 -4.10556908834E-01 +8.61798387115E-01
1.33500000000E+09 -2.23159695589E-01 +8.98698263547E-01 -2.58952514536E-04 +9.02422438347E-05 -2.50394453991E-04 +9.95245986097E-05 -4.00791331470E-01 +8.65080836170E-01
1.34000000000E+09 -2.12489278961E-01 +8.98634042605E-01 -2.19771403685E-04 +1.74540228717E-04 -2.02798401342E-04 +1.44171237948E-04 -3.90596902730E-01 +8.68339647481E-01
1.34500000000E+09 -1.98853335240E-01 +8.98522212995E-01 -1.69035783981E-04 +1.99052329507E-04 -1.64926235900E-04 +1.77271967340E-04 -3.79617989046E-01 +8.71711151834E-01
1.35000000000E+09 -1.82955594321E-01 +8.98630164026E-01 -1.21006519788E-04 +1.36496269890E-04 -1.39793880684E-04 +1.84992328435E-04 -3.68425579335E-01 +8.74945589231E-01
1.35500000000E+09 -1.65524269862E-01 +8.98983000225E-01 -2.14083862088E-04 +1.57131211289E-04 -1.45374659944E-04 +1.82798693699E-04 -3.56775192179E-01 +8.77754810393E-01
1.36000000000E+09 -1.48097497095E-01 +8.99398642532E-01 -1.72085329377E-04 +1.98302919813E-04 -1.52271364554E-04 +2.05974302891E-04 -3.45067890086E-01 +8.80412056857E-01
1.36500000000E+09 -1.31584994052E-01 +9.00059480204E-01 -1.69767035521E-04 +2.54373942812E-04 -1.53277002056E-04 +1.71517089091E-04 -3.32877336876E-01 +8.82842660595E-01
1.37000000000E+09 -1.17047289256E-01 +9.00311512675E-01 -2.25548014474E-04 +2.54796600400E-04 -2.00138109558E-04 +2.15188607916E-04 -3.20096187088E-01 +8.85214256772E-01
1.37500000000E+09 -1.04586236841E-01 +9.00430966567E-01 -2.19675503931E-04 +3.72380356627E-04 -2.52328689409E-04 +3.12736488646E-04 -3.06339267864E-01 +8.87551804273E-01
1.38000000000E+09 -9.39184391832E-02 +9.00050192401E-01 -1.08792414902E-04 +4.69194034474E-04 -1.60467799307E-04 +4.27685849599E-04 -2.91684404404E-01 +8.89579758390E-01
1.38500000000E+09 -8.32803338002E-02 +8.99283527520E-01 +3.60009444264E-05 +4.08743746223E-04 -3.40238369175E-06 +4.49103270080E-04 -2.76196194120E-01 +8.91572003053E-01
1.39000000000E+09 -7.21507274087E-02 +8.97595625866E-01 +2.67097910317E-05 +3.89049205337E-04 +1.62461089736E-05 +4.27453240003E-04 -2.60353928891E-01 +8.93132198590E-01
1.39500000000E+09 -5.87185991891E-02 +8.95179299345E-01 +5.19463502118E-05 +4.33637975486E-04 +5.61044373279E-05 +5.02467186355E-04 -2.43373468852E-01 +8.93864946476E-01
1.40000000000E+09 -4.20728353481E-02 +8.91549764728E-01 +1.06484202850E-04 +4.42740465175E-04 +1.24913908189E-04 +4.60892129772E-04 -2.25902742128E-01 +8.94280133388E-01
1.40500000000E+09 -2.29853566837E-02 +8.87005053608E-01 +1.75472259129E-04 +3.73429071520E-04 +1.89300757219E-04 +3.63455317325E-04 -2.07115642878E-01 +8.94175068010E-01
1.41000000000E+09 -1.49518238682E-03 +8.81463957022E-01 +1.97033227775E-04 +4.02126696999E-04 +1.65087633235E-04 +4.25762695008E-04 -1.87015865620E-01 +8.93498830782E-01
1.41500000000E+09 +2.13338343361E-02 +8.75176675614E-01 +2.90219302567E-04 +4.14061562589E-04 +2.59462157657E-04 +4.00266667354E-04 -1.65413925368E-01 +8.91929770893E-01
1.42000000000E+09 +4.43900211543E-02 +8.68755844105E-01 +3.10552302167E-04 +4.56731871306E-04 +3.17860750479E-04 +4.67311178112E-04 -1.42540376134E-01 +8.89338570104E-01
1.42500000000E+09 +6.70637049839E-02 +8.61724870530E-01 +3.48434790826E-04 +3.77952615904E-04 +4.21877959657E-04 +4.18349919205E-04 -1.19037993835E-01 +8.85898272717E-01
1.43000000000E+09 +8.86874138609E-02 +8.53857901299E-01 +3.29286621585E-04 +3.36252038787E-04 +3.97796059816E-04 +2.95854506543E-04 -9.40760206507E-02 +8.81155154521E-01
1.43500000000E+09 +1.09366595867E-01 +8.44543042410E-01 +3.64053253980E-04 +3.96815564637E-04 +4.09386065724E-04 +3.61437964692E-04 -6.78354443829E-02 +8.74696008556E-01
1.44000000000E+09 +1.29571917844E-01 +8.34195099456E-01 +4.34606819862E-04 +3.60752587662E-04 +4.26872780445E-04 +3.69519676556E-04 -3.95738669649E-02 +8.66058878155E-01
1.44500000000E+09 +1.51147103755E-01 +8.21337929956E-01 +3.79934782754E-04 +4.19876975327E-04 +4.84238759085E-04 +3.76698115316E-04 -9.52154591659E-03 +8.54605238010E-01
1.45000000000E+09 +1.74950064954E-01 +8.04964395914E-01 +4.59811241673E-04 +4.79842508046E-04 +5.42219798404E-04 +4.64459263090E-04 +2.22175169862E-02 +8.40208382020E-01
1.45500000000E+09 +2.01463613634E-01 +7.84416293520E-01 +6.44184451462E-04 +5.85437283261E-04 +6.85443289401E-04 +5.44840291892E-04 +5.56374975888E-02 +8.22833429890E-01
1.46000000000E+09 +2.30872521223E-01 +7.58928594757E-01 +8.14118159119E-04 +5.85914335447E-04 +8.54345436383E-04 +4.54575149740E-04 +9.04890984138E-02 +8.01208345748E-01
1.46500000000E+09 +2.62559490317E-01 +7.28330340651E-01 +1.03280029547E-03 +5.81483673217E-04 +9.89394232789E-04 +4.89727772985E-04 +1.26460924861E-01 +7.74703036379E-01
1.47000000000E+09 +2.95153931405E-01 +6.92167740596E-01 +1.41338825720E-03 +6.98361647291E-04 +1.28781601056E-03 +6.21691243370E-04 +1.63660883716E-01 +7.41567920012E-01
1.47500000000E+09 +3.27364683415E-01 +6.50643535560E-01 +1.90035806215E-03 +3.90956556329E-04 +1.82991891788E-03 +3.55201625749E-04 +2.01372970336E-01 +7.01149009271E-01
1.48000000000E+09 +3.57246007044E-01 +6.03439579462E-01 +2.15207666273E-03 +8.46696859834E-05 +2.16571567435E-03 +1.13884510021E-04 +2.38631754471E-01 +6.51933891235E-01
1.48500000000E+09 +3.82837879894E-01 +5.49802494053E-01 +2.60233790460E-03 -4.11504693504E-04 +2.63303277874E-03 -4.70748563202E-04 +2.73517777324E-01 +5.92903330406E-01
1.49000000000E+09 +4.02479682427E-01 +4.89499529436E-01 +2.75561181678E-03 -1.15569805120E-03 +2.67825145671E-03 -1.29895252857E-03 +3.01848729991E-01 +5.22980265800E-01
1.49500000000E+09 +4.15199234827E-01 +4.21697523054E-01 +3.05827534578E-03 -1.78732764997E-03 +2.85371899567E-03 -1.82393924785E-03 +3.21121008712E-01 +4.43876282695E-01
1.50000000000E+09 +4.17821399082E-01 +3.44228259299E-01 +3.07822703761E-03 -3.30263646439E-03 +2.79625086175E-03 -3.11715395231E-03 +3.27925862550E-01 +3.54153672728E-01
1.50500000000E+09 +4.07409937964E-01 +2.58490156662E-01 +2.05301744329E-03 -4.45868279856E-03 +2.06677371480E-03 -4.21967882044E-03 +3.17017072185E-01 +2.56322792264E-01
1.51000000000E+09 +3.80465768227E-01 +1.66281051394E-01 +9.91724675614E-04 -5.35205498863E-03 +1.16128552707E-03 -5.15716983212E-03 +2.84721536986E-01 +1.55273596986E-01
1.51500000000E+09 +3.34098069456E-01 +7.34286526108E-02 -9.89641909178E-04 -6.42237609565E-03 -7.88243806189E-04 -6.42615923253E-03 +2.31200086781E-01 +5.73564935533E-02
1.52000000000E+09 +2.68248654812E-01 -1.41362825843E-02 -3.24696021066E-03 -5.50885229097E-03 -3.19495459680E-03 -5.62862115142E-03 +1.54569877961E-01 -3.07858354675E-02
1.52500000000E+09 +1.82788771886E-01 -8.91958438391E-02 -4.45672312097E-03 -4.59412019549E-03 -4.46011439526E-03 -4.65353496738E-03 +5.88231906785E-02 -9.91658276234E-02
1.53000000000E+09 +8.10746221025E-02 -1.44339058782E-01 -5.75562087190E-03 -3.44636899237E-03 -5.82349662748E-03 -3.49826982060E-03 -4.79051374760E-02 -1.45401566070E-01
1.53500000000E+09 -3.09297496574E-02 -1.73359455591E-01 -6.99157087654E-03 -1.44786756718E-03 -6.98273976129E-03 -1.43748999739E-03 -1.60335709575E-01 -1.66570444576E-01
1.54000000000E+09 -1.44562127998E-01 -1.74318572476E-01 -6.94340668592E-03 +5.52548071822E-04 -6.89076723857E-03 +4.43300614099E-04 -2.69698343550E-01 -1.63981977563E-01
1.54500000000E+09 -2.51743943881E-01 -1.50915003638E-01 -6.66890826357E-03 +3.00773441303E-03 -6.60080721328E-03 +2.75376022859E-03 -3.69736529302E-01 -1.41701834264E-01
1.55000000000E+09 -3.49315959866E-01 -1.08151219978E-01 -4.70488569938E-03 +4.69819039870E-03 -4.87513027322E-03 +4.40105509860E-03 -4.56728815869E-01 -1.03967289050E-01
1.55500000000E+09 -4.31642024231E-01 -5.08472236710E-02 -2.85615205287E-03 +5.18303602364E-03 -3.13601282677E-03 +5.14910593419E-03 -5.28720477367E-01 -5.64014530440E-02
1.56000000000E+09 -4.97260050630E-01 +1.24185367418E-02 -1.38504833155E-03 +5.39663036790E-03 -1.73576008139E-03 +5.55007674434E-03 -5.86859633188E-01 -2.70022012580E-03
1.56500000000E+09 -5.48454683332E-01 +7.57415997671E-02 +2.84690629897E-04 +4.98491888897E-03 +1.68514320318E-04 +5.35475746504E-03 -6.32051639304E-01 +5.38391068559E-02
1.57000000000E+09 -5.87859595804E-01 +1.37313858881E-01 +1.39564098488E-03 +3.97116903297E-03 +1.53468743716E-03 +4.22722921499E-03 -6.65725917012E-01 +1.09760897212E-01
