# Hz S RI R 50
! CMT, C1220, 16058040, 17.2.0/1
! Date: 14/08/2018 12:15:06
! Data: Format (Calibration Info)
! Freq                      S11: Re/Im (F2)                       S21: Re/Im (F2)                       S12: Re/Im (F2)                       S22: Re/Im (F2)            
1.00000000000E+09 -6.47769190070E-01 +7.14366809373E-01 -4.23906054673E-05 +2.44578980519E-05 +3.65139399908E-05 +2.87108579492E-05 -7.53571077520E-01 +6.24962788852E-01
1.00500000000E+09 -6.40462231516E-01 +7.19480773511E-01 -1.12055667231E-05 +5.45978531590E-05 -4.60160805701E-05 +1.38668579952E-05 -7.49918097734E-01 +6.28975876312E-01
1.01000000000E+09 -6.34692205419E-01 +7.24079388226E-01 +8.54660630667E-06 -1.43574391240E-05 +1.36492062493E-06 +2.50333343756E-05 -7.46447222697E-01 +6.32827730624E-01
1.01500000000E+09 -6.30830131135E-01 +7.27825365238E-01 -4.61587099986E-05 +3.12367420479E-05 -1.92681833655E-06 -1.18866988394E-05 -7.43136013034E-01 +6.36577443029E-01
1.02000000000E+09 -6.28605907099E-01 +7.30854739509E-01 -1.28382036172E-05 +6.62067459725E-06 -1.26387937931E-05 -8.35903909004E-06 -7.39674619533E-01 +6.40126352033E-01
1.02500000000E+09 -6.27371467289E-01 +7.33381334618E-01 -4.56906796446E-05 -2.64949566443E-05 -1.80344984625E-05 +2.03225200153E-05 -7.36727409855E-01 +6.43631476965E-01
1.03000000000E+09 -6.26679033146E-01 +7.35537897749E-01 -7.19508052111E-06 +4.51212853237E-05 -2.02965599573E-05 +4.39496074304E-05 -7.33347634624E-01 +6.47480676943E-01
1.03500000000E+09 -6.25061943008E-01 +7.37539316064E-01 +2.86994548020E-06 -2.80134453649E-05 +8.73410538272E-06 +1.74748717019E-05 -7.29593784821E-01 +6.51403189725E-01
1.04000000000E+09 -6.21677844842E-01 +7.39956432787E-01 +1.81739917761E-05 -2.04751041017E-07 -3.72871640990E-05 +2.67899208066E-05 -7.25787246662E-01 +6.55168111120E-01
1.04500000000E+09 -6.16623641484E-01 +7.43432688430E-01 -8.70645748939E-06 -1.11008684913E-05 -3.27533193360E-06 -4.64610284130E-06 -7.22355314597E-01 +6.58583002957E-01
1.05000000000E+09 -6.09335582761E-01 +7.47589597377E-01 -2.53634425338E-05 -3.07942199749E-05 -3.33434229271E-05 +3.24391587708E-05 -7.18709321962E-01 +6.62014124147E-01
1.05500000000E+09 -6.00635774575E-01 +7.52269174445E-01 -1.52681272702E-05 +5.21801572799E-06 +2.68257488614E-05 +6.26644363913E-05 -7.15520187798E-01 +6.65595960655E-01
1.06000000000E+09 -5.91234537610E-01 +7.57390906800E-01 +3.58706967879E-06 +1.47403634335E-05 -1.54735646448E-05 +3.26469278301E-05 -7.12211717875E-01 +6.69314319323E-01
1.06500000000E+09 -5.82267737799E-01 +7.62607525896E-01 +1.32694261929E-05 +5.73141700814E-06 +1.14374225175E-05 +4.97798276813E-05 -7.08715596395E-01 +6.73305772606E-01
1.07000000000E+09 -5.74532440784E-01 +7.67041339135E-01 +2.24701085642E-05 +1.24890230296E-05 +3.93417656597E-05 +3.24056047922E-05 -7.04438484832E-01 +6.77010401077E-01
1.07500000000E+09 -5.68923274102E-01 +7.71136743698E-01 +2.32640671800E-05 +2.64096059045E-05 +6.01392396516E-05 +3.76294930164E-05 -7.00073767743E-01 +6.80650171542E-01
1.08000000000E+09 -5.65111999184E-01 +7.74420301527E-01 +7.68106776955E-05 +5.62141177573E-06 +4.61781760759E-05 +1.85272223175E-05 -6.96097081599E-01 +6.84290806635E-01
1.08500000000E+09 -5.63018651643E-01 +7.76754262662E-01 +5.77317253144E-05 +1.30038252144E-05 +7.54485958690E-05 +3.13790532387E-05 -6.92222386629E-01 +6.88074886963E-01
1.09000000000E+09 -5.61506502691E-01 +7.78735979351E-01 +3.67718926857E-05 -1.61457864997E-05 -1.59670649321E-05 +2.12394594189E-05 -6.88327192527E-01 +6.92099864866E-01
1.09500000000E+09 -5.60289562502E-01 +7.80508448426E-01 +3.18096307483E-05 +2.46482457665E-05 +4.13437641931E-05 +3.53588332835E-05 -6.84644358035E-01 +6.95980923867E-01
1.10000000000E+09 -5.57465993932E-01 +7.82331813844E-01 +2.87569352054E-05 +5.46680737922E-05 +2.15014622664E-05 +1.74560593791E-05 -6.80583001811E-01 +6.99758515755E-01
1.10500000000E+09 -5.53308418886E-01 +7.84850070004E-01 +3.71340567026E-05 +5.46379692176E-06 +5.16832126060E-05 +8.52619887162E-07 -6.76338432272E-01 +7.03239203226E-01
1.11000000000E+09 -5.47328426253E-01 +7.88031326957E-01 +5.80380433936E-06 +1.81831921154E-05 -9.12615696327E-06 +1.79873151772E-05 -6.72037373882E-01 +7.06803482687E-01
1.11500000000E+09 -5.39839551081E-01 +7.91955634546E-01 +2.70924756353E-05 -5.28583275606E-05 +1.32720297606E-05 +8.98569292814E-06 -6.67890870194E-01 +7.10119749895E-01
1.12000000000E+09 -5.31487936437E-01 +7.96019522268E-01 +2.32532958543E-05 +1.03227191983E-05 +3.20343370660E-05 -2.02976483956E-05 -6.63904835555E-01 +7.13892087043E-01
1.12500000000E+09 -5.23170948220E-01 +8.00248306165E-01 +2.33126972002E-05 +3.49046175201E-05 -2.28505508924E-05 +1.81386380325E-05 -6.59650631916E-01 +7.17720486163E-01
1.13000000000E+09 -5.15884689736E-01 +8.04151513697E-01 +3.02672087378E-05 -4.59678587343E-05 +1.20845451566E-05 -1.22215596766E-06 -6.55402942844E-01 +7.21416248237E-01
1.13500000000E+09 -5.09729309771E-01 +8.07276687555E-01 +4.52968656061E-05 +1.83580950281E-05 +1.82965291123E-05 -1.01587804796E-05 -6.50939205348E-01 +7.25307530630E-01
1.14000000000E+09 -5.05101119547E-01 +8.10145338917E-01 +2.91009747922E-05 -1.33720138046E-06 +2.74639548129E-05 +1.03691490676E-05 -6.46184430943E-01 +7.28847050247E-01
1.14500000000E+09 -5.01612742752E-01 +8.11853910726E-01 +7.56938960500E-06 -5.82414379292E-07 +1.51233741083E-05 +9.77329873900E-07 -6.41552781089E-01 +7.32231204542E-01
1.15000000000E+09 -4.98743147651E-01 +8.13488810586E-01 +7.61921348553E-05 -6.50424317334E-06 +5.36245705213E-05 +1.67258440782E-05 -6.36948744880E-01 +7.36023042273E-01
1.15500000000E+09 -4.95587442481E-01 +8.15247274364E-01 +2.32039791965E-05 +2.66873343151E-05 +4.29983381500E-06 -1.43782007265E-06 -6.32123630086E-01 +7.39849838099E-01
1.16000000000E+09 -4.91320527733E-01 +8.17042097637E-01 +3.34944108300E-06 +2.38534514216E-05 -2.77918023452E-05 +6.89930466273E-06 -6.27280011959E-01 +7.43642554184E-01
1.16500000000E+09 -4.85705626747E-01 +8.19539112873E-01 +3.10030164782E-05 +5.69780056207E-05 -1.66467878042E-06 +3.97256754298E-05 -6.22179286357E-01 +7.47215060902E-01
1.17000000000E+09 -4.78715785930E-01 +8.22478179654E-01 +5.07718481285E-05 -1.27118829752E-05 +5.07994067661E-05 +2.27136477874E-06 -6.16755190028E-01 +7.50651061189E-01
1.17500000000E+09 -4.70589241962E-01 +8.25772691153E-01 +3.58569245627E-05 +2.27221302727E-05 +3.16529893272E-05 -4.06015437586E-05 -6.10934858852E-01 +7.53898341884E-01
1.18000000000E+09 -4.62112277203E-01 +8.29418800435E-01 +4.82931063924E-05 -3.51338316015E-05 +7.21515673159E-05 -4.19695732739E-05 -6.05556666146E-01 +7.56918997922E-01
1.18500000000E+09 -4.53903897847E-01 +8.32738648345E-01 +6.00060186376E-05 -1.79219012160E-05 +5.26121567371E-05 -2.34427104229E-05 -5.99442663574E-01 +7.60005957442E-01
1.19000000000E+09 -4.46617709199E-01 +8.35633487213E-01 +5.18950870275E-05 -2.08509903895E-06 +9.59830996426E-05 -1.84558878418E-05 -5.93244332202E-01 +7.62820100005E-01
1.19500000000E+09 -4.40899565739E-01 +8.37938627445E-01 +1.28573795820E-04 -2.92952928421E-05 +4.11915644421E-05 -6.81715317364E-05 -5.87349950078E-01 +7.63980407461E-01
1.20000000000E+09 -4.36540412866E-01 +8.39024973819E-01 +6.07867393267E-05 -6.13277831596E-05 +7.98614817608E-05 -9.76757954358E-05 -5.82728393616E-01 +7.64078104837E-01
1.20500000000E+09 -4.32744528279E-01 +8.40429118097E-01 -7.11407350689E-06 -7.29216679308E-05 -1.36914001784E-05 -9.73637504636E-05 -5.80482893330E-01 +7.64956386458E-01
1.21000000000E+09 -4.28809977543E-01 +8.41656801304E-01 -3.46297939009E-05 -7.77572414868E-05 -5.65071837127E-06 -1.19694723390E-04 -5.78659308479E-01 +7.67994545787E-01
1.21500000000E+09 -4.23522101689E-01 +8.43129091425E-01 -1.92219635581E-05 -8.34794902774E-05 -7.54375490632E-06 -1.04964794588E-04 -5.76034980484E-01 +7.72488750212E-01
1.22000000000E+09 -4.16654177694E-01 +8.44965386738E-01 -2.11697144989E-05 -5.87473735985E-05 -3.36069737458E-05 -8.20491217387E-05 -5.71821178384E-01 +7.77901743026E-01
1.22500000000E+09 -4.07852097308E-01 +8.47639708882E-01 +2.66324895812E-05 -8.31232689039E-05 +1.54652447668E-06 -6.83495739970E-05 -5.66601572105E-01 +7.83038737083E-01
1.23000000000E+09 -3.97470193183E-01 +8.50727530775E-01 +1.50716020578E-05 -3.77844362024E-05 -8.85192925208E-06 -8.51031888413E-05 -5.60919445919E-01 +7.87712277323E-01
1.23500000000E+09 -3.86398554206E-01 +8.54254220700E-01 +1.69432201467E-05 -1.06805491043E-04 -3.37851819805E-05 -7.03239313675E-05 -5.55156356745E-01 +7.92074980240E-01
1.24000000000E+09 -3.75339413414E-01 +8.58193031242E-01 +7.81713886835E-06 -1.11698272561E-04 +1.85981772258E-06 -1.23433008473E-04 -5.49139643932E-01 +7.95980290729E-01
1.24500000000E+09 -3.65388803985E-01 +8.62196591211E-01 -3.37703129893E-06 -1.20924340361E-04 +3.80083334517E-05 -1.31005099083E-04 -5.42720085484E-01 +7.99781478159E-01
1.25000000000E+09 -3.56852633563E-01 +8.65553994498E-01 -1.56937953299E-05 -1.40413062174E-04 -1.11260571469E-05 -1.03707875758E-04 -5.36079021105E-01 +8.03962564421E-01
1.25500000000E+09 -3.50098898722E-01 +8.68057339141E-01 -6.83310169082E-05 -1.32470783090E-04 -6.99804115864E-05 -1.36090295212E-04 -5.29344653730E-01 +8.07963109012E-01
1.26000000000E+09 -3.44934099122E-01 +8.70181261302E-01 -5.00941007781E-05 -1.24919666336E-04 -4.75634828402E-05 -1.19687360794E-04 -5.22680091513E-01 +8.12318043121E-01
1.26500000000E+09 -3.40549081565E-01 +8.71697527076E-01 -8.39108121587E-05 -9.48657546492E-05 -7.20569720412E-05 -1.10013595580E-04 -5.15555510263E-01 +8.16242636100E-01
1.27000000000E+09 -3.35984737259E-01 +8.72910936461E-01 -1.05774897950E-04 -8.67708942449E-05 -1.26438521365E-04 -1.19179325045E-04 -5.08770980184E-01 +8.19955759134E-01
1.27500000000E+09 -3.30281224387E-01 +8.74249839823E-01 -1.30581041718E-04 -1.20554358068E-04 -1.23163589105E-04 -9.32305726196E-05 -5.01697091014E-01 +8.23593796810E-01
1.28000000000E+09 -3.22553539538E-01 +8.75821891907E-01 -1.56486544276E-04 -8.70592696815E-05 -1.57835707448E-04 -7.45431564493E-05 -4.94635180407E-01 +8.26998383771E-01
1.28500000000E+09 -3.12461498970E-01 +8.77946801278E-01 -1.86151058010E-04 -7.72615741232E-05 -1.41205140365E-04 -7.32085813259E-05 -4.87367197508E-01 +8.30788249485E-01
1.29000000000E+09 -3.00659754608E-01 +8.80659005746E-01 -1.65689408656E-04 -2.85519493721E-05 -1.50093892325E-04 -6.92674754353E-05 -4.79818464166E-01 +8.34542365335E-01
1.29500000000E+09 -2.87863195665E-01 +8.83908937137E-01 -1.93169283330E-04 -6.85511364379E-05 -2.05225724619E-04 -5.57400897528E-05 -4.71818198692E-01 +8.38044154240E-01
1.30000000000E+09 -2.75209649388E-01 +8.87241246648E-01 -1.36578954478E-04 -5.92174963018E-05 -1.80924068997E-04 -2.38876392788E-06 -4.63949893027E-01 +8.41543215450E-01
1.30500000000E+09 -2.63299624843E-01 +8.90272197258E-01 -2.47374652935E-04 +2.80218587809E-05 -1.95585691936E-04 +3.54804339713E-05 -4.55926468741E-01 +8.44922454717E-01
1.31000000000E+09 -2.53516295313E-01 +8.92718194361E-01 -2.12244722233E-04 +3.67379330348E-05 -2.07263185642E-04 +3.81998628157E-05 -4.47568807807E-01 +8.48416432483E-01
1.31500000000E+09 -2.45793545886E-01 +8.94616147074E-01 -1.92898192815E-04 +1.00651111128E-04 -1.99539086773E-04 +9.26730751670E-05 -4.38825203656E-01 +8.51927808678E-01
1.32000000000E+09 -2.39903416084E-01 +8.95719872332E-01 -1.59792446816E-04 +4.43686526159E-05 -1.64890122691E-04 +8.38974654086E-05 -4.29533368229E-01 +8.55232243735E-01
1.32500000000E+09 -2.34528925106E-01 +8.96254650731E-01 -2.21695360559E-04 +7.13724542277E-05 -2.02849737920E-04 +4.51019128287E-05 -4.20014724262E-01 +8.58644020188E-01
1.33000000000E+09 -2.28377780776E-01 +8.96310140959E-01 -2.75052232834E-04 +6.04397467468E-05 -2.06536694940E-04 +1.08852683011E-04 -4.10245386008E-01 +8.61977750091E-01
1.33500000000E+09 -2.20547936540E-01 +8.95918205295E-01 -2.17540551139E-04 +1.51371205625E-04 -1.95465587997E-04 +1.90316357437E-04 -4.00536021459E-01 +8.65228428863E-01
1.34000000000E+09 -2.09852425188E-01 +8.95792011034E-01 -1.79234683338E-04 +2.09023690724E-04 -1.67701544669E-04 +1.95084072858E-04 -3.90326212377E-01 +8.68549800816E-01
1.34500000000E+09 -1.96346620981E-01 +8.95576624616E-01 -1.18322520918E-04 +2.33072810913E-04 -1.30778952685E-04 +1.99727624668E-04 -3.79399604014E-01 +8.71916148695E-01
1.35000000000E+09 -1.80565220838E-01 +8.95633365972E-01 -1.58752714009E-04 +1.69548195895E-04 -1.46712317526E-04 +1.76186103920E-04 -3.68165092930E-01 +8.74928029143E-01
1.35500000000E+09 -1.63147228955E-01 +8.95908179688E-01 -1.76315744285E-04 +2.37024057694E-04 -1.54401575769E-04 +2.37466395526E-04 -3.56654140318E-01 +8.77818576928E-01
1.36000000000E+09 -1.45757609169E-01 +8.96233397129E-01 -1.32164787792E-04 +2.55641037715E-04 -1.58343152252E-04 +2.71994227433E-04 -3.44698617543E-01 +8.80573906516E-01
1.36500000000E+09 -1.29176906521E-01 +8.96711147070E-01 -1.66116249287E-04 +2.96314668533E-04 -1.37446097275E-04 +3.03180579719E-04 -3.32642571860E-01 +8.83083098034E-01
1.37000000000E+09 -1.14492959077E-01 +8.96878633651E-01 -1.35372040803E-04 +3.06814914569E-04 -1.33607558943E-04 +3.06070654239E-04 -3.19756362930E-01 +8.85446782991E-01
1.37500000000E+09 -1.02298651960E-01 +8.96928824563E-01 -1.44993280164E-04 +4.44508975378E-04 -2.12863960515E-04 +3.72990957376E-04 -3.06184312213E-01 +8.87621904058E-01
1.38000000000E+09 -9.16563785537E-02 +8.96621015091E-01 -1.79720198664E-05 +5.11026195040E-04 -1.27506215982E-04 +5.26325324755E-04 -2.91612022641E-01 +8.89810107674E-01
1.38500000000E+09 -8.11887733377E-02 +8.95687636919E-01 +9.54602269208E-05 +4.56629418147E-04 +6.51839984988E-05 +5.08598868322E-04 -2.75994241948E-01 +8.91818245036E-01
1.39000000000E+09 -7.00706001142E-02 +8.93968729071E-01 +1.08230335377E-04 +4.47381889332E-04 +1.25218770756E-04 +5.23337048380E-04 -2.59968335879E-01 +8.93251562560E-01
1.39500000000E+09 -5.67672169862E-02 +8.91330424672E-01 +1.27528629653E-04 +4.64176410876E-04 +1.94677643404E-04 +5.30674013144E-04 -2.43229483932E-01 +8.94010914465E-01
1.40000000000E+09 -4.03745400066E-02 +8.87613960127E-01 +2.82363688417E-04 +4.47978397421E-04 +3.30001352151E-04 +4.14866035851E-04 -2.25680680354E-01 +8.94672678025E-01
1.40500000000E+09 -2.14468455146E-02 +8.82909985751E-01 +2.63825504393E-04 +3.51238944113E-04 +3.08903836951E-04 +3.17290987734E-04 -2.06886947954E-01 +8.94648757196E-01
1.41000000000E+09 -1.49885214630E-04 +8.77349696603E-01 +2.54396072069E-04 +3.58700699684E-04 +2.62538614455E-04 +3.75977169608E-04 -1.86580841981E-01 +8.93878192570E-01
1.41500000000E+09 +2.25958179242E-02 +8.71037826567E-01 +2.52858466559E-04 +3.68660930626E-04 +2.81822023491E-04 +3.89608893321E-04 -1.64921575216E-01 +8.92414296131E-01
1.42000000000E+09 +4.57278740706E-02 +8.64442275652E-01 +3.40554904811E-04 +4.47270918987E-04 +3.55142720630E-04 +4.71971045653E-04 -1.42011060606E-01 +8.89771379538E-01
1.42500000000E+09 +6.81591039291E-02 +8.57262851843E-01 +4.76090737831E-04 +3.55565975999E-04 +5.16526777990E-04 +4.27445418009E-04 -1.18299224511E-01 +8.86343793131E-01
1.43000000000E+09 +8.95907675912E-02 +8.49341744013E-01 +4.76087271281E-04 +3.17368045958E-04 +5.46775355244E-04 +2.66267426030E-04 -9.33513552351E-02 +8.81687292761E-01
1.43500000000E+09 +1.09932374377E-01 +8.39963898841E-01 +5.00396532483E-04 +3.66946071870E-04 +5.18352130449E-04 +3.39102209778E-04 -6.68986532699E-02 +8.74945701840E-01
1.44000000000E+09 +1.29966912109E-01 +8.29684465852E-01 +5.41734047841E-04 +3.38819272174E-04 +5.42488901456E-04 +2.48243468309E-04 -3.85705671597E-02 +8.66233051669E-01
1.44500000000E+09 +1.51260655304E-01 +8.16732914593E-01 +5.65979179921E-04 +4.48986489849E-04 +5.89119320742E-04 +3.83089912463E-04 -8.52750526000E-03 +8.54729331702E-01
1.45000000000E+09 +1.74560186137E-01 +8.00322190369E-01 +6.94385378975E-04 +4.36165134978E-04 +7.18433949675E-04 +4.53574525135E-04 +2.32420864679E-02 +8.40220737633E-01
1.45500000000E+09 +2.00390056746E-01 +7.79711402246E-01 +8.82115136749E-04 +5.09205021426E-04 +9.60010126976E-04 +4.24290604110E-04 +5.67420065142E-02 +8.22663665689E-01
1.46000000000E+09 +2.29549689035E-01 +7.54413248350E-01 +1.09526507826E-03 +4.45116809240E-04 +1.04927094061E-03 +3.28877368708E-04 +9.17603796763E-02 +8.00684012596E-01
1.46500000000E+09 +2.60619911821E-01 +7.23849450747E-01 +1.39174193743E-03 +4.69385472933E-04 +1.24147785366E-03 +3.66216844037E-04 +1.27348784191E-01 +7.73828562863E-01
1.47000000000E+09 +2.93008105990E-01 +6.87998268698E-01 +1.93034761927E-03 +3.69561401118E-04 +1.76351965198E-03 +3.85745524693E-04 +1.64298178208E-01 +7.40923543495E-01
1.47500000000E+09 +3.24956211441E-01 +6.46528930403E-01 +2.35389528282E-03 -3.32644523931E-04 +2.24394632579E-03 -2.12943168291E-04 +2.02100825475E-01 +7.00564866836E-01
1.48000000000E+09 +3.54209177742E-01 +5.99432134600E-01 +2.33401021534E-03 -8.87814788550E-04 +2.37282409904E-03 -7.59632966178E-04 +2.39355637509E-01 +6.51043284277E-01
1.48500000000E+09 +3.79258561918E-01 +5.46327218268E-01 +2.53035747925E-03 -1.35982818830E-03 +2.60096848212E-03 -1.46354206675E-03 +2.74093933751E-01 +5.92015775382E-01
1.49000000000E+09 +3.98279164440E-01 +4.86932262592E-01 +2.37504525232E-03 -2.14766900647E-03 +2.29953677210E-03 -2.21694439247E-03 +3.02588325212E-01 +5.22030544964E-01
1.49500000000E+09 +4.10302905839E-01 +4.20244981649E-01 +2.61022949469E-03 -2.82483231176E-03 +2.41792557902E-03 -2.80934442026E-03 +3.21781731365E-01 +4.42617579608E-01
1.50000000000E+09 +4.12637125302E-01 +3.44204832879E-01 +2.14738541450E-03 -4.45562728651E-03 +2.01875981148E-03 -4.15994865273E-03 +3.28395195768E-01 +3.52694495780E-01
1.50500000000E+09 +4.02100014686E-01 +2.59891561289E-01 +6.45487853375E-04 -5.61716597027E-03 +7.75870094002E-04 -5.32052077205E-03 +3.17270990711E-01 +2.54688272542E-01
1.51000000000E+09 +3.75294964351E-01 +1.69468404301E-01 -1.17317722771E-03 -5.96607043700E-03 -8.51264334814E-04 -5.90209382838E-03 +2.84965980200E-01 +1.53484100195E-01
1.51500000000E+09 +3.30029983894E-01 +7.85139005745E-02 -3.34222554646E-03 -5.91324343241E-03 -3.16939505538E-03 -6.06463270022E-03 +2.30994868177E-01 +5.47282291970E-02
1.52000000000E+09 +2.65672993372E-01 -7.79673830629E-03 -5.19951366735E-03 -4.26691637603E-03 -5.20247473534E-03 -4.44694817677E-03 +1.53159245651E-01 -3.33558744426E-02
1.52500000000E+09 +1.82123936235E-01 -8.17345961051E-02 -5.73213894655E-03 -2.89102524825E-03 -5.84318636288E-03 -2.96399290849E-03 +5.65496309318E-02 -1.01755108462E-01
1.53000000000E+09 +8.32215035967E-02 -1.36546367409E-01 -6.70524244837E-03 -1.50108769667E-03 -6.75232211124E-03 -1.55822745821E-03 -5.12660168675E-02 -1.47048636549E-01
1.53500000000E+09 -2.61466864666E-02 -1.66946843497E-01 -7.15059239402E-03 +6.85710906219E-04 -7.16922300546E-03 +7.37295481575E-04 -1.64554960572E-01 -1.67221638829E-01
1.54000000000E+09 -1.38232952385E-01 -1.69489583564E-01 -6.57859174131E-03 +2.39325583164E-03 -6.57204895236E-03 +2.32560502626E-03 -2.73533125367E-01 -1.62918901793E-01
1.54500000000E+09 -2.44302839772E-01 -1.47926272672E-01 -5.86710087414E-03 +4.77286436287E-03 -5.90163220366E-03 +4.62961558431E-03 -3.73286878675E-01 -1.39808095833E-01
1.55000000000E+09 -3.41446115771E-01 -1.06788147265E-01 -3.51878406237E-03 +6.00403012765E-03 -3.74732956001E-03 +5.85516062826E-03 -4.59601850719E-01 -1.00959137236E-01
1.55500000000E+09 -4.23840893735E-01 -5.11691752900E-02 -1.46429828180E-03 +6.06159225144E-03 -1.80372740198E-03 +6.15860160476E-03 -5.30538255304E-01 -5.26121480484E-02
1.56000000000E+09 -4.90017449486E-01 +1.09986580704E-02 +4.51320924356E-05 +5.78591282762E-03 -1.87889421891E-04 +6.07279173168E-03 -5.87201181865E-01 +1.15193655713E-03
1.56500000000E+09 -5.41786226038E-01 +7.33451323595E-02 +1.57335001951E-03 +5.12627073399E-03 +1.59771730806E-03 +5.43632022954E-03 -6.31334014994E-01 +5.73319065613E-02
1.57000000000E+09 -5.82145945007E-01 +1.34347429819E-01 +2.58465575815E-03 +3.70838332931E-03 +2.78110629397E-03 +3.98060882446E-03 -6.64331378624E-01 +1.12525035457E-01
