# Hz S RI R 50
! CMT, C1220, 16058040, 17.2.0/1
! Date: 14/08/2018 12:14:03
! Data: Format (Calibration Info)
! Freq                      S11: Re/Im (F2)                       S21: Re/Im (F2)                       S12: Re/Im (F2)                       S22: Re/Im (F2)            
1.00000000000E+09 -6.46971884363E-01 +7.14450133400E-01 -1.10875180208E-05 +1.20661493710E-05 +1.94442764360E-05 -5.13823407996E-05 -7.53322409809E-01 +6.25274431501E-01
1.00500000000E+09 -6.39690881384E-01 +7.19572861814E-01 -1.63070822130E-05 +2.43665132714E-05 +1.23650468675E-05 -6.45350486751E-05 -7.49853658186E-01 +6.29322303604E-01
1.01000000000E+09 -6.33844933478E-01 +7.24183348856E-01 +7.40388904587E-06 -2.95362207387E-05 -1.62519285779E-05 -2.66367314164E-05 -7.46273688576E-01 +6.32941602426E-01
1.01500000000E+09 -6.29852075161E-01 +7.27942358451E-01 +1.39184278707E-05 +4.17917659560E-05 +1.53435735325E-05 +4.03863142417E-06 -7.42872026850E-01 +6.36673366121E-01
1.02000000000E+09 -6.27708751135E-01 +7.30986616730E-01 -4.16013252426E-06 +4.42795315401E-06 -2.10865706381E-05 -7.87299055440E-06 -7.39458161971E-01 +6.40202785910E-01
1.02500000000E+09 -6.26405396733E-01 +7.33414665869E-01 -3.28521535439E-05 +1.90307894484E-05 -3.67582506860E-05 +3.75096201134E-06 -7.36587071165E-01 +6.43933126243E-01
1.03000000000E+09 -6.25749851760E-01 +7.35598307217E-01 +2.34720086218E-05 +2.05952754843E-05 +1.66519948403E-06 +1.53670905764E-05 -7.33143212071E-01 +6.47865855969E-01
1.03500000000E+09 -6.24044564490E-01 +7.37692014158E-01 +1.06855488426E-05 +4.65447298586E-05 +3.25294551758E-05 -4.66721595048E-06 -7.29421185432E-01 +6.51684646065E-01
1.04000000000E+09 -6.20948584917E-01 +7.40213824136E-01 -5.70951968389E-05 +4.01374773724E-06 +1.42147603726E-05 -7.26531671799E-06 -7.25444198379E-01 +6.55446087272E-01
1.04500000000E+09 -6.15756454631E-01 +7.43398075897E-01 -8.57444955651E-06 +4.28707658862E-05 +2.90464307880E-06 +2.97498784908E-05 -7.22007012399E-01 +6.58943880381E-01
1.05000000000E+09 -6.08380769182E-01 +7.47478345323E-01 +1.59162636938E-05 +1.38420838038E-05 -2.69402311145E-06 +1.82295249480E-05 -7.18669620967E-01 +6.62339658094E-01
1.05500000000E+09 -5.99595649858E-01 +7.52166040254E-01 +1.19146459965E-05 +2.60036200355E-05 +2.91517794838E-05 +9.20734434674E-05 -7.15534332216E-01 +6.66030059138E-01
1.06000000000E+09 -5.90170886244E-01 +7.57536373130E-01 +1.27212226526E-05 +6.14475651247E-06 +1.37652303567E-05 +5.39298820588E-06 -7.12022733612E-01 +6.69565948597E-01
1.06500000000E+09 -5.81197756439E-01 +7.62462623054E-01 -2.96386822870E-05 +2.11320084026E-05 -2.19104982135E-05 +5.24453695605E-06 -7.08349406875E-01 +6.73444431101E-01
1.07000000000E+09 -5.73582941323E-01 +7.67091398898E-01 -1.06971366441E-05 +3.44347600530E-06 +4.03014369330E-05 +4.13095023310E-05 -7.04295733020E-01 +6.77171727316E-01
1.07500000000E+09 -5.67827960649E-01 +7.71017350966E-01 +7.63380034424E-06 +5.48524686499E-05 -6.44593003772E-07 +3.79818888652E-05 -6.99910159896E-01 +6.80841603293E-01
1.08000000000E+09 -5.64038365204E-01 +7.74303725019E-01 +3.38200247511E-05 -2.01864392208E-05 +2.01742489526E-05 +5.84871558880E-05 -6.95969290759E-01 +6.84746230695E-01
1.08500000000E+09 -5.61956769923E-01 +7.76728449250E-01 -1.69627021316E-05 -1.72892696121E-05 -8.25058037758E-06 +4.14219245691E-05 -6.91990948491E-01 +6.88419329044E-01
1.09000000000E+09 -5.60448331171E-01 +7.78818758905E-01 +2.10196334425E-05 +4.01924399949E-07 +3.29387662554E-05 -4.95239553965E-06 -6.88215601326E-01 +6.92310082316E-01
1.09500000000E+09 -5.59240384640E-01 +7.80558763906E-01 +1.97926942441E-05 -3.11180646273E-05 +4.92267729555E-05 -2.02562791137E-05 -6.84355523015E-01 +6.96116597066E-01
1.10000000000E+09 -5.56581761330E-01 +7.82396463925E-01 +3.02521418798E-05 -1.33022226046E-06 +6.06386154960E-05 +2.84509066754E-05 -6.80389915688E-01 +7.00100956977E-01
1.10500000000E+09 -5.52369833405E-01 +7.84882612549E-01 +5.08291902608E-05 +5.28530924142E-05 +6.15484714646E-05 +5.70883511033E-06 -6.75931392850E-01 +7.03648483110E-01
1.11000000000E+09 -5.46241062994E-01 +7.87987294959E-01 +4.55023072381E-05 +4.17938928721E-05 +3.41630064405E-05 +1.87041917755E-05 -6.71747552249E-01 +7.06869236455E-01
1.11500000000E+09 -5.38857757196E-01 +7.91901440219E-01 +2.78376628238E-05 +3.89124770788E-06 +4.09846727474E-05 -5.08499661784E-06 -6.67740779105E-01 +7.10393197303E-01
1.12000000000E+09 -5.30477853295E-01 +7.95782174279E-01 -6.71712106286E-06 +1.39722533382E-05 -8.89007138688E-06 +1.98603918098E-05 -6.63705163554E-01 +7.14170927353E-01
1.12500000000E+09 -5.22087485290E-01 +8.00107442829E-01 +5.72201506508E-05 +2.63975603000E-05 +7.46372705138E-06 +2.80579379133E-05 -6.59395572697E-01 +7.18134652717E-01
1.13000000000E+09 -5.14860963466E-01 +8.04085128550E-01 -2.37270467392E-06 +2.04936418398E-05 +1.93660969727E-06 +9.64457350125E-06 -6.55264203917E-01 +7.21796686327E-01
1.13500000000E+09 -5.08550658116E-01 +8.07209538351E-01 +5.53936504924E-05 +2.77748717254E-06 +1.36848044573E-05 +1.81126902382E-05 -6.50558713849E-01 +7.25495105493E-01
1.14000000000E+09 -5.03942746281E-01 +8.09973938026E-01 +4.21159620492E-05 -3.91317241406E-05 +2.47288485605E-05 -4.85466955812E-05 -6.46011710278E-01 +7.29040213230E-01
1.14500000000E+09 -5.00590201124E-01 +8.11850084723E-01 -1.88868395015E-05 -1.69899796196E-05 +5.34288896217E-05 +1.52828824675E-06 -6.41318968242E-01 +7.32340458734E-01
1.15000000000E+09 -4.97522573636E-01 +8.13362676858E-01 +1.43921802809E-05 -2.67693418802E-05 +5.12705719279E-05 -1.91832096417E-05 -6.36649116971E-01 +7.36202526677E-01
1.15500000000E+09 -4.94612538304E-01 +8.15076676021E-01 +2.99703840083E-05 -3.27525849267E-05 +2.75705784072E-05 -5.41260023384E-06 -6.31911080380E-01 +7.40000683484E-01
1.16000000000E+09 -4.90249595456E-01 +8.16794782183E-01 +3.94448784593E-05 +1.06582364710E-05 +6.87844510561E-05 -3.13126822750E-05 -6.27058864619E-01 +7.43881678915E-01
1.16500000000E+09 -4.84727245543E-01 +8.19373901183E-01 +1.15409807750E-05 +7.24909268936E-07 +5.30783128364E-05 -5.62593309222E-06 -6.22005676812E-01 +7.47559709105E-01
1.17000000000E+09 -4.77703139753E-01 +8.22301744558E-01 +1.12766415254E-05 -1.89153442020E-05 +5.74618087022E-05 -4.95894023465E-05 -6.16552984921E-01 +7.50817637162E-01
1.17500000000E+09 -4.69377986824E-01 +8.25614030960E-01 +8.61422448393E-05 -7.60878007238E-06 +4.78701191841E-05 -2.61208503745E-05 -6.10733513665E-01 +7.54127379391E-01
1.18000000000E+09 -4.61152258914E-01 +8.29290463749E-01 +4.70913461553E-05 +7.92344303985E-06 +6.54450401156E-05 -6.86416053896E-06 -6.05228742207E-01 +7.57215556981E-01
1.18500000000E+09 -4.52828829031E-01 +8.32526428546E-01 +3.64156443468E-05 -2.37679647281E-05 +6.68309614650E-05 -7.56243995863E-05 -5.99200344921E-01 +7.60313049858E-01
1.19000000000E+09 -4.45662452583E-01 +8.35431735013E-01 +6.97705508855E-05 -5.11277485913E-05 +8.36054063797E-05 -2.25132751332E-05 -5.92942799800E-01 +7.62953079972E-01
1.19500000000E+09 -4.39752092204E-01 +8.37688868424E-01 +3.71798986227E-05 -7.67720008889E-05 +6.18414430754E-05 -7.32369550845E-05 -5.86956750698E-01 +7.64165424162E-01
1.20000000000E+09 -4.35241965540E-01 +8.38705199787E-01 +7.27880039372E-05 -1.14324601374E-04 +2.35437868502E-05 -1.06009330765E-04 -5.82540285528E-01 +7.64355715985E-01
1.20500000000E+09 -4.31415257569E-01 +8.40040644451E-01 +2.79024046467E-05 -8.80106987161E-05 +4.31693167007E-06 -1.04373701086E-04 -5.80208619337E-01 +7.65208662794E-01
1.21000000000E+09 -4.27428339412E-01 +8.41247076814E-01 -2.56915813742E-05 -7.50887695583E-05 -1.56538379918E-05 -5.22728261749E-05 -5.78466213750E-01 +7.68150766797E-01
1.21500000000E+09 -4.22163248315E-01 +8.42653042710E-01 -3.89447912868E-05 -5.70028980165E-05 -3.58598555707E-05 -6.10914379118E-05 -5.75769240307E-01 +7.72870771464E-01
1.22000000000E+09 -4.15158058804E-01 +8.44558027443E-01 -4.69290758994E-05 -4.82348023553E-05 +6.26533065415E-06 -4.50932182852E-05 -5.71512374364E-01 +7.78079413229E-01
1.22500000000E+09 -4.06428543982E-01 +8.47031069111E-01 +1.44881414660E-05 -4.62980256567E-05 -9.11157388930E-06 -3.67277295672E-05 -5.66425129489E-01 +7.83383057036E-01
1.23000000000E+09 -3.96131436468E-01 +8.50169602946E-01 -5.67640253735E-06 -6.85362519296E-05 +3.73813731558E-05 -5.41159443661E-05 -5.60623011362E-01 +7.87964852044E-01
1.23500000000E+09 -3.85083242448E-01 +8.53773550297E-01 -3.16362698308E-05 -5.64643358455E-05 -2.68815075569E-06 -5.66839416581E-05 -5.54883247256E-01 +7.92404283169E-01
1.24000000000E+09 -3.73920470609E-01 +8.57667789816E-01 -8.77926044961E-06 -1.09048060504E-04 -3.86295639873E-05 -5.94800179918E-05 -5.48804504735E-01 +7.96072343432E-01
1.24500000000E+09 -3.64062999851E-01 +8.61737258431E-01 -1.78971377008E-05 -7.39090252791E-05 -3.76265172297E-05 -7.38521500013E-05 -5.42367667720E-01 +7.99936975923E-01
1.25000000000E+09 -3.55488720831E-01 +8.65127082138E-01 -3.22942446912E-05 -7.39422806639E-05 -1.59460765524E-05 -1.57995209309E-04 -5.35824446304E-01 +8.04236636096E-01
1.25500000000E+09 -3.48765503080E-01 +8.67836860381E-01 -3.08611851622E-05 -1.10456749312E-04 -8.08456724177E-05 -9.55775636996E-05 -5.29013577109E-01 +8.08134483280E-01
1.26000000000E+09 -3.43562988440E-01 +8.69721961161E-01 -6.36897531611E-05 -7.06021904381E-05 -4.86562428157E-05 -1.47802228004E-04 -5.22325138503E-01 +8.12501834168E-01
1.26500000000E+09 -3.39221064298E-01 +8.71192441715E-01 -1.19164164401E-04 -8.48943381087E-05 -7.13821017852E-05 -1.07732542977E-04 -5.15206711629E-01 +8.16321916885E-01
1.27000000000E+09 -3.34606825708E-01 +8.72376230893E-01 -1.16372376115E-04 -6.88856419089E-05 -1.06980236107E-04 -6.76578936936E-05 -5.08434633454E-01 +8.20199307618E-01
1.27500000000E+09 -3.28930493029E-01 +8.73633696877E-01 -1.08561484297E-04 -6.91477065351E-05 -1.06844319599E-04 -7.51309594185E-05 -5.01340966098E-01 +8.23749708360E-01
1.28000000000E+09 -3.21246607290E-01 +8.75314521977E-01 -1.12139522542E-04 -7.34656305798E-05 -1.10661815251E-04 -5.90929715781E-05 -4.94301721960E-01 +8.27200695261E-01
1.28500000000E+09 -3.11049998333E-01 +8.77385919204E-01 -1.31555155118E-04 -3.34509428603E-05 -1.69877442828E-04 -1.14312235364E-04 -4.87001404235E-01 +8.30888463602E-01
1.29000000000E+09 -2.99289226753E-01 +8.80167192125E-01 -1.64721656168E-04 +4.19461247026E-06 -1.95575566519E-04 -8.68077471025E-05 -4.79389996439E-01 +8.34657603312E-01
1.29500000000E+09 -2.86587174606E-01 +8.83329180071E-01 -1.74369546760E-04 -1.85298271245E-05 -1.62185861618E-04 +7.83421525319E-06 -4.71451541639E-01 +8.38102902791E-01
1.30000000000E+09 -2.73698693189E-01 +8.86626825082E-01 -1.81716182533E-04 -2.46577051974E-05 -2.90907725478E-04 -3.87598707026E-06 -4.63652939989E-01 +8.41644880233E-01
1.30500000000E+09 -2.62020913416E-01 +8.89846989696E-01 -2.74495827164E-04 +5.03449211170E-05 -2.09355261436E-04 +4.32319701341E-05 -4.55443667704E-01 +8.45110636477E-01
1.31000000000E+09 -2.52163570658E-01 +8.92222335284E-01 -2.12845531339E-04 +1.26009366451E-04 -2.24527709786E-04 +1.21788430969E-04 -4.47242822614E-01 +8.48623237071E-01
1.31500000000E+09 -2.44399981310E-01 +8.94162447622E-01 -2.02875996080E-04 +1.17206030832E-04 -1.61689849889E-04 +1.06569619390E-04 -4.38274080407E-01 +8.52004916912E-01
1.32000000000E+09 -2.38440830645E-01 +8.95406948621E-01 -2.13216121323E-04 +1.43642595771E-04 -1.60560730880E-04 +1.60790324618E-04 -4.29268308593E-01 +8.55313278856E-01
1.32500000000E+09 -2.32984789512E-01 +8.95888267249E-01 -1.98155986596E-04 +9.56855907375E-05 -2.11964932513E-04 +1.10431334211E-04 -4.19702933922E-01 +8.58789669284E-01
1.33000000000E+09 -2.26897127645E-01 +8.95961177140E-01 -2.26120957683E-04 +1.68879203376E-04 -2.12386265968E-04 +2.10392145339E-04 -4.09986889819E-01 +8.62186570128E-01
1.33500000000E+09 -2.18968454717E-01 +8.95633778015E-01 -2.16883427242E-04 +1.97189959064E-04 -2.03602434518E-04 +2.19030616890E-04 -4.00100281211E-01 +8.65436373800E-01
1.34000000000E+09 -2.08430889872E-01 +8.95351621160E-01 -1.44528752732E-04 +3.05703638647E-04 -1.69035765787E-04 +2.59411284054E-04 -3.89853351981E-01 +8.68814649767E-01
1.34500000000E+09 -1.94814110144E-01 +8.95259879396E-01 -1.26159891787E-04 +2.45554150001E-04 -8.15485392073E-05 +2.69538798958E-04 -3.79138501172E-01 +8.72070635956E-01
1.35000000000E+09 -1.78917483043E-01 +8.95349319139E-01 -8.55243384838E-05 +2.46720091860E-04 -6.79761595990E-05 +2.74370585937E-04 -3.67917354867E-01 +8.75144473628E-01
1.35500000000E+09 -1.61504616129E-01 +8.95710447401E-01 -1.18713036396E-04 +3.16511762455E-04 -6.80623858691E-05 +2.71524446460E-04 -3.56399366703E-01 +8.78030384938E-01
1.36000000000E+09 -1.43918795900E-01 +8.96184947370E-01 -1.17784947634E-04 +3.02679427864E-04 -6.73173946102E-05 +3.13932382061E-04 -3.44422055930E-01 +8.80697923148E-01
1.36500000000E+09 -1.27294885513E-01 +8.96611190404E-01 -6.61617741538E-05 +3.55156643357E-04 -4.07276408191E-05 +3.65645861364E-04 -3.32250601379E-01 +8.83197975654E-01
1.37000000000E+09 -1.12572726122E-01 +8.96883887527E-01 -2.40004077672E-05 +3.97251995854E-04 -4.36811943924E-05 +3.30660268071E-04 -3.19348396208E-01 +8.85538498570E-01
1.37500000000E+09 -1.00182450363E-01 +8.96967624756E-01 -8.65083925042E-06 +4.48163748862E-04 -2.74465822810E-05 +4.56021609682E-04 -3.05717939192E-01 +8.87833413818E-01
1.38000000000E+09 -8.95206734251E-02 +8.96635859875E-01 +1.38777282532E-04 +4.87232363121E-04 +6.52755270398E-05 +5.18911889845E-04 -2.91207302983E-01 +8.89914426836E-01
1.38500000000E+09 -7.89666345770E-02 +8.95875980397E-01 +2.29211612954E-04 +4.27794239980E-04 +2.30090913937E-04 +4.72626315262E-04 -2.75640878124E-01 +8.91790263473E-01
1.39000000000E+09 -6.76896178481E-02 +8.94037489059E-01 +2.66135278539E-04 +3.91465050847E-04 +3.05127105327E-04 +4.50144403520E-04 -2.59678687737E-01 +8.93533074504E-01
1.39500000000E+09 -5.43085073863E-02 +8.91352877245E-01 +3.15858386861E-04 +3.87241950569E-04 +3.41220829255E-04 +3.89442038720E-04 -2.42740732658E-01 +8.94213161374E-01
1.40000000000E+09 -3.78459304273E-02 +8.87570022394E-01 +3.50099081250E-04 +3.74325698051E-04 +4.36028512967E-04 +3.27087436946E-04 -2.25210705772E-01 +8.94697448058E-01
1.40500000000E+09 -1.86786144237E-02 +8.82945447551E-01 +4.22306447702E-04 +3.06826714265E-04 +4.22185860152E-04 +2.53015950788E-04 -2.06341008197E-01 +8.94699210642E-01
1.41000000000E+09 +2.94139335860E-03 +8.77260455753E-01 +4.17376983068E-04 +3.39865882561E-04 +4.51896164707E-04 +3.41783256841E-04 -1.86122412114E-01 +8.94002511401E-01
1.41500000000E+09 +2.59361884902E-02 +8.70978563047E-01 +5.04056535308E-04 +2.50984712885E-04 +4.84456779678E-04 +3.11037227582E-04 -1.64364306752E-01 +8.92437877084E-01
1.42000000000E+09 +4.92995087259E-02 +8.64298490319E-01 +4.88960706865E-04 +2.96719771506E-04 +5.37197679285E-04 +3.07200397960E-04 -1.41518621683E-01 +8.89634894660E-01
1.42500000000E+09 +7.20122153755E-02 +8.57124506776E-01 +5.67003891403E-04 +2.62528427309E-04 +6.84117118068E-04 +2.30288504512E-04 -1.18027114030E-01 +8.86156888854E-01
1.43000000000E+09 +9.36566308920E-02 +8.49072471123E-01 +6.31827016467E-04 +2.28300468377E-04 +6.86485339485E-04 +1.50428873158E-04 -9.29495876260E-02 +8.81493434586E-01
1.43500000000E+09 +1.14237104309E-01 +8.39596525769E-01 +7.72487464594E-04 +1.49499763734E-04 +8.19913607226E-04 +4.82775720557E-05 -6.65405818271E-02 +8.74883546338E-01
1.44000000000E+09 +1.34527465035E-01 +8.29082606968E-01 +8.03478210461E-04 +1.05421397687E-05 +8.09853048806E-04 -6.58337611380E-05 -3.82159687369E-02 +8.66150871320E-01
1.44500000000E+09 +1.56229132929E-01 +8.16033147220E-01 +7.35256193390E-04 -8.07690583862E-05 +7.42327652381E-04 -1.32221089957E-04 -8.30844305788E-03 +8.54572515111E-01
1.45000000000E+09 +1.80076706400E-01 +7.99179498765E-01 +7.67623911990E-04 +2.98306109034E-05 +8.29683979387E-04 -1.21674463729E-05 +2.34896413755E-02 +8.40222464325E-01
1.45500000000E+09 +2.06594620757E-01 +7.78247909171E-01 +9.95058600882E-04 -9.68770167077E-06 +1.02936780026E-03 -6.33209960077E-05 +5.70007863001E-02 +8.22746107963E-01
1.46000000000E+09 +2.36270573589E-01 +7.52250341459E-01 +1.19320474545E-03 -2.48825245074E-04 +1.15451305973E-03 -3.01339162250E-04 +9.19139122357E-02 +8.00753852561E-01
1.46500000000E+09 +2.68245576562E-01 +7.20944273391E-01 +1.22758166057E-03 -4.88936824842E-04 +1.08255709282E-03 -5.34559105932E-04 +1.27605760243E-01 +7.74169369295E-01
1.47000000000E+09 +3.01040583056E-01 +6.84014242699E-01 +1.33520742971E-03 -4.38599538612E-04 +1.20800146350E-03 -4.08873289558E-04 +1.64801174369E-01 +7.41003507702E-01
1.47500000000E+09 +3.33464112906E-01 +6.41492670413E-01 +1.63871134491E-03 -8.79766650227E-04 +1.57431894055E-03 -7.38816121667E-04 +2.02481779118E-01 +7.00603781883E-01
1.48000000000E+09 +3.63475733890E-01 +5.92711542158E-01 +1.69927895426E-03 -1.32901970621E-03 +1.78829272923E-03 -1.29240695419E-03 +2.39851472599E-01 +6.51241699236E-01
1.48500000000E+09 +3.88710786107E-01 +5.37706762036E-01 +1.72437088376E-03 -2.01234587220E-03 +1.69701688776E-03 -2.07938146854E-03 +2.74629208598E-01 +5.92034256380E-01
1.49000000000E+09 +4.07590060174E-01 +4.75719432483E-01 +1.14569315077E-03 -2.76257920617E-03 +1.07274702931E-03 -2.82419020082E-03 +3.02957931509E-01 +5.22099248844E-01
1.49500000000E+09 +4.18773350369E-01 +4.06067051615E-01 +9.27110141182E-04 -3.00312532458E-03 +7.63037133580E-04 -2.93855259765E-03 +3.22455188350E-01 +4.42788939887E-01
1.50000000000E+09 +4.18724085385E-01 +3.26902047824E-01 +4.10112539932E-04 -4.09917345509E-03 +4.07131757850E-04 -3.75687135500E-03 +3.29378927687E-01 +3.52343537894E-01
1.50500000000E+09 +4.04940994045E-01 +2.40102013439E-01 -8.89670373759E-04 -4.59504010822E-03 -6.94621230967E-04 -4.40453394563E-03 +3.17957359514E-01 +2.53880722316E-01
1.51000000000E+09 +3.73861156859E-01 +1.47715834482E-01 -2.35413914760E-03 -4.88328867180E-03 -2.09564663327E-03 -4.89044119933E-03 +2.85140217112E-01 +1.52513252707E-01
1.51500000000E+09 +3.23172035497E-01 +5.57798857229E-02 -4.57489683838E-03 -4.59262589489E-03 -4.44640813043E-03 -4.70544699544E-03 +2.30733855848E-01 +5.38992714973E-02
1.52000000000E+09 +2.52574283889E-01 -2.90194261333E-02 -6.14762971554E-03 -2.12294484170E-03 -6.13328937387E-03 -2.27753526694E-03 +1.52663584295E-01 -3.38257963608E-02
1.52500000000E+09 +1.64025805924E-01 -9.99768736801E-02 -5.57219628021E-03 -6.01757690336E-04 -5.56273076883E-03 -6.19492204758E-04 +5.62233487143E-02 -1.01788536950E-01
1.53000000000E+09 +6.00437702305E-02 -1.50158261342E-01 -6.08022687399E-03 +1.06070452165E-04 -6.15116535694E-03 +7.63207359525E-05 -5.13980521705E-02 -1.47303699920E-01
1.53500000000E+09 -5.21611287867E-02 -1.73002183023E-01 -6.85875489942E-03 +2.38787446427E-03 -6.85041624786E-03 +2.34892035036E-03 -1.64806479914E-01 -1.67447594609E-01
1.54000000000E+09 -1.63410156147E-01 -1.68526165305E-01 -5.33109283211E-03 +4.61677145927E-03 -5.33014551766E-03 +4.52795101297E-03 -2.74102858846E-01 -1.63016757195E-01
1.54500000000E+09 -2.67255913583E-01 -1.41049460548E-01 -3.43841166225E-03 +6.03642356627E-03 -3.52628784022E-03 +5.85680078529E-03 -3.73747204065E-01 -1.39488990629E-01
1.55000000000E+09 -3.60304644214E-01 -9.52208979673E-02 -1.39439002776E-03 +5.92704771283E-03 -1.69290902220E-03 +5.89326161574E-03 -4.59588308541E-01 -1.00488720068E-01
1.55500000000E+09 -4.38247503882E-01 -3.74395423674E-02 -1.66710325325E-04 +5.90706859649E-03 -4.33676272399E-04 +6.04736593285E-03 -5.30413089076E-01 -5.22466848887E-02
1.56000000000E+09 -5.01026805693E-01 +2.58662693744E-02 +1.57941457197E-03 +5.73131492642E-03 +1.35427809697E-03 +6.11521875024E-03 -5.86982867079E-01 +1.12062647133E-03
1.56500000000E+09 -5.49205027078E-01 +8.93325594261E-02 +3.08895400756E-03 +4.57201417232E-03 +3.16109169757E-03 +4.91179793002E-03 -6.31532232969E-01 +5.69589361638E-02
1.57000000000E+09 -5.85734874627E-01 +1.49947166528E-01 +3.77373420915E-03 +2.87623948416E-03 +4.03307619121E-03 +3.09296422553E-03 -6.64871515632E-01 +1.12397183485E-01
