# Hz S RI R 50
! CMT, C1220, 16058040, 17.2.0/1
! Date: 14/08/2018 12:12:45
! Data: Format (Calibration Info)
! Freq                      S11: Re/Im (F2)                       S21: Re/Im (F2)                       S12: Re/Im (F2)                       S22: Re/Im (F2)            
1.00000000000E+09 -6.46357262542E-01 +7.14555388269E-01 -2.37808999941E-05 +8.42035562220E-07 -3.78782184027E-05 -1.93805380766E-05 -7.53466783193E-01 +6.25056204526E-01
1.00500000000E+09 -6.38875562527E-01 +7.19812501860E-01 +2.96446935674E-06 -1.54216562019E-05 -4.82670458956E-05 -1.56156136981E-05 -7.49856951412E-01 +6.29124498350E-01
1.01000000000E+09 -6.33068287781E-01 +7.24485743848E-01 -6.96602975130E-05 -1.59684232919E-06 +1.55379063988E-05 -5.67565158588E-06 -7.46256175611E-01 +6.32937053107E-01
1.01500000000E+09 -6.29097694359E-01 +7.28205527004E-01 -1.10931093459E-05 +6.23025546508E-06 +2.09546264251E-05 -8.28531089232E-06 -7.42767720880E-01 +6.36611809275E-01
1.02000000000E+09 -6.26861137413E-01 +7.31341241811E-01 +2.27962882179E-05 +1.49905836015E-05 -6.42410872064E-06 -1.53583916943E-05 -7.39479198543E-01 +6.40248399449E-01
1.02500000000E+09 -6.25653011653E-01 +7.33643781276E-01 -2.45209997771E-05 +1.44522634007E-05 +1.04347285612E-05 +3.40581960683E-05 -7.36591699061E-01 +6.43983158316E-01
1.03000000000E+09 -6.25014954434E-01 +7.35784343574E-01 -4.62194270059E-05 +2.55386185750E-05 +3.20429494362E-05 -2.79127239813E-05 -7.33154700703E-01 +6.47722495139E-01
1.03500000000E+09 -6.23402273776E-01 +7.37734174565E-01 -4.07906350284E-06 +5.48557731896E-06 -7.85420703777E-06 -1.09721045676E-06 -7.29314672320E-01 +6.51690018249E-01
1.04000000000E+09 -6.20249478956E-01 +7.40429906839E-01 +4.23932335336E-05 -8.61719946154E-07 +1.76630789668E-05 +5.13690447292E-06 -7.25611094017E-01 +6.55400320142E-01
1.04500000000E+09 -6.14907913285E-01 +7.43610609543E-01 +4.30489044917E-06 +5.11627216154E-05 +6.09736926016E-05 +2.25856095403E-06 -7.22049682372E-01 +6.58871893669E-01
1.05000000000E+09 -6.07672625659E-01 +7.47808341703E-01 +2.41205886094E-05 +3.43690373461E-05 +3.31019462427E-05 -1.12553783202E-05 -7.18509962655E-01 +6.62183712991E-01
1.05500000000E+09 -5.98816247787E-01 +7.52475971604E-01 +1.32613294937E-05 +1.77369306106E-05 -7.11641464157E-06 +7.63312118190E-06 -7.15322625927E-01 +6.66046313974E-01
1.06000000000E+09 -5.89288581001E-01 +7.57755831359E-01 +1.03264208034E-05 +2.04479294525E-05 +9.31169558680E-07 +1.14532225937E-05 -7.12147377544E-01 +6.69682637138E-01
1.06500000000E+09 -5.80238344256E-01 +7.62989980090E-01 +4.95911531756E-05 -2.63356001956E-05 +1.67623245682E-05 +2.82880424026E-05 -7.08271095051E-01 +6.73487313581E-01
1.07000000000E+09 -5.72459376783E-01 +7.67480087853E-01 +3.16868083038E-06 +3.18588209366E-06 +2.72652947732E-05 -2.11333641039E-05 -7.04373296532E-01 +6.77085113254E-01
1.07500000000E+09 -5.66624693483E-01 +7.71455500712E-01 +3.16037789889E-05 +1.27295001860E-06 +6.63440775890E-06 +4.21610432743E-06 -6.99795173150E-01 +6.80861014371E-01
1.08000000000E+09 -5.62847206321E-01 +7.74736297946E-01 -1.55749114337E-05 +8.25102808167E-06 +1.74911554152E-05 +1.08839096575E-05 -6.95921310632E-01 +6.84654828825E-01
1.08500000000E+09 -5.60924359069E-01 +7.77066284717E-01 +2.63577626676E-05 -5.29138125242E-06 -2.69298870821E-05 +4.16287765913E-05 -6.92060304809E-01 +6.88356367679E-01
1.09000000000E+09 -5.59308891630E-01 +7.79099971554E-01 +3.80595232985E-05 +5.07264176264E-05 +4.01342556671E-05 -6.09969358538E-06 -6.88127954080E-01 +6.92278148229E-01
1.09500000000E+09 -5.58145592175E-01 +7.80729077876E-01 +2.17306165471E-05 -1.09229372457E-05 +8.06762909549E-06 +3.12727479312E-06 -6.84302957679E-01 +6.96045825220E-01
1.10000000000E+09 -5.55283973962E-01 +7.82726252062E-01 +1.85209077242E-05 -1.73594745939E-05 +5.84778752041E-05 +2.59948704027E-05 -6.80190720908E-01 +6.99909953366E-01
1.10500000000E+09 -5.51225585923E-01 +7.85008410430E-01 -8.28017798454E-06 +3.48724207153E-06 -1.36354597842E-05 -9.11662394097E-06 -6.76067893472E-01 +7.03601605713E-01
1.11000000000E+09 -5.45265621339E-01 +7.88174604851E-01 +2.97010106565E-05 -2.85738206614E-05 +3.68204228922E-05 +3.91513520365E-05 -6.71826314599E-01 +7.06824440897E-01
1.11500000000E+09 -5.37567519294E-01 +7.92216041964E-01 -8.32238855390E-06 -1.15114117188E-05 +5.52722713081E-05 +7.17782397326E-06 -6.67775542357E-01 +7.10321082179E-01
1.12000000000E+09 -5.29492287406E-01 +7.96159446884E-01 -3.03432880360E-05 -2.81425953356E-06 +1.29720641086E-05 +4.75497013737E-05 -6.63672739264E-01 +7.14074757896E-01
1.12500000000E+09 -5.20949723698E-01 +8.00385828307E-01 -1.27448154040E-05 -2.48875530683E-05 +2.02967798902E-05 -1.53933837794E-05 -6.59393558760E-01 +7.17892295857E-01
1.13000000000E+09 -5.13639684815E-01 +8.04280646373E-01 -1.36496060717E-05 +3.22696307940E-05 +4.21242747754E-05 -1.74006061375E-05 -6.55176385912E-01 +7.21708718204E-01
1.13500000000E+09 -5.07318305081E-01 +8.07362256982E-01 +4.00183862131E-05 -8.55256637191E-07 +5.07494012877E-05 +3.63682106883E-05 -6.50600560120E-01 +7.25500549591E-01
1.14000000000E+09 -5.02703446253E-01 +8.10100945891E-01 +1.44976861044E-05 +2.42398912440E-06 +5.23544532367E-05 +2.92511442327E-05 -6.45969388734E-01 +7.28863942276E-01
1.14500000000E+09 -4.99305881569E-01 +8.11946593903E-01 +2.96037019573E-05 +4.15766736216E-05 +7.81311313534E-05 -3.45155088989E-05 -6.41403605680E-01 +7.32362971471E-01
1.15000000000E+09 -4.96311165138E-01 +8.13571253122E-01 +4.35112728488E-05 -2.41390376111E-05 +3.86447416599E-05 +2.57144725899E-05 -6.36729708239E-01 +7.36136058412E-01
1.15500000000E+09 -4.93110220444E-01 +8.15217117550E-01 -1.86347623620E-05 -1.98340099104E-05 -1.05594519983E-05 -1.38997250084E-05 -6.31814587306E-01 +7.40025877180E-01
1.16000000000E+09 -4.88941896451E-01 +8.16903863807E-01 +5.93785486296E-05 -3.43037489197E-05 -2.48948420813E-05 -1.14246706307E-05 -6.26915784647E-01 +7.43787363567E-01
1.16500000000E+09 -4.83264991801E-01 +8.19372786064E-01 +1.58906457599E-05 +2.90186905374E-05 +2.09889861422E-05 -4.08468356345E-05 -6.21872851251E-01 +7.47395205465E-01
1.17000000000E+09 -4.76252243231E-01 +8.22336222505E-01 -2.72974156329E-06 +2.72760391452E-07 +3.44392838338E-05 +1.36621766427E-05 -6.16501614655E-01 +7.50762711557E-01
1.17500000000E+09 -4.67988776300E-01 +8.25596685449E-01 +2.02630554006E-05 +2.19907555700E-05 +4.51124167545E-05 +5.00094904441E-06 -6.10733816699E-01 +7.53945100504E-01
1.18000000000E+09 -4.59567036647E-01 +8.29261448988E-01 +2.25802606122E-06 +2.23764901221E-07 -8.60800085637E-06 -1.37907114081E-05 -6.05244961143E-01 +7.57041839868E-01
1.18500000000E+09 -4.51285248993E-01 +8.32588965727E-01 +3.04103155801E-05 -1.66604074437E-05 +3.79362973840E-05 +7.27480108017E-06 -5.99107730750E-01 +7.60130653299E-01
1.19000000000E+09 -4.43905089562E-01 +8.35386775565E-01 +2.67837984289E-05 -6.60866270744E-05 +5.77060419192E-05 -4.73019359299E-05 -5.93069948832E-01 +7.62763255412E-01
1.19500000000E+09 -4.38283279265E-01 +8.37652602335E-01 +9.42177798071E-05 -3.96301921427E-05 +2.20823208250E-05 -1.19278669896E-04 -5.87162095540E-01 +7.64038741813E-01
1.20000000000E+09 -4.33649099227E-01 +8.38541683300E-01 -1.62738023679E-05 -1.00944229647E-04 -1.55816155412E-05 -1.08867028525E-04 -5.82691327139E-01 +7.64322911832E-01
1.20500000000E+09 -4.29798106393E-01 +8.39918693042E-01 -6.68942425936E-06 -8.04683248532E-05 -4.65256043480E-05 -8.91182956194E-05 -5.80291061110E-01 +7.65115362890E-01
1.21000000000E+09 -4.25878347173E-01 +8.41137879533E-01 -5.52605761298E-05 -6.06717145421E-05 -1.43342225938E-05 -5.98254297169E-05 -5.78464416820E-01 +7.68157335318E-01
1.21500000000E+09 -4.20685550377E-01 +8.42582355247E-01 +2.10128714285E-05 -5.13224541271E-05 -3.10908853210E-05 -5.43770350432E-05 -5.75695998755E-01 +7.72750277981E-01
1.22000000000E+09 -4.13639848543E-01 +8.44377053002E-01 -4.33109422775E-05 -4.16602588233E-05 -2.08046981858E-05 -1.94448209982E-05 -5.71435298099E-01 +7.78053793236E-01
1.22500000000E+09 -4.04698131471E-01 +8.46823593818E-01 -1.93678324170E-06 -4.67576456978E-05 +2.98055242847E-05 -3.38029601355E-06 -5.66391548802E-01 +7.83164834518E-01
1.23000000000E+09 -3.94282179415E-01 +8.49980172093E-01 +1.61866044040E-05 -5.44626982543E-05 +2.37938616995E-05 -6.62996277855E-05 -5.60771892892E-01 +7.87849684502E-01
1.23500000000E+09 -3.83222208279E-01 +8.53525703440E-01 -1.69154822865E-05 -2.83360305109E-05 -5.81667133902E-06 -8.14736841607E-05 -5.54866394549E-01 +7.92122167504E-01
1.24000000000E+09 -3.72166417846E-01 +8.57260586515E-01 +2.33058984503E-06 -6.43025331348E-05 +2.05644818810E-05 -1.33538792619E-04 -5.48861812042E-01 +7.96010846232E-01
1.24500000000E+09 -3.62070632545E-01 +8.61504929607E-01 -1.62390604092E-05 -1.11960487412E-04 -2.11504157493E-05 -7.25374204034E-05 -5.42527166080E-01 +7.99753672185E-01
1.25000000000E+09 -3.53515456948E-01 +8.64751747452E-01 -4.08693966004E-05 -1.11491767945E-04 -1.19085527240E-05 -1.47943588049E-04 -5.35900298020E-01 +8.04050826846E-01
1.25500000000E+09 -3.46799379887E-01 +8.67284941369E-01 -1.01338529518E-04 -9.80526689674E-05 -9.51604428168E-05 -1.05860057272E-04 -5.29040095639E-01 +8.07969998497E-01
1.26000000000E+09 -3.41598085209E-01 +8.69303752859E-01 -7.41337733823E-05 -9.79378825899E-05 -1.26449542690E-04 -1.23924076242E-04 -5.22343712070E-01 +8.12438485599E-01
1.26500000000E+09 -3.37309252782E-01 +8.70684991385E-01 -1.00290870689E-04 -6.66319296132E-05 -1.29446429524E-04 -4.82137907636E-05 -5.15283991342E-01 +8.16383739364E-01
1.27000000000E+09 -3.32771021389E-01 +8.71873060549E-01 -1.61547656589E-04 -9.40814827662E-05 -1.29728881585E-04 -9.69749012646E-05 -5.08429850546E-01 +8.20129503904E-01
1.27500000000E+09 -3.26935381747E-01 +8.73158742235E-01 -1.02878470416E-04 -6.60798638189E-05 -1.39021550368E-04 -9.42434721245E-05 -5.01549329183E-01 +8.23718917882E-01
1.28000000000E+09 -3.19246325178E-01 +8.74621202480E-01 -1.91870646245E-04 -4.80523718458E-05 -2.03737888393E-04 -7.55456664758E-05 -4.94460043922E-01 +8.27189821904E-01
1.28500000000E+09 -3.09131193351E-01 +8.76747118952E-01 -1.57876990473E-04 +1.27673850411E-05 -1.71357900990E-04 -5.28464772372E-05 -4.87161987263E-01 +8.30862411941E-01
1.29000000000E+09 -2.97382775813E-01 +8.79332147313E-01 -1.75775262843E-04 -1.61242008735E-06 -1.45320737706E-04 +1.24348092593E-05 -4.79528306610E-01 +8.34566212573E-01
1.29500000000E+09 -2.84665038821E-01 +8.82476562173E-01 -1.58157717604E-04 +5.20755144737E-06 -1.67196316482E-04 +5.04796085870E-05 -4.71601731366E-01 +8.38234644679E-01
1.30000000000E+09 -2.71715711216E-01 +8.85881827547E-01 -1.87971560496E-04 +2.52610893901E-05 -1.98554801327E-04 +1.98590817352E-05 -4.63847728659E-01 +8.41762046387E-01
1.30500000000E+09 -2.60076938972E-01 +8.88965047938E-01 -2.02923289662E-04 +7.12689690594E-05 -1.81216023685E-04 +6.86385046165E-05 -4.55702538667E-01 +8.45166320339E-01
1.31000000000E+09 -2.50111519990E-01 +8.91468895519E-01 -1.90684115834E-04 +9.11624789227E-05 -1.50257059897E-04 +4.23303959549E-05 -4.47450967641E-01 +8.48650276651E-01
1.31500000000E+09 -2.42373805674E-01 +8.93390345223E-01 -1.57587314392E-04 +1.15188997084E-04 -1.24770441439E-04 +1.39309315383E-04 -4.38609264200E-01 +8.52119918220E-01
1.32000000000E+09 -2.36308454255E-01 +8.94291815564E-01 -1.02156968956E-04 +1.11990494627E-04 -1.20912529397E-04 +1.05391750929E-04 -4.29542207750E-01 +8.55576755423E-01
1.32500000000E+09 -2.31018042555E-01 +8.94708893789E-01 -1.56096427776E-04 +1.31449971785E-04 -1.76627457173E-04 +1.24980468113E-04 -4.19882957292E-01 +8.58921105795E-01
1.33000000000E+09 -2.24940436833E-01 +8.94858607998E-01 -1.75472703976E-04 +1.54563527584E-04 -1.68815839730E-04 +1.75685587887E-04 -4.10126345089E-01 +8.62335806031E-01
1.33500000000E+09 -2.16945059705E-01 +8.94293171047E-01 -1.67633927421E-04 +2.04689854596E-04 -1.45371073184E-04 +2.09010873761E-04 -4.00237849692E-01 +8.65580646024E-01
1.34000000000E+09 -2.06323127627E-01 +8.94217158292E-01 -9.21701186106E-05 +2.28086523044E-04 -1.28971885277E-04 +2.46548946646E-04 -3.90044470161E-01 +8.69010112404E-01
1.34500000000E+09 -1.92906694320E-01 +8.93841658202E-01 -6.48570467698E-05 +2.59791779383E-04 -7.56337322458E-05 +1.98858705879E-04 -3.79176640463E-01 +8.72264519969E-01
1.35000000000E+09 -1.77087621684E-01 +8.93926474634E-01 -1.12002683044E-04 +2.73351461375E-04 -3.45523192618E-05 +2.43039843072E-04 -3.67950070827E-01 +8.75447939453E-01
1.35500000000E+09 -1.59655340644E-01 +8.94083609428E-01 -6.84697630039E-05 +2.50278601409E-04 -9.56588084463E-05 +2.62553218159E-04 -3.56320669856E-01 +8.78345447308E-01
1.36000000000E+09 -1.42228374787E-01 +8.94443286278E-01 -6.81240520869E-05 +3.08680838524E-04 -7.60775847923E-05 +2.97259991279E-04 -3.44429730420E-01 +8.81074280576E-01
1.36500000000E+09 -1.25825162308E-01 +8.94981352452E-01 -2.00880204163E-05 +3.34480790368E-04 -1.97213608015E-05 +3.33117236758E-04 -3.32174593478E-01 +8.83637939713E-01
1.37000000000E+09 -1.11228169870E-01 +8.95225177645E-01 +2.46360880480E-05 +3.55130730647E-04 -1.63810576555E-05 +2.90597060214E-04 -3.19316558592E-01 +8.85960847367E-01
1.37500000000E+09 -9.91270723472E-02 +8.95049125385E-01 +5.91481638347E-05 +4.49254317757E-04 -1.73023160832E-05 +4.36869781559E-04 -3.05565213502E-01 +8.88209630708E-01
1.38000000000E+09 -8.85061887657E-02 +8.94713287629E-01 +1.51101738495E-04 +4.62611706994E-04 +1.21927852677E-04 +5.11318027652E-04 -2.90893324331E-01 +8.90483285974E-01
1.38500000000E+09 -7.82051979532E-02 +8.93792262429E-01 +2.68369382299E-04 +3.91916394002E-04 +2.69026010717E-04 +4.59772212846E-04 -2.75292940870E-01 +8.92231316492E-01
1.39000000000E+09 -6.70536239726E-02 +8.92027035001E-01 +3.26513558707E-04 +3.74963114850E-04 +3.16531699391E-04 +4.79600410335E-04 -2.59266573208E-01 +8.93807091547E-01
1.39500000000E+09 -5.39681166658E-02 +8.89256116030E-01 +3.52798207574E-04 +4.02439282387E-04 +4.65291388975E-04 +4.23357239574E-04 -2.42267063745E-01 +8.94467894685E-01
1.40000000000E+09 -3.76285996638E-02 +8.85506420919E-01 +4.79779241968E-04 +3.62728440066E-04 +5.81337867734E-04 +3.12613936556E-04 -2.24615262072E-01 +8.95037531252E-01
1.40500000000E+09 -1.87093358577E-02 +8.80723594497E-01 +6.08525446971E-04 +1.91738675814E-04 +5.69745240211E-04 +1.68926940823E-04 -2.05738319758E-01 +8.95057205955E-01
1.41000000000E+09 +2.77242805755E-03 +8.75217759254E-01 +5.32673344494E-04 +1.32919565933E-04 +5.16665913274E-04 +8.66996021035E-05 -1.85317756666E-01 +8.94202930248E-01
1.41500000000E+09 +2.55606021003E-02 +8.68901859566E-01 +5.14422177541E-04 +4.52352855135E-05 +4.99291308911E-04 +1.02956929103E-04 -1.63480092950E-01 +8.92582777710E-01
1.42000000000E+09 +4.88226993058E-02 +8.62379210697E-01 +5.16990967256E-04 +1.33527923486E-04 +6.07660688351E-04 +1.30805001827E-04 -1.40482385088E-01 +8.89816479621E-01
1.42500000000E+09 +7.11853518816E-02 +8.55230522382E-01 +6.28290876874E-04 +2.24539450152E-05 +6.48525355449E-04 -3.53985015256E-05 -1.16715115621E-01 +8.86244832153E-01
1.43000000000E+09 +9.25913283824E-02 +8.47300459437E-01 +6.11891221373E-04 -6.23205232825E-05 +6.59109273833E-04 -1.90581694413E-04 -9.15945960298E-02 +8.81371339329E-01
1.43500000000E+09 +1.12722348628E-01 +8.37965842693E-01 +7.38691123618E-04 -8.23184031850E-05 +7.51458169906E-04 -1.68747969985E-04 -6.50148354058E-02 +8.74549397759E-01
1.44000000000E+09 +1.32582047271E-01 +8.27640395424E-01 +7.08524148996E-04 -3.59080458880E-04 +6.45673746057E-04 -4.02889207228E-04 -3.64904410396E-02 +8.65470619339E-01
1.44500000000E+09 +1.53776924438E-01 +8.14856370083E-01 +5.57298326944E-04 -4.20129696621E-04 +5.54701547027E-04 -4.21058837364E-04 -6.47898637401E-03 +8.53670926573E-01
1.45000000000E+09 +1.77016476897E-01 +7.98308508726E-01 +5.28761332022E-04 -3.66501024723E-04 +5.15515957125E-04 -4.13966774067E-04 +2.54128312137E-02 +8.38846423362E-01
1.45500000000E+09 +2.02874638779E-01 +7.77834062785E-01 +5.45311924385E-04 -3.35612741672E-04 +5.68452323276E-04 -4.03406404560E-04 +5.91706768903E-02 +8.20782204627E-01
1.46000000000E+09 +2.32044887171E-01 +7.52564762235E-01 +5.62348401339E-04 -3.74854349057E-04 +5.37332761162E-04 -3.79236676208E-04 +9.40378507325E-02 +7.98100596637E-01
1.46500000000E+09 +2.63469191341E-01 +7.22090856174E-01 +7.39343922767E-04 -3.40331127943E-04 +6.63232728953E-04 -3.89408460252E-04 +1.29368034456E-01 +7.70656235446E-01
1.47000000000E+09 +2.96154540790E-01 +6.86273135361E-01 +9.90298345116E-04 -5.69909967664E-04 +9.13587574080E-04 -5.29915268554E-04 +1.65855246065E-01 +7.36812124450E-01
1.47500000000E+09 +3.28376967724E-01 +6.45017310589E-01 +1.02229954950E-03 -1.11528570233E-03 +1.02995401883E-03 -1.00607143873E-03 +2.02877025322E-01 +6.95707521679E-01
1.48000000000E+09 +3.58364363294E-01 +5.98079725437E-01 +8.30074765079E-04 -1.29400046561E-03 +8.38590139712E-04 -1.29563020365E-03 +2.39062896732E-01 +6.45564330155E-01
1.48500000000E+09 +3.83986979541E-01 +5.45008826892E-01 +9.21440099912E-04 -1.55446312472E-03 +8.67844092298E-04 -1.56695063474E-03 +2.72249884456E-01 +5.86207287986E-01
1.49000000000E+09 +4.03618650473E-01 +4.85005773013E-01 +4.95442749966E-04 -2.12661517702E-03 +3.40623777033E-04 -2.10368661658E-03 +2.99287453993E-01 +5.16342731457E-01
1.49500000000E+09 +4.15983012364E-01 +4.17969681532E-01 +3.91689287794E-04 -2.20599385764E-03 +2.42329821629E-04 -2.10594045504E-03 +3.16396930401E-01 +4.37380351804E-01
1.50000000000E+09 +4.18914557739E-01 +3.41137728345E-01 +1.17763677830E-04 -3.02057601763E-03 +8.69482611244E-05 -2.80445701175E-03 +3.21308415829E-01 +3.48678093006E-01
1.50500000000E+09 +4.08366251865E-01 +2.55632623504E-01 -1.07022847873E-03 -3.78710479823E-03 -8.90293786393E-04 -3.68266507256E-03 +3.08630415377E-01 +2.52537910341E-01
1.51000000000E+09 +3.81354823541E-01 +1.63966318787E-01 -2.74567648531E-03 -3.71663249649E-03 -2.53395824503E-03 -3.69060794240E-03 +2.75520637574E-01 +1.54159485167E-01
1.51500000000E+09 +3.35764803821E-01 +7.11289701460E-02 -4.23660099288E-03 -2.84618582485E-03 -4.15253471255E-03 -3.02792394095E-03 +2.21845329999E-01 +5.83402947466E-02
1.52000000000E+09 +2.69319936166E-01 -1.70098832359E-02 -5.25074319107E-03 -9.06382364692E-04 -5.27703502285E-03 -1.04391687076E-03 +1.45205212810E-01 -2.68562474806E-02
1.52500000000E+09 +1.83660517959E-01 -9.11458228355E-02 -4.89321371974E-03 +7.05613564640E-04 -5.00334605023E-03 +6.33466463100E-04 +5.13090315487E-02 -9.29549591630E-02
1.53000000000E+09 +8.27692008685E-02 -1.45990484364E-01 -4.56167745390E-03 +1.63256174329E-03 -4.68415021907E-03 +1.61673174742E-03 -5.34470367845E-02 -1.37960572116E-01
1.53500000000E+09 -2.86460748419E-02 -1.75465886784E-01 -4.04216126728E-03 +2.97528911004E-03 -4.07485129491E-03 +3.02161108885E-03 -1.64383032141E-01 -1.57783223121E-01
1.54000000000E+09 -1.42271372341E-01 -1.76384177775E-01 -3.39707034399E-03 +3.57176866554E-03 -3.37408574818E-03 +3.54834848449E-03 -2.70538213526E-01 -1.54632539720E-01
1.54500000000E+09 -2.49332215934E-01 -1.52911710010E-01 -2.46900787413E-03 +5.07438491373E-03 -2.55714409125E-03 +4.99971612192E-03 -3.68615790405E-01 -1.33418574997E-01
1.55000000000E+09 -3.46610357585E-01 -1.09621511369E-01 -2.63266415159E-04 +5.55359100229E-03 -5.40441940995E-04 +5.58104361594E-03 -4.54046163157E-01 -9.64477866911E-02
1.55500000000E+09 -4.28734625198E-01 -5.21509876329E-02 +1.46616541095E-03 +4.73071957589E-03 +1.27574673287E-03 +4.93279226955E-03 -5.24727831835E-01 -5.00709074266E-02
1.56000000000E+09 -4.94353984856E-01 +1.13259584744E-02 +2.26880517585E-03 +3.94739021599E-03 +2.25486367958E-03 +4.16127474790E-03 -5.82166812337E-01 +2.30880979848E-03
1.56500000000E+09 -5.45288798341E-01 +7.48225567976E-02 +3.13747213309E-03 +2.88925785152E-03 +3.32036500372E-03 +3.09643303990E-03 -6.26530650164E-01 +5.78310699759E-02
1.57000000000E+09 -5.84753446294E-01 +1.36505443658E-01 +3.41395303365E-03 +1.45587464220E-03 +3.66848424496E-03 +1.47640070068E-03 -6.59774477695E-01 +1.12125390116E-01
