# Hz S RI R 50
! CMT, C1220, 16058040, 17.2.0/1
! Date: 14/08/2018 12:44:29
! Data: Format (Calibration Info)
! Freq                      S11: Re/Im (F2)                       S21: Re/Im (F2)                       S12: Re/Im (F2)                       S22: Re/Im (F2)            
1.00000000000E+09 -6.49816168435E-01 +7.13622531288E-01 -4.36193339009E-05 +2.11609267608E-05 +3.38395024941E-05 -2.10744573844E-05 -7.51886305593E-01 +6.22186646835E-01
1.00500000000E+09 -6.42584611402E-01 +7.18429637868E-01 -4.70770028765E-05 +1.91260412668E-05 -7.07215179198E-05 -3.58047358688E-05 -7.48367418979E-01 +6.26310522860E-01
1.01000000000E+09 -6.36321652195E-01 +7.22964419466E-01 +2.21057103571E-05 -2.40570921220E-05 +1.41375037656E-05 -2.50399483600E-05 -7.44868939901E-01 +6.29973851815E-01
1.01500000000E+09 -6.31651435688E-01 +7.26814527039E-01 -1.84914101610E-05 -4.55445038028E-05 -1.07716665427E-05 +3.09045920532E-05 -7.41760708500E-01 +6.33543234412E-01
1.02000000000E+09 -6.28581849399E-01 +7.30189505254E-01 -1.14992822679E-05 +1.73026328276E-05 +1.69199968623E-05 -3.46878212542E-05 -7.38400131276E-01 +6.36955854843E-01
1.02500000000E+09 -6.26519415540E-01 +7.33066445760E-01 -1.08412863848E-05 +2.86558463135E-05 -5.06199414603E-05 +5.70145266498E-06 -7.35644102684E-01 +6.40645606610E-01
1.03000000000E+09 -6.25326404088E-01 +7.35478896145E-01 -9.18013688383E-06 +1.41284208458E-05 +8.08282276644E-06 -1.72175922762E-05 -7.32190304955E-01 +6.44469718274E-01
1.03500000000E+09 -6.23312641925E-01 +7.38195690993E-01 +2.42417832529E-05 -1.64548490447E-05 -1.09572214132E-05 -1.41444019400E-05 -7.28313782130E-01 +6.48528005435E-01
1.04000000000E+09 -6.20062102863E-01 +7.41157230372E-01 -4.41236758842E-05 +5.75255953956E-05 -1.61567339937E-05 +2.76702109008E-05 -7.24569169461E-01 +6.52140198886E-01
1.04500000000E+09 -6.15230170386E-01 +7.44606867702E-01 -2.44920259758E-05 +3.00789298482E-05 -6.75112842080E-05 +4.30404647244E-05 -7.21157031639E-01 +6.55487043097E-01
1.05000000000E+09 -6.08656584071E-01 +7.48657413903E-01 -2.04158681193E-05 +1.42496749200E-05 -2.50890342569E-05 +1.46727655995E-06 -7.17764902337E-01 +6.58902005723E-01
1.05500000000E+09 -6.00871526657E-01 +7.53146255361E-01 -7.17691540984E-05 +2.68514766601E-05 -1.20143395297E-05 +4.69787111424E-05 -7.14398013138E-01 +6.62520819076E-01
1.06000000000E+09 -5.92138473910E-01 +7.58085996169E-01 -9.34640005872E-06 +2.74695942222E-05 +1.59751766393E-06 +3.98038815517E-05 -7.11030217263E-01 +6.66354979902E-01
1.06500000000E+09 -5.83674967515E-01 +7.63090742457E-01 +1.46145762404E-05 +1.25475853987E-05 -3.96553675441E-06 +1.90353827183E-05 -7.07233736095E-01 +6.70236519085E-01
1.07000000000E+09 -5.76115208121E-01 +7.67406302835E-01 -1.65541256104E-05 +4.85586819247E-05 +1.04420062582E-05 +5.55157254355E-05 -7.03188315949E-01 +6.73930994885E-01
1.07500000000E+09 -5.69952574440E-01 +7.71460374635E-01 +3.95951894547E-05 +1.41590530573E-05 +2.94001660701E-05 +5.96172564373E-05 -6.99013114000E-01 +6.77697982551E-01
1.08000000000E+09 -5.65526066461E-01 +7.74712018442E-01 -6.66831313696E-06 +2.91714036642E-05 -4.59755488768E-05 +5.80744442397E-06 -6.95125180138E-01 +6.81281153584E-01
1.08500000000E+09 -5.62601185968E-01 +7.77342310625E-01 +1.69550064368E-06 +3.57537994690E-05 -8.29450393327E-06 +1.28746917441E-05 -6.91297757988E-01 +6.84991084580E-01
1.09000000000E+09 -5.60581640618E-01 +7.79521691598E-01 +1.08803586379E-05 +6.69844380669E-05 -1.51754702508E-05 +5.26351458353E-05 -6.87458021738E-01 +6.88819193178E-01
1.09500000000E+09 -5.58979334335E-01 +7.81547934948E-01 +3.74413741263E-05 +5.36996340154E-05 +2.00833539296E-05 +8.30791279817E-05 -6.83830387243E-01 +6.92699123231E-01
1.10000000000E+09 -5.56402660736E-01 +7.83636501275E-01 -3.58067512209E-06 +4.27857860582E-06 -5.45523950848E-06 +4.98619158491E-05 -6.79790441657E-01 +6.96449628829E-01
1.10500000000E+09 -5.52934041128E-01 +7.86091424314E-01 +2.60300503612E-05 +3.64817879359E-05 +3.19885810579E-06 +1.72232484325E-06 -6.75578396560E-01 +6.99961557231E-01
1.11000000000E+09 -5.47621598081E-01 +7.89001606841E-01 +2.56684142126E-05 +4.71529038436E-05 +3.84308789190E-05 +4.14743772962E-05 -6.71422446129E-01 +7.03288402958E-01
1.11500000000E+09 -5.40952908533E-01 +7.92754354630E-01 +4.63247431951E-05 +6.47536942101E-05 +4.78683358038E-05 +2.14605741742E-05 -6.67460292630E-01 +7.06695123200E-01
1.12000000000E+09 -5.33543854608E-01 +7.96359270324E-01 +5.90520598981E-05 +8.00843775734E-05 +5.67348228125E-05 +5.55586424944E-05 -6.63629111576E-01 +7.10297974175E-01
1.12500000000E+09 -5.25404383847E-01 +8.00239935048E-01 +3.04982036142E-05 +5.71801444092E-05 +4.81121564773E-05 +5.80659620292E-05 -6.59256597103E-01 +7.14230076562E-01
1.13000000000E+09 -5.17898844343E-01 +8.03751602522E-01 -2.12389927845E-06 +1.95193843333E-05 +4.77379391927E-05 +4.61470178262E-06 -6.54826906841E-01 +7.18069150522E-01
1.13500000000E+09 -5.11030563034E-01 +8.06587859257E-01 +4.79610084774E-05 +4.23638530821E-05 +8.18848220181E-05 +5.07255659876E-05 -6.50093880479E-01 +7.21829926128E-01
1.14000000000E+09 -5.05385249645E-01 +8.09202290380E-01 +5.10303942133E-05 +6.20508073297E-05 +6.63456178441E-05 +1.06108126149E-05 -6.45303523943E-01 +7.25469398255E-01
1.14500000000E+09 -5.01196092842E-01 +8.11017321999E-01 +7.77581881197E-05 +7.41198000754E-06 +1.00516339898E-04 +8.94862392161E-06 -6.40816673193E-01 +7.28946947151E-01
1.15000000000E+09 -4.97318605283E-01 +8.13005663583E-01 +9.34499807763E-05 +4.75868180706E-06 +6.55013319400E-05 -1.14495164001E-05 -6.36191602779E-01 +7.32666332262E-01
1.15500000000E+09 -4.93840215111E-01 +8.14990301140E-01 +9.13600090505E-05 +3.33433594772E-05 +9.36953871127E-05 +4.19735544336E-05 -6.31477120189E-01 +7.36518581344E-01
1.16000000000E+09 -4.89431929848E-01 +8.17139145405E-01 +6.04427744176E-05 -1.83837881113E-06 +5.42722898217E-05 +4.19209105246E-05 -6.26636300770E-01 +7.40278346332E-01
1.16500000000E+09 -4.84221347280E-01 +8.20026126967E-01 +1.15572161550E-04 +1.65252737056E-05 +1.32005080409E-04 +4.08858274710E-06 -6.21771954437E-01 +7.43797381510E-01
1.17000000000E+09 -4.77887263323E-01 +8.23240827448E-01 +1.09670750698E-04 +9.27742329430E-07 +1.36643714269E-04 +2.00577514993E-05 -6.16356844281E-01 +7.47209727125E-01
1.17500000000E+09 -4.70594250419E-01 +8.26411642265E-01 +1.56117289264E-04 +5.05027587464E-05 +1.32252616498E-04 -2.82185679914E-05 -6.10797039143E-01 +7.50381443851E-01
1.18000000000E+09 -4.62746951324E-01 +8.29986196773E-01 +1.31706125755E-04 +2.13822060699E-06 +1.50557764395E-04 -1.19036678383E-05 -6.05366956911E-01 +7.53382588065E-01
1.18500000000E+09 -4.54753996532E-01 +8.33089155517E-01 +2.23710808514E-04 -7.10714367082E-05 +1.66667955132E-04 -6.34816016163E-05 -5.99545655529E-01 +7.56378270879E-01
1.19000000000E+09 -4.47207715646E-01 +8.35689686890E-01 +1.37021115471E-04 -1.03696023644E-04 +2.24587382895E-04 -1.23177944491E-04 -5.93369836989E-01 +7.59020912053E-01
1.19500000000E+09 -4.40615068976E-01 +8.37687235705E-01 +1.93947924997E-04 -1.68054357004E-04 +1.52770466045E-04 -2.10984651266E-04 -5.87525824399E-01 +7.60170812365E-01
1.20000000000E+09 -4.34961386082E-01 +8.38697912671E-01 +1.01399136080E-04 -2.33333746508E-04 +1.38984810931E-04 -2.38470999500E-04 -5.83133918312E-01 +7.60407453009E-01
1.20500000000E+09 -4.30116797971E-01 +8.39971444050E-01 -1.04456277010E-05 -2.44119539690E-04 +5.46682564716E-07 -2.44085237163E-04 -5.80737116282E-01 +7.61205472843E-01
1.21000000000E+09 -4.25290479472E-01 +8.41516790852E-01 -8.60454060874E-06 -1.13894567605E-04 -3.57993441133E-05 -1.38542259560E-04 -5.78765593584E-01 +7.64538195011E-01
1.21500000000E+09 -4.19491217476E-01 +8.43602254657E-01 +2.64584246345E-05 -1.20947822358E-04 -3.35726811381E-06 -1.11852537898E-04 -5.75825835252E-01 +7.68988826608E-01
1.22000000000E+09 -4.12549138305E-01 +8.46121293337E-01 +5.47820895140E-05 -1.11445933885E-04 +1.47637860092E-05 -1.27265899170E-04 -5.71668834552E-01 +7.74403929060E-01
1.22500000000E+09 -4.04467012786E-01 +8.49032008033E-01 +1.79073930926E-05 -1.74526638737E-04 +4.69737233216E-05 -1.50903963535E-04 -5.66699008690E-01 +7.79527532901E-01
1.23000000000E+09 -3.95512266689E-01 +8.52321951396E-01 -8.54964291711E-06 -2.00657460848E-04 +1.92380780771E-05 -2.01520578680E-04 -5.60836435301E-01 +7.84120256215E-01
1.23500000000E+09 -3.85818983096E-01 +8.56060788186E-01 +4.40059893481E-05 -1.96248590391E-04 -2.22279123123E-06 -2.05685609408E-04 -5.55188800533E-01 +7.88506374760E-01
1.24000000000E+09 -3.76243361579E-01 +8.59837894593E-01 -1.36416886878E-05 -2.83644587275E-04 -2.00661758425E-05 -2.25964312019E-04 -5.49180185128E-01 +7.92268748466E-01
1.24500000000E+09 -3.67333626475E-01 +8.63505463375E-01 -2.24299609240E-05 -2.41170349861E-04 -3.70906589519E-05 -2.37874530784E-04 -5.43055661444E-01 +7.96131286278E-01
1.25000000000E+09 -3.59119021339E-01 +8.66608671375E-01 -7.56872091210E-05 -2.69212591368E-04 -4.84527597773E-05 -2.49942075620E-04 -5.36658471495E-01 +8.00338634323E-01
1.25500000000E+09 -3.52152878793E-01 +8.68513912078E-01 -5.93259484691E-05 -2.28692501292E-04 -7.65966711922E-05 -2.33318597909E-04 -5.29856008896E-01 +8.04298021445E-01
1.26000000000E+09 -3.45709038586E-01 +8.70080438541E-01 -1.09866508734E-04 -2.42937644645E-04 -5.58906741976E-05 -2.44906165912E-04 -5.23306863280E-01 +8.08569051951E-01
1.26500000000E+09 -3.39867473331E-01 +8.71053841341E-01 -9.78885213820E-05 -2.60493937406E-04 -1.18462355172E-04 -2.57987270242E-04 -5.16328425658E-01 +8.12387902389E-01
1.27000000000E+09 -3.33500945997E-01 +8.72222829033E-01 -1.80549222996E-04 -2.79396072002E-04 -2.02317266593E-04 -3.06862005108E-04 -5.09499304485E-01 +8.16077593351E-01
1.27500000000E+09 -3.26189166553E-01 +8.73460387530E-01 -2.64156934982E-04 -2.63085923887E-04 -1.93331976863E-04 -2.73234040596E-04 -5.02357144865E-01 +8.19708411041E-01
1.28000000000E+09 -3.17079942279E-01 +8.75212265527E-01 -2.44723603071E-04 -2.10642871097E-04 -2.24572251199E-04 -2.90879982245E-04 -4.95366424091E-01 +8.23413394313E-01
1.28500000000E+09 -3.06110828617E-01 +8.77597112265E-01 -3.02365497969E-04 -2.39879184049E-04 -2.68215694052E-04 -2.69058846775E-04 -4.87809372800E-01 +8.27122789056E-01
1.29000000000E+09 -2.94168383507E-01 +8.80365184902E-01 -2.85796154075E-04 -2.35159716018E-04 -3.58865266308E-04 -2.26637287789E-04 -4.80365996032E-01 +8.30899543963E-01
1.29500000000E+09 -2.81813468333E-01 +8.83469137039E-01 -3.42691377657E-04 -2.51355413433E-04 -4.17384726785E-04 -2.30548718521E-04 -4.72621592807E-01 +8.34367130478E-01
1.30000000000E+09 -2.69568477861E-01 +8.86827564408E-01 -4.17069070648E-04 -2.08082306022E-04 -4.42920563946E-04 -1.72288756019E-04 -4.64688390870E-01 +8.38004480478E-01
1.30500000000E+09 -2.58382712225E-01 +8.89621377332E-01 -4.83259163302E-04 -1.97033869464E-04 -4.69583085020E-04 -1.34976287052E-04 -4.56528839231E-01 +8.41456281608E-01
1.31000000000E+09 -2.49086824118E-01 +8.91599467692E-01 -5.71253800091E-04 -8.61946499800E-05 -5.24513923629E-04 -7.63441566915E-05 -4.48342620055E-01 +8.44982916474E-01
1.31500000000E+09 -2.41433870173E-01 +8.92988328812E-01 -5.84040698877E-04 -2.05728118899E-05 -6.26054446999E-04 -7.00159549848E-06 -4.39656504591E-01 +8.48445820960E-01
1.32000000000E+09 -2.35188281263E-01 +8.93913752093E-01 -5.92531038970E-04 +3.90645630256E-05 -5.99366110764E-04 +2.40729666030E-05 -4.30513504996E-01 +8.51853362883E-01
1.32500000000E+09 -2.29590435645E-01 +8.94092177139E-01 -6.41054298220E-04 +7.09788703223E-05 -6.35789213002E-04 +1.07934474912E-04 -4.21224995679E-01 +8.55103224586E-01
1.33000000000E+09 -2.23039308512E-01 +8.94407937399E-01 -6.75173637651E-04 +1.32323954856E-04 -6.89855256734E-04 +1.99177709020E-04 -4.11676539586E-01 +8.58353068878E-01
1.33500000000E+09 -2.14736392505E-01 +8.94409081038E-01 -8.00493287142E-04 +2.37718546178E-04 -6.95547092804E-04 +2.91803313752E-04 -4.01846590250E-01 +8.61528259624E-01
1.34000000000E+09 -2.03636431437E-01 +8.94747206672E-01 -7.51029381677E-04 +4.16506069971E-04 -7.02099867631E-04 +4.01873501870E-04 -3.91803580388E-01 +8.64768640306E-01
1.34500000000E+09 -1.90169410367E-01 +8.95065410500E-01 -7.21218519331E-04 +4.67165892188E-04 -6.41364085628E-04 +5.32279289042E-04 -3.80912744634E-01 +8.68224680239E-01
1.35000000000E+09 -1.74475171060E-01 +8.95498396891E-01 -6.55614489246E-04 +6.50072109104E-04 -6.24360371682E-04 +5.99257138611E-04 -3.69796664957E-01 +8.71314624491E-01
1.35500000000E+09 -1.57578846892E-01 +8.95978094003E-01 -6.03442475208E-04 +7.00233464468E-04 -6.03123506721E-04 +6.92252472312E-04 -3.58179342156E-01 +8.74077483648E-01
1.36000000000E+09 -1.40433781051E-01 +8.96177415559E-01 -5.58855524129E-04 +7.84292765871E-04 -5.34222132310E-04 +7.51346977197E-04 -3.46342816126E-01 +8.76864586218E-01
1.36500000000E+09 -1.24150981172E-01 +8.96187337942E-01 -5.85435349687E-04 +8.58777991496E-04 -5.57728582959E-04 +8.00494540611E-04 -3.34320327808E-01 +8.79400553545E-01
1.37000000000E+09 -1.09833192847E-01 +8.95533108570E-01 -5.30795126014E-04 +1.01889182567E-03 -5.32370221435E-04 +9.47984799534E-04 -3.21497052637E-01 +8.81920363802E-01
1.37500000000E+09 -9.72563683247E-02 +8.94714342625E-01 -3.74199374256E-04 +1.15352156167E-03 -5.16894255334E-04 +1.09205899496E-03 -3.07687282820E-01 +8.84328016878E-01
1.38000000000E+09 -8.59953324800E-02 +8.93720803185E-01 -3.07556763345E-04 +1.22268184203E-03 -4.20210448124E-04 +1.21263198615E-03 -2.93026205826E-01 +8.86565827468E-01
1.38500000000E+09 -7.47405679036E-02 +8.92259020625E-01 -2.34017999551E-04 +1.35386114362E-03 -3.49806357356E-04 +1.46872205961E-03 -2.77614939497E-01 +8.88485780624E-01
1.39000000000E+09 -6.27462305919E-02 +8.90335331274E-01 -7.53268863956E-05 +1.45448012286E-03 -1.29980280644E-04 +1.69911772387E-03 -2.61791369989E-01 +8.90059545603E-01
1.39500000000E+09 -4.87991051305E-02 +8.87631944121E-01 +9.33284003272E-05 +1.57103417889E-03 +1.73030194158E-04 +1.77188231924E-03 -2.45252357958E-01 +8.90912621439E-01
1.40000000000E+09 -3.22102193470E-02 +8.83830872229E-01 +1.49907277769E-04 +1.78589326564E-03 +3.59574982401E-04 +1.79093580913E-03 -2.27797522539E-01 +8.91376311914E-01
1.40500000000E+09 -1.33413956322E-02 +8.79429523335E-01 +5.34913741947E-04 +2.05432702240E-03 +6.31992233624E-04 +1.97927121801E-03 -2.09407220089E-01 +8.91312681163E-01
1.41000000000E+09 +7.63645945547E-03 +8.73957272743E-01 +9.97568028791E-04 +2.05614319155E-03 +9.24722142608E-04 +2.06948152012E-03 -1.89186120867E-01 +8.90751915297E-01
1.41500000000E+09 +2.99608711833E-02 +8.67657513392E-01 +1.33389859162E-03 +2.08781033375E-03 +1.26638626398E-03 +2.17039854494E-03 -1.67440264435E-01 +8.89350132832E-01
1.42000000000E+09 +5.28666822957E-02 +8.60236811519E-01 +1.69028556417E-03 +1.96008082433E-03 +1.84941088790E-03 +2.23999486297E-03 -1.44308810245E-01 +8.86879827121E-01
1.42500000000E+09 +7.50072618116E-02 +8.51733267957E-01 +2.01627323874E-03 +1.87255091057E-03 +2.31594804661E-03 +2.07495770636E-03 -1.20526821119E-01 +8.83175036974E-01
1.43000000000E+09 +9.63541930880E-02 +8.42235757498E-01 +2.48113782194E-03 +1.97970672797E-03 +2.86421645101E-03 +1.87516149671E-03 -9.57683625244E-02 +8.78534681437E-01
1.43500000000E+09 +1.17045313114E-01 +8.31441778240E-01 +3.17123607045E-03 +1.74974472150E-03 +3.46358689145E-03 +1.49471242887E-03 -6.93744427647E-02 +8.71913127199E-01
1.44000000000E+09 +1.38103425143E-01 +8.19375268456E-01 +3.87695335276E-03 +1.09353590581E-03 +3.93484924395E-03 +8.63257713253E-04 -4.11481760575E-02 +8.63354931839E-01
1.44500000000E+09 +1.60797185173E-01 +8.04458733993E-01 +4.18341740441E-03 +4.10201035097E-04 +4.26663017172E-03 +2.01754901423E-04 -1.06225447855E-02 +8.52012761689E-01
1.45000000000E+09 +1.84735601870E-01 +7.86437029573E-01 +4.32040753502E-03 -1.45444040742E-04 +4.40716000660E-03 -4.72796847966E-04 +2.11633985388E-02 +8.37405726140E-01
1.45500000000E+09 +2.11070930211E-01 +7.64917710839E-01 +4.70167229514E-03 -5.23693058847E-04 +4.61137822194E-03 -9.54725354539E-04 +5.46606128284E-02 +8.20111835201E-01
1.46000000000E+09 +2.40001200249E-01 +7.39226154839E-01 +5.22052866191E-03 -1.16551921835E-03 +4.84945338924E-03 -1.63566543273E-03 +8.95049139895E-02 +7.98278280958E-01
1.46500000000E+09 +2.70712429106E-01 +7.08698089802E-01 +5.90746179754E-03 -2.27635486661E-03 +5.30945945067E-03 -2.43968406309E-03 +1.25682234876E-01 +7.71569885096E-01
1.47000000000E+09 +3.02229353115E-01 +6.72832855583E-01 +6.21997064095E-03 -4.07806360375E-03 +5.72853143370E-03 -3.77069686569E-03 +1.63053364013E-01 +7.37669721386E-01
1.47500000000E+09 +3.32491165456E-01 +6.31327987625E-01 +5.56278456777E-03 -6.09659875223E-03 +5.56375761450E-03 -5.65295122240E-03 +1.99858969417E-01 +6.96239747224E-01
1.48000000000E+09 +3.60368940979E-01 +5.83663934597E-01 +4.48774248552E-03 -7.60889281127E-03 +4.74540122646E-03 -7.56660707976E-03 +2.36315015470E-01 +6.46577878453E-01
1.48500000000E+09 +3.82962120205E-01 +5.29233414803E-01 +3.30669503620E-03 -9.10162337515E-03 +3.21113005548E-03 -9.38057674170E-03 +2.69911428340E-01 +5.87733427276E-01
1.49000000000E+09 +4.00051702710E-01 +4.67925689720E-01 +1.59174015645E-03 -1.06299140940E-02 +1.01957350602E-03 -1.06667568905E-02 +2.98606934692E-01 +5.17970555797E-01
1.49500000000E+09 +4.08931256996E-01 +3.98752319969E-01 -1.09286581029E-03 -1.18973116820E-02 -1.50114780343E-03 -1.12864233781E-02 +3.16333508029E-01 +4.37878699082E-01
1.50000000000E+09 +4.07879121568E-01 +3.20964894555E-01 -4.18185409412E-03 -1.26049423675E-02 -4.00436471669E-03 -1.18325021274E-02 +3.21074372338E-01 +3.49138690754E-01
1.50500000000E+09 +3.93064108196E-01 +2.35487846782E-01 -8.12259808747E-03 -1.20622552320E-02 -7.41547744280E-03 -1.17875707299E-02 +3.09919732093E-01 +2.52908824750E-01
1.51000000000E+09 +3.62188003180E-01 +1.45754511673E-01 -1.15930029252E-02 -9.55037756540E-03 -1.11252596734E-02 -9.82326306422E-03 +2.78065607053E-01 +1.51295092516E-01
1.51500000000E+09 +3.11639322066E-01 +5.60432285946E-02 -1.41385217544E-02 -7.35908031342E-03 -1.40013434114E-02 -7.82450447284E-03 +2.20852619559E-01 +5.48231154517E-02
1.52000000000E+09 +2.41568975225E-01 -2.41402299174E-02 -1.75720228998E-02 -3.48412881997E-03 -1.76683679455E-02 -3.72907448426E-03 +1.44677288869E-01 -2.94171883483E-02
1.52500000000E+09 +1.55192010467E-01 -9.01751494408E-02 -1.83153358761E-02 +3.53835463390E-03 -1.85438608289E-02 +3.41900189010E-03 +5.06446310243E-02 -9.68305642440E-02
1.53000000000E+09 +5.63137818316E-02 -1.35875566490E-01 -1.48435478267E-02 +8.38196403787E-03 -1.49867510950E-02 +8.37447340294E-03 -5.64944342726E-02 -1.40992803996E-01
1.53500000000E+09 -5.03694928060E-02 -1.58663530291E-01 -1.18274317718E-02 +1.15745797041E-02 -1.18992031761E-02 +1.15460782596E-02 -1.66904027972E-01 -1.60187175851E-01
1.54000000000E+09 -1.59051022521E-01 -1.55329805662E-01 -7.78583226013E-03 +1.33330605108E-02 -7.79221266630E-03 +1.31523918539E-02 -2.74499759067E-01 -1.56961390074E-01
1.54500000000E+09 -2.60117180401E-01 -1.29468735952E-01 -3.91073595385E-03 +1.40639912315E-02 -4.20713735818E-03 +1.38162611230E-02 -3.72302469885E-01 -1.34181774383E-01
1.55000000000E+09 -3.50834728395E-01 -8.69904018338E-02 -7.73270792244E-04 +1.38245365419E-02 -1.36235531392E-03 +1.37614462331E-02 -4.57584768490E-01 -9.69948912534E-02
1.55500000000E+09 -4.27540891453E-01 -3.20662552339E-02 +3.22983762105E-03 +1.30009706664E-02 +2.73470309657E-03 +1.34753112254E-02 -5.27748818438E-01 -4.96513199560E-02
1.56000000000E+09 -4.88969108385E-01 +2.69465364259E-02 +5.87531841387E-03 +9.96624950530E-03 +5.79271550795E-03 +1.06513393867E-02 -5.84829211756E-01 +2.89635427541E-03
1.56500000000E+09 -5.37623551822E-01 +8.72996636326E-02 +6.51133696678E-03 +7.73990368127E-03 +6.79396020487E-03 +8.34630331026E-03 -6.28498569775E-01 +5.86915949955E-02
1.57000000000E+09 -5.74729074144E-01 +1.45673053947E-01 +7.11695378065E-03 +5.75847012851E-03 +7.65424112780E-03 +6.07349111262E-03 -6.61522027413E-01 +1.12082713034E-01
