# Hz S RI R 50
! CMT, C1220, 16058040, 17.2.0/1
! Date: 14/08/2018 12:47:54
! Data: Format (Calibration Info)
! Freq                      S11: Re/Im (F2)                       S21: Re/Im (F2)                       S12: Re/Im (F2)                       S22: Re/Im (F2)            
1.00000000000E+09 -6.51914680365E-01 +7.13258224458E-01 +1.81315125691E-05 -3.28460184588E-06 -1.75452131418E-05 +5.04389582665E-05 -7.53726682083E-01 +6.21635191109E-01
1.00500000000E+09 -6.44850321911E-01 +7.18300450389E-01 -4.80025105208E-05 +3.67934305607E-05 +3.21606178187E-05 +9.04616349383E-06 -7.50225789767E-01 +6.25597346764E-01
1.01000000000E+09 -6.38832279656E-01 +7.22990951893E-01 +2.64975145240E-05 -1.14847185793E-05 -2.02390688312E-06 -6.50411993432E-06 -7.46683496999E-01 +6.29317579971E-01
1.01500000000E+09 -6.34342205351E-01 +7.26863074478E-01 -1.13262641448E-05 -1.83850492159E-05 -2.89651421374E-06 +3.30616485441E-05 -7.43501502445E-01 +6.32727227754E-01
1.02000000000E+09 -6.31403514175E-01 +7.30178058102E-01 -2.10897186447E-05 +5.54329984357E-05 -5.76362344375E-05 +6.78494389306E-05 -7.40499507023E-01 +6.36202871133E-01
1.02500000000E+09 -6.29302000890E-01 +7.33033011482E-01 -2.01952968505E-05 +1.93461892593E-05 -1.32489761344E-05 +4.33021684942E-05 -7.37560120202E-01 +6.39830275293E-01
1.03000000000E+09 -6.27958576388E-01 +7.35608283161E-01 +1.08625457572E-05 +2.52389531663E-05 +2.46596623578E-05 -1.42029704282E-05 -7.33974144123E-01 +6.43625601121E-01
1.03500000000E+09 -6.25706957813E-01 +7.38212635617E-01 -3.39583925962E-06 +3.14535056673E-05 -7.25632794411E-06 +1.14907017378E-06 -7.30319980285E-01 +6.47540568271E-01
1.04000000000E+09 -6.22318320728E-01 +7.41171357465E-01 -2.63528220176E-05 +1.76243975575E-05 +3.67593172056E-06 +3.36873938265E-06 -7.26390121529E-01 +6.51295962598E-01
1.04500000000E+09 -6.17429653835E-01 +7.44594384878E-01 -2.02049232699E-05 +5.27940981192E-05 +3.21936129853E-05 +2.37315560836E-05 -7.22975259806E-01 +6.54926907723E-01
1.05000000000E+09 -6.10913841050E-01 +7.48863710369E-01 -2.31450518385E-05 +5.51938191541E-05 -3.26038594974E-05 +2.87715918917E-05 -7.19537004964E-01 +6.58134434063E-01
1.05500000000E+09 -6.03082875876E-01 +7.53391873020E-01 -3.34076518676E-05 +3.19270703472E-05 -2.51746421682E-05 +2.09019876063E-06 -7.16222943059E-01 +6.61801696215E-01
1.06000000000E+09 -5.94519216608E-01 +7.58454678195E-01 +1.59733526870E-05 -2.52813043694E-05 +2.05870057080E-05 +3.55611424729E-05 -7.12981499591E-01 +6.65621579867E-01
1.06500000000E+09 -5.86186638473E-01 +7.63411268931E-01 +4.06937978976E-05 +1.52813650637E-05 +1.90992809011E-05 +5.79973100294E-06 -7.09191188361E-01 +6.69549484151E-01
1.07000000000E+09 -5.78889505770E-01 +7.67859567777E-01 -2.32925602437E-05 +3.78582475079E-05 -4.91333141239E-05 +1.05388801930E-05 -7.05002111910E-01 +6.73360748120E-01
1.07500000000E+09 -5.73088967712E-01 +7.71754082101E-01 -3.42427312835E-05 -2.44737061570E-06 -6.04211643392E-06 +3.86351349786E-05 -7.00691094222E-01 +6.76983928418E-01
1.08000000000E+09 -5.68992121695E-01 +7.75125486550E-01 +3.34049239129E-05 -1.35823182941E-06 +2.66745436559E-05 +5.68212829800E-06 -6.96951583693E-01 +6.80775540804E-01
1.08500000000E+09 -5.66164724812E-01 +7.77604986913E-01 -7.65340162370E-06 +1.91611931865E-05 +6.77852791669E-06 +3.43027485600E-05 -6.93219955450E-01 +6.84443450657E-01
1.09000000000E+09 -5.64266589587E-01 +7.79782397156E-01 +8.35855613146E-06 +9.16860470773E-06 +2.21736572467E-05 +3.38125359195E-05 -6.89486607450E-01 +6.88140695258E-01
1.09500000000E+09 -5.62551946267E-01 +7.81625175227E-01 +3.77639038503E-05 +3.29645342877E-07 -2.07633476506E-07 +1.37215747407E-05 -6.85616386800E-01 +6.92114851673E-01
1.10000000000E+09 -5.59904146652E-01 +7.83590620491E-01 +3.84113001975E-06 +1.49238701609E-05 +3.08088053091E-05 +4.62851730172E-05 -6.81769219962E-01 +6.95858712311E-01
1.10500000000E+09 -5.56200863025E-01 +7.86352542100E-01 -1.60529678028E-05 +2.45220634867E-05 +6.11718039098E-05 +7.81636319554E-05 -6.77516970507E-01 +6.99294215355E-01
1.11000000000E+09 -5.50835346232E-01 +7.89523954267E-01 +3.19027379232E-05 +1.39877854502E-05 +4.57747751451E-05 +2.99082646046E-05 -6.73217771682E-01 +7.02625220202E-01
1.11500000000E+09 -5.44134331172E-01 +7.93209066159E-01 -1.70304287732E-05 +3.12650976811E-05 +1.03763386782E-04 +4.44860749306E-05 -6.69441446470E-01 +7.06032815373E-01
1.12000000000E+09 -5.36488091366E-01 +7.97275705695E-01 +6.08834745500E-05 +3.76681496663E-05 +1.26305698329E-05 -1.01184369876E-05 -6.65538554890E-01 +7.09733962781E-01
1.12500000000E+09 -5.28584052998E-01 +8.01343810910E-01 +3.81861120841E-05 +2.43775498737E-05 +5.25087276161E-05 +2.45886558302E-05 -6.61137468954E-01 +7.13686558245E-01
1.13000000000E+09 -5.21236085706E-01 +8.05102447189E-01 +5.24663839978E-05 +1.70631044746E-05 +7.35632042677E-05 +3.16116672699E-05 -6.56814540261E-01 +7.17566545692E-01
1.13500000000E+09 -5.14497631175E-01 +8.07878543651E-01 +9.20822893876E-05 +5.93399006250E-05 +2.40222791171E-05 +5.58312985663E-06 -6.52284349065E-01 +7.21430231055E-01
1.14000000000E+09 -5.09068788281E-01 +8.10481371065E-01 +8.82949748249E-05 +1.01581627151E-05 +8.73444183665E-05 +3.13971440642E-05 -6.47272383463E-01 +7.24717983963E-01
1.14500000000E+09 -5.05039785510E-01 +8.12249501190E-01 +5.55274375770E-05 -7.03931703485E-06 +1.06526819087E-04 +1.24167894613E-05 -6.42753093145E-01 +7.28365927230E-01
1.15000000000E+09 -5.01206153599E-01 +8.14129840276E-01 +5.27494417421E-05 -9.31981860258E-06 +6.40690957864E-05 +3.89462307666E-05 -6.38229439636E-01 +7.31976805455E-01
1.15500000000E+09 -4.97717340303E-01 +8.15908379669E-01 +1.00722894268E-04 -1.78406622603E-05 +4.01000003445E-05 -1.48830039868E-05 -6.33445240764E-01 +7.35896931924E-01
1.16000000000E+09 -4.93338503257E-01 +8.18128288718E-01 +5.34887939259E-05 +7.16284643373E-06 +8.76449948376E-05 +1.62988169282E-05 -6.28649151959E-01 +7.39671506852E-01
1.16500000000E+09 -4.88048783681E-01 +8.20993600782E-01 +6.22324738728E-05 +4.91676265613E-06 +9.11184652763E-05 -2.30753906927E-06 -6.23584280010E-01 +7.43379796848E-01
1.17000000000E+09 -4.81703807106E-01 +8.24215362829E-01 +1.24632694170E-04 -3.06402749429E-06 +1.32164420115E-04 +2.81446941383E-06 -6.18174184134E-01 +7.46622805597E-01
1.17500000000E+09 -4.74351859478E-01 +8.27702136822E-01 +1.20809476334E-04 -1.78366577283E-05 +1.49000620802E-04 -6.21188152411E-05 -6.12710447752E-01 +7.49873765315E-01
1.18000000000E+09 -4.66671349140E-01 +8.31447275890E-01 +9.61419257340E-05 -5.12086317667E-05 +1.40145892270E-04 -1.92422982966E-05 -6.07261497020E-01 +7.52998144601E-01
1.18500000000E+09 -4.58725663488E-01 +8.34879481253E-01 +1.30382176282E-04 -5.10922598108E-05 +1.25918287217E-04 -1.97878182324E-05 -6.01404460568E-01 +7.56065567361E-01
1.19000000000E+09 -4.51382529981E-01 +8.37703809111E-01 +1.89292486888E-04 -1.18862600222E-04 +1.74571238120E-04 -1.19989673655E-04 -5.95377582898E-01 +7.58526940746E-01
1.19500000000E+09 -4.45030077879E-01 +8.39786066228E-01 +8.61550959478E-05 -1.83265167833E-04 +1.36202722463E-04 -2.38095338346E-04 -5.89573139734E-01 +7.59795511252E-01
1.20000000000E+09 -4.39658233672E-01 +8.40805981242E-01 +1.83260817939E-05 -2.37771926876E-04 -6.55109921115E-07 -2.22034928048E-04 -5.85016029642E-01 +7.60003446490E-01
1.20500000000E+09 -4.34930725873E-01 +8.42143042936E-01 -1.21448819999E-05 -2.03177702209E-04 -2.44306050438E-05 -1.82831496199E-04 -5.82674518254E-01 +7.60889827559E-01
1.21000000000E+09 -4.30002492841E-01 +8.43831313423E-01 -7.46276191918E-05 -1.43776725684E-04 -3.25461401321E-05 -1.03468875337E-04 -5.80688414124E-01 +7.64105473563E-01
1.21500000000E+09 -4.24234886526E-01 +8.45569785024E-01 -2.28007492207E-05 -7.58387364822E-05 -7.99666929383E-06 -7.42502537701E-05 -5.77989565974E-01 +7.68616050384E-01
1.22000000000E+09 -4.17335141552E-01 +8.48026613301E-01 -2.13792749298E-05 -1.30274905130E-04 -1.31133166045E-05 -1.58536438093E-04 -5.73854533130E-01 +7.73920515115E-01
1.22500000000E+09 -4.09065197167E-01 +8.51236629002E-01 -2.24907813796E-05 -1.01316101377E-04 -2.35372238985E-05 -1.57264481052E-04 -5.68674372026E-01 +7.78831326172E-01
1.23000000000E+09 -3.99968253820E-01 +8.54666738447E-01 -2.50305485323E-05 -1.37771860249E-04 -7.32568274194E-06 -1.44401000725E-04 -5.63073931076E-01 +7.83715131127E-01
1.23500000000E+09 -3.90434300197E-01 +8.58485834493E-01 +1.04102106858E-05 -1.67238256068E-04 -4.84555880708E-05 -1.70700498274E-04 -5.57272008754E-01 +7.88027504955E-01
1.24000000000E+09 -3.80864733881E-01 +8.62404586585E-01 +2.00145248712E-05 -2.00857740065E-04 -5.10826128491E-05 -2.12941629868E-04 -5.51282718279E-01 +7.91930234549E-01
1.24500000000E+09 -3.72059015890E-01 +8.66291148683E-01 -6.34833943955E-05 -1.98724485254E-04 -9.94695460368E-05 -2.08160579327E-04 -5.45186660259E-01 +7.95762169862E-01
1.25000000000E+09 -3.63882273423E-01 +8.69361789447E-01 -1.11097051583E-04 -2.35258048884E-04 -9.10560492850E-05 -1.82566324850E-04 -5.38725859868E-01 +7.99886160788E-01
1.25500000000E+09 -3.57059548486E-01 +8.71560390175E-01 -1.09518594471E-04 -2.26266601895E-04 -5.13322118826E-05 -2.25571259634E-04 -5.31931968776E-01 +8.03929984040E-01
1.26000000000E+09 -3.50969852135E-01 +8.73085149836E-01 -1.14843495375E-04 -2.42089690827E-04 -6.39762473836E-05 -2.67828426285E-04 -5.25400961046E-01 +8.08048588186E-01
1.26500000000E+09 -3.45012184146E-01 +8.74253238817E-01 -1.28596794133E-04 -2.33244381624E-04 -1.38912101482E-04 -2.26198376011E-04 -5.18526411545E-01 +8.12022823006E-01
1.27000000000E+09 -3.38653205677E-01 +8.75365686991E-01 -1.90609465590E-04 -2.79076758378E-04 -2.03300207522E-04 -2.42004752595E-04 -5.11602405711E-01 +8.15956001903E-01
1.27500000000E+09 -3.31095090299E-01 +8.76733862151E-01 -2.71429271075E-04 -2.04123556103E-04 -2.25840081219E-04 -2.23911322537E-04 -5.04571852500E-01 +8.19484153340E-01
1.28000000000E+09 -3.21883003062E-01 +8.78596530862E-01 -2.93593861204E-04 -1.48178299595E-04 -3.10585091471E-04 -2.06188643595E-04 -4.97344995385E-01 +8.23059750786E-01
1.28500000000E+09 -3.10721139324E-01 +8.81040484073E-01 -2.85248417971E-04 -1.03847302398E-04 -2.91763442235E-04 -1.92248549744E-04 -4.89966183851E-01 +8.26984535343E-01
1.29000000000E+09 -2.98682183157E-01 +8.83908921941E-01 -2.80119724329E-04 -1.44599577173E-04 -3.69115915596E-04 -1.42527638744E-04 -4.82462051806E-01 +8.30676187942E-01
1.29500000000E+09 -2.86515913730E-01 +8.87181007370E-01 -3.81461293851E-04 -1.71772214525E-04 -4.29119184452E-04 -1.56004879434E-04 -4.74541730471E-01 +8.34192557806E-01
1.30000000000E+09 -2.74439663085E-01 +8.90710867513E-01 -4.34957403352E-04 -1.23403348437E-04 -4.01530123638E-04 -5.95500655471E-05 -4.66716949028E-01 +8.37816467525E-01
1.30500000000E+09 -2.63536598302E-01 +8.93805273500E-01 -4.50447080770E-04 -7.08139137961E-05 -4.48920784465E-04 -1.19388880064E-05 -4.58579518833E-01 +8.41375744055E-01
1.31000000000E+09 -2.54312787032E-01 +8.96079058309E-01 -5.25278151345E-04 +4.83471441094E-05 -5.16372343097E-04 +2.38842335844E-05 -4.50363247601E-01 +8.44814183298E-01
1.31500000000E+09 -2.46964259271E-01 +8.97636748947E-01 -5.04818036123E-04 +8.39367860336E-05 -5.16884756814E-04 +1.18919801240E-04 -4.41699458644E-01 +8.48341452782E-01
1.32000000000E+09 -2.40796653468E-01 +8.98394775858E-01 -4.98912509873E-04 +1.01241484249E-04 -5.24388239156E-04 +1.26692087780E-04 -4.32807019856E-01 +8.51760701906E-01
1.32500000000E+09 -2.35008415558E-01 +8.98652308868E-01 -5.23005136088E-04 +1.70258637686E-04 -5.79265892874E-04 +1.79164257356E-04 -4.23271610970E-01 +8.55072648917E-01
1.33000000000E+09 -2.28018650855E-01 +8.98776177050E-01 -6.00649608920E-04 +2.16757641393E-04 -6.31333688325E-04 +2.88684436208E-04 -4.13812403296E-01 +8.58265392255E-01
1.33500000000E+09 -2.19416186284E-01 +8.98789453851E-01 -6.27883672694E-04 +3.62304764032E-04 -5.74288629115E-04 +3.85101310760E-04 -4.04133459055E-01 +8.61367034635E-01
1.34000000000E+09 -2.08144731611E-01 +8.99057773203E-01 -6.53109461786E-04 +4.91117968000E-04 -5.54762352937E-04 +4.88679778098E-04 -3.93938224718E-01 +8.64879557974E-01
1.34500000000E+09 -1.94364147753E-01 +8.99508471057E-01 -5.57191031489E-04 +6.26797949447E-04 -5.19337544503E-04 +5.68553246275E-04 -3.83029218926E-01 +8.68139972240E-01
1.35000000000E+09 -1.78534865434E-01 +9.00043704833E-01 -4.54922575241E-04 +6.71373770794E-04 -4.63989878280E-04 +6.94396770009E-04 -3.72047432200E-01 +8.71433125415E-01
1.35500000000E+09 -1.61673054669E-01 +9.00770419395E-01 -4.05259191279E-04 +7.36736924762E-04 -4.01425903282E-04 +7.22154082298E-04 -3.60429433509E-01 +8.74215653787E-01
1.36000000000E+09 -1.44916724775E-01 +9.01474286018E-01 -4.06109137317E-04 +8.20850813674E-04 -3.60882927170E-04 +7.73024564725E-04 -3.48543425118E-01 +8.77099816323E-01
1.36500000000E+09 -1.28892598720E-01 +9.01912332516E-01 -3.18060605589E-04 +8.94547484694E-04 -3.66688795067E-04 +8.54445768849E-04 -3.36388347336E-01 +8.79565049437E-01
1.37000000000E+09 -1.14538522120E-01 +9.01561621475E-01 -2.65848969293E-04 +1.07277637410E-03 -3.01034460654E-04 +9.87469476827E-04 -3.23691634932E-01 +8.82039096879E-01
1.37500000000E+09 -1.02173445107E-01 +9.00984979413E-01 -9.82529607785E-05 +1.15149820491E-03 -2.08710706510E-04 +1.07645253429E-03 -3.09729392073E-01 +8.84471736598E-01
1.38000000000E+09 -9.08320993015E-02 +9.00115338331E-01 +1.88319016155E-05 +1.16235818888E-03 -1.33209483331E-04 +1.22962434707E-03 -2.95155894192E-01 +8.86811020942E-01
1.38500000000E+09 -7.92755088711E-02 +8.98393571850E-01 +1.29639578885E-04 +1.22746878557E-03 +1.28235480568E-05 +1.37606659070E-03 -2.79526808207E-01 +8.88776516966E-01
1.39000000000E+09 -6.70125575306E-02 +8.96211548264E-01 +2.62155948026E-04 +1.32897723226E-03 +2.69954785216E-04 +1.48498704337E-03 -2.63704206718E-01 +8.90367291814E-01
1.39500000000E+09 -5.25785249211E-02 +8.93325661818E-01 +4.37305857799E-04 +1.40867188395E-03 +6.08437195604E-04 +1.50871455548E-03 -2.47145766864E-01 +8.91193870322E-01
1.40000000000E+09 -3.55444790599E-02 +8.89638819433E-01 +5.40746337784E-04 +1.50596695023E-03 +6.61302586252E-04 +1.53802999747E-03 -2.29632745568E-01 +8.91696887163E-01
1.40500000000E+09 -1.63240604934E-02 +8.85170198676E-01 +8.32962326673E-04 +1.69823536851E-03 +9.25864880482E-04 +1.62862678740E-03 -2.11195584667E-01 +8.91627694473E-01
1.41000000000E+09 +4.91261368408E-03 +8.79811702449E-01 +1.27067552739E-03 +1.66339206709E-03 +1.26573697894E-03 +1.62334037523E-03 -1.90804600719E-01 +8.91086754976E-01
1.41500000000E+09 +2.72659300377E-02 +8.73825648626E-01 +1.62856640497E-03 +1.56573681634E-03 +1.57044707457E-03 +1.69227852991E-03 -1.69285231917E-01 +8.89803627577E-01
1.42000000000E+09 +4.99769437900E-02 +8.66778283618E-01 +1.88431592308E-03 +1.37583155357E-03 +2.05021853891E-03 +1.51797162478E-03 -1.46161266140E-01 +8.87312087697E-01
1.42500000000E+09 +7.17865088066E-02 +8.58741570720E-01 +2.13660829309E-03 +1.28836994270E-03 +2.49211501416E-03 +1.34256675991E-03 -1.22334625060E-01 +8.83593682669E-01
1.43000000000E+09 +9.28295088922E-02 +8.49590911026E-01 +2.57697872840E-03 +1.25264948845E-03 +2.88683309558E-03 +1.15525427830E-03 -9.76098188093E-02 +8.79093826719E-01
1.43500000000E+09 +1.13604925782E-01 +8.38982904050E-01 +3.21607820865E-03 +9.61134345257E-04 +3.41660969385E-03 +6.45081077432E-04 -7.10095317072E-02 +8.72415199665E-01
1.44000000000E+09 +1.34697925292E-01 +8.26784256591E-01 +3.68443744286E-03 +2.53643513053E-04 +3.71946843118E-03 -9.28715230939E-06 -4.27715670815E-02 +8.63754574547E-01
1.44500000000E+09 +1.57637600598E-01 +8.11588194194E-01 +3.89591276549E-03 -4.58334966988E-04 +3.89290014008E-03 -6.42882476705E-04 -1.22935858716E-02 +8.52170092725E-01
1.45000000000E+09 +1.82108050830E-01 +7.93161790925E-01 +3.91480865901E-03 -1.06487504705E-03 +3.90172173972E-03 -1.38817079327E-03 +1.93461071654E-02 +8.37893637562E-01
1.45500000000E+09 +2.09033774393E-01 +7.71032670574E-01 +4.10971492565E-03 -1.52028971930E-03 +3.96280360500E-03 -1.86443912396E-03 +5.27933282952E-02 +8.20529756688E-01
1.46000000000E+09 +2.38329105401E-01 +7.44770381838E-01 +4.41605289922E-03 -2.19724939266E-03 +4.01940171586E-03 -2.58949814271E-03 +8.79107359649E-02 +7.98770633885E-01
1.46500000000E+09 +2.68800570662E-01 +7.13922671711E-01 +4.78703666590E-03 -3.28730373497E-03 +4.17618852575E-03 -3.23169694731E-03 +1.24002501893E-01 +7.71944646882E-01
1.47000000000E+09 +2.99985826853E-01 +6.78300090308E-01 +4.65162124673E-03 -4.96028879711E-03 +4.26399133041E-03 -4.52805388690E-03 +1.61267955691E-01 +7.37949143112E-01
1.47500000000E+09 +3.30093909624E-01 +6.37661811947E-01 +3.66963623997E-03 -6.56982525238E-03 +3.76169204416E-03 -6.15158910643E-03 +1.97790470520E-01 +6.96875840580E-01
1.48000000000E+09 +3.58014832585E-01 +5.90729639112E-01 +2.52731387273E-03 -7.71764454490E-03 +2.77314524938E-03 -7.70474335004E-03 +2.34453136335E-01 +6.47393217823E-01
1.48500000000E+09 +3.80453837869E-01 +5.37206624619E-01 +1.21469638921E-03 -9.01268339290E-03 +1.10116624061E-03 -9.28703172126E-03 +2.68128171738E-01 +5.88678414141E-01
1.49000000000E+09 +3.97838074142E-01 +4.76510086009E-01 -9.67775204907E-04 -1.01454211998E-02 -1.43322594103E-03 -1.00765869700E-02 +2.96506210761E-01 +5.19038916956E-01
1.49500000000E+09 +4.06843549714E-01 +4.07615487699E-01 -3.82692191235E-03 -1.05316833196E-02 -3.99391384441E-03 -9.91915583408E-03 +3.14463868981E-01 +4.39685728594E-01
1.50000000000E+09 +4.06115354874E-01 +3.30161763499E-01 -6.79450477034E-03 -1.03422051196E-02 -6.40919084427E-03 -9.74749723279E-03 +3.19852871766E-01 +3.51379943246E-01
1.50500000000E+09 +3.92347073488E-01 +2.44749974243E-01 -1.02559958862E-02 -8.75859591198E-03 -9.53656648007E-03 -8.68699128232E-03 +3.09521401726E-01 +2.55077740552E-01
1.51000000000E+09 +3.62875853958E-01 +1.54539548141E-01 -1.24071381497E-02 -5.48178019390E-03 -1.20787903466E-02 -5.87747610276E-03 +2.77934363804E-01 +1.53107870829E-01
1.51500000000E+09 +3.13833711237E-01 +6.38962576325E-02 -1.38146780187E-02 -3.32683422292E-03 -1.38695933868E-02 -3.66487390207E-03 +2.21309548707E-01 +5.69091657602E-02
1.52000000000E+09 +2.45047642864E-01 -1.73289182382E-02 -1.62277117002E-02 +3.95537356442E-04 -1.64352474514E-02 +2.61482278672E-04 +1.46061761267E-01 -2.76580084980E-02
1.52500000000E+09 +1.60124093430E-01 -8.44869011840E-02 -1.56575401538E-02 +7.04989628484E-03 -1.58188039658E-02 +7.04681809799E-03 +5.25059841123E-02 -9.60665601107E-02
1.53000000000E+09 +6.19571093103E-02 -1.31786840425E-01 -1.15522609561E-02 +1.05612533706E-02 -1.16288426651E-02 +1.05801667279E-02 -5.46757998946E-02 -1.40467543357E-01
1.53500000000E+09 -4.46534250268E-02 -1.55319927362E-01 -8.32301163600E-03 +1.29628779369E-02 -8.32491134254E-03 +1.29923203267E-02 -1.64673876745E-01 -1.60385864436E-01
1.54000000000E+09 -1.52965697628E-01 -1.53098292482E-01 -4.26734247920E-03 +1.38711232921E-02 -4.32714111496E-03 +1.37007223135E-02 -2.72164326099E-01 -1.57846773254E-01
1.54500000000E+09 -2.54429140356E-01 -1.28705888983E-01 -3.47145369481E-04 +1.39526830374E-02 -6.10321340309E-04 +1.37394444546E-02 -3.70155338668E-01 -1.36109505594E-01
1.55000000000E+09 -3.46368336568E-01 -8.75809371852E-02 +2.64260827018E-03 +1.27619314616E-02 +2.13630322545E-03 +1.28142524438E-02 -4.55969089768E-01 -9.95819291375E-02
1.55500000000E+09 -4.24961412211E-01 -3.34980601773E-02 +6.10343179592E-03 +1.09682835039E-02 +5.68891738766E-03 +1.14955336042E-02 -5.26847996559E-01 -5.28562609931E-02
1.56000000000E+09 -4.87819942486E-01 +2.48246140044E-02 +7.67251620174E-03 +7.59969468864E-03 +7.79228713892E-03 +8.23472486909E-03 -5.84681362590E-01 -4.87803051497E-04
1.56500000000E+09 -5.37718943522E-01 +8.45364518004E-02 +7.77935723894E-03 +5.61069797496E-03 +8.08096016727E-03 +6.05689540963E-03 -6.28975062249E-01 +5.53361695131E-02
1.57000000000E+09 -5.75928697888E-01 +1.42624004450E-01 +8.02377951517E-03 +3.51848242987E-03 +8.51283803520E-03 +3.69785405392E-03 -6.62644098952E-01 +1.08888354111E-01
