# Hz S RI R 50
! CMT, C1220, 16058040, 17.2.0/1
! Date: 14/08/2018 12:49:51
! Data: Format (Calibration Info)
! Freq                      S11: Re/Im (F2)                       S21: Re/Im (F2)                       S12: Re/Im (F2)                       S22: Re/Im (F2)            
1.00000000000E+09 -6.50913549241E-01 +7.13560008116E-01 +1.44440349757E-06 +5.65283701341E-05 +1.53186093827E-06 -2.03884150938E-05 -7.53737354450E-01 +6.21522327295E-01
1.00500000000E+09 -6.43868517607E-01 +7.18357805230E-01 -4.48729097085E-05 +3.57363274508E-05 -1.96179778424E-05 -5.11633306478E-05 -7.50238092438E-01 +6.25617328497E-01
1.01000000000E+09 -6.38111330323E-01 +7.22847932673E-01 -2.13279740358E-05 -4.39094898998E-06 -3.99844535973E-05 +5.19002929109E-05 -7.46667346823E-01 +6.29247289422E-01
1.01500000000E+09 -6.33447809331E-01 +7.26776398383E-01 +6.11844137623E-05 -6.29030946735E-05 -3.41348420748E-05 -1.81531491258E-06 -7.43565829843E-01 +6.32916863175E-01
1.02000000000E+09 -6.30682393714E-01 +7.30161002600E-01 +7.07960819494E-06 -1.38299336488E-05 -3.10778076011E-05 -3.34685163634E-05 -7.40273884927E-01 +6.36275446293E-01
1.02500000000E+09 -6.28579106993E-01 +7.32847386470E-01 +1.20475998043E-05 +5.05717233311E-05 -2.34563707677E-05 -2.52793967064E-05 -7.37547977627E-01 +6.39939688182E-01
1.03000000000E+09 -6.27319754989E-01 +7.35446008501E-01 -7.65907843027E-06 -4.02585200122E-07 -1.91446169294E-05 -6.20255311374E-06 -7.33950787445E-01 +6.43834549076E-01
1.03500000000E+09 -6.25003457483E-01 +7.37883838180E-01 +2.38865100534E-05 +1.24968440637E-05 +4.84621704635E-05 +1.71501387494E-05 -7.30222723360E-01 +6.47867268067E-01
1.04000000000E+09 -6.21940429760E-01 +7.40899977686E-01 +3.79641491152E-05 +1.03615550591E-05 -3.35909170398E-05 +1.49880688852E-05 -7.26366580268E-01 +6.51380683714E-01
1.04500000000E+09 -6.16965881594E-01 +7.44384296061E-01 +8.89832431715E-06 -2.21571672695E-05 -2.23484510221E-05 +4.34787715642E-05 -7.22838386892E-01 +6.55095607941E-01
1.05000000000E+09 -6.10338005961E-01 +7.48591165378E-01 +4.90885239935E-05 -1.77108618768E-05 +1.74573887255E-05 +3.56638624322E-05 -7.19339892382E-01 +6.58423706772E-01
1.05500000000E+09 -6.02429498259E-01 +7.53112686855E-01 +2.60103613095E-06 +2.71152364126E-05 -6.16818982247E-06 +3.24871829560E-05 -7.16216032453E-01 +6.62069843133E-01
1.06000000000E+09 -5.93802586167E-01 +7.58215489533E-01 -4.96113839734E-05 +2.59646471176E-05 +2.56071141515E-05 -2.70824059146E-05 -7.12855253180E-01 +6.65847597840E-01
1.06500000000E+09 -5.85571507701E-01 +7.63218810543E-01 +1.17441568987E-06 +1.23438499394E-05 +9.86564430812E-06 +3.70453102355E-05 -7.09135796920E-01 +6.69738328843E-01
1.07000000000E+09 -5.78190512473E-01 +7.67680139533E-01 -3.20998836363E-05 +3.81504109806E-05 -2.31823806170E-05 -1.19073830901E-05 -7.05016833223E-01 +6.73307283633E-01
1.07500000000E+09 -5.72184760377E-01 +7.71568614168E-01 +1.00806751760E-05 +4.25666166717E-05 -3.92203532973E-06 +5.53681702953E-05 -7.00696282411E-01 +6.77099823302E-01
1.08000000000E+09 -5.68111313774E-01 +7.74793481728E-01 +1.75264538712E-05 +3.82993554965E-05 +2.51797174051E-05 -5.86798946154E-06 -6.96905812570E-01 +6.80785219228E-01
1.08500000000E+09 -5.65198856303E-01 +7.77165744781E-01 -2.86635496237E-05 +7.05308927436E-05 +6.38565402388E-06 +3.72358239116E-05 -6.93080554327E-01 +6.84599411645E-01
1.09000000000E+09 -5.63273921388E-01 +7.79247954188E-01 +4.35165695576E-05 +1.40167739221E-05 +1.96513477394E-05 -9.12389562769E-06 -6.89440838026E-01 +6.88371680615E-01
1.09500000000E+09 -5.61706158249E-01 +7.81105362642E-01 +5.60000449887E-06 +4.27753681469E-05 +1.51275330338E-05 +5.72078732416E-05 -6.85627897017E-01 +6.92130661427E-01
1.10000000000E+09 -5.59080269408E-01 +7.83096436160E-01 +4.77909829872E-05 +3.71949283997E-05 +3.38595752762E-05 +4.03127388714E-05 -6.81591937316E-01 +6.95915029473E-01
1.10500000000E+09 -5.55284668145E-01 +7.85669264447E-01 -1.16494818683E-05 +5.85399476158E-05 +3.27404241809E-05 +2.52254518746E-05 -6.77401275051E-01 +6.99393973433E-01
1.11000000000E+09 -5.50183380525E-01 +7.88872338845E-01 +5.01855775277E-05 +6.72966629869E-05 +5.47230813397E-05 +3.79357134258E-05 -6.73302749853E-01 +7.02760184484E-01
1.11500000000E+09 -5.43362590015E-01 +7.92683068902E-01 +5.07631949995E-05 +3.25934216367E-05 +2.47162211996E-05 +6.41485231172E-05 -6.69351620138E-01 +7.06121485295E-01
1.12000000000E+09 -5.35858276818E-01 +7.96485251294E-01 +4.35569555890E-05 +2.05094812659E-05 +6.21252185480E-05 +5.75646711457E-06 -6.65390989290E-01 +7.09720712251E-01
1.12500000000E+09 -5.27812815601E-01 +8.00571424741E-01 +4.04069687611E-05 +1.30114282248E-05 +7.37189859229E-05 +6.42780091968E-05 -6.61020476185E-01 +7.13691868565E-01
1.13000000000E+09 -5.20580710385E-01 +8.04354992088E-01 +2.21791807850E-05 +2.52585568628E-05 +5.18938770011E-05 +1.05661269749E-06 -6.56777001300E-01 +7.17586032857E-01
1.13500000000E+09 -5.13726867365E-01 +8.07073931564E-01 +3.14840125741E-05 +2.07918206974E-05 +6.25336073583E-05 +5.76909022849E-05 -6.52231642195E-01 +7.21505298500E-01
1.14000000000E+09 -5.08370119602E-01 +8.09646346459E-01 +9.51536065785E-05 +3.43423410450E-05 +7.72479101029E-05 +5.68977270161E-05 -6.47214925912E-01 +7.24875059085E-01
1.14500000000E+09 -5.04033017243E-01 +8.11408367785E-01 +7.04268745898E-05 +1.88588526698E-05 +1.24831556938E-04 -5.25388234038E-06 -6.42771837238E-01 +7.28356150141E-01
1.15000000000E+09 -5.00087223564E-01 +8.13128551519E-01 +6.27757120155E-05 +3.52364520971E-05 +4.34499655296E-05 +1.14868480637E-05 -6.38145170560E-01 +7.32117337485E-01
1.15500000000E+09 -4.96586651284E-01 +8.14965545360E-01 +8.23054182365E-05 +1.50576114934E-05 +3.88346951990E-05 +4.24118015402E-05 -6.33432859652E-01 +7.35979891879E-01
1.16000000000E+09 -4.92268483061E-01 +8.16989480566E-01 +8.29010989468E-05 -8.30528186241E-06 +5.84079750953E-05 -2.76886199188E-06 -6.28585902519E-01 +7.39853081531E-01
1.16500000000E+09 -4.87041595771E-01 +8.19894051556E-01 +1.13184309985E-04 -3.57085550026E-05 +1.40909310430E-04 +3.13999316110E-05 -6.23585411535E-01 +7.43492096918E-01
1.17000000000E+09 -4.80797083926E-01 +8.23075918933E-01 +6.26584874493E-05 +7.05733755880E-06 +1.00418313308E-04 +2.17940999600E-05 -6.18197973645E-01 +7.46792954812E-01
1.17500000000E+09 -4.73489024719E-01 +8.26601133352E-01 +1.12247533701E-04 -6.35291266953E-05 +1.45580970491E-04 -6.69792778087E-05 -6.12674597130E-01 +7.50029117685E-01
1.18000000000E+09 -4.65919873959E-01 +8.30409530002E-01 +1.08703199231E-04 -8.16890148608E-05 +1.23801966690E-04 -8.86326807034E-05 -6.07249400073E-01 +7.53160889011E-01
1.18500000000E+09 -4.58084889249E-01 +8.33718152833E-01 +1.08046319416E-04 -1.25095505071E-04 +1.66948266458E-04 -6.29033198702E-05 -6.01453562071E-01 +7.56115316741E-01
1.19000000000E+09 -4.50770409896E-01 +8.36445370929E-01 +1.52262702607E-04 -1.38890150643E-04 +1.65055282145E-04 -1.78554036379E-04 -5.95503174586E-01 +7.58666934204E-01
1.19500000000E+09 -4.44371541184E-01 +8.38586672182E-01 +1.23200139198E-04 -2.07445600992E-04 +1.14191569129E-04 -2.28512014122E-04 -5.89588018661E-01 +7.59946022716E-01
1.20000000000E+09 -4.38925188449E-01 +8.39484753421E-01 +7.34382898109E-06 -2.53980666693E-04 -3.67564489285E-06 -2.61224252539E-04 -5.84935638466E-01 +7.60196696231E-01
1.20500000000E+09 -4.34082603152E-01 +8.40723219172E-01 -9.24956259909E-05 -2.21666517663E-04 -9.21418274498E-05 -1.98517042829E-04 -5.82436200188E-01 +7.61090465379E-01
1.21000000000E+09 -4.29322474938E-01 +8.42351501785E-01 -5.91695772605E-05 -1.21519039394E-04 -5.58345343310E-05 -1.05384105756E-04 -5.80631059094E-01 +7.64108627212E-01
1.21500000000E+09 -4.23534223520E-01 +8.44251867650E-01 -4.69832384282E-05 -1.08742921970E-04 -1.09784807723E-05 -1.24859194634E-04 -5.78001017044E-01 +7.68783732735E-01
1.22000000000E+09 -4.16354657342E-01 +8.46826496067E-01 -4.00743476958E-05 -1.20839034143E-04 -3.58402329915E-06 -1.37875627546E-04 -5.73797250658E-01 +7.74051653094E-01
1.22500000000E+09 -4.08287288389E-01 +8.49778186483E-01 +1.93599264078E-05 -1.23809083033E-04 +2.50067211981E-05 -1.47308354666E-04 -5.68767119291E-01 +7.79264831976E-01
1.23000000000E+09 -3.99133935830E-01 +8.53363790822E-01 +3.50461300702E-06 -1.39754782379E-04 -4.03553203386E-05 -1.92850623512E-04 -5.63021505644E-01 +7.83832488682E-01
1.23500000000E+09 -3.89824147547E-01 +8.57164156007E-01 -3.69214651093E-05 -1.75909993851E-04 -4.06939240061E-05 -1.56676015178E-04 -5.57196953425E-01 +7.88272728583E-01
1.24000000000E+09 -3.80289687886E-01 +8.61068752578E-01 -3.27730101549E-05 -1.93025831911E-04 -2.86838718694E-05 -1.53706342240E-04 -5.51285497152E-01 +7.92159591763E-01
1.24500000000E+09 -3.71614174244E-01 +8.65050835390E-01 -7.69945825628E-05 -1.50001826225E-04 -5.35622050165E-05 -1.77371745173E-04 -5.45052931083E-01 +7.95963386026E-01
1.25000000000E+09 -3.63613956119E-01 +8.67962506348E-01 -1.14022054242E-04 -1.46930697953E-04 -1.08762724307E-04 -1.71095678251E-04 -5.38790007810E-01 +8.00211518069E-01
1.25500000000E+09 -3.56580486401E-01 +8.70114291930E-01 -1.08190393444E-04 -1.67374301729E-04 -1.15949591187E-04 -1.41273851310E-04 -5.32001127883E-01 +8.04232550046E-01
1.26000000000E+09 -3.50352857303E-01 +8.71545066097E-01 -7.36494203068E-05 -2.01184663991E-04 -6.91826435994E-05 -2.13169592899E-04 -5.25443429212E-01 +8.08429732346E-01
1.26500000000E+09 -3.44462939683E-01 +8.72489068848E-01 -1.27815843109E-04 -2.06626185717E-04 -1.76693954825E-04 -1.77731620220E-04 -5.18250340522E-01 +8.12202197630E-01
1.27000000000E+09 -3.38016929025E-01 +8.73642301436E-01 -2.03004347395E-04 -2.10950821776E-04 -1.84118354766E-04 -2.18084328157E-04 -5.11544032653E-01 +8.16061006835E-01
1.27500000000E+09 -3.30524590693E-01 +8.74988096309E-01 -2.60646909309E-04 -1.88373268875E-04 -2.55360474475E-04 -1.89817272333E-04 -5.04311693411E-01 +8.19768010549E-01
1.28000000000E+09 -3.21344247842E-01 +8.76905166095E-01 -3.00831628579E-04 -1.22420816076E-04 -2.84132951331E-04 -1.38149200577E-04 -4.97395258153E-01 +8.23286803975E-01
1.28500000000E+09 -3.10395942313E-01 +8.79555279961E-01 -2.78376361033E-04 -1.72145149431E-04 -2.94340660044E-04 -1.33919871219E-04 -4.89973057506E-01 +8.27175756714E-01
1.29000000000E+09 -2.98595110499E-01 +8.82514217951E-01 -2.96475564188E-04 -1.21551209158E-04 -3.73645676077E-04 -8.98184649667E-05 -4.82253350475E-01 +8.30980141157E-01
1.29500000000E+09 -2.86323759641E-01 +8.85933993737E-01 -3.47704230494E-04 -9.46098407490E-05 -3.94740310193E-04 -9.73328426500E-05 -4.74365691894E-01 +8.34441006386E-01
1.30000000000E+09 -2.74433174638E-01 +8.89743882106E-01 -3.83873286384E-04 -7.45747341850E-05 -3.91169871689E-04 -4.74189661284E-05 -4.66532837541E-01 +8.38186891882E-01
1.30500000000E+09 -2.63609481829E-01 +8.92691528573E-01 -4.50420647016E-04 -1.90646411740E-05 -4.21499502472E-04 +4.81200970807E-05 -4.58368797907E-01 +8.41574843834E-01
1.31000000000E+09 -2.54364051778E-01 +8.94900840460E-01 -5.02683623808E-04 +4.64403623755E-05 -4.86838050593E-04 +5.80571423880E-05 -4.50057309227E-01 +8.45207567808E-01
1.31500000000E+09 -2.46883436579E-01 +8.96233924000E-01 -4.61910431514E-04 +1.57406780456E-04 -4.47388287026E-04 +8.83015718066E-05 -4.41353044275E-01 +8.48475382724E-01
1.32000000000E+09 -2.40647226750E-01 +8.96876680021E-01 -4.05899479155E-04 +1.58988879252E-04 -4.55200851223E-04 +1.38367012542E-04 -4.32352412445E-01 +8.51919866872E-01
1.32500000000E+09 -2.34724403746E-01 +8.97028439738E-01 -4.58469050173E-04 +1.59038089124E-04 -5.28490702622E-04 +1.92030672272E-04 -4.23023769900E-01 +8.55314337888E-01
1.33000000000E+09 -2.27801392726E-01 +8.96971115174E-01 -5.21087887426E-04 +2.25013002616E-04 -5.68250579837E-04 +3.05907297285E-04 -4.13429024731E-01 +8.58517281268E-01
1.33500000000E+09 -2.19078005834E-01 +8.96975488642E-01 -5.31910286563E-04 +3.71225086854E-04 -5.10065211641E-04 +3.92848148087E-04 -4.03623749822E-01 +8.61729107636E-01
1.34000000000E+09 -2.07818978413E-01 +8.97293114590E-01 -5.59947249841E-04 +4.65514054951E-04 -5.14334617279E-04 +5.04773836597E-04 -3.93504142585E-01 +8.65015088254E-01
1.34500000000E+09 -1.94262245195E-01 +8.97856084452E-01 -4.65526853588E-04 +5.71803381616E-04 -4.48967005134E-04 +6.10605246328E-04 -3.82520046304E-01 +8.68286756684E-01
1.35000000000E+09 -1.78606381420E-01 +8.98710761379E-01 -3.69880237011E-04 +6.51863073418E-04 -4.16071042830E-04 +6.45218940035E-04 -3.71544900208E-01 +8.71311027828E-01
1.35500000000E+09 -1.61825763703E-01 +8.99689227573E-01 -3.75115887266E-04 +7.12363340889E-04 -3.70473415997E-04 +7.28813890491E-04 -3.59882295498E-01 +8.74230863566E-01
1.36000000000E+09 -1.45198854606E-01 +9.00485701970E-01 -3.16354167625E-04 +8.28640382017E-04 -2.63334131326E-04 +7.64028367861E-04 -3.48032909535E-01 +8.76910004932E-01
1.36500000000E+09 -1.29205397369E-01 +9.00983754555E-01 -2.29124251181E-04 +8.53361641064E-04 -2.31640518103E-04 +7.99507304265E-04 -3.35803422740E-01 +8.79431127523E-01
1.37000000000E+09 -1.14952287627E-01 +9.00687819669E-01 -1.21212522183E-04 +9.68032549674E-04 -2.14303744446E-04 +8.95300228129E-04 -3.23110131733E-01 +8.81975255702E-01
1.37500000000E+09 -1.02592168378E-01 +9.00066048338E-01 +1.07026249339E-05 +1.04548872232E-03 -1.05158449656E-04 +9.79989399719E-04 -3.09219607366E-01 +8.84319311278E-01
1.38000000000E+09 -9.13975854927E-02 +8.99089209956E-01 +8.86358129112E-05 +1.05127201010E-03 -2.37169536560E-05 +1.05876172032E-03 -2.94555303695E-01 +8.86422013664E-01
1.38500000000E+09 -7.97144816280E-02 +8.97462208535E-01 +2.11632965115E-04 +1.11428501171E-03 +1.18346415378E-04 +1.24830277825E-03 -2.79021297932E-01 +8.88432182244E-01
1.39000000000E+09 -6.73548995208E-02 +8.95235412910E-01 +3.23717053516E-04 +1.18227649389E-03 +3.73658767122E-04 +1.40130831134E-03 -2.63163581002E-01 +8.89729288947E-01
1.39500000000E+09 -5.27400150954E-02 +8.92427665776E-01 +4.99454084170E-04 +1.26395384914E-03 +6.61535681626E-04 +1.30828808851E-03 -2.46758647952E-01 +8.90515683563E-01
1.40000000000E+09 -3.56759568969E-02 +8.88563710212E-01 +6.51656488679E-04 +1.32721137568E-03 +7.96674566865E-04 +1.26831803651E-03 -2.29324938036E-01 +8.91018495331E-01
1.40500000000E+09 -1.65288077845E-02 +8.84332928864E-01 +9.37332289293E-04 +1.35699235533E-03 +1.01584191277E-03 +1.26847953536E-03 -2.10913324674E-01 +8.90874449824E-01
1.41000000000E+09 +4.84618657224E-03 +8.79300170694E-01 +1.24535786638E-03 +1.30932083598E-03 +1.19275666375E-03 +1.28103613953E-03 -1.90734193509E-01 +8.90228120792E-01
1.41500000000E+09 +2.71076461859E-02 +8.73449024789E-01 +1.45956192203E-03 +1.19071272783E-03 +1.46692830143E-03 +1.34100101334E-03 -1.69208262481E-01 +8.88829757519E-01
1.42000000000E+09 +4.98633995134E-02 +8.66713694914E-01 +1.74599097086E-03 +1.09879361378E-03 +1.86957923338E-03 +1.25579628239E-03 -1.46271832229E-01 +8.86165117270E-01
1.42500000000E+09 +7.18439309967E-02 +8.58815451323E-01 +1.95943849915E-03 +1.02290736544E-03 +2.23145165043E-03 +1.05611558139E-03 -1.22739336733E-01 +8.82353543920E-01
1.43000000000E+09 +9.30103396251E-02 +8.49652422508E-01 +2.40090268368E-03 +9.44363042422E-04 +2.66708443574E-03 +8.12681620434E-04 -9.83492366042E-02 +8.77774127358E-01
1.43500000000E+09 +1.13766741043E-01 +8.39013888260E-01 +2.96225961193E-03 +4.67249646516E-04 +3.09447855134E-03 +1.80979396668E-04 -7.20206512358E-02 +8.71169966914E-01
1.44000000000E+09 +1.34917317880E-01 +8.27030397782E-01 +3.21330471251E-03 -1.94392302792E-04 +3.21179334996E-03 -4.28391731969E-04 -4.40878103840E-02 +8.62784737948E-01
1.44500000000E+09 +1.58168434228E-01 +8.12024430007E-01 +3.17818177786E-03 -7.17103934964E-04 +3.17795090498E-03 -9.05772987491E-04 -1.39723192330E-02 +8.51508258754E-01
1.45000000000E+09 +1.83205864989E-01 +7.93561829330E-01 +3.08815214210E-03 -1.13638875243E-03 +3.11120857307E-03 -1.37429538790E-03 +1.74811484620E-02 +8.37180768592E-01
1.45500000000E+09 +2.10487542481E-01 +7.71717154562E-01 +3.28251121303E-03 -1.35298247424E-03 +3.15397241383E-03 -1.67254293944E-03 +5.08986659193E-02 +8.20130524643E-01
1.46000000000E+09 +2.40214231684E-01 +7.45531820383E-01 +3.67746766082E-03 -2.00855280844E-03 +3.33864986396E-03 -2.29337570723E-03 +8.55083895315E-02 +7.98442528385E-01
1.46500000000E+09 +2.71580073156E-01 +7.14596847398E-01 +3.95374423420E-03 -2.99785790076E-03 +3.52284666295E-03 -2.98854870391E-03 +1.21263651929E-01 +7.72258021678E-01
1.47000000000E+09 +3.03399851015E-01 +6.78865635329E-01 +3.87094351716E-03 -4.47347579948E-03 +3.51243617755E-03 -4.16697954521E-03 +1.58033048317E-01 +7.38883600780E-01
1.47500000000E+09 +3.34100060042E-01 +6.37645821663E-01 +2.81198628320E-03 -5.91033231326E-03 +2.93674348474E-03 -5.57230247227E-03 +1.94756411617E-01 +6.98697443605E-01
1.48000000000E+09 +3.62195047333E-01 +5.90303535058E-01 +1.66724588974E-03 -6.81227935795E-03 +1.91437350620E-03 -6.79309760762E-03 +2.31298779628E-01 +6.49886299646E-01
1.48500000000E+09 +3.85218121441E-01 +5.35822593546E-01 +3.82302133328E-04 -7.65500291036E-03 +3.34341688390E-04 -7.85058661459E-03 +2.65091979960E-01 +5.92259638299E-01
1.49000000000E+09 +4.02843908517E-01 +4.74213755802E-01 -1.18080183844E-03 -8.41275144405E-03 -1.60626399219E-03 -8.33063761352E-03 +2.94304279120E-01 +5.23742196353E-01
1.49500000000E+09 +4.12093508138E-01 +4.04005478896E-01 -3.53771553802E-03 -8.74073190380E-03 -3.72002768917E-03 -8.23390648853E-03 +3.13210587247E-01 +4.45381657151E-01
1.50000000000E+09 +4.11659652756E-01 +3.24910963038E-01 -6.15804765465E-03 -8.63364833956E-03 -5.73694352023E-03 -8.14288354050E-03 +3.19976466864E-01 +3.57849092457E-01
1.50500000000E+09 +3.97281827262E-01 +2.37449864770E-01 -8.88186244139E-03 -7.33142722703E-03 -8.30143067818E-03 -7.24581881161E-03 +3.11591941514E-01 +2.61886728267E-01
1.51000000000E+09 +3.66616186694E-01 +1.45896257623E-01 -1.12190819590E-02 -4.46998297129E-03 -1.08885252924E-02 -4.82982794104E-03 +2.81711248306E-01 +1.59722329420E-01
1.51500000000E+09 +3.16519660144E-01 +5.37465753760E-02 -1.23412836363E-02 -1.96670462260E-03 -1.23633835386E-02 -2.28036754405E-03 +2.27768659526E-01 +6.30758091164E-02
1.52000000000E+09 +2.45550228775E-01 -2.90144933963E-02 -1.37599145231E-02 +1.40003276219E-03 -1.38450145047E-02 +1.28565717638E-03 +1.54426682095E-01 -2.40564242288E-02
1.52500000000E+09 +1.57239468059E-01 -9.64201369755E-02 -1.29303096354E-02 +6.79362830376E-03 -1.30308485814E-02 +6.75102978274E-03 +6.13125877612E-02 -9.49053311475E-02
1.53000000000E+09 +5.62280361961E-02 -1.42042964057E-01 -8.89997968105E-03 +9.65996842375E-03 -9.00275722332E-03 +9.69279761090E-03 -4.53047440342E-02 -1.42033377332E-01
1.53500000000E+09 -5.22186508064E-02 -1.64353170142E-01 -6.25214059717E-03 +1.10651471681E-02 -6.27900516557E-03 +1.10858565652E-02 -1.56763428237E-01 -1.65023923177E-01
1.54000000000E+09 -1.63535964116E-01 -1.59744461864E-01 -2.94754613937E-03 +1.14563372046E-02 -2.98862420051E-03 +1.13278589571E-02 -2.66360813241E-01 -1.63876772947E-01
1.54500000000E+09 -2.65766015172E-01 -1.31796857702E-01 -7.33967831864E-06 +1.15191958224E-02 -2.33333589716E-04 +1.13236479821E-02 -3.66411642957E-01 -1.43369037332E-01
1.55000000000E+09 -3.57745273633E-01 -8.77463228907E-02 +2.42250181708E-03 +1.05946593174E-02 +1.96659136460E-03 +1.07272153876E-02 -4.54628042751E-01 -1.06897678470E-01
1.55500000000E+09 -4.35027323441E-01 -3.12183284880E-02 +5.31853753236E-03 +9.27846072668E-03 +5.02184649914E-03 +9.75597136077E-03 -5.27422106699E-01 -5.94104022544E-02
1.56000000000E+09 -4.96184491693E-01 +2.89230902761E-02 +6.96249192630E-03 +6.17042931576E-03 +7.03948175381E-03 +6.68846218908E-03 -5.86398134240E-01 -5.93828766712E-03
1.56500000000E+09 -5.44441298398E-01 +8.94664232946E-02 +6.57047012472E-03 +4.12588733062E-03 +6.91942009566E-03 +4.50896176838E-03 -6.31528828458E-01 +5.07223799736E-02
1.57000000000E+09 -5.80625309413E-01 +1.47726739932E-01 +6.49916943716E-03 +2.75387960105E-03 +7.00016673546E-03 +2.86653938377E-03 -6.65704439360E-01 +1.05457316803E-01
