# Hz S RI R 50
! CMT, C1220, 16058040, 17.2.0/1
! Date: 14/08/2018 12:46:48
! Data: Format (Calibration Info)
! Freq                      S11: Re/Im (F2)                       S21: Re/Im (F2)                       S12: Re/Im (F2)                       S22: Re/Im (F2)            
1.00000000000E+09 -6.51194576360E-01 +7.13263146686E-01 +4.48816442842E-05 +1.31033240967E-05 +1.04591442249E-05 -1.95199586336E-06 -7.53676807384E-01 +6.21392154878E-01
1.00500000000E+09 -6.44104292633E-01 +7.18336107593E-01 -3.17910010191E-05 -1.57898012443E-05 +2.70946649006E-05 -9.58092074047E-06 -7.50169789186E-01 +6.25556610232E-01
1.01000000000E+09 -6.38043311520E-01 +7.22933978060E-01 -2.37033090958E-06 -4.56128308984E-06 -4.95695875551E-05 -1.94624551464E-05 -7.46855614962E-01 +6.29133682324E-01
1.01500000000E+09 -6.33664033974E-01 +7.26814337039E-01 -3.52666458184E-05 +8.53740258375E-06 -5.50362030635E-06 +3.80391593198E-05 -7.43672203178E-01 +6.32661744754E-01
1.02000000000E+09 -6.30618281211E-01 +7.30256648097E-01 -4.17647528432E-05 +5.58118472645E-05 -1.24943050906E-05 -4.10721793702E-08 -7.40325126572E-01 +6.36273707530E-01
1.02500000000E+09 -6.28605540544E-01 +7.33096039641E-01 +4.88359787944E-06 +8.00149711851E-06 -5.81826818213E-06 +1.84444461077E-05 -7.37629800418E-01 +6.39712105797E-01
1.03000000000E+09 -6.27151401231E-01 +7.35632640805E-01 +5.48248736703E-05 +1.98049185582E-05 -7.80637599618E-05 +3.17376406624E-05 -7.34038011916E-01 +6.43589570320E-01
1.03500000000E+09 -6.24994172032E-01 +7.38155217341E-01 +3.36241966964E-06 -1.74406230685E-05 -7.42631002631E-06 -4.85877503204E-06 -7.30213891818E-01 +6.47683026610E-01
1.04000000000E+09 -6.21552602409E-01 +7.41032359768E-01 -1.04000646873E-05 -6.83299966700E-07 +1.20438527574E-05 +2.30357266260E-05 -7.26541614338E-01 +6.51273763004E-01
1.04500000000E+09 -6.16786584480E-01 +7.44593501475E-01 -3.54026609063E-06 -1.04819604026E-05 +2.93995160057E-05 -2.33485123960E-05 -7.22976875194E-01 +6.54600423831E-01
1.05000000000E+09 -6.10161039118E-01 +7.48640174538E-01 -1.36921563454E-05 +9.10508697902E-06 +1.51414341951E-05 +3.04795174294E-05 -7.19684768613E-01 +6.58245888039E-01
1.05500000000E+09 -6.02156434074E-01 +7.53325375418E-01 -5.79055527156E-05 +2.60423530793E-05 +1.14127381785E-05 +1.47556174764E-05 -7.16254337551E-01 +6.61817041429E-01
1.06000000000E+09 -5.93761077568E-01 +7.58309741718E-01 -5.25781251068E-05 +2.84439622970E-05 -2.39977880236E-05 +5.49856901498E-06 -7.13083719556E-01 +6.65727575133E-01
1.06500000000E+09 -5.85362627621E-01 +7.63395531576E-01 -4.97258399990E-06 +4.35075809358E-05 -4.12264867192E-05 +2.40629980944E-05 -7.09206666082E-01 +6.69546653905E-01
1.07000000000E+09 -5.78008156401E-01 +7.67716633083E-01 +8.57905960044E-06 +4.74433711494E-05 -2.63260148820E-05 +6.37561224024E-05 -7.05122227362E-01 +6.73194701580E-01
1.07500000000E+09 -5.72084112805E-01 +7.71636718432E-01 +5.24459324952E-06 +2.34195031217E-06 -1.35900677263E-05 +6.38281108860E-05 -7.00819644987E-01 +6.76996474394E-01
1.08000000000E+09 -5.68031232327E-01 +7.75021021930E-01 +8.33578885787E-07 +1.58747326653E-05 +2.40855011165E-05 +9.87662660132E-05 -6.97133158690E-01 +6.80745318194E-01
1.08500000000E+09 -5.65358884023E-01 +7.77444293852E-01 -1.79751736429E-06 +4.89622089544E-05 +4.82327279219E-05 +3.81469263955E-05 -6.93334798825E-01 +6.84342539904E-01
1.09000000000E+09 -5.63238034344E-01 +7.79666449161E-01 -7.41064904356E-06 +1.51971484022E-06 -1.55512424895E-05 +2.23269147559E-05 -6.89639317065E-01 +6.88206751914E-01
1.09500000000E+09 -5.61856279742E-01 +7.81507203995E-01 +2.12815289425E-05 +1.38697828747E-05 +4.19997998730E-05 +5.92742814518E-05 -6.85845086543E-01 +6.92015133113E-01
1.10000000000E+09 -5.59011782321E-01 +7.83508011422E-01 +5.08215591170E-05 +1.51386195206E-05 -6.24108700749E-06 +4.57282363406E-05 -6.81877101910E-01 +6.95773980457E-01
1.10500000000E+09 -5.55345502731E-01 +7.85943121165E-01 +1.44139679260E-05 +3.55256208340E-06 -3.50239729289E-09 +7.42231424146E-05 -6.77635414514E-01 +6.99247747691E-01
1.11000000000E+09 -5.49907558349E-01 +7.89220045612E-01 +5.83036189913E-05 +3.36890520170E-05 +5.79671926448E-05 +5.38428891715E-05 -6.73491076425E-01 +7.02686815629E-01
1.11500000000E+09 -5.43121125430E-01 +7.93059866948E-01 +3.40535116499E-05 +1.73273235570E-05 +2.36185302430E-05 +3.01587321753E-05 -6.69523099103E-01 +7.06060433704E-01
1.12000000000E+09 -5.35551704621E-01 +7.97086707097E-01 +1.91967338026E-05 +2.84804552379E-05 +3.66261010094E-05 +8.64058116719E-06 -6.65581861317E-01 +7.09516494323E-01
1.12500000000E+09 -5.27699658651E-01 +8.01132016045E-01 +9.65192384577E-06 +4.80054664715E-05 +7.48951810467E-05 +1.10116015631E-05 -6.61256455492E-01 +7.13544805583E-01
1.13000000000E+09 -5.20202377554E-01 +8.04700075428E-01 +2.85836034888E-05 +4.17748066690E-05 +4.48901140424E-05 +3.89017840267E-05 -6.56854750927E-01 +7.17475940806E-01
1.13500000000E+09 -5.13654108912E-01 +8.07654953540E-01 +7.36678590122E-05 +2.97420207010E-05 +3.22909694058E-05 +1.22986963078E-05 -6.52329327906E-01 +7.21177781929E-01
1.14000000000E+09 -5.08171589105E-01 +8.10242055145E-01 +8.10515515487E-05 -8.43715377644E-07 +5.52478665065E-05 +1.42639173981E-05 -6.47400286124E-01 +7.24788409631E-01
1.14500000000E+09 -5.03997001910E-01 +8.12045798744E-01 +9.62473542713E-05 -3.78534677510E-06 +9.31639157734E-05 +3.09867650498E-06 -6.42902425651E-01 +7.28199318340E-01
1.15000000000E+09 -5.00297489622E-01 +8.13717796476E-01 +6.71630813563E-05 -1.66694842694E-05 +8.17303969558E-05 +2.83887622551E-06 -6.38300651096E-01 +7.32015659717E-01
1.15500000000E+09 -4.96706999040E-01 +8.15722538993E-01 +3.18551182964E-05 -1.12971607171E-05 +7.49082709556E-05 -1.83472200869E-05 -6.33547698042E-01 +7.35771140645E-01
1.16000000000E+09 -4.92294553358E-01 +8.17765847834E-01 +6.11874557925E-05 -7.22232213549E-06 +4.55041373906E-05 +1.63419220518E-05 -6.28723465333E-01 +7.39702265725E-01
1.16500000000E+09 -4.87171373825E-01 +8.20614355421E-01 +1.15384954875E-04 +1.77266632354E-05 +7.43965004186E-05 +1.67501182059E-05 -6.23864574843E-01 +7.43221757103E-01
1.17000000000E+09 -4.80840377333E-01 +8.23849446324E-01 +6.79388368941E-05 -2.85754369884E-05 +1.28611975407E-04 -2.14454232051E-05 -6.18383267872E-01 +7.46689257189E-01
1.17500000000E+09 -4.73521767391E-01 +8.27270778758E-01 +1.00386668572E-04 -5.83577777362E-06 +1.44073019460E-04 -7.09735009430E-05 -6.12711031200E-01 +7.49819017973E-01
1.18000000000E+09 -4.65745641430E-01 +8.30964659709E-01 +1.15500831650E-04 -5.19131500737E-05 +1.51179503083E-04 -3.47429856062E-05 -6.07505906182E-01 +7.52929198586E-01
1.18500000000E+09 -4.57888822700E-01 +8.34382433364E-01 +1.96052430452E-04 -9.78938450325E-05 +1.38195262078E-04 -9.73392245150E-05 -6.01628157019E-01 +7.55885356996E-01
1.19000000000E+09 -4.50448364836E-01 +8.37103543147E-01 +1.37484257919E-04 -1.06894922358E-04 +1.99858936497E-04 -9.98440603157E-05 -5.95562663057E-01 +7.58324633233E-01
1.19500000000E+09 -4.44050409841E-01 +8.39283227604E-01 +1.50592200995E-04 -1.79981211324E-04 +1.62455537653E-04 -1.83299772584E-04 -5.89780852601E-01 +7.59835287950E-01
1.20000000000E+09 -4.38650208077E-01 +8.40263223237E-01 +3.12444568235E-05 -2.47187632794E-04 -1.26420745215E-05 -2.54151597593E-04 -5.85188482557E-01 +7.59950831413E-01
1.20500000000E+09 -4.33877126308E-01 +8.41595011070E-01 -5.83080402614E-05 -1.84089321806E-04 -7.81543220650E-05 -1.34171228683E-04 -5.82818236323E-01 +7.60889839112E-01
1.21000000000E+09 -4.29102821391E-01 +8.43195670399E-01 -5.83939558556E-05 -8.59851981619E-05 -4.47329164592E-05 -1.64762047493E-04 -5.80653611812E-01 +7.64019084009E-01
1.21500000000E+09 -4.23365086731E-01 +8.45272309861E-01 -2.77214225141E-05 -1.33181667785E-04 -9.49916767717E-06 -8.42880516193E-05 -5.78028909848E-01 +7.68617474290E-01
1.22000000000E+09 -4.16332699764E-01 +8.47626024180E-01 +1.63171925630E-05 -1.19494741045E-04 -9.04663547605E-06 -1.37330234719E-04 -5.73987236057E-01 +7.74043200242E-01
1.22500000000E+09 -4.08071963759E-01 +8.50668789839E-01 -4.38545925121E-06 -1.39188510849E-04 +5.50945602069E-05 -1.13663916667E-04 -5.68795974296E-01 +7.79077449703E-01
1.23000000000E+09 -3.98914682478E-01 +8.54104796335E-01 +4.60882855495E-06 -1.69071590490E-04 -3.34444809155E-05 -1.80815023623E-04 -5.63265238806E-01 +7.83798520685E-01
1.23500000000E+09 -3.89384352178E-01 +8.57970384854E-01 +2.34155970712E-05 -1.52809442768E-04 -2.86402261322E-05 -1.66999694083E-04 -5.57541322685E-01 +7.87990470716E-01
1.24000000000E+09 -3.79870847989E-01 +8.61791980881E-01 -4.64403732951E-05 -2.05704284253E-04 -5.49414144740E-05 -1.64535480545E-04 -5.51500648043E-01 +7.91805243699E-01
1.24500000000E+09 -3.71093556612E-01 +8.65747169568E-01 -1.00847584872E-04 -2.09875805135E-04 -4.33195279463E-05 -1.67953330472E-04 -5.45297884326E-01 +7.95719102935E-01
1.25000000000E+09 -3.63087946185E-01 +8.68787066386E-01 -1.01085781883E-04 -1.35631837962E-04 -5.47299954510E-05 -1.82988111510E-04 -5.38880131947E-01 +8.00033552762E-01
1.25500000000E+09 -3.56050989897E-01 +8.71004058353E-01 -7.42933160944E-05 -1.65940707697E-04 -1.18682286799E-04 -1.73905113040E-04 -5.32214228875E-01 +8.03908412810E-01
1.26000000000E+09 -3.49949638247E-01 +8.72599221715E-01 -1.27284581002E-04 -2.07438704452E-04 -1.10221011123E-04 -2.29573980907E-04 -5.25621301079E-01 +8.08161132988E-01
1.26500000000E+09 -3.44100284217E-01 +8.73582649438E-01 -1.53060114897E-04 -1.94350400391E-04 -1.94118547747E-04 -2.01417560317E-04 -5.18643881646E-01 +8.12008036251E-01
1.27000000000E+09 -3.37636776712E-01 +8.74662510804E-01 -1.77875137217E-04 -2.29504560916E-04 -1.70952799024E-04 -2.23475423785E-04 -5.11752756030E-01 +8.15870017221E-01
1.27500000000E+09 -3.30147193336E-01 +8.76098136905E-01 -2.73853096790E-04 -1.70976984051E-04 -2.15321065164E-04 -1.99187281356E-04 -5.04555499766E-01 +8.19559083434E-01
1.28000000000E+09 -3.20953184171E-01 +8.77918620473E-01 -2.94043459857E-04 -1.36293562384E-04 -2.92079739310E-04 -1.83380347598E-04 -4.97444785801E-01 +8.23280885484E-01
1.28500000000E+09 -3.09809359870E-01 +8.80370659903E-01 -3.26067378285E-04 -1.32698974653E-04 -2.85955623842E-04 -1.43332001440E-04 -4.90145683820E-01 +8.26992544220E-01
1.29000000000E+09 -2.97897216521E-01 +8.83217402906E-01 -3.23938221592E-04 -1.70660054055E-04 -3.03871618119E-04 -1.55907053983E-04 -4.82503815723E-01 +8.30833921630E-01
1.29500000000E+09 -2.85554792150E-01 +8.86559110538E-01 -3.26369714908E-04 -9.91395374862E-05 -4.00715016852E-04 -1.36075116418E-04 -4.74629710033E-01 +8.34420844651E-01
1.30000000000E+09 -2.73457792420E-01 +8.90163802742E-01 -3.51662540095E-04 -9.36007190870E-05 -4.37262463029E-04 -2.74428880019E-06 -4.66788430414E-01 +8.38001982095E-01
1.30500000000E+09 -2.62608705122E-01 +8.93241653323E-01 -4.86206940383E-04 -2.34796833424E-05 -4.12758017248E-04 -3.38103554068E-05 -4.58654326307E-01 +8.41415820074E-01
1.31000000000E+09 -2.53260168433E-01 +8.95413069691E-01 -4.95727745823E-04 +1.11364089668E-05 -4.69346213165E-04 +5.42310870739E-05 -4.50351405708E-01 +8.44879182366E-01
1.31500000000E+09 -2.45960397874E-01 +8.96932451409E-01 -4.54834553674E-04 +1.10999150008E-04 -5.19584996806E-04 +1.34402443183E-04 -4.41710343859E-01 +8.48476913740E-01
1.32000000000E+09 -2.39799667415E-01 +8.97723454712E-01 -4.61960035377E-04 +1.65443842649E-04 -5.14886890942E-04 +1.29712675281E-04 -4.32735148825E-01 +8.51781151394E-01
1.32500000000E+09 -2.33990973356E-01 +8.97995174084E-01 -4.87368780876E-04 +1.74882470677E-04 -5.73149890970E-04 +1.79218452425E-04 -4.23291811184E-01 +8.55169201360E-01
1.33000000000E+09 -2.27072929741E-01 +8.98006203140E-01 -5.99452710995E-04 +2.45697215693E-04 -5.06886863296E-04 +2.73184313244E-04 -4.13777437227E-01 +8.58338879111E-01
1.33500000000E+09 -2.18544725436E-01 +8.98090342138E-01 -6.13953735609E-04 +3.40120165196E-04 -5.47357594493E-04 +3.60875989877E-04 -4.03970930417E-01 +8.61559549010E-01
1.34000000000E+09 -2.07262016630E-01 +8.98346621314E-01 -5.44433480521E-04 +4.57553661971E-04 -5.44429121177E-04 +4.56685133969E-04 -3.93805975286E-01 +8.64862337194E-01
1.34500000000E+09 -1.93517415767E-01 +8.98712455741E-01 -5.48690302790E-04 +6.09555027493E-04 -4.72791157923E-04 +5.60260467996E-04 -3.82872353849E-01 +8.68165750014E-01
1.35000000000E+09 -1.77838923694E-01 +8.99346465374E-01 -3.87724841396E-04 +6.80540877960E-04 -3.77473815489E-04 +6.17827274064E-04 -3.71802948510E-01 +8.71400954437E-01
1.35500000000E+09 -1.60861842315E-01 +9.00209047538E-01 -3.95044331173E-04 +7.14472952281E-04 -3.80967843482E-04 +7.00509842387E-04 -3.60256112311E-01 +8.74130046241E-01
1.36000000000E+09 -1.44126730248E-01 +9.00831505618E-01 -3.20316582746E-04 +8.17559094892E-04 -2.96403958677E-04 +7.99140411966E-04 -3.48390609956E-01 +8.76873982497E-01
1.36500000000E+09 -1.28004649273E-01 +9.01172705741E-01 -2.79182129340E-04 +8.66452737297E-04 -2.73124435007E-04 +8.30893631109E-04 -3.36334288508E-01 +8.79427761410E-01
1.37000000000E+09 -1.13697433429E-01 +9.00995064195E-01 -1.65110657515E-04 +1.05747923373E-03 -2.01326050685E-04 +9.02376921921E-04 -3.23433352349E-01 +8.81885801543E-01
1.37500000000E+09 -1.01322756378E-01 +9.00358562503E-01 -3.72909935391E-05 +1.04986622433E-03 -1.23561939260E-04 +1.02051333936E-03 -3.09518035075E-01 +8.84502889091E-01
1.38000000000E+09 -9.00790047822E-02 +8.99394185567E-01 +3.49682563810E-05 +1.11368911478E-03 -6.22424466416E-05 +1.14955899290E-03 -2.94905750216E-01 +8.86619643904E-01
1.38500000000E+09 -7.86907141482E-02 +8.97893907456E-01 +1.76174566954E-04 +1.16088458040E-03 +9.54419074137E-05 +1.33170621228E-03 -2.79344734295E-01 +8.88577353885E-01
1.39000000000E+09 -6.62709520570E-02 +8.95738971070E-01 +2.63104651181E-04 +1.24672739900E-03 +3.67964750709E-04 +1.46708739228E-03 -2.63574166789E-01 +8.90034049112E-01
1.39500000000E+09 -5.18366213163E-02 +8.92935624347E-01 +4.65266431324E-04 +1.31151472584E-03 +6.31515176938E-04 +1.39731685612E-03 -2.46902232046E-01 +8.90702802999E-01
1.40000000000E+09 -3.46670576916E-02 +8.89192834016E-01 +6.32946519854E-04 +1.40817899183E-03 +7.74689128892E-04 +1.36624313268E-03 -2.29504401246E-01 +8.91289924827E-01
1.40500000000E+09 -1.55366026367E-02 +8.84798025434E-01 +9.46966565717E-04 +1.44822686318E-03 +1.01837616039E-03 +1.38903195757E-03 -2.11097936079E-01 +8.91219765008E-01
1.41000000000E+09 +5.83347950874E-03 +8.79560262604E-01 +1.19644166389E-03 +1.38345662878E-03 +1.21616033476E-03 +1.39515643828E-03 -1.90811710349E-01 +8.90539070886E-01
1.41500000000E+09 +2.81882893415E-02 +8.73626138243E-01 +1.47937577109E-03 +1.32141755306E-03 +1.53381097818E-03 +1.44857552029E-03 -1.69205188381E-01 +8.89214816952E-01
1.42000000000E+09 +5.10684163957E-02 +8.66596460450E-01 +1.75291835318E-03 +1.18955803833E-03 +1.92206369978E-03 +1.29123009394E-03 -1.46173391210E-01 +8.86650149916E-01
1.42500000000E+09 +7.29576122910E-02 +8.58632085254E-01 +1.99008061405E-03 +1.07445503795E-03 +2.27016947550E-03 +1.20126194730E-03 -1.22538585100E-01 +8.82727292939E-01
1.43000000000E+09 +9.42585704389E-02 +8.49492443868E-01 +2.39108944112E-03 +1.06947426738E-03 +2.74477169845E-03 +9.51959455175E-04 -9.78755308651E-02 +8.78070916073E-01
1.43500000000E+09 +1.15086689015E-01 +8.38803704795E-01 +3.06228516638E-03 +6.43668902927E-04 +3.25620410133E-03 +3.55963862073E-04 -7.15607390542E-02 +8.71439659108E-01
1.44000000000E+09 +1.36222706854E-01 +8.26660681118E-01 +3.37954408880E-03 -6.49711273534E-05 +3.40446743073E-03 -2.94326260641E-04 -4.36050417278E-02 +8.62875027037E-01
1.44500000000E+09 +1.59264293113E-01 +8.11608216493E-01 +3.43244494536E-03 -6.67183127337E-04 +3.43335210229E-03 -8.49005933919E-04 -1.33403065351E-02 +8.51445200018E-01
1.45000000000E+09 +1.84080714999E-01 +7.93045768580E-01 +3.31290652238E-03 -1.20572021402E-03 +3.36502437331E-03 -1.38769007361E-03 +1.83219958385E-02 +8.37014483425E-01
1.45500000000E+09 +2.10891730238E-01 +7.70875285690E-01 +3.49787450503E-03 -1.41373780107E-03 +3.39641230255E-03 -1.76223926750E-03 +5.15482147797E-02 +8.19757220108E-01
1.46000000000E+09 +2.40608893674E-01 +7.44702639146E-01 +3.86210593090E-03 -1.95860493618E-03 +3.51736593866E-03 -2.28852543344E-03 +8.62366971340E-02 +7.97985944482E-01
1.46500000000E+09 +2.71703584696E-01 +7.13497925190E-01 +4.23197754891E-03 -3.03985423329E-03 +3.75216948970E-03 -2.98159480735E-03 +1.22040859490E-01 +7.71548822296E-01
1.47000000000E+09 +3.03289595818E-01 +6.77639336787E-01 +4.12590721938E-03 -4.61120760586E-03 +3.80863985347E-03 -4.26457509046E-03 +1.58882473062E-01 +7.37806377489E-01
1.47500000000E+09 +3.33642431829E-01 +6.36534421950E-01 +3.16516588622E-03 -6.07651615664E-03 +3.21619910078E-03 -5.67924608014E-03 +1.95381101596E-01 +6.97236430881E-01
1.48000000000E+09 +3.61579790213E-01 +5.89356979206E-01 +1.98701327182E-03 -7.08838642373E-03 +2.20941891658E-03 -7.07124443749E-03 +2.31888979679E-01 +6.48184572066E-01
1.48500000000E+09 +3.84591632440E-01 +5.35126531780E-01 +6.92782730735E-04 -8.04298954602E-03 +5.79248855570E-04 -8.26576362056E-03 +2.65383344347E-01 +5.90188595338E-01
1.49000000000E+09 +4.01989405085E-01 +4.73707659746E-01 -1.04822262192E-03 -8.97615665569E-03 -1.49203057837E-03 -8.89808007600E-03 +2.93997952392E-01 +5.21422710151E-01
1.49500000000E+09 +4.10858014425E-01 +4.03956701782E-01 -3.63572241306E-03 -9.31448343095E-03 -3.85318883202E-03 -8.77596862293E-03 +3.12196071238E-01 +4.42927660585E-01
1.50000000000E+09 +4.10313328696E-01 +3.25632908838E-01 -6.35147040929E-03 -9.19728812456E-03 -5.94015043303E-03 -8.58332289926E-03 +3.18329040003E-01 +3.55438498429E-01
1.50500000000E+09 +3.96002652570E-01 +2.38645102406E-01 -9.21406859260E-03 -7.71462432751E-03 -8.60387097540E-03 -7.67138321252E-03 +3.09113644315E-01 +2.59793742188E-01
1.51000000000E+09 +3.65335848082E-01 +1.47563083954E-01 -1.14908938519E-02 -4.87095463158E-03 -1.11699595100E-02 -5.27615033594E-03 +2.78772592569E-01 +1.58094754558E-01
1.51500000000E+09 +3.15229930179E-01 +5.57098343805E-02 -1.28385833826E-02 -2.50550175886E-03 -1.28643345409E-02 -2.86010954135E-03 +2.23866309093E-01 +6.21184825750E-02
1.52000000000E+09 +2.44266685406E-01 -2.67003838874E-02 -1.46201855770E-02 +1.07739249739E-03 -1.48119947930E-02 +8.94764617926E-04 +1.50316197002E-01 -2.35359482205E-02
1.52500000000E+09 +1.56491303029E-01 -9.35883138606E-02 -1.38556059756E-02 +6.98284441628E-03 -1.39796204987E-02 +6.90840360403E-03 +5.76571343119E-02 -9.31924842510E-02
1.53000000000E+09 +5.62006162134E-02 -1.39342816387E-01 -9.66233180522E-03 +9.97699940297E-03 -9.75094725089E-03 +9.99636810911E-03 -4.82401779192E-02 -1.39247748232E-01
1.53500000000E+09 -5.18249760395E-02 -1.61665964578E-01 -6.83367913258E-03 +1.17634395213E-02 -6.82961690392E-03 +1.17311324291E-02 -1.58471279535E-01 -1.61609612535E-01
1.54000000000E+09 -1.62227728134E-01 -1.57144066023E-01 -3.25158413885E-03 +1.21462006042E-02 -3.30316674118E-03 +1.20098111422E-02 -2.66891199195E-01 -1.60406516341E-01
1.54500000000E+09 -2.63581967327E-01 -1.29720623117E-01 +4.84044977256E-05 +1.21282904192E-02 -1.84864526009E-04 +1.19869605871E-02 -3.65865558600E-01 -1.40187816376E-01
1.55000000000E+09 -3.55282306938E-01 -8.60568942927E-02 +2.46469320752E-03 +1.10283092116E-02 +2.01610985198E-03 +1.11374247681E-02 -4.53444757047E-01 -1.04237220655E-01
1.55500000000E+09 -4.32365195574E-01 -2.98569125803E-02 +5.51458364424E-03 +9.69744226257E-03 +5.14238518228E-03 +1.01588952908E-02 -5.25876152214E-01 -5.73658545708E-02
1.56000000000E+09 -4.93367850533E-01 +2.98280807299E-02 +7.05851028065E-03 +6.47823873639E-03 +7.13840441680E-03 +7.06866068024E-03 -5.84829643545E-01 -4.43425056442E-03
1.56500000000E+09 -5.41772367229E-01 +9.00045447015E-02 +6.78853681571E-03 +4.49218529800E-03 +7.07977771188E-03 +4.90905905036E-03 -6.29593985644E-01 +5.17076072899E-02
1.57000000000E+09 -5.78391414204E-01 +1.48192097583E-01 +6.83055329983E-03 +3.02047632331E-03 +7.33408116064E-03 +3.19612978720E-03 -6.63908126723E-01 +1.05860564948E-01
