# Hz S RI R 50
! CMT, C1220, 16058040, 17.2.0/1
! Date: 14/08/2018 12:50:28
! Data: Format (Calibration Info)
! Freq                      S11: Re/Im (F2)                       S21: Re/Im (F2)                       S12: Re/Im (F2)                       S22: Re/Im (F2)            
1.00000000000E+09 -6.51450444170E-01 +7.13309684561E-01 +1.42596516606E-05 -1.92565055590E-05 -4.94124639660E-05 +1.35294279510E-05 -7.53788510318E-01 +6.21608517743E-01
1.00500000000E+09 -6.44462915572E-01 +7.18263250556E-01 -2.42241981152E-05 -6.38956562017E-05 -3.16108126753E-05 +1.48828716891E-05 -7.50150079141E-01 +6.25725836921E-01
1.01000000000E+09 -6.38716037766E-01 +7.22661293409E-01 -4.60267418079E-05 -7.85081929609E-06 +4.56407157045E-05 +1.20982778897E-07 -7.46619316307E-01 +6.29113966935E-01
1.01500000000E+09 -6.34305797469E-01 +7.26435054596E-01 -4.65450552728E-05 +1.71436173464E-06 -2.22829130283E-05 -3.14438006715E-05 -7.43659990928E-01 +6.32834611284E-01
1.02000000000E+09 -6.31325010429E-01 +7.29881877854E-01 +3.15500315781E-05 -9.85398003426E-07 -3.89918339410E-06 -1.61471139745E-06 -7.40267778463E-01 +6.36285704229E-01
1.02500000000E+09 -6.29370543450E-01 +7.32701303544E-01 +1.76119983109E-05 -2.39027525336E-05 -6.05942673676E-05 +1.96748045379E-05 -7.37469577015E-01 +6.39746910309E-01
1.03000000000E+09 -6.27771734737E-01 +7.35232815740E-01 -1.03420622403E-05 -1.70722053172E-05 -5.85016168552E-05 +2.86209414244E-05 -7.34013085529E-01 +6.43935446342E-01
1.03500000000E+09 -6.25495388313E-01 +7.37727720643E-01 -2.62178764122E-06 +8.30286473937E-06 -2.83334392180E-05 +5.63026311055E-05 -7.30142791450E-01 +6.47782315358E-01
1.04000000000E+09 -6.22287958467E-01 +7.40789362332E-01 +5.63112856892E-06 +1.35019517863E-05 +3.97412187938E-05 +6.05911087567E-05 -7.26360282726E-01 +6.51580233517E-01
1.04500000000E+09 -6.17360188274E-01 +7.44225379868E-01 -2.76272055275E-05 +3.75052588758E-05 +2.39860531149E-05 +4.45584387096E-06 -7.22833163126E-01 +6.54891088111E-01
1.05000000000E+09 -6.10727922277E-01 +7.48277927567E-01 -2.35177343423E-05 +6.63758732496E-05 -3.88542949234E-05 +1.63578142410E-05 -7.19433037010E-01 +6.58522791359E-01
1.05500000000E+09 -6.02994429440E-01 +7.53042595400E-01 +5.30393460149E-06 +4.46524712015E-06 -6.98000971227E-06 +1.94314687234E-05 -7.16369369453E-01 +6.61993653492E-01
1.06000000000E+09 -5.94389570521E-01 +7.58043786908E-01 -1.04571612278E-05 +2.32301945467E-05 +3.15276956180E-05 -1.70615637367E-06 -7.13084231198E-01 +6.65838792045E-01
1.06500000000E+09 -5.86156316719E-01 +7.63013437725E-01 -9.08217099170E-06 +4.99956336482E-05 +3.68082927492E-06 +4.90962867694E-05 -7.09185117007E-01 +6.69679625703E-01
1.07000000000E+09 -5.78813448868E-01 +7.67388838828E-01 -2.36239309474E-06 +1.63325345248E-05 -2.27306608881E-05 +1.55325661622E-05 -7.05021819713E-01 +6.73351902855E-01
1.07500000000E+09 -5.72885616343E-01 +7.71085588348E-01 -2.59290451454E-05 +4.03224642950E-05 +8.33150048391E-06 -6.60464102294E-06 -7.00744408790E-01 +6.77197694123E-01
1.08000000000E+09 -5.68790871991E-01 +7.74512483133E-01 -2.29323971922E-05 +4.77574177167E-05 -1.74001886273E-05 +5.36184739185E-05 -6.96834973465E-01 +6.80919502418E-01
1.08500000000E+09 -5.66115844144E-01 +7.77130837132E-01 -1.25578642278E-05 +4.31232679424E-05 +3.24972815216E-05 +2.40851153470E-05 -6.93136206370E-01 +6.84478181088E-01
1.09000000000E+09 -5.63949318226E-01 +7.79015000615E-01 +8.83152232769E-06 +5.97847023948E-05 +3.92188063246E-05 +4.85875640627E-05 -6.89351305284E-01 +6.88290835668E-01
1.09500000000E+09 -5.62231507811E-01 +7.80887949800E-01 +2.47233060867E-05 +4.00010696801E-05 +4.19127374847E-05 +3.66234771688E-05 -6.85777946829E-01 +6.92145198203E-01
1.10000000000E+09 -5.59503594864E-01 +7.83077275393E-01 +2.56131391605E-05 +5.02169596662E-05 +1.02278707190E-04 +2.60914350328E-05 -6.81818766754E-01 +6.95965255718E-01
1.10500000000E+09 -5.55770382197E-01 +7.85623781103E-01 +5.77836859372E-05 +1.55564720617E-05 +7.48017433159E-05 +4.34416515803E-05 -6.77564162898E-01 +6.99527580401E-01
1.11000000000E+09 -5.50612345788E-01 +7.88739267101E-01 +5.81292357130E-05 +2.88597327957E-05 -4.38026579365E-07 +1.05904979801E-05 -6.73531341178E-01 +7.02755650980E-01
1.11500000000E+09 -5.43911321745E-01 +7.92622195382E-01 +3.59932496708E-05 -1.13181462993E-05 +8.42616463258E-06 +2.16307785848E-05 -6.69381576678E-01 +7.06142271802E-01
1.12000000000E+09 -5.36454860162E-01 +7.96489927999E-01 +1.54065707860E-05 +7.00317235240E-05 +6.20326542974E-05 +7.16462588676E-05 -6.65528249587E-01 +7.09721392293E-01
1.12500000000E+09 -5.28592255912E-01 +8.00585651644E-01 +5.81464538612E-05 +3.97848696404E-05 +4.50105899209E-05 +3.80046030400E-05 -6.61234438193E-01 +7.13608370294E-01
1.13000000000E+09 -5.21137689226E-01 +8.04237770044E-01 +7.37922997992E-05 +4.21818944152E-05 +3.78966930773E-05 +2.39048863736E-05 -6.56801325911E-01 +7.17683102352E-01
1.13500000000E+09 -5.14499275312E-01 +8.06979004201E-01 +5.82348398262E-05 +4.93763299087E-05 +7.25221319224E-05 +3.63036199034E-05 -6.52189573168E-01 +7.21425759637E-01
1.14000000000E+09 -5.09174406291E-01 +8.09530955904E-01 +7.86951497680E-05 +3.84176362570E-05 +9.72100924283E-05 +4.29535040739E-05 -6.47311864964E-01 +7.24915312778E-01
1.14500000000E+09 -5.04752915741E-01 +8.11301268294E-01 +1.14396819969E-04 -4.17211858460E-06 +8.64375056668E-05 +3.62642500003E-05 -6.42786853860E-01 +7.28404659408E-01
1.15000000000E+09 -5.01045922316E-01 +8.12975822054E-01 +1.75118019373E-04 -2.19013918905E-06 +9.48980832539E-05 -7.82834248245E-07 -6.38153064418E-01 +7.32137793320E-01
1.15500000000E+09 -4.97395235836E-01 +8.14932474417E-01 +9.58508595440E-05 +2.24255897802E-05 +8.69498695508E-05 +2.85029909275E-05 -6.33368170436E-01 +7.35953210781E-01
1.16000000000E+09 -4.92959139406E-01 +8.16942800784E-01 +9.67367826392E-05 +3.52243924378E-05 +6.24413771440E-05 -4.52434827234E-05 -6.28603865274E-01 +7.39891643774E-01
1.16500000000E+09 -4.87675867861E-01 +8.19927770627E-01 +8.14935253232E-05 -6.08988301737E-06 +1.29922629070E-04 -5.05006735692E-06 -6.23697858134E-01 +7.43491720427E-01
1.17000000000E+09 -4.81376942078E-01 +8.23149188390E-01 +1.09413947358E-04 -4.21011841827E-06 +7.89615033422E-05 -4.32160932849E-05 -6.18294327400E-01 +7.46755956560E-01
1.17500000000E+09 -4.74246745323E-01 +8.26707109706E-01 +1.20560487825E-04 -4.13297843222E-05 +1.55631922404E-04 -5.01178348657E-05 -6.12718969970E-01 +7.49911711541E-01
1.18000000000E+09 -4.66582949387E-01 +8.30365705687E-01 +1.14453928764E-04 -6.95951747814E-05 +1.88941144891E-04 -6.23613382458E-05 -6.07347679031E-01 +7.53051040265E-01
1.18500000000E+09 -4.58817898869E-01 +8.33789796392E-01 +1.37666298906E-04 -8.92019064317E-05 +1.33667355286E-04 -1.58445512621E-04 -6.01506629712E-01 +7.56001750358E-01
1.19000000000E+09 -4.51434300001E-01 +8.36486533339E-01 +1.59009013635E-04 -1.21174162157E-04 +2.14039228049E-04 -1.29489789173E-04 -5.95404005419E-01 +7.58645462997E-01
1.19500000000E+09 -4.45209744639E-01 +8.38644375197E-01 +1.11207549894E-04 -1.98038439605E-04 +1.36905719419E-04 -2.41812573736E-04 -5.89616539846E-01 +7.59813405291E-01
1.20000000000E+09 -4.39728827348E-01 +8.39592909995E-01 +5.40890144382E-05 -2.33867698410E-04 +2.39883616672E-05 -2.79977910737E-04 -5.85061634908E-01 +7.60083932894E-01
1.20500000000E+09 -4.34906412981E-01 +8.40837391646E-01 -6.93313399232E-05 -1.82628645744E-04 -1.02475375666E-04 -2.03548314557E-04 -5.82768515504E-01 +7.61140665762E-01
1.21000000000E+09 -4.30067121371E-01 +8.42416780999E-01 -3.71804764600E-05 -1.31045573966E-04 -5.07149914331E-05 -1.14906891863E-04 -5.80729634359E-01 +7.64153780181E-01
1.21500000000E+09 -4.24097511128E-01 +8.44344226257E-01 +3.18960255985E-05 -1.11500392199E-04 -1.74737387219E-05 -8.46682972818E-05 -5.77930438074E-01 +7.68629368242E-01
1.22000000000E+09 -4.17296533613E-01 +8.46737823090E-01 +1.23745240657E-05 -1.35802257735E-04 +2.37284600649E-05 -1.53555249755E-04 -5.73664024441E-01 +7.74102308529E-01
1.22500000000E+09 -4.09077963267E-01 +8.49895422825E-01 +3.56546104975E-05 -1.79697903025E-04 +3.77464105822E-05 -1.67427095012E-04 -5.68868834315E-01 +7.79129598306E-01
1.23000000000E+09 -3.99880481690E-01 +8.53355891233E-01 +5.74252435242E-06 -1.78848058461E-04 -2.77522332762E-06 -1.86295214647E-04 -5.63072159557E-01 +7.83873588181E-01
1.23500000000E+09 -3.90537522500E-01 +8.57228599357E-01 +2.21297646557E-06 -1.49937872546E-04 +1.44440448492E-06 -1.67148156540E-04 -5.57173638625E-01 +7.88230962387E-01
1.24000000000E+09 -3.81008920944E-01 +8.61084810248E-01 -3.57027526499E-05 -2.24305190818E-04 -3.95908675536E-05 -2.34972170532E-04 -5.51342833384E-01 +7.92053193322E-01
1.24500000000E+09 -3.72365556012E-01 +8.65066385070E-01 -9.13686735265E-05 -2.11867173678E-04 -8.17440800326E-05 -2.10398528649E-04 -5.45187512473E-01 +7.95825357573E-01
1.25000000000E+09 -3.64428588975E-01 +8.68149705595E-01 -8.34983502696E-05 -1.76531185064E-04 -8.59032586901E-05 -2.45591549890E-04 -5.38766362627E-01 +8.00076638663E-01
1.25500000000E+09 -3.57488267818E-01 +8.70110792547E-01 -1.01431120070E-04 -1.80623086976E-04 -1.03072195434E-04 -2.35623084598E-04 -5.31999998212E-01 +8.04094904014E-01
1.26000000000E+09 -3.51246822293E-01 +8.71652994527E-01 -1.63798137289E-04 -2.35268597401E-04 -1.52308450018E-04 -2.42519871651E-04 -5.25460169714E-01 +8.08338269959E-01
1.26500000000E+09 -3.45353460646E-01 +8.72718902838E-01 -1.50775247004E-04 -2.20463596212E-04 -2.06584178454E-04 -2.85790615359E-04 -5.18490071347E-01 +8.12050551040E-01
1.27000000000E+09 -3.38844150183E-01 +8.73728435765E-01 -1.99388073278E-04 -2.42928508226E-04 -2.39035068186E-04 -2.20517193076E-04 -5.11530326470E-01 +8.15965444472E-01
1.27500000000E+09 -3.31358634303E-01 +8.75083120973E-01 -2.78588420564E-04 -2.60454411817E-04 -2.83808139662E-04 -1.82651686206E-04 -5.04394680998E-01 +8.19650027508E-01
1.28000000000E+09 -3.22124654214E-01 +8.77054487392E-01 -3.14623741191E-04 -1.97921944575E-04 -3.12801285359E-04 -1.97390015649E-04 -4.97254417208E-01 +8.23369074166E-01
1.28500000000E+09 -3.11092865883E-01 +8.79527780259E-01 -3.15490129402E-04 -1.56973827576E-04 -3.49215401004E-04 -2.03103569518E-04 -4.89813681996E-01 +8.26978684060E-01
1.29000000000E+09 -2.99363923846E-01 +8.82575755971E-01 -3.27412975354E-04 -1.46861007732E-04 -3.80117317308E-04 -1.72735592888E-04 -4.82417229359E-01 +8.30890179932E-01
1.29500000000E+09 -2.87098781231E-01 +8.86092856683E-01 -3.89518041709E-04 -1.64766701113E-04 -4.68313555451E-04 -1.50774769610E-04 -4.74325995711E-01 +8.34282234511E-01
1.30000000000E+09 -2.75226537232E-01 +8.89732290660E-01 -4.58897147871E-04 -1.33933272736E-04 -5.11938678301E-04 -5.12173740395E-05 -4.66515734171E-01 +8.37861341809E-01
1.30500000000E+09 -2.64505997072E-01 +8.92728898259E-01 -4.97242700288E-04 -6.40333006197E-05 -4.85974540410E-04 -1.87331433090E-05 -4.58638363524E-01 +8.41502891325E-01
1.31000000000E+09 -2.55352145879E-01 +8.94896946933E-01 -5.37852206097E-04 -1.28855613214E-06 -5.36336517362E-04 +3.01627954379E-05 -4.50351437386E-01 +8.44933023749E-01
1.31500000000E+09 -2.47871417348E-01 +8.96348585271E-01 -5.35095079041E-04 +1.12885188099E-04 -5.29188618197E-04 +1.28496706888E-04 -4.41539088262E-01 +8.48452089169E-01
1.32000000000E+09 -2.41662762486E-01 +8.96929542931E-01 -5.52383371195E-04 +1.61458754450E-04 -5.47488991348E-04 +1.79228438451E-04 -4.32671256248E-01 +8.51868466529E-01
1.32500000000E+09 -2.35585667206E-01 +8.97115124930E-01 -5.95050894128E-04 +2.15930135924E-04 -5.96347708467E-04 +2.05123113466E-04 -4.23032501526E-01 +8.55163394565E-01
1.33000000000E+09 -2.28717909008E-01 +8.97363658289E-01 -6.01531317339E-04 +2.54739504774E-04 -5.86576538966E-04 +3.34959889244E-04 -4.13746361897E-01 +8.58444499332E-01
1.33500000000E+09 -2.19880410154E-01 +8.97346373563E-01 -6.51537720509E-04 +3.94284984801E-04 -6.32241432487E-04 +4.54553950699E-04 -4.03952136837E-01 +8.61580476028E-01
1.34000000000E+09 -2.08650944901E-01 +8.97645083476E-01 -6.30056599740E-04 +5.21630901689E-04 -5.89607591142E-04 +5.24948136733E-04 -3.93733373322E-01 +8.64914167146E-01
1.34500000000E+09 -1.95044000772E-01 +8.98168560293E-01 -5.50661064676E-04 +6.35195451124E-04 -5.11629844897E-04 +6.29015517543E-04 -3.82954148844E-01 +8.68181788735E-01
1.35000000000E+09 -1.79427857279E-01 +8.98854403340E-01 -4.76843113782E-04 +7.29945678943E-04 -4.31051770648E-04 +6.90545721134E-04 -3.71820737182E-01 +8.71384380840E-01
1.35500000000E+09 -1.62749067316E-01 +8.99867416806E-01 -4.63062236665E-04 +7.36162482232E-04 -4.29914680748E-04 +7.17838400599E-04 -3.60086423098E-01 +8.74341324199E-01
1.36000000000E+09 -1.45907617043E-01 +9.00727031399E-01 -3.82872964402E-04 +8.76543633768E-04 -3.49612746778E-04 +8.02982067930E-04 -3.48353439768E-01 +8.76996992055E-01
1.36500000000E+09 -1.30027743935E-01 +9.01106977836E-01 -3.81352322652E-04 +9.67011860904E-04 -3.22911990062E-04 +8.86674638683E-04 -3.36190473522E-01 +8.79578618505E-01
1.37000000000E+09 -1.15884004171E-01 +9.00898793451E-01 -2.39838610809E-04 +1.09975160281E-03 -3.55822367326E-04 +1.01577408675E-03 -3.23455546582E-01 +8.82015605624E-01
1.37500000000E+09 -1.03436675896E-01 +9.00330787349E-01 -1.17635719401E-04 +1.19148762194E-03 -2.52548121251E-04 +1.11630096242E-03 -3.09650187624E-01 +8.84586086195E-01
1.38000000000E+09 -9.20845682218E-02 +8.99225976687E-01 +7.93981754538E-06 +1.24077192719E-03 -1.17468644207E-04 +1.27935465927E-03 -2.94941458579E-01 +8.86766350203E-01
1.38500000000E+09 -8.04315058228E-02 +8.97679805452E-01 +1.29317996926E-04 +1.32366611824E-03 -5.21932225222E-06 +1.50800252206E-03 -2.79438491036E-01 +8.88747113498E-01
1.39000000000E+09 -6.80137413031E-02 +8.95551535149E-01 +2.58683056321E-04 +1.42325276596E-03 +3.18602927394E-04 +1.61015341592E-03 -2.63489253421E-01 +8.90178569329E-01
1.39500000000E+09 -5.34744514052E-02 +8.92674830230E-01 +4.30846628240E-04 +1.47151534502E-03 +6.12710503240E-04 +1.58574013779E-03 -2.46964798136E-01 +8.91155423212E-01
1.40000000000E+09 -3.63495170297E-02 +8.89048665815E-01 +5.84034948443E-04 +1.57270729034E-03 +7.61111786808E-04 +1.55709864023E-03 -2.29546728174E-01 +8.91643193171E-01
1.40500000000E+09 -1.71361060301E-02 +8.84750808619E-01 +9.04663937579E-04 +1.67523739358E-03 +9.83552075193E-04 +1.59696901646E-03 -2.11044985173E-01 +8.91568408432E-01
1.41000000000E+09 +4.13745307019E-03 +8.79652423796E-01 +1.28048611877E-03 +1.67870119130E-03 +1.25030825726E-03 +1.66592199972E-03 -1.90862259173E-01 +8.90932168039E-01
1.41500000000E+09 +2.63774858822E-02 +8.73873216865E-01 +1.62419886172E-03 +1.60205501597E-03 +1.58237217990E-03 +1.74174641513E-03 -1.69219618845E-01 +8.89546399227E-01
1.42000000000E+09 +4.90401504870E-02 +8.67074295789E-01 +1.95797870673E-03 +1.49503136741E-03 +2.10873598284E-03 +1.68274774699E-03 -1.46152143124E-01 +8.87031614799E-01
1.42500000000E+09 +7.09465424629E-02 +8.59214751484E-01 +2.23563587132E-03 +1.34114048457E-03 +2.57526423732E-03 +1.43687879483E-03 -1.22486066221E-01 +8.83417762335E-01
1.43000000000E+09 +9.22562409402E-02 +8.50049306288E-01 +2.68185271384E-03 +1.31837945484E-03 +2.99812601684E-03 +1.23162833234E-03 -9.77576098859E-02 +8.78798445128E-01
1.43500000000E+09 +1.13123396626E-01 +8.39468144406E-01 +3.34367791259E-03 +9.68478333532E-04 +3.53498367334E-03 +6.63615103200E-04 -7.12902732246E-02 +8.72129518444E-01
1.44000000000E+09 +1.34417114554E-01 +8.27268832572E-01 +3.78364965004E-03 +2.54030483734E-04 +3.84688515469E-03 +2.12964715769E-05 -4.30374801123E-02 +8.63551427392E-01
1.44500000000E+09 +1.57668316978E-01 +8.12074840650E-01 +3.98243727866E-03 -4.80025593825E-04 +4.05863230895E-03 -6.32580051446E-04 -1.26925418849E-02 +8.52056150885E-01
1.45000000000E+09 +1.82461570344E-01 +7.93701606797E-01 +4.03333080709E-03 -1.05398074086E-03 +4.02746657714E-03 -1.31464242648E-03 +1.91368641395E-02 +8.37743223580E-01
1.45500000000E+09 +2.09608550288E-01 +7.71548098854E-01 +4.22132153833E-03 -1.38580287649E-03 +4.10979486343E-03 -1.79642045077E-03 +5.25598372357E-02 +8.20434911056E-01
1.46000000000E+09 +2.39373583390E-01 +7.45510998869E-01 +4.67129805513E-03 -2.14514008959E-03 +4.29310848965E-03 -2.46626757210E-03 +8.74390137642E-02 +7.98677935805E-01
1.46500000000E+09 +2.70592499070E-01 +7.14497724526E-01 +5.13583309622E-03 -3.33119543239E-03 +4.52631837844E-03 -3.32360539752E-03 +1.23401743593E-01 +7.72064761209E-01
1.47000000000E+09 +3.02163193613E-01 +6.78803384336E-01 +4.99652784265E-03 -5.15748364213E-03 +4.56700213731E-03 -4.70785695052E-03 +1.60553994585E-01 +7.38188310868E-01
1.47500000000E+09 +3.32462913881E-01 +6.37754037190E-01 +3.95310040608E-03 -6.87380996582E-03 +4.03489560026E-03 -6.40760724681E-03 +1.97274287889E-01 +6.97234434590E-01
1.48000000000E+09 +3.60356059060E-01 +5.90520206048E-01 +2.69906952198E-03 -8.04148403868E-03 +2.97472275961E-03 -8.06401092042E-03 +2.33875668902E-01 +6.47884066572E-01
1.48500000000E+09 +3.83241428716E-01 +5.36399414158E-01 +1.29830832566E-03 -9.19675144864E-03 +1.22606035595E-03 -9.49888099253E-03 +2.67639067560E-01 +5.89362178605E-01
1.49000000000E+09 +4.00768158421E-01 +4.74987728165E-01 -6.68366639700E-04 -1.05472653065E-02 -1.19015306058E-03 -1.04900253352E-02 +2.96156324070E-01 +5.19776029558E-01
1.49500000000E+09 +4.10178725142E-01 +4.05159585285E-01 -3.57179485521E-03 -1.10257155798E-02 -3.88040895742E-03 -1.03976025820E-02 +3.13945256412E-01 +4.40646136975E-01
1.50000000000E+09 +4.09738333083E-01 +3.26298892494E-01 -6.82269751170E-03 -1.10645579597E-02 -6.37526040653E-03 -1.03934660146E-02 +3.19410612462E-01 +3.52552840318E-01
1.50500000000E+09 +3.95477486726E-01 +2.39251112124E-01 -1.03782347764E-02 -9.50183395666E-03 -9.63745609172E-03 -9.39906088273E-03 +3.09561032888E-01 +2.56536067341E-01
1.51000000000E+09 +3.65232914008E-01 +1.47902780172E-01 -1.29752764410E-02 -6.27325215244E-03 -1.25528808962E-02 -6.71049370453E-03 +2.78476132588E-01 +1.54578669330E-01
1.51500000000E+09 +3.15092460958E-01 +5.63042169959E-02 -1.46609890124E-02 -3.75433029387E-03 -1.46456686968E-02 -4.19056713024E-03 +2.22145634982E-01 +5.83569991880E-02
1.52000000000E+09 +2.44712114723E-01 -2.57184467824E-02 -1.70014108854E-02 +3.29093339685E-04 -1.71734610310E-02 +1.00163096543E-04 +1.47224062395E-01 -2.65191901418E-02
1.52500000000E+09 +1.57482192082E-01 -9.29788549149E-02 -1.64621414046E-02 +6.94234327686E-03 -1.66675942238E-02 +6.88641686913E-03 +5.37339727575E-02 -9.50393076976E-02
1.53000000000E+09 +5.73477750893E-02 -1.38898015204E-01 -1.23085427754E-02 +1.08545847835E-02 -1.24611267874E-02 +1.08883041023E-02 -5.27310910808E-02 -1.39667874472E-01
1.53500000000E+09 -5.05385230881E-02 -1.61595447401E-01 -9.05978292198E-03 +1.33951324685E-02 -9.08984337743E-03 +1.33796079662E-02 -1.62687543422E-01 -1.60511264812E-01
1.54000000000E+09 -1.61107030093E-01 -1.57813262744E-01 -4.73615686315E-03 +1.43680560099E-02 -4.83368803636E-03 +1.42281170889E-02 -2.70401981847E-01 -1.58196769581E-01
1.54500000000E+09 -2.63318206978E-01 -1.30739939247E-01 -7.53768142887E-04 +1.44809037308E-02 -1.06687787942E-03 +1.43410464467E-02 -3.68343629632E-01 -1.37256096134E-01
1.55000000000E+09 -3.55017453434E-01 -8.74121760128E-02 +2.27660624429E-03 +1.33742108959E-02 +1.75298730921E-03 +1.34505773997E-02 -4.54864770564E-01 -1.01027500699E-01
1.55500000000E+09 -4.32415876623E-01 -3.17510938731E-02 +5.98539837160E-03 +1.18405367072E-02 +5.55355861202E-03 +1.24267133685E-02 -5.26387506546E-01 -5.43676691623E-02
1.56000000000E+09 -4.93935882243E-01 +2.74334722896E-02 +7.95694728491E-03 +8.23890465644E-03 +7.98196619141E-03 +8.96949600597E-03 -5.84616665889E-01 -1.70260570456E-03
1.56500000000E+09 -5.42842017476E-01 +8.77791225665E-02 +7.95738059500E-03 +5.97168277992E-03 +8.38352295525E-03 +6.43857639055E-03 -6.28967764905E-01 +5.42290037325E-02
1.57000000000E+09 -5.79574172922E-01 +1.46003758650E-01 +8.20002340941E-03 +3.97782056980E-03 +8.79774664844E-03 +4.16656868479E-03 -6.62851393303E-01 +1.07838243279E-01
