# Hz S RI R 50
! CMT, C1220, 16058040, 17.2.0/1
! Date: 14/08/2018 12:44:18
! Data: Format (Calibration Info)
! Freq                      S11: Re/Im (F2)                       S21: Re/Im (F2)                       S12: Re/Im (F2)                       S22: Re/Im (F2)            
1.00000000000E+09 -6.50804407190E-01 +7.13438227495E-01 -5.91611777741E-06 -4.91951072371E-05 -3.12313650769E-05 +3.87741783861E-06 -7.51924272917E-01 +6.22272264019E-01
1.00500000000E+09 -6.43600718605E-01 +7.18385509207E-01 -3.21688340547E-05 -3.13407783568E-05 +1.65791859095E-05 -3.41450056256E-05 -7.48474319302E-01 +6.26345159545E-01
1.01000000000E+09 -6.37719367919E-01 +7.22950185176E-01 -1.27663718832E-05 -3.34922435923E-05 -1.71338120894E-06 -2.96500560633E-06 -7.44928805009E-01 +6.29914282358E-01
1.01500000000E+09 -6.33050087240E-01 +7.26909286531E-01 +1.68443267620E-05 +1.25168234572E-05 +1.71998510676E-05 -1.53520373351E-05 -7.41911055705E-01 +6.33588411022E-01
1.02000000000E+09 -6.30140219221E-01 +7.30323227311E-01 +8.14795621066E-06 +6.81438440931E-06 -4.89807701751E-06 +3.69909312133E-05 -7.38518108783E-01 +6.36908364287E-01
1.02500000000E+09 -6.27836503077E-01 +7.33153801113E-01 +7.46842086396E-06 -2.82747936119E-05 -2.35434636195E-05 +4.30889635018E-05 -7.35542098380E-01 +6.40658027188E-01
1.03000000000E+09 -6.26243148094E-01 +7.35819621681E-01 +2.77655429786E-07 -1.91244020783E-05 -3.67740737230E-05 -3.92034666233E-05 -7.32274907618E-01 +6.44401858706E-01
1.03500000000E+09 -6.23979117254E-01 +7.38155558123E-01 +4.05207678633E-06 +2.04755365186E-05 -3.84921639436E-05 +2.90321257434E-05 -7.28411295332E-01 +6.48390300370E-01
1.04000000000E+09 -6.20703981749E-01 +7.41086445549E-01 -6.43025456318E-06 -1.81148195574E-05 -2.16261809416E-05 +5.92041553694E-05 -7.24597766017E-01 +6.52018902481E-01
1.04500000000E+09 -6.15773393931E-01 +7.44582209051E-01 +9.96935932107E-06 +2.22547039596E-05 -3.13649069887E-05 +3.49705402074E-05 -7.21110982160E-01 +6.55605975093E-01
1.05000000000E+09 -6.09135457155E-01 +7.48628315660E-01 -3.19548090866E-06 +3.09692584509E-05 -4.95292395786E-05 +4.74014520780E-05 -7.17620056798E-01 +6.58949464007E-01
1.05500000000E+09 -6.01383842643E-01 +7.53308464429E-01 +3.60450741186E-06 +5.28406176686E-05 +1.15272595891E-07 +4.82995724676E-06 -7.14610605707E-01 +6.62391811167E-01
1.06000000000E+09 -5.92822237137E-01 +7.58320183559E-01 +1.72165819570E-05 +9.59263147897E-06 +6.54375432518E-06 -5.40082394979E-06 -7.11138754750E-01 +6.66322709022E-01
1.06500000000E+09 -5.84435126076E-01 +7.63336756776E-01 -7.40657716484E-06 +3.89094937958E-05 -1.57039478918E-05 +3.58085288846E-05 -7.07162912778E-01 +6.70275064536E-01
1.07000000000E+09 -5.76942231997E-01 +7.67786295732E-01 -4.14002881866E-05 +4.61804276686E-05 +5.95571402780E-06 +4.05842950489E-05 -7.03172779133E-01 +6.73950737394E-01
1.07500000000E+09 -5.70877852861E-01 +7.71855815997E-01 +2.13499277650E-05 +2.77599020696E-05 -1.10975226565E-05 -3.99417624804E-05 -6.98958991463E-01 +6.77590876007E-01
1.08000000000E+09 -5.66584375576E-01 +7.75118135251E-01 -5.49504181861E-06 +1.23294905789E-05 -3.23064529060E-05 +2.14971263540E-06 -6.95197333325E-01 +6.81509582520E-01
1.08500000000E+09 -5.63738734441E-01 +7.77587347388E-01 -5.39778770223E-05 +4.95000662014E-05 +2.25080829145E-05 +8.16937986098E-05 -6.91445152729E-01 +6.85010337314E-01
1.09000000000E+09 -5.61620794249E-01 +7.79618502847E-01 +2.38043326231E-05 +2.82788250266E-05 -1.12376836226E-06 +2.29522009098E-05 -6.87614408839E-01 +6.88727362201E-01
1.09500000000E+09 -5.60010566960E-01 +7.81481679891E-01 +1.83913633299E-05 +3.42800234103E-05 +4.74427313196E-05 +6.80447373553E-05 -6.83873977425E-01 +6.92555420422E-01
1.10000000000E+09 -5.57330784370E-01 +7.83363538973E-01 +4.66596354815E-05 +4.98310647541E-05 +6.25155330759E-06 +6.09966085868E-05 -6.79870423586E-01 +6.96463004259E-01
1.10500000000E+09 -5.53694003663E-01 +7.85905162107E-01 +1.83543871648E-05 +2.56902165895E-05 +3.89390112763E-05 +3.26334541945E-05 -6.75654185238E-01 +7.00028371561E-01
1.11000000000E+09 -5.48405143580E-01 +7.88999917953E-01 +3.08017996292E-05 +3.18313138886E-05 -5.17438852140E-06 +3.80762031813E-06 -6.71477968679E-01 +7.03329655184E-01
1.11500000000E+09 -5.41754458993E-01 +7.92790572372E-01 +3.04118066773E-05 +5.23151645331E-05 +1.47312829211E-05 +7.25611209683E-05 -6.67469400452E-01 +7.06673035883E-01
1.12000000000E+09 -5.34293152688E-01 +7.96570129365E-01 +9.90380504779E-05 +2.91037854962E-05 +4.57574802847E-05 +2.71110651358E-05 -6.63497983479E-01 +7.10416822715E-01
1.12500000000E+09 -5.26330704465E-01 +8.00773312148E-01 +4.63644077709E-05 +2.97023091705E-05 +9.16423775905E-05 +7.16985035055E-05 -6.59260806339E-01 +7.14213169402E-01
1.13000000000E+09 -5.18779114357E-01 +8.04459984447E-01 +2.31277185468E-06 +4.60890643728E-05 +5.48085786857E-05 +4.82265806030E-05 -6.54954360974E-01 +7.18033376817E-01
1.13500000000E+09 -5.12055058745E-01 +8.07243241704E-01 +7.11874215324E-05 +5.71157724901E-05 +1.02782517497E-04 +2.94989154263E-05 -6.50280068272E-01 +7.21931197461E-01
1.14000000000E+09 -5.06530623416E-01 +8.09919235030E-01 +4.79740963389E-05 +6.29401491058E-05 +9.25284794699E-05 +7.51702931519E-05 -6.45361624112E-01 +7.25485458687E-01
1.14500000000E+09 -5.02229402904E-01 +8.11578639031E-01 +9.91249351901E-05 +1.92365162627E-05 +1.30266725395E-04 +1.35149810445E-05 -6.40768386453E-01 +7.28866798863E-01
1.15000000000E+09 -4.98445590047E-01 +8.13383692099E-01 +6.14270317039E-05 +3.22812514614E-05 +8.53475149059E-05 +5.69570319541E-06 -6.36190066566E-01 +7.32681497467E-01
1.15500000000E+09 -4.94870689429E-01 +8.15258999535E-01 +9.54233325638E-05 +2.91648514675E-05 +1.37508403287E-04 +5.26202062558E-05 -6.31490890372E-01 +7.36320091964E-01
1.16000000000E+09 -4.90428258163E-01 +8.17217026806E-01 +1.20648761968E-04 +3.83494640889E-05 +1.31710198183E-04 -9.96707296905E-06 -6.26695219653E-01 +7.40191975053E-01
1.16500000000E+09 -4.85320658387E-01 +8.19920962633E-01 +5.15306637599E-05 +8.04396499461E-06 +9.32243074790E-05 -5.51802934016E-06 -6.21734960263E-01 +7.43762946813E-01
1.17000000000E+09 -4.78873947605E-01 +8.23020844446E-01 +9.99175305426E-05 +7.70159834900E-07 +9.50337951980E-05 +5.92086466504E-08 -6.16342581334E-01 +7.47161167155E-01
1.17500000000E+09 -4.71551135878E-01 +8.26463164706E-01 +1.70826529020E-04 -1.79169566483E-05 +2.32305129683E-04 -2.47414066509E-05 -6.10715976771E-01 +7.50268603509E-01
1.18000000000E+09 -4.63881937425E-01 +8.30194523143E-01 +1.44832355549E-04 -3.98481324126E-05 +1.98682436597E-04 -2.14044300912E-05 -6.05344401204E-01 +7.53476707254E-01
1.18500000000E+09 -4.55851605646E-01 +8.33511860597E-01 +1.51055434728E-04 -2.64999908409E-05 +1.65588355350E-04 -8.50463208445E-05 -5.99560923917E-01 +7.56330900074E-01
1.19000000000E+09 -4.48482696007E-01 +8.36247495433E-01 +1.69872964322E-04 -1.49430017499E-04 +1.80830997379E-04 -9.74140708567E-05 -5.93395377848E-01 +7.58969502022E-01
1.19500000000E+09 -4.42112633967E-01 +8.38384769589E-01 +1.43750302187E-04 -1.77547835826E-04 +1.77664109209E-04 -1.50774080793E-04 -5.87639296592E-01 +7.60066512240E-01
1.20000000000E+09 -4.36616482868E-01 +8.39527313185E-01 +1.07544040763E-04 -2.62186269603E-04 +9.47132595666E-05 -2.64383523130E-04 -5.83133827417E-01 +7.60329312512E-01
1.20500000000E+09 -4.31800844236E-01 +8.40958277444E-01 +2.45050431938E-05 -1.98140462960E-04 -2.40851672223E-05 -2.21100647404E-04 -5.80842074191E-01 +7.61321114552E-01
1.21000000000E+09 -4.26859950825E-01 +8.42368696854E-01 -1.55003000406E-06 -1.22031489603E-04 -1.24869611673E-05 -1.26120080388E-04 -5.78847650441E-01 +7.64607211836E-01
1.21500000000E+09 -4.20978120526E-01 +8.44359809203E-01 -1.03155399962E-05 -1.00450100644E-04 +4.24225897852E-05 -1.01097769859E-04 -5.75965088409E-01 +7.69035168247E-01
1.22000000000E+09 -4.14036449300E-01 +8.46405425197E-01 +1.63095543466E-05 -6.61929705907E-05 +5.03750741624E-05 -1.31603555991E-04 -5.71798718331E-01 +7.74450827833E-01
1.22500000000E+09 -4.06078995153E-01 +8.49615773413E-01 +1.86969854386E-05 -1.66762519319E-04 +9.74523529811E-05 -2.07018350321E-04 -5.66562122949E-01 +7.79428596262E-01
1.23000000000E+09 -3.96829059496E-01 +8.52907789578E-01 +6.75915217886E-05 -1.62806777854E-04 +4.59838654638E-05 -1.72451636056E-04 -5.60983318815E-01 +7.84216301707E-01
1.23500000000E+09 -3.87256631607E-01 +8.56646822359E-01 +2.86736729826E-05 -2.09019944871E-04 +6.70842038099E-05 -1.65816374490E-04 -5.55196692998E-01 +7.88428887872E-01
1.24000000000E+09 -3.77724817566E-01 +8.60336675171E-01 +1.39295402349E-06 -2.22984302016E-04 -9.51573969841E-06 -2.54019042488E-04 -5.49298234258E-01 +7.92366363210E-01
1.24500000000E+09 -3.68793869399E-01 +8.64215924018E-01 -2.98163014426E-05 -2.29256452198E-04 -5.64406588462E-05 -2.29414237697E-04 -5.43053481252E-01 +7.96153635767E-01
1.25000000000E+09 -3.60694187638E-01 +8.67351951601E-01 -5.49070966932E-05 -1.96035343880E-04 -6.43708910008E-05 -2.29677134272E-04 -5.36642205987E-01 +8.00297111387E-01
1.25500000000E+09 -3.53697184109E-01 +8.69408715114E-01 -1.18590699729E-04 -2.45598745226E-04 -7.41991373968E-05 -2.24875101892E-04 -5.29860017507E-01 +8.04284304281E-01
1.26000000000E+09 -3.47401780556E-01 +8.70846820127E-01 -1.05520099451E-04 -2.50471813780E-04 -8.18691563465E-05 -2.66076621392E-04 -5.23304046070E-01 +8.08520383353E-01
1.26500000000E+09 -3.41650207358E-01 +8.71978226596E-01 -8.32395357483E-05 -2.85577236856E-04 -1.39711793135E-04 -2.83401296382E-04 -5.16309208334E-01 +8.12299555994E-01
1.27000000000E+09 -3.35280963183E-01 +8.72999736212E-01 -1.55291755500E-04 -3.03351164824E-04 -1.50765859401E-04 -2.81681638893E-04 -5.09496478741E-01 +8.16203860565E-01
1.27500000000E+09 -3.27824103593E-01 +8.74210983628E-01 -2.23963087418E-04 -2.67953069412E-04 -2.59893094923E-04 -2.88642735349E-04 -5.02363657556E-01 +8.19791379895E-01
1.28000000000E+09 -3.18691017634E-01 +8.76007875717E-01 -2.99106065018E-04 -2.10738769845E-04 -2.74887989106E-04 -2.39519978633E-04 -4.95214756694E-01 +8.23417748587E-01
1.28500000000E+09 -3.07771984541E-01 +8.78400717263E-01 -3.22081237284E-04 -2.32911190424E-04 -3.01993921890E-04 -2.73938806265E-04 -4.87863616100E-01 +8.27220891578E-01
1.29000000000E+09 -2.95875670935E-01 +8.81292537871E-01 -2.83218104228E-04 -2.20297495601E-04 -3.46888989676E-04 -2.72841448335E-04 -4.80415825649E-01 +8.30961529147E-01
1.29500000000E+09 -2.83478057435E-01 +8.84725152818E-01 -3.88119319254E-04 -2.46231568237E-04 -4.27073026871E-04 -2.81205070767E-04 -4.72532842448E-01 +8.34515536652E-01
1.30000000000E+09 -2.71303275503E-01 +8.88208943671E-01 -4.65201883135E-04 -2.22075299658E-04 -4.73676806922E-04 -1.57238424985E-04 -4.64660716661E-01 +8.38000780110E-01
1.30500000000E+09 -2.60273775865E-01 +8.91191876339E-01 -4.50141425769E-04 -1.84364130219E-04 -4.90975237191E-04 -1.18368752049E-04 -4.56660157776E-01 +8.41528981737E-01
1.31000000000E+09 -2.50876543379E-01 +8.93327292196E-01 -6.16895604487E-04 -5.83921327695E-05 -5.72033289398E-04 -8.46404882917E-05 -4.48310307868E-01 +8.44981835102E-01
1.31500000000E+09 -2.43325573902E-01 +8.94890554006E-01 -5.29368046674E-04 +1.06173938882E-05 -5.61931226944E-04 +5.45156276034E-05 -4.39593985476E-01 +8.48442567662E-01
1.32000000000E+09 -2.37017983972E-01 +8.95408405442E-01 -5.61061878733E-04 +3.79507084860E-05 -6.01072675983E-04 -1.20923905993E-05 -4.30630733480E-01 +8.51866766160E-01
1.32500000000E+09 -2.31353485700E-01 +8.95509135083E-01 -5.91734556543E-04 +5.54578093685E-05 -6.73453780704E-04 +1.18707000802E-04 -4.21136170135E-01 +8.55037083175E-01
1.33000000000E+09 -2.24607153741E-01 +8.95602676201E-01 -6.89705115598E-04 +1.47688459237E-04 -7.04053836400E-04 +2.41778630660E-04 -4.11615366004E-01 +8.58358499064E-01
1.33500000000E+09 -2.16189655133E-01 +8.95450588232E-01 -7.42223698529E-04 +2.65334311758E-04 -6.92837520909E-04 +2.69749676318E-04 -4.01789797134E-01 +8.61569881453E-01
1.34000000000E+09 -2.05177700065E-01 +8.95706850728E-01 -7.71404373101E-04 +3.86850134436E-04 -6.88739416944E-04 +3.86917595257E-04 -3.91685394061E-01 +8.64812345049E-01
1.34500000000E+09 -1.91667192983E-01 +8.96052888513E-01 -7.19300787839E-04 +5.29706783088E-04 -6.74142982280E-04 +5.12760929410E-04 -3.80814010111E-01 +8.68142231721E-01
1.35000000000E+09 -1.75962052190E-01 +8.96653746961E-01 -6.44650544105E-04 +6.23221462230E-04 -6.32117493495E-04 +6.11597308904E-04 -3.69755461540E-01 +8.71292795147E-01
1.35500000000E+09 -1.59123988416E-01 +8.97352760797E-01 -6.33280366527E-04 +6.45968590479E-04 -6.19724197931E-04 +6.65597209843E-04 -3.58157945690E-01 +8.74231277559E-01
1.36000000000E+09 -1.42158876542E-01 +8.98030176503E-01 -5.31810608731E-04 +7.75884935398E-04 -4.98939659985E-04 +7.57904455833E-04 -3.46298888381E-01 +8.76924499606E-01
1.36500000000E+09 -1.25971735304E-01 +8.98302061299E-01 -5.65568753087E-04 +8.45046628050E-04 -5.26512396327E-04 +8.29350473462E-04 -3.34202323993E-01 +8.79406090058E-01
1.37000000000E+09 -1.11524668541E-01 +8.98015887163E-01 -5.04508991826E-04 +1.06138362319E-03 -5.44208966672E-04 +9.40612153505E-04 -3.21417473473E-01 +8.81887912262E-01
1.37500000000E+09 -9.90390780587E-02 +8.97302556734E-01 -3.52461173330E-04 +1.18259989435E-03 -4.19764759923E-04 +1.12465190582E-03 -3.07667780564E-01 +8.84287552812E-01
1.38000000000E+09 -8.77433987810E-02 +8.96140448377E-01 -2.46392413545E-04 +1.23605022018E-03 -4.27651778753E-04 +1.20133857575E-03 -2.92982335327E-01 +8.86504871815E-01
1.38500000000E+09 -7.63462691968E-02 +8.94423893430E-01 -1.46905598788E-04 +1.35978066734E-03 -2.86094842859E-04 +1.52116032349E-03 -2.77531813080E-01 +8.88499968433E-01
1.39000000000E+09 -6.42699155959E-02 +8.92166917417E-01 -3.77054236971E-05 +1.50113043334E-03 -4.69996431736E-05 +1.72989021597E-03 -2.61747454181E-01 +8.90034236795E-01
1.39500000000E+09 -5.01501151944E-02 +8.89241147433E-01 +1.30291265501E-04 +1.58195073480E-03 +2.97609877366E-04 +1.74754143279E-03 -2.45086513346E-01 +8.90969223449E-01
1.40000000000E+09 -3.33679676668E-02 +8.85388906341E-01 +2.53038943311E-04 +1.74980191565E-03 +4.24757819151E-04 +1.74282931113E-03 -2.27739436053E-01 +8.91432388380E-01
1.40500000000E+09 -1.45172303848E-02 +8.80997051058E-01 +5.41144010126E-04 +1.98239971599E-03 +6.35754602340E-04 +1.87880766716E-03 -2.09180697646E-01 +8.91218389567E-01
1.41000000000E+09 +6.54504527008E-03 +8.75709887458E-01 +9.55885044742E-04 +1.96783516283E-03 +9.03449895727E-04 +1.96116699643E-03 -1.89023915924E-01 +8.90658068353E-01
1.41500000000E+09 +2.89423490138E-02 +8.69732368353E-01 +1.32502436170E-03 +1.96696806670E-03 +1.30428144733E-03 +2.11445432911E-03 -1.67378843598E-01 +8.89414543993E-01
1.42000000000E+09 +5.18880361949E-02 +8.62597143595E-01 +1.71914614118E-03 +1.89716357292E-03 +1.84108310193E-03 +2.09459033702E-03 -1.44333828431E-01 +8.86793683104E-01
1.42500000000E+09 +7.38610634804E-02 +8.54596914915E-01 +1.96528549450E-03 +1.80923390790E-03 +2.32404164636E-03 +1.94987085344E-03 -1.20588612848E-01 +8.83046056605E-01
1.43000000000E+09 +9.53163985155E-02 +8.45333540900E-01 +2.41010001325E-03 +1.84857593415E-03 +2.82177145922E-03 +1.76295395079E-03 -9.58038154684E-02 +8.78339178443E-01
1.43500000000E+09 +1.16157860223E-01 +8.34545444112E-01 +3.14702963399E-03 +1.65157248656E-03 +3.41831935328E-03 +1.39053228929E-03 -6.94174966198E-02 +8.71862940170E-01
1.44000000000E+09 +1.37337720673E-01 +8.22330084406E-01 +3.72605438473E-03 +1.03881758114E-03 +3.85209528486E-03 +7.55234670809E-04 -4.11357935234E-02 +8.63375532580E-01
1.44500000000E+09 +1.60059685485E-01 +8.07222281542E-01 +4.06554968326E-03 +4.42127157612E-04 +4.10891233583E-03 +1.67324476303E-04 -1.06749218920E-02 +8.51964300944E-01
1.45000000000E+09 +1.84381800057E-01 +7.88881390618E-01 +4.18872387661E-03 -1.35051934918E-04 +4.26981134722E-03 -4.17906279800E-04 +2.11335747736E-02 +8.37318045704E-01
1.45500000000E+09 +2.11012484415E-01 +7.66897035748E-01 +4.54265227278E-03 -4.89602748238E-04 +4.50034664996E-03 -8.73172184157E-04 +5.46390033974E-02 +8.20083313141E-01
1.46000000000E+09 +2.40304517034E-01 +7.40844760161E-01 +5.08604839875E-03 -1.12425615490E-03 +4.74554492595E-03 -1.54952115466E-03 +8.96498762434E-02 +7.98139567287E-01
1.46500000000E+09 +2.71285608597E-01 +7.10035593007E-01 +5.84625923340E-03 -2.15949897040E-03 +5.27235637258E-03 -2.34710876208E-03 +1.25636680539E-01 +7.71429880101E-01
1.47000000000E+09 +3.02833722500E-01 +6.74079219024E-01 +6.16248233385E-03 -4.00404157223E-03 +5.65642009781E-03 -3.65125200692E-03 +1.63008106865E-01 +7.37516023759E-01
1.47500000000E+09 +3.33092311584E-01 +6.32834245187E-01 +5.49819935202E-03 -5.99222113881E-03 +5.45422171583E-03 -5.51714089441E-03 +1.99872504554E-01 +6.96120326283E-01
1.48000000000E+09 +3.61001089655E-01 +5.85345745571E-01 +4.42300215240E-03 -7.42419230532E-03 +4.74944819580E-03 -7.38592958320E-03 +2.36230985033E-01 +6.46441217943E-01
1.48500000000E+09 +3.83580284379E-01 +5.30976775686E-01 +3.28199349369E-03 -8.88880221708E-03 +3.26919821732E-03 -9.15946586845E-03 +2.69814416795E-01 +5.87617127189E-01
1.49000000000E+09 +4.00625042794E-01 +4.69788844971E-01 +1.67401750757E-03 -1.04712993069E-02 +1.18443318622E-03 -1.05416313534E-02 +2.98369199540E-01 +5.17803131841E-01
1.49500000000E+09 +4.09523827052E-01 +4.00366136951E-01 -9.44733504489E-04 -1.17671009783E-02 -1.33823836592E-03 -1.11609051815E-02 +3.15952768625E-01 +4.37874556773E-01
1.50000000000E+09 +4.08365939952E-01 +3.22101511369E-01 -4.05032152044E-03 -1.25582240010E-02 -3.82088992282E-03 -1.18245470787E-02 +3.20879745227E-01 +3.49240985675E-01
1.50500000000E+09 +3.93478298751E-01 +2.36069430362E-01 -8.04302921538E-03 -1.19812302161E-02 -7.29380212543E-03 -1.17193246617E-02 +3.09780671203E-01 +2.52786622277E-01
1.51000000000E+09 +3.62591427481E-01 +1.45598670039E-01 -1.14726537373E-02 -9.55528404314E-03 -1.09375835426E-02 -9.84241233742E-03 +2.77875144301E-01 +1.51207685702E-01
1.51500000000E+09 +3.11883902030E-01 +5.50670617824E-02 -1.40168781971E-02 -7.40343753930E-03 -1.39372217717E-02 -7.82867478357E-03 +2.20459611934E-01 +5.48551284340E-02
1.52000000000E+09 +2.41457961233E-01 -2.57825664677E-02 -1.75014542871E-02 -3.52703305213E-03 -1.75848365003E-02 -3.78193676455E-03 +1.44353906916E-01 -2.91726984373E-02
1.52500000000E+09 +1.54673296740E-01 -9.21457027529E-02 -1.81659943248E-02 +3.41192308613E-03 -1.83827877306E-02 +3.33345055301E-03 +5.03679318061E-02 -9.66048669026E-02
1.53000000000E+09 +5.52868436705E-02 -1.37658834264E-01 -1.47747203758E-02 +8.25846773153E-03 -1.49101144724E-02 +8.24159726495E-03 -5.65938335231E-02 -1.40486583095E-01
1.53500000000E+09 -5.18453067898E-02 -1.60126703772E-01 -1.18612601647E-02 +1.13613296455E-02 -1.18674800533E-02 +1.13418127674E-02 -1.66912186952E-01 -1.59853853130E-01
1.54000000000E+09 -1.61261576639E-01 -1.56071950611E-01 -7.80202820504E-03 +1.32490179928E-02 -7.83088550429E-03 +1.30429381500E-02 -2.74440674880E-01 -1.56630171069E-01
1.54500000000E+09 -2.62543965967E-01 -1.28963965091E-01 -4.02188674073E-03 +1.40037607258E-02 -4.27802283027E-03 +1.38030702022E-02 -3.71896988250E-01 -1.34020709524E-01
1.55000000000E+09 -3.53276876926E-01 -8.56891814933E-02 -8.45106897642E-04 +1.37925803086E-02 -1.42086545671E-03 +1.37556937243E-02 -4.57413747930E-01 -9.70462979687E-02
1.55500000000E+09 -4.29854308516E-01 -3.01181544727E-02 +3.19292760260E-03 +1.30919654772E-02 +2.67637955864E-03 +1.35285803771E-02 -5.27688104422E-01 -4.97524317983E-02
1.56000000000E+09 -4.91071312207E-01 +2.90495204159E-02 +5.93938576156E-03 +1.00039931468E-02 +5.78860160199E-03 +1.06605135582E-02 -5.84786220807E-01 +2.84455067849E-03
1.56500000000E+09 -5.39687723710E-01 +8.92661852765E-02 +6.54410625792E-03 +7.68305978459E-03 +6.89448487091E-03 +8.22746211602E-03 -6.28404847289E-01 +5.85627515994E-02
1.57000000000E+09 -5.76491064317E-01 +1.47333679439E-01 +7.06419487490E-03 +5.66668302675E-03 +7.61519238390E-03 +6.02445410443E-03 -6.61488127071E-01 +1.12043957697E-01
