# Hz S RI R 50
! CMT, C1220, 16058040, 17.2.0/1
! Date: 14/08/2018 12:46:28
! Data: Format (Calibration Info)
! Freq                      S11: Re/Im (F2)                       S21: Re/Im (F2)                       S12: Re/Im (F2)                       S22: Re/Im (F2)            
1.00000000000E+09 -6.51348123564E-01 +7.13105485715E-01 +6.81914017126E-06 +3.78749701010E-05 -3.07289087647E-05 +1.35208564575E-05 -7.53781118061E-01 +6.21566216551E-01
1.00500000000E+09 -6.44361278394E-01 +7.17963264373E-01 -1.85367512591E-05 -2.55243707212E-05 +1.69313645333E-06 -8.09467324476E-06 -7.50221231863E-01 +6.25637115200E-01
1.01000000000E+09 -6.38348041518E-01 +7.22563558066E-01 -2.62074552897E-05 +5.65334530301E-06 -4.73615325289E-05 +1.22213384731E-06 -7.46872028916E-01 +6.29088814493E-01
1.01500000000E+09 -6.33887757970E-01 +7.26557925575E-01 -1.86273514981E-05 -3.52797557556E-05 +5.25530420790E-05 +2.69415316520E-05 -7.43822601119E-01 +6.32636462613E-01
1.02000000000E+09 -6.30778145543E-01 +7.29975592612E-01 +4.62515252310E-05 +3.94521852616E-05 -3.25186291717E-05 +2.96820669775E-05 -7.40208087016E-01 +6.36073977246E-01
1.02500000000E+09 -6.28559200434E-01 +7.32837598112E-01 -8.88467803323E-06 +8.10689993705E-06 +3.04140703258E-05 -2.54813914700E-05 -7.37559808468E-01 +6.39806381065E-01
1.03000000000E+09 -6.27070510534E-01 +7.35553231422E-01 -4.00186385504E-06 +4.32890682387E-05 -1.46711529458E-05 -2.28953491398E-05 -7.34129769996E-01 +6.43680964401E-01
1.03500000000E+09 -6.24793950206E-01 +7.37982517622E-01 +2.76730191823E-05 +3.19823275671E-05 -4.25804487293E-05 +2.12125378971E-05 -7.30276444352E-01 +6.47635704274E-01
1.04000000000E+09 -6.21613306104E-01 +7.40863089797E-01 -2.40668828511E-05 -5.60588755483E-06 +1.43288588168E-05 +1.08212861859E-05 -7.26451465597E-01 +6.51241107243E-01
1.04500000000E+09 -6.16763778101E-01 +7.44519749283E-01 -1.91256582326E-05 -1.60446049104E-05 -5.87885602442E-05 +1.78961837732E-05 -7.23009268746E-01 +6.54629712984E-01
1.05000000000E+09 -6.10143583912E-01 +7.48540872983E-01 -5.49140768711E-06 +5.09280964056E-05 -1.79374614729E-05 -1.43559895771E-05 -7.19664267207E-01 +6.58178023570E-01
1.05500000000E+09 -6.02294172829E-01 +7.53146359809E-01 -1.95855148584E-05 +4.02443294836E-05 -9.20556428219E-06 +7.61193421086E-07 -7.16384227781E-01 +6.61768411860E-01
1.06000000000E+09 -5.93846288560E-01 +7.58242452785E-01 +4.30121433325E-05 -9.75204105901E-06 +3.14611421599E-06 -5.45039831257E-06 -7.13109145335E-01 +6.65746030825E-01
1.06500000000E+09 -5.85638663295E-01 +7.63219334685E-01 -4.59727740260E-07 +2.45178176558E-05 -2.39847043716E-05 +1.93690827538E-06 -7.09294074007E-01 +6.69616562911E-01
1.07000000000E+09 -5.78156926243E-01 +7.67543427751E-01 -5.86523121114E-06 -6.43897003637E-06 +1.07186527682E-05 -5.73093737340E-06 -7.04998144328E-01 +6.73270638583E-01
1.07500000000E+09 -5.72361897809E-01 +7.71605650417E-01 +2.20789650550E-05 +9.41140548691E-05 -1.48940744725E-05 +2.69086738161E-05 -7.00908879845E-01 +6.76883665298E-01
1.08000000000E+09 -5.68161560120E-01 +7.74987316903E-01 +2.80344314167E-05 +1.81270040648E-05 +2.19109652344E-05 +1.37372767974E-05 -6.97047675185E-01 +6.80660953775E-01
1.08500000000E+09 -5.65423176161E-01 +7.77468660825E-01 +1.41063190999E-05 +4.58272700379E-06 +3.69308203336E-05 +5.16100254057E-05 -6.93101056819E-01 +6.84139457920E-01
1.09000000000E+09 -5.63282869810E-01 +7.79586580422E-01 -9.33676025597E-06 -2.70389558338E-05 +4.61363843027E-05 +1.54159726713E-05 -6.89612244407E-01 +6.88031416686E-01
1.09500000000E+09 -5.61598866071E-01 +7.81457017909E-01 +1.63285167137E-05 +3.19672967476E-06 +6.80783951239E-06 +1.89865176111E-05 -6.85857407626E-01 +6.92011854755E-01
1.10000000000E+09 -5.59000961127E-01 +7.83448791669E-01 +5.46383294724E-05 +5.85722572827E-05 +3.38060592211E-05 +2.03169076198E-05 -6.81924467168E-01 +6.95725819749E-01
1.10500000000E+09 -5.55301081570E-01 +7.86097935439E-01 +3.54015217328E-05 -1.29706573235E-05 +1.28670845107E-05 +2.42825242511E-05 -6.77744501489E-01 +6.99252039711E-01
1.11000000000E+09 -5.49954167361E-01 +7.89258643739E-01 +5.26784387685E-05 +1.96727566862E-05 +2.67281410687E-05 +3.70888908758E-05 -6.73480669709E-01 +7.02696295950E-01
1.11500000000E+09 -5.43241551951E-01 +7.92982035698E-01 +5.34412145312E-05 +2.06089804441E-05 +1.06989121856E-05 +1.10271196287E-05 -6.69614838405E-01 +7.05876031271E-01
1.12000000000E+09 -5.35718084701E-01 +7.96946463680E-01 +4.61238576431E-05 +4.28969855043E-05 +2.17761932583E-05 +3.11709905879E-05 -6.65572781340E-01 +7.09679745852E-01
1.12500000000E+09 -5.27722618799E-01 +8.00968171272E-01 +6.94543995950E-06 -2.97832539510E-06 +6.78483128441E-05 +2.42256021912E-05 -6.61371558291E-01 +7.13598801798E-01
1.13000000000E+09 -5.20340943910E-01 +8.04751307417E-01 +3.47794722410E-05 +1.71847760278E-05 +7.60554877949E-05 +2.22446304689E-05 -6.56937195524E-01 +7.17419568429E-01
1.13500000000E+09 -5.13656868947E-01 +8.07666348753E-01 +6.59749438683E-05 +3.61553898050E-05 +1.91429795598E-06 +2.90876105999E-05 -6.52198799122E-01 +7.21248756563E-01
1.14000000000E+09 -5.08256890500E-01 +8.10210128503E-01 +9.17417712632E-05 +3.31976150255E-05 +3.62165217589E-05 +1.78642202441E-05 -6.47522162003E-01 +7.24762410889E-01
1.14500000000E+09 -5.03978118708E-01 +8.11907752501E-01 +7.63866204571E-05 -1.03545386943E-06 +6.87977409278E-05 -4.56596649576E-07 -6.42855858718E-01 +7.28225255478E-01
1.15000000000E+09 -5.00332173757E-01 +8.13876839162E-01 +4.15946707955E-05 +1.47193382551E-06 +9.75761706792E-05 -4.83257081562E-05 -6.38273797336E-01 +7.32098538499E-01
1.15500000000E+09 -4.96796584477E-01 +8.15808257980E-01 +5.54546210020E-05 -3.10107910021E-05 +7.55889023823E-05 +2.51037023340E-05 -6.33538842211E-01 +7.35781753874E-01
1.16000000000E+09 -4.92527633884E-01 +8.17915355052E-01 +5.10384738544E-05 -2.99003121004E-05 +3.27914222602E-05 -1.09035656251E-05 -6.28846264417E-01 +7.39687071607E-01
1.16500000000E+09 -4.87233824262E-01 +8.20577007599E-01 +6.04840551387E-05 -1.14210872950E-05 +7.43408012917E-05 +9.80382369814E-06 -6.23841161977E-01 +7.43244970922E-01
1.17000000000E+09 -4.81017087629E-01 +8.23751158152E-01 +8.11923892527E-05 +2.70369671371E-06 +8.69292707550E-05 -2.31888627757E-05 -6.18372455006E-01 +7.46598246453E-01
1.17500000000E+09 -4.73566484954E-01 +8.27268055566E-01 +1.01546720950E-04 -3.43216291881E-05 +1.06333449145E-04 -4.47641325107E-05 -6.12691399131E-01 +7.49731656653E-01
1.18000000000E+09 -4.65804149502E-01 +8.31047378426E-01 +1.27717928260E-04 -2.13195782942E-05 +1.24316718770E-04 -6.35528969482E-05 -6.07381837408E-01 +7.52910646047E-01
1.18500000000E+09 -4.57815177762E-01 +8.34484943246E-01 +1.42617482846E-04 -8.32995995372E-05 +1.23202164305E-04 -1.45894658049E-04 -6.01668625563E-01 +7.55865778128E-01
1.19000000000E+09 -4.50488412349E-01 +8.37289854571E-01 +1.11460300745E-04 -1.04337833234E-04 +1.10979403015E-04 -1.77315511995E-04 -5.95603441377E-01 +7.58408291640E-01
1.19500000000E+09 -4.43894275640E-01 +8.39526138173E-01 +1.10861852968E-04 -1.55856117991E-04 +7.30256844986E-05 -2.08578393127E-04 -5.89736831031E-01 +7.59723451698E-01
1.20000000000E+09 -4.38500157007E-01 +8.40583360964E-01 +3.22847660111E-05 -2.26338635127E-04 +7.68553133094E-05 -2.12115466566E-04 -5.85139975383E-01 +7.60067603590E-01
1.20500000000E+09 -4.33632105571E-01 +8.41878034963E-01 -5.75827440588E-05 -1.44397001436E-04 -6.88184100724E-05 -1.50279553020E-04 -5.82812368009E-01 +7.60828655400E-01
1.21000000000E+09 -4.28880425247E-01 +8.43435725778E-01 -4.08111193070E-05 -1.56724531188E-04 -6.38889231977E-05 -1.26636601791E-04 -5.80867335885E-01 +7.64030985610E-01
1.21500000000E+09 -4.23088093033E-01 +8.45409559478E-01 -1.18323468489E-05 -9.17989706939E-05 -1.93100230907E-05 -1.42858679678E-04 -5.78028618290E-01 +7.68494303530E-01
1.22000000000E+09 -4.16127194330E-01 +8.47657690985E-01 +3.99574818052E-05 -1.21468843567E-04 +1.43891164952E-05 -7.86175472958E-05 -5.74070644451E-01 +7.73898486486E-01
1.22500000000E+09 -4.08081886977E-01 +8.50678293949E-01 +6.80540597367E-06 -1.16301266040E-04 -4.31103920984E-06 -1.56507255037E-04 -5.68958626297E-01 +7.78953215169E-01
1.23000000000E+09 -3.99097478842E-01 +8.54132513949E-01 -1.04670296732E-05 -1.78466563917E-04 +6.56890156734E-06 -1.24795322330E-04 -5.63227430950E-01 +7.83761768112E-01
1.23500000000E+09 -3.89529714028E-01 +8.58014716318E-01 -2.66681601561E-06 -1.49549146627E-04 +2.78703023158E-05 -1.56336859400E-04 -5.57457693237E-01 +7.87868407721E-01
1.24000000000E+09 -3.79933158889E-01 +8.61852182623E-01 -3.71157209421E-05 -1.97058571516E-04 -6.13022725910E-05 -2.17191372134E-04 -5.51546605505E-01 +7.91897590753E-01
1.24500000000E+09 -3.70954177690E-01 +8.65865492121E-01 -5.80013758426E-05 -1.94692195470E-04 -4.47664262835E-05 -1.72594082455E-04 -5.45333376855E-01 +7.95765340236E-01
1.25000000000E+09 -3.62929548916E-01 +8.68868306297E-01 -9.58077546856E-05 -1.67421454500E-04 -9.61970992437E-05 -1.78341719184E-04 -5.38829733379E-01 +7.99960459672E-01
1.25500000000E+09 -3.55882335396E-01 +8.71060124086E-01 -8.66656485919E-05 -1.32133630480E-04 -9.86201917890E-05 -1.69871663647E-04 -5.32215511523E-01 +8.03917308098E-01
1.26000000000E+09 -3.49630717928E-01 +8.72624556222E-01 -8.87971203969E-05 -1.87452356538E-04 -9.18230670814E-05 -1.87008116710E-04 -5.25690677300E-01 +8.08171856559E-01
1.26500000000E+09 -3.43705076343E-01 +8.73797799762E-01 -1.08634066106E-04 -1.87346052644E-04 -1.49879053836E-04 -1.55530614180E-04 -5.18674194835E-01 +8.12031651985E-01
1.27000000000E+09 -3.37390051037E-01 +8.74870415836E-01 -1.51421539112E-04 -1.63053881999E-04 -2.17441725828E-04 -2.01911765420E-04 -5.11741542011E-01 +8.15910307051E-01
1.27500000000E+09 -3.29920480327E-01 +8.76297992255E-01 -2.28850214851E-04 -1.84057991925E-04 -2.26728875834E-04 -1.76270342315E-04 -5.04716710579E-01 +8.19537790020E-01
1.28000000000E+09 -3.20687757141E-01 +8.78072728558E-01 -2.60986363358E-04 -1.40049980066E-04 -2.51094832004E-04 -1.57521700319E-04 -4.97592345612E-01 +8.23159891479E-01
1.28500000000E+09 -3.09803719951E-01 +8.80456429162E-01 -2.83932748121E-04 -1.29744042542E-04 -2.96711399759E-04 -1.74752373610E-04 -4.90061824322E-01 +8.27006245355E-01
1.29000000000E+09 -2.97828602286E-01 +8.83349432033E-01 -3.01452182524E-04 -7.46100128025E-05 -3.52780004796E-04 -1.21884151175E-04 -4.82490403629E-01 +8.30814452063E-01
1.29500000000E+09 -2.85459296369E-01 +8.86785399437E-01 -3.33507121424E-04 -1.35084482955E-04 -3.67063761627E-04 -7.56868775563E-05 -4.74722223107E-01 +8.34340930180E-01
1.30000000000E+09 -2.73406437878E-01 +8.90186333278E-01 -3.94954487982E-04 -8.55908869930E-05 -4.21642285442E-04 -5.00020863597E-05 -4.66785660507E-01 +8.37923641316E-01
1.30500000000E+09 -2.62389804330E-01 +8.93309233408E-01 -4.01679605176E-04 -3.83029405815E-05 -4.41628438327E-04 -1.11676588105E-05 -4.58735342436E-01 +8.41390413023E-01
1.31000000000E+09 -2.52979178759E-01 +8.95481830038E-01 -5.04050274371E-04 +3.91492010265E-05 -4.75392636846E-04 +6.51379974757E-05 -4.50405103182E-01 +8.44829684844E-01
1.31500000000E+09 -2.45581096321E-01 +8.97008359297E-01 -4.51639956344E-04 +9.72835779150E-05 -5.15448141171E-04 +1.40366851705E-04 -4.41690139152E-01 +8.48496691689E-01
1.32000000000E+09 -2.39304560068E-01 +8.97714086796E-01 -4.46704240955E-04 +1.57445062394E-04 -4.93274655955E-04 +1.23384214506E-04 -4.32634488358E-01 +8.51830051170E-01
1.32500000000E+09 -2.33403377816E-01 +8.97877296059E-01 -5.31033589724E-04 +1.48776169856E-04 -5.26026802697E-04 +1.90129939970E-04 -4.23324562341E-01 +8.55168104374E-01
1.33000000000E+09 -2.26731951258E-01 +8.98138660683E-01 -5.42263709309E-04 +2.58665012594E-04 -5.04788785649E-04 +3.10857072493E-04 -4.13783729736E-01 +8.58400895260E-01
1.33500000000E+09 -2.18180530329E-01 +8.98085208154E-01 -5.84569726740E-04 +3.62329388174E-04 -5.05933138895E-04 +4.21165549525E-04 -4.03991514923E-01 +8.61595139186E-01
1.34000000000E+09 -2.06926160307E-01 +8.98254724247E-01 -5.26907643964E-04 +5.05409738484E-04 -4.76439208208E-04 +4.70530430339E-04 -3.93845106569E-01 +8.64863636589E-01
1.34500000000E+09 -1.93397788895E-01 +8.98677538693E-01 -5.04712356332E-04 +6.30082078988E-04 -4.44465007565E-04 +5.63067735855E-04 -3.82920204735E-01 +8.68093910021E-01
1.35000000000E+09 -1.77728234803E-01 +8.99347107213E-01 -3.71740675385E-04 +6.18616806827E-04 -3.52731224707E-04 +6.12528139511E-04 -3.71857831714E-01 +8.71272971280E-01
1.35500000000E+09 -1.60831577878E-01 +9.00074103415E-01 -3.21022384363E-04 +6.84378367946E-04 -3.50724429860E-04 +6.89776848542E-04 -3.60138414393E-01 +8.74153112894E-01
1.36000000000E+09 -1.43990507654E-01 +9.00757146439E-01 -3.08462133220E-04 +7.51107311727E-04 -2.82568950760E-04 +7.72060241435E-04 -3.48453315057E-01 +8.76992978955E-01
1.36500000000E+09 -1.27832121840E-01 +9.00908244684E-01 -2.80655089442E-04 +8.91077180593E-04 -2.34630353455E-04 +8.24488898085E-04 -3.36235261328E-01 +8.79412204790E-01
1.37000000000E+09 -1.13400977463E-01 +9.00679011562E-01 -1.15471838008E-04 +9.98922050009E-04 -2.24310895159E-04 +8.88063288055E-04 -3.23440916214E-01 +8.81932634765E-01
1.37500000000E+09 -1.00872426119E-01 +9.00151906485E-01 -5.95680684787E-06 +1.00659414715E-03 -9.10095123606E-05 +9.97581049670E-04 -3.09495396679E-01 +8.84295097569E-01
1.38000000000E+09 -8.95246153363E-02 +8.99185121801E-01 +9.29449257756E-05 +1.04664600317E-03 -7.40650238145E-05 +1.11009123772E-03 -2.94767684074E-01 +8.86430021477E-01
1.38500000000E+09 -7.80270207870E-02 +8.97648475430E-01 +1.71563148514E-04 +1.13082989815E-03 +8.07328612845E-05 +1.31016706152E-03 -2.79207840860E-01 +8.88433140059E-01
1.39000000000E+09 -6.57257689045E-02 +8.95400113381E-01 +3.08842128322E-04 +1.23312752735E-03 +3.67740682178E-04 +1.45287435315E-03 -2.63429038710E-01 +8.89969066984E-01
1.39500000000E+09 -5.13809678299E-02 +8.92567144303E-01 +4.86254211488E-04 +1.27074782855E-03 +6.52414109743E-04 +1.36355358343E-03 -2.46842790602E-01 +8.90616602864E-01
1.40000000000E+09 -3.44429254973E-02 +8.88737742567E-01 +7.10324129936E-04 +1.36709061148E-03 +8.75462630507E-04 +1.32872432374E-03 -2.29451304177E-01 +8.91079090390E-01
1.40500000000E+09 -1.52945605230E-02 +8.84125209943E-01 +9.55992141483E-04 +1.38369612909E-03 +1.02641023213E-03 +1.32335017437E-03 -2.11017906463E-01 +8.91041893148E-01
1.41000000000E+09 +5.80835197720E-03 +8.78829971878E-01 +1.23306770674E-03 +1.31934838731E-03 +1.26712764729E-03 +1.32104909148E-03 -1.90792744128E-01 +8.90417205870E-01
1.41500000000E+09 +2.82554514078E-02 +8.72710809870E-01 +1.54278018432E-03 +1.26340970434E-03 +1.57851101537E-03 +1.37637455138E-03 -1.69246887966E-01 +8.89022866093E-01
1.42000000000E+09 +5.09489488110E-02 +8.65584576973E-01 +1.77190867237E-03 +1.08202388852E-03 +1.90779903622E-03 +1.16466169145E-03 -1.46128166669E-01 +8.86243259842E-01
1.42500000000E+09 +7.29249183879E-02 +8.57612148062E-01 +2.01294425743E-03 +1.04552109850E-03 +2.28262662256E-03 +1.05475505435E-03 -1.22509110736E-01 +8.82539346129E-01
1.43000000000E+09 +9.42037175167E-02 +8.48344697880E-01 +2.48189114183E-03 +9.50926204249E-04 +2.77950921153E-03 +7.35914496050E-04 -9.80284663345E-02 +8.77766104506E-01
1.43500000000E+09 +1.14802667419E-01 +8.37356401972E-01 +3.08634101429E-03 +4.74942461899E-04 +3.20341083101E-03 +2.46703369232E-04 -7.17547672418E-02 +8.71267755297E-01
1.44000000000E+09 +1.35752545461E-01 +8.25312653017E-01 +3.39566180648E-03 -2.43664730062E-04 +3.36813905421E-03 -4.85589684403E-04 -4.37288376721E-02 +8.62576497394E-01
1.44500000000E+09 +1.58597530198E-01 +8.10327667546E-01 +3.34614988498E-03 -9.67805090494E-04 +3.30595356355E-03 -1.07759821147E-03 -1.36174250311E-02 +8.51142709975E-01
1.45000000000E+09 +1.82815416398E-01 +7.91899204739E-01 +3.20120470471E-03 -1.34918282322E-03 +3.17997085359E-03 -1.57837550963E-03 +1.79668105796E-02 +8.36695094848E-01
1.45500000000E+09 +2.09404527757E-01 +7.69920359231E-01 +3.31926515821E-03 -1.62906261112E-03 +3.18666035476E-03 -1.91329112530E-03 +5.12511647242E-02 +8.19582856696E-01
1.46000000000E+09 +2.38744756866E-01 +7.44033914090E-01 +3.72602606187E-03 -2.20322892853E-03 +3.35584366126E-03 -2.46294266622E-03 +8.58328680836E-02 +7.97804923098E-01
1.46500000000E+09 +2.69353765389E-01 +7.13016371772E-01 +4.04361554518E-03 -3.35633674533E-03 +3.54142807306E-03 -3.28139080348E-03 +1.21500044088E-01 +7.71354385684E-01
1.47000000000E+09 +3.00616918935E-01 +6.77499076055E-01 +3.72375873964E-03 -4.93422872919E-03 +3.38047963260E-03 -4.58530667080E-03 +1.58200382276E-01 +7.37753804575E-01
1.47500000000E+09 +3.30857138636E-01 +6.36542630139E-01 +2.55367989296E-03 -6.27018772241E-03 +2.66995320908E-03 -5.94868599958E-03 +1.94629252320E-01 +6.97457467584E-01
1.48000000000E+09 +3.58582626483E-01 +5.89459601486E-01 +1.30850037381E-03 -7.09066792956E-03 +1.52235483624E-03 -7.14670135841E-03 +2.31009302732E-01 +6.48500145678E-01
1.48500000000E+09 +3.81200137540E-01 +5.35699584801E-01 -9.09159195106E-05 -7.92802302999E-03 -2.14336116092E-04 -8.15335951814E-03 +2.64504225085E-01 +5.90854249415E-01
1.49000000000E+09 +3.98324634945E-01 +4.74865590662E-01 -1.82065526706E-03 -8.63878040669E-03 -2.26735888113E-03 -8.56231028594E-03 +2.93164663404E-01 +5.22302728617E-01
1.49500000000E+09 +4.07033157216E-01 +4.06220951694E-01 -4.45103734326E-03 -8.76973422954E-03 -4.65596590842E-03 -8.20452325962E-03 +3.11544173380E-01 +4.44090235462E-01
1.50000000000E+09 +4.06458907661E-01 +3.28898185441E-01 -6.99236149995E-03 -8.15400751598E-03 -6.62723936472E-03 -7.67045045140E-03 +3.17909735110E-01 +3.57040422633E-01
1.50500000000E+09 +3.92372437541E-01 +2.43518431980E-01 -9.57770392668E-03 -6.59469188559E-03 -9.00637092127E-03 -6.58306823614E-03 +3.09319765496E-01 +2.61675634516E-01
1.51000000000E+09 +3.62511576895E-01 +1.54128711455E-01 -1.15960900411E-02 -3.70934359668E-03 -1.13282530667E-02 -4.04265897544E-03 +2.79457235551E-01 +1.60080323230E-01
1.51500000000E+09 +3.13978811745E-01 +6.38878750394E-02 -1.27666908468E-02 -1.03157631050E-03 -1.27961313875E-02 -1.39204790037E-03 +2.25559045247E-01 +6.40321465243E-02
1.52000000000E+09 +2.45291284526E-01 -1.80062069842E-02 -1.39626315086E-02 +2.58302144645E-03 -1.40971392592E-02 +2.45512498060E-03 +1.52636856931E-01 -2.23891535021E-02
1.52500000000E+09 +1.59995458895E-01 -8.50313895850E-02 -1.24684797138E-02 +8.28969739413E-03 -1.25862295944E-02 +8.22279798885E-03 +6.02703447396E-02 -9.30517786238E-02
1.53000000000E+09 +6.16535854035E-02 -1.32412607581E-01 -8.02552381858E-03 +1.04466850213E-02 -8.09802478956E-03 +1.04581367466E-02 -4.59030392008E-02 -1.39891144821E-01
1.53500000000E+09 -4.51338451177E-02 -1.55951087382E-01 -5.31477426382E-03 +1.18176212079E-02 -5.29857769384E-03 +1.17402622866E-02 -1.56580805661E-01 -1.63029549163E-01
1.54000000000E+09 -1.53664659845E-01 -1.53510350619E-01 -1.89874999553E-03 +1.18937335902E-02 -1.96743405725E-03 +1.17757020324E-02 -2.65664431295E-01 -1.62253632690E-01
1.54500000000E+09 -2.54803909922E-01 -1.28863438918E-01 +1.43292339074E-03 +1.15895285951E-02 +1.13241132153E-03 +1.15242114346E-02 -3.65285841072E-01 -1.42078621276E-01
1.55000000000E+09 -3.46909132222E-01 -8.72783972079E-02 +3.58320535481E-03 +1.01336413866E-02 +3.14377578831E-03 +1.02599818073E-02 -4.53379685103E-01 -1.06028032592E-01
1.55500000000E+09 -4.25013901694E-01 -3.26981493894E-02 +6.20698092961E-03 +8.40302304105E-03 +5.94131315256E-03 +8.88814443160E-03 -5.26099200763E-01 -5.90674503403E-02
1.56000000000E+09 -4.87150772872E-01 +2.61025040562E-02 +7.26437701607E-03 +5.34759075535E-03 +7.37861807069E-03 +5.89778292395E-03 -5.85242918684E-01 -5.97490539750E-03
1.56500000000E+09 -5.36956294912E-01 +8.56435308456E-02 +6.94430709047E-03 +3.48709738533E-03 +7.26381716484E-03 +3.88270040842E-03 -6.30537991865E-01 +5.04026533906E-02
1.57000000000E+09 -5.74741174655E-01 +1.44011993741E-01 +6.77342801657E-03 +1.94630431638E-03 +7.19747847278E-03 +2.08478999923E-03 -6.64914478346E-01 +1.04889781524E-01
