# Hz S RI R 50
! CMT, C1220, 16058040, 17.2.0/1
! Date: 14/08/2018 12:47:05
! Data: Format (Calibration Info)
! Freq                      S11: Re/Im (F2)                       S21: Re/Im (F2)                       S12: Re/Im (F2)                       S22: Re/Im (F2)            
1.00000000000E+09 -6.51310493689E-01 +7.13288594579E-01 +9.53070069427E-06 -1.12155856571E-05 +9.45679797515E-06 -1.67180364041E-08 -7.53924090443E-01 +6.21539503825E-01
1.00500000000E+09 -6.44323287633E-01 +7.18299317156E-01 -2.57698583602E-05 -1.30312974864E-05 +1.14612601538E-05 -5.09032516286E-05 -7.50260757254E-01 +6.25585330256E-01
1.01000000000E+09 -6.38307473871E-01 +7.22927003630E-01 -1.52439562159E-05 -2.72774129140E-06 -1.84126197615E-05 +9.98218300807E-06 -7.46800042607E-01 +6.29022206635E-01
1.01500000000E+09 -6.33947914022E-01 +7.26800101868E-01 -1.58251521604E-07 +5.49984702368E-07 -7.56508192436E-06 +3.37778768943E-05 -7.43740610138E-01 +6.32740976090E-01
1.02000000000E+09 -6.30927823739E-01 +7.30146846559E-01 +1.35537563441E-05 +2.33177253338E-05 -6.38148215837E-05 +6.22135461851E-05 -7.40475302609E-01 +6.36176820606E-01
1.02500000000E+09 -6.28857515317E-01 +7.33065259343E-01 -1.08725362026E-05 -1.03657775995E-05 +5.92311863564E-05 -1.72021479725E-05 -7.37608802025E-01 +6.39820126841E-01
1.03000000000E+09 -6.27335200728E-01 +7.35660728102E-01 +3.60047583103E-05 -1.90125577406E-05 -6.13767283783E-06 +9.28929928552E-06 -7.33979590852E-01 +6.43732602655E-01
1.03500000000E+09 -6.25340546172E-01 +7.38052519901E-01 +6.12525726329E-05 +1.75922560179E-05 +5.65379083257E-05 +2.34011586129E-05 -7.30378673403E-01 +6.47666061794E-01
1.04000000000E+09 -6.21881703551E-01 +7.40942581543E-01 +2.21854208483E-06 +3.08642295001E-05 +1.93350047446E-05 +1.97064411945E-05 -7.26596547730E-01 +6.51408651935E-01
1.04500000000E+09 -6.16993064829E-01 +7.44485265278E-01 -1.10702269976E-05 +8.85831809675E-05 +5.70514450133E-05 -3.57625892237E-06 -7.22938303146E-01 +6.54847479642E-01
1.05000000000E+09 -6.10420959140E-01 +7.48662319579E-01 +4.35267960025E-05 +3.09322010723E-05 +9.18879249602E-06 +1.62830624500E-05 -7.19707577304E-01 +6.58209123819E-01
1.05500000000E+09 -6.02635116485E-01 +7.53286990188E-01 +3.50150837679E-05 +1.41577946178E-05 +4.20884250141E-06 +5.99036159294E-05 -7.16336351517E-01 +6.61879301116E-01
1.06000000000E+09 -5.93836897726E-01 +7.58425776049E-01 -2.17219309476E-05 +8.61071961694E-06 +3.57025188087E-05 +4.02848288321E-05 -7.13050472571E-01 +6.65739172308E-01
1.06500000000E+09 -5.85714352465E-01 +7.63384073863E-01 +2.57739253151E-05 +5.30280174535E-05 -4.80459575325E-05 +3.09777651357E-05 -7.09210351433E-01 +6.69598362641E-01
1.07000000000E+09 -5.78271314680E-01 +7.67818824681E-01 -3.13068065967E-05 -1.22958483372E-05 +1.83622368069E-05 +6.01473201730E-05 -7.05116994980E-01 +6.73241641867E-01
1.07500000000E+09 -5.72440621661E-01 +7.71657892744E-01 +4.20539998483E-05 -1.24376860000E-05 -1.16836370390E-05 +6.63132482249E-05 -7.00914185736E-01 +6.76968814622E-01
1.08000000000E+09 -5.68294644104E-01 +7.75063652704E-01 -9.52166393369E-06 +2.51984861862E-05 +4.33748913013E-05 +2.16000853488E-05 -6.96985526508E-01 +6.80703632493E-01
1.08500000000E+09 -5.65710756965E-01 +7.77580741028E-01 +2.02159594309E-05 +6.35438783571E-05 +1.94612355744E-05 +2.17762033997E-05 -6.93432971427E-01 +6.84332217849E-01
1.09000000000E+09 -5.63681685790E-01 +7.79484329675E-01 +1.29844580636E-05 +2.84919717940E-05 +9.47364024721E-06 +7.51040999239E-05 -6.89513198785E-01 +6.88028625557E-01
1.09500000000E+09 -5.62147469572E-01 +7.81433052535E-01 +2.17404834736E-05 +3.39444866720E-05 +2.21603826997E-05 +3.72637318432E-07 -6.85883921728E-01 +6.92004772194E-01
1.10000000000E+09 -5.59346506472E-01 +7.83600453275E-01 +1.48418023453E-05 +2.72533468220E-05 +4.21382446648E-05 +4.05093718744E-05 -6.81971363430E-01 +6.95887038108E-01
1.10500000000E+09 -5.55551042550E-01 +7.86037147566E-01 -3.69976113175E-05 +4.44631639416E-05 +4.40571509922E-05 -2.20918306820E-06 -6.77567913394E-01 +6.99214123684E-01
1.11000000000E+09 -5.50209885938E-01 +7.89309764213E-01 +1.45882926832E-05 +7.35069026911E-05 -6.62854729116E-06 +3.96097195263E-05 -6.73447071511E-01 +7.02583335033E-01
1.11500000000E+09 -5.43341774041E-01 +7.92935665035E-01 +5.07454782401E-05 +6.43956326241E-05 +2.00644254676E-05 +4.14136355954E-05 -6.69491546572E-01 +7.05972681425E-01
1.12000000000E+09 -5.35919849874E-01 +7.96914324844E-01 +6.64931740496E-05 -1.28103804108E-05 +3.66832261945E-05 +3.07467640416E-05 -6.65586920975E-01 +7.09495843079E-01
1.12500000000E+09 -5.27943425394E-01 +8.00962924192E-01 +3.05054983465E-05 +3.70836395924E-05 +4.04048049129E-05 +3.44081718538E-05 -6.61384972475E-01 +7.13567623759E-01
1.13000000000E+09 -5.20473591921E-01 +8.04741701537E-01 +1.52104182763E-05 +2.91410703333E-05 +7.13149323431E-05 +7.78459272534E-06 -6.57008441844E-01 +7.17450827087E-01
1.13500000000E+09 -5.13857046719E-01 +8.07623771142E-01 +9.39303832771E-05 +5.35805425076E-07 +6.05356256324E-05 +2.18620119702E-05 -6.52293954075E-01 +7.21334248084E-01
1.14000000000E+09 -5.08464632472E-01 +8.10148854647E-01 +9.75499922368E-05 +4.62249734203E-05 +6.15182557139E-05 -2.28713495100E-05 -6.47486550378E-01 +7.24840466922E-01
1.14500000000E+09 -5.04295113131E-01 +8.12017064624E-01 +9.40994743213E-05 -1.55540695170E-05 +1.00543891444E-04 -1.41430094322E-05 -6.42842024364E-01 +7.28353247414E-01
1.15000000000E+09 -5.00605385349E-01 +8.13676209865E-01 +9.43986808849E-05 +9.51206475486E-07 +7.76304420366E-05 -1.52791736640E-05 -6.38344978166E-01 +7.32087621708E-01
1.15500000000E+09 -4.97090496426E-01 +8.15610369642E-01 +8.56550942728E-05 +6.66376433837E-06 +8.02627976286E-05 +2.34672161256E-05 -6.33638356158E-01 +7.35932292787E-01
1.16000000000E+09 -4.92764892211E-01 +8.17739986667E-01 +9.26367685686E-05 +2.25198327154E-05 +5.06852375431E-05 +9.95799512122E-06 -6.28739995735E-01 +7.39676255560E-01
1.16500000000E+09 -4.87491684129E-01 +8.20656070063E-01 +6.04473031620E-05 -1.75939771941E-06 +8.92149247234E-05 -1.35213574144E-05 -6.23784731414E-01 +7.43299868305E-01
1.17000000000E+09 -4.81273988371E-01 +8.23865273418E-01 +7.83138444077E-05 -1.24169530489E-05 +1.11742888339E-04 -1.10689632234E-05 -6.18323382092E-01 +7.46730323096E-01
1.17500000000E+09 -4.73847925685E-01 +8.27305319062E-01 +1.47311716210E-04 -3.91976112575E-05 +1.41358436405E-04 +4.74775526042E-05 -6.12852222592E-01 +7.49857129781E-01
1.18000000000E+09 -4.66210865314E-01 +8.31038301879E-01 +1.32830169302E-04 -5.92968095720E-05 +1.25275075035E-04 -9.04948407486E-05 -6.07501926340E-01 +7.52826116781E-01
1.18500000000E+09 -4.58206569989E-01 +8.34410143114E-01 +1.39610328547E-04 -7.11396186180E-05 +1.66977974322E-04 -8.31794159611E-05 -6.01569709034E-01 +7.55853756246E-01
1.19000000000E+09 -4.50892882329E-01 +8.37166573929E-01 +1.45735923336E-04 -8.97070697522E-05 +1.49059408603E-04 -1.51377071636E-04 -5.95590087873E-01 +7.58444513572E-01
1.19500000000E+09 -4.44384271717E-01 +8.39327473484E-01 +1.29707103108E-04 -2.51655953093E-04 +1.63036500406E-04 -1.83594206181E-04 -5.89760248728E-01 +7.59830611834E-01
1.20000000000E+09 -4.39041666174E-01 +8.40256928345E-01 +3.52836609825E-05 -2.18960654224E-04 +1.62797676731E-05 -2.77266671170E-04 -5.85244647142E-01 +7.59989747433E-01
1.20500000000E+09 -4.34373022375E-01 +8.41637096629E-01 +7.30990206747E-07 -2.06596060563E-04 -7.84884284533E-05 -1.73832559354E-04 -5.82735577840E-01 +7.60946874809E-01
1.21000000000E+09 -4.29703609076E-01 +8.43199719211E-01 -5.97064551520E-05 -1.04263352706E-04 -7.31510746299E-05 -8.62130640621E-05 -5.80869378855E-01 +7.63976740047E-01
1.21500000000E+09 -4.23728792241E-01 +8.45211780460E-01 -3.25957646445E-05 -1.24888608158E-04 -5.59454699876E-05 -9.54737065957E-05 -5.78017373675E-01 +7.68592120618E-01
1.22000000000E+09 -4.16787254943E-01 +8.47630682480E-01 -1.08505974170E-06 -1.12022227869E-04 +1.24315847275E-05 -1.70011811466E-04 -5.73992121821E-01 +7.73902140254E-01
1.22500000000E+09 -4.08580665743E-01 +8.50633516915E-01 +8.16817346908E-06 -1.47424895577E-04 -7.94554672194E-06 -1.92590423137E-04 -5.68879701438E-01 +7.79088041502E-01
1.23000000000E+09 -3.99451979353E-01 +8.54156001255E-01 -1.79355267598E-06 -2.03580026904E-04 -1.58877688777E-05 -1.73392594072E-04 -5.63356366931E-01 +7.83844416080E-01
1.23500000000E+09 -3.89972612231E-01 +8.57987864602E-01 +8.68908388983E-06 -1.71558117882E-04 -1.75697648812E-05 -1.42310712047E-04 -5.57338528495E-01 +7.87999830119E-01
1.24000000000E+09 -3.80452839188E-01 +8.61891706889E-01 -6.80977331997E-05 -1.66838394098E-04 -5.16362386116E-05 -2.03832101735E-04 -5.51512610283E-01 +7.91912558041E-01
1.24500000000E+09 -3.71574329316E-01 +8.65775564403E-01 -6.77094613819E-05 -2.04762511065E-04 -6.26792491033E-05 -2.04473408264E-04 -5.45397772526E-01 +7.95663379772E-01
1.25000000000E+09 -3.63557687414E-01 +8.68992823511E-01 -1.07959751052E-04 -1.80272503324E-04 -5.71300766427E-05 -1.80078049662E-04 -5.38880636856E-01 +8.00027853508E-01
1.25500000000E+09 -3.56585923573E-01 +8.70998918954E-01 -9.86819132415E-05 -1.59219674398E-04 -6.92669228249E-05 -2.40448193047E-04 -5.32114028047E-01 +8.03884077168E-01
1.26000000000E+09 -3.50497795234E-01 +8.72562820344E-01 -1.00378793351E-04 -2.01920969559E-04 -1.42440217448E-04 -2.66274838264E-04 -5.25618365247E-01 +8.08258617413E-01
1.26500000000E+09 -3.44613320169E-01 +8.73700525233E-01 -1.70642082728E-04 -2.80031177121E-04 -1.66322058529E-04 -2.27875094433E-04 -5.18780078070E-01 +8.12070242149E-01
1.27000000000E+09 -3.38232142291E-01 +8.74792987162E-01 -1.82527246403E-04 -2.31399003944E-04 -2.30562980665E-04 -2.47585695597E-04 -5.11828703848E-01 +8.15966071932E-01
1.27500000000E+09 -3.30685762885E-01 +8.76077439212E-01 -2.37236262777E-04 -2.07017108119E-04 -2.43220584897E-04 -2.51832648091E-04 -5.04653604425E-01 +8.19556178515E-01
1.28000000000E+09 -3.21529637878E-01 +8.78134507651E-01 -2.61526511730E-04 -1.43505185985E-04 -3.29698790236E-04 -1.71828017262E-04 -4.97549892527E-01 +8.23181158387E-01
1.28500000000E+09 -3.10542357436E-01 +8.80546627987E-01 -3.18014693267E-04 -1.06826085790E-04 -3.02498050892E-04 -1.61579943660E-04 -4.90157297926E-01 +8.26964895394E-01
1.29000000000E+09 -2.98515760409E-01 +8.83410343513E-01 -3.25211936227E-04 -1.80502370685E-04 -3.76811938679E-04 -1.41162383833E-04 -4.82595645183E-01 +8.30696427842E-01
1.29500000000E+09 -2.86126253281E-01 +8.86811309664E-01 -3.86846182902E-04 -1.47637584815E-04 -3.67072105820E-04 -1.35920723117E-04 -4.74631168483E-01 +8.34277987232E-01
1.30000000000E+09 -2.74034952515E-01 +8.90257587218E-01 -4.34624301220E-04 -6.61118461817E-05 -4.64647000823E-04 -2.78228150225E-05 -4.66776183851E-01 +8.37888795326E-01
1.30500000000E+09 -2.63198528641E-01 +8.93374757044E-01 -4.48849841115E-04 -5.33033230885E-05 -4.55405379383E-04 -1.50184583529E-05 -4.58701272556E-01 +8.41279216019E-01
1.31000000000E+09 -2.53943864658E-01 +8.95565895706E-01 -5.11347501820E-04 +1.01879330942E-05 -4.79981711560E-04 +5.81230727923E-05 -4.50454172360E-01 +8.44845290947E-01
1.31500000000E+09 -2.46573299803E-01 +8.96930454782E-01 -5.15607497260E-04 +1.48211245070E-04 -4.87326991832E-04 +8.29434441760E-05 -4.41740412049E-01 +8.48388706754E-01
1.32000000000E+09 -2.40347682462E-01 +8.97799638140E-01 -5.30107156937E-04 +1.50628195577E-04 -4.67349329864E-04 +1.06692600654E-04 -4.32613212542E-01 +8.51833232798E-01
1.32500000000E+09 -2.34551231986E-01 +8.97930425583E-01 -5.49912631397E-04 +1.39231430159E-04 -5.88927731812E-04 +1.46380670934E-04 -4.23477698835E-01 +8.55203293946E-01
1.33000000000E+09 -2.27838654316E-01 +8.98121368725E-01 -5.68185424161E-04 +2.27129723128E-04 -5.84676028479E-04 +2.22667878161E-04 -4.13957012908E-01 +8.58419668481E-01
1.33500000000E+09 -2.19213168782E-01 +8.98208697860E-01 -6.34326833499E-04 +3.74946494436E-04 -6.22616836001E-04 +3.85102590578E-04 -4.04118755278E-01 +8.61574508842E-01
1.34000000000E+09 -2.07998286527E-01 +8.98535216932E-01 -6.25317244853E-04 +5.22740602318E-04 -5.57532574109E-04 +4.81749275188E-04 -3.93925202564E-01 +8.64922289372E-01
1.34500000000E+09 -1.94296618022E-01 +8.98844081015E-01 -5.46897275406E-04 +6.31961000038E-04 -5.13176938726E-04 +5.99644036660E-04 -3.83159870733E-01 +8.68205779095E-01
1.35000000000E+09 -1.78460602549E-01 +8.99592074301E-01 -4.38169960373E-04 +6.44799527002E-04 -4.60900709175E-04 +6.31398731639E-04 -3.71946315057E-01 +8.71368935369E-01
1.35500000000E+09 -1.61694727558E-01 +9.00378991838E-01 -3.95942050340E-04 +6.81582092762E-04 -4.30463471554E-04 +6.83692149238E-04 -3.60345701699E-01 +8.74268127729E-01
1.36000000000E+09 -1.44806908287E-01 +9.01161608863E-01 -3.66082212147E-04 +7.66224105023E-04 -3.20391228854E-04 +7.91568184254E-04 -3.48627975218E-01 +8.77041074420E-01
1.36500000000E+09 -1.28767847818E-01 +9.01547362163E-01 -3.29235038605E-04 +8.60395929200E-04 -3.20331617880E-04 +8.48497040832E-04 -3.36449204271E-01 +8.79563829811E-01
1.37000000000E+09 -1.14366765543E-01 +9.01358068127E-01 -2.68486921844E-04 +1.04707500439E-03 -3.29187199448E-04 +9.63727170592E-04 -3.23610606366E-01 +8.82114145536E-01
1.37500000000E+09 -1.02094989897E-01 +9.00773574626E-01 -5.18228592075E-05 +1.11430951173E-03 -2.10872918237E-04 +1.05075277216E-03 -3.09672254201E-01 +8.84480164336E-01
1.38000000000E+09 -9.08116072249E-02 +8.99814667347E-01 -6.07348031274E-06 +1.11918979046E-03 -1.59034212222E-04 +1.17724841616E-03 -2.95015149588E-01 +8.86689601068E-01
1.38500000000E+09 -7.92377230474E-02 +8.98374572175E-01 +1.28983757329E-04 +1.22887899970E-03 -9.06246333929E-06 +1.40163172235E-03 -2.79455106315E-01 +8.88742700862E-01
1.39000000000E+09 -6.68766052555E-02 +8.96187278180E-01 +2.11425058898E-04 +1.29806031198E-03 +2.67101995410E-04 +1.47740169235E-03 -2.63608849090E-01 +8.90137911539E-01
1.39500000000E+09 -5.24422937357E-02 +8.93372782325E-01 +4.00796871830E-04 +1.37441863817E-03 +5.54831224192E-04 +1.47850907772E-03 -2.47059752929E-01 +8.90990515085E-01
1.40000000000E+09 -3.53392063420E-02 +8.89664102021E-01 +5.62456184608E-04 +1.49851757942E-03 +6.84639012606E-04 +1.47371838824E-03 -2.29587171945E-01 +8.91367782226E-01
1.40500000000E+09 -1.60750912742E-02 +8.85285285522E-01 +8.60745406672E-04 +1.66198422189E-03 +9.58791005345E-04 +1.50936419714E-03 -2.11149235786E-01 +8.91349443517E-01
1.41000000000E+09 +5.33347128744E-03 +8.80052163046E-01 +1.23030520211E-03 +1.59294193548E-03 +1.19889633093E-03 +1.55802787012E-03 -1.90892704428E-01 +8.90825348175E-01
1.41500000000E+09 +2.76312625099E-02 +8.74054380374E-01 +1.51256093118E-03 +1.48190659408E-03 +1.52333930800E-03 +1.61715007882E-03 -1.69196019644E-01 +8.89441687612E-01
1.42000000000E+09 +5.04498423468E-02 +8.67108867213E-01 +1.80744568287E-03 +1.36715318686E-03 +1.89958741021E-03 +1.53127499553E-03 -1.46244109372E-01 +8.86882118103E-01
1.42500000000E+09 +7.24472207063E-02 +8.59172029816E-01 +2.01898325154E-03 +1.29390713846E-03 +2.28705871508E-03 +1.35027357438E-03 -1.22570101882E-01 +8.83174039948E-01
1.43000000000E+09 +9.37991179231E-02 +8.50129622006E-01 +2.48220380359E-03 +1.29217463943E-03 +2.79950410733E-03 +1.19365620319E-03 -9.78071161547E-02 +8.78454481628E-01
1.43500000000E+09 +1.14457528384E-01 +8.39345668224E-01 +3.17072914252E-03 +9.39143003389E-04 +3.37526305638E-03 +6.76451897990E-04 -7.14254203596E-02 +8.71863229714E-01
1.44000000000E+09 +1.35657082160E-01 +8.27372901454E-01 +3.57546211976E-03 +2.15663283054E-04 +3.60603857953E-03 +1.36678243487E-05 -4.32871791650E-02 +8.63298949791E-01
1.44500000000E+09 +1.58751447525E-01 +8.12418706151E-01 +3.73563029099E-03 -4.12064635267E-04 +3.76324855082E-03 -6.31927777629E-04 -1.29941791731E-02 +8.51860134833E-01
1.45000000000E+09 +1.83475307557E-01 +7.93981177726E-01 +3.68363529713E-03 -9.81021924880E-04 +3.71803493450E-03 -1.21933689583E-03 +1.87608053530E-02 +8.37359857669E-01
1.45500000000E+09 +2.10546015360E-01 +7.71952516144E-01 +3.88372842210E-03 -1.28150478613E-03 +3.79843807523E-03 -1.61268800958E-03 +5.21593177765E-02 +8.20123495867E-01
1.46000000000E+09 +2.40315830967E-01 +7.45827407622E-01 +4.32835632741E-03 -1.94694234949E-03 +3.97313254769E-03 -2.21424229794E-03 +8.69027300894E-02 +7.98205653324E-01
1.46500000000E+09 +2.71545641134E-01 +7.14980736352E-01 +4.74665714573E-03 -2.93153919531E-03 +4.19022915422E-03 -2.99973086598E-03 +1.22860784801E-01 +7.71648968299E-01
1.47000000000E+09 +3.03534398397E-01 +6.79289006403E-01 +4.77344678739E-03 -4.63180543699E-03 +4.39873744947E-03 -4.25391428946E-03 +1.59901839913E-01 +7.37866370489E-01
1.47500000000E+09 +3.34261494990E-01 +6.37936528262E-01 +3.87404139975E-03 -6.29490613933E-03 +3.93086188192E-03 -5.88150139401E-03 +1.96540402398E-01 +6.97066318821E-01
1.48000000000E+09 +3.62634916741E-01 +5.90524436290E-01 +2.69938708019E-03 -7.44476372941E-03 +2.94548374904E-03 -7.48688746922E-03 +2.33040199945E-01 +6.47601676455E-01
1.48500000000E+09 +3.85830180620E-01 +5.36033625949E-01 +1.34985316879E-03 -8.63978247601E-03 +1.26166902485E-03 -8.88979703386E-03 +2.66570125469E-01 +5.89304271744E-01
1.49000000000E+09 +4.03571483679E-01 +4.74253860756E-01 -4.95154176172E-04 -9.77577871360E-03 -9.66066027198E-04 -9.72094680565E-03 +2.95067880718E-01 +5.19999015410E-01
1.49500000000E+09 +4.12822222480E-01 +4.04134573692E-01 -3.20642057426E-03 -1.02779382871E-02 -3.50892548907E-03 -9.74664751963E-03 +3.12948093287E-01 +4.41060207338E-01
1.50000000000E+09 +4.12208280821E-01 +3.25013842842E-01 -6.04194982278E-03 -1.03838881672E-02 -5.69141723328E-03 -9.72605876398E-03 +3.18474990970E-01 +3.53126340692E-01
1.50500000000E+09 +3.97432672936E-01 +2.37560735320E-01 -9.39526064420E-03 -9.08621573021E-03 -8.78359145355E-03 -8.98022151172E-03 +3.08743796185E-01 +2.57379099211E-01
1.51000000000E+09 +3.66646421617E-01 +1.45999221564E-01 -1.20387062173E-02 -6.15470050244E-03 -1.16671336281E-02 -6.52265661301E-03 +2.77623893125E-01 +1.55729917979E-01
1.51500000000E+09 +3.15795698681E-01 +5.39186172445E-02 -1.36618361789E-02 -3.81140528601E-03 -1.36316219540E-02 -4.18028876166E-03 +2.21930733522E-01 +5.99424263059E-02
1.52000000000E+09 +2.44398586292E-01 -2.83427459253E-02 -1.59523189521E-02 -2.57597218378E-05 -1.60544747224E-02 -2.31906938354E-04 +1.47520031735E-01 -2.51103962532E-02
1.52500000000E+09 +1.56384786703E-01 -9.52728245967E-02 -1.55704289445E-02 +6.24054377373E-03 -1.57653381995E-02 +6.12410158016E-03 +5.44167258614E-02 -9.38501678425E-02
1.53000000000E+09 +5.58097075521E-02 -1.40604158700E-01 -1.16184561389E-02 +1.00698379070E-02 -1.17138750311E-02 +1.00271913626E-02 -5.17434180480E-02 -1.38734010449E-01
1.53500000000E+09 -5.19891667253E-02 -1.63006533011E-01 -8.56306569607E-03 +1.22794899746E-02 -8.56004737400E-03 +1.22709642145E-02 -1.61495476662E-01 -1.60028257988E-01
1.54000000000E+09 -1.62570811173E-01 -1.58760945502E-01 -4.65574229332E-03 +1.32119925818E-02 -4.70589520957E-03 +1.30233162828E-02 -2.69299211684E-01 -1.58096638325E-01
1.54500000000E+09 -2.64505167998E-01 -1.31438079711E-01 -9.95314649931E-04 +1.33608993025E-02 -1.29922611513E-03 +1.32068495909E-02 -3.67293339332E-01 -1.37230389630E-01
1.55000000000E+09 -3.56325087213E-01 -8.76938857189E-02 +1.77581795862E-03 +1.24774067331E-02 +1.25461359504E-03 +1.25152282326E-02 -4.53926307592E-01 -1.01325512318E-01
1.55500000000E+09 -4.33668038726E-01 -3.14432678070E-02 +5.28692274616E-03 +1.11479349669E-02 +4.86676258363E-03 +1.16731211690E-02 -5.25484028891E-01 -5.48656709818E-02
1.56000000000E+09 -4.95086790563E-01 +2.83905761074E-02 +7.20520709062E-03 +7.82231133168E-03 +7.23970042016E-03 +8.41442484888E-03 -5.83965107921E-01 -2.35975531064E-03
1.56500000000E+09 -5.43810633926E-01 +8.89638583094E-02 +7.15993277217E-03 +5.69820753915E-03 +7.58653142367E-03 +6.16685449467E-03 -6.28544365860E-01 +5.34635127004E-02
1.57000000000E+09 -5.80480377458E-01 +1.47431946608E-01 +7.46897354903E-03 +3.98377351429E-03 +7.96487654355E-03 +4.18414761130E-03 -6.62393581808E-01 +1.07132600832E-01
