# Hz S RI R 50
! CMT, C1220, 16058040, 17.2.0/1
! Date: 14/08/2018 12:48:51
! Data: Format (Calibration Info)
! Freq                      S11: Re/Im (F2)                       S21: Re/Im (F2)                       S12: Re/Im (F2)                       S22: Re/Im (F2)            
1.00000000000E+09 -6.52149778876E-01 +7.13356568881E-01 +1.31086433347E-05 -2.28991732811E-05 -1.11822221978E-05 +2.28783045789E-05 -7.53791425182E-01 +6.21506092786E-01
1.00500000000E+09 -6.45129442668E-01 +7.18325988490E-01 -2.46717278378E-06 -9.58584580728E-06 +2.34351404179E-05 +3.19628143331E-05 -7.50310265100E-01 +6.25495471628E-01
1.01000000000E+09 -6.39116730298E-01 +7.23011975084E-01 +3.31664565237E-05 -3.59980843614E-05 +1.42143461755E-06 -9.31776658730E-06 -7.46793265146E-01 +6.29045982388E-01
1.01500000000E+09 -6.34625355733E-01 +7.26696485325E-01 -4.94894046501E-05 +3.31417807088E-05 +1.56946747134E-05 +9.12472257234E-06 -7.43680815321E-01 +6.32733091274E-01
1.02000000000E+09 -6.31614548630E-01 +7.30239945196E-01 -1.56510424495E-05 +3.72323878938E-05 +4.27391970483E-06 +8.02682276182E-06 -7.40394587088E-01 +6.36309363732E-01
1.02500000000E+09 -6.29521656650E-01 +7.33063695646E-01 -1.81294484314E-05 +1.72894131688E-05 -6.54785818356E-05 +4.21893763464E-06 -7.37427379028E-01 +6.39897067301E-01
1.03000000000E+09 -6.28017499533E-01 +7.35482075863E-01 -1.80849464401E-05 +1.49179170054E-05 -2.05221950744E-05 +2.59471438987E-05 -7.34041693320E-01 +6.43740135427E-01
1.03500000000E+09 -6.25899053270E-01 +7.38143809452E-01 -2.18043590046E-05 -3.29186215336E-05 -2.40525426672E-05 -1.97454121089E-06 -7.30167079425E-01 +6.47760568808E-01
1.04000000000E+09 -6.22508002902E-01 +7.41115373335E-01 +3.87791244010E-05 +2.68832202387E-05 +3.12125129179E-05 +1.82609535605E-05 -7.26316433114E-01 +6.51445288489E-01
1.04500000000E+09 -6.17654943151E-01 +7.44499879634E-01 -9.88414083328E-06 +3.88706326702E-05 -1.57250881041E-05 +4.24395012388E-05 -7.23010567656E-01 +6.54897907719E-01
1.05000000000E+09 -6.10982921379E-01 +7.48773142339E-01 -3.11169503695E-05 +4.70357118349E-05 +4.17711984465E-05 +3.42480135488E-05 -7.19545361333E-01 +6.58287153901E-01
1.05500000000E+09 -6.03303881322E-01 +7.53321133771E-01 -1.14746941617E-05 -6.90287787857E-06 -1.40037651373E-05 +9.66225716874E-06 -7.16362906430E-01 +6.62042008270E-01
1.06000000000E+09 -5.94694637027E-01 +7.58360984937E-01 -1.61927060470E-05 +4.35653913565E-05 +4.23169073621E-05 +3.93846906220E-06 -7.12972366516E-01 +6.65710231431E-01
1.06500000000E+09 -5.86509754387E-01 +7.63402270533E-01 -1.48417277895E-05 -3.20716762833E-06 +3.14431046564E-06 +3.39486237868E-05 -7.09074403794E-01 +6.69664560897E-01
1.07000000000E+09 -5.79177971959E-01 +7.67813043067E-01 +2.75867645452E-05 +3.77948085290E-05 -4.68221095021E-05 +3.08601433640E-05 -7.05064583405E-01 +6.73327575625E-01
1.07500000000E+09 -5.73396077310E-01 +7.71721035724E-01 +4.45222682610E-06 +2.04645913155E-05 -3.22002080007E-05 +4.71608909979E-05 -7.00765308076E-01 +6.77087376289E-01
1.08000000000E+09 -5.69192692840E-01 +7.75007995207E-01 +2.96367597032E-05 +5.67140936081E-05 +2.89225552125E-05 +5.75357764826E-05 -6.96830533460E-01 +6.80866582131E-01
1.08500000000E+09 -5.66478987261E-01 +7.77404366049E-01 +3.86038935430E-05 +2.69059990696E-05 +3.46372575831E-05 +2.09300914583E-05 -6.93097841109E-01 +6.84340087279E-01
1.09000000000E+09 -5.64430111370E-01 +7.79669907863E-01 +6.78865189663E-06 +1.07663129030E-05 +4.05717176773E-05 +6.99427605718E-05 -6.89294403844E-01 +6.88223592657E-01
1.09500000000E+09 -5.62811017707E-01 +7.81502220040E-01 +6.14739312686E-06 -4.22558364153E-06 +3.78415100922E-05 +8.85754712225E-05 -6.85709574860E-01 +6.92099712201E-01
1.10000000000E+09 -5.60228835856E-01 +7.83420885013E-01 -1.05835480900E-05 +4.59159792957E-05 +2.61662438896E-05 +2.95752745895E-05 -6.81818135939E-01 +6.95763695434E-01
1.10500000000E+09 -5.56393110628E-01 +7.86100822462E-01 +1.61170125926E-05 +4.51453450652E-05 +2.41469416241E-05 +8.55491073617E-06 -6.77548433470E-01 +6.99551673975E-01
1.11000000000E+09 -5.51003306580E-01 +7.89370643723E-01 -2.83680760856E-05 +1.10994729084E-05 -2.49764659217E-05 +1.63479564754E-05 -6.73318738635E-01 +7.02776359694E-01
1.11500000000E+09 -5.44213119131E-01 +7.93030266805E-01 +4.73238991016E-05 +2.87044194094E-05 +4.31322037938E-05 +1.89426877685E-06 -6.69369018471E-01 +7.06101490675E-01
1.12000000000E+09 -5.36689879926E-01 +7.97025834993E-01 +3.47129055233E-05 +4.65378976390E-05 +4.20092646685E-05 +6.41175519176E-06 -6.65534140365E-01 +7.09627368664E-01
1.12500000000E+09 -5.28678826773E-01 +8.01157544596E-01 +6.88610075983E-05 -2.85221943042E-06 +8.56138091924E-05 +5.31333654324E-05 -6.61054847950E-01 +7.13772999270E-01
1.13000000000E+09 -5.21364379905E-01 +8.04769446168E-01 +3.76375650139E-05 +5.51134034087E-05 +3.70595344937E-05 -4.30108841561E-06 -6.56754314648E-01 +7.17514521231E-01
1.13500000000E+09 -5.14751130225E-01 +8.07704672010E-01 +4.71309011979E-05 -1.93411816981E-06 +6.80314140630E-05 +1.32631415271E-05 -6.52226889890E-01 +7.21325663247E-01
1.14000000000E+09 -5.09340113058E-01 +8.10320294048E-01 +2.52759303455E-05 +3.30948492662E-05 +5.99567316614E-05 +2.22216112821E-05 -6.47186055125E-01 +7.24855760944E-01
1.14500000000E+09 -5.05198216913E-01 +8.12099736957E-01 +1.14018105110E-04 +1.26234803864E-05 +6.53637861594E-05 +1.07789444269E-05 -6.42751233271E-01 +7.28449819855E-01
1.15000000000E+09 -5.01376128314E-01 +8.13695031894E-01 +6.46685227650E-05 +1.03354355035E-05 +5.11694633287E-05 -3.71295397225E-05 -6.38279318336E-01 +7.31999548300E-01
1.15500000000E+09 -4.97811850047E-01 +8.15728842171E-01 +9.23279621006E-05 -1.90118628854E-06 +1.64262344928E-05 +3.18801991156E-05 -6.33461877638E-01 +7.36005436664E-01
1.16000000000E+09 -4.93548537776E-01 +8.17873324478E-01 +9.98616647119E-05 -1.15705671738E-05 +4.92394339109E-05 +5.38112493237E-06 -6.28690945412E-01 +7.39803216594E-01
1.16500000000E+09 -4.88224820267E-01 +8.20684629418E-01 +8.83375405488E-05 -1.87740665283E-05 +5.85549196105E-05 -3.32648744765E-05 -6.23589582144E-01 +7.43333176448E-01
1.17000000000E+09 -4.81893173394E-01 +8.23943324389E-01 +5.47195004513E-05 +1.96083411368E-05 +7.84226149696E-05 -7.76201641576E-06 -6.18246895789E-01 +7.46689381217E-01
1.17500000000E+09 -4.74524902753E-01 +8.27436125357E-01 +1.22070255398E-04 -2.95752347035E-05 +1.07154055367E-04 -4.17077907884E-05 -6.12644716049E-01 +7.49997001596E-01
1.18000000000E+09 -4.66908478840E-01 +8.31222408824E-01 +1.04441569671E-04 -6.80229233275E-05 +1.41752340241E-04 -4.20768059091E-05 -6.07248963192E-01 +7.53048169236E-01
1.18500000000E+09 -4.59050861928E-01 +8.34695875981E-01 +9.54207700939E-05 -1.16280268223E-04 +1.57305899584E-04 -7.85713777074E-05 -6.01479819777E-01 +7.55970649987E-01
1.19000000000E+09 -4.51626338436E-01 +8.37222892240E-01 +1.03183714904E-04 -9.02388103405E-05 +8.12096438229E-05 -1.20120415327E-04 -5.95474699050E-01 +7.58611829396E-01
1.19500000000E+09 -4.45241888956E-01 +8.39445323058E-01 +9.29217073181E-05 -1.86663821515E-04 +1.24677565340E-04 -1.81007656089E-04 -5.89480962385E-01 +7.59931649492E-01
1.20000000000E+09 -4.39797237641E-01 +8.40425493358E-01 +4.45543867723E-05 -2.11826324783E-04 +4.43512741322E-05 -2.21745350124E-04 -5.84990940930E-01 +7.60113541345E-01
1.20500000000E+09 -4.35067156156E-01 +8.41757863030E-01 -6.75894119131E-05 -1.40856437624E-04 -3.56302626391E-05 -1.45305017358E-04 -5.82566599301E-01 +7.60990792638E-01
1.21000000000E+09 -4.30341664783E-01 +8.43344335641E-01 -3.27238496208E-05 -1.14680631676E-04 -3.26224170515E-05 -6.99069832480E-05 -5.80689385155E-01 +7.64024286737E-01
1.21500000000E+09 -4.24603283003E-01 +8.45397220278E-01 +8.82391358541E-06 -5.04625619452E-05 +1.32770066197E-05 -5.33569871160E-05 -5.77823739865E-01 +7.68662511215E-01
1.22000000000E+09 -4.17633472138E-01 +8.47739639248E-01 +5.85961912538E-05 -5.75136997259E-05 +3.39515452161E-05 -6.38023629083E-05 -5.73654870511E-01 +7.73921032122E-01
1.22500000000E+09 -4.09396219895E-01 +8.50852108408E-01 -7.61316163883E-06 -8.92623127384E-05 +3.12413061083E-05 -1.32263503089E-04 -5.68830176177E-01 +7.79204383113E-01
1.23000000000E+09 -4.00201928050E-01 +8.54370248589E-01 +4.12239760130E-06 -8.62925042897E-05 -4.29079025949E-05 -1.58145452940E-04 -5.63027428214E-01 +7.83852287522E-01
1.23500000000E+09 -3.90664794732E-01 +8.58206634067E-01 -2.30992957805E-05 -1.07811886822E-04 -1.37680465736E-05 -1.39818546438E-04 -5.57177793869E-01 +7.88240063304E-01
1.24000000000E+09 -3.81255921277E-01 +8.62059899083E-01 +3.32365066840E-07 -1.43244137498E-04 -4.76884402012E-05 -9.98508542516E-05 -5.51255151864E-01 +7.91905432105E-01
1.24500000000E+09 -3.72426530721E-01 +8.66037440604E-01 -6.17400537882E-05 -1.51132356154E-04 -4.71517493771E-05 -1.99547286839E-04 -5.45219246804E-01 +7.95685431204E-01
1.25000000000E+09 -3.64440985695E-01 +8.69028824105E-01 -8.96575663855E-05 -1.46704134169E-04 -3.78799082439E-05 -1.32677727998E-04 -5.38768147710E-01 +7.99920180695E-01
1.25500000000E+09 -3.57461354724E-01 +8.71193227294E-01 -8.93178166195E-05 -1.39701968722E-04 -1.25131455274E-04 -1.92402137367E-04 -5.31945828383E-01 +8.03900560642E-01
1.26000000000E+09 -3.51364350907E-01 +8.72812572683E-01 -8.76847628313E-05 -1.98874425112E-04 -9.07647058882E-05 -1.63749349957E-04 -5.25436963387E-01 +8.08246432746E-01
1.26500000000E+09 -3.45316782618E-01 +8.74074167802E-01 -1.14290413381E-04 -2.08456738116E-04 -5.82949332181E-05 -2.09401788261E-04 -5.18523414966E-01 +8.11932684143E-01
1.27000000000E+09 -3.39046753018E-01 +8.75174408586E-01 -1.70124942752E-04 -2.08693448847E-04 -1.86769689322E-04 -1.77630895738E-04 -5.11544000985E-01 +8.15897366656E-01
1.27500000000E+09 -3.31459374898E-01 +8.76339648605E-01 -2.51759501726E-04 -1.86286604073E-04 -2.38658856834E-04 -1.55939551813E-04 -5.04460530168E-01 +8.19495702991E-01
1.28000000000E+09 -3.22197696938E-01 +8.78329038167E-01 -2.13361883783E-04 -1.50532980898E-04 -2.48027819610E-04 -1.42821988076E-04 -4.97400582679E-01 +8.23237470042E-01
1.28500000000E+09 -3.11088540036E-01 +8.80736819566E-01 -2.77166665636E-04 -1.51111452291E-04 -2.92848503857E-04 -1.50242524146E-04 -4.89872650430E-01 +8.26957002792E-01
1.29000000000E+09 -2.99163825392E-01 +8.83732675158E-01 -2.95918079140E-04 -1.17286872922E-04 -2.90814539167E-04 -1.30385783192E-04 -4.82372790205E-01 +8.30739320160E-01
1.29500000000E+09 -2.86888804411E-01 +8.87070790927E-01 -3.46246637792E-04 -1.20042711546E-04 -3.86829033261E-04 -1.01496164633E-04 -4.74442064010E-01 +8.34262348752E-01
1.30000000000E+09 -2.74830127866E-01 +8.90531811083E-01 -3.79461252252E-04 -1.03951706821E-04 -4.00129089189E-04 -4.16988122046E-05 -4.66645777969E-01 +8.37915362658E-01
1.30500000000E+09 -2.63939443939E-01 +8.93634970288E-01 -4.14353033595E-04 -7.61468225023E-05 -3.92181186543E-04 -2.96934570578E-05 -4.58601399715E-01 +8.41319480467E-01
1.31000000000E+09 -2.54780468391E-01 +8.95812437275E-01 -4.75954733346E-04 +3.98130238623E-06 -4.44291846286E-04 +3.19876902340E-05 -4.50275819960E-01 +8.44953643614E-01
1.31500000000E+09 -2.47447194274E-01 +8.97336965524E-01 -4.59415806246E-04 +1.28670277317E-04 -4.61641138001E-04 +1.14876171749E-04 -4.41577963725E-01 +8.48504659066E-01
1.32000000000E+09 -2.41277599264E-01 +8.98081968630E-01 -4.47707413539E-04 +1.27219277229E-04 -4.56254502102E-04 +1.05703540770E-04 -4.32549765142E-01 +8.51754683224E-01
1.32500000000E+09 -2.35364302174E-01 +8.98418453989E-01 -4.66206626296E-04 +1.44861731573E-04 -4.86543618430E-04 +1.92927375427E-04 -4.23231061663E-01 +8.55073061717E-01
1.33000000000E+09 -2.28601457377E-01 +8.98561846847E-01 -5.03007202991E-04 +1.90412810079E-04 -5.00031499822E-04 +2.80185387146E-04 -4.13824715469E-01 +8.58445558854E-01
1.33500000000E+09 -2.19787787501E-01 +8.98641144845E-01 -5.09867204327E-04 +3.07605659975E-04 -5.02135443514E-04 +3.76125296728E-04 -4.03969659163E-01 +8.61615815525E-01
1.34000000000E+09 -2.08609941968E-01 +8.98777221915E-01 -5.25033752052E-04 +4.60341555172E-04 -4.78895666893E-04 +4.19573934883E-04 -3.93917738726E-01 +8.64971571515E-01
1.34500000000E+09 -1.94750851942E-01 +8.99276904166E-01 -4.38944824595E-04 +5.56720649731E-04 -4.13505051837E-04 +5.19426393026E-04 -3.82924412281E-01 +8.68166180075E-01
1.35000000000E+09 -1.79006545748E-01 +8.99851366589E-01 -3.98565957207E-04 +5.75980888930E-04 -3.99701100091E-04 +5.38298673995E-04 -3.71829528448E-01 +8.71281300018E-01
1.35500000000E+09 -1.62190392311E-01 +9.00718090168E-01 -3.72007466033E-04 +6.84023559610E-04 -3.29571509078E-04 +6.51174991391E-04 -3.60189503536E-01 +8.74290225450E-01
1.36000000000E+09 -1.45253755529E-01 +9.01306774454E-01 -3.22503622026E-04 +7.26556692801E-04 -2.57186090722E-04 +7.31958047043E-04 -3.48414400708E-01 +8.76990486211E-01
1.36500000000E+09 -1.29280230789E-01 +9.01638557875E-01 -2.53978896719E-04 +8.21125440226E-04 -2.88200774480E-04 +7.77322323069E-04 -3.36212878035E-01 +8.79430297601E-01
1.37000000000E+09 -1.14971316903E-01 +9.01378949421E-01 -1.65413185426E-04 +9.10049011759E-04 -2.28509354551E-04 +8.74719549381E-04 -3.23509987026E-01 +8.82095714429E-01
1.37500000000E+09 -1.02668443410E-01 +9.00804681982E-01 -1.20232146188E-05 +9.82408085263E-04 -1.13768411054E-04 +9.51230418437E-04 -3.09580361637E-01 +8.84539198086E-01
1.38000000000E+09 -9.12532277660E-02 +8.99757915707E-01 +8.09651417631E-05 +1.00571663709E-03 -4.31926599528E-05 +1.07435061433E-03 -2.94918235045E-01 +8.86753925665E-01
1.38500000000E+09 -7.97136896677E-02 +8.98276727817E-01 +1.79681439927E-04 +1.06676101770E-03 +9.08287356520E-05 +1.21685929184E-03 -2.79426963299E-01 +8.88723749215E-01
1.39000000000E+09 -6.73858611211E-02 +8.96131206211E-01 +2.82523601202E-04 +1.14852306119E-03 +2.93802985957E-04 +1.36154148434E-03 -2.63543629228E-01 +8.90271771215E-01
1.39500000000E+09 -5.29344790542E-02 +8.93191404116E-01 +4.55320426035E-04 +1.20119767602E-03 +5.98163870348E-04 +1.34885678241E-03 -2.46924868848E-01 +8.91038381485E-01
1.40000000000E+09 -3.58603510149E-02 +8.89449251345E-01 +5.85423130718E-04 +1.29741222468E-03 +7.70427000871E-04 +1.28529204147E-03 -2.29463215279E-01 +8.91580225907E-01
1.40500000000E+09 -1.67022480731E-02 +8.84953443308E-01 +8.76718913613E-04 +1.36000184014E-03 +9.66198654774E-04 +1.28671107100E-03 -2.10991825441E-01 +8.91512952261E-01
1.41000000000E+09 +4.56322108427E-03 +8.79650889237E-01 +1.16389059584E-03 +1.32298731335E-03 +1.13198744268E-03 +1.27571444182E-03 -1.90608646707E-01 +8.90834773430E-01
1.41500000000E+09 +2.67546673118E-02 +8.73526829236E-01 +1.46541380067E-03 +1.22856665198E-03 +1.44994259109E-03 +1.35806572121E-03 -1.69078968157E-01 +8.89390173909E-01
1.42000000000E+09 +4.93280470934E-02 +8.66462966968E-01 +1.67111973710E-03 +1.00698155818E-03 +1.80667646218E-03 +1.10922592759E-03 -1.46019651053E-01 +8.86915117475E-01
1.42500000000E+09 +7.12501690227E-02 +8.58630375244E-01 +1.81511052423E-03 +9.62141438067E-04 +2.06504478449E-03 +1.03926338545E-03 -1.22456644129E-01 +8.83164187383E-01
1.43000000000E+09 +9.23768215777E-02 +8.49445018944E-01 +2.20748524561E-03 +9.48373457680E-04 +2.47077143848E-03 +8.45782478087E-04 -9.75678049639E-02 +8.78609900195E-01
1.43500000000E+09 +1.13026135205E-01 +8.38474711732E-01 +2.78538352579E-03 +6.64170430888E-04 +2.91517859754E-03 +4.59760526546E-04 -7.11197605206E-02 +8.71967984924E-01
1.44000000000E+09 +1.33991928218E-01 +8.26414077711E-01 +3.14806627793E-03 -2.40500587344E-05 +3.22781242891E-03 -2.39006759720E-04 -4.29554245848E-02 +8.63212147777E-01
1.44500000000E+09 +1.56884907615E-01 +8.11375452112E-01 +3.25888413471E-03 -6.20326550494E-04 +3.24391470882E-03 -8.30534507887E-04 -1.26372380993E-02 +8.52002619319E-01
1.45000000000E+09 +1.81393818044E-01 +7.93051606717E-01 +3.15158319791E-03 -1.14423925567E-03 +3.15140538454E-03 -1.38043260987E-03 +1.90492731231E-02 +8.37442034381E-01
1.45500000000E+09 +2.08149940953E-01 +7.70791914532E-01 +3.23093389944E-03 -1.45191315146E-03 +3.11810324719E-03 -1.75262552004E-03 +5.23795447391E-02 +8.20147771594E-01
1.46000000000E+09 +2.37464357127E-01 +7.44611470546E-01 +3.52064249129E-03 -1.99264126557E-03 +3.16948894932E-03 -2.22328315010E-03 +8.73219662881E-02 +7.98363049278E-01
1.46500000000E+09 +2.68104521052E-01 +7.13619741388E-01 +3.87267599292E-03 -2.88621993968E-03 +3.35986851393E-03 -2.88226802722E-03 +1.23325803077E-01 +7.71751606020E-01
1.47000000000E+09 +2.98939642306E-01 +6.78071219122E-01 +3.73729138276E-03 -4.36712022668E-03 +3.42857275663E-03 -3.99672861134E-03 +1.60425566654E-01 +7.37765088626E-01
1.47500000000E+09 +3.28888649704E-01 +6.37478831662E-01 +2.79063165936E-03 -5.74813175514E-03 +2.87471205123E-03 -5.38892486549E-03 +1.96845784898E-01 +6.96951404930E-01
1.48000000000E+09 +3.56549190903E-01 +5.90711263983E-01 +1.68990055590E-03 -6.64490267035E-03 +1.89891978740E-03 -6.63111957469E-03 +2.33470778401E-01 +6.47480916411E-01
1.48500000000E+09 +3.78784227109E-01 +5.37361954724E-01 +3.64116835341E-04 -7.59736575113E-03 +3.26712837992E-04 -7.79144924634E-03 +2.66717724422E-01 +5.88973330645E-01
1.49000000000E+09 +3.96061930623E-01 +4.76847166795E-01 -1.38134277563E-03 -8.28877029237E-03 -1.83645919896E-03 -8.23377995165E-03 +2.95316210522E-01 +5.20012234343E-01
1.49500000000E+09 +4.04859809815E-01 +4.08504316511E-01 -3.85848396260E-03 -8.40823348653E-03 -4.02458465382E-03 -7.87235577675E-03 +3.13295706744E-01 +4.40695629969E-01
1.50000000000E+09 +4.04473253087E-01 +3.31354434296E-01 -6.11477208919E-03 -7.83804908337E-03 -5.80374145368E-03 -7.39203798978E-03 +3.18782681645E-01 +3.52833513324E-01
1.50500000000E+09 +3.90835380676E-01 +2.46465814658E-01 -8.62361465201E-03 -6.65392412178E-03 -8.01996338814E-03 -6.61571673327E-03 +3.08837261032E-01 +2.56977930538E-01
1.51000000000E+09 +3.61655617515E-01 +1.57073086165E-01 -1.05590985764E-02 -3.97256973231E-03 -1.03075598713E-02 -4.41066598535E-03 +2.77545722155E-01 +1.55487923681E-01
1.51500000000E+09 +3.13804116101E-01 +6.69013763248E-02 -1.17107329697E-02 -1.81882096425E-03 -1.17190585028E-02 -2.13133812465E-03 +2.21953298122E-01 +5.95973432694E-02
1.52000000000E+09 +2.46069324209E-01 -1.49559012926E-02 -1.32513860307E-02 +1.35123787746E-03 -1.33830333956E-02 +1.18727327837E-03 +1.47471832498E-01 -2.53082584379E-02
1.52500000000E+09 +1.61707120432E-01 -8.23581545293E-02 -1.22870292976E-02 +6.90389042869E-03 -1.24517346802E-02 +6.87826869405E-03 +5.45064235073E-02 -9.42650337906E-02
1.53000000000E+09 +6.41245657433E-02 -1.30599104743E-01 -8.36428174576E-03 +9.16972209416E-03 -8.47419236125E-03 +9.20248018078E-03 -5.22502748894E-02 -1.39200998182E-01
1.53500000000E+09 -4.25347159156E-02 -1.54997455862E-01 -5.85943806387E-03 +1.08390526999E-02 -5.83549913772E-03 +1.08436706965E-02 -1.61938507396E-01 -1.59971351229E-01
1.54000000000E+09 -1.51104308209E-01 -1.53095067722E-01 -2.69802262371E-03 +1.09813260039E-02 -2.75112148759E-03 +1.08733162007E-02 -2.69433311893E-01 -1.58468923153E-01
1.54500000000E+09 -2.52551044538E-01 -1.29351399934E-01 +2.68623652456E-04 +1.11202320512E-02 +5.43258786644E-05 +1.09826923750E-02 -3.68192931984E-01 -1.37255915989E-01
1.55000000000E+09 -3.45188700845E-01 -8.87261621089E-02 +2.42899163903E-03 +1.01597380000E-02 +2.07338769248E-03 +1.02629642359E-02 -4.54394690474E-01 -1.00958342531E-01
1.55500000000E+09 -4.24218631474E-01 -3.45849124251E-02 +5.41071477307E-03 +8.71871856025E-03 +5.09737117464E-03 +9.15229332849E-03 -5.25640334462E-01 -5.44577709778E-02
1.56000000000E+09 -4.87117881696E-01 +2.38904078118E-02 +6.65121826691E-03 +5.71912963522E-03 +6.76375859833E-03 +6.29021281843E-03 -5.83961731347E-01 -2.06223807429E-03
1.56500000000E+09 -5.37359603582E-01 +8.34392364754E-02 +6.43008100891E-03 +4.01015791052E-03 +6.76251497214E-03 +4.43819977080E-03 -6.28573072329E-01 +5.37872015216E-02
1.57000000000E+09 -5.75727100975E-01 +1.41643425904E-01 +6.57272721349E-03 +2.47633518030E-03 +7.05434780323E-03 +2.59981259067E-03 -6.62586317510E-01 +1.07439758975E-01
