# Hz S RI R 50
! CMT, C1220, 16058040, 17.2.0/1
! Date: 14/08/2018 12:50:09
! Data: Format (Calibration Info)
! Freq                      S11: Re/Im (F2)                       S21: Re/Im (F2)                       S12: Re/Im (F2)                       S22: Re/Im (F2)            
1.00000000000E+09 -6.51342980428E-01 +7.13295792509E-01 +6.37125460532E-06 -1.13777285636E-05 -5.75283474110E-05 +3.20190527929E-05 -7.53650542491E-01 +6.21563548247E-01
1.00500000000E+09 -6.44277494517E-01 +7.18162507568E-01 -6.01404616143E-05 -2.03689037018E-05 -4.73997342113E-05 +6.08672227834E-05 -7.49963137283E-01 +6.25783856211E-01
1.01000000000E+09 -6.38534057326E-01 +7.22875737322E-01 -3.56372551414E-05 +4.20938499381E-05 -1.56184838296E-05 +1.28749279792E-05 -7.46673659125E-01 +6.29286344888E-01
1.01500000000E+09 -6.34161303793E-01 +7.26601046380E-01 -3.11774356222E-05 -5.54361701260E-06 -1.40115079214E-05 -5.30929710462E-05 -7.43625178423E-01 +6.32876273027E-01
1.02000000000E+09 -6.31177225161E-01 +7.29895919711E-01 +1.88735380103E-05 -2.11439540432E-05 -2.19567567890E-05 +3.49278651056E-05 -7.40274208451E-01 +6.36355643085E-01
1.02500000000E+09 -6.29166372935E-01 +7.32766969653E-01 +1.84423155979E-05 +5.76556133059E-06 -1.52279235045E-05 +1.28226767741E-05 -7.37474167877E-01 +6.40061780123E-01
1.03000000000E+09 -6.27694403610E-01 +7.35381803508E-01 +1.19456914752E-05 +3.51253022090E-05 +3.10260530146E-05 -4.43818034000E-05 -7.33951239420E-01 +6.43703585922E-01
1.03500000000E+09 -6.25576786182E-01 +7.37864883846E-01 +1.88693912114E-05 +1.75817197183E-06 +1.18579876136E-05 +3.40636497739E-05 -7.30280552947E-01 +6.47789072156E-01
1.04000000000E+09 -6.22071228168E-01 +7.40834861962E-01 +2.23166412412E-05 +4.61711188347E-05 +3.26402620796E-05 +2.02409293324E-05 -7.26296399953E-01 +6.51549106676E-01
1.04500000000E+09 -6.17241380181E-01 +7.44271630583E-01 -1.20542669072E-05 +5.65823031261E-06 +8.31189029249E-05 +3.70817498491E-05 -7.23005816793E-01 +6.54920545963E-01
1.05000000000E+09 -6.10657965543E-01 +7.48507130367E-01 +1.58529535800E-05 +2.91305776577E-05 -9.41346776200E-06 +4.08078752993E-05 -7.19523753178E-01 +6.58449297233E-01
1.05500000000E+09 -6.02776650247E-01 +7.53165493698E-01 +1.02459094276E-06 +1.55726227546E-05 -1.27032603177E-05 +2.41566713181E-05 -7.16237778045E-01 +6.62007939774E-01
1.06000000000E+09 -5.94338098777E-01 +7.58105657340E-01 +3.67746341042E-05 -3.13358589189E-07 +2.49007804267E-06 -3.12168671186E-05 -7.13088422152E-01 +6.65674731622E-01
1.06500000000E+09 -5.86025088348E-01 +7.63211534491E-01 -4.52850282619E-05 +5.58079992130E-05 +4.14218905061E-05 +1.82515189567E-05 -7.08970313704E-01 +6.69561561376E-01
1.07000000000E+09 -5.78762670286E-01 +7.67525469313E-01 -1.91318362952E-05 +8.70989279465E-06 -6.61238999384E-05 +2.76647269786E-05 -7.04983202911E-01 +6.73309144375E-01
1.07500000000E+09 -5.72924853222E-01 +7.71381664696E-01 +2.16264312113E-05 +4.77433536505E-05 +3.94696748726E-06 +1.24800989533E-05 -7.00683155561E-01 +6.77157961814E-01
1.08000000000E+09 -5.68739851348E-01 +7.74684374642E-01 -1.38640867305E-05 +6.63995678999E-06 +7.32796629827E-05 +5.09831645681E-05 -6.96939338199E-01 +6.80810966292E-01
1.08500000000E+09 -5.65892858851E-01 +7.77174074779E-01 +9.87287466250E-06 +4.85406266186E-05 +1.29712342409E-05 +9.75686157146E-05 -6.93086824023E-01 +6.84525148148E-01
1.09000000000E+09 -5.63881489854E-01 +7.79146763954E-01 +2.15138601504E-05 +3.35609517071E-05 -8.27381278805E-05 -1.39004194683E-05 -6.89277563094E-01 +6.88156785449E-01
1.09500000000E+09 -5.62145096399E-01 +7.80962995846E-01 +4.10303426858E-05 +4.18509448303E-05 +2.76179842946E-06 +5.79438078283E-05 -6.85668349555E-01 +6.92189556368E-01
1.10000000000E+09 -5.59394350908E-01 +7.83235190546E-01 +2.29571422896E-05 +3.40470208897E-05 +2.60710244498E-05 +2.53009738829E-05 -6.81780733352E-01 +6.95948670880E-01
1.10500000000E+09 -5.55798026802E-01 +7.85813188773E-01 +2.94437810620E-06 +9.18880834394E-05 +5.88852173862E-05 +5.31842199740E-05 -6.77523989725E-01 +6.99434915479E-01
1.11000000000E+09 -5.50568242016E-01 +7.88923883660E-01 +7.50105913880E-05 +3.42721986877E-05 +8.69638533635E-05 +3.03380760968E-05 -6.73286466703E-01 +7.02722707863E-01
1.11500000000E+09 -5.43794771523E-01 +7.92779569976E-01 +6.11306751437E-05 +2.43270552960E-05 +2.11336858351E-05 +2.04918387271E-05 -6.69422093289E-01 +7.06217890311E-01
1.12000000000E+09 -5.36546808745E-01 +7.96543721894E-01 +3.86304091489E-05 +6.94313827405E-06 +1.16947818406E-04 +1.81518174536E-05 -6.65412874223E-01 +7.09858463158E-01
1.12500000000E+09 -5.28505682024E-01 +8.00733518121E-01 +6.78242808813E-05 +4.30931924564E-05 +8.26551399937E-05 +2.91000526401E-05 -6.61100352494E-01 +7.13816163355E-01
1.13000000000E+09 -5.21212715546E-01 +8.04382591122E-01 +6.23167793174E-05 +5.53705841435E-05 +4.05412277098E-05 +1.65062501646E-05 -6.56823587987E-01 +7.17616397213E-01
1.13500000000E+09 -5.14540637685E-01 +8.07157728402E-01 +8.35970474158E-05 +2.09203852073E-05 +1.44741363876E-05 +3.40242361351E-05 -6.52254211086E-01 +7.21460003439E-01
1.14000000000E+09 -5.09034630477E-01 +8.09589103914E-01 +9.43344075047E-05 +3.60021558628E-05 +7.71545744434E-05 +1.40537301651E-05 -6.47304951284E-01 +7.24908044415E-01
1.14500000000E+09 -5.04746857137E-01 +8.11502262029E-01 +1.13738817059E-04 +2.81714824542E-06 +9.41713808032E-05 -2.51922439582E-05 -6.42576353358E-01 +7.28333411902E-01
1.15000000000E+09 -5.00996276986E-01 +8.13132748789E-01 +7.90499101204E-05 -3.46874105893E-05 +4.78883112085E-05 -1.62891676780E-06 -6.38043039609E-01 +7.32166250084E-01
1.15500000000E+09 -4.97201769850E-01 +8.15066109753E-01 +5.64366655626E-05 -1.54030684412E-05 +4.45582791687E-05 +1.96155978738E-06 -6.33612556480E-01 +7.35992401735E-01
1.16000000000E+09 -4.92942323153E-01 +8.17138249414E-01 +8.81019400833E-05 -2.03462509129E-05 +1.19982227997E-04 -1.55351383594E-05 -6.28662409130E-01 +7.39705998027E-01
1.16500000000E+09 -4.87605694186E-01 +8.20080913931E-01 +1.38337600253E-04 -4.99612940133E-06 +1.15901337187E-04 -1.33906459986E-05 -6.23667100824E-01 +7.43423904837E-01
1.17000000000E+09 -4.81293057016E-01 +8.23262504754E-01 +8.04214131606E-05 -1.77931786599E-05 +1.42607052712E-04 -2.75028603284E-05 -6.18173353519E-01 +7.46850206050E-01
1.17500000000E+09 -4.74188819773E-01 +8.26801859738E-01 +1.26869784931E-04 -3.58629346121E-05 +1.31504084459E-04 -1.07668333892E-06 -6.12717496561E-01 +7.50042405303E-01
1.18000000000E+09 -4.66520875555E-01 +8.30485789045E-01 +1.33099401111E-04 -3.01386933081E-05 +1.08815755254E-04 -6.22511470886E-05 -6.07122912795E-01 +7.53042599597E-01
1.18500000000E+09 -4.58873343378E-01 +8.33896370102E-01 +1.57987986605E-04 -9.11502049266E-05 +1.50505204790E-04 -8.09048694210E-05 -6.01288311710E-01 +7.56113050578E-01
1.19000000000E+09 -4.51581016524E-01 +8.36606613748E-01 +1.34452611699E-04 -1.24876083943E-04 +1.16999534351E-04 -9.74153259172E-05 -5.95514125327E-01 +7.58669368655E-01
1.19500000000E+09 -4.45138088387E-01 +8.38805171272E-01 +1.61052951667E-04 -2.05471010840E-04 +8.13749655371E-05 -2.20017908254E-04 -5.89436223475E-01 +7.59925523165E-01
1.20000000000E+09 -4.39685080011E-01 +8.39703546208E-01 +9.12493433294E-05 -2.81577272018E-04 -2.90929219642E-06 -2.68348074790E-04 -5.84859279855E-01 +7.60059036908E-01
1.20500000000E+09 -4.34788455850E-01 +8.41049417885E-01 -8.14659877545E-05 -1.85037461485E-04 -7.36714038392E-05 -2.05906222004E-04 -5.82560368984E-01 +7.60958454701E-01
1.21000000000E+09 -4.30056909445E-01 +8.42510728066E-01 -4.82584480204E-05 -8.90840825040E-05 -4.45291333313E-05 -1.00994796482E-04 -5.80672919535E-01 +7.64042003246E-01
1.21500000000E+09 -4.24158318045E-01 +8.44454647674E-01 -2.67524283834E-05 -8.76545832058E-05 -4.12548841894E-06 -1.03000280958E-04 -5.78045193592E-01 +7.68680813628E-01
1.22000000000E+09 -4.17208771794E-01 +8.46835718344E-01 +1.70485330279E-05 -1.40852742209E-04 +8.02484126717E-06 -1.33803069020E-04 -5.73905418556E-01 +7.74030621878E-01
1.22500000000E+09 -4.08947821037E-01 +8.49927863784E-01 -1.64068427373E-05 -1.46733262162E-04 +6.87408462115E-05 -1.24525669580E-04 -5.68764021479E-01 +7.79239140386E-01
1.23000000000E+09 -3.99990482285E-01 +8.53514375110E-01 -3.79103995056E-05 -1.82961633199E-04 +7.93529526347E-06 -1.60256130259E-04 -5.63063046801E-01 +7.83858605366E-01
1.23500000000E+09 -3.90643274928E-01 +8.57384048505E-01 +3.40445766126E-06 -1.87772844688E-04 -1.58480996748E-05 -1.65173722577E-04 -5.57287810812E-01 +7.88172066328E-01
1.24000000000E+09 -3.81145340682E-01 +8.61385898507E-01 -1.56540990172E-05 -2.41980266770E-04 -7.67738483516E-05 -2.21037284674E-04 -5.51302530079E-01 +7.92036224631E-01
1.24500000000E+09 -3.72433788364E-01 +8.65275373200E-01 -1.09764789953E-04 -2.17992692705E-04 -1.19529919719E-04 -2.01817779087E-04 -5.45203783212E-01 +7.95906591641E-01
1.25000000000E+09 -3.64336431083E-01 +8.68334335794E-01 -1.52634507190E-04 -1.82713268416E-04 -1.56857508790E-04 -1.98034740096E-04 -5.38695417506E-01 +7.99973634184E-01
1.25500000000E+09 -3.57440559458E-01 +8.70433580854E-01 -1.25640852261E-04 -1.78114208378E-04 -8.27819406967E-05 -1.95064620336E-04 -5.32030360611E-01 +8.04054478312E-01
1.26000000000E+09 -3.51205769162E-01 +8.71883518565E-01 -1.19796703619E-04 -1.98213690525E-04 -1.18696281340E-04 -2.11598809496E-04 -5.25384313205E-01 +8.08375712028E-01
1.26500000000E+09 -3.45158671894E-01 +8.72885828819E-01 -1.76333272064E-04 -2.36719655677E-04 -1.91041542280E-04 -2.60967819357E-04 -5.18388425648E-01 +8.12217011875E-01
1.27000000000E+09 -3.38818196193E-01 +8.74093918750E-01 -1.72292408740E-04 -2.47749355249E-04 -2.17278884408E-04 -2.03319824992E-04 -5.11544194348E-01 +8.16065194898E-01
1.27500000000E+09 -3.31341839665E-01 +8.75301858950E-01 -2.60951758489E-04 -2.35880587217E-04 -2.54421272630E-04 -2.31724477202E-04 -5.04381954382E-01 +8.19832584099E-01
1.28000000000E+09 -3.22135431437E-01 +8.77246725678E-01 -2.97100016712E-04 -1.69209735747E-04 -2.77783409910E-04 -1.37659072329E-04 -4.97269667868E-01 +8.23315494200E-01
1.28500000000E+09 -3.11127229131E-01 +8.79808322961E-01 -2.82476199263E-04 -1.25398057126E-04 -3.03705056511E-04 -2.19691557415E-04 -4.89869408091E-01 +8.27118482422E-01
1.29000000000E+09 -2.99324859627E-01 +8.82898087665E-01 -3.29970024309E-04 -1.49143863335E-04 -3.92812516661E-04 -1.52152971414E-04 -4.82285170170E-01 +8.30955234891E-01
1.29500000000E+09 -2.87060812549E-01 +8.86435808468E-01 -3.46430380741E-04 -1.78616952426E-04 -4.24916768813E-04 -6.39020726170E-05 -4.74356940045E-01 +8.34359229302E-01
1.30000000000E+09 -2.75128518964E-01 +8.89888364027E-01 -4.21100142450E-04 -6.94796758790E-05 -4.61257394438E-04 -3.92198314979E-05 -4.66549973237E-01 +8.38041149580E-01
1.30500000000E+09 -2.64376134277E-01 +8.93087035819E-01 -4.44605754358E-04 -2.22346262719E-05 -4.49860525489E-04 +1.01042264171E-05 -4.58401518247E-01 +8.41539207745E-01
1.31000000000E+09 -2.55199496316E-01 +8.95247564742E-01 -5.22553900905E-04 +6.04603817968E-05 -5.31633069287E-04 +1.51636431510E-06 -4.50160417170E-01 +8.44995089279E-01
1.31500000000E+09 -2.47724511653E-01 +8.96616355774E-01 -4.85955090892E-04 +1.08858640347E-04 -4.86062172311E-04 +1.05494241238E-04 -4.41452125256E-01 +8.48556724012E-01
1.32000000000E+09 -2.41570216824E-01 +8.97367212106E-01 -4.74672975768E-04 +1.52077488273E-04 -5.22591954546E-04 +1.37238253283E-04 -4.32354619288E-01 +8.51916995450E-01
1.32500000000E+09 -2.35541145491E-01 +8.97450434219E-01 -5.34669512579E-04 +1.56086452533E-04 -5.60720184903E-04 +2.65941659276E-04 -4.23080476016E-01 +8.55219967860E-01
1.33000000000E+09 -2.28728519810E-01 +8.97593061742E-01 -5.70912332240E-04 +2.35031747798E-04 -5.59494487509E-04 +3.17113134867E-04 -4.13549269478E-01 +8.58471821651E-01
1.33500000000E+09 -2.19889820941E-01 +8.97515993434E-01 -6.12897430227E-04 +3.51316470932E-04 -5.26907245665E-04 +4.05156637150E-04 -4.03820693749E-01 +8.61641101551E-01
1.34000000000E+09 -2.08704951783E-01 +8.97990368809E-01 -5.52633534110E-04 +5.17030051984E-04 -5.04318845188E-04 +4.99750773154E-04 -3.93529902115E-01 +8.64948011548E-01
1.34500000000E+09 -1.94984559856E-01 +8.98474355027E-01 -5.49230675188E-04 +6.29410169514E-04 -4.73959290449E-04 +5.92926836393E-04 -3.82774027370E-01 +8.68283264604E-01
1.35000000000E+09 -1.79435647370E-01 +8.99307640688E-01 -4.02348585102E-04 +6.89825547379E-04 -3.99765238891E-04 +6.87757741783E-04 -3.71576800764E-01 +8.71460482639E-01
1.35500000000E+09 -1.62652700084E-01 +9.00264056323E-01 -3.75868105496E-04 +6.85874234473E-04 -3.82481718509E-04 +7.45665693031E-04 -3.60003826491E-01 +8.74277906241E-01
1.36000000000E+09 -1.45885025562E-01 +9.01032454131E-01 -3.17684168143E-04 +7.94031985778E-04 -2.89632813613E-04 +7.99020397751E-04 -3.48128351903E-01 +8.76890212203E-01
1.36500000000E+09 -1.29971005209E-01 +9.01570833319E-01 -2.53117877455E-04 +8.81483594561E-04 -2.89172725700E-04 +8.68799383234E-04 -3.36023347171E-01 +8.79509083975E-01
1.37000000000E+09 -1.15717038164E-01 +9.01251631115E-01 -2.02261021793E-04 +1.06699308446E-03 -2.40190853405E-04 +9.47815096341E-04 -3.23184797933E-01 +8.82058426340E-01
1.37500000000E+09 -1.03226020480E-01 +9.00637872091E-01 -3.94929222525E-05 +1.14066441401E-03 -1.52449840115E-04 +1.08740060847E-03 -3.09282062145E-01 +8.84372945865E-01
1.38000000000E+09 -9.20531013850E-02 +8.99616305558E-01 +8.72810518769E-05 +1.14513914988E-03 -1.15394851863E-04 +1.17626227767E-03 -2.94590589044E-01 +8.86509228147E-01
1.38500000000E+09 -8.03556833404E-02 +8.98016215447E-01 +1.90634998257E-04 +1.25318524585E-03 +1.23443687944E-04 +1.41202948889E-03 -2.79271546116E-01 +8.88546142044E-01
1.39000000000E+09 -6.79184713715E-02 +8.95868811745E-01 +3.11790234276E-04 +1.32830313197E-03 +3.79858185685E-04 +1.52317754099E-03 -2.63203529546E-01 +8.89985099426E-01
1.39500000000E+09 -5.33023301494E-02 +8.93011013656E-01 +4.96172261277E-04 +1.35078238748E-03 +6.56248577882E-04 +1.44896093384E-03 -2.46817323637E-01 +8.90706038947E-01
1.40000000000E+09 -3.62209294285E-02 +8.89346883199E-01 +6.82614532088E-04 +1.45152867358E-03 +8.47115360093E-04 +1.42306254880E-03 -2.29358565124E-01 +8.91151071668E-01
1.40500000000E+09 -1.70612922815E-02 +8.85050408381E-01 +9.27218084108E-04 +1.44964844596E-03 +1.03739005628E-03 +1.42520927801E-03 -2.10888740064E-01 +8.91033559944E-01
1.41000000000E+09 +4.17697047298E-03 +8.79973313492E-01 +1.30248719496E-03 +1.49603639100E-03 +1.28605493406E-03 +1.38605861758E-03 -1.90680935100E-01 +8.90564683150E-01
1.41500000000E+09 +2.65279367613E-02 +8.74147668335E-01 +1.56029939361E-03 +1.34476410776E-03 +1.52781468133E-03 +1.47193192472E-03 -1.69162547373E-01 +8.89166591564E-01
1.42000000000E+09 +4.91488480545E-02 +8.67414413824E-01 +1.89424143342E-03 +1.19722388354E-03 +2.02729291966E-03 +1.39011161301E-03 -1.46106546069E-01 +8.86592586185E-01
1.42500000000E+09 +7.09912868177E-02 +8.59622731127E-01 +2.05559278161E-03 +1.17411944043E-03 +2.40798294185E-03 +1.14548667279E-03 -1.22564389232E-01 +8.82743098671E-01
1.43000000000E+09 +9.23848213793E-02 +8.50438673619E-01 +2.53844201738E-03 +1.09984552870E-03 +2.87982896968E-03 +9.23962758718E-04 -9.80377724537E-02 +8.78168315343E-01
1.43500000000E+09 +1.13174549067E-01 +8.39840883978E-01 +3.16194209741E-03 +6.61695619900E-04 +3.31225820715E-03 +3.79524034810E-04 -7.17245496081E-02 +8.71533984518E-01
1.44000000000E+09 +1.34561262505E-01 +8.27719285118E-01 +3.44394897948E-03 -1.81135564785E-05 +3.44258040243E-03 -2.89140556210E-04 -4.36428313467E-02 +8.63072961104E-01
1.44500000000E+09 +1.57774227069E-01 +8.12734495570E-01 +3.54573268684E-03 -6.20811344709E-04 +3.54657783391E-03 -8.54343926508E-04 -1.33515353623E-02 +8.51723293939E-01
1.45000000000E+09 +1.82774041041E-01 +7.94408471357E-01 +3.50777422998E-03 -1.08360831401E-03 +3.52262417144E-03 -1.34336051635E-03 +1.82523608234E-02 +8.37351994382E-01
1.45500000000E+09 +2.09966834254E-01 +7.72350268373E-01 +3.73626267944E-03 -1.39920494692E-03 +3.59692479347E-03 -1.70582501791E-03 +5.15711206134E-02 +8.20246921396E-01
1.46000000000E+09 +2.39848123558E-01 +7.46340619734E-01 +4.16741222276E-03 -2.05495073151E-03 +3.77160048799E-03 -2.40988945014E-03 +8.63900738088E-02 +7.98554264936E-01
1.46500000000E+09 +2.71248722851E-01 +7.15467147896E-01 +4.55847004192E-03 -3.20687753757E-03 +3.98594341488E-03 -3.20923939706E-03 +1.22207921250E-01 +7.72154187373E-01
1.47000000000E+09 +3.02975833556E-01 +6.79699486723E-01 +4.33291054974E-03 -4.90615276480E-03 +3.96276652575E-03 -4.47682812738E-03 +1.59258160977E-01 +7.38582061828E-01
1.47500000000E+09 +3.33567297077E-01 +6.38567384043E-01 +3.32492994581E-03 -6.38496151907E-03 +3.43304778174E-03 -5.99644986969E-03 +1.96066717152E-01 +6.97895823363E-01
1.48000000000E+09 +3.61665374674E-01 +5.91272147941E-01 +2.10128045092E-03 -7.41394527844E-03 +2.36003015209E-03 -7.42632738635E-03 +2.32581318359E-01 +6.48775644971E-01
1.48500000000E+09 +3.84838692081E-01 +5.36976377815E-01 +7.31284582622E-04 -8.38634260494E-03 +6.17541575149E-04 -8.65489610972E-03 +2.66311177836E-01 +5.90699646113E-01
1.49000000000E+09 +4.02560045686E-01 +4.75323489848E-01 -9.98392270400E-04 -9.38569054910E-03 -1.39579286415E-03 -9.34214686804E-03 +2.95024595425E-01 +5.21531516594E-01
1.49500000000E+09 +4.12111147688E-01 +4.05138492409E-01 -3.67885397812E-03 -9.75498560116E-03 -3.86663606608E-03 -9.19711633836E-03 +3.13351626003E-01 +4.42925108920E-01
1.50000000000E+09 +4.11704268688E-01 +3.25869877444E-01 -6.53737976860E-03 -9.72245611255E-03 -6.16040808311E-03 -9.10322514290E-03 +3.19466402184E-01 +3.55156441923E-01
1.50500000000E+09 +3.97371228110E-01 +2.38348828430E-01 -9.58980375501E-03 -8.20755254262E-03 -8.97956533122E-03 -8.20790625127E-03 +3.10328206295E-01 +2.59216502909E-01
1.51000000000E+09 +3.66759421120E-01 +1.46667304223E-01 -1.21092870532E-02 -5.19991790376E-03 -1.17637488013E-02 -5.64745673766E-03 +2.79749321475E-01 +1.57172380683E-01
1.51500000000E+09 +3.16659568342E-01 +5.47240496829E-02 -1.34068926139E-02 -2.71278402628E-03 -1.34575637999E-02 -3.05451711696E-03 +2.24599424464E-01 +6.09003458851E-02
1.52000000000E+09 +2.46013443881E-01 -2.78631695121E-02 -1.52041418328E-02 +1.02220640530E-03 -1.53900558778E-02 +8.26474932204E-04 +1.50477679318E-01 -2.49788986787E-02
1.52500000000E+09 +1.58059426831E-01 -9.55817968207E-02 -1.45822851558E-02 +6.88563478939E-03 -1.47007532674E-02 +6.83784969964E-03 +5.71828143226E-02 -9.45569618969E-02
1.53000000000E+09 +5.72466032333E-02 -1.41401879140E-01 -1.04333500184E-02 +1.02702917244E-02 -1.05096768179E-02 +1.03004516196E-02 -4.91345473359E-02 -1.40310610071E-01
1.53500000000E+09 -5.10652697129E-02 -1.64116366843E-01 -7.55215697852E-03 +1.21137393470E-02 -7.51297863605E-03 +1.21225920833E-02 -1.59739490833E-01 -1.62202764110E-01
1.54000000000E+09 -1.62447864032E-01 -1.60086080993E-01 -3.75371025567E-03 +1.28562237573E-02 -3.81528096974E-03 +1.27113065053E-02 -2.68117579991E-01 -1.60503978566E-01
1.54500000000E+09 -2.64986240404E-01 -1.32558178267E-01 -2.72909030705E-04 +1.28659355000E-02 -5.77081438318E-04 +1.27066182793E-02 -3.66946634493E-01 -1.39886888460E-01
1.55000000000E+09 -3.57134382992E-01 -8.87951059582E-02 +2.33193840731E-03 +1.18282297399E-02 +1.81647126094E-03 +1.19488088639E-02 -4.54285543714E-01 -1.03615924492E-01
1.55500000000E+09 -4.34822305511E-01 -3.24081510079E-02 +5.61813448945E-03 +1.05366912714E-02 +5.21137316255E-03 +1.09917788529E-02 -5.26375437066E-01 -5.66943322729E-02
1.56000000000E+09 -4.96320981001E-01 +2.74991236823E-02 +7.42493244406E-03 +7.21602135852E-03 +7.48701497329E-03 +7.83891826810E-03 -5.84913589031E-01 -3.61118628846E-03
1.56500000000E+09 -5.44959179049E-01 +8.82338047796E-02 +7.31327279426E-03 +4.99091342982E-03 +7.63536170880E-03 +5.48748962722E-03 -6.29761059289E-01 +5.23718419422E-02
1.57000000000E+09 -5.81456714898E-01 +1.46745504722E-01 +7.41223538953E-03 +3.29977767571E-03 +7.87606926656E-03 +3.48792409021E-03 -6.63838585012E-01 +1.06535039263E-01
