# Hz S RI R 50
! CMT, C1220, 16058040, 17.2.0/1
! Date: 14/08/2018 12:50:18
! Data: Format (Calibration Info)
! Freq                      S11: Re/Im (F2)                       S21: Re/Im (F2)                       S12: Re/Im (F2)                       S22: Re/Im (F2)            
1.00000000000E+09 -6.51382694952E-01 +7.13315427913E-01 +3.58418747018E-05 -3.41890074412E-05 -3.38505595086E-05 +5.61283554863E-07 -7.53639399325E-01 +6.21566350431E-01
1.00500000000E+09 -6.44294219950E-01 +7.18230484555E-01 +2.46589117403E-05 -1.01285491656E-05 -1.80611930864E-05 +3.98714244624E-05 -7.50181714196E-01 +6.25771715870E-01
1.01000000000E+09 -6.38507401060E-01 +7.22686044413E-01 +7.29301803296E-06 +8.84705287218E-06 -1.52921934139E-05 +1.98087829214E-05 -7.46722974971E-01 +6.29276842768E-01
1.01500000000E+09 -6.34152070103E-01 +7.26601686851E-01 -4.64045237629E-05 +5.67905894788E-05 -6.69666011508E-05 -4.07443516440E-05 -7.43589694889E-01 +6.32965678349E-01
1.02000000000E+09 -6.31153974501E-01 +7.30005174892E-01 -5.35001857578E-05 -1.29414343935E-06 +1.05844699901E-05 +2.31072163680E-05 -7.40265836487E-01 +6.36128996151E-01
1.02500000000E+09 -6.29150216425E-01 +7.32737254890E-01 -3.10014555814E-05 +4.30402062840E-05 -3.66690429155E-05 -5.93734554783E-06 -7.37399120153E-01 +6.40003011955E-01
1.03000000000E+09 -6.27747820128E-01 +7.35328003991E-01 -2.89490043496E-06 +2.36648877511E-05 -3.98890141989E-05 -6.96319002445E-06 -7.34094401719E-01 +6.43773348026E-01
1.03500000000E+09 -6.25548867434E-01 +7.37785502809E-01 -1.76131340010E-05 -4.84123190736E-05 -1.70748491962E-05 -1.72200059699E-05 -7.30182814202E-01 +6.47905974745E-01
1.04000000000E+09 -6.22177360316E-01 +7.40857845461E-01 -1.64099928911E-05 -2.14378539296E-05 -1.67140552558E-05 +5.08628265923E-05 -7.26279405084E-01 +6.51376343347E-01
1.04500000000E+09 -6.17329627080E-01 +7.44287375623E-01 -1.39166481144E-05 +9.29796591178E-06 -5.64579239219E-06 -1.54430802094E-05 -7.22762975813E-01 +6.54981082215E-01
1.05000000000E+09 -6.10691563308E-01 +7.48465253638E-01 -4.31819039837E-05 -2.39119023118E-05 +2.12136588902E-05 +5.22293179457E-05 -7.19572683176E-01 +6.58393197031E-01
1.05500000000E+09 -6.02811256563E-01 +7.53070099733E-01 -2.48903775488E-05 +2.83023241050E-05 -1.21449945290E-05 -1.33900787813E-05 -7.16337664549E-01 +6.62041259242E-01
1.06000000000E+09 -5.94376726503E-01 +7.58112159908E-01 -5.00811472889E-05 +2.66431705299E-05 -2.69576021364E-05 +6.61295781698E-05 -7.12950766433E-01 +6.65791753587E-01
1.06500000000E+09 -5.85928824302E-01 +7.63120868811E-01 +6.77326879292E-06 +5.04530793681E-05 +3.37113786416E-05 +7.09706476258E-06 -7.09083452319E-01 +6.69720491246E-01
1.07000000000E+09 -5.78597081234E-01 +7.67425788266E-01 +3.26953669538E-05 +5.19851100212E-05 -3.64563935703E-05 +8.86450986528E-06 -7.04849603044E-01 +6.73505666817E-01
1.07500000000E+09 -5.72840657409E-01 +7.71255387245E-01 +4.08710645621E-05 -2.43609133661E-05 -1.48860460499E-06 +6.27420607919E-06 -7.00784654341E-01 +6.77205607889E-01
1.08000000000E+09 -5.68757928950E-01 +7.74490723802E-01 +7.55070242804E-06 -3.36725350397E-07 +2.85069740489E-06 +1.42492359400E-05 -6.96875310449E-01 +6.80829721748E-01
1.08500000000E+09 -5.65892458686E-01 +7.77012066986E-01 -3.02453507608E-06 -3.07532292715E-07 -1.22439473402E-05 +4.57934222320E-05 -6.92984757816E-01 +6.84463921637E-01
1.09000000000E+09 -5.63790263032E-01 +7.79116740077E-01 +2.96421966174E-05 +3.67851316542E-05 +4.69984010535E-06 +3.40574397754E-05 -6.89390471119E-01 +6.88332016787E-01
1.09500000000E+09 -5.62274127910E-01 +7.80801923046E-01 +3.39671615773E-05 -3.95855552207E-08 +6.33431209856E-06 +1.29717793406E-05 -6.85641849606E-01 +6.92126670766E-01
1.10000000000E+09 -5.59495027717E-01 +7.82969505480E-01 +5.69896944274E-05 +8.06682513115E-05 +2.34196906647E-05 +5.05504585833E-05 -6.81754234857E-01 +6.95968307545E-01
1.10500000000E+09 -5.55708906904E-01 +7.85543119048E-01 +3.80435809008E-05 +3.22939377268E-05 +3.17785882255E-05 +5.08548470978E-05 -6.77533899885E-01 +6.99395429088E-01
1.11000000000E+09 -5.50546499611E-01 +7.88804084188E-01 +4.18473667282E-05 +5.33200407695E-05 +1.61588918751E-06 -3.57554960069E-06 -6.73302594772E-01 +7.02740489778E-01
1.11500000000E+09 -5.43807988218E-01 +7.92580620542E-01 +4.16591489108E-05 +5.66959954265E-05 +5.13875903169E-05 +5.43643592931E-05 -6.69352564545E-01 +7.06190915455E-01
1.12000000000E+09 -5.36299820354E-01 +7.96518012353E-01 +6.91613502594E-05 -1.96274857774E-07 +1.13549270082E-05 +2.23136267341E-05 -6.65455840167E-01 +7.09754872526E-01
1.12500000000E+09 -5.28449095410E-01 +8.00535119676E-01 +5.73190669441E-05 +2.11348553557E-05 +7.89076753248E-05 +3.44491992502E-05 -6.61180669981E-01 +7.13721959798E-01
1.13000000000E+09 -5.21161480012E-01 +8.04174274496E-01 +4.50453674728E-05 -4.94651169447E-06 +7.00787859363E-05 +2.51702177866E-05 -6.56815655203E-01 +7.17588927151E-01
1.13500000000E+09 -5.14498104483E-01 +8.07025050698E-01 +4.01073437921E-05 +9.55841117043E-05 +2.07124651820E-05 +1.83745731120E-05 -6.52104716000E-01 +7.21390361470E-01
1.14000000000E+09 -5.08987438576E-01 +8.09510896101E-01 +1.14493014103E-04 +1.69626953125E-05 +5.60553512189E-05 -1.79042247621E-05 -6.47344931857E-01 +7.24867483576E-01
1.14500000000E+09 -5.04748853266E-01 +8.11243590046E-01 +7.94743163200E-05 +6.89865076806E-06 +9.45917675064E-05 -1.91416884623E-05 -6.42758953664E-01 +7.28468486828E-01
1.15000000000E+09 -5.00836657550E-01 +8.13005576413E-01 +3.25604404504E-05 +1.62300548973E-05 +7.98653178983E-05 +4.59501993233E-05 -6.37996066935E-01 +7.32217496796E-01
1.15500000000E+09 -4.97264683353E-01 +8.14844270734E-01 +8.41014137000E-05 +9.57431392461E-06 +9.75237852512E-05 -6.09479599525E-06 -6.33482809979E-01 +7.35905422744E-01
1.16000000000E+09 -4.92942444057E-01 +8.16987218966E-01 +9.64206009961E-05 -1.85771701366E-05 +6.24724000369E-05 +4.88823670342E-05 -6.28825840439E-01 +7.39986283877E-01
1.16500000000E+09 -4.87498411929E-01 +8.19867762157E-01 +6.22797977298E-05 -1.90647501957E-06 +9.72012572451E-05 +1.88191275800E-06 -6.23613179673E-01 +7.43431299235E-01
1.17000000000E+09 -4.81290681021E-01 +8.23197901360E-01 +1.07184146955E-04 -2.21673367556E-05 +1.27633524058E-04 +4.97858797276E-05 -6.18263671375E-01 +7.46774910261E-01
1.17500000000E+09 -4.74098369588E-01 +8.26750583768E-01 +1.40802855318E-04 -3.01438711368E-05 +1.34044979284E-04 -3.72722721214E-05 -6.12588230156E-01 +7.50020043067E-01
1.18000000000E+09 -4.66444250130E-01 +8.30340424765E-01 +1.74653955143E-04 -3.77449681387E-05 +1.10589414918E-04 -4.80923519085E-05 -6.07291122271E-01 +7.53138404676E-01
1.18500000000E+09 -4.58668426401E-01 +8.33772746955E-01 +1.46438489152E-04 -6.09670813109E-05 +1.51897284017E-04 -8.25650586697E-05 -6.01559803012E-01 +7.56015334309E-01
1.19000000000E+09 -4.51519309270E-01 +8.36410727874E-01 +1.43185414582E-04 -1.16177338258E-04 +1.53455818293E-04 -1.51132220588E-04 -5.95412740934E-01 +7.58668556691E-01
1.19500000000E+09 -4.44984128199E-01 +8.38528264821E-01 +1.66201159803E-04 -2.23075699819E-04 +1.64663366553E-04 -2.07174541286E-04 -5.89593112127E-01 +7.59864950226E-01
1.20000000000E+09 -4.39617872473E-01 +8.39485877803E-01 +3.63723984437E-05 -2.77505315193E-04 +5.71062819457E-05 -2.68201055667E-04 -5.85116759425E-01 +7.60093222287E-01
1.20500000000E+09 -4.34799121666E-01 +8.40797167871E-01 -4.24653428840E-05 -2.15915399803E-04 -4.69130545503E-05 -1.95374396769E-04 -5.82711091397E-01 +7.61093093929E-01
1.21000000000E+09 -4.29945624116E-01 +8.42343350216E-01 -4.20505450709E-05 -1.34762858529E-04 -3.80561976650E-05 -1.56872702638E-04 -5.80719224682E-01 +7.64186705606E-01
1.21500000000E+09 -4.24078952452E-01 +8.44311033718E-01 +3.36178390807E-05 -7.33818066859E-05 -1.55502225936E-05 -8.40283121277E-05 -5.77888083636E-01 +7.68598996006E-01
1.22000000000E+09 -4.17175848254E-01 +8.46621886470E-01 -1.21934068381E-05 -1.43534619179E-04 +2.26098047808E-05 -1.49410711580E-04 -5.73752351438E-01 +7.73976078713E-01
1.22500000000E+09 -4.09035036947E-01 +8.49820141557E-01 +7.15603033785E-06 -1.78989086265E-04 -8.03127007734E-07 -1.18917033402E-04 -5.68648810332E-01 +7.79197716506E-01
1.23000000000E+09 -3.99982601835E-01 +8.53387930663E-01 -1.40389165885E-06 -1.61875704007E-04 -2.21722747516E-05 -1.81791512746E-04 -5.63088586496E-01 +7.83942556082E-01
1.23500000000E+09 -3.90430508267E-01 +8.57165441149E-01 +1.20786679776E-05 -1.37552585280E-04 -1.96960158775E-05 -1.79708912378E-04 -5.57207217058E-01 +7.88243555148E-01
1.24000000000E+09 -3.81132582292E-01 +8.61077014194E-01 -1.75237020392E-05 -2.04429978589E-04 -3.11460536896E-05 -2.16909496440E-04 -5.51097523536E-01 +7.92024845988E-01
1.24500000000E+09 -3.72299869010E-01 +8.65053601319E-01 -5.66298437257E-05 -2.30067264928E-04 -5.64326465007E-05 -2.31405523045E-04 -5.45070536732E-01 +7.95865740682E-01
1.25000000000E+09 -3.64229653449E-01 +8.68068730053E-01 -1.21275860576E-04 -1.98551669529E-04 -8.87497936811E-05 -2.19563977856E-04 -5.38692372631E-01 +8.00093398379E-01
1.25500000000E+09 -3.57391299984E-01 +8.70037310705E-01 -1.00852590745E-04 -2.18282897099E-04 -9.04949486325E-05 -2.50183402490E-04 -5.32007026454E-01 +8.04025415618E-01
1.26000000000E+09 -3.51133838415E-01 +8.71566444426E-01 -1.27539659749E-04 -1.96753071921E-04 -1.29496047259E-04 -1.87910645669E-04 -5.25361552534E-01 +8.08220011482E-01
1.26500000000E+09 -3.45108516093E-01 +8.72654420802E-01 -1.48852119988E-04 -2.53208626580E-04 -1.60633785163E-04 -2.33930627868E-04 -5.18281855812E-01 +8.12103185376E-01
1.27000000000E+09 -3.38816730540E-01 +8.73835553057E-01 -2.30738301499E-04 -2.40996547846E-04 -2.09113479860E-04 -2.55678583885E-04 -5.11529771977E-01 +8.16031295763E-01
1.27500000000E+09 -3.31174645322E-01 +8.75212502186E-01 -2.32519358333E-04 -2.38203206407E-04 -2.76976691933E-04 -2.73647596841E-04 -5.04430932697E-01 +8.19659153140E-01
1.28000000000E+09 -3.21983196689E-01 +8.77056541596E-01 -3.04599404823E-04 -1.89664312132E-04 -3.18687829158E-04 -1.95583697950E-04 -4.97261340021E-01 +8.23274538538E-01
1.28500000000E+09 -3.10949278117E-01 +8.79484165947E-01 -2.93441975834E-04 -1.98638721814E-04 -4.03795604211E-04 -2.16412546869E-04 -4.89735072622E-01 +8.27004719620E-01
1.29000000000E+09 -2.99305270517E-01 +8.82594831730E-01 -3.37372931594E-04 -1.62866147386E-04 -3.67646704671E-04 -1.51585097424E-04 -4.82321608788E-01 +8.30815347694E-01
1.29500000000E+09 -2.87055191651E-01 +8.86039899242E-01 -3.84992134482E-04 -1.48484029754E-04 -4.57615066487E-04 -1.01567334824E-04 -4.74388163748E-01 +8.34419092057E-01
1.30000000000E+09 -2.75123522080E-01 +8.89589497363E-01 -4.33325443457E-04 -1.27639524597E-04 -4.74469746236E-04 -2.28624526980E-05 -4.66596182218E-01 +8.37979380199E-01
1.30500000000E+09 -2.64357178237E-01 +8.92679334333E-01 -5.20843364621E-04 -8.33381674507E-05 -4.47278972172E-04 +2.39457754892E-06 -4.58495179271E-01 +8.41472903699E-01
1.31000000000E+09 -2.55188122532E-01 +8.94945404706E-01 -6.24347684201E-04 +4.05689213917E-05 -5.28274287065E-04 +7.92063626698E-05 -4.50129937560E-01 +8.44993626827E-01
1.31500000000E+09 -2.47773251507E-01 +8.96317385903E-01 -5.45564848496E-04 +1.25556609213E-04 -5.20458316701E-04 +1.11798595106E-04 -4.41476472660E-01 +8.48441426003E-01
1.32000000000E+09 -2.41449715850E-01 +8.96937284867E-01 -5.23748273043E-04 +1.32099324750E-04 -5.46182155017E-04 +1.40140535085E-04 -4.32470521068E-01 +8.51850122528E-01
1.32500000000E+09 -2.35447082646E-01 +8.97027683736E-01 -5.53532799795E-04 +1.74266438400E-04 -5.93362690802E-04 +2.19346520673E-04 -4.23100329122E-01 +8.55267384283E-01
1.33000000000E+09 -2.28723332763E-01 +8.97194222709E-01 -6.16116802718E-04 +2.60366555378E-04 -6.62074138764E-04 +2.87082206630E-04 -4.13634147900E-01 +8.58500014997E-01
1.33500000000E+09 -2.19872477937E-01 +8.97214052855E-01 -6.46945695861E-04 +4.10663876584E-04 -5.85218739520E-04 +4.12951824374E-04 -4.03880643268E-01 +8.61620985205E-01
1.34000000000E+09 -2.08609928196E-01 +8.97460799213E-01 -6.34229801340E-04 +5.13230784961E-04 -5.67498764904E-04 +5.65444524896E-04 -3.93722826680E-01 +8.64855414186E-01
1.34500000000E+09 -1.94945693213E-01 +8.97992925594E-01 -5.49359435412E-04 +7.08224944779E-04 -5.01289403754E-04 +6.11607145533E-04 -3.82859672767E-01 +8.68259857985E-01
1.35000000000E+09 -1.79424678974E-01 +8.98870620141E-01 -4.63724673961E-04 +7.00781276158E-04 -4.06037168844E-04 +6.78052155970E-04 -3.71722428036E-01 +8.71402328443E-01
1.35500000000E+09 -1.62737492643E-01 +8.99887179250E-01 -3.99059097991E-04 +7.65045385489E-04 -4.21027054813E-04 +7.43907338037E-04 -3.60025943745E-01 +8.74371418455E-01
1.36000000000E+09 -1.45924805224E-01 +9.00776352401E-01 -3.76626436513E-04 +8.52223188846E-04 -3.09924140508E-04 +8.20884033300E-04 -3.48252322379E-01 +8.76903626152E-01
1.36500000000E+09 -1.30066644557E-01 +9.01142312339E-01 -3.61517771895E-04 +9.57234109026E-04 -3.31187605615E-04 +8.96882118012E-04 -3.36150492849E-01 +8.79510547692E-01
1.37000000000E+09 -1.15736251256E-01 +9.00964273672E-01 -2.47916133187E-04 +1.14954274147E-03 -3.06187315614E-04 +9.97382016183E-04 -3.23326488678E-01 +8.81896518940E-01
1.37500000000E+09 -1.03291713899E-01 +9.00353650084E-01 -6.79000566271E-05 +1.18027434248E-03 -1.64046889298E-04 +1.15499628359E-03 -3.09428645712E-01 +8.84465820457E-01
1.38000000000E+09 -9.20700113083E-02 +8.99172920382E-01 +6.84930327558E-05 +1.20699150872E-03 -1.30828540232E-04 +1.25140632346E-03 -2.94934727603E-01 +8.86590479456E-01
1.38500000000E+09 -8.02829248385E-02 +8.97687019712E-01 +1.47176580617E-04 +1.28537386244E-03 +4.18081298777E-05 +1.47620463428E-03 -2.79204910195E-01 +8.88652061210E-01
1.39000000000E+09 -6.78577442827E-02 +8.95527057066E-01 +2.87233051914E-04 +1.37552625337E-03 +3.29408502649E-04 +1.56071483751E-03 -2.63370159217E-01 +8.90080555098E-01
1.39500000000E+09 -5.32684941541E-02 +8.92670995147E-01 +4.39250207381E-04 +1.42842261349E-03 +6.55249347856E-04 +1.55607138480E-03 -2.46811582324E-01 +8.90920346915E-01
1.40000000000E+09 -3.61724497488E-02 +8.88895926770E-01 +6.63717816749E-04 +1.57564254752E-03 +8.46875623716E-04 +1.50329162148E-03 -2.29458617832E-01 +8.91496455140E-01
1.40500000000E+09 -1.70997358145E-02 +8.84644922392E-01 +9.54351301261E-04 +1.64334048732E-03 +1.02591571590E-03 +1.54578110135E-03 -2.10961637927E-01 +8.91437616027E-01
1.41000000000E+09 +4.24560032183E-03 +8.79514493097E-01 +1.33640628933E-03 +1.56798063455E-03 +1.31328916609E-03 +1.59580827272E-03 -1.90748056655E-01 +8.90775367488E-01
1.41500000000E+09 +2.63859555656E-02 +8.73739452892E-01 +1.62497725078E-03 +1.46729125072E-03 +1.59279334175E-03 +1.62568350336E-03 -1.69068301357E-01 +8.89306360809E-01
1.42000000000E+09 +4.91061008184E-02 +8.67004411610E-01 +1.95398428458E-03 +1.34450719375E-03 +2.10484163790E-03 +1.51703528713E-03 -1.46111490499E-01 +8.86868735325E-01
1.42500000000E+09 +7.10088676506E-02 +8.59133330537E-01 +2.20120743941E-03 +1.27110447677E-03 +2.49682694941E-03 +1.30808233155E-03 -1.22338691671E-01 +8.83157089326E-01
1.43000000000E+09 +9.22731891041E-02 +8.50077978290E-01 +2.63458959035E-03 +1.22002916713E-03 +2.97593719664E-03 +1.07893302157E-03 -9.77361601105E-02 +8.78550445847E-01
1.43500000000E+09 +1.13011553509E-01 +8.39361907828E-01 +3.27779759238E-03 +8.10544013682E-04 +3.46317302407E-03 +5.43413449007E-04 -7.13700112453E-02 +8.71898332008E-01
1.44000000000E+09 +1.34314905086E-01 +8.27236391939E-01 +3.69832580180E-03 +8.30651634483E-05 +3.72809307634E-03 -1.67472547200E-04 -4.31723919191E-02 +8.63396692054E-01
1.44500000000E+09 +1.57524638925E-01 +8.12250926735E-01 +3.79653471527E-03 -5.61222923985E-04 +3.80087323397E-03 -8.13848256875E-04 -1.28614257082E-02 +8.51921501026E-01
1.45000000000E+09 +1.82471899151E-01 +7.93882656992E-01 +3.77216831881E-03 -1.09704437852E-03 +3.83891586568E-03 -1.42527423179E-03 +1.88071605411E-02 +8.37573007647E-01
1.45500000000E+09 +2.09640714385E-01 +7.72003755821E-01 +3.96158982939E-03 -1.42746340602E-03 +3.83641552953E-03 -1.81033916676E-03 +5.21724063714E-02 +8.20271963606E-01
1.46000000000E+09 +2.39444509417E-01 +7.45859795566E-01 +4.37998123972E-03 -2.14113518604E-03 +4.02360186015E-03 -2.45066502578E-03 +8.70519453809E-02 +7.98467864674E-01
1.46500000000E+09 +2.70868581566E-01 +7.15095558278E-01 +4.80557279463E-03 -3.35179518233E-03 +4.23501911039E-03 -3.33978489775E-03 +1.22915269906E-01 +7.71952176502E-01
1.47000000000E+09 +3.02500518209E-01 +6.79386345762E-01 +4.63508443371E-03 -5.08558912207E-03 +4.25064561456E-03 -4.66302740301E-03 +1.60078020305E-01 +7.38268677935E-01
1.47500000000E+09 +3.33087863174E-01 +6.38216366608E-01 +3.60036044657E-03 -6.65933820322E-03 +3.69802480601E-03 -6.21371669671E-03 +1.96797085965E-01 +6.97414066651E-01
1.48000000000E+09 +3.61169912941E-01 +5.90983400781E-01 +2.39627200211E-03 -7.77355205860E-03 +2.61000222645E-03 -7.74396323810E-03 +2.33329021002E-01 +6.48170023707E-01
1.48500000000E+09 +3.84280994193E-01 +5.36667936973E-01 +9.77957056784E-04 -8.85146926776E-03 +8.88716774947E-04 -9.08469866595E-03 +2.66983681230E-01 +5.89753826930E-01
1.49000000000E+09 +4.01974659163E-01 +4.75085728714E-01 -8.70991237102E-04 -9.92911321731E-03 -1.34742317773E-03 -9.87964003813E-03 +2.95590594259E-01 +5.20427476683E-01
1.49500000000E+09 +4.11435749080E-01 +4.04985422930E-01 -3.67190106800E-03 -1.03928650479E-02 -3.91974930148E-03 -9.77746565487E-03 +3.13580420498E-01 +4.41406168690E-01
1.50000000000E+09 +4.10887237062E-01 +3.25741653894E-01 -6.65046330802E-03 -1.04095753381E-02 -6.25862520141E-03 -9.73973614393E-03 +3.19201163761E-01 +3.53594863473E-01
1.50500000000E+09 +3.96509258364E-01 +2.38494809824E-01 -9.99562576123E-03 -8.82996559785E-03 -9.30749112906E-03 -8.78830043949E-03 +3.09690944940E-01 +2.57724270410E-01
1.51000000000E+09 +3.66017171398E-01 +1.46949373784E-01 -1.25387090021E-02 -5.79584164856E-03 -1.21551305366E-02 -6.19262500195E-03 +2.78702782203E-01 +1.55851831123E-01
1.51500000000E+09 +3.15736339928E-01 +5.51463884194E-02 -1.40487808678E-02 -3.29411416828E-03 -1.40621119935E-02 -3.68403615271E-03 +2.23092088303E-01 +5.96851113201E-02
1.52000000000E+09 +2.45060850903E-01 -2.70701480453E-02 -1.61270215832E-02 +5.85517246253E-04 -1.63317331034E-02 +4.05372787618E-04 +1.48527505118E-01 -2.56552497019E-02
1.52500000000E+09 +1.57440667330E-01 -9.42587946991E-02 -1.56148050567E-02 +6.84119697921E-03 -1.58465555937E-02 +6.76729268826E-03 +5.51532618852E-02 -9.45727956749E-02
1.53000000000E+09 +5.70952403797E-02 -1.39909660693E-01 -1.15297904529E-02 +1.05853257231E-02 -1.15971217281E-02 +1.06316005314E-02 -5.11646750027E-02 -1.39671778173E-01
1.53500000000E+09 -5.07759995831E-02 -1.62655497040E-01 -8.44053269536E-03 +1.28700127631E-02 -8.46875613500E-03 +1.28335129596E-02 -1.61334549579E-01 -1.60976706359E-01
1.54000000000E+09 -1.61667825331E-01 -1.58765254209E-01 -4.27235268624E-03 +1.38124617462E-02 -4.39794576199E-03 +1.35816721665E-02 -2.69298210149E-01 -1.59046657366E-01
1.54500000000E+09 -2.63919391059E-01 -1.31524675848E-01 -5.26516686949E-04 +1.38448632218E-02 -8.52777351146E-04 +1.36676315942E-02 -3.67589419745E-01 -1.38196148277E-01
1.55000000000E+09 -3.55791717831E-01 -8.80666642684E-02 +2.33715041218E-03 +1.27681371591E-02 +1.85994461183E-03 +1.28305896951E-02 -4.54408127410E-01 -1.02067245475E-01
1.55500000000E+09 -4.33290850193E-01 -3.23206273856E-02 +5.90934968372E-03 +1.12894879287E-02 +5.50322758387E-03 +1.17787430863E-02 -5.26267166316E-01 -5.53107690889E-02
1.56000000000E+09 -4.95023038190E-01 +2.72594063319E-02 +7.74970360091E-03 +7.77610842319E-03 +7.81758056971E-03 +8.44719374330E-03 -5.84572742094E-01 -2.49008889198E-03
1.56500000000E+09 -5.43797752314E-01 +8.77276971957E-02 +7.68714057712E-03 +5.49972718400E-03 +8.07307385393E-03 +5.99335291695E-03 -6.28998800267E-01 +5.34344975976E-02
1.57000000000E+09 -5.80426477282E-01 +1.46126056399E-01 +7.84548665777E-03 +3.64885358180E-03 +8.42070932926E-03 +3.90056446645E-03 -6.63014883852E-01 +1.07148249091E-01
