# Hz S RI R 50
! CMT, C1220, 16058040, 17.2.0/1
! Date: 14/08/2018 12:44:49
! Data: Format (Calibration Info)
! Freq                      S11: Re/Im (F2)                       S21: Re/Im (F2)                       S12: Re/Im (F2)                       S22: Re/Im (F2)            
1.00000000000E+09 -6.51054688647E-01 +7.13403588600E-01 +2.29009581870E-05 -7.19892269108E-06 -5.48914354258E-06 -9.35967060050E-06 -7.51979155237E-01 +6.22256204572E-01
1.00500000000E+09 -6.43871874627E-01 +7.18388705538E-01 -6.46312261231E-06 +4.79887067515E-05 -3.33998621154E-05 -2.40875776471E-05 -7.48506687743E-01 +6.26327745355E-01
1.01000000000E+09 -6.37890041302E-01 +7.22949216295E-01 -4.00054677014E-05 +4.81311182176E-05 -5.75344066710E-05 +2.79056718962E-05 -7.45099951017E-01 +6.29941194031E-01
1.01500000000E+09 -6.33407922997E-01 +7.26873994567E-01 +4.34376084887E-05 +4.23209058673E-05 -6.63297497431E-05 -2.11007669588E-05 -7.41838018703E-01 +6.33366282080E-01
1.02000000000E+09 -6.30201183943E-01 +7.30458815663E-01 -1.21928241298E-05 -1.47922137351E-05 +6.41894881002E-06 +6.81064519233E-06 -7.38563206375E-01 +6.36979007371E-01
1.02500000000E+09 -6.28131246739E-01 +7.33288744686E-01 -3.44178818318E-05 -9.69803986610E-06 -3.21443629011E-05 -1.24851154417E-05 -7.35723056000E-01 +6.40615296145E-01
1.03000000000E+09 -6.26681075222E-01 +7.35651955831E-01 -3.03673151181E-05 -6.62949326419E-06 +2.79827523678E-05 -5.47890885363E-06 -7.32298426477E-01 +6.44324837659E-01
1.03500000000E+09 -6.24328352125E-01 +7.38253484596E-01 -1.35050932224E-05 +3.92207962821E-05 +7.20941520644E-06 -1.31221539138E-05 -7.28397381509E-01 +6.48410219911E-01
1.04000000000E+09 -6.21040801917E-01 +7.41292496103E-01 -4.09935383656E-05 +2.00305938014E-05 +2.69739339556E-05 +1.37256447620E-05 -7.24650329104E-01 +6.52029704983E-01
1.04500000000E+09 -6.16138651829E-01 +7.44627584415E-01 -4.48820702554E-05 +1.73478090023E-05 -3.05576727836E-05 +2.35411742383E-05 -7.21357288456E-01 +6.55599986550E-01
1.05000000000E+09 -6.09563520084E-01 +7.48892281744E-01 +1.26751316247E-05 +3.22337085914E-05 +1.46418185945E-06 +7.09030275785E-06 -7.17802299640E-01 +6.59037510210E-01
1.05500000000E+09 -6.01758484092E-01 +7.53248663056E-01 +2.75767015788E-05 +2.25271668318E-05 +1.59835562668E-05 +2.70677482945E-05 -7.14703469716E-01 +6.62431370750E-01
1.06000000000E+09 -5.93124304724E-01 +7.58364493107E-01 +1.36394467238E-05 +1.94910817306E-05 -3.10914414463E-05 -2.65254311682E-05 -7.11311035818E-01 +6.66312375701E-01
1.06500000000E+09 -5.84927731838E-01 +7.63492878568E-01 +9.25454752792E-06 -1.01249661283E-05 -3.38428813531E-05 +5.02722378559E-05 -7.07406675124E-01 +6.70098768321E-01
1.07000000000E+09 -5.77269971714E-01 +7.67901196039E-01 -1.61220973427E-05 +3.58526754435E-06 -1.53416669046E-05 +3.06648357134E-05 -7.03317360789E-01 +6.73840123072E-01
1.07500000000E+09 -5.71532230517E-01 +7.71841392554E-01 -1.99784440581E-05 +4.57922357200E-05 +2.21234587136E-05 +6.78341566189E-05 -6.99035259576E-01 +6.77589708799E-01
1.08000000000E+09 -5.67106270252E-01 +7.75320099973E-01 -2.60849872774E-05 +3.28522766355E-05 -4.33794178879E-06 +4.67350466904E-05 -6.95117893160E-01 +6.81245695283E-01
1.08500000000E+09 -5.64419230484E-01 +7.77626138863E-01 +4.85625411193E-06 +6.28912903110E-05 -5.49020860506E-05 +4.30888781391E-05 -6.91255117216E-01 +6.84994933718E-01
1.09000000000E+09 -5.62357116068E-01 +7.79793789291E-01 +1.76551920020E-05 +3.82204871278E-05 +2.71263817378E-05 +5.44197134684E-05 -6.87496054954E-01 +6.88736806293E-01
1.09500000000E+09 -5.60807503575E-01 +7.81483814142E-01 +6.44092193328E-06 +3.93890692486E-05 -6.42158048234E-07 +4.41020804649E-05 -6.83901939684E-01 +6.92625961201E-01
1.10000000000E+09 -5.58117481789E-01 +7.83603308794E-01 -2.33961022150E-06 +5.61604266597E-05 +6.41924796493E-06 +6.22776807663E-05 -6.79884908005E-01 +6.96478524193E-01
1.10500000000E+09 -5.54508574829E-01 +7.86005865397E-01 +1.17591719555E-05 +9.18555808285E-05 +3.68354457550E-05 +5.03846408892E-05 -6.75681073920E-01 +6.99976714267E-01
1.11000000000E+09 -5.49138491978E-01 +7.89079217669E-01 +2.50421069393E-05 +1.04978990111E-05 +1.63040411767E-05 +8.15428818355E-05 -6.71505279905E-01 +7.03276649080E-01
1.11500000000E+09 -5.42287161380E-01 +7.92964552394E-01 +5.42766471561E-05 +4.48671483151E-05 +1.22794804913E-05 +7.12789485809E-06 -6.67555143553E-01 +7.06707719479E-01
1.12000000000E+09 -5.34702182547E-01 +7.96792710455E-01 +3.97296469364E-05 +4.12395962670E-05 +4.70650891809E-05 +8.12998671028E-06 -6.63654613335E-01 +7.10241526601E-01
1.12500000000E+09 -5.26802059074E-01 +8.00861458059E-01 -1.42490166435E-05 +1.15734093211E-05 +2.76740646863E-05 +8.89669776436E-06 -6.59194264203E-01 +7.14243330822E-01
1.13000000000E+09 -5.19303537813E-01 +8.04577310115E-01 +4.17055747944E-05 +5.54590805000E-05 +6.05013965708E-05 +2.58741481105E-05 -6.55004285252E-01 +7.18052137847E-01
1.13500000000E+09 -5.12609564045E-01 +8.07473411585E-01 +6.22078882303E-05 +4.58782791993E-05 +7.80084917215E-05 +3.71776612563E-05 -6.50202817545E-01 +7.21928137090E-01
1.14000000000E+09 -5.07166943289E-01 +8.10129367134E-01 +4.57203209068E-05 +5.62220471596E-05 +7.59302009875E-05 +1.17927628115E-05 -6.45477300818E-01 +7.25340505132E-01
1.14500000000E+09 -5.02958268626E-01 +8.11802062341E-01 +3.08565367447E-05 +3.88007413782E-05 +9.29679988992E-05 +2.76477036005E-05 -6.40993265400E-01 +7.28917885860E-01
1.15000000000E+09 -4.99315088826E-01 +8.13637130787E-01 +8.41625133189E-05 +4.11473861607E-06 +6.67652285407E-05 +1.75222228557E-05 -6.36391390855E-01 +7.32580421891E-01
1.15500000000E+09 -4.95675659726E-01 +8.15465445368E-01 +1.01583000028E-04 +2.67083033077E-05 +4.74037169404E-05 +5.64345202571E-05 -6.31588606871E-01 +7.36347576116E-01
1.16000000000E+09 -4.91364101263E-01 +8.17505854494E-01 +1.02407136513E-04 +2.88104069589E-05 +1.01910476713E-04 -4.96352176218E-06 -6.26811081105E-01 +7.40360064303E-01
1.16500000000E+09 -4.86253914491E-01 +8.20318987354E-01 +6.12134265573E-05 -1.83851730701E-06 +1.07149135292E-04 -5.73132373025E-06 -6.21869322505E-01 +7.43837486938E-01
1.17000000000E+09 -4.79904731096E-01 +8.23409279380E-01 +1.46852733610E-04 +1.58348441198E-05 +1.39911529346E-04 +6.40981637040E-05 -6.16407493921E-01 +7.47139259192E-01
1.17500000000E+09 -4.72477807613E-01 +8.26905097698E-01 +1.38253406917E-04 -1.14420318617E-05 +1.33198973640E-04 +5.94762111088E-06 -6.10835839927E-01 +7.50256329736E-01
1.18000000000E+09 -4.64672214655E-01 +8.30622168534E-01 +1.07164951432E-04 +2.29472635346E-05 +1.29763826510E-04 -4.98435921590E-05 -6.05487066010E-01 +7.53360538500E-01
1.18500000000E+09 -4.56640765050E-01 +8.33946600956E-01 +1.83279701571E-04 -7.04670035620E-05 +1.90594162932E-04 -6.50796490798E-05 -5.99553534794E-01 +7.56431968468E-01
1.19000000000E+09 -4.49186949775E-01 +8.36667438999E-01 +1.73281984562E-04 -1.10326484356E-04 +1.55726692466E-04 -7.24292191506E-05 -5.93497599155E-01 +7.58792609867E-01
1.19500000000E+09 -4.42739210489E-01 +8.38800950941E-01 +1.75614571284E-04 -1.41027973836E-04 +1.99672481666E-04 -2.58536428911E-04 -5.87734017487E-01 +7.60038004601E-01
1.20000000000E+09 -4.37296135128E-01 +8.39903276864E-01 +1.02915540776E-04 -2.34353113823E-04 +1.36067956814E-04 -2.37036725229E-04 -5.83155455512E-01 +7.60280934838E-01
1.20500000000E+09 -4.32405550202E-01 +8.41384893619E-01 +6.54610416368E-05 -2.20507885635E-04 -3.39290314819E-05 -2.24654269911E-04 -5.80806273905E-01 +7.61314336795E-01
1.21000000000E+09 -4.27621380979E-01 +8.42793988686E-01 +2.50787563036E-05 -1.62706442944E-04 -3.59114890711E-05 -1.71117893209E-04 -5.78851366141E-01 +7.64428158104E-01
1.21500000000E+09 -4.21720073505E-01 +8.44732686532E-01 +2.82045291168E-05 -1.27540694749E-04 +2.35141966389E-05 -1.05893858479E-04 -5.76006669770E-01 +7.69116469133E-01
1.22000000000E+09 -4.14909302651E-01 +8.46868511906E-01 +3.40142180635E-05 -1.57525813094E-04 +3.31245323242E-05 -1.39339995863E-04 -5.71881993995E-01 +7.74300668825E-01
1.22500000000E+09 -4.06778328577E-01 +8.50030442450E-01 +3.30955136202E-05 -1.31451079364E-04 -1.97557473651E-05 -2.02457813698E-04 -5.66735639598E-01 +7.79508943348E-01
1.23000000000E+09 -3.97575827381E-01 +8.53322193568E-01 +6.52001387978E-05 -1.74538719267E-04 +4.09310673803E-05 -2.03973316898E-04 -5.61026061935E-01 +7.84054317215E-01
1.23500000000E+09 -3.88182207490E-01 +8.56927595866E-01 +6.63146262037E-05 -2.16696435735E-04 +3.62838475913E-05 -1.49173136683E-04 -5.55401385601E-01 +7.88483777709E-01
1.24000000000E+09 -3.78536218720E-01 +8.60931088746E-01 +1.36448389251E-05 -2.17509395162E-04 -4.20317613621E-05 -2.23412446613E-04 -5.49249251625E-01 +7.92341011107E-01
1.24500000000E+09 -3.69630345613E-01 +8.64728734008E-01 -5.10425450104E-05 -2.82151239799E-04 -4.61751078105E-05 -2.07836793655E-04 -5.43178108943E-01 +7.96107123016E-01
1.25000000000E+09 -3.61470289918E-01 +8.67860122845E-01 -3.36662277682E-05 -1.98861726654E-04 +3.37846627121E-07 -2.13538215021E-04 -5.36709597561E-01 +8.00349383587E-01
1.25500000000E+09 -3.54486051210E-01 +8.69970044719E-01 -6.40220668074E-05 -2.16984814294E-04 -4.18193873140E-05 -2.09804184172E-04 -5.29957724089E-01 +8.04207146743E-01
1.26000000000E+09 -3.48298259647E-01 +8.71467365176E-01 -1.20006302375E-04 -2.33486994980E-04 -9.26290980200E-05 -2.90187860745E-04 -5.23461663674E-01 +8.08557942199E-01
1.26500000000E+09 -3.42346253476E-01 +8.72647433521E-01 -8.92417219509E-05 -2.92032494989E-04 -1.25160657026E-04 -2.80560550471E-04 -5.16406438176E-01 +8.12360494306E-01
1.27000000000E+09 -3.36045305140E-01 +8.73603062396E-01 -1.67767732535E-04 -3.21502113926E-04 -2.02170889160E-04 -2.85076487898E-04 -5.09620930537E-01 +8.16148577917E-01
1.27500000000E+09 -3.28614336984E-01 +8.74916495509E-01 -2.59348520674E-04 -2.24396396874E-04 -2.65987317007E-04 -2.81699357503E-04 -5.02587088670E-01 +8.19732862077E-01
1.28000000000E+09 -3.19404047342E-01 +8.76666925941E-01 -2.22365420618E-04 -2.62077907954E-04 -2.65655392545E-04 -2.82165270772E-04 -4.95551383209E-01 +8.23418332082E-01
1.28500000000E+09 -3.08499299304E-01 +8.78997532410E-01 -2.67357540754E-04 -2.25836754998E-04 -3.06074070179E-04 -2.83472380362E-04 -4.88080924129E-01 +8.27177888131E-01
1.29000000000E+09 -2.96628665804E-01 +8.81884464321E-01 -2.73123661437E-04 -2.40149220447E-04 -3.11559113301E-04 -2.05919811348E-04 -4.80526460794E-01 +8.30977229707E-01
1.29500000000E+09 -2.84242867939E-01 +8.85279419816E-01 -3.89264255182E-04 -2.30519648087E-04 -4.24463752399E-04 -1.78371054446E-04 -4.72647678771E-01 +8.34438506413E-01
1.30000000000E+09 -2.71984376081E-01 +8.88771669385E-01 -4.30685115498E-04 -2.05191900025E-04 -4.66134084189E-04 -1.69700850918E-04 -4.64696026514E-01 +8.37943717332E-01
1.30500000000E+09 -2.61192834417E-01 +8.91819936469E-01 -5.25778593289E-04 -1.90897849099E-04 -4.84681022488E-04 -1.15734976383E-04 -4.56688149211E-01 +8.41407813418E-01
1.31000000000E+09 -2.51720633153E-01 +8.93834713850E-01 -5.54359968981E-04 -6.64805027728E-05 -5.29325994935E-04 -9.41689980953E-05 -4.48472654545E-01 +8.45028584225E-01
1.31500000000E+09 -2.44310548918E-01 +8.95421172671E-01 -5.50955131732E-04 +8.93214378383E-06 -5.91327772942E-04 -2.42385317766E-05 -4.39648120826E-01 +8.48440096156E-01
1.32000000000E+09 -2.38075839074E-01 +8.96171107810E-01 -5.61550744896E-04 +3.59722723536E-05 -6.03262855408E-04 +7.48262539592E-06 -4.30652580945E-01 +8.51815123192E-01
1.32500000000E+09 -2.32301457456E-01 +8.96347547205E-01 -6.15547617629E-04 +6.12184769542E-05 -6.51441009577E-04 +8.39743163273E-05 -4.21290877360E-01 +8.55034105546E-01
1.33000000000E+09 -2.25480430040E-01 +8.96480652577E-01 -6.22191165828E-04 +1.39855823690E-04 -7.16698547806E-04 +1.94259819598E-04 -4.11783722442E-01 +8.58344368417E-01
1.33500000000E+09 -2.16999716294E-01 +8.96271705155E-01 -7.04197031428E-04 +2.49683189481E-04 -6.69970084250E-04 +3.26700450529E-04 -4.02008812751E-01 +8.61477073258E-01
1.34000000000E+09 -2.06035161266E-01 +8.96501397672E-01 -7.18869682387E-04 +4.07638654090E-04 -6.80266708295E-04 +4.10043238688E-04 -3.91936703733E-01 +8.64815182769E-01
1.34500000000E+09 -1.92431384458E-01 +8.96932094897E-01 -7.05384003633E-04 +5.22109207698E-04 -6.29966080758E-04 +5.34477964433E-04 -3.80968075423E-01 +8.68164993653E-01
1.35000000000E+09 -1.76721149329E-01 +8.97479578674E-01 -5.79464608700E-04 +6.17733566474E-04 -5.92065101042E-04 +6.08971271266E-04 -3.69809578770E-01 +8.71257503805E-01
1.35500000000E+09 -1.59841045090E-01 +8.98245492832E-01 -5.79484308267E-04 +6.33548791710E-04 -5.62492253586E-04 +6.70356065598E-04 -3.58301523330E-01 +8.74048504122E-01
1.36000000000E+09 -1.42895629207E-01 +8.98864387676E-01 -5.51599949422E-04 +7.64597933287E-04 -5.15048533071E-04 +7.64278085025E-04 -3.46582436396E-01 +8.76853947556E-01
1.36500000000E+09 -1.26798191174E-01 +8.99100526757E-01 -5.41427206084E-04 +8.56255669183E-04 -4.94083298806E-04 +7.69248676196E-04 -3.34433208697E-01 +8.79443970583E-01
1.37000000000E+09 -1.12390793338E-01 +8.98648366131E-01 -4.51834807228E-04 +1.02031399270E-03 -4.98528165132E-04 +9.28201577953E-04 -3.21671622706E-01 +8.81960987481E-01
1.37500000000E+09 -1.00013742434E-01 +8.98201700494E-01 -3.62675559410E-04 +1.14110067386E-03 -4.24066739701E-04 +1.06397573541E-03 -3.07914778302E-01 +8.84368705992E-01
1.38000000000E+09 -8.86814802708E-02 +8.97021243874E-01 -2.49143256877E-04 +1.19494856383E-03 -4.34616323230E-04 +1.22428117726E-03 -2.93202375051E-01 +8.86557822014E-01
1.38500000000E+09 -7.72642560649E-02 +8.95309158048E-01 -1.56476551331E-04 +1.32821613699E-03 -3.38928226334E-04 +1.43130110085E-03 -2.77755684790E-01 +8.88493007705E-01
1.39000000000E+09 -6.52688522050E-02 +8.93085695809E-01 -2.69807975599E-05 +1.43371715104E-03 -4.98023694587E-05 +1.64946564555E-03 -2.61958977758E-01 +8.89971492456E-01
1.39500000000E+09 -5.10372525839E-02 +8.90202355346E-01 +1.35284486076E-04 +1.56985157267E-03 +2.38311106253E-04 +1.73440782061E-03 -2.45451749553E-01 +8.90937056394E-01
1.40000000000E+09 -3.42337038716E-02 +8.86412249569E-01 +2.38234988340E-04 +1.70922395338E-03 +3.76350226957E-04 +1.73997935387E-03 -2.27929624693E-01 +8.91428441139E-01
1.40500000000E+09 -1.52760069818E-02 +8.81876262163E-01 +5.27131495641E-04 +1.97079701579E-03 +5.55944463251E-04 +1.87260889310E-03 -2.09456682582E-01 +8.91396080646E-01
1.41000000000E+09 +5.91411360541E-03 +8.76702740100E-01 +9.69999880514E-04 +2.00171681786E-03 +9.27714939953E-04 +1.97384365007E-03 -1.89171410115E-01 +8.90672962652E-01
1.41500000000E+09 +2.83060200992E-02 +8.70490582481E-01 +1.35240435589E-03 +1.97378017189E-03 +1.30071647853E-03 +2.10598044774E-03 -1.67531117116E-01 +8.89458066917E-01
1.42000000000E+09 +5.09737961002E-02 +8.63448912263E-01 +1.69752837500E-03 +1.82408210457E-03 +1.87291284863E-03 +2.04550278378E-03 -1.44538781613E-01 +8.87009141599E-01
1.42500000000E+09 +7.29064790968E-02 +8.55377149473E-01 +1.98508741917E-03 +1.73999373758E-03 +2.27894439414E-03 +1.91370729384E-03 -1.20707053824E-01 +8.83232330063E-01
1.43000000000E+09 +9.41889559498E-02 +8.46223439648E-01 +2.40182349675E-03 +1.81665615987E-03 +2.77858803300E-03 +1.73369496965E-03 -9.59195523340E-02 +8.78696497188E-01
1.43500000000E+09 +1.14879679042E-01 +8.35466376818E-01 +3.09506549144E-03 +1.60651275064E-03 +3.37813930627E-03 +1.35804614148E-03 -6.95285451395E-02 +8.71961176281E-01
1.44000000000E+09 +1.35842381071E-01 +8.23392579153E-01 +3.70489801438E-03 +9.87884541721E-04 +3.79769992112E-03 +7.57924072298E-04 -4.13814895715E-02 +8.63476590920E-01
1.44500000000E+09 +1.58520648864E-01 +8.08407288949E-01 +3.99575054303E-03 +3.61839527791E-04 +4.09643250255E-03 +1.14114966101E-04 -1.07996187098E-02 +8.52109738662E-01
1.45000000000E+09 +1.82661259891E-01 +7.90133810460E-01 +4.12844034344E-03 -2.07865772619E-04 +4.22561547742E-03 -4.86873326818E-04 +2.10461783756E-02 +8.37524502380E-01
1.45500000000E+09 +2.09362309515E-01 +7.68311270051E-01 +4.44857197857E-03 -5.78573824979E-04 +4.45777470340E-03 -1.03394186285E-03 +5.44269408690E-02 +8.20232212047E-01
1.46000000000E+09 +2.38561618360E-01 +7.42257507925E-01 +4.94681565201E-03 -1.27191235677E-03 +4.66128543049E-03 -1.66687492997E-03 +8.94135868458E-02 +7.98410667190E-01
1.46500000000E+09 +2.69224293095E-01 +7.11754259196E-01 +5.60671970492E-03 -2.20404224769E-03 +5.00532688180E-03 -2.36661216078E-03 +1.25558139733E-01 +7.71715406431E-01
1.47000000000E+09 +3.00796261837E-01 +6.76249786585E-01 +5.92088481892E-03 -3.95259612832E-03 +5.46577479034E-03 -3.64814006175E-03 +1.63067363456E-01 +7.37730972857E-01
1.47500000000E+09 +3.31425703400E-01 +6.35494890123E-01 +5.32033878463E-03 -5.88959465523E-03 +5.32100073922E-03 -5.45056766679E-03 +1.99803475780E-01 +6.96315798106E-01
1.48000000000E+09 +3.59513714631E-01 +5.88132605853E-01 +4.27326885687E-03 -7.35102941659E-03 +4.49525091987E-03 -7.29093239078E-03 +2.36253839459E-01 +6.46583415557E-01
1.48500000000E+09 +3.82141454920E-01 +5.34208200213E-01 +3.07480645945E-03 -8.87795445949E-03 +3.04796211333E-03 -9.11732767680E-03 +2.69670049981E-01 +5.87738634313E-01
1.49000000000E+09 +3.99584480874E-01 +4.73299365264E-01 +1.29001606019E-03 -1.03267557505E-02 +7.66865659392E-04 -1.03618630668E-02 +2.98334929352E-01 +5.18278692904E-01
1.49500000000E+09 +4.08557056845E-01 +4.04354734232E-01 -1.29147569027E-03 -1.13942498141E-02 -1.64376753314E-03 -1.08562443972E-02 +3.16288803028E-01 +4.38132281344E-01
1.50000000000E+09 +4.07893548733E-01 +3.26667657838E-01 -4.30987432353E-03 -1.20485522846E-02 -4.03167742278E-03 -1.13314133820E-02 +3.21060037716E-01 +3.49379075473E-01
1.50500000000E+09 +3.93981850917E-01 +2.40866187089E-01 -8.13584477778E-03 -1.14859351877E-02 -7.42326696095E-03 -1.12685268136E-02 +3.09955741964E-01 +2.53058897599E-01
1.51000000000E+09 +3.63805879255E-01 +1.50392512410E-01 -1.13785736369E-02 -8.88605440202E-03 -1.08853902698E-02 -9.18261464695E-03 +2.78057124953E-01 +1.51469096282E-01
1.51500000000E+09 +3.13953816984E-01 +5.96531920084E-02 -1.38112551574E-02 -6.80585256478E-03 -1.36454503636E-02 -7.28649863098E-03 +2.20883182745E-01 +5.50857226562E-02
1.52000000000E+09 +2.44540827388E-01 -2.15802622057E-02 -1.70419643502E-02 -2.91848469285E-03 -1.72217076797E-02 -3.22723961865E-03 +1.44917102564E-01 -2.90474600899E-02
1.52500000000E+09 +1.58750952627E-01 -8.87506577407E-02 -1.75058184764E-02 +3.89516204178E-03 -1.76939252511E-02 +3.81721304184E-03 +5.11414243206E-02 -9.66900577430E-02
1.53000000000E+09 +5.99031562255E-02 -1.35681116203E-01 -1.39683672301E-02 +8.36194170696E-03 -1.41579184592E-02 +8.40053363178E-03 -5.62220586226E-02 -1.41084905183E-01
1.53500000000E+09 -4.71835854247E-02 -1.58783141214E-01 -1.11617897762E-02 +1.13531328324E-02 -1.11980100213E-02 +1.13944051176E-02 -1.66585544374E-01 -1.60218807118E-01
1.54000000000E+09 -1.55770404870E-01 -1.55815694143E-01 -7.16097683911E-03 +1.30320181980E-02 -7.20924189292E-03 +1.28876711703E-02 -2.74239542521E-01 -1.57314489253E-01
1.54500000000E+09 -2.57296266721E-01 -1.30460094468E-01 -3.36737504950E-03 +1.36606407693E-02 -3.61949664602E-03 +1.34864953645E-02 -3.72324092588E-01 -1.34398189700E-01
1.55000000000E+09 -3.49023834883E-01 -8.84840119668E-02 -2.92671341079E-04 +1.32801061866E-02 -7.91953429399E-04 +1.33098853674E-02 -4.57679265782E-01 -9.71527197553E-02
1.55500000000E+09 -4.26931428598E-01 -3.36220840851E-02 +3.56501009035E-03 +1.23178932920E-02 +3.10867582019E-03 +1.27895214360E-02 -5.27784206201E-01 -4.96839014564E-02
1.56000000000E+09 -4.89431828025E-01 +2.53501364945E-02 +5.92128843505E-03 +9.26630320058E-03 +5.86836905638E-03 +9.93586754943E-03 -5.84679057221E-01 +2.76780616875E-03
1.56500000000E+09 -5.38894638986E-01 +8.56588362276E-02 +6.43493617244E-03 +7.15685915327E-03 +6.67444066096E-03 +7.64298256551E-03 -6.28465339322E-01 +5.85388355396E-02
1.57000000000E+09 -5.76558134508E-01 +1.43995636993E-01 +6.92997919061E-03 +5.22036789748E-03 +7.42901161901E-03 +5.48664041978E-03 -6.61506117288E-01 +1.12044706055E-01
