# Hz S RI R 50
! CMT, C1220, 16058040, 17.2.0/1
! Date: 14/08/2018 12:45:27
! Data: Format (Calibration Info)
! Freq                      S11: Re/Im (F2)                       S21: Re/Im (F2)                       S12: Re/Im (F2)                       S22: Re/Im (F2)            
1.00000000000E+09 -6.51344724043E-01 +7.13311464211E-01 +2.65300602606E-05 -1.29073480250E-05 -3.20941808119E-05 -1.35044017492E-05 -7.53580542422E-01 +6.21427514580E-01
1.00500000000E+09 -6.44398708523E-01 +7.18203217101E-01 -3.75548916020E-05 +4.89249982402E-05 +6.08680222416E-06 +8.35534711799E-06 -7.50298257670E-01 +6.25501498034E-01
1.01000000000E+09 -6.38261514289E-01 +7.22814999039E-01 -3.25900789625E-05 +4.55699679722E-05 -3.42065378623E-05 -4.44988882924E-06 -7.46627012458E-01 +6.29189094805E-01
1.01500000000E+09 -6.33859943137E-01 +7.26737699926E-01 +1.92910703839E-05 +1.31050085625E-05 -5.43302321068E-05 +3.21186451648E-05 -7.43522101637E-01 +6.32791024184E-01
1.02000000000E+09 -6.30624377522E-01 +7.30332095533E-01 -2.69597567304E-05 -1.07166636611E-05 -6.40570686433E-06 +2.52237857447E-05 -7.40325788189E-01 +6.36317620264E-01
1.02500000000E+09 -6.28511418285E-01 +7.33173977453E-01 -2.24795054783E-05 +1.05077785440E-05 +2.17336457568E-05 +1.18001245938E-05 -7.37494023172E-01 +6.39901816221E-01
1.03000000000E+09 -6.27056170529E-01 +7.35640931021E-01 +5.18915321571E-05 -1.11834722862E-05 -2.72686909306E-05 -4.95607414246E-06 -7.34052711740E-01 +6.43766380989E-01
1.03500000000E+09 -6.24875103116E-01 +7.38294582667E-01 -7.03907155349E-05 +1.56704531392E-05 -6.53258885779E-07 +5.79976280267E-06 -7.30218612029E-01 +6.47584685915E-01
1.04000000000E+09 -6.21419381621E-01 +7.41145553921E-01 +1.32637125185E-05 -8.05552716557E-07 +3.10317436701E-08 +7.28320795031E-05 -7.26493547365E-01 +6.51284529773E-01
1.04500000000E+09 -6.16704112295E-01 +7.44670074638E-01 +3.54459983185E-05 +1.58423941383E-06 -1.50126628686E-05 +2.11110036329E-05 -7.23013204313E-01 +6.54826726887E-01
1.05000000000E+09 -6.10153059222E-01 +7.48786436196E-01 -8.41003148295E-06 +2.71760243236E-05 +2.45330364176E-05 -7.00798632492E-06 -7.19684723157E-01 +6.58201524482E-01
1.05500000000E+09 -6.02275321396E-01 +7.53264999531E-01 +2.44428607030E-05 +6.70631189633E-05 +2.50485269980E-05 +2.03868671011E-05 -7.16487769364E-01 +6.61775850160E-01
1.06000000000E+09 -5.93646808890E-01 +7.58352967282E-01 -3.81624141933E-05 -2.61371521590E-06 +2.47651659777E-06 +3.66615604965E-06 -7.13144544787E-01 +6.65597730189E-01
1.06500000000E+09 -5.85303985738E-01 +7.63486195379E-01 +1.29585480421E-05 +3.69321603929E-05 -3.07686754256E-05 +3.07561573063E-05 -7.09174857602E-01 +6.69342588746E-01
1.07000000000E+09 -5.77780053015E-01 +7.67919301315E-01 +2.71247988669E-05 +2.57931864751E-05 +5.46334451010E-06 +4.56101858186E-05 -7.05136108059E-01 +6.73137357158E-01
1.07500000000E+09 -5.72251750114E-01 +7.71874637194E-01 +2.61883739501E-05 -4.71452483876E-06 -4.38187196760E-05 +5.09212247474E-05 -7.00880846973E-01 +6.76852562564E-01
1.08000000000E+09 -5.67789926744E-01 +7.75261845448E-01 -2.61794244422E-05 +5.61141309665E-05 +1.29871946155E-05 +2.19468066038E-05 -6.96936226190E-01 +6.80679235842E-01
1.08500000000E+09 -5.64958243291E-01 +7.77650981275E-01 +1.41045335817E-05 +2.16119401942E-05 -8.32728620409E-06 +7.62081042733E-06 -6.93282801222E-01 +6.84262172557E-01
1.09000000000E+09 -5.63019249719E-01 +7.79765563953E-01 +3.25865014510E-05 +4.37745647109E-05 -4.85184512734E-06 +4.46320481881E-05 -6.89465552825E-01 +6.88233606494E-01
1.09500000000E+09 -5.61331225376E-01 +7.81697941591E-01 -9.63007475430E-06 +3.89060733748E-06 +3.15427486134E-05 +1.64499581041E-05 -6.85662390933E-01 +6.91969345206E-01
1.10000000000E+09 -5.58715331506E-01 +7.83549118103E-01 +1.24815375979E-05 +1.90502977432E-05 -2.26428079964E-05 +7.52009761436E-05 -6.81793275067E-01 +6.95690157875E-01
1.10500000000E+09 -5.55070347361E-01 +7.86190137849E-01 +4.66066519934E-05 +7.77879589146E-05 +4.99757949347E-05 +3.56187471761E-05 -6.77457120362E-01 +6.99370352145E-01
1.11000000000E+09 -5.49682779927E-01 +7.89312389415E-01 +7.66159764235E-05 +5.67342084878E-06 +1.92774006921E-05 +5.70664441985E-05 -6.73406531000E-01 +7.02564425877E-01
1.11500000000E+09 -5.43041686706E-01 +7.93033171220E-01 +5.67576743844E-05 +6.93871432106E-05 -1.76861043760E-05 -3.97549260994E-05 -6.69513327352E-01 +7.05950843283E-01
1.12000000000E+09 -5.35315518585E-01 +7.96917231577E-01 +4.70145361363E-05 -1.34566385379E-05 +4.86440380609E-05 +3.22347663791E-06 -6.65475369476E-01 +7.09638850739E-01
1.12500000000E+09 -5.27433274310E-01 +8.01153041201E-01 +9.90709626967E-05 +2.63089818435E-05 +3.66208910228E-05 +1.04495599689E-05 -6.61158001750E-01 +7.13597276014E-01
1.13000000000E+09 -5.20001896098E-01 +8.04905594621E-01 +4.09479354919E-05 -6.87708363168E-06 +9.53613640714E-05 +5.18076294646E-05 -6.56825544978E-01 +7.17560837793E-01
1.13500000000E+09 -5.13330300438E-01 +8.07763386796E-01 +2.88865784031E-05 +3.52105380934E-05 +7.27055621074E-05 +2.06766654926E-05 -6.52172757398E-01 +7.21222046543E-01
1.14000000000E+09 -5.07925238858E-01 +8.10343801343E-01 +5.60881914470E-05 +1.45909136658E-05 +7.14314785530E-05 -1.07147914891E-05 -6.47480106765E-01 +7.24794553803E-01
1.14500000000E+09 -5.03690324572E-01 +8.12064319697E-01 +8.64010437534E-05 -1.28369210216E-05 +8.31775311884E-05 -2.55508988421E-05 -6.42851774929E-01 +7.28238770366E-01
1.15000000000E+09 -4.99902980659E-01 +8.13924069429E-01 +8.79122698554E-05 -4.15009349808E-05 +1.23907556659E-05 +6.24220115222E-06 -6.38221171789E-01 +7.32023690106E-01
1.15500000000E+09 -4.96392305767E-01 +8.15852563907E-01 +9.82241679765E-05 +6.77855072450E-07 +4.97043625941E-05 -3.21250489099E-05 -6.33612856924E-01 +7.35677148015E-01
1.16000000000E+09 -4.92030466845E-01 +8.17667425928E-01 +7.23142390707E-05 -1.90649412080E-05 +5.27351043061E-05 -4.45635194841E-05 -6.28724970458E-01 +7.39626126652E-01
1.16500000000E+09 -4.86767929868E-01 +8.20581413666E-01 +5.51664036040E-05 +2.19204461876E-06 +1.23463884241E-04 +8.14162231465E-06 -6.23750847892E-01 +7.43140517063E-01
1.17000000000E+09 -4.80461005395E-01 +8.23694882137E-01 +7.19370721279E-05 +6.94630888384E-06 +9.47514720558E-05 -1.86224013545E-06 -6.18313697052E-01 +7.46506962131E-01
1.17500000000E+09 -4.73174711966E-01 +8.27191668331E-01 +1.26845025064E-04 -3.21743845447E-05 +1.43932332095E-04 -4.90957626913E-05 -6.12775983160E-01 +7.49759122389E-01
1.18000000000E+09 -4.65454335879E-01 +8.30866575257E-01 +9.76210077500E-05 -1.34219240918E-05 +1.61243564408E-04 -6.60936425422E-05 -6.07287606372E-01 +7.52841511371E-01
1.18500000000E+09 -4.57502987248E-01 +8.34439701459E-01 +1.34504427344E-04 -1.12152169732E-04 +1.77971032363E-04 -1.64073102175E-04 -6.01544964710E-01 +7.55838583868E-01
1.19000000000E+09 -4.49897617448E-01 +8.37135418054E-01 +1.32035570920E-04 -1.71532005468E-04 +1.12249825914E-04 -1.50521106285E-04 -5.95593705434E-01 +7.58417881555E-01
1.19500000000E+09 -4.43522563245E-01 +8.39347417045E-01 +1.09527750350E-04 -2.09035296056E-04 +1.31643055308E-04 -2.10867029009E-04 -5.89659448855E-01 +7.59664260029E-01
1.20000000000E+09 -4.38014837984E-01 +8.40330167170E-01 +4.29143747909E-05 -2.28451613711E-04 +5.16634079872E-05 -2.28658514670E-04 -5.85056689799E-01 +7.59821960507E-01
1.20500000000E+09 -4.33244219429E-01 +8.41828980069E-01 -4.00590151316E-05 -1.79017519734E-04 -7.23400391914E-05 -2.03919252273E-04 -5.82795219703E-01 +7.60684167171E-01
1.21000000000E+09 -4.28299709523E-01 +8.43345793782E-01 -5.26557564131E-05 -1.36616550615E-04 -6.81077066372E-05 -9.48570181485E-05 -5.80814391896E-01 +7.64018752784E-01
1.21500000000E+09 -4.22529131905E-01 +8.45205387827E-01 +1.63701582047E-05 -1.26501835295E-04 +2.05360831348E-05 -1.06000369647E-04 -5.77986580768E-01 +7.68606476640E-01
1.22000000000E+09 -4.15657565999E-01 +8.47596484167E-01 -1.54603529032E-05 -1.17976026190E-04 +1.52032298464E-05 -1.79506349942E-04 -5.73790083361E-01 +7.73904536718E-01
1.22500000000E+09 -4.07573454645E-01 +8.50581816577E-01 +3.97728256733E-07 -1.53149567514E-04 -2.30970662552E-06 -1.82431952279E-04 -5.68582224010E-01 +7.78985634532E-01
1.23000000000E+09 -3.98497047271E-01 +8.53870583317E-01 -3.06301424897E-05 -1.44374458695E-04 -5.03490989695E-05 -1.80945659514E-04 -5.63102730784E-01 +7.83660941325E-01
1.23500000000E+09 -3.88928514105E-01 +8.57661193482E-01 -7.04265132717E-05 -1.81215575924E-04 -3.53935746373E-05 -1.54866651161E-04 -5.57223343897E-01 +7.87977502897E-01
1.24000000000E+09 -3.79298964999E-01 +8.61505263054E-01 -4.32842787627E-05 -1.96591093361E-04 -8.44719491179E-05 -1.89562710012E-04 -5.51305673928E-01 +7.91864684678E-01
1.24500000000E+09 -3.70471067646E-01 +8.65384383508E-01 -8.78484510475E-05 -2.05263296449E-04 -8.54781904060E-05 -1.98400373842E-04 -5.45143907117E-01 +7.95668672620E-01
1.25000000000E+09 -3.62406089035E-01 +8.68498596287E-01 -1.60831469983E-04 -1.98739264107E-04 -1.00915462691E-04 -1.92258443071E-04 -5.38776406292E-01 +7.99808305476E-01
1.25500000000E+09 -3.55345259124E-01 +8.70690907012E-01 -1.40670237588E-04 -2.01398218031E-04 -1.20819244643E-04 -1.89266423695E-04 -5.32044609118E-01 +8.03892645367E-01
1.26000000000E+09 -3.49063919694E-01 +8.72292935995E-01 -1.47958949731E-04 -2.54535463521E-04 -1.19561071942E-04 -2.50136657934E-04 -5.25493667378E-01 +8.08101186445E-01
1.26500000000E+09 -3.43057480933E-01 +8.73269616760E-01 -1.34144226151E-04 -2.22562157199E-04 -1.58782162959E-04 -2.65057705579E-04 -5.18590155330E-01 +8.12021275333E-01
1.27000000000E+09 -3.36763549393E-01 +8.74309834230E-01 -2.16059012799E-04 -2.36084240946E-04 -1.65788495304E-04 -2.34320193294E-04 -5.11688805026E-01 +8.15759655099E-01
1.27500000000E+09 -3.29416232415E-01 +8.75597006526E-01 -2.80231431171E-04 -1.88399881646E-04 -2.97848309881E-04 -2.17857434879E-04 -5.04668654184E-01 +8.19326858361E-01
1.28000000000E+09 -3.20167047914E-01 +8.77557932718E-01 -2.74847884242E-04 -1.75543951479E-04 -3.14564520046E-04 -2.17819218009E-04 -4.97528798585E-01 +8.22973235106E-01
1.28500000000E+09 -3.09230179894E-01 +8.79872468292E-01 -2.98163822103E-04 -1.55759909226E-04 -3.69749111683E-04 -1.27370843251E-04 -4.89971075525E-01 +8.26750164820E-01
1.29000000000E+09 -2.97329424268E-01 +8.82723085659E-01 -3.08443835466E-04 -1.67209330241E-04 -3.39834474687E-04 -1.25677154578E-04 -4.82515625140E-01 +8.30653821833E-01
1.29500000000E+09 -2.85046152656E-01 +8.86192664491E-01 -3.32440513295E-04 -1.12333967183E-04 -4.25008146233E-04 -9.79876235788E-05 -4.74661070273E-01 +8.34036615378E-01
1.30000000000E+09 -2.72759240996E-01 +8.89674273628E-01 -4.14082928886E-04 -7.46823803592E-05 -4.55332993416E-04 -5.17850502799E-05 -4.66819464528E-01 +8.37702334737E-01
1.30500000000E+09 -2.61974811470E-01 +8.92742049020E-01 -4.38723545239E-04 -3.29613278429E-05 -4.45202682746E-04 +8.63168783285E-06 -4.58730463937E-01 +8.41239678957E-01
1.31000000000E+09 -2.52515920607E-01 +8.94882370711E-01 -5.79649294416E-04 +6.79704201280E-05 -5.56491797353E-04 +4.35774436029E-05 -4.50390772137E-01 +8.44700267976E-01
1.31500000000E+09 -2.44966780660E-01 +8.96357105555E-01 -4.90959030755E-04 +1.44725704286E-04 -5.04087126812E-04 +1.42642963531E-04 -4.41575968160E-01 +8.48252675652E-01
1.32000000000E+09 -2.38715051354E-01 +8.97045592024E-01 -5.20112264252E-04 +1.67432937567E-04 -5.41329454462E-04 +1.39359186216E-04 -4.32680035205E-01 +8.51663555199E-01
1.32500000000E+09 -2.32819749387E-01 +8.97167346805E-01 -5.23236929352E-04 +1.88769442984E-04 -5.88074913297E-04 +2.23680125285E-04 -4.23341270459E-01 +8.55091136017E-01
1.33000000000E+09 -2.26137652164E-01 +8.97367468741E-01 -5.87590479212E-04 +2.69044817377E-04 -5.87809484910E-04 +3.16475218067E-04 -4.13848187773E-01 +8.58249717529E-01
1.33500000000E+09 -2.17567685478E-01 +8.97249481516E-01 -6.18752216901E-04 +4.18928790991E-04 -5.93053058452E-04 +4.95561680163E-04 -4.03930749329E-01 +8.61468868440E-01
1.34000000000E+09 -2.06474216216E-01 +8.97552831161E-01 -6.10911037514E-04 +5.54345714455E-04 -5.38143408513E-04 +5.27682116992E-04 -3.93909783898E-01 +8.64694421163E-01
1.34500000000E+09 -1.92947163783E-01 +8.97828091572E-01 -5.67640052597E-04 +6.67140473424E-04 -5.08091102064E-04 +6.44604968666E-04 -3.82948158302E-01 +8.68006508853E-01
1.35000000000E+09 -1.77378104416E-01 +8.98479058863E-01 -4.05588370286E-04 +7.24666594927E-04 -3.94148342334E-04 +7.18944397587E-04 -3.71862804981E-01 +8.71211886314E-01
1.35500000000E+09 -1.60419266818E-01 +8.99171760048E-01 -4.21138438966E-04 +7.69411930392E-04 -3.56888461304E-04 +7.56246296336E-04 -3.60256728159E-01 +8.74215747540E-01
1.36000000000E+09 -1.43535031784E-01 +8.99748052892E-01 -2.84654060998E-04 +8.46871251727E-04 -3.19598087273E-04 +8.66897096308E-04 -3.48580249631E-01 +8.76889786241E-01
1.36500000000E+09 -1.27469519493E-01 +9.00116940503E-01 -2.64225052697E-04 +9.37604136418E-04 -2.54307491646E-04 +8.94660976283E-04 -3.36480041423E-01 +8.79542966221E-01
1.37000000000E+09 -1.13183316523E-01 +8.99726158494E-01 -1.50227295551E-04 +1.07410479651E-03 -2.20337620037E-04 +9.84731581855E-04 -3.23630278044E-01 +8.82178481560E-01
1.37500000000E+09 -1.00672427032E-01 +8.99201878032E-01 +1.17237713244E-05 +1.14945615525E-03 -1.35781358350E-04 +1.10230223438E-03 -3.09747692759E-01 +8.84419014745E-01
1.38000000000E+09 -8.93561196132E-02 +8.98090378844E-01 +1.17776668259E-04 +1.15845666765E-03 -8.42514214841E-05 +1.23636644927E-03 -2.95110991179E-01 +8.86674765410E-01
1.38500000000E+09 -7.79117640276E-02 +8.96463011240E-01 +2.09408703867E-04 +1.26240962226E-03 +1.08250266220E-04 +1.43088364737E-03 -2.79672939567E-01 +8.88683388697E-01
1.39000000000E+09 -6.58275614075E-02 +8.94308009763E-01 +3.63463143324E-04 +1.31373230893E-03 +3.92057593809E-04 +1.52871887027E-03 -2.63729545084E-01 +8.90113132425E-01
1.39500000000E+09 -5.15885641494E-02 +8.91484087674E-01 +5.16846850956E-04 +1.43381035207E-03 +7.24121953194E-04 +1.52783194036E-03 -2.47067019101E-01 +8.91103635901E-01
1.40000000000E+09 -3.46702291289E-02 +8.87732260847E-01 +7.00087874629E-04 +1.51623884449E-03 +8.48555919078E-04 +1.51446868469E-03 -2.29659840043E-01 +8.91474057644E-01
1.40500000000E+09 -1.56182962435E-02 +8.83267056866E-01 +9.96765882676E-04 +1.64214878237E-03 +1.09663036620E-03 +1.53570287643E-03 -2.11301175189E-01 +8.91437930561E-01
1.41000000000E+09 +5.58888471172E-03 +8.77943426708E-01 +1.40176051539E-03 +1.59576944570E-03 +1.35593013792E-03 +1.53989811249E-03 -1.90856972695E-01 +8.90858557593E-01
1.41500000000E+09 +2.78934071279E-02 +8.71822415310E-01 +1.77585022322E-03 +1.41695385773E-03 +1.78251213774E-03 +1.57064641418E-03 -1.69136726496E-01 +8.89425474448E-01
1.42000000000E+09 +5.07635503842E-02 +8.64684729405E-01 +2.02487381043E-03 +1.22969012260E-03 +2.23330330495E-03 +1.36442897042E-03 -1.46118119742E-01 +8.86968426469E-01
1.42500000000E+09 +7.25014729569E-02 +8.56558284930E-01 +2.24858803826E-03 +1.11985176733E-03 +2.55233132406E-03 +1.16115888653E-03 -1.22324944222E-01 +8.83294657743E-01
1.43000000000E+09 +9.37316159323E-02 +8.47334842126E-01 +2.71019277642E-03 +1.09350302039E-03 +3.05949245929E-03 +8.81067438751E-04 -9.75084871799E-02 +8.78786862349E-01
1.43500000000E+09 +1.14391510402E-01 +8.36616710487E-01 +3.34560268108E-03 +7.08101317539E-04 +3.55684034972E-03 +3.70290101617E-04 -7.09788311761E-02 +8.71959737580E-01
1.44000000000E+09 +1.35422270645E-01 +8.24502007237E-01 +3.79867765006E-03 -9.98750255959E-05 +3.79429283406E-03 -3.41615149317E-04 -4.28142299244E-02 +8.63242779743E-01
1.44500000000E+09 +1.58085183676E-01 +8.09423322570E-01 +3.88653921069E-03 -8.30424072290E-04 +3.85103048570E-03 -1.06417536499E-03 -1.25891372701E-02 +8.51716510814E-01
1.45000000000E+09 +1.82145137467E-01 +7.91256121643E-01 +3.80996867821E-03 -1.45388210202E-03 +3.82403005188E-03 -1.72429715315E-03 +1.91822057893E-02 +8.37313118926E-01
1.45500000000E+09 +2.08777679224E-01 +7.69351165692E-01 +3.94218849526E-03 -1.93120900526E-03 +3.79911340491E-03 -2.24654082813E-03 +5.25922677645E-02 +8.20080264657E-01
1.46000000000E+09 +2.37751310464E-01 +7.43545000216E-01 +4.21998756670E-03 -2.62887352656E-03 +3.77221272514E-03 -2.95836376569E-03 +8.74866086622E-02 +7.98261750130E-01
1.46500000000E+09 +2.68394143453E-01 +7.13045555255E-01 +4.48794290649E-03 -3.70768519062E-03 +3.92024858849E-03 -3.66276620743E-03 +1.23612144057E-01 +7.71520832559E-01
1.47000000000E+09 +2.99856356317E-01 +6.78057800221E-01 +4.29899931238E-03 -5.39107295008E-03 +3.98270152611E-03 -4.95213788136E-03 +1.60717001077E-01 +7.37507869825E-01
1.47500000000E+09 +3.30388306969E-01 +6.37458739094E-01 +3.13630005717E-03 -6.98901931914E-03 +3.23416886276E-03 -6.57484053105E-03 +1.97120750749E-01 +6.96571717470E-01
1.48000000000E+09 +3.58628060427E-01 +5.90501598925E-01 +1.79808069674E-03 -8.03109587147E-03 +2.07547909790E-03 -8.01045591060E-03 +2.33696254916E-01 +6.47188429899E-01
1.48500000000E+09 +3.81572957742E-01 +5.37074831022E-01 +3.03903446471E-04 -9.16807189686E-03 +1.76339041782E-04 -9.47016882235E-03 +2.67060914879E-01 +5.88531054167E-01
1.49000000000E+09 +3.99426243360E-01 +4.76209974633E-01 -1.92308817519E-03 -1.00133974556E-02 -2.39326889343E-03 -9.95580795349E-03 +2.95594604175E-01 +5.19480080347E-01
1.49500000000E+09 +4.08689028784E-01 +4.07410284434E-01 -4.77139223263E-03 -1.01668715850E-02 -4.99536163479E-03 -9.52534135299E-03 +3.13557379775E-01 +4.40183959822E-01
1.50000000000E+09 +4.08667087740E-01 +3.29890363759E-01 -7.69414430806E-03 -9.78478451920E-03 -7.25708330251E-03 -9.19169975345E-03 +3.18891077716E-01 +3.52006483957E-01
1.50500000000E+09 +3.95430950519E-01 +2.44064521911E-01 -1.11210189113E-02 -7.93017674898E-03 -1.03429973034E-02 -7.99327863265E-03 +3.08829249496E-01 +2.55951692186E-01
1.51000000000E+09 +3.66014106971E-01 +1.53273223099E-01 -1.31537631779E-02 -4.44040579149E-03 -1.28417145550E-02 -4.90716654529E-03 +2.77364092659E-01 +1.54056315399E-01
1.51500000000E+09 +3.16892616031E-01 +6.20623157420E-02 -1.44262849539E-02 -1.85048212065E-03 -1.45450962525E-02 -2.28154440835E-03 +2.21160909639E-01 +5.83466563189E-02
1.52000000000E+09 +2.47992053488E-01 -1.99124609743E-02 -1.62846401072E-02 +2.36436615440E-03 -1.65022592457E-02 +2.14836101148E-03 +1.46513193058E-01 -2.65471494304E-02
1.52500000000E+09 +1.62443538549E-01 -8.80529725187E-02 -1.47493767818E-02 +8.63665903881E-03 -1.49946049873E-02 +8.64184509387E-03 +5.31381082672E-02 -9.51978642009E-02
1.53000000000E+09 +6.32892392351E-02 -1.35970774673E-01 -1.04975706828E-02 +1.17396565528E-02 -1.06102098647E-02 +1.17636669944E-02 -5.38882092869E-02 -1.39866021495E-01
1.53500000000E+09 -4.42813038479E-02 -1.59503678004E-01 -7.05914439760E-03 +1.38992306230E-02 -7.11018154041E-03 +1.39461490292E-02 -1.63652115217E-01 -1.60176503794E-01
1.54000000000E+09 -1.53013059210E-01 -1.57049581862E-01 -2.76574005424E-03 +1.44222158544E-02 -2.82848911221E-03 +1.42966526898E-02 -2.71110551289E-01 -1.57930254064E-01
1.54500000000E+09 -2.55144493986E-01 -1.32460464081E-01 +1.25868304313E-03 +1.39542652493E-02 +9.45858547122E-04 +1.38497303083E-02 -3.69523344816E-01 -1.36477764075E-01
1.55000000000E+09 -3.47655010624E-01 -9.09510122725E-02 +4.10971934816E-03 +1.23496145323E-02 +3.60270096605E-03 +1.25637776849E-02 -4.55370937316E-01 -9.99538925210E-02
1.55500000000E+09 -4.26423763262E-01 -3.58374863660E-02 +7.27706425060E-03 +1.02396847015E-02 +6.91401689060E-03 +1.08300365472E-02 -5.26296300614E-01 -5.33395215733E-02
1.56000000000E+09 -4.89309275939E-01 +2.32952687100E-02 +8.52594862326E-03 +6.72172163113E-03 +8.64534674606E-03 +7.31593590854E-03 -5.84198018241E-01 -9.03309298581E-04
1.56500000000E+09 -5.39014069037E-01 +8.36563933204E-02 +8.26076903585E-03 +4.51432276024E-03 +8.67004935594E-03 +4.97748066827E-03 -6.28473004654E-01 +5.48609744734E-02
1.57000000000E+09 -5.77046780954E-01 +1.42137424160E-01 +8.18880711065E-03 +2.63867424015E-03 +8.76545095878E-03 +2.75448704212E-03 -6.62234508295E-01 +1.08236243242E-01
