# Hz S RI R 50
! CMT, C1220, 16058040, 17.2.0/1
! Date: 14/08/2018 12:45:57
! Data: Format (Calibration Info)
! Freq                      S11: Re/Im (F2)                       S21: Re/Im (F2)                       S12: Re/Im (F2)                       S22: Re/Im (F2)            
1.00000000000E+09 -6.51037527274E-01 +7.12857383563E-01 -2.75968194237E-05 -4.34159732681E-06 +6.73110288193E-05 +2.49727234708E-05 -7.53618451359E-01 +6.21341709900E-01
1.00500000000E+09 -6.44006551515E-01 +7.17933446440E-01 -1.48878599472E-05 -2.78596462037E-05 +1.47367370874E-05 -4.69943466948E-05 -7.50206094383E-01 +6.25396197155E-01
1.01000000000E+09 -6.38016797546E-01 +7.22366046506E-01 -4.18923746546E-06 -2.28913475109E-05 +1.28259963941E-05 +4.64495645571E-06 -7.46619861897E-01 +6.29003675444E-01
1.01500000000E+09 -6.33618635987E-01 +7.26465337071E-01 +1.82488151325E-05 +1.06795873026E-05 -4.39230984138E-05 +7.06035562783E-05 -7.43563783384E-01 +6.32685404972E-01
1.02000000000E+09 -6.30313449567E-01 +7.29812473790E-01 -2.50463012534E-05 +2.67050090916E-05 -1.18892537394E-05 +2.27884657356E-05 -7.40261999166E-01 +6.36148566693E-01
1.02500000000E+09 -6.28341584152E-01 +7.32737628516E-01 -1.44603798191E-05 +2.89288293679E-05 -5.33642813138E-05 +4.77090821958E-05 -7.37477838847E-01 +6.39793940465E-01
1.03000000000E+09 -6.26716965791E-01 +7.35329381440E-01 -5.11126878625E-06 +1.07225487061E-05 +9.85224535599E-06 -1.96030916411E-06 -7.34021750917E-01 +6.43565838380E-01
1.03500000000E+09 -6.24552314718E-01 +7.37882389121E-01 -4.05417964828E-05 +1.57983095104E-05 -1.12123510245E-06 -2.61430465888E-06 -7.30277476801E-01 +6.47683802773E-01
1.04000000000E+09 -6.21160828066E-01 +7.40662695548E-01 -1.84853907925E-05 -1.79773212463E-05 +1.94625868595E-05 +2.62537986268E-05 -7.26378860900E-01 +6.51238131353E-01
1.04500000000E+09 -6.16356961284E-01 +7.44151036561E-01 -3.39768905639E-05 -2.39885924905E-05 -3.82718357853E-05 +1.84053385419E-05 -7.22940146751E-01 +6.54781217821E-01
1.05000000000E+09 -6.09775709723E-01 +7.48396257996E-01 +2.20428213175E-06 +7.22783983859E-05 -2.09594564209E-05 +3.51725896879E-05 -7.19520227381E-01 +6.58124682442E-01
1.05500000000E+09 -6.01935991464E-01 +7.52908931744E-01 +3.80738257101E-05 +1.26600794499E-05 +4.69545770616E-05 +2.45948454202E-05 -7.16171352698E-01 +6.61783963168E-01
1.06000000000E+09 -5.93475783764E-01 +7.58020051810E-01 -1.63191642781E-05 +3.12975461261E-05 -2.87855514049E-06 +8.01602531544E-06 -7.12989756667E-01 +6.65770424529E-01
1.06500000000E+09 -5.85222016818E-01 +7.63044400111E-01 +2.10810947085E-05 +3.91323242636E-06 +1.63906139343E-05 +3.37029372400E-05 -7.09193353721E-01 +6.69489802122E-01
1.07000000000E+09 -5.77792547482E-01 +7.67553125011E-01 +2.84099231180E-05 +8.56806151512E-07 +3.08367893529E-05 +4.81642211480E-06 -7.05026674472E-01 +6.73084806816E-01
1.07500000000E+09 -5.71885574276E-01 +7.71435439293E-01 +7.01232272627E-06 +5.95252759035E-05 -2.66335660353E-05 +3.56649246398E-05 -7.00692883024E-01 +6.76973757221E-01
1.08000000000E+09 -5.67708556589E-01 +7.74714219312E-01 -1.23816400768E-06 +6.19069857842E-05 +2.62026640321E-05 +5.60032945438E-05 -6.96879620230E-01 +6.80729583025E-01
1.08500000000E+09 -5.64863977462E-01 +7.77191785419E-01 +1.31859520585E-05 +3.03982162685E-05 +3.84918420986E-06 +2.22214043571E-05 -6.93169438549E-01 +6.84270598623E-01
1.09000000000E+09 -5.62726978273E-01 +7.79479848381E-01 -1.09955517183E-05 +1.81633849355E-05 -1.59787273835E-05 +2.52651206588E-05 -6.89442367883E-01 +6.88174385767E-01
1.09500000000E+09 -5.61212814046E-01 +7.81187507842E-01 -2.45705515844E-06 -1.32521224150E-05 +4.24210233927E-05 -1.86430397541E-05 -6.85645678337E-01 +6.91907936197E-01
1.10000000000E+09 -5.58704090225E-01 +7.83324171214E-01 -2.37343157215E-06 -2.01069079284E-05 +4.39823468137E-05 +3.71430670676E-05 -6.81853757586E-01 +6.95816257194E-01
1.10500000000E+09 -5.54919202648E-01 +7.85864397254E-01 +4.48207740894E-05 +1.14950119351E-05 +3.49947054982E-05 -8.38134206213E-06 -6.77578153268E-01 +6.99312196633E-01
1.11000000000E+09 -5.49582094965E-01 +7.89052879811E-01 -2.08600569515E-05 +5.71340252350E-05 -1.84397832428E-05 +8.13371717812E-05 -6.73511406867E-01 +7.02573039992E-01
1.11500000000E+09 -5.42797566703E-01 +7.92885995397E-01 +4.36983222232E-05 +1.86498449157E-05 +3.62462908918E-05 +3.32085735452E-05 -6.69634858696E-01 +7.05895036058E-01
1.12000000000E+09 -5.35255591710E-01 +7.96678257233E-01 +3.29514902750E-05 -3.04792159761E-05 +6.15838452355E-05 +1.44601975353E-05 -6.65465129118E-01 +7.09644733161E-01
1.12500000000E+09 -5.27372242390E-01 +8.00800027982E-01 +5.28072627960E-05 -3.36283610644E-05 -1.29259471429E-06 -1.81493271809E-05 -6.61302292143E-01 +7.13632334789E-01
1.13000000000E+09 -5.19885555801E-01 +8.04569812471E-01 +8.00311369941E-05 +6.03058414366E-06 +4.57375094137E-05 +9.19977635444E-06 -6.56964658183E-01 +7.17378043588E-01
1.13500000000E+09 -5.13315355370E-01 +8.07535371374E-01 +1.13029617570E-04 +9.31313066399E-06 +2.85113144292E-07 +3.88913577090E-05 -6.52269154677E-01 +7.21219756941E-01
1.14000000000E+09 -5.07790151228E-01 +8.10049864095E-01 +3.69355807969E-05 +5.05978381220E-05 +6.85565230586E-05 +8.01478894704E-06 -6.47470034145E-01 +7.24746393689E-01
1.14500000000E+09 -5.03567727936E-01 +8.11760332766E-01 +7.05872622850E-05 -9.14488719962E-07 +7.78878820669E-05 -2.97191493887E-06 -6.42711762649E-01 +7.28167938007E-01
1.15000000000E+09 -4.99913024548E-01 +8.13631759188E-01 +6.63558604262E-05 +1.57727848131E-05 +2.44054262447E-05 +4.70904493582E-06 -6.38266350530E-01 +7.31926336904E-01
1.15500000000E+09 -4.96386945136E-01 +8.15594518294E-01 +1.10975873181E-04 +2.02620953424E-05 +3.28855032068E-05 +1.97197158945E-05 -6.33404914957E-01 +7.35843674209E-01
1.16000000000E+09 -4.91953257808E-01 +8.17549370586E-01 +2.36388758160E-05 +2.61113757458E-05 +8.52650417253E-05 +1.16402302809E-05 -6.28772971618E-01 +7.39562999504E-01
1.16500000000E+09 -4.86778794761E-01 +8.20396613348E-01 +9.57023321136E-05 +2.32436892896E-05 +5.60797085362E-05 -9.42901998769E-06 -6.23839125663E-01 +7.43280202877E-01
1.17000000000E+09 -4.80483622348E-01 +8.23485463718E-01 +9.70974147690E-05 +4.44135849036E-07 +1.60754781662E-04 +2.28170663525E-06 -6.18355483260E-01 +7.46564603538E-01
1.17500000000E+09 -4.72990164898E-01 +8.27018341791E-01 +1.22930510351E-04 -3.68102752687E-05 +1.23878702585E-04 -6.69591328585E-05 -6.12715243331E-01 +7.49728395276E-01
1.18000000000E+09 -4.65283136081E-01 +8.30792003963E-01 +1.06914646594E-04 -3.33455007857E-05 +9.29513593510E-05 -1.06235584658E-05 -6.07415411091E-01 +7.52917181152E-01
1.18500000000E+09 -4.57459211130E-01 +8.34251164681E-01 +1.38969036577E-04 -1.02882460241E-04 +1.01856173020E-04 -5.78136117911E-05 -6.01628602795E-01 +7.55944094067E-01
1.19000000000E+09 -4.49960389938E-01 +8.36951639951E-01 +1.24208938371E-04 -1.05877074304E-04 +1.32156363026E-04 -1.39560519269E-04 -5.95675756845E-01 +7.58403973046E-01
1.19500000000E+09 -4.43407710250E-01 +8.39175939461E-01 +1.25604275787E-04 -1.64236073088E-04 +1.32390044851E-04 -1.78987965571E-04 -5.89606553696E-01 +7.59634618867E-01
1.20000000000E+09 -4.38044668065E-01 +8.40218627447E-01 +6.89391199443E-05 -2.20220497224E-04 +4.18402808899E-05 -2.56022814583E-04 -5.85105309862E-01 +7.59894990167E-01
1.20500000000E+09 -4.33171999543E-01 +8.41647041259E-01 -4.98811114549E-05 -1.95337388777E-04 -2.22963918372E-05 -1.74158402317E-04 -5.82804887199E-01 +7.60800689811E-01
1.21000000000E+09 -4.28321782638E-01 +8.43112775834E-01 -7.72606358857E-05 -1.07509127185E-04 -6.46355336344E-05 -1.05201970576E-04 -5.80869408382E-01 +7.63956545292E-01
1.21500000000E+09 -4.22649450167E-01 +8.45129804095E-01 -1.10748163306E-05 -1.29001735398E-04 +1.20302029588E-06 -1.21389664844E-04 -5.78008269548E-01 +7.68690476979E-01
1.22000000000E+09 -4.15737003404E-01 +8.47404812885E-01 +1.01694471591E-06 -1.00032266672E-04 -2.84549942554E-05 -9.33950919424E-05 -5.73933133145E-01 +7.73848865160E-01
1.22500000000E+09 -4.07571840941E-01 +8.50460643385E-01 -2.44419239881E-05 -1.44086893850E-04 +1.89129095836E-05 -1.85065757240E-04 -5.68854884136E-01 +7.78992777167E-01
1.23000000000E+09 -3.98353355138E-01 +8.53822544325E-01 -1.68558291294E-05 -1.49930029452E-04 -2.70390038454E-05 -1.95192736276E-04 -5.63215452191E-01 +7.83736050853E-01
1.23500000000E+09 -3.88908965464E-01 +8.57529462163E-01 -2.53117099772E-06 -1.43756470321E-04 -2.03845427846E-05 -1.67772527710E-04 -5.57452353619E-01 +7.87998240994E-01
1.24000000000E+09 -3.79411640840E-01 +8.61531360349E-01 -6.01475103863E-05 -1.74423932413E-04 -4.24269315279E-05 -1.61977943912E-04 -5.51485673370E-01 +7.91840321915E-01
1.24500000000E+09 -3.70463712444E-01 +8.65396052873E-01 -1.06887305383E-04 -2.24565127855E-04 -6.82363565062E-05 -1.62521637775E-04 -5.45337584951E-01 +7.95606650060E-01
1.25000000000E+09 -3.62372048140E-01 +8.68439997240E-01 -1.11652075992E-04 -1.44074808898E-04 -8.83590017564E-05 -1.71407407656E-04 -5.38869928313E-01 +7.99905614115E-01
1.25500000000E+09 -3.55374632194E-01 +8.70637648616E-01 -6.94872570419E-05 -1.69266524595E-04 -7.72933484400E-05 -2.01935272956E-04 -5.32170778062E-01 +8.03800138218E-01
1.26000000000E+09 -3.49073803823E-01 +8.72273119835E-01 -9.30303376948E-05 -1.89504546512E-04 -1.04890306496E-04 -1.54263802522E-04 -5.25552745121E-01 +8.08131434999E-01
1.26500000000E+09 -3.43088747738E-01 +8.73325141561E-01 -1.36792736905E-04 -1.40776249936E-04 -1.37112298608E-04 -2.30467630847E-04 -5.18610435680E-01 +8.11998855971E-01
1.27000000000E+09 -3.36823532525E-01 +8.74389176589E-01 -1.93427059989E-04 -2.02574383830E-04 -2.03131214561E-04 -2.08599015091E-04 -5.11794203187E-01 +8.15918303293E-01
1.27500000000E+09 -3.29327397878E-01 +8.75676455653E-01 -2.65538135234E-04 -1.49446684126E-04 -2.42039792695E-04 -1.85401903147E-04 -5.04708426235E-01 +8.19476665770E-01
1.28000000000E+09 -3.20157205816E-01 +8.77565659220E-01 -2.70147661344E-04 -1.36465879605E-04 -3.00268725675E-04 -1.20013044813E-04 -4.97697626779E-01 +8.23153915904E-01
1.28500000000E+09 -3.09189004471E-01 +8.79857631851E-01 -2.82021052543E-04 -9.40883489041E-05 -3.19194009796E-04 -1.08280603705E-04 -4.90031188726E-01 +8.26964074306E-01
1.29000000000E+09 -2.97285864742E-01 +8.82790485262E-01 -2.97274688070E-04 -1.10624211362E-04 -3.48186631650E-04 -1.31785691025E-04 -4.82519677331E-01 +8.30794296724E-01
1.29500000000E+09 -2.84903658226E-01 +8.86006536339E-01 -3.08145503844E-04 -1.15956269534E-04 -3.58581664996E-04 -8.38229778595E-05 -4.74615939034E-01 +8.34225445803E-01
1.30000000000E+09 -2.72836311267E-01 +8.89563268468E-01 -3.61496532101E-04 -9.12720436171E-05 -3.98766104720E-04 -2.09008147378E-05 -4.66764897909E-01 +8.37892537636E-01
1.30500000000E+09 -2.61842176004E-01 +8.92611344459E-01 -4.57149024187E-04 -2.63360041211E-05 -4.31096820523E-04 -1.10798475545E-05 -4.58708277507E-01 +8.41417165652E-01
1.31000000000E+09 -2.52525458849E-01 +8.94819919789E-01 -5.24115689422E-04 +8.20168556084E-05 -4.66487529749E-04 +4.65444569967E-05 -4.50387066309E-01 +8.44892181752E-01
1.31500000000E+09 -2.45023876792E-01 +8.96249805188E-01 -4.45853370065E-04 +1.64314734488E-04 -5.08224018612E-04 +1.11582957631E-04 -4.41650821629E-01 +8.48309485259E-01
1.32000000000E+09 -2.38815015015E-01 +8.97129471556E-01 -4.09627662823E-04 +1.37629611223E-04 -4.66475830485E-04 +1.75044048117E-04 -4.32662237155E-01 +8.51670195593E-01
1.32500000000E+09 -2.32924016321E-01 +8.97332232657E-01 -4.85940603394E-04 +1.90648898475E-04 -5.68489208468E-04 +2.16261541607E-04 -4.23313329587E-01 +8.55162833982E-01
1.33000000000E+09 -2.26156177809E-01 +8.97473975555E-01 -4.92222805961E-04 +2.27436958036E-04 -5.03464611214E-04 +3.01104132866E-04 -4.13737019341E-01 +8.58346044023E-01
1.33500000000E+09 -2.17608829474E-01 +8.97281464387E-01 -5.67612966908E-04 +3.68544966936E-04 -4.83961908945E-04 +4.38105984876E-04 -4.04065242275E-01 +8.61580801702E-01
1.34000000000E+09 -2.06540702088E-01 +8.97536466821E-01 -5.07714069170E-04 +5.03384486380E-04 -4.94509686451E-04 +4.81992231226E-04 -3.93781039840E-01 +8.64970654767E-01
1.34500000000E+09 -1.92932749176E-01 +8.97874541425E-01 -4.80421099267E-04 +6.14882237693E-04 -4.46979404268E-04 +5.68397875471E-04 -3.83047790797E-01 +8.68188235815E-01
1.35000000000E+09 -1.77314861939E-01 +8.98465491602E-01 -3.52117765454E-04 +6.39759616729E-04 -3.29699240916E-04 +6.43658731013E-04 -3.71696958724E-01 +8.71332689653E-01
1.35500000000E+09 -1.60403547859E-01 +8.99137919778E-01 -3.44193669495E-04 +7.02402533803E-04 -3.50972694881E-04 +7.26809967598E-04 -3.60123502451E-01 +8.74221161798E-01
1.36000000000E+09 -1.43564829548E-01 +8.99785396424E-01 -2.75737588733E-04 +7.90125941354E-04 -2.89045701349E-04 +8.00369547666E-04 -3.48482721507E-01 +8.76825391942E-01
1.36500000000E+09 -1.27539741455E-01 +9.00056736139E-01 -2.21060670636E-04 +9.28307643779E-04 -1.94833911200E-04 +8.46335235761E-04 -3.36272751098E-01 +8.79513712733E-01
1.37000000000E+09 -1.13236753382E-01 +8.99652939604E-01 -1.43664233760E-04 +1.00114770673E-03 -1.37386342242E-04 +9.29291042525E-04 -3.23404634195E-01 +8.82028999110E-01
1.37500000000E+09 -1.00891058683E-01 +8.99133589482E-01 +6.07206498213E-05 +1.03931626415E-03 -5.88312130767E-05 +1.02520093058E-03 -3.09500740534E-01 +8.84332032955E-01
1.38000000000E+09 -8.95319893020E-02 +8.98164626880E-01 +1.70694407553E-04 +1.06588009455E-03 +2.26108717922E-07 +1.12732402305E-03 -2.94781669344E-01 +8.86438301975E-01
1.38500000000E+09 -7.80200383358E-02 +8.96455680327E-01 +2.31581661935E-04 +1.11792184848E-03 +1.16494229380E-04 +1.29364326973E-03 -2.79306381161E-01 +8.88549684798E-01
1.39000000000E+09 -6.59331645811E-02 +8.94259808136E-01 +4.02009353642E-04 +1.22381625438E-03 +4.40924876193E-04 +1.42554112845E-03 -2.63411000511E-01 +8.89937672031E-01
1.39500000000E+09 -5.17544337827E-02 +8.91416515826E-01 +5.86859822079E-04 +1.24308559699E-03 +7.36768538329E-04 +1.32512205368E-03 -2.46726834428E-01 +8.90782940662E-01
1.40000000000E+09 -3.49405094997E-02 +8.87625768521E-01 +6.78071609637E-04 +1.30638850980E-03 +8.38824543715E-04 +1.31126617088E-03 -2.29387918725E-01 +8.91209588754E-01
1.40500000000E+09 -1.61305713182E-02 +8.83159605010E-01 +1.03563531306E-03 +1.40612883985E-03 +1.06635332214E-03 +1.27963763129E-03 -2.10863736307E-01 +8.91072996481E-01
1.41000000000E+09 +5.02847774547E-03 +8.77900880306E-01 +1.33895963170E-03 +1.34269686170E-03 +1.30264579540E-03 +1.34881208162E-03 -1.90667468601E-01 +8.90417246958E-01
1.41500000000E+09 +2.74117872129E-02 +8.71702520117E-01 +1.67012257567E-03 +1.22638369379E-03 +1.72447903710E-03 +1.32172006519E-03 -1.69049067299E-01 +8.88957576326E-01
1.42000000000E+09 +5.00470030099E-02 +8.64620106682E-01 +1.86562712792E-03 +9.97354040474E-04 +2.01155204043E-03 +1.19089353576E-03 -1.46003497800E-01 +8.86391007402E-01
1.42500000000E+09 +7.18313697216E-02 +8.56615518633E-01 +2.10150507653E-03 +9.53688846207E-04 +2.38482107581E-03 +9.96984014010E-04 -1.22457358440E-01 +8.82539169248E-01
1.43000000000E+09 +9.29344444457E-02 +8.47424421605E-01 +2.52811962787E-03 +8.26906809605E-04 +2.82320711377E-03 +6.48631046728E-04 -9.77522345503E-02 +8.77870055210E-01
1.43500000000E+09 +1.13385780717E-01 +8.36856274795E-01 +3.11864053688E-03 +4.47262666632E-04 +3.28175944638E-03 +1.61015251721E-04 -7.13649279685E-02 +8.71112324893E-01
1.44000000000E+09 +1.34275932071E-01 +8.24762785115E-01 +3.44531562641E-03 -3.65888965400E-04 +3.45295694395E-03 -5.91376310723E-04 -4.34108422584E-02 +8.62381772454E-01
1.44500000000E+09 +1.56706241970E-01 +8.09949229557E-01 +3.39509554416E-03 -1.03214272509E-03 +3.38906960528E-03 -1.18190385770E-03 -1.31866702701E-02 +8.50974940621E-01
1.45000000000E+09 +1.80914250160E-01 +7.91837017719E-01 +3.29652814795E-03 -1.54616010770E-03 +3.31471523163E-03 -1.76359428458E-03 +1.81977796179E-02 +8.36608808981E-01
1.45500000000E+09 +2.07389116860E-01 +7.70169435631E-01 +3.38472960538E-03 -1.86611428411E-03 +3.19806930026E-03 -2.16565703856E-03 +5.15413392926E-02 +8.19276798681E-01
1.46000000000E+09 +2.36291871017E-01 +7.44448335941E-01 +3.68228214330E-03 -2.52544632782E-03 +3.29211782307E-03 -2.72132739539E-03 +8.62188794911E-02 +7.97524947119E-01
1.46500000000E+09 +2.66756885576E-01 +7.14080869878E-01 +3.87060601440E-03 -3.61065148623E-03 +3.34618676943E-03 -3.54377909048E-03 +1.22040688809E-01 +7.70897163954E-01
1.47000000000E+09 +2.97673885395E-01 +6.79142562969E-01 +3.55061204576E-03 -5.15440149077E-03 +3.20620633601E-03 -4.74799196108E-03 +1.58662700560E-01 +7.37051593956E-01
1.47500000000E+09 +3.28064543159E-01 +6.39232740514E-01 +2.29855533241E-03 -6.48956583016E-03 +2.45671213124E-03 -6.13826261624E-03 +1.94691643253E-01 +6.96677314903E-01
1.48000000000E+09 +3.56040780561E-01 +5.92879810773E-01 +1.02209350929E-03 -7.24812585452E-03 +1.26852638371E-03 -7.29798964257E-03 +2.31213460809E-01 +6.47735068448E-01
1.48500000000E+09 +3.79016838985E-01 +5.40313155831E-01 -4.21109948461E-04 -8.17866330634E-03 -5.43948870569E-04 -8.43542663132E-03 +2.64431817206E-01 +5.89867200358E-01
1.49000000000E+09 +3.97035874886E-01 +4.80436182469E-01 -2.39922052043E-03 -8.71654693140E-03 -2.81669874623E-03 -8.54506224780E-03 +2.93109775172E-01 +5.21455473648E-01
1.49500000000E+09 +4.06962946800E-01 +4.12729406510E-01 -4.99778573814E-03 -8.62237019193E-03 -5.12741414297E-03 -8.04447987653E-03 +3.11249987089E-01 +4.42927551281E-01
1.50000000000E+09 +4.07764198036E-01 +3.36142482074E-01 -7.37672218770E-03 -7.93309034168E-03 -7.01291059719E-03 -7.40768713239E-03 +3.17328026036E-01 +3.55772212241E-01
1.50500000000E+09 +3.95814975552E-01 +2.51173062614E-01 -1.00873133998E-02 -6.23570733528E-03 -9.48544198425E-03 -6.28462656114E-03 +3.08210746758E-01 +2.60412536667E-01
1.51000000000E+09 +3.68162333236E-01 +1.61154548999E-01 -1.19338519165E-02 -3.19469844389E-03 -1.16592809929E-02 -3.62309846568E-03 +2.77833730153E-01 +1.59045291342E-01
1.51500000000E+09 +3.21622628339E-01 +6.98521388061E-02 -1.30146884038E-02 -3.42873889652E-04 -1.31103313417E-02 -7.33565453246E-04 +2.23407717208E-01 +6.35615002866E-02
1.52000000000E+09 +2.54830393167E-01 -1.36217920746E-02 -1.39786022024E-02 +3.40643438983E-03 -1.41874832090E-02 +3.31682755787E-03 +1.50495735548E-01 -2.20205394690E-02
1.52500000000E+09 +1.71213473038E-01 -8.36007243340E-02 -1.19411690111E-02 +8.94868130641E-03 -1.21418224945E-02 +8.94093005269E-03 +5.84891945666E-02 -9.20230693234E-02
1.53000000000E+09 +7.23221890013E-02 -1.34409345262E-01 -7.73294034714E-03 +1.07925263443E-02 -7.83623710537E-03 +1.08845571523E-02 -4.75179389985E-02 -1.38512007236E-01
1.53500000000E+09 -3.54136759075E-02 -1.59668388046E-01 -4.87070066245E-03 +1.22481454587E-02 -4.88592806970E-03 +1.22649816857E-02 -1.57488023476E-01 -1.61062334172E-01
1.54000000000E+09 -1.44642097471E-01 -1.59457982701E-01 -1.39651934302E-03 +1.22875715810E-02 -1.49129851611E-03 +1.22441022838E-02 -2.65842316532E-01 -1.60348656069E-01
1.54500000000E+09 -2.47822628366E-01 -1.36458170524E-01 +2.09081741461E-03 +1.17145590555E-02 +1.82762132078E-03 +1.16085530509E-02 -3.65285097655E-01 -1.40305529309E-01
1.55000000000E+09 -3.41911717154E-01 -9.62475190743E-02 +4.19434931585E-03 +1.01959633679E-02 +3.79605024513E-03 +1.02861234576E-02 -4.52770727813E-01 -1.04405057706E-01
1.55500000000E+09 -4.22595328879E-01 -4.16550497974E-02 +6.71265318613E-03 +8.16809318458E-03 +6.50425018845E-03 +8.64689734044E-03 -5.25008685954E-01 -5.76852284657E-02
1.56000000000E+09 -4.86721393506E-01 +1.72802370457E-02 +7.62631314828E-03 +5.19551133918E-03 +7.75368404931E-03 +5.69129104900E-03 -5.84082114944E-01 -5.11618522827E-03
1.56500000000E+09 -5.37991910245E-01 +7.80598287245E-02 +7.36733696741E-03 +3.30217474625E-03 +7.78243340593E-03 +3.70892083775E-03 -6.29261987291E-01 +5.10140396864E-02
1.57000000000E+09 -5.76876609259E-01 +1.37296447565E-01 +7.11082955214E-03 +1.58890415380E-03 +7.54541887344E-03 +1.62333785478E-03 -6.63802474196E-01 +1.05099168293E-01
