# Hz S RI R 50
! CMT, C1220, 16058040, 17.2.0/1
! Date: 14/08/2018 12:48:14
! Data: Format (Calibration Info)
! Freq                      S11: Re/Im (F2)                       S21: Re/Im (F2)                       S12: Re/Im (F2)                       S22: Re/Im (F2)            
1.00000000000E+09 -6.51801905508E-01 +7.13337762025E-01 +2.02974862970E-05 -3.68822884622E-05 +8.74264622546E-06 +2.28542516880E-05 -7.53819438583E-01 +6.21379688119E-01
1.00500000000E+09 -6.44803725009E-01 +7.18363727781E-01 -6.82390286347E-06 -8.85323284377E-07 -2.96587861695E-06 -1.43028308158E-05 -7.50155742684E-01 +6.25667350657E-01
1.01000000000E+09 -6.38900892131E-01 +7.22940660895E-01 -4.08510144478E-05 +6.08847487696E-05 -4.31023392361E-05 -2.32965995640E-06 -7.46845167538E-01 +6.29303060938E-01
1.01500000000E+09 -6.34401081410E-01 +7.26927051900E-01 +1.87016585027E-05 -3.62066837890E-05 -7.59508153838E-06 +1.88882004449E-05 -7.43717715970E-01 +6.32767250763E-01
1.02000000000E+09 -6.31408879279E-01 +7.30140155803E-01 +1.73981961371E-05 -1.95455491359E-05 -5.22975867046E-05 -3.80843093181E-06 -7.40399722580E-01 +6.36281552125E-01
1.02500000000E+09 -6.29380866578E-01 +7.33081858557E-01 +2.59350944506E-05 -1.66680644365E-05 -1.46550283995E-05 -3.72605090105E-05 -7.37550899378E-01 +6.39896592921E-01
1.03000000000E+09 -6.28004711119E-01 +7.35588631852E-01 +2.88236930437E-05 +2.70514577592E-05 +6.57519962786E-07 +4.88995121759E-05 -7.34015070840E-01 +6.43785797251E-01
1.03500000000E+09 -6.25623222844E-01 +7.38230366906E-01 -1.18530233918E-05 +3.07938766952E-05 -2.74099548369E-06 +4.19067921755E-05 -7.30147176581E-01 +6.47753060858E-01
1.04000000000E+09 -6.22286379026E-01 +7.41205587031E-01 -3.71325550183E-05 +4.43003908930E-05 +1.58663938854E-05 +4.69442237029E-05 -7.26275577677E-01 +6.51221705601E-01
1.04500000000E+09 -6.17455278442E-01 +7.44699017265E-01 -3.96608667756E-05 -1.39490155608E-05 -1.36370154339E-05 +3.34477371242E-05 -7.22831811791E-01 +6.54870724621E-01
1.05000000000E+09 -6.10847938598E-01 +7.48773334021E-01 +3.27234537943E-05 +3.70678879441E-05 -2.17478948134E-05 +2.36229489845E-06 -7.19521972471E-01 +6.58371675560E-01
1.05500000000E+09 -6.03019912126E-01 +7.53424600459E-01 -2.31380503987E-05 +2.61512278809E-05 -2.77671618636E-06 -5.86268042750E-06 -7.16337336532E-01 +6.62000861552E-01
1.06000000000E+09 -5.94591151216E-01 +7.58343919540E-01 +1.94321403023E-05 +8.01321838928E-06 -4.01253941945E-05 +5.36018452469E-05 -7.12903286286E-01 +6.65812598114E-01
1.06500000000E+09 -5.86255439873E-01 +7.63290066184E-01 -3.62237057985E-05 +2.48134846410E-05 +3.05457925117E-05 +6.21954828318E-06 -7.08935272751E-01 +6.69675630214E-01
1.07000000000E+09 -5.78955195929E-01 +7.67857039407E-01 +5.06262823488E-05 +3.24714885897E-05 -2.81237443586E-06 +3.83465738069E-05 -7.05074432646E-01 +6.73337242786E-01
1.07500000000E+09 -5.73171157216E-01 +7.71812523032E-01 -1.46602937916E-05 -1.13777510540E-05 -1.79998697912E-05 +1.50064952911E-05 -7.00719047489E-01 +6.76918996207E-01
1.08000000000E+09 -5.68992474387E-01 +7.74903356006E-01 +2.92744764747E-05 -2.73793693076E-06 +3.95689381679E-05 +1.70005357958E-05 -6.96931056242E-01 +6.80768172572E-01
1.08500000000E+09 -5.66175042580E-01 +7.77536183863E-01 +1.69245518627E-05 +1.57958432136E-05 +1.34291840350E-05 +1.42383297751E-05 -6.93092589020E-01 +6.84467334905E-01
1.09000000000E+09 -5.64213426161E-01 +7.79551052369E-01 -2.39698640284E-05 +4.88841699702E-05 +4.51535641362E-05 +5.41059062309E-05 -6.89521060546E-01 +6.88249477139E-01
1.09500000000E+09 -5.62516715431E-01 +7.81423435525E-01 +1.35404051453E-05 +7.18113414590E-05 -1.02465997008E-05 +4.32105113713E-05 -6.85621718901E-01 +6.92164007854E-01
1.10000000000E+09 -5.59861112657E-01 +7.83524695364E-01 +4.32151330400E-05 +6.85089159770E-05 +5.30284788788E-05 +4.18421785614E-05 -6.81786551434E-01 +6.95971412645E-01
1.10500000000E+09 -5.56158745323E-01 +7.86025844441E-01 +5.67281030204E-05 +4.95470886226E-06 +3.92187216185E-05 +3.29573451947E-05 -6.77633275324E-01 +6.99350480817E-01
1.11000000000E+09 -5.50692901214E-01 +7.89318274535E-01 +2.20688377956E-05 +7.03744373759E-06 +3.71813849004E-05 +1.48275701945E-05 -6.73398478423E-01 +7.02678912584E-01
1.11500000000E+09 -5.43988587204E-01 +7.93182959449E-01 +2.93097909105E-05 -1.55697672434E-06 +4.65865405470E-05 +3.28229646613E-05 -6.69490673914E-01 +7.06129614020E-01
1.12000000000E+09 -5.36443407075E-01 +7.97094592361E-01 +5.68795482240E-05 +2.67753119453E-05 +4.76616487712E-05 +1.61396990100E-05 -6.65510880920E-01 +7.09903033138E-01
1.12500000000E+09 -5.28497035887E-01 +8.01222767301E-01 +1.24321439692E-05 +2.72331773304E-05 +6.14554409852E-05 +5.20026116519E-05 -6.61189892561E-01 +7.13652993644E-01
1.13000000000E+09 -5.21094285278E-01 +8.04842302320E-01 +1.67700805815E-05 +3.09294552996E-05 +3.08046533091E-05 +4.45957062229E-05 -6.56800181225E-01 +7.17404956806E-01
1.13500000000E+09 -5.14405476327E-01 +8.07694381801E-01 +7.08920444402E-05 +2.05908893711E-06 +4.49366444369E-06 +5.67874266095E-05 -6.52077214098E-01 +7.21414106616E-01
1.14000000000E+09 -5.09209156154E-01 +8.10310135487E-01 +7.95247618055E-05 +6.43314532638E-05 +6.61179349908E-05 +1.73705044044E-05 -6.47314385217E-01 +7.24857523821E-01
1.14500000000E+09 -5.04934214213E-01 +8.12123610467E-01 +1.22621466595E-04 +9.30834372033E-06 +6.88990006404E-05 -1.76921449740E-05 -6.42769916979E-01 +7.28452120024E-01
1.15000000000E+09 -5.01096985272E-01 +8.13802819112E-01 +9.65312008568E-05 +3.54566209970E-06 +8.99257497233E-05 +1.55277401531E-05 -6.38226140654E-01 +7.32108584830E-01
1.15500000000E+09 -4.97669163205E-01 +8.15811430587E-01 +5.53240631402E-05 -1.40573037866E-05 +7.46470445311E-05 +1.50054261621E-05 -6.33456656695E-01 +7.36080949234E-01
1.16000000000E+09 -4.93326246930E-01 +8.17841950864E-01 +8.32479190666E-05 -1.51249979612E-05 +8.52086295472E-05 -1.69703277893E-05 -6.28753223002E-01 +7.39812467872E-01
1.16500000000E+09 -4.88026992351E-01 +8.20744197345E-01 +6.98281243503E-05 +1.00394869458E-05 +5.74060381116E-05 +2.03410265666E-05 -6.23546359056E-01 +7.43376721081E-01
1.17000000000E+09 -4.81644752217E-01 +8.24070489455E-01 +9.86285443025E-05 -2.51180796189E-05 +9.19370019952E-05 -8.62246250147E-06 -6.18278141658E-01 +7.46832647391E-01
1.17500000000E+09 -4.74347140634E-01 +8.27406573637E-01 +1.25271443750E-04 -3.48338883294E-05 +1.08335121475E-04 +6.19254442777E-06 -6.12623193838E-01 +7.49954046213E-01
1.18000000000E+09 -4.66549844823E-01 +8.31217869602E-01 +1.08581749225E-04 -5.96805043479E-05 +7.89183326522E-05 -1.13012213713E-05 -6.07376959266E-01 +7.52896323720E-01
1.18500000000E+09 -4.58681328875E-01 +8.34657863121E-01 +1.63800100747E-04 -6.07135847454E-05 +1.31383711145E-04 -9.47882845059E-05 -6.01478920399E-01 +7.56059534601E-01
1.19000000000E+09 -4.51337156807E-01 +8.37370228204E-01 +1.17215768565E-04 -1.19249925491E-04 +1.33952259635E-04 -1.26078460031E-04 -5.95479779065E-01 +7.58585543242E-01
1.19500000000E+09 -4.45055967051E-01 +8.39470526610E-01 +1.57772277764E-04 -1.36835759116E-04 +1.36511102722E-04 -2.10190822562E-04 -5.89628113011E-01 +7.59761582305E-01
1.20000000000E+09 -4.39484927199E-01 +8.40482686451E-01 +5.05930130327E-05 -2.22437672834E-04 +4.22841779290E-06 -2.15672154143E-04 -5.85174423695E-01 +7.60115234181E-01
1.20500000000E+09 -4.34719030303E-01 +8.41871052326E-01 -5.34712281021E-05 -2.04284290941E-04 -5.07941244606E-05 -1.91333818705E-04 -5.82693030794E-01 +7.61023644719E-01
1.21000000000E+09 -4.29908786810E-01 +8.43347990861E-01 -1.37451376525E-05 -1.84211924810E-04 -5.73018843886E-05 -1.49067874963E-04 -5.80811950255E-01 +7.64157173847E-01
1.21500000000E+09 -4.24213586590E-01 +8.45635047286E-01 -1.57544657150E-05 -8.12629377315E-05 -1.37428332097E-05 -4.52932108462E-05 -5.77840599785E-01 +7.68621409660E-01
1.22000000000E+09 -4.17153739050E-01 +8.47764142292E-01 +3.22346363821E-05 -1.22220115821E-04 +3.40772083925E-05 -1.09919356352E-04 -5.73822463990E-01 +7.74068941990E-01
1.22500000000E+09 -4.08979544233E-01 +8.50811026389E-01 -3.78314016670E-06 -1.73000304470E-04 +3.20293564743E-05 -1.63012990122E-04 -5.68822517189E-01 +7.79124733954E-01
1.23000000000E+09 -3.99860164283E-01 +8.54353863158E-01 -2.82758058966E-05 -1.48300640822E-04 +2.49667165957E-05 -1.78286753489E-04 -5.63124622658E-01 +7.83801736157E-01
1.23500000000E+09 -3.90377178951E-01 +8.58086635398E-01 -2.77499632328E-05 -1.67381206996E-04 -1.34443877405E-05 -1.80193651716E-04 -5.57221251967E-01 +7.87951851181E-01
1.24000000000E+09 -3.80770287849E-01 +8.62005543438E-01 -2.85502539628E-05 -1.81994772644E-04 -2.87332911798E-05 -1.72569988453E-04 -5.51300938934E-01 +7.91869218021E-01
1.24500000000E+09 -3.71968149713E-01 +8.65986968488E-01 -7.37009723802E-05 -2.13305984888E-04 -8.45761522086E-05 -1.59517923275E-04 -5.45030713901E-01 +7.95766312204E-01
1.25000000000E+09 -3.64052357925E-01 +8.68971925916E-01 -1.30586801931E-04 -1.90498041365E-04 -1.00147211970E-04 -2.04797459181E-04 -5.38769457732E-01 +7.99833048116E-01
1.25500000000E+09 -3.57039877868E-01 +8.71162998711E-01 -6.92747324109E-05 -1.80393783245E-04 -8.11622286679E-05 -2.11826262226E-04 -5.32100269643E-01 +8.03918903560E-01
1.26000000000E+09 -3.50877849029E-01 +8.72711860457E-01 -1.05500363092E-04 -1.90642635702E-04 -8.56195969888E-05 -1.86376854187E-04 -5.25508978424E-01 +8.08155512499E-01
1.26500000000E+09 -3.44857975998E-01 +8.73918709701E-01 -1.53171136382E-04 -2.09526672218E-04 -1.40740780380E-04 -2.16764094935E-04 -5.18450653487E-01 +8.12087203048E-01
1.27000000000E+09 -3.38539072479E-01 +8.74977502178E-01 -2.11723828370E-04 -2.12350353920E-04 -1.63362247141E-04 -2.60782306894E-04 -5.11596727675E-01 +8.15905858469E-01
1.27500000000E+09 -3.31078167770E-01 +8.76206339685E-01 -2.84528536613E-04 -2.17901855592E-04 -2.57595114375E-04 -2.07440359222E-04 -5.04438775572E-01 +8.19477035665E-01
1.28000000000E+09 -3.21810703009E-01 +8.78256214814E-01 -3.13958946895E-04 -1.46944401137E-04 -3.14640654875E-04 -2.10591208089E-04 -4.97427976682E-01 +8.23202071080E-01
1.28500000000E+09 -3.10631015008E-01 +8.80633557109E-01 -3.20249024986E-04 -1.64176171299E-04 -2.80255346305E-04 -1.47410031544E-04 -4.90059592753E-01 +8.27080193173E-01
1.29000000000E+09 -2.98807815982E-01 +8.83532150090E-01 -3.61101739933E-04 -1.59364757508E-04 -3.69454622148E-04 -1.16575352417E-04 -4.82346890118E-01 +8.30767052013E-01
1.29500000000E+09 -2.86446750348E-01 +8.86959319087E-01 -3.50528857696E-04 -1.28591577509E-04 -4.01582504008E-04 -1.09272115455E-04 -4.74533392928E-01 +8.34377365210E-01
1.30000000000E+09 -2.74340711966E-01 +8.90429619155E-01 -4.58509824284E-04 -7.80771161888E-05 -4.18004589753E-04 -3.51347785759E-05 -4.66723492194E-01 +8.37913840588E-01
1.30500000000E+09 -2.63650863659E-01 +8.93356468760E-01 -4.35664861732E-04 -8.32020754344E-05 -4.41867308413E-04 -1.84845981033E-05 -4.58567363468E-01 +8.41429760619E-01
1.31000000000E+09 -2.54204708133E-01 +8.95598564593E-01 -5.47788801602E-04 +6.82165197843E-05 -5.40759049597E-04 +4.11267936042E-05 -4.50400864734E-01 +8.44844988071E-01
1.31500000000E+09 -2.46877082302E-01 +8.97132929313E-01 -4.89536086643E-04 +1.53425955606E-04 -4.80749022545E-04 +1.29363588204E-04 -4.41522791619E-01 +8.48448216671E-01
1.32000000000E+09 -2.40820344721E-01 +8.97941870163E-01 -4.91244536198E-04 +1.39416009226E-04 -5.60922358832E-04 +1.49217825813E-04 -4.32677009494E-01 +8.51823049395E-01
1.32500000000E+09 -2.34863763103E-01 +8.98070801513E-01 -5.20612973361E-04 +1.53586201119E-04 -5.70984019884E-04 +2.14585683627E-04 -4.23279870253E-01 +8.54980790114E-01
1.33000000000E+09 -2.28043431302E-01 +8.98109060920E-01 -5.85229796734E-04 +2.96059270598E-04 -5.60449743992E-04 +3.12032071304E-04 -4.13820921659E-01 +8.58478866169E-01
1.33500000000E+09 -2.19322331004E-01 +8.98121186568E-01 -5.89718823111E-04 +3.19091077359E-04 -5.24344410133E-04 +4.21665822028E-04 -4.04047283459E-01 +8.61722372944E-01
1.34000000000E+09 -2.08174896634E-01 +8.98291969029E-01 -5.37682367824E-04 +4.87571188440E-04 -5.46331065553E-04 +5.05725847944E-04 -3.94004980771E-01 +8.64863728897E-01
1.34500000000E+09 -1.94520021149E-01 +8.98709422320E-01 -5.04756580510E-04 +6.06378640249E-04 -4.45240591904E-04 +6.07602130554E-04 -3.83039903206E-01 +8.68178454778E-01
1.35000000000E+09 -1.78778051301E-01 +8.99442453487E-01 -3.88420036191E-04 +6.75915632774E-04 -4.47913201038E-04 +6.73958493544E-04 -3.71944380332E-01 +8.71438239753E-01
1.35500000000E+09 -1.61859929802E-01 +9.00183998387E-01 -4.16532205915E-04 +7.17385394154E-04 -3.19243291077E-04 +6.86071945187E-04 -3.60332719926E-01 +8.74328958897E-01
1.36000000000E+09 -1.45070068226E-01 +9.00811537847E-01 -3.13084093839E-04 +8.04072116330E-04 -3.09908733924E-04 +7.58860852767E-04 -3.48596589619E-01 +8.76996010922E-01
1.36500000000E+09 -1.29118596058E-01 +9.01224298435E-01 -2.61054280138E-04 +8.86354176128E-04 -2.44749539951E-04 +8.44657572516E-04 -3.36349583235E-01 +8.79715488492E-01
1.37000000000E+09 -1.14782515433E-01 +9.00909200896E-01 -2.23728632743E-04 +1.02565821831E-03 -2.14907462441E-04 +9.20054550316E-04 -3.23483593277E-01 +8.82194371011E-01
1.37500000000E+09 -1.02347454955E-01 +9.00298030837E-01 -3.46649469378E-05 +1.07543332245E-03 -1.68348539116E-04 +1.04876627444E-03 -3.09739328334E-01 +8.84539910690E-01
1.38000000000E+09 -9.10931738039E-02 +8.99406006934E-01 +3.38914117396E-05 +1.06912066105E-03 -6.48595831509E-05 +1.15902008602E-03 -2.95036954456E-01 +8.86647729462E-01
1.38500000000E+09 -7.95283340854E-02 +8.97715341810E-01 +1.51099851056E-04 +1.17437386805E-03 +6.28635978795E-05 +1.37483863702E-03 -2.79580950131E-01 +8.88868390285E-01
1.39000000000E+09 -6.72860792785E-02 +8.95395897824E-01 +2.89206595099E-04 +1.26409285562E-03 +3.62093439437E-04 +1.45946929618E-03 -2.63600523707E-01 +8.90375602060E-01
1.39500000000E+09 -5.29742068248E-02 +8.92621238176E-01 +4.32434180061E-04 +1.35496611416E-03 +6.00782231715E-04 +1.42071308570E-03 -2.47053672122E-01 +8.91230275761E-01
1.40000000000E+09 -3.58769432116E-02 +8.88733186211E-01 +5.56258676525E-04 +1.42154638062E-03 +7.49419074162E-04 +1.39768765594E-03 -2.29575301853E-01 +8.91738302045E-01
1.40500000000E+09 -1.67700176908E-02 +8.84293214984E-01 +9.10322916912E-04 +1.55038795718E-03 +9.73513633482E-04 +1.49305857388E-03 -2.11159441197E-01 +8.91678500321E-01
1.41000000000E+09 +4.34625928193E-03 +8.79014249125E-01 +1.27909154581E-03 +1.53271047870E-03 +1.20609471195E-03 +1.49342308869E-03 -1.90838357432E-01 +8.91173654909E-01
1.41500000000E+09 +2.65316001750E-02 +8.72876556591E-01 +1.62555219521E-03 +1.46658032392E-03 +1.61866852980E-03 +1.52648683227E-03 -1.69218880082E-01 +8.89747207788E-01
1.42000000000E+09 +4.90374725496E-02 +8.65864531321E-01 +1.86419557836E-03 +1.19720360357E-03 +2.01921529178E-03 +1.36048309718E-03 -1.46061930705E-01 +8.87222087012E-01
1.42500000000E+09 +7.07750903991E-02 +8.57943010944E-01 +2.06197080514E-03 +1.13108265136E-03 +2.35239577753E-03 +1.13760535861E-03 -1.22454637349E-01 +8.83543678510E-01
1.43000000000E+09 +9.17825506740E-02 +8.48832831674E-01 +2.43539332404E-03 +1.08557322792E-03 +2.75998162618E-03 +9.24673402628E-04 -9.77041532266E-02 +8.79180271610E-01
1.43500000000E+09 +1.12257976956E-01 +8.38138144775E-01 +3.04393038790E-03 +7.79963495265E-04 +3.21360111785E-03 +4.36039385474E-04 -7.10592061677E-02 +8.72389311729E-01
1.44000000000E+09 +1.33176100655E-01 +8.26211824618E-01 +3.51322385540E-03 +2.10040232293E-05 +3.53185019270E-03 -1.58290297340E-04 -4.28708576990E-02 +8.63743181693E-01
1.44500000000E+09 +1.55904776045E-01 +8.11319759274E-01 +3.61222626835E-03 -6.35851033697E-04 +3.63940131728E-03 -8.13007612392E-04 -1.25271446702E-02 +8.52267173082E-01
1.45000000000E+09 +1.80278412447E-01 +7.93144345700E-01 +3.55028888194E-03 -1.24715666997E-03 +3.59338520448E-03 -1.50763766917E-03 +1.92230428746E-02 +8.37839635418E-01
1.45500000000E+09 +2.07059546507E-01 +7.71134023619E-01 +3.65247090031E-03 -1.57376279926E-03 +3.56885619405E-03 -1.95334550617E-03 +5.26569283693E-02 +8.20598491174E-01
1.46000000000E+09 +2.36211052180E-01 +7.45232349172E-01 +3.95154980688E-03 -2.24702054509E-03 +3.60331373010E-03 -2.53067741163E-03 +8.77508554546E-02 +7.98915937578E-01
1.46500000000E+09 +2.66820890050E-01 +7.14581029933E-01 +4.23461211507E-03 -3.26612380134E-03 +3.72699588951E-03 -3.26454895375E-03 +1.23839524199E-01 +7.72275554248E-01
1.47000000000E+09 +2.97826296821E-01 +6.79570953522E-01 +4.07484984118E-03 -4.81187946289E-03 +3.72080436936E-03 -4.38789497785E-03 +1.61038414236E-01 +7.38244045730E-01
1.47500000000E+09 +3.28305325592E-01 +6.39406475823E-01 +3.05946472437E-03 -6.18788020502E-03 +3.15254367791E-03 -5.83924370379E-03 +1.97828700131E-01 +6.97220844904E-01
1.48000000000E+09 +3.56240402045E-01 +5.92663702064E-01 +1.95080355316E-03 -7.13293054593E-03 +2.15713229664E-03 -7.16982027979E-03 +2.34631776017E-01 +6.47697638079E-01
1.48500000000E+09 +3.78978687866E-01 +5.39564671108E-01 +6.72243560665E-04 -8.27725955736E-03 +5.44588650525E-04 -8.48477183584E-03 +2.68054474422E-01 +5.89026288736E-01
1.49000000000E+09 +3.96660983338E-01 +4.79103211414E-01 -1.26154097590E-03 -9.18893272820E-03 -1.70875557918E-03 -9.12196781432E-03 +2.96696905600E-01 +5.19704391627E-01
1.49500000000E+09 +4.05930762258E-01 +4.10821282045E-01 -3.94210885064E-03 -9.41392722968E-03 -4.15783963886E-03 -8.86715665518E-03 +3.14831905856E-01 +4.40111006737E-01
1.50000000000E+09 +4.06054560988E-01 +3.33864626875E-01 -6.55217819273E-03 -8.97060700072E-03 -6.17783455663E-03 -8.50099465368E-03 +3.20411407658E-01 +3.51647898176E-01
1.50500000000E+09 +3.93259896221E-01 +2.48689799813E-01 -9.50509293818E-03 -7.59792132396E-03 -8.84375923707E-03 -7.56169357765E-03 +3.10146324756E-01 +2.55195513948E-01
1.51000000000E+09 +3.64696615122E-01 +1.58700401457E-01 -1.15220249170E-02 -4.65120796770E-03 -1.12461043930E-02 -5.00404947554E-03 +2.78468409454E-01 +1.53068376916E-01
1.51500000000E+09 +3.17053053355E-01 +6.78818721807E-02 -1.28143916183E-02 -2.53691025889E-03 -1.28211989803E-02 -2.88479658703E-03 +2.21939093814E-01 +5.67434490860E-02
1.52000000000E+09 +2.49409418490E-01 -1.42994225258E-02 -1.48429289071E-02 +9.79445295749E-04 -1.49591991986E-02 +7.91021314092E-04 +1.46467652492E-01 -2.80703273011E-02
1.52500000000E+09 +1.65596564558E-01 -8.25721222016E-02 -1.40025197760E-02 +7.12596940436E-03 -1.41731471515E-02 +7.07416709711E-03 +5.27125125765E-02 -9.65113460276E-02
1.53000000000E+09 +6.76961152249E-02 -1.31755982632E-01 -1.00496651472E-02 +9.98576635016E-03 -1.01455079639E-02 +1.00078354241E-02 -5.46057635687E-02 -1.40938945586E-01
1.53500000000E+09 -3.93104060786E-02 -1.56559920844E-01 -7.17716238609E-03 +1.21159650297E-02 -7.11602369302E-03 +1.21403790422E-02 -1.64689666559E-01 -1.60927628470E-01
1.54000000000E+09 -1.47838193011E-01 -1.55521748918E-01 -3.41208400916E-03 +1.27737220872E-02 -3.48674374493E-03 +1.26531853957E-02 -2.72448726185E-01 -1.58404105371E-01
1.54500000000E+09 -2.50187678993E-01 -1.32327109519E-01 +3.16626828005E-04 +1.26966351836E-02 +6.86345559310E-06 +1.25113483357E-02 -3.70713028210E-01 -1.36294954263E-01
1.55000000000E+09 -3.43465625877E-01 -9.21404501700E-02 +2.86870195763E-03 +1.14851253466E-02 +2.41941089735E-03 +1.16059385762E-02 -4.56350194058E-01 -9.95467585400E-02
1.55500000000E+09 -4.23480364911E-01 -3.82343745035E-02 +5.97843093910E-03 +9.74866285358E-03 +5.63229298369E-03 +1.02285812734E-02 -5.27093465223E-01 -5.26215945028E-02
1.56000000000E+09 -4.87284440233E-01 +2.04516008612E-02 +7.25384012803E-03 +6.57323269592E-03 +7.35555462936E-03 +7.15389102921E-03 -5.84823295287E-01 -3.19938101848E-04
1.56500000000E+09 -5.37948778093E-01 +8.05707618467E-02 +7.22769201691E-03 +4.69511739902E-03 +7.62383171243E-03 +5.13257618464E-03 -6.28984415310E-01 +5.55926408204E-02
1.57000000000E+09 -5.76874684200E-01 +1.39028943592E-01 +7.33862565261E-03 +2.85144003688E-03 +7.87248236706E-03 +2.99369271662E-03 -6.62589067866E-01 +1.09070029861E-01
