# Hz S RI R 50
! CMT, C1220, 16058040, 17.2.0/1
! Date: 14/08/2018 12:44:08
! Data: Format (Calibration Info)
! Freq                      S11: Re/Im (F2)                       S21: Re/Im (F2)                       S12: Re/Im (F2)                       S22: Re/Im (F2)            
1.00000000000E+09 -6.50369268145E-01 +7.13649874777E-01 -3.93170505704E-05 -2.65155476646E-05 +2.58685461315E-05 +1.14142282982E-05 -7.51823412549E-01 +6.22406853551E-01
1.00500000000E+09 -6.43415616408E-01 +7.18761182464E-01 -6.63514840928E-05 +5.80080759263E-05 +1.62724962649E-05 -4.54707597670E-05 -7.48347889122E-01 +6.26365670236E-01
1.01000000000E+09 -6.37277481591E-01 +7.23261620673E-01 -5.98180892150E-06 +3.81919330114E-05 -4.01549052729E-05 +4.24523778314E-05 -7.44768551381E-01 +6.29861446509E-01
1.01500000000E+09 -6.32799609790E-01 +7.27133522475E-01 +1.33005509226E-05 -7.31756381173E-06 -9.12504521958E-06 -3.13275658824E-06 -7.41781128796E-01 +6.33533952242E-01
1.02000000000E+09 -6.29662447798E-01 +7.30669113474E-01 +1.58516649172E-05 +4.49160934689E-05 -5.14097984757E-05 -9.62519894182E-05 -7.38470734550E-01 +6.36928993542E-01
1.02500000000E+09 -6.27502229555E-01 +7.33404536421E-01 -1.92727097912E-05 +3.17426470525E-05 -2.69452768319E-05 +1.64256148077E-05 -7.35707320226E-01 +6.40660576093E-01
1.03000000000E+09 -6.25979049159E-01 +7.36035188579E-01 -1.91150909360E-05 +4.45310548065E-05 -6.14112663743E-06 -1.80913771630E-05 -7.32329436340E-01 +6.44502856805E-01
1.03500000000E+09 -6.23655995135E-01 +7.38461938559E-01 -6.15174309350E-06 +1.61363102445E-05 -7.82752338628E-05 -4.77380018213E-05 -7.28558271934E-01 +6.48419470780E-01
1.04000000000E+09 -6.20286866282E-01 +7.41214988288E-01 +1.16782548425E-05 +2.95061863412E-05 -2.06394259436E-05 +2.73303446312E-05 -7.24640301889E-01 +6.52044994977E-01
1.04500000000E+09 -6.15389043093E-01 +7.44759199800E-01 -2.18678557305E-05 +3.54451060210E-05 -3.65768027037E-05 +2.45124000657E-05 -7.21138135004E-01 +6.55503956083E-01
1.05000000000E+09 -6.08799077561E-01 +7.48795626334E-01 +4.13323812509E-07 +1.64874224870E-05 -3.17583544071E-05 +1.40330972677E-05 -7.17714618906E-01 +6.58990929634E-01
1.05500000000E+09 -6.01018812893E-01 +7.53414033978E-01 +2.52830631468E-05 +4.67795510443E-05 +3.18628369734E-05 +2.63159765017E-05 -7.14603810306E-01 +6.62566693568E-01
1.06000000000E+09 -5.92365391159E-01 +7.58480470333E-01 -1.83665410053E-05 +3.13758163852E-05 +2.21950816099E-05 +2.62865847257E-05 -7.11184956679E-01 +6.66485910866E-01
1.06500000000E+09 -5.84039784994E-01 +7.63564414390E-01 +4.31719080813E-05 +4.31857806432E-05 +1.53285498144E-05 +6.20769854483E-06 -7.07274446627E-01 +6.70166773300E-01
1.07000000000E+09 -5.76488414616E-01 +7.68065466176E-01 +3.93133942929E-05 +2.21338780534E-05 -2.35113615231E-05 +4.41969403448E-05 -7.03187806273E-01 +6.73986841739E-01
1.07500000000E+09 -5.70502746148E-01 +7.71979755464E-01 +1.65181310965E-05 +1.32622154529E-05 +4.55725961713E-05 +8.67612721515E-05 -6.98948677145E-01 +6.77566631750E-01
1.08000000000E+09 -5.66156129798E-01 +7.75486255753E-01 +2.00997278488E-05 +3.93107860294E-05 +4.70286052078E-05 +2.63248095723E-05 -6.95068128324E-01 +6.81362661778E-01
1.08500000000E+09 -5.63400534970E-01 +7.77730323683E-01 +3.12839298600E-05 +3.43861498425E-05 -1.19213685025E-06 +5.55598365114E-05 -6.91277045078E-01 +6.84854349580E-01
1.09000000000E+09 -5.61339017078E-01 +7.79919624859E-01 +1.45798548689E-05 +2.35095805902E-05 +1.66392895488E-05 +3.89866445004E-06 -6.87667676149E-01 +6.88860008179E-01
1.09500000000E+09 -5.59691974116E-01 +7.81734613250E-01 -1.41218789617E-05 +6.84758224960E-05 +1.88139458829E-05 +4.83920946315E-05 -6.83862241959E-01 +6.92588052306E-01
1.10000000000E+09 -5.57155448408E-01 +7.83641503208E-01 -1.16331873435E-05 +5.76833839075E-05 +5.17000033274E-05 +3.89912012712E-05 -6.79839769680E-01 +6.96400370812E-01
1.10500000000E+09 -5.53642334669E-01 +7.86179850608E-01 +4.57482582900E-05 +2.31143354647E-05 +7.62340086250E-06 +5.28485374261E-05 -6.75638755798E-01 +6.99849722842E-01
1.11000000000E+09 -5.48417187015E-01 +7.89184551586E-01 -3.13692888978E-06 +6.41722722843E-05 +4.49313607407E-05 +4.08881620642E-05 -6.71486252668E-01 +7.03313149621E-01
1.11500000000E+09 -5.41782964067E-01 +7.92935686333E-01 +8.02818020056E-05 +3.70098011352E-05 +5.55362549740E-05 +3.15309124125E-05 -6.67550713582E-01 +7.06710155073E-01
1.12000000000E+09 -5.34412522700E-01 +7.96994241364E-01 +1.05156996472E-04 +1.99829991493E-05 +5.55816675341E-05 +3.95547487563E-05 -6.63382819178E-01 +7.10321574539E-01
1.12500000000E+09 -5.26329253966E-01 +8.01165113031E-01 +5.07520199553E-05 +1.07780709398E-05 +6.26567739794E-05 +5.89302486584E-05 -6.59281159338E-01 +7.14258632230E-01
1.13000000000E+09 -5.18823417037E-01 +8.04752406666E-01 +3.67927024880E-05 +4.86125130197E-05 +4.47771589789E-06 +2.61595986800E-05 -6.54881974871E-01 +7.18004287406E-01
1.13500000000E+09 -5.12054248390E-01 +8.07697908841E-01 +7.94117167553E-05 +5.65407572644E-05 -1.96676283899E-06 +3.89044893165E-05 -6.50282385666E-01 +7.21932079745E-01
1.14000000000E+09 -5.06563065671E-01 +8.10428140506E-01 +6.71489392196E-05 +1.54928424986E-05 +1.03507559931E-04 +3.58611102490E-05 -6.45432983917E-01 +7.25413523062E-01
1.14500000000E+09 -5.02137301497E-01 +8.12104741009E-01 +1.05542404554E-04 -1.63072358938E-05 +1.13048496880E-04 +4.37144465395E-05 -6.40915990371E-01 +7.28838016894E-01
1.15000000000E+09 -4.98264312363E-01 +8.13682908170E-01 +8.05375207595E-05 +4.21193406957E-06 +7.37709708582E-05 -1.59529533207E-05 -6.36241138098E-01 +7.32601279380E-01
1.15500000000E+09 -4.94800603787E-01 +8.15589996915E-01 +1.19909071549E-04 +2.61717708303E-05 +8.69686747824E-05 -1.25407700946E-05 -6.31533143128E-01 +7.36480316897E-01
1.16000000000E+09 -4.90420231079E-01 +8.17494475856E-01 +1.11549549691E-04 +1.05525635059E-05 +5.65661058453E-05 -4.03234725935E-05 -6.26825665712E-01 +7.40225362104E-01
1.16500000000E+09 -4.85281534788E-01 +8.20225676679E-01 +6.83080645143E-05 +2.47858526130E-05 +5.49915025856E-05 -8.07812751799E-06 -6.21755841220E-01 +7.43828418199E-01
1.17000000000E+09 -4.78885266301E-01 +8.23393698390E-01 +9.83138239746E-05 +1.56067246327E-05 +1.43274964005E-04 -4.14256767374E-06 -6.16447127970E-01 +7.47180411556E-01
1.17500000000E+09 -4.71654648046E-01 +8.26849883315E-01 +1.12277920958E-04 -1.44369851394E-06 +1.68055848401E-04 -2.38637737755E-05 -6.10770401490E-01 +7.50370594095E-01
1.18000000000E+09 -4.63872592539E-01 +8.30609209311E-01 +1.45298073378E-04 -3.40844771506E-05 +1.29029186418E-04 -4.14101710890E-05 -6.05401447226E-01 +7.53397543731E-01
1.18500000000E+09 -4.56062160777E-01 +8.33998032745E-01 +1.40956310287E-04 -6.55232300953E-05 +1.53392879518E-04 -6.49509024428E-05 -5.99618634356E-01 +7.56353971033E-01
1.19000000000E+09 -4.48610885412E-01 +8.36827861376E-01 +1.54448164071E-04 -1.29884679856E-04 +1.32882404709E-04 -1.32638177302E-04 -5.93611846448E-01 +7.58941075286E-01
1.19500000000E+09 -4.42112432820E-01 +8.38850526413E-01 +1.92884371836E-04 -2.00840141177E-04 +1.69090047162E-04 -1.59993812306E-04 -5.87662491731E-01 +7.60121845210E-01
1.20000000000E+09 -4.36744090604E-01 +8.39860666372E-01 +9.57154464363E-05 -2.55560435277E-04 +9.50986110918E-05 -2.68207308907E-04 -5.83081835330E-01 +7.60232476644E-01
1.20500000000E+09 -4.31832544641E-01 +8.41360198006E-01 -4.68953083981E-05 -2.25108020598E-04 -6.47577351604E-06 -2.26970079046E-04 -5.80774003760E-01 +7.61219247996E-01
1.21000000000E+09 -4.26847870426E-01 +8.42854408070E-01 -3.37945807969E-05 -1.69811357617E-04 -1.82883112031E-05 -1.15950717672E-04 -5.78722320810E-01 +7.64458421513E-01
1.21500000000E+09 -4.20938205920E-01 +8.44847454316E-01 +2.26793731090E-05 -1.45056832037E-04 +3.00468711344E-05 -1.15536918390E-04 -5.75946524674E-01 +7.69048486082E-01
1.22000000000E+09 -4.13930163567E-01 +8.47151958492E-01 +2.22929979530E-05 -1.51265869742E-04 +1.77071106775E-05 -1.26075205768E-04 -5.71789376298E-01 +7.74298124041E-01
1.22500000000E+09 -4.05575582230E-01 +8.50121583029E-01 +5.82443209288E-05 -1.28574254070E-04 +7.61182553605E-05 -1.85776038965E-04 -5.66719878923E-01 +7.79537606996E-01
1.23000000000E+09 -3.96580148880E-01 +8.53376767716E-01 +1.60583025652E-05 -1.87312025141E-04 +3.43126525823E-06 -1.94470075626E-04 -5.61006015752E-01 +7.84178655869E-01
1.23500000000E+09 -3.87051613358E-01 +8.57156371019E-01 +1.55460316650E-05 -2.13791180656E-04 +1.08151565442E-05 -1.74618769626E-04 -5.55212323216E-01 +7.88540160790E-01
1.24000000000E+09 -3.77635223099E-01 +8.61033548356E-01 +1.81824088614E-05 -2.17666036499E-04 +1.76772451984E-05 -1.78360636556E-04 -5.49250716935E-01 +7.92356319009E-01
1.24500000000E+09 -3.68659888795E-01 +8.64843531299E-01 -6.48052334413E-05 -2.26262562043E-04 +1.21069393515E-06 -2.60256090148E-04 -5.43061935272E-01 +7.96232154754E-01
1.25000000000E+09 -3.60610303544E-01 +8.67891041733E-01 -7.97635208431E-05 -2.31956663853E-04 -3.49530028294E-05 -2.34009490126E-04 -5.36769404006E-01 +8.00271072956E-01
1.25500000000E+09 -3.53652006094E-01 +8.69837012604E-01 -7.37450485176E-05 -2.18404242708E-04 -4.03672583309E-05 -2.23659676765E-04 -5.29963991420E-01 +8.04276001116E-01
1.26000000000E+09 -3.47532793364E-01 +8.71357472526E-01 -5.73171662632E-05 -2.53014807576E-04 -1.12102535323E-04 -2.72795450347E-04 -5.23346594980E-01 +8.08628299206E-01
1.26500000000E+09 -3.41530257311E-01 +8.72322087105E-01 -1.04951740153E-04 -3.10044592620E-04 -1.09008645894E-04 -3.11414446940E-04 -5.16387296873E-01 +8.12369348406E-01
1.27000000000E+09 -3.35328545293E-01 +8.73422358762E-01 -2.11878340541E-04 -2.88893973175E-04 -1.86929123310E-04 -2.82372525302E-04 -5.09561580414E-01 +8.16111468059E-01
1.27500000000E+09 -3.28089600123E-01 +8.74814007520E-01 -2.64181928015E-04 -2.42794134473E-04 -2.45865606496E-04 -2.63641740465E-04 -5.02543516317E-01 +8.19744042451E-01
1.28000000000E+09 -3.18964545072E-01 +8.76649601979E-01 -2.48846181294E-04 -2.35057252348E-04 -2.88743150307E-04 -2.15855828808E-04 -4.95332282432E-01 +8.23359767931E-01
1.28500000000E+09 -3.07817509567E-01 +8.79061757056E-01 -3.29109207094E-04 -2.27968503223E-04 -3.10505609670E-04 -2.62784340436E-04 -4.87965656669E-01 +8.27157597679E-01
1.29000000000E+09 -2.95975888169E-01 +8.81997997785E-01 -3.34851586351E-04 -2.25014655216E-04 -3.44936608749E-04 -2.39145296600E-04 -4.80439170528E-01 +8.30917001689E-01
1.29500000000E+09 -2.83606186021E-01 +8.85556050200E-01 -3.96414943135E-04 -1.92000898850E-04 -4.61186921550E-04 -2.04110258402E-04 -4.72503974394E-01 +8.34334552812E-01
1.30000000000E+09 -2.71189009237E-01 +8.89124309244E-01 -4.50731024408E-04 -1.61689811822E-04 -4.59604841436E-04 -1.01115037800E-04 -4.64652822395E-01 +8.38069444878E-01
1.30500000000E+09 -2.60020140301E-01 +8.92133256267E-01 -5.06654536182E-04 -1.72589820519E-04 -5.13327835174E-04 -7.35748915206E-05 -4.56617179347E-01 +8.41521429504E-01
1.31000000000E+09 -2.50580757835E-01 +8.94108382805E-01 -5.98644553676E-04 -5.82237497829E-05 -5.50561051270E-04 -4.55521266316E-05 -4.48250853068E-01 +8.44901927237E-01
1.31500000000E+09 -2.43039556437E-01 +8.95510370526E-01 -5.35782785213E-04 +2.03003186479E-05 -5.71082606016E-04 -6.61781013004E-07 -4.39435684466E-01 +8.48489382187E-01
1.32000000000E+09 -2.36763063787E-01 +8.96179967198E-01 -5.96640635123E-04 +4.81352718131E-05 -5.52021756181E-04 +7.14931174100E-05 -4.30589990034E-01 +8.51858751686E-01
1.32500000000E+09 -2.31024807535E-01 +8.96322062346E-01 -5.51601232297E-04 +1.12614276956E-04 -6.40684935932E-04 +1.24102627916E-04 -4.21240793314E-01 +8.55138431866E-01
1.33000000000E+09 -2.24509523492E-01 +8.96237151744E-01 -6.73853283071E-04 +1.40494166349E-04 -6.83863896706E-04 +2.24587885613E-04 -4.11691875977E-01 +8.58356420606E-01
1.33500000000E+09 -2.15914226271E-01 +8.96265734941E-01 -7.31572803333E-04 +2.27500663783E-04 -7.07494052413E-04 +3.29199010970E-04 -4.01825687412E-01 +8.61674714962E-01
1.34000000000E+09 -2.04984466285E-01 +8.96415295104E-01 -7.31028819039E-04 +3.81001587043E-04 -6.94823924602E-04 +3.93640167666E-04 -3.91759273112E-01 +8.64907032565E-01
1.34500000000E+09 -1.91386392538E-01 +8.96970013317E-01 -6.93287935776E-04 +5.48853263533E-04 -6.41372557234E-04 +5.42125357831E-04 -3.80855190432E-01 +8.68209419501E-01
1.35000000000E+09 -1.75766712054E-01 +8.97570088817E-01 -6.23373116088E-04 +6.75552769323E-04 -5.45357155530E-04 +6.33660328786E-04 -3.69694679913E-01 +8.71422294792E-01
1.35500000000E+09 -1.58916222465E-01 +8.98456959992E-01 -5.66962173623E-04 +6.81946596722E-04 -5.57902598166E-04 +6.83738510747E-04 -3.58005942410E-01 +8.74281223573E-01
1.36000000000E+09 -1.41817475255E-01 +8.99043143720E-01 -5.51973564234E-04 +7.52465883282E-04 -4.90366272202E-04 +7.83598447257E-04 -3.46293219110E-01 +8.76875672862E-01
1.36500000000E+09 -1.25833009509E-01 +8.99320743084E-01 -5.28726411621E-04 +8.73978461067E-04 -5.50167810732E-04 +8.19859747938E-04 -3.34092136751E-01 +8.79393397801E-01
1.37000000000E+09 -1.11371314585E-01 +8.98876580534E-01 -5.40757162833E-04 +1.04136568110E-03 -5.05188948807E-04 +9.32298025563E-04 -3.21447424198E-01 +8.81946942949E-01
1.37500000000E+09 -9.90116977619E-02 +8.98170860804E-01 -3.08834594078E-04 +1.16850927246E-03 -4.08199866629E-04 +1.09066657457E-03 -3.07535325142E-01 +8.84407071251E-01
1.38000000000E+09 -8.78280960546E-02 +8.97060503907E-01 -2.05965053638E-04 +1.20846278370E-03 -3.63451344689E-04 +1.27673009628E-03 -2.92909948191E-01 +8.86485302571E-01
1.38500000000E+09 -7.64455247663E-02 +8.95436746636E-01 -8.66340619875E-05 +1.31983406657E-03 -2.71555233547E-04 +1.47168764145E-03 -2.77449505738E-01 +8.88468766282E-01
1.39000000000E+09 -6.43114046719E-02 +8.93188952636E-01 -1.58658064617E-05 +1.45887970840E-03 -1.49884033792E-05 +1.67947171934E-03 -2.61708285683E-01 +8.90008068887E-01
1.39500000000E+09 -5.02280636236E-02 +8.90280767175E-01 +1.97270418056E-04 +1.50977736665E-03 +2.80210229885E-04 +1.67797039478E-03 -2.45167325760E-01 +8.90852957795E-01
1.40000000000E+09 -3.33195778359E-02 +8.86552020141E-01 +2.92643971731E-04 +1.70818646439E-03 +5.21958773840E-04 +1.66325828805E-03 -2.27607023612E-01 +8.91247439998E-01
1.40500000000E+09 -1.43926013841E-02 +8.82239615173E-01 +5.88027192252E-04 +1.90995856661E-03 +7.19082064872E-04 +1.85220852468E-03 -2.09252586930E-01 +8.91152877457E-01
1.41000000000E+09 +6.89992049003E-03 +8.77054641694E-01 +1.00109046594E-03 +1.86490928153E-03 +9.54204937208E-04 +1.86122544545E-03 -1.88905988143E-01 +8.90539431360E-01
1.41500000000E+09 +2.94266939604E-02 +8.70993187744E-01 +1.33933830789E-03 +1.92365247746E-03 +1.30154899279E-03 +2.02709032950E-03 -1.67372711677E-01 +8.89150500377E-01
1.42000000000E+09 +5.24519439507E-02 +8.63943682543E-01 +1.68575390719E-03 +1.80134483781E-03 +1.82568273980E-03 +2.01438374732E-03 -1.44289132690E-01 +8.86699162967E-01
1.42500000000E+09 +7.46435637814E-02 +8.55847531770E-01 +1.99611396531E-03 +1.74499567675E-03 +2.31019080873E-03 +1.88664975695E-03 -1.20483685763E-01 +8.82880989293E-01
1.43000000000E+09 +9.61426993819E-02 +8.46530860675E-01 +2.42517450258E-03 +1.79842401851E-03 +2.78066752013E-03 +1.68021610382E-03 -9.57933278788E-02 +8.78186787084E-01
1.43500000000E+09 +1.16964150513E-01 +8.35640018318E-01 +3.06666756027E-03 +1.52094178487E-03 +3.31555510737E-03 +1.25653510488E-03 -6.94436806075E-02 +8.71552528278E-01
1.44000000000E+09 +1.38106582019E-01 +8.23260690691E-01 +3.61205962414E-03 +8.92624189376E-04 +3.73933465125E-03 +7.19157073123E-04 -4.14207395036E-02 +8.63099094829E-01
1.44500000000E+09 +1.61070944306E-01 +8.08068035181E-01 +3.91001343422E-03 +3.33019879986E-04 +3.99745367428E-03 +1.38981597489E-04 -1.07234148306E-02 +8.51668808474E-01
1.45000000000E+09 +1.85248455542E-01 +7.89626477606E-01 +4.06668271851E-03 -2.19279025401E-04 +4.18412137403E-03 -4.97393465829E-04 +2.09742591947E-02 +8.37112348505E-01
1.45500000000E+09 +2.11983701100E-01 +7.67547754247E-01 +4.36715907498E-03 -5.38134559413E-04 +4.41832585248E-03 -9.40454096734E-04 +5.43496355681E-02 +8.19727978310E-01
1.46000000000E+09 +2.41265652331E-01 +7.41533111758E-01 +5.00786237406E-03 -1.14910442039E-03 +4.63923997055E-03 -1.53744322039E-03 +8.93392541975E-02 +7.97920982655E-01
1.46500000000E+09 +2.72186898659E-01 +7.10641656542E-01 +5.68400891300E-03 -2.31388606686E-03 +5.15588108652E-03 -2.44657985112E-03 +1.25358119173E-01 +7.71238368922E-01
1.47000000000E+09 +3.03844348063E-01 +6.74884318552E-01 +5.90510455313E-03 -4.18141641654E-03 +5.39678334879E-03 -3.83716150287E-03 +1.62580181694E-01 +7.37370712608E-01
1.47500000000E+09 +3.34074018319E-01 +6.33621778384E-01 +5.12974427997E-03 -6.01784699855E-03 +5.07664627643E-03 -5.56201927324E-03 +1.99520855904E-01 +6.96043770797E-01
1.48000000000E+09 +3.62198208413E-01 +5.86264148427E-01 +4.03253265691E-03 -7.30762339066E-03 +4.28870143099E-03 -7.28392966287E-03 +2.35766751477E-01 +6.46407170526E-01
1.48500000000E+09 +3.84877072206E-01 +5.31737540231E-01 +2.90518016610E-03 -8.65400239992E-03 +2.87794128333E-03 -8.91026356614E-03 +2.69457580620E-01 +5.87801931207E-01
1.49000000000E+09 +4.02069703628E-01 +4.70415712547E-01 +1.35344195891E-03 -1.01605328753E-02 +9.03281997534E-04 -1.02017705862E-02 +2.98023287876E-01 +5.17787221589E-01
1.49500000000E+09 +4.10859098535E-01 +4.00804485961E-01 -1.24163070147E-03 -1.12933298076E-02 -1.60851942011E-03 -1.07384813505E-02 +3.15360373520E-01 +4.37981579808E-01
1.50000000000E+09 +4.09905490091E-01 +3.22371129110E-01 -4.21949001286E-03 -1.20335287507E-02 -3.96897970112E-03 -1.13000785390E-02 +3.20252026535E-01 +3.49498991512E-01
1.50500000000E+09 +3.95063213337E-01 +2.35567575921E-01 -7.97886427151E-03 -1.13941531674E-02 -7.29195468146E-03 -1.11555626420E-02 +3.09213961982E-01 +2.53322258214E-01
1.51000000000E+09 +3.63767696065E-01 +1.44677080853E-01 -1.13962992306E-02 -8.96225328646E-03 -1.09115729159E-02 -9.30864127052E-03 +2.77306834783E-01 +1.51912818025E-01
1.51500000000E+09 +3.12937618475E-01 +5.38424951586E-02 -1.37008637553E-02 -6.75524836581E-03 -1.36397445382E-02 -7.14227820957E-03 +2.20339330967E-01 +5.59629046580E-02
1.52000000000E+09 +2.42051517929E-01 -2.75665847534E-02 -1.67849046665E-02 -2.93668966129E-03 -1.69447268508E-02 -3.21751501894E-03 +1.44636686046E-01 -2.81621942670E-02
1.52500000000E+09 +1.54492371865E-01 -9.40209317357E-02 -1.73971495852E-02 +3.57552913814E-03 -1.75489825807E-02 +3.42734324264E-03 +5.08943445801E-02 -9.58254892827E-02
1.53000000000E+09 +5.44703109850E-02 -1.39204936576E-01 -1.39925237269E-02 +8.21046948839E-03 -1.41309699732E-02 +8.17211980302E-03 -5.57216519268E-02 -1.39918930946E-01
1.53500000000E+09 -5.30289132862E-02 -1.61226773278E-01 -1.13493353527E-02 +1.10651695614E-02 -1.13775592424E-02 +1.10651846854E-02 -1.66077507277E-01 -1.59657846766E-01
1.54000000000E+09 -1.62942505621E-01 -1.56740393117E-01 -7.43331454277E-03 +1.29565758398E-02 -7.47308815777E-03 +1.27731377587E-02 -2.73605123609E-01 -1.56592447313E-01
1.54500000000E+09 -2.64352685173E-01 -1.29082804947E-01 -3.58102943189E-03 +1.37773327189E-02 -3.88057560347E-03 +1.35234042562E-02 -3.71149249372E-01 -1.34197371544E-01
1.55000000000E+09 -3.55140334040E-01 -8.52343209383E-02 -4.47468381314E-04 +1.33499769678E-02 -1.02007625734E-03 +1.33213002169E-02 -4.56904593591E-01 -9.74367101834E-02
1.55500000000E+09 -4.31867847958E-01 -2.92864737439E-02 +3.35398838440E-03 +1.24528974527E-02 +2.81771456957E-03 +1.28810668170E-02 -5.27330062212E-01 -5.00916036048E-02
1.56000000000E+09 -4.92863915941E-01 +3.01392317316E-02 +5.86154755965E-03 +9.48538263872E-03 +5.78133495255E-03 +1.01552308482E-02 -5.84373903304E-01 +2.61550619977E-03
1.56500000000E+09 -5.41279006308E-01 +9.07221281453E-02 +6.43590759127E-03 +7.33258230876E-03 +6.70236528751E-03 +7.87245049186E-03 -6.28287289122E-01 +5.80407501298E-02
1.57000000000E+09 -5.77777947345E-01 +1.48976858766E-01 +6.96344070483E-03 +5.38012653511E-03 +7.46359807877E-03 +5.73987751746E-03 -6.61477888000E-01 +1.11800485783E-01
