# Hz S RI R 50
! CMT, C1220, 16058040, 17.2.0/1
! Date: 14/08/2018 12:45:48
! Data: Format (Calibration Info)
! Freq                      S11: Re/Im (F2)                       S21: Re/Im (F2)                       S12: Re/Im (F2)                       S22: Re/Im (F2)            
1.00000000000E+09 -6.50771724320E-01 +7.12619980895E-01 -2.87384875039E-05 -7.31490662230E-06 -2.29955819299E-05 -1.76019810918E-05 -7.53702183235E-01 +6.21327335935E-01
1.00500000000E+09 -6.43674839803E-01 +7.17722535065E-01 -3.49772292949E-05 +1.65217956397E-05 -3.25136603283E-05 +2.63683943330E-05 -7.49990744852E-01 +6.25597635955E-01
1.01000000000E+09 -6.37744895386E-01 +7.22391823199E-01 +1.60832232715E-05 -3.05435143394E-07 -1.95942277595E-05 +7.81632614778E-06 -7.46701281679E-01 +6.29089763900E-01
1.01500000000E+09 -6.33223546080E-01 +7.26192226495E-01 -2.59334870668E-05 -3.74603878002E-06 -2.54592984692E-05 +1.98426759014E-05 -7.43451919125E-01 +6.32737012781E-01
1.02000000000E+09 -6.30237765600E-01 +7.29622614966E-01 -1.00826621340E-05 +1.88853492742E-05 -1.03755436720E-05 +1.71012790456E-05 -7.40278358780E-01 +6.36137915556E-01
1.02500000000E+09 -6.27999374380E-01 +7.32697034034E-01 -2.94813579808E-05 +3.08379715791E-05 -1.15066279290E-05 +4.80881765452E-05 -7.37392742490E-01 +6.39919006768E-01
1.03000000000E+09 -6.26569389308E-01 +7.35346319261E-01 -5.15397738866E-06 +2.11705968712E-05 -6.37234737589E-05 +4.43312332600E-06 -7.34043740069E-01 +6.43726611620E-01
1.03500000000E+09 -6.24354289948E-01 +7.37677255879E-01 +5.00997758391E-05 +4.04884781733E-05 -1.03487305138E-05 -4.14507865002E-05 -7.30252781797E-01 +6.47586845780E-01
1.04000000000E+09 -6.20981786832E-01 +7.40723994959E-01 -4.82064235793E-05 +2.78467910512E-05 +1.55892572396E-05 +4.02165511038E-06 -7.26431705666E-01 +6.51333369097E-01
1.04500000000E+09 -6.16121195894E-01 +7.44098596247E-01 +1.18705631761E-05 +2.06026574630E-05 -2.77571708408E-06 +1.24929557684E-05 -7.22926377824E-01 +6.54775860997E-01
1.05000000000E+09 -6.09591152288E-01 +7.48196499800E-01 -9.78379077381E-06 +5.83113302784E-05 -3.36622010990E-05 +5.75454374329E-05 -7.19436499748E-01 +6.58146049626E-01
1.05500000000E+09 -6.01813087241E-01 +7.52804354879E-01 -2.59041294785E-05 +2.20091920904E-05 -6.39775925413E-06 +5.85483392997E-06 -7.16279420880E-01 +6.61696687510E-01
1.06000000000E+09 -5.93255606236E-01 +7.57876956924E-01 +7.67615806337E-06 +1.14007157730E-05 +3.95729849422E-06 +1.97830773578E-05 -7.12867374433E-01 +6.65524823911E-01
1.06500000000E+09 -5.84914022806E-01 +7.62834764676E-01 -4.24135421358E-06 +3.46619307173E-05 -1.53679592546E-05 +9.52073661584E-06 -7.09094679242E-01 +6.69510225322E-01
1.07000000000E+09 -5.77555415750E-01 +7.67324881819E-01 +1.38662736927E-05 +3.30896505600E-05 -2.25597039526E-06 +1.39422188554E-05 -7.05050166437E-01 +6.73299952687E-01
1.07500000000E+09 -5.71609451384E-01 +7.71304818399E-01 -1.64148438014E-06 +5.94424369423E-05 +2.00534342641E-05 +3.59296422602E-06 -7.00755542578E-01 +6.76846098583E-01
1.08000000000E+09 -5.67448584014E-01 +7.74639456561E-01 -8.89631060716E-07 +4.00984045762E-05 -3.98051815172E-05 +6.21947699949E-05 -6.97101787806E-01 +6.80762893643E-01
1.08500000000E+09 -5.64721931973E-01 +7.77109904922E-01 +5.12652217914E-05 +3.63239643770E-05 -2.76413934093E-06 +1.30505562034E-05 -6.93160910264E-01 +6.84248641690E-01
1.09000000000E+09 -5.62529447911E-01 +7.79320836518E-01 +9.99349670756E-06 +4.38861936437E-05 +1.52483671857E-06 -4.03968415445E-05 -6.89503432469E-01 +6.88100694984E-01
1.09500000000E+09 -5.61097617647E-01 +7.81062210725E-01 -8.78587537664E-06 +9.32148585669E-06 +3.10086739069E-05 +5.97732105765E-05 -6.85749810727E-01 +6.91894275903E-01
1.10000000000E+09 -5.58269351799E-01 +7.83258935622E-01 +3.21951176252E-05 +3.23689450016E-05 +6.50413725101E-06 +1.24359477028E-05 -6.81757844100E-01 +6.95789578165E-01
1.10500000000E+09 -5.54638831732E-01 +7.85763291699E-01 +4.08897753753E-05 +7.50362394911E-05 -3.41722939221E-05 +6.40399430874E-05 -6.77470308349E-01 +6.99108555662E-01
1.11000000000E+09 -5.49383900410E-01 +7.88953285396E-01 +2.31644351964E-05 +4.67764256684E-05 +8.77930483027E-05 +4.41666056498E-05 -6.73367843252E-01 +7.02574599683E-01
1.11500000000E+09 -5.42552160588E-01 +7.92633357069E-01 +1.01789523603E-05 +3.25922095809E-05 +6.54077902260E-05 +4.07659024323E-05 -6.69492385732E-01 +7.05878249225E-01
1.12000000000E+09 -5.35121912751E-01 +7.96624391178E-01 +4.21347659500E-05 +8.12351696215E-06 +3.56471188830E-05 +1.75363657051E-05 -6.65377653494E-01 +7.09530550596E-01
1.12500000000E+09 -5.27069124314E-01 +8.00649173584E-01 +5.02294290153E-05 +2.70375404527E-05 +3.98178792518E-05 +1.52329044551E-05 -6.61170664557E-01 +7.13527222656E-01
1.13000000000E+09 -5.19660561744E-01 +8.04376957116E-01 +4.97337437975E-05 -3.73280840711E-06 +5.17225182292E-05 +4.65217520451E-05 -6.56914292021E-01 +7.17357654111E-01
1.13500000000E+09 -5.13118442055E-01 +8.07312262497E-01 +7.51560407119E-05 -1.08371602183E-05 +3.74701732702E-06 +6.18458718992E-05 -6.52249125528E-01 +7.21303242339E-01
1.14000000000E+09 -5.07597313213E-01 +8.09994581692E-01 +1.10830793744E-04 +5.56392488347E-05 +9.35741451545E-05 +5.92429776869E-05 -6.47349012635E-01 +7.24718303506E-01
1.14500000000E+09 -5.03432368227E-01 +8.11725691868E-01 +8.70038963733E-05 +3.38104651287E-05 +1.05589151417E-04 -2.64118626971E-05 -6.42732607733E-01 +7.28053043938E-01
1.15000000000E+09 -4.99636823360E-01 +8.13558243823E-01 +4.83403889599E-05 -4.21816300007E-06 +7.78243896355E-05 -9.24234221837E-06 -6.38156804361E-01 +7.31964599401E-01
1.15500000000E+09 -4.96053393175E-01 +8.15405719635E-01 +6.74964812682E-05 +1.02061234744E-05 +1.07002511089E-04 +6.46942599598E-05 -6.33498934404E-01 +7.35799997555E-01
1.16000000000E+09 -4.91738686213E-01 +8.17420753607E-01 +8.76418510458E-05 -5.37918460020E-07 +8.26663164222E-05 +1.04638347838E-05 -6.28745110339E-01 +7.39560254593E-01
1.16500000000E+09 -4.86533574195E-01 +8.20288278210E-01 +5.30833452593E-05 -2.08718977788E-06 +7.84813490200E-05 -1.61756201394E-05 -6.23629617807E-01 +7.43247254316E-01
1.17000000000E+09 -4.80117867471E-01 +8.23352484429E-01 +7.26711013158E-05 -1.05370573444E-05 +1.02233791085E-04 -8.61647119513E-05 -6.18350107397E-01 +7.46574231550E-01
1.17500000000E+09 -4.72810111467E-01 +8.26936387447E-01 +8.53072262600E-05 -2.62486470166E-05 +1.12689439387E-04 +9.78297064601E-06 -6.12646919145E-01 +7.49719942696E-01
1.18000000000E+09 -4.65108171678E-01 +8.30574739373E-01 +7.63722914248E-05 -6.07157998624E-05 +1.40192614664E-04 -5.75275215215E-05 -6.07241866022E-01 +7.52776759203E-01
1.18500000000E+09 -4.57151608665E-01 +8.33900127294E-01 +1.30467659488E-04 -1.10582586128E-04 +1.50719689032E-04 -7.14688399153E-05 -6.01595267774E-01 +7.56017275280E-01
1.19000000000E+09 -4.49762527142E-01 +8.36756366396E-01 +1.19795486768E-04 -5.79928787610E-05 +1.21320960030E-04 -1.60285804058E-04 -5.95485981364E-01 +7.58374852332E-01
1.19500000000E+09 -4.43192121751E-01 +8.38960061027E-01 +1.16318552904E-04 -1.78120124591E-04 +1.30733937417E-04 -2.00641812858E-04 -5.89732359976E-01 +7.59708748437E-01
1.20000000000E+09 -4.37779367041E-01 +8.39949216404E-01 +2.07180050031E-05 -1.98471321771E-04 -1.34345275444E-05 -2.46396569660E-04 -5.85025959375E-01 +7.59900583773E-01
1.20500000000E+09 -4.32918174232E-01 +8.41424586303E-01 -1.87012605490E-05 -2.08415352938E-04 -4.55251171372E-05 -1.93438055817E-04 -5.82830241479E-01 +7.60691182606E-01
1.21000000000E+09 -4.28132481998E-01 +8.43098161299E-01 -6.04069934454E-05 -1.16543276563E-04 -5.73214244501E-05 -1.18011856930E-04 -5.80665220546E-01 +7.63948804716E-01
1.21500000000E+09 -4.22425339813E-01 +8.44841529900E-01 +3.26357693573E-05 -1.31414881378E-04 -7.76970290407E-05 -1.08233459761E-04 -5.77974982467E-01 +7.68588381819E-01
1.22000000000E+09 -4.15379705413E-01 +8.47307553995E-01 +1.16249981399E-05 -9.21714101527E-05 +2.10046867604E-05 -1.34778238267E-04 -5.73815251158E-01 +7.73872652081E-01
1.22500000000E+09 -4.07314815414E-01 +8.50195742778E-01 -1.06297249157E-05 -1.16051294953E-04 -3.73081438526E-05 -1.28231312728E-04 -5.68795321197E-01 +7.78942646269E-01
1.23000000000E+09 -3.98322058695E-01 +8.53640559156E-01 -3.08607949399E-05 -1.89250807201E-04 -4.84832164491E-05 -2.09906610887E-04 -5.63073363236E-01 +7.83529932325E-01
1.23500000000E+09 -3.88736166392E-01 +8.57373302089E-01 -2.59251211089E-05 -1.50890442927E-04 -4.73060850773E-05 -1.56422792341E-04 -5.57272591281E-01 +7.88011279425E-01
1.24000000000E+09 -3.79278888576E-01 +8.61225932600E-01 -6.82595162805E-05 -1.84598073818E-04 -8.13078491095E-05 -1.28794008843E-04 -5.51471572239E-01 +7.91897065758E-01
1.24500000000E+09 -3.70243305551E-01 +8.65276763749E-01 -8.65640864255E-05 -1.52607293028E-04 -1.15914379642E-04 -1.81579264441E-04 -5.45211433426E-01 +7.95611284851E-01
1.25000000000E+09 -3.62121245209E-01 +8.68221258736E-01 -1.30595323115E-04 -1.79215276053E-04 -6.04710883523E-05 -2.01610085399E-04 -5.38939318913E-01 +7.99941189838E-01
1.25500000000E+09 -3.55090870472E-01 +8.70470765035E-01 -9.34454328837E-05 -1.48517363678E-04 -1.22616689557E-04 -1.85620363327E-04 -5.32028119676E-01 +8.03918641412E-01
1.26000000000E+09 -3.48897737499E-01 +8.71954011673E-01 -1.22607799625E-04 -1.84717812108E-04 -1.24516624091E-04 -1.69503205071E-04 -5.25469652533E-01 +8.08055707810E-01
1.26500000000E+09 -3.42904029419E-01 +8.73071785382E-01 -1.58892632047E-04 -1.64416268941E-04 -2.04304037930E-04 -1.91840573045E-04 -5.18677846948E-01 +8.12004905713E-01
1.27000000000E+09 -3.36477903978E-01 +8.74250547485E-01 -1.77573008209E-04 -2.20879594590E-04 -1.92015985973E-04 -1.41312842593E-04 -5.11763942156E-01 +8.15768577441E-01
1.27500000000E+09 -3.29102323725E-01 +8.75516900514E-01 -2.60037033552E-04 -1.75678141994E-04 -2.34345562201E-04 -1.72960846165E-04 -5.04579711035E-01 +8.19469592121E-01
1.28000000000E+09 -3.19933916413E-01 +8.77242182980E-01 -2.41103679175E-04 -1.29527130714E-04 -2.24060730647E-04 -1.55812743478E-04 -4.97504152746E-01 +8.23086217082E-01
1.28500000000E+09 -3.08927936294E-01 +8.79727344692E-01 -2.58130168365E-04 -1.26323933369E-04 -3.02615687656E-04 -1.40786263740E-04 -4.90028688864E-01 +8.26905257049E-01
1.29000000000E+09 -2.97133155141E-01 +8.82489376898E-01 -3.21441881283E-04 -1.22937486722E-04 -3.26731812184E-04 -1.43248527940E-04 -4.82578226862E-01 +8.30731805439E-01
1.29500000000E+09 -2.84735548702E-01 +8.85921335061E-01 -3.43937467885E-04 -1.01512364251E-04 -3.64721992870E-04 -1.16812494649E-04 -4.74581720788E-01 +8.34172231877E-01
1.30000000000E+09 -2.72596370680E-01 +8.89426358310E-01 -3.76666318435E-04 -9.23296735013E-05 -4.02085984795E-04 -4.45739108585E-05 -4.66766860971E-01 +8.37765446033E-01
1.30500000000E+09 -2.61679956194E-01 +8.92367846258E-01 -4.83576560092E-04 -2.49716754645E-05 -4.01788316889E-04 +1.68221418223E-05 -4.58590667793E-01 +8.41311757929E-01
1.31000000000E+09 -2.52335634761E-01 +8.94614602998E-01 -5.29077355526E-04 -1.25535198781E-06 -4.72797288258E-04 +2.80534174399E-05 -4.50321108422E-01 +8.44897250211E-01
1.31500000000E+09 -2.44828388422E-01 +8.96109983177E-01 -4.69458674994E-04 +1.56455751633E-04 -5.07040797451E-04 +1.26928920778E-04 -4.41641550009E-01 +8.48342215529E-01
1.32000000000E+09 -2.38691902443E-01 +8.96861534241E-01 -4.24622159002E-04 +1.61247426898E-04 -4.60670739932E-04 +1.63732391404E-04 -4.32583535077E-01 +8.51633106867E-01
1.32500000000E+09 -2.32730006805E-01 +8.97057177246E-01 -5.16147315965E-04 +1.91760747404E-04 -5.50089818641E-04 +2.26744219388E-04 -4.23218578512E-01 +8.54999796341E-01
1.33000000000E+09 -2.26002842370E-01 +8.97186840970E-01 -5.37457683690E-04 +2.90675655569E-04 -5.38049064618E-04 +3.49437833008E-04 -4.13828959950E-01 +8.58413130099E-01
1.33500000000E+09 -2.17360149458E-01 +8.97084888307E-01 -5.09945943303E-04 +3.66498270795E-04 -5.03723474717E-04 +4.29830732008E-04 -4.03934334219E-01 +8.61552215142E-01
1.34000000000E+09 -2.06421318145E-01 +8.97359805847E-01 -5.45384536041E-04 +4.94188816870E-04 -5.47786019368E-04 +4.97469571045E-04 -3.93790538543E-01 +8.64850772961E-01
1.34500000000E+09 -1.92844488596E-01 +8.97668113160E-01 -4.88352146413E-04 +6.35817481221E-04 -4.62549444143E-04 +6.38522040590E-04 -3.82893803170E-01 +8.68143700546E-01
1.35000000000E+09 -1.77091025556E-01 +8.98184532356E-01 -3.96815058588E-04 +6.73936821603E-04 -4.07599498759E-04 +6.80599880374E-04 -3.71823482141E-01 +8.71203344217E-01
1.35500000000E+09 -1.60256825442E-01 +8.99051563118E-01 -3.57578223568E-04 +7.36735296592E-04 -3.20635644390E-04 +6.99070201674E-04 -3.60230603565E-01 +8.74122171050E-01
1.36000000000E+09 -1.43391320980E-01 +8.99521993815E-01 -2.74875281317E-04 +8.26695722564E-04 -2.56800559750E-04 +8.17501125714E-04 -3.48207462440E-01 +8.76948984436E-01
1.36500000000E+09 -1.27266242533E-01 +8.99844678459E-01 -1.91523055440E-04 +8.89040577849E-04 -2.15295646643E-04 +8.89214964514E-04 -3.36318654146E-01 +8.79454574829E-01
1.37000000000E+09 -1.12997897080E-01 +8.99520756261E-01 -1.25133722431E-04 +1.02035978530E-03 -1.40774205618E-04 +9.04449418394E-04 -3.23386859201E-01 +8.82066395917E-01
1.37500000000E+09 -1.00480195503E-01 +8.98950690216E-01 +6.99763819354E-05 +1.10566213296E-03 -7.67153560654E-05 +1.01307855481E-03 -3.09477289294E-01 +8.84426943084E-01
1.38000000000E+09 -8.92787647342E-02 +8.97876046218E-01 +1.41914993098E-04 +1.06453071054E-03 -2.63832758769E-05 +1.16802631959E-03 -2.94908141962E-01 +8.86589865292E-01
1.38500000000E+09 -7.78994796695E-02 +8.96447770470E-01 +2.55144154605E-04 +1.18887526287E-03 +1.48680867055E-04 +1.34330143898E-03 -2.79289154877E-01 +8.88642714483E-01
1.39000000000E+09 -6.58662511406E-02 +8.94091168268E-01 +3.59571655415E-04 +1.25587492081E-03 +4.19047827747E-04 +1.45085952995E-03 -2.63426192798E-01 +8.90100278757E-01
1.39500000000E+09 -5.16077622096E-02 +8.91122718174E-01 +5.85728175239E-04 +1.30680734335E-03 +7.57762605006E-04 +1.33994285862E-03 -2.46677920637E-01 +8.90806801802E-01
1.40000000000E+09 -3.47685745286E-02 +8.87408216497E-01 +7.41053476993E-04 +1.37713155489E-03 +8.55940311877E-04 +1.37193745532E-03 -2.29427535628E-01 +8.91261785332E-01
1.40500000000E+09 -1.59157459364E-02 +8.82956323693E-01 +1.02398215209E-03 +1.40897380711E-03 +1.04648047807E-03 +1.35321407728E-03 -2.10831581699E-01 +8.91189331765E-01
1.41000000000E+09 +5.31449109537E-03 +8.77693496416E-01 +1.33566089454E-03 +1.38479874378E-03 +1.32270399670E-03 +1.32958477274E-03 -1.90720101715E-01 +8.90531228726E-01
1.41500000000E+09 +2.75798715781E-02 +8.71588401994E-01 +1.66559695703E-03 +1.26224818569E-03 +1.65894805990E-03 +1.36084568322E-03 -1.69031013594E-01 +8.89130418272E-01
1.42000000000E+09 +5.01805527925E-02 +8.64492267977E-01 +1.86130421442E-03 +1.03160542469E-03 +2.06803568676E-03 +1.21069934869E-03 -1.45916708859E-01 +8.86624705033E-01
1.42500000000E+09 +7.19873105334E-02 +8.56472050415E-01 +2.11628636899E-03 +9.42839960717E-04 +2.43375170887E-03 +1.01200229850E-03 -1.22373885061E-01 +8.82759228348E-01
1.43000000000E+09 +9.31491571158E-02 +8.47365993459E-01 +2.54669133849E-03 +8.74543085812E-04 +2.85054748356E-03 +7.24711649153E-04 -9.77003361169E-02 +8.77985178814E-01
1.43500000000E+09 +1.13689629393E-01 +8.36778012451E-01 +3.17804475747E-03 +5.08224365810E-04 +3.28113766841E-03 +1.78325362695E-04 -7.11377538477E-02 +8.71331390713E-01
1.44000000000E+09 +1.34518481100E-01 +8.24814924754E-01 +3.49597270857E-03 -2.48106029741E-04 +3.55006053112E-03 -5.21535454782E-04 -4.32455653724E-02 +8.62659686692E-01
1.44500000000E+09 +1.57099778989E-01 +8.09912945889E-01 +3.51350878734E-03 -1.00066323347E-03 +3.48441647015E-03 -1.14552861500E-03 -1.29553145499E-02 +8.51176368039E-01
1.45000000000E+09 +1.81320788501E-01 +7.91889180364E-01 +3.42213526205E-03 -1.51139801500E-03 +3.41400221792E-03 -1.75058156650E-03 +1.86901595731E-02 +8.36756782494E-01
1.45500000000E+09 +2.07876358911E-01 +7.70177945910E-01 +3.50911423270E-03 -1.85917320291E-03 +3.32382824651E-03 -2.22374721907E-03 +5.18924661722E-02 +8.19461354284E-01
1.46000000000E+09 +2.36894530926E-01 +7.44370125875E-01 +3.79661701038E-03 -2.56814612912E-03 +3.41356034741E-03 -2.78619339165E-03 +8.67128744982E-02 +7.97702186457E-01
1.46500000000E+09 +2.67350992913E-01 +7.13958629965E-01 +4.03181895247E-03 -3.70622092249E-03 +3.51061073310E-03 -3.59452458874E-03 +1.22497272258E-01 +7.71094234280E-01
1.47000000000E+09 +2.98450386043E-01 +6.79142717737E-01 +3.71014987266E-03 -5.25346282833E-03 +3.39627758027E-03 -4.79516269973E-03 +1.59325930366E-01 +7.37075096472E-01
1.47500000000E+09 +3.28986849790E-01 +6.39046854823E-01 +2.46223982947E-03 -6.57307490011E-03 +2.61198261561E-03 -6.22378577253E-03 +1.95495658870E-01 +6.96509072122E-01
1.48000000000E+09 +3.57012348012E-01 +5.92539879034E-01 +1.20377920213E-03 -7.44880031831E-03 +1.44844757310E-03 -7.46055433051E-03 +2.31967046649E-01 +6.47372285397E-01
1.48500000000E+09 +3.80097653202E-01 +5.39842886141E-01 -3.17721082514E-04 -8.43136293894E-03 -4.43162680248E-04 -8.66624833323E-03 +2.65214243078E-01 +5.89294792077E-01
1.49000000000E+09 +3.98107793313E-01 +4.79798778017E-01 -2.33147614687E-03 -8.98853981644E-03 -2.76875916437E-03 -8.84499116777E-03 +2.93818175626E-01 +5.20634297531E-01
1.49500000000E+09 +4.08124590773E-01 +4.11725378949E-01 -4.96871423441E-03 -8.92899073380E-03 -5.13912902012E-03 -8.35705367214E-03 +3.11937406520E-01 +4.41855714289E-01
1.50000000000E+09 +4.08698043576E-01 +3.34899292009E-01 -7.46399277236E-03 -8.31482638494E-03 -7.00553878206E-03 -7.80010060304E-03 +3.17695095690E-01 +3.54419328958E-01
1.50500000000E+09 +3.96648649927E-01 +2.49738735208E-01 -1.03422284419E-02 -6.65876910128E-03 -9.73055976226E-03 -6.70715127028E-03 +3.08171758319E-01 +2.58699334649E-01
1.51000000000E+09 +3.68698628575E-01 +1.59375344167E-01 -1.22485258148E-02 -3.42640722130E-03 -1.19690207767E-02 -3.87197447366E-03 +2.77262167700E-01 +1.57276915850E-01
1.51500000000E+09 +3.21574465788E-01 +6.77752688246E-02 -1.33406612809E-02 -7.06039088142E-04 -1.34648081417E-02 -1.05344118635E-03 +2.22258621788E-01 +6.18039879422E-02
1.52000000000E+09 +2.54399672650E-01 -1.54511768806E-02 -1.44213414357E-02 +3.15335790339E-03 -1.46777735788E-02 +3.01671307524E-03 +1.48611797600E-01 -2.33359735980E-02
1.52500000000E+09 +1.70205015778E-01 -8.53437992286E-02 -1.26799478966E-02 +8.85374997124E-03 -1.28717436224E-02 +8.84216195735E-03 +5.64130153173E-02 -9.27370687523E-02
1.53000000000E+09 +7.11076086573E-02 -1.35549511930E-01 -8.42048445624E-03 +1.10391166309E-02 -8.54466738941E-03 +1.11641635149E-02 -4.99705774681E-02 -1.38423672011E-01
1.53500000000E+09 -3.67691875810E-02 -1.60750031107E-01 -5.39316017349E-03 +1.27157033836E-02 -5.39879126263E-03 +1.27164084177E-02 -1.59583916481E-01 -1.60220775307E-01
1.54000000000E+09 -1.46130190148E-01 -1.60122139805E-01 -1.71784480989E-03 +1.29060609207E-02 -1.73935282819E-03 +1.27797161603E-02 -2.67525139703E-01 -1.59037669803E-01
1.54500000000E+09 -2.49411850963E-01 -1.36773436387E-01 +1.93404086513E-03 +1.22824250070E-02 +1.65273153579E-03 +1.21414939553E-02 -3.66499798016E-01 -1.38514339150E-01
1.55000000000E+09 -3.43537666863E-01 -9.62537204189E-02 +4.24915615351E-03 +1.07444447446E-02 +3.80937113550E-03 +1.08874250107E-02 -4.53307973266E-01 -1.02477306368E-01
1.55500000000E+09 -4.23999522077E-01 -4.12681682185E-02 +6.92690352481E-03 +8.66653741403E-03 +6.70220747580E-03 +9.14080932257E-03 -5.25130507692E-01 -5.59431895030E-02
1.56000000000E+09 -4.88073998152E-01 +1.80968907302E-02 +7.90543248598E-03 +5.52075726852E-03 +8.06207654121E-03 +6.04872397579E-03 -5.83722283086E-01 -3.43080618491E-03
1.56500000000E+09 -5.38894279166E-01 +7.90642252923E-02 +7.62045104959E-03 +3.52088872180E-03 +8.01726778683E-03 +3.86437540078E-03 -6.28561819296E-01 +5.23941298761E-02
1.57000000000E+09 -5.77592341496E-01 +1.38290817098E-01 +7.32931312204E-03 +1.73712132191E-03 +7.82001217120E-03 +1.80588802758E-03 -6.62875411195E-01 +1.06179129290E-01
