# Hz S RI R 50
! CMT, C1220, 16058040, 17.2.0/1
! Date: 14/08/2018 12:48:04
! Data: Format (Calibration Info)
! Freq                      S11: Re/Im (F2)                       S21: Re/Im (F2)                       S12: Re/Im (F2)                       S22: Re/Im (F2)            
1.00000000000E+09 -6.51969168743E-01 +7.13470866621E-01 +1.24280197742E-05 -9.52467790822E-06 +3.66402578075E-05 -1.12794935391E-05 -7.53641577554E-01 +6.21555997747E-01
1.00500000000E+09 -6.44963057993E-01 +7.18351311617E-01 -1.12317098927E-05 -2.73122258271E-05 +3.30206594974E-05 +9.74822240232E-06 -7.50265674417E-01 +6.25657329199E-01
1.01000000000E+09 -6.38904252840E-01 +7.22965885044E-01 +8.48485416550E-06 -2.12415132803E-05 -5.36749530258E-06 -6.26582256555E-07 -7.46754237104E-01 +6.29083273725E-01
1.01500000000E+09 -6.34571228932E-01 +7.26845700562E-01 +2.10962695420E-05 +1.54968887845E-05 -2.60099488763E-05 +5.39457953943E-06 -7.43594479457E-01 +6.32746478329E-01
1.02000000000E+09 -6.31516061350E-01 +7.30357781947E-01 +2.97922817742E-06 +3.38569583593E-06 -3.00526982191E-06 -1.71560966218E-05 -7.40390629736E-01 +6.36349130409E-01
1.02500000000E+09 -6.29434644018E-01 +7.33175205484E-01 -2.49781529484E-05 -1.04624400327E-05 -3.77744857582E-05 +2.12565989975E-05 -7.37561190742E-01 +6.40005139124E-01
1.03000000000E+09 -6.27847346130E-01 +7.35711608129E-01 -3.07991224879E-05 +3.98362157371E-05 -6.34629671433E-05 +1.16345785429E-05 -7.34074078450E-01 +6.43819241364E-01
1.03500000000E+09 -6.25640389426E-01 +7.38297988050E-01 -9.05880173451E-06 +2.49664619665E-05 -9.34114711565E-06 +8.32605745891E-06 -7.30271237584E-01 +6.47866178513E-01
1.04000000000E+09 -6.22450852526E-01 +7.41183773264E-01 +2.92852917286E-06 +4.34794633059E-05 -8.22945449162E-06 +6.89410301310E-06 -7.26578457313E-01 +6.51473975627E-01
1.04500000000E+09 -6.17589861938E-01 +7.44751779012E-01 -3.34789879381E-05 -9.07875718214E-06 -1.76790365241E-05 -8.96725495394E-06 -7.22838493199E-01 +6.54894937960E-01
1.05000000000E+09 -6.10963985599E-01 +7.48871435740E-01 +1.28669814944E-05 +5.00472921661E-05 -2.84740224569E-05 +6.48603126468E-05 -7.19594225469E-01 +6.58377305933E-01
1.05500000000E+09 -6.03212862083E-01 +7.53449297496E-01 +1.90350552326E-05 -1.19501820742E-05 -2.52000177957E-05 +4.92178472840E-05 -7.16289424738E-01 +6.61957083061E-01
1.06000000000E+09 -5.94673227215E-01 +7.58518775865E-01 -4.74749399321E-06 +2.89623382342E-05 -3.03633899667E-05 +3.56599797778E-05 -7.12971876413E-01 +6.65681415195E-01
1.06500000000E+09 -5.86370704765E-01 +7.63576502903E-01 -1.38371374803E-05 +2.29741425662E-05 -3.80757050006E-05 -5.72479777714E-05 -7.09105208853E-01 +6.69523368561E-01
1.07000000000E+09 -5.78979931466E-01 +7.68156651300E-01 -3.21721326785E-05 +9.52344596631E-06 -4.68673167536E-05 +1.57468501664E-05 -7.05166999907E-01 +6.73470874674E-01
1.07500000000E+09 -5.73210665752E-01 +7.71997848547E-01 -2.13821435835E-05 +1.23189649895E-06 +2.51229477257E-05 +3.64259361739E-05 -7.00785829996E-01 +6.77066655523E-01
1.08000000000E+09 -5.68981836621E-01 +7.75196282220E-01 +5.62775073738E-06 +1.27730212585E-06 +4.44872821502E-05 +4.30043839792E-05 -6.96869293760E-01 +6.80800019351E-01
1.08500000000E+09 -5.66315236928E-01 +7.77602382561E-01 -1.09410532662E-05 +3.97165779961E-05 +4.40274457987E-05 +2.61816395974E-05 -6.93290053628E-01 +6.84441420405E-01
1.09000000000E+09 -5.64281789328E-01 +7.79832234237E-01 +3.58424646995E-06 +1.67253346681E-06 +3.44363140381E-05 +5.53346272163E-05 -6.89383528437E-01 +6.88324910741E-01
1.09500000000E+09 -5.62639890960E-01 +7.81723872644E-01 +1.44019943192E-05 +3.39293144988E-05 -8.72866653174E-06 +6.48703941888E-05 -6.85673322864E-01 +6.91987533804E-01
1.10000000000E+09 -5.60026499623E-01 +7.83762977568E-01 +3.14931896992E-05 +7.25686649630E-05 +3.41320776012E-05 +4.31552982150E-05 -6.81775505754E-01 +6.95836519024E-01
1.10500000000E+09 -5.56240828229E-01 +7.86366346092E-01 +8.41276261134E-05 +2.49481009909E-05 +1.57123397572E-05 +8.68578416536E-05 -6.77471084026E-01 +6.99398057885E-01
1.11000000000E+09 -5.50938065169E-01 +7.89645999166E-01 +2.93240575545E-05 +3.25221070635E-05 +4.14514380577E-05 +1.84061688570E-05 -6.73495798575E-01 +7.02702937057E-01
1.11500000000E+09 -5.44250921976E-01 +7.93437283022E-01 +8.26549650474E-06 +7.48234788075E-05 +4.16362244910E-05 +4.12692524079E-05 -6.69437741172E-01 +7.06030146868E-01
1.12000000000E+09 -5.36534144317E-01 +7.97290899230E-01 +2.62643237210E-05 +3.52203494264E-05 +1.05024727301E-04 +2.18404946057E-05 -6.65404781954E-01 +7.09794920461E-01
1.12500000000E+09 -5.28693642398E-01 +8.01453172600E-01 +5.22368906090E-05 -5.73882626492E-06 +5.14686257058E-05 +5.48150554216E-05 -6.61266428031E-01 +7.13665769243E-01
1.13000000000E+09 -5.21189566360E-01 +8.04900961571E-01 +6.73828956149E-05 -4.61647468369E-05 +3.67456325744E-05 +5.74010682490E-05 -6.56950579830E-01 +7.17535611028E-01
1.13500000000E+09 -5.14534821314E-01 +8.08035544478E-01 +6.10270746666E-05 +5.83762175272E-05 +9.69090865927E-05 +4.47933710717E-05 -6.52150495322E-01 +7.21414092568E-01
1.14000000000E+09 -5.09121267945E-01 +8.10560861957E-01 +6.07631801000E-05 +2.96716906368E-05 +8.81372036346E-05 +1.86499224485E-05 -6.47339392134E-01 +7.24914466207E-01
1.14500000000E+09 -5.05160711216E-01 +8.12316614472E-01 +5.75769816351E-05 +6.34273800307E-06 +9.19416806440E-05 -2.09382469786E-05 -6.42742020413E-01 +7.28339289864E-01
1.15000000000E+09 -5.01377982866E-01 +8.14168408809E-01 +5.78224756762E-05 -1.91843305591E-05 +1.24150178404E-04 +1.52749611981E-05 -6.38234863147E-01 +7.32129698612E-01
1.15500000000E+09 -4.97748242332E-01 +8.16003258086E-01 +5.37864318729E-05 -1.23643781575E-06 +5.08417970976E-05 +1.14247903277E-05 -6.33499009593E-01 +7.35922409419E-01
1.16000000000E+09 -4.93450077950E-01 +8.18157643909E-01 +4.01695863794E-05 +6.59175348990E-06 +1.07611186883E-04 +7.06784566228E-07 -6.28707227010E-01 +7.39864697152E-01
1.16500000000E+09 -4.88174794059E-01 +8.21014982260E-01 +8.71691326197E-05 +2.23840696865E-05 +8.43472759701E-05 -3.54217256855E-06 -6.23633023389E-01 +7.43412418313E-01
1.17000000000E+09 -4.81878194359E-01 +8.24255803696E-01 +6.19687311583E-05 -2.73135410547E-06 +7.72630955268E-05 -5.11261294353E-05 -6.18273553462E-01 +7.46767686003E-01
1.17500000000E+09 -4.74519641178E-01 +8.27786106693E-01 +1.42876642561E-04 -2.23244872685E-05 +1.20947435150E-04 -4.36039548674E-05 -6.12700643851E-01 +7.49914323778E-01
1.18000000000E+09 -4.66816486897E-01 +8.31563216293E-01 +1.39224576965E-04 -4.48325963928E-05 +1.32048960456E-04 -4.46877455481E-05 -6.07382788848E-01 +7.53014609038E-01
1.18500000000E+09 -4.58879847599E-01 +8.34925223239E-01 +1.87412508267E-04 -8.49125884944E-05 +1.46183258788E-04 -7.12074191962E-05 -6.01637180509E-01 +7.56042246932E-01
1.19000000000E+09 -4.51506966827E-01 +8.37732099069E-01 +1.05553772570E-04 -7.27398368375E-05 +1.04221529016E-04 -1.36723862119E-04 -5.95529120617E-01 +7.58668793863E-01
1.19500000000E+09 -4.45177887908E-01 +8.39889502216E-01 +1.30039015071E-04 -1.57006842671E-04 +1.24775512185E-04 -1.68482618791E-04 -5.89515420925E-01 +7.59783357763E-01
1.20000000000E+09 -4.39678987816E-01 +8.40764389920E-01 +8.34769440396E-05 -2.51622825484E-04 +3.29253323074E-05 -2.30320360010E-04 -5.84994176984E-01 +7.60040413544E-01
1.20500000000E+09 -4.34959055172E-01 +8.42225542011E-01 -7.87580096215E-05 -1.91453152535E-04 -7.42254882529E-05 -2.21788309185E-04 -5.82717614943E-01 +7.60967101412E-01
1.21000000000E+09 -4.30242076579E-01 +8.43781457983E-01 -1.06906837082E-04 -1.00346578361E-04 -4.48638216594E-05 -1.31292769643E-04 -5.80748833702E-01 +7.64046748705E-01
1.21500000000E+09 -4.24167348693E-01 +8.45760185384E-01 +1.88510382478E-05 -1.27596189826E-04 +4.78153509286E-06 -1.18453321663E-04 -5.78031804079E-01 +7.68719103536E-01
1.22000000000E+09 -4.17332888681E-01 +8.48133738658E-01 +2.88418566738E-05 -1.28469051032E-04 +2.88018213008E-05 -1.32576975670E-04 -5.73762520321E-01 +7.74034804492E-01
1.22500000000E+09 -4.09025684668E-01 +8.51153166805E-01 +1.58945244046E-05 -1.10291291790E-04 +5.42851909739E-05 -1.59881180228E-04 -5.68665177788E-01 +7.79111198879E-01
1.23000000000E+09 -3.99946805490E-01 +8.54785650705E-01 -1.51099480483E-05 -1.37588743060E-04 -1.35847558185E-05 -1.46135568519E-04 -5.63081028579E-01 +7.83848791393E-01
1.23500000000E+09 -3.90420720434E-01 +8.58520606912E-01 -2.37986988955E-05 -1.59304582958E-04 -2.48089081277E-05 -1.58954528962E-04 -5.57136820251E-01 +7.87962724600E-01
1.24000000000E+09 -3.80935232067E-01 +8.62445270127E-01 -5.02048465893E-05 -2.05558547823E-04 -5.28802113412E-06 -2.19214755106E-04 -5.51214686631E-01 +7.91996246707E-01
1.24500000000E+09 -3.72053108774E-01 +8.66350226010E-01 -7.14889349700E-05 -1.86203039173E-04 -6.40398596315E-05 -1.72002456825E-04 -5.45079541595E-01 +7.95786833175E-01
1.25000000000E+09 -3.64087458229E-01 +8.69400504198E-01 -9.46112320787E-05 -2.00368784421E-04 -9.76856451867E-05 -1.85285378703E-04 -5.38712591617E-01 +8.00031449741E-01
1.25500000000E+09 -3.57117665812E-01 +8.71559664938E-01 -1.22095293455E-04 -1.94199160154E-04 -8.27862416700E-05 -2.20794992054E-04 -5.31995736384E-01 +8.03924074164E-01
1.26000000000E+09 -3.50954350523E-01 +8.73192089148E-01 -1.42877445897E-04 -2.36980894709E-04 -1.49661286416E-04 -2.13777811424E-04 -5.25487355300E-01 +8.08288062218E-01
1.26500000000E+09 -3.45160773124E-01 +8.74188732374E-01 -1.35157218531E-04 -1.75175985271E-04 -1.40114815242E-04 -2.18060154678E-04 -5.18498711843E-01 +8.12008656431E-01
1.27000000000E+09 -3.38688557307E-01 +8.75482237350E-01 -1.90038947640E-04 -2.45423621078E-04 -2.11482710153E-04 -2.28334564152E-04 -5.11658963008E-01 +8.15963389194E-01
1.27500000000E+09 -3.31232367073E-01 +8.76897375096E-01 -2.34397597287E-04 -2.22127789981E-04 -3.07970414662E-04 -1.99107879734E-04 -5.04531429167E-01 +8.19603690203E-01
1.28000000000E+09 -3.21965319577E-01 +8.78702240658E-01 -2.51491152429E-04 -1.40440417531E-04 -2.31567122928E-04 -1.87954379384E-04 -4.97481307816E-01 +8.23169258960E-01
1.28500000000E+09 -3.10734042040E-01 +8.81072049319E-01 -3.01528384251E-04 -1.39042198754E-04 -3.21448711557E-04 -1.76154242596E-04 -4.90033759691E-01 +8.27035448018E-01
1.29000000000E+09 -2.98844278871E-01 +8.84156535384E-01 -3.24821232785E-04 -1.28974958968E-04 -3.76259717495E-04 -1.23710234843E-04 -4.82278199959E-01 +8.30704824948E-01
1.29500000000E+09 -2.86443131365E-01 +8.87502058649E-01 -3.53271130375E-04 -1.33835922484E-04 -4.04412252913E-04 -1.22941723082E-04 -4.74477724031E-01 +8.34271948756E-01
1.30000000000E+09 -2.74381592356E-01 +8.90981074618E-01 -4.28975212377E-04 -1.17758988066E-04 -4.00367737562E-04 -8.99780209822E-05 -4.66676879843E-01 +8.37921590791E-01
1.30500000000E+09 -2.63542489114E-01 +8.93968251453E-01 -4.11077198343E-04 -1.18865333083E-04 -4.37410886811E-04 -4.76073183472E-05 -4.58488143207E-01 +8.41389964606E-01
1.31000000000E+09 -2.54272774294E-01 +8.96257798874E-01 -5.25421216695E-04 +4.60749608001E-05 -4.76560485190E-04 +4.87412860625E-05 -4.50296055952E-01 +8.44981649949E-01
1.31500000000E+09 -2.46909039705E-01 +8.97671921140E-01 -5.19268013067E-04 +1.07175511997E-04 -5.37689668198E-04 +5.14569665471E-05 -4.41679693333E-01 +8.48428487826E-01
1.32000000000E+09 -2.40675222870E-01 +8.98500217236E-01 -5.00227263528E-04 +1.50717566045E-04 -5.41337580001E-04 +1.12592228442E-04 -4.32720159524E-01 +8.51643057816E-01
1.32500000000E+09 -2.34823505339E-01 +8.98570377401E-01 -5.66964205084E-04 +1.81542838618E-04 -6.07295467034E-04 +2.34866629676E-04 -4.23264275892E-01 +8.55166222779E-01
1.33000000000E+09 -2.28117898818E-01 +8.98638109993E-01 -5.82927404986E-04 +2.08607492649E-04 -6.23918688433E-04 +3.15951007160E-04 -4.13840731815E-01 +8.58244445469E-01
1.33500000000E+09 -2.19382006119E-01 +8.98545894448E-01 -6.17952405026E-04 +3.92665867402E-04 -5.98471438279E-04 +4.17595457774E-04 -4.04063269283E-01 +8.61554351233E-01
1.34000000000E+09 -2.08107243347E-01 +8.99012699843E-01 -5.76229679786E-04 +4.76059153327E-04 -5.34336145229E-04 +4.86592366260E-04 -3.93945856742E-01 +8.64867927608E-01
1.34500000000E+09 -1.94368141075E-01 +8.99320620583E-01 -5.83873165333E-04 +6.42701320682E-04 -5.18613256559E-04 +6.00060841865E-04 -3.83083013960E-01 +8.68209163872E-01
1.35000000000E+09 -1.78731923739E-01 +9.00001300047E-01 -4.69795071922E-04 +7.07474507661E-04 -4.43077698266E-04 +6.86346507207E-04 -3.72014418144E-01 +8.71271753148E-01
1.35500000000E+09 -1.61823630647E-01 +9.00692216068E-01 -4.03890523212E-04 +7.28209383798E-04 -4.13625684290E-04 +7.16032245616E-04 -3.60338199605E-01 +8.74261604079E-01
1.36000000000E+09 -1.45129074156E-01 +9.01457592106E-01 -3.79127941954E-04 +7.93388225011E-04 -3.28793000103E-04 +7.90916457137E-04 -3.48559022762E-01 +8.77122043919E-01
1.36500000000E+09 -1.29102057289E-01 +9.01808734118E-01 -3.19657178308E-04 +9.48569032043E-04 -3.25950175862E-04 +7.99343502263E-04 -3.36483110357E-01 +8.79680082268E-01
1.37000000000E+09 -1.14704713321E-01 +9.01636144616E-01 -2.16130260536E-04 +1.00871015545E-03 -3.04343813339E-04 +9.30732527745E-04 -3.23540014994E-01 +8.82191491027E-01
1.37500000000E+09 -1.02220364442E-01 +9.01054319593E-01 -5.07315187141E-05 +1.07464856996E-03 -1.61906226344E-04 +1.03390031510E-03 -3.09686779264E-01 +8.84623984294E-01
1.38000000000E+09 -9.10106263336E-02 +9.00126586917E-01 +4.41800212680E-05 +1.15118586016E-03 -1.37222556756E-04 +1.17066216307E-03 -2.95170638674E-01 +8.86848727786E-01
1.38500000000E+09 -7.93563839490E-02 +8.98539931852E-01 +1.01932785300E-04 +1.20043327094E-03 -2.98889709586E-05 +1.37112096004E-03 -2.79720705822E-01 +8.88831989451E-01
1.39000000000E+09 -6.70906775338E-02 +8.96302830333E-01 +2.44992477117E-04 +1.31612059689E-03 +2.76902829333E-04 +1.55069777341E-03 -2.63706922716E-01 +8.90433456845E-01
1.39500000000E+09 -5.26420087841E-02 +8.93446317673E-01 +4.03211147538E-04 +1.39492407990E-03 +5.88904055514E-04 +1.49627335006E-03 -2.47057201641E-01 +8.91125044721E-01
1.40000000000E+09 -3.56121435829E-02 +8.89619015295E-01 +5.73122112141E-04 +1.51000402040E-03 +7.05318968072E-04 +1.50171811804E-03 -2.29615514866E-01 +8.91797234196E-01
1.40500000000E+09 -1.63733118393E-02 +8.85185647933E-01 +8.56554213542E-04 +1.61605378707E-03 +9.41080333847E-04 +1.55771008026E-03 -2.11141936005E-01 +8.91688710637E-01
1.41000000000E+09 +4.92071027899E-03 +8.79802920657E-01 +1.26616292529E-03 +1.58365735675E-03 +1.24175396290E-03 +1.61010987570E-03 -1.90815580151E-01 +8.91157541637E-01
1.41500000000E+09 +2.71887600733E-02 +8.73639387807E-01 +1.61260974274E-03 +1.52386902659E-03 +1.60662502511E-03 +1.68796143334E-03 -1.69148140201E-01 +8.89820143696E-01
1.42000000000E+09 +4.97653539780E-02 +8.66461720664E-01 +1.89476590967E-03 +1.33095621714E-03 +2.01956612374E-03 +1.50203399140E-03 -1.46146142374E-01 +8.87366671746E-01
1.42500000000E+09 +7.14867063718E-02 +8.58528168981E-01 +2.14041785864E-03 +1.21432928238E-03 +2.43889081363E-03 +1.32048347538E-03 -1.22453823154E-01 +8.83634162576E-01
1.43000000000E+09 +9.24654949671E-02 +8.49252984529E-01 +2.54515827165E-03 +1.21372537208E-03 +2.90986034196E-03 +1.04767829339E-03 -9.75744734880E-02 +8.79221921764E-01
1.43500000000E+09 +1.13135294265E-01 +8.38707767668E-01 +3.19742632159E-03 +9.04268010342E-04 +3.37089241228E-03 +5.50209069089E-04 -7.10008506102E-02 +8.72495477870E-01
1.44000000000E+09 +1.33929014861E-01 +8.26623138992E-01 +3.65768331186E-03 +1.55006546986E-04 +3.72771651902E-03 -1.18450928899E-04 -4.29291946085E-02 +8.63768633147E-01
1.44500000000E+09 +1.56696432039E-01 +8.11578071751E-01 +3.82346501545E-03 -5.79979434469E-04 +3.86753896452E-03 -7.77600875849E-04 -1.24311712128E-02 +8.52339216246E-01
1.45000000000E+09 +1.81120254004E-01 +7.93240965345E-01 +3.73645833855E-03 -1.21691273322E-03 +3.79353768439E-03 -1.45265557317E-03 +1.93823466235E-02 +8.37876610187E-01
1.45500000000E+09 +2.07877838318E-01 +7.71192209072E-01 +3.91156641965E-03 -1.62143369241E-03 +3.79229169562E-03 -1.91372064668E-03 +5.27920787852E-02 +8.20523940872E-01
1.46000000000E+09 +2.36973790621E-01 +7.45138281978E-01 +4.25895026149E-03 -2.33243065828E-03 +3.83886357485E-03 -2.56400598178E-03 +8.78126268225E-02 +7.98827076875E-01
1.46500000000E+09 +2.67566110453E-01 +7.14607527715E-01 +4.54331492136E-03 -3.35813872227E-03 +3.95952726571E-03 -3.38623007314E-03 +1.24007189369E-01 +7.72236225026E-01
1.47000000000E+09 +2.98730586296E-01 +6.79521292241E-01 +4.41204509795E-03 -4.97150989955E-03 +4.03232961496E-03 -4.53627044527E-03 +1.61184816679E-01 +7.38258883967E-01
1.47500000000E+09 +3.29203564561E-01 +6.39205503076E-01 +3.32230337672E-03 -6.51941879649E-03 +3.43037141994E-03 -6.09187257945E-03 +1.97909567397E-01 +6.97118814070E-01
1.48000000000E+09 +3.57295229770E-01 +5.92251635366E-01 +2.18436427995E-03 -7.45529771762E-03 +2.45871266498E-03 -7.51389745090E-03 +2.34692144544E-01 +6.47572639288E-01
1.48500000000E+09 +3.79947502323E-01 +5.38841893187E-01 +8.49282532419E-04 -8.64336264491E-03 +7.89781959369E-04 -8.91433571125E-03 +2.68161098411E-01 +5.88813228793E-01
1.49000000000E+09 +3.97618091402E-01 +4.78148655267E-01 -1.14598252537E-03 -9.71155557634E-03 -1.59979290584E-03 -9.67616531429E-03 +2.96777703636E-01 +5.19381242094E-01
1.49500000000E+09 +4.06746129392E-01 +4.09434773932E-01 -3.87861416614E-03 -1.00334450942E-02 -4.14790718649E-03 -9.43815004965E-03 +3.14739896890E-01 +4.39919280361E-01
1.50000000000E+09 +4.06470998077E-01 +3.32047592165E-01 -6.71740369608E-03 -9.76324777289E-03 -6.34669500143E-03 -9.15436730396E-03 +3.20181472063E-01 +3.51397385919E-01
1.50500000000E+09 +3.93071764511E-01 +2.46667268002E-01 -9.98982596270E-03 -8.23897225422E-03 -9.25213863942E-03 -8.22904673127E-03 +3.09824314072E-01 +2.55065094315E-01
1.51000000000E+09 +3.63794669993E-01 +1.56502457104E-01 -1.21142115851E-02 -5.10768491340E-03 -1.17819882644E-02 -5.52490356064E-03 +2.78197804745E-01 +1.53102322836E-01
1.51500000000E+09 +3.15233628590E-01 +6.57996683034E-02 -1.34798132163E-02 -2.91060097260E-03 -1.34993672905E-02 -3.29278392679E-03 +2.21636319167E-01 +5.68077348988E-02
1.52000000000E+09 +2.46879661441E-01 -1.57173137114E-02 -1.56798576806E-02 +7.94463248605E-04 -1.58589644989E-02 +5.77974156351E-04 +1.46269521728E-01 -2.78755563297E-02
1.52500000000E+09 +1.62404180247E-01 -8.32059514072E-02 -1.49622850631E-02 +7.20114375372E-03 -1.51368456292E-02 +7.15955384309E-03 +5.25575158684E-02 -9.62748790575E-02
1.53000000000E+09 +6.45234657358E-02 -1.31197121954E-01 -1.09194447805E-02 +1.04732791761E-02 -1.10098008313E-02 +1.04933914429E-02 -5.46158148794E-02 -1.40713685415E-01
1.53500000000E+09 -4.21372494388E-02 -1.55028230725E-01 -7.75385676769E-03 +1.27539334261E-02 -7.79356656388E-03 +1.28027089329E-02 -1.64631903908E-01 -1.60750316469E-01
1.54000000000E+09 -1.50017134694E-01 -1.53328043426E-01 -3.73433411908E-03 +1.35136326961E-02 -3.82428113596E-03 +1.33744790211E-02 -2.72411659981E-01 -1.58228364570E-01
1.54500000000E+09 -2.51672101432E-01 -1.29745412247E-01 +1.12988415322E-04 +1.34623387874E-02 -2.03754155882E-04 +1.32842926847E-02 -3.70565605676E-01 -1.36113642146E-01
1.55000000000E+09 -3.44105399280E-01 -8.95123507053E-02 +2.91022780850E-03 +1.21932319628E-02 +2.44471001917E-03 +1.22706089527E-02 -4.56195247358E-01 -9.94934080571E-02
1.55500000000E+09 -4.23445937712E-01 -3.57840954276E-02 +6.15787709237E-03 +1.03870461724E-02 +5.76224157096E-03 +1.08819028243E-02 -5.27082229868E-01 -5.26959055569E-02
1.56000000000E+09 -4.86948108445E-01 +2.25194637851E-02 +7.62420682699E-03 +7.04188180884E-03 +7.68259539751E-03 +7.63390939543E-03 -5.84807458459E-01 -2.69087342974E-04
1.56500000000E+09 -5.37298507266E-01 +8.23516947749E-02 +7.54086451056E-03 +5.06300544207E-03 +7.90816099425E-03 +5.53621985263E-03 -6.29040100458E-01 +5.55630738678E-02
1.57000000000E+09 -5.75951498654E-01 +1.40408072054E-01 +7.69474411060E-03 +3.15979372119E-03 +8.17100769369E-03 +3.36372883889E-03 -6.62655225805E-01 +1.08992103221E-01
