# Hz S RI R 50
! CMT, C1220, 16058040, 17.2.0/1
! Date: 14/08/2018 12:44:39
! Data: Format (Calibration Info)
! Freq                      S11: Re/Im (F2)                       S21: Re/Im (F2)                       S12: Re/Im (F2)                       S22: Re/Im (F2)            
1.00000000000E+09 -6.50855133900E-01 +7.13561345296E-01 +5.81651404266E-06 -1.76458370066E-05 +5.01299060721E-06 +8.85366291454E-06 -7.52023712089E-01 +6.22223272110E-01
1.00500000000E+09 -6.43809620233E-01 +7.18402125416E-01 +2.42588164510E-05 +4.10486083168E-06 +5.89036192179E-08 +9.20010014446E-06 -7.48438592951E-01 +6.26360381900E-01
1.01000000000E+09 -6.37716609758E-01 +7.23031188574E-01 -1.77682211214E-05 +7.61926827539E-06 -7.40481280695E-06 +1.48029098431E-05 -7.45041704866E-01 +6.29896615762E-01
1.01500000000E+09 -6.33155016818E-01 +7.26893081755E-01 -6.04214758253E-06 -3.17513181070E-05 -4.50365070540E-05 -1.24829535552E-05 -7.41820219328E-01 +6.33611939183E-01
1.02000000000E+09 -6.30071947187E-01 +7.30462961341E-01 +6.46936082840E-06 +3.87771902948E-05 -2.66960199815E-05 +2.14040405954E-05 -7.38689588476E-01 +6.36895948562E-01
1.02500000000E+09 -6.27922126833E-01 +7.33193033003E-01 -4.22327649561E-05 +2.31841142825E-05 -2.10135366282E-05 +4.11613499903E-05 -7.35672707476E-01 +6.40568284178E-01
1.03000000000E+09 -6.26367636881E-01 +7.35823220850E-01 -1.96146680814E-05 +1.12902571682E-05 -5.80138925912E-06 +5.00969052533E-05 -7.32262043543E-01 +6.44529966188E-01
1.03500000000E+09 -6.24209605031E-01 +7.38391645010E-01 -5.47584479260E-05 +1.47948738051E-05 -2.54061011270E-05 -9.57363561202E-06 -7.28378180287E-01 +6.48399043929E-01
1.04000000000E+09 -6.20868956412E-01 +7.41117412544E-01 -2.03948057902E-05 +5.19114537246E-05 -2.41539281340E-05 +3.79788274047E-05 -7.24525682714E-01 +6.52033389545E-01
1.04500000000E+09 -6.16132167326E-01 +7.44582961953E-01 -4.17937770756E-05 +3.79230843713E-05 +8.36689906308E-06 +4.71000889832E-06 -7.21116234094E-01 +6.55577591949E-01
1.05000000000E+09 -6.09329523880E-01 +7.48719638040E-01 -3.26391313224E-05 +6.90684798927E-05 -2.18964279184E-05 -2.45939952728E-05 -7.17815872696E-01 +6.58994985223E-01
1.05500000000E+09 -6.01534158878E-01 +7.53265279284E-01 +2.87537203263E-05 +7.16729284537E-05 -2.89993102750E-05 +1.51012888632E-05 -7.14478612688E-01 +6.62557220938E-01
1.06000000000E+09 -5.92848258667E-01 +7.58397605353E-01 -7.77505261431E-06 +4.32295594981E-05 -1.34900618072E-05 -6.05496797409E-07 -7.11139770591E-01 +6.66354947460E-01
1.06500000000E+09 -5.84559355889E-01 +7.63420157569E-01 +2.83230898167E-05 +2.72858686105E-05 -2.41019335608E-06 +3.17329916885E-05 -7.07303722080E-01 +6.70116990934E-01
1.07000000000E+09 -5.77043993345E-01 +7.67743984579E-01 -1.75274878309E-06 +4.16207880347E-05 -5.44352645372E-06 +2.42097953499E-05 -7.03244434908E-01 +6.74006717867E-01
1.07500000000E+09 -5.71201950581E-01 +7.71838816786E-01 +2.39239909528E-05 +1.39887872177E-05 -2.37871122235E-06 +1.34104620334E-05 -6.98890468569E-01 +6.77654269766E-01
1.08000000000E+09 -5.66965240407E-01 +7.75070514571E-01 +6.46627569558E-06 -1.55476911588E-06 -2.95242245880E-06 +7.61414886633E-05 -6.95194455277E-01 +6.81390581801E-01
1.08500000000E+09 -5.64235952109E-01 +7.77711489953E-01 -8.75857556799E-06 +1.02191963664E-04 +3.18179269630E-05 +6.29803064785E-05 -6.91242240664E-01 +6.84890426172E-01
1.09000000000E+09 -5.61991464037E-01 +7.79731362451E-01 -8.10594463797E-06 +2.27892628343E-05 +6.21218491393E-05 +7.20628867647E-05 -6.87597513105E-01 +6.88677334347E-01
1.09500000000E+09 -5.60575592401E-01 +7.81557901795E-01 -6.17843070096E-07 +1.93977591676E-05 +1.13425853328E-05 +4.79971608146E-05 -6.83946215520E-01 +6.92562229316E-01
1.10000000000E+09 -5.57710613649E-01 +7.83573613923E-01 +3.57953488256E-05 +2.59846108464E-05 +1.51405711777E-05 -2.44906914502E-05 -6.79940454492E-01 +6.96392009512E-01
1.10500000000E+09 -5.54126338742E-01 +7.86058407563E-01 +5.68049724389E-05 +1.02938700141E-04 +5.60252985093E-05 +5.43940973979E-05 -6.75745182460E-01 +6.99959748010E-01
1.11000000000E+09 -5.48904019974E-01 +7.89166136812E-01 +2.46472721791E-05 +1.69483202452E-05 +4.96287579294E-05 +2.48385194362E-05 -6.71529180008E-01 +7.03278303179E-01
1.11500000000E+09 -5.41979465402E-01 +7.92858069402E-01 +2.00707387023E-05 +1.14660371717E-05 +3.99564344219E-05 +3.49763880004E-05 -6.67582140839E-01 +7.06650077906E-01
1.12000000000E+09 -5.34453548344E-01 +7.96705892334E-01 +5.95432053257E-06 +6.19166281549E-06 +4.46064430027E-05 +4.84451918788E-05 -6.63578384502E-01 +7.10195055023E-01
1.12500000000E+09 -5.26395363656E-01 +8.00761187669E-01 +4.01972744263E-05 +4.51243619980E-05 +4.03095556524E-05 +6.58725554712E-05 -6.59221293038E-01 +7.14201161564E-01
1.13000000000E+09 -5.18849709095E-01 +8.04461482548E-01 +1.04500090976E-04 +2.70438076091E-05 +5.17697091882E-05 +4.89777008724E-05 -6.54804478203E-01 +7.17951839349E-01
1.13500000000E+09 -5.12274351532E-01 +8.07365568395E-01 +8.92979360320E-05 +2.53242293465E-05 +4.15073567934E-05 +1.08496107981E-05 -6.50194354937E-01 +7.21838946894E-01
1.14000000000E+09 -5.06901950251E-01 +8.09955606591E-01 +7.72670074485E-05 +1.43618332401E-05 +4.33048539039E-05 +6.57232742534E-05 -6.45488898556E-01 +7.25425419937E-01
1.14500000000E+09 -5.02625511463E-01 +8.11788462875E-01 +4.93716706266E-05 -4.46886276269E-06 +9.06558982304E-05 +5.18854389042E-05 -6.40872732844E-01 +7.28859791218E-01
1.15000000000E+09 -4.98822060698E-01 +8.13449186645E-01 +9.69819593954E-05 +2.62141557044E-05 +1.02581403175E-04 +9.20055768431E-06 -6.36304200475E-01 +7.32613093937E-01
1.15500000000E+09 -4.95430691231E-01 +8.15352468485E-01 +8.57093538653E-05 +1.51997385336E-05 +5.18568638391E-05 +3.83306311004E-05 -6.31564469460E-01 +7.36426331146E-01
1.16000000000E+09 -4.91114854762E-01 +8.17280618427E-01 +1.25198657610E-04 +2.51956855278E-05 +8.71660069947E-05 +1.46767313426E-05 -6.26837046922E-01 +7.40227190045E-01
1.16500000000E+09 -4.85804354726E-01 +8.20102363653E-01 +6.15728425519E-05 -6.76557925869E-06 +1.04294867273E-04 +3.60907943201E-06 -6.21736708747E-01 +7.43861781275E-01
1.17000000000E+09 -4.79353511466E-01 +8.23133682628E-01 +1.34551703266E-04 -6.69722159938E-06 +1.20520702318E-04 -3.14587596460E-06 -6.16337163550E-01 +7.47202064067E-01
1.17500000000E+09 -4.72124712047E-01 +8.26619320748E-01 +1.09106795528E-04 -8.05941956534E-06 +1.72458502042E-04 -5.67702853197E-05 -6.10684070114E-01 +7.50317516828E-01
1.18000000000E+09 -4.64337439328E-01 +8.30369929822E-01 +1.76791357917E-04 -1.73275593472E-05 +1.87781082643E-04 +2.47731636148E-06 -6.05334273090E-01 +7.53292690627E-01
1.18500000000E+09 -4.56274469221E-01 +8.33687847956E-01 +1.75431362748E-04 -8.42162622914E-05 +1.67671058682E-04 -6.37847986727E-05 -5.99566131894E-01 +7.56337615999E-01
1.19000000000E+09 -4.48862633790E-01 +8.36564760430E-01 +1.38056018974E-04 -7.14281480398E-05 +1.57212098405E-04 -7.82773784673E-05 -5.93465760473E-01 +7.58942926860E-01
1.19500000000E+09 -4.42283013165E-01 +8.38653566320E-01 +1.90098221413E-04 -1.78745105521E-04 +1.77733746643E-04 -1.68438619093E-04 -5.87582462148E-01 +7.60107654527E-01
1.20000000000E+09 -4.36879308457E-01 +8.39756159487E-01 +1.27568335716E-04 -2.73238735148E-04 +9.60424319470E-05 -2.58156937490E-04 -5.83249865525E-01 +7.60341242489E-01
1.20500000000E+09 -4.31968737853E-01 +8.41071418376E-01 -7.48863106340E-06 -2.12424686258E-04 +9.78239106925E-06 -2.30834887213E-04 -5.80751991748E-01 +7.61316688661E-01
1.21000000000E+09 -4.27240694381E-01 +8.42545555321E-01 +1.61138835431E-05 -1.55455225382E-04 +3.34852332405E-06 -1.27893707706E-04 -5.78780540745E-01 +7.64472073386E-01
1.21500000000E+09 -4.21382482679E-01 +8.44450263074E-01 +1.19171599365E-06 -1.24758514110E-04 +3.11461539311E-05 -1.72384217452E-04 -5.76033744753E-01 +7.68990665488E-01
1.22000000000E+09 -4.14416257866E-01 +8.46755431899E-01 +5.68585987583E-05 -1.58276754809E-04 +7.04005100202E-05 -9.85340609337E-05 -5.71882492737E-01 +7.74392731439E-01
1.22500000000E+09 -4.06469605997E-01 +8.49678702313E-01 +2.66912530727E-05 -1.51024586175E-04 +4.86157904713E-05 -2.10215821529E-04 -5.66751512800E-01 +7.79473041985E-01
1.23000000000E+09 -3.97161152099E-01 +8.52946720511E-01 +6.30486690435E-05 -1.38797405747E-04 +1.09764547632E-05 -1.59243660167E-04 -5.61041267038E-01 +7.84138518269E-01
1.23500000000E+09 -3.87668973985E-01 +8.56742189351E-01 +2.09159077945E-05 -1.99529393686E-04 -1.26350133145E-06 -1.17877997617E-04 -5.55130018981E-01 +7.88459697813E-01
1.24000000000E+09 -3.78173916054E-01 +8.60545754761E-01 +8.86678764082E-06 -2.22156496281E-04 -1.62088552469E-06 -1.82562198271E-04 -5.49196869556E-01 +7.92296004900E-01
1.24500000000E+09 -3.69121994498E-01 +8.64556564707E-01 -2.92939393109E-05 -2.46963973490E-04 -2.27614972454E-05 -2.45390997816E-04 -5.43022067353E-01 +7.96163777803E-01
1.25000000000E+09 -3.61098160599E-01 +8.67634169911E-01 -6.26343664938E-05 -2.25930069264E-04 -2.53851539249E-05 -2.21308495079E-04 -5.36694106143E-01 +8.00306816162E-01
1.25500000000E+09 -3.54011245150E-01 +8.69599419593E-01 -8.85701539372E-05 -2.14637666350E-04 -7.53120481745E-05 -1.94751100844E-04 -5.29908822875E-01 +8.04245505459E-01
1.26000000000E+09 -3.47803085550E-01 +8.71194071762E-01 -7.69837068779E-05 -2.59793510291E-04 -9.87740772751E-05 -2.75242670980E-04 -5.23367057423E-01 +8.08410658489E-01
1.26500000000E+09 -3.41934097484E-01 +8.72197503142E-01 -1.56956189473E-04 -2.86820649676E-04 -1.52364804514E-04 -2.96128805191E-04 -5.16333290790E-01 +8.12372108479E-01
1.27000000000E+09 -3.35606229784E-01 +8.73200241043E-01 -1.56922482856E-04 -2.88002132252E-04 -1.70299238008E-04 -2.98173975592E-04 -5.09537842195E-01 +8.16190134125E-01
1.27500000000E+09 -3.28205818839E-01 +8.74410005035E-01 -2.57192390503E-04 -2.57560760466E-04 -2.46818158897E-04 -2.30544825944E-04 -5.02469087784E-01 +8.19695793003E-01
1.28000000000E+09 -3.19064883097E-01 +8.76384249140E-01 -2.64503852467E-04 -2.19451043928E-04 -2.29244817572E-04 -3.11076409796E-04 -4.95367076026E-01 +8.23322008386E-01
1.28500000000E+09 -3.07988171692E-01 +8.78675659348E-01 -2.68130809216E-04 -2.02153832008E-04 -2.86867969071E-04 -2.65765137813E-04 -4.88030953577E-01 +8.27050140466E-01
1.29000000000E+09 -2.96283584534E-01 +8.81523919525E-01 -3.14369752195E-04 -1.98804841773E-04 -3.44867608782E-04 -2.19537669078E-04 -4.80361725309E-01 +8.30895739634E-01
1.29500000000E+09 -2.83889740136E-01 +8.84938312987E-01 -3.54433447898E-04 -2.14235857345E-04 -4.22873713786E-04 -2.18671196898E-04 -4.72580966658E-01 +8.34482942177E-01
1.30000000000E+09 -2.71702655816E-01 +8.88492863703E-01 -4.21978319516E-04 -1.80165400302E-04 -3.87170779361E-04 -1.91225906987E-04 -4.64668171426E-01 +8.37995045778E-01
1.30500000000E+09 -2.60639464533E-01 +8.91417130003E-01 -4.82221867492E-04 -2.01322980826E-04 -4.99908597651E-04 -1.67523782234E-04 -4.56557442937E-01 +8.41430745767E-01
1.31000000000E+09 -2.51149196234E-01 +8.93603371730E-01 -5.78646785388E-04 -8.14316326745E-05 -5.40249438855E-04 -8.28816839852E-05 -4.48361813220E-01 +8.44925696651E-01
1.31500000000E+09 -2.43809064979E-01 +8.95167422686E-01 -5.71964703422E-04 +5.67579273445E-06 -5.45778300272E-04 -2.02268444652E-05 -4.39723224755E-01 +8.48344433815E-01
1.32000000000E+09 -2.37581398826E-01 +8.95836494509E-01 -5.31907852101E-04 +2.64432005956E-05 -6.14798413558E-04 -3.53228837092E-05 -4.30601325632E-01 +8.51862651938E-01
1.32500000000E+09 -2.31722659908E-01 +8.95921489798E-01 -6.27228977655E-04 +6.97751301545E-05 -6.15053518827E-04 +7.87727167732E-05 -4.21275464180E-01 +8.55037402576E-01
1.33000000000E+09 -2.24947760803E-01 +8.95922583016E-01 -6.55342297211E-04 +1.42707214372E-04 -6.65041826331E-04 +1.79018927324E-04 -4.11824002334E-01 +8.58413731323E-01
1.33500000000E+09 -2.16540968289E-01 +8.95834814359E-01 -7.26957058374E-04 +2.23983811533E-04 -6.78189812317E-04 +3.01074942006E-04 -4.02011203555E-01 +8.61512678090E-01
1.34000000000E+09 -2.05484003231E-01 +8.96147909857E-01 -7.31447417065E-04 +3.66112175139E-04 -7.12831105893E-04 +3.63765766154E-04 -3.91823502851E-01 +8.64876278988E-01
1.34500000000E+09 -1.91959135848E-01 +8.96462856976E-01 -7.30508783346E-04 +5.57489624501E-04 -6.94691483584E-04 +4.81931014960E-04 -3.80980030902E-01 +8.68032061074E-01
1.35000000000E+09 -1.76301736835E-01 +8.97038278652E-01 -6.76908256767E-04 +6.50671748475E-04 -5.61416969336E-04 +6.24716118964E-04 -3.69788139928E-01 +8.71280123536E-01
1.35500000000E+09 -1.59398137781E-01 +8.97725692789E-01 -5.78028796240E-04 +6.62931530230E-04 -5.36596027806E-04 +6.81740827945E-04 -3.58204225512E-01 +8.74229809575E-01
1.36000000000E+09 -1.42490756988E-01 +8.98394528728E-01 -5.67238218573E-04 +7.60700723056E-04 -5.56963380074E-04 +7.40873738144E-04 -3.46498511837E-01 +8.76796267306E-01
1.36500000000E+09 -1.26340175113E-01 +8.98675702042E-01 -5.55704623235E-04 +8.39900491523E-04 -5.55691578615E-04 +7.83709698061E-04 -3.34257590659E-01 +8.79447024884E-01
1.37000000000E+09 -1.11986246588E-01 +8.98210228281E-01 -5.26221768907E-04 +1.01724502261E-03 -5.22627929308E-04 +9.33362836542E-04 -3.21572152510E-01 +8.81896592037E-01
1.37500000000E+09 -9.95877331826E-02 +8.97622969025E-01 -3.45604304841E-04 +1.16663151648E-03 -4.57495019834E-04 +1.11086969292E-03 -3.07638947430E-01 +8.84406787613E-01
1.38000000000E+09 -8.83400557461E-02 +8.96551423390E-01 -3.10358305507E-04 +1.22555639762E-03 -4.19572843755E-04 +1.25095488698E-03 -2.93039771508E-01 +8.86361598362E-01
1.38500000000E+09 -7.70088229538E-02 +8.94839906891E-01 -1.44066658387E-04 +1.36335493885E-03 -2.97501863356E-04 +1.47021143318E-03 -2.77753865798E-01 +8.88482833768E-01
1.39000000000E+09 -6.49802954659E-02 +8.92618273888E-01 -4.83332127545E-05 +1.47101471957E-03 -1.19059123334E-04 +1.69377712870E-03 -2.62015278239E-01 +8.89970427567E-01
1.39500000000E+09 -5.08097431637E-02 +8.89741743849E-01 +8.24564462240E-05 +1.58504239658E-03 +2.20540986539E-04 +1.76391334250E-03 -2.45271818578E-01 +8.90889165252E-01
1.40000000000E+09 -3.39636178059E-02 +8.86039932648E-01 +1.73774114739E-04 +1.75945010853E-03 +3.92991494126E-04 +1.77184990622E-03 -2.27840586617E-01 +8.91410174048E-01
1.40500000000E+09 -1.49435141163E-02 +8.81481987499E-01 +5.08172033756E-04 +2.01557670186E-03 +5.74292562994E-04 +1.92911700759E-03 -2.09317831438E-01 +8.91311821005E-01
1.41000000000E+09 +6.31924185909E-03 +8.76221236616E-01 +9.32048878845E-04 +2.04840259801E-03 +9.10419953863E-04 +2.03099294283E-03 -1.89012765519E-01 +8.90832524743E-01
1.41500000000E+09 +2.88196924272E-02 +8.70104428246E-01 +1.33856140497E-03 +2.03346785654E-03 +1.28818847541E-03 +2.18068670707E-03 -1.67588513059E-01 +8.89442887048E-01
1.42000000000E+09 +5.16202681276E-02 +8.62923449496E-01 +1.70547765170E-03 +1.92692789708E-03 +1.85548786749E-03 +2.15254542923E-03 -1.44413183655E-01 +8.87030590740E-01
1.42500000000E+09 +7.34980476678E-02 +8.54898698908E-01 +1.96556513206E-03 +1.85071537395E-03 +2.31139176486E-03 +1.96351564331E-03 -1.20651879541E-01 +8.83276781620E-01
1.43000000000E+09 +9.48582838252E-02 +8.45690977969E-01 +2.42403811023E-03 +1.89616850266E-03 +2.78636377020E-03 +1.80950001744E-03 -9.57794628569E-02 +8.78641503451E-01
1.43500000000E+09 +1.15464486155E-01 +8.34837164121E-01 +3.11452207776E-03 +1.67573332272E-03 +3.39533662234E-03 +1.46422275276E-03 -6.94104745267E-02 +8.71952389727E-01
1.44000000000E+09 +1.36423726614E-01 +8.22653562808E-01 +3.75739972051E-03 +1.13171455792E-03 +3.92165903785E-03 +8.67622228692E-04 -4.12552235448E-02 +8.63449092046E-01
1.44500000000E+09 +1.59173100313E-01 +8.07710032647E-01 +4.10659615631E-03 +4.17110183952E-04 +4.19079063198E-03 +2.03466564637E-04 -1.07225328836E-02 +8.52028840456E-01
1.45000000000E+09 +1.83298337888E-01 +7.89355359489E-01 +4.24380727784E-03 -9.56166101968E-05 +4.36837964361E-03 -4.02240192379E-04 +2.11143875433E-02 +8.37451474978E-01
1.45500000000E+09 +2.09816486795E-01 +7.67448812747E-01 +4.58027843104E-03 -5.70930616082E-04 +4.59725870013E-03 -9.77218496804E-04 +5.46090693841E-02 +8.20184942292E-01
1.46000000000E+09 +2.39108629900E-01 +7.41482176281E-01 +5.14012628093E-03 -1.21833864811E-03 +4.80616594974E-03 -1.64721479074E-03 +8.94831313739E-02 +7.98382650090E-01
1.46500000000E+09 +2.69849499177E-01 +7.10883240745E-01 +5.80193151901E-03 -2.20938352561E-03 +5.18653062555E-03 -2.39363774895E-03 +1.25723917869E-01 +7.71727928930E-01
1.47000000000E+09 +3.01445978086E-01 +6.75321530731E-01 +6.17013706250E-03 -4.03158083607E-03 +5.67572112415E-03 -3.73362352664E-03 +1.62962344934E-01 +7.37800490404E-01
1.47500000000E+09 +3.31961648373E-01 +6.34283338221E-01 +5.51832597810E-03 -6.03898959048E-03 +5.50092310018E-03 -5.54601119959E-03 +1.99864708782E-01 +6.96209952088E-01
1.48000000000E+09 +3.60074888643E-01 +5.86872128241E-01 +4.41146641922E-03 -7.49461123242E-03 +4.71260066138E-03 -7.42672217673E-03 +2.36241205711E-01 +6.46642322804E-01
1.48500000000E+09 +3.82576702015E-01 +5.32843505341E-01 +3.25685690980E-03 -9.01508233220E-03 +3.20339740933E-03 -9.31013374949E-03 +2.69791419106E-01 +5.87858283972E-01
1.49000000000E+09 +3.99852257613E-01 +4.71826664741E-01 +1.48757776703E-03 -1.05298201817E-02 +9.42349797980E-04 -1.05698828130E-02 +2.98467147058E-01 +5.18258857252E-01
1.49500000000E+09 +4.08735030524E-01 +4.02536603516E-01 -1.11778131339E-03 -1.16822038121E-02 -1.57060092062E-03 -1.11396529447E-02 +3.16336047330E-01 +4.38172195377E-01
1.50000000000E+09 +4.07886595506E-01 +3.24664853088E-01 -4.19998722433E-03 -1.23786918288E-02 -3.99159814150E-03 -1.16950113810E-02 +3.21284084122E-01 +3.49357827965E-01
1.50500000000E+09 +3.93281892038E-01 +2.38876668893E-01 -8.17695760702E-03 -1.18269470622E-02 -7.44255188610E-03 -1.15687877935E-02 +3.10194839606E-01 +2.52966629323E-01
1.51000000000E+09 +3.62800747913E-01 +1.48421114209E-01 -1.14762297936E-02 -9.18109933535E-03 -1.10074367511E-02 -9.55666633552E-03 +2.78288496565E-01 +1.51252950403E-01
1.51500000000E+09 +3.12523133214E-01 +5.79081061607E-02 -1.39409640230E-02 -7.18128525371E-03 -1.38449917292E-02 -7.60749943040E-03 +2.21024025189E-01 +5.48082637926E-02
1.52000000000E+09 +2.42614048594E-01 -2.30370168230E-02 -1.72640874716E-02 -3.30042765582E-03 -1.74331738047E-02 -3.64463676164E-03 +1.44927999402E-01 -2.93950215897E-02
1.52500000000E+09 +1.56433061603E-01 -8.95902634111E-02 -1.79689493007E-02 +3.55888809389E-03 -1.81523307342E-02 +3.47812286033E-03 +5.09958971071E-02 -9.70117291941E-02
1.53000000000E+09 +5.76473666181E-02 -1.35757111730E-01 -1.45467523238E-02 +8.33625810878E-03 -1.46548573447E-02 +8.33987431063E-03 -5.63847153640E-02 -1.41331278688E-01
1.53500000000E+09 -4.91802323090E-02 -1.58352769699E-01 -1.16207046755E-02 +1.13867736776E-02 -1.16311127597E-02 +1.14305164446E-02 -1.66886245684E-01 -1.60407930347E-01
1.54000000000E+09 -1.57575704093E-01 -1.55015768780E-01 -7.59000455951E-03 +1.31787523423E-02 -7.60907923623E-03 +1.30324485362E-02 -2.74470005582E-01 -1.57294460389E-01
1.54500000000E+09 -2.58784050360E-01 -1.29361582380E-01 -3.78927950792E-03 +1.39151011858E-02 -4.04511659811E-03 +1.36805245770E-02 -3.72441792038E-01 -1.34382789064E-01
1.55000000000E+09 -3.50087536131E-01 -8.70226406472E-02 -6.56748405434E-04 +1.35828547525E-02 -1.12719241256E-03 +1.35782758810E-02 -4.57684637018E-01 -9.71128592692E-02
1.55500000000E+09 -4.27494796908E-01 -3.20196012846E-02 +3.30740613348E-03 +1.27391430492E-02 +2.80861816269E-03 +1.32226163581E-02 -5.27862700061E-01 -4.97580795879E-02
1.56000000000E+09 -4.89536716555E-01 +2.68668324012E-02 +5.85714111517E-03 +9.74859200424E-03 +5.77294449913E-03 +1.03305301106E-02 -5.84986114696E-01 +2.78292755973E-03
1.56500000000E+09 -5.38675797966E-01 +8.69714688604E-02 +6.41902182228E-03 +7.54357321564E-03 +6.72662637551E-03 +8.08493877260E-03 -6.28732615168E-01 +5.85847088036E-02
1.57000000000E+09 -5.76168926315E-01 +1.45114060516E-01 +7.01314504394E-03 +5.62961566897E-03 +7.51380034762E-03 +5.94223623463E-03 -6.61643650840E-01 +1.12198872398E-01
