# Hz S RI R 50
! CMT, C1220, 16058040, 17.2.0/1
! Date: 14/08/2018 12:47:22
! Data: Format (Calibration Info)
! Freq                      S11: Re/Im (F2)                       S21: Re/Im (F2)                       S12: Re/Im (F2)                       S22: Re/Im (F2)            
1.00000000000E+09 -6.51642838608E-01 +7.13469905627E-01 -1.27319135090E-05 +1.56046802584E-05 +3.40328670621E-05 -2.19451619753E-05 -7.53902758959E-01 +6.21450281159E-01
1.00500000000E+09 -6.44475565955E-01 +7.18317100349E-01 -1.65136914464E-05 -4.37316323386E-05 +1.80040621650E-05 -5.03222130084E-05 -7.50190706355E-01 +6.25583620621E-01
1.01000000000E+09 -6.38497593623E-01 +7.22993602289E-01 -5.33868442939E-05 -2.41482006238E-05 -5.23778722335E-05 -3.02383758814E-05 -7.46886797112E-01 +6.29104103546E-01
1.01500000000E+09 -6.34218457199E-01 +7.26813287847E-01 +6.92454657056E-06 -1.91710560697E-06 -1.42726166370E-05 +3.15691784944E-05 -7.43633222367E-01 +6.32733031428E-01
1.02000000000E+09 -6.31060586609E-01 +7.30391415189E-01 +2.37073142290E-06 +1.00884131642E-05 -4.41381402056E-05 +3.57154250695E-05 -7.40308019715E-01 +6.36070132572E-01
1.02500000000E+09 -6.29129124812E-01 +7.33186942341E-01 -3.97967265955E-06 +4.51724237464E-05 -1.73802403836E-05 -7.47645267955E-05 -7.37593006078E-01 +6.39864334125E-01
1.03000000000E+09 -6.27595512946E-01 +7.35709844707E-01 +7.91228568326E-06 +5.63009625964E-06 +2.11347089671E-05 +7.86762214383E-06 -7.34132568224E-01 +6.43658075929E-01
1.03500000000E+09 -6.25371942661E-01 +7.38346388408E-01 -1.19429443102E-05 -3.22892590341E-06 +3.02390064110E-05 -4.37843534982E-07 -7.30261826937E-01 +6.47619549230E-01
1.04000000000E+09 -6.22206183707E-01 +7.41124313188E-01 -4.40092210654E-05 -1.75776837504E-05 -4.99617537709E-05 +3.48239529441E-06 -7.26343050241E-01 +6.51422043078E-01
1.04500000000E+09 -6.17171404136E-01 +7.44622803718E-01 +1.09078184552E-05 +6.66592418475E-05 -3.98391117763E-05 +4.00896202018E-05 -7.22863093298E-01 +6.54920310989E-01
1.05000000000E+09 -6.10530614924E-01 +7.48810306985E-01 +2.79033392039E-05 -5.92386631555E-06 +3.06459107098E-05 +2.42605074230E-05 -7.19662965905E-01 +6.58261995929E-01
1.05500000000E+09 -6.02747394794E-01 +7.53463335583E-01 +1.79946618958E-05 +5.52369591981E-05 -1.22106195130E-05 +3.83543909139E-05 -7.16466991786E-01 +6.61797299727E-01
1.06000000000E+09 -5.94156462809E-01 +7.58534234487E-01 +8.87406576933E-06 -2.06897409001E-05 +1.82456496263E-05 +2.39346268299E-05 -7.13056758728E-01 +6.65580701443E-01
1.06500000000E+09 -5.85950886045E-01 +7.63519819987E-01 -4.80376348060E-07 +3.69741234994E-05 +2.87456044543E-05 +2.53028755863E-05 -7.09304490383E-01 +6.69618370176E-01
1.07000000000E+09 -5.78600691094E-01 +7.67848457059E-01 +1.60337131206E-05 +2.31546714284E-05 -2.84526016036E-05 -1.10165132450E-05 -7.05146754735E-01 +6.73230185194E-01
1.07500000000E+09 -5.72697919153E-01 +7.71886301821E-01 -3.75783154550E-05 +2.20166731628E-05 +5.24662507344E-05 +4.22212998106E-06 -7.00871455846E-01 +6.77139185344E-01
1.08000000000E+09 -5.68581378082E-01 +7.74976905894E-01 +4.71528308209E-05 +1.87561370309E-05 +2.72529083370E-05 +3.57290167317E-05 -6.96975998853E-01 +6.80765836860E-01
1.08500000000E+09 -5.65910036626E-01 +7.77609512014E-01 +1.98417129799E-05 +2.59670556842E-05 -4.36609739331E-05 +4.44817800690E-05 -6.93171314064E-01 +6.84379700911E-01
1.09000000000E+09 -5.63866799211E-01 +7.79643042894E-01 +3.71786863986E-05 +9.71632296954E-06 -1.98404965760E-05 +2.56651632906E-05 -6.89520028438E-01 +6.88144239947E-01
1.09500000000E+09 -5.62305419572E-01 +7.81462550362E-01 -3.79117964726E-06 -3.00907627775E-06 +4.52358998348E-05 +4.11255810649E-05 -6.85753138859E-01 +6.91982952390E-01
1.10000000000E+09 -5.59650630864E-01 +7.83657495456E-01 +2.63619222169E-05 +2.32433018350E-05 -5.43476385408E-06 +6.46268707009E-05 -6.81727218907E-01 +6.95800956022E-01
1.10500000000E+09 -5.55845795728E-01 +7.86089086258E-01 +1.95898320906E-05 +1.78261544670E-05 +6.45781315565E-05 -1.06901481199E-05 -6.77515252868E-01 +6.99251363828E-01
1.11000000000E+09 -5.50541198705E-01 +7.89364619952E-01 +6.50282925558E-05 +3.26914640649E-05 +2.24477856630E-05 +4.11978802837E-05 -6.73448162405E-01 +7.02668625727E-01
1.11500000000E+09 -5.43706747453E-01 +7.93233716852E-01 +3.99469189973E-05 +4.78921823961E-05 +4.32038863674E-05 +5.75485684728E-05 -6.69491935308E-01 +7.06070389144E-01
1.12000000000E+09 -5.36108963188E-01 +7.97152087499E-01 +6.40434990088E-05 +2.35794559063E-05 -1.94248167415E-05 +3.44189064079E-05 -6.65498795900E-01 +7.09679924822E-01
1.12500000000E+09 -5.28090418315E-01 +8.01140676021E-01 +7.22398813544E-05 +1.37052197026E-05 +5.22774706074E-05 -1.63734900912E-05 -6.61251383517E-01 +7.13584086949E-01
1.13000000000E+09 -5.20724962849E-01 +8.04905650332E-01 +9.63522411823E-05 +3.40422179894E-05 +2.58624387011E-05 +2.32532535608E-05 -6.56940374172E-01 +7.17413502165E-01
1.13500000000E+09 -5.14145566854E-01 +8.07733853829E-01 +7.35332254085E-05 +2.94631242587E-05 +3.34719792356E-05 +3.68166671688E-05 -6.52127781981E-01 +7.21248446502E-01
1.14000000000E+09 -5.08795932443E-01 +8.10275708777E-01 +8.17118717821E-05 +2.52221458112E-05 +9.45057130732E-05 +1.62879444843E-05 -6.47502531919E-01 +7.24815506991E-01
1.14500000000E+09 -5.04541349090E-01 +8.12068990840E-01 +7.48967283489E-05 +3.25273641205E-05 +7.75345115935E-05 -8.04011434350E-06 -6.42809480863E-01 +7.28097087419E-01
1.15000000000E+09 -5.00901534309E-01 +8.13940679763E-01 +6.83426706390E-05 +1.12717419265E-05 +1.07839741028E-04 -1.60781675283E-05 -6.38202772902E-01 +7.31958316663E-01
1.15500000000E+09 -4.97367983772E-01 +8.15803166028E-01 +7.10755668379E-05 -3.05581309171E-06 +5.08192354865E-05 +2.02966175496E-05 -6.33591130466E-01 +7.35729636287E-01
1.16000000000E+09 -4.93067390496E-01 +8.17813748231E-01 +1.11066492478E-04 -1.77358884693E-05 +6.39256101250E-05 -2.25739796673E-05 -6.28747418262E-01 +7.39714361289E-01
1.16500000000E+09 -4.87792458180E-01 +8.20807638026E-01 +9.86475000194E-05 -6.98562196159E-06 +9.32730126504E-05 -8.21227445594E-06 -6.23697708056E-01 +7.43276850315E-01
1.17000000000E+09 -4.81428693437E-01 +8.23973525375E-01 +1.11131593116E-04 -2.75552049937E-05 +9.96008737586E-05 -2.86150820406E-05 -6.18355024218E-01 +7.46657037057E-01
1.17500000000E+09 -4.74085328857E-01 +8.27569469145E-01 +1.14231588667E-04 -5.12108103961E-05 +1.06629185397E-04 +2.18389536410E-05 -6.12717737631E-01 +7.49844285138E-01
1.18000000000E+09 -4.66416773224E-01 +8.31140155557E-01 +1.26792728201E-04 -4.73926986427E-05 +1.71193901081E-04 -7.90529819088E-05 -6.07314547955E-01 +7.52837346326E-01
1.18500000000E+09 -4.58509132486E-01 +8.34712202523E-01 +1.76214156140E-04 -7.45608649634E-05 +1.18957293268E-04 -9.87142017834E-05 -6.01518917552E-01 +7.55917711399E-01
1.19000000000E+09 -4.51071704665E-01 +8.37395392723E-01 +1.30322021549E-04 -9.08071934634E-05 +1.60960274730E-04 -1.42626647386E-04 -5.95521995431E-01 +7.58438388968E-01
1.19500000000E+09 -4.44608489588E-01 +8.39543046369E-01 +1.43767753674E-04 -1.76843677236E-04 +1.66340020651E-04 -1.67673657237E-04 -5.89694550997E-01 +7.59726292074E-01
1.20000000000E+09 -4.39316740842E-01 +8.40568230616E-01 +6.04758043322E-05 -2.69979787547E-04 +3.73340342530E-05 -2.83251688188E-04 -5.85063174873E-01 +7.59923322616E-01
1.20500000000E+09 -4.34599902903E-01 +8.41953008978E-01 -7.89487282915E-05 -1.95637050754E-04 -6.21761459139E-05 -1.58012717026E-04 -5.82696267757E-01 +7.60848907521E-01
1.21000000000E+09 -4.29751741347E-01 +8.43490545675E-01 -4.93069957444E-05 -1.14962524192E-04 -1.97208846674E-05 -1.25151165172E-04 -5.80824087553E-01 +7.63933168244E-01
1.21500000000E+09 -4.24013271119E-01 +8.45389578264E-01 +1.15937253704E-05 -6.72815658896E-05 +2.46113865501E-05 -8.29852414252E-05 -5.78011589095E-01 +7.68506598085E-01
1.22000000000E+09 -4.17081928736E-01 +8.47851507276E-01 +4.04685696488E-05 -1.07078280588E-04 +1.48571131772E-05 -9.55943710601E-05 -5.73955343904E-01 +7.73924187488E-01
1.22500000000E+09 -4.08687308268E-01 +8.50805698044E-01 -1.97190926015E-05 -1.23967618847E-04 +1.53149726324E-05 -2.02136514852E-04 -5.68877479214E-01 +7.79004687795E-01
1.23000000000E+09 -3.99605675519E-01 +8.54285734210E-01 +2.38933921062E-06 -1.54446384054E-04 +7.53139006443E-06 -1.97659412943E-04 -5.63197345632E-01 +7.83659661380E-01
1.23500000000E+09 -3.90212623282E-01 +8.58126698167E-01 +6.91636918412E-06 -1.52741903380E-04 +1.24115018909E-05 -1.94726249769E-04 -5.57354223122E-01 +7.88038257572E-01
1.24000000000E+09 -3.80575098768E-01 +8.62017818333E-01 -1.03053964839E-05 -1.95919671123E-04 -9.52712838389E-06 -2.03955031804E-04 -5.51411456063E-01 +7.91794767181E-01
1.24500000000E+09 -3.71682493202E-01 +8.65968795652E-01 -7.64069929542E-05 -1.95487152040E-04 -3.32254956236E-05 -2.12040421533E-04 -5.45176030772E-01 +7.95724916989E-01
1.25000000000E+09 -3.63830347043E-01 +8.68952452527E-01 -1.01356252188E-04 -1.63553824453E-04 -8.71889492918E-05 -1.94946082278E-04 -5.38814301528E-01 +7.99859918356E-01
1.25500000000E+09 -3.56827819122E-01 +8.71217985106E-01 -1.22714481303E-04 -1.89005868021E-04 -7.69121570967E-05 -2.08981967681E-04 -5.32060930727E-01 +8.04007355099E-01
1.26000000000E+09 -3.50724059929E-01 +8.72815517826E-01 -9.49809999852E-05 -2.23050944039E-04 -1.17653974614E-04 -2.33793064402E-04 -5.25557628000E-01 +8.08226636485E-01
1.26500000000E+09 -3.44908154070E-01 +8.73829039785E-01 -1.16040125678E-04 -2.12656081069E-04 -1.36826108281E-04 -2.40088052411E-04 -5.18533484352E-01 +8.11942786071E-01
1.27000000000E+09 -3.38446914164E-01 +8.75017365531E-01 -2.03299661748E-04 -2.47102681208E-04 -1.92265583385E-04 -2.76745824187E-04 -5.11732604833E-01 +8.15784846671E-01
1.27500000000E+09 -3.30843440726E-01 +8.76414898531E-01 -2.60259842994E-04 -2.29325354237E-04 -2.52285908592E-04 -2.56861357153E-04 -5.04550805891E-01 +8.19421737778E-01
1.28000000000E+09 -3.21719375607E-01 +8.78232635028E-01 -2.92023252210E-04 -1.74641154408E-04 -2.75766463950E-04 -1.99794551207E-04 -4.97581753141E-01 +8.23081579822E-01
1.28500000000E+09 -3.10706172397E-01 +8.80804066613E-01 -2.92288745709E-04 -1.78484942123E-04 -3.22621700773E-04 -1.80119350106E-04 -4.89884287209E-01 +8.26887338265E-01
1.29000000000E+09 -2.98607015443E-01 +8.83770105745E-01 -2.96628689584E-04 -1.62833354323E-04 -3.57630313967E-04 -1.64674994735E-04 -4.82526573996E-01 +8.30621809459E-01
1.29500000000E+09 -2.86245600672E-01 +8.87146810653E-01 -3.55286050255E-04 -1.62238107383E-04 -4.43260986123E-04 -1.38841571350E-04 -4.74705175103E-01 +8.34208985540E-01
1.30000000000E+09 -2.74242051565E-01 +8.90723675738E-01 -4.59113789611E-04 -1.47236243879E-04 -5.03736808462E-04 -8.16446671625E-05 -4.66761499625E-01 +8.37856950347E-01
1.30500000000E+09 -2.63358921195E-01 +8.93597083548E-01 -5.04823349417E-04 -1.26923100036E-04 -4.51742673884E-04 -6.60179986573E-05 -4.58722768017E-01 +8.41269922600E-01
1.31000000000E+09 -2.54179514991E-01 +8.95768686297E-01 -5.87598344744E-04 +3.81359734941E-05 -5.76555992370E-04 +2.39770361652E-05 -4.50395646736E-01 +8.44967870718E-01
1.31500000000E+09 -2.46732297371E-01 +8.97248572171E-01 -5.48352943332E-04 +1.07022723429E-04 -5.32574419873E-04 +5.55535091941E-05 -4.41645248148E-01 +8.48323330812E-01
1.32000000000E+09 -2.40633133235E-01 +8.98066972084E-01 -5.36347773059E-04 +5.06928664327E-05 -5.32839831551E-04 +9.34668199498E-05 -4.32752844566E-01 +8.51780962030E-01
1.32500000000E+09 -2.34710833967E-01 +8.98281086084E-01 -5.49249156129E-04 +1.50082837546E-04 -6.14221732290E-04 +1.70515226303E-04 -4.23361334765E-01 +8.55035194590E-01
1.33000000000E+09 -2.27899313075E-01 +8.98459258811E-01 -5.99999988723E-04 +2.53433719790E-04 -6.05356469355E-04 +2.85822361539E-04 -4.13911338868E-01 +8.58331693106E-01
1.33500000000E+09 -2.19336144965E-01 +8.98485585655E-01 -6.33746177950E-04 +3.57911007768E-04 -6.34896254436E-04 +4.20170481842E-04 -4.04171265562E-01 +8.61569139993E-01
1.34000000000E+09 -2.08212091967E-01 +8.98814555315E-01 -6.66850855003E-04 +4.86399041625E-04 -5.76507973831E-04 +4.81736740388E-04 -3.93970814221E-01 +8.64801178687E-01
1.34500000000E+09 -1.94434096930E-01 +8.99161853979E-01 -5.80118798465E-04 +6.49826540934E-04 -5.55139278895E-04 +5.89076985256E-04 -3.83103804693E-01 +8.68129724253E-01
1.35000000000E+09 -1.78699645011E-01 +8.99914838918E-01 -4.72688774246E-04 +7.13041690834E-04 -4.74822516134E-04 +6.98526199293E-04 -3.72031127880E-01 +8.71319515178E-01
1.35500000000E+09 -1.61774491514E-01 +9.00736712237E-01 -4.79072336815E-04 +7.64081005932E-04 -4.39994758675E-04 +7.23699613881E-04 -3.60353689231E-01 +8.74278155069E-01
1.36000000000E+09 -1.44978785029E-01 +9.01444499260E-01 -3.73413908687E-04 +8.31964223104E-04 -3.21111624274E-04 +7.77115334309E-04 -3.48576381235E-01 +8.77003121830E-01
1.36500000000E+09 -1.28999374750E-01 +9.01827682009E-01 -3.76052992467E-04 +9.13473398662E-04 -3.52998152216E-04 +8.62526175577E-04 -3.36465928643E-01 +8.79528400968E-01
1.37000000000E+09 -1.14576971526E-01 +9.01577995233E-01 -3.39648160365E-04 +1.11016264871E-03 -3.32948753575E-04 +9.62919637265E-04 -3.23608025884E-01 +8.82010763194E-01
1.37500000000E+09 -1.02137064211E-01 +9.01008007049E-01 -1.12378773769E-04 +1.17522913916E-03 -2.39430533847E-04 +1.10163330885E-03 -3.09684199964E-01 +8.84495487361E-01
1.38000000000E+09 -9.07946736071E-02 +9.00167452391E-01 +6.49850901438E-06 +1.16288655023E-03 -1.34976008088E-04 +1.25276802820E-03 -2.95176570779E-01 +8.86673436511E-01
1.38500000000E+09 -7.92812863513E-02 +8.98714331752E-01 +1.18877815366E-04 +1.30907212448E-03 -3.13722008864E-06 +1.44463827884E-03 -2.79684932254E-01 +8.88631108504E-01
1.39000000000E+09 -6.69028537738E-02 +8.96516166449E-01 +1.99389298095E-04 +1.37079075925E-03 +2.70565330281E-04 +1.57166076513E-03 -2.63669823670E-01 +8.90376946809E-01
1.39500000000E+09 -5.24519003732E-02 +8.93695257174E-01 +3.58901847386E-04 +1.43775796982E-03 +5.60447698164E-04 +1.58897120555E-03 -2.47080190032E-01 +8.91208123220E-01
1.40000000000E+09 -3.53690501404E-02 +8.89912451274E-01 +5.05212874789E-04 +1.58597416117E-03 +7.14491638822E-04 +1.59447209018E-03 -2.29596897384E-01 +8.91622895343E-01
1.40500000000E+09 -1.60935884094E-02 +8.85529597980E-01 +8.50687268221E-04 +1.69075562536E-03 +9.37650244519E-04 +1.61115902641E-03 -2.11132412368E-01 +8.91520154337E-01
1.41000000000E+09 +5.23807493172E-03 +8.80259176412E-01 +1.22314098744E-03 +1.65334922498E-03 +1.22244611651E-03 +1.64021057671E-03 -1.91067400020E-01 +8.90919294755E-01
1.41500000000E+09 +2.76123432556E-02 +8.74239425394E-01 +1.59908762191E-03 +1.61408112007E-03 +1.60769637453E-03 +1.74739258610E-03 -1.69327036756E-01 +8.89593147421E-01
1.42000000000E+09 +5.04986735909E-02 +8.67231499005E-01 +1.90016374570E-03 +1.42308766404E-03 +2.01265314295E-03 +1.61212426915E-03 -1.46177045270E-01 +8.87120448963E-01
1.42500000000E+09 +7.22992976283E-02 +8.59225208780E-01 +2.09254987484E-03 +1.34015638691E-03 +2.40091149138E-03 +1.42590346021E-03 -1.22465941796E-01 +8.83342422307E-01
1.43000000000E+09 +9.36572696850E-02 +8.50139217139E-01 +2.53128178920E-03 +1.35270694255E-03 +2.93435524669E-03 +1.27447419279E-03 -9.76621425150E-02 +8.78806142924E-01
1.43500000000E+09 +1.14478249082E-01 +8.39394031141E-01 +3.20292005929E-03 +1.06475292489E-03 +3.45760967708E-03 +7.69571247255E-04 -7.12138427001E-02 +8.72166662938E-01
1.44000000000E+09 +1.35559965066E-01 +8.27331666892E-01 +3.74779448223E-03 +3.45589016785E-04 +3.78324418030E-03 +1.04648225517E-04 -4.30361856435E-02 +8.63547388125E-01
1.44500000000E+09 +1.58631233201E-01 +8.12212557927E-01 +3.93889092407E-03 -2.89287930475E-04 +3.96233389453E-03 -5.41844315127E-04 -1.25537971519E-02 +8.52080654603E-01
1.45000000000E+09 +1.83354044598E-01 +7.93805727078E-01 +3.94243740031E-03 -9.75566578884E-04 +3.93338625699E-03 -1.20739821611E-03 +1.91604372816E-02 +8.37638037207E-01
1.45500000000E+09 +2.10354917834E-01 +7.71784192864E-01 +4.16836611908E-03 -1.33222053055E-03 +4.11272451705E-03 -1.71990307961E-03 +5.26572581869E-02 +8.20413507001E-01
1.46000000000E+09 +2.39964250946E-01 +7.45645678453E-01 +4.51890048011E-03 -1.99594227194E-03 +4.17978710468E-03 -2.31282152385E-03 +8.74911526597E-02 +7.98445278858E-01
1.46500000000E+09 +2.71061386548E-01 +7.14670294921E-01 +5.05418385740E-03 -3.03124357596E-03 +4.47606267077E-03 -3.10439718948E-03 +1.23570243060E-01 +7.71799896135E-01
1.47000000000E+09 +3.02790704483E-01 +6.78832995061E-01 +5.04257305278E-03 -4.78463427030E-03 +4.61800098105E-03 -4.40882178425E-03 +1.60754670588E-01 +7.37838453255E-01
1.47500000000E+09 +3.33367120741E-01 +6.37836382463E-01 +4.10938563476E-03 -6.56147856535E-03 +4.18183123233E-03 -6.11032735662E-03 +1.97487330264E-01 +6.96711288982E-01
1.48000000000E+09 +3.61555848641E-01 +5.90466936931E-01 +2.93713986589E-03 -7.79261028773E-03 +3.18544564103E-03 -7.75348475258E-03 +2.33918288679E-01 +6.47362392281E-01
1.48500000000E+09 +3.84557210524E-01 +5.36145931653E-01 +1.59557527774E-03 -9.02827798350E-03 +1.48547959256E-03 -9.33667408574E-03 +2.67493226083E-01 +5.88672518284E-01
1.49000000000E+09 +4.02177960658E-01 +4.74703382976E-01 -3.52570822432E-04 -1.02926020687E-02 -8.70153927122E-04 -1.02753189029E-02 +2.95908158862E-01 +5.19104630512E-01
1.49500000000E+09 +4.11442009005E-01 +4.04720802464E-01 -3.21676262013E-03 -1.08226411664E-02 -3.51051181574E-03 -1.02560619138E-02 +3.13680987035E-01 +4.39835378789E-01
1.50000000000E+09 +4.10803784555E-01 +3.25815231050E-01 -6.18768276565E-03 -1.10196823403E-02 -5.88310926282E-03 -1.03736597975E-02 +3.18879485362E-01 +3.51809208403E-01
1.50500000000E+09 +3.96190405360E-01 +2.38848655371E-01 -9.89718995104E-03 -9.70247554458E-03 -9.17433699619E-03 -9.58462763843E-03 +3.08701587144E-01 +2.55840647937E-01
1.51000000000E+09 +3.65491569225E-01 +1.47510310120E-01 -1.25583325610E-02 -6.57456021462E-03 -1.21284762012E-02 -6.96051460070E-03 +2.77287491565E-01 +1.54076961812E-01
1.51500000000E+09 +3.14770650237E-01 +5.58048963061E-02 -1.43209869854E-02 -4.23217587708E-03 -1.42501735914E-02 -4.62819614601E-03 +2.20992921366E-01 +5.81898115201E-02
1.52000000000E+09 +2.43889892545E-01 -2.59811243543E-02 -1.68167742493E-02 -2.67194802794E-04 -1.69686600880E-02 -4.90893386569E-04 +1.46030448366E-01 -2.64073486547E-02
1.52500000000E+09 +1.56431448728E-01 -9.29420423415E-02 -1.65072124690E-02 +6.35318894777E-03 -1.66887640484E-02 +6.30416405247E-03 +5.26546508385E-02 -9.47198748037E-02
1.53000000000E+09 +5.64112271323E-02 -1.38391364847E-01 -1.25154367293E-02 +1.03626625960E-02 -1.26825066345E-02 +1.03973135493E-02 -5.38672501657E-02 -1.39129915215E-01
1.53500000000E+09 -5.11389812632E-02 -1.60848496028E-01 -9.26851233316E-03 +1.29410472147E-02 -9.27840817801E-03 +1.29404759790E-02 -1.63532744912E-01 -1.59634167150E-01
1.54000000000E+09 -1.61019335753E-01 -1.56847171059E-01 -5.13312957784E-03 +1.40848210189E-02 -5.16497949187E-03 +1.38921681124E-02 -2.71007590588E-01 -1.57296675143E-01
1.54500000000E+09 -2.62662863223E-01 -1.30002408924E-01 -1.21108993871E-03 +1.42937438855E-02 -1.47126515778E-03 +1.40749868984E-02 -3.68758408764E-01 -1.35806476226E-01
1.55000000000E+09 -3.54132338566E-01 -8.68735241502E-02 +1.91453590986E-03 +1.33378409592E-02 +1.36979800956E-03 +1.34189627100E-02 -4.54623374594E-01 -9.98192546742E-02
1.55500000000E+09 -4.31552710707E-01 -3.12312945526E-02 +5.62263672658E-03 +1.18690999079E-02 +5.14955130156E-03 +1.24411640850E-02 -5.25847778117E-01 -5.33304324865E-02
1.56000000000E+09 -4.93284566106E-01 +2.80158354747E-02 +7.61157126931E-03 +8.34491184523E-03 +7.66409428865E-03 +9.03200871328E-03 -5.83924263716E-01 -1.01528154060E-03
1.56500000000E+09 -5.42213392312E-01 +8.84507903860E-02 +7.73824897578E-03 +6.13628657684E-03 +8.10896620958E-03 +6.64752304632E-03 -6.28191451357E-01 +5.46853012853E-02
1.57000000000E+09 -5.79252383141E-01 +1.46641885736E-01 +8.05594984328E-03 +4.20727854349E-03 +8.60971598898E-03 +4.43063029815E-03 -6.62075919862E-01 +1.08081682593E-01
