# Hz S RI R 50
! CMT, C1220, 16058040, 17.2.0/1
! Date: 14/08/2018 12:49:22
! Data: Format (Calibration Info)
! Freq                      S11: Re/Im (F2)                       S21: Re/Im (F2)                       S12: Re/Im (F2)                       S22: Re/Im (F2)            
1.00000000000E+09 -6.51909589095E-01 +7.13017209082E-01 +5.07366388466E-06 -4.32206500349E-05 +2.08178163417E-05 +5.64917163155E-06 -7.53680920374E-01 +6.21529205315E-01
1.00500000000E+09 -6.44881744286E-01 +7.18030917853E-01 -1.64766585714E-06 -1.98349152581E-05 +1.87172806716E-05 +4.24547500428E-05 -7.50081447371E-01 +6.25785672492E-01
1.01000000000E+09 -6.38926121534E-01 +7.22491972933E-01 -2.65952018427E-05 -1.72545568281E-05 +6.43883152258E-06 -2.89040442352E-05 -7.46774485278E-01 +6.29159025076E-01
1.01500000000E+09 -6.34465052803E-01 +7.26499707225E-01 -4.05753920384E-05 +3.75526180223E-06 -2.84177393669E-06 +6.15807131446E-05 -7.43597037579E-01 +6.32881572230E-01
1.02000000000E+09 -6.31431852470E-01 +7.29705051471E-01 -2.34280182251E-05 +3.60386727587E-05 +2.84333376840E-05 -3.08718061727E-05 -7.40257491609E-01 +6.36292485558E-01
1.02500000000E+09 -6.29312424367E-01 +7.32590541243E-01 -3.72797094278E-05 -1.52926089543E-06 +5.76918908402E-06 +1.56779540929E-05 -7.37491939837E-01 +6.39967318678E-01
1.03000000000E+09 -6.27721647677E-01 +7.35233363003E-01 -3.35878092712E-05 +2.60670815310E-05 +2.02462556785E-05 +5.15595357319E-05 -7.33861005522E-01 +6.43801135288E-01
1.03500000000E+09 -6.25591029859E-01 +7.37647495112E-01 -2.52228459239E-07 +2.58121613923E-05 -2.82398040241E-06 -3.08975202183E-05 -7.30205110776E-01 +6.47815381856E-01
1.04000000000E+09 -6.22297293690E-01 +7.40608541517E-01 +3.42450270404E-07 +1.46312505673E-06 -3.65193990954E-05 -1.59527606508E-05 -7.26332945627E-01 +6.51496966657E-01
1.04500000000E+09 -6.17358090858E-01 +7.43960979004E-01 -4.28698920021E-06 +1.78959170270E-05 -2.87172675788E-05 +5.34818389915E-06 -7.22871159962E-01 +6.55026416492E-01
1.05000000000E+09 -6.10625655132E-01 +7.48207162595E-01 +2.45813137341E-05 +2.17223557975E-05 +4.04824497734E-05 +4.10176278352E-05 -7.19505047803E-01 +6.58429946559E-01
1.05500000000E+09 -6.02894433338E-01 +7.52731815646E-01 -4.86664064922E-05 +2.41528058428E-05 -8.67729510500E-06 +2.78643545109E-05 -7.16191554987E-01 +6.62004690680E-01
1.06000000000E+09 -5.94510615054E-01 +7.57873846523E-01 -1.35695697256E-06 +5.90501066329E-05 +1.64944542763E-06 -3.21004192580E-05 -7.12757611983E-01 +6.65944821919E-01
1.06500000000E+09 -5.86128150415E-01 +7.62803818479E-01 +3.98810442759E-06 +2.76585426657E-05 -1.87475900102E-05 +3.38109651876E-05 -7.08887833018E-01 +6.69678824074E-01
1.07000000000E+09 -5.78821537465E-01 +7.67208069793E-01 -2.63622501635E-05 +5.88217729829E-05 -2.01155848524E-05 +3.34448557540E-05 -7.05084889972E-01 +6.73420000431E-01
1.07500000000E+09 -5.72992673574E-01 +7.71135942837E-01 +2.62277004306E-05 +2.44708021367E-06 -6.89793760647E-05 +2.64753815439E-05 -7.00844380554E-01 +6.77085509491E-01
1.08000000000E+09 -5.68962216375E-01 +7.74309883664E-01 -3.81874539035E-06 +3.56618041165E-05 +2.01619909072E-05 +3.01386251077E-05 -6.96852797418E-01 +6.80839875806E-01
1.08500000000E+09 -5.66334580355E-01 +7.76866220016E-01 +4.20066814114E-05 -1.86461634431E-05 +6.53226416650E-06 +1.64143809836E-05 -6.93071678395E-01 +6.84513171495E-01
1.09000000000E+09 -5.64250720411E-01 +7.78854984248E-01 +7.12775121478E-05 +5.21648460618E-05 +2.29616190288E-05 +3.10006877258E-05 -6.89357413470E-01 +6.88158518204E-01
1.09500000000E+09 -5.62497411215E-01 +7.80752539574E-01 -1.90887472330E-05 +4.72212733630E-05 +4.95600676494E-05 +4.18858737732E-05 -6.85579449224E-01 +6.92147396154E-01
1.10000000000E+09 -5.59808056880E-01 +7.82771729447E-01 +8.55689020604E-05 +1.96203986254E-05 +4.46192373324E-05 +5.10102255012E-05 -6.81756091521E-01 +6.96047864444E-01
1.10500000000E+09 -5.56063003921E-01 +7.85529383351E-01 +3.20459258864E-05 +2.34627302406E-05 +6.55769286008E-05 +3.10535556733E-05 -6.77408654329E-01 +6.99490917797E-01
1.11000000000E+09 -5.50775291594E-01 +7.88658335847E-01 +4.96931163688E-05 +4.66608663275E-05 +1.66027302193E-05 -7.46605056447E-06 -6.73318555215E-01 +7.02794828822E-01
1.11500000000E+09 -5.43897302802E-01 +7.92410350612E-01 +3.75718060171E-05 +2.89829447782E-05 +3.28446441031E-05 -2.86216629044E-06 -6.69407831888E-01 +7.06159594677E-01
1.12000000000E+09 -5.36462832798E-01 +7.96262989999E-01 +5.24315721867E-05 +9.57721623790E-06 -1.92597770607E-05 +7.28641172520E-05 -6.65413556346E-01 +7.09781802308E-01
1.12500000000E+09 -5.28454409774E-01 +8.00351938473E-01 +5.77511200538E-05 +7.97214694956E-06 +3.45844324032E-05 +2.12428392337E-05 -6.61128916937E-01 +7.13682304814E-01
1.13000000000E+09 -5.21060707716E-01 +8.04133260482E-01 -2.62733823919E-06 +1.32837744413E-05 +7.33019934190E-05 -7.62653310628E-06 -6.56803064909E-01 +7.17578179739E-01
1.13500000000E+09 -5.14587675445E-01 +8.06864879430E-01 +2.87230753089E-05 +1.08425849672E-05 +3.81124212552E-05 +3.18631227995E-05 -6.52112760257E-01 +7.21471873147E-01
1.14000000000E+09 -5.09121649727E-01 +8.09471945058E-01 +7.11794655363E-05 +3.36157175211E-05 +6.06483241396E-05 -2.55662072011E-05 -6.47309495556E-01 +7.24940456364E-01
1.14500000000E+09 -5.04768733935E-01 +8.11200912502E-01 +7.58599284074E-06 -2.58067092319E-05 +4.63228800015E-05 +1.98736832667E-05 -6.42680656748E-01 +7.28335298552E-01
1.15000000000E+09 -5.01194793484E-01 +8.12995978047E-01 +5.25909420451E-05 -2.86583667288E-05 +6.03481715731E-05 +1.03014594751E-05 -6.38069447121E-01 +7.32184771153E-01
1.15500000000E+09 -4.97594465529E-01 +8.14937172025E-01 +8.62300050588E-05 +6.34190451265E-06 +5.52135688653E-05 +4.03248204811E-05 -6.33371536797E-01 +7.36053991174E-01
1.16000000000E+09 -4.93297752973E-01 +8.16925216523E-01 +6.59399071557E-05 -1.23618357287E-05 +1.09349876156E-04 +1.21840268813E-05 -6.28699226907E-01 +7.39809874170E-01
1.16500000000E+09 -4.88053269203E-01 +8.19847222694E-01 +1.10047139743E-04 -2.48994995715E-05 +6.19080049333E-05 +6.81324959191E-07 -6.23687940295E-01 +7.43571983288E-01
1.17000000000E+09 -4.81646622512E-01 +8.23005441750E-01 +9.95248733182E-05 -3.49307747200E-05 +4.59112136046E-05 -1.40668580359E-05 -6.18190427036E-01 +7.46808189888E-01
1.17500000000E+09 -4.74337550277E-01 +8.26650749357E-01 +9.67212852205E-05 -4.58107602123E-05 +1.42567367671E-04 -2.04198158994E-05 -6.12655066604E-01 +7.50008525276E-01
1.18000000000E+09 -4.66677248176E-01 +8.30225993037E-01 +1.06951684418E-04 -5.52402526413E-05 +8.17430721003E-05 -6.87857217524E-05 -6.07247070775E-01 +7.53168910868E-01
1.18500000000E+09 -4.58802708772E-01 +8.33745398061E-01 +1.27533015966E-04 -8.77951234073E-05 +1.40162611538E-04 -8.10231308812E-05 -6.01404093953E-01 +7.56153912156E-01
1.19000000000E+09 -4.51376058534E-01 +8.36388035722E-01 +1.43491060977E-04 -1.61092869029E-04 +1.34998542526E-04 -9.47992909551E-05 -5.95377156866E-01 +7.58680805331E-01
1.19500000000E+09 -4.45021244270E-01 +8.38410677319E-01 +9.40325328641E-05 -1.48689014379E-04 +8.26113359927E-05 -2.07026211663E-04 -5.89534568927E-01 +7.59914317479E-01
1.20000000000E+09 -4.39682169857E-01 +8.39463905625E-01 +5.19967650190E-05 -2.25883513049E-04 +1.95859269496E-05 -2.50110579889E-04 -5.84931782877E-01 +7.60066992883E-01
1.20500000000E+09 -4.34950241518E-01 +8.40804628225E-01 -2.81297925861E-05 -2.39303028351E-04 -6.34119205300E-05 -1.52057555052E-04 -5.82660647782E-01 +7.61064716972E-01
1.21000000000E+09 -4.30167673529E-01 +8.42369882932E-01 -4.91331658524E-06 -6.12825819269E-05 -6.04532039656E-05 -1.02843503723E-04 -5.80664875278E-01 +7.64272543175E-01
1.21500000000E+09 -4.24358143575E-01 +8.44288353826E-01 +3.82618968172E-06 -7.68360095918E-05 -4.24089941991E-05 -7.71549576562E-05 -5.77915725191E-01 +7.68620084841E-01
1.22000000000E+09 -4.17398255500E-01 +8.46676363196E-01 +2.00136579714E-05 -1.17241982687E-04 +5.43249000195E-05 -8.11387981336E-05 -5.73775403324E-01 +7.74211820939E-01
1.22500000000E+09 -4.09242226851E-01 +8.49812612646E-01 -1.63259537877E-05 -1.55824942390E-04 +3.68464000275E-05 -1.04396162025E-04 -5.68811157097E-01 +7.79201544428E-01
1.23000000000E+09 -4.00177145200E-01 +8.53334923944E-01 -2.29506711352E-05 -1.37405134506E-04 -2.84403390643E-05 -1.57298255000E-04 -5.63065608893E-01 +7.83949767796E-01
1.23500000000E+09 -3.90649399149E-01 +8.57023814838E-01 -2.69702053916E-05 -1.95849846469E-04 -5.50628224916E-05 -1.32351330821E-04 -5.57271668713E-01 +7.88179397443E-01
1.24000000000E+09 -3.81121233399E-01 +8.61110509559E-01 -2.17672395091E-05 -1.96058486561E-04 -7.33276327437E-05 -1.59774460287E-04 -5.51166601408E-01 +7.91984462369E-01
1.24500000000E+09 -3.72357431576E-01 +8.64848191282E-01 -8.42677201106E-05 -1.12134363038E-04 -5.77748722630E-05 -1.22615557616E-04 -5.45092108591E-01 +7.95947422728E-01
1.25000000000E+09 -3.64385764975E-01 +8.68043003193E-01 -7.43027946055E-05 -1.16172145433E-04 -6.18636271257E-05 -1.68262310551E-04 -5.38770244409E-01 +8.00009301439E-01
1.25500000000E+09 -3.57590091957E-01 +8.70166820160E-01 -5.75906825716E-05 -1.76886449677E-04 -7.56894363250E-05 -1.89957079800E-04 -5.31870194889E-01 +8.04062156087E-01
1.26000000000E+09 -3.51370833856E-01 +8.71697870355E-01 -8.32687788584E-05 -1.47923627737E-04 -8.46507161070E-05 -1.90309641931E-04 -5.25372514063E-01 +8.08373855317E-01
1.26500000000E+09 -3.45419436306E-01 +8.72812005577E-01 -1.06470744415E-04 -1.98386029461E-04 -1.42045357136E-04 -2.23631483324E-04 -5.18407980282E-01 +8.12186155408E-01
1.27000000000E+09 -3.39047571573E-01 +8.73875620569E-01 -1.48512603233E-04 -1.67635988937E-04 -1.48249946595E-04 -2.34508959403E-04 -5.11455649009E-01 +8.15984161932E-01
1.27500000000E+09 -3.31579421568E-01 +8.75158371956E-01 -2.28170134887E-04 -1.66774787308E-04 -2.58096826171E-04 -1.78701990691E-04 -5.04420899932E-01 +8.19715828417E-01
1.28000000000E+09 -3.22296030340E-01 +8.77088810695E-01 -2.15754571968E-04 -1.22209008230E-04 -2.66206060634E-04 -1.79961804004E-04 -4.97216434963E-01 +8.23235923200E-01
1.28500000000E+09 -3.11301329731E-01 +8.79538014889E-01 -2.94512115338E-04 -1.04186962477E-04 -2.26594695916E-04 -1.56440249516E-04 -4.89921438938E-01 +8.27137902900E-01
1.29000000000E+09 -2.99381132276E-01 +8.82499310719E-01 -3.00735313622E-04 -1.16344056609E-04 -3.33469704554E-04 -1.03721138397E-04 -4.82247195403E-01 +8.30802675226E-01
1.29500000000E+09 -2.87147531202E-01 +8.85933782701E-01 -3.27007694541E-04 -1.20340026985E-04 -3.19420948145E-04 -7.04012245096E-05 -4.74378053588E-01 +8.34435656588E-01
1.30000000000E+09 -2.74987350407E-01 +8.89405923393E-01 -3.57360735140E-04 -9.49229631871E-05 -3.60154147660E-04 -3.91287242452E-05 -4.66434675673E-01 +8.38014679030E-01
1.30500000000E+09 -2.64342992972E-01 +8.92403077401E-01 -4.14415108994E-04 -2.03433613521E-05 -3.86461135179E-04 -2.88957552716E-05 -4.58455842545E-01 +8.41516965757E-01
1.31000000000E+09 -2.55068401925E-01 +8.94669393584E-01 -4.74801957265E-04 +5.19201227357E-05 -4.51790616105E-04 +3.76142988499E-05 -4.50267530719E-01 +8.45051178501E-01
1.31500000000E+09 -2.47672135914E-01 +8.96189588659E-01 -4.13234925394E-04 +1.35285093943E-04 -4.60729494870E-04 +1.42069250487E-04 -4.41460367696E-01 +8.48506527126E-01
1.32000000000E+09 -2.41477760043E-01 +8.97099723228E-01 -4.11213216662E-04 +1.82324143733E-04 -4.34082328765E-04 +8.46065667238E-05 -4.32508255666E-01 +8.51840785120E-01
1.32500000000E+09 -2.35636177767E-01 +8.97253609347E-01 -4.32899727341E-04 +1.69540764454E-04 -4.33118947647E-04 +1.84152502203E-04 -4.23057727872E-01 +8.55197802375E-01
1.33000000000E+09 -2.28848171348E-01 +8.97431439272E-01 -5.15618647233E-04 +2.14084731761E-04 -4.80242636525E-04 +2.89172665223E-04 -4.13590249211E-01 +8.58574795406E-01
1.33500000000E+09 -2.20252269705E-01 +8.97370217417E-01 -5.23756797176E-04 +3.05372784763E-04 -5.16325619821E-04 +3.47325207311E-04 -4.03841367787E-01 +8.61719775763E-01
1.34000000000E+09 -2.08958789713E-01 +8.97674517037E-01 -5.21260164142E-04 +4.19140381951E-04 -4.46313193896E-04 +4.15456707263E-04 -3.93666058809E-01 +8.64988870531E-01
1.34500000000E+09 -1.95181540205E-01 +8.98137389655E-01 -4.61986707769E-04 +5.48093153089E-04 -4.24445347704E-04 +5.20461637082E-04 -3.82763742996E-01 +8.68259048686E-01
1.35000000000E+09 -1.79572060377E-01 +8.98864185293E-01 -3.51328476378E-04 +5.67519304210E-04 -3.95315654246E-04 +5.76216801867E-04 -3.71687139532E-01 +8.71488491144E-01
1.35500000000E+09 -1.62616749101E-01 +8.99668290465E-01 -3.77317637126E-04 +6.67299701421E-04 -3.18859282506E-04 +6.57573477786E-04 -3.60047531034E-01 +8.74374391343E-01
1.36000000000E+09 -1.45817113810E-01 +9.00306509078E-01 -2.94208053718E-04 +7.07761794374E-04 -2.66475798092E-04 +7.23384221662E-04 -3.48234289987E-01 +8.76992542117E-01
1.36500000000E+09 -1.29782230419E-01 +9.00727790620E-01 -2.40868288505E-04 +7.92159587549E-04 -2.02185134233E-04 +7.54015092001E-04 -3.36075585980E-01 +8.79681880990E-01
1.37000000000E+09 -1.15531829203E-01 +9.00435670407E-01 -1.37821343002E-04 +9.19751786566E-04 -2.05371931319E-04 +8.68085478233E-04 -3.23327901967E-01 +8.82053472172E-01
1.37500000000E+09 -1.03092874350E-01 +8.99901473835E-01 +2.61106840708E-05 +1.00006689164E-03 -1.06764939789E-04 +9.40663281550E-04 -3.09350341119E-01 +8.84517049023E-01
1.38000000000E+09 -9.18155883982E-02 +8.98986837659E-01 +6.63558200393E-05 +9.72253275451E-04 -4.81086631096E-05 +1.04198770640E-03 -2.94604776540E-01 +8.86590390441E-01
1.38500000000E+09 -8.02119960618E-02 +8.97545689590E-01 +1.81788958504E-04 +1.07184628745E-03 +4.58873903984E-05 +1.21373552068E-03 -2.79132756403E-01 +8.88590769093E-01
1.39000000000E+09 -6.78593952207E-02 +8.95382192835E-01 +2.59770621951E-04 +1.14380286275E-03 +3.34926309990E-04 +1.34088718645E-03 -2.63299364921E-01 +8.90066705764E-01
1.39500000000E+09 -5.34310171001E-02 +8.92490497199E-01 +4.63156774603E-04 +1.22171723943E-03 +6.09830980403E-04 +1.28940507445E-03 -2.46712024573E-01 +8.90840320146E-01
1.40000000000E+09 -3.63022334849E-02 +8.88763086897E-01 +6.04947735739E-04 +1.22388354020E-03 +7.38008403742E-04 +1.23570305871E-03 -2.29417330602E-01 +8.91300419927E-01
1.40500000000E+09 -1.71335936956E-02 +8.84419394740E-01 +8.58234115058E-04 +1.30797655143E-03 +8.88094097542E-04 +1.21635325433E-03 -2.10902446563E-01 +8.91225562682E-01
1.41000000000E+09 +4.11619337125E-03 +8.79216300925E-01 +1.11867579050E-03 +1.27829747111E-03 +1.09259142207E-03 +1.24198511566E-03 -1.90670066488E-01 +8.90598278102E-01
1.41500000000E+09 +2.65807938438E-02 +8.73274232281E-01 +1.42490324044E-03 +1.20041964502E-03 +1.39780803553E-03 +1.32379716396E-03 -1.69035802020E-01 +8.89123949409E-01
1.42000000000E+09 +4.91915367013E-02 +8.66365759369E-01 +1.63440118377E-03 +1.02135866787E-03 +1.79714709723E-03 +1.17295478545E-03 -1.46101261276E-01 +8.86647750070E-01
1.42500000000E+09 +7.12000162238E-02 +8.58285289282E-01 +1.80058640991E-03 +9.93085485106E-04 +2.08195515034E-03 +9.67581846565E-04 -1.22366810735E-01 +8.82766741297E-01
1.43000000000E+09 +9.25463538280E-02 +8.49230294393E-01 +2.22014743903E-03 +9.54103138185E-04 +2.50366639981E-03 +7.97543549754E-04 -9.77812163836E-02 +8.78169710843E-01
1.43500000000E+09 +1.13223232690E-01 +8.38509361865E-01 +2.77436879801E-03 +5.63685129869E-04 +2.92363402843E-03 +3.14934640024E-04 -7.13906356784E-02 +8.71470106698E-01
1.44000000000E+09 +1.34360422573E-01 +8.26335257843E-01 +3.06498215425E-03 -8.03126788523E-05 +3.06373170187E-03 -3.56069179667E-04 -4.34083461031E-02 +8.62821060185E-01
1.44500000000E+09 +1.57439483482E-01 +8.11263905159E-01 +3.08912635248E-03 -6.51264131365E-04 +3.07932508441E-03 -7.94689899077E-04 -1.32589118828E-02 +8.51499273430E-01
1.45000000000E+09 +1.82095396643E-01 +7.92712874996E-01 +3.02382871738E-03 -1.11527095916E-03 +3.01903388746E-03 -1.30809112595E-03 +1.83337233051E-02 +8.37039691439E-01
1.45500000000E+09 +2.09052145036E-01 +7.70556324756E-01 +3.19466058890E-03 -1.35639030022E-03 +3.05252754152E-03 -1.62333485187E-03 +5.16390702374E-02 +8.19939715267E-01
1.46000000000E+09 +2.38465180833E-01 +7.44405987817E-01 +3.46937207205E-03 -1.89306533298E-03 +3.10602862168E-03 -2.12925293589E-03 +8.63720234553E-02 +7.98211520618E-01
1.46500000000E+09 +2.69585390777E-01 +7.13395025746E-01 +3.78093462838E-03 -2.79434490389E-03 +3.36512152135E-03 -2.75363513789E-03 +1.22158533055E-01 +7.71560910013E-01
1.47000000000E+09 +3.00916685501E-01 +6.77463964936E-01 +3.73805434066E-03 -4.26411808590E-03 +3.43206067697E-03 -3.90963829461E-03 +1.58854835055E-01 +7.37756384299E-01
1.47500000000E+09 +3.31106232198E-01 +6.36456527426E-01 +2.75546389168E-03 -5.63214163105E-03 +2.79885762712E-03 -5.31508905072E-03 +1.95171787479E-01 +6.97530221676E-01
1.48000000000E+09 +3.59019109853E-01 +5.89367955738E-01 +1.72057411861E-03 -6.49994173327E-03 +1.90015133767E-03 -6.46724226037E-03 +2.31708824840E-01 +6.48610727829E-01
1.48500000000E+09 +3.81793036934E-01 +5.35203726330E-01 +4.27577536502E-04 -7.42637521397E-03 +3.37231978370E-04 -7.58730036955E-03 +2.65111454811E-01 +5.90770308186E-01
1.49000000000E+09 +3.99139715549E-01 +4.73888152634E-01 -1.16603888749E-03 -8.13029856482E-03 -1.55793149936E-03 -8.06904816655E-03 +2.94030983570E-01 +5.22275575150E-01
1.49500000000E+09 +4.07726836499E-01 +4.04423079514E-01 -3.49068563132E-03 -8.37975362722E-03 -3.66618155293E-03 -7.90978052288E-03 +3.12473956904E-01 +4.43590356013E-01
1.50000000000E+09 +4.06867917404E-01 +3.26326743891E-01 -5.96608145738E-03 -8.16598591896E-03 -5.62247603801E-03 -7.69523720200E-03 +3.18773206265E-01 +3.56295070490E-01
1.50500000000E+09 +3.92469606768E-01 +2.40129927675E-01 -8.57625831798E-03 -6.85784128462E-03 -7.96650862145E-03 -6.85647130157E-03 +3.09936561111E-01 +2.60642942090E-01
1.51000000000E+09 +3.62015214828E-01 +1.49851913446E-01 -1.05699643862E-02 -4.26676945033E-03 -1.03179031808E-02 -4.63423785395E-03 +2.79805784945E-01 +1.58833363785E-01
1.51500000000E+09 +3.12426527920E-01 +5.88693305193E-02 -1.18378353183E-02 -1.99826994279E-03 -1.18735198890E-02 -2.27286227829E-03 +2.25405800450E-01 +6.27042915884E-02
1.52000000000E+09 +2.42430060917E-01 -2.29426547782E-02 -1.33445296239E-02 +1.30111869342E-03 -1.35061551666E-02 +1.14158446725E-03 +1.52078926059E-01 -2.36084681489E-02
1.52500000000E+09 +1.55581781015E-01 -8.95749869201E-02 -1.25090881373E-02 +6.74215415211E-03 -1.26388132948E-02 +6.71011548619E-03 +5.93813928383E-02 -9.41104645617E-02
1.53000000000E+09 +5.63865297725E-02 -1.35344224235E-01 -8.57506404151E-03 +9.36750377157E-03 -8.62571467904E-03 +9.43043035462E-03 -4.74129063521E-02 -1.40553759944E-01
1.53500000000E+09 -5.06721504654E-02 -1.57998433488E-01 -5.87042133495E-03 +1.10540898198E-02 -5.90006021656E-03 +1.10199319915E-02 -1.58084308526E-01 -1.62899148158E-01
1.54000000000E+09 -1.60119358507E-01 -1.54102405654E-01 -2.62948557422E-03 +1.10575572607E-02 -2.69137338186E-03 +1.09366899583E-02 -2.66907340200E-01 -1.61912803420E-01
1.54500000000E+09 -2.60854230164E-01 -1.27733345845E-01 +2.19167308054E-04 +1.11933763950E-02 -5.41391592866E-05 +1.10599752626E-02 -3.66614975195E-01 -1.41234934130E-01
1.55000000000E+09 -3.52210015351E-01 -8.52786512561E-02 +2.53422600172E-03 +1.01856553091E-02 +2.14917846769E-03 +1.03173141076E-02 -4.54155408567E-01 -1.04859676729E-01
1.55500000000E+09 -4.29405638785E-01 -3.01464595115E-02 +5.46096341637E-03 +8.81124456034E-03 +5.16167303691E-03 +9.27241613990E-03 -5.26314513074E-01 -5.78702827399E-02
1.56000000000E+09 -4.90768997299E-01 +2.87611861057E-02 +6.89075387536E-03 +5.66320612995E-03 +6.96540261967E-03 +6.22112541344E-03 -5.85314224533E-01 -4.90665410621E-03
1.56500000000E+09 -5.39629026668E-01 +8.82938498524E-02 +6.41251395532E-03 +3.80942117370E-03 +6.73972888844E-03 +4.17878508068E-03 -6.30450769042E-01 +5.14000155183E-02
1.57000000000E+09 -5.76749780023E-01 +1.46039782439E-01 +6.42192362752E-03 +2.44129403011E-03 +6.89318849907E-03 +2.55370896044E-03 -6.64721347058E-01 +1.05835594291E-01
