# Hz S RI R 50
! CMT, C1220, 16058040, 17.2.0/1
! Date: 14/08/2018 12:46:18
! Data: Format (Calibration Info)
! Freq                      S11: Re/Im (F2)                       S21: Re/Im (F2)                       S12: Re/Im (F2)                       S22: Re/Im (F2)            
1.00000000000E+09 -6.51448456155E-01 +7.13142830253E-01 -1.33327643194E-05 +3.30236460295E-05 -1.14316053520E-05 -1.26670779934E-05 -7.53851507869E-01 +6.21339259877E-01
1.00500000000E+09 -6.44199642444E-01 +7.18142916653E-01 -1.89433522880E-05 +2.27055717476E-05 -4.05937491405E-05 +4.05963627232E-05 -7.50186834094E-01 +6.25515344667E-01
1.01000000000E+09 -6.38270550776E-01 +7.22616527200E-01 -1.47780585874E-05 +4.58999250751E-05 +4.80125133467E-05 +1.51391452980E-05 -7.46799257556E-01 +6.29099412155E-01
1.01500000000E+09 -6.33819159628E-01 +7.26477793924E-01 +4.68776608182E-06 -1.97907202100E-05 -3.94625514760E-05 -6.55734830894E-06 -7.43729351076E-01 +6.32785636120E-01
1.02000000000E+09 -6.30668824218E-01 +7.29986081142E-01 -3.19552318209E-05 -2.08314713256E-05 -2.38861226324E-05 +5.77162944922E-06 -7.40403385176E-01 +6.36218517770E-01
1.02500000000E+09 -6.28546538719E-01 +7.32962946853E-01 -3.03635965975E-05 +3.92931056318E-05 -2.21450802495E-05 +2.83599397902E-05 -7.37468890016E-01 +6.39866445977E-01
1.03000000000E+09 -6.26971013769E-01 +7.35628843564E-01 -2.26572808297E-06 +5.49293560111E-05 -4.47880845370E-05 +4.82604110732E-05 -7.34040501299E-01 +6.43637190974E-01
1.03500000000E+09 -6.24791207466E-01 +7.38073670911E-01 -4.47777535241E-05 +2.73916981849E-05 -1.25150345354E-05 +5.37469482830E-06 -7.30073786266E-01 +6.47673989145E-01
1.04000000000E+09 -6.21542815680E-01 +7.41036395241E-01 -2.10904620843E-05 +7.20086089697E-06 -1.70362275373E-05 -6.97408509198E-06 -7.26525435521E-01 +6.51330713995E-01
1.04500000000E+09 -6.16705620413E-01 +7.44439315346E-01 -2.95722464891E-06 -4.06315612853E-05 +1.35183378836E-05 +5.82765998119E-06 -7.22914571493E-01 +6.54903636482E-01
1.05000000000E+09 -6.10063808916E-01 +7.48472038587E-01 -8.69141530128E-05 +2.23732360485E-06 -9.46847459078E-06 +6.73481137673E-05 -7.19612182979E-01 +6.58153829811E-01
1.05500000000E+09 -6.02244770422E-01 +7.53123800897E-01 -1.31707162956E-05 +2.07277535614E-05 +2.23694638682E-05 +1.91369152630E-05 -7.16369573918E-01 +6.61748177651E-01
1.06000000000E+09 -5.93889064083E-01 +7.58176965025E-01 +2.37715704318E-05 +2.25637011018E-05 -2.06085115345E-05 +2.99719202067E-05 -7.13008221559E-01 +6.65622765588E-01
1.06500000000E+09 -5.85501156400E-01 +7.63199803914E-01 -6.80130623587E-05 +5.05608727192E-05 -6.09862659820E-07 +1.70510581603E-05 -7.09242477447E-01 +6.69499678084E-01
1.07000000000E+09 -5.78097185910E-01 +7.67611155926E-01 +3.77992142157E-05 +4.78160008368E-05 +1.01527590811E-05 +1.52158937141E-05 -7.05010090947E-01 +6.73250617032E-01
1.07500000000E+09 -5.72315587998E-01 +7.71650201132E-01 +1.09749769368E-05 +2.35492788932E-06 -3.09078992743E-07 +1.14175131335E-05 -7.00936502477E-01 +6.76917297198E-01
1.08000000000E+09 -5.67999906660E-01 +7.74971752563E-01 +1.23973225560E-05 +1.31820458421E-05 +2.78817212198E-05 +7.12751442804E-05 -6.96949347187E-01 +6.80770618611E-01
1.08500000000E+09 -5.65232021247E-01 +7.77501498763E-01 +2.74333081767E-05 +6.92838026033E-05 +3.18424129702E-05 -2.26226461698E-05 -6.93181084763E-01 +6.84272836744E-01
1.09000000000E+09 -5.63208938937E-01 +7.79676874807E-01 +3.68373041401E-05 +2.59190737219E-05 +1.08723195123E-05 +4.17278476069E-05 -6.89480587631E-01 +6.88074534689E-01
1.09500000000E+09 -5.61662667760E-01 +7.81421011594E-01 +1.87476327548E-05 +1.21407923644E-05 +3.64554522520E-05 +1.83828505644E-05 -6.85887505597E-01 +6.91881523701E-01
1.10000000000E+09 -5.58783761807E-01 +7.83545840261E-01 +9.85579843139E-06 +3.34719227858E-05 +4.22201315403E-05 +3.35654513655E-05 -6.81874087727E-01 +6.95707550428E-01
1.10500000000E+09 -5.55169815253E-01 +7.86198284837E-01 +6.28899920726E-05 +3.74715897435E-05 +3.56735340130E-05 -1.03440088772E-05 -6.77634070596E-01 +6.99208528526E-01
1.11000000000E+09 -5.49847320496E-01 +7.89370091979E-01 +3.47081643968E-05 +2.28274115913E-05 +1.56043977473E-05 +4.47603605812E-05 -6.73407947050E-01 +7.02568369669E-01
1.11500000000E+09 -5.43182678841E-01 +7.92979292771E-01 +7.14015647987E-06 +6.92739283662E-05 +6.01120191516E-05 +4.96834033182E-05 -6.69626779105E-01 +7.05964995321E-01
1.12000000000E+09 -5.35603187571E-01 +7.96935507681E-01 +1.85603395061E-05 -1.94175129310E-05 +1.12172837324E-04 -3.58783323140E-05 -6.65522073258E-01 +7.09631995916E-01
1.12500000000E+09 -5.27669698199E-01 +8.01016949148E-01 +4.02471777643E-05 -1.98216942842E-05 +1.31205664210E-05 +4.80760335795E-05 -6.61314870593E-01 +7.13652423057E-01
1.13000000000E+09 -5.20172176719E-01 +8.04868482018E-01 +5.61548826310E-05 +4.48613684808E-06 +4.53005372421E-05 +1.49475282595E-05 -6.56918883544E-01 +7.17465008843E-01
1.13500000000E+09 -5.13673245341E-01 +8.07727881440E-01 +5.71770195711E-05 -2.01869063359E-05 +7.62203702969E-05 +2.90467115969E-05 -6.52292664910E-01 +7.21220513134E-01
1.14000000000E+09 -5.08105797868E-01 +8.10251463496E-01 +7.92419277736E-05 +3.33443800144E-05 +5.12605772640E-05 -1.62827796405E-05 -6.47561590316E-01 +7.24810111407E-01
1.14500000000E+09 -5.03925250957E-01 +8.12167766354E-01 +8.25115473124E-05 -1.32673060931E-06 +8.74791508075E-05 +6.15695933005E-06 -6.42821159983E-01 +7.28203934938E-01
1.15000000000E+09 -5.00263599688E-01 +8.13768571914E-01 +5.50559812239E-05 -9.71569796398E-06 +4.18545583229E-05 -1.36758527419E-05 -6.38247648681E-01 +7.32049440707E-01
1.15500000000E+09 -4.96776007855E-01 +8.15748553705E-01 +7.22754815521E-05 +5.68316190858E-05 +6.20408417195E-05 -9.00825972090E-06 -6.33576725756E-01 +7.35764354966E-01
1.16000000000E+09 -4.92313342119E-01 +8.17877537759E-01 +5.96485605649E-05 -4.83577888275E-05 +4.50204967712E-05 -2.09513590639E-05 -6.28710930729E-01 +7.39659366197E-01
1.16500000000E+09 -4.87111963547E-01 +8.20698331992E-01 +5.96672693416E-05 +1.16501154249E-05 +6.07018174579E-05 -1.64989075175E-05 -6.23788750273E-01 +7.43279867024E-01
1.17000000000E+09 -4.80757986550E-01 +8.23876094610E-01 +5.02887918959E-05 -5.65301109287E-06 +8.72876228961E-05 +3.03456828600E-06 -6.18359093857E-01 +7.46714583937E-01
1.17500000000E+09 -4.73435149103E-01 +8.27248940302E-01 +9.48839987176E-05 -4.22140745953E-05 +1.25736013373E-04 -1.42483631677E-05 -6.12878706296E-01 +7.49880415785E-01
1.18000000000E+09 -4.65636832020E-01 +8.31146072222E-01 +8.93594549480E-05 +9.07335974641E-06 +5.77279124675E-05 -8.97475010349E-05 -6.07535042736E-01 +7.52987999026E-01
1.18500000000E+09 -4.57756734459E-01 +8.34467778702E-01 +1.23180771716E-04 -8.33016452428E-05 +1.63307922679E-04 -3.88981121936E-05 -6.01666910628E-01 +7.55882697560E-01
1.19000000000E+09 -4.50210680131E-01 +8.37208238184E-01 +1.24298658129E-04 -1.04027147333E-04 +1.57806692559E-04 -1.21362887195E-04 -5.95667082006E-01 +7.58488135671E-01
1.19500000000E+09 -4.43830221365E-01 +8.39505407985E-01 +1.26781299244E-04 -1.49693543187E-04 +7.15524619129E-05 -2.13461688596E-04 -5.89708948499E-01 +7.59684583090E-01
1.20000000000E+09 -4.38367064804E-01 +8.40493667044E-01 +1.82354089754E-05 -2.24718976932E-04 -9.13583394235E-06 -2.46479425555E-04 -5.85044233665E-01 +7.59954139901E-01
1.20500000000E+09 -4.33504028558E-01 +8.41964315242E-01 -6.65434122648E-05 -1.69026643074E-04 -2.80408669394E-05 -1.53164395074E-04 -5.82692308268E-01 +7.60800927587E-01
1.21000000000E+09 -4.28746763125E-01 +8.43594875431E-01 -4.82482468584E-05 -1.06597373148E-04 -4.60939081750E-05 -9.50974978128E-05 -5.80749661923E-01 +7.64017960575E-01
1.21500000000E+09 -4.22916275698E-01 +8.45606840220E-01 -4.78189006922E-05 -8.69830106242E-05 -2.25302243860E-05 -9.10966276530E-05 -5.77957766764E-01 +7.68467635532E-01
1.22000000000E+09 -4.15908055648E-01 +8.47817222615E-01 +1.02169789635E-05 -1.12760826661E-04 +2.16313032824E-05 -8.59297559398E-05 -5.74084543154E-01 +7.73858537071E-01
1.22500000000E+09 -4.07792362247E-01 +8.50768347716E-01 -6.87087202610E-06 -1.50929666555E-04 +2.38291303185E-05 -1.17111339785E-04 -5.68895456755E-01 +7.79057972524E-01
1.23000000000E+09 -3.98804015653E-01 +8.54337295931E-01 +2.43752039099E-05 -1.57818695178E-04 -4.45246513360E-05 -2.01883943658E-04 -5.63107848675E-01 +7.83671469896E-01
1.23500000000E+09 -3.89297309745E-01 +8.58023493323E-01 -2.85924600895E-05 -1.57779359550E-04 +1.76068424582E-07 -1.77013501289E-04 -5.57434983056E-01 +7.87968536215E-01
1.24000000000E+09 -3.79764245753E-01 +8.61903248892E-01 -5.64987701994E-05 -1.85544966954E-04 -2.82039702544E-05 -1.76866029706E-04 -5.51414911349E-01 +7.91839883827E-01
1.24500000000E+09 -3.70827145766E-01 +8.65814304966E-01 -1.02877577389E-04 -2.18287776839E-04 -7.78042542253E-05 -1.74547817498E-04 -5.45333726710E-01 +7.95638290398E-01
1.25000000000E+09 -3.62645021809E-01 +8.68937036262E-01 -1.27039637232E-04 -1.47664040530E-04 -8.73840713073E-05 -1.57849014633E-04 -5.38845986904E-01 +8.00035789619E-01
1.25500000000E+09 -3.55839256411E-01 +8.71084851850E-01 -9.94969295925E-05 -1.46450709603E-04 -1.24635462286E-04 -1.75263072401E-04 -5.32121175490E-01 +8.03819009702E-01
1.26000000000E+09 -3.49386188391E-01 +8.72636105843E-01 -1.16448614339E-04 -1.99231623331E-04 -1.12353067388E-04 -1.72296665413E-04 -5.25600421728E-01 +8.08217963164E-01
1.26500000000E+09 -3.43443700020E-01 +8.73813757163E-01 -1.71418247985E-04 -2.15367984851E-04 -1.52131590650E-04 -2.04250064859E-04 -5.18517271894E-01 +8.12065308095E-01
1.27000000000E+09 -3.37105455705E-01 +8.74851895829E-01 -2.04295191226E-04 -1.81619876509E-04 -2.44604007454E-04 -1.90026135834E-04 -5.11825741520E-01 +8.15947607668E-01
1.27500000000E+09 -3.29589619544E-01 +8.76130301044E-01 -2.78923645601E-04 -1.97390431388E-04 -2.47202116620E-04 -1.22788454719E-04 -5.04550850295E-01 +8.19524313598E-01
1.28000000000E+09 -3.20534287379E-01 +8.78072596406E-01 -2.45867381027E-04 -1.30513212915E-04 -2.43107973530E-04 -1.33600581096E-04 -4.97554553111E-01 +8.23157208243E-01
1.28500000000E+09 -3.09496400322E-01 +8.80502662488E-01 -2.34840623632E-04 -1.50616277403E-04 -2.85044567503E-04 -1.53685382219E-04 -4.90057059932E-01 +8.27011892522E-01
1.29000000000E+09 -2.97577475775E-01 +8.83302601659E-01 -2.92014378728E-04 -1.09494733086E-04 -3.60871092337E-04 -1.00170252372E-04 -4.82556038190E-01 +8.30871969978E-01
1.29500000000E+09 -2.85167150944E-01 +8.86644493896E-01 -2.83623907328E-04 -1.38905174827E-04 -4.02509088812E-04 -7.41666842830E-05 -4.74699917678E-01 +8.34339284009E-01
1.30000000000E+09 -2.72999791436E-01 +8.90150247971E-01 -3.99342241847E-04 -5.19783756804E-05 -3.82020856229E-04 -2.97577037274E-05 -4.66789756728E-01 +8.37965592130E-01
1.30500000000E+09 -2.62094541669E-01 +8.93319860019E-01 -4.40371922161E-04 -4.59707306218E-05 -4.36426751068E-04 -1.24903135115E-05 -4.58715410394E-01 +8.41316974375E-01
1.31000000000E+09 -2.52789534046E-01 +8.95383558571E-01 -4.99652642556E-04 +1.94952495345E-05 -4.44035748973E-04 +5.15902961754E-05 -4.50398814541E-01 +8.44860456900E-01
1.31500000000E+09 -2.45201713674E-01 +8.96970153801E-01 -4.43579291419E-04 +1.73171030179E-04 -4.50581294573E-04 +1.15087635573E-04 -4.41644902110E-01 +8.48367266486E-01
1.32000000000E+09 -2.39050523325E-01 +8.97760414749E-01 -4.64193566475E-04 +1.33490385006E-04 -4.74053876597E-04 +1.53033076155E-04 -4.32542650329E-01 +8.51725020015E-01
1.32500000000E+09 -2.33135342015E-01 +8.97876946870E-01 -4.51770060270E-04 +1.38979820261E-04 -4.77433856962E-04 +1.72502367221E-04 -4.23336399167E-01 +8.55023590508E-01
1.33000000000E+09 -2.26358154918E-01 +8.98001866681E-01 -5.26938195913E-04 +2.52841961264E-04 -5.30469090051E-04 +2.56701108816E-04 -4.13742927530E-01 +8.58318989967E-01
1.33500000000E+09 -2.17835808269E-01 +8.97992561025E-01 -5.78411309519E-04 +3.75402771085E-04 -5.60072352606E-04 +3.89365845807E-04 -4.03969508150E-01 +8.61638931549E-01
1.34000000000E+09 -2.06671133974E-01 +8.98090642711E-01 -5.13670012572E-04 +4.84454027532E-04 -4.93382561912E-04 +4.84753631053E-04 -3.93799423126E-01 +8.64886909578E-01
1.34500000000E+09 -1.93122451898E-01 +8.98507908029E-01 -4.54332114093E-04 +5.95224519501E-04 -4.34968311366E-04 +6.10577536357E-04 -3.82979330042E-01 +8.68058770397E-01
1.35000000000E+09 -1.77437290724E-01 +8.99080989760E-01 -3.67701996885E-04 +6.40950142201E-04 -3.83161004609E-04 +6.13547193654E-04 -3.71827315959E-01 +8.71235897669E-01
1.35500000000E+09 -1.60584579573E-01 +8.99850062326E-01 -2.95101644583E-04 +6.91763915463E-04 -3.82558595959E-04 +6.96498409049E-04 -3.60256299166E-01 +8.74216568813E-01
1.36000000000E+09 -1.43764229900E-01 +9.00351040894E-01 -3.17993205836E-04 +8.12263327390E-04 -2.72080507681E-04 +7.65905928485E-04 -3.48274240925E-01 +8.76868791313E-01
1.36500000000E+09 -1.27557384565E-01 +9.00702554123E-01 -2.30159712560E-04 +8.52286030776E-04 -1.92326878096E-04 +8.10101360757E-04 -3.36217517929E-01 +8.79351810350E-01
1.37000000000E+09 -1.13223383134E-01 +9.00390941864E-01 -1.20424846508E-04 +9.54311537919E-04 -1.80922969836E-04 +9.32173539077E-04 -3.23340536815E-01 +8.82105124736E-01
1.37500000000E+09 -1.00720695835E-01 +8.99827567628E-01 +4.95834451384E-05 +1.04712794244E-03 -9.17145725889E-05 +1.01017401514E-03 -3.09452174120E-01 +8.84383051756E-01
1.38000000000E+09 -8.94141076124E-02 +8.98910806370E-01 +1.03759022521E-04 +1.01836735846E-03 -1.37028535933E-05 +1.09137108413E-03 -2.94770520498E-01 +8.86515474724E-01
1.38500000000E+09 -7.78347279896E-02 +8.97295711278E-01 +2.25277450638E-04 +1.13009973684E-03 +1.36831269183E-04 +1.29065029275E-03 -2.79237824781E-01 +8.88560125222E-01
1.39000000000E+09 -6.57122906724E-02 +8.95101533718E-01 +3.64019847452E-04 +1.23460886335E-03 +3.58446589060E-04 +1.42936051661E-03 -2.63386089253E-01 +8.89821535649E-01
1.39500000000E+09 -5.14751681644E-02 +8.92239720803E-01 +5.49864948606E-04 +1.27869569778E-03 +7.22601510094E-04 +1.35848076723E-03 -2.46721245743E-01 +8.90634556529E-01
1.40000000000E+09 -3.44217186854E-02 +8.88386831254E-01 +7.05501047943E-04 +1.33689501019E-03 +8.36379359601E-04 +1.27345261082E-03 -2.29380073083E-01 +8.91074021144E-01
1.40500000000E+09 -1.54303865650E-02 +8.83711210079E-01 +9.55447537638E-04 +1.37666918372E-03 +1.03479711718E-03 +1.26023795080E-03 -2.10936927626E-01 +8.90997369986E-01
1.41000000000E+09 +5.70602282370E-03 +8.78451554513E-01 +1.30771418455E-03 +1.30827717235E-03 +1.22299169204E-03 +1.26583168281E-03 -1.90742223528E-01 +8.90470496272E-01
1.41500000000E+09 +2.80607572297E-02 +8.72367591137E-01 +1.57158161255E-03 +1.23122217825E-03 +1.57437871395E-03 +1.33666351120E-03 -1.69132135451E-01 +8.88890643893E-01
1.42000000000E+09 +5.07948919210E-02 +8.65196130287E-01 +1.80910014895E-03 +1.03830159256E-03 +1.94271359144E-03 +1.12985612065E-03 -1.46129011360E-01 +8.86375625777E-01
1.42500000000E+09 +7.26699524527E-02 +8.57129044911E-01 +2.01117357835E-03 +9.66975585074E-04 +2.32788396149E-03 +1.00220091894E-03 -1.22656512888E-01 +8.82475083139E-01
1.43000000000E+09 +9.41005093724E-02 +8.47728462975E-01 +2.50847138142E-03 +8.78636267985E-04 +2.75351935960E-03 +7.24731501073E-04 -9.80236520636E-02 +8.77778585490E-01
1.43500000000E+09 +1.14527737880E-01 +8.36929857581E-01 +3.05972150205E-03 +4.76940819384E-04 +3.20799086583E-03 +1.96281811756E-04 -7.17187024192E-02 +8.71104034861E-01
1.44000000000E+09 +1.35229323192E-01 +8.24889306621E-01 +3.37657265012E-03 -3.20538604104E-04 +3.42491961023E-03 -5.64261699029E-04 -4.37285831140E-02 +8.62482588953E-01
1.44500000000E+09 +1.57884979755E-01 +8.09873060542E-01 +3.33539934212E-03 -1.02139213023E-03 +3.28519678509E-03 -1.19982523236E-03 -1.35836395564E-02 +8.51076604416E-01
1.45000000000E+09 +1.82109035036E-01 +7.91515411000E-01 +3.16437800672E-03 -1.44656610070E-03 +3.16579652675E-03 -1.65668574791E-03 +1.79437340736E-02 +8.36654209789E-01
1.45500000000E+09 +2.08571373832E-01 +7.69582962530E-01 +3.28943883640E-03 -1.67471310047E-03 +3.17091739219E-03 -2.05312234072E-03 +5.11555873713E-02 +8.19379306357E-01
1.46000000000E+09 +2.37554647578E-01 +7.43644602267E-01 +3.72574644279E-03 -2.35823627835E-03 +3.31948227887E-03 -2.55796538809E-03 +8.58058896970E-02 +7.97634491825E-01
1.46500000000E+09 +2.68045611745E-01 +7.12851305964E-01 +3.92340434252E-03 -3.50091277283E-03 +3.42641115635E-03 -3.47308693526E-03 +1.21458785518E-01 +7.71149375575E-01
1.47000000000E+09 +2.98832902038E-01 +6.77594999172E-01 +3.51839396076E-03 -5.06446433028E-03 +3.25930617581E-03 -4.61849272135E-03 +1.58084614097E-01 +7.37516624568E-01
1.47500000000E+09 +3.28921289050E-01 +6.37186639957E-01 +2.34590680105E-03 -6.34010695297E-03 +2.48330594705E-03 -5.95724525976E-03 +1.94434966023E-01 +6.97310582945E-01
1.48000000000E+09 +3.56684857284E-01 +5.90657553472E-01 +1.08730526004E-03 -7.11221976618E-03 +1.34258424761E-03 -7.12780458580E-03 +2.30769180827E-01 +6.48481778008E-01
1.48500000000E+09 +3.79182697160E-01 +5.37432743907E-01 -2.86093682400E-04 -7.96077626515E-03 -3.85506062663E-04 -8.15302990572E-03 +2.64126816700E-01 +5.90739571091E-01
1.49000000000E+09 +3.96750218961E-01 +4.77129861906E-01 -2.08041689861E-03 -8.57465846573E-03 -2.54220650497E-03 -8.47180542977E-03 +2.92842172693E-01 +5.22450055560E-01
1.49500000000E+09 +4.05786729392E-01 +4.09213985288E-01 -4.71173953407E-03 -8.57177327651E-03 -4.91161226876E-03 -8.04714689434E-03 +3.11295989997E-01 +4.44302309970E-01
1.50000000000E+09 +4.05721021077E-01 +3.32421567828E-01 -7.25594783080E-03 -7.85736887108E-03 -6.84256129034E-03 -7.43153631508E-03 +3.17772567615E-01 +3.57252176680E-01
1.50500000000E+09 +3.92484124654E-01 +2.47617848550E-01 -9.76618397268E-03 -6.18484446889E-03 -9.18678785339E-03 -6.21268789383E-03 +3.09146097504E-01 +2.61992117560E-01
1.51000000000E+09 +3.63742870582E-01 +1.58319462220E-01 -1.16338129343E-02 -3.36234970417E-03 -1.13460311560E-02 -3.76498417234E-03 +2.79335289447E-01 +1.60446257471E-01
1.51500000000E+09 +3.16243373632E-01 +6.80149706536E-02 -1.28052348437E-02 -6.09452749857E-04 -1.28523475045E-02 -9.31216850411E-04 +2.25566626971E-01 +6.44997722839E-02
1.52000000000E+09 +2.48771489118E-01 -1.43529178532E-02 -1.38253032607E-02 +2.97821366356E-03 -1.39861144185E-02 +2.86166351036E-03 +1.52890705492E-01 -2.18876376011E-02
1.52500000000E+09 +1.64590467421E-01 -8.21884866388E-02 -1.20147090399E-02 +8.62650819857E-03 -1.21505649634E-02 +8.63145383202E-03 +6.07443390670E-02 -9.28050865807E-02
1.53000000000E+09 +6.67869968092E-02 -1.31246534133E-01 -7.66897906431E-03 +1.05612719867E-02 -7.75110665655E-03 +1.06364632142E-02 -4.55178079969E-02 -1.39847268682E-01
1.53500000000E+09 -4.00611070160E-02 -1.55864807384E-01 -4.93124842905E-03 +1.19030670751E-02 -4.91163221310E-03 +1.19322734778E-02 -1.56173458905E-01 -1.63023175172E-01
1.54000000000E+09 -1.48741602913E-01 -1.54577291826E-01 -1.53041862960E-03 +1.19522898797E-02 -1.56777061821E-03 +1.18350059520E-02 -2.65198550346E-01 -1.62417765650E-01
1.54500000000E+09 -2.50669605768E-01 -1.30878861933E-01 +1.89584486718E-03 +1.15208805774E-02 +1.64360990521E-03 +1.14250733838E-02 -3.65105075631E-01 -1.42384699188E-01
1.55000000000E+09 -3.43405561588E-01 -9.00842642343E-02 +3.93551805819E-03 +9.98957244772E-03 +3.53234849428E-03 +1.00860774197E-02 -4.53239611526E-01 -1.06305159515E-01
1.55500000000E+09 -4.22368793326E-01 -3.58745696320E-02 +6.43711734101E-03 +8.10604737765E-03 +6.18397832493E-03 +8.58087671179E-03 -5.25900964184E-01 -5.93950093077E-02
1.56000000000E+09 -4.85335039271E-01 +2.25850476832E-02 +7.37137173877E-03 +5.11552154398E-03 +7.53072278498E-03 +5.63594551097E-03 -5.85231456124E-01 -6.26410002718E-03
1.56500000000E+09 -5.36007054407E-01 +8.22232667933E-02 +7.06390115523E-03 +3.31254345816E-03 +7.42847344908E-03 +3.62243557296E-03 -6.30595533629E-01 +5.01055377824E-02
1.57000000000E+09 -5.74389294574E-01 +1.40954203876E-01 +6.81770737307E-03 +1.67151741638E-03 +7.22813362563E-03 +1.71464022388E-03 -6.65001515918E-01 +1.04787908507E-01
