# Hz S RI R 50
! CMT, C1220, 16058040, 17.2.0/1
! Date: 14/08/2018 12:50:00
! Data: Format (Calibration Info)
! Freq                      S11: Re/Im (F2)                       S21: Re/Im (F2)                       S12: Re/Im (F2)                       S22: Re/Im (F2)            
1.00000000000E+09 -6.51197042761E-01 +7.13204512424E-01 -2.71789641454E-05 -1.86562786474E-05 -1.80692494186E-05 +9.05923678389E-06 -7.53638133036E-01 +6.21509007815E-01
1.00500000000E+09 -6.44259868747E-01 +7.18251284649E-01 +7.84021569705E-06 +8.43525184309E-06 +3.68007422420E-05 +1.14010945234E-05 -7.50147859389E-01 +6.25595172667E-01
1.01000000000E+09 -6.38251957872E-01 +7.22815741321E-01 +1.36307210578E-05 -2.50343139851E-05 -3.87994919910E-05 +4.13287116847E-06 -7.46732833688E-01 +6.29218016300E-01
1.01500000000E+09 -6.34041410346E-01 +7.26594219683E-01 +7.12802991176E-06 +2.02137905472E-05 +1.44777709593E-05 +3.22783837280E-05 -7.43589832122E-01 +6.32776597121E-01
1.02000000000E+09 -6.31113426052E-01 +7.30147360112E-01 +7.99792667943E-06 +7.50965150097E-06 +1.22096411573E-05 -9.77044220255E-06 -7.40248229601E-01 +6.36308231292E-01
1.02500000000E+09 -6.29017725273E-01 +7.32844043812E-01 -9.58413462468E-06 +7.30678699952E-05 -1.89324562959E-05 +1.44517126116E-06 -7.37418344361E-01 +6.39982544643E-01
1.03000000000E+09 -6.27586608658E-01 +7.35442166318E-01 -1.51222911886E-06 -4.53578943102E-06 -2.26712373604E-05 +3.98664328377E-06 -7.34086743447E-01 +6.43832321761E-01
1.03500000000E+09 -6.25389407391E-01 +7.37863290509E-01 -3.50901516601E-06 -8.43681300066E-06 +4.40091774590E-06 +1.84515333055E-05 -7.30164129349E-01 +6.47817809154E-01
1.04000000000E+09 -6.21829678152E-01 +7.40844666511E-01 +3.14895990907E-05 +1.86002029053E-05 -8.07218342611E-06 +3.75978897367E-05 -7.26296539024E-01 +6.51521447463E-01
1.04500000000E+09 -6.17177084471E-01 +7.44172791034E-01 +6.17246294970E-06 +3.36547052502E-05 -2.84853721674E-05 -3.87736294049E-05 -7.22849379480E-01 +6.54931174393E-01
1.05000000000E+09 -6.10606638385E-01 +7.48527856093E-01 -1.45195746753E-05 +4.64131484604E-05 -1.01223003055E-05 -2.94739148811E-06 -7.19448774615E-01 +6.58357071077E-01
1.05500000000E+09 -6.02754698907E-01 +7.53078933599E-01 -1.05301431909E-05 +1.08495724507E-05 +1.29815898399E-05 +1.89828354424E-05 -7.16293998810E-01 +6.61854369250E-01
1.06000000000E+09 -5.94139963648E-01 +7.58131896426E-01 -6.35635080703E-05 -4.13592141342E-07 +2.54345968486E-05 +2.92994664755E-06 -7.12809402854E-01 +6.65908000715E-01
1.06500000000E+09 -5.85928994927E-01 +7.63195793625E-01 +2.66323297543E-05 +1.58191770844E-05 +6.11306579705E-05 +4.02315818220E-05 -7.08972272529E-01 +6.69627523724E-01
1.07000000000E+09 -5.78638642989E-01 +7.67536589086E-01 -1.79345850743E-05 +3.77259290543E-05 -3.75318751113E-05 -1.72808967791E-05 -7.05053443658E-01 +6.73335642275E-01
1.07500000000E+09 -5.72683878216E-01 +7.71436579750E-01 +5.08791933941E-05 -8.14925048115E-07 +6.18404244732E-05 +4.32744323576E-05 -7.00858512762E-01 +6.77126321942E-01
1.08000000000E+09 -5.68362925111E-01 +7.74591038626E-01 +4.30004541602E-05 +4.07234448709E-05 +7.41461994364E-07 +4.75427864123E-05 -6.96755891926E-01 +6.80936491116E-01
1.08500000000E+09 -5.65717374284E-01 +7.77100944012E-01 +5.56759377013E-05 +4.31773566597E-05 +1.40982153233E-05 +4.33915048247E-05 -6.93046272516E-01 +6.84553576069E-01
1.09000000000E+09 -5.63610201453E-01 +7.79128016069E-01 +3.09832921759E-05 +3.88080209479E-05 -3.98569433192E-05 +5.04714989619E-05 -6.89405357353E-01 +6.88260350593E-01
1.09500000000E+09 -5.62031821737E-01 +7.81004979553E-01 +3.87108352462E-07 +3.33641706889E-05 +8.67073514139E-06 +2.84871962777E-05 -6.85759187855E-01 +6.92144657217E-01
1.10000000000E+09 -5.59267734951E-01 +7.83023666135E-01 +1.83401845377E-05 +5.03452195416E-05 +2.60538787393E-05 +3.53885648437E-05 -6.81762101589E-01 +6.95896867741E-01
1.10500000000E+09 -5.55766835691E-01 +7.85608568670E-01 +5.64307480596E-05 +2.73811100102E-05 +1.52465904133E-06 +3.98549977723E-05 -6.77444292947E-01 +6.99354128393E-01
1.11000000000E+09 -5.50350274843E-01 +7.88861471024E-01 -1.00615298305E-05 +2.01316640629E-05 +5.40839136320E-05 +5.07618260189E-05 -6.73308522901E-01 +7.02847046849E-01
1.11500000000E+09 -5.43818757717E-01 +7.92675280078E-01 +1.81974927096E-05 -8.14808963966E-06 +5.05879256565E-05 +7.32545258673E-05 -6.69417980394E-01 +7.06127010455E-01
1.12000000000E+09 -5.36310464240E-01 +7.96596918645E-01 +9.01389614248E-05 +2.35466143361E-05 +7.71601273730E-05 +5.21016259567E-05 -6.65345923316E-01 +7.09811132152E-01
1.12500000000E+09 -5.28513817832E-01 +8.00626836709E-01 +3.40642124820E-05 +2.95532944844E-05 +6.65935185594E-05 +3.99405218401E-05 -6.61146852150E-01 +7.13667253672E-01
1.13000000000E+09 -5.20984688577E-01 +8.04342754144E-01 +8.32464294145E-05 +5.37088271498E-05 +5.85600563541E-05 -1.62483092055E-06 -6.56798068063E-01 +7.17484144213E-01
1.13500000000E+09 -5.14469115132E-01 +8.07174094161E-01 +9.20094097280E-05 +3.02246601021E-05 +7.02473474290E-05 +5.73711073304E-05 -6.52058455121E-01 +7.21420604528E-01
1.14000000000E+09 -5.08832370886E-01 +8.09798453109E-01 +7.81304826759E-05 -1.97800899044E-05 +9.83665099895E-05 +2.90206709724E-05 -6.47337543221E-01 +7.24978471291E-01
1.14500000000E+09 -5.04563310011E-01 +8.11339211843E-01 +7.40269815945E-05 +1.05982353175E-05 +7.52266835930E-05 +7.31268714810E-06 -6.42696313059E-01 +7.28367300605E-01
1.15000000000E+09 -5.00789760227E-01 +8.13070129870E-01 +1.04057369775E-04 -8.71273980443E-06 +6.71972148829E-05 -2.69672498231E-05 -6.38101079472E-01 +7.32067377155E-01
1.15500000000E+09 -4.97100070848E-01 +8.15037667231E-01 +1.16153008642E-04 -2.25779977947E-05 +9.14910661713E-05 -8.76402669766E-06 -6.33442267974E-01 +7.36015045538E-01
1.16000000000E+09 -4.92718220322E-01 +8.17217001305E-01 +6.22552117690E-05 +5.18074799918E-06 +1.04652141040E-04 -6.62311910472E-06 -6.28740519602E-01 +7.39823062238E-01
1.16500000000E+09 -4.87514320564E-01 +8.19995764012E-01 +8.65803956671E-05 -1.16550757071E-05 +1.12444465550E-04 -5.46390221520E-06 -6.23695488588E-01 +7.43526558602E-01
1.17000000000E+09 -4.81216363502E-01 +8.23310680838E-01 +9.77084566957E-05 -8.41632132255E-06 +1.05080412805E-04 -3.11853525023E-06 -6.18283712241E-01 +7.46707096218E-01
1.17500000000E+09 -4.73902061801E-01 +8.26671522368E-01 +1.24721568943E-04 -4.69146552485E-05 +1.42100099455E-04 -3.77363322511E-05 -6.12672515251E-01 +7.50095512952E-01
1.18000000000E+09 -4.66441712815E-01 +8.30535142670E-01 +1.31658702106E-04 -9.42840115807E-05 +1.24632756394E-04 -6.48488786537E-05 -6.07281923768E-01 +7.53046995419E-01
1.18500000000E+09 -4.58770983701E-01 +8.33944362064E-01 +1.34014885543E-04 -6.32022670409E-05 +1.43576222120E-04 -8.98275478476E-05 -6.01491582411E-01 +7.56208472445E-01
1.19000000000E+09 -4.51399494854E-01 +8.36494597926E-01 +1.60163906831E-04 -1.19417331629E-04 +1.70064525121E-04 -1.16131940227E-04 -5.95410951682E-01 +7.58690530308E-01
1.19500000000E+09 -4.44917560622E-01 +8.38692638673E-01 +1.64157028130E-04 -2.05715578390E-04 +7.33346941189E-05 -2.30383668349E-04 -5.89603424547E-01 +7.59805590332E-01
1.20000000000E+09 -4.39554158642E-01 +8.39624204200E-01 +7.71432492957E-05 -2.48139020036E-04 +1.28894538461E-05 -2.67166064680E-04 -5.84980832382E-01 +7.60144670363E-01
1.20500000000E+09 -4.34671380268E-01 +8.40984989229E-01 -7.60180510917E-05 -1.98181456920E-04 -1.00891526514E-04 -1.98229084478E-04 -5.82531816070E-01 +7.61055913381E-01
1.21000000000E+09 -4.29800152228E-01 +8.42473161325E-01 -5.78550268254E-05 -1.19550737848E-04 -3.81864022395E-05 -9.76160784348E-05 -5.80710031610E-01 +7.64109949208E-01
1.21500000000E+09 -4.23951400969E-01 +8.44503821941E-01 -3.43864074741E-05 -9.63616285891E-05 +2.01793966226E-06 -1.19657220305E-04 -5.77869211571E-01 +7.68512673838E-01
1.22000000000E+09 -4.17126774645E-01 +8.46932779128E-01 +2.34396050524E-05 -1.49990179986E-04 +6.92974925641E-05 -1.51038324835E-04 -5.73814133533E-01 +7.73985575983E-01
1.22500000000E+09 -4.08858856652E-01 +8.50023864194E-01 -1.51887395237E-05 -1.43544660166E-04 -2.35482044017E-05 -1.56337075534E-04 -5.68728632807E-01 +7.79194263501E-01
1.23000000000E+09 -3.99791553605E-01 +8.53480396440E-01 -4.20598535392E-05 -1.45706377095E-04 -1.58857136808E-06 -1.97215300038E-04 -5.63002828888E-01 +7.83784417420E-01
1.23500000000E+09 -3.90436767995E-01 +8.57379166102E-01 -6.41846396698E-05 -1.56763195861E-04 -4.69456257970E-05 -1.47618780612E-04 -5.57176907712E-01 +7.88111935610E-01
1.24000000000E+09 -3.80924991710E-01 +8.61346730229E-01 -5.34226444059E-05 -1.82921381629E-04 -5.71473780400E-05 -1.85973045491E-04 -5.51329627767E-01 +7.91969061659E-01
1.24500000000E+09 -3.72232469052E-01 +8.65285265788E-01 -1.06789615930E-04 -1.79237749076E-04 -9.04276624590E-05 -1.88661823267E-04 -5.45065045867E-01 +7.95815135806E-01
1.25000000000E+09 -3.64198901682E-01 +8.68344496696E-01 -9.33075331628E-05 -1.68461465202E-04 -9.61238427024E-05 -1.74196802109E-04 -5.38692170508E-01 +8.00063306390E-01
1.25500000000E+09 -3.57293829513E-01 +8.70283181496E-01 -1.11338878167E-04 -1.74572444952E-04 -8.53873434440E-05 -1.87580058660E-04 -5.32123274215E-01 +8.04108573488E-01
1.26000000000E+09 -3.51040263716E-01 +8.71827855752E-01 -9.87068409145E-05 -1.72996704199E-04 -1.00292604361E-04 -2.13899652263E-04 -5.25316704352E-01 +8.08258979447E-01
1.26500000000E+09 -3.45140452456E-01 +8.72779873988E-01 -1.37582236764E-04 -2.36274136907E-04 -1.62676233736E-04 -2.60830477709E-04 -5.18464015913E-01 +8.12187069029E-01
1.27000000000E+09 -3.38777116606E-01 +8.74001482706E-01 -2.12132077043E-04 -1.96769357755E-04 -2.55767461428E-04 -2.26538712182E-04 -5.11554109801E-01 +8.15952064117E-01
1.27500000000E+09 -3.31131570950E-01 +8.75271267260E-01 -2.42516469038E-04 -2.14978863724E-04 -2.45199641155E-04 -1.76045235067E-04 -5.04418291162E-01 +8.19852987295E-01
1.28000000000E+09 -3.21941085622E-01 +8.77301679071E-01 -2.63604604079E-04 -1.20232740684E-04 -3.27470436317E-04 -1.68952520905E-04 -4.97272235261E-01 +8.23390728402E-01
1.28500000000E+09 -3.11066397398E-01 +8.79828826439E-01 -2.77911643234E-04 -1.32751987127E-04 -2.97928536452E-04 -1.68688546807E-04 -4.89896115910E-01 +8.27191399993E-01
1.29000000000E+09 -2.99264673123E-01 +8.82842858539E-01 -3.29333245490E-04 -1.32279824200E-04 -3.49474480463E-04 -1.58683910457E-04 -4.82146797761E-01 +8.30817148935E-01
1.29500000000E+09 -2.86988454229E-01 +8.86359616764E-01 -3.49373411090E-04 -1.52332630770E-04 -4.05219542043E-04 -1.13694538801E-04 -4.74483968755E-01 +8.34441456217E-01
1.30000000000E+09 -2.75158823705E-01 +8.90028180739E-01 -4.21876694121E-04 -1.06596114499E-04 -4.76384683272E-04 -2.49923223588E-05 -4.66656602769E-01 +8.38182708870E-01
1.30500000000E+09 -2.64388148996E-01 +8.92975378605E-01 -4.94758996875E-04 -6.17837468418E-05 -4.44492524806E-04 +1.98765082956E-05 -4.58456654891E-01 +8.41531391364E-01
1.31000000000E+09 -2.55101409086E-01 +8.95037332332E-01 -5.11539010477E-04 +4.88182148257E-05 -4.93720315915E-04 +4.40745402526E-05 -4.50119320000E-01 +8.45050651688E-01
1.31500000000E+09 -2.47472412715E-01 +8.96631823529E-01 -5.07668373414E-04 +1.47980509681E-04 -4.93888092045E-04 +1.58991385015E-04 -4.41370238783E-01 +8.48377659842E-01
1.32000000000E+09 -2.41391785333E-01 +8.97253099510E-01 -4.61771013462E-04 +1.82353186252E-04 -5.29744159999E-04 +1.42576247414E-04 -4.32502286065E-01 +8.51914359848E-01
1.32500000000E+09 -2.35440117629E-01 +8.97391613774E-01 -4.88143278696E-04 +1.95030217279E-04 -5.50283641029E-04 +2.13759593238E-04 -4.23021203189E-01 +8.55264143068E-01
1.33000000000E+09 -2.28466710118E-01 +8.97536599724E-01 -5.61843628477E-04 +2.35477196925E-04 -5.58671663238E-04 +3.13117480582E-04 -4.13558079811E-01 +8.58449299656E-01
1.33500000000E+09 -2.19677700915E-01 +8.97481946948E-01 -5.52595917495E-04 +3.67165617066E-04 -5.22291385773E-04 +4.23715114318E-04 -4.03686428713E-01 +8.61656294152E-01
1.34000000000E+09 -2.08531631955E-01 +8.97871230109E-01 -5.19754123025E-04 +4.57542418602E-04 -4.89437172440E-04 +5.03599551926E-04 -3.93569643397E-01 +8.64932683202E-01
1.34500000000E+09 -1.94867786456E-01 +8.98354702710E-01 -4.65178783985E-04 +5.99303026395E-04 -4.95934557896E-04 +5.99067873677E-04 -3.82669600257E-01 +8.68229858601E-01
1.35000000000E+09 -1.79327860864E-01 +8.99121978073E-01 -4.36511390459E-04 +6.80133933249E-04 -4.09143512699E-04 +6.54969463117E-04 -3.71483151620E-01 +8.71364747305E-01
1.35500000000E+09 -1.62495730238E-01 +9.00087279339E-01 -3.75404376010E-04 +6.96322731856E-04 -3.32369927487E-04 +7.00440099847E-04 -3.59931481541E-01 +8.74235069735E-01
1.36000000000E+09 -1.45772902773E-01 +9.00877606989E-01 -2.95835016710E-04 +7.93147751049E-04 -2.94050736125E-04 +7.72763437231E-04 -3.48124461165E-01 +8.76913490151E-01
1.36500000000E+09 -1.29840208488E-01 +9.01455264032E-01 -2.79571985228E-04 +8.31996546875E-04 -3.07646628301E-04 +8.56459791513E-04 -3.35982526056E-01 +8.79458571122E-01
1.37000000000E+09 -1.15493874892E-01 +9.01233577629E-01 -2.01147168872E-04 +1.00412402042E-03 -2.03995557406E-04 +9.49493350931E-04 -3.23211837353E-01 +8.81976897459E-01
1.37500000000E+09 -1.03244444947E-01 +9.00550051354E-01 +1.64180692664E-05 +1.06935503188E-03 -9.24269653959E-05 +1.05488407316E-03 -3.09313858660E-01 +8.84299520519E-01
1.38000000000E+09 -9.19199881934E-02 +8.99598190380E-01 +1.02413444891E-04 +1.07950590808E-03 -6.21517318487E-05 +1.14716297338E-03 -2.94678440404E-01 +8.86528987259E-01
1.38500000000E+09 -8.02827380914E-02 +8.98018747423E-01 +1.76144888298E-04 +1.19041605431E-03 +1.11870556132E-04 +1.32635485108E-03 -2.79178619887E-01 +8.88427601952E-01
1.39000000000E+09 -6.77600579240E-02 +8.95781006058E-01 +3.04646597659E-04 +1.26471839379E-03 +3.65093362298E-04 +1.41614620263E-03 -2.63233700521E-01 +8.89855688230E-01
1.39500000000E+09 -5.32461586793E-02 +8.93079735049E-01 +4.85028513255E-04 +1.31886363369E-03 +6.73287869034E-04 +1.36013600112E-03 -2.46799624244E-01 +8.90524327114E-01
1.40000000000E+09 -3.60825652061E-02 +8.89259952518E-01 +6.74935002372E-04 +1.39572946758E-03 +7.84680685358E-04 +1.33732229777E-03 -2.29410773017E-01 +8.91057774959E-01
1.40500000000E+09 -1.69752584821E-02 +8.84973967046E-01 +9.63169317824E-04 +1.45003075097E-03 +1.01699531877E-03 +1.33083165864E-03 -2.10900198402E-01 +8.91073223393E-01
1.41000000000E+09 +4.40636293401E-03 +8.80047517305E-01 +1.28143432975E-03 +1.37213857161E-03 +1.22268616223E-03 +1.36999911944E-03 -1.90643826021E-01 +8.90361269803E-01
1.41500000000E+09 +2.67073942285E-02 +8.74135717139E-01 +1.50306362872E-03 +1.28852273589E-03 +1.47209067849E-03 +1.39084292152E-03 -1.69147607816E-01 +8.88865855161E-01
1.42000000000E+09 +4.93575417444E-02 +8.67327770126E-01 +1.78121884740E-03 +1.17771624145E-03 +1.94847950325E-03 +1.32303879844E-03 -1.46215695834E-01 +8.86314365440E-01
1.42500000000E+09 +7.12871875399E-02 +8.59551241389E-01 +2.05571683040E-03 +1.13098267944E-03 +2.32566783459E-03 +1.12114471181E-03 -1.22688932392E-01 +8.82482437906E-01
1.43000000000E+09 +9.25331274726E-02 +8.50395373456E-01 +2.47600073047E-03 +1.04126471081E-03 +2.80095730899E-03 +8.95055138159E-04 -9.81572044792E-02 +8.77958905276E-01
1.43500000000E+09 +1.13416802953E-01 +8.39636366096E-01 +3.09430524528E-03 +5.46882177422E-04 +3.22292292259E-03 +3.01306895034E-04 -7.19808542186E-02 +8.71326077930E-01
1.44000000000E+09 +1.34544257801E-01 +8.27781196567E-01 +3.32975231599E-03 -1.47407295276E-04 +3.35784025847E-03 -3.72257731284E-04 -4.38672140008E-02 +8.62868048710E-01
1.44500000000E+09 +1.57880820449E-01 +8.12784356544E-01 +3.33961707415E-03 -6.76499300903E-04 +3.34664075403E-03 -8.39123149686E-04 -1.37196563532E-02 +8.51512372334E-01
1.45000000000E+09 +1.82782660216E-01 +7.94491014933E-01 +3.27720827278E-03 -1.15810405358E-03 +3.27991136002E-03 -1.40747766296E-03 +1.78218435726E-02 +8.37249386067E-01
1.45500000000E+09 +2.10083620031E-01 +7.72302833307E-01 +3.46506569202E-03 -1.36009226687E-03 +3.36555027515E-03 -1.70625687578E-03 +5.11296015278E-02 +8.20128236468E-01
1.46000000000E+09 +2.39996162518E-01 +7.46308843122E-01 +3.96780462629E-03 -2.06206349577E-03 +3.57324320463E-03 -2.31229563538E-03 +8.57933344339E-02 +7.98407828518E-01
1.46500000000E+09 +2.71368126459E-01 +7.15455892946E-01 +4.25762388749E-03 -3.10275752661E-03 +3.76877383886E-03 -3.10938916987E-03 +1.21517665771E-01 +7.72091619309E-01
1.47000000000E+09 +3.03221864621E-01 +6.79666210753E-01 +4.06915712737E-03 -4.72029883412E-03 +3.71894971877E-03 -4.35656114576E-03 +1.58484259534E-01 +7.38725383777E-01
1.47500000000E+09 +3.33844828038E-01 +6.38546793111E-01 +3.04764651069E-03 -6.13676065406E-03 +3.16331407000E-03 -5.76382008659E-03 +1.95185529816E-01 +6.98289853080E-01
1.48000000000E+09 +3.62082397318E-01 +5.91208347273E-01 +1.85591708461E-03 -7.08624567682E-03 +2.09195803783E-03 -7.07277406965E-03 +2.31758541578E-01 +6.49351840723E-01
1.48500000000E+09 +3.85319995446E-01 +5.36811007971E-01 +5.79605042389E-04 -7.96397407554E-03 +4.96200944016E-04 -8.19585119453E-03 +2.65505585633E-01 +5.91598929980E-01
1.49000000000E+09 +4.03042799131E-01 +4.75020827586E-01 -1.05375559724E-03 -8.85674307660E-03 -1.48114439457E-03 -8.80387355307E-03 +2.94492373766E-01 +5.22938012942E-01
1.49500000000E+09 +4.12487453358E-01 +4.04696226192E-01 -3.54199301600E-03 -9.20126464417E-03 -3.77485866075E-03 -8.61851553167E-03 +3.13138038042E-01 +4.44456978733E-01
1.50000000000E+09 +4.11995026822E-01 +3.25504835380E-01 -6.27279684540E-03 -9.20738942065E-03 -5.92664152584E-03 -8.65057641041E-03 +3.19694278076E-01 +3.56860708470E-01
1.50500000000E+09 +3.97657826298E-01 +2.37920799775E-01 -9.23680958720E-03 -7.79105946666E-03 -8.60826356301E-03 -7.74410721513E-03 +3.10976777942E-01 +2.60891327390E-01
1.51000000000E+09 +3.67083681974E-01 +1.46190555317E-01 -1.16216174746E-02 -4.91338262283E-03 -1.12947319877E-02 -5.25074482549E-03 +2.80895985529E-01 +1.58775908951E-01
1.51500000000E+09 +3.16893032562E-01 +5.39586089162E-02 -1.28724152945E-02 -2.36849378441E-03 -1.28706463561E-02 -2.70973461194E-03 +2.26511980124E-01 +6.22300926380E-02
1.52000000000E+09 +2.45885939197E-01 -2.88370348743E-02 -1.44905911646E-02 +1.16696354727E-03 -1.46151494669E-02 +9.85501785992E-04 +1.52810630689E-01 -2.44309014600E-02
1.52500000000E+09 +1.57566105339E-01 -9.63653597615E-02 -1.37626495045E-02 +6.77946047243E-03 -1.39225175576E-02 +6.70497486227E-03 +5.95704176454E-02 -9.47078015474E-02
1.53000000000E+09 +5.65367443330E-02 -1.41967340332E-01 -9.75133605142E-03 +9.97526239366E-03 -9.83910581365E-03 +9.94367759778E-03 -4.67500375518E-02 -1.41298290041E-01
1.53500000000E+09 -5.18058061811E-02 -1.64429018123E-01 -6.96094861438E-03 +1.16545507691E-02 -6.96062132528E-03 +1.15816076011E-02 -1.57997192274E-01 -1.63831770835E-01
1.54000000000E+09 -1.63199613501E-01 -1.60197512807E-01 -3.37592125605E-03 +1.22371810139E-02 -3.43290132206E-03 +1.20348289704E-02 -2.67053772385E-01 -1.62469474425E-01
1.54500000000E+09 -2.65742358761E-01 -1.32397392975E-01 -9.83039971691E-05 +1.22301296732E-02 -4.33786115715E-04 +1.20977314095E-02 -3.66544173653E-01 -1.41909234799E-01
1.55000000000E+09 -3.57742797449E-01 -8.84057250218E-02 +2.39742653999E-03 +1.12473782407E-02 +1.94513665726E-03 +1.13861809384E-02 -4.54482282824E-01 -1.05556442506E-01
1.55500000000E+09 -4.35308001916E-01 -3.19127122906E-02 +5.48013080987E-03 +9.91320414613E-03 +5.14347966583E-03 +1.04524599308E-02 -5.26966701232E-01 -5.82443702941E-02
1.56000000000E+09 -4.96605548580E-01 +2.80929873451E-02 +7.26928938566E-03 +6.70151633278E-03 +7.32967798290E-03 +7.28900343758E-03 -5.85840581297E-01 -4.87203201700E-03
1.56500000000E+09 -5.45064182712E-01 +8.87663318687E-02 +6.99488414035E-03 +4.54263487311E-03 +7.36131146727E-03 +4.95535203202E-03 -6.30697746885E-01 +5.14191280411E-02
1.57000000000E+09 -5.81392609496E-01 +1.47332913825E-01 +6.95907457618E-03 +2.95840960803E-03 +7.42098617708E-03 +3.14141918436E-03 -6.64838874896E-01 +1.05903467798E-01
