# Hz S RI R 50
! CMT, C1220, 16058040, 17.2.0/1
! Date: 15/08/2018 10:08:19
! Data: Format (Calibration Info)
! Freq                      S11: Re/Im (F2)                       S21: Re/Im (F2)                       S12: Re/Im (F2)                       S22: Re/Im (F2)            
2.50000000000E+09 +5.98301133883E-01 +6.32882592991E-01 -4.57828994250E-04 -1.61756885741E-04 -5.24783441166E-04 -2.23106232756E-04 +5.72738552939E-01 +7.16847226616E-01
2.50500000000E+09 +6.04592596399E-01 +6.25356135438E-01 -4.36300302823E-04 -2.38772508609E-04 -4.65355171484E-04 -2.02823510915E-04 +5.78480786432E-01 +7.11387358877E-01
2.51000000000E+09 +6.11086081312E-01 +6.17290711903E-01 -4.70319507084E-04 -2.13243518714E-04 -4.85600242528E-04 -1.95531720109E-04 +5.84139536234E-01 +7.06207169272E-01
2.51500000000E+09 +6.17294970353E-01 +6.09119863866E-01 -5.74207691527E-04 -2.03856300887E-04 -5.63535318158E-04 -1.69427021022E-04 +5.89475014107E-01 +7.00746412498E-01
2.52000000000E+09 +6.22902847519E-01 +6.00997023664E-01 -6.20138915144E-04 -3.50816534301E-05 -6.41906854651E-04 -6.78614835166E-05 +5.94629530717E-01 +6.94938410998E-01
2.52500000000E+09 +6.27695028051E-01 +5.93370258943E-01 -6.27527231267E-04 +9.46790799723E-05 -5.97233175828E-04 +3.14838306698E-05 +6.00384974577E-01 +6.88430449168E-01
2.53000000000E+09 +6.32087179271E-01 +5.86353217681E-01 -5.10331001397E-04 +7.32838651008E-05 -5.43466176965E-04 +1.13452907017E-04 +6.06373340240E-01 +6.81320954321E-01
2.53500000000E+09 +6.36344290016E-01 +5.79901503464E-01 -5.87777666200E-04 +6.37361276994E-05 -5.64376667527E-04 +1.93897994049E-05 +6.12460390648E-01 +6.74696416903E-01
2.54000000000E+09 +6.40231909332E-01 +5.73691361326E-01 -6.54500393172E-04 +9.57702435113E-05 -6.43105156468E-04 +2.04283410793E-05 +6.18597284883E-01 +6.67785800499E-01
2.54500000000E+09 +6.44481984428E-01 +5.67780161977E-01 -7.23390227979E-04 +2.72972342708E-04 -7.12022699061E-04 +2.26863822001E-04 +6.24313493804E-01 +6.61403726626E-01
2.55000000000E+09 +6.49080643295E-01 +5.61759039576E-01 -5.64488210848E-04 +3.86028976843E-04 -6.57811810208E-04 +3.66018301299E-04 +6.29748046612E-01 +6.55059405159E-01
2.55500000000E+09 +6.54241387218E-01 +5.54951991875E-01 -5.02625450812E-04 +4.26360170292E-04 -5.62680667191E-04 +4.65420867767E-04 +6.34864098366E-01 +6.48439807065E-01
2.56000000000E+09 +6.60043945405E-01 +5.48163482323E-01 -4.40413750653E-04 +3.97605883049E-04 -4.73915486575E-04 +5.00116567122E-04 +6.40093586067E-01 +6.41430214606E-01
2.56500000000E+09 +6.66195252949E-01 +5.40093361736E-01 -4.18538094160E-04 +3.25829068071E-04 -4.06099409777E-04 +4.40838014489E-04 +6.45574021676E-01 +6.33763203985E-01
2.57000000000E+09 +6.72489767390E-01 +5.31804508499E-01 -5.89658440226E-04 +4.05961963189E-04 -5.43490950478E-04 +4.92672383785E-04 +6.50950053575E-01 +6.25642364702E-01
2.57500000000E+09 +6.78341037533E-01 +5.22777409783E-01 -6.65330744331E-04 +6.49752378675E-04 -4.46753048824E-04 +6.71466731762E-04 +6.56493061355E-01 +6.18035877368E-01
2.58000000000E+09 +6.83335260235E-01 +5.14137754116E-01 -4.02195617375E-04 +7.72637951121E-04 -3.11340484832E-04 +6.64942389584E-04 +6.61554004556E-01 +6.10512555390E-01
2.58500000000E+09 +6.88299637353E-01 +5.05455423372E-01 -3.06560989908E-04 +7.99783625113E-04 -3.12207231778E-04 +6.90270994823E-04 +6.66357453556E-01 +6.02932217115E-01
2.59000000000E+09 +6.92587955754E-01 +4.97028860840E-01 -1.19911453821E-04 +8.51379950517E-04 -1.71822087874E-04 +7.87246647141E-04 +6.71088174532E-01 +5.95444373290E-01
2.59500000000E+09 +6.96679164489E-01 +4.88911259048E-01 -2.10146083961E-05 +7.54825658241E-04 -9.78845248413E-05 +7.68115895052E-04 +6.75908858137E-01 +5.87336398564E-01
2.60000000000E+09 +7.00613321088E-01 +4.80520417955E-01 -3.02017104020E-05 +7.57653445059E-04 -1.59358936732E-05 +8.07486474849E-04 +6.80892849673E-01 +5.78964677181E-01
2.60500000000E+09 +7.04847874694E-01 +4.71499779109E-01 +1.81997729498E-05 +7.91025811935E-04 -1.20036811546E-05 +8.09107832490E-04 +6.86153890136E-01 +5.70093701609E-01
2.61000000000E+09 +7.09066430096E-01 +4.61421210420E-01 +1.22904345391E-04 +8.75068713625E-04 +8.66194655445E-05 +8.57694765430E-04 +6.91142375056E-01 +5.61334163204E-01
2.61500000000E+09 +7.13576423514E-01 +4.50503043862E-01 +3.07654348366E-04 +8.54024428515E-04 +3.12823606386E-04 +8.99227695187E-04 +6.96056735913E-01 +5.52609646511E-01
2.62000000000E+09 +7.17728153263E-01 +4.38541531901E-01 +4.34035251809E-04 +6.55049960198E-04 +4.57996992593E-04 +7.03063340015E-04 +7.00622240483E-01 +5.43508333898E-01
2.62500000000E+09 +7.21717171085E-01 +4.25657345767E-01 +3.62815837678E-04 +6.13641757807E-04 +4.38339727691E-04 +5.82026237583E-04 +7.05347639604E-01 +5.34829064544E-01
2.63000000000E+09 +7.25274179819E-01 +4.12449751653E-01 +3.76309653556E-04 +6.57181404636E-04 +4.46214477014E-04 +5.57245535422E-04 +7.10289338315E-01 +5.25783515276E-01
2.63500000000E+09 +7.28369159130E-01 +3.99318399205E-01 +3.47178910764E-04 +6.24617666611E-04 +3.90813485903E-04 +5.24740194898E-04 +7.15069961795E-01 +5.16319007718E-01
2.64000000000E+09 +7.31157611130E-01 +3.86542828747E-01 +4.40416178282E-04 +7.11648745610E-04 +4.03510249836E-04 +5.82223451798E-04 +7.19820047444E-01 +5.06533270554E-01
2.64500000000E+09 +7.33801140986E-01 +3.74518576452E-01 +6.38964932855E-04 +6.38074621967E-04 +4.71484062621E-04 +6.05200575441E-04 +7.24325050143E-01 +4.96743181283E-01
2.65000000000E+09 +7.36236891912E-01 +3.62885460324E-01 +6.00008390679E-04 +5.48321585544E-04 +5.24468316637E-04 +5.73222191323E-04 +7.28507034172E-01 +4.86949625647E-01
2.65500000000E+09 +7.38437135244E-01 +3.51130165932E-01 +6.46106534822E-04 +5.39406061171E-04 +5.90893117758E-04 +5.88559236096E-04 +7.32825701706E-01 +4.76769114849E-01
2.66000000000E+09 +7.40499575128E-01 +3.39503795116E-01 +7.17685160209E-04 +4.95585638200E-04 +7.74964307716E-04 +5.71098286353E-04 +7.37116956297E-01 +4.65432623992E-01
2.66500000000E+09 +7.42831963975E-01 +3.28114616613E-01 +6.38779060648E-04 +5.72973715962E-04 +7.26121245539E-04 +5.63019424419E-04 +7.41234161127E-01 +4.54052937088E-01
2.67000000000E+09 +7.44779787610E-01 +3.15514678406E-01 +1.02895788743E-03 +6.77106047749E-04 +9.97016550040E-04 +6.04760430082E-04 +7.45458428146E-01 +4.43009732818E-01
2.67500000000E+09 +7.45945646607E-01 +3.02317813745E-01 +1.20984719944E-03 +2.93740823609E-04 +1.17422814802E-03 +2.70666124462E-04 +7.49391559368E-01 +4.31770374701E-01
2.68000000000E+09 +7.46851239161E-01 +2.88992324323E-01 +1.13217474340E-03 +2.98817689841E-05 +1.07213944910E-03 +5.29505180617E-05 +7.53261404919E-01 +4.20690291550E-01
2.68500000000E+09 +7.47185394034E-01 +2.75009180718E-01 +1.07907813484E-03 -1.06053200755E-05 +1.07263867265E-03 -2.37125349190E-06 +7.56347870246E-01 +4.08975374288E-01
2.69000000000E+09 +7.46763754610E-01 +2.61253701442E-01 +1.03657281627E-03 +1.33747032427E-05 +1.07322699172E-03 +4.55373844082E-05 +7.58985749926E-01 +3.96850153457E-01
2.69500000000E+09 +7.46504245759E-01 +2.48255868979E-01 +1.25149814283E-03 -7.31584412539E-05 +1.21358358406E-03 -5.82131751642E-05 +7.61679856817E-01 +3.84011480322E-01
2.70000000000E+09 +7.46509303790E-01 +2.35401183461E-01 +1.36730550043E-03 -2.39349129339E-04 +1.34601104758E-03 -2.27457316290E-04 +7.64180247041E-01 +3.70714074961E-01
2.70500000000E+09 +7.46837693017E-01 +2.22821014893E-01 +1.35343072627E-03 -6.31996855924E-04 +1.30560213446E-03 -5.98745675801E-04 +7.67107236414E-01 +3.57362737753E-01
2.71000000000E+09 +7.47658605812E-01 +2.10058777866E-01 +1.15767087640E-03 -8.21246314698E-04 +1.17703105923E-03 -7.50735362363E-04 +7.70021112306E-01 +3.43967875932E-01
2.71500000000E+09 +7.49091965703E-01 +1.96611279536E-01 +1.01229894917E-03 -1.03326020660E-03 +1.11972680162E-03 -1.05817811788E-03 +7.72173218086E-01 +3.31135437471E-01
2.72000000000E+09 +7.50120684570E-01 +1.82742935057E-01 +6.96807420294E-04 -9.94861923135E-04 +6.85298984358E-04 -1.09822722629E-03 +7.74024357008E-01 +3.18426427733E-01
2.72500000000E+09 +7.51148404902E-01 +1.67640040980E-01 +6.50375865654E-04 -9.68107818008E-04 +5.67610765269E-04 -1.04789154872E-03 +7.75107294777E-01 +3.05092512997E-01
2.73000000000E+09 +7.51253292534E-01 +1.51353164588E-01 +5.75655504866E-04 -9.81508702704E-04 +4.07455464532E-04 -9.44385242094E-04 +7.76498077437E-01 +2.91291791959E-01
2.73500000000E+09 +7.49661594332E-01 +1.34005446273E-01 +4.62949715774E-04 -9.94672942817E-04 +4.20276444358E-04 -8.33958828769E-04 +7.77596314751E-01 +2.76130789590E-01
2.74000000000E+09 +7.46854845780E-01 +1.17577644665E-01 +5.80546432270E-04 -1.00218314018E-03 +5.86993744264E-04 -8.74671727900E-04 +7.78635631509E-01 +2.60669678596E-01
2.74500000000E+09 +7.43212224477E-01 +1.01066132519E-01 +5.17807955818E-04 -1.14789520969E-03 +6.29492714596E-04 -1.09103497864E-03 +7.79626291768E-01 +2.45737621337E-01
2.75000000000E+09 +7.39082545176E-01 +8.47061692218E-02 +3.38500369303E-04 -1.42498262647E-03 +5.32196061225E-04 -1.40117018947E-03 +7.80107390910E-01 +2.30688405892E-01
2.75500000000E+09 +7.34525133812E-01 +6.85504677657E-02 +1.34080457667E-04 -1.30157983896E-03 +2.39362020992E-04 -1.42650512280E-03 +7.80227050777E-01 +2.15644046874E-01
2.76000000000E+09 +7.30214863712E-01 +5.25209895922E-02 +1.42286357655E-04 -1.32676202640E-03 +1.87924384763E-04 -1.41186770211E-03 +7.79573631642E-01 +1.99778383473E-01
2.76500000000E+09 +7.25516309433E-01 +3.60749203311E-02 +2.12394922372E-05 -1.49984110653E-03 -8.15386002216E-06 -1.62078670561E-03 +7.78001795251E-01 +1.82630250286E-01
2.77000000000E+09 +7.21345012031E-01 +1.89513297111E-02 -2.50035592700E-04 -1.50758243957E-03 -2.02988051567E-04 -1.55657886893E-03 +7.76156421322E-01 +1.65789280394E-01
2.77500000000E+09 +7.17302932869E-01 +8.05230574892E-04 -3.44590550078E-04 -1.56683138256E-03 -4.54263066610E-04 -1.61793172715E-03 +7.74351405820E-01 +1.47720268729E-01
2.78000000000E+09 +7.12724530325E-01 -1.89226794508E-02 -6.49704027834E-04 -1.65125101662E-03 -7.81536199118E-04 -1.65389672286E-03 +7.72030253457E-01 +1.29858816792E-01
2.78500000000E+09 +7.06506648309E-01 -3.95617476755E-02 -9.81996003593E-04 -1.37366477080E-03 -1.04463738711E-03 -1.34439665744E-03 +7.69145160094E-01 +1.12458629397E-01
2.79000000000E+09 +6.99505925695E-01 -6.07552833776E-02 -9.95462561731E-04 -1.32029924321E-03 -9.85014412193E-04 -1.22179232901E-03 +7.65668290341E-01 +9.52946150681E-02
2.79500000000E+09 +6.90507173740E-01 -8.16157614749E-02 -1.25178811020E-03 -1.47968221804E-03 -1.17283412224E-03 -1.40474014090E-03 +7.61399770412E-01 +7.77451918803E-02
2.80000000000E+09 +6.80779529400E-01 -1.01805303752E-01 -1.58966354247E-03 -1.05042964184E-03 -1.51767883823E-03 -1.04240465389E-03 +7.56539090774E-01 +5.97438533482E-02
2.80500000000E+09 +6.69985460382E-01 -1.20933404880E-01 -1.63626195922E-03 -9.13646864663E-04 -1.56505767237E-03 -9.66582533726E-04 +7.50817294867E-01 +4.08524560369E-02
2.81000000000E+09 +6.58552885696E-01 -1.39105953636E-01 -1.84624426589E-03 -6.16412464935E-04 -1.88113177054E-03 -6.51510756928E-04 +7.44220261705E-01 +2.18565741961E-02
2.81500000000E+09 +6.45972515129E-01 -1.56773444561E-01 -1.78183868564E-03 -2.83125060357E-04 -1.85353140759E-03 -2.03396423280E-04 +7.37354497268E-01 +2.67359206075E-03
2.82000000000E+09 +6.32500277025E-01 -1.73711100010E-01 -1.77818305355E-03 -3.23470040442E-04 -1.81266194704E-03 -2.02339670118E-04 +7.29639945539E-01 -1.66084904393E-02
2.82500000000E+09 +6.18283737967E-01 -1.90362706533E-01 -2.09522267306E-03 +1.50646703720E-05 -2.02317127873E-03 +6.19405235626E-05 +7.21230888248E-01 -3.61260996603E-02
2.83000000000E+09 +6.03065454890E-01 -2.08277424572E-01 -2.02546040213E-03 +7.08991907150E-04 -1.92608465223E-03 +6.71518250924E-04 +7.11877621112E-01 -5.53900124635E-02
2.83500000000E+09 +5.85101879437E-01 -2.26961053598E-01 -1.61544139984E-03 +1.09292779363E-03 -1.60308407431E-03 +9.63532248456E-04 +7.02157793247E-01 -7.54378534894E-02
2.84000000000E+09 +5.64934579551E-01 -2.45006670486E-01 -1.09504447054E-03 +1.24125419756E-03 -1.13324641407E-03 +1.22402771448E-03 +6.90754011768E-01 -9.64235515508E-02
2.84500000000E+09 +5.43133276220E-01 -2.63032763169E-01 -6.53462864805E-04 +8.40707248633E-04 -6.59398882381E-04 +8.31827522184E-04 +6.78007827363E-01 -1.16922549398E-01
2.85000000000E+09 +5.19810743934E-01 -2.80743453831E-01 -9.23339559375E-04 +5.78614121823E-04 -9.40150874137E-04 +6.79547130304E-04 +6.64646641973E-01 -1.37282012523E-01
2.85500000000E+09 +4.95829206152E-01 -2.97973494649E-01 -1.02149905011E-03 +1.03480551425E-03 -1.03616444714E-03 +1.07237827425E-03 +6.49793242967E-01 -1.57866597573E-01
2.86000000000E+09 +4.70787438480E-01 -3.15022978433E-01 -5.80772918396E-04 +1.04128606723E-03 -5.29814069461E-04 +1.06668439151E-03 +6.33349966519E-01 -1.78170862420E-01
2.86500000000E+09 +4.44961750890E-01 -3.30683071075E-01 -4.96812665200E-04 +8.54256909221E-04 -4.97924389904E-04 +8.10325692815E-04 +6.15647172397E-01 -1.98017438030E-01
2.87000000000E+09 +4.18842995472E-01 -3.44754011403E-01 -5.73474389374E-04 +9.17981911871E-04 -5.65902982353E-04 +1.00355043741E-03 +5.97250674468E-01 -2.16817609767E-01
2.87500000000E+09 +3.93629548007E-01 -3.57407261348E-01 -4.63257268071E-04 +8.70083560566E-04 -4.57693328409E-04 +8.59855005224E-04 +5.78818503251E-01 -2.36484631144E-01
2.88000000000E+09 +3.67701866634E-01 -3.69854687413E-01 -4.55426654695E-04 +8.96244364734E-04 -3.45134056127E-04 +8.48614939584E-04 +5.57870343539E-01 -2.56666024337E-01
2.88500000000E+09 +3.40966568285E-01 -3.81011298635E-01 -2.74661202911E-04 +9.03283204975E-04 -2.59401080779E-04 +8.17567459217E-04 +5.34399048514E-01 -2.75156696152E-01
2.89000000000E+09 +3.12403635509E-01 -3.90684043230E-01 -4.04960913727E-04 +4.70754882738E-04 -3.85087881254E-04 +3.83035298177E-04 +5.10113428552E-01 -2.92800553671E-01
2.89500000000E+09 +2.82386120932E-01 -3.98693871409E-01 -7.44066386229E-04 +7.55455902248E-04 -7.45759918744E-04 +6.42882423990E-04 +4.83074271622E-01 -3.10575067833E-01
2.90000000000E+09 +2.49959389004E-01 -4.04233989424E-01 -9.44541516006E-04 +9.24292112690E-04 -1.03914278723E-03 +9.52502111147E-04 +4.54875321998E-01 -3.26330753385E-01
2.90500000000E+09 +2.16238464390E-01 -4.06909370963E-01 -8.15135193186E-04 +1.61134746008E-03 -8.61527542082E-04 +1.60536975200E-03 +4.26152547859E-01 -3.42230934730E-01
2.91000000000E+09 +1.81597886211E-01 -4.07301850478E-01 -7.02077064997E-05 +1.70471915515E-03 -4.87096308651E-05 +1.67346353906E-03 +3.95348198095E-01 -3.57075222062E-01
2.91500000000E+09 +1.46403057904E-01 -4.05234261887E-01 -1.57168366690E-04 +1.28295456359E-03 -2.07800224377E-04 +1.23743816281E-03 +3.62881531009E-01 -3.69387552869E-01
2.92000000000E+09 +1.10845571583E-01 -4.00833898312E-01 -3.38640814481E-04 +1.84943315374E-03 -3.48567397200E-04 +1.72320426989E-03 +3.29928570992E-01 -3.79566389280E-01
2.92500000000E+09 +7.51197312776E-02 -3.95422380057E-01 +4.49561818328E-04 +1.71789860444E-03 +3.03726367785E-04 +1.62661869756E-03 +2.94301453896E-01 -3.88238497134E-01
2.93000000000E+09 +3.92106710037E-02 -3.87067100326E-01 +2.97893588336E-04 +1.48081104145E-03 +1.46280124822E-04 +1.49068621538E-03 +2.57346323953E-01 -3.94929737812E-01
2.93500000000E+09 +3.35403912206E-03 -3.76934737352E-01 +5.25102090307E-04 +1.75695029463E-03 +4.75731219743E-04 +1.77206261528E-03 +2.18535250785E-01 -3.99679361618E-01
2.94000000000E+09 -3.18373548655E-02 -3.63817975874E-01 +5.25719945623E-04 +1.65736424763E-03 +5.05349606198E-04 +1.74361712430E-03 +1.79310893004E-01 -4.01096205192E-01
2.94500000000E+09 -6.57989089292E-02 -3.48456428442E-01 +1.14781960776E-03 +2.10865035369E-03 +1.06185899563E-03 +2.14700174323E-03 +1.41472006247E-01 -4.02017006187E-01
2.95000000000E+09 -9.87254324823E-02 -3.30679283729E-01 +1.75381370607E-03 +1.38311941368E-03 +1.71840347631E-03 +1.46215943373E-03 +1.00764417658E-01 -4.01255605828E-01
2.95500000000E+09 -1.30646793515E-01 -3.09622162051E-01 +1.57067427204E-03 +1.12696289326E-03 +1.54692971836E-03 +1.20112180257E-03 +5.92567860745E-02 -3.95059427078E-01
2.96000000000E+09 -1.60864868466E-01 -2.86436400777E-01 +1.92633579027E-03 +8.28250331800E-04 +1.97415940693E-03 +8.53469401563E-04 +1.89723168453E-02 -3.85258976656E-01
2.96500000000E+09 -1.90363737305E-01 -2.60375130730E-01 +1.55046043993E-03 +2.42245892735E-04 +1.68639979851E-03 +2.07649992963E-04 -2.13997412235E-02 -3.72496644230E-01
2.97000000000E+09 -2.17556966607E-01 -2.30040999649E-01 +1.06225183076E-03 +4.53661734149E-04 +1.15187684577E-03 +4.62198859148E-04 -6.02233643622E-02 -3.58163959726E-01
2.97500000000E+09 -2.41119445784E-01 -1.98595349149E-01 +1.30555192834E-03 +8.28641521885E-04 +1.29526175273E-03 +7.54323241853E-04 -1.00115918592E-01 -3.42394671443E-01
2.98000000000E+09 -2.63078668198E-01 -1.66423783520E-01 +1.71282137020E-03 +1.01527378143E-03 +1.74183540503E-03 +9.63526321392E-04 -1.39577428953E-01 -3.23177536161E-01
2.98500000000E+09 -2.83653291404E-01 -1.33563636040E-01 +2.38808670463E-03 +6.05858484144E-04 +2.38067779685E-03 +7.28135918501E-04 -1.77792144909E-01 -2.98846831630E-01
2.99000000000E+09 -3.02703571632E-01 -9.92506212252E-02 +2.42945163723E-03 -3.88121692460E-04 +2.55544687897E-03 -3.85939340243E-04 -2.11677554721E-01 -2.72639730710E-01
2.99500000000E+09 -3.19153279297E-01 -6.40715294841E-02 +1.71471435772E-03 -5.37150952773E-04 +1.77139471844E-03 -6.31353899911E-04 -2.45607680052E-01 -2.44269518962E-01
3.00000000000E+09 -3.32624085424E-01 -2.84619828232E-02 +1.81902264471E-03 -3.65206266343E-05 +1.74925912037E-03 -1.77649867773E-04 -2.77337560294E-01 -2.12596863585E-01
3.00500000000E+09 -3.43291067743E-01 +5.76729225822E-03 +2.29444357329E-03 -4.55542864775E-04 +2.11786905311E-03 -5.01455127771E-04 -3.06624123347E-01 -1.78733563703E-01
3.01000000000E+09 -3.51637124311E-01 +3.94725143864E-02 +2.40117906137E-03 -9.02553625878E-04 +2.24010575093E-03 -8.04733866804E-04 -3.33732122269E-01 -1.43350450099E-01
3.01500000000E+09 -3.57748135448E-01 +7.29286892299E-02 +2.30042318204E-03 -1.50437502751E-03 +2.30561415233E-03 -1.45915991974E-03 -3.56868337617E-01 -1.06419429122E-01
3.02000000000E+09 -3.60510182598E-01 +1.06256059540E-01 +1.45339768095E-03 -2.15846484199E-03 +1.68123400730E-03 -2.12523007976E-03 -3.77495809265E-01 -6.94992776828E-02
3.02500000000E+09 -3.59757716233E-01 +1.39094978362E-01 +1.39075669834E-03 -1.63313137679E-03 +1.39769975120E-03 -1.67057926717E-03 -3.96179207990E-01 -2.97627287029E-02
3.03000000000E+09 -3.55802489092E-01 +1.70893534879E-01 +1.40145728738E-03 -2.21644888340E-03 +1.44406911945E-03 -2.19059228983E-03 -4.10227398045E-01 +1.20662103698E-02
3.03500000000E+09 -3.49149999919E-01 +2.01308905873E-01 +9.27985984283E-04 -2.67462062659E-03 +9.28866627800E-04 -2.66689364409E-03 -4.20203782971E-01 +5.31383620962E-02
3.04000000000E+09 -3.40973823111E-01 +2.30943348192E-01 -2.17165811836E-04 -2.66982222302E-03 -1.37975282098E-04 -2.66646761744E-03 -4.27542630378E-01 +9.37093290622E-02
3.04500000000E+09 -3.31129536806E-01 +2.60427671154E-01 -3.65728610189E-04 -1.74279656528E-03 -3.37629410240E-04 -1.83975268122E-03 -4.32767268469E-01 +1.33147692631E-01
3.05000000000E+09 -3.19551055059E-01 +2.89764020096E-01 -2.99687110555E-05 -1.47710624460E-03 -9.38541350888E-05 -1.54336471912E-03 -4.36828523963E-01 +1.72842435985E-01
3.05500000000E+09 -3.05820782656E-01 +3.18284450288E-01 +3.34809970423E-04 -1.78865546742E-03 +2.72379566949E-04 -1.91241142229E-03 -4.36294357679E-01 +2.13579469995E-01
3.06000000000E+09 -2.90928536472E-01 +3.45049231394E-01 -1.96946942915E-05 -2.70415836069E-03 -1.16269422046E-04 -2.56028064804E-03 -4.32845174324E-01 +2.51070565170E-01
3.06500000000E+09 -2.75893194352E-01 +3.70232106234E-01 -1.41259892525E-03 -2.47187091294E-03 -1.30046315234E-03 -2.34591846961E-03 -4.28017362042E-01 +2.87871164402E-01
3.07000000000E+09 -2.60475725167E-01 +3.93989684234E-01 -1.77682505337E-03 -1.40416820915E-03 -1.65495551305E-03 -1.53875593445E-03 -4.21832810005E-01 +3.22672851770E-01
