# Hz S RI R 50
! CMT, C1220, 16058040, 17.2.0/1
! Date: 15/08/2018 10:31:04
! Data: Format (Calibration Info)
! Freq                      S11: Re/Im (F2)                       S21: Re/Im (F2)                       S12: Re/Im (F2)                       S22: Re/Im (F2)            
2.50000000000E+09 +5.78733489186E-01 +6.65828197623E-01 -3.44120806461E-04 -4.75244726567E-05 -3.33462103912E-04 -1.37533863670E-05 +5.65851575219E-01 +7.21724844801E-01
2.50500000000E+09 +5.86272230204E-01 +6.57709080130E-01 -3.07079113336E-04 -4.02377188109E-05 -2.57528420904E-04 -6.55905317743E-05 +5.71424264341E-01 +7.16231990426E-01
2.51000000000E+09 +5.93983196655E-01 +6.49323485020E-01 -2.41338054148E-04 -1.98499932117E-05 -2.65222951470E-04 -2.33832095173E-05 +5.77050522348E-01 +7.11021579314E-01
2.51500000000E+09 +6.01487365705E-01 +6.41464683969E-01 -3.06456177303E-04 -4.79115317753E-05 -3.70037869756E-04 -9.71435731309E-05 +5.82256617551E-01 +7.05681140856E-01
2.52000000000E+09 +6.08362475520E-01 +6.33646459391E-01 -3.76324024905E-04 +7.61800347634E-05 -3.36295631844E-04 +5.40020624490E-05 +5.87518030683E-01 +6.99706728834E-01
2.52500000000E+09 +6.14185692205E-01 +6.26266276940E-01 -2.45023045324E-04 +9.87260266472E-05 -2.77263360020E-04 +7.64193481533E-05 +5.93193533354E-01 +6.93394716003E-01
2.53000000000E+09 +6.19750502702E-01 +6.19275180945E-01 -2.91186892430E-04 +1.20349502748E-04 -2.89024175538E-04 +5.67455177077E-05 +5.99349129358E-01 +6.86444844679E-01
2.53500000000E+09 +6.24539551442E-01 +6.12300386865E-01 -2.85666204383E-04 +1.08161216263E-04 -2.85296149430E-04 +6.56228672878E-05 +6.05382574725E-01 +6.79808103078E-01
2.54000000000E+09 +6.28919114056E-01 +6.05330942537E-01 -2.88940060831E-04 +1.04547747999E-04 -3.30551071879E-04 +1.33512556902E-04 +6.11495269146E-01 +6.73293752937E-01
2.54500000000E+09 +6.33742178274E-01 +5.98129552039E-01 -3.16254684149E-04 +1.98925453267E-04 -3.12652509963E-04 +2.02031961042E-04 +6.17338727795E-01 +6.67085925164E-01
2.55000000000E+09 +6.39034675646E-01 +5.90555478691E-01 -2.72457109973E-04 +2.78326265455E-04 -3.04086414698E-04 +2.06322811979E-04 +6.22718696222E-01 +6.60677512723E-01
2.55500000000E+09 +6.44727219434E-01 +5.82307886661E-01 -2.01355850601E-04 +2.92546039986E-04 -2.35420915114E-04 +3.30886376321E-04 +6.27722104547E-01 +6.54109480756E-01
2.56000000000E+09 +6.51150081674E-01 +5.74398182458E-01 -1.40262788690E-04 +2.72919708192E-04 -1.89820588339E-04 +3.14567647456E-04 +6.32767360844E-01 +6.46859048361E-01
2.56500000000E+09 +6.58320027803E-01 +5.65902264280E-01 -1.66937615442E-04 +2.49585963813E-04 -1.37862367870E-04 +3.28135541710E-04 +6.37896373406E-01 +6.39377919305E-01
2.57000000000E+09 +6.65412837877E-01 +5.57350715352E-01 -2.28310938399E-04 +2.64713390447E-04 -1.48870184205E-04 +2.80505705131E-04 +6.43257386886E-01 +6.31516620595E-01
2.57500000000E+09 +6.72116778365E-01 +5.48634898819E-01 -1.87489763910E-04 +3.25873036560E-04 -1.08579023349E-04 +3.60053571330E-04 +6.48749213198E-01 +6.23809285465E-01
2.58000000000E+09 +6.77859682953E-01 +5.40551853150E-01 -1.03001652223E-04 +4.13777601123E-04 -9.44204399941E-05 +3.38765485787E-04 +6.53634865263E-01 +6.16069451831E-01
2.58500000000E+09 +6.83157941245E-01 +5.32726143182E-01 -5.88564259712E-05 +3.89759626912E-04 -8.32300196983E-05 +3.24490725915E-04 +6.58440391482E-01 +6.08596052437E-01
2.59000000000E+09 +6.88062993117E-01 +5.25068803100E-01 -3.30907892744E-05 +4.10963745734E-04 -4.88025129178E-05 +3.99332679910E-04 +6.63155751775E-01 +6.01145557959E-01
2.59500000000E+09 +6.92512527802E-01 +5.16831788735E-01 +2.38033109026E-05 +4.08374118088E-04 +1.90597776532E-05 +4.46306054366E-04 +6.67970454357E-01 +5.93284636333E-01
2.60000000000E+09 +6.96610550395E-01 +5.07860484182E-01 +8.20552747901E-05 +4.09176318548E-04 +1.18893881890E-04 +3.92305473458E-04 +6.72959940157E-01 +5.85129769862E-01
2.60500000000E+09 +7.00642672699E-01 +4.97955752507E-01 +9.04584236072E-05 +3.93793918750E-04 +8.04414933354E-05 +4.33615864589E-04 +6.78354815569E-01 +5.76663879818E-01
2.61000000000E+09 +7.04841397833E-01 +4.87053669682E-01 +2.26073799258E-04 +5.08633369500E-04 +1.89369845395E-04 +5.06174405765E-04 +6.83623249968E-01 +5.67935816388E-01
2.61500000000E+09 +7.09907341208E-01 +4.75108064238E-01 +3.59930108859E-04 +3.25137016736E-04 +3.95535390496E-04 +3.41129614551E-04 +6.88544998515E-01 +5.59278428879E-01
2.62000000000E+09 +7.14804303659E-01 +4.61679120576E-01 +2.99421696352E-04 +1.70862855828E-04 +3.67368640161E-04 +1.63430614276E-04 +6.93358916408E-01 +5.50307239927E-01
2.62500000000E+09 +7.19435239033E-01 +4.47793475175E-01 +1.92776757676E-04 +2.23951114612E-04 +1.90755189008E-04 +2.12591406772E-04 +6.98006230237E-01 +5.41393775928E-01
2.63000000000E+09 +7.23936319794E-01 +4.33921309850E-01 +2.17179613642E-04 +3.00681597637E-04 +2.44393840004E-04 +2.75238382425E-04 +7.02565442307E-01 +5.32595747498E-01
2.63500000000E+09 +7.27892741496E-01 +4.20510213327E-01 +2.57197824987E-04 +3.01689440710E-04 +2.29093197759E-04 +2.37034396816E-04 +7.07248904721E-01 +5.23437364897E-01
2.64000000000E+09 +7.31575835663E-01 +4.07880808988E-01 +3.89551988712E-04 +3.39424423799E-04 +3.14489419311E-04 +2.63576393172E-04 +7.11973600007E-01 +5.13850468404E-01
2.64500000000E+09 +7.34935321145E-01 +3.95964208368E-01 +4.85616882847E-04 +2.08841499332E-04 +4.35902787596E-04 +2.49776862821E-04 +7.16578432365E-01 +5.03924084424E-01
2.65000000000E+09 +7.37590895283E-01 +3.84894439953E-01 +5.47641665698E-04 +6.22414048592E-06 +4.89625812978E-04 +1.27808785947E-04 +7.20567719870E-01 +4.93844145872E-01
2.65500000000E+09 +7.40637490484E-01 +3.73967804656E-01 +3.85069077298E-04 -8.05925705557E-05 +4.37081026786E-04 -2.75717366381E-06 +7.24295594472E-01 +4.83519625444E-01
2.66000000000E+09 +7.43578357695E-01 +3.62554766096E-01 +3.46439549559E-04 -2.02390781722E-05 +4.27474124417E-04 -1.16515445516E-05 +7.28349077004E-01 +4.72605886800E-01
2.66500000000E+09 +7.46444714618E-01 +3.50683462863E-01 +3.78364957313E-04 -7.66581060355E-05 +3.84097899208E-04 -4.94736391523E-05 +7.32462687164E-01 +4.61678711360E-01
2.67000000000E+09 +7.49263036232E-01 +3.37829768488E-01 +4.16019865396E-04 -1.30089361139E-04 +3.77266072804E-04 -1.45606482395E-04 +7.36924535092E-01 +4.50919651152E-01
2.67500000000E+09 +7.51880452280E-01 +3.23833704475E-01 +3.06531473285E-04 -1.00369212794E-04 +2.43660029305E-04 -1.49584359706E-04 +7.40916268410E-01 +4.40003373095E-01
2.68000000000E+09 +7.53983510224E-01 +3.09205694346E-01 +3.52142442350E-04 -1.21245576113E-04 +3.20780711062E-04 -1.27026716793E-04 +7.44832574711E-01 +4.29141195932E-01
2.68500000000E+09 +7.55740753724E-01 +2.94510328945E-01 +3.21676637260E-04 -2.75552757123E-04 +3.17207772768E-04 -2.91973338875E-04 +7.48134910857E-01 +4.17652382364E-01
2.69000000000E+09 +7.57189716617E-01 +2.79940670935E-01 +1.97770529678E-04 -2.79390749070E-04 +1.93636108490E-04 -2.68257021407E-04 +7.50879246889E-01 +4.05714468791E-01
2.69500000000E+09 +7.58630421375E-01 +2.65941512282E-01 +1.95597965055E-04 -2.45714964027E-04 +2.38339003336E-04 -1.98565823358E-04 +7.53522328746E-01 +3.93309420902E-01
2.70000000000E+09 +7.60014614604E-01 +2.52151944750E-01 +1.39764886986E-04 -2.96802583794E-04 +1.66133355113E-04 -2.76319873595E-04 +7.56272215200E-01 +3.80514148933E-01
2.70500000000E+09 +7.61351580041E-01 +2.38774560370E-01 +2.34915228565E-05 -2.73580031942E-04 +3.65652720095E-05 -2.49314104088E-04 +7.59560678370E-01 +3.67118011432E-01
2.71000000000E+09 +7.62222940701E-01 +2.25226933442E-01 -2.66731175806E-05 -2.28954966433E-04 +4.01935493128E-05 -1.35934154159E-04 +7.62273252759E-01 +3.54132544093E-01
2.71500000000E+09 +7.63353098506E-01 +2.11534046249E-01 +1.10483106988E-04 -1.65836765526E-04 +7.89622836626E-05 -1.58400740709E-04 +7.64832659637E-01 +3.41360319161E-01
2.72000000000E+09 +7.64237061784E-01 +1.96980310886E-01 +3.26129402535E-05 -3.18264600362E-04 +3.45920756801E-06 -3.23825060930E-04 +7.66364394509E-01 +3.28549185115E-01
2.72500000000E+09 +7.64496978637E-01 +1.81212653824E-01 -9.73025536152E-05 -2.60310749613E-04 -1.53524859558E-04 -2.06172951936E-04 +7.67168617427E-01 +3.15348557257E-01
2.73000000000E+09 +7.64080040653E-01 +1.64409053428E-01 -1.62259707023E-04 -1.51469145452E-04 -1.46116430483E-04 -1.07709462394E-04 +7.68179625126E-01 +3.01715310329E-01
2.73500000000E+09 +7.62288138477E-01 +1.46310340357E-01 -2.49195338725E-04 +3.62855389895E-05 -2.08559228619E-04 -8.24552766886E-06 +7.69276113561E-01 +2.87648123726E-01
2.74000000000E+09 +7.59617240986E-01 +1.28659846251E-01 -1.84563485183E-05 +2.53628270459E-04 +6.08139688701E-07 +2.02952188660E-04 +7.71095222444E-01 +2.72814181428E-01
2.74500000000E+09 +7.56052981512E-01 +1.10569173833E-01 +1.23482755166E-04 +1.53173008862E-04 +1.09985490494E-04 +1.81973758024E-04 +7.72176338154E-01 +2.57585890828E-01
2.75000000000E+09 +7.51815114737E-01 +9.26991486418E-02 +2.02940356968E-04 +1.31994114503E-04 +1.92235403069E-04 +1.84443827764E-04 +7.73045825885E-01 +2.42807198028E-01
2.75500000000E+09 +7.47143388786E-01 +7.51915227855E-02 +2.36133143723E-04 +6.08728605599E-05 +1.88484383084E-04 +2.87669731527E-05 +7.72928899382E-01 +2.28349300728E-01
2.76000000000E+09 +7.42819759132E-01 +5.79884177886E-02 +2.04146129647E-04 +1.62902452034E-04 +2.27811937103E-04 +2.15219198014E-04 +7.73155972642E-01 +2.13467007472E-01
2.76500000000E+09 +7.38197348385E-01 +3.99130218532E-02 +4.82120274984E-04 +1.17299714198E-04 +5.60935028852E-04 +1.24280106915E-04 +7.72487483389E-01 +1.96843235282E-01
2.77000000000E+09 +7.33007817028E-01 +2.13576354307E-02 +4.71029397660E-04 -6.74875290018E-05 +4.13360077561E-04 -8.72195279432E-05 +7.71682733586E-01 +1.80073536729E-01
2.77500000000E+09 +7.28122414700E-01 +2.33676200397E-03 +4.63389383503E-04 +4.96342443956E-05 +4.69759460263E-04 +6.66689012462E-06 +7.70555766240E-01 +1.62051195459E-01
2.78000000000E+09 +7.23011726776E-01 -1.82698646107E-02 +7.18463165563E-04 -7.90533864060E-05 +7.92189892370E-04 -1.57888132786E-04 +7.68999672310E-01 +1.44204227704E-01
2.78500000000E+09 +7.16603004215E-01 -3.99991501313E-02 +8.60124559331E-04 -3.41266597878E-04 +8.83675330102E-04 -4.05171359446E-04 +7.66715362340E-01 +1.26165139994E-01
2.79000000000E+09 +7.09685889665E-01 -6.20909485473E-02 +8.75168517614E-04 -7.56038321908E-04 +7.87328163011E-04 -7.33594990072E-04 +7.63632524992E-01 +1.08875056034E-01
2.79500000000E+09 +7.01319711321E-01 -8.43129027468E-02 +6.05056611495E-04 -9.47207999759E-04 +5.70237475677E-04 -8.45527422042E-04 +7.59443684903E-01 +9.09606024036E-02
2.80000000000E+09 +6.91987227319E-01 -1.05274221178E-01 +4.49439392979E-04 -1.07651175935E-03 +4.82352494040E-04 -9.52791071529E-04 +7.54863203713E-01 +7.28790268601E-02
2.80500000000E+09 +6.82457259420E-01 -1.25231785489E-01 +2.91356599353E-04 -1.03404411151E-03 +3.21223999284E-04 -1.03756058375E-03 +7.49511139147E-01 +5.35854667760E-02
2.81000000000E+09 +6.72218891123E-01 -1.43953122295E-01 +2.30406396615E-04 -1.17579180674E-03 +1.96030761916E-04 -1.18377056047E-03 +7.43118991159E-01 +3.40619207380E-02
2.81500000000E+09 +6.61326865070E-01 -1.61653532625E-01 +1.21346150578E-05 -1.25674284702E-03 +1.59491463032E-05 -1.31413538809E-03 +7.36284615400E-01 +1.46202502381E-02
2.82000000000E+09 +6.49876515653E-01 -1.78736569205E-01 -2.38304381434E-04 -1.29488695765E-03 -2.62078083308E-04 -1.30201978992E-03 +7.28822327086E-01 -5.06255459102E-03
2.82500000000E+09 +6.36901028039E-01 -1.95839819584E-01 -1.97514958449E-04 -1.26830364061E-03 -1.83669410985E-04 -1.22316927860E-03 +7.20696771160E-01 -2.46681322552E-02
2.83000000000E+09 +6.22039008904E-01 -2.13303253872E-01 -3.42383161292E-04 -1.61469682869E-03 -3.08832972188E-04 -1.51862732943E-03 +7.12054931497E-01 -4.45895793502E-02
2.83500000000E+09 +6.05704483823E-01 -2.30888884440E-01 -9.83589122682E-04 -1.74049789493E-03 -8.68789183081E-04 -1.75757437514E-03 +7.01896801220E-01 -6.45698109013E-02
2.84000000000E+09 +5.87720238096E-01 -2.49553747674E-01 -1.48978041147E-03 -1.38974113880E-03 -1.42595132181E-03 -1.43129082307E-03 +6.91271665544E-01 -8.52558538716E-02
2.84500000000E+09 +5.67048607132E-01 -2.69269781258E-01 -1.55089943422E-03 -9.35863293560E-04 -1.57077580229E-03 -1.00475229065E-03 +6.79336522928E-01 -1.06014687271E-01
2.85000000000E+09 +5.44794260810E-01 -2.88508592253E-01 -1.49980715048E-03 -7.83252139857E-04 -1.53143523121E-03 -7.84064794628E-04 +6.65794518035E-01 -1.27146967061E-01
2.85500000000E+09 +5.20953892586E-01 -3.07759506903E-01 -1.77987060889E-03 -6.30172353702E-04 -1.78210641864E-03 -6.20062829733E-04 +6.51142648918E-01 -1.47415383824E-01
2.86000000000E+09 +4.96630562365E-01 -3.25769302076E-01 -1.55519293016E-03 -5.44960645008E-04 -1.53085512628E-03 -5.66228861508E-04 +6.36121127753E-01 -1.68420007557E-01
2.86500000000E+09 +4.71990137251E-01 -3.42760172817E-01 -1.92134099914E-03 -5.30875137351E-04 -1.87532200871E-03 -5.47433452709E-04 +6.18592594362E-01 -1.89753175049E-01
2.87000000000E+09 +4.47366876292E-01 -3.58126569709E-01 -2.08490863251E-03 -3.86291674495E-04 -2.14110606317E-03 -4.42449245610E-04 +5.99467061999E-01 -2.10508382462E-01
2.87500000000E+09 +4.23033810467E-01 -3.72899040322E-01 -2.61997676220E-03 -2.64549799060E-04 -2.66663513880E-03 -1.78527608728E-04 +5.79171138351E-01 -2.30291123268E-01
2.88000000000E+09 +3.97235252445E-01 -3.86245983065E-01 -3.09755445466E-03 +6.30026335987E-04 -2.98778022854E-03 +6.95491489550E-04 +5.57551560829E-01 -2.50224867652E-01
2.88500000000E+09 +3.71037759045E-01 -3.97975446243E-01 -2.86393895478E-03 +1.61611368521E-03 -2.70740002634E-03 +1.59919376297E-03 +5.33950023529E-01 -2.69134205631E-01
2.89000000000E+09 +3.43510650255E-01 -4.09576984051E-01 -2.13417473138E-03 +2.15688216310E-03 -2.07629251473E-03 +2.00106743505E-03 +5.08218519281E-01 -2.87275325663E-01
2.89500000000E+09 +3.12469942000E-01 -4.19729684834E-01 -1.57255053174E-03 +2.01386833662E-03 -1.63824524274E-03 +1.87276223895E-03 +4.81171356306E-01 -3.04553928437E-01
2.90000000000E+09 +2.79960438564E-01 -4.27462428197E-01 -1.65229035749E-03 +2.12014598841E-03 -1.70362940131E-03 +2.14222274080E-03 +4.52449634588E-01 -3.21258477406E-01
2.90500000000E+09 +2.45522105497E-01 -4.33581156333E-01 -1.46754211095E-03 +2.47367374717E-03 -1.45993994499E-03 +2.55630009080E-03 +4.22060647536E-01 -3.37056631441E-01
2.91000000000E+09 +2.10482852189E-01 -4.37939039926E-01 -1.24402453799E-03 +2.71244036486E-03 -1.13790254686E-03 +2.77756972769E-03 +3.90008252182E-01 -3.50314011176E-01
2.91500000000E+09 +1.73889753006E-01 -4.40882362510E-01 -8.05864426118E-04 +3.07000811075E-03 -6.88148555626E-04 +2.95525855718E-03 +3.58247785536E-01 -3.61137793626E-01
2.92000000000E+09 +1.37275860479E-01 -4.40834755714E-01 -4.85129375550E-04 +3.28146113149E-03 -4.30379555484E-04 +3.07755279884E-03 +3.25064612691E-01 -3.71521527957E-01
2.92500000000E+09 +1.01546426150E-01 -4.39806708495E-01 -1.08305020896E-05 +3.84725751212E-03 -2.19332582308E-04 +3.64945021915E-03 +2.89400739270E-01 -3.79359733802E-01
2.93000000000E+09 +6.55743848073E-02 -4.36640820744E-01 +1.19451778160E-03 +3.70140809680E-03 +1.00683435089E-03 +3.75472656552E-03 +2.51727717878E-01 -3.85270334469E-01
2.93500000000E+09 +3.06757067582E-02 -4.31297457016E-01 +1.53232853795E-03 +3.36891676095E-03 +1.37890558309E-03 +3.38637241593E-03 +2.13188855604E-01 -3.88174031510E-01
2.94000000000E+09 -4.48340056806E-03 -4.24433016075E-01 +2.29330029318E-03 +3.13576565987E-03 +2.22043870058E-03 +3.20673028783E-03 +1.74662872044E-01 -3.89382997457E-01
2.94500000000E+09 -4.01196004975E-02 -4.14199046443E-01 +2.49101092807E-03 +2.67060950228E-03 +2.44342349956E-03 +2.70551019958E-03 +1.36215936193E-01 -3.89385063053E-01
2.95000000000E+09 -7.49302922984E-02 -4.00504922258E-01 +2.95476032287E-03 +2.31581335378E-03 +2.83849710863E-03 +2.44914340365E-03 +9.63491852318E-02 -3.87127639522E-01
2.95500000000E+09 -1.09092162587E-01 -3.83888007747E-01 +3.49769864789E-03 +1.80355857413E-03 +3.47262722559E-03 +2.00531547666E-03 +5.58764974510E-02 -3.80557006267E-01
2.96000000000E+09 -1.42300827544E-01 -3.64515575548E-01 +3.29073581704E-03 +1.17371447117E-03 +3.41473033506E-03 +1.30555598182E-03 +1.67268771200E-02 -3.70656905106E-01
2.96500000000E+09 -1.74855675749E-01 -3.42218448368E-01 +3.53637967858E-03 +1.31242512208E-03 +3.72939042063E-03 +1.27208088982E-03 -2.33530313995E-02 -3.58698433859E-01
2.97000000000E+09 -2.05316725216E-01 -3.17227924314E-01 +4.39208273330E-03 +7.19426388040E-04 +4.44471633032E-03 +5.49788961913E-04 -6.22805228608E-02 -3.43505541308E-01
2.97500000000E+09 -2.34498818045E-01 -2.91523877234E-01 +4.85223348466E-03 -6.03580341950E-04 +4.67596744215E-03 -6.52754368262E-04 -1.01821471413E-01 -3.27078463686E-01
2.98000000000E+09 -2.63288397718E-01 -2.63107878776E-01 +4.14342308664E-03 -1.94749017366E-03 +4.08895067824E-03 -1.79828533870E-03 -1.39978461150E-01 -3.05624556859E-01
2.98500000000E+09 -2.89003197498E-01 -2.32198521079E-01 +2.99564803011E-03 -2.20771491486E-03 +3.20640691278E-03 -2.04250026064E-03 -1.75393284165E-01 -2.82416137009E-01
2.99000000000E+09 -3.11970047663E-01 -2.01330248423E-01 +2.87825956122E-03 -2.14613596443E-03 +3.06629124783E-03 -2.16734027460E-03 -2.09066362732E-01 -2.56341696644E-01
2.99500000000E+09 -3.34460449198E-01 -1.70293769332E-01 +2.96840417271E-03 -2.46309590356E-03 +3.06063500583E-03 -2.71017309093E-03 -2.41376210904E-01 -2.27892525350E-01
3.00000000000E+09 -3.55486000048E-01 -1.36687492735E-01 +2.64126481382E-03 -3.31060343415E-03 +2.48256448790E-03 -3.48823665040E-03 -2.71963711029E-01 -1.95819046303E-01
3.00500000000E+09 -3.72999110482E-01 -1.02404728928E-01 +1.72249782503E-03 -3.90103993261E-03 +1.47611615990E-03 -3.82843495034E-03 -2.99678115677E-01 -1.62492437475E-01
3.01000000000E+09 -3.89127081647E-01 -6.82397280258E-02 +6.59045748787E-04 -3.80013961269E-03 +6.23482628015E-04 -3.61512902378E-03 -3.25376095479E-01 -1.27108056385E-01
3.01500000000E+09 -4.01918852699E-01 -3.27268112881E-02 +4.76268348571E-04 -3.53394115540E-03 +5.64290665096E-04 -3.46174648746E-03 -3.47294729577E-01 -9.16356595468E-02
3.02000000000E+09 -4.12132628193E-01 +1.86780816188E-03 -5.23531591635E-06 -3.71331351982E-03 +1.07462866844E-05 -3.73691896335E-03 -3.67339234842E-01 -5.52252980429E-02
3.02500000000E+09 -4.19644692849E-01 +3.66379028419E-02 -5.55910405986E-04 -3.74520687676E-03 -5.51051698010E-04 -3.68402914311E-03 -3.84079509955E-01 -1.67983287869E-02
3.03000000000E+09 -4.24373816939E-01 +7.14934234056E-02 -1.55110015994E-03 -3.49518700427E-03 -1.51108931213E-03 -3.46390738839E-03 -3.97225232592E-01 +2.16851156495E-02
3.03500000000E+09 -4.24665411453E-01 +1.05672022254E-01 -2.06146041116E-03 -2.53489797902E-03 -1.94441718159E-03 -2.56081727875E-03 -4.08166016715E-01 +6.06332277830E-02
3.04000000000E+09 -4.23623108495E-01 +1.37550084775E-01 -1.88628528849E-03 -2.25017778706E-03 -1.79525215576E-03 -2.29856850279E-03 -4.16699788028E-01 +9.95905840175E-02
3.04500000000E+09 -4.21383931343E-01 +1.70753398259E-01 -1.88308916839E-03 -2.10442572803E-03 -1.96172804228E-03 -2.21047750724E-03 -4.22857221805E-01 +1.39295819847E-01
3.05000000000E+09 -4.15345499980E-01 +2.04135158054E-01 -2.20765426335E-03 -1.99759039205E-03 -2.48562213143E-03 -2.01706352191E-03 -4.25827478931E-01 +1.78311647092E-01
3.05500000000E+09 -4.07502889882E-01 +2.36814028168E-01 -2.76850259423E-03 -1.54907830930E-03 -2.84834052892E-03 -1.38799872817E-03 -4.26079463503E-01 +2.16236429085E-01
3.06000000000E+09 -3.97418343207E-01 +2.69292288465E-01 -2.87693301157E-03 -8.73457487642E-04 -2.74537017457E-03 -6.80188495084E-04 -4.24452973838E-01 +2.53329695958E-01
3.06500000000E+09 -3.85300513595E-01 +3.00741008135E-01 -2.55477872461E-03 -1.59468840182E-04 -2.40130514563E-03 -1.52248182520E-04 -4.19913059085E-01 +2.89989909078E-01
3.07000000000E+09 -3.72181923962E-01 +3.30126189887E-01 -2.14565761634E-03 -1.26412477148E-04 -2.08212535490E-03 -2.64984562247E-04 -4.14033604197E-01 +3.25165153568E-01
