# Hz S RI R 50
! CMT, C1220, 16058040, 17.2.0/1
! Date: 15/08/2018 10:19:24
! Data: Format (Calibration Info)
! Freq                      S11: Re/Im (F2)                       S21: Re/Im (F2)                       S12: Re/Im (F2)                       S22: Re/Im (F2)            
2.50000000000E+09 +5.96458724462E-01 +6.34754237638E-01 -1.26186493468E-04 +2.06598688690E-04 -1.62455020938E-04 +1.89481231198E-04 +5.73345424830E-01 +7.17039453512E-01
2.50500000000E+09 +6.02965115788E-01 +6.26928086730E-01 -9.92861405245E-05 +2.32002424173E-04 -6.47063494251E-05 +2.63968915997E-04 +5.78981710109E-01 +7.11481070033E-01
2.51000000000E+09 +6.09438456335E-01 +6.18825542529E-01 -7.22148560397E-06 +1.89184897557E-04 +2.67525796570E-05 +1.85689994928E-04 +5.84594285832E-01 +7.06202221904E-01
2.51500000000E+09 +6.15661299099E-01 +6.10828249845E-01 -6.54337832864E-05 +1.10534098413E-04 -6.95507462588E-05 +8.65931573771E-05 +5.89797934654E-01 +7.00791903223E-01
2.52000000000E+09 +6.21606298359E-01 +6.03165914771E-01 -5.61444457655E-05 +2.22359338173E-04 -8.54868182896E-05 +1.89018906420E-04 +5.94944586073E-01 +6.94784314060E-01
2.52500000000E+09 +6.26929039607E-01 +5.95728980351E-01 -5.09688705771E-05 +1.69868787012E-04 -4.32249169224E-05 +1.93057694526E-04 +6.00518980373E-01 +6.88435995363E-01
2.53000000000E+09 +6.31577406593E-01 +5.88859408216E-01 -1.48997342655E-05 +2.33866908602E-04 -2.23916670281E-05 +2.09585313713E-04 +6.06694465760E-01 +6.81512499238E-01
2.53500000000E+09 +6.36116430290E-01 +5.82607899444E-01 -3.28667949297E-05 +1.96007833365E-04 -4.15317544503E-05 +1.99853440654E-04 +6.12709663152E-01 +6.74626275756E-01
2.54000000000E+09 +6.40356352801E-01 +5.76539212027E-01 -5.11056619240E-05 +2.69929645102E-04 -3.86509302976E-05 +2.59616175184E-04 +6.18538216551E-01 +6.67799085534E-01
2.54500000000E+09 +6.44530255768E-01 +5.70546719603E-01 +4.33522172837E-05 +3.49542979435E-04 +2.02441385672E-05 +3.56686542037E-04 +6.24269390277E-01 +6.61406663336E-01
2.55000000000E+09 +6.49318495999E-01 +5.64702349316E-01 +1.44926010221E-04 +2.63108465716E-04 +1.22143842291E-04 +3.32058462563E-04 +6.29606065259E-01 +6.55007667121E-01
2.55500000000E+09 +6.54878358810E-01 +5.57664628177E-01 +2.31552329905E-04 +2.34809764487E-04 +2.51004990052E-04 +2.57042889320E-04 +6.34824747404E-01 +6.48496430464E-01
2.56000000000E+09 +6.60853959925E-01 +5.50324542300E-01 +2.00125927339E-04 +1.00621113770E-04 +2.71037625000E-04 +1.22476196096E-04 +6.40084680484E-01 +6.41196041938E-01
2.56500000000E+09 +6.67084791552E-01 +5.41840561731E-01 +1.06939004655E-04 +8.07203629283E-05 +7.01762970558E-05 +7.03539404380E-05 +6.45618421704E-01 +6.33696521225E-01
2.57000000000E+09 +6.73366678413E-01 +5.33169160678E-01 +1.38425388411E-05 +2.67091410305E-04 +9.66901510724E-05 +2.56882530261E-04 +6.50976975246E-01 +6.25822069822E-01
2.57500000000E+09 +6.79363788481E-01 +5.24122020302E-01 +2.31834559601E-04 +3.47323717236E-04 +2.75145079677E-04 +2.24941166094E-04 +6.56241632943E-01 +6.18123103595E-01
2.58000000000E+09 +6.84689171354E-01 +5.15272824330E-01 +3.33264777329E-04 +2.16792460258E-04 +2.87742712459E-04 +1.57503763204E-04 +6.61165234948E-01 +6.10907206928E-01
2.58500000000E+09 +6.89851627933E-01 +5.06310580471E-01 +3.66772294783E-04 +9.10796594498E-05 +3.06955923553E-04 +1.09730899848E-04 +6.66079307978E-01 +6.03253230054E-01
2.59000000000E+09 +6.94118688756E-01 +4.97770634868E-01 +2.34998923420E-04 -6.54779668994E-06 +2.25925976896E-04 +2.21720513835E-05 +6.70705989688E-01 +5.95692138984E-01
2.59500000000E+09 +6.98326351257E-01 +4.89378557789E-01 +1.72562175139E-04 +1.70265779868E-05 +2.40943943085E-04 +7.20863407702E-05 +6.75537709957E-01 +5.87602583197E-01
2.60000000000E+09 +7.02270666485E-01 +4.80788307838E-01 +2.47411997619E-04 +9.18997361473E-05 +2.80203117189E-04 +8.53248374806E-05 +6.80520680210E-01 +5.79051485113E-01
2.60500000000E+09 +7.06488098128E-01 +4.71456553064E-01 +2.54003765782E-04 +6.65503142425E-05 +2.56549902756E-04 +6.62791611273E-05 +6.85687894141E-01 +5.70547433243E-01
2.61000000000E+09 +7.10548624250E-01 +4.61254686260E-01 +3.42854249626E-04 +3.72082995233E-05 +3.46589643191E-04 +6.88120666831E-05 +6.90861111011E-01 +5.61667082765E-01
2.61500000000E+09 +7.14954817121E-01 +4.49955442592E-01 +2.94242530754E-04 -6.77550038513E-05 +2.96087800661E-04 -4.02795578019E-05 +6.95599278525E-01 +5.52917850768E-01
2.62000000000E+09 +7.18975157765E-01 +4.37593891410E-01 +2.52996558853E-04 -9.44843839809E-05 +2.22121887557E-04 -1.28662839361E-04 +7.00184657660E-01 +5.43925822974E-01
2.62500000000E+09 +7.22994423116E-01 +4.24452551703E-01 +1.68163884873E-04 -1.87011791236E-05 +2.05814484039E-04 -5.76014309332E-05 +7.04821558653E-01 +5.35078095762E-01
2.63000000000E+09 +7.26731654951E-01 +4.10949343110E-01 +1.63613671228E-04 +2.46434536375E-05 +1.47046060199E-04 -3.59256891403E-05 +7.09541007911E-01 +5.26015414259E-01
2.63500000000E+09 +7.29676513715E-01 +3.97529162902E-01 +2.60788572374E-04 +2.93784909625E-05 +2.80910859268E-04 -2.29757340290E-06 +7.14533779637E-01 +5.16704128943E-01
2.64000000000E+09 +7.32472441838E-01 +3.84766761329E-01 +3.85245077155E-04 +3.61335048507E-06 +2.92281502694E-04 -3.53152108535E-05 +7.19371128027E-01 +5.06850541904E-01
2.64500000000E+09 +7.35303439708E-01 +3.72599602745E-01 +3.06117732686E-04 +4.25479121984E-06 +2.04389214803E-04 -5.06004804319E-05 +7.24149356527E-01 +4.97015147746E-01
2.65000000000E+09 +7.37516207388E-01 +3.61205980129E-01 +4.15720666054E-04 -1.98573547478E-05 +3.85064545564E-04 +3.92316522732E-05 +7.28342379884E-01 +4.87067558134E-01
2.65500000000E+09 +7.39916811699E-01 +3.50242507901E-01 +5.53543502111E-04 -6.70404090402E-05 +5.55386638507E-04 -3.74295111582E-05 +7.32295754521E-01 +4.76711168255E-01
2.66000000000E+09 +7.42628820661E-01 +3.39400303302E-01 +5.48849114398E-04 -2.04038966260E-04 +5.96881373884E-04 -2.42937249757E-04 +7.36181306895E-01 +4.65549653527E-01
2.66500000000E+09 +7.45080731528E-01 +3.28027697321E-01 +5.97442047637E-04 -3.27612189039E-04 +5.91732360945E-04 -3.78017308844E-04 +7.40111604397E-01 +4.54415650402E-01
2.67000000000E+09 +7.46935397343E-01 +3.15884635253E-01 +4.87842411251E-04 -7.13970292420E-04 +4.40988981416E-04 -6.89900538386E-04 +7.44277844027E-01 +4.43615697045E-01
2.67500000000E+09 +7.48453837122E-01 +3.03412214045E-01 +1.87680458019E-04 -6.47650879173E-04 +1.33625191296E-04 -5.77177993641E-04 +7.48442949300E-01 +4.32381474705E-01
2.68000000000E+09 +7.49714651450E-01 +2.89945945370E-01 +1.97425883236E-04 -5.33860682326E-04 +2.03379094098E-04 -4.68599824630E-04 +7.52121708839E-01 +4.21077308525E-01
2.68500000000E+09 +7.50387568058E-01 +2.75896224853E-01 +2.04348548928E-04 -6.33160010685E-04 +2.21549967223E-04 -5.91053914995E-04 +7.54832071648E-01 +4.09459543841E-01
2.69000000000E+09 +7.50436718416E-01 +2.61603060445E-01 +1.30582080583E-04 -6.80138598744E-04 +2.48229643542E-04 -6.72373716484E-04 +7.57203402154E-01 +3.97835644282E-01
2.69500000000E+09 +7.50152826716E-01 +2.47362165008E-01 +8.28298189289E-05 -7.39699019490E-04 +1.04562343233E-04 -7.32824777199E-04 +7.59696179419E-01 +3.85568575287E-01
2.70000000000E+09 +7.50103993755E-01 +2.33682815584E-01 -5.54350537715E-05 -8.30603080066E-04 +6.28620923914E-06 -7.59226456035E-04 +7.62710132399E-01 +3.72402448883E-01
2.70500000000E+09 +7.50311524850E-01 +2.20345542530E-01 -1.76057370219E-04 -8.37681868784E-04 -7.88491552963E-05 -8.49929003036E-04 +7.65342328982E-01 +3.58983801477E-01
2.71000000000E+09 +7.51189769481E-01 +2.07015846283E-01 -3.75389312719E-04 -8.96657140322E-04 -3.40016468803E-04 -9.42210156767E-04 +7.67962018354E-01 +3.46098037061E-01
2.71500000000E+09 +7.52521921164E-01 +1.93045091170E-01 -5.80545603268E-04 -6.92659762431E-04 -6.05251073813E-04 -8.08613737927E-04 +7.70450763559E-01 +3.33668290244E-01
2.72000000000E+09 +7.53588861670E-01 +1.78338757944E-01 -6.43996908025E-04 -4.07253515362E-04 -7.13516667905E-04 -4.36205284999E-04 +7.72663132289E-01 +3.21143579336E-01
2.72500000000E+09 +7.54016183311E-01 +1.62821670276E-01 -3.88240519667E-04 -3.31484854780E-04 -4.00992028150E-04 -2.85611147043E-04 +7.73980523521E-01 +3.07984178778E-01
2.73000000000E+09 +7.53376796731E-01 +1.46905500027E-01 -3.61650127389E-04 -5.85925445330E-04 -4.54996133154E-04 -4.97909766809E-04 +7.75320455641E-01 +2.94315906702E-01
2.73500000000E+09 +7.51474381638E-01 +1.30069482528E-01 -5.68946538472E-04 -5.43319956297E-04 -4.67003315782E-04 -4.81889436491E-04 +7.76690806363E-01 +2.79800010802E-01
2.74000000000E+09 +7.48621765411E-01 +1.13609981703E-01 -7.74000311709E-04 -4.36551707634E-04 -6.58679392163E-04 -4.53953466891E-04 +7.78413571873E-01 +2.64994729153E-01
2.74500000000E+09 +7.44743564582E-01 +9.66865881859E-02 -8.11678713484E-04 -2.24188638573E-04 -7.34156907876E-04 -2.65445842012E-04 +7.79840335622E-01 +2.49588934651E-01
2.75000000000E+09 +7.39357354617E-01 +7.96971400177E-02 -6.89193423294E-04 -1.45903239327E-04 -7.04663455426E-04 -1.98644536619E-04 +7.80766396840E-01 +2.34647723397E-01
2.75500000000E+09 +7.33579692266E-01 +6.34799943202E-02 -5.86000453133E-04 -2.41575575767E-04 -5.98014224760E-04 -3.11158328186E-04 +7.80872449762E-01 +2.19123710714E-01
2.76000000000E+09 +7.28385743262E-01 +4.75529813578E-02 -8.33576098475E-04 -2.87348994649E-04 -8.49156352219E-04 -3.01437833572E-04 +7.80367263636E-01 +2.03622096437E-01
2.76500000000E+09 +7.23500806823E-01 +3.08954448868E-02 -1.00363093683E-03 -1.69064833844E-04 -1.04890603904E-03 -1.16228547725E-04 +7.79678110893E-01 +1.86847646327E-01
2.77000000000E+09 +7.18193862515E-01 +1.33731715908E-02 -1.01355499794E-03 +1.43283842712E-04 -1.10285091721E-03 +2.08962378942E-04 +7.78756027715E-01 +1.69139754434E-01
2.77500000000E+09 +7.13303247204E-01 -4.91065528124E-03 -8.45369569562E-04 +2.63186702347E-04 -8.58861846136E-04 +2.90939976505E-04 +7.76943098834E-01 +1.50985948397E-01
2.78000000000E+09 +7.07722025286E-01 -2.39476767823E-02 -9.61339635924E-04 +2.22408261599E-04 -1.00679260129E-03 +2.71380499104E-04 +7.74927855491E-01 +1.33164316527E-01
2.78500000000E+09 +7.01236373307E-01 -4.35358846157E-02 -9.93855874862E-04 +4.39044046643E-04 -9.59050257042E-04 +5.11727510354E-04 +7.72463322550E-01 +1.15164712329E-01
2.79000000000E+09 +6.94637158606E-01 -6.34072828665E-02 -9.42041217731E-04 +6.29332790029E-04 -9.12416973676E-04 +6.17823483375E-04 +7.69054586362E-01 +9.77113393718E-02
2.79500000000E+09 +6.86615843944E-01 -8.39288612376E-02 -8.65296086815E-04 +8.79667140856E-04 -8.53115183777E-04 +8.59070986156E-04 +7.65080034167E-01 +7.99887514109E-02
2.80000000000E+09 +6.76073916773E-01 -1.03760954240E-01 -5.32348493205E-04 +1.04144075305E-03 -5.31180895862E-04 +9.58598225335E-04 +7.60639650433E-01 +6.14084703098E-02
2.80500000000E+09 +6.64819680699E-01 -1.21582723490E-01 -4.21680261980E-04 +7.91080509220E-04 -4.62088588246E-04 +8.36594277879E-04 +7.55089872592E-01 +4.18900893402E-02
2.81000000000E+09 +6.53239515658E-01 -1.38316375035E-01 -4.17934107371E-04 +6.97476668610E-04 -4.72069522356E-04 +7.98250973118E-04 +7.48695323272E-01 +2.23504500001E-02
2.81500000000E+09 +6.41001299116E-01 -1.54847641146E-01 -4.88749416396E-04 +8.05847456588E-04 -5.65664837861E-04 +8.59338758627E-04 +7.41305994619E-01 +2.75544004260E-03
2.82000000000E+09 +6.27826809472E-01 -1.71060770753E-01 -6.68072975712E-04 +1.03258981220E-03 -6.00184974694E-04 +1.05045416080E-03 +7.33926280668E-01 -1.70556478909E-02
2.82500000000E+09 +6.13736661423E-01 -1.87624495136E-01 -1.64566401568E-04 +1.32519753237E-03 -1.60645980890E-04 +1.22631075692E-03 +7.24989912255E-01 -3.72570620728E-02
2.83000000000E+09 +5.97217164427E-01 -2.04624564128E-01 -4.88665363491E-05 +1.14784454799E-03 -7.00803907291E-05 +1.02803726907E-03 +7.14977107460E-01 -5.70026614669E-02
2.83500000000E+09 +5.79886280968E-01 -2.21325198009E-01 -1.62518699352E-04 +1.31467457760E-03 -1.62897451180E-04 +1.28027512990E-03 +7.04233629571E-01 -7.71287537243E-02
2.84000000000E+09 +5.61517802484E-01 -2.38672345682E-01 +3.57103301508E-04 +1.34043021987E-03 +3.25075616885E-04 +1.30694636121E-03 +6.92942715562E-01 -9.75127061026E-02
2.84500000000E+09 +5.40991283004E-01 -2.57025403583E-01 +1.90675096280E-04 +9.78618713928E-04 +1.56950610999E-04 +9.57270921696E-04 +6.80516358587E-01 -1.18443610853E-01
2.85000000000E+09 +5.18629996788E-01 -2.75115801664E-01 +4.14215039318E-04 +1.49038506265E-03 +3.65879172361E-04 +1.49036690741E-03 +6.66499966604E-01 -1.39430414019E-01
2.85500000000E+09 +4.94300599593E-01 -2.92629318979E-01 +8.62077135233E-04 +9.39446374208E-04 +8.35975055548E-04 +8.68542178260E-04 +6.51385422039E-01 -1.59507439350E-01
2.86000000000E+09 +4.69151150218E-01 -3.08088494607E-01 +3.23235840563E-04 +7.43663056035E-04 +2.91031620238E-04 +7.13099170714E-04 +6.35663669497E-01 -1.79686510320E-01
2.86500000000E+09 +4.44703931535E-01 -3.22374699444E-01 +2.36088786752E-04 +1.54571314612E-03 +1.69703661680E-04 +1.54231630833E-03 +6.18203671962E-01 -2.00224001361E-01
2.87000000000E+09 +4.20144997163E-01 -3.36331961478E-01 +1.33305107005E-03 +1.53111341659E-03 +1.32647291352E-03 +1.61027470073E-03 +5.99677300332E-01 -2.20460200945E-01
2.87500000000E+09 +3.94722233913E-01 -3.49844972423E-01 +1.37694752449E-03 +9.95627024694E-04 +1.36934941842E-03 +9.08744073496E-04 +5.79024172379E-01 -2.40888730680E-01
2.88000000000E+09 +3.67575727637E-01 -3.61389035836E-01 +1.49559035888E-03 +8.23133564732E-04 +1.44387165548E-03 +7.77827863704E-04 +5.57575263160E-01 -2.59606754402E-01
2.88500000000E+09 +3.40262514262E-01 -3.71131142068E-01 +1.59553570671E-03 +6.91413068374E-04 +1.49281318496E-03 +6.08005890972E-04 +5.34690075944E-01 -2.78762501466E-01
2.89000000000E+09 +3.12532709905E-01 -3.79125854282E-01 +1.60124366349E-03 +4.43523460296E-04 +1.53066159620E-03 +4.53371148920E-04 +5.09126430863E-01 -2.96646473724E-01
2.89500000000E+09 +2.83664594165E-01 -3.86800888903E-01 +1.77086245829E-03 +5.32655689925E-04 +1.76799972101E-03 +7.11103711444E-04 +4.82471547160E-01 -3.13656300190E-01
2.90000000000E+09 +2.52182121863E-01 -3.92278921949E-01 +2.32376182830E-03 +1.40988743557E-05 +2.37837846619E-03 +1.81127868611E-04 +4.53739710625E-01 -3.30671486314E-01
2.90500000000E+09 +2.18961148783E-01 -3.95622004354E-01 +1.96303519465E-03 -5.76072685274E-04 +2.02927981235E-03 -5.71629674378E-04 +4.22746579879E-01 -3.46002608505E-01
2.91000000000E+09 +1.84544491113E-01 -3.95148084804E-01 +1.75399191603E-03 -5.25749959832E-04 +1.75416649525E-03 -5.70686707125E-04 +3.91144667482E-01 -3.59813664865E-01
2.91500000000E+09 +1.50931987740E-01 -3.92452890585E-01 +2.22942786164E-03 -5.73697446992E-04 +2.12073062192E-03 -6.29809652573E-04 +3.58129139044E-01 -3.71156474404E-01
2.92000000000E+09 +1.17680919643E-01 -3.88144497554E-01 +2.08544026473E-03 -1.97532025893E-03 +2.06822936304E-03 -1.84585284742E-03 +3.24428896263E-01 -3.80821158480E-01
2.92500000000E+09 +8.26911213527E-02 -3.83256695769E-01 +7.52300334541E-04 -1.81441245190E-03 +8.52544327133E-04 -1.75574426802E-03 +2.88794864159E-01 -3.88802582356E-01
2.93000000000E+09 +4.75679300061E-02 -3.73385443553E-01 +6.08142462741E-04 -1.15077699272E-03 +6.38357125124E-04 -1.18779310462E-03 +2.51039861982E-01 -3.93839700457E-01
2.93500000000E+09 +1.52545974685E-02 -3.62055805181E-01 +1.14825370979E-03 -1.19072187844E-03 +1.17348251021E-03 -1.22791171145E-03 +2.13356013004E-01 -3.96918175940E-01
2.94000000000E+09 -1.66469246232E-02 -3.49786320941E-01 +1.06517680921E-03 -1.47540958910E-03 +1.13173637662E-03 -1.47053411259E-03 +1.75127841156E-01 -3.98449018012E-01
2.94500000000E+09 -4.85675452774E-02 -3.36077950828E-01 +1.02905567327E-03 -1.98983564978E-03 +1.00337121512E-03 -2.01220606033E-03 +1.36092342102E-01 -3.98990216890E-01
2.95000000000E+09 -8.06712389388E-02 -3.19371188397E-01 +3.57013918157E-04 -2.36031860754E-03 +3.94052808499E-04 -2.33891432892E-03 +9.58007672057E-02 -3.95731505512E-01
2.95500000000E+09 -1.11981451724E-01 -2.98475556205E-01 +2.57007737069E-04 -1.90685794928E-03 +2.58484163066E-04 -1.98183464005E-03 +5.61770843933E-02 -3.89016772530E-01
2.96000000000E+09 -1.39368062139E-01 -2.74626452333E-01 -1.30075716555E-04 -2.52253610043E-03 -1.12894295047E-04 -2.58332809734E-03 +1.69728926321E-02 -3.79475018892E-01
2.96500000000E+09 -1.65701510070E-01 -2.50410159110E-01 -9.95888430437E-04 -2.02697574437E-03 -1.05423444712E-03 -2.04149525104E-03 -2.25690566720E-02 -3.68025527813E-01
2.97000000000E+09 -1.90499491908E-01 -2.23535259255E-01 -7.16590469609E-04 -1.59091821375E-03 -7.03412950306E-04 -1.55062896057E-03 -6.32607783526E-02 -3.52961428648E-01
2.97500000000E+09 -2.14213302607E-01 -1.95211701150E-01 -4.76239900861E-04 -1.90817053098E-03 -4.87445192271E-04 -1.78886020616E-03 -1.01233786025E-01 -3.34673454279E-01
2.98000000000E+09 -2.36176921678E-01 -1.64621732743E-01 -1.25340153624E-03 -2.39382033889E-03 -1.11691899093E-03 -2.36396408694E-03 -1.38830154494E-01 -3.15431878090E-01
2.98500000000E+09 -2.56092858256E-01 -1.32938406970E-01 -1.97095298071E-03 -1.77470954824E-03 -1.89982249870E-03 -1.88352432453E-03 -1.75067009214E-01 -2.92304103373E-01
2.99000000000E+09 -2.73347243640E-01 -1.00550094813E-01 -2.04570988081E-03 -1.14845515644E-03 -2.06661458366E-03 -1.15791594256E-03 -2.10120923391E-01 -2.67683678311E-01
2.99500000000E+09 -2.89324785918E-01 -6.85695416254E-02 -1.78908600955E-03 -9.26942175605E-04 -1.81860125834E-03 -1.03776646004E-03 -2.44001090934E-01 -2.38073886014E-01
3.00000000000E+09 -3.03414309570E-01 -3.64502826656E-02 -2.05558163192E-03 -9.65489020378E-04 -2.10220839070E-03 -8.75318615739E-04 -2.74481041922E-01 -2.06298574888E-01
3.00500000000E+09 -3.16160468736E-01 -3.78374708625E-03 -2.54951943662E-03 -6.34575803971E-04 -2.42156349318E-03 -6.52715343015E-04 -3.02654290532E-01 -1.73681613096E-01
3.01000000000E+09 -3.24972647613E-01 +2.89074725265E-02 -2.75522955436E-03 +6.36813518199E-05 -2.59972963755E-03 +2.19157549307E-05 -3.29691370609E-01 -1.38610882813E-01
3.01500000000E+09 -3.31254239940E-01 +6.07051374789E-02 -2.27838013362E-03 +8.43773589779E-04 -2.29064657977E-03 +7.71169428731E-04 -3.52939954278E-01 -1.01895861585E-01
3.02000000000E+09 -3.34654489140E-01 +9.14308136615E-02 -1.49335349735E-03 +8.94915235310E-04 -1.56957586352E-03 +8.31391221258E-04 -3.72560521453E-01 -6.40847953076E-02
3.02500000000E+09 -3.35462043913E-01 +1.21687017430E-01 -1.40573831643E-03 +3.94880823028E-04 -1.48649621953E-03 +3.92461273470E-04 -3.88559426329E-01 -2.51056162021E-02
3.03000000000E+09 -3.33948725714E-01 +1.51241373871E-01 -2.31345712929E-03 +3.45212564350E-04 -2.38988689223E-03 +3.56188972841E-04 -4.02219673726E-01 +1.35533386933E-02
3.03500000000E+09 -3.30117157375E-01 +1.81742743648E-01 -2.31448430600E-03 +1.74371273969E-03 -2.38516432774E-03 +1.67212978589E-03 -4.13805779677E-01 +5.31340075983E-02
3.04000000000E+09 -3.22249579628E-01 +2.11056832688E-01 -1.39184167927E-03 +2.34739577252E-03 -1.58246412546E-03 +2.38807433254E-03 -4.22257448872E-01 +9.32288988013E-02
3.04500000000E+09 -3.13637371022E-01 +2.39158264762E-01 -3.93794883522E-04 +2.08288307235E-03 -4.57316110036E-04 +2.22151285652E-03 -4.28095054378E-01 +1.33085835863E-01
3.05000000000E+09 -3.03687752095E-01 +2.67460368506E-01 -3.53600816289E-04 +1.42873539163E-03 -2.93177258004E-04 +1.52297143632E-03 -4.31306059166E-01 +1.72451550187E-01
3.05500000000E+09 -2.92031803029E-01 +2.95535049875E-01 -5.43285673349E-04 +1.43630803155E-03 -3.67843626989E-04 +1.52608249634E-03 -4.31837593887E-01 +2.11562678983E-01
3.06000000000E+09 -2.79111448857E-01 +3.22354067008E-01 -4.80708721317E-04 +1.90099328925E-03 -3.15439017859E-04 +1.90605159341E-03 -4.29432886732E-01 +2.50051824671E-01
3.06500000000E+09 -2.65705076682E-01 +3.48393972054E-01 +4.39339123086E-04 +1.87890799845E-03 +4.29116121404E-04 +1.76161538187E-03 -4.24645997153E-01 +2.86771140201E-01
3.07000000000E+09 -2.50906560179E-01 +3.72822283012E-01 +6.15555820310E-04 +1.26424829369E-03 +5.89227471182E-04 +1.19995911223E-03 -4.17953687139E-01 +3.22435742974E-01
