# Hz S RI R 50
! CMT, C1220, 16058040, 17.2.0/1
! Date: 15/08/2018 09:50:27
! Data: Format (Calibration Info)
! Freq                      S11: Re/Im (F2)                       S21: Re/Im (F2)                       S12: Re/Im (F2)                       S22: Re/Im (F2)            
2.50000000000E+09 +5.76639114972E-01 +6.69428252085E-01 +1.57889532013E-04 -1.48221676539E-03 +2.16351665970E-04 -1.62558856941E-03 +5.75227996856E-01 +7.17564800676E-01
2.50500000000E+09 +5.83456135798E-01 +6.61870312363E-01 +1.20375109597E-05 -1.57691244213E-03 +2.49612261134E-06 -1.62374187774E-03 +5.80687477836E-01 +7.11952545699E-01
2.51000000000E+09 +5.90516836169E-01 +6.53724014415E-01 -1.74260766701E-04 -1.65562172469E-03 -2.19705989322E-04 -1.63509704457E-03 +5.86002299434E-01 +7.06751764212E-01
2.51500000000E+09 +5.97743327014E-01 +6.45481603798E-01 -4.00660865244E-04 -1.57526951617E-03 -3.64406401174E-04 -1.56242191715E-03 +5.91252188097E-01 +7.01347697235E-01
2.52000000000E+09 +6.04608278365E-01 +6.36673912028E-01 -5.61941363510E-04 -1.55797253073E-03 -4.60168985437E-04 -1.56423639704E-03 +5.96497957683E-01 +6.95298878877E-01
2.52500000000E+09 +6.10596398934E-01 +6.28138123108E-01 -6.28039186879E-04 -1.47998291061E-03 -5.85402018981E-04 -1.53996537853E-03 +6.02513806824E-01 +6.88733858289E-01
2.53000000000E+09 +6.16160080185E-01 +6.19957113213E-01 -8.20992849366E-04 -1.54105059432E-03 -7.83016631630E-04 -1.53256775319E-03 +6.08787248015E-01 +6.81689642150E-01
2.53500000000E+09 +6.21306425855E-01 +6.11899530767E-01 -9.96353688259E-04 -1.38056708757E-03 -9.53592342098E-04 -1.47251512567E-03 +6.14459413795E-01 +6.74922779377E-01
2.54000000000E+09 +6.25694253811E-01 +6.03999858344E-01 -1.12454851887E-03 -1.39234659855E-03 -1.03024581953E-03 -1.34830001193E-03 +6.20218939062E-01 +6.68464537684E-01
2.54500000000E+09 +6.30211138075E-01 +5.96795429884E-01 -1.18086053100E-03 -1.29055304260E-03 -1.10811943779E-03 -1.39166654273E-03 +6.25909603095E-01 +6.62188751809E-01
2.55000000000E+09 +6.35207560893E-01 +5.89687984738E-01 -1.39324969916E-03 -1.17971583948E-03 -1.35595371425E-03 -1.41748418212E-03 +6.31020889660E-01 +6.55702328463E-01
2.55500000000E+09 +6.40782723890E-01 +5.81824600716E-01 -1.51230716235E-03 -1.13500110871E-03 -1.73444715607E-03 -1.35020975904E-03 +6.36394841208E-01 +6.48970639542E-01
2.56000000000E+09 +6.47099510320E-01 +5.74038470536E-01 -1.59238098197E-03 -9.09458505491E-04 -1.92977297678E-03 -9.30525178815E-04 +6.41877684861E-01 +6.41626060984E-01
2.56500000000E+09 +6.53919272257E-01 +5.65308945376E-01 -1.57132118420E-03 -8.47342679448E-04 -1.94974812312E-03 -6.32245034157E-04 +6.47593327955E-01 +6.34000719021E-01
2.57000000000E+09 +6.60971411579E-01 +5.56192342257E-01 -1.69506191622E-03 -8.23470490873E-04 -1.86658847219E-03 -3.98424377623E-04 +6.53000972482E-01 +6.26375336743E-01
2.57500000000E+09 +6.67958925428E-01 +5.46525634786E-01 -1.84702037305E-03 -7.00520372382E-04 -1.75915934072E-03 -3.42265031196E-04 +6.58280311448E-01 +6.19136921476E-01
2.58000000000E+09 +6.74437852265E-01 +5.36661778258E-01 -2.09528538927E-03 -5.41151360641E-04 -1.78379833822E-03 -3.20253276594E-04 +6.62969441473E-01 +6.11838001395E-01
2.58500000000E+09 +6.80240397299E-01 +5.26528892864E-01 -2.09722847810E-03 -6.19321078807E-05 -1.83260345486E-03 -1.32525629151E-04 +6.67483652967E-01 +6.04145309586E-01
2.59000000000E+09 +6.85628077452E-01 +5.17013631505E-01 -1.85245839549E-03 +2.73684385318E-05 -1.76976426636E-03 -9.63083505445E-05 +6.72418182639E-01 +5.96389612916E-01
2.59500000000E+09 +6.90453581686E-01 +5.07192729359E-01 -1.94025373123E-03 -8.76149322525E-05 -1.92961644124E-03 -1.37377106557E-04 +6.77656026274E-01 +5.87748604395E-01
2.60000000000E+09 +6.94434557239E-01 +4.97786302135E-01 -2.15758790736E-03 -2.28982256226E-05 -2.18792625710E-03 -5.84930374257E-05 +6.82682324081E-01 +5.79211070466E-01
2.60500000000E+09 +6.98691651533E-01 +4.88284085118E-01 -2.46075204426E-03 +2.15508199196E-04 -2.43717623694E-03 +2.44622589742E-04 +6.87877957141E-01 +5.70821294078E-01
2.61000000000E+09 +7.03013157895E-01 +4.78246602743E-01 -2.67911847521E-03 +7.01260271610E-04 -2.65361475047E-03 +7.05123027015E-04 +6.92687314108E-01 +5.62341868668E-01
2.61500000000E+09 +7.07686709640E-01 +4.67448910098E-01 -2.32900485285E-03 +1.41237163757E-03 -2.43104028465E-03 +1.43865897015E-03 +6.96997865629E-01 +5.54280189403E-01
2.62000000000E+09 +7.12324139794E-01 +4.55691756096E-01 -1.86384803557E-03 +1.40830723749E-03 -1.92526478313E-03 +1.52623998525E-03 +7.01777836248E-01 +5.45560321924E-01
2.62500000000E+09 +7.17017089432E-01 +4.42830509158E-01 -1.82893914559E-03 +1.24979031878E-03 -1.79468237734E-03 +1.45125719562E-03 +7.06845930569E-01 +5.36152074004E-01
2.63000000000E+09 +7.21283755798E-01 +4.29560428641E-01 -1.90238403138E-03 +1.44023373344E-03 -1.66209173633E-03 +1.65138164220E-03 +7.11482008662E-01 +5.26647851452E-01
2.63500000000E+09 +7.25176514132E-01 +4.16018335723E-01 -1.91789665088E-03 +1.55815117911E-03 -1.55104733670E-03 +1.58630027241E-03 +7.16795912487E-01 +5.17401208515E-01
2.64000000000E+09 +7.28697041052E-01 +4.02419791003E-01 -2.01933477663E-03 +2.00995034519E-03 -1.72055688047E-03 +1.76501097104E-03 +7.21720869986E-01 +5.07804059778E-01
2.64500000000E+09 +7.31798726313E-01 +3.89572341057E-01 -1.55801922331E-03 +2.59455355829E-03 -1.52192184882E-03 +2.08755055531E-03 +7.26198326861E-01 +4.98501486863E-01
2.65000000000E+09 +7.34402088650E-01 +3.77204372215E-01 -1.03054913454E-03 +2.46545340299E-03 -1.21830115658E-03 +2.25242397626E-03 +7.30573331248E-01 +4.88975051737E-01
2.65500000000E+09 +7.37171767597E-01 +3.64994298814E-01 -9.21442688216E-04 +2.32102085033E-03 -1.18018265051E-03 +2.28638918829E-03 +7.34464540362E-01 +4.78478965537E-01
2.66000000000E+09 +7.39979136256E-01 +3.53096298032E-01 -1.01780864898E-03 +2.44206772171E-03 -1.15257848780E-03 +2.62300908621E-03 +7.38473125646E-01 +4.67322519946E-01
2.66500000000E+09 +7.43088615051E-01 +3.40898296349E-01 -7.93718376317E-04 +2.71744275728E-03 -6.69554544583E-04 +2.86588452592E-03 +7.43264123876E-01 +4.56016171182E-01
2.67000000000E+09 +7.45672138040E-01 +3.27833917076E-01 -3.40924800726E-04 +2.89429157440E-03 -1.48223071507E-04 +2.86099993745E-03 +7.47854691673E-01 +4.44756531543E-01
2.67500000000E+09 +7.47749541492E-01 +3.13986613012E-01 -2.72650696371E-05 +2.72833931005E-03 +2.68289385801E-05 +2.56864822490E-03 +7.51879272343E-01 +4.33508735841E-01
2.68000000000E+09 +7.49518804311E-01 +2.99487035960E-01 -6.37311680222E-06 +2.65838443751E-03 -9.11547153448E-05 +2.52510957014E-03 +7.55759988295E-01 +4.22840296974E-01
2.68500000000E+09 +7.50676143528E-01 +2.84331259928E-01 -7.24135153817E-05 +2.80795608051E-03 -1.19583843437E-04 +2.75534586509E-03 +7.58748224222E-01 +4.11308149628E-01
2.69000000000E+09 +7.51048653532E-01 +2.68940535214E-01 +1.36965059210E-04 +3.21113205590E-03 +1.04745576602E-04 +3.27210668949E-03 +7.61350420183E-01 +3.99302870874E-01
2.69500000000E+09 +7.51331994509E-01 +2.53714051046E-01 +8.05346286591E-04 +3.40781829841E-03 +7.64198609031E-04 +3.33717375673E-03 +7.64431849127E-01 +3.86436247287E-01
2.70000000000E+09 +7.51560156617E-01 +2.38361704642E-01 +1.25572609308E-03 +3.28616098557E-03 +1.19432763418E-03 +3.16187673775E-03 +7.67554134703E-01 +3.72908004530E-01
2.70500000000E+09 +7.51499202958E-01 +2.23532757620E-01 +1.65364806642E-03 +2.79646042482E-03 +1.49945052607E-03 +2.87354724801E-03 +7.70794479458E-01 +3.59166556354E-01
2.71000000000E+09 +7.51819761809E-01 +2.08793946454E-01 +1.63706287845E-03 +2.60242967026E-03 +1.54401188827E-03 +2.75200535513E-03 +7.73293119344E-01 +3.46366810866E-01
2.71500000000E+09 +7.52583940368E-01 +1.93919186432E-01 +1.54790478583E-03 +2.61112138545E-03 +1.58875819243E-03 +2.83531723732E-03 +7.76141943450E-01 +3.33847191135E-01
2.72000000000E+09 +7.53254231732E-01 +1.78942773497E-01 +1.76379431341E-03 +2.95187187760E-03 +2.10359738514E-03 +3.00788687114E-03 +7.78251977627E-01 +3.20819120147E-01
2.72500000000E+09 +7.53864208066E-01 +1.63345782240E-01 +2.39940415419E-03 +2.89104002497E-03 +2.66404218863E-03 +2.64858047016E-03 +7.79469097200E-01 +3.06931374416E-01
2.73000000000E+09 +7.53812027617E-01 +1.47064512904E-01 +2.59059302792E-03 +2.69992290062E-03 +2.61093306327E-03 +2.25425075348E-03 +7.80937151095E-01 +2.92427724292E-01
2.73500000000E+09 +7.52651785656E-01 +1.30162120358E-01 +2.90933968275E-03 +2.88985015122E-03 +2.54902487200E-03 +2.44637930226E-03 +7.81955726059E-01 +2.77363337021E-01
2.74000000000E+09 +7.50510427064E-01 +1.12985351523E-01 +3.77463462329E-03 +2.69108594150E-03 +3.17271149334E-03 +2.70245660967E-03 +7.83810554451E-01 +2.62653598988E-01
2.74500000000E+09 +7.46907015554E-01 +9.52949910030E-02 +4.09283424942E-03 +1.96022372276E-03 +3.67880976737E-03 +2.38901974261E-03 +7.85088483272E-01 +2.47052891677E-01
2.75000000000E+09 +7.42155665551E-01 +7.79115278530E-02 +4.24155374787E-03 +1.68958188415E-03 +4.21035985330E-03 +2.21036195298E-03 +7.85442072701E-01 +2.31711107887E-01
2.75500000000E+09 +7.36779526189E-01 +6.06501237973E-02 +4.49467650601E-03 +1.32540178234E-03 +4.63563035404E-03 +1.64641349006E-03 +7.84560313747E-01 +2.16578474305E-01
2.76000000000E+09 +7.31096969181E-01 +4.33621967515E-02 +4.66501527808E-03 +1.12194973439E-03 +5.00974057203E-03 +1.24547390284E-03 +7.84105577695E-01 +2.00902551983E-01
2.76500000000E+09 +7.25383951114E-01 +2.62600885936E-02 +5.16317567958E-03 +9.15283806325E-04 +5.39111208556E-03 +9.11783912079E-04 +7.83046867245E-01 +1.83456318042E-01
2.77000000000E+09 +7.20496555710E-01 +8.67361302024E-03 +5.89128151299E-03 +2.99066745260E-04 +6.13582202281E-03 +1.15119701723E-04 +7.82193865506E-01 +1.65634837076E-01
2.77500000000E+09 +7.15737452308E-01 -9.86657646427E-03 +6.13679073060E-03 -9.88178098660E-04 +6.25609748930E-03 -1.27153516984E-03 +7.80291870259E-01 +1.47381890138E-01
2.78000000000E+09 +7.11085639710E-01 -2.92811098912E-02 +5.66201385069E-03 -1.77557672612E-03 +5.66772395782E-03 -2.15507075715E-03 +7.77916916130E-01 +1.29917950487E-01
2.78500000000E+09 +7.06051611587E-01 -4.95181507485E-02 +5.33323979509E-03 -2.22105830295E-03 +5.12931808371E-03 -2.57333854753E-03 +7.75547052774E-01 +1.12630829298E-01
2.79000000000E+09 +7.00358935632E-01 -7.08740478965E-02 +5.25369737700E-03 -2.62443657529E-03 +4.85482229155E-03 -2.78369519204E-03 +7.72013176755E-01 +9.48979965892E-02
2.79500000000E+09 +6.92804255721E-01 -9.20870678409E-02 +5.22389004188E-03 -3.08761630314E-03 +4.82715892530E-03 -2.85967111988E-03 +7.67383583833E-01 +7.63607879597E-02
2.80000000000E+09 +6.83830532740E-01 -1.12375254591E-01 +5.54177987267E-03 -3.90196304480E-03 +5.38650006479E-03 -3.56283845067E-03 +7.62050382898E-01 +5.74007186477E-02
2.80500000000E+09 +6.74338938298E-01 -1.31644034259E-01 +4.95289724446E-03 -5.15439988402E-03 +5.12808601042E-03 -4.90152332151E-03 +7.56194871999E-01 +3.84380322591E-02
2.81000000000E+09 +6.63746534814E-01 -1.50181126701E-01 +3.96200333311E-03 -5.55663133657E-03 +4.16321096013E-03 -5.58548510399E-03 +7.50542381525E-01 +1.91837867399E-02
2.81500000000E+09 +6.52411375863E-01 -1.67958934601E-01 +3.60061747878E-03 -5.91435158741E-03 +3.59706614934E-03 -6.04892613226E-03 +7.43439892575E-01 -2.50496494637E-04
2.82000000000E+09 +6.40125008371E-01 -1.85587728214E-01 +3.21918687450E-03 -6.37670053080E-03 +2.92996627011E-03 -6.42880782133E-03 +7.35566983422E-01 -1.98337606618E-02
2.82500000000E+09 +6.26892646206E-01 -2.03067903565E-01 +2.44333159474E-03 -7.02615289431E-03 +2.18347779266E-03 -6.78678577778E-03 +7.26073479670E-01 -3.95417618491E-02
2.83000000000E+09 +6.12087656373E-01 -2.21430150068E-01 +1.59615402890E-03 -7.44555485172E-03 +1.61827511968E-03 -7.07303716588E-03 +7.15503318167E-01 -5.94062756063E-02
2.83500000000E+09 +5.96250974352E-01 -2.39853843624E-01 +3.73588670626E-04 -7.33737517545E-03 +6.62565523251E-04 -7.06266949539E-03 +7.05027189239E-01 -7.91434723333E-02
2.84000000000E+09 +5.78251552117E-01 -2.59011096369E-01 +2.69910453970E-04 -6.86954419385E-03 +5.25386295388E-04 -6.73303629896E-03 +6.94619228389E-01 -1.00147752430E-01
2.84500000000E+09 +5.58643083053E-01 -2.78180266988E-01 +5.16375501336E-04 -7.65314986468E-03 +7.13819561042E-04 -7.75583732434E-03 +6.82610164165E-01 -1.21385783998E-01
2.85000000000E+09 +5.37498539548E-01 -2.97320198250E-01 -5.31018076549E-04 -8.89157812919E-03 -5.08636184151E-04 -8.97711660986E-03 +6.68509333687E-01 -1.42273637838E-01
2.85500000000E+09 +5.15165929440E-01 -3.15803149140E-01 -2.25935020590E-03 -9.43491380494E-03 -2.26454526422E-03 -9.38238253023E-03 +6.53063429042E-01 -1.62090507838E-01
2.86000000000E+09 +4.91587329916E-01 -3.34421303978E-01 -4.16408130575E-03 -9.18200975793E-03 -4.12434772202E-03 -9.11532309481E-03 +6.37049124415E-01 -1.82169349849E-01
2.86500000000E+09 +4.67269975928E-01 -3.51389154617E-01 -6.00978189770E-03 -8.15103760273E-03 -5.99178418870E-03 -8.22491821153E-03 +6.19413720933E-01 -2.03356893561E-01
2.87000000000E+09 +4.41938040921E-01 -3.67718193893E-01 -6.51026712758E-03 -6.45196145689E-03 -6.61810936972E-03 -6.45409844830E-03 +5.99318580498E-01 -2.24410698337E-01
2.87500000000E+09 +4.16287201026E-01 -3.81993981428E-01 -6.25750598615E-03 -6.09153416581E-03 -6.45472841516E-03 -5.89471243828E-03 +5.78727857554E-01 -2.43625383368E-01
2.88000000000E+09 +3.90896948692E-01 -3.95256394864E-01 -7.03456721312E-03 -6.47656226432E-03 -6.98957005184E-03 -5.99639329925E-03 +5.57509750932E-01 -2.62984301975E-01
2.88500000000E+09 +3.65064346867E-01 -4.07667166956E-01 -8.84576154508E-03 -5.78616022962E-03 -8.46363859219E-03 -5.25999193492E-03 +5.34401868745E-01 -2.81004646036E-01
2.89000000000E+09 +3.38158957987E-01 -4.19592504153E-01 -9.51776876592E-03 -4.23647943073E-03 -8.92314440356E-03 -4.10607071939E-03 +5.09394557489E-01 -2.99155606246E-01
2.89500000000E+09 +3.09302662816E-01 -4.30650043418E-01 -1.00283508821E-02 -3.35329554797E-03 -9.50985314040E-03 -3.64270582560E-03 +4.80905854911E-01 -3.16542782146E-01
2.90000000000E+09 +2.78582623447E-01 -4.40478903121E-01 -1.09092461861E-02 -1.82726800884E-03 -1.08751616942E-02 -2.13687405469E-03 +4.50636194447E-01 -3.31241523603E-01
2.90500000000E+09 +2.45108473250E-01 -4.47411079262E-01 -1.05891883502E-02 -4.17356881917E-04 -1.07385011694E-02 -3.68866001130E-04 +4.21745289664E-01 -3.45533872464E-01
2.91000000000E+09 +2.11429419195E-01 -4.51877210202E-01 -1.09029419204E-02 +5.28782474559E-04 -1.07666798431E-02 +8.18417845987E-04 +3.91104295350E-01 -3.60183217814E-01
2.91500000000E+09 +1.76330820253E-01 -4.54598508905E-01 -1.12109169100E-02 +2.24423735447E-03 -1.06594423556E-02 +2.34812001877E-03 +3.58327913600E-01 -3.72331296128E-01
2.92000000000E+09 +1.40512059784E-01 -4.54640432668E-01 -1.03726329295E-02 +4.04881556176E-03 -9.66695417579E-03 +3.68914975133E-03 +3.24110098112E-01 -3.81521896089E-01
2.92500000000E+09 +1.05458414229E-01 -4.52342688699E-01 -9.29598903187E-03 +4.25242932845E-03 -8.95333254261E-03 +3.54477647965E-03 +2.88638275510E-01 -3.87904764786E-01
2.93000000000E+09 +7.07042193375E-02 -4.49529092277E-01 -9.77949517617E-03 +4.89412127486E-03 -9.81125427959E-03 +4.25775835642E-03 +2.52856495164E-01 -3.93152669961E-01
2.93500000000E+09 +3.53831532892E-02 -4.45362988783E-01 -9.67505982555E-03 +6.59944946568E-03 -9.90539979070E-03 +6.18305523125E-03 +2.15717022751E-01 -3.97954482326E-01
2.94000000000E+09 +7.39154828841E-05 -4.39646060244E-01 -8.83835638730E-03 +8.08768971757E-03 -9.08128687565E-03 +7.80849994781E-03 +1.76123090823E-01 -4.01616924806E-01
2.94500000000E+09 -3.63800125201E-02 -4.31740622748E-01 -7.75183036365E-03 +9.72561200562E-03 -8.02103813118E-03 +9.38420514677E-03 +1.35761896772E-01 -4.00913146990E-01
2.95000000000E+09 -7.26877421347E-02 -4.19220237598E-01 -5.79999239494E-03 +1.04142735447E-02 -6.25006621876E-03 +1.01652357511E-02 +9.61533418993E-02 -3.96336483626E-01
2.95500000000E+09 -1.06664962341E-01 -4.03684241552E-01 -4.53725897347E-03 +1.03529604036E-02 -5.11142051323E-03 +1.04619554804E-02 +5.84446963431E-02 -3.89759742627E-01
2.96000000000E+09 -1.39109118810E-01 -3.86676991433E-01 -3.94329659065E-03 +1.05900555628E-02 -4.34794740698E-03 +1.10377549027E-02 +1.89196166590E-02 -3.81330890714E-01
2.96500000000E+09 -1.71756993752E-01 -3.67025864750E-01 -3.37301673874E-03 +1.14045137898E-02 -3.20988904144E-03 +1.20184872955E-02 -2.14897424939E-02 -3.70191643494E-01
2.97000000000E+09 -2.03550882466E-01 -3.43552295997E-01 -1.83925158649E-03 +1.24823195053E-02 -1.34074665904E-03 +1.26093144817E-02 -6.22947788617E-02 -3.56136382971E-01
2.97500000000E+09 -2.33250819474E-01 -3.17416624534E-01 -2.92085802361E-04 +1.29133320398E-02 -9.60926860382E-05 +1.26162935541E-02 -1.01444073858E-01 -3.39045568887E-01
2.98000000000E+09 -2.61868842189E-01 -2.89671837210E-01 +2.05969539349E-03 +1.29531129873E-02 +1.69085734931E-03 +1.26787836255E-02 -1.39443350944E-01 -3.19247527533E-01
2.98500000000E+09 -2.89408201765E-01 -2.59829490114E-01 +3.37297733859E-03 +1.19645336733E-02 +2.90202797102E-03 +1.23448864254E-02 -1.76405584966E-01 -2.96756634989E-01
2.99000000000E+09 -3.15588061718E-01 -2.28371146003E-01 +4.21105965224E-03 +1.17108685275E-02 +4.28425709165E-03 +1.23974243792E-02 -2.12273296685E-01 -2.70212445673E-01
2.99500000000E+09 -3.40541858475E-01 -1.95027472790E-01 +5.47695043223E-03 +1.21740927856E-02 +6.19700517382E-03 +1.25723854847E-02 -2.46400870667E-01 -2.40985996036E-01
3.00000000000E+09 -3.61911795854E-01 -1.60423026216E-01 +8.09842282496E-03 +1.15195741349E-02 +8.84602920428E-03 +1.10961493871E-02 -2.78056435643E-01 -2.08534069209E-01
3.00500000000E+09 -3.81079588933E-01 -1.26902761428E-01 +9.30659763883E-03 +1.00483260433E-02 +9.37972897629E-03 +9.21603171594E-03 -3.06526707502E-01 -1.75425780555E-01
3.01000000000E+09 -3.98739668378E-01 -9.33374551402E-02 +1.09105759435E-02 +8.67708211312E-03 +1.04165136125E-02 +8.30155658418E-03 -3.33244951730E-01 -1.41027573535E-01
3.01500000000E+09 -4.14177786587E-01 -5.86812450408E-02 +1.18548134818E-02 +6.97306109967E-03 +1.13388755134E-02 +7.09637861373E-03 -3.57761734528E-01 -1.04834171669E-01
3.02000000000E+09 -4.26426471500E-01 -2.32107091311E-02 +1.22400113584E-02 +5.51045770573E-03 +1.20903732805E-02 +5.67284693266E-03 -3.78494505846E-01 -6.48662441599E-02
3.02500000000E+09 -4.34922036387E-01 +1.33660288242E-02 +1.28959321442E-02 +4.56236233933E-03 +1.27816284601E-02 +4.58291647328E-03 -3.94635639820E-01 -2.44968331788E-02
3.03000000000E+09 -4.38865569805E-01 +4.98399221360E-02 +1.41135611768E-02 +2.62602578735E-03 +1.38501436189E-02 +2.64394180365E-03 -4.08120482461E-01 +1.65404934619E-02
3.03500000000E+09 -4.39373983541E-01 +8.50538718440E-02 +1.40885716082E-02 +4.26368792253E-04 +1.38955732310E-02 +8.02305963924E-04 -4.19124402672E-01 +5.63575227135E-02
3.04000000000E+09 -4.38498786381E-01 +1.19803656015E-01 +1.39811033556E-02 -1.74333302225E-03 +1.43063129415E-02 -1.16440636776E-03 -4.27956071372E-01 +9.71889967311E-02
3.04500000000E+09 -4.35486019317E-01 +1.55216960195E-01 +1.32017560084E-02 -3.53176840416E-03 +1.39413832290E-02 -3.50774906040E-03 -4.33350417074E-01 +1.38015254371E-01
3.05000000000E+09 -4.29648607682E-01 +1.91170196652E-01 +1.23986241949E-02 -4.98482818636E-03 +1.29208544676E-02 -5.75838049116E-03 -4.34545312862E-01 +1.78201861645E-01
3.05500000000E+09 -4.21478425299E-01 +2.25752267397E-01 +1.15501160276E-02 -6.15568317416E-03 +1.12385595739E-02 -7.03929901752E-03 -4.33942207463E-01 +2.16525642500E-01
3.06000000000E+09 -4.11934655406E-01 +2.59861060227E-01 +1.09929292295E-02 -7.67896939678E-03 +1.00616936313E-02 -7.92757156736E-03 -4.31701401477E-01 +2.55429220242E-01
3.06500000000E+09 -4.00294682436E-01 +2.92615102395E-01 +9.75942298870E-03 -9.59150739379E-03 +9.10931597279E-03 -8.97350232685E-03 -4.26557481393E-01 +2.93207672539E-01
3.07000000000E+09 -3.87925283373E-01 +3.22921645562E-01 +7.40101959829E-03 -1.08785684416E-02 +7.72862579169E-03 -1.00009934565E-02 -4.19459941932E-01 +3.29437148728E-01
