# Hz S RI R 50
! CMT, C1220, 16058040, 17.2.0/1
! Date: 15/08/2018 10:35:51
! Data: Format (Calibration Info)
! Freq                      S11: Re/Im (F2)                       S21: Re/Im (F2)                       S12: Re/Im (F2)                       S22: Re/Im (F2)            
2.50000000000E+09 +5.80661877612E-01 +6.67775157530E-01 -1.97544414147E-04 +1.05421164840E-04 -2.10190689300E-04 +1.29131989067E-04 +5.64605151003E-01 +7.22975328510E-01
2.50500000000E+09 +5.88099857475E-01 +6.59538051845E-01 -1.06087880704E-04 +1.11443817726E-04 -1.56073584262E-04 +1.27666203654E-04 +5.70216105814E-01 +7.17506021959E-01
2.51000000000E+09 +5.95893476324E-01 +6.51278300213E-01 -1.18113823245E-04 +1.05115882933E-04 -5.17887755828E-05 +9.50217069235E-05 +5.75809835092E-01 +7.12367281856E-01
2.51500000000E+09 +6.03338585553E-01 +6.43234295061E-01 -1.32545505555E-04 +8.24438777886E-05 -1.29350945605E-04 +4.00575973989E-05 +5.81198076937E-01 +7.07062246468E-01
2.52000000000E+09 +6.10271461003E-01 +6.35232487636E-01 -1.27333827469E-04 +1.71660490135E-04 -1.52290919525E-04 +1.69515859143E-04 +5.86388629266E-01 +7.01099030303E-01
2.52500000000E+09 +6.16289781691E-01 +6.27834031173E-01 -1.93166323140E-05 +1.51817725281E-04 -1.69437532834E-05 +2.14355264063E-04 +5.92188915616E-01 +6.94803691473E-01
2.53000000000E+09 +6.21778997565E-01 +6.20642465843E-01 -1.03799449007E-05 +1.16960999084E-04 -3.74353925432E-05 +1.44183992930E-04 +5.98375229540E-01 +6.87973844957E-01
2.53500000000E+09 +6.26408296301E-01 +6.13738416240E-01 -4.92314382873E-05 +1.38048230882E-04 -5.01072693941E-05 +1.14220565620E-04 +6.04327244523E-01 +6.81313603958E-01
2.54000000000E+09 +6.30926913517E-01 +6.06854752774E-01 +1.95517076978E-05 +9.89763491886E-05 -1.51432360202E-05 +1.28370844184E-04 +6.10447610827E-01 +6.74722229711E-01
2.54500000000E+09 +6.35585154972E-01 +5.99765150176E-01 -1.75103155989E-05 +8.28965337844E-05 -9.17255074708E-05 +1.32551959217E-04 +6.16299297561E-01 +6.68529952596E-01
2.55000000000E+09 +6.40574165621E-01 +5.92225884707E-01 -2.93474850777E-05 +1.97686091018E-04 -4.06271084280E-05 +1.73163778941E-04 +6.21795404181E-01 +6.62220787289E-01
2.55500000000E+09 +6.46218157748E-01 +5.84061590210E-01 +5.88690493223E-05 +1.92878419743E-04 -1.46132497942E-06 +2.78608183985E-04 +6.26933039029E-01 +6.55689122856E-01
2.56000000000E+09 +6.52427932728E-01 +5.76028258288E-01 +1.13449357824E-04 +1.85834020901E-04 +1.30376886414E-04 +2.30609840239E-04 +6.32079822123E-01 +6.48454637864E-01
2.56500000000E+09 +6.59484289993E-01 +5.67262972958E-01 +1.86444613641E-04 +1.24080243893E-04 +1.97376327277E-04 +1.01746329913E-04 +6.37371504874E-01 +6.41081059360E-01
2.57000000000E+09 +6.66695330778E-01 +5.58394310525E-01 +8.58540251162E-05 +1.27973666926E-05 +1.23825643384E-04 +2.19940528811E-05 +6.42729877064E-01 +6.33229373457E-01
2.57500000000E+09 +6.73506191229E-01 +5.49520987509E-01 +6.17195791603E-05 +2.97769660872E-05 +5.14273728771E-05 +5.24575509233E-05 +6.48206002686E-01 +6.25572745055E-01
2.58000000000E+09 +6.79527635458E-01 +5.41122456998E-01 +3.63797576338E-05 +1.19023437570E-04 +1.81434862833E-05 +6.45080680606E-05 +6.53281257766E-01 +6.17736832494E-01
2.58500000000E+09 +6.84952003035E-01 +5.32921250062E-01 +3.87499607317E-05 +1.36096692269E-04 +3.49253884341E-05 +1.64289769693E-04 +6.58139950641E-01 +6.10156543720E-01
2.59000000000E+09 +6.89899280932E-01 +5.25193590866E-01 +1.29794629851E-04 +1.54617360483E-04 +1.33836509315E-04 +1.81839671824E-04 +6.62919289922E-01 +6.02740136762E-01
2.59500000000E+09 +6.94646669965E-01 +5.16890357837E-01 +1.80837879926E-04 +1.60897982042E-04 +2.20787267574E-04 +1.65394579807E-04 +6.67863005626E-01 +5.94756856749E-01
2.60000000000E+09 +6.98702642802E-01 +5.08180693467E-01 +1.64361499010E-04 +7.43179151751E-05 +1.76836612814E-04 +6.82683823747E-05 +6.72895680617E-01 +5.86514602397E-01
2.60500000000E+09 +7.03032906556E-01 +4.98547509355E-01 +2.10419677555E-04 +1.44052800821E-04 +2.02544735885E-04 +1.20338248406E-04 +6.78217636127E-01 +5.77952908127E-01
2.61000000000E+09 +7.07351393434E-01 +4.87694791672E-01 +2.52704671343E-04 +4.55117604329E-05 +2.34533536158E-04 +5.47787458264E-05 +6.83493013895E-01 +5.69233446435E-01
2.61500000000E+09 +7.12171095588E-01 +4.75747851097E-01 +3.39727599793E-04 -3.32281264219E-05 +2.93878754331E-04 -2.63613969076E-05 +6.88476297088E-01 +5.60589405879E-01
2.62000000000E+09 +7.16782105433E-01 +4.62513333254E-01 +2.07344245355E-04 -1.71324862349E-04 +2.00447613034E-04 -1.16539823938E-04 +6.93237138052E-01 +5.51594718567E-01
2.62500000000E+09 +7.21527400505E-01 +4.48778695108E-01 +8.75247981239E-05 -9.90740025380E-05 +1.21585126517E-04 -1.06180340342E-04 +6.97991140251E-01 +5.42668820997E-01
2.63000000000E+09 +7.26072956551E-01 +4.34814772901E-01 +1.42604658747E-04 +1.43404322091E-05 +1.64708933696E-04 -2.42358229048E-05 +7.02516990570E-01 +5.33603976785E-01
2.63500000000E+09 +7.30036763615E-01 +4.21019412015E-01 +2.09943434265E-04 -2.52770624804E-05 +1.96871761655E-04 -1.30724486841E-05 +7.07232960378E-01 +5.24573286779E-01
2.64000000000E+09 +7.33667563708E-01 +4.08159881832E-01 +3.71945742682E-04 -6.26639398775E-05 +3.15351845507E-04 +3.04542240366E-06 +7.11974110714E-01 +5.14967375086E-01
2.64500000000E+09 +7.36921882307E-01 +3.96220523190E-01 +3.33874120969E-04 -2.59251740484E-04 +3.33599733377E-04 -2.05549673479E-04 +7.16705953970E-01 +5.05262217468E-01
2.65000000000E+09 +7.39749800295E-01 +3.85072692619E-01 +1.72162283577E-04 -2.96125805542E-04 +2.03231546747E-04 -2.48259747069E-04 +7.20918426356E-01 +4.95125449312E-01
2.65500000000E+09 +7.42795084195E-01 +3.73889299428E-01 +1.83202812492E-04 -2.60195516113E-04 +1.70220325807E-04 -3.05049437406E-04 +7.24735743211E-01 +4.84518749014E-01
2.66000000000E+09 +7.45850706270E-01 +3.62483957529E-01 +1.47926060537E-04 -2.51733270341E-04 +1.76111879739E-04 -2.58552763740E-04 +7.28630853755E-01 +4.73369524372E-01
2.66500000000E+09 +7.48624538012E-01 +3.50748573389E-01 +1.18980186391E-04 -3.17996078491E-04 +1.51787163799E-04 -3.57753455570E-04 +7.32756946482E-01 +4.62439928123E-01
2.67000000000E+09 +7.51327833432E-01 +3.38114566036E-01 +1.13655136115E-04 -4.46619720436E-04 +5.95701642024E-05 -4.60048244657E-04 +7.37309559840E-01 +4.51446410148E-01
2.67500000000E+09 +7.53957127585E-01 +3.24289448092E-01 -8.11131391229E-05 -3.97677064432E-04 -4.65669322654E-05 -3.93294638553E-04 +7.41331094000E-01 +4.40307083536E-01
2.68000000000E+09 +7.55800192463E-01 +3.09411817452E-01 -7.70015364981E-05 -3.63273974318E-04 -2.75056471815E-05 -3.73990296341E-04 +7.45041683600E-01 +4.29389143020E-01
2.68500000000E+09 +7.57352922675E-01 +2.94583604919E-01 -1.17025774202E-04 -4.28291402493E-04 -1.32419709321E-04 -4.71430340760E-04 +7.48356040695E-01 +4.17751791403E-01
2.69000000000E+09 +7.58549358867E-01 +2.79749119808E-01 -2.00835249424E-04 -3.90319715515E-04 -2.37187933111E-04 -4.36991123685E-04 +7.50746383248E-01 +4.05730440190E-01
2.69500000000E+09 +7.59591701216E-01 +2.65618412210E-01 -2.93204857431E-04 -3.53821618120E-04 -2.82371481159E-04 -3.65026270024E-04 +7.53325921256E-01 +3.93252252786E-01
2.70000000000E+09 +7.60862006990E-01 +2.51635632222E-01 -4.03212241179E-04 -4.29909454225E-04 -3.59730442001E-04 -4.15943244431E-04 +7.55887312788E-01 +3.80246350739E-01
2.70500000000E+09 +7.62046341721E-01 +2.38019145486E-01 -6.01699222990E-04 -2.62150926183E-04 -5.87540435519E-04 -2.66089854529E-04 +7.58818350551E-01 +3.66977366121E-01
2.71000000000E+09 +7.62928130456E-01 +2.24323223543E-01 -5.57196112900E-04 +1.99755379520E-05 -5.36055112988E-04 -2.98744673019E-05 +7.61244747349E-01 +3.54090492253E-01
2.71500000000E+09 +7.64206367669E-01 +2.10505346594E-01 -3.04639716919E-04 -6.58733784494E-06 -3.09501921059E-04 -6.17902005371E-05 +7.63634763242E-01 +3.41747097633E-01
2.72000000000E+09 +7.65050816253E-01 +1.95675228384E-01 -4.29471737922E-04 -1.59423591917E-04 -4.81651989031E-04 -1.54319079042E-04 +7.65378858703E-01 +3.29074978249E-01
2.72500000000E+09 +7.65255164105E-01 +1.80044944725E-01 -6.45755788486E-04 -6.70799210794E-05 -6.71408858507E-04 +3.97039926407E-06 +7.66382132926E-01 +3.16083289895E-01
2.73000000000E+09 +7.64648404288E-01 +1.63272997130E-01 -7.87756722002E-04 +2.19527778808E-04 -7.00124591477E-04 +2.80129656541E-04 +7.67439485455E-01 +3.02467119445E-01
2.73500000000E+09 +7.62948588710E-01 +1.45514888314E-01 -6.23267398306E-04 +5.29905037934E-04 -5.94500777983E-04 +4.64502094617E-04 +7.68419341533E-01 +2.88362086632E-01
2.74000000000E+09 +7.60290869553E-01 +1.27771106394E-01 -2.97139179346E-04 +6.98567317868E-04 -3.22349463786E-04 +6.10481320843E-04 +7.70272442095E-01 +2.73668244303E-01
2.74500000000E+09 +7.56812357699E-01 +1.09628427085E-01 -1.25041905704E-04 +5.75396990426E-04 -2.16697258343E-04 +5.33932587290E-04 +7.71413893483E-01 +2.58593530877E-01
2.75000000000E+09 +7.52414950265E-01 +9.16590531109E-02 -3.53682222848E-05 +5.00188113750E-04 -9.53918092909E-05 +5.02014071273E-04 +7.72464217128E-01 +2.43769310715E-01
2.75500000000E+09 +7.47418631039E-01 +7.38845310778E-02 -1.13599852174E-05 +3.82190185457E-04 -2.91737718815E-05 +4.27217992930E-04 +7.72310167761E-01 +2.28882075484E-01
2.76000000000E+09 +7.42804278759E-01 +5.65966894760E-02 -1.02959173074E-04 +5.17325844819E-04 -1.22491315420E-04 +5.59595370040E-04 +7.72263007902E-01 +2.13872376748E-01
2.76500000000E+09 +7.37953940758E-01 +3.85113824357E-02 +2.10251426860E-04 +5.76662249353E-04 +1.99173892868E-04 +5.73181358862E-04 +7.71554446374E-01 +1.97360453683E-01
2.77000000000E+09 +7.32519285574E-01 +1.99700646241E-02 +1.95083961255E-04 +3.21369371646E-04 +2.75197338456E-04 +3.32598893432E-04 +7.70359050641E-01 +1.80521041764E-01
2.77500000000E+09 +7.27341207078E-01 +1.02696249921E-03 +5.41302862084E-05 +4.59263395299E-04 +1.06148067687E-04 +4.37182737834E-04 +7.69121368850E-01 +1.62704266360E-01
2.78000000000E+09 +7.21894231528E-01 -1.93026788254E-02 +3.45922105499E-04 +5.47227216541E-04 +4.18951455046E-04 +5.31207434588E-04 +7.67397468366E-01 +1.45081187178E-01
2.78500000000E+09 +7.15453917213E-01 -4.03940684531E-02 +5.94363619081E-04 +4.76506535902E-04 +6.80878931541E-04 +4.21133361610E-04 +7.64823963488E-01 +1.27304989263E-01
2.79000000000E+09 +7.08601303484E-01 -6.24068635048E-02 +6.82077799924E-04 +1.08574718357E-04 +7.07564144429E-04 +6.41763100162E-05 +7.61655282485E-01 +1.10350833167E-01
2.79500000000E+09 +7.00157802854E-01 -8.46645985706E-02 +6.46029047478E-04 -2.85298352699E-05 +5.97198370679E-04 -7.64658124282E-05 +7.57462884619E-01 +9.27524011231E-02
2.80000000000E+09 +6.90147741360E-01 -1.05672839322E-01 +4.53818737006E-04 -1.60669971411E-04 +4.13057821378E-04 -1.89684751603E-04 +7.52757837029E-01 +7.50468969342E-02
2.80500000000E+09 +6.80019749395E-01 -1.24976031527E-01 +3.89946408262E-04 -5.37880635306E-05 +3.84434866165E-04 -4.69159751630E-05 +7.47755610624E-01 +5.62991446359E-02
2.81000000000E+09 +6.69668208458E-01 -1.43076923071E-01 +6.48987724204E-04 -8.88133740061E-05 +6.08760147313E-04 -5.54831589288E-05 +7.41671144109E-01 +3.72632599157E-02
2.81500000000E+09 +6.59002422588E-01 -1.60507354287E-01 +6.06181521083E-04 -3.86669144035E-04 +6.38489638699E-04 -3.55366271986E-04 +7.35316292662E-01 +1.79086063902E-02
2.82000000000E+09 +6.47466977603E-01 -1.77659926952E-01 +4.93134970239E-04 -4.80355427722E-04 +4.55948486929E-04 -4.72977770792E-04 +7.28174996815E-01 -1.63092200530E-03
2.82500000000E+09 +6.34186966410E-01 -1.94714098724E-01 +5.19759230914E-04 -5.65341181745E-04 +5.05466732171E-04 -5.28958445647E-04 +7.20458226386E-01 -2.10390470687E-02
2.83000000000E+09 +6.19541721162E-01 -2.11648835037E-01 +4.09446340071E-04 -8.40869267067E-04 +4.34191264420E-04 -8.04798265438E-04 +7.12129893343E-01 -4.12078136477E-02
2.83500000000E+09 +6.03647372232E-01 -2.29229969348E-01 +5.95443280823E-05 -1.01428479675E-03 +5.40887498486E-05 -9.25383458408E-04 +7.02458327508E-01 -6.13857506874E-02
2.84000000000E+09 +5.85596482515E-01 -2.47671580309E-01 -2.44284369790E-04 -8.57375130128E-04 -1.91534352696E-04 -8.10222106465E-04 +6.91700630301E-01 -8.23614460456E-02
2.84500000000E+09 +5.65000789035E-01 -2.67124722119E-01 -3.10598833466E-04 -8.30560525398E-04 -3.00194964384E-04 -8.12058629694E-04 +6.79785401118E-01 -1.02970186610E-01
2.85000000000E+09 +5.42964761078E-01 -2.85944792500E-01 -4.72905140990E-04 -7.64295470933E-04 -4.65921749059E-04 -7.82360690665E-04 +6.66599926941E-01 -1.24081054750E-01
2.85500000000E+09 +5.19177552852E-01 -3.04976782000E-01 -6.77492426986E-04 -5.46848924792E-04 -6.66427920694E-04 -5.40492762164E-04 +6.51878500798E-01 -1.44433304202E-01
2.86000000000E+09 +4.95191993546E-01 -3.22697739980E-01 -4.44828622368E-04 -4.65712203932E-04 -4.36838434112E-04 -4.96095059492E-04 +6.36773636523E-01 -1.65191473390E-01
2.86500000000E+09 +4.70466978028E-01 -3.39707526645E-01 -5.95875999674E-04 -6.37351796265E-04 -5.90365651459E-04 -6.67682577015E-04 +6.19519567393E-01 -1.86480894112E-01
2.87000000000E+09 +4.45655269868E-01 -3.55201786708E-01 -7.18228602551E-04 -8.53788477792E-04 -7.31710693257E-04 -8.37289995606E-04 +6.00222059205E-01 -2.06945579863E-01
2.87500000000E+09 +4.20814693111E-01 -3.69574199822E-01 -1.63839954811E-03 -9.00662022067E-04 -1.65261551891E-03 -8.92621851364E-04 +5.80382765965E-01 -2.26166347651E-01
2.88000000000E+09 +3.95422567369E-01 -3.82452821903E-01 -2.10433097996E-03 +3.75540221838E-05 -2.01815865652E-03 +1.34379415699E-04 +5.59413108148E-01 -2.45898734044E-01
2.88500000000E+09 +3.69364122192E-01 -3.94251668660E-01 -1.86228942320E-03 +1.01995219203E-03 -1.79836544216E-03 +9.59925156117E-04 +5.36364181309E-01 -2.64539301503E-01
2.89000000000E+09 +3.41938842673E-01 -4.05052482886E-01 -1.06040954741E-03 +1.38150892291E-03 -1.02582472013E-03 +1.28826215888E-03 +5.11562062586E-01 -2.82786595851E-01
2.89500000000E+09 +3.11922035471E-01 -4.14545085397E-01 -5.82075942661E-04 +1.04709805546E-03 -6.68888292356E-04 +1.00657432394E-03 +4.85088320837E-01 -3.00392229232E-01
2.90000000000E+09 +2.80347931922E-01 -4.22390447657E-01 -9.13150072877E-04 +1.09318011135E-03 -1.00524504920E-03 +1.01796190260E-03 +4.57004343877E-01 -3.17194534815E-01
2.90500000000E+09 +2.46251561231E-01 -4.28429250588E-01 -6.36850687392E-04 +1.38434465207E-03 -6.45785396473E-04 +1.38796996336E-03 +4.27463045409E-01 -3.33203387421E-01
2.91000000000E+09 +2.11326791816E-01 -4.32166052551E-01 -4.86895226853E-04 +1.38626811404E-03 -4.40383269111E-04 +1.40041116507E-03 +3.96600731341E-01 -3.47231460837E-01
2.91500000000E+09 +1.75804980870E-01 -4.34894267709E-01 -1.96911974411E-04 +1.54243870803E-03 -1.39306884839E-04 +1.51109441604E-03 +3.65371451446E-01 -3.59727901700E-01
2.92000000000E+09 +1.39255368166E-01 -4.35006777752E-01 -9.02983546126E-05 +1.48437810149E-03 -7.70381469102E-05 +1.48724273730E-03 +3.32103692907E-01 -3.70968502136E-01
2.92500000000E+09 +1.03380607964E-01 -4.33396083817E-01 -6.09026060302E-05 +2.03749789949E-03 -1.74121391028E-04 +1.96648725264E-03 +2.96150592678E-01 -3.79796968047E-01
2.93000000000E+09 +6.80215319776E-02 -4.29991576941E-01 +9.43776522387E-04 +2.15084549090E-03 +7.99444712819E-04 +2.14909566454E-03 +2.58500316665E-01 -3.86270636920E-01
2.93500000000E+09 +3.33046711509E-02 -4.24836560609E-01 +1.36030461728E-03 +1.92125655656E-03 +1.25512118606E-03 +1.98310495446E-03 +2.20097323992E-01 -3.90060632885E-01
2.94000000000E+09 -1.00929841947E-03 -4.18157853271E-01 +2.13889493195E-03 +1.30038686048E-03 +2.06380720525E-03 +1.39502158323E-03 +1.81210944465E-01 -3.92433375246E-01
2.94500000000E+09 -3.65124186009E-02 -4.09192255522E-01 +1.76551295494E-03 +6.12304446509E-04 +1.81846152660E-03 +6.81942179230E-04 +1.41741343676E-01 -3.93157854938E-01
2.95000000000E+09 -7.14745727010E-02 -3.95964291513E-01 +1.56545983184E-03 +5.17049020960E-04 +1.60162144306E-03 +6.19334054266E-04 +1.01394288147E-01 -3.91182830881E-01
2.95500000000E+09 -1.05273783083E-01 -3.79204581093E-01 +1.79937749963E-03 +5.82011871319E-04 +1.83494139252E-03 +5.83614504139E-04 +6.03705531100E-02 -3.85287527311E-01
2.96000000000E+09 -1.37455936698E-01 -3.60347053345E-01 +1.84876128195E-03 +2.47356532775E-04 +1.90791806951E-03 +3.10015131552E-04 +2.02930489109E-02 -3.75503577560E-01
2.96500000000E+09 -1.69505607300E-01 -3.39125526764E-01 +2.05033144552E-03 +3.14525349057E-04 +2.16580762930E-03 +2.92180992617E-04 -2.02138136801E-02 -3.63792672472E-01
2.97000000000E+09 -2.00139933879E-01 -3.14117860833E-01 +2.62168259400E-03 -3.20195068111E-04 +2.64449702455E-03 -4.59341764814E-04 -5.96059263903E-02 -3.48288117559E-01
2.97500000000E+09 -2.28320308552E-01 -2.87919414464E-01 +2.47652402664E-03 -1.08538792559E-03 +2.38715997295E-03 -1.12349072028E-03 -9.91712203433E-02 -3.32014937847E-01
2.98000000000E+09 -2.55954521912E-01 -2.60427216168E-01 +1.96569345297E-03 -1.41723631419E-03 +1.97177429437E-03 -1.38477008779E-03 -1.37318997747E-01 -3.11073498767E-01
2.98500000000E+09 -2.81370437959E-01 -2.30657221343E-01 +1.73994169466E-03 -1.80089618773E-03 +1.81951687012E-03 -1.82824934169E-03 -1.73409454936E-01 -2.88731325840E-01
2.99000000000E+09 -3.05006647942E-01 -2.00635390527E-01 +1.26386872170E-03 -2.10345927662E-03 +1.27287935533E-03 -2.16744284432E-03 -2.08562435920E-01 -2.62925133455E-01
2.99500000000E+09 -3.28168745423E-01 -1.70177027426E-01 +9.50549781789E-04 -2.03192405175E-03 +9.22431998896E-04 -2.09691649345E-03 -2.41379344457E-01 -2.34216298052E-01
3.00000000000E+09 -3.49456231948E-01 -1.36342356927E-01 +8.98401456617E-04 -2.19408726886E-03 +7.31445529742E-04 -2.18790014846E-03 -2.73031701545E-01 -2.02433900648E-01
3.00500000000E+09 -3.66998626072E-01 -1.02884478017E-01 +5.86604454684E-04 -2.67033123308E-03 +4.57857262021E-04 -2.60976077664E-03 -3.01416770945E-01 -1.68577128389E-01
3.01000000000E+09 -3.83014143749E-01 -6.94911407450E-02 -2.06811323620E-04 -2.74100380342E-03 -2.25906100357E-04 -2.57085180575E-03 -3.27657522363E-01 -1.33198162536E-01
3.01500000000E+09 -3.96194403026E-01 -3.53142458690E-02 -3.30340158892E-04 -2.69069035133E-03 -2.61277568577E-04 -2.63039619351E-03 -3.50598845491E-01 -9.71498685517E-02
3.02000000000E+09 -4.06929106798E-01 -1.25407021770E-03 -1.26289092585E-03 -2.87476374063E-03 -1.23260446731E-03 -2.85272689280E-03 -3.71460222914E-01 -6.01926068367E-02
3.02500000000E+09 -4.14566056583E-01 +3.25995566518E-02 -1.82666178006E-03 -2.27575740724E-03 -1.76440086962E-03 -2.24041950413E-03 -3.88906302573E-01 -2.05664106035E-02
3.03000000000E+09 -4.19837752379E-01 +6.70540133007E-02 -2.21649922362E-03 -1.74580697939E-03 -2.15688795940E-03 -1.76087971219E-03 -4.02061331594E-01 +1.88950740978E-02
3.03500000000E+09 -4.20784912015E-01 +1.00708679625E-01 -2.31621498524E-03 -9.94274837576E-04 -2.22670887440E-03 -1.02465927792E-03 -4.13402849511E-01 +5.84823031489E-02
3.04000000000E+09 -4.20461029216E-01 +1.33080068720E-01 -1.91564319910E-03 -8.74364322473E-04 -1.90880365825E-03 -9.91694053622E-04 -4.21692018539E-01 +9.88690990520E-02
3.04500000000E+09 -4.18127093068E-01 +1.66341765915E-01 -2.06030348680E-03 -7.72442620732E-04 -2.19730586270E-03 -8.46794556775E-04 -4.27129035135E-01 +1.39201867876E-01
3.05000000000E+09 -4.12635878962E-01 +2.00006105864E-01 -2.36204140313E-03 -5.93676066030E-04 -2.47289660545E-03 -6.69179640948E-04 -4.29301313860E-01 +1.78526200659E-01
3.05500000000E+09 -4.04963004688E-01 +2.32452478777E-01 -2.70900106814E-03 -4.46463279577E-05 -2.80213964203E-03 +7.06207447899E-05 -4.29263612298E-01 +2.16733413889E-01
3.06000000000E+09 -3.95548242634E-01 +2.64885069730E-01 -2.65195083045E-03 +7.45385870019E-04 -2.54344911353E-03 +8.35015512549E-04 -4.26783638372E-01 +2.54047481140E-01
3.06500000000E+09 -3.84504086738E-01 +2.95970177653E-01 -2.14615575420E-03 +1.04958047020E-03 -2.07786259515E-03 +1.04909461508E-03 -4.22270785879E-01 +2.90361057199E-01
3.07000000000E+09 -3.72699959284E-01 +3.26053715115E-01 -1.82132158007E-03 +1.43212283065E-03 -1.89015421111E-03 +1.19747785410E-03 -4.16033200939E-01 +3.25937024017E-01
