# Hz S RI R 50
! CMT, C1220, 16058040, 17.2.0/1
! Date: 15/08/2018 10:34:20
! Data: Format (Calibration Info)
! Freq                      S11: Re/Im (F2)                       S21: Re/Im (F2)                       S12: Re/Im (F2)                       S22: Re/Im (F2)            
2.50000000000E+09 +5.79023249582E-01 +6.66654066060E-01 -3.16770159262E-04 +1.73114898958E-04 -3.14446145241E-04 +1.18756823187E-04 +5.65368892923E-01 +7.22459318925E-01
2.50500000000E+09 +5.86516390569E-01 +6.58567680572E-01 -1.52837590421E-04 +1.61574718303E-04 -1.88964279595E-04 +1.54570714311E-04 +5.71018195906E-01 +7.16927411710E-01
2.51000000000E+09 +5.94311485029E-01 +6.50092617968E-01 -1.49754924693E-04 +1.72303273503E-04 -1.31156182162E-04 +7.67985056302E-05 +5.76686054429E-01 +7.11806503631E-01
2.51500000000E+09 +6.01723611708E-01 +6.42120045797E-01 -1.51826364202E-04 +9.36404373169E-05 -2.03462841083E-04 +2.49187318928E-05 +5.81982363490E-01 +7.06446550136E-01
2.52000000000E+09 +6.08653101538E-01 +6.34193696157E-01 -2.08439418417E-04 +1.45348569394E-04 -2.13154529695E-04 +1.25809049033E-04 +5.87182628999E-01 +7.00481823080E-01
2.52500000000E+09 +6.14586051724E-01 +6.26797755282E-01 -9.47747663355E-05 +1.45632711143E-04 -1.26848896723E-04 +1.80886962434E-04 +5.93015717718E-01 +6.94076613589E-01
2.53000000000E+09 +6.20053190758E-01 +6.19535566384E-01 -1.34416666252E-04 +1.39427467445E-04 -9.46368153363E-05 +1.50629676210E-04 +5.99177793782E-01 +6.87064379969E-01
2.53500000000E+09 +6.24767235191E-01 +6.12598292709E-01 -1.33760803142E-04 +1.66788093815E-04 -1.25890113294E-04 +1.85292917063E-04 +6.05127442096E-01 +6.80303392458E-01
2.54000000000E+09 +6.29186733750E-01 +6.05500757308E-01 -9.02321081620E-05 +2.20674679384E-04 -7.18019830370E-05 +1.42284103100E-04 +6.11025765738E-01 +6.73735043332E-01
2.54500000000E+09 +6.33965469056E-01 +5.98380096804E-01 -7.11348504643E-05 +1.65351138949E-04 -9.32895931777E-05 +1.82389465461E-04 +6.16827698874E-01 +6.67582935275E-01
2.55000000000E+09 +6.39060914796E-01 +5.90769617837E-01 -8.47671072419E-05 +1.97640632173E-04 -1.14426271734E-04 +1.77593703256E-04 +6.22215461245E-01 +6.61359860505E-01
2.55500000000E+09 +6.44572640708E-01 +5.82568098989E-01 -5.07127669114E-05 +2.34840274670E-04 -1.03445999546E-04 +2.95329416406E-04 +6.27281052989E-01 +6.54774014316E-01
2.56000000000E+09 +6.50998020396E-01 +5.74615286690E-01 -8.80818361382E-06 +1.97435679128E-04 -7.67755425232E-06 +2.57503656142E-04 +6.32330350227E-01 +6.47705414503E-01
2.56500000000E+09 +6.58152536967E-01 +5.65929602022E-01 -6.87118836649E-06 +1.91969545424E-04 +1.06065300078E-04 +2.04336950211E-04 +6.37564737666E-01 +6.40193030437E-01
2.57000000000E+09 +6.65335766742E-01 +5.57171177861E-01 -1.89020302277E-05 +1.76964686725E-04 -1.81367029425E-05 +2.07697763542E-04 +6.42890826610E-01 +6.32278297504E-01
2.57500000000E+09 +6.72287754414E-01 +5.48244898767E-01 -3.04874765094E-05 +2.54337276713E-04 +2.09173651192E-05 +2.11074519910E-04 +6.48499669968E-01 +6.24683216710E-01
2.58000000000E+09 +6.78195870246E-01 +5.39814030796E-01 +1.78047698995E-05 +2.66517837352E-04 +2.47031375064E-05 +2.21782768717E-04 +6.53587702566E-01 +6.16927046901E-01
2.58500000000E+09 +6.83574376973E-01 +5.31682173044E-01 +7.45637053985E-05 +2.24073550574E-04 +8.32654927369E-05 +2.56636995437E-04 +6.58328536921E-01 +6.09292014654E-01
2.59000000000E+09 +6.88424973040E-01 +5.23874365311E-01 +1.32364205287E-04 +2.60719837464E-04 +1.41169092639E-04 +3.12116138624E-04 +6.62992396268E-01 +6.01846627321E-01
2.59500000000E+09 +6.92900670930E-01 +5.15664653681E-01 +1.59485511997E-04 +2.83785589600E-04 +1.15906042541E-04 +2.84984960048E-04 +6.67993872822E-01 +5.93962597535E-01
2.60000000000E+09 +6.96922107824E-01 +5.06757686965E-01 +2.57086285128E-04 +2.84636604909E-04 +2.05965124861E-04 +2.65648454704E-04 +6.73105235251E-01 +5.85573325118E-01
2.60500000000E+09 +7.00937805759E-01 +4.97056193950E-01 +1.98210558712E-04 +2.46096002098E-04 +1.93084225517E-04 +2.15238243418E-04 +6.78380834823E-01 +5.76950300800E-01
2.61000000000E+09 +7.05185437521E-01 +4.86380505827E-01 +3.74717910172E-04 +2.89680609197E-04 +3.69646907259E-04 +2.88189714221E-04 +6.83315100928E-01 +5.68130703400E-01
2.61500000000E+09 +7.10276860897E-01 +4.74370206191E-01 +5.27565233455E-04 +6.45593196233E-05 +5.43121139280E-04 +8.23665672312E-05 +6.88265822298E-01 +5.59502677578E-01
2.62000000000E+09 +7.15106170488E-01 +4.61033898927E-01 +3.99623606744E-04 -1.75224322342E-04 +4.10179067886E-04 -1.67834217574E-04 +6.93025808648E-01 +5.50597286335E-01
2.62500000000E+09 +7.19736112765E-01 +4.47022546636E-01 +1.81973175895E-04 -8.09986766138E-05 +2.26450877890E-04 -1.13212785783E-04 +6.97405711480E-01 +5.41716739783E-01
2.63000000000E+09 +7.24273296876E-01 +4.33183355277E-01 +2.39172575606E-04 -4.35872148175E-05 +1.99597743309E-04 -1.68496029743E-05 +7.01983519395E-01 +5.32845445808E-01
2.63500000000E+09 +7.28173132766E-01 +4.19579297873E-01 +2.87763073361E-04 -3.13940045507E-05 +2.73868264623E-04 +7.43776941241E-06 +7.06633736488E-01 +5.23754408151E-01
2.64000000000E+09 +7.31895308697E-01 +4.06673524524E-01 +3.89368610641E-04 -3.56021961956E-05 +3.00223260383E-04 -1.61134272647E-05 +7.11231776990E-01 +5.14405975061E-01
2.64500000000E+09 +7.35181254983E-01 +3.94823853464E-01 +3.53129580078E-04 -1.53819109872E-04 +3.45407837207E-04 -9.25662933076E-05 +7.15874184285E-01 +5.04663854856E-01
2.65000000000E+09 +7.37914564050E-01 +3.83547817468E-01 +2.91683525962E-04 -2.76736609997E-04 +3.39616532153E-04 -2.07929679063E-04 +7.19931211066E-01 +4.94735688688E-01
2.65500000000E+09 +7.40891382522E-01 +3.72593502423E-01 +1.97209248054E-04 -2.94046734382E-04 +2.17525169212E-04 -2.97916327701E-04 +7.23935801082E-01 +4.84328623967E-01
2.66000000000E+09 +7.43753596809E-01 +3.61051991851E-01 +2.04290263842E-04 -2.54966745438E-04 +2.08727932440E-04 -2.22981377782E-04 +7.27909419602E-01 +4.73321273119E-01
2.66500000000E+09 +7.46410901599E-01 +3.49294046351E-01 +1.94488471980E-04 -3.63356260511E-04 +1.90914812578E-04 -3.58598649714E-04 +7.32085907400E-01 +4.62510187644E-01
2.67000000000E+09 +7.49161571719E-01 +3.36466636327E-01 +8.53227499261E-05 -4.28529062659E-04 +5.88648711241E-05 -3.86492878093E-04 +7.36528059127E-01 +4.51740681161E-01
2.67500000000E+09 +7.51810416974E-01 +3.22427115312E-01 -7.20415273137E-05 -3.07637646369E-04 -3.74086295153E-05 -2.99907621606E-04 +7.40709156261E-01 +4.40580146688E-01
2.68000000000E+09 +7.53849123969E-01 +3.07623256523E-01 -1.99229776141E-06 -1.68410468729E-04 -2.59659238307E-06 -1.78210961534E-04 +7.44626264258E-01 +4.29734158405E-01
2.68500000000E+09 +7.55387324042E-01 +2.92688395099E-01 +6.78814431782E-05 -3.04647594516E-04 +1.26163310256E-04 -2.95914834304E-04 +7.47794509883E-01 +4.18178583830E-01
2.69000000000E+09 +7.56752897542E-01 +2.77857083541E-01 -7.45590510505E-05 -3.53606374703E-04 -8.39871962901E-05 -3.60521690720E-04 +7.50316550203E-01 +4.06164179349E-01
2.69500000000E+09 +7.57875936965E-01 +2.63516970110E-01 -1.83770636758E-05 -3.32183019573E-04 -4.89042795655E-05 -3.50420448888E-04 +7.52786647647E-01 +3.93761747410E-01
2.70000000000E+09 +7.58824693679E-01 +2.49412964067E-01 -1.73258899119E-04 -4.67917035075E-04 -1.19652868220E-04 -4.19993716786E-04 +7.55517156787E-01 +3.80979169264E-01
2.70500000000E+09 +7.59874776826E-01 +2.35940488042E-01 -3.28613126097E-04 -2.77506051839E-04 -3.33804289096E-04 -3.07270417710E-04 +7.58621837304E-01 +3.67915676213E-01
2.71000000000E+09 +7.60655950207E-01 +2.22519117723E-01 -3.82819300217E-04 -1.83490048274E-04 -3.75718676035E-04 -1.98649129433E-04 +7.61371651308E-01 +3.55026159287E-01
2.71500000000E+09 +7.61682018133E-01 +2.09033876254E-01 -2.90326809750E-04 -9.43363465495E-05 -2.87940331093E-04 -9.15858885904E-05 +7.64024774631E-01 +3.42568693239E-01
2.72000000000E+09 +7.62704493121E-01 +1.94443989277E-01 -3.29171746191E-04 -2.10967350162E-04 -3.72997042386E-04 -1.53319371919E-04 +7.65707006506E-01 +3.30028547026E-01
2.72500000000E+09 +7.63090615703E-01 +1.78674583094E-01 -5.71630236307E-04 -5.33085507956E-05 -5.56700822075E-04 +2.02736337983E-05 +7.66697669730E-01 +3.16912252167E-01
2.73000000000E+09 +7.62533381867E-01 +1.61826828158E-01 -4.53784503884E-04 +1.43653482156E-04 -4.02368151369E-04 +2.00907899257E-04 +7.67857287418E-01 +3.03284764780E-01
2.73500000000E+09 +7.60797865367E-01 +1.43862573605E-01 -4.79978127130E-04 +3.07352059355E-04 -3.85939798616E-04 +2.70598109313E-04 +7.68936098687E-01 +2.89161983331E-01
2.74000000000E+09 +7.57924860678E-01 +1.26101139625E-01 -1.27354899149E-04 +4.44006620177E-04 -1.47319980061E-04 +3.70291997303E-04 +7.70972154282E-01 +2.74422390987E-01
2.74500000000E+09 +7.54072490001E-01 +1.07745171088E-01 -6.83574490091E-05 +2.79818202181E-04 -9.80306914056E-05 +2.44464981974E-04 +7.72404827343E-01 +2.59353532927E-01
2.75000000000E+09 +7.49713713531E-01 +8.97810665208E-02 -8.03883993210E-05 +3.15116240438E-04 -9.44851909213E-05 +2.39183814151E-04 +7.73525680540E-01 +2.44315526655E-01
2.75500000000E+09 +7.44672857559E-01 +7.22998214277E-02 -8.63931251528E-05 +2.93376330456E-04 -6.77470604916E-05 +3.43456384003E-04 +7.73448786365E-01 +2.29561995013E-01
2.76000000000E+09 +7.40244924570E-01 +5.51500768914E-02 -6.83722656236E-05 +5.01889884996E-04 -4.53563345184E-05 +5.65739508082E-04 +7.73599877132E-01 +2.14532001478E-01
2.76500000000E+09 +7.35448835912E-01 +3.69435618665E-02 +2.57731607595E-04 +4.33701603131E-04 +3.23309786145E-04 +4.69222561253E-04 +7.72929550287E-01 +1.97657214964E-01
2.77000000000E+09 +7.29926633744E-01 +1.85321509341E-02 +2.84445262226E-04 +2.82295443740E-04 +3.41908758383E-04 +2.46787996817E-04 +7.71798110903E-01 +1.80782626481E-01
2.77500000000E+09 +7.24912214587E-01 -4.64395941160E-04 +3.59713646630E-04 +3.13449104330E-04 +3.86102176411E-04 +3.25863063218E-04 +7.70544020281E-01 +1.62861038381E-01
2.78000000000E+09 +7.19322354608E-01 -2.09781018423E-02 +5.92492086305E-04 +1.34752582789E-04 +5.53523489181E-04 +1.01341523758E-04 +7.68889682630E-01 +1.45057241226E-01
2.78500000000E+09 +7.12708403659E-01 -4.21629179172E-02 +6.25344978698E-04 +5.08560264336E-05 +6.40023435856E-04 -9.19292301757E-06 +7.66518173421E-01 +1.27278771197E-01
2.79000000000E+09 +7.05628015907E-01 -6.39090391226E-02 +5.28373624845E-04 -3.32721855251E-04 +4.34957851366E-04 -3.33217561787E-04 +7.63524393454E-01 +1.10159084332E-01
2.79500000000E+09 +6.97116803956E-01 -8.59217943160E-02 +4.20613574134E-04 -2.29433171576E-04 +2.89413934774E-04 -2.30439046349E-04 +7.59645680630E-01 +9.22980611774E-02
2.80000000000E+09 +6.87617521017E-01 -1.06621508128E-01 +4.16706876327E-04 -2.63156182423E-04 +3.50841015656E-04 -2.47904776190E-04 +7.54985565366E-01 +7.40394754243E-02
2.80500000000E+09 +6.77694348604E-01 -1.26497498650E-01 +4.20617580482E-04 -2.62958266812E-04 +4.33636061366E-04 -2.47141818208E-04 +7.49564571927E-01 +5.49021388907E-02
2.81000000000E+09 +6.67054306448E-01 -1.45022128714E-01 +5.22517992451E-04 -3.95822008659E-04 +5.87740588797E-04 -3.85243160101E-04 +7.43192955995E-01 +3.58383975933E-02
2.81500000000E+09 +6.55933877881E-01 -1.62203876839E-01 +4.63844994054E-04 -6.94181776163E-04 +4.49358757088E-04 -6.96256524248E-04 +7.36885316421E-01 +1.63603487948E-02
2.82000000000E+09 +6.44457235543E-01 -1.79277120975E-01 +2.05929841729E-04 -7.90235341068E-04 +2.02863140486E-04 -8.44750239625E-04 +7.29887780122E-01 -3.34723697874E-03
2.82500000000E+09 +6.31083457104E-01 -1.96244083367E-01 +2.40927302610E-04 -8.90321944268E-04 +2.73476008637E-04 -8.20184548431E-04 +7.21984547365E-01 -2.31994742326E-02
2.83000000000E+09 +6.16173099606E-01 -2.13044543926E-01 -3.34606161996E-05 -1.23967148986E-03 -7.64286791573E-06 -1.22213265135E-03 +7.13078138317E-01 -4.34835861206E-02
2.83500000000E+09 +6.00172897712E-01 -2.30354371830E-01 -5.07019039614E-04 -1.19586595037E-03 -3.56493302692E-04 -1.17685623694E-03 +7.03040992976E-01 -6.36110937325E-02
2.84000000000E+09 +5.82130629965E-01 -2.48645937351E-01 -8.07372635195E-04 -9.25152346079E-04 -7.85577115191E-04 -9.34728056081E-04 +6.92311248085E-01 -8.44604943235E-02
2.84500000000E+09 +5.61592103416E-01 -2.68118265008E-01 -8.77129834063E-04 -6.97399442029E-04 -8.15141990788E-04 -6.61054543346E-04 +6.80028898326E-01 -1.05255516602E-01
2.85000000000E+09 +5.39252999989E-01 -2.87081283231E-01 -8.26499132156E-04 -5.75533122636E-04 -8.44743255734E-04 -6.44373062600E-04 +6.66631852384E-01 -1.25998138517E-01
2.85500000000E+09 +5.15312567407E-01 -3.05593440230E-01 -1.06976058911E-03 -4.70145131312E-04 -1.07739897341E-03 -4.91511070232E-04 +6.52269941254E-01 -1.46334549903E-01
2.86000000000E+09 +4.91324812484E-01 -3.23191237841E-01 -9.71708105423E-04 -3.59054652185E-04 -9.72648509596E-04 -3.67517116767E-04 +6.37201434522E-01 -1.67460910411E-01
2.86500000000E+09 +4.66661249243E-01 -3.39636459588E-01 -1.13492495924E-03 -2.23617161352E-04 -1.11661581460E-03 -2.78896674908E-04 +6.19975106967E-01 -1.88940772283E-01
2.87000000000E+09 +4.42433866931E-01 -3.54742341520E-01 -1.17379400001E-03 -3.48460455204E-04 -1.16877647483E-03 -3.37214939094E-04 +6.00426010949E-01 -2.09956662990E-01
2.87500000000E+09 +4.18014954089E-01 -3.69419557303E-01 -1.76072352477E-03 -2.36360231973E-04 -1.80067594900E-03 -2.13525417332E-04 +5.80035928823E-01 -2.29369885630E-01
2.88000000000E+09 +3.92304515648E-01 -3.82239344309E-01 -2.06495385582E-03 +3.73051855481E-04 -1.95788798519E-03 +4.77851864898E-04 +5.58575258120E-01 -2.49056622484E-01
2.88500000000E+09 +3.66609524588E-01 -3.93458090102E-01 -1.93337161774E-03 +1.27250318194E-03 -1.86765049468E-03 +1.23285387762E-03 +5.35437107452E-01 -2.67811218865E-01
2.89000000000E+09 +3.39458439160E-01 -4.04575261842E-01 -1.10289805817E-03 +1.77326690208E-03 -1.09270005906E-03 +1.62571460890E-03 +5.09911533818E-01 -2.86246125635E-01
2.89500000000E+09 +3.08748973699E-01 -4.14056984680E-01 -5.32827309906E-04 +1.18526571577E-03 -5.74916802144E-04 +1.11614793119E-03 +4.82964482793E-01 -3.03521572695E-01
2.90000000000E+09 +2.77101048947E-01 -4.21264075594E-01 -9.98785800721E-04 +1.19366865387E-03 -1.08749781144E-03 +1.16428428029E-03 +4.54587680165E-01 -3.20296895721E-01
2.90500000000E+09 +2.43312354544E-01 -4.26581816161E-01 -9.27188152467E-04 +1.55308936449E-03 -9.29586285190E-04 +1.60666618479E-03 +4.24472198880E-01 -3.36354231753E-01
2.91000000000E+09 +2.09056539184E-01 -4.30761138046E-01 -7.94332392541E-04 +1.83781440836E-03 -7.29239128911E-04 +1.88838104508E-03 +3.92550949288E-01 -3.50113143131E-01
2.91500000000E+09 +1.73175363195E-01 -4.33311490385E-01 -2.31552641555E-04 +2.13625235301E-03 -1.44717515998E-04 +1.99582929604E-03 +3.60649220937E-01 -3.61390489599E-01
2.92000000000E+09 +1.37315612264E-01 -4.33191536429E-01 +3.26882943726E-05 +1.95686500071E-03 +1.62246230526E-05 +1.90453281425E-03 +3.27328424942E-01 -3.71575494029E-01
2.92500000000E+09 +1.01925356300E-01 -4.32111758420E-01 +1.28504631714E-04 +2.55662312619E-03 +4.71459929924E-05 +2.39384346761E-03 +2.91963912857E-01 -3.79632553277E-01
2.93000000000E+09 +6.61785975641E-02 -4.28723598477E-01 +1.18934324642E-03 +2.27524868092E-03 +1.02460784762E-03 +2.29582044656E-03 +2.54423681775E-01 -3.86031559220E-01
2.93500000000E+09 +3.21475243684E-02 -4.23294468050E-01 +1.10810584005E-03 +2.08457964477E-03 +1.08398070640E-03 +2.13554447658E-03 +2.15860478398E-01 -3.89473377280E-01
2.94000000000E+09 -2.02298224357E-03 -4.16754824327E-01 +1.94719916429E-03 +2.09850092573E-03 +1.83756508483E-03 +2.07539910374E-03 +1.77028507089E-01 -3.91309905685E-01
2.94500000000E+09 -3.69262258353E-02 -4.07198212029E-01 +2.09290062769E-03 +1.52796104486E-03 +2.07057477229E-03 +1.58170424942E-03 +1.37641781941E-01 -3.91430555510E-01
2.95000000000E+09 -7.11660042390E-02 -3.94000583957E-01 +2.37102957373E-03 +1.17356185982E-03 +2.27717422373E-03 +1.18346414064E-03 +9.76294960032E-02 -3.89008723994E-01
2.95500000000E+09 -1.04553791461E-01 -3.77976446891E-01 +2.57932598193E-03 +4.82022443466E-04 +2.60835499307E-03 +5.93568873420E-04 +5.68109658921E-02 -3.82334266453E-01
2.96000000000E+09 -1.36928219670E-01 -3.59050005131E-01 +2.04894975529E-03 +2.16832311406E-04 +2.21017615111E-03 +2.80934636307E-04 +1.75385539782E-02 -3.72194431696E-01
2.96500000000E+09 -1.68550276868E-01 -3.37718074451E-01 +2.41581953863E-03 +5.79247916718E-04 +2.58581003618E-03 +5.45963958031E-04 -2.25958053715E-02 -3.60182210313E-01
2.97000000000E+09 -1.98787994598E-01 -3.13344223220E-01 +3.28940075778E-03 -1.40203775399E-04 +3.26561670085E-03 -2.65366629378E-04 -6.14426931797E-02 -3.44832798584E-01
2.97500000000E+09 -2.27478137357E-01 -2.87676000160E-01 +3.10628606545E-03 -1.26189412808E-03 +2.94246578089E-03 -1.25143930011E-03 -1.00700249427E-01 -3.28638679081E-01
2.98000000000E+09 -2.55290869257E-01 -2.59841320899E-01 +2.40923723729E-03 -1.82850167497E-03 +2.36612438073E-03 -1.70534406726E-03 -1.39112172889E-01 -3.07594250971E-01
2.98500000000E+09 -2.80294449904E-01 -2.29756456936E-01 +1.70644362023E-03 -1.81660963576E-03 +1.80555592631E-03 -1.72182106609E-03 -1.74907202606E-01 -2.84353188418E-01
2.99000000000E+09 -3.03104833902E-01 -2.00000363123E-01 +1.84456626708E-03 -1.86343785687E-03 +1.96272138458E-03 -1.95063077125E-03 -2.08963787093E-01 -2.57944444320E-01
2.99500000000E+09 -3.26144736429E-01 -1.69802182976E-01 +1.73377280573E-03 -2.31472170081E-03 +1.70256485830E-03 -2.50956516587E-03 -2.40760585101E-01 -2.29475808775E-01
3.00000000000E+09 -3.47176241987E-01 -1.36475940887E-01 +1.29912539807E-03 -2.88139752755E-03 +1.13137456508E-03 -2.96781833912E-03 -2.71550899673E-01 -1.98018138373E-01
3.00500000000E+09 -3.64507036576E-01 -1.03192223687E-01 +1.61823838231E-04 -3.10918048327E-03 +2.99952991807E-05 -2.97917160592E-03 -2.99533892963E-01 -1.64772895793E-01
3.01000000000E+09 -3.80952362033E-01 -6.95394056214E-02 -3.85393189767E-04 -2.39919837965E-03 -3.31100743136E-04 -2.29280708399E-03 -3.25761334101E-01 -1.29526053495E-01
3.01500000000E+09 -3.93407901008E-01 -3.52202773496E-02 +5.02567005990E-05 -2.45927052576E-03 +6.42464060704E-05 -2.33739972115E-03 -3.48320822790E-01 -9.36456118506E-02
3.02000000000E+09 -4.04349285308E-01 -1.40994766482E-03 -5.71291020372E-04 -2.69604270497E-03 -4.66368671810E-04 -2.69202939524E-03 -3.68488290073E-01 -5.68474272246E-02
3.02500000000E+09 -4.11929980299E-01 +3.27797516716E-02 -9.72275847371E-04 -2.79111540674E-03 -9.57372095916E-04 -2.84496018669E-03 -3.85297619578E-01 -1.78548740918E-02
3.03000000000E+09 -4.16544815224E-01 +6.71782754940E-02 -2.10359891784E-03 -2.41652518367E-03 -1.99304431603E-03 -2.39982795049E-03 -3.98058532886E-01 +2.09801639183E-02
3.03500000000E+09 -4.17080245006E-01 +1.00390712662E-01 -2.10073905633E-03 -1.31375172489E-03 -2.02770361716E-03 -1.46022883381E-03 -4.08853398103E-01 +5.97537497663E-02
3.04000000000E+09 -4.16843681795E-01 +1.31622179793E-01 -1.81098844606E-03 -1.29966139422E-03 -1.77654891492E-03 -1.38609526273E-03 -4.17422145633E-01 +9.88356097460E-02
3.04500000000E+09 -4.15036785123E-01 +1.64764379320E-01 -1.99953242934E-03 -1.20424542649E-03 -2.11630266622E-03 -1.26109186822E-03 -4.23432092770E-01 +1.38424968981E-01
3.05000000000E+09 -4.09611618810E-01 +1.97901368343E-01 -2.19377465182E-03 -1.02132334787E-03 -2.36274494465E-03 -1.03512493390E-03 -4.26547106693E-01 +1.77460191701E-01
3.05500000000E+09 -4.01869139660E-01 +2.30479746558E-01 -2.66985408165E-03 -4.74311394781E-04 -2.73613140450E-03 -2.61839555889E-04 -4.26873465790E-01 +2.15871533025E-01
3.06000000000E+09 -3.92211954187E-01 +2.62348691521E-01 -2.48420122881E-03 +1.84227429663E-04 -2.38358938927E-03 +3.42726766790E-04 -4.24824786442E-01 +2.53184231355E-01
3.06500000000E+09 -3.80874236137E-01 +2.93319512087E-01 -2.06790776116E-03 +6.37701781245E-04 -1.95100278666E-03 +6.52516259188E-04 -4.19885795803E-01 +2.89479350054E-01
3.07000000000E+09 -3.68769867752E-01 +3.22372527887E-01 -1.70079396851E-03 +6.26249164400E-04 -1.69872116379E-03 +5.31345658778E-04 -4.13729376416E-01 +3.24356083732E-01
