# Hz S RI R 50
! CMT, C1220, 16058040, 17.2.0/1
! Date: 15/08/2018 10:17:42
! Data: Format (Calibration Info)
! Freq                      S11: Re/Im (F2)                       S21: Re/Im (F2)                       S12: Re/Im (F2)                       S22: Re/Im (F2)            
2.50000000000E+09 +5.96760495263E-01 +6.34928217282E-01 -4.24925983472E-04 +1.25066304138E-04 -5.00985018420E-04 +1.56495067158E-04 +5.73467998726E-01 +7.16338545307E-01
2.50500000000E+09 +6.03170124847E-01 +6.27142330700E-01 -3.93455654060E-04 +2.37296055953E-04 -3.23678419814E-04 +2.67133919928E-04 +5.79090576796E-01 +7.10748369344E-01
2.51000000000E+09 +6.09646402198E-01 +6.18927406972E-01 -2.78691261826E-04 +2.88954422161E-04 -2.87229023492E-04 +3.05761125930E-04 +5.84321875785E-01 +7.05509003137E-01
2.51500000000E+09 +6.15886229930E-01 +6.10852518514E-01 -2.21504022441E-04 +2.56545536629E-04 -2.23952800014E-04 +2.29271754467E-04 +5.89663703601E-01 +7.00277508583E-01
2.52000000000E+09 +6.21666635624E-01 +6.03008984202E-01 -1.91616273262E-04 +2.53308270559E-04 -2.06612998209E-04 +2.81454676028E-04 +5.94881100074E-01 +6.94302974238E-01
2.52500000000E+09 +6.26861399826E-01 +5.95765004059E-01 -1.76590626441E-04 +2.50416184095E-04 -2.30954069036E-04 +2.73940800406E-04 +6.00388247026E-01 +6.87915142142E-01
2.53000000000E+09 +6.31556329276E-01 +5.89120637618E-01 -1.65665413804E-04 +3.16150863540E-04 -1.73401101671E-04 +3.30636337810E-04 +6.06584745687E-01 +6.81123458293E-01
2.53500000000E+09 +6.36066214179E-01 +5.82828280284E-01 -1.29547907004E-04 +2.82201344249E-04 -1.72081986814E-04 +3.22336237773E-04 +6.12499038499E-01 +6.74270402152E-01
2.54000000000E+09 +6.40065580325E-01 +5.76743844667E-01 -6.94924902923E-05 +3.67983150198E-04 -1.29967331744E-04 +3.40859232817E-04 +6.18382593797E-01 +6.67440561209E-01
2.54500000000E+09 +6.44357112620E-01 +5.71089027695E-01 +1.45203842810E-05 +3.84440586055E-04 -9.70739772561E-06 +3.94553337499E-04 +6.24203903216E-01 +6.61122995665E-01
2.55000000000E+09 +6.49190370481E-01 +5.65108856412E-01 +6.78794055735E-05 +2.63189870692E-04 +6.84531806775E-05 +2.88683969475E-04 +6.29659800747E-01 +6.54703944956E-01
2.55500000000E+09 +6.54758348426E-01 +5.58221723194E-01 +8.53660837969E-05 +1.63473333767E-04 +1.21321648333E-04 +1.86550857155E-04 +6.34824371321E-01 +6.48197593160E-01
2.56000000000E+09 +6.60861747489E-01 +5.50930943243E-01 +2.92954405615E-06 +6.99353157981E-05 -2.52877734348E-05 +3.20253111379E-05 +6.40097312126E-01 +6.40932325607E-01
2.56500000000E+09 +6.67116007988E-01 +5.42446173995E-01 -1.62254754499E-04 +9.23244959296E-05 -1.41521080998E-04 +8.26255657979E-05 +6.45515193166E-01 +6.33338400072E-01
2.57000000000E+09 +6.73306472108E-01 +5.33738814535E-01 -2.07680008978E-04 +3.23992222160E-04 -1.52462259074E-04 +2.99015850461E-04 +6.50755353343E-01 +6.25430040334E-01
2.57500000000E+09 +6.79368786741E-01 +5.24769049245E-01 -8.82324091145E-05 +3.74367635272E-04 -3.17718453457E-05 +3.50988644350E-04 +6.55918428650E-01 +6.17778573194E-01
2.58000000000E+09 +6.85031569129E-01 +5.16058320216E-01 +2.76675500374E-06 +3.70243620153E-04 -1.81802837491E-05 +3.35406385716E-04 +6.60906906218E-01 +6.10577218820E-01
2.58500000000E+09 +6.90127010666E-01 +5.06977416371E-01 +4.76431368193E-05 +3.06804974498E-04 +1.41441233812E-06 +3.26685048725E-04 +6.65828317118E-01 +6.02931386579E-01
2.59000000000E+09 +6.94739991003E-01 +4.98333784628E-01 -4.18369751394E-05 +3.34537729209E-04 -8.40346209864E-05 +3.22828249962E-04 +6.70337447527E-01 +5.95543140018E-01
2.59500000000E+09 +6.98808752720E-01 +4.89762301157E-01 -6.12499902664E-05 +4.43357825836E-04 -5.35089106310E-05 +4.41230619783E-04 +6.75168556394E-01 +5.87520814265E-01
2.60000000000E+09 +7.02753217996E-01 +4.81146935386E-01 +2.06849541726E-05 +5.26921791092E-04 +7.88414866821E-05 +5.36394215253E-04 +6.80223811586E-01 +5.79169558503E-01
2.60500000000E+09 +7.06890931329E-01 +4.71876375100E-01 +1.08623928894E-04 +6.01816893159E-04 +7.96713785653E-05 +5.82614094744E-04 +6.85352204364E-01 +5.70742272235E-01
2.61000000000E+09 +7.11120061571E-01 +4.61707140670E-01 +3.67888578299E-04 +5.66170910362E-04 +3.39704212617E-04 +5.99237642044E-04 +6.90822532743E-01 +5.61979975203E-01
2.61500000000E+09 +7.15628181485E-01 +4.50450376856E-01 +4.61937956453E-04 +4.74903959298E-04 +4.97305681461E-04 +4.96587674321E-04 +6.95515777092E-01 +5.53254573544E-01
2.62000000000E+09 +7.19686078339E-01 +4.38033516207E-01 +4.45394902835E-04 +2.90041346070E-04 +4.76274867854E-04 +3.16631316029E-04 +7.00312126640E-01 +5.44429987588E-01
2.62500000000E+09 +7.23587740584E-01 +4.24756299959E-01 +3.66444277693E-04 +3.29501825084E-04 +4.60425483696E-04 +3.27962918918E-04 +7.05079609951E-01 +5.35496461033E-01
2.63000000000E+09 +7.27188374544E-01 +4.11401267030E-01 +4.58263253572E-04 +3.84269861698E-04 +4.63935763881E-04 +3.23392036786E-04 +7.09896593391E-01 +5.26281671270E-01
2.63500000000E+09 +7.30233602068E-01 +3.98028856561E-01 +5.01567420918E-04 +3.28167787319E-04 +5.06304443021E-04 +2.25494709337E-04 +7.14883598272E-01 +5.16877596183E-01
2.64000000000E+09 +7.33210631776E-01 +3.85284833679E-01 +6.24345015583E-04 +3.68487431129E-04 +6.03102737799E-04 +2.73871190772E-04 +7.19748542284E-01 +5.07015582268E-01
2.64500000000E+09 +7.36125430413E-01 +3.73267083985E-01 +7.38795388170E-04 +1.61756421244E-04 +6.41455268202E-04 +1.92662730477E-04 +7.24515112212E-01 +4.97339636174E-01
2.65000000000E+09 +7.38514704984E-01 +3.62070047038E-01 +7.03927588415E-04 +6.47521471795E-05 +7.03322711064E-04 +1.51076981761E-04 +7.28869887599E-01 +4.87174922456E-01
2.65500000000E+09 +7.41163870447E-01 +3.50942563573E-01 +7.51558486446E-04 -5.66997269471E-06 +8.02305206096E-04 +2.85958599928E-05 +7.32755430954E-01 +4.76662619988E-01
2.66000000000E+09 +7.43800202646E-01 +3.40019427444E-01 +6.70818458882E-04 -1.31970625583E-04 +7.33083478350E-04 -1.38095227848E-04 +7.36532500397E-01 +4.65558145650E-01
2.66500000000E+09 +7.46558979721E-01 +3.28818129683E-01 +7.38658400627E-04 -1.70259249930E-04 +7.20595286717E-04 -2.44812578001E-04 +7.40384010042E-01 +4.54408084183E-01
2.67000000000E+09 +7.48703664801E-01 +3.16659424791E-01 +6.80497824341E-04 -3.98860500239E-04 +6.22019233170E-04 -3.82624075544E-04 +7.44498943290E-01 +4.43611306893E-01
2.67500000000E+09 +7.50354496803E-01 +3.03847487033E-01 +5.02771672581E-04 -2.58807727330E-04 +4.31377743720E-04 -2.79100004174E-04 +7.48768273757E-01 +4.32504523733E-01
2.68000000000E+09 +7.51637503545E-01 +2.90350288881E-01 +6.47241321048E-04 -1.94142678625E-04 +6.32238484388E-04 -1.81487452029E-04 +7.52664715186E-01 +4.21330970163E-01
2.68500000000E+09 +7.52355310029E-01 +2.76121441707E-01 +6.51874536710E-04 -4.27347429540E-04 +6.02395435388E-04 -3.63436531335E-04 +7.55412902921E-01 +4.09735581385E-01
2.69000000000E+09 +7.52609069760E-01 +2.61869342193E-01 +5.91695994322E-04 -4.62467901120E-04 +6.02141937519E-04 -4.63365629755E-04 +7.57842729563E-01 +3.98019846947E-01
2.69500000000E+09 +7.52645848584E-01 +2.47679019295E-01 +6.32421264062E-04 -4.35278252699E-04 +6.19517167934E-04 -4.65619146655E-04 +7.60427236628E-01 +3.85743652785E-01
2.70000000000E+09 +7.52793942590E-01 +2.33681775538E-01 +7.19582736652E-04 -6.93695995752E-04 +7.39488135275E-04 -6.30630081354E-04 +7.63720501373E-01 +3.72394387378E-01
2.70500000000E+09 +7.52958571347E-01 +2.20153194331E-01 +5.68081945056E-04 -7.40406666935E-04 +5.84552664296E-04 -7.27188062071E-04 +7.66319674130E-01 +3.58857483913E-01
2.71000000000E+09 +7.53823576768E-01 +2.06788129023E-01 +4.95561789864E-04 -9.31978645575E-04 +5.66765347749E-04 -9.39963853871E-04 +7.69003766723E-01 +3.45911055587E-01
2.71500000000E+09 +7.55296729246E-01 +1.92783086204E-01 +2.33326582873E-04 -9.79287580224E-04 +2.82449830281E-04 -1.06584229951E-03 +7.71750933995E-01 +3.33328854544E-01
2.72000000000E+09 +7.56657507806E-01 +1.78023836359E-01 +1.12758114366E-04 -8.15602721164E-04 +3.91841918530E-05 -9.22327256642E-04 +7.73978590233E-01 +3.20667570619E-01
2.72500000000E+09 +7.57308832505E-01 +1.62293973339E-01 +3.63587714972E-04 -8.03266680540E-04 +2.68961442714E-04 -8.13969499899E-04 +7.75258154975E-01 +3.07429906749E-01
2.73000000000E+09 +7.56843181027E-01 +1.46005079488E-01 +2.27348618600E-04 -1.22050800794E-03 +1.12941538829E-04 -1.15854861773E-03 +7.76607788895E-01 +2.93518921222E-01
2.73500000000E+09 +7.55241437765E-01 +1.28932281674E-01 -1.46815968067E-04 -1.26860240965E-03 -1.27472300972E-04 -1.08012195989E-03 +7.77894107853E-01 +2.78718879892E-01
2.74000000000E+09 +7.52293542971E-01 +1.12083481040E-01 -3.46629535945E-04 -1.16574325096E-03 -2.48581885893E-04 -1.06289423495E-03 +7.79402772387E-01 +2.63686567130E-01
2.74500000000E+09 +7.48462497204E-01 +9.48919298862E-02 -4.11688753478E-04 -1.00815642289E-03 -3.03754484298E-04 -9.50648020628E-04 +7.80575555759E-01 +2.48319288575E-01
2.75000000000E+09 +7.43351027417E-01 +7.77049224432E-02 -3.59024992909E-04 -9.19256528135E-04 -2.57610982839E-04 -1.03595649601E-03 +7.81364318957E-01 +2.33320389501E-01
2.75500000000E+09 +7.37668846724E-01 +6.10915440854E-02 -5.14828497245E-04 -1.14292926913E-03 -4.38092833308E-04 -1.28327076629E-03 +7.81630210632E-01 +2.17937715804E-01
2.76000000000E+09 +7.32235449287E-01 +4.47726692481E-02 -7.62404200863E-04 -1.10936220198E-03 -7.80699224176E-04 -1.21273322637E-03 +7.81061556256E-01 +2.02463589471E-01
2.76500000000E+09 +7.27305696340E-01 +2.79947433240E-02 -1.07312273365E-03 -1.04084810078E-03 -1.10804079649E-03 -1.06792892035E-03 +7.80428957678E-01 +1.85438753070E-01
2.77000000000E+09 +7.22255532707E-01 +1.00679210931E-02 -1.18239610504E-03 -7.78908712739E-04 -1.22195779039E-03 -7.05010413009E-04 +7.79167073967E-01 +1.67598111851E-01
2.77500000000E+09 +7.17242913014E-01 -8.38198243056E-03 -1.17184997181E-03 -4.59114844292E-04 -1.20892840955E-03 -4.54279915102E-04 +7.77262027392E-01 +1.49467651338E-01
2.78000000000E+09 +7.11973475767E-01 -2.79233903163E-02 -1.08673668129E-03 -4.39096042994E-04 -1.14668084190E-03 -4.00929670438E-04 +7.75187801057E-01 +1.31415103201E-01
2.78500000000E+09 +7.05397550732E-01 -4.83368142152E-02 -1.03811837966E-03 -4.81975896342E-04 -1.04466436818E-03 -3.92001592369E-04 +7.72710419985E-01 +1.13454115189E-01
2.79000000000E+09 +6.97902586207E-01 -6.85394398590E-02 -1.36359492239E-03 -4.55190414773E-04 -1.32163576314E-03 -4.09445642893E-04 +7.69261541620E-01 +9.57958866787E-02
2.79500000000E+09 +6.89784214315E-01 -8.89082456902E-02 -1.47942390534E-03 -2.05792196028E-04 -1.43073106177E-03 -1.70869415202E-04 +7.65367780666E-01 +7.79482499404E-02
2.80000000000E+09 +6.79635653721E-01 -1.09089513530E-01 -1.42469027014E-03 +2.09240878521E-04 -1.37204375332E-03 +1.07295715986E-04 +7.60442447235E-01 +5.91470380144E-02
2.80500000000E+09 +6.68499240825E-01 -1.27822223841E-01 -1.19979792574E-03 +8.22582211799E-05 -1.18030775226E-03 +4.68693726956E-05 +7.54459546705E-01 +3.96127748554E-02
2.81000000000E+09 +6.56181745805E-01 -1.45356706116E-01 -1.41632876115E-03 +2.75383977959E-05 -1.42662048586E-03 +2.08228418798E-06 +7.47590957515E-01 +2.01811240103E-02
2.81500000000E+09 +6.43314503194E-01 -1.62171109225E-01 -1.55461723252E-03 +1.86053066489E-04 -1.57745528189E-03 +2.25672202299E-04 +7.40084001658E-01 +9.38923377079E-04
2.82000000000E+09 +6.29550549942E-01 -1.78620480636E-01 -1.87419563223E-03 +5.26507278672E-04 -1.84052760476E-03 +6.85161558986E-04 +7.32752643142E-01 -1.87391998767E-02
2.82500000000E+09 +6.15288158633E-01 -1.94975091286E-01 -1.56866429339E-03 +1.04962532100E-03 -1.45110179405E-03 +1.04917895670E-03 +7.23461631116E-01 -3.89414480146E-02
2.83000000000E+09 +5.99038503594E-01 -2.12520299041E-01 -1.26007643472E-03 +1.07635561110E-03 -1.15948331702E-03 +1.02692618490E-03 +7.13470728291E-01 -5.84323087742E-02
2.83500000000E+09 +5.81365167476E-01 -2.29886334665E-01 -1.40573779492E-03 +1.12531399322E-03 -1.38828304359E-03 +1.01537812415E-03 +7.02363896657E-01 -7.86543503130E-02
2.84000000000E+09 +5.62158573140E-01 -2.48024732250E-01 -1.26417984210E-03 +1.51603908006E-03 -1.28763021252E-03 +1.46357787506E-03 +6.90808900028E-01 -9.82940054315E-02
2.84500000000E+09 +5.40595232763E-01 -2.66454687071E-01 -1.20705923922E-03 +1.65660878059E-03 -1.23343260977E-03 +1.61973465326E-03 +6.78564697761E-01 -1.18979011695E-01
2.85000000000E+09 +5.17735799317E-01 -2.84360885810E-01 -7.46183417945E-04 +2.29336973143E-03 -7.29044771639E-04 +2.28205336650E-03 +6.64723489852E-01 -1.39921866220E-01
2.85500000000E+09 +4.93317942566E-01 -3.01928975160E-01 +7.63027715090E-05 +1.80163694564E-03 +1.00248926253E-04 +1.70457392144E-03 +6.49751095837E-01 -1.59987024804E-01
2.86000000000E+09 +4.67805291350E-01 -3.18103981786E-01 -4.04278124392E-04 +1.31214647765E-03 -4.17266889560E-04 +1.23093769531E-03 +6.33744112219E-01 -1.80187859722E-01
2.86500000000E+09 +4.42030514982E-01 -3.32919452149E-01 -8.29375119650E-04 +1.98216534797E-03 -8.81919712459E-04 +1.96010804650E-03 +6.16414296914E-01 -2.00550888485E-01
2.87000000000E+09 +4.16247299036E-01 -3.46542091461E-01 -7.62151796318E-05 +2.60354696873E-03 -1.25380744740E-04 +2.61946860086E-03 +5.97473336412E-01 -2.20975918912E-01
2.87500000000E+09 +3.90297340872E-01 -3.59396081748E-01 +4.84633355764E-04 +2.43155585646E-03 +5.26801851405E-04 +2.41294776977E-03 +5.76579524033E-01 -2.40770370155E-01
2.88000000000E+09 +3.63217084712E-01 -3.71018170038E-01 +8.11126574255E-04 +2.40928508902E-03 +8.72283736223E-04 +2.29530422578E-03 +5.55368528506E-01 -2.59178733456E-01
2.88500000000E+09 +3.35363507163E-01 -3.81262321822E-01 +1.31462950809E-03 +2.07126202563E-03 +1.24246698487E-03 +1.95273406392E-03 +5.32598334496E-01 -2.77927159830E-01
2.89000000000E+09 +3.06132478676E-01 -3.89664292192E-01 +1.18638289023E-03 +1.76572668856E-03 +1.07818917738E-03 +1.71292813589E-03 +5.07260002057E-01 -2.95480682516E-01
2.89500000000E+09 +2.75746851364E-01 -3.96233165335E-01 +1.40598402093E-03 +2.12720472909E-03 +1.27985120976E-03 +2.11291823822E-03 +4.80940024807E-01 -3.12665714221E-01
2.90000000000E+09 +2.43962568022E-01 -4.00914799078E-01 +2.19677024255E-03 +1.86896438372E-03 +2.12207178659E-03 +2.04611279373E-03 +4.52171417326E-01 -3.29460576976E-01
2.90500000000E+09 +2.10501120403E-01 -4.03887775231E-01 +2.09373477516E-03 +1.29776391510E-03 +2.18646497878E-03 +1.37256314202E-03 +4.21359396248E-01 -3.44742339086E-01
2.91000000000E+09 +1.75473396203E-01 -4.03393090015E-01 +2.48492596943E-03 +1.35893204412E-03 +2.48093370028E-03 +1.36418965494E-03 +3.89771985333E-01 -3.58514980545E-01
2.91500000000E+09 +1.40737807220E-01 -4.00455406886E-01 +2.97862224843E-03 +9.65531243790E-04 +2.84858027322E-03 +8.99972808751E-04 +3.56840784145E-01 -3.69606458773E-01
2.92000000000E+09 +1.05747923532E-01 -3.94868117296E-01 +3.14662600633E-03 -1.47676018946E-04 +3.01682704332E-03 -6.89427508428E-05 +3.23516167960E-01 -3.79164252468E-01
2.92500000000E+09 +7.14796369117E-02 -3.88325492661E-01 +2.44477704456E-03 -3.78683893313E-04 +2.34664330072E-03 -1.72221778740E-04 +2.87863665540E-01 -3.87034525338E-01
2.93000000000E+09 +3.60393395920E-02 -3.78990654154E-01 +2.57915122895E-03 -3.43536823939E-04 +2.58617463633E-03 -1.85875631535E-04 +2.50447178041E-01 -3.91942418898E-01
2.93500000000E+09 +2.19368458651E-03 -3.67047330592E-01 +2.66805556426E-03 -1.06420028399E-03 +2.73729462615E-03 -9.13777345633E-04 +2.12853180153E-01 -3.94992677295E-01
2.94000000000E+09 -3.07122961408E-02 -3.53432181866E-01 +2.15092598604E-03 -1.21261131512E-03 +2.25410185300E-03 -1.16396865575E-03 +1.74821884347E-01 -3.96668492401E-01
2.94500000000E+09 -6.31119418800E-02 -3.37965029392E-01 +2.26310050733E-03 -1.13859149763E-03 +2.29538889713E-03 -1.07725481133E-03 +1.35685713019E-01 -3.97140173172E-01
2.95000000000E+09 -9.52491184098E-02 -3.19468503524E-01 +2.46775552476E-03 -1.98857826340E-03 +2.48952290960E-03 -1.86173635441E-03 +9.53890572780E-02 -3.93461273417E-01
2.95500000000E+09 -1.25837060864E-01 -2.97816813367E-01 +1.82942603981E-03 -2.32825733800E-03 +1.94351814819E-03 -2.26106658886E-03 +5.66155912728E-02 -3.86404160793E-01
2.96000000000E+09 -1.53966225767E-01 -2.72774102384E-01 +1.47216773660E-03 -2.88290216229E-03 +1.59815224327E-03 -2.98417869762E-03 +1.79302455933E-02 -3.77095371049E-01
2.96500000000E+09 -1.79646336854E-01 -2.46849300046E-01 +2.78824149895E-04 -2.70837077910E-03 +2.33120504944E-04 -2.83900062141E-03 -2.11747417482E-02 -3.65929231994E-01
2.97000000000E+09 -2.04157354828E-01 -2.19145896556E-01 +2.39996788516E-04 -2.10632703107E-03 +1.66026583768E-04 -2.09006309794E-03 -6.17893106850E-02 -3.51310449221E-01
2.97500000000E+09 -2.27489559605E-01 -1.89058012132E-01 +4.86057562135E-04 -1.95351657679E-03 +4.45977689171E-04 -1.89258865409E-03 -9.97035904203E-02 -3.32955646821E-01
2.98000000000E+09 -2.48206851919E-01 -1.57102380970E-01 +3.37248348915E-04 -2.67724205094E-03 +3.90232692825E-04 -2.59512686426E-03 -1.36696759866E-01 -3.13908426004E-01
2.98500000000E+09 -2.66597476734E-01 -1.24910598016E-01 -4.99883890109E-04 -2.69732447658E-03 -3.86891362323E-04 -2.82947748339E-03 -1.72334433976E-01 -2.91613083648E-01
2.99000000000E+09 -2.83412870846E-01 -9.18542609132E-02 -9.87626588384E-04 -2.31081980505E-03 -9.63957176909E-04 -2.45320678478E-03 -2.07925616706E-01 -2.67809339132E-01
2.99500000000E+09 -2.97991429213E-01 -5.92671776647E-02 -8.83670453097E-04 -1.97704005985E-03 -9.94132985415E-04 -2.01138813373E-03 -2.42130048096E-01 -2.38211568787E-01
3.00000000000E+09 -3.11481417672E-01 -2.63961524457E-02 -1.03511298113E-03 -2.06962779123E-03 -1.14681138683E-03 -1.99767150019E-03 -2.72514265180E-01 -2.06525589823E-01
3.00500000000E+09 -3.22611716908E-01 +6.20491070643E-03 -1.55697488498E-03 -2.10580543126E-03 -1.52245683174E-03 -1.92914705815E-03 -3.00842294990E-01 -1.74164775570E-01
3.01000000000E+09 -3.31455342185E-01 +3.88563173580E-02 -2.21696740110E-03 -1.79490664770E-03 -2.04990972955E-03 -1.71127161420E-03 -3.27883861309E-01 -1.39627643953E-01
3.01500000000E+09 -3.36650821822E-01 +7.13749926619E-02 -2.17770084692E-03 -6.20801855578E-04 -2.07913137523E-03 -6.57594833700E-04 -3.51477020452E-01 -1.03249713579E-01
3.02000000000E+09 -3.39267169772E-01 +1.02316890365E-01 -1.42409216648E-03 -5.37497738297E-04 -1.36618384924E-03 -6.29531364222E-04 -3.71748773727E-01 -6.54834351965E-02
3.02500000000E+09 -3.39169883265E-01 +1.33303893284E-01 -1.32054426242E-03 -8.69527347874E-04 -1.33259483391E-03 -8.56134766996E-04 -3.87931526829E-01 -2.62403126144E-02
3.03000000000E+09 -3.35924789129E-01 +1.63172237140E-01 -2.02535265157E-03 -1.46473499987E-03 -2.07659826985E-03 -1.46813570599E-03 -4.01482267428E-01 +1.20835948567E-02
3.03500000000E+09 -3.30703862347E-01 +1.92613256524E-01 -3.12642576850E-03 -2.60430799574E-04 -3.16692254940E-03 -3.50134718797E-04 -4.13548051897E-01 +5.16303339524E-02
3.04000000000E+09 -3.22561894088E-01 +2.21874420906E-01 -2.59831491594E-03 +1.09549296257E-03 -2.67977366705E-03 +1.04820916005E-03 -4.22271873665E-01 +9.19588767143E-02
3.04500000000E+09 -3.12810391367E-01 +2.50087715395E-01 -1.27757593692E-03 +1.26924271220E-03 -1.34101931375E-03 +1.33382718861E-03 -4.28398613841E-01 +1.31813677414E-01
3.05000000000E+09 -3.01744140008E-01 +2.77766860346E-01 -9.34051694515E-04 +4.19091447655E-04 -9.65041800859E-04 +5.55101352682E-04 -4.31562464475E-01 +1.71613591096E-01
3.05500000000E+09 -2.89565749464E-01 +3.05536613154E-01 -1.39851386411E-03 +3.02618572101E-04 -1.43464637335E-03 +4.03913752247E-04 -4.31941287966E-01 +2.10466425274E-01
3.06000000000E+09 -2.75413479430E-01 +3.32409693289E-01 -1.79363869347E-03 +9.75635083532E-04 -1.71364298282E-03 +1.02365198278E-03 -4.30002686138E-01 +2.48678950292E-01
3.06500000000E+09 -2.60773356832E-01 +3.57298378055E-01 -9.04793201108E-04 +1.55978152736E-03 -8.46054660263E-04 +1.42778379382E-03 -4.25838592904E-01 +2.85509188945E-01
3.07000000000E+09 -2.45661511272E-01 +3.81092432928E-01 -4.37592638768E-04 +1.05240540631E-03 -4.91169256039E-04 +9.74403423648E-04 -4.19603030719E-01 +3.21724737230E-01
