# Hz S RI R 50
! CMT, C1220, 16058040, 17.2.0/1
! Date: 15/08/2018 09:56:17
! Data: Format (Calibration Info)
! Freq                      S11: Re/Im (F2)                       S21: Re/Im (F2)                       S12: Re/Im (F2)                       S22: Re/Im (F2)            
2.50000000000E+09 +5.95875806568E-01 +6.33236935232E-01 -2.84067498862E-04 -1.18055195391E-03 -2.88551219180E-04 -1.28285377761E-03 +5.77493743882E-01 +7.13371219883E-01
2.50500000000E+09 +6.01813582302E-01 +6.26269166103E-01 -3.89852285838E-04 -1.17649150113E-03 -4.64357448406E-04 -1.26540611135E-03 +5.83212605322E-01 +7.07923770011E-01
2.51000000000E+09 +6.08296868555E-01 +6.18625740899E-01 -4.85222545443E-04 -1.14517242930E-03 -5.22132337913E-04 -1.15824514031E-03 +5.88730449351E-01 +7.02625853176E-01
2.51500000000E+09 +6.14571571993E-01 +6.10800088600E-01 -6.61341115646E-04 -1.21806733806E-03 -5.90594476731E-04 -1.15348805508E-03 +5.93818894652E-01 +6.97212051039E-01
2.52000000000E+09 +6.20737797965E-01 +6.02716128688E-01 -8.64062671250E-04 -1.08466349823E-03 -7.81565186356E-04 -1.12754068508E-03 +5.98962036496E-01 +6.91359518020E-01
2.52500000000E+09 +6.26351938878E-01 +5.94635035346E-01 -9.57591839703E-04 -9.40733213272E-04 -8.92886575222E-04 -1.01588426314E-03 +6.04647308136E-01 +6.84875870294E-01
2.53000000000E+09 +6.31795846710E-01 +5.87105698906E-01 -9.68248031002E-04 -7.59812537445E-04 -9.93005607571E-04 -7.90779863233E-04 +6.10574257516E-01 +6.77684395201E-01
2.53500000000E+09 +6.36860399005E-01 +5.80133706557E-01 -8.84001568283E-04 -7.27696393310E-04 -8.86030932808E-04 -7.70050540339E-04 +6.16480214732E-01 +6.70629818929E-01
2.54000000000E+09 +6.41991341716E-01 +5.73504220727E-01 -9.47701167356E-04 -8.51765882751E-04 -9.54076738730E-04 -8.67758241771E-04 +6.22417264778E-01 +6.64109625242E-01
2.54500000000E+09 +6.46997725596E-01 +5.66986390024E-01 -1.20634360631E-03 -8.68614190210E-04 -1.09994564486E-03 -9.37575170994E-04 +6.28272504072E-01 +6.57681631864E-01
2.55000000000E+09 +6.51851531608E-01 +5.60504909595E-01 -1.42988462448E-03 -6.89846289209E-04 -1.45796735697E-03 -8.62021995208E-04 +6.33446900821E-01 +6.51506918855E-01
2.55500000000E+09 +6.56852979747E-01 +5.53767800269E-01 -1.49780363419E-03 -3.78253924600E-04 -1.67876569672E-03 -5.00253096398E-04 +6.38584520044E-01 +6.45138290283E-01
2.56000000000E+09 +6.62262144120E-01 +5.47072421453E-01 -1.36095881995E-03 -1.75517086359E-04 -1.57270772039E-03 -1.63974111670E-04 +6.43658202366E-01 +6.37951451501E-01
2.56500000000E+09 +6.68075002545E-01 +5.39447238727E-01 -1.26086860230E-03 -2.55982241817E-04 -1.41768184825E-03 -1.43887533707E-05 +6.48940707104E-01 +6.30304393306E-01
2.57000000000E+09 +6.73966638676E-01 +5.31421888551E-01 -1.42266718143E-03 -3.45531340289E-04 -1.40542806231E-03 -9.52535350243E-05 +6.54549540421E-01 +6.22404476042E-01
2.57500000000E+09 +6.79924391023E-01 +5.22748616242E-01 -1.77037031255E-03 -1.65805591123E-04 -1.60053283656E-03 +6.36960276123E-05 +6.60040842630E-01 +6.14555348838E-01
2.58000000000E+09 +6.85230831689E-01 +5.13904354183E-01 -1.83443728314E-03 +3.05672302092E-04 -1.52630389581E-03 +3.04914571666E-04 +6.65150562718E-01 +6.06981596102E-01
2.58500000000E+09 +6.90475660696E-01 +5.04821547748E-01 -1.65215841891E-03 +5.80204408201E-04 -1.45923610181E-03 +4.29593538326E-04 +6.70004575868E-01 +5.99601826198E-01
2.59000000000E+09 +6.95455298563E-01 +4.96019866397E-01 -1.45739911528E-03 +6.37968840271E-04 -1.42453577289E-03 +4.90066019110E-04 +6.74732086812E-01 +5.92172510282E-01
2.59500000000E+09 +7.00480848870E-01 +4.87129810532E-01 -1.44603357655E-03 +6.30009032007E-04 -1.54560376131E-03 +5.54659585249E-04 +6.79536795976E-01 +5.84110205224E-01
2.60000000000E+09 +7.05148063802E-01 +4.78222180427E-01 -1.52487844914E-03 +7.36873592336E-04 -1.55082154412E-03 +7.06727315103E-04 +6.84505714682E-01 +5.75472770974E-01
2.60500000000E+09 +7.09971717536E-01 +4.69021842255E-01 -1.59033951341E-03 +1.04625100504E-03 -1.62722982616E-03 +1.05399316542E-03 +6.89505747087E-01 +5.66528945402E-01
2.61000000000E+09 +7.14704448289E-01 +4.59037084182E-01 -1.36925541126E-03 +1.41375710048E-03 -1.38291257421E-03 +1.39643440520E-03 +6.94514453517E-01 +5.57598883038E-01
2.61500000000E+09 +7.19287844892E-01 +4.48591632441E-01 -9.87991177037E-04 +1.48285987010E-03 -1.07442180519E-03 +1.52264657234E-03 +6.99299464492E-01 +5.49068733191E-01
2.62000000000E+09 +7.23528882432E-01 +4.37426306872E-01 -8.61151276915E-04 +1.40167655299E-03 -9.00146383150E-04 +1.57507595255E-03 +7.04398652319E-01 +5.40081381782E-01
2.62500000000E+09 +7.27677530531E-01 +4.25672521640E-01 -7.60874952936E-04 +1.43729945683E-03 -6.93511264242E-04 +1.56363662759E-03 +7.08922139999E-01 +5.31026546668E-01
2.63000000000E+09 +7.31642115513E-01 +4.13551093448E-01 -6.61784038253E-04 +1.39669874193E-03 -4.80093932376E-04 +1.43230441798E-03 +7.13308150667E-01 +5.22191095599E-01
2.63500000000E+09 +7.35302975245E-01 +4.01109027980E-01 -7.71493394583E-04 +1.44894498324E-03 -5.83276139411E-04 +1.36076734368E-03 +7.18185759920E-01 +5.12845435110E-01
2.64000000000E+09 +7.38567636513E-01 +3.88915210533E-01 -5.72961403164E-04 +1.73758246461E-03 -4.59826622760E-04 +1.49808407978E-03 +7.22829289922E-01 +5.03097727909E-01
2.64500000000E+09 +7.42408143369E-01 +3.77016987453E-01 -2.39971094559E-04 +1.65269413164E-03 -3.28721418519E-04 +1.42803797679E-03 +7.27771986742E-01 +4.93328758751E-01
2.65000000000E+09 +7.45551955474E-01 +3.65246986424E-01 -2.76430404509E-04 +1.61758474031E-03 -3.98085368757E-04 +1.56471248163E-03 +7.32140608720E-01 +4.83002724997E-01
2.65500000000E+09 +7.48906323515E-01 +3.53457715132E-01 -1.96641403184E-04 +1.60301864694E-03 -3.61713640595E-04 +1.63962063069E-03 +7.35729377629E-01 +4.72609806731E-01
2.66000000000E+09 +7.51960425498E-01 +3.41442378404E-01 -1.74233195122E-04 +1.81568901359E-03 -1.40613253433E-04 +1.92326854056E-03 +7.39993893440E-01 +4.61893129038E-01
2.66500000000E+09 +7.54715897530E-01 +3.29917417572E-01 +1.74403508423E-05 +1.83628095045E-03 +9.02724467133E-05 +1.90770625931E-03 +7.44462369850E-01 +4.50755410779E-01
2.67000000000E+09 +7.57319069127E-01 +3.17525359578E-01 +1.60085613351E-04 +1.96351928995E-03 +2.89812506567E-04 +1.89819934829E-03 +7.48796107591E-01 +4.39355385456E-01
2.67500000000E+09 +7.59399336825E-01 +3.04414143559E-01 +4.60238615808E-04 +1.99193680643E-03 +4.78039652533E-04 +1.84235989500E-03 +7.52679831363E-01 +4.27831378057E-01
2.68000000000E+09 +7.60695349150E-01 +2.90969623209E-01 +6.51161747561E-04 +1.74262209357E-03 +5.87261661737E-04 +1.68860766296E-03 +7.56417400356E-01 +4.16406999618E-01
2.68500000000E+09 +7.61513963338E-01 +2.77238133846E-01 +5.79126277303E-04 +1.83113453113E-03 +4.96324915911E-04 +1.77435926227E-03 +7.59256416287E-01 +4.05039716628E-01
2.69000000000E+09 +7.62042053871E-01 +2.63515466102E-01 +7.85255726564E-04 +1.98026866003E-03 +7.41904762989E-04 +1.98688092356E-03 +7.62142521242E-01 +3.93161184857E-01
2.69500000000E+09 +7.62846265832E-01 +2.49600291524E-01 +1.00742425289E-03 +2.00025175714E-03 +1.01129987710E-03 +1.97396321729E-03 +7.64770666107E-01 +3.80368894798E-01
2.70000000000E+09 +7.63720433369E-01 +2.35442929304E-01 +1.35297145784E-03 +2.15361567238E-03 +1.28484709330E-03 +2.08869605370E-03 +7.67318925172E-01 +3.66805593602E-01
2.70500000000E+09 +7.64440493262E-01 +2.21388323239E-01 +1.87261240080E-03 +1.93034961108E-03 +1.73301164654E-03 +1.93665689270E-03 +7.69810446727E-01 +3.53272473057E-01
2.71000000000E+09 +7.65545125932E-01 +2.07446370023E-01 +2.01720087736E-03 +1.51295496494E-03 +1.90970832711E-03 +1.62759432318E-03 +7.72720880334E-01 +3.40282243333E-01
2.71500000000E+09 +7.67076474240E-01 +1.92802477738E-01 +1.95437544872E-03 +1.22464187046E-03 +2.06495236367E-03 +1.36439574149E-03 +7.75382258507E-01 +3.27256408840E-01
2.72000000000E+09 +7.68254264236E-01 +1.77788135872E-01 +1.86742802442E-03 +1.17819633572E-03 +2.03061613317E-03 +1.11645042038E-03 +7.77309836359E-01 +3.14232929837E-01
2.72500000000E+09 +7.68808982224E-01 +1.62390746853E-01 +2.03918414181E-03 +1.28137369143E-03 +2.19039978161E-03 +1.02768206543E-03 +7.78104138563E-01 +3.00892089674E-01
2.73000000000E+09 +7.68506212870E-01 +1.46666711964E-01 +2.28572062457E-03 +1.20392883464E-03 +2.19911818791E-03 +9.08125874875E-04 +7.79215375012E-01 +2.87095970608E-01
2.73500000000E+09 +7.67289870813E-01 +1.30319996982E-01 +2.59902977549E-03 +9.52806879982E-04 +2.27461108189E-03 +8.15462606162E-04 +7.80421211896E-01 +2.72245608967E-01
2.74000000000E+09 +7.65081957992E-01 +1.14232951061E-01 +2.70701619447E-03 +7.41946121639E-04 +2.43887104962E-03 +8.71041739712E-04 +7.81534180667E-01 +2.56518341394E-01
2.74500000000E+09 +7.62333914889E-01 +9.76766750076E-02 +2.91896559272E-03 +5.60050854663E-04 +2.78079944001E-03 +8.74529859878E-04 +7.82096319386E-01 +2.40976251120E-01
2.75000000000E+09 +7.58671193509E-01 +8.08074408842E-02 +3.32043436684E-03 +1.10220038485E-04 +3.43436662287E-03 +4.77486376957E-04 +7.82611246467E-01 +2.25947778970E-01
2.75500000000E+09 +7.54308983667E-01 +6.38235983869E-02 +3.19293458431E-03 -3.92720450607E-04 +3.45697827197E-03 -2.22488302610E-04 +7.82045188597E-01 +2.10785456028E-01
2.76000000000E+09 +7.49769617373E-01 +4.69076424783E-02 +3.07540292455E-03 -5.84645597298E-04 +3.33723858839E-03 -5.98642211878E-04 +7.81361396401E-01 +1.95774312792E-01
2.76500000000E+09 +7.45103757998E-01 +2.96893780933E-02 +3.18761084848E-03 -9.10381235716E-04 +3.31357174750E-03 -1.00897336373E-03 +7.80371197947E-01 +1.79274956577E-01
2.77000000000E+09 +7.40645626086E-01 +1.19023838850E-02 +3.19479246276E-03 -1.19926432164E-03 +3.31556747388E-03 -1.35273377669E-03 +7.78846732104E-01 +1.61385202665E-01
2.77500000000E+09 +7.36166824368E-01 -6.71187876632E-03 +3.12906792387E-03 -1.69370269589E-03 +3.20003108660E-03 -1.89410244515E-03 +7.75985961791E-01 +1.43322480979E-01
2.78000000000E+09 +7.31311720104E-01 -2.62090704161E-02 +2.93665945468E-03 -1.99222226974E-03 +2.93042120603E-03 -2.24859220189E-03 +7.73854503552E-01 +1.26096897893E-01
2.78500000000E+09 +7.25126618607E-01 -4.62957037278E-02 +2.74516061482E-03 -2.39667941892E-03 +2.55018437529E-03 -2.56782042131E-03 +7.71471079822E-01 +1.08582814542E-01
2.79000000000E+09 +7.18287085841E-01 -6.64397924720E-02 +2.59253877239E-03 -2.69031978118E-03 +2.30515819511E-03 -2.75672604796E-03 +7.68680194061E-01 +9.10454496738E-02
2.79500000000E+09 +7.10321287825E-01 -8.62085688982E-02 +2.35214400250E-03 -3.08635292563E-03 +2.25048060174E-03 -2.99054532529E-03 +7.64233185173E-01 +7.28436895772E-02
2.80000000000E+09 +7.01388859968E-01 -1.05865493920E-01 +1.89911725643E-03 -3.42524424090E-03 +1.88613086203E-03 -3.21834224624E-03 +7.58538007665E-01 +5.48738892985E-02
2.80500000000E+09 +6.91386986640E-01 -1.25000203702E-01 +1.38013296512E-03 -3.57550380090E-03 +1.53255787905E-03 -3.46987866050E-03 +7.52654454048E-01 +3.70226714336E-02
2.81000000000E+09 +6.80671027156E-01 -1.43425955681E-01 +1.33852818437E-03 -3.47436672005E-03 +1.36953689650E-03 -3.46001257416E-03 +7.46950375101E-01 +1.74859302610E-02
2.81500000000E+09 +6.68845817145E-01 -1.61512266057E-01 +9.74736135572E-04 -3.75314513508E-03 +9.05725036431E-04 -3.89319705946E-03 +7.39882578085E-01 -2.66452377479E-03
2.82000000000E+09 +6.56055606818E-01 -1.79602992151E-01 +7.56845914608E-04 -3.94962903854E-03 +5.24817059295E-04 -3.91475073405E-03 +7.31609209174E-01 -2.29194074968E-02
2.82500000000E+09 +6.41607721017E-01 -1.97462220015E-01 +2.18288834130E-04 -4.26218757529E-03 +1.11174714342E-04 -4.00714775978E-03 +7.22246592409E-01 -4.21262481586E-02
2.83000000000E+09 +6.25724219433E-01 -2.15526662760E-01 -3.77084643644E-04 -4.24625055995E-03 -3.82090092473E-04 -4.00110813331E-03 +7.12773560921E-01 -6.11667975371E-02
2.83500000000E+09 +6.08254988336E-01 -2.33943800646E-01 -7.68539193919E-04 -3.83143944827E-03 -6.07092445699E-04 -3.67417270598E-03 +7.02836574633E-01 -8.07597824527E-02
2.84000000000E+09 +5.88466108646E-01 -2.52113820903E-01 -6.35977003640E-04 -3.81143439462E-03 -5.47871552851E-04 -3.76655323945E-03 +6.91520807492E-01 -1.01705397057E-01
2.84500000000E+09 +5.67058440202E-01 -2.70054654456E-01 -9.68415296532E-04 -4.25179559653E-03 -8.97832747540E-04 -4.24068486105E-03 +6.78409660647E-01 -1.22508556691E-01
2.85000000000E+09 +5.44425208654E-01 -2.87743594109E-01 -1.38731223977E-03 -4.54368741712E-03 -1.35260602857E-03 -4.61698404032E-03 +6.63952892501E-01 -1.42958419303E-01
2.85500000000E+09 +5.20407201439E-01 -3.05103373222E-01 -2.53027782247E-03 -4.61405768756E-03 -2.42505775236E-03 -4.58537153204E-03 +6.49480119042E-01 -1.62461453950E-01
2.86000000000E+09 +4.95643364588E-01 -3.21806254575E-01 -3.00125150170E-03 -4.34141396843E-03 -2.85728125945E-03 -4.33456013651E-03 +6.33669099486E-01 -1.83567417482E-01
2.86500000000E+09 +4.70167312514E-01 -3.38278212301E-01 -3.95689147946E-03 -3.81608583536E-03 -3.85454872354E-03 -3.91420608156E-03 +6.15584063789E-01 -2.03763392031E-01
2.87000000000E+09 +4.43159597420E-01 -3.53473238424E-01 -4.18273003188E-03 -3.00248397368E-03 -4.21525243081E-03 -3.00571841432E-03 +5.96362559890E-01 -2.23379022125E-01
2.87500000000E+09 +4.16188828253E-01 -3.66276905325E-01 -4.06366287382E-03 -2.50960125017E-03 -4.09915085557E-03 -2.45229570452E-03 +5.76110682991E-01 -2.42152130240E-01
2.88000000000E+09 +3.89551541835E-01 -3.78090820858E-01 -4.00470334446E-03 -2.56348106736E-03 -4.01607355368E-03 -2.36011624183E-03 +5.54636005671E-01 -2.60895460768E-01
2.88500000000E+09 +3.62145621208E-01 -3.88763587736E-01 -4.69522695940E-03 -2.49545224914E-03 -4.56801845156E-03 -2.27683452755E-03 +5.32413446003E-01 -2.79238875581E-01
2.89000000000E+09 +3.33477177927E-01 -3.98032670204E-01 -5.13326674105E-03 -2.00783302009E-03 -4.81726746339E-03 -1.95890943093E-03 +5.06720103084E-01 -2.97556068864E-01
2.89500000000E+09 +3.03361011849E-01 -4.05337366611E-01 -5.61507317370E-03 -1.28383857647E-03 -5.33960279760E-03 -1.50846074311E-03 +4.79231315331E-01 -3.14176414990E-01
2.90000000000E+09 +2.71543043669E-01 -4.10872943019E-01 -5.76849674266E-03 -6.57577974175E-04 -5.76965976923E-03 -8.84618030323E-04 +4.50811385998E-01 -3.29253489229E-01
2.90500000000E+09 +2.37554001216E-01 -4.13477424097E-01 -5.87202663449E-03 -1.64430243993E-04 -5.96663634677E-03 -1.62725422423E-04 +4.22314465952E-01 -3.43757761573E-01
2.91000000000E+09 +2.02843502293E-01 -4.13462980798E-01 -6.13131882433E-03 +2.52111437750E-04 -6.12003679633E-03 +4.88479417805E-04 +3.91757482672E-01 -3.58280449542E-01
2.91500000000E+09 +1.67608722849E-01 -4.10715791209E-01 -6.24199413193E-03 +1.47024627988E-03 -5.91966568865E-03 +1.61559558525E-03 +3.59586730659E-01 -3.70665168427E-01
2.92000000000E+09 +1.31977091787E-01 -4.05860970059E-01 -5.52584086606E-03 +1.73224558837E-03 -5.13551212550E-03 +1.66586991033E-03 +3.25247869101E-01 -3.79869051578E-01
2.92500000000E+09 +9.75407350012E-02 -3.99125366040E-01 -5.74425415990E-03 +1.82889073200E-03 -5.43137661069E-03 +1.55258747337E-03 +2.91012289358E-01 -3.87053848112E-01
2.93000000000E+09 +6.32106240805E-02 -3.91621592046E-01 -6.48684267579E-03 +2.49543345089E-03 -6.45233501567E-03 +2.08846956246E-03 +2.55163965954E-01 -3.93129442938E-01
2.93500000000E+09 +2.85996823015E-02 -3.82649059430E-01 -6.44484357026E-03 +3.95227991117E-03 -6.57581841582E-03 +3.70598622266E-03 +2.17439613007E-01 -3.98673537064E-01
2.94000000000E+09 -5.93520214885E-03 -3.70897336237E-01 -6.01760389699E-03 +5.01517176917E-03 -6.05760352268E-03 +4.85393059105E-03 +1.77628732404E-01 -4.00837984037E-01
2.94500000000E+09 -3.93309044709E-02 -3.55838834044E-01 -5.26215595982E-03 +6.14496484583E-03 -5.27780560836E-03 +5.99000767117E-03 +1.38270136411E-01 -4.00437236023E-01
2.95000000000E+09 -7.08642212055E-02 -3.37521078210E-01 -3.97489060578E-03 +6.72856476493E-03 -4.28781210442E-03 +6.55500070803E-03 +9.98921211739E-02 -3.96830510200E-01
2.95500000000E+09 -9.95939151440E-02 -3.17181912962E-01 -3.26652849216E-03 +6.73487349003E-03 -3.59427876349E-03 +6.63162421708E-03 +6.15710972216E-02 -3.92264656827E-01
2.96000000000E+09 -1.28346786584E-01 -2.95017293054E-01 -3.02195825419E-03 +7.22879951055E-03 -3.31376618655E-03 +7.37972707485E-03 +2.11859866736E-02 -3.84948103763E-01
2.96500000000E+09 -1.55619602317E-01 -2.69913236131E-01 -2.09624242086E-03 +7.82301275367E-03 -2.16154713037E-03 +8.11744849030E-03 -2.02015052012E-02 -3.73545615106E-01
2.97000000000E+09 -1.81931175060E-01 -2.42073363444E-01 -1.57264149496E-03 +8.05324195710E-03 -1.38326847935E-03 +8.08807076046E-03 -6.07418106352E-02 -3.58460022624E-01
2.97500000000E+09 -2.06235303253E-01 -2.11653408994E-01 -8.34326100063E-04 +9.09455017801E-03 -7.72189776417E-04 +8.93076136897E-03 -1.00529043114E-01 -3.41526297661E-01
2.98000000000E+09 -2.28928550380E-01 -1.80000611669E-01 +1.27729974667E-03 +9.45233893891E-03 +9.83748476236E-04 +9.37134075187E-03 -1.38939180882E-01 -3.21310800225E-01
2.98500000000E+09 -2.49287439759E-01 -1.47212156504E-01 +2.31218983595E-03 +8.71867579273E-03 +1.99864093714E-03 +9.03377004953E-03 -1.76013045443E-01 -2.99686103950E-01
2.99000000000E+09 -2.68116536984E-01 -1.15163834751E-01 +3.26316801151E-03 +8.66998874323E-03 +3.28833111138E-03 +9.15348064362E-03 -2.12845023973E-01 -2.73134063884E-01
2.99500000000E+09 -2.85688674792E-01 -8.19403361274E-02 +4.46261513673E-03 +8.60886413093E-03 +4.90576897504E-03 +8.85817429037E-03 -2.45702124923E-01 -2.42902315161E-01
3.00000000000E+09 -3.00883493096E-01 -4.80616520384E-02 +5.52145221637E-03 +8.05313096321E-03 +5.94801447531E-03 +7.77202045345E-03 -2.76547092759E-01 -2.11585998555E-01
3.00500000000E+09 -3.12220904364E-01 -1.47465502830E-02 +7.05112909129E-03 +8.01977966176E-03 +7.03349205013E-03 +7.50868026415E-03 -3.06390783858E-01 -1.78103207546E-01
3.01000000000E+09 -3.20869261913E-01 +1.76088462710E-02 +8.82548761484E-03 +6.30995163331E-03 +8.46415520556E-03 +6.21580633556E-03 -3.32777627517E-01 -1.42431635720E-01
3.01500000000E+09 -3.27252632416E-01 +4.90017414563E-02 +9.40839796723E-03 +4.44718537022E-03 +9.17010925221E-03 +4.73144832194E-03 -3.57322482431E-01 -1.05361104114E-01
3.02000000000E+09 -3.31519621592E-01 +8.12501488900E-02 +9.32301700400E-03 +3.13799902614E-03 +9.47133672918E-03 +3.44666720065E-03 -3.76910077749E-01 -6.64315135314E-02
3.02500000000E+09 -3.32360966985E-01 +1.13953526950E-01 +9.50680789014E-03 +2.39497651699E-03 +9.62953968238E-03 +2.45073493005E-03 -3.92829620531E-01 -2.77358568822E-02
3.03000000000E+09 -3.29192767686E-01 +1.46139273409E-01 +1.00117408959E-02 +1.32403043706E-03 +1.00802675856E-02 +1.26413801223E-03 -4.07230461453E-01 +1.10385592532E-02
3.03500000000E+09 -3.24073453934E-01 +1.76296114905E-01 +1.07160668548E-02 -1.19288911261E-04 +1.07255144617E-02 +4.14105669368E-05 -4.19649004248E-01 +5.19728978112E-02
3.04000000000E+09 -3.17441266644E-01 +2.07291943916E-01 +1.05288259961E-02 -2.42919095408E-03 +1.08022559198E-02 -2.20594608124E-03 -4.28121535664E-01 +9.35291924736E-02
3.04500000000E+09 -3.08771148409E-01 +2.36463262835E-01 +9.30130974493E-03 -3.67462319491E-03 +9.79309505873E-03 -3.81272749806E-03 -4.33501634285E-01 +1.35241189556E-01
3.05000000000E+09 -2.99396971906E-01 +2.65478542073E-01 +8.63013359256E-03 -4.60433807840E-03 +8.90006676804E-03 -5.18042354770E-03 -4.34856228475E-01 +1.74543263412E-01
3.05500000000E+09 -2.88596998350E-01 +2.93796824843E-01 +7.78950915461E-03 -5.22289880312E-03 +7.53980025172E-03 -5.83198097735E-03 -4.36597202661E-01 +2.13020092725E-01
3.06000000000E+09 -2.76318891445E-01 +3.21173260282E-01 +7.42787849299E-03 -6.30069855793E-03 +6.86373275939E-03 -6.36666582167E-03 -4.34299144436E-01 +2.53112704547E-01
3.06500000000E+09 -2.62922602356E-01 +3.46668863282E-01 +6.32958297470E-03 -7.72837631101E-03 +6.02424560652E-03 -7.22842976492E-03 -4.28328663753E-01 +2.91403729178E-01
3.07000000000E+09 -2.49168760342E-01 +3.70624147786E-01 +4.48940605433E-03 -8.34416883027E-03 +4.82277941723E-03 -7.86190690507E-03 -4.20017446238E-01 +3.27185255342E-01
