# Hz S RI R 50
! CMT, C1220, 16058040, 17.2.0/1
! Date: 15/08/2018 10:27:24
! Data: Format (Calibration Info)
! Freq                      S11: Re/Im (F2)                       S21: Re/Im (F2)                       S12: Re/Im (F2)                       S22: Re/Im (F2)            
2.50000000000E+09 +5.81249694511E-01 +6.42718824246E-01 +3.01424960993E-04 +4.95778024222E-05 +3.56766070455E-04 +2.72580484067E-05 +5.69438119882E-01 +7.20870999614E-01
2.50500000000E+09 +5.88474201246E-01 +6.35077260749E-01 +3.56992316445E-04 -2.64237461113E-05 +4.34174602805E-04 -5.73443888895E-05 +5.75572994786E-01 +7.15013107271E-01
2.51000000000E+09 +5.95865909246E-01 +6.26955511610E-01 +3.46709836622E-04 -1.38492253103E-04 +3.65784192050E-04 -1.73449556764E-04 +5.81440110812E-01 +7.09303840900E-01
2.51500000000E+09 +6.03031767846E-01 +6.19209600280E-01 +3.24072684831E-04 -1.46948809297E-04 +3.05996611273E-04 -1.44448813982E-04 +5.86804979047E-01 +7.03389670129E-01
2.52000000000E+09 +6.09894227720E-01 +6.11458900605E-01 +3.50347796420E-04 -2.36235455230E-04 +3.50917386096E-04 -2.00826302281E-04 +5.91991104685E-01 +6.97100658720E-01
2.52500000000E+09 +6.15646316283E-01 +6.03989455362E-01 +2.50400160993E-04 -2.48122584263E-04 +2.86026865704E-04 -2.67102606944E-04 +5.97688744039E-01 +6.90340147929E-01
2.53000000000E+09 +6.20910465241E-01 +5.97164594497E-01 +2.50469334594E-04 -3.32991784419E-04 +2.11893415478E-04 -2.62724716335E-04 +6.03656642241E-01 +6.83117847339E-01
2.53500000000E+09 +6.25651647298E-01 +5.90714731884E-01 +1.19964727555E-04 -3.37219698576E-04 +1.26698325825E-04 -3.05000131338E-04 +6.09223396210E-01 +6.76108563587E-01
2.54000000000E+09 +6.29864764852E-01 +5.84337472042E-01 +1.19931295551E-04 -2.97183081889E-04 +1.00994237787E-04 -3.06270928805E-04 +6.14923552835E-01 +6.69482210631E-01
2.54500000000E+09 +6.34295362456E-01 +5.78372470449E-01 +8.19041476231E-05 -3.05809631619E-04 +1.25942491884E-04 -3.37170679465E-04 +6.20266206350E-01 +6.62767611430E-01
2.55000000000E+09 +6.39257790421E-01 +5.72212236164E-01 +7.56049639782E-05 -2.48452019914E-04 +6.29712010772E-05 -3.02760252844E-04 +6.24981794353E-01 +6.56646651739E-01
2.55500000000E+09 +6.44603704878E-01 +5.65294665228E-01 +9.67055007763E-05 -3.33461091406E-04 +1.41255343484E-04 -4.15640484046E-04 +6.29646098626E-01 +6.50563346731E-01
2.56000000000E+09 +6.50649617433E-01 +5.58517149516E-01 +1.52539582686E-05 -4.18233636025E-04 +2.87755373555E-05 -4.54470648347E-04 +6.34695678367E-01 +6.43837156892E-01
2.56500000000E+09 +6.57053209267E-01 +5.50527806313E-01 -5.24934469040E-05 -3.73428409868E-04 -9.43744321061E-05 -4.07236634696E-04 +6.40167897757E-01 +6.36657403710E-01
2.57000000000E+09 +6.63113453561E-01 +5.42602962297E-01 -1.32393725358E-04 -3.76314792514E-04 -1.59525994871E-04 -3.44848475826E-04 +6.45639455124E-01 +6.29072343468E-01
2.57500000000E+09 +6.69335108041E-01 +5.34495512194E-01 -2.47483187291E-04 -2.57726659399E-04 -2.14671188410E-04 -2.10324389812E-04 +6.51124364912E-01 +6.21644547528E-01
2.58000000000E+09 +6.74718585934E-01 +5.26315768868E-01 -1.61489626680E-04 -1.98694234937E-04 -1.32608608166E-04 -1.15179763534E-04 +6.56367362575E-01 +6.14380052016E-01
2.58500000000E+09 +6.79454438539E-01 +5.17997329829E-01 -6.47174613140E-05 -1.82329187608E-04 -5.26784054212E-05 -1.83872379975E-04 +6.61580128850E-01 +6.06808529396E-01
2.59000000000E+09 +6.83550843311E-01 +5.10204779139E-01 -1.09436297754E-04 -1.73254283519E-04 -1.89637639101E-05 -2.13135063615E-04 +6.66530605991E-01 +5.99116357368E-01
2.59500000000E+09 +6.87690929565E-01 +5.02365856123E-01 -7.95132905680E-05 -2.00259273066E-04 -9.51402799675E-05 -2.50429188579E-04 +6.71826257713E-01 +5.91111593690E-01
2.60000000000E+09 +6.91476660739E-01 +4.94103335164E-01 -1.68407392935E-04 -1.68478537542E-04 -1.33175946637E-04 -2.56375808973E-04 +6.77219437183E-01 +5.82488701869E-01
2.60500000000E+09 +6.95672805159E-01 +4.84943487883E-01 -1.51283470064E-04 -1.79615276568E-04 -2.23756057676E-04 -2.14912522112E-04 +6.82723559949E-01 +5.73543546587E-01
2.61000000000E+09 +7.00211393452E-01 +4.74773927869E-01 -1.60436241612E-04 -2.12446133345E-04 -1.40263779431E-04 -1.85747334758E-04 +6.87868441639E-01 +5.64518403689E-01
2.61500000000E+09 +7.05083461212E-01 +4.63238235219E-01 -2.10015370873E-04 -2.38262595972E-04 -2.02026369464E-04 -2.27590369230E-04 +6.92580574241E-01 +5.55744862112E-01
2.62000000000E+09 +7.09828596521E-01 +4.50763205014E-01 -3.31333754308E-04 -1.56122164224E-04 -3.59102689598E-04 -1.21711682714E-04 +6.97204170126E-01 +5.46767295174E-01
2.62500000000E+09 +7.14585250364E-01 +4.37493650482E-01 -2.74828533042E-04 -9.59972934964E-05 -2.52705010643E-04 -1.04250787204E-04 +7.01689880874E-01 +5.37739336210E-01
2.63000000000E+09 +7.19146102493E-01 +4.24045660290E-01 -3.09532989369E-04 -1.22259025066E-04 -3.23454196500E-04 -4.83084329100E-05 +7.06151624779E-01 +5.28584318964E-01
2.63500000000E+09 +7.23337577507E-01 +4.10562655401E-01 -2.88513525068E-04 -3.26182503705E-05 -2.86396615858E-04 +1.88109784372E-05 +7.10603886695E-01 +5.19142270956E-01
2.64000000000E+09 +7.26931182021E-01 +3.97795166476E-01 -2.89999702053E-04 -2.92763745093E-05 -2.47573657871E-04 +7.09219560125E-06 +7.15089753337E-01 +5.09381422257E-01
2.64500000000E+09 +7.30275892097E-01 +3.85882972902E-01 -2.72452440939E-04 +6.33417298135E-05 -2.37050725355E-04 +3.69556005445E-05 +7.19507035166E-01 +4.99729363840E-01
2.65000000000E+09 +7.33173738524E-01 +3.75020128047E-01 -1.93023615980E-04 +2.32810041886E-05 -1.80538740246E-04 -9.24403663915E-06 +7.23745644618E-01 +4.89813682959E-01
2.65500000000E+09 +7.36501238581E-01 +3.64376091856E-01 -2.79804531093E-04 -7.46304528372E-05 -2.49152022305E-04 -8.55784763474E-05 +7.27584337817E-01 +4.79360237554E-01
2.66000000000E+09 +7.39713429603E-01 +3.53503509872E-01 -2.86704558015E-04 +6.37845050396E-05 -3.40050688718E-04 +4.52925613172E-05 +7.31329185427E-01 +4.68189710408E-01
2.66500000000E+09 +7.42954054616E-01 +3.42449749622E-01 -2.43333955540E-04 +1.25499277431E-04 -1.86583277709E-04 +1.12480285196E-04 +7.35415366031E-01 +4.57044353805E-01
2.67000000000E+09 +7.45961574122E-01 +3.30158345962E-01 -2.19495002183E-04 +1.10985883724E-04 -2.41809204482E-04 +9.44289955170E-05 +7.39755281446E-01 +4.46011386554E-01
2.67500000000E+09 +7.48262000232E-01 +3.17021693888E-01 -2.13974349568E-04 +1.08138839761E-04 -2.16476134124E-04 +6.95773449339E-05 +7.43693528327E-01 +4.34716460796E-01
2.68000000000E+09 +7.50090882842E-01 +3.03019832780E-01 -3.11366543303E-04 +2.24547874219E-04 -3.21357795036E-04 +1.79672792901E-04 +7.47299581674E-01 +4.23442654478E-01
2.68500000000E+09 +7.51226107694E-01 +2.88854298930E-01 -1.49337223318E-04 +2.30687671339E-04 -1.91036991116E-04 +2.44836024301E-04 +7.49978769221E-01 +4.12186544464E-01
2.69000000000E+09 +7.52036986965E-01 +2.74457082225E-01 -9.72044818622E-05 +2.09338959630E-04 -6.37111877167E-05 +1.92638058897E-04 +7.52529015107E-01 +4.00633057914E-01
2.69500000000E+09 +7.52553863640E-01 +2.60327777679E-01 -6.21200778868E-05 +7.57222364643E-05 -9.19077154555E-05 +1.20983086968E-04 +7.54974026553E-01 +3.88261199256E-01
2.70000000000E+09 +7.53083459250E-01 +2.46238830068E-01 -1.47492989805E-04 +4.35986972419E-05 -1.19708366617E-04 +3.71503768243E-05 +7.57585019007E-01 +3.75405090395E-01
2.70500000000E+09 +7.53377303480E-01 +2.32784771920E-01 -2.31199409175E-04 +7.57067421247E-05 -2.25012300308E-04 +9.24079608455E-05 +7.60157484302E-01 +3.62455667498E-01
2.71000000000E+09 +7.54178619325E-01 +2.19408476359E-01 -2.28348773344E-04 +2.02951656069E-04 -2.72456199131E-04 +1.96807476658E-04 +7.62948571481E-01 +3.49418439903E-01
2.71500000000E+09 +7.55211320526E-01 +2.05443773828E-01 -1.86524805566E-04 +2.95258607610E-04 -1.43758312988E-04 +3.46205451672E-04 +7.65281338494E-01 +3.36916893033E-01
2.72000000000E+09 +7.55959262270E-01 +1.90882562270E-01 -9.47581072752E-05 +1.53970769161E-04 -5.18360907085E-05 +2.17891853491E-04 +7.66917070246E-01 +3.24569581601E-01
2.72500000000E+09 +7.56046148888E-01 +1.75322710894E-01 -2.62233676296E-04 +1.94132531426E-04 -2.25891107014E-04 +1.85237201376E-04 +7.68318725398E-01 +3.11491260022E-01
2.73000000000E+09 +7.54914408476E-01 +1.59251232011E-01 -1.94957899539E-04 +4.92436034359E-04 -1.20241701977E-04 +4.76769131572E-04 +7.69511898670E-01 +2.97646330421E-01
2.73500000000E+09 +7.52657105542E-01 +1.42202801924E-01 +8.44265925307E-05 +3.40810081954E-04 +1.39400717656E-04 +3.28875604530E-04 +7.70393294945E-01 +2.82939058522E-01
2.74000000000E+09 +7.49395642888E-01 +1.25557734437E-01 +1.46967181589E-05 +1.60100376835E-04 +1.47270502545E-05 +1.56284549489E-04 +7.71456611721E-01 +2.68330905411E-01
2.74500000000E+09 +7.45230088873E-01 +1.08151947601E-01 +1.57433409306E-05 +1.93825137660E-04 -4.67087975971E-05 +1.82440657852E-04 +7.72361233085E-01 +2.53256391441E-01
2.75000000000E+09 +7.40113695462E-01 +9.11634675420E-02 -1.47360205043E-04 +2.36595216131E-04 -1.45986749915E-04 +1.82411881857E-04 +7.73086204504E-01 +2.38662306562E-01
2.75500000000E+09 +7.34603761314E-01 +7.44368775827E-02 -8.29023987913E-05 +3.09549890151E-04 -1.77486026713E-04 +3.00724098722E-04 +7.72854866099E-01 +2.23605283810E-01
2.76000000000E+09 +7.29333770493E-01 +5.76815854861E-02 -3.15167983249E-05 +3.94460076658E-04 -3.97586218477E-05 +4.07613291110E-04 +7.71819043269E-01 +2.08688532361E-01
2.76500000000E+09 +7.24325509548E-01 +4.09355800079E-02 +3.41897211214E-05 +2.88571333633E-04 +9.35058050254E-05 +4.12008158731E-04 +7.70581000654E-01 +1.93275589293E-01
2.77000000000E+09 +7.19828334673E-01 +2.33495832947E-02 +6.61693893316E-05 +3.88835003861E-04 +7.90795488647E-05 +5.22170143087E-04 +7.69909213370E-01 +1.77046443711E-01
2.77500000000E+09 +7.15401972742E-01 +4.63097608746E-03 +1.80589617834E-04 +3.48724206636E-04 +1.04736328853E-04 +3.81308689784E-04 +7.68584593221E-01 +1.59934700751E-01
2.78000000000E+09 +7.10857183083E-01 -1.46963084574E-02 +2.00505752323E-04 +2.78445922357E-04 +2.42010618809E-04 +2.62843589673E-04 +7.67017458832E-01 +1.42724918507E-01
2.78500000000E+09 +7.05602461449E-01 -3.49935840867E-02 +6.44504793340E-05 +2.19583603925E-04 +2.35120496721E-05 +2.58972969757E-04 +7.64697877942E-01 +1.26092645401E-01
2.79000000000E+09 +6.99437547805E-01 -5.57006173261E-02 -1.31773267413E-05 +4.04870328344E-04 -2.20771850002E-06 +4.57165765567E-04 +7.62635360066E-01 +1.09798218550E-01
2.79500000000E+09 +6.92219509801E-01 -7.62084167410E-02 +3.38018932925E-04 +5.93798178264E-04 +2.72266147124E-04 +5.74618909729E-04 +7.59850640762E-01 +9.17365756089E-02
2.80000000000E+09 +6.83146985932E-01 -9.60763085186E-02 +4.75905136477E-04 +4.92415733074E-04 +4.29828375171E-04 +4.56468116708E-04 +7.55528799720E-01 +7.31402539847E-02
2.80500000000E+09 +6.73242941259E-01 -1.14518452557E-01 +4.91518876278E-04 +1.58688466226E-04 +5.09240791063E-04 +1.02523451823E-04 +7.50690734919E-01 +5.42483603372E-02
2.81000000000E+09 +6.62369286947E-01 -1.31864439932E-01 +3.01386405414E-04 +2.03242090788E-04 +3.04356016540E-04 +2.37783361039E-04 +7.45472762402E-01 +3.50550284072E-02
2.81500000000E+09 +6.50978937202E-01 -1.48422457142E-01 +3.73725655851E-04 +3.24927764950E-04 +4.57457130711E-04 +3.49054179997E-04 +7.39559447343E-01 +1.49893125530E-02
2.82000000000E+09 +6.38301193409E-01 -1.64918675654E-01 +4.17991767494E-04 +2.73535509328E-04 +4.74212689512E-04 +1.96989795104E-04 +7.32866305339E-01 -5.33544421393E-03
2.82500000000E+09 +6.24302469332E-01 -1.81296617611E-01 +4.77678957948E-04 +2.38973051103E-04 +4.62914022872E-04 +2.07377346261E-04 +7.24545371937E-01 -2.60407397870E-02
2.83000000000E+09 +6.08721457420E-01 -1.98196054849E-01 +5.38507878060E-04 +2.76490053210E-04 +4.77745952731E-04 +2.48952741364E-04 +7.14964654873E-01 -4.63750346674E-02
2.83500000000E+09 +5.91727445649E-01 -2.15860173531E-01 +7.15345773968E-04 +3.82997981484E-04 +6.11078017231E-04 +3.35655514223E-04 +7.04649911273E-01 -6.65447063464E-02
2.84000000000E+09 +5.72026741923E-01 -2.34106535384E-01 +1.02129355157E-03 +1.50606432208E-04 +1.01823121890E-03 +1.75996315278E-04 +6.93622361054E-01 -8.73224468127E-02
2.84500000000E+09 +5.50257516500E-01 -2.52201450074E-01 +9.78975255708E-04 -3.59043508348E-04 +9.67611923363E-04 -2.80700524194E-04 +6.81335044046E-01 -1.08106540988E-01
2.85000000000E+09 +5.27386794474E-01 -2.69678922019E-01 +7.30537815160E-04 -4.19603913602E-04 +6.77042391364E-04 -4.44514167717E-04 +6.67190167837E-01 -1.28729194943E-01
2.85500000000E+09 +5.02451015486E-01 -2.86921206985E-01 +4.39426015513E-04 -4.14319501606E-04 +3.86009342700E-04 -3.89602869078E-04 +6.52661917861E-01 -1.48289015774E-01
2.86000000000E+09 +4.77244705639E-01 -3.02512470568E-01 +6.86127999164E-04 -6.22949810082E-05 +6.20726833749E-04 -9.00267230870E-05 +6.37238632227E-01 -1.68584625353E-01
2.86500000000E+09 +4.52221118342E-01 -3.16790226698E-01 +1.02785336385E-03 -2.93219304705E-04 +1.00255290950E-03 -2.53716416439E-04 +6.19957259213E-01 -1.89002145068E-01
2.87000000000E+09 +4.26866632471E-01 -3.29964538456E-01 +1.02133363065E-03 -8.66411199940E-04 +1.07048777689E-03 -8.73806034359E-04 +6.01303514798E-01 -2.08977747068E-01
2.87500000000E+09 +4.01450816221E-01 -3.41813426362E-01 +6.19899076158E-04 -1.20769420249E-03 +5.51664948756E-04 -1.27139483436E-03 +5.81225742471E-01 -2.28485958480E-01
2.88000000000E+09 +3.75736680103E-01 -3.52630163256E-01 +8.87778544299E-05 -1.19950045738E-03 +6.97650640781E-05 -1.13502684102E-03 +5.60563846643E-01 -2.46880053971E-01
2.88500000000E+09 +3.49384839182E-01 -3.62279547957E-01 -1.37723484507E-04 -7.23208188754E-04 -1.06016102147E-04 -6.50712741568E-04 +5.39062889360E-01 -2.65359854776E-01
2.89000000000E+09 +3.21560948986E-01 -3.70744247858E-01 +3.19895071707E-04 -5.98411969275E-04 +3.70795245200E-04 -5.59135343964E-04 +5.15460022003E-01 -2.83419143881E-01
2.89500000000E+09 +2.92595455636E-01 -3.77641995194E-01 +3.82199688893E-04 -1.15462376250E-03 +4.32589847879E-04 -1.13313513925E-03 +4.90627891668E-01 -3.01945091706E-01
2.90000000000E+09 +2.62189959835E-01 -3.82878041277E-01 -2.54868279616E-04 -1.26019657945E-03 -2.60030835329E-04 -1.29864872340E-03 +4.62327953451E-01 -3.20050196892E-01
2.90500000000E+09 +2.30420298490E-01 -3.86537460288E-01 -3.35658364516E-04 -9.73188935170E-04 -3.11840158308E-04 -9.88629595484E-04 +4.32964171391E-01 -3.35711603751E-01
2.91000000000E+09 +1.97690449351E-01 -3.86969733081E-01 -4.84134673510E-04 -1.05835232948E-03 -5.70896405853E-04 -9.97556910546E-04 +4.03124103763E-01 -3.50990130832E-01
2.91500000000E+09 +1.65585696860E-01 -3.86196460237E-01 -7.21551429849E-04 -6.72260731668E-04 -7.04532114572E-04 -6.81853397353E-04 +3.70875921839E-01 -3.64512900585E-01
2.92000000000E+09 +1.32594877702E-01 -3.83651545596E-01 -4.62976305682E-04 -6.70601743046E-04 -4.72863008718E-04 -6.51512144675E-04 +3.37322075934E-01 -3.75180264798E-01
2.92500000000E+09 +1.00125568428E-01 -3.78639324574E-01 -6.99440571710E-04 -1.07125003147E-03 -6.07971393239E-04 -1.05392788049E-03 +3.02719673996E-01 -3.84048307091E-01
2.93000000000E+09 +6.85040474253E-02 -3.71702309082E-01 -1.43132456391E-03 -8.22226297795E-04 -1.35576142401E-03 -8.28277256354E-04 +2.66254050131E-01 -3.91822973501E-01
2.93500000000E+09 +3.70604212086E-02 -3.64069285788E-01 -1.32813825905E-03 +1.63948224493E-04 -1.31878138487E-03 +3.88884219081E-05 +2.27513061201E-01 -3.97777394652E-01
2.94000000000E+09 +5.18114374382E-03 -3.53608536532E-01 -7.76206313147E-04 +3.60619929298E-04 -8.11707166323E-04 +2.95947549681E-04 +1.87581031014E-01 -4.01526566912E-01
2.94500000000E+09 -2.55631961217E-02 -3.40532349003E-01 -3.59469414793E-04 -4.39487215942E-05 -2.84175456495E-04 -1.51406629436E-05 +1.46275723015E-01 -4.02154630674E-01
2.95000000000E+09 -5.61269701225E-02 -3.25127094790E-01 -5.46189647846E-04 -5.60251480191E-04 -5.08406811661E-04 -5.62789841270E-04 +1.06092875647E-01 -3.99304436879E-01
2.95500000000E+09 -8.56866087854E-02 -3.06758677286E-01 -1.19452146570E-03 -3.74630226577E-04 -1.25434521685E-03 -4.63342707389E-04 +6.58045352717E-02 -3.94867166357E-01
2.96000000000E+09 -1.13899266322E-01 -2.85759782312E-01 -1.45561988648E-03 +3.10523181952E-04 -1.53206637258E-03 +2.95239400511E-04 +2.39858260633E-02 -3.86245624372E-01
2.96500000000E+09 -1.40544941332E-01 -2.63426989065E-01 -7.82935074491E-04 +1.03296207944E-03 -7.42692501736E-04 +1.09621832728E-03 -1.63369015791E-02 -3.75093616020E-01
2.97000000000E+09 -1.66570611289E-01 -2.38229511680E-01 +8.77828881871E-05 +5.23644729324E-04 +1.77224380073E-04 +4.69601224884E-04 -5.85613141515E-02 -3.61414115067E-01
2.97500000000E+09 -1.90397244919E-01 -2.11245171351E-01 -1.94217760770E-04 -3.97495000903E-04 -1.67056809544E-04 -3.85045373629E-04 -9.88511070990E-02 -3.43273084424E-01
2.98000000000E+09 -2.12233595399E-01 -1.82482835277E-01 -1.26134028822E-03 -2.34642677218E-04 -1.28424533655E-03 -2.89037670949E-04 -1.38221150990E-01 -3.23265884285E-01
2.98500000000E+09 -2.32408725599E-01 -1.54380645323E-01 -1.05518071879E-03 +9.30651788836E-04 -1.16841172233E-03 +8.72551238159E-04 -1.75913294395E-01 -2.99587987541E-01
2.99000000000E+09 -2.51720170607E-01 -1.24289075401E-01 -2.33304889110E-04 +7.00231984268E-04 -2.98228224225E-04 +7.40377744357E-04 -2.11962257825E-01 -2.72868531618E-01
2.99500000000E+09 -2.68219170608E-01 -9.44811714719E-02 -4.48691212554E-04 +2.19136366120E-04 -4.78138886847E-04 +2.62958635719E-04 -2.46024932791E-01 -2.41936583299E-01
3.00000000000E+09 -2.84300546910E-01 -6.39799352972E-02 -8.22388963718E-04 +4.06834735234E-04 -7.73440567747E-04 +4.30196821173E-04 -2.75832073173E-01 -2.09636862992E-01
3.00500000000E+09 -2.97595732793E-01 -3.29117506706E-02 -1.06156915273E-03 +8.43950011808E-04 -1.02303835173E-03 +7.92848793719E-04 -3.05414396224E-01 -1.76450079691E-01
3.01000000000E+09 -3.07815003514E-01 -2.33548852329E-03 -4.27344884683E-04 +1.47511183876E-03 -4.27511484344E-04 +1.36681684599E-03 -3.31699344633E-01 -1.39947517521E-01
3.01500000000E+09 -3.16451911482E-01 +2.70965482801E-02 +3.04735402012E-04 +1.23228387457E-03 +2.57584582624E-04 +1.23436433956E-03 -3.54768004215E-01 -1.02871908138E-01
3.02000000000E+09 -3.22850957750E-01 +5.72837750890E-02 +4.91306242627E-04 +6.74690638300E-04 +4.54517308594E-04 +6.92667385584E-04 -3.74570608226E-01 -6.46270406982E-02
3.02500000000E+09 -3.25458149561E-01 +8.72317174377E-02 +1.22661192217E-04 +1.58628705075E-04 +1.50398903449E-04 +1.54832804605E-04 -3.91205998916E-01 -2.53815881369E-02
3.03000000000E+09 -3.25126167766E-01 +1.15971347648E-01 -6.46799429080E-04 +5.86291262001E-04 -6.56183901500E-04 +5.65349667336E-04 -4.04412342070E-01 +1.42807464377E-02
3.03500000000E+09 -3.23172755218E-01 +1.43398604315E-01 -2.68715942014E-04 +1.47115143171E-03 -3.13579780768E-04 +1.45425184485E-03 -4.15398477193E-01 +5.42854730984E-02
3.04000000000E+09 -3.19698156639E-01 +1.71720433364E-01 +8.15831721432E-04 +1.02651429583E-03 +8.07729603838E-04 +1.13511966508E-03 -4.23354925384E-01 +9.41914057108E-02
3.04500000000E+09 -3.13792749596E-01 +1.99679798854E-01 +5.69272256570E-04 +7.48654449096E-04 +5.86522045325E-04 +7.55162535265E-04 -4.28430446583E-01 +1.34227237581E-01
3.05000000000E+09 -3.05911819166E-01 +2.28280127159E-01 +6.49084694044E-04 +5.77465696746E-04 +6.92893044601E-04 +5.38777049909E-04 -4.30739972005E-01 +1.72959171507E-01
3.05500000000E+09 -2.95462886455E-01 +2.55100684851E-01 +3.43397107945E-04 +6.22663581809E-04 +4.07837852384E-04 +5.83998277458E-04 -4.31132366712E-01 +2.11097464100E-01
3.06000000000E+09 -2.85114920070E-01 +2.81015074488E-01 +8.99368014032E-04 +7.64410417830E-04 +9.34893091977E-04 +6.13152947770E-04 -4.28812016298E-01 +2.48932600770E-01
3.06500000000E+09 -2.74325367229E-01 +3.06584125344E-01 +9.66426743788E-04 +2.24074771049E-04 +9.21964323501E-04 +2.36355707109E-04 -4.24444485548E-01 +2.85945065186E-01
3.07000000000E+09 -2.62327787292E-01 +3.31649827848E-01 +8.01743157408E-04 -3.73447844990E-05 +7.68613237482E-04 +1.81348591244E-05 -4.17554170943E-01 +3.21421604091E-01
