# Hz S RI R 50
! CMT, C1220, 16058040, 17.2.0/1
! Date: 15/08/2018 10:35:07
! Data: Format (Calibration Info)
! Freq                      S11: Re/Im (F2)                       S21: Re/Im (F2)                       S12: Re/Im (F2)                       S22: Re/Im (F2)            
2.50000000000E+09 +5.82996407705E-01 +6.63602310335E-01 -2.15653487095E-04 +8.90002375797E-05 -2.82627350153E-04 +1.03047060032E-04 +5.64395420999E-01 +7.22586804646E-01
2.50500000000E+09 +5.90447465365E-01 +6.55168992490E-01 -9.51501287063E-05 +9.62158837535E-05 -4.50097900160E-05 +9.28694690157E-05 +5.69968789774E-01 +7.17183254054E-01
2.51000000000E+09 +5.98387521822E-01 +6.46666017156E-01 -8.72140790007E-05 +8.82524993761E-05 -3.90374383934E-05 +4.79842766490E-05 +5.75654228822E-01 +7.12073689098E-01
2.51500000000E+09 +6.05870364848E-01 +6.38328006199E-01 -1.20772153124E-04 +6.93211893637E-05 -1.48464951530E-04 +5.97200879294E-06 +5.81041959869E-01 +7.06636451496E-01
2.52000000000E+09 +6.12672022268E-01 +6.30232600612E-01 -1.20266177351E-04 +1.22205755992E-04 -1.70372516386E-04 +1.36564909233E-04 +5.86257277620E-01 +7.00719344449E-01
2.52500000000E+09 +6.18485532698E-01 +6.22827406857E-01 -4.16943272029E-05 +1.24619834059E-04 -4.14451109389E-05 +1.15353777212E-04 +5.92028700611E-01 +6.94449747720E-01
2.53000000000E+09 +6.23521964785E-01 +6.15750409125E-01 -4.52840054558E-05 +1.31721401297E-04 -6.33413978329E-06 +1.12668138138E-04 +5.98155139753E-01 +6.87298569139E-01
2.53500000000E+09 +6.28046342357E-01 +6.09002931741E-01 -4.22972755412E-05 +1.33625400315E-04 -7.49044263682E-05 +1.75342048560E-04 +6.03981656294E-01 +6.80786012437E-01
2.54000000000E+09 +6.32212535519E-01 +6.02227633724E-01 +7.84136838126E-05 +1.33742218947E-04 +1.10757794653E-05 +1.59169093094E-04 +6.10017400025E-01 +6.74341649154E-01
2.54500000000E+09 +6.36746519319E-01 +5.95156716927E-01 -5.10428818819E-06 +7.41987731883E-05 -2.16679369545E-06 +3.56286908538E-05 +6.15689869542E-01 +6.68037620690E-01
2.55000000000E+09 +6.41522983535E-01 +5.87600025666E-01 -9.12387536556E-06 +7.06958298996E-05 -2.38419630488E-05 +9.14475059969E-05 +6.21150885865E-01 +6.61855782274E-01
2.55500000000E+09 +6.46942956833E-01 +5.79303847546E-01 +4.90900667603E-05 +1.79692487696E-04 +5.28466833840E-05 +1.87606034137E-04 +6.26238318400E-01 +6.55392224128E-01
2.56000000000E+09 +6.53232720385E-01 +5.71116822472E-01 +1.45314858931E-04 +1.23156294185E-04 +1.77036366927E-04 +1.91137395178E-04 +6.31285350544E-01 +6.48122932661E-01
2.56500000000E+09 +6.60158909353E-01 +5.62157443657E-01 +1.57091553252E-04 +6.54431950729E-05 +1.83489837072E-04 -4.88029567898E-06 +6.36471545253E-01 +6.40796767954E-01
2.57000000000E+09 +6.67268198331E-01 +5.53090439540E-01 +5.97259242857E-05 -4.57660352609E-05 +3.40511356072E-05 -5.85403980251E-05 +6.41845784678E-01 +6.32982499053E-01
2.57500000000E+09 +6.73918078362E-01 +5.44095552375E-01 -2.83187585432E-05 +2.10844923145E-05 -7.50892257484E-06 +1.29028965573E-05 +6.47295596715E-01 +6.25316158941E-01
2.58000000000E+09 +6.79893367721E-01 +5.35503618925E-01 -4.19895946441E-05 +9.90038162293E-05 -1.47069052097E-05 +1.28565584202E-04 +6.52387382869E-01 +6.17597644797E-01
2.58500000000E+09 +6.85232438517E-01 +5.27246151545E-01 +5.54694333237E-05 +1.29280968797E-04 +5.04100810751E-05 +1.16994684451E-04 +6.57129173499E-01 +6.10160567694E-01
2.59000000000E+09 +6.89918753085E-01 +5.19580346666E-01 +1.39611679379E-04 +1.19770592717E-04 +1.11959308446E-04 +1.44538371820E-04 +6.61965896670E-01 +6.02760284713E-01
2.59500000000E+09 +6.94307721008E-01 +5.11346840067E-01 +7.72953220895E-05 +1.02741529418E-04 +9.30047286684E-05 +1.18486275906E-04 +6.66831410977E-01 +5.94847662741E-01
2.60000000000E+09 +6.98135218712E-01 +5.02673615987E-01 +1.46699995900E-04 +1.20626670643E-04 +9.55081675606E-05 +9.69776810900E-05 +6.71958461844E-01 +5.86673746430E-01
2.60500000000E+09 +7.02086745192E-01 +4.93047604284E-01 +6.23207194103E-05 +1.13311000678E-04 +1.24250873914E-04 +1.00324895014E-04 +6.77217570479E-01 +5.78010664158E-01
2.61000000000E+09 +7.06198984593E-01 +4.82309080705E-01 +1.98752739259E-04 +1.42761660993E-04 +2.13010097619E-04 +1.50783229581E-04 +6.82277114791E-01 +5.69365476287E-01
2.61500000000E+09 +7.10775925570E-01 +4.70393901808E-01 +3.52313093535E-04 -5.93799186877E-05 +3.49850937772E-04 -3.98813153962E-05 +6.87272677349E-01 +5.60953854659E-01
2.62000000000E+09 +7.15439622512E-01 +4.57261813055E-01 +1.78740866843E-04 -1.73352838780E-04 +1.56135891451E-04 -1.79363484497E-04 +6.92032728052E-01 +5.52087616690E-01
2.62500000000E+09 +7.20218923365E-01 +4.43185308001E-01 +3.56000450869E-05 -3.48023270171E-05 +7.07366825352E-05 -3.53232756393E-05 +6.96705483005E-01 +5.43369877188E-01
2.63000000000E+09 +7.24737572381E-01 +4.28928981677E-01 +1.22444961968E-04 -1.09364568448E-06 +9.71107430055E-05 +1.59292592221E-05 +7.01444063287E-01 +5.34432401053E-01
2.63500000000E+09 +7.28376544713E-01 +4.15185461200E-01 +2.51110275469E-04 +2.95602546932E-05 +2.12463373637E-04 -2.39895604295E-05 +7.06090055122E-01 +5.25488336057E-01
2.64000000000E+09 +7.31786806043E-01 +4.02290221199E-01 +3.32032864333E-04 -1.18188496477E-04 +2.92296480487E-04 -9.27390518502E-05 +7.10671102443E-01 +5.16042224481E-01
2.64500000000E+09 +7.34929532083E-01 +3.90407292483E-01 +2.40726616320E-04 -2.68787012113E-04 +2.58344560217E-04 -2.04975654629E-04 +7.15370970501E-01 +5.06373755615E-01
2.65000000000E+09 +7.37582147300E-01 +3.79203278684E-01 +1.08111645329E-04 -2.92585567339E-04 +9.50084012584E-05 -2.40923072395E-04 +7.19687684403E-01 +4.96554908593E-01
2.65500000000E+09 +7.40474325794E-01 +3.68143477345E-01 +1.21998370439E-04 -1.97076070182E-04 +1.09398789468E-04 -1.90216851095E-04 +7.23923162031E-01 +4.86186525510E-01
2.66000000000E+09 +7.43148779709E-01 +3.56731256182E-01 +1.37254356121E-04 -1.79928961441E-04 +1.46452344902E-04 -1.74389379092E-04 +7.27989228987E-01 +4.75112463149E-01
2.66500000000E+09 +7.45529949581E-01 +3.45088344694E-01 +1.01807607961E-04 -3.52546837169E-04 +1.22102332785E-04 -3.89543604343E-04 +7.32318607109E-01 +4.64242016409E-01
2.67000000000E+09 +7.48019244145E-01 +3.32473223540E-01 -5.88766336257E-06 -3.80006850069E-04 -2.76674550814E-05 -3.98504441060E-04 +7.36979946839E-01 +4.53596982190E-01
2.67500000000E+09 +7.50265541071E-01 +3.18707790455E-01 -1.34593431787E-04 -2.64128347361E-04 -1.64361139317E-04 -2.38989466885E-04 +7.41294565836E-01 +4.42276598941E-01
2.68000000000E+09 +7.52005400882E-01 +3.04284942909E-01 -3.39315391399E-05 -2.05525200543E-04 +3.26615230685E-05 -1.54668540844E-04 +7.45245287148E-01 +4.31285698179E-01
2.68500000000E+09 +7.53302503122E-01 +2.89469510655E-01 +3.74332868563E-05 -3.19682126882E-04 +8.31295678064E-05 -3.54572890159E-04 +7.48630982135E-01 +4.19624081544E-01
2.69000000000E+09 +7.54482020984E-01 +2.75020237742E-01 -1.58185113942E-04 -4.32370056714E-04 -1.85578128503E-04 -4.44245813952E-04 +7.51234135206E-01 +4.07556898688E-01
2.69500000000E+09 +7.55118238470E-01 +2.61324981043E-01 -2.26342135712E-04 -2.94104119004E-04 -2.09637546627E-04 -3.32168004229E-04 +7.54057754126E-01 +3.95101558337E-01
2.70000000000E+09 +7.56284630388E-01 +2.47661763519E-01 -3.90657302710E-04 -3.41100838303E-04 -3.48297848886E-04 -3.53385651586E-04 +7.56968773128E-01 +3.82056832108E-01
2.70500000000E+09 +7.57222536514E-01 +2.34587218896E-01 -4.17333826199E-04 -1.75607379956E-04 -4.24482160321E-04 -1.57844940164E-04 +7.59979400225E-01 +3.68525484851E-01
2.71000000000E+09 +7.57872306582E-01 +2.21493106834E-01 -3.58005218341E-04 -8.17887733493E-05 -3.95158764240E-04 -1.13367858461E-04 +7.62572180884E-01 +3.55405346984E-01
2.71500000000E+09 +7.58876122057E-01 +2.07932158161E-01 -3.45475696420E-04 -2.04793493817E-04 -3.61483882856E-04 -1.99984772190E-04 +7.64989553450E-01 +3.42977059557E-01
2.72000000000E+09 +7.59375706960E-01 +1.93478304508E-01 -5.52369891007E-04 -1.58368342232E-04 -5.97896265286E-04 -1.49169295784E-04 +7.66764782433E-01 +3.30451978952E-01
2.72500000000E+09 +7.59469281314E-01 +1.78337768968E-01 -7.32778029507E-04 +3.53609046882E-05 -7.34574179985E-04 +1.91009227596E-04 +7.68051421202E-01 +3.17202377505E-01
2.73000000000E+09 +7.58933807797E-01 +1.61883554767E-01 -6.56720669649E-04 +2.69494895208E-04 -6.00448901360E-04 +3.13399105002E-04 +7.68981942479E-01 +3.03355678422E-01
2.73500000000E+09 +7.57249131272E-01 +1.43990287607E-01 -5.95595298203E-04 +4.73341830839E-04 -4.67776066711E-04 +4.59806604131E-04 +7.70257366640E-01 +2.89154434428E-01
2.74000000000E+09 +7.54489857511E-01 +1.25991361102E-01 -3.45910404705E-04 +6.36469063186E-04 -3.22145784966E-04 +5.61807560699E-04 +7.72065798392E-01 +2.74297937856E-01
2.74500000000E+09 +7.50563044558E-01 +1.08012749307E-01 -1.60089708490E-04 +6.26137133365E-04 -2.33317423442E-04 +5.68396147458E-04 +7.73470945614E-01 +2.59203732086E-01
2.75000000000E+09 +7.46110940358E-01 +9.03472699201E-02 -3.21521408211E-05 +6.62337729777E-04 -1.45245181556E-04 +6.36314391694E-04 +7.74808892384E-01 +2.43977610105E-01
2.75500000000E+09 +7.41196358556E-01 +7.33202448623E-02 +8.04976658742E-05 +5.87589994699E-04 +7.98366252823E-05 +5.74735283192E-04 +7.74684586924E-01 +2.28915958330E-01
2.76000000000E+09 +7.37050711466E-01 +5.65995924974E-02 +6.69431313272E-05 +7.17253101649E-04 +1.81092156554E-04 +7.58694856893E-04 +7.74804355930E-01 +2.13686712538E-01
2.76500000000E+09 +7.32060688158E-01 +3.89052444179E-02 +4.02522945397E-04 +5.69124265272E-04 +4.31323074426E-04 +5.58942126200E-04 +7.74048862214E-01 +1.96607010532E-01
2.77000000000E+09 +7.26898515698E-01 +2.12169223166E-02 +3.90096840888E-04 +4.41186805988E-04 +4.13736851748E-04 +3.98468760137E-04 +7.72842469994E-01 +1.79489626075E-01
2.77500000000E+09 +7.21990559320E-01 +2.84310303738E-03 +4.66427575897E-04 +4.70427945590E-04 +4.88016363828E-04 +4.53210357197E-04 +7.71238165934E-01 +1.61306548266E-01
2.78000000000E+09 +7.16777941879E-01 -1.68827221474E-02 +6.59149543364E-04 +3.08656124813E-04 +6.99897667367E-04 +3.29606662976E-04 +7.69439568057E-01 +1.43464640020E-01
2.78500000000E+09 +7.10538874311E-01 -3.77309368653E-02 +8.85976126381E-04 +1.88592288410E-04 +8.62981142060E-04 +1.01462320339E-04 +7.66937238800E-01 +1.25489312611E-01
2.79000000000E+09 +7.03591361927E-01 -5.95572067105E-02 +7.53188180430E-04 -2.40725037454E-04 +7.04853928385E-04 -2.21500981488E-04 +7.63556356778E-01 +1.08047770920E-01
2.79500000000E+09 +6.94940105348E-01 -8.10987761894E-02 +5.21258860112E-04 -2.14509995124E-04 +4.74247243948E-04 -1.78491434718E-04 +7.59176581714E-01 +9.01471269660E-02
2.80000000000E+09 +6.85593423238E-01 -1.01665149133E-01 +5.33606066159E-04 -2.85324109947E-04 +4.86041701394E-04 -2.92364942290E-04 +7.54132343821E-01 +7.19595010432E-02
2.80500000000E+09 +6.76308118503E-01 -1.20944298054E-01 +4.13722933517E-04 -2.98497511168E-04 +4.19388908407E-04 -2.74759298159E-04 +7.48353243752E-01 +5.28134108011E-02
2.81000000000E+09 +6.66464108386E-01 -1.39474970714E-01 +5.91308589167E-04 -2.92946013314E-04 +6.04218030728E-04 -2.88000742489E-04 +7.41438651955E-01 +3.37762279835E-02
2.81500000000E+09 +6.55973054475E-01 -1.56720860283E-01 +4.39427215549E-04 -5.15995838832E-04 +4.48400447297E-04 -5.26124549421E-04 +7.34743659747E-01 +1.48334911651E-02
2.82000000000E+09 +6.44670800717E-01 -1.73897102665E-01 +4.17776288174E-04 -5.72342518533E-04 +4.14154212463E-04 -5.60884020627E-04 +7.27522041857E-01 -4.60753307089E-03
2.82500000000E+09 +6.31692338601E-01 -1.90128167467E-01 +4.41259388877E-04 -7.25692432098E-04 +4.03070426984E-04 -7.07250733972E-04 +7.19461924006E-01 -2.40166597160E-02
2.83000000000E+09 +6.18057527486E-01 -2.06515200996E-01 +2.96140795764E-04 -1.07620784209E-03 +2.91725414422E-04 -9.70960180424E-04 +7.10813525656E-01 -4.40242850860E-02
2.83500000000E+09 +6.02843065157E-01 -2.23978465028E-01 -1.87072482079E-04 -1.15651826082E-03 -1.44571202001E-04 -1.14390859756E-03 +7.00696171161E-01 -6.39658092643E-02
2.84000000000E+09 +5.85562137239E-01 -2.42102433520E-01 -5.20334773503E-04 -9.63392321392E-04 -4.63565149101E-04 -9.90969177379E-04 +6.90157108853E-01 -8.49181650501E-02
2.84500000000E+09 +5.65451985378E-01 -2.61614646284E-01 -5.84127105911E-04 -7.47748610116E-04 -6.24187683331E-04 -7.48101200918E-04 +6.77472486558E-01 -1.05638050764E-01
2.85000000000E+09 +5.43570999319E-01 -2.80287908460E-01 -5.65818242415E-04 -6.22222545525E-04 -5.20695414512E-04 -6.37246893571E-04 +6.63842338556E-01 -1.26041674800E-01
2.85500000000E+09 +5.20628732089E-01 -2.99020213256E-01 -7.10834984741E-04 -5.81952085929E-04 -7.27839081388E-04 -6.52507704716E-04 +6.49481030029E-01 -1.46250350212E-01
2.86000000000E+09 +4.96843422575E-01 -3.17412542979E-01 -5.97223369650E-04 -5.49617834855E-04 -6.53379235142E-04 -5.92426227558E-04 +6.34081971308E-01 -1.67283999353E-01
2.86500000000E+09 +4.72424944997E-01 -3.34305507459E-01 -7.69592235040E-04 -6.27721122969E-04 -7.98599505330E-04 -6.39382706989E-04 +6.16339882552E-01 -1.88467685331E-01
2.87000000000E+09 +4.48339493731E-01 -3.49755658711E-01 -1.16870266328E-03 -9.18822713640E-04 -1.24076423908E-03 -9.23507284672E-04 +5.96688137203E-01 -2.08639972174E-01
2.87500000000E+09 +4.24263515632E-01 -3.64235079170E-01 -1.96143502803E-03 -4.39897693148E-04 -1.96593043556E-03 -3.93606536595E-04 +5.76340709874E-01 -2.27758055386E-01
2.88000000000E+09 +3.99925620134E-01 -3.77347675649E-01 -2.05119248187E-03 +2.46752243037E-04 -2.00123956176E-03 +2.76517285384E-04 +5.54761442904E-01 -2.46824609463E-01
2.88500000000E+09 +3.74921881221E-01 -3.89798286281E-01 -1.98959460911E-03 +1.16570820415E-03 -1.88542960643E-03 +1.13676450490E-03 +5.31604741585E-01 -2.64863453821E-01
2.89000000000E+09 +3.47889247870E-01 -4.01466794326E-01 -9.86134255395E-04 +1.57137069417E-03 -9.87038745675E-04 +1.43218487302E-03 +5.06475832323E-01 -2.82683360365E-01
2.89500000000E+09 +3.18107343962E-01 -4.11354964115E-01 -7.16874947940E-04 +1.04552633867E-03 -7.43627931555E-04 +1.01034878912E-03 +4.79870970988E-01 -2.99270660773E-01
2.90000000000E+09 +2.86978506521E-01 -4.19336781177E-01 -1.05282414863E-03 +1.33165436633E-03 -1.10862702094E-03 +1.29432688409E-03 +4.51947156681E-01 -3.15351030681E-01
2.90500000000E+09 +2.53576281914E-01 -4.25609870337E-01 -6.25146670244E-04 +1.53914302141E-03 -6.70935925857E-04 +1.53031067797E-03 +4.22402598591E-01 -3.30957931131E-01
2.91000000000E+09 +2.19560074567E-01 -4.30136352337E-01 -6.68722507894E-04 +1.73441153238E-03 -6.08113933649E-04 +1.79717533409E-03 +3.91414614422E-01 -3.44048825028E-01
2.91500000000E+09 +1.84107698534E-01 -4.33827728177E-01 +3.58432941046E-06 +2.02208046711E-03 +7.29658597676E-05 +1.96148232929E-03 +3.60503780853E-01 -3.55425346646E-01
2.92000000000E+09 +1.47852657937E-01 -4.34860025258E-01 +1.08557288359E-04 +1.66454419332E-03 +1.32275017604E-04 +1.57335761078E-03 +3.27992440084E-01 -3.65680010743E-01
2.92500000000E+09 +1.12091598719E-01 -4.34393309617E-01 +1.77258966790E-04 +2.30893137720E-03 +7.40578398746E-05 +2.21963437073E-03 +2.93172903195E-01 -3.73909566412E-01
2.93000000000E+09 +7.67384359046E-02 -4.31671398674E-01 +1.14999252911E-03 +2.15766508115E-03 +1.06633475069E-03 +2.19261585412E-03 +2.56635973642E-01 -3.80099468878E-01
2.93500000000E+09 +4.22686209562E-02 -4.27964383309E-01 +1.49827492117E-03 +2.01047068797E-03 +1.43232946340E-03 +2.04545006655E-03 +2.18975741098E-01 -3.83986334775E-01
2.94000000000E+09 +7.25604755183E-03 -4.22363648266E-01 +2.37995840788E-03 +1.30862750076E-03 +2.29908955645E-03 +1.36925928946E-03 +1.80703479630E-01 -3.86186911631E-01
2.94500000000E+09 -2.81294111833E-02 -4.13486197393E-01 +1.88205916365E-03 +6.63885701109E-04 +1.83822027375E-03 +6.70144232081E-04 +1.42032320763E-01 -3.86768533809E-01
2.95000000000E+09 -6.26855056704E-02 -4.01099557250E-01 +1.74123518375E-03 +8.37603284140E-04 +1.68720241713E-03 +8.57671122453E-04 +1.02575074447E-01 -3.84990242435E-01
2.95500000000E+09 -9.65204393404E-02 -3.85904980920E-01 +2.15068100233E-03 +4.84390764162E-04 +2.20914735620E-03 +5.45580009702E-04 +6.22608041431E-02 -3.79003301368E-01
2.96000000000E+09 -1.29336453339E-01 -3.68217569524E-01 +2.01120297500E-03 +4.14399296591E-04 +2.14882287163E-03 +3.70965315982E-04 +2.34036974138E-02 -3.69339682421E-01
2.96500000000E+09 -1.62903422833E-01 -3.47986085264E-01 +2.67661580086E-03 +1.15010690334E-04 +2.74498627466E-03 +7.05846636840E-05 -1.60784083679E-02 -3.58489515710E-01
2.97000000000E+09 -1.94374803960E-01 -3.23149113172E-01 +2.79362084221E-03 -1.01300013143E-03 +2.77008466823E-03 -1.12083420889E-03 -5.52774539087E-02 -3.43968357570E-01
2.97500000000E+09 -2.23376341513E-01 -2.97429562792E-01 +2.01940787030E-03 -1.35240512632E-03 +1.91431470871E-03 -1.44152102033E-03 -9.45732228993E-02 -3.28223992127E-01
2.98000000000E+09 -2.52032694377E-01 -2.70234905657E-01 +1.92461157143E-03 -1.32858030969E-03 +1.90869009130E-03 -1.21509850779E-03 -1.32628773092E-01 -3.07509072388E-01
2.98500000000E+09 -2.78333540958E-01 -2.40860687909E-01 +1.79930415764E-03 -1.84968994032E-03 +1.98894144116E-03 -1.80202249953E-03 -1.67761545090E-01 -2.85350799123E-01
2.99000000000E+09 -3.02949818441E-01 -2.11069283248E-01 +1.26569230006E-03 -2.37299986201E-03 +1.37906583319E-03 -2.46667878705E-03 -2.02073230536E-01 -2.60478048685E-01
2.99500000000E+09 -3.27180047569E-01 -1.79924397495E-01 +8.44698274714E-04 -2.01694661196E-03 +7.91763889395E-04 -2.15283847802E-03 -2.34467154936E-01 -2.32820151652E-01
3.00000000000E+09 -3.48261171659E-01 -1.46500782793E-01 +9.73900809159E-04 -2.27964110011E-03 +7.75039399032E-04 -2.39686615355E-03 -2.65752686797E-01 -2.02305191184E-01
3.00500000000E+09 -3.67082336557E-01 -1.13702269696E-01 +2.88112066965E-04 -2.72007619296E-03 +1.55177301383E-04 -2.58770628296E-03 -2.94558547797E-01 -1.69777024120E-01
3.01000000000E+09 -3.84519946445E-01 -7.97032912327E-02 -9.08438710414E-05 -2.51718882232E-03 -7.00620795418E-05 -2.38973984717E-03 -3.21317538450E-01 -1.35202380563E-01
3.01500000000E+09 -3.98502626299E-01 -4.51597113649E-02 -4.51312836736E-04 -2.94505306262E-03 -3.89890157091E-04 -2.89208753649E-03 -3.44544396286E-01 -9.97845858979E-02
3.02000000000E+09 -4.09919585600E-01 -9.84795407047E-03 -1.45865418700E-03 -2.78197656886E-03 -1.43900754428E-03 -2.80720976344E-03 -3.65455861551E-01 -6.38300488768E-02
3.02500000000E+09 -4.17450720224E-01 +2.45148590373E-02 -1.93762269416E-03 -2.15376088585E-03 -1.85613324045E-03 -2.10956744085E-03 -3.83761457915E-01 -2.53840327625E-02
3.03000000000E+09 -4.22578129133E-01 +5.86875267082E-02 -2.16003005948E-03 -1.38178277017E-03 -2.09325319526E-03 -1.36056113248E-03 -3.97781783960E-01 +1.34375591306E-02
3.03500000000E+09 -4.24815321257E-01 +9.16417755958E-02 -1.84882605839E-03 -9.79810336698E-04 -1.76189927673E-03 -9.88150275314E-04 -4.09844046476E-01 +5.21896812661E-02
3.04000000000E+09 -4.25417437921E-01 +1.24749232442E-01 -1.80538514732E-03 -1.14076663729E-03 -1.81552591903E-03 -1.24737822687E-03 -4.19917653222E-01 +9.20448519668E-02
3.04500000000E+09 -4.23679227184E-01 +1.58758070469E-01 -2.13585727719E-03 -8.57065795406E-04 -2.24463688574E-03 -1.00096159588E-03 -4.26550748795E-01 +1.32898541176E-01
3.05000000000E+09 -4.18330676199E-01 +1.92776927580E-01 -2.37895074458E-03 -5.91663013932E-04 -2.50099426246E-03 -5.68928750462E-04 -4.29628801916E-01 +1.72493633570E-01
3.05500000000E+09 -4.11222473469E-01 +2.25758508322E-01 -2.55392282167E-03 -5.97384555779E-05 -2.63656507445E-03 +1.49501385963E-04 -4.30497353129E-01 +2.11183490261E-01
3.06000000000E+09 -4.01994313806E-01 +2.58719556540E-01 -2.36663435058E-03 +3.96708107958E-04 -2.24818135095E-03 +5.35728441716E-04 -4.28615841386E-01 +2.49231862237E-01
3.06500000000E+09 -3.91386946236E-01 +2.90714241087E-01 -2.21968317597E-03 +7.69178985817E-04 -2.11631820476E-03 +7.20106772211E-04 -4.24013598947E-01 +2.85847093792E-01
3.07000000000E+09 -3.79307535710E-01 +3.21701725571E-01 -1.93382966490E-03 +1.28435468619E-03 -1.90888487031E-03 +1.10638089400E-03 -4.18201460847E-01 +3.21251181444E-01
