# Hz S RI R 50
! CMT, C1220, 16058040, 17.2.0/1
! Date: 15/08/2018 10:06:48
! Data: Format (Calibration Info)
! Freq                      S11: Re/Im (F2)                       S21: Re/Im (F2)                       S12: Re/Im (F2)                       S22: Re/Im (F2)            
2.50000000000E+09 +5.98869385992E-01 +6.31832726080E-01 -5.10726556573E-04 -2.94677776781E-04 -5.71737336914E-04 -3.45091432788E-04 +5.72285875430E-01 +7.17453853175E-01
2.50500000000E+09 +6.05176159997E-01 +6.24301649527E-01 -4.86319895554E-04 -2.63142407892E-04 -5.75189012701E-04 -2.89050313278E-04 +5.78027984949E-01 +7.11950414572E-01
2.51000000000E+09 +6.11736755450E-01 +6.16298958724E-01 -5.69233816952E-04 -2.97798640428E-04 -6.02497008853E-04 -2.80791633200E-04 +5.83710860736E-01 +7.06873182474E-01
2.51500000000E+09 +6.17965004891E-01 +6.08233209176E-01 -6.51632340012E-04 -2.50029647431E-04 -6.37559388718E-04 -2.02752875033E-04 +5.89053777096E-01 +7.01419512552E-01
2.52000000000E+09 +6.23628467325E-01 +6.00054893356E-01 -7.07132558645E-04 -1.84712525620E-04 -7.07719473085E-04 -1.81516841943E-04 +5.94176589135E-01 +6.95578529403E-01
2.52500000000E+09 +6.28428885995E-01 +5.92611383720E-01 -7.01817561529E-04 -4.67399003366E-05 -7.69446923998E-04 -7.59437403390E-05 +5.99939730793E-01 +6.88850928681E-01
2.53000000000E+09 +6.32946996365E-01 +5.85497893249E-01 -6.98119595715E-04 +1.17829299524E-04 -7.45644832925E-04 +3.08280196930E-05 +6.06012817812E-01 +6.81859811027E-01
2.53500000000E+09 +6.37240824229E-01 +5.79269482229E-01 -6.65131636076E-04 +1.29781321572E-04 -6.74635442495E-04 +1.37912068607E-04 +6.12139655022E-01 +6.75094471668E-01
2.54000000000E+09 +6.41283571092E-01 +5.73236722512E-01 -6.63651797454E-04 +1.22655519455E-04 -6.56984021886E-04 +1.31667677431E-04 +6.18319203182E-01 +6.68288847587E-01
2.54500000000E+09 +6.45641196095E-01 +5.67270148641E-01 -6.97492421431E-04 +2.50233737407E-04 -7.24654104431E-04 +2.05777254705E-04 +6.24013429933E-01 +6.61796095609E-01
2.55000000000E+09 +6.50440825855E-01 +5.61048496244E-01 -6.23709238204E-04 +3.50926861197E-04 -6.55252453563E-04 +3.55965807704E-04 +6.29329463154E-01 +6.55630026154E-01
2.55500000000E+09 +6.55726626412E-01 +5.54185342692E-01 -5.75865612509E-04 +4.28469052395E-04 -6.55169790854E-04 +4.74401503341E-04 +6.34527833457E-01 +6.49076668772E-01
2.56000000000E+09 +6.61633481735E-01 +5.47187189319E-01 -5.06444700469E-04 +3.95844431641E-04 -5.45088500652E-04 +5.24873251456E-04 +6.39781906729E-01 +6.41893674070E-01
2.56500000000E+09 +6.67910818815E-01 +5.39089615708E-01 -4.70684323474E-04 +3.38088202148E-04 -4.41942078658E-04 +5.06754110031E-04 +6.45351666627E-01 +6.34370467038E-01
2.57000000000E+09 +6.74026578617E-01 +5.30483207845E-01 -6.09947497090E-04 +3.31270312642E-04 -4.84420387223E-04 +4.33264356771E-04 +6.50767021229E-01 +6.26118632627E-01
2.57500000000E+09 +6.80105601191E-01 +5.21354531682E-01 -6.54425226068E-04 +5.32811007028E-04 -5.16846548106E-04 +5.70161301849E-04 +6.56265734126E-01 +6.18303516151E-01
2.58000000000E+09 +6.85105901301E-01 +5.12494738998E-01 -5.18032988973E-04 +7.78943273856E-04 -3.99680059720E-04 +6.47329137077E-04 +6.61259870106E-01 +6.10844474571E-01
2.58500000000E+09 +6.89695821004E-01 +5.03618202349E-01 -2.58931324083E-04 +7.55282742680E-04 -2.56713938272E-04 +6.18119292271E-04 +6.66175276790E-01 +6.03243214991E-01
2.59000000000E+09 +6.93864670120E-01 +4.95204687229E-01 -2.10404031345E-04 +7.09435822924E-04 -2.70105772126E-04 +6.05306290835E-04 +6.70917628492E-01 +5.95671085091E-01
2.59500000000E+09 +6.97992161427E-01 +4.86952877757E-01 -2.04481322301E-04 +6.81156914386E-04 -2.32936333886E-04 +6.67511334225E-04 +6.75677081152E-01 +5.87623888225E-01
2.60000000000E+09 +7.01940584452E-01 +4.78482021361E-01 -2.16863478876E-04 +6.55767146323E-04 -1.75866738932E-04 +6.42801938793E-04 +6.80769301896E-01 +5.79120522894E-01
2.60500000000E+09 +7.06131805017E-01 +4.69256284338E-01 -2.91477930726E-04 +7.69499805360E-04 -2.64155221079E-04 +7.31757489146E-04 +6.85923151819E-01 +5.70211056953E-01
2.61000000000E+09 +7.10323742734E-01 +4.59244282923E-01 -1.35270817832E-04 +1.00816400100E-03 -1.00654996221E-04 +1.00850010471E-03 +6.90665320684E-01 +5.61351808761E-01
2.61500000000E+09 +7.14846624033E-01 +4.48451637173E-01 +2.11823184144E-04 +9.42284426703E-04 +1.63086542573E-04 +9.81110565381E-04 +6.95636175069E-01 +5.52776141986E-01
2.62000000000E+09 +7.19159450457E-01 +4.36213770814E-01 +2.37867439162E-04 +7.71386433184E-04 +2.86204830714E-04 +7.99897750141E-04 +7.00228487299E-01 +5.43676568063E-01
2.62500000000E+09 +7.23184727508E-01 +4.23157300379E-01 +1.61062105318E-04 +6.79260636879E-04 +2.39451330497E-04 +7.02574992347E-04 +7.05001666294E-01 +5.35024773953E-01
2.63000000000E+09 +7.26862650709E-01 +4.09931520690E-01 +1.75991440272E-04 +7.84330340468E-04 +2.94013233665E-04 +7.20600292564E-04 +7.09869473238E-01 +5.25965611183E-01
2.63500000000E+09 +7.29908652021E-01 +3.96646166761E-01 +2.16734758071E-04 +8.48172497845E-04 +2.57566183077E-04 +7.55009929012E-04 +7.14676584637E-01 +5.16506066211E-01
2.64000000000E+09 +7.32679534310E-01 +3.83777042404E-01 +3.64962594759E-04 +9.46605335379E-04 +3.50217585894E-04 +7.96093398822E-04 +7.19295415303E-01 +5.06620598380E-01
2.64500000000E+09 +7.35315227713E-01 +3.71615149997E-01 +6.54954835494E-04 +8.85065081538E-04 +5.45161306184E-04 +7.86475615187E-04 +7.23642013216E-01 +4.96897537670E-01
2.65000000000E+09 +7.37739177774E-01 +3.59820290285E-01 +7.54064937468E-04 +7.03592210512E-04 +5.71305831637E-04 +7.50000759360E-04 +7.27840240527E-01 +4.87015448415E-01
2.65500000000E+09 +7.39937439484E-01 +3.47883468482E-01 +6.81447253191E-04 +5.59809056669E-04 +6.65062129119E-04 +6.88981344990E-04 +7.32171975901E-01 +4.76910856902E-01
2.66000000000E+09 +7.41974413518E-01 +3.36247609293E-01 +6.96214887063E-04 +5.75321380756E-04 +7.44163859003E-04 +6.08185848923E-04 +7.36518464020E-01 +4.65493205862E-01
2.66500000000E+09 +7.44262532258E-01 +3.24549539049E-01 +7.12806944517E-04 +5.90672868027E-04 +7.73112090051E-04 +6.05325953787E-04 +7.40570272220E-01 +4.54077110239E-01
2.67000000000E+09 +7.46219042471E-01 +3.11788930642E-01 +9.06040648763E-04 +7.04711920996E-04 +9.24742162982E-04 +6.32189958259E-04 +7.44771489000E-01 +4.42992587667E-01
2.67500000000E+09 +7.47597795672E-01 +2.98413104006E-01 +1.14775842048E-03 +4.10063104348E-04 +1.10893374966E-03 +3.89125426700E-04 +7.48608064251E-01 +4.31840801921E-01
2.68000000000E+09 +7.48163256900E-01 +2.84494866601E-01 +1.07931512875E-03 +1.65668552100E-04 +9.85435431298E-04 +1.83967477106E-04 +7.52267678950E-01 +4.20770344077E-01
2.68500000000E+09 +7.48228987574E-01 +2.70626027818E-01 +9.75448146305E-04 +1.84584151818E-04 +1.01398307858E-03 +1.33449551180E-04 +7.55288937627E-01 +4.09326637187E-01
2.69000000000E+09 +7.47952258161E-01 +2.56928687534E-01 +1.06299234031E-03 +1.85526028736E-04 +1.05867938742E-03 +1.58334919202E-04 +7.58115291495E-01 +3.97237279387E-01
2.69500000000E+09 +7.47566083702E-01 +2.43771446102E-01 +1.13142002818E-03 +4.84050788145E-05 +1.09960747128E-03 +4.86982480761E-05 +7.60710284932E-01 +3.84227949425E-01
2.70000000000E+09 +7.47540211691E-01 +2.30656080450E-01 +1.20343589297E-03 -6.30592368126E-05 +1.18072473736E-03 -5.37736893576E-05 +7.63198073972E-01 +3.71031025997E-01
2.70500000000E+09 +7.47681922812E-01 +2.17816734008E-01 +1.22819685382E-03 -2.84748885000E-04 +1.21282650897E-03 -2.51378563243E-04 +7.66216187673E-01 +3.57732189559E-01
2.71000000000E+09 +7.48069194336E-01 +2.04921836921E-01 +1.12535849085E-03 -4.29607826556E-04 +1.14274854087E-03 -4.45021560224E-04 +7.68888719555E-01 +3.44328689326E-01
2.71500000000E+09 +7.49155879329E-01 +1.91561269657E-01 +1.11797882162E-03 -5.56492736672E-04 +1.13444657256E-03 -5.58619057860E-04 +7.71088714671E-01 +3.31701533173E-01
2.72000000000E+09 +7.50048675649E-01 +1.77249531985E-01 +9.98051789511E-04 -6.73294331171E-04 +1.03682225520E-03 -7.77396566320E-04 +7.73012005010E-01 +3.18991050665E-01
2.72500000000E+09 +7.50834881231E-01 +1.62078301694E-01 +8.48738085064E-04 -7.39428071400E-04 +8.03008833754E-04 -8.07622696825E-04 +7.73859977183E-01 +3.05771208383E-01
2.73000000000E+09 +7.50563732721E-01 +1.45428114850E-01 +8.63566791971E-04 -6.65860363675E-04 +7.70527135043E-04 -6.82206186722E-04 +7.75281070170E-01 +2.92012063046E-01
2.73500000000E+09 +7.48682699974E-01 +1.28078226296E-01 +8.58734836010E-04 -8.05076275547E-04 +7.77016887767E-04 -6.84334158564E-04 +7.76518813861E-01 +2.76881084874E-01
2.74000000000E+09 +7.45439878318E-01 +1.11438829926E-01 +9.15508909407E-04 -9.48161298127E-04 +8.76915450631E-04 -7.61580681949E-04 +7.77594983089E-01 +2.61595634968E-01
2.74500000000E+09 +7.41549857989E-01 +9.49011602717E-02 +8.34865443951E-04 -1.16013857057E-03 +9.38801354610E-04 -1.04425077430E-03 +7.78359546239E-01 +2.46397757141E-01
2.75000000000E+09 +7.37102589765E-01 +7.85927712930E-02 +5.27980548679E-04 -1.28155060206E-03 +6.63262340852E-04 -1.23385207573E-03 +7.79053466630E-01 +2.31806812529E-01
2.75500000000E+09 +7.32185444791E-01 +6.24108588603E-02 +4.52533288444E-04 -1.18733911223E-03 +5.65729243921E-04 -1.20597701034E-03 +7.79173388648E-01 +2.16878077073E-01
2.76000000000E+09 +7.27522216129E-01 +4.65879887820E-02 +5.12935630109E-04 -1.27761563920E-03 +5.80060344656E-04 -1.30134980547E-03 +7.78674242817E-01 +2.01077865979E-01
2.76500000000E+09 +7.22743452309E-01 +3.04693422203E-02 +3.08568348112E-04 -1.51822267534E-03 +3.06926112965E-04 -1.59346780109E-03 +7.77166467753E-01 +1.84013165244E-01
2.77000000000E+09 +7.18667641942E-01 +1.34958713070E-02 +1.13058286457E-04 -1.51047442231E-03 +1.19029236280E-04 -1.59612904807E-03 +7.75292892039E-01 +1.66982478320E-01
2.77500000000E+09 +7.14379778267E-01 -4.84681190126E-03 -1.85870865987E-04 -1.65156518232E-03 -2.29768425335E-04 -1.68461102016E-03 +7.73552997822E-01 +1.49168550474E-01
2.78000000000E+09 +7.09611098776E-01 -2.46762010748E-02 -4.33631447937E-04 -1.55077460717E-03 -5.16262005636E-04 -1.57175077280E-03 +7.71316657211E-01 +1.31365383369E-01
2.78500000000E+09 +7.02991127867E-01 -4.53447464110E-02 -5.54315209044E-04 -1.17439770063E-03 -5.63551537291E-04 -1.17942812333E-03 +7.68798047444E-01 +1.14122971119E-01
2.79000000000E+09 +6.95477004533E-01 -6.64580675044E-02 -3.87988251190E-04 -1.29845074663E-03 -3.82380267876E-04 -1.24126444960E-03 +7.65530643309E-01 +9.67181812999E-02
2.79500000000E+09 +6.86182665623E-01 -8.70868097806E-02 -7.85800859907E-04 -1.43364784407E-03 -7.62075326097E-04 -1.35191098109E-03 +7.61226251293E-01 +7.93459376428E-02
2.80000000000E+09 +6.76118063603E-01 -1.07088040153E-01 -8.26800850299E-04 -1.08843685923E-03 -7.46212468869E-04 -1.10984919379E-03 +7.56510189119E-01 +6.14651287853E-02
2.80500000000E+09 +6.64985388120E-01 -1.26234198194E-01 -9.26787625219E-04 -1.30002090252E-03 -8.81384788934E-04 -1.36401167582E-03 +7.51048607232E-01 +4.22905954457E-02
2.81000000000E+09 +6.53037967138E-01 -1.44362164114E-01 -1.26012573903E-03 -1.02406576554E-03 -1.30720680964E-03 -1.12925266036E-03 +7.44163705740E-01 +2.32940919558E-02
2.81500000000E+09 +6.40075516749E-01 -1.61732787381E-01 -1.25725152208E-03 -6.41394889235E-04 -1.28191293620E-03 -6.26516391577E-04 +7.37340754393E-01 +4.21213384008E-03
2.82000000000E+09 +6.26350600767E-01 -1.78319944852E-01 -1.08123587223E-03 -8.42411937852E-04 -1.11750372257E-03 -7.88855045134E-04 +7.30060987455E-01 -1.51001733708E-02
2.82500000000E+09 +6.12013482220E-01 -1.94784346002E-01 -1.58857993266E-03 -8.50286920338E-04 -1.56371173161E-03 -7.46553164286E-04 +7.21725377020E-01 -3.46821092476E-02
2.83000000000E+09 +5.96276273581E-01 -2.12366341016E-01 -1.68036272223E-03 -1.05344645453E-04 -1.55330844149E-03 -9.21466056497E-05 +7.12696354034E-01 -5.39613985545E-02
2.83500000000E+09 +5.78028807886E-01 -2.30612596609E-01 -1.13464242976E-03 -3.52872964387E-05 -1.06435591847E-03 -3.71178231293E-05 +7.03141903108E-01 -7.43565212005E-02
2.84000000000E+09 +5.57414548656E-01 -2.48357440016E-01 -1.04426972611E-03 -1.88540951606E-04 -1.03778834966E-03 -1.71153936359E-04 +6.91505583262E-01 -9.53557694867E-02
2.84500000000E+09 +5.35304113676E-01 -2.66019225299E-01 -1.11459078895E-03 -2.85299866679E-04 -1.08476468370E-03 -2.92618848799E-04 +6.78971788541E-01 -1.15471939297E-01
2.85000000000E+09 +5.11610351038E-01 -2.83219663215E-01 -1.44405025811E-03 -3.15553996618E-04 -1.43409309617E-03 -2.46079792384E-04 +6.66074968323E-01 -1.36179034669E-01
2.85500000000E+09 +4.87422312455E-01 -2.99914831255E-01 -1.53887597837E-03 +1.37821139875E-04 -1.48774986054E-03 +2.07171457158E-04 +6.51532005414E-01 -1.57227700366E-01
2.86000000000E+09 +4.62153209274E-01 -3.16375637683E-01 -1.03868604167E-03 +2.79857825669E-04 -1.02837849291E-03 +2.12761762691E-04 +6.34959794859E-01 -1.77891366801E-01
2.86500000000E+09 +4.35866729240E-01 -3.31517070846E-01 -1.24345294666E-03 -1.34869755469E-04 -1.22817404380E-03 -2.25949712669E-04 +6.17490614956E-01 -1.98213002791E-01
2.87000000000E+09 +4.09690272109E-01 -3.44693919957E-01 -1.51228263591E-03 +2.31004599057E-04 -1.48533009891E-03 +2.67517119834E-04 +5.98926117852E-01 -2.17223181519E-01
2.87500000000E+09 +3.84629762031E-01 -3.56446186406E-01 -1.48041430079E-03 +2.77703534610E-04 -1.44159282476E-03 +2.83165532385E-04 +5.80300145670E-01 -2.37281275069E-01
2.88000000000E+09 +3.58862484666E-01 -3.68591969960E-01 -1.60200514899E-03 +4.19298286847E-04 -1.60515244523E-03 +4.42683936605E-04 +5.59061960426E-01 -2.57624848780E-01
2.88500000000E+09 +3.32226478874E-01 -3.78900093596E-01 -1.34006004155E-03 +8.00378521084E-04 -1.25625985344E-03 +7.60127744343E-04 +5.35721065189E-01 -2.76261913768E-01
2.89000000000E+09 +3.04131139294E-01 -3.88183897167E-01 -1.27376029988E-03 +3.59545074961E-04 -1.22661235341E-03 +3.06023485606E-04 +5.11113052021E-01 -2.94433417981E-01
2.89500000000E+09 +2.73592894883E-01 -3.95824408384E-01 -1.77552398928E-03 +5.52381396863E-04 -1.78020954824E-03 +4.43319328747E-04 +4.83589756088E-01 -3.12528886762E-01
2.90000000000E+09 +2.41466082829E-01 -4.00105810586E-01 -2.01236711682E-03 +1.16567367294E-03 -2.05664762440E-03 +1.11847176686E-03 +4.55180245908E-01 -3.28224163808E-01
2.90500000000E+09 +2.08295986539E-01 -4.01724907636E-01 -1.62290102940E-03 +1.64991938061E-03 -1.62990053349E-03 +1.62969872839E-03 +4.26083134168E-01 -3.44527332464E-01
2.91000000000E+09 +1.74658116359E-01 -4.01614929359E-01 -9.71832416734E-04 +1.65446440774E-03 -8.30556040536E-04 +1.66798569556E-03 +3.94558657042E-01 -3.59066773963E-01
2.91500000000E+09 +1.39951409663E-01 -3.99333702546E-01 -1.45807429344E-03 +1.12730302718E-03 -1.37891288907E-03 +1.04408455927E-03 +3.61819834207E-01 -3.70817055428E-01
2.92000000000E+09 +1.04645797576E-01 -3.94448701044E-01 -1.95283659996E-03 +2.14185544532E-03 -1.82494858074E-03 +1.96347957118E-03 +3.29243183788E-01 -3.80915595505E-01
2.92500000000E+09 +6.94889847366E-02 -3.88239274866E-01 -1.17584498430E-03 +2.64338687512E-03 -1.23178532991E-03 +2.40324923875E-03 +2.93472921469E-01 -3.89984745537E-01
2.93000000000E+09 +3.41442812325E-02 -3.79242145204E-01 -8.03889946980E-04 +2.75739960157E-03 -8.94607764929E-04 +2.68152235994E-03 +2.56170704015E-01 -3.96781970689E-01
2.93500000000E+09 -6.33566360460E-04 -3.68645161624E-01 -1.92019225893E-04 +2.85801150550E-03 -2.93430327561E-04 +2.88387065283E-03 +2.16680263681E-01 -4.01579838984E-01
2.94000000000E+09 -3.50845988954E-02 -3.55192792847E-01 -1.74764799143E-04 +2.50707175019E-03 -2.98908184980E-04 +2.56500620184E-03 +1.76819418136E-01 -4.02752234044E-01
2.94500000000E+09 -6.83385189598E-02 -3.39218953960E-01 -2.65817393642E-04 +3.28534509890E-03 -3.49588460157E-04 +3.31397396452E-03 +1.38744547583E-01 -4.02930110811E-01
2.95000000000E+09 -1.00269574278E-01 -3.20887643436E-01 +1.03149139997E-03 +3.54581964983E-03 +9.05550863577E-04 +3.61021722105E-03 +9.85985568313E-02 -4.01976211399E-01
2.95500000000E+09 -1.30693175541E-01 -3.00021819069E-01 +1.80253856847E-03 +2.99728487167E-03 +1.65697901064E-03 +3.15620172156E-03 +5.68266946286E-02 -3.95819237192E-01
2.96000000000E+09 -1.60398172716E-01 -2.76999676793E-01 +1.83285247363E-03 +2.36518771214E-03 +1.91131638055E-03 +2.57546737283E-03 +1.62689490054E-02 -3.85972263239E-01
2.96500000000E+09 -1.89029888259E-01 -2.50663919846E-01 +2.00848323760E-03 +2.14684350177E-03 +2.14090422227E-03 +2.25021286175E-03 -2.41981500131E-02 -3.73067594525E-01
2.97000000000E+09 -2.15192157084E-01 -2.20412145228E-01 +1.85632699142E-03 +2.08137218346E-03 +1.99279753795E-03 +1.98098848665E-03 -6.38772317922E-02 -3.58851604002E-01
2.97500000000E+09 -2.37489274239E-01 -1.88947056125E-01 +2.07383398690E-03 +2.52632974154E-03 +2.05364390456E-03 +2.38731453697E-03 -1.04687678846E-01 -3.42255626412E-01
2.98000000000E+09 -2.57936465158E-01 -1.57500153116E-01 +3.08620286142E-03 +2.29254656078E-03 +2.97677415781E-03 +2.37049554932E-03 -1.44033729477E-01 -3.21300761143E-01
2.98500000000E+09 -2.77786032815E-01 -1.25573699215E-01 +3.74748442946E-03 +1.45658593558E-03 +3.73621290102E-03 +1.59945491812E-03 -1.81317828441E-01 -2.96539798796E-01
2.99000000000E+09 -2.96158400361E-01 -9.19496832372E-02 +3.42138431060E-03 +3.79394012134E-04 +3.60806738472E-03 +4.18092582449E-04 -2.14785811759E-01 -2.69885574544E-01
2.99500000000E+09 -3.11673549481E-01 -5.74656874388E-02 +2.92549212193E-03 +5.29916822861E-04 +3.07459512341E-03 +4.51493706448E-04 -2.48099188397E-01 -2.41664610250E-01
3.00000000000E+09 -3.24917896835E-01 -2.26997673526E-02 +3.54410965693E-03 +8.39398876630E-04 +3.52501673099E-03 +6.26001767082E-04 -2.80021445933E-01 -2.09719728295E-01
3.00500000000E+09 -3.34769301011E-01 +1.09739347253E-02 +4.34869457626E-03 +1.38719533241E-04 +4.10472842112E-03 +2.60965214439E-05 -3.08867350293E-01 -1.75313196359E-01
3.01000000000E+09 -3.42592508506E-01 +4.33863584900E-02 +4.47060151299E-03 -1.30971945196E-03 +4.24005952482E-03 -1.14276194628E-03 -3.35601880912E-01 -1.39483455344E-01
3.01500000000E+09 -3.48579266480E-01 +7.59044979552E-02 +3.70354971679E-03 -2.28539703984E-03 +3.74889073538E-03 -1.98863545692E-03 -3.57826242494E-01 -1.01936096885E-01
3.02000000000E+09 -3.51207160095E-01 +1.08454297364E-01 +2.65277336178E-03 -2.54530140585E-03 +2.75377740770E-03 -2.49522119243E-03 -3.77406887473E-01 -6.53248029984E-02
3.02500000000E+09 -3.50338832410E-01 +1.40342108516E-01 +2.61538984188E-03 -2.03606565780E-03 +2.68769039814E-03 -2.00233912437E-03 -3.95350426631E-01 -2.63786084433E-02
3.03000000000E+09 -3.46416069142E-01 +1.71351343968E-01 +2.67009923010E-03 -2.71719971023E-03 +2.68044664463E-03 -2.65215361001E-03 -4.09517770493E-01 +1.49088174876E-02
3.03500000000E+09 -3.39519319544E-01 +2.00774992808E-01 +2.38328879883E-03 -3.51962882269E-03 +2.45597884110E-03 -3.40180562570E-03 -4.19146700533E-01 +5.57356931654E-02
3.04000000000E+09 -3.31618191296E-01 +2.29788577466E-01 +9.13970597552E-04 -3.97969626570E-03 +1.04514677089E-03 -4.00113345808E-03 -4.26903732050E-01 +9.56788337103E-02
3.04500000000E+09 -3.21856112634E-01 +2.58279271522E-01 +2.16216311245E-04 -2.95279876472E-03 +3.06835247892E-04 -3.09988328346E-03 -4.32382151625E-01 +1.35669898822E-01
3.05000000000E+09 -3.10530647770E-01 +2.87072568098E-01 +5.87201183022E-04 -2.50804431272E-03 +5.43538715799E-04 -2.69920485502E-03 -4.35708894473E-01 +1.75986342304E-01
3.05500000000E+09 -2.97010396389E-01 +3.15166388673E-01 +9.59057832908E-04 -2.99508236661E-03 +7.89914371135E-04 -3.11973751756E-03 -4.34609001480E-01 +2.16051644292E-01
3.06000000000E+09 -2.82239732567E-01 +3.40971998035E-01 +2.21344924379E-04 -4.10412841384E-03 +4.50388496751E-05 -3.88109537052E-03 -4.30856904109E-01 +2.53052939315E-01
3.06500000000E+09 -2.67680003180E-01 +3.65597362222E-01 -1.32559901935E-03 -3.58898629105E-03 -1.16492232973E-03 -3.42025484697E-03 -4.26149919378E-01 +2.89075975655E-01
3.07000000000E+09 -2.52764165234E-01 +3.89020257803E-01 -1.60970491615E-03 -2.48854521711E-03 -1.38790932604E-03 -2.51812174061E-03 -4.20415930328E-01 +3.23663002163E-01
