# Hz S RI R 50
! CMT, C1220, 16058040, 17.2.0/1
! Date: 15/08/2018 09:48:26
! Data: Format (Calibration Info)
! Freq                      S11: Re/Im (F2)                       S21: Re/Im (F2)                       S12: Re/Im (F2)                       S22: Re/Im (F2)            
2.50000000000E+09 +5.77327818361E-01 +6.67633044338E-01 -3.29518657842E-05 -1.63406976681E-03 +1.13622184002E-05 -1.71218730823E-03 +5.75213179993E-01 +7.18000697369E-01
2.50500000000E+09 +5.84266722944E-01 +6.60018609684E-01 -1.61492714101E-04 -1.70950659313E-03 -2.67695697470E-04 -1.75220436360E-03 +5.80796431249E-01 +7.12451713512E-01
2.51000000000E+09 +5.91436383923E-01 +6.51902485251E-01 -3.99687714882E-04 -1.77753461113E-03 -4.98820248222E-04 -1.73450124623E-03 +5.86157600721E-01 +7.07245036750E-01
2.51500000000E+09 +5.98663656619E-01 +6.43639834950E-01 -6.66710882049E-04 -1.74775946271E-03 -6.60636502671E-04 -1.66289642079E-03 +5.91296417198E-01 +7.01738542267E-01
2.52000000000E+09 +6.05572865295E-01 +6.34914403550E-01 -9.30944571332E-04 -1.61269252256E-03 -8.68642504987E-04 -1.57641422486E-03 +5.96659729712E-01 +6.95603840599E-01
2.52500000000E+09 +6.11513383577E-01 +6.26361652487E-01 -1.00145186314E-03 -1.45937697165E-03 -9.98940495113E-04 -1.51564247755E-03 +6.02460585315E-01 +6.88956207926E-01
2.53000000000E+09 +6.17221941985E-01 +6.18173210351E-01 -1.11538972018E-03 -1.37752962067E-03 -1.09969584370E-03 -1.42560850126E-03 +6.08816164135E-01 +6.81901488084E-01
2.53500000000E+09 +6.22263624340E-01 +6.09846576183E-01 -1.24762123125E-03 -1.31688936073E-03 -1.25848431722E-03 -1.33166522907E-03 +6.14666350289E-01 +6.75250944303E-01
2.54000000000E+09 +6.26463668102E-01 +6.02018553080E-01 -1.40559724198E-03 -1.23699880396E-03 -1.31830819241E-03 -1.26801877834E-03 +6.20463198356E-01 +6.68710467080E-01
2.54500000000E+09 +6.30910543698E-01 +5.94772167250E-01 -1.58447625797E-03 -1.18024868564E-03 -1.47532250724E-03 -1.32293902625E-03 +6.26043662118E-01 +6.62317485722E-01
2.55000000000E+09 +6.35741504549E-01 +5.87632805711E-01 -1.74093430264E-03 -9.09406902687E-04 -1.74412281619E-03 -1.16883068620E-03 +6.31200643891E-01 +6.55860636477E-01
2.55500000000E+09 +6.41359142235E-01 +5.79965761697E-01 -1.81321865145E-03 -7.23631863682E-04 -2.10574532781E-03 -9.02330985789E-04 +6.36426387294E-01 +6.49194665096E-01
2.56000000000E+09 +6.47704467422E-01 +5.72174413134E-01 -1.73120697804E-03 -4.62785333428E-04 -2.11696327799E-03 -4.47223304152E-04 +6.42056217466E-01 +6.41661513099E-01
2.56500000000E+09 +6.54569525370E-01 +5.63478233084E-01 -1.74258911911E-03 -4.92755032302E-04 -2.00372159809E-03 -1.94506874160E-04 +6.47625830675E-01 +6.34130577504E-01
2.57000000000E+09 +6.61591733036E-01 +5.54389784809E-01 -1.88044888973E-03 -4.26332396515E-04 -1.87131165766E-03 +7.63243451766E-06 +6.53077247852E-01 +6.26485263773E-01
2.57500000000E+09 +6.68867292335E-01 +5.44714424206E-01 -1.93502766405E-03 -2.60924124843E-04 -1.76869920130E-03 +3.72436634496E-05 +6.58298556784E-01 +6.19191371124E-01
2.58000000000E+09 +6.75191211446E-01 +5.34946023270E-01 -2.14353460163E-03 -6.60248112133E-05 -1.76880251164E-03 +4.26135323076E-05 +6.63059418722E-01 +6.11912966407E-01
2.58500000000E+09 +6.80914142912E-01 +5.24973490989E-01 -2.05789693173E-03 +3.53522035989E-04 -1.83340387880E-03 +2.29414779945E-04 +6.67692324909E-01 +6.04198285485E-01
2.59000000000E+09 +6.86071354411E-01 +5.15470359626E-01 -1.84799923369E-03 +3.46988462099E-04 -1.75444760298E-03 +2.11978872984E-04 +6.72770880686E-01 +5.96241639361E-01
2.59500000000E+09 +6.90935887099E-01 +5.05774578108E-01 -1.93179657094E-03 +2.36826112359E-04 -1.95754187860E-03 +1.14760999460E-04 +6.77748887834E-01 +5.87519103520E-01
2.60000000000E+09 +6.94943241567E-01 +4.96313831903E-01 -2.11006835440E-03 +3.55076107603E-04 -2.12678866638E-03 +3.56619800150E-04 +6.82598553775E-01 +5.78980394621E-01
2.60500000000E+09 +6.99106720080E-01 +4.86740665088E-01 -2.35866611921E-03 +6.58062675541E-04 -2.31810505952E-03 +6.10614894657E-04 +6.87852017766E-01 +5.70611369860E-01
2.61000000000E+09 +7.03274420424E-01 +4.76574365148E-01 -2.45287871613E-03 +1.11809351089E-03 -2.36844326572E-03 +1.07023284363E-03 +6.92670640269E-01 +5.62081357054E-01
2.61500000000E+09 +7.08024172173E-01 +4.65895390296E-01 -2.03752485951E-03 +1.66279803584E-03 -2.14472671630E-03 +1.58836410629E-03 +6.96991685424E-01 +5.53870673237E-01
2.62000000000E+09 +7.12737525987E-01 +4.54036388592E-01 -1.70794179249E-03 +1.61268851232E-03 -1.74147719170E-03 +1.69549727903E-03 +7.01722808135E-01 +5.45130773160E-01
2.62500000000E+09 +7.17507261555E-01 +4.41001361506E-01 -1.68757307520E-03 +1.43934352045E-03 -1.70848818039E-03 +1.69244547061E-03 +7.06621376062E-01 +5.35791126846E-01
2.63000000000E+09 +7.21976175416E-01 +4.27586456026E-01 -1.78401369941E-03 +1.74676517519E-03 -1.47655289373E-03 +1.86826576697E-03 +7.11315806122E-01 +5.26378376046E-01
2.63500000000E+09 +7.26081713854E-01 +4.13707342902E-01 -1.81945758688E-03 +1.88764967539E-03 -1.43684960342E-03 +1.89005547565E-03 +7.16491580587E-01 +5.17082446007E-01
2.64000000000E+09 +7.29486168543E-01 +3.99965853501E-01 -1.82932646103E-03 +2.43656603895E-03 -1.52270420155E-03 +2.11631454572E-03 +7.21379542120E-01 +5.07583202500E-01
2.64500000000E+09 +7.32490115954E-01 +3.86809849997E-01 -1.21271275711E-03 +2.97705681061E-03 -1.21249180221E-03 +2.47264657605E-03 +7.25912749006E-01 +4.98136744156E-01
2.65000000000E+09 +7.35197323726E-01 +3.74457921693E-01 -6.88236412489E-04 +2.81632124002E-03 -1.00492436012E-03 +2.58429825154E-03 +7.30170842069E-01 +4.88697732715E-01
2.65500000000E+09 +7.37934058922E-01 +3.62165122418E-01 -5.22140847088E-04 +2.60876023632E-03 -7.94858636768E-04 +2.65845574999E-03 +7.33974101235E-01 +4.78303378665E-01
2.66000000000E+09 +7.40721674427E-01 +3.50402376760E-01 -6.04538836240E-04 +2.72329184583E-03 -6.52615252824E-04 +2.94679883251E-03 +7.38023837699E-01 +4.67182322125E-01
2.66500000000E+09 +7.43736572240E-01 +3.38289040468E-01 -3.41823637997E-04 +3.01353188335E-03 -1.44253516319E-04 +3.16246784022E-03 +7.42822836683E-01 +4.55733132835E-01
2.67000000000E+09 +7.46398818051E-01 +3.25288812153E-01 +1.59054878626E-04 +3.11368433673E-03 +3.38312311337E-04 +3.04630415402E-03 +7.47456057014E-01 +4.44462435968E-01
2.67500000000E+09 +7.48546181021E-01 +3.11702592538E-01 +4.37608303570E-04 +2.96439833300E-03 +5.29785951316E-04 +2.75928938009E-03 +7.51358965020E-01 +4.33207441135E-01
2.68000000000E+09 +7.50574962918E-01 +2.97268126702E-01 +6.53535680960E-04 +2.86350146435E-03 +5.56576033440E-04 +2.69065244771E-03 +7.54974633898E-01 +4.22695900657E-01
2.68500000000E+09 +7.51673438158E-01 +2.81927243247E-01 +6.82391060097E-04 +2.81085030501E-03 +6.06733408601E-04 +2.83836029488E-03 +7.58197952607E-01 +4.11278934728E-01
2.69000000000E+09 +7.51993921497E-01 +2.66478214489E-01 +8.56882778904E-04 +3.03108306020E-03 +8.82887741578E-04 +3.07697092205E-03 +7.60835803583E-01 +3.99262794166E-01
2.69500000000E+09 +7.52235293532E-01 +2.51131818417E-01 +1.44364180392E-03 +3.10383243630E-03 +1.43464069863E-03 +3.03220931789E-03 +7.63712262652E-01 +3.86439381084E-01
2.70000000000E+09 +7.52437140812E-01 +2.35656596081E-01 +1.92082590802E-03 +2.97633063334E-03 +1.85895343407E-03 +2.84787682919E-03 +7.66812337738E-01 +3.72853343426E-01
2.70500000000E+09 +7.52436659812E-01 +2.20673048851E-01 +2.28667542983E-03 +2.43492151158E-03 +2.12463854437E-03 +2.46156821187E-03 +7.69956223041E-01 +3.59200510982E-01
2.71000000000E+09 +7.52611103785E-01 +2.05974251617E-01 +2.17581637628E-03 +2.11923069809E-03 +2.15084031319E-03 +2.27029050237E-03 +7.72563695791E-01 +3.46413372426E-01
2.71500000000E+09 +7.53336526269E-01 +1.90992474148E-01 +1.98190094357E-03 +2.11669375788E-03 +2.11850359428E-03 +2.27676929430E-03 +7.75488088161E-01 +3.34054673638E-01
2.72000000000E+09 +7.53978730555E-01 +1.75954186519E-01 +2.21498045562E-03 +2.41939951044E-03 +2.53809551971E-03 +2.39020249494E-03 +7.77823838329E-01 +3.20901858838E-01
2.72500000000E+09 +7.54530094111E-01 +1.60349466415E-01 +2.82910642662E-03 +2.30342917937E-03 +3.02788934579E-03 +2.01897575420E-03 +7.78754846248E-01 +3.06951137995E-01
2.73000000000E+09 +7.54277448812E-01 +1.44129505792E-01 +2.97257344270E-03 +2.03239449859E-03 +2.90026706624E-03 +1.60253676753E-03 +7.80112795893E-01 +2.92610144912E-01
2.73500000000E+09 +7.53167028420E-01 +1.27174286659E-01 +3.14074325049E-03 +2.04561543317E-03 +2.76909399379E-03 +1.72398996072E-03 +7.81107668550E-01 +2.77609895491E-01
2.74000000000E+09 +7.50982368232E-01 +1.10116042462E-01 +3.78011463351E-03 +1.85637003937E-03 +3.25822673823E-03 +1.88283355460E-03 +7.82901802455E-01 +2.62812437995E-01
2.74500000000E+09 +7.47396773810E-01 +9.22439877464E-02 +3.94868176824E-03 +1.34769743166E-03 +3.54891292503E-03 +1.74386570434E-03 +7.84122747867E-01 +2.47366421446E-01
2.75000000000E+09 +7.42402822577E-01 +7.44893547408E-02 +4.24014625046E-03 +1.22682112312E-03 +4.15799929904E-03 +1.73675023717E-03 +7.84474975731E-01 +2.32376344064E-01
2.75500000000E+09 +7.36588890136E-01 +5.70752220468E-02 +4.58149090929E-03 +7.98855008928E-04 +4.82536035336E-03 +1.12132009405E-03 +7.83822280333E-01 +2.17153887247E-01
2.76000000000E+09 +7.30735850591E-01 +3.99172061956E-02 +4.80721770377E-03 +4.12212852554E-04 +5.14087752199E-03 +5.29672306609E-04 +7.83287860262E-01 +2.01601776847E-01
2.76500000000E+09 +7.24866915437E-01 +2.27948392775E-02 +5.19902426593E-03 +7.27584693197E-05 +5.45308777168E-03 -3.88676256890E-05 +7.82269244110E-01 +1.84209965241E-01
2.77000000000E+09 +7.19965636733E-01 +5.09429134739E-03 +5.72943661439E-03 -7.02724331061E-04 +5.91801138199E-03 -8.40586378965E-04 +7.81383521606E-01 +1.66499555580E-01
2.77500000000E+09 +7.15153349555E-01 -1.36644858123E-02 +5.62351736676E-03 -1.91845349067E-03 +5.71007765472E-03 -2.17724259939E-03 +7.79427912982E-01 +1.48334217340E-01
2.78000000000E+09 +7.10462450278E-01 -3.31219758001E-02 +5.03840622101E-03 -2.45561740231E-03 +4.99032141837E-03 -2.76133687903E-03 +7.77286441159E-01 +1.31164395787E-01
2.78500000000E+09 +7.05812885232E-01 -5.35810380766E-02 +4.86207303284E-03 -2.67771470124E-03 +4.70124698592E-03 -2.96773630685E-03 +7.75080972572E-01 +1.13954286135E-01
2.79000000000E+09 +7.00021351134E-01 -7.52526612086E-02 +4.97331622828E-03 -3.22131960502E-03 +4.60920688474E-03 -3.31630507634E-03 +7.71921466794E-01 +9.62383774350E-02
2.79500000000E+09 +6.92363148304E-01 -9.63956385974E-02 +4.82643572136E-03 -3.88462846707E-03 +4.45879803440E-03 -3.66725642409E-03 +7.67642792865E-01 +7.75370155943E-02
2.80000000000E+09 +6.83586049972E-01 -1.16415425348E-01 +4.84512961317E-03 -4.71312312520E-03 +4.78630795191E-03 -4.39739352185E-03 +7.62155148711E-01 +5.82421571245E-02
2.80500000000E+09 +6.74237825837E-01 -1.35852371109E-01 +4.08954254185E-03 -6.04800772716E-03 +4.32110146266E-03 -5.82607452124E-03 +7.56141694565E-01 +3.93844201649E-02
2.81000000000E+09 +6.63568105387E-01 -1.54404228874E-01 +2.80759989311E-03 -6.12798210524E-03 +2.95527086914E-03 -6.21489901888E-03 +7.50692317845E-01 +2.03241278940E-02
2.81500000000E+09 +6.52118461463E-01 -1.72021089683E-01 +2.43708058099E-03 -6.21810718648E-03 +2.29366706739E-03 -6.40050279561E-03 +7.43833707615E-01 +7.67560695914E-04
2.82000000000E+09 +6.39598546276E-01 -1.89775852506E-01 +1.92719319399E-03 -6.59373991112E-03 +1.61796615205E-03 -6.64544378016E-03 +7.36187800510E-01 -1.88085369171E-02
2.82500000000E+09 +6.26063807099E-01 -2.07385707433E-01 +1.20338009928E-03 -6.97200713194E-03 +9.46667292445E-04 -6.66364313658E-03 +7.26854198772E-01 -3.87197899188E-02
2.83000000000E+09 +6.10629351263E-01 -2.25766927850E-01 +5.84455038394E-04 -7.21071870763E-03 +5.28882435853E-04 -6.79509188367E-03 +7.16522993117E-01 -5.86634474030E-02
2.83500000000E+09 +5.94279129515E-01 -2.44203394635E-01 -3.45838446106E-04 -7.26482055711E-03 -1.67062753697E-04 -6.99384589612E-03 +7.06023230873E-01 -7.86667516443E-02
2.84000000000E+09 +5.76052826494E-01 -2.63131604732E-01 -7.73839318796E-04 -6.92454457000E-03 -5.51976020548E-04 -6.83911513445E-03 +6.95650545262E-01 -9.98788861120E-02
2.84500000000E+09 +5.55973815193E-01 -2.82506815587E-01 -8.49819338952E-04 -7.44618666216E-03 -7.09359305064E-04 -7.50539549753E-03 +6.83474702636E-01 -1.21175847694E-01
2.85000000000E+09 +5.34446420894E-01 -3.01483301243E-01 -1.84266736440E-03 -8.41679720915E-03 -1.83504453266E-03 -8.41925375121E-03 +6.69383512831E-01 -1.42086404785E-01
2.85500000000E+09 +5.11948988691E-01 -3.19798533351E-01 -3.61031440757E-03 -8.70666021882E-03 -3.60363109870E-03 -8.57821685301E-03 +6.54174689590E-01 -1.61732086613E-01
2.86000000000E+09 +4.88430273413E-01 -3.38279931921E-01 -5.33781554205E-03 -8.24405834966E-03 -5.21483223552E-03 -8.17102069633E-03 +6.38430585401E-01 -1.82209353876E-01
2.86500000000E+09 +4.64104119474E-01 -3.55317132628E-01 -6.97664886189E-03 -7.08543237655E-03 -6.89914594228E-03 -7.13628799066E-03 +6.20870951685E-01 -2.03739746980E-01
2.87000000000E+09 +4.38516408546E-01 -3.71641183043E-01 -7.48826312031E-03 -5.40335381754E-03 -7.59148463768E-03 -5.45390709607E-03 +6.00594798128E-01 -2.25253734820E-01
2.87500000000E+09 +4.12597869430E-01 -3.85958945631E-01 -7.21266799687E-03 -4.74405832229E-03 -7.30989055627E-03 -4.51482523793E-03 +5.79841818390E-01 -2.44614521063E-01
2.88000000000E+09 +3.86892582698E-01 -3.98859627439E-01 -7.62219228697E-03 -4.89059375141E-03 -7.56461947159E-03 -4.54668108551E-03 +5.58479281663E-01 -2.63907182155E-01
2.88500000000E+09 +3.61052660037E-01 -4.10858084864E-01 -9.28701421677E-03 -4.17646070038E-03 -8.81465820618E-03 -3.82982090000E-03 +5.35469825192E-01 -2.82361906377E-01
2.89000000000E+09 +3.34180658548E-01 -4.22861536364E-01 -9.86358551643E-03 -2.50152551227E-03 -9.23727117419E-03 -2.59820480058E-03 +5.09769128559E-01 -3.00719478297E-01
2.89500000000E+09 +3.05137227308E-01 -4.34129514810E-01 -1.00407972800E-02 -1.24979375021E-03 -9.67436565934E-03 -1.68227238059E-03 +4.81393733504E-01 -3.17945246012E-01
2.90000000000E+09 +2.73793454192E-01 -4.43758646925E-01 -1.02647707334E-02 +3.30713047100E-05 -1.03709870814E-02 -3.13536414840E-04 +4.51083184800E-01 -3.32748765874E-01
2.90500000000E+09 +2.39856736873E-01 -4.50994223509E-01 -9.88979882131E-03 +1.15785238173E-03 -1.00609667700E-02 +1.16221561223E-03 +4.22263308356E-01 -3.47406086353E-01
2.91000000000E+09 +2.05341985437E-01 -4.55044091443E-01 -1.00015114239E-02 +1.86980396973E-03 -9.97417776079E-03 +2.14420360032E-03 +3.91192328087E-01 -3.62592022656E-01
2.91500000000E+09 +1.69929803419E-01 -4.57234101422E-01 -1.03690177810E-02 +3.53425743262E-03 -9.77721350235E-03 +3.66500325554E-03 +3.57874813767E-01 -3.74831036535E-01
2.92000000000E+09 +1.34066774807E-01 -4.56685801475E-01 -9.22454688843E-03 +5.28569851786E-03 -8.68530003236E-03 +4.91794855621E-03 +3.23090288802E-01 -3.83947287780E-01
2.92500000000E+09 +9.90444780300E-02 -4.54211968957E-01 -8.08750707738E-03 +5.28735732148E-03 -7.94266573357E-03 +4.72447093756E-03 +2.87503361807E-01 -3.90247468863E-01
2.93000000000E+09 +6.43937205121E-02 -4.50680066882E-01 -8.47961496666E-03 +5.95056611048E-03 -8.58464127833E-03 +5.35701339066E-03 +2.51214482656E-01 -3.94981909925E-01
2.93500000000E+09 +2.91311578406E-02 -4.46141700919E-01 -8.12142308801E-03 +7.51970038071E-03 -8.46150802232E-03 +7.18056516629E-03 +2.14185952600E-01 -3.99985851848E-01
2.94000000000E+09 -6.27106732171E-03 -4.39568897266E-01 -7.24114994253E-03 +8.71153879285E-03 -7.45303098152E-03 +8.59808747129E-03 +1.74240686970E-01 -4.03886460584E-01
2.94500000000E+09 -4.21351735252E-02 -4.31039886730E-01 -6.09488913209E-03 +1.02897684330E-02 -6.31652999557E-03 +1.00548348719E-02 +1.33001618112E-01 -4.03313912344E-01
2.95000000000E+09 -7.84348350164E-02 -4.18150069508E-01 -3.84696616009E-03 +1.07431477094E-02 -4.22600165740E-03 +1.06284913709E-02 +9.31737730122E-02 -3.98210241915E-01
2.95500000000E+09 -1.12242369300E-01 -4.01468990918E-01 -2.56855476885E-03 +1.01521708883E-02 -3.00550535433E-03 +1.03374726992E-02 +5.50368084848E-02 -3.91430517750E-01
2.96000000000E+09 -1.44127154187E-01 -3.83421018852E-01 -2.30603682685E-03 +1.01796111604E-02 -2.53137609811E-03 +1.06908134610E-02 +1.47403843879E-02 -3.82955327896E-01
2.96500000000E+09 -1.76081233420E-01 -3.63045794541E-01 -1.54717587619E-03 +1.09972563151E-02 -1.31890875777E-03 +1.14236283018E-02 -2.65900178472E-02 -3.70837769450E-01
2.97000000000E+09 -2.06937643279E-01 -3.39269100987E-01 -1.19287198963E-04 +1.14917320449E-02 +3.46068910308E-04 +1.15280882290E-02 -6.72351995813E-02 -3.55472922811E-01
2.97500000000E+09 -2.36408340054E-01 -3.13461990020E-01 +1.00692442679E-03 +1.18816418690E-02 +1.18454568257E-03 +1.15436884312E-02 -1.06567677904E-01 -3.37755876325E-01
2.98000000000E+09 -2.65271357473E-01 -2.85249567680E-01 +3.45242916600E-03 +1.20591470547E-02 +3.09173155992E-03 +1.17760793521E-02 -1.44287186281E-01 -3.16991005595E-01
2.98500000000E+09 -2.92605647974E-01 -2.54526921856E-01 +4.96582294602E-03 +1.05951317559E-02 +4.60636028986E-03 +1.09174395471E-02 -1.80943592655E-01 -2.93567326688E-01
2.99000000000E+09 -3.17808247631E-01 -2.22665529822E-01 +5.29507214851E-03 +9.74214368571E-03 +5.39016203086E-03 +1.02943126839E-02 -2.16213132378E-01 -2.66360229922E-01
2.99500000000E+09 -3.42094726496E-01 -1.89252468656E-01 +5.96193127366E-03 +1.03169599817E-02 +6.54256388946E-03 +1.06175771947E-02 -2.49435741998E-01 -2.36355662144E-01
3.00000000000E+09 -3.62730399498E-01 -1.54961621535E-01 +8.47004444199E-03 +9.85558211191E-03 +8.99469927929E-03 +9.38466523781E-03 -2.79926232841E-01 -2.03857393236E-01
3.00500000000E+09 -3.81621811348E-01 -1.21572660021E-01 +9.45687078817E-03 +8.27984211360E-03 +9.44273444389E-03 +7.61020123803E-03 -3.08256745257E-01 -1.70708429374E-01
3.01000000000E+09 -3.98949560378E-01 -8.78663011668E-02 +1.07304166245E-02 +6.98694459110E-03 +1.01936353044E-02 +6.65965299023E-03 -3.34193397664E-01 -1.35734891862E-01
3.01500000000E+09 -4.13627384157E-01 -5.32062863181E-02 +1.12822963664E-02 +5.54688797580E-03 +1.07933764332E-02 +5.68052077873E-03 -3.57581058230E-01 -9.96408756382E-02
3.02000000000E+09 -4.25114456517E-01 -1.80560104197E-02 +1.17828149622E-02 +4.34998863478E-03 +1.17001470746E-02 +4.61447681986E-03 -3.77610756606E-01 -5.99400051244E-02
3.02500000000E+09 -4.33359838324E-01 +1.78336849357E-02 +1.25288767086E-02 +3.32599411059E-03 +1.24470916170E-02 +3.40112662331E-03 -3.92747863077E-01 -1.99552026496E-02
3.03000000000E+09 -4.37294511846E-01 +5.39224763442E-02 +1.35119958323E-02 +1.23048951276E-03 +1.33457073314E-02 +1.31116992421E-03 -4.05698310508E-01 +1.97291352532E-02
3.03500000000E+09 -4.37619554788E-01 +8.96796017688E-02 +1.31911526996E-02 -8.47921872202E-04 +1.31573722036E-02 -4.62765469498E-04 -4.16737232563E-01 +5.91828859586E-02
3.04000000000E+09 -4.35726112288E-01 +1.24366003183E-01 +1.28732301405E-02 -2.88261380209E-03 +1.32083395482E-02 -2.44562949178E-03 -4.25548135230E-01 +9.94974771479E-02
3.04500000000E+09 -4.31895393888E-01 +1.59258106189E-01 +1.18556596048E-02 -4.23777255323E-03 +1.26236339085E-02 -4.26662962927E-03 -4.31061909968E-01 +1.40284497822E-01
3.05000000000E+09 -4.25687874469E-01 +1.94312894749E-01 +1.11299203044E-02 -5.33067929718E-03 +1.16199506846E-02 -6.07631917347E-03 -4.31990555579E-01 +1.80250022350E-01
3.05500000000E+09 -4.17890286469E-01 +2.28700420946E-01 +1.05824889414E-02 -6.40274729790E-03 +1.02316451675E-02 -7.23320368378E-03 -4.31068796070E-01 +2.18104862913E-01
3.06000000000E+09 -4.08164493318E-01 +2.62928743644E-01 +1.00682196225E-02 -7.99603691954E-03 +9.21261335680E-03 -8.21115618934E-03 -4.29127647230E-01 +2.56572434985E-01
3.06500000000E+09 -3.95837607614E-01 +2.95746809792E-01 +8.75268419109E-03 -9.87107698172E-03 +8.19935360654E-03 -9.25174216893E-03 -4.23555833456E-01 +2.94293621457E-01
3.07000000000E+09 -3.82909781298E-01 +3.25526574959E-01 +6.33810828627E-03 -1.09954416405E-02 +6.77704494759E-03 -1.02581683134E-02 -4.16238430664E-01 +3.29557415000E-01
