# Hz S RI R 50
! CMT, C1220, 16058040, 17.2.0/1
! Date: 15/08/2018 09:59:01
! Data: Format (Calibration Info)
! Freq                      S11: Re/Im (F2)                       S21: Re/Im (F2)                       S12: Re/Im (F2)                       S22: Re/Im (F2)            
2.50000000000E+09 +5.97462860151E-01 +6.36080497175E-01 -5.69037763999E-05 -1.04660566379E-03 -7.05392091535E-05 -1.17609857806E-03 +5.76952199290E-01 +7.14113828413E-01
2.50500000000E+09 +6.03677250409E-01 +6.28547566925E-01 -1.49136759709E-04 -1.12250819958E-03 -1.69233722451E-04 -1.21172694402E-03 +5.82634728037E-01 +7.08538125703E-01
2.51000000000E+09 +6.10108948386E-01 +6.21022118029E-01 -2.36972587094E-04 -1.08872307037E-03 -3.21281948873E-04 -1.08577781519E-03 +5.88297358899E-01 +7.03235499042E-01
2.51500000000E+09 +6.16805251108E-01 +6.13293564540E-01 -3.42686114148E-04 -1.15682303393E-03 -3.35150574977E-04 -1.13066052837E-03 +5.93424614874E-01 +6.97855221956E-01
2.52000000000E+09 +6.22952975312E-01 +6.05369595880E-01 -5.39989957281E-04 -1.17752368507E-03 -5.35459579841E-04 -1.21125010873E-03 +5.98583564213E-01 +6.92045661997E-01
2.52500000000E+09 +6.28673113696E-01 +5.97887121879E-01 -7.61374540076E-04 -1.03537861837E-03 -7.84659441457E-04 -1.06870231862E-03 +6.04309717141E-01 +6.85491235973E-01
2.53000000000E+09 +6.33865018637E-01 +5.90569055743E-01 -8.52305108326E-04 -8.08369859074E-04 -8.68344923683E-04 -8.66094471018E-04 +6.10242722249E-01 +6.78196095475E-01
2.53500000000E+09 +6.38634244066E-01 +5.83861391729E-01 -6.89127608443E-04 -7.41819218376E-04 -7.43635482991E-04 -7.43299728967E-04 +6.16082000653E-01 +6.71273147004E-01
2.54000000000E+09 +6.43228363782E-01 +5.77114448009E-01 -7.52050687271E-04 -8.08692619118E-04 -7.55045740794E-04 -8.11384496693E-04 +6.21856845504E-01 +6.64693961275E-01
2.54500000000E+09 +6.47842650186E-01 +5.70577419114E-01 -9.07589969108E-04 -8.78353068009E-04 -8.32329460776E-04 -9.65615131285E-04 +6.27924813797E-01 +6.58280905201E-01
2.55000000000E+09 +6.52451039759E-01 +5.63762755062E-01 -1.09903105830E-03 -7.65585387738E-04 -1.08215888026E-03 -8.79079738411E-04 +6.33045749117E-01 +6.51966341941E-01
2.55500000000E+09 +6.57319146628E-01 +5.56278586509E-01 -1.18957616318E-03 -5.09347678976E-04 -1.33033335242E-03 -6.59195690347E-04 +6.38077171533E-01 +6.45649663684E-01
2.56000000000E+09 +6.62806368393E-01 +5.48900323624E-01 -1.06830712109E-03 -3.45670732420E-04 -1.32212921716E-03 -2.93258577940E-04 +6.43218567325E-01 +6.38372001031E-01
2.56500000000E+09 +6.68713150668E-01 +5.40604479937E-01 -9.77890043520E-04 -3.70522529733E-04 -1.15955171231E-03 -1.94094376679E-04 +6.48497209886E-01 +6.30868489868E-01
2.57000000000E+09 +6.74896729353E-01 +5.32097839388E-01 -1.03368838731E-03 -5.80105923120E-04 -1.14862786551E-03 -3.46610647040E-04 +6.54050515233E-01 +6.23004048511E-01
2.57500000000E+09 +6.81194802943E-01 +5.23020405837E-01 -1.42467725790E-03 -5.52006119992E-04 -1.33721213142E-03 -2.68595662804E-04 +6.59605093659E-01 +6.15164374006E-01
2.58000000000E+09 +6.86897483032E-01 +5.14126151131E-01 -1.58364186722E-03 -1.26228303491E-04 -1.31848640487E-03 -8.82875595367E-05 +6.64638505726E-01 +6.07674250527E-01
2.58500000000E+09 +6.92472812248E-01 +5.05395069788E-01 -1.45042646056E-03 +8.61215301107E-05 -1.28043221979E-03 -5.83916918392E-06 +6.69536940118E-01 +6.00114912025E-01
2.59000000000E+09 +6.97555638568E-01 +4.96818886069E-01 -1.35801656430E-03 +1.27116642148E-04 -1.32086658280E-03 +3.38158386021E-05 +6.74401783305E-01 +5.92686220111E-01
2.59500000000E+09 +7.02341296410E-01 +4.88465229407E-01 -1.38254543305E-03 +1.33716291052E-04 -1.41721201663E-03 +4.10372426353E-05 +6.79108837245E-01 +5.84554844769E-01
2.60000000000E+09 +7.06895501335E-01 +4.80155276847E-01 -1.55455246939E-03 +1.14785493258E-04 -1.50912059434E-03 +1.05081900202E-04 +6.84165708608E-01 +5.75888762937E-01
2.60500000000E+09 +7.11320749431E-01 +4.71220524919E-01 -1.79230054157E-03 +4.35247301060E-04 -1.77886829612E-03 +4.71999783416E-04 +6.89079629964E-01 +5.66873428408E-01
2.61000000000E+09 +7.15621034546E-01 +4.61631079671E-01 -1.64842115085E-03 +8.93451958482E-04 -1.68116227915E-03 +9.18428597661E-04 +6.94136252005E-01 +5.58077291349E-01
2.61500000000E+09 +7.20009464494E-01 +4.51281711799E-01 -1.32656529140E-03 +1.09834143186E-03 -1.37780014473E-03 +1.09923482244E-03 +6.98816396264E-01 +5.49609325041E-01
2.62000000000E+09 +7.24079764987E-01 +4.39921481759E-01 -1.21278611542E-03 +1.00602173133E-03 -1.24114313748E-03 +1.10699481468E-03 +7.03806930461E-01 +5.40577728786E-01
2.62500000000E+09 +7.28021294706E-01 +4.27919135645E-01 -1.13589567574E-03 +1.07970422937E-03 -1.08479422965E-03 +1.24785534107E-03 +7.08428806112E-01 +5.31468442602E-01
2.63000000000E+09 +7.32041649390E-01 +4.15461344664E-01 -1.04645153899E-03 +1.06646425671E-03 -8.88571002723E-04 +1.22061356562E-03 +7.12670862213E-01 +5.22565641951E-01
2.63500000000E+09 +7.35336045788E-01 +4.02699722235E-01 -1.19641245582E-03 +1.23304424804E-03 -9.54863515360E-04 +1.16951355899E-03 +7.17633436745E-01 +5.13387483594E-01
2.64000000000E+09 +7.38789272177E-01 +3.90393721585E-01 -1.11561052737E-03 +1.61790829863E-03 -9.35561134851E-04 +1.41926765812E-03 +7.22231603843E-01 +5.03615323763E-01
2.64500000000E+09 +7.42510738015E-01 +3.78494018333E-01 -7.12291302871E-04 +1.74969985136E-03 -7.26026516423E-04 +1.41500053309E-03 +7.27187343690E-01 +4.93828143137E-01
2.65000000000E+09 +7.45759076103E-01 +3.66784334211E-01 -5.80901774247E-04 +1.59345640017E-03 -7.43085129144E-04 +1.41601230264E-03 +7.31577084957E-01 +4.83600560123E-01
2.65500000000E+09 +7.48934163100E-01 +3.55243184772E-01 -5.43909414143E-04 +1.56175299937E-03 -7.22668199620E-04 +1.55589336278E-03 +7.35190076026E-01 +4.73397191381E-01
2.66000000000E+09 +7.51850408122E-01 +3.43405536478E-01 -5.50823402369E-04 +1.71295725505E-03 -6.06258031538E-04 +1.82927009803E-03 +7.39491565740E-01 +4.62796902056E-01
2.66500000000E+09 +7.54576219870E-01 +3.32199904550E-01 -4.01760218958E-04 +1.79381785679E-03 -3.23080512564E-04 +1.88108934131E-03 +7.44050855627E-01 +4.51448806726E-01
2.67000000000E+09 +7.57257599213E-01 +3.19982990213E-01 -3.15185316172E-04 +1.92629931270E-03 -2.35359416318E-04 +1.93864632178E-03 +7.48223933513E-01 +4.39946707149E-01
2.67500000000E+09 +7.59295252099E-01 +3.06914515985E-01 +1.34920809735E-06 +2.09691397347E-03 +2.83696345964E-05 +1.92754024260E-03 +7.52130449886E-01 +4.28375856350E-01
2.68000000000E+09 +7.60443193019E-01 +2.93468347279E-01 +2.04184952843E-04 +1.88779397123E-03 +2.04055684779E-04 +1.83489554589E-03 +7.55670959941E-01 +4.17209713704E-01
2.68500000000E+09 +7.61416409693E-01 +2.79567274853E-01 +1.39157420233E-04 +1.99996766793E-03 +8.01506610541E-05 +1.95132488191E-03 +7.58713892870E-01 +4.05930973810E-01
2.69000000000E+09 +7.61995464429E-01 +2.65657903096E-01 +4.03715761329E-04 +2.17645256544E-03 +4.17325256806E-04 +2.17972263936E-03 +7.61718778575E-01 +3.94103706186E-01
2.69500000000E+09 +7.62784723294E-01 +2.51570425190E-01 +6.76589526231E-04 +2.11462199837E-03 +6.10023555642E-04 +2.08457764674E-03 +7.64536335355E-01 +3.80960586153E-01
2.70000000000E+09 +7.63414558688E-01 +2.37525737862E-01 +8.72270727750E-04 +2.19058577282E-03 +8.03270055494E-04 +2.13115828620E-03 +7.67033953372E-01 +3.67389479730E-01
2.70500000000E+09 +7.64073764009E-01 +2.23405670473E-01 +1.21834014042E-03 +2.11287730948E-03 +1.08527630294E-03 +2.10714713483E-03 +7.69361846182E-01 +3.53878643897E-01
2.71000000000E+09 +7.65032761549E-01 +2.09813661910E-01 +1.36643749994E-03 +1.94083030591E-03 +1.27489742914E-03 +2.08083523930E-03 +7.72281999114E-01 +3.40856523099E-01
2.71500000000E+09 +7.66625608089E-01 +1.95640722987E-01 +1.43333776691E-03 +1.82322209301E-03 +1.52608739284E-03 +1.99407322429E-03 +7.75018715706E-01 +3.27868398425E-01
2.72000000000E+09 +7.67699692045E-01 +1.80858512152E-01 +1.61738038305E-03 +1.84047214541E-03 +1.84349637155E-03 +1.89867102039E-03 +7.76935689382E-01 +3.14772727156E-01
2.72500000000E+09 +7.68148191319E-01 +1.65740664117E-01 +1.96005920083E-03 +1.81825989098E-03 +2.07535068059E-03 +1.59658375798E-03 +7.77802242025E-01 +3.01347112647E-01
2.73000000000E+09 +7.67856282074E-01 +1.50576777437E-01 +2.04691664209E-03 +1.64207344163E-03 +1.95292448543E-03 +1.34829652549E-03 +7.78758845801E-01 +2.87580607545E-01
2.73500000000E+09 +7.66755258703E-01 +1.34476227534E-01 +2.21836964288E-03 +1.56955104564E-03 +1.99663538534E-03 +1.32917283376E-03 +7.79749700746E-01 +2.72681014310E-01
2.74000000000E+09 +7.64528130820E-01 +1.18466886612E-01 +2.49876203680E-03 +1.52407524034E-03 +2.09743063534E-03 +1.53127148892E-03 +7.80877481520E-01 +2.57179331910E-01
2.74500000000E+09 +7.61624894713E-01 +1.02141036800E-01 +2.76718951418E-03 +1.45389702712E-03 +2.52412439348E-03 +1.72982717464E-03 +7.81268008870E-01 +2.41648755762E-01
2.75000000000E+09 +7.58130596752E-01 +8.54216181291E-02 +3.34118340631E-03 +1.15097269960E-03 +3.30002227244E-03 +1.52233611933E-03 +7.81685233782E-01 +2.26764557989E-01
2.75500000000E+09 +7.53746521264E-01 +6.83405998210E-02 +3.43455698524E-03 +4.96582919604E-04 +3.70909901699E-03 +7.99732755754E-04 +7.81335342142E-01 +2.11811185646E-01
2.76000000000E+09 +7.48913154220E-01 +5.13629835211E-02 +3.41198243766E-03 +2.71536077285E-04 +3.62980458334E-03 +3.61226554757E-04 +7.80672550542E-01 +1.96740103196E-01
2.76500000000E+09 +7.44188526625E-01 +3.42216575495E-02 +3.74690259298E-03 +5.42381647449E-05 +3.93375772115E-03 -4.41783165536E-05 +7.79609920851E-01 +1.80269053854E-01
2.77000000000E+09 +7.39851168386E-01 +1.63690804331E-02 +3.90476727900E-03 -5.40356879760E-04 +4.12112008814E-03 -6.67113251184E-04 +7.78106576335E-01 +1.62570490947E-01
2.77500000000E+09 +7.35388738286E-01 -2.21922649140E-03 +3.79863725964E-03 -1.13649407132E-03 +3.86594325713E-03 -1.39865245955E-03 +7.75263662828E-01 +1.44775991448E-01
2.78000000000E+09 +7.30846505315E-01 -2.17968912896E-02 +3.60627333851E-03 -1.37492437545E-03 +3.59705255440E-03 -1.64257717047E-03 +7.73298364779E-01 +1.27533009111E-01
2.78500000000E+09 +7.24780951329E-01 -4.19506888008E-02 +3.61161137831E-03 -1.64506205017E-03 +3.48394803606E-03 -1.93264668520E-03 +7.70944091862E-01 +1.10145156456E-01
2.79000000000E+09 +7.18209188773E-01 -6.21467902136E-02 +3.77877723932E-03 -2.09952039178E-03 +3.51759210701E-03 -2.22907508274E-03 +7.68255371693E-01 +9.28007070103E-02
2.79500000000E+09 +7.10702102213E-01 -8.21617425661E-02 +3.70360510754E-03 -2.91269575080E-03 +3.43457870679E-03 -2.79668879631E-03 +7.63926651641E-01 +7.46693535551E-02
2.80000000000E+09 +7.01963047971E-01 -1.02010755178E-01 +3.15086653509E-03 -3.57151020463E-03 +3.12638291592E-03 -3.36261267949E-03 +7.58568904556E-01 +5.65482596953E-02
2.80500000000E+09 +6.92050227811E-01 -1.21344511449E-01 +2.49355448594E-03 -3.90762369617E-03 +2.57989147809E-03 -3.75099345124E-03 +7.52535739078E-01 +3.86485348785E-02
2.81000000000E+09 +6.81080550718E-01 -1.39473591764E-01 +2.26321515045E-03 -3.91725661962E-03 +2.33501858755E-03 -3.97122001002E-03 +7.46995396203E-01 +1.92826809430E-02
2.81500000000E+09 +6.69444739970E-01 -1.56998528109E-01 +1.87058272070E-03 -4.17748251119E-03 +1.77406497791E-03 -4.33497455606E-03 +7.39973308486E-01 -6.24051095076E-04
2.82000000000E+09 +6.57007697324E-01 -1.74798175250E-01 +1.59815556053E-03 -4.51121386748E-03 +1.39724653318E-03 -4.50398361367E-03 +7.32154968126E-01 -2.07106871618E-02
2.82500000000E+09 +6.43085387715E-01 -1.92597105168E-01 +1.06841036562E-03 -4.97151876533E-03 +8.72070268245E-04 -4.78567641856E-03 +7.23113167700E-01 -4.01002390223E-02
2.83000000000E+09 +6.27608499065E-01 -2.10923203110E-01 +4.25020776052E-04 -5.00783107724E-03 +4.48424746579E-04 -4.66601565472E-03 +7.13617149146E-01 -5.95040822043E-02
2.83500000000E+09 +6.10310829500E-01 -2.29491506431E-01 -4.88759213127E-05 -4.95879928909E-03 +1.25720870361E-04 -4.69606513101E-03 +7.03866514900E-01 -7.92227985366E-02
2.84000000000E+09 +5.90936486024E-01 -2.47757702100E-01 -3.14370555516E-04 -5.08980079337E-03 -1.47384834248E-04 -5.01513939650E-03 +6.92609515907E-01 -1.00287236583E-01
2.84500000000E+09 +5.70312656436E-01 -2.65944669997E-01 -1.11527162778E-03 -5.33237350652E-03 -9.56201806870E-04 -5.38439219815E-03 +6.79419323666E-01 -1.21126032788E-01
2.85000000000E+09 +5.48267348776E-01 -2.84180612928E-01 -1.50625624648E-03 -5.35967260456E-03 -1.42143653646E-03 -5.38552021570E-03 +6.65071502579E-01 -1.41426534209E-01
2.85500000000E+09 +5.24712475821E-01 -3.02024688870E-01 -2.38086963181E-03 -5.46578413388E-03 -2.39015074351E-03 -5.38707500340E-03 +6.50781925584E-01 -1.60829381236E-01
2.86000000000E+09 +5.00379156359E-01 -3.19269218838E-01 -3.26479816454E-03 -5.17410559952E-03 -3.13749520551E-03 -5.16684491597E-03 +6.35217543649E-01 -1.82045494462E-01
2.86500000000E+09 +4.74974991605E-01 -3.36038758212E-01 -4.06807127304E-03 -4.44465136802E-03 -3.99022835256E-03 -4.54466612213E-03 +6.17298919110E-01 -2.02236682786E-01
2.87000000000E+09 +4.48257084065E-01 -3.51355057029E-01 -4.24795464504E-03 -3.87892726957E-03 -4.27179166994E-03 -3.83666719733E-03 +5.98546849694E-01 -2.22178045077E-01
2.87500000000E+09 +4.21391588772E-01 -3.64737328305E-01 -4.37297916742E-03 -3.51428284060E-03 -4.49041899756E-03 -3.42287816868E-03 +5.78216351297E-01 -2.41404774091E-01
2.88000000000E+09 +3.94594613349E-01 -3.76848948204E-01 -4.68743667976E-03 -3.47569140414E-03 -4.66225782373E-03 -3.27783809033E-03 +5.56766478153E-01 -2.60235711085E-01
2.88500000000E+09 +3.67043000841E-01 -3.87908247783E-01 -5.57401570519E-03 -3.28953246672E-03 -5.39261585443E-03 -3.01792413268E-03 +5.34718541981E-01 -2.78680671166E-01
2.89000000000E+09 +3.38709837011E-01 -3.97720559671E-01 -6.19533443332E-03 -2.39634557196E-03 -5.78126355765E-03 -2.44516967203E-03 +5.09480077942E-01 -2.97267518194E-01
2.89500000000E+09 +3.08643236274E-01 -4.06125482642E-01 -6.55331168611E-03 -1.41871585805E-03 -6.35290144923E-03 -1.65704424876E-03 +4.82345622309E-01 -3.14381689146E-01
2.90000000000E+09 +2.76820684799E-01 -4.12758739116E-01 -6.35319861416E-03 -6.52859429613E-04 -6.36487192508E-03 -8.58896980326E-04 +4.53699279108E-01 -3.30079263396E-01
2.90500000000E+09 +2.42527420021E-01 -4.16771120796E-01 -6.35188822801E-03 -4.47153289394E-04 -6.53397600024E-03 -3.91481009972E-04 +4.25028466597E-01 -3.45033128012E-01
2.91000000000E+09 +2.07037156810E-01 -4.17590172388E-01 -6.85996488585E-03 +1.49396022963E-04 -6.81457188757E-03 +3.71517955025E-04 +3.94279132475E-01 -3.60281510000E-01
2.91500000000E+09 +1.71412867366E-01 -4.14996162565E-01 -7.04726933908E-03 +1.14588925643E-03 -6.71976784676E-03 +1.31727259157E-03 +3.61372858626E-01 -3.73030327064E-01
2.92000000000E+09 +1.35899981794E-01 -4.10568447672E-01 -6.80994901992E-03 +1.88337683196E-03 -6.42097020323E-03 +1.67336213905E-03 +3.26805526821E-01 -3.82822532523E-01
2.92500000000E+09 +1.01207684153E-01 -4.04630347131E-01 -6.72752856521E-03 +2.63602091215E-03 -6.49951105849E-03 +2.24011796950E-03 +2.91359968497E-01 -3.90342229733E-01
2.93000000000E+09 +6.57763225516E-02 -3.97709799790E-01 -6.77886658336E-03 +3.39763489488E-03 -6.76907792754E-03 +2.98516706392E-03 +2.54665375820E-01 -3.95657268352E-01
2.93500000000E+09 +2.99667999987E-02 -3.88792928023E-01 -6.32586863798E-03 +4.40492088367E-03 -6.52065968080E-03 +4.22860931501E-03 +2.16872288664E-01 -4.00804731490E-01
2.94000000000E+09 -5.74336013900E-03 -3.77002185149E-01 -5.89712223355E-03 +4.99516034770E-03 -6.03292766889E-03 +4.84407446153E-03 +1.76760588970E-01 -4.02664685786E-01
2.94500000000E+09 -4.02981443871E-02 -3.62217564468E-01 -5.84099007698E-03 +5.92089750105E-03 -5.93452063225E-03 +5.67723162650E-03 +1.37511857800E-01 -4.01994427713E-01
2.95000000000E+09 -7.31662080690E-02 -3.44628557618E-01 -4.99660787966E-03 +7.38029563068E-03 -5.28842345169E-03 +7.13408814147E-03 +9.87244823853E-02 -3.98592523378E-01
2.95500000000E+09 -1.03775979401E-01 -3.24698257125E-01 -3.39910440513E-03 +7.67523362161E-03 -3.80390336568E-03 +7.76463443271E-03 +5.99961372485E-02 -3.93573580713E-01
2.96000000000E+09 -1.33877505842E-01 -3.02908061390E-01 -2.85064548210E-03 +7.65424490570E-03 -3.09809326889E-03 +7.95722307266E-03 +1.94755599242E-02 -3.85581054066E-01
2.96500000000E+09 -1.62163827503E-01 -2.78230236382E-01 -2.15114612530E-03 +8.16826497183E-03 -2.11898984522E-03 +8.50562168068E-03 -2.16575887565E-02 -3.73900494791E-01
2.97000000000E+09 -1.89541143096E-01 -2.50645519330E-01 -1.58698498205E-03 +8.54708126118E-03 -1.35955159702E-03 +8.62602525568E-03 -6.23105790566E-02 -3.58492272326E-01
2.97500000000E+09 -2.14348704429E-01 -2.20257694362E-01 -6.11426848849E-04 +9.54382570077E-03 -5.00166030042E-04 +9.30125650881E-03 -1.01673667415E-01 -3.40926976292E-01
2.98000000000E+09 -2.37729399617E-01 -1.88613831820E-01 +1.49913132777E-03 +9.59106257432E-03 +1.17407486251E-03 +9.46244225056E-03 -1.39360089255E-01 -3.20662641001E-01
2.98500000000E+09 -2.58931591341E-01 -1.55336327941E-01 +2.27392857215E-03 +8.85948231874E-03 +1.98029518649E-03 +9.02000927660E-03 -1.76051974058E-01 -2.99383514407E-01
2.99000000000E+09 -2.78246512494E-01 -1.21882615238E-01 +3.07778802830E-03 +9.08477174725E-03 +3.15226836489E-03 +9.56575584546E-03 -2.13012154729E-01 -2.73299379832E-01
2.99500000000E+09 -2.96062668297E-01 -8.74787956481E-02 +4.76922729901E-03 +9.09978550176E-03 +5.17312536383E-03 +9.37519785272E-03 -2.46103414657E-01 -2.43088175618E-01
3.00000000000E+09 -3.11724818835E-01 -5.24917452338E-02 +6.04985255302E-03 +8.25464803308E-03 +6.47061895758E-03 +7.91804805570E-03 -2.77033600066E-01 -2.11984017264E-01
3.00500000000E+09 -3.24034034295E-01 -1.78713240264E-02 +7.45745531718E-03 +7.89599041158E-03 +7.48353615902E-03 +7.36372890106E-03 -3.07368408554E-01 -1.78491293981E-01
3.01000000000E+09 -3.33516570350E-01 +1.58389186426E-02 +8.96868053408E-03 +6.03724690314E-03 +8.44066613206E-03 +5.82310467475E-03 -3.33842106946E-01 -1.42287448252E-01
3.01500000000E+09 -3.40780153681E-01 +4.85513411957E-02 +9.15057120426E-03 +4.42471569442E-03 +8.86955554099E-03 +4.66982438456E-03 -3.58226192731E-01 -1.05057203291E-01
3.02000000000E+09 -3.45871447370E-01 +8.13303730774E-02 +9.33500237795E-03 +3.41727703216E-03 +9.23249656052E-03 +3.62543586208E-03 -3.77920092924E-01 -6.57603949203E-02
3.02500000000E+09 -3.47684088998E-01 +1.14680728700E-01 +9.47224190834E-03 +2.70578836827E-03 +9.52751916952E-03 +2.82602543689E-03 -3.93299531342E-01 -2.67439221998E-02
3.03000000000E+09 -3.45151553237E-01 +1.47971686558E-01 +1.02914685444E-02 +1.72148113212E-03 +1.03204021470E-02 +1.77083433977E-03 -4.07699547025E-01 +1.23878290581E-02
3.03500000000E+09 -3.40085526250E-01 +1.78775812768E-01 +1.10723533394E-02 -1.27054163949E-05 +1.11180579674E-02 +1.19010169463E-04 -4.19708359396E-01 +5.31423560870E-02
3.04000000000E+09 -3.33065290165E-01 +2.10236193037E-01 +1.08106362762E-02 -2.48448570979E-03 +1.10820590046E-02 -2.16996974688E-03 -4.27906518510E-01 +9.48827832306E-02
3.04500000000E+09 -3.24416167995E-01 +2.39816446655E-01 +9.42914224689E-03 -3.70556667320E-03 +9.94816292442E-03 -3.81666703237E-03 -4.32471632789E-01 +1.36533891294E-01
3.05000000000E+09 -3.14673709459E-01 +2.69828406855E-01 +8.83544426246E-03 -4.69911071839E-03 +9.08139482768E-03 -5.22776118460E-03 -4.33485382532E-01 +1.75258805815E-01
3.05500000000E+09 -3.03361299066E-01 +2.99184765010E-01 +7.91957686728E-03 -5.36647374290E-03 +7.70448032841E-03 -5.89502876209E-03 -4.34932929833E-01 +2.13393389194E-01
3.06000000000E+09 -2.90582911233E-01 +3.27736540617E-01 +7.41321780049E-03 -6.51997607421E-03 +6.84714917054E-03 -6.56099313327E-03 -4.32450302250E-01 +2.53051565857E-01
3.06500000000E+09 -2.76412292974E-01 +3.54258459165E-01 +6.26556496385E-03 -7.87968780455E-03 +6.00878961045E-03 -7.40613420856E-03 -4.26530510136E-01 +2.90806226374E-01
3.07000000000E+09 -2.62197179480E-01 +3.79383903102E-01 +4.18368545094E-03 -8.41572085223E-03 +4.70628316615E-03 -8.03966865512E-03 -4.18386861867E-01 +3.25865775075E-01
