# Hz S RI R 50
! CMT, C1220, 16058040, 17.2.0/1
! Date: 15/08/2018 09:47:19
! Data: Format (Calibration Info)
! Freq                      S11: Re/Im (F2)                       S21: Re/Im (F2)                       S12: Re/Im (F2)                       S22: Re/Im (F2)            
2.50000000000E+09 +5.78095491480E-01 +6.67060067517E-01 +1.78353237224E-04 -1.52538119161E-03 +1.63745489892E-04 -1.63551887890E-03 +5.75648981091E-01 +7.17406571629E-01
2.50500000000E+09 +5.84931388665E-01 +6.59382849187E-01 +2.71495393178E-05 -1.56630758673E-03 -3.47109452698E-05 -1.58882855490E-03 +5.81204148251E-01 +7.11879908619E-01
2.51000000000E+09 +5.92297599605E-01 +6.51392199972E-01 -1.35067942861E-04 -1.60791289815E-03 -2.34084963846E-04 -1.61797799430E-03 +5.86570335218E-01 +7.06524207739E-01
2.51500000000E+09 +5.99757922773E-01 +6.42954277707E-01 -3.56759293137E-04 -1.59752279211E-03 -3.38023349792E-04 -1.52771568640E-03 +5.91679839334E-01 +7.01001334338E-01
2.52000000000E+09 +6.06750787281E-01 +6.34217110276E-01 -5.40882157626E-04 -1.54959874562E-03 -5.15531835198E-04 -1.52839482725E-03 +5.96909313455E-01 +6.95082584738E-01
2.52500000000E+09 +6.12795561062E-01 +6.25619236957E-01 -6.33252732630E-04 -1.45021541666E-03 -6.18527957160E-04 -1.51619894909E-03 +6.02709070635E-01 +6.88401857599E-01
2.53000000000E+09 +6.18552274356E-01 +6.17243992737E-01 -7.75522320087E-04 -1.43725149126E-03 -7.62098858612E-04 -1.48241090054E-03 +6.09048258304E-01 +6.81362104071E-01
2.53500000000E+09 +6.23488243413E-01 +6.08970935944E-01 -9.05018232315E-04 -1.36867337495E-03 -8.94537827342E-04 -1.38375660733E-03 +6.14931943332E-01 +6.74587518684E-01
2.54000000000E+09 +6.27918860833E-01 +6.00998223802E-01 -1.11603001306E-03 -1.26860805185E-03 -9.93536913264E-04 -1.30457824900E-03 +6.20669270504E-01 +6.68078568935E-01
2.54500000000E+09 +6.32304043728E-01 +5.93685329838E-01 -1.19590719137E-03 -1.29404107492E-03 -1.12919862047E-03 -1.31941036920E-03 +6.26266220948E-01 +6.61710176188E-01
2.55000000000E+09 +6.37043585359E-01 +5.86472907840E-01 -1.27541554829E-03 -1.05784416262E-03 -1.29959355727E-03 -1.21103567419E-03 +6.31338417051E-01 +6.55246634031E-01
2.55500000000E+09 +6.42621174702E-01 +5.78866895649E-01 -1.44505427449E-03 -9.80586764716E-04 -1.59742656169E-03 -1.20816548805E-03 +6.36672073770E-01 +6.48685078306E-01
2.56000000000E+09 +6.48948992243E-01 +5.70994017830E-01 -1.39590088781E-03 -7.90238639701E-04 -1.74938787342E-03 -7.84211269279E-04 +6.42220460443E-01 +6.41309390096E-01
2.56500000000E+09 +6.55831982545E-01 +5.62362401170E-01 -1.45374320534E-03 -7.78405286008E-04 -1.70898587180E-03 -5.33491375554E-04 +6.47864143426E-01 +6.33612915955E-01
2.57000000000E+09 +6.62803411631E-01 +5.53275039119E-01 -1.52057523359E-03 -7.07922437244E-04 -1.61927800332E-03 -3.68463823817E-04 +6.53253887876E-01 +6.25957962807E-01
2.57500000000E+09 +6.69941475788E-01 +5.43567254863E-01 -1.66038632543E-03 -6.41965964852E-04 -1.51356370277E-03 -3.11114445284E-04 +6.58497877071E-01 +6.18589276670E-01
2.58000000000E+09 +6.76415898044E-01 +5.33942043483E-01 -1.89032123482E-03 -4.86561011204E-04 -1.57607567350E-03 -3.04543600859E-04 +6.63385272393E-01 +6.11260573952E-01
2.58500000000E+09 +6.82170315942E-01 +5.23854982111E-01 -1.85922277264E-03 -1.11155281020E-04 -1.64267975747E-03 -1.71829573641E-04 +6.68016355579E-01 +6.03528709210E-01
2.59000000000E+09 +6.87425622811E-01 +5.14352138138E-01 -1.65026004857E-03 -4.52985311963E-05 -1.55339616623E-03 -1.94248948047E-04 +6.72838357319E-01 +5.95630032001E-01
2.59500000000E+09 +6.92253863258E-01 +5.04464915073E-01 -1.71669119740E-03 -1.87223980834E-04 -1.75363469844E-03 -2.96462615309E-04 +6.77803601107E-01 +5.87063038803E-01
2.60000000000E+09 +6.96073480038E-01 +4.94925152489E-01 -1.91428856899E-03 -8.92356916839E-05 -1.97132898309E-03 -1.31580810969E-04 +6.82876553309E-01 +5.78641606785E-01
2.60500000000E+09 +7.00265111948E-01 +4.85355675604E-01 -2.15313959261E-03 +9.31474120836E-05 -2.13585584626E-03 +1.02360203481E-04 +6.87937387104E-01 +5.70167143113E-01
2.61000000000E+09 +7.04631483385E-01 +4.74993274860E-01 -2.41006952230E-03 +4.46986334103E-04 -2.35474149435E-03 +4.10689781696E-04 +6.92816563811E-01 +5.61577060894E-01
2.61500000000E+09 +7.09270735929E-01 +4.64129579675E-01 -2.16156996641E-03 +1.06605956850E-03 -2.23399742002E-03 +1.09733378494E-03 +6.97062933066E-01 +5.53273446882E-01
2.62000000000E+09 +7.14162237324E-01 +4.52185887786E-01 -1.73649357874E-03 +1.14782548886E-03 -1.81169149908E-03 +1.19013787438E-03 +7.01701798343E-01 +5.44535073631E-01
2.62500000000E+09 +7.19048424328E-01 +4.39021477673E-01 -1.73632462330E-03 +9.82528583869E-04 -1.76220241292E-03 +1.15350698139E-03 +7.06752415183E-01 +5.35405847553E-01
2.63000000000E+09 +7.23557768525E-01 +4.25142919527E-01 -1.85041463506E-03 +1.17799964302E-03 -1.64404184183E-03 +1.37149764965E-03 +7.11339546197E-01 +5.26135726925E-01
2.63500000000E+09 +7.27536024165E-01 +4.11196037191E-01 -1.85282513765E-03 +1.30261317081E-03 -1.55711893413E-03 +1.31292247118E-03 +7.16540413286E-01 +5.16761671425E-01
2.64000000000E+09 +7.30923244714E-01 +3.97256604146E-01 -2.00167265933E-03 +1.73170792221E-03 -1.67930554613E-03 +1.53875327156E-03 +7.21440996817E-01 +5.07319229553E-01
2.64500000000E+09 +7.33903428544E-01 +3.84147404471E-01 -1.57421308801E-03 +2.24999970350E-03 -1.53222104078E-03 +1.85894052446E-03 +7.25928097191E-01 +4.97977984035E-01
2.65000000000E+09 +7.36577039147E-01 +3.71676749418E-01 -1.05029121575E-03 +2.15822746132E-03 -1.24882098784E-03 +1.94443508759E-03 +7.30185797507E-01 +4.88547331727E-01
2.65500000000E+09 +7.39021402850E-01 +3.59376140410E-01 -9.41722624259E-04 +1.92825652878E-03 -1.23823324779E-03 +1.96810519609E-03 +7.34200066746E-01 +4.78038210484E-01
2.66000000000E+09 +7.41831505760E-01 +3.47461818768E-01 -1.12312791907E-03 +2.06280846118E-03 -1.25185785554E-03 +2.24369237925E-03 +7.38273756183E-01 +4.66923619783E-01
2.66500000000E+09 +7.44616692879E-01 +3.35449736638E-01 -1.03351189001E-03 +2.39856821565E-03 -9.02978516899E-04 +2.58251902703E-03 +7.43083066738E-01 +4.55581565569E-01
2.67000000000E+09 +7.47123809820E-01 +3.22435231167E-01 -6.59890135668E-04 +2.60400406643E-03 -4.85161793845E-04 +2.57039591283E-03 +7.47580766602E-01 +4.44335172015E-01
2.67500000000E+09 +7.49187035671E-01 +3.08712462798E-01 -3.65702284814E-04 +2.58537983227E-03 -2.68140314625E-04 +2.43536848273E-03 +7.51773030909E-01 +4.33190777788E-01
2.68000000000E+09 +7.50892720596E-01 +2.94098853126E-01 -2.57618241400E-04 +2.45672560229E-03 -2.48723962966E-04 +2.35299594323E-03 +7.55538265465E-01 +4.22528256931E-01
2.68500000000E+09 +7.51832860063E-01 +2.78830996409E-01 -4.07737891199E-04 +2.60959154226E-03 -4.02880155087E-04 +2.56351519219E-03 +7.58746947373E-01 +4.10988980689E-01
2.69000000000E+09 +7.52286997226E-01 +2.63353583367E-01 -1.92110663696E-04 +3.06528201501E-03 -2.05528557486E-04 +3.08536777500E-03 +7.61024761113E-01 +3.98906355746E-01
2.69500000000E+09 +7.52386585364E-01 +2.47836001470E-01 +4.44680979029E-04 +3.25704767375E-03 +5.00007646559E-04 +3.21890888304E-03 +7.64091645403E-01 +3.86152179857E-01
2.70000000000E+09 +7.52593689501E-01 +2.32043750950E-01 +9.30553858960E-04 +3.13664424752E-03 +9.12199252810E-04 +2.98495742671E-03 +7.67358242151E-01 +3.72557745302E-01
2.70500000000E+09 +7.52305999173E-01 +2.16939360710E-01 +1.29702596196E-03 +2.79120643064E-03 +1.16573418553E-03 +2.80938805739E-03 +7.70543508490E-01 +3.58787979890E-01
2.71000000000E+09 +7.52302819797E-01 +2.02100137274E-01 +1.34251795753E-03 +2.56989686419E-03 +1.24541792550E-03 +2.65257867433E-03 +7.73224324865E-01 +3.45861501624E-01
2.71500000000E+09 +7.52805479715E-01 +1.87235302000E-01 +1.15555442281E-03 +2.55863210466E-03 +1.20075045375E-03 +2.71870591983E-03 +7.75918525985E-01 +3.33421981853E-01
2.72000000000E+09 +7.53282869240E-01 +1.72353766823E-01 +1.49570239411E-03 +2.93495532757E-03 +1.68876350333E-03 +3.05312657913E-03 +7.78011230192E-01 +3.20517974752E-01
2.72500000000E+09 +7.53924490965E-01 +1.57014077109E-01 +2.03505460852E-03 +2.78050513771E-03 +2.32172902705E-03 +2.58776291925E-03 +7.79200251648E-01 +3.06637426184E-01
2.73000000000E+09 +7.53757327249E-01 +1.40969489442E-01 +2.12544558157E-03 +2.56943188053E-03 +2.09396706866E-03 +2.19782870945E-03 +7.80633663079E-01 +2.92202950198E-01
2.73500000000E+09 +7.52649580257E-01 +1.23966261939E-01 +2.30990986292E-03 +2.85332843411E-03 +1.97505444132E-03 +2.47264670153E-03 +7.81532856212E-01 +2.77220688198E-01
2.74000000000E+09 +7.50344300032E-01 +1.06602743082E-01 +3.00446868017E-03 +2.87947950182E-03 +2.51407421922E-03 +2.75105670102E-03 +7.83400839075E-01 +2.62485242728E-01
2.74500000000E+09 +7.46483404143E-01 +8.87425001557E-02 +3.46345330756E-03 +2.35058580079E-03 +3.05283295049E-03 +2.69302069459E-03 +7.84991021779E-01 +2.46993257166E-01
2.75000000000E+09 +7.41216934726E-01 +7.11949971161E-02 +3.80904594286E-03 +2.06517641684E-03 +3.67940360061E-03 +2.55454257859E-03 +7.85401482568E-01 +2.31566538257E-01
2.75500000000E+09 +7.35337244064E-01 +5.39138022209E-02 +3.92542939944E-03 +1.74146701966E-03 +4.15797002009E-03 +2.08622096107E-03 +7.84492279289E-01 +2.16349081182E-01
2.76000000000E+09 +7.29379689057E-01 +3.67758256588E-02 +4.16721939303E-03 +1.62961139610E-03 +4.42417096792E-03 +1.71809303438E-03 +7.83891486422E-01 +2.00847844160E-01
2.76500000000E+09 +7.23397898610E-01 +1.95012948824E-02 +4.66876370084E-03 +1.50186234030E-03 +4.93579706381E-03 +1.52543821789E-03 +7.82839879355E-01 +1.83609192377E-01
2.77000000000E+09 +7.18262886868E-01 +1.54038605651E-03 +5.46589146768E-03 +9.61585718325E-04 +5.72470766889E-03 +8.36732709504E-04 +7.82043104004E-01 +1.65876716254E-01
2.77500000000E+09 +7.13154223735E-01 -1.71673674506E-02 +5.78017631184E-03 -1.97428541917E-04 +5.95903182120E-03 -3.67735484599E-04 +7.80399184770E-01 +1.47436303579E-01
2.78000000000E+09 +7.08197350482E-01 -3.64677162224E-02 +5.49934229299E-03 -8.02444522808E-04 +5.62279504040E-03 -1.18267289774E-03 +7.78200120224E-01 +1.29793871584E-01
2.78500000000E+09 +7.03075889515E-01 -5.69012646869E-02 +5.44404137097E-03 -1.32535196585E-03 +5.31294168956E-03 -1.65173642198E-03 +7.75899373833E-01 +1.12323716190E-01
2.79000000000E+09 +6.96949845828E-01 -7.80803888870E-02 +5.46504250680E-03 -1.79091429217E-03 +5.22143131201E-03 -1.98362686455E-03 +7.72283651631E-01 +9.45026417588E-02
2.79500000000E+09 +6.89428771778E-01 -9.88098245545E-02 +5.55106763008E-03 -2.30206453177E-03 +5.23635966900E-03 -2.22457348619E-03 +7.67684884663E-01 +7.61197896340E-02
2.80000000000E+09 +6.80815691199E-01 -1.18729042288E-01 +5.96522656756E-03 -3.27915882163E-03 +5.77562711918E-03 -3.02112970712E-03 +7.62308041745E-01 +5.69079481917E-02
2.80500000000E+09 +6.71477886017E-01 -1.38022146267E-01 +5.38584799709E-03 -4.70868282217E-03 +5.50547222127E-03 -4.45895353803E-03 +7.56351994758E-01 +3.79734570267E-02
2.81000000000E+09 +6.60867162967E-01 -1.56437673714E-01 +4.24198847595E-03 -5.02477918376E-03 +4.45653533200E-03 -5.12017624672E-03 +7.50761575108E-01 +1.87165678397E-02
2.81500000000E+09 +6.49094051836E-01 -1.74268442588E-01 +4.05826963325E-03 -5.28564831391E-03 +4.03990580534E-03 -5.50823158687E-03 +7.43773816123E-01 -9.31710346954E-04
2.82000000000E+09 +6.36206886489E-01 -1.91603235144E-01 +3.74092562499E-03 -5.88581535986E-03 +3.43505461759E-03 -6.03831063006E-03 +7.35833134146E-01 -2.07475012459E-02
2.82500000000E+09 +6.22476143252E-01 -2.08763655182E-01 +3.07121165289E-03 -6.53088244621E-03 +2.68227205350E-03 -6.35644080732E-03 +7.26181834287E-01 -4.05662174385E-02
2.83000000000E+09 +6.07165564085E-01 -2.26641787172E-01 +2.44854142688E-03 -7.06695758731E-03 +2.28050180891E-03 -6.70824445931E-03 +7.15747406430E-01 -6.05472540787E-02
2.83500000000E+09 +5.90858669736E-01 -2.44923402287E-01 +1.21678607076E-03 -7.43925999244E-03 +1.37766885087E-03 -7.14578360359E-03 +7.04856953223E-01 -8.03381239429E-02
2.84000000000E+09 +5.72591803645E-01 -2.63897807134E-01 +5.38865472567E-04 -6.83790081566E-03 +7.65273072543E-04 -6.78446775135E-03 +6.94248332160E-01 -1.00956599247E-01
2.84500000000E+09 +5.52253856362E-01 -2.83230249862E-01 +9.22314921730E-04 -7.29497010622E-03 +9.91760843097E-04 -7.33694456414E-03 +6.82504007513E-01 -1.22151202971E-01
2.85000000000E+09 +5.30401731107E-01 -3.02087069055E-01 +5.23540006895E-05 -8.59914230534E-03 +3.60669602156E-05 -8.53616299295E-03 +6.68551303560E-01 -1.43257580144E-01
2.85500000000E+09 +5.07527996114E-01 -3.20134154557E-01 -1.65483810018E-03 -9.15620373463E-03 -1.67272222241E-03 -9.02511488053E-03 +6.53016879279E-01 -1.63171067230E-01
2.86000000000E+09 +4.83693801382E-01 -3.38083035597E-01 -3.40778597817E-03 -8.85647493890E-03 -3.31233812174E-03 -8.76202900889E-03 +6.36887781723E-01 -1.83523311894E-01
2.86500000000E+09 +4.59255942912E-01 -3.54633722448E-01 -5.12938250695E-03 -7.96569473380E-03 -5.00722237051E-03 -8.01204029619E-03 +6.19161428843E-01 -2.04764623911E-01
2.87000000000E+09 +4.33908180480E-01 -3.70193967180E-01 -5.63867213685E-03 -6.41050671097E-03 -5.66999640372E-03 -6.39563656686E-03 +5.99116236501E-01 -2.25983746726E-01
2.87500000000E+09 +4.08511316984E-01 -3.83866566322E-01 -5.19738171064E-03 -6.05723836850E-03 -5.35693849682E-03 -5.93170257037E-03 +5.78352364009E-01 -2.45575758940E-01
2.88000000000E+09 +3.83582236533E-01 -3.96657440991E-01 -5.91868659388E-03 -6.64346260575E-03 -5.95245885420E-03 -6.25218074235E-03 +5.56732519838E-01 -2.64851349559E-01
2.88500000000E+09 +3.57699833674E-01 -4.08852200927E-01 -7.79529194868E-03 -6.06251045448E-03 -7.46960132662E-03 -5.54718672107E-03 +5.33413404360E-01 -2.82790909786E-01
2.89000000000E+09 +3.30827274600E-01 -4.20264450927E-01 -8.29106724823E-03 -4.52324910522E-03 -7.61536651694E-03 -4.37856040058E-03 +5.08086049285E-01 -3.00868054617E-01
2.89500000000E+09 +3.02203284289E-01 -4.30722721567E-01 -8.63351637612E-03 -4.01518429534E-03 -8.13313840970E-03 -4.27113550312E-03 +4.79514247730E-01 -3.18289611287E-01
2.90000000000E+09 +2.71744376779E-01 -4.39672056104E-01 -9.53200829524E-03 -2.93779266385E-03 -9.49180727224E-03 -3.25665813943E-03 +4.48874508787E-01 -3.33156663933E-01
2.90500000000E+09 +2.38736249375E-01 -4.46470851811E-01 -9.60366991648E-03 -1.74312534016E-03 -9.81649164477E-03 -1.76633737598E-03 +4.19468434595E-01 -3.47305313614E-01
2.91000000000E+09 +2.05072968351E-01 -4.50783916692E-01 -1.00177574070E-02 -9.93475290361E-04 -9.99537403476E-03 -7.02439914014E-04 +3.88450789489E-01 -3.61524817186E-01
2.91500000000E+09 +1.70139390299E-01 -4.53245805586E-01 -1.06561776964E-02 +3.69439045861E-04 -1.02322708051E-02 +6.08206482047E-04 +3.55729709968E-01 -3.73249541442E-01
2.92000000000E+09 +1.34622222516E-01 -4.52865797405E-01 -1.01804515586E-02 +2.19507406817E-03 -9.55097367192E-03 +1.98259868974E-03 +3.21436513197E-01 -3.82280969817E-01
2.92500000000E+09 +9.98407130984E-02 -4.50394480317E-01 -9.63109867675E-03 +2.55565248095E-03 -9.26946302060E-03 +2.00090291612E-03 +2.85857862950E-01 -3.88407700215E-01
2.93000000000E+09 +6.54354795346E-02 -4.46865048550E-01 -1.00740834318E-02 +3.53372941352E-03 -1.00612830734E-02 +2.99151987983E-03 +2.49828169428E-01 -3.93235856508E-01
2.93500000000E+09 +3.07197230706E-02 -4.41991566686E-01 -9.98823575594E-03 +5.14198106972E-03 -1.01514819825E-02 +4.81507548922E-03 +2.12753130534E-01 -3.97527074518E-01
2.94000000000E+09 -3.74511428373E-03 -4.35451692045E-01 -9.32888114678E-03 +6.52664222094E-03 -9.46039462876E-03 +6.33550907556E-03 +1.73712613850E-01 -4.00910106950E-01
2.94500000000E+09 -3.90868948493E-02 -4.27450023689E-01 -8.60631949484E-03 +8.13748754710E-03 -8.74665087977E-03 +7.87290393432E-03 +1.33495647225E-01 -4.00786861476E-01
2.95000000000E+09 -7.49847012882E-02 -4.14814997943E-01 -6.96194139972E-03 +8.98997388167E-03 -7.28535467178E-03 +8.69807091956E-03 +9.36215477696E-02 -3.96316796333E-01
2.95500000000E+09 -1.08634541427E-01 -3.98527219643E-01 -5.83822844945E-03 +9.28610913401E-03 -6.36603911131E-03 +9.27178882298E-03 +5.55058961123E-02 -3.89585841398E-01
2.96000000000E+09 -1.40133084705E-01 -3.80877167799E-01 -5.32795755242E-03 +9.71081333275E-03 -5.73794937025E-03 +1.00787066071E-02 +1.55601844628E-02 -3.80957171238E-01
2.96500000000E+09 -1.71869808598E-01 -3.60683486574E-01 -4.53904909554E-03 +1.06704901793E-02 -4.49244235767E-03 +1.11887545309E-02 -2.54163127772E-02 -3.68969375563E-01
2.97000000000E+09 -2.02389804809E-01 -3.37198707447E-01 -3.29675406288E-03 +1.15595216591E-02 -2.91491897830E-03 +1.16899855725E-02 -6.58737849537E-02 -3.54245040459E-01
2.97500000000E+09 -2.31486328116E-01 -3.11761796039E-01 -1.97056168368E-03 +1.23573524371E-02 -1.74929700853E-03 +1.19972587964E-02 -1.05180222836E-01 -3.36396930517E-01
2.98000000000E+09 -2.59706869015E-01 -2.83989012057E-01 +4.30508193583E-04 +1.24343383957E-02 +1.03572457059E-04 +1.21471516158E-02 -1.42661871884E-01 -3.16194141358E-01
2.98500000000E+09 -2.86532274503E-01 -2.54535955904E-01 +1.43855217008E-03 +1.15233748894E-02 +9.72139238450E-04 +1.17802378752E-02 -1.79367341233E-01 -2.93084949308E-01
2.99000000000E+09 -3.12175352951E-01 -2.23577172493E-01 +1.92731441182E-03 +1.16480112802E-02 +1.84303593483E-03 +1.23384706296E-02 -2.14639198981E-01 -2.66210413644E-01
2.99500000000E+09 -3.36658835096E-01 -1.90858450999E-01 +3.20784976535E-03 +1.27325042268E-02 +3.72362311866E-03 +1.31722530474E-02 -2.48185908252E-01 -2.36596322363E-01
3.00000000000E+09 -3.57717800181E-01 -1.57064398926E-01 +6.06985063205E-03 +1.25575001588E-02 +6.83916630737E-03 +1.23211705414E-02 -2.79295976029E-01 -2.03744923385E-01
3.00500000000E+09 -3.76955341540E-01 -1.23972576531E-01 +7.56444408681E-03 +1.11939510861E-02 +7.87262432525E-03 +1.05218245455E-02 -3.06922743033E-01 -1.69845663442E-01
3.01000000000E+09 -3.94353334867E-01 -9.05911464810E-02 +9.26296120518E-03 +1.01343340505E-02 +8.84015437793E-03 +9.62189303581E-03 -3.32071835955E-01 -1.35580477834E-01
3.01500000000E+09 -4.09411753708E-01 -5.65125548824E-02 +1.05319906697E-02 +8.88164160824E-03 +1.00531600060E-02 +8.86913987530E-03 -3.55679637407E-01 -1.00301130778E-01
3.02000000000E+09 -4.21311485795E-01 -2.16592345488E-02 +1.15050119988E-02 +7.18552082647E-03 +1.12826454778E-02 +7.33675974454E-03 -3.76066907826E-01 -6.11121642395E-02
3.02500000000E+09 -4.30292219838E-01 +1.39125229906E-02 +1.18852230134E-02 +6.20917773811E-03 +1.17737803506E-02 +6.26081976345E-03 -3.91782659557E-01 -2.17173792529E-02
3.03000000000E+09 -4.34864417944E-01 +5.02305465668E-02 +1.32518553831E-02 +4.90541371802E-03 +1.30450547191E-02 +4.92517880688E-03 -4.05500574612E-01 +1.83710239270E-02
3.03500000000E+09 -4.35268003969E-01 +8.58438586310E-02 +1.41973011215E-02 +2.83699936663E-03 +1.39406362712E-02 +3.18753193788E-03 -4.16649545170E-01 +5.79801966127E-02
3.04000000000E+09 -4.34072000067E-01 +1.20090590898E-01 +1.44718811364E-02 +3.06893989269E-04 +1.47258239199E-02 +9.23167851981E-04 -4.25559863822E-01 +9.84497679196E-02
3.04500000000E+09 -4.31045326264E-01 +1.55254479383E-01 +1.38563810789E-02 -1.72398062099E-03 +1.47150771371E-02 -1.60674059068E-03 -4.31145208299E-01 +1.39442504989E-01
3.05000000000E+09 -4.25238777912E-01 +1.90680305509E-01 +1.31829667908E-02 -3.39740994545E-03 +1.38390183556E-02 -4.08339809125E-03 -4.31941030755E-01 +1.79284761177E-01
3.05500000000E+09 -4.17267642794E-01 +2.25269126854E-01 +1.24578468201E-02 -4.65437003712E-03 +1.22220342630E-02 -5.57455667236E-03 -4.31462847638E-01 +2.16941962892E-01
3.06000000000E+09 -4.07506219168E-01 +2.59325150602E-01 +1.21484154014E-02 -6.18093545777E-03 +1.13005518082E-02 -6.58996510149E-03 -4.30038834466E-01 +2.55371198560E-01
3.06500000000E+09 -3.95657163263E-01 +2.91955010177E-01 +1.10705248147E-02 -8.49162803150E-03 +1.03887805929E-02 -7.92134890480E-03 -4.25089960726E-01 +2.93485789629E-01
3.07000000000E+09 -3.83381688827E-01 +3.22155822621E-01 +8.83776634885E-03 -9.97893685658E-03 +9.13816411879E-03 -9.11248816167E-03 -4.18232780427E-01 +3.29582591756E-01
