# Hz S RI R 50
! CMT, C1220, 16058040, 17.2.0/1
! Date: 15/08/2018 10:48:47
! Data: Format (Calibration Info)
! Freq                      S11: Re/Im (F2)                       S21: Re/Im (F2)                       S12: Re/Im (F2)                       S22: Re/Im (F2)            
2.50000000000E+09 +5.80584774625E-01 +6.47319670935E-01 -1.10097457922E-03 +6.86508238540E-04 -1.22427108735E-03 +7.60865354093E-04 +5.63530034680E-01 +7.25528627329E-01
2.50500000000E+09 +5.87971172242E-01 +6.38072164192E-01 -9.63197419239E-04 +8.16769985816E-04 -9.89373097203E-04 +8.97722554493E-04 +5.69393788215E-01 +7.19843243596E-01
2.51000000000E+09 +5.96285914463E-01 +6.28485684324E-01 -9.57073087542E-04 +8.69581815721E-04 -9.17707775584E-04 +9.26517958221E-04 +5.75074850499E-01 +7.14460336770E-01
2.51500000000E+09 +6.04535503229E-01 +6.19819271297E-01 -8.65662544588E-04 +1.05687573973E-03 -8.51580192758E-04 +9.90942237692E-04 +5.80351277595E-01 +7.08863094738E-01
2.52000000000E+09 +6.12106573266E-01 +6.11396507815E-01 -6.86381278652E-04 +1.09938344227E-03 -7.51055567152E-04 +1.09188663617E-03 +5.85521564714E-01 +7.02558302301E-01
2.52500000000E+09 +6.18217384527E-01 +6.04380375849E-01 -5.82388463876E-04 +1.10153060296E-03 -6.43840079275E-04 +1.07689611451E-03 +5.90965871733E-01 +6.96098909026E-01
2.53000000000E+09 +6.23078028778E-01 +5.98120457405E-01 -5.43602900415E-04 +1.14598934181E-03 -5.40826805413E-04 +1.12550327927E-03 +5.96774321033E-01 +6.89276373379E-01
2.53500000000E+09 +6.26742553297E-01 +5.92562862082E-01 -5.09466236434E-04 +1.21374951246E-03 -5.25121338992E-04 +1.23466723378E-03 +6.02823813866E-01 +6.82644259766E-01
2.54000000000E+09 +6.29602849520E-01 +5.86977815607E-01 -3.46721618074E-04 +1.38017316505E-03 -3.98242226391E-04 +1.36080245865E-03 +6.08845898259E-01 +6.76314128437E-01
2.54500000000E+09 +6.32505332443E-01 +5.80993304965E-01 -1.32308062363E-04 +1.51490146713E-03 -2.32146167160E-04 +1.48461302320E-03 +6.14515651549E-01 +6.70220379814E-01
2.55000000000E+09 +6.36275745665E-01 +5.74082937482E-01 +1.56478295826E-04 +1.47652983692E-03 +4.28448843601E-05 +1.57846796385E-03 +6.19684922019E-01 +6.64104467354E-01
2.55500000000E+09 +6.41279612608E-01 +5.65691493708E-01 +3.34494903513E-04 +1.22490141908E-03 +3.10267718600E-04 +1.48405371510E-03 +6.24726899998E-01 +6.57811253553E-01
2.56000000000E+09 +6.47841724260E-01 +5.56497762266E-01 +2.54862979627E-04 +1.17470245728E-03 +4.22981947655E-04 +1.33493568519E-03 +6.29677884536E-01 +6.50702715114E-01
2.56500000000E+09 +6.55550193783E-01 +5.46280736758E-01 +2.95975604562E-04 +1.28674222733E-03 +5.57209283398E-04 +1.33048939275E-03 +6.35085965600E-01 +6.43599272458E-01
2.57000000000E+09 +6.63934524282E-01 +5.35919558757E-01 +4.65156274369E-04 +1.39467264066E-03 +7.07685477869E-04 +1.22113429733E-03 +6.40665518280E-01 +6.35977651026E-01
2.57500000000E+09 +6.71781499826E-01 +5.25834207427E-01 +7.69527871960E-04 +1.36161158654E-03 +8.10888054081E-04 +1.08920184521E-03 +6.46487465292E-01 +6.28378940422E-01
2.58000000000E+09 +6.78634498219E-01 +5.16754378464E-01 +9.83683586755E-04 +1.18091824815E-03 +8.86333588495E-04 +9.36111766969E-04 +6.51982058139E-01 +6.21023785176E-01
2.58500000000E+09 +6.83985652584E-01 +5.08391658617E-01 +1.04735361582E-03 +8.86762090636E-04 +8.77137300238E-04 +8.43151292893E-04 +6.57284990012E-01 +6.13322474566E-01
2.59000000000E+09 +6.87765736948E-01 +5.01185387944E-01 +9.85633550016E-04 +7.48207106419E-04 +8.73155733808E-04 +8.31517278532E-04 +6.62165954542E-01 +6.05587260244E-01
2.59500000000E+09 +6.90688466406E-01 +4.93835280222E-01 +1.06738961149E-03 +8.12600101342E-04 +1.04558174007E-03 +9.03621056089E-04 +6.66936235459E-01 +5.97486870032E-01
2.60000000000E+09 +6.92455641778E-01 +4.85915486267E-01 +1.33315704873E-03 +6.42082767888E-04 +1.32183485913E-03 +6.68032256411E-04 +6.72195605348E-01 +5.89205430442E-01
2.60500000000E+09 +6.94555574860E-01 +4.76495714234E-01 +1.29930644763E-03 +3.24937215186E-04 +1.30724423976E-03 +3.15656895222E-04 +6.77840125489E-01 +5.80652072707E-01
2.61000000000E+09 +6.96998927870E-01 +4.64897542393E-01 +1.14039931150E-03 +2.11601115753E-04 +1.15284437733E-03 +2.47118950617E-04 +6.83116601355E-01 +5.71399160803E-01
2.61500000000E+09 +7.00574105513E-01 +4.51218527777E-01 +1.13137407357E-03 +1.31112674035E-04 +1.12170215953E-03 +2.08099725414E-04 +6.87993342992E-01 +5.62560570191E-01
2.62000000000E+09 +7.04949696737E-01 +4.35600450462E-01 +1.15180439097E-03 +3.57607240431E-05 +1.23165788205E-03 +8.35972647582E-05 +6.92706608987E-01 +5.53725035126E-01
2.62500000000E+09 +7.10364085083E-01 +4.19003654703E-01 +1.10966898841E-03 +3.53114017841E-05 +1.14297138309E-03 -8.06703656145E-05 +6.97471073856E-01 +5.45061659208E-01
2.63000000000E+09 +7.15945814629E-01 +4.02096358829E-01 +1.13400987076E-03 +1.92598087177E-05 +1.08918955407E-03 -1.55363207631E-04 +7.02274130379E-01 +5.36029344713E-01
2.63500000000E+09 +7.21149510732E-01 +3.86109110662E-01 +1.12448196324E-03 -2.31279569679E-04 +1.03614732468E-03 -2.81055018698E-04 +7.06920935338E-01 +5.26806015003E-01
2.64000000000E+09 +7.25560652819E-01 +3.71775570780E-01 +1.02525916446E-03 -2.21895938863E-04 +8.76675525974E-04 -2.47129227495E-04 +7.11416983737E-01 +5.17122762974E-01
2.64500000000E+09 +7.28976607110E-01 +3.59987826497E-01 +9.69335874191E-04 -3.71511261346E-04 +9.11628379292E-04 -2.64266131652E-04 +7.15942031424E-01 +5.07530862979E-01
2.65000000000E+09 +7.31090382377E-01 +3.50086747617E-01 +8.49428424997E-04 -4.16197717919E-04 +8.60371380765E-04 -2.52463675803E-04 +7.20452514174E-01 +4.97539123360E-01
2.65500000000E+09 +7.32747533834E-01 +3.40985408574E-01 +8.02195467795E-04 -4.32904339651E-04 +8.67597107067E-04 -3.81145498562E-04 +7.24615210794E-01 +4.86846631298E-01
2.66000000000E+09 +7.33911799155E-01 +3.31974160619E-01 +7.83068481607E-04 -3.37035073598E-04 +8.41284243815E-04 -3.91700835249E-04 +7.28503356355E-01 +4.75667327828E-01
2.66500000000E+09 +7.34849562484E-01 +3.22096418899E-01 +7.32320470634E-04 -3.79451661981E-04 +7.44056826436E-04 -3.97487409857E-04 +7.32720738199E-01 +4.64617498225E-01
2.67000000000E+09 +7.35925432061E-01 +3.10161689254E-01 +8.40581493648E-04 -2.99682692925E-04 +7.78240647827E-04 -3.46695066324E-04 +7.36935577326E-01 +4.53913043103E-01
2.67500000000E+09 +7.37173800816E-01 +2.96060986260E-01 +9.08678532682E-04 -4.04686958168E-04 +8.22798640369E-04 -3.83396369191E-04 +7.41087554723E-01 +4.42981164842E-01
2.68000000000E+09 +7.38361299788E-01 +2.80221804474E-01 +9.86239591797E-04 -5.80774731099E-04 +8.94157328737E-04 -5.25372962757E-04 +7.45053686331E-01 +4.31963919990E-01
2.68500000000E+09 +7.39710603449E-01 +2.63119662623E-01 +6.92638963371E-04 -7.07858242971E-04 +6.91183982079E-04 -6.20807840756E-04 +7.48194224724E-01 +4.20475590994E-01
2.69000000000E+09 +7.40742791162E-01 +2.45891055648E-01 +6.90314447053E-04 -4.92667609675E-04 +7.10740494516E-04 -4.52192542370E-04 +7.50953862555E-01 +4.08686142449E-01
2.69500000000E+09 +7.41710774472E-01 +2.29486466944E-01 +9.30827753382E-04 -5.04053819951E-04 +9.58832340384E-04 -5.24089200667E-04 +7.53836275640E-01 +3.96039743687E-01
2.70000000000E+09 +7.42694780373E-01 +2.14225063699E-01 +9.96964198995E-04 -7.20883494086E-04 +9.43948211434E-04 -7.65423188389E-04 +7.56946375650E-01 +3.83308557609E-01
2.70500000000E+09 +7.43250317469E-01 +2.00367758879E-01 +8.96477342129E-04 -9.75506722276E-04 +9.38828936863E-04 -9.60474893496E-04 +7.60178540997E-01 +3.69775346751E-01
2.71000000000E+09 +7.43515956727E-01 +1.87471294256E-01 +6.60506355303E-04 -1.08352661408E-03 +7.57790986994E-04 -1.10227839470E-03 +7.62905014626E-01 +3.56476977555E-01
2.71500000000E+09 +7.43553337547E-01 +1.74896872233E-01 +6.30920846281E-04 -9.76233082215E-04 +6.71380231125E-04 -1.00383276498E-03 +7.64919610438E-01 +3.44147272493E-01
2.72000000000E+09 +7.43202206514E-01 +1.62244702172E-01 +6.83246750444E-04 -1.13172584568E-03 +6.55042474569E-04 -1.23074482037E-03 +7.67193218765E-01 +3.31640875608E-01
2.72500000000E+09 +7.42988449311E-01 +1.48342601196E-01 +4.76363111686E-04 -1.24986703124E-03 +3.58422790581E-04 -1.29934833855E-03 +7.68273836527E-01 +3.18313174395E-01
2.73000000000E+09 +7.42075083622E-01 +1.32447480044E-01 +4.42719992935E-04 -1.17998765335E-03 +2.88963516644E-04 -1.15160795023E-03 +7.69581635770E-01 +3.04240061445E-01
2.73500000000E+09 +7.40345961780E-01 +1.14877543342E-01 +4.44410208232E-04 -1.26482766101E-03 +4.04101332037E-04 -1.13919808819E-03 +7.70306992693E-01 +2.89427804147E-01
2.74000000000E+09 +7.37624511885E-01 +9.64620021214E-02 +2.77564446682E-04 -1.42109183978E-03 +3.92112530060E-04 -1.24364682188E-03 +7.71639484417E-01 +2.74984182355E-01
2.74500000000E+09 +7.33960348679E-01 +7.73502479249E-02 +2.23578779660E-04 -1.33287312548E-03 +3.56870879238E-04 -1.21899624817E-03 +7.73176801811E-01 +2.60272959667E-01
2.75000000000E+09 +7.29291446388E-01 +5.88035158650E-02 +4.15772705928E-04 -1.40647452559E-03 +5.29849257155E-04 -1.42069619969E-03 +7.74300797696E-01 +2.45346161528E-01
2.75500000000E+09 +7.24528635344E-01 +4.11997251129E-02 +1.59904554486E-04 -1.76406064002E-03 +3.30627441285E-04 -1.86640249844E-03 +7.74619158749E-01 +2.30613408312E-01
2.76000000000E+09 +7.19454846178E-01 +2.40458668591E-02 -2.34778115484E-05 -1.81881789010E-03 +1.58770539188E-05 -1.85647248249E-03 +7.74214228846E-01 +2.15282855584E-01
2.76500000000E+09 +7.13905211835E-01 +7.25639500271E-03 -3.41667613238E-04 -1.92794438066E-03 -3.84715189988E-04 -2.00027815534E-03 +7.73681378620E-01 +1.99419910221E-01
2.77000000000E+09 +7.08360592816E-01 -9.62611174810E-03 -6.18963307561E-04 -1.72723546642E-03 -6.28380711084E-04 -1.74700965066E-03 +7.73259570533E-01 +1.82299909721E-01
2.77500000000E+09 +7.02703961246E-01 -2.76641979338E-02 -4.73526948915E-04 -1.40890056909E-03 -4.71432891865E-04 -1.44268270288E-03 +7.72096043644E-01 +1.64343162161E-01
2.78000000000E+09 +6.96553078871E-01 -4.67679384652E-02 -3.13922049602E-04 -1.72721527158E-03 -3.90743214555E-04 -1.75857596376E-03 +7.70809320369E-01 +1.46666158458E-01
2.78500000000E+09 +6.89952972699E-01 -6.75702789178E-02 -5.58572600120E-04 -2.01949835605E-03 -6.48549015885E-04 -1.92305482786E-03 +7.69033131307E-01 +1.28661375739E-01
2.79000000000E+09 +6.82411267062E-01 -8.96216196263E-02 -7.94400244948E-04 -1.99290672927E-03 -8.25147045370E-04 -1.88424902289E-03 +7.66223446726E-01 +1.11175616693E-01
2.79500000000E+09 +6.74420694711E-01 -1.11742242219E-01 -9.59769423254E-04 -2.22795835243E-03 -9.19700199026E-04 -2.09182603040E-03 +7.62917483380E-01 +9.31423866883E-02
2.80000000000E+09 +6.65290288774E-01 -1.33740043388E-01 -1.38252514884E-03 -2.22104092970E-03 -1.20869931982E-03 -2.18962280850E-03 +7.58281491763E-01 +7.43382729706E-02
2.80500000000E+09 +6.55475510495E-01 -1.54225861233E-01 -1.45620855230E-03 -2.29700498283E-03 -1.39353241074E-03 -2.31315407223E-03 +7.52891245948E-01 +5.47421227644E-02
2.81000000000E+09 +6.44678640281E-01 -1.72716940437E-01 -1.97200802016E-03 -2.46768204987E-03 -2.03006546510E-03 -2.57515566141E-03 +7.46619118647E-01 +3.52777400206E-02
2.81500000000E+09 +6.32846660227E-01 -1.88805463562E-01 -2.49649786990E-03 -2.30762630320E-03 -2.57951915106E-03 -2.30871505447E-03 +7.40487205150E-01 +1.52352819496E-02
2.82000000000E+09 +6.20731832752E-01 -2.03829905094E-01 -3.02927787205E-03 -2.19584833088E-03 -3.07348234740E-03 -2.07008888495E-03 +7.33403805829E-01 -5.65641760248E-03
2.82500000000E+09 +6.06722463935E-01 -2.18349489319E-01 -3.56642150472E-03 -1.76638847736E-03 -3.45668033082E-03 -1.65194810078E-03 +7.24889770649E-01 -2.64507552726E-02
2.83000000000E+09 +5.91502676638E-01 -2.32945483021E-01 -3.91795601873E-03 -1.43885867058E-03 -3.67594528415E-03 -1.38229342926E-03 +7.14743169701E-01 -4.64104141050E-02
2.83500000000E+09 +5.74624309700E-01 -2.49827380005E-01 -4.27187211720E-03 -8.22547538298E-04 -4.12459966012E-03 -9.13091983943E-04 +7.04649635966E-01 -6.64984896594E-02
2.84000000000E+09 +5.54508707698E-01 -2.68457574831E-01 -4.32510324799E-03 -2.95537191030E-04 -4.26468700291E-03 -4.14945580370E-04 +6.93391020795E-01 -8.67700724414E-02
2.84500000000E+09 +5.31979236060E-01 -2.88553434841E-01 -4.44666841262E-03 +6.41654963813E-05 -4.48888976818E-03 -2.72972317214E-05 +6.81021743417E-01 -1.07578001833E-01
2.85000000000E+09 +5.07296202111E-01 -3.08974053866E-01 -4.61910951318E-03 +3.76570557112E-04 -4.63150614389E-03 +4.15245259928E-04 +6.67678723566E-01 -1.28277263433E-01
2.85500000000E+09 +4.82089357453E-01 -3.28956938066E-01 -5.22184840650E-03 +9.43324222889E-04 -5.07874111669E-03 +9.44468794178E-04 +6.52569508191E-01 -1.49450915468E-01
2.86000000000E+09 +4.56787721085E-01 -3.47550556127E-01 -5.20918765790E-03 +1.93982644979E-03 -5.12049137654E-03 +1.86506059589E-03 +6.36431710414E-01 -1.69254167562E-01
2.86500000000E+09 +4.32646137102E-01 -3.64001217124E-01 -5.10214662081E-03 +2.55166656007E-03 -5.12314682340E-03 +2.46509628924E-03 +6.19979144273E-01 -1.90050602499E-01
2.87000000000E+09 +4.09587253117E-01 -3.79126427021E-01 -5.06619463558E-03 +3.44100273141E-03 -5.10623916663E-03 +3.48333694672E-03 +6.01171637977E-01 -2.10819015735E-01
2.87500000000E+09 +3.86818858757E-01 -3.92015892168E-01 -4.69817069574E-03 +4.33252325163E-03 -4.56019219140E-03 +4.46832168688E-03 +5.80296599578E-01 -2.30611715592E-01
2.88000000000E+09 +3.64008337962E-01 -4.03446821498E-01 -4.23481886285E-03 +4.76653121089E-03 -3.91934898872E-03 +4.75490058695E-03 +5.59342087894E-01 -2.49136613274E-01
2.88500000000E+09 +3.38845538126E-01 -4.13658677064E-01 -4.11802607172E-03 +5.70906808250E-03 -3.87632482244E-03 +5.40687281709E-03 +5.36893265542E-01 -2.67798784166E-01
2.89000000000E+09 +3.11700276205E-01 -4.21841606422E-01 -3.23560185490E-03 +6.77359648361E-03 -3.19228972528E-03 +6.27597753731E-03 +5.12450842978E-01 -2.86771554797E-01
2.89500000000E+09 +2.81969310391E-01 -4.28851644447E-01 -2.31523091638E-03 +7.21154546105E-03 -2.66424609568E-03 +6.86808400135E-03 +4.84984612316E-01 -3.05405861100E-01
2.90000000000E+09 +2.50411620534E-01 -4.34995862548E-01 -1.65171393245E-03 +7.75742765085E-03 -1.97154295848E-03 +7.67684076523E-03 +4.56650036435E-01 -3.21499504957E-01
2.90500000000E+09 +2.15961663758E-01 -4.40601240464E-01 -5.16739647956E-04 +8.52699704457E-03 -5.38697831606E-04 +8.64919297610E-03 +4.27153065821E-01 -3.37240422712E-01
2.91000000000E+09 +1.80461187943E-01 -4.44192136375E-01 +7.73715136677E-04 +8.55318918625E-03 +9.92967836503E-04 +8.47597189694E-03 +3.97003216657E-01 -3.51335268259E-01
2.91500000000E+09 +1.45204959490E-01 -4.46901761928E-01 +1.87971394740E-03 +9.12911792689E-03 +2.00904926011E-03 +8.68695460660E-03 +3.65153380284E-01 -3.63908222259E-01
2.92000000000E+09 +1.09403858250E-01 -4.47657363916E-01 +3.83683751349E-03 +8.90911081076E-03 +3.53138150228E-03 +8.45178198306E-03 +3.31900861432E-01 -3.75373397552E-01
2.92500000000E+09 +7.50092131024E-02 -4.46308907132E-01 +5.12673208494E-03 +8.28468732953E-03 +4.48726428481E-03 +8.06637785072E-03 +2.95878650170E-01 -3.83458551789E-01
2.93000000000E+09 +4.12737588609E-02 -4.42505419247E-01 +6.45716235009E-03 +7.44378187582E-03 +5.87428099212E-03 +7.57544645851E-03 +2.59433049453E-01 -3.90599797858E-01
2.93500000000E+09 +8.47687494069E-03 -4.36074325046E-01 +7.39515849855E-03 +6.74279465277E-03 +7.16490548698E-03 +7.09034041243E-03 +2.20664371347E-01 -3.95652541192E-01
2.94000000000E+09 -2.39875962535E-02 -4.26689000818E-01 +8.26049250818E-03 +5.80611899701E-03 +8.14565373858E-03 +5.97378005488E-03 +1.81300800938E-01 -3.99032408413E-01
2.94500000000E+09 -5.64518229059E-02 -4.14666862279E-01 +9.84930102082E-03 +5.03399808795E-03 +9.65199222619E-03 +5.25571947043E-03 +1.40397952859E-01 -3.98853934224E-01
2.95000000000E+09 -8.95253226480E-02 -4.00359893758E-01 +1.07491824596E-02 +2.93377817106E-03 +1.06270091763E-02 +3.37694628345E-03 +1.00878768292E-01 -3.96222328447E-01
2.95500000000E+09 -1.24287855188E-01 -3.82467641527E-01 +1.08400282570E-02 +1.15714369562E-03 +1.10310943506E-02 +1.58662412041E-03 +6.08989851294E-02 -3.90887155033E-01
2.96000000000E+09 -1.58046969296E-01 -3.60757176113E-01 +1.06712286452E-02 -5.98507847066E-04 +1.11470501930E-02 -4.55426573313E-04 +1.97477822449E-02 -3.83101035704E-01
2.96500000000E+09 -1.89856017350E-01 -3.36374667124E-01 +1.03081581912E-02 -1.62421057780E-03 +1.06299890514E-02 -1.85010028048E-03 -2.13260391352E-02 -3.70871807668E-01
2.97000000000E+09 -2.19704826725E-01 -3.11204371489E-01 +1.02687437048E-02 -2.58883938655E-03 +1.02342126410E-02 -3.00278339214E-03 -6.21589083436E-02 -3.56195930066E-01
2.97500000000E+09 -2.47415703978E-01 -2.84440210893E-01 +1.07680420591E-02 -4.08071553313E-03 +1.04571761716E-02 -4.05705713342E-03 -1.02126788786E-01 -3.38575470091E-01
2.98000000000E+09 -2.73415513796E-01 -2.57192535105E-01 +9.89402719716E-03 -6.61721684730E-03 +9.82390052482E-03 -6.15611327401E-03 -1.40298726080E-01 -3.18554003239E-01
2.98500000000E+09 -2.97337983305E-01 -2.27401341770E-01 +8.72527532261E-03 -7.84860219850E-03 +9.14980357214E-03 -7.57449601388E-03 -1.76618963315E-01 -2.95541835279E-01
2.99000000000E+09 -3.17925927425E-01 -1.96813744882E-01 +7.05051879050E-03 -8.81612413200E-03 +7.52500101595E-03 -9.14680956272E-03 -2.12724164037E-01 -2.69828826343E-01
2.99500000000E+09 -3.37657445667E-01 -1.65723068597E-01 +6.25093712057E-03 -9.54018431906E-03 +6.25751008708E-03 -1.01730338793E-02 -2.45345427814E-01 -2.40080674729E-01
3.00000000000E+09 -3.55967600541E-01 -1.32423791161E-01 +4.79367082359E-03 -1.06199210437E-02 +4.21417140663E-03 -1.08535582454E-02 -2.76666063586E-01 -2.08082206780E-01
3.00500000000E+09 -3.71234440927E-01 -9.78623238193E-02 +3.41518352480E-03 -1.14723153852E-02 +2.82389738505E-03 -1.11063241723E-02 -3.04582236184E-01 -1.75110630766E-01
3.01000000000E+09 -3.84167271403E-01 -6.41432744094E-02 +1.05105618333E-03 -1.21192470172E-02 +1.02668815144E-03 -1.16162535617E-02 -3.32167287941E-01 -1.39745375480E-01
3.01500000000E+09 -3.96165479916E-01 -3.06936318744E-02 -1.10233313759E-03 -1.14941235178E-02 -7.28289830570E-04 -1.12177587070E-02 -3.55386030830E-01 -1.03538244710E-01
3.02000000000E+09 -4.05000526636E-01 +2.85631280263E-03 -2.07090054719E-03 -1.04631475445E-02 -1.88603293510E-03 -1.04477241244E-02 -3.76199520108E-01 -6.53408689475E-02
3.02500000000E+09 -4.11151149906E-01 +3.47756392846E-02 -2.97791199148E-03 -1.08727653657E-02 -2.88157850309E-03 -1.08964650687E-02 -3.92688052905E-01 -2.68096369534E-02
3.03000000000E+09 -4.14292709346E-01 +6.66273801378E-02 -5.26813552296E-03 -1.00803907012E-02 -5.16286447734E-03 -1.00017989791E-02 -4.06823223568E-01 +1.29319667478E-02
3.03500000000E+09 -4.14323864640E-01 +9.74408493294E-02 -6.54138277294E-03 -9.36546009898E-03 -6.23269039293E-03 -9.38985393600E-03 -4.17715984495E-01 +5.23281592594E-02
3.04000000000E+09 -4.11386029404E-01 +1.29120306248E-01 -8.16455003038E-03 -7.40100667634E-03 -7.99739057972E-03 -7.87430243636E-03 -4.25935809633E-01 +9.32784983354E-02
3.04500000000E+09 -4.04653909863E-01 +1.60525505738E-01 -7.98858923467E-03 -6.00228151566E-03 -8.32525055134E-03 -6.46278548055E-03 -4.30626529502E-01 +1.32520297740E-01
3.05000000000E+09 -3.96549459187E-01 +1.92665132541E-01 -8.48288557250E-03 -5.09444719452E-03 -9.10930033306E-03 -5.13706590409E-03 -4.33463514162E-01 +1.71234122277E-01
3.05500000000E+09 -3.85053139953E-01 +2.26334479219E-01 -8.98791564822E-03 -4.22775573278E-03 -9.43212003204E-03 -3.67637061926E-03 -4.34007167611E-01 +2.08962330266E-01
3.06000000000E+09 -3.71972980904E-01 +2.58655064313E-01 -9.68304819103E-03 -2.98090246529E-03 -9.40552341074E-03 -2.35806320204E-03 -4.31988021353E-01 +2.45444535831E-01
3.06500000000E+09 -3.58494921519E-01 +2.91168341958E-01 -1.02584504147E-02 -1.20958848872E-03 -9.60946876279E-03 -1.19286188425E-03 -4.29366713252E-01 +2.81708403126E-01
3.07000000000E+09 -3.43764385633E-01 +3.21647460531E-01 -9.65968441107E-03 +5.43592835383E-04 -9.37403103864E-03 -1.18822926496E-04 -4.22604158433E-01 +3.18111288403E-01
