# Hz S RI R 50
! CMT, C1220, 16058040, 17.2.0/1
! Date: 15/08/2018 10:15:05
! Data: Format (Calibration Info)
! Freq                      S11: Re/Im (F2)                       S21: Re/Im (F2)                       S12: Re/Im (F2)                       S22: Re/Im (F2)            
2.50000000000E+09 +5.96669745077E-01 +6.32923209038E-01 -2.83123347402E-04 +1.45228300245E-04 -2.97793170769E-04 +1.94318477586E-04 +5.73144067954E-01 +7.16429206076E-01
2.50500000000E+09 +6.02978133271E-01 +6.24958571872E-01 -2.35314004197E-04 +2.21672244845E-04 -2.67041661378E-04 +2.43848026398E-04 +5.78649947774E-01 +7.10880439678E-01
2.51000000000E+09 +6.09411335984E-01 +6.16911794877E-01 -1.64553614714E-04 +2.61758241397E-04 -1.43653703646E-04 +2.73179365530E-04 +5.84177777635E-01 +7.05782242699E-01
2.51500000000E+09 +6.15564263483E-01 +6.09132080623E-01 -1.27728292603E-04 +2.67843897279E-04 -8.08999028613E-05 +2.55607263634E-04 +5.89210598190E-01 +7.00554447791E-01
2.52000000000E+09 +6.21373524707E-01 +6.01330688453E-01 +3.85792414884E-05 +2.62832141199E-04 -9.70729070280E-06 +2.46199527923E-04 +5.94265870077E-01 +6.94571138533E-01
2.52500000000E+09 +6.26485081398E-01 +5.94294869455E-01 +7.06312586787E-06 +9.82452777444E-05 -1.80148663185E-05 +1.30070787886E-04 +5.99881489294E-01 +6.88236373330E-01
2.53000000000E+09 +6.31270412387E-01 +5.87604809875E-01 -3.46991305283E-05 +1.81048732761E-04 -3.96440748053E-05 +1.68436683165E-04 +6.06173935985E-01 +6.81409149629E-01
2.53500000000E+09 +6.35710611326E-01 +5.81545747242E-01 -5.58743319107E-05 +2.02489690858E-04 -2.45628709122E-05 +1.94127484656E-04 +6.12178384358E-01 +6.74455502782E-01
2.54000000000E+09 +6.39834552670E-01 +5.75612541517E-01 -2.18973223456E-05 +2.28712106125E-04 -2.47513670810E-06 +1.94617511636E-04 +6.18201723187E-01 +6.67736422910E-01
2.54500000000E+09 +6.44177772925E-01 +5.69899683038E-01 +9.23289253630E-05 +2.36357657472E-04 +6.84497858449E-05 +2.23362071359E-04 +6.24023728133E-01 +6.61409349365E-01
2.55000000000E+09 +6.48947404428E-01 +5.63926466465E-01 +1.39867312645E-04 +1.79314424229E-04 +1.14313758335E-04 +2.09051461373E-04 +6.29331774257E-01 +6.55037389875E-01
2.55500000000E+09 +6.54333242324E-01 +5.57232742961E-01 +1.48769708193E-04 +6.05932900427E-05 +1.97035310480E-04 +6.02100796458E-05 +6.34422174616E-01 +6.48579016308E-01
2.56000000000E+09 +6.60460150284E-01 +5.49841339612E-01 +1.00509703489E-04 -2.34410559698E-05 +6.43374787322E-05 -5.81006121128E-06 +6.39614673602E-01 +6.41551438458E-01
2.56500000000E+09 +6.66708367336E-01 +5.41538316455E-01 -4.03304783119E-05 -4.09511211759E-05 -7.23998856996E-05 +2.39651974300E-05 +6.45083322081E-01 +6.33844414220E-01
2.57000000000E+09 +6.72670373740E-01 +5.32862090004E-01 -1.80543143587E-04 +6.30079595065E-05 -1.20306285055E-04 +9.78809819988E-05 +6.50597985144E-01 +6.25936323976E-01
2.57500000000E+09 +6.78705302707E-01 +5.24104977736E-01 -1.62551484649E-04 +1.80198920141E-04 -8.16235688540E-05 +1.96142823220E-04 +6.55906350947E-01 +6.18194039492E-01
2.58000000000E+09 +6.84096656765E-01 +5.15580522761E-01 -3.81904537907E-05 +2.54848580026E-04 -7.33071737701E-06 +2.04257189681E-04 +6.60849179699E-01 +6.10852729672E-01
2.58500000000E+09 +6.89254551252E-01 +5.06811846369E-01 +8.15811263284E-06 +2.36394139568E-04 +7.18381582847E-05 +1.52621758058E-04 +6.65696597175E-01 +6.03318219576E-01
2.59000000000E+09 +6.93809508190E-01 +4.98526751977E-01 +2.89111108257E-05 +1.95611915020E-04 -2.27529989430E-05 +1.68811555989E-04 +6.70241359768E-01 +5.95976953354E-01
2.59500000000E+09 +6.98160316608E-01 +4.90058895490E-01 +2.71138417224E-05 +2.88338094280E-04 +3.65513904231E-05 +2.20156313935E-04 +6.75246638280E-01 +5.88202780419E-01
2.60000000000E+09 +7.02256473424E-01 +4.81526176093E-01 +1.01373923660E-04 +2.21808189887E-04 +4.72526150438E-05 +2.16078195694E-04 +6.80206053349E-01 +5.79724235522E-01
2.60500000000E+09 +7.06388495152E-01 +4.72240917845E-01 +1.24316796635E-04 +2.90170094091E-04 +6.92606034520E-05 +2.30212955705E-04 +6.85514371784E-01 +5.71182028596E-01
2.61000000000E+09 +7.10887169420E-01 +4.62061978485E-01 +2.23509739900E-04 +2.99719829063E-04 +1.63118577720E-04 +3.11543251838E-04 +6.90891566057E-01 +5.62388119914E-01
2.61500000000E+09 +7.15288953407E-01 +4.50729024953E-01 +3.08497640487E-04 +2.55079324344E-04 +3.28007383645E-04 +2.46981597435E-04 +6.95754647821E-01 +5.53454934868E-01
2.62000000000E+09 +7.19270104315E-01 +4.38322848110E-01 +2.58933432229E-04 +1.09559310948E-04 +2.99055047622E-04 +1.14319140024E-04 +7.00615856291E-01 +5.44359552009E-01
2.62500000000E+09 +7.23152755512E-01 +4.25311678390E-01 +2.28957627490E-04 +1.00014526602E-04 +2.30636790199E-04 +1.13249404870E-04 +7.05408297657E-01 +5.35528633332E-01
2.63000000000E+09 +7.26730450268E-01 +4.12005709510E-01 +3.02186897734E-04 +1.60974927214E-04 +2.71655863300E-04 +1.01794763964E-04 +7.10307139056E-01 +5.26433869296E-01
2.63500000000E+09 +7.30041598511E-01 +3.98693438655E-01 +3.23502243514E-04 +1.45721609356E-04 +3.41690016966E-04 +1.01214709903E-04 +7.15187787033E-01 +5.16984144404E-01
2.64000000000E+09 +7.32903231215E-01 +3.86134475992E-01 +3.74053233093E-04 +1.35663837634E-05 +3.14143138099E-04 +6.81445072303E-05 +7.19884466080E-01 +5.07150861168E-01
2.64500000000E+09 +7.35818903336E-01 +3.74248394105E-01 +3.63235618398E-04 +1.51953974626E-05 +2.78241029464E-04 +1.82995755891E-05 +7.24781047962E-01 +4.97357273165E-01
2.65000000000E+09 +7.38245220193E-01 +3.63035065969E-01 +3.04122139885E-04 +2.61267141765E-05 +2.85720743502E-04 +6.56078715068E-05 +7.29125239791E-01 +4.87135393402E-01
2.65500000000E+09 +7.40922349257E-01 +3.52224947024E-01 +3.89072826290E-04 +5.06572255063E-05 +4.59415107367E-04 +6.07371282781E-05 +7.33035187531E-01 +4.76657903342E-01
2.66000000000E+09 +7.43820059779E-01 +3.41423904307E-01 +4.01204362849E-04 -1.13469760404E-04 +4.49023305118E-04 -9.94608807101E-05 +7.37058802382E-01 +4.65196993023E-01
2.66500000000E+09 +7.46428371993E-01 +3.30162884266E-01 +4.07535312688E-04 -1.39497039108E-04 +4.06303531200E-04 -1.59548707246E-04 +7.40891642638E-01 +4.53988492176E-01
2.67000000000E+09 +7.48602714511E-01 +3.18046669010E-01 +3.85445410104E-04 -2.52490571957E-04 +3.77951719202E-04 -2.37633800016E-04 +7.44978606167E-01 +4.43394038821E-01
2.67500000000E+09 +7.50151290527E-01 +3.05680227495E-01 +2.36423747113E-04 -2.17299773769E-04 +2.32225989942E-04 -2.49362649028E-04 +7.49195820540E-01 +4.32298327689E-01
2.68000000000E+09 +7.51673937174E-01 +2.92283353642E-01 +3.28183769897E-04 -1.41073379303E-04 +3.20188633449E-04 -1.55442818273E-04 +7.52977866979E-01 +4.20783106266E-01
2.68500000000E+09 +7.52405968491E-01 +2.78365910407E-01 +3.35045909942E-04 -2.52498229228E-04 +3.44872556648E-04 -2.53872715022E-04 +7.55662889135E-01 +4.09216621111E-01
2.69000000000E+09 +7.52794333241E-01 +2.64473436210E-01 +3.07358228529E-04 -2.36754876379E-04 +3.29594356236E-04 -2.96401681339E-04 +7.58111678360E-01 +3.97429778271E-01
2.69500000000E+09 +7.53042705607E-01 +2.50525899663E-01 +3.66114123886E-04 -2.92309762592E-04 +3.32148528615E-04 -2.79754877069E-04 +7.60749613295E-01 +3.84902174475E-01
2.70000000000E+09 +7.53190172620E-01 +2.36993487166E-01 +3.91455931112E-04 -4.56387204803E-04 +3.99951466277E-04 -4.10711946093E-04 +7.63756445934E-01 +3.71547464846E-01
2.70500000000E+09 +7.53843944143E-01 +2.23848292290E-01 +2.47779421867E-04 -5.53486011147E-04 +2.78150266589E-04 -5.69446825613E-04 +7.66341830126E-01 +3.57948171763E-01
2.71000000000E+09 +7.55034756929E-01 +2.10494034985E-01 +1.27564770329E-04 -6.97161548452E-04 +1.79906193891E-04 -7.40366639688E-04 +7.69119706404E-01 +3.45113846339E-01
2.71500000000E+09 +7.56768092064E-01 +1.96572951658E-01 -1.55317572595E-04 -6.88765977076E-04 -1.49345514725E-04 -7.38731041220E-04 +7.71756323700E-01 +3.32555865834E-01
2.72000000000E+09 +7.58205831894E-01 +1.81848527110E-01 -2.06817713957E-04 -4.01121716919E-04 -2.66392939772E-04 -4.05770655734E-04 +7.73723857613E-01 +3.19891995012E-01
2.72500000000E+09 +7.59184174904E-01 +1.66207084355E-01 +3.84124167692E-05 -3.83879224182E-04 -9.20061053499E-06 -3.45114064612E-04 +7.75056307177E-01 +3.06572469537E-01
2.73000000000E+09 +7.58759344056E-01 +1.50001935376E-01 -1.36479089323E-04 -6.31416083676E-04 -9.78539580922E-05 -6.02119137279E-04 +7.76445439310E-01 +2.92613772926E-01
2.73500000000E+09 +7.57489230233E-01 +1.33171323286E-01 -2.86634575480E-04 -5.61004398812E-04 -2.69244913234E-04 -4.61812215275E-04 +7.77655568409E-01 +2.77537972322E-01
2.74000000000E+09 +7.54937287138E-01 +1.16356593201E-01 -4.25756513372E-04 -3.06200610245E-04 -3.62058498675E-04 -3.53364756923E-04 +7.78860481564E-01 +2.62364817143E-01
2.74500000000E+09 +7.51318427053E-01 +9.90899293701E-02 -2.57225015082E-04 -2.62403623620E-04 -2.56876568864E-04 -2.57599659262E-04 +7.80020605127E-01 +2.47087252072E-01
2.75000000000E+09 +7.46437190278E-01 +8.20776272971E-02 -2.51038906390E-04 -3.45788712783E-04 -1.82591181652E-04 -3.61202409673E-04 +7.80884012922E-01 +2.32152499155E-01
2.75500000000E+09 +7.41222716422E-01 +6.55366974916E-02 -3.28869443304E-04 -3.66296324192E-04 -3.58685500762E-04 -4.71482684065E-04 +7.80849737200E-01 +2.16691617263E-01
2.76000000000E+09 +7.36149849812E-01 +4.91617045080E-02 -4.32726358761E-04 -3.55609940817E-04 -4.36884148137E-04 -4.20140455133E-04 +7.80131524063E-01 +2.01188863208E-01
2.76500000000E+09 +7.31330756757E-01 +3.22809158949E-02 -5.37421604450E-04 -2.02644085731E-04 -5.82917982349E-04 -2.49791001903E-04 +7.79187259939E-01 +1.84226817654E-01
2.77000000000E+09 +7.26543816037E-01 +1.46029008212E-02 -4.18362461953E-04 -9.92046106574E-05 -3.92418245613E-04 -1.16198261240E-04 +7.77724825355E-01 +1.66500390581E-01
2.77500000000E+09 +7.21713243063E-01 -3.90361336791E-03 -3.15747996657E-04 -1.20002775663E-04 -3.37502588977E-04 -1.35103206710E-04 +7.75552945982E-01 +1.48368355198E-01
2.78000000000E+09 +7.16562496336E-01 -2.32179139348E-02 -4.13202095328E-04 -2.61634640544E-04 -4.39016676646E-04 -2.40209128300E-04 +7.73516895055E-01 +1.30227223054E-01
2.78500000000E+09 +7.10587493544E-01 -4.34945084303E-02 -4.55972551783E-04 -2.43001451535E-04 -5.44873695997E-04 -2.46617666589E-04 +7.70695251475E-01 +1.12446642650E-01
2.79000000000E+09 +7.03705808798E-01 -6.39418587469E-02 -7.02429475145E-04 -1.56977629415E-04 -6.37048663968E-04 -7.54336620289E-05 +7.67253591192E-01 +9.51390291168E-02
2.79500000000E+09 +6.95478187742E-01 -8.44022360727E-02 -6.18303437794E-04 +1.68956794591E-04 -6.27933254063E-04 +1.12855392801E-04 +7.63088277680E-01 +7.75529752647E-02
2.80000000000E+09 +6.85601960363E-01 -1.04472423319E-01 -3.18611159108E-04 +2.31759161183E-04 -2.97653240660E-04 +2.71548329132E-04 +7.58176439123E-01 +5.91218768544E-02
2.80500000000E+09 +6.74835694312E-01 -1.22817401459E-01 -1.42751445314E-04 -1.27581720789E-04 -1.36764503508E-04 -1.33288218993E-04 +7.52119443039E-01 +3.97964412495E-02
2.81000000000E+09 +6.63528714222E-01 -1.40587182076E-01 -5.78443598052E-04 -3.21161021803E-04 -5.47226533818E-04 -3.15431519503E-04 +7.45233791204E-01 +2.05930502562E-02
2.81500000000E+09 +6.51374258011E-01 -1.57722566238E-01 -8.26611784485E-04 -1.00612077465E-04 -8.29091655739E-04 -1.16274010338E-04 +7.37915742367E-01 +1.34170055078E-03
2.82000000000E+09 +6.38103828211E-01 -1.74661561872E-01 -1.08366026799E-03 +1.34860569127E-04 -1.03501130423E-03 +1.20766042154E-04 +7.30633927506E-01 -1.83246070450E-02
2.82500000000E+09 +6.23819998648E-01 -1.91672063445E-01 -7.98655448158E-04 +5.40140057123E-04 -6.76609037468E-04 +5.26249431297E-04 +7.21311831347E-01 -3.82474678692E-02
2.83000000000E+09 +6.08063975047E-01 -2.09226238209E-01 -5.99326253079E-04 +4.58956728804E-04 -5.47541767041E-04 +3.84434087465E-04 +7.11467253059E-01 -5.74955302041E-02
2.83500000000E+09 +5.90942000405E-01 -2.27035976291E-01 -6.99669696092E-04 +4.29932699742E-04 -6.80739969350E-04 +3.68839619283E-04 +7.00504450326E-01 -7.73188414642E-02
2.84000000000E+09 +5.72153052567E-01 -2.45529033569E-01 -6.33507945131E-04 +6.70343986134E-04 -7.05266486366E-04 +6.11020673795E-04 +6.89127066944E-01 -9.69020357444E-02
2.84500000000E+09 +5.50933821240E-01 -2.64411862011E-01 -6.58511367592E-04 +6.59802328729E-04 -7.06403079390E-04 +6.60223364878E-04 +6.76964308704E-01 -1.17516314938E-01
2.85000000000E+09 +5.28350358502E-01 -2.82835543772E-01 -4.84097167665E-04 +1.15682728504E-03 -5.07794878452E-04 +1.11028788499E-03 +6.63077079905E-01 -1.38507381628E-01
2.85500000000E+09 +5.04048483097E-01 -3.00801121451E-01 +3.02276059732E-05 +7.70036744702E-04 -1.39137201684E-05 +8.17272638809E-04 +6.47940821063E-01 -1.58402679228E-01
2.86000000000E+09 +4.78996524282E-01 -3.17488819007E-01 -3.63746996827E-04 +6.34045967400E-04 -3.60514267669E-04 +6.70340373840E-04 +6.32216390142E-01 -1.78455971357E-01
2.86500000000E+09 +4.53649925081E-01 -3.33073138168E-01 -4.81110761621E-04 +1.08205062060E-03 -5.32964291468E-04 +1.09148217768E-03 +6.14902380746E-01 -1.98599824128E-01
2.87000000000E+09 +4.28052437113E-01 -3.47407504868E-01 +5.55360749339E-05 +1.26347292320E-03 +8.86094558930E-05 +1.29454845201E-03 +5.96408912276E-01 -2.18407558128E-01
2.87500000000E+09 +4.02079425798E-01 -3.60994881706E-01 +2.24849879723E-04 +9.56441568385E-04 +1.90569715153E-04 +1.00593719840E-03 +5.76143618857E-01 -2.38043551905E-01
2.88000000000E+09 +3.75190600262E-01 -3.73313539036E-01 +2.79338004129E-04 +1.15734703749E-03 +2.97346844133E-04 +1.17269047273E-03 +5.55105586997E-01 -2.56328021838E-01
2.88500000000E+09 +3.47567127830E-01 -3.84177713633E-01 +7.04093058178E-04 +9.72255429955E-04 +7.48843810159E-04 +9.71675664244E-04 +5.32857776932E-01 -2.75084209542E-01
2.89000000000E+09 +3.18345094438E-01 -3.93431998987E-01 +5.34931627938E-04 +6.52049015033E-04 +5.26440418638E-04 +6.08317897563E-04 +5.07858476463E-01 -2.92953543911E-01
2.89500000000E+09 +2.87842240381E-01 -4.01028802799E-01 +5.02103220897E-04 +8.32119758448E-04 +5.07761275247E-04 +8.39459286816E-04 +4.81483172160E-01 -3.10391917301E-01
2.90000000000E+09 +2.55859426913E-01 -4.06412216095E-01 +6.62348546357E-04 +9.11000066904E-04 +7.12772865671E-04 +9.43793203610E-04 +4.53001594164E-01 -3.27343235176E-01
2.90500000000E+09 +2.22237589940E-01 -4.09938549397E-01 +8.08632844672E-04 +8.80931541277E-04 +8.43131718637E-04 +9.07776536225E-04 +4.22618817727E-01 -3.42534575713E-01
2.91000000000E+09 +1.86989398303E-01 -4.10502600725E-01 +1.37494933515E-03 +8.37542961219E-04 +1.36458570606E-03 +7.72509330403E-04 +3.91683295537E-01 -3.56677304606E-01
2.91500000000E+09 +1.51826160570E-01 -4.08217631409E-01 +1.40701215506E-03 +2.96454064497E-04 +1.34262923297E-03 +1.78435877820E-04 +3.59277684923E-01 -3.68114768640E-01
2.92000000000E+09 +1.16303836545E-01 -4.03710397092E-01 +1.10148599358E-03 -7.18785932399E-05 +1.04252830529E-03 -1.08704217435E-04 +3.26250087388E-01 -3.78238808475E-01
2.92500000000E+09 +8.09252834338E-02 -3.97146898029E-01 +7.62996079544E-04 +9.72235994200E-05 +6.72737283467E-04 +7.29307973902E-05 +2.90425802873E-01 -3.86882735284E-01
2.93000000000E+09 +4.57706998215E-02 -3.88262960875E-01 +9.24026106716E-04 +4.57852681754E-04 +8.90203145806E-04 +4.49104790497E-04 +2.52646336314E-01 -3.92104161952E-01
2.93500000000E+09 +1.13268653567E-02 -3.77129814109E-01 +1.47565248685E-03 +1.30188897685E-04 +1.40012305750E-03 +1.72744989301E-04 +2.14993520450E-01 -3.95669507524E-01
2.94000000000E+09 -2.23192157353E-02 -3.64400221454E-01 +1.40639884388E-03 -1.71195564662E-04 +1.36623898264E-03 -1.14453849551E-04 +1.76571146031E-01 -3.97919723012E-01
2.94500000000E+09 -5.57899523856E-02 -3.49356014251E-01 +1.50332453793E-03 -3.72151529865E-04 +1.47393432577E-03 -3.31721087204E-04 +1.37472394301E-01 -3.98695210930E-01
2.95000000000E+09 -8.84849524484E-02 -3.31554589397E-01 +1.46960424558E-03 -8.28167352975E-04 +1.47424653287E-03 -7.90100931890E-04 +9.69297744461E-02 -3.95625476068E-01
2.95500000000E+09 -1.20149579450E-01 -3.10348487049E-01 +1.27326467066E-03 -1.11122795721E-03 +1.38257076640E-03 -1.08284385691E-03 +5.75316090094E-02 -3.88843709990E-01
2.96000000000E+09 -1.49150498889E-01 -2.86158743419E-01 +1.00145591095E-03 -1.67971793368E-03 +1.08745422206E-03 -1.70800345264E-03 +1.85970927774E-02 -3.79321838556E-01
2.96500000000E+09 -1.76299639761E-01 -2.60654443535E-01 +2.16669972668E-06 -1.58318373979E-03 -4.65693208654E-05 -1.60272009154E-03 -2.09391103392E-02 -3.68618763465E-01
2.97000000000E+09 -2.02182007856E-01 -2.32715563626E-01 -5.74440962824E-05 -8.75070845695E-04 -2.28484721310E-05 -8.82999866541E-04 -6.24040589601E-02 -3.53679337971E-01
2.97500000000E+09 -2.26361352898E-01 -2.02869206651E-01 +4.00968352750E-04 -7.02848041959E-04 +4.46002949475E-04 -6.82431709096E-04 -1.00671919436E-01 -3.35088700220E-01
2.98000000000E+09 -2.48224415436E-01 -1.71137789209E-01 +4.82363903891E-04 -1.22852602709E-03 +5.58394110669E-04 -1.20722574986E-03 -1.37950112671E-01 -3.16323343335E-01
2.98500000000E+09 -2.68165917591E-01 -1.38760232216E-01 +2.80975628041E-05 -1.43969362339E-03 +1.13749903327E-04 -1.52335436444E-03 -1.74235970747E-01 -2.94002729239E-01
2.99000000000E+09 -2.86338432417E-01 -1.05362647586E-01 -3.60669351045E-04 -1.37373262841E-03 -2.46009826563E-04 -1.46097587466E-03 -2.10039668957E-01 -2.69927065254E-01
2.99500000000E+09 -3.02022225308E-01 -7.22696913279E-02 -5.42485291630E-04 -1.19984229931E-03 -6.35003963476E-04 -1.29391164148E-03 -2.44543434709E-01 -2.39998846215E-01
3.00000000000E+09 -3.16978251182E-01 -3.90211468103E-02 -7.76083818493E-04 -7.29657480881E-04 -7.83966619000E-04 -7.12208861951E-04 -2.75103434913E-01 -2.07923096413E-01
3.00500000000E+09 -3.29164692073E-01 -5.14033663430E-03 -4.12136497886E-04 -5.72135886377E-04 -4.47249356181E-04 -5.79555066958E-04 -3.03799821118E-01 -1.74870987351E-01
3.01000000000E+09 -3.38383472215E-01 +2.81930511894E-02 -5.33169635477E-04 -9.19952796967E-04 -6.38387925964E-04 -8.90918977633E-04 -3.30844253515E-01 -1.39980427140E-01
3.01500000000E+09 -3.44860023794E-01 +6.15849939942E-02 -5.96694168203E-04 -5.29185216230E-04 -6.17898404998E-04 -5.80160098992E-04 -3.54870293187E-01 -1.03550208016E-01
3.02000000000E+09 -3.47741630415E-01 +9.37247209992E-02 -5.87754230555E-04 -5.79220615055E-04 -6.34460779705E-04 -5.80303447311E-04 -3.75471607440E-01 -6.52022649864E-02
3.02500000000E+09 -3.48038879421E-01 +1.25388426489E-01 -4.16768330087E-04 -3.96936708992E-04 -4.31063811433E-04 -4.39152989176E-04 -3.91463424707E-01 -2.58034507915E-02
3.03000000000E+09 -3.45191510250E-01 +1.56275927140E-01 -4.92994349799E-04 -1.10880738602E-03 -5.26188327293E-04 -1.12018850629E-03 -4.05308207058E-01 +1.31238206118E-02
3.03500000000E+09 -3.40212664058E-01 +1.86435230064E-01 -1.50846986877E-03 -7.01851445513E-04 -1.53751351564E-03 -6.84841706178E-04 -4.16892895042E-01 +5.34784801276E-02
3.04000000000E+09 -3.32601658437E-01 +2.16684247820E-01 -1.30427072680E-03 +1.35184048413E-04 -1.29186963686E-03 +1.82986359535E-04 -4.25188100997E-01 +9.41194801634E-02
3.04500000000E+09 -3.22886185968E-01 +2.46139125275E-01 -7.88943846024E-04 +2.84262914396E-04 -7.58076037289E-04 +3.36693502052E-04 -4.30960564108E-01 +1.34548146532E-01
3.05000000000E+09 -3.11423311828E-01 +2.75113894999E-01 -5.71433347140E-04 +8.09655180634E-05 -5.15519017652E-04 +1.58078801848E-04 -4.33957421046E-01 +1.74672866249E-01
3.05500000000E+09 -2.98669104252E-01 +3.03036167940E-01 -4.76005186214E-04 -9.88937349703E-06 -3.97531433866E-04 -1.27172976041E-05 -4.33911489087E-01 +2.13721262454E-01
3.06000000000E+09 -2.84722265387E-01 +3.30406048876E-01 -8.87277734390E-04 -1.84814284325E-04 -8.17373857161E-04 -1.92042867810E-04 -4.31685625131E-01 +2.51667473774E-01
3.06500000000E+09 -2.70154982976E-01 +3.55966360371E-01 -9.15282429562E-04 +1.51028315381E-04 -8.10425961503E-04 +6.83030918351E-05 -4.27237312098E-01 +2.88681872748E-01
3.07000000000E+09 -2.55277934048E-01 +3.80457483629E-01 -9.46399101023E-04 +3.56130977128E-04 -8.90507426446E-04 +2.29764376686E-04 -4.20818606496E-01 +3.25030495345E-01
