# Hz S RI R 50
! CMT, C1220, 16058040, 17.2.0/1
! Date: 15/08/2018 10:18:38
! Data: Format (Calibration Info)
! Freq                      S11: Re/Im (F2)                       S21: Re/Im (F2)                       S12: Re/Im (F2)                       S22: Re/Im (F2)            
2.50000000000E+09 +5.94942986359E-01 +6.34737208415E-01 -3.48970737007E-04 +1.12098528984E-04 -3.85448938456E-04 +4.44449430715E-05 +5.72857443086E-01 +7.16854182868E-01
2.50500000000E+09 +6.01284579306E-01 +6.26973847241E-01 -3.30151828139E-04 +1.66148013320E-04 -3.63712758911E-04 +1.81057359832E-04 +5.78371350583E-01 +7.11445675033E-01
2.51000000000E+09 +6.07747136212E-01 +6.18987719055E-01 -2.49007964784E-04 +2.45580314591E-04 -2.75191862268E-04 +2.22913627289E-04 +5.83925671673E-01 +7.06106897709E-01
2.51500000000E+09 +6.13967345581E-01 +6.11161431047E-01 -2.25690330183E-04 +2.06014434209E-04 -2.10914205026E-04 +1.77057338757E-04 +5.89022251155E-01 +7.00745229361E-01
2.52000000000E+09 +6.19809417552E-01 +6.03368046887E-01 -1.64084515474E-04 +2.95091865733E-04 -1.77828379753E-04 +2.55078870448E-04 +5.94283193047E-01 +6.94850380824E-01
2.52500000000E+09 +6.25163641287E-01 +5.96278259097E-01 -1.56797868019E-04 +1.67651448200E-04 -1.79951701713E-04 +1.87913331168E-04 +5.99791955354E-01 +6.88533711963E-01
2.53000000000E+09 +6.29834574487E-01 +5.89436384412E-01 -1.93181957490E-04 +2.65359559592E-04 -1.93211653984E-04 +2.32405024029E-04 +6.05985595749E-01 +6.81741167667E-01
2.53500000000E+09 +6.34321056912E-01 +5.83350452704E-01 -1.81283704807E-04 +2.98593504772E-04 -2.03566585832E-04 +2.71856939157E-04 +6.11970199846E-01 +6.74820091098E-01
2.54000000000E+09 +6.38573144973E-01 +5.77280036564E-01 -1.33863934212E-04 +3.30672015509E-04 -1.49806891952E-04 +3.28031644387E-04 +6.17731328210E-01 +6.68117780787E-01
2.54500000000E+09 +6.42752069035E-01 +5.71521268604E-01 -6.87836785007E-05 +3.69644463400E-04 -8.81246643727E-05 +4.26985965240E-04 +6.23533156107E-01 +6.61868237349E-01
2.55000000000E+09 +6.47575014703E-01 +5.65757183349E-01 +7.62131486914E-05 +3.26964613293E-04 +1.32103118351E-05 +3.59355180024E-04 +6.28928316327E-01 +6.55562492759E-01
2.55500000000E+09 +6.53128332197E-01 +5.58977941089E-01 +1.06812811246E-04 +2.65962377755E-04 +4.88222399944E-05 +2.96515101897E-04 +6.34112724202E-01 +6.49034076003E-01
2.56000000000E+09 +6.59281082080E-01 +5.51648637301E-01 +5.16980284717E-05 +1.87674510958E-04 +8.58862781198E-05 +1.78416196591E-04 +6.39541061603E-01 +6.41876599389E-01
2.56500000000E+09 +6.65528952333E-01 +5.43362042372E-01 -3.80220403149E-05 +9.33818437481E-05 -4.06196661345E-06 +1.83445347958E-04 +6.45018208651E-01 +6.34342441416E-01
2.57000000000E+09 +6.71684136671E-01 +5.34692005384E-01 -9.52172798193E-05 +2.22311784150E-04 -4.85070932357E-05 +2.87383487829E-04 +6.50353264786E-01 +6.26560178837E-01
2.57500000000E+09 +6.77709171402E-01 +5.25773822124E-01 -6.98389666722E-05 +3.09114555562E-04 +7.84452022004E-06 +3.02274482556E-04 +6.55700384973E-01 +6.18969369486E-01
2.58000000000E+09 +6.83180623754E-01 +5.16962944317E-01 +6.13536634831E-05 +2.91443022206E-04 +6.01807856100E-05 +3.17917536577E-04 +6.60761829972E-01 +6.11700515283E-01
2.58500000000E+09 +6.88397707348E-01 +5.08189272044E-01 +6.37299240329E-05 +3.29777151076E-04 +6.36114071122E-05 +3.11624827059E-04 +6.65754041748E-01 +6.04057001702E-01
2.59000000000E+09 +6.92921025177E-01 +4.99779281870E-01 +9.87057406740E-05 +2.76716632220E-04 +8.94105402290E-05 +2.68881489419E-04 +6.70439518919E-01 +5.96456522038E-01
2.59500000000E+09 +6.97212384656E-01 +4.91395963864E-01 +1.19383333155E-04 +3.29784366799E-04 +1.05453492506E-04 +2.97929500024E-04 +6.75366108136E-01 +5.88530536014E-01
2.60000000000E+09 +7.01161964497E-01 +4.82755234686E-01 +1.85025652753E-04 +3.13786678450E-04 +1.41749762032E-04 +3.03980175333E-04 +6.80405140628E-01 +5.80129410837E-01
2.60500000000E+09 +7.05290717997E-01 +4.73597321218E-01 +1.76372686248E-04 +3.12984290253E-04 +1.67263301922E-04 +2.88575841426E-04 +6.85723880701E-01 +5.71527545954E-01
2.61000000000E+09 +7.09653647592E-01 +4.63572684874E-01 +2.29542078469E-04 +3.71393687202E-04 +2.37154125776E-04 +3.94454914499E-04 +6.90915228712E-01 +5.62696923914E-01
2.61500000000E+09 +7.14257253773E-01 +4.52410980632E-01 +3.37861558336E-04 +2.95100487049E-04 +3.20327843881E-04 +2.89502372272E-04 +6.95724006603E-01 +5.53883671468E-01
2.62000000000E+09 +7.18328469409E-01 +4.39971951652E-01 +2.58236674244E-04 +2.03487311045E-04 +2.92010329034E-04 +1.92316848127E-04 +7.00352805463E-01 +5.45027088965E-01
2.62500000000E+09 +7.22221167960E-01 +4.27043127533E-01 +2.50979410075E-04 +2.93234483404E-04 +2.63527464530E-04 +2.75218719372E-04 +7.05295308654E-01 +5.36221266492E-01
2.63000000000E+09 +7.26084839997E-01 +4.13673532966E-01 +3.38628972809E-04 +3.04161549314E-04 +3.36182850637E-04 +2.91871568863E-04 +7.10171378857E-01 +5.26954713519E-01
2.63500000000E+09 +7.29226412941E-01 +4.00370789415E-01 +4.59450341227E-04 +3.41221114234E-04 +4.23178661675E-04 +2.22011176410E-04 +7.15087358207E-01 +5.17530252837E-01
2.64000000000E+09 +7.32172472209E-01 +3.87579626256E-01 +5.37627985390E-04 +2.35339580009E-04 +4.55403069991E-04 +1.99208374141E-04 +7.20077944461E-01 +5.07655882326E-01
2.64500000000E+09 +7.35148798889E-01 +3.75684213368E-01 +5.57493420477E-04 +1.28764158536E-04 +4.99673917331E-04 +1.48490508614E-04 +7.24878094004E-01 +4.97872940104E-01
2.65000000000E+09 +7.37439090263E-01 +3.64377148645E-01 +5.30899692289E-04 +9.31994880695E-05 +4.88279075593E-04 +1.68405374324E-04 +7.29324366248E-01 +4.87656826226E-01
2.65500000000E+09 +7.40104878014E-01 +3.53540896758E-01 +6.60997952326E-04 +5.37613464818E-05 +7.02655754580E-04 +1.35175759026E-04 +7.33190776446E-01 +4.77138041109E-01
2.66000000000E+09 +7.42923929773E-01 +3.42805273860E-01 +6.41791745154E-04 -1.29733624182E-04 +6.89596894471E-04 -1.20040834785E-04 +7.37167035472E-01 +4.65778589549E-01
2.66500000000E+09 +7.45654055747E-01 +3.31741191634E-01 +6.41249188813E-04 -5.89563770422E-05 +6.82815190103E-04 -1.70804885283E-04 +7.40967220066E-01 +4.54608710837E-01
2.67000000000E+09 +7.47962690820E-01 +3.19692570830E-01 +7.46537433175E-04 -3.26294387247E-04 +6.50226866401E-04 -2.97473092954E-04 +7.45124252072E-01 +4.43849786976E-01
2.67500000000E+09 +7.49812347197E-01 +3.07003900433E-01 +5.26895539117E-04 -4.31021889157E-04 +5.06646973498E-04 -3.89919763306E-04 +7.49454142098E-01 +4.32621226000E-01
2.68000000000E+09 +7.51242191904E-01 +2.93589360016E-01 +5.09156800670E-04 -3.64180847663E-04 +5.38372192833E-04 -3.33604370755E-04 +7.53161117970E-01 +4.20927416974E-01
2.68500000000E+09 +7.51925653653E-01 +2.79574401359E-01 +4.64736574828E-04 -4.45814886477E-04 +4.62414811040E-04 -4.37580186549E-04 +7.55804100589E-01 +4.09369973267E-01
2.69000000000E+09 +7.52293812593E-01 +2.65392656145E-01 +4.17344595425E-04 -4.38116627859E-04 +4.29362158628E-04 -4.03019966489E-04 +7.58190350331E-01 +3.97622208508E-01
2.69500000000E+09 +7.52532304600E-01 +2.51338555201E-01 +5.18076777954E-04 -4.87258853170E-04 +5.29290002615E-04 -4.93029175248E-04 +7.60789851409E-01 +3.85281611318E-01
2.70000000000E+09 +7.52800342622E-01 +2.37578586418E-01 +4.20415800110E-04 -7.87520503269E-04 +4.57233291131E-04 -6.89222717221E-04 +7.63726735806E-01 +3.71986848859E-01
2.70500000000E+09 +7.53507186914E-01 +2.24122881725E-01 +2.27951161855E-04 -7.58547313439E-04 +2.83609322674E-04 -7.97458626209E-04 +7.66433092444E-01 +3.58463222665E-01
2.71000000000E+09 +7.54587069088E-01 +2.10637206145E-01 +1.42791690172E-04 -8.49059640296E-04 +2.13503559008E-04 -8.84699056650E-04 +7.69127951090E-01 +3.45377386902E-01
2.71500000000E+09 +7.56237125615E-01 +1.96592547537E-01 -1.28459591130E-04 -8.19368335375E-04 -1.09261935156E-04 -9.27510888668E-04 +7.71604809167E-01 +3.32691717616E-01
2.72000000000E+09 +7.57677530107E-01 +1.81983053491E-01 -1.16259439089E-04 -5.86417882009E-04 -1.81447876716E-04 -5.83468405811E-04 +7.73731512254E-01 +3.20106679388E-01
2.72500000000E+09 +7.58632688412E-01 +1.66131723263E-01 +8.02969352152E-05 -5.84550170142E-04 +5.88599798711E-06 -5.67754375668E-04 +7.75138176719E-01 +3.06942558660E-01
2.73000000000E+09 +7.58157030280E-01 +1.49818184800E-01 -3.30740100032E-05 -9.66819813721E-04 -8.21979459154E-05 -8.03356094939E-04 +7.76377775337E-01 +2.92871446193E-01
2.73500000000E+09 +7.56721952961E-01 +1.32835325797E-01 -3.69146149635E-04 -8.05273038627E-04 -3.58350366962E-04 -6.91152582534E-04 +7.77529942801E-01 +2.77948734636E-01
2.74000000000E+09 +7.54104434385E-01 +1.16060575229E-01 -5.04866973875E-04 -5.89818473014E-04 -3.92291732171E-04 -5.69814314598E-04 +7.78728811525E-01 +2.63054904695E-01
2.74500000000E+09 +7.50426101609E-01 +9.88685656678E-02 -4.40428506661E-04 -5.23337283869E-04 -3.48620923351E-04 -5.24225640156E-04 +7.79907922805E-01 +2.47794042933E-01
2.75000000000E+09 +7.45574013247E-01 +8.15568207817E-02 -4.06460963637E-04 -5.48123024162E-04 -3.15066011583E-04 -6.09907841964E-04 +7.80552337914E-01 +2.32585646926E-01
2.75500000000E+09 +7.39892012295E-01 +6.47142421999E-02 -4.28864366538E-04 -5.56703258888E-04 -4.51745562635E-04 -6.71459605773E-04 +7.80577950326E-01 +2.17171084271E-01
2.76000000000E+09 +7.34661800441E-01 +4.83912290533E-02 -6.26091019375E-04 -6.09533613632E-04 -6.79931424147E-04 -6.71728626329E-04 +7.79821738788E-01 +2.01620177001E-01
2.76500000000E+09 +7.29750974689E-01 +3.16410777519E-02 -8.34655453428E-04 -3.85848763408E-04 -8.70610990155E-04 -4.75667425238E-04 +7.78928730340E-01 +1.84923039847E-01
2.77000000000E+09 +7.24946860806E-01 +1.39614031791E-02 -6.75620138137E-04 -1.96360162565E-04 -7.03191737325E-04 -2.49185440977E-04 +7.77537675485E-01 +1.67380347064E-01
2.77500000000E+09 +7.20317088535E-01 -4.65372540649E-03 -5.79401447126E-04 -1.92946794656E-04 -5.93128953560E-04 -2.16703933868E-04 +7.75700115837E-01 +1.49317685527E-01
2.78000000000E+09 +7.15292942945E-01 -2.43921241538E-02 -7.31790153515E-04 -2.72218252911E-04 -7.45368483468E-04 -2.70258496363E-04 +7.73552100924E-01 +1.31261090796E-01
2.78500000000E+09 +7.09169365122E-01 -4.47463764449E-02 -7.53878207530E-04 -1.75593110857E-04 -7.25926069489E-04 -1.55606424144E-04 +7.70771917408E-01 +1.13470983419E-01
2.79000000000E+09 +7.02174695375E-01 -6.52040381118E-02 -7.99311683214E-04 -8.38521246406E-05 -8.05759958588E-04 -9.01797096566E-05 +7.67178941209E-01 +9.63037015493E-02
2.79500000000E+09 +6.94079371731E-01 -8.57848077794E-02 -8.96286695162E-04 +8.65977166388E-05 -8.66253186174E-04 +5.98344476643E-05 +7.63154959213E-01 +7.87292916675E-02
2.80000000000E+09 +6.84066520596E-01 -1.06084117988E-01 -6.05325851030E-04 +2.37897006570E-04 -5.92841035079E-04 +2.00759854291E-04 +7.58568676596E-01 +5.99898725352E-02
2.80500000000E+09 +6.73287281939E-01 -1.24755447713E-01 -5.78841770536E-04 -1.25734160277E-04 -5.80677607753E-04 -1.54320790553E-04 +7.52513519231E-01 +4.06954577614E-02
2.81000000000E+09 +6.61552884920E-01 -1.42689743370E-01 -8.29673084152E-04 -1.34547234010E-04 -8.32616770844E-04 -1.21483126330E-04 +7.45794894031E-01 +2.15092856617E-02
2.81500000000E+09 +6.48922262143E-01 -1.59806234082E-01 -9.84343575433E-04 +1.02780468218E-05 -1.04977349668E-03 +1.43038809753E-05 +7.38398831461E-01 +2.31551980783E-03
2.82000000000E+09 +6.35396498991E-01 -1.76444731569E-01 -1.26969658470E-03 +2.89454619208E-04 -1.26494891341E-03 +3.97751675198E-04 +7.31113843036E-01 -1.71009304329E-02
2.82500000000E+09 +6.21122549295E-01 -1.93448239472E-01 -9.83707217464E-04 +8.10211663204E-04 -8.72289287130E-04 +7.79263750509E-04 +7.21865319313E-01 -3.71090061881E-02
2.83000000000E+09 +6.04974901051E-01 -2.11038659625E-01 -6.93399689352E-04 +6.57457105841E-04 -6.24264118757E-04 +6.36870198218E-04 +7.11832125608E-01 -5.63307817879E-02
2.83500000000E+09 +5.87660012837E-01 -2.29053063526E-01 -8.88361707749E-04 +7.54586006418E-04 -8.23985092959E-04 +6.59084834346E-04 +7.01101780464E-01 -7.61728767107E-02
2.84000000000E+09 +5.68314531794E-01 -2.47646537547E-01 -6.18098372254E-04 +9.56278580145E-04 -6.67768699613E-04 +8.95975985610E-04 +6.89893638706E-01 -9.60017971658E-02
2.84500000000E+09 +5.46954888308E-01 -2.66366588384E-01 -6.83159679270E-04 +9.64641653270E-04 -7.50284646855E-04 +8.68743650419E-04 +6.77741925059E-01 -1.16690593520E-01
2.85000000000E+09 +5.24170200412E-01 -2.84774301912E-01 -4.88792972865E-04 +1.45138333744E-03 -4.89827131120E-04 +1.35135969585E-03 +6.63874492243E-01 -1.37371430041E-01
2.85500000000E+09 +4.99645921751E-01 -3.02829032732E-01 +1.67105071097E-04 +1.04920073691E-03 +7.72296451014E-05 +9.78388108607E-04 +6.48866030773E-01 -1.57236034598E-01
2.86000000000E+09 +4.74161846068E-01 -3.19536850755E-01 -3.37401294641E-04 +7.33210438265E-04 -3.31561035770E-04 +6.73579020917E-04 +6.33084424924E-01 -1.77062029162E-01
2.86500000000E+09 +4.48100183511E-01 -3.34661668151E-01 -6.46900782153E-04 +1.27436582914E-03 -7.02107509206E-04 +1.22531205062E-03 +6.16006779045E-01 -1.97264785215E-01
2.87000000000E+09 +4.22391239218E-01 -3.48821555691E-01 +5.09627023443E-05 +1.73588021813E-03 +2.54841931948E-05 +1.72149276013E-03 +5.97682661111E-01 -2.16962134837E-01
2.87500000000E+09 +3.96049134155E-01 -3.62023311986E-01 +1.93114316575E-04 +1.41907727632E-03 +2.76898264171E-04 +1.43914315932E-03 +5.77637116926E-01 -2.37052237409E-01
2.88000000000E+09 +3.68945235119E-01 -3.74006630321E-01 +5.70475695269E-04 +1.61862458641E-03 +6.10653761810E-04 +1.54934731125E-03 +5.56690124552E-01 -2.55455572555E-01
2.88500000000E+09 +3.41097341808E-01 -3.84704205481E-01 +1.06380309074E-03 +1.10746492691E-03 +9.91982842843E-04 +1.05769007655E-03 +5.34684921472E-01 -2.74438368716E-01
2.89000000000E+09 +3.11261454102E-01 -3.93621624004E-01 +6.67971332735E-04 +8.62401279245E-04 +6.73121533342E-04 +8.55682145846E-04 +5.09715207248E-01 -2.92555093437E-01
2.89500000000E+09 +2.80721215696E-01 -4.00562527984E-01 +6.43531076571E-04 +1.13287299207E-03 +6.15909128589E-04 +1.14569825801E-03 +4.83229599334E-01 -3.09688552024E-01
2.90000000000E+09 +2.48576776099E-01 -4.05893778231E-01 +1.11689142775E-03 +1.41544097674E-03 +1.19194936374E-03 +1.41657409924E-03 +4.54909125439E-01 -3.26569271977E-01
2.90500000000E+09 +2.14581104064E-01 -4.09079932778E-01 +1.68124762783E-03 +9.91990021981E-04 +1.66681607356E-03 +1.00324625533E-03 +4.24588808311E-01 -3.41838726529E-01
2.91000000000E+09 +1.79053261108E-01 -4.09344032273E-01 +1.75987215901E-03 +3.27543569197E-04 +1.73140853810E-03 +2.42281584990E-04 +3.93683898602E-01 -3.55883172190E-01
2.91500000000E+09 +1.43424243809E-01 -4.06647985054E-01 +1.47562462076E-03 +1.55782911356E-04 +1.46782311797E-03 +1.44667814816E-04 +3.61433105185E-01 -3.67743758081E-01
2.92000000000E+09 +1.07740467917E-01 -4.01129598941E-01 +1.47934650678E-03 -1.92464199268E-04 +1.47504204637E-03 -7.38726443508E-05 +3.28270432046E-01 -3.78194381205E-01
2.92500000000E+09 +7.28756977583E-02 -3.94314655606E-01 +1.13798995249E-03 -9.55705793258E-05 +1.15472936728E-03 -8.13551384917E-05 +2.92475489293E-01 -3.86684113102E-01
2.93000000000E+09 +3.74361652923E-02 -3.85110757467E-01 +1.41025104184E-03 +1.97212510299E-05 +1.40583699436E-03 +8.61133528253E-05 +2.55038219873E-01 -3.92028029848E-01
2.93500000000E+09 +3.29352543763E-03 -3.73355918735E-01 +1.57058309085E-03 -4.91975102072E-04 +1.57573242042E-03 -4.36493019326E-04 +2.17678163774E-01 -3.95398665599E-01
2.94000000000E+09 -3.05506710901E-02 -3.60409781455E-01 +1.25904249127E-03 -6.84721389612E-04 +1.22651191550E-03 -6.33152406308E-04 +1.79995715900E-01 -3.97850415043E-01
2.94500000000E+09 -6.37624709344E-02 -3.44257147309E-01 +1.22163765947E-03 -6.84990377333E-04 +1.14646301692E-03 -6.24447339594E-04 +1.40952404739E-01 -3.99383289294E-01
2.95000000000E+09 -9.62558154745E-02 -3.26070909785E-01 +1.33058843422E-03 -9.53197467889E-04 +1.31285874072E-03 -8.69581464317E-04 +1.00015755166E-01 -3.96597076327E-01
2.95500000000E+09 -1.27544944605E-01 -3.03990715734E-01 +1.16084931848E-03 -1.19281389820E-03 +1.18154390007E-03 -1.12524136712E-03 +6.05288934977E-02 -3.90117292938E-01
2.96000000000E+09 -1.56244617249E-01 -2.79070233965E-01 +8.34873988417E-04 -1.87613486089E-03 +8.76525377749E-04 -1.84053675702E-03 +2.14242983523E-02 -3.81370424969E-01
2.96500000000E+09 -1.82706888413E-01 -2.52902217738E-01 -3.83296770724E-04 -1.53924759941E-03 -4.05519928755E-04 -1.53082385171E-03 -1.85965576247E-02 -3.70897835644E-01
2.97000000000E+09 -2.08171443719E-01 -2.24154481884E-01 -1.10742520750E-04 -6.31143623471E-04 -1.53011533390E-04 -6.14314367354E-04 -5.99022078512E-02 -3.56107626174E-01
2.97500000000E+09 -2.30985897826E-01 -1.93718738017E-01 +6.01745999840E-04 -5.64271082550E-04 +5.69899697255E-04 -5.23988045041E-04 -9.81036484900E-02 -3.37967302723E-01
2.98000000000E+09 -2.52401263129E-01 -1.62083295737E-01 +6.26819936134E-04 -1.42199421706E-03 +6.26983627089E-04 -1.36739605545E-03 -1.35635924011E-01 -3.19655633333E-01
2.98500000000E+09 -2.71608365617E-01 -1.29227789260E-01 -2.63550646333E-04 -1.61930174090E-03 -2.14278309255E-04 -1.60600721605E-03 -1.72828337087E-01 -2.97467695253E-01
2.99000000000E+09 -2.88805228733E-01 -9.56271722379E-02 -5.80213715298E-04 -1.10851557128E-03 -5.87253518597E-04 -1.15813970655E-03 -2.09151879660E-01 -2.73189115285E-01
2.99500000000E+09 -3.04147638288E-01 -6.26596182559E-02 -5.42829161519E-04 -7.71802680485E-04 -5.48854075624E-04 -7.95142800100E-04 -2.44133876004E-01 -2.43281611388E-01
3.00000000000E+09 -3.18113682059E-01 -2.86153386145E-02 -3.31089267573E-04 -5.77935201634E-04 -3.39029627206E-04 -5.69487842834E-04 -2.74980080429E-01 -2.10945890935E-01
3.00500000000E+09 -3.29005955178E-01 +4.89890007376E-03 -1.72664394728E-04 -8.69958425320E-04 -1.57676014626E-04 -8.24480106218E-04 -3.03551024278E-01 -1.78342002949E-01
3.01000000000E+09 -3.37498993142E-01 +3.81261213042E-02 -6.57684164500E-04 -1.16227139293E-03 -6.18811416991E-04 -1.16121775370E-03 -3.31247201120E-01 -1.43602581381E-01
3.01500000000E+09 -3.43061401443E-01 +7.10927909184E-02 -9.63459521082E-04 -5.52621693642E-04 -8.87110264350E-04 -6.13509068812E-04 -3.55404652843E-01 -1.06663584026E-01
3.02000000000E+09 -3.45515138533E-01 +1.02888966039E-01 -7.08697284785E-04 -2.71882471183E-04 -7.83028616318E-04 -3.14117020289E-04 -3.75991886876E-01 -6.83065693617E-02
3.02500000000E+09 -3.45243501155E-01 +1.34245436203E-01 -2.13238340100E-04 -2.94029975288E-04 -2.44205810555E-04 -2.90193155804E-04 -3.92794344410E-01 -2.84412414504E-02
3.03000000000E+09 -3.41804677581E-01 +1.64782440594E-01 -6.08022515108E-04 -1.11801386344E-03 -6.05224288769E-04 -1.15005327818E-03 -4.06576821179E-01 +1.08947336805E-02
3.03500000000E+09 -3.36525316865E-01 +1.94626175980E-01 -1.35877055021E-03 -5.81240501594E-04 -1.32088881275E-03 -5.78209175000E-04 -4.18523769852E-01 +5.11531942271E-02
3.04000000000E+09 -3.28336929243E-01 +2.24851625975E-01 -1.28116230702E-03 +1.41649346549E-04 -1.23961708055E-03 +1.19112363778E-04 -4.27162721237E-01 +9.20757594700E-02
3.04500000000E+09 -3.17972260153E-01 +2.53800408906E-01 -4.59591604209E-04 +4.06939309287E-04 -4.84094537344E-04 +4.57303156100E-04 -4.33059427635E-01 +1.32802023314E-01
3.05000000000E+09 -3.06078806436E-01 +2.82050836974E-01 -3.10882296489E-04 -1.23543206265E-04 -2.95377724237E-04 -1.48155058908E-04 -4.35849454741E-01 +1.73083582773E-01
3.05500000000E+09 -2.92965756078E-01 +3.09487188888E-01 -4.45246096194E-04 -3.01991378686E-04 -4.64267037300E-04 -2.64517818985E-04 -4.35672781198E-01 +2.12427067201E-01
3.06000000000E+09 -2.78990764154E-01 +3.36158618461E-01 -1.06905053944E-03 -2.93730783791E-04 -1.04135121627E-03 -2.78041113511E-04 -4.33714289940E-01 +2.50682726006E-01
3.06500000000E+09 -2.64208897656E-01 +3.61612822639E-01 -8.12876103178E-04 +3.43481276790E-04 -6.97714099223E-04 +3.11508871456E-04 -4.29044665079E-01 +2.88607713129E-01
3.07000000000E+09 -2.48749912210E-01 +3.85752143629E-01 -6.16733896896E-04 +3.90049608233E-04 -5.89842569430E-04 +3.09225590186E-04 -4.21989718737E-01 +3.24973530007E-01
