# Hz S RI R 50
! CMT, C1220, 16058040, 17.2.0/1
! Date: 15/08/2018 10:39:05
! Data: Format (Calibration Info)
! Freq                      S11: Re/Im (F2)                       S21: Re/Im (F2)                       S12: Re/Im (F2)                       S22: Re/Im (F2)            
2.50000000000E+09 +5.97010193649E-01 +6.45372642376E-01 -3.53908753345E-06 -4.53622554860E-04 +3.38058757379E-05 -5.11133618811E-04 +5.65397414000E-01 +7.24029563479E-01
2.50500000000E+09 +6.03964113507E-01 +6.36982473626E-01 -4.03304467751E-05 -5.80282489444E-04 -1.26968534776E-04 -6.19284466659E-04 +5.71252077773E-01 +7.18473825132E-01
2.51000000000E+09 +6.11434326352E-01 +6.28566172527E-01 -1.31804338541E-04 -6.14116276238E-04 -2.15735783205E-04 -5.71581603533E-04 +5.77144686389E-01 +7.13109146949E-01
2.51500000000E+09 +6.19241922530E-01 +6.20734745942E-01 -2.74138707794E-04 -5.78065179145E-04 -2.89507269264E-04 -5.43950750685E-04 +5.82594081425E-01 +7.07552847853E-01
2.52000000000E+09 +6.26374477387E-01 +6.13187313322E-01 -3.54991506212E-04 -5.89980583167E-04 -3.37589154582E-04 -5.95477772700E-04 +5.88002604419E-01 +7.01536161750E-01
2.52500000000E+09 +6.32227704593E-01 +6.06620654415E-01 -4.63500522272E-04 -5.57490702192E-04 -4.23171720375E-04 -5.82464083976E-04 +5.94038953195E-01 +6.95000371949E-01
2.53000000000E+09 +6.37085409368E-01 +6.00912877628E-01 -5.04130685488E-04 -5.53303573141E-04 -5.64655007978E-04 -5.72931885431E-04 +6.00349064391E-01 +6.87705594221E-01
2.53500000000E+09 +6.40947962426E-01 +5.95566967045E-01 -6.12825030989E-04 -4.60327086435E-04 -5.92105724577E-04 -4.74730785656E-04 +6.06322691954E-01 +6.80688133643E-01
2.54000000000E+09 +6.44228523953E-01 +5.89585008462E-01 -6.49341805424E-04 -4.46843314591E-04 -6.35346032535E-04 -4.87700872601E-04 +6.11927662996E-01 +6.73751542236E-01
2.54500000000E+09 +6.47693445503E-01 +5.83224697424E-01 -7.21177617021E-04 -3.91642856076E-04 -7.08186896693E-04 -4.29308548645E-04 +6.17247335965E-01 +6.67474241455E-01
2.55000000000E+09 +6.51902229752E-01 +5.75610514901E-01 -7.70445004159E-04 -2.46123817311E-04 -8.27970791309E-04 -3.10731129585E-04 +6.22238661602E-01 +6.61360098110E-01
2.55500000000E+09 +6.57203133046E-01 +5.66499872683E-01 -8.13046978655E-04 -1.69774538839E-04 -8.83822592525E-04 -2.58098693281E-04 +6.27228637572E-01 +6.55058319567E-01
2.56000000000E+09 +6.63817676522E-01 +5.56683954623E-01 -7.83612114742E-04 -1.61304343864E-04 -9.25640019674E-04 -6.88501952136E-05 +6.32281778703E-01 +6.48047720022E-01
2.56500000000E+09 +6.71084723370E-01 +5.46036832713E-01 -8.47749429167E-04 -1.42739752805E-04 -9.10442700228E-04 +1.26860026584E-05 +6.37441752528E-01 +6.40549543080E-01
2.57000000000E+09 +6.78594822459E-01 +5.35923899588E-01 -9.62321453120E-04 -6.23536980756E-05 -9.04083293573E-04 +1.81731134663E-04 +6.42379089726E-01 +6.32770673570E-01
2.57500000000E+09 +6.86138935915E-01 +5.26551265522E-01 -9.74876769553E-04 +2.16215305140E-05 -8.52059721020E-04 +1.83427809535E-04 +6.47801186622E-01 +6.25611707613E-01
2.58000000000E+09 +6.92507669677E-01 +5.18409236646E-01 -9.90531947424E-04 +1.42232167282E-04 -8.23615169067E-04 +1.58247319880E-04 +6.52984710896E-01 +6.18392147601E-01
2.58500000000E+09 +6.97899706234E-01 +5.11212919717E-01 -1.09416178908E-03 +2.61779000954E-04 -9.54949758696E-04 +1.74740945255E-04 +6.58050496365E-01 +6.11328211006E-01
2.59000000000E+09 +7.01893832918E-01 +5.05102001064E-01 -1.09917379652E-03 +4.10974073334E-04 -1.06504769580E-03 +3.36357788571E-04 +6.63013004886E-01 +6.04123216667E-01
2.59500000000E+09 +7.05077431176E-01 +4.99045744711E-01 -1.05935748164E-03 +5.64883339665E-04 -1.13178942686E-03 +5.29851446778E-04 +6.68305403601E-01 +5.96473265958E-01
2.60000000000E+09 +7.07410199931E-01 +4.92352986853E-01 -9.62998454886E-04 +6.55184155498E-04 -9.47760891489E-04 +6.63726900529E-04 +6.74121700446E-01 +5.88177086625E-01
2.60500000000E+09 +7.10068839122E-01 +4.83790501656E-01 -9.56331176789E-04 +7.13669362367E-04 -9.76609499708E-04 +6.83633695890E-04 +6.79774223733E-01 +5.79298460591E-01
2.61000000000E+09 +7.12876439167E-01 +4.73186109726E-01 -1.01317961506E-03 +9.59417871225E-04 -1.02301827543E-03 +9.51170535215E-04 +6.85004642816E-01 +5.70329138916E-01
2.61500000000E+09 +7.16754969812E-01 +4.60506878025E-01 -7.48438626714E-04 +1.16456315340E-03 -8.14218698474E-04 +1.15434537735E-03 +6.90188745611E-01 +5.61763411898E-01
2.62000000000E+09 +7.21313518880E-01 +4.46017154162E-01 -6.24173335083E-04 +1.06268093322E-03 -6.54530435452E-04 +1.12705408084E-03 +6.95340589838E-01 +5.52683503589E-01
2.62500000000E+09 +7.26712683205E-01 +4.30512152514E-01 -6.90426598977E-04 +1.12329986339E-03 -6.84527825773E-04 +1.22678767570E-03 +7.00345603010E-01 +5.43657357746E-01
2.63000000000E+09 +7.32124256227E-01 +4.14984798992E-01 -6.87986875598E-04 +1.25677869823E-03 -5.37898338395E-04 +1.33649450871E-03 +7.05041989391E-01 +5.34224911046E-01
2.63500000000E+09 +7.37000031862E-01 +4.00823088945E-01 -7.02546305191E-04 +1.45089755549E-03 -4.62873370156E-04 +1.36219242833E-03 +7.09497819735E-01 +5.24808052708E-01
2.64000000000E+09 +7.41602309741E-01 +3.88588174854E-01 -4.72842259561E-04 +1.89107457873E-03 -3.75755956007E-04 +1.66540694255E-03 +7.13984537599E-01 +5.15126186785E-01
2.64500000000E+09 +7.45768374720E-01 +3.78345672700E-01 +1.03202539323E-04 +2.00189786048E-03 -2.12513044444E-05 +1.76241873332E-03 +7.18489503706E-01 +5.05372294274E-01
2.65000000000E+09 +7.48789810632E-01 +3.69486038325E-01 +3.66979774436E-04 +1.64060139941E-03 +1.31851457196E-04 +1.63402142758E-03 +7.22720188801E-01 +4.95094992286E-01
2.65500000000E+09 +7.50953305385E-01 +3.61114698484E-01 +2.36587985740E-04 +1.50584290289E-03 +1.08861825249E-04 +1.58681104930E-03 +7.26551609717E-01 +4.84672006021E-01
2.66000000000E+09 +7.52583068201E-01 +3.52611625240E-01 +2.37115349934E-04 +1.77536190907E-03 +1.90154573315E-04 +1.88554843399E-03 +7.30532369151E-01 +4.73811249794E-01
2.66500000000E+09 +7.54080454893E-01 +3.43283897851E-01 +4.91092157265E-04 +2.00765044568E-03 +6.60177607448E-04 +2.02037214785E-03 +7.34817914817E-01 +4.62840077417E-01
2.67000000000E+09 +7.55285623525E-01 +3.31418092038E-01 +9.46861841132E-04 +2.03257973979E-03 +1.02577482674E-03 +1.89704360932E-03 +7.39200686578E-01 +4.52149651630E-01
2.67500000000E+09 +7.56600131188E-01 +3.17984809308E-01 +1.25845879480E-03 +1.86900307352E-03 +1.28498955872E-03 +1.73404064593E-03 +7.43237371597E-01 +4.41129434482E-01
2.68000000000E+09 +7.58148695518E-01 +3.02148653317E-01 +1.55604768897E-03 +1.67242380858E-03 +1.43814674244E-03 +1.54696366720E-03 +7.47191303471E-01 +4.30257587874E-01
2.68500000000E+09 +7.59557735939E-01 +2.85366977606E-01 +1.61965362751E-03 +1.50069371790E-03 +1.49434114174E-03 +1.52826476743E-03 +7.50468673417E-01 +4.19078878251E-01
2.69000000000E+09 +7.60989779067E-01 +2.68396015484E-01 +1.89577652066E-03 +1.46339101374E-03 +1.86813178892E-03 +1.49549384352E-03 +7.53497203487E-01 +4.07337953229E-01
2.69500000000E+09 +7.62437677566E-01 +2.51967627965E-01 +2.20430182458E-03 +1.25926529852E-03 +2.18563825117E-03 +1.25194209795E-03 +7.56662446538E-01 +3.94952567913E-01
2.70000000000E+09 +7.63693183736E-01 +2.36349232465E-01 +2.50600779164E-03 +9.53296947136E-04 +2.45135290637E-03 +9.22752734236E-04 +7.60148313450E-01 +3.81590988928E-01
2.70500000000E+09 +7.64515937804E-01 +2.22173374241E-01 +2.67499307189E-03 +5.62339074787E-04 +2.57225776078E-03 +6.83688213295E-04 +7.63072451054E-01 +3.68464914340E-01
2.71000000000E+09 +7.65197979592E-01 +2.08880864060E-01 +2.74876145821E-03 +1.33279769133E-04 +2.80506698069E-03 +2.68560572269E-04 +7.66066544008E-01 +3.55347921395E-01
2.71500000000E+09 +7.65342830448E-01 +1.95619364365E-01 +2.58739501964E-03 -2.46683285252E-04 +2.79342992850E-03 -2.18519995284E-04 +7.68989344900E-01 +3.42828024163E-01
2.72000000000E+09 +7.65103856082E-01 +1.82551556765E-01 +2.42132941634E-03 -3.38160789676E-04 +2.59400000966E-03 -5.40205677933E-04 +7.71306531528E-01 +3.29998908837E-01
2.72500000000E+09 +7.64601683509E-01 +1.67971619451E-01 +2.51740458346E-03 -4.97556411776E-04 +2.47507912095E-03 -7.37251795821E-04 +7.72926378422E-01 +3.16276970738E-01
2.73000000000E+09 +7.62900066303E-01 +1.52477802210E-01 +2.73160262013E-03 -8.98552295678E-04 +2.39692271792E-03 -1.07173733471E-03 +7.74264422463E-01 +3.01990239576E-01
2.73500000000E+09 +7.60575524320E-01 +1.35418457242E-01 +2.52429861193E-03 -1.39540552078E-03 +2.17887936108E-03 -1.20555101775E-03 +7.75846559443E-01 +2.86948521078E-01
2.74000000000E+09 +7.57648001799E-01 +1.17911841952E-01 +2.24285857152E-03 -1.59238869698E-03 +2.12642435801E-03 -1.24806721028E-03 +7.77535165257E-01 +2.71350110862E-01
2.74500000000E+09 +7.53763427480E-01 +9.97204616430E-02 +2.21537595393E-03 -1.85856283648E-03 +2.33724602935E-03 -1.45957959453E-03 +7.79159981010E-01 +2.55651085639E-01
2.75000000000E+09 +7.49101731338E-01 +8.14379371795E-02 +2.01565460371E-03 -2.07716130423E-03 +2.28346202674E-03 -1.90053277265E-03 +7.79904325825E-01 +2.39716320077E-01
2.75500000000E+09 +7.43933057992E-01 +6.40185586942E-02 +1.83414253215E-03 -2.36907725175E-03 +2.10349668373E-03 -2.40019376897E-03 +7.79468279972E-01 +2.23771409274E-01
2.76000000000E+09 +7.38620811636E-01 +4.67603076978E-02 +1.56428452288E-03 -2.65715489162E-03 +1.67090800259E-03 -2.85714571100E-03 +7.78561261223E-01 +2.08286665822E-01
2.76500000000E+09 +7.32869158159E-01 +2.94830352711E-02 +1.27394109594E-03 -2.68613530030E-03 +1.33119717963E-03 -2.86446939562E-03 +7.77455270523E-01 +1.91277736163E-01
2.77000000000E+09 +7.26623193345E-01 +1.13137316437E-02 +1.01788149321E-03 -3.10759624768E-03 +1.02200799415E-03 -3.25914053741E-03 +7.75751858285E-01 +1.73484782821E-01
2.77500000000E+09 +7.19620106796E-01 -7.54548726965E-03 +4.38294246634E-04 -3.28693310048E-03 +3.54186535641E-04 -3.42775571639E-03 +7.73284592398E-01 +1.55661740221E-01
2.78000000000E+09 +7.12071488282E-01 -2.69964399126E-02 -1.17390342177E-04 -3.04276810578E-03 -2.95251131512E-04 -3.11823769654E-03 +7.70845104656E-01 +1.38113804484E-01
2.78500000000E+09 +7.03997553842E-01 -4.77377586629E-02 -2.59923421407E-04 -2.72980551048E-03 -3.88362717803E-04 -2.67947950957E-03 +7.68256269366E-01 +1.20748706084E-01
2.79000000000E+09 +6.95268139109E-01 -6.85884072829E-02 -1.75083732615E-04 -2.86677241256E-03 -2.66830690641E-04 -2.71575247276E-03 +7.64864899170E-01 +1.03508600016E-01
2.79500000000E+09 +6.86598044343E-01 -8.94061859348E-02 -3.01342146686E-04 -3.20677262131E-03 -3.20979896310E-04 -2.98156784500E-03 +7.60525607187E-01 +8.57814024813E-02
2.80000000000E+09 +6.77408924507E-01 -1.09692585882E-01 -8.97444794939E-04 -3.30740641305E-03 -7.83787391956E-04 -3.20012135340E-03 +7.55158768975E-01 +6.79289474495E-02
2.80500000000E+09 +6.67716701390E-01 -1.28957582889E-01 -1.40932233864E-03 -3.40631353951E-03 -1.25063551469E-03 -3.38169382348E-03 +7.49502425978E-01 +4.96498400067E-02
2.81000000000E+09 +6.56803588924E-01 -1.46564224639E-01 -2.04838608508E-03 -3.05405055748E-03 -2.06633533917E-03 -3.19452615239E-03 +7.43901118448E-01 +3.09867123315E-02
2.81500000000E+09 +6.44310565905E-01 -1.62390488566E-01 -2.13567085681E-03 -2.73089829225E-03 -2.25440208271E-03 -2.77508135721E-03 +7.37881942304E-01 +1.08894955934E-02
2.82000000000E+09 +6.30530417065E-01 -1.76471954581E-01 -2.65764089102E-03 -2.62647889969E-03 -2.74953172797E-03 -2.46695296058E-03 +7.30623635480E-01 -9.33844583670E-03
2.82500000000E+09 +6.15542595898E-01 -1.90207512392E-01 -3.00291085390E-03 -2.13216642904E-03 -2.95181514170E-03 -1.95014814120E-03 +7.22394386114E-01 -2.94943831760E-02
2.83000000000E+09 +5.98453189439E-01 -2.05171943717E-01 -3.28716771583E-03 -1.67862092832E-03 -3.09535340105E-03 -1.51753995647E-03 +7.13387321554E-01 -4.97418272578E-02
2.83500000000E+09 +5.78841028028E-01 -2.20934650772E-01 -3.09140532206E-03 -1.17621928583E-03 -2.95099326120E-03 -1.21494917531E-03 +7.02999852894E-01 -7.02548008682E-02
2.84000000000E+09 +5.57177369101E-01 -2.38468736502E-01 -2.99519215182E-03 -1.16895898747E-03 -2.93558294449E-03 -1.29374712757E-03 +6.91688698643E-01 -9.14510533037E-02
2.84500000000E+09 +5.32962212849E-01 -2.57471484681E-01 -3.37749667779E-03 -1.23903526087E-03 -3.34248327008E-03 -1.26197994765E-03 +6.78232656817E-01 -1.12554555415E-01
2.85000000000E+09 +5.07402878369E-01 -2.76839389242E-01 -3.78195908874E-03 -6.67334145083E-04 -3.79049233301E-03 -6.99722365578E-04 +6.64043721224E-01 -1.32643886619E-01
2.85500000000E+09 +4.80215362449E-01 -2.95668982689E-01 -3.90456460260E-03 -1.47111784728E-04 -3.78348047127E-03 -8.87001883364E-05 +6.48651410825E-01 -1.52658819409E-01
2.86000000000E+09 +4.53506691946E-01 -3.11746008384E-01 -3.77525916450E-03 +4.43857843575E-04 -3.68565557153E-03 +3.53487721546E-04 +6.32939123322E-01 -1.72605676707E-01
2.86500000000E+09 +4.29110629084E-01 -3.25770682387E-01 -3.72406325772E-03 +3.86632893418E-04 -3.70718056578E-03 +2.72250202429E-04 +6.15299942033E-01 -1.93210364150E-01
2.87000000000E+09 +4.05412439828E-01 -3.38919657863E-01 -4.04581009935E-03 +1.30817295242E-03 -4.06470078771E-03 +1.28723345975E-03 +5.95897065376E-01 -2.12914120288E-01
2.87500000000E+09 +3.81285492316E-01 -3.49851842866E-01 -3.26562223080E-03 +1.38930481337E-03 -3.30372502871E-03 +1.47777672271E-03 +5.75158180729E-01 -2.31430384060E-01
2.88000000000E+09 +3.56323127704E-01 -3.59077894847E-01 -3.82123271189E-03 +1.41872157853E-03 -3.64058011526E-03 +1.47660029052E-03 +5.54672578314E-01 -2.48955629329E-01
2.88500000000E+09 +3.28291799242E-01 -3.65737137927E-01 -3.71451827092E-03 +2.32566101079E-03 -3.49859833167E-03 +2.18324027346E-03 +5.32750187331E-01 -2.67818388616E-01
2.89000000000E+09 +2.98582944934E-01 -3.69195008842E-01 -3.60862305242E-03 +2.66822361677E-03 -3.50018452959E-03 +2.46358941266E-03 +5.08206917859E-01 -2.85558949199E-01
2.89500000000E+09 +2.67783578575E-01 -3.71459129487E-01 -3.44217393263E-03 +3.18475031309E-03 -3.51421333382E-03 +2.96602876011E-03 +4.82374835960E-01 -3.02623943471E-01
2.90000000000E+09 +2.34915935714E-01 -3.72900904665E-01 -2.93725782651E-03 +4.05762744813E-03 -3.12136389447E-03 +3.92193316105E-03 +4.55106543931E-01 -3.19578514487E-01
2.90500000000E+09 +1.99916564063E-01 -3.73716391596E-01 -2.45918317542E-03 +4.32417907926E-03 -2.52216103740E-03 +4.39661306942E-03 +4.26397991556E-01 -3.35244476612E-01
2.91000000000E+09 +1.64247341022E-01 -3.72755281637E-01 -1.61821186433E-03 +4.86922717754E-03 -1.47898525907E-03 +4.97500087897E-03 +3.96785537599E-01 -3.50954660316E-01
2.91500000000E+09 +1.28580657813E-01 -3.70345425308E-01 -8.27424032438E-04 +4.88341747612E-03 -7.04916630501E-04 +4.67799384140E-03 +3.64058757297E-01 -3.64018440168E-01
2.92000000000E+09 +9.33129258697E-02 -3.66186307392E-01 -1.80386866488E-04 +4.76889733297E-03 -1.79651268207E-04 +4.50868705031E-03 +3.30037479598E-01 -3.74730325215E-01
2.92500000000E+09 +6.00524753957E-02 -3.58237490150E-01 +2.25472885281E-04 +4.52844339931E-03 -3.58310834624E-07 +4.31024078421E-03 +2.94703226660E-01 -3.82297896964E-01
2.93000000000E+09 +2.92648666830E-02 -3.48999639612E-01 +4.87766919891E-04 +4.51561692262E-03 +2.23324575242E-04 +4.39993688926E-03 +2.58733525439E-01 -3.89345162102E-01
2.93500000000E+09 -5.41070767871E-04 -3.37572382581E-01 +9.93948742487E-04 +4.63399649212E-03 +7.99588794089E-04 +4.65637534617E-03 +2.20266336403E-01 -3.95420219804E-01
2.94000000000E+09 -2.96936325427E-02 -3.23368225359E-01 +1.51017552176E-03 +4.31064390005E-03 +1.41550786983E-03 +4.34351609888E-03 +1.78696473611E-01 -3.98015493311E-01
2.94500000000E+09 -5.85512213915E-02 -3.07250313321E-01 +1.67590987313E-03 +4.78498626789E-03 +1.58276394138E-03 +4.73741818754E-03 +1.39696547112E-01 -3.96551311233E-01
2.95000000000E+09 -8.87157368404E-02 -2.87523370858E-01 +3.06342587739E-03 +4.41639750222E-03 +2.87908551502E-03 +4.54765665003E-03 +1.00184406923E-01 -3.94028463068E-01
2.95500000000E+09 -1.17059711395E-01 -2.63984874259E-01 +3.43610133029E-03 +3.68092023544E-03 +3.31084316634E-03 +3.86503374612E-03 +6.04695749114E-02 -3.88772252350E-01
2.96000000000E+09 -1.44381332620E-01 -2.40021366246E-01 +3.53479863324E-03 +2.74592556211E-03 +3.66129758705E-03 +2.90916181821E-03 +1.94998245140E-02 -3.80380199190E-01
2.96500000000E+09 -1.70979397104E-01 -2.13327881721E-01 +3.11496497357E-03 +2.67537411363E-03 +3.33522684447E-03 +2.71194733651E-03 -2.10792241291E-02 -3.67563686170E-01
2.97000000000E+09 -1.93867777588E-01 -1.85889686329E-01 +3.35079755966E-03 +2.96630954624E-03 +3.47762761328E-03 +2.88400830686E-03 -6.01831025979E-02 -3.52317999144E-01
2.97500000000E+09 -2.15476761975E-01 -1.59348467217E-01 +4.26773169380E-03 +3.28438526203E-03 +4.18996659830E-03 +3.14867635189E-03 -9.83517536463E-02 -3.35999381077E-01
2.98000000000E+09 -2.36764595605E-01 -1.31006133254E-01 +5.48372354487E-03 +2.47585121156E-03 +5.31254727917E-03 +2.61823487939E-03 -1.36462713762E-01 -3.16904869035E-01
2.98500000000E+09 -2.54416154672E-01 -1.00779572851E-01 +5.67983635091E-03 +1.09785128487E-03 +5.75197296268E-03 +1.35192756261E-03 -1.73186727820E-01 -2.95013433022E-01
2.99000000000E+09 -2.69569393277E-01 -6.98496024704E-02 +5.41970290976E-03 +3.85690919320E-04 +5.66195328736E-03 +4.41663408610E-04 -2.08566569965E-01 -2.69044886300E-01
2.99500000000E+09 -2.82483693119E-01 -3.90171363310E-02 +5.37687922665E-03 +3.02740061792E-05 +5.54888283237E-03 -1.35902240022E-04 -2.41063891313E-01 -2.40471260023E-01
3.00000000000E+09 -2.94943255137E-01 -7.07779515562E-03 +5.77705252512E-03 -6.26101482483E-04 +5.67195803140E-03 -8.68867631181E-04 -2.72371916677E-01 -2.09665933258E-01
3.00500000000E+09 -3.04735861331E-01 +2.56327079029E-02 +5.84153582946E-03 -1.36779668803E-03 +5.58171269238E-03 -1.45911325857E-03 -3.01758670615E-01 -1.77031210909E-01
3.01000000000E+09 -3.12723226360E-01 +5.73149039832E-02 +5.46306254223E-03 -2.65070528401E-03 +5.27255680479E-03 -2.44969985460E-03 -3.28316720725E-01 -1.41591442990E-01
3.01500000000E+09 -3.19488898344E-01 +8.94822702392E-02 +4.76772058656E-03 -3.17133533210E-03 +4.85291419398E-03 -2.93189458542E-03 -3.51973671922E-01 -1.06308241891E-01
3.02000000000E+09 -3.22254636901E-01 +1.20305371773E-01 +4.38542941450E-03 -3.62385277779E-03 +4.68056034472E-03 -3.55596540087E-03 -3.72880435732E-01 -6.92882439651E-02
3.02500000000E+09 -3.22915183651E-01 +1.49073764969E-01 +4.02133621366E-03 -4.21411367738E-03 +4.13688524484E-03 -4.17922941701E-03 -3.90707806789E-01 -3.16594750424E-02
3.03000000000E+09 -3.21646062174E-01 +1.76437239640E-01 +3.27625197934E-03 -4.79134423738E-03 +3.32766175108E-03 -4.88134898120E-03 -4.06079199956E-01 +7.99749199084E-03
3.03500000000E+09 -3.18018968836E-01 +2.03834210312E-01 +2.47030134367E-03 -4.95759267527E-03 +2.47565701895E-03 -4.92565779870E-03 -4.18205089754E-01 +4.85261478836E-02
3.04000000000E+09 -3.11044722429E-01 +2.31723899612E-01 +1.77831606301E-03 -5.33846315416E-03 +1.97348511631E-03 -5.46871878582E-03 -4.25570158530E-01 +8.90086903983E-02
3.04500000000E+09 -3.01590133032E-01 +2.58705984734E-01 +9.34178765863E-04 -4.72415654910E-03 +9.93677293119E-04 -5.01409096188E-03 -4.31844577341E-01 +1.27798237377E-01
3.05000000000E+09 -2.90171697983E-01 +2.87676478854E-01 +9.12176130161E-04 -4.80010277603E-03 +8.36685828918E-04 -5.12013307055E-03 -4.35979042814E-01 +1.66178641721E-01
3.05500000000E+09 -2.76244199208E-01 +3.15348057764E-01 +5.37890398501E-04 -5.13289644596E-03 +2.25989656728E-04 -5.22267879090E-03 -4.38159577524E-01 +2.05435259899E-01
3.06000000000E+09 -2.62439578865E-01 +3.42363613175E-01 -1.47496177896E-04 -5.49705833340E-03 -3.15029191656E-04 -5.31689423368E-03 -4.36760553216E-01 +2.43842848468E-01
3.06500000000E+09 -2.48328890840E-01 +3.68742328970E-01 -1.10773183017E-03 -5.69576744692E-03 -1.01666336902E-03 -5.42283573793E-03 -4.32849907705E-01 +2.80938895700E-01
3.07000000000E+09 -2.35542457804E-01 +3.93292270820E-01 -2.44265525319E-03 -5.17360464548E-03 -2.08631551808E-03 -5.19709789454E-03 -4.27261394660E-01 +3.17516473031E-01
