# Hz S RI R 50
! CMT, C1220, 16058040, 17.2.0/1
! Date: 15/08/2018 10:07:06
! Data: Format (Calibration Info)
! Freq                      S11: Re/Im (F2)                       S21: Re/Im (F2)                       S12: Re/Im (F2)                       S22: Re/Im (F2)            
2.50000000000E+09 +5.99216828691E-01 +6.32381087715E-01 -5.36647091949E-04 -1.23087394684E-04 -6.17912838857E-04 -1.87597673901E-04 +5.72850341886E-01 +7.17378260091E-01
2.50500000000E+09 +6.05509599864E-01 +6.24764197132E-01 -5.02922929198E-04 -1.29707485519E-04 -5.36754042874E-04 -1.17210360623E-04 +5.78486648097E-01 +7.11906793809E-01
2.51000000000E+09 +6.12123173550E-01 +6.16618038598E-01 -4.98789605273E-04 -9.95927618205E-05 -5.04235969472E-04 -4.61678240250E-05 +5.84252696608E-01 +7.06578048869E-01
2.51500000000E+09 +6.18380354619E-01 +6.08524723808E-01 -5.20971599322E-04 -5.00566536795E-05 -5.15677636316E-04 -8.21661709568E-05 +5.89452432504E-01 +7.01201400498E-01
2.52000000000E+09 +6.24116825525E-01 +6.00359280142E-01 -6.01295741921E-04 -6.51325148493E-05 -5.90150796166E-04 -4.67348223301E-05 +5.94709876634E-01 +6.95253362491E-01
2.52500000000E+09 +6.28854786055E-01 +5.92776095717E-01 -6.44161272504E-04 +1.01867962263E-04 -6.57873304081E-04 +2.96290138268E-05 +6.00454180020E-01 +6.88773764758E-01
2.53000000000E+09 +6.33508197368E-01 +5.85805962997E-01 -5.71420973225E-04 +2.06302837738E-04 -6.23657163834E-04 +1.70803157154E-04 +6.06566836532E-01 +6.81553085932E-01
2.53500000000E+09 +6.37604947336E-01 +5.79343758869E-01 -5.49466687598E-04 +2.80790560615E-04 -5.43695739959E-04 +2.34658187268E-04 +6.12616757196E-01 +6.74834833515E-01
2.54000000000E+09 +6.41652349032E-01 +5.73227398746E-01 -4.64800874979E-04 +2.13362595134E-04 -5.01517297015E-04 +2.04670222504E-04 +6.18701213536E-01 +6.67985603146E-01
2.54500000000E+09 +6.45981879597E-01 +5.67336763327E-01 -5.83937640079E-04 +3.04505104338E-04 -5.48532535282E-04 +2.55472951747E-04 +6.24427719062E-01 +6.61451869175E-01
2.55000000000E+09 +6.50738008909E-01 +5.61215647792E-01 -4.41885651154E-04 +4.02421971685E-04 -4.90382184764E-04 +3.63471466463E-04 +6.29797162475E-01 +6.55156120749E-01
2.55500000000E+09 +6.56002528436E-01 +5.54275868457E-01 -4.69016191246E-04 +4.03471124256E-04 -5.57682624104E-04 +4.17020277606E-04 +6.34894848129E-01 +6.48549161216E-01
2.56000000000E+09 +6.61851797701E-01 +5.47274296460E-01 -3.37882921114E-04 +4.24074358789E-04 -4.14530214005E-04 +4.97674959080E-04 +6.40111145664E-01 +6.41322616722E-01
2.56500000000E+09 +6.68112474296E-01 +5.39161987950E-01 -3.10581451708E-04 +3.55899638400E-04 -2.37264511274E-04 +4.78705878619E-04 +6.45639694481E-01 +6.33769910467E-01
2.57000000000E+09 +6.74306918582E-01 +5.30613366145E-01 -4.32244172408E-04 +3.17253604315E-04 -3.36178397959E-04 +4.27681664791E-04 +6.51057577403E-01 +6.25589094886E-01
2.57500000000E+09 +6.80352455173E-01 +5.21585498165E-01 -5.41534186281E-04 +5.34465822051E-04 -3.88693278028E-04 +5.07248122235E-04 +6.56556529093E-01 +6.17751252476E-01
2.58000000000E+09 +6.85346872547E-01 +5.12705662678E-01 -3.23263933420E-04 +7.27003480306E-04 -2.93249060662E-04 +6.26089910829E-04 +6.61499610450E-01 +6.10087679348E-01
2.58500000000E+09 +6.90107755028E-01 +5.03927547555E-01 -2.01587373893E-04 +7.30224886189E-04 -1.76108831737E-04 +6.02636705915E-04 +6.66277482359E-01 +6.02528280014E-01
2.59000000000E+09 +6.94393857034E-01 +4.95362082981E-01 -1.01074668176E-04 +6.87994770753E-04 -1.58798580313E-04 +6.66612967416E-04 +6.71006553355E-01 +5.94948256166E-01
2.59500000000E+09 +6.98442366928E-01 +4.87106287881E-01 -6.12872229413E-05 +6.65172538610E-04 -1.04745900338E-04 +5.81594936855E-04 +6.75683494656E-01 +5.86937018525E-01
2.60000000000E+09 +7.02316032050E-01 +4.78545272370E-01 -5.54642162362E-05 +6.40825787240E-04 -8.01341028299E-05 +6.88958761347E-04 +6.80579356786E-01 +5.78407281067E-01
2.60500000000E+09 +7.06565568695E-01 +4.69286782173E-01 -1.20803960482E-04 +7.41650956642E-04 -1.25045129706E-04 +7.62066789898E-04 +6.85703418262E-01 +5.69379434135E-01
2.61000000000E+09 +7.10849694668E-01 +4.59201952270E-01 +1.07423085257E-04 +9.14004133163E-04 +7.87530189790E-05 +9.46702907732E-04 +6.90331741023E-01 +5.60639469733E-01
2.61500000000E+09 +7.15248252358E-01 +4.48250578711E-01 +4.09532766583E-04 +7.89401974036E-04 +3.43545264976E-04 +8.21618976528E-04 +6.95295219766E-01 +5.52048086843E-01
2.62000000000E+09 +7.19512053366E-01 +4.36046085515E-01 +3.73419283439E-04 +6.19843902382E-04 +4.09152152894E-04 +6.53284722705E-04 +6.99904162402E-01 +5.43028107007E-01
2.62500000000E+09 +7.23534854434E-01 +4.22952278621E-01 +3.54123220142E-04 +5.14931683422E-04 +3.74974118770E-04 +4.83686760433E-04 +7.04531553157E-01 +5.34432429465E-01
2.63000000000E+09 +7.27089099264E-01 +4.09602963613E-01 +3.40208763784E-04 +5.61933031613E-04 +4.04841771555E-04 +5.03980986429E-04 +7.09450190686E-01 +5.25363943292E-01
2.63500000000E+09 +7.30085936255E-01 +3.96313865237E-01 +4.20455274766E-04 +5.47362031595E-04 +3.77524873846E-04 +4.47326101717E-04 +7.14096894904E-01 +5.15805281209E-01
2.64000000000E+09 +7.32670101533E-01 +3.83500101291E-01 +4.78566026656E-04 +6.10856944269E-04 +4.39768551166E-04 +5.05026634343E-04 +7.18571436547E-01 +5.06118414792E-01
2.64500000000E+09 +7.35390323325E-01 +3.71192084566E-01 +7.00221123344E-04 +5.26628462760E-04 +5.60707468583E-04 +4.61620902332E-04 +7.23020798418E-01 +4.96469961320E-01
2.65000000000E+09 +7.37670790907E-01 +3.59413381158E-01 +5.99987208744E-04 +4.15502590663E-04 +5.15829335494E-04 +4.00088653097E-04 +7.27014426752E-01 +4.86650531350E-01
2.65500000000E+09 +7.39754625605E-01 +3.47591901102E-01 +5.37513256779E-04 +3.22700019581E-04 +5.15271302202E-04 +3.70494580121E-04 +7.31374979083E-01 +4.76600234749E-01
2.66000000000E+09 +7.41968764106E-01 +3.35846190708E-01 +5.90917835520E-04 +3.32470415395E-04 +6.71551919170E-04 +3.62045216757E-04 +7.35648797221E-01 +4.65306749907E-01
2.66500000000E+09 +7.44067012989E-01 +3.24194390655E-01 +5.38773953816E-04 +3.49377963858E-04 +5.61266577983E-04 +3.59728064975E-04 +7.39734455867E-01 +4.54016655908E-01
2.67000000000E+09 +7.46054382573E-01 +3.11587746718E-01 +6.72308612809E-04 +4.30269326899E-04 +7.26469639576E-04 +4.23267485623E-04 +7.43957645199E-01 +4.42996342188E-01
2.67500000000E+09 +7.47392671322E-01 +2.98078992741E-01 +9.02712496283E-04 +2.92442406544E-04 +8.39277435650E-04 +1.80714428994E-04 +7.47711151340E-01 +4.31841594182E-01
2.68000000000E+09 +7.47891122251E-01 +2.84370940852E-01 +8.10364100552E-04 +1.24113754385E-04 +7.71307797572E-04 +1.37629802361E-04 +7.51337719396E-01 +4.20879056838E-01
2.68500000000E+09 +7.48032374715E-01 +2.70420670905E-01 +8.48888277119E-04 +1.37345689547E-04 +8.31453284121E-04 +2.12544356097E-04 +7.54329947380E-01 +4.09593723648E-01
2.69000000000E+09 +7.47589321337E-01 +2.56611011041E-01 +9.77362896555E-04 +8.54246793370E-05 +9.00563453818E-04 +1.35464350240E-04 +7.57130367295E-01 +3.97619041126E-01
2.69500000000E+09 +7.47097142841E-01 +2.43432857787E-01 +1.03640460854E-03 +2.79961090847E-05 +1.02195601221E-03 +1.05263620745E-05 +7.59736967514E-01 +3.84843261820E-01
2.70000000000E+09 +7.47010389815E-01 +2.30351480659E-01 +1.15081343011E-03 -8.07730963174E-05 +1.05356545544E-03 -5.85414843801E-05 +7.62456068732E-01 +3.71690190956E-01
2.70500000000E+09 +7.47019938443E-01 +2.17466460641E-01 +1.21274760022E-03 -4.16707666014E-04 +1.23670327446E-03 -3.63551872619E-04 +7.65307359083E-01 +3.58408354538E-01
2.71000000000E+09 +7.47387208784E-01 +2.04623480455E-01 +1.03321652612E-03 -6.24523030555E-04 +1.10272676566E-03 -5.53737422519E-04 +7.68218855513E-01 +3.45155843157E-01
2.71500000000E+09 +7.48449834902E-01 +1.91227392268E-01 +9.94705002171E-04 -6.86602845769E-04 +1.06494460236E-03 -7.44001105650E-04 +7.70439129544E-01 +3.32748303496E-01
2.72000000000E+09 +7.49364989696E-01 +1.76996805092E-01 +9.06230121384E-04 -8.56704537561E-04 +9.02014144757E-04 -9.91991328862E-04 +7.72415742022E-01 +3.19904976797E-01
2.72500000000E+09 +7.49993683389E-01 +1.61648060435E-01 +6.74642490401E-04 -9.73972506299E-04 +5.53196475308E-04 -1.07028732705E-03 +7.73477475855E-01 +3.06819147865E-01
2.73000000000E+09 +7.49387483008E-01 +1.45188599173E-01 +4.88010014389E-04 -8.88667267682E-04 +4.19970797187E-04 -8.67681902845E-04 +7.74920904142E-01 +2.93285544428E-01
2.73500000000E+09 +7.47262635897E-01 +1.27898130928E-01 +5.19751874654E-04 -9.21575832226E-04 +3.98338392646E-04 -7.83149644840E-04 +7.76380973698E-01 +2.78174374613E-01
2.74000000000E+09 +7.44020705739E-01 +1.11423284667E-01 +5.57516073277E-04 -1.00588043573E-03 +5.14672034279E-04 -9.12987060384E-04 +7.77567342449E-01 +2.63004073723E-01
2.74500000000E+09 +7.40210991992E-01 +9.50608276389E-02 +3.68088717645E-04 -1.23849111775E-03 +4.81576811650E-04 -1.11814707351E-03 +7.78474667276E-01 +2.47981574454E-01
2.75000000000E+09 +7.35669033869E-01 +7.87591048813E-02 +1.48335522508E-05 -1.19331084275E-03 +1.40501778509E-04 -1.26652145598E-03 +7.79265498241E-01 +2.33293196681E-01
2.75500000000E+09 +7.30708372579E-01 +6.28095286354E-02 -3.09389283597E-05 -1.02201080700E-03 +3.62432540806E-05 -1.07848861125E-03 +7.79503249448E-01 +2.18320919174E-01
2.76000000000E+09 +7.25971819050E-01 +4.69953872623E-02 +5.33472930190E-05 -9.92265745159E-04 +3.74353757420E-05 -1.06422548399E-03 +7.79315124844E-01 +2.02666644657E-01
2.76500000000E+09 +7.21222096459E-01 +3.09445680234E-02 -9.48153367944E-06 -1.11966508516E-03 +1.55153421072E-05 -1.18055336237E-03 +7.77969572044E-01 +1.85649204175E-01
2.77000000000E+09 +7.17069079096E-01 +1.40309160150E-02 -1.54718391267E-04 -1.18265236215E-03 -1.67896324749E-04 -1.17059072888E-03 +7.76444012179E-01 +1.68743412928E-01
2.77500000000E+09 +7.12656773320E-01 -4.21878241857E-03 -3.90314400912E-04 -1.21158750298E-03 -4.04976689029E-04 -1.27538229681E-03 +7.74966945278E-01 +1.50700836104E-01
2.78000000000E+09 +7.07731062551E-01 -2.37371548092E-02 -6.03604224195E-04 -1.13187698338E-03 -6.81183686127E-04 -1.11564516398E-03 +7.72895443489E-01 +1.32816984417E-01
2.78500000000E+09 +7.01161556190E-01 -4.42532904148E-02 -6.20537196474E-04 -7.66388836212E-04 -6.31136427791E-04 -7.40026090646E-04 +7.70632871643E-01 +1.15224014756E-01
2.79000000000E+09 +6.93528495751E-01 -6.51710560183E-02 -3.66355966665E-04 -8.83682056728E-04 -3.68167103397E-04 -8.45699059465E-04 +7.67722359806E-01 +9.76720811360E-02
2.79500000000E+09 +6.84588325323E-01 -8.55161665766E-02 -6.87707362721E-04 -1.11698173180E-03 -6.61217350533E-04 -1.05198679566E-03 +7.63331903950E-01 +7.98728682702E-02
2.80000000000E+09 +6.74569091221E-01 -1.05439374392E-01 -7.55476951517E-04 -8.81721764245E-04 -6.92001909802E-04 -8.53690683422E-04 +7.58716121024E-01 +6.17671016052E-02
2.80500000000E+09 +6.63545523037E-01 -1.24499310071E-01 -8.93054409818E-04 -1.16377384204E-03 -8.87480510310E-04 -1.15565529900E-03 +7.53210712320E-01 +4.25351625851E-02
2.81000000000E+09 +6.51504949992E-01 -1.42448209565E-01 -1.27437081556E-03 -8.64041892574E-04 -1.33697518959E-03 -9.46620337969E-04 +7.46656234205E-01 +2.31668954418E-02
2.81500000000E+09 +6.38572764699E-01 -1.59511861809E-01 -1.25800604550E-03 -4.42644023801E-04 -1.32862320393E-03 -4.38975149935E-04 +7.39918682347E-01 +3.92854688332E-03
2.82000000000E+09 +6.25134892711E-01 -1.75798470627E-01 -1.21345699587E-03 -5.87485566662E-04 -1.22547416942E-03 -5.60895419695E-04 +7.32587603784E-01 -1.58772908914E-02
2.82500000000E+09 +6.10875210952E-01 -1.91954459378E-01 -1.71958157049E-03 -4.96519213933E-04 -1.65488022879E-03 -4.14332725300E-04 +7.24195908778E-01 -3.57164667108E-02
2.83000000000E+09 +5.95492173853E-01 -2.09646959079E-01 -1.61093587208E-03 +3.21801139781E-04 -1.54872804446E-03 +3.14147524190E-04 +7.15014845352E-01 -5.54443160670E-02
2.83500000000E+09 +5.77428352987E-01 -2.27861438029E-01 -1.11969695088E-03 +3.15430888143E-04 -1.12960159156E-03 +2.96857020220E-04 +7.05279727070E-01 -7.59495013642E-02
2.84000000000E+09 +5.56851612049E-01 -2.45486177496E-01 -1.07321911767E-03 +3.86850344476E-04 -1.11593080086E-03 +3.37846190035E-04 +6.93665010162E-01 -9.71752450177E-02
2.84500000000E+09 +5.34905367146E-01 -2.62933368851E-01 -9.32633582891E-04 +3.24280692210E-04 -9.88088770284E-04 +3.44496172824E-04 +6.81030269558E-01 -1.17688888699E-01
2.85000000000E+09 +5.11451080889E-01 -2.80035173677E-01 -1.19738162343E-03 +4.06521757116E-04 -1.16508058571E-03 +4.17131520933E-04 +6.67813060662E-01 -1.38729718169E-01
2.85500000000E+09 +4.87509855169E-01 -2.96629927006E-01 -1.02794512488E-03 +8.16012028437E-04 -9.80083173525E-04 +7.26383869528E-04 +6.53014646329E-01 -1.60111883731E-01
2.86000000000E+09 +4.62470567867E-01 -3.13111696713E-01 -3.70691110636E-04 +7.35513528090E-04 -3.82045822760E-04 +6.97763934970E-04 +6.36264909350E-01 -1.81068641700E-01
2.86500000000E+09 +4.36433359721E-01 -3.28287642555E-01 -5.74764238365E-04 +4.46981404508E-05 -5.88416833730E-04 +5.57762515528E-05 +6.18103024257E-01 -2.01259239565E-01
2.87000000000E+09 +4.10442071223E-01 -3.41322357029E-01 -8.82860311673E-04 +5.11884760645E-04 -8.52458011155E-04 +5.50466447440E-04 +5.99398088121E-01 -2.20738885032E-01
2.87500000000E+09 +3.85786412124E-01 -3.53265159550E-01 -7.39739968033E-04 +3.90927036273E-04 -7.77878744275E-04 +3.80013116891E-04 +5.80272968820E-01 -2.40910873575E-01
2.88000000000E+09 +3.60130039833E-01 -3.65459484003E-01 -9.47599985843E-04 +5.10050302610E-04 -9.03978841505E-04 +5.49137098362E-04 +5.58507781231E-01 -2.61343652430E-01
2.88500000000E+09 +3.33583324538E-01 -3.75772386965E-01 -6.19734191738E-04 +8.20364864972E-04 -5.48382679272E-04 +7.76091918349E-04 +5.34331395555E-01 -2.80020785843E-01
2.89000000000E+09 +3.05704157915E-01 -3.85158328763E-01 -5.74517121411E-04 +2.42631784901E-04 -5.30874625706E-04 +2.86005327966E-04 +5.09256613080E-01 -2.97749585484E-01
2.89500000000E+09 +2.75500175199E-01 -3.92498049473E-01 -1.19873267138E-03 +4.16247422058E-04 -1.19411439487E-03 +3.32024388129E-04 +4.81234065964E-01 -3.15373327330E-01
2.90000000000E+09 +2.43935704962E-01 -3.96961060015E-01 -1.24946280187E-03 +1.02108921642E-03 -1.32003426007E-03 +1.01846195035E-03 +4.52559413101E-01 -3.30780422509E-01
2.90500000000E+09 +2.11364790412E-01 -3.99040653817E-01 -8.33397239959E-04 +1.40138009028E-03 -8.56887608752E-04 +1.37357731723E-03 +4.23250418167E-01 -3.46557983865E-01
2.91000000000E+09 +1.77631784941E-01 -3.99569229494E-01 -2.12957195092E-04 +1.17803007722E-03 -1.86500667034E-04 +1.14345541341E-03 +3.91515523724E-01 -3.61054629319E-01
2.91500000000E+09 +1.42884526855E-01 -3.97465932759E-01 -8.53057827520E-04 +5.04247707108E-04 -8.66380751343E-04 +5.16239454481E-04 +3.58558156306E-01 -3.72480765196E-01
2.92000000000E+09 +1.07566189701E-01 -3.92551103084E-01 -1.23595741487E-03 +1.58218745925E-03 -1.20557971333E-03 +1.52362254130E-03 +3.25654715213E-01 -3.82338609694E-01
2.92500000000E+09 +7.28717575687E-02 -3.86320382339E-01 -5.80603464809E-04 +1.94686665744E-03 -6.36320436916E-04 +1.83087394184E-03 +2.89478439656E-01 -3.90793590623E-01
2.93000000000E+09 +3.80121633081E-02 -3.77995761508E-01 -1.67029440307E-04 +1.94746593313E-03 -2.36491593646E-04 +1.90285665016E-03 +2.52080070653E-01 -3.96943736920E-01
2.93500000000E+09 +3.06296522656E-03 -3.67971961299E-01 +3.04697463230E-04 +1.90360145931E-03 +2.83419400620E-04 +1.92364987267E-03 +2.12818546810E-01 -4.01272664798E-01
2.94000000000E+09 -3.15415137820E-02 -3.54884988685E-01 +8.46678740184E-05 +1.22717219545E-03 +2.68866400325E-05 +1.22335182063E-03 +1.72763489071E-01 -4.01955407650E-01
2.94500000000E+09 -6.49809851700E-02 -3.39057171968E-01 -4.25704735079E-04 +2.14833688124E-03 -3.57824582044E-04 +2.18062018300E-03 +1.34875821129E-01 -4.01480608152E-01
2.95000000000E+09 -9.67622298376E-02 -3.21018750605E-01 +9.40036841129E-04 +2.43516245863E-03 +7.61799882872E-04 +2.47727925112E-03 +9.47186093650E-02 -4.00165507147E-01
2.95500000000E+09 -1.27388939406E-01 -3.00641676089E-01 +1.20803467654E-03 +1.76287359376E-03 +1.13756923223E-03 +1.79675552872E-03 +5.31924794646E-02 -3.93345751995E-01
2.96000000000E+09 -1.57255600347E-01 -2.77692191710E-01 +9.59862691577E-04 +1.50814173951E-03 +9.67097385549E-04 +1.58140734131E-03 +1.27502092001E-02 -3.82956749916E-01
2.96500000000E+09 -1.85907259394E-01 -2.51523133217E-01 +1.17015756256E-03 +1.68196491828E-03 +1.20155287197E-03 +1.64795586141E-03 -2.75981602855E-02 -3.69173943620E-01
2.97000000000E+09 -2.12057292704E-01 -2.21574581329E-01 +1.19787689229E-03 +1.66619169828E-03 +1.25560568109E-03 +1.58647781557E-03 -6.63885502143E-02 -3.53927467953E-01
2.97500000000E+09 -2.34498261605E-01 -1.90297180524E-01 +1.51572377568E-03 +2.02647732809E-03 +1.47198117041E-03 +2.01905351158E-03 -1.05878859568E-01 -3.36957288825E-01
2.98000000000E+09 -2.54925710289E-01 -1.59332837469E-01 +2.24589139253E-03 +1.84996348578E-03 +2.14265582346E-03 +1.82671598872E-03 -1.44127742344E-01 -3.16097472793E-01
2.98500000000E+09 -2.75311968202E-01 -1.27790639122E-01 +2.81811056519E-03 +1.21915010480E-03 +2.79559560397E-03 +1.39820314378E-03 -1.80540062433E-01 -2.91587517262E-01
2.99000000000E+09 -2.93973865218E-01 -9.41310989550E-02 +2.62625386484E-03 +3.94006285202E-04 +2.79257277060E-03 +4.98181981132E-04 -2.13158390507E-01 -2.65503093759E-01
2.99500000000E+09 -3.09593414653E-01 -5.97141869032E-02 +2.37448403820E-03 +5.83913217475E-04 +2.39605257800E-03 +5.49291770282E-04 -2.46214889240E-01 -2.37630317577E-01
3.00000000000E+09 -3.22996408851E-01 -2.52829165023E-02 +2.87135252700E-03 +7.74003348723E-04 +2.87474270434E-03 +6.53170247635E-04 -2.77758373042E-01 -2.05925158549E-01
3.00500000000E+09 -3.33273845992E-01 +8.23512177057E-03 +3.68881950153E-03 +1.66239607921E-04 +3.60230225129E-03 +8.91391058582E-05 -3.06264308800E-01 -1.71747326005E-01
3.01000000000E+09 -3.41272590667E-01 +4.07228895948E-02 +3.70669343407E-03 -1.29018776214E-03 +3.56036401388E-03 -1.18809466995E-03 -3.32517014810E-01 -1.36151181317E-01
3.01500000000E+09 -3.47648892842E-01 +7.30883855940E-02 +3.01133570376E-03 -1.98714414036E-03 +3.03883379911E-03 -1.84317063934E-03 -3.54220591966E-01 -9.91806835929E-02
3.02000000000E+09 -3.50479506233E-01 +1.05490208659E-01 +2.03170922546E-03 -2.33946177635E-03 +2.16106697490E-03 -2.28599136276E-03 -3.73099903849E-01 -6.29805969514E-02
3.02500000000E+09 -3.50027160652E-01 +1.37320437745E-01 +1.98272720697E-03 -1.71909726392E-03 +2.02248148125E-03 -1.75322184786E-03 -3.90651506065E-01 -2.49488915476E-02
3.03000000000E+09 -3.46543141502E-01 +1.68416540119E-01 +2.09342665066E-03 -2.27630286881E-03 +2.13642366265E-03 -2.26231707039E-03 -4.05050518430E-01 +1.56901893966E-02
3.03500000000E+09 -3.40118586717E-01 +1.97976367730E-01 +1.80879418189E-03 -3.12559608273E-03 +1.81307773932E-03 -3.07433864356E-03 -4.14666749141E-01 +5.57641396275E-02
3.04000000000E+09 -3.32385845713E-01 +2.27280415739E-01 +3.33863528822E-04 -3.32276867903E-03 +4.02816079211E-04 -3.38853772889E-03 -4.22556690590E-01 +9.53482793592E-02
3.04500000000E+09 -3.22916208398E-01 +2.55915832379E-01 -7.10744660345E-05 -2.22227911434E-03 -5.39898604235E-05 -2.32156679186E-03 -4.28005864988E-01 +1.34772087788E-01
3.05000000000E+09 -3.11677170050E-01 +2.84844883167E-01 +3.86043618046E-04 -2.09502046525E-03 +3.27829668044E-04 -2.16253526498E-03 -4.31351201641E-01 +1.74101762842E-01
3.05500000000E+09 -2.98354126300E-01 +3.13103021996E-01 +5.95353469888E-04 -2.52929968373E-03 +4.08729845086E-04 -2.58956736899E-03 -4.30775151574E-01 +2.13527285647E-01
3.06000000000E+09 -2.83764457332E-01 +3.39227760336E-01 -1.40913019859E-04 -3.23694720644E-03 -2.88235974266E-04 -3.10250152718E-03 -4.27576277923E-01 +2.50327339115E-01
3.06500000000E+09 -2.69301467293E-01 +3.63885776614E-01 -1.36810155526E-03 -2.70214698919E-03 -1.28955649542E-03 -2.63691333424E-03 -4.23140388213E-01 +2.85865402874E-01
3.07000000000E+09 -2.54591646308E-01 +3.87626628445E-01 -1.45195362595E-03 -1.77051306113E-03 -1.35614458897E-03 -1.78241457973E-03 -4.18176861910E-01 +3.19973312781E-01
