# Hz S RI R 50
! CMT, C1220, 16058040, 17.2.0/1
! Date: 15/08/2018 10:53:35
! Data: Format (Calibration Info)
! Freq                      S11: Re/Im (F2)                       S21: Re/Im (F2)                       S12: Re/Im (F2)                       S22: Re/Im (F2)            
2.50000000000E+09 +5.79584172672E-01 +6.52337144707E-01 -1.21837139126E-03 +5.87926792833E-04 -1.38139040741E-03 +6.68715490818E-04 +5.61006625211E-01 +7.27402077981E-01
2.50500000000E+09 +5.87265427606E-01 +6.43145267911E-01 -1.14289580961E-03 +7.58219850114E-04 -1.14289538935E-03 +8.46074573090E-04 +5.66764427685E-01 +7.21725543464E-01
2.51000000000E+09 +5.95861815368E-01 +6.33797501765E-01 -1.03733274409E-03 +8.58739775419E-04 -1.03578894080E-03 +9.13533845304E-04 +5.72653535007E-01 +7.16261107455E-01
2.51500000000E+09 +6.04386082451E-01 +6.24989331607E-01 -9.66722158790E-04 +9.23084285402E-04 -9.66794411728E-04 +8.95644094420E-04 +5.78013068498E-01 +7.10712178263E-01
2.52000000000E+09 +6.12167646358E-01 +6.16857835869E-01 -8.45822547445E-04 +1.05129338271E-03 -8.59369888377E-04 +1.01708690990E-03 +5.83171158946E-01 +7.04424295160E-01
2.52500000000E+09 +6.18343652504E-01 +6.09869966499E-01 -7.35005544509E-04 +1.05404134087E-03 -7.78085106413E-04 +1.02349210374E-03 +5.88567807903E-01 +6.97984528413E-01
2.53000000000E+09 +6.23314722991E-01 +6.03835230349E-01 -6.77990683196E-04 +1.10393886752E-03 -7.34424344917E-04 +1.11388999150E-03 +5.94514040231E-01 +6.91369607860E-01
2.53500000000E+09 +6.26909643788E-01 +5.98582952966E-01 -6.96814592900E-04 +1.15705657407E-03 -7.70359239938E-04 +1.21458662224E-03 +6.00429360249E-01 +6.84779265231E-01
2.54000000000E+09 +6.29811009074E-01 +5.93044377922E-01 -5.47141798578E-04 +1.39451284097E-03 -5.60091539307E-04 +1.38228388480E-03 +6.06290003886E-01 +6.78322284417E-01
2.54500000000E+09 +6.32758871462E-01 +5.86951565963E-01 -3.63820550199E-04 +1.52353521091E-03 -4.44758029020E-04 +1.49673579770E-03 +6.12090593646E-01 +6.72159271682E-01
2.55000000000E+09 +6.36536911590E-01 +5.79884927330E-01 -4.66770445879E-05 +1.55531577844E-03 -1.70745400611E-04 +1.68346263621E-03 +6.17362320660E-01 +6.66144218959E-01
2.55500000000E+09 +6.41469269208E-01 +5.71195591694E-01 +1.59545465325E-04 +1.35070525329E-03 +8.40408079890E-05 +1.49069210723E-03 +6.22394723079E-01 +6.59768643622E-01
2.56000000000E+09 +6.48115450930E-01 +5.62084146697E-01 +1.01709789128E-04 +1.27533387320E-03 +2.19317407661E-04 +1.45126144962E-03 +6.27582710953E-01 +6.52919029966E-01
2.56500000000E+09 +6.56059193198E-01 +5.51726282741E-01 +1.24228537308E-04 +1.35042905542E-03 +3.78873069368E-04 +1.43132982943E-03 +6.32965083581E-01 +6.45835362117E-01
2.57000000000E+09 +6.64678992532E-01 +5.41247147727E-01 +2.15388061553E-04 +1.42216188804E-03 +5.28763852971E-04 +1.29630798105E-03 +6.38511590420E-01 +6.38256051794E-01
2.57500000000E+09 +6.72904835543E-01 +5.31076055165E-01 +4.51221112868E-04 +1.45945183932E-03 +5.89484446979E-04 +1.19660173164E-03 +6.44273783808E-01 +6.30669246987E-01
2.58000000000E+09 +6.79777576459E-01 +5.22227523848E-01 +6.64105610538E-04 +1.41723760096E-03 +6.43196561118E-04 +1.15796931870E-03 +6.49848400356E-01 +6.23294756034E-01
2.58500000000E+09 +6.85561372197E-01 +5.14101210506E-01 +8.29851130020E-04 +1.24798558965E-03 +7.08245472691E-04 +1.08581657690E-03 +6.54938651618E-01 +6.15497176332E-01
2.59000000000E+09 +6.89572561385E-01 +5.07005698443E-01 +8.34072100603E-04 +1.06599614056E-03 +7.16023115463E-04 +1.08668811383E-03 +6.59922029376E-01 +6.07888348161E-01
2.59500000000E+09 +6.92568288598E-01 +5.00069013293E-01 +9.49533565570E-04 +1.00718897817E-03 +8.58835051452E-04 +1.12176713321E-03 +6.64924727336E-01 +5.99857678852E-01
2.60000000000E+09 +6.94353076520E-01 +4.92159297527E-01 +1.05392413140E-03 +9.58543442343E-04 +1.04869446213E-03 +9.64916198765E-04 +6.70218883326E-01 +5.91595202026E-01
2.60500000000E+09 +6.96318132789E-01 +4.82692932540E-01 +1.09745953781E-03 +7.88397347697E-04 +1.08992886808E-03 +7.84380756924E-04 +6.75941647727E-01 +5.82954020368E-01
2.61000000000E+09 +6.98663298524E-01 +4.71174624177E-01 +1.10681520653E-03 +7.37183473497E-04 +1.07782703813E-03 +7.07403805275E-04 +6.81284404420E-01 +5.74004180244E-01
2.61500000000E+09 +7.02313302673E-01 +4.57527863025E-01 +1.16132434655E-03 +6.53262003823E-04 +1.12651261679E-03 +6.79738107815E-04 +6.86181852544E-01 +5.65227536708E-01
2.62000000000E+09 +7.06801195262E-01 +4.41732316448E-01 +1.15207955913E-03 +4.96034628524E-04 +1.25415745380E-03 +5.21559846517E-04 +6.90895000343E-01 +5.56366618235E-01
2.62500000000E+09 +7.12252889535E-01 +4.24915322661E-01 +1.16296884106E-03 +5.38377113160E-04 +1.26304455725E-03 +4.89097269905E-04 +6.95553984923E-01 +5.47750745570E-01
2.63000000000E+09 +7.17974604532E-01 +4.08031343696E-01 +1.31242629389E-03 +5.51966112884E-04 +1.34794859241E-03 +3.58539596260E-04 +7.00485806161E-01 +5.38704994302E-01
2.63500000000E+09 +7.23338764073E-01 +3.92238310078E-01 +1.46186409597E-03 +3.01552647110E-04 +1.27410320329E-03 +1.15256669400E-04 +7.05270180439E-01 +5.29395952017E-01
2.64000000000E+09 +7.27944559769E-01 +3.78090825372E-01 +1.37558737517E-03 +1.93190492915E-04 +1.20653832564E-03 +1.62552210639E-04 +7.09940831397E-01 +5.19768528976E-01
2.64500000000E+09 +7.31473370765E-01 +3.66291346443E-01 +1.35674831916E-03 +1.00082241688E-04 +1.19730235784E-03 +1.27237091320E-04 +7.14636996220E-01 +5.10216547259E-01
2.65000000000E+09 +7.33683259388E-01 +3.56647181204E-01 +1.34894590562E-03 -7.48610649339E-05 +1.25553928698E-03 +1.17825585239E-04 +7.19140016408E-01 +5.00084682005E-01
2.65500000000E+09 +7.35438955573E-01 +3.47661290689E-01 +1.18491698811E-03 -4.58274661723E-05 +1.26336471372E-03 +7.17516949930E-05 +7.23149869190E-01 +4.89586850051E-01
2.66000000000E+09 +7.36631680472E-01 +3.38827081764E-01 +1.28642429341E-03 +8.35077825929E-05 +1.38281022287E-03 +5.95764212306E-05 +7.27035808795E-01 +4.78532346773E-01
2.66500000000E+09 +7.37689303114E-01 +3.29059741204E-01 +1.45938368413E-03 -1.31598878923E-04 +1.48401374075E-03 -1.84814320094E-04 +7.31196373257E-01 +4.67490526722E-01
2.67000000000E+09 +7.38760958429E-01 +3.17129653592E-01 +1.47340749514E-03 -2.35027750922E-04 +1.40039805053E-03 -3.45830264408E-04 +7.35770995663E-01 +4.56792253897E-01
2.67500000000E+09 +7.39998964150E-01 +3.02981535926E-01 +1.51114810786E-03 -3.34779783484E-04 +1.39817481603E-03 -4.07586367373E-04 +7.40302576889E-01 +4.45892561449E-01
2.68000000000E+09 +7.41243889554E-01 +2.86956168111E-01 +1.51592710530E-03 -6.05883433728E-04 +1.46681705860E-03 -5.83277774721E-04 +7.44495994638E-01 +4.34468465822E-01
2.68500000000E+09 +7.42668079626E-01 +2.69928878919E-01 +1.27134347030E-03 -6.58627477495E-04 +1.26817928889E-03 -6.03246216775E-04 +7.47556931952E-01 +4.22914890775E-01
2.69000000000E+09 +7.44101589262E-01 +2.52594824636E-01 +1.28489586240E-03 -5.20430236177E-04 +1.29369281119E-03 -5.50199223651E-04 +7.50385023520E-01 +4.11152680543E-01
2.69500000000E+09 +7.45431963978E-01 +2.36188617492E-01 +1.57725048505E-03 -5.42599033533E-04 +1.58407314153E-03 -5.31683897198E-04 +7.53320665636E-01 +3.98674951047E-01
2.70000000000E+09 +7.46616183209E-01 +2.20923402325E-01 +1.78309268666E-03 -8.56744275038E-04 +1.71543878047E-03 -8.12259521817E-04 +7.56257771510E-01 +3.85680914919E-01
2.70500000000E+09 +7.47414988071E-01 +2.07066053244E-01 +1.70259981608E-03 -1.22606319427E-03 +1.77237538577E-03 -1.10999439471E-03 +7.59405382186E-01 +3.72185072541E-01
2.71000000000E+09 +7.47721734118E-01 +1.93982606319E-01 +1.52871598006E-03 -1.52069360279E-03 +1.61794836495E-03 -1.51988858863E-03 +7.62210610145E-01 +3.58759709655E-01
2.71500000000E+09 +7.47659807479E-01 +1.81467011129E-01 +1.25968765466E-03 -1.63328297965E-03 +1.38576917046E-03 -1.65382171391E-03 +7.64488793910E-01 +3.46124764144E-01
2.72000000000E+09 +7.47416109358E-01 +1.68924456035E-01 +1.18776854963E-03 -1.64966128583E-03 +1.16960563553E-03 -1.85834760448E-03 +7.66645123994E-01 +3.33474328860E-01
2.72500000000E+09 +7.47374109836E-01 +1.54765452261E-01 +1.06335483181E-03 -1.77591292378E-03 +8.57001523987E-04 -1.81569377997E-03 +7.67779431873E-01 +3.19939972349E-01
2.73000000000E+09 +7.46242597906E-01 +1.38810931514E-01 +1.12238607944E-03 -1.83532006117E-03 +9.55396284028E-04 -1.73768707433E-03 +7.69010719564E-01 +3.06054618114E-01
2.73500000000E+09 +7.44455601040E-01 +1.20996846705E-01 +1.05448052392E-03 -2.16281901933E-03 +9.40764322432E-04 -1.91939685545E-03 +7.69591777004E-01 +2.91414654060E-01
2.74000000000E+09 +7.41930014522E-01 +1.02397333073E-01 +7.77936274644E-04 -2.40594302429E-03 +8.77811312900E-04 -2.08296032099E-03 +7.70719192902E-01 +2.76989643026E-01
2.74500000000E+09 +7.38499041153E-01 +8.33333697769E-02 +5.65208450554E-04 -2.51918457363E-03 +8.25140057899E-04 -2.35665584502E-03 +7.72138956856E-01 +2.62350485704E-01
2.75000000000E+09 +7.34189614183E-01 +6.43228051367E-02 +4.80336197141E-04 -2.64001127758E-03 +8.08441835001E-04 -2.65764486213E-03 +7.73367618804E-01 +2.47330537204E-01
2.75500000000E+09 +7.29295205089E-01 +4.64680560349E-02 +1.67188441295E-04 -3.08239563543E-03 +3.60649573796E-04 -3.26818865179E-03 +7.73574113561E-01 +2.32277079116E-01
2.76000000000E+09 +7.24395176544E-01 +2.94713313721E-02 -3.58172281203E-04 -3.08416298891E-03 -3.80196234049E-04 -3.34322599941E-03 +7.73302633149E-01 +2.16785271298E-01
2.76500000000E+09 +7.19006134713E-01 +1.28308386527E-02 -9.69807607241E-04 -3.08021137726E-03 -1.05581926468E-03 -3.21383134054E-03 +7.72488849933E-01 +2.01028362172E-01
2.77000000000E+09 +7.13666560797E-01 -4.09119027497E-03 -1.23217117613E-03 -2.64802174274E-03 -1.36954618670E-03 -2.75508637044E-03 +7.72156239276E-01 +1.84101842517E-01
2.77500000000E+09 +7.07962955266E-01 -2.20087137815E-02 -1.13943660635E-03 -2.26857815249E-03 -1.26277154311E-03 -2.28048284747E-03 +7.70816012738E-01 +1.66218438800E-01
2.78000000000E+09 +7.01709601670E-01 -4.12401022518E-02 -9.26144582471E-04 -2.62185672153E-03 -1.05458228050E-03 -2.59269125998E-03 +7.69222288346E-01 +1.48678658460E-01
2.78500000000E+09 +6.94772761697E-01 -6.19696993417E-02 -1.24703083101E-03 -3.02315912873E-03 -1.43495532397E-03 -2.84768333259E-03 +7.67427765314E-01 +1.31201559117E-01
2.79000000000E+09 +6.87454371273E-01 -8.37955410480E-02 -1.91892087953E-03 -2.97840709963E-03 -1.91332552259E-03 -2.73888464929E-03 +7.64959748045E-01 +1.13611427740E-01
2.79500000000E+09 +6.79251809497E-01 -1.06284946113E-01 -2.24575374063E-03 -2.90544444618E-03 -2.14256102525E-03 -2.76722475300E-03 +7.61702164658E-01 +9.53065225751E-02
2.80000000000E+09 +6.70106266193E-01 -1.28284115725E-01 -2.74757631073E-03 -2.67196100266E-03 -2.59988001286E-03 -2.63955470342E-03 +7.56939193283E-01 +7.64705822992E-02
2.80500000000E+09 +6.60512273271E-01 -1.48898164522E-01 -2.84359359697E-03 -2.45557488797E-03 -2.71766883969E-03 -2.52229059795E-03 +7.51495480809E-01 +5.69191132232E-02
2.81000000000E+09 +6.49894467779E-01 -1.67452317868E-01 -3.21613232634E-03 -2.58936808545E-03 -3.24678633677E-03 -2.72259624451E-03 +7.45035608175E-01 +3.78215178678E-02
2.81500000000E+09 +6.38750398561E-01 -1.83667235318E-01 -3.78353595587E-03 -2.25762022602E-03 -3.91210075568E-03 -2.25463915820E-03 +7.38943380618E-01 +1.83206220091E-02
2.82000000000E+09 +6.26908680883E-01 -1.98952361475E-01 -4.12096047420E-03 -2.13134530964E-03 -4.20695999738E-03 -1.97419367592E-03 +7.32032829140E-01 -2.23291601107E-03
2.82500000000E+09 +6.13039816017E-01 -2.13556349903E-01 -4.86375917823E-03 -1.80227577694E-03 -4.66704835792E-03 -1.54490825791E-03 +7.23721656941E-01 -2.27226421934E-02
2.83000000000E+09 +5.97617320838E-01 -2.28440339851E-01 -5.26450943022E-03 -1.17062377415E-03 -4.97796136993E-03 -1.13607338154E-03 +7.13957423306E-01 -4.28212772913E-02
2.83500000000E+09 +5.80508570895E-01 -2.44886036243E-01 -5.71534648775E-03 -3.96478538570E-04 -5.51522092533E-03 -5.99142844643E-04 +7.03844880586E-01 -6.31451021148E-02
2.84000000000E+09 +5.60496793247E-01 -2.63237680301E-01 -5.87139315234E-03 +3.87376885002E-04 -5.79747633350E-03 +1.39119712290E-04 +6.92822993361E-01 -8.32145668213E-02
2.84500000000E+09 +5.37953513053E-01 -2.83173587914E-01 -5.74466229734E-03 +9.92713485580E-04 -5.77162388771E-03 +9.20209559658E-04 +6.80969678947E-01 -1.04111032102E-01
2.85000000000E+09 +5.13550984577E-01 -3.03617998924E-01 -5.83392659520E-03 +1.43693516504E-03 -5.80176811754E-03 +1.42496797461E-03 +6.67369875392E-01 -1.24659566185E-01
2.85500000000E+09 +4.88087375948E-01 -3.23989801809E-01 -6.35395096704E-03 +2.03319502396E-03 -6.23893560277E-03 +2.01652411673E-03 +6.52551086677E-01 -1.45243876511E-01
2.86000000000E+09 +4.62709167661E-01 -3.42802763337E-01 -6.17028208666E-03 +3.15773354363E-03 -6.06647523918E-03 +3.09007281840E-03 +6.37014962118E-01 -1.64832164805E-01
2.86500000000E+09 +4.38763126253E-01 -3.59518277374E-01 -6.15307240549E-03 +3.76998825183E-03 -6.07628503311E-03 +3.66429999570E-03 +6.20953523271E-01 -1.85687725640E-01
2.87000000000E+09 +4.15695270363E-01 -3.74734352959E-01 -6.11784536478E-03 +5.09349720055E-03 -6.08090896745E-03 +5.10343675245E-03 +6.02630766642E-01 -2.06811704764E-01
2.87500000000E+09 +3.93105958073E-01 -3.87772816272E-01 -5.47846076975E-03 +6.17590002960E-03 -5.27702517171E-03 +6.25029619769E-03 +5.82039782671E-01 -2.27069295648E-01
2.88000000000E+09 +3.70183371698E-01 -3.99254115193E-01 -4.77576171595E-03 +6.96217549148E-03 -4.40111435574E-03 +6.85269920255E-03 +5.61136055557E-01 -2.45991493999E-01
2.88500000000E+09 +3.45516869365E-01 -4.08965788849E-01 -4.09455445356E-03 +7.96183613897E-03 -3.77268952892E-03 +7.54512256599E-03 +5.38654659945E-01 -2.64657495958E-01
2.89000000000E+09 +3.19398569659E-01 -4.17503256201E-01 -2.99655724588E-03 +8.85067760801E-03 -3.04893770914E-03 +8.28812710436E-03 +5.14575776846E-01 -2.83524274680E-01
2.89500000000E+09 +2.89710465348E-01 -4.25158950474E-01 -1.65303545888E-03 +9.37628406264E-03 -1.97298946237E-03 +9.01934808481E-03 +4.87584432349E-01 -3.01698015984E-01
2.90000000000E+09 +2.58007717195E-01 -4.31693064934E-01 -7.03908903770E-04 +9.38543422037E-03 -1.04198265967E-03 +9.43741291931E-03 +4.60264588731E-01 -3.18232664581E-01
2.90500000000E+09 +2.23258859002E-01 -4.37639038804E-01 +2.00752923226E-04 +1.01599822176E-02 +1.52265782002E-04 +1.03375199614E-02 +4.31116992471E-01 -3.34657282280E-01
2.91000000000E+09 +1.87014793207E-01 -4.41509154186E-01 +1.60280309403E-03 +1.04973036618E-02 +1.76989135693E-03 +1.04106314242E-02 +4.00832777386E-01 -3.49895916288E-01
2.91500000000E+09 +1.51454399667E-01 -4.43896289082E-01 +3.38256163320E-03 +1.15250555576E-02 +3.47589125752E-03 +1.09336997717E-02 +3.68498072393E-01 -3.63009052549E-01
2.92000000000E+09 +1.16155977559E-01 -4.44980914069E-01 +6.17700469560E-03 +1.07514524044E-02 +5.69568138654E-03 +1.01456849944E-02 +3.34870997558E-01 -3.74652727490E-01
2.92500000000E+09 +8.17030961501E-02 -4.44497243672E-01 +7.67731188918E-03 +9.42945077213E-03 +6.89351600749E-03 +9.28883149698E-03 +2.98999363410E-01 -3.82639002262E-01
2.93000000000E+09 +4.78177880004E-02 -4.41238970665E-01 +8.78399077468E-03 +8.04062630447E-03 +8.15565285812E-03 +8.41375454437E-03 +2.62984579816E-01 -3.89960201165E-01
2.93500000000E+09 +1.48609068205E-02 -4.35459507833E-01 +9.67106789871E-03 +7.20257517952E-03 +9.43858585184E-03 +7.61595471514E-03 +2.24589342489E-01 -3.95485691959E-01
2.94000000000E+09 -1.82514752339E-02 -4.26566746850E-01 +1.06419487324E-02 +6.14448949187E-03 +1.05294229501E-02 +6.38859319944E-03 +1.85295505483E-01 -3.99661925991E-01
2.94500000000E+09 -5.07084194939E-02 -4.14411114203E-01 +1.23264281287E-02 +4.86261760856E-03 +1.21596673291E-02 +5.14497891294E-03 +1.43924297592E-01 -4.00158663652E-01
2.95000000000E+09 -8.41270535653E-02 -4.00353994428E-01 +1.29665093052E-02 +2.66225269879E-03 +1.28790462691E-02 +3.12671332260E-03 +1.03573936605E-01 -3.97557821614E-01
2.95500000000E+09 -1.18844470692E-01 -3.82246359690E-01 +1.34091686011E-02 +6.51583315299E-04 +1.36527103880E-02 +1.23113547063E-03 +6.35306987238E-02 -3.92866317235E-01
2.96000000000E+09 -1.52303947236E-01 -3.60784123193E-01 +1.31516765453E-02 -1.40370911935E-03 +1.37750238636E-02 -1.23957430140E-03 +2.14815162881E-02 -3.85419463616E-01
2.96500000000E+09 -1.84376905060E-01 -3.37366717703E-01 +1.28918135804E-02 -2.90165074250E-03 +1.32760281229E-02 -3.30378853898E-03 -1.97162257132E-02 -3.72890646166E-01
2.97000000000E+09 -2.14900205231E-01 -3.12873171724E-01 +1.25928923525E-02 -4.53330579084E-03 +1.24496747427E-02 -5.01230681231E-03 -6.07325006331E-02 -3.58258802953E-01
2.97500000000E+09 -2.43574144093E-01 -2.86787086594E-01 +1.26125979953E-02 -6.51463252997E-03 +1.21599394912E-02 -6.42651524660E-03 -1.00207714164E-01 -3.40622391446E-01
2.98000000000E+09 -2.70371731043E-01 -2.59505570953E-01 +1.10519273671E-02 -8.87334121175E-03 +1.10110879130E-02 -8.36171803868E-03 -1.38852988465E-01 -3.21149826298E-01
2.98500000000E+09 -2.94993051739E-01 -2.30076397805E-01 +9.81397414963E-03 -1.01696135140E-02 +1.03790490593E-02 -9.91176368486E-03 -1.75777896866E-01 -2.98012901514E-01
2.99000000000E+09 -3.16352512636E-01 -1.99336795750E-01 +7.89347640996E-03 -1.14946848306E-02 +8.53090313317E-03 -1.18985876321E-02 -2.12238223837E-01 -2.72279742156E-01
2.99500000000E+09 -3.35585637760E-01 -1.67971995215E-01 +6.52927746242E-03 -1.22316301053E-02 +6.50074185022E-03 -1.30059718040E-02 -2.45374319110E-01 -2.42317534458E-01
3.00000000000E+09 -3.54491826424E-01 -1.35739855942E-01 +4.79451201091E-03 -1.31640190110E-02 +4.16068917386E-03 -1.34387386856E-02 -2.76468054643E-01 -2.10517757425E-01
3.00500000000E+09 -3.71005787339E-01 -1.01080185888E-01 +3.22946413360E-03 -1.41593445692E-02 +2.59004387450E-03 -1.37472292174E-02 -3.04645134120E-01 -1.77715326933E-01
3.01000000000E+09 -3.84758491994E-01 -6.68581389109E-02 +4.16016681332E-04 -1.49667941958E-02 +4.24125586245E-04 -1.42319643248E-02 -3.32149554316E-01 -1.42649512724E-01
3.01500000000E+09 -3.97526257250E-01 -3.31152691291E-02 -2.30745448480E-03 -1.40006523884E-02 -1.84385098895E-03 -1.36780316222E-02 -3.55864418126E-01 -1.06358787466E-01
3.02000000000E+09 -4.07426553905E-01 +9.92074354623E-04 -3.77729726381E-03 -1.26922093690E-02 -3.44821327966E-03 -1.28224738784E-02 -3.76322091620E-01 -6.79048563541E-02
3.02500000000E+09 -4.14180117308E-01 +3.39605097920E-02 -5.18000934194E-03 -1.26168865720E-02 -5.05317554539E-03 -1.26696647446E-02 -3.93410636712E-01 -2.99351788931E-02
3.03000000000E+09 -4.17811631477E-01 +6.60985999000E-02 -6.95142267956E-03 -1.12141857065E-02 -6.78605804074E-03 -1.11752548712E-02 -4.08401165093E-01 +1.03354613853E-02
3.03500000000E+09 -4.18131396978E-01 +9.74052941495E-02 -8.15658872205E-03 -1.07786832473E-02 -7.82586067534E-03 -1.09260172612E-02 -4.19533503215E-01 +4.99940837342E-02
3.04000000000E+09 -4.15551859115E-01 +1.28643809795E-01 -1.03367364793E-02 -8.67108439532E-03 -1.01961359725E-02 -9.27068188603E-03 -4.27894474052E-01 +9.10045417320E-02
3.04500000000E+09 -4.09932485839E-01 +1.59862604617E-01 -1.05497748316E-02 -6.68225022364E-03 -1.09635590051E-02 -7.23029600381E-03 -4.32829614632E-01 +1.30332445889E-01
3.05000000000E+09 -4.02552531947E-01 +1.92631902276E-01 -1.09688032661E-02 -5.27789076967E-03 -1.18182976534E-02 -5.15443410056E-03 -4.35381168613E-01 +1.69277162724E-01
3.05500000000E+09 -3.91725307516E-01 +2.27191549978E-01 -1.12568355240E-02 -3.81654502653E-03 -1.16734181194E-02 -3.17785736830E-03 -4.35956703868E-01 +2.06946726999E-01
3.06000000000E+09 -3.78724655812E-01 +2.60580328652E-01 -1.15394249948E-02 -2.49524394635E-03 -1.11640139489E-02 -1.81587902468E-03 -4.34488864590E-01 +2.43572876307E-01
3.06500000000E+09 -3.64624992652E-01 +2.93781144056E-01 -1.18955090049E-02 -5.77399732396E-04 -1.11494310358E-02 -6.10570149611E-04 -4.31951265548E-01 +2.81105189575E-01
3.07000000000E+09 -3.49819065075E-01 +3.24232882136E-01 -1.11389752533E-02 +1.29945824670E-03 -1.08632309380E-02 +6.03016534573E-04 -4.25003145589E-01 +3.17361095970E-01
