# Hz S RI R 50
! CMT, C1220, 16058040, 17.2.0/1
! Date: 15/08/2018 10:51:23
! Data: Format (Calibration Info)
! Freq                      S11: Re/Im (F2)                       S21: Re/Im (F2)                       S12: Re/Im (F2)                       S22: Re/Im (F2)            
2.50000000000E+09 +5.80746749666E-01 +6.50349887041E-01 -9.50564643751E-04 +6.92117793946E-04 -1.08780512583E-03 +7.79241825945E-04 +5.61855976570E-01 +7.26188132352E-01
2.50500000000E+09 +5.88228303157E-01 +6.41195024285E-01 -8.88457221944E-04 +8.11477016884E-04 -8.61672384677E-04 +8.87932741815E-04 +5.67557348200E-01 +7.20570947402E-01
2.51000000000E+09 +5.96586937400E-01 +6.31824822590E-01 -8.14184865900E-04 +8.55780280082E-04 -7.54116359578E-04 +8.41074495591E-04 +5.73366008008E-01 +7.15328523628E-01
2.51500000000E+09 +6.04964340881E-01 +6.22998025858E-01 -7.77274787257E-04 +9.83097740492E-04 -7.03998776897E-04 +9.35145318473E-04 +5.78672334489E-01 +7.09571869680E-01
2.52000000000E+09 +6.12633085112E-01 +6.14625008062E-01 -6.04180633845E-04 +1.04494897429E-03 -6.31141433034E-04 +1.01585284411E-03 +5.83699730053E-01 +7.03354024119E-01
2.52500000000E+09 +6.18741309326E-01 +6.07381079541E-01 -4.73707221036E-04 +1.04670562314E-03 -5.19787302527E-04 +1.00379658347E-03 +5.89116738031E-01 +6.97017655515E-01
2.53000000000E+09 +6.23610452821E-01 +6.01209146146E-01 -4.68426526258E-04 +1.06074620913E-03 -4.69061221138E-04 +1.06903387541E-03 +5.95024952093E-01 +6.90165531417E-01
2.53500000000E+09 +6.27346500499E-01 +5.95634947126E-01 -3.93768208518E-04 +1.12065923529E-03 -3.96658267380E-04 +1.16926667383E-03 +6.00885087986E-01 +6.83622402861E-01
2.54000000000E+09 +6.30364683063E-01 +5.89883979997E-01 -2.66720650669E-04 +1.22819306012E-03 -2.66194703085E-04 +1.17363977888E-03 +6.06864058097E-01 +6.77376737993E-01
2.54500000000E+09 +6.33266983980E-01 +5.83827960581E-01 -1.34198214980E-04 +1.31051748512E-03 -2.48924546330E-04 +1.29904782745E-03 +6.12470823297E-01 +6.71345351508E-01
2.55000000000E+09 +6.37080698896E-01 +5.76812001553E-01 +1.47618936578E-04 +1.32315119433E-03 +2.85679286388E-05 +1.43798037784E-03 +6.17721982197E-01 +6.65435389617E-01
2.55500000000E+09 +6.42086092788E-01 +5.68381169920E-01 +3.09379807165E-04 +1.17384220516E-03 +2.75036595001E-04 +1.33280749078E-03 +6.22858091831E-01 +6.59259902357E-01
2.56000000000E+09 +6.48711641904E-01 +5.59261705158E-01 +3.03677676664E-04 +1.04618846565E-03 +4.28020693627E-04 +1.21535111076E-03 +6.27986131365E-01 +6.52207901972E-01
2.56500000000E+09 +6.56625355742E-01 +5.49010228005E-01 +3.14589105861E-04 +1.08263868205E-03 +5.59892571032E-04 +1.17346841794E-03 +6.33245920745E-01 +6.45154920352E-01
2.57000000000E+09 +6.64961524205E-01 +5.38478196522E-01 +4.23360223601E-04 +1.14843343431E-03 +6.43227362976E-04 +9.66890342910E-04 +6.38947596181E-01 +6.37505540617E-01
2.57500000000E+09 +6.73010537419E-01 +5.28308745467E-01 +6.08849292373E-04 +1.19971553844E-03 +7.27305401172E-04 +9.54247069266E-04 +6.44722430723E-01 +6.30099983310E-01
2.58000000000E+09 +6.79780294117E-01 +5.19220392335E-01 +8.59716604351E-04 +1.08931075182E-03 +7.55268359311E-04 +8.44102998166E-04 +6.50225402141E-01 +6.22759248326E-01
2.58500000000E+09 +6.85211871563E-01 +5.10737576468E-01 +9.79754281414E-04 +8.25747136911E-04 +8.13992576391E-04 +7.38672603118E-04 +6.55638397352E-01 +6.15078564908E-01
2.59000000000E+09 +6.89141825530E-01 +5.03435018040E-01 +8.65962684845E-04 +5.90992073707E-04 +7.84847308377E-04 +6.48756797237E-04 +6.60591175848E-01 +6.07541574215E-01
2.59500000000E+09 +6.91957907860E-01 +4.96188908030E-01 +8.74012007486E-04 +6.73529581537E-04 +8.61572294371E-04 +7.09737752014E-04 +6.65665085709E-01 +5.99572746713E-01
2.60000000000E+09 +6.93757493704E-01 +4.88175935513E-01 +1.05217238745E-03 +6.10706368089E-04 +1.06727658678E-03 +6.06394213879E-04 +6.70950642503E-01 +5.91273326845E-01
2.60500000000E+09 +6.95734618871E-01 +4.78661601997E-01 +1.15284875045E-03 +3.28333518652E-04 +1.15514467422E-03 +3.19698975222E-04 +6.76561073011E-01 +5.82615464830E-01
2.61000000000E+09 +6.98183173650E-01 +4.67028603212E-01 +9.78714954538E-04 +1.53297005077E-04 +9.61083398532E-04 +1.57482940259E-04 +6.81882853580E-01 +5.73636262909E-01
2.61500000000E+09 +7.01741628062E-01 +4.53319229897E-01 +9.22456971771E-04 +1.83214695968E-04 +9.66459319208E-04 +1.71667871838E-04 +6.86964730390E-01 +5.64849979375E-01
2.62000000000E+09 +7.05963419364E-01 +4.37591043499E-01 +8.96219688148E-04 +8.89833179860E-05 +9.46594760969E-04 +3.77038694867E-05 +6.91620833127E-01 +5.55932447650E-01
2.62500000000E+09 +7.11086449057E-01 +4.20944681108E-01 +8.87052449331E-04 +1.73146289495E-04 +8.76270464144E-04 +7.14419637808E-05 +6.96560556891E-01 +5.47410168105E-01
2.63000000000E+09 +7.16779495372E-01 +4.04222695721E-01 +9.46295869702E-04 +9.93037131923E-05 +9.50203474359E-04 -9.24308462725E-06 +7.01524344498E-01 +5.38337932987E-01
2.63500000000E+09 +7.21942154333E-01 +3.88148826484E-01 +1.01036899918E-03 -1.36389251053E-04 +9.07587038752E-04 -2.09219757931E-04 +7.06324258834E-01 +5.29102078764E-01
2.64000000000E+09 +7.26220668837E-01 +3.73864319186E-01 +8.16802942686E-04 -2.62438762764E-04 +7.17556658870E-04 -2.42716122224E-04 +7.11062342431E-01 +5.19481718069E-01
2.64500000000E+09 +7.29474968499E-01 +3.61891897219E-01 +7.68435263392E-04 -2.30850455411E-04 +6.51557693347E-04 -1.53714743999E-04 +7.15617685680E-01 +5.09919153951E-01
2.65000000000E+09 +7.31554070028E-01 +3.52075955670E-01 +6.17183158232E-04 -1.77095792753E-04 +5.88274445208E-04 -1.40519236561E-04 +7.20249370817E-01 +4.99701933779E-01
2.65500000000E+09 +7.33066694862E-01 +3.43008220720E-01 +6.44256108543E-04 -1.68201269208E-04 +7.25937123009E-04 -1.11811695476E-04 +7.24311202919E-01 +4.88902686034E-01
2.66000000000E+09 +7.34187568193E-01 +3.34146447734E-01 +6.92002424715E-04 -1.03396656110E-04 +7.58961766082E-04 -1.53384008667E-04 +7.28436435468E-01 +4.77911803664E-01
2.66500000000E+09 +7.35182175717E-01 +3.24459632923E-01 +6.19386436484E-04 -1.92605838977E-04 +6.50667513776E-04 -2.38194912836E-04 +7.32783074655E-01 +4.66890016489E-01
2.67000000000E+09 +7.36143691088E-01 +3.12618338520E-01 +5.85618143838E-04 -4.58798973507E-05 +5.96596367717E-04 -1.01173513661E-04 +7.37299691131E-01 +4.56207044716E-01
2.67500000000E+09 +7.37289327723E-01 +2.98709206950E-01 +7.62760853805E-04 -3.61165508937E-05 +7.45968395980E-04 -5.91438009415E-05 +7.41799660127E-01 +4.45118352325E-01
2.68000000000E+09 +7.38270725191E-01 +2.83134884651E-01 +8.73278797427E-04 -9.83202852563E-05 +8.10643082618E-04 -8.16319691912E-05 +7.45915135375E-01 +4.33686043057E-01
2.68500000000E+09 +7.39853086085E-01 +2.66249043302E-01 +7.94285036996E-04 -2.87133007636E-04 +8.24417831800E-04 -2.93666978662E-04 +7.49040889508E-01 +4.22061301183E-01
2.69000000000E+09 +7.40942991806E-01 +2.48907611800E-01 +7.10122985450E-04 -2.00990376558E-04 +7.18842435197E-04 -1.85667097568E-04 +7.51833129621E-01 +4.10071701765E-01
2.69500000000E+09 +7.41844192922E-01 +2.32462005647E-01 +9.83992787075E-04 -3.85686836662E-05 +9.50237518446E-04 -4.22232830214E-05 +7.54634471514E-01 +3.97369044144E-01
2.70000000000E+09 +7.42651305667E-01 +2.17223220172E-01 +1.24006753222E-03 -2.99755890102E-04 +1.17023928152E-03 -3.09221430763E-04 +7.57696276670E-01 +3.84228334700E-01
2.70500000000E+09 +7.43119360815E-01 +2.03406545626E-01 +1.28087753449E-03 -5.71412991641E-04 +1.21111374023E-03 -4.90632253579E-04 +7.60830403874E-01 +3.70858154555E-01
2.71000000000E+09 +7.43410025317E-01 +1.90570506267E-01 +1.08474109600E-03 -7.75961619380E-04 +1.10983967770E-03 -7.67230710576E-04 +7.63650410448E-01 +3.57526175799E-01
2.71500000000E+09 +7.43450390512E-01 +1.78139302721E-01 +9.44266269430E-04 -8.16955842121E-04 +1.07813682167E-03 -8.74996587180E-04 +7.65821427264E-01 +3.44960551976E-01
2.72000000000E+09 +7.43043230381E-01 +1.65460779608E-01 +1.01054575096E-03 -8.99542509344E-04 +1.02522467849E-03 -1.05151255178E-03 +7.67903454398E-01 +3.32259227139E-01
2.72500000000E+09 +7.42737823150E-01 +1.51679304692E-01 +9.67055835686E-04 -9.79779280421E-04 +7.91484397439E-04 -1.11558055383E-03 +7.69025237161E-01 +3.18629616839E-01
2.73000000000E+09 +7.41723326369E-01 +1.35971577962E-01 +1.05148894573E-03 -1.12670482630E-03 +8.94587640982E-04 -1.06990509420E-03 +7.70332625140E-01 +3.04572996221E-01
2.73500000000E+09 +7.39893917914E-01 +1.18604458130E-01 +9.76241464369E-04 -1.31558276584E-03 +7.93427814710E-04 -1.18396491922E-03 +7.70879469812E-01 +2.89649426624E-01
2.74000000000E+09 +7.37415969661E-01 +1.00576012594E-01 +7.75158952613E-04 -1.48446377742E-03 +8.09153589135E-04 -1.26078778852E-03 +7.72064980552E-01 +2.75136286448E-01
2.74500000000E+09 +7.33724071063E-01 +8.15460639350E-02 +6.32688841706E-04 -1.55320181316E-03 +7.88075911018E-04 -1.37071294397E-03 +7.73711695364E-01 +2.60327695536E-01
2.75000000000E+09 +7.29177650858E-01 +6.32422898950E-02 +8.27878780028E-04 -1.51931468613E-03 +9.56166122806E-04 -1.52495839492E-03 +7.74774044429E-01 +2.45171647805E-01
2.75500000000E+09 +7.24177970248E-01 +4.58799662553E-02 +6.09667529659E-04 -1.95895800710E-03 +7.81558783091E-04 -2.10850445060E-03 +7.74833616878E-01 +2.30221339284E-01
2.76000000000E+09 +7.19421156209E-01 +2.90875680938E-02 +3.08782451006E-04 -2.04625265827E-03 +3.40793135259E-04 -2.19092779497E-03 +7.74423108905E-01 +2.14621908711E-01
2.76500000000E+09 +7.14118918029E-01 +1.22746577276E-02 +3.18147277495E-05 -2.16548104614E-03 -3.16313216855E-05 -2.29472758545E-03 +7.73572267745E-01 +1.98669801750E-01
2.77000000000E+09 +7.08607684249E-01 -4.68887969545E-03 -2.77154388674E-04 -2.00896773739E-03 -3.28984863868E-04 -2.10142342348E-03 +7.73176863189E-01 +1.81555694522E-01
2.77500000000E+09 +7.02812111136E-01 -2.23783514488E-02 -7.67687182069E-05 -1.68924626407E-03 -1.88520422041E-04 -1.70592228833E-03 +7.71724315312E-01 +1.63288015268E-01
2.78000000000E+09 +6.96859667219E-01 -4.12623814002E-02 +1.74741452740E-04 -2.14859890678E-03 +3.18422970570E-05 -2.20373902023E-03 +7.69929315753E-01 +1.45609887758E-01
2.78500000000E+09 +6.90479156257E-01 -6.16088272667E-02 -2.44212861984E-04 -2.68686702342E-03 -4.20829836230E-04 -2.58922899568E-03 +7.67967048537E-01 +1.27817946337E-01
2.79000000000E+09 +6.83557421122E-01 -8.35445049758E-02 -7.22180522554E-04 -2.53381017408E-03 -8.12382234272E-04 -2.36053979952E-03 +7.65037774235E-01 +1.10425131803E-01
2.79500000000E+09 +6.75512388568E-01 -1.05555751827E-01 -7.80148550262E-04 -2.74078081377E-03 -7.90598400416E-04 -2.55242493472E-03 +7.61274350265E-01 +9.22090541236E-02
2.80000000000E+09 +6.66819287038E-01 -1.27132162464E-01 -1.33100901156E-03 -2.79498128071E-03 -1.12900317802E-03 -2.65698300772E-03 +7.56620704394E-01 +7.35323480605E-02
2.80500000000E+09 +6.57435315706E-01 -1.47379585189E-01 -1.28163490719E-03 -2.89347372125E-03 -1.21889213951E-03 -2.90781933677E-03 +7.50792399558E-01 +5.38507404324E-02
2.81000000000E+09 +6.47125166954E-01 -1.65738185043E-01 -2.04473974188E-03 -3.31503978008E-03 -2.06689628079E-03 -3.39856773316E-03 +7.43844660500E-01 +3.49885564061E-02
2.81500000000E+09 +6.35892282248E-01 -1.82006584786E-01 -2.72321179773E-03 -2.88587972128E-03 -2.84516085004E-03 -2.93067687993E-03 +7.37744421162E-01 +1.54041088639E-02
2.82000000000E+09 +6.23811691742E-01 -1.97060624586E-01 -3.14464299941E-03 -2.96869915454E-03 -3.28020386697E-03 -2.77264832161E-03 +7.30715280703E-01 -5.28049505449E-03
2.82500000000E+09 +6.10001319969E-01 -2.11380399639E-01 -3.90547398396E-03 -2.61418908540E-03 -3.82686395459E-03 -2.33008435662E-03 +7.22069216501E-01 -2.58402009349E-02
2.83000000000E+09 +5.94833823175E-01 -2.25733217716E-01 -4.47392745114E-03 -2.09984917585E-03 -4.20727789508E-03 -1.96436961338E-03 +7.12033196736E-01 -4.56663528097E-02
2.83500000000E+09 +5.78705157761E-01 -2.42285767248E-01 -5.00331277424E-03 -1.43533614573E-03 -4.79573896207E-03 -1.50629751520E-03 +7.01726063514E-01 -6.56064628400E-02
2.84000000000E+09 +5.58990890753E-01 -2.61046068954E-01 -5.22817726603E-03 -7.00359690179E-04 -5.10489315248E-03 -8.84835853022E-04 +6.90430126045E-01 -8.55476994138E-02
2.84500000000E+09 +5.37188233851E-01 -2.81059369862E-01 -5.15971875900E-03 -1.17244588453E-04 -5.18055704633E-03 -2.59993726938E-04 +6.78087118116E-01 -1.06130303809E-01
2.85000000000E+09 +5.13105061407E-01 -3.01966360382E-01 -5.34438118513E-03 +7.27987708656E-05 -5.29827399527E-03 +4.35078296685E-05 +6.64467282399E-01 -1.26526848630E-01
2.85500000000E+09 +4.87986740857E-01 -3.21701220450E-01 -6.10960339363E-03 +5.98745915754E-04 -6.00032043172E-03 +5.94048074249E-04 +6.49309330680E-01 -1.46996673372E-01
2.86000000000E+09 +4.63551243445E-01 -3.40481506381E-01 -6.27876639032E-03 +1.74696147559E-03 -6.20256706464E-03 +1.67661962900E-03 +6.33443302708E-01 -1.66417589949E-01
2.86500000000E+09 +4.39964739553E-01 -3.57211707236E-01 -6.40197668129E-03 +2.73860884352E-03 -6.32335169482E-03 +2.65758503672E-03 +6.16961626455E-01 -1.86901886057E-01
2.87000000000E+09 +4.17546315165E-01 -3.72728409903E-01 -6.08074155881E-03 +4.00742647248E-03 -6.10896172936E-03 +4.02694587654E-03 +5.98282738947E-01 -2.07183588651E-01
2.87500000000E+09 +3.95143341432E-01 -3.86087337256E-01 -5.44131392157E-03 +4.87785515123E-03 -5.30815664002E-03 +5.03537284249E-03 +5.77783718372E-01 -2.26476351116E-01
2.88000000000E+09 +3.72492037368E-01 -3.97687553463E-01 -4.89517622539E-03 +5.44135571878E-03 -4.53343793737E-03 +5.42194522938E-03 +5.56887378430E-01 -2.44640770316E-01
2.88500000000E+09 +3.48254970958E-01 -4.08119639597E-01 -4.74122381801E-03 +6.28596579799E-03 -4.35266442195E-03 +5.92309258237E-03 +5.34713710329E-01 -2.62587341757E-01
2.89000000000E+09 +3.21623297286E-01 -4.17543430706E-01 -3.92557307599E-03 +7.51756544807E-03 -3.87046458968E-03 +7.00735095750E-03 +5.10958058088E-01 -2.80750799039E-01
2.89500000000E+09 +2.92022133145E-01 -4.25095519170E-01 -2.70185607886E-03 +7.93180394925E-03 -2.90768268565E-03 +7.57971806148E-03 +4.84587403196E-01 -2.98900681986E-01
2.90000000000E+09 +2.60668648186E-01 -4.31895304421E-01 -2.11979794774E-03 +8.35319977820E-03 -2.47414345968E-03 +8.28791608434E-03 +4.57310391968E-01 -3.14833117407E-01
2.90500000000E+09 +2.26323805676E-01 -4.38389479621E-01 -1.19444708531E-03 +9.36472668184E-03 -1.22520590838E-03 +9.53132152176E-03 +4.28917536604E-01 -3.30730938330E-01
2.91000000000E+09 +1.90872267331E-01 -4.42254969519E-01 +3.56486722662E-04 +9.93659710596E-03 +6.17192470311E-04 +9.88144436162E-03 +3.99376520038E-01 -3.45300958106E-01
2.91500000000E+09 +1.56058204740E-01 -4.45801416307E-01 +2.21358818081E-03 +1.04279604974E-02 +2.40043186323E-03 +9.96478853336E-03 +3.68331503324E-01 -3.58159427129E-01
2.92000000000E+09 +1.20384144564E-01 -4.47773111762E-01 +4.11611883286E-03 +9.88507222729E-03 +3.81119777200E-03 +9.25709176567E-03 +3.35818544362E-01 -3.69912941410E-01
2.92500000000E+09 +8.56081751119E-02 -4.47187915205E-01 +5.56360512046E-03 +9.01108623561E-03 +4.87798071574E-03 +8.76578157813E-03 +3.00481632374E-01 -3.78537884003E-01
2.93000000000E+09 +5.20877853581E-02 -4.43940976047E-01 +6.53805339852E-03 +8.24423649016E-03 +5.94855417549E-03 +8.39094856766E-03 +2.64675390461E-01 -3.86372421499E-01
2.93500000000E+09 +1.89642710965E-02 -4.38643435354E-01 +7.67873681207E-03 +7.72796093456E-03 +7.31986740455E-03 +8.03922644617E-03 +2.26363272062E-01 -3.91974103164E-01
2.94000000000E+09 -1.40961204495E-02 -4.29864819063E-01 +8.84086435157E-03 +6.96778803770E-03 +8.67248060928E-03 +7.18434390733E-03 +1.87605274171E-01 -3.96317366467E-01
2.94500000000E+09 -4.62619169622E-02 -4.18286520920E-01 +1.06651306952E-02 +6.08483180590E-03 +1.04445908155E-02 +6.27116464952E-03 +1.46715488612E-01 -3.97086572193E-01
2.95000000000E+09 -7.96020603571E-02 -4.05461434848E-01 +1.19434947954E-02 +3.85258781501E-03 +1.17865399248E-02 +4.34586402926E-03 +1.07245341062E-01 -3.94867179003E-01
2.95500000000E+09 -1.15077886730E-01 -3.88551383875E-01 +1.21124956049E-02 +1.62912336066E-03 +1.23613661277E-02 +2.15541833234E-03 +6.76643476677E-02 -3.90455138474E-01
2.96000000000E+09 -1.48965489413E-01 -3.67658447806E-01 +1.20958693519E-02 -1.46557905169E-04 +1.26191471014E-02 +3.97666298127E-06 +2.62991363167E-02 -3.83725820727E-01
2.96500000000E+09 -1.81872039391E-01 -3.45238661174E-01 +1.17937790971E-02 -1.48225902660E-03 +1.21878182580E-02 -1.82254627072E-03 -1.49256413957E-02 -3.71664670802E-01
2.97000000000E+09 -2.13196321002E-01 -3.20697134783E-01 +1.16286894738E-02 -2.93632407006E-03 +1.14740246321E-02 -3.27960773597E-03 -5.52735286629E-02 -3.57979695933E-01
2.97500000000E+09 -2.42196600543E-01 -2.94713521502E-01 +1.18216348902E-02 -4.46807301512E-03 +1.14407668600E-02 -4.46098372668E-03 -9.51667046810E-02 -3.41455704897E-01
2.98000000000E+09 -2.69580467149E-01 -2.68119343206E-01 +1.11964351434E-02 -6.77203246669E-03 +1.10554867724E-02 -6.30371124909E-03 -1.33843504692E-01 -3.22745708644E-01
2.98500000000E+09 -2.95280261975E-01 -2.38712437028E-01 +1.00845834776E-02 -8.71608334911E-03 +1.05767239199E-02 -8.34438059069E-03 -1.71028452683E-01 -3.00701502186E-01
2.99000000000E+09 -3.17424391202E-01 -2.07806509539E-01 +8.22117288705E-03 -9.97896837644E-03 +8.74405511491E-03 -1.03760114778E-02 -2.07783489962E-01 -2.75655489628E-01
2.99500000000E+09 -3.38186699092E-01 -1.76959996552E-01 +6.74032355937E-03 -1.09459894797E-02 +6.67991122825E-03 -1.15979364498E-02 -2.41096181301E-01 -2.46802836408E-01
3.00000000000E+09 -3.58704016048E-01 -1.43409397812E-01 +5.11359753874E-03 -1.17103491190E-02 +4.46083245812E-03 -1.20804531849E-02 -2.73520764204E-01 -2.15938918707E-01
3.00500000000E+09 -3.75401490580E-01 -1.07875947783E-01 +3.42415689067E-03 -1.25597150354E-02 +2.82740600743E-03 -1.22100269127E-02 -3.02950274405E-01 -1.83262838456E-01
3.01000000000E+09 -3.89644256619E-01 -7.32492577995E-02 +1.14907845444E-03 -1.30387004925E-02 +1.14424797137E-03 -1.23946167523E-02 -3.32207051858E-01 -1.48215344092E-01
3.01500000000E+09 -4.02497941925E-01 -3.87446040609E-02 -9.43896133137E-04 -1.25157647070E-02 -6.15183053188E-04 -1.22603006159E-02 -3.56840481238E-01 -1.11345846697E-01
3.02000000000E+09 -4.12277740617E-01 -4.34717159011E-03 -2.44821894496E-03 -1.17508487563E-02 -2.18257395760E-03 -1.17454788196E-02 -3.78330608345E-01 -7.23765886624E-02
3.02500000000E+09 -4.19006322634E-01 +2.88168294092E-02 -3.49952650983E-03 -1.13397221714E-02 -3.42514862018E-03 -1.14167561938E-02 -3.95630563776E-01 -3.33853705320E-02
3.03000000000E+09 -4.22768571856E-01 +6.14109033923E-02 -5.27409523381E-03 -1.08847866207E-02 -5.12927687325E-03 -1.08965724088E-02 -4.10466009879E-01 +7.19161456671E-03
3.03500000000E+09 -4.22981185863E-01 +9.34347894145E-02 -7.02601256893E-03 -1.03494023784E-02 -6.72324119532E-03 -1.05201833477E-02 -4.21591305791E-01 +4.68432025112E-02
3.04000000000E+09 -4.20178639161E-01 +1.25447332378E-01 -8.92948565422E-03 -8.20603254393E-03 -8.82447374784E-03 -8.72759548150E-03 -4.30653461341E-01 +8.80498328915E-02
3.04500000000E+09 -4.14450505497E-01 +1.57607301247E-01 -9.00395462582E-03 -6.26620438876E-03 -9.36643594634E-03 -6.76692165447E-03 -4.36142530461E-01 +1.28128837751E-01
3.05000000000E+09 -4.06391753552E-01 +1.91124031189E-01 -9.17303657431E-03 -5.04390606650E-03 -9.89637067959E-03 -4.96490653984E-03 -4.39163295586E-01 +1.67766038297E-01
3.05500000000E+09 -3.95375519239E-01 +2.25679402181E-01 -9.23169448578E-03 -4.08243735154E-03 -9.62496954446E-03 -3.58416522888E-03 -4.39951456429E-01 +2.06105035021E-01
3.06000000000E+09 -3.82257741784E-01 +2.59528557781E-01 -9.78733153233E-03 -3.36784035182E-03 -9.55664650604E-03 -2.77356692482E-03 -4.38356139892E-01 +2.43669640697E-01
3.06500000000E+09 -3.68141671486E-01 +2.92387426833E-01 -1.07068376999E-02 -1.67431349960E-03 -1.00160094709E-02 -1.57576690016E-03 -4.35426502028E-01 +2.81092412163E-01
3.07000000000E+09 -3.54092783841E-01 +3.23383442945E-01 -1.03710104302E-02 +2.07115293062E-04 -1.00202238260E-02 -3.58638778361E-04 -4.28398454977E-01 +3.17759605009E-01
