# Hz S RI R 50
! CMT, C1220, 16058040, 17.2.0/1
! Date: 15/08/2018 10:41:26
! Data: Format (Calibration Info)
! Freq                      S11: Re/Im (F2)                       S21: Re/Im (F2)                       S12: Re/Im (F2)                       S22: Re/Im (F2)            
2.50000000000E+09 +5.91796295182E-01 +6.48264277550E-01 -6.46471686072E-05 -2.97153123142E-04 -9.99616852622E-05 -3.18714171829E-04 +5.63788750311E-01 +7.25246859342E-01
2.50500000000E+09 +5.98453246688E-01 +6.39979342119E-01 -9.83949395625E-05 -3.15938486917E-04 -1.43069559863E-04 -3.38184913916E-04 +5.69771792849E-01 +7.19658889040E-01
2.51000000000E+09 +6.05920762460E-01 +6.31865019640E-01 -1.68492168819E-04 -3.69537516734E-04 -1.70215951064E-04 -3.34124535476E-04 +5.75689339422E-01 +7.14498322229E-01
2.51500000000E+09 +6.13642867003E-01 +6.24064059082E-01 -2.26993888992E-04 -3.88930418272E-04 -2.48910303755E-04 -3.86209155025E-04 +5.81189376323E-01 +7.08986851337E-01
2.52000000000E+09 +6.20528362650E-01 +6.16503256366E-01 -2.91972231051E-04 -3.37158726896E-04 -2.80673518772E-04 -3.86431332309E-04 +5.86603108803E-01 +7.02894477796E-01
2.52500000000E+09 +6.26341367741E-01 +6.10098536701E-01 -3.40377459648E-04 -3.18120839381E-04 -4.04692149787E-04 -3.36685041838E-04 +5.92615358154E-01 +6.96456696660E-01
2.53000000000E+09 +6.31133557877E-01 +6.04541952554E-01 -4.25970583992E-04 -3.39173492015E-04 -4.55563348257E-04 -3.13494475221E-04 +5.98953410265E-01 +6.89171378329E-01
2.53500000000E+09 +6.35118090429E-01 +5.99113155334E-01 -5.14767656138E-04 -2.26877688226E-04 -5.19668803315E-04 -2.36257126354E-04 +6.04924520260E-01 +6.82173172960E-01
2.54000000000E+09 +6.38512967905E-01 +5.93271180310E-01 -4.57879804623E-04 -1.80106329796E-04 -4.62355498223E-04 -1.41301396052E-04 +6.10593377676E-01 +6.75317670506E-01
2.54500000000E+09 +6.42025539872E-01 +5.87070605925E-01 -5.47434298029E-04 -1.13101302190E-04 -5.13269299276E-04 -1.48076979312E-04 +6.15878682104E-01 +6.68948134281E-01
2.55000000000E+09 +6.46233839905E-01 +5.79555584551E-01 -5.61156037381E-04 -1.12940599679E-04 -5.85598082606E-04 -1.06596799333E-04 +6.21071382574E-01 +6.62915727636E-01
2.55500000000E+09 +6.51477334464E-01 +5.70530117956E-01 -6.09772578835E-04 -1.77747701452E-05 -7.33932184336E-04 -4.90158401699E-06 +6.26087099433E-01 +6.56609982572E-01
2.56000000000E+09 +6.58067125270E-01 +5.61017686889E-01 -5.69099884660E-04 +6.54926577437E-05 -6.52165234222E-04 +1.32004138847E-04 +6.31132929744E-01 +6.49692530158E-01
2.56500000000E+09 +6.65557433933E-01 +5.50636171771E-01 -6.25447945668E-04 +7.77211102800E-05 -6.40461521196E-04 +1.65329639388E-04 +6.36402545160E-01 +6.42241139898E-01
2.57000000000E+09 +6.73281601742E-01 +5.40532175219E-01 -5.69792313476E-04 +9.08704427724E-05 -5.74728213151E-04 +2.25295308480E-04 +6.41607212011E-01 +6.34431507903E-01
2.57500000000E+09 +6.80801277706E-01 +5.31197805528E-01 -6.37593234486E-04 +1.22128802111E-04 -5.69167325067E-04 +2.33672580662E-04 +6.46823959680E-01 +6.27197746011E-01
2.58000000000E+09 +6.87165005861E-01 +5.23045210827E-01 -7.14035403775E-04 +1.74973488447E-04 -5.97376960852E-04 +2.40918825281E-04 +6.52015213012E-01 +6.20060278344E-01
2.58500000000E+09 +6.92481454885E-01 +5.15810590748E-01 -7.40185327025E-04 +3.60345780646E-04 -6.63774073701E-04 +2.80219333755E-04 +6.57188930851E-01 +6.12779209467E-01
2.59000000000E+09 +6.96556086499E-01 +5.09718091564E-01 -6.73332872707E-04 +5.33758968331E-04 -6.66919645935E-04 +4.38495815973E-04 +6.62253532218E-01 +6.05666187408E-01
2.59500000000E+09 +6.99716604024E-01 +5.03869828789E-01 -6.34540739434E-04 +5.94386837556E-04 -6.57144521698E-04 +5.33707548341E-04 +6.67671263048E-01 +5.97995041116E-01
2.60000000000E+09 +7.01868800589E-01 +4.97247225649E-01 -5.59078753167E-04 +6.26577896812E-04 -5.45833873266E-04 +6.47441043063E-04 +6.73415733768E-01 +5.89717880673E-01
2.60500000000E+09 +7.04346461626E-01 +4.89054253071E-01 -5.39063484446E-04 +6.39192447626E-04 -5.55074889086E-04 +6.91094923350E-04 +6.79122321078E-01 +5.80816907355E-01
2.61000000000E+09 +7.07169329380E-01 +4.78943690119E-01 -5.64368289129E-04 +8.24412482177E-04 -5.79482528146E-04 +8.58519587932E-04 +6.84504421688E-01 +5.71852126059E-01
2.61500000000E+09 +7.11209178582E-01 +4.66610458840E-01 -3.65580625860E-04 +9.27544271681E-04 -3.44879526391E-04 +1.00698273207E-03 +6.89652400264E-01 +5.63147888633E-01
2.62000000000E+09 +7.15538719041E-01 +4.52274900278E-01 -2.78371563272E-04 +8.42275826670E-04 -2.47773655940E-04 +9.10750823730E-04 +6.94823138082E-01 +5.54197263620E-01
2.62500000000E+09 +7.20611962604E-01 +4.37131709216E-01 -3.00059741093E-04 +8.98131189183E-04 -2.87671384219E-04 +1.02387102729E-03 +6.99726106547E-01 +5.45114789650E-01
2.63000000000E+09 +7.26027352053E-01 +4.22226657747E-01 -2.48761596756E-04 +1.05928854678E-03 -1.07592645569E-04 +1.09925890993E-03 +7.04566998663E-01 +5.35738120556E-01
2.63500000000E+09 +7.30991360268E-01 +4.08207278795E-01 -1.94424494696E-04 +1.19146198105E-03 -9.85727373932E-05 +1.05145101941E-03 +7.09161699081E-01 +5.26212380060E-01
2.64000000000E+09 +7.35546706454E-01 +3.96099019946E-01 +1.84166342261E-05 +1.44381777373E-03 -1.87035225050E-05 +1.25653707184E-03 +7.13781214401E-01 +5.16354711356E-01
2.64500000000E+09 +7.39446089806E-01 +3.85996835299E-01 +4.61556812891E-04 +1.42904105548E-03 +3.27706692657E-04 +1.22202152880E-03 +7.18104762580E-01 +5.06554401358E-01
2.65000000000E+09 +7.42276942816E-01 +3.77350338168E-01 +6.06545153342E-04 +1.09667909512E-03 +4.36451354830E-04 +1.07898300057E-03 +7.22304731676E-01 +4.96344845064E-01
2.65500000000E+09 +7.44669344212E-01 +3.69104896050E-01 +4.74924558665E-04 +1.04225173907E-03 +3.73296229202E-04 +1.18354849438E-03 +7.26222285739E-01 +4.85861070033E-01
2.66000000000E+09 +7.46266669887E-01 +3.60899899003E-01 +4.75441024427E-04 +1.25189651596E-03 +4.92545929152E-04 +1.35246531031E-03 +7.30204429460E-01 +4.74666312052E-01
2.66500000000E+09 +7.47833839547E-01 +3.51916933923E-01 +8.30173069143E-04 +1.36482657219E-03 +8.95905344816E-04 +1.33445914086E-03 +7.34286054571E-01 +4.63673907774E-01
2.67000000000E+09 +7.49109095624E-01 +3.40647001055E-01 +1.09161184088E-03 +1.17668297558E-03 +1.12382962528E-03 +1.07945535256E-03 +7.38629078767E-01 +4.52858920372E-01
2.67500000000E+09 +7.50701757128E-01 +3.27363919967E-01 +1.26366833900E-03 +1.05324680580E-03 +1.20874400474E-03 +9.63141124543E-04 +7.42692736828E-01 +4.41930432695E-01
2.68000000000E+09 +7.52446353752E-01 +3.12047408375E-01 +1.43805170962E-03 +8.30990730379E-04 +1.34710375560E-03 +7.79159991118E-04 +7.46502637312E-01 +4.31050147199E-01
2.68500000000E+09 +7.54128378953E-01 +2.95277296163E-01 +1.38664021127E-03 +7.95939699106E-04 +1.36118773914E-03 +8.10013858362E-04 +7.49829228719E-01 +4.19707147991E-01
2.69000000000E+09 +7.55704026948E-01 +2.78432642298E-01 +1.68325153037E-03 +7.44051317113E-04 +1.64246742180E-03 +7.61934386311E-04 +7.52630561688E-01 +4.07946296052E-01
2.69500000000E+09 +7.57357914724E-01 +2.61969732144E-01 +1.88514839679E-03 +5.61302338845E-04 +1.81353357822E-03 +5.28571045903E-04 +7.55706037154E-01 +3.95798812972E-01
2.70000000000E+09 +7.58992186415E-01 +2.46513053068E-01 +2.16280382243E-03 +2.33112482912E-04 +2.06795342261E-03 +2.64883932413E-04 +7.58990080688E-01 +3.82437727571E-01
2.70500000000E+09 +7.60188622751E-01 +2.32280145838E-01 +2.14842374522E-03 -1.73689411139E-04 +2.13558398181E-03 -8.27961076418E-05 +7.61749408882E-01 +3.69255204868E-01
2.71000000000E+09 +7.61035598286E-01 +2.18931248373E-01 +2.07096709585E-03 -5.08730130753E-04 +2.12644449961E-03 -3.83753688440E-04 +7.65014019942E-01 +3.56240434042E-01
2.71500000000E+09 +7.61877677084E-01 +2.05867119711E-01 +1.91947481296E-03 -7.94654278896E-04 +2.01243062979E-03 -8.17235181852E-04 +7.67740929044E-01 +3.43605769807E-01
2.72000000000E+09 +7.62054775087E-01 +1.92772609861E-01 +1.70013433220E-03 -8.99408409001E-04 +1.77667587816E-03 -1.02720012578E-03 +7.69955196853E-01 +3.30963462673E-01
2.72500000000E+09 +7.61978117883E-01 +1.78760468153E-01 +1.82081495326E-03 -1.00929486284E-03 +1.67701875342E-03 -1.17083595970E-03 +7.71563628478E-01 +3.17354205615E-01
2.73000000000E+09 +7.60988000406E-01 +1.63346584161E-01 +1.84461709415E-03 -1.36375278839E-03 +1.54406347010E-03 -1.41552660446E-03 +7.73039020191E-01 +3.03114472829E-01
2.73500000000E+09 +7.59144244526E-01 +1.46695278088E-01 +1.59420294562E-03 -1.72455965559E-03 +1.34190270447E-03 -1.52158438388E-03 +7.74667053749E-01 +2.88212981110E-01
2.74000000000E+09 +7.56723347283E-01 +1.29487035062E-01 +1.26421612398E-03 -1.75858978042E-03 +1.23329292901E-03 -1.47543117988E-03 +7.76261097737E-01 +2.72738986030E-01
2.74500000000E+09 +7.53230681863E-01 +1.11501109103E-01 +1.26153843139E-03 -1.98165539140E-03 +1.46209878813E-03 -1.75138945908E-03 +7.77656988038E-01 +2.57085074205E-01
2.75000000000E+09 +7.49025272994E-01 +9.34238681709E-02 +1.00115716515E-03 -2.22092205478E-03 +1.27506139923E-03 -2.21420805714E-03 +7.78626587537E-01 +2.41308413883E-01
2.75500000000E+09 +7.44135355449E-01 +7.61524136019E-02 +7.70740675793E-04 -2.46964317079E-03 +9.49933631203E-04 -2.59684268805E-03 +7.78188830142E-01 +2.25380401864E-01
2.76000000000E+09 +7.39493912568E-01 +5.90582530708E-02 +2.57600713215E-04 -2.60140690652E-03 +3.30494905947E-04 -2.80210609495E-03 +7.77150138524E-01 +2.09751794377E-01
2.76500000000E+09 +7.34166674622E-01 +4.16171628127E-02 -1.00228109666E-04 -2.46066322294E-03 -7.51530292366E-05 -2.65125510330E-03 +7.76062712064E-01 +1.92940281301E-01
2.77000000000E+09 +7.28595118768E-01 +2.35114748423E-02 -3.27115576209E-04 -2.57716009242E-03 -4.06922839933E-04 -2.70715729115E-03 +7.74396287002E-01 +1.75351448825E-01
2.77500000000E+09 +7.22206706450E-01 +4.60810836852E-03 -7.86599264291E-04 -2.49500571642E-03 -9.68431871137E-04 -2.56588269099E-03 +7.71986083101E-01 +1.57732290079E-01
2.78000000000E+09 +7.15424734574E-01 -1.49683926031E-02 -9.95670714082E-04 -2.25598641087E-03 -1.17634042959E-03 -2.21800541308E-03 +7.69625979753E-01 +1.40234101388E-01
2.78500000000E+09 +7.08219666646E-01 -3.55627849067E-02 -1.33307739278E-03 -2.01738074062E-03 -1.44241451798E-03 -1.91095076386E-03 +7.66839622923E-01 +1.23051273691E-01
2.79000000000E+09 +7.00750786536E-01 -5.67276345951E-02 -1.35331870605E-03 -1.80740602398E-03 -1.36699091641E-03 -1.69888112616E-03 +7.63475563953E-01 +1.06089951598E-01
2.79500000000E+09 +6.92801031575E-01 -7.81445452460E-02 -1.46396753392E-03 -1.89309085478E-03 -1.35743582971E-03 -1.77525882849E-03 +7.59395198718E-01 +8.84574075249E-02
2.80000000000E+09 +6.83878153091E-01 -9.89434069142E-02 -1.84539524587E-03 -1.79915679655E-03 -1.69148079121E-03 -1.81121874183E-03 +7.54332238458E-01 +7.06888595042E-02
2.80500000000E+09 +6.74544487651E-01 -1.18341652532E-01 -2.00069233335E-03 -1.60858003446E-03 -1.90636192680E-03 -1.68450407237E-03 +7.48709632668E-01 +5.22438399424E-02
2.81000000000E+09 +6.64187697578E-01 -1.36215262028E-01 -2.33301326648E-03 -1.43330072726E-03 -2.35169268763E-03 -1.51051889981E-03 +7.43065848458E-01 +3.37130658590E-02
2.81500000000E+09 +6.52341854787E-01 -1.52200524186E-01 -2.56602302138E-03 -1.17696918875E-03 -2.63065066208E-03 -1.16203350078E-03 +7.37023680297E-01 +1.41421630545E-02
2.82000000000E+09 +6.39482744327E-01 -1.67229442703E-01 -2.74472956358E-03 -7.92023759661E-04 -2.76821564829E-03 -6.45757247487E-04 +7.30145732481E-01 -5.78119205312E-03
2.82500000000E+09 +6.24722579092E-01 -1.82057457706E-01 -2.87971190301E-03 -3.32884781095E-04 -2.76575860008E-03 -2.62035745082E-04 +7.22322279685E-01 -2.57735406201E-02
2.83000000000E+09 +6.07887290396E-01 -1.97355077982E-01 -2.97649488598E-03 +6.24692511774E-05 -2.80311099584E-03 +7.98660092395E-05 +7.13838985122E-01 -4.60925927054E-02
2.83500000000E+09 +5.89243273946E-01 -2.13823209438E-01 -2.81745798658E-03 +7.33643344764E-04 -2.71351614425E-03 +6.11793405894E-04 +7.03854497482E-01 -6.68776140273E-02
2.84000000000E+09 +5.68136064963E-01 -2.32464352031E-01 -2.22346564877E-03 +9.45361831980E-04 -2.20983141337E-03 +8.17953403121E-04 +6.92577870826E-01 -8.83602460066E-02
2.84500000000E+09 +5.44683943689E-01 -2.52409829425E-01 -2.15154081578E-03 +6.24302091041E-04 -2.20373010408E-03 +6.20716528429E-04 +6.79196007619E-01 -1.09395993682E-01
2.85000000000E+09 +5.19299123540E-01 -2.72696774091E-01 -2.46037624327E-03 +8.19922666467E-04 -2.49756838574E-03 +8.50566425208E-04 +6.65185733612E-01 -1.29558041133E-01
2.85500000000E+09 +4.92987541850E-01 -2.92397458587E-01 -2.59368059052E-03 +1.36617016852E-03 -2.52979260058E-03 +1.32201037402E-03 +6.49935723913E-01 -1.49438380144E-01
2.86000000000E+09 +4.66901799121E-01 -3.10035791177E-01 -2.19248750921E-03 +1.91198103314E-03 -2.20663335581E-03 +1.86750588146E-03 +6.34615955396E-01 -1.69296639385E-01
2.86500000000E+09 +4.42333517692E-01 -3.25690460913E-01 -1.99165027461E-03 +1.91774090205E-03 -2.04047224360E-03 +1.91950126995E-03 +6.17360247434E-01 -1.90151809301E-01
2.87000000000E+09 +4.18255075179E-01 -3.40065053473E-01 -1.83307421610E-03 +2.59287037644E-03 -1.88101276480E-03 +2.60177755337E-03 +5.98214091451E-01 -2.10098648119E-01
2.87500000000E+09 +3.93540525742E-01 -3.51849901352E-01 -9.97593066955E-04 +2.43397345905E-03 -9.52763897155E-04 +2.42761178452E-03 +5.77553519830E-01 -2.29068478615E-01
2.88000000000E+09 +3.68695994476E-01 -3.61400535728E-01 -1.21330211231E-03 +2.22096338602E-03 -1.10230221792E-03 +2.19601610772E-03 +5.56953827338E-01 -2.46594096400E-01
2.88500000000E+09 +3.41408330358E-01 -3.69624291010E-01 -1.04115977437E-03 +2.85295927308E-03 -9.10338850275E-04 +2.68882869037E-03 +5.35296401042E-01 -2.65530085271E-01
2.89000000000E+09 +3.11154378618E-01 -3.75789760200E-01 -5.96851019681E-04 +2.91739246532E-03 -6.75960894469E-04 +2.74638421179E-03 +5.10708510940E-01 -2.83202322383E-01
2.89500000000E+09 +2.78876555895E-01 -3.79435833996E-01 -1.05064762582E-04 +3.06344266976E-03 -1.89570263492E-04 +2.96092964927E-03 +4.85454207586E-01 -2.99995120895E-01
2.90000000000E+09 +2.44938154754E-01 -3.82012894098E-01 +4.13103304591E-04 +2.93651463331E-03 +3.66864564932E-04 +3.02989451308E-03 +4.58898113910E-01 -3.17164826035E-01
2.90500000000E+09 +2.08677082245E-01 -3.83700430352E-01 +7.06016650117E-04 +2.76991535676E-03 +7.25020945256E-04 +2.78147269007E-03 +4.30773649601E-01 -3.33495184824E-01
2.91000000000E+09 +1.71890147766E-01 -3.83475541761E-01 +1.08678124970E-03 +2.72480980453E-03 +1.19849695278E-03 +2.67368437427E-03 +4.01371458011E-01 -3.49968382338E-01
2.91500000000E+09 +1.35228904506E-01 -3.81991865333E-01 +1.55249437018E-03 +2.67954764622E-03 +1.50184367881E-03 +2.54980521417E-03 +3.68662430976E-01 -3.63812833912E-01
2.92000000000E+09 +9.87292257742E-02 -3.78180511586E-01 +2.14857454433E-03 +2.09878786577E-03 +1.99260217939E-03 +1.97938020214E-03 +3.34449626749E-01 -3.75206650418E-01
2.92500000000E+09 +6.40962328554E-02 -3.71128015326E-01 +2.30520438564E-03 +1.34140769049E-03 +2.04845493803E-03 +1.35632030704E-03 +2.98955360065E-01 -3.83061389891E-01
2.93000000000E+09 +3.18512092396E-02 -3.62008002840E-01 +1.79056337491E-03 +8.26736848549E-04 +1.71804488025E-03 +9.42780683621E-04 +2.62895704814E-01 -3.90414097692E-01
2.93500000000E+09 +8.27454591862E-04 -3.50814945391E-01 +1.56286098174E-03 +1.08794809144E-03 +1.51617289645E-03 +1.15863503746E-03 +2.24722589908E-01 -3.96664990045E-01
2.94000000000E+09 -3.00109369633E-02 -3.37187606803E-01 +1.73141594619E-03 +8.63298611041E-04 +1.66817122152E-03 +8.95263028510E-04 +1.83460379252E-01 -4.00268478940E-01
2.94500000000E+09 -6.06011607295E-02 -3.20333831515E-01 +1.43655727536E-03 +9.77014163174E-04 +1.39677070198E-03 +9.41687260929E-04 +1.43908703445E-01 -3.99821735542E-01
2.95000000000E+09 -9.11720079647E-02 -3.00069866257E-01 +1.96932275571E-03 +8.89093839000E-04 +1.95061682251E-03 +1.01059286338E-03 +1.03502162956E-01 -3.98201401868E-01
2.95500000000E+09 -1.20191379066E-01 -2.76945857134E-01 +1.85068022961E-03 +4.88173576123E-04 +1.84865209285E-03 +5.99599463634E-04 +6.27374941154E-02 -3.93037083704E-01
2.96000000000E+09 -1.48670226129E-01 -2.52906819524E-01 +1.71401633222E-03 +2.03148235689E-04 +1.80010999435E-03 +2.37969033484E-04 +2.12004462370E-02 -3.84506951040E-01
2.96500000000E+09 -1.76242673149E-01 -2.26522022224E-01 +1.55702113029E-03 +4.84582464940E-04 +1.63011477404E-03 +4.85585839456E-04 -1.95528595221E-02 -3.71922458695E-01
2.97000000000E+09 -2.01285079315E-01 -1.98810589614E-01 +1.82302093805E-03 +3.10395470648E-04 +1.82432016606E-03 +2.54981830584E-04 -5.92752965617E-02 -3.56748212808E-01
2.97500000000E+09 -2.24172598758E-01 -1.70320891071E-01 +1.82366071617E-03 +2.73920084476E-04 +1.81381451617E-03 +2.77824390953E-04 -9.78691473152E-02 -3.40517979863E-01
2.98000000000E+09 -2.45160870814E-01 -1.41304245494E-01 +1.87965822794E-03 +4.52677584188E-04 +1.85518197611E-03 +5.23655893209E-04 -1.36680444765E-01 -3.21714657363E-01
2.98500000000E+09 -2.63778478048E-01 -1.10824182822E-01 +2.51105721939E-03 +1.93673567045E-04 +2.63708720072E-03 +2.77687394927E-04 -1.74512136956E-01 -2.99697111868E-01
2.99000000000E+09 -2.80008111035E-01 -7.91494858451E-02 +2.50434689131E-03 -4.02272951912E-04 +2.62009653751E-03 -4.31444328153E-04 -2.10489845842E-01 -2.73426528875E-01
2.99500000000E+09 -2.93692997748E-01 -4.71297918176E-02 +2.38770610744E-03 -7.39515992131E-04 +2.44235841391E-03 -9.19563048666E-04 -2.43856743188E-01 -2.44016277287E-01
3.00000000000E+09 -3.06667971995E-01 -1.40381643682E-02 +2.34469849644E-03 -9.37414866065E-04 +2.28151261647E-03 -1.03231399422E-03 -2.75016711679E-01 -2.12583250091E-01
3.00500000000E+09 -3.16848200299E-01 +1.93089149119E-02 +2.33818147813E-03 -1.31551616222E-03 +2.17426762185E-03 -1.26645071824E-03 -3.04420731224E-01 -1.79765813388E-01
3.01000000000E+09 -3.25599421660E-01 +5.25031407302E-02 +2.10807912640E-03 -1.72643454499E-03 +2.00679641996E-03 -1.57452154873E-03 -3.31312786172E-01 -1.43910380514E-01
3.01500000000E+09 -3.31974623291E-01 +8.60008444709E-02 +1.77775892620E-03 -2.01639137399E-03 +1.77966112608E-03 -1.92616763988E-03 -3.54994096605E-01 -1.08524983670E-01
3.02000000000E+09 -3.34474515980E-01 +1.17850779987E-01 +1.46062884845E-03 -2.33746305665E-03 +1.54259663778E-03 -2.30534617891E-03 -3.76389812470E-01 -7.08221521253E-02
3.02500000000E+09 -3.34901045727E-01 +1.47400079853E-01 +9.07021222979E-04 -2.24859120617E-03 +9.22630072813E-04 -2.24560420913E-03 -3.94258754747E-01 -3.24608454187E-02
3.03000000000E+09 -3.33250982816E-01 +1.75616386639E-01 +1.01156094249E-03 -2.07509140708E-03 +1.01070005285E-03 -2.10982841217E-03 -4.09615325963E-01 +7.65268576514E-03
3.03500000000E+09 -3.29499873388E-01 +2.03600673650E-01 +7.47422747148E-04 -2.38835850154E-03 +7.57979431746E-04 -2.38203393591E-03 -4.21567915091E-01 +4.86694017780E-02
3.04000000000E+09 -3.22434908252E-01 +2.32471845316E-01 +4.37814836309E-04 -2.61490455633E-03 +5.02775405709E-04 -2.66591881378E-03 -4.28645181958E-01 +8.97214078957E-02
3.04500000000E+09 -3.12339145180E-01 +2.60262206649E-01 -2.89973022986E-04 -2.36640469943E-03 -3.12068394646E-04 -2.43611357040E-03 -4.34462563936E-01 +1.28794136028E-01
3.05000000000E+09 -3.00783954823E-01 +2.89369174587E-01 -1.80329649596E-04 -1.93764363420E-03 -2.63123258705E-04 -2.08423294700E-03 -4.38010533991E-01 +1.67616623574E-01
3.05500000000E+09 -2.86450559760E-01 +3.17798304937E-01 -8.11121018557E-05 -1.97455734046E-03 -1.82140845472E-04 -1.96890372545E-03 -4.39515855288E-01 +2.06621784086E-01
3.06000000000E+09 -2.71944922183E-01 +3.45317917362E-01 -7.49138640682E-05 -2.21642603308E-03 -1.17871228535E-04 -2.17918785756E-03 -4.38081785581E-01 +2.44634808166E-01
3.06500000000E+09 -2.57188224096E-01 +3.71619309824E-01 -4.76380397054E-04 -2.64218480878E-03 -4.08869837056E-04 -2.53024255310E-03 -4.34083457708E-01 +2.82287134787E-01
3.07000000000E+09 -2.44136914433E-01 +3.95757720870E-01 -1.29053843278E-03 -2.65899109594E-03 -1.10312789531E-03 -2.67467465127E-03 -4.28137201100E-01 +3.18623899306E-01
