# Hz S RI R 50
! CMT, C1220, 16058040, 17.2.0/1
! Date: 15/08/2018 10:18:57
! Data: Format (Calibration Info)
! Freq                      S11: Re/Im (F2)                       S21: Re/Im (F2)                       S12: Re/Im (F2)                       S22: Re/Im (F2)            
2.50000000000E+09 +5.95973104668E-01 +6.35528191964E-01 -3.04756346693E-04 +1.60266463622E-04 -3.25459617090E-04 +2.16145751394E-04 +5.72763420858E-01 +7.17087690573E-01
2.50500000000E+09 +6.02393920762E-01 +6.27801959950E-01 -2.23749074932E-04 +2.80936591504E-04 -2.32899679888E-04 +3.39111864294E-04 +5.78311926276E-01 +7.11575282361E-01
2.51000000000E+09 +6.08895829430E-01 +6.19692335802E-01 -1.19440105047E-04 +2.96930889582E-04 -1.27271710583E-04 +3.10401463493E-04 +5.83797822497E-01 +7.06292772816E-01
2.51500000000E+09 +6.15120815459E-01 +6.11887845695E-01 -1.74808358774E-04 +2.79838327998E-04 -1.27569413228E-04 +2.57503419195E-04 +5.89006443936E-01 +7.00978394168E-01
2.52000000000E+09 +6.21127734427E-01 +6.04099366835E-01 -3.75247699034E-05 +2.78357826309E-04 -4.60129372332E-05 +3.07393055206E-04 +5.94238729647E-01 +6.95118997761E-01
2.52500000000E+09 +6.26445210427E-01 +5.96898089561E-01 -6.81034645848E-05 +2.43808168928E-04 -6.56486053934E-05 +2.31095096747E-04 +5.99856564738E-01 +6.88862315384E-01
2.53000000000E+09 +6.31250460025E-01 +5.90080065374E-01 -1.29731126834E-05 +2.74061680529E-04 -5.54417403280E-05 +2.23471822076E-04 +6.06063037972E-01 +6.82032557447E-01
2.53500000000E+09 +6.35738558388E-01 +5.83914280326E-01 -1.85679625614E-06 +2.34005422711E-04 -1.34727201003E-05 +2.46910267444E-04 +6.12151418285E-01 +6.75247200037E-01
2.54000000000E+09 +6.40006354137E-01 +5.77761393442E-01 -6.05175966949E-05 +3.07049704547E-04 -5.56764309565E-05 +2.60022185136E-04 +6.18000872534E-01 +6.68524255571E-01
2.54500000000E+09 +6.44212137500E-01 +5.71811179565E-01 +4.14477780183E-05 +3.49069013219E-04 -1.25552958239E-05 +3.35682337853E-04 +6.23795124505E-01 +6.62157530252E-01
2.55000000000E+09 +6.49101417911E-01 +5.66036420412E-01 +1.19457624919E-04 +2.78681186748E-04 +9.99999554394E-05 +3.02039124106E-04 +6.29227766115E-01 +6.55854522403E-01
2.55500000000E+09 +6.54673376168E-01 +5.59177198773E-01 +2.24220680972E-04 +2.38125751533E-04 +2.01532900084E-04 +2.37821320229E-04 +6.34637677875E-01 +6.49195195918E-01
2.56000000000E+09 +6.60735137621E-01 +5.51858747221E-01 +2.00196396834E-04 +9.07216710342E-05 +1.79104785216E-04 +1.05740141432E-04 +6.40007668585E-01 +6.42026771767E-01
2.56500000000E+09 +6.67127437234E-01 +5.43430268094E-01 -2.05199422426E-05 +3.22446279482E-05 -4.72497346341E-06 +5.38110496045E-05 +6.45507335892E-01 +6.34364076509E-01
2.57000000000E+09 +6.73331464012E-01 +5.34754294661E-01 -7.78027268342E-05 +2.17469723576E-04 -5.08753504122E-05 +2.17457894372E-04 +6.50894943271E-01 +6.26510412248E-01
2.57500000000E+09 +6.79478279636E-01 +5.25665423917E-01 +3.89285692256E-06 +3.00746552319E-04 +6.63494898469E-05 +2.22752488268E-04 +6.56183396006E-01 +6.18766213444E-01
2.58000000000E+09 +6.84879868476E-01 +5.16944175208E-01 +9.65204140950E-05 +3.44377340361E-04 +8.43708269309E-05 +2.66419268768E-04 +6.61109537853E-01 +6.11443955517E-01
2.58500000000E+09 +6.90198578436E-01 +5.07969252078E-01 +1.49228439391E-04 +2.77446523071E-04 +1.06748176436E-04 +2.46756692562E-04 +6.66005994395E-01 +6.03912139398E-01
2.59000000000E+09 +6.94683194218E-01 +4.99430177612E-01 +1.22188882260E-04 +2.12706396784E-04 +1.04697013714E-04 +2.69510501069E-04 +6.70767720449E-01 +5.96336361050E-01
2.59500000000E+09 +6.98967098298E-01 +4.90921049203E-01 +1.45329249748E-04 +2.81141996545E-04 +1.31161806089E-04 +2.92193088062E-04 +6.75677427605E-01 +5.88277042572E-01
2.60000000000E+09 +7.02979154756E-01 +4.82162811855E-01 +2.01982243576E-04 +3.24058355758E-04 +1.75392820919E-04 +3.34491957746E-04 +6.80670935327E-01 +5.79771991132E-01
2.60500000000E+09 +7.07208761320E-01 +4.72878954000E-01 +2.59825093119E-04 +3.37202061221E-04 +2.02714478553E-04 +3.31948455531E-04 +6.85940687329E-01 +5.71188038240E-01
2.61000000000E+09 +7.11526031524E-01 +4.62678288457E-01 +3.99628615017E-04 +4.30202028510E-04 +4.00398651294E-04 +4.10529910730E-04 +6.91163472709E-01 +5.62314648871E-01
2.61500000000E+09 +7.16104883930E-01 +4.51312941336E-01 +5.03643366108E-04 +2.01376487203E-04 +5.16076879123E-04 +2.45671445861E-04 +6.95957946365E-01 +5.53701415462E-01
2.62000000000E+09 +7.20164497353E-01 +4.38768823165E-01 +4.14917242153E-04 +1.32125173688E-04 +4.38404382124E-04 +1.26404580231E-04 +7.00667839927E-01 +5.44720985279E-01
2.62500000000E+09 +7.23953878745E-01 +4.25614657133E-01 +4.18763694502E-04 +1.70489962719E-04 +4.55245929207E-04 +1.62841047615E-04 +7.05468669558E-01 +5.35810769959E-01
2.63000000000E+09 +7.27694045022E-01 +4.12189365915E-01 +4.53863255023E-04 +1.95687709230E-04 +4.80642121274E-04 +8.75793768886E-05 +7.10323822665E-01 +5.26491566930E-01
2.63500000000E+09 +7.30891520156E-01 +3.98754975640E-01 +5.09961349630E-04 +1.36783324613E-04 +5.35055193643E-04 +6.85395471152E-06 +7.15341711774E-01 +5.17004252410E-01
2.64000000000E+09 +7.33835705450E-01 +3.85873324405E-01 +6.27881344249E-04 -2.38646216788E-06 +5.31913721477E-04 -3.78321201561E-06 +7.20305935371E-01 +5.07076409373E-01
2.64500000000E+09 +7.36662984321E-01 +3.73694877815E-01 +5.68899294430E-04 -1.54112342847E-04 +5.36462653901E-04 -9.99136859608E-05 +7.25005782500E-01 +4.97110575470E-01
2.65000000000E+09 +7.38983532748E-01 +3.62428242793E-01 +5.05966574227E-04 -1.75459351141E-04 +5.34307467916E-04 -7.98847283227E-05 +7.29127489666E-01 +4.87023241491E-01
2.65500000000E+09 +7.41420161084E-01 +3.51475089832E-01 +5.51716043345E-04 -2.07511998985E-04 +6.40847754161E-04 -1.26911557497E-04 +7.33171099223E-01 +4.76625296574E-01
2.66000000000E+09 +7.44263407604E-01 +3.40770369783E-01 +5.61049894635E-04 -3.00591294830E-04 +5.87161072559E-04 -3.35517507095E-04 +7.36938903915E-01 +4.65332182543E-01
2.66500000000E+09 +7.46983448148E-01 +3.29406364536E-01 +5.82759760700E-04 -3.72651295212E-04 +5.67064778118E-04 -3.33769734991E-04 +7.40768210326E-01 +4.54015310433E-01
2.67000000000E+09 +7.49072003551E-01 +3.17150091682E-01 +5.57616519481E-04 -6.03355163746E-04 +5.32183831528E-04 -5.66035215677E-04 +7.44870788948E-01 +4.43318935762E-01
2.67500000000E+09 +7.50619611925E-01 +3.04477435678E-01 +3.30420145974E-04 -5.96425735376E-04 +3.28157263291E-04 -5.61754475211E-04 +7.49123595380E-01 +4.31947828058E-01
2.68000000000E+09 +7.51974015710E-01 +2.91012385549E-01 +2.83387436228E-04 -5.29610015494E-04 +2.96134202134E-04 -5.47712101719E-04 +7.52632038300E-01 +4.20529289384E-01
2.68500000000E+09 +7.52739914635E-01 +2.76931249196E-01 +2.64878442558E-04 -6.00608137862E-04 +2.56330001865E-04 -5.29595585744E-04 +7.55289313468E-01 +4.08983547326E-01
2.69000000000E+09 +7.53046578487E-01 +2.62611931900E-01 +2.85539775917E-04 -6.04455968778E-04 +2.98888443520E-04 -5.33406481670E-04 +7.57737164260E-01 +3.97248582856E-01
2.69500000000E+09 +7.53108610379E-01 +2.48211919228E-01 +2.56452921518E-04 -7.08381940417E-04 +2.87774054432E-04 -6.86088355297E-04 +7.60329955213E-01 +3.84794130582E-01
2.70000000000E+09 +7.53109925032E-01 +2.34224810912E-01 +1.40611206723E-04 -8.20313266381E-04 +1.71673271585E-04 -8.22028340867E-04 +7.63172216710E-01 +3.71669381043E-01
2.70500000000E+09 +7.53282386988E-01 +2.20624626102E-01 +1.92022825681E-05 -8.01109102714E-04 +6.96230278752E-05 -8.02514289957E-04 +7.65814737677E-01 +3.58013090570E-01
2.71000000000E+09 +7.54262318444E-01 +2.07223854858E-01 -1.06104582938E-04 -9.18648134873E-04 -4.64176337576E-05 -9.46991489349E-04 +7.68341622965E-01 +3.45111489925E-01
2.71500000000E+09 +7.55954230290E-01 +1.93139176413E-01 -3.66780841726E-04 -8.60794469363E-04 -3.38139202198E-04 -9.38612711781E-04 +7.70769771398E-01 +3.32499577974E-01
2.72000000000E+09 +7.57241383917E-01 +1.78130364840E-01 -4.06861684391E-04 -7.17967872452E-04 -4.37454786329E-04 -7.48078472234E-04 +7.72687987995E-01 +3.19989069415E-01
2.72500000000E+09 +7.57619064716E-01 +1.62118509148E-01 -2.76611908079E-04 -6.37752768647E-04 -3.33783032255E-04 -6.22654077361E-04 +7.74011677376E-01 +3.06682201415E-01
2.73000000000E+09 +7.56891629031E-01 +1.45867869072E-01 -3.37465269092E-04 -9.13237981114E-04 -4.10197106391E-04 -8.15223308021E-04 +7.75309702346E-01 +2.92883275543E-01
2.73500000000E+09 +7.54875317989E-01 +1.28889678837E-01 -5.98022830868E-04 -8.17437313662E-04 -5.71373614202E-04 -6.85390084119E-04 +7.76370141013E-01 +2.78289073010E-01
2.74000000000E+09 +7.51945653404E-01 +1.12092927524E-01 -7.95584613207E-04 -6.18229674634E-04 -7.02214184138E-04 -6.19678615882E-04 +7.77587344071E-01 +2.63600780888E-01
2.74500000000E+09 +7.48049750215E-01 +9.49676452644E-02 -8.06253396015E-04 -4.76006340029E-04 -7.33788605302E-04 -5.21831276597E-04 +7.78968094866E-01 +2.48254300889E-01
2.75000000000E+09 +7.42754782189E-01 +7.76566084374E-02 -7.41013133850E-04 -3.88477806343E-04 -7.08479037668E-04 -4.75645735692E-04 +7.79627355924E-01 +2.33204930907E-01
2.75500000000E+09 +7.36788148102E-01 +6.12190595090E-02 -7.10914190752E-04 -4.26074305969E-04 -7.24154346662E-04 -5.42481675779E-04 +7.79645954379E-01 +2.17955111018E-01
2.76000000000E+09 +7.31167165564E-01 +4.49618664327E-02 -9.31297682145E-04 -4.39269672716E-04 -9.90257794725E-04 -4.73928081170E-04 +7.79037287764E-01 +2.02495637336E-01
2.76500000000E+09 +7.26134659948E-01 +2.83885716985E-02 -1.17594076280E-03 -2.98663444263E-04 -1.23896282408E-03 -2.74441759923E-04 +7.78054144320E-01 +1.85845888682E-01
2.77000000000E+09 +7.21054447938E-01 +1.08389261380E-02 -1.11825854501E-03 +2.82416851142E-05 -1.16693924506E-03 +6.17101748999E-05 +7.76821279107E-01 +1.68423266929E-01
2.77500000000E+09 +7.16303977120E-01 -7.70369688446E-03 -9.66545393583E-04 +1.10109991391E-04 -1.01450453849E-03 +1.66118249387E-04 +7.75033930854E-01 +1.50330246728E-01
2.78000000000E+09 +7.10709301357E-01 -2.73583866400E-02 -1.04500786645E-03 +1.11791265740E-04 -1.11699476116E-03 +1.61478461440E-04 +7.72948148883E-01 +1.32502792902E-01
2.78500000000E+09 +7.04040872018E-01 -4.72309840755E-02 -1.08161226412E-03 +3.47243737363E-04 -1.06422779909E-03 +4.49517859298E-04 +7.70245173460E-01 +1.14861512893E-01
2.79000000000E+09 +6.97059353473E-01 -6.73163672401E-02 -1.04317972102E-03 +4.58917263416E-04 -9.72910116911E-04 +4.70188206168E-04 +7.66802375295E-01 +9.77407063793E-02
2.79500000000E+09 +6.89061531669E-01 -8.79361705598E-02 -1.12815291250E-03 +7.19578117640E-04 -1.00463898661E-03 +6.82782675637E-04 +7.62758153447E-01 +8.03380951349E-02
2.80000000000E+09 +6.78659870130E-01 -1.08036934634E-01 -6.32669098724E-04 +8.38160239080E-04 -6.23980365977E-04 +8.20165479017E-04 +7.58497939979E-01 +6.18532729047E-02
2.80500000000E+09 +6.67335913748E-01 -1.26626556484E-01 -6.22560136594E-04 +5.43812246275E-04 -6.50239952666E-04 +4.40981521417E-04 +7.52808411687E-01 +4.26666235830E-02
2.81000000000E+09 +6.55019757167E-01 -1.43960316644E-01 -7.43954486117E-04 +5.76654676863E-04 -8.34724018460E-04 +5.97535158147E-04 +7.46374355947E-01 +2.34287994489E-02
2.81500000000E+09 +6.42279792686E-01 -1.60466292884E-01 -8.80771231909E-04 +7.40620858950E-04 -8.75706750902E-04 +7.54909990093E-04 +7.39211348061E-01 +4.02106144418E-03
2.82000000000E+09 +6.28674281082E-01 -1.76814252526E-01 -1.00823781263E-03 +1.04267074915E-03 -9.58554426364E-04 +1.09542967770E-03 +7.31964143977E-01 -1.54556970371E-02
2.82500000000E+09 +6.14499624823E-01 -1.93539742272E-01 -5.52807947930E-04 +1.43146712173E-03 -4.89794000260E-04 +1.42241234309E-03 +7.23030887080E-01 -3.54798069241E-02
2.83000000000E+09 +5.97588398670E-01 -2.11098464011E-01 -2.59667081055E-04 +1.23605901923E-03 -2.67997072684E-04 +1.18913095987E-03 +7.13377377142E-01 -5.48871917917E-02
2.83500000000E+09 +5.79383836466E-01 -2.28255966445E-01 -3.81487374211E-04 +1.32985023581E-03 -4.77554396208E-04 +1.31106888355E-03 +7.02744376723E-01 -7.49264683789E-02
2.84000000000E+09 +5.60148223227E-01 -2.45416382264E-01 +5.01047268418E-05 +1.51168010589E-03 +3.28572729254E-05 +1.53420272553E-03 +6.91705171534E-01 -9.49066141970E-02
2.84500000000E+09 +5.39206627130E-01 -2.63497925904E-01 -1.19879091361E-05 +1.20801980390E-03 -1.91836882550E-05 +1.30408085706E-03 +6.79743593653E-01 -1.15692800173E-01
2.85000000000E+09 +5.16605028132E-01 -2.81510649745E-01 +2.26115486556E-04 +1.78070669138E-03 +2.54048301242E-04 +1.79043319257E-03 +6.66129418242E-01 -1.36684731478E-01
2.85500000000E+09 +4.91828182885E-01 -2.99412769213E-01 +9.66229065342E-04 +1.26831259831E-03 +9.78390946154E-04 +1.27727225895E-03 +6.51207805038E-01 -1.56767793006E-01
2.86000000000E+09 +4.65830591834E-01 -3.15188989042E-01 +5.08319253166E-04 +7.42151611208E-04 +5.09693400879E-04 +7.31750182207E-04 +6.35555053837E-01 -1.77155544815E-01
2.86500000000E+09 +4.40307565728E-01 -3.28991502965E-01 +1.62700167475E-04 +1.44001539235E-03 +1.14622087613E-04 +1.38452182181E-03 +6.18371820808E-01 -1.97488126811E-01
2.87000000000E+09 +4.15104475717E-01 -3.42354332207E-01 +1.11325712829E-03 +1.71356159951E-03 +1.12225810997E-03 +1.70750913486E-03 +6.00281105300E-01 -2.17430739634E-01
2.87500000000E+09 +3.89501613871E-01 -3.55291792449E-01 +1.18060758016E-03 +1.24551568259E-03 +1.20835367597E-03 +1.20652788053E-03 +5.80090087298E-01 -2.37884088803E-01
2.88000000000E+09 +3.62433422702E-01 -3.67139058093E-01 +1.55412389752E-03 +1.05917766213E-03 +1.53268091057E-03 +1.00185350877E-03 +5.59035210533E-01 -2.56773740808E-01
2.88500000000E+09 +3.34137040423E-01 -3.77052200395E-01 +1.51301074733E-03 +7.14629443834E-04 +1.47358385310E-03 +6.63679664713E-04 +5.36642754706E-01 -2.76176055987E-01
2.89000000000E+09 +3.04856543960E-01 -3.84353311808E-01 +1.43461267347E-03 +6.98370011619E-04 +1.33686318095E-03 +6.74870285063E-04 +5.11312232145E-01 -2.94372841703E-01
2.89500000000E+09 +2.75726707631E-01 -3.90643680658E-01 +1.61824148893E-03 +7.97290555991E-04 +1.52575388041E-03 +8.11261379001E-04 +4.84701608263E-01 -3.11721623025E-01
2.90000000000E+09 +2.44381007861E-01 -3.95595191564E-01 +2.29178807988E-03 +7.11276797652E-04 +2.25436588039E-03 +6.91847222204E-04 +4.56381965649E-01 -3.28754765781E-01
2.90500000000E+09 +2.11089135125E-01 -3.98810208336E-01 +2.44279631645E-03 -1.75801176371E-04 +2.42046163580E-03 -2.04203150494E-04 +4.25932823493E-01 -3.44267648709E-01
2.91000000000E+09 +1.75632950222E-01 -3.98401904436E-01 +1.94790926563E-03 -6.43512318610E-04 +2.00219430353E-03 -7.00094097964E-04 +3.94643962386E-01 -3.58708710473E-01
2.91500000000E+09 +1.40898315312E-01 -3.94447770903E-01 +1.99358323443E-03 -4.46090710401E-04 +1.90208293782E-03 -4.31453750756E-04 +3.61983643556E-01 -3.70705883770E-01
2.92000000000E+09 +1.07401863714E-01 -3.88251868868E-01 +2.30628505254E-03 -1.26991246895E-03 +2.14255342432E-03 -1.19618306029E-03 +3.28442759940E-01 -3.81263946092E-01
2.92500000000E+09 +7.36729259917E-02 -3.82553133566E-01 +1.54024828026E-03 -1.60773696605E-03 +1.54890125833E-03 -1.45348804952E-03 +2.92082018105E-01 -3.89844385407E-01
2.93000000000E+09 +3.82645522115E-02 -3.73164755297E-01 +1.29865706604E-03 -1.47896163944E-03 +1.35955788805E-03 -1.36243969727E-03 +2.54269199109E-01 -3.95069977526E-01
2.93500000000E+09 +4.83615271525E-03 -3.61101593899E-01 +1.35214229312E-03 -1.70691451472E-03 +1.38063306094E-03 -1.71329886730E-03 +2.16637846230E-01 -3.98384018734E-01
2.94000000000E+09 -2.77300576020E-02 -3.47008999592E-01 +1.06224131820E-03 -1.81141913364E-03 +1.10384187576E-03 -1.73778530305E-03 +1.78316350113E-01 -4.00591560916E-01
2.94500000000E+09 -5.86475960389E-02 -3.31571399252E-01 +1.01022283987E-03 -2.14168456717E-03 +1.04378650376E-03 -2.07537558151E-03 +1.38843243694E-01 -4.02032778012E-01
2.95000000000E+09 -9.01978235867E-02 -3.14291125192E-01 +4.57011145529E-04 -2.72768941915E-03 +5.24014504382E-04 -2.69184619617E-03 +9.75076224061E-02 -3.98872284891E-01
2.95500000000E+09 -1.21119230104E-01 -2.92928548026E-01 -1.53728621931E-04 -2.29678668556E-03 -3.31953742286E-05 -2.33221571332E-03 +5.76506823484E-02 -3.91838743942E-01
2.96000000000E+09 -1.48706757528E-01 -2.67914243479E-01 -5.16862973193E-04 -2.72220241652E-03 -5.06000853036E-04 -2.82406612005E-03 +1.84370056984E-02 -3.82726722416E-01
2.96500000000E+09 -1.74040745051E-01 -2.42545968677E-01 -1.65181380447E-03 -1.99885352829E-03 -1.78633026070E-03 -2.01938307841E-03 -2.18409024419E-02 -3.71642901517E-01
2.97000000000E+09 -1.97779748092E-01 -2.14457361621E-01 -1.37325408062E-03 -1.15949176664E-03 -1.40399420575E-03 -1.11076120023E-03 -6.29132664597E-02 -3.56366386134E-01
2.97500000000E+09 -2.20215096833E-01 -1.86202160287E-01 -6.98635870296E-04 -9.47245524049E-04 -6.88752543929E-04 -8.72284135122E-04 -1.01136736171E-01 -3.38195430427E-01
2.98000000000E+09 -2.41614715070E-01 -1.55080888990E-01 -9.38008233759E-04 -1.76874396562E-03 -8.84044757590E-04 -1.76104901859E-03 -1.38995773799E-01 -3.19409521074E-01
2.98500000000E+09 -2.60375925365E-01 -1.23157811517E-01 -1.92222288104E-03 -1.31531696487E-03 -1.89645893535E-03 -1.43111831437E-03 -1.76242940444E-01 -2.96346306779E-01
2.99000000000E+09 -2.76913642073E-01 -9.03636010691E-02 -1.91814034223E-03 -5.97692160420E-04 -1.97092426784E-03 -6.32398534269E-04 -2.12010962764E-01 -2.71551404782E-01
2.99500000000E+09 -2.91974914747E-01 -5.83834001924E-02 -1.50384572489E-03 -2.85706672527E-04 -1.60714769885E-03 -2.64219808527E-04 -2.46567330528E-01 -2.41391149498E-01
3.00000000000E+09 -3.05034468834E-01 -2.57744746083E-02 -1.36668261388E-03 -1.82027961152E-04 -1.35809568959E-03 -7.43898056166E-05 -2.77136839892E-01 -2.08920651769E-01
3.00500000000E+09 -3.16802089728E-01 +6.23346334809E-03 -1.30211180191E-03 -3.18195133129E-04 -1.21232327803E-03 -2.83404043445E-04 -3.05301617147E-01 -1.76301231426E-01
3.01000000000E+09 -3.25311194224E-01 +3.88982300831E-02 -1.92025816198E-03 -2.61665536497E-04 -1.82094274196E-03 -3.25040178015E-04 -3.33056262703E-01 -1.41618824509E-01
3.01500000000E+09 -3.30980103883E-01 +7.07581771561E-02 -1.75660937813E-03 +6.65262591146E-04 -1.73245279506E-03 +6.32288386250E-04 -3.57273457460E-01 -1.04208561797E-01
3.02000000000E+09 -3.33221282663E-01 +1.01862203734E-01 -9.13592955252E-04 +8.82400584458E-04 -9.58875178390E-04 +8.82834949261E-04 -3.77245275969E-01 -6.53540874596E-02
3.02500000000E+09 -3.32955489693E-01 +1.31961853646E-01 -5.77904645625E-04 +1.91253963339E-04 -5.40055452225E-04 +1.30080976956E-04 -3.93606054888E-01 -2.53954738053E-02
3.03000000000E+09 -3.30231785879E-01 +1.60952180960E-01 -1.53698073331E-03 -3.18318625854E-04 -1.52066876162E-03 -3.13956865240E-04 -4.06806587285E-01 +1.42065866653E-02
3.03500000000E+09 -3.26010885217E-01 +1.90374349788E-01 -2.05779064176E-03 +8.08579319617E-04 -2.05276395866E-03 +7.36619209744E-04 -4.18047933351E-01 +5.42324368792E-02
3.04000000000E+09 -3.17780870846E-01 +2.19785202909E-01 -1.41302763911E-03 +1.78851219556E-03 -1.47262515096E-03 +1.81084635828E-03 -4.26337756541E-01 +9.50487049120E-02
3.04500000000E+09 -3.08195414667E-01 +2.47724259792E-01 -1.11037323921E-04 +1.69698128882E-03 -1.26312462290E-04 +1.72561414379E-03 -4.31878767791E-01 +1.35477630244E-01
3.05000000000E+09 -2.97273232453E-01 +2.75089756183E-01 -9.75932020111E-05 +6.73884962504E-04 -1.32027208909E-04 +7.25471929301E-04 -4.34191435341E-01 +1.75517782585E-01
3.05500000000E+09 -2.85364958068E-01 +3.02237854651E-01 -5.82848225617E-04 +6.88311701668E-04 -5.42260692766E-04 +7.62596600429E-04 -4.33941781554E-01 +2.14257010369E-01
3.06000000000E+09 -2.72034040179E-01 +3.28783165722E-01 -8.77824326802E-04 +1.21570925617E-03 -7.61512322491E-04 +1.28913367594E-03 -4.31798903703E-01 +2.52688392859E-01
3.06500000000E+09 -2.58103270788E-01 +3.53807978982E-01 +5.57314932219E-06 +1.73090157739E-03 +3.71116286491E-05 +1.61051887890E-03 -4.26709426253E-01 +2.90000340566E-01
3.07000000000E+09 -2.43365257622E-01 +3.77684388654E-01 +5.54779840743E-04 +1.39588631863E-03 +3.89153049052E-04 +1.41776820439E-03 -4.19589659262E-01 +3.25739464162E-01
