# Hz S RI R 50
! CMT, C1220, 16058040, 17.2.0/1
! Date: 15/08/2018 10:34:47
! Data: Format (Calibration Info)
! Freq                      S11: Re/Im (F2)                       S21: Re/Im (F2)                       S12: Re/Im (F2)                       S22: Re/Im (F2)            
2.50000000000E+09 +5.79827269733E-01 +6.66032725683E-01 -2.83413837534E-04 +1.24685021881E-04 -3.24822004670E-04 +1.25421626254E-04 +5.64902251872E-01 +7.22514562081E-01
2.50500000000E+09 +5.87276155152E-01 +6.57987799577E-01 -1.12853375533E-04 +1.29570457657E-04 -1.59774962888E-04 +1.49146120005E-04 +5.70357963206E-01 +7.17149573478E-01
2.51000000000E+09 +5.94925003754E-01 +6.49583152547E-01 -1.72332929393E-04 +4.76672159087E-05 -1.25162553721E-04 +8.32528666611E-05 +5.76122706214E-01 +7.11932103382E-01
2.51500000000E+09 +6.02502458358E-01 +6.41411064554E-01 -1.69176253378E-04 +6.65214654972E-05 -1.41356468996E-04 +8.83441734134E-05 +5.81506841731E-01 +7.06584270113E-01
2.52000000000E+09 +6.09234432912E-01 +6.33464572758E-01 -2.18759719010E-04 +1.73819351946E-04 -1.95552562434E-04 +1.33038763283E-04 +5.86782153448E-01 +7.00675898101E-01
2.52500000000E+09 +6.15193316106E-01 +6.25974680355E-01 -7.78699716035E-05 +2.03467475808E-04 -1.27198132834E-04 +2.23994215242E-04 +5.92435865257E-01 +6.94136719721E-01
2.53000000000E+09 +6.20642232637E-01 +6.18606811941E-01 -8.46608691238E-05 +1.60877683030E-04 -9.26323597519E-05 +2.04525716286E-04 +5.98622351989E-01 +6.87148695104E-01
2.53500000000E+09 +6.25300903658E-01 +6.11486378547E-01 -1.11650719089E-04 +1.55603138816E-04 -4.14377612441E-05 +2.08227699721E-04 +6.04457935586E-01 +6.80608315169E-01
2.54000000000E+09 +6.29755169431E-01 +6.04494767074E-01 -1.45367139661E-05 +2.00456288311E-04 -1.14381623506E-05 +2.03385174914E-04 +6.10576998431E-01 +6.74019955518E-01
2.54500000000E+09 +6.34390622312E-01 +5.97230164159E-01 -2.18494127524E-05 +1.60614516656E-04 -5.48428998312E-05 +1.41417408522E-04 +6.16231771039E-01 +6.67728930414E-01
2.55000000000E+09 +6.39396231215E-01 +5.89514179302E-01 +3.39923620841E-06 +1.47344098808E-04 -5.62605196149E-05 +1.80685731792E-04 +6.21536679198E-01 +6.61570616179E-01
2.55500000000E+09 +6.44876772023E-01 +5.81220394258E-01 -1.65092938006E-05 +2.08940828876E-04 -1.91188702952E-05 +2.60260272069E-04 +6.26729807413E-01 +6.55012730883E-01
2.56000000000E+09 +6.51232749546E-01 +5.73175724945E-01 +9.46960768192E-05 +2.10085579303E-04 +1.34589569339E-04 +2.29991837327E-04 +6.31670376846E-01 +6.47814348321E-01
2.56500000000E+09 +6.58251367648E-01 +5.64416946709E-01 +6.49100439398E-05 +8.19763950705E-05 +1.08695812344E-04 +1.19368055546E-04 +6.36957001245E-01 +6.40315935941E-01
2.57000000000E+09 +6.65266246206E-01 +5.55633798255E-01 +7.60834251686E-06 +6.48864973154E-05 +4.61038591318E-05 +5.99323974793E-05 +6.42203915937E-01 +6.32560018692E-01
2.57500000000E+09 +6.72065412954E-01 +5.46713361477E-01 -1.65795918226E-05 +1.27242921225E-04 +4.58064210061E-05 +1.77414815636E-04 +6.47722539225E-01 +6.25059922755E-01
2.58000000000E+09 +6.77944835459E-01 +5.38225999886E-01 +5.67575857033E-05 +2.24993358355E-04 +4.56677763459E-05 +2.03635707769E-04 +6.52850378466E-01 +6.17217064239E-01
2.58500000000E+09 +6.83268103373E-01 +5.30099319088E-01 +1.01434672378E-04 +2.53219248217E-04 +7.93058910378E-05 +1.66471516111E-04 +6.57537904926E-01 +6.09815995628E-01
2.59000000000E+09 +6.88000082849E-01 +5.22234922714E-01 +1.33854717043E-04 +1.86042712654E-04 +1.24978506297E-04 +1.87564026594E-04 +6.62279379878E-01 +6.02373657445E-01
2.59500000000E+09 +6.92233712565E-01 +5.14189462020E-01 +1.20108458124E-04 +2.45188545453E-04 +1.37210053958E-04 +2.05952441287E-04 +6.67263762447E-01 +5.94421037317E-01
2.60000000000E+09 +6.96198741427E-01 +5.05332125672E-01 +1.76837954750E-04 +2.17637133107E-04 +2.33388878032E-04 +2.17390959843E-04 +6.72315347365E-01 +5.86116953584E-01
2.60500000000E+09 +7.00138841934E-01 +4.95540539366E-01 +1.94740015656E-04 +2.17321979934E-04 +2.14152235550E-04 +2.02929827770E-04 +6.77699976092E-01 +5.77531438491E-01
2.61000000000E+09 +7.04451185409E-01 +4.84805988862E-01 +3.70473509258E-04 +2.32621800109E-04 +3.84196781899E-04 +2.79009280440E-04 +6.82720929901E-01 +5.68818104587E-01
2.61500000000E+09 +7.09117649740E-01 +4.72841944695E-01 +5.13161263998E-04 -7.99133053168E-05 +5.07750112431E-04 -5.24778687992E-05 +6.87496179396E-01 +5.60121619609E-01
2.62000000000E+09 +7.13845744635E-01 +4.59657805356E-01 +3.08774919095E-04 -2.21097637410E-04 +2.85914925384E-04 -2.24371031135E-04 +6.92201269504E-01 +5.51277801423E-01
2.62500000000E+09 +7.18496883565E-01 +4.45771347990E-01 +2.38379347183E-04 -1.11303312046E-04 +1.69645946898E-04 -7.67890540397E-05 +6.96794704850E-01 +5.42586801778E-01
2.63000000000E+09 +7.23083517066E-01 +4.31746081288E-01 +2.44735968431E-04 +8.28263480008E-06 +2.20350993588E-04 -2.46566682034E-05 +7.01354983556E-01 +5.33714330886E-01
2.63500000000E+09 +7.26895568784E-01 +4.18127522760E-01 +3.01023230076E-04 -1.92115334336E-05 +2.85514313382E-04 -9.72454334244E-05 +7.06087951074E-01 +5.24698660176E-01
2.64000000000E+09 +7.30419958636E-01 +4.05259653641E-01 +4.02998730858E-04 -1.43153341958E-04 +2.97847040201E-04 -1.16972105453E-04 +7.10664169302E-01 +5.15326931495E-01
2.64500000000E+09 +7.33529918668E-01 +3.93438097237E-01 +3.10487807825E-04 -3.06669797613E-04 +3.02428892845E-04 -2.50073252750E-04 +7.15240956932E-01 +5.05584764686E-01
2.65000000000E+09 +7.36120296950E-01 +3.82442723415E-01 +2.27791600609E-04 -3.65714573537E-04 +2.52193950867E-04 -3.36747567652E-04 +7.19350786465E-01 +4.95791964782E-01
2.65500000000E+09 +7.39075049756E-01 +3.71365890166E-01 +9.65111597710E-05 -3.27861884346E-04 +1.35421259115E-04 -3.32079249125E-04 +7.23500590425E-01 +4.85588180418E-01
2.66000000000E+09 +7.41780461017E-01 +3.59843356383E-01 +2.09596277560E-04 -2.77719372463E-04 +1.71779559424E-04 -2.78715857050E-04 +7.27549146864E-01 +4.74449456864E-01
2.66500000000E+09 +7.44212494626E-01 +3.48090097168E-01 +1.27143431396E-04 -4.56461252215E-04 +1.00349395724E-04 -5.06524356510E-04 +7.31791897094E-01 +4.63686487389E-01
2.67000000000E+09 +7.46840416764E-01 +3.35372140800E-01 -6.83255038058E-05 -5.46225626851E-04 -7.72929366085E-05 -5.23349661662E-04 +7.36387586421E-01 +4.53054527495E-01
2.67500000000E+09 +7.49143239168E-01 +3.21556107543E-01 -1.83961832191E-04 -3.34708144196E-04 -1.70563264796E-04 -2.86914333791E-04 +7.40635510963E-01 +4.41925065415E-01
2.68000000000E+09 +7.51128676170E-01 +3.06901593367E-01 -1.17861022687E-04 -1.15665617967E-04 -5.97674640627E-05 -1.50806565716E-04 +7.44729785755E-01 +4.30927681333E-01
2.68500000000E+09 +7.52577503565E-01 +2.92063562903E-01 +5.48534105345E-05 -3.39499458977E-04 +6.14795324996E-05 -3.09900937803E-04 +7.48052435181E-01 +4.19366354651E-01
2.69000000000E+09 +7.53934803128E-01 +2.77165590064E-01 -1.60439284022E-04 -4.48518438593E-04 -1.14656335682E-04 -4.07254245331E-04 +7.50566648632E-01 +4.07334216782E-01
2.69500000000E+09 +7.54648662431E-01 +2.63053287423E-01 -2.56778176410E-04 -3.67481391252E-04 -2.01468014442E-04 -3.45816470412E-04 +7.53332157487E-01 +3.94861437698E-01
2.70000000000E+09 +7.55695584321E-01 +2.49392228484E-01 -3.71039764790E-04 -3.85961293564E-04 -3.82345047030E-04 -3.74600588647E-04 +7.56168387016E-01 +3.81873307822E-01
2.70500000000E+09 +7.56631919472E-01 +2.36077386681E-01 -3.77480247918E-04 -2.02915507574E-04 -3.63971484461E-04 -1.96292022468E-04 +7.59305019657E-01 +3.68681368390E-01
2.71000000000E+09 +7.57333697083E-01 +2.22808489870E-01 -4.12891197247E-04 -1.51971565017E-04 -3.93369577450E-04 -1.63310795874E-04 +7.61969456958E-01 +3.55639988447E-01
2.71500000000E+09 +7.58450875314E-01 +2.09326431872E-01 -3.86174365063E-04 -1.47399469725E-04 -3.90867071552E-04 -1.60465795919E-04 +7.64389051580E-01 +3.43147573453E-01
2.72000000000E+09 +7.59129607040E-01 +1.94838911980E-01 -5.40824448111E-04 -2.00657931836E-04 -5.64112047282E-04 -1.63226592277E-04 +7.66091695584E-01 +3.30665935063E-01
2.72500000000E+09 +7.59280306159E-01 +1.79651644895E-01 -6.68454948743E-04 +9.08453128888E-05 -6.00915100975E-04 +1.30889063842E-04 +7.67224684938E-01 +3.17530904690E-01
2.73000000000E+09 +7.58931738134E-01 +1.63161012650E-01 -5.17956356403E-04 +2.72597051709E-04 -4.28643925952E-04 +2.59117061751E-04 +7.68201819280E-01 +3.03885227985E-01
2.73500000000E+09 +7.57220800264E-01 +1.45406025768E-01 -5.04097413108E-04 +3.61936421861E-04 -4.15278953329E-04 +3.02110036298E-04 +7.69568249871E-01 +2.89752559675E-01
2.74000000000E+09 +7.54674914196E-01 +1.27615211679E-01 -2.59001596803E-04 +5.21092540754E-04 -3.33109698674E-04 +4.11331102941E-04 +7.71526047469E-01 +2.75051798608E-01
2.74500000000E+09 +7.50639656303E-01 +1.09635381799E-01 -1.80089760167E-04 +3.93235305751E-04 -2.04513692155E-04 +3.36308060867E-04 +7.72958047582E-01 +2.60033976336E-01
2.75000000000E+09 +7.46175266327E-01 +9.19407154235E-02 -1.36905177141E-04 +4.35190700381E-04 -1.92945492020E-04 +4.26771159113E-04 +7.74312419770E-01 +2.45057993810E-01
2.75500000000E+09 +7.41245372819E-01 +7.48545281408E-02 -1.36036630483E-04 +4.63016018175E-04 -7.18628298039E-05 +4.82879431012E-04 +7.74552442433E-01 +2.30223541384E-01
2.76000000000E+09 +7.37044627709E-01 +5.77630102522E-02 -6.77630563570E-05 +6.46327181347E-04 -8.22552598626E-05 +6.93192150227E-04 +7.74913628439E-01 +2.14752762863E-01
2.76500000000E+09 +7.32142733961E-01 +3.96151813717E-02 +2.23512199919E-04 +5.52199754084E-04 +2.89882294809E-04 +5.99809437716E-04 +7.74272369887E-01 +1.97760551691E-01
2.77000000000E+09 +7.26688275007E-01 +2.14356881865E-02 +2.92176024943E-04 +4.83794908347E-04 +3.40460128942E-04 +5.34759849997E-04 +7.73209504156E-01 +1.80570040020E-01
2.77500000000E+09 +7.21522570508E-01 +2.77567863950E-03 +3.94354289534E-04 +4.91835100113E-04 +4.38472592497E-04 +4.71539112804E-04 +7.71890498785E-01 +1.62363018231E-01
2.78000000000E+09 +7.15936262452E-01 -1.70505175609E-02 +6.42550840640E-04 +3.39857361789E-04 +6.50551406232E-04 +2.56910772517E-04 +7.70007815651E-01 +1.44399715237E-01
2.78500000000E+09 +7.09705735307E-01 -3.80252675764E-02 +7.83619668264E-04 +1.66949080590E-04 +7.73356009837E-04 +8.23277541478E-05 +7.67615262153E-01 +1.26358204991E-01
2.79000000000E+09 +7.02824336212E-01 -5.95424428912E-02 +6.25321407750E-04 -2.82316777403E-04 +5.86737041487E-04 -2.57678701143E-04 +7.64328463603E-01 +1.09017199499E-01
2.79500000000E+09 +6.94342389459E-01 -8.11339590704E-02 +4.92651063242E-04 -1.56644225042E-04 +4.79781015130E-04 -1.39733784780E-04 +7.60270395231E-01 +9.10039760609E-02
2.80000000000E+09 +6.85047941419E-01 -1.01384534905E-01 +4.61480226109E-04 -2.52216872684E-04 +4.27371176720E-04 -2.26675368915E-04 +7.55302405751E-01 +7.26624388646E-02
2.80500000000E+09 +6.75620390819E-01 -1.20643811243E-01 +4.92863185577E-04 -2.39829960354E-04 +4.99444839199E-04 -2.50409935319E-04 +7.49610649119E-01 +5.33528636865E-02
2.81000000000E+09 +6.65542113413E-01 -1.38884106507E-01 +5.56591396169E-04 -3.74905104182E-04 +5.44655479301E-04 -4.00307414908E-04 +7.42838431899E-01 +3.41555397965E-02
2.81500000000E+09 +6.55040168623E-01 -1.55936089145E-01 +3.95995323318E-04 -5.97204810535E-04 +4.27807448847E-04 -5.86332710652E-04 +7.36168988172E-01 +1.51608800835E-02
2.82000000000E+09 +6.43683264145E-01 -1.73090998453E-01 +3.38205261500E-04 -5.56743705811E-04 +2.67869836267E-04 -6.03203086575E-04 +7.29088219935E-01 -4.40696598518E-03
2.82500000000E+09 +6.30408582835E-01 -1.89482876967E-01 +3.64462478776E-04 -8.07016537062E-04 +3.75590350250E-04 -8.45134928870E-04 +7.21199274404E-01 -2.38607848759E-02
2.83000000000E+09 +6.16398268705E-01 -2.05928693204E-01 +6.21343917463E-05 -1.10129788929E-03 +3.88355266869E-05 -1.02277859241E-03 +7.12574336612E-01 -4.41045826129E-02
2.83500000000E+09 +6.01078972516E-01 -2.23489594426E-01 -4.25614690067E-04 -1.07317529713E-03 -3.36577092803E-04 -1.02740569951E-03 +7.02465421682E-01 -6.43011053291E-02
2.84000000000E+09 +5.83647312333E-01 -2.41758033237E-01 -6.29193581158E-04 -8.83665315326E-04 -5.50266790903E-04 -8.79590858131E-04 +6.91783461930E-01 -8.52811860201E-02
2.84500000000E+09 +5.63547920812E-01 -2.61526645263E-01 -7.67078231155E-04 -5.72483070456E-04 -7.48690763833E-04 -5.55067836306E-04 +6.79421060685E-01 -1.06149553666E-01
2.85000000000E+09 +5.41462947564E-01 -2.80204043594E-01 -6.24493920445E-04 -4.92373501699E-04 -5.96273388671E-04 -5.03061462207E-04 +6.65942708874E-01 -1.26985665892E-01
2.85500000000E+09 +5.18333579518E-01 -2.98753552745E-01 -8.25877688971E-04 -4.75781513040E-04 -8.17420110361E-04 -4.71162525020E-04 +6.51233482982E-01 -1.47536699671E-01
2.86000000000E+09 +4.94832347238E-01 -3.16601250091E-01 -7.98719018393E-04 -3.53279462476E-04 -7.59297356599E-04 -2.94460950803E-04 +6.36094210302E-01 -1.68737280061E-01
2.86500000000E+09 +4.70690231043E-01 -3.33022798781E-01 -7.51176768694E-04 -3.16098553615E-04 -7.37568314305E-04 -3.11429239323E-04 +6.18254593070E-01 -1.90295272306E-01
2.87000000000E+09 +4.46970469180E-01 -3.48457310501E-01 -1.05235776475E-03 -6.34840968385E-04 -1.06104615990E-03 -6.81583484228E-04 +5.98217204016E-01 -2.11051431660E-01
2.87500000000E+09 +4.22782596977E-01 -3.63078602553E-01 -1.73939013540E-03 -2.90946287037E-04 -1.73276924786E-03 -2.55070400064E-04 +5.77498771218E-01 -2.30051206900E-01
2.88000000000E+09 +3.97982200804E-01 -3.75851245733E-01 -1.89899459434E-03 +3.56375972576E-04 -1.85029495929E-03 +4.06112014959E-04 +5.55703772909E-01 -2.49435273447E-01
2.88500000000E+09 +3.73097426933E-01 -3.87688161231E-01 -1.83467519357E-03 +1.31619341936E-03 -1.77069789349E-03 +1.32508638474E-03 +5.32271373478E-01 -2.67593278381E-01
2.89000000000E+09 +3.46336240960E-01 -3.99212162134E-01 -7.63905018217E-04 +1.62713752238E-03 -7.66584368519E-04 +1.58209945137E-03 +5.06616197614E-01 -2.85510383946E-01
2.89500000000E+09 +3.16468031546E-01 -4.09107529039E-01 -4.59928400313E-04 +9.67165858089E-04 -4.53067871037E-04 +9.24068683367E-04 +4.79677151731E-01 -3.01958147776E-01
2.90000000000E+09 +2.85127478149E-01 -4.16868971281E-01 -8.92972222812E-04 +1.14937724213E-03 -9.59619527281E-04 +1.09729289952E-03 +4.51529584678E-01 -3.18014404913E-01
2.90500000000E+09 +2.52228224685E-01 -4.22804921574E-01 -6.64189864132E-04 +1.44784090231E-03 -6.59865984467E-04 +1.45819594984E-03 +4.21816918638E-01 -3.33626415833E-01
2.91000000000E+09 +2.18372364022E-01 -4.27676130200E-01 -7.02776283933E-04 +1.64985797523E-03 -6.42417779476E-04 +1.76003738852E-03 +3.90482479998E-01 -3.46668241209E-01
2.91500000000E+09 +1.83112097438E-01 -4.31156993553E-01 +8.91660848223E-05 +2.01422680805E-03 +8.29032138683E-05 +2.02848703711E-03 +3.59276951901E-01 -3.57938372471E-01
2.92000000000E+09 +1.47491966788E-01 -4.32229658229E-01 +3.05526269564E-04 +1.54835036126E-03 +2.99943983927E-04 +1.42537813897E-03 +3.26501414821E-01 -3.68175034998E-01
2.92500000000E+09 +1.11717779992E-01 -4.31996405359E-01 +2.24322439435E-04 +2.09685274453E-03 +1.47554348589E-04 +2.03310460456E-03 +2.91458133660E-01 -3.76239643924E-01
2.93000000000E+09 +7.63770426803E-02 -4.28753775253E-01 +1.05108150684E-03 +1.93255770198E-03 +9.05972989291E-04 +1.91254676043E-03 +2.54621773236E-01 -3.82401218322E-01
2.93500000000E+09 +4.26571037488E-02 -4.24880344981E-01 +1.14383797094E-03 +1.97118087009E-03 +1.09429974661E-03 +1.97204061250E-03 +2.16724844127E-01 -3.86225786341E-01
2.94000000000E+09 +7.97997646423E-03 -4.19240114630E-01 +2.12750546774E-03 +1.67463927228E-03 +2.09014528185E-03 +1.75285880885E-03 +1.77937769196E-01 -3.88574640736E-01
2.94500000000E+09 -2.70139840947E-02 -4.10433654655E-01 +2.04554549582E-03 +9.66370176123E-04 +1.98489173436E-03 +9.67934672309E-04 +1.38696870725E-01 -3.88779050091E-01
2.95000000000E+09 -6.14146248816E-02 -3.97960020511E-01 +1.98352150586E-03 +6.89648764706E-04 +1.95708047310E-03 +7.98508701378E-04 +9.86696210323E-02 -3.86468938831E-01
2.95500000000E+09 -9.50148427625E-02 -3.82877192801E-01 +2.21188078175E-03 +4.11615560878E-04 +2.25058094691E-03 +4.34873453400E-04 +5.78886175056E-02 -3.79798333416E-01
2.96000000000E+09 -1.27434715858E-01 -3.64919448065E-01 +1.99051855861E-03 +3.35141516828E-04 +2.08613563166E-03 +3.90316874264E-04 +1.90194205764E-02 -3.69344445891E-01
2.96500000000E+09 -1.60219116395E-01 -3.45175115546E-01 +2.61313732649E-03 +2.47069214104E-04 +2.69906076260E-03 +2.16580164564E-04 -2.05747688179E-02 -3.57745026251E-01
2.97000000000E+09 -1.91405409258E-01 -3.20889353233E-01 +3.09405920340E-03 -8.30765784126E-04 +3.07852998575E-03 -9.94332915357E-04 -5.94448910818E-02 -3.42245810187E-01
2.97500000000E+09 -2.20327733090E-01 -2.95568958260E-01 +2.35181884383E-03 -1.73533351351E-03 +2.27160617171E-03 -1.68466132079E-03 -9.82842795104E-02 -3.26052624752E-01
2.98000000000E+09 -2.48673935699E-01 -2.68446087525E-01 +1.80607600066E-03 -1.74713252168E-03 +1.75416512001E-03 -1.69825949346E-03 -1.36070193664E-01 -3.05149493141E-01
2.98500000000E+09 -2.74480660216E-01 -2.39649857674E-01 +1.54036730414E-03 -1.75859190646E-03 +1.61675757861E-03 -1.77467546917E-03 -1.71109560034E-01 -2.82251418643E-01
2.99000000000E+09 -2.98839553478E-01 -2.10313136475E-01 +1.47057163641E-03 -2.24295490213E-03 +1.55737027457E-03 -2.31972875012E-03 -2.04698867689E-01 -2.56628622760E-01
2.99500000000E+09 -3.22999751846E-01 -1.79822711944E-01 +9.32588258016E-04 -2.42559399016E-03 +8.70280813673E-04 -2.55994924429E-03 -2.36170935197E-01 -2.28706156460E-01
3.00000000000E+09 -3.44235291154E-01 -1.46695043998E-01 +6.04568018238E-04 -2.71313781951E-03 +4.35543207474E-04 -2.73002243744E-03 -2.66763058566E-01 -1.98304359928E-01
3.00500000000E+09 -3.63036914475E-01 -1.14069156965E-01 -3.13719734447E-04 -2.59801761600E-03 -4.07200508729E-04 -2.56505794629E-03 -2.94854804213E-01 -1.66049357663E-01
3.01000000000E+09 -3.80205737353E-01 -7.99810674532E-02 -3.93108952866E-04 -1.95739344632E-03 -4.26735417944E-04 -1.92175530900E-03 -3.21389741183E-01 -1.31685968885E-01
3.01500000000E+09 -3.94020909261E-01 -4.61840709831E-02 -3.21086978377E-04 -2.50363481781E-03 -2.03508684493E-04 -2.43265497462E-03 -3.44351450605E-01 -9.63484022882E-02
3.02000000000E+09 -4.05903599432E-01 -1.12598918923E-02 -1.06160067032E-03 -2.50190764530E-03 -9.73958874926E-04 -2.55474537635E-03 -3.65026680046E-01 -6.03299394931E-02
3.02500000000E+09 -4.13815857196E-01 +2.34894358882E-02 -1.70970202100E-03 -2.29067537556E-03 -1.65765711034E-03 -2.27026897767E-03 -3.82828511526E-01 -2.18695154810E-02
3.03000000000E+09 -4.18562035115E-01 +5.76235749110E-02 -2.22551697163E-03 -1.34294161601E-03 -2.12390493687E-03 -1.36451590799E-03 -3.96469122098E-01 +1.68092362458E-02
3.03500000000E+09 -4.20721746951E-01 +9.04346188219E-02 -1.67149152104E-03 -8.19433263880E-04 -1.69174112244E-03 -8.52521269585E-04 -4.08129240369E-01 +5.55315943285E-02
3.04000000000E+09 -4.21317069514E-01 +1.23035816654E-01 -1.58267147391E-03 -1.08725975813E-03 -1.58813445844E-03 -1.15638476052E-03 -4.17564824005E-01 +9.50998325100E-02
3.04500000000E+09 -4.19893151481E-01 +1.56661565711E-01 -1.91050448687E-03 -9.93728779240E-04 -1.97590488110E-03 -1.14320059500E-03 -4.23913311096E-01 +1.35341839522E-01
3.05000000000E+09 -4.14721763685E-01 +1.90470851269E-01 -2.15711641429E-03 -7.77460278220E-04 -2.33725046748E-03 -7.73972318626E-04 -4.26936533303E-01 +1.74744886966E-01
3.05500000000E+09 -4.07366072155E-01 +2.22960477528E-01 -2.48658519032E-03 -1.09956777163E-04 -2.56520879263E-03 +8.08281222395E-05 -4.27354355465E-01 +2.13098921034E-01
3.06000000000E+09 -3.98569314723E-01 +2.55240512841E-01 -2.22926101231E-03 +4.45914323439E-04 -2.14222113612E-03 +5.14908772459E-04 -4.25312484118E-01 +2.50730285143E-01
3.06500000000E+09 -3.88151762532E-01 +2.86773680949E-01 -1.93252770579E-03 +6.87507014186E-04 -1.83042636572E-03 +6.27333458482E-04 -4.20456272253E-01 +2.86972795064E-01
3.07000000000E+09 -3.76446142053E-01 +3.16851120435E-01 -1.75131568185E-03 +7.89396198409E-04 -1.80138133065E-03 +7.24123891047E-04 -4.14414272654E-01 +3.21580664588E-01
