# Hz S RI R 50
! CMT, C1220, 16058040, 17.2.0/1
! Date: 15/08/2018 09:59:10
! Data: Format (Calibration Info)
! Freq                      S11: Re/Im (F2)                       S21: Re/Im (F2)                       S12: Re/Im (F2)                       S22: Re/Im (F2)            
2.50000000000E+09 +5.97823132697E-01 +6.35031097889E-01 -7.39004128188E-05 -1.15785336511E-03 -4.84522798296E-05 -1.25405412946E-03 +5.77115049631E-01 +7.13964234726E-01
2.50500000000E+09 +6.04064098142E-01 +6.27588355631E-01 -1.21083485323E-04 -1.21592647991E-03 -2.26526074614E-04 -1.27802171775E-03 +5.82684312195E-01 +7.08465115204E-01
2.51000000000E+09 +6.10571393610E-01 +6.19813235562E-01 -2.77784282578E-04 -1.15107060676E-03 -3.39947163394E-04 -1.15259884296E-03 +5.88237977257E-01 +7.03192921472E-01
2.51500000000E+09 +6.17265354738E-01 +6.12124549174E-01 -3.32623902110E-04 -1.25775353144E-03 -3.55264395318E-04 -1.20758540501E-03 +5.93508961379E-01 +6.97693262450E-01
2.52000000000E+09 +6.23535519367E-01 +6.04223983044E-01 -6.24289983348E-04 -1.21963338647E-03 -5.41461479242E-04 -1.30754761813E-03 +5.98577905975E-01 +6.91814687207E-01
2.52500000000E+09 +6.29151397234E-01 +5.96868429695E-01 -8.57122757156E-04 -1.11328965474E-03 -7.80687732969E-04 -1.18846836162E-03 +6.04300223177E-01 +6.85313622951E-01
2.53000000000E+09 +6.34337044963E-01 +5.89816059328E-01 -8.98684022405E-04 -8.58991546635E-04 -9.40805680302E-04 -9.66870747338E-04 +6.10217263377E-01 +6.78051456836E-01
2.53500000000E+09 +6.39048526907E-01 +5.83101453699E-01 -7.84598239497E-04 -7.92490368273E-04 -8.11126460560E-04 -7.94155854351E-04 +6.15994395013E-01 +6.71081103002E-01
2.54000000000E+09 +6.43496479211E-01 +5.76594814679E-01 -8.79929331176E-04 -8.46910542351E-04 -7.85296325622E-04 -8.26631791358E-04 +6.21848968640E-01 +6.64701176022E-01
2.54500000000E+09 +6.48146888979E-01 +5.69926231355E-01 -9.78135849938E-04 -8.43114791053E-04 -9.37825861143E-04 -9.26865837849E-04 +6.27772425670E-01 +6.58165856702E-01
2.55000000000E+09 +6.52618135867E-01 +5.63039533828E-01 -1.18051817095E-03 -7.31515998345E-04 -1.16842313824E-03 -8.64199000369E-04 +6.32966598607E-01 +6.51904264302E-01
2.55500000000E+09 +6.57552614811E-01 +5.55574243592E-01 -1.20609894861E-03 -4.81263503510E-04 -1.46128492558E-03 -6.19720500537E-04 +6.37967522286E-01 +6.45596585506E-01
2.56000000000E+09 +6.63057076777E-01 +5.47877455874E-01 -1.12639777569E-03 -3.66627575057E-04 -1.38005321821E-03 -3.43927896572E-04 +6.43171291193E-01 +6.38384905267E-01
2.56500000000E+09 +6.69080056410E-01 +5.39383097934E-01 -1.04623629967E-03 -3.65570678277E-04 -1.20363845046E-03 -2.47594029155E-04 +6.48443880570E-01 +6.31020494107E-01
2.57000000000E+09 +6.75349356168E-01 +5.30844718888E-01 -1.12036705432E-03 -6.17146340918E-04 -1.19121663941E-03 -3.44062005709E-04 +6.54070068219E-01 +6.23158315047E-01
2.57500000000E+09 +6.81640063493E-01 +5.21725368679E-01 -1.48248233681E-03 -4.88637392919E-04 -1.37947394115E-03 -2.30230531720E-04 +6.59703650168E-01 +6.15255131181E-01
2.58000000000E+09 +6.87306878582E-01 +5.12820816054E-01 -1.61323137362E-03 -9.89090121742E-05 -1.36339479861E-03 -6.30819250059E-06 +6.64718867776E-01 +6.07672543405E-01
2.58500000000E+09 +6.92939900073E-01 +5.04032240669E-01 -1.51348037642E-03 +6.32729688211E-05 -1.28711403970E-03 +3.73067915991E-05 +6.69653360658E-01 +6.00220359522E-01
2.59000000000E+09 +6.97978145208E-01 +4.95639622286E-01 -1.39037418768E-03 +1.39481019825E-04 -1.32788550195E-03 +1.69398106222E-05 +6.74388897240E-01 +5.92752110472E-01
2.59500000000E+09 +7.02785617334E-01 +4.87268352989E-01 -1.41150270864E-03 +1.22846397547E-04 -1.45634130036E-03 +8.16950842645E-05 +6.79273263341E-01 +5.84461715865E-01
2.60000000000E+09 +7.07108416601E-01 +4.78946248981E-01 -1.60293738682E-03 +1.23866567851E-04 -1.63533816352E-03 +1.18488493156E-04 +6.84340902347E-01 +5.75921277247E-01
2.60500000000E+09 +7.11542195105E-01 +4.70079448820E-01 -1.87100971749E-03 +4.40707602663E-04 -1.87824686418E-03 +4.35295759589E-04 +6.89260528801E-01 +5.66799747431E-01
2.61000000000E+09 +7.15744335595E-01 +4.60557331059E-01 -1.82507561120E-03 +9.98523699782E-04 -1.79364589936E-03 +9.16368489843E-04 +6.94158612004E-01 +5.57947876382E-01
2.61500000000E+09 +7.20249258430E-01 +4.50096486487E-01 -1.40691513382E-03 +1.17892186846E-03 -1.44318805754E-03 +1.14104277423E-03 +6.98961878207E-01 +5.49432384695E-01
2.62000000000E+09 +7.24124730732E-01 +4.38706216261E-01 -1.28584356842E-03 +1.11260834878E-03 -1.30444310874E-03 +1.13998539540E-03 +7.03846757900E-01 +5.40435761991E-01
2.62500000000E+09 +7.28325797256E-01 +4.26529988027E-01 -1.19925582109E-03 +1.19251574932E-03 -1.11361078475E-03 +1.34554329002E-03 +7.08354564982E-01 +5.31276885637E-01
2.63000000000E+09 +7.32168101601E-01 +4.14090969671E-01 -1.06958813603E-03 +1.17288624494E-03 -9.01584661422E-04 +1.26324825164E-03 +7.12720073956E-01 +5.22413540335E-01
2.63500000000E+09 +7.35676038579E-01 +4.01350709110E-01 -1.23133191267E-03 +1.24203970914E-03 -9.97123851363E-04 +1.24310271902E-03 +7.17465136821E-01 +5.13272941153E-01
2.64000000000E+09 +7.39026808394E-01 +3.89010521421E-01 -1.13789209632E-03 +1.73237507223E-03 -9.80146521925E-04 +1.51596973034E-03 +7.22287780571E-01 +5.03469691418E-01
2.64500000000E+09 +7.42664497016E-01 +3.77189675782E-01 -7.23868621460E-04 +1.78867123107E-03 -7.75336082672E-04 +1.54121199828E-03 +7.27101675256E-01 +4.93714235194E-01
2.65000000000E+09 +7.45746575616E-01 +3.65543710958E-01 -5.30174028063E-04 +1.72057082651E-03 -7.29501682240E-04 +1.57114961687E-03 +7.31527447222E-01 +4.83656437207E-01
2.65500000000E+09 +7.48880034959E-01 +3.54057127699E-01 -4.72295374447E-04 +1.65185899281E-03 -7.03407887740E-04 +1.70358571109E-03 +7.35169911554E-01 +4.73351162383E-01
2.66000000000E+09 +7.51660815416E-01 +3.42196772379E-01 -5.29718623648E-04 +1.77546377265E-03 -5.74315437935E-04 +1.90068573778E-03 +7.39310499468E-01 +4.62791640130E-01
2.66500000000E+09 +7.54302961873E-01 +3.30855560798E-01 -3.73328391558E-04 +1.84532418140E-03 -2.67825966000E-04 +1.96131107186E-03 +7.43928152961E-01 +4.51587845055E-01
2.67000000000E+09 +7.56815948166E-01 +3.18579951738E-01 -2.55558035581E-04 +2.01649950991E-03 -1.17577173842E-04 +1.97018017907E-03 +7.48258942825E-01 +4.40159398350E-01
2.67500000000E+09 +7.58940004071E-01 +3.05435247595E-01 +4.05790108882E-05 +2.18505580760E-03 +1.10112399255E-04 +2.05018697194E-03 +7.52234000762E-01 +4.28618913730E-01
2.68000000000E+09 +7.60271337800E-01 +2.91865071885E-01 +2.63938497623E-04 +2.00514218786E-03 +2.63086765333E-04 +1.85909218835E-03 +7.55875655736E-01 +4.17263223391E-01
2.68500000000E+09 +7.61071491881E-01 +2.77928124386E-01 +1.95907115106E-04 +2.05258554886E-03 +1.39131019286E-04 +1.99050796498E-03 +7.59002299056E-01 +4.05975212246E-01
2.69000000000E+09 +7.61974684267E-01 +2.63986494360E-01 +4.87740836899E-04 +2.22050514678E-03 +4.98572278838E-04 +2.22884634146E-03 +7.62089646272E-01 +3.94068716620E-01
2.69500000000E+09 +7.62721703309E-01 +2.49875729559E-01 +7.53460534511E-04 +2.18959272166E-03 +7.62228354232E-04 +2.11585498290E-03 +7.64839259813E-01 +3.81014786935E-01
2.70000000000E+09 +7.63280659879E-01 +2.35844910761E-01 +1.01470128713E-03 +2.27360954612E-03 +9.93911833162E-04 +2.17563810917E-03 +7.67313797450E-01 +3.67327705757E-01
2.70500000000E+09 +7.64063788104E-01 +2.22024927723E-01 +1.33112844465E-03 +2.06023700672E-03 +1.24980638188E-03 +2.03793648474E-03 +7.69588211189E-01 +3.53699601729E-01
2.71000000000E+09 +7.64721796929E-01 +2.08393807737E-01 +1.49752419001E-03 +1.87483331128E-03 +1.40550884749E-03 +2.01245643186E-03 +7.72523264780E-01 +3.40689779405E-01
2.71500000000E+09 +7.66194381559E-01 +1.94402318130E-01 +1.52807850321E-03 +1.79930561046E-03 +1.63755390557E-03 +1.88861798900E-03 +7.75063402114E-01 +3.27674032045E-01
2.72000000000E+09 +7.67206458562E-01 +1.79649754843E-01 +1.66095634978E-03 +1.82143296448E-03 +1.89257628464E-03 +1.76577322363E-03 +7.76958565711E-01 +3.14432229679E-01
2.72500000000E+09 +7.67430564651E-01 +1.64421427585E-01 +2.01855275264E-03 +1.75283532166E-03 +2.15868781032E-03 +1.47994141087E-03 +7.77553340350E-01 +3.01077518757E-01
2.73000000000E+09 +7.66794200610E-01 +1.48972090805E-01 +2.10011107595E-03 +1.61453761244E-03 +2.03489190670E-03 +1.26864178750E-03 +7.78554127288E-01 +2.87477554917E-01
2.73500000000E+09 +7.65442157232E-01 +1.32875160963E-01 +2.30895844570E-03 +1.45663159915E-03 +2.01967091860E-03 +1.31897554624E-03 +7.79551421742E-01 +2.72692484255E-01
2.74000000000E+09 +7.63018894423E-01 +1.16779168351E-01 +2.52525577145E-03 +1.41112898580E-03 +2.10798295592E-03 +1.46336069763E-03 +7.80663553741E-01 +2.57267618256E-01
2.74500000000E+09 +7.60068480722E-01 +1.00495126877E-01 +2.81917888780E-03 +1.37944063672E-03 +2.52970532060E-03 +1.60988114995E-03 +7.81102669745E-01 +2.41875524092E-01
2.75000000000E+09 +7.56574527404E-01 +8.37298742018E-02 +3.33839709709E-03 +9.99202849214E-04 +3.34326115553E-03 +1.40521058157E-03 +7.81674623424E-01 +2.27022992233E-01
2.75500000000E+09 +7.52133285377E-01 +6.67387975147E-02 +3.40141405127E-03 +3.93587229723E-04 +3.60709340674E-03 +6.51957837543E-04 +7.81330670675E-01 +2.12032219835E-01
2.76000000000E+09 +7.47400979304E-01 +5.00683066347E-02 +3.35227731951E-03 +2.40287886455E-04 +3.53788301449E-03 +2.76727716941E-04 +7.80730966737E-01 +1.97140720122E-01
2.76500000000E+09 +7.42896198814E-01 +3.32290428958E-02 +3.61216707792E-03 +2.56447654105E-05 +3.86928281461E-03 +2.42725014579E-05 +7.80061940080E-01 +1.80617769593E-01
2.77000000000E+09 +7.38580293450E-01 +1.56666426624E-02 +3.91846327185E-03 -5.30253347083E-04 +4.07014639306E-03 -6.02885377418E-04 +7.78556721016E-01 +1.62835288713E-01
2.77500000000E+09 +7.34090988063E-01 -2.70099034498E-03 +3.79026050150E-03 -1.16995086382E-03 +3.91637364839E-03 -1.35934829228E-03 +7.75909809925E-01 +1.44834816652E-01
2.78000000000E+09 +7.29322319137E-01 -2.20395555243E-02 +3.57931583586E-03 -1.37626287802E-03 +3.59254593114E-03 -1.66225176865E-03 +7.73958629144E-01 +1.27596760170E-01
2.78500000000E+09 +7.23288286799E-01 -4.21253578796E-02 +3.59257907544E-03 -1.67062281024E-03 +3.43809720449E-03 -1.88298539561E-03 +7.71737410319E-01 +1.09928043539E-01
2.79000000000E+09 +7.16625129040E-01 -6.21764618449E-02 +3.73303672093E-03 -2.10942795038E-03 +3.52500409980E-03 -2.21064452654E-03 +7.68908959492E-01 +9.23191830487E-02
2.79500000000E+09 +7.08929502434E-01 -8.21668057945E-02 +3.79030165348E-03 -2.93521703606E-03 +3.51341035952E-03 -2.82754433429E-03 +7.64473758128E-01 +7.40844408533E-02
2.80000000000E+09 +7.00233891255E-01 -1.02302905134E-01 +3.21984469058E-03 -3.56664662275E-03 +3.19209358665E-03 -3.37492159539E-03 +7.58904209158E-01 +5.57744513100E-02
2.80500000000E+09 +6.90102132004E-01 -1.21564097887E-01 +2.55049847854E-03 -3.96909560459E-03 +2.70262436052E-03 -3.87236657687E-03 +7.52874495593E-01 +3.77157997642E-02
2.81000000000E+09 +6.79015724882E-01 -1.39818163457E-01 +2.19619195462E-03 -4.01582038841E-03 +2.30423133264E-03 -4.11668727740E-03 +7.47017999197E-01 +1.82181134479E-02
2.81500000000E+09 +6.67373963738E-01 -1.57299452057E-01 +1.78013879442E-03 -4.30020711066E-03 +1.74288025546E-03 -4.47921094861E-03 +7.39754130063E-01 -1.77071523697E-03
2.82000000000E+09 +6.54801153953E-01 -1.74887221611E-01 +1.53220460039E-03 -4.53164459225E-03 +1.31174056981E-03 -4.52664675611E-03 +7.31499852674E-01 -2.16125767979E-02
2.82500000000E+09 +6.41124230588E-01 -1.92177502424E-01 +1.01810268607E-03 -4.91886620898E-03 +7.79678328575E-04 -4.71678446774E-03 +7.22221209112E-01 -4.07109799202E-02
2.83000000000E+09 +6.25774095657E-01 -2.10388559359E-01 +2.84321243362E-04 -4.94637883971E-03 +2.95182373159E-04 -4.67635615716E-03 +7.12826708761E-01 -5.97860241762E-02
2.83500000000E+09 +6.08609715174E-01 -2.28698614170E-01 -5.65192031027E-05 -4.84049803986E-03 +3.84868094863E-05 -4.63848900453E-03 +7.03013913556E-01 -7.93991603829E-02
2.84000000000E+09 +5.89172676224E-01 -2.46701719196E-01 -3.41307763035E-04 -5.01880877823E-03 -1.32931543809E-04 -4.92532825982E-03 +6.91861053483E-01 -1.00282538271E-01
2.84500000000E+09 +5.68580726880E-01 -2.64556083680E-01 -1.03256039568E-03 -5.19357185346E-03 -8.97378976031E-04 -5.22577740447E-03 +6.78812065291E-01 -1.20986075422E-01
2.85000000000E+09 +5.46543231614E-01 -2.82497653928E-01 -1.40673343922E-03 -5.18825288632E-03 -1.41403225730E-03 -5.16501766334E-03 +6.64496905705E-01 -1.41083405420E-01
2.85500000000E+09 +5.23038677761E-01 -3.00096570523E-01 -2.28054444342E-03 -5.33365472644E-03 -2.24223693440E-03 -5.22516818892E-03 +6.50520562271E-01 -1.60440445732E-01
2.86000000000E+09 +4.98915577692E-01 -3.17179421310E-01 -3.05120370623E-03 -5.10366690149E-03 -2.95274672596E-03 -5.10463449487E-03 +6.35163298789E-01 -1.81668316731E-01
2.86500000000E+09 +4.73694397243E-01 -3.33823377303E-01 -3.79214293160E-03 -4.45935495108E-03 -3.71229841303E-03 -4.48175439430E-03 +6.17308201094E-01 -2.02154742259E-01
2.87000000000E+09 +4.47133188760E-01 -3.49033465974E-01 -3.99354334484E-03 -3.82281253762E-03 -4.04478752741E-03 -3.89338937026E-03 +5.98481995684E-01 -2.22145491031E-01
2.87500000000E+09 +4.20627070752E-01 -3.62215538830E-01 -4.12502182997E-03 -3.61823937214E-03 -4.19073036954E-03 -3.54390743589E-03 +5.78306314795E-01 -2.41478450076E-01
2.88000000000E+09 +3.94412137188E-01 -3.74250849827E-01 -4.43935835417E-03 -3.63088461472E-03 -4.35122389083E-03 -3.39676580877E-03 +5.56860651928E-01 -2.60432148759E-01
2.88500000000E+09 +3.67240195536E-01 -3.85304550196E-01 -5.32139545414E-03 -3.59529001116E-03 -5.10298559015E-03 -3.30590249321E-03 +5.34630449648E-01 -2.79092023313E-01
2.89000000000E+09 +3.39262952119E-01 -3.95047135236E-01 -6.02626883655E-03 -2.73292374631E-03 -5.66154736988E-03 -2.68239463483E-03 +5.09118957999E-01 -2.97765052205E-01
2.89500000000E+09 +3.09482746138E-01 -4.03449496949E-01 -6.44394052446E-03 -1.80328875619E-03 -6.15414607702E-03 -2.05698085673E-03 +4.81637501732E-01 -3.14785796982E-01
2.90000000000E+09 +2.77985281702E-01 -4.10087515016E-01 -6.39847762873E-03 -1.12808640944E-03 -6.46261094375E-03 -1.30821999503E-03 +4.52819555333E-01 -3.30288450885E-01
2.90500000000E+09 +2.43985992101E-01 -4.14224664366E-01 -6.52739713670E-03 -7.37063742570E-04 -6.62936188045E-03 -6.96112161288E-04 +4.23849253459E-01 -3.45096837471E-01
2.91000000000E+09 +2.08606896409E-01 -4.15204314694E-01 -7.03184505056E-03 -1.15582270266E-04 -6.97291197492E-03 +5.61149983369E-05 +3.92850786709E-01 -3.59732350037E-01
2.91500000000E+09 +1.73162278635E-01 -4.12870353394E-01 -7.26211222760E-03 +9.05181952980E-04 -6.92668095580E-03 +1.06819261537E-03 +3.60190583527E-01 -3.72089664839E-01
2.92000000000E+09 +1.37727803224E-01 -4.08686010267E-01 -6.97214791252E-03 +1.67541076770E-03 -6.57445937654E-03 +1.50356402623E-03 +3.25855384801E-01 -3.81336222297E-01
2.92500000000E+09 +1.03214743572E-01 -4.02951582087E-01 -6.95727083134E-03 +2.28300671654E-03 -6.67991453482E-03 +1.92063792371E-03 +2.90945202916E-01 -3.88710313227E-01
2.93000000000E+09 +6.79557372196E-02 -3.96326163212E-01 -7.13370876891E-03 +3.17102817473E-03 -7.17661372107E-03 +2.75814866750E-03 +2.54729101050E-01 -3.93909623445E-01
2.93500000000E+09 +3.23372352972E-02 -3.87665563553E-01 -6.66091093840E-03 +4.33383289695E-03 -6.83739763714E-03 +4.13753659553E-03 +2.17444811077E-01 -3.99007590596E-01
2.94000000000E+09 -3.22434396871E-03 -3.76106845516E-01 -6.24777073052E-03 +4.88561671812E-03 -6.29537078797E-03 +4.75268248486E-03 +1.77755263391E-01 -4.01044861708E-01
2.94500000000E+09 -3.74826669764E-02 -3.61408731383E-01 -6.22628760588E-03 +5.80262690863E-03 -6.27007331257E-03 +5.62352256793E-03 +1.39015184222E-01 -4.00539819144E-01
2.95000000000E+09 -7.02543740455E-02 -3.44074604996E-01 -5.38361417690E-03 +7.33264676514E-03 -5.62234373996E-03 +7.06990829102E-03 +1.00672710328E-01 -3.97644118703E-01
2.95500000000E+09 -1.00801170503E-01 -3.24435920085E-01 -3.79462388894E-03 +7.72789338416E-03 -4.24230322700E-03 +7.69385085269E-03 +6.21498216046E-02 -3.93242198105E-01
2.96000000000E+09 -1.30942828954E-01 -3.02832086173E-01 -3.23305093951E-03 +7.86118990597E-03 -3.46707015856E-03 +8.09113990374E-03 +2.15801624056E-02 -3.85911505380E-01
2.96500000000E+09 -1.59353675723E-01 -2.78436088653E-01 -2.46833804922E-03 +8.24404277188E-03 -2.42438150440E-03 +8.58698841998E-03 -1.98778313199E-02 -3.74808594484E-01
2.97000000000E+09 -1.86714358440E-01 -2.50990232180E-01 -2.04946026742E-03 +8.62828769874E-03 -1.85052757271E-03 +8.70006717735E-03 -6.09723562228E-02 -3.59855084985E-01
2.97500000000E+09 -2.11588804063E-01 -2.20902308209E-01 -1.10895425500E-03 +9.88750452557E-03 -1.03897667299E-03 +9.63075560737E-03 -1.00921096087E-01 -3.42520114308E-01
2.98000000000E+09 -2.35082308506E-01 -1.89720300080E-01 +1.09710175703E-03 +1.00893958656E-02 +7.23373477326E-04 +9.91035439973E-03 -1.39143840323E-01 -3.22182155034E-01
2.98500000000E+09 -2.56352440337E-01 -1.56891842241E-01 +2.04229075857E-03 +9.37327564955E-03 +1.61443017338E-03 +9.64979802933E-03 -1.76151541708E-01 -3.00575659914E-01
2.99000000000E+09 -2.75974845703E-01 -1.23681252565E-01 +2.96883829175E-03 +9.48437155510E-03 +2.97278481894E-03 +1.01002141192E-02 -2.13413439320E-01 -2.74431919272E-01
2.99500000000E+09 -2.93882317485E-01 -8.92991107925E-02 +4.48648542655E-03 +9.61699149693E-03 +4.95477199487E-03 +9.87657937461E-03 -2.46867817149E-01 -2.43811000555E-01
3.00000000000E+09 -3.09597441642E-01 -5.43196326938E-02 +5.79532474101E-03 +8.98153256819E-03 +6.26892572363E-03 +8.71351933534E-03 -2.77810550802E-01 -2.12199982693E-01
3.00500000000E+09 -3.21882745232E-01 -1.98131884533E-02 +7.61898280562E-03 +8.73716974416E-03 +7.60362206648E-03 +8.15689497220E-03 -3.08034464906E-01 -1.78317526135E-01
3.01000000000E+09 -3.31563779936E-01 +1.37555385878E-02 +9.30893079928E-03 +6.71900440495E-03 +8.83061759410E-03 +6.53747435055E-03 -3.34029559896E-01 -1.41841426837E-01
3.01500000000E+09 -3.39073302740E-01 +4.65486859098E-02 +9.65764628734E-03 +4.88745858967E-03 +9.31827078363E-03 +5.11561268007E-03 -3.58182922929E-01 -1.04658600732E-01
3.02000000000E+09 -3.44291734754E-01 +7.93426959504E-02 +9.66789772394E-03 +3.65589037919E-03 +9.67502812066E-03 +3.99566405127E-03 -3.77474299347E-01 -6.52959029103E-02
3.02500000000E+09 -3.46545105623E-01 +1.12806612410E-01 +9.85874862487E-03 +3.06465635971E-03 +9.92614087796E-03 +3.17070879398E-03 -3.92533573690E-01 -2.67797186934E-02
3.03000000000E+09 -3.44307925201E-01 +1.46111265919E-01 +1.08137857654E-02 +2.06045684161E-03 +1.08137741428E-02 +2.03883972466E-03 -4.07065636939E-01 +1.19112558462E-02
3.03500000000E+09 -3.39354769758E-01 +1.76912393730E-01 +1.16299460234E-02 +4.72292642808E-05 +1.16061036287E-02 +2.64911554576E-04 -4.18984871298E-01 +5.29393900534E-02
3.04000000000E+09 -3.32575619862E-01 +2.08469337779E-01 +1.12439705250E-02 -2.43167994571E-03 +1.15295482913E-02 -2.15435837130E-03 -4.27181979117E-01 +9.41952285156E-02
3.04500000000E+09 -3.24050815575E-01 +2.37722984654E-01 +9.75236463863E-03 -3.74721956665E-03 +1.03609232433E-02 -3.86991449990E-03 -4.32134525830E-01 +1.35478785567E-01
3.05000000000E+09 -3.14616428127E-01 +2.67756712788E-01 +9.14849673209E-03 -4.60346199275E-03 +9.43464558125E-03 -5.18293723723E-03 -4.33495471008E-01 +1.74074118968E-01
3.05500000000E+09 -3.03254484639E-01 +2.97178925311E-01 +8.40321295686E-03 -5.39098191839E-03 +8.16109582680E-03 -6.01908470964E-03 -4.35392084756E-01 +2.12234838928E-01
3.06000000000E+09 -2.90442658867E-01 +3.25766695733E-01 +7.82964796632E-03 -6.56755802655E-03 +7.23918246445E-03 -6.74375571682E-03 -4.33139402649E-01 +2.52101978013E-01
3.06500000000E+09 -2.76207618770E-01 +3.52342823719E-01 +6.52926123389E-03 -7.95437783323E-03 +6.23057783233E-03 -7.45686763819E-03 -4.27518794500E-01 +2.90024010723E-01
3.07000000000E+09 -2.62141503394E-01 +3.77409234565E-01 +4.58703797339E-03 -8.47608756930E-03 +4.91119448618E-03 -7.98845430337E-03 -4.19478160349E-01 +3.25438648211E-01
