# Hz S RI R 50
! CMT, C1220, 16058040, 17.2.0/1
! Date: 15/08/2018 10:53:16
! Data: Format (Calibration Info)
! Freq                      S11: Re/Im (F2)                       S21: Re/Im (F2)                       S12: Re/Im (F2)                       S22: Re/Im (F2)            
2.50000000000E+09 +5.79548950331E-01 +6.51822428980E-01 -9.78147392883E-04 +6.41342938853E-04 -1.10268038397E-03 +7.17768359315E-04 +5.60834049821E-01 +7.27162532369E-01
2.50500000000E+09 +5.87289029773E-01 +6.42608784224E-01 -8.45759408478E-04 +7.83050655585E-04 -8.70624321978E-04 +8.22043344638E-04 +5.66668033971E-01 +7.21449864177E-01
2.51000000000E+09 +5.95878228136E-01 +6.33265582165E-01 -7.89474350948E-04 +7.93140960834E-04 -7.97926742503E-04 +8.11445037887E-04 +5.72396720131E-01 +7.16014513977E-01
2.51500000000E+09 +6.04327478065E-01 +6.24435082867E-01 -7.45555984788E-04 +9.07901332985E-04 -7.07277310301E-04 +8.49632854439E-04 +5.77791948254E-01 +7.10369429107E-01
2.52000000000E+09 +6.12119127083E-01 +6.16100687619E-01 -6.28090844500E-04 +9.67439129031E-04 -6.63715076389E-04 +9.52075316403E-04 +5.82836764096E-01 +7.04066951927E-01
2.52500000000E+09 +6.18358881187E-01 +6.09309276708E-01 -5.43377912373E-04 +9.73806520266E-04 -5.49403703817E-04 +9.90384692176E-04 +5.88224779349E-01 +6.97784334997E-01
2.53000000000E+09 +6.23243284051E-01 +6.03384653923E-01 -4.77821670151E-04 +9.33036761679E-04 -5.49968644772E-04 +9.60506867933E-04 +5.94096533508E-01 +6.90979460928E-01
2.53500000000E+09 +6.26795653051E-01 +5.98012001156E-01 -5.40622140875E-04 +1.04252923694E-03 -5.33957870382E-04 +1.07006554960E-03 +5.99931367250E-01 +6.84550236463E-01
2.54000000000E+09 +6.29715979854E-01 +5.92510175921E-01 -3.51702144518E-04 +1.29199716087E-03 -4.07607008993E-04 +1.20347166521E-03 +6.05872660996E-01 +6.78104467084E-01
2.54500000000E+09 +6.32747515795E-01 +5.86449224943E-01 -1.82007123661E-04 +1.32519844321E-03 -2.39707831838E-04 +1.27682317705E-03 +6.11616908600E-01 +6.71964787932E-01
2.55000000000E+09 +6.36506860636E-01 +5.79312474178E-01 +7.78282529913E-05 +1.30690134553E-03 -2.76177747099E-05 +1.41674406461E-03 +6.16824695098E-01 +6.65915438567E-01
2.55500000000E+09 +6.41419478989E-01 +5.70649229794E-01 +2.19462841508E-04 +1.11099435297E-03 +2.36325879096E-04 +1.25061018855E-03 +6.21892992080E-01 +6.59627813756E-01
2.56000000000E+09 +6.48056633581E-01 +5.61391104166E-01 +2.08062663841E-04 +1.06371954865E-03 +2.99529457209E-04 +1.23985989568E-03 +6.26886664026E-01 +6.52649301952E-01
2.56500000000E+09 +6.56052980346E-01 +5.51122722018E-01 +2.21020244077E-04 +1.11319483339E-03 +4.86359010957E-04 +1.18151452274E-03 +6.32310338828E-01 +6.45582548827E-01
2.57000000000E+09 +6.64529782945E-01 +5.40690074702E-01 +3.82543363901E-04 +1.19445080440E-03 +5.82861158669E-04 +1.03483990829E-03 +6.37699954636E-01 +6.38175291049E-01
2.57500000000E+09 +6.72846607564E-01 +5.30494254717E-01 +5.15984433982E-04 +1.10203062892E-03 +6.48587505159E-04 +8.89456807335E-04 +6.43523488681E-01 +6.30739221648E-01
2.58000000000E+09 +6.79730417434E-01 +5.21733980581E-01 +6.84186738584E-04 +1.00836601416E-03 +6.23289799630E-04 +8.34108878110E-04 +6.48920535019E-01 +6.23295327271E-01
2.58500000000E+09 +6.85513581033E-01 +5.13664525764E-01 +8.38717054176E-04 +9.02414284892E-04 +6.38525875482E-04 +8.25639269380E-04 +6.54128359831E-01 +6.15778352256E-01
2.59000000000E+09 +6.89681760926E-01 +5.06629219158E-01 +8.23502826969E-04 +7.39345235320E-04 +6.91987009992E-04 +7.43036694645E-04 +6.59024436081E-01 +6.08066829643E-01
2.59500000000E+09 +6.92565727558E-01 +4.99460988287E-01 +8.44868359603E-04 +7.25330251803E-04 +7.55028667736E-04 +8.22047512601E-04 +6.63968500156E-01 +6.00190584407E-01
2.60000000000E+09 +6.94305863029E-01 +4.91611993923E-01 +9.10614954899E-04 +6.22877994870E-04 +9.43618012438E-04 +5.94332996800E-04 +6.69416442983E-01 +5.91989028121E-01
2.60500000000E+09 +6.96426953839E-01 +4.82177112882E-01 +9.24742831513E-04 +4.28797217173E-04 +9.20586615440E-04 +4.82839754662E-04 +6.75098236113E-01 +5.83447346068E-01
2.61000000000E+09 +6.98733639803E-01 +4.70580281886E-01 +8.15926908724E-04 +3.93141757267E-04 +8.31379448515E-04 +4.04163666872E-04 +6.80522752241E-01 +5.74520210268E-01
2.61500000000E+09 +7.02529622443E-01 +4.56924203039E-01 +8.47170210770E-04 +4.03938796157E-04 +8.87290649805E-04 +4.14859921792E-04 +6.85295747153E-01 +5.65830201746E-01
2.62000000000E+09 +7.07024340448E-01 +4.41048671867E-01 +8.81281858577E-04 +2.75099112783E-04 +8.98921740663E-04 +2.64639068857E-04 +6.89968640036E-01 +5.56883314029E-01
2.62500000000E+09 +7.12482206455E-01 +4.24185168308E-01 +8.42536553004E-04 +3.42001202864E-04 +8.91932999544E-04 +3.07589954976E-04 +6.94818468612E-01 +5.48387625059E-01
2.63000000000E+09 +7.18130255059E-01 +4.07201328566E-01 +9.18403465070E-04 +3.59853424305E-04 +9.63622421599E-04 +2.53016028213E-04 +6.99713402161E-01 +5.39411633475E-01
2.63500000000E+09 +7.23452759372E-01 +3.91321594183E-01 +9.88055056430E-04 +1.29312439439E-04 +9.49977567953E-04 +1.59385575407E-05 +7.04543273654E-01 +5.30171425823E-01
2.64000000000E+09 +7.28029982789E-01 +3.77132129610E-01 +9.71465338102E-04 +5.08113277035E-05 +8.29083357114E-04 +3.42246639460E-05 +7.09383718708E-01 +5.20677946403E-01
2.64500000000E+09 +7.31467251289E-01 +3.65505746300E-01 +8.61982009473E-04 -4.90105922806E-05 +7.76124964777E-04 +1.23199239879E-05 +7.14128265199E-01 +5.11076552232E-01
2.65000000000E+09 +7.33796441706E-01 +3.55714397402E-01 +8.64301045157E-04 -9.66809078655E-05 +7.86366699217E-04 +5.31306969954E-05 +7.18588946423E-01 +5.01036430284E-01
2.65500000000E+09 +7.35340290368E-01 +3.46734883404E-01 +7.36529380313E-04 -7.98475725282E-05 +7.92444063434E-04 +2.37692594651E-05 +7.22592238367E-01 +4.90529581055E-01
2.66000000000E+09 +7.36520914980E-01 +3.37885951119E-01 +7.91293316148E-04 +1.11004840513E-04 +8.53720174992E-04 +1.04707659557E-04 +7.26679875248E-01 +4.79548674092E-01
2.66500000000E+09 +7.37506700178E-01 +3.28232864522E-01 +9.04745699996E-04 +4.45810941938E-05 +9.59804115904E-04 -1.91619137942E-05 +7.30950003705E-01 +4.68602710619E-01
2.67000000000E+09 +7.38532529133E-01 +3.16175804725E-01 +1.01586096631E-03 +8.19772373738E-06 +9.55458688332E-04 -5.11466920946E-05 +7.35487848044E-01 +4.58071597533E-01
2.67500000000E+09 +7.39674756920E-01 +3.01859009582E-01 +1.09364661272E-03 -1.19229363095E-04 +9.77367238331E-04 -1.29569818654E-04 +7.40064611789E-01 +4.47044828357E-01
2.68000000000E+09 +7.40865565366E-01 +2.86022345121E-01 +1.07887832762E-03 -2.72956363413E-04 +1.05147954395E-03 -2.60287942365E-04 +7.44474147556E-01 +4.35832164988E-01
2.68500000000E+09 +7.42337384718E-01 +2.69069620323E-01 +8.91953228169E-04 -3.55989171455E-04 +8.86607211448E-04 -2.48259169799E-04 +7.47775301710E-01 +4.24319722882E-01
2.69000000000E+09 +7.43779120395E-01 +2.51798138071E-01 +9.25107530548E-04 -1.86862008570E-04 +9.41056957508E-04 -1.62086690347E-04 +7.50709734810E-01 +4.12357106955E-01
2.69500000000E+09 +7.45124739772E-01 +2.35386893938E-01 +1.19129040192E-03 -1.41728512738E-04 +1.21643916628E-03 -1.85864089320E-04 +7.53731736434E-01 +3.99862266437E-01
2.70000000000E+09 +7.46228295885E-01 +2.20187023962E-01 +1.43587908058E-03 -3.96123636805E-04 +1.39715812203E-03 -3.57309318099E-04 +7.56959686885E-01 +3.86813177290E-01
2.70500000000E+09 +7.47044728879E-01 +2.06216916828E-01 +1.50003729141E-03 -6.29285651036E-04 +1.45454209155E-03 -5.69846310886E-04 +7.60138985632E-01 +3.73085576948E-01
2.71000000000E+09 +7.47262155841E-01 +1.93371385663E-01 +1.37698353644E-03 -9.31471310387E-04 +1.48311839032E-03 -8.84982796649E-04 +7.62940766920E-01 +3.59690265361E-01
2.71500000000E+09 +7.47268173341E-01 +1.80887875050E-01 +1.24586987220E-03 -1.03999438109E-03 +1.37009567415E-03 -1.03579681453E-03 +7.65321766736E-01 +3.47084621501E-01
2.72000000000E+09 +7.47084803839E-01 +1.68325492401E-01 +1.24348316038E-03 -1.12833426060E-03 +1.23450127330E-03 -1.30378860838E-03 +7.67490156240E-01 +3.34401776304E-01
2.72500000000E+09 +7.46854714846E-01 +1.54301975709E-01 +1.07458616772E-03 -1.32451771638E-03 +9.45122169745E-04 -1.39039927850E-03 +7.68809596658E-01 +3.20921884468E-01
2.73000000000E+09 +7.45825321804E-01 +1.38299824386E-01 +1.06607533476E-03 -1.30902479372E-03 +9.36079673765E-04 -1.21738469460E-03 +7.70266032540E-01 +3.06810492436E-01
2.73500000000E+09 +7.44048331564E-01 +1.20475727516E-01 +1.16103840342E-03 -1.52185617681E-03 +1.00983817093E-03 -1.29817159723E-03 +7.70828468513E-01 +2.91822557510E-01
2.74000000000E+09 +7.41468563056E-01 +1.01853801840E-01 +1.02324210992E-03 -1.69107717464E-03 +1.03725925781E-03 -1.43880208046E-03 +7.71992982477E-01 +2.77197517225E-01
2.74500000000E+09 +7.38110793779E-01 +8.27140150452E-02 +9.21412848703E-04 -1.87172612648E-03 +1.08991893050E-03 -1.66871344354E-03 +7.73483122323E-01 +2.62413815872E-01
2.75000000000E+09 +7.33772195776E-01 +6.37989398516E-02 +8.72468761518E-04 -2.09912304195E-03 +1.17874550563E-03 -2.06176610384E-03 +7.74517349537E-01 +2.47354070348E-01
2.75500000000E+09 +7.28867746283E-01 +4.58673711141E-02 +6.16022753169E-04 -2.53129324265E-03 +8.32967478929E-04 -2.72484733597E-03 +7.75052993654E-01 +2.32380027433E-01
2.76000000000E+09 +7.23935553242E-01 +2.89545383152E-02 +1.57568898502E-04 -2.56352008262E-03 +1.81851676809E-04 -2.80912243876E-03 +7.74852356989E-01 +2.16643327160E-01
2.76500000000E+09 +7.18550053574E-01 +1.24481586296E-02 -2.51878033217E-04 -2.56230227756E-03 -3.14858236414E-04 -2.73420096820E-03 +7.74066428046E-01 +2.00623549766E-01
2.77000000000E+09 +7.13319467189E-01 -4.51972896262E-03 -5.26419425764E-04 -2.34169112296E-03 -6.19364153512E-04 -2.39817028308E-03 +7.73817749657E-01 +1.83357006533E-01
2.77500000000E+09 +7.07547667649E-01 -2.23850341727E-02 -3.46410065642E-04 -2.02444386458E-03 -4.93934656682E-04 -2.04483071554E-03 +7.72522364866E-01 +1.65230812509E-01
2.78000000000E+09 +7.01363427794E-01 -4.16248876724E-02 -1.17021888183E-04 -2.39227067561E-03 -2.72566042129E-04 -2.40673349117E-03 +7.70659352531E-01 +1.47232337778E-01
2.78500000000E+09 +6.94398609765E-01 -6.22551370553E-02 -4.24968997521E-04 -2.89764835626E-03 -6.07280794654E-04 -2.85778352468E-03 +7.68421165743E-01 +1.29510350713E-01
2.79000000000E+09 +6.87092593017E-01 -8.41319902813E-02 -9.84592736965E-04 -3.00884745581E-03 -1.12923785471E-03 -2.80918964360E-03 +7.65854291083E-01 +1.11981572279E-01
2.79500000000E+09 +6.78780200771E-01 -1.06519261197E-01 -1.32759965841E-03 -3.12187760352E-03 -1.30806167748E-03 -2.91087161468E-03 +7.62296492458E-01 +9.36707380519E-02
2.80000000000E+09 +6.69726235915E-01 -1.28357583406E-01 -1.93141570212E-03 -2.99392099854E-03 -1.76438063979E-03 -2.89341925262E-03 +7.57494190214E-01 +7.46045909935E-02
2.80500000000E+09 +6.60227835268E-01 -1.48870780687E-01 -2.07797828178E-03 -2.86656456951E-03 -1.94657478815E-03 -2.90682543410E-03 +7.51942350459E-01 +5.50112687491E-02
2.81000000000E+09 +6.49768033568E-01 -1.67459519389E-01 -2.47717054310E-03 -3.03419013609E-03 -2.51124428596E-03 -3.13325268582E-03 +7.45152949192E-01 +3.56470509994E-02
2.81500000000E+09 +6.38605577887E-01 -1.83659559525E-01 -3.05980035937E-03 -2.86006243334E-03 -3.19854780730E-03 -2.86428075722E-03 +7.38814100554E-01 +1.60225263098E-02
2.82000000000E+09 +6.26955843986E-01 -1.98884417653E-01 -3.53469175437E-03 -2.87782410215E-03 -3.56495171075E-03 -2.70630812487E-03 +7.31439140149E-01 -4.61201869002E-03
2.82500000000E+09 +6.13357833723E-01 -2.13565103132E-01 -4.36200722957E-03 -2.59270624184E-03 -4.22061297035E-03 -2.36736154910E-03 +7.22797324336E-01 -2.51608579365E-02
2.83000000000E+09 +5.98206173643E-01 -2.28473528258E-01 -4.93760731891E-03 -2.04357894956E-03 -4.64529468220E-03 -1.94141481831E-03 +7.12799337025E-01 -4.50948923269E-02
2.83500000000E+09 +5.81213501416E-01 -2.45035000190E-01 -5.52992970310E-03 -1.32624899609E-03 -5.31275456473E-03 -1.45448455626E-03 +7.02390746230E-01 -6.51962303337E-02
2.84000000000E+09 +5.61467068101E-01 -2.63647444832E-01 -5.77161679590E-03 -4.32075063982E-04 -5.79213169238E-03 -6.41119413611E-04 +6.91061123079E-01 -8.50408975398E-02
2.84500000000E+09 +5.38833104176E-01 -2.83801984467E-01 -5.77842582744E-03 +3.48138327392E-04 -5.84800702553E-03 +2.68307110804E-04 +6.78944438536E-01 -1.05828138936E-01
2.85000000000E+09 +5.14616847677E-01 -3.04564525150E-01 -5.79335864807E-03 +8.23988470656E-04 -5.84127626767E-03 +8.22081016128E-04 +6.65225750937E-01 -1.26420900830E-01
2.85500000000E+09 +4.89108134977E-01 -3.25158163086E-01 -6.33363657698E-03 +1.42238688057E-03 -6.26345442296E-03 +1.39331372988E-03 +6.49896719341E-01 -1.46843663324E-01
2.86000000000E+09 +4.63656013290E-01 -3.44216111057E-01 -6.20434885406E-03 +2.57206973883E-03 -6.12970963156E-03 +2.47232372990E-03 +6.33865036249E-01 -1.66118203234E-01
2.86500000000E+09 +4.39482381949E-01 -3.61177668580E-01 -6.23878310050E-03 +3.10147557212E-03 -6.16497537137E-03 +3.05985938907E-03 +6.17476873807E-01 -1.86688099176E-01
2.87000000000E+09 +4.16213204814E-01 -3.76629438371E-01 -6.27959500351E-03 +4.31033134872E-03 -6.34560034608E-03 +4.43867694732E-03 +5.99025996992E-01 -2.07113509699E-01
2.87500000000E+09 +3.93421416541E-01 -3.89751116125E-01 -5.76438094829E-03 +5.46513446886E-03 -5.57630928806E-03 +5.56884352095E-03 +5.78237926248E-01 -2.26989561849E-01
2.88000000000E+09 +3.70350189881E-01 -4.01320731445E-01 -5.01996370530E-03 +6.31510694221E-03 -4.65946551139E-03 +6.24949290767E-03 +5.57051929897E-01 -2.45428192945E-01
2.88500000000E+09 +3.45446101220E-01 -4.11161608411E-01 -4.47494179128E-03 +7.33994207548E-03 -4.15769538396E-03 +6.98704818102E-03 +5.34547955132E-01 -2.63409719110E-01
2.89000000000E+09 +3.19079044453E-01 -4.19853608812E-01 -3.36681066558E-03 +8.25234835520E-03 -3.35086805223E-03 +7.72111808905E-03 +5.10657816184E-01 -2.81491887859E-01
2.89500000000E+09 +2.89054202513E-01 -4.27452868813E-01 -2.08484646071E-03 +8.64762437486E-03 -2.37144149795E-03 +8.23539149509E-03 +4.83724327707E-01 -2.99248254945E-01
2.90000000000E+09 +2.57045382639E-01 -4.33872972096E-01 -1.37530599481E-03 +8.70596078140E-03 -1.75324126623E-03 +8.71130538677E-03 +4.56608281194E-01 -3.14961866351E-01
2.90500000000E+09 +2.22029842968E-01 -4.39784844770E-01 -5.80016404776E-04 +9.64906715824E-03 -6.13391538148E-04 +9.72033689123E-03 +4.27843662813E-01 -3.30812049637E-01
2.91000000000E+09 +1.85679885153E-01 -4.43501569601E-01 +6.66126613732E-04 +1.00039136233E-02 +9.63298281735E-04 +9.85524781365E-03 +3.98290935172E-01 -3.45163108044E-01
2.91500000000E+09 +1.49861631583E-01 -4.45870656216E-01 +2.35169169797E-03 +1.11557363392E-02 +2.48511884681E-03 +1.05784221356E-02 +3.66964246697E-01 -3.57946863130E-01
2.92000000000E+09 +1.14281597603E-01 -4.46706461913E-01 +5.14162714717E-03 +1.06048454222E-02 +4.75598590403E-03 +9.96797579245E-03 +3.34202761544E-01 -3.69497572365E-01
2.92500000000E+09 +7.95965151557E-02 -4.46015092483E-01 +6.54141404473E-03 +9.33860851027E-03 +5.84765826397E-03 +9.08879269346E-03 +2.99193383285E-01 -3.77761791930E-01
2.93000000000E+09 +4.56084220918E-02 -4.42487423756E-01 +7.62368661169E-03 +8.18937516619E-03 +7.01718220580E-03 +8.39947177204E-03 +2.63509691950E-01 -3.85339470869E-01
2.93500000000E+09 +1.25113191894E-02 -4.36462303941E-01 +8.62636911730E-03 +7.56505074661E-03 +8.31346137828E-03 +7.95944597211E-03 +2.25524181028E-01 -3.90523933980E-01
2.94000000000E+09 -2.05900347660E-02 -4.27441115644E-01 +9.68430848520E-03 +6.67780181442E-03 +9.51091271548E-03 +6.87877905028E-03 +1.87060891334E-01 -3.94958388685E-01
2.94500000000E+09 -5.33040730601E-02 -4.15122865071E-01 +1.15674764945E-02 +5.46583578666E-03 +1.13581637333E-02 +5.74058761671E-03 +1.46108731145E-01 -3.95667784913E-01
2.95000000000E+09 -8.66778744417E-02 -4.00640550301E-01 +1.23681016430E-02 +3.28767337650E-03 +1.21578151599E-02 +3.80263390394E-03 +1.06452441629E-01 -3.93270165468E-01
2.95500000000E+09 -1.21292714450E-01 -3.82330308057E-01 +1.27741271855E-02 +1.22296216894E-03 +1.29795841035E-02 +1.81404874364E-03 +6.71984697152E-02 -3.88778943511E-01
2.96000000000E+09 -1.54880307375E-01 -3.60646673036E-01 +1.24814542154E-02 -7.27648652072E-04 +1.30781125882E-02 -5.05283664111E-04 +2.60812064703E-02 -3.82057765881E-01
2.96500000000E+09 -1.86842750566E-01 -3.36948729258E-01 +1.23746208497E-02 -1.95611307599E-03 +1.28016912347E-02 -2.30395976509E-03 -1.49554212873E-02 -3.70141561819E-01
2.97000000000E+09 -2.17216302486E-01 -3.12072448120E-01 +1.22939585409E-02 -3.66473887645E-03 +1.21159076357E-02 -4.04769769340E-03 -5.53635260837E-02 -3.56446378515E-01
2.97500000000E+09 -2.45573178318E-01 -2.85677359334E-01 +1.22970532891E-02 -5.51349687762E-03 +1.18863357120E-02 -5.44393098838E-03 -9.50328339729E-02 -3.39417685924E-01
2.98000000000E+09 -2.72229116579E-01 -2.58568353135E-01 +1.11610314152E-02 -7.88219471579E-03 +1.11356509324E-02 -7.32117901709E-03 -1.33339884177E-01 -3.20308653422E-01
2.98500000000E+09 -2.96831404878E-01 -2.29002532141E-01 +1.00554170604E-02 -9.59547453223E-03 +1.06203817153E-02 -9.30949712324E-03 -1.69707990045E-01 -2.98066148557E-01
2.99000000000E+09 -3.18207568090E-01 -1.98108558308E-01 +7.85448007700E-03 -1.09601577310E-02 +8.50796325566E-03 -1.12898282268E-02 -2.06077673286E-01 -2.73653329860E-01
2.99500000000E+09 -3.37696512975E-01 -1.66392661786E-01 +6.46407650399E-03 -1.15773416746E-02 +6.42920626410E-03 -1.23362897477E-02 -2.39452578176E-01 -2.45026385400E-01
3.00000000000E+09 -3.56375900539E-01 -1.33422714958E-01 +4.76718200875E-03 -1.24495749875E-02 +4.14909945908E-03 -1.27757176184E-02 -2.71300140821E-01 -2.14116579930E-01
3.00500000000E+09 -3.72213847795E-01 -9.85022835752E-02 +3.00401769211E-03 -1.33692993906E-02 +2.42627491590E-03 -1.29916103899E-02 -3.00370160227E-01 -1.82218192989E-01
3.01000000000E+09 -3.85556501262E-01 -6.42731803687E-02 +3.96249079143E-04 -1.39827151985E-02 +4.40388654404E-04 -1.32669996935E-02 -3.28949913650E-01 -1.47695220067E-01
3.01500000000E+09 -3.97817890139E-01 -3.05239595393E-02 -2.01967283228E-03 -1.28757927021E-02 -1.62867179599E-03 -1.25921143389E-02 -3.53467083489E-01 -1.11634433228E-01
3.02000000000E+09 -4.07418535164E-01 +3.39975913896E-03 -3.14653706115E-03 -1.17587471938E-02 -2.90555217328E-03 -1.18399350604E-02 -3.75048506680E-01 -7.33281526600E-02
3.02500000000E+09 -4.14107939386E-01 +3.61993739463E-02 -4.43482623133E-03 -1.17570659234E-02 -4.34059165149E-03 -1.18010366714E-02 -3.92770479295E-01 -3.50969267704E-02
3.03000000000E+09 -4.17541850760E-01 +6.87105838904E-02 -6.22155041749E-03 -1.06019660898E-02 -6.09787334543E-03 -1.05684642946E-02 -4.08468406305E-01 +5.14771779608E-03
3.03500000000E+09 -4.17274725271E-01 +1.00033861189E-01 -7.37044785828E-03 -1.01001492638E-02 -7.13853632533E-03 -1.02541770813E-02 -4.20285940051E-01 +4.49702487861E-02
3.04000000000E+09 -4.14096818713E-01 +1.31027143446E-01 -9.41932647281E-03 -8.08713805522E-03 -9.28738417017E-03 -8.59292455825E-03 -4.29370150281E-01 +8.61448228178E-02
3.04500000000E+09 -4.08086164599E-01 +1.61874992311E-01 -9.46826232325E-03 -6.16627020400E-03 -9.88536499053E-03 -6.68877485274E-03 -4.35011017872E-01 +1.25788048362E-01
3.05000000000E+09 -4.00542356431E-01 +1.94168258489E-01 -9.83196668038E-03 -4.96291347940E-03 -1.05055810069E-02 -4.94330182689E-03 -4.38178266176E-01 +1.65390861004E-01
3.05500000000E+09 -3.89593309721E-01 +2.28382842549E-01 -1.00704867323E-02 -3.89590245191E-03 -1.04510357384E-02 -3.25626285396E-03 -4.39034213854E-01 +2.03616627071E-01
3.06000000000E+09 -3.76657841711E-01 +2.61346199501E-01 -1.05090966053E-02 -2.79749853088E-03 -1.01785739759E-02 -2.13541505086E-03 -4.37694682600E-01 +2.40767950699E-01
3.06500000000E+09 -3.62684148865E-01 +2.94354855731E-01 -1.10574579221E-02 -9.69816710643E-04 -1.03399921905E-02 -9.70327573896E-04 -4.35473888311E-01 +2.78418340524E-01
3.07000000000E+09 -3.47988261580E-01 +3.24766470714E-01 -1.04816514358E-02 +8.94796078059E-04 -1.02039792587E-02 +2.70670971113E-04 -4.28744915477E-01 +3.15024894315E-01
