# Hz S RI R 50
! CMT, C1220, 16058040, 17.2.0/1
! Date: 15/08/2018 09:57:34
! Data: Format (Calibration Info)
! Freq                      S11: Re/Im (F2)                       S21: Re/Im (F2)                       S12: Re/Im (F2)                       S22: Re/Im (F2)            
2.50000000000E+09 +5.97936374698E-01 +6.32886889545E-01 -2.11487194891E-04 -1.05858982528E-03 -2.48934163689E-04 -1.13678671810E-03 +5.77484029344E-01 +7.13881477700E-01
2.50500000000E+09 +6.04163466063E-01 +6.25494433399E-01 -3.04332309447E-04 -9.93866384810E-04 -3.06029584825E-04 -1.01864258755E-03 +5.83205398020E-01 +7.08175532570E-01
2.51000000000E+09 +6.10760759831E-01 +6.17863423982E-01 -3.46028244444E-04 -9.49310387074E-04 -4.21111701408E-04 -8.97262644301E-04 +5.88651886574E-01 +7.02876281720E-01
2.51500000000E+09 +6.17483219594E-01 +6.10139516486E-01 -4.51964390879E-04 -1.01493699915E-03 -4.08811130321E-04 -9.51494393891E-04 +5.93757757091E-01 +6.97524588767E-01
2.52000000000E+09 +6.23734798198E-01 +6.02092736114E-01 -5.93964987571E-04 -1.00542854633E-03 -5.63599554785E-04 -9.95221606187E-04 +5.98770364042E-01 +6.91577165737E-01
2.52500000000E+09 +6.29280947650E-01 +5.94629580660E-01 -7.60819743491E-04 -8.74343957079E-04 -7.84663172052E-04 -9.81835364585E-04 +6.04443184658E-01 +6.85118473448E-01
2.53000000000E+09 +6.34599569688E-01 +5.87434579665E-01 -8.68699467114E-04 -7.03288275038E-04 -9.02623565093E-04 -7.26702401447E-04 +6.10403505761E-01 +6.77850696022E-01
2.53500000000E+09 +6.39429190355E-01 +5.80622278263E-01 -7.52252210903E-04 -6.34426360371E-04 -7.45660868199E-04 -5.65316593389E-04 +6.16216730730E-01 +6.70812015366E-01
2.54000000000E+09 +6.43771546707E-01 +5.73915144771E-01 -7.75333639727E-04 -6.97914336919E-04 -7.60255536488E-04 -6.27853733458E-04 +6.22103567498E-01 +6.64182717491E-01
2.54500000000E+09 +6.48362582666E-01 +5.67293531627E-01 -9.44587141997E-04 -6.73367718745E-04 -8.91399944381E-04 -7.02635494942E-04 +6.28033955930E-01 +6.57731930077E-01
2.55000000000E+09 +6.53000497994E-01 +5.60447291482E-01 -1.07219234574E-03 -5.17372169258E-04 -1.07491559581E-03 -5.76999801781E-04 +6.33069820911E-01 +6.51589052596E-01
2.55500000000E+09 +6.57942724002E-01 +5.53062813781E-01 -1.07277724132E-03 -3.13660900200E-04 -1.22887185601E-03 -4.29942711670E-04 +6.38088668583E-01 +6.45334163795E-01
2.56000000000E+09 +6.63439695071E-01 +5.45461413531E-01 -9.69860911495E-04 -1.95968872312E-04 -1.10910819190E-03 -1.79034581659E-04 +6.43324238319E-01 +6.38204357262E-01
2.56500000000E+09 +6.69358422688E-01 +5.37086693247E-01 -8.82609593967E-04 -2.75051612244E-04 -1.02092148716E-03 -1.43004695781E-04 +6.48620834938E-01 +6.30500145738E-01
2.57000000000E+09 +6.75690185791E-01 +5.28537834174E-01 -1.00418446825E-03 -4.72131677027E-04 -1.06482772878E-03 -2.52817601823E-04 +6.54150368299E-01 +6.22525054926E-01
2.57500000000E+09 +6.81908304795E-01 +5.19219345269E-01 -1.34977847442E-03 -3.08511677728E-04 -1.23050217000E-03 -1.68657807578E-04 +6.59849090719E-01 +6.14490358604E-01
2.58000000000E+09 +6.87527996577E-01 +5.10455823550E-01 -1.42343976837E-03 +6.53821625172E-05 -1.16416532449E-03 +8.94279777619E-05 +6.64610753285E-01 +6.06963971299E-01
2.58500000000E+09 +6.93042467719E-01 +5.01738290472E-01 -1.22923001058E-03 +2.38262105390E-04 -1.05650094236E-03 +1.41035027647E-04 +6.69455168621E-01 +5.99577623747E-01
2.59000000000E+09 +6.98145274802E-01 +4.93283877132E-01 -1.16170705393E-03 +2.01470195964E-04 -1.09033574686E-03 +1.07131643597E-04 +6.74230960074E-01 +5.92125182577E-01
2.59500000000E+09 +7.02885249341E-01 +4.84825214006E-01 -1.21195332912E-03 +1.73589985778E-04 -1.26663339477E-03 +1.16838017303E-04 +6.78895172160E-01 +5.83846955847E-01
2.60000000000E+09 +7.07373345100E-01 +4.76456890286E-01 -1.36626497062E-03 +1.84174946327E-04 -1.38475394718E-03 +1.74229873906E-04 +6.83812957382E-01 +5.75312806088E-01
2.60500000000E+09 +7.11727484810E-01 +4.67413766767E-01 -1.57165163560E-03 +4.79493453170E-04 -1.57862331117E-03 +4.70846663304E-04 +6.88789361050E-01 +5.66186782834E-01
2.61000000000E+09 +7.16014415961E-01 +4.57834622210E-01 -1.53746056689E-03 +9.15358280144E-04 -1.52055205322E-03 +9.12394639089E-04 +6.93581066851E-01 +5.57289546506E-01
2.61500000000E+09 +7.20285631827E-01 +4.47485577414E-01 -1.13358958569E-03 +1.12048813820E-03 -1.15610997390E-03 +1.09997149245E-03 +6.98291378691E-01 +5.48917720686E-01
2.62000000000E+09 +7.24314593890E-01 +4.36098720965E-01 -9.85175499330E-04 +1.09310410501E-03 -1.03693024426E-03 +1.10157714474E-03 +7.03144385066E-01 +5.39838684435E-01
2.62500000000E+09 +7.28436501997E-01 +4.24079279800E-01 -9.50290089461E-04 +1.10103290619E-03 -8.72627364145E-04 +1.23551527880E-03 +7.07604192111E-01 +5.30995819411E-01
2.63000000000E+09 +7.32436854445E-01 +4.11396775212E-01 -7.98076764073E-04 +1.07389509883E-03 -6.22205710443E-04 +1.18165898882E-03 +7.11909048223E-01 +5.22329975538E-01
2.63500000000E+09 +7.35917381591E-01 +3.98569993002E-01 -9.31446172394E-04 +1.12636210083E-03 -7.29732381179E-04 +1.11691551523E-03 +7.16748347723E-01 +5.13215705642E-01
2.64000000000E+09 +7.39049345206E-01 +3.86148136231E-01 -7.85105422485E-04 +1.42214054622E-03 -5.90184799393E-04 +1.19785286404E-03 +7.21557692016E-01 +5.03565478315E-01
2.64500000000E+09 +7.42634075791E-01 +3.74306078018E-01 -6.53258257173E-04 +1.36125777524E-03 -6.26346035434E-04 +1.16864394252E-03 +7.26226652158E-01 +4.93800599596E-01
2.65000000000E+09 +7.45717932796E-01 +3.62695010308E-01 -5.32511641170E-04 +1.45495565560E-03 -6.68307528373E-04 +1.33252993132E-03 +7.30599436226E-01 +4.83673590421E-01
2.65500000000E+09 +7.48834271661E-01 +3.51054012704E-01 -4.39455569825E-04 +1.47465017034E-03 -5.40776159617E-04 +1.51744035056E-03 +7.34279339805E-01 +4.73844387114E-01
2.66000000000E+09 +7.51882983955E-01 +3.39407646767E-01 -4.01245778947E-04 +1.61796269268E-03 -4.20751508046E-04 +1.75921120792E-03 +7.38737106361E-01 +4.63154119313E-01
2.66500000000E+09 +7.54515818690E-01 +3.27882474010E-01 -1.59876297253E-04 +1.67599966434E-03 -1.67293086351E-04 +1.75756506681E-03 +7.43358699254E-01 +4.51865017620E-01
2.67000000000E+09 +7.56880453221E-01 +3.15675723176E-01 -7.59943435890E-05 +1.78728861023E-03 +2.89884791102E-05 +1.66085764945E-03 +7.47669892834E-01 +4.40532500367E-01
2.67500000000E+09 +7.58999492665E-01 +3.02595475538E-01 +1.73874181481E-04 +1.76202795719E-03 +2.62488207786E-04 +1.64358649631E-03 +7.51628144832E-01 +4.28978790473E-01
2.68000000000E+09 +7.60242246005E-01 +2.88900483614E-01 +2.73332048357E-04 +1.62369854663E-03 +2.18072164854E-04 +1.53175183590E-03 +7.55265048471E-01 +4.17706029309E-01
2.68500000000E+09 +7.60821096795E-01 +2.74979495174E-01 +2.27349535333E-04 +1.71497455257E-03 +1.67938010100E-04 +1.64717615492E-03 +7.58320407062E-01 +4.06537585262E-01
2.69000000000E+09 +7.61352503750E-01 +2.61036016572E-01 +4.72963844058E-04 +1.91064709661E-03 +4.56543658910E-04 +1.92553908191E-03 +7.61356465574E-01 +3.94594553247E-01
2.69500000000E+09 +7.62063559610E-01 +2.47109660670E-01 +6.47578655109E-04 +1.83513479965E-03 +7.29449039584E-04 +1.81919405936E-03 +7.64178961138E-01 +3.81562763444E-01
2.70000000000E+09 +7.62715949811E-01 +2.32958325965E-01 +8.50361048805E-04 +1.90784603827E-03 +8.18617641161E-04 +1.87286548532E-03 +7.66599063039E-01 +3.68042195631E-01
2.70500000000E+09 +7.63370737986E-01 +2.18943838898E-01 +1.30736539070E-03 +1.77699204561E-03 +1.23119112352E-03 +1.82570888340E-03 +7.69170966506E-01 +3.54634005674E-01
2.71000000000E+09 +7.64080882556E-01 +2.05088758949E-01 +1.41422438092E-03 +1.50517826664E-03 +1.37534144916E-03 +1.60960313241E-03 +7.72108059977E-01 +3.41474334605E-01
2.71500000000E+09 +7.65419302689E-01 +1.90987302911E-01 +1.33290347189E-03 +1.36590133932E-03 +1.38515942791E-03 +1.42159068681E-03 +7.74478365906E-01 +3.28490807906E-01
2.72000000000E+09 +7.66100621017E-01 +1.76361247764E-01 +1.38628724526E-03 +1.45452211148E-03 +1.54745553875E-03 +1.43798054866E-03 +7.76461614515E-01 +3.15755950457E-01
2.72500000000E+09 +7.66491942426E-01 +1.61365604831E-01 +1.55366897262E-03 +1.45745557943E-03 +1.71754208316E-03 +1.25354204475E-03 +7.77336387597E-01 +3.02514122532E-01
2.73000000000E+09 +7.65814974129E-01 +1.46262324139E-01 +1.70194090606E-03 +1.49201645384E-03 +1.67767617799E-03 +1.18711304113E-03 +7.78557822892E-01 +2.89015690111E-01
2.73500000000E+09 +7.64732920613E-01 +1.30333476224E-01 +2.04160667281E-03 +1.44510244176E-03 +1.79146366794E-03 +1.22357566091E-03 +7.79929067971E-01 +2.74127253567E-01
2.74000000000E+09 +7.62461909031E-01 +1.14037448007E-01 +2.35686812901E-03 +1.30169766797E-03 +1.98651802372E-03 +1.34697843863E-03 +7.81166585003E-01 +2.58681597029E-01
2.74500000000E+09 +7.59313032734E-01 +9.76613706937E-02 +2.55042382624E-03 +1.10591302268E-03 +2.35904288026E-03 +1.37494631669E-03 +7.81863487091E-01 +2.43228559173E-01
2.75000000000E+09 +7.55467987502E-01 +8.10497886026E-02 +2.91621405466E-03 +8.17969482281E-04 +2.89430486453E-03 +1.19495318050E-03 +7.82699820561E-01 +2.28160862522E-01
2.75500000000E+09 +7.50910782386E-01 +6.40509382681E-02 +2.97776495673E-03 +4.05427109414E-04 +3.14914557415E-03 +6.23009589687E-04 +7.82464646496E-01 +2.13015974118E-01
2.76000000000E+09 +7.46051887332E-01 +4.75469633567E-02 +2.94182552736E-03 +3.24618213140E-04 +3.17181571533E-03 +3.37999474203E-04 +7.81907551863E-01 +1.97924933384E-01
2.76500000000E+09 +7.41197829853E-01 +3.06772381760E-02 +3.27849643325E-03 +1.57186383484E-04 +3.46780584135E-03 +1.59688675195E-04 +7.81053007705E-01 +1.81419700962E-01
2.77000000000E+09 +7.36876488291E-01 +1.33655008113E-02 +3.59982520718E-03 -4.12279585786E-04 +3.78260332039E-03 -4.88871007149E-04 +7.79841820846E-01 +1.63625890806E-01
2.77500000000E+09 +7.32510616421E-01 -5.04933947710E-03 +3.58106259513E-03 -1.03223027864E-03 +3.68383989036E-03 -1.22801100483E-03 +7.77612871783E-01 +1.45397508765E-01
2.78000000000E+09 +7.27752069456E-01 -2.42497441114E-02 +3.38114242441E-03 -1.36839424768E-03 +3.36661558103E-03 -1.61461519072E-03 +7.75575864741E-01 +1.27506291799E-01
2.78500000000E+09 +7.21649604666E-01 -4.43493198389E-02 +3.23636578968E-03 -1.69260128996E-03 +3.11572645934E-03 -1.91680469528E-03 +7.73026216718E-01 +1.09583896724E-01
2.79000000000E+09 +7.14694010607E-01 -6.43053228927E-02 +3.42682542280E-03 -1.99821543012E-03 +3.15928363673E-03 -2.06363106589E-03 +7.70069707379E-01 +9.19328621742E-02
2.79500000000E+09 +7.06891531487E-01 -8.38493105007E-02 +3.40008044916E-03 -2.79257838806E-03 +3.18394565806E-03 -2.67203723284E-03 +7.65397593882E-01 +7.38052147155E-02
2.80000000000E+09 +6.98310329835E-01 -1.03469735421E-01 +2.80869786631E-03 -3.41260869022E-03 +2.77068611395E-03 -3.14058222357E-03 +7.59833823327E-01 +5.57586613673E-02
2.80500000000E+09 +6.88407311614E-01 -1.22524355580E-01 +2.20212013708E-03 -3.66800565014E-03 +2.31605524651E-03 -3.59979111829E-03 +7.54105458249E-01 +3.76814768301E-02
2.81000000000E+09 +6.77477926271E-01 -1.40802454906E-01 +2.03623912430E-03 -3.70293350217E-03 +2.06317096105E-03 -3.81180531621E-03 +7.48373804228E-01 +1.80368642813E-02
2.81500000000E+09 +6.65571321459E-01 -1.58205717911E-01 +1.51218673918E-03 -4.05513629849E-03 +1.47735688488E-03 -4.24292867664E-03 +7.41055921437E-01 -2.15065794808E-03
2.82000000000E+09 +6.52864380638E-01 -1.75567842727E-01 +1.34779455003E-03 -4.25719087902E-03 +1.15761757590E-03 -4.25649502070E-03 +7.32890893077E-01 -2.20422966097E-02
2.82500000000E+09 +6.39063472473E-01 -1.92611287463E-01 +6.28279968173E-04 -4.75302715976E-03 +4.56271538781E-04 -4.62130614875E-03 +7.24090388459E-01 -4.14231743410E-02
2.83000000000E+09 +6.23927938155E-01 -2.10678432579E-01 -9.96954019260E-05 -4.64317943084E-03 -1.17941609448E-04 -4.38601995171E-03 +7.14583869864E-01 -6.08525906104E-02
2.83500000000E+09 +6.06636810199E-01 -2.28893209744E-01 -4.55867540868E-04 -4.26662978279E-03 -3.30958735617E-04 -4.10161716034E-03 +7.04600731854E-01 -8.06722507298E-02
2.84000000000E+09 +5.87517831330E-01 -2.46527553426E-01 -3.95092206427E-04 -4.41634100500E-03 -2.38541934767E-04 -4.42601472036E-03 +6.93245804828E-01 -1.01841760913E-01
2.84500000000E+09 +5.66868797550E-01 -2.64411766356E-01 -1.08459224899E-03 -4.86600419290E-03 -9.45041726488E-04 -4.84846505193E-03 +6.80213684801E-01 -1.22686251700E-01
2.85000000000E+09 +5.44979484776E-01 -2.82011585582E-01 -1.51177605478E-03 -4.86232867650E-03 -1.50371817045E-03 -4.91889804190E-03 +6.65911770738E-01 -1.43292170997E-01
2.85500000000E+09 +5.21502006484E-01 -2.99457574719E-01 -2.42828708247E-03 -4.86806265742E-03 -2.38071885366E-03 -4.84075660004E-03 +6.51581798678E-01 -1.63218557548E-01
2.86000000000E+09 +4.97385993911E-01 -3.16421878270E-01 -3.21324155575E-03 -4.64520343741E-03 -3.10677026071E-03 -4.60344558282E-03 +6.35617396925E-01 -1.84913467465E-01
2.86500000000E+09 +4.71838947516E-01 -3.32687556986E-01 -3.94907364076E-03 -3.85129602319E-03 -3.97147792748E-03 -3.89480068886E-03 +6.17167379786E-01 -2.05497700396E-01
2.87000000000E+09 +4.45704157625E-01 -3.47159031780E-01 -4.07925889769E-03 -3.17945736675E-03 -4.11459021284E-03 -3.16554785158E-03 +5.97758335218E-01 -2.25120056940E-01
2.87500000000E+09 +4.19607341953E-01 -3.60232849257E-01 -3.97469896696E-03 -2.84916523415E-03 -4.08258603022E-03 -2.76279277770E-03 +5.77477939496E-01 -2.44504748377E-01
2.88000000000E+09 +3.93516378457E-01 -3.72309874117E-01 -4.22644730230E-03 -2.95392383910E-03 -4.21148973798E-03 -2.76982866723E-03 +5.55363794697E-01 -2.63640050298E-01
2.88500000000E+09 +3.66577874451E-01 -3.83463216146E-01 -5.19817166713E-03 -2.68671482965E-03 -4.91087020994E-03 -2.48855185454E-03 +5.32395381696E-01 -2.81944782070E-01
2.89000000000E+09 +3.38353138198E-01 -3.92899987813E-01 -5.30658483633E-03 -1.97444381219E-03 -4.98653745886E-03 -1.98356941812E-03 +5.06691793444E-01 -3.00028092005E-01
2.89500000000E+09 +3.09052160716E-01 -4.00718075557E-01 -5.94190782187E-03 -1.50226893616E-03 -5.67220751130E-03 -1.71603837706E-03 +4.78488965665E-01 -3.16704928620E-01
2.90000000000E+09 +2.78102851896E-01 -4.07034969025E-01 -6.17243014432E-03 -5.94005272447E-04 -6.21206180726E-03 -8.39394272137E-04 +4.49816700544E-01 -3.31453504045E-01
2.90500000000E+09 +2.44744674601E-01 -4.10931799303E-01 -6.06602765470E-03 +2.63477181087E-04 -6.27262634467E-03 +2.46149424504E-04 +4.21004027241E-01 -3.46032879782E-01
2.91000000000E+09 +2.09811875935E-01 -4.11934850637E-01 -6.02354336557E-03 +7.58167346281E-04 -5.97194602471E-03 +9.84514387220E-04 +3.89826174472E-01 -3.60733269556E-01
2.91500000000E+09 +1.74743089250E-01 -4.09353403137E-01 -5.82781399640E-03 +1.49948282722E-03 -5.53157050621E-03 +1.51306050211E-03 +3.56926310841E-01 -3.72554742293E-01
2.92000000000E+09 +1.39618402173E-01 -4.04850697198E-01 -5.64750243886E-03 +1.57394253875E-03 -5.35884482228E-03 +1.44366071490E-03 +3.22541165970E-01 -3.81314160722E-01
2.92500000000E+09 +1.05679088994E-01 -3.98933744419E-01 -6.03733568267E-03 +2.17324350039E-03 -5.80385472849E-03 +1.84316400323E-03 +2.87952934130E-01 -3.88132889470E-01
2.93000000000E+09 +7.11728656185E-02 -3.92573501899E-01 -6.29015314951E-03 +3.15496865561E-03 -6.38290294953E-03 +2.76757760683E-03 +2.51723521423E-01 -3.93556861483E-01
2.93500000000E+09 +3.56823962810E-02 -3.84176330853E-01 -5.72699593471E-03 +4.34281445221E-03 -5.88529336871E-03 +4.15096864073E-03 +2.14146480855E-01 -3.98001789938E-01
2.94000000000E+09 +3.40332944182E-05 -3.72366474956E-01 -5.04689212362E-03 +4.88936732350E-03 -5.10517445773E-03 +4.76054841988E-03 +1.75021779127E-01 -3.99777974137E-01
2.94500000000E+09 -3.33091086075E-02 -3.57123713061E-01 -4.68653856309E-03 +5.37397132532E-03 -4.74686448434E-03 +5.16722566184E-03 +1.36188537397E-01 -3.99509976604E-01
2.95000000000E+09 -6.49367543748E-02 -3.40238599322E-01 -4.27528860294E-03 +6.15560332907E-03 -4.46803123604E-03 +5.99382921946E-03 +9.74681112367E-02 -3.96372964108E-01
2.95500000000E+09 -9.47763690415E-02 -3.21279943888E-01 -3.19513840891E-03 +6.78016576509E-03 -3.54801142654E-03 +6.73738915041E-03 +5.85651286799E-02 -3.91369671836E-01
2.96000000000E+09 -1.24379623442E-01 -3.00426333829E-01 -2.78031418333E-03 +6.91622967137E-03 -3.03445828753E-03 +7.18342100523E-03 +1.78594885648E-02 -3.83200820746E-01
2.96500000000E+09 -1.52791292953E-01 -2.76129396308E-01 -2.00732562155E-03 +7.67124846033E-03 -1.93212639008E-03 +7.93267866697E-03 -2.34433090833E-02 -3.70651214691E-01
2.97000000000E+09 -1.79756029514E-01 -2.48637100874E-01 -1.12331009744E-03 +7.63063971243E-03 -9.03285581686E-04 +7.68539869161E-03 -6.29889087067E-02 -3.54647072373E-01
2.97500000000E+09 -2.03775083711E-01 -2.18809106580E-01 -7.48878883607E-04 +8.50149016335E-03 -6.84404976258E-04 +8.25488733518E-03 -1.01696905569E-01 -3.37427656276E-01
2.98000000000E+09 -2.26695675784E-01 -1.88033570097E-01 +1.28389982282E-03 +9.07437813457E-03 +1.03689625369E-03 +8.90484257138E-03 -1.39363478821E-01 -3.17489836136E-01
2.98500000000E+09 -2.47593604098E-01 -1.55853832224E-01 +2.30115023685E-03 +8.08340598068E-03 +2.01846536130E-03 +8.31054722744E-03 -1.75959325872E-01 -2.96023457757E-01
2.99000000000E+09 -2.67369430108E-01 -1.23085480739E-01 +2.84974161591E-03 +8.09932950108E-03 +2.81165145497E-03 +8.48435893005E-03 -2.12497937705E-01 -2.69331101448E-01
2.99500000000E+09 -2.84841221212E-01 -8.92341861466E-02 +4.18447762170E-03 +8.29838419294E-03 +4.58183394829E-03 +8.49460713890E-03 -2.44699887336E-01 -2.38912622955E-01
3.00000000000E+09 -3.00584025405E-01 -5.51296421920E-02 +5.24206351024E-03 +7.79630134302E-03 +5.66090947215E-03 +7.55121724451E-03 -2.75156146466E-01 -2.07778969971E-01
3.00500000000E+09 -3.13017927135E-01 -2.12201502042E-02 +7.04969661030E-03 +7.64320019030E-03 +6.98094168476E-03 +7.22015253522E-03 -3.03836038867E-01 -1.74095072935E-01
3.01000000000E+09 -3.22654529301E-01 +1.19785480095E-02 +8.56099941786E-03 +5.63446808754E-03 +8.13909978094E-03 +5.53839901661E-03 -3.29531663468E-01 -1.39181699042E-01
3.01500000000E+09 -3.30404121829E-01 +4.40236572459E-02 +8.80923669114E-03 +4.01344597749E-03 +8.53720575074E-03 +4.24420571684E-03 -3.53386433195E-01 -1.03002329405E-01
3.02000000000E+09 -3.35437170522E-01 +7.70832241325E-02 +8.74744578045E-03 +2.75589449560E-03 +8.85405333928E-03 +3.01712170169E-03 -3.72669277246E-01 -6.48803593296E-02
3.02500000000E+09 -3.36528442231E-01 +1.09826918494E-01 +8.86247638923E-03 +2.12906302469E-03 +8.99477431198E-03 +2.23666728949E-03 -3.88635759896E-01 -2.72465426053E-02
3.03000000000E+09 -3.34551429405E-01 +1.41624979504E-01 +9.11398233597E-03 +1.33543765756E-03 +9.16511609447E-03 +1.34266497214E-03 -4.03695705018E-01 +1.13741765669E-02
3.03500000000E+09 -3.30499175161E-01 +1.72162227806E-01 +9.98915367264E-03 +1.35312364514E-04 +9.96430826638E-03 +3.30538656173E-04 -4.15758065734E-01 +5.19079909826E-02
3.04000000000E+09 -3.23889693818E-01 +2.03790122655E-01 +1.01143038396E-02 -2.08672025539E-03 +1.04056266354E-02 -1.84710073967E-03 -4.24245896474E-01 +9.27622123835E-02
3.04500000000E+09 -3.15387533887E-01 +2.33138322759E-01 +9.03835992911E-03 -3.43642000501E-03 +9.54110619759E-03 -3.55169544534E-03 -4.29823716065E-01 +1.33752519307E-01
3.05000000000E+09 -3.05716463770E-01 +2.62820312120E-01 +8.30202835505E-03 -4.74913354045E-03 +8.54809403327E-03 -5.26747991130E-03 -4.31792431325E-01 +1.72788212400E-01
3.05500000000E+09 -2.94446037427E-01 +2.91428371416E-01 +7.21558742513E-03 -5.21537181391E-03 +6.90379811411E-03 -5.77593874890E-03 -4.33273518146E-01 +2.11061225009E-01
3.06000000000E+09 -2.82178302223E-01 +3.19328391644E-01 +6.79630949946E-03 -6.20058503300E-03 +6.28979611337E-03 -6.30038202790E-03 -4.31361266403E-01 +2.50466593898E-01
3.06500000000E+09 -2.68536082985E-01 +3.45348559734E-01 +5.35409679832E-03 -7.41184521308E-03 +5.18959169041E-03 -6.95937601251E-03 -4.25547371587E-01 +2.88353017584E-01
3.07000000000E+09 -2.55110972022E-01 +3.70182587027E-01 +3.84730287023E-03 -7.54633755581E-03 +4.08438750127E-03 -7.09987383478E-03 -4.17945639084E-01 +3.23326108113E-01
