# Hz S RI R 50
! CMT, C1220, 16058040, 17.2.0/1
! Date: 15/08/2018 10:35:27
! Data: Format (Calibration Info)
! Freq                      S11: Re/Im (F2)                       S21: Re/Im (F2)                       S12: Re/Im (F2)                       S22: Re/Im (F2)            
2.50000000000E+09 +5.81434385267E-01 +6.66614287836E-01 -1.37376016347E-04 +1.49977583027E-04 -1.77375335304E-04 +1.38383356849E-04 +5.64696193390E-01 +7.22202913733E-01
2.50500000000E+09 +5.88802677729E-01 +6.58496196297E-01 +1.11449393301E-05 +1.75309466785E-04 -3.32719994433E-05 +1.82619753490E-04 +5.70298199309E-01 +7.16945439902E-01
2.51000000000E+09 +5.96599096000E-01 +6.50176831554E-01 +2.27047031700E-05 +8.77761417080E-05 +2.45645086049E-05 +4.46961496261E-05 +5.75799821270E-01 +7.11631108345E-01
2.51500000000E+09 +6.04076969607E-01 +6.42043207830E-01 +9.32694831457E-06 +1.80558304944E-05 -2.11386301330E-05 -1.08599122949E-05 +5.81101717563E-01 +7.06403497278E-01
2.52000000000E+09 +6.11102535906E-01 +6.33945474590E-01 -6.76983924353E-05 +6.18105350386E-05 -5.58151011150E-05 +6.78068826320E-05 +5.86402740813E-01 +7.00474627661E-01
2.52500000000E+09 +6.17009999395E-01 +6.26551709018E-01 +6.93022179619E-06 +6.32497171168E-05 -3.45959240784E-05 +6.31945444683E-05 +5.92075499773E-01 +6.94145467217E-01
2.53000000000E+09 +6.22507858139E-01 +6.19354095538E-01 +4.75220298205E-06 +3.77932542594E-05 -1.59591278405E-07 +3.32375726726E-05 +5.98023820747E-01 +6.87264889314E-01
2.53500000000E+09 +6.27173095649E-01 +6.12332931518E-01 -4.93209773512E-05 +2.60550086926E-05 -2.87307686497E-05 +3.60471941067E-05 +6.04046922234E-01 +6.80797529498E-01
2.54000000000E+09 +6.31608308293E-01 +6.05501353869E-01 +1.39428388874E-05 +2.30102075369E-05 +2.81483925973E-05 -3.13399777812E-05 +6.10143541242E-01 +6.74331587126E-01
2.54500000000E+09 +6.36309015641E-01 +5.98294443655E-01 -1.06490807857E-04 +2.39328813526E-05 -1.35387349445E-04 -3.91808372137E-05 +6.15987329710E-01 +6.68062844252E-01
2.55000000000E+09 +6.41275201237E-01 +5.90747738335E-01 -1.51686673847E-04 +1.36168360111E-04 -1.83694605510E-04 +1.26140435709E-04 +6.21370696400E-01 +6.61956294292E-01
2.55500000000E+09 +6.46656401874E-01 +5.82427465587E-01 -7.38919771527E-05 +2.42421097196E-04 -5.96929457684E-05 +2.37597343111E-04 +6.26620014837E-01 +6.55479227142E-01
2.56000000000E+09 +6.52958024369E-01 +5.74258714538E-01 +6.85470574048E-05 +2.05862828626E-04 +7.72352641021E-05 +2.19031859145E-04 +6.31749529941E-01 +6.48171662808E-01
2.56500000000E+09 +6.59910480014E-01 +5.65502145590E-01 +1.15147676909E-04 +8.35812823833E-05 +1.47466511255E-04 +8.37781776700E-05 +6.37035333298E-01 +6.40789238137E-01
2.57000000000E+09 +6.66901678084E-01 +5.56601004731E-01 +2.19990631781E-05 +4.62089175685E-06 +2.57908815036E-05 +4.31554620454E-05 +6.42464122583E-01 +6.32964509842E-01
2.57500000000E+09 +6.73711566941E-01 +5.47563955897E-01 -4.39875666853E-05 +1.46548433659E-04 -3.64861801306E-05 +1.16398019243E-04 +6.47909082571E-01 +6.25249843064E-01
2.58000000000E+09 +6.79566174484E-01 +5.39039803810E-01 -9.64930771626E-06 +1.86345262361E-04 -2.48644913056E-05 +1.88384023340E-04 +6.52781532142E-01 +6.17575978523E-01
2.58500000000E+09 +6.84926831597E-01 +5.30871167364E-01 +1.07086026435E-04 +2.61113685894E-04 +5.39659024112E-05 +2.17692641343E-04 +6.57573231125E-01 +6.10091740042E-01
2.59000000000E+09 +6.89717505806E-01 +5.23177055426E-01 +1.87454693787E-04 +1.85663588285E-04 +1.32186475738E-04 +2.18703878087E-04 +6.62380986508E-01 +6.02730864104E-01
2.59500000000E+09 +6.94287113176E-01 +5.14968151805E-01 +2.79448838226E-04 +1.06705233072E-04 +1.97261173191E-04 +1.44208711531E-04 +6.67371810748E-01 +5.94855100191E-01
2.60000000000E+09 +6.98383991038E-01 +5.06202773522E-01 +2.26011287163E-04 +5.35277633512E-05 +2.21438307127E-04 +6.84717281138E-05 +6.72415942911E-01 +5.86682509272E-01
2.60500000000E+09 +7.02470574734E-01 +4.96570194547E-01 +2.14958929733E-04 +6.35315330742E-05 +2.68412580804E-04 +5.38316544213E-05 +6.77720796729E-01 +5.78127574526E-01
2.61000000000E+09 +7.06719447007E-01 +4.85709302169E-01 +2.96667727323E-04 +1.68976912744E-05 +2.88502573655E-04 +3.95544952294E-05 +6.82854579632E-01 +5.69480205088E-01
2.61500000000E+09 +7.11292982211E-01 +4.73776181837E-01 +3.48885090762E-04 -1.49036831019E-04 +3.27737938292E-04 -1.15951066385E-04 +6.87941707264E-01 +5.61066632608E-01
2.62000000000E+09 +7.15938244881E-01 +4.60704322706E-01 +1.30124045632E-04 -2.75728073405E-04 +2.08616221653E-04 -2.66770343723E-04 +6.93010894775E-01 +5.52151435617E-01
2.62500000000E+09 +7.20770683917E-01 +4.46906743810E-01 +1.83436317210E-05 -1.80424555041E-04 -2.98125064192E-05 -1.76443660180E-04 +6.97664433928E-01 +5.43302639778E-01
2.63000000000E+09 +7.25294234691E-01 +4.32779796222E-01 +3.91073725891E-05 -4.39341302380E-05 +1.24394248317E-05 -2.97070843773E-05 +7.02490440972E-01 +5.34412139366E-01
2.63500000000E+09 +7.29053658587E-01 +4.19064694967E-01 +1.08027824852E-04 -4.67358058968E-05 +1.04861735018E-04 -2.09295831238E-05 +7.07166829712E-01 +5.25280549292E-01
2.64000000000E+09 +7.32566537121E-01 +4.06064434769E-01 +2.25600196340E-04 -9.72382395594E-05 +1.99887162875E-04 -6.28895643684E-05 +7.12092057956E-01 +5.15689998804E-01
2.64500000000E+09 +7.35769001681E-01 +3.94237184901E-01 +1.38739640213E-04 -2.65499173752E-04 +1.66702382265E-04 -2.42670562669E-04 +7.16883951666E-01 +5.05873304917E-01
2.65000000000E+09 +7.38586024981E-01 +3.83070501519E-01 +3.24204490515E-05 -2.02265728342E-04 +5.01178497237E-05 -1.38912672228E-04 +7.20993010418E-01 +4.95788960975E-01
2.65500000000E+09 +7.41614650961E-01 +3.71802169005E-01 +3.40597178601E-05 -1.47576003964E-04 +4.36811819870E-05 -1.06272590479E-04 +7.25104500391E-01 +4.85238624373E-01
2.66000000000E+09 +7.44350698264E-01 +3.60356711353E-01 +1.36704161025E-04 -1.26853692733E-04 +1.27108889746E-04 -1.09696862645E-04 +7.29104179558E-01 +4.74089556726E-01
2.66500000000E+09 +7.46883122181E-01 +3.48762516530E-01 +1.47542723844E-04 -2.26845875461E-04 +1.15348925197E-04 -2.14410421515E-04 +7.33236260487E-01 +4.63224985863E-01
2.67000000000E+09 +7.49332336125E-01 +3.36121352697E-01 +5.56987613135E-05 -2.76668308879E-04 +6.17468309435E-05 -2.55169961159E-04 +7.37801909048E-01 +4.52208852976E-01
2.67500000000E+09 +7.51914063429E-01 +3.22406606481E-01 -2.24508761872E-05 -2.22326392075E-04 +2.92595554134E-06 -2.40995833786E-04 +7.41902292087E-01 +4.40976997415E-01
2.68000000000E+09 +7.53672881843E-01 +3.07739911806E-01 +6.74522657303E-05 -1.85177874365E-04 +1.85889749186E-05 -1.75307563196E-04 +7.45688732735E-01 +4.29897239841E-01
2.68500000000E+09 +7.54992227097E-01 +2.93064692198E-01 +8.23628290182E-05 -3.59373811161E-04 +1.28602203172E-04 -3.97572263993E-04 +7.49152124839E-01 +4.18514032704E-01
2.69000000000E+09 +7.56188662507E-01 +2.78444606888E-01 -1.05188940141E-04 -4.63860336823E-04 -1.09439918542E-04 -4.75679746478E-04 +7.51657415166E-01 +4.06475751075E-01
2.69500000000E+09 +7.57046203650E-01 +2.64464667528E-01 -1.12206738981E-04 -3.74811629950E-04 -1.60674690579E-04 -3.50871379420E-04 +7.54526284271E-01 +3.93887452514E-01
2.70000000000E+09 +7.58260676906E-01 +2.50772032456E-01 -3.20400266952E-04 -5.41050372503E-04 -3.31251047873E-04 -5.00687569720E-04 +7.57282970100E-01 +3.80767066816E-01
2.70500000000E+09 +7.59306640155E-01 +2.37262824296E-01 -5.00225119952E-04 -2.80394669228E-04 -5.06106429909E-04 -2.96334522668E-04 +7.60290958646E-01 +3.67418266286E-01
2.71000000000E+09 +7.60065306618E-01 +2.23886331275E-01 -4.64069417486E-04 -1.04443421652E-04 -4.34603402174E-04 -1.52588805708E-04 +7.62900665492E-01 +3.54248802798E-01
2.71500000000E+09 +7.61263733834E-01 +2.10145854242E-01 -3.58649576115E-04 -2.41736757180E-04 -3.44860810118E-04 -2.12109309868E-04 +7.65445164742E-01 +3.41684980605E-01
2.72000000000E+09 +7.62060676106E-01 +1.95480684141E-01 -5.99389014036E-04 -2.41420690448E-04 -6.53762634906E-04 -2.01833892320E-04 +7.67103997026E-01 +3.28907825915E-01
2.72500000000E+09 +7.62137278253E-01 +1.80153257687E-01 -7.35264300830E-04 -3.62667796712E-05 -7.89315981022E-04 +1.08658845871E-04 +7.68121421743E-01 +3.15468862640E-01
2.73000000000E+09 +7.61729588030E-01 +1.63595081324E-01 -7.54229997044E-04 +2.48864348290E-04 -6.61209749021E-04 +2.67909044443E-04 +7.68728434616E-01 +3.01603325141E-01
2.73500000000E+09 +7.60097020297E-01 +1.45833178502E-01 -6.32932494482E-04 +4.85127652254E-04 -5.29528357303E-04 +4.83513312771E-04 +7.69713247583E-01 +2.87476551564E-01
2.74000000000E+09 +7.57399572138E-01 +1.28144095794E-01 -3.71379682784E-04 +6.34820274994E-04 -3.60767499733E-04 +5.25006777966E-04 +7.71383048745E-01 +2.72651052578E-01
2.74500000000E+09 +7.53735993687E-01 +1.10043432384E-01 -2.08891825846E-04 +5.67177137429E-04 -2.98225642130E-04 +4.90132067812E-04 +7.72618623165E-01 +2.57604106634E-01
2.75000000000E+09 +7.49272109967E-01 +9.22062301586E-02 -2.13485021859E-04 +6.22868511098E-04 -2.01547546245E-04 +6.10352550372E-04 +7.73572912059E-01 +2.42647799265E-01
2.75500000000E+09 +7.44290174505E-01 +7.48165278115E-02 -6.04304180116E-05 +5.22578161755E-04 -9.28493056085E-05 +5.19237279130E-04 +7.73404838825E-01 +2.27831211042E-01
2.76000000000E+09 +7.39752500777E-01 +5.77015183809E-02 -9.66927076518E-05 +7.47583646583E-04 -1.06071971405E-04 +7.97239929027E-04 +7.73356245138E-01 +2.12623340425E-01
2.76500000000E+09 +7.34774764332E-01 +3.96526679515E-02 +2.82506518207E-04 +7.06311078139E-04 +3.31902862936E-04 +7.49780530010E-04 +7.72440997745E-01 +1.95901438286E-01
2.77000000000E+09 +7.29338102800E-01 +2.16164577651E-02 +2.62055626319E-04 +4.36410661561E-04 +3.02947581023E-04 +4.70265518020E-04 +7.71245443854E-01 +1.79096679340E-01
2.77500000000E+09 +7.24278570458E-01 +2.90680265741E-03 +2.55581792907E-04 +5.85544670413E-04 +3.23657809306E-04 +6.52364149700E-04 +7.69961855302E-01 +1.61208698658E-01
2.78000000000E+09 +7.18870977684E-01 -1.69688785192E-02 +5.66550030421E-04 +5.35725331638E-04 +5.94690460516E-04 +5.47794119305E-04 +7.68079517899E-01 +1.43363393797E-01
2.78500000000E+09 +7.12676220572E-01 -3.79196868108E-02 +7.72355906355E-04 +4.61902397708E-04 +8.26711133822E-04 +4.20798203338E-04 +7.65632722930E-01 +1.25494524569E-01
2.79000000000E+09 +7.05844338448E-01 -5.97809116481E-02 +8.40676610265E-04 +5.72234311414E-05 +8.11936019556E-04 +2.80332293785E-05 +7.62276790970E-01 +1.08052658574E-01
2.79500000000E+09 +6.97355542224E-01 -8.15875731055E-02 +7.75110914147E-04 -3.01551209284E-05 +6.75522047181E-04 -3.71503823540E-05 +7.57843973247E-01 +9.04455710416E-02
2.80000000000E+09 +6.87633619679E-01 -1.02058564784E-01 +7.74108784711E-04 -2.56953053983E-04 +6.63619472612E-04 -1.71229327590E-04 +7.52904819669E-01 +7.25267873736E-02
2.80500000000E+09 +6.78192846009E-01 -1.21105764496E-01 +5.50035838058E-04 -2.21973260515E-04 +5.43296725278E-04 -2.19876015718E-04 +7.47358384222E-01 +5.34433230091E-02
2.81000000000E+09 +6.68307141474E-01 -1.39313331403E-01 +7.69602158531E-04 -2.72972854992E-04 +7.60675563252E-04 -2.78742999832E-04 +7.40648552375E-01 +3.46175344026E-02
2.81500000000E+09 +6.57732560449E-01 -1.56868421007E-01 +6.25428407090E-04 -4.90977726632E-04 +6.54898374881E-04 -5.02932166604E-04 +7.33992167311E-01 +1.56235087448E-02
2.82000000000E+09 +6.46297716336E-01 -1.74077487467E-01 +5.70210236214E-04 -5.84257592580E-04 +5.07082747686E-04 -5.86019265868E-04 +7.26681391164E-01 -3.86796179652E-03
2.82500000000E+09 +6.32950560050E-01 -1.90892145325E-01 +5.45771557200E-04 -8.59629797433E-04 +4.63151010838E-04 -8.00079177825E-04 +7.18711548654E-01 -2.30253241443E-02
2.83000000000E+09 +6.18654517456E-01 -2.07391007689E-01 +3.58455146367E-04 -1.09115201171E-03 +3.59023801912E-04 -1.01018205614E-03 +7.10220797056E-01 -4.29309794435E-02
2.83500000000E+09 +6.03093174465E-01 -2.25043883923E-01 -3.53537051794E-05 -1.22338475726E-03 -2.99276322013E-05 -1.20318656619E-03 +7.00174943369E-01 -6.27455356366E-02
2.84000000000E+09 +5.85262566522E-01 -2.43319458622E-01 -4.35528845679E-04 -1.15546880707E-03 -3.91481004496E-04 -1.11239051224E-03 +6.89399818839E-01 -8.35643779274E-02
2.84500000000E+09 +5.64877631669E-01 -2.62681694628E-01 -6.28500814616E-04 -9.01403478641E-04 -6.40809958510E-04 -9.40509123544E-04 +6.77101083024E-01 -1.03998823955E-01
2.85000000000E+09 +5.43014095682E-01 -2.81353033885E-01 -7.25490049943E-04 -7.15836299121E-04 -7.65228440095E-04 -7.29953692658E-04 +6.64007853403E-01 -1.24399190052E-01
2.85500000000E+09 +5.19637917233E-01 -3.00055374077E-01 -9.46760451649E-04 -4.18996783924E-04 -8.94697967493E-04 -4.20267300895E-04 +6.49691681881E-01 -1.44714217883E-01
2.86000000000E+09 +4.96105050784E-01 -3.17906628904E-01 -6.04231098610E-04 -3.65000516747E-04 -6.18792376677E-04 -4.04192546627E-04 +6.34568158912E-01 -1.65576103907E-01
2.86500000000E+09 +4.71542569452E-01 -3.34808655379E-01 -7.70998026891E-04 -4.50051966476E-04 -7.14657633085E-04 -4.35308449488E-04 +6.17152305538E-01 -1.86647083094E-01
2.87000000000E+09 +4.47204102734E-01 -3.50076464643E-01 -9.86922981718E-04 -6.82169709142E-04 -9.56436316317E-04 -6.41986341755E-04 +5.97761348348E-01 -2.06905122651E-01
2.87500000000E+09 +4.22773785148E-01 -3.64248187116E-01 -1.68446966291E-03 -4.52474923512E-04 -1.64953835848E-03 -4.70887332017E-04 +5.77750820003E-01 -2.25999108089E-01
2.88000000000E+09 +3.98309548683E-01 -3.77060031102E-01 -1.79097611991E-03 +3.18426108839E-04 -1.73225379948E-03 +3.38979785293E-04 +5.56552998441E-01 -2.45381674036E-01
2.88500000000E+09 +3.73008727186E-01 -3.89206997486E-01 -1.65017327065E-03 +1.10871244730E-03 -1.48844525933E-03 +1.01957998304E-03 +5.33601478312E-01 -2.63641585259E-01
2.89000000000E+09 +3.45924045955E-01 -4.00536713750E-01 -7.93048113757E-04 +1.32462319727E-03 -7.43042596812E-04 +1.29433218522E-03 +5.08525323027E-01 -2.81691744645E-01
2.89500000000E+09 +3.16254009000E-01 -4.10325037109E-01 -4.10774177760E-04 +9.08729838216E-04 -4.79339286236E-04 +8.22822279224E-04 +4.82240925311E-01 -2.98590372345E-01
2.90000000000E+09 +2.85053609012E-01 -4.18438754916E-01 -8.18144602033E-04 +9.54737034527E-04 -8.06019189985E-04 +9.37348503530E-04 +4.54503631309E-01 -3.15148357838E-01
2.90500000000E+09 +2.51260963165E-01 -4.24698053489E-01 -4.25714279411E-04 +1.08400102298E-03 -5.01164653527E-04 +1.03556290010E-03 +4.24963819843E-01 -3.30985066519E-01
2.91000000000E+09 +2.17168774266E-01 -4.28749700773E-01 -7.43690486662E-04 +1.12619819600E-03 -6.40809975381E-04 +1.12505219306E-03 +3.93995443823E-01 -3.44448308953E-01
2.91500000000E+09 +1.81814101692E-01 -4.32149594650E-01 -2.91233052588E-04 +1.42018167016E-03 -2.72677920741E-04 +1.32507444542E-03 +3.63049173243E-01 -3.56093622999E-01
2.92000000000E+09 +1.45472396878E-01 -4.32538400268E-01 -3.18773975452E-04 +1.24427541794E-03 -3.46357845317E-04 +1.13746742561E-03 +3.30582060677E-01 -3.66674760965E-01
2.92500000000E+09 +1.10043698149E-01 -4.31541022394E-01 -3.79997827185E-04 +2.03822573751E-03 -3.90492518809E-04 +1.92264063205E-03 +2.95591264667E-01 -3.75313576271E-01
2.93000000000E+09 +7.47658594525E-02 -4.28740571422E-01 +5.79892527206E-04 +2.05558199648E-03 +5.21822240937E-04 +2.02125813434E-03 +2.58689343816E-01 -3.81887309480E-01
2.93500000000E+09 +4.02812034037E-02 -4.23961437167E-01 +9.77400164780E-04 +2.03691122438E-03 +9.08973419028E-04 +2.09386186989E-03 +2.20718416071E-01 -3.85889087487E-01
2.94000000000E+09 +5.93843479212E-03 -4.18094982383E-01 +1.78487223714E-03 +1.47484595162E-03 +1.71512878566E-03 +1.52400201321E-03 +1.82332327481E-01 -3.88171378408E-01
2.94500000000E+09 -2.95085218363E-02 -4.09133219695E-01 +1.38647441529E-03 +1.02799671535E-03 +1.29243356400E-03 +1.04021021354E-03 +1.43606048021E-01 -3.88956329867E-01
2.95000000000E+09 -6.39468284851E-02 -3.96182998124E-01 +1.41530461951E-03 +1.27616047923E-03 +1.39176771196E-03 +1.32717829999E-03 +1.03884272370E-01 -3.87262247847E-01
2.95500000000E+09 -9.72374640993E-02 -3.80620158126E-01 +2.07138703899E-03 +1.07698469915E-03 +2.09685118713E-03 +1.20910766804E-03 +6.34428709346E-02 -3.81586263838E-01
2.96000000000E+09 -1.29336881005E-01 -3.62857273018E-01 +2.19740585200E-03 +7.30020143626E-04 +2.32298696189E-03 +8.30949214526E-04 +2.43302247924E-02 -3.72203794013E-01
2.96500000000E+09 -1.62024498953E-01 -3.42788970169E-01 +2.81849257588E-03 +5.11855385843E-04 +2.92624481751E-03 +4.76607214772E-04 -1.56469422006E-02 -3.61464143567E-01
2.97000000000E+09 -1.93104332244E-01 -3.18485573573E-01 +3.14937484076E-03 -6.63323259520E-04 +3.14539276964E-03 -7.20682608766E-04 -5.49892529798E-02 -3.46813200242E-01
2.97500000000E+09 -2.21749916940E-01 -2.92905606557E-01 +2.54504119646E-03 -1.37144152916E-03 +2.46863117644E-03 -1.37765848964E-03 -9.46297886593E-02 -3.31353715204E-01
2.98000000000E+09 -2.49892223748E-01 -2.66116896015E-01 +2.29087157529E-03 -1.40647869230E-03 +2.28046095165E-03 -1.39616715778E-03 -1.33121230827E-01 -3.10666249050E-01
2.98500000000E+09 -2.76009832301E-01 -2.37075652436E-01 +2.13131665047E-03 -2.26366943253E-03 +2.24149183392E-03 -2.20148802600E-03 -1.68856061412E-01 -2.88562679072E-01
2.99000000000E+09 -3.00401111455E-01 -2.07523758520E-01 +1.18401826063E-03 -2.65209609674E-03 +1.28715901800E-03 -2.75650777618E-03 -2.03671646811E-01 -2.63672943758E-01
2.99500000000E+09 -3.24810372861E-01 -1.76908113193E-01 +6.65346936934E-04 -2.26634670663E-03 +6.26622852481E-04 -2.36010907614E-03 -2.36759247842E-01 -2.35613780826E-01
3.00000000000E+09 -3.46103822484E-01 -1.43190476189E-01 +7.18225163993E-04 -2.27713040171E-03 +6.05891860929E-04 -2.33191082925E-03 -2.68473502548E-01 -2.04600279902E-01
3.00500000000E+09 -3.64427880281E-01 -1.10367360417E-01 +2.94761796126E-04 -2.82293276636E-03 +1.61117720453E-04 -2.68178699882E-03 -2.97570825612E-01 -1.71472332163E-01
3.01000000000E+09 -3.81395083131E-01 -7.68435577342E-02 -4.47022926516E-04 -2.70881545060E-03 -4.12603411729E-04 -2.54215492489E-03 -3.24377480467E-01 -1.36346398518E-01
3.01500000000E+09 -3.95411764504E-01 -4.25019447697E-02 -6.38159712395E-04 -2.70861886606E-03 -5.75851857271E-04 -2.61752608939E-03 -3.47809985978E-01 -1.00356315816E-01
3.02000000000E+09 -4.06686173905E-01 -7.81404426821E-03 -1.53712339594E-03 -2.56087804637E-03 -1.48273462220E-03 -2.56271609959E-03 -3.68588175445E-01 -6.38046797487E-02
3.02500000000E+09 -4.14401842053E-01 +2.62958671446E-02 -1.91197528531E-03 -1.90315819041E-03 -1.95516216300E-03 -1.88889648406E-03 -3.86640526904E-01 -2.47396910129E-02
3.03000000000E+09 -4.19445787831E-01 +6.08037950306E-02 -2.07854434649E-03 -1.25790488100E-03 -2.09102940550E-03 -1.25572542578E-03 -4.00324546730E-01 +1.42984545842E-02
3.03500000000E+09 -4.20882960014E-01 +9.37051256115E-02 -1.85249834448E-03 -6.45846898313E-04 -1.88654055108E-03 -6.74330318579E-04 -4.12216158697E-01 +5.35480206292E-02
3.04000000000E+09 -4.21387799958E-01 +1.26161783115E-01 -1.54426758250E-03 -7.87577540733E-04 -1.59734143348E-03 -8.40739826504E-04 -4.21559396481E-01 +9.34676874433E-02
3.04500000000E+09 -4.19661660777E-01 +1.59755461618E-01 -1.75530024812E-03 -7.13470199259E-04 -1.85407801446E-03 -7.57735583227E-04 -4.28007357411E-01 +1.34141319082E-01
3.05000000000E+09 -4.14501136541E-01 +1.93485374518E-01 -1.93793549824E-03 -6.46127980361E-04 -2.00615969559E-03 -5.52360655740E-04 -4.31056428095E-01 +1.73799523808E-01
3.05500000000E+09 -4.07389130341E-01 +2.26091007084E-01 -2.16027242793E-03 -2.55028361306E-04 -2.19647210989E-03 -1.39036885146E-04 -4.31703690466E-01 +2.12627902845E-01
3.06000000000E+09 -3.98376522581E-01 +2.58478974101E-01 -2.20939261048E-03 +1.94704230744E-04 -2.08571919730E-03 +2.91330261198E-04 -4.29765463364E-01 +2.50550919044E-01
3.06500000000E+09 -3.88323818522E-01 +2.89999626428E-01 -2.13360084487E-03 +5.02272959560E-04 -1.99936777940E-03 +4.30531700340E-04 -4.25254072821E-01 +2.87323562212E-01
3.07000000000E+09 -3.76729601932E-01 +3.20793065872E-01 -1.92507662739E-03 +9.04259649262E-04 -1.87722805384E-03 +7.61515646065E-04 -4.19304136859E-01 +3.23017887031E-01
