# Hz S RI R 50
! CMT, C1220, 16058040, 17.2.0/1
! Date: 15/08/2018 10:32:17
! Data: Format (Calibration Info)
! Freq                      S11: Re/Im (F2)                       S21: Re/Im (F2)                       S12: Re/Im (F2)                       S22: Re/Im (F2)            
2.50000000000E+09 +5.79757855544E-01 +6.64944489206E-01 -3.16083441791E-04 +1.86476425511E-04 -3.35302367922E-04 +2.00263703125E-04 +5.64762079284E-01 +7.22064842582E-01
2.50500000000E+09 +5.87059296591E-01 +6.56732026508E-01 -1.78867776249E-04 +1.67692808581E-04 -2.07537264186E-04 +1.53288538127E-04 +5.70325771656E-01 +7.16641691670E-01
2.51000000000E+09 +5.94588247688E-01 +6.48318954572E-01 -2.29225899312E-04 +1.78641706058E-04 -2.17595435651E-04 +1.71821834242E-04 +5.76027618645E-01 +7.11529862726E-01
2.51500000000E+09 +6.01730562255E-01 +6.40326802474E-01 -1.62143803499E-04 +1.42420025787E-04 -1.92995903490E-04 +1.49041158055E-04 +5.81281158154E-01 +7.06236220066E-01
2.52000000000E+09 +6.08562059099E-01 +6.32316302351E-01 -2.36389991871E-04 +2.23078754821E-04 -2.98166014751E-04 +2.36218402995E-04 +5.86462505031E-01 +7.00268997090E-01
2.52500000000E+09 +6.14443078275E-01 +6.25063151927E-01 -9.89813846203E-05 +3.38386375153E-04 -1.66660556751E-04 +3.37008154079E-04 +5.92171687313E-01 +6.93968550703E-01
2.53000000000E+09 +6.19660524586E-01 +6.17759361837E-01 -6.72894171110E-05 +2.35490077438E-04 -6.64861455578E-05 +3.23467470776E-04 +5.98370205558E-01 +6.87142665297E-01
2.53500000000E+09 +6.24402820270E-01 +6.10936870130E-01 -4.03027811077E-05 +2.91974539137E-04 -4.26816092610E-05 +3.05288034999E-04 +6.04245978786E-01 +6.80573106091E-01
2.54000000000E+09 +6.28864161920E-01 +6.03965210406E-01 +5.88940288939E-06 +2.22951654966E-04 +1.45198757916E-05 +2.33742851877E-04 +6.10406135838E-01 +6.74122789602E-01
2.54500000000E+09 +6.33371485588E-01 +5.96811467578E-01 -5.91210439286E-05 +2.43341482507E-04 -5.26582260217E-05 +2.63803712359E-04 +6.16142633846E-01 +6.67939911806E-01
2.55000000000E+09 +6.38345179080E-01 +5.89258409369E-01 -4.27382635822E-05 +3.15343292703E-04 -8.98609047887E-05 +3.24398299578E-04 +6.21590492203E-01 +6.61665687885E-01
2.55500000000E+09 +6.43661404605E-01 +5.81102142497E-01 +5.17206164373E-05 +3.94680368744E-04 +1.15159393575E-04 +4.20886027183E-04 +6.26674004312E-01 +6.55175990920E-01
2.56000000000E+09 +6.49934902875E-01 +5.73201429240E-01 +1.90239188274E-04 +2.10956512671E-04 +2.52916807292E-04 +3.09362830942E-04 +6.31743354750E-01 +6.48034715854E-01
2.56500000000E+09 +6.56771223555E-01 +5.64582237312E-01 +1.31454194320E-04 +2.00500986423E-04 +2.13839519802E-04 +1.43112113941E-04 +6.36993688690E-01 +6.40671411167E-01
2.57000000000E+09 +6.63729727105E-01 +5.55950160339E-01 +5.08280129773E-05 +1.56672846810E-04 +8.03277379937E-05 +1.35039760430E-04 +6.42226020724E-01 +6.32862497893E-01
2.57500000000E+09 +6.70411091987E-01 +5.47352099183E-01 +7.93060028739E-05 +2.29163031163E-04 +1.44193180618E-04 +2.03949068980E-04 +6.47934132743E-01 +6.25299670073E-01
2.58000000000E+09 +6.76202004184E-01 +5.38987795364E-01 +1.46922781516E-04 +3.07898287395E-04 +1.65323976459E-04 +2.62622421166E-04 +6.53007550359E-01 +6.17645929949E-01
2.58500000000E+09 +6.81355133429E-01 +5.30986749059E-01 +1.80115997790E-04 +1.84895618488E-04 +1.90942877610E-04 +1.89639646188E-04 +6.57818645153E-01 +6.10035305499E-01
2.59000000000E+09 +6.86068645027E-01 +5.23426046866E-01 +2.08645602027E-04 +2.40680823665E-04 +1.61838196423E-04 +2.22925646830E-04 +6.62629789707E-01 +6.02735711546E-01
2.59500000000E+09 +6.90747571689E-01 +5.15359704623E-01 +2.18924350313E-04 +2.91243034156E-04 +2.22719500206E-04 +2.77269580127E-04 +6.67621054038E-01 +5.94835495099E-01
2.60000000000E+09 +6.94780611458E-01 +5.06577948976E-01 +3.06436779440E-04 +2.69219782498E-04 +2.75971693402E-04 +2.51597129876E-04 +6.72683550875E-01 +5.86641889041E-01
2.60500000000E+09 +6.98793039184E-01 +4.96905960009E-01 +3.63173306956E-04 +2.73165969198E-04 +3.90220889111E-04 +2.49103810876E-04 +6.78151314018E-01 +5.78143510833E-01
2.61000000000E+09 +7.02852868555E-01 +4.86181580246E-01 +5.43113619290E-04 +2.13109825225E-04 +5.16386222382E-04 +1.73235003577E-04 +6.83461589696E-01 +5.69464163776E-01
2.61500000000E+09 +7.07663570213E-01 +4.74363932091E-01 +5.11683218069E-04 -5.15181090379E-05 +5.73086668287E-04 -6.68748270860E-05 +6.88369251694E-01 +5.60789534614E-01
2.62000000000E+09 +7.12417803468E-01 +4.61259667254E-01 +3.91158099073E-04 -9.72522812513E-05 +3.91175140626E-04 -1.48971500835E-04 +6.93245293604E-01 +5.51911290255E-01
2.62500000000E+09 +7.17071382768E-01 +4.47457832658E-01 +3.12839592375E-04 -2.52102915716E-05 +3.21712029730E-04 -8.05453316175E-05 +6.98056179764E-01 +5.43070841550E-01
2.63000000000E+09 +7.21375691583E-01 +4.33678836813E-01 +4.31453341407E-04 +2.89945833949E-05 +4.24627746298E-04 +2.04761245670E-05 +7.02647949473E-01 +5.34088903524E-01
2.63500000000E+09 +7.25167066027E-01 +4.20267119490E-01 +5.26466821389E-04 -6.26272204644E-05 +4.64620983407E-04 -1.53938354816E-04 +7.07429815348E-01 +5.25037031981E-01
2.64000000000E+09 +7.28513902613E-01 +4.07757440217E-01 +4.97056903693E-04 -2.35170009673E-04 +4.20451484760E-04 -1.75866398418E-04 +7.12301254919E-01 +5.15582695032E-01
2.64500000000E+09 +7.31722940437E-01 +3.96283130852E-01 +4.45921386587E-04 -2.84058304338E-04 +3.95929054343E-04 -2.46732533487E-04 +7.17118744917E-01 +5.05799010514E-01
2.65000000000E+09 +7.34488167210E-01 +3.85436295072E-01 +3.90962532074E-04 -3.58189315936E-04 +4.19363707070E-04 -2.73408509041E-04 +7.21282244161E-01 +4.95641184765E-01
2.65500000000E+09 +7.37398729633E-01 +3.74470098840E-01 +3.81642668432E-04 -4.05086006284E-04 +4.32180666980E-04 -3.75477585516E-04 +7.25458965311E-01 +4.85062961248E-01
2.66000000000E+09 +7.40125031346E-01 +3.63193655008E-01 +4.22242384383E-04 -4.45248957657E-04 +4.55773985115E-04 -4.23971833092E-04 +7.29430239688E-01 +4.73888948538E-01
2.66500000000E+09 +7.42650573091E-01 +3.52074831790E-01 +2.89164951233E-04 -5.96074798328E-04 +3.05702404481E-04 -7.19868843847E-04 +7.33845104746E-01 +4.63000845087E-01
2.67000000000E+09 +7.45534543435E-01 +3.39583801428E-01 +1.08268065961E-04 -6.33261063231E-04 +1.09269091620E-04 -6.45164157583E-04 +7.38406629502E-01 +4.52001318470E-01
2.67500000000E+09 +7.48164926648E-01 +3.26086129152E-01 +5.95098780951E-05 -5.36238876728E-04 +4.88018560264E-05 -5.42160674917E-04 +7.42457403095E-01 +4.40741072482E-01
2.68000000000E+09 +7.50382019871E-01 +3.11437311243E-01 +1.01911104129E-04 -5.56687590786E-04 +1.15389905750E-04 -5.18723103079E-04 +7.46553682355E-01 +4.29662545074E-01
2.68500000000E+09 +7.52055082184E-01 +2.96888332565E-01 +2.87343775970E-05 -7.75456729690E-04 +5.99614624065E-05 -7.74347728151E-04 +7.49908736716E-01 +4.17822144843E-01
2.69000000000E+09 +7.53352000320E-01 +2.82261146415E-01 -2.88372595610E-04 -6.57655892340E-04 -2.82135193653E-04 -6.58202927004E-04 +7.52265632897E-01 +4.05663530999E-01
2.69500000000E+09 +7.54520186989E-01 +2.68512163148E-01 -2.19611903808E-04 -5.97300798544E-04 -2.46063588946E-04 -6.24262830017E-04 +7.55032096769E-01 +3.93085237298E-01
2.70000000000E+09 +7.56232056598E-01 +2.54965943547E-01 -4.26872997764E-04 -6.56643291774E-04 -3.88550124264E-04 -6.56294033490E-04 +7.57666064912E-01 +3.79977368250E-01
2.70500000000E+09 +7.57361307797E-01 +2.41676786225E-01 -4.39044330495E-04 -5.71111767249E-04 -4.47905892130E-04 -5.51995888399E-04 +7.60585873412E-01 +3.66542163295E-01
2.71000000000E+09 +7.58441452804E-01 +2.28576103698E-01 -6.18062772198E-04 -4.19027019385E-04 -6.25851166410E-04 -4.84606226044E-04 +7.63175301793E-01 +3.53353940418E-01
2.71500000000E+09 +7.59715443631E-01 +2.15080618761E-01 -6.46222226277E-04 -3.13349225429E-04 -6.44540383660E-04 -3.03311053481E-04 +7.65552499400E-01 +3.40672592036E-01
2.72000000000E+09 +7.60787094488E-01 +2.00970471654E-01 -6.85636702608E-04 -2.62760364177E-04 -8.01178612195E-04 -2.27494365364E-04 +7.67147384662E-01 +3.27968825659E-01
2.72500000000E+09 +7.61449170266E-01 +1.85834359507E-01 -7.39857301999E-04 -4.41363718195E-05 -7.65778301486E-04 -1.13666728447E-05 +7.68008890044E-01 +3.14854873520E-01
2.73000000000E+09 +7.61357538506E-01 +1.69264612544E-01 -7.11826621596E-04 +7.75810533790E-05 -6.44677902870E-04 +1.43396427134E-04 +7.68866368138E-01 +3.01036970321E-01
2.73500000000E+09 +7.59901120564E-01 +1.51635295423E-01 -6.98937616261E-04 +2.74760554795E-04 -6.14186811249E-04 +2.58539407686E-04 +7.69861833005E-01 +2.86862261883E-01
2.74000000000E+09 +7.57313579595E-01 +1.34097797994E-01 -4.98582710343E-04 +4.20917731095E-04 -4.17103696472E-04 +3.47102861778E-04 +7.71638881683E-01 +2.72109486833E-01
2.74500000000E+09 +7.53989047235E-01 +1.16441437831E-01 -4.41436504520E-04 +3.23419170561E-04 -3.95865041383E-04 +2.97496275233E-04 +7.72902583503E-01 +2.56979087249E-01
2.75000000000E+09 +7.50194794685E-01 +9.89398637453E-02 -3.14277928384E-04 +4.57268467614E-04 -3.79845390889E-04 +4.54433620264E-04 +7.73879629825E-01 +2.41715442772E-01
2.75500000000E+09 +7.46059043277E-01 +8.15568645563E-02 -2.36517950350E-04 +3.71976844709E-04 -2.71429059318E-04 +4.00946738486E-04 +7.73584399608E-01 +2.26813666514E-01
2.76000000000E+09 +7.41947526251E-01 +6.40053433118E-02 -2.24916517888E-04 +4.95405211693E-04 -2.69870075675E-04 +5.63787162782E-04 +7.73497399807E-01 +2.11574459498E-01
2.76500000000E+09 +7.37324449544E-01 +4.62223504111E-02 -1.83017817908E-04 +4.84575026372E-04 -1.57257324525E-04 +4.98788587301E-04 +7.72608708859E-01 +1.94757350786E-01
2.77000000000E+09 +7.32681174263E-01 +2.78285581276E-02 +6.20394594840E-05 +5.44850875524E-04 +9.11558992022E-05 +6.09097742709E-04 +7.71290960295E-01 +1.77874482257E-01
2.77500000000E+09 +7.28153903703E-01 +8.78793595232E-03 +9.30343722522E-05 +4.95195300962E-04 +1.07431836008E-04 +4.96626897033E-04 +7.69765290763E-01 +1.60008801803E-01
2.78000000000E+09 +7.23420196503E-01 -1.15264077356E-02 +3.16269504805E-04 +4.72269734253E-04 +3.50107783855E-04 +4.67270853483E-04 +7.67782013030E-01 +1.42091814008E-01
2.78500000000E+09 +7.17526831143E-01 -3.31044030963E-02 +4.68363181112E-04 +2.07476363133E-04 +5.01406290595E-04 +2.25506212967E-04 +7.65081711415E-01 +1.24223085931E-01
2.79000000000E+09 +7.10915988898E-01 -5.50138832101E-02 +2.98059344117E-04 -7.33282316073E-06 +3.03982918959E-04 -8.89208701344E-06 +7.61612326201E-01 +1.07076464691E-01
2.79500000000E+09 +7.03165522464E-01 -7.68285718266E-02 +3.59693432830E-04 +1.30590680042E-04 +3.37209990719E-04 +1.00817697750E-04 +7.57191150590E-01 +8.93652562388E-02
2.80000000000E+09 +6.94413050709E-01 -9.80376462397E-02 +3.39674223885E-04 -1.68444542419E-04 +3.03818314284E-04 -1.69854730003E-04 +7.51991368403E-01 +7.13090705378E-02
2.80500000000E+09 +6.85267572687E-01 -1.17900673642E-01 +1.57287882451E-04 -7.77132181235E-05 +1.62132405172E-04 -1.24026969102E-04 +7.46037131528E-01 +5.28464150093E-02
2.81000000000E+09 +6.75485766257E-01 -1.36611382933E-01 +3.83533668137E-04 -6.94394133337E-05 +3.36041917143E-04 -7.35239303312E-05 +7.39947664283E-01 +3.41737435505E-02
2.81500000000E+09 +6.65267057555E-01 -1.54460760242E-01 +3.58938029353E-04 -2.75026971358E-04 +3.45970857678E-04 -3.32229128937E-04 +7.33403287181E-01 +1.48327916400E-02
2.82000000000E+09 +6.53997392505E-01 -1.71954114108E-01 +2.88682029204E-04 -4.31589305908E-04 +2.43688462210E-04 -4.42800221937E-04 +7.26011876687E-01 -4.63683415231E-03
2.82500000000E+09 +6.41314723917E-01 -1.88995146775E-01 +2.36802513351E-04 -4.91959720386E-04 +2.18476014095E-04 -4.55886815751E-04 +7.17982976538E-01 -2.37288811488E-02
2.83000000000E+09 +6.27656621227E-01 -2.06571275644E-01 +1.37535566579E-04 -8.26825214539E-04 +1.25455904369E-04 -7.80119203243E-04 +7.09266735114E-01 -4.35560579824E-02
2.83500000000E+09 +6.12099742203E-01 -2.24998286934E-01 -3.53457059064E-04 -9.56266595730E-04 -3.13673173012E-04 -9.53257160629E-04 +6.99468906022E-01 -6.35335634927E-02
2.84000000000E+09 +5.94502084512E-01 -2.44121462184E-01 -6.77475663071E-04 -7.16375128652E-04 -6.49604791611E-04 -7.94183875385E-04 +6.88559881680E-01 -8.43232914751E-02
2.84500000000E+09 +5.74271708337E-01 -2.64124023568E-01 -7.75149679263E-04 -4.43453740393E-04 -7.73393521608E-04 -4.41217172829E-04 +6.76315632507E-01 -1.04607273233E-01
2.85000000000E+09 +5.52761498071E-01 -2.83669041577E-01 -8.16800671977E-04 -4.58528550631E-04 -8.14001897699E-04 -4.43194525367E-04 +6.63046019829E-01 -1.25332677593E-01
2.85500000000E+09 +5.29443408447E-01 -3.03548377708E-01 -1.03361763011E-03 -2.13952308987E-04 -1.03534483078E-03 -2.18527974220E-04 +6.48351787773E-01 -1.45471508101E-01
2.86000000000E+09 +5.05500082557E-01 -3.22251996933E-01 -8.50909124098E-04 +2.95834534604E-05 -8.34846045843E-04 +1.26532769356E-05 +6.32949472386E-01 -1.66013444121E-01
2.86500000000E+09 +4.81060133565E-01 -3.39862105412E-01 -8.74486242447E-04 -1.75942876606E-04 -8.62259523632E-04 -2.02739629632E-04 +6.15576687936E-01 -1.86923444724E-01
2.87000000000E+09 +4.56619970455E-01 -3.56139155964E-01 -1.48354142333E-03 -5.22164121059E-05 -1.46470901330E-03 -1.19967886196E-04 +5.96174566382E-01 -2.07168216639E-01
2.87500000000E+09 +4.32114608263E-01 -3.71267884094E-01 -1.69008551065E-03 +3.64239080674E-04 -1.60110733518E-03 +3.31681400993E-04 +5.75928970478E-01 -2.25940418427E-01
2.88000000000E+09 +4.07068795151E-01 -3.85388302477E-01 -1.85819382804E-03 +8.67549875085E-04 -1.81462939373E-03 +9.05555280632E-04 +5.54990451879E-01 -2.44964261079E-01
2.88500000000E+09 +3.80860724669E-01 -3.98552346762E-01 -1.53559795629E-03 +1.97463501106E-03 -1.39118808602E-03 +1.87318433398E-03 +5.32239116261E-01 -2.63333692145E-01
2.89000000000E+09 +3.52756496389E-01 -4.10694312959E-01 -4.56048561654E-04 +2.00125533115E-03 -4.94866972507E-04 +1.87051539119E-03 +5.07429216058E-01 -2.81131803204E-01
2.89500000000E+09 +3.22170155688E-01 -4.21203515628E-01 -3.21622252705E-04 +1.59423285267E-03 -3.74273650003E-04 +1.53706275313E-03 +4.80862076195E-01 -2.98233136410E-01
2.90000000000E+09 +2.89881011103E-01 -4.29882620717E-01 -2.87657284364E-04 +1.82939813499E-03 -3.22294719897E-04 +1.79356918885E-03 +4.53002802728E-01 -3.14474250753E-01
2.90500000000E+09 +2.55398683713E-01 -4.37026462631E-01 -1.65175810819E-06 +1.82513062393E-03 -7.39113410982E-05 +1.85514906491E-03 +4.23412667562E-01 -3.29758969231E-01
2.91000000000E+09 +2.19748314310E-01 -4.41943959175E-01 +1.80415029697E-04 +2.03877465985E-03 +2.40393168600E-04 +2.08465959901E-03 +3.93301313646E-01 -3.42601447202E-01
2.91500000000E+09 +1.83416743167E-01 -4.45408308524E-01 +8.33560833063E-04 +1.96203619999E-03 +8.48519951142E-04 +1.87960075049E-03 +3.62982852107E-01 -3.55024802655E-01
2.92000000000E+09 +1.46059108929E-01 -4.46561847901E-01 +7.71532831991E-04 +1.84874315802E-03 +7.02548253072E-04 +1.74416843201E-03 +3.30032615438E-01 -3.66195980744E-01
2.92500000000E+09 +1.09429284915E-01 -4.45846054060E-01 +1.15856451655E-03 +2.20737585428E-03 +9.64241898934E-04 +2.17751080974E-03 +2.94933998518E-01 -3.74523085117E-01
2.93000000000E+09 +7.31335071873E-02 -4.43436940105E-01 +1.94840582839E-03 +1.90904815352E-03 +1.86583772146E-03 +1.98863878772E-03 +2.57941647790E-01 -3.81058600025E-01
2.93500000000E+09 +3.67383724374E-02 -4.39016888470E-01 +2.33377129926E-03 +1.56167134665E-03 +2.25668524356E-03 +1.65539501322E-03 +2.20103721344E-01 -3.84565541091E-01
2.94000000000E+09 +8.77764465017E-04 -4.31930639022E-01 +2.77185551550E-03 +7.94017137735E-04 +2.78146802652E-03 +9.03672887721E-04 +1.82323021073E-01 -3.86828442567E-01
2.94500000000E+09 -3.50798449205E-02 -4.22685721856E-01 +2.25297967945E-03 +4.26310664826E-04 +2.23490032246E-03 +4.12123736731E-04 +1.43832845263E-01 -3.87881622734E-01
2.95000000000E+09 -7.07020099684E-02 -4.09531041959E-01 +2.40932520712E-03 +4.04497680593E-04 +2.44889571232E-03 +4.93199010247E-04 +1.04072935624E-01 -3.86448254186E-01
2.95500000000E+09 -1.05423966624E-01 -3.93626867757E-01 +2.75248897283E-03 +1.59110661746E-05 +2.78221306306E-03 +1.19424474509E-04 +6.39264278919E-02 -3.80699371796E-01
2.96000000000E+09 -1.39749017452E-01 -3.75408458014E-01 +2.86851609009E-03 -4.49505629824E-04 +3.02545638308E-03 -4.33982388700E-04 +2.46231810054E-02 -3.72025063730E-01
2.96500000000E+09 -1.74151114461E-01 -3.53214348539E-01 +2.78216358498E-03 -9.44317194083E-04 +2.89809228545E-03 -1.10987999889E-03 -1.59448128545E-02 -3.61259112251E-01
2.97000000000E+09 -2.05699562020E-01 -3.27527937187E-01 +2.64350466172E-03 -1.43886907114E-03 +2.57798641337E-03 -1.57030546876E-03 -5.52761081137E-02 -3.46158191687E-01
2.97500000000E+09 -2.35207796405E-01 -3.00841302462E-01 +2.60247225902E-03 -1.79064317403E-03 +2.46359710444E-03 -1.80216314677E-03 -9.44170110009E-02 -3.30556652759E-01
2.98000000000E+09 -2.63921913513E-01 -2.72451084152E-01 +2.41608618455E-03 -2.40258674347E-03 +2.33498218931E-03 -2.30684224937E-03 -1.32643750006E-01 -3.10439610578E-01
2.98500000000E+09 -2.90674751289E-01 -2.42133160487E-01 +1.84594922054E-03 -3.06087908157E-03 +1.95962764964E-03 -3.01070834339E-03 -1.68593169446E-01 -2.88422122515E-01
2.99000000000E+09 -3.15225472940E-01 -2.10695740578E-01 +8.83113864523E-04 -3.24415987387E-03 +9.07418370881E-04 -3.42175014384E-03 -2.03516201096E-01 -2.63705551247E-01
2.99500000000E+09 -3.38210723972E-01 -1.78552909078E-01 +6.65465609442E-04 -2.65527560894E-03 +5.53013409141E-04 -2.77649169486E-03 -2.36886931571E-01 -2.35954139685E-01
3.00000000000E+09 -3.59510950776E-01 -1.44906717501E-01 +7.24809831622E-04 -3.25400933895E-03 +5.00241512769E-04 -3.26810680058E-03 -2.69131206039E-01 -2.04552841735E-01
3.00500000000E+09 -3.78249618859E-01 -1.10495981433E-01 -4.57284136430E-05 -3.62474371023E-03 -1.69913793731E-04 -3.44737811783E-03 -2.97862428162E-01 -1.70992425036E-01
3.01000000000E+09 -3.94814541819E-01 -7.53725656488E-02 -8.49378322727E-04 -3.59674213458E-03 -8.04937852531E-04 -3.44251504216E-03 -3.24382690024E-01 -1.36162924505E-01
3.01500000000E+09 -4.08566712843E-01 -3.99383378757E-02 -1.61597673495E-03 -3.24501198916E-03 -1.50290607598E-03 -3.10856306580E-03 -3.47895981624E-01 -1.00570076646E-01
3.02000000000E+09 -4.18802825928E-01 -3.76346135258E-03 -2.04713186508E-03 -2.86965608785E-03 -1.95956749875E-03 -2.91289627935E-03 -3.69110403055E-01 -6.41183534082E-02
3.02500000000E+09 -4.25926773246E-01 +3.08450585727E-02 -2.34387876196E-03 -2.45783482866E-03 -2.28566295242E-03 -2.45949786985E-03 -3.87380049140E-01 -2.49329108773E-02
3.03000000000E+09 -4.31184085623E-01 +6.54657468766E-02 -2.56856063994E-03 -2.10067666267E-03 -2.51149810477E-03 -2.02262255738E-03 -4.01183970587E-01 +1.42978505382E-02
3.03500000000E+09 -4.32987077451E-01 +1.00168790976E-01 -3.07263116881E-03 -1.68337929835E-03 -2.93672787763E-03 -1.71535740952E-03 -4.13537686562E-01 +5.36701799794E-02
3.04000000000E+09 -4.32442223149E-01 +1.33905075917E-01 -3.18059073313E-03 -1.07175166727E-03 -3.18424134207E-03 -1.22337935167E-03 -4.22888648487E-01 +9.42698212841E-02
3.04500000000E+09 -4.29759538815E-01 +1.68321905572E-01 -3.15493305169E-03 -4.46193870889E-04 -3.34810702907E-03 -6.17417403179E-04 -4.29015941128E-01 +1.35022261557E-01
3.05000000000E+09 -4.23577766917E-01 +2.02346125895E-01 -3.14935516427E-03 -1.50581180818E-04 -3.29050346529E-03 -1.28051968498E-04 -4.32124119585E-01 +1.74803221096E-01
3.05500000000E+09 -4.15972857045E-01 +2.35741109129E-01 -3.12904774845E-03 +3.70956750538E-04 -3.08877308318E-03 +5.70638434217E-04 -4.32609817506E-01 +2.13830273052E-01
3.06000000000E+09 -4.05749840559E-01 +2.68932363897E-01 -3.10751656309E-03 +7.95403026164E-04 -2.99582331649E-03 +9.28613915329E-04 -4.30577233245E-01 +2.51871851804E-01
3.06500000000E+09 -3.94181534442E-01 +3.00975686055E-01 -2.75445314700E-03 +1.51191776983E-03 -2.58760764402E-03 +1.38378857674E-03 -4.26127954016E-01 +2.88910413903E-01
3.07000000000E+09 -3.81187536991E-01 +3.31567520338E-01 -2.27009785385E-03 +1.75514690426E-03 -2.32811973857E-03 +1.55383712656E-03 -4.19790022342E-01 +3.24986399458E-01
