# Hz S RI R 50
! CMT, C1220, 16058040, 17.2.0/1
! Date: 15/08/2018 10:02:03
! Data: Format (Calibration Info)
! Freq                      S11: Re/Im (F2)                       S21: Re/Im (F2)                       S12: Re/Im (F2)                       S22: Re/Im (F2)            
2.50000000000E+09 +5.93572873083E-01 +6.32678705858E-01 -5.05134830507E-04 -3.37166036904E-04 -5.06548344444E-04 -3.72127378328E-04 +5.76224456245E-01 +7.14845208280E-01
2.50500000000E+09 +5.99583265886E-01 +6.25774015364E-01 -4.81134104250E-04 -3.36288400858E-04 -5.50087680069E-04 -3.47793715562E-04 +5.81768388571E-01 +7.09132627465E-01
2.51000000000E+09 +6.06018240526E-01 +6.18410284341E-01 -5.69121645275E-04 -3.66103153819E-04 -6.20932065490E-04 -2.87613777019E-04 +5.87491336893E-01 +7.03759513669E-01
2.51500000000E+09 +6.12016568573E-01 +6.11094060589E-01 -6.15997033835E-04 -2.59939620273E-04 -6.24495286061E-04 -2.34215779903E-04 +5.92707420014E-01 +6.98198684770E-01
2.52000000000E+09 +6.17781348008E-01 +6.03552515256E-01 -6.68728360848E-04 -1.75296189152E-04 -6.35315147770E-04 -1.59533677270E-04 +5.97876232068E-01 +6.92230577213E-01
2.52500000000E+09 +6.22647347570E-01 +5.96608105216E-01 -7.14435646386E-04 -1.52726457375E-04 -7.01130972771E-04 -1.46805558833E-04 +6.03644856757E-01 +6.85715386895E-01
2.53000000000E+09 +6.27364819602E-01 +5.90015938034E-01 -7.91202939930E-04 +6.69289597324E-06 -7.79731797248E-04 -1.86145525059E-05 +6.09601590994E-01 +6.78688614136E-01
2.53500000000E+09 +6.31652851631E-01 +5.83634231442E-01 -6.89430179146E-04 +7.49787528433E-05 -6.67397240754E-04 +1.20850182131E-04 +6.15501745644E-01 +6.71933829751E-01
2.54000000000E+09 +6.35859712006E-01 +5.77327379820E-01 -7.02560842666E-04 +1.04675897173E-04 -6.63857661471E-04 +1.19285622198E-04 +6.21411095133E-01 +6.65417554772E-01
2.54500000000E+09 +6.40221512146E-01 +5.71047852920E-01 -6.62272445638E-04 +2.57642900456E-04 -6.45441251521E-04 +2.07668690331E-04 +6.27109696176E-01 +6.58872976786E-01
2.55000000000E+09 +6.44941718754E-01 +5.64626958404E-01 -5.35565237294E-04 +2.57719840242E-04 -5.97152275445E-04 +1.69211806597E-04 +6.32225799603E-01 +6.52777897246E-01
2.55500000000E+09 +6.50395440205E-01 +5.57423553002E-01 -6.21403673586E-04 +2.50390245734E-04 -6.74843286268E-04 +2.96734200632E-04 +6.37338832195E-01 +6.46465450493E-01
2.56000000000E+09 +6.56311446395E-01 +5.49946003076E-01 -5.85345073643E-04 +3.61010147546E-04 -5.98696529038E-04 +4.68744944235E-04 +6.42737228356E-01 +6.39238407984E-01
2.56500000000E+09 +6.62724398543E-01 +5.41589134368E-01 -4.73669707730E-04 +3.14983849292E-04 -4.53265343443E-04 +4.72734808414E-04 +6.47959737044E-01 +6.31680673236E-01
2.57000000000E+09 +6.69097172715E-01 +5.33125478609E-01 -5.05080682221E-04 +2.71011674771E-04 -4.61564853643E-04 +3.43022095517E-04 +6.53580162905E-01 +6.23932844635E-01
2.57500000000E+09 +6.75372169737E-01 +5.24239962288E-01 -6.80603704621E-04 +3.83393086628E-04 -5.25364455452E-04 +4.28141891963E-04 +6.59170791279E-01 +6.16102441609E-01
2.58000000000E+09 +6.80848527487E-01 +5.15715566639E-01 -6.03056099926E-04 +5.87650724808E-04 -4.82511237465E-04 +5.04551183867E-04 +6.63983778967E-01 +6.08439065642E-01
2.58500000000E+09 +6.86169263472E-01 +5.07504767125E-01 -4.42513135547E-04 +6.41001855304E-04 -4.42173909192E-04 +5.56859019799E-04 +6.68905640387E-01 +6.00857516539E-01
2.59000000000E+09 +6.91285303687E-01 +4.99468553953E-01 -3.79405577240E-04 +6.47071138419E-04 -4.22403593245E-04 +6.10950010545E-04 +6.74004214836E-01 +5.93140967434E-01
2.59500000000E+09 +6.96078207428E-01 +4.91486567336E-01 -3.19602579466E-04 +6.55238401216E-04 -3.52309441708E-04 +6.50841550908E-04 +6.79062840006E-01 +5.84719668330E-01
2.60000000000E+09 +7.00489022131E-01 +4.83244115865E-01 -3.78044838332E-04 +6.21052948780E-04 -3.13243666145E-04 +6.32814683152E-04 +6.84152365246E-01 +5.75988020372E-01
2.60500000000E+09 +7.05037589251E-01 +4.74285406643E-01 -5.00493034607E-04 +7.01679191409E-04 -4.77242988104E-04 +7.42818349123E-04 +6.89093113192E-01 +5.67125078470E-01
2.61000000000E+09 +7.09649691139E-01 +4.64392105753E-01 -3.16116033139E-04 +1.02063848666E-03 -3.44709706205E-04 +1.00483075608E-03 +6.93855768857E-01 +5.58313912174E-01
2.61500000000E+09 +7.14333210871E-01 +4.53690432927E-01 +1.78738212930E-05 +1.08437033252E-03 +2.51421903185E-05 +1.13944345865E-03 +6.98629995703E-01 +5.49882258624E-01
2.62000000000E+09 +7.18797398962E-01 +4.41732261584E-01 +1.53180623413E-04 +8.47499332152E-04 +1.85456484339E-04 +9.10105140294E-04 +7.03356458840E-01 +5.40756910853E-01
2.62500000000E+09 +7.23087521809E-01 +4.29015929152E-01 +6.30503786678E-05 +7.44961776943E-04 +1.20318917390E-04 +7.68878692714E-04 +7.07959427453E-01 +5.31893297047E-01
2.63000000000E+09 +7.27089223382E-01 +4.16169399708E-01 +3.55693964944E-06 +8.06835112923E-04 +1.29019161121E-04 +7.76026690300E-04 +7.12480103958E-01 +5.22852847131E-01
2.63500000000E+09 +7.30443860561E-01 +4.03486205470E-01 +6.08232602357E-05 +1.00256143388E-03 +1.60271570823E-04 +9.01045090805E-04 +7.17258036980E-01 +5.13848068372E-01
2.64000000000E+09 +7.33571267086E-01 +3.91405228375E-01 +3.44187776989E-04 +1.13766306007E-03 +3.64988253057E-04 +9.69278068797E-04 +7.22253176797E-01 +5.03994362940E-01
2.64500000000E+09 +7.36857584440E-01 +3.79886080921E-01 +6.98064046475E-04 +9.06484955102E-04 +5.16506456266E-04 +8.33940736909E-04 +7.26656627865E-01 +4.94062488650E-01
2.65000000000E+09 +7.39651744604E-01 +3.68807351908E-01 +6.25277552223E-04 +6.83620944944E-04 +4.85235348794E-04 +6.84808626973E-04 +7.30735061652E-01 +4.84063746208E-01
2.65500000000E+09 +7.42431581652E-01 +3.57555480079E-01 +4.92726916495E-04 +6.64503874323E-04 +4.91864158674E-04 +7.40750056141E-04 +7.34610433784E-01 +4.73886429811E-01
2.66000000000E+09 +7.44818924582E-01 +3.46327211569E-01 +5.49974750433E-04 +7.25361192504E-04 +5.61431567605E-04 +7.31495252430E-04 +7.38911122661E-01 +4.62800042074E-01
2.66500000000E+09 +7.47348058992E-01 +3.34755650775E-01 +5.25636457521E-04 +7.29652116526E-04 +6.35365487970E-04 +7.50740238485E-04 +7.43463491372E-01 +4.51075945780E-01
2.67000000000E+09 +7.49327796862E-01 +3.22115551786E-01 +6.78912339372E-04 +9.04814140538E-04 +7.34040238378E-04 +8.97781941741E-04 +7.47608704494E-01 +4.39700017178E-01
2.67500000000E+09 +7.50562024419E-01 +3.08783206986E-01 +1.04922678057E-03 +8.22786153953E-04 +9.91164275084E-04 +7.72623351967E-04 +7.51689527313E-01 +4.28416246676E-01
2.68000000000E+09 +7.51276458374E-01 +2.94877112462E-01 +1.12065024761E-03 +5.26605804642E-04 +1.07367680548E-03 +5.21016398134E-04 +7.55394523254E-01 +4.17117811391E-01
2.68500000000E+09 +7.51566587647E-01 +2.80713306631E-01 +1.03363622579E-03 +4.33757601359E-04 +1.00853977019E-03 +4.57741555987E-04 +7.58419367330E-01 +4.05632917686E-01
2.69000000000E+09 +7.51695567354E-01 +2.66643481058E-01 +1.01094105467E-03 +4.54490161635E-04 +1.08751934759E-03 +4.80122088864E-04 +7.61172962848E-01 +3.93528592158E-01
2.69500000000E+09 +7.52011147760E-01 +2.53216788814E-01 +1.24650079398E-03 +4.80480233460E-04 +1.20471676570E-03 +4.26911771085E-04 +7.63596707339E-01 +3.80286971598E-01
2.70000000000E+09 +7.53089106612E-01 +2.39668715074E-01 +1.48907432275E-03 +4.04359218904E-04 +1.43346023974E-03 +4.05819603201E-04 +7.65656517702E-01 +3.66959127697E-01
2.70500000000E+09 +7.54026668008E-01 +2.26103413693E-01 +1.62093834351E-03 +2.29178597649E-05 +1.55954992935E-03 +8.66981835793E-05 +7.68278445695E-01 +3.53976478451E-01
2.71000000000E+09 +7.55090854416E-01 +2.12610295840E-01 +1.54215677362E-03 -2.53744453716E-04 +1.59627376680E-03 -1.67986660268E-04 +7.71105978255E-01 +3.40928810860E-01
2.71500000000E+09 +7.56544818581E-01 +1.99108584571E-01 +1.51524892938E-03 -3.72874627950E-04 +1.62110401463E-03 -3.53120263431E-04 +7.73421287197E-01 +3.28169407003E-01
2.72000000000E+09 +7.57924049658E-01 +1.84999071330E-01 +1.51975134436E-03 -5.98049295533E-04 +1.61913592654E-03 -7.03403527324E-04 +7.75089631373E-01 +3.15280126246E-01
2.72500000000E+09 +7.59109521947E-01 +1.69934121503E-01 +1.42564939570E-03 -8.19583143935E-04 +1.26797034309E-03 -1.00493042755E-03 +7.75831551764E-01 +3.02007826072E-01
2.73000000000E+09 +7.59287773211E-01 +1.53790478538E-01 +1.34563837527E-03 -9.14428094305E-04 +1.12073667000E-03 -9.97551777062E-04 +7.76918258078E-01 +2.88134628956E-01
2.73500000000E+09 +7.57823389668E-01 +1.36816327119E-01 +1.13675342672E-03 -1.18954672670E-03 +9.85178980175E-04 -1.00859476313E-03 +7.77897134231E-01 +2.73449689858E-01
2.74000000000E+09 +7.55207678548E-01 +1.20465456715E-01 +1.02490863203E-03 -1.22592332121E-03 +1.01742583911E-03 -1.04251759925E-03 +7.79457310038E-01 +2.58136235132E-01
2.74500000000E+09 +7.51629617901E-01 +1.03945801854E-01 +8.62906007607E-04 -1.26745626249E-03 +1.00358491714E-03 -1.10542094791E-03 +7.80186541499E-01 +2.42601945464E-01
2.75000000000E+09 +7.47651857449E-01 +8.77336084905E-02 +7.33243778407E-04 -1.38982268684E-03 +9.07915811581E-04 -1.39201948848E-03 +7.80689799106E-01 +2.27799896006E-01
2.75500000000E+09 +7.43149739018E-01 +7.14567808622E-02 +5.99525389934E-04 -1.51847437726E-03 +7.78966352596E-04 -1.48411355117E-03 +7.80172040188E-01 +2.12840563373E-01
2.76000000000E+09 +7.38795731155E-01 +5.53529534718E-02 +4.91569666430E-04 -1.40759461737E-03 +5.33728316466E-04 -1.49388814989E-03 +7.79992169747E-01 +1.97825296571E-01
2.76500000000E+09 +7.34250182560E-01 +3.89449317902E-02 +4.79547248077E-04 -1.62294152262E-03 +5.31045941856E-04 -1.73035169924E-03 +7.79074888788E-01 +1.81035778407E-01
2.77000000000E+09 +7.30062445948E-01 +2.16231840108E-02 +2.87572237400E-04 -1.79321588552E-03 +2.73184304528E-04 -1.85759043121E-03 +7.77559368421E-01 +1.63323039798E-01
2.77500000000E+09 +7.25671295689E-01 +3.16588335467E-03 -5.59061629249E-05 -1.92949631910E-03 -1.46896398587E-04 -2.00712433213E-03 +7.75147339704E-01 +1.45839208802E-01
2.78000000000E+09 +7.20733756321E-01 -1.67156664250E-02 -5.97995446981E-04 -1.73401657959E-03 -7.25361061899E-04 -1.71088095433E-03 +7.73514462976E-01 +1.28212352585E-01
2.78500000000E+09 +7.14020714104E-01 -3.75855786868E-02 -5.98410909864E-04 -1.15675003092E-03 -6.19569362303E-04 -1.08366750841E-03 +7.71011455100E-01 +1.10475556176E-01
2.79000000000E+09 +7.05880345968E-01 -5.88791175347E-02 -1.01125012666E-04 -1.18144625994E-03 -1.47834354831E-04 -1.17014312578E-03 +7.67533369374E-01 +9.31422357637E-02
2.79500000000E+09 +6.96219730842E-01 -7.90718123916E-02 -2.83916490762E-04 -1.73652349209E-03 -3.12150530090E-04 -1.62330119565E-03 +7.63039190120E-01 +7.51499865175E-02
2.80000000000E+09 +6.86171497945E-01 -9.86595885943E-02 -5.39682221823E-04 -1.59698515705E-03 -4.61351011002E-04 -1.55227924087E-03 +7.57499518408E-01 +5.70420368199E-02
2.80500000000E+09 +6.75484924510E-01 -1.17505202649E-01 -7.14888924947E-04 -1.84760473124E-03 -6.33391087672E-04 -1.94404119696E-03 +7.52094299094E-01 +3.85022648835E-02
2.81000000000E+09 +6.63941580071E-01 -1.36213635402E-01 -1.21799239976E-03 -1.74806025563E-03 -1.27197668745E-03 -1.86189677489E-03 +7.45851204668E-01 +1.83375667316E-02
2.81500000000E+09 +6.51106175075E-01 -1.54014862052E-01 -1.56445599120E-03 -1.36327713525E-03 -1.68513409777E-03 -1.39496588396E-03 +7.37841756519E-01 -1.23700119214E-03
2.82000000000E+09 +6.37287232442E-01 -1.70997173794E-01 -1.49802932697E-03 -1.16788424778E-03 -1.55183980882E-03 -1.12268099702E-03 +7.29991206713E-01 -1.99892741694E-02
2.82500000000E+09 +6.22798136578E-01 -1.87732852631E-01 -1.81482421286E-03 -1.23011043081E-03 -1.84266202331E-03 -1.13173533630E-03 +7.21646222211E-01 -3.91604102449E-02
2.83000000000E+09 +6.06964667852E-01 -2.05610129201E-01 -2.08025918710E-03 -4.26956645410E-04 -1.99530281427E-03 -4.05275780316E-04 +7.12216642331E-01 -5.86721941160E-02
2.83500000000E+09 +5.88815478865E-01 -2.23737935061E-01 -1.62693275261E-03 -2.81141385442E-04 -1.55247763086E-03 -3.12984413525E-04 +7.02337310443E-01 -7.84108924039E-02
2.84000000000E+09 +5.68627374303E-01 -2.41736951912E-01 -1.56506174294E-03 -3.08850104705E-04 -1.55047719293E-03 -3.43287188668E-04 +6.91078041608E-01 -9.94221259374E-02
2.84500000000E+09 +5.46796877758E-01 -2.59718054345E-01 -1.59442294845E-03 -4.42572482056E-04 -1.57958364770E-03 -4.36330443821E-04 +6.78255926180E-01 -1.19663821094E-01
2.85000000000E+09 +5.23456934946E-01 -2.77173845444E-01 -1.92218106323E-03 -4.94609693637E-04 -1.94302395763E-03 -4.95704419235E-04 +6.64577085421E-01 -1.40004108947E-01
2.85500000000E+09 +4.99525925813E-01 -2.94238366305E-01 -2.26426893330E-03 +1.85225029472E-04 -2.18358455996E-03 +1.69026375684E-04 +6.50447504990E-01 -1.59697637692E-01
2.86000000000E+09 +4.74541488555E-01 -3.10702634109E-01 -1.93186273112E-03 +5.17209803101E-04 -1.87700260845E-03 +4.71610151221E-04 +6.34559935076E-01 -1.80245040108E-01
2.86500000000E+09 +4.48712649625E-01 -3.25532479273E-01 -1.58618783438E-03 +5.67889703331E-04 -1.56019869386E-03 +5.86673432745E-04 +6.17313206729E-01 -2.00882504936E-01
2.87000000000E+09 +4.23196329914E-01 -3.38381655129E-01 -1.57871785067E-03 +5.90615255191E-04 -1.57524749716E-03 +5.74349199412E-04 +5.97919232772E-01 -2.21029938921E-01
2.87500000000E+09 +3.98676774362E-01 -3.49489573403E-01 -1.55890264593E-03 +4.37689116211E-04 -1.53673420678E-03 +4.95456247619E-04 +5.78025063485E-01 -2.40240235719E-01
2.88000000000E+09 +3.74066350190E-01 -3.60450624423E-01 -1.86451667088E-03 +6.92227569612E-04 -1.81652286140E-03 +6.69907028150E-04 +5.56967399056E-01 -2.59497219975E-01
2.88500000000E+09 +3.48049333777E-01 -3.70466954731E-01 -1.63053714972E-03 +1.10403905071E-03 -1.55167671076E-03 +1.06550014159E-03 +5.34609685644E-01 -2.78580570248E-01
2.89000000000E+09 +3.20080214533E-01 -3.78619268561E-01 -1.37973483303E-03 +8.60900678743E-04 -1.32657100706E-03 +7.82636981224E-04 +5.09127911292E-01 -2.97234162673E-01
2.89500000000E+09 +2.89958145074E-01 -3.84855472491E-01 -1.80420032182E-03 +8.38618503722E-04 -1.80434766358E-03 +7.34225148069E-04 +4.82052699792E-01 -3.14245245972E-01
2.90000000000E+09 +2.58457316262E-01 -3.87827179913E-01 -1.97165649820E-03 +1.44463017321E-03 -2.04500590919E-03 +1.35849729780E-03 +4.53733641836E-01 -3.30573674419E-01
2.90500000000E+09 +2.26281760585E-01 -3.88338474173E-01 -1.82841814945E-03 +2.01709919523E-03 -1.84710399657E-03 +2.14122787035E-03 +4.24208302107E-01 -3.46145912155E-01
2.91000000000E+09 +1.93671858558E-01 -3.88216584959E-01 -9.79840894942E-04 +2.25712645440E-03 -8.74296963618E-04 +2.35847731270E-03 +3.92902693874E-01 -3.60562041216E-01
2.91500000000E+09 +1.59529632664E-01 -3.86168190263E-01 -9.54351145920E-04 +1.72442557126E-03 -8.64346038147E-04 +1.69499401947E-03 +3.59892043847E-01 -3.73343438386E-01
2.92000000000E+09 +1.24105926153E-01 -3.81608268586E-01 -1.29475058952E-03 +2.03952917690E-03 -1.25608219701E-03 +1.95968651318E-03 +3.25959562671E-01 -3.81749075977E-01
2.92500000000E+09 +8.99877017663E-02 -3.74446890708E-01 -1.01945764076E-03 +2.35881666245E-03 -1.09459935017E-03 +2.18277856675E-03 +2.91849307357E-01 -3.90192634274E-01
2.93000000000E+09 +5.67617414366E-02 -3.65749858883E-01 -1.00876207003E-03 +2.75038735706E-03 -1.17140918057E-03 +2.67935325686E-03 +2.55134615886E-01 -3.96714511112E-01
2.93500000000E+09 +2.41230365931E-02 -3.55997827125E-01 -1.90649281336E-04 +3.48864755291E-03 -3.00105174778E-04 +3.58999895037E-03 +2.16220649662E-01 -4.02364554564E-01
2.94000000000E+09 -8.46208048931E-03 -3.44340418663E-01 +7.51402610687E-04 +3.01401301047E-03 +6.85416549645E-04 +2.96421773814E-03 +1.75483789279E-01 -4.04297861768E-01
2.94500000000E+09 -4.05716944981E-02 -3.29642722416E-01 +5.28466891918E-04 +2.55921084536E-03 +4.47555244525E-04 +2.53926112962E-03 +1.35247460843E-01 -4.03009542096E-01
2.95000000000E+09 -7.17161120629E-02 -3.12348889312E-01 +6.35421537408E-04 +2.94455276132E-03 +4.82380939460E-04 +2.95900053024E-03 +9.65062605059E-02 -4.00294669379E-01
2.95500000000E+09 -1.00980314418E-01 -2.91772011454E-01 +1.34895883430E-03 +3.11161445199E-03 +1.25448793136E-03 +3.24460055578E-03 +5.60660210207E-02 -3.95152828267E-01
2.96000000000E+09 -1.28402501950E-01 -2.69591645456E-01 +2.04559553009E-03 +2.66177260622E-03 +2.13773791129E-03 +2.75132355559E-03 +1.51690855549E-02 -3.86177715611E-01
2.96500000000E+09 -1.55536584003E-01 -2.45122157335E-01 +2.02827750277E-03 +1.88208968349E-03 +2.11730634222E-03 +1.83919848370E-03 -2.58450387640E-02 -3.73832317306E-01
2.97000000000E+09 -1.80116360886E-01 -2.17473783071E-01 +1.62837060209E-03 +1.94743926281E-03 +1.64274620132E-03 +1.93064979300E-03 -6.62740261032E-02 -3.58757959211E-01
2.97500000000E+09 -2.02218458513E-01 -1.89220608412E-01 +1.75525608483E-03 +2.68764501589E-03 +1.67742571891E-03 +2.60340313917E-03 -1.06565452786E-01 -3.41084215918E-01
2.98000000000E+09 -2.23134591686E-01 -1.60292976804E-01 +2.96736245966E-03 +2.64507202117E-03 +2.77147319031E-03 +2.73876305622E-03 -1.45402503968E-01 -3.20255234618E-01
2.98500000000E+09 -2.42507315862E-01 -1.30349365180E-01 +3.79081851497E-03 +1.79696266373E-03 +3.78818254058E-03 +2.03576486647E-03 -1.82630334141E-01 -2.96638262581E-01
2.99000000000E+09 -2.60133792553E-01 -9.89119602378E-02 +3.74209735902E-03 +6.99783898480E-04 +4.03131923569E-03 +8.37332579003E-04 -2.18091562806E-01 -2.68920156556E-01
2.99500000000E+09 -2.74547302943E-01 -6.74716684415E-02 +3.13115162834E-03 +4.38864691096E-04 +3.28846930724E-03 +4.07345747113E-04 -2.50629648645E-01 -2.38102520072E-01
3.00000000000E+09 -2.87437959420E-01 -3.63078049915E-02 +3.34135237741E-03 +5.96945890434E-04 +3.43208627205E-03 +4.51080241250E-04 -2.79850908754E-01 -2.06187771081E-01
3.00500000000E+09 -2.97717493328E-01 -5.14962725556E-03 +3.86111360933E-03 +4.09537650430E-04 +3.74618473687E-03 +2.66109775777E-04 -3.08980898898E-01 -1.72795647824E-01
3.01000000000E+09 -3.05808392402E-01 +2.56495628856E-02 +4.56559757256E-03 -6.22525865274E-04 +4.39281135578E-03 -5.49351754313E-04 -3.34753220424E-01 -1.36930629177E-01
3.01500000000E+09 -3.11726558968E-01 +5.60225218936E-02 +4.06825728961E-03 -1.87002393189E-03 +4.12309579318E-03 -1.73646626660E-03 -3.58267443862E-01 -9.96576096676E-02
3.02000000000E+09 -3.15388716358E-01 +8.62926905794E-02 +3.16480920188E-03 -2.24921428109E-03 +3.24372709583E-03 -2.20337595846E-03 -3.77552318969E-01 -6.10710910916E-02
3.02500000000E+09 -3.15887718895E-01 +1.16678117661E-01 +2.80755376241E-03 -1.92845040371E-03 +2.89777496293E-03 -1.99214038402E-03 -3.93474018016E-01 -2.25069900306E-02
3.03000000000E+09 -3.13566413757E-01 +1.46115854432E-01 +3.24372262754E-03 -2.33905566814E-03 +3.17978896777E-03 -2.40443885735E-03 -4.08037531968E-01 +1.64755157840E-02
3.03500000000E+09 -3.08634826849E-01 +1.74056346444E-01 +3.00817719654E-03 -3.33305507567E-03 +3.07369932688E-03 -3.27179962536E-03 -4.19686772556E-01 +5.84626116698E-02
3.04000000000E+09 -3.03107078055E-01 +2.01347166656E-01 +1.81090208510E-03 -4.05512195811E-03 +1.99014769011E-03 -4.12400607098E-03 -4.25705967593E-01 +9.91454694056E-02
3.04500000000E+09 -2.95980086003E-01 +2.28844664986E-01 +7.95313491305E-04 -3.70374356629E-03 +7.59256892883E-04 -3.89719319942E-03 -4.30605947570E-01 +1.38612287216E-01
3.05000000000E+09 -2.86736191589E-01 +2.56113678092E-01 +5.70976180750E-04 -3.09569955317E-03 +4.41801416742E-04 -3.15897428947E-03 -4.33516585157E-01 +1.77786901785E-01
3.05500000000E+09 -2.76030334730E-01 +2.82819428726E-01 +9.06879919376E-04 -2.95395198757E-03 +7.37865561786E-04 -3.06436659743E-03 -4.34238607630E-01 +2.16279420518E-01
3.06000000000E+09 -2.63893928603E-01 +3.08179116432E-01 +7.11509187829E-04 -3.88464080200E-03 +4.22654720933E-04 -3.78378789718E-03 -4.31983410766E-01 +2.56117524660E-01
3.06500000000E+09 -2.51453037557E-01 +3.32405767884E-01 -4.47531995344E-04 -4.08048821152E-03 -3.87965489025E-04 -3.79345198673E-03 -4.24631429661E-01 +2.93884170710E-01
3.07000000000E+09 -2.38715353835E-01 +3.55312678532E-01 -1.24910410858E-03 -3.85720963064E-03 -9.52156252739E-04 -3.81759278087E-03 -4.16775129989E-01 +3.27610275040E-01
