# Hz S RI R 50
! CMT, C1220, 16058040, 17.2.0/1
! Date: 15/08/2018 10:33:10
! Data: Format (Calibration Info)
! Freq                      S11: Re/Im (F2)                       S21: Re/Im (F2)                       S12: Re/Im (F2)                       S22: Re/Im (F2)            
2.50000000000E+09 +5.80121673559E-01 +6.67178778624E-01 -2.65713166587E-04 +5.36684580600E-05 -3.25763491389E-04 +8.26539657633E-05 +5.65481768487E-01 +7.22151158437E-01
2.50500000000E+09 +5.87540692968E-01 +6.59052319344E-01 -2.36175510907E-04 +9.13187859069E-05 -1.87277237267E-04 +1.36051922098E-04 +5.71032428360E-01 +7.16675535692E-01
2.51000000000E+09 +5.95296490301E-01 +6.50785857250E-01 -1.69104953268E-04 +1.18004231537E-04 -1.85390128781E-04 +1.37431154568E-04 +5.76700345118E-01 +7.11561223856E-01
2.51500000000E+09 +6.02792752579E-01 +6.42635577373E-01 -1.69813412334E-04 +5.46191497727E-05 -1.55820804282E-04 +5.82527336199E-05 +5.82018421280E-01 +7.06174006327E-01
2.52000000000E+09 +6.09666442747E-01 +6.34579545491E-01 -1.88829692200E-04 +1.40177846698E-04 -2.35713226553E-04 +1.22177683700E-04 +5.87331080357E-01 +7.00143972785E-01
2.52500000000E+09 +6.15685815672E-01 +6.27162887772E-01 -8.28383937695E-05 +1.63127867494E-04 -7.01824558626E-05 +1.19204802106E-04 +5.92876682626E-01 +6.93822334826E-01
2.53000000000E+09 +6.21118400126E-01 +6.19892023032E-01 -7.86277655946E-05 +1.17657954754E-04 -1.00570883518E-04 +1.09511788454E-04 +5.99065723717E-01 +6.86751374465E-01
2.53500000000E+09 +6.25874557265E-01 +6.12824502219E-01 -6.12431780024E-05 +1.56559622776E-04 -5.50858548133E-05 +1.16737427144E-04 +6.05006486117E-01 +6.80185492754E-01
2.54000000000E+09 +6.30318000545E-01 +6.05775696850E-01 -6.75196227591E-05 +8.64784804671E-05 -8.87988600574E-05 +6.19143093360E-05 +6.11009652702E-01 +6.73457002908E-01
2.54500000000E+09 +6.35002736108E-01 +5.98544178698E-01 -2.38771021715E-04 +7.27403126276E-05 -2.53009114709E-04 +1.51192880803E-04 +6.16699241840E-01 +6.67305158734E-01
2.55000000000E+09 +6.40087979536E-01 +5.90873003555E-01 -2.10045819124E-04 +1.99365744773E-04 -1.84617538722E-04 +2.00328104202E-04 +6.22127335156E-01 +6.61091352442E-01
2.55500000000E+09 +6.45664352058E-01 +5.82593137299E-01 -6.42470916158E-05 +2.93044966206E-04 -9.79998126448E-05 +3.83481948169E-04 +6.27211930535E-01 +6.54555040911E-01
2.56000000000E+09 +6.52020118257E-01 +5.74507992172E-01 +3.84927353821E-05 +2.61484090747E-04 +3.31948523656E-05 +3.56227004937E-04 +6.32119702674E-01 +6.47265834381E-01
2.56500000000E+09 +6.58897982186E-01 +5.65794178397E-01 +9.67761678612E-05 +2.06934576764E-04 +1.22770024986E-04 +1.81028119600E-04 +6.37246658792E-01 +6.39961901948E-01
2.57000000000E+09 +6.65968545101E-01 +5.57064349481E-01 +1.44729765718E-05 +1.54628985323E-04 +6.14163288087E-05 +1.22323575138E-04 +6.42589138010E-01 +6.32021404310E-01
2.57500000000E+09 +6.72667382728E-01 +5.48288134760E-01 -4.68810377447E-05 +1.47513723494E-04 -7.06033140679E-05 +1.21944315703E-04 +6.48100632859E-01 +6.24491785152E-01
2.58000000000E+09 +6.78453897194E-01 +5.39929137373E-01 -7.11037037499E-05 +2.67949880585E-04 -9.37590668173E-06 +1.95750525522E-04 +6.53202610519E-01 +6.16780499448E-01
2.58500000000E+09 +6.83824484302E-01 +5.31925374404E-01 +2.56629136885E-05 +3.33625605737E-04 +1.28822366504E-05 +2.78645503579E-04 +6.57941007793E-01 +6.09242232681E-01
2.59000000000E+09 +6.88574360049E-01 +5.24104501754E-01 +1.98048290955E-04 +3.06648395285E-04 +1.28425151625E-04 +2.74876120846E-04 +6.62784229831E-01 +6.01792235865E-01
2.59500000000E+09 +6.93215002796E-01 +5.16076240939E-01 +2.82336266282E-04 +2.08775916804E-04 +2.30995680831E-04 +2.48445126480E-04 +6.67534359849E-01 +5.93748014448E-01
2.60000000000E+09 +6.97261375695E-01 +5.07207978194E-01 +2.79271067186E-04 +2.10867803090E-04 +2.62859480749E-04 +1.78859275518E-04 +6.72609561344E-01 +5.85484584713E-01
2.60500000000E+09 +7.01447100569E-01 +4.97459011476E-01 +3.12716646218E-04 +1.83081431929E-04 +3.32521615456E-04 +1.62692320102E-04 +6.77864806296E-01 +5.77010350361E-01
2.61000000000E+09 +7.05732654454E-01 +4.86558955595E-01 +2.96478207875E-04 +8.70114756130E-05 +3.15556744358E-04 +6.06180955431E-05 +6.83010514555E-01 +5.68406804155E-01
2.61500000000E+09 +7.10583047209E-01 +4.74508251378E-01 +4.05064312919E-04 -4.02185181470E-05 +4.23389265493E-04 -2.88823930004E-06 +6.87849904963E-01 +5.59802675244E-01
2.62000000000E+09 +7.15293659954E-01 +4.61297797833E-01 +2.49654729817E-04 -1.37552159126E-04 +2.13326277176E-04 -1.56875433984E-04 +6.92803827202E-01 +5.50832496930E-01
2.62500000000E+09 +7.20229484965E-01 +4.47353829832E-01 +7.54436342273E-05 -4.31832111446E-05 +8.10076470485E-05 -6.78619609680E-05 +6.97263813697E-01 +5.42015213315E-01
2.63000000000E+09 +7.24708539310E-01 +4.33407544496E-01 +1.42252854597E-04 +7.99336369609E-05 +2.13370899956E-04 +4.68794302713E-05 +7.01696600231E-01 +5.33137584107E-01
2.63500000000E+09 +7.28605067882E-01 +4.19700720236E-01 +2.96078256888E-04 -6.60724431133E-06 +2.25916257824E-04 -2.11603509514E-05 +7.06305206975E-01 +5.24165913123E-01
2.64000000000E+09 +7.32125391993E-01 +4.06870815465E-01 +3.98859428129E-04 -3.91385313838E-05 +3.06158747576E-04 -3.44772518881E-05 +7.10972560017E-01 +5.14770523627E-01
2.64500000000E+09 +7.35433492005E-01 +3.94964850009E-01 +3.09151523079E-04 -2.82976356259E-04 +3.01115779969E-04 -2.00061459575E-04 +7.15618387311E-01 +5.05250073319E-01
2.65000000000E+09 +7.37988221772E-01 +3.83820141698E-01 +1.91073418755E-04 -1.86071892311E-04 +1.71052253039E-04 -1.60168655193E-04 +7.19923591818E-01 +4.95231281214E-01
2.65500000000E+09 +7.40847732993E-01 +3.72729284130E-01 +1.44157892018E-04 -1.86046882446E-04 +1.86785479732E-04 -1.82385108165E-04 +7.23924243161E-01 +4.84910807258E-01
2.66000000000E+09 +7.43631142596E-01 +3.61395199721E-01 +1.21894486121E-04 -1.30285607261E-04 +1.80462336021E-04 -1.80455751230E-04 +7.27910009849E-01 +4.73950581062E-01
2.66500000000E+09 +7.46234839631E-01 +3.49686600123E-01 +1.63826520587E-04 -1.98531220631E-04 +1.81936103034E-04 -1.88183832829E-04 +7.32226284191E-01 +4.63175546124E-01
2.67000000000E+09 +7.48982386515E-01 +3.37028088515E-01 +2.17542025156E-04 -2.72125623896E-04 +1.61986912298E-04 -2.96394514703E-04 +7.36921141400E-01 +4.52325624714E-01
2.67500000000E+09 +7.51584373914E-01 +3.22991101194E-01 +1.10969417338E-04 -2.83165519672E-04 +1.22854475817E-04 -2.67637713705E-04 +7.40988195011E-01 +4.41176000995E-01
2.68000000000E+09 +7.53434362702E-01 +3.08259276689E-01 +1.69607975295E-04 -3.64389154754E-04 +1.19511581944E-04 -3.14742158413E-04 +7.44912343534E-01 +4.30330003769E-01
2.68500000000E+09 +7.54929267520E-01 +2.93466562034E-01 +4.43118728745E-05 -4.31047045705E-04 +4.65588631277E-05 -4.08049699034E-04 +7.48493404883E-01 +4.18701761840E-01
2.69000000000E+09 +7.56237755523E-01 +2.78835916958E-01 -5.54127984690E-05 -4.37734071662E-04 -8.95011406262E-05 -4.02265382504E-04 +7.50928561118E-01 +4.06608258192E-01
2.69500000000E+09 +7.57450015774E-01 +2.64700286899E-01 -1.77790766735E-04 -4.24245835277E-04 -1.38663468858E-04 -4.24701037133E-04 +7.53622611090E-01 +3.94139253194E-01
2.70000000000E+09 +7.58763237310E-01 +2.50867742677E-01 -3.05649553685E-04 -4.90533211924E-04 -2.96868477215E-04 -4.94146211817E-04 +7.56410726911E-01 +3.81244014074E-01
2.70500000000E+09 +7.60046256920E-01 +2.37207134847E-01 -4.75761341894E-04 -2.15018019540E-04 -4.46157927762E-04 -2.27428941440E-04 +7.59447096075E-01 +3.68007975217E-01
2.71000000000E+09 +7.60922511540E-01 +2.23707603059E-01 -3.41586766988E-04 -9.07082639744E-05 -3.63149011379E-04 -1.03913126240E-04 +7.62088810827E-01 +3.54987219741E-01
2.71500000000E+09 +7.62195182875E-01 +2.09833317563E-01 -2.89068892076E-04 -1.54544729958E-04 -3.49906467753E-04 -1.55241200018E-04 +7.64589640126E-01 +3.42585153920E-01
2.72000000000E+09 +7.63011044039E-01 +1.95134543876E-01 -4.87203871606E-04 -1.78382845455E-04 -5.52655246759E-04 -2.28852595811E-04 +7.66426729535E-01 +3.29850191679E-01
2.72500000000E+09 +7.63336068239E-01 +1.79468044608E-01 -6.56381978798E-04 -3.35057408626E-05 -6.67224510873E-04 +1.01744943101E-05 +7.67438566364E-01 +3.16746144548E-01
2.73000000000E+09 +7.62611924291E-01 +1.62657751665E-01 -7.89469741442E-04 +2.65188618991E-04 -6.20397946180E-04 +3.35881705694E-04 +7.68562232801E-01 +3.03126891387E-01
2.73500000000E+09 +7.60825665680E-01 +1.44610589887E-01 -6.60444636710E-04 +6.21495994655E-04 -5.33344094455E-04 +5.48259528348E-04 +7.69613759487E-01 +2.89058471900E-01
2.74000000000E+09 +7.57923621014E-01 +1.26887338662E-01 -2.09358494407E-04 +7.94991276696E-04 -2.23963471866E-04 +6.96052579704E-04 +7.71737895482E-01 +2.74232268097E-01
2.74500000000E+09 +7.54027698423E-01 +1.08843293327E-01 +7.06133442099E-05 +5.97079918055E-04 +3.95719412025E-06 +6.04565720947E-04 +7.73220684439E-01 +2.59051286655E-01
2.75000000000E+09 +7.49618880200E-01 +9.10610656915E-02 +1.60358954763E-04 +5.68778638554E-04 +1.15638377697E-04 +6.06706996345E-04 +7.74119465055E-01 +2.43967254139E-01
2.75500000000E+09 +7.44597730640E-01 +7.33735456138E-02 +1.82905598574E-04 +4.84883119637E-04 +2.09205566189E-04 +4.82550852778E-04 +7.74282474812E-01 +2.29220504298E-01
2.76000000000E+09 +7.39855457710E-01 +5.60914446478E-02 +1.95598980931E-04 +6.04174958993E-04 +2.11105641446E-04 +6.32997752472E-04 +7.74388337817E-01 +2.14022819340E-01
2.76500000000E+09 +7.34719793616E-01 +3.80840525973E-02 +5.89376065585E-04 +5.42940971535E-04 +6.80731279435E-04 +6.07444040279E-04 +7.73826576857E-01 +1.97178599556E-01
2.77000000000E+09 +7.29244554942E-01 +1.99164596552E-02 +6.23991144615E-04 +2.27386465968E-04 +6.57168561398E-04 +1.76608105105E-04 +7.72842913152E-01 +1.80040613942E-01
2.77500000000E+09 +7.24069510193E-01 +1.13100860334E-03 +5.43392951807E-04 +2.07388408025E-04 +5.50030052919E-04 +1.95824703997E-04 +7.71418599794E-01 +1.61938205463E-01
2.78000000000E+09 +7.18739475925E-01 -1.90164850813E-02 +7.20918002934E-04 +1.88746983057E-04 +7.27339358980E-04 +1.52721297168E-04 +7.69830260262E-01 +1.44027237652E-01
2.78500000000E+09 +7.12304093442E-01 -4.00879963439E-02 +9.37611509503E-04 +4.09875459172E-05 +8.97200088054E-04 -3.31396300584E-05 +7.67342001885E-01 +1.25873974763E-01
2.79000000000E+09 +7.05551598324E-01 -6.19200751913E-02 +9.14926341241E-04 -3.64275441086E-04 +9.40099746281E-04 -4.19746207261E-04 +7.63991381933E-01 +1.08636673029E-01
2.79500000000E+09 +6.97024197085E-01 -8.39930353399E-02 +7.29689050527E-04 -6.49616906149E-04 +7.01728605543E-04 -6.35729425549E-04 +7.59979925745E-01 +9.08769899034E-02
2.80000000000E+09 +6.87334547848E-01 -1.04711871020E-01 +3.24562252727E-04 -7.81007037508E-04 +2.95002556583E-04 -7.15170505447E-04 +7.55211290163E-01 +7.24777188296E-02
2.80500000000E+09 +6.77635245890E-01 -1.24031213957E-01 +2.29505210208E-04 -4.98888568889E-04 +2.41269635950E-04 -4.76165364598E-04 +7.49461868332E-01 +5.33247667839E-02
2.81000000000E+09 +6.67288631114E-01 -1.42281018940E-01 +4.13249814805E-04 -5.28599205910E-04 +4.43331147547E-04 -4.93933381366E-04 +7.43031107675E-01 +3.42047988564E-02
2.81500000000E+09 +6.56437099286E-01 -1.59561858831E-01 +3.36936689657E-04 -8.29390927994E-04 +3.65859935946E-04 -8.60331499041E-04 +7.36432271109E-01 +1.47202955636E-02
2.82000000000E+09 +6.44972444993E-01 -1.76660687579E-01 +1.25657550614E-04 -8.37571316535E-04 +7.29460918458E-05 -7.72757846771E-04 +7.29061377308E-01 -4.80555118524E-03
2.82500000000E+09 +6.31923422817E-01 -1.93519666710E-01 +1.75496215746E-04 -8.09543464180E-04 +1.13841609858E-04 -8.07177669745E-04 +7.21306169843E-01 -2.42844136360E-02
2.83000000000E+09 +6.17331291474E-01 -2.10730713674E-01 +6.86085652550E-05 -9.74512118907E-04 +7.47817100137E-05 -9.07595740869E-04 +7.12644685510E-01 -4.44990899425E-02
2.83500000000E+09 +6.01023641738E-01 -2.28451376873E-01 -8.62011030990E-05 -1.09372686379E-03 -6.12090985446E-05 -1.07115379705E-03 +7.02500285769E-01 -6.48518734185E-02
2.84000000000E+09 +5.82687970540E-01 -2.46772788098E-01 -3.80106284675E-04 -1.30655248422E-03 -3.54184204241E-04 -1.24277752422E-03 +6.91477794427E-01 -8.56985392079E-02
2.84500000000E+09 +5.61941766226E-01 -2.65639487870E-01 -8.30027380993E-04 -1.16334201877E-03 -7.98855093344E-04 -1.20181232048E-03 +6.79362583558E-01 -1.06311902753E-01
2.85000000000E+09 +5.40135641515E-01 -2.84080629088E-01 -9.66209594584E-04 -7.99268334333E-04 -9.73151755298E-04 -8.08641369197E-04 +6.65989222236E-01 -1.27494832683E-01
2.85500000000E+09 +5.16698923230E-01 -3.02897506247E-01 -9.74074655525E-04 -6.97666486051E-04 -9.71888204685E-04 -6.55735470750E-04 +6.51103481720E-01 -1.48270526035E-01
2.86000000000E+09 +4.92780502189E-01 -3.20674664723E-01 -8.07512627134E-04 -7.14239634499E-04 -7.74447511104E-04 -7.22429773533E-04 +6.35331671635E-01 -1.69210845511E-01
2.86500000000E+09 +4.68138143215E-01 -3.37355776634E-01 -1.16265323615E-03 -8.96039030020E-04 -1.14754598783E-03 -9.06622975339E-04 +6.17608229412E-01 -1.90207476815E-01
2.87000000000E+09 +4.43794778070E-01 -3.52424715686E-01 -1.51404385135E-03 -9.52318490496E-04 -1.46943047734E-03 -9.22269330424E-04 +5.98091476151E-01 -2.10603185454E-01
2.87500000000E+09 +4.19241572400E-01 -3.66678105194E-01 -2.36646848110E-03 -8.93744375178E-04 -2.42585780986E-03 -8.82204751142E-04 +5.77736806602E-01 -2.29784016250E-01
2.88000000000E+09 +3.94229386493E-01 -3.79380150686E-01 -2.96272423330E-03 +1.86095529109E-04 -2.83660780333E-03 +2.91353327548E-04 +5.56291427869E-01 -2.49419179262E-01
2.88500000000E+09 +3.68234958902E-01 -3.91150182514E-01 -2.60899858045E-03 +1.40332371641E-03 -2.42295363394E-03 +1.35813600227E-03 +5.32718065517E-01 -2.68068001562E-01
2.89000000000E+09 +3.41157509589E-01 -4.01617516393E-01 -1.63786526700E-03 +1.79352681521E-03 -1.58193200679E-03 +1.61162957643E-03 +5.06932901187E-01 -2.85900305204E-01
2.89500000000E+09 +3.11520191041E-01 -4.11456442647E-01 -1.35013039389E-03 +1.54030420113E-03 -1.40156836962E-03 +1.44220537191E-03 +4.80020417543E-01 -3.02724414294E-01
2.90000000000E+09 +2.80065093498E-01 -4.19293776044E-01 -1.42448406357E-03 +1.91612192739E-03 -1.51000318784E-03 +1.84233776019E-03 +4.51613528397E-01 -3.18921917934E-01
2.90500000000E+09 +2.46235766526E-01 -4.25489113419E-01 -1.02269513277E-03 +2.11467397348E-03 -1.04119548728E-03 +2.13091703931E-03 +4.21827693093E-01 -3.34381412511E-01
2.91000000000E+09 +2.11654233360E-01 -4.29373409973E-01 -8.07550136718E-04 +2.18556459251E-03 -7.96215485996E-04 +2.20243788834E-03 +3.90541619040E-01 -3.47479490538E-01
2.91500000000E+09 +1.76318424366E-01 -4.32312785913E-01 -3.83297595862E-04 +2.50778412171E-03 -2.77927544812E-04 +2.40817216089E-03 +3.59369320072E-01 -3.58954338574E-01
2.92000000000E+09 +1.39988662976E-01 -4.32737098797E-01 -7.87863577091E-05 +2.47185815915E-03 -3.93875026502E-05 +2.29852789256E-03 +3.26339124796E-01 -3.69607414607E-01
2.92500000000E+09 +1.04373229854E-01 -4.31325809240E-01 +2.16691182814E-04 +2.95683603327E-03 +8.42185651487E-05 +2.84279780597E-03 +2.90344461129E-01 -3.77421731718E-01
2.93000000000E+09 +6.91699869770E-02 -4.27942063946E-01 +1.24567099193E-03 +2.76592677114E-03 +1.10389262073E-03 +2.75922218880E-03 +2.53356388858E-01 -3.83183354596E-01
2.93500000000E+09 +3.48970378283E-02 -4.22578045572E-01 +1.72078792159E-03 +2.62881044035E-03 +1.64331241912E-03 +2.63555736254E-03 +2.15333649662E-01 -3.86567796246E-01
2.94000000000E+09 +1.25962997861E-03 -4.16373569753E-01 +2.59955076751E-03 +1.80766876860E-03 +2.59349831553E-03 +1.89360234585E-03 +1.76740110681E-01 -3.88201243463E-01
2.94500000000E+09 -3.43736911175E-02 -4.07469880387E-01 +2.06971860422E-03 +1.10210603151E-03 +2.02164352894E-03 +1.18627379231E-03 +1.38292386433E-01 -3.88460789119E-01
2.95000000000E+09 -6.91664021859E-02 -3.94149991969E-01 +1.93087175144E-03 +9.81651721628E-04 +1.89146820307E-03 +1.06136856478E-03 +9.83191541237E-02 -3.86450242927E-01
2.95500000000E+09 -1.02335856060E-01 -3.77699814506E-01 +2.19996655000E-03 +1.13408568480E-03 +2.18636773898E-03 +1.23623882072E-03 +5.76396360803E-02 -3.79654499903E-01
2.96000000000E+09 -1.34533889892E-01 -3.59286993147E-01 +2.38112487608E-03 +7.83653468815E-04 +2.50838533512E-03 +8.20629685851E-04 +1.87559910618E-02 -3.69654920974E-01
2.96500000000E+09 -1.66738768772E-01 -3.38197611437E-01 +2.72140415946E-03 +6.90066879009E-04 +2.83082834310E-03 +7.07280807690E-04 -2.12440767786E-02 -3.57880125478E-01
2.97000000000E+09 -1.97170822370E-01 -3.13285504121E-01 +3.24852759171E-03 -6.57913676462E-05 +3.29665090825E-03 -1.39959340834E-04 -6.00984183159E-02 -3.42324835026E-01
2.97500000000E+09 -2.25062242536E-01 -2.87618274391E-01 +2.98539188675E-03 -9.57956787399E-04 +2.90593113664E-03 -9.27586274012E-04 -9.88372695095E-02 -3.25647111065E-01
2.98000000000E+09 -2.52664350310E-01 -2.60619134829E-01 +2.64212984304E-03 -1.15495551187E-03 +2.58969580173E-03 -1.11346527131E-03 -1.35770425106E-01 -3.05094316973E-01
2.98500000000E+09 -2.78102704481E-01 -2.31382217438E-01 +2.40973598553E-03 -1.62474703879E-03 +2.52558513340E-03 -1.50975272507E-03 -1.71263062197E-01 -2.83017464928E-01
2.99000000000E+09 -3.01680018449E-01 -2.01703754508E-01 +1.97032147692E-03 -1.98242908158E-03 +2.09325796357E-03 -1.96804720466E-03 -2.05111764163E-01 -2.57558749845E-01
2.99500000000E+09 -3.25102464137E-01 -1.71301991030E-01 +1.97060488275E-03 -1.85533652142E-03 +1.92203923685E-03 -2.00739234699E-03 -2.37696060047E-01 -2.29912865539E-01
3.00000000000E+09 -3.45855684306E-01 -1.37904242739E-01 +1.99819837849E-03 -2.42860928590E-03 +1.86672480498E-03 -2.55090359704E-03 -2.68947243889E-01 -1.98271741894E-01
3.00500000000E+09 -3.63561748353E-01 -1.05057421973E-01 +1.37850381571E-03 -3.18022483522E-03 +1.19043204005E-03 -3.09927390223E-03 -2.96720419640E-01 -1.64929050015E-01
3.01000000000E+09 -3.80091580544E-01 -7.17334052449E-02 +4.26930036204E-04 -3.32088127993E-03 +4.45011554501E-04 -3.09382594364E-03 -3.22416022490E-01 -1.30214990621E-01
3.01500000000E+09 -3.93390819945E-01 -3.73944307369E-02 +1.34445910355E-04 -3.25196850989E-03 +1.63437617024E-04 -3.14894749612E-03 -3.44920285723E-01 -9.53943599531E-02
3.02000000000E+09 -4.04082865499E-01 -3.57354883150E-03 -7.33090014812E-04 -3.23032990308E-03 -6.54868313980E-04 -3.23042905245E-03 -3.65826225592E-01 -5.94506183693E-02
3.02500000000E+09 -4.12372707606E-01 +3.02102768349E-02 -1.17656773832E-03 -2.85048769483E-03 -1.16852846537E-03 -2.90713339930E-03 -3.83532524086E-01 -2.07599270485E-02
3.03000000000E+09 -4.17461215511E-01 +6.49518172907E-02 -1.70190975523E-03 -2.59703220120E-03 -1.65337432811E-03 -2.50553409548E-03 -3.97233264741E-01 +1.77809403080E-02
3.03500000000E+09 -4.18302834908E-01 +9.80813875463E-02 -1.80710677349E-03 -1.76844132881E-03 -1.74080847182E-03 -1.79289854279E-03 -4.08929375349E-01 +5.72447987379E-02
3.04000000000E+09 -4.18371262726E-01 +1.30082554530E-01 -1.76446265172E-03 -2.01598903068E-03 -1.65690270960E-03 -2.09462622670E-03 -4.17400297312E-01 +9.71809979796E-02
3.04500000000E+09 -4.16478228194E-01 +1.63124121002E-01 -2.11762540176E-03 -1.71726703680E-03 -2.21568908594E-03 -1.87868592177E-03 -4.23103507046E-01 +1.36821720197E-01
3.05000000000E+09 -4.10985399963E-01 +1.96525717834E-01 -2.62061483233E-03 -1.56175436022E-03 -2.78402888189E-03 -1.57116456326E-03 -4.26130175393E-01 +1.75546039883E-01
3.05500000000E+09 -4.03637259205E-01 +2.28860182311E-01 -3.08669484594E-03 -7.26509101230E-04 -3.18953975799E-03 -5.48504976399E-04 -4.26785939471E-01 +2.13846053776E-01
3.06000000000E+09 -3.94539998895E-01 +2.60980456932E-01 -2.94985031611E-03 +1.77637382919E-04 -2.86294255982E-03 +2.87262201931E-04 -4.24836459031E-01 +2.50846190702E-01
3.06500000000E+09 -3.83849351615E-01 +2.91720223325E-01 -2.45894740099E-03 +5.07057445914E-04 -2.26949656746E-03 +5.26149003304E-04 -4.20825279399E-01 +2.87149519871E-01
3.07000000000E+09 -3.72364459419E-01 +3.21987830345E-01 -2.04233484500E-03 +8.13221281130E-04 -2.06010287607E-03 +6.73261004215E-04 -4.15152723794E-01 +3.22699156886E-01
