# Hz S RI R 50
! CMT, C1220, 16058040, 17.2.0/1
! Date: 15/08/2018 09:54:47
! Data: Format (Calibration Info)
! Freq                      S11: Re/Im (F2)                       S21: Re/Im (F2)                       S12: Re/Im (F2)                       S22: Re/Im (F2)            
2.50000000000E+09 +5.98420072258E-01 +6.29161759056E-01 -4.59799880954E-04 -7.93179756918E-04 -4.80369797742E-04 -8.81330041468E-04 +5.78170031158E-01 +7.13331531118E-01
2.50500000000E+09 +6.04588335450E-01 +6.22178034481E-01 -5.06556776438E-04 -6.90035160939E-04 -5.74425751382E-04 -7.56177583472E-04 +5.83787720243E-01 +7.07754718889E-01
2.51000000000E+09 +6.11064425588E-01 +6.14755269968E-01 -5.36665261124E-04 -6.74337200172E-04 -5.75911074631E-04 -6.24082317314E-04 +5.89280071384E-01 +7.02567602534E-01
2.51500000000E+09 +6.17556591008E-01 +6.07256371649E-01 -6.00344825317E-04 -6.82580049415E-04 -5.91395341549E-04 -6.26711086881E-04 +5.94508624638E-01 +6.97189149889E-01
2.52000000000E+09 +6.23641558552E-01 +5.99414455801E-01 -6.90252007523E-04 -6.88105644441E-04 -7.02578232530E-04 -6.60294221176E-04 +5.99536777475E-01 +6.91246959136E-01
2.52500000000E+09 +6.29206010917E-01 +5.91735009521E-01 -8.55927352589E-04 -5.19145462122E-04 -8.39272909907E-04 -5.79136211087E-04 +6.05334526362E-01 +6.84704058326E-01
2.53000000000E+09 +6.34259163535E-01 +5.84290589936E-01 -9.31321902136E-04 -3.16178662914E-04 -9.26095352535E-04 -3.84333367434E-04 +6.11485685364E-01 +6.77345659932E-01
2.53500000000E+09 +6.38995960072E-01 +5.77171352064E-01 -7.52942284975E-04 -2.86691293505E-04 -7.46947548601E-04 -2.19757740476E-04 +6.17412417927E-01 +6.70196302983E-01
2.54000000000E+09 +6.43413995617E-01 +5.70402283089E-01 -8.23843847594E-04 -2.99784431494E-04 -8.12391018997E-04 -3.24273674500E-04 +6.23283529230E-01 +6.63586753792E-01
2.54500000000E+09 +6.48167912613E-01 +5.63628562203E-01 -9.55555949432E-04 -2.97186528129E-04 -9.46312182942E-04 -3.46682233385E-04 +6.29177382669E-01 +6.56963449081E-01
2.55000000000E+09 +6.52845109160E-01 +5.56677504614E-01 -1.01037137151E-03 -5.14295169312E-05 -1.11311004088E-03 -1.97757021189E-04 +6.34114446094E-01 +6.50746146833E-01
2.55500000000E+09 +6.57927751508E-01 +5.49290956807E-01 -9.56707636872E-04 +7.51114246102E-05 -1.08472149078E-03 +6.38257122637E-05 +6.39167474322E-01 +6.44181454613E-01
2.56000000000E+09 +6.63453973518E-01 +5.42000912441E-01 -8.37673462276E-04 +1.33667298426E-04 -1.02325255748E-03 +2.21291051432E-04 +6.44245536525E-01 +6.36887951954E-01
2.56500000000E+09 +6.69402106776E-01 +5.33899736550E-01 -7.79943544469E-04 +8.16303282785E-05 -8.22419057036E-04 +2.46571540078E-04 +6.49345646800E-01 +6.29340097928E-01
2.57000000000E+09 +6.75553618457E-01 +5.25590227810E-01 -9.32654790277E-04 -1.46381079829E-05 -8.80013503733E-04 +1.42685728723E-04 +6.54927727066E-01 +6.21285651812E-01
2.57500000000E+09 +6.81817115375E-01 +5.16830453348E-01 -1.23901072476E-03 +1.86591675210E-04 -1.01172027079E-03 +2.95478382023E-04 +6.60327983977E-01 +6.13418590000E-01
2.58000000000E+09 +6.87299880447E-01 +5.08039809080E-01 -1.10549630660E-03 +5.56497135485E-04 -8.86751020981E-04 +4.85758896001E-04 +6.65323548866E-01 +6.05853670784E-01
2.58500000000E+09 +6.92899620191E-01 +4.99161782973E-01 -8.73314177747E-04 +6.38194400181E-04 -7.53590592846E-04 +5.04664559442E-04 +6.70101181597E-01 +5.98345084682E-01
2.59000000000E+09 +6.97786395435E-01 +4.90581005386E-01 -7.87024150031E-04 +5.23479011481E-04 -8.25321576874E-04 +4.49132628715E-04 +6.74493741758E-01 +5.90898941745E-01
2.59500000000E+09 +7.02351981880E-01 +4.81969771090E-01 -9.18454384101E-04 +5.46378090106E-04 -9.37170103478E-04 +4.86490100388E-04 +6.79028878548E-01 +5.82998796070E-01
2.60000000000E+09 +7.06734941815E-01 +4.73255824170E-01 -9.44764702513E-04 +6.49434387390E-04 -9.56550214000E-04 +6.37737639992E-04 +6.83960382391E-01 +5.74567611918E-01
2.60500000000E+09 +7.11067473058E-01 +4.64210270732E-01 -1.02174048848E-03 +9.25908382244E-04 -1.00273950052E-03 +9.73258381078E-04 +6.88931123435E-01 +5.65543940679E-01
2.61000000000E+09 +7.15294963955E-01 +4.54522059455E-01 -7.74800706057E-04 +1.30944002181E-03 -8.20680538833E-04 +1.26531236732E-03 +6.93948560993E-01 +5.56845578669E-01
2.61500000000E+09 +7.19583855534E-01 +4.44280747542E-01 -4.03770732781E-04 +1.28962596254E-03 -4.98104697422E-04 +1.30637102393E-03 +6.98688576089E-01 +5.48319912583E-01
2.62000000000E+09 +7.23668405014E-01 +4.33250941841E-01 -3.41409078488E-04 +1.19272606304E-03 -3.41359569799E-04 +1.30940154371E-03 +7.03809205848E-01 +5.39376063254E-01
2.62500000000E+09 +7.27980884472E-01 +4.21451963259E-01 -2.36831352193E-04 +1.16506613837E-03 -1.01451112871E-04 +1.26846675059E-03 +7.08260820751E-01 +5.30490868050E-01
2.63000000000E+09 +7.32103688032E-01 +4.08905429702E-01 -5.40766005981E-05 +1.12256192869E-03 +7.58961557350E-05 +1.11047098640E-03 +7.12661490093E-01 +5.21840267947E-01
2.63500000000E+09 +7.35465099856E-01 +3.96287145539E-01 -1.60143753302E-04 +1.07415633282E-03 -3.89897290738E-05 +9.79407328179E-04 +7.17546279522E-01 +5.12456083718E-01
2.64000000000E+09 +7.38842011643E-01 +3.84002552403E-01 +1.00528354447E-05 +1.25585822669E-03 +2.10486950634E-05 +1.07756326276E-03 +7.22242374312E-01 +5.02857317645E-01
2.64500000000E+09 +7.42306818393E-01 +3.72065665480E-01 +2.95256448164E-05 +1.17646054677E-03 -1.44412040124E-05 +1.04806642944E-03 +7.27131194457E-01 +4.92924862269E-01
2.65000000000E+09 +7.45557185414E-01 +3.60450259930E-01 +2.10009337823E-04 +1.30363938955E-03 +5.88957655682E-05 +1.25129486054E-03 +7.31591279100E-01 +4.82748895147E-01
2.65500000000E+09 +7.48805824429E-01 +3.48507740565E-01 +4.06692979379E-04 +1.20501056517E-03 +3.06876304316E-04 +1.29856864461E-03 +7.35183983272E-01 +4.72515116262E-01
2.66000000000E+09 +7.51800402633E-01 +3.36474571008E-01 +4.80110368780E-04 +1.20583221433E-03 +4.99767524356E-04 +1.27770515847E-03 +7.39565470387E-01 +4.61705591576E-01
2.66500000000E+09 +7.54580494496E-01 +3.24544394404E-01 +6.43749858605E-04 +1.11594671356E-03 +7.41989205347E-04 +1.13959781345E-03 +7.43848251205E-01 +4.50396303037E-01
2.67000000000E+09 +7.56894709375E-01 +3.12080019873E-01 +6.41778627616E-04 +1.02004474498E-03 +7.27616477409E-04 +9.64655020595E-04 +7.48072032304E-01 +4.39072230837E-01
2.67500000000E+09 +7.58866774239E-01 +2.98840618051E-01 +7.46053325573E-04 +9.64333085120E-04 +7.59482611286E-04 +8.66410351466E-04 +7.51774802494E-01 +4.27641656937E-01
2.68000000000E+09 +7.59874703085E-01 +2.85334724350E-01 +7.25073369250E-04 +8.23887191498E-04 +6.57220128329E-04 +8.26974796543E-04 +7.55340095594E-01 +4.16352692539E-01
2.68500000000E+09 +7.60791053183E-01 +2.71577486226E-01 +6.74015801506E-04 +8.99771230416E-04 +6.54966885497E-04 +8.77970320407E-04 +7.58372715702E-01 +4.05201282033E-01
2.69000000000E+09 +7.61381250901E-01 +2.57858632437E-01 +8.96880704818E-04 +1.01294215539E-03 +9.02181677004E-04 +9.90485174838E-04 +7.61225248687E-01 +3.93512777725E-01
2.69500000000E+09 +7.62091835537E-01 +2.43990089808E-01 +1.04348357132E-03 +9.10387095134E-04 +1.07295355213E-03 +8.90716953966E-04 +7.64056372439E-01 +3.80634481369E-01
2.70000000000E+09 +7.62744591705E-01 +2.29940262074E-01 +1.15382598385E-03 +8.54302233479E-04 +1.16109873107E-03 +8.28335148443E-04 +7.66649448209E-01 +3.67280269481E-01
2.70500000000E+09 +7.63273688718E-01 +2.15766324286E-01 +1.50633247468E-03 +6.47928135025E-04 +1.46702737475E-03 +6.35640291845E-04 +7.69204995942E-01 +3.53826139716E-01
2.71000000000E+09 +7.63720707694E-01 +2.01865413236E-01 +1.40664174489E-03 +3.29953029164E-04 +1.40866294385E-03 +3.70766288504E-04 +7.72266909783E-01 +3.40643129097E-01
2.71500000000E+09 +7.64793380543E-01 +1.87718927664E-01 +1.14924740471E-03 +2.02695422316E-04 +1.20779410537E-03 +2.43780994925E-04 +7.74734561967E-01 +3.27904864680E-01
2.72000000000E+09 +7.65576624484E-01 +1.73154056408E-01 +1.15936397359E-03 +3.40612175501E-04 +1.26287260432E-03 +2.82885426290E-04 +7.76722424097E-01 +3.15065406192E-01
2.72500000000E+09 +7.65868486952E-01 +1.58054320189E-01 +1.27480758483E-03 +3.48366304261E-04 +1.32650802005E-03 +2.36423213436E-04 +7.77730812985E-01 +3.01759956725E-01
2.73000000000E+09 +7.65540232396E-01 +1.42772292755E-01 +1.38219964638E-03 +3.30906178549E-04 +1.27173613134E-03 +2.04216315037E-04 +7.79141355397E-01 +2.88074567769E-01
2.73500000000E+09 +7.64468060367E-01 +1.26603645146E-01 +1.54327175098E-03 +1.99940147111E-04 +1.30971257775E-03 +1.64432029439E-04 +7.80452483308E-01 +2.73073086075E-01
2.74000000000E+09 +7.62230713963E-01 +1.10674560585E-01 +1.61266208117E-03 +9.21938850130E-05 +1.44383700759E-03 +2.16086346629E-04 +7.81686622513E-01 +2.57261235563E-01
2.74500000000E+09 +7.59507046173E-01 +9.43160235279E-02 +1.67807357265E-03 +6.00407828442E-06 +1.60080985879E-03 +2.29678941886E-04 +7.82406984582E-01 +2.41873085647E-01
2.75000000000E+09 +7.55579878753E-01 +7.78145986058E-02 +1.92636588507E-03 -2.18814305130E-04 +2.04595754435E-03 -2.61938655454E-05 +7.83060864768E-01 +2.26599233210E-01
2.75500000000E+09 +7.50933959675E-01 +6.11919706494E-02 +1.89139409663E-03 -6.01094148997E-04 +2.09600975484E-03 -5.16854211383E-04 +7.82535162474E-01 +2.11498598772E-01
2.76000000000E+09 +7.46336013383E-01 +4.46816064014E-02 +1.79443964468E-03 -6.67871122774E-04 +1.98585877676E-03 -7.50360833668E-04 +7.81998885444E-01 +1.96501489998E-01
2.76500000000E+09 +7.41645527360E-01 +2.79376026170E-02 +1.91191949029E-03 -9.29746532223E-04 +2.03313919506E-03 -9.79020287815E-04 +7.81032076854E-01 +1.79692716911E-01
2.77000000000E+09 +7.37439966742E-01 +1.03508877629E-02 +1.92965112006E-03 -1.22345337118E-03 +2.00579137116E-03 -1.26978520800E-03 +7.79329916059E-01 +1.61947170597E-01
2.77500000000E+09 +7.32782186721E-01 -8.41094731430E-03 +1.63561099081E-03 -1.56661217598E-03 +1.71429756203E-03 -1.71104587741E-03 +7.76708909394E-01 +1.43997551996E-01
2.78000000000E+09 +7.27710298164E-01 -2.78554208382E-02 +1.54484835794E-03 -1.59749565063E-03 +1.49963922526E-03 -1.74807148179E-03 +7.74784585913E-01 +1.26448174281E-01
2.78500000000E+09 +7.21326611707E-01 -4.79446392476E-02 +1.31852711961E-03 -1.82860285850E-03 +1.22726279094E-03 -1.88921914930E-03 +7.72425850462E-01 +1.08724575217E-01
2.79000000000E+09 +7.14258333445E-01 -6.78416827396E-02 +1.43878652491E-03 -1.87063910387E-03 +1.31280651326E-03 -1.89403506036E-03 +7.69248088504E-01 +9.11224921948E-02
2.79500000000E+09 +7.06429726376E-01 -8.71178198336E-02 +1.25022357301E-03 -2.48521146207E-03 +1.20158527436E-03 -2.36008574369E-03 +7.64773067397E-01 +7.34058847536E-02
2.80000000000E+09 +6.97937360543E-01 -1.06545068245E-01 +6.91042085447E-04 -2.66990724051E-03 +7.53521074812E-04 -2.51307236847E-03 +7.59329526631E-01 +5.54873293835E-02
2.80500000000E+09 +6.88493694346E-01 -1.25592900558E-01 +2.17949485161E-04 -2.64071872344E-03 +2.90682039254E-04 -2.66050534542E-03 +7.53903805153E-01 +3.74389974411E-02
2.81000000000E+09 +6.77437604571E-01 -1.43799135863E-01 +1.59509698317E-04 -2.47013524288E-03 +2.15967157239E-04 -2.53982730914E-03 +7.48225230572E-01 +1.76667472518E-02
2.81500000000E+09 +6.65490474994E-01 -1.61219423970E-01 -1.63216963108E-04 -2.61033689142E-03 -2.44142419219E-04 -2.65971702367E-03 +7.40991222205E-01 -2.53302553431E-03
2.82000000000E+09 +6.52561118360E-01 -1.78432343498E-01 -1.82929427746E-04 -2.67237843466E-03 -3.67290317125E-04 -2.66971187899E-03 +7.33119147155E-01 -2.23912778451E-02
2.82500000000E+09 +6.38494892809E-01 -1.95114606676E-01 -7.87891934385E-04 -2.84485102269E-03 -8.65837381555E-04 -2.70022719361E-03 +7.24601743670E-01 -4.18326713242E-02
2.83000000000E+09 +6.23233321620E-01 -2.12896090074E-01 -1.34196648359E-03 -2.48044143034E-03 -1.24774055214E-03 -2.33465522678E-03 +7.15309422200E-01 -6.15368483135E-02
2.83500000000E+09 +6.06091294489E-01 -2.31028112412E-01 -1.19051388739E-03 -1.91575931282E-03 -1.14997501089E-03 -1.90043681830E-03 +7.05301002178E-01 -8.16356877933E-02
2.84000000000E+09 +5.87092910104E-01 -2.48992809714E-01 -9.87208598201E-04 -2.25343688272E-03 -9.29156209879E-04 -2.23555745142E-03 +6.93859905868E-01 -1.02965538574E-01
2.84500000000E+09 +5.66344770408E-01 -2.67312143876E-01 -1.70836642586E-03 -2.40143606952E-03 -1.68107033963E-03 -2.40491409848E-03 +6.80630928550E-01 -1.24194309560E-01
2.85000000000E+09 +5.44316651756E-01 -2.85333527474E-01 -1.84096767838E-03 -2.18228306604E-03 -1.86709761275E-03 -2.21382616703E-03 +6.66309388402E-01 -1.44822604355E-01
2.85500000000E+09 +5.20802576764E-01 -3.02873840482E-01 -2.39505116801E-03 -1.94682541671E-03 -2.42234062347E-03 -1.89078540591E-03 +6.51653709400E-01 -1.65263645256E-01
2.86000000000E+09 +4.96420085950E-01 -3.19987450951E-01 -2.46966224753E-03 -1.40633681446E-03 -2.41454869339E-03 -1.41015423339E-03 +6.35165913937E-01 -1.86858160509E-01
2.86500000000E+09 +4.71173514483E-01 -3.35786600553E-01 -2.48462747097E-03 -1.16321164304E-03 -2.48035675855E-03 -1.16655394209E-03 +6.16575983200E-01 -2.07414343537E-01
2.87000000000E+09 +4.45489440335E-01 -3.50370177615E-01 -2.47464550227E-03 -8.66743820846E-04 -2.52123441460E-03 -8.87310589266E-04 +5.96591990964E-01 -2.27049486189E-01
2.87500000000E+09 +4.19533580190E-01 -3.63586330057E-01 -2.29963005781E-03 -6.82563915019E-04 -2.28414578782E-03 -6.39196518011E-04 +5.76082970614E-01 -2.46073276258E-01
2.88000000000E+09 +3.93170692654E-01 -3.75933749157E-01 -2.31460211839E-03 -9.13755576699E-04 -2.27730725609E-03 -8.70341334451E-04 +5.54074744414E-01 -2.64645960482E-01
2.88500000000E+09 +3.65563374148E-01 -3.86913815186E-01 -2.85463585815E-03 -7.52347550896E-04 -2.67836311273E-03 -6.97544532151E-04 +5.30987503611E-01 -2.83064587810E-01
2.89000000000E+09 +3.36741878689E-01 -3.95959681205E-01 -2.78932532589E-03 -5.26581624507E-04 -2.60894741900E-03 -5.53321052023E-04 +5.05056820339E-01 -3.00909915371E-01
2.89500000000E+09 +3.07085036077E-01 -4.03213682618E-01 -3.14843104263E-03 -3.36823690036E-04 -3.01944238595E-03 -4.21633999219E-04 +4.77005419056E-01 -3.17341781110E-01
2.90000000000E+09 +2.75744448106E-01 -4.09074153336E-01 -3.30455985086E-03 +9.25125682559E-05 -3.35168066251E-03 -1.30186220696E-05 +4.48544580121E-01 -3.31945781126E-01
2.90500000000E+09 +2.42394638969E-01 -4.12404788131E-01 -3.09871360936E-03 +4.57885821653E-04 -3.10343988769E-03 +4.41342439868E-04 +4.20041727107E-01 -3.46836744010E-01
2.91000000000E+09 +2.07849592182E-01 -4.13150625271E-01 -3.40718151068E-03 +4.82034851740E-04 -3.40215943672E-03 +5.71098342457E-04 +3.88417314440E-01 -3.61257701978E-01
2.91500000000E+09 +1.73184206297E-01 -4.10819108784E-01 -3.31643720921E-03 +1.21009253616E-03 -3.17244849402E-03 +1.21136711953E-03 +3.55764576637E-01 -3.72915505121E-01
2.92000000000E+09 +1.37964272448E-01 -4.06146511029E-01 -3.19404465606E-03 +1.05147823825E-03 -3.02830661717E-03 +9.21692827598E-04 +3.21634677213E-01 -3.81530518231E-01
2.92500000000E+09 +1.04546792487E-01 -3.99705072597E-01 -3.68279869841E-03 +1.38695269854E-03 -3.56445544113E-03 +1.19169775156E-03 +2.86758453417E-01 -3.88744273440E-01
2.93000000000E+09 +7.04742383581E-02 -3.93040676996E-01 -3.90910109595E-03 +2.34533110182E-03 -3.98361299107E-03 +2.06125176187E-03 +2.50563446017E-01 -3.94270046671E-01
2.93500000000E+09 +3.54950337105E-02 -3.84209494749E-01 -3.24825646065E-03 +3.12334821933E-03 -3.38082479246E-03 +3.01153568140E-03 +2.12307433113E-01 -3.99099806102E-01
2.94000000000E+09 +2.74942555778E-04 -3.71858749989E-01 -2.79664721275E-03 +3.26519127074E-03 -2.89844462421E-03 +3.20723150828E-03 +1.72647596974E-01 -4.00330070865E-01
2.94500000000E+09 -3.26033375239E-02 -3.56484414830E-01 -2.57979585149E-03 +3.48128796918E-03 -2.68491346991E-03 +3.38816927111E-03 +1.33894845833E-01 -3.99271206518E-01
2.95000000000E+09 -6.41534781145E-02 -3.39166774119E-01 -2.53858257943E-03 +4.05093780011E-03 -2.68449755892E-03 +3.92470094825E-03 +9.55464275177E-02 -3.95817222666E-01
2.95500000000E+09 -9.38762125771E-02 -3.19968461034E-01 -1.92109975292E-03 +4.45083517603E-03 -2.18664283387E-03 +4.50403153895E-03 +5.65689257742E-02 -3.90858560535E-01
2.96000000000E+09 -1.23423909204E-01 -2.99074591736E-01 -1.68005564592E-03 +4.92422406331E-03 -1.89326412782E-03 +5.10979597327E-03 +1.60796056442E-02 -3.82112095686E-01
2.96500000000E+09 -1.52157489707E-01 -2.74449289941E-01 -8.65414635749E-04 +5.31917528322E-03 -8.38829995555E-04 +5.56463116233E-03 -2.49382383609E-02 -3.69586060293E-01
2.97000000000E+09 -1.78802254920E-01 -2.46756561208E-01 -3.27174356480E-04 +5.35074348368E-03 -2.04311048114E-04 +5.36273807833E-03 -6.47473393579E-02 -3.53721122700E-01
2.97500000000E+09 -2.02633940500E-01 -2.17063448440E-01 +1.14343789419E-04 +5.94505254248E-03 +2.15303635954E-04 +5.79394348708E-03 -1.03696776683E-01 -3.35825839608E-01
2.98000000000E+09 -2.25192864840E-01 -1.86347235397E-01 +1.62365971631E-03 +5.83888543710E-03 +1.48858805260E-03 +5.80957448941E-03 -1.40659589689E-01 -3.15468793340E-01
2.98500000000E+09 -2.45710166776E-01 -1.54252741706E-01 +1.77818369632E-03 +5.16401667667E-03 +1.54768668520E-03 +5.29187203801E-03 -1.77138382957E-01 -2.93908050505E-01
2.99000000000E+09 -2.64786631204E-01 -1.21575691157E-01 +2.21641054077E-03 +5.64779781523E-03 +2.30708519391E-03 +5.98975760351E-03 -2.12847234211E-01 -2.67081842665E-01
2.99500000000E+09 -2.81858765114E-01 -8.80386841572E-02 +3.61643958299E-03 +5.77647578855E-03 +3.97373370887E-03 +5.88299789447E-03 -2.44665253308E-01 -2.37397462424E-01
3.00000000000E+09 -2.97234370819E-01 -5.37494267111E-02 +4.36967315598E-03 +5.09106535797E-03 +4.60513969620E-03 +4.83891068239E-03 -2.75226054065E-01 -2.06508627017E-01
3.00500000000E+09 -3.09181613108E-01 -1.95340518101E-02 +5.46285082624E-03 +5.07881417642E-03 +5.42211925583E-03 +4.71361843735E-03 -3.04791032137E-01 -1.72679412551E-01
3.01000000000E+09 -3.18174818132E-01 +1.38427971756E-02 +6.67894712280E-03 +3.47445124507E-03 +6.35266741407E-03 +3.41600082053E-03 -3.30220355730E-01 -1.37217348014E-01
3.01500000000E+09 -3.25330113412E-01 +4.61604098688E-02 +6.84172877748E-03 +2.17692406754E-03 +6.73109551108E-03 +2.38825066576E-03 -3.53499810891E-01 -1.00510967360E-01
3.02000000000E+09 -3.29593470665E-01 +7.87675926252E-02 +6.76979832311E-03 +1.09680478119E-03 +6.79302539075E-03 +1.27536050304E-03 -3.72092724177E-01 -6.29344533473E-02
3.02500000000E+09 -3.30486246794E-01 +1.11023921899E-01 +6.56113791389E-03 +4.31751220540E-04 +6.58469222704E-03 +5.31813152247E-04 -3.87947651549E-01 -2.57275587131E-02
3.03000000000E+09 -3.28279603996E-01 +1.42311562949E-01 +6.52617799590E-03 +1.36703769483E-04 +6.54817233310E-03 +8.04870031232E-05 -4.03228018417E-01 +1.21570445806E-02
3.03500000000E+09 -3.24051786969E-01 +1.72497883016E-01 +7.29982752389E-03 -5.33891240423E-04 +7.23066519846E-03 -5.12195629457E-04 -4.15763174456E-01 +5.32774952518E-02
3.04000000000E+09 -3.17070930429E-01 +2.03637381126E-01 +7.29355247086E-03 -2.36185906116E-03 +7.53885003284E-03 -2.28097740110E-03 -4.24265259441E-01 +9.47841544998E-02
3.04500000000E+09 -3.08076352081E-01 +2.32574566876E-01 +6.60694162423E-03 -3.28084142118E-03 +6.92026128072E-03 -3.36734438039E-03 -4.28805749857E-01 +1.36150907432E-01
3.05000000000E+09 -2.97822705831E-01 +2.61539735556E-01 +5.98545106699E-03 -4.57353980703E-03 +6.08122023386E-03 -4.93884464484E-03 -4.30428782385E-01 +1.74349372565E-01
3.05500000000E+09 -2.86257938393E-01 +2.89577290867E-01 +4.89106967987E-03 -4.85908509601E-03 +4.58597192213E-03 -5.20026826877E-03 -4.32018590389E-01 +2.12488703059E-01
3.06000000000E+09 -2.73716568274E-01 +3.17074640205E-01 +4.33897418941E-03 -5.61977904423E-03 +3.95192490170E-03 -5.56601380976E-03 -4.29945452032E-01 +2.51670480536E-01
3.06500000000E+09 -2.59998009948E-01 +3.42867026524E-01 +3.23989813794E-03 -6.16130870077E-03 +3.13005460059E-03 -5.79511222207E-03 -4.24256302455E-01 +2.89100921096E-01
3.07000000000E+09 -2.46374344668E-01 +3.67576978959E-01 +1.96161956337E-03 -6.37148236021E-03 +2.25096532449E-03 -6.14617406881E-03 -4.16982842734E-01 +3.24012586814E-01
