# Hz S RI R 50
! CMT, C1220, 16058040, 17.2.0/1
! Date: 15/08/2018 09:49:49
! Data: Format (Calibration Info)
! Freq                      S11: Re/Im (F2)                       S21: Re/Im (F2)                       S12: Re/Im (F2)                       S22: Re/Im (F2)            
2.50000000000E+09 +5.75827584780E-01 +6.70875147319E-01 +1.07820844498E-04 -1.48389505373E-03 +1.33775674928E-04 -1.63830469243E-03 +5.74745893447E-01 +7.18060048175E-01
2.50500000000E+09 +5.82635413365E-01 +6.63438365246E-01 -1.98721100761E-06 -1.58474787037E-03 -5.80419168045E-05 -1.64791109102E-03 +5.80421400586E-01 +7.12568480364E-01
2.51000000000E+09 +5.89851927262E-01 +6.55481079524E-01 -2.18153041706E-04 -1.60062107215E-03 -2.64163399849E-04 -1.61091128528E-03 +5.85912001930E-01 +7.07329142077E-01
2.51500000000E+09 +5.97098825623E-01 +6.47367771187E-01 -4.37191775045E-04 -1.67359892167E-03 -4.19296945682E-04 -1.57841287744E-03 +5.91165363023E-01 +7.01785661279E-01
2.52000000000E+09 +6.03997904163E-01 +6.38795357242E-01 -6.73822537934E-04 -1.57561630342E-03 -5.98349485714E-04 -1.59185081276E-03 +5.96429148285E-01 +6.95664308572E-01
2.52500000000E+09 +6.10164377730E-01 +6.30343191877E-01 -7.83136039262E-04 -1.43393488957E-03 -7.46366684666E-04 -1.53033909367E-03 +6.02362429137E-01 +6.89203738168E-01
2.53000000000E+09 +6.15948947001E-01 +6.22010537530E-01 -8.91895405636E-04 -1.42056154903E-03 -8.61656738823E-04 -1.48512943839E-03 +6.08618398359E-01 +6.82146926435E-01
2.53500000000E+09 +6.21066514644E-01 +6.13916437139E-01 -1.00140331975E-03 -1.40051522670E-03 -1.00928256534E-03 -1.42091586229E-03 +6.14546946932E-01 +6.75485583414E-01
2.54000000000E+09 +6.25664639620E-01 +6.05991664546E-01 -1.16778536597E-03 -1.25532845443E-03 -1.15678666754E-03 -1.31769969291E-03 +6.20378470919E-01 +6.69015776670E-01
2.54500000000E+09 +6.30230931892E-01 +5.98527573988E-01 -1.35618429674E-03 -1.20777424626E-03 -1.28140327972E-03 -1.34767685498E-03 +6.25928465848E-01 +6.62678002652E-01
2.55000000000E+09 +6.35253681709E-01 +5.91335797985E-01 -1.46083902592E-03 -9.66049551668E-04 -1.46704754529E-03 -1.19300825041E-03 +6.31138144197E-01 +6.56148689631E-01
2.55500000000E+09 +6.40894511511E-01 +5.83556469219E-01 -1.51608174863E-03 -8.54285425806E-04 -1.77300764367E-03 -1.06747329553E-03 +6.36545448436E-01 +6.49478164698E-01
2.56000000000E+09 +6.47285327121E-01 +5.75691816896E-01 -1.51723302754E-03 -6.73573706247E-04 -1.86429160343E-03 -6.98997975745E-04 +6.42158162378E-01 +6.41978814801E-01
2.56500000000E+09 +6.54051211225E-01 +5.66898940889E-01 -1.53726770692E-03 -7.20301136849E-04 -1.83174317648E-03 -4.71003452207E-04 +6.47873782040E-01 +6.34460006328E-01
2.57000000000E+09 +6.61178221118E-01 +5.57922807048E-01 -1.64278709877E-03 -7.06045190598E-04 -1.76517940565E-03 -2.71146492725E-04 +6.53082786980E-01 +6.26805073217E-01
2.57500000000E+09 +6.68299704108E-01 +5.48265468735E-01 -1.82389211707E-03 -5.59852797077E-04 -1.62723537701E-03 -1.95195580669E-04 +6.58562062042E-01 +6.19569225849E-01
2.58000000000E+09 +6.74664733680E-01 +5.38498600452E-01 -2.00063039603E-03 -3.30900370222E-04 -1.66003592454E-03 -2.13881653193E-04 +6.63357379129E-01 +6.12231306560E-01
2.58500000000E+09 +6.80689229592E-01 +5.28475035338E-01 -1.95531010417E-03 +7.27050177936E-05 -1.71479517771E-03 -4.30865076565E-05 +6.68078751967E-01 +6.04508077415E-01
2.59000000000E+09 +6.85921783219E-01 +5.18951301506E-01 -1.66776950829E-03 +5.45162259329E-05 -1.61918494674E-03 -6.49561754314E-05 +6.73057076403E-01 +5.96539614149E-01
2.59500000000E+09 +6.90918759103E-01 +5.09169635128E-01 -1.80279090319E-03 -7.67328588690E-05 -1.77988804365E-03 -1.75656211501E-04 +6.78051063478E-01 +5.87849746747E-01
2.60000000000E+09 +6.94927407413E-01 +4.99608725634E-01 -2.03440779772E-03 +1.88815324715E-05 -2.06147791384E-03 +1.94936313902E-05 +6.83092143316E-01 +5.79301385981E-01
2.60500000000E+09 +6.99102459005E-01 +4.89948127160E-01 -2.27708314410E-03 +3.11926148390E-04 -2.30205949798E-03 +3.21059501763E-04 +6.88378145754E-01 +5.70926451266E-01
2.61000000000E+09 +7.03490815499E-01 +4.79838499652E-01 -2.44311838548E-03 +6.71040594227E-04 -2.45743039373E-03 +6.41364912176E-04 +6.93297110410E-01 +5.62311819293E-01
2.61500000000E+09 +7.08222253688E-01 +4.69098619133E-01 -2.22766501349E-03 +1.31206468099E-03 -2.33105873572E-03 +1.25271672876E-03 +6.97697812459E-01 +5.54049290454E-01
2.62000000000E+09 +7.12941176239E-01 +4.57405297473E-01 -1.77972200403E-03 +1.35393149854E-03 -1.87538125006E-03 +1.45381177056E-03 +7.02211150158E-01 +5.45224552662E-01
2.62500000000E+09 +7.17741164414E-01 +4.44535454485E-01 -1.73925637834E-03 +1.20347722882E-03 -1.77525364899E-03 +1.43376640915E-03 +7.07239178091E-01 +5.35876186717E-01
2.63000000000E+09 +7.22251358881E-01 +4.31141042203E-01 -1.80372399237E-03 +1.42414992247E-03 -1.61157713571E-03 +1.61140421729E-03 +7.12099975112E-01 +5.26416370204E-01
2.63500000000E+09 +7.26208556092E-01 +4.17460497445E-01 -1.82443836028E-03 +1.54998649427E-03 -1.52747616068E-03 +1.54462430423E-03 +7.17060263209E-01 +5.16974881495E-01
2.64000000000E+09 +7.29777316800E-01 +4.03728849816E-01 -1.96281984112E-03 +1.98163454126E-03 -1.61245614880E-03 +1.70722252389E-03 +7.22036156422E-01 +5.07375118403E-01
2.64500000000E+09 +7.32924559568E-01 +3.90603282538E-01 -1.51747308281E-03 +2.51315997421E-03 -1.50935078529E-03 +2.13069332777E-03 +7.26567705887E-01 +4.97949133868E-01
2.65000000000E+09 +7.35701950710E-01 +3.78134010039E-01 -9.37564953791E-04 +2.47849478648E-03 -1.20793257985E-03 +2.22519927407E-03 +7.30838995548E-01 +4.88418876324E-01
2.65500000000E+09 +7.38501128544E-01 +3.65810465154E-01 -7.79753910943E-04 +2.26841223727E-03 -1.05090452643E-03 +2.29400805107E-03 +7.34738392278E-01 +4.77808634137E-01
2.66000000000E+09 +7.41268924280E-01 +3.53856905668E-01 -8.61791556884E-04 +2.37188885843E-03 -1.04497711458E-03 +2.50722502159E-03 +7.38689203098E-01 +4.66670187046E-01
2.66500000000E+09 +7.44380352110E-01 +3.41794648737E-01 -7.51287174976E-04 +2.60863199890E-03 -6.22603835283E-04 +2.81242007059E-03 +7.43249527008E-01 +4.55260402427E-01
2.67000000000E+09 +7.47182312774E-01 +3.28602020989E-01 -3.69445999035E-04 +2.81066333604E-03 -1.88172493206E-04 +2.75589342646E-03 +7.47747644767E-01 +4.44011240975E-01
2.67500000000E+09 +7.49178723988E-01 +3.14820848245E-01 +4.85677041933E-06 +2.72574315493E-03 +1.84495527815E-05 +2.57943496845E-03 +7.51749131581E-01 +4.32699023451E-01
2.68000000000E+09 +7.51042041659E-01 +3.00332719091E-01 +8.40348530785E-05 +2.60935623679E-03 -1.30174357433E-05 +2.46127065998E-03 +7.55359115985E-01 +4.22142940940E-01
2.68500000000E+09 +7.52205857603E-01 +2.85085461055E-01 -8.17623347132E-05 +2.67044308371E-03 -1.55118114750E-04 +2.60960662626E-03 +7.58547395884E-01 +4.10587468219E-01
2.69000000000E+09 +7.52689219181E-01 +2.69451300680E-01 +9.00578863386E-05 +3.18197935932E-03 +6.18752855691E-05 +3.18447910595E-03 +7.61032210597E-01 +3.98490148906E-01
2.69500000000E+09 +7.53016586898E-01 +2.53876872115E-01 +7.90617204072E-04 +3.40059705022E-03 +7.50930013281E-04 +3.35820369917E-03 +7.63841051659E-01 +3.85635905595E-01
2.70000000000E+09 +7.53233951951E-01 +2.38057220166E-01 +1.34489251832E-03 +3.24274742157E-03 +1.28994051599E-03 +3.11748387352E-03 +7.66914413214E-01 +3.72142461034E-01
2.70500000000E+09 +7.53031268664E-01 +2.22720353173E-01 +1.72885908054E-03 +2.69778572497E-03 +1.64342782102E-03 +2.76356395223E-03 +7.69850268907E-01 +3.58513331286E-01
2.71000000000E+09 +7.53088933201E-01 +2.07753486123E-01 +1.77418498528E-03 +2.47345689866E-03 +1.70323064225E-03 +2.59591277835E-03 +7.72340491605E-01 +3.45797957841E-01
2.71500000000E+09 +7.53667817328E-01 +1.92710899949E-01 +1.58142151823E-03 +2.41987054095E-03 +1.65247485968E-03 +2.61140806809E-03 +7.75230139355E-01 +3.33430845554E-01
2.72000000000E+09 +7.54183771969E-01 +1.77684081058E-01 +1.75548485850E-03 +2.77085799168E-03 +2.06830028766E-03 +2.85260660547E-03 +7.77450539027E-01 +3.20420868594E-01
2.72500000000E+09 +7.54723589450E-01 +1.62318891195E-01 +2.40395263266E-03 +2.76351474984E-03 +2.63555762986E-03 +2.45907562347E-03 +7.78564817460E-01 +3.06395844164E-01
2.73000000000E+09 +7.54518695874E-01 +1.46375754660E-01 +2.51220275238E-03 +2.55892641251E-03 +2.55721999042E-03 +2.08945621065E-03 +7.79740670680E-01 +2.92024975893E-01
2.73500000000E+09 +7.53610724262E-01 +1.29581012605E-01 +2.88737809665E-03 +2.69629148648E-03 +2.49752845058E-03 +2.27932223005E-03 +7.80547865421E-01 +2.77026693963E-01
2.74000000000E+09 +7.51547393713E-01 +1.12495787850E-01 +3.66406183158E-03 +2.44758667248E-03 +3.06530260563E-03 +2.45127483024E-03 +7.82216922653E-01 +2.62425520737E-01
2.74500000000E+09 +7.48095399905E-01 +9.47083812695E-02 +3.84010580799E-03 +1.84666017991E-03 +3.52483863905E-03 +2.21400974850E-03 +7.83555942188E-01 +2.47337882391E-01
2.75000000000E+09 +7.43042948093E-01 +7.70625997184E-02 +4.06725876098E-03 +1.55112841122E-03 +4.00451495550E-03 +2.02796664661E-03 +7.83960790242E-01 +2.32081787676E-01
2.75500000000E+09 +7.37256405485E-01 +5.96490908661E-02 +4.14379979284E-03 +1.24542985131E-03 +4.35478536787E-03 +1.55664204586E-03 +7.83101419828E-01 +2.16938728842E-01
2.76000000000E+09 +7.31438763516E-01 +4.23231611647E-02 +4.43876432780E-03 +1.16879474339E-03 +4.74749934109E-03 +1.23534955460E-03 +7.82597892475E-01 +2.01586717950E-01
2.76500000000E+09 +7.25572389320E-01 +2.48195433611E-02 +4.96044158877E-03 +8.93155266361E-04 +5.23123839195E-03 +8.97903110515E-04 +7.81557148315E-01 +1.84259946868E-01
2.77000000000E+09 +7.20266681120E-01 +6.83732206819E-03 +5.63113988215E-03 +1.33933050699E-04 +5.90385038380E-03 +4.64391746539E-05 +7.80679049156E-01 +1.66580975043E-01
2.77500000000E+09 +7.15032998085E-01 -1.19520677346E-02 +5.69430082745E-03 -9.20282358524E-04 +5.91387654631E-03 -1.16971198556E-03 +7.78796180012E-01 +1.48499883222E-01
2.78000000000E+09 +7.10229984646E-01 -3.13565735031E-02 +5.34614274588E-03 -1.57580976625E-03 +5.36668182384E-03 -1.92620615296E-03 +7.76565989758E-01 +1.31426939536E-01
2.78500000000E+09 +7.05134825682E-01 -5.18243722528E-02 +5.21582033457E-03 -1.95715577815E-03 +5.00302231943E-03 -2.28464916735E-03 +7.74337254817E-01 +1.14378082027E-01
2.79000000000E+09 +6.99137213139E-01 -7.30835008171E-02 +5.23295052265E-03 -2.46360497808E-03 +4.85116955447E-03 -2.58815187680E-03 +7.71042885390E-01 +9.68511356902E-02
2.79500000000E+09 +6.91529488543E-01 -9.39046593848E-02 +5.22609571954E-03 -2.84481442194E-03 +4.83195375877E-03 -2.70880944533E-03 +7.66770985449E-01 +7.84014187203E-02
2.80000000000E+09 +6.82788597529E-01 -1.13980354099E-01 +5.59504910295E-03 -3.76204297434E-03 +5.37042283175E-03 -3.40766108483E-03 +7.61761960194E-01 +5.91632933033E-02
2.80500000000E+09 +6.73285295903E-01 -1.33110899820E-01 +4.98601723073E-03 -5.18582201047E-03 +5.19264564426E-03 -4.95760366278E-03 +7.55903649509E-01 +4.02496108554E-02
2.81000000000E+09 +6.62695490538E-01 -1.51267868260E-01 +3.85198567208E-03 -5.46818721402E-03 +4.11582496162E-03 -5.57764552788E-03 +7.50304744781E-01 +2.12584035174E-02
2.81500000000E+09 +6.51312260691E-01 -1.69202720851E-01 +3.66096196565E-03 -5.85618903173E-03 +3.62783379304E-03 -6.11456726656E-03 +7.43593275056E-01 +2.07724124046E-03
2.82000000000E+09 +6.38526395514E-01 -1.86825523616E-01 +3.05584786519E-03 -6.49274945782E-03 +2.75036800720E-03 -6.60840775796E-03 +7.36361274836E-01 -1.74079281646E-02
2.82500000000E+09 +6.24576883238E-01 -2.04156739076E-01 +2.25141178397E-03 -6.92712258719E-03 +1.93734993892E-03 -6.70293213681E-03 +7.27060397634E-01 -3.74106610343E-02
2.83000000000E+09 +6.09394441063E-01 -2.22050398346E-01 +1.58478121565E-03 -7.32267480226E-03 +1.48534424456E-03 -6.90310623710E-03 +7.17057658565E-01 -5.74805000579E-02
2.83500000000E+09 +5.93303821961E-01 -2.40272531303E-01 +4.72847017212E-04 -7.47238893010E-03 +6.85500230887E-04 -7.17007787578E-03 +7.06592037363E-01 -7.77010790469E-02
2.84000000000E+09 +5.75361256767E-01 -2.59313273674E-01 -6.32521665267E-05 -6.93362105679E-03 +2.13546367824E-04 -6.89161757579E-03 +6.96005985991E-01 -9.87109270192E-02
2.84500000000E+09 +5.55370046946E-01 -2.78857102608E-01 +2.20000460208E-04 -7.58171337091E-03 +3.12713789855E-04 -7.60002584241E-03 +6.84325812102E-01 -1.19776301770E-01
2.85000000000E+09 +5.33719824609E-01 -2.97747556741E-01 -9.29762779404E-04 -8.75468175595E-03 -8.63020849174E-04 -8.73383171097E-03 +6.70649396935E-01 -1.40895428849E-01
2.85500000000E+09 +5.11286348356E-01 -3.15797511387E-01 -2.65767877411E-03 -9.09012740901E-03 -2.67980250567E-03 -9.05931345177E-03 +6.55469841685E-01 -1.60845506441E-01
2.86000000000E+09 +4.88170653164E-01 -3.33978050610E-01 -4.53519159351E-03 -8.62820615598E-03 -4.35852391311E-03 -8.61617550792E-03 +6.39637035374E-01 -1.81419490280E-01
2.86500000000E+09 +4.63906854489E-01 -3.50924138397E-01 -6.16852577702E-03 -7.59138412868E-03 -6.03916977062E-03 -7.71263589709E-03 +6.22344867424E-01 -2.02935270753E-01
2.87000000000E+09 +4.38667163587E-01 -3.67008574954E-01 -6.72358029612E-03 -5.85833371492E-03 -6.75474626918E-03 -5.90090742326E-03 +6.02202999347E-01 -2.24580700004E-01
2.87500000000E+09 +4.12978981329E-01 -3.80769601057E-01 -6.23627632271E-03 -5.40753212461E-03 -6.40623237188E-03 -5.17774031361E-03 +5.81834763154E-01 -2.44288540688E-01
2.88000000000E+09 +3.87886555714E-01 -3.93277367310E-01 -6.88472272292E-03 -5.65936777948E-03 -6.85701564456E-03 -5.30867305458E-03 +5.60282154077E-01 -2.63993815327E-01
2.88500000000E+09 +3.62186851198E-01 -4.05514902274E-01 -8.48288153816E-03 -4.82409860177E-03 -8.16423475317E-03 -4.52710804861E-03 +5.37295293180E-01 -2.82345550621E-01
2.89000000000E+09 +3.35377843649E-01 -4.17250766253E-01 -8.77299366938E-03 -3.31126198139E-03 -8.18760089767E-03 -3.33495856044E-03 +5.11959865927E-01 -3.00912951932E-01
2.89500000000E+09 +3.06641549300E-01 -4.28087285869E-01 -8.99301777603E-03 -2.82501418694E-03 -8.65610259709E-03 -3.20696712043E-03 +4.83497103231E-01 -3.18642039304E-01
2.90000000000E+09 +2.75821052663E-01 -4.37379371201E-01 -9.92719878933E-03 -1.57735743167E-03 -9.94947586554E-03 -1.96017730628E-03 +4.53070036193E-01 -3.34124114796E-01
2.90500000000E+09 +2.42310707245E-01 -4.44252037780E-01 -9.68576487090E-03 -3.93050933230E-04 -9.95645443367E-03 -3.55807984569E-04 +4.23552913845E-01 -3.49173105398E-01
2.91000000000E+09 +2.08715864083E-01 -4.48295880915E-01 -9.99987991746E-03 +4.88874104519E-04 -9.96575598747E-03 +8.24220197205E-04 +3.91969549914E-01 -3.63958064445E-01
2.91500000000E+09 +1.73878826021E-01 -4.50827063074E-01 -1.01411917420E-02 +1.95745026347E-03 -9.62031643698E-03 +2.20310242499E-03 +3.58622215848E-01 -3.75832914535E-01
2.92000000000E+09 +1.38410746048E-01 -4.50594479483E-01 -9.25532971896E-03 +3.41018458215E-03 -8.65772870909E-03 +3.14549523772E-03 +3.24047656513E-01 -3.85182842184E-01
2.92500000000E+09 +1.03598086039E-01 -4.48357772916E-01 -8.72224832707E-03 +3.29413988343E-03 -8.46263339076E-03 +2.79693081824E-03 +2.88316942500E-01 -3.91670391779E-01
2.93000000000E+09 +6.91403258535E-02 -4.45033612782E-01 -9.29659116124E-03 +4.24933260001E-03 -9.28443254066E-03 +3.72140465241E-03 +2.51816795733E-01 -3.96957061241E-01
2.93500000000E+09 +3.43051225999E-02 -4.40203456428E-01 -9.26950225274E-03 +5.67225681952E-03 -9.46183757461E-03 +5.28293596683E-03 +2.14036236916E-01 -4.01673459337E-01
2.94000000000E+09 +9.09754342870E-05 -4.33825220024E-01 -8.70983897625E-03 +7.23812306642E-03 -8.89636775075E-03 +7.00019118018E-03 +1.73815021318E-01 -4.05004521163E-01
2.94500000000E+09 -3.54298631007E-02 -4.26374188263E-01 -7.78773332667E-03 +8.87202835264E-03 -7.89823544069E-03 +8.58814443455E-03 +1.33079462116E-01 -4.04132405840E-01
2.95000000000E+09 -7.17066976533E-02 -4.13918866471E-01 -5.84321590514E-03 +9.61658112380E-03 -6.17419124840E-03 +9.32807363724E-03 +9.29291974834E-02 -3.99166114190E-01
2.95500000000E+09 -1.05174287037E-01 -3.97643722013E-01 -4.76506159866E-03 +9.54755345220E-03 -5.28487883569E-03 +9.55424282220E-03 +5.47707577116E-02 -3.92409399446E-01
2.96000000000E+09 -1.36431513080E-01 -3.80538360221E-01 -4.28431634347E-03 +9.95405800669E-03 -4.67657366832E-03 +1.03489311467E-02 +1.44052564761E-02 -3.83586820275E-01
2.96500000000E+09 -1.68291716918E-01 -3.61227367581E-01 -3.62989511748E-03 +1.08340125761E-02 -3.47591737994E-03 +1.13162484478E-02 -2.66308170287E-02 -3.71525647785E-01
2.97000000000E+09 -1.99023508347E-01 -3.38432372173E-01 -2.34795762591E-03 +1.17234743422E-02 -1.95622832838E-03 +1.17289121927E-02 -6.75282910203E-02 -3.56483520207E-01
2.97500000000E+09 -2.28576466983E-01 -3.13630796318E-01 -1.02752331813E-03 +1.24159386958E-02 -8.69813053465E-04 +1.20841405178E-02 -1.06976690294E-01 -3.38535475838E-01
2.98000000000E+09 -2.57544385321E-01 -2.86097506416E-01 +1.42707992835E-03 +1.26514452661E-02 +1.04132922606E-03 +1.23740834871E-02 -1.44964006728E-01 -3.17570243001E-01
2.98500000000E+09 -2.84467947973E-01 -2.56347740743E-01 +2.74149255590E-03 +1.17419803040E-02 +2.24695092681E-03 +1.20882260431E-02 -1.81405536320E-01 -2.93879785361E-01
2.99000000000E+09 -3.10025950875E-01 -2.25925328031E-01 +3.65039581250E-03 +1.15331160999E-02 +3.62889148428E-03 +1.21757331107E-02 -2.16817628772E-01 -2.66494022572E-01
2.99500000000E+09 -3.34934636972E-01 -1.93539738008E-01 +4.88231881564E-03 +1.19465720134E-02 +5.49114951168E-03 +1.24080880833E-02 -2.49764804058E-01 -2.36424731469E-01
3.00000000000E+09 -3.56362115272E-01 -1.59884573407E-01 +7.47051401322E-03 +1.12270826354E-02 +8.11749748122E-03 +1.08911012540E-02 -2.80462752617E-01 -2.03948914885E-01
3.00500000000E+09 -3.75777319436E-01 -1.26873032128E-01 +8.31607626835E-03 +9.85735835214E-03 +8.43607063093E-03 +9.16954178813E-03 -3.08583966007E-01 -1.70336163258E-01
3.01000000000E+09 -3.93337082413E-01 -9.36259503849E-02 +9.83812872527E-03 +9.01587049065E-03 +9.43032770181E-03 +8.61649128254E-03 -3.34073578872E-01 -1.35427222103E-01
3.01500000000E+09 -4.08578700133E-01 -5.98690631690E-02 +1.10848263590E-02 +7.76066403522E-03 +1.06472787855E-02 +7.76782985605E-03 -3.57232457273E-01 -9.93426135666E-02
3.02000000000E+09 -4.20902613141E-01 -2.52575945762E-02 +1.19981093539E-02 +6.00704720114E-03 +1.18314338269E-02 +6.17459093912E-03 -3.77090749498E-01 -5.99588565943E-02
3.02500000000E+09 -4.30450178365E-01 +1.04150657472E-02 +1.22069145123E-02 +4.76060584508E-03 +1.21705813863E-02 +4.84098959130E-03 -3.92341502153E-01 -2.00487599932E-02
3.03000000000E+09 -4.35324518876E-01 +4.68550717490E-02 +1.33058758208E-02 +3.33313312127E-03 +1.31295645724E-02 +3.44923838342E-03 -4.05376242266E-01 +1.96785828742E-02
3.03500000000E+09 -4.35936678421E-01 +8.24970413768E-02 +1.39113429279E-02 +1.33254583134E-03 +1.37484575212E-02 +1.75558455205E-03 -4.16106990522E-01 +5.89089022665E-02
3.04000000000E+09 -4.34748740601E-01 +1.16576943620E-01 +1.38670434651E-02 -1.08142256131E-03 +1.42013393658E-02 -4.72337333945E-04 -4.25198518219E-01 +9.89640511317E-02
3.04500000000E+09 -4.32270612253E-01 +1.51406986625E-01 +1.30288579743E-02 -2.86535435692E-03 +1.38195547949E-02 -2.87920934582E-03 -4.30560411488E-01 +1.39723299649E-01
3.05000000000E+09 -4.27281969752E-01 +1.86954089798E-01 +1.21718162827E-02 -4.24329111053E-03 +1.27256329340E-02 -4.97622553124E-03 -4.31418907026E-01 +1.79381266949E-01
3.05500000000E+09 -4.19816934776E-01 +2.21951766754E-01 +1.14680507321E-02 -5.06960095824E-03 +1.12553243240E-02 -5.99945604577E-03 -4.31059690054E-01 +2.16991149404E-01
3.06000000000E+09 -4.10578370064E-01 +2.56352564929E-01 +1.13128781107E-02 -6.51907139330E-03 +1.05024989006E-02 -6.87280214475E-03 -4.29350252961E-01 +2.55518558462E-01
3.06500000000E+09 -3.99009815562E-01 +2.89203120997E-01 +1.05494089895E-02 -8.69531496055E-03 +9.86431517429E-03 -8.08677024635E-03 -4.24265042824E-01 +2.93400134911E-01
3.07000000000E+09 -3.87034239634E-01 +3.19259298463E-01 +8.34225391469E-03 -1.03549614928E-02 +8.69893090983E-03 -9.48775986455E-03 -4.17067433372E-01 +3.29449186879E-01
