# Hz S RI R 50
! CMT, C1220, 16058040, 17.2.0/1
! Date: 15/08/2018 09:45:29
! Data: Format (Calibration Info)
! Freq                      S11: Re/Im (F2)                       S21: Re/Im (F2)                       S12: Re/Im (F2)                       S22: Re/Im (F2)            
2.50000000000E+09 +5.79777634388E-01 +6.62408510719E-01 +1.96853460368E-04 -1.59733185868E-03 +2.18277174615E-04 -1.77688380508E-03 +5.73807746949E-01 +7.18569424584E-01
2.50500000000E+09 +5.86830692953E-01 +6.54795626202E-01 +8.63346511201E-05 -1.63625356747E-03 -1.13964589506E-05 -1.78377034818E-03 +5.79373809735E-01 +7.12952334121E-01
2.51000000000E+09 +5.94255205325E-01 +6.46642131690E-01 -4.00802423799E-05 -1.72347840711E-03 -1.72935927952E-04 -1.69601764283E-03 +5.84842094122E-01 +7.07883126737E-01
2.51500000000E+09 +6.01450901085E-01 +6.38178950443E-01 -2.78738951102E-04 -1.77754045749E-03 -2.54171651331E-04 -1.72310669504E-03 +5.90007178725E-01 +7.02339904624E-01
2.52000000000E+09 +6.08330377316E-01 +6.29414898727E-01 -5.01585973651E-04 -1.75619240246E-03 -4.47781584349E-04 -1.76105882464E-03 +5.95283345165E-01 +6.96306504939E-01
2.52500000000E+09 +6.14251025289E-01 +6.20849958621E-01 -6.83605437942E-04 -1.62691101487E-03 -6.08423122632E-04 -1.69849725684E-03 +6.01262578228E-01 +6.89638996130E-01
2.53000000000E+09 +6.19718411960E-01 +6.12529278032E-01 -7.63314047686E-04 -1.58094426655E-03 -7.80201225378E-04 -1.63291620679E-03 +6.07579707399E-01 +6.82441992555E-01
2.53500000000E+09 +6.24432532086E-01 +6.04471744837E-01 -8.66351824248E-04 -1.56657733845E-03 -8.71986620534E-04 -1.58243103463E-03 +6.13216637410E-01 +6.75630464723E-01
2.54000000000E+09 +6.28760544535E-01 +5.96652486166E-01 -1.03461277813E-03 -1.60981165600E-03 -9.71106858976E-04 -1.60800421846E-03 +6.18982997801E-01 +6.69185470153E-01
2.54500000000E+09 +6.32995283718E-01 +5.89467719048E-01 -1.27411809948E-03 -1.58973540331E-03 -1.17846571516E-03 -1.67664903007E-03 +6.24537389519E-01 +6.62904567611E-01
2.55000000000E+09 +6.37845454612E-01 +5.82324207219E-01 -1.53491406898E-03 -1.30615518021E-03 -1.52956036162E-03 -1.53676854180E-03 +6.29460203885E-01 +6.56589787739E-01
2.55500000000E+09 +6.43380542074E-01 +5.74735429842E-01 -1.64385084502E-03 -1.13271988500E-03 -1.88720037481E-03 -1.41665178821E-03 +6.34893697115E-01 +6.50067669943E-01
2.56000000000E+09 +6.49823739458E-01 +5.67018907252E-01 -1.60470400746E-03 -8.74306863637E-04 -1.97156042533E-03 -8.59370496245E-04 +6.40323936555E-01 +6.42775815848E-01
2.56500000000E+09 +6.56862266173E-01 +5.58292286421E-01 -1.58330680152E-03 -9.11514297794E-04 -1.94093960325E-03 -6.99938891899E-04 +6.46021114885E-01 +6.35139807488E-01
2.57000000000E+09 +6.63872367924E-01 +5.49160187930E-01 -1.76803011956E-03 -9.42090912824E-04 -1.90545836153E-03 -5.01650835613E-04 +6.51449173221E-01 +6.27569602929E-01
2.57500000000E+09 +6.70999225917E-01 +5.39535257058E-01 -2.00959108572E-03 -8.23841717433E-04 -1.83286325570E-03 -3.68944683817E-04 +6.56728586825E-01 +6.20348027476E-01
2.58000000000E+09 +6.77237888135E-01 +5.29622070503E-01 -2.21179916991E-03 -4.47594162635E-04 -1.86519909601E-03 -3.11056087865E-04 +6.61739186036E-01 +6.12982771529E-01
2.58500000000E+09 +6.82949610656E-01 +5.19699239287E-01 -2.19228488759E-03 -1.11000479378E-04 -1.89486546019E-03 -2.03817650741E-04 +6.66449922541E-01 +6.05407542172E-01
2.59000000000E+09 +6.88000862744E-01 +5.10226703360E-01 -1.98678248552E-03 -2.74633454443E-05 -1.86244368589E-03 -1.48808975731E-04 +6.71503119812E-01 +5.97579150298E-01
2.59500000000E+09 +6.92741978573E-01 +5.00359764115E-01 -2.04965113088E-03 -1.53971997623E-04 -2.00499045166E-03 -2.36255537837E-04 +6.76668679274E-01 +5.89209862204E-01
2.60000000000E+09 +6.96454927610E-01 +4.90899366827E-01 -2.22830932542E-03 -3.70613692906E-05 -2.29758411343E-03 -1.61351076684E-04 +6.81836146670E-01 +5.80639207479E-01
2.60500000000E+09 +7.00569287178E-01 +4.81174403604E-01 -2.53938225982E-03 +2.74900939133E-04 -2.55161893534E-03 +2.76267660904E-04 +6.86906710932E-01 +5.72173322545E-01
2.61000000000E+09 +7.04943635860E-01 +4.71065605589E-01 -2.65232466929E-03 +7.18745182068E-04 -2.66221473210E-03 +6.86409086087E-04 +6.91868506988E-01 +5.63573014571E-01
2.61500000000E+09 +7.09615701155E-01 +4.60018686081E-01 -2.43116007091E-03 +1.26396729272E-03 -2.45402413798E-03 +1.26261742729E-03 +6.96330075554E-01 +5.55138865191E-01
2.62000000000E+09 +7.14555072250E-01 +4.47864557074E-01 -1.98643256444E-03 +1.32723666425E-03 -2.11394769101E-03 +1.36216260739E-03 +7.00975684814E-01 +5.46309692366E-01
2.62500000000E+09 +7.19366626044E-01 +4.34574087383E-01 -2.04564267463E-03 +1.23993247312E-03 -2.07293478554E-03 +1.47761572750E-03 +7.06044483939E-01 +5.37048555746E-01
2.63000000000E+09 +7.23977799645E-01 +4.20835456982E-01 -2.13392019134E-03 +1.51179245178E-03 -1.90456483479E-03 +1.73241943522E-03 +7.10797291465E-01 +5.27725683017E-01
2.63500000000E+09 +7.27889204301E-01 +4.06767439148E-01 -2.13824914431E-03 +1.73653403311E-03 -1.74476541397E-03 +1.82667589512E-03 +7.15916965565E-01 +5.18384930173E-01
2.64000000000E+09 +7.31487328385E-01 +3.92928178720E-01 -2.06505700921E-03 +2.24181218864E-03 -1.71335266322E-03 +1.94405892371E-03 +7.20820380194E-01 +5.09025127801E-01
2.64500000000E+09 +7.34403704669E-01 +3.79644017744E-01 -1.53308413880E-03 +2.58698350632E-03 -1.52958968485E-03 +2.10206855495E-03 +7.25425917864E-01 +4.99736027207E-01
2.65000000000E+09 +7.36979436964E-01 +3.67136078572E-01 -1.13516139440E-03 +2.55676755563E-03 -1.39838904950E-03 +2.23465101561E-03 +7.29705902506E-01 +4.90206398205E-01
2.65500000000E+09 +7.39578922327E-01 +3.54978756128E-01 -1.09095095890E-03 +2.42102408658E-03 -1.31339343523E-03 +2.47830761002E-03 +7.33757323905E-01 +4.79567052525E-01
2.66000000000E+09 +7.42333970186E-01 +3.43116368435E-01 -1.03523992820E-03 +2.62849504736E-03 -1.17336868912E-03 +2.87240894139E-03 +7.37821579598E-01 +4.68327247226E-01
2.66500000000E+09 +7.45315455281E-01 +3.30956176641E-01 -7.59263892798E-04 +2.83117403921E-03 -6.37542752156E-04 +3.05032776763E-03 +7.42627337258E-01 +4.56966258277E-01
2.67000000000E+09 +7.48037203247E-01 +3.17909533818E-01 -3.67311258824E-04 +2.93258490995E-03 -1.26253684689E-04 +2.88122680039E-03 +7.47173326878E-01 +4.45796723364E-01
2.67500000000E+09 +7.50083280423E-01 +3.04089113493E-01 -1.05013573453E-04 +2.85086311436E-03 -4.06859811097E-05 +2.68509848367E-03 +7.51444711302E-01 +4.34558619264E-01
2.68000000000E+09 +7.51876848767E-01 +2.89438931700E-01 +4.55086765289E-06 +2.76561800772E-03 -5.26313727670E-05 +2.62686337491E-03 +7.55273371126E-01 +4.24039025882E-01
2.68500000000E+09 +7.52875689979E-01 +2.74094865949E-01 -1.09059831107E-04 +2.88697282103E-03 -1.21934964267E-04 +2.87813997773E-03 +7.58528896600E-01 +4.12390828857E-01
2.69000000000E+09 +7.53221231614E-01 +2.58519158566E-01 +1.70620458750E-04 +3.21905651777E-03 +1.44281918838E-04 +3.24208793480E-03 +7.61268032693E-01 +4.00270318921E-01
2.69500000000E+09 +7.53319395586E-01 +2.42901641952E-01 +6.85110437806E-04 +3.42693670215E-03 +7.61015955067E-04 +3.35706879437E-03 +7.64266950773E-01 +3.87168820688E-01
2.70000000000E+09 +7.53257164550E-01 +2.27456786742E-01 +1.14874483533E-03 +3.39285613549E-03 +1.13670488289E-03 +3.27854855604E-03 +7.67612330901E-01 +3.73430491795E-01
2.70500000000E+09 +7.53049600221E-01 +2.12379239702E-01 +1.60496683370E-03 +3.07459350711E-03 +1.44447605414E-03 +3.06114933916E-03 +7.70669776840E-01 +3.59412876834E-01
2.71000000000E+09 +7.52979158028E-01 +1.97738970135E-01 +1.79410641718E-03 +2.84754876392E-03 +1.62444753458E-03 +2.99095303672E-03 +7.73156213503E-01 +3.46466876981E-01
2.71500000000E+09 +7.53707250087E-01 +1.82951633415E-01 +1.76911026128E-03 +2.74842444550E-03 +1.83248304345E-03 +2.99998221242E-03 +7.75996601339E-01 +3.34008981365E-01
2.72000000000E+09 +7.54133792984E-01 +1.67852968583E-01 +1.94214026627E-03 +2.98100519006E-03 +2.20905658346E-03 +3.00152677406E-03 +7.78343418334E-01 +3.20881936806E-01
2.72500000000E+09 +7.54585272153E-01 +1.52204884441E-01 +2.49651352251E-03 +2.85750800404E-03 +2.74570563346E-03 +2.58259552670E-03 +7.79334008612E-01 +3.06571010359E-01
2.73000000000E+09 +7.54353336344E-01 +1.36095698993E-01 +2.62778117556E-03 +2.67945061624E-03 +2.56150259882E-03 +2.26958599160E-03 +7.80464370760E-01 +2.91852840697E-01
2.73500000000E+09 +7.53145061186E-01 +1.18927804612E-01 +2.98708904371E-03 +2.94628260037E-03 +2.61399149944E-03 +2.56880289313E-03 +7.81159000964E-01 +2.76559142331E-01
2.74000000000E+09 +7.50835190701E-01 +1.01738984676E-01 +3.85638572553E-03 +2.76868483864E-03 +3.22669017569E-03 +2.75683123372E-03 +7.82606080232E-01 +2.61806992269E-01
2.74500000000E+09 +7.47139972254E-01 +8.38499365202E-02 +4.27093210451E-03 +2.00011463854E-03 +3.83131930623E-03 +2.46355566898E-03 +7.83611365315E-01 +2.46414459880E-01
2.75000000000E+09 +7.41928967068E-01 +6.59916110594E-02 +4.46357496613E-03 +1.60446307178E-03 +4.41050930793E-03 +2.14318739577E-03 +7.83944306391E-01 +2.31194684995E-01
2.75500000000E+09 +7.36079706714E-01 +4.85282361147E-02 +4.54894205497E-03 +1.15728860888E-03 +4.78435587159E-03 +1.51996329231E-03 +7.83046315340E-01 +2.16105430438E-01
2.76000000000E+09 +7.30035764633E-01 +3.12954128750E-02 +4.61648054587E-03 +1.00013455257E-03 +4.96202620971E-03 +1.16922372431E-03 +7.82221604152E-01 +2.00607636908E-01
2.76500000000E+09 +7.24239333643E-01 +1.40683238936E-02 +5.08228431746E-03 +8.19582465588E-04 +5.36678532450E-03 +7.60367198973E-04 +7.81050823580E-01 +1.83409391456E-01
2.77000000000E+09 +7.19039113380E-01 -3.82262647225E-03 +5.76057256038E-03 +1.28782876319E-04 +6.06605563877E-03 +3.01707947553E-05 +7.79984655597E-01 +1.65695591061E-01
2.77500000000E+09 +7.14226056869E-01 -2.26242965904E-02 +5.79554769452E-03 -9.91147275907E-04 +6.00567717973E-03 -1.23961502776E-03 +7.77994814753E-01 +1.47582253159E-01
2.78000000000E+09 +7.09455361180E-01 -4.25021735328E-02 +5.44671979953E-03 -1.55835048352E-03 +5.54092320082E-03 -1.86382173728E-03 +7.75599987884E-01 +1.30320400188E-01
2.78500000000E+09 +7.04133835854E-01 -6.32939087954E-02 +5.41010706771E-03 -1.98819682852E-03 +5.21723097957E-03 -2.32875144761E-03 +7.73275631234E-01 +1.13274784250E-01
2.79000000000E+09 +6.97933114867E-01 -8.49689622106E-02 +5.43682379152E-03 -2.58034294688E-03 +5.08488171794E-03 -2.68088201058E-03 +7.69860823818E-01 +9.56776235112E-02
2.79500000000E+09 +6.90253915829E-01 -1.06226669461E-01 +5.25435879930E-03 -3.10075464051E-03 +4.91206889824E-03 -2.97991563280E-03 +7.65510993533E-01 +7.74037002930E-02
2.80000000000E+09 +6.81034142010E-01 -1.26795106281E-01 +5.40977530047E-03 -3.84584952137E-03 +5.24918169791E-03 -3.53230779206E-03 +7.60315896807E-01 +5.82283175292E-02
2.80500000000E+09 +6.71050220922E-01 -1.46173653993E-01 +4.80517863417E-03 -5.04119545709E-03 +5.01361007927E-03 -4.83871873315E-03 +7.54410221490E-01 +3.93081927747E-02
2.81000000000E+09 +6.59873417205E-01 -1.64538396893E-01 +3.92116777860E-03 -5.20721481449E-03 +4.05716370251E-03 -5.29305047185E-03 +7.48521463696E-01 +2.00655225743E-02
2.81500000000E+09 +6.48008086000E-01 -1.82251133086E-01 +3.83009434227E-03 -5.44092295558E-03 +3.77005323599E-03 -5.72066864983E-03 +7.41328432430E-01 +7.58672931868E-04
2.82000000000E+09 +6.34939611763E-01 -1.99713441274E-01 +3.71410065158E-03 -6.27255570323E-03 +3.31619067047E-03 -6.37540068230E-03 +7.33748823797E-01 -1.86463940079E-02
2.82500000000E+09 +6.21065697860E-01 -2.17208976231E-01 +2.66725774433E-03 -7.12196598287E-03 +2.30422222610E-03 -6.89856023242E-03 +7.24225971930E-01 -3.86198898989E-02
2.83000000000E+09 +6.05032533024E-01 -2.35414503425E-01 +1.82847512139E-03 -7.49678907236E-03 +1.76938340674E-03 -7.13386791053E-03 +7.13671664324E-01 -5.84173500199E-02
2.83500000000E+09 +5.88109407759E-01 -2.53466907479E-01 +6.93516926322E-04 -7.59329880163E-03 +9.04755138535E-04 -7.31451805521E-03 +7.03107058053E-01 -7.82906243938E-02
2.84000000000E+09 +5.69256173431E-01 -2.72106707537E-01 +2.06373631907E-04 -7.19322647264E-03 +3.99292711550E-04 -7.13225926920E-03 +6.92250215247E-01 -9.90209005821E-02
2.84500000000E+09 +5.48711658239E-01 -2.91124052701E-01 +3.69553557989E-04 -7.63647630905E-03 +4.48744538638E-04 -7.65512859341E-03 +6.80134587788E-01 -1.19668487040E-01
2.85000000000E+09 +5.26502873876E-01 -3.09997972521E-01 -4.83956520127E-04 -8.92663517707E-03 -5.48562810030E-04 -8.94422369537E-03 +6.66145481893E-01 -1.40271023205E-01
2.85500000000E+09 +5.03191944662E-01 -3.27967744978E-01 -2.52416359328E-03 -9.47080572844E-03 -2.54542727487E-03 -9.33881145017E-03 +6.50831858095E-01 -1.59724254791E-01
2.86000000000E+09 +4.78906558155E-01 -3.45803683017E-01 -4.25353912637E-03 -8.96839912957E-03 -4.14515080069E-03 -8.80671781787E-03 +6.35143397142E-01 -1.79559240593E-01
2.86500000000E+09 +4.54122675050E-01 -3.62047163556E-01 -5.88651811775E-03 -7.97267189912E-03 -5.79052085120E-03 -7.97695004532E-03 +6.18023755377E-01 -2.00635815640E-01
2.87000000000E+09 +4.28687623818E-01 -3.77566726836E-01 -6.56108476346E-03 -6.46804462501E-03 -6.61859561974E-03 -6.45650520582E-03 +5.98344332674E-01 -2.21851919055E-01
2.87500000000E+09 +4.02989306932E-01 -3.91539526646E-01 -6.24265532602E-03 -5.76429289876E-03 -6.40872085455E-03 -5.61810101472E-03 +5.77996608948E-01 -2.40933309526E-01
2.88000000000E+09 +3.76971791720E-01 -4.04253397887E-01 -6.78387623846E-03 -6.15094812438E-03 -6.76313855478E-03 -5.65338661743E-03 +5.57139654744E-01 -2.60043686226E-01
2.88500000000E+09 +3.50494668360E-01 -4.15772674899E-01 -8.60348543723E-03 -5.51258491604E-03 -8.09513635079E-03 -5.09939219571E-03 +5.34533121208E-01 -2.78013728956E-01
2.89000000000E+09 +3.23163641988E-01 -4.26791449359E-01 -9.05760289378E-03 -3.86586279673E-03 -8.41965534433E-03 -3.82567382009E-03 +5.10050236863E-01 -2.96459490669E-01
2.89500000000E+09 +2.94455950198E-01 -4.36552913436E-01 -9.28829111834E-03 -3.19163969976E-03 -8.82981501570E-03 -3.54552806484E-03 +4.81954217180E-01 -3.14383635339E-01
2.90000000000E+09 +2.63858356923E-01 -4.45551101140E-01 -1.01097866776E-02 -2.10232790431E-03 -1.00587986516E-02 -2.53359700293E-03 +4.52269324612E-01 -3.29667746453E-01
2.90500000000E+09 +2.29986865366E-01 -4.52521152740E-01 -1.01368104137E-02 -8.78353683394E-04 -1.02851498645E-02 -9.11391892478E-04 +4.23272262479E-01 -3.44992871558E-01
2.91000000000E+09 +1.94976753287E-01 -4.55913626310E-01 -1.05013712656E-02 -3.15716977718E-05 -1.04669501851E-02 +2.77627592582E-04 +3.91927315270E-01 -3.60289858241E-01
2.91500000000E+09 +1.59697560992E-01 -4.56877071411E-01 -1.08992308703E-02 +1.72069689463E-03 -1.04140361242E-02 +1.95160381437E-03 +3.58859757923E-01 -3.72196323154E-01
2.92000000000E+09 +1.24367259425E-01 -4.55655483957E-01 -1.00007954132E-02 +3.42840296845E-03 -9.36954711721E-03 +3.09839251154E-03 +3.24760051899E-01 -3.81655701062E-01
2.92500000000E+09 +8.95693433658E-02 -4.52500399099E-01 -9.32191409689E-03 +3.58961466368E-03 -9.02068297529E-03 +3.01450043428E-03 +2.89085405741E-01 -3.88155971187E-01
2.93000000000E+09 +5.50831007489E-02 -4.48297697149E-01 -9.75857058962E-03 +4.53680336394E-03 -9.83749381894E-03 +3.90630851866E-03 +2.53443810593E-01 -3.93758166010E-01
2.93500000000E+09 +2.01738401864E-02 -4.43062897675E-01 -9.35595883991E-03 +6.06090407539E-03 -9.68727703852E-03 +5.73791375058E-03 +2.15753568959E-01 -3.99219798676E-01
2.94000000000E+09 -1.47657980433E-02 -4.35407023149E-01 -8.80227788679E-03 +7.23351916765E-03 -9.00275653083E-03 +7.11329911890E-03 +1.75431068687E-01 -4.03090026912E-01
2.94500000000E+09 -4.96494016283E-02 -4.26035920797E-01 -8.04582532245E-03 +8.96733821317E-03 -8.25598293717E-03 +8.69213585987E-03 +1.34414930440E-01 -4.02638477230E-01
2.95000000000E+09 -8.51737912129E-02 -4.12700938986E-01 -6.22068422673E-03 +9.73167577052E-03 -6.55596935399E-03 +9.55684504599E-03 +9.43798028411E-02 -3.97836477995E-01
2.95500000000E+09 -1.18668644958E-01 -3.95748001212E-01 -5.04886415707E-03 +9.79701805943E-03 -5.47881871639E-03 +9.81904302551E-03 +5.62657815543E-02 -3.90919511927E-01
2.96000000000E+09 -1.50140057710E-01 -3.76654561402E-01 -4.55219205575E-03 +1.02462224140E-02 -4.94491184995E-03 +1.07277159587E-02 +1.63251457812E-02 -3.82505948827E-01
2.96500000000E+09 -1.81063986810E-01 -3.55440186600E-01 -3.57189623097E-03 +1.11758909260E-02 -3.47720300140E-03 +1.17504871752E-02 -2.46181085778E-02 -3.70538881865E-01
2.97000000000E+09 -2.10963498276E-01 -3.30984403125E-01 -2.19034952864E-03 +1.18474264808E-02 -1.76028450596E-03 +1.19534574565E-02 -6.50099455479E-02 -3.56011095274E-01
2.97500000000E+09 -2.38979591827E-01 -3.04668457984E-01 -8.46861237863E-04 +1.25298213784E-02 -5.79565515228E-04 +1.21558776652E-02 -1.04504332767E-01 -3.39006649092E-01
2.98000000000E+09 -2.66540151263E-01 -2.76657371245E-01 +1.52655348927E-03 +1.24037498077E-02 +1.20845612183E-03 +1.20535108555E-02 -1.43051753475E-01 -3.19139009203E-01
2.98500000000E+09 -2.93264023697E-01 -2.46284396610E-01 +2.52156781986E-03 +1.14971563045E-02 +2.05605245445E-03 +1.17118567584E-02 -1.80176207552E-01 -2.95522643724E-01
2.99000000000E+09 -3.18035517945E-01 -2.14084876720E-01 +3.07337616282E-03 +1.14836637219E-02 +3.01192827294E-03 +1.20798136213E-02 -2.15817846194E-01 -2.68781248853E-01
2.99500000000E+09 -3.40992563921E-01 -1.80494279059E-01 +4.50630500523E-03 +1.23438739322E-02 +5.12351716367E-03 +1.27426183551E-02 -2.49490597362E-01 -2.38980910522E-01
3.00000000000E+09 -3.60687673529E-01 -1.46493724336E-01 +7.27460835250E-03 +1.16259743740E-02 +7.94648634046E-03 +1.12245904759E-02 -2.80438756614E-01 -2.06695159244E-01
3.00500000000E+09 -3.78778724913E-01 -1.13471984667E-01 +8.50458566714E-03 +1.01114980929E-02 +8.57812247308E-03 +9.34711078817E-03 -3.09474927973E-01 -1.73689129345E-01
3.01000000000E+09 -3.95199699604E-01 -8.00290198020E-02 +9.60348517640E-03 +8.89955216448E-03 +9.18110856709E-03 +8.42786825172E-03 -3.36349671628E-01 -1.38603792906E-01
3.01500000000E+09 -4.09327154343E-01 -4.57853279088E-02 +1.04600965947E-02 +7.85296821464E-03 +1.00177662816E-02 +7.87985509643E-03 -3.60692707828E-01 -1.01977997680E-01
3.02000000000E+09 -4.19833124887E-01 -1.07832027344E-02 +1.14979955985E-02 +6.64764513371E-03 +1.13600843134E-02 +6.87888894322E-03 -3.81233839983E-01 -6.16845612748E-02
3.02500000000E+09 -4.27193178556E-01 +2.40946497514E-02 +1.23996025777E-02 +5.32434893687E-03 +1.23377926216E-02 +5.37760111896E-03 -3.96718596539E-01 -2.11596934995E-02
3.03000000000E+09 -4.31053072882E-01 +5.95639511457E-02 +1.31868255838E-02 +3.57598759874E-03 +1.29687521849E-02 +3.65339025165E-03 -4.09991599695E-01 +1.94273951279E-02
3.03500000000E+09 -4.31158990675E-01 +9.49432050840E-02 +1.35875182277E-02 +1.99217425201E-03 +1.33842457554E-02 +2.35620849416E-03 -4.20807226952E-01 +5.96116609722E-02
3.04000000000E+09 -4.28498039640E-01 +1.29121413231E-01 +1.40284111768E-02 -1.69766844408E-04 +1.43375182075E-02 +3.83456623501E-04 -4.29779691225E-01 +1.00415851336E-01
3.04500000000E+09 -4.24249177680E-01 +1.63186058385E-01 +1.36228623170E-02 -2.22284913587E-03 +1.44956120288E-02 -2.18643911797E-03 -4.34804203421E-01 +1.42259300480E-01
3.05000000000E+09 -4.17940311865E-01 +1.97487211372E-01 +1.27850316743E-02 -4.00209313008E-03 +1.34235689595E-02 -4.72293840489E-03 -4.35007582623E-01 +1.82539796093E-01
3.05500000000E+09 -4.09763074609E-01 +2.31361400025E-01 +1.18910147536E-02 -5.16552984501E-03 +1.15888069062E-02 -6.07119381610E-03 -4.34039040774E-01 +2.20482628300E-01
3.06000000000E+09 -3.99935306433E-01 +2.64872422549E-01 +1.14671653791E-02 -6.48006421761E-03 +1.06997224755E-02 -6.82932396289E-03 -4.31804080244E-01 +2.59004167059E-01
3.06500000000E+09 -3.87680959177E-01 +2.97596294675E-01 +1.06887681725E-02 -8.39425558451E-03 +9.98617296792E-03 -7.84436981662E-03 -4.26471104397E-01 +2.96862546879E-01
3.07000000000E+09 -3.74140726901E-01 +3.27191558723E-01 +8.62278760965E-03 -1.00348614730E-02 +8.97353443924E-03 -9.14644095957E-03 -4.19045457391E-01 +3.33021986386E-01
