# Hz S RI R 50
! CMT, C1220, 16058040, 17.2.0/1
! Date: 15/08/2018 10:44:33
! Data: Format (Calibration Info)
! Freq                      S11: Re/Im (F2)                       S21: Re/Im (F2)                       S12: Re/Im (F2)                       S22: Re/Im (F2)            
2.50000000000E+09 +5.92765668817E-01 +6.53229872141E-01 -1.46089611284E-05 -1.97699283295E-04 -2.15253304592E-06 -2.61185603302E-04 +5.63743249095E-01 +7.25856427515E-01
2.50500000000E+09 +5.99555954974E-01 +6.44832359409E-01 -3.53773798057E-05 -2.05711615454E-04 -4.01675932573E-05 -2.09016673436E-04 +5.69565527440E-01 +7.20308775255E-01
2.51000000000E+09 +6.06928892382E-01 +6.36523151521E-01 -5.08012053448E-05 -2.33161086649E-04 -3.19363309544E-05 -2.36033992833E-04 +5.75691813631E-01 +7.14940738022E-01
2.51500000000E+09 +6.14723779825E-01 +6.28767511736E-01 -1.03154244674E-04 -3.42809551384E-04 -8.08482580406E-05 -2.95253212967E-04 +5.81194165838E-01 +7.09467882637E-01
2.52000000000E+09 +6.21704530203E-01 +6.21138117141E-01 -1.38923673575E-04 -3.17402174792E-04 -1.36190255012E-04 -3.07541668342E-04 +5.86628044225E-01 +7.03456001593E-01
2.52500000000E+09 +6.27551054814E-01 +6.14659169824E-01 -2.47628535022E-04 -2.75637046500E-04 -2.23171848982E-04 -2.82440982609E-04 +5.92682320164E-01 +6.96977040424E-01
2.53000000000E+09 +6.32458269337E-01 +6.08849065591E-01 -2.44338880111E-04 -2.52508245626E-04 -2.68646158472E-04 -2.82539985841E-04 +5.98938335068E-01 +6.89603591650E-01
2.53500000000E+09 +6.36469197260E-01 +6.03466493932E-01 -3.52070043444E-04 -2.47693067533E-04 -3.54766682840E-04 -2.26041607560E-04 +6.04909362172E-01 +6.82518087689E-01
2.54000000000E+09 +6.39791333810E-01 +5.97557221525E-01 -3.54902959869E-04 -1.70457741733E-04 -3.87858018477E-04 -1.86415044156E-04 +6.10663659504E-01 +6.75692169983E-01
2.54500000000E+09 +6.43339848698E-01 +5.91331540664E-01 -3.66759182854E-04 -1.00419616579E-04 -3.67971610785E-04 -1.38123046731E-04 +6.16144499146E-01 +6.69293529882E-01
2.55000000000E+09 +6.47719446978E-01 +5.83800071301E-01 -3.91499268048E-04 -9.42668708699E-05 -4.02702375795E-04 -1.19742583049E-04 +6.21262812462E-01 +6.63153557210E-01
2.55500000000E+09 +6.53144729875E-01 +5.74741740660E-01 -4.08151092028E-04 -1.18942358672E-04 -4.49166981186E-04 -1.38357749870E-04 +6.26181296411E-01 +6.56751704218E-01
2.56000000000E+09 +6.59749576411E-01 +5.65098775587E-01 -3.83351204171E-04 -7.80392717437E-05 -4.71038741559E-04 -6.04353250025E-05 +6.31204665870E-01 +6.49673984583E-01
2.56500000000E+09 +6.66886570539E-01 +5.54690554929E-01 -4.68142072044E-04 -1.03157839012E-04 -5.44527094627E-04 -1.97823568342E-05 +6.36421245833E-01 +6.42209202990E-01
2.57000000000E+09 +6.74650807623E-01 +5.44909998796E-01 -5.92085690352E-04 +8.00325071379E-06 -5.67725147654E-04 +1.37222551227E-04 +6.41495747231E-01 +6.34404309355E-01
2.57500000000E+09 +6.82358076071E-01 +5.35530580922E-01 -5.63100661781E-04 +4.71569595337E-05 -4.52584108473E-04 +1.24268799990E-04 +6.46671860110E-01 +6.27196556421E-01
2.58000000000E+09 +6.88947575424E-01 +5.27219326329E-01 -5.84604265837E-04 +1.09444574367E-04 -4.56823862533E-04 +1.20124056754E-04 +6.51821473432E-01 +6.20037210053E-01
2.58500000000E+09 +6.94235053251E-01 +5.20031580214E-01 -6.80110719058E-04 +2.13757765616E-04 -6.17269380987E-04 +1.62959602120E-04 +6.56935023924E-01 +6.12824250711E-01
2.59000000000E+09 +6.98224540262E-01 +5.14051178778E-01 -6.09190219609E-04 +3.54204716226E-04 -6.20342600317E-04 +2.61044632990E-04 +6.61902659163E-01 +6.05589812332E-01
2.59500000000E+09 +7.01478897986E-01 +5.08133750436E-01 -5.67747759928E-04 +4.35437800005E-04 -6.12052324964E-04 +4.55289428651E-04 +6.67274442710E-01 +5.97867284441E-01
2.60000000000E+09 +7.03903459726E-01 +5.01473743227E-01 -4.73198462899E-04 +5.16385475423E-04 -4.73632843989E-04 +4.98533582610E-04 +6.73013147944E-01 +5.89772637619E-01
2.60500000000E+09 +7.06395114036E-01 +4.93173777099E-01 -5.06867124838E-04 +4.84292101867E-04 -5.07340463755E-04 +5.03964297577E-04 +6.78790159609E-01 +5.80859023630E-01
2.61000000000E+09 +7.09179683961E-01 +4.82971811097E-01 -5.13941085717E-04 +6.81689342927E-04 -5.48273279792E-04 +6.67639816020E-04 +6.84217645901E-01 +5.71899781583E-01
2.61500000000E+09 +7.13086263290E-01 +4.70785000503E-01 -2.85038621128E-04 +8.14558965867E-04 -3.56982925106E-04 +8.23926356241E-04 +6.89294988483E-01 +5.63108840499E-01
2.62000000000E+09 +7.17661068309E-01 +4.56436659187E-01 -2.41310997850E-04 +6.96947442634E-04 -2.27653741165E-04 +7.29281396378E-04 +6.94281640985E-01 +5.54046277102E-01
2.62500000000E+09 +7.22758590220E-01 +4.41130553555E-01 -3.29671549929E-04 +7.09360753189E-04 -2.97416581786E-04 +8.50099975499E-04 +6.99366711790E-01 +5.45002708992E-01
2.63000000000E+09 +7.27959959528E-01 +4.25928492641E-01 -2.34201481422E-04 +9.23713373731E-04 -1.33401514355E-04 +9.24624178362E-04 +7.03932075231E-01 +5.35493040331E-01
2.63500000000E+09 +7.32987539465E-01 +4.11810141707E-01 -2.28457173420E-04 +1.00006254605E-03 -9.62274186523E-05 +8.77858890033E-04 +7.08548372461E-01 +5.26132180307E-01
2.64000000000E+09 +7.37317865351E-01 +3.99625312054E-01 -9.78413002099E-05 +1.18740431116E-03 -2.42486127685E-05 +1.04755587317E-03 +7.13024702857E-01 +5.16343390932E-01
2.64500000000E+09 +7.41283097400E-01 +3.89361329290E-01 +3.76452485382E-04 +1.22053315951E-03 +2.40593121730E-04 +1.09343173115E-03 +7.17405002047E-01 +5.06468128971E-01
2.65000000000E+09 +7.44162983352E-01 +3.80568486555E-01 +4.69669295742E-04 +9.63041190955E-04 +3.60946435697E-04 +9.71168032005E-04 +7.21576597340E-01 +4.96278245223E-01
2.65500000000E+09 +7.46555351086E-01 +3.72295503473E-01 +3.65801524996E-04 +8.90286526862E-04 +2.97536459241E-04 +9.95363414253E-04 +7.25271942091E-01 +4.85853695653E-01
2.66000000000E+09 +7.48127866996E-01 +3.63981396711E-01 +3.46703143378E-04 +1.06085729670E-03 +3.69414814701E-04 +1.09038352671E-03 +7.29197056924E-01 +4.74779237841E-01
2.66500000000E+09 +7.49518480430E-01 +3.54937699158E-01 +6.01915324401E-04 +1.23085571062E-03 +6.76197249127E-04 +1.17274530362E-03 +7.33200368309E-01 +4.63766734399E-01
2.67000000000E+09 +7.50678066161E-01 +3.43623738797E-01 +9.43751235348E-04 +1.09443125265E-03 +9.62240410565E-04 +1.04958523617E-03 +7.37431836900E-01 +4.53168026470E-01
2.67500000000E+09 +7.52231043034E-01 +3.30400572815E-01 +1.11556775104E-03 +9.49754514669E-04 +1.02395701074E-03 +8.93646355015E-04 +7.41535911045E-01 +4.42338730631E-01
2.68000000000E+09 +7.53881090775E-01 +3.14878777039E-01 +1.20480322429E-03 +7.95279706159E-04 +1.15437447764E-03 +7.33361190672E-04 +7.45328401927E-01 +4.31483133275E-01
2.68500000000E+09 +7.55508923775E-01 +2.98312495663E-01 +1.18646708874E-03 +8.07664698117E-04 +1.09139835168E-03 +8.06985079696E-04 +7.48742702357E-01 +4.20193009803E-01
2.69000000000E+09 +7.57252264643E-01 +2.81300900412E-01 +1.53984253257E-03 +7.77360169863E-04 +1.51027167376E-03 +7.92130215596E-04 +7.51509744597E-01 +4.08720453239E-01
2.69500000000E+09 +7.58956152085E-01 +2.64908828202E-01 +1.75164999875E-03 +5.28817735507E-04 +1.72478760511E-03 +5.58421728894E-04 +7.54592949016E-01 +3.96531192701E-01
2.70000000000E+09 +7.60352733074E-01 +2.49096082753E-01 +1.97426453444E-03 +3.05457128553E-04 +1.90549471682E-03 +3.32812328376E-04 +7.57863377396E-01 +3.83347970278E-01
2.70500000000E+09 +7.61612229217E-01 +2.34835155367E-01 +2.13440631133E-03 -1.09327279923E-04 +2.05468418047E-03 -6.37331024719E-05 +7.60758546685E-01 +3.70257264032E-01
2.71000000000E+09 +7.62479981629E-01 +2.21360507260E-01 +2.00556535658E-03 -5.28732091529E-04 +2.08355918723E-03 -4.14966216288E-04 +7.63873213260E-01 +3.57326125090E-01
2.71500000000E+09 +7.63095720723E-01 +2.08325713910E-01 +1.77975043060E-03 -8.41142588496E-04 +1.91510449698E-03 -8.53518262072E-04 +7.66778180220E-01 +3.44830325391E-01
2.72000000000E+09 +7.63366507319E-01 +1.95356693341E-01 +1.56458512971E-03 -8.69879831798E-04 +1.68204608516E-03 -9.86296618507E-04 +7.68827026120E-01 +3.32113901848E-01
2.72500000000E+09 +7.63306477056E-01 +1.81313680547E-01 +1.60231248519E-03 -9.68686340295E-04 +1.49209274841E-03 -1.14289954697E-03 +7.70611033588E-01 +3.18888625571E-01
2.73000000000E+09 +7.62438516495E-01 +1.66089759955E-01 +1.69649623128E-03 -1.29776067510E-03 +1.48530119163E-03 -1.32210926317E-03 +7.72272995792E-01 +3.04869548402E-01
2.73500000000E+09 +7.60556098008E-01 +1.49070001498E-01 +1.50470939013E-03 -1.66601919770E-03 +1.31383912099E-03 -1.45864215241E-03 +7.73951366702E-01 +2.89820545697E-01
2.74000000000E+09 +7.57783604943E-01 +1.31799124281E-01 +1.16478198769E-03 -1.82787675223E-03 +1.15291105894E-03 -1.57440515592E-03 +7.75572567465E-01 +2.74378952500E-01
2.74500000000E+09 +7.54100728788E-01 +1.13998059191E-01 +1.10504920688E-03 -1.96524671532E-03 +1.24335025497E-03 -1.73654282738E-03 +7.77129626316E-01 +2.58734102363E-01
2.75000000000E+09 +7.49679073241E-01 +9.61346020315E-02 +8.53299237584E-04 -2.19345721843E-03 +1.07141046365E-03 -2.15572161048E-03 +7.77980288390E-01 +2.42937956847E-01
2.75500000000E+09 +7.44753253193E-01 +7.86432287278E-02 +5.41344694665E-04 -2.35701872271E-03 +6.82631501798E-04 -2.44687781692E-03 +7.77621216265E-01 +2.27233166379E-01
2.76000000000E+09 +7.39677278061E-01 +6.12127764706E-02 +1.42254886501E-04 -2.51695189490E-03 +2.07691305596E-04 -2.73152810290E-03 +7.76973267961E-01 +2.11880450652E-01
2.76500000000E+09 +7.33898995760E-01 +4.37587165115E-02 -2.98403688879E-04 -2.38286443051E-03 -2.94351906821E-04 -2.57167516547E-03 +7.76093428267E-01 +1.95107705055E-01
2.77000000000E+09 +7.27796089435E-01 +2.56643268044E-02 -5.53186444018E-04 -2.41630840378E-03 -6.90234823454E-04 -2.58909054569E-03 +7.74719177895E-01 +1.77543925337E-01
2.77500000000E+09 +7.21154974282E-01 +6.91592454853E-03 -1.04327190807E-03 -2.26631266032E-03 -1.10425926584E-03 -2.33318567269E-03 +7.72606462034E-01 +1.59775415428E-01
2.78000000000E+09 +7.14307230742E-01 -1.28168101934E-02 -1.17619691004E-03 -1.99555043714E-03 -1.30498239763E-03 -1.94830627880E-03 +7.70220585693E-01 +1.42088965190E-01
2.78500000000E+09 +7.06370597144E-01 -3.35365678474E-02 -1.30104174533E-03 -1.80947569325E-03 -1.49637951822E-03 -1.72663282688E-03 +7.67401121503E-01 +1.24889681713E-01
2.79000000000E+09 +6.98309478658E-01 -5.41421088199E-02 -1.37798229382E-03 -1.72770217127E-03 -1.43797714657E-03 -1.57658409148E-03 +7.64189132042E-01 +1.08090312496E-01
2.79500000000E+09 +6.90332277619E-01 -7.50289844869E-02 -1.60880820883E-03 -1.78527062148E-03 -1.54668021696E-03 -1.64912771044E-03 +7.60388221812E-01 +9.06405207799E-02
2.80000000000E+09 +6.81582641558E-01 -9.56107529878E-02 -2.04211509625E-03 -1.55392922620E-03 -1.90001327970E-03 -1.52982352120E-03 +7.55736943407E-01 +7.25457899468E-02
2.80500000000E+09 +6.72048437554E-01 -1.14979036557E-01 -2.08161736915E-03 -1.26144187730E-03 -2.09384678935E-03 -1.32399691921E-03 +7.50472170457E-01 +5.41888177083E-02
2.81000000000E+09 +6.61627609966E-01 -1.32433755826E-01 -2.30232714209E-03 -1.02288234524E-03 -2.33177460926E-03 -1.09604526703E-03 +7.45236005699E-01 +3.53869764791E-02
2.81500000000E+09 +6.49519550018E-01 -1.48511033932E-01 -2.40052823470E-03 -9.26603554362E-04 -2.49609952034E-03 -8.63651652957E-04 +7.39302540534E-01 +1.54095705273E-02
2.82000000000E+09 +6.36451791384E-01 -1.62936788170E-01 -2.79103771304E-03 -5.40986534565E-04 -2.82478871806E-03 -3.80783350130E-04 +7.32646854622E-01 -4.79412167970E-03
2.82500000000E+09 +6.21975936196E-01 -1.77273107063E-01 -2.86107783471E-03 -3.72621876428E-05 -2.71827110761E-03 +1.38097777665E-04 +7.24728128863E-01 -2.52218700681E-02
2.83000000000E+09 +6.05029052449E-01 -1.92812903668E-01 -2.90941171318E-03 +4.56584393851E-04 -2.73417854337E-03 +3.70756409992E-04 +7.15983665403E-01 -4.58894219340E-02
2.83500000000E+09 +5.86060436726E-01 -2.08720953808E-01 -2.71825212005E-03 +1.01978386883E-03 -2.63997748770E-03 +8.20022712445E-04 +7.05779695000E-01 -6.69112782370E-02
2.84000000000E+09 +5.65044816421E-01 -2.26795855494E-01 -2.23243392854E-03 +1.28779549250E-03 -2.31414687175E-03 +1.16649419886E-03 +6.94687828121E-01 -8.81407126350E-02
2.84500000000E+09 +5.41589325995E-01 -2.45791707665E-01 -2.11380115743E-03 +1.24734965964E-03 -2.12964246411E-03 +1.22097021756E-03 +6.81826887375E-01 -1.09510927936E-01
2.85000000000E+09 +5.17228901596E-01 -2.65849685877E-01 -2.15874993250E-03 +1.48569426450E-03 -2.15734600977E-03 +1.50021339342E-03 +6.67594507609E-01 -1.30447017910E-01
2.85500000000E+09 +4.90863473089E-01 -2.85465204552E-01 -2.03776303037E-03 +1.82561692337E-03 -2.05848270798E-03 +1.78038557627E-03 +6.51895082063E-01 -1.50456961452E-01
2.86000000000E+09 +4.65013539951E-01 -3.02506607236E-01 -1.69221788934E-03 +2.34112444787E-03 -1.74606097551E-03 +2.21463422658E-03 +6.36343827866E-01 -1.70352859109E-01
2.86500000000E+09 +4.40602109214E-01 -3.17763785744E-01 -1.43949332516E-03 +2.14870106481E-03 -1.49828585803E-03 +2.14308075349E-03 +6.19077667007E-01 -1.91146288903E-01
2.87000000000E+09 +4.16790794340E-01 -3.31419624934E-01 -1.38284621737E-03 +2.89310802874E-03 -1.39532696941E-03 +2.89537982797E-03 +6.00050920360E-01 -2.11214537485E-01
2.87500000000E+09 +3.92685392209E-01 -3.42967567579E-01 -3.67556122094E-04 +2.81254909278E-03 -3.07958864751E-04 +2.83189463814E-03 +5.79412308917E-01 -2.30866842456E-01
2.88000000000E+09 +3.68171349519E-01 -3.52610994788E-01 -3.88031489417E-04 +2.49182328384E-03 -3.27482145521E-04 +2.48358855030E-03 +5.58443797742E-01 -2.48612982132E-01
2.88500000000E+09 +3.40940615337E-01 -3.60418673018E-01 -1.12768533205E-04 +2.80875003091E-03 -9.13629733607E-05 +2.72643288319E-03 +5.36670445218E-01 -2.67636759437E-01
2.89000000000E+09 +3.11504432334E-01 -3.65893425782E-01 +3.71809964765E-04 +2.68126308781E-03 +2.92034876411E-04 +2.54060972128E-03 +5.11972841189E-01 -2.85735970845E-01
2.89500000000E+09 +2.79910085828E-01 -3.69778864684E-01 +7.20387214151E-04 +2.60117922085E-03 +5.88700359369E-04 +2.59602959217E-03 +4.86151014416E-01 -3.03009303066E-01
2.90000000000E+09 +2.46400423837E-01 -3.72369582453E-01 +1.15833684181E-03 +2.52503060716E-03 +1.00487657126E-03 +2.59045075502E-03 +4.59062233540E-01 -3.20391332769E-01
2.90500000000E+09 +2.10968537495E-01 -3.73884085829E-01 +1.35564344302E-03 +2.14544813458E-03 +1.32057483512E-03 +2.21660088106E-03 +4.30158539128E-01 -3.36746994297E-01
2.91000000000E+09 +1.74633315878E-01 -3.74167507857E-01 +1.79150182339E-03 +2.09774585746E-03 +1.85420346933E-03 +2.07988002755E-03 +4.00197584299E-01 -3.52863839639E-01
2.91500000000E+09 +1.38229420631E-01 -3.72447444343E-01 +1.92598952073E-03 +1.73393896725E-03 +1.90949397302E-03 +1.69747793755E-03 +3.67224420273E-01 -3.66433350768E-01
2.92000000000E+09 +1.02572343851E-01 -3.68726002991E-01 +2.46091945730E-03 +1.40499292816E-03 +2.33652080124E-03 +1.36449961365E-03 +3.32672846774E-01 -3.77510898948E-01
2.92500000000E+09 +6.88189298242E-02 -3.62144977267E-01 +2.36723709452E-03 +5.89831532639E-04 +2.28422294625E-03 +6.71627637652E-04 +2.96961898380E-01 -3.85411834401E-01
2.93000000000E+09 +3.67183174125E-02 -3.53758867582E-01 +1.99469242245E-03 +2.96884002743E-04 +1.96071634196E-03 +4.17856588379E-04 +2.60384059454E-01 -3.92478725669E-01
2.93500000000E+09 +5.72519722791E-03 -3.42779902929E-01 +2.03157209151E-03 +2.62707980549E-04 +1.99057626282E-03 +2.71477710727E-04 +2.21626535390E-01 -3.98232908655E-01
2.94000000000E+09 -2.43366512160E-02 -3.29261184948E-01 +1.76913661398E-03 -3.92590734662E-04 +1.81113798997E-03 -4.40674732054E-04 +1.80559298241E-01 -4.01038301863E-01
2.94500000000E+09 -5.45150112609E-02 -3.13398521688E-01 +1.07954784605E-03 -1.57679834739E-04 +1.14497631172E-03 -1.44435332616E-04 +1.40956759002E-01 -4.00352065942E-01
2.95000000000E+09 -8.53534083161E-02 -2.93445981414E-01 +1.50141322287E-03 +1.17277224750E-04 +1.46822813601E-03 +1.15074181676E-04 +1.00104175008E-01 -3.98440819868E-01
2.95500000000E+09 -1.13652238958E-01 -2.70521764596E-01 +1.64884361834E-03 -9.08376427853E-05 +1.62419268850E-03 -5.60776191113E-05 +5.93695282744E-02 -3.92537627007E-01
2.96000000000E+09 -1.41922139794E-01 -2.47412050339E-01 +1.30658917573E-03 -7.80537971512E-04 +1.35094879835E-03 -7.92471542515E-04 +1.78238433027E-02 -3.83664356664E-01
2.96500000000E+09 -1.69284799719E-01 -2.20977245445E-01 +5.74431185203E-04 -2.92853421302E-04 +5.46076599939E-04 -3.28527969816E-04 -2.29629071316E-02 -3.70215334536E-01
2.97000000000E+09 -1.93239170886E-01 -1.94415831467E-01 +1.03874080319E-03 +7.55362937564E-05 +1.07195042681E-03 +1.01292538508E-04 -6.19982687227E-02 -3.54670970886E-01
2.97500000000E+09 -2.16750174731E-01 -1.67502344851E-01 +1.30482163892E-03 -1.79765691707E-04 +1.24430694088E-03 -1.96367152650E-04 -1.00307504044E-01 -3.38198951039E-01
2.98000000000E+09 -2.38163165082E-01 -1.38654383782E-01 +1.06363166789E-03 -2.49990651142E-04 +9.75119291785E-04 -1.42411190371E-04 -1.38908026844E-01 -3.18737744159E-01
2.98500000000E+09 -2.56842828267E-01 -1.08602785037E-01 +1.33393792888E-03 -1.62548300031E-04 +1.32878504772E-03 -7.03636031824E-05 -1.76014227165E-01 -2.96184139455E-01
2.99000000000E+09 -2.72889571516E-01 -7.77473224350E-02 +1.43760203001E-03 -3.66989947289E-04 +1.48848328806E-03 -3.32987607817E-04 -2.11453957195E-01 -2.69979620434E-01
2.99500000000E+09 -2.86910940240E-01 -4.65510679140E-02 +1.52242532981E-03 -5.07874970352E-04 +1.54949080585E-03 -5.04819108879E-04 -2.44280286534E-01 -2.40495563595E-01
3.00000000000E+09 -3.00121414891E-01 -1.49295657677E-02 +1.61293879847E-03 -8.04900170427E-04 +1.63060004890E-03 -9.06317900187E-04 -2.74732127057E-01 -2.08960902456E-01
3.00500000000E+09 -3.11461160706E-01 +1.77138094070E-02 +1.55459551658E-03 -1.06927909919E-03 +1.55243397326E-03 -1.00201176229E-03 -3.03420574888E-01 -1.76648479027E-01
3.01000000000E+09 -3.21061430572E-01 +5.04122841461E-02 +1.31210365442E-03 -1.46029119062E-03 +1.29588217034E-03 -1.32965724801E-03 -3.29985003672E-01 -1.41445131457E-01
3.01500000000E+09 -3.28503045832E-01 +8.33622603498E-02 +1.10142129544E-03 -1.51833164912E-03 +1.18717982921E-03 -1.47530716503E-03 -3.53833875561E-01 -1.05757206933E-01
3.02000000000E+09 -3.32202020499E-01 +1.15105526021E-01 +9.36385260585E-04 -1.74625960898E-03 +1.08974078780E-03 -1.75698362189E-03 -3.74636103126E-01 -6.81395955199E-02
3.02500000000E+09 -3.33188796668E-01 +1.44786029497E-01 +5.28443046037E-04 -1.79653614138E-03 +5.77876912564E-04 -1.80113186577E-03 -3.91926387475E-01 -3.03754201048E-02
3.03000000000E+09 -3.32464182375E-01 +1.72719449304E-01 +3.76985389908E-04 -1.50693678274E-03 +3.76473508960E-04 -1.61619812303E-03 -4.07273595519E-01 +9.46328092869E-03
3.03500000000E+09 -3.29535302324E-01 +2.00915214350E-01 +4.34611751323E-04 -1.57416163688E-03 +3.89378034852E-04 -1.57920768759E-03 -4.18943962204E-01 +5.01474045035E-02
3.04000000000E+09 -3.23192333362E-01 +2.29814623933E-01 +2.02820103328E-04 -1.84675337395E-03 +3.04798000238E-04 -1.95728575779E-03 -4.26076266188E-01 +9.07095784461E-02
3.04500000000E+09 -3.13882326508E-01 +2.57832081744E-01 -1.91133409734E-04 -1.69197031105E-03 -2.00476034631E-04 -1.83234433931E-03 -4.31599627286E-01 +1.29605489971E-01
3.05000000000E+09 -3.03068056080E-01 +2.86989334248E-01 -1.81898804132E-04 -1.47301153650E-03 -2.71305436566E-04 -1.59183219613E-03 -4.34957372195E-01 +1.67894939548E-01
3.05500000000E+09 -2.89676756533E-01 +3.15716066224E-01 -1.86983488067E-04 -1.58459058638E-03 -3.53525140643E-04 -1.57489678818E-03 -4.36525943878E-01 +2.06358135096E-01
3.06000000000E+09 -2.75805784849E-01 +3.43805153739E-01 -2.68681999318E-04 -1.66610059596E-03 -3.74127413518E-04 -1.50375508999E-03 -4.35200920492E-01 +2.44144971898E-01
3.06500000000E+09 -2.61606757641E-01 +3.70864727545E-01 -3.29486416407E-04 -1.83557310466E-03 -2.81327970609E-04 -1.71265374019E-03 -4.31223771554E-01 +2.81332731769E-01
3.07000000000E+09 -2.48170941176E-01 +3.95356379234E-01 -9.74637278300E-04 -2.04833712510E-03 -8.92332402056E-04 -1.97941479560E-03 -4.25227512550E-01 +3.17211797332E-01
