# Hz S RI R 50
! CMT, C1220, 16058040, 17.2.0/1
! Date: 15/08/2018 10:52:43
! Data: Format (Calibration Info)
! Freq                      S11: Re/Im (F2)                       S21: Re/Im (F2)                       S12: Re/Im (F2)                       S22: Re/Im (F2)            
2.50000000000E+09 +5.80011499274E-01 +6.52380524574E-01 -9.00920710303E-04 +6.82000279203E-04 -9.78134252680E-04 +7.01343878026E-04 +5.61450422992E-01 +7.26906282204E-01
2.50500000000E+09 +5.87602394130E-01 +6.43291591135E-01 -8.54058803281E-04 +7.85744482977E-04 -8.36528562924E-04 +8.28583616137E-04 +5.67226412866E-01 +7.21440188810E-01
2.51000000000E+09 +5.96072473467E-01 +6.33924371463E-01 -7.88665669994E-04 +8.29639646762E-04 -7.47213418277E-04 +8.71632822701E-04 +5.73029551912E-01 +7.15896198827E-01
2.51500000000E+09 +6.04479458809E-01 +6.25074457007E-01 -6.42053069487E-04 +9.31366728805E-04 -6.51127407918E-04 +9.28549468119E-04 +5.78339923074E-01 +7.10218889859E-01
2.52000000000E+09 +6.12049257084E-01 +6.16717818598E-01 -5.26409237479E-04 +9.79112551780E-04 -5.54108121210E-04 +9.59987451911E-04 +5.83560526632E-01 +7.03986911298E-01
2.52500000000E+09 +6.18073940009E-01 +6.09674782460E-01 -4.06614125734E-04 +9.70280717159E-04 -4.98680677705E-04 +9.64829512429E-04 +5.88911266376E-01 +6.97619579276E-01
2.53000000000E+09 +6.23030506377E-01 +6.03510840764E-01 -3.47744203058E-04 +9.72838973771E-04 -3.73017504368E-04 +1.03951658598E-03 +5.94868637681E-01 +6.90827755550E-01
2.53500000000E+09 +6.26859702221E-01 +5.98105380055E-01 -3.66215360379E-04 +1.08874262160E-03 -3.79586510066E-04 +1.08622865760E-03 +6.00673430794E-01 +6.84290756488E-01
2.54000000000E+09 +6.29890099455E-01 +5.92501693878E-01 -1.65019995731E-04 +1.18938106598E-03 -1.79146996384E-04 +1.15259524713E-03 +6.06655010311E-01 +6.77871636713E-01
2.54500000000E+09 +6.33001613435E-01 +5.86467218396E-01 +2.20821384517E-06 +1.13987140603E-03 -8.36841315177E-05 +1.16858166415E-03 +6.12379358361E-01 +6.71668342132E-01
2.55000000000E+09 +6.36825726460E-01 +5.79425009984E-01 +1.41254272832E-04 +1.16920099824E-03 +9.37685950918E-05 +1.26348233249E-03 +6.17570525808E-01 +6.65565173355E-01
2.55500000000E+09 +6.41903111372E-01 +5.71020781399E-01 +3.04922368770E-04 +9.75300656068E-04 +2.92386440919E-04 +1.15982830518E-03 +6.22702116226E-01 +6.59284417726E-01
2.56000000000E+09 +6.48495835363E-01 +5.61899770407E-01 +2.41327231770E-04 +9.66185279583E-04 +4.00084702313E-04 +1.09729581540E-03 +6.27680943541E-01 +6.52382808042E-01
2.56500000000E+09 +6.56498544868E-01 +5.51695600469E-01 +2.94225614126E-04 +9.81706866590E-04 +5.64484985983E-04 +1.08686313866E-03 +6.33109405803E-01 +6.45149577403E-01
2.57000000000E+09 +6.64872750198E-01 +5.41334763244E-01 +4.71891260063E-04 +1.02528083321E-03 +6.75767918199E-04 +8.71629440411E-04 +6.38630251039E-01 +6.37733479125E-01
2.57500000000E+09 +6.73152644800E-01 +5.31215342977E-01 +6.09461687382E-04 +9.93478266833E-04 +6.92850745719E-04 +8.02349097486E-04 +6.44328046186E-01 +6.30169731857E-01
2.58000000000E+09 +6.80027098953E-01 +5.22112544327E-01 +7.62804181740E-04 +9.04153009860E-04 +6.95237519578E-04 +7.65355060774E-04 +6.49881669468E-01 +6.22950694778E-01
2.58500000000E+09 +6.85741453101E-01 +5.13814011065E-01 +8.83453708758E-04 +7.32938539179E-04 +7.02673166712E-04 +6.81962816668E-04 +6.55169199468E-01 +6.15188448687E-01
2.59000000000E+09 +6.89853700590E-01 +5.06385333645E-01 +8.32214411821E-04 +5.83879506116E-04 +7.15047793336E-04 +6.35539074061E-04 +6.60039446829E-01 +6.07645702283E-01
2.59500000000E+09 +6.92732741283E-01 +4.99108378680E-01 +8.76222556038E-04 +5.65264583232E-04 +8.50607823530E-04 +6.70037592542E-04 +6.65270663157E-01 +5.99477005110E-01
2.60000000000E+09 +6.94614654711E-01 +4.91145850924E-01 +9.78160039203E-04 +4.56876924395E-04 +9.96038549221E-04 +4.56383888505E-04 +6.70399346362E-01 +5.91293837123E-01
2.60500000000E+09 +6.96698496805E-01 +4.81560674198E-01 +9.97982381523E-04 +2.69649329545E-04 +9.79697166821E-04 +2.80376100430E-04 +6.76015784451E-01 +5.82571590475E-01
2.61000000000E+09 +6.99121596447E-01 +4.70006092044E-01 +8.52431299827E-04 +2.10178244575E-04 +8.49991028914E-04 +2.26251435461E-04 +6.81442783343E-01 +5.73735376682E-01
2.61500000000E+09 +7.02814821998E-01 +4.56560457742E-01 +8.70443293609E-04 +1.87340061890E-04 +8.34501571043E-04 +1.69333501689E-04 +6.86232849181E-01 +5.64905305880E-01
2.62000000000E+09 +7.07308568056E-01 +4.40894700467E-01 +7.86154956891E-04 +1.57626359670E-05 +8.81252829386E-04 -1.52125126404E-05 +6.90947298811E-01 +5.55922276747E-01
2.62500000000E+09 +7.12473029308E-01 +4.24094290432E-01 +7.65746238800E-04 +7.84240729383E-05 +7.85373923106E-04 +1.38485338219E-05 +6.95757797881E-01 +5.47432715994E-01
2.63000000000E+09 +7.18352361548E-01 +4.07309902084E-01 +8.29795759321E-04 +7.34021534149E-05 +8.25171312110E-04 -2.95180358466E-06 +7.00556289529E-01 +5.38339289824E-01
2.63500000000E+09 +7.23537671311E-01 +3.91282624849E-01 +9.13215908922E-04 -7.46844107843E-05 +8.21002743867E-04 -1.56415689640E-04 +7.05257784759E-01 +5.29057563997E-01
2.64000000000E+09 +7.27876281427E-01 +3.77049317108E-01 +7.76778235641E-04 -2.45120978962E-04 +6.73259027679E-04 -1.86365809003E-04 +7.09884652983E-01 +5.19450744960E-01
2.64500000000E+09 +7.31371563178E-01 +3.65159333648E-01 +6.55150837709E-04 -2.98066984979E-04 +5.86078285145E-04 -2.31202232164E-04 +7.14449128011E-01 +5.09930671664E-01
2.65000000000E+09 +7.33615685204E-01 +3.55299662348E-01 +5.96395410557E-04 -2.50813442559E-04 +5.85480051000E-04 -1.72289980112E-04 +7.19001573156E-01 +4.99953785266E-01
2.65500000000E+09 +7.35436659761E-01 +3.46185282580E-01 +4.93315384058E-04 -1.98024343436E-04 +5.47232240284E-04 -1.39550896264E-04 +7.22971339791E-01 +4.89414734573E-01
2.66000000000E+09 +7.36742653169E-01 +3.37244007408E-01 +5.36583472378E-04 -5.80283981376E-05 +5.26770224481E-04 -4.03618037939E-05 +7.27000055639E-01 +4.78257304179E-01
2.66500000000E+09 +7.37819436373E-01 +3.27407520873E-01 +6.20213855381E-04 -6.42021764640E-05 +5.98402879772E-04 -1.28470690570E-04 +7.31327362020E-01 +4.67340515132E-01
2.67000000000E+09 +7.39100501171E-01 +3.15471233924E-01 +6.62324013678E-04 -4.60389022026E-05 +5.65104054676E-04 -9.56800140253E-05 +7.35674646721E-01 +4.56838198947E-01
2.67500000000E+09 +7.40306983825E-01 +3.01328176976E-01 +7.19396629635E-04 -6.72258224103E-05 +7.41685355600E-04 -7.72181702520E-05 +7.40155484419E-01 +4.45811162949E-01
2.68000000000E+09 +7.41426458665E-01 +2.85434025637E-01 +8.48662256515E-04 -2.78673833586E-04 +8.08038254487E-04 -2.44707924263E-04 +7.44352960383E-01 +4.34693266882E-01
2.68500000000E+09 +7.42892427134E-01 +2.68576373694E-01 +6.74102913895E-04 -3.24064699242E-04 +6.76557358151E-04 -3.53137581612E-04 +7.47768063340E-01 +4.23165283445E-01
2.69000000000E+09 +7.44194805826E-01 +2.51271538204E-01 +6.48805818807E-04 -1.79247220441E-04 +6.01744084296E-04 -1.54186958796E-04 +7.50535866577E-01 +4.11324288810E-01
2.69500000000E+09 +7.45311912909E-01 +2.34694034892E-01 +7.60098686914E-04 -1.41691941036E-04 +7.74050029831E-04 -1.32746873807E-04 +7.53468073705E-01 +3.98699405520E-01
2.70000000000E+09 +7.46366764537E-01 +2.19148305195E-01 +9.55498330784E-04 -2.35893074508E-04 +9.70492580322E-04 -2.11179415974E-04 +7.56562991622E-01 +3.85668654318E-01
2.70500000000E+09 +7.46996881154E-01 +2.04921631177E-01 +1.14841211815E-03 -4.27662616335E-04 +1.12377856279E-03 -3.54611729464E-04 +7.59787276879E-01 +3.72314998751E-01
2.71000000000E+09 +7.47120359461E-01 +1.91843874375E-01 +1.05255178627E-03 -7.07350641224E-04 +1.14194347161E-03 -6.79879779301E-04 +7.62588040854E-01 +3.58876780375E-01
2.71500000000E+09 +7.47132172815E-01 +1.79033835231E-01 +9.83787852779E-04 -7.90602037263E-04 +1.11849017205E-03 -8.28569991540E-04 +7.64810366875E-01 +3.46484892187E-01
2.72000000000E+09 +7.46868547815E-01 +1.66206039200E-01 +8.90249711851E-04 -9.60122427804E-04 +9.53736551919E-04 -1.12220003134E-03 +7.67169513585E-01 +3.33721770934E-01
2.72500000000E+09 +7.46650116378E-01 +1.52158011469E-01 +7.04799102939E-04 -1.05239144972E-03 +5.81872695129E-04 -1.09853575483E-03 +7.68316911041E-01 +3.20244950838E-01
2.73000000000E+09 +7.45578892419E-01 +1.36388605470E-01 +7.49342067570E-04 -8.91396824550E-04 +6.55983538800E-04 -8.93913892275E-04 +7.69630717095E-01 +3.06208010364E-01
2.73500000000E+09 +7.43926192653E-01 +1.18771689219E-01 +8.63050466037E-04 -1.15413530546E-03 +7.67870158061E-04 -1.01565201105E-03 +7.70296921283E-01 +2.91429246718E-01
2.74000000000E+09 +7.41348093656E-01 +1.00316684562E-01 +7.21823399183E-04 -1.27133097578E-03 +7.69674453315E-04 -1.09170033194E-03 +7.71584581002E-01 +2.76963998023E-01
2.74500000000E+09 +7.37852897318E-01 +8.12416177170E-02 +5.90358683218E-04 -1.40838103469E-03 +7.55666978580E-04 -1.26614429216E-03 +7.73201598126E-01 +2.62350842270E-01
2.75000000000E+09 +7.33125937802E-01 +6.23437866647E-02 +6.41282966681E-04 -1.44675549233E-03 +8.18787767930E-04 -1.45012250334E-03 +7.74431853961E-01 +2.47172022766E-01
2.75500000000E+09 +7.27896605671E-01 +4.45352988703E-02 +5.41563884690E-04 -1.88479054895E-03 +7.38811867370E-04 -2.00148606524E-03 +7.74856579661E-01 +2.32168084858E-01
2.76000000000E+09 +7.22825404846E-01 +2.76754742374E-02 +1.68193569498E-04 -1.94829568401E-03 +2.52879607631E-04 -2.17260979219E-03 +7.74548265952E-01 +2.16583149929E-01
2.76500000000E+09 +7.17079975204E-01 +1.08306135451E-02 -1.46537942657E-04 -2.10405535316E-03 -1.87410096004E-04 -2.21278756619E-03 +7.73803832744E-01 +2.00430860112E-01
2.77000000000E+09 +7.11602254096E-01 -6.23241254369E-03 -5.33089488704E-04 -1.88217309033E-03 -5.96115135797E-04 -2.00735337710E-03 +7.73426333316E-01 +1.83626203967E-01
2.77500000000E+09 +7.05733671503E-01 -2.43239320446E-02 -4.82902350823E-04 -1.39531902748E-03 -5.20888527868E-04 -1.46658139812E-03 +7.72261088955E-01 +1.65411326502E-01
2.78000000000E+09 +6.99485600494E-01 -4.34725194490E-02 -3.49021803273E-05 -1.65088472463E-03 -1.56298063742E-04 -1.70738651641E-03 +7.70678868806E-01 +1.47616291114E-01
2.78500000000E+09 +6.92741197415E-01 -6.40661762272E-02 -2.00976170227E-04 -2.06939873858E-03 -3.71947581049E-04 -2.06018769565E-03 +7.68766772852E-01 +1.29468044955E-01
2.79000000000E+09 +6.85564036518E-01 -8.61097673929E-02 -6.05258608272E-04 -2.17478070316E-03 -7.03065179234E-04 -2.13989199718E-03 +7.65792589953E-01 +1.12102965930E-01
2.79500000000E+09 +6.77199950659E-01 -1.08310448899E-01 -7.94734965850E-04 -2.42552890237E-03 -7.82083360121E-04 -2.26252035597E-03 +7.62402907938E-01 +9.38701214753E-02
2.80000000000E+09 +6.68107440965E-01 -1.29788676598E-01 -1.35058481928E-03 -2.42514822475E-03 -1.22051824736E-03 -2.33241352229E-03 +7.57806930442E-01 +7.49847017896E-02
2.80500000000E+09 +6.58659910634E-01 -1.50150723875E-01 -1.44749985680E-03 -2.24043423449E-03 -1.29770479353E-03 -2.28820993269E-03 +7.52155655719E-01 +5.53538979239E-02
2.81000000000E+09 +6.47759655815E-01 -1.68557582068E-01 -1.75108741950E-03 -2.51654025926E-03 -1.75300436827E-03 -2.64181131686E-03 +7.45591874359E-01 +3.58419614959E-02
2.81500000000E+09 +6.36397738946E-01 -1.84605010832E-01 -2.32082207488E-03 -2.42473045364E-03 -2.42028081350E-03 -2.34871570846E-03 +7.39322151174E-01 +1.60945469523E-02
2.82000000000E+09 +6.24323246607E-01 -1.99812393425E-01 -2.57594722831E-03 -2.30871220016E-03 -2.70013559878E-03 -2.21427336242E-03 +7.31986801035E-01 -4.54713884434E-03
2.82500000000E+09 +6.10111081233E-01 -2.14551006664E-01 -3.13708253762E-03 -2.17684518730E-03 -3.04405422151E-03 -1.94818982164E-03 +7.23328302306E-01 -2.50736526329E-02
2.83000000000E+09 +5.94464694595E-01 -2.29153757384E-01 -3.70342205663E-03 -1.93629256596E-03 -3.50599975482E-03 -1.82108996168E-03 +7.13418120774E-01 -4.48915606748E-02
2.83500000000E+09 +5.77407504319E-01 -2.45489478276E-01 -4.22028340641E-03 -1.35108157811E-03 -4.01263084648E-03 -1.47891881656E-03 +7.03239569059E-01 -6.50440521595E-02
2.84000000000E+09 +5.57495461430E-01 -2.63863786796E-01 -4.46582883856E-03 -7.56276114198E-04 -4.36183354859E-03 -8.73073378718E-04 +6.91911144372E-01 -8.50341698606E-02
2.84500000000E+09 +5.35131477891E-01 -2.83645762890E-01 -4.57169236015E-03 -1.69349052154E-04 -4.57373890697E-03 -2.83240595470E-04 +6.79945599420E-01 -1.05591462419E-01
2.85000000000E+09 +5.11194217900E-01 -3.04045624900E-01 -4.68941804471E-03 +1.05113433185E-04 -4.66867449079E-03 +8.57452709738E-05 +6.66525958530E-01 -1.26405114938E-01
2.85500000000E+09 +4.85773871717E-01 -3.24292380829E-01 -5.29992177870E-03 +6.87876833332E-04 -5.20252875704E-03 +5.90303599073E-04 +6.51276286674E-01 -1.47319527983E-01
2.86000000000E+09 +4.60779289873E-01 -3.42762513204E-01 -5.11497662478E-03 +1.54623873909E-03 -5.03756272362E-03 +1.46644957689E-03 +6.35075755375E-01 -1.66830468299E-01
2.86500000000E+09 +4.36827011698E-01 -3.59373165711E-01 -5.39425749919E-03 +1.98628588207E-03 -5.32764608316E-03 +1.90009849456E-03 +6.18679140859E-01 -1.87288587152E-01
2.87000000000E+09 +4.13762402995E-01 -3.74462369371E-01 -5.44780772319E-03 +3.16194424087E-03 -5.50793087319E-03 +3.21185773781E-03 +6.00083689568E-01 -2.07965927779E-01
2.87500000000E+09 +3.90927454641E-01 -3.87261061844E-01 -5.11528076942E-03 +4.01726602962E-03 -4.95862689913E-03 +4.18010649790E-03 +5.79636416503E-01 -2.27567234506E-01
2.88000000000E+09 +3.68124143904E-01 -3.98371551700E-01 -4.55957325673E-03 +4.66499401230E-03 -4.26190522990E-03 +4.68819502319E-03 +5.58834380885E-01 -2.46183457197E-01
2.88500000000E+09 +3.43471243093E-01 -4.08173413143E-01 -4.32602932963E-03 +5.62071333732E-03 -4.07465700642E-03 +5.34588743926E-03 +5.36330708882E-01 -2.65039540233E-01
2.89000000000E+09 +3.17092309822E-01 -4.16903353898E-01 -3.45631907706E-03 +6.66510910868E-03 -3.44338345967E-03 +6.22929622600E-03 +5.11928828853E-01 -2.83573788252E-01
2.89500000000E+09 +2.87052148591E-01 -4.24364342582E-01 -2.41462347167E-03 +7.04668076542E-03 -2.65386360859E-03 +6.71523204750E-03 +4.84717194518E-01 -3.01617234104E-01
2.90000000000E+09 +2.55513695481E-01 -4.30507744432E-01 -1.85602999638E-03 +7.39313659518E-03 -2.11515831514E-03 +7.33690350227E-03 +4.56917430570E-01 -3.17283089428E-01
2.90500000000E+09 +2.21147348701E-01 -4.36424450139E-01 -8.80444818623E-04 +8.05765734173E-03 -8.88478614985E-04 +8.22161047475E-03 +4.28151486382E-01 -3.32933856913E-01
2.91000000000E+09 +1.85186390532E-01 -4.39924404549E-01 -8.77144001115E-05 +8.18853613173E-03 +2.40457645297E-04 +8.17741891294E-03 +3.98485758500E-01 -3.47518184574E-01
2.91500000000E+09 +1.50112852914E-01 -4.42293050922E-01 +1.17979936727E-03 +9.26325061106E-03 +1.37568880170E-03 +8.85964010935E-03 +3.67006848848E-01 -3.60320798105E-01
2.92000000000E+09 +1.14754386996E-01 -4.43098749345E-01 +3.30393611916E-03 +9.03159275817E-03 +3.06668360892E-03 +8.50079489413E-03 +3.34037489301E-01 -3.71981466101E-01
2.92500000000E+09 +8.05290413065E-02 -4.42000969981E-01 +4.63176797466E-03 +8.43639850406E-03 +4.07218964966E-03 +8.17626818774E-03 +2.98492070941E-01 -3.80247421034E-01
2.93000000000E+09 +4.72753845489E-02 -4.38071417541E-01 +5.90273432870E-03 +7.56109200348E-03 +5.33877925067E-03 +7.75366380526E-03 +2.62582833251E-01 -3.87553829409E-01
2.93500000000E+09 +1.48655395283E-02 -4.32151319697E-01 +6.89179954045E-03 +6.96881109347E-03 +6.64849224331E-03 +7.22762695359E-03 +2.24377458126E-01 -3.92888584434E-01
2.94000000000E+09 -1.78681816951E-02 -4.23347017825E-01 +7.73510813167E-03 +6.11819974497E-03 +7.52977395937E-03 +6.30587921671E-03 +1.85311871723E-01 -3.97161574827E-01
2.94500000000E+09 -5.00923561488E-02 -4.11027957974E-01 +9.22871166073E-03 +5.25770221343E-03 +9.02614697355E-03 +5.43074640936E-03 +1.44410905100E-01 -3.97414913597E-01
2.95000000000E+09 -8.27689340961E-02 -3.96983911626E-01 +1.00298149634E-02 +3.73727900634E-03 +9.81383993005E-03 +4.11431790434E-03 +1.04905195741E-01 -3.95241543960E-01
2.95500000000E+09 -1.16954417446E-01 -3.79437738208E-01 +1.06502003352E-02 +2.02433014091E-03 +1.08152061608E-02 +2.46077210997E-03 +6.50318759081E-02 -3.90499646022E-01
2.96000000000E+09 -1.50060006720E-01 -3.58132690160E-01 +1.05331315328E-02 +3.20331251712E-04 +1.10371396039E-02 +4.70464642840E-04 +2.37777971859E-02 -3.83705247352E-01
2.96500000000E+09 -1.81263048230E-01 -3.35251477901E-01 +1.05087381684E-02 -7.36756199036E-04 +1.08065007425E-02 -1.02333313458E-03 -1.78673338493E-02 -3.71835370663E-01
2.97000000000E+09 -2.11264759114E-01 -3.11068948227E-01 +1.06224390423E-02 -1.92165954388E-03 +1.05836654209E-02 -2.19062891938E-03 -5.89620602197E-02 -3.57384223973E-01
2.97500000000E+09 -2.39101688150E-01 -2.85577459916E-01 +1.12320155780E-02 -3.68471027058E-03 +1.08315897627E-02 -3.70961975685E-03 -9.88075103727E-02 -3.39569298715E-01
2.98000000000E+09 -2.65604534367E-01 -2.59591282150E-01 +1.02716099307E-02 -6.08203966915E-03 +1.01390318339E-02 -5.62658635389E-03 -1.36865547418E-01 -3.20036249351E-01
2.98500000000E+09 -2.90537758664E-01 -2.30789813807E-01 +9.05647690403E-03 -7.57409221430E-03 +9.49318761197E-03 -7.22623007662E-03 -1.73447912433E-01 -2.97490960136E-01
2.99000000000E+09 -3.12308976667E-01 -2.00349895478E-01 +7.50959651339E-03 -8.46425034363E-03 +7.95750314337E-03 -8.72951537279E-03 -2.09847006767E-01 -2.72045858071E-01
2.99500000000E+09 -3.32038067042E-01 -1.69461743570E-01 +6.62063161523E-03 -9.32620780416E-03 +6.62306314498E-03 -9.87752571330E-03 -2.42768212523E-01 -2.42743810646E-01
3.00000000000E+09 -3.51385119845E-01 -1.37095685031E-01 +5.30542389057E-03 -1.02779510494E-02 +4.82294191189E-03 -1.05461237438E-02 -2.74294188407E-01 -2.11283954846E-01
3.00500000000E+09 -3.67959913401E-01 -1.02759652354E-01 +4.00303447942E-03 -1.15677062280E-02 +3.48907850413E-03 -1.12145324887E-02 -3.02585275962E-01 -1.78732805285E-01
3.01000000000E+09 -3.81783513880E-01 -6.89186867648E-02 +1.38384408870E-03 -1.24330158741E-02 +1.37637081784E-03 -1.18302995425E-02 -3.30570070330E-01 -1.43954440935E-01
3.01500000000E+09 -3.94416327078E-01 -3.54273440818E-02 -8.80069977139E-04 -1.14643419917E-02 -5.33311992000E-04 -1.12143243632E-02 -3.54582870594E-01 -1.07893464105E-01
3.02000000000E+09 -4.04323752675E-01 -2.26284381822E-03 -1.88022524226E-03 -1.06729432685E-02 -1.60206560780E-03 -1.07037782359E-02 -3.75730454061E-01 -6.93927663170E-02
3.02500000000E+09 -4.11838737932E-01 +2.99974495203E-02 -3.15306721697E-03 -1.08595553250E-02 -3.04711302406E-03 -1.09105745467E-02 -3.92583889480E-01 -3.09394875146E-02
3.03000000000E+09 -4.15765860185E-01 +6.26626724547E-02 -4.97837154884E-03 -9.70614913170E-03 -4.85739063785E-03 -9.67431626246E-03 -4.07374111541E-01 +8.72111679103E-03
3.03500000000E+09 -4.16003865827E-01 +9.41270344526E-02 -5.91714686929E-03 -9.45214494648E-03 -5.67912452411E-03 -9.50505558350E-03 -4.18850766197E-01 +4.82765314616E-02
3.04000000000E+09 -4.13140418646E-01 +1.25401903091E-01 -7.83281757287E-03 -7.63213590273E-03 -7.70784500891E-03 -8.20242186361E-03 -4.27611381564E-01 +8.91656153611E-02
3.04500000000E+09 -4.07424023374E-01 +1.56470397494E-01 -7.99957447589E-03 -6.05391444479E-03 -8.35366871644E-03 -6.64205483454E-03 -4.32837231373E-01 +1.28646717564E-01
3.05000000000E+09 -4.00132034384E-01 +1.89027528281E-01 -8.39997451955E-03 -4.99281911652E-03 -9.15699522607E-03 -5.01879014830E-03 -4.35861265028E-01 +1.67715135999E-01
3.05500000000E+09 -3.89565589554E-01 +2.23041595457E-01 -8.76255181489E-03 -4.08625154132E-03 -9.22310683921E-03 -3.49928062792E-03 -4.36526419828E-01 +2.05710195194E-01
3.06000000000E+09 -3.77529591372E-01 +2.56177228228E-01 -9.39005823502E-03 -3.04158674931E-03 -9.22835183816E-03 -2.38845713090E-03 -4.34914071276E-01 +2.42528952475E-01
3.06500000000E+09 -3.64192612087E-01 +2.89538466020E-01 -9.91493831828E-03 -1.06536051157E-03 -9.31301130382E-03 -1.04435357068E-03 -4.32674067040E-01 +2.79390949617E-01
3.07000000000E+09 -3.49965729819E-01 +3.20263156802E-01 -9.14825192862E-03 +6.32514514446E-04 -8.86020396575E-03 +8.52514030931E-05 -4.25911836454E-01 +3.16191911936E-01
