# Hz S RI R 50
! CMT, C1220, 16058040, 17.2.0/1
! Date: 15/08/2018 10:43:06
! Data: Format (Calibration Info)
! Freq                      S11: Re/Im (F2)                       S21: Re/Im (F2)                       S12: Re/Im (F2)                       S22: Re/Im (F2)            
2.50000000000E+09 +5.92030473669E-01 +6.51700417511E-01 -1.34245568175E-04 -4.46343940704E-04 -1.22915279820E-04 -4.43179544886E-04 +5.64308852401E-01 +7.24937144799E-01
2.50500000000E+09 +5.98725085831E-01 +6.43466865921E-01 -2.45695666966E-04 -4.46581408647E-04 -2.77646510091E-04 -4.45720266971E-04 +5.70259320054E-01 +7.19308622923E-01
2.51000000000E+09 +6.06100458143E-01 +6.35258197463E-01 -2.73330050603E-04 -4.31992310650E-04 -3.12255776558E-04 -4.27712377239E-04 +5.76115803254E-01 +7.14016453846E-01
2.51500000000E+09 +6.13953127035E-01 +6.27405967473E-01 -4.01617515986E-04 -3.77946221239E-04 -4.10047422003E-04 -3.20434305018E-04 +5.81587883804E-01 +7.08432841900E-01
2.52000000000E+09 +6.20994108076E-01 +6.19861816375E-01 -3.85888160817E-04 -2.90008637473E-04 -3.55651376098E-04 -3.72589795475E-04 +5.86947470399E-01 +7.02341621223E-01
2.52500000000E+09 +6.26751489412E-01 +6.13219753031E-01 -4.61481030977E-04 -3.29592406464E-04 -4.57872275594E-04 -3.31160341829E-04 +5.92928927321E-01 +6.95878654333E-01
2.53000000000E+09 +6.31552528442E-01 +6.07661364715E-01 -4.55624757955E-04 -2.91325668255E-04 -4.89951525094E-04 -3.04160327159E-04 +5.99092102581E-01 +6.88692809356E-01
2.53500000000E+09 +6.35515265150E-01 +6.02112722409E-01 -5.92451273225E-04 -2.69565882667E-04 -5.53345185740E-04 -2.44258703032E-04 +6.04983040384E-01 +6.81583250003E-01
2.54000000000E+09 +6.38836286073E-01 +5.96333148512E-01 -5.73284477307E-04 -1.96732464739E-04 -5.54336229666E-04 -2.22905957277E-04 +6.10661123743E-01 +6.74725127551E-01
2.54500000000E+09 +6.42430906969E-01 +5.90076297119E-01 -6.84802157524E-04 -1.03462406252E-04 -6.98112616685E-04 -1.88818395796E-04 +6.16084308903E-01 +6.68427483801E-01
2.55000000000E+09 +6.46740946345E-01 +5.82653732047E-01 -6.64985358804E-04 -1.34788487667E-05 -7.15243391190E-04 -5.23529224328E-05 +6.21228609408E-01 +6.62322399460E-01
2.55500000000E+09 +6.51944291243E-01 +5.73623186463E-01 -6.42425492343E-04 +7.38229760703E-05 -7.23866915617E-04 +3.32160416044E-05 +6.26036516919E-01 +6.55886042685E-01
2.56000000000E+09 +6.58504872604E-01 +5.63970898933E-01 -5.52329380164E-04 +1.17998882701E-04 -6.24908715489E-04 +1.80423939068E-04 +6.31129116103E-01 +6.48881651453E-01
2.56500000000E+09 +6.65852017704E-01 +5.53621797476E-01 -6.05625443605E-04 +2.83357085844E-05 -6.77988806697E-04 +1.78452742150E-04 +6.36310115815E-01 +6.41528669039E-01
2.57000000000E+09 +6.73512868427E-01 +5.43652738727E-01 -7.15911055441E-04 +1.16556610098E-04 -6.76679860838E-04 +2.78512038553E-04 +6.41269624085E-01 +6.33809572148E-01
2.57500000000E+09 +6.81143285915E-01 +5.34351967283E-01 -7.26962914065E-04 +2.31088758398E-04 -6.08070973365E-04 +2.83436673484E-04 +6.46573377578E-01 +6.26627480442E-01
2.58000000000E+09 +6.87487053697E-01 +5.26137337696E-01 -7.02282456245E-04 +2.77609977284E-04 -6.08490959540E-04 +2.87357322405E-04 +6.51616834520E-01 +6.19532097768E-01
2.58500000000E+09 +6.92740651952E-01 +5.19102095930E-01 -8.28417363657E-04 +3.83636718221E-04 -6.92700319112E-04 +2.98729878141E-04 +6.56811513895E-01 +6.12347869007E-01
2.59000000000E+09 +6.96605003069E-01 +5.13166695727E-01 -7.55410262407E-04 +5.99130625505E-04 -7.78039044753E-04 +4.63497797061E-04 +6.62002352936E-01 +6.05137858358E-01
2.59500000000E+09 +6.99834045061E-01 +5.07545640355E-01 -7.19537280465E-04 +6.98229034752E-04 -7.83382231909E-04 +6.69458754300E-04 +6.67169729898E-01 +5.97418034120E-01
2.60000000000E+09 +7.02317245446E-01 +5.00984337164E-01 -5.67079758706E-04 +7.90215912304E-04 -5.38834297731E-04 +7.86175436329E-04 +6.72757705977E-01 +5.89284234901E-01
2.60500000000E+09 +7.04885143555E-01 +4.92683698956E-01 -5.23843646398E-04 +7.88810039549E-04 -4.89639695379E-04 +7.77856340904E-04 +6.78581120980E-01 +5.80435060856E-01
2.61000000000E+09 +7.07693832748E-01 +4.82415114293E-01 -5.17763437675E-04 +9.91741101672E-04 -5.20260927868E-04 +9.93684443713E-04 +6.84018906001E-01 +5.71559334982E-01
2.61500000000E+09 +7.11486091352E-01 +4.70275418617E-01 -2.29823501333E-04 +1.03796608051E-03 -2.70834569948E-04 +1.09171532521E-03 +6.89128672620E-01 +5.62899101974E-01
2.62000000000E+09 +7.15926857658E-01 +4.56145600363E-01 -2.11117963589E-04 +8.86592640018E-04 -2.46183018443E-04 +9.58544815018E-04 +6.94254702111E-01 +5.53929055373E-01
2.62500000000E+09 +7.21091959125E-01 +4.40992474981E-01 -2.91015862801E-04 +9.95082326135E-04 -1.90877773324E-04 +1.10791339423E-03 +6.99231889755E-01 +5.44879217918E-01
2.63000000000E+09 +7.26568903859E-01 +4.25842780661E-01 -1.56690923192E-04 +1.26270727700E-03 -9.50493188161E-06 +1.24496060821E-03 +7.03882436670E-01 +5.35361176474E-01
2.63500000000E+09 +7.31448104270E-01 +4.11987562010E-01 -2.12984453007E-06 +1.29105485948E-03 +1.62185125349E-04 +1.17715655792E-03 +7.08448612580E-01 +5.25778395379E-01
2.64000000000E+09 +7.35961455642E-01 +3.99894434700E-01 +2.64591756731E-04 +1.45835733133E-03 +2.74085192383E-04 +1.23078557472E-03 +7.12952231036E-01 +5.16183448031E-01
2.64500000000E+09 +7.40049098661E-01 +3.89661562992E-01 +6.38154756738E-04 +1.25624301545E-03 +4.79371887278E-04 +1.14575694746E-03 +7.17472357934E-01 +5.06440964558E-01
2.65000000000E+09 +7.42887369766E-01 +3.80928585842E-01 +6.76928658170E-04 +9.80475509049E-04 +5.24023930704E-04 +9.99933923225E-04 +7.21488044618E-01 +4.96334904102E-01
2.65500000000E+09 +7.45158492548E-01 +3.72781140885E-01 +5.82975744578E-04 +9.42623461660E-04 +5.26664919226E-04 +1.07517301237E-03 +7.25221795787E-01 +4.85972919886E-01
2.66000000000E+09 +7.46725947732E-01 +3.64650606141E-01 +5.16498801822E-04 +1.12954350266E-03 +6.07288978374E-04 +1.17360014612E-03 +7.29227687089E-01 +4.74987584101E-01
2.66500000000E+09 +7.48384541905E-01 +3.55634456900E-01 +7.62033738087E-04 +1.23362400212E-03 +8.73806021113E-04 +1.23780037158E-03 +7.33315619506E-01 +4.63967775718E-01
2.67000000000E+09 +7.49836752862E-01 +3.44290793781E-01 +1.07602281867E-03 +1.14475828422E-03 +1.11501180172E-03 +1.04272675452E-03 +7.37692057575E-01 +4.53354292676E-01
2.67500000000E+09 +7.51461760074E-01 +3.30955429727E-01 +1.20336556075E-03 +1.02469461629E-03 +1.18513963312E-03 +8.95233645236E-04 +7.41715043892E-01 +4.42607511338E-01
2.68000000000E+09 +7.53102887855E-01 +3.15429459742E-01 +1.47831398239E-03 +8.33152571086E-04 +1.35888086739E-03 +8.02869277081E-04 +7.45789377805E-01 +4.31840040980E-01
2.68500000000E+09 +7.54634899115E-01 +2.98873517566E-01 +1.44735897657E-03 +6.91986942600E-04 +1.45408466163E-03 +7.59326205390E-04 +7.49202893739E-01 +4.20601924019E-01
2.69000000000E+09 +7.56349326052E-01 +2.81942212808E-01 +1.66695506424E-03 +5.26788971095E-04 +1.71707771754E-03 +6.06507094911E-04 +7.52022031834E-01 +4.08994333672E-01
2.69500000000E+09 +7.58039664900E-01 +2.65680625956E-01 +1.68552339263E-03 +4.37106306527E-04 +1.69657749014E-03 +3.78578856252E-04 +7.55269795554E-01 +3.96826532885E-01
2.70000000000E+09 +7.59621912021E-01 +2.50179958186E-01 +1.86940582602E-03 +2.48076622332E-04 +1.79500760625E-03 +2.46528063007E-04 +7.58613722011E-01 +3.83425250107E-01
2.70500000000E+09 +7.61084006416E-01 +2.36187327804E-01 +2.03926530911E-03 +3.91511891906E-05 +2.02320449534E-03 +1.56788284439E-04 +7.61456099495E-01 +3.70235160110E-01
2.71000000000E+09 +7.62250009596E-01 +2.22685573503E-01 +2.17943172819E-03 -2.84416892430E-04 +2.24079441358E-03 -2.17968398159E-04 +7.64596171814E-01 +3.57264816211E-01
2.71500000000E+09 +7.62984227281E-01 +2.09490077134E-01 +2.10211696050E-03 -7.69289386629E-04 +2.26603324900E-03 -8.10063246423E-04 +7.67538970584E-01 +3.44794651360E-01
2.72000000000E+09 +7.63326877146E-01 +1.96552624457E-01 +1.82992208169E-03 -1.02532621531E-03 +1.87950829850E-03 -1.24866968217E-03 +7.69825880617E-01 +3.32255316062E-01
2.72500000000E+09 +7.63137014545E-01 +1.82537274506E-01 +1.76093087204E-03 -1.14443301234E-03 +1.63317037336E-03 -1.35045279733E-03 +7.71502924087E-01 +3.18786149492E-01
2.73000000000E+09 +7.62331391946E-01 +1.67479523250E-01 +1.78938382635E-03 -1.43684265479E-03 +1.53806733911E-03 -1.45817455129E-03 +7.73269150586E-01 +3.04628303886E-01
2.73500000000E+09 +7.60715591817E-01 +1.50814589077E-01 +1.38434771290E-03 -1.77625363038E-03 +1.23722708732E-03 -1.58129266715E-03 +7.74778615010E-01 +2.89676684326E-01
2.74000000000E+09 +7.58390808418E-01 +1.33744395334E-01 +1.05510723139E-03 -1.74819119375E-03 +1.02949691697E-03 -1.46093302959E-03 +7.76528120931E-01 +2.74321590125E-01
2.74500000000E+09 +7.55109543754E-01 +1.15559737077E-01 +1.08562748259E-03 -1.84852664836E-03 +1.29691446790E-03 -1.65608473187E-03 +7.78324150478E-01 +2.58669609540E-01
2.75000000000E+09 +7.50842442594E-01 +9.75242948539E-02 +1.00501699981E-03 -2.02459934673E-03 +1.27104028725E-03 -1.98244390990E-03 +7.79287713350E-01 +2.42759796454E-01
2.75500000000E+09 +7.46044021099E-01 +8.00184217499E-02 +7.98594737821E-04 -2.32430817618E-03 +9.79881318299E-04 -2.50240612775E-03 +7.79122800924E-01 +2.27125144803E-01
2.76000000000E+09 +7.41250196724E-01 +6.24831255491E-02 +3.74817401981E-04 -2.67617110654E-03 +4.04002107893E-04 -2.83847431645E-03 +7.78375109329E-01 +2.11528511393E-01
2.76500000000E+09 +7.35740956351E-01 +4.48490865391E-02 -1.33224969729E-04 -2.67731261818E-03 -1.66444645572E-04 -2.77349709424E-03 +7.77779121152E-01 +1.94665386949E-01
2.77000000000E+09 +7.29719535805E-01 +2.65300259241E-02 -6.65695339988E-04 -2.56676289979E-03 -7.77526555325E-04 -2.70043059236E-03 +7.76393986957E-01 +1.76889931364E-01
2.77500000000E+09 +7.23087317420E-01 +7.99204856313E-03 -1.07954948293E-03 -2.15514857355E-03 -1.22839674994E-03 -2.20246620050E-03 +7.74501098891E-01 +1.58805536681E-01
2.78000000000E+09 +7.16413992564E-01 -1.17009291021E-02 -1.03821431656E-03 -1.75093442495E-03 -1.18156749924E-03 -1.74258676967E-03 +7.72048903520E-01 +1.40854029247E-01
2.78500000000E+09 +7.09274845363E-01 -3.24152805902E-02 -9.77850232834E-04 -1.58681734760E-03 -1.15264792254E-03 -1.51396372728E-03 +7.69308846058E-01 +1.23398244722E-01
2.79000000000E+09 +7.01777653695E-01 -5.37240459658E-02 -8.80263105980E-04 -1.67948147997E-03 -9.60792905271E-04 -1.55871520933E-03 +7.65958574996E-01 +1.06222290278E-01
2.79500000000E+09 +6.93527841918E-01 -7.51748824749E-02 -1.13172771120E-03 -2.00797955725E-03 -1.09206126540E-03 -1.80699085454E-03 +7.61959563244E-01 +8.84357476586E-02
2.80000000000E+09 +6.84699209566E-01 -9.58787509870E-02 -1.75830160933E-03 -1.85641699804E-03 -1.60789663918E-03 -1.82750863085E-03 +7.56987818911E-01 +7.02974469045E-02
2.80500000000E+09 +6.75236031055E-01 -1.15315923976E-01 -1.88460745060E-03 -1.53823739464E-03 -1.82166272255E-03 -1.58083572166E-03 +7.51393765939E-01 +5.16001912956E-02
2.81000000000E+09 +6.64848425584E-01 -1.33104797022E-01 -2.10397061324E-03 -1.26296130055E-03 -2.12017967069E-03 -1.36795187543E-03 +7.45921122580E-01 +3.28025495985E-02
2.81500000000E+09 +6.53057158406E-01 -1.49194519306E-01 -2.10753346837E-03 -1.11340086921E-03 -2.25402082051E-03 -1.06537496930E-03 +7.39643244734E-01 +1.23849421091E-02
2.82000000000E+09 +6.40251337461E-01 -1.63943519399E-01 -2.50853242909E-03 -8.03842872039E-04 -2.52026054255E-03 -6.64035634044E-04 +7.32323151118E-01 -7.66017798591E-03
2.82500000000E+09 +6.25814729318E-01 -1.78797446754E-01 -2.47082310281E-03 -3.73385489862E-04 -2.37134682415E-03 -2.28700246176E-04 +7.24142736016E-01 -2.78100554223E-02
2.83000000000E+09 +6.09179262418E-01 -1.94484807574E-01 -2.43959849603E-03 -1.43727162292E-04 -2.32688767592E-03 -1.15172784628E-04 +7.15353780822E-01 -4.81104490796E-02
2.83500000000E+09 +5.90217777663E-01 -2.11338886231E-01 -2.35055692613E-03 +7.62603747719E-05 -2.23642501093E-03 -4.34831028867E-06 +7.05230529186E-01 -6.88084309065E-02
2.84000000000E+09 +5.68870895853E-01 -2.29720621954E-01 -2.37605976058E-03 +2.24928769987E-04 -2.40331938420E-03 +6.99533580572E-05 +6.94266127041E-01 -9.01735517009E-02
2.84500000000E+09 +5.45331141431E-01 -2.49349592737E-01 -2.56681856059E-03 +5.44501420099E-04 -2.56740205581E-03 +5.11112443273E-04 +6.81270736908E-01 -1.11726742521E-01
2.85000000000E+09 +5.20322194539E-01 -2.69559456335E-01 -2.44936784045E-03 +9.84676556683E-04 -2.40404572445E-03 +1.05222943375E-03 +6.66966316142E-01 -1.32650140312E-01
2.85500000000E+09 +4.93990669155E-01 -2.89303600181E-01 -2.24609817472E-03 +1.24450344479E-03 -2.24741928117E-03 +1.27627379153E-03 +6.51146573128E-01 -1.52954766809E-01
2.86000000000E+09 +4.68046955298E-01 -3.06709487979E-01 -1.80240235881E-03 +1.53106878305E-03 -1.76199911674E-03 +1.46641949517E-03 +6.35165911356E-01 -1.72926041358E-01
2.86500000000E+09 +4.43699025085E-01 -3.22205903761E-01 -1.95391635623E-03 +1.27423549061E-03 -1.95737092542E-03 +1.27530880537E-03 +6.17434659363E-01 -1.93860139733E-01
2.87000000000E+09 +4.19805273904E-01 -3.36817181605E-01 -1.89500691313E-03 +2.00759462112E-03 -1.90457521724E-03 +2.04813209098E-03 +5.97908189184E-01 -2.13737199273E-01
2.87500000000E+09 +3.95124821662E-01 -3.48845009997E-01 -1.23666384824E-03 +1.78532968170E-03 -1.18850278604E-03 +1.79061447431E-03 +5.77113286526E-01 -2.33042163263E-01
2.88000000000E+09 +3.69661947214E-01 -3.58848229539E-01 -1.52291723141E-03 +1.80315781442E-03 -1.43995732752E-03 +1.85489097835E-03 +5.55817617086E-01 -2.50864314286E-01
2.88500000000E+09 +3.41971092832E-01 -3.66288300777E-01 -1.26565131216E-03 +2.48081034797E-03 -1.23004649750E-03 +2.35233648477E-03 +5.33433724620E-01 -2.69551937196E-01
2.89000000000E+09 +3.12395873048E-01 -3.71709794979E-01 -9.42213204343E-04 +2.49512201208E-03 -8.76634614871E-04 +2.33176533671E-03 +5.08170074488E-01 -2.87361512344E-01
2.89500000000E+09 +2.80756887629E-01 -3.75529757685E-01 -5.29301180788E-04 +2.61172872953E-03 -5.97005228956E-04 +2.45873566015E-03 +4.81571475306E-01 -3.03928196875E-01
2.90000000000E+09 +2.47558991795E-01 -3.78570953222E-01 -1.08564727392E-04 +2.62584367040E-03 -1.98985195961E-04 +2.68382390376E-03 +4.54165161097E-01 -3.20102996585E-01
2.90500000000E+09 +2.11517753178E-01 -3.81131098861E-01 +2.71477334507E-05 +2.43031913046E-03 +3.47080099092E-05 +2.53229447286E-03 +4.25699948759E-01 -3.35186534776E-01
2.91000000000E+09 +1.74435802676E-01 -3.81639181905E-01 +4.45793626598E-04 +2.49459654889E-03 +4.46976321081E-04 +2.50530324744E-03 +3.96549008280E-01 -3.50389368720E-01
2.91500000000E+09 +1.37221402515E-01 -3.80420805151E-01 +6.53967377151E-04 +2.52307002938E-03 +6.62832089994E-04 +2.43364068752E-03 +3.64326284614E-01 -3.64064074243E-01
2.92000000000E+09 +1.00321405381E-01 -3.76457403846E-01 +1.14687028876E-03 +2.30414821435E-03 +1.07878572876E-03 +2.19221829246E-03 +3.30072057124E-01 -3.74802766878E-01
2.92500000000E+09 +6.57833857239E-02 -3.69227299515E-01 +1.34083620355E-03 +1.91647272051E-03 +1.17949465768E-03 +1.86966874878E-03 +2.94777509003E-01 -3.82602218936E-01
2.93000000000E+09 +3.37906894757E-02 -3.60249908464E-01 +1.18026930731E-03 +1.45132792001E-03 +1.16481382845E-03 +1.53159188601E-03 +2.58575984886E-01 -3.89444634932E-01
2.93500000000E+09 +3.00916211401E-03 -3.49550830421E-01 +1.06873852967E-03 +1.65055127854E-03 +1.02067230199E-03 +1.74257467277E-03 +2.20133545235E-01 -3.94949254402E-01
2.94000000000E+09 -2.78123029377E-02 -3.36715579921E-01 +1.27653780268E-03 +1.49751529445E-03 +1.28672497093E-03 +1.49324051059E-03 +1.79401542321E-01 -3.97861616042E-01
2.94500000000E+09 -5.88310311137E-02 -3.20683635921E-01 +1.09533346528E-03 +1.60366206227E-03 +1.06604707326E-03 +1.63077847482E-03 +1.40053255308E-01 -3.96836185176E-01
2.95000000000E+09 -9.05698372075E-02 -3.01014966213E-01 +1.65382208359E-03 +1.77163431195E-03 +1.58155491545E-03 +1.79337499100E-03 +1.00074405154E-01 -3.94713038392E-01
2.95500000000E+09 -1.20657040315E-01 -2.77529952640E-01 +2.01748152422E-03 +1.36743041579E-03 +2.01949504133E-03 +1.44649606447E-03 +6.00292934123E-02 -3.89130999302E-01
2.96000000000E+09 -1.49532004380E-01 -2.52707036812E-01 +1.68707008650E-03 +7.52648262787E-04 +1.73027390622E-03 +8.28894126913E-04 +1.87230947313E-02 -3.80715480859E-01
2.96500000000E+09 -1.76732525428E-01 -2.25685278638E-01 +1.40031637585E-03 +1.17441717646E-03 +1.46209983012E-03 +1.16291533095E-03 -2.22684326731E-02 -3.67298312596E-01
2.97000000000E+09 -2.00941983842E-01 -1.98490323945E-01 +1.75397894685E-03 +1.47874677240E-03 +1.73055883121E-03 +1.46915620215E-03 -6.11726860539E-02 -3.51506857670E-01
2.97500000000E+09 -2.24510864358E-01 -1.70967162616E-01 +2.50517969734E-03 +1.42460462374E-03 +2.45379888071E-03 +1.44494327028E-03 -9.91081834352E-02 -3.34258375973E-01
2.98000000000E+09 -2.46407837985E-01 -1.41877063840E-01 +2.89275559261E-03 +9.05038825904E-04 +2.78217813302E-03 +1.01141474136E-03 -1.36359577434E-01 -3.14920848806E-01
2.98500000000E+09 -2.65828846536E-01 -1.11313168092E-01 +2.81139893171E-03 +2.02705741180E-04 +2.86663965748E-03 +3.53698337580E-04 -1.72475335537E-01 -2.92977593823E-01
2.99000000000E+09 -2.82635014829E-01 -7.91933083072E-02 +2.80558660290E-03 +1.89869245061E-04 +2.90521111102E-03 +2.71093915111E-04 -2.07240682346E-01 -2.67578454975E-01
2.99500000000E+09 -2.96861228503E-01 -4.65163786292E-02 +3.07337456385E-03 -1.88379528026E-04 +3.21399052680E-03 -2.95172110816E-04 -2.40176772823E-01 -2.39264222276E-01
3.00000000000E+09 -3.09312099259E-01 -1.29575080508E-02 +3.18828444795E-03 -5.91388351399E-04 +3.11787091487E-03 -7.07961706646E-04 -2.70645100600E-01 -2.07863996102E-01
3.00500000000E+09 -3.19745950409E-01 +2.02634187469E-02 +3.26371557430E-03 -1.04472622054E-03 +3.15043151462E-03 -1.08032380684E-03 -2.98895455843E-01 -1.76134150053E-01
3.01000000000E+09 -3.28491806212E-01 +5.34597425494E-02 +2.90214253756E-03 -1.85826499891E-03 +2.80438926193E-03 -1.76031397581E-03 -3.25546804533E-01 -1.41752523439E-01
3.01500000000E+09 -3.35233298010E-01 +8.67492080971E-02 +2.57127643760E-03 -2.09508454229E-03 +2.55531181368E-03 -1.95046502997E-03 -3.49565345793E-01 -1.06964778329E-01
3.02000000000E+09 -3.38416125455E-01 +1.18542309612E-01 +2.21552397331E-03 -2.38038916947E-03 +2.33055197520E-03 -2.38529266322E-03 -3.70692066977E-01 -7.00691852797E-02
3.02500000000E+09 -3.39578313329E-01 +1.48724963078E-01 +1.88508762368E-03 -2.49185554436E-03 +1.96525447891E-03 -2.49303136462E-03 -3.88479333488E-01 -3.26951054428E-02
3.03000000000E+09 -3.38120611664E-01 +1.77462245779E-01 +1.61643378529E-03 -2.75596091629E-03 +1.65591105799E-03 -2.83583113616E-03 -4.04231846744E-01 +6.47882566982E-03
3.03500000000E+09 -3.34154689518E-01 +2.06341476513E-01 +1.13110866708E-03 -2.76670074713E-03 +1.14754353707E-03 -2.71519429237E-03 -4.16788709789E-01 +4.69722786870E-02
3.04000000000E+09 -3.26836328628E-01 +2.35286011140E-01 +9.90278237482E-04 -2.91351816568E-03 +1.05868388343E-03 -2.88483409429E-03 -4.24484529773E-01 +8.73480511721E-02
3.04500000000E+09 -3.16905744288E-01 +2.63148639852E-01 +6.12605884788E-04 -2.94369530648E-03 +6.52810440659E-04 -3.09237411531E-03 -4.30981032431E-01 +1.26320367453E-01
3.05000000000E+09 -3.05034782326E-01 +2.92457116232E-01 +3.65958006134E-04 -2.86813157635E-03 +3.13028696622E-04 -3.05689098966E-03 -4.34795241550E-01 +1.65259182419E-01
3.05500000000E+09 -2.91004832893E-01 +3.20369013314E-01 +2.12212778212E-04 -3.00983269962E-03 +8.27464434557E-05 -3.05256871691E-03 -4.36173832325E-01 +2.04188459487E-01
3.06000000000E+09 -2.77467943012E-01 +3.48156319805E-01 -1.27937323311E-04 -3.33464040414E-03 -2.97339067457E-04 -3.17841281733E-03 -4.34961447193E-01 +2.41726783429E-01
3.06500000000E+09 -2.63368195615E-01 +3.75215040457E-01 -6.31114735728E-04 -3.45916721887E-03 -5.46986873983E-04 -3.28628556549E-03 -4.31413953624E-01 +2.78915697269E-01
3.07000000000E+09 -2.49860891828E-01 +4.00676534019E-01 -1.63358133935E-03 -3.33343877799E-03 -1.36555114219E-03 -3.33790137182E-03 -4.25392853376E-01 +3.14814317368E-01
