# Hz S RI R 50
! CMT, C1220, 16058040, 17.2.0/1
! Date: 15/08/2018 10:48:11
! Data: Format (Calibration Info)
! Freq                      S11: Re/Im (F2)                       S21: Re/Im (F2)                       S12: Re/Im (F2)                       S22: Re/Im (F2)            
2.50000000000E+09 +5.81628238949E-01 +6.46214728634E-01 -1.28166069487E-03 +6.67531410148E-04 -1.44445781540E-03 +6.99083381586E-04 +5.63284744211E-01 +7.25194271989E-01
2.50500000000E+09 +5.89070662689E-01 +6.36914663919E-01 -1.24736168938E-03 +8.17820776739E-04 -1.24958147304E-03 +9.08967350453E-04 +5.68953914869E-01 +7.19542656200E-01
2.51000000000E+09 +5.97491550179E-01 +6.27441636836E-01 -1.15460209481E-03 +9.41815841154E-04 -1.11159564646E-03 +9.84030591805E-04 +5.74711783898E-01 +7.14331837030E-01
2.51500000000E+09 +6.05911856481E-01 +6.18609999034E-01 -1.13087280409E-03 +1.12572718779E-03 -1.04918128292E-03 +1.08855720812E-03 +5.79937443224E-01 +7.08631680750E-01
2.52000000000E+09 +6.13421938613E-01 +6.10089584120E-01 -8.89489305723E-04 +1.21926666089E-03 -9.24701992615E-04 +1.22541055971E-03 +5.85000842964E-01 +7.02434816213E-01
2.52500000000E+09 +6.19586558841E-01 +6.02953658193E-01 -7.33596861810E-04 +1.23036740832E-03 -8.26022162363E-04 +1.25413101987E-03 +5.90434109781E-01 +6.96115323121E-01
2.53000000000E+09 +6.24432409261E-01 +5.96633797257E-01 -7.15366699080E-04 +1.28407951554E-03 -7.25379323736E-04 +1.31366956144E-03 +5.96380340870E-01 +6.89299221608E-01
2.53500000000E+09 +6.28022730059E-01 +5.90940767125E-01 -6.49958885741E-04 +1.39004221404E-03 -6.54483390657E-04 +1.41661588569E-03 +6.02310377640E-01 +6.82682845577E-01
2.54000000000E+09 +6.30948531598E-01 +5.85358486818E-01 -5.01107682455E-04 +1.56456719766E-03 -5.01748432823E-04 +1.50476697533E-03 +6.08210172588E-01 +6.76482035848E-01
2.54500000000E+09 +6.33865558458E-01 +5.79338846699E-01 -2.85741196091E-04 +1.73984757026E-03 -4.23619278245E-04 +1.71154574120E-03 +6.14064159961E-01 +6.70390329420E-01
2.55000000000E+09 +6.37663575584E-01 +5.72330984449E-01 +8.61197787100E-05 +1.74708588202E-03 -1.26813275541E-04 +1.87543499000E-03 +6.19203224335E-01 +6.64370086892E-01
2.55500000000E+09 +6.42611013343E-01 +5.63917732039E-01 +2.46395142927E-04 +1.51427310567E-03 +2.65961702049E-04 +1.76340752870E-03 +6.24374990919E-01 +6.58086752398E-01
2.56000000000E+09 +6.49239400941E-01 +5.54648331017E-01 +2.55467369152E-04 +1.40969712342E-03 +4.16346417705E-04 +1.64032493493E-03 +6.29310105641E-01 +6.51074492258E-01
2.56500000000E+09 +6.56977667986E-01 +5.44463809848E-01 +2.92482494960E-04 +1.42853958747E-03 +6.16592463064E-04 +1.55447497155E-03 +6.34710322942E-01 +6.43867806596E-01
2.57000000000E+09 +6.65246461697E-01 +5.33847832672E-01 +4.93515120371E-04 +1.47406066334E-03 +7.45834729565E-04 +1.28493023759E-03 +6.40355265704E-01 +6.36397640791E-01
2.57500000000E+09 +6.73124423195E-01 +5.23784101237E-01 +6.75341640177E-04 +1.50552296158E-03 +7.87345061635E-04 +1.21101835420E-03 +6.46240033119E-01 +6.28910975059E-01
2.58000000000E+09 +6.79866998475E-01 +5.14517675848E-01 +9.77094458611E-04 +1.38556216248E-03 +8.75103127182E-04 +1.13427407765E-03 +6.51750096859E-01 +6.21380213797E-01
2.58500000000E+09 +6.85247777108E-01 +5.06336593670E-01 +1.11672970943E-03 +1.10052425696E-03 +9.04989730519E-04 +1.01996477840E-03 +6.57085764993E-01 +6.13798959305E-01
2.59000000000E+09 +6.89181859226E-01 +4.98883999703E-01 +9.97489922551E-04 +9.43562181994E-04 +8.53566909933E-04 +9.08716631717E-04 +6.61943554299E-01 +6.06120275814E-01
2.59500000000E+09 +6.91872020585E-01 +4.91316677562E-01 +1.03190955511E-03 +9.94252278225E-04 +9.62278309636E-04 +1.01992722915E-03 +6.66856211279E-01 +5.98176036226E-01
2.60000000000E+09 +6.93836158475E-01 +4.83299324365E-01 +1.18837575458E-03 +9.00716379962E-04 +1.19136052027E-03 +9.55308136247E-04 +6.72255361287E-01 +5.89986974619E-01
2.60500000000E+09 +6.95740762399E-01 +4.73562926501E-01 +1.32852123950E-03 +6.89619771949E-04 +1.36108455629E-03 +6.77656050021E-04 +6.77925921210E-01 +5.81144091777E-01
2.61000000000E+09 +6.98034172204E-01 +4.61832702061E-01 +1.21462723146E-03 +5.19424044199E-04 +1.19981374985E-03 +5.57274847842E-04 +6.83253131256E-01 +5.72137748583E-01
2.61500000000E+09 +7.01594422086E-01 +4.48006364909E-01 +1.21058873210E-03 +5.10831292854E-04 +1.24316145331E-03 +4.94664808061E-04 +6.88205416647E-01 +5.63493567866E-01
2.62000000000E+09 +7.05862588334E-01 +4.32124629691E-01 +1.13400521182E-03 +3.38645543029E-04 +1.26224061684E-03 +3.31639422897E-04 +6.93111904223E-01 +5.54529422666E-01
2.62500000000E+09 +7.11124411370E-01 +4.15399862503E-01 +1.12435408296E-03 +4.23528117154E-04 +1.22711686772E-03 +3.68334266626E-04 +6.97948944829E-01 +5.45865616163E-01
2.63000000000E+09 +7.16744959748E-01 +3.98406023323E-01 +1.29942432818E-03 +4.48057119170E-04 +1.30256207795E-03 +2.61311771719E-04 +7.02872865776E-01 +5.36804938600E-01
2.63500000000E+09 +7.21938342465E-01 +3.82363002416E-01 +1.45479367705E-03 +1.79863300890E-04 +1.31065071968E-03 +1.36285267538E-05 +7.07548399033E-01 +5.27434193010E-01
2.64000000000E+09 +7.26077474611E-01 +3.67954857233E-01 +1.31702705915E-03 -6.03291970234E-05 +1.15627875609E-03 -3.07292506561E-05 +7.12194000816E-01 +5.17740539970E-01
2.64500000000E+09 +7.29273113467E-01 +3.55812114651E-01 +1.20653392188E-03 -1.32734899365E-04 +1.12693428134E-03 -3.65079901626E-05 +7.16802411748E-01 +5.08114047182E-01
2.65000000000E+09 +7.31297021590E-01 +3.45821933333E-01 +1.12787537482E-03 -1.17933920799E-04 +1.10988417911E-03 +3.03515473694E-05 +7.21310695539E-01 +4.97935703478E-01
2.65500000000E+09 +7.32673076315E-01 +3.36800996212E-01 +1.16161010293E-03 -1.82584947401E-04 +1.19570443267E-03 -6.88315716268E-05 +7.25379685695E-01 +4.87231210596E-01
2.66000000000E+09 +7.33693131533E-01 +3.27688251423E-01 +1.16999815231E-03 -1.27913625398E-04 +1.24147195650E-03 -1.81177445935E-04 +7.29391480012E-01 +4.76125649271E-01
2.66500000000E+09 +7.34653097279E-01 +3.17721791766E-01 +1.14227436355E-03 -2.26297481243E-04 +1.15636040590E-03 -2.99302453613E-04 +7.33703798975E-01 +4.65044376710E-01
2.67000000000E+09 +7.35393436679E-01 +3.05736729586E-01 +1.15240854171E-03 -1.90326117158E-04 +1.10878994530E-03 -2.42438369913E-04 +7.38267387218E-01 +4.54370935034E-01
2.67500000000E+09 +7.36349619731E-01 +2.91706474901E-01 +1.29719795162E-03 -1.69087160963E-04 +1.22439120826E-03 -1.58217007527E-04 +7.42541893696E-01 +4.43203780780E-01
2.68000000000E+09 +7.37416271437E-01 +2.75702779816E-01 +1.47592101880E-03 -3.99097924267E-04 +1.38890577629E-03 -3.06401481090E-04 +7.46475396463E-01 +4.31854473443E-01
2.68500000000E+09 +7.38465416002E-01 +2.58781682251E-01 +1.29078043473E-03 -6.33191452379E-04 +1.32070994404E-03 -6.20817167776E-04 +7.49546388544E-01 +4.20306231260E-01
2.69000000000E+09 +7.39428253949E-01 +2.41395535368E-01 +1.17900540958E-03 -5.18668641682E-04 +1.12024272201E-03 -4.99537981715E-04 +7.52258954778E-01 +4.08328774802E-01
2.69500000000E+09 +7.40131544226E-01 +2.25096366217E-01 +1.33870714896E-03 -4.22419525447E-04 +1.30638494173E-03 -4.63959411773E-04 +7.55330638996E-01 +3.95610766989E-01
2.70000000000E+09 +7.40638570992E-01 +2.09997601354E-01 +1.50956184689E-03 -6.76949711042E-04 +1.49811830793E-03 -6.40986963420E-04 +7.58402799619E-01 +3.82389006275E-01
2.70500000000E+09 +7.41067650641E-01 +1.96317278764E-01 +1.63226638608E-03 -9.38792101162E-04 +1.59918093195E-03 -8.16367712710E-04 +7.61370674844E-01 +3.68928946621E-01
2.71000000000E+09 +7.41186028926E-01 +1.83602493291E-01 +1.57632814387E-03 -1.27455171459E-03 +1.62663050053E-03 -1.16442800575E-03 +7.64115998649E-01 +3.55614340613E-01
2.71500000000E+09 +7.41158336716E-01 +1.71126923252E-01 +1.37893208824E-03 -1.36162685567E-03 +1.46444987040E-03 -1.41052704619E-03 +7.66274842027E-01 +3.43102590763E-01
2.72000000000E+09 +7.40698850157E-01 +1.58397230623E-01 +1.35224633411E-03 -1.47989509955E-03 +1.30442218224E-03 -1.64525847042E-03 +7.68182346157E-01 +3.30484911795E-01
2.72500000000E+09 +7.39981308414E-01 +1.44377038469E-01 +1.21637138339E-03 -1.59289933108E-03 +1.07849522250E-03 -1.74306078237E-03 +7.69298237420E-01 +3.16872030711E-01
2.73000000000E+09 +7.38573480734E-01 +1.28761729168E-01 +1.28070532431E-03 -1.79758812956E-03 +1.07388733911E-03 -1.69296163859E-03 +7.70317178846E-01 +3.02685970393E-01
2.73500000000E+09 +7.36521819441E-01 +1.11366333860E-01 +1.13315003202E-03 -2.14928798601E-03 +1.00349427865E-03 -1.83165477115E-03 +7.70942893452E-01 +2.87930401444E-01
2.74000000000E+09 +7.33842539602E-01 +9.31327568349E-02 +8.53820181579E-04 -2.20043725484E-03 +9.05812506398E-04 -1.94469594848E-03 +7.72278310854E-01 +2.73452492993E-01
2.74500000000E+09 +7.29958685953E-01 +7.40241046806E-02 +7.07977176145E-04 -2.28355045747E-03 +9.71081757280E-04 -2.08111547180E-03 +7.73746725255E-01 +2.58744324045E-01
2.75000000000E+09 +7.24855899092E-01 +5.58235506786E-02 +8.53653644618E-04 -2.35521822248E-03 +1.11063013526E-03 -2.34817515325E-03 +7.74744319495E-01 +2.43546224139E-01
2.75500000000E+09 +7.19751440438E-01 +3.84091588300E-02 +6.13358930667E-04 -2.96050308676E-03 +8.46783960756E-04 -3.18082982797E-03 +7.74859805115E-01 +2.28707313962E-01
2.76000000000E+09 +7.14714438661E-01 +2.16194184332E-02 +1.57797917922E-04 -3.08328091827E-03 +1.88877485839E-04 -3.31562342328E-03 +7.74393332154E-01 +2.13356660645E-01
2.76500000000E+09 +7.09013758719E-01 +5.19804304786E-03 -3.96158221006E-04 -3.24239995022E-03 -4.58570289937E-04 -3.37434620670E-03 +7.73655247546E-01 +1.97380600623E-01
2.77000000000E+09 +7.03235971438E-01 -1.15065793044E-02 -8.19098091199E-04 -2.95940005815E-03 -9.24363820995E-04 -3.05251203862E-03 +7.73132623369E-01 +1.80064777618E-01
2.77500000000E+09 +6.97462825349E-01 -2.89026594663E-02 -7.61569429394E-04 -2.63954121217E-03 -9.31601102644E-04 -2.68596561698E-03 +7.71590828089E-01 +1.62005816153E-01
2.78000000000E+09 +6.91147617551E-01 -4.74800609368E-02 -6.75384950850E-04 -2.95769458476E-03 -8.88196327677E-04 -2.99425973219E-03 +7.69792487973E-01 +1.44336020984E-01
2.78500000000E+09 +6.84845900111E-01 -6.75484432316E-02 -1.15833562263E-03 -3.26789322190E-03 -1.36754443582E-03 -3.16004211884E-03 +7.67938652337E-01 +1.26607778508E-01
2.79000000000E+09 +6.77832096443E-01 -8.94163958971E-02 -1.59349167012E-03 -3.09242039708E-03 -1.63936577711E-03 -2.93437029874E-03 +7.64992974919E-01 +1.09161399093E-01
2.79500000000E+09 +6.69543615187E-01 -1.11614619397E-01 -1.77248830023E-03 -3.37752296015E-03 -1.68129855110E-03 -3.09953421752E-03 +7.61356144892E-01 +9.09554116228E-02
2.80000000000E+09 +6.60282604895E-01 -1.33072229782E-01 -2.41848094316E-03 -3.28667110285E-03 -2.23042447319E-03 -3.22338965039E-03 +7.56371033018E-01 +7.23923434570E-02
2.80500000000E+09 +6.50504940768E-01 -1.53066097136E-01 -2.63015515906E-03 -3.24681697546E-03 -2.50432783200E-03 -3.37836294331E-03 +7.50601529900E-01 +5.28390709970E-02
2.81000000000E+09 +6.39844964546E-01 -1.70902766280E-01 -3.37469882315E-03 -3.47263214689E-03 -3.41912110940E-03 -3.63420511316E-03 +7.43886967983E-01 +3.39641680318E-02
2.81500000000E+09 +6.28648217251E-01 -1.86699231117E-01 -4.01978124648E-03 -2.76018484915E-03 -4.20931823624E-03 -2.79500509483E-03 +7.37883623470E-01 +1.41017953799E-02
2.82000000000E+09 +6.16752244110E-01 -2.01491821948E-01 -4.42414273919E-03 -2.79189215005E-03 -4.44246765158E-03 -2.58270508739E-03 +7.30492750371E-01 -6.62211282445E-03
2.82500000000E+09 +6.03071882367E-01 -2.15933965978E-01 -5.17696130238E-03 -2.35497934053E-03 -4.98979876945E-03 -2.08063843758E-03 +7.21655758724E-01 -2.68639955300E-02
2.83000000000E+09 +5.87914420571E-01 -2.30152500107E-01 -5.63002132892E-03 -1.75345451757E-03 -5.32490098714E-03 -1.66351431982E-03 +7.11834412148E-01 -4.62816348538E-02
2.83500000000E+09 +5.71405244444E-01 -2.46814985772E-01 -6.09349405403E-03 -1.09033555943E-03 -5.83383109660E-03 -1.29291423490E-03 +7.01886146016E-01 -6.62985505381E-02
2.84000000000E+09 +5.51322627480E-01 -2.65285596253E-01 -6.50551003794E-03 -2.94173761176E-04 -6.42173939986E-03 -5.28306378849E-04 +6.90450804943E-01 -8.64560286035E-02
2.84500000000E+09 +5.28991921216E-01 -2.84803419995E-01 -6.55402449246E-03 +4.84110859590E-04 -6.60908162108E-03 +3.87110191290E-04 +6.78061149601E-01 -1.07077619032E-01
2.85000000000E+09 +5.04729003390E-01 -3.05129254049E-01 -6.76498709127E-03 +8.97839953435E-04 -6.75604242526E-03 +8.68644346686E-04 +6.64304852286E-01 -1.27345629202E-01
2.85500000000E+09 +4.79382241941E-01 -3.24409581755E-01 -7.59639686731E-03 +1.81480096398E-03 -7.42394682472E-03 +1.83978485439E-03 +6.49238566217E-01 -1.47744047179E-01
2.86000000000E+09 +4.55167700594E-01 -3.42531347968E-01 -7.41496984308E-03 +3.24182140269E-03 -7.22169262778E-03 +3.17650760627E-03 +6.33633120360E-01 -1.67221605052E-01
2.86500000000E+09 +4.31875469737E-01 -3.59159434076E-01 -7.19371303478E-03 +4.31131501919E-03 -7.16401399797E-03 +4.16079908023E-03 +6.17188131060E-01 -1.87902656477E-01
2.87000000000E+09 +4.09232240999E-01 -3.74507699768E-01 -6.79345903160E-03 +5.55226040310E-03 -6.83853788443E-03 +5.60702913870E-03 +5.98707508524E-01 -2.08289628085E-01
2.87500000000E+09 +3.86641674453E-01 -3.87495017874E-01 -6.25431112133E-03 +6.32761546103E-03 -6.06705344187E-03 +6.52484888069E-03 +5.77847378840E-01 -2.27584701990E-01
2.88000000000E+09 +3.63749831112E-01 -3.98516918089E-01 -5.87508775152E-03 +7.20199270944E-03 -5.41483101341E-03 +7.17567931956E-03 +5.57109589288E-01 -2.45578886020E-01
2.88500000000E+09 +3.39795989175E-01 -4.07687566755E-01 -5.35897107715E-03 +8.64628892221E-03 -4.91704598160E-03 +8.28538906798E-03 +5.35093389109E-01 -2.63783091603E-01
2.89000000000E+09 +3.14265120065E-01 -4.16398177437E-01 -4.02347558835E-03 +1.01009182120E-02 -3.98108743562E-03 +9.41450470767E-03 +5.11222915814E-01 -2.82278296200E-01
2.89500000000E+09 +2.85291080034E-01 -4.24014352130E-01 -2.18506140462E-03 +1.06651214084E-02 -2.61279958672E-03 +1.02054247464E-02 +4.84433123720E-01 -3.00351489524E-01
2.90000000000E+09 +2.54553839616E-01 -4.30841727980E-01 -1.20524948158E-03 +1.07426489841E-02 -1.62863886407E-03 +1.06800112745E-02 +4.57218443373E-01 -3.16394768585E-01
2.90500000000E+09 +2.20347914757E-01 -4.37315568866E-01 +3.66604571603E-05 +1.16818158693E-02 -3.22287769614E-05 +1.18803731999E-02 +4.28804976752E-01 -3.32405176042E-01
2.91000000000E+09 +1.84811415878E-01 -4.40920163600E-01 +1.84029944085E-03 +1.19731357103E-02 +2.21111665752E-03 +1.19477828988E-02 +3.99308925494E-01 -3.47079359206E-01
2.91500000000E+09 +1.50355465021E-01 -4.43789018072E-01 +3.87444517957E-03 +1.24345190243E-02 +4.02437518747E-03 +1.18132985319E-02 +3.67790636516E-01 -3.59941503281E-01
2.92000000000E+09 +1.15109493061E-01 -4.45383371506E-01 +6.22169279238E-03 +1.17893500865E-02 +5.72598487160E-03 +1.11128304408E-02 +3.35113448853E-01 -3.71623567273E-01
2.92500000000E+09 +8.11824386367E-02 -4.44665145949E-01 +7.98065975701E-03 +1.05955611610E-02 +7.03619769186E-03 +1.03414029830E-02 +2.99758370271E-01 -3.80104687013E-01
2.93000000000E+09 +4.81695254678E-02 -4.41401065476E-01 +9.14154325287E-03 +9.41277608283E-03 +8.39749013520E-03 +9.80717777250E-03 +2.63562252687E-01 -3.87934872741E-01
2.93500000000E+09 +1.57495480270E-02 -4.36298551401E-01 +1.05353021412E-02 +8.66997291456E-03 +1.01112702317E-02 +9.09548976885E-03 +2.25324922248E-01 -3.93565406929E-01
2.94000000000E+09 -1.71317414438E-02 -4.27874930886E-01 +1.18381629733E-02 +7.58226001445E-03 +1.17001286062E-02 +7.91728034349E-03 +1.85982775498E-01 -3.97803014297E-01
2.94500000000E+09 -4.96521137274E-02 -4.16442352161E-01 +1.40337659939E-02 +5.94415554081E-03 +1.38711896372E-02 +6.27156596845E-03 +1.45473972673E-01 -3.97998992413E-01
2.95000000000E+09 -8.31792361464E-02 -4.02787520822E-01 +1.48541022441E-02 +3.02401814629E-03 +1.47660577467E-02 +3.67271308586E-03 +1.06152487225E-01 -3.96181873800E-01
2.95500000000E+09 -1.18081916047E-01 -3.85053176657E-01 +1.47597931633E-02 +6.45995885506E-04 +1.51026110600E-02 +1.31845387369E-03 +6.62353267072E-02 -3.91891056559E-01
2.96000000000E+09 -1.51190200440E-01 -3.63699313911E-01 +1.46757614769E-02 -1.40086576258E-03 +1.53652080255E-02 -1.23872475092E-03 +2.45581022295E-02 -3.84964677806E-01
2.96500000000E+09 -1.83133274022E-01 -3.41171996099E-01 +1.41912030365E-02 -3.00358092696E-03 +1.46335796326E-02 -3.39630865135E-03 -1.66887009039E-02 -3.72934602866E-01
2.97000000000E+09 -2.14033360350E-01 -3.16801771467E-01 +1.40045247946E-02 -4.52828269397E-03 +1.38198046919E-02 -5.00639454204E-03 -5.79271575569E-02 -3.59150298993E-01
2.97500000000E+09 -2.42565174643E-01 -2.90513147709E-01 +1.42773946581E-02 -6.74578970813E-03 +1.37517336365E-02 -6.67106605700E-03 -9.80602311838E-02 -3.42128830677E-01
2.98000000000E+09 -2.69131440194E-01 -2.63991218944E-01 +1.29894563455E-02 -9.54878712409E-03 +1.29054780587E-02 -8.99413596086E-03 -1.36898351042E-01 -3.22977220590E-01
2.98500000000E+09 -2.94206462124E-01 -2.34531714367E-01 +1.13177245357E-02 -1.16779531351E-02 +1.19401814577E-02 -1.13048079172E-02 -1.74034523435E-01 -3.00298769948E-01
2.99000000000E+09 -3.15713489332E-01 -2.03797345756E-01 +9.02964712554E-03 -1.28057085817E-02 +9.74484503332E-03 -1.33296827882E-02 -2.10605143670E-01 -2.74868901924E-01
2.99500000000E+09 -3.35388823749E-01 -1.73105216429E-01 +7.23739865149E-03 -1.37792496165E-02 +7.08591129062E-03 -1.45869461498E-02 -2.43983996042E-01 -2.45621830401E-01
3.00000000000E+09 -3.54786955643E-01 -1.40564401537E-01 +5.50237119296E-03 -1.46247561502E-02 +4.72890849120E-03 -1.50018388679E-02 -2.76334735911E-01 -2.13876340734E-01
3.00500000000E+09 -3.71260304565E-01 -1.06075939931E-01 +3.42155988643E-03 -1.59004642505E-02 +2.66108100754E-03 -1.54078227982E-02 -3.05613760997E-01 -1.80902598191E-01
3.01000000000E+09 -3.85449098875E-01 -7.21557930944E-02 +4.67715968174E-04 -1.62823185979E-02 +4.62825346049E-04 -1.55156498444E-02 -3.34199233882E-01 -1.45031085910E-01
3.01500000000E+09 -3.98162587626E-01 -3.77808791798E-02 -2.15980374656E-03 -1.55348043368E-02 -1.74931335320E-03 -1.52215641475E-02 -3.58128272552E-01 -1.08242031050E-01
3.02000000000E+09 -4.07316306193E-01 -3.87735432886E-03 -4.04997869316E-03 -1.45531419905E-02 -3.73466466432E-03 -1.45391250588E-02 -3.78980799995E-01 -6.92065192453E-02
3.02500000000E+09 -4.13877588571E-01 +2.84761980338E-02 -5.65770073392E-03 -1.39254223262E-02 -5.54569514728E-03 -1.39659485079E-02 -3.95994673340E-01 -3.08435819770E-02
3.03000000000E+09 -4.17747151892E-01 +6.05716838148E-02 -7.65328092543E-03 -1.29623351147E-02 -7.51472729946E-03 -1.28465823863E-02 -4.10660840066E-01 +9.84676647713E-03
3.03500000000E+09 -4.18085172592E-01 +9.21860694224E-02 -9.68156553575E-03 -1.19553232034E-02 -9.23163985600E-03 -1.20623955780E-02 -4.21997072140E-01 +4.95754149432E-02
3.04000000000E+09 -4.15230402285E-01 +1.23779770599E-01 -1.14546286970E-02 -9.29524193221E-03 -1.12878657766E-02 -9.91856704260E-03 -4.30528647716E-01 +9.11640259907E-02
3.04500000000E+09 -4.09525058485E-01 +1.55984304935E-01 -1.15026487774E-02 -7.25229240388E-03 -1.20379896044E-02 -7.80728295099E-03 -4.35693963977E-01 +1.30971197941E-01
3.05000000000E+09 -4.01229971919E-01 +1.89004487316E-01 -1.18733723253E-02 -5.70003083006E-03 -1.27691830260E-02 -5.57724535371E-03 -4.38610508504E-01 +1.70579612250E-01
3.05500000000E+09 -3.90260332131E-01 +2.22984592890E-01 -1.20637087257E-02 -4.41400843109E-03 -1.25600202337E-02 -3.62718074525E-03 -4.39279320189E-01 +2.09057193954E-01
3.06000000000E+09 -3.77272124797E-01 +2.56748086490E-01 -1.26885860963E-02 -3.29089757563E-03 -1.23636473171E-02 -2.52145203731E-03 -4.37388920421E-01 +2.46411876164E-01
3.06500000000E+09 -3.63144540490E-01 +2.89475095072E-01 -1.36050559432E-02 -9.22451557036E-04 -1.27474428049E-02 -8.90816370754E-04 -4.34088107662E-01 +2.83983075233E-01
3.07000000000E+09 -3.48567827183E-01 +3.20291463546E-01 -1.28036058132E-02 +1.55300469080E-03 -1.24103268551E-02 +7.92245498229E-04 -4.26701777666E-01 +3.20418514287E-01
