# Hz S RI R 50
! CMT, C1220, 16058040, 17.2.0/1
! Date: 15/08/2018 10:06:21
! Data: Format (Calibration Info)
! Freq                      S11: Re/Im (F2)                       S21: Re/Im (F2)                       S12: Re/Im (F2)                       S22: Re/Im (F2)            
2.50000000000E+09 +5.99407955021E-01 +6.30785101147E-01 -4.33492124395E-04 -4.24288692278E-04 -4.94587512347E-04 -4.20947404234E-04 +5.72175281082E-01 +7.17088119276E-01
2.50500000000E+09 +6.05648106552E-01 +6.23169366963E-01 -4.66875339304E-04 -4.39650268048E-04 -5.09837236679E-04 -3.79987449871E-04 +5.77900353417E-01 +7.11761577142E-01
2.51000000000E+09 +6.12078057428E-01 +6.15146249998E-01 -5.79335741433E-04 -4.45610760577E-04 -5.44707980326E-04 -4.05669256723E-04 +5.83508369180E-01 +7.06664255711E-01
2.51500000000E+09 +6.18380154506E-01 +6.07016157479E-01 -7.26280279800E-04 -3.84681413080E-04 -7.01602161496E-04 -3.65317411507E-04 +5.88847123064E-01 +7.01160283315E-01
2.52000000000E+09 +6.23909659827E-01 +5.98873879306E-01 -7.32725831460E-04 -2.95414181246E-04 -7.54612018401E-04 -2.82930855526E-04 +5.93928047797E-01 +6.95303009325E-01
2.52500000000E+09 +6.28710191017E-01 +5.91489739512E-01 -8.03795919674E-04 -1.39337597354E-04 -8.17453760066E-04 -2.16362444281E-04 +5.99806271238E-01 +6.88710441853E-01
2.53000000000E+09 +6.33241237038E-01 +5.84506979738E-01 -7.70862418615E-04 -2.53058740787E-05 -8.58678776637E-04 +2.79022320968E-05 +6.05762325178E-01 +6.81630251053E-01
2.53500000000E+09 +6.37248264498E-01 +5.78104721378E-01 -7.82708631121E-04 +3.40379240390E-05 -7.33012927649E-04 +2.77430331840E-05 +6.11928270409E-01 +6.74802819807E-01
2.54000000000E+09 +6.41231499178E-01 +5.72041940001E-01 -7.68887461776E-04 +4.96984702723E-05 -7.89320367805E-04 +2.49065865641E-05 +6.17985757824E-01 +6.68093052473E-01
2.54500000000E+09 +6.45490705034E-01 +5.66222677434E-01 -8.16651464213E-04 +2.15886309032E-04 -8.16553721748E-04 +1.98334005591E-04 +6.23554549683E-01 +6.61547328993E-01
2.55000000000E+09 +6.50290855025E-01 +5.60114206688E-01 -6.90334336728E-04 +3.20882181806E-04 -8.00830700714E-04 +2.86971188358E-04 +6.28959486727E-01 +6.55406270257E-01
2.55500000000E+09 +6.55557647128E-01 +5.53184840876E-01 -6.71114985048E-04 +3.90427058198E-04 -7.22966366936E-04 +3.84321107372E-04 +6.34072066818E-01 +6.48899695254E-01
2.56000000000E+09 +6.61497923698E-01 +5.46209752924E-01 -5.19027858969E-04 +3.73806396338E-04 -5.53535501545E-04 +4.97469957793E-04 +6.39224618340E-01 +6.41848910450E-01
2.56500000000E+09 +6.67839156946E-01 +5.38067503463E-01 -5.04498455403E-04 +3.11192889117E-04 -5.24840727542E-04 +3.69890514006E-04 +6.44659892016E-01 +6.34320274122E-01
2.57000000000E+09 +6.74085619776E-01 +5.29571471381E-01 -6.51376574333E-04 +2.46342034966E-04 -5.61393403554E-04 +3.82515193855E-04 +6.50199779588E-01 +6.26195506498E-01
2.57500000000E+09 +6.80067593077E-01 +5.20285717917E-01 -7.68785606247E-04 +4.99240140051E-04 -5.24577983025E-04 +5.04880698621E-04 +6.55668525423E-01 +6.18554645619E-01
2.58000000000E+09 +6.85074735969E-01 +5.11374638300E-01 -6.26605131663E-04 +6.74969683595E-04 -4.92203158668E-04 +5.95594976620E-04 +6.60753253685E-01 +6.10882445982E-01
2.58500000000E+09 +6.89817109036E-01 +5.02638860544E-01 -4.62684030849E-04 +7.20653995576E-04 -4.38488136610E-04 +6.02857791520E-04 +6.65603602202E-01 +6.03440718542E-01
2.59000000000E+09 +6.94095979019E-01 +4.94198780603E-01 -3.55844404412E-04 +7.17885575375E-04 -3.95981275605E-04 +6.52816834063E-04 +6.70445623881E-01 +5.95930944321E-01
2.59500000000E+09 +6.98197751054E-01 +4.85763964831E-01 -3.45924700913E-04 +6.37315499727E-04 -3.50324062037E-04 +6.27084620514E-04 +6.75120150168E-01 +5.87854528881E-01
2.60000000000E+09 +7.02195585153E-01 +4.77194292921E-01 -3.68321597632E-04 +6.07657288397E-04 -3.46264821885E-04 +6.22491959676E-04 +6.80187765532E-01 +5.79488690644E-01
2.60500000000E+09 +7.06371003314E-01 +4.68008702326E-01 -4.84947163681E-04 +7.38909735179E-04 -4.54801991545E-04 +7.09002332871E-04 +6.85478207924E-01 +5.70564220054E-01
2.61000000000E+09 +7.10622389228E-01 +4.57883988519E-01 -3.59759787353E-04 +9.89951260996E-04 -3.83292801159E-04 +1.00964079537E-03 +6.90272256465E-01 +5.61727716969E-01
2.61500000000E+09 +7.15018394221E-01 +4.46879469368E-01 -4.70192943281E-05 +9.90173114079E-04 -7.55763987920E-05 +1.02884270284E-03 +6.95300827974E-01 +5.53038997044E-01
2.62000000000E+09 +7.19351108912E-01 +4.34683696224E-01 +3.27957592318E-05 +8.50543208368E-04 +6.05230827699E-05 +9.60665517917E-04 +6.99924208988E-01 +5.43992497448E-01
2.62500000000E+09 +7.23391902827E-01 +4.21577627666E-01 +1.11558750460E-05 +8.24565038241E-04 +7.44486952191E-05 +8.42811502836E-04 +7.04535925013E-01 +5.35419232733E-01
2.63000000000E+09 +7.26767205567E-01 +4.08321396965E-01 -2.04557579799E-07 +9.41954413048E-04 +1.82225766173E-04 +8.88588510038E-04 +7.09654018635E-01 +5.26437184193E-01
2.63500000000E+09 +7.29705058901E-01 +3.95077069489E-01 +8.18560403972E-05 +9.53545044298E-04 +1.81546417164E-04 +8.67105285874E-04 +7.14267732693E-01 +5.17021609968E-01
2.64000000000E+09 +7.32390301506E-01 +3.82324239852E-01 +1.78093340391E-04 +1.12707620972E-03 +1.68049782664E-04 +9.19673143338E-04 +7.19059931301E-01 +5.07257142922E-01
2.64500000000E+09 +7.34868610779E-01 +3.70168009948E-01 +4.94568983131E-04 +1.06082160444E-03 +3.83732888740E-04 +9.46030253795E-04 +7.23477466944E-01 +4.97638280912E-01
2.65000000000E+09 +7.37242390584E-01 +3.58379194299E-01 +5.06313192919E-04 +8.95685479755E-04 +3.75665218956E-04 +9.30519595296E-04 +7.27668624067E-01 +4.87787922042E-01
2.65500000000E+09 +7.39473570986E-01 +3.46613900970E-01 +6.25602664719E-04 +9.09443790866E-04 +5.24276207218E-04 +1.00461562927E-03 +7.32179587684E-01 +4.77608663411E-01
2.66000000000E+09 +7.41562270675E-01 +3.34818204521E-01 +6.43621096033E-04 +8.29470241784E-04 +7.00662083712E-04 +9.05386995157E-04 +7.36633473398E-01 +4.66172635966E-01
2.66500000000E+09 +7.43895201833E-01 +3.23123620163E-01 +6.38067930915E-04 +8.61059100282E-04 +7.39395953105E-04 +9.20690808583E-04 +7.40826619154E-01 +4.54856019957E-01
2.67000000000E+09 +7.45739087880E-01 +3.10299460776E-01 +9.04068208384E-04 +1.02813709835E-03 +9.64152621742E-04 +8.82953972562E-04 +7.44999590900E-01 +4.43757232494E-01
2.67500000000E+09 +7.47080587891E-01 +2.96818337789E-01 +1.23268141557E-03 +7.09297188802E-04 +1.17015700662E-03 +6.28554739693E-04 +7.48947807253E-01 +4.32522114619E-01
2.68000000000E+09 +7.47626415897E-01 +2.82974483087E-01 +1.17395644222E-03 +4.22519403872E-04 +1.06659559640E-03 +4.70916522016E-04 +7.52656456182E-01 +4.21280843237E-01
2.68500000000E+09 +7.47815626104E-01 +2.69077972562E-01 +1.09404882352E-03 +4.04354075668E-04 +1.07090048979E-03 +3.97019675340E-04 +7.55857383251E-01 +4.09637075398E-01
2.69000000000E+09 +7.47437160280E-01 +2.55375371871E-01 +1.09890613752E-03 +4.01171203069E-04 +1.10417240666E-03 +4.06138035251E-04 +7.58580554578E-01 +3.97517349959E-01
2.69500000000E+09 +7.46958191160E-01 +2.42147450168E-01 +1.26793776199E-03 +3.44601973625E-04 +1.27309555352E-03 +3.16272001279E-04 +7.61316506015E-01 +3.84700781947E-01
2.70000000000E+09 +7.46894709036E-01 +2.29089246229E-01 +1.46812683765E-03 +2.57702456036E-04 +1.40059638495E-03 +2.70739980049E-04 +7.63821312173E-01 +3.71209875073E-01
2.70500000000E+09 +7.47028247411E-01 +2.16319899274E-01 +1.51365289396E-03 -9.22650179679E-06 +1.49927378650E-03 -5.73854439211E-06 +7.66696290868E-01 +3.57798283686E-01
2.71000000000E+09 +7.47410993315E-01 +2.03378362882E-01 +1.45506634439E-03 -2.13880839972E-04 +1.51918420324E-03 -1.77354532477E-04 +7.69558031295E-01 +3.44367502043E-01
2.71500000000E+09 +7.48372750518E-01 +1.89878495867E-01 +1.41735987797E-03 -4.03352685527E-04 +1.51831756485E-03 -4.10488556599E-04 +7.71604857678E-01 +3.31773198517E-01
2.72000000000E+09 +7.49204151417E-01 +1.75758377410E-01 +1.30307046336E-03 -5.25652600174E-04 +1.26836825339E-03 -6.90799065411E-04 +7.73629924629E-01 +3.19210046796E-01
2.72500000000E+09 +7.49926320639E-01 +1.60395686597E-01 +1.12921336279E-03 -6.11238140629E-04 +1.09114992457E-03 -7.24570402080E-04 +7.74415279227E-01 +3.05830452207E-01
2.73000000000E+09 +7.49457740165E-01 +1.43857362964E-01 +1.21704805010E-03 -5.41982457308E-04 +1.03189085411E-03 -5.79883006564E-04 +7.75946551731E-01 +2.92058952115E-01
2.73500000000E+09 +7.47441221980E-01 +1.26538586804E-01 +1.30809930862E-03 -7.48662700740E-04 +1.15449901270E-03 -6.54946028394E-04 +7.77352543839E-01 +2.76761537236E-01
2.74000000000E+09 +7.44309866710E-01 +1.10023371606E-01 +1.31577310309E-03 -9.39028017311E-04 +1.25525205148E-03 -7.38353985016E-04 +7.78406834562E-01 +2.61406946283E-01
2.74500000000E+09 +7.40427920479E-01 +9.34755939072E-02 +1.19848640194E-03 -1.26555195547E-03 +1.35002787806E-03 -1.04468006922E-03 +7.79218025274E-01 +2.46183485753E-01
2.75000000000E+09 +7.35943591520E-01 +7.71249909308E-02 +8.47674172575E-04 -1.48892201251E-03 +1.01974457487E-03 -1.44208837829E-03 +7.79780568201E-01 +2.31324385099E-01
2.75500000000E+09 +7.31024062164E-01 +6.11140351114E-02 +6.94696371334E-04 -1.29009616161E-03 +8.82355896590E-04 -1.33640018348E-03 +7.79889398741E-01 +2.16604696922E-01
2.76000000000E+09 +7.26340282152E-01 +4.53893395607E-02 +8.76237015212E-04 -1.31925138723E-03 +9.24313493518E-04 -1.42063891159E-03 +7.79522838327E-01 +2.00522719475E-01
2.76500000000E+09 +7.21444674806E-01 +2.93738598231E-02 +7.09486321343E-04 -1.72800761649E-03 +7.01772937022E-04 -1.78169825856E-03 +7.77823253289E-01 +1.83383391032E-01
2.77000000000E+09 +7.17365166970E-01 +1.26326358350E-02 +4.31959737001E-04 -1.76844213102E-03 +3.68502412254E-04 -1.81635198956E-03 +7.76020741651E-01 +1.66377529523E-01
2.77500000000E+09 +7.13186847446E-01 -5.59087412106E-03 +1.72265778338E-04 -1.83669333703E-03 +1.38283338817E-04 -1.91573696340E-03 +7.74315384535E-01 +1.48104294372E-01
2.78000000000E+09 +7.08292641673E-01 -2.52699605957E-02 -7.97342962735E-05 -1.82890803254E-03 -2.01802315504E-04 -1.89125053698E-03 +7.71828579973E-01 +1.30087333026E-01
2.78500000000E+09 +7.01738534567E-01 -4.60281849271E-02 -2.67571667566E-04 -1.61128907480E-03 -3.74920602681E-04 -1.59501849154E-03 +7.69237177996E-01 +1.12583522062E-01
2.79000000000E+09 +6.94097476586E-01 -6.72097422423E-02 -1.50113183485E-04 -1.72156354554E-03 -2.21885261858E-04 -1.62171620698E-03 +7.65609105579E-01 +9.51195961779E-02
2.79500000000E+09 +6.84678729294E-01 -8.76663208118E-02 -7.28385725195E-04 -1.96026106244E-03 -6.46469569784E-04 -1.80560558660E-03 +7.61021162737E-01 +7.78958130288E-02
2.80000000000E+09 +6.74604505766E-01 -1.07639798871E-01 -8.27454014433E-04 -1.43079311703E-03 -7.33925676054E-04 -1.40692845711E-03 +7.56323686761E-01 +6.01226491020E-02
2.80500000000E+09 +6.63388198157E-01 -1.26805484845E-01 -8.41770028978E-04 -1.62876484643E-03 -8.17692953877E-04 -1.66606482358E-03 +7.50628501432E-01 +4.09882113034E-02
2.81000000000E+09 +6.51486069434E-01 -1.44896598943E-01 -1.12625468367E-03 -1.37028492668E-03 -1.19529807480E-03 -1.43055726435E-03 +7.43874614891E-01 +2.18293189632E-02
2.81500000000E+09 +6.38510381298E-01 -1.62311050235E-01 -1.07419066701E-03 -1.12876198948E-03 -1.14715118400E-03 -1.14552754831E-03 +7.36756149330E-01 +2.62506750908E-03
2.82000000000E+09 +6.24711635288E-01 -1.78898499972E-01 -1.08298505853E-03 -1.48336135896E-03 -1.14761833237E-03 -1.42089730748E-03 +7.29010764930E-01 -1.64598048977E-02
2.82500000000E+09 +6.10220524850E-01 -1.95192476040E-01 -1.72121039534E-03 -1.45286350887E-03 -1.71313509425E-03 -1.33086931657E-03 +7.20738871545E-01 -3.59103219515E-02
2.83000000000E+09 +5.94645128490E-01 -2.12819098890E-01 -1.96775204050E-03 -6.14270557115E-04 -1.86260861330E-03 -5.29629390959E-04 +7.11509102688E-01 -5.52500937553E-02
2.83500000000E+09 +5.76249909117E-01 -2.30961307290E-01 -1.53156906987E-03 -3.00636569029E-04 -1.45948399902E-03 -3.02497678746E-04 +7.01915948736E-01 -7.53151495832E-02
2.84000000000E+09 +5.55666243646E-01 -2.48472476739E-01 -1.27605098628E-03 -3.38842502238E-04 -1.22618167012E-03 -3.44839799442E-04 +6.90344434867E-01 -9.63324195967E-02
2.84500000000E+09 +5.33691108031E-01 -2.66033688556E-01 -1.13890494389E-03 -6.16351692160E-04 -1.14586758575E-03 -6.51623280241E-04 +6.77518580043E-01 -1.16540900226E-01
2.85000000000E+09 +5.10035365200E-01 -2.83203108284E-01 -1.68354221244E-03 -8.30045756571E-04 -1.64591621205E-03 -8.23639293919E-04 +6.64391562030E-01 -1.37112769855E-01
2.85500000000E+09 +4.85843132356E-01 -2.99771650983E-01 -1.95086487881E-03 -1.58834531495E-04 -1.90060451362E-03 -1.99428368279E-04 +6.49665189172E-01 -1.58228325760E-01
2.86000000000E+09 +4.60606794233E-01 -3.16218127378E-01 -1.38288539212E-03 -1.28828848573E-04 -1.29637542844E-03 -1.76197861563E-04 +6.32913352603E-01 -1.78623706460E-01
2.86500000000E+09 +4.34419443432E-01 -3.31312713407E-01 -1.74137292818E-03 -5.68690309355E-04 -1.72235000541E-03 -5.69355068919E-04 +6.15141069663E-01 -1.98664971859E-01
2.87000000000E+09 +4.08123851644E-01 -3.44209448534E-01 -2.15252016426E-03 +1.14279746370E-05 -2.21071937304E-03 +2.72015204876E-05 +5.96664386026E-01 -2.17553378823E-01
2.87500000000E+09 +3.83371823275E-01 -3.55964050150E-01 -1.96989060479E-03 +1.54207585606E-04 -2.01029539767E-03 +2.15432093855E-04 +5.77771146790E-01 -2.37399422780E-01
2.88000000000E+09 +3.57917488142E-01 -3.67875482869E-01 -2.12807884775E-03 +3.34113718764E-04 -2.04294631034E-03 +4.01834225802E-04 +5.56457296854E-01 -2.57216742007E-01
2.88500000000E+09 +3.31381067783E-01 -3.78538994716E-01 -1.86225635971E-03 +7.97974407371E-04 -1.79558878304E-03 +7.33472523584E-04 +5.32779645849E-01 -2.75476551441E-01
2.89000000000E+09 +3.03106584246E-01 -3.87839294321E-01 -1.75846930822E-03 +2.45180803637E-04 -1.68329134969E-03 +2.52371134458E-04 +5.08317577379E-01 -2.93092352451E-01
2.89500000000E+09 +2.72743865560E-01 -3.95180806360E-01 -2.47196249089E-03 +4.83115779542E-04 -2.37921618411E-03 +4.00262187555E-04 +4.80974627009E-01 -3.10855329448E-01
2.90000000000E+09 +2.40618616381E-01 -3.99559464205E-01 -2.70711003127E-03 +1.23359563824E-03 -2.79274958719E-03 +1.08718370687E-03 +4.52956848372E-01 -3.26081662566E-01
2.90500000000E+09 +2.07529847431E-01 -4.01056737325E-01 -2.36729931948E-03 +1.96707023232E-03 -2.38598149432E-03 +1.96438207150E-03 +4.24208192805E-01 -3.42145008140E-01
2.91000000000E+09 +1.73835827737E-01 -4.00858846838E-01 -1.58885223893E-03 +2.16052591796E-03 -1.51506903438E-03 +2.11143096527E-03 +3.92965479660E-01 -3.56624643281E-01
2.91500000000E+09 +1.39258430361E-01 -3.98364282061E-01 -1.89938487598E-03 +1.49044079698E-03 -1.73736754736E-03 +1.53278649092E-03 +3.60439112095E-01 -3.68209885807E-01
2.92000000000E+09 +1.04052959612E-01 -3.93540158502E-01 -2.31852298552E-03 +2.49363772374E-03 -2.16140576083E-03 +2.35688763740E-03 +3.28086546206E-01 -3.77951483082E-01
2.92500000000E+09 +6.89832706568E-02 -3.87107251873E-01 -1.42241707365E-03 +2.89188332208E-03 -1.45150241547E-03 +2.64417415963E-03 +2.92917368489E-01 -3.86801727980E-01
2.93000000000E+09 +3.38480311229E-02 -3.78142446695E-01 -1.12020948410E-03 +2.93636803462E-03 -1.23759231397E-03 +2.77540367979E-03 +2.55955441149E-01 -3.93618867094E-01
2.93500000000E+09 -1.01523323113E-03 -3.67593570185E-01 -8.71656721677E-04 +3.06450599767E-03 -9.40603646680E-04 +3.04054506501E-03 +2.17100774015E-01 -3.98352535543E-01
2.94000000000E+09 -3.53654238830E-02 -3.54060888498E-01 -9.53047642241E-04 +2.95768201859E-03 -9.83420921720E-04 +2.98466643961E-03 +1.77879791874E-01 -3.99752299484E-01
2.94500000000E+09 -6.85591310246E-02 -3.38084359419E-01 -9.54053480863E-04 +4.01608317423E-03 -9.85735006710E-04 +3.96988676167E-03 +1.40192264460E-01 -4.00530478618E-01
2.95000000000E+09 -1.00464153694E-01 -3.19714020097E-01 +4.87448158413E-04 +4.54987189104E-03 +3.61642896885E-04 +4.53000733765E-03 +9.97785647544E-02 -3.99795008383E-01
2.95500000000E+09 -1.30862804862E-01 -2.98800384128E-01 +1.37291334537E-03 +3.99158692810E-03 +1.24883534040E-03 +4.09429199806E-03 +5.80384662424E-02 -3.93482899980E-01
2.96000000000E+09 -1.60304787658E-01 -2.75849196953E-01 +1.63339435921E-03 +3.50555901452E-03 +1.70060435086E-03 +3.65198959855E-03 +1.78417617253E-02 -3.83349974075E-01
2.96500000000E+09 -1.88918899502E-01 -2.49638293659E-01 +1.89715471357E-03 +3.27767734263E-03 +1.97001445833E-03 +3.38317548207E-03 -2.17906452092E-02 -3.70500181908E-01
2.97000000000E+09 -2.14863313387E-01 -2.19500485489E-01 +1.97496131628E-03 +3.35798165717E-03 +2.03366338055E-03 +3.23377912164E-03 -6.08682448046E-02 -3.56838976149E-01
2.97500000000E+09 -2.37210124052E-01 -1.88159610189E-01 +2.52182490730E-03 +3.82604847852E-03 +2.44599547779E-03 +3.72562114173E-03 -1.01322130977E-01 -3.41115468799E-01
2.98000000000E+09 -2.57647490282E-01 -1.56675554329E-01 +3.89989704218E-03 +3.56084333927E-03 +3.67557806965E-03 +3.66596719830E-03 -1.40886428526E-01 -3.21018827385E-01
2.98500000000E+09 -2.77329550873E-01 -1.24584680484E-01 +4.74396980740E-03 +2.38664774683E-03 +4.74450902081E-03 +2.65423421898E-03 -1.78484623138E-01 -2.96520653742E-01
2.99000000000E+09 -2.95445750509E-01 -9.11023904530E-02 +4.54034817035E-03 +1.14275549878E-03 +4.71489832051E-03 +1.23239596134E-03 -2.12022313563E-01 -2.70331711964E-01
2.99500000000E+09 -3.10936858492E-01 -5.64636639336E-02 +4.05088693164E-03 +1.07942209680E-03 +4.21239438277E-03 +1.01579391781E-03 -2.45436681504E-01 -2.42095041612E-01
3.00000000000E+09 -3.23685946512E-01 -2.17910620866E-02 +4.77631334732E-03 +1.30085337382E-03 +4.76516085132E-03 +1.10214599094E-03 -2.77173250323E-01 -2.10437504129E-01
3.00500000000E+09 -3.33545923131E-01 +1.15773281352E-02 +5.67032267176E-03 +2.44064028125E-04 +5.47312340828E-03 +5.87849744743E-05 -3.06015034860E-01 -1.76682348364E-01
3.01000000000E+09 -3.41282577138E-01 +4.40459258864E-02 +5.70517855034E-03 -1.55853749422E-03 +5.44226982557E-03 -1.35977052473E-03 -3.33098113531E-01 -1.41421305545E-01
3.01500000000E+09 -3.47172191116E-01 +7.66628394506E-02 +4.65041086776E-03 -2.64060170811E-03 +4.67721996911E-03 -2.36856362212E-03 -3.55804919757E-01 -1.04247352427E-01
3.02000000000E+09 -3.49552473692E-01 +1.09110104575E-01 +3.42950368684E-03 -2.77674232383E-03 +3.55424773646E-03 -2.71030627658E-03 -3.75849434778E-01 -6.82817746991E-02
3.02500000000E+09 -3.48486286123E-01 +1.40790630310E-01 +3.64162398924E-03 -2.22960470577E-03 +3.72579082447E-03 -2.25524783039E-03 -3.94802244187E-01 -2.92489302931E-02
3.03000000000E+09 -3.44546238754E-01 +1.71729912578E-01 +3.75251592126E-03 -3.29104507993E-03 +3.78723119602E-03 -3.30060726475E-03 -4.08966229424E-01 +1.25556014909E-02
3.03500000000E+09 -3.37517392764E-01 +2.00821627427E-01 +3.06893541447E-03 -4.44175679080E-03 +3.14823784688E-03 -4.40471984528E-03 -4.18938969785E-01 +5.30635403908E-02
3.04000000000E+09 -3.29849946547E-01 +2.29631332292E-01 +1.24664499427E-03 -4.55975416110E-03 +1.36073442760E-03 -4.68537545182E-03 -4.27020946256E-01 +9.32363457116E-02
3.04500000000E+09 -3.20118190151E-01 +2.58161844305E-01 +7.36983782717E-04 -3.41389607512E-03 +8.08267456236E-04 -3.62448125979E-03 -4.32684442204E-01 +1.33185717682E-01
3.05000000000E+09 -3.08621500711E-01 +2.86877481200E-01 +1.08188735346E-03 -3.10021320041E-03 +1.03803420648E-03 -3.35023214893E-03 -4.36659063666E-01 +1.73302028630E-01
3.05500000000E+09 -2.95042445418E-01 +3.14851791739E-01 +1.56823804749E-03 -3.64380127938E-03 +1.30838894525E-03 -3.79875793192E-03 -4.35817563381E-01 +2.13883265668E-01
3.06000000000E+09 -2.80252120498E-01 +3.40487630684E-01 +6.56919073575E-04 -5.01882026054E-03 +3.86974159552E-04 -4.88093396862E-03 -4.32473635753E-01 +2.50991174251E-01
3.06500000000E+09 -2.65673652195E-01 +3.65070822219E-01 -1.30056411066E-03 -4.54572749596E-03 -1.21020599002E-03 -4.31483486596E-03 -4.28106697876E-01 +2.87295749108E-01
3.07000000000E+09 -2.50722415936E-01 +3.88239126586E-01 -1.69156988641E-03 -3.21765859133E-03 -1.47531523460E-03 -3.25936975762E-03 -4.22626204519E-01 +3.22455674595E-01
