# Hz S RI R 50
! CMT, C1220, 16058040, 17.2.0/1
! Date: 15/08/2018 10:06:40
! Data: Format (Calibration Info)
! Freq                      S11: Re/Im (F2)                       S21: Re/Im (F2)                       S12: Re/Im (F2)                       S22: Re/Im (F2)            
2.50000000000E+09 +5.98816443033E-01 +6.31646666131E-01 -5.15149450754E-04 -3.60288671006E-04 -5.53418948680E-04 -3.73710629776E-04 +5.72317368414E-01 +7.17285807364E-01
2.50500000000E+09 +6.05134307927E-01 +6.24035319595E-01 -4.85366573140E-04 -3.27012566595E-04 -5.10780158765E-04 -3.24364784190E-04 +5.77917716627E-01 +7.11924390971E-01
2.51000000000E+09 +6.11692204928E-01 +6.16053175371E-01 -5.28179359430E-04 -3.32748043847E-04 -5.44763221767E-04 -2.77357612657E-04 +5.83577709046E-01 +7.06764370893E-01
2.51500000000E+09 +6.18007970908E-01 +6.07891250229E-01 -6.40988474534E-04 -3.20043462316E-04 -6.50566782360E-04 -2.92407244681E-04 +5.88900251640E-01 +7.01231681926E-01
2.52000000000E+09 +6.23628954140E-01 +5.99789987809E-01 -7.27156749182E-04 -1.88595022377E-04 -6.18635630595E-04 -2.39129944409E-04 +5.94065494779E-01 +6.95395261530E-01
2.52500000000E+09 +6.28427538314E-01 +5.92233872512E-01 -7.26705673490E-04 -1.04269187699E-04 -7.51683435731E-04 -1.13054760138E-04 +5.99852900598E-01 +6.88832006960E-01
2.53000000000E+09 +6.32986216706E-01 +5.85296601430E-01 -7.20164723435E-04 -3.18290163744E-05 -7.06387477384E-04 +2.64888777594E-05 +6.05828270041E-01 +6.81912577514E-01
2.53500000000E+09 +6.36989648377E-01 +5.78844448426E-01 -7.12578682435E-04 +4.96501129086E-05 -7.03109457849E-04 +8.33308055591E-05 +6.11940946011E-01 +6.74996132758E-01
2.54000000000E+09 +6.41046659273E-01 +5.72749476193E-01 -7.05754579112E-04 +1.20475658716E-04 -6.84958028048E-04 +7.09599324107E-05 +6.18010747611E-01 +6.68267025456E-01
2.54500000000E+09 +6.45399880396E-01 +5.66845089958E-01 -7.20384488276E-04 +2.36352114372E-04 -7.05504082698E-04 +1.82601657050E-04 +6.23758875063E-01 +6.61762107267E-01
2.55000000000E+09 +6.50170723000E-01 +5.60728157358E-01 -6.03619302555E-04 +3.05969491850E-04 -7.09662077308E-04 +2.57629267200E-04 +6.29109969410E-01 +6.55545232466E-01
2.55500000000E+09 +6.55460343296E-01 +5.53706231773E-01 -5.59505197491E-04 +3.27968407222E-04 -7.17621447455E-04 +3.93771749292E-04 +6.34231616892E-01 +6.49091925638E-01
2.56000000000E+09 +6.61247980637E-01 +5.46850878787E-01 -5.37224362238E-04 +3.45863949193E-04 -5.72992001890E-04 +4.92133926040E-04 +6.39407995078E-01 +6.41974695621E-01
2.56500000000E+09 +6.67643930854E-01 +5.38811249124E-01 -5.13670207485E-04 +2.92068262201E-04 -5.46806413885E-04 +4.58601436521E-04 +6.44938717252E-01 +6.34434328958E-01
2.57000000000E+09 +6.73842774512E-01 +5.30225857839E-01 -6.64291190693E-04 +2.93189862740E-04 -6.23991454807E-04 +3.99567565399E-04 +6.50489604505E-01 +6.26284470969E-01
2.57500000000E+09 +6.79857844099E-01 +5.21112405549E-01 -7.61843235557E-04 +5.03261205331E-04 -5.89775133158E-04 +5.12208602214E-04 +6.55879773515E-01 +6.18523520927E-01
2.58000000000E+09 +6.84788489396E-01 +5.12214612183E-01 -5.95626967419E-04 +7.27849978610E-04 -4.38602419489E-04 +6.62237070381E-04 +6.61010522562E-01 +6.10934713451E-01
2.58500000000E+09 +6.89535399075E-01 +5.03506742820E-01 -4.21151630113E-04 +7.29968958702E-04 -4.23212015328E-04 +6.17409118597E-04 +6.65949335246E-01 +6.03408300127E-01
2.59000000000E+09 +6.93766199373E-01 +4.95080601392E-01 -3.06059999764E-04 +7.23743278808E-04 -3.17198281256E-04 +6.68781362197E-04 +6.70727305779E-01 +5.95904121294E-01
2.59500000000E+09 +6.97880942472E-01 +4.86765832242E-01 -2.78087696435E-04 +7.10928880259E-04 -3.34179290551E-04 +7.09122493399E-04 +6.75386444369E-01 +5.87846690288E-01
2.60000000000E+09 +7.01873574582E-01 +4.78182816435E-01 -3.02099076350E-04 +6.95904049363E-04 -3.25990190411E-04 +6.45377269122E-04 +6.80494217046E-01 +5.79411637492E-01
2.60500000000E+09 +7.06129500575E-01 +4.69102512932E-01 -4.19577151535E-04 +7.98508572065E-04 -4.29972216046E-04 +8.03998987515E-04 +6.85724021726E-01 +5.70431570149E-01
2.61000000000E+09 +7.10330776316E-01 +4.59034442504E-01 -2.03208783705E-04 +1.12073491657E-03 -2.65924505168E-04 +1.11399140189E-03 +6.90485802005E-01 +5.61703460636E-01
2.61500000000E+09 +7.14907668737E-01 +4.48071678829E-01 +1.31638515515E-04 +1.01972976539E-03 +1.21583398114E-04 +1.05268939114E-03 +6.95560588047E-01 +5.53042968216E-01
2.62000000000E+09 +7.19162558204E-01 +4.35835624233E-01 +2.12276075515E-04 +8.90496434108E-04 +2.89936325024E-04 +9.51483848799E-04 +7.00150591770E-01 +5.43865801682E-01
2.62500000000E+09 +7.23299325232E-01 +4.22852430075E-01 +1.54741985142E-04 +7.59391290269E-04 +2.81392018188E-04 +7.46873483637E-04 +7.04737695201E-01 +5.35179436362E-01
2.63000000000E+09 +7.26748681734E-01 +4.09519202197E-01 +1.61514878303E-04 +8.12847017692E-04 +2.54645670255E-04 +7.46653939137E-04 +7.09811851617E-01 +5.26262560181E-01
2.63500000000E+09 +7.29842658719E-01 +3.96245648880E-01 +2.13579234901E-04 +8.95148733302E-04 +2.30353068349E-04 +7.49762940352E-04 +7.14523911773E-01 +5.16820351235E-01
2.64000000000E+09 +7.32523894876E-01 +3.83439176679E-01 +3.70733813824E-04 +9.68546127731E-04 +3.30366241826E-04 +8.19797604899E-04 +7.19255897918E-01 +5.07045977652E-01
2.64500000000E+09 +7.35218809510E-01 +3.71275815231E-01 +6.58737557853E-04 +8.67366626414E-04 +4.55418741932E-04 +8.13968229628E-04 +7.23597331168E-01 +4.97351936060E-01
2.65000000000E+09 +7.37567592303E-01 +3.59487830469E-01 +5.88100872294E-04 +6.91974892718E-04 +4.83127075130E-04 +7.75818129561E-04 +7.27898581387E-01 +4.87442943088E-01
2.65500000000E+09 +7.39829907786E-01 +3.47557065099E-01 +5.53453341454E-04 +6.49529924936E-04 +5.50346697845E-04 +8.02579076936E-04 +7.32142158170E-01 +4.77296350749E-01
2.66000000000E+09 +7.41826330595E-01 +3.35862973185E-01 +6.42388972856E-04 +6.44479474860E-04 +6.70114468753E-04 +7.01754003799E-04 +7.36630120803E-01 +4.65949919384E-01
2.66500000000E+09 +7.43993133999E-01 +3.24238244865E-01 +6.34339668096E-04 +7.28072394977E-04 +6.73486674553E-04 +7.07148110876E-04 +7.40957504134E-01 +4.54438184433E-01
2.67000000000E+09 +7.46088457696E-01 +3.11441303401E-01 +8.50916246311E-04 +7.82805610876E-04 +8.57292353404E-04 +7.80621916670E-04 +7.45198286580E-01 +4.43323824021E-01
2.67500000000E+09 +7.47291255627E-01 +2.97964914788E-01 +1.13168174401E-03 +5.70470418060E-04 +1.03141270282E-03 +5.01648713909E-04 +7.48900572018E-01 +4.32136091361E-01
2.68000000000E+09 +7.47975886598E-01 +2.84283563857E-01 +1.00860048321E-03 +3.63806112844E-04 +9.19450448139E-04 +3.84312253621E-04 +7.52573280413E-01 +4.21079399527E-01
2.68500000000E+09 +7.47996065312E-01 +2.70319980642E-01 +9.84198598445E-04 +3.92688043898E-04 +1.03413668432E-03 +3.99852597069E-04 +7.55810247987E-01 +4.09335380905E-01
2.69000000000E+09 +7.47744937044E-01 +2.56762590718E-01 +1.08480702239E-03 +4.18984944596E-04 +1.07876769579E-03 +4.01946801344E-04 +7.58487504341E-01 +3.97205859503E-01
2.69500000000E+09 +7.47408414728E-01 +2.43539988105E-01 +1.20442543394E-03 +3.65896294256E-04 +1.20305888318E-03 +2.78732215978E-04 +7.60984092532E-01 +3.84214608369E-01
2.70000000000E+09 +7.47438390494E-01 +2.30515909216E-01 +1.39226750598E-03 +1.92379548426E-04 +1.32764608394E-03 +1.63428599136E-04 +7.63603167182E-01 +3.71111259735E-01
2.70500000000E+09 +7.47632769522E-01 +2.17594957566E-01 +1.41717886870E-03 -1.14035225138E-04 +1.43870851470E-03 -3.62661925075E-05 +7.66622242212E-01 +3.57704890756E-01
2.71000000000E+09 +7.48043630388E-01 +2.04673432684E-01 +1.38423818201E-03 -2.80626661030E-04 +1.42393460306E-03 -2.16546914883E-04 +7.69395275924E-01 +3.44284141503E-01
2.71500000000E+09 +7.49169134829E-01 +1.91265021522E-01 +1.34039441354E-03 -5.01610503419E-04 +1.45521629696E-03 -4.80076109281E-04 +7.71559848721E-01 +3.31565676916E-01
2.72000000000E+09 +7.50106923082E-01 +1.77005699763E-01 +1.24296472657E-03 -6.63268018748E-04 +1.29857042120E-03 -7.45442538775E-04 +7.73319152431E-01 +3.18902147417E-01
2.72500000000E+09 +7.50929996722E-01 +1.61647914352E-01 +1.09935802680E-03 -7.38795425477E-04 +1.06815635199E-03 -7.85391201533E-04 +7.74342313478E-01 +3.05745788500E-01
2.73000000000E+09 +7.50624167587E-01 +1.45022612928E-01 +1.07138867794E-03 -7.10604372292E-04 +9.20809581037E-04 -7.28137313770E-04 +7.75874767874E-01 +2.91753898541E-01
2.73500000000E+09 +7.48577810587E-01 +1.27678394817E-01 +1.02637040107E-03 -9.14013026612E-04 +9.50524963871E-04 -7.72952382285E-04 +7.77073231112E-01 +2.76463469486E-01
2.74000000000E+09 +7.45468975309E-01 +1.10944858870E-01 +1.11285062515E-03 -9.96991133223E-04 +1.05758500324E-03 -8.48586015000E-04 +7.78026719577E-01 +2.61080103631E-01
2.74500000000E+09 +7.41547102455E-01 +9.43176176324E-02 +1.01185338590E-03 -1.30474188740E-03 +1.09805196536E-03 -1.07246894158E-03 +7.78715777986E-01 +2.46009062330E-01
2.75000000000E+09 +7.37078149318E-01 +7.79904181378E-02 +6.20121278703E-04 -1.42291589610E-03 +7.66316108885E-04 -1.34987412141E-03 +7.79292233707E-01 +2.31351926578E-01
2.75500000000E+09 +7.32106099309E-01 +6.18989793905E-02 +5.49800570305E-04 -1.20035228884E-03 +6.45846635002E-04 -1.29206351723E-03 +7.79604827542E-01 +2.16402054870E-01
2.76000000000E+09 +7.27379936330E-01 +4.60396630095E-02 +5.60090309779E-04 -1.27000002933E-03 +6.53816885656E-04 -1.36325097302E-03 +7.79057140226E-01 +2.00606081645E-01
2.76500000000E+09 +7.22573984706E-01 +2.99757852437E-02 +4.40527617334E-04 -1.48750249905E-03 +4.29276548761E-04 -1.60020573459E-03 +7.77320038053E-01 +1.83401493623E-01
2.77000000000E+09 +7.18535868896E-01 +1.31022844502E-02 +3.33926991744E-04 -1.53693371905E-03 +3.16050800799E-04 -1.62098003919E-03 +7.75470540742E-01 +1.66401839264E-01
2.77500000000E+09 +7.14224968241E-01 -5.23947055199E-03 +4.45373381456E-05 -1.64778472280E-03 +8.16589187401E-06 -1.71748679373E-03 +7.73745549504E-01 +1.48480348286E-01
2.78000000000E+09 +7.09323771986E-01 -2.49817148607E-02 -1.38655601138E-04 -1.63392497002E-03 -2.34791997762E-04 -1.70363503472E-03 +7.71380780312E-01 +1.30472968713E-01
2.78500000000E+09 +7.02780833372E-01 -4.56504497983E-02 -3.26565262456E-04 -1.38454114484E-03 -4.09063399202E-04 -1.35401348055E-03 +7.68642752094E-01 +1.12989499124E-01
2.79000000000E+09 +6.95194811406E-01 -6.68860164350E-02 -1.74591783423E-04 -1.51703663435E-03 -2.56514589821E-04 -1.45065051975E-03 +7.65156388259E-01 +9.57510398295E-02
2.79500000000E+09 +6.85928169241E-01 -8.73992240883E-02 -6.46783916003E-04 -1.68769747023E-03 -6.12273160245E-04 -1.57246121942E-03 +7.60680276696E-01 +7.84783388548E-02
2.80000000000E+09 +6.75831486568E-01 -1.07273196380E-01 -7.62874556113E-04 -1.38632590307E-03 -6.37209579562E-04 -1.29562615551E-03 +7.56008704906E-01 +6.07226908902E-02
2.80500000000E+09 +6.64711239146E-01 -1.26506772304E-01 -7.88324515042E-04 -1.54536599150E-03 -7.34196843114E-04 -1.55762769163E-03 +7.50387035945E-01 +4.16061128039E-02
2.81000000000E+09 +6.52871385282E-01 -1.44769178512E-01 -1.20103974906E-03 -1.36847101414E-03 -1.15301818234E-03 -1.39873580348E-03 +7.43546640270E-01 +2.26386916636E-02
2.81500000000E+09 +6.39794632620E-01 -1.62138066298E-01 -1.15041067466E-03 -1.04397662511E-03 -1.22275978596E-03 -1.02361383138E-03 +7.36547287712E-01 +3.53128301838E-03
2.82000000000E+09 +6.26155598462E-01 -1.78829899011E-01 -1.16328849880E-03 -1.29282698769E-03 -1.18128447583E-03 -1.22936026175E-03 +7.29183662223E-01 -1.55201321205E-02
2.82500000000E+09 +6.11555173594E-01 -1.95133314044E-01 -1.73552037914E-03 -1.23846931122E-03 -1.72886150686E-03 -1.17877921083E-03 +7.20869536487E-01 -3.50412973605E-02
2.83000000000E+09 +5.95865326631E-01 -2.12810748465E-01 -1.91215344726E-03 -3.76843912624E-04 -1.84659651012E-03 -3.59534300522E-04 +7.11743296187E-01 -5.42655088539E-02
2.83500000000E+09 +5.77606828945E-01 -2.31041320932E-01 -1.40599776153E-03 -1.21934728646E-04 -1.35115363965E-03 -1.94625245452E-04 +7.02181842579E-01 -7.46820355679E-02
2.84000000000E+09 +5.56963081403E-01 -2.48687858060E-01 -1.21479964235E-03 -2.78103323380E-04 -1.23969919277E-03 -3.49907961195E-04 +6.90463768175E-01 -9.55341825550E-02
2.84500000000E+09 +5.34912699250E-01 -2.66159024296E-01 -1.23256682032E-03 -4.44229000429E-04 -1.23916113419E-03 -4.87892880656E-04 +6.77967638832E-01 -1.15591969491E-01
2.85000000000E+09 +5.11250685910E-01 -2.83387836914E-01 -1.57652505649E-03 -5.19231975334E-04 -1.61477035461E-03 -5.34846129966E-04 +6.64985618639E-01 -1.36262552730E-01
2.85500000000E+09 +4.86933016974E-01 -2.99991365182E-01 -1.72305422030E-03 +1.30390978360E-05 -1.66672520477E-03 +1.37041266320E-05 +6.50260023122E-01 -1.57188793633E-01
2.86000000000E+09 +4.61672861963E-01 -3.16402789209E-01 -1.28089276145E-03 +4.36009381151E-05 -1.27046009552E-03 -3.00505702202E-05 +6.33715560348E-01 -1.77697389962E-01
2.86500000000E+09 +4.35501945794E-01 -3.31556445683E-01 -1.51493157827E-03 -3.40430694838E-04 -1.50824002265E-03 -3.92876273237E-04 +6.16204424396E-01 -1.97759984682E-01
2.87000000000E+09 +4.09164143426E-01 -3.44527571325E-01 -1.85769697753E-03 +1.23663218449E-04 -1.91830375191E-03 +5.67315294233E-05 +5.97778640691E-01 -2.16644808746E-01
2.87500000000E+09 +3.84345310016E-01 -3.56242698799E-01 -1.79678019430E-03 +2.10660586461E-04 -1.77130715278E-03 +2.69329854121E-04 +5.79010127165E-01 -2.36600744371E-01
2.88000000000E+09 +3.58775595636E-01 -3.68272511185E-01 -1.95301780830E-03 +3.23340627906E-04 -1.89467899693E-03 +3.94475174570E-04 +5.57967060088E-01 -2.56563891621E-01
2.88500000000E+09 +3.32114365120E-01 -3.78682359571E-01 -1.82127817339E-03 +8.23300234557E-04 -1.69605595022E-03 +8.13322388158E-04 +5.34645317831E-01 -2.74943748003E-01
2.89000000000E+09 +3.04105328942E-01 -3.87979049053E-01 -1.63164182949E-03 +4.49432439711E-04 -1.52840866669E-03 +4.27492207505E-04 +5.10408971509E-01 -2.93041240853E-01
2.89500000000E+09 +2.73666125261E-01 -3.95640812442E-01 -2.13769441574E-03 +6.54199128291E-04 -2.12681268044E-03 +5.37396363339E-04 +4.83085657103E-01 -3.11055715373E-01
2.90000000000E+09 +2.41670609230E-01 -3.99916474488E-01 -2.38498894995E-03 +1.27331479518E-03 -2.44491006830E-03 +1.19969939937E-03 +4.54902731030E-01 -3.26698471138E-01
2.90500000000E+09 +2.08610144255E-01 -4.01607080258E-01 -2.04454517529E-03 +1.89782920944E-03 -2.04472482960E-03 +1.92621438811E-03 +4.25778341465E-01 -3.43044680599E-01
2.91000000000E+09 +1.74887899256E-01 -4.01561332958E-01 -1.30728988002E-03 +2.05418849260E-03 -1.22928888627E-03 +2.10014200435E-03 +3.94419830011E-01 -3.57487148049E-01
2.91500000000E+09 +1.40303244421E-01 -3.99210175479E-01 -1.54912653107E-03 +1.53731175606E-03 -1.45825506102E-03 +1.53578620003E-03 +3.62040423961E-01 -3.69144044734E-01
2.92000000000E+09 +1.05248305776E-01 -3.94433950406E-01 -1.90794409551E-03 +2.47998387176E-03 -1.80848997397E-03 +2.32444402465E-03 +3.29785875452E-01 -3.79455863135E-01
2.92500000000E+09 +7.00491403306E-02 -3.88264192762E-01 -1.04784563272E-03 +2.84762951824E-03 -1.15473502499E-03 +2.57390247794E-03 +2.94063415780E-01 -3.88601734668E-01
2.93000000000E+09 +3.48717306836E-02 -3.79521171289E-01 -7.84962621077E-04 +2.79855126505E-03 -8.95222997567E-04 +2.71585327716E-03 +2.56803089586E-01 -3.95423869631E-01
2.93500000000E+09 -2.19077910721E-04 -3.69003150623E-01 -3.71283164401E-04 +2.97090849729E-03 -5.43582091049E-04 +2.98890303619E-03 +2.17566707217E-01 -4.00218338148E-01
2.94000000000E+09 -3.46755530427E-02 -3.55479555662E-01 -3.82139081420E-04 +2.72417870670E-03 -4.96320704457E-04 +2.68807677634E-03 +1.78100345495E-01 -4.01461641904E-01
2.94500000000E+09 -6.78656807418E-02 -3.39751755603E-01 -4.55060474781E-04 +3.54080597006E-03 -5.53615093575E-04 +3.60611858663E-03 +1.40301030885E-01 -4.01998268571E-01
2.95000000000E+09 -9.99118667582E-02 -3.21554471096E-01 +8.30220683028E-04 +3.80955167078E-03 +6.75348569510E-04 +3.87146300913E-03 +9.99215526181E-02 -4.01392074260E-01
2.95500000000E+09 -1.30618681331E-01 -3.00694944821E-01 +1.51950541159E-03 +3.29308806281E-03 +1.40577889581E-03 +3.44183093229E-03 +5.81082419963E-02 -3.95259895348E-01
2.96000000000E+09 -1.60373423613E-01 -2.77636588813E-01 +1.61900945249E-03 +2.89835419298E-03 +1.56050268133E-03 +3.04300562385E-03 +1.76278136897E-02 -3.85313993898E-01
2.96500000000E+09 -1.89103195871E-01 -2.51276310889E-01 +1.87351337488E-03 +2.73809989291E-03 +1.97529139341E-03 +2.84385743925E-03 -2.24318652459E-02 -3.72595520674E-01
2.97000000000E+09 -2.15174242975E-01 -2.21043905900E-01 +1.87209232500E-03 +2.72404924393E-03 +1.90630084786E-03 +2.67131874293E-03 -6.18694998071E-02 -3.58681446551E-01
2.97500000000E+09 -2.37478576047E-01 -1.89623261466E-01 +2.30563774047E-03 +3.28217571270E-03 +2.29607929397E-03 +3.13565612613E-03 -1.02618696657E-01 -3.42596839711E-01
2.98000000000E+09 -2.58119602930E-01 -1.58135725824E-01 +3.48579766333E-03 +3.03226908919E-03 +3.34018186513E-03 +2.98261735924E-03 -1.42123570677E-01 -3.22059697012E-01
2.98500000000E+09 -2.77943330386E-01 -1.25961071463E-01 +4.25440175366E-03 +2.01449173755E-03 +4.23166851287E-03 +2.23382848081E-03 -1.79599850865E-01 -2.97574275683E-01
2.99000000000E+09 -2.96190341551E-01 -9.22266731114E-02 +4.14083583750E-03 +8.80603668046E-04 +4.36706144771E-03 +1.01979518454E-03 -2.13283991634E-01 -2.71357116890E-01
2.99500000000E+09 -3.11547704971E-01 -5.76624675941E-02 +3.72503391487E-03 +7.96961922063E-04 +3.93757606252E-03 +6.30227346796E-04 -2.46820753828E-01 -2.43178229088E-01
3.00000000000E+09 -3.24725292370E-01 -2.30598642285E-02 +4.28190204273E-03 +8.51680043193E-04 +4.27347507736E-03 +6.48398841230E-04 -2.79079640188E-01 -2.11376221833E-01
3.00500000000E+09 -3.34632214427E-01 +1.04862480994E-02 +5.01594302259E-03 +6.40273312049E-05 +4.79099151438E-03 -1.27600365208E-04 -3.08294561857E-01 -1.76978417202E-01
3.01000000000E+09 -3.42461011367E-01 +4.31390991808E-02 +5.00419706812E-03 -1.49622926492E-03 +4.81754078102E-03 -1.34489023954E-03 -3.35291368427E-01 -1.41251767477E-01
3.01500000000E+09 -3.48393420026E-01 +7.55640278771E-02 +4.14973612853E-03 -2.48241996227E-03 +4.20545227782E-03 -2.23150100214E-03 -3.57728935953E-01 -1.03740542518E-01
3.02000000000E+09 -3.51071075541E-01 +1.08027971593E-01 +3.07909522173E-03 -2.79087943437E-03 +3.18043924899E-03 -2.66830653892E-03 -3.77711657411E-01 -6.71872640790E-02
3.02500000000E+09 -3.50199088993E-01 +1.39841240015E-01 +3.03993357913E-03 -2.23939133270E-03 +3.07345075903E-03 -2.25009277529E-03 -3.96145507464E-01 -2.79434692965E-02
3.03000000000E+09 -3.46343124795E-01 +1.70892263488E-01 +3.09586502479E-03 -3.00488015391E-03 +3.13753657388E-03 -2.96157513784E-03 -4.10127631149E-01 +1.37994918920E-02
3.03500000000E+09 -3.39499775826E-01 +2.00273843072E-01 +2.63594102936E-03 -3.89865254127E-03 +2.71927495948E-03 -3.88369091392E-03 -4.19824036477E-01 +5.44901312421E-02
3.04000000000E+09 -3.31786367826E-01 +2.29300876892E-01 +1.04160958874E-03 -4.23729811348E-03 +1.19990249393E-03 -4.34996826040E-03 -4.27627376078E-01 +9.47279822131E-02
3.04500000000E+09 -3.22040142527E-01 +2.57886637375E-01 +4.22340187336E-04 -3.18700598855E-03 +4.58302225757E-04 -3.37164021981E-03 -4.33227819434E-01 +1.34776214097E-01
3.05000000000E+09 -3.10627268029E-01 +2.86875208757E-01 +8.18022288884E-04 -2.77685666673E-03 +7.07283008757E-04 -2.93978164936E-03 -4.36720697936E-01 +1.75008077893E-01
3.05500000000E+09 -2.97146498935E-01 +3.14999430561E-01 +1.29173315283E-03 -3.30401037191E-03 +1.11791893835E-03 -3.42328558748E-03 -4.35637772912E-01 +2.15353996698E-01
3.06000000000E+09 -2.82259146222E-01 +3.40866298029E-01 +4.88330217912E-04 -4.54379811492E-03 +2.85039127828E-04 -4.41936669438E-03 -4.31891121786E-01 +2.52422450839E-01
3.06500000000E+09 -2.67583215252E-01 +3.65578697490E-01 -1.24635319543E-03 -4.12997892367E-03 -1.10758493171E-03 -3.91816059444E-03 -4.27455251045E-01 +2.88390565703E-01
3.07000000000E+09 -2.52585709235E-01 +3.88900142836E-01 -1.63969484630E-03 -2.94383396828E-03 -1.41771630166E-03 -2.99275127865E-03 -4.21866935610E-01 +3.23437850288E-01
