# Hz S RI R 50
! CMT, C1220, 16058040, 17.2.0/1
! Date: 15/08/2018 10:36:15
! Data: Format (Calibration Info)
! Freq                      S11: Re/Im (F2)                       S21: Re/Im (F2)                       S12: Re/Im (F2)                       S22: Re/Im (F2)            
2.50000000000E+09 +5.79317321664E-01 +6.67991491611E-01 -2.73967645385E-04 +9.34261406823E-05 -2.73477554196E-04 +1.30735616176E-04 +5.64388365829E-01 +7.22958596713E-01
2.50500000000E+09 +5.86697285360E-01 +6.59827008951E-01 -1.94612191946E-04 +2.00896960377E-04 -2.32106837282E-04 +1.65284546410E-04 +5.70080517695E-01 +7.17568937161E-01
2.51000000000E+09 +5.94416345931E-01 +6.51687443402E-01 -1.19772340313E-04 +1.41208769025E-04 -1.76318071711E-04 +1.56203644413E-04 +5.75692545428E-01 +7.12404066665E-01
2.51500000000E+09 +6.01910674874E-01 +6.43706798859E-01 -1.62055384594E-04 +1.44015387065E-04 -1.42970540198E-04 +8.80764443430E-05 +5.81038803979E-01 +7.07081183559E-01
2.52000000000E+09 +6.08949354973E-01 +6.35738584557E-01 -1.51054400365E-04 +2.35772914826E-04 -1.77589374234E-04 +1.89964981053E-04 +5.86254162937E-01 +7.01114477990E-01
2.52500000000E+09 +6.15063526744E-01 +6.28419397874E-01 -1.87162354690E-05 +1.65039923655E-04 -5.58407587297E-05 +1.88341174190E-04 +5.91888878150E-01 +6.94815538482E-01
2.53000000000E+09 +6.20527383677E-01 +6.21310793323E-01 -5.49497002489E-05 +1.37270644817E-04 -3.68070608937E-05 +1.17298724314E-04 +5.98053774401E-01 +6.88053512833E-01
2.53500000000E+09 +6.25321153226E-01 +6.14390681961E-01 -7.37497666540E-05 +8.63062651640E-05 -7.91365766403E-05 +5.79261134908E-05 +6.04042483568E-01 +6.81414478138E-01
2.54000000000E+09 +6.29767354534E-01 +6.07460083919E-01 -1.53172814012E-04 +9.94494733059E-05 -1.58247556545E-04 +1.15558330454E-04 +6.10081467329E-01 +6.75021520304E-01
2.54500000000E+09 +6.34489562914E-01 +6.00534933940E-01 -1.64719976980E-04 +1.97920276534E-04 -1.61290029649E-04 +1.68736098640E-04 +6.15988221548E-01 +6.68792000436E-01
2.55000000000E+09 +6.39499047963E-01 +5.92914356793E-01 -9.38967208275E-05 +2.42358355457E-04 -1.41530218307E-04 +2.93398052484E-04 +6.21480561178E-01 +6.62588564364E-01
2.55500000000E+09 +6.45051572181E-01 +5.84776170766E-01 -5.21980062486E-06 +2.57039794371E-04 -4.82927771976E-05 +2.57317876942E-04 +6.26711903818E-01 +6.56025998053E-01
2.56000000000E+09 +6.51393484075E-01 +5.76818610015E-01 +1.57101193578E-05 +2.11467907416E-04 +3.13740879532E-05 +2.73051346314E-04 +6.31852441684E-01 +6.48828919816E-01
2.56500000000E+09 +6.58461465039E-01 +5.68194465307E-01 +3.09522621605E-05 +2.29442374339E-04 +1.06907829093E-04 +2.15190792349E-04 +6.37187863062E-01 +6.41391822949E-01
2.57000000000E+09 +6.65506380247E-01 +5.59275476194E-01 -6.22210657393E-06 +1.63612005106E-04 +5.30309289028E-05 +1.51874707395E-04 +6.42557080059E-01 +6.33617274495E-01
2.57500000000E+09 +6.72367764940E-01 +5.50347690525E-01 -1.04431627930E-05 +3.00794015567E-04 +4.69840704917E-05 +2.44248847182E-04 +6.48152699529E-01 +6.25963154974E-01
2.58000000000E+09 +6.78251460834E-01 +5.42121997264E-01 +6.74804757353E-05 +3.03212282726E-04 +6.24142080029E-05 +2.47459749673E-04 +6.53364523884E-01 +6.18244764927E-01
2.58500000000E+09 +6.83796602032E-01 +5.33984398031E-01 +5.33410669420E-05 +3.25638158597E-04 +7.25169506750E-05 +2.73248165811E-04 +6.58122755634E-01 +6.10587357064E-01
2.59000000000E+09 +6.88808527217E-01 +5.26300305965E-01 +1.82175054655E-04 +3.49289407144E-04 +1.73923200007E-04 +3.49253440987E-04 +6.63025660340E-01 +6.02975139473E-01
2.59500000000E+09 +6.93565441403E-01 +5.18207033404E-01 +2.90802068162E-04 +3.42647193681E-04 +2.78766404259E-04 +3.81602909756E-04 +6.67899722673E-01 +5.95020541770E-01
2.60000000000E+09 +6.97700884413E-01 +5.09540252362E-01 +3.24357807577E-04 +2.58492162611E-04 +3.34459183375E-04 +2.31440244100E-04 +6.72968505722E-01 +5.86692781977E-01
2.60500000000E+09 +7.01700686190E-01 +4.99919642444E-01 +4.33298530195E-04 +2.55967067340E-04 +4.18451283191E-04 +2.31746967705E-04 +6.78198478595E-01 +5.78162882677E-01
2.61000000000E+09 +7.06110060533E-01 +4.89283232061E-01 +4.58680402759E-04 +1.31768450053E-04 +4.71664362249E-04 +1.29759484658E-04 +6.83443203481E-01 +5.69480234981E-01
2.61500000000E+09 +7.11006463974E-01 +4.77509540202E-01 +4.83971986723E-04 -2.91612818887E-05 +4.93351912272E-04 -3.66170020965E-05 +6.88489079285E-01 +5.61016084528E-01
2.62000000000E+09 +7.15767762809E-01 +4.64344569983E-01 +3.96038338904E-04 -1.42243603614E-04 +4.03682249747E-04 -1.28560760873E-04 +6.93423558351E-01 +5.51927482742E-01
2.62500000000E+09 +7.20496077886E-01 +4.50596084152E-01 +2.72302560886E-04 -1.06518929623E-04 +2.91820374010E-04 -1.26844923090E-04 +6.98051479955E-01 +5.42951975916E-01
2.63000000000E+09 +7.25124544556E-01 +4.36811366736E-01 +3.45484227784E-04 +8.18000890745E-06 +2.81420644392E-04 -5.39809659422E-05 +7.02617611178E-01 +5.34055770864E-01
2.63500000000E+09 +7.29132663580E-01 +4.23105375665E-01 +3.51027909756E-04 -1.49759948876E-04 +3.35832680282E-04 -1.62100576678E-04 +7.07417471609E-01 +5.24875321632E-01
2.64000000000E+09 +7.32814464448E-01 +4.10346969589E-01 +3.88948277408E-04 -8.78868419776E-05 +3.88050515389E-04 -5.40387693020E-05 +7.12152788750E-01 +5.15361927357E-01
2.64500000000E+09 +7.36364294433E-01 +3.98375480747E-01 +4.78237448981E-04 -2.75534520065E-04 +4.70948875410E-04 -2.26154943402E-04 +7.16887045492E-01 +5.05635310391E-01
2.65000000000E+09 +7.39204429937E-01 +3.87323613677E-01 +3.39131092179E-04 -3.89334833903E-04 +3.68028081153E-04 -3.56100878755E-04 +7.21104241611E-01 +4.95308553600E-01
2.65500000000E+09 +7.42451643877E-01 +3.76166530019E-01 +2.54645103358E-04 -4.15283530449E-04 +3.31841814200E-04 -4.23676922816E-04 +7.25179629554E-01 +4.84764376064E-01
2.66000000000E+09 +7.45443787214E-01 +3.64946717508E-01 +1.71849774282E-04 -4.12103551704E-04 +2.12643349309E-04 -4.11070887184E-04 +7.28963548910E-01 +4.73539832862E-01
2.66500000000E+09 +7.48356141182E-01 +3.53328361804E-01 +9.45234015001E-05 -4.31200199556E-04 +1.19301445216E-04 -4.36662970000E-04 +7.33129573069E-01 +4.62462176762E-01
2.67000000000E+09 +7.51141764011E-01 +3.40671893343E-01 +1.41584600642E-04 -4.56468264606E-04 +1.38302910919E-04 -3.97181305672E-04 +7.37584865356E-01 +4.51559277689E-01
2.67500000000E+09 +7.53916828881E-01 +3.26868916731E-01 +8.79146477778E-05 -4.48418615847E-04 +1.03414454209E-04 -4.45190164917E-04 +7.41452875779E-01 +4.40361179586E-01
2.68000000000E+09 +7.56004017281E-01 +3.12067308660E-01 +2.57147507183E-05 -5.83997533693E-04 +7.52657871325E-05 -5.46611269382E-04 +7.45361342612E-01 +4.29400858829E-01
2.68500000000E+09 +7.57633188743E-01 +2.97306134797E-01 -1.04127920839E-04 -5.89899855366E-04 -9.52446596516E-05 -6.12727073465E-04 +7.48545418430E-01 +4.17719411368E-01
2.69000000000E+09 +7.58900968092E-01 +2.82639845913E-01 -2.34963788018E-04 -5.94586527982E-04 -2.80194160140E-04 -5.57724519811E-04 +7.50866613536E-01 +4.05731950518E-01
2.69500000000E+09 +7.60226925280E-01 +2.68385199742E-01 -3.31160390196E-04 -5.15155971696E-04 -3.30685418603E-04 -5.00860787795E-04 +7.53467327651E-01 +3.93269076753E-01
2.70000000000E+09 +7.61488078514E-01 +2.54443346358E-01 -3.91979390422E-04 -5.57794004867E-04 -3.68955280996E-04 -5.36306956007E-04 +7.56186594305E-01 +3.80190703099E-01
2.70500000000E+09 +7.62844555008E-01 +2.40912029306E-01 -5.63571978128E-04 -4.03031854309E-04 -5.98432638681E-04 -4.11226441769E-04 +7.59014738448E-01 +3.67086451362E-01
2.71000000000E+09 +7.64034836622E-01 +2.27344929790E-01 -6.14558805736E-04 -1.26889670822E-04 -6.58967186360E-04 -1.56088505707E-04 +7.61567711694E-01 +3.54184423539E-01
2.71500000000E+09 +7.65405498372E-01 +2.13547469574E-01 -4.33602947677E-04 -9.97399359423E-05 -5.13356741794E-04 -1.37297080378E-04 +7.64038901178E-01 +3.41628780703E-01
2.72000000000E+09 +7.66623727847E-01 +1.98832686524E-01 -5.30040086802E-04 -2.02502569309E-04 -6.18934216413E-04 -1.67098596082E-04 +7.65710216538E-01 +3.28884266996E-01
2.72500000000E+09 +7.67220119713E-01 +1.83110509219E-01 -7.17240621063E-04 -9.38529551485E-05 -7.35329094815E-04 +1.13001328582E-05 +7.66640649970E-01 +3.15825272659E-01
2.73000000000E+09 +7.66927173931E-01 +1.66158375765E-01 -8.03782206109E-04 +1.45653794885E-04 -7.58349754720E-04 +1.71682557784E-04 +7.67509093761E-01 +3.02096872085E-01
2.73500000000E+09 +7.65259086014E-01 +1.48242138447E-01 -8.18393979106E-04 +4.12396456400E-04 -6.96959591575E-04 +3.88160465478E-04 +7.68463235227E-01 +2.87894743637E-01
2.74000000000E+09 +7.62750338435E-01 +1.30457887928E-01 -4.90193153528E-04 +6.67199154569E-04 -4.81247118180E-04 +5.32946260733E-04 +7.70294823443E-01 +2.73293314454E-01
2.74500000000E+09 +7.59534647167E-01 +1.12298224304E-01 -2.76621905816E-04 +6.40205087789E-04 -3.68170795244E-04 +5.47560838571E-04 +7.71376988603E-01 +2.58118947613E-01
2.75000000000E+09 +7.55612303909E-01 +9.40826575992E-02 -2.97883772580E-05 +5.73760076512E-04 -1.23527683610E-04 +5.71514978890E-04 +7.72180598566E-01 +2.43281637120E-01
2.75500000000E+09 +7.50705743880E-01 +7.59706218962E-02 -5.02953396209E-05 +4.03608316584E-04 -5.10602831749E-05 +3.91971285448E-04 +7.72061994767E-01 +2.28744762742E-01
2.76000000000E+09 +7.46119634193E-01 +5.85682303548E-02 -2.30555611325E-04 +4.80552476628E-04 -2.20823038451E-04 +4.76563194938E-04 +7.72070355506E-01 +2.13715438524E-01
2.76500000000E+09 +7.41233695509E-01 +4.03744887638E-02 -3.93453314135E-05 +6.95069915315E-04 -4.60276251389E-05 +7.01013948129E-04 +7.71232577586E-01 +1.97109146844E-01
2.77000000000E+09 +7.36012253641E-01 +2.16836018465E-02 +1.61270473196E-04 +5.64913850605E-04 +1.40749562137E-04 +5.43132154874E-04 +7.70129951091E-01 +1.80352678223E-01
2.77500000000E+09 +7.30977668042E-01 +2.77980733912E-03 +1.34677959784E-04 +5.82160671904E-04 +1.25571317625E-04 +5.67067784281E-04 +7.68683379745E-01 +1.62534666824E-01
2.78000000000E+09 +7.25829895542E-01 -1.78246997205E-02 +3.99498334663E-04 +6.07137928706E-04 +5.16103713168E-04 +6.43737146525E-04 +7.66937321754E-01 +1.44990131081E-01
2.78500000000E+09 +7.19438633229E-01 -3.91959165103E-02 +6.25563975550E-04 +4.77736884492E-04 +6.94587424409E-04 +3.83149660070E-04 +7.64420306376E-01 +1.27292110313E-01
2.79000000000E+09 +7.12819882659E-01 -6.12066220163E-02 +6.73972873491E-04 +1.47103819298E-04 +7.00245106168E-04 +1.03384332818E-04 +7.61329542417E-01 +1.10406374892E-01
2.79500000000E+09 +7.04636447725E-01 -8.34744687798E-02 +6.28688746340E-04 -6.31226225363E-06 +5.81820938611E-04 -2.14337725216E-05 +7.57426782362E-01 +9.27033521713E-02
2.80000000000E+09 +6.94980523997E-01 -1.04892025813E-01 +4.25768839785E-04 -1.26879775913E-04 +4.18952422077E-04 -1.15589358574E-04 +7.52610065013E-01 +7.46452844010E-02
2.80500000000E+09 +6.85119075173E-01 -1.24706894285E-01 +4.65637261588E-04 +2.29001899467E-05 +4.14736296807E-04 +5.90132714331E-05 +7.47056911251E-01 +5.58962955216E-02
2.81000000000E+09 +6.74755588463E-01 -1.43281406369E-01 +6.58149217965E-04 -1.63561718619E-05 +6.59060267410E-04 +4.93165578442E-06 +7.40900082325E-01 +3.70229971955E-02
2.81500000000E+09 +6.64008997105E-01 -1.61023838812E-01 +7.28427270830E-04 -3.09683660976E-04 +7.54800622524E-04 -3.59872714184E-04 +7.34494701919E-01 +1.80037126233E-02
2.82000000000E+09 +6.52473175107E-01 -1.78402761505E-01 +5.65767096738E-04 -5.28863291492E-04 +5.77361530581E-04 -4.95641964901E-04 +7.27476184697E-01 -1.50553034752E-03
2.82500000000E+09 +6.39645308944E-01 -1.95643990409E-01 +6.04315286447E-04 -6.62585269134E-04 +5.28899599664E-04 -6.66410305764E-04 +7.19659925049E-01 -2.09670331061E-02
2.83000000000E+09 +6.25113286124E-01 -2.13512778326E-01 +3.85628005704E-04 -1.06966393411E-03 +3.78121779769E-04 -9.49824131308E-04 +7.11166698890E-01 -4.10051178842E-02
2.83500000000E+09 +6.08816184900E-01 -2.31617377634E-01 -8.32312322529E-05 -1.02169640664E-03 -7.17009422622E-05 -1.00141218323E-03 +7.01187548891E-01 -6.10360863282E-02
2.84000000000E+09 +5.90638801624E-01 -2.50403061019E-01 -2.86381989233E-04 -9.13167617564E-04 -2.44029903095E-04 -8.46591851793E-04 +6.90617641557E-01 -8.15160435588E-02
2.84500000000E+09 +5.69933642811E-01 -2.70193652257E-01 -4.04707667094E-04 -7.17116355671E-04 -3.79671899436E-04 -7.46113577253E-04 +6.78930036145E-01 -1.01847591155E-01
2.85000000000E+09 +5.47817596447E-01 -2.89380297596E-01 -5.23132854878E-04 -6.67718204220E-04 -4.96566494455E-04 -6.49460134301E-04 +6.65774729630E-01 -1.22695617893E-01
2.85500000000E+09 +5.23880510964E-01 -3.08739950124E-01 -7.59053453085E-04 -5.48024978219E-04 -7.11712359181E-04 -5.33070736003E-04 +6.51346656659E-01 -1.42981130504E-01
2.86000000000E+09 +4.99667532077E-01 -3.26780632198E-01 -5.14683155966E-04 -3.89609555524E-04 -4.88951928069E-04 -3.39728585377E-04 +6.36538942330E-01 -1.63692639155E-01
2.86500000000E+09 +4.74952248326E-01 -3.44158204990E-01 -6.44455943994E-04 -5.87827253387E-04 -6.04314445264E-04 -6.02343682060E-04 +6.19526580762E-01 -1.84817073919E-01
2.87000000000E+09 +4.49886103761E-01 -3.60242917921E-01 -8.28305769279E-04 -7.13604684496E-04 -8.71011621524E-04 -6.97899934124E-04 +6.00815310554E-01 -2.05494175998E-01
2.87500000000E+09 +4.24820578109E-01 -3.75089445859E-01 -1.54661196745E-03 -7.56236649013E-04 -1.51754475290E-03 -7.21016673838E-04 +5.80910189558E-01 -2.24998375405E-01
2.88000000000E+09 +3.98882007740E-01 -3.88363656548E-01 -2.07020588995E-03 +1.10535946770E-04 -1.96599438865E-03 +1.56121250962E-04 +5.60022521224E-01 -2.44904863886E-01
2.88500000000E+09 +3.72454074232E-01 -4.00509508330E-01 -1.72965291793E-03 +1.10777266622E-03 -1.61547351504E-03 +9.87407640157E-04 +5.37108950997E-01 -2.63604002718E-01
2.89000000000E+09 +3.44569707874E-01 -4.11769693425E-01 -9.47632398886E-04 +1.38012102044E-03 -9.37723152539E-04 +1.25802670710E-03 +5.12197534155E-01 -2.81991699023E-01
2.89500000000E+09 +3.14223159648E-01 -4.21595057518E-01 -4.97145658959E-04 +1.13836741949E-03 -5.52652459385E-04 +1.03644731523E-03 +4.85906423335E-01 -2.99453294489E-01
2.90000000000E+09 +2.81947299991E-01 -4.29638131727E-01 -7.40078295334E-04 +9.93427596596E-04 -8.16927853271E-04 +9.64502676310E-04 +4.57928587343E-01 -3.16488965554E-01
2.90500000000E+09 +2.47391379258E-01 -4.36114095856E-01 -6.53635303827E-04 +1.25995844114E-03 -7.08986439728E-04 +1.28570197283E-03 +4.28320913611E-01 -3.32620951987E-01
2.91000000000E+09 +2.11958662036E-01 -4.40187775353E-01 -4.99579200474E-04 +1.38859280837E-03 -4.85824788585E-04 +1.41719184896E-03 +3.97576258007E-01 -3.46649232523E-01
2.91500000000E+09 +1.75333691385E-01 -4.43047041211E-01 -1.51897878229E-04 +1.47634062133E-03 -1.86205087738E-04 +1.41929603473E-03 +3.66465422265E-01 -3.59178305145E-01
2.92000000000E+09 +1.38007836443E-01 -4.43094799243E-01 -1.92070332432E-04 +1.61178938929E-03 -1.84522788206E-04 +1.53353454256E-03 +3.33124627071E-01 -3.70726360974E-01
2.92500000000E+09 +1.01569635931E-01 -4.41567796177E-01 +3.68884686643E-05 +2.00969083456E-03 -3.33261903536E-06 +1.92115738631E-03 +2.97352055685E-01 -3.79382758650E-01
2.93000000000E+09 +6.54865030497E-02 -4.38057026826E-01 +9.47780797743E-04 +1.96485915417E-03 +8.74740021033E-04 +2.00815265266E-03 +2.59948699383E-01 -3.86209399330E-01
2.93500000000E+09 +3.01296410377E-02 -4.32910936164E-01 +1.17008724705E-03 +1.63071957453E-03 +1.12243047986E-03 +1.68660738734E-03 +2.21465537736E-01 -3.90028591231E-01
2.94000000000E+09 -5.08820530786E-03 -4.25895075099E-01 +1.66473459347E-03 +1.38877688943E-03 +1.64897511414E-03 +1.46461505501E-03 +1.82861635224E-01 -3.92711790000E-01
2.94500000000E+09 -4.10507099535E-02 -4.16545506138E-01 +1.72346365018E-03 +9.64762040255E-04 +1.72366853801E-03 +1.00066613022E-03 +1.43545042669E-01 -3.93819818795E-01
2.95000000000E+09 -7.66132790859E-02 -4.03356974714E-01 +1.71025813098E-03 +6.31768614925E-04 +1.67712236864E-03 +7.04616164820E-04 +1.02853556691E-01 -3.92292685312E-01
2.95500000000E+09 -1.11386524362E-01 -3.86415715424E-01 +1.79773997873E-03 +5.51452444967E-04 +1.86122529134E-03 +6.16611316674E-04 +6.16264255377E-02 -3.86524333343E-01
2.96000000000E+09 -1.44519702113E-01 -3.66772961861E-01 +1.76807763600E-03 +3.00579909692E-04 +1.82850372253E-03 +2.88202654333E-04 +2.13873156332E-02 -3.77087548220E-01
2.96500000000E+09 -1.77043342099E-01 -3.44678279944E-01 +1.92847513586E-03 +3.57046478069E-04 +2.02191267509E-03 +2.80191540499E-04 -1.96614501577E-02 -3.65495203529E-01
2.97000000000E+09 -2.08170691052E-01 -3.19266664345E-01 +2.63349491280E-03 -1.10972547798E-04 +2.59743639049E-03 -2.49893386944E-04 -5.93130776516E-02 -3.50080949021E-01
2.97500000000E+09 -2.36739011697E-01 -2.92242896380E-01 +2.66592825271E-03 -1.09578701222E-03 +2.52653020702E-03 -1.11732300251E-03 -9.91582324855E-02 -3.33755416639E-01
2.98000000000E+09 -2.64785254864E-01 -2.64156875759E-01 +1.96710887199E-03 -1.69400551453E-03 +1.92305399173E-03 -1.63583664671E-03 -1.37947721483E-01 -3.12920318285E-01
2.98500000000E+09 -2.90808714079E-01 -2.33421202611E-01 +1.27977402549E-03 -1.69883664743E-03 +1.36406611414E-03 -1.61399144993E-03 -1.74166551564E-01 -2.89787907658E-01
2.99000000000E+09 -3.14679669178E-01 -2.02197497712E-01 +1.29461080626E-03 -1.60745878204E-03 +1.38986186961E-03 -1.63969299957E-03 -2.09099424229E-01 -2.64088505194E-01
2.99500000000E+09 -3.37292863641E-01 -1.70756574379E-01 +1.49562055953E-03 -1.91885091556E-03 +1.52469815882E-03 -1.97451105585E-03 -2.42462052839E-01 -2.35394769487E-01
3.00000000000E+09 -3.58799237784E-01 -1.36615225846E-01 +1.08136381876E-03 -2.52238202013E-03 +8.94430380264E-04 -2.52587935512E-03 -2.74147468228E-01 -2.03154199171E-01
3.00500000000E+09 -3.76506990932E-01 -1.02232509148E-01 +3.56341360132E-04 -2.79227510329E-03 +2.34920727161E-04 -2.65892620164E-03 -3.02593171384E-01 -1.69148255533E-01
3.01000000000E+09 -3.92309632605E-01 -6.76441257212E-02 -3.48769023488E-04 -2.63199802071E-03 -2.52753489904E-04 -2.44737221814E-03 -3.28830784537E-01 -1.33210438209E-01
3.01500000000E+09 -4.05008697055E-01 -3.27474684370E-02 -4.62872261457E-04 -2.36682524150E-03 -3.01749955684E-04 -2.32836753972E-03 -3.51427965662E-01 -9.70349210767E-02
3.02000000000E+09 -4.15277835145E-01 +1.99933687978E-03 -1.07385436958E-03 -2.52994740320E-03 -9.72973178452E-04 -2.54187986329E-03 -3.72168383450E-01 -6.00793394846E-02
3.02500000000E+09 -4.22589387221E-01 +3.65288680596E-02 -1.37858232609E-03 -2.20425780623E-03 -1.36551671581E-03 -2.26927035169E-03 -3.89446467177E-01 -2.05931265961E-02
3.03000000000E+09 -4.27604848274E-01 +7.15191910281E-02 -1.98781338025E-03 -1.90605375745E-03 -1.93145102459E-03 -2.00421186046E-03 -4.02779943821E-01 +1.88269369521E-02
3.03500000000E+09 -4.28101818657E-01 +1.06113979301E-01 -2.42316290565E-03 -9.26128558828E-04 -2.40254856281E-03 -1.02413277329E-03 -4.13974656988E-01 +5.86323608544E-02
3.04000000000E+09 -4.26884474704E-01 +1.38863533585E-01 -1.81029553882E-03 -5.89817209241E-04 -1.79302129359E-03 -7.71418765195E-04 -4.22179863176E-01 +9.90595804048E-02
3.04500000000E+09 -4.23890707019E-01 +1.72589388940E-01 -1.69532162059E-03 -6.52365236656E-04 -1.76531993016E-03 -7.63802794492E-04 -4.27525619978E-01 +1.39301770269E-01
3.05000000000E+09 -4.17835095057E-01 +2.06184066797E-01 -2.10017308632E-03 -7.07684434292E-04 -2.27688260625E-03 -6.21385266459E-04 -4.29886867228E-01 +1.78579945284E-01
3.05500000000E+09 -4.09586095716E-01 +2.38981736305E-01 -2.46554302496E-03 -8.88062276425E-05 -2.55478845441E-03 +6.80953965730E-05 -4.29829242918E-01 +2.16977948332E-01
3.06000000000E+09 -3.99907991008E-01 +2.71547544601E-01 -2.29364773174E-03 +6.00104257248E-04 -2.15988986059E-03 +7.39854823329E-04 -4.27373392504E-01 +2.54284842402E-01
3.06500000000E+09 -3.88098312668E-01 +3.03306849838E-01 -1.73314733192E-03 +1.08070134053E-03 -1.64045903822E-03 +1.01509854514E-03 -4.22528769725E-01 +2.90689019104E-01
3.07000000000E+09 -3.75418889038E-01 +3.33401429603E-01 -1.29000161897E-03 +1.05904522431E-03 -1.31682446020E-03 +9.82874529633E-04 -4.16215646757E-01 +3.25957544139E-01
