# Hz S RI R 50
! CMT, C1220, 16058040, 17.2.0/1
! Date: 15/08/2018 10:07:42
! Data: Format (Calibration Info)
! Freq                      S11: Re/Im (F2)                       S21: Re/Im (F2)                       S12: Re/Im (F2)                       S22: Re/Im (F2)            
2.50000000000E+09 +5.99718147618E-01 +6.32580054867E-01 -4.21168906147E-04 -9.33833382377E-05 -5.12629528432E-04 -1.41407073952E-04 +5.72877943126E-01 +7.17226582499E-01
2.50500000000E+09 +6.06003803046E-01 +6.24900756256E-01 -4.24088753630E-04 -2.05565650809E-04 -4.51979634597E-04 -1.45711459395E-04 +5.78582842300E-01 +7.11617678959E-01
2.51000000000E+09 +6.12540140741E-01 +6.16706704678E-01 -5.27359527725E-04 -1.53274519332E-04 -5.18577194910E-04 -1.43689674947E-04 +5.84428007145E-01 +7.06474246710E-01
2.51500000000E+09 +6.18861509612E-01 +6.08658871855E-01 -4.92349517908E-04 -1.09995729082E-04 -5.42234683992E-04 -1.22993803126E-04 +5.89676365662E-01 +7.00908219025E-01
2.52000000000E+09 +6.24521063439E-01 +6.00472681672E-01 -6.07543583090E-04 -4.75141457388E-05 -5.63419480110E-04 -6.45257151727E-05 +5.94926823095E-01 +6.95019601735E-01
2.52500000000E+09 +6.29488262372E-01 +5.92947339330E-01 -6.10096170554E-04 +1.01480041235E-04 -6.15336989822E-04 +1.08761183160E-04 +6.00664298242E-01 +6.88501547160E-01
2.53000000000E+09 +6.33960951743E-01 +5.85696516903E-01 -5.53842760048E-04 +1.89051054200E-04 -5.96200540448E-04 +1.35327577341E-04 +6.06697545291E-01 +6.81417339555E-01
2.53500000000E+09 +6.38096116270E-01 +5.79256695453E-01 -4.84691497403E-04 +2.20248938967E-04 -4.78788013724E-04 +2.51086308639E-04 +6.12847801433E-01 +6.74572373691E-01
2.54000000000E+09 +6.42106261562E-01 +5.73109974891E-01 -4.33735363511E-04 +1.81139357780E-04 -4.91013836547E-04 +1.51086257536E-04 +6.18913270191E-01 +6.67810969247E-01
2.54500000000E+09 +6.46483268552E-01 +5.67073940643E-01 -6.03995878649E-04 +2.75430851204E-04 -5.89580077652E-04 +2.62004173764E-04 +6.24542258728E-01 +6.61177456905E-01
2.55000000000E+09 +6.51179829823E-01 +5.60912179407E-01 -4.79113288315E-04 +3.85672702654E-04 -4.86241400505E-04 +3.75783164150E-04 +6.30000083606E-01 +6.54984936659E-01
2.55500000000E+09 +6.56412849062E-01 +5.54020217816E-01 -3.72597092583E-04 +4.57700123610E-04 -4.59350251121E-04 +5.21504963030E-04 +6.35044209508E-01 +6.48383973767E-01
2.56000000000E+09 +6.62281894487E-01 +5.47029653036E-01 -2.62245404472E-04 +3.98698414823E-04 -2.83115027744E-04 +4.77904717953E-04 +6.40328868902E-01 +6.41104229236E-01
2.56500000000E+09 +6.68449912467E-01 +5.38936120761E-01 -2.42682876089E-04 +3.26090055487E-04 -2.21858810488E-04 +4.22135397832E-04 +6.45750182202E-01 +6.33498294414E-01
2.57000000000E+09 +6.74644580917E-01 +5.30413578239E-01 -4.16540653279E-04 +2.54099563283E-04 -3.44102886985E-04 +3.51669866526E-04 +6.51159113841E-01 +6.25500336521E-01
2.57500000000E+09 +6.80740518211E-01 +5.21177260725E-01 -5.17569373639E-04 +4.83498522119E-04 -3.56231623056E-04 +5.38855398671E-04 +6.56643521551E-01 +6.17769053823E-01
2.58000000000E+09 +6.85512280463E-01 +5.12166095050E-01 -3.05193105019E-04 +6.82662719717E-04 -2.25360380035E-04 +5.92435511816E-04 +6.61756136570E-01 +6.10168912011E-01
2.58500000000E+09 +6.90275238734E-01 +5.03374219256E-01 -1.91754867524E-04 +5.98005113556E-04 -2.26387013128E-04 +5.29348491752E-04 +6.66543213713E-01 +6.02445972675E-01
2.59000000000E+09 +6.94393538844E-01 +4.94765555096E-01 -1.44365721040E-04 +6.33848999336E-04 -2.00759502145E-04 +6.09407482864E-04 +6.71267899920E-01 +5.94942950633E-01
2.59500000000E+09 +6.98365556155E-01 +4.86565646529E-01 -1.07391296520E-04 +5.86700347736E-04 -1.29042767973E-04 +6.02578581407E-04 +6.75909483660E-01 +5.86653507018E-01
2.60000000000E+09 +7.02294807181E-01 +4.78073079513E-01 -1.55863004082E-04 +6.10059144978E-04 -1.11071714381E-04 +6.36196811707E-04 +6.80886435111E-01 +5.78311532778E-01
2.60500000000E+09 +7.06304174299E-01 +4.68821562442E-01 -1.02329673747E-04 +7.48378074976E-04 -5.43706839186E-05 +7.86731262518E-04 +6.86058073832E-01 +5.69361966969E-01
2.61000000000E+09 +7.10558936573E-01 +4.58726532538E-01 +7.07328009027E-05 +8.65330495901E-04 +1.04037877800E-04 +8.27638383863E-04 +6.90935112768E-01 +5.60572664036E-01
2.61500000000E+09 +7.14909487320E-01 +4.47538273055E-01 +2.85689930398E-04 +7.56327684809E-04 +2.98000534829E-04 +7.55955453557E-04 +6.95596655792E-01 +5.51944652965E-01
2.62000000000E+09 +7.18961619579E-01 +4.35385543747E-01 +2.86395601490E-04 +6.40542993664E-04 +3.31572427007E-04 +6.83144661942E-04 +7.00182873283E-01 +5.42905749969E-01
2.62500000000E+09 +7.22918481889E-01 +4.22476667701E-01 +2.94290444978E-04 +5.94173842524E-04 +3.31053415801E-04 +6.24384435059E-04 +7.04915916425E-01 +5.34176637865E-01
2.63000000000E+09 +7.26464828151E-01 +4.09206512948E-01 +3.69806786586E-04 +6.79103217873E-04 +4.00645964111E-04 +5.76565987873E-04 +7.09812977355E-01 +5.25176023616E-01
2.63500000000E+09 +7.29414430241E-01 +3.95888590342E-01 +4.02422511878E-04 +7.07082877779E-04 +3.86142234005E-04 +5.66030998192E-04 +7.14381285851E-01 +5.15602522803E-01
2.64000000000E+09 +7.32003434228E-01 +3.83002007525E-01 +5.51039273136E-04 +7.54281254004E-04 +4.68581148279E-04 +6.09606822644E-04 +7.18901779222E-01 +5.05971933847E-01
2.64500000000E+09 +7.34647307843E-01 +3.70750279821E-01 +7.04655506247E-04 +5.63229428638E-04 +6.09683902026E-04 +5.41041507355E-04 +7.23336932026E-01 +4.96340273954E-01
2.65000000000E+09 +7.36776812904E-01 +3.58877777340E-01 +6.53538183005E-04 +3.95850253982E-04 +5.65165223732E-04 +4.67230851043E-04 +7.27495076842E-01 +4.86669888487E-01
2.65500000000E+09 +7.38995292119E-01 +3.47247924865E-01 +6.66047878162E-04 +4.25824339275E-04 +7.02935970532E-04 +5.55142489067E-04 +7.31860340802E-01 +4.76527585764E-01
2.66000000000E+09 +7.40926697196E-01 +3.35435809397E-01 +7.77507605698E-04 +4.45577756285E-04 +7.80137291359E-04 +4.36318088124E-04 +7.36192649113E-01 +4.65082974382E-01
2.66500000000E+09 +7.42851361195E-01 +3.23957921482E-01 +7.35488097177E-04 +3.54317206314E-04 +8.22297912155E-04 +3.45022520808E-04 +7.40327511223E-01 +4.53863718363E-01
2.67000000000E+09 +7.44897308516E-01 +3.11331663858E-01 +9.86390659853E-04 +4.85168574865E-04 +9.94662842004E-04 +3.69626068043E-04 +7.44485268750E-01 +4.42702959222E-01
2.67500000000E+09 +7.46001217120E-01 +2.97914512937E-01 +1.10319091582E-03 +1.40744243391E-04 +1.06869956686E-03 +1.04857804570E-04 +7.48236369919E-01 +4.31504275508E-01
2.68000000000E+09 +7.46503912818E-01 +2.84351946017E-01 +1.03558507297E-03 -6.72453555990E-05 +1.00338461175E-03 -3.54504724185E-05 +7.51900289771E-01 +4.20427015510E-01
2.68500000000E+09 +7.46651091802E-01 +2.70506489095E-01 +9.44889865541E-04 -1.06112934160E-04 +9.39614528682E-04 -4.98839772927E-05 +7.54891870943E-01 +4.09156603058E-01
2.69000000000E+09 +7.46033595207E-01 +2.56545669613E-01 +9.52804932297E-04 -1.02534817294E-04 +9.82803588543E-04 -1.00882023004E-04 +7.57620651173E-01 +3.97190663616E-01
2.69500000000E+09 +7.45350803001E-01 +2.43475282927E-01 +1.05400616027E-03 -1.70455873058E-04 +1.02311909077E-03 -1.78137918556E-04 +7.60282363965E-01 +3.84374872776E-01
2.70000000000E+09 +7.45110253102E-01 +2.30513176694E-01 +1.07616578903E-03 -2.90703730563E-04 +9.81555403079E-04 -2.89975708633E-04 +7.62981515116E-01 +3.71133798171E-01
2.70500000000E+09 +7.45012227452E-01 +2.17908143819E-01 +1.20992400865E-03 -4.93048638392E-04 +1.17643705792E-03 -4.56127360421E-04 +7.65878040386E-01 +3.57913197108E-01
2.71000000000E+09 +7.45392203569E-01 +2.05322700378E-01 +1.03016159257E-03 -7.27066163131E-04 +1.14472669893E-03 -7.07819158530E-04 +7.68686622999E-01 +3.44579665895E-01
2.71500000000E+09 +7.46577758130E-01 +1.92001068542E-01 +9.36604899360E-04 -9.09959852675E-04 +1.07315850955E-03 -1.00258410768E-03 +7.70811867068E-01 +3.31925131647E-01
2.72000000000E+09 +7.47195745170E-01 +1.77814044244E-01 +7.09750675857E-04 -1.06286146950E-03 +6.81527259610E-04 -1.18018809267E-03 +7.72687990027E-01 +3.19548742246E-01
2.72500000000E+09 +7.47687532094E-01 +1.62720193051E-01 +5.47527341264E-04 -1.03287972498E-03 +4.15789783409E-04 -1.09000177242E-03 +7.73971912116E-01 +3.06291106315E-01
2.73000000000E+09 +7.47204512673E-01 +1.46539619688E-01 +4.72703700616E-04 -1.00591421439E-03 +3.30861278346E-04 -8.70772514145E-04 +7.75417490871E-01 +2.92739783833E-01
2.73500000000E+09 +7.45058413782E-01 +1.29499515404E-01 +4.67705541070E-04 -1.02567711088E-03 +4.66593416495E-04 -8.25823967452E-04 +7.76907830535E-01 +2.77697952681E-01
2.74000000000E+09 +7.41882962904E-01 +1.13371334991E-01 +5.46628811908E-04 -1.18950934601E-03 +5.68168774155E-04 -1.00715068775E-03 +7.77943051585E-01 +2.62247654753E-01
2.74500000000E+09 +7.38107355126E-01 +9.71889098794E-02 +3.15310263699E-04 -1.34257444905E-03 +4.93578194545E-04 -1.22991703108E-03 +7.79021423113E-01 +2.47114324066E-01
2.75000000000E+09 +7.33636671789E-01 +8.11706931219E-02 +3.37653049782E-05 -1.43170664910E-03 +1.59684432138E-04 -1.43123112391E-03 +7.79782402500E-01 +2.32167536280E-01
2.75500000000E+09 +7.28832967390E-01 +6.52173321617E-02 -8.37162586787E-05 -1.28918757100E-03 -1.78722651796E-05 -1.44620079070E-03 +7.79733524335E-01 +2.17405502914E-01
2.76000000000E+09 +7.24246055118E-01 +4.95590451782E-02 -1.14911366420E-04 -1.31205546160E-03 -1.19608338403E-04 -1.44230279882E-03 +7.79446442690E-01 +2.01620445671E-01
2.76500000000E+09 +7.19674257771E-01 +3.35818822491E-02 -3.21972082735E-04 -1.50315670542E-03 -3.64788861489E-04 -1.57620206595E-03 +7.78014649780E-01 +1.84562932014E-01
2.77000000000E+09 +7.15277014767E-01 +1.66127635571E-02 -5.83395591935E-04 -1.41719695690E-03 -6.53450688402E-04 -1.45059451742E-03 +7.76317610101E-01 +1.67559042465E-01
2.77500000000E+09 +7.11006958907E-01 -1.35021654546E-03 -8.21046663344E-04 -1.34696094985E-03 -9.36784141447E-04 -1.34911447723E-03 +7.74805407042E-01 +1.49490914263E-01
2.78000000000E+09 +7.06020187526E-01 -2.07325835370E-02 -1.05132026997E-03 -1.23018162717E-03 -1.12728690845E-03 -1.16645874538E-03 +7.72601212399E-01 +1.31461587761E-01
2.78500000000E+09 +6.99666557094E-01 -4.08911999485E-02 -1.20968348425E-03 -8.59687516734E-04 -1.25068500165E-03 -8.08863687839E-04 +7.69899877176E-01 +1.14149425614E-01
2.79000000000E+09 +6.92355122804E-01 -6.14267512482E-02 -1.04524563222E-03 -8.12919383548E-04 -1.03944049117E-03 -7.04792637597E-04 +7.66836282194E-01 +9.68777268552E-02
2.79500000000E+09 +6.83662244419E-01 -8.18294607252E-02 -1.29998481831E-03 -8.08431962095E-04 -1.20229702049E-03 -7.29777540583E-04 +7.62595608074E-01 +7.90691074715E-02
2.80000000000E+09 +6.73758728015E-01 -1.01791834171E-01 -1.23428190918E-03 -5.58292610842E-04 -1.16918663903E-03 -5.94529090809E-04 +7.57751582773E-01 +6.12629281681E-02
2.80500000000E+09 +6.62516082732E-01 -1.20596969540E-01 -1.57486502545E-03 -6.28041652414E-04 -1.50035940216E-03 -6.59947617360E-04 +7.52428039937E-01 +4.21241138940E-02
2.81000000000E+09 +6.50607518573E-01 -1.37950880095E-01 -1.56182337289E-03 -1.18480055430E-04 -1.60606139358E-03 -1.32586058711E-04 +7.45913387594E-01 +2.29419921213E-02
2.81500000000E+09 +6.38152363166E-01 -1.54743411945E-01 -1.43461939374E-03 +5.04300835937E-05 -1.45081590173E-03 +1.08322995760E-04 +7.39330028260E-01 +3.50363295533E-03
2.82000000000E+09 +6.24810259927E-01 -1.70996373548E-01 -1.39710091719E-03 -6.61733084442E-06 -1.41952481456E-03 -1.07080132776E-05 +7.31644849919E-01 -1.61929108053E-02
2.82500000000E+09 +6.11024838601E-01 -1.87006865908E-01 -1.81780796325E-03 +2.70237321214E-04 -1.67073007487E-03 +2.96777582873E-04 +7.23092229260E-01 -3.57560103948E-02
2.83000000000E+09 +5.95725736144E-01 -2.04442920652E-01 -1.37931186144E-03 +8.55322959647E-04 -1.33420947114E-03 +8.46596091588E-04 +7.14043356346E-01 -5.52190371524E-02
2.83500000000E+09 +5.77926580554E-01 -2.22432843028E-01 -1.06245399467E-03 +8.14610878961E-04 -1.08188620094E-03 +6.96053786587E-04 +7.04447998204E-01 -7.56489129669E-02
2.84000000000E+09 +5.57978870887E-01 -2.39565444398E-01 -9.38344069248E-04 +9.15258405716E-04 -9.43606407351E-04 +8.95145376220E-04 +6.92970000829E-01 -9.68679364143E-02
2.84500000000E+09 +5.36669291688E-01 -2.57212801617E-01 -8.09799540137E-04 +7.94554775439E-04 -8.02425729577E-04 +7.04480528118E-04 +6.80245106086E-01 -1.17391466837E-01
2.85000000000E+09 +5.13581273716E-01 -2.74417205780E-01 -9.70437234534E-04 +8.12987499736E-04 -9.85862357513E-04 +7.99576432406E-04 +6.67001003993E-01 -1.38204615882E-01
2.85500000000E+09 +4.89931485647E-01 -2.90940728058E-01 -8.93895602024E-04 +1.23617551931E-03 -8.26023298575E-04 +1.24504220942E-03 +6.52261191669E-01 -1.59239314194E-01
2.86000000000E+09 +4.65424362529E-01 -3.07293128147E-01 -2.05152324979E-04 +1.16766673407E-03 -2.21470452864E-04 +1.14513856072E-03 +6.35718464468E-01 -1.80185723019E-01
2.86500000000E+09 +4.39979812381E-01 -3.22437990463E-01 -4.62097625838E-04 +8.37974534570E-04 -4.09405097163E-04 +7.76659225858E-04 +6.17564264844E-01 -2.00455667741E-01
2.87000000000E+09 +4.14900802484E-01 -3.35762563569E-01 -2.44800801498E-04 +1.22381036707E-03 -2.89736674526E-04 +1.27720895548E-03 +5.98755308076E-01 -2.19433399814E-01
2.87500000000E+09 +3.90414136437E-01 -3.48461502652E-01 -1.04669707715E-04 +1.00056022734E-03 -7.56550079881E-05 +9.93391108425E-04 +5.80184109186E-01 -2.39512488949E-01
2.88000000000E+09 +3.64751278671E-01 -3.60502187012E-01 -9.01101728487E-05 +1.13752720719E-03 +6.39491977594E-06 +1.16498866424E-03 +5.58717971998E-01 -2.59955476154E-01
2.88500000000E+09 +3.38951389394E-01 -3.70914279762E-01 +5.48923395281E-04 +1.26964929972E-03 +5.34866382629E-04 +1.20848982653E-03 +5.34717793742E-01 -2.78678350819E-01
2.89000000000E+09 +3.11400605189E-01 -3.80491753259E-01 +7.53475771636E-04 +3.43422046627E-04 +6.80064040159E-04 +2.93668019667E-04 +5.09719045294E-01 -2.96405952563E-01
2.89500000000E+09 +2.82144642360E-01 -3.88033397705E-01 +6.84817191425E-05 +1.99851438075E-04 +3.27910324780E-05 +2.62873718746E-04 +4.82261062456E-01 -3.13974337175E-01
2.90000000000E+09 +2.51157894670E-01 -3.93375473101E-01 -7.38588633762E-05 +3.48792744741E-04 -6.71503920573E-05 +3.56244878449E-04 +4.53716987015E-01 -3.29509079326E-01
2.90500000000E+09 +2.18530474103E-01 -3.96385118338E-01 +1.23381843143E-04 +6.11547370921E-04 +5.58288963659E-05 +6.18002421359E-04 +4.24750288476E-01 -3.45360551694E-01
2.91000000000E+09 +1.84794326521E-01 -3.96695038582E-01 +3.34385324800E-04 +1.57563879096E-04 +3.46294155547E-04 +6.67385881458E-05 +3.93596981413E-01 -3.60218586645E-01
2.91500000000E+09 +1.50859877617E-01 -3.94863954625E-01 -5.13367823740E-04 -2.03959700745E-04 -4.89839733555E-04 -1.43070635401E-04 +3.60602926027E-01 -3.72583799709E-01
2.92000000000E+09 +1.16593249341E-01 -3.90721965131E-01 -8.05769939050E-04 +6.39412080755E-04 -8.00819308842E-04 +5.85637705596E-04 +3.27062948564E-01 -3.82564928253E-01
2.92500000000E+09 +8.21601837389E-02 -3.85996390793E-01 -3.80522718853E-04 +8.97922663851E-04 -3.86357501991E-04 +8.27419229270E-04 +2.90957850811E-01 -3.90912286891E-01
2.93000000000E+09 +4.71520809222E-02 -3.78578078951E-01 -3.95391853123E-04 +7.99064366958E-04 -3.92697858155E-04 +7.63197532558E-04 +2.53383511815E-01 -3.97027909117E-01
2.93500000000E+09 +1.20033904784E-02 -3.69076199032E-01 -3.01411612020E-04 +1.02631957258E-03 -3.65966228937E-04 +1.00770736356E-03 +2.14580729127E-01 -4.01221156089E-01
2.94000000000E+09 -2.22053808892E-02 -3.56936798216E-01 -6.63450107224E-04 +1.00890101992E-03 -6.81954686470E-04 +1.03440658711E-03 +1.75096280709E-01 -4.02439842990E-01
2.94500000000E+09 -5.56266914902E-02 -3.42220657246E-01 -3.71905513276E-04 +2.13526024440E-03 -3.57388302646E-04 +2.13098792792E-03 +1.37044657867E-01 -4.02918937323E-01
2.95000000000E+09 -8.77547246769E-02 -3.25510136927E-01 +7.73955465249E-04 +1.92236390669E-03 +7.27410078889E-04 +1.90981133322E-03 +9.59913412129E-02 -4.01609810533E-01
2.95500000000E+09 -1.19361561692E-01 -3.06031313171E-01 +8.13221399161E-04 +1.61758449719E-03 +7.50224946367E-04 +1.67211021193E-03 +5.42563263977E-02 -3.94908873492E-01
2.96000000000E+09 -1.49773498816E-01 -2.83731882893E-01 +1.04116765816E-03 +1.46037414173E-03 +1.04861325177E-03 +1.52481077585E-03 +1.35968260946E-02 -3.84469441055E-01
2.96500000000E+09 -1.79000822671E-01 -2.58333834854E-01 +1.30436929467E-03 +1.24060203556E-03 +1.37491793039E-03 +1.22090663966E-03 -2.68160241944E-02 -3.70799696245E-01
2.97000000000E+09 -2.05937403556E-01 -2.29227267582E-01 +1.20165751642E-03 +1.22403383343E-03 +1.22946908756E-03 +1.19678143460E-03 -6.55718748036E-02 -3.55453441226E-01
2.97500000000E+09 -2.29437670297E-01 -1.98522868506E-01 +1.66801658737E-03 +1.37449266672E-03 +1.67958830477E-03 +1.33982191594E-03 -1.05056920621E-01 -3.38622033823E-01
2.98000000000E+09 -2.51080300322E-01 -1.68181563039E-01 +2.00173897720E-03 +9.42976634312E-04 +1.93472543187E-03 +1.00715066671E-03 -1.43616188344E-01 -3.18343576411E-01
2.98500000000E+09 -2.72586306159E-01 -1.36172540550E-01 +2.32377505493E-03 +5.36869350333E-04 +2.33886152867E-03 +6.26698111483E-04 -1.80769507471E-01 -2.93695809492E-01
2.99000000000E+09 -2.91715707775E-01 -1.02683088298E-01 +2.14338460273E-03 -1.32657557642E-04 +2.30981866246E-03 -7.77547459959E-05 -2.13868934553E-01 -2.67563574905E-01
2.99500000000E+09 -3.08265971579E-01 -6.85220433619E-02 +1.88678687536E-03 -1.23421041248E-04 +2.01114416675E-03 -2.08429478413E-04 -2.47367112759E-01 -2.39083034214E-01
3.00000000000E+09 -3.22521640067E-01 -3.41973192285E-02 +1.94712473799E-03 -4.01369769476E-05 +1.93493085057E-03 -1.08027688169E-04 -2.78792515596E-01 -2.07026174008E-01
3.00500000000E+09 -3.33921945472E-01 -4.27859227701E-04 +2.47836662205E-03 -3.22344456191E-04 +2.30748388148E-03 -4.14572167661E-04 -3.07055339477E-01 -1.72734888849E-01
3.01000000000E+09 -3.42565970035E-01 +3.22751736040E-02 +2.33926604523E-03 -1.10023511652E-03 +2.21274471086E-03 -1.04555046013E-03 -3.33031258371E-01 -1.37274085114E-01
3.01500000000E+09 -3.49803323429E-01 +6.47228507911E-02 +1.98058610570E-03 -1.46053472300E-03 +1.98225780244E-03 -1.45464216105E-03 -3.54846414306E-01 -1.00484406822E-01
3.02000000000E+09 -3.53529716218E-01 +9.75457091213E-02 +1.32489266894E-03 -1.79335211720E-03 +1.37064256048E-03 -1.79389940954E-03 -3.74464298996E-01 -6.44625782708E-02
3.02500000000E+09 -3.53700868897E-01 +1.29979792273E-01 +1.34475188787E-03 -1.33725238249E-03 +1.41108835804E-03 -1.38194448701E-03 -3.92443066064E-01 -2.59656071466E-02
3.03000000000E+09 -3.50636832260E-01 +1.61458525195E-01 +1.35690968629E-03 -1.89058265525E-03 +1.34737957456E-03 -1.94978407852E-03 -4.06771887400E-01 +1.52760635915E-02
3.03500000000E+09 -3.45051704588E-01 +1.91554926624E-01 +8.60952902317E-04 -2.27598078531E-03 +8.77027368239E-04 -2.28540292218E-03 -4.16309747128E-01 +5.56717611154E-02
3.04000000000E+09 -3.37696558839E-01 +2.21421831738E-01 +5.52556532082E-05 -2.10392471890E-03 +1.13075530819E-04 -2.15699927158E-03 -4.23971512790E-01 +9.55552313316E-02
3.04500000000E+09 -3.28869093832E-01 +2.50735754447E-01 +1.59569066177E-04 -1.41383307728E-03 +2.09431625021E-04 -1.49085104828E-03 -4.29289698609E-01 +1.34845289292E-01
3.05000000000E+09 -3.17978452645E-01 +2.80234279323E-01 +6.01550665790E-04 -1.62059043774E-03 +5.72897468616E-04 -1.72196985569E-03 -4.33098738412E-01 +1.74238664065E-01
3.05500000000E+09 -3.04844463313E-01 +3.09098672435E-01 +4.56289613733E-04 -2.27688645457E-03 +3.19667604822E-04 -2.31210347487E-03 -4.32429106587E-01 +2.14435527615E-01
3.06000000000E+09 -2.90672037180E-01 +3.35800795432E-01 -3.64360372923E-04 -2.65679099975E-03 -4.52125455410E-04 -2.51756636678E-03 -4.28926783975E-01 +2.51488715232E-01
3.06500000000E+09 -2.76454070927E-01 +3.61337072174E-01 -1.21444649775E-03 -2.01450381544E-03 -1.16129114010E-03 -1.93096083141E-03 -4.24120306040E-01 +2.87493562533E-01
3.07000000000E+09 -2.61684144391E-01 +3.85876973676E-01 -1.12806029205E-03 -1.17675138484E-03 -9.91146085058E-04 -1.27707525789E-03 -4.18521339797E-01 +3.21614999873E-01
