# Hz S RI R 50
! CMT, C1220, 16058040, 17.2.0/1
! Date: 15/08/2018 10:33:50
! Data: Format (Calibration Info)
! Freq                      S11: Re/Im (F2)                       S21: Re/Im (F2)                       S12: Re/Im (F2)                       S22: Re/Im (F2)            
2.50000000000E+09 +5.78066469810E-01 +6.66964402898E-01 -2.27743259219E-04 +7.86713835200E-05 -2.47660070479E-04 +7.22233442190E-05 +5.65392867413E-01 +7.22394759017E-01
2.50500000000E+09 +5.85424808973E-01 +6.58927561449E-01 -1.13759363926E-04 +3.54493978957E-05 -1.42433718364E-04 +5.68702031644E-05 +5.71132477021E-01 +7.17003392855E-01
2.51000000000E+09 +5.93203233099E-01 +6.50608041935E-01 -1.22507572273E-04 +2.92547904624E-05 -8.32503990511E-05 +2.39645452528E-05 +5.76710589139E-01 +7.11801882113E-01
2.51500000000E+09 +6.00649116180E-01 +6.42731796444E-01 -1.40162398403E-04 -2.83968980501E-05 -1.18006877785E-04 -6.91974881967E-05 +5.82002622537E-01 +7.06428392599E-01
2.52000000000E+09 +6.07539888960E-01 +6.34721720606E-01 -2.09053148029E-04 +5.19395576346E-05 -2.17177485307E-04 +4.72652786342E-05 +5.87230332965E-01 +7.00437536772E-01
2.52500000000E+09 +6.13474481474E-01 +6.27496086961E-01 -9.03664455291E-05 +6.77136691293E-05 -7.62096303396E-05 +8.20947843931E-05 +5.93063035774E-01 +6.93984575546E-01
2.53000000000E+09 +6.18944751924E-01 +6.20347920590E-01 -8.29559122063E-05 +5.87362167776E-06 -1.09747597826E-04 +4.58175943970E-05 +5.99190452410E-01 +6.87068201451E-01
2.53500000000E+09 +6.23700375522E-01 +6.13309414404E-01 -5.26604721191E-05 -3.10739068581E-05 -7.27530888261E-05 +3.40700785030E-05 +6.05184878428E-01 +6.80340939003E-01
2.54000000000E+09 +6.28200444514E-01 +6.06468706566E-01 -1.51349684614E-04 -7.18403553676E-06 -8.10614884280E-05 +9.47725052428E-06 +6.11095201025E-01 +6.73810004055E-01
2.54500000000E+09 +6.32935233016E-01 +5.99440867634E-01 -1.92469092012E-04 +2.06320712039E-05 -1.86894032467E-04 +9.35595081078E-06 +6.17006091410E-01 +6.67623126149E-01
2.55000000000E+09 +6.38025324008E-01 +5.91841623162E-01 -2.02434967270E-04 +9.48057413744E-05 -2.46147967565E-04 +9.34212307864E-05 +6.22435841407E-01 +6.61306145832E-01
2.55500000000E+09 +6.43623203900E-01 +5.83680683302E-01 -1.86146213984E-04 +1.37915953364E-04 -1.63584023106E-04 +1.50819629020E-04 +6.27403138170E-01 +6.54863150533E-01
2.56000000000E+09 +6.50012140696E-01 +5.75778553329E-01 -1.23750550443E-04 +9.12672873106E-05 -1.15251752058E-04 +1.84250559441E-04 +6.32634071340E-01 +6.47502224242E-01
2.56500000000E+09 +6.57024257872E-01 +5.67284677290E-01 -1.18685340256E-04 +1.17652757304E-04 -6.46108304184E-05 +1.21245963705E-04 +6.37793415467E-01 +6.39990865181E-01
2.57000000000E+09 +6.64192180517E-01 +5.58639896789E-01 -1.66968351312E-04 +9.57587020068E-05 -1.53828324780E-04 +1.35207260248E-04 +6.43107155646E-01 +6.32164208109E-01
2.57500000000E+09 +6.71090708999E-01 +5.49716712338E-01 -1.97222635619E-04 +1.83507401773E-04 -1.16935366954E-04 +1.70120121473E-04 +6.48704293758E-01 +6.24579953631E-01
2.58000000000E+09 +6.76761540817E-01 +5.41591969892E-01 -1.27065017180E-04 +2.49779428022E-04 -1.18185430730E-04 +2.03692174535E-04 +6.53775728162E-01 +6.16770497038E-01
2.58500000000E+09 +6.82092033913E-01 +5.33595718006E-01 -9.66993959320E-05 +2.24496161695E-04 -5.77706701578E-05 +2.29481680022E-04 +6.58542265961E-01 +6.09184682268E-01
2.59000000000E+09 +6.87069704147E-01 +5.25778466497E-01 -1.90649880406E-05 +3.25505402986E-04 -2.29726622059E-05 +2.83148768502E-04 +6.63219362627E-01 +6.01740742234E-01
2.59500000000E+09 +6.91633240095E-01 +5.17702733646E-01 +6.72527158712E-05 +3.54603831988E-04 +5.38140981869E-05 +3.27041358182E-04 +6.68254238400E-01 +5.93728484669E-01
2.60000000000E+09 +6.95684252829E-01 +5.08927786648E-01 +1.07645733980E-04 +2.55868409623E-04 +9.91531116018E-05 +2.74438159801E-04 +6.73071102772E-01 +5.85439071538E-01
2.60500000000E+09 +6.99731665708E-01 +4.99161207490E-01 +1.23163483466E-04 +2.37247356959E-04 +1.22232469018E-04 +2.52543604891E-04 +6.78456462239E-01 +5.76834877399E-01
2.61000000000E+09 +7.03949887015E-01 +4.88536060787E-01 +1.85821675776E-04 +2.32839870620E-04 +1.57317097318E-04 +2.84304844273E-04 +6.83599924824E-01 +5.68068793721E-01
2.61500000000E+09 +7.08934767839E-01 +4.76867995163E-01 +3.52878255413E-04 +1.23458574808E-04 +3.26966110893E-04 +1.68891484660E-04 +6.88515796200E-01 +5.59469147990E-01
2.62000000000E+09 +7.13805853231E-01 +4.63608278658E-01 +2.33193187612E-04 -5.40145990188E-05 +2.35310452324E-04 -9.86573051884E-05 +6.93247253334E-01 +5.50493892396E-01
2.62500000000E+09 +7.18572058696E-01 +4.49828028217E-01 +2.11152894401E-05 -1.38133472327E-05 +5.34624028557E-05 +3.88763268370E-05 +6.97824418748E-01 +5.41631042802E-01
2.63000000000E+09 +7.23109362612E-01 +4.36016349169E-01 +5.42041660241E-05 +1.05792336411E-04 +6.76457849262E-05 +6.20483246390E-05 +7.02321953178E-01 +5.32675321844E-01
2.63500000000E+09 +7.27030879421E-01 +4.22575869650E-01 +1.44457596261E-04 +9.71443628887E-05 +1.15517136693E-04 +9.24703879459E-05 +7.06863544704E-01 +5.23674658653E-01
2.64000000000E+09 +7.30771515258E-01 +4.09906900072E-01 +2.07538929581E-04 +1.71821610246E-04 +1.90554879932E-04 +1.10383113565E-04 +7.11551117711E-01 +5.14254604963E-01
2.64500000000E+09 +7.34178274505E-01 +3.98188413191E-01 +2.57086739467E-04 +4.87523175522E-06 +2.41375716333E-04 -6.02950512210E-06 +7.16153288657E-01 +5.04525690590E-01
2.65000000000E+09 +7.36973620786E-01 +3.87184055942E-01 +1.63426671349E-04 -3.07797462417E-05 +1.76333400537E-04 +5.60390874397E-06 +7.20357206807E-01 +4.94418008625E-01
2.65500000000E+09 +7.39984570858E-01 +3.76221831725E-01 +1.17650911603E-04 -6.93904674977E-05 +1.83943279954E-04 -5.39999434789E-05 +7.24268823649E-01 +4.83936141505E-01
2.66000000000E+09 +7.42971308397E-01 +3.65003017002E-01 +1.28973312142E-04 -5.34588372790E-05 +1.82613668874E-04 -8.40322952911E-06 +7.28097256921E-01 +4.72885830732E-01
2.66500000000E+09 +7.45773822515E-01 +3.53390259682E-01 +1.02707737392E-04 -1.33875847506E-05 +8.55134457111E-05 -4.90370924969E-05 +7.32421719402E-01 +4.62092173250E-01
2.67000000000E+09 +7.48627651792E-01 +3.40714076879E-01 +1.10762271110E-04 -7.10518202300E-06 +1.41703584102E-04 -3.51792382798E-05 +7.36808464046E-01 +4.51214323309E-01
2.67500000000E+09 +7.51294860136E-01 +3.27085996248E-01 +1.66379396012E-04 -1.47645403782E-05 +1.02779946395E-04 -2.33908827663E-05 +7.40825008888E-01 +4.40180757301E-01
2.68000000000E+09 +7.53501999641E-01 +3.12267175383E-01 +1.92810978619E-04 -2.67894245709E-05 +1.30575764922E-04 -3.27236870980E-05 +7.44597899611E-01 +4.29316471801E-01
2.68500000000E+09 +7.55185049273E-01 +2.97518929299E-01 +1.50950222214E-04 -1.40393428246E-04 +1.57304362684E-04 -1.47692112376E-04 +7.47976580794E-01 +4.17649239598E-01
2.69000000000E+09 +7.56601879336E-01 +2.82973484929E-01 +2.22249638487E-05 -1.32029350220E-04 +6.33525580462E-05 -1.65526853038E-04 +7.50424282656E-01 +4.05657604025E-01
2.69500000000E+09 +7.58077383430E-01 +2.68857982981E-01 +6.05505483255E-05 -1.16531180303E-04 +3.08114209002E-05 -1.25024470388E-04 +7.52971703399E-01 +3.93271785622E-01
2.70000000000E+09 +7.59542505533E-01 +2.54935536809E-01 +4.41478933795E-06 -2.02802190427E-04 +7.15513686268E-05 -2.32593958536E-04 +7.55680432474E-01 +3.80511459067E-01
2.70500000000E+09 +7.60862980739E-01 +2.41480685801E-01 -1.10758602005E-04 -1.60088125233E-04 -1.19800360188E-04 -1.50146168978E-04 +7.58662594111E-01 +3.67404137888E-01
2.71000000000E+09 +7.61938789009E-01 +2.27886919822E-01 -1.84447956628E-04 -1.17756171755E-04 -1.49674675738E-04 -1.14285727637E-04 +7.61334685134E-01 +3.54581863702E-01
2.71500000000E+09 +7.63339809398E-01 +2.14370313025E-01 -1.50799584450E-04 -5.35760698517E-05 -1.21233068519E-04 -5.47854391542E-05 +7.63918638679E-01 +3.42082057088E-01
2.72000000000E+09 +7.64449186908E-01 +1.99872731895E-01 -1.83426019583E-04 -8.20503108785E-05 -2.08341314528E-04 -6.96466196872E-05 +7.65694387383E-01 +3.29450229594E-01
2.72500000000E+09 +7.65002200727E-01 +1.84494380436E-01 -2.98135503766E-04 +3.47164287929E-05 -3.03511274069E-04 +4.66221430854E-05 +7.66707817071E-01 +3.16246141388E-01
2.73000000000E+09 +7.64779809434E-01 +1.67750289583E-01 -2.39040285403E-04 +1.96622346483E-04 -2.12855943785E-04 +1.65999507682E-04 +7.67631266621E-01 +3.02638979674E-01
2.73500000000E+09 +7.63254700597E-01 +1.49966361541E-01 -2.49775744869E-04 +3.53754174333E-04 -1.66568718220E-04 +3.04393774673E-04 +7.68639489809E-01 +2.88592426646E-01
2.74000000000E+09 +7.60821881943E-01 +1.32363697780E-01 +4.06612554287E-05 +5.03163904951E-04 +4.50809797682E-06 +3.84205240507E-04 +7.70764771016E-01 +2.73946808609E-01
2.74500000000E+09 +7.57543468579E-01 +1.14268035794E-01 +1.44090116355E-04 +3.85936793989E-04 +1.04210987711E-04 +3.99336001884E-04 +7.72154406762E-01 +2.58705857272E-01
2.75000000000E+09 +7.53653678473E-01 +9.62416033479E-02 +2.79014838312E-04 +3.28068634953E-04 +2.02586272242E-04 +3.59823161822E-04 +7.73177747963E-01 +2.43729232604E-01
2.75500000000E+09 +7.48934423817E-01 +7.85314733521E-02 +3.01534604398E-04 +2.43031826133E-04 +3.39169935774E-04 +2.93293929251E-04 +7.72899068258E-01 +2.29008912535E-01
2.76000000000E+09 +7.44667292015E-01 +6.11790796467E-02 +2.39138621017E-04 +3.67694917596E-04 +2.59448862124E-04 +3.86224912455E-04 +7.72994632628E-01 +2.14028475043E-01
2.76500000000E+09 +7.40156431344E-01 +4.29941689378E-02 +5.46461707970E-04 +3.74980747866E-04 +5.69156527898E-04 +3.62192008300E-04 +7.72280313028E-01 +1.97399922081E-01
2.77000000000E+09 +7.35196606833E-01 +2.45285506032E-02 +6.24608033901E-04 +1.01443584937E-04 +5.58085768395E-04 +1.18793329001E-04 +7.71214283320E-01 +1.80589973569E-01
2.77500000000E+09 +7.30675929226E-01 +5.47843122644E-03 +5.86388040198E-04 +1.39778651848E-04 +5.47649952576E-04 +1.69580804709E-04 +7.69976356945E-01 +1.62763081155E-01
2.78000000000E+09 +7.26004955010E-01 -1.54444656623E-02 +7.98251737507E-04 +5.29634874877E-05 +8.10717715318E-04 -4.90074258079E-06 +7.68433895283E-01 +1.45053422683E-01
2.78500000000E+09 +7.19807829352E-01 -3.70736581525E-02 +9.15913424041E-04 -1.27057474757E-04 +8.82843425511E-04 -1.37476714990E-04 +7.66146618678E-01 +1.27202579277E-01
2.79000000000E+09 +7.13079752682E-01 -5.92660740787E-02 +8.97160838336E-04 -4.28548662006E-04 +8.05718795175E-04 -4.36105359443E-04 +7.63008579660E-01 +1.09923134679E-01
2.79500000000E+09 +7.04962855507E-01 -8.15941467465E-02 +8.34757144010E-04 -6.10793008749E-04 +7.75348442152E-04 -4.85410111793E-04 +7.59023332154E-01 +9.22644846291E-02
2.80000000000E+09 +6.95681641543E-01 -1.02695004835E-01 +6.30944994376E-04 -7.29227054681E-04 +6.12707116938E-04 -7.22309050610E-04 +7.54467618350E-01 +7.41569909237E-02
2.80500000000E+09 +6.86302222732E-01 -1.22519657798E-01 +5.20312527097E-04 -7.70458482112E-04 +5.53890003845E-04 -6.76339509325E-04 +7.48918295795E-01 +5.50067420224E-02
2.81000000000E+09 +6.76241912242E-01 -1.41568769276E-01 +6.03010203533E-04 -9.00332863391E-04 +6.72194712595E-04 -9.10003798323E-04 +7.42691087533E-01 +3.60116478333E-02
2.81500000000E+09 +6.65573481738E-01 -1.59506763842E-01 +5.13005596703E-04 -1.11614928020E-03 +5.85099553046E-04 -1.17490175377E-03 +7.36551122937E-01 +1.67282906532E-02
2.82000000000E+09 +6.54071351384E-01 -1.77049888434E-01 +2.51566482608E-04 -1.28476296487E-03 +2.19231864223E-04 -1.30394875053E-03 +7.29398792335E-01 -3.28500114965E-03
2.82500000000E+09 +6.41169683936E-01 -1.94514057285E-01 +2.14102736492E-04 -1.44169549237E-03 +1.85940513101E-04 -1.33413313850E-03 +7.21476335931E-01 -2.28755087718E-02
2.83000000000E+09 +6.26438579000E-01 -2.12293316708E-01 -1.02899024240E-04 -1.76173537954E-03 -1.18091910304E-04 -1.67979811776E-03 +7.12718180012E-01 -4.30968381312E-02
2.83500000000E+09 +6.10344426312E-01 -2.30236200569E-01 -6.81417784611E-04 -1.75995901479E-03 -5.63787679614E-04 -1.68712160859E-03 +7.02516650197E-01 -6.31346821393E-02
2.84000000000E+09 +5.92747705790E-01 -2.49261919918E-01 -1.01965899267E-03 -1.49461939321E-03 -1.02409503583E-03 -1.54146805617E-03 +6.91746257801E-01 -8.37712809558E-02
2.84500000000E+09 +5.72295776097E-01 -2.69467813345E-01 -1.21297140273E-03 -1.21188595763E-03 -1.24178183050E-03 -1.24310578946E-03 +6.79838992961E-01 -1.04199662659E-01
2.85000000000E+09 +5.50197314354E-01 -2.89118537627E-01 -1.35027498597E-03 -1.03681402258E-03 -1.34324302076E-03 -1.13314960788E-03 +6.66822263415E-01 -1.25253364204E-01
2.85500000000E+09 +5.26314638283E-01 -3.08796023531E-01 -1.66838978451E-03 -8.48644329837E-04 -1.69137335729E-03 -8.91168957090E-04 +6.52264580013E-01 -1.45860746798E-01
2.86000000000E+09 +5.02050890724E-01 -3.27145552010E-01 -1.52122576056E-03 -5.19724582988E-04 -1.53045791517E-03 -5.37443169716E-04 +6.37219392445E-01 -1.66924265500E-01
2.86500000000E+09 +4.77222115859E-01 -3.44870275233E-01 -1.66593332861E-03 -5.24882340830E-04 -1.71363248435E-03 -4.93251320903E-04 +6.19753053566E-01 -1.88420549867E-01
2.87000000000E+09 +4.52047000555E-01 -3.60729951842E-01 -1.72730311750E-03 -4.06067558134E-04 -1.80974818068E-03 -3.85929350282E-04 +6.00404920275E-01 -2.08916723015E-01
2.87500000000E+09 +4.27258348979E-01 -3.75570386303E-01 -2.20974389498E-03 -3.80425066427E-04 -2.20673957112E-03 -2.98103822498E-04 +5.80305688023E-01 -2.28383779962E-01
2.88000000000E+09 +4.01408189159E-01 -3.89204823739E-01 -2.67722962487E-03 +2.99793365466E-04 -2.63023452471E-03 +3.82848725964E-04 +5.59249047510E-01 -2.48163751757E-01
2.88500000000E+09 +3.75188482889E-01 -4.01427703644E-01 -2.58166545993E-03 +1.28707496915E-03 -2.37847997723E-03 +1.26437335946E-03 +5.36188570196E-01 -2.67079625465E-01
2.89000000000E+09 +3.47248746224E-01 -4.13385007977E-01 -1.83414172577E-03 +1.77341066494E-03 -1.74506953555E-03 +1.66697598517E-03 +5.10713036380E-01 -2.85631945575E-01
2.89500000000E+09 +3.16337255248E-01 -4.23787052447E-01 -1.21995510443E-03 +1.55762020329E-03 -1.26236790687E-03 +1.41258739779E-03 +4.83780246518E-01 -3.03131963961E-01
2.90000000000E+09 +2.83493308247E-01 -4.32065386615E-01 -1.54526793219E-03 +1.45032052007E-03 -1.62588561234E-03 +1.41895544300E-03 +4.55256272121E-01 -3.19938461730E-01
2.90500000000E+09 +2.48626831927E-01 -4.38332656751E-01 -1.50888307808E-03 +1.80944652675E-03 -1.46192447146E-03 +1.88785869060E-03 +4.25253442820E-01 -3.35870220074E-01
2.91000000000E+09 +2.13334860148E-01 -4.42774206632E-01 -1.26457973053E-03 +2.12754409799E-03 -1.12774303672E-03 +2.14089114097E-03 +3.93585997800E-01 -3.49632267748E-01
2.91500000000E+09 +1.76503627103E-01 -4.45745413626E-01 -8.93296452496E-04 +2.27583081239E-03 -7.68472017859E-04 +2.19555984969E-03 +3.61985488590E-01 -3.61073175468E-01
2.92000000000E+09 +1.39513992762E-01 -4.45925429958E-01 -8.35536556766E-04 +2.53764065837E-03 -8.15568155423E-04 +2.33983289878E-03 +3.28885184953E-01 -3.71770840787E-01
2.92500000000E+09 +1.02922028346E-01 -4.44972018404E-01 -5.45433737109E-04 +3.24959387664E-03 -6.11387109743E-04 +3.03263057442E-03 +2.93268942369E-01 -3.80242669758E-01
2.93000000000E+09 +6.64688212869E-02 -4.41857224604E-01 +6.55289408938E-04 +3.30290676741E-03 +4.48344816122E-04 +3.27312434897E-03 +2.55526386792E-01 -3.86766985470E-01
2.93500000000E+09 +3.07408904835E-02 -4.36887063102E-01 +9.11126988178E-04 +3.04551875516E-03 +7.82678918073E-04 +3.07729856199E-03 +2.16722410307E-01 -3.90146242936E-01
2.94000000000E+09 -5.14576337398E-03 -4.29909811467E-01 +1.75981156913E-03 +3.01610076634E-03 +1.61722120997E-03 +3.01977426990E-03 +1.77834801417E-01 -3.91882190718E-01
2.94500000000E+09 -4.13621666324E-02 -4.19817118494E-01 +1.98650480702E-03 +2.47743486541E-03 +1.91201682562E-03 +2.52400665382E-03 +1.38794279923E-01 -3.92357836541E-01
2.95000000000E+09 -7.68367159688E-02 -4.06426426567E-01 +2.35352204362E-03 +2.16990724585E-03 +2.27164388388E-03 +2.24107692076E-03 +9.85278874672E-02 -3.90114455933E-01
2.95500000000E+09 -1.11606103741E-01 -3.89552911328E-01 +2.79730654513E-03 +1.84447111969E-03 +2.74884334220E-03 +2.00561362852E-03 +5.76213052710E-02 -3.83636399241E-01
2.96000000000E+09 -1.45232844331E-01 -3.70228746728E-01 +2.83395076581E-03 +1.35198704952E-03 +2.88283450411E-03 +1.50963510973E-03 +1.81816705944E-02 -3.73703433877E-01
2.96500000000E+09 -1.78355469661E-01 -3.47635413616E-01 +3.05314424176E-03 +1.37049553701E-03 +3.15722898768E-03 +1.33052778398E-03 -2.24257795520E-02 -3.61934377915E-01
2.97000000000E+09 -2.09343137258E-01 -3.22151941412E-01 +4.01734870789E-03 +8.68254381593E-04 +3.97318713376E-03 +7.46327958480E-04 -6.16647085880E-02 -3.46257822585E-01
2.97500000000E+09 -2.38478942375E-01 -2.95534640507E-01 +4.42762632721E-03 -5.02617182664E-04 +4.24477760137E-03 -5.43542840917E-04 -1.01221324800E-01 -3.29775907434E-01
2.98000000000E+09 -2.67298287210E-01 -2.66761033954E-01 +3.61881619628E-03 -1.70473184702E-03 +3.53787005177E-03 -1.50265311152E-03 -1.39367588829E-01 -3.08378178890E-01
2.98500000000E+09 -2.93371744510E-01 -2.35470910742E-01 +2.68769735994E-03 -1.89582892892E-03 +2.80229490662E-03 -1.79214105157E-03 -1.74896121428E-01 -2.85354350602E-01
2.99000000000E+09 -3.16629740254E-01 -2.03723680351E-01 +2.51397716223E-03 -1.83854436650E-03 +2.67160347747E-03 -1.88860858927E-03 -2.08946038703E-01 -2.59378855006E-01
2.99500000000E+09 -3.39127458143E-01 -1.72534088510E-01 +2.58392228947E-03 -2.20738336960E-03 +2.68185367932E-03 -2.33635699978E-03 -2.41289339488E-01 -2.31168422754E-01
3.00000000000E+09 -3.60537041102E-01 -1.38546516709E-01 +2.28407490668E-03 -2.87535265770E-03 +2.14722382421E-03 -3.01208542502E-03 -2.72640845264E-01 -1.99501895416E-01
3.00500000000E+09 -3.78497930168E-01 -1.03921211011E-01 +1.34083201528E-03 -3.49211857385E-03 +1.21233927493E-03 -3.39612015280E-03 -3.00860875679E-01 -1.65784586175E-01
3.01000000000E+09 -3.94538734835E-01 -6.89851917386E-02 +4.27309255483E-04 -3.13774802682E-03 +3.69796427180E-04 -3.06027482966E-03 -3.26954284731E-01 -1.30327094933E-01
3.01500000000E+09 -4.07267381069E-01 -3.33934409901E-02 +4.81277705947E-04 -2.87888090094E-03 +5.65164701207E-04 -2.76862621037E-03 -3.49418900674E-01 -9.45969884899E-02
3.02000000000E+09 -4.17237717378E-01 +1.54060680703E-03 -5.11780030235E-05 -3.25470953741E-03 +1.43722424319E-05 -3.28672161862E-03 -3.70019026877E-01 -5.76430927815E-02
3.02500000000E+09 -4.24440819729E-01 +3.63772566865E-02 -5.22612782835E-04 -3.14151786082E-03 -5.34297292636E-04 -3.15803999770E-03 -3.86954084178E-01 -1.84994661905E-02
3.03000000000E+09 -4.29116678104E-01 +7.13256562203E-02 -1.31000010793E-03 -3.02463604532E-03 -1.33624862164E-03 -2.93726962889E-03 -3.99956528803E-01 +2.04678074511E-02
3.03500000000E+09 -4.29619073643E-01 +1.06073436534E-01 -1.81674961996E-03 -2.00906887693E-03 -1.69458301020E-03 -2.10563144727E-03 -4.11069680533E-01 +5.96914147863E-02
3.04000000000E+09 -4.28470349723E-01 +1.38615222260E-01 -1.33372715235E-03 -1.79986661162E-03 -1.30619770743E-03 -1.92033583592E-03 -4.19609808706E-01 +9.95244537470E-02
3.04500000000E+09 -4.25788472491E-01 +1.72573915224E-01 -1.47887263241E-03 -1.93166126848E-03 -1.54567107553E-03 -1.98303739692E-03 -4.25273606490E-01 +1.39682932193E-01
3.05000000000E+09 -4.19380952295E-01 +2.06461198532E-01 -1.88362525045E-03 -1.82454596430E-03 -2.06223242796E-03 -1.78113612590E-03 -4.27891528882E-01 +1.78816251923E-01
3.05500000000E+09 -4.11268746332E-01 +2.39142262778E-01 -2.33431108014E-03 -1.39625707856E-03 -2.44354890613E-03 -1.25067013611E-03 -4.27910634482E-01 +2.17118178095E-01
3.06000000000E+09 -4.01332371469E-01 +2.71926690201E-01 -2.41909484706E-03 -9.10775205452E-04 -2.40908254990E-03 -7.15099568109E-04 -4.25583860504E-01 +2.54367572691E-01
3.06500000000E+09 -3.89126512680E-01 +3.03866527112E-01 -2.34285582286E-03 -3.45185031218E-04 -2.24355182606E-03 -2.50631603541E-04 -4.20650446705E-01 +2.90715539975E-01
3.07000000000E+09 -3.75748957528E-01 +3.33640273126E-01 -2.00097311762E-03 -1.28094332882E-04 -1.91263850015E-03 -1.66158106013E-04 -4.14462508922E-01 +3.25559067261E-01
