# Hz S RI R 50
! CMT, C1220, 16058040, 17.2.0/1
! Date: 15/08/2018 09:53:52
! Data: Format (Calibration Info)
! Freq                      S11: Re/Im (F2)                       S21: Re/Im (F2)                       S12: Re/Im (F2)                       S22: Re/Im (F2)            
2.50000000000E+09 +5.98561659456E-01 +6.24252989608E-01 -3.66496403315E-04 -1.02432077201E-03 -3.88512271400E-04 -1.16443673498E-03 +5.78938175453E-01 +7.12770588321E-01
2.50500000000E+09 +6.04740599428E-01 +6.17218705785E-01 -4.53376213229E-04 -9.85790497775E-04 -5.21354917449E-04 -1.02550910743E-03 +5.84616187205E-01 +7.07226249623E-01
2.51000000000E+09 +6.11272514810E-01 +6.09959514206E-01 -5.57697847128E-04 -9.77918642082E-04 -5.85352590723E-04 -8.89570335921E-04 +5.90156488244E-01 +7.01849320222E-01
2.51500000000E+09 +6.17835539274E-01 +6.02522465848E-01 -5.97816975944E-04 -9.41029627056E-04 -5.87788462217E-04 -9.12294560801E-04 +5.95228235914E-01 +6.96509417296E-01
2.52000000000E+09 +6.24071707872E-01 +5.94596292935E-01 -7.32427415514E-04 -9.77592896634E-04 -7.22729448369E-04 -9.85254742534E-04 +6.00236239019E-01 +6.90499154981E-01
2.52500000000E+09 +6.29594708728E-01 +5.86980749098E-01 -8.99329624256E-04 -8.91016648757E-04 -9.11270132919E-04 -9.18983553902E-04 +6.06027109496E-01 +6.83982285003E-01
2.53000000000E+09 +6.34770677856E-01 +5.79396415236E-01 -1.00979520379E-03 -7.18916922578E-04 -1.04483080729E-03 -7.36697834874E-04 +6.12053681392E-01 +6.76801756752E-01
2.53500000000E+09 +6.39540021264E-01 +5.72243651260E-01 -9.73611820040E-04 -6.00801976243E-04 -9.67153636084E-04 -6.33436387527E-04 +6.17878003512E-01 +6.69750785090E-01
2.54000000000E+09 +6.43979458628E-01 +5.65249902406E-01 -1.02535184576E-03 -5.98115688735E-04 -9.82682857667E-04 -6.28811588144E-04 +6.24070452509E-01 +6.63078887500E-01
2.54500000000E+09 +6.48584601127E-01 +5.58380324905E-01 -1.10287786628E-03 -5.87779994952E-04 -1.08025814229E-03 -6.69937793859E-04 +6.30005275635E-01 +6.56521477211E-01
2.55000000000E+09 +6.53249617743E-01 +5.51556665502E-01 -1.28320843181E-03 -4.57078848240E-04 -1.32772455596E-03 -6.11917971674E-04 +6.35010033628E-01 +6.50221109869E-01
2.55500000000E+09 +6.58231023301E-01 +5.44263990675E-01 -1.32039989938E-03 -2.42551158083E-04 -1.50262516508E-03 -3.01127051408E-04 +6.39947969183E-01 +6.43876218101E-01
2.56000000000E+09 +6.63903225048E-01 +5.37192807032E-01 -1.22589233218E-03 -9.59819227637E-05 -1.50416899444E-03 -5.01854919249E-06 +6.45182864261E-01 +6.36674093028E-01
2.56500000000E+09 +6.70031293648E-01 +5.29226384293E-01 -1.15176267468E-03 -4.26341789975E-05 -1.25615163502E-03 +1.67776752865E-04 +6.50395095535E-01 +6.28964443871E-01
2.57000000000E+09 +6.76409812752E-01 +5.21203668642E-01 -1.18419428739E-03 -2.06343153814E-04 -1.21931198998E-03 +7.60354309075E-05 +6.56069745932E-01 +6.20798195136E-01
2.57500000000E+09 +6.82750303476E-01 +5.12379135543E-01 -1.62580643575E-03 -7.70448239072E-05 -1.37747146385E-03 +1.97416654489E-04 +6.61622098543E-01 +6.12768817092E-01
2.58000000000E+09 +6.88646568184E-01 +5.03665623763E-01 -1.61518299011E-03 +3.71876225108E-04 -1.32255661395E-03 +3.81836803374E-04 +6.66655410640E-01 +6.05227365732E-01
2.58500000000E+09 +6.94189045299E-01 +4.94804646931E-01 -1.38246215083E-03 +6.04079489431E-04 -1.20189904942E-03 +4.65197082528E-04 +6.71390405434E-01 +5.97706793540E-01
2.59000000000E+09 +6.99247157573E-01 +4.86058390553E-01 -1.29439625908E-03 +5.66534622649E-04 -1.22583813600E-03 +4.33591573680E-04 +6.76031007568E-01 +5.90150361559E-01
2.59500000000E+09 +7.03900457679E-01 +4.77321194308E-01 -1.29509675716E-03 +6.13890025476E-04 -1.29934855464E-03 +5.19694998915E-04 +6.80714059255E-01 +5.81851110805E-01
2.60000000000E+09 +7.08421665020E-01 +4.68473438122E-01 -1.29447915881E-03 +6.02056114739E-04 -1.34439182624E-03 +6.02306755992E-04 +6.85289325227E-01 +5.73168805705E-01
2.60500000000E+09 +7.12719416987E-01 +4.59089321522E-01 -1.54579364259E-03 +8.81660423663E-04 -1.54147785777E-03 +8.24099814628E-04 +6.90235981120E-01 +5.64314175748E-01
2.61000000000E+09 +7.16888534487E-01 +4.49230936447E-01 -1.41908479938E-03 +1.38189467143E-03 -1.43779623535E-03 +1.32889173850E-03 +6.95160006408E-01 +5.55372195047E-01
2.61500000000E+09 +7.21401885776E-01 +4.38687424522E-01 -9.29964386439E-04 +1.53350232922E-03 -1.00057701221E-03 +1.55250429805E-03 +6.99724663643E-01 +5.46838687148E-01
2.62000000000E+09 +7.25699718696E-01 +4.27320826593E-01 -7.65724079618E-04 +1.38226205140E-03 -7.90990451300E-04 +1.47628235645E-03 +7.04688069293E-01 +5.37829101426E-01
2.62500000000E+09 +7.29800892451E-01 +4.15240313443E-01 -7.06323390522E-04 +1.37871084949E-03 -6.19399484428E-04 +1.52074715020E-03 +7.08969264364E-01 +5.28988245941E-01
2.63000000000E+09 +7.33980032261E-01 +4.02707605651E-01 -6.32210700809E-04 +1.43263490586E-03 -4.75733235912E-04 +1.45893357598E-03 +7.13351584833E-01 +5.20425996231E-01
2.63500000000E+09 +7.37464225593E-01 +3.89934001574E-01 -7.71065303953E-04 +1.48308998601E-03 -5.28043181918E-04 +1.36539566859E-03 +7.18241495753E-01 +5.11219661394E-01
2.64000000000E+09 +7.40959651978E-01 +3.77498296320E-01 -5.94406139109E-04 +1.86913761462E-03 -4.48202732387E-04 +1.59886804800E-03 +7.23034709852E-01 +5.01460489495E-01
2.64500000000E+09 +7.44479955993E-01 +3.65414887560E-01 -2.51546625708E-04 +1.79591153447E-03 -3.12504995943E-04 +1.56562426391E-03 +7.27606307745E-01 +4.91539966838E-01
2.65000000000E+09 +7.47654835717E-01 +3.53520054878E-01 -8.36545022076E-05 +1.84895983575E-03 -3.27709795891E-04 +1.69345938538E-03 +7.31904326924E-01 +4.81334325671E-01
2.65500000000E+09 +7.50727192696E-01 +3.41546759712E-01 -6.70573500239E-06 +1.74047004148E-03 -1.79779423393E-04 +1.81005443052E-03 +7.35660800383E-01 +4.71443829591E-01
2.66000000000E+09 +7.53713675879E-01 +3.29423954415E-01 +2.97550542491E-05 +1.83708575989E-03 +1.48536549324E-05 +2.00650337354E-03 +7.40017321687E-01 +4.60685126677E-01
2.66500000000E+09 +7.56361719466E-01 +3.17666823659E-01 +1.95583212023E-04 +1.92254968332E-03 +3.46704484463E-04 +1.93077475702E-03 +7.44624131654E-01 +4.49273394298E-01
2.67000000000E+09 +7.58732137779E-01 +3.04965602642E-01 +3.75050586848E-04 +2.00048338679E-03 +5.25060922281E-04 +1.97592655432E-03 +7.48787115010E-01 +4.37885450727E-01
2.67500000000E+09 +7.60873989868E-01 +2.91803110578E-01 +7.32043721689E-04 +1.98852055304E-03 +7.46746070866E-04 +1.83123887195E-03 +7.52777850392E-01 +4.26340235852E-01
2.68000000000E+09 +7.62190130627E-01 +2.77924248608E-01 +8.14111863433E-04 +1.78293689293E-03 +7.63216110722E-04 +1.71879428761E-03 +7.56405546597E-01 +4.14996066402E-01
2.68500000000E+09 +7.62869407321E-01 +2.63945018794E-01 +8.41950439872E-04 +1.88596058611E-03 +7.81847550495E-04 +1.84041510296E-03 +7.59243242106E-01 +4.03608230941E-01
2.69000000000E+09 +7.63429864798E-01 +2.50195383974E-01 +1.17770500469E-03 +2.04195530021E-03 +1.12407734629E-03 +2.01509705799E-03 +7.62003966336E-01 +3.91458599760E-01
2.69500000000E+09 +7.64239156232E-01 +2.36151441127E-01 +1.43436674971E-03 +1.90451299683E-03 +1.43929466790E-03 +1.88883260506E-03 +7.64379138778E-01 +3.78621421534E-01
2.70000000000E+09 +7.64745547565E-01 +2.21754964883E-01 +1.73254192569E-03 +1.84306632732E-03 +1.59746262838E-03 +1.75008086734E-03 +7.66898126362E-01 +3.65289407141E-01
2.70500000000E+09 +7.65059729570E-01 +2.07740588520E-01 +2.11832504165E-03 +1.56757919175E-03 +1.98411660029E-03 +1.55797411898E-03 +7.69563002857E-01 +3.51903680346E-01
2.71000000000E+09 +7.65625419930E-01 +1.93842987421E-01 +2.15377632386E-03 +1.23151717912E-03 +2.07451305258E-03 +1.31324200753E-03 +7.72459896586E-01 +3.38714633619E-01
2.71500000000E+09 +7.66653544232E-01 +1.79553610431E-01 +2.08981008982E-03 +1.05994997366E-03 +2.18648035201E-03 +1.11170845464E-03 +7.74688412702E-01 +3.25640416231E-01
2.72000000000E+09 +7.67480733289E-01 +1.64621645530E-01 +2.12234100549E-03 +1.05670490160E-03 +2.33359633852E-03 +9.20220506187E-04 +7.76181870703E-01 +3.12895140394E-01
2.72500000000E+09 +7.67687306779E-01 +1.49005781752E-01 +2.38854893636E-03 +9.48493364657E-04 +2.48083359752E-03 +7.08657108415E-04 +7.76916491107E-01 +3.00003601535E-01
2.73000000000E+09 +7.66859417802E-01 +1.33140892817E-01 +2.57751488655E-03 +7.63961517246E-04 +2.44809130735E-03 +5.24353568356E-04 +7.78241098598E-01 +2.86557115096E-01
2.73500000000E+09 +7.65335697886E-01 +1.16913350103E-01 +2.75891857123E-03 +4.98513262940E-04 +2.42657778662E-03 +4.31409221265E-04 +7.79390203780E-01 +2.71739164884E-01
2.74000000000E+09 +7.62827694659E-01 +1.00442921281E-01 +2.97635420062E-03 +2.58827282223E-04 +2.58851543484E-03 +4.92211163443E-04 +7.80748188052E-01 +2.56214990548E-01
2.74500000000E+09 +7.59616530016E-01 +8.39315475986E-02 +3.05577669093E-03 -1.07198887575E-05 +2.94867457532E-03 +3.55173005571E-04 +7.81463767021E-01 +2.40998936630E-01
2.75000000000E+09 +7.55652189650E-01 +6.72858236164E-02 +3.27477231083E-03 -4.14358215833E-04 +3.50538544661E-03 -1.53754932259E-05 +7.82312644445E-01 +2.25965105855E-01
2.75500000000E+09 +7.50961426946E-01 +5.03318032086E-02 +3.16198914823E-03 -8.81427404275E-04 +3.45262311481E-03 -7.06050955587E-04 +7.81922378528E-01 +2.11097084056E-01
2.76000000000E+09 +7.45709588236E-01 +3.35231296557E-02 +3.03972694476E-03 -1.02376868086E-03 +3.28751729461E-03 -1.10177920656E-03 +7.81384608473E-01 +1.96032118530E-01
2.76500000000E+09 +7.40332914150E-01 +1.68773355015E-02 +3.20406418701E-03 -1.30817630696E-03 +3.34652653550E-03 -1.37421055873E-03 +7.80485375286E-01 +1.79422997429E-01
2.77000000000E+09 +7.35469839757E-01 -4.78648551103E-04 +3.34208080911E-03 -1.84394751558E-03 +3.47273612103E-03 -1.93081329771E-03 +7.78981627832E-01 +1.61643444477E-01
2.77500000000E+09 +7.30356839847E-01 -1.88715994261E-02 +3.05858272204E-03 -2.42144210769E-03 +3.01887766129E-03 -2.63559194911E-03 +7.76337865584E-01 +1.43441250974E-01
2.78000000000E+09 +7.25059513498E-01 -3.79278622806E-02 +2.60497769307E-03 -2.70724131204E-03 +2.45599390226E-03 -2.88606852236E-03 +7.74564924090E-01 +1.25665620145E-01
2.78500000000E+09 +7.18376669864E-01 -5.76357027144E-02 +2.26371988132E-03 -2.75625232236E-03 +2.04340862487E-03 -2.91076938325E-03 +7.72049704875E-01 +1.07863097531E-01
2.79000000000E+09 +7.11095545431E-01 -7.74967894128E-02 +2.39049449352E-03 -2.91869768468E-03 +2.05443611547E-03 -2.94409909443E-03 +7.69007223752E-01 +9.04127331704E-02
2.79500000000E+09 +7.02845001393E-01 -9.67514843964E-02 +2.29951789530E-03 -3.69205207057E-03 +2.03644619791E-03 -3.50485613192E-03 +7.64267178943E-01 +7.25393395494E-02
2.80000000000E+09 +6.94069037172E-01 -1.16127044180E-01 +1.64939493970E-03 -4.05438232843E-03 +1.68098812407E-03 -3.82311495560E-03 +7.58585489415E-01 +5.49529708824E-02
2.80500000000E+09 +6.83959906411E-01 -1.35038914920E-01 +1.06109715903E-03 -4.26716705332E-03 +1.18912458310E-03 -4.11653087400E-03 +7.53170011358E-01 +3.71555194704E-02
2.81000000000E+09 +6.72428106087E-01 -1.52974638135E-01 +7.90243609548E-04 -4.25291195224E-03 +8.75312904632E-04 -4.34741107091E-03 +7.47415923181E-01 +1.74094016916E-02
2.81500000000E+09 +6.60146213221E-01 -1.69667934795E-01 +2.93772865147E-04 -4.56113697407E-03 +1.87594062935E-04 -4.62564246477E-03 +7.40372051015E-01 -2.69337094813E-03
2.82000000000E+09 +6.47373420944E-01 -1.86507138790E-01 -1.16152630907E-04 -4.80474338684E-03 -3.07794338926E-04 -4.71184023299E-03 +7.32413813029E-01 -2.24950298768E-02
2.82500000000E+09 +6.33083822910E-01 -2.03235480637E-01 -9.15105456692E-04 -5.17106906531E-03 -1.04821652603E-03 -4.85326678183E-03 +7.23914580002E-01 -4.15698092874E-02
2.83000000000E+09 +6.17323316298E-01 -2.20848229000E-01 -1.97089233874E-03 -4.70094389855E-03 -1.77269902389E-03 -4.37546990759E-03 +7.14899891068E-01 -6.09587297402E-02
2.83500000000E+09 +5.99499478414E-01 -2.38631209318E-01 -2.17614300008E-03 -4.13208009191E-03 -1.95303198641E-03 -3.98885346008E-03 +7.05384963136E-01 -8.11240000067E-02
2.84000000000E+09 +5.79330129463E-01 -2.55951623995E-01 -2.23950945040E-03 -4.05443514461E-03 -2.02596004311E-03 -4.11309852605E-03 +6.93934591306E-01 -1.02588205122E-01
2.84500000000E+09 +5.58203796501E-01 -2.72616638358E-01 -2.79592772283E-03 -4.21177437978E-03 -2.71716958816E-03 -4.35759169171E-03 +6.80939496003E-01 -1.23662580177E-01
2.85000000000E+09 +5.35867520067E-01 -2.89751242921E-01 -3.39371958000E-03 -4.15300424203E-03 -3.38594450376E-03 -4.23736326092E-03 +6.66815642411E-01 -1.44299619605E-01
2.85500000000E+09 +5.12121488395E-01 -3.06297694439E-01 -4.35837457184E-03 -3.63823687904E-03 -4.27939305149E-03 -3.59133573874E-03 +6.52504728676E-01 -1.64853936735E-01
2.86000000000E+09 +4.88043455684E-01 -3.22047244948E-01 -4.70025758733E-03 -3.05456392610E-03 -4.63569968856E-03 -3.06228999576E-03 +6.36061813017E-01 -1.86757046571E-01
2.86500000000E+09 +4.62954460100E-01 -3.37666906680E-01 -5.21488792243E-03 -2.27453470378E-03 -5.19698807867E-03 -2.36305611848E-03 +6.17530909147E-01 -2.07151210938E-01
2.87000000000E+09 +4.36412634371E-01 -3.51269188278E-01 -5.25458632031E-03 -1.40323390075E-03 -5.32195277649E-03 -1.50868174711E-03 +5.97813907068E-01 -2.26884700087E-01
2.87500000000E+09 +4.10504128141E-01 -3.62790872662E-01 -5.06825516836E-03 -9.71998865666E-04 -5.10826355454E-03 -8.51558889945E-04 +5.77681389724E-01 -2.45863625032E-01
2.88000000000E+09 +3.84893434626E-01 -3.73542087556E-01 -5.10139297601E-03 -7.89426245119E-04 -4.98058855307E-03 -5.70504401888E-04 +5.56147797600E-01 -2.65150159168E-01
2.88500000000E+09 +3.58404522136E-01 -3.83378376371E-01 -5.60526613959E-03 -3.78508542082E-04 -5.33418728213E-03 -3.45628476905E-04 +5.32951041688E-01 -2.84085959146E-01
2.89000000000E+09 +3.30608814128E-01 -3.91442904437E-01 -5.59795372428E-03 +4.86600024081E-04 -5.30941064207E-03 +3.15924293259E-04 +5.06836556110E-01 -3.02159115117E-01
2.89500000000E+09 +3.01779342369E-01 -3.98086820418E-01 -5.56174654715E-03 +9.69666633434E-04 -5.52069397456E-03 +6.78841406492E-04 +4.78700142969E-01 -3.19253557393E-01
2.90000000000E+09 +2.71226203164E-01 -4.02975903344E-01 -5.64540896275E-03 +1.62052231404E-03 -5.82191420719E-03 +1.43085053311E-03 +4.49534946257E-01 -3.34145811959E-01
2.90500000000E+09 +2.38899586304E-01 -4.05434034350E-01 -5.49171541865E-03 +2.39968618452E-03 -5.64202845946E-03 +2.50658859637E-03 +4.20502952841E-01 -3.48800356833E-01
2.91000000000E+09 +2.05237898956E-01 -4.05642830527E-01 -5.11646045640E-03 +3.14660104974E-03 -5.07573970779E-03 +3.32809730498E-03 +3.89174504359E-01 -3.63235167541E-01
2.91500000000E+09 +1.71204737804E-01 -4.02123347080E-01 -4.38755579519E-03 +3.73194768097E-03 -4.15952848143E-03 +3.76158579155E-03 +3.56008357853E-01 -3.74964461976E-01
2.92000000000E+09 +1.37557761659E-01 -3.96473340528E-01 -3.86092811180E-03 +3.60462375903E-03 -3.69121805388E-03 +3.48131282325E-03 +3.21962993633E-01 -3.83519759227E-01
2.92500000000E+09 +1.05620242368E-01 -3.89466133707E-01 -3.94237806955E-03 +3.47917977807E-03 -3.89301635072E-03 +3.24340928131E-03 +2.87103870939E-01 -3.91110664558E-01
2.93000000000E+09 +7.31860614162E-02 -3.82579872919E-01 -4.39078268292E-03 +4.23431399365E-03 -4.49984601966E-03 +4.05662809640E-03 +2.50566270208E-01 -3.96779660246E-01
2.93500000000E+09 +3.95885171623E-02 -3.73529742047E-01 -3.75094222190E-03 +5.51896811353E-03 -3.94179726038E-03 +5.46699505337E-03 +2.11904579844E-01 -4.01745214266E-01
2.94000000000E+09 +6.24951394796E-03 -3.61146797745E-01 -2.64703922043E-03 +5.92129162179E-03 -2.66413448851E-03 +5.90317382963E-03 +1.71806921628E-01 -4.02730141962E-01
2.94500000000E+09 -2.56934026086E-02 -3.45533642336E-01 -2.21593006157E-03 +5.70808818145E-03 -2.22281238553E-03 +5.65513775976E-03 +1.32980254887E-01 -4.01596906140E-01
2.95000000000E+09 -5.52073321968E-02 -3.27612779030E-01 -2.01623747538E-03 +6.42714415262E-03 -2.12778832956E-03 +6.33098573601E-03 +9.46218779500E-02 -3.98315059214E-01
2.95500000000E+09 -8.26092909476E-02 -3.08510277064E-01 -9.50129445521E-04 +6.75074974186E-03 -1.21342142687E-03 +6.76885320667E-03 +5.54353529103E-02 -3.93651116560E-01
2.96000000000E+09 -1.10610941440E-01 -2.87886449245E-01 -3.17966542883E-04 +6.88215222072E-03 -4.15140062057E-04 +7.14978171005E-03 +1.41822720375E-02 -3.85203536813E-01
2.96500000000E+09 -1.36788968770E-01 -2.64083645469E-01 +3.60235118144E-04 +6.94244599280E-03 +4.52719760906E-04 +7.10355138045E-03 -2.78507459370E-02 -3.72616131018E-01
2.97000000000E+09 -1.62131403131E-01 -2.37663099196E-01 +9.61432946460E-04 +7.03470699670E-03 +1.08630464561E-03 +6.91358338231E-03 -6.83728892524E-02 -3.55875252591E-01
2.97500000000E+09 -1.84848728976E-01 -2.08753662110E-01 +1.35084849713E-03 +7.79888853140E-03 +1.37207555817E-03 +7.56505408186E-03 -1.07673011334E-01 -3.37280059759E-01
2.98000000000E+09 -2.05706863631E-01 -1.79045539019E-01 +3.51594015857E-03 +8.03381759658E-03 +3.14530231018E-03 +7.93675857765E-03 -1.44794864464E-01 -3.16331131655E-01
2.98500000000E+09 -2.24836388722E-01 -1.48442545752E-01 +4.67131375840E-03 +6.97019132917E-03 +4.35918823133E-03 +7.26793869674E-03 -1.81493923618E-01 -2.94025980792E-01
2.99000000000E+09 -2.42662438020E-01 -1.17594322567E-01 +5.29682201917E-03 +6.09194831189E-03 +5.36639744302E-03 +6.44330876007E-03 -2.17096374019E-01 -2.66292619717E-01
2.99500000000E+09 -2.59025713645E-01 -8.57438164174E-02 +5.74074225291E-03 +5.76120134298E-03 +6.06961652156E-03 +5.92148941362E-03 -2.48574736861E-01 -2.35763151976E-01
3.00000000000E+09 -2.73372666193E-01 -5.30298001882E-02 +6.40284916287E-03 +5.58551770334E-03 +6.58615364320E-03 +5.34242471304E-03 -2.78708528457E-01 -2.04551703992E-01
3.00500000000E+09 -2.84352973053E-01 -2.07873254908E-02 +8.16654218776E-03 +5.53330949386E-03 +7.93429954881E-03 +5.18445172708E-03 -3.07826250564E-01 -1.70218721743E-01
3.01000000000E+09 -2.92929532633E-01 +1.05042837000E-02 +9.79073507726E-03 +3.03590157002E-03 +9.35102953866E-03 +3.14093216389E-03 -3.32658727179E-01 -1.34542696220E-01
3.01500000000E+09 -2.99716224006E-01 +4.07546678801E-02 +9.28530898886E-03 +1.04266955696E-03 +9.20362217311E-03 +1.40259288389E-03 -3.55864636755E-01 -9.79051323768E-02
3.02000000000E+09 -3.04366082576E-01 +7.13191886616E-02 +8.76119956109E-03 -1.72126712304E-04 +8.99186577264E-03 +1.19518140811E-04 -3.74574091918E-01 -5.97088363214E-02
3.02500000000E+09 -3.05931668802E-01 +1.02284564325E-01 +8.47044818773E-03 -5.56321700742E-04 +8.67377795693E-03 -5.48234280395E-04 -3.89731543782E-01 -2.18082703356E-02
3.03000000000E+09 -3.03662329639E-01 +1.32596032270E-01 +8.68673848631E-03 -1.55384929009E-03 +8.78605493692E-03 -1.52308933530E-03 -4.04311599625E-01 +1.63854462375E-02
3.03500000000E+09 -2.99322295998E-01 +1.60892397431E-01 +8.85035162830E-03 -2.69418383996E-03 +8.94528697706E-03 -2.55558111649E-03 -4.16040099409E-01 +5.77885869391E-02
3.04000000000E+09 -2.93152245138E-01 +1.90408402251E-01 +8.40249626849E-03 -4.55324764331E-03 +8.84846806260E-03 -4.49995814839E-03 -4.23018158568E-01 +9.88019761550E-02
3.04500000000E+09 -2.84739582494E-01 +2.17467778170E-01 +6.98065048976E-03 -5.50160185120E-03 +7.49267037463E-03 -5.75904685842E-03 -4.27615685786E-01 +1.38673550899E-01
3.05000000000E+09 -2.75955466169E-01 +2.45043749877E-01 +6.32579052987E-03 -6.06605492686E-03 +6.48912987610E-03 -6.71178485960E-03 -4.29877733345E-01 +1.77134245689E-01
3.05500000000E+09 -2.65474022659E-01 +2.72480866388E-01 +5.58593597925E-03 -6.58916536704E-03 +5.20994050822E-03 -7.18353360307E-03 -4.31240728920E-01 +2.15722243034E-01
3.06000000000E+09 -2.53538976381E-01 +2.99190277681E-01 +4.63128050117E-03 -7.87610333247E-03 +4.09678896657E-03 -7.86346644080E-03 -4.28408263919E-01 +2.54920901357E-01
3.06500000000E+09 -2.40621971993E-01 +3.23956558236E-01 +2.93208477738E-03 -8.39901238763E-03 +2.77871081646E-03 -7.97261617382E-03 -4.22221698895E-01 +2.92175354118E-01
3.07000000000E+09 -2.27943965087E-01 +3.47594533288E-01 +1.17157855363E-03 -8.11873603539E-03 +1.57933038685E-03 -7.97057089687E-03 -4.14340918615E-01 +3.26424773805E-01
