# Hz S RI R 50
! CMT, C1220, 16058040, 17.2.0/1
! Date: 15/08/2018 10:40:33
! Data: Format (Calibration Info)
! Freq                      S11: Re/Im (F2)                       S21: Re/Im (F2)                       S12: Re/Im (F2)                       S22: Re/Im (F2)            
2.50000000000E+09 +5.93084213467E-01 +6.49688973620E-01 -1.39790907751E-04 -3.02225439655E-04 -1.65371875803E-04 -3.37769304840E-04 +5.64155859061E-01 +7.25342526305E-01
2.50500000000E+09 +6.00008674103E-01 +6.41521259262E-01 -2.07257846432E-04 -2.96756440532E-04 -2.25473838906E-04 -3.19111094644E-04 +5.70255960689E-01 +7.19708294252E-01
2.51000000000E+09 +6.07560563039E-01 +6.33262843682E-01 -2.32773206074E-04 -3.09185703083E-04 -2.30982625473E-04 -2.83680299552E-04 +5.76128316174E-01 +7.14458151929E-01
2.51500000000E+09 +6.15387061879E-01 +6.25431551737E-01 -2.23424067468E-04 -2.70606172935E-04 -2.27876001742E-04 -2.89674680358E-04 +5.81607313698E-01 +7.08998140626E-01
2.52000000000E+09 +6.22398305019E-01 +6.17863888093E-01 -3.20862746469E-04 -2.74902970175E-04 -3.12778201267E-04 -3.02652064252E-04 +5.86996432627E-01 +7.02958804860E-01
2.52500000000E+09 +6.28223518474E-01 +6.11464898778E-01 -3.59942117376E-04 -2.71656350417E-04 -3.64715040127E-04 -3.06808080832E-04 +5.93014645798E-01 +6.96405855136E-01
2.53000000000E+09 +6.33087102493E-01 +6.05661300621E-01 -4.04155065805E-04 -2.19288994734E-04 -4.07227186467E-04 -2.79090876303E-04 +5.99396416804E-01 +6.89229282979E-01
2.53500000000E+09 +6.37113728569E-01 +6.00374814584E-01 -4.95595653250E-04 -2.07802194637E-04 -5.51248001101E-04 -1.66534407534E-04 +6.05358293751E-01 +6.82218478726E-01
2.54000000000E+09 +6.40368968399E-01 +5.94480120949E-01 -5.41252199812E-04 -1.48128893594E-04 -5.30864453412E-04 -1.19569910434E-04 +6.11212221196E-01 +6.75365406394E-01
2.54500000000E+09 +6.43799011339E-01 +5.88321675481E-01 -5.62017156216E-04 +2.43309328926E-05 -6.27055314637E-04 -8.66853683244E-06 +6.16568040078E-01 +6.69028962503E-01
2.55000000000E+09 +6.48238475671E-01 +5.80771144558E-01 -5.70177021977E-04 +7.62997977834E-05 -6.26590373783E-04 +4.98330398779E-05 +6.21767619541E-01 +6.62901780333E-01
2.55500000000E+09 +6.53569109972E-01 +5.71910964430E-01 -4.79919796840E-04 +1.66925379396E-04 -5.63827743106E-04 +1.30860936247E-04 +6.26795859418E-01 +6.56443090339E-01
2.56000000000E+09 +6.60169435482E-01 +5.62178316994E-01 -3.99209118880E-04 +1.46482410330E-04 -4.17534050744E-04 +2.03110811097E-04 +6.31788178982E-01 +6.49474687805E-01
2.56500000000E+09 +6.67595474922E-01 +5.51759379452E-01 -5.27283947417E-04 +1.80131161342E-05 -5.42734588168E-04 +1.52303303328E-04 +6.37141689156E-01 +6.41933096848E-01
2.57000000000E+09 +6.75187788689E-01 +5.41663849394E-01 -5.31077741375E-04 +1.74507463696E-04 -5.00687793843E-04 +2.50202450434E-04 +6.42263247060E-01 +6.34196793226E-01
2.57500000000E+09 +6.82669006368E-01 +5.32396399149E-01 -5.39507661011E-04 +2.05401415674E-04 -4.40493306870E-04 +2.89003294378E-04 +6.47614143401E-01 +6.26832908369E-01
2.58000000000E+09 +6.89241914251E-01 +5.24221050421E-01 -5.27464658619E-04 +2.30101336230E-04 -4.31089990155E-04 +2.25957953912E-04 +6.52730069002E-01 +6.19712154723E-01
2.58500000000E+09 +6.94526362457E-01 +5.17139582824E-01 -6.08379873435E-04 +2.81079434236E-04 -4.94043748279E-04 +2.33107095983E-04 +6.57906166400E-01 +6.12493011531E-01
2.59000000000E+09 +6.98591594535E-01 +5.11235279272E-01 -5.99921428502E-04 +4.35101604899E-04 -5.69020155832E-04 +3.37419960205E-04 +6.62983164878E-01 +6.05138263487E-01
2.59500000000E+09 +7.01922690515E-01 +5.05444319407E-01 -5.76571887348E-04 +5.93893378265E-04 -6.05680321574E-04 +4.85650893205E-04 +6.68272552998E-01 +5.97371929368E-01
2.60000000000E+09 +7.04283342230E-01 +4.98646225274E-01 -4.38362263513E-04 +6.34305452481E-04 -4.62293717967E-04 +5.77316044356E-04 +6.73862601486E-01 +5.89172316508E-01
2.60500000000E+09 +7.06991252962E-01 +4.90430363466E-01 -4.57196178210E-04 +5.99959597923E-04 -4.52183420946E-04 +6.15285780185E-04 +6.79754363931E-01 +5.80269462769E-01
2.61000000000E+09 +7.09971219561E-01 +4.80226773844E-01 -4.75141949295E-04 +7.39776814249E-04 -4.34270877272E-04 +7.02037081976E-04 +6.85078583079E-01 +5.71347200034E-01
2.61500000000E+09 +7.13924049550E-01 +4.67919843310E-01 -2.82851186287E-04 +8.23630766959E-04 -3.30657783327E-04 +8.00395293440E-04 +6.90232018395E-01 +5.62593180685E-01
2.62000000000E+09 +7.18612513389E-01 +4.53508239572E-01 -2.65890430250E-04 +7.70208634331E-04 -2.37394259847E-04 +7.44520610733E-04 +6.95385413773E-01 +5.53483101234E-01
2.62500000000E+09 +7.23951571794E-01 +4.38198216497E-01 -2.98285870247E-04 +8.72161765241E-04 -2.46206283190E-04 +9.37428289575E-04 +7.00457418384E-01 +5.44275874863E-01
2.63000000000E+09 +7.29538531059E-01 +4.22919587125E-01 -1.81365293790E-04 +1.04209961703E-03 -6.92210917448E-05 +1.06645974993E-03 +7.05129615390E-01 +5.34713591872E-01
2.63500000000E+09 +7.34626568820E-01 +4.08698426314E-01 -1.09399331887E-04 +1.04306672414E-03 +4.55716392660E-06 +9.46045035781E-04 +7.09575971792E-01 +5.25260998554E-01
2.64000000000E+09 +7.39256244582E-01 +3.96370062812E-01 +9.33443646714E-05 +1.25467199523E-03 +7.24082611745E-05 +1.07391078517E-03 +7.14125551356E-01 +5.15502212170E-01
2.64500000000E+09 +7.43336996336E-01 +3.85997702295E-01 +4.22399320584E-04 +1.25411527005E-03 +2.85951067425E-04 +1.10224137043E-03 +7.18577196843E-01 +5.05577167484E-01
2.65000000000E+09 +7.46189539650E-01 +3.77115278813E-01 +5.73470281694E-04 +1.02085676564E-03 +4.10252007092E-04 +1.04769664084E-03 +7.22698605858E-01 +4.95319624512E-01
2.65500000000E+09 +7.48322770921E-01 +3.68730563819E-01 +5.05318310683E-04 +9.17556997851E-04 +4.55847015963E-04 +1.02791412799E-03 +7.26329194675E-01 +4.84789073774E-01
2.66000000000E+09 +7.50129953993E-01 +3.60448107289E-01 +5.16139786673E-04 +1.02769024145E-03 +5.45423678843E-04 +1.10540359155E-03 +7.30431085279E-01 +4.73660093480E-01
2.66500000000E+09 +7.51626714895E-01 +3.51224182275E-01 +6.52179052259E-04 +1.20369538228E-03 +7.63890440949E-04 +1.18899174207E-03 +7.34394189170E-01 +4.62594731388E-01
2.67000000000E+09 +7.53147737562E-01 +3.39587549379E-01 +1.00985524601E-03 +1.12210694013E-03 +1.04689122202E-03 +1.06105336623E-03 +7.38556967700E-01 +4.51742858994E-01
2.67500000000E+09 +7.54636650300E-01 +3.25975387504E-01 +1.21980092862E-03 +9.55148065983E-04 +1.19254704843E-03 +9.09314310188E-04 +7.42582736602E-01 +4.40895206675E-01
2.68000000000E+09 +7.56327604826E-01 +3.10316640653E-01 +1.38069370176E-03 +6.91674550481E-04 +1.35483344535E-03 +6.87481181338E-04 +7.46509793492E-01 +4.29987789239E-01
2.68500000000E+09 +7.57782773059E-01 +2.93544142017E-01 +1.28609107170E-03 +5.72476235391E-04 +1.22875877329E-03 +5.95172095929E-04 +7.49550317792E-01 +4.18720211786E-01
2.69000000000E+09 +7.59335134072E-01 +2.76427241860E-01 +1.35319515695E-03 +6.03321585647E-04 +1.39108124181E-03 +5.79176308140E-04 +7.52288146014E-01 +4.07129515272E-01
2.69500000000E+09 +7.60993476568E-01 +2.60041299687E-01 +1.56399753658E-03 +6.02927251314E-04 +1.56545541514E-03 +5.79008092238E-04 +7.55259877807E-01 +3.94813110985E-01
2.70000000000E+09 +7.62548969361E-01 +2.44274090986E-01 +1.88356519218E-03 +3.36885313108E-04 +1.78064109278E-03 +3.72694837273E-04 +7.58561983234E-01 +3.81623430894E-01
2.70500000000E+09 +7.63772556486E-01 +2.29890809379E-01 +1.99542147626E-03 +3.05558195733E-05 +2.00393169345E-03 +5.92881330280E-05 +7.61387551316E-01 +3.68405844249E-01
2.71000000000E+09 +7.64770320014E-01 +2.16301356504E-01 +2.02222207119E-03 -4.47242656819E-04 +2.07928976768E-03 -3.47645006537E-04 +7.64484464434E-01 +3.55426654032E-01
2.71500000000E+09 +7.65237783653E-01 +2.02839068485E-01 +1.79190703778E-03 -8.12509051387E-04 +1.94144631576E-03 -8.38085811972E-04 +7.67158729877E-01 +3.42830081315E-01
2.72000000000E+09 +7.65240450918E-01 +1.89526153055E-01 +1.54427220864E-03 -7.52204353194E-04 +1.62319674210E-03 -9.64082340911E-04 +7.69123534629E-01 +3.30248296635E-01
2.72500000000E+09 +7.64946929996E-01 +1.75180167943E-01 +1.71643793583E-03 -8.70301253348E-04 +1.57776942569E-03 -1.00055150227E-03 +7.70644189296E-01 +3.16773147014E-01
2.73000000000E+09 +7.63908442437E-01 +1.59558056176E-01 +1.72777438984E-03 -1.30048951626E-03 +1.43886954988E-03 -1.36655596703E-03 +7.72100267295E-01 +3.02766984497E-01
2.73500000000E+09 +7.61986739790E-01 +1.42643192248E-01 +1.32623000885E-03 -1.53756101360E-03 +1.16966139943E-03 -1.33783021319E-03 +7.73751018146E-01 +2.87811651385E-01
2.74000000000E+09 +7.59582904498E-01 +1.25038916089E-01 +1.17282766989E-03 -1.50047027834E-03 +1.10853684417E-03 -1.23703736378E-03 +7.75380704995E-01 +2.72457202390E-01
2.74500000000E+09 +7.56011436833E-01 +1.06471684953E-01 +1.27633840305E-03 -1.59340886261E-03 +1.34655250562E-03 -1.38385995554E-03 +7.76832019871E-01 +2.56772539628E-01
2.75000000000E+09 +7.51503649374E-01 +8.80823237474E-02 +1.26200843677E-03 -1.97843215876E-03 +1.50403143981E-03 -1.90275425809E-03 +7.77445946871E-01 +2.40896618504E-01
2.75500000000E+09 +7.46442732578E-01 +7.01615251383E-02 +8.94454076309E-04 -2.36459315785E-03 +1.10987775541E-03 -2.49001683832E-03 +7.76992850326E-01 +2.25288574825E-01
2.76000000000E+09 +7.41195301646E-01 +5.26486040186E-02 +3.49800137203E-04 -2.65985563483E-03 +4.51113555632E-04 -2.78161625368E-03 +7.75916681803E-01 +2.10031772011E-01
2.76500000000E+09 +7.35521107419E-01 +3.50741243201E-02 -1.17124562685E-04 -2.41322505085E-03 -1.77712772453E-04 -2.56761577159E-03 +7.74914195928E-01 +1.93550464342E-01
2.77000000000E+09 +7.29415930778E-01 +1.67261403234E-02 -3.90311984706E-04 -2.26538670070E-03 -4.21722067532E-04 -2.35898177228E-03 +7.73392574776E-01 +1.76115249335E-01
2.77500000000E+09 +7.22753966194E-01 -2.25242400781E-03 -6.16347625126E-04 -2.13982756088E-03 -7.19948192767E-04 -2.23060527332E-03 +7.71235941723E-01 +1.58515746663E-01
2.78000000000E+09 +7.15797174523E-01 -2.20669514733E-02 -7.40241259988E-04 -1.99547949367E-03 -8.40797323737E-04 -2.03763207434E-03 +7.68958423367E-01 +1.40970866014E-01
2.78500000000E+09 +7.08137793954E-01 -4.32161993777E-02 -9.16636859742E-04 -1.90357770854E-03 -9.91692101802E-04 -1.85516840727E-03 +7.66077220028E-01 +1.23896476705E-01
2.79000000000E+09 +6.99905602711E-01 -6.49376244866E-02 -9.21971256644E-04 -1.89192853809E-03 -9.36286157463E-04 -1.78498096611E-03 +7.62691150872E-01 +1.07099800381E-01
2.79500000000E+09 +6.91201298739E-01 -8.64172148950E-02 -1.07906873161E-03 -2.12486458153E-03 -1.05310848459E-03 -1.89903250165E-03 +7.58846678591E-01 +8.98776478320E-02
2.80000000000E+09 +6.81561354107E-01 -1.07369111277E-01 -1.56511432463E-03 -1.96569140731E-03 -1.36666023374E-03 -1.94864641749E-03 +7.54127333650E-01 +7.20582570177E-02
2.80500000000E+09 +6.71537696839E-01 -1.26746101290E-01 -1.78343471852E-03 -1.92299915946E-03 -1.72006532211E-03 -1.98982270214E-03 +7.48723403532E-01 +5.39727934889E-02
2.81000000000E+09 +6.60601411341E-01 -1.44493778495E-01 -2.26101496503E-03 -1.53851221883E-03 -2.33188282381E-03 -1.67449613504E-03 +7.43612177649E-01 +3.54232945464E-02
2.81500000000E+09 +6.48268929855E-01 -1.60630149720E-01 -2.31597705198E-03 -1.13002858689E-03 -2.32762615287E-03 -1.10509701138E-03 +7.37782777231E-01 +1.54590628030E-02
2.82000000000E+09 +6.34452822336E-01 -1.75694994906E-01 -2.41463859407E-03 -1.06411003723E-03 -2.46930019197E-03 -8.72698921088E-04 +7.31116913322E-01 -4.51282772117E-03
2.82500000000E+09 +6.18966158754E-01 -1.90130888528E-01 -2.52473014414E-03 -7.24712002038E-04 -2.43157754829E-03 -6.25109280461E-04 +7.23474031143E-01 -2.47621805779E-02
2.83000000000E+09 +6.01568888893E-01 -2.05525253805E-01 -2.77989117612E-03 -6.15227847739E-04 -2.56768997170E-03 -6.32765912391E-04 +7.14933660597E-01 -4.50870504143E-02
2.83500000000E+09 +5.81437038416E-01 -2.22162427369E-01 -2.97151550343E-03 +6.21043465336E-06 -2.88257027782E-03 -6.20054720309E-05 +7.05081832140E-01 -6.58757216415E-02
2.84000000000E+09 +5.59192825915E-01 -2.39845582052E-01 -2.74712912225E-03 +4.35004955626E-04 -2.73601946928E-03 +3.08228671714E-04 +6.94098920536E-01 -8.73081897813E-02
2.84500000000E+09 +5.34797963669E-01 -2.59149994073E-01 -2.59546951820E-03 +5.75684697290E-04 -2.60766708610E-03 +5.48866440796E-04 +6.81209190590E-01 -1.08519429588E-01
2.85000000000E+09 +5.08831557098E-01 -2.78515896997E-01 -2.62378597953E-03 +7.69387920651E-04 -2.63467283172E-03 +7.95579513832E-04 +6.67364602718E-01 -1.29175286541E-01
2.85500000000E+09 +4.81755240325E-01 -2.97774954072E-01 -2.64831302663E-03 +1.01864868628E-03 -2.65687535343E-03 +9.45682971849E-04 +6.52021706284E-01 -1.49562608554E-01
2.86000000000E+09 +4.54627912018E-01 -3.14662178281E-01 -2.67081036113E-03 +1.55559241202E-03 -2.62941356480E-03 +1.52320963790E-03 +6.36531883574E-01 -1.69512201177E-01
2.86500000000E+09 +4.29618928701E-01 -3.29094512103E-01 -2.25145141873E-03 +1.76582607054E-03 -2.27583968924E-03 +1.72750949460E-03 +6.19313355140E-01 -1.90299212897E-01
2.87000000000E+09 +4.04898935961E-01 -3.42864772981E-01 -2.21413812204E-03 +2.26254682912E-03 -2.26214938426E-03 +2.22401936632E-03 +6.00501099296E-01 -2.10226836677E-01
2.87500000000E+09 +3.79465828423E-01 -3.53473245383E-01 -1.66388600808E-03 +2.15382723473E-03 -1.59759322027E-03 +2.20009243376E-03 +5.80364688413E-01 -2.29919486687E-01
2.88000000000E+09 +3.54076811408E-01 -3.61888824329E-01 -2.11007778161E-03 +2.20878327837E-03 -1.98035788498E-03 +2.23622187541E-03 +5.59647784376E-01 -2.48200430348E-01
2.88500000000E+09 +3.26380097561E-01 -3.68803989532E-01 -1.75954574886E-03 +3.24255916273E-03 -1.64873347522E-03 +3.08067654960E-03 +5.37703225149E-01 -2.67463950746E-01
2.89000000000E+09 +2.95960001347E-01 -3.72660081605E-01 -9.46097219715E-04 +3.27410967151E-03 -9.87226229498E-04 +3.10433169990E-03 +5.12840716312E-01 -2.85623714152E-01
2.89500000000E+09 +2.64901242908E-01 -3.75163814763E-01 -6.00356564982E-04 +3.26603170527E-03 -7.43031019218E-04 +3.16184756786E-03 +4.87052911134E-01 -3.02696675111E-01
2.90000000000E+09 +2.31364073393E-01 -3.77165360401E-01 -9.95168060202E-05 +3.34756149152E-03 -2.90088928337E-04 +3.41058431587E-03 +4.60395374207E-01 -3.20008466217E-01
2.90500000000E+09 +1.95054981262E-01 -3.78036579277E-01 +1.48576764094E-04 +3.35849361405E-03 +1.56035024176E-04 +3.44215208719E-03 +4.32028369498E-01 -3.36922040636E-01
2.91000000000E+09 +1.58819543845E-01 -3.76525610240E-01 +7.53700811137E-04 +3.50335625980E-03 +9.15569580271E-04 +3.51575498744E-03 +4.02029984713E-01 -3.53516457910E-01
2.91500000000E+09 +1.22130794122E-01 -3.74126282285E-01 +1.27546020230E-03 +3.20217314435E-03 +1.25788997127E-03 +3.07052608064E-03 +3.68713700260E-01 -3.67649201950E-01
2.92000000000E+09 +8.63081399372E-02 -3.68692801155E-01 +1.93322840529E-03 +3.31638277121E-03 +1.76911736774E-03 +3.06563616070E-03 +3.33823002995E-01 -3.78859913445E-01
2.92500000000E+09 +5.27405581007E-02 -3.60400379702E-01 +2.31533338655E-03 +2.23215129538E-03 +2.13794207782E-03 +2.22827248033E-03 +2.97755780729E-01 -3.86814296596E-01
2.93000000000E+09 +2.19461049736E-02 -3.50336484821E-01 +1.89562817733E-03 +2.19216007979E-03 +1.71724880078E-03 +2.24306204191E-03 +2.61059469577E-01 -3.93828116760E-01
2.93500000000E+09 -7.90491968256E-03 -3.39299300398E-01 +2.40157338795E-03 +2.23210516282E-03 +2.34099798766E-03 +2.34507279801E-03 +2.22261715394E-01 -3.99705179916E-01
2.94000000000E+09 -3.80214174771E-02 -3.24830746834E-01 +2.71264331717E-03 +1.53694843536E-03 +2.73255379218E-03 +1.63485407233E-03 +1.80984174614E-01 -4.02937706146E-01
2.94500000000E+09 -6.69578433431E-02 -3.07959824333E-01 +2.51713713321E-03 +1.49932487190E-03 +2.48081924312E-03 +1.53205646179E-03 +1.41155063508E-01 -4.02132848529E-01
2.95000000000E+09 -9.74603235981E-02 -2.88037252732E-01 +3.05265445512E-03 +1.10362199237E-03 +3.06275086622E-03 +1.24530243969E-03 +1.00287776867E-01 -4.00443908651E-01
2.95500000000E+09 -1.26456034998E-01 -2.63792736395E-01 +2.86290146285E-03 +6.37724481025E-04 +2.92924006910E-03 +7.69689930944E-04 +5.91759245306E-02 -3.94484981736E-01
2.96000000000E+09 -1.53383239878E-01 -2.38505697178E-01 +2.96549484094E-03 +1.49578354526E-04 +3.06500053572E-03 +1.47356719898E-04 +1.74615412018E-02 -3.85714081218E-01
2.96500000000E+09 -1.79310226309E-01 -2.11759477005E-01 +2.47877208232E-03 -5.34584348839E-05 +2.54646845283E-03 -7.46093164056E-05 -2.35571377306E-02 -3.72241574243E-01
2.97000000000E+09 -2.02682845415E-01 -1.84235533911E-01 +2.59325404795E-03 +1.22875802659E-04 +2.60833356429E-03 +1.79247370524E-05 -6.29690117969E-02 -3.56573061793E-01
2.97500000000E+09 -2.23924120695E-01 -1.56356779705E-01 +2.74780092276E-03 -4.13018819288E-04 +2.68469838361E-03 -3.69058560416E-04 -1.01232547521E-01 -3.39938055882E-01
2.98000000000E+09 -2.44468929904E-01 -1.28298410942E-01 +2.47683332240E-03 -3.33339805690E-04 +2.43665642701E-03 -2.84676462156E-04 -1.40090392061E-01 -3.20868969730E-01
2.98500000000E+09 -2.62776566340E-01 -9.75445670764E-02 +2.96584211587E-03 -5.89027344216E-04 +3.05183018249E-03 -4.17907115368E-04 -1.77676476711E-01 -2.98285256163E-01
2.99000000000E+09 -2.77600249950E-01 -6.56944849360E-02 +2.93649150888E-03 -1.38748144210E-03 +3.15851693302E-03 -1.41021476517E-03 -2.13481887152E-01 -2.71980558544E-01
2.99500000000E+09 -2.89790397064E-01 -3.36291872322E-02 +2.24476578236E-03 -1.61134381796E-03 +2.31896789559E-03 -1.74592926677E-03 -2.47180648998E-01 -2.42319217714E-01
3.00000000000E+09 -3.00713182591E-01 -2.06936396525E-03 +2.39137848608E-03 -1.60303956341E-03 +2.32631189240E-03 -1.70990261575E-03 -2.78004296620E-01 -2.10016672739E-01
3.00500000000E+09 -3.10513705311E-01 +3.02125472859E-02 +2.25225128316E-03 -1.87142952909E-03 +2.14125672053E-03 -1.86339359683E-03 -3.06824511020E-01 -1.77070681103E-01
3.01000000000E+09 -3.18149341739E-01 +6.20371132077E-02 +2.20237837794E-03 -2.52551168696E-03 +2.16583196330E-03 -2.34639139796E-03 -3.33434149547E-01 -1.40835357213E-01
3.01500000000E+09 -3.24344939495E-01 +9.39850896534E-02 +1.49768735887E-03 -2.87443231565E-03 +1.58959405698E-03 -2.73239238906E-03 -3.56892491961E-01 -1.04927361320E-01
3.02000000000E+09 -3.27189349467E-01 +1.24782022663E-01 +1.06409272044E-03 -2.85147488114E-03 +1.18104222405E-03 -2.84657768759E-03 -3.77543578983E-01 -6.70268808832E-02
3.02500000000E+09 -3.27366001143E-01 +1.53753292777E-01 +8.63836692262E-04 -2.74172578384E-03 +9.53688184748E-04 -2.79669896042E-03 -3.94601138325E-01 -2.90364200921E-02
3.03000000000E+09 -3.25606325978E-01 +1.80740369188E-01 +5.61825895848E-04 -2.81368805478E-03 +5.98874855480E-04 -2.87303650417E-03 -4.09826567375E-01 +1.10071376421E-02
3.03500000000E+09 -3.21962456764E-01 +2.08116052342E-01 +3.36289475819E-04 -2.83278474658E-03 +3.71152700357E-04 -2.82899670551E-03 -4.21440414085E-01 +5.21436892913E-02
3.04000000000E+09 -3.14415663417E-01 +2.36040418557E-01 +2.54586876461E-05 -3.20373744604E-03 +1.25719276368E-04 -3.26882738542E-03 -4.28264635588E-01 +9.31841463783E-02
3.04500000000E+09 -3.04628235042E-01 +2.62147072264E-01 -7.71603135100E-04 -2.71242481007E-03 -7.90459280443E-04 -2.90026925242E-03 -4.33354136839E-01 +1.32519618859E-01
3.05000000000E+09 -2.93801393159E-01 +2.90676514940E-01 -6.64715289031E-04 -2.33132737452E-03 -7.23291362443E-04 -2.43780154821E-03 -4.36048092002E-01 +1.70853439742E-01
3.05500000000E+09 -2.79885645381E-01 +3.18165046617E-01 -6.52553948667E-04 -2.54044759328E-03 -8.11240826828E-04 -2.52352962989E-03 -4.37230724221E-01 +2.09300785244E-01
3.06000000000E+09 -2.66674435843E-01 +3.45015466948E-01 -1.03426814102E-03 -2.64625183224E-03 -1.10367700128E-03 -2.45112581066E-03 -4.35791812063E-01 +2.46637813990E-01
3.06500000000E+09 -2.52596341387E-01 +3.71825332537E-01 -1.32700120989E-03 -2.72752232874E-03 -1.20015895811E-03 -2.55276482014E-03 -4.32021306949E-01 +2.84033310865E-01
3.07000000000E+09 -2.39166335457E-01 +3.96316835915E-01 -2.22176919889E-03 -2.61748055444E-03 -1.99308574132E-03 -2.72538600457E-03 -4.25778869090E-01 +3.20317299489E-01
