# Hz S RI R 50
! CMT, C1220, 16058040, 17.2.0/1
! Date: 15/08/2018 10:36:24
! Data: Format (Calibration Info)
! Freq                      S11: Re/Im (F2)                       S21: Re/Im (F2)                       S12: Re/Im (F2)                       S22: Re/Im (F2)            
2.50000000000E+09 +5.79497865808E-01 +6.66280966810E-01 -3.18369123826E-04 +1.02370347867E-04 -3.33520068816E-04 +1.52181542870E-04 +5.64451294291E-01 +7.22770080819E-01
2.50500000000E+09 +5.86871314111E-01 +6.58158099964E-01 -2.32897588847E-04 +1.22883725703E-04 -2.45018880376E-04 +1.17982171931E-04 +5.70053664289E-01 +7.17261607284E-01
2.51000000000E+09 +5.94613528953E-01 +6.49822687182E-01 -1.54698149130E-04 +1.30821983709E-04 -1.64676956464E-04 +1.86512544631E-04 +5.75617814732E-01 +7.12059343031E-01
2.51500000000E+09 +6.02111995435E-01 +6.42044873129E-01 -1.93010087281E-04 +8.81169396743E-05 -2.09118002549E-04 +7.77227651235E-05 +5.81056263235E-01 +7.06719027122E-01
2.52000000000E+09 +6.08972289376E-01 +6.34234257598E-01 -1.97811460906E-04 +2.18386439442E-04 -1.82555675795E-04 +2.46270020478E-04 +5.86189926886E-01 +7.00825959901E-01
2.52500000000E+09 +6.14928324989E-01 +6.27037417900E-01 -1.01259577370E-04 +1.71297724954E-04 -4.71205941739E-05 +1.83578950211E-04 +5.91861778421E-01 +6.94522237646E-01
2.53000000000E+09 +6.20226218193E-01 +6.19989115244E-01 -8.01325277218E-05 +1.06841116464E-04 -1.14727730068E-04 +9.92972070968E-05 +5.97955593011E-01 +6.87652387929E-01
2.53500000000E+09 +6.25150329534E-01 +6.12879341515E-01 -1.32317482774E-04 +1.16365798052E-04 -1.15259038599E-04 +1.08864886241E-04 +6.03853912005E-01 +6.80971590698E-01
2.54000000000E+09 +6.29292266141E-01 +6.06029648338E-01 -1.85281212960E-04 +8.99918771112E-05 -1.95335690682E-04 +8.87123795423E-05 +6.09872695200E-01 +6.74707052673E-01
2.54500000000E+09 +6.33906075757E-01 +5.98914469029E-01 -2.17488537894E-04 +2.80856569793E-04 -2.66618267195E-04 +2.02667744812E-04 +6.15685090284E-01 +6.68439501074E-01
2.55000000000E+09 +6.38917575883E-01 +5.91316968347E-01 -1.78840090529E-04 +3.38025277482E-04 -1.71229145166E-04 +3.27699909278E-04 +6.21308058030E-01 +6.62255377706E-01
2.55500000000E+09 +6.44544580504E-01 +5.83103942418E-01 -9.07091321117E-06 +3.31323612183E-04 -3.30953093160E-05 +3.62229809859E-04 +6.26260003004E-01 +6.55788841835E-01
2.56000000000E+09 +6.50929328185E-01 +5.74945538596E-01 +3.66293088859E-05 +2.33794756407E-04 +5.57884806495E-05 +2.54152130369E-04 +6.31417434481E-01 +6.48574988119E-01
2.56500000000E+09 +6.57967167402E-01 +5.66177709055E-01 +1.51010362289E-06 +2.46220811147E-04 +7.62228458245E-05 +2.96650226521E-04 +6.36710239524E-01 +6.41222044996E-01
2.57000000000E+09 +6.65155701185E-01 +5.57397466630E-01 -3.33591394606E-05 +2.90139149956E-04 +1.48341422685E-05 +2.07917115360E-04 +6.42004183784E-01 +6.33454382158E-01
2.57500000000E+09 +6.72052570314E-01 +5.48443158319E-01 -2.33353476151E-05 +3.59545058752E-04 +8.27798869730E-06 +3.20500800405E-04 +6.47622208620E-01 +6.25829606366E-01
2.58000000000E+09 +6.77878472804E-01 +5.40310318982E-01 +6.94632859171E-05 +3.34211836924E-04 +9.63812065190E-05 +2.71691560170E-04 +6.52747260249E-01 +6.18072063872E-01
2.58500000000E+09 +6.83319301416E-01 +5.32370022287E-01 +1.32153294308E-04 +3.76255594020E-04 +7.22279546349E-05 +2.99778581283E-04 +6.57542018665E-01 +6.10487569429E-01
2.59000000000E+09 +6.88302822393E-01 +5.24817359662E-01 +2.02725145899E-04 +3.80025030544E-04 +1.33060081127E-04 +3.87833019898E-04 +6.62458847456E-01 +6.02920745579E-01
2.59500000000E+09 +6.92785019682E-01 +5.16826072631E-01 +3.04647836951E-04 +3.46579170643E-04 +3.10550473306E-04 +3.72818200866E-04 +6.67327702898E-01 +5.95145556475E-01
2.60000000000E+09 +6.96882120715E-01 +5.08197339006E-01 +3.37146821249E-04 +2.61513296966E-04 +3.73081042248E-04 +2.92628211927E-04 +6.72310575974E-01 +5.86884904581E-01
2.60500000000E+09 +7.00865055488E-01 +4.98549619879E-01 +4.55451961769E-04 +2.27203611331E-04 +4.57807133856E-04 +2.19471538665E-04 +6.77702574882E-01 +5.78371481529E-01
2.61000000000E+09 +7.05183670701E-01 +4.87973800034E-01 +4.46887959243E-04 +8.55233653857E-05 +4.37794414733E-04 +1.25149704337E-04 +6.82956470651E-01 +5.69691574778E-01
2.61500000000E+09 +7.10158375759E-01 +4.76098390798E-01 +4.78730800254E-04 -3.27562543740E-05 +4.75450620584E-04 -8.41402178542E-06 +6.87925754059E-01 +5.61180489446E-01
2.62000000000E+09 +7.14940099193E-01 +4.62857750689E-01 +3.52712417565E-04 -1.42398890818E-04 +3.81978482470E-04 -9.97541480373E-05 +6.92894579434E-01 +5.52201959421E-01
2.62500000000E+09 +7.19702218990E-01 +4.49097246551E-01 +2.42960104917E-04 -7.51613375785E-05 +2.27586204824E-04 -4.35267967070E-05 +6.97447033133E-01 +5.43368248010E-01
2.63000000000E+09 +7.24301353611E-01 +4.35380338983E-01 +3.57931489056E-04 +2.40599727005E-05 +3.53275255951E-04 +3.11540641237E-05 +7.02072820488E-01 +5.34587181076E-01
2.63500000000E+09 +7.28319077393E-01 +4.21808974684E-01 +3.85993894348E-04 -6.53395437447E-05 +3.38898143783E-04 -1.20739943294E-04 +7.06860143656E-01 +5.25504530799E-01
2.64000000000E+09 +7.31964084035E-01 +4.09225992093E-01 +4.12846856605E-04 -5.56912575893E-05 +3.77673289080E-04 -5.01730375471E-05 +7.11615537550E-01 +5.16045076811E-01
2.64500000000E+09 +7.35398803971E-01 +3.97560716175E-01 +5.29468668625E-04 -2.60062728134E-04 +4.55373497820E-04 -1.80218281930E-04 +7.16627049327E-01 +5.06298841489E-01
2.65000000000E+09 +7.38240842934E-01 +3.86431432462E-01 +3.90186665519E-04 -3.44768814834E-04 +4.15787383968E-04 -2.82542799782E-04 +7.20792344321E-01 +4.96144808236E-01
2.65500000000E+09 +7.41333821721E-01 +3.75591785734E-01 +2.90612954774E-04 -4.17820572177E-04 +3.40450034981E-04 -3.95944609325E-04 +7.24844471132E-01 +4.85575639110E-01
2.66000000000E+09 +7.44125502151E-01 +3.64282288755E-01 +2.41923830471E-04 -3.79770959446E-04 +2.51520584135E-04 -4.44771634517E-04 +7.28902365892E-01 +4.74513285455E-01
2.66500000000E+09 +7.46992240233E-01 +3.52762667822E-01 +1.60706253074E-04 -4.01432047712E-04 +1.08300938083E-04 -4.60718365041E-04 +7.33200933759E-01 +4.63488993743E-01
2.67000000000E+09 +7.49927668563E-01 +3.40031517078E-01 +1.76493129199E-04 -4.23755812060E-04 +1.67780374280E-04 -4.67252003621E-04 +7.37672606617E-01 +4.52522473290E-01
2.67500000000E+09 +7.52705229711E-01 +3.26096391783E-01 +1.23051939361E-04 -5.14784800016E-04 +1.30468128583E-04 -4.89611668171E-04 +7.41789049912E-01 +4.41374873296E-01
2.68000000000E+09 +7.54927554484E-01 +3.11376072970E-01 +9.28837004585E-05 -6.01370842243E-04 +8.63273054704E-05 -5.99261384584E-04 +7.45789728398E-01 +4.30449419115E-01
2.68500000000E+09 +7.56567540671E-01 +2.96450111758E-01 -1.40805284161E-04 -6.77353219832E-04 -6.37646991310E-05 -6.80977907996E-04 +7.49051903722E-01 +4.18585103791E-01
2.69000000000E+09 +7.58043609670E-01 +2.81855163977E-01 -2.86324250051E-04 -5.76729019290E-04 -3.05543481270E-04 -5.52237716460E-04 +7.51600494114E-01 +4.06533624998E-01
2.69500000000E+09 +7.59504618330E-01 +2.67897705553E-01 -3.43410450385E-04 -5.15657333126E-04 -3.34559836028E-04 -4.88771208315E-04 +7.54141708856E-01 +3.94002315095E-01
2.70000000000E+09 +7.60837413395E-01 +2.54012324435E-01 -4.04341362744E-04 -4.72936243840E-04 -4.05891530784E-04 -4.40389574187E-04 +7.56927671193E-01 +3.81043152176E-01
2.70500000000E+09 +7.62144891476E-01 +2.40757321327E-01 -5.59188171872E-04 -3.41729939583E-04 -5.60044980810E-04 -3.54230267171E-04 +7.59910507864E-01 +3.67708532025E-01
2.71000000000E+09 +7.63303767183E-01 +2.27298899752E-01 -5.59986749019E-04 -1.30103931998E-04 -5.79632766596E-04 -1.80599917571E-04 +7.62513660197E-01 +3.54823468181E-01
2.71500000000E+09 +7.64733480410E-01 +2.13721726523E-01 -3.60470121808E-04 -1.14875360079E-04 -4.37500063476E-04 -1.12435714554E-04 +7.65205987162E-01 +3.42216048066E-01
2.72000000000E+09 +7.65749767419E-01 +1.98923675016E-01 -5.04759781190E-04 -2.16893757506E-04 -5.82044239240E-04 -1.67943832883E-04 +7.67012544301E-01 +3.29249180776E-01
2.72500000000E+09 +7.66214635325E-01 +1.83216666535E-01 -6.51761048094E-04 -8.41371295809E-05 -6.47937935767E-04 -2.71975773148E-05 +7.67824380502E-01 +3.16039321836E-01
2.73000000000E+09 +7.65915218373E-01 +1.66223184218E-01 -7.71600047206E-04 +1.28898334354E-04 -6.55972836651E-04 +1.92561659969E-04 +7.68833989996E-01 +3.02333739717E-01
2.73500000000E+09 +7.64370468401E-01 +1.48171251293E-01 -6.91212643629E-04 +4.37232136614E-04 -5.77873821989E-04 +3.65309480950E-04 +7.69797472014E-01 +2.88034023404E-01
2.74000000000E+09 +7.61915641835E-01 +1.30291322719E-01 -3.86658330974E-04 +6.05407683549E-04 -3.99021800488E-04 +4.95968128062E-04 +7.71557806218E-01 +2.73259351624E-01
2.74500000000E+09 +7.58746614608E-01 +1.12096447777E-01 -1.74292771666E-04 +5.56118375487E-04 -2.80290821558E-04 +4.75910553532E-04 +7.72893156496E-01 +2.58054483866E-01
2.75000000000E+09 +7.54794991088E-01 +9.39531928055E-02 +4.21320247118E-06 +5.00360679062E-04 -6.61467798325E-05 +5.00794276986E-04 +7.73717990688E-01 +2.42922706434E-01
2.75500000000E+09 +7.50309576382E-01 +7.60096648359E-02 -1.71521062375E-05 +2.90545446375E-04 -2.93237185310E-05 +2.85846709566E-04 +7.73672760105E-01 +2.28244526657E-01
2.76000000000E+09 +7.45886222643E-01 +5.86161087679E-02 -1.52921004961E-04 +3.81132032570E-04 -1.89649627403E-04 +4.05772659321E-04 +7.73597737505E-01 +2.12946816508E-01
2.76500000000E+09 +7.41293322849E-01 +4.07006909721E-02 -4.25879166485E-05 +5.72553540165E-04 -1.13555804251E-05 +6.33421481696E-04 +7.72665020055E-01 +1.96084221608E-01
2.77000000000E+09 +7.36205663724E-01 +2.23107232777E-02 +1.62643625943E-04 +5.15478602078E-04 +1.67114327190E-04 +5.48008216222E-04 +7.71351278467E-01 +1.79180339724E-01
2.77500000000E+09 +7.31393620793E-01 +3.38590956857E-03 +2.16828142972E-04 +5.55042694470E-04 +2.23392239675E-04 +6.01862177281E-04 +7.69813065151E-01 +1.61219544659E-01
2.78000000000E+09 +7.26230743391E-01 -1.71902746804E-02 +4.99576550253E-04 +5.64063073823E-04 +5.02833408286E-04 +5.58742243147E-04 +7.67976221733E-01 +1.43558370878E-01
2.78500000000E+09 +7.19931462294E-01 -3.86885996977E-02 +7.27547631333E-04 +3.68200781986E-04 +7.55304584959E-04 +2.76446757717E-04 +7.65359814634E-01 +1.25718010417E-01
2.79000000000E+09 +7.13102637090E-01 -6.08094127949E-02 +7.33153445706E-04 +2.40372242802E-06 +6.57356114340E-04 -3.34190463065E-05 +7.62188319909E-01 +1.08576099542E-01
2.79500000000E+09 +7.04915722593E-01 -8.33191290493E-02 +6.06665411719E-04 -1.04415844065E-04 +6.29444520767E-04 -1.58679871244E-04 +7.58040673304E-01 +9.08657645718E-02
2.80000000000E+09 +6.95238849753E-01 -1.04835961727E-01 +4.17432128862E-04 -2.07191001845E-04 +4.43295592250E-04 -1.98088259681E-04 +7.53125883742E-01 +7.24536042754E-02
2.80500000000E+09 +6.85437122742E-01 -1.24927516640E-01 +3.87720698863E-04 -7.19444255442E-05 +4.58704355619E-04 -5.83964012555E-05 +7.47251553433E-01 +5.35076802818E-02
2.81000000000E+09 +6.75173045494E-01 -1.43602290792E-01 +6.34042791801E-04 -1.22102270335E-04 +6.49508875711E-04 -1.71784116292E-04 +7.40621828359E-01 +3.46285708005E-02
2.81500000000E+09 +6.64547529333E-01 -1.61428946073E-01 +7.57435423853E-04 -5.27932411661E-04 +7.47045284629E-04 -5.35751480144E-04 +7.33734961553E-01 +1.57716654321E-02
2.82000000000E+09 +6.53198299647E-01 -1.78694489255E-01 +5.69625474811E-04 -7.43770184302E-04 +5.14579202070E-04 -7.22085146271E-04 +7.26604283949E-01 -3.49251647556E-03
2.82500000000E+09 +6.40565227242E-01 -1.95900796792E-01 +5.37836698223E-04 -9.45195180366E-04 +4.41447181104E-04 -9.05068561698E-04 +7.18791229242E-01 -2.28215181674E-02
2.83000000000E+09 +6.26211883487E-01 -2.13743839611E-01 +1.73639127401E-04 -1.29048236435E-03 +1.48437840436E-04 -1.26817313060E-03 +7.10113160618E-01 -4.29490692629E-02
2.83500000000E+09 +6.10071714231E-01 -2.31924533948E-01 -3.99503556570E-04 -1.15228204008E-03 -3.25415104597E-04 -1.20278933647E-03 +6.99927386001E-01 -6.30232916004E-02
2.84000000000E+09 +5.91976739790E-01 -2.50646860592E-01 -5.80875129160E-04 -1.01720445888E-03 -5.73496957145E-04 -1.03373600183E-03 +6.88943312166E-01 -8.34522379997E-02
2.84500000000E+09 +5.71335668024E-01 -2.70649716955E-01 -7.13893182046E-04 -8.24329707985E-04 -7.09749131255E-04 -8.68787642268E-04 +6.76836488225E-01 -1.03691516652E-01
2.85000000000E+09 +5.49163290290E-01 -2.90086708733E-01 -8.94721966445E-04 -7.43287536858E-04 -8.70624006454E-04 -7.04944784969E-04 +6.63464163150E-01 -1.24369851917E-01
2.85500000000E+09 +5.25260442635E-01 -3.09717101959E-01 -1.00608317956E-03 -5.38844959187E-04 -9.82282545841E-04 -5.91105605306E-04 +6.48756073734E-01 -1.44357049711E-01
2.86000000000E+09 +5.00861835319E-01 -3.28035234613E-01 -9.03062796209E-04 -3.50362723997E-04 -9.26092580411E-04 -3.04227530762E-04 +6.33636921006E-01 -1.64720731703E-01
2.86500000000E+09 +4.76264879681E-01 -3.45614601361E-01 -1.06027308990E-03 -4.30266767836E-04 -1.06861169000E-03 -3.84430118732E-04 +6.16588036626E-01 -1.85445321596E-01
2.87000000000E+09 +4.51273424757E-01 -3.61935917486E-01 -1.28477096961E-03 -4.06608109828E-04 -1.25778200116E-03 -4.11926995996E-04 +5.97557043261E-01 -2.05693090920E-01
2.87500000000E+09 +4.26225744914E-01 -3.76837461437E-01 -1.77832015524E-03 -2.95205533929E-04 -1.75855507005E-03 -2.79015101179E-04 +5.77786520283E-01 -2.24904594217E-01
2.88000000000E+09 +4.00380761714E-01 -3.90267320905E-01 -2.17602265239E-03 +5.47243661903E-04 -2.08176452741E-03 +6.18743193627E-04 +5.56685088195E-01 -2.44383172098E-01
2.88500000000E+09 +3.73951931628E-01 -4.02291824400E-01 -1.72714209800E-03 +1.46981708335E-03 -1.59428454346E-03 +1.39790860967E-03 +5.33594916241E-01 -2.62631899070E-01
2.89000000000E+09 +3.46234191330E-01 -4.13785429790E-01 -9.36588101523E-04 +1.63567040518E-03 -9.51154665643E-04 +1.49108224590E-03 +5.08809735944E-01 -2.80375262289E-01
2.89500000000E+09 +3.15650945065E-01 -4.23847355694E-01 -5.30026098742E-04 +1.41541624716E-03 -5.63658666489E-04 +1.33098493783E-03 +4.82779057816E-01 -2.97184237679E-01
2.90000000000E+09 +2.83199802386E-01 -4.32091342161E-01 -6.67615849504E-04 +1.24019505353E-03 -6.85818135628E-04 +1.25663319975E-03 +4.55298402821E-01 -3.13823699635E-01
2.90500000000E+09 +2.48341620587E-01 -4.38732105863E-01 -6.33904066654E-04 +1.45113095310E-03 -6.36317908074E-04 +1.49661646344E-03 +4.25944515508E-01 -3.29742874118E-01
2.91000000000E+09 +2.12616661485E-01 -4.43038447262E-01 -4.96909708374E-04 +1.65058168336E-03 -4.18180961814E-04 +1.70559728437E-03 +3.95415123569E-01 -3.43482269643E-01
2.91500000000E+09 +1.75858277906E-01 -4.46078067879E-01 +3.24578189172E-05 +1.77435919114E-03 +2.79590221304E-05 +1.72184424864E-03 +3.64540396018E-01 -3.55485493453E-01
2.92000000000E+09 +1.38304237744E-01 -4.46429786963E-01 +6.24169488735E-06 +1.82306616969E-03 -5.62827244119E-06 +1.71507907009E-03 +3.31815805703E-01 -3.66597886224E-01
2.92500000000E+09 +1.01495774073E-01 -4.45107938389E-01 +3.06463978320E-04 +2.16152628564E-03 +1.73900449325E-04 +2.08044440273E-03 +2.96694847122E-01 -3.74951737489E-01
2.93000000000E+09 +6.52557921366E-02 -4.41881441412E-01 +1.15164463153E-03 +2.14217576875E-03 +1.05570849580E-03 +2.12884495008E-03 +2.59984148408E-01 -3.81678037187E-01
2.93500000000E+09 +2.96697490520E-02 -4.36792359897E-01 +1.32396390656E-03 +1.69877460888E-03 +1.25377899189E-03 +1.81162302774E-03 +2.22027878903E-01 -3.85700884265E-01
2.94000000000E+09 -5.86750248860E-03 -4.29840629407E-01 +1.69967480257E-03 +1.57434643931E-03 +1.61039588984E-03 +1.61889740346E-03 +1.83962125108E-01 -3.88086011733E-01
2.94500000000E+09 -4.19946776465E-02 -4.20478183006E-01 +1.87708350498E-03 +1.39907314315E-03 +1.81236099110E-03 +1.44392020925E-03 +1.45366558438E-01 -3.89367338863E-01
2.95000000000E+09 -7.76214887445E-02 -4.07187868662E-01 +2.14199537370E-03 +9.20322743811E-04 +2.09421780097E-03 +1.06983865472E-03 +1.05263172337E-01 -3.88074584302E-01
2.95500000000E+09 -1.12880349155E-01 -3.90267039576E-01 +2.36273392205E-03 +7.26913022040E-04 +2.39835568815E-03 +8.46507170206E-04 +6.47918712933E-02 -3.82485238887E-01
2.96000000000E+09 -1.46448232629E-01 -3.70544288345E-01 +2.28282459579E-03 +2.74084899415E-04 +2.36232020267E-03 +3.17983153358E-04 +2.52827445058E-02 -3.73586964015E-01
2.96500000000E+09 -1.79410629363E-01 -3.48131164194E-01 +2.46718283925E-03 +2.37257135428E-04 +2.51003040700E-03 +1.88529187442E-04 -1.51188745120E-02 -3.62628144231E-01
2.97000000000E+09 -2.10757245934E-01 -3.22565914038E-01 +3.07362715420E-03 -2.67821500028E-04 +3.08021819425E-03 -3.83555742349E-04 -5.43888994727E-02 -3.47925991755E-01
2.97500000000E+09 -2.39677698508E-01 -2.95448592276E-01 +3.02671772825E-03 -1.30655129937E-03 +2.99426359733E-03 -1.31602971815E-03 -9.37917377483E-02 -3.32437511094E-01
2.98000000000E+09 -2.68022278387E-01 -2.67182378909E-01 +2.41756696524E-03 -1.99088026125E-03 +2.28292927781E-03 -1.92604710632E-03 -1.32387431206E-01 -3.12732539728E-01
2.98500000000E+09 -2.94438763251E-01 -2.36293470666E-01 +1.53441913072E-03 -2.05337924684E-03 +1.64050630288E-03 -2.03716166625E-03 -1.69031832882E-01 -2.90396274493E-01
2.99000000000E+09 -3.18373611346E-01 -2.04633259517E-01 +1.45750830335E-03 -1.93905574496E-03 +1.58166334933E-03 -1.99391806962E-03 -2.03927641731E-01 -2.65388730844E-01
2.99500000000E+09 -3.41013966610E-01 -1.72695908677E-01 +1.73855677394E-03 -2.23242868241E-03 +1.68694991809E-03 -2.39613718599E-03 -2.37835541423E-01 -2.37489342218E-01
3.00000000000E+09 -3.62315416969E-01 -1.38471045158E-01 +1.15134030660E-03 -3.08588662654E-03 +1.01762689190E-03 -3.12122508698E-03 -2.69851456048E-01 -2.05676436736E-01
3.00500000000E+09 -3.80208975518E-01 -1.03603275176E-01 +2.38475931058E-04 -3.30052373096E-03 +8.50633429813E-05 -3.18384246416E-03 -2.98571408163E-01 -1.72304895364E-01
3.01000000000E+09 -3.96146615416E-01 -6.85325328955E-02 -6.34792224223E-04 -2.98040825660E-03 -6.30156320549E-04 -2.81128403588E-03 -3.25472400673E-01 -1.37022192993E-01
3.01500000000E+09 -4.08915661562E-01 -3.28959655610E-02 -7.24324316922E-04 -2.57277520694E-03 -6.29306225834E-04 -2.51023680816E-03 -3.48753655363E-01 -1.01177566096E-01
3.02000000000E+09 -4.18888754396E-01 +2.27833150690E-03 -1.19666585659E-03 -2.63613510258E-03 -1.12886924639E-03 -2.66362668137E-03 -3.69984347361E-01 -6.44837710942E-02
3.02500000000E+09 -4.26194947887E-01 +3.71429750647E-02 -1.50961554712E-03 -2.32553949064E-03 -1.46614999044E-03 -2.31091795794E-03 -3.88049511846E-01 -2.51635225461E-02
3.03000000000E+09 -4.30951170330E-01 +7.22562369070E-02 -2.12952933405E-03 -2.11067108692E-03 -2.05371823438E-03 -2.07812348476E-03 -4.02018221512E-01 +1.43580133400E-02
3.03500000000E+09 -4.31616671945E-01 +1.07005729179E-01 -2.58284812649E-03 -1.25738464030E-03 -2.46705669758E-03 -1.29255514223E-03 -4.13647619884E-01 +5.43072202825E-02
3.04000000000E+09 -4.30387492581E-01 +1.40069880935E-01 -2.14232231770E-03 -7.81685983566E-04 -2.16310913722E-03 -8.92164907905E-04 -4.22583559357E-01 +9.45557406459E-02
3.04500000000E+09 -4.27163611410E-01 +1.73957532791E-01 -1.98871522870E-03 -6.38996671061E-04 -2.08360331593E-03 -7.45526313007E-04 -4.28476234384E-01 +1.35022142266E-01
3.05000000000E+09 -4.20795360586E-01 +2.07637608389E-01 -2.22103784205E-03 -6.67181615204E-04 -2.37380982199E-03 -5.65109519447E-04 -4.31380756920E-01 +1.74523936484E-01
3.05500000000E+09 -4.12354693165E-01 +2.40516828803E-01 -2.54861375706E-03 -1.00052828797E-04 -2.62887943149E-03 +6.52557981691E-05 -4.31678619665E-01 +2.13181846548E-01
3.06000000000E+09 -4.02494584800E-01 +2.73143488956E-01 -2.36216607898E-03 +5.59416827997E-04 -2.16687320640E-03 +6.63146102120E-04 -4.30051545206E-01 +2.50846347353E-01
3.06500000000E+09 -3.90474602321E-01 +3.05241644388E-01 -1.91004358849E-03 +9.26635556803E-04 -1.76726787811E-03 +8.53523839906E-04 -4.25581616731E-01 +2.87865349064E-01
3.07000000000E+09 -3.77146982108E-01 +3.35602310907E-01 -1.45657413445E-03 +9.61175437977E-04 -1.49122241405E-03 +8.85656711665E-04 -4.19336565979E-01 +3.23725202562E-01
