# Hz S RI R 50
! CMT, C1220, 16058040, 17.2.0/1
! Date: 15/08/2018 10:24:09
! Data: Format (Calibration Info)
! Freq                      S11: Re/Im (F2)                       S21: Re/Im (F2)                       S12: Re/Im (F2)                       S22: Re/Im (F2)            
2.50000000000E+09 +5.82190215254E-01 +6.35879760338E-01 +3.93581592755E-04 +8.61405297940E-05 +3.86843122848E-04 +9.78112957307E-05 +5.71157010814E-01 +7.18889664633E-01
2.50500000000E+09 +5.89547572282E-01 +6.27923351798E-01 +4.14212060735E-04 -1.26306726226E-05 +4.05138412070E-04 -1.68266401485E-05 +5.77170498833E-01 +7.12969774354E-01
2.51000000000E+09 +5.97134518524E-01 +6.19666938882E-01 +3.91028087489E-04 -5.82042700671E-05 +4.17657370151E-04 -5.51778805764E-05 +5.83007898710E-01 +7.07319000277E-01
2.51500000000E+09 +6.04356211775E-01 +6.11608741803E-01 +4.03653964512E-04 -1.01792748203E-04 +3.84805289410E-04 -1.06533369706E-04 +5.88312164944E-01 +7.01323726016E-01
2.52000000000E+09 +6.11069317217E-01 +6.03310275319E-01 +4.15620854237E-04 -1.28022836356E-04 +3.94185244859E-04 -1.45042572946E-04 +5.93290215249E-01 +6.94854163464E-01
2.52500000000E+09 +6.16549829907E-01 +5.95703278520E-01 +4.20174910500E-04 -2.32864849838E-04 +4.11158754561E-04 -2.24364677738E-04 +5.98858974677E-01 +6.88160533153E-01
2.53000000000E+09 +6.21310131486E-01 +5.88700475271E-01 +3.61364061181E-04 -3.06894830163E-04 +3.36783972146E-04 -3.39887669591E-04 +6.04739588158E-01 +6.80819156081E-01
2.53500000000E+09 +6.25681380411E-01 +5.81969372191E-01 +2.30173407671E-04 -3.15501235921E-04 +2.27200011321E-04 -3.15316006287E-04 +6.10188263815E-01 +6.73742713111E-01
2.54000000000E+09 +6.29438482168E-01 +5.75723838087E-01 +2.02870033387E-04 -2.77257178856E-04 +1.76302306051E-04 -3.03756357611E-04 +6.15634183705E-01 +6.67121460795E-01
2.54500000000E+09 +6.33652640261E-01 +5.69829604023E-01 +2.08269562290E-04 -2.49154024159E-04 +2.22038802100E-04 -2.03496630561E-04 +6.20898460486E-01 +6.60582025072E-01
2.55000000000E+09 +6.38296722819E-01 +5.63573613935E-01 +3.07197156800E-04 -2.58118680827E-04 +3.40958922010E-04 -2.36252195579E-04 +6.25424421486E-01 +6.54502456320E-01
2.55500000000E+09 +6.43457767465E-01 +5.56727920485E-01 +2.76581287186E-04 -4.86874789362E-04 +3.17006048636E-04 -5.53055059490E-04 +6.30017028756E-01 +6.48596112800E-01
2.56000000000E+09 +6.49688534791E-01 +5.49729270924E-01 +8.55128025982E-05 -5.39714000665E-04 +9.49633681450E-05 -6.58836135152E-04 +6.34906751819E-01 +6.41883898325E-01
2.56500000000E+09 +6.56081588607E-01 +5.41684687598E-01 +9.24812568903E-06 -4.80118691397E-04 -4.43112400517E-05 -4.98188616399E-04 +6.40361441931E-01 +6.34911651883E-01
2.57000000000E+09 +6.62312413198E-01 +5.33284109655E-01 -4.04775034712E-05 -5.18658771942E-04 -1.71631024494E-04 -4.51729845323E-04 +6.45752350787E-01 +6.27319269672E-01
2.57500000000E+09 +6.68450533560E-01 +5.24569942710E-01 -1.73893903205E-04 -3.78191047703E-04 -1.77273081807E-04 -2.89224841283E-04 +6.51219698553E-01 +6.19985873209E-01
2.58000000000E+09 +6.73617147419E-01 +5.15962607693E-01 -1.27540873146E-04 -3.54279674668E-04 -9.91662193024E-05 -3.14615891693E-04 +6.56466653664E-01 +6.12741659294E-01
2.58500000000E+09 +6.77834166088E-01 +5.07257190706E-01 -1.46735709793E-04 -3.71475360935E-04 -1.28084017054E-04 -3.74206232000E-04 +6.61692014453E-01 +6.05272504420E-01
2.59000000000E+09 +6.81623391267E-01 +4.99350971013E-01 -2.30104946717E-04 -2.97476251578E-04 -1.76282065741E-04 -2.92462689605E-04 +6.66669347251E-01 +5.97820811471E-01
2.59500000000E+09 +6.85402542288E-01 +4.91277197610E-01 -2.02577394869E-04 -2.30546400069E-04 -1.69445174276E-04 -2.35812380156E-04 +6.71886053159E-01 +5.89787897446E-01
2.60000000000E+09 +6.88847503737E-01 +4.82636008185E-01 -1.87221200485E-04 -2.44226986284E-04 -1.65846183941E-04 -2.32566856132E-04 +6.77238805616E-01 +5.81274207515E-01
2.60500000000E+09 +6.92570146553E-01 +4.73294241159E-01 -1.46577019161E-04 -2.42474315580E-04 -1.77767166167E-04 -2.17328323855E-04 +6.82847136870E-01 +5.72459248489E-01
2.61000000000E+09 +6.96779422693E-01 +4.63068585563E-01 -1.65383514471E-04 -3.18222117269E-04 -2.01831636999E-04 -3.38831663283E-04 +6.87923568575E-01 +5.63456059452E-01
2.61500000000E+09 +7.01449850398E-01 +4.51579744654E-01 -2.89046282346E-04 -2.77904454073E-04 -3.23953067598E-04 -2.95871379972E-04 +6.92675989243E-01 +5.54808629047E-01
2.62000000000E+09 +7.06194369636E-01 +4.38979622209E-01 -2.84368400701E-04 -1.74859315846E-04 -2.90928612086E-04 -1.85416090955E-04 +6.97353460515E-01 +5.45787858851E-01
2.62500000000E+09 +7.10969800461E-01 +4.25245347084E-01 -2.03162173119E-04 -1.71108540134E-04 -2.24813448343E-04 -1.47220125454E-04 +7.01848543712E-01 +5.36984194526E-01
2.63000000000E+09 +7.15101594152E-01 +4.11214234433E-01 -1.41655871234E-04 -2.70391512368E-04 -1.87576133586E-04 -2.34384566353E-04 +7.06334670854E-01 +5.27827391113E-01
2.63500000000E+09 +7.18687007780E-01 +3.97560313430E-01 -2.75808377568E-04 -3.25058629592E-04 -2.70066015007E-04 -2.97125072942E-04 +7.10897220406E-01 +5.18750018618E-01
2.64000000000E+09 +7.21737786755E-01 +3.84567832484E-01 -4.31320769888E-04 -2.91024695758E-04 -3.72461138178E-04 -2.28054226188E-04 +7.15421973865E-01 +5.09113416432E-01
2.64500000000E+09 +7.24376789917E-01 +3.72900112752E-01 -4.09480325487E-04 -1.86885875785E-04 -3.58751872797E-04 -1.44927387521E-04 +7.19874479691E-01 +4.99454471322E-01
2.65000000000E+09 +7.26852809937E-01 +3.61993309950E-01 -4.22633094068E-04 -1.07607580210E-04 -3.86893029344E-04 -1.78196223539E-04 +7.24248423108E-01 +4.89528974252E-01
2.65500000000E+09 +7.29527304451E-01 +3.51219262472E-01 -4.49626466428E-04 -1.62304215399E-04 -4.66378768552E-04 -2.10941557161E-04 +7.27964832547E-01 +4.79050434380E-01
2.66000000000E+09 +7.32212854371E-01 +3.40538071758E-01 -5.06040331623E-04 -8.73098629604E-05 -5.28562037823E-04 -8.45581974140E-05 +7.31966108570E-01 +4.68256979341E-01
2.66500000000E+09 +7.34926801861E-01 +3.29428518543E-01 -5.54909807315E-04 -3.75488337219E-05 -6.09166072757E-04 -3.89673449935E-05 +7.36397551754E-01 +4.57089418875E-01
2.67000000000E+09 +7.37505856395E-01 +3.17433081325E-01 -6.60028424328E-04 +6.53472264337E-05 -6.33786404560E-04 +1.54463369303E-04 +7.40785962403E-01 +4.46012219921E-01
2.67500000000E+09 +7.39958591234E-01 +3.04142203449E-01 -5.90680909625E-04 +1.35539418633E-04 -5.46509262718E-04 +1.46942469389E-04 +7.44976788392E-01 +4.34697612665E-01
2.68000000000E+09 +7.41421998109E-01 +2.89755351717E-01 -5.95279971669E-04 +2.64382782672E-04 -5.88290982416E-04 +2.78443215659E-04 +7.48532218463E-01 +4.23424201108E-01
2.68500000000E+09 +7.41907554592E-01 +2.75525441903E-01 -5.63937528399E-04 +4.25694126543E-04 -5.56584769009E-04 +4.22117115718E-04 +7.51425861452E-01 +4.12119629629E-01
2.69000000000E+09 +7.42228538132E-01 +2.61222917074E-01 -3.91146202162E-04 +4.56535102132E-04 -3.41687799539E-04 +4.11281889117E-04 +7.54126221679E-01 +4.00462665474E-01
2.69500000000E+09 +7.42259387271E-01 +2.47304533379E-01 -3.61162144448E-04 +4.91799961609E-04 -3.39713608494E-04 +4.72763107874E-04 +7.56889483359E-01 +3.88189219438E-01
2.70000000000E+09 +7.42197243350E-01 +2.33518522220E-01 -1.86809636781E-04 +5.51778359302E-04 -2.34864710402E-04 +5.39762874009E-04 +7.59774218623E-01 +3.75199692127E-01
2.70500000000E+09 +7.42151852859E-01 +2.20392871159E-01 -2.23981993058E-04 +4.44850076348E-04 -1.75594025219E-04 +4.16381388729E-04 +7.62588526810E-01 +3.61993530964E-01
2.71000000000E+09 +7.42219397586E-01 +2.07120521225E-01 -1.40230003102E-04 +4.56964517470E-04 -1.33640565503E-04 +4.44772531261E-04 +7.65443286052E-01 +3.48838221139E-01
2.71500000000E+09 +7.42398615257E-01 +1.93624318132E-01 -8.14146050507E-05 +4.64586601659E-04 -8.38193437788E-05 +5.03488467608E-04 +7.67881893810E-01 +3.36196720389E-01
2.72000000000E+09 +7.42574616244E-01 +1.79883515663E-01 -8.01774230541E-05 +4.12999891753E-04 -1.16795593720E-05 +4.23837014757E-04 +7.69771695822E-01 +3.23700509699E-01
2.72500000000E+09 +7.42402104078E-01 +1.64734593972E-01 -1.76303980365E-04 +3.44985256346E-04 -1.40076612432E-04 +3.85125038465E-04 +7.71063161389E-01 +3.10269617160E-01
2.73000000000E+09 +7.41178189361E-01 +1.48552471131E-01 -7.85966250313E-05 +6.20068824320E-04 -5.55182349324E-05 +5.82339356020E-04 +7.72281490172E-01 +2.96309142411E-01
2.73500000000E+09 +7.38375447512E-01 +1.31538523245E-01 +1.47982395291E-04 +5.00568060409E-04 +1.78347628661E-04 +4.93577461382E-04 +7.73106737600E-01 +2.81347080513E-01
2.74000000000E+09 +7.34671871059E-01 +1.14854140999E-01 +1.21026483765E-04 +4.33510230861E-04 +9.66212672425E-05 +3.43704542253E-04 +7.74282073247E-01 +2.66335205834E-01
2.74500000000E+09 +7.29890281197E-01 +9.78638090658E-02 +1.78202254230E-04 +4.28961805819E-04 +1.72766882427E-04 +3.51748341476E-04 +7.75178774022E-01 +2.51211215845E-01
2.75000000000E+09 +7.24189951043E-01 +8.15417301556E-02 +1.31978333601E-04 +2.35982274671E-04 +9.71710985823E-05 +2.49211789273E-04 +7.76024449985E-01 +2.36363684559E-01
2.75500000000E+09 +7.18664094884E-01 +6.53899080562E-02 -1.34612917929E-05 +3.70827032219E-04 -1.34524076785E-05 +3.39683704133E-04 +7.75868938097E-01 +2.21325834042E-01
2.76000000000E+09 +7.12957621789E-01 +4.94578925357E-02 +2.79451330677E-05 +3.43049860636E-04 -2.71808389817E-06 +3.60832769445E-04 +7.74936375237E-01 +2.06114219145E-01
2.76500000000E+09 +7.07918725171E-01 +3.38175714463E-02 +9.53119629405E-05 +4.80732892475E-04 +7.50806209461E-05 +5.05369414228E-04 +7.73826378420E-01 +1.90330094816E-01
2.77000000000E+09 +7.03426746147E-01 +1.72527400632E-02 +1.33104582275E-04 +4.87233595314E-04 +1.76300523709E-04 +5.08873312191E-04 +7.72863977891E-01 +1.73598788982E-01
2.77500000000E+09 +6.99430491160E-01 -2.67180381346E-04 +1.91248277978E-04 +4.92336694144E-04 +1.98366434079E-04 +5.33548234225E-04 +7.71589129367E-01 +1.56082210546E-01
2.78000000000E+09 +6.95162132400E-01 -1.90780845072E-02 +4.07920607813E-04 +5.09757140274E-04 +4.43517332986E-04 +5.06903074769E-04 +7.69903296336E-01 +1.38339733750E-01
2.78500000000E+09 +6.89951558751E-01 -3.89694493262E-02 +3.25393228215E-04 +3.48026437792E-04 +2.87655982682E-04 +3.18346527575E-04 +7.67383661328E-01 +1.21162833087E-01
2.79000000000E+09 +6.83783841747E-01 -5.93002089801E-02 +2.54736556853E-04 +5.53318563637E-04 +2.55471637830E-04 +5.41876841504E-04 +7.64890504214E-01 +1.04466817601E-01
2.79500000000E+09 +6.76181827160E-01 -7.93003227983E-02 +6.36771293890E-04 +4.67060015718E-04 +5.48629391243E-04 +4.62533029602E-04 +7.61664631511E-01 +8.61021215862E-02
2.80000000000E+09 +6.67206553038E-01 -9.85108082810E-02 +6.21688031084E-04 +3.92721333402E-04 +5.49462762124E-04 +3.78854753445E-04 +7.56886862442E-01 +6.72324053358E-02
2.80500000000E+09 +6.57461917309E-01 -1.16464137730E-01 +6.20081643423E-04 +2.62029013850E-04 +6.40020534380E-04 +2.64595170142E-04 +7.51388039041E-01 +4.81464819288E-02
2.81000000000E+09 +6.46751783541E-01 -1.32974227331E-01 +5.72350689672E-04 +3.21838580794E-04 +6.01128505480E-04 +3.48351290560E-04 +7.45398783113E-01 +2.84560085487E-02
2.81500000000E+09 +6.35549758797E-01 -1.49266114968E-01 +8.31900780999E-04 +2.49844961886E-04 +8.44590283100E-04 +2.56546971881E-04 +7.38588013833E-01 +8.40145983441E-03
2.82000000000E+09 +6.23243525038E-01 -1.64813661561E-01 +8.40524825923E-04 -9.37910646473E-05 +8.14575625813E-04 -1.28783037377E-04 +7.31349881128E-01 -1.16989677810E-02
2.82500000000E+09 +6.09693931928E-01 -1.80382666061E-01 +5.31040007357E-04 -9.55670015900E-05 +5.46286378833E-04 -1.15495843986E-04 +7.22369011850E-01 -3.23953356115E-02
2.83000000000E+09 +5.94972907577E-01 -1.96305893479E-01 +7.21153368128E-04 +3.60139413071E-05 +6.70702791381E-04 +6.35254385097E-05 +7.12269038604E-01 -5.22605701779E-02
2.83500000000E+09 +5.78988794592E-01 -2.13318839900E-01 +7.48980326930E-04 -2.04298025797E-05 +7.12808529453E-04 -4.16328730250E-06 +7.01648332914E-01 -7.20061428632E-02
2.84000000000E+09 +5.60077023213E-01 -2.31274885300E-01 +9.26492658416E-04 -2.63626427030E-04 +9.40034191533E-04 -2.38620127865E-04 +6.90278904457E-01 -9.24116447927E-02
2.84500000000E+09 +5.39054980974E-01 -2.48715201640E-01 +7.34288171937E-04 -5.42588713409E-04 +7.37840795455E-04 -4.80406709981E-04 +6.77514174639E-01 -1.13022684256E-01
2.85000000000E+09 +5.16843486944E-01 -2.66163810370E-01 +4.77707369219E-04 -5.00732949806E-04 +5.02774887345E-04 -5.32445476125E-04 +6.62898454399E-01 -1.33531173312E-01
2.85500000000E+09 +4.92753619165E-01 -2.82696115304E-01 +2.99357158851E-04 -1.87643733768E-04 +3.22888509106E-04 -2.34727214070E-04 +6.47807741703E-01 -1.52748677413E-01
2.86000000000E+09 +4.68809060889E-01 -2.98024187393E-01 +9.18219774646E-04 -1.83907406186E-05 +8.92288800581E-04 -1.12233169101E-04 +6.31947847098E-01 -1.72686348826E-01
2.86500000000E+09 +4.44316927853E-01 -3.12736499831E-01 +1.16074146533E-03 -6.82644702840E-04 +1.07599964849E-03 -6.37129705376E-04 +6.14163072949E-01 -1.92686348646E-01
2.87000000000E+09 +4.19429117532E-01 -3.25585768599E-01 +8.17777677171E-04 -9.31871485877E-04 +7.67575906269E-04 -9.45005191385E-04 +5.95177125480E-01 -2.12070905393E-01
2.87500000000E+09 +3.95198289382E-01 -3.37015462958E-01 +4.05004137133E-04 -1.10829592684E-03 +3.92684768914E-04 -1.09045396889E-03 +5.74945227645E-01 -2.30780547209E-01
2.88000000000E+09 +3.71060930182E-01 -3.47731135434E-01 +2.45793709985E-04 -8.33169363146E-04 +1.94351673978E-04 -8.07360359427E-04 +5.54136971944E-01 -2.48916857270E-01
2.88500000000E+09 +3.45809800336E-01 -3.57790936294E-01 +3.94068029843E-04 -7.04265381256E-04 +3.86180318667E-04 -6.71519600826E-04 +5.31715203224E-01 -2.66939075560E-01
2.89000000000E+09 +3.19660770229E-01 -3.66438015691E-01 +4.69253159034E-04 -1.06824080672E-03 +4.42897098590E-04 -9.75802767640E-04 +5.07656627745E-01 -2.83879612163E-01
2.89500000000E+09 +2.91900523172E-01 -3.74240672961E-01 +5.85236202979E-04 -1.20732035893E-03 +6.34500837765E-04 -1.10801312626E-03 +4.82386037129E-01 -3.01189395245E-01
2.90000000000E+09 +2.62397534195E-01 -3.80406911662E-01 -1.49313685180E-04 -1.79777617746E-03 -3.03669648798E-05 -1.75546267631E-03 +4.54441745912E-01 -3.17896278183E-01
2.90500000000E+09 +2.30582007016E-01 -3.84418788625E-01 -4.23371691036E-04 -1.07626469413E-03 -3.54467398177E-04 -1.10511874990E-03 +4.25698266818E-01 -3.32850810101E-01
2.91000000000E+09 +1.99140227887E-01 -3.85045337442E-01 -6.06538861948E-05 -1.50060254148E-03 -7.87461341449E-05 -1.43588852597E-03 +3.96095694535E-01 -3.47037817693E-01
2.91500000000E+09 +1.67900786155E-01 -3.85052513810E-01 -7.98532632687E-04 -1.65989345504E-03 -7.35532244665E-04 -1.58960991836E-03 +3.64469099044E-01 -3.59525362410E-01
2.92000000000E+09 +1.35886533847E-01 -3.83064968472E-01 -1.08284121189E-03 -1.17170990308E-03 -1.01497009306E-03 -1.11538372305E-03 +3.31637566261E-01 -3.69289411022E-01
2.92500000000E+09 +1.04257944365E-01 -3.79300335354E-01 -1.09592302295E-03 -1.35111664974E-03 -9.58856655243E-04 -1.41769589639E-03 +2.98015381143E-01 -3.77054092936E-01
2.93000000000E+09 +7.30229101404E-02 -3.73757568809E-01 -1.66357157472E-03 -8.75535697263E-04 -1.65109833636E-03 -9.98728778921E-04 +2.63049725431E-01 -3.84514584842E-01
2.93500000000E+09 +4.19212235609E-02 -3.66727354333E-01 -1.55670175903E-03 -1.89734205573E-04 -1.56196249036E-03 -3.19721331656E-04 +2.25110001443E-01 -3.90670340944E-01
2.94000000000E+09 +1.11251402949E-02 -3.57391216385E-01 -1.11907851934E-03 -1.80238405442E-04 -1.05980268898E-03 -2.32223498859E-04 +1.85874787178E-01 -3.94177158037E-01
2.94500000000E+09 -1.96140806643E-02 -3.46301849498E-01 -1.17798084284E-03 -4.82617734294E-04 -1.22255555190E-03 -5.31690400943E-04 +1.45491753403E-01 -3.94760324325E-01
2.95000000000E+09 -5.02979299742E-02 -3.32074394712E-01 -1.56329355713E-03 -3.97118170231E-04 -1.58591750916E-03 -4.19450892580E-04 +1.06073944860E-01 -3.91550214391E-01
2.95500000000E+09 -8.02374866631E-02 -3.14657686972E-01 -1.70652319557E-03 +1.60380179926E-04 -1.84300194215E-03 +8.21830836429E-05 +6.72475679605E-02 -3.86631382134E-01
2.96000000000E+09 -1.08251403665E-01 -2.94879046243E-01 -1.76128115552E-03 +5.36731292420E-04 -1.83872894501E-03 +5.10600221894E-04 +2.70857547248E-02 -3.78663135967E-01
2.96500000000E+09 -1.35567172399E-01 -2.73412276371E-01 -1.32020011034E-03 +1.13396586401E-03 -1.29750818226E-03 +1.17335118644E-03 -1.24460738758E-02 -3.68230642510E-01
2.97000000000E+09 -1.61812073165E-01 -2.49493590449E-01 -5.93523647815E-04 +1.08583071888E-03 -5.68519256017E-04 +1.05614816914E-03 -5.39629356067E-02 -3.55031853006E-01
2.97500000000E+09 -1.86727600652E-01 -2.23314428699E-01 -6.12240922966E-04 +3.71907028751E-04 -6.14482388779E-04 +3.71668802357E-04 -9.34750256032E-02 -3.37749923224E-01
2.98000000000E+09 -2.09335099348E-01 -1.95691867421E-01 -1.19231004040E-03 +7.68980558152E-04 -1.15996624762E-03 +7.27015706332E-04 -1.32357136151E-01 -3.18639768012E-01
2.98500000000E+09 -2.30935587853E-01 -1.67085947866E-01 -6.96622662528E-04 +1.15296580142E-03 -7.50601621417E-04 +1.15776542826E-03 -1.69503685598E-01 -2.95467604146E-01
2.99000000000E+09 -2.49754014131E-01 -1.37189320022E-01 -3.09739651935E-04 +9.78892235326E-04 -3.29044466961E-04 +9.75266510293E-04 -2.04721741967E-01 -2.69763201383E-01
2.99500000000E+09 -2.67257136668E-01 -1.08285859966E-01 -6.43554300218E-04 +5.92696428453E-04 -5.98595415118E-04 +6.57319030480E-04 -2.37938973990E-01 -2.39903034048E-01
3.00000000000E+09 -2.84004775777E-01 -7.77661745157E-02 -8.21098681395E-04 +1.28409891965E-03 -7.55704262169E-04 +1.32893717581E-03 -2.67582787581E-01 -2.09171443262E-01
3.00500000000E+09 -2.97484574072E-01 -4.71529906189E-02 -3.34477348402E-04 +1.38477927801E-03 -2.31711202537E-04 +1.35147952732E-03 -2.97239699218E-01 -1.77348346475E-01
3.01000000000E+09 -3.08991056650E-01 -1.70165772745E-02 +6.09042155729E-05 +1.40975450804E-03 +3.81372601745E-06 +1.36136429806E-03 -3.24155597132E-01 -1.42613844415E-01
3.01500000000E+09 -3.18429460480E-01 +1.31868885544E-02 +6.54563373993E-04 +1.35171676807E-03 +6.64413228691E-04 +1.34327283247E-03 -3.48676225871E-01 -1.06538739164E-01
3.02000000000E+09 -3.25164798241E-01 +4.35257070244E-02 +5.30655485973E-04 +4.16034114159E-04 +5.13902332280E-04 +3.88056635160E-04 -3.69343826828E-01 -6.88332168047E-02
3.02500000000E+09 -3.28325915603E-01 +7.38230580527E-02 +2.19375949074E-05 +6.40433191693E-04 +3.03574563457E-05 +6.15484630432E-04 -3.86830634481E-01 -2.99775076596E-02
3.03000000000E+09 -3.28591390433E-01 +1.02834109867E-01 -1.63655360572E-04 +6.85080653452E-04 -1.47611967261E-04 +5.97785266044E-04 -4.00880985903E-01 +9.61100408639E-03
3.03500000000E+09 -3.27059631422E-01 +1.31036162067E-01 -1.55191345204E-04 +1.52506031070E-03 -2.32032002443E-04 +1.50797780247E-03 -4.11910952349E-01 +4.92686641548E-02
3.04000000000E+09 -3.23627946189E-01 +1.59520733166E-01 +1.01579335866E-03 +1.10059586095E-03 +9.97717446552E-04 +1.16149972826E-03 -4.20484231793E-01 +8.83021464105E-02
3.04500000000E+09 -3.17998404179E-01 +1.88079931633E-01 +7.15140324998E-04 +6.65581849235E-04 +6.92088161699E-04 +8.03942895802E-04 -4.27384265396E-01 +1.27699818067E-01
3.05000000000E+09 -3.10154426825E-01 +2.16852733819E-01 +7.91226113133E-04 +8.29957150815E-04 +9.07712770173E-04 +8.68530408905E-04 -4.31145135783E-01 +1.67320116963E-01
3.05500000000E+09 -3.00226773677E-01 +2.44598351259E-01 +9.68768411385E-04 +7.88584522019E-04 +1.05975970358E-03 +7.21790789666E-04 -4.32363832446E-01 +2.05823821513E-01
3.06000000000E+09 -2.89196962395E-01 +2.71302347086E-01 +1.14262812837E-03 +2.97509175109E-04 +1.10723830552E-03 +2.15587409765E-04 -4.31036374579E-01 +2.44654360162E-01
3.06500000000E+09 -2.77835122549E-01 +2.98059518393E-01 +8.39400381191E-04 +3.84870567731E-05 +8.24365841053E-04 +3.73704570478E-05 -4.26490183558E-01 +2.82247533786E-01
3.07000000000E+09 -2.64240090688E-01 +3.23145553482E-01 +6.29675099144E-04 +2.74012800463E-04 +5.79000466946E-04 +2.60768996244E-04 -4.19839223714E-01 +3.17903498227E-01
