# Hz S RI R 50
! CMT, C1220, 16058040, 17.2.0/1
! Date: 15/08/2018 10:30:52
! Data: Format (Calibration Info)
! Freq                      S11: Re/Im (F2)                       S21: Re/Im (F2)                       S12: Re/Im (F2)                       S22: Re/Im (F2)            
2.50000000000E+09 +5.78490387165E-01 +6.67420691984E-01 -3.06985232323E-04 -1.84908749665E-05 -3.91573912338E-04 -1.44193929016E-05 +5.65798531541E-01 +7.21843078488E-01
2.50500000000E+09 +5.85890568680E-01 +6.59440529785E-01 -2.28013206158E-04 -4.55813777767E-05 -2.54156455867E-04 -4.25816040303E-05 +5.71452126212E-01 +7.16299560948E-01
2.51000000000E+09 +5.93613398470E-01 +6.51372907919E-01 -2.29551927560E-04 -5.80767061173E-05 -2.24827392466E-04 -4.54570661660E-05 +5.76964348084E-01 +7.11177672883E-01
2.51500000000E+09 +6.01014268915E-01 +6.43489399865E-01 -3.26521957790E-04 -9.37252384112E-05 -2.74177840674E-04 -1.03713667460E-04 +5.82479731282E-01 +7.05851279037E-01
2.52000000000E+09 +6.07987401162E-01 +6.35580753301E-01 -3.70298924062E-04 +4.81392297276E-05 -3.77363928285E-04 +1.17579711746E-05 +5.87699484020E-01 +6.99860374758E-01
2.52500000000E+09 +6.13934962696E-01 +6.28317562249E-01 -2.83589358317E-04 +7.09471643890E-05 -2.97082177261E-04 +4.43003531307E-05 +5.93312780419E-01 +6.93464091658E-01
2.53000000000E+09 +6.19450369158E-01 +6.21270101366E-01 -2.74914291522E-04 +8.72197443446E-06 -2.85368895070E-04 +2.26491838141E-05 +5.99487775964E-01 +6.86527191570E-01
2.53500000000E+09 +6.24306914914E-01 +6.14230480910E-01 -2.95341023000E-04 +6.09230468060E-05 -3.08905253047E-04 +5.12290051920E-05 +6.05457293775E-01 +6.79729448905E-01
2.54000000000E+09 +6.29022270040E-01 +6.07228656907E-01 -3.54556706985E-04 +5.83211892448E-05 -3.07912421739E-04 +4.81880011040E-05 +6.11525991048E-01 +6.73267332614E-01
2.54500000000E+09 +6.33856582201E-01 +5.99998962726E-01 -3.48389492612E-04 +2.02931012819E-04 -3.81659336751E-04 +1.41558848619E-04 +6.17229268282E-01 +6.66986782289E-01
2.55000000000E+09 +6.39088406387E-01 +5.92505515377E-01 -2.86677786490E-04 +2.42456265810E-04 -3.37693929539E-04 +2.00843055278E-04 +6.22603510710E-01 +6.60639089611E-01
2.55500000000E+09 +6.44833497145E-01 +5.84215700835E-01 -2.43835290406E-04 +2.44476757260E-04 -2.86809782182E-04 +3.32945625434E-04 +6.27762006223E-01 +6.54114700676E-01
2.56000000000E+09 +6.51282039592E-01 +5.76288739121E-01 -1.97499973572E-04 +2.22179462552E-04 -2.41986146071E-04 +2.52055103330E-04 +6.32723124615E-01 +6.46837614555E-01
2.56500000000E+09 +6.58267134175E-01 +5.67935517714E-01 -1.95520870388E-04 +2.15047727446E-04 -1.96539595910E-04 +2.94065345194E-04 +6.37810996493E-01 +6.39431092543E-01
2.57000000000E+09 +6.65285797949E-01 +5.59432748831E-01 -2.71145466453E-04 +2.35775572748E-04 -2.24812353766E-04 +3.23197914576E-04 +6.43204000600E-01 +6.31627900174E-01
2.57500000000E+09 +6.72026634647E-01 +5.50856160009E-01 -2.20497865825E-04 +3.48443398964E-04 -1.56985514675E-04 +3.45714333088E-04 +6.48717565474E-01 +6.23927651921E-01
2.58000000000E+09 +6.77770584043E-01 +5.42893143115E-01 -1.99863190229E-04 +4.24854973553E-04 -1.37661752941E-04 +3.75708383803E-04 +6.53809846881E-01 +6.16260086335E-01
2.58500000000E+09 +6.83082191610E-01 +5.35167598727E-01 -1.58701884210E-04 +4.34524241390E-04 -8.63036821459E-05 +3.52864105551E-04 +6.58499500518E-01 +6.08667043916E-01
2.59000000000E+09 +6.88052225905E-01 +5.27531793831E-01 -9.53087444047E-05 +4.12874013808E-04 -9.50737779749E-05 +3.97591734420E-04 +6.63261654947E-01 +6.01266752868E-01
2.59500000000E+09 +6.92655648999E-01 +5.19416974687E-01 +1.11934624917E-05 +4.99913311793E-04 -5.99234714018E-05 +4.53753545967E-04 +6.68153445993E-01 +5.93300569741E-01
2.60000000000E+09 +6.96635403880E-01 +5.10439011636E-01 +7.01632190359E-05 +4.01997618628E-04 +7.72014161820E-05 +4.19251594069E-04 +6.73158215635E-01 +5.85108643533E-01
2.60500000000E+09 +7.00704904644E-01 +5.00470303906E-01 +7.91909449742E-05 +4.55572634833E-04 +7.14882777121E-05 +4.53449500944E-04 +6.78427078958E-01 +5.76587071001E-01
2.61000000000E+09 +7.04782183231E-01 +4.89527437510E-01 +2.21746754456E-04 +5.30589428893E-04 +1.69576303090E-04 +4.98647922575E-04 +6.83695335930E-01 +5.67810025862E-01
2.61500000000E+09 +7.09640339983E-01 +4.77627695119E-01 +4.11069458117E-04 +3.47660402989E-04 +3.69257018872E-04 +3.83476322235E-04 +6.88626606991E-01 +5.59154321437E-01
2.62000000000E+09 +7.14520941486E-01 +4.64361613411E-01 +2.82899107110E-04 +1.49120698344E-04 +3.12388038592E-04 +1.81957845746E-04 +6.93352113672E-01 +5.50045085239E-01
2.62500000000E+09 +7.19332345188E-01 +4.50452045172E-01 +1.20385502903E-04 +2.49903680435E-04 +1.92236889595E-04 +2.77743803752E-04 +6.97788434670E-01 +5.41306544576E-01
2.63000000000E+09 +7.23958946884E-01 +4.36649484912E-01 +1.61534110048E-04 +3.57324356044E-04 +2.96886989172E-04 +3.27229868526E-04 +7.02422444078E-01 +5.32338918208E-01
2.63500000000E+09 +7.28080367370E-01 +4.23317751592E-01 +3.00748780012E-04 +2.84244057157E-04 +2.74754816723E-04 +2.99184608867E-04 +7.07105690615E-01 +5.23546706787E-01
2.64000000000E+09 +7.31946259798E-01 +4.10668091921E-01 +4.16615154568E-04 +3.94609387274E-04 +3.50309660182E-04 +3.40763845205E-04 +7.11673030804E-01 +5.13924601190E-01
2.64500000000E+09 +7.35441113293E-01 +3.98926038081E-01 +4.87535146552E-04 +2.06348870146E-04 +4.30856493961E-04 +2.06650950655E-04 +7.16373945540E-01 +5.04193922827E-01
2.65000000000E+09 +7.38462591909E-01 +3.88001122175E-01 +5.20531242636E-04 +7.79361318623E-05 +4.93487742885E-04 +1.41875238094E-04 +7.20447752144E-01 +4.94124692662E-01
2.65500000000E+09 +7.41605720247E-01 +3.77031154156E-01 +4.42209906237E-04 -2.36037315345E-05 +4.52701355136E-04 +4.69098354978E-05 +7.24428288057E-01 +4.83789940840E-01
2.66000000000E+09 +7.44643214437E-01 +3.65679881561E-01 +4.02708069002E-04 +1.69405885964E-05 +4.48782940958E-04 +3.26117363176E-05 +7.28462935335E-01 +4.72824181920E-01
2.66500000000E+09 +7.47559813738E-01 +3.53805077523E-01 +4.40351613389E-04 +1.79411287998E-07 +4.60777119681E-04 -1.14007835036E-05 +7.32787941511E-01 +4.61854547117E-01
2.67000000000E+09 +7.50288873415E-01 +3.41071948085E-01 +4.90194384393E-04 -9.27896316631E-05 +4.74433318214E-04 -1.37802126802E-04 +7.37173952664E-01 +4.51044666159E-01
2.67500000000E+09 +7.52882644770E-01 +3.27196253108E-01 +4.39372811173E-04 -1.03373888904E-04 +4.03572871485E-04 -1.77941465205E-04 +7.41353201008E-01 +4.39884172330E-01
2.68000000000E+09 +7.54881091009E-01 +3.12643148688E-01 +4.35853719214E-04 -1.64320407852E-04 +4.15910596116E-04 -2.24613290844E-04 +7.45247342329E-01 +4.28994295045E-01
2.68500000000E+09 +7.56593882159E-01 +2.97924173975E-01 +3.98781125096E-04 -3.63273477240E-04 +3.70529701753E-04 -3.35365700499E-04 +7.48393409725E-01 +4.17299465774E-01
2.69000000000E+09 +7.57986774922E-01 +2.83394268844E-01 +2.09488163796E-04 -3.44529000663E-04 +2.24678343884E-04 -3.41362356975E-04 +7.51001618058E-01 +4.05285149383E-01
2.69500000000E+09 +7.59525008754E-01 +2.69547408560E-01 +2.37121002458E-04 -2.57292494845E-04 +2.29792865813E-04 -2.63788203863E-04 +7.53542253210E-01 +3.92749600513E-01
2.70000000000E+09 +7.61131285763E-01 +2.55577672249E-01 +1.84047864692E-04 -3.79984024946E-04 +2.06658891543E-04 -3.85684997320E-04 +7.56210531151E-01 +3.79928926144E-01
2.70500000000E+09 +7.62551453387E-01 +2.42030477516E-01 +6.05053989401E-06 -3.69736734535E-04 +1.20934205184E-04 -3.22576708986E-04 +7.59272381784E-01 +3.66720448851E-01
2.71000000000E+09 +7.63649148551E-01 +2.28433322054E-01 -2.54019655732E-06 -3.08451053573E-04 +7.34381260077E-06 -3.21302642035E-04 +7.61921479393E-01 +3.53829165887E-01
2.71500000000E+09 +7.64945721087E-01 +2.14724424010E-01 -1.93597656924E-05 -2.98273188835E-04 -7.43544079953E-06 -2.65806289915E-04 +7.64535119249E-01 +3.41144684858E-01
2.72000000000E+09 +7.66073252564E-01 +2.00032835072E-01 -1.29300359344E-04 -3.08567603007E-04 -8.69160927368E-05 -3.44163061110E-04 +7.65982409682E-01 +3.28501622857E-01
2.72500000000E+09 +7.66315160879E-01 +1.84500185500E-01 -2.58937749815E-04 -2.15611612585E-04 -2.77512702458E-04 -2.00057936698E-04 +7.66843625054E-01 +3.15521600684E-01
2.73000000000E+09 +7.66007911552E-01 +1.67924050260E-01 -2.44745827052E-04 -8.23646486660E-05 -2.65951040906E-04 -4.93070587422E-05 +7.67947718917E-01 +3.01970473492E-01
2.73500000000E+09 +7.64444870699E-01 +1.50074357470E-01 -3.43715675201E-04 +2.03482978972E-04 -2.60178775502E-04 +1.69157610051E-04 +7.69179299528E-01 +2.87881282576E-01
2.74000000000E+09 +7.61906106894E-01 +1.32441711036E-01 +7.63675884411E-05 +4.04023293045E-04 +2.21861828208E-05 +3.09143002857E-04 +7.71160544446E-01 +2.72907539562E-01
2.74500000000E+09 +7.58415409228E-01 +1.14410869903E-01 +1.89452316833E-04 +1.66329836536E-04 +1.79543473160E-04 +1.73043961554E-04 +7.72344584486E-01 +2.57662131332E-01
2.75000000000E+09 +7.54476612485E-01 +9.65080107597E-02 +2.78858037259E-04 +1.17288012092E-04 +3.10500734279E-04 +1.02334837717E-04 +7.73246968266E-01 +2.42840234848E-01
2.75500000000E+09 +7.49863765822E-01 +7.87047203894E-02 +2.74785841981E-04 +3.07856267541E-05 +2.65901827644E-04 +3.05276594491E-05 +7.73227405046E-01 +2.28138084314E-01
2.76000000000E+09 +7.45573290208E-01 +6.12014243404E-02 +2.20705520698E-04 +1.31315899209E-04 +2.58416268191E-04 +1.93947552971E-04 +7.73266585229E-01 +2.13097178702E-01
2.76500000000E+09 +7.40988507726E-01 +4.30974853835E-02 +5.30519903140E-04 +1.07060578717E-04 +5.40071325563E-04 +1.05662531781E-04 +7.72557480845E-01 +1.96376209323E-01
2.77000000000E+09 +7.35944273068E-01 +2.43092800990E-02 +4.41076005043E-04 -1.03547668251E-04 +4.59494240361E-04 -1.32576263638E-04 +7.71495962066E-01 +1.79560750550E-01
2.77500000000E+09 +7.31172116552E-01 +5.19088536556E-03 +4.48360627171E-04 +1.37098679904E-05 +4.59510352296E-04 +3.07970830464E-05 +7.70315988336E-01 +1.61646335070E-01
2.78000000000E+09 +7.26099231398E-01 -1.56808689438E-02 +7.08054301079E-04 -4.96045755634E-05 +7.44068396225E-04 -1.15432729303E-04 +7.68669300861E-01 +1.43707218212E-01
2.78500000000E+09 +7.19851022148E-01 -3.74430914573E-02 +9.31930204343E-04 -3.34070593975E-04 +9.21164349320E-04 -4.20216239626E-04 +7.66070028245E-01 +1.25722121984E-01
2.79000000000E+09 +7.12950907038E-01 -5.95143960505E-02 +8.06060441844E-04 -8.37714892262E-04 +7.86792877304E-04 -8.50931956885E-04 +7.62857925493E-01 +1.08702357830E-01
2.79500000000E+09 +7.04823871617E-01 -8.16609963314E-02 +5.15020096181E-04 -9.19262746281E-04 +5.21345378470E-04 -8.65165657693E-04 +7.58769290491E-01 +9.10285100509E-02
2.80000000000E+09 +6.95662740526E-01 -1.02566615995E-01 +3.09689058463E-04 -9.88065080332E-04 +3.44779780717E-04 -9.26455839058E-04 +7.54210535288E-01 +7.30228843409E-02
2.80500000000E+09 +6.86338948400E-01 -1.22429323293E-01 +2.20999661599E-04 -9.26706597465E-04 +2.62121502009E-04 -9.53876962389E-04 +7.49011612462E-01 +5.37978017184E-02
2.81000000000E+09 +6.76421479504E-01 -1.41086445347E-01 +2.30435746584E-04 -1.08182150298E-03 +2.96890194462E-04 -1.03503507889E-03 +7.42589226645E-01 +3.46421762731E-02
2.81500000000E+09 +6.65872902094E-01 -1.58831332121E-01 +1.34077742829E-04 -1.14987074839E-03 +7.12203480975E-05 -1.19540182697E-03 +7.36039981838E-01 +1.51484283623E-02
2.82000000000E+09 +6.54373813437E-01 -1.76421051667E-01 -9.81236327317E-05 -1.18457618250E-03 -2.41438780488E-04 -1.19262839560E-03 +7.28907439354E-01 -4.63091472065E-03
2.82500000000E+09 +6.41315722417E-01 -1.93713967604E-01 -5.17270714908E-06 -1.18253588228E-03 -4.50783604936E-05 -1.14182556820E-03 +7.20870113961E-01 -2.42376881813E-02
2.83000000000E+09 +6.26505008517E-01 -2.11455913468E-01 -2.13894118975E-04 -1.67770245355E-03 -2.25737277403E-04 -1.61164354262E-03 +7.12261222311E-01 -4.42992141984E-02
2.83500000000E+09 +6.10131906429E-01 -2.29221306067E-01 -8.99516509852E-04 -1.77887749093E-03 -8.85645013280E-04 -1.74344306363E-03 +7.02136809978E-01 -6.45901557851E-02
2.84000000000E+09 +5.92223312795E-01 -2.47950863093E-01 -1.43584736182E-03 -1.39421158016E-03 -1.34340870024E-03 -1.38346630195E-03 +6.91273655472E-01 -8.52470854540E-02
2.84500000000E+09 +5.71776506431E-01 -2.67951133429E-01 -1.38952192405E-03 -9.31370249499E-04 -1.44564575505E-03 -9.55860494512E-04 +6.79468831796E-01 -1.05991026559E-01
2.85000000000E+09 +5.49626844289E-01 -2.87672588465E-01 -1.32044705737E-03 -9.63907655306E-04 -1.31782237563E-03 -9.34493550174E-04 +6.65865335464E-01 -1.27442775577E-01
2.85500000000E+09 +5.25760482069E-01 -3.07230280637E-01 -1.66701994728E-03 -8.42374668938E-04 -1.65152076361E-03 -8.52777022926E-04 +6.50863557820E-01 -1.47789215017E-01
2.86000000000E+09 +5.01475718660E-01 -3.25436050149E-01 -1.61078804507E-03 -7.45566867616E-04 -1.53193601594E-03 -7.60865536446E-04 +6.35546983454E-01 -1.68582161137E-01
2.86500000000E+09 +4.76792489433E-01 -3.42884112011E-01 -1.97934416628E-03 -7.04914383503E-04 -1.93038585285E-03 -7.42664912329E-04 +6.18121320828E-01 -1.89677250263E-01
2.87000000000E+09 +4.52112310919E-01 -3.58690925398E-01 -2.11573367285E-03 -5.29788071377E-04 -2.19388852072E-03 -5.23260948302E-04 +5.98876295047E-01 -2.10139545076E-01
2.87500000000E+09 +4.27624883273E-01 -3.73621220290E-01 -2.70164809428E-03 -3.92410545205E-04 -2.73312602153E-03 -3.73085888574E-04 +5.78790381980E-01 -2.29727411092E-01
2.88000000000E+09 +4.01810373547E-01 -3.87388652671E-01 -3.26867803393E-03 +4.34654096136E-04 -3.14988383217E-03 +4.53510082374E-04 +5.57290839383E-01 -2.49567284027E-01
2.88500000000E+09 +3.75390124457E-01 -3.99402847868E-01 -3.14207075905E-03 +1.60686863724E-03 -2.95430063097E-03 +1.51189922365E-03 +5.34023803613E-01 -2.68357928842E-01
2.89000000000E+09 +3.47610863941E-01 -4.11001001335E-01 -2.28086139944E-03 +2.13410274501E-03 -2.20750574513E-03 +1.97626417178E-03 +5.08511372828E-01 -2.86730132048E-01
2.89500000000E+09 +3.16496393927E-01 -4.21298779314E-01 -1.76225639405E-03 +1.96011759272E-03 -1.79434994320E-03 +1.82441190970E-03 +4.81389136949E-01 -3.03968292589E-01
2.90000000000E+09 +2.83818831736E-01 -4.29212081247E-01 -1.95980615372E-03 +2.14053389028E-03 -2.01988272942E-03 +2.06486142611E-03 +4.52765802327E-01 -3.20601375687E-01
2.90500000000E+09 +2.49021545388E-01 -4.35588614549E-01 -1.70420670978E-03 +2.57116041322E-03 -1.73888321511E-03 +2.61654889815E-03 +4.22909578028E-01 -3.36450440595E-01
2.91000000000E+09 +2.13691459390E-01 -4.39980497760E-01 -1.50608819659E-03 +2.92263509616E-03 -1.38744156906E-03 +2.97735972723E-03 +3.90758299324E-01 -3.50417020568E-01
2.91500000000E+09 +1.76954901056E-01 -4.43126643761E-01 -9.26140773893E-04 +3.28315998417E-03 -8.65122575019E-04 +3.14619413688E-03 +3.58930866561E-01 -3.61278752990E-01
2.92000000000E+09 +1.40129894455E-01 -4.43414209067E-01 -6.26973592477E-04 +3.63163167068E-03 -5.60412175138E-04 +3.31923912580E-03 +3.25773693705E-01 -3.71852771973E-01
2.92500000000E+09 +1.04051257937E-01 -4.42571286216E-01 +3.97259427880E-05 +4.14904586823E-03 -1.09504998200E-04 +3.88641945816E-03 +2.89809821968E-01 -3.79858808089E-01
2.93000000000E+09 +6.78309031774E-02 -4.39573394639E-01 +1.37937309741E-03 +3.91620938221E-03 +1.16006426646E-03 +3.85769195958E-03 +2.51901014904E-01 -3.85869636798E-01
2.93500000000E+09 +3.27070212633E-02 -4.34628456560E-01 +1.70214260978E-03 +3.35440236176E-03 +1.58689992767E-03 +3.46095461478E-03 +2.13180883629E-01 -3.88502427916E-01
2.94000000000E+09 -2.74200706297E-03 -4.27963417592E-01 +2.24635730427E-03 +3.08899353964E-03 +2.20758312334E-03 +3.23277443409E-03 +1.74747148632E-01 -3.89508331350E-01
2.94500000000E+09 -3.87404943520E-02 -4.17887287894E-01 +2.45793597097E-03 +2.80268929909E-03 +2.35677718373E-03 +2.86834162893E-03 +1.36550416645E-01 -3.89802860575E-01
2.95000000000E+09 -7.39753773165E-02 -4.04345056287E-01 +3.06243382841E-03 +2.57269706787E-03 +2.97814824469E-03 +2.67275463089E-03 +9.63835856803E-02 -3.87802609675E-01
2.95500000000E+09 -1.08588188097E-01 -3.87546821115E-01 +3.55451103838E-03 +1.88691532427E-03 +3.53613345321E-03 +2.13775340691E-03 +5.56045842588E-02 -3.81197423250E-01
2.96000000000E+09 -1.42043582411E-01 -3.68048820671E-01 +3.50283017912E-03 +1.30571828971E-03 +3.62804634870E-03 +1.39990042282E-03 +1.63471688649E-02 -3.70982451690E-01
2.96500000000E+09 -1.75077656055E-01 -3.45664472716E-01 +3.71591133830E-03 +1.17550147580E-03 +3.89455887010E-03 +1.13450435820E-03 -2.37777670657E-02 -3.58922879534E-01
2.97000000000E+09 -2.06086113930E-01 -3.20537691836E-01 +4.41214878548E-03 +6.11440460541E-04 +4.40089039872E-03 +4.47245108887E-04 -6.27450725246E-02 -3.43608571817E-01
2.97500000000E+09 -2.35686382284E-01 -2.94325843488E-01 +4.88100947363E-03 -5.79060287394E-04 +4.68093952169E-03 -6.24716694632E-04 -1.02325108021E-01 -3.26912733275E-01
2.98000000000E+09 -2.64759135477E-01 -2.65919758156E-01 +4.11003560608E-03 -1.79913637969E-03 +4.03242308106E-03 -1.71818477244E-03 -1.39850961572E-01 -3.05420136045E-01
2.98500000000E+09 -2.91084371944E-01 -2.34851485627E-01 +3.13904410397E-03 -1.96820117061E-03 +3.18801574425E-03 -1.90754666469E-03 -1.75443261073E-01 -2.82628741542E-01
2.99000000000E+09 -3.14658719705E-01 -2.03709826046E-01 +2.97995648487E-03 -2.00390262372E-03 +3.17511339002E-03 -2.04186462658E-03 -2.09102266439E-01 -2.56605252126E-01
2.99500000000E+09 -3.37548523240E-01 -1.72286827003E-01 +3.21888381698E-03 -2.36789954641E-03 +3.26348657461E-03 -2.55095321511E-03 -2.41725405023E-01 -2.28172450248E-01
3.00000000000E+09 -3.58635241437E-01 -1.38536207490E-01 +2.90079181099E-03 -3.28482202314E-03 +2.70959095666E-03 -3.42898852060E-03 -2.72474393052E-01 -1.95736079855E-01
3.00500000000E+09 -3.76590100567E-01 -1.04066182525E-01 +1.97469662566E-03 -3.93439772184E-03 +1.69867302618E-03 -3.87856549879E-03 -2.99670623464E-01 -1.62322738314E-01
3.01000000000E+09 -3.92600081611E-01 -6.96270276202E-02 +9.49382911745E-04 -3.84935106546E-03 +8.50576687836E-04 -3.65564596702E-03 -3.25266303443E-01 -1.27344372064E-01
3.01500000000E+09 -4.05670487204E-01 -3.40819389810E-02 +7.17767622691E-04 -3.59057615182E-03 +7.45014871157E-04 -3.51731993480E-03 -3.47471379953E-01 -9.19940850429E-02
3.02000000000E+09 -4.16007037439E-01 +9.70443872524E-04 +2.16539632154E-04 -3.86971998660E-03 +2.57351099938E-04 -3.81340265583E-03 -3.67612504668E-01 -5.57010102268E-02
3.02500000000E+09 -4.23559799920E-01 +3.61565922519E-02 -3.90991435210E-04 -3.95501072024E-03 -3.24465413965E-04 -3.89904370453E-03 -3.84700529834E-01 -1.71689038062E-02
3.03000000000E+09 -4.28094362063E-01 +7.11717973355E-02 -1.32354435472E-03 -3.76253779102E-03 -1.27493419873E-03 -3.70678718825E-03 -3.97956267080E-01 +2.15638068789E-02
3.03500000000E+09 -4.28874814821E-01 +1.05662015204E-01 -1.87045107059E-03 -2.90252842974E-03 -1.73638090947E-03 -2.91675701930E-03 -4.08954035338E-01 +6.06496732860E-02
3.04000000000E+09 -4.27860331891E-01 +1.38153899190E-01 -1.79449257398E-03 -2.56731130629E-03 -1.70436416654E-03 -2.76606703565E-03 -4.17640379710E-01 +9.98567224052E-02
3.04500000000E+09 -4.25445802242E-01 +1.71780350122E-01 -1.95718008699E-03 -2.44819108340E-03 -1.99908506247E-03 -2.62624544158E-03 -4.23596358418E-01 +1.39849176165E-01
3.05000000000E+09 -4.19501904983E-01 +2.05420539334E-01 -2.39771477858E-03 -2.26138828832E-03 -2.57717534723E-03 -2.36948425523E-03 -4.26536548266E-01 +1.78951501280E-01
3.05500000000E+09 -4.11625726288E-01 +2.38317162216E-01 -2.92797821487E-03 -1.76248971523E-03 -3.05516970884E-03 -1.61433240010E-03 -4.26502091672E-01 +2.17293258293E-01
3.06000000000E+09 -4.01780000369E-01 +2.71078311328E-01 -3.00217119880E-03 -1.11252748280E-03 -2.94760776865E-03 -8.89341497887E-04 -4.24435085207E-01 +2.54226264385E-01
3.06500000000E+09 -3.89794063723E-01 +3.03000321408E-01 -2.82030673354E-03 -4.00327196164E-04 -2.71854251757E-03 -4.66814781432E-04 -4.20103728063E-01 +2.90680114096E-01
3.07000000000E+09 -3.76481633495E-01 +3.32943047333E-01 -2.46559301132E-03 -2.27417854239E-04 -2.34905559058E-03 -3.86482670059E-04 -4.13874310283E-01 +3.26129275765E-01
