# Hz S RI R 50
! CMT, C1220, 16058040, 17.2.0/1
! Date: 15/08/2018 09:49:05
! Data: Format (Calibration Info)
! Freq                      S11: Re/Im (F2)                       S21: Re/Im (F2)                       S12: Re/Im (F2)                       S22: Re/Im (F2)            
2.50000000000E+09 +5.76538569241E-01 +6.68753710109E-01 -3.87120915047E-04 -1.79259706402E-03 -4.18011409044E-04 -1.91039417345E-03 +5.75304525311E-01 +7.17799082762E-01
2.50500000000E+09 +5.83373144248E-01 +6.61213185910E-01 -6.32151107745E-04 -1.79375960980E-03 -6.81564416725E-04 -1.88274578597E-03 +5.80653890836E-01 +7.12177814041E-01
2.51000000000E+09 +5.90585045671E-01 +6.53330931489E-01 -8.28571317281E-04 -1.76582972340E-03 -9.19455190394E-04 -1.71037209877E-03 +5.86055083786E-01 +7.07061159434E-01
2.51500000000E+09 +5.97925990555E-01 +6.45117151328E-01 -1.05210289091E-03 -1.69271456699E-03 -1.06875971510E-03 -1.62291792062E-03 +5.91311995984E-01 +7.01615278783E-01
2.52000000000E+09 +6.04851205125E-01 +6.36507768456E-01 -1.24445145537E-03 -1.57768364482E-03 -1.16515775135E-03 -1.60548443356E-03 +5.96596289360E-01 +6.95453579022E-01
2.52500000000E+09 +6.10913454482E-01 +6.27994313414E-01 -1.42902995798E-03 -1.36055632623E-03 -1.32386583466E-03 -1.46640522609E-03 +6.02617090819E-01 +6.88809387938E-01
2.53000000000E+09 +6.16550053156E-01 +6.19701749552E-01 -1.43107235554E-03 -1.29057473258E-03 -1.45513251019E-03 -1.34038387930E-03 +6.08723292991E-01 +6.81740695355E-01
2.53500000000E+09 +6.21674676214E-01 +6.11604604193E-01 -1.56519980436E-03 -1.20865585292E-03 -1.56402865043E-03 -1.20439339912E-03 +6.14539767905E-01 +6.75041872235E-01
2.54000000000E+09 +6.26031140549E-01 +6.03894626673E-01 -1.74080784213E-03 -1.14878544448E-03 -1.66305406676E-03 -1.18732282496E-03 +6.20130741988E-01 +6.68656880013E-01
2.54500000000E+09 +6.30613543318E-01 +5.96545097297E-01 -1.92408120292E-03 -1.02437927728E-03 -1.81899147221E-03 -1.18037603541E-03 +6.25919086843E-01 +6.62267414658E-01
2.55000000000E+09 +6.35443092121E-01 +5.89377092323E-01 -2.09075522108E-03 -6.74089487562E-04 -2.16076672241E-03 -9.36960203170E-04 +6.30945666315E-01 +6.55728164736E-01
2.55500000000E+09 +6.41164619542E-01 +5.81561750380E-01 -2.10450115306E-03 -4.46614448723E-04 -2.47413356625E-03 -6.38046615335E-04 +6.36178961281E-01 +6.49045890402E-01
2.56000000000E+09 +6.47551369831E-01 +5.73775811780E-01 -2.00570272789E-03 -2.45274440460E-04 -2.39951183646E-03 -1.49679861880E-04 +6.41765606334E-01 +6.41707937519E-01
2.56500000000E+09 +6.54486171054E-01 +5.65062927968E-01 -1.97415126368E-03 -2.70508644244E-04 -2.26362102813E-03 +1.11349110330E-04 +6.47437328835E-01 +6.34058334593E-01
2.57000000000E+09 +6.61576390735E-01 +5.56093819987E-01 -2.17554713940E-03 -1.61307886650E-04 -2.14985229241E-03 +2.88526185995E-04 +6.52862502833E-01 +6.26450885647E-01
2.57500000000E+09 +6.68812199880E-01 +5.46332768049E-01 -2.39832131211E-03 +1.43185607340E-05 -2.03724366372E-03 +3.45099825366E-04 +6.58096245049E-01 +6.19057691303E-01
2.58000000000E+09 +6.75188235746E-01 +5.36430005324E-01 -2.44845991893E-03 +3.82446988052E-04 -2.02771666289E-03 +4.55638002857E-04 +6.62860602392E-01 +6.11829443873E-01
2.58500000000E+09 +6.81146052720E-01 +5.26475824886E-01 -2.25785679439E-03 +8.56286826754E-04 -2.00929104276E-03 +6.49024237344E-04 +6.67360085721E-01 +6.04222330275E-01
2.59000000000E+09 +6.86459332364E-01 +5.16985689856E-01 -1.93912876797E-03 +8.54064906410E-04 -1.86201527003E-03 +6.63721333946E-04 +6.72298447136E-01 +5.96246730201E-01
2.59500000000E+09 +6.91209020493E-01 +5.07157711317E-01 -2.02737307849E-03 +7.04383749402E-04 -2.04614151946E-03 +6.06157988887E-04 +6.77379926839E-01 +5.87636243269E-01
2.60000000000E+09 +6.95272537081E-01 +4.97624212989E-01 -2.19828823451E-03 +8.48238137813E-04 -2.23732683438E-03 +8.54363989347E-04 +6.82262885560E-01 +5.79127334409E-01
2.60500000000E+09 +6.99429080892E-01 +4.88049463518E-01 -2.42075438916E-03 +1.24079896883E-03 -2.44794386639E-03 +1.21425847809E-03 +6.87502461892E-01 +5.70815899965E-01
2.61000000000E+09 +7.03496750924E-01 +4.77962640359E-01 -2.42935808004E-03 +1.76679154607E-03 -2.39982992293E-03 +1.70838263471E-03 +6.92413554603E-01 +5.62479121183E-01
2.61500000000E+09 +7.08249015128E-01 +4.67241290048E-01 -1.96051404180E-03 +2.26209945130E-03 -2.02439751490E-03 +2.30641938775E-03 +6.96708199719E-01 +5.54339617298E-01
2.62000000000E+09 +7.12959879416E-01 +4.55474364653E-01 -1.48956346618E-03 +2.20110359227E-03 -1.59446369614E-03 +2.39125254976E-03 +7.01605840020E-01 +5.45364802799E-01
2.62500000000E+09 +7.17863494349E-01 +4.42584667334E-01 -1.48495300724E-03 +2.10817784081E-03 -1.39254738375E-03 +2.31796185689E-03 +7.06388020660E-01 +5.36080423592E-01
2.63000000000E+09 +7.22342959721E-01 +4.29129999063E-01 -1.47325400851E-03 +2.40497600029E-03 -1.12063286511E-03 +2.52401776558E-03 +7.11142128994E-01 +5.26691758527E-01
2.63500000000E+09 +7.26313139997E-01 +4.15251163008E-01 -1.33370152321E-03 +2.68358606625E-03 -9.27481824479E-04 +2.47920869722E-03 +7.16213448839E-01 +5.17519278091E-01
2.64000000000E+09 +7.29758120478E-01 +4.01469904927E-01 -1.11124356784E-03 +3.04511592860E-03 -8.76595236270E-04 +2.64553632696E-03 +7.21275213559E-01 +5.08074762030E-01
2.64500000000E+09 +7.32979643503E-01 +3.88364812383E-01 -5.04835425746E-04 +3.26400920980E-03 -6.30115473816E-04 +2.82670863782E-03 +7.25864454426E-01 +4.98741906696E-01
2.65000000000E+09 +7.35659128769E-01 +3.75888156425E-01 -3.22853123766E-05 +3.08174881446E-03 -3.83591406440E-04 +2.85805723819E-03 +7.30160040255E-01 +4.89160983821E-01
2.65500000000E+09 +7.38501911999E-01 +3.63645850040E-01 +1.07494519699E-04 +2.84482712895E-03 -1.59144873741E-04 +3.04754045978E-03 +7.34038997421E-01 +4.78737841376E-01
2.66000000000E+09 +7.41343239942E-01 +3.51510111347E-01 +1.33191401301E-04 +3.00685998892E-03 +1.39866189874E-04 +3.20076820248E-03 +7.38155909104E-01 +4.67680204165E-01
2.66500000000E+09 +7.44250267356E-01 +3.39439806482E-01 +4.79403361809E-04 +3.17427559805E-03 +6.52129708175E-04 +3.27278863019E-03 +7.43111173858E-01 +4.56332525016E-01
2.67000000000E+09 +7.47070218321E-01 +3.26378988776E-01 +1.01332849233E-03 +3.14947398834E-03 +1.17957446378E-03 +3.04855914503E-03 +7.47672897332E-01 +4.44936568979E-01
2.67500000000E+09 +7.49451750745E-01 +3.12646719440E-01 +1.39787116859E-03 +2.81443344742E-03 +1.35418021264E-03 +2.61108972885E-03 +7.51647809386E-01 +4.33674934727E-01
2.68000000000E+09 +7.51169127967E-01 +2.98001138046E-01 +1.40898854508E-03 +2.49473124817E-03 +1.28103591821E-03 +2.39118940885E-03 +7.55270787994E-01 +4.23175385351E-01
2.68500000000E+09 +7.52251999392E-01 +2.82532306741E-01 +1.30611983311E-03 +2.53045723698E-03 +1.19938895513E-03 +2.50603183474E-03 +7.58630055115E-01 +4.11673666829E-01
2.69000000000E+09 +7.52504021838E-01 +2.67209364860E-01 +1.51366583468E-03 +2.77502543190E-03 +1.45974526495E-03 +2.77269736891E-03 +7.61463002549E-01 +3.99567438235E-01
2.69500000000E+09 +7.52791552175E-01 +2.51835346313E-01 +2.02182149520E-03 +2.80661361187E-03 +2.01810729392E-03 +2.76226902482E-03 +7.64228557787E-01 +3.86602807278E-01
2.70000000000E+09 +7.53002041647E-01 +2.36372872613E-01 +2.51135880080E-03 +2.66226755773E-03 +2.43638972948E-03 +2.56643452964E-03 +7.67189584265E-01 +3.72991344939E-01
2.70500000000E+09 +7.52994579539E-01 +2.21251658816E-01 +2.87071425225E-03 +2.11069629509E-03 +2.71781073506E-03 +2.18024555554E-03 +7.70200897981E-01 +3.59433114343E-01
2.71000000000E+09 +7.53127902374E-01 +2.06278956011E-01 +2.85985287211E-03 +1.74446454535E-03 +2.88547798875E-03 +2.00331243031E-03 +7.72968767568E-01 +3.46731829001E-01
2.71500000000E+09 +7.53674276196E-01 +1.91451592492E-01 +2.75953525084E-03 +1.62614117903E-03 +2.95271605661E-03 +1.78407481972E-03 +7.76011283515E-01 +3.34250384750E-01
2.72000000000E+09 +7.54134187095E-01 +1.76276400292E-01 +2.90605602091E-03 +1.76974050388E-03 +3.23222412952E-03 +1.69803092478E-03 +7.78383206718E-01 +3.21125883057E-01
2.72500000000E+09 +7.54539324633E-01 +1.60859659826E-01 +3.45121805181E-03 +1.52747843928E-03 +3.59466279847E-03 +1.19654056409E-03 +7.79227390619E-01 +3.07098057380E-01
2.73000000000E+09 +7.54373702328E-01 +1.44911935141E-01 +3.51291992013E-03 +1.16256133817E-03 +3.32434202016E-03 +7.56111057105E-04 +7.80801272357E-01 +2.92795391002E-01
2.73500000000E+09 +7.53549081350E-01 +1.28006288643E-01 +3.60483121199E-03 +1.12498023465E-03 +3.11218643458E-03 +9.17253122099E-04 +7.81863078212E-01 +2.77551653866E-01
2.74000000000E+09 +7.51552328305E-01 +1.10980933391E-01 +4.22085894695E-03 +9.71970889421E-04 +3.65585251420E-03 +1.18682229662E-03 +7.83582491618E-01 +2.62633452944E-01
2.74500000000E+09 +7.48163577083E-01 +9.30438008299E-02 +4.40006278820E-03 +2.56799227162E-04 +4.16827117311E-03 +7.69791802994E-04 +7.84660051432E-01 +2.47375869981E-01
2.75000000000E+09 +7.43340988522E-01 +7.51879899708E-02 +4.45051847783E-03 -3.57247308472E-05 +4.66023214706E-03 +4.04438114869E-04 +7.85188257655E-01 +2.32208443505E-01
2.75500000000E+09 +7.37499370143E-01 +5.75668655529E-02 +4.63566966278E-03 -5.07702726397E-04 +4.97242696922E-03 -2.95500823976E-04 +7.84467387530E-01 +2.16925756102E-01
2.76000000000E+09 +7.31594099567E-01 +4.01220204472E-02 +4.66837827881E-03 -9.26060765524E-04 +5.00706592356E-03 -8.89781326297E-04 +7.84002847909E-01 +2.01095530307E-01
2.76500000000E+09 +7.25609104012E-01 +2.28289769543E-02 +4.86540133727E-03 -1.31574408881E-03 +5.14948877540E-03 -1.42816862276E-03 +7.82884896882E-01 +1.83675845355E-01
2.77000000000E+09 +7.20284168839E-01 +4.94425306187E-03 +5.19870531152E-03 -2.04259513068E-03 +5.37885847096E-03 -2.28195034418E-03 +7.81735554843E-01 +1.65853946961E-01
2.77500000000E+09 +7.15400363073E-01 -1.36176694384E-02 +4.81644526536E-03 -3.18409970694E-03 +4.94044640445E-03 -3.49730617374E-03 +7.79823284532E-01 +1.47824241224E-01
2.78000000000E+09 +7.10741900005E-01 -3.31461711669E-02 +4.14652006628E-03 -3.55374893536E-03 +4.05645939369E-03 -3.85478646137E-03 +7.77744422372E-01 +1.30598270076E-01
2.78500000000E+09 +7.05878802701E-01 -5.37834248211E-02 +3.95410578165E-03 -3.76994182755E-03 +3.65594706456E-03 -3.99292902498E-03 +7.75376198035E-01 +1.13385784853E-01
2.79000000000E+09 +7.00032260344E-01 -7.54936214735E-02 +3.85474539487E-03 -4.30716584198E-03 +3.49300023639E-03 -4.28487429039E-03 +7.72218004495E-01 +9.54715140621E-02
2.79500000000E+09 +6.92540037420E-01 -9.67462035739E-02 +3.34012527124E-03 -4.71309923236E-03 +3.12071784701E-03 -4.51583698560E-03 +7.67597262418E-01 +7.67415270758E-02
2.80000000000E+09 +6.83346959843E-01 -1.17128787514E-01 +3.33447308066E-03 -5.34167955398E-03 +3.28752162469E-03 -5.03740638940E-03 +7.62066920435E-01 +5.74896575678E-02
2.80500000000E+09 +6.73693298858E-01 -1.36242757083E-01 +2.41633765750E-03 -6.36201994509E-03 +2.69466113066E-03 -6.16252628269E-03 +7.56076109407E-01 +3.89204001062E-02
2.81000000000E+09 +6.62923981922E-01 -1.54511415684E-01 +1.42040074997E-03 -6.13596938667E-03 +1.49237834478E-03 -6.34248611892E-03 +7.50483949074E-01 +1.95869223179E-02
2.81500000000E+09 +6.51608923087E-01 -1.72154782791E-01 +1.20808779549E-03 -6.31813539451E-03 +1.02959366807E-03 -6.46896560984E-03 +7.43574127509E-01 +3.53940530429E-04
2.82000000000E+09 +6.39272137345E-01 -1.89895340132E-01 +5.60083690624E-04 -6.74093364531E-03 +1.76673169558E-04 -6.77141700216E-03 +7.36031758532E-01 -1.92525727709E-02
2.82500000000E+09 +6.25541875726E-01 -2.07869056881E-01 -4.12555888585E-04 -6.93774134419E-03 -6.45991270377E-04 -6.58076196847E-03 +7.26524071311E-01 -3.92184937966E-02
2.83000000000E+09 +6.09654913740E-01 -2.26402566534E-01 -1.09966833280E-03 -6.89086132640E-03 -1.04874498403E-03 -6.45835806148E-03 +7.16200127934E-01 -5.91581677899E-02
2.83500000000E+09 +5.92724287354E-01 -2.44540406507E-01 -2.00316830353E-03 -6.68784240748E-03 -1.71940766305E-03 -6.44638126934E-03 +7.05910452118E-01 -7.91651792944E-02
2.84000000000E+09 +5.74395330082E-01 -2.63112293216E-01 -2.24854155332E-03 -6.17458261209E-03 -1.98416468379E-03 -6.09010429534E-03 +6.95177624011E-01 -1.00799081466E-01
2.84500000000E+09 +5.54507609122E-01 -2.82153928439E-01 -2.13426836328E-03 -6.63056206670E-03 -2.01012080963E-03 -6.68080795360E-03 +6.82540985962E-01 -1.21834530036E-01
2.85000000000E+09 +5.33132125198E-01 -3.01249975130E-01 -3.15640907787E-03 -7.63343320544E-03 -3.15958512368E-03 -7.57520003754E-03 +6.68536537900E-01 -1.42309482403E-01
2.85500000000E+09 +5.10511767918E-01 -3.19739875498E-01 -5.08598427157E-03 -7.71036789904E-03 -4.97200011740E-03 -7.49337270780E-03 +6.53565896353E-01 -1.62139627732E-01
2.86000000000E+09 +4.86701862245E-01 -3.38127940026E-01 -6.65478350285E-03 -6.82532388581E-03 -6.39469153232E-03 -6.73544010903E-03 +6.37607689568E-01 -1.82542276771E-01
2.86500000000E+09 +4.62173531411E-01 -3.54787686580E-01 -8.05443016683E-03 -5.52300260492E-03 -7.89615552286E-03 -5.61951690883E-03 +6.20020365526E-01 -2.04077106759E-01
2.87000000000E+09 +4.36581180599E-01 -3.70829102164E-01 -8.47069922205E-03 -3.80763529393E-03 -8.48721433219E-03 -3.87748194526E-03 +5.99367616678E-01 -2.25589154301E-01
2.87500000000E+09 +4.10502514584E-01 -3.84617752371E-01 -7.98267153099E-03 -2.86557843982E-03 -7.98709369535E-03 -2.75172785262E-03 +5.78291147974E-01 -2.44448730419E-01
2.88000000000E+09 +3.84826457699E-01 -3.97080739573E-01 -8.23324646279E-03 -3.05212230875E-03 -7.99966149368E-03 -2.80766742504E-03 +5.57188117195E-01 -2.63505611938E-01
2.88500000000E+09 +3.59235619590E-01 -4.08706216429E-01 -9.91502527994E-03 -2.06914040319E-03 -9.37198525278E-03 -1.96296189413E-03 +5.34289606871E-01 -2.81614514006E-01
2.89000000000E+09 +3.32556713897E-01 -4.20518492567E-01 -1.00335810610E-02 -2.90709982725E-05 -9.54651182435E-03 -2.90906293418E-04 +5.08755716404E-01 -2.99619575846E-01
2.89500000000E+09 +3.03966789292E-01 -4.31414530210E-01 -9.71538413388E-03 +1.01906516038E-03 -9.54923300203E-03 +5.01846132730E-04 +4.80652205436E-01 -3.16771745207E-01
2.90000000000E+09 +2.72921846079E-01 -4.41420712746E-01 -9.87266961399E-03 +2.30081728744E-03 -1.01227455466E-02 +1.90554736091E-03 +4.50832593495E-01 -3.31805753572E-01
2.90500000000E+09 +2.38492337668E-01 -4.48803859221E-01 -9.14649265046E-03 +3.71173523111E-03 -9.44910913160E-03 +3.81253618508E-03 +4.21657494804E-01 -3.46774138307E-01
2.91000000000E+09 +2.03598763106E-01 -4.52125786526E-01 -8.56939396369E-03 +4.31926319102E-03 -8.52334373201E-03 +4.53769917947E-03 +3.90406674242E-01 -3.61476465942E-01
2.91500000000E+09 +1.68628195970E-01 -4.53552399453E-01 -8.46646243955E-03 +5.57548404042E-03 -8.07528720203E-03 +5.65342019689E-03 +3.57079296589E-01 -3.73616438453E-01
2.92000000000E+09 +1.33661121749E-01 -4.52896138028E-01 -7.07662633257E-03 +6.82456242878E-03 -6.70382105689E-03 +6.52725228131E-03 +3.22289171163E-01 -3.82216753398E-01
2.92500000000E+09 +9.88299900029E-02 -4.50553652705E-01 -5.92827322923E-03 +6.58082360474E-03 -5.88509427681E-03 +6.07884332604E-03 +2.87079736879E-01 -3.88100211243E-01
2.93000000000E+09 +6.43281109345E-02 -4.47383752173E-01 -6.33093775846E-03 +6.87293205213E-03 -6.56953360115E-03 +6.48805488025E-03 +2.51830651247E-01 -3.93075876319E-01
2.93500000000E+09 +2.86321245472E-02 -4.42523310595E-01 -5.92433748366E-03 +8.24231975030E-03 -6.22608520577E-03 +8.11420238281E-03 +2.14476482583E-01 -3.98415253781E-01
2.94000000000E+09 -6.49873423017E-03 -4.35072059644E-01 -4.82984259636E-03 +9.18555838486E-03 -5.01115897106E-03 +9.25077077050E-03 +1.74624479606E-01 -4.01842223238E-01
2.94500000000E+09 -4.14904822605E-02 -4.26116574652E-01 -3.72041236770E-03 +1.03581897858E-02 -3.80430612364E-03 +1.02526810598E-02 +1.34015691947E-01 -4.01087398174E-01
2.95000000000E+09 -7.70033795961E-02 -4.13096025615E-01 -1.48668152330E-03 +1.05900007518E-02 -1.73510608256E-03 +1.05856761973E-02 +9.42905154065E-02 -3.96057990547E-01
2.95500000000E+09 -1.10176784485E-01 -3.97013962149E-01 -1.87966693789E-04 +9.53818857445E-03 -5.12326193627E-04 +9.76819279781E-03 +5.67381712699E-02 -3.89285129167E-01
2.96000000000E+09 -1.41603986700E-01 -3.79051414693E-01 -3.20070554373E-04 +9.32032185349E-03 -3.64719770915E-04 +9.75614593271E-03 +1.70411499870E-02 -3.80896080362E-01
2.96500000000E+09 -1.73126611767E-01 -3.59147479045E-01 +1.44402281178E-04 +1.01993196196E-02 +5.06405582914E-04 +1.04115366637E-02 -2.36949779812E-02 -3.69450170317E-01
2.97000000000E+09 -2.03582090632E-01 -3.35707192795E-01 +1.65099090936E-03 +1.07774827330E-02 +2.09254461705E-03 +1.05643943623E-02 -6.41835385092E-02 -3.54851857164E-01
2.97500000000E+09 -2.32484905981E-01 -3.10454226591E-01 +3.20220150230E-03 +1.10374275940E-02 +3.23920775796E-03 +1.05102485306E-02 -1.03531207438E-01 -3.37565247341E-01
2.98000000000E+09 -2.61390497895E-01 -2.82982618767E-01 +5.45094141791E-03 +1.02547975846E-02 +5.02265074043E-03 +1.00062521759E-02 -1.41294194970E-01 -3.17237649096E-01
2.98500000000E+09 -2.88623443585E-01 -2.52502961076E-01 +6.23162254281E-03 +8.81454338763E-03 +5.92622529839E-03 +9.05168738170E-03 -1.77845059177E-01 -2.94075874167E-01
2.99000000000E+09 -3.13687477705E-01 -2.20565430861E-01 +6.35627936764E-03 +8.24254990678E-03 +6.43024939330E-03 +8.62694164168E-03 -2.13215290673E-01 -2.67533621537E-01
2.99500000000E+09 -3.36759855898E-01 -1.87626127388E-01 +7.44415852976E-03 +8.73552015676E-03 +8.08699808229E-03 +8.81592428988E-03 -2.46794126782E-01 -2.37877003241E-01
3.00000000000E+09 -3.57276250245E-01 -1.54668331296E-01 +9.57329583168E-03 +7.33606180853E-03 +9.97761685274E-03 +6.81908142054E-03 -2.77362851923E-01 -2.05668599585E-01
3.00500000000E+09 -3.76618759476E-01 -1.21952406841E-01 +1.00516148044E-02 +5.82775858016E-03 +9.76060986820E-03 +5.32061108693E-03 -3.06178844940E-01 -1.72897448504E-01
3.01000000000E+09 -3.94292820933E-01 -8.89442828788E-02 +1.08761696750E-02 +4.73979594942E-03 +1.03033526178E-02 +4.54784558828E-03 -3.32206177533E-01 -1.38268639961E-01
3.01500000000E+09 -4.09571506984E-01 -5.43446823914E-02 +1.13180427131E-02 +3.31691562796E-03 +1.09061900692E-02 +3.57242634406E-03 -3.55980656739E-01 -1.02416306039E-01
3.02000000000E+09 -4.20686520781E-01 -1.91057509136E-02 +1.17374400600E-02 +2.11645274299E-03 +1.15938844022E-02 +2.41855368863E-03 -3.76332645222E-01 -6.28972741708E-02
3.02500000000E+09 -4.28610728527E-01 +1.58416511408E-02 +1.22607973485E-02 +8.97019681403E-04 +1.21646747935E-02 +1.07089163295E-03 -3.91969057400E-01 -2.34690304235E-02
3.03000000000E+09 -4.33126975181E-01 +5.10376291879E-02 +1.25324839115E-02 -1.18780827298E-03 +1.23907056563E-02 -9.73940797725E-04 -4.05905049569E-01 +1.63877381171E-02
3.03500000000E+09 -4.34174954756E-01 +8.63321056523E-02 +1.20579704522E-02 -2.80306307284E-03 +1.20242979351E-02 -2.33836609116E-03 -4.17514909418E-01 +5.60316018025E-02
3.04000000000E+09 -4.32424696094E-01 +1.20956177560E-01 +1.16912416309E-02 -4.49546981175E-03 +1.21909075103E-02 -4.06462001622E-03 -4.26943911200E-01 +9.69819172589E-02
3.04500000000E+09 -4.28982883676E-01 +1.55126643536E-01 +1.06893250134E-02 -5.99333351745E-03 +1.14896185918E-02 -6.11192176640E-03 -4.32226117078E-01 +1.38249911219E-01
3.05000000000E+09 -4.23569336702E-01 +1.89665567520E-01 +9.75277586881E-03 -7.13863864240E-03 +1.01582030781E-02 -7.98838919861E-03 -4.33026673005E-01 +1.78196532159E-01
3.05500000000E+09 -4.16658488576E-01 +2.23943222911E-01 +8.76514945033E-03 -8.12198543379E-03 +8.34775231624E-03 -8.86544850091E-03 -4.32463771321E-01 +2.16015560130E-01
3.06000000000E+09 -4.07563554062E-01 +2.58536156282E-01 +7.92093819178E-03 -9.42025983513E-03 +7.15550160018E-03 -9.52124191493E-03 -4.30605814036E-01 +2.54622035098E-01
3.06500000000E+09 -3.95880623216E-01 +2.91570900866E-01 +6.18616577275E-03 -1.07921018805E-02 +5.85974951260E-03 -1.01195952395E-02 -4.25641476939E-01 +2.92340696882E-01
3.07000000000E+09 -3.82930820907E-01 +3.21684172764E-01 +3.82867526587E-03 -1.13889017770E-02 +4.39585052560E-03 -1.08003421506E-02 -4.18822398904E-01 +3.28058636611E-01
