# Hz S RI R 50
! CMT, C1220, 16058040, 17.2.0/1
! Date: 15/08/2018 10:22:21
! Data: Format (Calibration Info)
! Freq                      S11: Re/Im (F2)                       S21: Re/Im (F2)                       S12: Re/Im (F2)                       S22: Re/Im (F2)            
2.50000000000E+09 +5.82053865333E-01 +6.34800714783E-01 +2.39119461968E-04 +6.84787910063E-05 +2.51133436221E-04 +4.77604062636E-05 +5.72101856233E-01 +7.18828727243E-01
2.50500000000E+09 +5.88941773776E-01 +6.27040759931E-01 +2.83582257452E-04 -3.79204253211E-05 +2.53498337674E-04 -4.92806892892E-05 +5.77963247002E-01 +7.12872231689E-01
2.51000000000E+09 +5.96161933830E-01 +6.18873821023E-01 +2.46209434076E-04 -6.16675519216E-05 +2.13685679666E-04 -1.20048342551E-04 +5.83742014456E-01 +7.07224568287E-01
2.51500000000E+09 +6.03092173972E-01 +6.10890021957E-01 +2.06843320060E-04 -6.52825237449E-05 +1.91503226444E-04 -5.82050827661E-05 +5.89045787238E-01 +7.01235286767E-01
2.52000000000E+09 +6.09462611323E-01 +6.02771766898E-01 +2.70808240510E-04 -1.24497552298E-04 +2.59114113913E-04 -1.16979598641E-04 +5.94081562775E-01 +6.94750533983E-01
2.52500000000E+09 +6.14811186733E-01 +5.95204967125E-01 +2.16963043184E-04 -2.42058527057E-04 +2.52619575609E-04 -2.19161970398E-04 +5.99739701981E-01 +6.87934918881E-01
2.53000000000E+09 +6.19572585097E-01 +5.88141267492E-01 +1.83212990809E-04 -2.56294614195E-04 +1.51497292904E-04 -2.29673358904E-04 +6.05580665181E-01 +6.80306826796E-01
2.53500000000E+09 +6.23886169954E-01 +5.81687263662E-01 +1.01527068821E-04 -2.67669705684E-04 +6.90019144519E-05 -2.29279532512E-04 +6.11091869891E-01 +6.73239323011E-01
2.54000000000E+09 +6.27941712149E-01 +5.75521478985E-01 +8.57444193616E-05 -1.97015308457E-04 +1.06190490031E-04 -2.00851165519E-04 +6.16875935774E-01 +6.66546628341E-01
2.54500000000E+09 +6.32061760813E-01 +5.69728928355E-01 +1.12032060449E-04 -2.21489004855E-04 +7.13113533735E-05 -2.37685627105E-04 +6.22049480096E-01 +6.59948649073E-01
2.55000000000E+09 +6.36669846105E-01 +5.63554695398E-01 +9.81663782981E-05 -2.48244375223E-04 +1.44438799144E-04 -2.35852432240E-04 +6.26532259581E-01 +6.53902881644E-01
2.55500000000E+09 +6.41931470708E-01 +5.56910335346E-01 -1.16626730498E-05 -3.16362564631E-04 +2.93585081968E-05 -3.90738843598E-04 +6.31174820764E-01 +6.47862371451E-01
2.56000000000E+09 +6.47938758248E-01 +5.50001109774E-01 -2.83557420199E-05 -2.93541977468E-04 -1.01180420066E-04 -3.09356629858E-04 +6.35924021748E-01 +6.41293711838E-01
2.56500000000E+09 +6.54198638823E-01 +5.41857134437E-01 -6.29922941876E-05 -3.09024852249E-04 -1.35987086690E-04 -3.17934927969E-04 +6.41317572934E-01 +6.34036130986E-01
2.57000000000E+09 +6.60001459287E-01 +5.33530039870E-01 -1.65786447431E-04 -3.22198562151E-04 -2.54592999358E-04 -2.63891003485E-04 +6.46723726887E-01 +6.26254153978E-01
2.57500000000E+09 +6.65748940677E-01 +5.25038552910E-01 -2.19318813025E-04 -1.76125757014E-04 -2.39360464811E-04 -1.63367322785E-04 +6.52190010768E-01 +6.18724998462E-01
2.58000000000E+09 +6.70638040664E-01 +5.16560377437E-01 -2.13233966831E-04 -1.91038589091E-04 -1.70827304136E-04 -1.02626787967E-04 +6.57374345862E-01 +6.11590052432E-01
2.58500000000E+09 +6.74916918439E-01 +5.08048093696E-01 -1.94695460436E-04 -1.68680248330E-04 -1.80064373440E-04 -1.32819408166E-04 +6.62505079720E-01 +6.04133671230E-01
2.59000000000E+09 +6.78825037369E-01 +4.99952332250E-01 -3.23103275442E-04 -8.55995135836E-05 -2.85690157182E-04 -7.80181781875E-05 +6.67437608599E-01 +5.96560122293E-01
2.59500000000E+09 +6.82512971112E-01 +4.91832777871E-01 -2.77656379964E-04 +9.30954792286E-06 -2.36353525314E-04 -2.27605577730E-05 +6.72486386668E-01 +5.88658347714E-01
2.60000000000E+09 +6.85746696907E-01 +4.83372910441E-01 -2.16599553044E-04 +1.13561006478E-04 -2.15935241999E-04 +7.63803418859E-05 +6.77748536713E-01 +5.80204576432E-01
2.60500000000E+09 +6.89707957172E-01 +4.74260343885E-01 -6.43932888762E-05 +9.75521339238E-05 -1.09486511305E-04 +4.62034625713E-05 +6.83265215830E-01 +5.71083039300E-01
2.61000000000E+09 +6.94104680537E-01 +4.63976447777E-01 -8.35734310825E-05 -4.40116696723E-05 -9.32285939526E-05 +7.36845889793E-06 +6.88212037173E-01 +5.61887630989E-01
2.61500000000E+09 +6.98581628871E-01 +4.52449787477E-01 -1.58370907238E-04 -3.51460030917E-05 -2.05601777655E-04 -3.83750662246E-05 +6.93028410515E-01 +5.53303743854E-01
2.62000000000E+09 +7.02999430455E-01 +4.39867540194E-01 -1.77651066123E-04 +8.22270737369E-05 -1.73011836535E-04 +7.32894725211E-05 +6.97675819863E-01 +5.44275506195E-01
2.62500000000E+09 +7.07451699664E-01 +4.26447160346E-01 -8.35977016113E-05 +1.49599110370E-04 -5.88946009397E-05 +2.02277496390E-04 +7.02185510874E-01 +5.35533673893E-01
2.63000000000E+09 +7.11394105405E-01 +4.12746794568E-01 +3.22582791187E-05 +4.75910972086E-05 +9.75699006893E-05 +1.75877001983E-05 +7.06580438692E-01 +5.26476861840E-01
2.63500000000E+09 +7.14752430532E-01 +3.99579239827E-01 -1.92102611874E-05 +1.54480904941E-05 -8.93060622957E-05 -1.29714025119E-05 +7.11008415869E-01 +5.17349024437E-01
2.64000000000E+09 +7.18117547123E-01 +3.86986461514E-01 -6.49607940516E-05 +7.96840074603E-05 -8.61525967302E-05 +6.72126535360E-05 +7.15548816777E-01 +5.07712805809E-01
2.64500000000E+09 +7.21074103606E-01 +3.75320228621E-01 +2.54400197604E-05 +1.07038367503E-04 +9.77246735279E-06 +1.03065120943E-04 +7.19867215035E-01 +4.98011925832E-01
2.65000000000E+09 +7.23731332495E-01 +3.64624841287E-01 +1.17036052167E-04 -3.30986470401E-06 +8.51964524637E-05 +1.53398297612E-05 +7.24148009601E-01 +4.87853844613E-01
2.65500000000E+09 +7.26571709669E-01 +3.54070582501E-01 -5.88408757527E-06 -1.75377560671E-04 -1.29946155766E-05 -1.26566049740E-04 +7.27900965091E-01 +4.77402319138E-01
2.66000000000E+09 +7.29530941950E-01 +3.43507042415E-01 -1.40959718911E-04 -5.29559380666E-05 -1.24933368124E-04 -1.76108948832E-05 +7.31796745988E-01 +4.66371849533E-01
2.66500000000E+09 +7.32507451058E-01 +3.32657866157E-01 -6.90082917492E-05 -5.69990785235E-06 -9.60550954999E-05 +3.37003118101E-05 +7.36061629281E-01 +4.55329864272E-01
2.67000000000E+09 +7.35278656230E-01 +3.20602096047E-01 -1.36675765659E-04 +5.14362084208E-05 -6.62872124776E-05 +6.17446434430E-05 +7.40347193900E-01 +4.44295011870E-01
2.67500000000E+09 +7.37437942108E-01 +3.07318328707E-01 +2.66961501252E-05 +3.66875747187E-05 +1.29242053653E-05 +4.16294073938E-07 +7.44249299347E-01 +4.33032400812E-01
2.68000000000E+09 +7.38452967732E-01 +2.93199699508E-01 -1.01530980037E-04 -5.00637876033E-05 -9.67099715963E-05 -7.83455337475E-05 +7.47579834569E-01 +4.21865388463E-01
2.68500000000E+09 +7.38886269780E-01 +2.79469037618E-01 -1.96293186760E-04 -2.16076175985E-05 -1.65960489302E-04 -3.78376708806E-05 +7.50493459734E-01 +4.10734573018E-01
2.69000000000E+09 +7.39187172305E-01 +2.65427798121E-01 -6.75031953070E-05 +1.66360678053E-04 -6.68339779095E-05 +8.89623562131E-05 +7.52944918098E-01 +3.99041935050E-01
2.69500000000E+09 +7.39232694575E-01 +2.51532749571E-01 +1.10805770318E-05 +9.49588411346E-05 +2.68105728214E-05 +6.37913882158E-05 +7.55377008326E-01 +3.86853139723E-01
2.70000000000E+09 +7.39277129860E-01 +2.38116628485E-01 -3.03009403113E-05 +1.46908459775E-05 -5.13117910687E-05 -7.09508168477E-05 +7.58394816415E-01 +3.73976035299E-01
2.70500000000E+09 +7.39391390668E-01 +2.25082156804E-01 -1.23655195414E-04 +5.89136361520E-05 -8.63869966221E-05 -1.90322718383E-06 +7.61227090710E-01 +3.61035163535E-01
2.71000000000E+09 +7.39643892693E-01 +2.12123063326E-01 -4.16939479266E-05 +8.05389695295E-05 -8.48709227177E-05 +7.50342616260E-05 +7.64125137379E-01 +3.48056596507E-01
2.71500000000E+09 +7.40526415229E-01 +1.98778129006E-01 +3.68000852061E-06 +1.74202953996E-04 -1.99767988404E-05 +1.31871363820E-04 +7.66341224513E-01 +3.35596136792E-01
2.72000000000E+09 +7.41111515936E-01 +1.84794156822E-01 +3.99364578639E-05 +6.77458130531E-05 +5.23605085979E-05 +8.21782603192E-05 +7.67938896420E-01 +3.23418893536E-01
2.72500000000E+09 +7.41158327525E-01 +1.69723346441E-01 +2.02027160670E-05 +3.27130863085E-05 +5.67393697407E-06 +1.19044406183E-07 +7.69545513113E-01 +3.10151649071E-01
2.73000000000E+09 +7.39799227505E-01 +1.53586436334E-01 +4.31957557789E-05 +1.60690745640E-04 +2.13998639764E-05 +1.26575685698E-04 +7.70880652155E-01 +2.96198628149E-01
2.73500000000E+09 +7.36947532357E-01 +1.37053850859E-01 +1.99850935206E-04 -5.39638200199E-05 +1.90379632144E-04 +1.64729672061E-05 +7.71800187013E-01 +2.80998802028E-01
2.74000000000E+09 +7.33140084051E-01 +1.20781298616E-01 +9.63303035952E-05 -1.56380921745E-04 +6.71689737609E-05 -6.85137492011E-05 +7.72851267050E-01 +2.66135744857E-01
2.74500000000E+09 +7.28508287741E-01 +1.04247285412E-01 +7.60601162301E-05 -1.68804275085E-04 +7.61592823693E-05 -1.09018345541E-04 +7.73746800067E-01 +2.51312763248E-01
2.75000000000E+09 +7.23253613263E-01 +8.79632128761E-02 +4.47050149751E-05 -1.89446129506E-04 +9.91483754891E-05 -1.79068769679E-04 +7.74830137514E-01 +2.36643727596E-01
2.75500000000E+09 +7.17959937545E-01 +7.17747233715E-02 -7.72350091614E-05 -2.72978954406E-04 -7.97513472891E-05 -3.17210082014E-04 +7.74696369138E-01 +2.21424555561E-01
2.76000000000E+09 +7.12848004872E-01 +5.58163689785E-02 -2.38823463054E-04 -3.50283503463E-04 -2.12848899588E-04 -3.15437508416E-04 +7.73355628922E-01 +2.06408452598E-01
2.76500000000E+09 +7.08324622254E-01 +3.97238146910E-02 -4.06319035492E-04 -1.83486069894E-04 -3.46946927012E-04 -1.31486654380E-04 +7.72148456660E-01 +1.91070833366E-01
2.77000000000E+09 +7.04406011628E-01 +2.26532865647E-02 -3.46331750306E-04 -3.03817590352E-05 -3.26834813675E-04 -4.73632093524E-05 +7.71424360516E-01 +1.74545256634E-01
2.77500000000E+09 +7.00566781719E-01 +4.64324209712E-03 -4.48212212687E-04 +2.23284747272E-05 -3.86140673251E-04 -5.94047420869E-05 +7.70332293984E-01 +1.57096597226E-01
2.78000000000E+09 +6.96780068875E-01 -1.45303078147E-02 -3.99702429108E-04 +3.46123411716E-05 -3.69544877226E-04 +4.56339196047E-05 +7.68675287516E-01 +1.39647345304E-01
2.78500000000E+09 +6.91830188628E-01 -3.45359949491E-02 -5.98087896895E-04 +8.01922686869E-05 -5.64986044131E-04 +8.71280766846E-05 +7.66609347017E-01 +1.22712273567E-01
2.79000000000E+09 +6.85821282598E-01 -5.50050842046E-02 -6.10810174647E-04 +4.82976743905E-04 -5.72027876088E-04 +3.88245286641E-04 +7.64334768612E-01 +1.06171258677E-01
2.79500000000E+09 +6.78212380917E-01 -7.48259415510E-02 -3.49364542836E-04 +6.38655829127E-04 -3.42274507688E-04 +4.70184007017E-04 +7.61415790780E-01 +8.80267184464E-02
2.80000000000E+09 +6.69363330135E-01 -9.41431561508E-02 -1.27248300956E-04 +5.96409605578E-04 -2.00261221958E-04 +5.67721271437E-04 +7.57059308679E-01 +6.94551729946E-02
2.80500000000E+09 +6.59598243375E-01 -1.12076749888E-01 -1.56917137632E-04 +5.10450245398E-04 -2.44925939397E-04 +4.74155065634E-04 +7.51994379740E-01 +5.04474081344E-02
2.81000000000E+09 +6.48893638336E-01 -1.28990095844E-01 -1.04398192967E-04 +7.16824387553E-04 -1.58923514877E-04 +6.76645883964E-04 +7.46540242373E-01 +3.03805402969E-02
2.81500000000E+09 +6.37665461677E-01 -1.45092741385E-01 +1.61716727497E-04 +6.88325890437E-04 +1.21172220713E-04 +7.45160232591E-04 +7.40133865064E-01 +9.95271748648E-03
2.82000000000E+09 +6.25453468526E-01 -1.61136548605E-01 +2.73545178002E-04 +4.43791961810E-04 +2.30581182914E-04 +5.01843496968E-04 +7.33016338779E-01 -1.06439331582E-02
2.82500000000E+09 +6.12236841292E-01 -1.77082394440E-01 +1.04969484881E-04 +4.04004984390E-04 +8.65387586947E-05 +4.16300884475E-04 +7.24406968428E-01 -3.15535421649E-02
2.83000000000E+09 +5.97931165947E-01 -1.93740981519E-01 +1.44734050432E-04 +6.31468621578E-04 +9.49695761052E-05 +6.18257271184E-04 +7.14608090852E-01 -5.18359583257E-02
2.83500000000E+09 +5.81826361414E-01 -2.11708461092E-01 +3.95511101097E-04 +7.96577612379E-04 +3.71295231722E-04 +8.35755451560E-04 +7.03742843220E-01 -7.19789961083E-02
2.84000000000E+09 +5.62687786401E-01 -2.30034529630E-01 +7.18408240663E-04 +3.85245157267E-04 +7.36538269984E-04 +4.46875435542E-04 +6.92359277189E-01 -9.24205475540E-02
2.84500000000E+09 +5.41543068771E-01 -2.47938074258E-01 +4.64066918289E-04 +1.69174013212E-04 +5.25117675293E-04 +1.77057147815E-04 +6.79610842480E-01 -1.13274843291E-01
2.85000000000E+09 +5.19170931586E-01 -2.65196949376E-01 +2.35986091799E-04 +2.46084207521E-04 +2.73934826293E-04 +2.96628263101E-04 +6.65125277909E-01 -1.33727313843E-01
2.85500000000E+09 +4.95465135786E-01 -2.81849168764E-01 +2.87639683899E-04 +6.08219574400E-04 +3.69756502433E-04 +6.25157555937E-04 +6.50384689398E-01 -1.53730794218E-01
2.86000000000E+09 +4.71350519015E-01 -2.97742334049E-01 +9.61871617882E-04 +6.96313880480E-04 +9.77772790760E-04 +6.43064493187E-04 +6.34222020680E-01 -1.74242714454E-01
2.86500000000E+09 +4.46537101938E-01 -3.12335871869E-01 +1.17271523754E-03 +5.59866513337E-05 +1.22374002744E-03 +5.87549633079E-05 +6.16514742850E-01 -1.94220391425E-01
2.87000000000E+09 +4.21758289054E-01 -3.25409732067E-01 +7.93824563586E-04 -1.97961584242E-04 +8.63191891138E-04 -2.58261139980E-04 +5.97742805066E-01 -2.13967000497E-01
2.87500000000E+09 +3.97514475958E-01 -3.37284810300E-01 +5.89531286012E-04 -1.02483138312E-04 +6.26841839986E-04 -1.41494809490E-04 +5.77292179476E-01 -2.33063154136E-01
2.88000000000E+09 +3.73097757987E-01 -3.48871604770E-01 +8.35858939892E-04 +1.40956433766E-04 +8.40847872890E-04 +3.02955028419E-05 +5.56375781453E-01 -2.51418017862E-01
2.88500000000E+09 +3.47395396772E-01 -3.59594319766E-01 +1.11982538240E-03 -2.51215666460E-04 +1.07464460837E-03 -3.05088534394E-04 +5.33774014897E-01 -2.69733087502E-01
2.89000000000E+09 +3.20531434986E-01 -3.68568299128E-01 +9.84790383435E-04 -6.40670709947E-04 +9.38108101513E-04 -5.82759429835E-04 +5.09695850318E-01 -2.87059313030E-01
2.89500000000E+09 +2.92671770465E-01 -3.76234710178E-01 +8.80437552662E-04 -7.81065026199E-04 +8.35837596746E-04 -7.88016776669E-04 +4.84560533001E-01 -3.05632785047E-01
2.90000000000E+09 +2.63217616201E-01 -3.82984148482E-01 +4.27712274108E-04 -7.15551272309E-04 +4.07712681990E-04 -7.59672254554E-04 +4.55587770360E-01 -3.23410478282E-01
2.90500000000E+09 +2.31436682056E-01 -3.87146915133E-01 +7.36409276545E-04 -6.96943233675E-04 +7.57617193868E-04 -6.82578152105E-04 +4.25886462313E-01 -3.38399919952E-01
2.91000000000E+09 +1.99593446917E-01 -3.88484365147E-01 +5.07109763097E-04 -1.19310570828E-03 +4.74846343988E-04 -1.24876887005E-03 +3.95717382789E-01 -3.52893412690E-01
2.91500000000E+09 +1.67665362143E-01 -3.88370180321E-01 +1.82266715493E-04 -9.64426879964E-04 +7.68302485604E-05 -9.54357199184E-04 +3.63490395968E-01 -3.65283624329E-01
2.92000000000E+09 +1.35231133507E-01 -3.86539991822E-01 +2.23215338146E-04 -1.01251136314E-03 +2.12624681215E-04 -9.71332899614E-04 +3.29895384033E-01 -3.75519884889E-01
2.92500000000E+09 +1.02732436248E-01 -3.82799990661E-01 +7.81280393509E-05 -1.28031299610E-03 +9.05634647637E-05 -1.21838520655E-03 +2.94640220510E-01 -3.83208673996E-01
2.93000000000E+09 +7.09920779839E-02 -3.76969518157E-01 -5.44673704108E-04 -1.37494940401E-03 -4.78964503804E-04 -1.34109360995E-03 +2.58465413924E-01 -3.90176198944E-01
2.93500000000E+09 +3.93199455671E-02 -3.70274596851E-01 -7.48128290115E-04 -6.62909308014E-04 -7.65016937136E-04 -6.16237434363E-04 +2.19746280656E-01 -3.95355829847E-01
2.94000000000E+09 +7.38042787219E-03 -3.61038368008E-01 -3.47014768836E-04 -4.51269735308E-04 -3.07610672903E-04 -4.06462124121E-04 +1.80283592524E-01 -3.98398828103E-01
2.94500000000E+09 -2.39102056316E-02 -3.49420269717E-01 -1.01919577842E-04 -1.02061739865E-03 -1.46430533048E-06 -9.49256350911E-04 +1.39393889808E-01 -3.98750441607E-01
2.95000000000E+09 -5.54547721937E-02 -3.35494421878E-01 -7.19797550878E-04 -1.28002469254E-03 -6.31988585473E-04 -1.20320505501E-03 +9.94715757384E-02 -3.94917031010E-01
2.95500000000E+09 -8.62334274243E-02 -3.17641289240E-01 -1.03502743161E-03 -8.14563474498E-04 -9.25685356741E-04 -8.57291867341E-04 +5.96483394664E-02 -3.89215787960E-01
2.96000000000E+09 -1.14983382737E-01 -2.97186150671E-01 -1.16906265231E-03 -5.52064797529E-04 -1.14378761552E-03 -6.10037675821E-04 +1.92079449626E-02 -3.79633823502E-01
2.96500000000E+09 -1.42296669079E-01 -2.74910580287E-01 -1.10819623474E-03 -1.05801365336E-04 -1.07960852406E-03 -1.74028650662E-04 -2.02364067198E-02 -3.68282929968E-01
2.97000000000E+09 -1.68859030450E-01 -2.50495703984E-01 -7.60790327450E-04 -1.10651969747E-04 -7.00379252258E-04 -2.09326873274E-04 -6.20733691818E-02 -3.54436926184E-01
2.97500000000E+09 -1.93780424065E-01 -2.23661073388E-01 -1.04772453072E-03 -3.81111135205E-04 -9.74212722286E-04 -4.06378587399E-04 -1.01474843182E-01 -3.36266371583E-01
2.98000000000E+09 -2.16876464232E-01 -1.95543545679E-01 -1.35634771543E-03 +1.00440396036E-04 -1.31944491352E-03 -6.09611376352E-05 -1.40511238674E-01 -3.16207429685E-01
2.98500000000E+09 -2.38154616913E-01 -1.66414218954E-01 -9.27584195569E-04 +4.55617683308E-04 -1.08927352548E-03 +3.64690249222E-04 -1.77145024258E-01 -2.92376712001E-01
2.99000000000E+09 -2.57866629245E-01 -1.36583489468E-01 -6.90488181927E-04 +1.37244575578E-04 -8.10287274906E-04 +1.23885261203E-04 -2.12399990284E-01 -2.65932530225E-01
2.99500000000E+09 -2.75917023567E-01 -1.06416664204E-01 -1.10901514267E-03 +2.74524743251E-04 -1.24524747568E-03 +3.09045608672E-04 -2.45321958673E-01 -2.34607903079E-01
3.00000000000E+09 -2.92136660712E-01 -7.54227980804E-02 -1.13760082445E-03 +7.21720466301E-04 -1.15513693215E-03 +8.27075687381E-04 -2.74044902986E-01 -2.02864591920E-01
3.00500000000E+09 -3.05869733157E-01 -4.46852481680E-02 -8.63374295142E-04 +9.57954283426E-04 -8.60251250574E-04 +1.03155217629E-03 -3.02973118253E-01 -1.69657652548E-01
3.01000000000E+09 -3.17296599717E-01 -1.39660671481E-02 -3.28339681018E-04 +1.12331538777E-03 -4.33953772642E-04 +1.08167039866E-03 -3.28729990528E-01 -1.34413041094E-01
3.01500000000E+09 -3.26332751705E-01 +1.63748140412E-02 -5.52444911759E-05 +9.18300056044E-04 -9.78794329138E-05 +9.76150446460E-04 -3.52194250013E-01 -9.79620140521E-02
3.02000000000E+09 -3.32473237199E-01 +4.73896634758E-02 -1.40200162453E-04 +7.59522372101E-04 -9.07180621644E-05 +8.27620305506E-04 -3.71621713540E-01 -6.00037775580E-02
3.02500000000E+09 -3.34959958580E-01 +7.73438539274E-02 +1.71234768048E-04 +6.93849577237E-04 +1.57252676218E-04 +7.85625395579E-04 -3.87972609569E-01 -2.11110869688E-02
3.03000000000E+09 -3.35420116230E-01 +1.06656667619E-01 +3.22672078458E-05 +4.64531275483E-04 +8.01495869441E-05 +5.11847373760E-04 -4.00610804206E-01 +1.80891315247E-02
3.03500000000E+09 -3.33390579801E-01 +1.35815341707E-01 -1.58238617801E-04 +6.85034693151E-04 -8.79400182698E-05 +7.97438872113E-04 -4.10799195582E-01 +5.71018370407E-02
3.04000000000E+09 -3.29149173405E-01 +1.64848650367E-01 +1.16668979212E-04 +4.71793534320E-04 +2.78428045799E-04 +4.65401325360E-04 -4.19125729469E-01 +9.64959609281E-02
3.04500000000E+09 -3.22678898872E-01 +1.93665397731E-01 -2.14293398809E-04 +7.35104063742E-04 -6.06573651183E-05 +7.13770532213E-04 -4.24377135132E-01 +1.35767626300E-01
3.05000000000E+09 -3.14362206523E-01 +2.22202870071E-01 +3.23603617055E-04 +8.43303981732E-04 +4.44471325616E-04 +8.30907494729E-04 -4.27402946957E-01 +1.74372380407E-01
3.05500000000E+09 -3.04004613449E-01 +2.49988866414E-01 +4.41365973542E-04 +6.40400252359E-04 +3.98985407957E-04 +4.56113509703E-04 -4.27998892877E-01 +2.12052711739E-01
3.06000000000E+09 -2.93268391480E-01 +2.76588228627E-01 +5.84923026422E-04 +2.32207217204E-04 +5.52723714067E-04 +1.53490165246E-04 -4.26537963798E-01 +2.49790396752E-01
3.06500000000E+09 -2.81283079597E-01 +3.03228541046E-01 +2.11227946849E-04 +1.77137835791E-04 +1.77028253853E-04 +2.13861477666E-05 -4.22185548354E-01 +2.86809928471E-01
3.07000000000E+09 -2.67889485943E-01 +3.28089858527E-01 +8.84846552108E-05 +5.34868733601E-04 +7.33791399210E-05 +4.33899572456E-04 -4.15262207769E-01 +3.22292771046E-01
