# Hz S RI R 50
! CMT, C1220, 16058040, 17.2.0/1
! Date: 15/08/2018 09:50:45
! Data: Format (Calibration Info)
! Freq                      S11: Re/Im (F2)                       S21: Re/Im (F2)                       S12: Re/Im (F2)                       S22: Re/Im (F2)            
2.50000000000E+09 +5.76690780639E-01 +6.69347468553E-01 +2.95084036621E-05 -1.64285065077E-03 +4.57292015043E-05 -1.77890588637E-03 +5.75358149721E-01 +7.17886047907E-01
2.50500000000E+09 +5.83555633559E-01 +6.61798483377E-01 -6.77784507708E-05 -1.65000098971E-03 -1.48438184860E-04 -1.74916697612E-03 +5.80873065272E-01 +7.12290494970E-01
2.51000000000E+09 +5.90700035518E-01 +6.53740269009E-01 -2.96626187340E-04 -1.73730495206E-03 -3.20455082323E-04 -1.74638484579E-03 +5.86272578326E-01 +7.07015258481E-01
2.51500000000E+09 +5.97845331633E-01 +6.45662375690E-01 -4.66520719618E-04 -1.77197534972E-03 -4.90833939967E-04 -1.69348385634E-03 +5.91510076357E-01 +7.01437291024E-01
2.52000000000E+09 +6.04657605641E-01 +6.37030202715E-01 -7.44104711622E-04 -1.71450189516E-03 -6.25735115535E-04 -1.72084180023E-03 +5.96792732766E-01 +6.95369500971E-01
2.52500000000E+09 +6.10792183915E-01 +6.28635420938E-01 -8.58822407357E-04 -1.61428516279E-03 -8.41198050792E-04 -1.64539315655E-03 +6.02680554608E-01 +6.88737786524E-01
2.53000000000E+09 +6.16308305117E-01 +6.20440054800E-01 -9.60615002314E-04 -1.54826359783E-03 -9.64062079788E-04 -1.55711154031E-03 +6.08979319095E-01 +6.81555417109E-01
2.53500000000E+09 +6.21469512495E-01 +6.12326897346E-01 -1.14028236512E-03 -1.48368759027E-03 -1.10141717855E-03 -1.48605782402E-03 +6.14842851572E-01 +6.74920039109E-01
2.54000000000E+09 +6.25819964199E-01 +6.04404702151E-01 -1.23281620158E-03 -1.42059622848E-03 -1.16798614339E-03 -1.48682405474E-03 +6.20453328380E-01 +6.68372165695E-01
2.54500000000E+09 +6.30396686415E-01 +5.97162689704E-01 -1.45260222692E-03 -1.43598982907E-03 -1.34586913335E-03 -1.53238357812E-03 +6.25961925146E-01 +6.62024815572E-01
2.55000000000E+09 +6.35403540338E-01 +5.89830924055E-01 -1.63230367408E-03 -1.18915787312E-03 -1.68892943428E-03 -1.45069853951E-03 +6.31005908717E-01 +6.55576182783E-01
2.55500000000E+09 +6.40990129765E-01 +5.81999963855E-01 -1.83447582363E-03 -1.03822183940E-03 -2.01352413028E-03 -1.29753054413E-03 +6.36313545073E-01 +6.49004431606E-01
2.56000000000E+09 +6.47382719196E-01 +5.74096015447E-01 -1.77756604376E-03 -8.25179950457E-04 -2.20523749712E-03 -8.14543107519E-04 +6.41847222237E-01 +6.41594443692E-01
2.56500000000E+09 +6.54320173868E-01 +5.65289813040E-01 -1.78060901545E-03 -8.27206363778E-04 -2.12137148757E-03 -5.55363163515E-04 +6.47556844922E-01 +6.34027373011E-01
2.57000000000E+09 +6.61368053511E-01 +5.56037175543E-01 -1.99576704341E-03 -7.68249053032E-04 -2.09004596467E-03 -2.64192745223E-04 +6.53033620987E-01 +6.26495292846E-01
2.57500000000E+09 +6.68488893374E-01 +5.46372178877E-01 -2.16583733383E-03 -6.07477219462E-04 -1.98730389281E-03 -1.60165233451E-04 +6.58210097759E-01 +6.19210011308E-01
2.58000000000E+09 +6.74822144282E-01 +5.36561354177E-01 -2.34961084735E-03 -3.65658759704E-04 -1.96364632490E-03 -1.81742950327E-04 +6.63025607612E-01 +6.11869724638E-01
2.58500000000E+09 +6.80739668567E-01 +5.26542023343E-01 -2.34014688835E-03 +1.50573010481E-04 -2.02722389058E-03 +2.76829802198E-05 +6.67598482936E-01 +6.04376783517E-01
2.59000000000E+09 +6.85963054719E-01 +5.17181663929E-01 -2.03525321328E-03 +1.71021843330E-04 -1.93591093097E-03 +5.14367295110E-05 +6.72629056058E-01 +5.96483016810E-01
2.59500000000E+09 +6.90959579478E-01 +5.07352680607E-01 -2.17590098507E-03 +6.67875166053E-05 -2.18967614980E-03 -1.15215342869E-05 +6.77792766601E-01 +5.87816565115E-01
2.60000000000E+09 +6.94923094308E-01 +4.97896050157E-01 -2.44519117403E-03 +2.74584343898E-04 -2.43912694116E-03 +2.11634738824E-04 +6.82786236939E-01 +5.79148841353E-01
2.60500000000E+09 +6.99112506025E-01 +4.88211291520E-01 -2.62585405574E-03 +6.25544730308E-04 -2.63406419432E-03 +6.12847341572E-04 +6.88109155270E-01 +5.70684444876E-01
2.61000000000E+09 +7.03342606514E-01 +4.78159135583E-01 -2.78785749978E-03 +1.14630119748E-03 -2.75619808121E-03 +1.08813666834E-03 +6.92886953206E-01 +5.62036050130E-01
2.61500000000E+09 +7.07976510885E-01 +4.67430668664E-01 -2.36391405818E-03 +1.78423964320E-03 -2.47401501340E-03 +1.71184375502E-03 +6.97242145954E-01 +5.53879808147E-01
2.62000000000E+09 +7.12664638086E-01 +4.55642530672E-01 -1.90524346527E-03 +1.75193017477E-03 -1.98837061030E-03 +1.84908058046E-03 +7.01910239635E-01 +5.45096020803E-01
2.62500000000E+09 +7.17430825817E-01 +4.42805700368E-01 -1.85378967839E-03 +1.60939731048E-03 -1.82559363441E-03 +1.78869814055E-03 +7.06861940075E-01 +5.35688577446E-01
2.63000000000E+09 +7.21735524756E-01 +4.29499697550E-01 -1.91009016969E-03 +1.85561880648E-03 -1.64805226778E-03 +2.04021876655E-03 +7.11500820117E-01 +5.26344948984E-01
2.63500000000E+09 +7.25708691690E-01 +4.15829455202E-01 -1.88126598244E-03 +2.07878670772E-03 -1.52653245677E-03 +1.96771504363E-03 +7.16639351402E-01 +5.17017790624E-01
2.64000000000E+09 +7.29139535333E-01 +4.02199822892E-01 -1.91017658956E-03 +2.50815729568E-03 -1.53993696571E-03 +2.15892898902E-03 +7.21490696843E-01 +5.07301212424E-01
2.64500000000E+09 +7.32192676877E-01 +3.89269959513E-01 -1.38769551074E-03 +3.04934837782E-03 -1.38076714392E-03 +2.55964575018E-03 +7.25958123624E-01 +4.98018007527E-01
2.65000000000E+09 +7.34798946737E-01 +3.76999575283E-01 -7.44304499594E-04 +2.86821570131E-03 -1.03032386810E-03 +2.61818407003E-03 +7.30149857005E-01 +4.88589962514E-01
2.65500000000E+09 +7.37525850533E-01 +3.64856425735E-01 -5.95579212925E-04 +2.66043960259E-03 -9.09670488001E-04 +2.76590695222E-03 +7.34021209801E-01 +4.78217170022E-01
2.66000000000E+09 +7.40399881767E-01 +3.52900841488E-01 -6.72392799852E-04 +2.71459202813E-03 -7.57987237417E-04 +2.94795781403E-03 +7.37963387565E-01 +4.67144832360E-01
2.66500000000E+09 +7.43298428167E-01 +3.40647951798E-01 -4.76347984256E-04 +3.02183903447E-03 -3.12756831257E-04 +3.13772496063E-03 +7.42617281242E-01 +4.55893993980E-01
2.67000000000E+09 +7.46066164765E-01 +3.27511249591E-01 -5.87753017049E-06 +3.12781448712E-03 +2.19693624506E-04 +3.06035137934E-03 +7.47258073701E-01 +4.44664760072E-01
2.67500000000E+09 +7.48104746409E-01 +3.13863527350E-01 +2.96829612115E-04 +2.95336915376E-03 +3.33979551739E-04 +2.73876131723E-03 +7.51369497587E-01 +4.33410639093E-01
2.68000000000E+09 +7.49815758158E-01 +2.99273040186E-01 +4.10091645223E-04 +2.88964594246E-03 +3.18443865119E-04 +2.74315558756E-03 +7.55056022774E-01 +4.22860376280E-01
2.68500000000E+09 +7.50893196762E-01 +2.84038741818E-01 +4.05271188424E-04 +2.96448574744E-03 +2.72935801373E-04 +2.94967852380E-03 +7.58242782678E-01 +4.11473449186E-01
2.69000000000E+09 +7.51251543408E-01 +2.68685105844E-01 +7.13558767373E-04 +3.33390674141E-03 +6.42652947567E-04 +3.32223986051E-03 +7.60829254605E-01 +3.99604337518E-01
2.69500000000E+09 +7.51487065582E-01 +2.53498879703E-01 +1.28336993550E-03 +3.34130909698E-03 +1.29546793032E-03 +3.31161454202E-03 +7.63858447756E-01 +3.86769277317E-01
2.70000000000E+09 +7.51889011934E-01 +2.38127439389E-01 +1.68976049121E-03 +3.24572907449E-03 +1.64092484811E-03 +3.18793609159E-03 +7.67089815685E-01 +3.73183536351E-01
2.70500000000E+09 +7.51685314913E-01 +2.23213354718E-01 +2.10401796969E-03 +2.82471386390E-03 +1.89323507302E-03 +2.85202961321E-03 +7.70276057344E-01 +3.59499696549E-01
2.71000000000E+09 +7.51992156284E-01 +2.08671468628E-01 +2.19393987914E-03 +2.53448532995E-03 +2.12440483338E-03 +2.73678339702E-03 +7.73068534539E-01 +3.46603509550E-01
2.71500000000E+09 +7.52831973742E-01 +1.93807625868E-01 +2.15557709607E-03 +2.53134027794E-03 +2.24774553555E-03 +2.71047471233E-03 +7.75969374149E-01 +3.33990968404E-01
2.72000000000E+09 +7.53397447568E-01 +1.78710247530E-01 +2.38219508583E-03 +2.79046013628E-03 +2.68537588542E-03 +2.82107329283E-03 +7.77929841742E-01 +3.20955670039E-01
2.72500000000E+09 +7.53813008303E-01 +1.62959484361E-01 +3.03272054565E-03 +2.62029784283E-03 +3.24344778348E-03 +2.23614636840E-03 +7.79058965794E-01 +3.07087136234E-01
2.73000000000E+09 +7.53610981547E-01 +1.46861810913E-01 +3.22128174161E-03 +2.24296023078E-03 +3.12899634198E-03 +1.81687274983E-03 +7.80510628830E-01 +2.92720376312E-01
2.73500000000E+09 +7.52498812784E-01 +1.29883090076E-01 +3.46401244476E-03 +2.22915438508E-03 +3.04123489999E-03 +1.97968550148E-03 +7.81448912813E-01 +2.77809777053E-01
2.74000000000E+09 +7.50421787485E-01 +1.12736130831E-01 +4.13791078521E-03 +2.06156976433E-03 +3.51970605618E-03 +2.08688326344E-03 +7.83436850536E-01 +2.62984684401E-01
2.74500000000E+09 +7.46967034649E-01 +9.49571056084E-02 +4.33967297590E-03 +1.36410230523E-03 +3.98126926814E-03 +1.81434311520E-03 +7.84624065290E-01 +2.47462364262E-01
2.75000000000E+09 +7.42065455140E-01 +7.74092676415E-02 +4.48212885305E-03 +1.08719283764E-03 +4.54477708029E-03 +1.66481537966E-03 +7.84953685362E-01 +2.32030148922E-01
2.75500000000E+09 +7.36578971710E-01 +6.00798340721E-02 +4.76211250353E-03 +6.94949293548E-04 +5.03029595051E-03 +1.00129149516E-03 +7.83833292488E-01 +2.17038323935E-01
2.76000000000E+09 +7.30952660072E-01 +4.29989408987E-02 +4.88782109815E-03 +3.77967610568E-04 +5.23031525802E-03 +4.22373675083E-04 +7.83273227063E-01 +2.01719941586E-01
2.76500000000E+09 +7.25306235084E-01 +2.60351590621E-02 +5.23454188294E-03 +1.53577551856E-05 +5.47941040690E-03 -3.94944184726E-05 +7.82380325444E-01 +1.84437611965E-01
2.77000000000E+09 +7.20392204345E-01 +8.50981148203E-03 +5.69833040340E-03 -6.32203055475E-04 +5.95684236624E-03 -8.39241271136E-04 +7.81777912679E-01 +1.66695209372E-01
2.77500000000E+09 +7.15623174460E-01 -9.96983434650E-03 +5.69020168459E-03 -1.80962692640E-03 +5.84215129857E-03 -2.07065472116E-03 +7.79875556664E-01 +1.48579770191E-01
2.78000000000E+09 +7.10943874648E-01 -2.91400642787E-02 +5.17139051303E-03 -2.31806872806E-03 +5.18358343505E-03 -2.62307143926E-03 +7.77770964237E-01 +1.31409000814E-01
2.78500000000E+09 +7.06053496527E-01 -4.93641975505E-02 +5.06135974143E-03 -2.67802768690E-03 +4.87905917285E-03 -2.90576848911E-03 +7.75608561878E-01 +1.14074577669E-01
2.79000000000E+09 +7.00206943035E-01 -7.09115152045E-02 +5.05735983775E-03 -3.20568400083E-03 +4.68518754109E-03 -3.28486946103E-03 +7.72408405896E-01 +9.62816555252E-02
2.79500000000E+09 +6.92507819954E-01 -9.21196951873E-02 +4.89876866935E-03 -3.69431407102E-03 +4.56638976870E-03 -3.50653673169E-03 +7.67940885295E-01 +7.77134786247E-02
2.80000000000E+09 +6.83349267091E-01 -1.12341808898E-01 +5.07248495453E-03 -4.60844082097E-03 +4.97659126831E-03 -4.23781462981E-03 +7.62725605220E-01 +5.86438935621E-02
2.80500000000E+09 +6.73825367931E-01 -1.31407454051E-01 +4.33166015120E-03 -5.85827176462E-03 +4.54319478684E-03 -5.63598173566E-03 +7.57072277791E-01 +3.97316666741E-02
2.81000000000E+09 +6.63445708843E-01 -1.49969570494E-01 +3.21669595488E-03 -6.06454417331E-03 +3.45210168182E-03 -6.19199361585E-03 +7.51821424873E-01 +2.02289832329E-02
2.81500000000E+09 +6.52305493879E-01 -1.67744695057E-01 +2.85067961044E-03 -6.30909303255E-03 +2.73337352745E-03 -6.55286557263E-03 +7.45026679925E-01 +5.47858437199E-04
2.82000000000E+09 +6.40034088332E-01 -1.85471042449E-01 +2.35179326849E-03 -6.77463879790E-03 +2.00120623910E-03 -6.83524511697E-03 +7.37251703664E-01 -1.93964701577E-02
2.82500000000E+09 +6.26983893786E-01 -2.03218991505E-01 +1.48682392147E-03 -7.27179662766E-03 +1.23982707870E-03 -7.00647058940E-03 +7.27546250463E-01 -3.94333736893E-02
2.83000000000E+09 +6.12002059629E-01 -2.21660123874E-01 +7.55408683528E-04 -7.60876691892E-03 +7.30685590215E-04 -7.19070003415E-03 +7.17117658809E-01 -5.95917422976E-02
2.83500000000E+09 +5.95977429951E-01 -2.40036347370E-01 -4.53184049371E-04 -7.60703346928E-03 -1.64398300186E-04 -7.29966814997E-03 +7.06503269135E-01 -7.95033925987E-02
2.84000000000E+09 +5.78072650929E-01 -2.59106487756E-01 -8.77972007112E-04 -7.08600953719E-03 -6.30441688650E-04 -7.06599109926E-03 +6.96027071965E-01 -1.00819544307E-01
2.84500000000E+09 +5.58266401499E-01 -2.78300781706E-01 -8.67796540287E-04 -7.66918831251E-03 -7.28905746861E-04 -7.69287622202E-03 +6.83689553359E-01 -1.22277236595E-01
2.85000000000E+09 +5.36928482904E-01 -2.97279132817E-01 -2.01319381195E-03 -8.53145475257E-03 -1.99853752759E-03 -8.56306244668E-03 +6.69363709710E-01 -1.43088403052E-01
2.85500000000E+09 +5.14444142768E-01 -3.15637323427E-01 -3.74608410028E-03 -8.66535403941E-03 -3.73633068269E-03 -8.50580057190E-03 +6.53711240547E-01 -1.62737476597E-01
2.86000000000E+09 +4.91011954986E-01 -3.33999549488E-01 -5.32968994386E-03 -7.99485711833E-03 -5.15551043064E-03 -7.92470627211E-03 +6.37745001505E-01 -1.82787759409E-01
2.86500000000E+09 +4.66826880662E-01 -3.50995739721E-01 -6.77804176348E-03 -6.89342057757E-03 -6.70158815501E-03 -6.88023610420E-03 +6.20319328465E-01 -2.04036887505E-01
2.87000000000E+09 +4.41594555458E-01 -3.67439317709E-01 -7.09370771484E-03 -5.25981950763E-03 -7.15908793163E-03 -5.34747200789E-03 +6.00012284485E-01 -2.25273103252E-01
2.87500000000E+09 +4.15687795987E-01 -3.81808200951E-01 -6.69068810682E-03 -4.73643728592E-03 -6.83135499388E-03 -4.58424892140E-03 +5.79336808305E-01 -2.44526479778E-01
2.88000000000E+09 +3.90116602022E-01 -3.94588837276E-01 -7.17627597841E-03 -5.13930823356E-03 -7.12904118790E-03 -4.72060182395E-03 +5.58045976229E-01 -2.63783676178E-01
2.88500000000E+09 +3.64575485611E-01 -4.06666106776E-01 -8.96502216943E-03 -4.32450180114E-03 -8.54457430145E-03 -3.98853661863E-03 +5.35145781545E-01 -2.81922731071E-01
2.89000000000E+09 +3.38064216558E-01 -4.18624541261E-01 -9.23099086483E-03 -2.72669086772E-03 -8.60337939748E-03 -2.76506035054E-03 +5.10026060997E-01 -3.00270893294E-01
2.89500000000E+09 +3.09869493959E-01 -4.29830578728E-01 -9.49750793529E-03 -1.93420862938E-03 -9.14434314191E-03 -2.31327324114E-03 +4.81717157610E-01 -3.17854028259E-01
2.90000000000E+09 +2.79139675875E-01 -4.39777388548E-01 -1.00149963773E-02 -6.81825685292E-04 -1.00314602103E-02 -1.01937474157E-03 +4.51471389626E-01 -3.32975657829E-01
2.90500000000E+09 +2.45396758571E-01 -4.47113837767E-01 -9.63735377629E-03 +4.84689324838E-04 -9.78473291802E-03 +5.11905367247E-04 +4.22221353655E-01 -3.47749807062E-01
2.91000000000E+09 +2.11246521948E-01 -4.51169279522E-01 -9.72642180575E-03 +9.76602600021E-04 -9.66299233858E-03 +1.18963396749E-03 +3.91072224855E-01 -3.62578075209E-01
2.91500000000E+09 +1.76363019892E-01 -4.53765742443E-01 -1.03682002205E-02 +2.25670847476E-03 -9.82145048466E-03 +2.43845173419E-03 +3.57532951145E-01 -3.74911033923E-01
2.92000000000E+09 +1.40561980040E-01 -4.53810162853E-01 -9.75361467580E-03 +4.10437007531E-03 -9.16244722632E-03 +3.81811818051E-03 +3.22510902931E-01 -3.84009145647E-01
2.92500000000E+09 +1.05385276058E-01 -4.51753974153E-01 -8.90099168529E-03 +4.50499707772E-03 -8.62334887826E-03 +3.94244322239E-03 +2.86712408425E-01 -3.89813691434E-01
2.93000000000E+09 +7.03649913138E-02 -4.48886883875E-01 -9.32223302602E-03 +5.33435790816E-03 -9.33909524785E-03 +4.74620432160E-03 +2.50780608899E-01 -3.94462767226E-01
2.93500000000E+09 +3.49526031690E-02 -4.44483105880E-01 -8.86219295640E-03 +7.03042491012E-03 -9.19695707885E-03 +6.69227432594E-03 +2.13539502528E-01 -3.99113826053E-01
2.94000000000E+09 -3.30934326092E-04 -4.38655806768E-01 -7.89633832531E-03 +8.13477914838E-03 -8.07645830506E-03 +8.01924597200E-03 +1.73850632598E-01 -4.02433694360E-01
2.94500000000E+09 -3.63740450571E-02 -4.30883900689E-01 -7.10499014391E-03 +9.48037771626E-03 -7.26261367911E-03 +9.24932491648E-03 +1.33439445516E-01 -4.01754866434E-01
2.95000000000E+09 -7.27585202138E-02 -4.18597141551E-01 -5.32162145316E-03 +1.03566611147E-02 -5.69444260989E-03 +1.01450025625E-02 +9.33924418769E-02 -3.96918311796E-01
2.95500000000E+09 -1.06743741929E-01 -4.02813109441E-01 -3.98905175028E-03 +1.03667061848E-02 -4.51326261701E-03 +1.04889953282E-02 +5.54982485326E-02 -3.89635369109E-01
2.96000000000E+09 -1.38806612638E-01 -3.85608867019E-01 -3.46104517656E-03 +1.06701483464E-02 -3.81398190100E-03 +1.11116863601E-02 +1.57668443155E-02 -3.80895669174E-01
2.96500000000E+09 -1.71104327800E-01 -3.65912161546E-01 -2.65298628583E-03 +1.16650673176E-02 -2.36862651761E-03 +1.21833934586E-02 -2.49096459552E-02 -3.68870772319E-01
2.97000000000E+09 -2.02511783549E-01 -3.42462902897E-01 -8.94984172092E-04 +1.23526715213E-02 -3.58250535661E-04 +1.24555312879E-02 -6.47855123693E-02 -3.53939329731E-01
2.97500000000E+09 -2.32089333443E-01 -3.16522777137E-01 +7.02924575236E-04 +1.25755384349E-02 +8.74718304695E-04 +1.21760820748E-02 -1.03598427427E-01 -3.36709628353E-01
2.98000000000E+09 -2.60765929299E-01 -2.88692074515E-01 +2.89797979758E-03 +1.21588786726E-02 +2.51068777771E-03 +1.19444006077E-02 -1.40899590894E-01 -3.16710170670E-01
2.98500000000E+09 -2.88342511795E-01 -2.58567376269E-01 +3.91715997688E-03 +1.12800394105E-02 +3.55240158629E-03 +1.16406742674E-02 -1.77785565092E-01 -2.94071332309E-01
2.99000000000E+09 -3.13996451268E-01 -2.27063535819E-01 +4.67544554434E-03 +1.08962529572E-02 +4.73283854407E-03 +1.14581316620E-02 -2.13236827558E-01 -2.67221177689E-01
2.99500000000E+09 -3.38677526237E-01 -1.94302220325E-01 +5.78189133339E-03 +1.12583013514E-02 +6.45372623433E-03 +1.15763832673E-02 -2.46868319676E-01 -2.37792288606E-01
3.00000000000E+09 -3.60463428055E-01 -1.60285135278E-01 +8.08073234758E-03 +1.06527407472E-02 +8.70651183784E-03 +1.02853161560E-02 -2.77767110298E-01 -2.05203356489E-01
3.00500000000E+09 -3.80000648711E-01 -1.26702968630E-01 +9.31160737674E-03 +9.36068450022E-03 +9.30922487852E-03 +8.66231569984E-03 -3.05637787715E-01 -1.72250224925E-01
3.01000000000E+09 -3.97552832150E-01 -9.31646102192E-02 +1.07284296281E-02 +8.14470373113E-03 +1.02964244808E-02 +7.74296835572E-03 -3.31604238293E-01 -1.38233405022E-01
3.01500000000E+09 -4.12752994606E-01 -5.86872965908E-02 +1.17366320913E-02 +6.54743034643E-03 +1.13316169177E-02 +6.59370111968E-03 -3.55848593081E-01 -1.02705780754E-01
3.02000000000E+09 -4.24538039577E-01 -2.38080284083E-02 +1.22056567856E-02 +4.84135409068E-03 +1.20264308656E-02 +5.03581332297E-03 -3.76328086635E-01 -6.30259172561E-02
3.02500000000E+09 -4.33401433731E-01 +1.19507814857E-02 +1.24188760752E-02 +3.90965193673E-03 +1.22925262580E-02 +3.94086961613E-03 -3.92197828981E-01 -2.33781583081E-02
3.03000000000E+09 -4.38054494077E-01 +4.81971859755E-02 +1.34225847879E-02 +2.45293785014E-03 +1.32021153984E-02 +2.49254515199E-03 -4.06066133334E-01 +1.70795860737E-02
3.03500000000E+09 -4.38828709261E-01 +8.41375230003E-02 +1.38740839000E-02 +5.92369274949E-04 +1.37090147976E-02 +9.13639028594E-04 -4.17347988466E-01 +5.67664684960E-02
3.04000000000E+09 -4.37376207172E-01 +1.19064404530E-01 +1.40465556463E-02 -1.85440990727E-03 +1.43609546890E-02 -1.33388096874E-03 -4.26255730629E-01 +9.74708897330E-02
3.04500000000E+09 -4.34274751969E-01 +1.54107747569E-01 +1.31322968158E-02 -3.72917731580E-03 +1.39237887494E-02 -3.72500410318E-03 -4.31714775051E-01 +1.38582861815E-01
3.05000000000E+09 -4.28701978442E-01 +1.89784337830E-01 +1.23103618457E-02 -5.13545302212E-03 +1.28584422873E-02 -5.89690244877E-03 -4.32382617611E-01 +1.78444750959E-01
3.05500000000E+09 -4.21241158014E-01 +2.24388679501E-01 +1.15380420595E-02 -6.40737814273E-03 +1.11884081045E-02 -7.29236297161E-03 -4.31694804636E-01 +2.16075330736E-01
3.06000000000E+09 -4.12076962013E-01 +2.58876548061E-01 +1.08341195934E-02 -7.91570219930E-03 +9.94258564174E-03 -8.09483437003E-03 -4.29845558254E-01 +2.54433150506E-01
3.06500000000E+09 -4.00429586124E-01 +2.92087263682E-01 +9.75753649255E-03 -9.72393838429E-03 +9.13759831883E-03 -9.05024163288E-03 -4.25080241014E-01 +2.92174601635E-01
3.07000000000E+09 -3.87958633715E-01 +3.22164662143E-01 +7.33481361723E-03 -1.10785083800E-02 +7.78350578763E-03 -1.02977055428E-02 -4.18301263795E-01 +3.28194076797E-01
