# Hz S RI R 50
! CMT, C1220, 16058040, 17.2.0/1
! Date: 15/08/2018 09:54:21
! Data: Format (Calibration Info)
! Freq                      S11: Re/Im (F2)                       S21: Re/Im (F2)                       S12: Re/Im (F2)                       S22: Re/Im (F2)            
2.50000000000E+09 +5.97982788404E-01 +6.27147846701E-01 -3.35245998221E-04 -8.02864394468E-04 -3.93055854363E-04 -9.04201467698E-04 +5.78667612045E-01 +7.12896798219E-01
2.50500000000E+09 +6.04144316358E-01 +6.20015014862E-01 -4.29372679962E-04 -7.76551220621E-04 -4.71157609626E-04 -7.39957946558E-04 +5.84151211794E-01 +7.07246948908E-01
2.51000000000E+09 +6.10638319054E-01 +6.12657697031E-01 -4.49561301568E-04 -6.12096954196E-04 -4.50330916580E-04 -6.09057613547E-04 +5.89760249178E-01 +7.02059416859E-01
2.51500000000E+09 +6.17301058534E-01 +6.05124555626E-01 -4.36476644417E-04 -6.84358499659E-04 -4.60717314296E-04 -6.03049680713E-04 +5.94787857490E-01 +6.96658619952E-01
2.52000000000E+09 +6.23582815756E-01 +5.97156132586E-01 -5.52580730456E-04 -7.40691314538E-04 -5.12110704940E-04 -6.75509706749E-04 +5.99725795961E-01 +6.90704881031E-01
2.52500000000E+09 +6.29214875300E-01 +5.89308743668E-01 -6.42431755211E-04 -6.66003816890E-04 -6.75370499499E-04 -6.85519919929E-04 +6.05480295170E-01 +6.84149501189E-01
2.53000000000E+09 +6.34384599093E-01 +5.81820029562E-01 -7.42422170643E-04 -4.81711514561E-04 -7.73045542072E-04 -5.08252130218E-04 +6.11495567179E-01 +6.76852762874E-01
2.53500000000E+09 +6.39303245074E-01 +5.74767793690E-01 -6.91524402758E-04 -3.73344546342E-04 -7.06892753403E-04 -4.02651082862E-04 +6.17419348632E-01 +6.69774812752E-01
2.54000000000E+09 +6.43855026167E-01 +5.67784040759E-01 -7.39279549121E-04 -4.14210279891E-04 -7.50074850140E-04 -4.53291842250E-04 +6.23389934124E-01 +6.63144807755E-01
2.54500000000E+09 +6.48358011089E-01 +5.61189710100E-01 -8.52391840101E-04 -4.02487492618E-04 -8.24906038823E-04 -4.98581211285E-04 +6.29207888122E-01 +6.56467839360E-01
2.55000000000E+09 +6.53127837577E-01 +5.54382703560E-01 -9.47794370661E-04 -3.09958860992E-04 -9.74242766217E-04 -3.53072031295E-04 +6.34221605658E-01 +6.50243597690E-01
2.55500000000E+09 +6.58026326755E-01 +5.47254343456E-01 -9.44411110101E-04 -1.53561437037E-04 -1.07435317571E-03 -2.24072428469E-04 +6.39152464246E-01 +6.43923258606E-01
2.56000000000E+09 +6.63574804175E-01 +5.39996872551E-01 -9.14907871757E-04 -1.41769891565E-05 -1.00461757126E-03 +4.04105263286E-05 +6.44251730470E-01 +6.36744546061E-01
2.56500000000E+09 +6.69534477874E-01 +5.32140573769E-01 -7.59170449657E-04 -5.94928457017E-05 -8.82903604480E-04 +1.20126188456E-04 +6.49409221255E-01 +6.29113385321E-01
2.57000000000E+09 +6.75739036193E-01 +5.23965547475E-01 -8.42688600736E-04 -2.04772127619E-04 -8.40220236979E-04 -2.06066137050E-05 +6.54919952409E-01 +6.21038909377E-01
2.57500000000E+09 +6.82114966023E-01 +5.15185707326E-01 -1.22248635398E-03 -1.01338908539E-04 -1.08515887233E-03 +1.22270765244E-04 +6.60488001420E-01 +6.13202634180E-01
2.58000000000E+09 +6.87791483900E-01 +5.06272508899E-01 -1.19855662986E-03 +3.46837982862E-04 -1.01116900338E-03 +3.24873639141E-04 +6.65438743303E-01 +6.05538967498E-01
2.58500000000E+09 +6.93286852464E-01 +4.97359852429E-01 -9.74903558791E-04 +4.62286043414E-04 -8.39300098099E-04 +3.51380554695E-04 +6.70155762427E-01 +5.98089534255E-01
2.59000000000E+09 +6.98488157501E-01 +4.88643157720E-01 -8.39543170106E-04 +4.00480874810E-04 -8.97305528201E-04 +2.64470999503E-04 +6.74788667688E-01 +5.90698168093E-01
2.59500000000E+09 +7.03395316469E-01 +4.79873713478E-01 -9.59716820579E-04 +3.97220058837E-04 -9.65082452240E-04 +3.38915469971E-04 +6.79331569740E-01 +5.82656813344E-01
2.60000000000E+09 +7.07631079440E-01 +4.71004888786E-01 -9.78850803148E-04 +3.72980904534E-04 -9.80820260137E-04 +3.88430979988E-04 +6.84181175132E-01 +5.74011910497E-01
2.60500000000E+09 +7.11977744052E-01 +4.61800550647E-01 -1.16484672393E-03 +6.29713880622E-04 -1.16092068575E-03 +6.26654797795E-04 +6.89018779606E-01 +5.65059936434E-01
2.61000000000E+09 +7.16334587770E-01 +4.52008757923E-01 -1.07856433612E-03 +9.75145981013E-04 -1.10684912184E-03 +9.78779200150E-04 +6.93914667255E-01 +5.56236953434E-01
2.61500000000E+09 +7.20646678909E-01 +4.41544320995E-01 -6.90173214934E-04 +1.08785038866E-03 -7.37604895173E-04 +1.10756884138E-03 +6.98763285712E-01 +5.47886581558E-01
2.62000000000E+09 +7.24709947878E-01 +4.30225213559E-01 -6.10152327214E-04 +9.35093949247E-04 -6.48108290812E-04 +9.98771748373E-04 +7.03584677839E-01 +5.38913526598E-01
2.62500000000E+09 +7.28781254953E-01 +4.18332954739E-01 -5.72117551871E-04 +9.88643216133E-04 -5.33754043998E-04 +1.07335994002E-03 +7.07800869460E-01 +5.30102710504E-01
2.63000000000E+09 +7.32941072001E-01 +4.05775706546E-01 -4.82482808070E-04 +1.01339029473E-03 -3.29896381640E-04 +1.01902043932E-03 +7.12447274279E-01 +5.21506863832E-01
2.63500000000E+09 +7.36504182842E-01 +3.93066525498E-01 -5.86396926871E-04 +1.03478805905E-03 -4.71464940840E-04 +9.69184689312E-04 +7.17181477352E-01 +5.12279761500E-01
2.64000000000E+09 +7.39778155307E-01 +3.80681941551E-01 -4.42579416536E-04 +1.26503858826E-03 -3.63925174834E-04 +1.08040436298E-03 +7.22012799916E-01 +5.02596454727E-01
2.64500000000E+09 +7.43492110921E-01 +3.68739851539E-01 -2.60579565034E-04 +1.22237267833E-03 -3.35956802896E-04 +1.02354446404E-03 +7.26821064468E-01 +4.92842192821E-01
2.65000000000E+09 +7.46630591453E-01 +3.56804616299E-01 -2.58290742603E-04 +1.28290096004E-03 -3.92477903674E-04 +1.19806408494E-03 +7.31078451066E-01 +4.82796066118E-01
2.65500000000E+09 +7.49890048605E-01 +3.45001657537E-01 -1.69233971222E-04 +1.25759303986E-03 -3.03806768031E-04 +1.33293228225E-03 +7.34817412895E-01 +4.72775496450E-01
2.66000000000E+09 +7.52891169155E-01 +3.33022359660E-01 -1.25235181411E-04 +1.42198868727E-03 -1.30767468026E-04 +1.48734835735E-03 +7.39348161233E-01 +4.62124489193E-01
2.66500000000E+09 +7.55536390077E-01 +3.21310114523E-01 +6.18937254211E-05 +1.45121831103E-03 +1.75543195111E-04 +1.50089608843E-03 +7.43865522865E-01 +4.50835600282E-01
2.67000000000E+09 +7.57956082400E-01 +3.08695817520E-01 +1.51874323843E-04 +1.51641277239E-03 +2.26365502351E-04 +1.44366321848E-03 +7.48134182628E-01 +4.39612273899E-01
2.67500000000E+09 +7.60007383750E-01 +2.95446729370E-01 +3.77294342813E-04 +1.43465406475E-03 +3.79344912846E-04 +1.32679253802E-03 +7.52135661793E-01 +4.28180217969E-01
2.68000000000E+09 +7.61127221851E-01 +2.81846865594E-01 +4.15442798698E-04 +1.37947460705E-03 +3.83769442907E-04 +1.28071291304E-03 +7.55772494679E-01 +4.16867499900E-01
2.68500000000E+09 +7.61742497227E-01 +2.68012984837E-01 +3.94349201748E-04 +1.44421729556E-03 +3.29549413670E-04 +1.43926072145E-03 +7.58931214253E-01 +4.05561877786E-01
2.69000000000E+09 +7.62338893546E-01 +2.54041926561E-01 +5.99104448647E-04 +1.67619404296E-03 +6.08528837569E-04 +1.66139592589E-03 +7.61765505760E-01 +3.93837829841E-01
2.69500000000E+09 +7.63087249051E-01 +2.39953231446E-01 +9.07857884306E-04 +1.61133844194E-03 +9.35923415197E-04 +1.64508576047E-03 +7.64680859538E-01 +3.80876787129E-01
2.70000000000E+09 +7.63700409963E-01 +2.25645252125E-01 +1.17244111824E-03 +1.65757005025E-03 +1.12261156676E-03 +1.61039379650E-03 +7.67335514023E-01 +3.67512401751E-01
2.70500000000E+09 +7.64212617031E-01 +2.11389266011E-01 +1.55767692991E-03 +1.35349484196E-03 +1.46531471684E-03 +1.42068109305E-03 +7.70145717215E-01 +3.54004286153E-01
2.71000000000E+09 +7.64821698498E-01 +1.97330300881E-01 +1.58407751870E-03 +1.06202900968E-03 +1.53028846552E-03 +1.13802888725E-03 +7.73128314117E-01 +3.40626055046E-01
2.71500000000E+09 +7.65816174356E-01 +1.83077380842E-01 +1.48628073116E-03 +9.46434543298E-04 +1.53936033717E-03 +1.03468395837E-03 +7.75672735135E-01 +3.27553925518E-01
2.72000000000E+09 +7.66717206889E-01 +1.68363447014E-01 +1.50619963504E-03 +9.69046262526E-04 +1.67278739321E-03 +9.52030920384E-04 +7.77438437422E-01 +3.14606643857E-01
2.72500000000E+09 +7.66943794089E-01 +1.52973218103E-01 +1.69858395206E-03 +1.01069999108E-03 +1.83499093367E-03 +7.73862985299E-04 +7.78333073051E-01 +3.01492948997E-01
2.73000000000E+09 +7.66235793210E-01 +1.37671371001E-01 +1.89318914973E-03 +8.79553318405E-04 +1.77866882081E-03 +6.62727285172E-04 +7.79743457764E-01 +2.87740307566E-01
2.73500000000E+09 +7.65025308840E-01 +1.21520011035E-01 +2.09949318586E-03 +7.16389133811E-04 +1.79597700067E-03 +6.07483902759E-04 +7.81118339317E-01 +2.72687871834E-01
2.74000000000E+09 +7.62561255347E-01 +1.05416264523E-01 +2.31463910654E-03 +5.21950117581E-04 +2.01189426439E-03 +6.27782395770E-04 +7.82403982903E-01 +2.57012761501E-01
2.74500000000E+09 +7.59290990118E-01 +8.90000041280E-02 +2.36762936239E-03 +3.15647263972E-04 +2.21062651595E-03 +6.11420307587E-04 +7.83194806048E-01 +2.41497437514E-01
2.75000000000E+09 +7.55295544254E-01 +7.22081645918E-02 +2.66134275021E-03 +4.78879407999E-06 +2.74227122471E-03 +2.83074985019E-04 +7.83834062865E-01 +2.26202865898E-01
2.75500000000E+09 +7.50483368564E-01 +5.52676373619E-02 +2.49578323969E-03 -3.78388629341E-04 +2.69690783703E-03 -3.07512971974E-04 +7.83390022663E-01 +2.11054757431E-01
2.76000000000E+09 +7.45369438594E-01 +3.85939154794E-02 +2.38855175057E-03 -4.72044446109E-04 +2.57460082467E-03 -4.13804037337E-04 +7.82804827412E-01 +1.95929909137E-01
2.76500000000E+09 +7.40246143057E-01 +2.17903040727E-02 +2.60794079839E-03 -6.02078611633E-04 +2.77502316610E-03 -6.21581935721E-04 +7.81730915532E-01 +1.79154904114E-01
2.77000000000E+09 +7.35727457260E-01 +4.31713583690E-03 +2.83022327332E-03 -1.02641671358E-03 +2.92926931800E-03 -1.14951307158E-03 +7.80113464594E-01 +1.61449445154E-01
2.77500000000E+09 +7.31040761529E-01 -1.42133599458E-02 +2.67880494115E-03 -1.53290612215E-03 +2.72319156907E-03 -1.60034193369E-03 +7.77777920632E-01 +1.43466771167E-01
2.78000000000E+09 +7.25808191385E-01 -3.35274407510E-02 +2.51788846924E-03 -1.69865861470E-03 +2.50933875912E-03 -1.84083561043E-03 +7.75945639715E-01 +1.25472508896E-01
2.78500000000E+09 +7.19415517104E-01 -5.33039818315E-02 +2.33474903277E-03 -2.00364269049E-03 +2.17451128954E-03 -2.15285931413E-03 +7.73519423374E-01 +1.07402915929E-01
2.79000000000E+09 +7.12296079815E-01 -7.31796319415E-02 +2.42652578560E-03 -2.14750436631E-03 +2.21918146235E-03 -2.14998993328E-03 +7.70291164598E-01 +8.97378443539E-02
2.79500000000E+09 +7.04382048192E-01 -9.21746839551E-02 +2.44152004790E-03 -2.89921458330E-03 +2.29914436300E-03 -2.73925284101E-03 +7.65589349606E-01 +7.17811922685E-02
2.80000000000E+09 +6.95683085381E-01 -1.11505630829E-01 +1.88123916707E-03 -3.30136570946E-03 +1.97800987301E-03 -3.14068978735E-03 +7.59817094060E-01 +5.37895903600E-02
2.80500000000E+09 +6.85801807392E-01 -1.30466729619E-01 +1.41109040998E-03 -3.62141964886E-03 +1.55806689710E-03 -3.55403142366E-03 +7.54190092790E-01 +3.56233512747E-02
2.81000000000E+09 +6.74329680322E-01 -1.48549370996E-01 +1.20750430038E-03 -3.64336453252E-03 +1.30805670515E-03 -3.75394601552E-03 +7.48145227721E-01 +1.56675855709E-02
2.81500000000E+09 +6.62049347311E-01 -1.65428276925E-01 +7.47657287297E-04 -3.93180175926E-03 +6.81439605954E-04 -4.11933292374E-03 +7.40761312931E-01 -4.35218596318E-03
2.82000000000E+09 +6.49049796267E-01 -1.82610812142E-01 +4.44849013511E-04 -4.14496262036E-03 +2.38995497383E-04 -4.25880966628E-03 +7.32643365465E-01 -2.43424894961E-02
2.82500000000E+09 +6.34754873281E-01 -1.99361396659E-01 -3.10360666882E-04 -4.62916174078E-03 -4.01844821412E-04 -4.46397939557E-03 +7.23836433897E-01 -4.38225330312E-02
2.83000000000E+09 +6.19128991199E-01 -2.17076510121E-01 -1.13860032482E-03 -4.36549432422E-03 -1.13724097640E-03 -4.19582364644E-03 +7.14119933235E-01 -6.33957362121E-02
2.83500000000E+09 +6.01504802139E-01 -2.34925112492E-01 -1.54771767955E-03 -3.90436667051E-03 -1.42684765379E-03 -3.81614271488E-03 +7.03861773684E-01 -8.33513867628E-02
2.84000000000E+09 +5.81788147875E-01 -2.52441328524E-01 -1.51113518386E-03 -3.93203123969E-03 -1.46539236649E-03 -3.93905546904E-03 +6.92052698706E-01 -1.04387535030E-01
2.84500000000E+09 +5.60809749307E-01 -2.69650045406E-01 -2.33918486726E-03 -4.14658637960E-03 -2.31646203307E-03 -4.14902116636E-03 +6.78820813951E-01 -1.25181609639E-01
2.85000000000E+09 +5.38781041856E-01 -2.86964480999E-01 -2.85474186281E-03 -3.94472937580E-03 -2.89361954219E-03 -3.92550878890E-03 +6.64323169682E-01 -1.45453854978E-01
2.85500000000E+09 +5.15220571743E-01 -3.03778813709E-01 -3.73013588634E-03 -3.56964630051E-03 -3.74453319834E-03 -3.46423916442E-03 +6.49937505976E-01 -1.65736843139E-01
2.86000000000E+09 +4.91084919259E-01 -3.20108161806E-01 -4.05398024350E-03 -2.94946111383E-03 -3.94886183076E-03 -2.91577230790E-03 +6.33539384395E-01 -1.87093717945E-01
2.86500000000E+09 +4.65801338215E-01 -3.35711662199E-01 -4.43942406743E-03 -2.38467059949E-03 -4.34481794527E-03 -2.43324403334E-03 +6.14854093543E-01 -2.07602784970E-01
2.87000000000E+09 +4.39585781583E-01 -3.49449239588E-01 -4.69020021365E-03 -1.70151804817E-03 -4.73822270754E-03 -1.70480588122E-03 +5.95011747225E-01 -2.26724190514E-01
2.87500000000E+09 +4.13672274342E-01 -3.61737170002E-01 -4.65649277831E-03 -1.09931975202E-03 -4.69350013230E-03 -9.99420606421E-04 +5.74701700173E-01 -2.45520103481E-01
2.88000000000E+09 +3.87682606552E-01 -3.73003454876E-01 -4.60127003490E-03 -7.85642337042E-04 -4.53329305403E-03 -6.51487014157E-04 +5.52879926686E-01 -2.64208035452E-01
2.88500000000E+09 +3.60731272613E-01 -3.83256348858E-01 -4.94544697566E-03 -4.81338965469E-04 -4.73760126318E-03 -4.13769080197E-04 +5.29934244552E-01 -2.82608463310E-01
2.89000000000E+09 +3.32682302220E-01 -3.91599616978E-01 -4.86119692583E-03 +2.51610212947E-04 -4.57625014163E-03 +1.29021699102E-04 +5.04216220129E-01 -3.00461581615E-01
2.89500000000E+09 +3.03689831546E-01 -3.98533959732E-01 -4.88040029658E-03 +4.68482446748E-04 -4.70508111805E-03 +2.38387745996E-04 +4.75841074300E-01 -3.17272966340E-01
2.90000000000E+09 +2.72916559935E-01 -4.03650358671E-01 -5.16945741536E-03 +1.02871121756E-03 -5.25546135570E-03 +7.97237292553E-04 +4.47179497950E-01 -3.31730746068E-01
2.90500000000E+09 +2.40466351417E-01 -4.06619435162E-01 -5.06948090625E-03 +2.01979667738E-03 -5.21120440968E-03 +2.00700439616E-03 +4.18217061618E-01 -3.46368152032E-01
2.91000000000E+09 +2.06529777282E-01 -4.06920816166E-01 -4.70745244729E-03 +2.56721727044E-03 -4.61016574020E-03 +2.64781594122E-03 +3.86650632912E-01 -3.60089179339E-01
2.91500000000E+09 +1.72312470295E-01 -4.03788403206E-01 -4.12604402869E-03 +3.17688282827E-03 -3.88859849811E-03 +3.13130804144E-03 +3.54169167713E-01 -3.71415599805E-01
2.92000000000E+09 +1.37995621978E-01 -3.98420793202E-01 -3.64117275212E-03 +2.95311801964E-03 -3.47909158831E-03 +2.75286426034E-03 +3.20085031322E-01 -3.79782982975E-01
2.92500000000E+09 +1.05712502147E-01 -3.91416970081E-01 -3.97591879663E-03 +3.08373428589E-03 -3.89425675495E-03 +2.71665899573E-03 +2.85607606278E-01 -3.86435552495E-01
2.93000000000E+09 +7.28830015552E-02 -3.84553414229E-01 -4.32036981505E-03 +3.89158439158E-03 -4.47610171856E-03 +3.59938094059E-03 +2.50065817414E-01 -3.91680875103E-01
2.93500000000E+09 +3.87428962361E-02 -3.75745515098E-01 -3.59249260573E-03 +5.06749536252E-03 -3.79394076859E-03 +4.98592281234E-03 +2.12282091947E-01 -3.96384029843E-01
2.94000000000E+09 +4.68372718522E-03 -3.63623406890E-01 -2.58262591969E-03 +5.48267745017E-03 -2.68295441405E-03 +5.38770015659E-03 +1.72992483858E-01 -3.97622706856E-01
2.94500000000E+09 -2.77893118911E-02 -3.47745537281E-01 -2.07485083251E-03 +5.44312322573E-03 -2.21211571638E-03 +5.37417665882E-03 +1.35023297080E-01 -3.96775796744E-01
2.95000000000E+09 -5.76384569287E-02 -3.29853436752E-01 -1.65618247586E-03 +6.01578887401E-03 -1.91823604256E-03 +5.92362650406E-03 +9.70664173478E-02 -3.93684853703E-01
2.95500000000E+09 -8.55301828038E-02 -3.10929710782E-01 -5.89566500910E-04 +6.17753917143E-03 -8.63931134515E-04 +6.27754038037E-03 +5.85815469333E-02 -3.89072295489E-01
2.96000000000E+09 -1.13804897229E-01 -2.90278871170E-01 -1.49018184196E-04 +6.11497027252E-03 -2.44308190055E-04 +6.38328986505E-03 +1.82475338942E-02 -3.81046965616E-01
2.96500000000E+09 -1.40738584736E-01 -2.66414508500E-01 +5.43677732384E-04 +6.28440926118E-03 +6.36892090204E-04 +6.53702441019E-03 -2.31589730808E-02 -3.68836848246E-01
2.97000000000E+09 -1.66468641093E-01 -2.39720103274E-01 +1.16997412716E-03 +6.01900728720E-03 +1.32156432619E-03 +6.03303317482E-03 -6.27099560961E-02 -3.52827543035E-01
2.97500000000E+09 -1.89476385879E-01 -2.10576710221E-01 +1.36843624970E-03 +6.63777738616E-03 +1.37589456418E-03 +6.49886896154E-03 -1.01376894383E-01 -3.35363051625E-01
2.98000000000E+09 -2.10586790933E-01 -1.80690816974E-01 +3.15986323907E-03 +6.83612823391E-03 +2.91251493333E-03 +6.79115935313E-03 -1.38260088950E-01 -3.15659884825E-01
2.98500000000E+09 -2.30323931661E-01 -1.49791891260E-01 +4.02537330956E-03 +5.68206283784E-03 +3.88908204942E-03 +5.95980911688E-03 -1.75105985306E-01 -2.94453546398E-01
2.99000000000E+09 -2.48706039120E-01 -1.18414399953E-01 +4.26755250911E-03 +5.24625931835E-03 +4.36120945719E-03 +5.58351741724E-03 -2.10818369925E-01 -2.67728825534E-01
2.99500000000E+09 -2.65280244958E-01 -8.61247073705E-02 +4.98122509073E-03 +5.18415291142E-03 +5.36521473123E-03 +5.28012968848E-03 -2.42733420365E-01 -2.38167652622E-01
3.00000000000E+09 -2.80062596076E-01 -5.33033772027E-02 +5.50046705633E-03 +4.84245872199E-03 +5.75622802342E-03 +4.55203447244E-03 -2.73524501594E-01 -2.07854987339E-01
3.00500000000E+09 -2.91669330863E-01 -2.06482210955E-02 +6.98136505675E-03 +4.86929663819E-03 +6.88497692515E-03 +4.47528360064E-03 -3.03282672093E-01 -1.73917369389E-01
3.01000000000E+09 -3.00682480024E-01 +1.11700419989E-02 +8.45341742018E-03 +2.85878013621E-03 +8.05756497978E-03 +2.82449952767E-03 -3.28772298312E-01 -1.38889002392E-01
3.01500000000E+09 -3.07828420704E-01 +4.19351948337E-02 +8.25482491804E-03 +9.80540534693E-04 +8.12985456563E-03 +1.28643690321E-03 -3.52468737428E-01 -1.02286782084E-01
3.02000000000E+09 -3.12581151666E-01 +7.33927173200E-02 +7.64517006193E-03 -1.10982520322E-04 +7.81282662976E-03 -3.50972103702E-05 -3.71380710865E-01 -6.49783763886E-02
3.02500000000E+09 -3.13861571089E-01 +1.04862480840E-01 +7.34070747742E-03 -4.89936842158E-04 +7.41741705320E-03 -4.58330473004E-04 -3.87603132343E-01 -2.76240864654E-02
3.03000000000E+09 -3.11582804824E-01 +1.35318998907E-01 +7.48885100641E-03 -1.15405057731E-03 +7.52863067053E-03 -1.16206666268E-03 -4.03312599819E-01 +1.02259705277E-02
3.03500000000E+09 -3.07494262911E-01 +1.64172587581E-01 +7.92910230489E-03 -2.12422209073E-03 +7.97554307465E-03 -2.00143362269E-03 -4.16176548192E-01 +5.17123432386E-02
3.04000000000E+09 -3.01405893150E-01 +1.94313967711E-01 +7.56942597423E-03 -3.93619504745E-03 +7.91271483118E-03 -3.82568524639E-03 -4.24428140074E-01 +9.34295952972E-02
3.04500000000E+09 -2.92923263770E-01 +2.22218949743E-01 +6.44505007377E-03 -4.81519441956E-03 +6.88239548493E-03 -4.98546720624E-03 -4.29132654591E-01 +1.34199991097E-01
3.05000000000E+09 -2.83682577151E-01 +2.50435541639E-01 +5.77570190639E-03 -5.71546945863E-03 +5.85079503490E-03 -6.22161891347E-03 -4.31360457472E-01 +1.72473479725E-01
3.05500000000E+09 -2.72854030028E-01 +2.78116139397E-01 +4.71191473442E-03 -6.09884145484E-03 +4.39925753896E-03 -6.50739291381E-03 -4.33424242675E-01 +2.10942446792E-01
3.06000000000E+09 -2.60493168921E-01 +3.05081983317E-01 +3.94347223702E-03 -6.91906461861E-03 +3.48805357534E-03 -6.83368640378E-03 -4.31585557555E-01 +2.50590873588E-01
3.06500000000E+09 -2.47263859396E-01 +3.30148831024E-01 +2.58422585238E-03 -7.49499686179E-03 +2.43581637598E-03 -7.10908913111E-03 -4.25830253654E-01 +2.88366955497E-01
3.07000000000E+09 -2.34306084378E-01 +3.54026179879E-01 +9.62643676888E-04 -7.34678519964E-03 +1.38663258322E-03 -7.19073788746E-03 -4.18510580150E-01 +3.23378298101E-01
