# Hz S RI R 50
! CMT, C1220, 16058040, 17.2.0/1
! Date: 15/08/2018 10:17:32
! Data: Format (Calibration Info)
! Freq                      S11: Re/Im (F2)                       S21: Re/Im (F2)                       S12: Re/Im (F2)                       S22: Re/Im (F2)            
2.50000000000E+09 +5.97450939082E-01 +6.34578274700E-01 -4.12188972411E-04 +1.94872054500E-04 -4.94080171339E-04 +2.17776989912E-04 +5.73465281068E-01 +7.16266923947E-01
2.50500000000E+09 +6.03956820448E-01 +6.26803411165E-01 -3.45983100277E-04 +3.10479487775E-04 -3.44206286766E-04 +3.35963287370E-04 +5.79037035504E-01 +7.10760248973E-01
2.51000000000E+09 +6.10389122243E-01 +6.18422721674E-01 -2.20643429990E-04 +3.33961081731E-04 -2.17602426002E-04 +2.91661340497E-04 +5.84387887006E-01 +7.05483618978E-01
2.51500000000E+09 +6.16572809089E-01 +6.10450724163E-01 -2.16697836909E-04 +2.95468578458E-04 -2.49564855477E-04 +2.77286018797E-04 +5.89653613385E-01 +7.00253978471E-01
2.52000000000E+09 +6.22335563770E-01 +6.02618805371E-01 -2.21336355211E-04 +3.26966049402E-04 -2.32784928788E-04 +3.40700253016E-04 +5.94845902764E-01 +6.94231536827E-01
2.52500000000E+09 +6.27649360807E-01 +5.95304469091E-01 -1.75094200187E-04 +3.23472515558E-04 -1.90982842524E-04 +3.20283452537E-04 +6.00378796469E-01 +6.87871670892E-01
2.53000000000E+09 +6.32376362569E-01 +5.88570607489E-01 -1.23193667766E-04 +3.72936582909E-04 -1.05043306920E-04 +3.20485691202E-04 +6.06561778184E-01 +6.81027581985E-01
2.53500000000E+09 +6.36867087860E-01 +5.82310441430E-01 -1.15386473681E-04 +3.60177773443E-04 -1.62022865588E-04 +3.61554279291E-04 +6.12538622015E-01 +6.74162814984E-01
2.54000000000E+09 +6.40914758714E-01 +5.76129317663E-01 -4.96751270025E-05 +4.22985966299E-04 -4.47022891190E-05 +4.45139660362E-04 +6.18365968842E-01 +6.67415302804E-01
2.54500000000E+09 +6.45200153553E-01 +5.70386171399E-01 +5.98217677019E-05 +4.70826032492E-04 +3.64251502412E-05 +4.44724707705E-04 +6.24103044378E-01 +6.61097275489E-01
2.55000000000E+09 +6.50010722718E-01 +5.64423300498E-01 +1.31774810512E-04 +3.38887698751E-04 +8.30736340737E-05 +4.18609923605E-04 +6.29542339322E-01 +6.54732005292E-01
2.55500000000E+09 +6.55612953423E-01 +5.57394655932E-01 +1.60344416649E-04 +2.86692943508E-04 +1.73595670584E-04 +3.15419520172E-04 +6.34795219338E-01 +6.48284130945E-01
2.56000000000E+09 +6.61736634628E-01 +5.50114728994E-01 +1.19467167818E-04 +1.06094804730E-04 +1.21734417586E-04 +1.64406248720E-04 +6.40039462926E-01 +6.40955873927E-01
2.56500000000E+09 +6.67909308814E-01 +5.41522091304E-01 -4.00465242487E-05 +1.40993619623E-04 -2.58689827627E-05 +1.75954669154E-04 +6.45490350445E-01 +6.33385104031E-01
2.57000000000E+09 +6.74077112436E-01 +5.32860225943E-01 -7.51811269375E-05 +3.30422344696E-04 -8.04066798569E-06 +2.83708148053E-04 +6.50696107596E-01 +6.25487785893E-01
2.57500000000E+09 +6.80127983306E-01 +5.23906747758E-01 +2.69175624477E-05 +3.56851742830E-04 +7.64642632238E-05 +3.28823406868E-04 +6.55878993068E-01 +6.17873125506E-01
2.58000000000E+09 +6.85742654569E-01 +5.15016004477E-01 +9.48099882915E-05 +3.52752963327E-04 +9.35220298196E-05 +3.22863133363E-04 +6.60881076151E-01 +6.10591760583E-01
2.58500000000E+09 +6.90813381279E-01 +5.05841646432E-01 +1.57711605682E-04 +3.33272394859E-04 +1.37077968582E-04 +2.49004404011E-04 +6.65778389674E-01 +6.02982927755E-01
2.59000000000E+09 +6.95165268447E-01 +4.97213327526E-01 +1.14672789262E-04 +2.89510168732E-04 +7.12591205139E-05 +2.71963233571E-04 +6.70241491698E-01 +5.95457448148E-01
2.59500000000E+09 +6.99355215362E-01 +4.88690651088E-01 +1.29895194306E-04 +3.76608540912E-04 +4.30721208091E-05 +3.82866244350E-04 +6.75172883196E-01 +5.87666272125E-01
2.60000000000E+09 +7.03292953631E-01 +4.80054516351E-01 +1.21530839249E-04 +4.36131636998E-04 +1.80657782174E-04 +4.21935891246E-04 +6.80217240907E-01 +5.79207445154E-01
2.60500000000E+09 +7.07373177314E-01 +4.70786137784E-01 +2.25939708375E-04 +5.02532515888E-04 +2.17521129593E-04 +4.84527945039E-04 +6.85421726354E-01 +5.70665285026E-01
2.61000000000E+09 +7.11564739779E-01 +4.60544175521E-01 +4.16407745099E-04 +4.35228349068E-04 +3.90674468214E-04 +4.78454416544E-04 +6.90587149992E-01 +5.61976607325E-01
2.61500000000E+09 +7.15994495971E-01 +4.49324303564E-01 +5.11490272229E-04 +3.41003117346E-04 +5.36392242901E-04 +3.85647913831E-04 +6.95375429162E-01 +5.53322587214E-01
2.62000000000E+09 +7.20107195639E-01 +4.36741862178E-01 +5.00234542949E-04 +2.18730778365E-04 +5.08680129821E-04 +2.53819237110E-04 +7.00219099436E-01 +5.44425495078E-01
2.62500000000E+09 +7.24031534493E-01 +4.23406721812E-01 +4.73137755085E-04 +2.34387732706E-04 +5.32501365338E-04 +2.04282132668E-04 +7.05015308892E-01 +5.35492163708E-01
2.63000000000E+09 +7.27579278624E-01 +4.10086611859E-01 +5.14357015762E-04 +2.27121993644E-04 +5.72607171548E-04 +1.64375472895E-04 +7.09840865807E-01 +5.26381111216E-01
2.63500000000E+09 +7.30673436210E-01 +3.96700537169E-01 +5.75083830297E-04 +1.78443765195E-04 +5.22535943841E-04 +9.68718182619E-05 +7.14846115282E-01 +5.16948072497E-01
2.64000000000E+09 +7.33568799914E-01 +3.83762393139E-01 +7.12535154457E-04 +1.43958032339E-04 +6.22806929486E-04 +1.30048213032E-04 +7.19685389675E-01 +5.07121663166E-01
2.64500000000E+09 +7.36317321874E-01 +3.71594602662E-01 +7.23796400229E-04 -1.19911430382E-05 +6.99801399541E-04 +5.72278148006E-05 +7.24446478683E-01 +4.97412055909E-01
2.65000000000E+09 +7.38546817528E-01 +3.60269265644E-01 +6.74394018115E-04 -3.44140510091E-05 +7.10129077696E-04 +2.66804581759E-05 +7.28770154738E-01 +4.87419111273E-01
2.65500000000E+09 +7.41063055053E-01 +3.49127137759E-01 +7.77413007307E-04 -1.72224122252E-04 +8.17545572561E-04 -6.95841895521E-05 +7.32759813781E-01 +4.76964301392E-01
2.66000000000E+09 +7.43612409311E-01 +3.38257114205E-01 +7.38905880466E-04 -2.60422747000E-04 +7.86206797535E-04 -3.06950218571E-04 +7.36656387286E-01 +4.65702253910E-01
2.66500000000E+09 +7.46217661010E-01 +3.26867217590E-01 +7.64633887976E-04 -4.08042375689E-04 +7.75111536519E-04 -4.44731040937E-04 +7.40530496138E-01 +4.54490663951E-01
2.67000000000E+09 +7.48162257911E-01 +3.14628585104E-01 +6.18712911955E-04 -5.87953818624E-04 +5.52691781067E-04 -6.47457831473E-04 +7.44780767747E-01 +4.43849368285E-01
2.67500000000E+09 +7.49604179052E-01 +3.01907319341E-01 +3.81996422708E-04 -5.73350528259E-04 +3.33399405165E-04 -5.23778515882E-04 +7.48926349905E-01 +4.32654626572E-01
2.68000000000E+09 +7.50829234516E-01 +2.88476751992E-01 +5.26588815693E-04 -4.08969038829E-04 +4.79240739166E-04 -4.06269097330E-04 +7.52869251197E-01 +4.21373531745E-01
2.68500000000E+09 +7.51448565717E-01 +2.74365553409E-01 +4.53652736341E-04 -6.31139346660E-04 +5.19539281270E-04 -5.34630832639E-04 +7.55648780755E-01 +4.09748548587E-01
2.69000000000E+09 +7.51519148902E-01 +2.60099869723E-01 +4.14271608125E-04 -6.14530083040E-04 +4.38815955509E-04 -6.75835347740E-04 +7.58056620272E-01 +3.97985416093E-01
2.69500000000E+09 +7.51484203735E-01 +2.46000732399E-01 +4.23504732401E-04 -6.28945499688E-04 +3.33091417012E-04 -6.27562022223E-04 +7.60668532188E-01 +3.85631069496E-01
2.70000000000E+09 +7.51399540693E-01 +2.31989430013E-01 +4.09187892536E-04 -8.25299822620E-04 +3.96214799327E-04 -7.34398608608E-04 +7.63855746526E-01 +3.72404484246E-01
2.70500000000E+09 +7.51519138211E-01 +2.18567524316E-01 +2.64908121287E-04 -9.00558575399E-04 +2.58236159176E-04 -7.79095857672E-04 +7.66565355780E-01 +3.58702959028E-01
2.71000000000E+09 +7.52215980478E-01 +2.05339194437E-01 +1.65987854098E-04 -9.14668889723E-04 +1.67180613670E-04 -9.28179554013E-04 +7.69340599239E-01 +3.45881243983E-01
2.71500000000E+09 +7.53701124455E-01 +1.91328059289E-01 -4.74298245769E-05 -9.89830291312E-04 -5.24295212124E-05 -9.91526940174E-04 +7.71874819644E-01 +3.33354052194E-01
2.72000000000E+09 +7.54917165495E-01 +1.76616943052E-01 -1.98778239897E-04 -8.06146023823E-04 -2.26311874275E-04 -8.06283509185E-04 +7.74088086904E-01 +3.20558297443E-01
2.72500000000E+09 +7.55516156138E-01 +1.60842742946E-01 +4.26415910650E-05 -7.30789762813E-04 -4.19310034465E-05 -7.03355554706E-04 +7.75461003361E-01 +3.07191788356E-01
2.73000000000E+09 +7.54788652493E-01 +1.44789898534E-01 -7.20447467286E-05 -1.10239751465E-03 -1.15123166755E-04 -1.03551314051E-03 +7.76815048272E-01 +2.93357130159E-01
2.73500000000E+09 +7.52948975811E-01 +1.27968122301E-01 -3.93376471912E-04 -1.02663641855E-03 -3.25274383138E-04 -9.31425676538E-04 +7.78018953102E-01 +2.78796874154E-01
2.74000000000E+09 +7.50155305673E-01 +1.11307844099E-01 -5.96507239285E-04 -9.76416630111E-04 -5.12399034228E-04 -8.88905367151E-04 +7.79495999400E-01 +2.63639697479E-01
2.74500000000E+09 +7.46145978694E-01 +9.38785769993E-02 -6.15424309756E-04 -7.41770038667E-04 -4.56916247875E-04 -8.27820123793E-04 +7.80771030110E-01 +2.48172571643E-01
2.75000000000E+09 +7.40769397268E-01 +7.68058106737E-02 -5.44938233691E-04 -8.24233362411E-04 -4.23013473706E-04 -9.01041360703E-04 +7.81606034981E-01 +2.33199996561E-01
2.75500000000E+09 +7.34870342485E-01 +6.03224602854E-02 -7.04540896860E-04 -9.91276293111E-04 -6.85474061322E-04 -1.15056299507E-03 +7.81840791123E-01 +2.17681985407E-01
2.76000000000E+09 +7.29316027920E-01 +4.44309183766E-02 -9.95646823589E-04 -9.29588310382E-04 -1.04321169936E-03 -1.03751320289E-03 +7.81250996654E-01 +2.01993783524E-01
2.76500000000E+09 +7.24506596954E-01 +2.76960261637E-02 -1.34879520001E-03 -7.45218171688E-04 -1.41897529571E-03 -7.86898701261E-04 +7.80503554129E-01 +1.85026373169E-01
2.77000000000E+09 +7.19262610556E-01 +1.00014686940E-02 -1.38240135369E-03 -3.95928126349E-04 -1.49969752790E-03 -3.19454762733E-04 +7.79176291199E-01 +1.67151353046E-01
2.77500000000E+09 +7.14069265952E-01 -8.48354554564E-03 -1.25979976943E-03 -1.14776195344E-04 -1.33598832708E-03 -1.41154897177E-04 +7.77037253335E-01 +1.49030602328E-01
2.78000000000E+09 +7.08439110569E-01 -2.78035031724E-02 -1.23516609588E-03 -1.08019319133E-04 -1.27805880152E-03 -1.93256010920E-05 +7.74979552580E-01 +1.31053506910E-01
2.78500000000E+09 +7.01690900314E-01 -4.76924183484E-02 -1.22058405181E-03 -8.25398019531E-05 -1.21891432090E-03 +2.46872409273E-05 +7.72483945282E-01 +1.13106567112E-01
2.79000000000E+09 +6.94302056071E-01 -6.74311386704E-02 -1.42418911641E-03 +8.75324960231E-05 -1.32186064451E-03 +1.49749659993E-04 +7.69104753547E-01 +9.55156179796E-02
2.79500000000E+09 +6.86406587264E-01 -8.75990725355E-02 -1.46768139812E-03 +3.76186648671E-04 -1.37033735062E-03 +3.97981911759E-04 +7.64734027910E-01 +7.76688027772E-02
2.80000000000E+09 +6.76050454334E-01 -1.07578710309E-01 -1.21539194165E-03 +7.75990864653E-04 -1.18188698729E-03 +7.05978808732E-04 +7.59947799250E-01 +5.91223995990E-02
2.80500000000E+09 +6.64670630361E-01 -1.25903191880E-01 -8.33616917121E-04 +5.22692799690E-04 -8.49516494722E-04 +5.01740722177E-04 +7.54018593715E-01 +3.96573856178E-02
2.81000000000E+09 +6.52648604232E-01 -1.42832876668E-01 -1.01356363467E-03 +4.31839518596E-04 -1.08083123622E-03 +4.32754185886E-04 +7.47261021712E-01 +2.04017994557E-02
2.81500000000E+09 +6.39899986800E-01 -1.59247895272E-01 -1.15025373213E-03 +5.50077086464E-04 -1.11950724946E-03 +6.15244652229E-04 +7.39935630385E-01 +1.09785549033E-03
2.82000000000E+09 +6.26405765148E-01 -1.75199192907E-01 -1.31121214402E-03 +7.80906452424E-04 -1.26521395867E-03 +9.24507553084E-04 +7.32633227967E-01 -1.85640429386E-02
2.82500000000E+09 +6.12440850546E-01 -1.91613981552E-01 -1.10043348872E-03 +1.17384864322E-03 -1.02108231697E-03 +1.19688331668E-03 +7.23390673047E-01 -3.88035179556E-02
2.83000000000E+09 +5.96071886719E-01 -2.08746790996E-01 -8.46388890586E-04 +1.14867522920E-03 -8.07708070737E-04 +1.09086794473E-03 +7.13556702085E-01 -5.83400625515E-02
2.83500000000E+09 +5.78580857020E-01 -2.25693431694E-01 -1.05804128415E-03 +1.30828735804E-03 -1.05068334926E-03 +1.21928289423E-03 +7.02397064342E-01 -7.87588378017E-02
2.84000000000E+09 +5.59938218640E-01 -2.43369878901E-01 -7.00935236527E-04 +1.66078032184E-03 -7.04364653342E-04 +1.63234154417E-03 +6.90743074916E-01 -9.84926941591E-02
2.84500000000E+09 +5.38886757130E-01 -2.61704887770E-01 -6.26626436164E-04 +1.58157087366E-03 -6.46369274947E-04 +1.59648589069E-03 +6.78470420432E-01 -1.19205966905E-01
2.85000000000E+09 +5.16342230339E-01 -2.79491773951E-01 -2.62835380940E-04 +2.15927269062E-03 -2.64485173133E-04 +2.13972556761E-03 +6.64492792571E-01 -1.39959777804E-01
2.85500000000E+09 +4.91938933830E-01 -2.96848659141E-01 +4.20645542539E-04 +1.58099748020E-03 +4.30205815781E-04 +1.51749085652E-03 +6.49496952267E-01 -1.60025611091E-01
2.86000000000E+09 +4.66787030557E-01 -3.12650343774E-01 -8.63330092647E-05 +1.29048853135E-03 -1.12901462303E-04 +1.19878512572E-03 +6.33442232556E-01 -1.80314920233E-01
2.86500000000E+09 +4.41717399415E-01 -3.27141316017E-01 -3.90270637526E-04 +1.97577309565E-03 -3.80482841599E-04 +2.01549098305E-03 +6.15916987709E-01 -2.00610627578E-01
2.87000000000E+09 +4.16694870069E-01 -3.40848240750E-01 +6.15797406292E-04 +2.40952816300E-03 +6.16176972280E-04 +2.43728278200E-03 +5.97090808895E-01 -2.20816114400E-01
2.87500000000E+09 +3.91168282638E-01 -3.54129324263E-01 +1.04806376215E-03 +2.00084848878E-03 +1.04775493165E-03 +1.97788301466E-03 +5.76142419355E-01 -2.40379189143E-01
2.88000000000E+09 +3.63951049915E-01 -3.65495302224E-01 +1.28604344724E-03 +2.00119240034E-03 +1.28208856364E-03 +1.90833398294E-03 +5.55036110369E-01 -2.58624935675E-01
2.88500000000E+09 +3.36641071518E-01 -3.75417194562E-01 +1.79148449922E-03 +1.63242542474E-03 +1.69582353302E-03 +1.49481917965E-03 +5.32489516168E-01 -2.77412268934E-01
2.89000000000E+09 +3.08045900488E-01 -3.83801026178E-01 +1.66045056064E-03 +1.19739023841E-03 +1.54287516324E-03 +1.17021245956E-03 +5.07200978255E-01 -2.95079635853E-01
2.89500000000E+09 +2.78555961033E-01 -3.90756396575E-01 +1.81715821157E-03 +1.36275192082E-03 +1.62280007460E-03 +1.38976639453E-03 +4.80966152169E-01 -3.12181562575E-01
2.90000000000E+09 +2.46827701847E-01 -3.95748094259E-01 +2.38537999301E-03 +9.97122979465E-04 +2.30853850471E-03 +1.10930006418E-03 +4.52410314591E-01 -3.29332396573E-01
2.90500000000E+09 +2.13457345141E-01 -3.98682875451E-01 +1.97543724462E-03 +5.13504985152E-04 +2.00832478000E-03 +5.35082406599E-04 +4.21463102726E-01 -3.44597531382E-01
2.91000000000E+09 +1.78997599028E-01 -3.98040672533E-01 +2.29298385053E-03 +8.09065659202E-04 +2.32094941973E-03 +7.12061515629E-04 +3.89908429066E-01 -3.58240917935E-01
2.91500000000E+09 +1.44890779022E-01 -3.95323867859E-01 +2.88600472501E-03 +3.61527226227E-04 +2.79534387015E-03 +3.58661424238E-04 +3.56948682254E-01 -3.69478718959E-01
2.92000000000E+09 +1.10758200988E-01 -3.90118340025E-01 +3.00812833174E-03 -9.87979495911E-04 +2.86731223640E-03 -8.93436122036E-04 +3.23652522917E-01 -3.78944789528E-01
2.92500000000E+09 +7.65720529835E-02 -3.84170169318E-01 +2.01269587122E-03 -1.01762161611E-03 +1.97040782442E-03 -8.72105240209E-04 +2.88010797615E-01 -3.86798881372E-01
2.93000000000E+09 +4.13756590178E-02 -3.74985485382E-01 +2.01150675404E-03 -8.66863719900E-04 +2.04500200822E-03 -8.42886429895E-04 +2.50672574029E-01 -3.91861965780E-01
2.93500000000E+09 +8.21331700335E-03 -3.63242276495E-01 +2.02746086007E-03 -1.32894714658E-03 +2.07429609934E-03 -1.34579312548E-03 +2.13071811040E-01 -3.95165992801E-01
2.94000000000E+09 -2.42435205971E-02 -3.50154594291E-01 +1.63497051261E-03 -1.37593759654E-03 +1.67830924303E-03 -1.30643387402E-03 +1.74624094591E-01 -3.97053376087E-01
2.94500000000E+09 -5.60577832320E-02 -3.35406283029E-01 +1.93633250297E-03 -1.32582509246E-03 +1.93928167537E-03 -1.23051955697E-03 +1.35246255880E-01 -3.96962792213E-01
2.95000000000E+09 -8.79147129541E-02 -3.17545014963E-01 +2.00582312382E-03 -2.21758055922E-03 +2.05252576856E-03 -2.13194790617E-03 +9.53223280506E-02 -3.93158434840E-01
2.95500000000E+09 -1.18398608898E-01 -2.96707056601E-01 +1.43917363038E-03 -2.49858361805E-03 +1.52440848279E-03 -2.50083473390E-03 +5.64702683046E-02 -3.86067696177E-01
2.96000000000E+09 -1.46239761564E-01 -2.72191189660E-01 +9.45039219237E-04 -3.11899478590E-03 +9.74655489795E-04 -3.21606991173E-03 +1.79058220596E-02 -3.76645357675E-01
2.96500000000E+09 -1.71858143863E-01 -2.47289220732E-01 -2.77285551147E-04 -2.73639354182E-03 -3.55529643783E-04 -2.86095114616E-03 -2.10525722377E-02 -3.65515350250E-01
2.97000000000E+09 -1.96572158121E-01 -2.20375016490E-01 -1.27239192500E-04 -2.22148781752E-03 -2.25273630232E-04 -2.19988529531E-03 -6.14332621297E-02 -3.50904964726E-01
2.97500000000E+09 -2.20037955029E-01 -1.91080944052E-01 -7.79493197891E-05 -2.19003356544E-03 -8.86855593363E-05 -2.10921688073E-03 -9.93543107879E-02 -3.32749814467E-01
2.98000000000E+09 -2.41140111603E-01 -1.59865246396E-01 -3.88751232507E-04 -2.73958987483E-03 -3.17623491796E-04 -2.63853479747E-03 -1.36440399708E-01 -3.13734147044E-01
2.98500000000E+09 -2.60153597502E-01 -1.28287510946E-01 -1.16524849370E-03 -2.55446694344E-03 -1.12473063040E-03 -2.60081991576E-03 -1.71961601177E-01 -2.91404338855E-01
2.99000000000E+09 -2.77117213864E-01 -9.56675810369E-02 -1.50621009875E-03 -2.06930856475E-03 -1.58319750069E-03 -2.18429453744E-03 -2.07486252831E-01 -2.67574911301E-01
2.99500000000E+09 -2.92332275953E-01 -6.38557008702E-02 -1.45195693494E-03 -1.82227330950E-03 -1.50143375176E-03 -1.88261280997E-03 -2.41443269700E-01 -2.38100727708E-01
3.00000000000E+09 -3.06541886547E-01 -3.15135510844E-02 -1.84841194610E-03 -1.95377283881E-03 -1.87184427257E-03 -1.82212908912E-03 -2.71807456218E-01 -2.06815461007E-01
3.00500000000E+09 -3.18478414379E-01 +1.01492880786E-03 -2.48581465943E-03 -1.51121980531E-03 -2.40310013610E-03 -1.39369699884E-03 -3.00546915794E-01 -1.74571501187E-01
3.01000000000E+09 -3.27524799576E-01 +3.35014970798E-02 -2.97924133527E-03 -7.80502363155E-04 -2.73936303402E-03 -7.73833521211E-04 -3.27541957216E-01 -1.39818245123E-01
3.01500000000E+09 -3.33472922569E-01 +6.55466183672E-02 -2.33657627796E-03 +3.41980803741E-04 -2.29951809849E-03 +2.06459261241E-04 -3.51271713551E-01 -1.03670886908E-01
3.02000000000E+09 -3.36844545033E-01 +9.66744902663E-02 -1.67491307901E-03 +1.01366307536E-04 -1.67379326226E-03 +5.26639404137E-05 -3.71634245211E-01 -6.58576650025E-02
3.02500000000E+09 -3.36984714753E-01 +1.27470288957E-01 -1.55218754173E-03 -5.77002881647E-05 -1.60851032858E-03 -7.87157279850E-05 -3.87809754652E-01 -2.67584286973E-02
3.03000000000E+09 -3.34503295908E-01 +1.57372289858E-01 -2.26762280942E-03 -4.02302844567E-04 -2.31550770558E-03 -4.35961834027E-04 -4.01618066199E-01 +1.16455252390E-02
3.03500000000E+09 -3.29820822152E-01 +1.86884269360E-01 -2.70247065515E-03 +9.12174637594E-04 -2.76087608884E-03 +8.97079931880E-04 -4.13762828015E-01 +5.12360957009E-02
3.04000000000E+09 -3.22165859769E-01 +2.16300030439E-01 -1.88406109191E-03 +1.83349981570E-03 -1.97211738645E-03 +1.77796713596E-03 -4.22497768657E-01 +9.17134905371E-02
3.04500000000E+09 -3.12971837746E-01 +2.44545983295E-01 -6.10833277367E-04 +1.65144634238E-03 -7.18917985120E-04 +1.75622033822E-03 -4.28626288824E-01 +1.31789059950E-01
3.05000000000E+09 -3.02373243642E-01 +2.72600147333E-01 -5.29531423372E-04 +7.46639052806E-04 -5.92072701936E-04 +8.30390601246E-04 -4.31637120155E-01 +1.71571613156E-01
3.05500000000E+09 -2.90337086866E-01 +3.00614017734E-01 -1.12047919800E-03 +8.10093833505E-04 -1.08595206538E-03 +8.99639194322E-04 -4.32038590237E-01 +2.10387094741E-01
3.06000000000E+09 -2.76547012596E-01 +3.27451820409E-01 -1.12234522339E-03 +1.52295526037E-03 -1.02778226371E-03 +1.50629165577E-03 -4.29929904010E-01 +2.48659044719E-01
3.06500000000E+09 -2.62510311266E-01 +3.52549040372E-01 -3.33162420610E-05 +1.59978432609E-03 +1.31761501478E-05 +1.48877324915E-03 -4.25723380359E-01 +2.85369372587E-01
3.07000000000E+09 -2.47589213442E-01 +3.76679916723E-01 +6.50896513822E-05 +8.97833161415E-04 +1.63967537650E-05 +9.20234970172E-04 -4.19578890537E-01 +3.21430379763E-01
