# Hz S RI R 50
! CMT, C1220, 16058040, 17.2.0/1
! Date: 15/08/2018 09:54:01
! Data: Format (Calibration Info)
! Freq                      S11: Re/Im (F2)                       S21: Re/Im (F2)                       S12: Re/Im (F2)                       S22: Re/Im (F2)            
2.50000000000E+09 +5.98824295667E-01 +6.26220296108E-01 -3.25740924521E-04 -9.57495688180E-04 -3.19772398995E-04 -1.07279946586E-03 +5.79062763463E-01 +7.12933936905E-01
2.50500000000E+09 +6.04929836022E-01 +6.19045488339E-01 -4.19678977702E-04 -1.01325831780E-03 -4.46093726513E-04 -9.84670288947E-04 +5.84739037620E-01 +7.07314884145E-01
2.51000000000E+09 +6.11483066651E-01 +6.11577055141E-01 -4.88188178311E-04 -9.16993936356E-04 -5.24474329776E-04 -8.32248954416E-04 +5.90231000013E-01 +7.02024513776E-01
2.51500000000E+09 +6.18181087306E-01 +6.04069353901E-01 -5.70106258779E-04 -8.92796412641E-04 -5.13367311312E-04 -8.42410254213E-04 +5.95416627626E-01 +6.96558772636E-01
2.52000000000E+09 +6.24467415763E-01 +5.95946350890E-01 -6.47033150195E-04 -8.72662628412E-04 -5.97676111168E-04 -8.93620779404E-04 +6.00481948576E-01 +6.90547100248E-01
2.52500000000E+09 +6.30068613058E-01 +5.88240452019E-01 -8.28269230309E-04 -7.98139288848E-04 -7.92748562927E-04 -8.43719117823E-04 +6.06118095799E-01 +6.83958806747E-01
2.53000000000E+09 +6.35402544775E-01 +5.80732246155E-01 -9.43590979326E-04 -6.48883978057E-04 -9.36341879653E-04 -6.70060251291E-04 +6.12065819139E-01 +6.76619953406E-01
2.53500000000E+09 +6.40155656680E-01 +5.73596498789E-01 -8.61156646153E-04 -5.74319350667E-04 -8.50184759649E-04 -5.45488806778E-04 +6.17999526155E-01 +6.69485412474E-01
2.54000000000E+09 +6.44643205853E-01 +5.66722924227E-01 -9.19568847119E-04 -5.57441204607E-04 -8.77389699937E-04 -6.01550485619E-04 +6.23991418291E-01 +6.62852451969E-01
2.54500000000E+09 +6.49231131663E-01 +5.60026945941E-01 -9.81812197936E-04 -5.61073974670E-04 -9.87762853799E-04 -6.51107142642E-04 +6.29864553925E-01 +6.56196943549E-01
2.55000000000E+09 +6.53804311492E-01 +5.53148805758E-01 -1.14886786096E-03 -4.66404181006E-04 -1.16732389687E-03 -5.90402330508E-04 +6.34785358354E-01 +6.49907782198E-01
2.55500000000E+09 +6.58685073795E-01 +5.46037492022E-01 -1.19159431496E-03 -2.57416248131E-04 -1.41215682663E-03 -3.48390811643E-04 +6.39673219061E-01 +6.43678010516E-01
2.56000000000E+09 +6.64323721194E-01 +5.38924247183E-01 -1.15021913834E-03 -1.04353493563E-04 -1.36279616016E-03 -1.85748561483E-05 +6.44828827041E-01 +6.36470115932E-01
2.56500000000E+09 +6.70228100078E-01 +5.30997031073E-01 -1.04234328713E-03 -9.26035934651E-05 -1.18019508244E-03 +9.52314209409E-05 +6.50073656446E-01 +6.28836168730E-01
2.57000000000E+09 +6.76500473848E-01 +5.22772849481E-01 -1.15651078584E-03 -2.69815521160E-04 -1.18037303680E-03 -2.15454668211E-05 +6.55660032975E-01 +6.20813781185E-01
2.57500000000E+09 +6.82849469742E-01 +5.13831411927E-01 -1.50841309856E-03 -8.84117811322E-05 -1.35092720349E-03 +9.74789931605E-05 +6.61155710866E-01 +6.12796882170E-01
2.58000000000E+09 +6.88661473069E-01 +5.05005344541E-01 -1.55705142960E-03 +3.10932591114E-04 -1.26669747860E-03 +3.42149975266E-04 +6.66112961582E-01 +6.05181229408E-01
2.58500000000E+09 +6.94201165894E-01 +4.96032965811E-01 -1.32442118035E-03 +5.29736496166E-04 -1.17267551883E-03 +4.15068228814E-04 +6.70856406522E-01 +5.97817390184E-01
2.59000000000E+09 +6.99337150034E-01 +4.87430881795E-01 -1.21714815529E-03 +4.72712952730E-04 -1.19465682112E-03 +3.70357122140E-04 +6.75733965898E-01 +5.90412056342E-01
2.59500000000E+09 +7.04201546738E-01 +4.78568935256E-01 -1.24006339140E-03 +5.14711759667E-04 -1.27196540025E-03 +4.85847041367E-04 +6.80228447122E-01 +5.82163483584E-01
2.60000000000E+09 +7.08523012388E-01 +4.69746930840E-01 -1.30905925014E-03 +5.70357461248E-04 -1.28141703492E-03 +5.42271961503E-04 +6.85176583225E-01 +5.73508504404E-01
2.60500000000E+09 +7.13001255983E-01 +4.60524244648E-01 -1.47930892202E-03 +8.28038639728E-04 -1.44301030695E-03 +8.64575307090E-04 +6.90068413866E-01 +5.64542654605E-01
2.61000000000E+09 +7.17317710235E-01 +4.50696478505E-01 -1.36997982649E-03 +1.25420560827E-03 -1.33411524051E-03 +1.23425201844E-03 +6.94947167660E-01 +5.55512981911E-01
2.61500000000E+09 +7.21714024416E-01 +4.40120502443E-01 -8.84837592081E-04 +1.41606640147E-03 -9.52297761100E-04 +1.38347294829E-03 +6.99682052648E-01 +5.47067534059E-01
2.62000000000E+09 +7.25945017367E-01 +4.28784101652E-01 -7.63750341140E-04 +1.26937780731E-03 -7.53735297134E-04 +1.35387458866E-03 +7.04575505174E-01 +5.37883684806E-01
2.62500000000E+09 +7.30038404021E-01 +4.16809758500E-01 -7.34027644600E-04 +1.30713182036E-03 -6.78487461129E-04 +1.39810741536E-03 +7.08887665733E-01 +5.28949223283E-01
2.63000000000E+09 +7.34240537162E-01 +4.04340698458E-01 -6.29226111776E-04 +1.35110993391E-03 -5.02509999939E-04 +1.37786442764E-03 +7.13109067183E-01 +5.20437307080E-01
2.63500000000E+09 +7.37823804196E-01 +3.91390443496E-01 -7.22335862832E-04 +1.40658305976E-03 -5.37739572066E-04 +1.32007499222E-03 +7.17859062785E-01 +5.11117953817E-01
2.64000000000E+09 +7.41177695752E-01 +3.78824528218E-01 -5.45692272243E-04 +1.73466510244E-03 -4.30487600747E-04 +1.48234976269E-03 +7.22556171183E-01 +5.01421015900E-01
2.64500000000E+09 +7.44766286738E-01 +3.66863257488E-01 -1.99439382362E-04 +1.70413268246E-03 -2.92128499810E-04 +1.42563678766E-03 +7.27112687162E-01 +4.91477208902E-01
2.65000000000E+09 +7.47819802640E-01 +3.54788223844E-01 -1.20024083170E-04 +1.63985918023E-03 -3.09551760030E-04 +1.57534392193E-03 +7.31226647446E-01 +4.81476895893E-01
2.65500000000E+09 +7.50864285131E-01 +3.43040676403E-01 +8.07634206372E-06 +1.63456245832E-03 -1.98916740073E-04 +1.74949172259E-03 +7.34829753122E-01 +4.71545871853E-01
2.66000000000E+09 +7.53855765323E-01 +3.30914427819E-01 +4.86674197551E-05 +1.75569010334E-03 +6.86588320502E-05 +1.88418214658E-03 +7.39322318951E-01 +4.61085028885E-01
2.66500000000E+09 +7.56552637482E-01 +3.19183696187E-01 +1.92153868983E-04 +1.78197097073E-03 +3.24857572998E-04 +1.81704863426E-03 +7.43931374512E-01 +4.49801662922E-01
2.67000000000E+09 +7.58878433792E-01 +3.06487601797E-01 +3.39208932446E-04 +1.87387279517E-03 +4.80833224077E-04 +1.75933676216E-03 +7.48130783410E-01 +4.38583534157E-01
2.67500000000E+09 +7.60799369301E-01 +2.93312627355E-01 +6.44956036913E-04 +1.79776745317E-03 +6.68361159900E-04 +1.67772576014E-03 +7.52163231074E-01 +4.27190365848E-01
2.68000000000E+09 +7.62054162966E-01 +2.79609805148E-01 +7.29449101169E-04 +1.64314564681E-03 +6.81695148285E-04 +1.59020122303E-03 +7.55799069220E-01 +4.15935110134E-01
2.68500000000E+09 +7.62754351474E-01 +2.65478018396E-01 +6.81011717012E-04 +1.73357612979E-03 +6.60896430480E-04 +1.72077280957E-03 +7.58798457242E-01 +4.04667951940E-01
2.69000000000E+09 +7.63370107109E-01 +2.51670301056E-01 +9.14663990033E-04 +1.94810457042E-03 +1.00669814217E-03 +1.94471007872E-03 +7.61752993576E-01 +3.92789483591E-01
2.69500000000E+09 +7.64168933231E-01 +2.37637852307E-01 +1.28056044458E-03 +1.77812233080E-03 +1.31914107802E-03 +1.76260623288E-03 +7.64418784433E-01 +3.79862510019E-01
2.70000000000E+09 +7.64800188852E-01 +2.23078089837E-01 +1.54377808591E-03 +1.73655519048E-03 +1.42782146488E-03 +1.70487997609E-03 +7.66998422615E-01 +3.66472214788E-01
2.70500000000E+09 +7.65360287196E-01 +2.09060438018E-01 +1.89853927538E-03 +1.43736884687E-03 +1.78827430960E-03 +1.50865578005E-03 +7.69822461912E-01 +3.53095280776E-01
2.71000000000E+09 +7.65908834608E-01 +1.95116974269E-01 +1.85757449733E-03 +1.19975492225E-03 +1.89503596996E-03 +1.33700877344E-03 +7.72982425462E-01 +3.39608854797E-01
2.71500000000E+09 +7.67078087029E-01 +1.80788783391E-01 +1.86148199303E-03 +1.03082741558E-03 +1.94246865003E-03 +1.08993447847E-03 +7.75393935122E-01 +3.26430741456E-01
2.72000000000E+09 +7.67900190995E-01 +1.65902514089E-01 +1.94353704996E-03 +1.07702064400E-03 +2.09487463957E-03 +9.74963177627E-04 +7.76909634397E-01 +3.13612282264E-01
2.72500000000E+09 +7.68181904563E-01 +1.50297476259E-01 +2.15357419150E-03 +1.01290284865E-03 +2.23442581553E-03 +7.71615129000E-04 +7.77703811588E-01 +3.00513056520E-01
2.73000000000E+09 +7.67328440811E-01 +1.34601070043E-01 +2.40134278368E-03 +8.98099178813E-04 +2.18159103864E-03 +6.30767885333E-04 +7.78890543164E-01 +2.86736780800E-01
2.73500000000E+09 +7.65929845005E-01 +1.18279390734E-01 +2.54177778573E-03 +6.35088611859E-04 +2.20382921315E-03 +5.22513915398E-04 +7.80058876563E-01 +2.71835321354E-01
2.74000000000E+09 +7.63329684022E-01 +1.01888794552E-01 +2.80877074813E-03 +4.60560309403E-04 +2.41095851314E-03 +6.29427706882E-04 +7.81241879793E-01 +2.56325050950E-01
2.74500000000E+09 +7.59936463634E-01 +8.52571409943E-02 +2.83973872884E-03 +2.03284753468E-04 +2.65990520777E-03 +5.05744842101E-04 +7.81867494169E-01 +2.41047050380E-01
2.75000000000E+09 +7.55888070337E-01 +6.84255683424E-02 +3.14716851858E-03 -1.38412104022E-04 +3.26044641255E-03 +2.43755909937E-04 +7.82584733806E-01 +2.25990477392E-01
2.75500000000E+09 +7.50937370445E-01 +5.13936972158E-02 +3.06387748793E-03 -5.93037428803E-04 +3.34319083724E-03 -4.56873386044E-04 +7.82167214629E-01 +2.11084150213E-01
2.76000000000E+09 +7.45635311091E-01 +3.45698685778E-02 +2.99078615939E-03 -7.12983876839E-04 +3.28941706820E-03 -7.32778369557E-04 +7.81475899965E-01 +1.96188876221E-01
2.76500000000E+09 +7.40338935700E-01 +1.78949576763E-02 +3.24158794720E-03 -1.03574894323E-03 +3.40632030682E-03 -1.16090920256E-03 +7.80534826733E-01 +1.79708227094E-01
2.77000000000E+09 +7.35567978008E-01 +3.95991581201E-04 +3.44711334823E-03 -1.54719006084E-03 +3.50841155524E-03 -1.74921493088E-03 +7.79010514563E-01 +1.62101656478E-01
2.77500000000E+09 +7.30628258569E-01 -1.79793493536E-02 +3.17665459881E-03 -2.34291186145E-03 +3.18792497689E-03 -2.48948709278E-03 +7.76932346349E-01 +1.44322318602E-01
2.78000000000E+09 +7.25315507461E-01 -3.70914508113E-02 +2.80102804108E-03 -2.60317350033E-03 +2.69919870049E-03 -2.83237221161E-03 +7.75318654028E-01 +1.26603626116E-01
2.78500000000E+09 +7.18739340241E-01 -5.67470435378E-02 +2.49175815165E-03 -2.85507313395E-03 +2.26763083982E-03 -2.96868566513E-03 +7.73007426516E-01 +1.08560118803E-01
2.79000000000E+09 +7.11481594920E-01 -7.64804863950E-02 +2.42449500677E-03 -3.08612662012E-03 +2.18565406534E-03 -3.05837494161E-03 +7.70255943583E-01 +9.09215147922E-02
2.79500000000E+09 +7.03288534986E-01 -9.56711815041E-02 +2.25486358189E-03 -3.83588695284E-03 +2.10506222137E-03 -3.66410222217E-03 +7.65661383102E-01 +7.27717183827E-02
2.80000000000E+09 +6.94472111139E-01 -1.14989877302E-01 +1.48695935691E-03 -4.21301137582E-03 +1.53243413241E-03 -3.93740892635E-03 +7.60138740079E-01 +5.48354459489E-02
2.80500000000E+09 +6.84339752930E-01 -1.33896482596E-01 +8.25570574096E-04 -4.24921961136E-03 +1.04881862295E-03 -4.24328735689E-03 +7.54789231913E-01 +3.67229645923E-02
2.81000000000E+09 +6.72741050158E-01 -1.51895854687E-01 +6.06536002542E-04 -4.19839162321E-03 +6.86398045054E-04 -4.28316724549E-03 +7.48892646306E-01 +1.65204552666E-02
2.81500000000E+09 +6.60523160634E-01 -1.68863370671E-01 +1.07513545374E-04 -4.44543882516E-03 -2.43906789064E-05 -4.57218139995E-03 +7.41546863645E-01 -3.91291344683E-03
2.82000000000E+09 +6.47477885900E-01 -1.85995234336E-01 -2.97293513911E-04 -4.53565334983E-03 -5.05834495472E-04 -4.57859338824E-03 +7.33268560224E-01 -2.39083350671E-02
2.82500000000E+09 +6.33185414656E-01 -2.02825855623E-01 -1.05582600473E-03 -4.80343238676E-03 -1.20856179555E-03 -4.60487118029E-03 +7.24479313289E-01 -4.32728809997E-02
2.83000000000E+09 +6.17405265743E-01 -2.20528507716E-01 -1.90969316959E-03 -4.30330280527E-03 -1.83243064508E-03 -4.14652371219E-03 +7.15049294309E-01 -6.27749652723E-02
2.83500000000E+09 +5.99616929568E-01 -2.38571387890E-01 -2.06044288687E-03 -3.73544574676E-03 -1.95877158585E-03 -3.67522314491E-03 +7.05096234157E-01 -8.29656018494E-02
2.84000000000E+09 +5.79543251371E-01 -2.55935911288E-01 -1.91515567981E-03 -3.70090609288E-03 -1.81714433729E-03 -3.78684361676E-03 +6.92979315247E-01 -1.04216763969E-01
2.84500000000E+09 +5.58373028795E-01 -2.72925577496E-01 -2.49110710501E-03 -4.11128656439E-03 -2.47397657030E-03 -4.11526046321E-03 +6.79562986985E-01 -1.24765109312E-01
2.85000000000E+09 +5.36042878151E-01 -2.90026572804E-01 -3.14020858749E-03 -4.03900898618E-03 -3.16852368048E-03 -4.02460195173E-03 +6.65296396307E-01 -1.45131461381E-01
2.85500000000E+09 +5.12144217721E-01 -3.06725883868E-01 -4.03591022409E-03 -3.61172767054E-03 -4.06651634777E-03 -3.51268882360E-03 +6.50948633402E-01 -1.65173716074E-01
2.86000000000E+09 +4.87863446078E-01 -3.22554368613E-01 -4.45557735944E-03 -3.02487402015E-03 -4.36800342575E-03 -3.01398179702E-03 +6.34704656189E-01 -1.86602891783E-01
2.86500000000E+09 +4.62396293168E-01 -3.38163796442E-01 -4.92755917225E-03 -2.34080767420E-03 -4.94588549633E-03 -2.34403632555E-03 +6.16371710911E-01 -2.07078727146E-01
2.87000000000E+09 +4.35720286525E-01 -3.51783889387E-01 -5.03424750129E-03 -1.57310322680E-03 -5.12982657088E-03 -1.53965895268E-03 +5.96695784201E-01 -2.26380996547E-01
2.87500000000E+09 +4.09648424518E-01 -3.63448419733E-01 -4.93643406994E-03 -1.03975250458E-03 -4.94395723860E-03 -9.01579229339E-04 +5.76930219378E-01 -2.45339993797E-01
2.88000000000E+09 +3.83548260758E-01 -3.74128616545E-01 -4.96699953473E-03 -8.34919789492E-04 -4.89476522940E-03 -6.28776018445E-04 +5.55513313157E-01 -2.64523164758E-01
2.88500000000E+09 +3.56784808653E-01 -3.83853155540E-01 -5.52873108643E-03 -5.58594252761E-04 -5.20609751184E-03 -3.65975577669E-04 +5.32572146074E-01 -2.83619076265E-01
2.89000000000E+09 +3.28900815195E-01 -3.91935298331E-01 -5.53223345019E-03 +4.27638857052E-04 -5.15667414055E-03 +2.86230493435E-04 +5.06465810681E-01 -3.01792605747E-01
2.89500000000E+09 +3.00147995529E-01 -3.98524611213E-01 -5.47156025207E-03 +9.22611899780E-04 -5.33050623145E-03 +6.45965889514E-04 +4.78491985316E-01 -3.19037177989E-01
2.90000000000E+09 +2.69623336351E-01 -4.03499193158E-01 -5.57489009630E-03 +1.43293545748E-03 -5.64773942928E-03 +1.24427596286E-03 +4.49337238128E-01 -3.34142475009E-01
2.90500000000E+09 +2.37348505322E-01 -4.06159330081E-01 -5.48647594196E-03 +2.33928623188E-03 -5.48601055429E-03 +2.37258139516E-03 +4.20291734792E-01 -3.49032384517E-01
2.91000000000E+09 +2.03659538865E-01 -4.06328482323E-01 -5.13283352370E-03 +3.06680943343E-03 -4.91411680232E-03 +3.14622025880E-03 +3.88679149448E-01 -3.63530810525E-01
2.91500000000E+09 +1.69498137855E-01 -4.02955166780E-01 -4.48185858424E-03 +3.59839300161E-03 -4.09000653915E-03 +3.49018025482E-03 +3.55287124300E-01 -3.75218042572E-01
2.92000000000E+09 +1.35624522722E-01 -3.97385202965E-01 -4.04942848444E-03 +3.57312239345E-03 -3.73518458488E-03 +3.24628546626E-03 +3.20848398313E-01 -3.83761420707E-01
2.92500000000E+09 +1.03369030124E-01 -3.90292756402E-01 -4.14300078069E-03 +3.65116154273E-03 -4.08026490367E-03 +3.20585593314E-03 +2.85726248951E-01 -3.91036836483E-01
2.93000000000E+09 +7.05721860359E-02 -3.83454376745E-01 -4.50926705620E-03 +4.49646956714E-03 -4.64947071997E-03 +4.06015996875E-03 +2.48847147169E-01 -3.96331881806E-01
2.93500000000E+09 +3.65272811437E-02 -3.74465532722E-01 -3.76138307773E-03 +5.83095967407E-03 -4.02307451334E-03 +5.69384718247E-03 +2.10117078378E-01 -4.00578351596E-01
2.94000000000E+09 +2.64353179891E-03 -3.61997957169E-01 -2.45217652594E-03 +6.34335209836E-03 -2.65058934285E-03 +6.24479438751E-03 +1.70223685011E-01 -4.01178818321E-01
2.94500000000E+09 -2.96667899555E-02 -3.46157644391E-01 -1.83490358283E-03 +6.11268439437E-03 -2.06643042118E-03 +5.97381193589E-03 +1.31796661113E-01 -3.99522093842E-01
2.95000000000E+09 -5.95921072283E-02 -3.28062777483E-01 -1.32772319297E-03 +6.70411312601E-03 -1.74314652377E-03 +6.65027640871E-03 +9.37477589599E-02 -3.95982316733E-01
2.95500000000E+09 -8.72281964925E-02 -3.08801648804E-01 -1.75777173987E-04 +6.72230166463E-03 -5.17637404746E-04 +6.94335915612E-03 +5.49635270473E-02 -3.90849261987E-01
2.96000000000E+09 -1.15276285020E-01 -2.87837132254E-01 +3.99801422028E-04 +6.62261379021E-03 +2.32239064624E-04 +6.95109968935E-03 +1.44737829989E-02 -3.82409409363E-01
2.96500000000E+09 -1.41821106866E-01 -2.63888789081E-01 +9.94260792160E-04 +6.61708557390E-03 +1.09843331140E-03 +6.85975261230E-03 -2.70563954087E-02 -3.69533284446E-01
2.97000000000E+09 -1.67079904455E-01 -2.37056881639E-01 +1.64222946348E-03 +6.44442635574E-03 +1.70894669566E-03 +6.45459652683E-03 -6.64821272646E-02 -3.52961755648E-01
2.97500000000E+09 -1.89974785370E-01 -2.07883588125E-01 +1.80642864934E-03 +6.97810786888E-03 +1.82467001336E-03 +6.83895740523E-03 -1.05093707320E-01 -3.35081454923E-01
2.98000000000E+09 -2.10924271534E-01 -1.77752584886E-01 +3.69694127593E-03 +7.18826601001E-03 +3.43463883989E-03 +7.23622025010E-03 -1.42008842423E-01 -3.14974279903E-01
2.98500000000E+09 -2.30170164733E-01 -1.46899970112E-01 +4.78176863533E-03 +5.94527632659E-03 +4.65245881602E-03 +6.33533225705E-03 -1.78633380985E-01 -2.93171038247E-01
2.99000000000E+09 -2.48089263616E-01 -1.15594860691E-01 +5.07145379819E-03 +5.13355684970E-03 +5.28900551726E-03 +5.53665693856E-03 -2.14043687109E-01 -2.65939210978E-01
2.99500000000E+09 -2.64440612090E-01 -8.34049441589E-02 +5.44371849618E-03 +4.92290511834E-03 +5.90171977186E-03 +5.02154360582E-03 -2.45775727291E-01 -2.36292206824E-01
3.00000000000E+09 -2.78952924511E-01 -5.05014020146E-02 +5.80540509282E-03 +4.66405141110E-03 +6.13804122123E-03 +4.38335038487E-03 -2.76105587960E-01 -2.05446841105E-01
3.00500000000E+09 -2.90198099291E-01 -1.79880332315E-02 +7.29091859760E-03 +4.84973531281E-03 +7.31620805382E-03 +4.39632575687E-03 -3.05661001336E-01 -1.71511909194E-01
3.01000000000E+09 -2.98960891954E-01 +1.38608625598E-02 +8.77540732471E-03 +2.74376582774E-03 +8.48739925831E-03 +2.57790792085E-03 -3.31049880296E-01 -1.36084154367E-01
3.01500000000E+09 -3.05670283476E-01 +4.45080194127E-02 +8.50721882741E-03 +9.24954525088E-04 +8.45524664244E-03 +1.04676125158E-03 -3.54610232826E-01 -9.93251577400E-02
3.02000000000E+09 -3.10172887878E-01 +7.56397248447E-02 +7.97593875836E-03 -1.99679136287E-04 +8.07529824948E-03 -1.25327161067E-04 -3.73306954571E-01 -6.11406692907E-02
3.02500000000E+09 -3.11319351257E-01 +1.06901515215E-01 +7.59259542317E-03 -4.78847255400E-04 +7.75448916846E-03 -5.88076102627E-04 -3.88701002592E-01 -2.33729947456E-02
3.03000000000E+09 -3.08876589111E-01 +1.37282267956E-01 +7.82774389683E-03 -1.28026148745E-03 +7.83370518041E-03 -1.40057994156E-03 -4.03553890024E-01 +1.46921951952E-02
3.03500000000E+09 -3.04449705801E-01 +1.65865282424E-01 +8.12723224090E-03 -2.19035331739E-03 +8.09684484138E-03 -2.21537925960E-03 -4.15624916409E-01 +5.60848446939E-02
3.04000000000E+09 -2.98319711438E-01 +1.95808627348E-01 +7.97511788799E-03 -3.92786726881E-03 +8.10429543847E-03 -3.89889458419E-03 -4.22778552839E-01 +9.72152009412E-02
3.04500000000E+09 -2.89691049394E-01 +2.23306133618E-01 +6.72848121424E-03 -4.85423091246E-03 +7.10267908813E-03 -5.07569912468E-03 -4.27507294995E-01 +1.37338870816E-01
3.05000000000E+09 -2.80469121819E-01 +2.51353369314E-01 +6.20356049357E-03 -5.64861976762E-03 +6.24463910236E-03 -6.12377948427E-03 -4.29753195845E-01 +1.75820619392E-01
3.05500000000E+09 -2.69657782715E-01 +2.78795741115E-01 +5.44703957450E-03 -6.25496170850E-03 +5.04258718514E-03 -6.60567270595E-03 -4.31121307299E-01 +2.14215661621E-01
3.06000000000E+09 -2.57377364310E-01 +3.05637498452E-01 +4.57092138396E-03 -7.40323617770E-03 +4.06123982679E-03 -7.29627823195E-03 -4.28569892503E-01 +2.53283624268E-01
3.06500000000E+09 -2.44092871529E-01 +3.30551071096E-01 +2.97787900291E-03 -7.99623744574E-03 +2.84610656357E-03 -7.48573017919E-03 -4.22494959078E-01 +2.90641952347E-01
3.07000000000E+09 -2.31044869953E-01 +3.54294632280E-01 +1.25681274316E-03 -7.87307204950E-03 +1.63229415365E-03 -7.64186171587E-03 -4.14776774896E-01 +3.24756438209E-01
