# Hz S RI R 50
! CMT, C1220, 16058040, 17.2.0/1
! Date: 15/08/2018 10:41:56
! Data: Format (Calibration Info)
! Freq                      S11: Re/Im (F2)                       S21: Re/Im (F2)                       S12: Re/Im (F2)                       S22: Re/Im (F2)            
2.50000000000E+09 +5.92515969707E-01 +6.50631069735E-01 -2.45160168600E-05 -4.11286567615E-04 +4.34557717345E-05 -3.68124560541E-04 +5.64100446852E-01 +7.24886321249E-01
2.50500000000E+09 +5.99351414893E-01 +6.42287568629E-01 -7.82123061954E-05 -4.37586565223E-04 -1.11590399353E-04 -4.24727510306E-04 +5.70200434947E-01 +7.19338519522E-01
2.51000000000E+09 +6.06924861453E-01 +6.33987025189E-01 -1.37123356887E-04 -4.58167215331E-04 -1.58438422955E-04 -4.66474069160E-04 +5.76000187119E-01 +7.14030402905E-01
2.51500000000E+09 +6.14637707434E-01 +6.26135187761E-01 -1.99887239164E-04 -4.82156171620E-04 -1.86080901943E-04 -4.41007023798E-04 +5.81526626621E-01 +7.08444866913E-01
2.52000000000E+09 +6.21694139990E-01 +6.18450440868E-01 -2.56443025160E-04 -4.46445150162E-04 -2.42616039434E-04 -4.11081123637E-04 +5.86922557378E-01 +7.02410859386E-01
2.52500000000E+09 +6.27532374662E-01 +6.12045781484E-01 -3.38141751347E-04 -4.41385298729E-04 -3.13226132824E-04 -4.92437902409E-04 +5.92888405438E-01 +6.95942908556E-01
2.53000000000E+09 +6.32378651702E-01 +6.06149075157E-01 -3.68889398974E-04 -4.09258644186E-04 -4.09717165080E-04 -4.64446096187E-04 +5.99100672577E-01 +6.88736297906E-01
2.53500000000E+09 +6.36475384970E-01 +6.00788535872E-01 -4.46433792340E-04 -3.58051670983E-04 -4.93188751471E-04 -3.63331472273E-04 +6.05027027277E-01 +6.81682692392E-01
2.54000000000E+09 +6.39779317524E-01 +5.94813294192E-01 -4.90877016899E-04 -3.49860590937E-04 -4.83395381692E-04 -3.62856147974E-04 +6.10739040747E-01 +6.74733041469E-01
2.54500000000E+09 +6.43198238290E-01 +5.88597258436E-01 -5.92908666050E-04 -2.60093928860E-04 -5.39824118547E-04 -3.29654319406E-04 +6.16089110378E-01 +6.68480081741E-01
2.55000000000E+09 +6.47560238006E-01 +5.81063344191E-01 -6.15007325576E-04 -2.38029971750E-04 -5.83859445947E-04 -3.00502842348E-04 +6.21149788272E-01 +6.62317283248E-01
2.55500000000E+09 +6.52886027498E-01 +5.71988959527E-01 -6.00312240568E-04 -1.71178661779E-04 -6.84956224038E-04 -2.63330547770E-04 +6.26044986856E-01 +6.56103226595E-01
2.56000000000E+09 +6.59436669939E-01 +5.62305491839E-01 -6.43601642106E-04 -1.60160440060E-04 -7.85861066828E-04 -1.34028007196E-04 +6.31052231054E-01 +6.49164788574E-01
2.56500000000E+09 +6.66798219411E-01 +5.51916265346E-01 -7.37925343552E-04 -1.33073785902E-04 -8.24644349212E-04 -2.57657914694E-05 +6.36328474109E-01 +6.41651616278E-01
2.57000000000E+09 +6.74485130481E-01 +5.41989356982E-01 -7.68106035303E-04 -7.04175346958E-05 -8.18046683002E-04 +9.94440626882E-05 +6.41394112383E-01 +6.33954645249E-01
2.57500000000E+09 +6.82231988586E-01 +5.32576598511E-01 -8.24737139830E-04 -3.32490733192E-05 -7.18938497296E-04 +7.89170658142E-05 +6.46697045630E-01 +6.26614331551E-01
2.58000000000E+09 +6.88773963562E-01 +5.24230208639E-01 -9.02950427332E-04 +5.66649476648E-05 -7.61700505931E-04 +9.46800252552E-05 +6.51755573612E-01 +6.19613969210E-01
2.58500000000E+09 +6.94156683421E-01 +5.17106265782E-01 -1.03646169799E-03 +1.90495340465E-04 -9.09335419990E-04 +1.48155616311E-04 +6.56845648249E-01 +6.12545789114E-01
2.59000000000E+09 +6.98127989334E-01 +5.11059525651E-01 -9.94319887068E-04 +3.91047925341E-04 -9.61605388412E-04 +2.67877019511E-04 +6.61886440258E-01 +6.05286330374E-01
2.59500000000E+09 +7.01338793509E-01 +5.05254895135E-01 -9.25321885573E-04 +5.23649140315E-04 -9.18211480333E-04 +5.16741821913E-04 +6.67234820714E-01 +5.97542457762E-01
2.60000000000E+09 +7.03813423192E-01 +4.98417690715E-01 -7.71667277758E-04 +5.72912224864E-04 -8.40456696660E-04 +5.50047819731E-04 +6.73049214647E-01 +5.89455894493E-01
2.60500000000E+09 +7.06284930072E-01 +4.90060948548E-01 -8.40148503727E-04 +6.33670652550E-04 -8.66533381158E-04 +6.34408147752E-04 +6.78785991527E-01 +5.80590217809E-01
2.61000000000E+09 +7.09234410980E-01 +4.79720594657E-01 -8.63213167032E-04 +8.76401681601E-04 -9.04025987029E-04 +8.49313164735E-04 +6.83984728216E-01 +5.71684045864E-01
2.61500000000E+09 +7.13222826311E-01 +4.67413752930E-01 -6.35369519129E-04 +1.03972115898E-03 -6.55845219428E-04 +1.07760885890E-03 +6.89229858120E-01 +5.63072568953E-01
2.62000000000E+09 +7.17719113188E-01 +4.52905618852E-01 -4.96453891326E-04 +9.80725794012E-04 -5.23574652963E-04 +1.05338423640E-03 +6.94328130331E-01 +5.54007918966E-01
2.62500000000E+09 +7.22702963031E-01 +4.37509695794E-01 -5.80454234612E-04 +1.05101551130E-03 -5.37413840748E-04 +1.15170885058E-03 +6.99326075490E-01 +5.45035998366E-01
2.63000000000E+09 +7.27935520120E-01 +4.22222591663E-01 -5.35282332023E-04 +1.25011953250E-03 -3.46116106796E-04 +1.27141977817E-03 +7.04093321160E-01 +5.35633586382E-01
2.63500000000E+09 +7.32825008371E-01 +4.08090244946E-01 -4.96014252644E-04 +1.31501510742E-03 -2.80560213148E-04 +1.27650015894E-03 +7.08687120595E-01 +5.26154047665E-01
2.64000000000E+09 +7.37159060102E-01 +3.95901609811E-01 -2.89979594835E-04 +1.67018096581E-03 -1.72455574885E-04 +1.43346545535E-03 +7.13244682921E-01 +5.16405804721E-01
2.64500000000E+09 +7.41078464650E-01 +3.85627401750E-01 +2.86690482147E-04 +1.71797042944E-03 +1.38961650479E-04 +1.49222140422E-03 +7.17666751510E-01 +5.06715621893E-01
2.65000000000E+09 +7.43992952388E-01 +3.76816169138E-01 +4.33446807000E-04 +1.38991829666E-03 +2.66109672805E-04 +1.40716886270E-03 +7.21897600949E-01 +4.96649729108E-01
2.65500000000E+09 +7.46196598272E-01 +3.68668648250E-01 +3.56702103498E-04 +1.29822425129E-03 +2.37321145553E-04 +1.39108825867E-03 +7.25786320836E-01 +4.86197337090E-01
2.66000000000E+09 +7.47743424848E-01 +3.60290737784E-01 +3.38357976343E-04 +1.47201109479E-03 +3.24335776297E-04 +1.61521742360E-03 +7.29853966826E-01 +4.75243291880E-01
2.66500000000E+09 +7.49174833072E-01 +3.51091142091E-01 +5.57704649465E-04 +1.68801982911E-03 +6.73682874930E-04 +1.72691044235E-03 +7.33971842661E-01 +4.64290731815E-01
2.67000000000E+09 +7.50412794526E-01 +3.39639737404E-01 +9.82606907638E-04 +1.64581137496E-03 +1.05832920791E-03 +1.56801824296E-03 +7.38451541813E-01 +4.53548409704E-01
2.67500000000E+09 +7.51967396632E-01 +3.26377983696E-01 +1.23104234782E-03 +1.51267219554E-03 +1.22023067372E-03 +1.38602071200E-03 +7.42666966665E-01 +4.42518486616E-01
2.68000000000E+09 +7.53649153543E-01 +3.10805489523E-01 +1.45197356265E-03 +1.32475628810E-03 +1.36401741083E-03 +1.26538516451E-03 +7.46498448262E-01 +4.31621494753E-01
2.68500000000E+09 +7.55075183605E-01 +2.94110755406E-01 +1.47677575082E-03 +1.24482213856E-03 +1.36875643965E-03 +1.25883903990E-03 +7.49965713330E-01 +4.20390393499E-01
2.69000000000E+09 +7.56712217335E-01 +2.76953464839E-01 +1.71780341239E-03 +1.20951103765E-03 +1.75428751883E-03 +1.24228828880E-03 +7.52886793639E-01 +4.08708360318E-01
2.69500000000E+09 +7.58213565081E-01 +2.60513503363E-01 +2.00421104572E-03 +1.05191780560E-03 +1.98404056850E-03 +1.03136264288E-03 +7.56043502886E-01 +3.96493698630E-01
2.70000000000E+09 +7.59574894481E-01 +2.44849331656E-01 +2.28772413476E-03 +7.44754930298E-04 +2.26196831894E-03 +7.28949862817E-04 +7.59423741561E-01 +3.83044464173E-01
2.70500000000E+09 +7.60595577645E-01 +2.30565036594E-01 +2.52132545216E-03 +3.55592362054E-04 +2.40504955374E-03 +4.20862240742E-04 +7.62251161374E-01 +3.69892932661E-01
2.71000000000E+09 +7.61466891814E-01 +2.17243240580E-01 +2.49326606158E-03 -1.51756372872E-04 +2.55482766237E-03 +1.35492050080E-05 +7.65424505087E-01 +3.56787563133E-01
2.71500000000E+09 +7.61976306912E-01 +2.04041170322E-01 +2.27851384568E-03 -4.66715350345E-04 +2.46685201317E-03 -4.87156606644E-04 +7.68267928465E-01 +3.44209908599E-01
2.72000000000E+09 +7.62042762364E-01 +1.91049798540E-01 +2.21383523316E-03 -5.67369704598E-04 +2.29259227491E-03 -6.81470335358E-04 +7.70513161988E-01 +3.31479910983E-01
2.72500000000E+09 +7.61749211433E-01 +1.76851863599E-01 +2.28218264063E-03 -7.04558049006E-04 +2.20627109197E-03 -9.30769261920E-04 +7.72178426043E-01 +3.17890233681E-01
2.73000000000E+09 +7.60652778578E-01 +1.61441656235E-01 +2.38022385860E-03 -1.15019786720E-03 +2.06052373480E-03 -1.20269538930E-03 +7.73811390939E-01 +3.03554756465E-01
2.73500000000E+09 +7.58759014250E-01 +1.44558139310E-01 +2.12333551111E-03 -1.54149611236E-03 +1.87846701089E-03 -1.35753682915E-03 +7.75381840010E-01 +2.88515984812E-01
2.74000000000E+09 +7.55856808025E-01 +1.27178507382E-01 +1.83559619348E-03 -1.72863176529E-03 +1.78864943155E-03 -1.38192755499E-03 +7.77053456231E-01 +2.72953541976E-01
2.74500000000E+09 +7.52071359350E-01 +1.09228894352E-01 +1.79982284090E-03 -1.98399144430E-03 +1.93006705061E-03 -1.60098563011E-03 +7.78440594176E-01 +2.57344877430E-01
2.75000000000E+09 +7.47643104208E-01 +9.12749652558E-02 +1.59226792318E-03 -2.20956686282E-03 +1.88736926182E-03 -2.12634518953E-03 +7.79366730806E-01 +2.41462243151E-01
2.75500000000E+09 +7.42633182175E-01 +7.37679274297E-02 +1.29846456924E-03 -2.45476210980E-03 +1.56466801570E-03 -2.61014976505E-03 +7.79102926021E-01 +2.25626528078E-01
2.76000000000E+09 +7.37497456685E-01 +5.64261149328E-02 +9.13840802616E-04 -2.71862727336E-03 +9.69340572731E-04 -2.94222550769E-03 +7.78356253869E-01 +2.09969082128E-01
2.76500000000E+09 +7.31688689678E-01 +3.89154361500E-02 +5.24769134041E-04 -2.61427742357E-03 +5.10448307631E-04 -2.81507299606E-03 +7.77383792631E-01 +1.93033738601E-01
2.77000000000E+09 +7.25575343546E-01 +2.08146934496E-02 +3.40781868178E-04 -2.79255074242E-03 +2.58346290433E-04 -2.86195029358E-03 +7.75663847516E-01 +1.75211184814E-01
2.77500000000E+09 +7.18791186243E-01 +2.11452602058E-03 -1.02021281144E-04 -2.85363065391E-03 -2.25980548829E-04 -2.95712727978E-03 +7.73353781804E-01 +1.57242691131E-01
2.78000000000E+09 +7.11784817484E-01 -1.74561308264E-02 -4.86442287448E-04 -2.80938096894E-03 -6.17621283392E-04 -2.79840401694E-03 +7.70642964271E-01 +1.39683306264E-01
2.78500000000E+09 +7.03818695971E-01 -3.83024704175E-02 -7.98982228472E-04 -2.47248163491E-03 -9.48454102381E-04 -2.43675521387E-03 +7.68092836412E-01 +1.22412401249E-01
2.79000000000E+09 +6.95564683699E-01 -5.90069726266E-02 -8.17393410705E-04 -2.49343528792E-03 -9.38132838030E-04 -2.39087102074E-03 +7.64737454369E-01 +1.05364608158E-01
2.79500000000E+09 +6.87261550311E-01 -7.97412529580E-02 -1.13641906495E-03 -2.60850935649E-03 -1.08871715610E-03 -2.42146178364E-03 +7.60680704265E-01 +8.76791898785E-02
2.80000000000E+09 +6.78312835234E-01 -1.00247480321E-01 -1.60088013743E-03 -2.49254773462E-03 -1.40522793936E-03 -2.42937026135E-03 +7.55582925757E-01 +6.95906321508E-02
2.80500000000E+09 +6.68556555904E-01 -1.19512675770E-01 -1.80041180797E-03 -2.28663124101E-03 -1.69158441542E-03 -2.29409090954E-03 +7.49869759052E-01 +5.10321303421E-02
2.81000000000E+09 +6.57838313730E-01 -1.37074705689E-01 -2.13538707421E-03 -2.03079662503E-03 -2.12706742509E-03 -2.17082894598E-03 +7.44259588481E-01 +3.23766206367E-02
2.81500000000E+09 +6.45375459030E-01 -1.52930851125E-01 -2.23723968841E-03 -1.97038388536E-03 -2.33395852045E-03 -1.91084589595E-03 +7.38060563028E-01 +1.24447379866E-02
2.82000000000E+09 +6.31880100193E-01 -1.66980227722E-01 -2.76254491488E-03 -1.70398152940E-03 -2.78671969188E-03 -1.56506513477E-03 +7.30997527863E-01 -7.65354592942E-03
2.82500000000E+09 +6.17318148162E-01 -1.80915891033E-01 -3.00024541614E-03 -1.30502914498E-03 -2.91419716370E-03 -1.15231042167E-03 +7.22729762733E-01 -2.76869999227E-02
2.83000000000E+09 +6.00377836342E-01 -1.96145215512E-01 -3.24946447542E-03 -7.97770219376E-04 -3.08234508507E-03 -7.60927056341E-04 +7.14020024009E-01 -4.79932390336E-02
2.83500000000E+09 +5.81149777641E-01 -2.12008157040E-01 -3.08716938540E-03 -7.57846385154E-05 -2.99650954295E-03 -2.23232574882E-04 +7.03834190191E-01 -6.86991025229E-02
2.84000000000E+09 +5.59874844821E-01 -2.29691681254E-01 -2.71390555662E-03 +1.88900652282E-04 -2.69567043905E-03 +7.64370149416E-05 +6.92569573549E-01 -9.01211025743E-02
2.84500000000E+09 +5.36077436169E-01 -2.48678465133E-01 -2.62662462942E-03 +2.17264532056E-05 -2.64413160965E-03 -5.49912618199E-05 +6.79138712990E-01 -1.11556588144E-01
2.85000000000E+09 +5.11266073102E-01 -2.68282540928E-01 -2.95710943169E-03 +2.78679545951E-04 -3.00411544178E-03 +2.20175643919E-04 +6.64592623823E-01 -1.31654477466E-01
2.85500000000E+09 +4.84589644438E-01 -2.87415987268E-01 -3.05123565150E-03 +7.54832598719E-04 -3.00537810813E-03 +8.00650677528E-04 +6.49043637364E-01 -1.51416335131E-01
2.86000000000E+09 +4.58494370644E-01 -3.03736617488E-01 -2.76045057526E-03 +1.26732850098E-03 -2.73420804128E-03 +1.20320792272E-03 +6.33632351175E-01 -1.71054633721E-01
2.86500000000E+09 +4.34421078456E-01 -3.18407869867E-01 -2.71936513769E-03 +1.17510544740E-03 -2.76110142535E-03 +1.09503277284E-03 +6.16187780995E-01 -1.91861443538E-01
2.87000000000E+09 +4.10678487185E-01 -3.31772792998E-01 -2.82567895159E-03 +2.09572718667E-03 -2.79755158066E-03 +2.10567273659E-03 +5.96810821311E-01 -2.11665749121E-01
2.87500000000E+09 +3.86648688551E-01 -3.42700341307E-01 -1.88563619923E-03 +2.03748901118E-03 -1.89741320812E-03 +2.09776473633E-03 +5.75947983912E-01 -2.30604469708E-01
2.88000000000E+09 +3.62508523916E-01 -3.51874323382E-01 -2.13088328034E-03 +1.92278110991E-03 -1.99764305880E-03 +1.95119612495E-03 +5.55317370184E-01 -2.47832498956E-01
2.88500000000E+09 +3.35248229828E-01 -3.59400386649E-01 -2.02940699464E-03 +2.44239397412E-03 -1.88420159301E-03 +2.38495507004E-03 +5.33637254073E-01 -2.66611782378E-01
2.89000000000E+09 +3.05837687317E-01 -3.63930547772E-01 -1.71157270428E-03 +2.63963146337E-03 -1.71413800691E-03 +2.49293972492E-03 +5.08956703227E-01 -2.84429477873E-01
2.89500000000E+09 +2.74967162471E-01 -3.67326988250E-01 -1.52886849761E-03 +2.79777506313E-03 -1.62461028667E-03 +2.61624433817E-03 +4.83017282722E-01 -3.01312289054E-01
2.90000000000E+09 +2.41963448069E-01 -3.69448910181E-01 -1.17327358254E-03 +3.33592578364E-03 -1.25418329659E-03 +3.36183598297E-03 +4.56211813874E-01 -3.18103877865E-01
2.90500000000E+09 +2.06907851535E-01 -3.70693758730E-01 -6.69369996364E-04 +3.37847144336E-03 -6.56713405044E-04 +3.45462031366E-03 +4.27698999655E-01 -3.33886817225E-01
2.91000000000E+09 +1.71284249932E-01 -3.70359144969E-01 +1.07389684838E-04 +3.46945622790E-03 +1.84901663486E-04 +3.49076152412E-03 +3.98357085212E-01 -3.49697877968E-01
2.91500000000E+09 +1.35495907311E-01 -3.68556206690E-01 +4.37393426783E-04 +3.35924904202E-03 +4.99816980451E-04 +3.22469685003E-03 +3.65523488747E-01 -3.63152391039E-01
2.92000000000E+09 +1.00326004933E-01 -3.64699993191E-01 +1.20222699343E-03 +3.06630654515E-03 +1.06585265108E-03 +2.93033865936E-03 +3.31568083929E-01 -3.73945017295E-01
2.92500000000E+09 +6.73309978858E-02 -3.57934971677E-01 +1.27912455050E-03 +2.46401497092E-03 +1.03150337013E-03 +2.38715759042E-03 +2.96248716014E-01 -3.81658091258E-01
2.93000000000E+09 +3.58999297828E-02 -3.49337258103E-01 +1.06827785914E-03 +2.28507387960E-03 +9.88435170639E-04 +2.30191001430E-03 +2.60300944980E-01 -3.88526370813E-01
2.93500000000E+09 +5.51030833639E-03 -3.38492526601E-01 +1.34852611355E-03 +2.40120565486E-03 +1.24276043285E-03 +2.42083775138E-03 +2.22269585421E-01 -3.94421388480E-01
2.94000000000E+09 -2.39029859248E-02 -3.24684509025E-01 +1.41489773908E-03 +1.87148341801E-03 +1.35118102417E-03 +1.88446857966E-03 +1.81165534923E-01 -3.97538781964E-01
2.94500000000E+09 -5.29697653229E-02 -3.08919255148E-01 +1.05575560601E-03 +2.39249008849E-03 +9.25126977099E-04 +2.41410433952E-03 +1.42269553689E-01 -3.96410889859E-01
2.95000000000E+09 -8.31337049843E-02 -2.89590004303E-01 +2.21607304380E-03 +2.52843676812E-03 +2.12388422369E-03 +2.60822157160E-03 +1.02477476536E-01 -3.94696328474E-01
2.95500000000E+09 -1.11117599219E-01 -2.66931015852E-01 +2.45936271452E-03 +1.71557157496E-03 +2.37894196170E-03 +1.88795841793E-03 +6.22968362454E-02 -3.89555041896E-01
2.96000000000E+09 -1.39142146905E-01 -2.44175451743E-01 +2.09336512623E-03 +9.50523422704E-04 +2.16389450991E-03 +1.02475599233E-03 +2.11426215498E-02 -3.80973972624E-01
2.96500000000E+09 -1.66148875727E-01 -2.17761729368E-01 +1.46144514333E-03 +1.41569222763E-03 +1.53849747919E-03 +1.43909954527E-03 -1.91101829778E-02 -3.68340499430E-01
2.97000000000E+09 -1.89525197820E-01 -1.91068278034E-01 +2.01053454110E-03 +1.76821098105E-03 +2.06900655153E-03 +1.77718850664E-03 -5.83515220839E-02 -3.53277913130E-01
2.97500000000E+09 -2.11820793283E-01 -1.64611543690E-01 +2.55654761124E-03 +1.79965552215E-03 +2.45725068799E-03 +1.70226510760E-03 -9.63764655169E-02 -3.36993291299E-01
2.98000000000E+09 -2.33004035402E-01 -1.36563496498E-01 +2.97788600951E-03 +1.50621749010E-03 +2.86144162434E-03 +1.59216360241E-03 -1.34450350514E-01 -3.18300335990E-01
2.98500000000E+09 -2.51099887500E-01 -1.07013775425E-01 +3.35812233431E-03 +9.45104234186E-04 +3.38562232401E-03 +1.13970510010E-03 -1.71479977175E-01 -2.96830943386E-01
2.99000000000E+09 -2.66788995338E-01 -7.68065400351E-02 +3.45287884376E-03 +5.44127422150E-04 +3.64236794281E-03 +6.48185706475E-04 -2.07285677541E-01 -2.71180389026E-01
2.99500000000E+09 -2.80507927663E-01 -4.62912502795E-02 +3.62090482028E-03 +3.54480591386E-04 +3.71982171143E-03 +2.58628215866E-04 -2.40507829129E-01 -2.42336581263E-01
3.00000000000E+09 -2.93451253693E-01 -1.50351624076E-02 +4.00043691390E-03 -3.39634913900E-04 +3.97081307515E-03 -5.29780842029E-04 -2.71392351888E-01 -2.11604548013E-01
3.00500000000E+09 -3.04345284934E-01 +1.70430722061E-02 +3.96136148090E-03 -9.89316066753E-04 +3.79903723197E-03 -1.04436698719E-03 -3.00932731726E-01 -1.79411394066E-01
3.01000000000E+09 -3.13565780235E-01 +4.88021199499E-02 +3.49714996241E-03 -1.78509906406E-03 +3.37993746762E-03 -1.71914719336E-03 -3.28083787462E-01 -1.43898184365E-01
3.01500000000E+09 -3.20974465166E-01 +8.10243886652E-02 +3.10974911220E-03 -1.94091621529E-03 +3.10429111607E-03 -1.78501554494E-03 -3.51610621546E-01 -1.08512454344E-01
3.02000000000E+09 -3.24606063513E-01 +1.12020617403E-01 +3.00121263380E-03 -2.22731058253E-03 +3.15771971508E-03 -2.17084704906E-03 -3.72786895146E-01 -7.15119871063E-02
3.02500000000E+09 -3.25814878943E-01 +1.40915835968E-01 +2.87490562490E-03 -2.69626949114E-03 +3.01811528610E-03 -2.67517411609E-03 -3.90920072657E-01 -3.40040984900E-02
3.03000000000E+09 -3.25235568206E-01 +1.68239946034E-01 +2.34131775495E-03 -3.09933027571E-03 +2.36099331717E-03 -3.12850903865E-03 -4.06775902421E-01 +5.81265961768E-03
3.03500000000E+09 -3.22479602331E-01 +1.95849808668E-01 +2.02356597907E-03 -3.25495384976E-03 +2.05173586749E-03 -3.20592153635E-03 -4.19230753805E-01 +4.65061855833E-02
3.04000000000E+09 -3.16289320806E-01 +2.24235480227E-01 +1.44122583847E-03 -3.81766051621E-03 +1.61229185581E-03 -3.84290924629E-03 -4.26827151220E-01 +8.74042772716E-02
3.04500000000E+09 -3.07311980817E-01 +2.51735992258E-01 +6.95058524444E-04 -3.41968793087E-03 +7.69050725689E-04 -3.59864055355E-03 -4.32942801908E-01 +1.26440669556E-01
3.05000000000E+09 -2.96586095148E-01 +2.80616892059E-01 +7.23012508030E-04 -3.33727559682E-03 +6.90915037448E-04 -3.51422783764E-03 -4.36810658056E-01 +1.65097127509E-01
3.05500000000E+09 -2.83215703694E-01 +3.08717947515E-01 +5.05697832217E-04 -3.65713344864E-03 +2.86959127549E-04 -3.72333477877E-03 -4.38768925031E-01 +2.04021987661E-01
3.06000000000E+09 -2.70023747044E-01 +3.36088745584E-01 -1.01908458583E-04 -3.73811951265E-03 -2.38673339887E-04 -3.61735787447E-03 -4.37770363814E-01 +2.42402353740E-01
3.06500000000E+09 -2.56230628588E-01 +3.62837002323E-01 -4.23075917580E-04 -3.88441243009E-03 -3.49456524834E-04 -3.67582716181E-03 -4.33851015048E-01 +2.80040696106E-01
3.07000000000E+09 -2.43504200081E-01 +3.87215706692E-01 -1.36128073792E-03 -3.84067568449E-03 -1.09038354740E-03 -3.82141864942E-03 -4.28034383561E-01 +3.16355941829E-01
