# Hz S RI R 50
! CMT, C1220, 16058040, 17.2.0/1
! Date: 15/08/2018 09:47:59
! Data: Format (Calibration Info)
! Freq                      S11: Re/Im (F2)                       S21: Re/Im (F2)                       S12: Re/Im (F2)                       S22: Re/Im (F2)            
2.50000000000E+09 +5.77161574050E-01 +6.67166368627E-01 +1.82593984755E-04 -1.67769738912E-03 +1.53024748521E-04 -1.84306628677E-03 +5.75238193225E-01 +7.18125440763E-01
2.50500000000E+09 +5.83897613787E-01 +6.59618647331E-01 -8.63178298796E-06 -1.68386960753E-03 -1.23649966873E-04 -1.76064850801E-03 +5.80931445566E-01 +7.12502317514E-01
2.51000000000E+09 +5.90984344587E-01 +6.51515881981E-01 -1.98941173552E-04 -1.72110606364E-03 -2.72423843265E-04 -1.66648692506E-03 +5.86462632921E-01 +7.07275049236E-01
2.51500000000E+09 +5.98354675744E-01 +6.43410365147E-01 -3.58594319625E-04 -1.72938543155E-03 -4.04679131304E-04 -1.68585978069E-03 +5.91638935854E-01 +7.01708799871E-01
2.52000000000E+09 +6.05349172463E-01 +6.34732857028E-01 -5.50553228994E-04 -1.70855713315E-03 -5.45974058355E-04 -1.70734737224E-03 +5.96841147287E-01 +6.95629613569E-01
2.52500000000E+09 +6.11320631675E-01 +6.26192080397E-01 -7.72045974142E-04 -1.64281564381E-03 -7.13382638446E-04 -1.67336679976E-03 +6.02692206202E-01 +6.88996068924E-01
2.53000000000E+09 +6.17119032177E-01 +6.17930327007E-01 -8.87808581504E-04 -1.57246370747E-03 -9.22274189715E-04 -1.57329002862E-03 +6.09036804786E-01 +6.81794733695E-01
2.53500000000E+09 +6.22180979715E-01 +6.09723024964E-01 -1.03668982588E-03 -1.49664461599E-03 -1.04417860530E-03 -1.47618808864E-03 +6.14912758441E-01 +6.75078662321E-01
2.54000000000E+09 +6.26522051555E-01 +6.01725818984E-01 -1.14228444966E-03 -1.42532741560E-03 -1.06197733613E-03 -1.46237052881E-03 +6.20622840232E-01 +6.68447305107E-01
2.54500000000E+09 +6.30914981145E-01 +5.94644900292E-01 -1.28240273236E-03 -1.46232441073E-03 -1.15825885568E-03 -1.55106810480E-03 +6.26211955417E-01 +6.62158952044E-01
2.55000000000E+09 +6.35836179069E-01 +5.87490342352E-01 -1.55075295377E-03 -1.33402563233E-03 -1.49364964794E-03 -1.52789622357E-03 +6.31281119849E-01 +6.55706270928E-01
2.55500000000E+09 +6.41367627867E-01 +5.79702190468E-01 -1.72178053522E-03 -1.13511114269E-03 -1.93234966658E-03 -1.39303716410E-03 +6.36556862619E-01 +6.49082776561E-01
2.56000000000E+09 +6.47749533282E-01 +5.71958606982E-01 -1.72762373618E-03 -8.37595064865E-04 -2.13237472063E-03 -8.10630076196E-04 +6.42090679655E-01 +6.41643812635E-01
2.56500000000E+09 +6.54536257228E-01 +5.63400889580E-01 -1.67455972845E-03 -7.90115925708E-04 -1.98364331212E-03 -5.86933264025E-04 +6.47807556148E-01 +6.34009757559E-01
2.57000000000E+09 +6.61526577087E-01 +5.54373367433E-01 -1.84482469272E-03 -8.04468583397E-04 -1.92436899148E-03 -3.90928881519E-04 +6.53063260877E-01 +6.26429103746E-01
2.57500000000E+09 +6.68674903342E-01 +5.44811733756E-01 -1.99233025546E-03 -7.23289713376E-04 -1.82331099615E-03 -3.20466604682E-04 +6.58467262275E-01 +6.19078316821E-01
2.58000000000E+09 +6.75212335879E-01 +5.34960558262E-01 -2.29658207645E-03 -4.61832493528E-04 -1.95057196412E-03 -2.76937972110E-04 +6.63269263494E-01 +6.11766495336E-01
2.58500000000E+09 +6.80813745250E-01 +5.24980978221E-01 -2.28958254311E-03 +4.73822560527E-05 -1.95002861334E-03 -6.72701923354E-05 +6.67817668042E-01 +6.04176206563E-01
2.59000000000E+09 +6.86119248706E-01 +5.15394301351E-01 -1.92015466892E-03 +6.80395882075E-05 -1.83295274265E-03 -9.85608806906E-05 +6.72877484465E-01 +5.96337678884E-01
2.59500000000E+09 +6.90789610767E-01 +5.05688042888E-01 -2.04353904815E-03 -7.53562588763E-05 -2.03420676218E-03 -2.18110306202E-04 +6.77948623449E-01 +5.87680045876E-01
2.60000000000E+09 +6.94608593947E-01 +4.96227313462E-01 -2.32432460169E-03 +5.83686446939E-06 -2.38749795480E-03 -4.35593688263E-05 +6.82979291515E-01 +5.79147680321E-01
2.60500000000E+09 +6.98856201895E-01 +4.86601265660E-01 -2.62833912169E-03 +3.30018474251E-04 -2.64722840528E-03 +3.21239460447E-04 +6.88236598669E-01 +5.70595732376E-01
2.61000000000E+09 +7.03066878586E-01 +4.76338790652E-01 -2.77759574021E-03 +8.91304074631E-04 -2.81063890095E-03 +8.61227467329E-04 +6.93043531464E-01 +5.61919390049E-01
2.61500000000E+09 +7.07727949190E-01 +4.65565131981E-01 -2.42724788363E-03 +1.57002333060E-03 -2.51133595357E-03 +1.53581953226E-03 +6.97393172143E-01 +5.53662256533E-01
2.62000000000E+09 +7.12368414102E-01 +4.53799157521E-01 -1.91624248254E-03 +1.56001359623E-03 -1.98328000985E-03 +1.67524985767E-03 +7.02191102121E-01 +5.44840247851E-01
2.62500000000E+09 +7.17169968189E-01 +4.40813140567E-01 -1.93325534964E-03 +1.36249698664E-03 -1.92372325738E-03 +1.57096091479E-03 +7.07049320824E-01 +5.35496436509E-01
2.63000000000E+09 +7.21700264463E-01 +4.27320985915E-01 -2.06107305243E-03 +1.57437659257E-03 -1.82964206733E-03 +1.85637799341E-03 +7.11696227252E-01 +5.25960624400E-01
2.63500000000E+09 +7.25748016799E-01 +4.13390940119E-01 -2.10374426228E-03 +1.86055856115E-03 -1.70328923465E-03 +1.88345176393E-03 +7.16844910441E-01 +5.16709542345E-01
2.64000000000E+09 +7.29332655831E-01 +3.99590726340E-01 -2.13011031920E-03 +2.52602469434E-03 -1.73918093411E-03 +2.16736810481E-03 +7.21586997521E-01 +5.07090450903E-01
2.64500000000E+09 +7.32258371070E-01 +3.86605539302E-01 -1.38378626227E-03 +2.97600954486E-03 -1.39024395432E-03 +2.47733187677E-03 +7.26050504630E-01 +4.97659553947E-01
2.65000000000E+09 +7.35017129458E-01 +3.74260933039E-01 -8.39983370388E-04 +2.72770450313E-03 -1.16689031329E-03 +2.50919009813E-03 +7.30185730593E-01 +4.88190490060E-01
2.65500000000E+09 +7.37620046899E-01 +3.62088048344E-01 -7.56311416658E-04 +2.55004812552E-03 -9.94347374964E-04 +2.64050245320E-03 +7.34116564299E-01 +4.77744396832E-01
2.66000000000E+09 +7.40522866077E-01 +3.50283729555E-01 -8.02638788379E-04 +2.72262151209E-03 -8.91867536691E-04 +2.92012394354E-03 +7.38113291123E-01 +4.66714573365E-01
2.66500000000E+09 +7.43454787322E-01 +3.38382788844E-01 -4.91344098633E-04 +2.93538132754E-03 -3.62843088984E-04 +3.14029856019E-03 +7.42758691223E-01 +4.55391088488E-01
2.67000000000E+09 +7.46046136362E-01 +3.25444566507E-01 -2.10634375602E-05 +2.95131190432E-03 +1.71187070688E-04 +2.90254718446E-03 +7.47334174990E-01 +4.44110237167E-01
2.67500000000E+09 +7.48224153521E-01 +3.11920074368E-01 +1.86009026969E-04 +2.73060329787E-03 +2.69189825526E-04 +2.61823703480E-03 +7.51345704121E-01 +4.32951230117E-01
2.68000000000E+09 +7.50011097369E-01 +2.97513798734E-01 +2.01052159049E-04 +2.74223579109E-03 +1.47619570093E-04 +2.60387690535E-03 +7.55035505589E-01 +4.22384671130E-01
2.68500000000E+09 +7.51429889245E-01 +2.82311794026E-01 +1.21921285893E-04 +2.88537593448E-03 +3.49714713605E-05 +2.82879547708E-03 +7.58244864129E-01 +4.10914741517E-01
2.69000000000E+09 +7.51802428012E-01 +2.66715567667E-01 +4.76032210977E-04 +3.24244624258E-03 +4.66337642765E-04 +3.24855154327E-03 +7.60668483746E-01 +3.98817518741E-01
2.69500000000E+09 +7.52208692511E-01 +2.51228977847E-01 +1.06724590908E-03 +3.22688330246E-03 +1.07516099957E-03 +3.16127417716E-03 +7.63725442530E-01 +3.86089827324E-01
2.70000000000E+09 +7.52188834912E-01 +2.35516099633E-01 +1.40257271421E-03 +3.09950841015E-03 +1.36479250402E-03 +3.01133321137E-03 +7.66793099306E-01 +3.72512837979E-01
2.70500000000E+09 +7.52205168770E-01 +2.20429148440E-01 +1.71487108628E-03 +2.75478785292E-03 +1.54238063149E-03 +2.73103640051E-03 +7.69838573327E-01 +3.58813800773E-01
2.71000000000E+09 +7.52402146275E-01 +2.05671981952E-01 +1.75549007452E-03 +2.62743021764E-03 +1.67399581074E-03 +2.70672265276E-03 +7.72598868231E-01 +3.46151844073E-01
2.71500000000E+09 +7.53122841599E-01 +1.90848087545E-01 +1.74438448301E-03 +2.66631104037E-03 +1.75328209531E-03 +2.81156012856E-03 +7.75358193385E-01 +3.33704707099E-01
2.72000000000E+09 +7.53727331967E-01 +1.75940530895E-01 +2.12265183339E-03 +2.96130449706E-03 +2.38190834171E-03 +2.98820308293E-03 +7.77627387921E-01 +3.20536986381E-01
2.72500000000E+09 +7.54163323857E-01 +1.60529847417E-01 +2.71682747234E-03 +2.78772103041E-03 +3.01067137143E-03 +2.45636207795E-03 +7.78528016492E-01 +3.06647473503E-01
2.73000000000E+09 +7.54091743518E-01 +1.44735792321E-01 +2.93483191368E-03 +2.44270705510E-03 +2.81275899311E-03 +1.98452531781E-03 +7.79773659569E-01 +2.92098439805E-01
2.73500000000E+09 +7.53237162125E-01 +1.27914705254E-01 +3.13338233412E-03 +2.54164834450E-03 +2.70177562419E-03 +2.12204900700E-03 +7.80729245638E-01 +2.77271018949E-01
2.74000000000E+09 +7.51262448841E-01 +1.10719188109E-01 +3.91735520273E-03 +2.36667053583E-03 +3.27037795477E-03 +2.35709797006E-03 +7.82498202239E-01 +2.62675376659E-01
2.74500000000E+09 +7.47661333273E-01 +9.30094117070E-02 +4.16345904675E-03 +1.75290835968E-03 +3.73680449679E-03 +2.19020681854E-03 +7.83923617858E-01 +2.47338261709E-01
2.75000000000E+09 +7.42743619390E-01 +7.53880830556E-02 +4.35798242949E-03 +1.35767046048E-03 +4.28937839570E-03 +1.89208570113E-03 +7.84327478195E-01 +2.32031306820E-01
2.75500000000E+09 +7.37104809076E-01 +5.79144551933E-02 +4.52673517217E-03 +1.04484244234E-03 +4.77037916511E-03 +1.39928055655E-03 +7.83261577974E-01 +2.16980675003E-01
2.76000000000E+09 +7.31367307918E-01 +4.05580958170E-02 +4.75076851653E-03 +7.50423188388E-04 +5.02565365210E-03 +9.18482616391E-04 +7.82742998649E-01 +2.01565120239E-01
2.76500000000E+09 +7.25646439031E-01 +2.33116724539E-02 +5.13914596935E-03 +4.93411481501E-04 +5.36803580121E-03 +4.75005876755E-04 +7.81778653166E-01 +1.84317871502E-01
2.77000000000E+09 +7.20620265767E-01 +5.28427824222E-03 +5.75553283067E-03 -1.35015273462E-04 +6.04367714262E-03 -2.48824481266E-04 +7.80969259675E-01 +1.66581489379E-01
2.77500000000E+09 +7.15697007624E-01 -1.35392103822E-02 +5.87004490318E-03 -1.43044051956E-03 +6.05866736120E-03 -1.69055191954E-03 +7.79129821526E-01 +1.48645102338E-01
2.78000000000E+09 +7.11243006480E-01 -3.31745770116E-02 +5.30695026804E-03 -2.06963503083E-03 +5.32640527564E-03 -2.36264760265E-03 +7.77040546618E-01 +1.31371864591E-01
2.78500000000E+09 +7.06337311737E-01 -5.37354748382E-02 +4.98496334801E-03 -2.35673896396E-03 +4.86871168502E-03 -2.64161422326E-03 +7.74964246328E-01 +1.14316974999E-01
2.79000000000E+09 +7.00655952121E-01 -7.52482158488E-02 +5.16481409485E-03 -2.76702932821E-03 +4.82680713888E-03 -2.83352877751E-03 +7.71847811446E-01 +9.64759543030E-02
2.79500000000E+09 +6.93354022517E-01 -9.63221235319E-02 +5.12033078457E-03 -3.35418373556E-03 +4.80758827211E-03 -3.19917783992E-03 +7.67538892621E-01 +7.79151576792E-02
2.80000000000E+09 +6.84784516044E-01 -1.16694759816E-01 +5.23159195281E-03 -4.26153860547E-03 +5.15133472676E-03 -3.91380187883E-03 +7.62081675895E-01 +5.86570786601E-02
2.80500000000E+09 +6.75382664608E-01 -1.36169626206E-01 +4.50533634158E-03 -5.57007674892E-03 +4.78659534664E-03 -5.36343738496E-03 +7.56374032037E-01 +3.99727588255E-02
2.81000000000E+09 +6.64774528785E-01 -1.54693293991E-01 +3.36805278711E-03 -5.78988440293E-03 +3.63672984224E-03 -5.88464602580E-03 +7.50903119211E-01 +2.07803192652E-02
2.81500000000E+09 +6.53299962528E-01 -1.72485786938E-01 +2.99388811231E-03 -5.99235078396E-03 +2.96092084128E-03 -6.22404318018E-03 +7.44241297302E-01 +1.17379065145E-03
2.82000000000E+09 +6.40765690844E-01 -1.90078359559E-01 +2.56718438623E-03 -6.39366466477E-03 +2.30546221206E-03 -6.49509244556E-03 +7.36678622607E-01 -1.85821323482E-02
2.82500000000E+09 +6.27519362807E-01 -2.07762979841E-01 +1.77821292998E-03 -6.91217037197E-03 +1.50395773840E-03 -6.71430622554E-03 +7.27330924020E-01 -3.86671816788E-02
2.83000000000E+09 +6.12096119560E-01 -2.26630780864E-01 +1.00519360122E-03 -7.15702147140E-03 +9.33531679533E-04 -6.78849936515E-03 +7.17041091521E-01 -5.87724616022E-02
2.83500000000E+09 +5.95413615847E-01 -2.45442329307E-01 +7.45779843780E-05 -7.04495988050E-03 +2.65094793013E-04 -6.79887427543E-03 +7.06550093451E-01 -7.87946083342E-02
2.84000000000E+09 +5.76687628913E-01 -2.64174513472E-01 -1.90786355869E-04 -6.69169481502E-03 +5.26208641131E-06 -6.68820812664E-03 +6.96014249462E-01 -1.00086815349E-01
2.84500000000E+09 +5.56866587253E-01 -2.83557343304E-01 -1.85495031087E-04 -7.28736363951E-03 -1.14332530506E-04 -7.38117101208E-03 +6.83982597968E-01 -1.21392743077E-01
2.85000000000E+09 +5.35166797839E-01 -3.02970882262E-01 -1.08384853224E-03 -8.18004520620E-03 -1.14028300437E-03 -8.19854228015E-03 +6.69924097385E-01 -1.42578032806E-01
2.85500000000E+09 +5.12242621572E-01 -3.21508170019E-01 -2.63709829734E-03 -8.68325815310E-03 -2.70235598084E-03 -8.60118257223E-03 +6.54346702858E-01 -1.62517970469E-01
2.86000000000E+09 +4.88416885250E-01 -3.40046690410E-01 -4.43132566172E-03 -8.21694701129E-03 -4.35802715469E-03 -8.13690726399E-03 +6.38308625496E-01 -1.82752511973E-01
2.86500000000E+09 +4.63579370217E-01 -3.56850574333E-01 -6.01897728728E-03 -7.12740416020E-03 -5.89459665307E-03 -7.13219876385E-03 +6.20763570687E-01 -2.04248924983E-01
2.87000000000E+09 +4.38322955847E-01 -3.72706049757E-01 -6.28617878874E-03 -5.55716695919E-03 -6.34174045513E-03 -5.56704708723E-03 +6.00465710779E-01 -2.25564416922E-01
2.87500000000E+09 +4.12905818047E-01 -3.87045497602E-01 -5.92388559990E-03 -5.11790565242E-03 -6.07755818388E-03 -4.95619718570E-03 +5.79743252147E-01 -2.44968096856E-01
2.88000000000E+09 +3.86919078210E-01 -4.00513167163E-01 -6.25701449346E-03 -5.56792137391E-03 -6.26727746908E-03 -5.17298692952E-03 +5.58335941536E-01 -2.64157548335E-01
2.88500000000E+09 +3.60706936223E-01 -4.12526704481E-01 -8.04984322627E-03 -5.28720342343E-03 -7.70455566442E-03 -4.81322688554E-03 +5.35381437232E-01 -2.82214572362E-01
2.89000000000E+09 +3.33646315670E-01 -4.24248839332E-01 -8.76481759904E-03 -3.72121666693E-03 -8.20748575323E-03 -3.72298681749E-03 +5.10249827850E-01 -3.00730154292E-01
2.89500000000E+09 +3.04906168213E-01 -4.35079220884E-01 -9.20804817901E-03 -2.92585351451E-03 -8.76024536199E-03 -3.22205115295E-03 +4.81606854164E-01 -3.18311014518E-01
2.90000000000E+09 +2.73926988157E-01 -4.44776316958E-01 -9.72887415712E-03 -1.54432744763E-03 -9.69181015285E-03 -1.87678322291E-03 +4.51494072740E-01 -3.33116955754E-01
2.90500000000E+09 +2.40213962637E-01 -4.52378198664E-01 -9.56241695138E-03 -4.74891516415E-04 -9.73928304321E-03 -5.26050396762E-04 +4.22598884757E-01 -3.48042107634E-01
2.91000000000E+09 +2.05088781953E-01 -4.57009321668E-01 -9.77796741319E-03 +1.93498050685E-04 -9.68449088612E-03 +4.95176265864E-04 +3.91472983201E-01 -3.63242040019E-01
2.91500000000E+09 +1.69293115328E-01 -4.58745145537E-01 -1.02974266108E-02 +1.65302886388E-03 -9.69701880953E-03 +1.81269864489E-03 +3.58114563858E-01 -3.75702831677E-01
2.92000000000E+09 +1.33559161888E-01 -4.58156675945E-01 -9.43430425522E-03 +3.29080779838E-03 -8.85135144247E-03 +2.96029943430E-03 +3.23190577026E-01 -3.85166134623E-01
2.92500000000E+09 +9.83141567902E-02 -4.55834796171E-01 -8.90255622497E-03 +3.22717329506E-03 -8.58916334854E-03 +2.69047967450E-03 +2.87068475401E-01 -3.91403301866E-01
2.93000000000E+09 +6.29967120617E-02 -4.52314143790E-01 -9.66888656056E-03 +4.11050635369E-03 -9.68253758682E-03 +3.47891822616E-03 +2.50705320816E-01 -3.96234585735E-01
2.93500000000E+09 +2.78172053114E-02 -4.47465799402E-01 -9.53154970027E-03 +5.99459123081E-03 -9.86673587452E-03 +5.57081740365E-03 +2.13059619669E-01 -4.01229442530E-01
2.94000000000E+09 -8.17850456003E-03 -4.40805762384E-01 -8.56718089267E-03 +7.36239569449E-03 -8.77453952898E-03 +7.16438977485E-03 +1.72695011785E-01 -4.04443872158E-01
2.94500000000E+09 -4.39606485500E-02 -4.31231935255E-01 -7.66746859425E-03 +8.92536730829E-03 -7.90641325081E-03 +8.63481144529E-03 +1.31871312266E-01 -4.03566488016E-01
2.95000000000E+09 -7.94678918590E-02 -4.18183297302E-01 -5.76441710583E-03 +9.48215024519E-03 -6.22067787597E-03 +9.32906376426E-03 +9.17710393119E-02 -3.98587727357E-01
2.95500000000E+09 -1.13529259754E-01 -4.02278084479E-01 -4.76558611093E-03 +9.42591039222E-03 -5.31563402005E-03 +9.54503261404E-03 +5.34750581123E-02 -3.91403739529E-01
2.96000000000E+09 -1.46134485274E-01 -3.83918186794E-01 -4.52460908221E-03 +9.74555264793E-03 -4.88184024683E-03 +1.01996284052E-02 +1.32963780281E-02 -3.82479587319E-01
2.96500000000E+09 -1.78128548169E-01 -3.63005385863E-01 -4.02444466007E-03 +1.08249088961E-02 -3.86236052127E-03 +1.14329563277E-02 -2.79851138222E-02 -3.70151518782E-01
2.97000000000E+09 -2.09221202683E-01 -3.38655524329E-01 -2.53696506627E-03 +1.19277846516E-02 -2.05139679637E-03 +1.20081817970E-02 -6.84274244387E-02 -3.54421525464E-01
2.97500000000E+09 -2.38010504254E-01 -3.11978611293E-01 -1.05160998160E-03 +1.28065618882E-02 -7.96315084931E-04 +1.24205553519E-02 -1.07183753449E-01 -3.36265545789E-01
2.98000000000E+09 -2.65868900333E-01 -2.83973503850E-01 +1.73719277365E-03 +1.27629687305E-02 +1.40634578501E-03 +1.24118589684E-02 -1.44439771718E-01 -3.15726833815E-01
2.98500000000E+09 -2.93424313879E-01 -2.54057633517E-01 +2.89013110799E-03 +1.14862691697E-02 +2.46346659117E-03 +1.17082850658E-02 -1.80907384535E-01 -2.92610484119E-01
2.99000000000E+09 -3.19346664086E-01 -2.21721316543E-01 +3.31538868143E-03 +1.11396555393E-02 +3.42620487167E-03 +1.16628895098E-02 -2.15869572208E-01 -2.65586348420E-01
2.99500000000E+09 -3.43024754667E-01 -1.87564820773E-01 +4.26909672397E-03 +1.19432721141E-02 +4.89506288489E-03 +1.23292993370E-02 -2.48944058810E-01 -2.36039677189E-01
3.00000000000E+09 -3.63148317989E-01 -1.53478823392E-01 +6.83823928718E-03 +1.17159008358E-02 +7.52624075948E-03 +1.13602716975E-02 -2.79846913299E-01 -2.03810462284E-01
3.00500000000E+09 -3.81870133300E-01 -1.20148358036E-01 +8.41316021619E-03 +1.05192627378E-02 +8.47762911874E-03 +9.79579189961E-03 -3.08216561466E-01 -1.70398631524E-01
3.01000000000E+09 -3.98967979533E-01 -8.66541674813E-02 +9.86055903030E-03 +9.19267755095E-03 +9.40805114701E-03 +8.63078606815E-03 -3.33877040380E-01 -1.35468941549E-01
3.01500000000E+09 -4.13912596786E-01 -5.19836407171E-02 +1.07587612085E-02 +7.97548319762E-03 +1.02867782514E-02 +8.02764432130E-03 -3.57467860713E-01 -9.96689460229E-02
3.02000000000E+09 -4.25272751522E-01 -1.61027484456E-02 +1.17264635048E-02 +6.79090643567E-03 +1.15642829132E-02 +6.98180663717E-03 -3.77676521290E-01 -5.99906060061E-02
3.02500000000E+09 -4.32236350545E-01 +1.98826411692E-02 +1.29316419646E-02 +5.50607672903E-03 +1.28192136177E-02 +5.56068998498E-03 -3.92847904187E-01 -2.01588795089E-02
3.03000000000E+09 -4.35989725379E-01 +5.49616362609E-02 +1.37586647560E-02 +3.32631795215E-03 +1.35607538239E-02 +3.35424580277E-03 -4.06323301072E-01 +1.95049383936E-02
3.03500000000E+09 -4.36966174854E-01 +9.01813902565E-02 +1.36937417833E-02 +1.56507161492E-03 +1.35541297470E-02 +1.92819098818E-03 -4.17861445114E-01 +5.93620723966E-02
3.04000000000E+09 -4.35345492519E-01 +1.25276253402E-01 +1.40550602999E-02 -2.67676674487E-04 +1.43891866241E-02 +3.11771261203E-04 -4.26374341424E-01 +1.00221926968E-01
3.04500000000E+09 -4.31335743280E-01 +1.60368090523E-01 +1.38079684101E-02 -2.24064168113E-03 +1.46056435679E-02 -2.07830253938E-03 -4.31673846354E-01 +1.41143842284E-01
3.05000000000E+09 -4.24785403933E-01 +1.95458417183E-01 +1.32823902922E-02 -4.09296930074E-03 +1.38767460579E-02 -4.83344711458E-03 -4.32262417765E-01 +1.81480841196E-01
3.05500000000E+09 -4.16307305570E-01 +2.29092476281E-01 +1.25480989205E-02 -5.63619354889E-03 +1.21872819415E-02 -6.53200402398E-03 -4.30995992852E-01 +2.19264024186E-01
3.06000000000E+09 -4.06934720742E-01 +2.62828249350E-01 +1.18340858497E-02 -7.31192235720E-03 +1.09203832437E-02 -7.57303057679E-03 -4.28871105149E-01 +2.57506094004E-01
3.06500000000E+09 -3.95187933423E-01 +2.95674595740E-01 +1.06507806286E-02 -9.23900261530E-03 +9.95317309132E-03 -8.51638980253E-03 -4.23529003314E-01 +2.95081861683E-01
3.07000000000E+09 -3.82101210714E-01 +3.26124141583E-01 +8.47751699592E-03 -1.07022863768E-02 +8.79877510145E-03 -9.77290579470E-03 -4.16117232830E-01 +3.30656230965E-01
