# Hz S RI R 50
! CMT, C1220, 16058040, 17.2.0/1
! Date: 15/08/2018 10:52:19
! Data: Format (Calibration Info)
! Freq                      S11: Re/Im (F2)                       S21: Re/Im (F2)                       S12: Re/Im (F2)                       S22: Re/Im (F2)            
2.50000000000E+09 +5.80505386220E-01 +6.52170784638E-01 -9.75856624787E-04 +6.28523336247E-04 -1.03800821518E-03 +7.10043960538E-04 +5.61613423834E-01 +7.26744112214E-01
2.50500000000E+09 +5.88071903814E-01 +6.43067340665E-01 -8.77972655146E-04 +7.74983795504E-04 -8.99823280864E-04 +8.49517166648E-04 +5.67429509558E-01 +7.21167750386E-01
2.51000000000E+09 +5.96531494571E-01 +6.33661004068E-01 -8.06153409842E-04 +8.05261780529E-04 -7.68050070774E-04 +8.32464853743E-04 +5.73237100721E-01 +7.15840236159E-01
2.51500000000E+09 +6.04806896162E-01 +6.24750676821E-01 -7.19739290196E-04 +9.42804039764E-04 -7.11220977663E-04 +8.99570471321E-04 +5.78633583003E-01 +7.10181173446E-01
2.52000000000E+09 +6.12530079614E-01 +6.16363056889E-01 -5.65006879411E-04 +9.81907914536E-04 -6.10285416698E-04 +9.94183075407E-04 +5.83687200398E-01 +7.03972498794E-01
2.52500000000E+09 +6.18632525220E-01 +6.09203692421E-01 -4.73221046909E-04 +1.00441380984E-03 -5.65087183992E-04 +1.00078049789E-03 +5.89106687811E-01 +6.97463744701E-01
2.53000000000E+09 +6.23559133622E-01 +6.03131996530E-01 -4.50897235391E-04 +1.03444307528E-03 -4.84731080784E-04 +1.07053988996E-03 +5.95051987401E-01 +6.90731107211E-01
2.53500000000E+09 +6.27396550766E-01 +5.97553496072E-01 -3.90089199479E-04 +1.13854045164E-03 -4.24050011158E-04 +1.15704136209E-03 +6.01061845608E-01 +6.84188802253E-01
2.54000000000E+09 +6.30338444265E-01 +5.91814273987E-01 -2.15102874773E-04 +1.30164846866E-03 -2.46485597216E-04 +1.28483808255E-03 +6.06943610439E-01 +6.77912435666E-01
2.54500000000E+09 +6.33451854151E-01 +5.85710685601E-01 -7.46837984039E-05 +1.37130405504E-03 -1.14158958071E-04 +1.33125756837E-03 +6.12816887914E-01 +6.71759519841E-01
2.55000000000E+09 +6.37254508053E-01 +5.78679355426E-01 +2.40687539001E-04 +1.28635822429E-03 +1.10479396906E-04 +1.41882027472E-03 +6.17970364683E-01 +6.65704828383E-01
2.55500000000E+09 +6.42340275527E-01 +5.70161251344E-01 +3.76000070111E-04 +1.15500244570E-03 +4.04601146010E-04 +1.31524715490E-03 +6.23124367344E-01 +6.59370423715E-01
2.56000000000E+09 +6.48957082670E-01 +5.61108362554E-01 +3.55262166704E-04 +1.02578671461E-03 +5.25649980649E-04 +1.18339999724E-03 +6.28233171465E-01 +6.52414205578E-01
2.56500000000E+09 +6.56788520759E-01 +5.50862525624E-01 +3.95342422704E-04 +1.09222293978E-03 +6.41095019932E-04 +1.13238470989E-03 +6.33529515100E-01 +6.45224048942E-01
2.57000000000E+09 +6.65158171009E-01 +5.40409727369E-01 +5.31759607310E-04 +1.01955135692E-03 +7.37888329836E-04 +8.96129453934E-04 +6.39165035662E-01 +6.37538830133E-01
2.57500000000E+09 +6.73279755501E-01 +5.30251861398E-01 +7.23396610981E-04 +1.07855367377E-03 +7.72004183542E-04 +8.49210106854E-04 +6.44951933170E-01 +6.30127614804E-01
2.58000000000E+09 +6.80193775298E-01 +5.21255774217E-01 +9.32169690628E-04 +9.20811562931E-04 +8.39576567964E-04 +7.63781854382E-04 +6.50518241620E-01 +6.22842817094E-01
2.58500000000E+09 +6.85850947636E-01 +5.12867877453E-01 +1.03100627375E-03 +6.88599267925E-04 +8.51910879102E-04 +6.21203884634E-04 +6.55806066680E-01 +6.15104734525E-01
2.59000000000E+09 +6.89938979668E-01 +5.05470498194E-01 +9.05181313214E-04 +5.11218582031E-04 +8.17798353121E-04 +5.72604450579E-04 +6.60759819460E-01 +6.07309890282E-01
2.59500000000E+09 +6.92769654930E-01 +4.98164196240E-01 +9.37928085746E-04 +5.43308366472E-04 +9.06377003042E-04 +6.13787626280E-04 +6.65687863411E-01 +5.99367939059E-01
2.60000000000E+09 +6.94762283340E-01 +4.90123454039E-01 +1.04644200106E-03 +4.04626335560E-04 +1.04916351232E-03 +4.55682034584E-04 +6.71045782733E-01 +5.90957226135E-01
2.60500000000E+09 +6.96731848326E-01 +4.80659841377E-01 +1.04917005226E-03 +2.49525398487E-04 +1.02416495057E-03 +1.71356712450E-04 +6.76639636250E-01 +5.82321224800E-01
2.61000000000E+09 +6.99346939879E-01 +4.69081878492E-01 +8.85817262486E-04 +1.67160555958E-04 +8.83941198272E-04 +1.21766873391E-04 +6.82004880076E-01 +5.73404486689E-01
2.61500000000E+09 +7.03010543275E-01 +4.55483581757E-01 +9.13477340598E-04 +1.37823264997E-04 +9.13679258730E-04 +1.79555538096E-04 +6.86915013455E-01 +5.64520721661E-01
2.62000000000E+09 +7.07541478407E-01 +4.39677291742E-01 +9.11900343308E-04 +5.17999470499E-06 +8.86130225793E-04 +1.73887706086E-05 +6.91666405349E-01 +5.55490998415E-01
2.62500000000E+09 +7.12762782616E-01 +4.22876574745E-01 +8.08842564049E-04 +3.43724030337E-05 +8.96535542034E-04 +3.31099074206E-05 +6.96416963321E-01 +5.46822854621E-01
2.63000000000E+09 +7.18308352540E-01 +4.06014770687E-01 +9.51936999049E-04 +7.10540181493E-05 +9.52128651868E-04 -5.25671798104E-05 +7.01389891794E-01 +5.37747782049E-01
2.63500000000E+09 +7.23393973781E-01 +3.89973338970E-01 +1.10600311115E-03 -1.64999651632E-04 +9.67009347150E-04 -2.43746923699E-04 +7.06031377322E-01 +5.28397512831E-01
2.64000000000E+09 +7.27688989885E-01 +3.75757659232E-01 +8.83355714135E-04 -3.61205854091E-04 +7.54245827571E-04 -3.39355288021E-04 +7.10535979912E-01 +5.18775726490E-01
2.64500000000E+09 +7.31152958784E-01 +3.63793446085E-01 +7.70655865213E-04 -4.06160490363E-04 +6.76678983044E-04 -2.87990098836E-04 +7.15009272742E-01 +5.09312989868E-01
2.65000000000E+09 +7.33350329604E-01 +3.53941320113E-01 +6.55574453239E-04 -3.75091820819E-04 +6.67895657556E-04 -2.08083172681E-04 +7.19677979397E-01 +4.99172169272E-01
2.65500000000E+09 +7.35015263033E-01 +3.44715526132E-01 +6.27995019387E-04 -3.18387912177E-04 +6.83215696495E-04 -2.81865062903E-04 +7.23607007945E-01 +4.88469443734E-01
2.66000000000E+09 +7.36145415177E-01 +3.35635438386E-01 +6.62067113834E-04 -2.35926258925E-04 +6.90704955255E-04 -2.50560043357E-04 +7.27659056178E-01 +4.77455823060E-01
2.66500000000E+09 +7.37138271586E-01 +3.25913374269E-01 +6.09021524325E-04 -3.90254044645E-04 +6.03183008616E-04 -4.16143259308E-04 +7.31832750452E-01 +4.66316808670E-01
2.67000000000E+09 +7.38167196438E-01 +3.13897080109E-01 +5.47519732652E-04 -2.86574861989E-04 +5.23636177633E-04 -3.15829352818E-04 +7.36183638132E-01 +4.55672417942E-01
2.67500000000E+09 +7.39167527754E-01 +2.99870178186E-01 +6.88888176876E-04 -3.30645433721E-04 +6.03482298048E-04 -3.03468594247E-04 +7.40430050070E-01 +4.44737212128E-01
2.68000000000E+09 +7.40356201095E-01 +2.84056289396E-01 +6.41358689823E-04 -4.29870450399E-04 +6.36353594685E-04 -3.86110011245E-04 +7.44544290834E-01 +4.33603525056E-01
2.68500000000E+09 +7.41735808788E-01 +2.67194446137E-01 +5.44939571425E-04 -4.76066066684E-04 +4.95645192260E-04 -4.55245619348E-04 +7.47783719968E-01 +4.22065889683E-01
2.69000000000E+09 +7.43035511372E-01 +2.49996678297E-01 +4.69405773223E-04 -3.27466501596E-04 +5.18618776064E-04 -3.83516420168E-04 +7.50540096250E-01 +4.10092248525E-01
2.69500000000E+09 +7.44074882920E-01 +2.33477214137E-01 +6.34997413551E-04 -2.27816751846E-04 +6.15425702984E-04 -2.30998627205E-04 +7.53310075798E-01 +3.97539315485E-01
2.70000000000E+09 +7.45074051485E-01 +2.17976325264E-01 +8.62980447818E-04 -4.15447830195E-04 +7.64972255464E-04 -3.46131358427E-04 +7.56419575092E-01 +3.84666080655E-01
2.70500000000E+09 +7.45463789087E-01 +2.03872875959E-01 +9.31349895126E-04 -5.17346495434E-04 +8.87932416238E-04 -5.15260658320E-04 +7.59506353193E-01 +3.71191256772E-01
2.71000000000E+09 +7.45705878814E-01 +1.90913570374E-01 +7.84593678160E-04 -7.82279308599E-04 +7.82357473383E-04 -8.03943564161E-04 +7.62246991834E-01 +3.57937826794E-01
2.71500000000E+09 +7.45819203938E-01 +1.78140347881E-01 +7.14570250014E-04 -7.90976291835E-04 +7.32536903579E-04 -8.34912736805E-04 +7.64530835559E-01 +3.45509293281E-01
2.72000000000E+09 +7.45286638460E-01 +1.65214651475E-01 +6.43818168506E-04 -8.42708393561E-04 +6.13160792748E-04 -9.70644075499E-04 +7.66657479943E-01 +3.32863118229E-01
2.72500000000E+09 +7.44939529236E-01 +1.51231280143E-01 +4.93261549165E-04 -9.13658573874E-04 +3.78139725707E-04 -9.01469929677E-04 +7.67877319185E-01 +3.19434677453E-01
2.73000000000E+09 +7.43968458575E-01 +1.35627205953E-01 +6.86998449394E-04 -8.31781576353E-04 +6.03835152646E-04 -7.93825581594E-04 +7.69013751601E-01 +3.05422836185E-01
2.73500000000E+09 +7.42079523445E-01 +1.17995554968E-01 +6.21487079659E-04 -1.16589577864E-03 +5.49543643641E-04 -9.87069965739E-04 +7.69617949434E-01 +2.90698520785E-01
2.74000000000E+09 +7.39394205871E-01 +9.96153431174E-02 +5.49665253085E-04 -1.21766174392E-03 +5.24214344420E-04 -1.04645086814E-03 +7.70906507240E-01 +2.76341368032E-01
2.74500000000E+09 +7.35726629338E-01 +8.04551089489E-02 +3.01057298953E-04 -1.30939554329E-03 +4.56087325402E-04 -1.18789701652E-03 +7.72479698561E-01 +2.61658728993E-01
2.75000000000E+09 +7.30816248295E-01 +6.19733599357E-02 +4.29145961237E-04 -1.14965963223E-03 +5.73027701807E-04 -1.20273733836E-03 +7.73727358919E-01 +2.46612919314E-01
2.75500000000E+09 +7.25605860927E-01 +4.44633075567E-02 +4.05462906104E-04 -1.64387980244E-03 +4.80971257062E-04 -1.71415266515E-03 +7.73915048598E-01 +2.31722863431E-01
2.76000000000E+09 +7.20498899425E-01 +2.74991900186E-02 +8.06221995805E-05 -1.60100360940E-03 +7.90441566377E-05 -1.76573853070E-03 +7.73617387040E-01 +2.16128617536E-01
2.76500000000E+09 +7.14774458201E-01 +1.09644962821E-02 -2.04829566416E-04 -1.76444185775E-03 -2.65642539246E-04 -1.84187027278E-03 +7.72802143811E-01 +2.00291183335E-01
2.77000000000E+09 +7.09189850295E-01 -5.76151310501E-03 -5.45282712633E-04 -1.52827132142E-03 -6.36764054932E-04 -1.59653553570E-03 +7.72419067400E-01 +1.83441129495E-01
2.77500000000E+09 +7.03426026501E-01 -2.36325937182E-02 -4.07727313366E-04 -1.01439464947E-03 -4.63505537118E-04 -1.10220964123E-03 +7.71231704716E-01 +1.65635516422E-01
2.78000000000E+09 +6.97145908375E-01 -4.25807486903E-02 +6.14399971077E-06 -1.39844061011E-03 -2.37950514189E-05 -1.43234651120E-03 +7.69929812022E-01 +1.47807142033E-01
2.78500000000E+09 +6.90469486915E-01 -6.29179550338E-02 -1.98114410558E-04 -1.84554484346E-03 -2.93211314760E-04 -1.85170873206E-03 +7.67972431668E-01 +1.29853524936E-01
2.79000000000E+09 +6.83262558401E-01 -8.47005307292E-02 -5.60190584407E-04 -1.90901637729E-03 -6.18374337048E-04 -1.76148379966E-03 +7.65077912608E-01 +1.12521389333E-01
2.79500000000E+09 +6.75048626918E-01 -1.06451416343E-01 -6.46166854042E-04 -2.00173664100E-03 -6.31136549993E-04 -1.85600117228E-03 +7.61740962302E-01 +9.45359419833E-02
2.80000000000E+09 +6.66442190324E-01 -1.27947082361E-01 -1.10631705084E-03 -2.01088415849E-03 -9.68636470590E-04 -1.98191538106E-03 +7.57358641978E-01 +7.56879628369E-02
2.80500000000E+09 +6.56958678903E-01 -1.48229502701E-01 -9.98472861021E-04 -1.94158239359E-03 -9.48686491046E-04 -2.01077656600E-03 +7.51633253853E-01 +5.60543047164E-02
2.81000000000E+09 +6.46251690279E-01 -1.66481538040E-01 -1.42447473535E-03 -2.46408932620E-03 -1.45289276234E-03 -2.58620625099E-03 +7.45164813392E-01 +3.68694923873E-02
2.81500000000E+09 +6.35074728455E-01 -1.82539068070E-01 -2.02337884719E-03 -2.23555297909E-03 -2.19405999600E-03 -2.23065273875E-03 +7.39176764475E-01 +1.71658453700E-02
2.82000000000E+09 +6.23138776793E-01 -1.97754155305E-01 -2.38119070301E-03 -2.20094729989E-03 -2.45571060308E-03 -2.00437376608E-03 +7.32091840763E-01 -3.67469665114E-03
2.82500000000E+09 +6.09112354627E-01 -2.12237358956E-01 -2.80862561702E-03 -1.93889504128E-03 -2.73395096618E-03 -1.77836542621E-03 +7.23633151968E-01 -2.41546947843E-02
2.83000000000E+09 +5.93601573796E-01 -2.26852155943E-01 -3.24631133041E-03 -1.72325448508E-03 -3.00440749742E-03 -1.67899378783E-03 +7.13782838424E-01 -4.40295381143E-02
2.83500000000E+09 +5.76860227806E-01 -2.43156718809E-01 -3.83066013645E-03 -1.42344002092E-03 -3.59757777151E-03 -1.43228673031E-03 +7.03664217200E-01 -6.42480259678E-02
2.84000000000E+09 +5.56986208808E-01 -2.61628352105E-01 -4.10250929172E-03 -7.29613873449E-04 -3.98348583814E-03 -8.92109028264E-04 +6.92347675923E-01 -8.43074050138E-02
2.84500000000E+09 +5.34667272325E-01 -2.81129559690E-01 -4.13023229972E-03 -1.84527793894E-04 -4.13545121732E-03 -2.76834525557E-04 +6.80294776569E-01 -1.04860905992E-01
2.85000000000E+09 +5.10799658987E-01 -3.01574178110E-01 -4.21580375191E-03 -6.50062868773E-05 -4.20970282561E-03 -9.87365578830E-05 +6.67229200149E-01 -1.25461381053E-01
2.85500000000E+09 +4.85545783371E-01 -3.21504963467E-01 -4.86894229928E-03 +4.32379314746E-04 -4.80551150017E-03 +3.58921570771E-04 +6.52214144069E-01 -1.46429165971E-01
2.86000000000E+09 +4.60998920235E-01 -3.39836572530E-01 -4.82421499013E-03 +1.17887681765E-03 -4.79177793474E-03 +1.17938686560E-03 +6.36203801505E-01 -1.66299439790E-01
2.86500000000E+09 +4.37227525045E-01 -3.56428757007E-01 -5.19996816578E-03 +1.79325213149E-03 -5.15321934370E-03 +1.69162984981E-03 +6.19861884194E-01 -1.86976234066E-01
2.87000000000E+09 +4.14503352208E-01 -3.71419797542E-01 -5.15875755858E-03 +2.99534922033E-03 -5.17226874466E-03 +2.96999890367E-03 +6.01292044844E-01 -2.07544627137E-01
2.87500000000E+09 +3.92020359319E-01 -3.84089503853E-01 -4.69801953146E-03 +3.86113510281E-03 -4.58217422049E-03 +3.90296795319E-03 +5.80858049722E-01 -2.27228096136E-01
2.88000000000E+09 +3.69557314796E-01 -3.95254349801E-01 -4.19630694567E-03 +4.24069656344E-03 -3.96964859938E-03 +4.24899304790E-03 +5.60312275134E-01 -2.45700609367E-01
2.88500000000E+09 +3.45391631756E-01 -4.05070497290E-01 -4.10131708308E-03 +5.08808665903E-03 -3.80039254443E-03 +4.82213783608E-03 +5.38237156855E-01 -2.64823138523E-01
2.89000000000E+09 +3.19194165588E-01 -4.14123929025E-01 -3.31784114382E-03 +6.22555522898E-03 -3.28277395092E-03 +5.75076737641E-03 +5.14006057371E-01 -2.83800899963E-01
2.89500000000E+09 +2.89660350128E-01 -4.21469623945E-01 -2.33298809179E-03 +6.43263904270E-03 -2.53775418726E-03 +6.13849092890E-03 +4.86867270895E-01 -3.02408223711E-01
2.90000000000E+09 +2.58537165849E-01 -4.27854423612E-01 -1.90002517683E-03 +6.83692114065E-03 -2.15941409452E-03 +6.73957158089E-03 +4.58708753208E-01 -3.18606606684E-01
2.90500000000E+09 +2.24402806448E-01 -4.34001308197E-01 -9.77448936287E-04 +7.58406954013E-03 -1.01794020706E-03 +7.66858768852E-03 +4.29717389292E-01 -3.34410164111E-01
2.91000000000E+09 +1.88985588599E-01 -4.37665632541E-01 -6.59609757185E-05 +7.83076814499E-03 +1.09709242149E-04 +7.81036995683E-03 +4.00028033265E-01 -3.49084358788E-01
2.91500000000E+09 +1.54443401776E-01 -4.40559446657E-01 +1.17762774935E-03 +8.69365685694E-03 +1.33317991363E-03 +8.21886683951E-03 +3.68159596042E-01 -3.62280994230E-01
2.92000000000E+09 +1.19365994711E-01 -4.41770863605E-01 +2.97065932659E-03 +8.48505051206E-03 +2.70577437303E-03 +7.94593189732E-03 +3.34942547988E-01 -3.73889608598E-01
2.92500000000E+09 +8.53810748871E-02 -4.41474420065E-01 +4.26738149859E-03 +8.07605148277E-03 +3.70247568250E-03 +7.83144491588E-03 +2.99108428421E-01 -3.82286012036E-01
2.93000000000E+09 +5.21067437067E-02 -4.38284502907E-01 +5.52358908072E-03 +7.21772138097E-03 +4.99873147840E-03 +7.34696956324E-03 +2.62964665914E-01 -3.89622103546E-01
2.93500000000E+09 +1.97278157402E-02 -4.32640975708E-01 +6.51535246710E-03 +6.69313368607E-03 +6.22502400464E-03 +6.96428198122E-03 +2.24393192671E-01 -3.95061203705E-01
2.94000000000E+09 -1.30101727218E-02 -4.24174544001E-01 +7.47035147798E-03 +5.85501340376E-03 +7.38111810934E-03 +6.09996086520E-03 +1.85142995190E-01 -3.99020372463E-01
2.94500000000E+09 -4.50151477096E-02 -4.12535814878E-01 +8.79831196828E-03 +4.71564007815E-03 +8.60628277190E-03 +4.97320012830E-03 +1.44193519116E-01 -3.99542812259E-01
2.95000000000E+09 -7.78473929409E-02 -3.99370042560E-01 +9.47237763719E-03 +3.40822644953E-03 +9.36220715852E-03 +3.79565656911E-03 +1.04452662406E-01 -3.97309608918E-01
2.95500000000E+09 -1.12429908906E-01 -3.82508341210E-01 +1.00003395247E-02 +1.72560651868E-03 +1.01262938616E-02 +2.18371887646E-03 +6.42785282230E-02 -3.92467743589E-01
2.96000000000E+09 -1.45801838329E-01 -3.61544756935E-01 +9.80566494793E-03 +1.51812594091E-04 +1.03141688528E-02 +3.35189336739E-04 +2.28750123248E-02 -3.85589894808E-01
2.96500000000E+09 -1.77661704061E-01 -3.39381336207E-01 +9.73789464117E-03 -6.75034506178E-04 +1.00656302412E-02 -9.04200114218E-04 -1.90935647557E-02 -3.73813093806E-01
2.97000000000E+09 -2.08001519571E-01 -3.15413173861E-01 +9.98659511999E-03 -1.76470750336E-03 +9.86969271848E-03 -2.11614357380E-03 -6.02702355285E-02 -3.58930783111E-01
2.97500000000E+09 -2.36405862148E-01 -2.90339886698E-01 +1.04604299359E-02 -3.48100092740E-03 +1.00848152494E-02 -3.53355100989E-03 -1.00186197006E-01 -3.41349400568E-01
2.98000000000E+09 -2.63470684161E-01 -2.64521958091E-01 +9.45961174884E-03 -5.70765336194E-03 +9.39235034244E-03 -5.31969714976E-03 -1.38737861949E-01 -3.21924793778E-01
2.98500000000E+09 -2.88948401144E-01 -2.35741503412E-01 +8.41278590288E-03 -6.94648058954E-03 +8.81872218557E-03 -6.67370049092E-03 -1.75871034665E-01 -2.99116793971E-01
2.99000000000E+09 -3.11146745346E-01 -2.05331313095E-01 +7.11017092258E-03 -7.79003107564E-03 +7.60863605032E-03 -8.07639152906E-03 -2.12667694196E-01 -2.73413899600E-01
2.99500000000E+09 -3.31169718094E-01 -1.74813678051E-01 +6.12337833266E-03 -8.69707044851E-03 +6.13181360418E-03 -9.23627923734E-03 -2.45869820704E-01 -2.43404567509E-01
3.00000000000E+09 -3.51239696174E-01 -1.42523752351E-01 +4.96535356488E-03 -9.42557283650E-03 +4.49679661476E-03 -9.70356106365E-03 -2.77515888433E-01 -2.11048524492E-01
3.00500000000E+09 -3.68439893409E-01 -1.07988235031E-01 +3.87432624531E-03 -1.06522930432E-02 +3.31874198429E-03 -1.03807611851E-02 -3.05354589632E-01 -1.77955187779E-01
3.01000000000E+09 -3.82794095989E-01 -7.39516042513E-02 +1.50834023436E-03 -1.15350056822E-02 +1.49727501846E-03 -1.10237818385E-02 -3.33131450976E-01 -1.42921186511E-01
3.01500000000E+09 -3.95852272642E-01 -4.04968581509E-02 -5.30053898509E-04 -1.08671150515E-02 -2.58639101410E-04 -1.06368831063E-02 -3.57042408464E-01 -1.06609438802E-01
3.02000000000E+09 -4.06336177511E-01 -6.88012951537E-03 -1.74575603079E-03 -1.02075260398E-02 -1.49364338354E-03 -1.01782521009E-02 -3.78167614743E-01 -6.78748633513E-02
3.02500000000E+09 -4.14087054031E-01 +2.58501059938E-02 -2.93244445042E-03 -1.01642758853E-02 -2.86396967758E-03 -1.01561494712E-02 -3.94834624312E-01 -2.87929056044E-02
3.03000000000E+09 -4.18240789191E-01 +5.85448919531E-02 -4.50904898383E-03 -9.26049363390E-03 -4.35168705003E-03 -9.20919224597E-03 -4.09121453543E-01 +1.13535738185E-02
3.03500000000E+09 -4.18874212082E-01 +9.02689713098E-02 -5.64983655629E-03 -9.02203952773E-03 -5.29739703552E-03 -9.14263298509E-03 -4.19922193584E-01 +5.10158857590E-02
3.04000000000E+09 -4.16483203977E-01 +1.21877904620E-01 -7.41146472920E-03 -7.29480929035E-03 -7.29506695478E-03 -7.76954978258E-03 -4.28248261703E-01 +9.18139283201E-02
3.04500000000E+09 -4.11034551920E-01 +1.53534469169E-01 -7.47943657047E-03 -5.76978245743E-03 -7.82569217716E-03 -6.24749437244E-03 -4.33176362847E-01 +1.31373046504E-01
3.05000000000E+09 -4.03902530445E-01 +1.86560233288E-01 -7.95246122265E-03 -4.75923279931E-03 -8.56599440060E-03 -4.82205577154E-03 -4.35902839166E-01 +1.70324264004E-01
3.05500000000E+09 -3.93678588158E-01 +2.20939144310E-01 -8.20820928076E-03 -3.85436801099E-03 -8.56224056934E-03 -3.40154792809E-03 -4.36449601835E-01 +2.08279729467E-01
3.06000000000E+09 -3.81526195944E-01 +2.54848857310E-01 -8.94392885957E-03 -3.01704963997E-03 -8.78584237926E-03 -2.43025279202E-03 -4.34420143943E-01 +2.45293780699E-01
3.06500000000E+09 -3.68097505600E-01 +2.88404775947E-01 -9.45031818970E-03 -9.29464817001E-04 -8.86392612279E-03 -9.05906258788E-04 -4.31512976901E-01 +2.81948449855E-01
3.07000000000E+09 -3.53820952701E-01 +3.19656333335E-01 -8.61424353335E-03 +4.97779276593E-04 -8.29872323619E-03 -8.65926522364E-06 -4.24527488858E-01 +3.18294898902E-01
