# Hz S RI R 50
! CMT, C1220, 16058040, 17.2.0/1
! Date: 15/08/2018 10:44:23
! Data: Format (Calibration Info)
! Freq                      S11: Re/Im (F2)                       S21: Re/Im (F2)                       S12: Re/Im (F2)                       S22: Re/Im (F2)            
2.50000000000E+09 +5.92453517503E-01 +6.52245671124E-01 +2.29080546529E-05 -1.74594680384E-04 +3.45056863079E-05 -1.93077374456E-04 +5.63511495710E-01 +7.25893641800E-01
2.50500000000E+09 +5.99111506303E-01 +6.44032894689E-01 -2.57789452323E-05 -1.64006432128E-04 -4.27874263389E-05 -2.08706847030E-04 +5.69401091722E-01 +7.20321576916E-01
2.51000000000E+09 +6.06564489062E-01 +6.35773940293E-01 -5.77258534540E-07 -2.18755704185E-04 -3.72271277504E-05 -2.15772098479E-04 +5.75430267543E-01 +7.15021886575E-01
2.51500000000E+09 +6.14270480870E-01 +6.27958402216E-01 -5.80338747127E-05 -2.81753105109E-04 -8.25860887371E-05 -2.45931505537E-04 +5.80975611977E-01 +7.09485955818E-01
2.52000000000E+09 +6.21269481073E-01 +6.20374936768E-01 -1.33563128465E-04 -3.43177579461E-04 -8.65375861518E-05 -2.93548281609E-04 +5.86460335319E-01 +7.03415265377E-01
2.52500000000E+09 +6.27090773134E-01 +6.13924234392E-01 -2.03000358414E-04 -3.10941844106E-04 -1.72870643329E-04 -3.20526418528E-04 +5.92444842719E-01 +6.96984725221E-01
2.53000000000E+09 +6.31972854939E-01 +6.08132797665E-01 -2.45924426379E-04 -2.66283218385E-04 -2.80743607566E-04 -2.72744263818E-04 +5.98785194974E-01 +6.89789474767E-01
2.53500000000E+09 +6.36031497447E-01 +6.02703928363E-01 -3.67456237475E-04 -2.43409877720E-04 -3.71463000218E-04 -2.68425107110E-04 +6.04706282793E-01 +6.82644650614E-01
2.54000000000E+09 +6.39268808854E-01 +5.96820122318E-01 -3.47580142072E-04 -1.28462835302E-04 -3.45751487639E-04 -1.24880014464E-04 +6.10395434620E-01 +6.75878294280E-01
2.54500000000E+09 +6.42961116525E-01 +5.90689533669E-01 -3.68760384745E-04 -1.03336717449E-04 -3.57894190428E-04 -8.67559669376E-05 +6.15931921876E-01 +6.69493554566E-01
2.55000000000E+09 +6.47204377892E-01 +5.83082272722E-01 -3.39553222401E-04 -5.25032872913E-05 -3.66863875213E-04 -1.12321751044E-04 +6.21093032801E-01 +6.63271155683E-01
2.55500000000E+09 +6.52563201998E-01 +5.74021980524E-01 -3.92935695833E-04 -5.88072332831E-05 -4.56020401000E-04 -1.35304328697E-04 +6.26019626902E-01 +6.56859025184E-01
2.56000000000E+09 +6.59095226819E-01 +5.64416960608E-01 -4.01735587482E-04 -2.43623314796E-05 -4.58368859489E-04 +3.35034197469E-05 +6.31212591169E-01 +6.49799840180E-01
2.56500000000E+09 +6.66279758110E-01 +5.54021196303E-01 -4.39488865086E-04 -6.50739310312E-05 -5.04862990160E-04 +5.34145634985E-05 +6.36275542901E-01 +6.42430375087E-01
2.57000000000E+09 +6.74038434438E-01 +5.44117541571E-01 -4.53835427414E-04 +2.48130940277E-05 -4.90643301722E-04 +1.68006618021E-04 +6.41314598293E-01 +6.34718709860E-01
2.57500000000E+09 +6.81666184399E-01 +5.34800973088E-01 -4.32005473300E-04 +5.32973807307E-05 -4.20351204142E-04 +1.37428580482E-04 +6.46831495642E-01 +6.27448142876E-01
2.58000000000E+09 +6.88201486568E-01 +5.26584684607E-01 -4.78212597080E-04 +8.21668465416E-05 -4.32820739366E-04 +7.26314498084E-05 +6.51872338738E-01 +6.20290416576E-01
2.58500000000E+09 +6.93474233839E-01 +5.19528202016E-01 -5.84724128066E-04 +1.90388793287E-04 -5.18741256519E-04 +1.28265186883E-04 +6.56931434715E-01 +6.12999736368E-01
2.59000000000E+09 +6.97447833697E-01 +5.13623429427E-01 -5.78924484262E-04 +3.47303209131E-04 -5.74595981110E-04 +2.95513823437E-04 +6.62144670675E-01 +6.05898825082E-01
2.59500000000E+09 +7.00684431999E-01 +5.07726798057E-01 -4.79715645960E-04 +3.99453946789E-04 -5.45740628584E-04 +3.99318342833E-04 +6.67441363151E-01 +5.98164714961E-01
2.60000000000E+09 +7.03069083973E-01 +5.01245588488E-01 -4.48016767616E-04 +4.20098851822E-04 -4.11334035820E-04 +3.98944047370E-04 +6.73167735254E-01 +5.89892823017E-01
2.60500000000E+09 +7.05543469428E-01 +4.92901734371E-01 -4.84977248812E-04 +4.02753630126E-04 -4.73775705467E-04 +4.31432911454E-04 +6.78927452318E-01 +5.81095676085E-01
2.61000000000E+09 +7.08309819676E-01 +4.82739363964E-01 -4.91193196463E-04 +6.02630195447E-04 -5.08137864457E-04 +5.86488509252E-04 +6.84311565618E-01 +5.72064970494E-01
2.61500000000E+09 +7.12379119887E-01 +4.70601697718E-01 -3.28035922409E-04 +6.77768334451E-04 -2.77638216855E-04 +6.50097972154E-04 +6.89527966317E-01 +5.63355719769E-01
2.62000000000E+09 +7.16867325209E-01 +4.56088260563E-01 -2.95914835059E-04 +5.56937364091E-04 -3.00188902657E-04 +5.73940526303E-04 +6.94541911383E-01 +5.54244752599E-01
2.62500000000E+09 +7.21950435542E-01 +4.40845012824E-01 -3.84341469798E-04 +6.62525989604E-04 -3.56535057099E-04 +7.18179352135E-04 +6.99549996057E-01 +5.45297292916E-01
2.63000000000E+09 +7.27211992672E-01 +4.25762416935E-01 -3.18891554411E-04 +8.67659274639E-04 -2.04849247057E-04 +8.71498923961E-04 +7.04329055766E-01 +5.35706727988E-01
2.63500000000E+09 +7.32093372096E-01 +4.11630379635E-01 -3.08407459445E-04 +9.01847556589E-04 -1.78251631765E-04 +8.44324150725E-04 +7.08876464085E-01 +5.26178090660E-01
2.64000000000E+09 +7.36492745407E-01 +3.99441188479E-01 -1.33838419056E-04 +1.17006881373E-03 -1.11076637530E-04 +1.02383634120E-03 +7.13362366334E-01 +5.16362151777E-01
2.64500000000E+09 +7.40533562706E-01 +3.89325365061E-01 +2.62367925007E-04 +1.22633397689E-03 +1.51975229253E-04 +1.06640040565E-03 +7.17822457953E-01 +5.06484470633E-01
2.65000000000E+09 +7.43424692613E-01 +3.80545651073E-01 +3.67439570818E-04 +9.31845576961E-04 +2.33472211597E-04 +9.22230344653E-04 +7.21953343962E-01 +4.96272379700E-01
2.65500000000E+09 +7.45629307955E-01 +3.72362124877E-01 +2.77456172057E-04 +9.22229216431E-04 +2.36711019975E-04 +1.02231771111E-03 +7.25661634276E-01 +4.85808097154E-01
2.66000000000E+09 +7.47154680860E-01 +3.64018158438E-01 +2.41593874587E-04 +1.12241537140E-03 +2.78830151366E-04 +1.17163404956E-03 +7.29659508066E-01 +4.74834087138E-01
2.66500000000E+09 +7.48687778420E-01 +3.55018768816E-01 +5.84376691834E-04 +1.28988867016E-03 +6.27627634453E-04 +1.30441782357E-03 +7.33652259536E-01 +4.63594483084E-01
2.67000000000E+09 +7.49895479770E-01 +3.43739185363E-01 +8.88545544833E-04 +1.16729212904E-03 +9.33383247608E-04 +1.12378283370E-03 +7.37733105425E-01 +4.53063428291E-01
2.67500000000E+09 +7.51293440420E-01 +3.30601133828E-01 +1.07599498453E-03 +1.02831102119E-03 +1.06579126191E-03 +9.35287518998E-04 +7.41953426235E-01 +4.42280434902E-01
2.68000000000E+09 +7.53053582265E-01 +3.15082754936E-01 +1.23126226842E-03 +7.96313756792E-04 +1.11967453945E-03 +7.98973741251E-04 +7.45790036320E-01 +4.31311627264E-01
2.68500000000E+09 +7.54657597881E-01 +2.98791267186E-01 +1.20020229724E-03 +7.80107545927E-04 +1.16917541824E-03 +8.60092027458E-04 +7.49133728083E-01 +4.19967745658E-01
2.69000000000E+09 +7.56388186840E-01 +2.81822472695E-01 +1.52801452107E-03 +7.17435515723E-04 +1.50999132215E-03 +8.15939978410E-04 +7.51860471955E-01 +4.08436037369E-01
2.69500000000E+09 +7.58034257416E-01 +2.65341896484E-01 +1.69832075220E-03 +5.58855348674E-04 +1.73428481195E-03 +5.21057270662E-04 +7.55004921162E-01 +3.96168314981E-01
2.70000000000E+09 +7.59564825442E-01 +2.49744751241E-01 +1.88386695483E-03 +2.74711561007E-04 +1.87963624253E-03 +2.41195801713E-04 +7.58207277561E-01 +3.82919238047E-01
2.70500000000E+09 +7.60754720771E-01 +2.35506790609E-01 +2.01678198471E-03 -1.61787757839E-04 +1.98974927045E-03 -4.53550127572E-05 +7.61103071154E-01 +3.69751290279E-01
2.71000000000E+09 +7.61710700583E-01 +2.22132392455E-01 +1.90679699763E-03 -5.02523815658E-04 +2.02256257861E-03 -4.26381574149E-04 +7.64242473342E-01 +3.56907220472E-01
2.71500000000E+09 +7.62550339120E-01 +2.09375316106E-01 +1.77608922828E-03 -8.30168786486E-04 +1.85525784518E-03 -8.48022850743E-04 +7.66998103500E-01 +3.44181867984E-01
2.72000000000E+09 +7.62819476213E-01 +1.96323388482E-01 +1.51267339679E-03 -8.66424746308E-04 +1.54912589503E-03 -1.02680853575E-03 +7.69061044557E-01 +3.31576567054E-01
2.72500000000E+09 +7.62858503168E-01 +1.82258977067E-01 +1.56654829490E-03 -9.37571307079E-04 +1.44352277751E-03 -1.10803104490E-03 +7.70813946881E-01 +3.18111531825E-01
2.73000000000E+09 +7.62018625661E-01 +1.67078680578E-01 +1.61242797639E-03 -1.23008155884E-03 +1.40368215080E-03 -1.26120517781E-03 +7.72245292598E-01 +3.04177376533E-01
2.73500000000E+09 +7.60176941099E-01 +1.50293131617E-01 +1.36801835973E-03 -1.53491211065E-03 +1.23834305020E-03 -1.37879286895E-03 +7.73879945578E-01 +2.89173238353E-01
2.74000000000E+09 +7.57477951831E-01 +1.33043695412E-01 +1.08888883068E-03 -1.71069479350E-03 +1.05177745830E-03 -1.41050664163E-03 +7.75614508183E-01 +2.73607405396E-01
2.74500000000E+09 +7.53959884472E-01 +1.15369755244E-01 +1.07111623480E-03 -1.77893402434E-03 +1.22231761410E-03 -1.58513975126E-03 +7.77024119722E-01 +2.57856373607E-01
2.75000000000E+09 +7.49868931876E-01 +9.74143326952E-02 +9.14765856712E-04 -1.98210218240E-03 +1.14974116536E-03 -1.98611081909E-03 +7.77656086024E-01 +2.42187319364E-01
2.75500000000E+09 +7.44908995666E-01 +7.98845238470E-02 +6.38419150590E-04 -2.22510606298E-03 +8.36529367938E-04 -2.34482159733E-03 +7.77261275794E-01 +2.26576111439E-01
2.76000000000E+09 +7.39915717823E-01 +6.24926328442E-02 +2.78616889906E-04 -2.45841830539E-03 +2.62037559911E-04 -2.58733975783E-03 +7.76396965518E-01 +2.11311248719E-01
2.76500000000E+09 +7.34176520872E-01 +4.50223547089E-02 -1.40909260717E-04 -2.27193131644E-03 -1.86444343429E-04 -2.43490966772E-03 +7.75649682265E-01 +1.94693491915E-01
2.77000000000E+09 +7.28241559624E-01 +2.70366475837E-02 -3.81675919932E-04 -2.35360016210E-03 -4.32826149042E-04 -2.46925608552E-03 +7.74241424570E-01 +1.77042939441E-01
2.77500000000E+09 +7.21587057995E-01 +8.23539872357E-03 -8.01543046233E-04 -2.22475386797E-03 -9.48170319564E-04 -2.31242935915E-03 +7.71930729186E-01 +1.59352607858E-01
2.78000000000E+09 +7.14862396468E-01 -1.14310568300E-02 -9.21310823217E-04 -2.04908250615E-03 -1.02345303537E-03 -2.02455409795E-03 +7.69562429849E-01 +1.41657833924E-01
2.78500000000E+09 +7.07105275894E-01 -3.20460062964E-02 -1.15618514079E-03 -1.91001164524E-03 -1.24290003307E-03 -1.83319163731E-03 +7.66721304619E-01 +1.24475175418E-01
2.79000000000E+09 +6.99278537504E-01 -5.27164005663E-02 -1.29712338135E-03 -1.93610298424E-03 -1.30478243637E-03 -1.79110295218E-03 +7.63546325338E-01 +1.07787869416E-01
2.79500000000E+09 +6.91350657110E-01 -7.36009345920E-02 -1.64532898925E-03 -1.95836971560E-03 -1.48703685357E-03 -1.85121074770E-03 +7.59578013930E-01 +9.03624660538E-02
2.80000000000E+09 +6.82709417464E-01 -9.43356432935E-02 -2.06166712850E-03 -1.67697073196E-03 -1.90182716557E-03 -1.65344536793E-03 +7.54933008463E-01 +7.23345607190E-02
2.80500000000E+09 +6.73425992141E-01 -1.13584288616E-01 -2.14523157470E-03 -1.34984822659E-03 -2.06509755305E-03 -1.40466864766E-03 +7.49507858698E-01 +5.40140936931E-02
2.81000000000E+09 +6.63049715423E-01 -1.31269520877E-01 -2.35592122998E-03 -1.17010918167E-03 -2.35338287658E-03 -1.27496291588E-03 +7.44176833934E-01 +3.53519711964E-02
2.81500000000E+09 +6.50992931983E-01 -1.47220451291E-01 -2.62233716428E-03 -9.81888215062E-04 -2.67598318543E-03 -9.69825118503E-04 +7.38303037183E-01 +1.54609669702E-02
2.82000000000E+09 +6.38233991432E-01 -1.61705381114E-01 -2.97790839794E-03 -5.00871108048E-04 -2.98487626744E-03 -3.96575939875E-04 +7.31637709607E-01 -4.60621797130E-03
2.82500000000E+09 +6.23957388846E-01 -1.76161062478E-01 -2.96648822248E-03 +1.05659025531E-04 -2.82819715767E-03 +1.70721586978E-04 +7.23642743615E-01 -2.49199994660E-02
2.83000000000E+09 +6.07222442360E-01 -1.91736363829E-01 -2.87932402020E-03 +5.23136010937E-04 -2.79031156000E-03 +4.30873419955E-04 +7.14923658951E-01 -4.51364602525E-02
2.83500000000E+09 +5.88676792012E-01 -2.07936255841E-01 -2.74802002638E-03 +1.06165396478E-03 -2.68466263285E-03 +8.76791419188E-04 +7.04943227891E-01 -6.59049700186E-02
2.84000000000E+09 +5.67731330012E-01 -2.26289267837E-01 -2.28228312812E-03 +1.30826253820E-03 -2.35811091305E-03 +1.21416023759E-03 +6.94096192776E-01 -8.71144903123E-02
2.84500000000E+09 +5.44441264408E-01 -2.45639355981E-01 -2.07328028088E-03 +1.33812915550E-03 -2.16932219790E-03 +1.35294213724E-03 +6.81355828305E-01 -1.08628532230E-01
2.85000000000E+09 +5.20044878479E-01 -2.66207085758E-01 -2.03775238046E-03 +1.57121415941E-03 -2.00642053884E-03 +1.56777463633E-03 +6.67144921717E-01 -1.29535770794E-01
2.85500000000E+09 +4.93583741237E-01 -2.85832769675E-01 -1.87759411249E-03 +1.75666246250E-03 -1.90260669039E-03 +1.75760173129E-03 +6.51491055071E-01 -1.49526084231E-01
2.86000000000E+09 +4.67761843720E-01 -3.03130688036E-01 -1.66360343020E-03 +2.16957794128E-03 -1.62578819891E-03 +2.13662733674E-03 +6.36104341652E-01 -1.69227976571E-01
2.86500000000E+09 +4.43405293555E-01 -3.18639648678E-01 -1.36278290793E-03 +1.99946502287E-03 -1.48264556283E-03 +1.97672184275E-03 +6.18938412130E-01 -1.89954874576E-01
2.87000000000E+09 +4.19616646092E-01 -3.32667948180E-01 -1.38657496490E-03 +2.77555710035E-03 -1.32075610554E-03 +2.79324508053E-03 +6.00153449751E-01 -2.10079864160E-01
2.87500000000E+09 +3.95407209649E-01 -3.44487415185E-01 -3.38576959900E-04 +2.55049044709E-03 -2.60066411614E-04 +2.57748523152E-03 +5.79656975678E-01 -2.29779792668E-01
2.88000000000E+09 +3.70454419878E-01 -3.54414911699E-01 -5.57220758944E-04 +2.20363006383E-03 -4.64959610659E-04 +2.17631448183E-03 +5.58830027472E-01 -2.47642643922E-01
2.88500000000E+09 +3.43245941682E-01 -3.62227626918E-01 -3.94786963743E-04 +2.77645280116E-03 -2.79498094117E-04 +2.59249616559E-03 +5.36966266205E-01 -2.66721161642E-01
2.89000000000E+09 +3.13583718591E-01 -3.67967975590E-01 +8.91951024806E-05 +2.61239137932E-03 +5.78995287262E-05 +2.55996386951E-03 +5.12403426946E-01 -2.84824127805E-01
2.89500000000E+09 +2.81895518350E-01 -3.71805152010E-01 +4.69938804487E-04 +2.74405108430E-03 +3.39239646653E-04 +2.69270819958E-03 +4.86646459792E-01 -3.02138685031E-01
2.90000000000E+09 +2.48353666192E-01 -3.74516280711E-01 +9.87345148479E-04 +2.73250908606E-03 +9.10631114828E-04 +2.73443932237E-03 +4.59612464447E-01 -3.19329689388E-01
2.90500000000E+09 +2.12763263738E-01 -3.76349339356E-01 +1.20227940652E-03 +2.29006341420E-03 +1.21907856828E-03 +2.32693030053E-03 +4.30833967421E-01 -3.35836430600E-01
2.91000000000E+09 +1.76255241064E-01 -3.76659654068E-01 +1.60186399883E-03 +2.22340925598E-03 +1.61395913778E-03 +2.13765061071E-03 +4.01056526885E-01 -3.51825873909E-01
2.91500000000E+09 +1.39816382732E-01 -3.75037626387E-01 +1.75142459068E-03 +2.06475898655E-03 +1.72369209510E-03 +1.95854720449E-03 +3.68327814623E-01 -3.65615765228E-01
2.92000000000E+09 +1.04035172775E-01 -3.71622657484E-01 +2.33526807693E-03 +1.65522268762E-03 +2.15670519176E-03 +1.60145800545E-03 +3.33902632447E-01 -3.76870203685E-01
2.92500000000E+09 +6.98359635991E-02 -3.65418874224E-01 +2.44103160021E-03 +1.01638833401E-03 +2.16848048834E-03 +1.06229791010E-03 +2.98190399253E-01 -3.85002915934E-01
2.93000000000E+09 +3.74235495871E-02 -3.56853912723E-01 +2.22877159485E-03 +6.41226338438E-04 +2.09775758103E-03 +8.41776970148E-04 +2.61676003005E-01 -3.92063185618E-01
2.93500000000E+09 +6.47160954512E-03 -3.45944178177E-01 +2.25200384802E-03 +4.18740626594E-04 +2.24261740889E-03 +5.26254792311E-04 +2.23136422581E-01 -3.97883044148E-01
2.94000000000E+09 -2.40245449264E-02 -3.32787107690E-01 +2.00861591929E-03 -1.40540401914E-04 +2.03830761290E-03 -1.12637540286E-04 +1.82174737532E-01 -4.01163974728E-01
2.94500000000E+09 -5.45427878597E-02 -3.16833240615E-01 +1.47298356141E-03 +4.98869828286E-05 +1.50425985082E-03 +9.23204095244E-05 +1.42407609161E-01 -4.00715402938E-01
2.95000000000E+09 -8.56043703637E-02 -2.97000695795E-01 +1.88707018580E-03 +1.49918531123E-04 +1.83141857529E-03 +2.22475137401E-04 +1.01629938990E-01 -3.98866973782E-01
2.95500000000E+09 -1.14553345029E-01 -2.74297800208E-01 +2.03126906173E-03 -2.32550038319E-04 +2.06340600532E-03 -1.42632713133E-04 +6.09747958465E-02 -3.93200842009E-01
2.96000000000E+09 -1.43413956869E-01 -2.50802781304E-01 +1.44532175022E-03 -9.91708596639E-04 +1.60804298825E-03 -9.74644017780E-04 +1.94087340424E-02 -3.84624221551E-01
2.96500000000E+09 -1.71006267462E-01 -2.24266590297E-01 +7.78299449404E-04 -4.30144305793E-04 +8.15848433578E-04 -3.96343981545E-04 -2.14945004586E-02 -3.71645585767E-01
2.97000000000E+09 -1.95651782684E-01 -1.97473982073E-01 +1.38646502298E-03 -2.17959056007E-05 +1.37308242899E-03 -2.13144192659E-05 -6.08231511169E-02 -3.56423555433E-01
2.97500000000E+09 -2.19455775416E-01 -1.69820843940E-01 +1.60318372842E-03 -4.36369539347E-04 +1.57518089701E-03 -5.02427520824E-04 -9.97295911340E-02 -3.39993106319E-01
2.98000000000E+09 -2.40913501109E-01 -1.40541210295E-01 +1.09697503307E-03 -6.47502047010E-04 +1.12396447210E-03 -6.07815005542E-04 -1.38608643961E-01 -3.20495182224E-01
2.98500000000E+09 -2.59669230291E-01 -1.10182135148E-01 +1.27780744291E-03 -4.72110001627E-04 +1.33870287773E-03 -4.24329366435E-04 -1.75676377541E-01 -2.97868428058E-01
2.99000000000E+09 -2.75863145385E-01 -7.89004102656E-02 +1.29248589611E-03 -5.87824291418E-04 +1.37630671831E-03 -5.91435034584E-04 -2.11258581519E-01 -2.71716584138E-01
2.99500000000E+09 -2.89905569873E-01 -4.73858759020E-02 +1.37831335728E-03 -6.34186734838E-04 +1.38106817523E-03 -6.83822482663E-04 -2.44382708240E-01 -2.42382378709E-01
3.00000000000E+09 -3.03210841886E-01 -1.51023800168E-02 +1.55541393656E-03 -8.57256522295E-04 +1.48417218083E-03 -9.64898102560E-04 -2.75093956025E-01 -2.10970775408E-01
3.00500000000E+09 -3.14328057639E-01 +1.80888244755E-02 +1.53273438433E-03 -1.20394416112E-03 +1.38759894281E-03 -1.15305230204E-03 -3.04329800809E-01 -1.78631285319E-01
3.01000000000E+09 -3.23567338096E-01 +5.10816200278E-02 +1.14822043995E-03 -1.48144680210E-03 +1.17392923071E-03 -1.38144584753E-03 -3.31248595208E-01 -1.43035492955E-01
3.01500000000E+09 -3.30556247531E-01 +8.42181898927E-02 +9.74966358527E-04 -1.47985800179E-03 +1.07791238383E-03 -1.44922110266E-03 -3.55063539157E-01 -1.07098288664E-01
3.02000000000E+09 -3.34047956678E-01 +1.16038666678E-01 +9.74026041814E-04 -1.70622849958E-03 +9.89776762428E-04 -1.76822575214E-03 -3.75893046354E-01 -6.94491187564E-02
3.02500000000E+09 -3.34903879674E-01 +1.45846793114E-01 +5.48812925308E-04 -1.90372745887E-03 +5.50706198211E-04 -1.91927521884E-03 -3.93397299397E-01 -3.16378146868E-02
3.03000000000E+09 -3.33883039060E-01 +1.74057737823E-01 +4.06345881697E-04 -1.68736879676E-03 +3.72706024907E-04 -1.64396457409E-03 -4.08990821444E-01 +8.37238968559E-03
3.03500000000E+09 -3.30659540925E-01 +2.02293611000E-01 +3.08213812029E-04 -1.77694259686E-03 +3.39587175456E-04 -1.69374271097E-03 -4.21089761639E-01 +4.92640177289E-02
3.04000000000E+09 -3.24020626234E-01 +2.31150347194E-01 +2.70103971713E-04 -1.98602358872E-03 +3.60102411934E-04 -2.06533561212E-03 -4.28345446341E-01 +9.02963877615E-02
3.04500000000E+09 -3.14564836726E-01 +2.59043345444E-01 -2.17099391874E-04 -1.95974111174E-03 -2.32901608976E-04 -2.04595885328E-03 -4.33922927967E-01 +1.29687646963E-01
3.05000000000E+09 -3.03774596837E-01 +2.88296141110E-01 -2.84410172148E-04 -1.78349939232E-03 -3.52582014795E-04 -1.83210319480E-03 -4.37124205151E-01 +1.68337003365E-01
3.05500000000E+09 -2.90077643491E-01 +3.17236323957E-01 -4.77694545624E-04 -1.88602760019E-03 -5.96921758166E-04 -1.87921573152E-03 -4.38291853331E-01 +2.07204712253E-01
3.06000000000E+09 -2.76008502629E-01 +3.45212150205E-01 -6.85466236212E-04 -1.75873856637E-03 -7.09790997605E-04 -1.67793963613E-03 -4.36912713279E-01 +2.44889289086E-01
3.06500000000E+09 -2.61562276078E-01 +3.72117780533E-01 -7.20513646140E-04 -1.90450010089E-03 -6.45791342267E-04 -1.75548562390E-03 -4.33117106638E-01 +2.82213255979E-01
3.07000000000E+09 -2.48351232486E-01 +3.96602177848E-01 -1.37211907099E-03 -1.91721206098E-03 -1.16051395020E-03 -1.95082389590E-03 -4.27019463853E-01 +3.18561667226E-01
