# Hz S RI R 50
! CMT, C1220, 16058040, 17.2.0/1
! Date: 15/08/2018 10:48:20
! Data: Format (Calibration Info)
! Freq                      S11: Re/Im (F2)                       S21: Re/Im (F2)                       S12: Re/Im (F2)                       S22: Re/Im (F2)            
2.50000000000E+09 +5.81301706337E-01 +6.46226969686E-01 -1.23114398609E-03 +7.02600740822E-04 -1.32383830516E-03 +7.31400649506E-04 +5.63229521461E-01 +7.25299829529E-01
2.50500000000E+09 +5.88872759529E-01 +6.37002972525E-01 -1.14691291644E-03 +8.80376855955E-04 -1.19462586823E-03 +9.16091747083E-04 +5.68919022622E-01 +7.19799597451E-01
2.51000000000E+09 +5.97186974598E-01 +6.27599815563E-01 -1.03165678514E-03 +9.56288346553E-04 -1.00969369502E-03 +9.80750008179E-04 +5.74757707349E-01 +7.14380318296E-01
2.51500000000E+09 +6.05451917498E-01 +6.18740636704E-01 -9.66847649112E-04 +1.14871856732E-03 -9.42420123115E-04 +1.13243061126E-03 +5.79945732444E-01 +7.08764977367E-01
2.52000000000E+09 +6.13179356514E-01 +6.10271585885E-01 -7.76121663242E-04 +1.24933700030E-03 -7.83538408220E-04 +1.14539692629E-03 +5.85043241652E-01 +7.02528567355E-01
2.52500000000E+09 +6.19232110603E-01 +6.03124212218E-01 -6.46067747283E-04 +1.19537762611E-03 -6.88416877430E-04 +1.20229575740E-03 +5.90498468850E-01 +6.96126226124E-01
2.53000000000E+09 +6.24069269724E-01 +5.96852560637E-01 -5.87701269633E-04 +1.25448005193E-03 -5.72590197747E-04 +1.25156337068E-03 +5.96403671570E-01 +6.89373114503E-01
2.53500000000E+09 +6.27701839539E-01 +5.91230610189E-01 -5.30705088867E-04 +1.29135096682E-03 -5.65282730361E-04 +1.32396955754E-03 +6.02482213166E-01 +6.82899366073E-01
2.54000000000E+09 +6.30553355209E-01 +5.85684976287E-01 -4.29917485471E-04 +1.43968854137E-03 -4.40211328798E-04 +1.42771231560E-03 +6.08321078348E-01 +6.76611650986E-01
2.54500000000E+09 +6.33421173404E-01 +5.79678276414E-01 -1.50642001136E-04 +1.56599191072E-03 -3.39589558642E-04 +1.59643011930E-03 +6.14177378976E-01 +6.70569752967E-01
2.55000000000E+09 +6.37204935517E-01 +5.72742590634E-01 +1.42741998921E-04 +1.58908678009E-03 +1.56579064226E-06 +1.74749887341E-03 +6.19310419910E-01 +6.64507491547E-01
2.55500000000E+09 +6.42327183286E-01 +5.64273631378E-01 +3.39662569241E-04 +1.33051687705E-03 +3.11967702351E-04 +1.55506936976E-03 +6.24407315989E-01 +6.58290357167E-01
2.56000000000E+09 +6.48852516047E-01 +5.55151403036E-01 +3.31839096083E-04 +1.25424174418E-03 +4.84916992218E-04 +1.42364074897E-03 +6.29598926447E-01 +6.51133552923E-01
2.56500000000E+09 +6.56612084154E-01 +5.44855768490E-01 +2.78652212980E-04 +1.27734915002E-03 +5.95435973029E-04 +1.36573322969E-03 +6.34839348751E-01 +6.43990586717E-01
2.57000000000E+09 +6.64831302658E-01 +5.34361309464E-01 +4.40312355788E-04 +1.33642033694E-03 +7.15242583591E-04 +1.20257068744E-03 +6.40576690851E-01 +6.36417560538E-01
2.57500000000E+09 +6.72745924049E-01 +5.24175632103E-01 +6.54273364397E-04 +1.36003657824E-03 +7.96452847456E-04 +1.11563857303E-03 +6.46318765130E-01 +6.29015132168E-01
2.58000000000E+09 +6.79388206052E-01 +5.15018529272E-01 +9.49272749247E-04 +1.28519724905E-03 +8.23588816423E-04 +1.01538829014E-03 +6.51872049569E-01 +6.21562651511E-01
2.58500000000E+09 +6.84918890277E-01 +5.06685814569E-01 +1.06391026357E-03 +9.83351099519E-04 +9.00909387902E-04 +8.94750683401E-04 +6.57218455067E-01 +6.13766467929E-01
2.59000000000E+09 +6.88653430397E-01 +4.99351933754E-01 +9.25523772607E-04 +7.83909874239E-04 +8.45164529471E-04 +8.41056227825E-04 +6.62058923295E-01 +6.06160158048E-01
2.59500000000E+09 +6.91491737005E-01 +4.91984782922E-01 +1.01723650639E-03 +9.51084199249E-04 +9.79795240618E-04 +9.52807041766E-04 +6.67066711300E-01 +5.98245812458E-01
2.60000000000E+09 +6.93349356645E-01 +4.83808853702E-01 +1.20041431933E-03 +8.15677740673E-04 +1.17053744791E-03 +8.11230447152E-04 +6.72310288964E-01 +5.89916228671E-01
2.60500000000E+09 +6.95286860179E-01 +4.74072662175E-01 +1.30817950369E-03 +5.14741372863E-04 +1.28705523778E-03 +4.97886857648E-04 +6.78087921801E-01 +5.81125682768E-01
2.61000000000E+09 +6.97742806826E-01 +4.62455674473E-01 +1.14602814167E-03 +3.46907659494E-04 +1.10754944431E-03 +3.66761371758E-04 +6.83338636857E-01 +5.72159304435E-01
2.61500000000E+09 +7.01219695813E-01 +4.48573400076E-01 +1.14077434129E-03 +3.52604755039E-04 +1.17192241865E-03 +3.84862738449E-04 +6.88363572026E-01 +5.63369506580E-01
2.62000000000E+09 +7.05346283638E-01 +4.32773327881E-01 +1.06888349537E-03 +1.62139029417E-04 +1.11008745148E-03 +1.85171673155E-04 +6.93262190257E-01 +5.54393187346E-01
2.62500000000E+09 +7.10642708770E-01 +4.16103465078E-01 +1.09814208809E-03 +2.68012101777E-04 +1.07969010262E-03 +1.85416457932E-04 +6.98158143577E-01 +5.45783276245E-01
2.63000000000E+09 +7.16286955132E-01 +3.99270178342E-01 +1.17410712522E-03 +2.98021610085E-04 +1.18253259873E-03 +1.31555306824E-04 +7.03015190961E-01 +5.36568290324E-01
2.63500000000E+09 +7.21456574075E-01 +3.83119745537E-01 +1.32182398808E-03 +1.53749336370E-05 +1.22236008838E-03 -6.21804383557E-05 +7.07647944910E-01 +5.27316164884E-01
2.64000000000E+09 +7.25802693786E-01 +3.68723692201E-01 +1.16151947560E-03 -1.59347318522E-04 +9.89682336041E-04 -1.71819185289E-04 +7.12226933448E-01 +5.17610872396E-01
2.64500000000E+09 +7.29039868271E-01 +3.56808514607E-01 +1.03426320478E-03 -2.56649306087E-04 +9.35028103288E-04 -1.61992586863E-04 +7.16826189159E-01 +5.07865036588E-01
2.65000000000E+09 +7.30805008236E-01 +3.46779149668E-01 +9.33628968516E-04 -1.70027755202E-04 +9.11157057626E-04 -6.99020846531E-05 +7.21363692551E-01 +4.97693213432E-01
2.65500000000E+09 +7.32295556361E-01 +3.37747047624E-01 +8.93716556828E-04 -1.87104078598E-04 +9.86238672422E-04 -1.33311677116E-04 +7.25516035089E-01 +4.86906476892E-01
2.66000000000E+09 +7.33347755494E-01 +3.28772879533E-01 +9.03703798789E-04 -1.83976219743E-04 +1.03257929628E-03 -1.93318697492E-04 +7.29521438372E-01 +4.75778031692E-01
2.66500000000E+09 +7.34211902597E-01 +3.18987567792E-01 +8.63351286193E-04 -2.05764483183E-04 +9.14100291209E-04 -2.63069230017E-04 +7.33685549344E-01 +4.64759296291E-01
2.67000000000E+09 +7.35256524339E-01 +3.07019187446E-01 +8.55842777197E-04 -1.01218096888E-04 +9.10326090610E-04 -1.46519626483E-04 +7.38148214947E-01 +4.54009199409E-01
2.67500000000E+09 +7.36221828036E-01 +2.92803723404E-01 +1.16928613079E-03 -1.42258043391E-04 +1.03944008497E-03 -1.34828828071E-04 +7.42430141125E-01 +4.42897212555E-01
2.68000000000E+09 +7.37375399923E-01 +2.77048248312E-01 +1.28091615228E-03 -3.49646473797E-04 +1.18718655906E-03 -3.05863085858E-04 +7.46382156186E-01 +4.31493485921E-01
2.68500000000E+09 +7.38581024458E-01 +2.60054328771E-01 +1.03447849008E-03 -5.84601868716E-04 +1.02654640088E-03 -5.33980178685E-04 +7.49446937097E-01 +4.20048283987E-01
2.69000000000E+09 +7.39567862799E-01 +2.42693269243E-01 +9.46077843755E-04 -3.68008504499E-04 +8.82808164243E-04 -4.07678062084E-04 +7.52257819248E-01 +4.07998364285E-01
2.69500000000E+09 +7.40273999070E-01 +2.26383314943E-01 +1.15493059870E-03 -3.08913022567E-04 +1.14876233176E-03 -3.12049654884E-04 +7.55063307425E-01 +3.95342091609E-01
2.70000000000E+09 +7.40989633887E-01 +2.11205627589E-01 +1.32769656455E-03 -4.43442543121E-04 +1.27609028329E-03 -4.24945216145E-04 +7.58164436171E-01 +3.82106745447E-01
2.70500000000E+09 +7.41519381461E-01 +1.97504152021E-01 +1.45581540383E-03 -6.70243873932E-04 +1.40375455142E-03 -6.19177480621E-04 +7.61221437995E-01 +3.68679747448E-01
2.71000000000E+09 +7.41645504726E-01 +1.84667670986E-01 +1.37096015255E-03 -1.02531033720E-03 +1.43331078014E-03 -9.65749636361E-04 +7.63771235597E-01 +3.55228576249E-01
2.71500000000E+09 +7.41559755616E-01 +1.72005774932E-01 +1.25718652860E-03 -1.05782922202E-03 +1.37964234506E-03 -1.06495151431E-03 +7.65814381828E-01 +3.42743694480E-01
2.72000000000E+09 +7.40982412646E-01 +1.59185398987E-01 +1.25870145451E-03 -1.21575441713E-03 +1.27283627214E-03 -1.33844468544E-03 +7.67815549077E-01 +3.30178527109E-01
2.72500000000E+09 +7.40212348967E-01 +1.45300948496E-01 +1.13848292033E-03 -1.36031713271E-03 +9.96952534247E-04 -1.48764139640E-03 +7.68817881820E-01 +3.16595637540E-01
2.73000000000E+09 +7.38931180245E-01 +1.29673690131E-01 +1.29683277864E-03 -1.47181891819E-03 +1.04146343672E-03 -1.46089289651E-03 +7.69983165818E-01 +3.02400042949E-01
2.73500000000E+09 +7.36748692649E-01 +1.12422321575E-01 +1.17658874966E-03 -1.81459321440E-03 +1.02360032337E-03 -1.58123114038E-03 +7.70343181469E-01 +2.87689726612E-01
2.74000000000E+09 +7.34182899351E-01 +9.41602560079E-02 +8.67423831660E-04 -1.95424188209E-03 +9.06241558878E-04 -1.65117130077E-03 +7.71598125338E-01 +2.73262274956E-01
2.74500000000E+09 +7.30242863889E-01 +7.52121204045E-02 +7.61155361871E-04 -2.02705713743E-03 +1.01317310668E-03 -1.79668500167E-03 +7.72984757671E-01 +2.58673715327E-01
2.75000000000E+09 +7.25415469529E-01 +5.69231461046E-02 +9.10871660411E-04 -2.09936313060E-03 +1.22164286687E-03 -2.06243457294E-03 +7.74100597861E-01 +2.43623738504E-01
2.75500000000E+09 +7.20358437014E-01 +3.95872153811E-02 +6.54176571147E-04 -2.65843873903E-03 +8.91403458512E-04 -2.80629883464E-03 +7.74218782872E-01 +2.28839089157E-01
2.76000000000E+09 +7.15437002075E-01 +2.28437519450E-02 +2.54543996322E-04 -2.79336531972E-03 +2.56040122832E-04 -3.04311156464E-03 +7.73570875873E-01 +2.13449747933E-01
2.76500000000E+09 +7.09785664578E-01 +6.30701545889E-03 -2.24479820554E-04 -2.88246748167E-03 -3.03835357941E-04 -3.03162697914E-03 +7.72781578289E-01 +1.97670304533E-01
2.77000000000E+09 +7.04003181639E-01 -1.02095498261E-02 -6.25002921542E-04 -2.63957503581E-03 -6.61273041101E-04 -2.74605517712E-03 +7.72308364944E-01 +1.80593671572E-01
2.77500000000E+09 +6.98357104352E-01 -2.76668880850E-02 -5.05601965212E-04 -2.37257826753E-03 -6.57368180562E-04 -2.41580100373E-03 +7.70870891622E-01 +1.62564127257E-01
2.78000000000E+09 +6.92285445405E-01 -4.63297702840E-02 -4.40526060396E-04 -2.73252238827E-03 -5.73411248995E-04 -2.74309672863E-03 +7.69168351001E-01 +1.45090456143E-01
2.78500000000E+09 +6.86080178775E-01 -6.65516680256E-02 -8.77902740135E-04 -3.12187468687E-03 -1.03446502494E-03 -2.96045982684E-03 +7.67367125895E-01 +1.27350609281E-01
2.79000000000E+09 +6.79241314637E-01 -8.86432617191E-02 -1.29142361265E-03 -2.91988762738E-03 -1.33301206743E-03 -2.74491577248E-03 +7.64525067267E-01 +1.09832752402E-01
2.79500000000E+09 +6.70867685729E-01 -1.10890623172E-01 -1.45035950682E-03 -3.20932838913E-03 -1.41285547542E-03 -3.03445082197E-03 +7.60874385581E-01 +9.18494429820E-02
2.80000000000E+09 +6.61762851499E-01 -1.32460888833E-01 -2.05556067893E-03 -3.18990674491E-03 -1.89521471384E-03 -3.12928103766E-03 +7.56112565586E-01 +7.31503789320E-02
2.80500000000E+09 +6.51943637681E-01 -1.52552814663E-01 -2.26428485305E-03 -3.23680315556E-03 -2.16560484055E-03 -3.27623031661E-03 +7.50223455115E-01 +5.37877712294E-02
2.81000000000E+09 +6.41374524698E-01 -1.70528614931E-01 -3.08377694010E-03 -3.41895745009E-03 -3.07509625020E-03 -3.54704112079E-03 +7.43690895216E-01 +3.48896001639E-02
2.81500000000E+09 +6.30136654346E-01 -1.86523361672E-01 -3.67531691770E-03 -2.88554352336E-03 -3.82591100566E-03 -2.83930318392E-03 +7.37666343898E-01 +1.52231913888E-02
2.82000000000E+09 +6.18202794217E-01 -2.01436748465E-01 -4.06342709909E-03 -2.85936672430E-03 -4.14697585336E-03 -2.62519619207E-03 +7.30467564193E-01 -5.47585903755E-03
2.82500000000E+09 +6.04285351337E-01 -2.15836622501E-01 -4.88208422213E-03 -2.45449661774E-03 -4.72855208475E-03 -2.13729893233E-03 +7.21809155705E-01 -2.57085067799E-02
2.83000000000E+09 +5.89346971503E-01 -2.30299390712E-01 -5.39395803745E-03 -1.85417296948E-03 -5.03887498391E-03 -1.75485132454E-03 +7.12036475706E-01 -4.52930017754E-02
2.83500000000E+09 +5.72556995822E-01 -2.47112388235E-01 -5.90861752449E-03 -1.09083464301E-03 -5.63968787637E-03 -1.26532908084E-03 +7.02045116853E-01 -6.50793026975E-02
2.84000000000E+09 +5.52369248815E-01 -2.65502080959E-01 -6.17204086442E-03 -3.63474218577E-04 -6.05777480032E-03 -5.42236216900E-04 +6.90916467980E-01 -8.50127588740E-02
2.84500000000E+09 +5.29941907419E-01 -2.85102977618E-01 -6.25956733857E-03 +3.50110769203E-04 -6.27973468850E-03 +2.48400033327E-04 +6.78760113079E-01 -1.05658683701E-01
2.85000000000E+09 +5.05610974294E-01 -3.05309816472E-01 -6.43304261995E-03 +7.75374494820E-04 -6.41943796886E-03 +8.36720191075E-04 +6.65421009518E-01 -1.25966866833E-01
2.85500000000E+09 +4.80486702334E-01 -3.24519480316E-01 -7.09709735277E-03 +1.68399293768E-03 -7.02002010770E-03 +1.65279734046E-03 +6.50841768013E-01 -1.46600826081E-01
2.86000000000E+09 +4.56295111796E-01 -3.42751001580E-01 -6.98507950342E-03 +3.07391166328E-03 -6.87174985965E-03 +2.96005800006E-03 +6.35244513790E-01 -1.66388737915E-01
2.86500000000E+09 +4.33066348101E-01 -3.59397800762E-01 -6.74331709924E-03 +3.96879221034E-03 -6.78944446749E-03 +3.90148061505E-03 +6.18915416599E-01 -1.87241477938E-01
2.87000000000E+09 +4.10389616464E-01 -3.75014769650E-01 -6.42415547126E-03 +5.21757507003E-03 -6.43103034767E-03 +5.19376885442E-03 +6.00585084308E-01 -2.07877811739E-01
2.87500000000E+09 +3.87838319346E-01 -3.88079409556E-01 -5.86649539001E-03 +5.91992019828E-03 -5.69942708328E-03 +6.08412123818E-03 +5.79820339351E-01 -2.27543611506E-01
2.88000000000E+09 +3.64989417229E-01 -3.99132098776E-01 -5.42905136088E-03 +6.66856395842E-03 -5.10776820850E-03 +6.67484878114E-03 +5.58909903411E-01 -2.45736205152E-01
2.88500000000E+09 +3.41113791077E-01 -4.08672702611E-01 -5.05560824084E-03 +7.97706572674E-03 -4.67888760533E-03 +7.59113663835E-03 +5.36953484363E-01 -2.64174609832E-01
2.89000000000E+09 +3.15435019207E-01 -4.17535561281E-01 -3.87522602660E-03 +9.41206637898E-03 -3.87126751076E-03 +8.74513429197E-03 +5.13194456128E-01 -2.82977101599E-01
2.89500000000E+09 +2.86454315845E-01 -4.25368979065E-01 -2.21275950549E-03 +9.92597337393E-03 -2.58370682240E-03 +9.51048684492E-03 +4.86331636264E-01 -3.01488815274E-01
2.90000000000E+09 +2.55525747163E-01 -4.32493945102E-01 -1.25294649800E-03 +1.02366115752E-02 -1.63455803318E-03 +1.01851529691E-02 +4.58906258061E-01 -3.17815485785E-01
2.90500000000E+09 +2.21254758130E-01 -4.39271840997E-01 +7.42466150213E-05 +1.11117859396E-02 +1.50380301690E-05 +1.12839190952E-02 +4.29929282234E-01 -3.34056789168E-01
2.91000000000E+09 +1.85354741876E-01 -4.43199538028E-01 +1.87684632080E-03 +1.12145868260E-02 +2.11767936300E-03 +1.11536227693E-02 +4.00080900590E-01 -3.48637259556E-01
2.91500000000E+09 +1.50348052284E-01 -4.46206404806E-01 +3.70508818040E-03 +1.16025576291E-02 +3.78881685277E-03 +1.09704352006E-02 +3.68555303446E-01 -3.61569280344E-01
2.92000000000E+09 +1.14579012771E-01 -4.47481096791E-01 +5.77986023449E-03 +1.08809331499E-02 +5.35783558236E-03 +1.02199160395E-02 +3.35756431334E-01 -3.73203802811E-01
2.92500000000E+09 +8.05275715166E-02 -4.46432767534E-01 +7.25582270320E-03 +9.90980103750E-03 +6.43908680993E-03 +9.67873742314E-03 +3.00239718293E-01 -3.81969647055E-01
2.93000000000E+09 +4.73751007112E-02 -4.43329121889E-01 +8.56481172755E-03 +9.05472728424E-03 +7.91333259673E-03 +9.31901510080E-03 +2.63949511979E-01 -3.89825816880E-01
2.93500000000E+09 +1.46873247099E-02 -4.37995342784E-01 +9.93770393434E-03 +8.18376047973E-03 +9.59385115229E-03 +8.60436456409E-03 +2.25447415666E-01 -3.95597080799E-01
2.94000000000E+09 -1.83302519492E-02 -4.29606732208E-01 +1.12716099948E-02 +7.05468422870E-03 +1.11789519618E-02 +7.36972143344E-03 +1.85985022942E-01 -4.00054321966E-01
2.94500000000E+09 -5.10881875307E-02 -4.18135018639E-01 +1.33727055643E-02 +5.42441081521E-03 +1.31112752073E-02 +5.70464214028E-03 +1.44786607493E-01 -4.00474321719E-01
2.95000000000E+09 -8.49733047141E-02 -4.04454952002E-01 +1.40132405944E-02 +2.59808538614E-03 +1.39543667630E-02 +3.17115282017E-03 +1.04949023821E-01 -3.98425834501E-01
2.95500000000E+09 -1.20230931373E-01 -3.86203073329E-01 +1.38151799765E-02 +3.73555120255E-04 +1.41759978911E-02 +9.23424739110E-04 +6.47646589690E-02 -3.93849007940E-01
2.96000000000E+09 -1.53359124497E-01 -3.64595584905E-01 +1.35292687989E-02 -1.60536861111E-03 +1.41963273369E-02 -1.53316115545E-03 +2.28194206576E-02 -3.86689304465E-01
2.96500000000E+09 -1.85327744873E-01 -3.41655453095E-01 +1.31093515905E-02 -2.93906611933E-03 +1.34105955310E-02 -3.37831816180E-03 -1.89280752079E-02 -3.74518621921E-01
2.97000000000E+09 -2.15955485086E-01 -3.17165433148E-01 +1.28954775770E-02 -4.37239177565E-03 +1.26905273478E-02 -4.78623365116E-03 -6.05820208401E-02 -3.60226274578E-01
2.97500000000E+09 -2.44471612053E-01 -2.91012390054E-01 +1.31980302272E-02 -6.37194306452E-03 +1.27375734809E-02 -6.30657348149E-03 -1.00703192167E-01 -3.42465982128E-01
2.98000000000E+09 -2.71578532213E-01 -2.64408143694E-01 +1.20041987210E-02 -9.15464166775E-03 +1.18777690113E-02 -8.53237726276E-03 -1.39458760786E-01 -3.23006739178E-01
2.98500000000E+09 -2.96804172137E-01 -2.34580523005E-01 +1.02288687981E-02 -1.10697992487E-02 +1.08386030960E-02 -1.07084059171E-02 -1.76590884687E-01 -2.99775944793E-01
2.99000000000E+09 -3.18375047956E-01 -2.03439283041E-01 +8.04738214995E-03 -1.21379576421E-02 +8.63939340288E-03 -1.26212171577E-02 -2.12742095623E-01 -2.73984602551E-01
2.99500000000E+09 -3.38053032673E-01 -1.72274162558E-01 +6.30418224518E-03 -1.28061850523E-02 +6.15102213608E-03 -1.35694296825E-02 -2.46036259380E-01 -2.44619731734E-01
3.00000000000E+09 -3.57063580088E-01 -1.39360580114E-01 +4.74416113026E-03 -1.34991441981E-02 +4.00617359020E-03 -1.37776140640E-02 -2.78135446829E-01 -2.12435300029E-01
3.00500000000E+09 -3.73295166843E-01 -1.04818075806E-01 +2.86660168673E-03 -1.45225820466E-02 +2.28491666431E-03 -1.40938551402E-02 -3.06776197322E-01 -1.79221050652E-01
3.01000000000E+09 -3.87510842202E-01 -7.08031576486E-02 +2.84008137164E-04 -1.49935691041E-02 +3.17101235958E-04 -1.43211933055E-02 -3.34982350813E-01 -1.43406247475E-01
3.01500000000E+09 -3.99993980934E-01 -3.63227133818E-02 -2.28860147227E-03 -1.42875049465E-02 -1.84875533790E-03 -1.39927334750E-02 -3.58566143003E-01 -1.06880716306E-01
3.02000000000E+09 -4.09244517590E-01 -2.23447736891E-03 -4.03992126335E-03 -1.32269396759E-02 -3.73256432241E-03 -1.32772156207E-02 -3.79641619965E-01 -6.81767784161E-02
3.02500000000E+09 -4.15795892919E-01 +3.04370700048E-02 -5.25056110300E-03 -1.27104410793E-02 -5.19578928269E-03 -1.28043464041E-02 -3.96767006044E-01 -2.93986588686E-02
3.03000000000E+09 -4.19444146041E-01 +6.28800688172E-02 -7.37421185481E-03 -1.18349072307E-02 -7.20198062394E-03 -1.17536500409E-02 -4.11240061070E-01 +1.13209540433E-02
3.03500000000E+09 -4.19082489913E-01 +9.48329198511E-02 -9.14041369505E-03 -1.06554533533E-02 -8.71785819520E-03 -1.07711024740E-02 -4.22363299920E-01 +5.11463793817E-02
3.04000000000E+09 -4.15821925132E-01 +1.26195091502E-01 -1.06972622218E-02 -8.22971093195E-03 -1.05851876423E-02 -8.79256394816E-03 -4.30587731940E-01 +9.27241487759E-02
3.04500000000E+09 -4.09923423353E-01 +1.58268189609E-01 -1.05524643486E-02 -6.26606319989E-03 -1.10660001206E-02 -6.80878557634E-03 -4.35626466776E-01 +1.32631620251E-01
3.05000000000E+09 -4.01347059493E-01 +1.91235414025E-01 -1.08086552961E-02 -5.02553665246E-03 -1.16373233809E-02 -4.88851356125E-03 -4.38177113141E-01 +1.72238862444E-01
3.05500000000E+09 -3.90310148240E-01 +2.25209703469E-01 -1.10421267757E-02 -3.94165094632E-03 -1.14740242124E-02 -3.18970587449E-03 -4.38779077449E-01 +2.10637832796E-01
3.06000000000E+09 -3.77001528659E-01 +2.58813289423E-01 -1.15975100352E-02 -2.88285999019E-03 -1.12537304384E-02 -2.14741402963E-03 -4.36460342745E-01 +2.47982516738E-01
3.06500000000E+09 -3.62857204110E-01 +2.91528093125E-01 -1.25003696682E-02 -5.45950891329E-04 -1.17275160378E-02 -6.09657585682E-04 -4.32917500362E-01 +2.85269693717E-01
3.07000000000E+09 -3.48067041435E-01 +3.22539190131E-01 -1.16719388223E-02 +1.72379750374E-03 -1.13738388787E-02 +9.77051197097E-04 -4.25462589830E-01 +3.21569950300E-01
