# Hz S RI R 50
! CMT, C1220, 16058040, 17.2.0/1
! Date: 15/08/2018 10:16:10
! Data: Format (Calibration Info)
! Freq                      S11: Re/Im (F2)                       S21: Re/Im (F2)                       S12: Re/Im (F2)                       S22: Re/Im (F2)            
2.50000000000E+09 +5.96506364992E-01 +6.35041088192E-01 -1.45674169410E-04 +1.65112156838E-04 -1.11275518790E-04 +1.82471246325E-04 +5.72877859537E-01 +7.17228959219E-01
2.50500000000E+09 +6.02902713949E-01 +6.27186260641E-01 -4.23417509357E-05 +1.96139988374E-04 -3.29857353590E-05 +2.23057791408E-04 +5.78322105859E-01 +7.11686869985E-01
2.51000000000E+09 +6.09509159131E-01 +6.19009861964E-01 +1.52212843689E-06 +1.54595474539E-04 +2.37985418493E-05 +2.02181310871E-04 +5.83770277513E-01 +7.06532454695E-01
2.51500000000E+09 +6.15823524584E-01 +6.11100527917E-01 +1.39066764403E-05 +1.37405035463E-04 +1.98273296805E-05 +1.57478062713E-04 +5.89002594630E-01 +7.01408329673E-01
2.52000000000E+09 +6.21735317025E-01 +6.03376326356E-01 +6.47076771212E-05 +1.17364666099E-04 +6.26704177869E-05 +1.44526510317E-04 +5.94248313743E-01 +6.95307689577E-01
2.52500000000E+09 +6.27049090576E-01 +5.96099384269E-01 +8.71552441023E-05 +1.01660625523E-04 +6.51793129538E-05 +8.56154611877E-05 +5.99886050946E-01 +6.89002512077E-01
2.53000000000E+09 +6.31768904473E-01 +5.89260974841E-01 +4.20227809628E-05 +1.30146785857E-04 +6.25397501143E-05 +1.13687655539E-04 +6.06078999034E-01 +6.82190721895E-01
2.53500000000E+09 +6.36285093499E-01 +5.83097862607E-01 +8.75066410503E-05 +5.81530886502E-05 +7.73238097555E-05 +2.22891357290E-05 +6.12214441946E-01 +6.75397881799E-01
2.54000000000E+09 +6.40450085357E-01 +5.76971402292E-01 +2.80374720885E-05 +3.47454639514E-05 +2.81750248288E-05 +7.19378586850E-05 +6.18122986968E-01 +6.68525856274E-01
2.54500000000E+09 +6.44674643225E-01 +5.71159483762E-01 +8.69606010251E-05 +1.19182553000E-04 +3.93548471515E-05 +1.46631276664E-04 +6.24007109100E-01 +6.62197098020E-01
2.55000000000E+09 +6.49530608494E-01 +5.65328474322E-01 +1.47615904629E-04 +8.36404842593E-05 +1.52788221680E-04 +1.00159930072E-04 +6.29413966824E-01 +6.55848554168E-01
2.55500000000E+09 +6.55252436442E-01 +5.58248229205E-01 +2.10306065860E-04 +4.68587216315E-06 +2.54317925251E-04 +1.32039784293E-05 +6.34737278139E-01 +6.49305182325E-01
2.56000000000E+09 +6.61258220905E-01 +5.50902887359E-01 +1.31906846901E-04 -1.34791058709E-04 +2.09406462003E-04 -1.24064869789E-04 +6.40028379862E-01 +6.42161327347E-01
2.56500000000E+09 +6.67543710686E-01 +5.42357692747E-01 -3.92267778712E-05 -1.80642466503E-04 -6.48285413144E-05 -1.68686107862E-04 +6.45530875846E-01 +6.34436414901E-01
2.57000000000E+09 +6.73745514333E-01 +5.33642512773E-01 -1.30479795002E-04 +3.07144329319E-05 -1.26883522342E-04 +5.11138677450E-05 +6.50883406464E-01 +6.26410068380E-01
2.57500000000E+09 +6.79785568757E-01 +5.24634813486E-01 -5.17464747353E-05 +8.40053429118E-05 -3.53835986533E-05 +8.48666143161E-05 +6.56198476737E-01 +6.18608164667E-01
2.58000000000E+09 +6.85207622652E-01 +5.15643326301E-01 +4.71692761516E-05 +8.76539126635E-05 +4.69478418849E-05 +8.05690097263E-05 +6.61189685700E-01 +6.11347581911E-01
2.58500000000E+09 +6.90425612774E-01 +5.06790431249E-01 +9.45438614175E-05 +3.75010416858E-05 +5.19320246939E-05 +1.47387405118E-05 +6.66194249788E-01 +6.03729444970E-01
2.59000000000E+09 +6.94922803242E-01 +4.98205170773E-01 +2.01165071468E-05 +4.91491569603E-05 -5.24395374511E-06 +1.49866119923E-06 +6.70901795410E-01 +5.96053205345E-01
2.59500000000E+09 +6.99146855113E-01 +4.89631249904E-01 -1.31195202966E-05 +9.77978276518E-05 -1.42065484246E-05 +1.02995599415E-04 +6.75680547447E-01 +5.88021751708E-01
2.60000000000E+09 +7.03184008551E-01 +4.80891628950E-01 +3.87840631059E-05 +1.09822359370E-04 +9.99873835676E-06 +1.16833136340E-04 +6.80666581701E-01 +5.79530352526E-01
2.60500000000E+09 +7.07307536286E-01 +4.71523207261E-01 +3.27900069396E-05 +9.68769430807E-05 -4.81296904034E-05 +7.83654521864E-05 +6.85776823570E-01 +5.70939002481E-01
2.61000000000E+09 +7.11499305291E-01 +4.61177187772E-01 +1.12532282476E-04 +1.50167222428E-04 +1.09097985437E-04 +1.45891009832E-04 +6.91022953215E-01 +5.62207657152E-01
2.61500000000E+09 +7.16054585540E-01 +4.49810688806E-01 +1.51008156859E-04 +7.87732420909E-05 +1.38833955055E-04 +1.06833338835E-04 +6.95895107122E-01 +5.53341380937E-01
2.62000000000E+09 +7.20019715008E-01 +4.37374772796E-01 +7.17000371903E-05 +1.29807075822E-04 +9.57916207503E-05 +9.77490428252E-05 +7.00678413875E-01 +5.44287223849E-01
2.62500000000E+09 +7.23889563879E-01 +4.24150073929E-01 +1.67392849406E-04 +1.42143232123E-04 +2.04015607658E-04 +1.77582502257E-04 +7.05381311934E-01 +5.35332371255E-01
2.63000000000E+09 +7.27656637528E-01 +4.10675456870E-01 +1.92460891327E-04 +8.78126224873E-05 +2.01797851473E-04 +8.28204653036E-05 +7.10161345710E-01 +5.26098500552E-01
2.63500000000E+09 +7.30676111947E-01 +3.97270763889E-01 +2.75074036294E-04 +8.77896502174E-05 +2.50795742367E-04 +4.34701238874E-05 +7.15117231592E-01 +5.16739324134E-01
2.64000000000E+09 +7.33581492885E-01 +3.84464226384E-01 +3.14123815451E-04 +5.05120150775E-06 +2.53462766848E-04 -1.37995983434E-05 +7.19990000710E-01 +5.06841500657E-01
2.64500000000E+09 +7.36410560199E-01 +3.72437906702E-01 +2.76930490734E-04 -4.89082291088E-05 +2.30301670301E-04 -4.46516881152E-05 +7.24672947350E-01 +4.96886237067E-01
2.65000000000E+09 +7.38755448035E-01 +3.60841446719E-01 +2.49573414686E-04 -3.94784236667E-05 +2.44966228612E-04 +7.06845093340E-06 +7.28767320340E-01 +4.86581857339E-01
2.65500000000E+09 +7.41083853561E-01 +3.49837821513E-01 +2.99755934728E-04 -1.69704578164E-05 +3.14439258421E-04 -3.24626578150E-05 +7.32660029094E-01 +4.76152033693E-01
2.66000000000E+09 +7.43924606421E-01 +3.39000004141E-01 +3.19727159010E-04 -1.32106344247E-04 +3.50614242702E-04 -8.81373505235E-05 +7.36506261343E-01 +4.64844603973E-01
2.66500000000E+09 +7.46653058050E-01 +3.27635837772E-01 +3.61536392911E-04 -1.65866373989E-04 +3.56068485667E-04 -1.50401874183E-04 +7.40216365126E-01 +4.53717337284E-01
2.67000000000E+09 +7.48642762916E-01 +3.15491144128E-01 +3.03030760398E-04 -3.93307528520E-04 +2.56855987171E-04 -3.63337192819E-04 +7.44259657743E-01 +4.42911394167E-01
2.67500000000E+09 +7.50301392067E-01 +3.02688531543E-01 +8.26940154696E-05 -2.78364283730E-04 +7.33623684294E-05 -2.80291580665E-04 +7.48447457710E-01 +4.31736768272E-01
2.68000000000E+09 +7.51532223116E-01 +2.89095468707E-01 +1.89863616031E-04 -2.29127639575E-04 +1.65238506974E-04 -2.15802610271E-04 +7.52093824011E-01 +4.20401426985E-01
2.68500000000E+09 +7.52175037343E-01 +2.75075657467E-01 +1.43729506128E-04 -2.57406653930E-04 +1.60377201102E-04 -2.36298315789E-04 +7.54752852111E-01 +4.08689401270E-01
2.69000000000E+09 +7.52483773906E-01 +2.60839879549E-01 +1.49311379413E-04 -2.64038972008E-04 +1.96708527883E-04 -2.88304422477E-04 +7.56998601767E-01 +3.97064348900E-01
2.69500000000E+09 +7.52449755412E-01 +2.46670703553E-01 +8.61496020640E-05 -3.00326949363E-04 +7.56461090520E-05 -3.11831572930E-04 +7.59429041052E-01 +3.84749362944E-01
2.70000000000E+09 +7.52464057670E-01 +2.32688990792E-01 +1.36934617845E-04 -3.06429549487E-04 +1.23401296500E-04 -3.15948819835E-04 +7.62515469758E-01 +3.71456230884E-01
2.70500000000E+09 +7.52625263442E-01 +2.19330963657E-01 +1.46116072299E-04 -3.68000333254E-04 +1.91456125260E-04 -3.38553147945E-04 +7.64940007123E-01 +3.57950839151E-01
2.71000000000E+09 +7.53586348000E-01 +2.05944771594E-01 +6.11783447381E-05 -5.55329438712E-04 +9.47599778347E-05 -5.93591778535E-04 +7.67634485991E-01 +3.45105443236E-01
2.71500000000E+09 +7.55140264748E-01 +1.91750843470E-01 -1.47832911760E-04 -5.08606969808E-04 -1.82655399135E-04 -5.29717395719E-04 +7.70040519709E-01 +3.32616730920E-01
2.72000000000E+09 +7.56216597093E-01 +1.76797782118E-01 -1.98286744988E-04 -4.19034321298E-04 -2.29276143344E-04 -4.21642836314E-04 +7.72084925417E-01 +3.19994429523E-01
2.72500000000E+09 +7.56584250019E-01 +1.60879212408E-01 -1.36664118563E-04 -3.50154091013E-04 -1.30693288800E-04 -3.41169238296E-04 +7.73182035813E-01 +3.06932314373E-01
2.73000000000E+09 +7.55670857293E-01 +1.44667016489E-01 -1.53210753793E-04 -5.48551646468E-04 -1.83830050137E-04 -4.72263305860E-04 +7.74323013619E-01 +2.93206444151E-01
2.73500000000E+09 +7.53646213906E-01 +1.27955362623E-01 -3.23960242755E-04 -4.77508162809E-04 -2.53072872392E-04 -4.43820063226E-04 +7.75501196492E-01 +2.78669589090E-01
2.74000000000E+09 +7.50837677408E-01 +1.11288032867E-01 -5.22218008417E-04 -3.90694801708E-04 -4.33196211098E-04 -3.85657253021E-04 +7.76947830890E-01 +2.63825538675E-01
2.74500000000E+09 +7.47109673253E-01 +9.40941822970E-02 -4.85406872716E-04 -2.08190036678E-04 -4.21059515692E-04 -2.84713013835E-04 +7.78160675223E-01 +2.48642236503E-01
2.75000000000E+09 +7.41750268920E-01 +7.70043948167E-02 -3.21864852534E-04 -2.15831122703E-04 -2.69782032769E-04 -2.08711332757E-04 +7.79052683247E-01 +2.33785590359E-01
2.75500000000E+09 +7.36061706885E-01 +6.05273581862E-02 -3.09923135748E-04 -3.73196830178E-04 -3.20763955182E-04 -4.29620276062E-04 +7.79090236406E-01 +2.18553757169E-01
2.76000000000E+09 +7.30481937847E-01 +4.45115474072E-02 -6.10859431182E-04 -3.96916019570E-04 -6.62749731004E-04 -4.41020152042E-04 +7.78444284065E-01 +2.03294583706E-01
2.76500000000E+09 +7.25540262125E-01 +2.79206539558E-02 -7.93056726352E-04 -2.47125056469E-04 -8.32620026751E-04 -1.57532185812E-04 +7.77694007215E-01 +1.86589206541E-01
2.77000000000E+09 +7.20654849736E-01 +1.02889993449E-02 -7.26924194705E-04 -8.61709557102E-06 -7.89811111262E-04 +5.00770030922E-05 +7.76361931767E-01 +1.69158134498E-01
2.77500000000E+09 +7.15733181182E-01 -8.30140655565E-03 -6.26562459886E-04 +9.38047978469E-05 -6.52566675108E-04 +6.62357610185E-05 +7.74471553494E-01 +1.51292117397E-01
2.78000000000E+09 +7.10112592990E-01 -2.78389528671E-02 -7.62980276033E-04 +1.26282583620E-04 -8.09966979485E-04 +1.83910291454E-04 +7.72720798872E-01 +1.33638120752E-01
2.78500000000E+09 +7.03389255497E-01 -4.76906686065E-02 -6.30376525105E-04 +2.82419651346E-04 -5.99288689468E-04 +3.58489126568E-04 +7.70462166156E-01 +1.15790571690E-01
2.79000000000E+09 +6.96534286119E-01 -6.78549351655E-02 -6.46167527989E-04 +3.09208114802E-04 -5.49374774191E-04 +2.72542300698E-04 +7.67171366960E-01 +9.83947827324E-02
2.79500000000E+09 +6.88346819777E-01 -8.85506330286E-02 -6.94360587651E-04 +4.78313006748E-04 -6.32940349335E-04 +4.42810171607E-04 +7.63059092741E-01 +8.06635064449E-02
2.80000000000E+09 +6.77787372905E-01 -1.08819569527E-01 -3.53923845591E-04 +5.83821315654E-04 -3.40540099159E-04 +5.42514545393E-04 +7.58616388783E-01 +6.23841815745E-02
2.80500000000E+09 +6.66279569700E-01 -1.27103019615E-01 -3.19895836605E-04 +3.01355765287E-04 -3.32277483963E-04 +2.67039350418E-04 +7.53010034135E-01 +4.32897306709E-02
2.81000000000E+09 +6.54032999344E-01 -1.44212750186E-01 -5.00777193267E-04 +1.82591393425E-04 -4.99480202198E-04 +2.16843858116E-04 +7.46503050368E-01 +2.38899498076E-02
2.81500000000E+09 +6.41415309093E-01 -1.60603116015E-01 -6.43071392028E-04 +3.92566504811E-04 -6.41565061626E-04 +3.78813692581E-04 +7.39590812621E-01 +4.60413472619E-03
2.82000000000E+09 +6.27849399747E-01 -1.76910598949E-01 -8.13036525583E-04 +6.72007484198E-04 -8.06765455433E-04 +7.44170510945E-04 +7.32584458735E-01 -1.51683912731E-02
2.82500000000E+09 +6.13717968630E-01 -1.93557087580E-01 -3.31034621178E-04 +1.07818216573E-03 -2.66511089386E-04 +1.10473782014E-03 +7.23465777898E-01 -3.52548183900E-02
2.83000000000E+09 +5.97020527838E-01 -2.10910501892E-01 -1.06637341756E-04 +7.55492853316E-04 -4.85023462689E-05 +7.20592941461E-04 +7.13942174375E-01 -5.47388318650E-02
2.83500000000E+09 +5.79123110326E-01 -2.27887428529E-01 -3.26945290379E-04 +7.71685612932E-04 -3.14236070837E-04 +7.19351237881E-04 +7.03282590945E-01 -7.48151809588E-02
2.84000000000E+09 +5.60039412461E-01 -2.45021399123E-01 -1.30821489535E-04 +9.03621683939E-04 -1.45292830477E-04 +9.01360407472E-04 +6.92193073375E-01 -9.48956169450E-02
2.84500000000E+09 +5.39284047848E-01 -2.63109120446E-01 -2.91574904574E-04 +8.42624221634E-04 -3.09617266491E-04 +8.36072887319E-04 +6.80078938943E-01 -1.15544007147E-01
2.85000000000E+09 +5.16750293094E-01 -2.81054573380E-01 -1.10241788817E-04 +1.43408051120E-03 -3.23106939702E-06 +1.40904930220E-03 +6.66748978445E-01 -1.36646965797E-01
2.85500000000E+09 +4.92307242273E-01 -2.98687048614E-01 +6.08244402504E-04 +1.13070135015E-03 +6.30008654972E-04 +1.13505711539E-03 +6.51900491016E-01 -1.57081181026E-01
2.86000000000E+09 +4.66840590362E-01 -3.14398922567E-01 +3.45820101376E-04 +6.90838763399E-04 +3.39253726731E-04 +6.52336328266E-04 +6.36383495890E-01 -1.77488918493E-01
2.86500000000E+09 +4.41812077411E-01 -3.28480863425E-01 +4.00903468741E-05 +1.14115155907E-03 +3.27617043498E-05 +1.13677361790E-03 +6.19195805334E-01 -1.98259254389E-01
2.87000000000E+09 +4.16792905995E-01 -3.42069712149E-01 +7.78359483745E-04 +1.27868349766E-03 +7.91434344143E-04 +1.30287069857E-03 +6.00576492697E-01 -2.18709503434E-01
2.87500000000E+09 +3.91537800422E-01 -3.55262391178E-01 +8.85012328257E-04 +1.12331077629E-03 +8.26144269421E-04 +1.08192606528E-03 +5.80245858307E-01 -2.38679856837E-01
2.88000000000E+09 +3.64344259615E-01 -3.67215452420E-01 +1.13467794459E-03 +9.64919265461E-04 +1.12080412572E-03 +8.96210246698E-04 +5.59310033841E-01 -2.57692631294E-01
2.88500000000E+09 +3.36394075462E-01 -3.77063111942E-01 +1.30793750959E-03 +7.94778213622E-04 +1.21260235141E-03 +7.46171408275E-04 +5.36764930926E-01 -2.77169418262E-01
2.89000000000E+09 +3.07546884152E-01 -3.84595505876E-01 +1.26387875331E-03 +5.41686385598E-04 +1.14995449568E-03 +5.56562188529E-04 +5.11240232392E-01 -2.95480165884E-01
2.89500000000E+09 +2.78675040451E-01 -3.91019525889E-01 +1.31114257047E-03 +7.67377996120E-04 +1.20818381555E-03 +8.05962365920E-04 +4.84575089722E-01 -3.12847995058E-01
2.90000000000E+09 +2.47766023714E-01 -3.96223032731E-01 +2.05569731591E-03 +6.92346522570E-04 +2.03746799966E-03 +7.48372406101E-04 +4.56059685222E-01 -3.30025666418E-01
2.90500000000E+09 +2.14571915255E-01 -3.99795088464E-01 +2.06110984754E-03 -3.04641906238E-04 +2.10147969599E-03 -2.66151462704E-04 +4.25383771723E-01 -3.45895019711E-01
2.91000000000E+09 +1.79384274287E-01 -3.99441694613E-01 +1.61800243032E-03 -3.94816085219E-04 +1.58755772433E-03 -4.52154299456E-04 +3.93799503502E-01 -3.59897386927E-01
2.91500000000E+09 +1.45064948910E-01 -3.95901083350E-01 +1.96242721910E-03 -2.77676248786E-04 +1.78378381909E-03 -3.84491722017E-04 +3.61265773725E-01 -3.72056225872E-01
2.92000000000E+09 +1.11630791863E-01 -3.90353858719E-01 +1.98622534804E-03 -1.21987837603E-03 +1.87648471984E-03 -1.13399260718E-03 +3.27339517655E-01 -3.82483285947E-01
2.92500000000E+09 +7.76277586796E-02 -3.84559398991E-01 +1.26111513378E-03 -1.40824774333E-03 +1.17696326294E-03 -1.26905807220E-03 +2.91114704764E-01 -3.90823037969E-01
2.93000000000E+09 +4.28754659727E-02 -3.75298834757E-01 +1.20475840506E-03 -1.12109295506E-03 +1.24695388233E-03 -1.06388089660E-03 +2.53266283163E-01 -3.96601177840E-01
2.93500000000E+09 +9.87498166743E-03 -3.63785319803E-01 +1.44375594141E-03 -1.42993516304E-03 +1.52176376786E-03 -1.36146645199E-03 +2.14677064244E-01 -4.00590059800E-01
2.94000000000E+09 -2.22683743925E-02 -3.50475079430E-01 +1.17011985744E-03 -1.99557020383E-03 +1.20181208137E-03 -1.92793346742E-03 +1.75255229731E-01 -4.02134476485E-01
2.94500000000E+09 -5.33286957879E-02 -3.36485658918E-01 +7.29986299037E-04 -2.07554825285E-03 +7.73043029609E-04 -2.10404642889E-03 +1.35833871360E-01 -4.02227568070E-01
2.95000000000E+09 -8.56700274884E-02 -3.19532423951E-01 +3.05097079241E-04 -2.29338299585E-03 +4.25748199258E-04 -2.32556859698E-03 +9.54305840641E-02 -3.99105628512E-01
2.95500000000E+09 -1.16590978159E-01 -2.98366573533E-01 +1.18447061723E-04 -2.05093880023E-03 +2.50439606580E-04 -2.13353472724E-03 +5.51956373644E-02 -3.92472288537E-01
2.96000000000E+09 -1.44009844526E-01 -2.73994353477E-01 -3.33548977767E-04 -2.70653500526E-03 -2.86285082769E-04 -2.85239393467E-03 +1.54861280846E-02 -3.82812953257E-01
2.96500000000E+09 -1.69646690891E-01 -2.49584816288E-01 -1.33776213604E-03 -2.09258172090E-03 -1.46596201795E-03 -2.15399044515E-03 -2.47359833911E-02 -3.71227886805E-01
2.97000000000E+09 -1.93911045361E-01 -2.22553144916E-01 -1.26687054891E-03 -1.52853369625E-03 -1.30381975298E-03 -1.48455695089E-03 -6.60251995239E-02 -3.55721764341E-01
2.97500000000E+09 -2.17239720881E-01 -1.94508582208E-01 -9.91086342825E-04 -1.33629365071E-03 -9.57324643869E-04 -1.34871689647E-03 -1.04481659290E-01 -3.36969680527E-01
2.98000000000E+09 -2.38875584245E-01 -1.63902105456E-01 -1.40521754417E-03 -1.82023997890E-03 -1.30992452532E-03 -1.79478867219E-03 -1.42241996507E-01 -3.17336018316E-01
2.98500000000E+09 -2.58489139272E-01 -1.32568220490E-01 -2.04273357136E-03 -1.31775405139E-03 -2.02682537517E-03 -1.39929622036E-03 -1.78698504457E-01 -2.93900878565E-01
2.99000000000E+09 -2.75587652138E-01 -9.99769193730E-02 -2.12785894078E-03 -6.81554076335E-04 -2.27386890888E-03 -6.76614074938E-04 -2.13497852195E-01 -2.68985805820E-01
2.99500000000E+09 -2.91197938496E-01 -6.81471098547E-02 -1.84619575128E-03 -3.74937141547E-04 -1.97606849716E-03 -3.01042396503E-04 -2.47762961086E-01 -2.39675077501E-01
3.00000000000E+09 -3.04970113276E-01 -3.60781061314E-02 -1.75198403999E-03 -1.42744033501E-04 -1.72440667097E-03 -7.94498185501E-05 -2.78918487371E-01 -2.07230599214E-01
3.00500000000E+09 -3.17371272296E-01 -3.95972112493E-03 -1.79299793803E-03 -1.95312618343E-04 -1.73153821024E-03 -1.01780068291E-04 -3.07573333145E-01 -1.73753733732E-01
3.01000000000E+09 -3.26552691554E-01 +2.82884630409E-02 -2.32059038499E-03 +1.63546288472E-05 -2.13983540236E-03 +3.32112135807E-05 -3.34779908146E-01 -1.38273575519E-01
3.01500000000E+09 -3.33064111662E-01 +6.00943904013E-02 -2.06287707195E-03 +1.00230329965E-03 -2.02357758614E-03 +8.78983467037E-04 -3.58479073122E-01 -1.00400697364E-01
3.02000000000E+09 -3.36268242004E-01 +9.11380664148E-02 -1.32504739770E-03 +1.21426558909E-03 -1.36211863717E-03 +1.22275894716E-03 -3.77650844375E-01 -6.15643251985E-02
3.02500000000E+09 -3.36822969003E-01 +1.21331977841E-01 -7.60326586992E-04 +9.54810725019E-04 -7.66543344737E-04 +9.94096373214E-04 -3.93198293075E-01 -2.20127934187E-02
3.03000000000E+09 -3.35039342964E-01 +1.50816883113E-01 -1.23145285521E-03 +4.00113065934E-04 -1.24304676862E-03 +3.58154355019E-04 -4.06404172142E-01 +1.67943111610E-02
3.03500000000E+09 -3.30973783848E-01 +1.80626590701E-01 -1.69117911216E-03 +1.02408595408E-03 -1.74820716457E-03 +9.54243967913E-04 -4.17618858705E-01 +5.73760228986E-02
3.04000000000E+09 -3.23433953726E-01 +2.09851102935E-01 -1.33068800097E-03 +1.93211010527E-03 -1.43836916017E-03 +1.94990450970E-03 -4.25282735715E-01 +9.80964072561E-02
3.04500000000E+09 -3.14651711877E-01 +2.38198197881E-01 -2.23415918841E-04 +1.92368991189E-03 -2.88790822906E-04 +1.96863824280E-03 -4.30480742841E-01 +1.38518408144E-01
3.05000000000E+09 -3.04305597941E-01 +2.66120660470E-01 -2.86554425156E-04 +1.27131755379E-03 -2.73715240794E-04 +1.36800247617E-03 -4.32338396820E-01 +1.78230048129E-01
3.05500000000E+09 -2.92917365061E-01 +2.93674698681E-01 -2.69815286974E-04 +1.61831150597E-03 -2.52645034026E-04 +1.65192778555E-03 -4.32047113063E-01 +2.16781539996E-01
3.06000000000E+09 -2.80089267279E-01 +3.20678548591E-01 -2.28308361206E-04 +1.75832688528E-03 -9.62501937751E-05 +1.72866803656E-03 -4.29057145703E-01 +2.54841499401E-01
3.06500000000E+09 -2.66545433446E-01 +3.46596176648E-01 +8.47544120827E-04 +1.87964851661E-03 +7.49077726047E-04 +1.76690233969E-03 -4.23937072418E-01 +2.91181218714E-01
3.07000000000E+09 -2.51824126229E-01 +3.71021561695E-01 +9.43248365519E-04 +1.15435150071E-03 +9.35770287916E-04 +1.15830869675E-03 -4.17188774254E-01 +3.26562307305E-01
