# Hz S RI R 50
! CMT, C1220, 16058040, 17.2.0/1
! Date: 15/08/2018 09:49:57
! Data: Format (Calibration Info)
! Freq                      S11: Re/Im (F2)                       S21: Re/Im (F2)                       S12: Re/Im (F2)                       S22: Re/Im (F2)            
2.50000000000E+09 +5.76517897462E-01 +6.69741910728E-01 +1.03697508308E-04 -1.41227411310E-03 +1.02702276463E-04 -1.50354107553E-03 +5.75069433728E-01 +7.17904996416E-01
2.50500000000E+09 +5.83395403160E-01 +6.62255884283E-01 +4.21256512586E-06 -1.49277418138E-03 -7.70401158141E-05 -1.56648477383E-03 +5.80501281308E-01 +7.12629295914E-01
2.51000000000E+09 +5.90693359835E-01 +6.54193621926E-01 -2.24015171580E-04 -1.57727317429E-03 -2.92337595244E-04 -1.53001313066E-03 +5.85983350652E-01 +7.07248783704E-01
2.51500000000E+09 +5.97740868513E-01 +6.46026891569E-01 -3.68634358667E-04 -1.54002962455E-03 -4.05101048481E-04 -1.51116371418E-03 +5.91241596306E-01 +7.01801580561E-01
2.52000000000E+09 +6.04744268577E-01 +6.37438923219E-01 -6.04439371362E-04 -1.54295271594E-03 -5.35261137247E-04 -1.50247200524E-03 +5.96493308744E-01 +6.95651292266E-01
2.52500000000E+09 +6.10775843504E-01 +6.28954183121E-01 -7.45934670903E-04 -1.41915533649E-03 -6.54880456674E-04 -1.47711427038E-03 +6.02398556553E-01 +6.89147026472E-01
2.53000000000E+09 +6.16479752844E-01 +6.20746470288E-01 -8.28742289387E-04 -1.39044187679E-03 -8.13086652979E-04 -1.37616316871E-03 +6.08690666743E-01 +6.82083367442E-01
2.53500000000E+09 +6.21601057794E-01 +6.12614500350E-01 -9.47893860146E-04 -1.31458758525E-03 -9.95297851322E-04 -1.32390651019E-03 +6.14629504906E-01 +6.75568156927E-01
2.54000000000E+09 +6.26186079108E-01 +6.04654019313E-01 -1.12581729795E-03 -1.28744783487E-03 -1.08219003823E-03 -1.27367561310E-03 +6.20393619390E-01 +6.68992626054E-01
2.54500000000E+09 +6.30676184258E-01 +5.97387089852E-01 -1.27253773184E-03 -1.20091537795E-03 -1.23187861266E-03 -1.30657268186E-03 +6.25998640326E-01 +6.62715071635E-01
2.55000000000E+09 +6.35601995356E-01 +5.90235568094E-01 -1.40012467954E-03 -1.03277585049E-03 -1.42472944773E-03 -1.21762960882E-03 +6.31199149060E-01 +6.56273903638E-01
2.55500000000E+09 +6.41424650781E-01 +5.82382009518E-01 -1.52661051585E-03 -8.32300980792E-04 -1.72212581672E-03 -1.10669691787E-03 +6.36559856596E-01 +6.49704462775E-01
2.56000000000E+09 +6.47776531774E-01 +5.74490741726E-01 -1.54903080477E-03 -6.98651732128E-04 -1.86277262700E-03 -6.56154018378E-04 +6.42240630928E-01 +6.42121959883E-01
2.56500000000E+09 +6.54633854247E-01 +5.65738450487E-01 -1.52131968209E-03 -6.34040536159E-04 -1.80097096605E-03 -4.14607232369E-04 +6.48024592607E-01 +6.34643170248E-01
2.57000000000E+09 +6.61673872177E-01 +5.56569142848E-01 -1.61422027458E-03 -5.67099576128E-04 -1.71658160913E-03 -2.21242797020E-04 +6.53409886589E-01 +6.26923626975E-01
2.57500000000E+09 +6.68879731466E-01 +5.47010251331E-01 -1.66621472303E-03 -5.32943751072E-04 -1.53180468188E-03 -1.88346454076E-04 +6.58688854524E-01 +6.19731218992E-01
2.58000000000E+09 +6.75237095966E-01 +5.37103509466E-01 -1.91138565488E-03 -3.33870030212E-04 -1.63620424995E-03 -1.73183830941E-04 +6.63621714217E-01 +6.12223191856E-01
2.58500000000E+09 +6.81161738792E-01 +5.27043411566E-01 -1.85756422119E-03 +7.80261377421E-05 -1.62565305785E-03 -2.16944458700E-05 +6.68413310470E-01 +6.04512733004E-01
2.59000000000E+09 +6.86423926421E-01 +5.17526569703E-01 -1.57924475953E-03 +6.63686132169E-05 -1.54388246574E-03 -2.00367717225E-05 +6.73356992434E-01 +5.96566488934E-01
2.59500000000E+09 +6.91340127982E-01 +5.07551871198E-01 -1.67881052227E-03 -6.73122012607E-05 -1.69697658809E-03 -1.73802222221E-04 +6.78459780561E-01 +5.87804889286E-01
2.60000000000E+09 +6.95219888047E-01 +4.97964090420E-01 -1.94186947026E-03 +8.34612064899E-05 -1.96950106215E-03 -3.34553033287E-05 +6.83530219960E-01 +5.79173015216E-01
2.60500000000E+09 +6.99407125577E-01 +4.88429298121E-01 -2.09697312112E-03 +2.42925778751E-04 -2.10672087019E-03 +2.30992125116E-04 +6.88633976922E-01 +5.70668216234E-01
2.61000000000E+09 +7.03877259924E-01 +4.78310740001E-01 -2.35863896335E-03 +6.22334392525E-04 -2.33998159194E-03 +5.23851415179E-04 +6.93523360952E-01 +5.62027292158E-01
2.61500000000E+09 +7.08446130547E-01 +4.67639992591E-01 -2.17330587252E-03 +1.20824624092E-03 -2.24518761352E-03 +1.21794608697E-03 +6.97809599033E-01 +5.53706625148E-01
2.62000000000E+09 +7.13175223772E-01 +4.55937016735E-01 -1.67845928803E-03 +1.25714567424E-03 -1.77210258978E-03 +1.37627332471E-03 +7.02395057161E-01 +5.44998791317E-01
2.62500000000E+09 +7.17936036442E-01 +4.42988147659E-01 -1.65290291573E-03 +1.10254205232E-03 -1.62837565318E-03 +1.32364874035E-03 +7.07328551067E-01 +5.35623646261E-01
2.63000000000E+09 +7.22278745536E-01 +4.29612907859E-01 -1.75691883959E-03 +1.26212192603E-03 -1.54690546919E-03 +1.43756201424E-03 +7.12073674390E-01 +5.26176649856E-01
2.63500000000E+09 +7.26197658581E-01 +4.15892139489E-01 -1.78149648838E-03 +1.36680572724E-03 -1.48071037451E-03 +1.42522688217E-03 +7.17243103626E-01 +5.16830848447E-01
2.64000000000E+09 +7.29715245268E-01 +4.02168327705E-01 -1.99922414218E-03 +1.73656479955E-03 -1.60453495556E-03 +1.57499263940E-03 +7.22115004818E-01 +5.07199522001E-01
2.64500000000E+09 +7.32700098385E-01 +3.88957018085E-01 -1.57114173202E-03 +2.38605808934E-03 -1.55417327025E-03 +1.98098338717E-03 +7.26614288711E-01 +4.97806849870E-01
2.65000000000E+09 +7.35456639820E-01 +3.76639349122E-01 -9.71370985850E-04 +2.34680987147E-03 -1.24319588255E-03 +2.11314598310E-03 +7.30739171240E-01 +4.88340170988E-01
2.65500000000E+09 +7.38165375964E-01 +3.64196144385E-01 -8.02669156373E-04 +2.16199140743E-03 -1.08751545172E-03 +2.13974090196E-03 +7.34787498459E-01 +4.77699681046E-01
2.66000000000E+09 +7.40995705303E-01 +3.52241419020E-01 -9.34136983339E-04 +2.23403998822E-03 -9.73403719017E-04 +2.38029374442E-03 +7.38764138034E-01 +4.66606025143E-01
2.66500000000E+09 +7.43941169660E-01 +3.40105147017E-01 -7.40176686772E-04 +2.51675624822E-03 -6.30960563062E-04 +2.63176022988E-03 +7.43344533928E-01 +4.55125394720E-01
2.67000000000E+09 +7.46695848660E-01 +3.26880135519E-01 -3.44989231239E-04 +2.62950725376E-03 -2.17670641990E-04 +2.55517845097E-03 +7.47885993441E-01 +4.43887294535E-01
2.67500000000E+09 +7.48726564719E-01 +3.13140720367E-01 -9.92514714991E-05 +2.54634595032E-03 -8.25411686689E-05 +2.34961946068E-03 +7.51970327278E-01 +4.32530986764E-01
2.68000000000E+09 +7.50583344509E-01 +2.98687362796E-01 -7.15064674582E-05 +2.39935860307E-03 -1.22208333689E-04 +2.25392705311E-03 +7.55474391401E-01 +4.21888366837E-01
2.68500000000E+09 +7.51632280037E-01 +2.83439694243E-01 -2.10488152830E-04 +2.55619621705E-03 -3.15197153890E-04 +2.49281028334E-03 +7.58719728985E-01 +4.10415061962E-01
2.69000000000E+09 +7.52118105103E-01 +2.68070445411E-01 -5.84101095866E-05 +3.06438220428E-03 -9.73007516628E-05 +3.04599691729E-03 +7.61022717958E-01 +3.98212290178E-01
2.69500000000E+09 +7.52420584568E-01 +2.52660434936E-01 +6.92930625183E-04 +3.27303159176E-03 +6.77627666575E-04 +3.19776034691E-03 +7.63797708899E-01 +3.85451055936E-01
2.70000000000E+09 +7.52598446245E-01 +2.36918548270E-01 +1.15713394570E-03 +3.01654368985E-03 +1.10587095271E-03 +2.94534519169E-03 +7.66910035513E-01 +3.71876129864E-01
2.70500000000E+09 +7.52358208729E-01 +2.21835361763E-01 +1.41747491420E-03 +2.57190699730E-03 +1.27646291122E-03 +2.62059808366E-03 +7.69815049658E-01 +3.58158498673E-01
2.71000000000E+09 +7.52478893727E-01 +2.07056015087E-01 +1.40028844296E-03 +2.46477295948E-03 +1.32678253807E-03 +2.58701870680E-03 +7.72343926666E-01 +3.45446619602E-01
2.71500000000E+09 +7.53024217278E-01 +1.92000031384E-01 +1.25910493652E-03 +2.47914234268E-03 +1.29405842968E-03 +2.57142804069E-03 +7.75155731120E-01 +3.33062971631E-01
2.72000000000E+09 +7.53489084073E-01 +1.76927256167E-01 +1.48241087340E-03 +2.96514351175E-03 +1.72376541237E-03 +3.01393217949E-03 +7.77306026863E-01 +3.20122672741E-01
2.72500000000E+09 +7.54056059271E-01 +1.61475828748E-01 +2.13053710681E-03 +2.86825809824E-03 +2.39808524144E-03 +2.60169896074E-03 +7.78272425533E-01 +3.06224190035E-01
2.73000000000E+09 +7.53855260523E-01 +1.45296994591E-01 +2.31328694675E-03 +2.71271862391E-03 +2.36833859532E-03 +2.26326883661E-03 +7.79535298738E-01 +2.91839593665E-01
2.73500000000E+09 +7.52745840524E-01 +1.28276651700E-01 +2.65414412258E-03 +2.81751468054E-03 +2.35892482550E-03 +2.43438323856E-03 +7.80378582013E-01 +2.76855776103E-01
2.74000000000E+09 +7.50535543847E-01 +1.11174394017E-01 +3.52517227742E-03 +2.66325145519E-03 +2.90589526335E-03 +2.58731133249E-03 +7.82041970597E-01 +2.62378168948E-01
2.74500000000E+09 +7.46896326611E-01 +9.33933077618E-02 +3.80299326303E-03 +1.98878572631E-03 +3.36155261043E-03 +2.35297665533E-03 +7.83360655318E-01 +2.47114639831E-01
2.75000000000E+09 +7.41845979349E-01 +7.58999148811E-02 +3.92863669627E-03 +1.73692339019E-03 +3.84499480299E-03 +2.24141407380E-03 +7.83651644887E-01 +2.32203812509E-01
2.75500000000E+09 +7.36152982983E-01 +5.87894919359E-02 +4.03934203541E-03 +1.44367755357E-03 +4.24118372092E-03 +1.79891885478E-03 +7.82848090650E-01 +2.17013745651E-01
2.76000000000E+09 +7.30287054568E-01 +4.16456747982E-02 +4.28138416825E-03 +1.41960519021E-03 +4.58465208487E-03 +1.57612190244E-03 +7.82356158788E-01 +2.01576485394E-01
2.76500000000E+09 +7.24442080753E-01 +2.44280145053E-02 +4.94858360639E-03 +1.23090922666E-03 +5.18462049484E-03 +1.25540566299E-03 +7.81327888281E-01 +1.84407408827E-01
2.77000000000E+09 +7.19139097141E-01 +6.65049244287E-03 +5.69207631451E-03 +4.53837622472E-04 +5.87324273524E-03 +3.62920367287E-04 +7.80593271998E-01 +1.66785056079E-01
2.77500000000E+09 +7.13991523903E-01 -1.20064573562E-02 +5.84790904184E-03 -7.15497703523E-04 +6.00904736414E-03 -9.00512332590E-04 +7.78669347574E-01 +1.48761677724E-01
2.78000000000E+09 +7.09322680518E-01 -3.12822340367E-02 +5.42726271834E-03 -1.44457018981E-03 +5.42732566396E-03 -1.76509586055E-03 +7.76476746694E-01 +1.31595083363E-01
2.78500000000E+09 +7.04268434247E-01 -5.16584212718E-02 +5.15903806699E-03 -1.78577699269E-03 +4.97284486920E-03 -2.10592992610E-03 +7.74364981281E-01 +1.14691643809E-01
2.79000000000E+09 +6.98279973901E-01 -7.30602025513E-02 +5.11048474930E-03 -2.15679061789E-03 +4.78034501582E-03 -2.33853049644E-03 +7.71097089221E-01 +9.71297687865E-02
2.79500000000E+09 +6.90765702054E-01 -9.38538208804E-02 +5.29934675255E-03 -2.45562485622E-03 +4.90794146686E-03 -2.33313686307E-03 +7.66944095674E-01 +7.88059090996E-02
2.80000000000E+09 +6.82024324948E-01 -1.13902480542E-01 +5.86673558714E-03 -3.42188333418E-03 +5.66494261875E-03 -3.12969966004E-03 +7.61988917437E-01 +5.95202226495E-02
2.80500000000E+09 +6.72799041388E-01 -1.33074419969E-01 +5.22445694313E-03 -4.93980568280E-03 +5.39876847670E-03 -4.72142239631E-03 +7.56374178141E-01 +4.05912364223E-02
2.81000000000E+09 +6.62291655586E-01 -1.51388216361E-01 +4.14606166533E-03 -5.31765644506E-03 +4.34569436863E-03 -5.39535526248E-03 +7.50713829543E-01 +2.12058205942E-02
2.81500000000E+09 +6.50797221906E-01 -1.69222592272E-01 +3.93094200967E-03 -5.65147722891E-03 +3.87781718860E-03 -5.91541996178E-03 +7.43790732529E-01 +2.03037501377E-03
2.82000000000E+09 +6.38246338114E-01 -1.86730619867E-01 +3.45924881015E-03 -6.31387731221E-03 +3.13447288137E-03 -6.37721618155E-03 +7.36489498768E-01 -1.74956140353E-02
2.82500000000E+09 +6.24538531671E-01 -2.04014115512E-01 +2.69758721463E-03 -6.82258850859E-03 +2.37070853521E-03 -6.61455882545E-03 +7.27298942660E-01 -3.74220187838E-02
2.83000000000E+09 +6.09474870752E-01 -2.22024045427E-01 +1.97409351558E-03 -7.44031346661E-03 +1.84606272648E-03 -6.98846683713E-03 +7.17176375030E-01 -5.74295121390E-02
2.83500000000E+09 +5.93364330501E-01 -2.40143870721E-01 +7.39425268668E-04 -7.54269058163E-03 +9.12234305462E-04 -7.22717398718E-03 +7.06652969769E-01 -7.76784280775E-02
2.84000000000E+09 +5.75423919470E-01 -2.59181024020E-01 +1.71978305048E-04 -6.97881840125E-03 +4.52201938502E-04 -6.90567436366E-03 +6.96215851479E-01 -9.88004270895E-02
2.84500000000E+09 +5.55509551680E-01 -2.78557101804E-01 +5.16010357627E-04 -7.65212672671E-03 +6.17264093885E-04 -7.73328575863E-03 +6.84362908447E-01 -1.20000212819E-01
2.85000000000E+09 +5.33924826048E-01 -2.97498204770E-01 -6.42024157947E-04 -8.87213108286E-03 -6.16124655465E-04 -8.92280144758E-03 +6.70583054492E-01 -1.40958781712E-01
2.85500000000E+09 +5.11524510790E-01 -3.15562564576E-01 -2.49371324995E-03 -9.31784203594E-03 -2.51882930294E-03 -9.24452050324E-03 +6.55330684576E-01 -1.60768068070E-01
2.86000000000E+09 +4.88315647627E-01 -3.33783980399E-01 -4.47650603113E-03 -8.80847116489E-03 -4.32301219145E-03 -8.72350594127E-03 +6.39705794411E-01 -1.81067309639E-01
2.86500000000E+09 +4.64006749748E-01 -3.50674315503E-01 -6.00620176649E-03 -7.61168725248E-03 -5.95524792142E-03 -7.67001589665E-03 +6.22502053045E-01 -2.02516999292E-01
2.87000000000E+09 +4.38695766803E-01 -3.66494248969E-01 -6.36798124409E-03 -5.91939762220E-03 -6.44617272813E-03 -5.93772975098E-03 +6.02776574017E-01 -2.24191116950E-01
2.87500000000E+09 +4.13172040380E-01 -3.80202345683E-01 -5.94863673352E-03 -5.53705724242E-03 -6.05756278422E-03 -5.35929908032E-03 +5.82364003604E-01 -2.44035475386E-01
2.88000000000E+09 +3.88300919538E-01 -3.93007743006E-01 -6.50733801174E-03 -5.89821621691E-03 -6.55951771064E-03 -5.48588629203E-03 +5.60902287808E-01 -2.63889601245E-01
2.88500000000E+09 +3.62609282141E-01 -4.05225381217E-01 -8.18032771211E-03 -5.25597531017E-03 -7.75422995668E-03 -4.83986121856E-03 +5.37994275639E-01 -2.82325613565E-01
2.89000000000E+09 +3.35842251488E-01 -4.17055096453E-01 -8.53119303413E-03 -3.81436060875E-03 -7.96765740914E-03 -3.73980038581E-03 +5.12869833521E-01 -3.01136318729E-01
2.89500000000E+09 +3.07250139010E-01 -4.27748967051E-01 -8.91310377975E-03 -3.37104589404E-03 -8.50457715541E-03 -3.63967108154E-03 +4.84266947051E-01 -3.19086873268E-01
2.90000000000E+09 +2.76697436781E-01 -4.37346328990E-01 -9.82260316525E-03 -2.05273819112E-03 -9.82717090727E-03 -2.41360485155E-03 +4.53852724285E-01 -3.34612168574E-01
2.90500000000E+09 +2.43411309460E-01 -4.44401626096E-01 -9.69700090610E-03 -9.28588072796E-04 -9.86935624081E-03 -8.98832085985E-04 +4.24255078446E-01 -3.49788711582E-01
2.91000000000E+09 +2.09973579346E-01 -4.48648316658E-01 -1.01308058122E-02 -6.16268277929E-06 -1.00008115141E-02 +2.81752933982E-04 +3.92493851845E-01 -3.64785325314E-01
2.91500000000E+09 +1.75119549257E-01 -4.51351783878E-01 -1.02804222246E-02 +1.45629925223E-03 -9.79158246817E-03 +1.62869423786E-03 +3.59046849229E-01 -3.76911642869E-01
2.92000000000E+09 +1.39740916189E-01 -4.51130569998E-01 -9.62576245393E-03 +2.95431273540E-03 -9.00633682529E-03 +2.67776181674E-03 +3.24128376993E-01 -3.86334059949E-01
2.92500000000E+09 +1.05161562064E-01 -4.48950030092E-01 -9.09190999250E-03 +2.93631399350E-03 -8.77552767809E-03 +2.43206171122E-03 +2.88058253939E-01 -3.92650951579E-01
2.93000000000E+09 +7.06427890041E-02 -4.45946727996E-01 -9.72672574755E-03 +3.95776779765E-03 -9.70671995195E-03 +3.36362466766E-03 +2.51392001080E-01 -3.97876462078E-01
2.93500000000E+09 +3.58157364754E-02 -4.41386353490E-01 -9.71926219481E-03 +5.46346974843E-03 -9.90520201956E-03 +5.03358397337E-03 +2.13612417580E-01 -4.02381158605E-01
2.94000000000E+09 +1.33023517954E-03 -4.35484635426E-01 -9.22178731855E-03 +7.13802276968E-03 -9.38765955926E-03 +6.99417774753E-03 +1.73230097152E-01 -4.05602344086E-01
2.94500000000E+09 -3.46988476022E-02 -4.28022430997E-01 -8.10671194026E-03 +8.89697586862E-03 -8.26741409609E-03 +8.58148842580E-03 +1.32495446610E-01 -4.04649488262E-01
2.95000000000E+09 -7.09879408758E-02 -4.15441018699E-01 -6.26859290551E-03 +9.57594463006E-03 -6.69077238519E-03 +9.34081978671E-03 +9.23537737115E-02 -3.99625923459E-01
2.95500000000E+09 -1.04360924985E-01 -3.99572869829E-01 -5.25123404979E-03 +9.63307905964E-03 -5.75799726095E-03 +9.71526698503E-03 +5.41098567190E-02 -3.92527849401E-01
2.96000000000E+09 -1.36061361831E-01 -3.82874929326E-01 -4.66112932308E-03 +1.01269675661E-02 -5.00575780912E-03 +1.05969563667E-02 +1.39658954113E-02 -3.83720122757E-01
2.96500000000E+09 -1.68232908844E-01 -3.63695977812E-01 -3.87134665613E-03 +1.10467604507E-02 -3.72002026921E-03 +1.15547547505E-02 -2.71431273315E-02 -3.71692940361E-01
2.97000000000E+09 -1.99521093661E-01 -3.40852814793E-01 -2.47193290385E-03 +1.19246603147E-02 -2.04196479929E-03 +1.20659633919E-02 -6.80475833352E-02 -3.56667912687E-01
2.97500000000E+09 -2.29209740989E-01 -3.15561937357E-01 -1.10925491967E-03 +1.25992307193E-02 -9.98056075162E-04 +1.22192330539E-02 -1.07553807540E-01 -3.38576779987E-01
2.98000000000E+09 -2.57721606436E-01 -2.87921656472E-01 +1.31924643480E-03 +1.27837835295E-02 +1.01351807386E-03 +1.24737061792E-02 -1.45452194579E-01 -3.17445216883E-01
2.98500000000E+09 -2.84632264347E-01 -2.58678458342E-01 +2.63779554477E-03 +1.18760832442E-02 +2.11618181930E-03 +1.21319904859E-02 -1.81743873951E-01 -2.93768047272E-01
2.99000000000E+09 -3.10862217015E-01 -2.28157459783E-01 +3.61206405278E-03 +1.16261972324E-02 +3.57863571972E-03 +1.23194968546E-02 -2.16950624363E-01 -2.66458756933E-01
2.99500000000E+09 -3.35973924062E-01 -1.95173718181E-01 +4.69786877648E-03 +1.19260550240E-02 +5.38723271238E-03 +1.22762014490E-02 -2.49923547674E-01 -2.36568865561E-01
3.00000000000E+09 -3.57364060004E-01 -1.61124120330E-01 +7.16927809033E-03 +1.13134524639E-02 +7.85158373462E-03 +1.09288606485E-02 -2.80809569437E-01 -2.04236690371E-01
3.00500000000E+09 -3.76727627986E-01 -1.28113184217E-01 +7.96305165020E-03 +1.00132389640E-02 +8.09959018120E-03 +9.31865622653E-03 -3.09049450893E-01 -1.70772417768E-01
3.01000000000E+09 -3.94617532294E-01 -9.47786497273E-02 +9.46053875901E-03 +9.27154812415E-03 +9.06462948522E-03 +8.86356245023E-03 -3.35046573951E-01 -1.35708342520E-01
3.01500000000E+09 -4.10207540975E-01 -6.08178889652E-02 +1.08389216305E-02 +8.08146595167E-03 +1.03278531020E-02 +8.08678340256E-03 -3.58448248635E-01 -9.93098987294E-02
3.02000000000E+09 -4.22758255458E-01 -2.59875769226E-02 +1.17977807300E-02 +6.41558017218E-03 +1.15576771187E-02 +6.59369711902E-03 -3.78305393004E-01 -5.94211394435E-02
3.02500000000E+09 -4.32247019041E-01 +1.00150222301E-02 +1.21824282652E-02 +5.24001370220E-03 +1.21026787521E-02 +5.24543021721E-03 -3.93348965452E-01 -1.93649102633E-02
3.03000000000E+09 -4.36923358325E-01 +4.66653442909E-02 +1.32688528866E-02 +3.77378358730E-03 +1.30577139824E-02 +3.84515367174E-03 -4.06166677324E-01 +2.07699519248E-02
3.03500000000E+09 -4.37476716929E-01 +8.22282591331E-02 +1.39229389077E-02 +1.79116258542E-03 +1.37419160605E-02 +2.18864218177E-03 -4.16874832333E-01 +6.03257087094E-02
3.04000000000E+09 -4.36572691528E-01 +1.16420840320E-01 +1.40109272090E-02 -6.23834614446E-04 +1.43030809820E-02 -3.00646833272E-05 -4.25280734702E-01 +1.00404984749E-01
3.04500000000E+09 -4.34045775515E-01 +1.51625077827E-01 +1.32623329346E-02 -2.41644356331E-03 +1.40403940394E-02 -2.34735088415E-03 -4.30614143370E-01 +1.41064103630E-01
3.05000000000E+09 -4.28713513710E-01 +1.87645918898E-01 +1.26631117119E-02 -3.79775592147E-03 +1.32641277606E-02 -4.56372977262E-03 -4.31481651502E-01 +1.80880476357E-01
3.05500000000E+09 -4.20968241900E-01 +2.22623280379E-01 +1.20341112832E-02 -5.04220417538E-03 +1.17676045570E-02 -5.93758948915E-03 -4.30317880422E-01 +2.18708875338E-01
3.06000000000E+09 -4.11568180537E-01 +2.56955489279E-01 +1.17709885876E-02 -6.53741870981E-03 +1.08910102946E-02 -6.95187831829E-03 -4.28113345462E-01 +2.56901176539E-01
3.06500000000E+09 -4.00095310760E-01 +2.89826359426E-01 +1.07629248812E-02 -8.81521785069E-03 +1.00665333153E-02 -8.20048820988E-03 -4.22802464828E-01 +2.94357769169E-01
3.07000000000E+09 -3.88164551401E-01 +3.20209478620E-01 +8.48574085618E-03 -1.04179798646E-02 +8.74595130225E-03 -9.57702280754E-03 -4.15601881691E-01 +3.29971429834E-01
