# Hz S RI R 50
! CMT, C1220, 16058040, 17.2.0/1
! Date: 15/08/2018 10:40:53
! Data: Format (Calibration Info)
! Freq                      S11: Re/Im (F2)                       S21: Re/Im (F2)                       S12: Re/Im (F2)                       S22: Re/Im (F2)            
2.50000000000E+09 +5.92559992540E-01 +6.49441815998E-01 -1.02094006813E-04 -2.54587757064E-04 -9.82456660795E-05 -2.80758776983E-04 +5.64049715496E-01 +7.25376962322E-01
2.50500000000E+09 +5.99244371145E-01 +6.41297645280E-01 -1.17194658030E-04 -2.63247227799E-04 -1.08179907061E-04 -2.70954840527E-04 +5.70032179401E-01 +7.19852973246E-01
2.51000000000E+09 +6.06745745996E-01 +6.33056213467E-01 -1.45996687431E-04 -2.68122160217E-04 -1.89536184938E-04 -2.90716579508E-04 +5.75997255031E-01 +7.14538217644E-01
2.51500000000E+09 +6.14517461831E-01 +6.25317781940E-01 -2.14500765025E-04 -2.37353594646E-04 -2.25547085239E-04 -2.93002021675E-04 +5.81441464186E-01 +7.09008359662E-01
2.52000000000E+09 +6.21426913572E-01 +6.17929359848E-01 -2.49147621191E-04 -2.92891791046E-04 -2.40809214830E-04 -2.64167686454E-04 +5.86801638697E-01 +7.03069543369E-01
2.52500000000E+09 +6.27324539926E-01 +6.11565703577E-01 -3.04690325791E-04 -2.40998466660E-04 -3.01895589117E-04 -2.80302010214E-04 +5.92933164426E-01 +6.96506550112E-01
2.53000000000E+09 +6.32174370432E-01 +6.05828524258E-01 -3.57617150370E-04 -2.62410701456E-04 -3.81343384869E-04 -2.74070557684E-04 +5.99282260263E-01 +6.89325245995E-01
2.53500000000E+09 +6.36216806015E-01 +6.00568868978E-01 -4.57514961985E-04 -2.08602165777E-04 -4.63789857683E-04 -2.07075241955E-04 +6.05418615132E-01 +6.82284286438E-01
2.54000000000E+09 +6.39541142908E-01 +5.94818161995E-01 -4.03348924846E-04 -1.92276166669E-04 -4.75681849678E-04 -1.72125912861E-04 +6.11088532651E-01 +6.75371963987E-01
2.54500000000E+09 +6.43143056057E-01 +5.88691042043E-01 -5.56915683567E-04 -7.39641727214E-05 -5.66308186684E-04 -1.28465243079E-04 +6.16534477353E-01 +6.68988254224E-01
2.55000000000E+09 +6.47467492321E-01 +5.81277895473E-01 -4.98954837924E-04 -2.84799467610E-05 -5.59698724958E-04 -4.94528754555E-05 +6.21613313849E-01 +6.62924921933E-01
2.55500000000E+09 +6.52946879182E-01 +5.72251568642E-01 -4.99375237516E-04 +6.53086331366E-05 -6.09824469533E-04 +6.66552100764E-05 +6.26747451960E-01 +6.56564972067E-01
2.56000000000E+09 +6.59525896100E-01 +5.62606284265E-01 -4.59040944413E-04 +6.50554735106E-05 -5.50518488638E-04 +1.40569114296E-04 +6.31736898259E-01 +6.49445590205E-01
2.56500000000E+09 +6.66976750042E-01 +5.52144867811E-01 -4.78790116386E-04 +3.46430135854E-05 -5.14433797320E-04 +1.20256189958E-04 +6.36982858880E-01 +6.42041142742E-01
2.57000000000E+09 +6.74671806593E-01 +5.42199267286E-01 -5.86050680984E-04 +4.62966045634E-05 -5.42834025791E-04 +1.60149566143E-04 +6.42135870064E-01 +6.34185679637E-01
2.57500000000E+09 +6.82312477535E-01 +5.32847666691E-01 -6.38379113683E-04 +9.26904472438E-05 -5.28397064719E-04 +1.88465647861E-04 +6.47417500583E-01 +6.26849254381E-01
2.58000000000E+09 +6.88881938004E-01 +5.24759603527E-01 -6.20306754301E-04 +2.87702661967E-04 -5.37419596439E-04 +2.43236641612E-04 +6.52587123857E-01 +6.19739042793E-01
2.58500000000E+09 +6.94300184035E-01 +5.17570571317E-01 -6.15753838352E-04 +3.67327094635E-04 -5.49768147156E-04 +2.81553174443E-04 +6.57665523207E-01 +6.12494973309E-01
2.59000000000E+09 +6.98266713942E-01 +5.11627937747E-01 -5.97267152747E-04 +4.34038119154E-04 -6.22646366644E-04 +3.83233323338E-04 +6.62837551111E-01 +6.05286076000E-01
2.59500000000E+09 +7.01564585243E-01 +5.05751625937E-01 -6.15631515996E-04 +5.30206053453E-04 -6.13218201776E-04 +5.27547650209E-04 +6.68145653711E-01 +5.97518072405E-01
2.60000000000E+09 +7.03931008836E-01 +4.99207165204E-01 -5.03897715586E-04 +6.17971622082E-04 -4.97015157824E-04 +6.11465612985E-04 +6.73827745904E-01 +5.89319422414E-01
2.60500000000E+09 +7.06658115017E-01 +4.90973622585E-01 -4.67518478308E-04 +6.53117858462E-04 -4.36850839625E-04 +5.98189706619E-04 +6.79584466279E-01 +5.80429430121E-01
2.61000000000E+09 +7.09642558848E-01 +4.80809818569E-01 -4.73792938178E-04 +7.16910803586E-04 -4.59561150255E-04 +7.09868231750E-04 +6.84944904076E-01 +5.71422655944E-01
2.61500000000E+09 +7.13720580457E-01 +4.68421435086E-01 -2.52985988378E-04 +8.55049030296E-04 -3.22298820327E-04 +8.34473157968E-04 +6.90143663805E-01 +5.62783024541E-01
2.62000000000E+09 +7.18325117180E-01 +4.54021844474E-01 -2.53180161401E-04 +8.11214364697E-04 -2.84213464686E-04 +8.36934272338E-04 +6.95196837506E-01 +5.53705205715E-01
2.62500000000E+09 +7.23692900494E-01 +4.38952610450E-01 -2.76218796112E-04 +8.68777047364E-04 -2.08919074932E-04 +9.66904342439E-04 +7.00269922066E-01 +5.44569194484E-01
2.63000000000E+09 +7.29315019599E-01 +4.23771541296E-01 -2.11273470920E-04 +1.01498422427E-03 -8.94886965778E-05 +1.00382454451E-03 +7.05074752283E-01 +5.34918113098E-01
2.63500000000E+09 +7.34420628588E-01 +4.09576008569E-01 -1.62504674361E-04 +1.04257581178E-03 -6.03702468525E-05 +9.83779006581E-04 +7.09600387168E-01 +5.25543914413E-01
2.64000000000E+09 +7.39081525744E-01 +3.97296804215E-01 -2.08661374102E-05 +1.24742977173E-03 +5.71856485198E-06 +1.13468107643E-03 +7.14146783065E-01 +5.15628461086E-01
2.64500000000E+09 +7.43216911939E-01 +3.87065233796E-01 +4.04972134777E-04 +1.32952248706E-03 +2.68691075092E-04 +1.16985786759E-03 +7.18481518505E-01 +5.05680515082E-01
2.65000000000E+09 +7.46234870576E-01 +3.78137572836E-01 +5.86582680839E-04 +1.02782031047E-03 +4.21598867525E-04 +1.08171390587E-03 +7.22613400759E-01 +4.95435711969E-01
2.65500000000E+09 +7.48544181983E-01 +3.69745345837E-01 +5.18741427602E-04 +9.92347046909E-04 +4.51154516002E-04 +1.07883355996E-03 +7.26351434263E-01 +4.85012396818E-01
2.66000000000E+09 +7.50265601311E-01 +3.61431080784E-01 +5.66082549094E-04 +1.10318581468E-03 +5.72475747648E-04 +1.21048602016E-03 +7.30264905990E-01 +4.73862804332E-01
2.66500000000E+09 +7.51917419542E-01 +3.52032813212E-01 +7.63456752114E-04 +1.19691516249E-03 +8.94430038132E-04 +1.19022147425E-03 +7.34306476337E-01 +4.62795058801E-01
2.67000000000E+09 +7.53343343103E-01 +3.40504759962E-01 +1.04795726720E-03 +1.11058766167E-03 +1.08750492721E-03 +1.02320782608E-03 +7.38559686344E-01 +4.52009390704E-01
2.67500000000E+09 +7.54962615612E-01 +3.27153796840E-01 +1.27498471145E-03 +1.02281635182E-03 +1.21233353041E-03 +8.89071232639E-04 +7.42542340824E-01 +4.41118933049E-01
2.68000000000E+09 +7.56906316773E-01 +3.11480556372E-01 +1.46897819101E-03 +6.73104950996E-04 +1.37456107313E-03 +7.28776546163E-04 +7.46333902491E-01 +4.30251744258E-01
2.68500000000E+09 +7.58598811118E-01 +2.94536540448E-01 +1.35313944546E-03 +5.79554304557E-04 +1.30311972490E-03 +6.23614016624E-04 +7.49548401053E-01 +4.19120501855E-01
2.69000000000E+09 +7.60115783054E-01 +2.77227915134E-01 +1.49772946398E-03 +6.58797331156E-04 +1.39023664495E-03 +6.10493929495E-04 +7.52369973854E-01 +4.07437884494E-01
2.69500000000E+09 +7.61685243831E-01 +2.60755668336E-01 +1.68909646628E-03 +5.83620898044E-04 +1.67436065676E-03 +5.48532986629E-04 +7.55355691036E-01 +3.95106642949E-01
2.70000000000E+09 +7.63410251550E-01 +2.44948249961E-01 +1.98721406555E-03 +1.89238322126E-04 +1.94485347759E-03 +2.35789186506E-04 +7.58609400786E-01 +3.81828028172E-01
2.70500000000E+09 +7.64485921792E-01 +2.30545365110E-01 +2.06653128578E-03 -1.03415873118E-04 +1.99552285440E-03 -5.15518820303E-05 +7.61504788004E-01 +3.68694255615E-01
2.71000000000E+09 +7.65468206151E-01 +2.16926765979E-01 +2.03617612068E-03 -5.29383235911E-04 +2.11147851036E-03 -4.58929423470E-04 +7.64657787484E-01 +3.55721695179E-01
2.71500000000E+09 +7.66110728871E-01 +2.03405809603E-01 +1.78302763302E-03 -8.41353395199E-04 +1.91049810035E-03 -8.77924030875E-04 +7.67348583546E-01 +3.43191186923E-01
2.72000000000E+09 +7.66170791241E-01 +1.90264979053E-01 +1.61022740748E-03 -7.97308582772E-04 +1.64067143065E-03 -9.44211192983E-04 +7.69450593302E-01 +3.30354248243E-01
2.72500000000E+09 +7.66194916726E-01 +1.75773411891E-01 +1.80056162519E-03 -9.63046305769E-04 +1.68663473690E-03 -1.11835026548E-03 +7.71100041355E-01 +3.16941984494E-01
2.73000000000E+09 +7.65068434804E-01 +1.60102994440E-01 +1.78926572811E-03 -1.43363757368E-03 +1.51410316641E-03 -1.42547895594E-03 +7.72453377686E-01 +3.02702714202E-01
2.73500000000E+09 +7.63238313035E-01 +1.42992862732E-01 +1.37890355763E-03 -1.69430132913E-03 +1.21005994889E-03 -1.48364615418E-03 +7.73964299556E-01 +2.87815167360E-01
2.74000000000E+09 +7.60497781865E-01 +1.25373185464E-01 +1.15169160399E-03 -1.64497921705E-03 +1.14090073138E-03 -1.37999656892E-03 +7.75455128688E-01 +2.72400998346E-01
2.74500000000E+09 +7.56869857941E-01 +1.06940264492E-01 +1.25311548866E-03 -1.79716111061E-03 +1.37366723057E-03 -1.53791838338E-03 +7.76969474552E-01 +2.56825963574E-01
2.75000000000E+09 +7.52527342001E-01 +8.86863891373E-02 +1.12745179250E-03 -2.10912214884E-03 +1.43164019789E-03 -2.09748123169E-03 +7.77776558579E-01 +2.41174967686E-01
2.75500000000E+09 +7.47592476502E-01 +7.10311872184E-02 +7.45367059479E-04 -2.52864693853E-03 +9.59591050719E-04 -2.60667446359E-03 +7.77259182107E-01 +2.25285987618E-01
2.76000000000E+09 +7.42630563609E-01 +5.32999995218E-02 +2.16534876832E-04 -2.58524168241E-03 +2.87381040064E-04 -2.79068053941E-03 +7.76281775807E-01 +2.09960732844E-01
2.76500000000E+09 +7.37032206626E-01 +3.55214175927E-02 -1.49106035093E-04 -2.42435737928E-03 -1.42813815512E-04 -2.55100794325E-03 +7.75156597035E-01 +1.93443722627E-01
2.77000000000E+09 +7.31006259619E-01 +1.69791760056E-02 -3.48420303347E-04 -2.47449945699E-03 -4.48923892963E-04 -2.62618223874E-03 +7.73696241922E-01 +1.75977145667E-01
2.77500000000E+09 +7.24159021422E-01 -2.15505436344E-03 -7.92649654925E-04 -2.37528920075E-03 -8.98374318304E-04 -2.45675015506E-03 +7.71553685050E-01 +1.58480113278E-01
2.78000000000E+09 +7.17338308124E-01 -2.18755547424E-02 -1.01914310203E-03 -2.25442139276E-03 -1.16908842129E-03 -2.25266457177E-03 +7.69292873677E-01 +1.40998858509E-01
2.78500000000E+09 +7.09943258712E-01 -4.30369726896E-02 -1.30266395849E-03 -2.00980504709E-03 -1.45997638811E-03 -1.90612160887E-03 +7.66557697147E-01 +1.23718922881E-01
2.79000000000E+09 +7.01863480917E-01 -6.50712523942E-02 -1.33417721969E-03 -1.81556829915E-03 -1.41811660176E-03 -1.70924508951E-03 +7.63222845653E-01 +1.06813118040E-01
2.79500000000E+09 +6.93174856702E-01 -8.67523261724E-02 -1.36297426238E-03 -1.89592407295E-03 -1.31226833026E-03 -1.74437251376E-03 +7.59208647972E-01 +8.94308344365E-02
2.80000000000E+09 +6.83672496507E-01 -1.07896575146E-01 -1.77947120527E-03 -1.86680466753E-03 -1.65402245639E-03 -1.83335233621E-03 +7.54423333301E-01 +7.15644179114E-02
2.80500000000E+09 +6.73617832792E-01 -1.27615420262E-01 -2.07049154842E-03 -1.71384074534E-03 -1.96401533762E-03 -1.84992120396E-03 +7.49044616715E-01 +5.32167353312E-02
2.81000000000E+09 +6.62580417655E-01 -1.45671202154E-01 -2.45390871070E-03 -1.38047271080E-03 -2.54662165600E-03 -1.41418637480E-03 +7.43682046655E-01 +3.44908395308E-02
2.81500000000E+09 +6.50084048192E-01 -1.62293159772E-01 -2.49589285048E-03 -9.46918088736E-04 -2.61545804895E-03 -9.28106014491E-04 +7.37594956067E-01 +1.47134346700E-02
2.82000000000E+09 +6.35951437848E-01 -1.77442329450E-01 -2.65612368426E-03 -8.20349129727E-04 -2.64154932080E-03 -6.58341918643E-04 +7.30801009796E-01 -5.28244059056E-03
2.82500000000E+09 +6.20257966547E-01 -1.91840543376E-01 -2.87394837827E-03 -4.43269921192E-04 -2.70876586936E-03 -3.53923127664E-04 +7.22846934739E-01 -2.53116378301E-02
2.83000000000E+09 +6.02839147941E-01 -2.07164644926E-01 -3.05482328140E-03 -8.47893511787E-05 -2.86155319480E-03 -1.56081023765E-04 +7.14443311701E-01 -4.55156748053E-02
2.83500000000E+09 +5.82870927336E-01 -2.24131788973E-01 -2.94757608348E-03 +6.68176933302E-04 -2.84209976986E-03 +5.77171740390E-04 +7.04543461915E-01 -6.64639881808E-02
2.84000000000E+09 +5.60360654961E-01 -2.42183733175E-01 -2.49331722347E-03 +9.09987476607E-04 -2.53270800868E-03 +8.46874687325E-04 +6.93290596863E-01 -8.76865675789E-02
2.84500000000E+09 +5.35401924962E-01 -2.61768059650E-01 -2.27730854095E-03 +8.72701807666E-04 -2.31799189970E-03 +8.29482926020E-04 +6.80319487712E-01 -1.08743221091E-01
2.85000000000E+09 +5.09067290307E-01 -2.81005212851E-01 -2.56058612917E-03 +9.51570418225E-04 -2.55289856800E-03 +9.86968197987E-04 +6.66387398011E-01 -1.29246760883E-01
2.85500000000E+09 +4.81899585376E-01 -3.00158708540E-01 -2.64855898095E-03 +1.49222029270E-03 -2.61581386577E-03 +1.41359303707E-03 +6.51042123323E-01 -1.49284904714E-01
2.86000000000E+09 +4.54827478324E-01 -3.16843265101E-01 -2.35471269525E-03 +2.05930130545E-03 -2.39728014116E-03 +2.02327371661E-03 +6.35809603434E-01 -1.69055298969E-01
2.86500000000E+09 +4.29310930377E-01 -3.31407749902E-01 -1.96776489308E-03 +2.15110695078E-03 -1.99631729452E-03 +2.19811948482E-03 +6.18868546891E-01 -1.90017181593E-01
2.87000000000E+09 +4.04654134893E-01 -3.44985617610E-01 -1.78135076030E-03 +2.73795614429E-03 -1.78140045016E-03 +2.80196283317E-03 +5.99987258889E-01 -2.10113692752E-01
2.87500000000E+09 +3.79141153319E-01 -3.55409071711E-01 -9.72397684207E-04 +2.49972708347E-03 -9.22844026184E-04 +2.55563683604E-03 +5.79595778211E-01 -2.29703517352E-01
2.88000000000E+09 +3.53927574644E-01 -3.64086897450E-01 -1.32121675319E-03 +2.39679296449E-03 -1.22124443359E-03 +2.35899038221E-03 +5.58955514446E-01 -2.47749327570E-01
2.88500000000E+09 +3.25876257131E-01 -3.71399214057E-01 -1.04232284632E-03 +3.18193075596E-03 -9.58635572131E-04 +3.00535979408E-03 +5.37029408701E-01 -2.67011638125E-01
2.89000000000E+09 +2.94564229507E-01 -3.75592681813E-01 -4.18272765556E-04 +3.16306061917E-03 -4.31702357409E-04 +2.94305713868E-03 +5.12097802762E-01 -2.85120761327E-01
2.89500000000E+09 +2.62914303870E-01 -3.77532080998E-01 +5.38286483652E-05 +3.11073366880E-03 -5.46773731645E-05 +3.00983416331E-03 +4.86324073565E-01 -3.02039397867E-01
2.90000000000E+09 +2.28864472832E-01 -3.78817301675E-01 +4.50681743166E-04 +3.10007637818E-03 +3.13061360167E-04 +3.08513190167E-03 +4.59494093395E-01 -3.19312649909E-01
2.90500000000E+09 +1.92982850715E-01 -3.79112011318E-01 +6.91822515372E-04 +2.95040119956E-03 +6.91424323977E-04 +2.99063961792E-03 +4.31069717657E-01 -3.35826014756E-01
2.91000000000E+09 +1.56910276392E-01 -3.77580461400E-01 +1.19502197693E-03 +3.12360956841E-03 +1.24661038089E-03 +3.07550194234E-03 +4.01252110373E-01 -3.52197477656E-01
2.91500000000E+09 +1.20205697653E-01 -3.75661086835E-01 +1.87844154581E-03 +2.74733855484E-03 +1.78593339161E-03 +2.60275858869E-03 +3.68107858703E-01 -3.66035240345E-01
2.92000000000E+09 +8.36648608583E-02 -3.70322817856E-01 +2.18760186661E-03 +2.49697063056E-03 +1.96866893350E-03 +2.38519386340E-03 +3.33491137634E-01 -3.76967952295E-01
2.92500000000E+09 +4.95897395868E-02 -3.61272281209E-01 +2.54125026431E-03 +1.57449878461E-03 +2.35256731738E-03 +1.63503961305E-03 +2.97945108169E-01 -3.84573795828E-01
2.93000000000E+09 +1.87703093063E-02 -3.50821774806E-01 +2.05310381155E-03 +1.36392147083E-03 +1.95974663534E-03 +1.52824163296E-03 +2.61922189037E-01 -3.91662936347E-01
2.93500000000E+09 -1.13388479035E-02 -3.39179640426E-01 +2.24678908641E-03 +1.40396073818E-03 +2.20499362022E-03 +1.46969372902E-03 +2.23913906414E-01 -3.97818718740E-01
2.94000000000E+09 -4.14662756147E-02 -3.24119218187E-01 +2.48212686054E-03 +9.52807167485E-04 +2.47809192964E-03 +1.02617557045E-03 +1.82836745526E-01 -4.01442706915E-01
2.94500000000E+09 -7.03353701334E-02 -3.06536507239E-01 +2.23160114337E-03 +8.38327269339E-04 +2.14619709154E-03 +9.13193564882E-04 +1.43309949556E-01 -4.01019917204E-01
2.95000000000E+09 -1.00027506001E-01 -2.86118119505E-01 +2.74153161248E-03 +7.05399007381E-04 +2.68066093918E-03 +8.29553188612E-04 +1.02693725594E-01 -3.99757723268E-01
2.95500000000E+09 -1.28400595025E-01 -2.61873235468E-01 +2.51934935082E-03 +1.87189222007E-04 +2.53533236110E-03 +2.59429165873E-04 +6.16612113071E-02 -3.94537211109E-01
2.96000000000E+09 -1.55093911031E-01 -2.37074268302E-01 +2.58271045046E-03 -4.02211903184E-04 +2.76503286611E-03 -3.86923758193E-04 +1.97448110220E-02 -3.86086511414E-01
2.96500000000E+09 -1.81516206057E-01 -2.09944276937E-01 +1.94217529522E-03 -4.85326696017E-04 +2.06519366852E-03 -5.09091171254E-04 -2.15292448273E-02 -3.73300020207E-01
2.97000000000E+09 -2.04734389677E-01 -1.81693178116E-01 +2.07882153902E-03 -4.05058072369E-04 +1.98675829530E-03 -4.91138086543E-04 -6.15225818136E-02 -3.57875868832E-01
2.97500000000E+09 -2.25384795848E-01 -1.53150522791E-01 +1.86525495790E-03 -6.25647507506E-04 +1.77803618078E-03 -5.50709540018E-04 -1.00437350433E-01 -3.41305049469E-01
2.98000000000E+09 -2.45030660181E-01 -1.24791668997E-01 +1.73958528990E-03 -2.41258651213E-04 +1.68312901191E-03 -1.41826163157E-04 -1.39396444822E-01 -3.22025543102E-01
2.98500000000E+09 -2.62265302627E-01 -9.45740796287E-02 +2.43239788925E-03 -5.08197777771E-04 +2.51747211961E-03 -4.03109938491E-04 -1.77266432774E-01 -2.99376272417E-01
2.99000000000E+09 -2.76892174897E-01 -6.34394507012E-02 +2.31963084747E-03 -1.26609144322E-03 +2.46818728350E-03 -1.36310738040E-03 -2.13120331237E-01 -2.72833551689E-01
2.99500000000E+09 -2.89329731359E-01 -3.20933747392E-02 +1.72501586717E-03 -1.40003065307E-03 +1.68462243765E-03 -1.46558720670E-03 -2.46841931719E-01 -2.42868134602E-01
3.00000000000E+09 -3.00891850872E-01 +4.29365778943E-05 +2.00776603118E-03 -1.33225373494E-03 +1.88218566222E-03 -1.38293820681E-03 -2.77528768207E-01 -2.10590998179E-01
3.00500000000E+09 -3.10235206178E-01 +3.26915878879E-02 +1.74886178528E-03 -1.66933888007E-03 +1.62730664843E-03 -1.60252044050E-03 -3.06263684102E-01 -1.77615775038E-01
3.01000000000E+09 -3.17358736254E-01 +6.45753158300E-02 +1.81477483615E-03 -2.11297914109E-03 +1.75364204374E-03 -1.91770575969E-03 -3.32520840950E-01 -1.41506542643E-01
3.01500000000E+09 -3.23340037650E-01 +9.64360061137E-02 +1.10876452361E-03 -2.43058246052E-03 +1.30319703860E-03 -2.33304868185E-03 -3.55683442723E-01 -1.06155675448E-01
3.02000000000E+09 -3.25534757557E-01 +1.27114624117E-01 +6.73709965090E-04 -2.36761742978E-03 +7.85470107635E-04 -2.42617056872E-03 -3.76798765225E-01 -6.86963245875E-02
3.02500000000E+09 -3.25514860097E-01 +1.55204138484E-01 +6.68269845081E-04 -1.97459720870E-03 +6.93144148381E-04 -1.94764407850E-03 -3.94482979002E-01 -3.07963902056E-02
3.03000000000E+09 -3.24297895437E-01 +1.81826413617E-01 +7.92840764606E-04 -2.39666964329E-03 +8.18083963596E-04 -2.37348140815E-03 -4.09938496136E-01 +9.25014009987E-03
3.03500000000E+09 -3.20830445855E-01 +2.09336785516E-01 +1.35195129161E-04 -2.50274051469E-03 +2.13521604103E-04 -2.52649081761E-03 -4.21906572746E-01 +5.03873255920E-02
3.04000000000E+09 -3.13758716066E-01 +2.37675093713E-01 -1.61727648299E-04 -2.78133295382E-03 -1.31631778802E-05 -2.85843926857E-03 -4.28935235529E-01 +9.15222590617E-02
3.04500000000E+09 -3.03282543232E-01 +2.64493127056E-01 -8.19631797806E-04 -2.19375767284E-03 -8.80303012351E-04 -2.35130466016E-03 -4.34584821716E-01 +1.30734154302E-01
3.05000000000E+09 -2.91990025283E-01 +2.92442043583E-01 -6.73712489208E-04 -1.76019488742E-03 -7.83568125063E-04 -1.81118523148E-03 -4.37890842142E-01 +1.69653998039E-01
3.05500000000E+09 -2.77811075645E-01 +3.20004182994E-01 -3.48801552701E-04 -1.82129019513E-03 -4.58156646393E-04 -1.77105791511E-03 -4.39186689449E-01 +2.08575704865E-01
3.06000000000E+09 -2.63803199838E-01 +3.46155800281E-01 -5.32064190758E-04 -2.29068929276E-03 -6.47688234141E-04 -2.13296292309E-03 -4.37695485558E-01 +2.46535531186E-01
3.06500000000E+09 -2.49998888773E-01 +3.72203574346E-01 -1.01913494360E-03 -2.31999085413E-03 -9.27561563714E-04 -2.20881563015E-03 -4.33721696831E-01 +2.84401561485E-01
3.07000000000E+09 -2.37238373399E-01 +3.96191393893E-01 -1.74289914052E-03 -2.31611654430E-03 -1.53507736242E-03 -2.39215908316E-03 -4.27172729074E-01 +3.20981255128E-01
