# Hz S RI R 50
! CMT, C1220, 16058040, 17.2.0/1
! Date: 15/08/2018 10:18:48
! Data: Format (Calibration Info)
! Freq                      S11: Re/Im (F2)                       S21: Re/Im (F2)                       S12: Re/Im (F2)                       S22: Re/Im (F2)            
2.50000000000E+09 +5.95286746027E-01 +6.35501980160E-01 -3.08262657891E-04 +1.49153623127E-04 -3.56859895997E-04 +1.88686363214E-04 +5.72695654324E-01 +7.17008752673E-01
2.50500000000E+09 +6.01591360975E-01 +6.27728054152E-01 -2.50790292866E-04 +2.68314759303E-04 -2.66667503544E-04 +2.92459869307E-04 +5.78183305529E-01 +7.11525844494E-01
2.51000000000E+09 +6.08223654575E-01 +6.19733143362E-01 -1.73770852976E-04 +2.33131738422E-04 -1.56222001606E-04 +2.52675618030E-04 +5.83761086232E-01 +7.06313809230E-01
2.51500000000E+09 +6.14439856344E-01 +6.11793330753E-01 -1.31223650911E-04 +2.38698951454E-04 -1.36140190565E-04 +2.79592626290E-04 +5.88931342496E-01 +7.01007194769E-01
2.52000000000E+09 +6.20276220114E-01 +6.04028019992E-01 -9.50006369954E-05 +2.70515542849E-04 -1.05555258625E-04 +2.59681603680E-04 +5.94104380260E-01 +6.95081894442E-01
2.52500000000E+09 +6.25602015929E-01 +5.96859415987E-01 -1.22232858861E-04 +2.05739721853E-04 -1.35351502277E-04 +2.00911744954E-04 +5.99700750429E-01 +6.88777109235E-01
2.53000000000E+09 +6.30403604383E-01 +5.90094031650E-01 -9.76378227355E-05 +2.55276141350E-04 -1.25309734944E-04 +2.59998935804E-04 +6.05949491979E-01 +6.82064701766E-01
2.53500000000E+09 +6.34910167752E-01 +5.84004117648E-01 -9.68701266124E-05 +2.57392886865E-04 -5.77763132615E-05 +2.46953889479E-04 +6.12041422764E-01 +6.75130591486E-01
2.54000000000E+09 +6.39228945756E-01 +5.77939864847E-01 -1.17525709753E-04 +2.69354624614E-04 -1.40199452335E-04 +2.55940726766E-04 +6.17987263631E-01 +6.68539320610E-01
2.54500000000E+09 +6.43443281841E-01 +5.72133586809E-01 -7.58660182647E-05 +3.06038898735E-04 -8.75967058497E-05 +3.76427463775E-04 +6.23668041813E-01 +6.61984793318E-01
2.55000000000E+09 +6.48319291877E-01 +5.66297109970E-01 +6.42199539745E-05 +3.44154642631E-04 +7.08252009058E-05 +3.51072785171E-04 +6.29085638145E-01 +6.55701892463E-01
2.55500000000E+09 +6.53887756456E-01 +5.59432768123E-01 +1.52952341331E-04 +2.33232888394E-04 +1.13955245712E-04 +2.95964013027E-04 +6.34354804429E-01 +6.49196284967E-01
2.56000000000E+09 +6.60068803976E-01 +5.52090051056E-01 +5.65228374908E-05 +1.73941100640E-04 +1.03256376225E-04 +1.84243243809E-04 +6.39717044459E-01 +6.41983273765E-01
2.56500000000E+09 +6.66362369608E-01 +5.43794628957E-01 -2.19246610537E-05 +8.86495245110E-05 -5.38766596786E-05 +1.01783183140E-04 +6.45277192298E-01 +6.34359776350E-01
2.57000000000E+09 +6.72677286141E-01 +5.35127034948E-01 -1.42765332913E-04 +2.77504401365E-04 -8.77953238703E-05 +2.99275647406E-04 +6.50591168671E-01 +6.26467431100E-01
2.57500000000E+09 +6.78650603821E-01 +5.26224268491E-01 -7.87670277102E-05 +4.06980644075E-04 -1.49844765693E-05 +3.41380967734E-04 +6.55903961351E-01 +6.18883745435E-01
2.58000000000E+09 +6.84252324571E-01 +5.17404632793E-01 +4.64841919941E-05 +4.06124748307E-04 +6.46025534311E-05 +4.01626263941E-04 +6.60732918753E-01 +6.11621829389E-01
2.58500000000E+09 +6.89531222593E-01 +5.08500276093E-01 +1.70067274682E-04 +4.07462319389E-04 +1.39221514867E-04 +3.53221478409E-04 +6.65741529122E-01 +6.04080795145E-01
2.59000000000E+09 +6.93948340978E-01 +4.99966704616E-01 +1.77415703510E-04 +3.25891797820E-04 +1.35854714519E-04 +3.38188791611E-04 +6.70428670049E-01 +5.96565595064E-01
2.59500000000E+09 +6.98426785097E-01 +4.91466735195E-01 +1.77905799876E-04 +3.63898528686E-04 +1.81505651978E-04 +3.46973469315E-04 +6.75421807266E-01 +5.88581285018E-01
2.60000000000E+09 +7.02406275393E-01 +4.82630820071E-01 +2.46348112337E-04 +3.72589284560E-04 +2.41394784677E-04 +3.90729454291E-04 +6.80558675108E-01 +5.80178749448E-01
2.60500000000E+09 +7.06471696283E-01 +4.73514447490E-01 +3.07259688387E-04 +3.33116065517E-04 +2.81708940831E-04 +3.84342283780E-04 +6.85906975250E-01 +5.71560491582E-01
2.61000000000E+09 +7.10846353188E-01 +4.63375562612E-01 +4.45373501333E-04 +3.90604283746E-04 +3.99950930810E-04 +3.59615054908E-04 +6.91133466861E-01 +5.62672357405E-01
2.61500000000E+09 +7.15398683739E-01 +4.52169169541E-01 +4.63777279246E-04 +1.61480039953E-04 +4.90674024263E-04 +2.09181354762E-04 +6.95974660777E-01 +5.53837379383E-01
2.62000000000E+09 +7.19438601337E-01 +4.39760869800E-01 +3.95505142879E-04 +1.28047360572E-04 +3.94326149028E-04 +1.29548360594E-04 +7.00686262578E-01 +5.44925901807E-01
2.62500000000E+09 +7.23338162961E-01 +4.26661670835E-01 +3.49867045861E-04 +1.93514411862E-04 +4.08920894502E-04 +1.96603374346E-04 +7.05530642078E-01 +5.36008437120E-01
2.63000000000E+09 +7.27039840770E-01 +4.13257621969E-01 +4.61016803734E-04 +1.65830218351E-04 +4.29745137880E-04 +1.08595811419E-04 +7.10526060580E-01 +5.26577549905E-01
2.63500000000E+09 +7.30336985118E-01 +3.99792371208E-01 +5.12276090116E-04 +1.78682659802E-04 +4.99213892167E-04 +6.10133076560E-05 +7.15371495842E-01 +5.17191548352E-01
2.64000000000E+09 +7.33191453191E-01 +3.87273709598E-01 +5.70590468900E-04 +5.83555193136E-05 +5.59860014951E-04 +3.99938299282E-06 +7.20283903291E-01 +5.07204035048E-01
2.64500000000E+09 +7.36204346382E-01 +3.75229396427E-01 +5.64920121236E-04 -1.04149086897E-04 +4.69342278265E-04 -5.52425309157E-05 +7.25014463217E-01 +4.97282588156E-01
2.65000000000E+09 +7.38503262694E-01 +3.63883184748E-01 +5.02103763117E-04 -1.44200214163E-04 +5.02568356685E-04 -5.54442802756E-05 +7.29088453897E-01 +4.87152971171E-01
2.65500000000E+09 +7.41106409271E-01 +3.52871908415E-01 +5.92130899723E-04 -1.12938364630E-04 +6.55584292290E-04 -6.43243423924E-05 +7.33064214999E-01 +4.76873084639E-01
2.66000000000E+09 +7.43979766820E-01 +3.42144061819E-01 +5.81382286814E-04 -2.00250702666E-04 +6.22581369155E-04 -2.68705591790E-04 +7.36850207454E-01 +4.65513684420E-01
2.66500000000E+09 +7.46775541589E-01 +3.30942568907E-01 +5.81981276714E-04 -1.93406191610E-04 +5.77937059378E-04 -2.84252206785E-04 +7.40838500304E-01 +4.54343625853E-01
2.67000000000E+09 +7.49010418261E-01 +3.18703473479E-01 +6.25362206123E-04 -4.62008224441E-04 +5.86848849596E-04 -4.45488538198E-04 +7.45069038424E-01 +4.43670917233E-01
2.67500000000E+09 +7.50786040478E-01 +3.06066634477E-01 +4.73718708527E-04 -5.14973962179E-04 +4.24496497388E-04 -4.48250392662E-04 +7.49281548093E-01 +4.32215919816E-01
2.68000000000E+09 +7.52214177897E-01 +2.92529166521E-01 +4.38353448805E-04 -5.23377031492E-04 +4.13929494303E-04 -4.30109111755E-04 +7.53033548911E-01 +4.20781047107E-01
2.68500000000E+09 +7.52984389457E-01 +2.78434368382E-01 +3.63584713424E-04 -5.49543127944E-04 +4.27731347236E-04 -5.34695349848E-04 +7.55812363737E-01 +4.09184208418E-01
2.69000000000E+09 +7.53324528062E-01 +2.64224507995E-01 +3.29404507620E-04 -5.48224238060E-04 +3.29526257877E-04 -5.74639018117E-04 +7.58207164019E-01 +3.97401451481E-01
2.69500000000E+09 +7.53536949217E-01 +2.49996380736E-01 +4.06803944580E-04 -6.69749678594E-04 +4.15688092687E-04 -5.54212864633E-04 +7.60823017266E-01 +3.84883350267E-01
2.70000000000E+09 +7.53734704026E-01 +2.36073753177E-01 +2.84902051946E-04 -8.62282615271E-04 +2.99641901898E-04 -8.17640822649E-04 +7.63669771565E-01 +3.71531694956E-01
2.70500000000E+09 +7.54038535886E-01 +2.22475914208E-01 +1.64687081086E-04 -8.61837579412E-04 +1.65905068502E-04 -8.36578546238E-04 +7.66247037026E-01 +3.57935084086E-01
2.71000000000E+09 +7.55024839663E-01 +2.09026798768E-01 -3.50100535568E-06 -9.53527747608E-04 +5.77593699393E-05 -9.41768792027E-04 +7.68821698875E-01 +3.44908372905E-01
2.71500000000E+09 +7.56663188565E-01 +1.94920951059E-01 -3.00305170957E-04 -9.35577320512E-04 -3.14732458552E-04 -9.88245726192E-04 +7.71172905040E-01 +3.32268587184E-01
2.72000000000E+09 +7.58061300827E-01 +1.80015580338E-01 -3.18512516853E-04 -6.69932568072E-04 -4.08235445213E-04 -6.96337004088E-04 +7.73140169526E-01 +3.19724668277E-01
2.72500000000E+09 +7.58731743435E-01 +1.64030552854E-01 -2.09853681698E-04 -6.76389525479E-04 -3.00868448957E-04 -6.44024904723E-04 +7.74409869328E-01 +3.06443657450E-01
2.73000000000E+09 +7.58123575799E-01 +1.47694543956E-01 -3.70153476475E-04 -9.07619170543E-04 -3.44710354857E-04 -7.84957694315E-04 +7.75740523101E-01 +2.92640689139E-01
2.73500000000E+09 +7.56335659341E-01 +1.30721547674E-01 -5.89603897176E-04 -7.42551956826E-04 -5.59793622400E-04 -6.80401771832E-04 +7.76605074993E-01 +2.77926988843E-01
2.74000000000E+09 +7.53679087467E-01 +1.13983204989E-01 -7.17043433350E-04 -5.28479391058E-04 -6.31463114042E-04 -5.46937502729E-04 +7.77903725431E-01 +2.63081105809E-01
2.74500000000E+09 +7.49793288954E-01 +9.67558971303E-02 -7.50222498978E-04 -3.77592316596E-04 -6.40344543742E-04 -4.53963953303E-04 +7.79022000475E-01 +2.47874256534E-01
2.75000000000E+09 +7.44790665553E-01 +7.94135634516E-02 -5.85748034985E-04 -3.21744336042E-04 -5.77061340612E-04 -4.12469404850E-04 +7.79750418796E-01 +2.32965801311E-01
2.75500000000E+09 +7.38915094001E-01 +6.27757969896E-02 -5.97549238692E-04 -3.62186103482E-04 -5.81957009855E-04 -4.87873424785E-04 +7.79887007637E-01 +2.17626311752E-01
2.76000000000E+09 +7.33528760746E-01 +4.64780343386E-02 -6.91815468188E-04 -4.80301196339E-04 -7.61499673414E-04 -5.21562086730E-04 +7.79193759899E-01 +2.02072797088E-01
2.76500000000E+09 +7.28493820861E-01 +2.98381861382E-02 -9.55511473779E-04 -2.67674335481E-04 -1.01838447052E-03 -2.26115189616E-04 +7.78355893052E-01 +1.85291406750E-01
2.77000000000E+09 +7.23724637927E-01 +1.22011950780E-02 -8.87625921814E-04 -3.74087394923E-05 -8.34073280528E-04 -2.40400664486E-05 +7.77115220183E-01 +1.67999515287E-01
2.77500000000E+09 +7.19105479651E-01 -6.45056898780E-03 -7.17158131380E-04 +1.93831288395E-05 -7.54105085155E-04 +1.16008671894E-04 +7.75224611078E-01 +1.49920648335E-01
2.78000000000E+09 +7.13855731768E-01 -2.62555608655E-02 -8.15055608280E-04 -6.13656259686E-05 -8.19219577904E-04 -7.09504692030E-06 +7.73124201088E-01 +1.31839588814E-01
2.78500000000E+09 +7.07372249776E-01 -4.65069999935E-02 -8.42115786128E-04 +6.71124973321E-05 -8.04963653668E-04 +1.17420879271E-04 +7.70374149978E-01 +1.14049398867E-01
2.79000000000E+09 +7.00422683464E-01 -6.69329117566E-02 -9.45259400778E-04 +1.05573765897E-04 -8.58423612588E-04 +1.58014417217E-04 +7.66730112637E-01 +9.68608847799E-02
2.79500000000E+09 +6.92351336846E-01 -8.76021051324E-02 -1.03432018644E-03 +3.90172758995E-04 -9.48251785586E-04 +3.23103776117E-04 +7.62798382542E-01 +7.94413680383E-02
2.80000000000E+09 +6.82179011592E-01 -1.08076102293E-01 -6.28273014383E-04 +5.93432926374E-04 -6.19313189341E-04 +5.37580328752E-04 +7.58217863798E-01 +6.09578710016E-02
2.80500000000E+09 +6.70970093429E-01 -1.26891265530E-01 -5.58241432023E-04 +2.13086155482E-04 -5.76975014567E-04 +1.88461663534E-04 +7.52276358718E-01 +4.16175210822E-02
2.81000000000E+09 +6.58774705584E-01 -1.44580237101E-01 -8.03475117716E-04 +2.19985387849E-04 -7.90993233516E-04 +2.00623546464E-04 +7.45590119298E-01 +2.23902211692E-02
2.81500000000E+09 +6.45914274058E-01 -1.61451060616E-01 -9.65835239157E-04 +3.97782418409E-04 -1.00444777914E-03 +4.32111892324E-04 +7.38215089598E-01 +3.35056162381E-03
2.82000000000E+09 +6.32237145040E-01 -1.78090513437E-01 -1.19666612952E-03 +7.80084788327E-04 -1.08729528663E-03 +8.39471814281E-04 +7.31028969351E-01 -1.59976097474E-02
2.82500000000E+09 +6.17943952349E-01 -1.94842106311E-01 -6.38612736890E-04 +1.21577997435E-03 -5.73085578330E-04 +1.16526258396E-03 +7.21908214218E-01 -3.59515139287E-02
2.83000000000E+09 +6.01376642634E-01 -2.12593780995E-01 -3.75276297938E-04 +9.63094354442E-04 -3.55445409970E-04 +8.73627014133E-04 +7.12191320030E-01 -5.51193878232E-02
2.83500000000E+09 +5.83349126785E-01 -2.30184192741E-01 -5.27220344868E-04 +9.75292254148E-04 -4.97955439224E-04 +9.54568345073E-04 +7.01569954795E-01 -7.49112443136E-02
2.84000000000E+09 +5.63785527132E-01 -2.47951293370E-01 -2.51324453681E-04 +1.18468072959E-03 -3.43379494654E-04 +1.15871844035E-03 +6.90583449777E-01 -9.47242225072E-02
2.84500000000E+09 +5.42791249293E-01 -2.66256085096E-01 -3.65922803163E-04 +1.02863220204E-03 -3.34831439180E-04 +1.07188955117E-03 +6.78722625741E-01 -1.15354798926E-01
2.85000000000E+09 +5.19876879136E-01 -2.84493397357E-01 -3.89360163959E-05 +1.59421712436E-03 -8.36483106730E-05 +1.53756238991E-03 +6.65126771581E-01 -1.36318029503E-01
2.85500000000E+09 +4.95434886165E-01 -3.02521802006E-01 +6.17700901599E-04 +1.06008479126E-03 +6.45498092175E-04 +1.05982127936E-03 +6.50407538633E-01 -1.56459271689E-01
2.86000000000E+09 +4.69484903323E-01 -3.19025030140E-01 +1.31656740221E-04 +5.36034213022E-04 +1.22495618966E-04 +4.80575317340E-04 +6.34633158975E-01 -1.76613090765E-01
2.86500000000E+09 +4.43423006364E-01 -3.33339808023E-01 -3.80461811961E-04 +1.11135755341E-03 -3.35782812490E-04 +1.12451158505E-03 +6.17455618878E-01 -1.96908698827E-01
2.87000000000E+09 +4.17852739269E-01 -3.47075475435E-01 +4.02897317154E-04 +1.65237806507E-03 +3.70887711777E-04 +1.65373020866E-03 +5.99262405611E-01 -2.16851942538E-01
2.87500000000E+09 +3.91846613814E-01 -3.60072787234E-01 +5.68620203439E-04 +1.30553210131E-03 +5.93444967709E-04 +1.33257932412E-03 +5.79094519076E-01 -2.37011976147E-01
2.88000000000E+09 +3.64655682528E-01 -3.71998919844E-01 +9.11438023558E-04 +1.42227452490E-03 +8.83515213256E-04 +1.32454645509E-03 +5.58175358480E-01 -2.55755014895E-01
2.88500000000E+09 +3.36385435510E-01 -3.82488336349E-01 +1.12599019234E-03 +9.92511469577E-04 +1.05294874261E-03 +9.23661558259E-04 +5.35987868540E-01 -2.74911325560E-01
2.89000000000E+09 +3.06428581836E-01 -3.90627615440E-01 +8.99525478850E-04 +9.40521813147E-04 +8.83884790476E-04 +8.87353937788E-04 +5.10915369454E-01 -2.93139139608E-01
2.89500000000E+09 +2.76344335930E-01 -3.96997702516E-01 +1.11494332343E-03 +1.16682106380E-03 +9.84368795012E-04 +1.17447276159E-03 +4.84354417435E-01 -3.10509647685E-01
2.90000000000E+09 +2.44352758104E-01 -4.01856824388E-01 +1.74804726476E-03 +1.27989235257E-03 +1.75110732210E-03 +1.37638643118E-03 +4.56040789942E-01 -3.27347250765E-01
2.90500000000E+09 +2.10810154913E-01 -4.04758196355E-01 +2.25505005847E-03 +5.42517286177E-04 +2.26186216192E-03 +5.46024106003E-04 +4.25759555657E-01 -3.42587915636E-01
2.91000000000E+09 +1.75293460663E-01 -4.04758375549E-01 +2.07276598578E-03 -2.06372423672E-04 +2.03659517882E-03 -2.66994718492E-04 +3.94862854544E-01 -3.56923054704E-01
2.91500000000E+09 +1.39722405545E-01 -4.01340252231E-01 +1.77917326072E-03 -1.99281887896E-04 +1.67979098456E-03 -2.18664257721E-04 +3.62636583201E-01 -3.68897059492E-01
2.92000000000E+09 +1.04854590885E-01 -3.94927851978E-01 +1.94756361682E-03 -7.13377884963E-04 +1.83534416718E-03 -5.94477430092E-04 +3.29379405526E-01 -3.79704121371E-01
2.92500000000E+09 +7.07572523383E-02 -3.88190702858E-01 +1.49856855962E-03 -8.63636682403E-04 +1.45458669765E-03 -7.07193284626E-04 +2.93177593727E-01 -3.88441078348E-01
2.93000000000E+09 +3.55237359848E-02 -3.78874384829E-01 +1.56848074389E-03 -8.51530546937E-04 +1.51948210299E-03 -7.52004481181E-04 +2.55477288232E-01 -3.93822999039E-01
2.93500000000E+09 +1.80706080993E-03 -3.67032637636E-01 +1.45015423708E-03 -1.42458333402E-03 +1.55782049730E-03 -1.33373701418E-03 +2.17923150536E-01 -3.97168906591E-01
2.94000000000E+09 -3.17516773716E-02 -3.53290518198E-01 +9.93765998595E-04 -1.37105079970E-03 +1.05894222423E-03 -1.36450348952E-03 +1.80293694889E-01 -3.99669237914E-01
2.94500000000E+09 -6.35821721438E-02 -3.36962651486E-01 +1.01429265010E-03 -1.43688036249E-03 +1.09168529566E-03 -1.38041607700E-03 +1.40854989098E-01 -4.01717886178E-01
2.95000000000E+09 -9.54520433180E-02 -3.19057887373E-01 +7.77425887323E-04 -1.89423654127E-03 +8.65019616517E-04 -1.88133240343E-03 +9.93739862273E-02 -3.98761319497E-01
2.95500000000E+09 -1.26332994278E-01 -2.97333064011E-01 +4.20440559399E-04 -1.69695931356E-03 +4.94557584390E-04 -1.73670763900E-03 +5.96398914016E-02 -3.92196579554E-01
2.96000000000E+09 -1.54471154796E-01 -2.72259895699E-01 +1.22440192355E-04 -2.33272383197E-03 +1.74837427958E-04 -2.42573518311E-03 +2.00967749744E-02 -3.83430146973E-01
2.96500000000E+09 -1.80282607378E-01 -2.46424069440E-01 -1.11410748150E-03 -1.77652192199E-03 -1.19325262734E-03 -1.84517375389E-03 -2.02420734916E-02 -3.72518741444E-01
2.97000000000E+09 -2.04916837397E-01 -2.17608297743E-01 -8.47010819611E-04 -7.82111275974E-04 -8.58368336621E-04 -7.50838337290E-04 -6.16883541053E-02 -3.57607140094E-01
2.97500000000E+09 -2.27062291018E-01 -1.88152247473E-01 -4.23120902848E-05 -6.73898200875E-04 -8.25578699012E-05 -6.17632686145E-04 -1.00171018549E-01 -3.39267706679E-01
2.98000000000E+09 -2.48384623749E-01 -1.56759008455E-01 -1.79753895524E-04 -1.59013609226E-03 -1.40364967454E-04 -1.54971426278E-03 -1.38012054926E-01 -3.20712209915E-01
2.98500000000E+09 -2.67280533309E-01 -1.24431317782E-01 -1.02351586168E-03 -1.30568803456E-03 -1.02294581887E-03 -1.38038917216E-03 -1.75685319913E-01 -2.97840080330E-01
2.99000000000E+09 -2.84202913648E-01 -9.10599738312E-02 -1.14014002453E-03 -8.29526804772E-04 -1.20811137341E-03 -9.53826963986E-04 -2.11758714670E-01 -2.72970525828E-01
2.99500000000E+09 -2.99219883033E-01 -5.83326569416E-02 -9.84666549156E-04 -4.98919686791E-04 -1.07814301334E-03 -4.91340433568E-04 -2.46566623414E-01 -2.42685379843E-01
3.00000000000E+09 -3.12283320343E-01 -2.48653255977E-02 -7.20774904540E-04 -3.35066182202E-04 -6.68973831550E-04 -3.05216264819E-04 -2.77229696562E-01 -2.09913549558E-01
3.00500000000E+09 -3.23353983121E-01 +7.82122755987E-03 -6.22185250586E-04 -6.87951598376E-04 -5.57163184673E-04 -6.92048985644E-04 -3.05432551003E-01 -1.77150281336E-01
3.01000000000E+09 -3.31746345911E-01 +4.07124840272E-02 -1.32793738143E-03 -8.25606412737E-04 -1.23609467031E-03 -8.82303017916E-04 -3.33108314127E-01 -1.42408499949E-01
3.01500000000E+09 -3.37145547950E-01 +7.30830954638E-02 -1.37085581498E-03 -8.75905683502E-06 -1.38746209666E-03 -5.66231502437E-05 -3.57135920760E-01 -1.05020560207E-01
3.02000000000E+09 -3.39440522222E-01 +1.04741871475E-01 -9.51788628765E-04 +2.97410358045E-04 -9.02204969420E-04 +2.93486775470E-04 -3.77352617067E-01 -6.65220142509E-02
3.02500000000E+09 -3.38733389105E-01 +1.35308192784E-01 -3.83770576411E-04 -6.37260979278E-05 -2.96842054685E-04 -3.35598561790E-05 -3.93897679317E-01 -2.64126732566E-02
3.03000000000E+09 -3.35472650369E-01 +1.64982192375E-01 -1.03689059498E-03 -8.76945056495E-04 -1.01530501113E-03 -9.02371816446E-04 -4.06997921620E-01 +1.31832319034E-02
3.03500000000E+09 -3.30524383946E-01 +1.94362554988E-01 -1.88828836944E-03 -2.81978067581E-05 -1.82745214506E-03 -7.76403503310E-05 -4.18607741577E-01 +5.31403431612E-02
3.04000000000E+09 -3.22253684772E-01 +2.23963463665E-01 -1.63520982693E-03 +9.75407685290E-04 -1.67137196791E-03 +8.94727039922E-04 -4.26875698475E-01 +9.39497884180E-02
3.04500000000E+09 -3.12271700606E-01 +2.52315632337E-01 -3.93756152614E-04 +1.25869745330E-03 -4.30850913460E-04 +1.37461988471E-03 -4.32850469589E-01 +1.34324471164E-01
3.05000000000E+09 -3.00791221658E-01 +2.80143721315E-01 -1.80811012479E-04 +3.98884218615E-04 -1.66946358820E-04 +3.57568477158E-04 -4.35448531976E-01 +1.74783345197E-01
3.05500000000E+09 -2.88134196958E-01 +3.07111025099E-01 -4.88692036566E-04 +2.15977729778E-04 -5.11789729406E-04 +2.34077589370E-04 -4.35097040801E-01 +2.13864010846E-01
3.06000000000E+09 -2.74514090013E-01 +3.33537011991E-01 -1.10466996579E-03 +4.79726382057E-04 -1.01404014395E-03 +5.10224811560E-04 -4.32943832059E-01 +2.52066034867E-01
3.06500000000E+09 -2.60149187536E-01 +3.58613029110E-01 -5.37527272429E-04 +1.21197437572E-03 -4.62855454499E-04 +1.13257196626E-03 -4.28119982901E-01 +2.89844112302E-01
3.07000000000E+09 -2.45153057872E-01 +3.82484602544E-01 -2.77084923829E-05 +1.08547521968E-03 -7.45441795366E-05 +1.07425321908E-03 -4.20847930930E-01 +3.26037613013E-01
