# Hz S RI R 50
! CMT, C1220, 16058040, 17.2.0/1
! Date: 15/08/2018 10:47:49
! Data: Format (Calibration Info)
! Freq                      S11: Re/Im (F2)                       S21: Re/Im (F2)                       S12: Re/Im (F2)                       S22: Re/Im (F2)            
2.50000000000E+09 +5.81522473452E-01 +6.44867972518E-01 -1.39255970058E-03 +6.36884542598E-04 -1.54364650084E-03 +7.01506817062E-04 +5.63333901396E-01 +7.25225821444E-01
2.50500000000E+09 +5.89070556214E-01 +6.35673087854E-01 -1.35151145472E-03 +8.07258020476E-04 -1.37313574739E-03 +8.65352421971E-04 +5.69116766249E-01 +7.19662299736E-01
2.51000000000E+09 +5.97406575575E-01 +6.26155553617E-01 -1.32668926656E-03 +9.42878838418E-04 -1.23701730367E-03 +9.38430153293E-04 +5.74808792313E-01 +7.14199243960E-01
2.51500000000E+09 +6.05746226878E-01 +6.17230168499E-01 -1.27230298377E-03 +1.12966833519E-03 -1.21999783719E-03 +1.05659945122E-03 +5.80032557529E-01 +7.08605062951E-01
2.52000000000E+09 +6.13326651351E-01 +6.08905817885E-01 -1.03621727804E-03 +1.24432253042E-03 -1.06199460364E-03 +1.19908557725E-03 +5.85025096143E-01 +7.02312448738E-01
2.52500000000E+09 +6.19561012136E-01 +6.01637391218E-01 -8.78354233307E-04 +1.29559777521E-03 -9.38569599279E-04 +1.31517808584E-03 +5.90446246923E-01 +6.96032374168E-01
2.53000000000E+09 +6.24359166957E-01 +5.95443232534E-01 -7.90271617877E-04 +1.29058718424E-03 -8.55511736466E-04 +1.35884724029E-03 +5.96513203733E-01 +6.89049892630E-01
2.53500000000E+09 +6.28097923745E-01 +5.89841366606E-01 -7.77496808062E-04 +1.45006226014E-03 -7.95097478736E-04 +1.44611194979E-03 +6.02366856543E-01 +6.82467100166E-01
2.54000000000E+09 +6.31010827215E-01 +5.84210733109E-01 -6.46752740244E-04 +1.64032476297E-03 -6.66351441183E-04 +1.55814646645E-03 +6.08379497479E-01 +6.76252831221E-01
2.54500000000E+09 +6.34058977024E-01 +5.78141143511E-01 -4.78423920159E-04 +1.73242805811E-03 -5.62676012680E-04 +1.69738167665E-03 +6.14046897634E-01 +6.70168868435E-01
2.55000000000E+09 +6.37670827718E-01 +5.71103559965E-01 -1.30783686177E-04 +1.81483865694E-03 -3.08518570178E-04 +1.90814963704E-03 +6.19181417003E-01 +6.64279452621E-01
2.55500000000E+09 +6.42725027063E-01 +5.62643214717E-01 +7.47545803990E-05 +1.64044483724E-03 -7.89169760872E-06 +1.93592876667E-03 +6.24318515635E-01 +6.57998125404E-01
2.56000000000E+09 +6.49257126577E-01 +5.53459795781E-01 +7.70344950853E-05 +1.58526657242E-03 +1.94608711532E-04 +1.87226617288E-03 +6.29415927913E-01 +6.50970207442E-01
2.56500000000E+09 +6.57140108606E-01 +5.43292088480E-01 +1.40539144084E-04 +1.66449396563E-03 +5.09687364705E-04 +1.83633211643E-03 +6.34559824602E-01 +6.43802028705E-01
2.57000000000E+09 +6.65457295902E-01 +5.32798762780E-01 +3.61586462048E-04 +1.76554329905E-03 +7.42607811813E-04 +1.63530122188E-03 +6.40317783609E-01 +6.36251859932E-01
2.57500000000E+09 +6.73414298942E-01 +5.22577171224E-01 +6.00664637505E-04 +1.77423733278E-03 +7.95789635413E-04 +1.40591493593E-03 +6.46260676334E-01 +6.28762573394E-01
2.58000000000E+09 +6.80145780821E-01 +5.13467120572E-01 +8.99858987693E-04 +1.60758760934E-03 +8.21272486393E-04 +1.33087852255E-03 +6.51901528359E-01 +6.21443316734E-01
2.58500000000E+09 +6.85533728108E-01 +5.05093658205E-01 +1.02949874685E-03 +1.39900486186E-03 +8.41550554190E-04 +1.22892967060E-03 +6.57214508966E-01 +6.13645932274E-01
2.59000000000E+09 +6.89437042736E-01 +4.97618285728E-01 +1.02654971536E-03 +1.22048206747E-03 +8.83122506563E-04 +1.27528779751E-03 +6.62011917332E-01 +6.06064145527E-01
2.59500000000E+09 +6.92195520214E-01 +4.90128964261E-01 +1.09338782669E-03 +1.25567242934E-03 +9.89485135274E-04 +1.33372363362E-03 +6.66999573725E-01 +5.97959946386E-01
2.60000000000E+09 +6.93947503226E-01 +4.82031456105E-01 +1.29745227485E-03 +1.19681831441E-03 +1.26149226561E-03 +1.23058120796E-03 +6.72152853533E-01 +5.89843242648E-01
2.60500000000E+09 +6.95942830038E-01 +4.72304789737E-01 +1.36639154131E-03 +9.21045929112E-04 +1.40579842052E-03 +9.68108249488E-04 +6.77929568783E-01 +5.80950965772E-01
2.61000000000E+09 +6.98355031814E-01 +4.60520235880E-01 +1.37881368525E-03 +8.20962143887E-04 +1.37299772590E-03 +8.30892437983E-04 +6.83103650673E-01 +5.71888377793E-01
2.61500000000E+09 +7.01946091792E-01 +4.46773214144E-01 +1.45759939772E-03 +7.40298090203E-04 +1.42037216380E-03 +7.67202305880E-04 +6.88024189383E-01 +5.63096996237E-01
2.62000000000E+09 +7.06306379502E-01 +4.30851544705E-01 +1.41318423448E-03 +5.46605486517E-04 +1.50244165819E-03 +5.29730375561E-04 +6.92817206618E-01 +5.54315535825E-01
2.62500000000E+09 +7.11498316470E-01 +4.14002446000E-01 +1.33311894751E-03 +5.28082834801E-04 +1.45460252127E-03 +4.93266117414E-04 +6.97818969569E-01 +5.45730987462E-01
2.63000000000E+09 +7.17211575035E-01 +3.97053593252E-01 +1.48170823466E-03 +6.02332909273E-04 +1.51722972577E-03 +4.10978253279E-04 +7.02631265238E-01 +5.36688810721E-01
2.63500000000E+09 +7.22399189710E-01 +3.80958011347E-01 +1.68175982559E-03 +3.77783784991E-04 +1.51382833700E-03 +2.24927347433E-04 +7.07312358302E-01 +5.27300306467E-01
2.64000000000E+09 +7.26843753969E-01 +3.66596251683E-01 +1.63447225420E-03 +1.79058044140E-04 +1.37670364426E-03 +1.27147185135E-04 +7.11929328638E-01 +5.17865404681E-01
2.64500000000E+09 +7.30048027765E-01 +3.54513605575E-01 +1.64455511142E-03 -1.04741743181E-05 +1.40339474853E-03 +1.89723140777E-04 +7.16532630445E-01 +5.08142838919E-01
2.65000000000E+09 +7.32068953440E-01 +3.44479855772E-01 +1.51783192845E-03 -5.94861544080E-05 +1.42853634623E-03 +1.36655751057E-04 +7.21229126562E-01 +4.98033884451E-01
2.65500000000E+09 +7.33535513946E-01 +3.35235483759E-01 +1.45518206470E-03 -2.43110990669E-05 +1.54849893300E-03 +5.97796864225E-05 +7.25214213789E-01 +4.87348430809E-01
2.66000000000E+09 +7.34606823218E-01 +3.26019340147E-01 +1.57860781047E-03 -3.60337663487E-05 +1.68322355809E-03 -2.53151987907E-05 +7.29432585822E-01 +4.76164411248E-01
2.66500000000E+09 +7.35527455435E-01 +3.15984954224E-01 +1.55777791322E-03 -1.74939493932E-04 +1.60502404103E-03 -2.94677722826E-04 +7.33625481755E-01 +4.65149899538E-01
2.67000000000E+09 +7.36379143203E-01 +3.03838732420E-01 +1.63068326276E-03 -1.97828921243E-04 +1.58991670766E-03 -2.81168151479E-04 +7.38221633226E-01 +4.54558269737E-01
2.67500000000E+09 +7.37477663990E-01 +2.89628568893E-01 +1.76560076043E-03 -2.69148863905E-04 +1.63608521970E-03 -3.08229082982E-04 +7.42605134573E-01 +4.43254234993E-01
2.68000000000E+09 +7.38381655672E-01 +2.73497163932E-01 +1.84235186134E-03 -5.37384573191E-04 +1.80834574819E-03 -4.42783490444E-04 +7.46605962544E-01 +4.31933313166E-01
2.68500000000E+09 +7.39629421201E-01 +2.56395013481E-01 +1.70261936837E-03 -7.56943218019E-04 +1.71112464238E-03 -7.00565455680E-04 +7.49609209207E-01 +4.20331211479E-01
2.69000000000E+09 +7.40515204228E-01 +2.38959493966E-01 +1.69526987065E-03 -7.20904932960E-04 +1.68863827934E-03 -7.47552634063E-04 +7.52444206722E-01 +4.08404655407E-01
2.69500000000E+09 +7.41223698313E-01 +2.22534419762E-01 +1.88117791839E-03 -8.10767000401E-04 +1.84613473197E-03 -8.15753638369E-04 +7.55292432644E-01 +3.95729278565E-01
2.70000000000E+09 +7.41725914723E-01 +2.07218586677E-01 +2.04131426685E-03 -1.07717032642E-03 +1.97003954846E-03 -1.08646417047E-03 +7.58391477773E-01 +3.82483848328E-01
2.70500000000E+09 +7.42124934771E-01 +1.93392055380E-01 +1.98796364459E-03 -1.40877818430E-03 +1.98432422596E-03 -1.29940913751E-03 +7.61516434154E-01 +3.69077047469E-01
2.71000000000E+09 +7.41999348059E-01 +1.80561901055E-01 +1.81419907985E-03 -1.76967577429E-03 +1.91466279398E-03 -1.67911557650E-03 +7.64200590718E-01 +3.55765681804E-01
2.71500000000E+09 +7.41782580365E-01 +1.68066249028E-01 +1.61607557247E-03 -1.91306478759E-03 +1.75575037413E-03 -2.02754652171E-03 +7.66415359361E-01 +3.43348563767E-01
2.72000000000E+09 +7.41243890994E-01 +1.55453203235E-01 +1.55270624029E-03 -2.07042020798E-03 +1.54400974433E-03 -2.30977800654E-03 +7.68491608052E-01 +3.30490285704E-01
2.72500000000E+09 +7.40721274023E-01 +1.41339926061E-01 +1.34542715081E-03 -2.31831764743E-03 +1.10752837362E-03 -2.42479471519E-03 +7.69655708929E-01 +3.17045088760E-01
2.73000000000E+09 +7.39308180817E-01 +1.25497043173E-01 +1.33162831451E-03 -2.42823297969E-03 +1.03144333636E-03 -2.32579471655E-03 +7.70716694555E-01 +3.02698755827E-01
2.73500000000E+09 +7.37038993994E-01 +1.07946375441E-01 +1.06710005855E-03 -2.89094376795E-03 +9.56923793648E-04 -2.46612249058E-03 +7.71342066833E-01 +2.87897809864E-01
2.74000000000E+09 +7.34206173165E-01 +8.96456395953E-02 +6.59422998097E-04 -2.96366794169E-03 +8.26824950618E-04 -2.54811858639E-03 +7.72826329352E-01 +2.73211854355E-01
2.74500000000E+09 +7.30276016933E-01 +7.04942673943E-02 +3.95171225018E-04 -2.97552518559E-03 +8.14502990999E-04 -2.79411978202E-03 +7.74124146416E-01 +2.58300184113E-01
2.75000000000E+09 +7.25209446218E-01 +5.19025823114E-02 +4.22754311281E-04 -2.98839505910E-03 +7.97289737567E-04 -3.05367879574E-03 +7.75138676266E-01 +2.43162058947E-01
2.75500000000E+09 +7.19797624897E-01 +3.45328157198E-02 +2.14166603818E-04 -3.51266200589E-03 +3.97259907265E-04 -3.78258415923E-03 +7.74985929280E-01 +2.28276043336E-01
2.76000000000E+09 +7.14519942986E-01 +1.76545622063E-02 -3.56906363277E-04 -3.65093057294E-03 -3.45955934596E-04 -3.90804072661E-03 +7.74493622751E-01 +2.12944084671E-01
2.76500000000E+09 +7.08781818316E-01 +1.25924140703E-03 -1.03137487205E-03 -3.73907274298E-03 -1.13821997065E-03 -3.87225501107E-03 +7.73750228825E-01 +1.96943925796E-01
2.77000000000E+09 +7.02923250903E-01 -1.55088847844E-02 -1.51864723356E-03 -3.34045699446E-03 -1.58581243395E-03 -3.39412342586E-03 +7.73196454585E-01 +1.79601717558E-01
2.77500000000E+09 +6.96999942942E-01 -3.32002560649E-02 -1.48634437577E-03 -2.83599432625E-03 -1.57132884558E-03 -2.92097113679E-03 +7.71623499048E-01 +1.61400034515E-01
2.78000000000E+09 +6.90494308367E-01 -5.20837794145E-02 -1.30178232028E-03 -3.20406173243E-03 -1.48255387677E-03 -3.15459202239E-03 +7.69637966468E-01 +1.43759779524E-01
2.78500000000E+09 +6.83528215317E-01 -7.21002691811E-02 -1.82496881734E-03 -3.51150111576E-03 -1.99908055055E-03 -3.38887746527E-03 +7.67642397406E-01 +1.26079643571E-01
2.79000000000E+09 +6.76317707948E-01 -9.38615556451E-02 -2.36597432831E-03 -3.29445318693E-03 -2.45629698579E-03 -3.04430936019E-03 +7.64794049881E-01 +1.08751672580E-01
2.79500000000E+09 +6.67826284618E-01 -1.16104330321E-01 -2.64949758287E-03 -3.36944829103E-03 -2.48307101205E-03 -3.06904245796E-03 +7.61159481172E-01 +9.06717589089E-02
2.80000000000E+09 +6.58274112235E-01 -1.37595812023E-01 -3.21757561707E-03 -3.14832457071E-03 -2.99262974902E-03 -3.16336191447E-03 +7.56115365751E-01 +7.19972041547E-02
2.80500000000E+09 +6.48164334511E-01 -1.57594754390E-01 -3.40971502221E-03 -3.08687972338E-03 -3.27126506903E-03 -3.18700234440E-03 +7.50272672501E-01 +5.25499273142E-02
2.81000000000E+09 +6.37199471492E-01 -1.75293575364E-01 -4.15150876984E-03 -3.17968728861E-03 -4.20162457393E-03 -3.32386627823E-03 +7.43611908646E-01 +3.35775036347E-02
2.81500000000E+09 +6.25707232115E-01 -1.91084091049E-01 -4.82165624451E-03 -2.53270516189E-03 -4.97546322259E-03 -2.45306513692E-03 +7.37445863028E-01 +1.38399133664E-02
2.82000000000E+09 +6.13474191907E-01 -2.05770550819E-01 -5.17813202896E-03 -2.39628469862E-03 -5.23166042330E-03 -2.14966095720E-03 +7.29980976870E-01 -6.85340180430E-03
2.82500000000E+09 +5.99434127774E-01 -2.20020001904E-01 -5.92697714267E-03 -1.78600994848E-03 -5.74125136812E-03 -1.55553994988E-03 +7.21139902901E-01 -2.69737167215E-02
2.83000000000E+09 +5.83816619347E-01 -2.34182147336E-01 -6.30928243523E-03 -1.05286642324E-03 -5.94791325454E-03 -9.83098529269E-04 +7.11351696423E-01 -4.63724134106E-02
2.83500000000E+09 +5.67067441474E-01 -2.50170250849E-01 -6.80094789079E-03 -3.27635199460E-04 -6.54935143140E-03 -4.77931535951E-04 +7.01522594130E-01 -6.63014612879E-02
2.84000000000E+09 +5.46991204464E-01 -2.68344714244E-01 -7.06150299427E-03 +7.12333736035E-04 -7.02246799105E-03 +4.59821515720E-04 +6.90163989095E-01 -8.63024272623E-02
2.84500000000E+09 +5.24536358617E-01 -2.87806200349E-01 -6.86596100979E-03 +1.58576733560E-03 -6.92733897760E-03 +1.46262856803E-03 +6.77736403831E-01 -1.07087511437E-01
2.85000000000E+09 +5.00258359114E-01 -3.07739102092E-01 -6.88659029768E-03 +2.01078497292E-03 -6.89442619818E-03 +2.03089262690E-03 +6.63958793783E-01 -1.27375856080E-01
2.85500000000E+09 +4.74511506671E-01 -3.27026781778E-01 -7.48352378933E-03 +2.94238637969E-03 -7.37628419112E-03 +2.87925243502E-03 +6.48959265081E-01 -1.47788368928E-01
2.86000000000E+09 +4.49876324388E-01 -3.44666525392E-01 -7.11640845466E-03 +4.31791026641E-03 -7.04122877328E-03 +4.22197706699E-03 +6.33082658943E-01 -1.67241975607E-01
2.86500000000E+09 +4.26361631035E-01 -3.60712233714E-01 -6.86459514973E-03 +5.14337050508E-03 -6.88812613628E-03 +5.06672693089E-03 +6.16770994858E-01 -1.87765234475E-01
2.87000000000E+09 +4.03653282849E-01 -3.75302061261E-01 -6.44322164960E-03 +6.45603056548E-03 -6.43796995555E-03 +6.52104423368E-03 +5.98259607133E-01 -2.08045501859E-01
2.87500000000E+09 +3.81446112372E-01 -3.87962187926E-01 -5.70893205758E-03 +7.29771788778E-03 -5.51407447846E-03 +7.35912149273E-03 +5.77721036847E-01 -2.27293295812E-01
2.88000000000E+09 +3.58681273813E-01 -3.98793491596E-01 -5.09108960057E-03 +8.04385772400E-03 -4.69530758627E-03 +7.93813518965E-03 +5.57160356177E-01 -2.45476921807E-01
2.88500000000E+09 +3.34542344690E-01 -4.07703636159E-01 -4.44632998798E-03 +9.32487825112E-03 -4.10025580258E-03 +8.78903944422E-03 +5.34844884250E-01 -2.63848503510E-01
2.89000000000E+09 +3.09080971524E-01 -4.16100154816E-01 -3.17123442363E-03 +1.05024812988E-02 -3.18840037117E-03 +9.80718666209E-03 +5.10833627302E-01 -2.82307534038E-01
2.89500000000E+09 +2.79911472504E-01 -4.23443387982E-01 -1.37965487621E-03 +1.09333497238E-02 -1.81908644740E-03 +1.05711786805E-02 +4.84029212329E-01 -3.00059363787E-01
2.90000000000E+09 +2.48818588989E-01 -4.29437908415E-01 -4.31563299575E-04 +1.09196358012E-02 -8.69396885884E-04 +1.09119195570E-02 +4.57119591771E-01 -3.16073533833E-01
2.90500000000E+09 +2.14968211300E-01 -4.35101061210E-01 +7.42614677016E-04 +1.17421074507E-02 +6.72433454006E-04 +1.20176142723E-02 +4.28693818708E-01 -3.32093016192E-01
2.91000000000E+09 +1.79577940679E-01 -4.38232822998E-01 +2.43685477773E-03 +1.21621500634E-02 +2.68293806055E-03 +1.19598061937E-02 +3.99406971565E-01 -3.46915593783E-01
2.91500000000E+09 +1.45602150454E-01 -4.39987411098E-01 +4.64313688879E-03 +1.26994592323E-02 +4.76305122509E-03 +1.20271095657E-02 +3.67875274493E-01 -3.59773537754E-01
2.92000000000E+09 +1.11287080009E-01 -4.41172145952E-01 +7.09022203949E-03 +1.16486275568E-02 +6.51510524625E-03 +1.09330649407E-02 +3.35249987303E-01 -3.71724517731E-01
2.92500000000E+09 +7.77048020638E-02 -4.40323841695E-01 +8.69471158256E-03 +1.04724151718E-02 +7.76755117877E-03 +1.03651669660E-02 +2.99693770955E-01 -3.80451686314E-01
2.93000000000E+09 +4.49109073915E-02 -4.36824113156E-01 +9.80502608834E-03 +9.17063560433E-03 +9.06567007124E-03 +9.54631558365E-03 +2.63303546375E-01 -3.88337894245E-01
2.93500000000E+09 +1.27454397578E-02 -4.30908271514E-01 +1.09796445969E-02 +8.42102458148E-03 +1.06362989914E-02 +8.88546863410E-03 +2.24840165073E-01 -3.93878983299E-01
2.94000000000E+09 -1.95793271973E-02 -4.21975120482E-01 +1.22990107109E-02 +7.41687796646E-03 +1.21365811844E-02 +7.70505854795E-03 +1.85297906214E-01 -3.97974179814E-01
2.94500000000E+09 -5.10560426717E-02 -4.09842258921E-01 +1.46335326986E-02 +5.82054365220E-03 +1.44097837231E-02 +6.21362239689E-03 +1.44784539422E-01 -3.97938002412E-01
2.95000000000E+09 -8.33185462405E-02 -3.96035441183E-01 +1.55397880575E-02 +2.91169352036E-03 +1.54695533551E-02 +3.56368460895E-03 +1.05550273382E-01 -3.95940751227E-01
2.95500000000E+09 -1.16924978954E-01 -3.78468518251E-01 +1.55757383612E-02 +3.89511783868E-04 +1.59394739248E-02 +1.02127966352E-03 +6.57024173997E-02 -3.91732376578E-01
2.96000000000E+09 -1.49338384463E-01 -3.57625306874E-01 +1.54663913585E-02 -1.73416469940E-03 +1.61758510129E-02 -1.53205496835E-03 +2.36570225827E-02 -3.84563212880E-01
2.96500000000E+09 -1.80574038856E-01 -3.35224592362E-01 +1.49767007407E-02 -3.55647595382E-03 +1.54627638347E-02 -4.02007921873E-03 -1.73456210360E-02 -3.72249468026E-01
2.97000000000E+09 -2.10581245405E-01 -3.11271940368E-01 +1.48343622896E-02 -5.30199687836E-03 +1.45797168924E-02 -5.78730975668E-03 -5.84381312766E-02 -3.58136951813E-01
2.97500000000E+09 -2.38563057535E-01 -2.85598350505E-01 +1.49727029023E-02 -7.81767133798E-03 +1.43950229501E-02 -7.71621451789E-03 -9.79527454126E-02 -3.41285792578E-01
2.98000000000E+09 -2.64657109209E-01 -2.59141747363E-01 +1.31380946954E-02 -1.06540883138E-02 +1.31192252366E-02 -9.98232718280E-03 -1.37001608554E-01 -3.22244064085E-01
2.98500000000E+09 -2.88824916585E-01 -2.30415723089E-01 +1.15155124098E-02 -1.24647816892E-02 +1.22232735017E-02 -1.21443525335E-02 -1.73628459268E-01 -2.99772664582E-01
2.99000000000E+09 -3.09830679194E-01 -2.00516032364E-01 +9.18300786626E-03 -1.38082840811E-02 +9.91879735366E-03 -1.42823189500E-02 -2.10613735621E-01 -2.74687364746E-01
2.99500000000E+09 -3.28994610011E-01 -1.70599074898E-01 +7.42972738278E-03 -1.48949954984E-02 +7.25508667695E-03 -1.58094418926E-02 -2.44058916233E-01 -2.44994534131E-01
3.00000000000E+09 -3.48616773515E-01 -1.38970716295E-01 +5.19480233679E-03 -1.57716549220E-02 +4.36608799729E-03 -1.60824722006E-02 -2.75836890358E-01 -2.13641306457E-01
3.00500000000E+09 -3.64991530559E-01 -1.04752440438E-01 +2.94255926371E-03 -1.69219051151E-02 +2.22162797800E-03 -1.64386333249E-02 -3.05713715563E-01 -1.80842437731E-01
3.01000000000E+09 -3.79096297606E-01 -7.14651309174E-02 -2.88925386498E-04 -1.69817424858E-02 -1.95088289035E-04 -1.62474527289E-02 -3.34199387974E-01 -1.44882316712E-01
3.01500000000E+09 -3.91848276350E-01 -3.77619047599E-02 -2.73441346912E-03 -1.60553810405E-02 -2.25793018564E-03 -1.57432083301E-02 -3.58553160481E-01 -1.08010873487E-01
3.02000000000E+09 -4.00874648586E-01 -3.94768611951E-03 -4.60139327875E-03 -1.50330442186E-02 -4.25441936426E-03 -1.50885394996E-02 -3.79317712325E-01 -6.88409090861E-02
3.02500000000E+09 -4.07101847076E-01 +2.77727643186E-02 -6.28947899773E-03 -1.44208562219E-02 -6.21438086599E-03 -1.44814171946E-02 -3.96154228197E-01 -2.99813836983E-02
3.03000000000E+09 -4.11009691688E-01 +5.91692804985E-02 -8.25539450921E-03 -1.32139417088E-02 -8.08036690582E-03 -1.31330486421E-02 -4.10446322562E-01 +1.05596120892E-02
3.03500000000E+09 -4.11579601252E-01 +9.00693735102E-02 -1.01759750711E-02 -1.22229958252E-02 -9.77322245131E-03 -1.24030723961E-02 -4.21668854607E-01 +5.01737876657E-02
3.04000000000E+09 -4.09115662916E-01 +1.21107286086E-01 -1.19294411387E-02 -9.52698191301E-03 -1.17593403417E-02 -1.01260774617E-02 -4.30068483072E-01 +9.16728364764E-02
3.04500000000E+09 -4.03809481470E-01 +1.52785556477E-01 -1.20151364869E-02 -7.61456638008E-03 -1.25687884371E-02 -8.22896022434E-03 -4.35136620333E-01 +1.31448060891E-01
3.05000000000E+09 -3.95779518380E-01 +1.85697424166E-01 -1.25348212419E-02 -6.00508963789E-03 -1.34704093068E-02 -5.87820369354E-03 -4.37701751474E-01 +1.70937997926E-01
3.05500000000E+09 -3.84937905397E-01 +2.19448541884E-01 -1.28510232443E-02 -4.56193672106E-03 -1.33422777910E-02 -3.74084714493E-03 -4.38326687663E-01 +2.08985753984E-01
3.06000000000E+09 -3.72131131925E-01 +2.52679821156E-01 -1.33976972754E-02 -3.25955134489E-03 -1.30114432601E-02 -2.35755832054E-03 -4.36595527035E-01 +2.46189256991E-01
3.06500000000E+09 -3.57969411012E-01 +2.85123578478E-01 -1.41792274458E-02 -9.76600748179E-04 -1.32773708720E-02 -9.29768839901E-04 -4.33416476095E-01 +2.83338518884E-01
3.07000000000E+09 -3.43916405392E-01 +3.15128922734E-01 -1.34574130621E-02 +1.42689224144E-03 -1.30597660097E-02 +6.10039571755E-04 -4.26533536699E-01 +3.19691568918E-01
