# Hz S RI R 50
! CMT, C1220, 16058040, 17.2.0/1
! Date: 15/08/2018 09:55:09
! Data: Format (Calibration Info)
! Freq                      S11: Re/Im (F2)                       S21: Re/Im (F2)                       S12: Re/Im (F2)                       S22: Re/Im (F2)            
2.50000000000E+09 +5.97024854536E-01 +6.30323707626E-01 -3.94365907275E-04 -7.98414686711E-04 -4.33413251777E-04 -8.46154954230E-04 +5.77871028153E-01 +7.13617124105E-01
2.50500000000E+09 +6.03202018993E-01 +6.23102760624E-01 -4.20722424991E-04 -7.02205421147E-04 -4.97915861312E-04 -7.28937107423E-04 +5.83523323689E-01 +7.07987218935E-01
2.51000000000E+09 +6.09654734057E-01 +6.15789016821E-01 -4.89003630363E-04 -7.50207958519E-04 -4.66520072925E-04 -7.20664283671E-04 +5.89137717730E-01 +7.02684687384E-01
2.51500000000E+09 +6.16234772206E-01 +6.08229424744E-01 -5.69933473456E-04 -8.15719828137E-04 -5.44893625361E-04 -7.16155727154E-04 +5.94369130278E-01 +6.97376055048E-01
2.52000000000E+09 +6.22466401053E-01 +6.00478469367E-01 -7.50873218020E-04 -7.61566980622E-04 -7.41364277181E-04 -7.91366296712E-04 +5.99364551895E-01 +6.91474706545E-01
2.52500000000E+09 +6.28018793528E-01 +5.92838862612E-01 -8.91519333684E-04 -6.12543432978E-04 -8.75853301073E-04 -7.22778782578E-04 +6.05098095759E-01 +6.84973338924E-01
2.53000000000E+09 +6.33240579426E-01 +5.85567456649E-01 -9.02187083816E-04 -4.56268383926E-04 -9.29063375950E-04 -4.47239160651E-04 +6.11132104881E-01 +6.77698157059E-01
2.53500000000E+09 +6.37991497325E-01 +5.78614146042E-01 -7.99753042040E-04 -4.06528731904E-04 -8.03714548307E-04 -4.63346998256E-04 +6.17105569384E-01 +6.70579445485E-01
2.54000000000E+09 +6.42513891273E-01 +5.71832643542E-01 -9.21988129037E-04 -4.61356848558E-04 -8.77896326885E-04 -4.42339873179E-04 +6.22988356650E-01 +6.63879770840E-01
2.54500000000E+09 +6.47077605282E-01 +5.65118665409E-01 -1.06650515845E-03 -4.28127817893E-04 -1.03725642235E-03 -4.94593827002E-04 +6.28979197828E-01 +6.57482648736E-01
2.55000000000E+09 +6.51684446419E-01 +5.58332798192E-01 -1.15143626446E-03 -1.72200398139E-04 -1.20668860184E-03 -3.13749565766E-04 +6.34063120734E-01 +6.51270969366E-01
2.55500000000E+09 +6.56685051610E-01 +5.50875809114E-01 -1.12162263021E-03 +3.28091210318E-06 -1.35470109496E-03 -4.14695165262E-05 +6.39156952625E-01 +6.44800903234E-01
2.56000000000E+09 +6.62223773540E-01 +5.43613353285E-01 -1.04166294733E-03 +9.35067787287E-05 -1.23722433159E-03 +2.05944239186E-04 +6.44309027047E-01 +6.37611478313E-01
2.56500000000E+09 +6.68106278884E-01 +5.35654862357E-01 -9.68974005662E-04 +9.14106253134E-05 -1.08808436895E-03 +2.89105463742E-04 +6.49545299389E-01 +6.29846682346E-01
2.57000000000E+09 +6.74367227065E-01 +5.27313328918E-01 -1.08005620133E-03 +7.91184223472E-05 -1.04495521519E-03 +3.26180616599E-04 +6.55048095260E-01 +6.21840917023E-01
2.57500000000E+09 +6.80603329338E-01 +5.18569830406E-01 -1.30402217475E-03 +2.73890157858E-04 -1.10154191629E-03 +4.32314662913E-04 +6.60510385988E-01 +6.13904576916E-01
2.58000000000E+09 +6.86258540424E-01 +5.10030921190E-01 -1.18835661725E-03 +6.22929917559E-04 -9.63513890453E-04 +6.06400547824E-04 +6.65632971181E-01 +6.06342398967E-01
2.58500000000E+09 +6.91855179575E-01 +5.01258183383E-01 -9.73118088089E-04 +7.06078333657E-04 -8.17422002677E-04 +5.27407780146E-04 +6.70565682645E-01 +5.98788170417E-01
2.59000000000E+09 +6.96925898086E-01 +4.92773328809E-01 -8.58563146361E-04 +6.11774624277E-04 -8.95949218480E-04 +4.76216215937E-04 +6.75088508673E-01 +5.91241410664E-01
2.59500000000E+09 +7.01808652125E-01 +4.84232799141E-01 -9.85554356409E-04 +6.60056390913E-04 -1.00594932165E-03 +6.05868093406E-04 +6.79738960165E-01 +5.83097194926E-01
2.60000000000E+09 +7.06073388837E-01 +4.75801682647E-01 -9.94375770203E-04 +7.51752045423E-04 -9.88745033001E-04 +7.47369740166E-04 +6.84564976532E-01 +5.74443415378E-01
2.60500000000E+09 +7.10507372184E-01 +4.66779572855E-01 -1.00763755322E-03 +1.02734123842E-03 -9.63695176971E-04 +1.06620105993E-03 +6.89478969459E-01 +5.65417144090E-01
2.61000000000E+09 +7.14786266635E-01 +4.57160948019E-01 -7.94478947765E-04 +1.30365684392E-03 -8.15128961842E-04 +1.28715904475E-03 +6.94271476782E-01 +5.56454630037E-01
2.61500000000E+09 +7.19148698994E-01 +4.46878374728E-01 -3.69296462322E-04 +1.25215636054E-03 -4.81068007035E-04 +1.29427538531E-03 +6.99011633395E-01 +5.48128694323E-01
2.62000000000E+09 +7.23278248838E-01 +4.35886939013E-01 -4.19884597551E-04 +1.20430637829E-03 -3.89999437781E-04 +1.28698594746E-03 +7.03984560593E-01 +5.39170717433E-01
2.62500000000E+09 +7.27552495808E-01 +4.23848135738E-01 -2.96882958216E-04 +1.18329690943E-03 -1.79619354214E-04 +1.29171184282E-03 +7.08459761631E-01 +5.30156596278E-01
2.63000000000E+09 +7.31727350925E-01 +4.11293530717E-01 -1.81882923547E-04 +1.19093272395E-03 -1.27934998100E-05 +1.13950685340E-03 +7.12760565076E-01 +5.21445781748E-01
2.63500000000E+09 +7.35249480542E-01 +3.98612282937E-01 -2.70593591906E-04 +1.15118570750E-03 -1.02008193843E-04 +1.06112809327E-03 +7.17514366570E-01 +5.12189668970E-01
2.64000000000E+09 +7.38535536976E-01 +3.86478728946E-01 -9.81048293336E-05 +1.37735157128E-03 -5.67502038544E-05 +1.14439541510E-03 +7.22218090415E-01 +5.02534930381E-01
2.64500000000E+09 +7.42187556993E-01 +3.74589778575E-01 -4.24532254182E-05 +1.33871103251E-03 -1.22166064907E-04 +1.20614931548E-03 +7.26973981007E-01 +4.92818524859E-01
2.65000000000E+09 +7.45382026137E-01 +3.63014327987E-01 +1.62181549533E-04 +1.44398921701E-03 +9.90750284594E-06 +1.41452879028E-03 +7.31456512140E-01 +4.82678230099E-01
2.65500000000E+09 +7.48784911469E-01 +3.51237797801E-01 +3.54940886005E-04 +1.32169438322E-03 +2.26718828695E-04 +1.40538866645E-03 +7.35401700969E-01 +4.72414187678E-01
2.66000000000E+09 +7.51817875038E-01 +3.39286668648E-01 +3.93807566839E-04 +1.39336563627E-03 +4.22961858801E-04 +1.45051474483E-03 +7.39583877415E-01 +4.61652614340E-01
2.66500000000E+09 +7.54518182212E-01 +3.27632951389E-01 +5.71453381239E-04 +1.34059049451E-03 +7.22205001385E-04 +1.34691627001E-03 +7.44098543298E-01 +4.50350300096E-01
2.67000000000E+09 +7.57026823894E-01 +3.15363933400E-01 +6.47201154995E-04 +1.28866568494E-03 +6.52150021052E-04 +1.20047839100E-03 +7.48264810196E-01 +4.38878647301E-01
2.67500000000E+09 +7.59079138641E-01 +3.02105916936E-01 +8.61510102174E-04 +1.27937278355E-03 +7.48921375819E-04 +1.21988518125E-03 +7.52239100038E-01 +4.27286660544E-01
2.68000000000E+09 +7.60322393598E-01 +2.88738058329E-01 +9.38120157543E-04 +1.18013217677E-03 +8.30451282041E-04 +1.07905527996E-03 +7.55611146988E-01 +4.15971568426E-01
2.68500000000E+09 +7.61323695593E-01 +2.75085625828E-01 +9.85718920737E-04 +1.19150288518E-03 +9.05290357250E-04 +1.17079713077E-03 +7.58653291577E-01 +4.04664432265E-01
2.69000000000E+09 +7.62211206671E-01 +2.61288068478E-01 +1.19115646222E-03 +1.18044487143E-03 +1.18708406063E-03 +1.16416059212E-03 +7.61430601265E-01 +3.92814203094E-01
2.69500000000E+09 +7.63030172896E-01 +2.47396884293E-01 +1.32521438475E-03 +1.03759477641E-03 +1.27816830332E-03 +1.02798537556E-03 +7.64029132790E-01 +3.79952505997E-01
2.70000000000E+09 +7.64174891925E-01 +2.33314932602E-01 +1.50341254787E-03 +9.96686709443E-04 +1.42156802765E-03 +9.86754017970E-04 +7.66613009336E-01 +3.66411549120E-01
2.70500000000E+09 +7.64944252115E-01 +2.19065634417E-01 +1.84238932297E-03 +6.47205493404E-04 +1.70716537266E-03 +7.66030948164E-04 +7.68917509162E-01 +3.52835168627E-01
2.71000000000E+09 +7.65773746223E-01 +2.05291130407E-01 +1.66996892850E-03 +2.56599129857E-04 +1.66686631752E-03 +3.83523862982E-04 +7.71721361260E-01 +3.39768128789E-01
2.71500000000E+09 +7.67014931412E-01 +1.90982269671E-01 +1.42448595240E-03 +2.26362702995E-04 +1.53971721922E-03 +2.60294732810E-04 +7.74074711099E-01 +3.26981317505E-01
2.72000000000E+09 +7.68078816848E-01 +1.76280579848E-01 +1.45457776130E-03 +2.33273276765E-04 +1.63243987241E-03 +1.47958870076E-04 +7.75915091112E-01 +3.14160426630E-01
2.72500000000E+09 +7.68605835863E-01 +1.61125680277E-01 +1.60902192761E-03 +1.73102267467E-04 +1.59085559957E-03 +4.84671891413E-05 +7.76614696522E-01 +3.01161226189E-01
2.73000000000E+09 +7.68467703429E-01 +1.45556233754E-01 +1.64269147784E-03 +7.64559971655E-05 +1.55780719363E-03 -2.65337709548E-05 +7.77881695178E-01 +2.87610985127E-01
2.73500000000E+09 +7.67517830359E-01 +1.29189061565E-01 +1.70564479567E-03 -1.57015356717E-04 +1.56681525438E-03 -1.59414062886E-04 +7.79011721352E-01 +2.72836532814E-01
2.74000000000E+09 +7.65346628288E-01 +1.12860422486E-01 +1.71601670897E-03 -2.01765912519E-04 +1.57091242153E-03 -1.16597938521E-04 +7.80375364973E-01 +2.57328505806E-01
2.74500000000E+09 +7.62382243613E-01 +9.61405502206E-02 +1.72039270598E-03 -2.94046049074E-04 +1.65989531704E-03 -7.34492400251E-05 +7.80973883046E-01 +2.42169497057E-01
2.75000000000E+09 +7.58643679806E-01 +7.93951676938E-02 +1.97508272547E-03 -3.98155887244E-04 +2.07816466600E-03 -2.33312995004E-04 +7.81682345371E-01 +2.27195728506E-01
2.75500000000E+09 +7.54258683820E-01 +6.25981157665E-02 +1.94977441071E-03 -8.41326010991E-04 +2.21810345372E-03 -7.95440437289E-04 +7.81379340517E-01 +2.12439698547E-01
2.76000000000E+09 +7.49677262808E-01 +4.57354345059E-02 +1.86353443034E-03 -9.41573931048E-04 +2.04854417746E-03 -1.02317366303E-03 +7.81043369595E-01 +1.97403388439E-01
2.76500000000E+09 +7.45008603050E-01 +2.87180166387E-02 +1.84613862724E-03 -1.18328544822E-03 +1.89522327730E-03 -1.31088958055E-03 +7.80240215491E-01 +1.80626041458E-01
2.77000000000E+09 +7.40747273882E-01 +1.09319966630E-02 +1.83156532388E-03 -1.41195147481E-03 +1.81754467481E-03 -1.60058761473E-03 +7.78682483766E-01 +1.62818698483E-01
2.77500000000E+09 +7.36168815235E-01 -7.83321491953E-03 +1.57939789803E-03 -1.68719441882E-03 +1.50744988971E-03 -1.86675622912E-03 +7.76113653051E-01 +1.44781527805E-01
2.78000000000E+09 +7.31211308638E-01 -2.74171413320E-02 +1.52094151541E-03 -1.73550192199E-03 +1.40240990984E-03 -1.86472342336E-03 +7.74258462389E-01 +1.27461217715E-01
2.78500000000E+09 +7.25140334687E-01 -4.76613753558E-02 +1.28912026690E-03 -2.05822941701E-03 +1.17137887051E-03 -2.11653142657E-03 +7.72193977498E-01 +1.09604071600E-01
2.79000000000E+09 +7.18324747969E-01 -6.78746733535E-02 +1.23142442729E-03 -2.15348091269E-03 +1.05892867015E-03 -2.06968716855E-03 +7.69185610746E-01 +9.18767458399E-02
2.79500000000E+09 +7.10605503410E-01 -8.77291601659E-02 +1.12857542938E-03 -2.57785858883E-03 +9.74238092065E-04 -2.39916498122E-03 +7.64553843877E-01 +7.39394876310E-02
2.80000000000E+09 +7.02051928296E-01 -1.07449201321E-01 +6.36142946166E-04 -2.76137242717E-03 +6.68902658120E-04 -2.57651042162E-03 +7.59011494680E-01 +5.61161880691E-02
2.80500000000E+09 +6.92483382874E-01 -1.26924613712E-01 +1.48830258432E-04 -2.82834645710E-03 +2.35687289865E-04 -2.70142064991E-03 +7.53534479185E-01 +3.80350588819E-02
2.81000000000E+09 +6.81461530721E-01 -1.45618168322E-01 +1.38686908632E-04 -2.62701525918E-03 +1.65944122259E-04 -2.68853947303E-03 +7.47667089710E-01 +1.82941227725E-02
2.81500000000E+09 +6.69378807011E-01 -1.63396642702E-01 -3.45531604449E-04 -2.84133689384E-03 -3.94595038705E-04 -2.86989120100E-03 +7.40469001075E-01 -1.75139529180E-03
2.82000000000E+09 +6.56266963752E-01 -1.81079219174E-01 -5.01314581590E-04 -2.82160159452E-03 -6.50677804492E-04 -2.77766557536E-03 +7.32296132144E-01 -2.14984977416E-02
2.82500000000E+09 +6.42134298780E-01 -1.98411981733E-01 -9.17543188302E-04 -2.91052020592E-03 -9.24706498464E-04 -2.70290207245E-03 +7.23749885889E-01 -4.07074699125E-02
2.83000000000E+09 +6.26230879548E-01 -2.16634239636E-01 -1.52312711006E-03 -2.70425763168E-03 -1.39768062354E-03 -2.59885034211E-03 +7.14659149772E-01 -5.99342111882E-02
2.83500000000E+09 +6.08672574128E-01 -2.34898305291E-01 -1.60162474883E-03 -2.19558141558E-03 -1.42956434824E-03 -2.16440353095E-03 +7.05076854949E-01 -8.00657339699E-02
2.84000000000E+09 +5.89140955002E-01 -2.53133520892E-01 -1.52632407629E-03 -2.30811160174E-03 -1.46916099837E-03 -2.32802526974E-03 +6.93668125552E-01 -1.01274406937E-01
2.84500000000E+09 +5.67960300272E-01 -2.71322705130E-01 -2.16420076258E-03 -2.31444772844E-03 -2.09420274554E-03 -2.42312557637E-03 +6.80613815400E-01 -1.22209623561E-01
2.85000000000E+09 +5.45540072817E-01 -2.89638744000E-01 -2.35106026185E-03 -2.04852153079E-03 -2.29580815298E-03 -2.07463917311E-03 +6.66567160951E-01 -1.42528772076E-01
2.85500000000E+09 +5.21363205886E-01 -3.07480055850E-01 -2.85436263670E-03 -1.81089446213E-03 -2.78201332502E-03 -1.82948965166E-03 +6.52533934025E-01 -1.62836086718E-01
2.86000000000E+09 +4.96293728943E-01 -3.24345038412E-01 -2.95373931758E-03 -1.16211628666E-03 -2.95846605932E-03 -1.17192288566E-03 +6.36657192563E-01 -1.84512954305E-01
2.86500000000E+09 +4.70749079447E-01 -3.40196080827E-01 -2.98417946719E-03 -7.13986970260E-04 -2.94049366798E-03 -7.04717398868E-04 +6.18498750336E-01 -2.05193876765E-01
2.87000000000E+09 +4.44473960391E-01 -3.55037175319E-01 -2.79788119344E-03 -2.56074924462E-04 -2.86795667932E-03 -2.90536233917E-04 +5.99270847871E-01 -2.25261718009E-01
2.87500000000E+09 +4.18088906445E-01 -3.68195107274E-01 -2.37086748406E-03 -2.20097733868E-04 -2.45725487605E-03 -1.11243306232E-04 +5.79032632881E-01 -2.45026857477E-01
2.88000000000E+09 +3.91027754744E-01 -3.80482097302E-01 -2.43610617215E-03 -4.74147283748E-04 -2.40571286218E-03 -3.84467604261E-04 +5.57040839899E-01 -2.64272151462E-01
2.88500000000E+09 +3.63171541349E-01 -3.91120386894E-01 -2.90086329156E-03 -2.26728641155E-04 -2.75939483336E-03 -1.90712277417E-04 +5.33934027970E-01 -2.83221250151E-01
2.89000000000E+09 +3.34143648048E-01 -4.00182633157E-01 -2.83315169965E-03 +5.13155501577E-05 -2.74322957436E-03 +2.34936310014E-05 +5.07648427436E-01 -3.01537430161E-01
2.89500000000E+09 +3.04167306271E-01 -4.07500461680E-01 -2.90454478638E-03 +5.12695547528E-04 -2.88991712432E-03 +3.46199739455E-04 +4.79503924777E-01 -3.18405253018E-01
2.90000000000E+09 +2.72115099475E-01 -4.13258352356E-01 -2.71109658741E-03 +7.86250244581E-04 -2.81068113766E-03 +6.62996306508E-04 +4.50680795508E-01 -3.33367869172E-01
2.90500000000E+09 +2.38169083206E-01 -4.16382244627E-01 -2.42256616360E-03 +6.45590738847E-04 -2.53223414264E-03 +7.19595487323E-04 +4.21910353769E-01 -3.48579790454E-01
2.91000000000E+09 +2.03088149637E-01 -4.16492976538E-01 -2.87208397976E-03 +6.22082140534E-04 -2.88658195994E-03 +7.70872781190E-04 +3.89993487881E-01 -3.63226401748E-01
2.91500000000E+09 +1.68096208917E-01 -4.13617271581E-01 -2.91414732662E-03 +1.17996886874E-03 -2.74193839334E-03 +1.19690065879E-03 +3.56582687984E-01 -3.74587708042E-01
2.92000000000E+09 +1.32778977213E-01 -4.08720743886E-01 -2.80274380493E-03 +1.16655728591E-03 -2.68218442307E-03 +1.13950770700E-03 +3.22582696140E-01 -3.83035580364E-01
2.92500000000E+09 +9.88241552345E-02 -4.02102743454E-01 -3.13498617604E-03 +1.52919448206E-03 -2.98292655364E-03 +1.35248894209E-03 +2.87849582075E-01 -3.90468497458E-01
2.93000000000E+09 +6.39352923344E-02 -3.94725948830E-01 -3.37482059560E-03 +2.09508870968E-03 -3.41695783830E-03 +1.92539424605E-03 +2.51200664036E-01 -3.96040104095E-01
2.93500000000E+09 +2.85337668729E-02 -3.84841813469E-01 -3.00657306514E-03 +2.96438953992E-03 -3.13924069363E-03 +2.91807889461E-03 +2.12864003594E-01 -4.00882158475E-01
2.94000000000E+09 -6.34941794879E-03 -3.71433338846E-01 -2.36518545213E-03 +3.35075049440E-03 -2.44403937027E-03 +3.31848423310E-03 +1.72956066518E-01 -4.02103882573E-01
2.94500000000E+09 -3.89429447081E-02 -3.55792280965E-01 -2.10355967257E-03 +3.19233287481E-03 -2.11041077441E-03 +3.09940532596E-03 +1.34275078497E-01 -4.00943644298E-01
2.95000000000E+09 -7.05399080501E-02 -3.37777413875E-01 -2.24519131059E-03 +3.63881258490E-03 -2.27032573696E-03 +3.48527617433E-03 +9.62347111796E-02 -3.98007073285E-01
2.95500000000E+09 -1.00144794830E-01 -3.17795153965E-01 -1.74716235560E-03 +4.01498860610E-03 -1.94740257931E-03 +3.99699926309E-03 +5.68501775784E-02 -3.93578734134E-01
2.96000000000E+09 -1.29634242450E-01 -2.96082837031E-01 -1.61896425669E-03 +4.55487225046E-03 -1.77449562108E-03 +4.67987222621E-03 +1.55210639484E-02 -3.84948676551E-01
2.96500000000E+09 -1.57586359019E-01 -2.70588786483E-01 -6.58824438545E-04 +4.97890353888E-03 -5.79183070587E-04 +5.12501378607E-03 -2.57201052244E-02 -3.72278784442E-01
2.97000000000E+09 -1.83509679826E-01 -2.42819511992E-01 -3.25409558495E-04 +4.79182425048E-03 -2.07116792578E-04 +4.72026955497E-03 -6.59894248714E-02 -3.56600244517E-01
2.97500000000E+09 -2.07267280980E-01 -2.13054191527E-01 -6.53814309942E-05 +5.46736637986E-03 -1.88096264499E-05 +5.30819047082E-03 -1.05647084112E-01 -3.38750194475E-01
2.98000000000E+09 -2.29345830640E-01 -1.81552771592E-01 +1.20273664598E-03 +5.57403517512E-03 +1.08825109937E-03 +5.36918157977E-03 -1.43327455937E-01 -3.17908624551E-01
2.98500000000E+09 -2.49278258717E-01 -1.49204112405E-01 +1.39387464918E-03 +5.37560972428E-03 +1.01526236056E-03 +5.43058230626E-03 -1.80267360264E-01 -2.95710402199E-01
2.99000000000E+09 -2.67324475158E-01 -1.16472298296E-01 +2.39251027376E-03 +5.90714150902E-03 +2.29822770006E-03 +6.26824652458E-03 -2.16144908047E-01 -2.68130794789E-01
2.99500000000E+09 -2.84054350322E-01 -8.32569676899E-02 +3.81711377079E-03 +5.41989919560E-03 +3.97132001770E-03 +5.54817079563E-03 -2.47864267045E-01 -2.37863159752E-01
3.00000000000E+09 -2.99147935258E-01 -4.89993611923E-02 +4.08239155686E-03 +4.76140119504E-03 +4.21505523082E-03 +4.59447833082E-03 -2.78360881902E-01 -2.06731013699E-01
3.00500000000E+09 -3.10616329940E-01 -1.46642573932E-02 +5.16492216895E-03 +5.16322486095E-03 +5.12411141079E-03 +4.92505967804E-03 -3.08121807998E-01 -1.72544284973E-01
3.01000000000E+09 -3.19068435797E-01 +1.87529148464E-02 +6.60755789514E-03 +3.63424977326E-03 +6.34082707397E-03 +3.63147761769E-03 -3.33472018644E-01 -1.36359328808E-01
3.01500000000E+09 -3.25446564601E-01 +5.09726080680E-02 +6.88312155949E-03 +2.27867431449E-03 +6.67248202097E-03 +2.50255707431E-03 -3.56736407553E-01 -9.91640965451E-02
3.02000000000E+09 -3.29251579842E-01 +8.30450636494E-02 +6.94821297524E-03 +1.01056898492E-03 +7.07589972055E-03 +1.28238051874E-03 -3.75125525692E-01 -6.07028426716E-02
3.02500000000E+09 -3.30365209817E-01 +1.14992041357E-01 +6.40194810564E-03 +2.46438275875E-04 +6.60822835614E-03 +3.60316788026E-04 -3.90203355857E-01 -2.31251331526E-02
3.03000000000E+09 -3.27901222156E-01 +1.46525652752E-01 +6.41662860423E-03 +1.51007205091E-04 +6.52632417486E-03 +1.15092388272E-04 -4.04818706690E-01 +1.51472478571E-02
3.03500000000E+09 -3.23151271380E-01 +1.76466247984E-01 +7.40707555170E-03 -6.99477302036E-04 +7.48053422035E-03 -5.99032209444E-04 -4.16725144259E-01 +5.61258934755E-02
3.04000000000E+09 -3.16002027892E-01 +2.06937250051E-01 +7.28922147401E-03 -2.71136463386E-03 +7.58383073212E-03 -2.64062730927E-03 -4.24663241578E-01 +9.73233633240E-02
3.04500000000E+09 -3.06792783581E-01 +2.35602998671E-01 +6.21873475473E-03 -3.73402381667E-03 +6.60060761765E-03 -3.90831343721E-03 -4.29164818034E-01 +1.38295555594E-01
3.05000000000E+09 -2.96615153382E-01 +2.63948123069E-01 +5.32931804346E-03 -4.47881312784E-03 +5.49583933419E-03 -4.99063809802E-03 -4.30861002153E-01 +1.76890465013E-01
3.05500000000E+09 -2.85416398799E-01 +2.91804724008E-01 +4.53874492231E-03 -4.52925852596E-03 +4.33965456956E-03 -4.91892590730E-03 -4.31957899001E-01 +2.15316347527E-01
3.06000000000E+09 -2.72662750847E-01 +3.19470932658E-01 +4.27948139324E-03 -5.44567899557E-03 +3.90419308034E-03 -5.46161884981E-03 -4.29265025985E-01 +2.54397779536E-01
3.06500000000E+09 -2.58757304716E-01 +3.44965439935E-01 +3.13500377087E-03 -6.03441385502E-03 +2.98581140302E-03 -5.75282088782E-03 -4.22995821686E-01 +2.91618663078E-01
3.07000000000E+09 -2.44802214725E-01 +3.69243269433E-01 +1.74220476329E-03 -6.42458126602E-03 +2.04142241962E-03 -6.19878589155E-03 -4.15253297868E-01 +3.25857692316E-01
