# Hz S RI R 50
! CMT, C1220, 16058040, 17.2.0/1
! Date: 15/08/2018 10:11:17
! Data: Format (Calibration Info)
! Freq                      S11: Re/Im (F2)                       S21: Re/Im (F2)                       S12: Re/Im (F2)                       S22: Re/Im (F2)            
2.50000000000E+09 +5.99568512444E-01 +6.35188818664E-01 -6.43174904300E-04 -2.08908044109E-04 -6.66476866127E-04 -3.31128402759E-04 +5.73249425211E-01 +7.16934391008E-01
2.50500000000E+09 +6.05601694449E-01 +6.27665922418E-01 -5.76999868240E-04 -2.31194159243E-04 -6.37849218836E-04 -2.20565441581E-04 +5.78890136005E-01 +7.11447301904E-01
2.51000000000E+09 +6.12143506302E-01 +6.19776919980E-01 -6.18128733092E-04 -1.67272454408E-04 -6.26204506658E-04 -1.39408355002E-04 +5.84673345105E-01 +7.06144328289E-01
2.51500000000E+09 +6.18272661166E-01 +6.11784231322E-01 -7.04582744911E-04 -1.18237489232E-04 -6.32724979043E-04 -1.31004096344E-04 +5.89831531435E-01 +7.00731201225E-01
2.52000000000E+09 +6.23953656785E-01 +6.03578672491E-01 -6.85346508801E-04 -3.57347043756E-05 -6.75094989618E-04 -5.58430090402E-05 +5.95155362250E-01 +6.94814594859E-01
2.52500000000E+09 +6.28801762846E-01 +5.96022694609E-01 -7.15101212034E-04 +8.02167237483E-05 -7.01513772937E-04 +3.12651009689E-05 +6.00894368859E-01 +6.88286011674E-01
2.53000000000E+09 +6.33260384921E-01 +5.88936110489E-01 -6.48605447455E-04 +1.32091413723E-04 -6.20515270837E-04 +1.44043350898E-04 +6.07008314612E-01 +6.81330674485E-01
2.53500000000E+09 +6.37512943616E-01 +5.82496446771E-01 -5.74894344637E-04 +1.24089613581E-04 -5.85200023432E-04 +1.14033527096E-04 +6.12973501651E-01 +6.74374870003E-01
2.54000000000E+09 +6.41550245498E-01 +5.76235568568E-01 -7.12076494195E-04 +1.30352399060E-04 -6.43573949106E-04 +8.18259348923E-05 +6.19011005047E-01 +6.67616958307E-01
2.54500000000E+09 +6.45826763108E-01 +5.70193147912E-01 -7.57586719158E-04 +2.84073745429E-04 -7.36049717847E-04 +2.70348478270E-04 +6.24679379248E-01 +6.61005742811E-01
2.55000000000E+09 +6.50561703736E-01 +5.64080583724E-01 -6.29920173530E-04 +3.90690704312E-04 -6.51693147864E-04 +4.28802482319E-04 +6.30047969105E-01 +6.54743982568E-01
2.55500000000E+09 +6.55760374499E-01 +5.57105594103E-01 -4.96656574871E-04 +4.70358745275E-04 -6.25505083254E-04 +5.05316920218E-04 +6.35175111389E-01 +6.48108229856E-01
2.56000000000E+09 +6.61595866453E-01 +5.50056756919E-01 -4.02413604502E-04 +4.42196474397E-04 -4.71798723326E-04 +5.02623450224E-04 +6.40449331761E-01 +6.40948358320E-01
2.56500000000E+09 +6.67643902059E-01 +5.42013079362E-01 -4.12990228127E-04 +3.25218795254E-04 -4.07607199100E-04 +4.49727039265E-04 +6.45986162293E-01 +6.33481048382E-01
2.57000000000E+09 +6.73903222620E-01 +5.33509437038E-01 -5.93243705089E-04 +3.72817912307E-04 -5.39590262906E-04 +4.47454565762E-04 +6.51308187596E-01 +6.25369300946E-01
2.57500000000E+09 +6.79644704628E-01 +5.24430006792E-01 -7.16065016855E-04 +5.79315029498E-04 -5.61548093342E-04 +6.28820747717E-04 +6.56805785534E-01 +6.17733139429E-01
2.58000000000E+09 +6.84792505974E-01 +5.15668763655E-01 -5.25162090681E-04 +8.40554496877E-04 -3.93753675499E-04 +7.28305504867E-04 +6.61817394055E-01 +6.10022394219E-01
2.58500000000E+09 +6.89590694602E-01 +5.06876785026E-01 -3.05861848875E-04 +8.40967420373E-04 -3.01797782422E-04 +7.42082053407E-04 +6.66481716097E-01 +6.02257469093E-01
2.59000000000E+09 +6.93831366800E-01 +4.98525234085E-01 -1.69157573152E-04 +8.29773076409E-04 -2.29200994127E-04 +7.62953419980E-04 +6.71263839089E-01 +5.94657652096E-01
2.59500000000E+09 +6.97936632644E-01 +4.90200181121E-01 -1.53543369436E-04 +7.68625953272E-04 -2.08658992205E-04 +7.43261266943E-04 +6.75853273386E-01 +5.86660357657E-01
2.60000000000E+09 +7.01824656975E-01 +4.81771522422E-01 -1.33499171659E-04 +8.16813061574E-04 -1.09633287966E-04 +7.82127566047E-04 +6.80828277960E-01 +5.78315552688E-01
2.60500000000E+09 +7.06018404529E-01 +4.72716138335E-01 -8.33315549581E-05 +8.87407813828E-04 -8.67573002865E-05 +8.85528254186E-04 +6.85989132304E-01 +5.69505338264E-01
2.61000000000E+09 +7.10168949184E-01 +4.62673909338E-01 +6.22406643234E-05 +1.00826505018E-03 +4.62696757583E-05 +9.53920829122E-04 +6.90712268172E-01 +5.60781137767E-01
2.61500000000E+09 +7.14409060682E-01 +4.51886713865E-01 +1.82012805389E-04 +8.81157199429E-04 +2.03571522192E-04 +9.37999553553E-04 +6.95548609376E-01 +5.52193624772E-01
2.62000000000E+09 +7.18518624692E-01 +4.40063848037E-01 +3.66933043009E-04 +8.74760840049E-04 +3.69036865335E-04 +9.22837369965E-04 +7.00113204470E-01 +5.43131967630E-01
2.62500000000E+09 +7.22558732252E-01 +4.27251770798E-01 +3.61413540411E-04 +7.32180326629E-04 +4.44413629669E-04 +7.04569121720E-04 +7.04711155412E-01 +5.34436107313E-01
2.63000000000E+09 +7.26115514286E-01 +4.14154972255E-01 +3.54687192953E-04 +8.32642232263E-04 +4.81613732378E-04 +6.96611893616E-04 +7.09696041123E-01 +5.25440214678E-01
2.63500000000E+09 +7.29074136824E-01 +4.01211854366E-01 +4.08684040021E-04 +8.03724993803E-04 +4.04156913383E-04 +6.72749930111E-04 +7.14470048111E-01 +5.16103973971E-01
2.64000000000E+09 +7.31867986433E-01 +3.88462988149E-01 +5.59426467587E-04 +7.50482872446E-04 +4.74278542452E-04 +6.28500015161E-04 +7.19179758877E-01 +5.06347356256E-01
2.64500000000E+09 +7.34499758478E-01 +3.76562435176E-01 +6.59547233422E-04 +6.46038476865E-04 +5.42113237003E-04 +5.83368523878E-04 +7.23524234156E-01 +4.96753894010E-01
2.65000000000E+09 +7.36917614398E-01 +3.64905931624E-01 +6.50626908131E-04 +6.05234068534E-04 +4.94434529287E-04 +6.33407222444E-04 +7.27744874445E-01 +4.87007104603E-01
2.65500000000E+09 +7.39267396026E-01 +3.53213120569E-01 +6.08334174255E-04 +6.11698911421E-04 +4.88205867907E-04 +6.68092074017E-04 +7.32161180199E-01 +4.76909701397E-01
2.66000000000E+09 +7.41305279691E-01 +3.41702933813E-01 +7.88382609924E-04 +6.39083980947E-04 +7.90824153688E-04 +7.30237525472E-04 +7.36393910148E-01 +4.65422099377E-01
2.66500000000E+09 +7.43545408781E-01 +3.30348869761E-01 +7.70517746959E-04 +6.98385025341E-04 +8.13241172325E-04 +6.75293126691E-04 +7.40488088672E-01 +4.54145228780E-01
2.67000000000E+09 +7.45624105977E-01 +3.17661350464E-01 +1.15682036937E-03 +6.94383327249E-04 +1.18422699771E-03 +6.46065693692E-04 +7.44716626106E-01 +4.43099162293E-01
2.67500000000E+09 +7.46539513429E-01 +3.04345928089E-01 +1.35274816575E-03 +2.99169329887E-04 +1.26030317099E-03 +2.32410888443E-04 +7.48491296466E-01 +4.31970337728E-01
2.68000000000E+09 +7.47038821396E-01 +2.91261481342E-01 +1.09809362384E-03 +2.13395381956E-05 +1.08777901691E-03 +5.91057436673E-05 +7.52403488046E-01 +4.21031550797E-01
2.68500000000E+09 +7.47563764401E-01 +2.77413472520E-01 +1.01171612149E-03 +1.30920342580E-04 +9.97461637181E-04 +1.61662419357E-04 +7.55459246390E-01 +4.09486486346E-01
2.69000000000E+09 +7.47165286190E-01 +2.63548760496E-01 +1.12615130920E-03 +1.21352686322E-04 +1.17130547486E-03 +1.73739926542E-04 +7.58277998310E-01 +3.97459447405E-01
2.69500000000E+09 +7.46675408541E-01 +2.50341365520E-01 +1.27458157450E-03 +3.93274305702E-05 +1.24022402347E-03 +3.17427759032E-05 +7.60885093763E-01 +3.84698479773E-01
2.70000000000E+09 +7.46766222818E-01 +2.37322873789E-01 +1.38478448694E-03 -6.34744204145E-05 +1.35153094683E-03 -2.33480415930E-05 +7.63555059149E-01 +3.71542561524E-01
2.70500000000E+09 +7.46817375010E-01 +2.24517742119E-01 +1.49356321965E-03 -4.11597386550E-04 +1.53313296936E-03 -3.53674727307E-04 +7.66445058898E-01 +3.58262173667E-01
2.71000000000E+09 +7.47379761825E-01 +2.11911411686E-01 +1.39596313138E-03 -7.06796251734E-04 +1.49047900834E-03 -6.43518744714E-04 +7.69383716701E-01 +3.44875851236E-01
2.71500000000E+09 +7.48921256833E-01 +1.98611089505E-01 +1.24712668356E-03 -9.54587853062E-04 +1.38500130770E-03 -1.03371658177E-03 +7.71536793933E-01 +3.32204621518E-01
2.72000000000E+09 +7.49953243741E-01 +1.84563512452E-01 +9.54051732548E-04 -1.03204906419E-03 +9.18782881885E-04 -1.20990379887E-03 +7.73479090999E-01 +3.19482482533E-01
2.72500000000E+09 +7.50832910733E-01 +1.69824620485E-01 +7.25150833357E-04 -9.38384961967E-04 +5.74070511304E-04 -1.04177838639E-03 +7.74556141414E-01 +3.06406728404E-01
2.73000000000E+09 +7.50861704407E-01 +1.53735033593E-01 +7.97347148449E-04 -8.13079391092E-04 +6.51880058886E-04 -8.33877764242E-04 +7.76235961599E-01 +2.92734060318E-01
2.73500000000E+09 +7.49304728216E-01 +1.36879322701E-01 +9.11987807812E-04 -9.58689585269E-04 +7.92412839981E-04 -8.68319552013E-04 +7.77441842859E-01 +2.77464738983E-01
2.74000000000E+09 +7.46518220692E-01 +1.20877081894E-01 +9.38977141002E-04 -1.17950203939E-03 +9.10032059341E-04 -9.38137772664E-04 +7.78544604141E-01 +2.62294596783E-01
2.74500000000E+09 +7.43275235014E-01 +1.04471484935E-01 +8.53231603614E-04 -1.43736981629E-03 +9.28831243879E-04 -1.24726834826E-03 +7.79497826193E-01 +2.47209067619E-01
2.75000000000E+09 +7.38986676604E-01 +8.82224820352E-02 +4.29156667509E-04 -1.63803255073E-03 +6.42721363123E-04 -1.59052465328E-03 +7.80079342340E-01 +2.32266302382E-01
2.75500000000E+09 +7.34485871355E-01 +7.23486857717E-02 +2.86401318312E-04 -1.50266910915E-03 +3.67998559651E-04 -1.58558850730E-03 +7.80355760396E-01 +2.17471882824E-01
2.76000000000E+09 +7.30183548328E-01 +5.65844286438E-02 +3.33341365040E-04 -1.55731897233E-03 +3.92567676055E-04 -1.58265432839E-03 +7.79923080566E-01 +2.01551454780E-01
2.76500000000E+09 +7.25933306105E-01 +4.02922432233E-02 +6.05114224483E-05 -1.85256921118E-03 +7.46192983490E-05 -1.91091827551E-03 +7.78430217671E-01 +1.84467088706E-01
2.77000000000E+09 +7.21894199365E-01 +2.29751870133E-02 -2.96346012635E-04 -1.67941418696E-03 -3.03339358748E-04 -1.74459529698E-03 +7.76920232349E-01 +1.67712851090E-01
2.77500000000E+09 +7.17648464530E-01 +4.78626678946E-03 -3.40367104910E-04 -1.70952726893E-03 -4.08844541709E-04 -1.77374490036E-03 +7.75417009274E-01 +1.49718823570E-01
2.78000000000E+09 +7.12988458094E-01 -1.48514862133E-02 -5.51514330826E-04 -1.75033568021E-03 -7.09203324340E-04 -1.76873041995E-03 +7.73307948892E-01 +1.31777401649E-01
2.78500000000E+09 +7.06799430447E-01 -3.51463278699E-02 -8.31557694605E-04 -1.63592371087E-03 -8.83392597865E-04 -1.59714772785E-03 +7.70956308346E-01 +1.14131259228E-01
2.79000000000E+09 +6.99925076602E-01 -5.58389537849E-02 -9.37871747692E-04 -1.62271051760E-03 -9.88883866315E-04 -1.52147093253E-03 +7.67509743087E-01 +9.66455111557E-02
2.79500000000E+09 +6.91498735907E-01 -7.65311388839E-02 -1.40403172757E-03 -1.50416848313E-03 -1.27718618576E-03 -1.43204961704E-03 +7.63144974181E-01 +7.89332469735E-02
2.80000000000E+09 +6.81657844096E-01 -9.67437626077E-02 -1.51336308717E-03 -1.17349732386E-03 -1.44579850000E-03 -1.17503357611E-03 +7.58307178410E-01 +6.09449934095E-02
2.80500000000E+09 +6.70763692668E-01 -1.15541296086E-01 -1.55326458089E-03 -9.84550039372E-04 -1.48241196699E-03 -1.07948602628E-03 +7.52798151177E-01 +4.19008229931E-02
2.81000000000E+09 +6.59691766799E-01 -1.33307961913E-01 -1.56261185016E-03 -9.11184206369E-04 -1.62652556009E-03 -9.20102833505E-04 +7.46468168860E-01 +2.29810417611E-02
2.81500000000E+09 +6.47554403295E-01 -1.51024508683E-01 -1.74022012399E-03 -6.13163744342E-04 -1.82181943545E-03 -6.33073950669E-04 +7.39850288767E-01 +3.40406008864E-03
2.82000000000E+09 +6.34192789216E-01 -1.67954463374E-01 -1.67823350421E-03 -6.46647136352E-04 -1.70995601295E-03 -5.93410802132E-04 +7.32200227860E-01 -1.61039211630E-02
2.82500000000E+09 +6.20302989583E-01 -1.84768074507E-01 -2.07257041778E-03 -4.23132118712E-04 -2.04255335203E-03 -3.57134076774E-04 +7.23811853915E-01 -3.56305605794E-02
2.83000000000E+09 +6.04673678560E-01 -2.02453955626E-01 -2.15238377892E-03 +1.18092669757E-04 -2.05145330051E-03 +1.14896580048E-04 +7.14544063807E-01 -5.52835148082E-02
2.83500000000E+09 +5.87127219593E-01 -2.20530211819E-01 -1.88781126533E-03 +5.26448990006E-04 -1.86192628146E-03 +4.64181128938E-04 +7.04811615456E-01 -7.57663381005E-02
2.84000000000E+09 +5.67772328850E-01 -2.38489132353E-01 -1.50972584456E-03 +6.83353297893E-04 -1.55857177382E-03 +6.44576221736E-04 +6.93343982247E-01 -9.67561594999E-02
2.84500000000E+09 +5.46684493271E-01 -2.57169954803E-01 -1.22110750269E-03 +5.17268545335E-04 -1.27165348211E-03 +4.20492766589E-04 +6.80919488969E-01 -1.17313128796E-01
2.85000000000E+09 +5.23546176876E-01 -2.75052016372E-01 -1.48306261923E-03 +2.96658559609E-04 -1.51307200747E-03 +3.09262861504E-04 +6.67848636601E-01 -1.38147564017E-01
2.85500000000E+09 +4.99659535498E-01 -2.92332826757E-01 -1.70256755023E-03 +7.65345904850E-04 -1.61947310024E-03 +7.20438705138E-04 +6.53208806850E-01 -1.59222310699E-01
2.86000000000E+09 +4.75097804632E-01 -3.09277098259E-01 -1.23305024356E-03 +7.22367616313E-04 -1.24003997866E-03 +7.19748372123E-04 +6.36686106443E-01 -1.80253029817E-01
2.86500000000E+09 +4.49697779714E-01 -3.24954635648E-01 -1.63647013867E-03 +7.03780688012E-04 -1.60534003279E-03 +6.79366206885E-04 +6.18651293902E-01 -2.00801512548E-01
2.87000000000E+09 +4.24492381602E-01 -3.39031104295E-01 -1.47949909568E-03 +1.50372163761E-03 -1.50491436996E-03 +1.52134328432E-03 +5.99598424908E-01 -2.19979022802E-01
2.87500000000E+09 +3.99871719278E-01 -3.52462363139E-01 -9.75775691589E-04 +1.36016531145E-03 -9.77850641916E-04 +1.39172266600E-03 +5.80511908208E-01 -2.40247063253E-01
2.88000000000E+09 +3.74103746653E-01 -3.65400906301E-01 -8.89176847770E-04 +1.26977182060E-03 -8.50947722825E-04 +1.25105841890E-03 +5.58931515383E-01 -2.60303268298E-01
2.88500000000E+09 +3.47486035014E-01 -3.76613202988E-01 -7.56471416599E-04 +1.37745202157E-03 -7.32593148404E-04 +1.39299249468E-03 +5.35092639802E-01 -2.78973965650E-01
2.89000000000E+09 +3.19752868655E-01 -3.86625807455E-01 -7.26411754636E-04 +1.01242355870E-03 -6.45752333902E-04 +9.55019100465E-04 +5.10106854884E-01 -2.96499276141E-01
2.89500000000E+09 +2.89768646878E-01 -3.95147833882E-01 -1.03336099196E-03 +1.35775149774E-03 -1.04899727462E-03 +1.23488007889E-03 +4.82943450996E-01 -3.14159016024E-01
2.90000000000E+09 +2.57849109636E-01 -4.01202063192E-01 -8.94295967212E-04 +1.57745783371E-03 -9.95691651396E-04 +1.50364793887E-03 +4.54254829276E-01 -3.29873946597E-01
2.90500000000E+09 +2.24096831344E-01 -4.04516971177E-01 -9.11542391072E-04 +1.90228352210E-03 -9.26145127989E-04 +1.89315014333E-03 +4.24896924353E-01 -3.45737218708E-01
2.91000000000E+09 +1.89622098484E-01 -4.05033064290E-01 -2.69787445844E-04 +2.06431444686E-03 -2.06635332966E-04 +2.03473712490E-03 +3.93492560906E-01 -3.60270012388E-01
2.91500000000E+09 +1.55039482173E-01 -4.03763962639E-01 -3.44034144369E-04 +1.81003525723E-03 -2.94620884600E-04 +1.78285708641E-03 +3.60362683005E-01 -3.72331553447E-01
2.92000000000E+09 +1.19424895524E-01 -4.00538143554E-01 -3.33964033339E-04 +2.34284009563E-03 -3.20608585938E-04 +2.18541015421E-03 +3.27198040834E-01 -3.82037103353E-01
2.92500000000E+09 +8.32850206679E-02 -3.95884746661E-01 +5.16684434760E-04 +2.13225074526E-03 +3.57412501928E-04 +2.11593417985E-03 +2.91490812001E-01 -3.90167488429E-01
2.93000000000E+09 +4.68974881380E-02 -3.88123939444E-01 +2.58567122834E-04 +1.71931039157E-03 +1.51619949635E-04 +1.77297623042E-03 +2.54382367125E-01 -3.96545399301E-01
2.93500000000E+09 +1.08063479972E-02 -3.78306747178E-01 +3.46461860842E-04 +2.20110084352E-03 +2.61064886323E-04 +2.26258992675E-03 +2.15411130998E-01 -4.01051590801E-01
2.94000000000E+09 -2.41947809856E-02 -3.65967568983E-01 +3.24777108416E-04 +2.24393031060E-03 +2.86836938650E-04 +2.26304226410E-03 +1.75622200604E-01 -4.02059641504E-01
2.94500000000E+09 -5.86311423296E-02 -3.51589733009E-01 +1.15838459458E-03 +3.14571079447E-03 +1.10578653952E-03 +3.16621373206E-03 +1.37576533285E-01 -4.02235815420E-01
2.95000000000E+09 -9.23316444498E-02 -3.34302456679E-01 +2.20876078577E-03 +2.19232786214E-03 +2.13240583157E-03 +2.24506342264E-03 +9.71058724929E-02 -4.00772488477E-01
2.95500000000E+09 -1.24664168020E-01 -3.14044496286E-01 +2.12522795090E-03 +1.68861406565E-03 +2.03786946172E-03 +1.84439503716E-03 +5.54659792679E-02 -3.94161040152E-01
2.96000000000E+09 -1.55617036723E-01 -2.91507989892E-01 +2.09606218475E-03 +1.39909175011E-03 +2.15076078652E-03 +1.49744122992E-03 +1.50829162355E-02 -3.83817563235E-01
2.96500000000E+09 -1.85812103855E-01 -2.65609334576E-01 +2.30338479853E-03 +1.21065018831E-03 +2.40735875675E-03 +1.17366248906E-03 -2.51844294686E-02 -3.69969609380E-01
2.97000000000E+09 -2.13693698806E-01 -2.36393704122E-01 +2.15173591520E-03 +1.05211854992E-03 +2.17773693602E-03 +9.93395009157E-04 -6.31575668130E-02 -3.54778230038E-01
2.97500000000E+09 -2.38589606893E-01 -2.04996959069E-01 +2.52498588598E-03 +1.15532880059E-03 +2.48613633486E-03 +9.99933461951E-04 -1.02286951468E-01 -3.38838412869E-01
2.98000000000E+09 -2.61165239185E-01 -1.73083507454E-01 +2.91324746444E-03 +7.38525594882E-04 +2.79296129498E-03 +8.17411232285E-04 -1.41173794914E-01 -3.19039720506E-01
2.98500000000E+09 -2.82776553179E-01 -1.40245569018E-01 +3.27153640536E-03 +2.85926059726E-04 +3.25895667665E-03 +4.15768180893E-04 -1.78606373472E-01 -2.94585463224E-01
2.99000000000E+09 -3.02346214927E-01 -1.06116657866E-01 +3.13572773754E-03 -5.34224168488E-04 +3.25979593436E-03 -5.09472288743E-04 -2.11921883781E-01 -2.68474689076E-01
2.99500000000E+09 -3.19718357664E-01 -7.11912184343E-02 +2.77514411018E-03 -7.34829650030E-04 +2.84424446928E-03 -8.63304043865E-04 -2.45186874496E-01 -2.40154432772E-01
3.00000000000E+09 -3.34566708660E-01 -3.58570212587E-02 +2.71032710292E-03 -6.62659193317E-04 +2.68695456007E-03 -8.26163912295E-04 -2.76573647001E-01 -2.08262196720E-01
3.00500000000E+09 -3.46312743152E-01 -8.42252041889E-04 +3.10589377693E-03 -1.19109433095E-03 +2.89684007688E-03 -1.24571385748E-03 -3.04777629916E-01 -1.74450207050E-01
3.01000000000E+09 -3.55044275442E-01 +3.30472311143E-02 +2.84728535197E-03 -2.04785047506E-03 +2.72985637680E-03 -1.83443041726E-03 -3.31084658103E-01 -1.39251657943E-01
3.01500000000E+09 -3.62270599091E-01 +6.67649387736E-02 +2.37008476657E-03 -2.48073065899E-03 +2.41571445676E-03 -2.26515623991E-03 -3.53112200750E-01 -1.02771060233E-01
3.02000000000E+09 -3.65653988088E-01 +1.00515220459E-01 +1.66993233395E-03 -2.87046194702E-03 +1.82687198594E-03 -2.78600239300E-03 -3.73056383372E-01 -6.67966182667E-02
3.02500000000E+09 -3.65951530516E-01 +1.34023845388E-01 +1.46113203030E-03 -2.66715204672E-03 +1.50866941481E-03 -2.71771305947E-03 -3.91365259107E-01 -2.84957425594E-02
3.03000000000E+09 -3.62230966200E-01 +1.66780794184E-01 +9.44274440286E-04 -3.09951878815E-03 +9.48782088891E-04 -3.12851433357E-03 -4.06017403107E-01 +1.27319666418E-02
3.03500000000E+09 -3.56111783054E-01 +1.97410479476E-01 +3.04196120194E-04 -3.21441861114E-03 +3.43388146514E-04 -3.24029878917E-03 -4.15865447675E-01 +5.31209778055E-02
3.04000000000E+09 -3.48885041622E-01 +2.27939260401E-01 -5.04944310952E-04 -2.73464185586E-03 -4.75763894052E-04 -2.79177144020E-03 -4.23682846674E-01 +9.31688343833E-02
3.04500000000E+09 -3.39718700110E-01 +2.58436450683E-01 -4.11871621783E-04 -2.04614394075E-03 -4.28918245457E-04 -2.22725129926E-03 -4.29152817288E-01 +1.32534962693E-01
3.05000000000E+09 -3.28374289499E-01 +2.88932684259E-01 -3.02625608056E-04 -2.05059391444E-03 -4.14449999009E-04 -2.15071950852E-03 -4.33041003952E-01 +1.72150392648E-01
3.05500000000E+09 -3.14735395289E-01 +3.18544479673E-01 -2.06627013845E-04 -2.23806528940E-03 -3.73034088150E-04 -2.19433034043E-03 -4.32252252372E-01 +2.12181826915E-01
3.06000000000E+09 -3.00015103588E-01 +3.46023375651E-01 -5.55254830539E-04 -2.71116610537E-03 -7.11922334265E-04 -2.57440707649E-03 -4.28840964777E-01 +2.48947010838E-01
3.06500000000E+09 -2.84776507527E-01 +3.71800033845E-01 -1.68492633628E-03 -2.28813276184E-03 -1.61336954570E-03 -2.10931821951E-03 -4.24528877821E-01 +2.84736565165E-01
3.07000000000E+09 -2.69760604125E-01 +3.96300008260E-01 -1.71966131890E-03 -1.36382320696E-03 -1.54585778451E-03 -1.42582219249E-03 -4.19337349449E-01 +3.19151562327E-01
