# Hz S RI R 50
! CMT, C1220, 16058040, 17.2.0/1
! Date: 15/08/2018 10:11:03
! Data: Format (Calibration Info)
! Freq                      S11: Re/Im (F2)                       S21: Re/Im (F2)                       S12: Re/Im (F2)                       S22: Re/Im (F2)            
2.50000000000E+09 +5.99370395578E-01 +6.35155032567E-01 -6.11953419384E-04 -2.58584961853E-04 -7.00453703881E-04 -2.69225588883E-04 +5.73326481036E-01 +7.16446737978E-01
2.50500000000E+09 +6.05503223913E-01 +6.27812464675E-01 -5.74425732098E-04 -2.09838422707E-04 -6.47424347177E-04 -2.02174318040E-04 +5.78926311940E-01 +7.10971929386E-01
2.51000000000E+09 +6.12017232335E-01 +6.19837672601E-01 -5.73544522710E-04 -1.44701197220E-04 -6.40574567473E-04 -1.20905059015E-04 +5.84581363548E-01 +7.05718588109E-01
2.51500000000E+09 +6.18246013551E-01 +6.11713607664E-01 -6.97799683664E-04 -8.76704072816E-05 -6.27964476788E-04 -8.33509226827E-05 +5.89869318697E-01 +7.00260346174E-01
2.52000000000E+09 +6.23947895999E-01 +6.03674533763E-01 -6.68920853476E-04 -3.94484612910E-05 -6.43438967997E-04 -7.19025263406E-06 +5.95102665228E-01 +6.94324638286E-01
2.52500000000E+09 +6.28820802649E-01 +5.96034234410E-01 -6.85590798182E-04 +1.03837517494E-04 -6.96630607209E-04 +7.03760518444E-05 +6.00916897566E-01 +6.87932702471E-01
2.53000000000E+09 +6.33247748733E-01 +5.89051314740E-01 -5.87098101818E-04 +1.98844825301E-04 -6.30596220719E-04 +2.18353317071E-04 +6.06965599252E-01 +6.80957221408E-01
2.53500000000E+09 +6.37503985032E-01 +5.82693367666E-01 -5.48132280001E-04 +1.98322268951E-04 -5.64895223040E-04 +1.65796634076E-04 +6.12904002992E-01 +6.74116224267E-01
2.54000000000E+09 +6.41599300440E-01 +5.76327787487E-01 -6.08592656310E-04 +1.45576468038E-04 -5.98430309948E-04 +1.50065946921E-04 +6.18830609530E-01 +6.67377743433E-01
2.54500000000E+09 +6.45856158380E-01 +5.70236990468E-01 -6.52732797259E-04 +2.99576700576E-04 -6.82461305510E-04 +2.35143541598E-04 +6.24625736138E-01 +6.60703898493E-01
2.55000000000E+09 +6.50571441594E-01 +5.64128142492E-01 -5.21974012449E-04 +3.87673201509E-04 -5.70325033137E-04 +3.25180765581E-04 +6.29923190734E-01 +6.54554478347E-01
2.55500000000E+09 +6.55640013985E-01 +5.57164578823E-01 -4.58127553919E-04 +4.37695484066E-04 -5.20404883015E-04 +4.65253051367E-04 +6.35065746967E-01 +6.47819883504E-01
2.56000000000E+09 +6.61468139581E-01 +5.50128345660E-01 -3.48264401182E-04 +3.45639681533E-04 -4.04926791028E-04 +3.88473322279E-04 +6.40328730172E-01 +6.40635666728E-01
2.56500000000E+09 +6.67547980063E-01 +5.42006493622E-01 -3.93796835981E-04 +2.48173032148E-04 -3.86112285755E-04 +3.19652210436E-04 +6.45749117350E-01 +6.33185082210E-01
2.57000000000E+09 +6.73675793804E-01 +5.33512082358E-01 -6.22422458087E-04 +2.18942142038E-04 -5.34473273754E-04 +3.99699148851E-04 +6.51091185385E-01 +6.25051577698E-01
2.57500000000E+09 +6.79515388898E-01 +5.24503965225E-01 -7.65510092028E-04 +5.28027335517E-04 -5.84401453767E-04 +5.95944634815E-04 +6.56512323657E-01 +6.17286839835E-01
2.58000000000E+09 +6.84588137277E-01 +5.15690278184E-01 -5.44311764737E-04 +8.21498248184E-04 -4.32261661618E-04 +7.24193151172E-04 +6.61406523385E-01 +6.09690761942E-01
2.58500000000E+09 +6.89405727437E-01 +5.06917956476E-01 -3.74531053642E-04 +8.52185575513E-04 -3.76363833296E-04 +6.93023065049E-04 +6.66072760836E-01 +6.02053264183E-01
2.59000000000E+09 +6.93605941544E-01 +4.98585978102E-01 -2.56480623119E-04 +8.35883693119E-04 -3.27376808839E-04 +7.79892832537E-04 +6.70656260478E-01 +5.94544332807E-01
2.59500000000E+09 +6.97800315347E-01 +4.90356054414E-01 -2.19887791259E-04 +8.03513342452E-04 -2.74689016171E-04 +7.72048569291E-04 +6.75320233913E-01 +5.86483496422E-01
2.60000000000E+09 +7.01706078111E-01 +4.81824505189E-01 -2.31373050538E-04 +8.85764664916E-04 -2.16384832077E-04 +9.18310066856E-04 +6.80327626617E-01 +5.78301567441E-01
2.60500000000E+09 +7.05991858044E-01 +4.72724217792E-01 -1.31527649533E-04 +1.00020927868E-03 -8.51993598439E-05 +1.02138107806E-03 +6.85480801167E-01 +5.69492904579E-01
2.61000000000E+09 +7.10077354286E-01 +4.62699133482E-01 +9.64618245892E-05 +1.10517522265E-03 +5.60891117893E-05 +1.09075674320E-03 +6.90294120526E-01 +5.60864866799E-01
2.61500000000E+09 +7.14401323571E-01 +4.51928546961E-01 +2.90722304520E-04 +1.06045785411E-03 +2.49405323409E-04 +1.06349467498E-03 +6.95208354872E-01 +5.52403312269E-01
2.62000000000E+09 +7.18596613403E-01 +4.40085791994E-01 +4.45522354592E-04 +9.70594405701E-04 +4.82769652485E-04 +1.04895707745E-03 +6.99685453752E-01 +5.43499867668E-01
2.62500000000E+09 +7.22678973156E-01 +4.27298112834E-01 +4.88706935007E-04 +8.32256743847E-04 +5.84541661229E-04 +8.17582846629E-04 +7.04466553241E-01 +5.34762138833E-01
2.63000000000E+09 +7.26095967911E-01 +4.14135093993E-01 +5.27641161458E-04 +8.11131823073E-04 +5.86005647134E-04 +7.57123784732E-04 +7.09432531129E-01 +5.25739220518E-01
2.63500000000E+09 +7.29159100487E-01 +4.01332653843E-01 +6.40881647679E-04 +8.57756754469E-04 +6.35592333200E-04 +6.51934451642E-04 +7.14225276861E-01 +5.16438901656E-01
2.64000000000E+09 +7.31906368521E-01 +3.88603031751E-01 +7.70498512818E-04 +7.41748479061E-04 +6.78560122772E-04 +5.97572554356E-04 +7.18955379631E-01 +5.06696691137E-01
2.64500000000E+09 +7.34688688047E-01 +3.76649695869E-01 +8.04970791981E-04 +5.44155986914E-04 +7.00519235067E-04 +5.24231190978E-04 +7.23553967416E-01 +4.97147251951E-01
2.65000000000E+09 +7.37055924459E-01 +3.65076584382E-01 +7.67653693049E-04 +4.31898939835E-04 +6.89295843473E-04 +4.85889200358E-04 +7.27690550302E-01 +4.87287594920E-01
2.65500000000E+09 +7.39437142332E-01 +3.53329577985E-01 +6.42319174538E-04 +4.50605376288E-04 +6.54593885442E-04 +5.45852121026E-04 +7.32071536549E-01 +4.77200435279E-01
2.66000000000E+09 +7.41467801782E-01 +3.41888058007E-01 +7.89260847946E-04 +4.86705627673E-04 +8.42591710575E-04 +5.14655119652E-04 +7.36292369648E-01 +4.65700774816E-01
2.66500000000E+09 +7.43638487667E-01 +3.30463402433E-01 +7.44692728100E-04 +5.39396601672E-04 +7.97025811890E-04 +4.42783712226E-04 +7.40372023382E-01 +4.54491412368E-01
2.67000000000E+09 +7.45526422829E-01 +3.17752884837E-01 +1.07042101981E-03 +4.95248789354E-04 +1.09443288985E-03 +4.02014766512E-04 +7.44604928528E-01 +4.43433796104E-01
2.67500000000E+09 +7.46500019243E-01 +3.04670389557E-01 +1.16474900435E-03 +1.72652225913E-04 +1.10362328514E-03 +1.12968473960E-04 +7.48423418297E-01 +4.32379444729E-01
2.68000000000E+09 +7.47165450449E-01 +2.91478888277E-01 +9.76846281940E-04 +2.67822936790E-05 +8.89737079186E-04 -2.43882437069E-05 +7.52264980641E-01 +4.21530747813E-01
2.68500000000E+09 +7.47691638609E-01 +2.77697578304E-01 +9.45939053093E-04 +9.33349439475E-05 +9.37063750082E-04 +1.77522390005E-04 +7.55503726604E-01 +4.10148570104E-01
2.69000000000E+09 +7.47194587392E-01 +2.63800276931E-01 +1.02290206073E-03 +2.09980914084E-04 +1.01231437246E-03 +1.81349241747E-04 +7.58230027996E-01 +3.98171968733E-01
2.69500000000E+09 +7.46780786222E-01 +2.50679662967E-01 +1.24288949711E-03 +1.13583807873E-04 +1.21475514211E-03 +1.27218439602E-04 +7.61004988120E-01 +3.85502628506E-01
2.70000000000E+09 +7.46761160454E-01 +2.37679865183E-01 +1.43611880668E-03 -1.05342214407E-06 +1.36819883959E-03 +1.68416303268E-05 +7.63851795172E-01 +3.72349440017E-01
2.70500000000E+09 +7.46856260238E-01 +2.24902892279E-01 +1.57631984762E-03 -4.21140271114E-04 +1.57542206060E-03 -3.64032434372E-04 +7.66959814192E-01 +3.59034254720E-01
2.71000000000E+09 +7.47499875446E-01 +2.12349074445E-01 +1.50495116754E-03 -7.23120620475E-04 +1.49848203673E-03 -6.41178968008E-04 +7.70068397913E-01 +3.45607329655E-01
2.71500000000E+09 +7.48998273880E-01 +1.98891312115E-01 +1.34475910573E-03 -9.94373782433E-04 +1.45293922856E-03 -1.03700366125E-03 +7.72455924941E-01 +3.32851503652E-01
2.72000000000E+09 +7.49927118197E-01 +1.85001703865E-01 +9.77874253053E-04 -1.14092317141E-03 +9.50764443992E-04 -1.25550066769E-03 +7.74442404721E-01 +3.20153986908E-01
2.72500000000E+09 +7.50900098580E-01 +1.70093235230E-01 +8.47381090276E-04 -1.09323362796E-03 +7.70581380839E-04 -1.13489853124E-03 +7.75657523959E-01 +3.06783653060E-01
2.73000000000E+09 +7.51044698804E-01 +1.54189849064E-01 +9.02850314412E-04 -1.09095045336E-03 +6.64886695782E-04 -1.04735242020E-03 +7.77194567436E-01 +2.92792590894E-01
2.73500000000E+09 +7.49581056669E-01 +1.37274138179E-01 +8.60880588823E-04 -1.32122237707E-03 +7.65584515465E-04 -1.10918149442E-03 +7.78598520867E-01 +2.77544682797E-01
2.74000000000E+09 +7.46891617619E-01 +1.21137778593E-01 +7.69776125360E-04 -1.42995018758E-03 +7.86766680571E-04 -1.19236124357E-03 +7.79686329648E-01 +2.62043570984E-01
2.74500000000E+09 +7.43622817081E-01 +1.04742682759E-01 +5.56556518549E-04 -1.66428939658E-03 +7.23252511102E-04 -1.45976876320E-03 +7.80657584084E-01 +2.46862909517E-01
2.75000000000E+09 +7.39366862342E-01 +8.85721052946E-02 +2.29288961959E-04 -1.72911971159E-03 +4.21926568763E-04 -1.76905428855E-03 +7.81223520640E-01 +2.32044807559E-01
2.75500000000E+09 +7.35011895727E-01 +7.26588357388E-02 -3.53538935148E-07 -1.62707938901E-03 +1.76593403642E-04 -1.76523791091E-03 +7.81354544048E-01 +2.17008474888E-01
2.76000000000E+09 +7.30905498557E-01 +5.68749667874E-02 -2.14567886266E-05 -1.61414224468E-03 +3.33337291228E-05 -1.73210120490E-03 +7.80903442315E-01 +2.01093250211E-01
2.76500000000E+09 +7.26733472240E-01 +4.03804014626E-02 -2.16911207409E-04 -1.80692175851E-03 -2.60955054760E-04 -1.93543592719E-03 +7.79348931047E-01 +1.84105211676E-01
2.77000000000E+09 +7.22566688502E-01 +2.31653287827E-02 -5.28807565599E-04 -1.63879919066E-03 -5.51672147991E-04 -1.66690769540E-03 +7.77933113921E-01 +1.67078736494E-01
2.77500000000E+09 +7.18334975419E-01 +5.03359827127E-03 -6.09783729541E-04 -1.60792858518E-03 -7.13570817659E-04 -1.67134555934E-03 +7.76568230224E-01 +1.48973952815E-01
2.78000000000E+09 +7.13813045485E-01 -1.43860604719E-02 -7.75213557630E-04 -1.65744636218E-03 -9.22547710674E-04 -1.61363896168E-03 +7.74374412533E-01 +1.30820785072E-01
2.78500000000E+09 +7.07727655388E-01 -3.48553345285E-02 -1.04469143842E-03 -1.46955091511E-03 -1.12339284418E-03 -1.38673852447E-03 +7.71759027662E-01 +1.13155810607E-01
2.79000000000E+09 +7.00939085143E-01 -5.55542879206E-02 -1.09847142981E-03 -1.37194199404E-03 -1.12828732189E-03 -1.32410231916E-03 +7.68452413702E-01 +9.55422463005E-02
2.79500000000E+09 +6.92483950405E-01 -7.63672037958E-02 -1.43035649293E-03 -1.35802843262E-03 -1.39203106668E-03 -1.25762908982E-03 +7.64073163894E-01 +7.76429120537E-02
2.80000000000E+09 +6.82744363188E-01 -9.63823812619E-02 -1.67235281765E-03 -9.70187708992E-04 -1.52032214957E-03 -1.02398929230E-03 +7.59176772349E-01 +5.93916487419E-02
2.80500000000E+09 +6.71918791988E-01 -1.15341588072E-01 -1.65094508943E-03 -7.63293137235E-04 -1.64269637559E-03 -8.24843771820E-04 +7.53691271935E-01 +4.01187107646E-02
2.81000000000E+09 +6.60918437337E-01 -1.33195133936E-01 -1.69153407461E-03 -6.83294958230E-04 -1.68737111580E-03 -7.12268846639E-04 +7.46973221194E-01 +2.08262731659E-02
2.81500000000E+09 +6.48621337316E-01 -1.51041524262E-01 -1.79228369373E-03 -3.98778676227E-04 -1.83713142566E-03 -3.86311128381E-04 +7.39928398253E-01 +1.15994187360E-03
2.82000000000E+09 +6.35307686630E-01 -1.67881391668E-01 -1.76676976591E-03 -5.15029226480E-04 -1.78291384510E-03 -4.56462135909E-04 +7.31960922940E-01 -1.85375003548E-02
2.82500000000E+09 +6.21451021740E-01 -1.84689073255E-01 -2.23243733879E-03 -2.45123769961E-04 -2.12274272262E-03 -1.87808122122E-04 +7.23136665127E-01 -3.81250795825E-02
2.83000000000E+09 +6.06074182688E-01 -2.02513774625E-01 -2.33475798324E-03 +4.64612451851E-04 -2.17889333279E-03 +4.32806277445E-04 +7.13455983175E-01 -5.74996410200E-02
2.83500000000E+09 +5.88633482432E-01 -2.20838188832E-01 -1.96290934880E-03 +9.02583259864E-04 -1.92661278671E-03 +8.29404571306E-04 +7.03474970809E-01 -7.79172040783E-02
2.84000000000E+09 +5.69319714890E-01 -2.38974879062E-01 -1.45352122098E-03 +1.16610966517E-03 -1.53282080019E-03 +1.11156149978E-03 +6.91585008503E-01 -9.87823155796E-02
2.84500000000E+09 +5.48066074451E-01 -2.57617631235E-01 -1.07098814263E-03 +9.04147554487E-04 -1.03289652335E-03 +8.63611990082E-04 +6.78983155362E-01 -1.18949430019E-01
2.85000000000E+09 +5.25014032861E-01 -2.75689898455E-01 -1.16020440847E-03 +7.02742554185E-04 -1.18797490520E-03 +6.86794686576E-04 +6.65647276481E-01 -1.39611717462E-01
2.85500000000E+09 +5.01169156653E-01 -2.93251146630E-01 -1.36626492978E-03 +1.06956321312E-03 -1.34863045893E-03 +1.01289332899E-03 +6.50769718939E-01 -1.60380290267E-01
2.86000000000E+09 +4.76543177676E-01 -3.10316152636E-01 -8.61477598208E-04 +1.03315652836E-03 -8.91949004469E-04 +9.29878295238E-04 +6.34116195867E-01 -1.81086240253E-01
2.86500000000E+09 +4.51138749342E-01 -3.26335080930E-01 -1.24656595668E-03 +9.42912234184E-04 -1.28420554727E-03 +9.20979139078E-04 +6.15942007499E-01 -2.01054112803E-01
2.87000000000E+09 +4.25975940652E-01 -3.40662821578E-01 -9.94396623613E-04 +1.52296955476E-03 -9.84910606417E-04 +1.60204449953E-03 +5.97012443350E-01 -2.19967428413E-01
2.87500000000E+09 +4.00987471386E-01 -3.54392490913E-01 -6.53402326183E-04 +1.31948544822E-03 -6.57769191748E-04 +1.33916172073E-03 +5.78035291164E-01 -2.39930986422E-01
2.88000000000E+09 +3.75038891554E-01 -3.67271754745E-01 -5.38944208963E-04 +1.31859905860E-03 -5.43357194510E-04 +1.29932590740E-03 +5.56426495114E-01 -2.59797155691E-01
2.88500000000E+09 +3.48293026649E-01 -3.78535830974E-01 -4.07799950793E-04 +1.42850090280E-03 -3.47350542878E-04 +1.34746547708E-03 +5.32693062904E-01 -2.78159448512E-01
2.89000000000E+09 +3.20209086115E-01 -3.88744394255E-01 -2.55869584538E-04 +9.67934365058E-04 -2.31173809286E-04 +8.76140075198E-04 +5.07911534052E-01 -2.95501055061E-01
2.89500000000E+09 +2.90153877194E-01 -3.97165479198E-01 -6.28849973569E-04 +1.21339673673E-03 -7.25145953512E-04 +1.12378093225E-03 +4.80514716039E-01 -3.12860437885E-01
2.90000000000E+09 +2.58210718543E-01 -4.03226862092E-01 -5.50884108024E-04 +1.29733393128E-03 -5.95966660609E-04 +1.34156423459E-03 +4.52024252984E-01 -3.28285009132E-01
2.90500000000E+09 +2.24266644639E-01 -4.06488422823E-01 -6.43725594919E-04 +1.69956217340E-03 -6.51917689308E-04 +1.74318038301E-03 +4.22838352494E-01 -3.43933625008E-01
2.91000000000E+09 +1.89902938683E-01 -4.07142341981E-01 -1.95896063842E-05 +1.90785446167E-03 +4.48034747205E-05 +1.80977176730E-03 +3.91438459721E-01 -3.58353362847E-01
2.91500000000E+09 +1.55064944494E-01 -4.06076125438E-01 -7.41403362421E-06 +1.59522469028E-03 +2.39405552983E-05 +1.51496836666E-03 +3.58458533320E-01 -3.69939282295E-01
2.92000000000E+09 +1.19052618314E-01 -4.02832907681E-01 +1.86504023893E-05 +1.99306165492E-03 -5.74719581520E-05 +1.82420414091E-03 +3.25383425923E-01 -3.78996590187E-01
2.92500000000E+09 +8.28113250741E-02 -3.98023673118E-01 +7.09425205894E-04 +1.78475143224E-03 +6.17967746586E-04 +1.71200825664E-03 +2.90303303235E-01 -3.86604991623E-01
2.93000000000E+09 +4.61986625337E-02 -3.90208191193E-01 +3.47525826699E-04 +1.37501263016E-03 +3.11408608906E-04 +1.36907579225E-03 +2.53945198449E-01 -3.92672671440E-01
2.93500000000E+09 +9.93198204635E-03 -3.80218737565E-01 +5.07733536283E-04 +1.92902723688E-03 +4.03897676046E-04 +1.93993748153E-03 +2.15556591532E-01 -3.97193901280E-01
2.94000000000E+09 -2.52852997897E-02 -3.67988412546E-01 +5.39116345406E-04 +1.93254449139E-03 +4.64579670906E-04 +1.91789976725E-03 +1.76754522872E-01 -3.98313939821E-01
2.94500000000E+09 -6.00463706657E-02 -3.53424421616E-01 +1.29390304349E-03 +2.66693755078E-03 +1.22911303411E-03 +2.73427856468E-03 +1.39140150561E-01 -3.98979972817E-01
2.95000000000E+09 -9.39817970737E-02 -3.36002209560E-01 +2.19611037321E-03 +1.73144566850E-03 +2.21505630418E-03 +1.80603081819E-03 +9.88636799617E-02 -3.97523656889E-01
2.95500000000E+09 -1.26721858571E-01 -3.15495522413E-01 +2.07611096494E-03 +1.17885662275E-03 +2.06089676734E-03 +1.34807178632E-03 +5.79128566842E-02 -3.91058719479E-01
2.96000000000E+09 -1.57850231781E-01 -2.92565699055E-01 +2.06143164082E-03 +9.80770144495E-04 +2.16300493227E-03 +1.06953748383E-03 +1.79856973617E-02 -3.81268859329E-01
2.96500000000E+09 -1.88196789429E-01 -2.66346973194E-01 +2.24222153986E-03 +5.89022620082E-04 +2.30789469086E-03 +5.34275966422E-04 -2.18382177209E-02 -3.67935464320E-01
2.97000000000E+09 -2.16017726184E-01 -2.36807908495E-01 +1.81498653707E-03 +3.59565003835E-04 +1.81607815730E-03 +3.60537236787E-04 -5.94639213832E-02 -3.53423208161E-01
2.97500000000E+09 -2.40849054841E-01 -2.05044285877E-01 +1.97280421169E-03 +6.81779793917E-04 +1.86325995780E-03 +6.17559270690E-04 -9.86459369658E-02 -3.38136444646E-01
2.98000000000E+09 -2.63403879065E-01 -1.73002207972E-01 +2.26906083445E-03 +4.86407422061E-04 +2.24241131177E-03 +5.17521400736E-04 -1.37512252505E-01 -3.18916788976E-01
2.98500000000E+09 -2.85005358313E-01 -1.39806682684E-01 +2.57606735488E-03 +1.77282993168E-04 +2.64974241176E-03 +2.46437390096E-04 -1.75026822522E-01 -2.95037709284E-01
2.99000000000E+09 -3.04422441132E-01 -1.05564488772E-01 +2.65881271113E-03 -4.65320583574E-04 +2.78627698030E-03 -4.74322852713E-04 -2.08882239474E-01 -2.69450885603E-01
2.99500000000E+09 -3.21698374881E-01 -7.06252358149E-02 +2.34649773962E-03 -8.66757639568E-04 +2.39253731066E-03 -9.86852813823E-04 -2.42471777566E-01 -2.40919366290E-01
3.00000000000E+09 -3.36519341953E-01 -3.48468160665E-02 +2.18425940155E-03 -7.33356170063E-04 +2.10163265653E-03 -8.53735870696E-04 -2.73441385890E-01 -2.09220988516E-01
3.00500000000E+09 -3.47955550307E-01 +2.61874297329E-04 +2.47034513542E-03 -9.98126715253E-04 +2.32531491219E-03 -1.02992305644E-03 -3.01652314813E-01 -1.76038179673E-01
3.01000000000E+09 -3.56525337548E-01 +3.41991857838E-02 +2.32597491287E-03 -1.69724739357E-03 +2.27564167114E-03 -1.52472973853E-03 -3.28243835764E-01 -1.41397404102E-01
3.01500000000E+09 -3.63452840123E-01 +6.80148583130E-02 +2.07181186922E-03 -2.05361449818E-03 +2.10285109341E-03 -1.98147609460E-03 -3.50621145347E-01 -1.05521175027E-01
3.02000000000E+09 -3.66828656298E-01 +1.01879536164E-01 +1.47217113391E-03 -2.55444872071E-03 +1.54284158545E-03 -2.46371302400E-03 -3.71279494110E-01 -6.97721450444E-02
3.02500000000E+09 -3.66851585187E-01 +1.35390337525E-01 +1.20600249519E-03 -2.27379029900E-03 +1.32093741602E-03 -2.28675593736E-03 -3.90060853443E-01 -3.14610675920E-02
3.03000000000E+09 -3.63148961779E-01 +1.68166312207E-01 +9.22753731761E-04 -2.65002744234E-03 +9.52337166741E-04 -2.63621472220E-03 -4.04750662921E-01 +9.65173796604E-03
3.03500000000E+09 -3.56769645194E-01 +1.99084757052E-01 +3.47415518145E-04 -2.89203984477E-03 +4.63980763899E-04 -2.92416492992E-03 -4.15152908524E-01 +4.97814175817E-02
3.04000000000E+09 -3.49227574890E-01 +2.29615196176E-01 -4.58818536861E-04 -2.68286379284E-03 -3.57580444259E-04 -2.71972868615E-03 -4.23444730363E-01 +8.96014087953E-02
3.04500000000E+09 -3.39818631871E-01 +2.60081578818E-01 -4.38203143760E-04 -2.04104665290E-03 -4.18568077952E-04 -2.14939625684E-03 -4.29386542463E-01 +1.28825773395E-01
3.05000000000E+09 -3.28304941205E-01 +2.90523572447E-01 -4.56472830530E-04 -1.97349629820E-03 -6.01992279292E-04 -2.05215808584E-03 -4.34009571988E-01 +1.68358293728E-01
3.05500000000E+09 -3.14477278196E-01 +3.20132796788E-01 -4.40130731479E-04 -1.86892989542E-03 -6.03392356802E-04 -1.84650413877E-03 -4.34005930419E-01 +2.08612675459E-01
3.06000000000E+09 -2.99560548658E-01 +3.47470047015E-01 -5.43164701929E-04 -2.33552602303E-03 -6.54786855598E-04 -2.20319745204E-03 -4.31208830854E-01 +2.46017505747E-01
3.06500000000E+09 -2.84285602363E-01 +3.73206601705E-01 -1.57278443297E-03 -2.04208993572E-03 -1.44651159263E-03 -1.90649276938E-03 -4.27246800604E-01 +2.82241471930E-01
3.07000000000E+09 -2.69213326316E-01 +3.97601111676E-01 -1.61553887724E-03 -1.25452785716E-03 -1.48098337853E-03 -1.28474948688E-03 -4.22421595390E-01 +3.17433864113E-01
