# Hz S RI R 50
! CMT, C1220, 16058040, 17.2.0/1
! Date: 15/08/2018 10:51:59
! Data: Format (Calibration Info)
! Freq                      S11: Re/Im (F2)                       S21: Re/Im (F2)                       S12: Re/Im (F2)                       S22: Re/Im (F2)            
2.50000000000E+09 +5.80997660670E-01 +6.51344458622E-01 -9.05718569220E-04 +6.74832739719E-04 -1.05082288893E-03 +7.30258712114E-04 +5.61832014290E-01 +7.26383704503E-01
2.50500000000E+09 +5.88469209368E-01 +6.42262857929E-01 -8.24841156663E-04 +8.09715345579E-04 -7.89613319894E-04 +8.49240657623E-04 +5.67482406775E-01 +7.20925164470E-01
2.51000000000E+09 +5.96813628415E-01 +6.32827365760E-01 -7.11956942387E-04 +8.09669565430E-04 -6.96629677772E-04 +8.45962710772E-04 +5.73393699239E-01 +7.15558802886E-01
2.51500000000E+09 +6.05159700425E-01 +6.23927353568E-01 -6.75575594644E-04 +9.00895692758E-04 -6.14202229154E-04 +8.68535703176E-04 +5.78640836511E-01 +7.09955602596E-01
2.52000000000E+09 +6.12732626332E-01 +6.15490823472E-01 -5.09452340418E-04 +9.34227327152E-04 -5.22161284267E-04 +8.81650288892E-04 +5.83804714462E-01 +7.03772032475E-01
2.52500000000E+09 +6.18877572998E-01 +6.08528684530E-01 -4.53112654058E-04 +9.23505609125E-04 -4.83773654768E-04 +9.39996105169E-04 +5.89166173117E-01 +6.97283547766E-01
2.53000000000E+09 +6.23760057643E-01 +6.02305833083E-01 -3.57646880180E-04 +9.56661129733E-04 -4.11318119389E-04 +9.77159970403E-04 +5.95127774123E-01 +6.90506737902E-01
2.53500000000E+09 +6.27625472971E-01 +5.96747714661E-01 -3.50596747668E-04 +1.04410447353E-03 -3.45578154136E-04 +1.07719268892E-03 +6.01046046513E-01 +6.84093260444E-01
2.54000000000E+09 +6.30663917283E-01 +5.90894892197E-01 -1.83756064993E-04 +1.10707717815E-03 -2.15750109199E-04 +1.06837825591E-03 +6.07005402472E-01 +6.77836187924E-01
2.54500000000E+09 +6.33735961404E-01 +5.84784510416E-01 -9.20294803622E-05 +1.20198022084E-03 -1.52980501774E-04 +1.14346113906E-03 +6.12786686635E-01 +6.71704915613E-01
2.55000000000E+09 +6.37363652537E-01 +5.77761792635E-01 +1.54772401501E-04 +1.23177355132E-03 +5.32392704995E-05 +1.28993137592E-03 +6.18017422001E-01 +6.65764591717E-01
2.55500000000E+09 +6.42383362886E-01 +5.69281011205E-01 +3.09802807838E-04 +1.03094680192E-03 +3.38628994943E-04 +1.19180269989E-03 +6.23140201661E-01 +6.59492540704E-01
2.56000000000E+09 +6.49076131643E-01 +5.60207658384E-01 +3.01347763595E-04 +9.49006053953E-04 +4.85521089817E-04 +1.07442895371E-03 +6.28138653326E-01 +6.52410236766E-01
2.56500000000E+09 +6.56950009101E-01 +5.49826435966E-01 +3.00892904663E-04 +9.36956252177E-04 +5.25499753303E-04 +9.85132084894E-04 +6.33690786204E-01 +6.45285201167E-01
2.57000000000E+09 +6.65340619812E-01 +5.39381705381E-01 +3.61401252236E-04 +9.97041767585E-04 +5.61021960266E-04 +8.81629708826E-04 +6.39269431279E-01 +6.37764202255E-01
2.57500000000E+09 +6.73292205068E-01 +5.29181137939E-01 +5.63252578784E-04 +1.05651237629E-03 +6.28215873998E-04 +8.46977438397E-04 +6.45102219300E-01 +6.30310225350E-01
2.58000000000E+09 +6.80220362140E-01 +5.20004345541E-01 +8.04278313294E-04 +9.74564377718E-04 +6.85489920735E-04 +7.40977790646E-04 +6.50625956577E-01 +6.22832359621E-01
2.58500000000E+09 +6.85848532387E-01 +5.11597554755E-01 +9.30404478606E-04 +6.52642581499E-04 +7.55421016790E-04 +6.27672225492E-04 +6.55944469089E-01 +6.15241563867E-01
2.59000000000E+09 +6.89728695359E-01 +5.04267425345E-01 +8.33986196498E-04 +5.48446556838E-04 +7.49067777480E-04 +5.53747016167E-04 +6.60925300178E-01 +6.07618275269E-01
2.59500000000E+09 +6.92480236303E-01 +4.96907937163E-01 +8.42877953398E-04 +5.40386808660E-04 +8.13624610218E-04 +6.07544059813E-04 +6.65993854606E-01 +5.99560613514E-01
2.60000000000E+09 +6.94236653046E-01 +4.88948020968E-01 +1.01006677584E-03 +4.77558369304E-04 +9.46144986064E-04 +5.18210845385E-04 +6.71259290358E-01 +5.91284598793E-01
2.60500000000E+09 +6.96375831325E-01 +4.79475852231E-01 +1.01960517527E-03 +1.67206863506E-04 +9.86416048656E-04 +2.24619978618E-04 +6.76898521613E-01 +5.82509586603E-01
2.61000000000E+09 +6.98717393262E-01 +4.67899576963E-01 +8.47695231440E-04 +8.57474163537E-05 +8.24514805482E-04 +9.40375463813E-05 +6.82310249115E-01 +5.73557551789E-01
2.61500000000E+09 +7.02403045446E-01 +4.54363530835E-01 +8.48812524823E-04 +9.75762681064E-05 +7.95408431390E-04 +7.21049596004E-05 +6.87347516150E-01 +5.64768133770E-01
2.62000000000E+09 +7.06722745691E-01 +4.38550253859E-01 +7.66034174686E-04 -3.74180120217E-05 +8.01902732322E-04 -7.25007253301E-06 +6.92085940266E-01 +5.55719230712E-01
2.62500000000E+09 +7.11976180073E-01 +4.21903256103E-01 +6.67095352312E-04 +4.68558473960E-05 +7.66281665619E-04 +1.05357890443E-05 +6.96979147466E-01 +5.46992649122E-01
2.63000000000E+09 +7.17432438071E-01 +4.05077537299E-01 +7.87156973083E-04 +1.08876534824E-04 +8.00122744747E-04 -1.24217901822E-05 +7.01907915575E-01 +5.38071414911E-01
2.63500000000E+09 +7.22534780812E-01 +3.89142469407E-01 +8.70098440619E-04 -2.01809421849E-04 +8.21295139526E-04 -2.39115824157E-04 +7.06598434323E-01 +5.28744295666E-01
2.64000000000E+09 +7.26866395925E-01 +3.74860129369E-01 +6.20083619824E-04 -2.59239780044E-04 +5.13932359847E-04 -2.66062019580E-04 +7.11282682201E-01 +5.18991571789E-01
2.64500000000E+09 +7.30239696252E-01 +3.62944675703E-01 +5.65901578228E-04 -1.29141242584E-04 +4.83936417093E-04 -1.07725072016E-04 +7.15908266371E-01 +5.09410009524E-01
2.65000000000E+09 +7.32453519853E-01 +3.53004900030E-01 +5.13974388688E-04 -1.15893370904E-04 +4.94502807120E-04 -3.49554586959E-05 +7.20527954365E-01 +4.99248900458E-01
2.65500000000E+09 +7.34053963254E-01 +3.43893478321E-01 +5.38884716568E-04 -6.62138670117E-05 +5.83983481123E-04 -5.37493280989E-05 +7.24573917702E-01 +4.88474323191E-01
2.66000000000E+09 +7.35035769836E-01 +3.34933345796E-01 +6.14883838758E-04 +2.12330060914E-06 +6.38953013723E-04 -2.55569695960E-05 +7.28634933092E-01 +4.77213640781E-01
2.66500000000E+09 +7.35951141126E-01 +3.25258238146E-01 +5.36663709964E-04 -1.12139605563E-04 +5.69402151303E-04 -1.15558068664E-04 +7.32808701271E-01 +4.66309233569E-01
2.67000000000E+09 +7.37071234414E-01 +3.13343186512E-01 +5.51176828151E-04 +2.05580882723E-05 +5.22968576619E-04 -1.86950692621E-05 +7.37174656155E-01 +4.55425491882E-01
2.67500000000E+09 +7.38052624265E-01 +2.99288371245E-01 +7.79299924561E-04 +7.93359071832E-06 +7.28695203563E-04 -1.60554943916E-05 +7.41567686923E-01 +4.44366786692E-01
2.68000000000E+09 +7.39187158499E-01 +2.83579155581E-01 +8.16935433433E-04 -9.17383596379E-05 +7.91987165936E-04 -1.04425027361E-04 +7.45588838635E-01 +4.33088974886E-01
2.68500000000E+09 +7.40475275350E-01 +2.66669619709E-01 +7.80478528680E-04 -2.72773251356E-04 +7.70439844660E-04 -2.46366243331E-04 +7.48746148100E-01 +4.21462412022E-01
2.69000000000E+09 +7.41675484085E-01 +2.49357329853E-01 +6.93948274332E-04 -2.03820723768E-04 +6.75158288603E-04 -1.65112753428E-04 +7.51473762794E-01 +4.09555591754E-01
2.69500000000E+09 +7.42599231637E-01 +2.32968118540E-01 +8.60216443620E-04 -1.59509162078E-05 +8.55454226590E-04 -5.24877207797E-05 +7.54311163998E-01 +3.96818329721E-01
2.70000000000E+09 +7.43340798436E-01 +2.17564951337E-01 +1.13561470723E-03 -2.06033360026E-04 +1.12050096879E-03 -2.08163166893E-04 +7.57244402534E-01 +3.83804746477E-01
2.70500000000E+09 +7.43860491930E-01 +2.03811968100E-01 +1.24335778943E-03 -5.76950030384E-04 +1.19005691239E-03 -4.73364427694E-04 +7.60311472101E-01 +3.70428772806E-01
2.71000000000E+09 +7.44031217802E-01 +1.90983857983E-01 +9.83697947465E-04 -8.04042674747E-04 +1.04758224898E-03 -8.19878186861E-04 +7.63208429743E-01 +3.56931169014E-01
2.71500000000E+09 +7.44001298470E-01 +1.78368307695E-01 +8.36833136626E-04 -7.81182256054E-04 +8.60144379258E-04 -8.28800584935E-04 +7.65307443358E-01 +3.44468405868E-01
2.72000000000E+09 +7.43555187474E-01 +1.65732643640E-01 +8.81069915138E-04 -8.26720367672E-04 +8.21558059387E-04 -9.25725127791E-04 +7.67376487216E-01 +3.31812596781E-01
2.72500000000E+09 +7.43213779813E-01 +1.51919466904E-01 +7.84993811541E-04 -7.96305422981E-04 +6.57104149070E-04 -8.94552890577E-04 +7.68329857201E-01 +3.18186683168E-01
2.73000000000E+09 +7.42258100810E-01 +1.36425550223E-01 +9.81595216327E-04 -8.39730785833E-04 +8.10861675718E-04 -8.89921071890E-04 +7.69476399663E-01 +3.04176788635E-01
2.73500000000E+09 +7.40483424732E-01 +1.19060567153E-01 +9.20532993947E-04 -1.19809849189E-03 +7.99747006580E-04 -1.05843303834E-03 +7.70012390906E-01 +2.89448062552E-01
2.74000000000E+09 +7.37860817163E-01 +1.00793607450E-01 +8.17468861040E-04 -1.30490997534E-03 +8.14931297560E-04 -1.08929284929E-03 +7.71062543211E-01 +2.75063014769E-01
2.74500000000E+09 +7.34196374213E-01 +8.19620649318E-02 +6.65268135162E-04 -1.40131397060E-03 +7.75519794006E-04 -1.26356990619E-03 +7.72602805972E-01 +2.60232086479E-01
2.75000000000E+09 +7.29575551118E-01 +6.36819353080E-02 +7.70092853491E-04 -1.36525508655E-03 +9.40045199316E-04 -1.27246118347E-03 +7.73598798007E-01 +2.45291378035E-01
2.75500000000E+09 +7.24557754980E-01 +4.62752239220E-02 +6.55496375207E-04 -1.85776768388E-03 +8.13019883315E-04 -1.97411118871E-03 +7.73728881102E-01 +2.30360214767E-01
2.76000000000E+09 +7.19767638353E-01 +2.94324006511E-02 +3.58906959639E-04 -1.89095154429E-03 +4.13399696265E-04 -2.02058890528E-03 +7.73216223390E-01 +2.15013979278E-01
2.76500000000E+09 +7.14315700863E-01 +1.27712677287E-02 +7.46567690881E-05 -2.10113754953E-03 +2.89585768664E-05 -2.17804990381E-03 +7.72490763282E-01 +1.99060359985E-01
2.77000000000E+09 +7.08838438809E-01 -3.99350477359E-03 -2.64076781568E-04 -1.94392019777E-03 -2.88018429782E-04 -1.97922969642E-03 +7.71859225700E-01 +1.82167715740E-01
2.77500000000E+09 +7.03141966122E-01 -2.17734224168E-02 -1.18469122828E-04 -1.60918704792E-03 -1.65667821651E-04 -1.63259286085E-03 +7.70485672117E-01 +1.64329174975E-01
2.78000000000E+09 +6.97031112198E-01 -4.07178935600E-02 +1.21535610261E-04 -2.08916512632E-03 +3.26406175725E-05 -2.11294504783E-03 +7.68942154362E-01 +1.46781301918E-01
2.78500000000E+09 +6.90588035092E-01 -6.11286033578E-02 -2.39533555019E-04 -2.48875634893E-03 -4.22555135378E-04 -2.42607968963E-03 +7.67003056492E-01 +1.28909632742E-01
2.79000000000E+09 +6.83301473474E-01 -8.29299877818E-02 -7.19301703687E-04 -2.47411566949E-03 -7.47654259050E-04 -2.32001093864E-03 +7.64114457907E-01 +1.11665742506E-01
2.79500000000E+09 +6.75259393334E-01 -1.04542937715E-01 -8.70114623478E-04 -2.62946684198E-03 -8.07456281810E-04 -2.46714735691E-03 +7.60586981197E-01 +9.36718290308E-02
2.80000000000E+09 +6.66757551143E-01 -1.26042189120E-01 -1.40111454225E-03 -2.57098001644E-03 -1.31446332042E-03 -2.48246766340E-03 +7.55927346572E-01 +7.49495613455E-02
2.80500000000E+09 +6.57370280846E-01 -1.46319855336E-01 -1.39979007774E-03 -2.56805724363E-03 -1.28141243706E-03 -2.62160340844E-03 +7.50260588046E-01 +5.55907243884E-02
2.81000000000E+09 +6.46917497281E-01 -1.64488752674E-01 -2.00320468238E-03 -2.96766260627E-03 -1.97867978455E-03 -3.08448331493E-03 +7.43661965354E-01 +3.66898672790E-02
2.81500000000E+09 +6.35929064614E-01 -1.80557590082E-01 -2.70518008023E-03 -2.57363164306E-03 -2.84844937558E-03 -2.58627853317E-03 +7.37765891405E-01 +1.72198160826E-02
2.82000000000E+09 +6.24146778494E-01 -1.95669531697E-01 -3.08752024579E-03 -2.54867962389E-03 -3.18957110757E-03 -2.35967249302E-03 +7.30656290127E-01 -3.39017846883E-03
2.82500000000E+09 +6.10267139475E-01 -2.10137098840E-01 -3.64201877612E-03 -2.21058003930E-03 -3.60622656387E-03 -1.99134601827E-03 +7.22305948487E-01 -2.38063429387E-02
2.83000000000E+09 +5.95083733918E-01 -2.24384377534E-01 -4.06962944639E-03 -1.78430133985E-03 -3.84696837582E-03 -1.70415763618E-03 +7.12560777210E-01 -4.36535891279E-02
2.83500000000E+09 +5.78995461723E-01 -2.40923314198E-01 -4.66598024544E-03 -1.25456722497E-03 -4.46897049458E-03 -1.31148800363E-03 +7.02504664473E-01 -6.35872338214E-02
2.84000000000E+09 +5.59338683243E-01 -2.59475109531E-01 -4.90799064553E-03 -4.36805677720E-04 -4.77175716968E-03 -6.22284958778E-04 +6.91290400105E-01 -8.35493711107E-02
2.84500000000E+09 +5.37880602474E-01 -2.79257806827E-01 -4.71206295138E-03 +1.33368257375E-04 -4.77032248898E-03 +8.39542955264E-05 +6.79164653242E-01 -1.03897805317E-01
2.85000000000E+09 +5.13932821753E-01 -3.00284003617E-01 -4.81312766067E-03 +2.65461025920E-04 -4.83883697116E-03 +3.36149193937E-04 +6.66027202497E-01 -1.24355688067E-01
2.85500000000E+09 +4.89134582842E-01 -3.20338258958E-01 -5.51129848329E-03 +8.15807423397E-04 -5.47796353132E-03 +8.26348020350E-04 +6.51329613706E-01 -1.44986077825E-01
2.86000000000E+09 +4.64716500573E-01 -3.39301945881E-01 -5.56264827701E-03 +1.78040394937E-03 -5.45437046033E-03 +1.70524145060E-03 +6.35867799819E-01 -1.64740260691E-01
2.86500000000E+09 +4.40897724166E-01 -3.56250080280E-01 -5.70246226029E-03 +2.63281297698E-03 -5.70638108454E-03 +2.58664887374E-03 +6.19454552565E-01 -1.85583206695E-01
2.87000000000E+09 +4.18247569200E-01 -3.71654313239E-01 -5.49677002020E-03 +3.80993230060E-03 -5.51996696556E-03 +3.84133163975E-03 +6.01170867405E-01 -2.06036172001E-01
2.87500000000E+09 +3.95710327416E-01 -3.84645253411E-01 -4.90335869003E-03 +4.66017740265E-03 -4.74501801003E-03 +4.79258869867E-03 +5.80774758744E-01 -2.25726441759E-01
2.88000000000E+09 +3.73389780368E-01 -3.96089801846E-01 -4.29779908850E-03 +5.10423290716E-03 -3.98249716342E-03 +5.10033376188E-03 +5.60210519763E-01 -2.44117810972E-01
2.88500000000E+09 +3.49341328431E-01 -4.06423572351E-01 -4.10361665130E-03 +5.87782111108E-03 -3.84853494234E-03 +5.57243952169E-03 +5.38599773686E-01 -2.62776834791E-01
2.89000000000E+09 +3.22695961111E-01 -4.15836851100E-01 -3.36874363151E-03 +7.15380481206E-03 -3.30316227381E-03 +6.62129605764E-03 +5.14647611160E-01 -2.81724218528E-01
2.89500000000E+09 +2.93159269444E-01 -4.23381585584E-01 -2.13167643778E-03 +7.34169909106E-03 -2.37567363180E-03 +7.05022650567E-03 +4.88054803822E-01 -3.00506325756E-01
2.90000000000E+09 +2.61891014275E-01 -4.30160858511E-01 -1.60288197057E-03 +7.80999107650E-03 -1.99403906478E-03 +7.75379604375E-03 +4.60272816748E-01 -3.16935101707E-01
2.90500000000E+09 +2.27616450598E-01 -4.36546617665E-01 -5.84971912871E-04 +8.60714030573E-03 -6.25623505341E-04 +8.76179099276E-03 +4.31574479776E-01 -3.33120902975E-01
2.91000000000E+09 +1.92253534409E-01 -4.40373718250E-01 +7.84737599915E-04 +8.93871947966E-03 +1.05425037868E-03 +8.82354861267E-03 +4.01796763484E-01 -3.47937291436E-01
2.91500000000E+09 +1.57729110660E-01 -4.43741390093E-01 +2.30323321322E-03 +9.38140239611E-03 +2.43362052279E-03 +8.85022540722E-03 +3.70473744997E-01 -3.61241878006E-01
2.92000000000E+09 +1.22387163770E-01 -4.45632444937E-01 +4.02826140109E-03 +8.91527490779E-03 +3.69531335552E-03 +8.39815428889E-03 +3.37305733213E-01 -3.73430458429E-01
2.92500000000E+09 +8.81599465094E-02 -4.45500329703E-01 +5.43848941256E-03 +8.35348575441E-03 +4.84923659496E-03 +8.10331925698E-03 +3.01513310285E-01 -3.82208866407E-01
2.93000000000E+09 +5.45539818874E-02 -4.42689249435E-01 +6.63855498809E-03 +7.24756167444E-03 +6.06024201382E-03 +7.55495754652E-03 +2.65082207670E-01 -3.89794246595E-01
2.93500000000E+09 +2.18296319519E-02 -4.37656603185E-01 +7.57428551332E-03 +6.64115943239E-03 +7.28770092230E-03 +6.99932556178E-03 +2.26610660178E-01 -3.95496010321E-01
2.94000000000E+09 -1.13501220847E-02 -4.29495581674E-01 +8.65060874258E-03 +5.73420538921E-03 +8.52728466098E-03 +6.00156733620E-03 +1.87395144556E-01 -3.99758976363E-01
2.94500000000E+09 -4.39422074723E-02 -4.18350901872E-01 +9.86716103637E-03 +4.59422536919E-03 +9.75651191133E-03 +4.87598558203E-03 +1.46279392952E-01 -4.00771944914E-01
2.95000000000E+09 -7.74195262572E-02 -4.05469111858E-01 +1.08982086605E-02 +2.87253565026E-03 +1.08047264867E-02 +3.29515176925E-03 +1.06183636683E-01 -3.98578689156E-01
2.95500000000E+09 -1.12791088140E-01 -3.88739214390E-01 +1.11423120217E-02 +7.12363117114E-04 +1.13664086038E-02 +1.24484716497E-03 +6.58917363016E-02 -3.93932656584E-01
2.96000000000E+09 -1.46711016201E-01 -3.68137030039E-01 +1.06105838213E-02 -9.79601321350E-04 +1.11730394536E-02 -8.68696218412E-04 +2.43889034745E-02 -3.86978715432E-01
2.96500000000E+09 -1.79786392071E-01 -3.45839828319E-01 +1.04046578561E-02 -1.91329017181E-03 +1.07630447235E-02 -2.22573198256E-03 -1.74647261835E-02 -3.75091481105E-01
2.97000000000E+09 -2.11107034584E-01 -3.21502569470E-01 +1.03014510858E-02 -3.21450722238E-03 +1.02442614001E-02 -3.59915655412E-03 -5.85472089956E-02 -3.60849523311E-01
2.97500000000E+09 -2.40370490707E-01 -2.95799773929E-01 +1.04076930845E-02 -4.89776703164E-03 +1.00449977919E-02 -4.88241254233E-03 -9.88409488774E-02 -3.43786493147E-01
2.98000000000E+09 -2.68242886626E-01 -2.69219587842E-01 +9.32022615823E-03 -6.90726118079E-03 +9.26936567525E-03 -6.49369849751E-03 -1.37754566904E-01 -3.24606358777E-01
2.98500000000E+09 -2.94026458368E-01 -2.39563893006E-01 +8.07012732040E-03 -8.13162858691E-03 +8.54432990873E-03 -7.89053902111E-03 -1.75270762984E-01 -3.01818483115E-01
2.99000000000E+09 -3.16210111947E-01 -2.08405674239E-01 +6.64134670671E-03 -9.01958561701E-03 +7.04754613505E-03 -9.35215502687E-03 -2.12314462460E-01 -2.76146643133E-01
2.99500000000E+09 -3.36569610234E-01 -1.77419045548E-01 +5.45802407161E-03 -9.83570004276E-03 +5.36575758134E-03 -1.03748519221E-02 -2.45921381934E-01 -2.46393656646E-01
3.00000000000E+09 -3.56849005903E-01 -1.44227615016E-01 +4.06026811646E-03 -1.04689229694E-02 +3.49420626435E-03 -1.07501339060E-02 -2.78273370270E-01 -2.14264084683E-01
3.00500000000E+09 -3.73750529503E-01 -1.08965673116E-01 +2.58691749205E-03 -1.11988393822E-02 +2.11453827547E-03 -1.08753203112E-02 -3.06918459529E-01 -1.80757585384E-01
3.01000000000E+09 -3.87955912770E-01 -7.44613584088E-02 +3.71349381698E-04 -1.17541741410E-02 +4.19964921335E-04 -1.12151968999E-02 -3.35162304727E-01 -1.45250354287E-01
3.01500000000E+09 -4.01043434278E-01 -4.05322730585E-02 -1.55338786998E-03 -1.09471675223E-02 -1.24006068738E-03 -1.07315672154E-02 -3.59071276538E-01 -1.08311197666E-01
3.02000000000E+09 -4.11357925947E-01 -6.31628546151E-03 -2.75589347190E-03 -1.00866493611E-02 -2.56564986830E-03 -1.00900082941E-02 -3.80211241326E-01 -6.93598256851E-02
3.02500000000E+09 -4.18598523519E-01 +2.70262176323E-02 -3.58463086246E-03 -9.83592255006E-03 -3.55611912406E-03 -9.79534641458E-03 -3.97136285796E-01 -3.02397342253E-02
3.03000000000E+09 -4.22272077536E-01 +5.97761965706E-02 -5.14807978649E-03 -9.22372636827E-03 -5.04691806471E-03 -9.18117695248E-03 -4.11608747902E-01 +1.03747371380E-02
3.03500000000E+09 -4.22687216224E-01 +9.15657192720E-02 -6.53859324297E-03 -8.56443920508E-03 -6.24705202600E-03 -8.72912498254E-03 -4.22409532094E-01 +5.03595558431E-02
3.04000000000E+09 -4.20376887315E-01 +1.23442148191E-01 -8.01050695341E-03 -6.78130148497E-03 -7.91180891947E-03 -7.21804083125E-03 -4.30862217614E-01 +9.15101585476E-02
3.04500000000E+09 -4.14959795418E-01 +1.55464382668E-01 -7.92588960015E-03 -5.23490437657E-03 -8.25244295454E-03 -5.59636287892E-03 -4.35691597601E-01 +1.31517335215E-01
3.05000000000E+09 -4.07527943025E-01 +1.89042480151E-01 -8.16306087710E-03 -4.23670397548E-03 -8.84126462774E-03 -4.17317872281E-03 -4.38226683774E-01 +1.70848328469E-01
3.05500000000E+09 -3.97088531495E-01 +2.23927956917E-01 -8.45921836046E-03 -3.45153080816E-03 -8.76281625663E-03 -2.88161132968E-03 -4.38858035187E-01 +2.09049581624E-01
3.06000000000E+09 -3.84283157339E-01 +2.58190643919E-01 -9.09530665456E-03 -2.55291699558E-03 -8.92238508509E-03 -1.99075148774E-03 -4.36830927698E-01 +2.46490628000E-01
3.06500000000E+09 -3.70276758858E-01 +2.91817891380E-01 -9.53494135982E-03 -5.78674375166E-04 -8.90841540051E-03 -6.20425759628E-04 -4.33454737957E-01 +2.83461015184E-01
3.07000000000E+09 -3.55796150263E-01 +3.23087676150E-01 -8.86878376722E-03 +7.66449177127E-04 -8.56888053084E-03 +2.29744009179E-04 -4.26254886081E-01 +3.19831765097E-01
