# Hz S RI R 50
! CMT, C1220, 16058040, 17.2.0/1
! Date: 15/08/2018 10:45:26
! Data: Format (Calibration Info)
! Freq                      S11: Re/Im (F2)                       S21: Re/Im (F2)                       S12: Re/Im (F2)                       S22: Re/Im (F2)            
2.50000000000E+09 +5.92578956069E-01 +6.53917321092E-01 -1.94022263119E-05 -4.07068789128E-04 -3.81219064025E-05 -4.38313535413E-04 +5.63248994181E-01 +7.25696463143E-01
2.50500000000E+09 +5.99483391820E-01 +6.45628755809E-01 -9.93406717289E-05 -4.79313126958E-04 -1.20394547837E-04 -4.97012509817E-04 +5.69302926366E-01 +7.20202494292E-01
2.51000000000E+09 +6.06964487008E-01 +6.37363698493E-01 -1.48534693069E-04 -4.93794663502E-04 -2.17164024449E-04 -4.88035000161E-04 +5.75247227022E-01 +7.14875316125E-01
2.51500000000E+09 +6.14744421095E-01 +6.29656946563E-01 -2.44739806499E-04 -4.70765813161E-04 -2.77575087561E-04 -4.86149829809E-04 +5.80742295831E-01 +7.09339088450E-01
2.52000000000E+09 +6.21828242467E-01 +6.22052203191E-01 -3.23383768798E-04 -4.33245241821E-04 -2.97430162991E-04 -4.43139257616E-04 +5.86248469448E-01 +7.03303679068E-01
2.52500000000E+09 +6.27721893282E-01 +6.15548437126E-01 -4.14728391792E-04 -4.17682255542E-04 -4.29882947085E-04 -4.49050800227E-04 +5.92123460580E-01 +6.96981230319E-01
2.53000000000E+09 +6.32718791354E-01 +6.09792710810E-01 -5.00406526760E-04 -3.60193875768E-04 -4.77305155765E-04 -3.70669013354E-04 +5.98354591414E-01 +6.89727998914E-01
2.53500000000E+09 +6.36917863115E-01 +6.04301136430E-01 -5.63011829894E-04 -3.03029544709E-04 -5.88362371221E-04 -3.26362787929E-04 +6.04315716944E-01 +6.82745218818E-01
2.54000000000E+09 +6.40383962137E-01 +5.98405096174E-01 -5.85170507850E-04 -3.11065149852E-04 -5.39998126489E-04 -2.78642797028E-04 +6.10004033437E-01 +6.75777508414E-01
2.54500000000E+09 +6.43902723364E-01 +5.92110096381E-01 -6.26042446476E-04 -1.96302291433E-04 -6.33993756094E-04 -2.16386081826E-04 +6.15427017674E-01 +6.69573926683E-01
2.55000000000E+09 +6.48405366413E-01 +5.84630524624E-01 -6.50986332652E-04 -1.18044489145E-04 -7.12234913234E-04 -1.86269731627E-04 +6.20555796163E-01 +6.63474684621E-01
2.55500000000E+09 +6.53729079097E-01 +5.75596914503E-01 -6.53594397813E-04 -5.06389836781E-05 -7.56671827041E-04 -9.48515263278E-05 +6.25672562814E-01 +6.57090567813E-01
2.56000000000E+09 +6.60484417188E-01 +5.65982186990E-01 -6.21518086342E-04 -6.08575350642E-05 -7.63701252853E-04 +1.46261523990E-05 +6.30715524209E-01 +6.50125480227E-01
2.56500000000E+09 +6.67770505541E-01 +5.55448793083E-01 -7.05367472396E-04 -4.31736201706E-05 -7.87787847813E-04 +9.09995407586E-05 +6.35991888760E-01 +6.42630062145E-01
2.57000000000E+09 +6.75421020473E-01 +5.45451215978E-01 -7.72831062935E-04 -8.89117905955E-06 -7.61864020488E-04 +1.66295760718E-04 +6.41006950159E-01 +6.34876415210E-01
2.57500000000E+09 +6.83128975171E-01 +5.36208182112E-01 -7.65440309020E-04 +1.20214743540E-04 -6.86560891748E-04 +2.12695282157E-04 +6.46302278161E-01 +6.27722741088E-01
2.58000000000E+09 +6.89706242149E-01 +5.27920381811E-01 -8.54450837350E-04 +2.07497651224E-04 -6.83149786386E-04 +2.22180337910E-04 +6.51315438201E-01 +6.20589986107E-01
2.58500000000E+09 +6.95140813733E-01 +5.20702972029E-01 -8.20148302621E-04 +2.55735641707E-04 -7.81122319764E-04 +1.85551866546E-04 +6.56414670665E-01 +6.13450708963E-01
2.59000000000E+09 +6.99026016411E-01 +5.14644480028E-01 -9.16815353924E-04 +4.38163933655E-04 -8.73190102547E-04 +3.79258826155E-04 +6.61604293437E-01 +6.06252742517E-01
2.59500000000E+09 +7.02390148224E-01 +5.08628668795E-01 -8.71061452846E-04 +6.26550382184E-04 -8.92138463865E-04 +5.63267853982E-04 +6.67058176477E-01 +5.98620242084E-01
2.60000000000E+09 +7.04757955631E-01 +5.02080111812E-01 -7.03977354655E-04 +6.54643558718E-04 -7.70547390450E-04 +6.67110916659E-04 +6.72777935288E-01 +5.90287295373E-01
2.60500000000E+09 +7.07434987250E-01 +4.93661219942E-01 -7.74555881824E-04 +7.03977660215E-04 -7.69336586726E-04 +7.01530286031E-04 +6.78545986403E-01 +5.81514904857E-01
2.61000000000E+09 +7.10376157842E-01 +4.83461821798E-01 -8.19957248431E-04 +9.74042885454E-04 -8.15571588483E-04 +9.52795537490E-04 +6.83786874278E-01 +5.72604289461E-01
2.61500000000E+09 +7.14316317211E-01 +4.71028901691E-01 -5.59897518409E-04 +1.10743241795E-03 -5.94671725658E-04 +1.16157397826E-03 +6.88901967186E-01 +5.63955447750E-01
2.62000000000E+09 +7.18777670094E-01 +4.56705771654E-01 -4.12819083937E-04 +1.03877418275E-03 -4.36391801876E-04 +1.10560561977E-03 +6.94102431011E-01 +5.55014764428E-01
2.62500000000E+09 +7.24080672144E-01 +4.41329998371E-01 -4.64002283430E-04 +1.07880786504E-03 -4.08137538512E-04 +1.16529480677E-03 +6.99214045256E-01 +5.46027565447E-01
2.63000000000E+09 +7.29389157238E-01 +4.25932268557E-01 -4.33777586306E-04 +1.26348089049E-03 -2.48274560020E-04 +1.28190193447E-03 +7.04067256036E-01 +5.36525571888E-01
2.63500000000E+09 +7.34277788962E-01 +4.11742478798E-01 -3.88056137740E-04 +1.42531028805E-03 -1.81831211349E-04 +1.30792475725E-03 +7.08667348819E-01 +5.27008721125E-01
2.64000000000E+09 +7.38755133421E-01 +3.99683838695E-01 -1.13504330853E-04 +1.73024176983E-03 -3.47431213885E-05 +1.46901702426E-03 +7.13260342855E-01 +5.17249868512E-01
2.64500000000E+09 +7.42838648254E-01 +3.89314419929E-01 +4.24888920286E-04 +1.74728428417E-03 +2.69243614435E-04 +1.55506730098E-03 +7.17781982530E-01 +5.07489182654E-01
2.65000000000E+09 +7.45701559381E-01 +3.80357038998E-01 +6.07390099942E-04 +1.37406027201E-03 +4.42386021243E-04 +1.34767028523E-03 +7.22025661631E-01 +4.97217180897E-01
2.65500000000E+09 +7.47832052254E-01 +3.72258587035E-01 +5.15297107941E-04 +1.24484064332E-03 +4.06203096029E-04 +1.37298407126E-03 +7.25841094471E-01 +4.86733479722E-01
2.66000000000E+09 +7.49497114924E-01 +3.63915512530E-01 +5.11463269023E-04 +1.41366305730E-03 +5.00513264842E-04 +1.53605198805E-03 +7.29814299585E-01 +4.75716555228E-01
2.66500000000E+09 +7.51028584095E-01 +3.54810016554E-01 +7.68071176820E-04 +1.59866100107E-03 +8.71502212089E-04 +1.61725516997E-03 +7.34001926015E-01 +4.64805446996E-01
2.67000000000E+09 +7.52367069181E-01 +3.43297047920E-01 +1.12852111350E-03 +1.56184202985E-03 +1.21597862843E-03 +1.44370033989E-03 +7.38448120393E-01 +4.53901096349E-01
2.67500000000E+09 +7.53705810760E-01 +3.30118537534E-01 +1.42578811094E-03 +1.39238439152E-03 +1.38724845943E-03 +1.23823376121E-03 +7.42587202294E-01 +4.42796843829E-01
2.68000000000E+09 +7.55358636870E-01 +3.14615668579E-01 +1.63263443029E-03 +1.07535200781E-03 +1.58753540059E-03 +1.08360942550E-03 +7.46398871388E-01 +4.31933384701E-01
2.68500000000E+09 +7.56927296988E-01 +2.97931867764E-01 +1.57378881774E-03 +9.44341150476E-04 +1.49050026996E-03 +9.98679657814E-04 +7.49821904583E-01 +4.20734001714E-01
2.69000000000E+09 +7.58680802588E-01 +2.81038333201E-01 +1.78980469918E-03 +9.96099625926E-04 +1.80722675260E-03 +9.85548357360E-04 +7.52624740421E-01 +4.08961615573E-01
2.69500000000E+09 +7.60416145647E-01 +2.64421933329E-01 +2.15747238526E-03 +7.72405088657E-04 +2.13404419350E-03 +7.30366974272E-04 +7.55715835667E-01 +3.96693641438E-01
2.70000000000E+09 +7.61830497583E-01 +2.48461207357E-01 +2.38924005839E-03 +3.26930647585E-04 +2.32026157984E-03 +3.60125650296E-04 +7.59122102583E-01 +3.83366137327E-01
2.70500000000E+09 +7.63028291465E-01 +2.34151756114E-01 +2.41330843205E-03 +2.12099095491E-05 +2.37208097178E-03 +8.94374756004E-05 +7.62063933147E-01 +3.70108766382E-01
2.71000000000E+09 +7.63964978843E-01 +2.20706233018E-01 +2.28594252138E-03 -4.15160163547E-04 +2.37669296479E-03 -3.31263895063E-04 +7.65182886969E-01 +3.56914526535E-01
2.71500000000E+09 +7.64554113381E-01 +2.07511895734E-01 +2.12782404840E-03 -6.67271915761E-04 +2.32715061366E-03 -6.69037177991E-04 +7.67923847651E-01 +3.44272396085E-01
2.72000000000E+09 +7.64869694356E-01 +1.94496285880E-01 +2.04860131550E-03 -7.41085468421E-04 +2.13326876042E-03 -9.48917401449E-04 +7.70044506615E-01 +3.31477254415E-01
2.72500000000E+09 +7.64780405501E-01 +1.80317091812E-01 +2.23297153236E-03 -9.82676801212E-04 +2.06091765940E-03 -1.17615153086E-03 +7.71704852972E-01 +3.17821416984E-01
2.73000000000E+09 +7.63699493774E-01 +1.64980001920E-01 +2.16147951281E-03 -1.43577582326E-03 +1.86667566758E-03 -1.47641534477E-03 +7.73108035878E-01 +3.03667506161E-01
2.73500000000E+09 +7.61976003849E-01 +1.48186639159E-01 +1.81259115299E-03 -1.76653729974E-03 +1.64359386355E-03 -1.57375619037E-03 +7.74580932240E-01 +2.88619193733E-01
2.74000000000E+09 +7.59294480964E-01 +1.30734794699E-01 +1.54076561904E-03 -1.87581024965E-03 +1.52145142585E-03 -1.56395616929E-03 +7.76161521335E-01 +2.73193041249E-01
2.74500000000E+09 +7.55760166676E-01 +1.12784171749E-01 +1.46190896243E-03 -2.08999075238E-03 +1.62634752394E-03 -1.79008290138E-03 +7.77669762159E-01 +2.57548113111E-01
2.75000000000E+09 +7.51311476348E-01 +9.46131286151E-02 +1.23589685839E-03 -2.23933106918E-03 +1.53086709631E-03 -2.17787678673E-03 +7.78422326845E-01 +2.41537885672E-01
2.75500000000E+09 +7.46345526602E-01 +7.70465249010E-02 +9.75419749158E-04 -2.41685776983E-03 +1.19776296542E-03 -2.52435205605E-03 +7.77805376814E-01 +2.25705909872E-01
2.76000000000E+09 +7.41297571320E-01 +5.94241063168E-02 +5.78238288925E-04 -2.57429632507E-03 +6.76077028216E-04 -2.74523554528E-03 +7.76748073195E-01 +2.10369817307E-01
2.76500000000E+09 +7.35611765549E-01 +4.18686712369E-02 +3.13760120085E-04 -2.47628835317E-03 +3.16894629900E-04 -2.60591819931E-03 +7.75623193386E-01 +1.93675023327E-01
2.77000000000E+09 +7.29582444312E-01 +2.34253467496E-02 +1.77058878944E-04 -2.72637416135E-03 +1.10269913998E-04 -2.82848099114E-03 +7.74093504723E-01 +1.76197546366E-01
2.77500000000E+09 +7.22598559968E-01 +4.46906535511E-03 -4.38778866224E-04 -2.79394408584E-03 -4.98056001979E-04 -2.87867990396E-03 +7.71788044049E-01 +1.58543389108E-01
2.78000000000E+09 +7.15647955205E-01 -1.51979763880E-02 -7.82426018040E-04 -2.47936162419E-03 -9.47073102758E-04 -2.46552547504E-03 +7.69452127407E-01 +1.41045659239E-01
2.78500000000E+09 +7.07971103764E-01 -3.60610698175E-02 -9.19734864500E-04 -2.10463100813E-03 -1.01732698134E-03 -1.98263169306E-03 +7.66721275173E-01 +1.23788444379E-01
2.79000000000E+09 +6.99632640837E-01 -5.71268402901E-02 -7.48911853427E-04 -2.11560958916E-03 -8.58067890457E-04 -1.98137562520E-03 +7.63351472783E-01 +1.06576293710E-01
2.79500000000E+09 +6.91345251946E-01 -7.81509829854E-02 -8.38406085168E-04 -2.39618841356E-03 -8.31997332632E-04 -2.22467237038E-03 +7.59037270430E-01 +8.90460545387E-02
2.80000000000E+09 +6.82449944877E-01 -9.87047433445E-02 -1.34006335520E-03 -2.50535274166E-03 -1.23056213525E-03 -2.41835862963E-03 +7.53907887010E-01 +7.13088905041E-02
2.80500000000E+09 +6.73006171706E-01 -1.18142349663E-01 -1.80649559189E-03 -2.43541702169E-03 -1.67609574275E-03 -2.45778636642E-03 +7.48277416225E-01 +5.31445574521E-02
2.81000000000E+09 +6.62074810571E-01 -1.36203216367E-01 -2.27637655777E-03 -2.00871210656E-03 -2.27990905775E-03 -2.05909772250E-03 +7.42818185223E-01 +3.48706195344E-02
2.81500000000E+09 +6.49632820682E-01 -1.52410522500E-01 -2.24749091519E-03 -1.69523031184E-03 -2.34022650538E-03 -1.76736963012E-03 +7.37208274088E-01 +1.50701117000E-02
2.82000000000E+09 +6.35906044537E-01 -1.67041055651E-01 -2.67052134765E-03 -1.59206146000E-03 -2.74867147871E-03 -1.45643648311E-03 +7.30160570873E-01 -5.02513038864E-03
2.82500000000E+09 +6.21097400334E-01 -1.80994331271E-01 -2.90389614983E-03 -1.10040108090E-03 -2.77864616381E-03 -9.47359169612E-04 +7.22116479035E-01 -2.50316842476E-02
2.83000000000E+09 +6.04051490179E-01 -1.96722143667E-01 -2.99125577440E-03 -6.27512753624E-04 -2.82783267691E-03 -6.15490421742E-04 +7.13302539547E-01 -4.52319976259E-02
2.83500000000E+09 +5.84515643082E-01 -2.12854091210E-01 -2.75487477596E-03 -1.66828797278E-04 -2.64053650265E-03 -2.39409873462E-04 +7.03158939866E-01 -6.56634162837E-02
2.84000000000E+09 +5.63000469921E-01 -2.30727016327E-01 -2.55089609354E-03 -1.57798660103E-04 -2.50478619428E-03 -2.71703346212E-04 +6.92269209844E-01 -8.66257752000E-02
2.84500000000E+09 +5.39068474166E-01 -2.49889000841E-01 -2.83325735488E-03 -2.62100153863E-04 -2.88106540229E-03 -3.59735755187E-04 +6.79340962093E-01 -1.07594549465E-01
2.85000000000E+09 +5.14213291843E-01 -2.69568182228E-01 -3.19638189429E-03 +1.49972413399E-04 -3.20789329313E-03 +1.58908979412E-04 +6.65608463740E-01 -1.27954610342E-01
2.85500000000E+09 +4.87499979346E-01 -2.89226383530E-01 -3.22695196504E-03 +7.23812705475E-04 -3.20386962829E-03 +7.44057250536E-04 +6.50524584706E-01 -1.47987129606E-01
2.86000000000E+09 +4.60667841888E-01 -3.05859951859E-01 -2.93446909512E-03 +1.40808391656E-03 -2.90689361683E-03 +1.35685217477E-03 +6.35294003898E-01 -1.68044936009E-01
2.86500000000E+09 +4.36148985420E-01 -3.20319094477E-01 -2.60475093001E-03 +1.29228152794E-03 -2.66609929848E-03 +1.22351442464E-03 +6.17833633839E-01 -1.88858337009E-01
2.87000000000E+09 +4.12211646206E-01 -3.33839102555E-01 -2.78739113538E-03 +1.86581413265E-03 -2.82045175162E-03 +1.89802062431E-03 +5.98581649111E-01 -2.08537035785E-01
2.87500000000E+09 +3.87960094012E-01 -3.45023831623E-01 -2.07008426036E-03 +1.85275011533E-03 -2.02787145728E-03 +1.83355520185E-03 +5.78313053580E-01 -2.27117831671E-01
2.88000000000E+09 +3.63039325957E-01 -3.54489499247E-01 -2.57630920312E-03 +1.73444262226E-03 -2.43067063806E-03 +1.79690839216E-03 +5.58436595511E-01 -2.44817159566E-01
2.88500000000E+09 +3.35262419641E-01 -3.61716626987E-01 -2.48892527511E-03 +2.60266592484E-03 -2.32120404066E-03 +2.52400166652E-03 +5.36992874685E-01 -2.64173892422E-01
2.89000000000E+09 +3.05472107032E-01 -3.66127881852E-01 -2.08829717912E-03 +3.05128764778E-03 -2.04645032802E-03 +2.85745479863E-03 +5.12770237486E-01 -2.82116606118E-01
2.89500000000E+09 +2.74378780863E-01 -3.69514840280E-01 -1.60997759734E-03 +3.16383306617E-03 -1.63858739425E-03 +3.00086021276E-03 +4.87213145866E-01 -2.99663024172E-01
2.90000000000E+09 +2.40722485831E-01 -3.71564828419E-01 -1.25865352990E-03 +3.51936694373E-03 -1.42402710901E-03 +3.46153333629E-03 +4.60348394513E-01 -3.16947523986E-01
2.90500000000E+09 +2.05222126275E-01 -3.72544600295E-01 -8.73325731649E-04 +3.69554702467E-03 -9.09982056956E-04 +3.69951548291E-03 +4.32047531607E-01 -3.33105459536E-01
2.91000000000E+09 +1.69235889978E-01 -3.72085833337E-01 -1.15016372995E-04 +4.00221045564E-03 +2.37860447439E-05 +3.89306714136E-03 +4.02620966297E-01 -3.49287662293E-01
2.91500000000E+09 +1.33004129079E-01 -3.70077175408E-01 +3.91154862494E-04 +3.75575142332E-03 +5.28991145283E-04 +3.51431876734E-03 +3.70223835635E-01 -3.63075408512E-01
2.92000000000E+09 +9.74303002455E-02 -3.65953159481E-01 +9.63623589548E-04 +3.58139479766E-03 +8.70359143990E-04 +3.29715286725E-03 +3.36226414552E-01 -3.74728881551E-01
2.92500000000E+09 +6.36334658287E-02 -3.58430315339E-01 +1.11773150094E-03 +2.98715300938E-03 +9.61125046734E-04 +2.93028072012E-03 +3.01026030735E-01 -3.82954308727E-01
2.93000000000E+09 +3.22267667547E-02 -3.49293985096E-01 +9.76582645153E-04 +2.99353189795E-03 +7.78013780110E-04 +2.98501067638E-03 +2.64891312179E-01 -3.90757966735E-01
2.93500000000E+09 +1.84199210922E-03 -3.38223458803E-01 +1.43888018101E-03 +3.31461352060E-03 +1.24405337090E-03 +3.41074418973E-03 +2.26218021584E-01 -3.97380136249E-01
2.94000000000E+09 -2.80294911256E-02 -3.24167025170E-01 +2.04812143421E-03 +2.85793824010E-03 +1.91491603979E-03 +2.84877845684E-03 +1.84664751160E-01 -4.00646107412E-01
2.94500000000E+09 -5.73952711757E-02 -3.07859919024E-01 +1.95115350379E-03 +3.04479059110E-03 +1.89468387148E-03 +2.99639165079E-03 +1.45172209024E-01 -3.99845295545E-01
2.95000000000E+09 -8.77321113581E-02 -2.88233764759E-01 +3.06381823221E-03 +2.72083753034E-03 +2.89065079702E-03 +2.82272457527E-03 +1.05075440678E-01 -3.98229968687E-01
2.95500000000E+09 -1.16304008060E-01 -2.64894679221E-01 +3.05065700906E-03 +2.12355834739E-03 +2.95235223453E-03 +2.31855604280E-03 +6.47299991611E-02 -3.93354302377E-01
2.96000000000E+09 -1.43861592334E-01 -2.41270115517E-01 +3.23352193001E-03 +1.29834210965E-03 +3.32046665402E-03 +1.50299031085E-03 +2.33303243233E-02 -3.85474530089E-01
2.96500000000E+09 -1.71064572136E-01 -2.14945909272E-01 +2.71033729295E-03 +1.22366510585E-03 +2.84902945318E-03 +1.23784234546E-03 -1.79717341298E-02 -3.73203003928E-01
2.97000000000E+09 -1.94774444757E-01 -1.87390500961E-01 +2.81949107627E-03 +1.43733618938E-03 +2.84694037483E-03 +1.39899824473E-03 -5.79136006918E-02 -3.58136619860E-01
2.97500000000E+09 -2.16706987546E-01 -1.60350595410E-01 +3.33759270204E-03 +1.54788785528E-03 +3.32473127590E-03 +1.58762454046E-03 -9.67637321033E-02 -3.41803790283E-01
2.98000000000E+09 -2.38202782166E-01 -1.31914421796E-01 +4.10050976543E-03 +1.06524261968E-03 +4.01217694238E-03 +1.25681423118E-03 -1.35600082865E-01 -3.22712731349E-01
2.98500000000E+09 -2.56426070861E-01 -1.01495694563E-01 +4.34251505436E-03 -8.42966648703E-05 +4.41983219412E-03 +9.66086334268E-05 -1.72939784719E-01 -3.00763257505E-01
2.99000000000E+09 -2.71835545905E-01 -7.02492518476E-02 +3.80168286821E-03 -7.11972390973E-04 +4.06243966587E-03 -6.59178984047E-04 -2.08849634382E-01 -2.74942451386E-01
2.99500000000E+09 -2.84834706289E-01 -3.92824933430E-02 +3.45781118673E-03 -6.11388185915E-04 +3.63043021125E-03 -8.26163488936E-04 -2.42448044796E-01 -2.46399682489E-01
3.00000000000E+09 -2.97588974812E-01 -7.61159487780E-03 +4.02764743370E-03 -9.66544192036E-04 +3.93663073521E-03 -1.20876841023E-03 -2.74517045053E-01 -2.15434905665E-01
3.00500000000E+09 -3.08198456595E-01 +2.52038539554E-02 +3.97366917769E-03 -1.64464464424E-03 +3.79896851175E-03 -1.71964141064E-03 -3.04443116850E-01 -1.82162201562E-01
3.01000000000E+09 -3.16525498506E-01 +5.73862401650E-02 +3.69665704441E-03 -2.52816884496E-03 +3.60333844614E-03 -2.44997920165E-03 -3.31389662387E-01 -1.46295276910E-01
3.01500000000E+09 -3.23363662345E-01 +8.95482832496E-02 +2.99199977891E-03 -2.92428864176E-03 +3.05578689054E-03 -2.75081990107E-03 -3.55673062347E-01 -1.10401373225E-01
3.02000000000E+09 -3.26671892409E-01 +1.20803281189E-01 +2.67499131489E-03 -3.09280437762E-03 +2.76514500984E-03 -3.08151233516E-03 -3.76681196381E-01 -7.24946836843E-02
3.02500000000E+09 -3.27321019120E-01 +1.50063471979E-01 +2.45869152748E-03 -3.21740586808E-03 +2.46528565016E-03 -3.28975306172E-03 -3.94545839501E-01 -3.44717452399E-02
3.03000000000E+09 -3.26040478528E-01 +1.77400810655E-01 +2.09937734919E-03 -3.82549337781E-03 +2.06264437427E-03 -3.80497561116E-03 -4.10194572633E-01 +5.35059279426E-03
3.03500000000E+09 -3.22741209257E-01 +2.05145594858E-01 +1.22299394301E-03 -3.95161794732E-03 +1.24742028230E-03 -3.93385312920E-03 -4.23063805714E-01 +4.65574845064E-02
3.04000000000E+09 -3.15978002300E-01 +2.33278796598E-01 +7.83862773759E-04 -4.01134548617E-03 +8.87672299444E-04 -4.07677896344E-03 -4.30396127478E-01 +8.80420544906E-02
3.04500000000E+09 -3.06684277173E-01 +2.60462578260E-01 +2.42680399832E-04 -3.54305128437E-03 +2.81910160865E-04 -3.66036984715E-03 -4.36151303826E-01 +1.27553961074E-01
3.05000000000E+09 -2.95799557174E-01 +2.89395072057E-01 +3.63942992932E-04 -3.61738493680E-03 +3.07308158895E-04 -3.75915322877E-03 -4.39669405015E-01 +1.66607002246E-01
3.05500000000E+09 -2.82145483855E-01 +3.17448358016E-01 +2.01749664514E-04 -3.92997188139E-03 -4.09033445433E-05 -3.93120187849E-03 -4.41144200526E-01 +2.05793021841E-01
3.06000000000E+09 -2.68445631158E-01 +3.44678808436E-01 -5.07895195334E-04 -4.34930068732E-03 -6.10180454356E-04 -4.21530244658E-03 -4.39469836334E-01 +2.44285826844E-01
3.06500000000E+09 -2.54294501003E-01 +3.71108867507E-01 -1.41929211427E-03 -4.38934036301E-03 -1.27742151160E-03 -4.17882550146E-03 -4.35543626771E-01 +2.81616426484E-01
3.07000000000E+09 -2.41569059501E-01 +3.95233427287E-01 -2.52541650337E-03 -3.75518922565E-03 -2.24753696842E-03 -3.85144561247E-03 -4.29560319723E-01 +3.18395954315E-01
