# Hz S RI R 50
! CMT, C1220, 16058040, 17.2.0/1
! Date: 15/08/2018 10:10:31
! Data: Format (Calibration Info)
! Freq                      S11: Re/Im (F2)                       S21: Re/Im (F2)                       S12: Re/Im (F2)                       S22: Re/Im (F2)            
2.50000000000E+09 +5.99772128953E-01 +6.34958709927E-01 -5.46647504200E-04 -2.07220290238E-04 -5.92883844176E-04 -2.32382810521E-04 +5.73361159387E-01 +7.16531860518E-01
2.50500000000E+09 +6.05916933165E-01 +6.27472805203E-01 -4.77042086058E-04 -2.62592912472E-04 -5.27462155998E-04 -2.59164553169E-04 +5.78970153358E-01 +7.11138128630E-01
2.51000000000E+09 +6.12362574070E-01 +6.19625496371E-01 -6.03075281568E-04 -2.49582709546E-04 -5.83279127278E-04 -2.12637407721E-04 +5.84711719448E-01 +7.05911138309E-01
2.51500000000E+09 +6.18677403671E-01 +6.11513075698E-01 -6.65576109169E-04 -2.27186617383E-04 -6.60404621618E-04 -2.03698713533E-04 +5.90069464036E-01 +7.00390994246E-01
2.52000000000E+09 +6.24349164723E-01 +6.03460869533E-01 -8.13451765881E-04 -9.82714666290E-05 -7.74984879567E-04 -9.55761056826E-05 +5.95241247734E-01 +6.94511245314E-01
2.52500000000E+09 +6.29355492905E-01 +5.95770488193E-01 -8.17334924601E-04 +1.18622681543E-04 -8.44526133663E-04 +6.03324323382E-05 +6.00845534287E-01 +6.88017858338E-01
2.53000000000E+09 +6.33819216397E-01 +5.88714690488E-01 -6.93410461208E-04 +2.52500624280E-04 -7.36329463904E-04 +2.42552279718E-04 +6.06793725653E-01 +6.81066404008E-01
2.53500000000E+09 +6.37925931595E-01 +5.82262508098E-01 -5.75808070584E-04 +2.87574357263E-04 -5.90103490394E-04 +2.91281748832E-04 +6.12910355673E-01 +6.74118835912E-01
2.54000000000E+09 +6.42195161835E-01 +5.75910667495E-01 -6.01584490065E-04 +2.54642346978E-04 -5.94606377332E-04 +2.53379071479E-04 +6.18886268493E-01 +6.67380615477E-01
2.54500000000E+09 +6.46473204033E-01 +5.69804305070E-01 -7.05790826941E-04 +4.31691726309E-04 -7.36717436062E-04 +3.64667633705E-04 +6.24593925803E-01 +6.60851492447E-01
2.55000000000E+09 +6.51135723498E-01 +5.63614569109E-01 -5.61031279109E-04 +5.02696341671E-04 -5.91943145587E-04 +4.97606917743E-04 +6.29950911288E-01 +6.54600875011E-01
2.55500000000E+09 +6.56279229454E-01 +5.56597487592E-01 -3.97698466819E-04 +5.59254583639E-04 -4.95323447482E-04 +6.35555374516E-04 +6.35222324487E-01 +6.48034898615E-01
2.56000000000E+09 +6.62081683364E-01 +5.49573216141E-01 -2.96168838308E-04 +5.07724178658E-04 -2.72455465873E-04 +6.51717140933E-04 +6.40340262939E-01 +6.40879129652E-01
2.56500000000E+09 +6.68264429776E-01 +5.41410032693E-01 -2.64632286262E-04 +4.09005642844E-04 -1.70642929904E-04 +4.85675468972E-04 +6.45939465438E-01 +6.33194725515E-01
2.57000000000E+09 +6.74396957865E-01 +5.32890768535E-01 -4.05409855372E-04 +3.35745605920E-04 -3.23616126331E-04 +3.76221561208E-04 +6.51241287020E-01 +6.25216103151E-01
2.57500000000E+09 +6.80368882858E-01 +5.23703419268E-01 -4.75453733141E-04 +5.83903091534E-04 -3.65162610496E-04 +5.59561069413E-04 +6.56698040991E-01 +6.17530108162E-01
2.58000000000E+09 +6.85349280695E-01 +5.14897589122E-01 -2.76536223660E-04 +7.29745801723E-04 -2.30319014310E-04 +6.13798581418E-04 +6.61766650807E-01 +6.09970020905E-01
2.58500000000E+09 +6.90035470763E-01 +5.06062909291E-01 -1.93974856235E-04 +5.67219759823E-04 -1.61092743239E-04 +4.89032325066E-04 +6.66519867534E-01 +6.02218687185E-01
2.59000000000E+09 +6.94283857146E-01 +4.97466027260E-01 -1.29267564093E-04 +5.78460918436E-04 -1.82848648512E-04 +5.32118407617E-04 +6.71161760385E-01 +5.94610192769E-01
2.59500000000E+09 +6.98469386058E-01 +4.89247085493E-01 -2.10125379831E-04 +5.04334897618E-04 -2.19784450315E-04 +5.44778900111E-04 +6.75797303802E-01 +5.86518004651E-01
2.60000000000E+09 +7.02355948630E-01 +4.80716525109E-01 -2.63614948662E-04 +5.98945155771E-04 -2.82404278099E-04 +6.29684254516E-04 +6.80704823238E-01 +5.78153879997E-01
2.60500000000E+09 +7.06587544589E-01 +4.71599729119E-01 -2.63294641740E-04 +8.21128095872E-04 -2.20243298178E-04 +8.16785016747E-04 +6.85759077763E-01 +5.69421304068E-01
2.61000000000E+09 +7.10749596834E-01 +4.61499502625E-01 -1.24774081818E-05 +9.59533202536E-04 -3.35143484333E-05 +9.21934126393E-04 +6.90601027444E-01 +5.60872815467E-01
2.61500000000E+09 +7.15126690353E-01 +4.50558107193E-01 +1.16747382475E-04 +9.40707659063E-04 +1.46604567951E-04 +9.47682024895E-04 +6.95502736115E-01 +5.52220290608E-01
2.62000000000E+09 +7.19237577967E-01 +4.38554687449E-01 +2.36636618195E-04 +8.40466011379E-04 +2.40883354122E-04 +9.00198762665E-04 +7.00025406529E-01 +5.43119017937E-01
2.62500000000E+09 +7.23167053177E-01 +4.25697293425E-01 +1.93980620778E-04 +8.06964167991E-04 +3.30500433920E-04 +8.92828856512E-04 +7.04754028790E-01 +5.34561381554E-01
2.63000000000E+09 +7.26666575608E-01 +4.12616638377E-01 +3.00809772814E-04 +8.70438558224E-04 +4.36355332230E-04 +8.49324041192E-04 +7.09711846442E-01 +5.25547318798E-01
2.63500000000E+09 +7.29706821559E-01 +3.99398930137E-01 +3.64157741710E-04 +9.30869766951E-04 +4.66940636988E-04 +7.58188671584E-04 +7.14491175915E-01 +5.16092457445E-01
2.64000000000E+09 +7.32265996728E-01 +3.86674654490E-01 +6.50247363388E-04 +9.89483963999E-04 +5.44949926268E-04 +8.45462009989E-04 +7.19151401351E-01 +5.06489022686E-01
2.64500000000E+09 +7.34943413243E-01 +3.74685883931E-01 +8.27583141778E-04 +7.62332640037E-04 +6.62858570069E-04 +7.68198189808E-04 +7.23538431691E-01 +4.96861437571E-01
2.65000000000E+09 +7.37149526811E-01 +3.63142049053E-01 +8.47872557135E-04 +6.17198212361E-04 +7.28070411656E-04 +7.22007068865E-04 +7.27780575321E-01 +4.87212315805E-01
2.65500000000E+09 +7.39509029005E-01 +3.51472313225E-01 +8.64875778875E-04 +5.86614979210E-04 +8.15092883198E-04 +6.12135637108E-04 +7.32128695351E-01 +4.77131223545E-01
2.66000000000E+09 +7.41492738315E-01 +3.39668110278E-01 +9.46681061647E-04 +5.15069715681E-04 +1.06464950848E-03 +5.48964853199E-04 +7.36597941994E-01 +4.65609527911E-01
2.66500000000E+09 +7.43515773974E-01 +3.28337859207E-01 +8.87416648872E-04 +4.05199603356E-04 +9.51884111714E-04 +3.48698736348E-04 +7.40630451619E-01 +4.54217600593E-01
2.67000000000E+09 +7.45456273222E-01 +3.15825556214E-01 +1.15423571133E-03 +4.20224093022E-04 +1.13354898950E-03 +3.13175843008E-04 +7.44881711225E-01 +4.43049045300E-01
2.67500000000E+09 +7.46420313934E-01 +3.02539739114E-01 +1.17876402983E-03 +9.65361737632E-05 +1.13722308864E-03 +5.17312057696E-05 +7.48683713342E-01 +4.31988444386E-01
2.68000000000E+09 +7.47028757737E-01 +2.89170608589E-01 +1.05067719439E-03 -5.12229653584E-05 +1.00240870350E-03 -1.95719749398E-05 +7.52303128858E-01 +4.21091365310E-01
2.68500000000E+09 +7.47287573618E-01 +2.75340515005E-01 +1.03252469489E-03 -7.66402952495E-05 +1.00159173414E-03 -1.61418683111E-05 +7.55429305913E-01 +4.09732266659E-01
2.69000000000E+09 +7.46820179398E-01 +2.61378711936E-01 +9.96838384009E-04 -8.43833113628E-05 +1.02042739470E-03 -5.16588765797E-05 +7.58188220271E-01 +3.97707368428E-01
2.69500000000E+09 +7.46199625923E-01 +2.48062440994E-01 +1.05828818422E-03 -5.74363443541E-05 +1.05829383654E-03 -1.22600954104E-04 +7.60989846532E-01 +3.84970685589E-01
2.70000000000E+09 +7.46046246162E-01 +2.35076556140E-01 +1.21953082671E-03 -1.39051558152E-04 +1.21297854225E-03 -1.27283357988E-04 +7.63712634948E-01 +3.71686665065E-01
2.70500000000E+09 +7.46000710936E-01 +2.22353903456E-01 +1.28580220329E-03 -4.57515123633E-04 +1.27233108315E-03 -3.65753777451E-04 +7.66618094746E-01 +3.58427768992E-01
2.71000000000E+09 +7.46484413113E-01 +2.09709172905E-01 +1.19168520157E-03 -6.03421918679E-04 +1.29729789744E-03 -5.37866553081E-04 +7.69480055576E-01 +3.45275268424E-01
2.71500000000E+09 +7.47736728050E-01 +1.96401270473E-01 +1.23639682925E-03 -8.08964584779E-04 +1.32588892615E-03 -8.53919797021E-04 +7.72073694301E-01 +3.32698836527E-01
2.72000000000E+09 +7.48495746446E-01 +1.82315282434E-01 +8.98556449895E-04 -9.68534681149E-04 +8.92097109377E-04 -1.12512243769E-03 +7.74134273708E-01 +3.19926759977E-01
2.72500000000E+09 +7.49358944150E-01 +1.67425407970E-01 +8.66255236733E-04 -9.53014512821E-04 +7.74555409298E-04 -9.95032828222E-04 +7.75341960565E-01 +3.06678380595E-01
2.73000000000E+09 +7.49061035482E-01 +1.51573001754E-01 +8.85543832923E-04 -9.81934139050E-04 +6.88668809501E-04 -9.39226036302E-04 +7.76826342361E-01 +2.92792255643E-01
2.73500000000E+09 +7.47372228673E-01 +1.34591170235E-01 +8.63630017770E-04 -1.17745864093E-03 +7.43116354617E-04 -1.06933158366E-03 +7.78207968316E-01 +2.77700781572E-01
2.74000000000E+09 +7.44350893791E-01 +1.18665946514E-01 +8.51637116302E-04 -1.42397545775E-03 +7.84337073263E-04 -1.12813866705E-03 +7.79398629858E-01 +2.62285512570E-01
2.74500000000E+09 +7.40936286433E-01 +1.02431719120E-01 +5.68965836400E-04 -1.60771476280E-03 +7.21116747178E-04 -1.41697385124E-03 +7.80250343685E-01 +2.47215732537E-01
2.75000000000E+09 +7.36700527593E-01 +8.64387353295E-02 +2.63078422032E-04 -1.60060408496E-03 +4.93611593738E-04 -1.59396355597E-03 +7.81252670228E-01 +2.32221016475E-01
2.75500000000E+09 +7.32111165490E-01 +7.06877272379E-02 +1.62177850292E-04 -1.58809886442E-03 +2.94222064899E-04 -1.67972549968E-03 +7.81413818719E-01 +2.16954498458E-01
2.76000000000E+09 +7.27844084128E-01 +5.51214767553E-02 +7.54526553276E-05 -1.62762042001E-03 +1.41455897257E-04 -1.70327414554E-03 +7.80858597254E-01 +2.01007695370E-01
2.76500000000E+09 +7.23460729974E-01 +3.88719841716E-02 -1.39664757061E-04 -1.87101360785E-03 -1.67687971954E-04 -1.93978305156E-03 +7.79323867348E-01 +1.83863383703E-01
2.77000000000E+09 +7.19188761642E-01 +2.18114677818E-02 -5.93519021091E-04 -1.81801854450E-03 -6.41204106179E-04 -1.85187572424E-03 +7.77614092977E-01 +1.66864890828E-01
2.77500000000E+09 +7.14882563007E-01 +3.84335406550E-03 -8.69983175643E-04 -1.63480692677E-03 -9.48951811242E-04 -1.71273734930E-03 +7.76118890750E-01 +1.48901134639E-01
2.78000000000E+09 +7.10268560405E-01 -1.53594207873E-02 -9.79230271015E-04 -1.42219742263E-03 -1.08202655979E-03 -1.44200305203E-03 +7.73918295778E-01 +1.30840768067E-01
2.78500000000E+09 +7.04069691224E-01 -3.54768804020E-02 -1.13727553722E-03 -1.25602213725E-03 -1.20910394128E-03 -1.17406122989E-03 +7.71461321579E-01 +1.13097225814E-01
2.79000000000E+09 +6.97155548630E-01 -5.59616086075E-02 -1.06612047728E-03 -1.20361054699E-03 -1.10689119902E-03 -1.15710716486E-03 +7.68006023613E-01 +9.55652418815E-02
2.79500000000E+09 +6.88726216723E-01 -7.64236163728E-02 -1.39768763861E-03 -1.20640407388E-03 -1.36012336532E-03 -1.15647144751E-03 +7.63627812892E-01 +7.78234502750E-02
2.80000000000E+09 +6.79097058972E-01 -9.62888052250E-02 -1.57623027211E-03 -9.04960161332E-04 -1.45052743136E-03 -9.49520256063E-04 +7.58738484169E-01 +5.96107146529E-02
2.80500000000E+09 +6.68211004217E-01 -1.15226243972E-01 -1.70650065652E-03 -7.27040843577E-04 -1.67945978123E-03 -7.81788603765E-04 +7.53081815645E-01 +4.04870006290E-02
2.81000000000E+09 +6.56933839201E-01 -1.32897432027E-01 -1.66716313890E-03 -4.01586457468E-04 -1.76177344132E-03 -4.91860972483E-04 +7.46498756702E-01 +2.12946514389E-02
2.81500000000E+09 +6.44625330741E-01 -1.50240437870E-01 -1.60091491642E-03 -2.18349024223E-04 -1.68912953382E-03 -2.18092549292E-04 +7.39756605130E-01 +2.00010677226E-03
2.82000000000E+09 +6.31301318946E-01 -1.66829125605E-01 -1.60137927398E-03 -3.69602414426E-04 -1.63622827928E-03 -3.61133261769E-04 +7.32031594881E-01 -1.77854583268E-02
2.82500000000E+09 +6.17602972534E-01 -1.83209408444E-01 -2.07067954370E-03 -1.11872294120E-04 -2.01035037077E-03 -2.81985640831E-05 +7.23335004048E-01 -3.75080449291E-02
2.83000000000E+09 +6.02395558572E-01 -2.00698951520E-01 -1.90028601645E-03 +5.16139715441E-04 -1.81864876148E-03 +5.29330614402E-04 +7.13770848270E-01 -5.70340631001E-02
2.83500000000E+09 +5.84970836039E-01 -2.19005134774E-01 -1.64254867344E-03 +7.36619484943E-04 -1.62378408861E-03 +6.55733442295E-04 +7.03888755264E-01 -7.74629897225E-02
2.84000000000E+09 +5.65447184626E-01 -2.36862856724E-01 -1.32314601929E-03 +8.97089881560E-04 -1.31937846368E-03 +9.32140628279E-04 +6.92053628257E-01 -9.83614607975E-02
2.84500000000E+09 +5.44195702525E-01 -2.55057621876E-01 -1.08188634468E-03 +7.61366506151E-04 -1.04568589689E-03 +7.14039592611E-04 +6.79428393868E-01 -1.18640523425E-01
2.85000000000E+09 +5.21366905977E-01 -2.72438506908E-01 -1.18756061753E-03 +6.56755277021E-04 -1.15145466025E-03 +6.89386562034E-04 +6.66082430642E-01 -1.39390399569E-01
2.85500000000E+09 +4.98070618617E-01 -2.89383222183E-01 -1.30903619544E-03 +1.00683435721E-03 -1.25539053407E-03 +1.03970449397E-03 +6.51188261773E-01 -1.60344419385E-01
2.86000000000E+09 +4.73994772446E-01 -3.06515181550E-01 -7.83780539920E-04 +1.08485544961E-03 -7.77343442902E-04 +1.02142057135E-03 +6.34425890876E-01 -1.80947546575E-01
2.86500000000E+09 +4.48682092074E-01 -3.22153914686E-01 -1.01213695351E-03 +9.60342271468E-04 -9.88756645899E-04 +9.16318973365E-04 +6.16356339770E-01 -2.00977882739E-01
2.87000000000E+09 +4.23928283654E-01 -3.36268240042E-01 -7.08768076091E-04 +1.36261434209E-03 -7.44921086456E-04 +1.39408185801E-03 +5.97493616855E-01 -2.19992262707E-01
2.87500000000E+09 +3.99259229020E-01 -3.49603239443E-01 -5.18353926477E-04 +1.15194741925E-03 -5.01946299920E-04 +1.12441288315E-03 +5.78417286111E-01 -2.40052291296E-01
2.88000000000E+09 +3.73798120593E-01 -3.62146109741E-01 -5.23656824182E-04 +1.17447862519E-03 -5.00778927929E-04 +1.12588314148E-03 +5.56760683821E-01 -2.59918970680E-01
2.88500000000E+09 +3.47923615764E-01 -3.73460472238E-01 -1.32423714221E-04 +1.32671790127E-03 -8.00980686264E-05 +1.32449232878E-03 +5.32974493966E-01 -2.78184546740E-01
2.89000000000E+09 +3.20180927552E-01 -3.83695413147E-01 -2.81852195762E-05 +6.19461124568E-04 -4.29747649925E-05 +6.21951172177E-04 +5.08208672670E-01 -2.95600281929E-01
2.89500000000E+09 +2.90526865915E-01 -3.91798260465E-01 -5.82040920619E-04 +9.66620361438E-04 -6.21587902811E-04 +9.32976392068E-04 +4.80945843989E-01 -3.12794463800E-01
2.90000000000E+09 +2.59265281852E-01 -3.97979387847E-01 -4.24010501548E-04 +1.18253838534E-03 -4.23989078984E-04 +1.18538338684E-03 +4.52727214329E-01 -3.28447701964E-01
2.90500000000E+09 +2.26048447718E-01 -4.01328572827E-01 -2.03802734792E-04 +1.28106537729E-03 -2.36610033433E-04 +1.33880962894E-03 +4.23265913074E-01 -3.44357705896E-01
2.91000000000E+09 +1.92162479362E-01 -4.02157284993E-01 +1.26739041328E-04 +9.82970573444E-04 +1.59528298486E-04 +1.00911722327E-03 +3.91733827829E-01 -3.58337460305E-01
2.91500000000E+09 +1.57749450334E-01 -4.01281943902E-01 -4.67220875689E-04 +7.44854461038E-04 -4.42017972296E-04 +7.60644236475E-04 +3.59403239083E-01 -3.69831451015E-01
2.92000000000E+09 +1.22548009788E-01 -3.98116316939E-01 -5.87133824732E-04 +1.53637170060E-03 -5.28276129920E-04 +1.42812276886E-03 +3.26826499247E-01 -3.79758946562E-01
2.92500000000E+09 +8.67521431632E-02 -3.93828997526E-01 +1.81248901093E-04 +1.72723264669E-03 +1.26486301506E-04 +1.62281499293E-03 +2.91116032459E-01 -3.88191625548E-01
2.93000000000E+09 +5.06866044059E-02 -3.86508746165E-01 +3.12827189229E-04 +1.21128013745E-03 +2.96261423624E-04 +1.20700915536E-03 +2.54173564910E-01 -3.94389392383E-01
2.93500000000E+09 +1.47153472902E-02 -3.77005134167E-01 +1.14139875272E-04 +1.18000390499E-03 +9.17729229161E-05 +1.28713423210E-03 +2.15282115370E-01 -3.98468958698E-01
2.94000000000E+09 -2.02681564716E-02 -3.65372462727E-01 -4.36785177399E-04 +1.46684677354E-03 -4.68767232671E-04 +1.45432547855E-03 +1.76338957464E-01 -3.99305157917E-01
2.94500000000E+09 -5.48581018630E-02 -3.51186981290E-01 +2.16213491223E-04 +2.65614633308E-03 +1.21336691762E-04 +2.59466047784E-03 +1.38985383853E-01 -3.99794068050E-01
2.95000000000E+09 -8.84126988980E-02 -3.34417718794E-01 +1.34364207049E-03 +1.97921387650E-03 +1.24664040430E-03 +2.03257275669E-03 +9.86865188420E-02 -3.99025238100E-01
2.95500000000E+09 -1.21235707811E-01 -3.14451227569E-01 +1.22447156484E-03 +1.59989646411E-03 +1.22362850558E-03 +1.67819523333E-03 +5.72448375895E-02 -3.92660675417E-01
2.96000000000E+09 -1.52325931700E-01 -2.91844642893E-01 +1.39280885656E-03 +1.72329062586E-03 +1.42385705594E-03 +1.78457152274E-03 +1.69056402788E-02 -3.82606270378E-01
2.96500000000E+09 -1.82476148508E-01 -2.66383718649E-01 +1.74767337495E-03 +1.35483120386E-03 +1.82910668190E-03 +1.31437728693E-03 -2.29812977412E-02 -3.69224785448E-01
2.97000000000E+09 -2.10730369764E-01 -2.36987473825E-01 +1.43745003493E-03 +1.33048059627E-03 +1.53325183636E-03 +1.27530275797E-03 -6.13155646498E-02 -3.54639991795E-01
2.97500000000E+09 -2.35141363765E-01 -2.05585907250E-01 +2.09796376070E-03 +1.53900413843E-03 +2.04669365944E-03 +1.53247752037E-03 -1.00939020904E-01 -3.38546854826E-01
2.98000000000E+09 -2.57668866030E-01 -1.74444760549E-01 +2.44353624511E-03 +1.12960459946E-03 +2.31736471742E-03 +1.14659486276E-03 -1.39512287855E-01 -3.18412149773E-01
2.98500000000E+09 -2.79453702976E-01 -1.41776753011E-01 +2.71822005177E-03 +7.90762463850E-04 +2.77769164858E-03 +8.98582617063E-04 -1.76483633358E-01 -2.94514996699E-01
2.99000000000E+09 -2.99183146787E-01 -1.07966388459E-01 +2.84108374907E-03 +2.30901452303E-04 +2.98243974688E-03 +2.68826836466E-04 -2.09688163964E-01 -2.68821979691E-01
2.99500000000E+09 -3.16554269747E-01 -7.33656478349E-02 +2.78949999950E-03 -1.87286475507E-04 +2.85324709780E-03 -2.89806917829E-04 -2.43270535747E-01 -2.41046982117E-01
3.00000000000E+09 -3.31659820830E-01 -3.79621719152E-02 +2.77439915179E-03 -1.77887986294E-04 +2.73799156210E-03 -3.32182748317E-04 -2.74758127227E-01 -2.09582510791E-01
3.00500000000E+09 -3.43138309688E-01 -3.31999609308E-03 +3.29475290497E-03 -8.37238483621E-04 +3.17044055130E-03 -8.99557971823E-04 -3.03607497938E-01 -1.75921974140E-01
3.01000000000E+09 -3.52224039614E-01 +3.01005480087E-02 +2.91753901327E-03 -1.86587990579E-03 +2.77881737118E-03 -1.78740556714E-03 -3.30205788705E-01 -1.40710228046E-01
3.01500000000E+09 -3.59452854866E-01 +6.34083658610E-02 +2.29758288223E-03 -2.20713928763E-03 +2.38510198146E-03 -2.10632598139E-03 -3.52403659251E-01 -1.04049364061E-01
3.02000000000E+09 -3.63605624545E-01 +9.68756842709E-02 +1.67723416097E-03 -2.32094419349E-03 +1.78029362902E-03 -2.35286902545E-03 -3.72279141859E-01 -6.83977140000E-02
3.02500000000E+09 -3.64008798248E-01 +1.30314989731E-01 +1.63099749603E-03 -2.20763554597E-03 +1.64988899025E-03 -2.26430950552E-03 -3.90892865737E-01 -3.00814670674E-02
3.03000000000E+09 -3.60980523728E-01 +1.62926650844E-01 +1.27302781331E-03 -2.65278285187E-03 +1.32622233839E-03 -2.63576137686E-03 -4.05752855654E-01 +1.10071494711E-02
3.03500000000E+09 -3.55206813014E-01 +1.93974001172E-01 +8.11356362794E-04 -2.99783857781E-03 +8.75469240795E-04 -3.01230616453E-03 -4.15916511426E-01 +5.13096410586E-02
3.04000000000E+09 -3.47941616218E-01 +2.24670303857E-01 -1.99271121800E-04 -2.88440522643E-03 -9.27470173985E-05 -3.01951284050E-03 -4.24268513580E-01 +9.11948454599E-02
3.04500000000E+09 -3.38843992291E-01 +2.55160042083E-01 -3.01459349248E-04 -2.09197410696E-03 -3.05913107947E-04 -2.18404165398E-03 -4.30154348554E-01 +1.30934597245E-01
3.05000000000E+09 -3.27698369277E-01 +2.85640786075E-01 -1.45493315527E-04 -2.03309629119E-03 -2.06187636794E-04 -2.06985397414E-03 -4.33966575466E-01 +1.70601094907E-01
3.05500000000E+09 -3.14240440724E-01 +3.15263218182E-01 -9.85240271122E-05 -2.17806219553E-03 -2.07927337315E-04 -2.14778728242E-03 -4.33671098652E-01 +2.10854405887E-01
3.06000000000E+09 -2.99612256402E-01 +3.42750669039E-01 -4.07898924025E-04 -2.56692481780E-03 -4.87158168852E-04 -2.43952161172E-03 -4.30324722789E-01 +2.48025035862E-01
3.06500000000E+09 -2.84983603255E-01 +3.68846358085E-01 -1.32988489582E-03 -2.30437449049E-03 -1.26832923055E-03 -2.16650581751E-03 -4.26254681892E-01 +2.83913360985E-01
3.07000000000E+09 -2.69759465776E-01 +3.93703891256E-01 -1.38465986715E-03 -1.57908794569E-03 -1.28286472259E-03 -1.57722086296E-03 -4.21270258377E-01 +3.18884587077E-01
