# Hz S RI R 50
! CMT, C1220, 16058040, 17.2.0/1
! Date: 15/08/2018 09:54:58
! Data: Format (Calibration Info)
! Freq                      S11: Re/Im (F2)                       S21: Re/Im (F2)                       S12: Re/Im (F2)                       S22: Re/Im (F2)            
2.50000000000E+09 +5.97546612087E-01 +6.30035601511E-01 -4.52755673258E-04 -7.82408175374E-04 -5.24750962234E-04 -8.26790159884E-04 +5.78051788199E-01 +7.13480695484E-01
2.50500000000E+09 +6.03647128500E-01 +6.22866901832E-01 -5.05977245452E-04 -7.38482262572E-04 -5.88663332077E-04 -7.52885928016E-04 +5.83780519251E-01 +7.08011252343E-01
2.51000000000E+09 +6.10071510360E-01 +6.15552417715E-01 -5.00711369501E-04 -6.78070253534E-04 -5.23249151473E-04 -6.33199608340E-04 +5.89370564753E-01 +7.02681817185E-01
2.51500000000E+09 +6.16576259589E-01 +6.07950977849E-01 -5.99834176114E-04 -6.94342619514E-04 -5.59738319751E-04 -7.10701116257E-04 +5.94596860417E-01 +6.97263409485E-01
2.52000000000E+09 +6.22773702851E-01 +6.00255948591E-01 -7.63490109234E-04 -7.34717630875E-04 -6.93084899938E-04 -7.05841771194E-04 +5.99561681147E-01 +6.91289624936E-01
2.52500000000E+09 +6.28370699023E-01 +5.92471607325E-01 -8.54145330398E-04 -6.03844204760E-04 -8.57404170454E-04 -6.55619598786E-04 +6.05365624677E-01 +6.84885404505E-01
2.53000000000E+09 +6.33546577537E-01 +5.85079750592E-01 -9.30058541615E-04 -3.53274695307E-04 -9.24282869563E-04 -4.10595321137E-04 +6.11499988629E-01 +6.77458461697E-01
2.53500000000E+09 +6.38192639427E-01 +5.78040513898E-01 -8.22293098092E-04 -3.18248097130E-04 -8.32683191473E-04 -3.22071258444E-04 +6.17407088004E-01 +6.70367650726E-01
2.54000000000E+09 +6.42761161997E-01 +5.71303587291E-01 -8.87557527015E-04 -3.53864657339E-04 -8.64522821507E-04 -3.88389616194E-04 +6.23306541397E-01 +6.63649786367E-01
2.54500000000E+09 +6.47549745264E-01 +5.64624652116E-01 -1.04861792264E-03 -3.25184170143E-04 -1.03692892646E-03 -4.00937721644E-04 +6.29172697349E-01 +6.57023116834E-01
2.55000000000E+09 +6.52139447486E-01 +5.57775996064E-01 -1.13477327884E-03 -8.58482881434E-05 -1.22354912648E-03 -1.88155349829E-04 +6.34283513718E-01 +6.50906364677E-01
2.55500000000E+09 +6.57179192688E-01 +5.50371227466E-01 -1.05596839347E-03 +1.25514321787E-04 -1.23211093939E-03 +9.60678385328E-05 +6.39277035744E-01 +6.44388689856E-01
2.56000000000E+09 +6.62690590052E-01 +5.43117456020E-01 -9.10393328450E-04 +1.55593791501E-04 -1.11589591045E-03 +2.56060190869E-04 +6.44343291678E-01 +6.37031904909E-01
2.56500000000E+09 +6.68624676974E-01 +5.35166549496E-01 -8.66215567124E-04 +1.40381807229E-04 -9.78795753877E-04 +2.37314659767E-04 +6.49467344645E-01 +6.29421934720E-01
2.57000000000E+09 +6.74800719566E-01 +5.26896084341E-01 -1.02199290643E-03 +7.52283754025E-05 -9.83165091025E-04 +2.42553815194E-04 +6.55017501911E-01 +6.21358942120E-01
2.57500000000E+09 +6.80901168024E-01 +5.18082860712E-01 -1.24061532821E-03 +2.64607427679E-04 -1.05219098199E-03 +4.35221556219E-04 +6.60373776822E-01 +6.13516352698E-01
2.58000000000E+09 +6.86594086287E-01 +5.09404278539E-01 -1.20147253150E-03 +6.50085189861E-04 -9.37778666394E-04 +6.31120263004E-04 +6.65388816516E-01 +6.05989359258E-01
2.58500000000E+09 +6.92099080548E-01 +5.00710712661E-01 -8.21201605324E-04 +7.12473558471E-04 -7.67195956763E-04 +6.13580761849E-04 +6.70188661038E-01 +5.98424001390E-01
2.59000000000E+09 +6.97097128609E-01 +4.91954597016E-01 -7.63504089286E-04 +6.31103515594E-04 -8.36830322422E-04 +5.27163707548E-04 +6.74824542440E-01 +5.91000183965E-01
2.59500000000E+09 +7.01783015172E-01 +4.83522031739E-01 -8.96615476670E-04 +7.15381130984E-04 -9.26001572225E-04 +6.35356584480E-04 +6.79199605674E-01 +5.82949056266E-01
2.60000000000E+09 +7.06260121423E-01 +4.74643970369E-01 -8.86319122334E-04 +7.75018945801E-04 -9.34139322984E-04 +7.74588434701E-04 +6.84138254038E-01 +5.74463588173E-01
2.60500000000E+09 +7.10563306517E-01 +4.65709783663E-01 -9.74414057913E-04 +1.01242305919E-03 -9.25035835295E-04 +1.02901143502E-03 +6.89245205077E-01 +5.65465467357E-01
2.61000000000E+09 +7.14776332953E-01 +4.56005502356E-01 -6.65688593240E-04 +1.32702850003E-03 -6.37138170416E-04 +1.31883420962E-03 +6.94122204052E-01 +5.56644342921E-01
2.61500000000E+09 +7.19028997992E-01 +4.45773383789E-01 -3.28461985292E-04 +1.23499205131E-03 -3.72238249439E-04 +1.28093278997E-03 +6.98923817706E-01 +5.48246059330E-01
2.62000000000E+09 +7.23234680905E-01 +4.34797281456E-01 -2.87657792877E-04 +1.20823316757E-03 -2.84504782520E-04 +1.22705124389E-03 +7.03943478875E-01 +5.39280233709E-01
2.62500000000E+09 +7.27545270909E-01 +4.22962887532E-01 -1.40777160413E-04 +1.18808864225E-03 -3.00867173898E-05 +1.25398785215E-03 +7.08483379567E-01 +5.30371668416E-01
2.63000000000E+09 +7.31555325216E-01 +4.10366577747E-01 -7.76412269986E-05 +1.09939457452E-03 +9.70464003427E-05 +1.11248957368E-03 +7.12821718402E-01 +5.21543534797E-01
2.63500000000E+09 +7.35064675837E-01 +3.97777065441E-01 -1.55072676067E-04 +1.07700460681E-03 -5.38196032049E-05 +9.57825998018E-04 +7.17529760363E-01 +5.12173805260E-01
2.64000000000E+09 +7.38371777905E-01 +3.85721475541E-01 -6.37660019072E-06 +1.23076789088E-03 +6.32251940352E-06 +1.04582581083E-03 +7.22198241985E-01 +5.02617702932E-01
2.64500000000E+09 +7.41970677450E-01 +3.73762327475E-01 +4.33875112464E-05 +1.23577460821E-03 -1.69099700510E-05 +1.08625947403E-03 +7.26959423425E-01 +4.92792032669E-01
2.65000000000E+09 +7.45216712335E-01 +3.62207312259E-01 +2.22663244063E-04 +1.31684188004E-03 +5.50427073832E-05 +1.24423707827E-03 +7.31497439277E-01 +4.82479349291E-01
2.65500000000E+09 +7.48457317159E-01 +3.50375788328E-01 +3.82855360531E-04 +1.17322299317E-03 +3.04913240396E-04 +1.23484709110E-03 +7.35217046664E-01 +4.72318819846E-01
2.66000000000E+09 +7.51503416456E-01 +3.38389248182E-01 +3.73881362026E-04 +1.23462960668E-03 +4.36321031092E-04 +1.29150782287E-03 +7.39388162033E-01 +4.61469081204E-01
2.66500000000E+09 +7.54225783554E-01 +3.26512579375E-01 +6.00686468725E-04 +1.14912149212E-03 +7.29078607620E-04 +1.12578934672E-03 +7.43827565010E-01 +4.50217490667E-01
2.67000000000E+09 +7.56571960188E-01 +3.14087283494E-01 +5.96124878018E-04 +1.09704605318E-03 +6.50325760939E-04 +9.88429617621E-04 +7.47933760021E-01 +4.38950269432E-01
2.67500000000E+09 +7.58618002012E-01 +3.00915653759E-01 +7.10075499801E-04 +1.12811789020E-03 +7.57844137153E-04 +1.00789795885E-03 +7.51888588658E-01 +4.27499516138E-01
2.68000000000E+09 +7.59723768594E-01 +2.87356669651E-01 +8.36789776413E-04 +1.06542347381E-03 +7.61565277820E-04 +9.64409335585E-04 +7.55404056829E-01 +4.16270449542E-01
2.68500000000E+09 +7.60552933397E-01 +2.73665164443E-01 +8.64376189713E-04 +1.04947486500E-03 +8.20606903438E-04 +1.03741653955E-03 +7.58281164681E-01 +4.05127160618E-01
2.69000000000E+09 +7.61272523530E-01 +2.60023044638E-01 +1.09014209604E-03 +1.05297991939E-03 +1.05732215083E-03 +9.41014166714E-04 +7.61193303424E-01 +3.93201287562E-01
2.69500000000E+09 +7.62060984185E-01 +2.46165009550E-01 +1.17317799613E-03 +9.23058329753E-04 +1.12596801500E-03 +8.98676741198E-04 +7.63787104695E-01 +3.80538683853E-01
2.70000000000E+09 +7.63002784333E-01 +2.32183194378E-01 +1.30197966295E-03 +8.56262427513E-04 +1.23231322633E-03 +8.71210386814E-04 +7.66509680847E-01 +3.67062194476E-01
2.70500000000E+09 +7.63701299072E-01 +2.17964234620E-01 +1.69084963602E-03 +6.24421170990E-04 +1.59257990729E-03 +6.79442110937E-04 +7.69008751193E-01 +3.53516030541E-01
2.71000000000E+09 +7.64387186718E-01 +2.04211843892E-01 +1.52235330815E-03 +2.10866343386E-04 +1.48031574245E-03 +3.60319584308E-04 +7.71853301042E-01 +3.40365320179E-01
2.71500000000E+09 +7.65569861575E-01 +1.90013483689E-01 +1.27039029422E-03 +1.40807437364E-04 +1.38918106432E-03 +2.26227185746E-04 +7.74386584255E-01 +3.27649563683E-01
2.72000000000E+09 +7.66443717860E-01 +1.75442914382E-01 +1.29332334122E-03 +2.33422470498E-04 +1.39827691661E-03 +2.25947483233E-04 +7.76307071645E-01 +3.14840252056E-01
2.72500000000E+09 +7.66938252560E-01 +1.60456392529E-01 +1.46277329856E-03 +2.04523673131E-04 +1.49665012439E-03 +6.81001648796E-05 +7.77221793292E-01 +3.01627041596E-01
2.73000000000E+09 +7.66633374466E-01 +1.45009530823E-01 +1.49293367230E-03 +1.53570620438E-04 +1.42150154496E-03 +4.86994384206E-05 +7.78594763592E-01 +2.88052177772E-01
2.73500000000E+09 +7.65581349637E-01 +1.28750605766E-01 +1.55997540511E-03 -8.19720924719E-05 +1.38673338493E-03 -1.10199283517E-04 +7.79855869514E-01 +2.73068633347E-01
2.74000000000E+09 +7.63471338547E-01 +1.12572779717E-01 +1.56518211091E-03 -1.76025380951E-04 +1.41476572233E-03 +7.44402198162E-06 +7.81183119190E-01 +2.57381432605E-01
2.74500000000E+09 +7.60318387894E-01 +9.61148049454E-02 +1.60155283064E-03 -1.39952355787E-04 +1.63776885140E-03 +5.89787135174E-05 +7.81731039888E-01 +2.42078394331E-01
2.75000000000E+09 +7.56684876669E-01 +7.95007986917E-02 +1.89658088858E-03 -3.43777670190E-04 +2.02511862769E-03 -1.47597169009E-04 +7.82410322184E-01 +2.26906069081E-01
2.75500000000E+09 +7.52047638601E-01 +6.26714757970E-02 +1.86419013076E-03 -7.64044424129E-04 +2.08720148221E-03 -7.81387224456E-04 +7.81913672270E-01 +2.12019240383E-01
2.76000000000E+09 +7.47441696019E-01 +4.61226543129E-02 +1.71769966419E-03 -8.94768184414E-04 +1.95264801022E-03 -9.37442587708E-04 +7.81552075566E-01 +1.97051198026E-01
2.76500000000E+09 +7.42866265041E-01 +2.92690433284E-02 +1.76168759227E-03 -1.10969481429E-03 +1.80976839019E-03 -1.25052268069E-03 +7.80702958006E-01 +1.80420854162E-01
2.77000000000E+09 +7.38789165282E-01 +1.15693725359E-02 +1.70007331287E-03 -1.32654082775E-03 +1.78250558876E-03 -1.49707111264E-03 +7.79137192005E-01 +1.62630472702E-01
2.77500000000E+09 +7.34281868976E-01 -7.10561831328E-03 +1.49443595349E-03 -1.64008650094E-03 +1.41045750431E-03 -1.85065676087E-03 +7.76587608214E-01 +1.44721828034E-01
2.78000000000E+09 +7.29458645058E-01 -2.65760615351E-02 +1.34884960963E-03 -1.66588715778E-03 +1.20068414031E-03 -1.79397640224E-03 +7.74912940029E-01 +1.27153029061E-01
2.78500000000E+09 +7.23348325373E-01 -4.66405811687E-02 +1.10060844136E-03 -1.79986553123E-03 +9.03967310801E-04 -1.90549120248E-03 +7.72650637361E-01 +1.09328344382E-01
2.79000000000E+09 +7.16501184978E-01 -6.66670811628E-02 +1.11049371494E-03 -1.84847490752E-03 +9.14091930397E-04 -1.81927876411E-03 +7.69711641090E-01 +9.16821937433E-02
2.79500000000E+09 +7.09002713563E-01 -8.62049706292E-02 +1.02012861401E-03 -2.22515572207E-03 +8.40820284853E-04 -2.15785061071E-03 +7.65254724977E-01 +7.37184756804E-02
2.80000000000E+09 +7.00575692412E-01 -1.05851434999E-01 +6.33617851158E-04 -2.44616631928E-03 +6.30399234394E-04 -2.29010949163E-03 +7.59665455307E-01 +5.56955950245E-02
2.80500000000E+09 +6.91017988309E-01 -1.25032988125E-01 +1.77487957360E-04 -2.50766273248E-03 +2.49794065637E-04 -2.48424941438E-03 +7.54106583364E-01 +3.76759081376E-02
2.81000000000E+09 +6.80123340469E-01 -1.43649725835E-01 +9.95277323125E-05 -2.34928881837E-03 +7.40205352113E-05 -2.34711965625E-03 +7.48268939054E-01 +1.79660352766E-02
2.81500000000E+09 +6.68175233140E-01 -1.61211896116E-01 -2.55433392647E-04 -2.37615556715E-03 -3.45774193947E-04 -2.45236731305E-03 +7.41120620720E-01 -2.36247833601E-03
2.82000000000E+09 +6.55150234719E-01 -1.78793969512E-01 -2.41609016274E-04 -2.37096516744E-03 -4.11589296164E-04 -2.31497164565E-03 +7.33247138659E-01 -2.22785952440E-02
2.82500000000E+09 +6.41064794158E-01 -1.95953932877E-01 -6.60870538820E-04 -2.61994703856E-03 -6.96838640812E-04 -2.40424894359E-03 +7.24520746880E-01 -4.16265033081E-02
2.83000000000E+09 +6.25419312817E-01 -2.13972515703E-01 -1.08799739658E-03 -2.37808564120E-03 -1.07425149002E-03 -2.19729192251E-03 +7.15044856228E-01 -6.11891483590E-02
2.83500000000E+09 +6.08002445340E-01 -2.32118816412E-01 -1.10166953231E-03 -2.00126858173E-03 -1.02731054779E-03 -1.86886472352E-03 +7.05239247517E-01 -8.11303005328E-02
2.84000000000E+09 +5.88937143354E-01 -2.50227980064E-01 -9.82673985457E-04 -2.32832641814E-03 -8.97301359079E-04 -2.23261600174E-03 +6.93919321532E-01 -1.02314799654E-01
2.84500000000E+09 +5.68042251694E-01 -2.68491317806E-01 -1.69611176791E-03 -2.33130634862E-03 -1.61757240481E-03 -2.31426553624E-03 +6.80862554381E-01 -1.23368715167E-01
2.85000000000E+09 +5.45769066519E-01 -2.86654603204E-01 -1.80113522584E-03 -2.16616309089E-03 -1.76592476848E-03 -2.14155064244E-03 +6.66696452343E-01 -1.44003053298E-01
2.85500000000E+09 +5.22062049813E-01 -3.04132531088E-01 -2.48423900512E-03 -1.83887841919E-03 -2.40901935853E-03 -1.87579462434E-03 +6.52115925485E-01 -1.64854167585E-01
2.86000000000E+09 +4.97595015363E-01 -3.21146404803E-01 -2.45503588610E-03 -1.30727286574E-03 -2.47779727094E-03 -1.35378229702E-03 +6.35723633091E-01 -1.86407464727E-01
2.86500000000E+09 +4.72405301378E-01 -3.37073074902E-01 -2.54516669040E-03 -1.04250303755E-03 -2.56878698144E-03 -1.10811497661E-03 +6.17309466554E-01 -2.07018380523E-01
2.87000000000E+09 +4.46486538451E-01 -3.52017311054E-01 -2.47004372782E-03 -6.84662134798E-04 -2.52876910918E-03 -6.90947087289E-04 +5.97707057475E-01 -2.26713556478E-01
2.87500000000E+09 +4.20365898954E-01 -3.65437276851E-01 -2.20970123767E-03 -5.72552044554E-04 -2.22265771837E-03 -5.59928822096E-04 +5.77271288518E-01 -2.45953615982E-01
2.88000000000E+09 +3.93629803777E-01 -3.77984902768E-01 -2.28761106816E-03 -8.95576621791E-04 -2.29937490762E-03 -7.95789406009E-04 +5.55296287043E-01 -2.64823597675E-01
2.88500000000E+09 +3.65877147444E-01 -3.89070603902E-01 -2.85255895809E-03 -6.00475979596E-04 -2.78507966647E-03 -5.69306691579E-04 +5.32273412409E-01 -2.83485577670E-01
2.89000000000E+09 +3.36859001180E-01 -3.98210717390E-01 -2.86813312066E-03 -2.72606408792E-04 -2.69956822184E-03 -3.24700566790E-04 +5.06163029773E-01 -3.01594952350E-01
2.89500000000E+09 +3.07069973546E-01 -4.05813698926E-01 -3.01790067620E-03 +1.11880191041E-04 -2.99036119390E-03 +2.07387651210E-05 +4.77917916849E-01 -3.18264778919E-01
2.90000000000E+09 +2.75282896778E-01 -4.11796405386E-01 -2.90139191758E-03 +4.41363194816E-04 -2.97632909877E-03 +4.31312486685E-04 +4.49148373168E-01 -3.33072258274E-01
2.90500000000E+09 +2.41619499099E-01 -4.15082301013E-01 -2.54473304844E-03 +5.14767830031E-04 -2.60420564277E-03 +5.40746934295E-04 +4.20425310025E-01 -3.47931325904E-01
2.91000000000E+09 +2.06858328644E-01 -4.15570324302E-01 -3.01169235991E-03 +3.33802841565E-04 -2.98234662459E-03 +4.74616196744E-04 +3.88835415532E-01 -3.62422032035E-01
2.91500000000E+09 +1.71944365524E-01 -4.13250962554E-01 -3.09376821864E-03 +9.15955161633E-04 -2.90743572054E-03 +1.02650930516E-03 +3.55816634588E-01 -3.74045575293E-01
2.92000000000E+09 +1.36596644177E-01 -4.08606611517E-01 -2.97003783810E-03 +9.76211546201E-04 -2.79284271341E-03 +9.34365494127E-04 +3.21477266265E-01 -3.82805199998E-01
2.92500000000E+09 +1.02813244000E-01 -4.02119151661E-01 -3.30802991893E-03 +1.36043175340E-03 -3.12984940493E-03 +1.15760795478E-03 +2.86463033844E-01 -3.89754038998E-01
2.93000000000E+09 +6.82379956652E-02 -3.95375724772E-01 -3.54447432758E-03 +1.92261022941E-03 -3.55757689078E-03 +1.77929105201E-03 +2.50301870417E-01 -3.95251215909E-01
2.93500000000E+09 +3.27782920352E-02 -3.86239153940E-01 -3.18159159711E-03 +2.76177546176E-03 -3.26194363891E-03 +2.72712025447E-03 +2.11846701663E-01 -3.99962218561E-01
2.94000000000E+09 -2.63224182068E-03 -3.73371445997E-01 -2.67132434806E-03 +3.04908997598E-03 -2.73168577363E-03 +3.02070079166E-03 +1.72123548662E-01 -4.01040772127E-01
2.94500000000E+09 -3.55397292009E-02 -3.57751113404E-01 -2.41655077997E-03 +3.05012668615E-03 -2.44888950968E-03 +2.92956836519E-03 +1.33232014307E-01 -3.99930925448E-01
2.95000000000E+09 -6.72966287064E-02 -3.40079111376E-01 -2.63849369348E-03 +3.56037664050E-03 -2.65880496905E-03 +3.41039225711E-03 +9.49846536008E-02 -3.96370350064E-01
2.95500000000E+09 -9.70200937059E-02 -3.20604777969E-01 -2.08929789413E-03 +4.06328565481E-03 -2.27202187779E-03 +4.02511135949E-03 +5.62362983990E-02 -3.91504720204E-01
2.96000000000E+09 -1.26846905019E-01 -2.99446662399E-01 -2.00624435660E-03 +4.58475687829E-03 -2.18835854236E-03 +4.74943816184E-03 +1.55175970563E-02 -3.82906922793E-01
2.96500000000E+09 -1.55534737566E-01 -2.74290812702E-01 -1.14714041546E-03 +5.26668382835E-03 -1.12216304730E-03 +5.41568072442E-03 -2.56275296855E-02 -3.70451505255E-01
2.97000000000E+09 -1.82039426918E-01 -2.46252629125E-01 -5.69506389788E-04 +5.19147919082E-03 -4.42391327290E-04 +5.21796256714E-03 -6.58604646358E-02 -3.54691493483E-01
2.97500000000E+09 -2.05743047941E-01 -2.16300710498E-01 -1.16039656120E-04 +5.88145139694E-03 -9.93043365164E-05 +5.64814883350E-03 -1.04899486895E-01 -3.36583152575E-01
2.98000000000E+09 -2.28139215093E-01 -1.85038294785E-01 +1.31663272953E-03 +5.79754049194E-03 +1.10500436759E-03 +5.69969008251E-03 -1.42113669795E-01 -3.16015240193E-01
2.98500000000E+09 -2.48421910852E-01 -1.52700284749E-01 +1.44606026904E-03 +5.40247507048E-03 +1.13810378947E-03 +5.58095858997E-03 -1.78826538509E-01 -2.94207499886E-01
2.99000000000E+09 -2.67042947792E-01 -1.19786721503E-01 +2.19921429987E-03 +6.01395175171E-03 +2.12414140715E-03 +6.30707389528E-03 -2.14551454035E-01 -2.66870613722E-01
2.99500000000E+09 -2.83951422213E-01 -8.63323305318E-02 +3.73211264278E-03 +5.88127169316E-03 +4.00092957711E-03 +5.99890808411E-03 -2.46271882958E-01 -2.36874781841E-01
3.00000000000E+09 -2.99407895922E-01 -5.19748347022E-02 +4.19341624384E-03 +5.02546394563E-03 +4.46688275611E-03 +4.84413158716E-03 -2.76740229416E-01 -2.05991531261E-01
3.00500000000E+09 -3.11140026983E-01 -1.74998429211E-02 +5.26630535202E-03 +5.27979442004E-03 +5.17800060690E-03 +4.91028694751E-03 -3.06284131157E-01 -1.71821344129E-01
3.01000000000E+09 -3.19958095214E-01 +1.59885527566E-02 +6.71656407772E-03 +3.82724964577E-03 +6.37353101755E-03 +3.77017870474E-03 -3.31644622253E-01 -1.35960848737E-01
3.01500000000E+09 -3.26768853992E-01 +4.82067896296E-02 +7.03063163257E-03 +2.37316418317E-03 +6.84860417876E-03 +2.69889695681E-03 -3.54805888719E-01 -9.88110167881E-02
3.02000000000E+09 -3.30876886909E-01 +8.05995357474E-02 +7.12081266663E-03 +1.25800983605E-03 +7.13584532733E-03 +1.42904132259E-03 -3.72884600929E-01 -6.08915215608E-02
3.02500000000E+09 -3.31837080158E-01 +1.12724113064E-01 +6.76517776721E-03 +2.35201388684E-04 +6.91474979290E-03 +2.83695348409E-04 -3.88063333325E-01 -2.37343418146E-02
3.03000000000E+09 -3.29537050616E-01 +1.44091031358E-01 +6.56060184223E-03 -2.63437333547E-05 +6.64370767908E-03 -2.98415196368E-05 -4.02858681731E-01 +1.41270456594E-02
3.03500000000E+09 -3.25015176655E-01 +1.74367818385E-01 +7.45350430148E-03 -7.67549990883E-04 +7.45484423499E-03 -6.23859112217E-04 -4.14990722918E-01 +5.47382676669E-02
3.04000000000E+09 -3.17862205284E-01 +2.05273524143E-01 +7.38354944632E-03 -2.71724895318E-03 +7.57097606272E-03 -2.56301043425E-03 -4.23316237811E-01 +9.58120973500E-02
3.04500000000E+09 -3.08714032554E-01 +2.34330430645E-01 +6.36252097065E-03 -3.62547869506E-03 +6.77210295959E-03 -3.77468214850E-03 -4.27960403832E-01 +1.36864877492E-01
3.05000000000E+09 -2.98326674376E-01 +2.62995997450E-01 +5.61679194947E-03 -4.70329726314E-03 +5.76824250091E-03 -5.15627691084E-03 -4.29832549872E-01 +1.74920352942E-01
3.05500000000E+09 -2.86933722384E-01 +2.91047565112E-01 +4.51107720555E-03 -4.74342991988E-03 +4.28159730779E-03 -5.14509006392E-03 -4.31486156055E-01 +2.12977461456E-01
3.06000000000E+09 -2.74232084796E-01 +3.18840401396E-01 +4.23586888438E-03 -5.48389660924E-03 +3.79343703081E-03 -5.46934780201E-03 -4.29451013310E-01 +2.52278296603E-01
3.06500000000E+09 -2.60483287624E-01 +3.44513173456E-01 +3.13633343419E-03 -6.14225016379E-03 +2.98474855572E-03 -5.83758539651E-03 -4.23642582871E-01 +2.89647089764E-01
3.07000000000E+09 -2.46620432651E-01 +3.69166035025E-01 +1.73907677937E-03 -6.40087667809E-03 +2.03703464638E-03 -6.20146602124E-03 -4.16342658788E-01 +3.24493876156E-01
