# Hz S RI R 50
! CMT, C1220, 16058040, 17.2.0/1
! Date: 15/08/2018 10:50:00
! Data: Format (Calibration Info)
! Freq                      S11: Re/Im (F2)                       S21: Re/Im (F2)                       S12: Re/Im (F2)                       S22: Re/Im (F2)            
2.50000000000E+09 +5.80367661175E-01 +6.49887686339E-01 -1.09278166573E-03 +5.74381999078E-04 -1.22251520632E-03 +6.00778805892E-04 +5.62506982938E-01 +7.25897765807E-01
2.50500000000E+09 +5.87996314276E-01 +6.40771819561E-01 -1.05838857040E-03 +7.06500923192E-04 -1.08128395500E-03 +7.69244042543E-04 +5.68297997912E-01 +7.20439338471E-01
2.51000000000E+09 +5.96281509083E-01 +6.31245857873E-01 -1.01801885506E-03 +7.62797481052E-04 -9.70938934202E-04 +8.14132671504E-04 +5.73965121205E-01 +7.15049390374E-01
2.51500000000E+09 +6.04732274284E-01 +6.22358619008E-01 -9.68205294537E-04 +9.67467310150E-04 -9.01000076894E-04 +8.86417003504E-04 +5.79335964449E-01 +7.09313511611E-01
2.52000000000E+09 +6.12309005315E-01 +6.14073945404E-01 -7.86574970892E-04 +1.01025926705E-03 -8.05422037073E-04 +9.75738890304E-04 +5.84266300730E-01 +7.03130143324E-01
2.52500000000E+09 +6.18466370544E-01 +6.06843194627E-01 -6.79143031576E-04 +1.03215215012E-03 -6.82939246285E-04 +1.02687092155E-03 +5.89767158010E-01 +6.96833397403E-01
2.53000000000E+09 +6.23332008193E-01 +6.00706857840E-01 -6.50837938697E-04 +1.02852061240E-03 -6.73598554956E-04 +1.04700977355E-03 +5.95608094662E-01 +6.90048299406E-01
2.53500000000E+09 +6.27100908191E-01 +5.95241088564E-01 -6.87878286227E-04 +1.12652444719E-03 -6.75911078068E-04 +1.16128429767E-03 +6.01594795958E-01 +6.83489562357E-01
2.54000000000E+09 +6.30127948015E-01 +5.89531350901E-01 -4.83052691030E-04 +1.32087988760E-03 -5.30910696443E-04 +1.30550499680E-03 +6.07568267284E-01 +6.77278600497E-01
2.54500000000E+09 +6.33198201072E-01 +5.83614424863E-01 -3.28260413383E-04 +1.41006871931E-03 -4.44906946118E-04 +1.41088264402E-03 +6.13361013622E-01 +6.71112862713E-01
2.55000000000E+09 +6.36984652914E-01 +5.76499620385E-01 -2.22544144471E-05 +1.48528897166E-03 -1.78870282334E-04 +1.55561906543E-03 +6.18534218043E-01 +6.65174159105E-01
2.55500000000E+09 +6.41919213545E-01 +5.68067959887E-01 +1.44445802584E-04 +1.26389811994E-03 +1.15193296291E-04 +1.45170986993E-03 +6.23726904965E-01 +6.58934078547E-01
2.56000000000E+09 +6.48546388286E-01 +5.59057689698E-01 +1.49276784212E-04 +1.18571989414E-03 +2.69337920413E-04 +1.41101777217E-03 +6.28739623543E-01 +6.51911080949E-01
2.56500000000E+09 +6.56391778307E-01 +5.48941137340E-01 +1.51819444859E-04 +1.24254542068E-03 +4.24763848954E-04 +1.34856485699E-03 +6.34141250695E-01 +6.44656959815E-01
2.57000000000E+09 +6.64785654646E-01 +5.38464255907E-01 +3.16822088512E-04 +1.27535714592E-03 +5.85561144623E-04 +1.14482262648E-03 +6.39833291718E-01 +6.37166369070E-01
2.57500000000E+09 +6.72888939336E-01 +5.28352773443E-01 +4.92819168337E-04 +1.28200251181E-03 +5.68875975747E-04 +1.00826668846E-03 +6.45641367129E-01 +6.29744792814E-01
2.58000000000E+09 +6.79646891947E-01 +5.19325409239E-01 +6.69447175224E-04 +1.17327769876E-03 +6.17235769463E-04 +9.33605422410E-04 +6.51245131667E-01 +6.22232285493E-01
2.58500000000E+09 +6.85281980830E-01 +5.10980030046E-01 +7.59483858484E-04 +9.96844586349E-04 +6.03466185260E-04 +9.35072638269E-04 +6.56584624317E-01 +6.14496793413E-01
2.59000000000E+09 +6.89328181595E-01 +5.03578947232E-01 +7.30390894546E-04 +9.16664529923E-04 +6.01312264845E-04 +8.86892611259E-04 +6.61410914542E-01 +6.06839633754E-01
2.59500000000E+09 +6.92241456279E-01 +4.96138623685E-01 +7.74448134487E-04 +9.38502844928E-04 +7.31112472968E-04 +9.44280993018E-04 +6.66342227256E-01 +5.98753764123E-01
2.60000000000E+09 +6.94074949834E-01 +4.88184987512E-01 +8.73550011645E-04 +8.35956501661E-04 +9.10613046229E-04 +8.25436726991E-04 +6.71632685152E-01 +5.90623864790E-01
2.60500000000E+09 +6.96181338381E-01 +4.78712256847E-01 +9.04771755019E-04 +6.63662325589E-04 +8.86490517088E-04 +6.37042151470E-04 +6.77425573571E-01 +5.81903038057E-01
2.61000000000E+09 +6.98561319883E-01 +4.67031228998E-01 +8.35890417858E-04 +5.78903556582E-04 +8.62744104835E-04 +5.71505279842E-04 +6.82777139954E-01 +5.72820354072E-01
2.61500000000E+09 +7.02320619926E-01 +4.53383286741E-01 +8.51846846041E-04 +5.67361119315E-04 +8.52657149179E-04 +6.28332054388E-04 +6.87702652228E-01 +5.64090232545E-01
2.62000000000E+09 +7.06752956484E-01 +4.37589485909E-01 +8.41043972445E-04 +5.60963543746E-04 +9.24139764088E-04 +5.29741553362E-04 +6.92459488698E-01 +5.55188174519E-01
2.62500000000E+09 +7.12119958146E-01 +4.20835856730E-01 +8.93610348190E-04 +5.78470365736E-04 +9.81243610838E-04 +5.25601252543E-04 +6.97483643987E-01 +5.46462645498E-01
2.63000000000E+09 +7.17655116511E-01 +4.03892313193E-01 +1.00087567099E-03 +5.91545201650E-04 +1.03795878417E-03 +4.75002310434E-04 +7.02308193680E-01 +5.37375994681E-01
2.63500000000E+09 +7.22832858139E-01 +3.87956434511E-01 +1.19842143031E-03 +4.03421623081E-04 +1.07283905191E-03 +2.82346411852E-04 +7.07068930999E-01 +5.28103407277E-01
2.64000000000E+09 +7.27193221537E-01 +3.73728798406E-01 +1.10298681459E-03 +3.10978116233E-04 +9.70407034709E-04 +2.30387769303E-04 +7.11612077493E-01 +5.18486605030E-01
2.64500000000E+09 +7.30644449751E-01 +3.61639715583E-01 +1.08752165453E-03 +2.23761456456E-04 +9.88656093744E-04 +2.63316142426E-04 +7.16259429636E-01 +5.08731944254E-01
2.65000000000E+09 +7.32720671733E-01 +3.51620373557E-01 +1.08956213201E-03 +1.83689293173E-04 +1.02699857236E-03 +2.48755913538E-04 +7.20857632838E-01 +4.98652110303E-01
2.65500000000E+09 +7.34405999370E-01 +3.42538034654E-01 +9.55182238370E-04 +1.56674826678E-04 +1.03538462877E-03 +2.69849360752E-04 +7.24887413710E-01 +4.87947888209E-01
2.66000000000E+09 +7.35585728724E-01 +3.33497532705E-01 +1.03314266327E-03 +3.14781843615E-04 +1.19076972800E-03 +3.26667182269E-04 +7.29014447549E-01 +4.76825654253E-01
2.66500000000E+09 +7.36585678723E-01 +3.23617254180E-01 +1.19701248159E-03 +2.31724841255E-04 +1.24550421413E-03 +1.67619610725E-04 +7.33219829403E-01 +4.65624441386E-01
2.67000000000E+09 +7.37591602473E-01 +3.11663389039E-01 +1.36276175425E-03 +1.70624733308E-04 +1.35531407108E-03 +9.92718087786E-05 +7.37703052604E-01 +4.54917481422E-01
2.67500000000E+09 +7.38692781723E-01 +2.97539428105E-01 +1.49486993853E-03 +6.22011195321E-05 +1.41452902062E-03 +4.18698786271E-05 +7.42010490511E-01 +4.43824867589E-01
2.68000000000E+09 +7.39855481201E-01 +2.81763724003E-01 +1.56115039985E-03 -2.23182249956E-04 +1.50998025348E-03 -2.20612688602E-04 +7.45996838250E-01 +4.32536293381E-01
2.68500000000E+09 +7.41037630512E-01 +2.64910788158E-01 +1.38918319432E-03 -3.72185017751E-04 +1.39948770328E-03 -2.59886547235E-04 +7.49149162536E-01 +4.20907486544E-01
2.69000000000E+09 +7.42363720610E-01 +2.47540426524E-01 +1.38932077041E-03 -2.16620676220E-04 +1.39473665227E-03 -1.54416817586E-04 +7.51815011880E-01 +4.08984866741E-01
2.69500000000E+09 +7.43409506288E-01 +2.31049026630E-01 +1.65101466542E-03 -2.15612127324E-04 +1.67388466270E-03 -2.36445826944E-04 +7.54688895590E-01 +3.96318818410E-01
2.70000000000E+09 +7.44212078695E-01 +2.15608374619E-01 +1.85173051539E-03 -5.38689587420E-04 +1.79671830936E-03 -5.11474311217E-04 +7.57778015289E-01 +3.83128503327E-01
2.70500000000E+09 +7.44734785775E-01 +2.01755468983E-01 +1.93905797133E-03 -8.24952460598E-04 +1.91719296586E-03 -6.71304541510E-04 +7.60913544223E-01 +3.69606384045E-01
2.71000000000E+09 +7.44984565968E-01 +1.88766512700E-01 +1.80992020722E-03 -1.18070049427E-03 +1.92417928661E-03 -1.07067259674E-03 +7.63529890843E-01 +3.56141987027E-01
2.71500000000E+09 +7.45069764850E-01 +1.76217581567E-01 +1.71459551664E-03 -1.40177504657E-03 +1.81783152749E-03 -1.50678531384E-03 +7.65505064654E-01 +3.43669166493E-01
2.72000000000E+09 +7.44773872023E-01 +1.63376958680E-01 +1.53397300267E-03 -1.58525452601E-03 +1.55246746480E-03 -1.68238913156E-03 +7.67499227381E-01 +3.31152650884E-01
2.72500000000E+09 +7.44562540269E-01 +1.49239254327E-01 +1.35090388245E-03 -1.61914702332E-03 +1.15436979917E-03 -1.74854930819E-03 +7.68715130854E-01 +3.17725415392E-01
2.73000000000E+09 +7.43573312787E-01 +1.33398595893E-01 +1.50115704695E-03 -1.63124235894E-03 +1.21749078219E-03 -1.59446530095E-03 +7.69779994703E-01 +3.03348245406E-01
2.73500000000E+09 +7.41543881434E-01 +1.15683519049E-01 +1.59817589214E-03 -2.08515749614E-03 +1.36432687027E-03 -1.80806114066E-03 +7.70310305014E-01 +2.88714709155E-01
2.74000000000E+09 +7.38866457262E-01 +9.74002927288E-02 +1.31981824108E-03 -2.37833314613E-03 +1.36595056256E-03 -2.07849007124E-03 +7.71514902844E-01 +2.74167557755E-01
2.74500000000E+09 +7.35123126405E-01 +7.83048200972E-02 +9.84127203743E-04 -2.60491387714E-03 +1.29138524597E-03 -2.39551756510E-03 +7.72894811842E-01 +2.59405242510E-01
2.75000000000E+09 +7.30441911906E-01 +5.95458725426E-02 +8.80570763586E-04 -2.68690609903E-03 +1.19726648906E-03 -2.67791087430E-03 +7.73907858212E-01 +2.44552210860E-01
2.75500000000E+09 +7.25106338461E-01 +4.18733743638E-02 +6.84311452962E-04 -3.20789453021E-03 +9.16749907964E-04 -3.32383583986E-03 +7.74016874026E-01 +2.29741090386E-01
2.76000000000E+09 +7.20048549946E-01 +2.49410570854E-02 +1.80324491038E-04 -3.30796239498E-03 +2.13580805013E-04 -3.52746857200E-03 +7.73607843387E-01 +2.14335700656E-01
2.76500000000E+09 +7.14372727092E-01 +8.32408383093E-03 -3.23732688091E-04 -3.40520615614E-03 -4.15648211900E-04 -3.48397732643E-03 +7.72752980082E-01 +1.98482608241E-01
2.77000000000E+09 +7.08795799877E-01 -8.64966662527E-03 -8.24564322152E-04 -3.10585268344E-03 -9.29571155545E-04 -3.22178258911E-03 +7.72354798231E-01 +1.81489845177E-01
2.77500000000E+09 +7.03013618794E-01 -2.65528579480E-02 -7.99839368341E-04 -2.69487371188E-03 -9.32077317023E-04 -2.73467773792E-03 +7.70957699638E-01 +1.63285228491E-01
2.78000000000E+09 +6.96694439628E-01 -4.57198441327E-02 -6.09844935262E-04 -3.08934054903E-03 -8.23502742659E-04 -3.11662643377E-03 +7.68980873800E-01 +1.45533895978E-01
2.78500000000E+09 +6.89861105733E-01 -6.60700632823E-02 -1.01962681941E-03 -3.46642915284E-03 -1.27871989803E-03 -3.35645607330E-03 +7.67010647675E-01 +1.28135797379E-01
2.79000000000E+09 +6.82830236346E-01 -8.77357383944E-02 -1.62836536918E-03 -3.48158030424E-03 -1.71387970595E-03 -3.23268507068E-03 +7.64268617005E-01 +1.10929399377E-01
2.79500000000E+09 +6.74649606961E-01 -1.10055916992E-01 -1.98508391012E-03 -3.49802440244E-03 -1.90647870892E-03 -3.28315753588E-03 +7.60859982012E-01 +9.29145835728E-02
2.80000000000E+09 +6.65525391749E-01 -1.31640926426E-01 -2.67696212138E-03 -3.45689318538E-03 -2.46859401724E-03 -3.32754831307E-03 +7.56160169394E-01 +7.41865141178E-02
2.80500000000E+09 +6.55986147265E-01 -1.51986579551E-01 -2.84941748184E-03 -3.18023075525E-03 -2.73405411756E-03 -3.23556753943E-03 +7.50543830437E-01 +5.47163210033E-02
2.81000000000E+09 +6.45072200161E-01 -1.70143316404E-01 -3.40824387538E-03 -3.31587990206E-03 -3.44267396600E-03 -3.46174664544E-03 +7.43934503175E-01 +3.55523915631E-02
2.81500000000E+09 +6.33934301949E-01 -1.86020919438E-01 -4.08924612310E-03 -2.95884959951E-03 -4.27753252382E-03 -2.91434253017E-03 +7.37606840746E-01 +1.58985248543E-02
2.82000000000E+09 +6.22013679740E-01 -2.01294632717E-01 -4.56217867330E-03 -2.74337789748E-03 -4.63699902884E-03 -2.53289881492E-03 +7.30453963707E-01 -4.59248032418E-03
2.82500000000E+09 +6.08105708491E-01 -2.15914164126E-01 -5.20739583187E-03 -2.23737940691E-03 -5.06575802075E-03 -2.00922417062E-03 +7.21909022857E-01 -2.47847399744E-02
2.83000000000E+09 +5.92641445627E-01 -2.30779565531E-01 -5.78923116509E-03 -1.75412644327E-03 -5.52293374182E-03 -1.59371149676E-03 +7.12339177491E-01 -4.43523669804E-02
2.83500000000E+09 +5.75590040690E-01 -2.47366860848E-01 -6.32188998651E-03 -8.99743768472E-04 -6.02347545471E-03 -1.04108374181E-03 +7.02346143892E-01 -6.43325963593E-02
2.84000000000E+09 +5.55619983695E-01 -2.65962547102E-01 -6.44396313555E-03 -4.87472883514E-05 -6.37201392966E-03 -2.52224256731E-04 +6.91293559037E-01 -8.42996010724E-02
2.84500000000E+09 +5.33050657000E-01 -2.85827546126E-01 -6.46348433196E-03 +7.09662761305E-04 -6.56098591069E-03 +5.80116345970E-04 +6.79310440353E-01 -1.04988714690E-01
2.85000000000E+09 +5.08830771488E-01 -3.06371095066E-01 -6.67621873767E-03 +1.18568185182E-03 -6.65759033559E-03 +1.20135580583E-03 +6.65662628195E-01 -1.25571884685E-01
2.85500000000E+09 +4.83295896724E-01 -3.26481711268E-01 -7.18393165691E-03 +2.12730425660E-03 -7.10678951526E-03 +2.14175624378E-03 +6.50627542422E-01 -1.46174260226E-01
2.86000000000E+09 +4.58147454861E-01 -3.44723325960E-01 -6.85791172622E-03 +3.34719355203E-03 -6.74084432064E-03 +3.27489405308E-03 +6.34804128111E-01 -1.65549218962E-01
2.86500000000E+09 +4.34283761587E-01 -3.61355718292E-01 -6.76671092788E-03 +4.04698221216E-03 -6.79813529979E-03 +3.93807139299E-03 +6.18737441525E-01 -1.85779277733E-01
2.87000000000E+09 +4.11120003030E-01 -3.76375932175E-01 -6.64881785729E-03 +5.32924592907E-03 -6.64788056368E-03 +5.38127542676E-03 +6.00920240560E-01 -2.06566063101E-01
2.87500000000E+09 +3.88370261726E-01 -3.89151867723E-01 -6.09922955965E-03 +6.39133092652E-03 -5.84288658472E-03 +6.52018989070E-03 +5.80429529839E-01 -2.26422055369E-01
2.88000000000E+09 +3.65321970747E-01 -4.00452520677E-01 -5.40989155403E-03 +7.16006884264E-03 -5.02260066325E-03 +7.12092161185E-03 +5.59819852253E-01 -2.45015236440E-01
2.88500000000E+09 +3.40517171014E-01 -4.09912939451E-01 -4.84600735237E-03 +8.43896414835E-03 -4.43095751359E-03 +8.02707189004E-03 +5.37605317807E-01 -2.63792478939E-01
2.89000000000E+09 +3.14322753032E-01 -4.18374544215E-01 -3.51116660745E-03 +9.54567795166E-03 -3.50103709156E-03 +8.89604046398E-03 +5.13479201908E-01 -2.82412813344E-01
2.89500000000E+09 +2.84761572050E-01 -4.25691369393E-01 -2.10664037253E-03 +1.00202153235E-02 -2.48352251100E-03 +9.56801071654E-03 +4.86593468520E-01 -3.00587413308E-01
2.90000000000E+09 +2.53407165205E-01 -4.32174438842E-01 -1.04120525784E-03 +1.03099185251E-02 -1.42669327084E-03 +1.02798516899E-02 +4.59659565375E-01 -3.16637517426E-01
2.90500000000E+09 +2.18978149693E-01 -4.38269989333E-01 +1.74424148718E-04 +1.09318770138E-02 +1.36200306965E-04 +1.11593973049E-02 +4.31078029132E-01 -3.33354643608E-01
2.91000000000E+09 +1.82937452078E-01 -4.41806523333E-01 +1.53989171476E-03 +1.11689864184E-02 +1.82573747472E-03 +1.10770636552E-02 +4.01292958091E-01 -3.48291134327E-01
2.91500000000E+09 +1.47940337031E-01 -4.44012817761E-01 +3.38694127543E-03 +1.20801940122E-02 +3.50421372637E-03 +1.13989205653E-02 +3.69565711783E-01 -3.61534259783E-01
2.92000000000E+09 +1.12787145706E-01 -4.44853298286E-01 +5.99259774099E-03 +1.13221465376E-02 +5.51178242588E-03 +1.05813565710E-02 +3.36387635051E-01 -3.73536515433E-01
2.92500000000E+09 +7.86935911626E-02 -4.44095838077E-01 +7.53479652653E-03 +1.03513420456E-02 +6.66136967018E-03 +1.01008756602E-02 +3.00505292284E-01 -3.81965497606E-01
2.93000000000E+09 +4.51030370762E-02 -4.40457597481E-01 +8.96244315738E-03 +9.08495667413E-03 +8.21531772083E-03 +9.43675556396E-03 +2.64236172758E-01 -3.89507993290E-01
2.93500000000E+09 +1.23505336282E-02 -4.34582789090E-01 +1.02232632391E-02 +8.20421300947E-03 +9.95988690156E-03 +8.69784577301E-03 +2.25874632081E-01 -3.95063050824E-01
2.94000000000E+09 -2.06200615298E-02 -4.25801075724E-01 +1.15044438479E-02 +6.89090999695E-03 +1.12854866772E-02 +7.24209450024E-03 +1.86636526270E-01 -3.99472759934E-01
2.94500000000E+09 -5.34120254872E-02 -4.13431664474E-01 +1.31234328432E-02 +5.27325348406E-03 +1.29503341584E-02 +5.65211531129E-03 +1.45647468373E-01 -3.99851479018E-01
2.95000000000E+09 -8.64327223191E-02 -3.98984801979E-01 +1.37853119158E-02 +2.96390184340E-03 +1.36938251874E-02 +3.55322047906E-03 +1.05941151829E-01 -3.97997844985E-01
2.95500000000E+09 -1.20867209686E-01 -3.81038929435E-01 +1.40992353553E-02 +7.64316874612E-04 +1.43549816127E-02 +1.40985707242E-03 +6.57310206060E-02 -3.93567661940E-01
2.96000000000E+09 -1.54197356242E-01 -3.59426582836E-01 +1.37905497260E-02 -1.20167389313E-03 +1.43597630708E-02 -1.07896405015E-03 +2.37954339526E-02 -3.86381851777E-01
2.96500000000E+09 -1.85641163833E-01 -3.35974810336E-01 +1.35848632775E-02 -2.77341989868E-03 +1.39760178480E-02 -3.15302241825E-03 -1.75476978367E-02 -3.74346969528E-01
2.97000000000E+09 -2.15671473639E-01 -3.11309664486E-01 +1.32462516343E-02 -4.34671117516E-03 +1.31111318799E-02 -4.78670658064E-03 -5.89934929058E-02 -3.60328210031E-01
2.97500000000E+09 -2.43563372426E-01 -2.85243915206E-01 +1.35652696123E-02 -6.38321076658E-03 +1.31250547354E-02 -6.38337182392E-03 -9.90733211666E-02 -3.43019988610E-01
2.98000000000E+09 -2.70040306774E-01 -2.58475847842E-01 +1.20851300966E-02 -9.32562368176E-03 +1.19650385521E-02 -8.77623782496E-03 -1.38229889387E-01 -3.23632398976E-01
2.98500000000E+09 -2.94669713120E-01 -2.28968707734E-01 +1.03444448014E-02 -1.08001160856E-02 +1.09586556964E-02 -1.04946321128E-02 -1.75319040909E-01 -3.00811689694E-01
2.99000000000E+09 -3.15781372392E-01 -1.97945569333E-01 +8.25554589697E-03 -1.18030495312E-02 +8.82839966186E-03 -1.22489019435E-02 -2.11999278961E-01 -2.75176157952E-01
2.99500000000E+09 -3.34898465023E-01 -1.66755582878E-01 +6.89634915599E-03 -1.25776513648E-02 +6.79338987036E-03 -1.33775088909E-02 -2.45695894001E-01 -2.45540880284E-01
3.00000000000E+09 -3.53452215434E-01 -1.34232580272E-01 +5.33044142870E-03 -1.33974592269E-02 +4.57325975293E-03 -1.37099509865E-02 -2.77422150342E-01 -2.13350932406E-01
3.00500000000E+09 -3.69414975828E-01 -1.00091593185E-01 +3.65193646502E-03 -1.47848781881E-02 +2.96682745909E-03 -1.42397863514E-02 -3.06266090385E-01 -1.80387118935E-01
3.01000000000E+09 -3.82974383497E-01 -6.64590143027E-02 +6.07603290170E-04 -1.54555277081E-02 +6.07853143940E-04 -1.46520734680E-02 -3.34670437933E-01 -1.44795809160E-01
3.01500000000E+09 -3.95553848700E-01 -3.29615740612E-02 -1.97844344377E-03 -1.43999538455E-02 -1.48802773710E-03 -1.40918414323E-02 -3.58738188193E-01 -1.07900483857E-01
3.02000000000E+09 -4.05126167571E-01 +6.98418820754E-04 -3.44311724883E-03 -1.33633913994E-02 -3.04503148887E-03 -1.35083314475E-02 -3.79453607583E-01 -6.88001692128E-02
3.02500000000E+09 -4.11587576856E-01 +3.32786254899E-02 -5.02207780295E-03 -1.33199009192E-02 -4.86329768435E-03 -1.34416354286E-02 -3.96069419824E-01 -3.02502798605E-02
3.03000000000E+09 -4.14696445591E-01 +6.54414141850E-02 -6.93107221295E-03 -1.19421342557E-02 -6.76023565779E-03 -1.18360571338E-02 -4.10707206964E-01 +9.98876597698E-03
3.03500000000E+09 -4.14402638468E-01 +9.64516799684E-02 -8.37373308472E-03 -1.14849530942E-02 -7.97754438691E-03 -1.15547153481E-02 -4.21991624383E-01 +4.96107104193E-02
3.04000000000E+09 -4.11421404962E-01 +1.27288585261E-01 -1.04897491022E-02 -9.12941374512E-03 -1.02760400902E-02 -9.80135498646E-03 -4.30801122101E-01 +9.12032250346E-02
3.04500000000E+09 -4.05721427545E-01 +1.58309925383E-01 -1.06302886458E-02 -7.26233831722E-03 -1.11805843633E-02 -7.87206347572E-03 -4.35886360800E-01 +1.31286246665E-01
3.05000000000E+09 -3.98145741434E-01 +1.91188477598E-01 -1.11594044099E-02 -5.74343926588E-03 -1.20278778589E-02 -5.76499980031E-03 -4.38509165383E-01 +1.70966851737E-01
3.05500000000E+09 -3.87011832615E-01 +2.24985029419E-01 -1.15628117206E-02 -4.55642684284E-03 -1.20834231319E-02 -3.82170170379E-03 -4.38843877738E-01 +2.09273768900E-01
3.06000000000E+09 -3.74429515958E-01 +2.57950837445E-01 -1.22827117880E-02 -3.00922306553E-03 -1.18895379614E-02 -2.32726535339E-03 -4.36741325803E-01 +2.46322496508E-01
3.06500000000E+09 -3.60524313935E-01 +2.90907003106E-01 -1.26594760855E-02 -7.90000640076E-04 -1.19079635216E-02 -7.58474062404E-04 -4.33931142179E-01 +2.83439009971E-01
3.07000000000E+09 -3.46038764675E-01 +3.21183934414E-01 -1.17271597325E-02 +1.27816662359E-03 -1.14454837696E-02 +5.57062237070E-04 -4.26655484817E-01 +3.20060910990E-01
