# Hz S RI R 50
! CMT, C1220, 16058040, 17.2.0/1
! Date: 15/08/2018 10:09:56
! Data: Format (Calibration Info)
! Freq                      S11: Re/Im (F2)                       S21: Re/Im (F2)                       S12: Re/Im (F2)                       S22: Re/Im (F2)            
2.50000000000E+09 +5.99615071554E-01 +6.35561882447E-01 -5.18179898743E-04 -4.92652463028E-04 -5.88761361022E-04 -5.11589132454E-04 +5.72938047944E-01 +7.16905584988E-01
2.50500000000E+09 +6.05852183047E-01 +6.28051666442E-01 -4.99192199353E-04 -4.90527760830E-04 -5.30790409037E-04 -4.86226115898E-04 +5.78572021749E-01 +7.11405210105E-01
2.51000000000E+09 +6.12416799646E-01 +6.20044228807E-01 -6.02727421671E-04 -5.01954976589E-04 -5.97073089417E-04 -5.04519668067E-04 +5.84305124925E-01 +7.06240583080E-01
2.51500000000E+09 +6.18600865619E-01 +6.12132156433E-01 -6.92371415633E-04 -5.16523065072E-04 -6.62140456812E-04 -4.83719746512E-04 +5.89542815904E-01 +7.00834817809E-01
2.52000000000E+09 +6.24331114783E-01 +6.03889569655E-01 -8.35636050748E-04 -4.33781996557E-04 -7.97998637841E-04 -4.30853804751E-04 +5.94848933196E-01 +6.94960617267E-01
2.52500000000E+09 +6.29279895281E-01 +5.96400012700E-01 -9.00114617592E-04 -2.67471816935E-04 -8.54400279681E-04 -2.88806901846E-04 +6.00581163130E-01 +6.88411163515E-01
2.53000000000E+09 +6.33717461483E-01 +5.89288866515E-01 -8.56428665585E-04 -9.58976290733E-05 -9.57001901111E-04 -1.02967030525E-04 +6.06614358223E-01 +6.81400737517E-01
2.53500000000E+09 +6.37904831657E-01 +5.82863972786E-01 -7.85381539776E-04 -4.49599079873E-05 -8.10543454290E-04 -3.64848468314E-05 +6.12609465982E-01 +6.74660760726E-01
2.54000000000E+09 +6.42111263644E-01 +5.76703637325E-01 -8.72566093884E-04 -3.51513769311E-05 -8.33879663872E-04 -1.71341898132E-05 +6.18725576451E-01 +6.67845379993E-01
2.54500000000E+09 +6.46424890580E-01 +5.70575857326E-01 -9.38245161740E-04 +8.62771691062E-05 -9.53584318760E-04 +4.02923574988E-06 +6.24364283712E-01 +6.61357913542E-01
2.55000000000E+09 +6.51088969646E-01 +5.64384252861E-01 -9.11978191656E-04 +2.27729761281E-04 -9.41965167098E-04 +1.84444123401E-04 +6.29777488914E-01 +6.55015324331E-01
2.55500000000E+09 +6.56247675663E-01 +5.57487368487E-01 -8.77741487105E-04 +3.36931614013E-04 -9.41160521016E-04 +3.44359239729E-04 +6.35087638228E-01 +6.48583269802E-01
2.56000000000E+09 +6.62039789101E-01 +5.50615124946E-01 -7.49757247206E-04 +4.04818668155E-04 -7.72295285448E-04 +5.59910182682E-04 +6.40343444405E-01 +6.41462271494E-01
2.56500000000E+09 +6.68422881418E-01 +5.42529969836E-01 -6.52237351732E-04 +3.48302538702E-04 -6.53232011836E-04 +5.10274169494E-04 +6.45880219729E-01 +6.33888892002E-01
2.57000000000E+09 +6.74668750680E-01 +5.33982358453E-01 -8.04361347545E-04 +2.98945313622E-04 -6.92629770741E-04 +4.41739375346E-04 +6.51332876133E-01 +6.25662278968E-01
2.57500000000E+09 +6.80699187829E-01 +5.24807731021E-01 -9.21766290180E-04 +4.90404849680E-04 -7.32016627446E-04 +5.46614030365E-04 +6.56660871929E-01 +6.17997289167E-01
2.58000000000E+09 +6.85788539384E-01 +5.15869515314E-01 -7.70828476547E-04 +7.91998558290E-04 -5.84041318389E-04 +6.79518295332E-04 +6.61736403607E-01 +6.10466442996E-01
2.58500000000E+09 +6.90700265280E-01 +5.07206274244E-01 -5.16961470622E-04 +7.56714887402E-04 -4.77377972187E-04 +6.58402966028E-04 +6.66713325889E-01 +6.02850556869E-01
2.59000000000E+09 +6.94959445571E-01 +4.98593218670E-01 -4.58201732125E-04 +7.58645362815E-04 -4.93642882868E-04 +6.63838825216E-04 +6.71536568312E-01 +5.95225773919E-01
2.59500000000E+09 +6.99281988346E-01 +4.90331155894E-01 -4.32415498768E-04 +6.88640284702E-04 -4.83560331875E-04 +6.63900032246E-04 +6.76233751129E-01 +5.87039054422E-01
2.60000000000E+09 +7.03274698815E-01 +4.81756078789E-01 -4.77105278422E-04 +6.69054108057E-04 -5.42814796937E-04 +6.89781700282E-04 +6.81343664266E-01 +5.78643669794E-01
2.60500000000E+09 +7.07494729176E-01 +4.72631071367E-01 -5.99610056264E-04 +8.95158600969E-04 -6.14302664658E-04 +8.80259978805E-04 +6.86510845066E-01 +5.69753696325E-01
2.61000000000E+09 +7.11812974607E-01 +4.62475160061E-01 -3.82716138701E-04 +1.16421664970E-03 -3.99417379671E-04 +1.14951227949E-03 +6.91277673085E-01 +5.60976022003E-01
2.61500000000E+09 +7.16395259438E-01 +4.51651773665E-01 -8.53765050797E-05 +1.03332823549E-03 -7.19749768470E-05 +1.06827837979E-03 +6.96216989924E-01 +5.52399640028E-01
2.62000000000E+09 +7.20648650204E-01 +4.39337041185E-01 -3.70579719031E-05 +9.25543368252E-04 +3.26855916855E-05 +9.85947684894E-04 +7.00686121074E-01 +5.43208858697E-01
2.62500000000E+09 +7.24599066608E-01 +4.26433154137E-01 -1.57403695380E-04 +9.10833123552E-04 -3.20247818156E-05 +9.80790675994E-04 +7.05371852834E-01 +5.34575330910E-01
2.63000000000E+09 +7.28159237426E-01 +4.13217740321E-01 -6.91781228097E-05 +9.93049998862E-04 +1.48952824740E-05 +1.02091305360E-03 +7.10400899157E-01 +5.25548467688E-01
2.63500000000E+09 +7.31212881424E-01 +4.00118197337E-01 -7.45795243587E-05 +1.16210113762E-03 +8.87372941465E-05 +1.02914448953E-03 +7.15294859863E-01 +5.16069048534E-01
2.64000000000E+09 +7.33940276711E-01 +3.87427015621E-01 +1.36871442684E-04 +1.32211554276E-03 +1.66229003733E-04 +1.09935327247E-03 +7.19955300405E-01 +5.06208819259E-01
2.64500000000E+09 +7.36830022737E-01 +3.75248012696E-01 +5.14856960704E-04 +1.21969129218E-03 +3.73351651846E-04 +1.08472205178E-03 +7.24300447319E-01 +4.96486399923E-01
2.65000000000E+09 +7.39134774243E-01 +3.63433415390E-01 +5.18915653800E-04 +1.01356349946E-03 +4.03549363883E-04 +1.05427214847E-03 +7.28469275664E-01 +4.86607492652E-01
2.65500000000E+09 +7.41309397957E-01 +3.51696366471E-01 +5.26159226013E-04 +1.04750347906E-03 +4.15744254538E-04 +1.14010677228E-03 +7.32700364578E-01 +4.76498819926E-01
2.66000000000E+09 +7.43472483894E-01 +3.40114322498E-01 +5.67276793012E-04 +1.03717580486E-03 +6.33800413657E-04 +1.12197806311E-03 +7.37157281845E-01 +4.65080360267E-01
2.66500000000E+09 +7.45486420471E-01 +3.28633873483E-01 +5.97354728105E-04 +1.08102083830E-03 +7.17514427330E-04 +1.09114119859E-03 +7.41256166722E-01 +4.53532058892E-01
2.67000000000E+09 +7.47699124339E-01 +3.16104312677E-01 +9.01218544265E-04 +1.24334528857E-03 +9.41213308520E-04 +1.16588154332E-03 +7.45349325658E-01 +4.42472644836E-01
2.67500000000E+09 +7.48999655940E-01 +3.02711326008E-01 +1.28256672568E-03 +9.38710693890E-04 +1.22261926983E-03 +8.31740188876E-04 +7.49196944639E-01 +4.31339599750E-01
2.68000000000E+09 +7.49559436138E-01 +2.89051982594E-01 +1.18108417180E-03 +7.35450777428E-04 +1.09345670338E-03 +7.00629600706E-04 +7.53016320771E-01 +4.20269226123E-01
2.68500000000E+09 +7.49934973853E-01 +2.75140013526E-01 +1.22705212228E-03 +6.93196700911E-04 +1.15969732388E-03 +7.29932636162E-04 +7.56154423820E-01 +4.08536087401E-01
2.69000000000E+09 +7.49765009331E-01 +2.61209230111E-01 +1.34975841934E-03 +6.06849725486E-04 +1.33582733477E-03 +6.72662554981E-04 +7.58756347430E-01 +3.96463518895E-01
2.69500000000E+09 +7.49259591223E-01 +2.47835411954E-01 +1.44096095492E-03 +5.08620642103E-04 +1.46569462800E-03 +5.37435849539E-04 +7.61210617819E-01 +3.83693340724E-01
2.70000000000E+09 +7.49350427187E-01 +2.34478659502E-01 +1.60625007367E-03 +3.46591749194E-04 +1.53824134258E-03 +3.73158436573E-04 +7.63846889909E-01 +3.70439791742E-01
2.70500000000E+09 +7.49463916863E-01 +2.21496304837E-01 +1.63493614945E-03 +9.73657977899E-05 +1.56522817550E-03 +1.31626755270E-04 +7.66745264498E-01 +3.57129352739E-01
2.71000000000E+09 +7.49984165149E-01 +2.08452511293E-01 +1.56323488831E-03 -5.74650631489E-05 +1.62280776554E-03 +2.89209662870E-05 +7.69409011624E-01 +3.43728202417E-01
2.71500000000E+09 +7.51350038548E-01 +1.94976686625E-01 +1.58904109955E-03 -2.14421140105E-04 +1.73226261020E-03 -2.11943895070E-04 +7.71546666093E-01 +3.31125282156E-01
2.72000000000E+09 +7.52528368776E-01 +1.80413165720E-01 +1.50236513576E-03 -4.01693167997E-04 +1.57245819679E-03 -5.17460986070E-04 +7.73455464485E-01 +3.18394424083E-01
2.72500000000E+09 +7.53335525614E-01 +1.65007460289E-01 +1.40310958886E-03 -4.79601963015E-04 +1.36121127074E-03 -5.55787185998E-04 +7.74486777172E-01 +3.05196286758E-01
2.73000000000E+09 +7.52801726837E-01 +1.48447632137E-01 +1.46013686817E-03 -3.61884321806E-04 +1.32077078611E-03 -4.82326865908E-04 +7.75878855267E-01 +2.91420052539E-01
2.73500000000E+09 +7.50998875813E-01 +1.31277331065E-01 +1.54163371820E-03 -5.50866620157E-04 +1.31195396834E-03 -5.13979754976E-04 +7.77102671984E-01 +2.76262226190E-01
2.74000000000E+09 +7.47876061700E-01 +1.14872220204E-01 +1.78193750544E-03 -8.15683513440E-04 +1.62017146570E-03 -6.19159322401E-04 +7.78018227545E-01 +2.60992530953E-01
2.74500000000E+09 +7.44176323760E-01 +9.83806091969E-02 +1.55267171950E-03 -1.22803225277E-03 +1.61572380379E-03 -1.00570131434E-03 +7.78807463453E-01 +2.46077452152E-01
2.75000000000E+09 +7.39943329180E-01 +8.19473116135E-02 +1.13404916972E-03 -1.39811798573E-03 +1.31148122528E-03 -1.29082124644E-03 +7.79572222659E-01 +2.31510233708E-01
2.75500000000E+09 +7.35062206612E-01 +6.56695970053E-02 +1.14539356608E-03 -1.18358447390E-03 +1.29121991072E-03 -1.14013370244E-03 +7.79814441649E-01 +2.16401978139E-01
2.76000000000E+09 +7.30243389055E-01 +4.97676941765E-02 +1.38219106191E-03 -1.32696066864E-03 +1.49983250386E-03 -1.44194836179E-03 +7.79355042880E-01 +2.00401683187E-01
2.76500000000E+09 +7.25592788718E-01 +3.37058524564E-02 +1.24046684690E-03 -1.82694614461E-03 +1.27308781390E-03 -1.89421583914E-03 +7.77730369178E-01 +1.83406878997E-01
2.77000000000E+09 +7.21367026499E-01 +1.64712933140E-02 +1.02961834738E-03 -1.96814765762E-03 +9.89750205686E-04 -2.08356338482E-03 +7.75780586188E-01 +1.66447121869E-01
2.77500000000E+09 +7.16865264068E-01 -1.79230562859E-03 +6.12356935030E-04 -2.17184120868E-03 +5.84764481582E-04 -2.23235179225E-03 +7.74072765053E-01 +1.48893232599E-01
2.78000000000E+09 +7.11998939258E-01 -2.14095470346E-02 +3.34445446713E-04 -2.19733971749E-03 +2.55775122895E-04 -2.23299532321E-03 +7.72130814663E-01 +1.30978082265E-01
2.78500000000E+09 +7.05593826606E-01 -4.19784595404E-02 +1.94693001260E-04 -2.04367301618E-03 +8.95576895315E-05 -2.07151333974E-03 +7.69476310934E-01 +1.13453587852E-01
2.79000000000E+09 +6.98202644415E-01 -6.28972265723E-02 +2.06039242511E-04 -2.26335236912E-03 +9.32685407332E-05 -2.14229130407E-03 +7.66059415507E-01 +9.59668538638E-02
2.79500000000E+09 +6.89354976706E-01 -8.34849744257E-02 -3.21261682764E-04 -2.37958418250E-03 -3.35314980696E-04 -2.26239998115E-03 +7.61584411638E-01 +7.86338453944E-02
2.80000000000E+09 +6.79297644532E-01 -1.03791118168E-01 -4.16239182384E-04 -2.17418563703E-03 -3.42111978314E-04 -2.07976351389E-03 +7.56932109463E-01 +6.06985517700E-02
2.80500000000E+09 +6.68041520699E-01 -1.22976044819E-01 -7.63167092979E-04 -2.39979463283E-03 -6.49746882691E-04 -2.41151313304E-03 +7.51508234116E-01 +4.16623909482E-02
2.81000000000E+09 +6.56198557159E-01 -1.41040330168E-01 -1.05710676213E-03 -2.05530798672E-03 -1.09433001800E-03 -2.16709413838E-03 +7.44814065916E-01 +2.23726647212E-02
2.81500000000E+09 +6.43340063034E-01 -1.58437948224E-01 -1.12758780158E-03 -1.86483616521E-03 -1.24590567359E-03 -1.87684159487E-03 +7.37723312418E-01 +3.36530702083E-03
2.82000000000E+09 +6.29592944023E-01 -1.75308833050E-01 -1.20298962546E-03 -2.18290701205E-03 -1.31915039921E-03 -2.08808743968E-03 +7.30430683505E-01 -1.58111328496E-02
2.82500000000E+09 +6.15150634450E-01 -1.91839995853E-01 -2.02677809427E-03 -2.06689283322E-03 -2.00918450135E-03 -1.96127517890E-03 +7.22129354259E-01 -3.53676581905E-02
2.83000000000E+09 +5.99307134216E-01 -2.09913350140E-01 -2.21883061632E-03 -1.22608688050E-03 -2.07842263917E-03 -1.16929376058E-03 +7.12883826216E-01 -5.49640313100E-02
2.83500000000E+09 +5.80934424333E-01 -2.28389304214E-01 -1.79645373916E-03 -1.01075812598E-03 -1.71728900327E-03 -1.01585301177E-03 +7.02841063075E-01 -7.52160840365E-02
2.84000000000E+09 +5.60112695866E-01 -2.46054465195E-01 -1.72449953025E-03 -1.03202500256E-03 -1.70987214718E-03 -1.07733723397E-03 +6.91081653823E-01 -9.57671013528E-02
2.84500000000E+09 +5.38077670536E-01 -2.63650123172E-01 -1.85695086952E-03 -1.17555442127E-03 -1.83480161570E-03 -1.25557692634E-03 +6.78943795739E-01 -1.15776059314E-01
2.85000000000E+09 +5.14580313789E-01 -2.80894049317E-01 -2.33815225626E-03 -1.22047515011E-03 -2.28467006373E-03 -1.22866104799E-03 +6.66195904876E-01 -1.36492879036E-01
2.85500000000E+09 +4.90593877022E-01 -2.97716684681E-01 -2.54259035886E-03 -7.15771486161E-04 -2.53371027169E-03 -6.50169802143E-04 +6.51662948716E-01 -1.57588495229E-01
2.86000000000E+09 +4.65480100526E-01 -3.14345898756E-01 -2.27511002512E-03 -5.43625163800E-04 -2.17044439027E-03 -5.64529402214E-04 +6.35222831300E-01 -1.78039521396E-01
2.86500000000E+09 +4.39421058866E-01 -3.29759253596E-01 -2.64530285129E-03 -6.62892289741E-04 -2.64294175845E-03 -7.41753510603E-04 +6.17554435428E-01 -1.98375692235E-01
2.87000000000E+09 +4.13139234420E-01 -3.42914765044E-01 -2.86840162468E-03 -5.17932048282E-06 -2.89182215203E-03 +3.29863281356E-06 +5.98886511420E-01 -2.17355781529E-01
2.87500000000E+09 +3.88563826280E-01 -3.55123045232E-01 -2.76430827129E-03 +5.25175963628E-05 -2.75288539908E-03 +6.48101560291E-05 +5.80547329824E-01 -2.37389571957E-01
2.88000000000E+09 +3.62448782022E-01 -3.67389425328E-01 -3.04695772050E-03 +3.12821396055E-04 -2.96940375344E-03 +4.12964941308E-04 +5.59319528400E-01 -2.57654730365E-01
2.88500000000E+09 +3.35879183027E-01 -3.77714989396E-01 -2.84534604796E-03 +8.44677935130E-04 -2.68088842974E-03 +8.25270943682E-04 +5.35752331373E-01 -2.76300644169E-01
2.89000000000E+09 +3.07713863435E-01 -3.87061944749E-01 -2.70205276720E-03 +5.72011327597E-04 -2.58029465789E-03 +5.17832837351E-04 +5.11249022397E-01 -2.94202779530E-01
2.89500000000E+09 +2.77482582307E-01 -3.94474896166E-01 -3.47661954088E-03 +1.01109772042E-03 -3.41307497623E-03 +8.30427902118E-04 +4.83926623724E-01 -3.12151732433E-01
2.90000000000E+09 +2.45726942669E-01 -3.99196701819E-01 -3.45865751173E-03 +1.96301832737E-03 -3.52401988557E-03 +1.91962808001E-03 +4.55671952044E-01 -3.27956426942E-01
2.90500000000E+09 +2.12619640490E-01 -4.01352999341E-01 -2.83813112898E-03 +2.63036044287E-03 -2.91634287242E-03 +2.70458153403E-03 +4.26189830612E-01 -3.44277167813E-01
2.91000000000E+09 +1.78246279377E-01 -4.01826809280E-01 -1.99573931900E-03 +2.54955528759E-03 -1.91627053238E-03 +2.62561545050E-03 +3.94754091136E-01 -3.58240691476E-01
2.91500000000E+09 +1.43314011053E-01 -3.99316332561E-01 -2.66784679133E-03 +2.12110599811E-03 -2.48023128407E-03 +2.12861829107E-03 +3.62599195140E-01 -3.69912073432E-01
2.92000000000E+09 +1.07959256811E-01 -3.94610997778E-01 -2.85615818529E-03 +3.50555848035E-03 -2.76038571280E-03 +3.27532053465E-03 +3.30414340702E-01 -3.80175061201E-01
2.92500000000E+09 +7.25348214856E-02 -3.88528346205E-01 -1.92539990149E-03 +4.07209609270E-03 -2.02522244899E-03 +3.82637852357E-03 +2.94822538898E-01 -3.89397081967E-01
2.93000000000E+09 +3.70284596948E-02 -3.79741500659E-01 -1.20126188411E-03 +4.20727674958E-03 -1.41910289248E-03 +4.07010604578E-03 +2.57700168806E-01 -3.96403602190E-01
2.93500000000E+09 +1.76239156294E-03 -3.69355551945E-01 -5.07357308317E-04 +4.21897347124E-03 -6.66078721288E-04 +4.22592391704E-03 +2.18275499084E-01 -4.01162426407E-01
2.94000000000E+09 -3.26097074946E-02 -3.56186780158E-01 -7.24766588237E-04 +3.83801057179E-03 -7.67306181039E-04 +3.87773666268E-03 +1.78875615026E-01 -4.02131621249E-01
2.94500000000E+09 -6.64174490340E-02 -3.40706708024E-01 -5.27812261248E-04 +4.96380841817E-03 -6.64542153625E-04 +5.00354080284E-03 +1.41365757454E-01 -4.02684309513E-01
2.95000000000E+09 -9.88922165139E-02 -3.22438496280E-01 +1.09325701095E-03 +5.12641452699E-03 +8.64893282446E-04 +5.14248591577E-03 +1.01015002393E-01 -4.02549803575E-01
2.95500000000E+09 -1.29837101947E-01 -3.01620096968E-01 +1.74220486000E-03 +4.64948550162E-03 +1.61671593783E-03 +4.78789907652E-03 +5.89698626863E-02 -3.96491100617E-01
2.96000000000E+09 -1.59800284209E-01 -2.78553708397E-01 +2.18818479140E-03 +4.23188812428E-03 +2.20276507266E-03 +4.43835963618E-03 +1.85100142357E-02 -3.86870840583E-01
2.96500000000E+09 -1.88722997088E-01 -2.52382098247E-01 +2.49913932762E-03 +3.83871164947E-03 +2.65583431697E-03 +3.95675433512E-03 -2.18244887561E-02 -3.74532140764E-01
2.97000000000E+09 -2.15028648301E-01 -2.22462105753E-01 +2.59627394882E-03 +3.97142831233E-03 +2.69152327011E-03 +3.89262296858E-03 -6.18115190133E-02 -3.60581148161E-01
2.97500000000E+09 -2.38140279060E-01 -1.91264897150E-01 +3.51038397136E-03 +4.38257408276E-03 +3.41199158057E-03 +4.24537849016E-03 -1.02853745451E-01 -3.44090705742E-01
2.98000000000E+09 -2.59047553638E-01 -1.59826447013E-01 +4.81301047368E-03 +3.53199791808E-03 +4.60923932912E-03 +3.59333643982E-03 -1.42531227177E-01 -3.23206990568E-01
2.98500000000E+09 -2.79583570225E-01 -1.28042618638E-01 +5.26955481916E-03 +2.20650707235E-03 +5.19609999846E-03 +2.48817887250E-03 -1.79985285872E-01 -2.98138876186E-01
2.99000000000E+09 -2.98453984122E-01 -9.41305131426E-02 +4.78614399635E-03 +1.32261395085E-03 +4.96098121089E-03 +1.46079479198E-03 -2.13045620611E-01 -2.72094003182E-01
2.99500000000E+09 -3.14489050956E-01 -5.94082162127E-02 +4.63667692817E-03 +1.58422364394E-03 +4.90194950564E-03 +1.48916323031E-03 -2.47221913717E-01 -2.43946408470E-01
3.00000000000E+09 -3.27846362479E-01 -2.44301814832E-02 +5.68557238075E-03 +1.56231412743E-03 +5.80583082095E-03 +1.28337481580E-03 -2.79264614591E-01 -2.11910539747E-01
3.00500000000E+09 -3.38209479966E-01 +9.10260379930E-03 +6.70032336903E-03 +1.48011039115E-04 +6.43683793279E-03 -4.88130233886E-05 -3.08610161401E-01 -1.77300866134E-01
3.01000000000E+09 -3.46381040172E-01 +4.19007728734E-02 +6.36917012274E-03 -1.81023170939E-03 +6.10717858073E-03 -1.66844145308E-03 -3.35118932858E-01 -1.41240145887E-01
3.01500000000E+09 -3.52803722820E-01 +7.46653946183E-02 +5.31046302482E-03 -2.61199769724E-03 +5.32409326716E-03 -2.43505794963E-03 -3.57037623216E-01 -1.03932443753E-01
3.02000000000E+09 -3.55740355253E-01 +1.07343381764E-01 +4.35847697767E-03 -2.97326878744E-03 +4.53317135443E-03 -2.88925843064E-03 -3.76899128961E-01 -6.77420089780E-02
3.02500000000E+09 -3.55473035701E-01 +1.39861456318E-01 +4.60005547915E-03 -2.82925570730E-03 +4.67307056144E-03 -2.79625211357E-03 -3.95449664196E-01 -2.85438673113E-02
3.03000000000E+09 -3.51706376028E-01 +1.71682874326E-01 +4.25502316821E-03 -4.00994044128E-03 +4.27856500013E-03 -4.00367276948E-03 -4.09621437117E-01 +1.29948260144E-02
3.03500000000E+09 -3.45023836707E-01 +2.01268787563E-01 +3.39815827468E-03 -4.96515413086E-03 +3.43174356360E-03 -4.98684209112E-03 -4.19289007036E-01 +5.36891412890E-02
3.04000000000E+09 -3.37388784742E-01 +2.30979766142E-01 +1.64298333879E-03 -5.13007484240E-03 +1.81179948485E-03 -5.26413434739E-03 -4.27356631767E-01 +9.35882242594E-02
3.04500000000E+09 -3.28126907520E-01 +2.60004456082E-01 +1.11758047715E-03 -3.88732092583E-03 +1.20185161869E-03 -4.13054588047E-03 -4.33186388366E-01 +1.33780604660E-01
3.05000000000E+09 -3.16748201334E-01 +2.89508022626E-01 +1.57049995344E-03 -3.87607570712E-03 +1.44460205523E-03 -4.09059886501E-03 -4.36605929710E-01 +1.74327512468E-01
3.05500000000E+09 -3.03459550731E-01 +3.17974548774E-01 +1.66222742448E-03 -4.66726326175E-03 +1.40295075362E-03 -4.81520386047E-03 -4.35288604948E-01 +2.14584901530E-01
3.06000000000E+09 -2.88847085864E-01 +3.44505457168E-01 +4.93225137381E-04 -5.78389830832E-03 +2.02257723803E-04 -5.53950578137E-03 -4.31729274942E-01 +2.51487401524E-01
3.06500000000E+09 -2.74390909581E-01 +3.69570492774E-01 -1.35847456873E-03 -5.10332257940E-03 -1.18867781726E-03 -4.82525095502E-03 -4.27438998258E-01 +2.87791177403E-01
3.07000000000E+09 -2.59705422832E-01 +3.93641793320E-01 -1.77382003249E-03 -3.82354364137E-03 -1.55250277768E-03 -3.80834172779E-03 -4.21750922979E-01 +3.22981690083E-01
