# Hz S RI R 50
! CMT, C1220, 16058040, 17.2.0/1
! Date: 15/08/2018 10:09:46
! Data: Format (Calibration Info)
! Freq                      S11: Re/Im (F2)                       S21: Re/Im (F2)                       S12: Re/Im (F2)                       S22: Re/Im (F2)            
2.50000000000E+09 +5.99361180193E-01 +6.35475203883E-01 -5.22812751141E-04 -5.97010321635E-04 -6.01080907624E-04 -6.67959689811E-04 +5.73021897278E-01 +7.16729435548E-01
2.50500000000E+09 +6.05601118572E-01 +6.27941304081E-01 -5.53347123817E-04 -6.10689768666E-04 -5.78998816565E-04 -6.41542308344E-04 +5.78484389272E-01 +7.11250682288E-01
2.51000000000E+09 +6.12157684969E-01 +6.19964823260E-01 -6.98881808670E-04 -5.90531414624E-04 -6.85794437912E-04 -6.08352008017E-04 +5.84266695947E-01 +7.06087034723E-01
2.51500000000E+09 +6.18524243044E-01 +6.12025353311E-01 -8.08810513330E-04 -5.54439975855E-04 -7.80923198809E-04 -5.31491349288E-04 +5.89608326633E-01 +7.00624192192E-01
2.52000000000E+09 +6.24207903464E-01 +6.03868173170E-01 -8.82591852712E-04 -4.39408235586E-04 -8.87119497418E-04 -4.26852083640E-04 +5.94816445588E-01 +6.94760431142E-01
2.52500000000E+09 +6.29191532323E-01 +5.96221706011E-01 -9.37224104388E-04 -2.61958159586E-04 -9.47361373057E-04 -3.14118822130E-04 +6.00554662757E-01 +6.88241688465E-01
2.53000000000E+09 +6.33689511438E-01 +5.89145666612E-01 -9.08910605755E-04 -1.57828703776E-04 -9.31370278855E-04 -1.65223211796E-04 +6.06508511484E-01 +6.81244999159E-01
2.53500000000E+09 +6.37875147796E-01 +5.82688251525E-01 -9.07272019505E-04 -8.03502619598E-05 -8.83890543530E-04 -1.09991633028E-04 +6.12561317321E-01 +6.74398806295E-01
2.54000000000E+09 +6.41989161096E-01 +5.76471250427E-01 -9.09607135807E-04 -1.22193205890E-04 -9.08673081468E-04 -1.01336946385E-04 +6.18767004086E-01 +6.67635761490E-01
2.54500000000E+09 +6.46302682019E-01 +5.70430381054E-01 -1.00086078961E-03 +9.96302289903E-05 -1.02870600529E-03 +4.02496895579E-05 +6.24357920822E-01 +6.61149739044E-01
2.55000000000E+09 +6.50942885968E-01 +5.64235985741E-01 -9.01086225312E-04 +2.07507630880E-04 -9.79893032950E-04 +1.62004095614E-04 +6.29698693490E-01 +6.54959171416E-01
2.55500000000E+09 +6.56032038703E-01 +5.57358856711E-01 -8.36902689608E-04 +3.08697560471E-04 -9.51449452294E-04 +3.13379315212E-04 +6.34897335939E-01 +6.48484184012E-01
2.56000000000E+09 +6.61974799129E-01 +5.50373107300E-01 -7.70238830843E-04 +3.25171285647E-04 -8.84899668193E-04 +4.42197301917E-04 +6.40222993798E-01 +6.41417074664E-01
2.56500000000E+09 +6.68279185431E-01 +5.42151880287E-01 -7.17122724070E-04 +2.40081453248E-04 -7.45934738917E-04 +4.07054276861E-04 +6.45811771809E-01 +6.33859681731E-01
2.57000000000E+09 +6.74472820700E-01 +5.33699748191E-01 -8.64064275779E-04 +2.01188866530E-04 -7.78291400942E-04 +3.88017525798E-04 +6.51137225585E-01 +6.25671395222E-01
2.57500000000E+09 +6.80389896691E-01 +5.24590430948E-01 -1.03385222787E-03 +4.35781479494E-04 -8.41685862620E-04 +5.49094799741E-04 +6.56469078202E-01 +6.18105127452E-01
2.58000000000E+09 +6.85515128784E-01 +5.15683566698E-01 -9.45569253927E-04 +7.52882039011E-04 -7.30301910619E-04 +6.44554930101E-04 +6.61608985576E-01 +6.10462992531E-01
2.58500000000E+09 +6.90422574045E-01 +5.06983869193E-01 -7.31850095505E-04 +7.58673075434E-04 -6.73540455201E-04 +6.41978968135E-04 +6.66506277278E-01 +6.02903768021E-01
2.59000000000E+09 +6.94753629716E-01 +4.98451493595E-01 -6.77581346641E-04 +7.30688690624E-04 -6.10449604523E-04 +6.59114221388E-04 +6.71377341486E-01 +5.95299037077E-01
2.59500000000E+09 +6.99017121888E-01 +4.90093754348E-01 -6.83130201152E-04 +7.57374168357E-04 -6.99898943834E-04 +7.12049005086E-04 +6.76098960992E-01 +5.87207427839E-01
2.60000000000E+09 +7.03104943856E-01 +4.81490798951E-01 -6.86545693206E-04 +7.90682440119E-04 -7.11363811465E-04 +7.68570373997E-04 +6.81092438045E-01 +5.78784034203E-01
2.60500000000E+09 +7.07329788185E-01 +4.72337721849E-01 -7.97398694777E-04 +9.58135245498E-04 -7.88482055901E-04 +1.00988502815E-03 +6.86386061733E-01 +5.69980475023E-01
2.61000000000E+09 +7.11600882385E-01 +4.62241102222E-01 -5.39433608131E-04 +1.30634386094E-03 -5.37911463474E-04 +1.25206654603E-03 +6.91204058217E-01 +5.61214736414E-01
2.61500000000E+09 +7.16139473218E-01 +4.51337258126E-01 -1.96191659392E-04 +1.27813416394E-03 -2.08199192815E-04 +1.31225267357E-03 +6.96305263457E-01 +5.52548432384E-01
2.62000000000E+09 +7.20356452977E-01 +4.39099699773E-01 -9.52520056965E-05 +1.14290883274E-03 -4.37971883141E-05 +1.20322593491E-03 +7.00674183369E-01 +5.43331344302E-01
2.62500000000E+09 +7.24342559514E-01 +4.26161638782E-01 -9.90300606995E-05 +1.07127068601E-03 -2.32138581596E-05 +1.10497140603E-03 +7.05232280527E-01 +5.34762986982E-01
2.63000000000E+09 +7.27822351147E-01 +4.13030993460E-01 -1.26624595306E-04 +1.15997857012E-03 +4.71254130026E-05 +1.13240624399E-03 +7.10399074925E-01 +5.25771938274E-01
2.63500000000E+09 +7.30803244530E-01 +3.99965413664E-01 -5.71713014779E-05 +1.30747525914E-03 +9.33553330241E-05 +1.13263978046E-03 +7.15272045106E-01 +5.16204594422E-01
2.64000000000E+09 +7.33701996009E-01 +3.87168341885E-01 +1.67964035344E-04 +1.49496509267E-03 +1.99029167774E-04 +1.24372460973E-03 +7.19896513829E-01 +5.06426241977E-01
2.64500000000E+09 +7.36422557578E-01 +3.75082064662E-01 +5.90308356477E-04 +1.37143356221E-03 +3.87464185054E-04 +1.14316357956E-03 +7.24250256228E-01 +4.96668846252E-01
2.65000000000E+09 +7.38792603786E-01 +3.63268890491E-01 +5.25411370797E-04 +1.16580363184E-03 +3.85208935332E-04 +1.17834464351E-03 +7.28324981283E-01 +4.87053632445E-01
2.65500000000E+09 +7.40915575953E-01 +3.51595703024E-01 +5.32211476323E-04 +1.09874344517E-03 +4.81088857039E-04 +1.20573051607E-03 +7.32845126633E-01 +4.76993689101E-01
2.66000000000E+09 +7.43093832020E-01 +3.40021648669E-01 +5.95958856167E-04 +1.13018974444E-03 +6.56421591147E-04 +1.23398858787E-03 +7.37258881731E-01 +4.65365689983E-01
2.66500000000E+09 +7.45269419133E-01 +3.28481370196E-01 +6.37328018288E-04 +1.23689079182E-03 +6.98844079351E-04 +1.23538135487E-03 +7.41419938985E-01 +4.53892769184E-01
2.67000000000E+09 +7.47365079276E-01 +3.15949488203E-01 +9.85785250852E-04 +1.37094423416E-03 +9.74239044095E-04 +1.34154766613E-03 +7.45621155530E-01 +4.42951090282E-01
2.67500000000E+09 +7.48587144756E-01 +3.02569526384E-01 +1.32056824602E-03 +1.01184373861E-03 +1.24244930800E-03 +9.77197496160E-04 +7.49507901600E-01 +4.31720216891E-01
2.68000000000E+09 +7.49298681546E-01 +2.88961832960E-01 +1.17715612467E-03 +8.50748067898E-04 +1.10468549648E-03 +7.87206006377E-04 +7.53428769174E-01 +4.20544404316E-01
2.68500000000E+09 +7.49551603651E-01 +2.75062034586E-01 +1.25745409128E-03 +8.25531170389E-04 +1.18179891987E-03 +8.56425337272E-04 +7.56522703361E-01 +4.08850402665E-01
2.69000000000E+09 +7.49334265976E-01 +2.61127462016E-01 +1.34926068579E-03 +8.26309489702E-04 +1.38354319623E-03 +8.59214770760E-04 +7.59166678286E-01 +3.96884648732E-01
2.69500000000E+09 +7.48954836512E-01 +2.47671792330E-01 +1.56462614459E-03 +7.05404956277E-04 +1.51247805442E-03 +6.53570772288E-04 +7.61792436125E-01 +3.83957491526E-01
2.70000000000E+09 +7.48914721565E-01 +2.34446262800E-01 +1.77230577110E-03 +5.64776579195E-04 +1.74096249464E-03 +5.34577254441E-04 +7.64379906952E-01 +3.70638799310E-01
2.70500000000E+09 +7.49110568956E-01 +2.21462155598E-01 +1.79916466544E-03 +1.93144753973E-04 +1.73682340190E-03 +2.78281386339E-04 +7.67300443757E-01 +3.57220976678E-01
2.71000000000E+09 +7.49717174694E-01 +2.08500843036E-01 +1.80618059254E-03 +6.45713115691E-05 +1.81283111096E-03 +1.15645762406E-04 +7.70001776776E-01 +3.43721715597E-01
2.71500000000E+09 +7.50970337394E-01 +1.94887387852E-01 +1.82502186454E-03 -1.32639429279E-04 +1.97896390877E-03 -1.21003588648E-04 +7.72218561172E-01 +3.31189211435E-01
2.72000000000E+09 +7.52096672016E-01 +1.80576268001E-01 +1.68484158411E-03 -3.61139887759E-04 +1.80230328615E-03 -5.19899471642E-04 +7.74102618994E-01 +3.18415911343E-01
2.72500000000E+09 +7.52867002105E-01 +1.65193696482E-01 +1.60254455685E-03 -4.07075868734E-04 +1.54174241768E-03 -5.18934020314E-04 +7.75254094314E-01 +3.05118596917E-01
2.73000000000E+09 +7.52660072268E-01 +1.48706734206E-01 +1.72268887326E-03 -3.76801850879E-04 +1.50844168599E-03 -4.83915485020E-04 +7.76424871421E-01 +2.91210489750E-01
2.73500000000E+09 +7.50879556138E-01 +1.31516404441E-01 +1.83068883029E-03 -6.37503724189E-04 +1.56480411173E-03 -5.48123880779E-04 +7.77772404813E-01 +2.76131940641E-01
2.74000000000E+09 +7.47744854040E-01 +1.14961569488E-01 +1.95085366264E-03 -9.25412109954E-04 +1.77400549284E-03 -6.95828045973E-04 +7.78762671702E-01 +2.60758721118E-01
2.74500000000E+09 +7.44082635949E-01 +9.84789550133E-02 +1.77438809854E-03 -1.29880157169E-03 +1.85246293810E-03 -1.02590033572E-03 +7.79540124073E-01 +2.45719295856E-01
2.75000000000E+09 +7.39799736252E-01 +8.21864977011E-02 +1.35287517978E-03 -1.48902514665E-03 +1.56490760936E-03 -1.37171531496E-03 +7.80191909400E-01 +2.30972633253E-01
2.75500000000E+09 +7.34935130378E-01 +6.59227664293E-02 +1.32757118698E-03 -1.28321827379E-03 +1.46755781692E-03 -1.27093179299E-03 +7.80300421569E-01 +2.15849690485E-01
2.76000000000E+09 +7.30275813336E-01 +4.99738890588E-02 +1.55373634923E-03 -1.41810057148E-03 +1.63160945790E-03 -1.49912501680E-03 +7.79879240158E-01 +1.99895508164E-01
2.76500000000E+09 +7.25450828576E-01 +3.37990275705E-02 +1.39965334335E-03 -1.90671409387E-03 +1.42696266422E-03 -2.00223506366E-03 +7.78178677139E-01 +1.82741568313E-01
2.77000000000E+09 +7.21332381927E-01 +1.66288184201E-02 +1.16478030392E-03 -2.07393281247E-03 +1.19890584058E-03 -2.16210239113E-03 +7.76274730147E-01 +1.65721985822E-01
2.77500000000E+09 +7.16858060484E-01 -1.71361306863E-03 +8.41002582663E-04 -2.31370168505E-03 +7.93388049308E-04 -2.46781953081E-03 +7.74544842667E-01 +1.47844983903E-01
2.78000000000E+09 +7.11967116465E-01 -2.12754975549E-02 +5.36835763589E-04 -2.35734799642E-03 +3.61755283627E-04 -2.52890342403E-03 +7.72331361099E-01 +1.29931511661E-01
2.78500000000E+09 +7.05754038388E-01 -4.17438584581E-02 +3.69003951275E-04 -2.22319540542E-03 +2.04320288086E-04 -2.23615348737E-03 +7.69532541103E-01 +1.12360175016E-01
2.79000000000E+09 +6.98350884469E-01 -6.29784298241E-02 +2.99220875207E-04 -2.44617742053E-03 +2.38935709132E-04 -2.38358454173E-03 +7.66091394831E-01 +9.49170191371E-02
2.79500000000E+09 +6.89310767617E-01 -8.36446290913E-02 -1.68638630174E-04 -2.70218578663E-03 -2.25452731773E-04 -2.57508242005E-03 +7.61343391646E-01 +7.75618766472E-02
2.80000000000E+09 +6.79292047804E-01 -1.03777596820E-01 -3.95116784352E-04 -2.49369708733E-03 -2.68681763667E-04 -2.41315103737E-03 +7.56610207747E-01 +5.98477492459E-02
2.80500000000E+09 +6.68045245326E-01 -1.22833555742E-01 -7.20614623395E-04 -2.65712457914E-03 -6.17872922377E-04 -2.74893410680E-03 +7.50928115526E-01 +4.07894496293E-02
2.81000000000E+09 +6.56344065294E-01 -1.40966320397E-01 -1.06514638971E-03 -2.38053150087E-03 -1.08177565506E-03 -2.49811887622E-03 +7.44225099874E-01 +2.14991730195E-02
2.81500000000E+09 +6.43445608372E-01 -1.58533999160E-01 -1.23158929269E-03 -2.23338654847E-03 -1.27951410417E-03 -2.26155947089E-03 +7.36988014294E-01 +2.59024568476E-03
2.82000000000E+09 +6.29803282079E-01 -1.75469557556E-01 -1.31767271294E-03 -2.51703158812E-03 -1.42782108405E-03 -2.46868596839E-03 +7.29441855795E-01 -1.63405963881E-02
2.82500000000E+09 +6.15249161612E-01 -1.92092927215E-01 -2.14532137097E-03 -2.41048990250E-03 -2.16778396970E-03 -2.25128623248E-03 +7.21181538340E-01 -3.58370782951E-02
2.83000000000E+09 +5.99523211833E-01 -2.09919408967E-01 -2.50584057771E-03 -1.46661279294E-03 -2.29345847320E-03 -1.39986012689E-03 +7.11782135252E-01 -5.52702407323E-02
2.83500000000E+09 +5.81127155875E-01 -2.28431208477E-01 -2.01796768006E-03 -1.09107847133E-03 -1.89188173991E-03 -1.15639367121E-03 +7.01976682664E-01 -7.53561286211E-02
2.84000000000E+09 +5.60426457778E-01 -2.46131311971E-01 -1.85648997925E-03 -1.13053194271E-03 -1.78939399645E-03 -1.25834870502E-03 +6.90400062459E-01 -9.59462396576E-02
2.84500000000E+09 +5.38411661649E-01 -2.63907827915E-01 -1.85213521711E-03 -1.38361542509E-03 -1.87889660272E-03 -1.44257344567E-03 +6.78180392027E-01 -1.16042598056E-01
2.85000000000E+09 +5.14868647002E-01 -2.81192023075E-01 -2.40929815177E-03 -1.56246112444E-03 -2.41756660128E-03 -1.55237476761E-03 +6.65212800603E-01 -1.36584029522E-01
2.85500000000E+09 +4.90746515109E-01 -2.98152421114E-01 -2.80729520177E-03 -8.90652868248E-04 -2.79953354317E-03 -9.35788387797E-04 +6.50713865464E-01 -1.57544702541E-01
2.86000000000E+09 +4.65667129535E-01 -3.14702473893E-01 -2.45895430545E-03 -7.27164256172E-04 -2.37471959163E-03 -7.23509347367E-04 +6.34046147033E-01 -1.78077058007E-01
2.86500000000E+09 +4.39480111472E-01 -3.30113439075E-01 -2.85996377432E-03 -9.20203616232E-04 -2.78465529223E-03 -9.54498297969E-04 +6.16362728754E-01 -1.98125780002E-01
2.87000000000E+09 +4.13322106384E-01 -3.43380318706E-01 -3.18057015154E-03 -1.84679027412E-04 -3.24131254099E-03 -1.99236550727E-04 +5.97779726755E-01 -2.17185777597E-01
2.87500000000E+09 +3.88670579186E-01 -3.55556149570E-01 -3.04358833293E-03 -1.00694248249E-04 -3.01145119823E-03 -6.82048972084E-05 +5.79163527248E-01 -2.36836407984E-01
2.88000000000E+09 +3.62645600871E-01 -3.67883487185E-01 -3.40486716997E-03 +6.40727830536E-05 -3.33503481295E-03 +2.05287627126E-04 +5.58052616749E-01 -2.57072720623E-01
2.88500000000E+09 +3.35857005035E-01 -3.78371690591E-01 -3.26933832837E-03 +7.06942497601E-04 -3.09053189619E-03 +7.31507223286E-04 +5.34570320779E-01 -2.75260696243E-01
2.89000000000E+09 +3.07836999655E-01 -3.87574992481E-01 -3.16356049223E-03 +5.48609574575E-04 -2.98528302110E-03 +3.88225865729E-04 +5.10207851740E-01 -2.92732946095E-01
2.89500000000E+09 +2.77555272484E-01 -3.95164235851E-01 -3.99160950110E-03 +9.52468471651E-04 -3.88462521697E-03 +7.45086366848E-04 +4.83352600825E-01 -3.10723975512E-01
2.90000000000E+09 +2.45574178395E-01 -4.00013745215E-01 -4.02948886486E-03 +2.07533601366E-03 -4.17946137194E-03 +1.90936583508E-03 +4.55189869729E-01 -3.26412613309E-01
2.90500000000E+09 +2.12243200275E-01 -4.01998863974E-01 -3.43362115233E-03 +2.84534844576E-03 -3.53285595595E-03 +2.91427109243E-03 +4.26028649628E-01 -3.42620885562E-01
2.91000000000E+09 +1.77969067646E-01 -4.02227210861E-01 -2.57421689387E-03 +2.95770186484E-03 -2.48480850553E-03 +2.96896383421E-03 +3.94883341739E-01 -3.56731782832E-01
2.91500000000E+09 +1.43128045555E-01 -3.99772867974E-01 -2.97519441220E-03 +2.65367531792E-03 -2.79814171846E-03 +2.58605974382E-03 +3.62814699048E-01 -3.68488833802E-01
2.92000000000E+09 +1.07702242950E-01 -3.95232819820E-01 -3.17864630498E-03 +3.93899680450E-03 -2.96642432691E-03 +3.68969407351E-03 +3.30730412675E-01 -3.78630633497E-01
2.92500000000E+09 +7.21436824918E-02 -3.89122202153E-01 -2.12537426215E-03 +4.43127967714E-03 -2.28862099331E-03 +4.13098668265E-03 +2.95407748931E-01 -3.87861239722E-01
2.93000000000E+09 +3.65040424101E-02 -3.80183129712E-01 -1.46204855676E-03 +4.62568773118E-03 -1.72472601609E-03 +4.46842339142E-03 +2.58619951499E-01 -3.94959874397E-01
2.93500000000E+09 +1.35641853784E-03 -3.69630653130E-01 -8.66634506399E-04 +4.63883284051E-03 -1.05520613977E-03 +4.62585761021E-03 +2.19387327139E-01 -3.99971996389E-01
2.94000000000E+09 -3.30321442892E-02 -3.56405955715E-01 -8.99726299682E-04 +4.42354580978E-03 -9.77511869868E-04 +4.41291257889E-03 +1.80001798008E-01 -4.01203937557E-01
2.94500000000E+09 -6.67819577207E-02 -3.41072081659E-01 -7.16246737396E-04 +5.57520597307E-03 -7.93805115344E-04 +5.54063253630E-03 +1.42529645909E-01 -4.01936743930E-01
2.95000000000E+09 -9.94326304211E-02 -3.22902205598E-01 +9.96873210684E-04 +5.85977439023E-03 +8.16251837184E-04 +5.89160315675E-03 +1.02193364420E-01 -4.01824805157E-01
2.95500000000E+09 -1.30510876529E-01 -3.01718533315E-01 +1.85537702241E-03 +5.36065981868E-03 +1.76548304197E-03 +5.52316525686E-03 +6.02516521240E-02 -3.95983095854E-01
2.96000000000E+09 -1.60160143756E-01 -2.78595077556E-01 +2.40797056993E-03 +4.80815346317E-03 +2.43783116906E-03 +4.97098126315E-03 +1.97942046358E-02 -3.86406171733E-01
2.96500000000E+09 -1.88957470880E-01 -2.52485645338E-01 +2.69328710054E-03 +4.38342779421E-03 +2.84599715429E-03 +4.49276461175E-03 -2.04412535160E-02 -3.73991850233E-01
2.97000000000E+09 -2.15387152738E-01 -2.22808866934E-01 +2.87484306779E-03 +4.56679752016E-03 +3.00097099862E-03 +4.47497582624E-03 -6.00747348273E-02 -3.60229824619E-01
2.97500000000E+09 -2.38485662738E-01 -1.91536982166E-01 +3.95086439735E-03 +4.92008942918E-03 +3.85080195387E-03 +4.73861576841E-03 -1.01124908889E-01 -3.44229685196E-01
2.98000000000E+09 -2.59638321786E-01 -1.60006844577E-01 +5.30642057695E-03 +4.03640800845E-03 +5.09558858153E-03 +4.13722665991E-03 -1.40981800761E-01 -3.23556554898E-01
2.98500000000E+09 -2.79872604546E-01 -1.27920649802E-01 +5.84299352299E-03 +2.63852507513E-03 +5.77528151261E-03 +2.94182041137E-03 -1.78208882355E-01 -2.98661600970E-01
2.99000000000E+09 -2.98736919647E-01 -9.42090381189E-02 +5.53052633650E-03 +1.60796654499E-03 +5.70192889421E-03 +1.77352473807E-03 -2.11467111935E-01 -2.72878260260E-01
2.99500000000E+09 -3.14774727429E-01 -5.95165172771E-02 +5.32813069576E-03 +1.60783881450E-03 +5.54754483978E-03 +1.56934111821E-03 -2.45742990546E-01 -2.44940570084E-01
3.00000000000E+09 -3.28140118982E-01 -2.44119344168E-02 +6.32568194823E-03 +1.62164048725E-03 +6.39618610261E-03 +1.30633579165E-03 -2.77860419860E-01 -2.13132343338E-01
3.00500000000E+09 -3.38549174188E-01 +9.01708977064E-03 +7.28841838770E-03 +6.14514203602E-05 +6.99901434482E-03 -1.07761076198E-04 -3.07292665928E-01 -1.78832530861E-01
3.01000000000E+09 -3.46688579017E-01 +4.19382225428E-02 +7.08139876075E-03 -1.88134171890E-03 +6.75798134980E-03 -1.72222918690E-03 -3.34075241832E-01 -1.43122923147E-01
3.01500000000E+09 -3.53051138793E-01 +7.47924600441E-02 +5.89305371093E-03 -2.99646711404E-03 +5.90046573106E-03 -2.70793235379E-03 -3.56572126496E-01 -1.06018664908E-01
3.02000000000E+09 -3.55871548096E-01 +1.07526724917E-01 +4.79833298399E-03 -3.26761098097E-03 +4.95674339742E-03 -3.17946564305E-03 -3.76832368173E-01 -6.97956366417E-02
3.02500000000E+09 -3.55651181471E-01 +1.39947114217E-01 +4.90784102792E-03 -3.18088202573E-03 +5.09506331848E-03 -3.16867617267E-03 -3.95738060128E-01 -3.03649062303E-02
3.03000000000E+09 -3.51646787498E-01 +1.71851430532E-01 +4.61168585621E-03 -4.33001921431E-03 +4.69137466274E-03 -4.38097861972E-03 -4.10051985778E-01 +1.13713171513E-02
3.03500000000E+09 -3.44830105439E-01 +2.01363719681E-01 +3.67706398074E-03 -5.41902883560E-03 +3.78773128396E-03 -5.35839242432E-03 -4.20051695926E-01 +5.21282008983E-02
3.04000000000E+09 -3.37352416526E-01 +2.30859557208E-01 +1.81872606866E-03 -5.58952305907E-03 +2.03591012074E-03 -5.66405632629E-03 -4.28354681178E-01 +9.21482712076E-02
3.04500000000E+09 -3.28007288925E-01 +2.60030306700E-01 +1.23963151214E-03 -4.24767983576E-03 +1.37684090516E-03 -4.55444929042E-03 -4.34428628737E-01 +1.32680418037E-01
3.05000000000E+09 -3.16516540452E-01 +2.89499814143E-01 +1.61437915359E-03 -4.16591621942E-03 +1.50897053024E-03 -4.48617802602E-03 -4.37841014664E-01 +1.73532681983E-01
3.05500000000E+09 -3.03125524976E-01 +3.17877317661E-01 +1.78063413383E-03 -4.89116965534E-03 +1.48535639659E-03 -5.07767645304E-03 -4.36503799134E-01 +2.14078340980E-01
3.06000000000E+09 -2.88652121103E-01 +3.44351924198E-01 +6.42998156624E-04 -6.16922238431E-03 +3.68649189348E-04 -5.96939706785E-03 -4.32759768842E-01 +2.51110814407E-01
3.06500000000E+09 -2.74119207484E-01 +3.69403956299E-01 -1.40414236560E-03 -5.43452350765E-03 -1.30242010954E-03 -5.17215440829E-03 -4.28379626480E-01 +2.87447268537E-01
3.07000000000E+09 -2.59508475397E-01 +3.93254629537E-01 -1.76774462164E-03 -4.06624829221E-03 -1.58714130415E-03 -4.10801282970E-03 -4.22788719475E-01 +3.22846787656E-01
