# Hz S RI R 50
! CMT, C1220, 16058040, 17.2.0/1
! Date: 15/08/2018 10:34:32
! Data: Format (Calibration Info)
! Freq                      S11: Re/Im (F2)                       S21: Re/Im (F2)                       S12: Re/Im (F2)                       S22: Re/Im (F2)            
2.50000000000E+09 +5.79557685181E-01 +6.66484350938E-01 -2.79239342102E-04 +9.93451654770E-05 -2.80588532912E-04 +1.34385466392E-04 +5.65338623081E-01 +7.22362268015E-01
2.50500000000E+09 +5.87076070117E-01 +6.58484437357E-01 -1.70969662156E-04 +1.13917904971E-04 -1.49708559090E-04 +1.64327405602E-04 +5.70927793831E-01 +7.16913938110E-01
2.51000000000E+09 +5.94796062776E-01 +6.49990246774E-01 -1.15419050159E-04 +9.16813179400E-05 -1.14432922070E-04 +5.04827637109E-05 +5.76447154118E-01 +7.11753645756E-01
2.51500000000E+09 +6.02316541079E-01 +6.41841967009E-01 -1.37054090552E-04 +7.65384666687E-05 -1.20767259087E-04 +4.37752023412E-05 +5.81934026556E-01 +7.06338329266E-01
2.52000000000E+09 +6.09138033714E-01 +6.33900642218E-01 -2.29439166773E-04 +1.44105510438E-04 -2.08773293188E-04 +1.21986294740E-04 +5.87081912738E-01 +7.00404704019E-01
2.52500000000E+09 +6.15047790773E-01 +6.26369561630E-01 -1.26345493483E-04 +1.45480724604E-04 -1.59772355780E-04 +1.78421537102E-04 +5.92815038937E-01 +6.93951359481E-01
2.53000000000E+09 +6.20548493571E-01 +6.19215473731E-01 -1.23134457611E-04 +1.38578978676E-04 -1.15070541925E-04 +1.20932025658E-04 +5.98930944892E-01 +6.87045551517E-01
2.53500000000E+09 +6.25180897392E-01 +6.12111517681E-01 -1.68461333098E-04 +1.47863584113E-04 -1.34043295815E-04 +1.42361264174E-04 +6.04806631233E-01 +6.80327231702E-01
2.54000000000E+09 +6.29677449490E-01 +6.05115513186E-01 -4.51196655579E-05 +2.08445429174E-04 -6.87209623101E-05 +1.80749594687E-04 +6.10844440406E-01 +6.73954120944E-01
2.54500000000E+09 +6.34403463317E-01 +5.97787876486E-01 -8.35189451778E-05 +2.23776913015E-04 -8.20784917753E-05 +1.34896323017E-04 +6.16592203324E-01 +6.67687565064E-01
2.55000000000E+09 +6.39383128375E-01 +5.90202570103E-01 -9.67112593176E-05 +2.02693259284E-04 -5.76941648947E-05 +2.01104353207E-04 +6.22031963514E-01 +6.61483250124E-01
2.55500000000E+09 +6.44945367044E-01 +5.81959605032E-01 -2.02488296484E-05 +2.87556976331E-04 -6.76102001838E-05 +2.44790942592E-04 +6.27138781444E-01 +6.54959723829E-01
2.56000000000E+09 +6.51396157337E-01 +5.74013819624E-01 +5.71728148098E-05 +2.62851391162E-04 +8.23800490541E-05 +2.97547761153E-04 +6.32222851272E-01 +6.47665559247E-01
2.56500000000E+09 +6.58472949214E-01 +5.65247238380E-01 +4.77561445457E-05 +1.70309362544E-04 +8.05964223739E-05 +1.98650907278E-04 +6.37464191658E-01 +6.40268776372E-01
2.57000000000E+09 +6.65728925205E-01 +5.56317689757E-01 +4.05828199988E-06 +1.49270267797E-04 -6.83051188182E-06 +1.42353727094E-04 +6.42786631086E-01 +6.32368243311E-01
2.57500000000E+09 +6.72579164645E-01 +5.47469716969E-01 +1.42982503458E-05 +1.86703394950E-04 +3.16892954658E-05 +1.88183977361E-04 +6.48258467140E-01 +6.24697475938E-01
2.58000000000E+09 +6.78357390051E-01 +5.39028382758E-01 +3.56681649432E-05 +2.88873968364E-04 +1.43283924443E-05 +2.17676688250E-04 +6.53361075995E-01 +6.16945241064E-01
2.58500000000E+09 +6.83669851460E-01 +5.30877487133E-01 +9.51153823237E-05 +2.61447871009E-04 +9.05351221130E-05 +2.17571855932E-04 +6.58072051037E-01 +6.09420610208E-01
2.59000000000E+09 +6.88468219464E-01 +5.23047713666E-01 +1.29541399020E-04 +2.13173386945E-04 +8.45655239494E-05 +2.50313941460E-04 +6.62866439581E-01 +6.01890284540E-01
2.59500000000E+09 +6.93004628710E-01 +5.14707119398E-01 +1.65188530604E-04 +2.63899648816E-04 +1.57749789368E-04 +2.56431189207E-04 +6.67704855578E-01 +5.93926319792E-01
2.60000000000E+09 +6.96836642983E-01 +5.05796348270E-01 +2.55900464873E-04 +2.23704069776E-04 +2.80138534168E-04 +1.99606238929E-04 +6.72759781746E-01 +5.85709884243E-01
2.60500000000E+09 +7.00762277968E-01 +4.95944611064E-01 +2.62608198556E-04 +2.45734448973E-04 +2.31479110566E-04 +2.11092637246E-04 +6.78134012375E-01 +5.77131814391E-01
2.61000000000E+09 +7.04974640650E-01 +4.85302773736E-01 +3.91832519749E-04 +2.27410872797E-04 +3.51344919297E-04 +2.76260795140E-04 +6.83073415919E-01 +5.68262695842E-01
2.61500000000E+09 +7.09893171574E-01 +4.73342843032E-01 +5.31349180837E-04 +5.21636349641E-05 +5.51174608750E-04 +4.23232488336E-05 +6.88021721788E-01 +5.59781770398E-01
2.62000000000E+09 +7.14705722455E-01 +4.59978990820E-01 +3.56327981730E-04 -1.99096737204E-04 +3.96339570708E-04 -1.97755382841E-04 +6.92749476358E-01 +5.50798409130E-01
2.62500000000E+09 +7.19282533760E-01 +4.46154585864E-01 +2.16680185875E-04 -5.23788956561E-05 +1.77898933989E-04 -7.10003320273E-05 +6.97287753445E-01 +5.42087727003E-01
2.63000000000E+09 +7.23858730101E-01 +4.32347906530E-01 +2.48977814013E-04 +1.22475800654E-06 +2.41743037835E-04 -4.58890376550E-05 +7.01867096340E-01 +5.33212254367E-01
2.63500000000E+09 +7.27796802389E-01 +4.18782611199E-01 +2.69908699146E-04 -2.60279827203E-05 +3.13970094713E-04 -5.17428730664E-05 +7.06514884359E-01 +5.24184135732E-01
2.64000000000E+09 +7.31318627839E-01 +4.05905466087E-01 +4.23038652155E-04 -9.89878167817E-05 +3.56805048787E-04 -5.80617839122E-05 +7.11062697846E-01 +5.14698914522E-01
2.64500000000E+09 +7.34566723118E-01 +3.93950993666E-01 +4.09154157100E-04 -2.27283262764E-04 +3.46801482920E-04 -1.57309766815E-04 +7.15727898992E-01 +5.04972475653E-01
2.65000000000E+09 +7.37284845566E-01 +3.82780248000E-01 +2.95791347988E-04 -3.61086896761E-04 +3.55860627009E-04 -2.79214965426E-04 +7.19879619761E-01 +4.95043113337E-01
2.65500000000E+09 +7.40218349808E-01 +3.71753698399E-01 +1.86570823738E-04 -3.40093259630E-04 +2.32609879877E-04 -3.11293496645E-04 +7.23839071094E-01 +4.84693983234E-01
2.66000000000E+09 +7.42979201248E-01 +3.60061467704E-01 +1.92983640725E-04 -2.96816612939E-04 +2.29522013081E-04 -2.99355187136E-04 +7.27832030361E-01 +4.73591440809E-01
2.66500000000E+09 +7.45591069910E-01 +3.48401296725E-01 +1.88802974302E-04 -4.27175083011E-04 +1.54844285938E-04 -4.08147856329E-04 +7.32002782497E-01 +4.62703659485E-01
2.67000000000E+09 +7.48213127536E-01 +3.35491199145E-01 +5.04031950761E-05 -4.69838640106E-04 -1.49401265091E-05 -5.04262084509E-04 +7.36469175234E-01 +4.52003687356E-01
2.67500000000E+09 +7.50675559681E-01 +3.21608533575E-01 -1.26797550215E-04 -3.72840197619E-04 -1.07566085063E-04 -3.03939730347E-04 +7.40700896057E-01 +4.41022824778E-01
2.68000000000E+09 +7.52621674832E-01 +3.06838322084E-01 -8.50449484904E-05 -1.56008013897E-04 -5.74317767095E-05 -1.63735847661E-04 +7.44516536848E-01 +4.30016463273E-01
2.68500000000E+09 +7.54026135947E-01 +2.92036017588E-01 +7.63561218810E-05 -3.38274190477E-04 +8.24479266594E-05 -2.46945024150E-04 +7.47829854611E-01 +4.18534304310E-01
2.69000000000E+09 +7.55356733241E-01 +2.77231206699E-01 -1.11418065326E-04 -4.16727670918E-04 -8.88249042603E-05 -4.01866060845E-04 +7.50158027559E-01 +4.06625098585E-01
2.69500000000E+09 +7.56373049631E-01 +2.62852182002E-01 -1.39316824751E-04 -3.22766452717E-04 -1.16199229007E-04 -3.36560518271E-04 +7.52878468878E-01 +3.94243275425E-01
2.70000000000E+09 +7.57212999220E-01 +2.49021585254E-01 -2.44212977109E-04 -3.92556765694E-04 -2.21638552916E-04 -4.62229488440E-04 +7.55726517379E-01 +3.81451473305E-01
2.70500000000E+09 +7.58219454905E-01 +2.35577356198E-01 -3.52349150227E-04 -3.03043566498E-04 -3.44187127969E-04 -3.41530214360E-04 +7.58837495301E-01 +3.68348546770E-01
2.71000000000E+09 +7.58967643202E-01 +2.22341196776E-01 -3.96066131520E-04 -1.84854342842E-04 -4.22730746871E-04 -2.27092733069E-04 +7.61622411310E-01 +3.55472736205E-01
2.71500000000E+09 +7.60214262447E-01 +2.08803216406E-01 -3.17326596062E-04 -7.88733131518E-05 -3.36512098489E-04 -1.83812113302E-04 +7.64182550499E-01 +3.43051884791E-01
2.72000000000E+09 +7.61095510626E-01 +1.94235253635E-01 -4.40726901147E-04 -1.91993156354E-04 -4.86468017001E-04 -2.38296312944E-04 +7.66059065335E-01 +3.30305573192E-01
2.72500000000E+09 +7.61266347241E-01 +1.78591490760E-01 -6.05844249332E-04 -8.38695586749E-06 -6.25993181958E-04 +5.43903026744E-05 +7.67078980329E-01 +3.17110517491E-01
2.73000000000E+09 +7.60599498096E-01 +1.61912005883E-01 -4.88279012078E-04 +1.95393997742E-04 -4.44647910250E-04 +1.96407443620E-04 +7.68222205301E-01 +3.03469793556E-01
2.73500000000E+09 +7.58865872785E-01 +1.44120728826E-01 -5.16325688798E-04 +2.90341713234E-04 -4.58493703988E-04 +2.77860411429E-04 +7.69400139396E-01 +2.89281907306E-01
2.74000000000E+09 +7.56220020644E-01 +1.26301467113E-01 -2.20581727632E-04 +4.73487483089E-04 -2.40595994433E-04 +3.98584696389E-04 +7.71349063115E-01 +2.74578547312E-01
2.74500000000E+09 +7.52357009053E-01 +1.08072583633E-01 -1.66929241653E-04 +3.42590541278E-04 -1.83860123842E-04 +2.77280832075E-04 +7.72668218110E-01 +2.59337596337E-01
2.75000000000E+09 +7.47798661500E-01 +9.02589896408E-02 -1.66189343259E-04 +3.52180531882E-04 -1.86140354835E-04 +3.33974327605E-04 +7.73785620801E-01 +2.44431450467E-01
2.75500000000E+09 +7.42603605894E-01 +7.28697908734E-02 -8.78235201361E-05 +4.34265999538E-04 -1.44774820958E-04 +3.94914201359E-04 +7.73841788255E-01 +2.29614367502E-01
2.76000000000E+09 +7.38252002301E-01 +5.58938323074E-02 -6.21943868819E-06 +5.64718920483E-04 -3.46221583185E-05 +6.09337697411E-04 +7.74043480682E-01 +2.14552588083E-01
2.76500000000E+09 +7.33450101639E-01 +3.77629617445E-02 +2.72792194999E-04 +5.05468432220E-04 +2.74240366723E-04 +5.09304493662E-04 +7.73367282336E-01 +1.97740093668E-01
2.77000000000E+09 +7.27914302374E-01 +1.94211718469E-02 +3.16689147002E-04 +3.65945143275E-04 +2.98456409359E-04 +3.62744740432E-04 +7.72249363011E-01 +1.80727019431E-01
2.77500000000E+09 +7.22800273960E-01 +5.56014755105E-04 +3.81021112996E-04 +3.93327617729E-04 +3.25117336132E-04 +4.69330984438E-04 +7.71072758406E-01 +1.62926659772E-01
2.78000000000E+09 +7.17097208720E-01 -1.96021983669E-02 +5.42300172476E-04 +2.39541188878E-04 +5.68341545318E-04 +1.72638747667E-04 +7.69567702462E-01 +1.45094001220E-01
2.78500000000E+09 +7.10685662605E-01 -4.06311570635E-02 +6.54585873257E-04 +1.08135318618E-04 +6.41269329171E-04 -1.14282817956E-05 +7.67178697115E-01 +1.27150472041E-01
2.79000000000E+09 +7.03670665130E-01 -6.23142911757E-02 +5.00029064934E-04 -2.26076184614E-04 +4.20934156397E-04 -2.89673264081E-04 +7.64349238330E-01 +1.09932149841E-01
2.79500000000E+09 +6.95050313410E-01 -8.40668136677E-02 +3.63725386631E-04 -8.79061882000E-05 +3.26188392790E-04 -1.34980662013E-04 +7.60445166414E-01 +9.18158345889E-02
2.80000000000E+09 +6.85562673032E-01 -1.04654178928E-01 +3.46053874133E-04 -1.69900468039E-04 +3.59497499763E-04 -1.98732856770E-04 +7.55745430579E-01 +7.32859244129E-02
2.80500000000E+09 +6.75757581412E-01 -1.24144170570E-01 +4.02654455910E-04 -1.99529128253E-04 +4.37416874873E-04 -2.17329179164E-04 +7.50216371159E-01 +5.40638519415E-02
2.81000000000E+09 +6.65280086373E-01 -1.42370551226E-01 +5.20325338434E-04 -3.21305658625E-04 +5.14401012899E-04 -3.49712567244E-04 +7.43555772072E-01 +3.48156468036E-02
2.81500000000E+09 +6.54393387591E-01 -1.59336414074E-01 +3.67815996299E-04 -6.26939720758E-04 +3.65383668164E-04 -6.63953330086E-04 +7.36951585990E-01 +1.54036919423E-02
2.82000000000E+09 +6.42941534462E-01 -1.76378793896E-01 +2.04196742946E-04 -5.54260518087E-04 +1.94707801398E-04 -5.46922432606E-04 +7.29715434220E-01 -4.42040935435E-03
2.82500000000E+09 +6.29672987362E-01 -1.93066460784E-01 +3.45944538501E-04 -7.35967607248E-04 +3.10590502990E-04 -7.11679961804E-04 +7.21652934142E-01 -2.42570371539E-02
2.83000000000E+09 +6.15015594255E-01 -2.09689745870E-01 +7.96242009827E-05 -1.08611220199E-03 +1.01598037949E-04 -1.03742803121E-03 +7.12695082052E-01 -4.44499226631E-02
2.83500000000E+09 +5.99293025612E-01 -2.26946988300E-01 -4.32639969758E-04 -1.09161752525E-03 -3.56064098262E-04 -1.07214389967E-03 +7.02410993460E-01 -6.44379330134E-02
2.84000000000E+09 +5.81659884976E-01 -2.45099034983E-01 -7.18649454618E-04 -8.26331511171E-04 -6.70283128103E-04 -8.02644021546E-04 +6.91754222636E-01 -8.51963809871E-02
2.84500000000E+09 +5.61268301807E-01 -2.64669509456E-01 -7.47559685742E-04 -4.91584819140E-04 -7.51912881236E-04 -5.47786874733E-04 +6.79405633474E-01 -1.05876520481E-01
2.85000000000E+09 +5.38938562419E-01 -2.83363146025E-01 -5.97019587344E-04 -4.71149547990E-04 -6.16235987152E-04 -4.44305289061E-04 +6.65936698770E-01 -1.26491286553E-01
2.85500000000E+09 +5.15485390020E-01 -3.01716127706E-01 -8.81066623743E-04 -4.52788435568E-04 -9.13865247333E-04 -4.48246666091E-04 +6.51548040317E-01 -1.46778365152E-01
2.86000000000E+09 +4.91658040476E-01 -3.19430925496E-01 -8.08141137840E-04 -3.69730022693E-04 -8.34576994304E-04 -3.92917721462E-04 +6.36651533444E-01 -1.67839223237E-01
2.86500000000E+09 +4.67303906010E-01 -3.35696986196E-01 -8.97053612076E-04 -2.03820157499E-04 -8.58325719759E-04 -1.96517769889E-04 +6.19238493318E-01 -1.89415120210E-01
2.87000000000E+09 +4.43443118653E-01 -3.50949404625E-01 -9.65789012051E-04 -4.71942483594E-04 -1.02286408502E-03 -4.70822604342E-04 +5.99587577672E-01 -2.10387933213E-01
2.87500000000E+09 +4.18952263793E-01 -3.65513158606E-01 -1.65673250889E-03 -3.37174871160E-04 -1.65436450281E-03 -2.84482360460E-04 +5.79134692969E-01 -2.29853196477E-01
2.88000000000E+09 +3.93677219704E-01 -3.78017540317E-01 -1.91871291566E-03 +2.89277337709E-04 -1.85105143119E-03 +3.75964860017E-04 +5.57489393207E-01 -2.49508651148E-01
2.88500000000E+09 +3.68449751212E-01 -3.89330141189E-01 -1.94924711173E-03 +1.21116465329E-03 -1.81558175892E-03 +1.17030202498E-03 +5.34137901176E-01 -2.68131103772E-01
2.89000000000E+09 +3.41560897237E-01 -4.00595292848E-01 -9.53343737660E-04 +1.74246331006E-03 -9.35261469164E-04 +1.62880893749E-03 +5.08521488897E-01 -2.86375632867E-01
2.89500000000E+09 +3.11427476534E-01 -4.10128227878E-01 -4.69951743997E-04 +1.07699767646E-03 -4.82919085199E-04 +1.04471996375E-03 +4.81339945427E-01 -3.03406297705E-01
2.90000000000E+09 +2.80046861616E-01 -4.17494196679E-01 -9.15315823042E-04 +1.16306025943E-03 -9.53289195229E-04 +1.08993220340E-03 +4.52999858917E-01 -3.19783915712E-01
2.90500000000E+09 +2.46861722153E-01 -4.23007413182E-01 -6.96819611801E-04 +1.49851309446E-03 -7.88117674290E-04 +1.54870566883E-03 +4.22793323231E-01 -3.35629048739E-01
2.91000000000E+09 +2.12942634247E-01 -4.27460316543E-01 -6.44370929150E-04 +1.86984825610E-03 -5.72111607636E-04 +1.81742839752E-03 +3.90852664493E-01 -3.48921307016E-01
2.91500000000E+09 +1.77431081322E-01 -4.30281581021E-01 +1.14536117498E-04 +2.02724104363E-03 +1.34457428235E-04 +1.95450979523E-03 +3.59146399932E-01 -3.59825991135E-01
2.92000000000E+09 +1.41799405108E-01 -4.30651760396E-01 +3.38980198724E-04 +1.62249077237E-03 +2.48537666007E-04 +1.57029178062E-03 +3.26193699444E-01 -3.69823875399E-01
2.92500000000E+09 +1.06575802327E-01 -4.29856674290E-01 +2.88535885347E-04 +2.18917877071E-03 +1.04323802189E-04 +2.07696978445E-03 +2.91158079674E-01 -3.77676295339E-01
2.93000000000E+09 +7.11258164960E-02 -4.26530146279E-01 +1.19894673729E-03 +1.89229868740E-03 +1.02995727606E-03 +1.96482425799E-03 +2.54134707428E-01 -3.83933439962E-01
2.93500000000E+09 +3.76260253629E-02 -4.21666885600E-01 +1.21212958109E-03 +1.84940984311E-03 +1.16753478050E-03 +1.87539280272E-03 +2.15953194674E-01 -3.87484013501E-01
2.94000000000E+09 +3.26293840866E-03 -4.15794535189E-01 +1.98610707754E-03 +1.70844408262E-03 +1.95386272839E-03 +1.77983364611E-03 +1.77238609634E-01 -3.89367711436E-01
2.94500000000E+09 -3.14387402328E-02 -4.06430080995E-01 +1.97218550240E-03 +1.05014749334E-03 +1.98448397574E-03 +1.06619158038E-03 +1.38200878845E-01 -3.89508028019E-01
2.95000000000E+09 -6.55304261344E-02 -3.93704647080E-01 +2.04218548984E-03 +7.71645600591E-04 +2.06796982016E-03 +8.26436861619E-04 +9.84747802557E-02 -3.87213290423E-01
2.95500000000E+09 -9.87749068892E-02 -3.77999646885E-01 +2.26256700962E-03 +2.27027587301E-04 +2.36152211980E-03 +3.47684322433E-04 +5.77466585195E-02 -3.80816344371E-01
2.96000000000E+09 -1.30899561884E-01 -3.59605384157E-01 +1.77088725615E-03 +2.25024644079E-04 +1.80293648438E-03 +1.74283502613E-04 +1.87059326602E-02 -3.70687100181E-01
2.96500000000E+09 -1.62721730686E-01 -3.39311950327E-01 +2.23165902168E-03 +4.99950553339E-04 +2.30655494829E-03 +4.41675456928E-04 -2.12158481855E-02 -3.59037998649E-01
2.97000000000E+09 -1.93358698039E-01 -3.15113718038E-01 +3.04698301647E-03 -4.14879163726E-04 +2.97564084695E-03 -5.77528771360E-04 -5.99858428783E-02 -3.43893240511E-01
2.97500000000E+09 -2.21894217432E-01 -2.89770890780E-01 +2.56091894733E-03 -1.36177902021E-03 +2.45789791846E-03 -1.43096406672E-03 -9.92755160113E-02 -3.27847201993E-01
2.98000000000E+09 -2.49844742793E-01 -2.62472859582E-01 +1.93996870805E-03 -1.67310907230E-03 +1.80633557480E-03 -1.58990324209E-03 -1.37624902859E-01 -3.06851274141E-01
2.98500000000E+09 -2.74972539399E-01 -2.33177350027E-01 +1.54274503983E-03 -1.51157015284E-03 +1.52498407636E-03 -1.48068062299E-03 -1.73258693497E-01 -2.83673445638E-01
2.99000000000E+09 -2.98397942322E-01 -2.04121961517E-01 +1.69826126780E-03 -1.89445675332E-03 +1.77726910126E-03 -1.86125372143E-03 -2.07208838366E-01 -2.57698558659E-01
2.99500000000E+09 -3.22093239469E-01 -1.73994473224E-01 +1.34343771257E-03 -2.26346676213E-03 +1.36720911278E-03 -2.36548249736E-03 -2.39009255965E-01 -2.29240849410E-01
3.00000000000E+09 -3.43126598293E-01 -1.40863425276E-01 +1.01779658365E-03 -2.69513702713E-03 +8.39308472175E-04 -2.76698998026E-03 -2.69714929477E-01 -1.98093899642E-01
3.00500000000E+09 -3.60949226365E-01 -1.08267816488E-01 -1.52299827423E-05 -2.74391782357E-03 -9.84132083103E-05 -2.64133174628E-03 -2.97699192783E-01 -1.65169524796E-01
3.01000000000E+09 -3.77840967494E-01 -7.46302176280E-02 -3.60656576401E-04 -2.01292454849E-03 -2.56877567221E-04 -1.92556497814E-03 -3.24016725143E-01 -1.30168012252E-01
3.01500000000E+09 -3.90863888556E-01 -4.10417480799E-02 +5.79093965005E-05 -2.42802480055E-03 +1.46862690805E-04 -2.32288118414E-03 -3.46588501990E-01 -9.45025118392E-02
3.02000000000E+09 -4.02567565950E-01 -6.91478304773E-03 -6.69876796082E-04 -2.62880732454E-03 -5.57034873442E-04 -2.66373076245E-03 -3.66745108484E-01 -5.80478369704E-02
3.02500000000E+09 -4.10362091825E-01 +2.74638359261E-02 -1.29449372184E-03 -2.78657941774E-03 -1.16609206360E-03 -2.75486747421E-03 -3.83918796925E-01 -1.95407131133E-02
3.03000000000E+09 -4.15105681705E-01 +6.15473044738E-02 -2.24569451608E-03 -1.96823450347E-03 -2.15802570113E-03 -2.02898663635E-03 -3.97040045559E-01 +1.91600101253E-02
3.03500000000E+09 -4.16506300333E-01 +9.42235229503E-02 -1.90831580965E-03 -9.85821287950E-04 -1.85500923201E-03 -1.17049595476E-03 -4.08172731809E-01 +5.77455436142E-02
3.04000000000E+09 -4.16893030669E-01 +1.25790715356E-01 -1.65369220731E-03 -1.21815360020E-03 -1.69051221147E-03 -1.38701371687E-03 -4.17089242569E-01 +9.69520052790E-02
3.04500000000E+09 -4.15546050541E-01 +1.59036304543E-01 -2.01610557473E-03 -1.12605392503E-03 -2.15963660376E-03 -1.23102967564E-03 -4.23329016766E-01 +1.36611377154E-01
3.05000000000E+09 -4.10489478525E-01 +1.92621866321E-01 -2.32010503809E-03 -8.52652258864E-04 -2.48277111787E-03 -8.59671357472E-04 -4.26708564580E-01 +1.75612229557E-01
3.05500000000E+09 -4.02965901862E-01 +2.25036985285E-01 -2.70683409874E-03 -7.56254041870E-05 -2.71275080235E-03 +3.64025637380E-05 -4.27526831157E-01 +2.14024933651E-01
3.06000000000E+09 -3.93883682666E-01 +2.56902199266E-01 -2.34441323658E-03 +4.36844301933E-04 -2.24376768887E-03 +5.70168313149E-04 -4.25674006340E-01 +2.51878147128E-01
3.06500000000E+09 -3.83178502751E-01 +2.87889339511E-01 -1.88780227902E-03 +8.12330402601E-04 -1.81470569058E-03 +7.23616444936E-04 -4.20687329163E-01 +2.88498286257E-01
3.07000000000E+09 -3.71675701653E-01 +3.17558245565E-01 -1.61784750828E-03 +7.67211115794E-04 -1.56983995175E-03 +6.72023700839E-04 -4.14495648192E-01 +3.23286400156E-01
