# Hz S RI R 50
! CMT, C1220, 16058040, 17.2.0/1
! Date: 15/08/2018 10:06:11
! Data: Format (Calibration Info)
! Freq                      S11: Re/Im (F2)                       S21: Re/Im (F2)                       S12: Re/Im (F2)                       S22: Re/Im (F2)            
2.50000000000E+09 +5.99826706095E-01 +6.29725499890E-01 -5.35499864921E-04 -3.79260128038E-04 -5.32748573454E-04 -4.65809658348E-04 +5.72130529124E-01 +7.16956617016E-01
2.50500000000E+09 +6.06016157893E-01 +6.21983212494E-01 -4.92750714699E-04 -3.81285819953E-04 -5.64267516582E-04 -4.08379401212E-04 +5.77671210823E-01 +7.11571737160E-01
2.51000000000E+09 +6.12427445820E-01 +6.13933206755E-01 -5.45302325213E-04 -3.88381659580E-04 -5.76931543420E-04 -3.75465435138E-04 +5.83433581730E-01 +7.06590090009E-01
2.51500000000E+09 +6.18617828168E-01 +6.05862019203E-01 -6.41187635078E-04 -3.62314019492E-04 -6.48055664236E-04 -3.44688452177E-04 +5.88710184994E-01 +7.01213634660E-01
2.52000000000E+09 +6.24131365768E-01 +5.97740174381E-01 -6.93357050183E-04 -2.63300713887E-04 -6.68772095646E-04 -2.77501980247E-04 +5.93920551519E-01 +6.95274836366E-01
2.52500000000E+09 +6.28911631371E-01 +5.90260077271E-01 -7.63615043997E-04 -1.57010884331E-04 -7.56680859601E-04 -1.79912564777E-04 +5.99715900773E-01 +6.88668787294E-01
2.53000000000E+09 +6.33289099760E-01 +5.83260789618E-01 -7.48759925020E-04 -5.83417053031E-05 -7.41657809904E-04 -2.57000173231E-05 +6.05690110571E-01 +6.81530301598E-01
2.53500000000E+09 +6.37333802999E-01 +5.76969124528E-01 -6.87242220326E-04 +1.16972089428E-05 -7.05078645635E-04 +8.71293901438E-06 +6.11791593556E-01 +6.74818198067E-01
2.54000000000E+09 +6.41312765649E-01 +5.70962935888E-01 -8.00811286361E-04 +1.26308513510E-05 -7.14705712207E-04 -1.38538179286E-05 +6.17848264078E-01 +6.68054645551E-01
2.54500000000E+09 +6.45557025543E-01 +5.65042231654E-01 -7.80028305309E-04 +1.61870141924E-04 -7.90880328400E-04 +8.09202563849E-05 +6.23542686486E-01 +6.61582315559E-01
2.55000000000E+09 +6.50480848829E-01 +5.58972227641E-01 -6.99833391026E-04 +2.56189244438E-04 -7.63259901196E-04 +1.79510418694E-04 +6.28929743760E-01 +6.55366165515E-01
2.55500000000E+09 +6.55650568709E-01 +5.52052249382E-01 -6.13309974236E-04 +3.35828073971E-04 -7.53424170364E-04 +3.28148097464E-04 +6.33911843267E-01 +6.48870339101E-01
2.56000000000E+09 +6.61606094977E-01 +5.44948633186E-01 -5.04988753778E-04 +2.80839936447E-04 -6.00890710696E-04 +4.25190192936E-04 +6.39155953373E-01 +6.41764587480E-01
2.56500000000E+09 +6.68030551585E-01 +5.36715855155E-01 -5.28177844457E-04 +2.28651661234E-04 -5.23342469154E-04 +3.71598781336E-04 +6.44746604369E-01 +6.34236761798E-01
2.57000000000E+09 +6.74209264761E-01 +5.28034713321E-01 -6.66678151998E-04 +1.60547595655E-04 -5.98805422017E-04 +2.89614790839E-04 +6.50134538887E-01 +6.26021432845E-01
2.57500000000E+09 +6.80118340605E-01 +5.18636743704E-01 -8.02017686937E-04 +3.72238472684E-04 -6.27908687868E-04 +4.18406649495E-04 +6.55651049889E-01 +6.18456314680E-01
2.58000000000E+09 +6.85057408031E-01 +5.09786309487E-01 -7.29824188682E-04 +5.99729045729E-04 -5.87226782080E-04 +5.43476481433E-04 +6.60725912874E-01 +6.10827992274E-01
2.58500000000E+09 +6.89765248262E-01 +5.01027009388E-01 -5.13627095654E-04 +6.70532849220E-04 -5.03585336695E-04 +5.45670671085E-04 +6.65573494984E-01 +6.03414248816E-01
2.59000000000E+09 +6.93964186534E-01 +4.92506066724E-01 -4.38735679891E-04 +6.63223794746E-04 -5.04308175635E-04 +6.11898280944E-04 +6.70309160991E-01 +5.95935742082E-01
2.59500000000E+09 +6.98110330721E-01 +4.84135260572E-01 -4.24149878367E-04 +6.33974641411E-04 -4.35628621886E-04 +6.37912243719E-04 +6.74999068383E-01 +5.87859399368E-01
2.60000000000E+09 +7.01888919645E-01 +4.75624681681E-01 -4.32999957279E-04 +6.24956246729E-04 -4.84635565467E-04 +6.22827900458E-04 +6.80038051677E-01 +5.79475994527E-01
2.60500000000E+09 +7.06041164348E-01 +4.66544505651E-01 -5.35187462353E-04 +7.53792661703E-04 -5.84225278504E-04 +7.65777478525E-04 +6.85259100965E-01 +5.70654770371E-01
2.61000000000E+09 +7.10319860530E-01 +4.56376299748E-01 -4.72815344995E-04 +1.09229195904E-03 -5.12147073219E-04 +1.03432680613E-03 +6.90128574475E-01 +5.61859008076E-01
2.61500000000E+09 +7.14899245087E-01 +4.45456765750E-01 -1.76335332491E-04 +1.06350750556E-03 -1.65600740233E-04 +1.07893264864E-03 +6.95228805857E-01 +5.53191871351E-01
2.62000000000E+09 +7.19127065760E-01 +4.33240629395E-01 -2.63564808895E-05 +1.00958924517E-03 -2.60420703070E-05 +1.01468240723E-03 +6.99742774790E-01 +5.44152288571E-01
2.62500000000E+09 +7.23197899527E-01 +4.20203187683E-01 +6.67032465792E-06 +8.78054462903E-04 +6.96202215940E-05 +9.32977562034E-04 +7.04388541521E-01 +5.35412024011E-01
2.63000000000E+09 +7.26706339228E-01 +4.06855213882E-01 -1.05335256620E-06 +9.53768921699E-04 +1.26478889089E-04 +9.00048191372E-04 +7.09520752842E-01 +5.26548647967E-01
2.63500000000E+09 +7.29711798268E-01 +3.93565814970E-01 +8.98800148020E-06 +1.01108632785E-03 +1.06924700010E-04 +8.90028573904E-04 +7.14299048211E-01 +5.17234369810E-01
2.64000000000E+09 +7.32165247762E-01 +3.80654818128E-01 +1.52863599240E-04 +1.21665095810E-03 +1.57452767146E-04 +1.01199610261E-03 +7.19131386142E-01 +5.07335486679E-01
2.64500000000E+09 +7.34792826517E-01 +3.68434094625E-01 +5.30864065084E-04 +1.10117124114E-03 +3.71631597878E-04 +9.76293759883E-04 +7.23466674348E-01 +4.97418569306E-01
2.65000000000E+09 +7.37004872493E-01 +3.56590083848E-01 +5.10434760888E-04 +9.70860318389E-04 +3.90212516467E-04 +9.67482063617E-04 +7.27505268868E-01 +4.87759259943E-01
2.65500000000E+09 +7.39013876873E-01 +3.44610559398E-01 +5.64492350426E-04 +9.34554476386E-04 +4.79739863494E-04 +1.03879639892E-03 +7.32011718066E-01 +4.77605492119E-01
2.66000000000E+09 +7.40985869190E-01 +3.32889270100E-01 +6.01056238800E-04 +9.32331713904E-04 +6.58259227827E-04 +9.81438806817E-04 +7.36611986744E-01 +4.65992861308E-01
2.66500000000E+09 +7.43029788252E-01 +3.21164153235E-01 +6.44278081895E-04 +9.59214734412E-04 +6.85279478972E-04 +9.72173286947E-04 +7.40756442160E-01 +4.54613893181E-01
2.67000000000E+09 +7.44822942208E-01 +3.08396932389E-01 +9.12199219753E-04 +1.06669001886E-03 +9.49543378015E-04 +9.78499677410E-04 +7.44913885438E-01 +4.43615190415E-01
2.67500000000E+09 +7.46132922727E-01 +2.94875785857E-01 +1.23238354170E-03 +7.85875863051E-04 +1.12390492058E-03 +6.88590819012E-04 +7.48741076807E-01 +4.32495755990E-01
2.68000000000E+09 +7.46661859940E-01 +2.81112207817E-01 +1.11286646766E-03 +5.34611730970E-04 +1.05057727774E-03 +5.19729885948E-04 +7.52392468584E-01 +4.21576942155E-01
2.68500000000E+09 +7.46550704630E-01 +2.67167406843E-01 +1.05398657315E-03 +5.18295683184E-04 +1.05164132184E-03 +5.48892287483E-04 +7.55716799408E-01 +4.09978859149E-01
2.69000000000E+09 +7.46199982236E-01 +2.53538606443E-01 +1.21129973977E-03 +5.83438256457E-04 +1.12888923065E-03 +5.71331351014E-04 +7.58342800425E-01 +3.97788245651E-01
2.69500000000E+09 +7.45724702424E-01 +2.40272218533E-01 +1.30413483448E-03 +4.61070364613E-04 +1.27663137769E-03 +4.21017767042E-04 +7.60950644448E-01 +3.84905057676E-01
2.70000000000E+09 +7.45683644754E-01 +2.27280691265E-01 +1.45766372356E-03 +3.78853419975E-04 +1.39592970718E-03 +4.21506311225E-04 +7.63770834443E-01 +3.71696230148E-01
2.70500000000E+09 +7.45705193330E-01 +2.14501358839E-01 +1.60065097874E-03 +7.16294561765E-05 +1.51435213260E-03 +1.31903882250E-04 +7.66876593105E-01 +3.58342801696E-01
2.71000000000E+09 +7.46165520749E-01 +2.01534046268E-01 +1.60025109847E-03 -1.55132517396E-04 +1.57877037149E-03 -7.24782410049E-05 +7.69795399375E-01 +3.44825168630E-01
2.71500000000E+09 +7.47095759028E-01 +1.88090037692E-01 +1.48232470576E-03 -3.45366721922E-04 +1.64377804753E-03 -3.68252892074E-04 +7.71773107633E-01 +3.32081175545E-01
2.72000000000E+09 +7.47821403062E-01 +1.73849653245E-01 +1.32768735230E-03 -5.41671287791E-04 +1.37339001468E-03 -6.03874291245E-04 +7.73864109249E-01 +3.19520345101E-01
2.72500000000E+09 +7.48374117023E-01 +1.58508756225E-01 +1.20654384644E-03 -4.85451384787E-04 +1.16292016546E-03 -6.32810955119E-04 +7.74940216295E-01 +3.06123613108E-01
2.73000000000E+09 +7.47802119516E-01 +1.42048119400E-01 +1.32175556420E-03 -4.44891083918E-04 +1.20776441011E-03 -4.91793396411E-04 +7.76385182066E-01 +2.92128477436E-01
2.73500000000E+09 +7.45746983366E-01 +1.24835362443E-01 +1.45424631836E-03 -7.26091130486E-04 +1.24642448427E-03 -6.67638098227E-04 +7.77574554071E-01 +2.76858875687E-01
2.74000000000E+09 +7.42466642216E-01 +1.08351010459E-01 +1.40905602927E-03 -9.60012799342E-04 +1.35206979168E-03 -7.30122576990E-04 +7.78761897573E-01 +2.61468030590E-01
2.74500000000E+09 +7.38548340687E-01 +9.19915392595E-02 +1.38570652398E-03 -1.14563283643E-03 +1.49900096636E-03 -9.53371812865E-04 +7.79676004211E-01 +2.46109959692E-01
2.75000000000E+09 +7.34082844765E-01 +7.58025265441E-02 +1.02582720802E-03 -1.43829037560E-03 +1.19555795094E-03 -1.37190540655E-03 +7.80150526918E-01 +2.31323742413E-01
2.75500000000E+09 +7.29250460050E-01 +5.98830036812E-02 +8.89937883922E-04 -1.33088402288E-03 +1.00681399073E-03 -1.40820740197E-03 +7.80298149485E-01 +2.16551721293E-01
2.76000000000E+09 +7.24495063621E-01 +4.41528911555E-02 +1.01957500463E-03 -1.44644515175E-03 +1.11753244140E-03 -1.45881695701E-03 +7.79805087533E-01 +2.00519952897E-01
2.76500000000E+09 +7.19551994922E-01 +2.84258899886E-02 +8.20838365430E-04 -1.80981516637E-03 +8.42380494753E-04 -1.92521243429E-03 +7.78046394235E-01 +1.83388335105E-01
2.77000000000E+09 +7.15546223184E-01 +1.18504043513E-02 +5.32438201587E-04 -1.82511534973E-03 +5.30145649036E-04 -1.89108942343E-03 +7.76483241729E-01 +1.66389976723E-01
2.77500000000E+09 +7.11289657187E-01 -6.26220037134E-03 +3.10969423283E-04 -1.90805500488E-03 +2.09985488525E-04 -1.94974593318E-03 +7.74818674528E-01 +1.48011163695E-01
2.78000000000E+09 +7.06484362120E-01 -2.58057084493E-02 -6.34881674280E-06 -1.94008355365E-03 -7.30959914850E-05 -2.03940187066E-03 +7.72348275365E-01 +1.30012691183E-01
2.78500000000E+09 +6.99971135326E-01 -4.64913049113E-02 -1.74918305701E-04 -1.71708044772E-03 -2.82476974751E-04 -1.69904483213E-03 +7.69806726935E-01 +1.12273012952E-01
2.79000000000E+09 +6.92213387897E-01 -6.75186247423E-02 -1.31492617808E-04 -1.85290135108E-03 -1.90529993294E-04 -1.77588503272E-03 +7.66089726359E-01 +9.49475232006E-02
2.79500000000E+09 +6.82750043688E-01 -8.79346450727E-02 -5.74931901862E-04 -2.08451619537E-03 -5.65070871923E-04 -1.94165869928E-03 +7.61649396292E-01 +7.76639016984E-02
2.80000000000E+09 +6.72785559731E-01 -1.07936374784E-01 -8.12296500083E-04 -1.66848393319E-03 -7.06702093178E-04 -1.59593124075E-03 +7.56972365175E-01 +5.95716030375E-02
2.80500000000E+09 +6.61379590559E-01 -1.27039886618E-01 -8.49547958992E-04 -1.77686702557E-03 -8.23840865340E-04 -1.80010949945E-03 +7.51194938918E-01 +4.02766204262E-02
2.81000000000E+09 +6.49475492948E-01 -1.45041840661E-01 -1.21034236231E-03 -1.47500988166E-03 -1.21474412482E-03 -1.53835030023E-03 +7.44449106401E-01 +2.10224126218E-02
2.81500000000E+09 +6.36521711963E-01 -1.62316619347E-01 -1.14253422591E-03 -1.24151973772E-03 -1.20854545136E-03 -1.23824639780E-03 +7.37219216368E-01 +1.49014827894E-03
2.82000000000E+09 +6.22820941043E-01 -1.78906095132E-01 -1.14246291265E-03 -1.48430482386E-03 -1.17759145154E-03 -1.40406338576E-03 +7.29204533469E-01 -1.77319208995E-02
2.82500000000E+09 +6.08335839062E-01 -1.95269027218E-01 -1.69760411679E-03 -1.39653659075E-03 -1.66279842818E-03 -1.32744125497E-03 +7.20711437002E-01 -3.70365925403E-02
2.83000000000E+09 +5.92584070898E-01 -2.12830234434E-01 -1.92165824848E-03 -6.75391548354E-04 -1.85960080807E-03 -6.36748608504E-04 +7.11329749866E-01 -5.63314460097E-02
2.83500000000E+09 +5.74364868519E-01 -2.30878932507E-01 -1.34401224183E-03 -3.82951539002E-04 -1.26734356373E-03 -4.19423960853E-04 +7.01308880081E-01 -7.64798071985E-02
2.84000000000E+09 +5.53794144985E-01 -2.48368728488E-01 -1.18397467502E-03 -5.58464677207E-04 -1.14031828713E-03 -5.84557498344E-04 +6.89625091317E-01 -9.71947159910E-02
2.84500000000E+09 +5.31794360270E-01 -2.65877254871E-01 -1.21066437564E-03 -8.31808427127E-04 -1.17800375470E-03 -9.11530356475E-04 +6.77009343141E-01 -1.17418728622E-01
2.85000000000E+09 +5.08197849619E-01 -2.82836128491E-01 -1.65207630019E-03 -1.01472137797E-03 -1.64571210372E-03 -1.00422998468E-03 +6.63513141330E-01 -1.38106747727E-01
2.85500000000E+09 +4.84148041624E-01 -2.99262080422E-01 -1.84605518226E-03 -4.99556738024E-04 -1.80976825532E-03 -4.52694257735E-04 +6.48553096073E-01 -1.58858469793E-01
2.86000000000E+09 +4.59090945638E-01 -3.15739052784E-01 -1.47420532620E-03 -5.66558906697E-04 -1.46360562296E-03 -5.67482834056E-04 +6.31734290076E-01 -1.79234784780E-01
2.86500000000E+09 +4.32890828351E-01 -3.30647698240E-01 -2.01754453189E-03 -8.45136288135E-04 -2.06179899917E-03 -8.40157623387E-04 +6.13988151609E-01 -1.98986765569E-01
2.87000000000E+09 +4.06819372638E-01 -3.43453557017E-01 -2.60428790386E-03 -1.08038590388E-04 -2.53379040573E-03 -1.46765759393E-04 +5.95540713861E-01 -2.17667938257E-01
2.87500000000E+09 +3.82126045409E-01 -3.55118096093E-01 -2.29754544864E-03 +1.78973243851E-04 -2.30610945629E-03 +2.10780569173E-04 +5.76828824385E-01 -2.37574980924E-01
2.88000000000E+09 +3.56793235368E-01 -3.67018567081E-01 -2.30233412542E-03 +2.84791371329E-04 -2.18970155611E-03 +3.45817216767E-04 +5.55214753711E-01 -2.57427850190E-01
2.88500000000E+09 +3.30437314515E-01 -3.77522707309E-01 -2.16680104389E-03 +5.93656200525E-04 -2.04981037295E-03 +5.93647763847E-04 +5.31553735247E-01 -2.75530348655E-01
2.89000000000E+09 +3.02443949389E-01 -3.86764767435E-01 -2.17790721100E-03 +2.59277493141E-04 -1.98209569128E-03 +2.85474106549E-04 +5.07034785883E-01 -2.92775287732E-01
2.89500000000E+09 +2.72220649674E-01 -3.94165782571E-01 -2.70889491150E-03 +6.43189563591E-04 -2.66703090648E-03 +4.55369400481E-04 +4.79937240760E-01 -3.10256766614E-01
2.90000000000E+09 +2.40352700415E-01 -3.98641282877E-01 -2.91004258057E-03 +1.28409596649E-03 -2.95458528033E-03 +1.22394261840E-03 +4.51904556632E-01 -3.25756913313E-01
2.90500000000E+09 +2.07155872197E-01 -4.00156669152E-01 -2.54304822873E-03 +1.89904198192E-03 -2.65441486502E-03 +1.93219359960E-03 +4.22949135276E-01 -3.41654659170E-01
2.91000000000E+09 +1.73454953320E-01 -3.99620511306E-01 -1.96676282077E-03 +2.23091078472E-03 -1.92367763047E-03 +2.21226752067E-03 +3.91828556836E-01 -3.55731424479E-01
2.91500000000E+09 +1.39386172188E-01 -3.97046800277E-01 -2.13836035392E-03 +1.85786655485E-03 -1.97352171028E-03 +1.82527124004E-03 +3.59719859059E-01 -3.67287104729E-01
2.92000000000E+09 +1.04380864217E-01 -3.92413554917E-01 -2.32273760515E-03 +2.88884516821E-03 -2.22955301485E-03 +2.63653916787E-03 +3.27017706905E-01 -3.77105016663E-01
2.92500000000E+09 +6.94424725579E-02 -3.85977058211E-01 -1.46023466356E-03 +2.98403068279E-03 -1.47393499547E-03 +2.74163557147E-03 +2.91961534123E-01 -3.85474079422E-01
2.93000000000E+09 +3.43932840896E-02 -3.77184249514E-01 -1.28832983679E-03 +2.95119496458E-03 -1.37865599185E-03 +2.81744552731E-03 +2.55277453956E-01 -3.92148543068E-01
2.93500000000E+09 -5.74920691642E-04 -3.66685109954E-01 -1.03550656849E-03 +3.20713023558E-03 -1.17218801496E-03 +3.27298344319E-03 +2.16580072220E-01 -3.96720233468E-01
2.94000000000E+09 -3.47539696349E-02 -3.53034419664E-01 -1.16400155036E-03 +3.24003805800E-03 -1.21844820201E-03 +3.22500897891E-03 +1.77899229792E-01 -3.97977869663E-01
2.94500000000E+09 -6.78770641833E-02 -3.37435023837E-01 -1.09059194623E-03 +4.30449591442E-03 -1.22897479472E-03 +4.28001829361E-03 +1.40311901600E-01 -3.99331176320E-01
2.95000000000E+09 -9.98598117767E-02 -3.19081861204E-01 +2.90350018112E-04 +4.82815700667E-03 +1.23515146130E-04 +4.79016576535E-03 +9.97997454155E-02 -3.98210974404E-01
2.95500000000E+09 -1.30124732120E-01 -2.98059632369E-01 +1.23802893956E-03 +4.44747299624E-03 +1.09940515838E-03 +4.59299821087E-03 +5.86637535783E-02 -3.91858194662E-01
2.96000000000E+09 -1.59505472308E-01 -2.75158778246E-01 +1.76412874864E-03 +3.96411331589E-03 +1.76037680253E-03 +4.16680249194E-03 +1.87967334318E-02 -3.82087374818E-01
2.96500000000E+09 -1.87999621568E-01 -2.48935697964E-01 +2.00078965871E-03 +3.65960266670E-03 +2.07805970934E-03 +3.77668287432E-03 -2.08580645923E-02 -3.69359084639E-01
2.97000000000E+09 -2.13802905885E-01 -2.19165474422E-01 +2.19747822608E-03 +3.73967549947E-03 +2.32144906916E-03 +3.63284763774E-03 -5.94705792877E-02 -3.55819992437E-01
2.97500000000E+09 -2.36216792644E-01 -1.87920210227E-01 +2.79788940534E-03 +4.09563267303E-03 +2.74767438836E-03 +3.96141421587E-03 -9.99240326822E-02 -3.40671275292E-01
2.98000000000E+09 -2.56682897566E-01 -1.56363826395E-01 +4.06760740833E-03 +3.78705919393E-03 +3.89195724201E-03 +3.78235692297E-03 -1.39718308330E-01 -3.20881055438E-01
2.98500000000E+09 -2.75921554088E-01 -1.24257736881E-01 +5.04990147483E-03 +2.66374962085E-03 +5.03844368110E-03 +2.84360346153E-03 -1.77363922796E-01 -2.96395135363E-01
2.99000000000E+09 -2.93826852367E-01 -9.11435666931E-02 +4.93729029608E-03 +1.29496500740E-03 +5.10147077916E-03 +1.39014605880E-03 -2.10902826102E-01 -2.70473867207E-01
2.99500000000E+09 -3.09400202149E-01 -5.67674758924E-02 +4.37147496909E-03 +1.17519634634E-03 +4.58647907755E-03 +1.05195274641E-03 -2.44532216205E-01 -2.42289905147E-01
3.00000000000E+09 -3.22177286688E-01 -2.20756118659E-02 +5.15967653632E-03 +1.30322541214E-03 +5.19450543360E-03 +9.81457545367E-04 -2.76453491177E-01 -2.10460935899E-01
3.00500000000E+09 -3.31743210380E-01 +1.11884397402E-02 +5.85712713755E-03 +1.23248751210E-04 +5.62935528145E-03 -3.07326668336E-05 -3.05143276224E-01 -1.76573976162E-01
3.01000000000E+09 -3.39460925903E-01 +4.36622110689E-02 +5.79957097130E-03 -1.45976357268E-03 +5.52303867980E-03 -1.29402239949E-03 -3.32082603107E-01 -1.41480806633E-01
3.01500000000E+09 -3.45323776838E-01 +7.59609206697E-02 +4.89126430968E-03 -2.55361978750E-03 +4.95552685728E-03 -2.27469547408E-03 -3.54788015227E-01 -1.04895166295E-01
3.02000000000E+09 -3.47574896406E-01 +1.08240104582E-01 +3.85082210653E-03 -2.77848223234E-03 +3.99552101675E-03 -2.66639884738E-03 -3.75343773544E-01 -6.86273619001E-02
3.02500000000E+09 -3.46627815451E-01 +1.39803955680E-01 +3.99053518540E-03 -2.37680531716E-03 +4.11258748282E-03 -2.38163505394E-03 -3.94153701911E-01 -2.95236973753E-02
3.03000000000E+09 -3.42586488206E-01 +1.70789779685E-01 +4.04353071860E-03 -3.61133437389E-03 +4.14568752582E-03 -3.58705379576E-03 -4.08027548301E-01 +1.20825959909E-02
3.03500000000E+09 -3.35497242488E-01 +1.99711092621E-01 +3.08202229239E-03 -4.68416870168E-03 +3.19713327171E-03 -4.65713829446E-03 -4.18029571327E-01 +5.26382952743E-02
3.04000000000E+09 -3.27881615564E-01 +2.28328024643E-01 +1.29928178208E-03 -4.67472721250E-03 +1.49152398049E-03 -4.77802965229E-03 -4.25774697589E-01 +9.24011498234E-02
3.04500000000E+09 -3.18241281000E-01 +2.56764089891E-01 +8.95112135348E-04 -3.49151585410E-03 +9.49042103330E-04 -3.60662707019E-03 -4.32091886185E-01 +1.31975038807E-01
3.05000000000E+09 -3.06769398046E-01 +2.85319846898E-01 +1.35204687973E-03 -3.24947953191E-03 +1.33897579369E-03 -3.47937445694E-03 -4.36187643286E-01 +1.72027027841E-01
3.05500000000E+09 -2.93306427968E-01 +3.13153226869E-01 +1.71171683223E-03 -4.00233406846E-03 +1.60446701479E-03 -4.11991029281E-03 -4.35781275033E-01 +2.12318455862E-01
3.06000000000E+09 -2.78606542456E-01 +3.38829151030E-01 +8.15831321634E-04 -5.36853996985E-03 +5.65449454984E-04 -5.22257740410E-03 -4.32777616266E-01 +2.49631844162E-01
3.06500000000E+09 -2.63969337924E-01 +3.63385890095E-01 -1.32525318361E-03 -4.96066088700E-03 -1.19259459792E-03 -4.71041671493E-03 -4.28580966622E-01 +2.86086552080E-01
3.07000000000E+09 -2.48989802429E-01 +3.86450976607E-01 -1.80021212215E-03 -3.41823694705E-03 -1.52819224831E-03 -3.48985005623E-03 -4.23206290980E-01 +3.21330492108E-01
