# Hz S RI R 50
! CMT, C1220, 16058040, 17.2.0/1
! Date: 15/08/2018 10:17:54
! Data: Format (Calibration Info)
! Freq                      S11: Re/Im (F2)                       S21: Re/Im (F2)                       S12: Re/Im (F2)                       S22: Re/Im (F2)            
2.50000000000E+09 +5.94590045626E-01 +6.34270937813E-01 -3.99714867127E-04 +8.56331986414E-05 -4.37360418838E-04 +7.33274699759E-05 +5.73467478681E-01 +7.16284971735E-01
2.50500000000E+09 +6.00865889176E-01 +6.26494853131E-01 -3.14295216287E-04 +1.51083596492E-04 -3.62423717439E-04 +1.83571370620E-04 +5.78928702219E-01 +7.10705133692E-01
2.51000000000E+09 +6.07485353600E-01 +6.18363511214E-01 -2.59199678182E-04 +1.73228966859E-04 -2.74770191088E-04 +2.32475373064E-04 +5.84397204765E-01 +7.05556660198E-01
2.51500000000E+09 +6.13708587589E-01 +6.10451443959E-01 -2.70436389381E-04 +1.88081447598E-04 -2.38175271040E-04 +1.70637377413E-04 +5.89586318295E-01 +7.00246326458E-01
2.52000000000E+09 +6.19574391999E-01 +6.02637970289E-01 -2.28344584036E-04 +2.08001195575E-04 -2.09315388112E-04 +1.89526453097E-04 +5.94816210810E-01 +6.94261833799E-01
2.52500000000E+09 +6.24765109656E-01 +5.95574528792E-01 -2.23454491378E-04 +1.74226427505E-04 -2.44474758838E-04 +1.42137377624E-04 +6.00300958634E-01 +6.87943764986E-01
2.53000000000E+09 +6.29483907498E-01 +5.88674387080E-01 -2.31002722648E-04 +2.44900146730E-04 -1.85771670869E-04 +1.75071668427E-04 +6.06554356432E-01 +6.81048543684E-01
2.53500000000E+09 +6.33940474495E-01 +5.82564924932E-01 -2.37304595542E-04 +2.56608330922E-04 -2.11239460690E-04 +2.56751326619E-04 +6.12575342846E-01 +6.74092191425E-01
2.54000000000E+09 +6.37964501365E-01 +5.76519970915E-01 -1.73362288697E-04 +3.06239433640E-04 -1.71993975894E-04 +2.68959387411E-04 +6.18351539467E-01 +6.67492284267E-01
2.54500000000E+09 +6.42240271947E-01 +5.70857554510E-01 -7.77436101236E-05 +3.34226193659E-04 -7.49437735918E-05 +3.48972619333E-04 +6.24140561348E-01 +6.61163224558E-01
2.55000000000E+09 +6.47204473910E-01 +5.64980428163E-01 +2.36814247154E-05 +2.49820800394E-04 +4.55804017007E-06 +2.92165943332E-04 +6.29602630659E-01 +6.54625170715E-01
2.55500000000E+09 +6.52661617863E-01 +5.58147836112E-01 +4.74217145654E-05 +1.49891598020E-04 +2.94264995507E-05 +1.51430653079E-04 +6.34754190554E-01 +6.48133874637E-01
2.56000000000E+09 +6.58790472796E-01 +5.50832526399E-01 -8.26910316661E-05 +1.38416815212E-05 -6.52311516232E-05 +7.14320467163E-05 +6.39995683845E-01 +6.40914907255E-01
2.56500000000E+09 +6.65165255086E-01 +5.42438106247E-01 -2.21247401946E-04 +6.87836099893E-05 -1.99988975185E-04 +1.05705726039E-04 +6.45421644816E-01 +6.33293887450E-01
2.57000000000E+09 +6.71242764059E-01 +5.33920920443E-01 -3.12877919219E-04 +3.05507848287E-04 -2.10060831954E-04 +3.17442719290E-04 +6.50625933174E-01 +6.25431164810E-01
2.57500000000E+09 +6.77411599589E-01 +5.25122309777E-01 -1.33890353359E-04 +3.56675338988E-04 -1.07103239292E-04 +3.60352853140E-04 +6.55811258906E-01 +6.17899155501E-01
2.58000000000E+09 +6.82971704664E-01 +5.16366940189E-01 -7.39145961116E-05 +3.99590184371E-04 -4.58141529261E-06 +3.34596225291E-04 +6.60878835008E-01 +6.10684288805E-01
2.58500000000E+09 +6.88203907693E-01 +5.07418412154E-01 -3.51334782105E-05 +3.31405336345E-04 -5.98224537538E-05 +2.76073922288E-04 +6.65677725710E-01 +6.02975866454E-01
2.59000000000E+09 +6.92659049297E-01 +4.98804703168E-01 -1.06657994942E-04 +3.89623203010E-04 -1.54418133991E-04 +3.12923340616E-04 +6.70293710456E-01 +5.95494328474E-01
2.59500000000E+09 +6.96844059554E-01 +4.90312674400E-01 -8.92358632683E-05 +4.93948120374E-04 -1.31024411343E-04 +4.72402922021E-04 +6.75177730289E-01 +5.87662352355E-01
2.60000000000E+09 +7.00793524042E-01 +4.81709257918E-01 -2.27149463299E-05 +5.17071537149E-04 -2.23801796515E-05 +5.33473994795E-04 +6.80198087749E-01 +5.79241594298E-01
2.60500000000E+09 +7.04978171678E-01 +4.72563576717E-01 +3.20188148456E-05 +5.64237833584E-04 +6.90314033585E-06 +5.48483078355E-04 +6.85432095726E-01 +5.70736036789E-01
2.61000000000E+09 +7.09309710998E-01 +4.62438591302E-01 +2.62819856841E-04 +6.09484650908E-04 +2.61582995700E-04 +6.29893373900E-04 +6.90660161362E-01 +5.61999205950E-01
2.61500000000E+09 +7.13806008523E-01 +4.51129694517E-01 +3.69199540884E-04 +4.44327185905E-04 +3.85742960044E-04 +4.60926080218E-04 +6.95557247044E-01 +5.53285078518E-01
2.62000000000E+09 +7.17881519914E-01 +4.38756953231E-01 +3.50401146318E-04 +3.49214638714E-04 +3.74646596506E-04 +3.54419909054E-04 +7.00325252443E-01 +5.44312464873E-01
2.62500000000E+09 +7.21838331103E-01 +4.25660338332E-01 +2.87065255120E-04 +3.78190596688E-04 +3.30281166526E-04 +3.73091639273E-04 +7.05127743284E-01 +5.35413762592E-01
2.63000000000E+09 +7.25488063292E-01 +4.12283147981E-01 +3.41241483539E-04 +3.96780913733E-04 +4.32177993922E-04 +3.78873766246E-04 +7.09950749564E-01 +5.26149785130E-01
2.63500000000E+09 +7.28724190414E-01 +3.99043086172E-01 +4.49769054296E-04 +4.25397002099E-04 +4.64194067843E-04 +2.76240574189E-04 +7.14807616373E-01 +5.16735181930E-01
2.64000000000E+09 +7.31618613844E-01 +3.86298457100E-01 +5.17984602383E-04 +4.13489841038E-04 +4.65289496840E-04 +3.18268547297E-04 +7.19646053554E-01 +5.06962035158E-01
2.64500000000E+09 +7.34701074331E-01 +3.74450684018E-01 +5.98843281438E-04 +2.91900039190E-04 +5.35395147746E-04 +2.92763390822E-04 +7.24428357722E-01 +4.97209512407E-01
2.65000000000E+09 +7.36988896699E-01 +3.63223322832E-01 +6.07616570010E-04 +2.04508109041E-04 +5.76017263152E-04 +3.07574121198E-04 +7.28765639409E-01 +4.87201013858E-01
2.65500000000E+09 +7.39655063187E-01 +3.52349136879E-01 +7.45773040719E-04 +1.41644274029E-04 +7.24135707985E-04 +2.59282527411E-04 +7.32662187033E-01 +4.76759747671E-01
2.66000000000E+09 +7.42603302363E-01 +3.41503651294E-01 +6.60628445738E-04 +4.61376378784E-05 +6.85818892499E-04 +4.61161716790E-05 +7.36484010911E-01 +4.65611225749E-01
2.66500000000E+09 +7.45333065086E-01 +3.30290221336E-01 +7.23766941937E-04 +1.21396145678E-05 +7.18217525631E-04 -3.16518975067E-05 +7.40363337561E-01 +4.54426177511E-01
2.67000000000E+09 +7.47520541892E-01 +3.18212830050E-01 +7.09512556581E-04 -1.66549081514E-04 +6.82669825047E-04 -2.23736615759E-04 +7.44575826177E-01 +4.43703663763E-01
2.67500000000E+09 +7.49379288072E-01 +3.05551619790E-01 +6.01592307781E-04 -1.51071743780E-04 +5.29941474781E-04 -1.90406369524E-04 +7.48805379874E-01 +4.32540460037E-01
2.68000000000E+09 +7.50780791668E-01 +2.91990342880E-01 +7.17365470363E-04 -1.08842698968E-04 +7.35121704933E-04 -6.33808314402E-05 +7.52719904462E-01 +4.21240122065E-01
2.68500000000E+09 +7.51532900152E-01 +2.77868900795E-01 +7.42366576169E-04 -3.29363482822E-04 +7.29498638273E-04 -2.32434960258E-04 +7.55418303106E-01 +4.09658202998E-01
2.69000000000E+09 +7.51866895792E-01 +2.63732287863E-01 +6.79753536728E-04 -2.94124289494E-04 +6.94976089194E-04 -2.67586044235E-04 +7.57876191653E-01 +3.98084433223E-01
2.69500000000E+09 +7.51948052647E-01 +2.49695892818E-01 +7.34807137695E-04 -3.56218401667E-04 +7.31887925559E-04 -3.64143230930E-04 +7.60604343813E-01 +3.85640438097E-01
2.70000000000E+09 +7.52258794567E-01 +2.35807595733E-01 +8.49173685400E-04 -5.86466472249E-04 +8.07200132362E-04 -5.55514040976E-04 +7.63687355854E-01 +3.72293068036E-01
2.70500000000E+09 +7.52738374144E-01 +2.22325661283E-01 +7.22660591214E-04 -7.44560755034E-04 +6.73728357231E-04 -6.82709126332E-04 +7.66235209078E-01 +3.58686378369E-01
2.71000000000E+09 +7.53784453419E-01 +2.08772752855E-01 +6.18699061235E-04 -8.67562289447E-04 +6.19992362505E-04 -9.09422803041E-04 +7.69004253885E-01 +3.45831713315E-01
2.71500000000E+09 +7.55247279118E-01 +1.94790004436E-01 +3.04980325598E-04 -9.42544524661E-04 +3.11276698220E-04 -1.02754382552E-03 +7.71551469898E-01 +3.33243869063E-01
2.72000000000E+09 +7.56629377174E-01 +1.80096539097E-01 +1.70320517370E-04 -7.64574077207E-04 +1.42468390083E-04 -7.60956909475E-04 +7.73771023559E-01 +3.20572347579E-01
2.72500000000E+09 +7.57392647897E-01 +1.64481267530E-01 +4.67118832639E-04 -7.50636186507E-04 +3.83072253804E-04 -7.57626855752E-04 +7.75156355378E-01 +3.07374298755E-01
2.73000000000E+09 +7.57156505876E-01 +1.48240615985E-01 +4.01984826387E-04 -1.18783946219E-03 +2.54254178121E-04 -1.09017882712E-03 +7.76558426918E-01 +2.93516390415E-01
2.73500000000E+09 +7.55685405167E-01 +1.31041397862E-01 +4.21789144924E-05 -1.15925744330E-03 +2.50455373024E-05 -1.02024167174E-03 +7.77771022181E-01 +2.78775258161E-01
2.74000000000E+09 +7.52982076614E-01 +1.14100719028E-01 -1.62572250601E-04 -1.04478669385E-03 -8.22683524981E-05 -9.51188266333E-04 +7.79181753509E-01 +2.63760903761E-01
2.74500000000E+09 +7.49016709863E-01 +9.66832701697E-02 -2.40967659893E-04 -9.14235721306E-04 -1.10062451379E-04 -9.13565379174E-04 +7.80317743785E-01 +2.48425915369E-01
2.75000000000E+09 +7.43980402000E-01 +7.99095414527E-02 -1.20009438448E-04 -9.19683501890E-04 -7.08053558847E-05 -1.01672983771E-03 +7.81309219298E-01 +2.33565279594E-01
2.75500000000E+09 +7.38589756064E-01 +6.33151892613E-02 -2.67308488433E-04 -1.12678671290E-03 -1.46440143546E-04 -1.22540553439E-03 +7.81578578638E-01 +2.18051683548E-01
2.76000000000E+09 +7.33468875375E-01 +4.69001104191E-02 -5.17594754534E-04 -1.14195748473E-03 -5.36168881973E-04 -1.29747570350E-03 +7.81103319378E-01 +2.02420832199E-01
2.76500000000E+09 +7.28677671638E-01 +3.00351446723E-02 -7.45662715018E-04 -1.02734529655E-03 -8.51996747899E-04 -1.10423735062E-03 +7.80407203169E-01 +1.85558643092E-01
2.77000000000E+09 +7.23626811282E-01 +1.21887366095E-02 -8.22838258216E-04 -8.85952823040E-04 -8.96314395857E-04 -9.09157487180E-04 +7.79237108215E-01 +1.67713874983E-01
2.77500000000E+09 +7.18865836797E-01 -6.29072690738E-03 -9.15373952765E-04 -6.82490075573E-04 -9.72044700416E-04 -7.06292017489E-04 +7.77320487762E-01 +1.49421835534E-01
2.78000000000E+09 +7.13900669496E-01 -2.57736058438E-02 -9.31095444098E-04 -6.61420105609E-04 -9.45313121907E-04 -5.83919708962E-04 +7.75264819044E-01 +1.31313020061E-01
2.78500000000E+09 +7.07726589755E-01 -4.64661647789E-02 -9.12840068508E-04 -7.45133553739E-04 -8.84431049767E-04 -7.13047467696E-04 +7.72669616204E-01 +1.13421012928E-01
2.79000000000E+09 +7.00403143728E-01 -6.69384590818E-02 -1.14903363248E-03 -7.11838981932E-04 -1.16094804983E-03 -5.77327397110E-04 +7.69221916984E-01 +9.58278117247E-02
2.79500000000E+09 +6.92367161058E-01 -8.74683155392E-02 -1.29949179457E-03 -4.54754816456E-04 -1.23988252975E-03 -4.33668707857E-04 +7.65143049961E-01 +7.78874547354E-02
2.80000000000E+09 +6.82221551835E-01 -1.07537832951E-01 -1.24684574962E-03 -1.59122190377E-04 -1.17888247628E-03 -1.88382045295E-04 +7.60451418487E-01 +5.91645571667E-02
2.80500000000E+09 +6.71356060149E-01 -1.26339308089E-01 -1.09768900943E-03 -2.60224695082E-04 -1.05777324926E-03 -2.97620694648E-04 +7.54426520602E-01 +3.95145742257E-02
2.81000000000E+09 +6.59370117405E-01 -1.44167426636E-01 -1.33626770551E-03 -3.36868832082E-04 -1.40287830462E-03 -3.97654920943E-04 +7.47497447041E-01 +2.01595107399E-02
2.81500000000E+09 +6.46662992747E-01 -1.61199336553E-01 -1.53228540110E-03 -2.10771538550E-04 -1.62631679817E-03 -1.37775068740E-04 +7.39955752041E-01 +8.91189298226E-04
2.82000000000E+09 +6.32853509536E-01 -1.77758999186E-01 -1.88866001402E-03 +1.59628140109E-04 -1.83374785733E-03 +2.52406653821E-04 +7.32685870860E-01 -1.87256241884E-02
2.82500000000E+09 +6.18544678269E-01 -1.94264765427E-01 -1.63040685205E-03 +5.88992768612E-04 -1.57182835127E-03 +6.37848158843E-04 +7.23349343135E-01 -3.89754961177E-02
2.83000000000E+09 +6.02560659841E-01 -2.11665021494E-01 -1.39280169935E-03 +7.35325641741E-04 -1.32621686440E-03 +6.64226493246E-04 +7.13437870656E-01 -5.84942064076E-02
2.83500000000E+09 +5.85292482918E-01 -2.29392040926E-01 -1.53068309004E-03 +7.25406075075E-04 -1.47361080309E-03 +5.98888493846E-04 +7.02386146182E-01 -7.86738016145E-02
2.84000000000E+09 +5.66271445466E-01 -2.47955090114E-01 -1.53471281385E-03 +1.04966903001E-03 -1.56248942636E-03 +9.50905044607E-04 +6.90830496316E-01 -9.83908778762E-02
2.84500000000E+09 +5.44551098917E-01 -2.66657219044E-01 -1.55272999560E-03 +1.19200768656E-03 -1.56856658341E-03 +1.22511148601E-03 +6.78553598491E-01 -1.19146869072E-01
2.85000000000E+09 +5.21709897435E-01 -2.84603334133E-01 -1.18394667806E-03 +1.95433836297E-03 -1.19449314974E-03 +1.96853737332E-03 +6.64624543361E-01 -1.40069511395E-01
2.85500000000E+09 +4.97429144592E-01 -3.02222211826E-01 -4.30627029766E-04 +1.55084944900E-03 -4.15547823554E-04 +1.54736837987E-03 +6.49536601606E-01 -1.60080128220E-01
2.86000000000E+09 +4.72238660535E-01 -3.18906774390E-01 -8.31457750341E-04 +1.18971124616E-03 -8.69234597934E-04 +1.12519850175E-03 +6.33617420332E-01 -1.80274355770E-01
2.86500000000E+09 +4.46443331590E-01 -3.34218079989E-01 -1.27583514823E-03 +1.78590876312E-03 -1.26413684791E-03 +1.76085352712E-03 +6.16200405462E-01 -2.00646540999E-01
2.87000000000E+09 +4.20550444180E-01 -3.48094988223E-01 -6.41306498463E-04 +2.39274225087E-03 -6.72649298354E-04 +2.38339623437E-03 +5.97404146511E-01 -2.20869311655E-01
2.87500000000E+09 +3.94439762149E-01 -3.61059829006E-01 -1.74833829716E-04 +2.38183283402E-03 -1.39798905749E-04 +2.40501080513E-03 +5.76512628910E-01 -2.40757479475E-01
2.88000000000E+09 +3.67519571516E-01 -3.72817766705E-01 +1.72716315142E-04 +2.55152944024E-03 +2.40928354439E-04 +2.44560865876E-03 +5.54985067744E-01 -2.59169804685E-01
2.88500000000E+09 +3.39997810824E-01 -3.83434529057E-01 +7.69611533070E-04 +2.27601346598E-03 +8.03305346323E-04 +2.11593258566E-03 +5.32359020685E-01 -2.77874200079E-01
2.89000000000E+09 +3.10606597205E-01 -3.92392593160E-01 +6.68838225426E-04 +2.03586126322E-03 +6.09697164400E-04 +1.92988320038E-03 +5.07004665983E-01 -2.95517141879E-01
2.89500000000E+09 +2.79891203649E-01 -3.99288169293E-01 +8.92319037545E-04 +2.38410428715E-03 +7.53471316981E-04 +2.37327707411E-03 +4.80545472322E-01 -3.12543615440E-01
2.90000000000E+09 +2.47939105541E-01 -4.03945047148E-01 +1.63007539670E-03 +2.35194844566E-03 +1.57853343556E-03 +2.45489595594E-03 +4.51833476898E-01 -3.29303846928E-01
2.90500000000E+09 +2.14659168986E-01 -4.07109100843E-01 +1.86172731887E-03 +1.79353542600E-03 +1.88644813974E-03 +1.83874930937E-03 +4.21057083575E-01 -3.44437085142E-01
2.91000000000E+09 +1.79743760064E-01 -4.07218927265E-01 +2.22240194258E-03 +1.75786846848E-03 +2.25027826106E-03 +1.70469921819E-03 +3.89507814394E-01 -3.58130348572E-01
2.91500000000E+09 +1.44669031202E-01 -4.04675222713E-01 +2.54919658659E-03 +1.21417049978E-03 +2.43673993190E-03 +1.13108084633E-03 +3.56782158408E-01 -3.69245308463E-01
2.92000000000E+09 +1.09378178061E-01 -3.99272490170E-01 +2.62593907080E-03 +5.06148976959E-04 +2.47827681618E-03 +4.92735442503E-04 +3.23418557767E-01 -3.78749517011E-01
2.92500000000E+09 +7.48351994410E-02 -3.92669243211E-01 +2.18042855864E-03 +4.55059359227E-04 +2.09285074889E-03 +5.33175112700E-04 +2.87764534401E-01 -3.86515148579E-01
2.93000000000E+09 +3.98195384013E-02 -3.83613602349E-01 +2.53799941587E-03 +4.48613789115E-04 +2.47354800040E-03 +5.30308339418E-04 +2.50377353897E-01 -3.91503297047E-01
2.93500000000E+09 +5.86807286968E-03 -3.72156181505E-01 +2.83946404593E-03 -3.47116969652E-04 +2.84912643941E-03 -2.04452440990E-04 +2.12902452117E-01 -3.94282913444E-01
2.94000000000E+09 -2.72454480447E-02 -3.58971643180E-01 +2.35865950874E-03 -6.17765040367E-04 +2.38375517002E-03 -5.82567883860E-04 +1.75305073301E-01 -3.96083767956E-01
2.94500000000E+09 -6.00391474316E-02 -3.43879672839E-01 +2.35886414054E-03 -6.04987421145E-04 +2.36327188011E-03 -5.75051352817E-04 +1.36179835032E-01 -3.96925245327E-01
2.95000000000E+09 -9.24653139321E-02 -3.25658344548E-01 +2.50377303687E-03 -1.19992722534E-03 +2.62416660442E-03 -1.13884724971E-03 +9.56967649760E-02 -3.93201096319E-01
2.95500000000E+09 -1.23293027490E-01 -3.04256715074E-01 +2.24786415324E-03 -1.58399192538E-03 +2.30222829262E-03 -1.54168039063E-03 +5.70555421700E-02 -3.86240815689E-01
2.96000000000E+09 -1.51887610469E-01 -2.79829504432E-01 +1.97235689276E-03 -2.24228863015E-03 +2.06451267687E-03 -2.24733062663E-03 +1.83814343899E-02 -3.77009915686E-01
2.96500000000E+09 -1.78242584902E-01 -2.53915507203E-01 +9.36186552827E-04 -2.22927009745E-03 +8.71298845736E-04 -2.32779097249E-03 -2.07518890326E-02 -3.65927219114E-01
2.97000000000E+09 -2.03180561029E-01 -2.26266342861E-01 +7.93943227693E-04 -1.64714572688E-03 +7.37464603717E-04 -1.69126469271E-03 -6.13526982842E-02 -3.51270417511E-01
2.97500000000E+09 -2.27063083528E-01 -1.96305158221E-01 +1.19028832474E-03 -1.56406680439E-03 +1.08973241095E-03 -1.51545508911E-03 -9.93831965669E-02 -3.32880258825E-01
2.98000000000E+09 -2.48119609925E-01 -1.64361561733E-01 +1.15892374747E-03 -2.34769709479E-03 +1.22174293926E-03 -2.30171356691E-03 -1.36186079144E-01 -3.14067548054E-01
2.98500000000E+09 -2.66957847677E-01 -1.32087927880E-01 +4.13853607595E-04 -2.61943470344E-03 +5.96726396806E-04 -2.61198682097E-03 -1.72057378794E-01 -2.91847059117E-01
2.99000000000E+09 -2.84169779460E-01 -9.92490123499E-02 -1.39989006470E-04 -2.48086932999E-03 -1.77597441553E-04 -2.54421026397E-03 -2.07783101533E-01 -2.67903932009E-01
2.99500000000E+09 -2.99415883227E-01 -6.64565537294E-02 -3.37474983503E-04 -2.05971727875E-03 -3.68174396762E-04 -2.13124965200E-03 -2.41921124213E-01 -2.38229287523E-01
3.00000000000E+09 -3.13335408228E-01 -3.33526035374E-02 -2.61805479441E-04 -2.04636390011E-03 -3.16679821355E-04 -2.03120077967E-03 -2.72057452906E-01 -2.06539272544E-01
3.00500000000E+09 -3.24529705419E-01 -5.04216053522E-04 -5.71208168592E-04 -2.25979400068E-03 -5.84896679418E-04 -2.16178613753E-03 -3.00336982540E-01 -1.74328361802E-01
3.01000000000E+09 -3.33561512890E-01 +3.18862226349E-02 -1.28737969976E-03 -2.44172954645E-03 -1.13220991202E-03 -2.31683347443E-03 -3.27407415616E-01 -1.40073917070E-01
3.01500000000E+09 -3.39453560820E-01 +6.47119865765E-02 -1.63681075304E-03 -1.49214645785E-03 -1.64672896649E-03 -1.49572648556E-03 -3.51118726777E-01 -1.03572705621E-01
3.02000000000E+09 -3.42046740368E-01 +9.57088820123E-02 -1.29640464728E-03 -1.12354677776E-03 -1.22717165814E-03 -1.22022804412E-03 -3.71318787499E-01 -6.61062212277E-02
3.02500000000E+09 -3.42390770744E-01 +1.26773921113E-01 -1.03356301662E-03 -1.26853994455E-03 -1.01896995153E-03 -1.28897915759E-03 -3.87671023435E-01 -2.68628329412E-02
3.03000000000E+09 -3.39487338323E-01 +1.57014166363E-01 -1.51721026715E-03 -1.94949217301E-03 -1.52684767983E-03 -2.01127149906E-03 -4.01207455313E-01 +1.13528589859E-02
3.03500000000E+09 -3.34473138124E-01 +1.86730390078E-01 -2.82421782946E-03 -1.22397937074E-03 -2.83464990899E-03 -1.33550503225E-03 -4.13469689181E-01 +5.08216705263E-02
3.04000000000E+09 -3.26525599573E-01 +2.16064143862E-01 -2.68795600652E-03 +1.96684387288E-04 -2.75707348552E-03 +1.62144639987E-04 -4.22371719046E-01 +9.10483258021E-02
3.04500000000E+09 -3.17000935790E-01 +2.44614099553E-01 -1.46776493280E-03 +7.05160176364E-04 -1.58107400457E-03 +7.43524681502E-04 -4.28787212260E-01 +1.31112359126E-01
3.05000000000E+09 -3.06074843152E-01 +2.72504506723E-01 -1.06945738546E-03 +7.47213298234E-05 -1.14916200942E-03 +9.76583683745E-05 -4.32167169646E-01 +1.71075968477E-01
3.05500000000E+09 -2.94113942121E-01 +3.00308350412E-01 -1.33613320447E-03 -2.31716820128E-04 -1.38644191968E-03 -1.86856914975E-04 -4.32407073510E-01 +2.10037245163E-01
3.06000000000E+09 -2.80339298005E-01 +3.27594789649E-01 -1.98865434821E-03 +1.70491221363E-04 -1.94392912613E-03 +2.65323647196E-04 -4.30675130234E-01 +2.48190057014E-01
3.06500000000E+09 -2.65792203907E-01 +3.52805509721E-01 -1.48776870922E-03 +9.44909755988E-04 -1.45867495483E-03 +8.89149555924E-04 -4.26691180615E-01 +2.85416631037E-01
3.07000000000E+09 -2.50846490334E-01 +3.76962641470E-01 -8.47668469233E-04 +8.73947367532E-04 -9.51646698028E-04 +7.65105594814E-04 -4.20231255148E-01 +3.21890201579E-01
