# Hz S RI R 50
! CMT, C1220, 16058040, 17.2.0/1
! Date: 15/08/2018 10:36:41
! Data: Format (Calibration Info)
! Freq                      S11: Re/Im (F2)                       S21: Re/Im (F2)                       S12: Re/Im (F2)                       S22: Re/Im (F2)            
2.50000000000E+09 +5.78080370141E-01 +6.67020991638E-01 -2.77211533573E-04 -4.06150537812E-06 -3.47889052755E-04 -1.04958753042E-05 +5.65078937188E-01 +7.22204091712E-01
2.50500000000E+09 +5.85380724396E-01 +6.59055662811E-01 -2.75871838712E-04 +2.57823590100E-06 -3.11848545620E-04 +2.62614746219E-05 +5.70603491895E-01 +7.16853995808E-01
2.51000000000E+09 +5.93122424188E-01 +6.50724312258E-01 -2.61711996363E-04 +6.66683354463E-05 -2.34667517123E-04 +4.60197622437E-05 +5.76206034364E-01 +7.11644880201E-01
2.51500000000E+09 +6.00457176974E-01 +6.42782449883E-01 -2.49424418862E-04 +2.00065206521E-05 -2.74918886883E-04 -3.55752279448E-06 +5.81494675116E-01 +7.06333905558E-01
2.52000000000E+09 +6.07437435429E-01 +6.34831310932E-01 -3.04165340690E-04 +1.29106518633E-04 -3.21508463985E-04 +6.84833404980E-05 +5.86817658734E-01 +7.00313647851E-01
2.52500000000E+09 +6.13394977028E-01 +6.27583404875E-01 -1.90105916641E-04 +1.44610575509E-04 -2.11443751966E-04 +1.10573118531E-04 +5.92523325043E-01 +6.94080338117E-01
2.53000000000E+09 +6.18908923804E-01 +6.20399549618E-01 -1.64664717121E-04 +9.19146673108E-05 -1.81408619695E-04 +6.58134005788E-05 +5.98557940188E-01 +6.87112572352E-01
2.53500000000E+09 +6.23705335663E-01 +6.13393580003E-01 -1.62615248474E-04 +2.64593131633E-05 -1.86144097786E-04 +4.19585521542E-05 +6.04480661518E-01 +6.80345041679E-01
2.54000000000E+09 +6.28040377345E-01 +6.06532498523E-01 -3.15697487289E-04 +2.03087322971E-05 -3.03674860722E-04 +6.23957469258E-05 +6.10529587587E-01 +6.73862989276E-01
2.54500000000E+09 +6.32723438281E-01 +5.99500292583E-01 -3.62276744470E-04 +1.87494712960E-04 -3.77190700204E-04 +1.35803437876E-04 +6.16250939459E-01 +6.67492273985E-01
2.55000000000E+09 +6.37749949056E-01 +5.92025464516E-01 -2.76951722136E-04 +3.12052355238E-04 -3.07308864061E-04 +3.23375318362E-04 +6.21728594803E-01 +6.61300114968E-01
2.55500000000E+09 +6.43218285866E-01 +5.83898177640E-01 -1.38675452415E-04 +3.40699640044E-04 -2.11451557438E-04 +3.97580638509E-04 +6.26693318865E-01 +6.54745764027E-01
2.56000000000E+09 +6.49534675486E-01 +5.75905727669E-01 -7.95597816524E-05 +2.30477288877E-04 -9.68104020553E-05 +3.00470103516E-04 +6.31638184587E-01 +6.47466767560E-01
2.56500000000E+09 +6.56444237981E-01 +5.67289444878E-01 -8.91281135585E-05 +2.05067388918E-04 -1.17085911723E-05 +2.56609689175E-04 +6.36775808338E-01 +6.40194907069E-01
2.57000000000E+09 +6.63587926000E-01 +5.58589889338E-01 -1.66815663486E-04 +2.06556280823E-04 -9.45422681385E-05 +2.25878839341E-04 +6.42002056856E-01 +6.32409589740E-01
2.57500000000E+09 +6.70280063940E-01 +5.49563960010E-01 -1.62429061970E-04 +3.07077077478E-04 -7.70210085967E-05 +2.92000911380E-04 +6.47631981062E-01 +6.24900247410E-01
2.58000000000E+09 +6.76079544672E-01 +5.41338810155E-01 -8.35481647018E-05 +3.80097738851E-04 -1.41030355697E-05 +3.04807790152E-04 +6.52607110070E-01 +6.17193288417E-01
2.58500000000E+09 +6.81544261071E-01 +5.33473716335E-01 -4.35801508710E-05 +3.71300034491E-04 -3.61892293702E-05 +3.60086006148E-04 +6.57493443537E-01 +6.09740261344E-01
2.59000000000E+09 +6.86471600069E-01 +5.25831791157E-01 +5.17831023961E-05 +3.85873164007E-04 -6.24559103974E-06 +4.00772513496E-04 +6.62240499896E-01 +6.02297469244E-01
2.59500000000E+09 +6.91138057980E-01 +5.17829714767E-01 +9.97085496385E-05 +3.91522900691E-04 +8.19571584652E-05 +4.00650033522E-04 +6.67068321423E-01 +5.94316083004E-01
2.60000000000E+09 +6.95316085403E-01 +5.09068013878E-01 +1.13909638095E-04 +3.97864361494E-04 +1.31229605557E-04 +3.60220710662E-04 +6.72142911445E-01 +5.86197436243E-01
2.60500000000E+09 +6.99326446686E-01 +4.99498468684E-01 +2.06393504024E-04 +4.18818312961E-04 +2.21826590209E-04 +3.87344024379E-04 +6.77459183213E-01 +5.77833401181E-01
2.61000000000E+09 +7.03565035630E-01 +4.89065304773E-01 +2.98379849471E-04 +3.12500754967E-04 +2.64258391014E-04 +3.56239228841E-04 +6.82697938394E-01 +5.69098163495E-01
2.61500000000E+09 +7.08540343685E-01 +4.77428816200E-01 +3.61913291046E-04 +2.79982822589E-04 +3.48696225017E-04 +3.01941854370E-04 +6.87643499566E-01 +5.60615491384E-01
2.62000000000E+09 +7.13276623099E-01 +4.64266791760E-01 +2.99325259972E-04 +1.15831721221E-04 +3.14713857173E-04 +1.34556505557E-04 +6.92572741198E-01 +5.51594742543E-01
2.62500000000E+09 +7.18018513825E-01 +4.50478974179E-01 +2.15371507484E-04 +2.12280072672E-04 +2.41323871552E-04 +2.24744753864E-04 +6.97083434555E-01 +5.42650949157E-01
2.63000000000E+09 +7.22427410474E-01 +4.36690821198E-01 +3.42080354996E-04 +3.65154722471E-04 +3.91702686313E-04 +2.88424208316E-04 +7.01580088436E-01 +5.33801569590E-01
2.63500000000E+09 +7.26456410048E-01 +4.23116333893E-01 +4.45049211143E-04 +1.09739720302E-04 +4.56816546739E-04 +1.29494897854E-04 +7.06162955688E-01 +5.24955534876E-01
2.64000000000E+09 +7.30034367497E-01 +4.10493287235E-01 +5.11491092480E-04 +1.96734654219E-04 +4.23074089663E-04 +1.69900256538E-04 +7.11005932863E-01 +5.15602229534E-01
2.64500000000E+09 +7.33501564144E-01 +3.98679437339E-01 +6.30921411434E-04 +2.38409794201E-05 +5.44385517884E-04 +8.13359215978E-05 +7.15756288176E-01 +5.05960349693E-01
2.65000000000E+09 +7.36289062353E-01 +3.87710569672E-01 +5.04110549505E-04 -1.29302090344E-04 +5.09166782763E-04 -6.34672267311E-05 +7.19989966117E-01 +4.95935559691E-01
2.65500000000E+09 +7.39316867718E-01 +3.76792318482E-01 +4.47035390754E-04 -1.88869963518E-04 +4.77169004537E-04 -1.34909917791E-04 +7.23989097333E-01 +4.85553108574E-01
2.66000000000E+09 +7.42277723243E-01 +3.65707047475E-01 +3.73477563170E-04 -1.77651175078E-04 +4.68095272322E-04 -2.25900909514E-04 +7.28007217433E-01 +4.74634745101E-01
2.66500000000E+09 +7.45210163957E-01 +3.54260590741E-01 +4.31464163272E-04 -2.04744164758E-04 +4.19169662553E-04 -1.98903465844E-04 +7.32405419360E-01 +4.63805283377E-01
2.67000000000E+09 +7.48128599833E-01 +3.41794075404E-01 +4.98980722973E-04 -3.06856666785E-04 +4.60377725744E-04 -2.79470646795E-04 +7.36897978470E-01 +4.52992915765E-01
2.67500000000E+09 +7.50887269476E-01 +3.28134913077E-01 +4.67923266978E-04 -4.10978651489E-04 +3.50955155801E-04 -3.72452678558E-04 +7.41139193144E-01 +4.41971604472E-01
2.68000000000E+09 +7.53083106740E-01 +3.13570632410E-01 +3.80210301513E-04 -5.31210350937E-04 +3.59282062251E-04 -4.82422958301E-04 +7.45266124861E-01 +4.31086799613E-01
2.68500000000E+09 +7.54727230103E-01 +2.98752339174E-01 +1.22210154492E-04 -6.03867088726E-04 +1.48017169821E-04 -6.24166149997E-04 +7.48766095530E-01 +4.19337946469E-01
2.69000000000E+09 +7.56032340605E-01 +2.84089763691E-01 -2.58730967399E-05 -4.57299003734E-04 -4.09692025976E-05 -4.98413226859E-04 +7.51391195277E-01 +4.07287219679E-01
2.69500000000E+09 +7.57513649639E-01 +2.70098828137E-01 -7.77691995004E-05 -4.14772104018E-04 -4.42661754249E-05 -3.94066874613E-04 +7.54058647486E-01 +3.94629599992E-01
2.70000000000E+09 +7.58968117106E-01 +2.56000404768E-01 -9.95095187367E-05 -4.33219317461E-04 -4.13144776007E-05 -4.01895745054E-04 +7.56702836637E-01 +3.81572208345E-01
2.70500000000E+09 +7.60335364089E-01 +2.42643522718E-01 -2.14852563146E-04 -3.64037662111E-04 -1.49772248007E-04 -3.42777468174E-04 +7.59669885299E-01 +3.68367095745E-01
2.71000000000E+09 +7.61612403723E-01 +2.29134143374E-01 -2.13566029788E-04 -3.18539781191E-04 -1.82842051258E-04 -2.83322540721E-04 +7.62351526012E-01 +3.55494142288E-01
2.71500000000E+09 +7.62955259161E-01 +2.15389500663E-01 -7.49332589063E-05 -3.28164890674E-04 -1.23668822477E-04 -3.50251260651E-04 +7.65182291742E-01 +3.43010943198E-01
2.72000000000E+09 +7.64273828658E-01 +2.00824511083E-01 -2.64933526534E-04 -3.50125926136E-04 -2.82153869370E-04 -3.80593646214E-04 +7.66883110928E-01 +3.30201172093E-01
2.72500000000E+09 +7.64899330280E-01 +1.85396382502E-01 -4.69994639961E-04 -2.53746442125E-04 -5.01433348071E-04 -1.85972410700E-04 +7.67918697584E-01 +3.17069153999E-01
2.73000000000E+09 +7.64639827005E-01 +1.68713763174E-01 -5.02539075802E-04 -7.22438281986E-05 -4.80034108389E-04 -4.80839109789E-05 +7.68932887645E-01 +3.03365970439E-01
2.73500000000E+09 +7.63244870977E-01 +1.51008008257E-01 -5.17152553887E-04 +2.33402743985E-04 -4.06799368687E-04 +1.73867764847E-04 +7.70082963721E-01 +2.89214436355E-01
2.74000000000E+09 +7.60860808900E-01 +1.33390346722E-01 -9.74431305760E-05 +3.95654201165E-04 -2.10364228617E-04 +2.87637513445E-04 +7.71945855648E-01 +2.74399044252E-01
2.74500000000E+09 +7.57644254299E-01 +1.15508833114E-01 +3.48989218278E-05 +2.31480351675E-04 -2.83820404642E-05 +2.51905677243E-04 +7.73425920040E-01 +2.59320226070E-01
2.75000000000E+09 +7.53695631440E-01 +9.75199825126E-02 +1.59818370011E-04 +1.47057170638E-04 +1.50704837167E-04 +1.31316888435E-04 +7.74689947283E-01 +2.44409767209E-01
2.75500000000E+09 +7.49211437505E-01 +7.96504089782E-02 +4.31612072472E-05 -7.66156449689E-05 +6.31073139565E-05 -6.24998236621E-05 +7.74910366102E-01 +2.29524806230E-01
2.76000000000E+09 +7.44907883484E-01 +6.21941298376E-02 -1.25746443454E-04 +6.13120308623E-05 -1.15174673586E-04 +4.01071906859E-05 +7.75102644430E-01 +2.14039400845E-01
2.76500000000E+09 +7.40288496067E-01 +4.42690583400E-02 +8.33593502599E-05 +2.24671451403E-04 +1.04570980901E-05 +2.20876410525E-04 +7.74417477173E-01 +1.97044800591E-01
2.77000000000E+09 +7.35477629959E-01 +2.56861763183E-02 +1.23060263151E-04 +1.53753601885E-04 +1.20515522865E-04 +1.08979044290E-04 +7.73304172064E-01 +1.79944757619E-01
2.77500000000E+09 +7.30854674288E-01 +6.71194152412E-03 +1.70450731293E-04 +1.46589490219E-04 +1.60201054831E-04 +2.18892479084E-04 +7.71822565096E-01 +1.61635164524E-01
2.78000000000E+09 +7.26213172138E-01 -1.38043265738E-02 +3.91847225741E-04 +1.80756338708E-04 +3.99787140939E-04 +1.79268050746E-04 +7.70123573894E-01 +1.43900858203E-01
2.78500000000E+09 +7.20295916244E-01 -3.55220226595E-02 +6.27919155725E-04 -2.52822512764E-06 +6.87000585053E-04 -2.77431156813E-05 +7.67562354582E-01 +1.25741705337E-01
2.79000000000E+09 +7.13815694580E-01 -5.76441514618E-02 +5.85710038814E-04 -4.64903295047E-04 +5.31007249068E-04 -4.51520189211E-04 +7.64324201868E-01 +1.08519019158E-01
2.79500000000E+09 +7.05879371198E-01 -8.00151868804E-02 +2.69459828005E-04 -6.03500374175E-04 +3.05053618451E-04 -5.19755860599E-04 +7.60127881939E-01 +9.05256109453E-02
2.80000000000E+09 +6.96583089331E-01 -1.01397675443E-01 +5.17395357627E-05 -5.76007621138E-04 +6.91202985091E-05 -5.68509621163E-04 +7.55359453848E-01 +7.20997375555E-02
2.80500000000E+09 +6.86986254510E-01 -1.21384467620E-01 +5.24625212382E-06 -3.87787950309E-04 +6.83697201045E-05 -3.86280893795E-04 +7.49652234351E-01 +5.28032444554E-02
2.81000000000E+09 +6.76835796264E-01 -1.40183410416E-01 +2.78292903269E-04 -3.63585878277E-04 +2.58634665822E-04 -3.20900392189E-04 +7.42821033952E-01 +3.36030574807E-02
2.81500000000E+09 +6.66377736389E-01 -1.58002299697E-01 +3.30180782505E-04 -6.30482412404E-04 +3.08517966120E-04 -6.67535366121E-04 +7.35899752740E-01 +1.44657381915E-02
2.82000000000E+09 +6.55077595463E-01 -1.75665115744E-01 +1.58253522788E-04 -8.41386582125E-04 +1.91182744362E-04 -8.27205778534E-04 +7.28599623334E-01 -4.93652242006E-03
2.82500000000E+09 +6.42503144188E-01 -1.93114819290E-01 +2.31296363936E-04 -1.02078078935E-03 +1.14673793126E-04 -9.63303966042E-04 +7.20832405110E-01 -2.43757785262E-02
2.83000000000E+09 +6.27956582620E-01 -2.11349726787E-01 -2.25041117230E-04 -1.49991719690E-03 -1.38921927470E-04 -1.42513653864E-03 +7.12216147318E-01 -4.48208153090E-02
2.83500000000E+09 +6.11725844579E-01 -2.29541452891E-01 -9.17159283255E-04 -1.31394107215E-03 -8.29192840522E-04 -1.30477903781E-03 +7.01852442336E-01 -6.51381528757E-02
2.84000000000E+09 +5.93991992463E-01 -2.48399426229E-01 -1.17796068601E-03 -9.15410670715E-04 -1.13732169713E-03 -9.41182206993E-04 +6.90778317547E-01 -8.58897507999E-02
2.84500000000E+09 +5.73673271025E-01 -2.68467316565E-01 -1.17922727139E-03 -5.64397906421E-04 -1.19154204667E-03 -6.14286876346E-04 +6.78456040774E-01 -1.06432927375E-01
2.85000000000E+09 +5.51810624638E-01 -2.88152896222E-01 -1.13426686261E-03 -5.27790545265E-04 -1.14586371095E-03 -6.09530266471E-04 +6.64899097785E-01 -1.27327855271E-01
2.85500000000E+09 +5.28148916783E-01 -3.07867406863E-01 -1.36887452306E-03 -5.17517643827E-04 -1.30205215819E-03 -5.18931292826E-04 +6.49895337591E-01 -1.47645644099E-01
2.86000000000E+09 +5.03856916258E-01 -3.26152089611E-01 -1.36702893274E-03 -2.70373931430E-04 -1.38075673425E-03 -2.88776553452E-04 +6.34299465571E-01 -1.68262789564E-01
2.86500000000E+09 +4.79400767835E-01 -3.43838487055E-01 -1.60051635556E-03 -1.98994268678E-04 -1.59028830156E-03 -2.35535120848E-04 +6.16812761555E-01 -1.89186623773E-01
2.87000000000E+09 +4.54493882537E-01 -3.60261013432E-01 -1.81373020461E-03 -1.20522850183E-05 -1.85153897586E-03 +1.20430582340E-05 +5.97234446922E-01 -2.09520818652E-01
2.87500000000E+09 +4.29580743234E-01 -3.75261812579E-01 -2.06336630614E-03 +1.93247803513E-04 -2.05739231673E-03 +2.69424248967E-04 +5.76947165433E-01 -2.28691856941E-01
2.88000000000E+09 +4.03870699666E-01 -3.88926744230E-01 -2.35324742277E-03 +9.46272249741E-04 -2.29695213363E-03 +1.03568929658E-03 +5.55317093285E-01 -2.48035823595E-01
2.88500000000E+09 +3.77654094356E-01 -4.01377458560E-01 -1.95217133066E-03 +1.94376648979E-03 -1.78769436270E-03 +1.83745329723E-03 +5.31876948755E-01 -2.66196882052E-01
2.89000000000E+09 +3.50059957946E-01 -4.13483091391E-01 -1.15766995502E-03 +2.02896903559E-03 -1.10256291718E-03 +1.88451563461E-03 +5.06532490390E-01 -2.83866102135E-01
2.89500000000E+09 +3.19276026049E-01 -4.24228717459E-01 -7.02714428904E-04 +1.80387941540E-03 -7.95984278798E-04 +1.69333718099E-03 +4.79982118488E-01 -3.00307331430E-01
2.90000000000E+09 +2.86833135111E-01 -4.32849113064E-01 -7.78145852741E-04 +1.80135022029E-03 -8.10194511599E-04 +1.75135645043E-03 +4.52043475455E-01 -3.16632418010E-01
2.90500000000E+09 +2.51837758967E-01 -4.39563295940E-01 -7.65210446110E-04 +1.90726937377E-03 -7.05730326750E-04 +1.93849883110E-03 +4.22290707505E-01 -3.32153977229E-01
2.91000000000E+09 +2.16245260202E-01 -4.44179022399E-01 -5.97132632292E-04 +2.32992141994E-03 -5.61184882178E-04 +2.32037380471E-03 +3.91446318125E-01 -3.45144718249E-01
2.91500000000E+09 +1.79370032367E-01 -4.47559694528E-01 -1.52771326314E-05 +2.58234594524E-03 +6.29162508747E-05 +2.39328510900E-03 +3.60429219118E-01 -3.56811571520E-01
2.92000000000E+09 +1.41820361852E-01 -4.47980974971E-01 +2.27981440328E-04 +2.47791989390E-03 +2.10897155204E-04 +2.31120602146E-03 +3.27547431632E-01 -3.67509169893E-01
2.92500000000E+09 +1.04969661579E-01 -4.46953362029E-01 +5.56776985891E-04 +2.77109687644E-03 +4.27383503492E-04 +2.64425463890E-03 +2.91941569395E-01 -3.75165816928E-01
2.93000000000E+09 +6.84470387898E-02 -4.43768290252E-01 +1.47278182782E-03 +2.73477802225E-03 +1.20530443579E-03 +2.75631691927E-03 +2.55450181280E-01 -3.80909890356E-01
2.93500000000E+09 +3.28190625318E-02 -4.38863199029E-01 +1.73434872402E-03 +2.23873155493E-03 +1.61132656656E-03 +2.31649841120E-03 +2.17794460226E-01 -3.84409046750E-01
2.94000000000E+09 -3.13665417235E-03 -4.32334598449E-01 +2.02607753241E-03 +2.05301458929E-03 +1.99629583358E-03 +2.05570712686E-03 +1.79711694191E-01 -3.86223204519E-01
2.94500000000E+09 -3.94759217584E-02 -4.22806941560E-01 +2.31609219378E-03 +2.03435699184E-03 +2.17591396368E-03 +2.09754748024E-03 +1.41621015812E-01 -3.87203911377E-01
2.95000000000E+09 -7.49652664879E-02 -4.09861230260E-01 +2.94532341467E-03 +1.53668346510E-03 +2.92196032977E-03 +1.67898003679E-03 +1.01364337276E-01 -3.85405834210E-01
2.95500000000E+09 -1.10284073442E-01 -3.93347521915E-01 +3.25779050038E-03 +1.02194333843E-03 +3.31316684748E-03 +1.21023215675E-03 +6.11335472742E-02 -3.78839026410E-01
2.96000000000E+09 -1.44032093026E-01 -3.74153535649E-01 +3.32550192241E-03 +2.97504850045E-04 +3.50740093402E-03 +3.77902107050E-04 +2.24875861746E-02 -3.69254844112E-01
2.96500000000E+09 -1.77252238611E-01 -3.51894894524E-01 +3.15826911130E-03 -3.08714089299E-05 +3.29476017761E-03 -9.17665596053E-05 -1.71765228115E-02 -3.58145204195E-01
2.97000000000E+09 -2.08662227927E-01 -3.26601093393E-01 +3.64726915557E-03 -4.32904668756E-04 +3.62550304527E-03 -4.90373153929E-04 -5.59572922198E-02 -3.43148256801E-01
2.97500000000E+09 -2.38014993130E-01 -2.99983430275E-01 +3.74839013287E-03 -1.52791057573E-03 +3.63601604145E-03 -1.52577451414E-03 -9.47409824891E-02 -3.27181425904E-01
2.98000000000E+09 -2.66871581045E-01 -2.71758986919E-01 +2.92596039668E-03 -2.40321445865E-03 +2.91493941284E-03 -2.28955831198E-03 -1.32110191442E-01 -3.07200222567E-01
2.98500000000E+09 -2.93830348947E-01 -2.40890860119E-01 +1.96505141761E-03 -2.50950346853E-03 +2.16466838009E-03 -2.45729415172E-03 -1.68234248578E-01 -2.85418706954E-01
2.99000000000E+09 -3.18309782867E-01 -2.09107812069E-01 +1.84896904988E-03 -2.33815692682E-03 +1.97973091379E-03 -2.42936551215E-03 -2.02418578712E-01 -2.60285168229E-01
2.99500000000E+09 -3.41286869107E-01 -1.77134116717E-01 +2.09972380498E-03 -2.59569983114E-03 +2.11207915665E-03 -2.78847905730E-03 -2.35535683906E-01 -2.32510395912E-01
3.00000000000E+09 -3.63011362651E-01 -1.43065644302E-01 +1.58882161050E-03 -3.62935232668E-03 +1.36707395002E-03 -3.73501224501E-03 -2.66651072207E-01 -2.01149926185E-01
3.00500000000E+09 -3.81548440144E-01 -1.08368356914E-01 +3.98817093392E-04 -3.90228689569E-03 +1.69791301136E-04 -3.74924267891E-03 -2.94650088985E-01 -1.68225446689E-01
3.01000000000E+09 -3.97878492363E-01 -7.32801041328E-02 -7.26589333848E-04 -3.39655591302E-03 -6.64634957227E-04 -3.25442416872E-03 -3.20722785503E-01 -1.33805762244E-01
3.01500000000E+09 -4.11130734854E-01 -3.74619630275E-02 -8.23588500724E-04 -2.72384377670E-03 -7.13593974133E-04 -2.68459512324E-03 -3.43997198051E-01 -9.91002286321E-02
3.02000000000E+09 -4.21339726020E-01 -1.94756739750E-03 -9.94732258011E-04 -2.74657901973E-03 -9.06397861237E-04 -2.78295504788E-03 -3.65151208040E-01 -6.29770159077E-02
3.02500000000E+09 -4.28574222986E-01 +3.32414878049E-02 -1.23456708713E-03 -2.58476913086E-03 -1.17832060695E-03 -2.55279297576E-03 -3.83142309060E-01 -2.44228985961E-02
3.03000000000E+09 -4.33386220077E-01 +6.83915460435E-02 -1.79263017773E-03 -2.48917989218E-03 -1.72809740400E-03 -2.46008915192E-03 -3.97375412034E-01 +1.44947992305E-02
3.03500000000E+09 -4.34245716199E-01 +1.03568033795E-01 -2.32829502084E-03 -1.76656386033E-03 -2.19991200004E-03 -1.79885769210E-03 -4.08931268270E-01 +5.39953831306E-02
3.04000000000E+09 -4.32922600913E-01 +1.36890255399E-01 -2.08465941200E-03 -1.35566720882E-03 -2.04632026582E-03 -1.47710955259E-03 -4.17965888483E-01 +9.34886658270E-02
3.04500000000E+09 -4.30052413280E-01 +1.71090910819E-01 -2.05002643016E-03 -1.13134139807E-03 -2.15802280999E-03 -1.23481520867E-03 -4.24055326441E-01 +1.33362273550E-01
3.05000000000E+09 -4.23905098041E-01 +2.05162802163E-01 -2.17707745440E-03 -1.05246059157E-03 -2.33685940979E-03 -1.01643338230E-03 -4.27465650028E-01 +1.72176926706E-01
3.05500000000E+09 -4.15760200328E-01 +2.38455525762E-01 -2.47403036461E-03 -6.24801768900E-04 -2.53750652028E-03 -4.61964548584E-04 -4.28460271591E-01 +2.10566833278E-01
3.06000000000E+09 -4.06027177126E-01 +2.71337886513E-01 -2.40057146546E-03 -1.65337928821E-04 -2.24410808038E-03 -8.37444173861E-05 -4.27303145645E-01 +2.47867967275E-01
3.06500000000E+09 -3.94206052797E-01 +3.03652988519E-01 -2.21900207999E-03 +1.72614577864E-04 -2.02607828143E-03 +1.03865292068E-04 -4.23447984444E-01 +2.85143204660E-01
3.07000000000E+09 -3.80856529017E-01 +3.34137506504E-01 -1.92743765891E-03 +3.47601579506E-04 -1.93152306638E-03 +2.28131889816E-04 -4.17344511000E-01 +3.21280394332E-01
