# Hz S RI R 50
! CMT, C1220, 16058040, 17.2.0/1
! Date: 15/08/2018 09:59:20
! Data: Format (Calibration Info)
! Freq                      S11: Re/Im (F2)                       S21: Re/Im (F2)                       S12: Re/Im (F2)                       S22: Re/Im (F2)            
2.50000000000E+09 +5.97590946741E-01 +6.36670876403E-01 -7.12485617801E-05 -1.22801793994E-03 -4.23313782562E-05 -1.33856279616E-03 +5.77178036681E-01 +7.13941397178E-01
2.50500000000E+09 +6.03811167953E-01 +6.29216529503E-01 -1.55200306494E-04 -1.25239182387E-03 -2.37064095267E-04 -1.34416269760E-03 +5.82713745810E-01 +7.08400089381E-01
2.51000000000E+09 +6.10306809332E-01 +6.21590317366E-01 -3.10005340675E-04 -1.21448887462E-03 -3.78380388192E-04 -1.25047111019E-03 +5.88276988566E-01 +7.03064409425E-01
2.51500000000E+09 +6.16993420620E-01 +6.13955723480E-01 -3.80315560700E-04 -1.28862695020E-03 -4.10398719553E-04 -1.21206663995E-03 +5.93515688304E-01 +6.97721485112E-01
2.52000000000E+09 +6.23319737787E-01 +6.05849890476E-01 -5.80731834983E-04 -1.32104009894E-03 -5.58275006058E-04 -1.29474375801E-03 +5.98594709115E-01 +6.91897406735E-01
2.52500000000E+09 +6.29010957927E-01 +5.98242427052E-01 -8.38697004260E-04 -1.19867492793E-03 -8.09439374173E-04 -1.25669301568E-03 +6.04285995788E-01 +6.85390476010E-01
2.53000000000E+09 +6.34200631173E-01 +5.91006407314E-01 -9.69469264515E-04 -9.94018755845E-04 -9.82445472717E-04 -1.00679451417E-03 +6.10237666422E-01 +6.78066723307E-01
2.53500000000E+09 +6.39133830262E-01 +5.84136445521E-01 -8.73435440097E-04 -8.60994709598E-04 -8.77927907182E-04 -8.60462752878E-04 +6.15884557690E-01 +6.71110628402E-01
2.54000000000E+09 +6.43657845237E-01 +5.77486668578E-01 -9.77953971901E-04 -8.83347423433E-04 -8.96804104366E-04 -8.60055473286E-04 +6.21951240529E-01 +6.64583371275E-01
2.54500000000E+09 +6.48326285333E-01 +5.70830573919E-01 -1.05534187571E-03 -8.85262816580E-04 -9.48951941837E-04 -9.22810357970E-04 +6.27897040635E-01 +6.58134961122E-01
2.55000000000E+09 +6.52869283155E-01 +5.63843897018E-01 -1.24956771220E-03 -7.67021953768E-04 -1.22402105994E-03 -9.18377089407E-04 +6.33061134292E-01 +6.51860599176E-01
2.55500000000E+09 +6.57714985249E-01 +5.56445625738E-01 -1.33896868415E-03 -5.72860204402E-04 -1.52910232499E-03 -6.12446916760E-04 +6.38064813635E-01 +6.45494741544E-01
2.56000000000E+09 +6.63196916423E-01 +5.48937044297E-01 -1.19053081870E-03 -3.75265885114E-04 -1.53367024024E-03 -3.58253892865E-04 +6.43217148363E-01 +6.38500308328E-01
2.56500000000E+09 +6.69183849027E-01 +5.40629240534E-01 -1.11282045211E-03 -3.78167149686E-04 -1.32503459994E-03 -2.01876668156E-04 +6.48486675389E-01 +6.30943574957E-01
2.57000000000E+09 +6.75274466809E-01 +5.32088491013E-01 -1.22023222412E-03 -5.66864122112E-04 -1.30863689545E-03 -2.93998917032E-04 +6.54036443451E-01 +6.23034399626E-01
2.57500000000E+09 +6.81547484037E-01 +5.22996975855E-01 -1.56378114700E-03 -4.61139308037E-04 -1.42760083894E-03 -1.62753341132E-04 +6.59775297537E-01 +6.15219585529E-01
2.58000000000E+09 +6.87218910160E-01 +5.14117699963E-01 -1.68833307367E-03 -7.44734217357E-05 -1.41072177941E-03 +1.57594158613E-05 +6.64837524605E-01 +6.07611911832E-01
2.58500000000E+09 +6.92853506780E-01 +5.05368724819E-01 -1.55847609613E-03 +1.46759948681E-04 -1.40721311474E-03 +6.84664529717E-05 +6.69670012009E-01 +6.00184458631E-01
2.59000000000E+09 +6.97983276832E-01 +4.96815853486E-01 -1.45684533069E-03 +1.95172895192E-04 -1.41990572066E-03 +7.99756122031E-05 +6.74430182931E-01 +5.92616950878E-01
2.59500000000E+09 +7.02913857491E-01 +4.88489951186E-01 -1.53202010784E-03 +2.18887296132E-04 -1.47633586682E-03 +1.22067658512E-04 +6.79274641224E-01 +5.84455955113E-01
2.60000000000E+09 +7.07378756159E-01 +4.79929845747E-01 -1.62288661013E-03 +2.31805045904E-04 -1.59650083218E-03 +1.74860004346E-04 +6.84225267462E-01 +5.75746066376E-01
2.60500000000E+09 +7.11838456853E-01 +4.70979141982E-01 -1.90095306833E-03 +5.00490173971E-04 -1.91022049036E-03 +5.16981574155E-04 +6.89286765035E-01 +5.66800169262E-01
2.61000000000E+09 +7.16168781297E-01 +4.61414140664E-01 -1.81966350920E-03 +1.06241190781E-03 -1.85352382058E-03 +1.03376229869E-03 +6.94191286969E-01 +5.57921107219E-01
2.61500000000E+09 +7.20572297260E-01 +4.50925500850E-01 -1.41697603592E-03 +1.27869557348E-03 -1.42815420418E-03 +1.31313828136E-03 +6.98981223617E-01 +5.49440209534E-01
2.62000000000E+09 +7.24638698961E-01 +4.39678744402E-01 -1.20344661522E-03 +1.21867220771E-03 -1.33557150710E-03 +1.32012920291E-03 +7.04021462756E-01 +5.40389213282E-01
2.62500000000E+09 +7.28543482606E-01 +4.27489212204E-01 -1.15040430981E-03 +1.22627348310E-03 -1.08911470675E-03 +1.38545556576E-03 +7.08474957218E-01 +5.31238004355E-01
2.63000000000E+09 +7.32553778987E-01 +4.14863852799E-01 -1.10471980786E-03 +1.27463228069E-03 -9.18999716970E-04 +1.33512302063E-03 +7.12847411218E-01 +5.22473445253E-01
2.63500000000E+09 +7.35943661989E-01 +4.02002420959E-01 -1.24624929574E-03 +1.33411424659E-03 -9.46584233446E-04 +1.34684045546E-03 +7.17603918892E-01 +5.13242225529E-01
2.64000000000E+09 +7.39305063443E-01 +3.89616426227E-01 -1.13098917059E-03 +1.77724953028E-03 -9.05919210950E-04 +1.54520204284E-03 +7.22408972774E-01 +5.03405766511E-01
2.64500000000E+09 +7.42927722837E-01 +3.77580883456E-01 -7.19711750426E-04 +1.83590034391E-03 -7.54000062919E-04 +1.52861446573E-03 +7.27186789333E-01 +4.93681484656E-01
2.65000000000E+09 +7.45999261906E-01 +3.65900452061E-01 -5.58753829907E-04 +1.77172272994E-03 -7.21237820924E-04 +1.63898733421E-03 +7.31526377736E-01 +4.83423639662E-01
2.65500000000E+09 +7.49089698413E-01 +3.54247899976E-01 -4.72799091328E-04 +1.71871061379E-03 -6.55669631923E-04 +1.76595192004E-03 +7.35181597305E-01 +4.73096606485E-01
2.66000000000E+09 +7.52014720399E-01 +3.42490719297E-01 -4.42960052093E-04 +1.84731796330E-03 -5.33416364745E-04 +2.01099697557E-03 +7.39337287637E-01 +4.62510601118E-01
2.66500000000E+09 +7.54653123248E-01 +3.31254587397E-01 -3.16012542989E-04 +1.92045478825E-03 -1.66648761435E-04 +2.01780296288E-03 +7.43927213965E-01 +4.51414011681E-01
2.67000000000E+09 +7.57137568257E-01 +3.19140130162E-01 -1.72056347801E-04 +2.10687528630E-03 -2.69788476282E-06 +2.03686340502E-03 +7.48210525086E-01 +4.39962749715E-01
2.67500000000E+09 +7.59261869489E-01 +3.05968788612E-01 +2.06127810001E-04 +2.18840301046E-03 +2.25547541516E-04 +2.03724476941E-03 +7.52152243836E-01 +4.28428241420E-01
2.68000000000E+09 +7.60535229207E-01 +2.92243623729E-01 +3.74353687215E-04 +2.00121051588E-03 +2.92272451358E-04 +1.85441168338E-03 +7.55756006339E-01 +4.17145208258E-01
2.68500000000E+09 +7.61188345713E-01 +2.78430997035E-01 +2.78771217547E-04 +2.03380727227E-03 +1.60040308054E-04 +2.01274897490E-03 +7.58909329132E-01 +4.05730911858E-01
2.69000000000E+09 +7.61728934304E-01 +2.64696325319E-01 +5.29134701072E-04 +2.34720870365E-03 +5.10094654495E-04 +2.28240376142E-03 +7.61969943156E-01 +3.94035480044E-01
2.69500000000E+09 +7.62514582892E-01 +2.50542939625E-01 +7.90570567516E-04 +2.20255604915E-03 +8.65116516825E-04 +2.18446054734E-03 +7.64619898675E-01 +3.80950004539E-01
2.70000000000E+09 +7.63036621309E-01 +2.36231897981E-01 +1.10846444687E-03 +2.27883219426E-03 +1.04350899458E-03 +2.22967353761E-03 +7.67154759907E-01 +3.67376957055E-01
2.70500000000E+09 +7.63655641938E-01 +2.22166492221E-01 +1.47222329520E-03 +2.04962888472E-03 +1.37543052290E-03 +2.10628875704E-03 +7.69531037311E-01 +3.53709789630E-01
2.71000000000E+09 +7.64494168531E-01 +2.08484829883E-01 +1.58518694128E-03 +1.86507008388E-03 +1.52976739903E-03 +1.98623316356E-03 +7.72462131191E-01 +3.40820933822E-01
2.71500000000E+09 +7.65978417449E-01 +1.94409544209E-01 +1.68052002001E-03 +1.73732631686E-03 +1.73187095815E-03 +1.89851289785E-03 +7.75184859885E-01 +3.27722544460E-01
2.72000000000E+09 +7.67075554339E-01 +1.79606148131E-01 +1.77500995571E-03 +1.75712305025E-03 +1.99639366872E-03 +1.78521191689E-03 +7.76927402649E-01 +3.14571968538E-01
2.72500000000E+09 +7.67483385600E-01 +1.64473489278E-01 +2.10618129922E-03 +1.72867351233E-03 +2.28518012639E-03 +1.45321619717E-03 +7.77692642533E-01 +3.01159567260E-01
2.73000000000E+09 +7.66904668051E-01 +1.48996970110E-01 +2.25148748516E-03 +1.55606455931E-03 +2.12755531369E-03 +1.25757002864E-03 +7.78710179808E-01 +2.87449914827E-01
2.73500000000E+09 +7.65664820468E-01 +1.33146139064E-01 +2.45143924769E-03 +1.36499971427E-03 +2.16753889359E-03 +1.22472683732E-03 +7.79711769657E-01 +2.72708421196E-01
2.74000000000E+09 +7.63180465805E-01 +1.17074081450E-01 +2.61469615155E-03 +1.30825226902E-03 +2.26570546546E-03 +1.34434147337E-03 +7.80837859960E-01 +2.57240939384E-01
2.74500000000E+09 +7.60249880393E-01 +1.00934161223E-01 +2.90972039925E-03 +1.19129762245E-03 +2.63438830407E-03 +1.45320664556E-03 +7.81203539203E-01 +2.41904179043E-01
2.75000000000E+09 +7.56597692283E-01 +8.43082503799E-02 +3.43613958456E-03 +8.64489237096E-04 +3.38270441713E-03 +1.22388187982E-03 +7.81720145912E-01 +2.26904434360E-01
2.75500000000E+09 +7.52016986429E-01 +6.70943901867E-02 +3.46058812517E-03 +1.82724007894E-04 +3.73287942495E-03 +4.28996528036E-04 +7.81354349267E-01 +2.11895267012E-01
2.76000000000E+09 +7.47037728621E-01 +5.01503679250E-02 +3.38186173242E-03 -3.10313860919E-05 +3.58244844436E-03 -1.63100619232E-05 +7.80710366820E-01 +1.96943832787E-01
2.76500000000E+09 +7.42100050284E-01 +3.32904580840E-02 +3.57274054828E-03 -2.23493179123E-04 +3.75484054807E-03 -2.83646333480E-04 +7.79879002543E-01 +1.80476174620E-01
2.77000000000E+09 +7.37582454015E-01 +1.56596700782E-02 +3.80822660405E-03 -7.34898729055E-04 +3.93381842248E-03 -8.56796381435E-04 +7.78579107234E-01 +1.62839733065E-01
2.77500000000E+09 +7.32952510076E-01 -2.94149486831E-03 +3.66424084339E-03 -1.35665106852E-03 +3.73884924281E-03 -1.59528633311E-03 +7.75811021973E-01 +1.44971386760E-01
2.78000000000E+09 +7.28134257816E-01 -2.22742401918E-02 +3.40913728076E-03 -1.63421978507E-03 +3.38622287252E-03 -1.85182955026E-03 +7.73912366686E-01 +1.27686915314E-01
2.78500000000E+09 +7.22100276671E-01 -4.19650041454E-02 +3.27768549611E-03 -1.77951354296E-03 +3.11935233686E-03 -1.99686650413E-03 +7.71756077531E-01 +1.10109213004E-01
2.79000000000E+09 +7.15434386373E-01 -6.18979382681E-02 +3.50912546930E-03 -2.14757697564E-03 +3.24662410242E-03 -2.20555361878E-03 +7.69174249151E-01 +9.24206849760E-02
2.79500000000E+09 +7.07844002613E-01 -8.15068751999E-02 +3.47629224285E-03 -2.92406359467E-03 +3.22266609738E-03 -2.75798622310E-03 +7.64613308789E-01 +7.41933675077E-02
2.80000000000E+09 +6.99402913176E-01 -1.01283352074E-01 +2.96738361666E-03 -3.50524304482E-03 +2.91893313771E-03 -3.22399164810E-03 +7.59239371415E-01 +5.58854905099E-02
2.80500000000E+09 +6.89496552164E-01 -1.20478305552E-01 +2.40303641495E-03 -3.79864637787E-03 +2.54796918377E-03 -3.72167201227E-03 +7.53411238031E-01 +3.79064659576E-02
2.81000000000E+09 +6.78451682112E-01 -1.38547219133E-01 +2.05892303738E-03 -3.86499291846E-03 +2.19805782093E-03 -3.93895945000E-03 +7.47640339333E-01 +1.82510916285E-02
2.81500000000E+09 +6.66867360412E-01 -1.55949461659E-01 +1.62050907093E-03 -4.16145497816E-03 +1.59932933098E-03 -4.25091227413E-03 +7.40569636168E-01 -2.00632083341E-03
2.82000000000E+09 +6.54398802096E-01 -1.73479340000E-01 +1.45534242399E-03 -4.35779222162E-03 +1.20986753604E-03 -4.39596148841E-03 +7.32158147236E-01 -2.22372078058E-02
2.82500000000E+09 +6.40604473323E-01 -1.90885124905E-01 +9.45259201444E-04 -4.77099544120E-03 +7.27070778764E-04 -4.65369714413E-03 +7.22599685193E-01 -4.14284610586E-02
2.83000000000E+09 +6.25375752812E-01 -2.09172282375E-01 +2.40494436928E-04 -4.74851226829E-03 +2.21032502278E-04 -4.47843234163E-03 +7.13040005277E-01 -6.04123733215E-02
2.83500000000E+09 +6.08148268894E-01 -2.27728944692E-01 -8.15050223421E-05 -4.63857286656E-03 +1.83367380561E-05 -4.47032455316E-03 +7.03140844329E-01 -8.00498779389E-02
2.84000000000E+09 +5.88672478413E-01 -2.45905426200E-01 -3.55500796905E-04 -4.81364630671E-03 -1.32924171178E-04 -4.70691280236E-03 +6.91853276295E-01 -1.01031970257E-01
2.84500000000E+09 +5.68029701668E-01 -2.63725601340E-01 -1.03801698662E-03 -5.08145131505E-03 -8.64898203820E-04 -5.14711184929E-03 +6.78576697026E-01 -1.21815916913E-01
2.85000000000E+09 +5.45998268530E-01 -2.81599560671E-01 -1.38831164241E-03 -5.09764272747E-03 -1.36907026166E-03 -5.12050564321E-03 +6.64095350907E-01 -1.41930955085E-01
2.85500000000E+09 +5.22722376848E-01 -2.98987827298E-01 -2.20710134425E-03 -5.21032718577E-03 -2.19035473169E-03 -5.09809198980E-03 +6.49858254923E-01 -1.61035176869E-01
2.86000000000E+09 +4.98584896674E-01 -3.16034856354E-01 -3.03287106117E-03 -5.06290643846E-03 -2.86994997097E-03 -4.96381395846E-03 +6.34461502758E-01 -1.82223134685E-01
2.86500000000E+09 +4.73494547571E-01 -3.32706992698E-01 -3.83544935570E-03 -4.28512954320E-03 -3.75993952987E-03 -4.35017424282E-03 +6.16600490289E-01 -2.02433735471E-01
2.87000000000E+09 +4.46899056438E-01 -3.47702145576E-01 -3.91530405530E-03 -3.60415100863E-03 -3.98342027913E-03 -3.64097356786E-03 +5.97584328644E-01 -2.22096298562E-01
2.87500000000E+09 +4.20356514021E-01 -3.60714973364E-01 -3.92998449043E-03 -3.44281986934E-03 -3.99771583424E-03 -3.31140941997E-03 +5.77583888054E-01 -2.41202032293E-01
2.88000000000E+09 +3.93997467913E-01 -3.72609326142E-01 -4.18454548540E-03 -3.51117576450E-03 -4.27049877962E-03 -3.28004334313E-03 +5.56380572442E-01 -2.60254377948E-01
2.88500000000E+09 +3.67092939303E-01 -3.83708889684E-01 -5.07601556627E-03 -3.44930914577E-03 -4.87865286073E-03 -3.20440330057E-03 +5.34163174717E-01 -2.78858922763E-01
2.89000000000E+09 +3.38993659084E-01 -3.93458217454E-01 -5.74193918332E-03 -2.70011068124E-03 -5.41468328941E-03 -2.66089542583E-03 +5.08755159817E-01 -2.97374366952E-01
2.89500000000E+09 +3.09372103948E-01 -4.01758735627E-01 -6.22788744474E-03 -1.87294882452E-03 -5.95241058781E-03 -2.11781706072E-03 +4.81431924196E-01 -3.14381238822E-01
2.90000000000E+09 +2.78115802417E-01 -4.08296785869E-01 -6.22618331574E-03 -1.17206165874E-03 -6.20360472119E-03 -1.38257968912E-03 +4.52583038515E-01 -3.30149104884E-01
2.90500000000E+09 +2.44409715483E-01 -4.12435214374E-01 -6.33843482871E-03 -7.71150627576E-04 -6.42811296785E-03 -8.13644529846E-04 +4.23801648392E-01 -3.44743858365E-01
2.91000000000E+09 +2.09287257671E-01 -4.13612973202E-01 -6.78212192858E-03 -1.32326325194E-04 -6.77767888239E-03 +6.29501124828E-05 +3.92926720616E-01 -3.59509196257E-01
2.91500000000E+09 +1.73973939099E-01 -4.11166890656E-01 -6.84449801651E-03 +7.63012280191E-04 -6.56190412703E-03 +9.22720318042E-04 +3.60092891384E-01 -3.71957354587E-01
2.92000000000E+09 +1.38816936407E-01 -4.06682388804E-01 -6.67691244161E-03 +1.35861302876E-03 -6.31938898931E-03 +1.21829393008E-03 +3.25802870213E-01 -3.81160898272E-01
2.92500000000E+09 +1.04664404856E-01 -4.00970105669E-01 -6.81147219239E-03 +1.85419805553E-03 -6.55100978618E-03 +1.50135860750E-03 +2.90884962318E-01 -3.88568000019E-01
2.93000000000E+09 +6.98775712134E-02 -3.94621813609E-01 -7.21958623815E-03 +2.74328209994E-03 -7.21728518400E-03 +2.33522563985E-03 +2.54526010671E-01 -3.93917663243E-01
2.93500000000E+09 +3.42801463727E-02 -3.86258611174E-01 -6.82053018195E-03 +4.02191554613E-03 -6.99585872240E-03 +3.78288716211E-03 +2.17086469209E-01 -3.98894439504E-01
2.94000000000E+09 -1.16839991017E-03 -3.74761086802E-01 -6.25061102732E-03 +4.66222520824E-03 -6.34497710081E-03 +4.54942339747E-03 +1.77299115162E-01 -4.00788204664E-01
2.94500000000E+09 -3.54688820594E-02 -3.60333065146E-01 -6.25143188305E-03 +5.39172179372E-03 -6.31612022705E-03 +5.22760211079E-03 +1.38565367835E-01 -4.00057161362E-01
2.95000000000E+09 -6.81652912018E-02 -3.43236394183E-01 -5.69111249972E-03 +7.00101581075E-03 -5.88391871588E-03 +6.73420405532E-03 +1.00276258248E-01 -3.96918971885E-01
2.95500000000E+09 -9.83768458602E-02 -3.23951768138E-01 -4.11476639816E-03 +7.53187862491E-03 -4.46596168254E-03 +7.55421212335E-03 +6.20624178259E-02 -3.92324602405E-01
2.96000000000E+09 -1.28480842472E-01 -3.02844098618E-01 -3.47063857849E-03 +7.59849868195E-03 -3.74143193122E-03 +7.86123889726E-03 +2.17487240848E-02 -3.85043105644E-01
2.96500000000E+09 -1.56915938148E-01 -2.78844462634E-01 -2.80384790213E-03 +8.13479016075E-03 -2.75643018162E-03 +8.46540758797E-03 -1.94827035713E-02 -3.73997582229E-01
2.97000000000E+09 -1.84568796578E-01 -2.51630828538E-01 -2.43883470150E-03 +8.54876122854E-03 -2.16333454233E-03 +8.60510566222E-03 -6.03531565686E-02 -3.59002184659E-01
2.97500000000E+09 -2.09476857516E-01 -2.21701474339E-01 -1.58130660340E-03 +9.94225275011E-03 -1.45583191808E-03 +9.67956561381E-03 -1.00123618581E-01 -3.41885361376E-01
2.98000000000E+09 -2.32789534645E-01 -1.90635965659E-01 +8.37734501876E-04 +1.04007665543E-02 +4.95823461700E-04 +1.02354400567E-02 -1.38089067423E-01 -3.21759801992E-01
2.98500000000E+09 -2.54137102557E-01 -1.58059761700E-01 +2.05772226694E-03 +9.52014017023E-03 +1.64754148492E-03 +9.73206421027E-03 -1.75032331531E-01 -3.00458899118E-01
2.99000000000E+09 -2.74146189052E-01 -1.25340417337E-01 +2.79997286591E-03 +9.38680957721E-03 +2.80760030091E-03 +9.87075850239E-03 -2.12348816054E-01 -2.74576657311E-01
2.99500000000E+09 -2.92595350807E-01 -9.10563096262E-02 +4.07700094196E-03 +9.60770149866E-03 +4.52825531626E-03 +9.88258158093E-03 -2.45957553905E-01 -2.44268808188E-01
3.00000000000E+09 -3.08640640627E-01 -5.60510385518E-02 +5.46158097871E-03 +9.19841402575E-03 +5.90853283087E-03 +8.93432302331E-03 -2.76973034337E-01 -2.12724877330E-01
3.00500000000E+09 -3.20987573680E-01 -2.16152902096E-02 +7.37705883574E-03 +9.02419692425E-03 +7.31755772100E-03 +8.55144681843E-03 -3.07138643551E-01 -1.79168751621E-01
3.01000000000E+09 -3.30740234242E-01 +1.16069536943E-02 +9.32529388891E-03 +7.04771527154E-03 +8.79897678435E-03 +6.84038231345E-03 -3.33549895049E-01 -1.43026104002E-01
3.01500000000E+09 -3.38595829466E-01 +4.40466080201E-02 +9.56498262924E-03 +5.00154043737E-03 +9.29427394725E-03 +5.25171238618E-03 -3.58012933434E-01 -1.05942882325E-01
3.02000000000E+09 -3.44123980713E-01 +7.67833588178E-02 +9.50265776749E-03 +3.84443969528E-03 +9.52068999852E-03 +4.15412369568E-03 -3.77806017511E-01 -6.65786896793E-02
3.02500000000E+09 -3.46393443744E-01 +1.10268695704E-01 +9.70387291822E-03 +3.38169358982E-03 +9.85013127632E-03 +3.47594834166E-03 -3.93205359718E-01 -2.74278446598E-02
3.03000000000E+09 -3.44265757126E-01 +1.43440810870E-01 +1.06844141169E-02 +2.36967784160E-03 +1.07393200153E-02 +2.42882534296E-03 -4.07732275668E-01 +1.14750412104E-02
3.03500000000E+09 -3.39469660511E-01 +1.74240209371E-01 +1.16628064722E-02 +4.56195152777E-04 +1.16492960790E-02 +6.28282199843E-04 -4.19731417923E-01 +5.25929751230E-02
3.04000000000E+09 -3.32705344984E-01 +2.05912082099E-01 +1.13528709520E-02 -2.01214075165E-03 +1.16723167248E-02 -1.73905769563E-03 -4.27842626670E-01 +9.42258676497E-02
3.04500000000E+09 -3.24440979952E-01 +2.35206981289E-01 +9.94526681781E-03 -3.39763436056E-03 +1.05304690811E-02 -3.51715230184E-03 -4.32608152363E-01 +1.35362029638E-01
3.05000000000E+09 -3.15351945025E-01 +2.65328226000E-01 +9.40206099275E-03 -4.28349078816E-03 +9.74427961542E-03 -4.83142381844E-03 -4.33972118582E-01 +1.74118275369E-01
3.05500000000E+09 -3.04316634845E-01 +2.94906685048E-01 +8.78003551540E-03 -5.14780300433E-03 +8.54028987920E-03 -5.78530893394E-03 -4.35686718663E-01 +2.12514901243E-01
3.06000000000E+09 -2.91709880820E-01 +3.23587879278E-01 +8.18347244372E-03 -6.56432889564E-03 +7.54968035621E-03 -6.68749293528E-03 -4.33318168467E-01 +2.52219323748E-01
3.06500000000E+09 -2.77775793906E-01 +3.50303771250E-01 +6.82839508603E-03 -7.94796435456E-03 +6.50456542160E-03 -7.47349123119E-03 -4.27583883793E-01 +2.90108997991E-01
3.07000000000E+09 -2.64004656562E-01 +3.75392454765E-01 +4.77950976765E-03 -8.46284163461E-03 +5.12767477866E-03 -8.00233698031E-03 -4.19747667599E-01 +3.25502971712E-01
