# Hz S RI R 50
! CMT, C1220, 16058040, 17.2.0/1
! Date: 15/08/2018 09:57:25
! Data: Format (Calibration Info)
! Freq                      S11: Re/Im (F2)                       S21: Re/Im (F2)                       S12: Re/Im (F2)                       S22: Re/Im (F2)            
2.50000000000E+09 +5.98648051315E-01 +6.31280139131E-01 -1.44475410590E-04 -1.11314734059E-03 -1.55713290874E-04 -1.25803046529E-03 +5.77392793156E-01 +7.14053874723E-01
2.50500000000E+09 +6.04874748759E-01 +6.23779140199E-01 -2.40372871876E-04 -1.10335754440E-03 -2.96646311031E-04 -1.16376314762E-03 +5.82996970250E-01 +7.08410293827E-01
2.51000000000E+09 +6.11566190145E-01 +6.16100003418E-01 -3.02596682932E-04 -1.08286895818E-03 -3.46527498419E-04 -1.04932231556E-03 +5.88638118302E-01 +7.03111127672E-01
2.51500000000E+09 +6.18206661220E-01 +6.08345363574E-01 -4.25850042533E-04 -1.12813751602E-03 -3.89231962020E-04 -1.05137748352E-03 +5.93775150894E-01 +6.97687947394E-01
2.52000000000E+09 +6.24427472566E-01 +6.00352036696E-01 -5.37298271474E-04 -1.14327440343E-03 -5.53009727692E-04 -1.13359262279E-03 +5.98836240989E-01 +6.91868606136E-01
2.52500000000E+09 +6.29911848961E-01 +5.93011119701E-01 -7.16365019992E-04 -1.05869204802E-03 -6.97095163577E-04 -1.04488928194E-03 +6.04584649907E-01 +6.85340869980E-01
2.53000000000E+09 +6.35136336061E-01 +5.85883238212E-01 -8.52611688588E-04 -8.26123107344E-04 -8.66334616432E-04 -9.18779066729E-04 +6.10522599991E-01 +6.78069260752E-01
2.53500000000E+09 +6.39723698130E-01 +5.79153214170E-01 -7.43741968763E-04 -7.43505152120E-04 -7.33340697183E-04 -7.28973563614E-04 +6.16302856345E-01 +6.70951703900E-01
2.54000000000E+09 +6.44074634146E-01 +5.72630115672E-01 -8.09680973936E-04 -8.53684355233E-04 -7.54503466783E-04 -7.93356588702E-04 +6.22249126940E-01 +6.64371337078E-01
2.54500000000E+09 +6.48501493683E-01 +5.66160403558E-01 -9.69687820437E-04 -9.11226165463E-04 -8.93907866230E-04 -9.43913287157E-04 +6.28143588862E-01 +6.57830877812E-01
2.55000000000E+09 +6.53109873525E-01 +5.59214703075E-01 -1.16556047755E-03 -6.92051473682E-04 -1.15609401910E-03 -8.38388513230E-04 +6.33269717603E-01 +6.51572973586E-01
2.55500000000E+09 +6.58054117067E-01 +5.51743602995E-01 -1.17507540901E-03 -4.56715417294E-04 -1.34256077379E-03 -6.21005811316E-04 +6.38290069633E-01 +6.45242982978E-01
2.56000000000E+09 +6.63587319956E-01 +5.44163742802E-01 -1.12336339724E-03 -3.75415237763E-04 -1.29868978319E-03 -3.59093579271E-04 +6.43324174263E-01 +6.38042235471E-01
2.56500000000E+09 +6.69721050354E-01 +5.35706740160E-01 -1.01582494800E-03 -4.24455215265E-04 -1.19026441294E-03 -3.00128259443E-04 +6.48615152175E-01 +6.30522783524E-01
2.57000000000E+09 +6.76090246078E-01 +5.27063257172E-01 -1.13401812454E-03 -6.13745678924E-04 -1.23350365666E-03 -3.99041212871E-04 +6.54166766890E-01 +6.22566747064E-01
2.57500000000E+09 +6.82424884197E-01 +5.17799152374E-01 -1.56084742626E-03 -5.16679350200E-04 -1.39014226069E-03 -2.45288169912E-04 +6.59768344269E-01 +6.14578394772E-01
2.58000000000E+09 +6.88103708363E-01 +5.08907280736E-01 -1.63469567026E-03 -1.12273584505E-04 -1.43309268982E-03 -2.64710825803E-05 +6.64649504702E-01 +6.07047072296E-01
2.58500000000E+09 +6.93507588970E-01 +5.00121055017E-01 -1.53193172978E-03 +1.51704921280E-04 -1.36019828807E-03 +8.81355026791E-05 +6.69475226020E-01 +5.99566526943E-01
2.59000000000E+09 +6.98741688140E-01 +4.91837968308E-01 -1.36855852895E-03 +1.49780580911E-04 -1.29952636482E-03 +1.01283699168E-04 +6.74290574866E-01 +5.92193264312E-01
2.59500000000E+09 +7.03587324531E-01 +4.83468803643E-01 -1.37110496173E-03 +1.31077092538E-04 -1.41799729745E-03 +5.67332830749E-05 +6.79026778460E-01 +5.83906352940E-01
2.60000000000E+09 +7.07858017735E-01 +4.75091541961E-01 -1.52435512577E-03 +1.49596390509E-04 -1.54563380921E-03 +1.20682998107E-04 +6.83982661664E-01 +5.75293630022E-01
2.60500000000E+09 +7.12272548998E-01 +4.66226472757E-01 -1.81954964601E-03 +3.95778006518E-04 -1.79827836560E-03 +3.66604902373E-04 +6.88963527349E-01 +5.66279056065E-01
2.61000000000E+09 +7.16548972941E-01 +4.56486262036E-01 -1.80196601087E-03 +8.99649915106E-04 -1.82556240383E-03 +8.74098327718E-04 +6.93732219945E-01 +5.57354108072E-01
2.61500000000E+09 +7.20856981364E-01 +4.46085821866E-01 -1.38197675750E-03 +1.15238021388E-03 -1.39198494704E-03 +1.11834377626E-03 +6.98493822813E-01 +5.49001366214E-01
2.62000000000E+09 +7.25030187112E-01 +4.34618740695E-01 -1.25719055296E-03 +1.12750202540E-03 -1.31710271158E-03 +1.17396133840E-03 +7.03468428546E-01 +5.39922650205E-01
2.62500000000E+09 +7.29087862423E-01 +4.22411189998E-01 -1.19821575600E-03 +1.13536733762E-03 -1.16396145513E-03 +1.32715443122E-03 +7.07852817717E-01 +5.30781752208E-01
2.63000000000E+09 +7.33219844438E-01 +4.09748033595E-01 -1.11948941570E-03 +1.17215370871E-03 -9.19962466559E-04 +1.25598912214E-03 +7.12201833433E-01 +5.22171596085E-01
2.63500000000E+09 +7.36674040268E-01 +3.96942734915E-01 -1.29557526515E-03 +1.23066430449E-03 -1.01002307944E-03 +1.24291751799E-03 +7.17023795677E-01 +5.12936031780E-01
2.64000000000E+09 +7.39907994627E-01 +3.84545171860E-01 -1.08617144984E-03 +1.59947184739E-03 -8.57541865513E-04 +1.43455768005E-03 +7.21758391372E-01 +5.03141295608E-01
2.64500000000E+09 +7.43447611775E-01 +3.72719243680E-01 -8.60816658010E-04 +1.63567133385E-03 -8.06255232839E-04 +1.36424799622E-03 +7.26363742681E-01 +4.93305975887E-01
2.65000000000E+09 +7.46338949898E-01 +3.61010758378E-01 -7.72179408878E-04 +1.64518727859E-03 -9.32545218373E-04 +1.50580641623E-03 +7.30677834724E-01 +4.83148810578E-01
2.65500000000E+09 +7.49417155729E-01 +3.49478542950E-01 -7.08425703070E-04 +1.65076751515E-03 -8.72791250219E-04 +1.71883453785E-03 +7.34170034728E-01 +4.73054088670E-01
2.66000000000E+09 +7.52311675293E-01 +3.37675257834E-01 -6.83505575895E-04 +1.84923197335E-03 -6.99993603817E-04 +1.99745413673E-03 +7.38570731633E-01 +4.62579152259E-01
2.66500000000E+09 +7.54948769175E-01 +3.26136150351E-01 -5.05059722075E-04 +2.00722203293E-03 -3.47697080089E-04 +2.07513033503E-03 +7.43036734942E-01 +4.51391948699E-01
2.67000000000E+09 +7.57298220935E-01 +3.13680936234E-01 -3.59918287854E-04 +2.19440540909E-03 -1.72382866081E-04 +2.13139456017E-03 +7.47214636524E-01 +4.40070205638E-01
2.67500000000E+09 +7.59371364948E-01 +3.00470669544E-01 +8.09047419629E-05 +2.23972758858E-03 +9.60783735690E-05 +2.10957042200E-03 +7.51122614758E-01 +4.28631126869E-01
2.68000000000E+09 +7.60521786137E-01 +2.86666112772E-01 +1.65823453178E-04 +2.08017952779E-03 +1.20313511665E-04 +1.96101620944E-03 +7.54693051408E-01 +4.17506031806E-01
2.68500000000E+09 +7.61173026389E-01 +2.72653913519E-01 +1.32687177867E-04 +2.25740335887E-03 +5.30104605442E-05 +2.19549553896E-03 +7.57742424346E-01 +4.06314558339E-01
2.69000000000E+09 +7.61786110968E-01 +2.58906303991E-01 +4.66217236346E-04 +2.45926173669E-03 +4.52082913752E-04 +2.46579077637E-03 +7.60823664139E-01 +3.94505312353E-01
2.69500000000E+09 +7.62588914089E-01 +2.44984118143E-01 +7.56180018924E-04 +2.41560017042E-03 +7.48984857772E-04 +2.35585930652E-03 +7.63698466625E-01 +3.81614190172E-01
2.70000000000E+09 +7.63258522126E-01 +2.30933124216E-01 +1.00246906107E-03 +2.48895130716E-03 +9.51294289430E-04 +2.43737353148E-03 +7.66085775154E-01 +3.68226579839E-01
2.70500000000E+09 +7.64080052526E-01 +2.17114201670E-01 +1.49385628580E-03 +2.36891965954E-03 +1.35875967716E-03 +2.31508619625E-03 +7.68815936787E-01 +3.54910565640E-01
2.71000000000E+09 +7.64832833743E-01 +2.03522549890E-01 +1.66786207937E-03 +2.04996933128E-03 +1.60848365848E-03 +2.21457389326E-03 +7.71805008022E-01 +3.41805405444E-01
2.71500000000E+09 +7.66114516262E-01 +1.89481221110E-01 +1.70001134959E-03 +1.87855662421E-03 +1.80097016408E-03 +2.10830281417E-03 +7.74419351173E-01 +3.28676220876E-01
2.72000000000E+09 +7.66912021693E-01 +1.74881083398E-01 +1.80696804841E-03 +1.92775364878E-03 +2.05747088346E-03 +1.92072544693E-03 +7.76495982486E-01 +3.15902409044E-01
2.72500000000E+09 +7.67109373459E-01 +1.59558579741E-01 +2.08123808333E-03 +1.86315030123E-03 +2.32703334146E-03 +1.67950393714E-03 +7.77417072085E-01 +3.02496434486E-01
2.73000000000E+09 +7.66330256435E-01 +1.43913283237E-01 +2.24810817434E-03 +1.84388634984E-03 +2.18721218858E-03 +1.49823455270E-03 +7.78510273367E-01 +2.88803796340E-01
2.73500000000E+09 +7.65145380673E-01 +1.27699115709E-01 +2.64806654651E-03 +1.70875883655E-03 +2.33502845250E-03 +1.53362188546E-03 +7.79608684932E-01 +2.73948743391E-01
2.74000000000E+09 +7.62561696057E-01 +1.11241148035E-01 +3.02178380128E-03 +1.51163627458E-03 +2.59572007172E-03 +1.52716904814E-03 +7.80833204524E-01 +2.58398308083E-01
2.74500000000E+09 +7.59492278829E-01 +9.45072963532E-02 +3.22845324244E-03 +1.28136279355E-03 +2.92726752674E-03 +1.60453068442E-03 +7.81512308729E-01 +2.43071989996E-01
2.75000000000E+09 +7.55674859705E-01 +7.75422062489E-02 +3.56788606591E-03 +9.12106089800E-04 +3.59448453829E-03 +1.34245128755E-03 +7.82205386211E-01 +2.28102217798E-01
2.75500000000E+09 +7.51011521788E-01 +6.04806667795E-02 +3.63790273163E-03 +3.98628877510E-04 +3.99794726500E-03 +6.93725676578E-04 +7.81890327946E-01 +2.12926814906E-01
2.76000000000E+09 +7.45936882971E-01 +4.37921557043E-02 +3.70106624033E-03 +2.06978431380E-04 +4.03306328268E-03 +2.72655855951E-04 +7.81178625763E-01 +1.98007835579E-01
2.76500000000E+09 +7.41051760375E-01 +2.71119689670E-02 +4.09779046705E-03 -5.89579380005E-05 +4.36656402628E-03 -1.66795817876E-04 +7.80339194369E-01 +1.81677229007E-01
2.77000000000E+09 +7.36594019038E-01 +9.98939513176E-03 +4.35716385336E-03 -7.46692763577E-04 +4.56149652675E-03 -8.35925805904E-04 +7.79107693369E-01 +1.64007188441E-01
2.77500000000E+09 +7.32023874947E-01 -8.23834323261E-03 +4.21564938781E-03 -1.53948415280E-03 +4.33966134109E-03 -1.76638917207E-03 +7.76893659560E-01 +1.45970433307E-01
2.78000000000E+09 +7.26924556225E-01 -2.73993279011E-02 +3.91712243759E-03 -1.87105659114E-03 +3.87087767158E-03 -2.11443691508E-03 +7.74860586675E-01 +1.28366271283E-01
2.78500000000E+09 +7.20640242526E-01 -4.71829384723E-02 +3.78727585727E-03 -2.12373471514E-03 +3.60279026552E-03 -2.35544190424E-03 +7.72784085236E-01 +1.10683667779E-01
2.79000000000E+09 +7.13378685945E-01 -6.72014369072E-02 +3.91568781616E-03 -2.56898426182E-03 +3.58643733559E-03 -2.58176380172E-03 +7.70113528407E-01 +9.29630304126E-02
2.79500000000E+09 +7.05139901661E-01 -8.65929441647E-02 +3.87443727453E-03 -3.34934108598E-03 +3.56603124344E-03 -3.21162998887E-03 +7.65611821236E-01 +7.49140591622E-02
2.80000000000E+09 +6.96402629003E-01 -1.06229243325E-01 +3.32274848244E-03 -4.05321465057E-03 +3.25051113830E-03 -3.73954757189E-03 +7.60328341598E-01 +5.67235460045E-02
2.80500000000E+09 +6.86325238031E-01 -1.25532758724E-01 +2.63259079919E-03 -4.48993010499E-03 +2.79323748797E-03 -4.38447817172E-03 +7.54728067648E-01 +3.84756066573E-02
2.81000000000E+09 +6.75091515322E-01 -1.43738595311E-01 +2.30246518745E-03 -4.50144544478E-03 +2.43789729446E-03 -4.58562345004E-03 +7.49105657161E-01 +1.86110136365E-02
2.81500000000E+09 +6.63233063565E-01 -1.60991562660E-01 +1.77139907801E-03 -4.94435428732E-03 +1.69489184263E-03 -5.09692297506E-03 +7.41846263225E-01 -1.87910163911E-03
2.82000000000E+09 +6.50506381832E-01 -1.78356179571E-01 +1.41185187420E-03 -5.19491127650E-03 +1.19971302004E-03 -5.21612062976E-03 +7.33604873607E-01 -2.19627342469E-02
2.82500000000E+09 +6.36634768348E-01 -1.95301334907E-01 +7.19452315750E-04 -5.63411590868E-03 +4.66268083634E-04 -5.47335195014E-03 +7.24660952142E-01 -4.14032938678E-02
2.83000000000E+09 +6.21422188332E-01 -2.13112447700E-01 -1.47900589461E-04 -5.46272191924E-03 -1.33688347140E-04 -5.23680453132E-03 +7.15012970290E-01 -6.09717939315E-02
2.83500000000E+09 +6.04107132221E-01 -2.31163106170E-01 -5.39904287743E-04 -5.21523258953E-03 -4.12646931336E-04 -4.97324518018E-03 +7.05018049636E-01 -8.09074717537E-02
2.84000000000E+09 +5.84584673177E-01 -2.48553137326E-01 -5.37131630170E-04 -5.35516788625E-03 -3.38967142476E-04 -5.32020484012E-03 +6.93407489400E-01 -1.02101678868E-01
2.84500000000E+09 +5.63949417521E-01 -2.65948352203E-01 -1.35113209434E-03 -5.88592369348E-03 -1.20943718355E-03 -6.00544015987E-03 +6.80178816100E-01 -1.22863125679E-01
2.85000000000E+09 +5.41952294909E-01 -2.83544578677E-01 -2.11909830498E-03 -6.03237512041E-03 -2.09132349207E-03 -6.03827840391E-03 +6.65643160128E-01 -1.43231031852E-01
2.85500000000E+09 +5.18143674070E-01 -3.00849310623E-01 -3.21072727811E-03 -5.81295989867E-03 -3.15775051757E-03 -5.81193346315E-03 +6.51441467949E-01 -1.62911593845E-01
2.86000000000E+09 +4.93766161576E-01 -3.17629575273E-01 -4.07034318908E-03 -5.47691917511E-03 -4.02636092764E-03 -5.40026654784E-03 +6.35591108284E-01 -1.84245470069E-01
2.86500000000E+09 +4.68169143224E-01 -3.33726547878E-01 -4.93108481511E-03 -4.58159825429E-03 -4.87368964210E-03 -4.58343840468E-03 +6.17403179166E-01 -2.04710586296E-01
2.87000000000E+09 +4.41599253973E-01 -3.47982268818E-01 -5.14363097625E-03 -3.72238185545E-03 -5.20281390028E-03 -3.66738296860E-03 +5.98085746660E-01 -2.24381313682E-01
2.87500000000E+09 +4.15595856710E-01 -3.60719438331E-01 -5.16620942083E-03 -3.29814675380E-03 -5.22654628780E-03 -3.12840443016E-03 +5.78140144129E-01 -2.43637643084E-01
2.88000000000E+09 +3.89307452789E-01 -3.72366078661E-01 -5.39259130672E-03 -3.35370512464E-03 -5.31332267747E-03 -3.08166491028E-03 +5.56496388594E-01 -2.62838326881E-01
2.88500000000E+09 +3.62539476070E-01 -3.83040098868E-01 -6.47582697824E-03 -3.02035229537E-03 -6.06663610027E-03 -2.76524375209E-03 +5.33688322359E-01 -2.81443505059E-01
2.89000000000E+09 +3.34645095265E-01 -3.91951806018E-01 -6.89001590489E-03 -1.99700764722E-03 -6.43446474012E-03 -2.03774770929E-03 +5.08103939031E-01 -2.99760097931E-01
2.89500000000E+09 +3.05473170818E-01 -3.99531729109E-01 -7.33366226644E-03 -1.19535192407E-03 -7.08307803816E-03 -1.49664557625E-03 +4.80488832090E-01 -3.17020611006E-01
2.90000000000E+09 +2.74537425322E-01 -4.05337150775E-01 -7.55233391202E-03 -1.75445613686E-04 -7.63055928108E-03 -4.59286187345E-04 +4.51544653299E-01 -3.32287177693E-01
2.90500000000E+09 +2.41411194436E-01 -4.08795180767E-01 -7.45667306637E-03 +8.54035321923E-04 -7.59427204875E-03 +8.50845716398E-04 +4.22712012729E-01 -3.47328211576E-01
2.91000000000E+09 +2.06650116276E-01 -4.09462638616E-01 -7.22122085684E-03 +1.59185954646E-03 -7.14947159273E-03 +1.76796614256E-03 +3.91409261818E-01 -3.62528772632E-01
2.91500000000E+09 +1.71713894056E-01 -4.06509892785E-01 -6.90617921275E-03 +2.40940199762E-03 -6.61947138757E-03 +2.43978235122E-03 +3.57899184028E-01 -3.74894851466E-01
2.92000000000E+09 +1.36838219946E-01 -4.01577303226E-01 -6.62742400718E-03 +2.72097700187E-03 -6.30172871283E-03 +2.52812801608E-03 +3.22835699804E-01 -3.83668961675E-01
2.92500000000E+09 +1.03525228610E-01 -3.95324200887E-01 -6.74902804628E-03 +3.37031802418E-03 -6.58213831388E-03 +2.85041787887E-03 +2.87622167191E-01 -3.90708915100E-01
2.93000000000E+09 +6.94043826569E-02 -3.89035460270E-01 -7.00487038344E-03 +4.33176365326E-03 -7.15357394449E-03 +3.95382383143E-03 +2.50680550865E-01 -3.95706275049E-01
2.93500000000E+09 +3.39410938320E-02 -3.80290751196E-01 -6.24984249404E-03 +5.81804004967E-03 -6.49814328939E-03 +5.66012969441E-03 +2.12783726786E-01 -3.99683355961E-01
2.94000000000E+09 -1.12557796034E-03 -3.68459739704E-01 -5.17274063118E-03 +6.38734042401E-03 -5.36550467830E-03 +6.35703399623E-03 +1.73206628899E-01 -4.01070984387E-01
2.94500000000E+09 -3.41309847690E-02 -3.53209608926E-01 -4.64802147134E-03 +6.82172723188E-03 -4.82850043361E-03 +6.71800391125E-03 +1.34175847009E-01 -4.00050682402E-01
2.95000000000E+09 -6.51058772205E-02 -3.36150959236E-01 -4.07749222336E-03 +7.68363013439E-03 -4.26283095681E-03 +7.54071245624E-03 +9.56294000697E-02 -3.96443406880E-01
2.95500000000E+09 -9.43143655689E-02 -3.17242793350E-01 -2.68194250344E-03 +8.12566904759E-03 -3.02581658701E-03 +8.25768584479E-03 +5.69997783830E-02 -3.91122512487E-01
2.96000000000E+09 -1.23496952678E-01 -2.96291655740E-01 -2.05582680438E-03 +8.05396285467E-03 -2.26812087293E-03 +8.40287805491E-03 +1.68371182626E-02 -3.82781094353E-01
2.96500000000E+09 -1.51312527311E-01 -2.72160133546E-01 -1.29754974281E-03 +8.54809081030E-03 -1.10350849149E-03 +8.92489317877E-03 -2.44075741310E-02 -3.70501753024E-01
2.97000000000E+09 -1.77917427000E-01 -2.44793890945E-01 -4.47307683299E-04 +8.49297892785E-03 -1.74810823239E-04 +8.50528386907E-03 -6.39457226201E-02 -3.54248704175E-01
2.97500000000E+09 -2.01782424162E-01 -2.14951156335E-01 -1.35521478433E-04 +9.46401253007E-03 -3.87413128713E-07 +9.24032985498E-03 -1.02381951243E-01 -3.37061464435E-01
2.98000000000E+09 -2.24211481271E-01 -1.84342148746E-01 +2.26084144344E-03 +1.01474903918E-02 +1.99855421732E-03 +9.95011120624E-03 -1.40021811858E-01 -3.17371806134E-01
2.98500000000E+09 -2.44823403835E-01 -1.52405251192E-01 +3.67187369399E-03 +8.74332350817E-03 +3.46339027852E-03 +8.94332015614E-03 -1.76660755624E-01 -2.95787727185E-01
2.99000000000E+09 -2.64160370456E-01 -1.20124109728E-01 +4.04146242620E-03 +8.23010202138E-03 +4.13108213478E-03 +8.67057238426E-03 -2.13170753635E-01 -2.69377103757E-01
2.99500000000E+09 -2.81673570603E-01 -8.66280443768E-02 +5.06762092779E-03 +8.57328581791E-03 +5.48995273484E-03 +8.68426388584E-03 -2.45824188031E-01 -2.38964682226E-01
3.00000000000E+09 -2.97201487434E-01 -5.26434648421E-02 +6.28619703548E-03 +8.19577553644E-03 +6.68334300218E-03 +7.81264831384E-03 -2.76327332987E-01 -2.07637289427E-01
3.00500000000E+09 -3.09185741138E-01 -1.89866802029E-02 +8.32364059467E-03 +7.95786039700E-03 +8.16227079714E-03 +7.38684699367E-03 -3.05443028093E-01 -1.73965418595E-01
3.01000000000E+09 -3.18609142077E-01 +1.36038041909E-02 +9.97017694523E-03 +5.64154727410E-03 +9.40292678352E-03 +5.49947754775E-03 -3.31440021452E-01 -1.38300150216E-01
3.01500000000E+09 -3.25900248790E-01 +4.53492946517E-02 +1.00718848666E-02 +3.61454778464E-03 +9.75331541325E-03 +3.96239329851E-03 -3.55030531544E-01 -1.01429668113E-01
3.02000000000E+09 -3.31073819861E-01 +7.77528104805E-02 +9.74334058234E-03 +2.38726445652E-03 +9.85171747917E-03 +2.59159152097E-03 -3.73953466696E-01 -6.27930166165E-02
3.02500000000E+09 -3.32289481653E-01 +1.10380457186E-01 +9.83238419707E-03 +1.72541977167E-03 +9.95720012115E-03 +1.91050376968E-03 -3.89174356449E-01 -2.48088760793E-02
3.03000000000E+09 -3.30052726204E-01 +1.42037757506E-01 +1.01987277136E-02 +7.29694556619E-04 +1.01790035880E-02 +7.05123571106E-04 -4.03566649883E-01 +1.35734267505E-02
3.03500000000E+09 -3.25913870757E-01 +1.72078792743E-01 +1.08503864600E-02 -5.67495693276E-04 +1.07580790735E-02 -4.12339921958E-04 -4.15227357484E-01 +5.43120193665E-02
3.04000000000E+09 -3.19488292323E-01 +2.03475362484E-01 +1.08407970092E-02 -2.91354247704E-03 +1.11678593741E-02 -2.64299564914E-03 -4.22911798132E-01 +9.47388314514E-02
3.04500000000E+09 -3.11029178899E-01 +2.32133487684E-01 +9.55562029615E-03 -4.33134980158E-03 +1.01853746501E-02 -4.41227344264E-03 -4.28407547172E-01 +1.35069577794E-01
3.05000000000E+09 -3.01829601248E-01 +2.61426370121E-01 +8.86084270734E-03 -5.49449414245E-03 +9.17928969437E-03 -6.06416683012E-03 -4.30297690795E-01 +1.73935778762E-01
3.05500000000E+09 -2.90989988389E-01 +2.89915089627E-01 +7.76079854793E-03 -6.30459456221E-03 +7.51096222918E-03 -6.78107105953E-03 -4.31441307862E-01 +2.11811921899E-01
3.06000000000E+09 -2.78735093946E-01 +3.17643361739E-01 +6.99475737470E-03 -7.39305953725E-03 +6.40871134157E-03 -7.47955435609E-03 -4.29559822085E-01 +2.50697859488E-01
3.06500000000E+09 -2.65341229490E-01 +3.43392521111E-01 +5.40644358744E-03 -8.42207778359E-03 +5.19306616160E-03 -7.96685758236E-03 -4.23978950591E-01 +2.88048768419E-01
3.07000000000E+09 -2.52124649090E-01 +3.67982075111E-01 +3.54751686978E-03 -8.53810661439E-03 +3.97295470863E-03 -8.15786784016E-03 -4.16624359672E-01 +3.22762831762E-01
