# Hz S RI R 50
! CMT, C1220, 16058040, 17.2.0/1
! Date: 15/08/2018 10:12:04
! Data: Format (Calibration Info)
! Freq                      S11: Re/Im (F2)                       S21: Re/Im (F2)                       S12: Re/Im (F2)                       S22: Re/Im (F2)            
2.50000000000E+09 +5.99639446526E-01 +6.37064952865E-01 -5.44317251819E-04 -4.38926333461E-04 -6.00600919828E-04 -4.91250364767E-04 +5.72787361443E-01 +7.16688502389E-01
2.50500000000E+09 +6.05920496809E-01 +6.29733851174E-01 -5.08623282560E-04 -4.12361521531E-04 -6.07238735932E-04 -4.24949014460E-04 +5.78416977939E-01 +7.11341026453E-01
2.51000000000E+09 +6.12548386978E-01 +6.21678961991E-01 -6.26840438549E-04 -3.78971993890E-04 -6.07282707310E-04 -3.38872957716E-04 +5.84256234260E-01 +7.06156503894E-01
2.51500000000E+09 +6.18947411337E-01 +6.13644300811E-01 -6.96497015560E-04 -3.42699103765E-04 -6.43323014128E-04 -3.24334712764E-04 +5.89632967066E-01 +7.00599646158E-01
2.52000000000E+09 +6.24710216346E-01 +6.05380284480E-01 -7.44046814404E-04 -2.12406396252E-04 -6.99016646965E-04 -2.40391005741E-04 +5.94870812887E-01 +6.94701895127E-01
2.52500000000E+09 +6.29781495418E-01 +5.97833763577E-01 -7.90185212637E-04 -9.90641596285E-05 -7.92479339483E-04 -1.16208032884E-04 +6.00705353379E-01 +6.88244190452E-01
2.53000000000E+09 +6.34668074522E-01 +5.90629788506E-01 -7.35312963967E-04 +2.41714692173E-05 -7.20964058691E-04 +2.40640728418E-05 +6.06592298408E-01 +6.81228651916E-01
2.53500000000E+09 +6.39064341807E-01 +5.84047313465E-01 -6.32084890104E-04 +1.84037796285E-06 -6.87693797501E-04 +4.68726896371E-05 +6.12600360059E-01 +6.74398195695E-01
2.54000000000E+09 +6.43161730708E-01 +5.77714958354E-01 -7.07042966035E-04 +2.11583478643E-05 -7.06039656169E-04 -1.40151749463E-05 +6.18579418574E-01 +6.67663437750E-01
2.54500000000E+09 +6.47638644299E-01 +5.71629233347E-01 -7.46398511468E-04 +1.92243421158E-04 -7.65571468675E-04 +9.90742425095E-05 +6.24242435633E-01 +6.61085377938E-01
2.55000000000E+09 +6.52301180281E-01 +5.65373263837E-01 -6.63262810868E-04 +2.88847310926E-04 -7.06742557104E-04 +2.06334086355E-04 +6.29586197513E-01 +6.54806604064E-01
2.55500000000E+09 +6.57541679571E-01 +5.58370563328E-01 -6.03397788139E-04 +3.01555151872E-04 -6.43075673267E-04 +2.75257487139E-04 +6.34749664787E-01 +6.48344660251E-01
2.56000000000E+09 +6.63307719933E-01 +5.51484122525E-01 -4.79255030728E-04 +2.84359086598E-04 -5.08883390856E-04 +3.63093697232E-04 +6.40008706699E-01 +6.41303884084E-01
2.56500000000E+09 +6.69562722093E-01 +5.43449354033E-01 -4.72147606245E-04 +1.06836436754E-04 -5.04234041800E-04 +2.37407914382E-04 +6.45684353558E-01 +6.33667119765E-01
2.57000000000E+09 +6.75725847563E-01 +5.34976745252E-01 -6.70058977827E-04 +1.23681831831E-04 -6.16888821960E-04 +2.13216476529E-04 +6.50862766141E-01 +6.25731570870E-01
2.57500000000E+09 +6.81670856589E-01 +5.25992677066E-01 -8.24922123953E-04 +2.76247433008E-04 -7.01281434073E-04 +3.37928828682E-04 +6.56316246661E-01 +6.18046741458E-01
2.58000000000E+09 +6.86768083601E-01 +5.17184132846E-01 -7.78634353418E-04 +5.54617646272E-04 -6.72348766435E-04 +4.70372581562E-04 +6.61374220031E-01 +6.10496805337E-01
2.58500000000E+09 +6.91708894136E-01 +5.08668651054E-01 -6.31960648824E-04 +6.37978132572E-04 -5.68476787321E-04 +5.33909588444E-04 +6.66293121386E-01 +6.02966051055E-01
2.59000000000E+09 +6.96067134906E-01 +5.00235685750E-01 -4.89148847078E-04 +6.78402094826E-04 -5.40219821031E-04 +6.27890160254E-04 +6.71006899890E-01 +5.95322059216E-01
2.59500000000E+09 +7.00414194856E-01 +4.91903429977E-01 -5.00557540410E-04 +6.37035315826E-04 -5.20488677105E-04 +6.13297450807E-04 +6.75781955712E-01 +5.87330988533E-01
2.60000000000E+09 +7.04333859134E-01 +4.83209359366E-01 -5.02921810235E-04 +6.37549491615E-04 -5.16511614397E-04 +6.70470999518E-04 +6.80970782687E-01 +5.78929333504E-01
2.60500000000E+09 +7.08627095929E-01 +4.74054816568E-01 -6.04373311237E-04 +8.11806989834E-04 -5.97198046295E-04 +7.98634105867E-04 +6.86187838911E-01 +5.70068518989E-01
2.61000000000E+09 +7.12925098915E-01 +4.63985381612E-01 -4.87287505726E-04 +1.08453719297E-03 -4.80657543970E-04 +1.05796622981E-03 +6.90980724418E-01 +5.61374343390E-01
2.61500000000E+09 +7.17269865035E-01 +4.52849197206E-01 -1.64106685150E-04 +1.10334140411E-03 -2.15974844373E-04 +1.09700028047E-03 +6.95911446282E-01 +5.52602364126E-01
2.62000000000E+09 +7.21400912501E-01 +4.40712399425E-01 -4.51122869724E-05 +1.02290296489E-03 -3.33500052493E-05 +1.11032173371E-03 +7.00325698226E-01 +5.43546434648E-01
2.62500000000E+09 +7.25454510247E-01 +4.27740408962E-01 +2.49632537422E-05 +9.57905841248E-04 +1.10030109324E-04 +1.01601823288E-03 +7.05012633215E-01 +5.34890276512E-01
2.63000000000E+09 +7.28933525620E-01 +4.14464438981E-01 +4.88811563608E-05 +9.97400730790E-04 +1.61060230509E-04 +9.29894670799E-04 +7.10040899556E-01 +5.25942443527E-01
2.63500000000E+09 +7.31974597699E-01 +4.01189584815E-01 +7.57369206473E-05 +1.00340613795E-03 +1.46298281728E-04 +9.35904413784E-04 +7.14822649055E-01 +5.16541814714E-01
2.64000000000E+09 +7.34730691632E-01 +3.88336085862E-01 +2.41324188698E-04 +1.10206258739E-03 +1.83705048311E-04 +9.43155421697E-04 +7.19694744218E-01 +5.06784399318E-01
2.64500000000E+09 +7.37597441188E-01 +3.76123631527E-01 +4.59106865796E-04 +1.02271258571E-03 +3.51908644787E-04 +9.04274669404E-04 +7.24091669240E-01 +4.97010391958E-01
2.65000000000E+09 +7.39978197668E-01 +3.64374570575E-01 +4.07421692198E-04 +9.05815045933E-04 +2.84034570092E-04 +8.98182766881E-04 +7.28283158563E-01 +4.87357239628E-01
2.65500000000E+09 +7.42333032470E-01 +3.52518229078E-01 +4.45736087208E-04 +9.04641913521E-04 +3.71061017321E-04 +1.02775114124E-03 +7.32704183495E-01 +4.77141254016E-01
2.66000000000E+09 +7.44487180899E-01 +3.40946616005E-01 +5.50119516919E-04 +9.35214151470E-04 +6.10768275483E-04 +1.00152634028E-03 +7.37125760100E-01 +4.65728683749E-01
2.66500000000E+09 +7.46698506811E-01 +3.29434529543E-01 +5.23530392266E-04 +1.01854194017E-03 +5.98613812884E-04 +1.04628683370E-03 +7.41256876869E-01 +4.54344428593E-01
2.67000000000E+09 +7.48817796266E-01 +3.16752193997E-01 +8.80641373859E-04 +1.09070257494E-03 +8.99737243425E-04 +9.90956863285E-04 +7.45457068191E-01 +4.43302998602E-01
2.67500000000E+09 +7.50163787466E-01 +3.03393500450E-01 +1.12300940360E-03 +8.04485599130E-04 +1.03375802028E-03 +6.81124267498E-04 +7.49368644031E-01 +4.32030424479E-01
2.68000000000E+09 +7.50669062365E-01 +2.89697169333E-01 +9.46895523768E-04 +6.30997569794E-04 +8.87298314878E-04 +5.90380250955E-04 +7.53138722620E-01 +4.20954471180E-01
2.68500000000E+09 +7.50819213276E-01 +2.75945502986E-01 +1.00117670562E-03 +7.19050505633E-04 +9.31039576277E-04 +6.80257694098E-04 +7.56429626769E-01 +4.09382535538E-01
2.69000000000E+09 +7.50635818767E-01 +2.62083960314E-01 +1.08546029120E-03 +7.51827012932E-04 +1.08463685423E-03 +7.85164954590E-04 +7.59213388353E-01 +3.97264120116E-01
2.69500000000E+09 +7.50319588117E-01 +2.48570066347E-01 +1.32411370534E-03 +6.62841676737E-04 +1.29587657051E-03 +6.43329283361E-04 +7.61653952567E-01 +3.84423356862E-01
2.70000000000E+09 +7.50268018790E-01 +2.35325228944E-01 +1.58595645880E-03 +5.56149119086E-04 +1.50642294471E-03 +5.52281164764E-04 +7.64230232718E-01 +3.71233454618E-01
2.70500000000E+09 +7.50403343298E-01 +2.22372707616E-01 +1.71794996605E-03 +1.62894056934E-04 +1.69384155892E-03 +2.82668271521E-04 +7.67148419877E-01 +3.57894855485E-01
2.71000000000E+09 +7.50791448360E-01 +2.09314131682E-01 +1.74743638884E-03 -8.66152598843E-05 +1.78615008485E-03 +7.44514465649E-05 +7.70135036898E-01 +3.44435973830E-01
2.71500000000E+09 +7.51921108653E-01 +1.95891771283E-01 +1.67203398793E-03 -3.47336032778E-04 +1.84998267939E-03 -3.24374685871E-04 +7.72227070042E-01 +3.31772468804E-01
2.72000000000E+09 +7.52858790355E-01 +1.81740407506E-01 +1.47423792805E-03 -5.24157131102E-04 +1.59016100773E-03 -6.74280196286E-04 +7.74250030005E-01 +3.19071136088E-01
2.72500000000E+09 +7.53572612483E-01 +1.66581816405E-01 +1.28319723943E-03 -5.36289111377E-04 +1.25751351412E-03 -7.13046885877E-04 +7.75326956848E-01 +3.05865162688E-01
2.73000000000E+09 +7.53256567099E-01 +1.50435256160E-01 +1.39957407354E-03 -4.85916788873E-04 +1.24879104415E-03 -5.06892758226E-04 +7.76835725828E-01 +2.91904403355E-01
2.73500000000E+09 +7.51511852513E-01 +1.33482773756E-01 +1.49464865438E-03 -7.13391604180E-04 +1.32899442335E-03 -6.30126153418E-04 +7.78157533239E-01 +2.76699913554E-01
2.74000000000E+09 +7.48547491616E-01 +1.17175205871E-01 +1.59945021115E-03 -9.90436622240E-04 +1.50155430262E-03 -7.75793815158E-04 +7.79321964439E-01 +2.61395692535E-01
2.74500000000E+09 +7.44900023981E-01 +1.00752974064E-01 +1.45771609976E-03 -1.32299532259E-03 +1.53441025158E-03 -1.07707175583E-03 +7.80203613754E-01 +2.46166256826E-01
2.75000000000E+09 +7.40716717946E-01 +8.42430785012E-02 +9.81674815714E-04 -1.52552258660E-03 +1.18953434141E-03 -1.49984233080E-03 +7.80692871864E-01 +2.31372523365E-01
2.75500000000E+09 +7.35750303656E-01 +6.79492017179E-02 +8.02967880811E-04 -1.36429133372E-03 +9.48870996384E-04 -1.38299490116E-03 +7.80962955456E-01 +2.16270603757E-01
2.76000000000E+09 +7.30930961647E-01 +5.18006963290E-02 +9.22715455550E-04 -1.36294261420E-03 +1.00740659677E-03 -1.43907816124E-03 +7.80494464442E-01 +2.00302628597E-01
2.76500000000E+09 +7.26060326018E-01 +3.57329082181E-02 +8.67497542772E-04 -1.72337203870E-03 +8.52403755083E-04 -1.83269771442E-03 +7.78893467522E-01 +1.83114034905E-01
2.77000000000E+09 +7.22011021959E-01 +1.86090826930E-02 +6.34286675938E-04 -1.77159670871E-03 +5.81441664451E-04 -1.80669003734E-03 +7.77371701140E-01 +1.66230448835E-01
2.77500000000E+09 +7.17728512061E-01 +1.12278702337E-04 +3.79643895608E-04 -1.90748634446E-03 +3.69099006733E-04 -2.03252264920E-03 +7.75739058106E-01 +1.47874332345E-01
2.78000000000E+09 +7.12848363643E-01 -1.97428008084E-02 +7.88201372788E-05 -1.94304811494E-03 -4.59049289159E-05 -1.92895409217E-03 +7.73318662426E-01 +1.29954459131E-01
2.78500000000E+09 +7.06456035531E-01 -4.03121655140E-02 -6.79084968153E-06 -1.72441784727E-03 -6.76086643092E-05 -1.68006787263E-03 +7.70472730003E-01 +1.12262896031E-01
2.79000000000E+09 +6.99073468391E-01 -6.13614717831E-02 +7.24690675837E-05 -1.89649898331E-03 +1.08370958409E-05 -1.82396615389E-03 +7.66925758412E-01 +9.48460781491E-02
2.79500000000E+09 +6.90061798036E-01 -8.17485078178E-02 -4.19628246517E-04 -2.10853502366E-03 -4.19276316532E-04 -2.03473894229E-03 +7.62289648396E-01 +7.73645185113E-02
2.80000000000E+09 +6.80295316297E-01 -1.01834103894E-01 -5.72640209653E-04 -1.77519035355E-03 -5.31388869923E-04 -1.72796004404E-03 +7.57533950795E-01 +5.93059159799E-02
2.80500000000E+09 +6.69285439850E-01 -1.20766823795E-01 -7.42704562718E-04 -1.95427876118E-03 -6.22609304255E-04 -1.94345718404E-03 +7.51914807747E-01 +4.01928193602E-02
2.81000000000E+09 +6.57738941451E-01 -1.38736236652E-01 -9.42248713040E-04 -1.69878641679E-03 -9.19226368745E-04 -1.73443691068E-03 +7.45268857777E-01 +2.08586286078E-02
2.81500000000E+09 +6.45037438124E-01 -1.56119739224E-01 -9.79567068173E-04 -1.67715446250E-03 -1.04111307765E-03 -1.67835108668E-03 +7.38042374392E-01 +1.47082817626E-03
2.82000000000E+09 +6.31575506197E-01 -1.72922566997E-01 -1.17582003950E-03 -1.96939267769E-03 -1.27686936957E-03 -1.88562759144E-03 +7.30006271200E-01 -1.76603303117E-02
2.82500000000E+09 +6.17227907647E-01 -1.89270915914E-01 -1.83151621660E-03 -1.89519025423E-03 -1.84409098522E-03 -1.70793957596E-03 +7.21513234950E-01 -3.69325161014E-02
2.83000000000E+09 +6.01580352865E-01 -2.07193791901E-01 -2.17724586928E-03 -1.06375279892E-03 -2.06823139205E-03 -9.99864226862E-04 +7.12052016058E-01 -5.62864322738E-02
2.83500000000E+09 +5.83556949481E-01 -2.25295632415E-01 -1.83428893373E-03 -6.14987285553E-04 -1.71701255755E-03 -6.18262910600E-04 +7.02184108678E-01 -7.64176897103E-02
2.84000000000E+09 +5.63140317081E-01 -2.42969682460E-01 -1.55937838522E-03 -6.34482750635E-04 -1.50611247498E-03 -6.54034961925E-04 +6.90611375562E-01 -9.73406282687E-02
2.84500000000E+09 +5.41584343185E-01 -2.60749254984E-01 -1.44923554659E-03 -8.71937803985E-04 -1.44189076236E-03 -8.81533310202E-04 +6.78071927538E-01 -1.17497105048E-01
2.85000000000E+09 +5.18369748747E-01 -2.78153820062E-01 -1.97289830674E-03 -1.06977445863E-03 -2.02716594902E-03 -1.10750051548E-03 +6.64651372249E-01 -1.37955089156E-01
2.85500000000E+09 +4.94457050788E-01 -2.95314688299E-01 -2.21015930619E-03 -4.45868184417E-04 -2.20532600112E-03 -4.00009546701E-04 +6.49960679222E-01 -1.58529961866E-01
2.86000000000E+09 +4.69449229592E-01 -3.12250477109E-01 -1.87892604797E-03 -4.07952591641E-04 -1.79487447672E-03 -4.27767099832E-04 +6.33282041158E-01 -1.78825525104E-01
2.86500000000E+09 +4.43281430286E-01 -3.27738287727E-01 -2.33086083461E-03 -6.13166515578E-04 -2.33120437219E-03 -6.77397432316E-04 +6.15567854009E-01 -1.98722611446E-01
2.87000000000E+09 +4.17111903843E-01 -3.41100275075E-01 -2.64297642407E-03 +2.35014645985E-04 -2.72776225876E-03 +2.31912829445E-04 +5.97015469805E-01 -2.17571902486E-01
2.87500000000E+09 +3.92172343647E-01 -3.53333718528E-01 -2.27049387451E-03 +4.33184198483E-04 -2.22692984627E-03 +5.22696221157E-04 +5.78409170648E-01 -2.37699452372E-01
2.88000000000E+09 +3.66666716155E-01 -3.65676959319E-01 -2.19964489092E-03 +3.88909147034E-04 -2.13120707837E-03 +4.87405592717E-04 +5.56942913992E-01 -2.57632093321E-01
2.88500000000E+09 +3.39986378074E-01 -3.76742071923E-01 -2.13966888229E-03 +7.13504108884E-04 -1.95719224974E-03 +7.42718835372E-04 +5.33277763727E-01 -2.75694724035E-01
2.89000000000E+09 +3.11648918555E-01 -3.86376536563E-01 -2.04729374738E-03 +3.01187040991E-04 -1.93847305336E-03 +1.94312254300E-04 +5.08926939278E-01 -2.93079770020E-01
2.89500000000E+09 +2.81167627991E-01 -3.94276305344E-01 -2.82808648827E-03 +4.79200072736E-04 -2.70508564485E-03 +3.95615106894E-04 +4.81843062382E-01 -3.10735815538E-01
2.90000000000E+09 +2.49014316843E-01 -3.99401008036E-01 -3.09243416054E-03 +1.25741736273E-03 -3.13035876933E-03 +1.13089073854E-03 +4.53874206718E-01 -3.25908488408E-01
2.90500000000E+09 +2.15563638649E-01 -4.01541096044E-01 -2.81821588575E-03 +2.04661492952E-03 -2.83213521199E-03 +2.02589805085E-03 +4.24920121760E-01 -3.42108223100E-01
2.91000000000E+09 +1.81375833389E-01 -4.01791470665E-01 -2.07041228333E-03 +2.32769434267E-03 -1.94569372414E-03 +2.30539427915E-03 +3.93537834627E-01 -3.56416729998E-01
2.91500000000E+09 +1.46725018584E-01 -3.99799069686E-01 -2.41038761998E-03 +2.02588697930E-03 -2.23731471111E-03 +1.95684302338E-03 +3.61197118369E-01 -3.67965180470E-01
2.92000000000E+09 +1.11374668245E-01 -3.95489361427E-01 -2.54985024955E-03 +3.05438632009E-03 -2.42725687293E-03 +2.86421659827E-03 +3.28762649458E-01 -3.77587175720E-01
2.92500000000E+09 +7.62430276228E-02 -3.89871111397E-01 -1.63545688563E-03 +3.42113927542E-03 -1.69284860848E-03 +3.21948659953E-03 +2.93791309261E-01 -3.85998804843E-01
2.93000000000E+09 +4.04777342018E-02 -3.82012530504E-01 -1.14276308265E-03 +3.34347805864E-03 -1.36497700857E-03 +3.22000215886E-03 +2.57534942091E-01 -3.92572143409E-01
2.93500000000E+09 +4.68580216656E-03 -3.72024123234E-01 -9.64514532082E-04 +3.52391327788E-03 -1.06450802765E-03 +3.51348605305E-03 +2.19270760808E-01 -3.97384018352E-01
2.94000000000E+09 -3.00912256031E-02 -3.58803565057E-01 -1.18139579721E-03 +3.41790542963E-03 -1.26532646784E-03 +3.54517464948E-03 +1.80601831348E-01 -3.98970382491E-01
2.94500000000E+09 -6.38869589915E-02 -3.43533449066E-01 -9.71629900265E-04 +4.89030256361E-03 -1.08186545952E-03 +4.90336138486E-03 +1.42998042719E-01 -4.00549457944E-01
2.95000000000E+09 -9.65017776583E-02 -3.25661291479E-01 +8.41283423725E-04 +5.15586788373E-03 +6.79544447243E-04 +5.13557078804E-03 +1.02402991663E-01 -3.99987722987E-01
2.95500000000E+09 -1.27735436763E-01 -3.05122870716E-01 +1.75292581701E-03 +4.45228291502E-03 +1.61699855266E-03 +4.65683613387E-03 +6.06984401871E-02 -3.93896936159E-01
2.96000000000E+09 -1.58126803614E-01 -2.82316022443E-01 +2.00542130870E-03 +3.75977874388E-03 +2.05835150732E-03 +3.98026922210E-03 +2.06249835091E-02 -3.84227668536E-01
2.96500000000E+09 -1.87685480840E-01 -2.56293432574E-01 +2.13135409067E-03 +3.67311611190E-03 +2.28961137248E-03 +3.71649362180E-03 -1.93965000914E-02 -3.71643093672E-01
2.97000000000E+09 -2.14710395228E-01 -2.26124212514E-01 +2.32332599514E-03 +3.79319646680E-03 +2.41325871239E-03 +3.76523944313E-03 -5.78488790994E-02 -3.57713558578E-01
2.97500000000E+09 -2.38165064119E-01 -1.94727773599E-01 +3.10105895555E-03 +4.16735871984E-03 +3.05373018311E-03 +4.03703547043E-03 -9.80248021721E-02 -3.42544904788E-01
2.98000000000E+09 -2.59831786753E-01 -1.63060239113E-01 +4.37075006065E-03 +3.77024323826E-03 +4.20253187779E-03 +3.72344978372E-03 -1.37905347757E-01 -3.23189598876E-01
2.98500000000E+09 -2.80478829433E-01 -1.30654307488E-01 +5.30290948452E-03 +2.53820477008E-03 +5.24644963436E-03 +2.79963097784E-03 -1.76048542335E-01 -2.98574443108E-01
2.99000000000E+09 -2.99741757585E-01 -9.68627399178E-02 +5.12414243233E-03 +1.09181035551E-03 +5.33579028943E-03 +1.13861506328E-03 -2.09664500211E-01 -2.72506281352E-01
2.99500000000E+09 -3.16438732505E-01 -6.17245790866E-02 +4.52212425088E-03 +9.95921147257E-04 +4.64754329796E-03 +9.04341555996E-04 -2.43410447810E-01 -2.44434497558E-01
3.00000000000E+09 -3.30050826925E-01 -2.63921386521E-02 +5.22942326254E-03 +1.17863185956E-03 +5.24313018803E-03 +9.86405871840E-04 -2.75200038372E-01 -2.12643599971E-01
3.00500000000E+09 -3.40891846586E-01 +7.25132398709E-03 +6.06105847917E-03 +1.14690540331E-04 +5.78352805519E-03 -9.13749642961E-05 -3.03867548396E-01 -1.79150507804E-01
3.01000000000E+09 -3.49683715510E-01 +4.06250576852E-02 +6.10469875261E-03 -1.69147948798E-03 +5.85157352340E-03 -1.49525003390E-03 -3.30985428948E-01 -1.44231601812E-01
3.01500000000E+09 -3.56358045201E-01 +7.37865350492E-02 +5.06947068757E-03 -2.69736751858E-03 +5.10722134614E-03 -2.45606971246E-03 -3.53938896013E-01 -1.07690119294E-01
3.02000000000E+09 -3.59376771802E-01 +1.07085232451E-01 +3.95864062041E-03 -2.89896365514E-03 +4.00443544214E-03 -2.85954799098E-03 -3.74598589374E-01 -7.13787185949E-02
3.02500000000E+09 -3.59209813457E-01 +1.39584337658E-01 +4.29047369741E-03 -2.60178065719E-03 +4.32861715531E-03 -2.58700961339E-03 -3.93753728464E-01 -3.21314695483E-02
3.03000000000E+09 -3.55763712182E-01 +1.71778273953E-01 +4.12939135871E-03 -3.99996855560E-03 +4.17887581010E-03 -3.99914598200E-03 -4.07851234546E-01 +9.38826110121E-03
3.03500000000E+09 -3.49066400866E-01 +2.01525537575E-01 +3.00561750860E-03 -5.20519725716E-03 +3.10544753710E-03 -5.08514872715E-03 -4.18221437756E-01 +4.98271658163E-02
3.04000000000E+09 -3.41930857415E-01 +2.31521025307E-01 +1.05395253809E-03 -4.94829321706E-03 +1.24515069017E-03 -5.05025406839E-03 -4.26495163612E-01 +8.97515875406E-02
3.04500000000E+09 -3.32492570990E-01 +2.61120843284E-01 +6.93153641739E-04 -3.62502413049E-03 +8.53651463740E-04 -3.84875075232E-03 -4.32686708259E-01 +1.29342821385E-01
3.05000000000E+09 -3.21195100804E-01 +2.90885967747E-01 +1.19470022590E-03 -3.33691446746E-03 +1.18470320965E-03 -3.60881497959E-03 -4.37335540103E-01 +1.69580063674E-01
3.05500000000E+09 -3.07837781890E-01 +3.19663557538E-01 +1.67946587827E-03 -4.12256697274E-03 +1.39283305723E-03 -4.20258945084E-03 -4.36788603281E-01 +2.10545617870E-01
3.06000000000E+09 -2.93322122654E-01 +3.46509062352E-01 +7.38613187441E-04 -5.58161563586E-03 +4.98144386162E-04 -5.44174001006E-03 -4.33420646554E-01 +2.48077915790E-01
3.06500000000E+09 -2.78560981212E-01 +3.71921659807E-01 -1.53267665435E-03 -5.21763056157E-03 -1.43898680854E-03 -4.98998744529E-03 -4.29190446309E-01 +2.84828263421E-01
3.07000000000E+09 -2.63503666395E-01 +3.95986486186E-01 -2.10579081839E-03 -3.53079419720E-03 -1.87221850869E-03 -3.63522314131E-03 -4.23628178919E-01 +3.20182899886E-01
