# Hz S RI R 50
! CMT, C1220, 16058040, 17.2.0/1
! Date: 15/08/2018 10:22:32
! Data: Format (Calibration Info)
! Freq                      S11: Re/Im (F2)                       S21: Re/Im (F2)                       S12: Re/Im (F2)                       S22: Re/Im (F2)            
2.50000000000E+09 +5.81540636666E-01 +6.34963176526E-01 +2.58015378016E-04 -2.46092234258E-05 +3.05250061451E-04 +2.67255216198E-05 +5.71798105387E-01 +7.18859203885E-01
2.50500000000E+09 +5.88401224551E-01 +6.27147890254E-01 +3.21104280429E-04 -6.08436036495E-05 +3.08584749830E-04 -7.60889282627E-05 +5.77919642354E-01 +7.12964562923E-01
2.51000000000E+09 +5.95798896120E-01 +6.19061787403E-01 +2.47238021549E-04 -1.24715436451E-04 +2.48399835119E-04 -1.53126187006E-04 +5.83650211408E-01 +7.07315504509E-01
2.51500000000E+09 +6.02761850003E-01 +6.11018081709E-01 +1.89608005585E-04 -8.45034257370E-05 +1.87974632169E-04 -8.92648211125E-05 +5.88928226506E-01 +7.01442505452E-01
2.52000000000E+09 +6.09199012655E-01 +6.02775954862E-01 +2.82545627070E-04 -1.74235127356E-04 +2.52581548952E-04 -1.84840690172E-04 +5.94000546510E-01 +6.94980952461E-01
2.52500000000E+09 +6.14556794554E-01 +5.95076454828E-01 +2.38060017719E-04 -2.42863383285E-04 +2.38254798540E-04 -2.44033111930E-04 +5.99773860879E-01 +6.88077996692E-01
2.53000000000E+09 +6.19254587239E-01 +5.88071454915E-01 +1.48211718561E-04 -2.60098137357E-04 +1.53381681213E-04 -2.77331518838E-04 +6.05542103555E-01 +6.80516237469E-01
2.53500000000E+09 +6.23548871299E-01 +5.81496916194E-01 +9.47998908078E-05 -2.62108173259E-04 +8.53114273956E-05 -2.81069313101E-04 +6.11154703658E-01 +6.73454337181E-01
2.54000000000E+09 +6.27571166588E-01 +5.75374440583E-01 +7.59703893145E-05 -2.60566555496E-04 +6.79440968442E-05 -2.30076664365E-04 +6.16799936149E-01 +6.66658102582E-01
2.54500000000E+09 +6.31638126221E-01 +5.69474052246E-01 +8.22941934886E-05 -2.34859680529E-04 +6.13954973526E-05 -2.45527592846E-04 +6.22092756524E-01 +6.60143389865E-01
2.55000000000E+09 +6.36357016712E-01 +5.63341452652E-01 +1.37954287906E-04 -2.52824625699E-04 +1.45746413471E-04 -2.57313774792E-04 +6.26499149006E-01 +6.53862300160E-01
2.55500000000E+09 +6.41383928426E-01 +5.56785430225E-01 +5.53659457304E-05 -3.25580876677E-04 +3.66052767896E-05 -4.02055513495E-04 +6.31019479991E-01 +6.47907736260E-01
2.56000000000E+09 +6.47528189653E-01 +5.49927616584E-01 -3.20957308420E-05 -3.05404725056E-04 -4.43306910097E-05 -3.38380781028E-04 +6.35795878983E-01 +6.41203478766E-01
2.56500000000E+09 +6.53790067506E-01 +5.41809670975E-01 -5.22665609554E-05 -2.87650803056E-04 -1.49838186635E-04 -3.26033008086E-04 +6.41199158870E-01 +6.34094133363E-01
2.57000000000E+09 +6.59728897281E-01 +5.33601446763E-01 -1.59609401264E-04 -3.08701345992E-04 -2.16482456889E-04 -3.03830228580E-04 +6.46574008917E-01 +6.26341366052E-01
2.57500000000E+09 +6.65547829291E-01 +5.25130889847E-01 -2.31571890390E-04 -2.13498758135E-04 -2.20133827155E-04 -1.59836663849E-04 +6.51996825310E-01 +6.18819766993E-01
2.58000000000E+09 +6.70571165267E-01 +5.16428372979E-01 -1.96173957123E-04 -1.68017053064E-04 -1.78511766725E-04 -1.22359525400E-04 +6.57332439782E-01 +6.11731824060E-01
2.58500000000E+09 +6.74879378419E-01 +5.08039772685E-01 -2.32975492398E-04 -2.02615591909E-04 -1.89046908350E-04 -1.95652280582E-04 +6.62343765395E-01 +6.04237230366E-01
2.59000000000E+09 +6.78810179530E-01 +4.99855535198E-01 -2.95105139133E-04 -7.66882045384E-05 -2.79100828250E-04 -1.07592763659E-04 +6.67277020865E-01 +5.96733318798E-01
2.59500000000E+09 +6.82523412045E-01 +4.91583205958E-01 -2.79024660006E-04 +3.21054346479E-05 -2.79918751377E-04 -5.89188441722E-05 +6.72447374820E-01 +5.88868036911E-01
2.60000000000E+09 +6.85818501591E-01 +4.83150400030E-01 -2.52452948630E-04 +6.27161918353E-05 -3.06795010581E-04 +7.34778296536E-05 +6.77768625772E-01 +5.80266745278E-01
2.60500000000E+09 +6.89723413484E-01 +4.74031804568E-01 -9.52334733952E-05 +9.76263725902E-05 -1.26807914350E-04 +9.51910356432E-05 +6.83129644877E-01 +5.71276652764E-01
2.61000000000E+09 +6.93951046894E-01 +4.63708791603E-01 -6.53524366264E-05 -3.23942216022E-05 -1.13050539557E-04 -3.85984180333E-06 +6.88153855195E-01 +5.62202013227E-01
2.61500000000E+09 +6.98546687660E-01 +4.52284155153E-01 -1.90935948189E-04 -3.25012754985E-05 -2.04301444584E-04 -4.51453105711E-05 +6.92930506673E-01 +5.53489306314E-01
2.62000000000E+09 +7.03064701586E-01 +4.39675440141E-01 -2.11486999385E-04 +9.29325513407E-05 -2.25690748670E-04 +1.05490669636E-04 +6.97657954398E-01 +5.44497162918E-01
2.62500000000E+09 +7.07497093770E-01 +4.26270564173E-01 -9.38706544352E-05 +1.88331582678E-04 -1.02362629374E-04 +1.86095349121E-04 +7.02163772744E-01 +5.35621410249E-01
2.63000000000E+09 +7.11587817693E-01 +4.12591294710E-01 +1.07659490224E-05 +9.94929254805E-05 -1.80331818002E-06 +7.39530724957E-05 +7.06528883390E-01 +5.26442552721E-01
2.63500000000E+09 +7.14994850924E-01 +3.99159503435E-01 -8.95911325830E-05 +7.84623824850E-05 -8.10187753392E-05 +2.39062386432E-05 +7.10963928872E-01 +5.17414901809E-01
2.64000000000E+09 +7.18259204396E-01 +3.86516172797E-01 -5.10306786761E-05 +9.93602888268E-05 -1.03818379777E-05 +1.26519268977E-04 +7.15392663861E-01 +5.07799174063E-01
2.64500000000E+09 +7.21123263911E-01 +3.74782452902E-01 +7.06513897750E-05 +1.25827877512E-04 +6.23324462037E-05 +9.42323819271E-05 +7.19834068739E-01 +4.97978697498E-01
2.65000000000E+09 +7.23761195665E-01 +3.64117311400E-01 +1.19052156337E-04 -2.32681676983E-05 +9.46951588826E-05 +7.33110422136E-06 +7.24030841068E-01 +4.87893938594E-01
2.65500000000E+09 +7.26667993355E-01 +3.53360141468E-01 -2.83435419440E-05 -1.95551351066E-04 -5.08124407750E-05 -1.76750039531E-04 +7.27768290584E-01 +4.77418669654E-01
2.66000000000E+09 +7.29541857216E-01 +3.42845766080E-01 -1.54113377905E-04 -1.63800515074E-05 -2.00400242705E-04 -1.40364381471E-05 +7.31559465371E-01 +4.66466221371E-01
2.66500000000E+09 +7.32620300666E-01 +3.32076248788E-01 -6.03616288310E-05 -2.24560167545E-05 -8.63199230622E-05 -7.20611490651E-06 +7.35885156735E-01 +4.55527897987E-01
2.67000000000E+09 +7.35254631900E-01 +3.19974718291E-01 -8.63303269890E-05 +2.18844069243E-05 -1.86889250693E-04 +6.35398139952E-05 +7.40233269443E-01 +4.44607797690E-01
2.67500000000E+09 +7.37579530095E-01 +3.06744284776E-01 -6.86992124943E-05 +5.20272616892E-05 -3.52687038804E-05 +2.74945835759E-06 +7.44131474354E-01 +4.33215999273E-01
2.68000000000E+09 +7.38641533093E-01 +2.92528433094E-01 -1.24547888302E-04 -5.49099916802E-05 -6.69130690539E-05 -4.64070713193E-05 +7.47504702330E-01 +4.22207522754E-01
2.68500000000E+09 +7.39038642217E-01 +2.78677935396E-01 -2.11494223999E-04 +2.48293008685E-05 -2.39372530075E-04 +7.78314713838E-06 +7.50570643938E-01 +4.11048903637E-01
2.69000000000E+09 +7.39361218606E-01 +2.64474558758E-01 -1.02736079261E-04 +2.30916925778E-04 -1.06663273811E-04 +1.77618801182E-04 +7.53038697053E-01 +3.99308146271E-01
2.69500000000E+09 +7.39472676320E-01 +2.50514100846E-01 +2.96898668540E-07 +1.35956534710E-04 -1.26516360514E-05 +1.20073922635E-04 +7.55593178729E-01 +3.87030684025E-01
2.70000000000E+09 +7.39439677697E-01 +2.36890676199E-01 -2.72978739332E-06 +3.58187163097E-05 -4.42920058449E-05 +4.86302078851E-05 +7.58478650629E-01 +3.73975181728E-01
2.70500000000E+09 +7.39539221151E-01 +2.23745895598E-01 -4.64133396547E-05 +1.70719305367E-04 -7.39652681653E-05 +1.34641166728E-04 +7.61252028835E-01 +3.61004357521E-01
2.71000000000E+09 +7.39793212780E-01 +2.10766552373E-01 +3.10561683381E-05 +1.20201465466E-04 -1.67432447585E-05 +9.05151632953E-05 +7.64159428964E-01 +3.48043636745E-01
2.71500000000E+09 +7.40572440151E-01 +1.97397044149E-01 +9.02555137399E-05 +1.10629498969E-04 +7.55163233188E-05 +1.00250970591E-04 +7.66334020734E-01 +3.35602795790E-01
2.72000000000E+09 +7.41241760447E-01 +1.83505225837E-01 +1.25168755492E-04 +1.21482987649E-05 +1.05944879160E-04 +5.07623388046E-05 +7.68119585160E-01 +3.23276624641E-01
2.72500000000E+09 +7.41226617177E-01 +1.68451556690E-01 +6.82122617255E-05 -3.73116763773E-05 +3.32019590478E-05 -2.19420889996E-06 +7.69392986244E-01 +3.10045993970E-01
2.73000000000E+09 +7.39948582009E-01 +1.52392493605E-01 +4.58294309051E-05 +1.18784611985E-04 +7.04986625869E-05 +1.32123997647E-04 +7.70630742244E-01 +2.96026093674E-01
2.73500000000E+09 +7.37207179140E-01 +1.35782559683E-01 +1.85939798177E-04 -4.65270569084E-05 +1.92645647254E-04 -7.20966466986E-05 +7.71551238921E-01 +2.81022161634E-01
2.74000000000E+09 +7.33543448983E-01 +1.19436263143E-01 +9.11194222467E-05 -1.75797077424E-04 +1.40217676179E-04 -1.19264863362E-04 +7.72465918007E-01 +2.66213564298E-01
2.74500000000E+09 +7.28792370271E-01 +1.02744693337E-01 -1.08134114921E-05 -1.90816923738E-04 +2.61123172390E-06 -1.88402049231E-04 +7.73536796016E-01 +2.51519281537E-01
2.75000000000E+09 +7.23474602544E-01 +8.64402470421E-02 -2.14192705786E-05 -2.41887925118E-04 -5.84940526493E-05 -1.89634629707E-04 +7.74678054394E-01 +2.36937683915E-01
2.75500000000E+09 +7.18018526092E-01 +7.02100026681E-02 -8.91107930132E-05 -2.58952818244E-04 -1.06280916031E-04 -3.07460742346E-04 +7.74475245541E-01 +2.21759003919E-01
2.76000000000E+09 +7.12705140617E-01 +5.41304961220E-02 -2.92368779453E-04 -2.41036509887E-04 -3.03682386984E-04 -3.34928864162E-04 +7.73367015556E-01 +2.06740160225E-01
2.76500000000E+09 +7.08115964751E-01 +3.79525328923E-02 -3.77274647645E-04 -1.10278485270E-04 -4.47224504157E-04 -1.28088657456E-04 +7.72124118350E-01 +1.91320362073E-01
2.77000000000E+09 +7.03982994041E-01 +2.09173609993E-02 -3.65820751744E-04 -4.18908919750E-05 -3.52331873883E-04 +2.24496484425E-05 +7.71472607167E-01 +1.74782367137E-01
2.77500000000E+09 +7.00030510601E-01 +3.06291405238E-03 -4.27311313939E-04 +7.66328424620E-05 -4.15445216918E-04 +3.04797162896E-05 +7.70153554420E-01 +1.57409580715E-01
2.78000000000E+09 +6.96247284882E-01 -1.58910936885E-02 -3.46420895773E-04 +1.49160084133E-04 -3.15924002129E-04 +1.44823446141E-04 +7.68498637162E-01 +1.39912514349E-01
2.78500000000E+09 +6.91380409735E-01 -3.59555190152E-02 -4.78991260047E-04 +1.68636035241E-04 -4.52022218157E-04 +1.75877597017E-04 +7.66390034623E-01 +1.22949932150E-01
2.79000000000E+09 +6.85258049031E-01 -5.63059467683E-02 -4.47105107265E-04 +3.58428946971E-04 -4.36297769728E-04 +4.20566181991E-04 +7.64124979176E-01 +1.06287865295E-01
2.79500000000E+09 +6.77879809015E-01 -7.60457484953E-02 -3.06839498326E-04 +4.92051251538E-04 -3.09671522108E-04 +5.01870940829E-04 +7.61335690533E-01 +8.83813372313E-02
2.80000000000E+09 +6.69126325839E-01 -9.53553175343E-02 -6.90209070959E-05 +5.34452008808E-04 -8.38787665589E-05 +4.72246127166E-04 +7.56929297860E-01 +6.97759351829E-02
2.80500000000E+09 +6.59536226764E-01 -1.13335311468E-01 -1.28695959718E-04 +4.48075575294E-04 -1.63172727629E-04 +4.54413386738E-04 +7.51863247782E-01 +5.08102430053E-02
2.81000000000E+09 +6.48844137358E-01 -1.30344635678E-01 -5.00373106792E-05 +6.40411623861E-04 -1.47673968718E-05 +5.93409739554E-04 +7.46511829362E-01 +3.08610906836E-02
2.81500000000E+09 +6.37704046961E-01 -1.46486220191E-01 +2.14824217702E-04 +6.07234967549E-04 +2.61470472813E-04 +6.07862689738E-04 +7.40048137592E-01 +1.03644775214E-02
2.82000000000E+09 +6.25396596465E-01 -1.62601731878E-01 +2.91105754508E-04 +3.85823546334E-04 +2.71711799493E-04 +4.33364863873E-04 +7.33083009309E-01 -9.98772828579E-03
2.82500000000E+09 +6.12137797072E-01 -1.78357708068E-01 +1.35007440582E-04 +3.28685540513E-04 +1.22034160659E-04 +3.38493302946E-04 +7.24644766435E-01 -3.08543371037E-02
2.83000000000E+09 +5.97911548218E-01 -1.95163311701E-01 +1.69901266182E-04 +5.14954866033E-04 +1.85324190743E-04 +5.12039094783E-04 +7.14989194377E-01 -5.12532669298E-02
2.83500000000E+09 +5.82065737659E-01 -2.13254141398E-01 +3.88268404341E-04 +6.69883000699E-04 +3.44266282022E-04 +6.94782664231E-04 +7.04312375741E-01 -7.14359554396E-02
2.84000000000E+09 +5.62808919541E-01 -2.31746585451E-01 +7.01379803937E-04 +3.07713142318E-04 +6.96119837544E-04 +2.92755749265E-04 +6.92898452198E-01 -9.21658844179E-02
2.84500000000E+09 +5.41655728013E-01 -2.49837148162E-01 +4.44059703484E-04 +7.61095547541E-05 +4.53937941977E-04 +9.03826230811E-05 +6.79949988696E-01 -1.13010117621E-01
2.85000000000E+09 +5.19114134232E-01 -2.67156248468E-01 +2.82300400903E-04 +2.15081189278E-04 +2.95536212734E-04 +1.67768177158E-04 +6.65650962049E-01 -1.33502048258E-01
2.85500000000E+09 +4.95338216039E-01 -2.83812856879E-01 +2.11757475860E-04 +3.89886947397E-04 +2.43466369638E-04 +3.93490596697E-04 +6.50862226813E-01 -1.53418058972E-01
2.86000000000E+09 +4.71208604292E-01 -2.99665669849E-01 +6.92687069019E-04 +4.95726152330E-04 +6.48327181861E-04 +5.01368525326E-04 +6.34707882414E-01 -1.73936890716E-01
2.86500000000E+09 +4.46384900146E-01 -3.14274088549E-01 +7.91312983681E-04 +1.20192736151E-05 +7.87315610596E-04 +1.92572964068E-05 +6.17048066967E-01 -1.94046576111E-01
2.87000000000E+09 +4.21617523333E-01 -3.27511987106E-01 +4.68966062657E-04 -3.20238867110E-05 +4.86588141606E-04 -3.72066941298E-05 +5.98226593947E-01 -2.13930689238E-01
2.87500000000E+09 +3.97220270042E-01 -3.39444348104E-01 +4.17648961100E-04 +2.05934317861E-04 +3.77144196445E-04 +1.83529177105E-04 +5.77781210323E-01 -2.33164823181E-01
2.88000000000E+09 +3.72656251944E-01 -3.50939438866E-01 +8.32907880920E-04 +3.30633225905E-04 +8.43385146230E-04 +3.04648415549E-04 +5.56797569950E-01 -2.51410914398E-01
2.88500000000E+09 +3.46894567426E-01 -3.61413469819E-01 +1.17160900456E-03 -6.70165065314E-05 +1.07019940948E-03 -5.78392769435E-05 +5.34293491592E-01 -2.69863218643E-01
2.89000000000E+09 +3.20131653119E-01 -3.70418799821E-01 +9.12698073494E-04 -4.96147332683E-04 +8.77759439781E-04 -4.94489503851E-04 +5.09949363497E-01 -2.87041718522E-01
2.89500000000E+09 +2.92185356638E-01 -3.78148576829E-01 +8.15117975202E-04 -5.17322106950E-04 +8.45665281511E-04 -4.49826377308E-04 +4.85194996162E-01 -3.05209470696E-01
2.90000000000E+09 +2.62750132656E-01 -3.84733885375E-01 +6.33954227949E-04 -5.63767348471E-04 +6.23208067261E-04 -5.35100286645E-04 +4.56525828010E-01 -3.23257057710E-01
2.90500000000E+09 +2.30964421309E-01 -3.89049926458E-01 +9.76338014457E-04 -6.55158167499E-04 +9.77983318167E-04 -6.27198961459E-04 +4.26673976261E-01 -3.38834207334E-01
2.91000000000E+09 +1.99015947795E-01 -3.90304148851E-01 +6.62804090335E-04 -1.30200309542E-03 +6.59858158157E-04 -1.35761529925E-03 +3.96307108832E-01 -3.53363227562E-01
2.91500000000E+09 +1.67252126437E-01 -3.90310080580E-01 +1.67853051364E-04 -1.05231537869E-03 +1.61039022339E-04 -1.02280927409E-03 +3.63967929313E-01 -3.65988047288E-01
2.92000000000E+09 +1.34776118309E-01 -3.88782626985E-01 +2.53962106765E-04 -1.07099141507E-03 +2.30374296464E-04 -1.01788124787E-03 +3.30112177380E-01 -3.76154982600E-01
2.92500000000E+09 +1.01979763600E-01 -3.84975205322E-01 +7.15081350738E-05 -1.44680880646E-03 +1.66599372665E-04 -1.41501968419E-03 +2.94681943379E-01 -3.83757464462E-01
2.93000000000E+09 +7.03323235748E-02 -3.79174533706E-01 -6.26450060672E-04 -1.51859787208E-03 -5.90084263372E-04 -1.51344501808E-03 +2.58400595953E-01 -3.90604799622E-01
2.93500000000E+09 +3.86403592144E-02 -3.72547152854E-01 -9.99820148985E-04 -7.51011451329E-04 -1.00354301260E-03 -7.40562941190E-04 +2.19685161099E-01 -3.95864674282E-01
2.94000000000E+09 +6.51164721020E-03 -3.63317473586E-01 -5.83166314485E-04 -3.04421235892E-04 -6.16934185928E-04 -2.97783858647E-04 +1.79993979649E-01 -3.98722750814E-01
2.94500000000E+09 -2.48792802774E-02 -3.51823324966E-01 -2.47762288160E-04 -6.32790053998E-04 -2.43650473776E-04 -6.60445590460E-04 +1.38925435308E-01 -3.98660699231E-01
2.95000000000E+09 -5.65576885208E-02 -3.37917263510E-01 -6.90399628405E-04 -8.51419948057E-04 -6.22257454912E-04 -9.22921277548E-04 +9.91181839720E-02 -3.94673426917E-01
2.95500000000E+09 -8.74352549651E-02 -3.19891076685E-01 -9.64316741506E-04 -4.95974785257E-04 -1.00171203625E-03 -5.37570133586E-04 +5.96421270631E-02 -3.88802783416E-01
2.96000000000E+09 -1.16377349522E-01 -2.99551127123E-01 -9.66275693219E-04 -1.36416364863E-04 -1.04437085332E-03 -1.48150851670E-04 +1.94789676283E-02 -3.79260509991E-01
2.96500000000E+09 -1.44012325261E-01 -2.77113245822E-01 -7.02533032794E-04 +1.27027592741E-04 -7.97400966411E-04 +1.54316375626E-04 -1.98170714553E-02 -3.67962800050E-01
2.97000000000E+09 -1.70760130641E-01 -2.52313056141E-01 -3.18987136455E-04 +2.84683852975E-05 -2.37756835719E-04 +2.20460693504E-05 -6.12783888236E-02 -3.54200919694E-01
2.97500000000E+09 -1.95670447385E-01 -2.25095659389E-01 -4.41864899007E-04 -3.92595708312E-04 -4.63863023815E-04 -3.98644632516E-04 -1.00474834154E-01 -3.36341927915E-01
2.98000000000E+09 -2.18753931407E-01 -1.96739196517E-01 -7.99231894432E-04 -1.96333220946E-04 -7.80270930969E-04 -1.96613157776E-04 -1.39631040456E-01 -3.16804808515E-01
2.98500000000E+09 -2.39898556915E-01 -1.67391869205E-01 -5.41325981236E-04 -3.11083630055E-05 -5.28779747320E-04 -2.19288367815E-05 -1.76669668553E-01 -2.93166852245E-01
2.99000000000E+09 -2.59739412689E-01 -1.37392103943E-01 -5.67803480332E-04 -4.18821154702E-04 -5.67537125807E-04 -3.71730182336E-04 -2.12233008417E-01 -2.66646764255E-01
2.99500000000E+09 -2.77547786538E-01 -1.06857895383E-01 -1.13112133873E-03 -2.85709991667E-04 -1.13092036681E-03 -2.44670733108E-04 -2.45119989947E-01 -2.35108038105E-01
3.00000000000E+09 -2.93581435665E-01 -7.55543304380E-02 -1.22228585777E-03 +3.14819689064E-04 -1.23762383255E-03 +3.50862470168E-04 -2.73935636038E-01 -2.03926112208E-01
3.00500000000E+09 -3.06950609656E-01 -4.47606368325E-02 -1.02494424168E-03 +5.62081420251E-04 -9.52441682628E-04 +5.63988764338E-04 -3.03554911021E-01 -1.70660190201E-01
3.01000000000E+09 -3.18140986045E-01 -1.40202338012E-02 -7.83594847334E-04 +7.02328450179E-04 -7.26705633770E-04 +6.81720290437E-04 -3.29435462881E-01 -1.34589166217E-01
3.01500000000E+09 -3.27112259568E-01 +1.64259626006E-02 -5.33024355001E-04 +8.17583844459E-04 -5.12208467312E-04 +7.58212000859E-04 -3.52378267815E-01 -9.78907268887E-02
3.02000000000E+09 -3.32946278809E-01 +4.75875844242E-02 -4.60625219767E-04 +8.25037000108E-04 -4.93755297006E-04 +7.30480349690E-04 -3.71873558227E-01 -5.99785591311E-02
3.02500000000E+09 -3.35286766534E-01 +7.73763394044E-02 -1.82452075784E-04 +7.60071832027E-04 -2.42041193054E-04 +7.65451861405E-04 -3.87982344972E-01 -2.12073822475E-02
3.03000000000E+09 -3.35644164897E-01 +1.06915937310E-01 -3.06995399066E-04 +6.40259207680E-04 -3.20381511968E-04 +6.59617737963E-04 -4.00869350500E-01 +1.81530202775E-02
3.03500000000E+09 -3.33301717006E-01 +1.36032839039E-01 -3.36630707423E-04 +9.12207592812E-04 -3.98844094655E-04 +9.07792484965E-04 -4.11000117930E-01 +5.75185627996E-02
3.04000000000E+09 -3.28976910267E-01 +1.64993063286E-01 +5.25629933432E-05 +6.57865817327E-04 +8.41310492996E-07 +6.98686379214E-04 -4.18695991201E-01 +9.68616645608E-02
3.04500000000E+09 -3.22351088418E-01 +1.93757346808E-01 -2.30009942739E-04 +1.01461774235E-03 -2.07544676204E-04 +1.09607391317E-03 -4.23780480690E-01 +1.35787398832E-01
3.05000000000E+09 -3.13994960710E-01 +2.22330391219E-01 +4.91042649616E-04 +1.05401991922E-03 +5.27266492647E-04 +1.07215046420E-03 -4.26751632453E-01 +1.73887577666E-01
3.05500000000E+09 -3.03424831930E-01 +2.50045824252E-01 +5.07597362048E-04 +7.13100998055E-04 +5.71582153123E-04 +7.19811827191E-04 -4.27690267235E-01 +2.11442584693E-01
3.06000000000E+09 -2.92625901802E-01 +2.76626414760E-01 +7.22629638286E-04 +3.80494491145E-04 +7.08721388757E-04 +3.58785486461E-04 -4.26185506449E-01 +2.49178978517E-01
3.06500000000E+09 -2.80665265994E-01 +3.03270411204E-01 +3.36451365536E-04 +1.06813744833E-04 +3.73436976698E-04 +1.30982774895E-04 -4.22085127408E-01 +2.86054858888E-01
3.07000000000E+09 -2.67106002452E-01 +3.28036929440E-01 +3.15494749107E-04 +4.15771271722E-04 +2.26254121472E-04 +4.62205636665E-04 -4.15477251964E-01 +3.21531593057E-01
