# Hz S RI R 50
! CMT, C1220, 16058040, 17.2.0/1
! Date: 15/08/2018 10:25:56
! Data: Format (Calibration Info)
! Freq                      S11: Re/Im (F2)                       S21: Re/Im (F2)                       S12: Re/Im (F2)                       S22: Re/Im (F2)            
2.50000000000E+09 +5.81260716092E-01 +6.39682248576E-01 +2.61963629539E-04 -4.33902458927E-05 +3.23800528524E-04 -5.45060032845E-05 +5.70871051636E-01 +7.20022549220E-01
2.50500000000E+09 +5.88419112053E-01 +6.31967535996E-01 +3.24837657714E-04 -9.80234669726E-05 +2.90457981836E-04 -9.56814974901E-05 +5.76946165410E-01 +7.14097298866E-01
2.51000000000E+09 +5.95814932945E-01 +6.23999700394E-01 +2.71170533579E-04 -1.61642500477E-04 +2.33264708789E-04 -1.71396955317E-04 +5.82850394119E-01 +7.08405214063E-01
2.51500000000E+09 +6.03135458714E-01 +6.16142907591E-01 +2.42745911239E-04 -1.06215968754E-04 +2.21486346547E-04 -1.18819957496E-04 +5.88293850226E-01 +7.02363943906E-01
2.52000000000E+09 +6.09660000198E-01 +6.08050529080E-01 +2.59274192008E-04 -2.32574687371E-04 +2.78192433950E-04 -2.26443987594E-04 +5.93402178977E-01 +6.95888833251E-01
2.52500000000E+09 +6.15261741933E-01 +6.00795873975E-01 +1.45930155453E-04 -2.94901444557E-04 +2.07055001035E-04 -2.69646326020E-04 +5.99057428788E-01 +6.89115733013E-01
2.53000000000E+09 +6.20289208310E-01 +5.93904738411E-01 +1.37072118950E-04 -3.04116832017E-04 +1.57358148135E-04 -2.90280596216E-04 +6.04913530197E-01 +6.81598374587E-01
2.53500000000E+09 +6.24692214271E-01 +5.87503017383E-01 +6.34334532395E-05 -2.90146879217E-04 +4.64594745755E-05 -2.90559779973E-04 +6.10388685084E-01 +6.74562008098E-01
2.54000000000E+09 +6.28801403623E-01 +5.81156424291E-01 -2.22048982238E-07 -2.50285029101E-04 +2.67562988760E-05 -2.77763437371E-04 +6.16018643593E-01 +6.67821897637E-01
2.54500000000E+09 +6.33120866851E-01 +5.75167999544E-01 -4.28978600101E-05 -2.28518843170E-04 -1.54021501985E-05 -2.59204784117E-04 +6.21244546465E-01 +6.61067830384E-01
2.55000000000E+09 +6.37707595888E-01 +5.69012294458E-01 +9.58222444099E-06 -1.90713507585E-04 +3.32062129597E-05 -1.91401685096E-04 +6.25775016218E-01 +6.54917980981E-01
2.55500000000E+09 +6.42981852127E-01 +5.62312378318E-01 -2.95683985771E-06 -2.91693193736E-04 -4.04216437393E-05 -2.76433175776E-04 +6.30456072096E-01 +6.48861755787E-01
2.56000000000E+09 +6.49169702168E-01 +5.55497803931E-01 -2.83998974851E-05 -2.79783951351E-04 -9.38175063456E-05 -3.24798847552E-04 +6.35180877127E-01 +6.42048352017E-01
2.56500000000E+09 +6.55466321862E-01 +5.47557772668E-01 -9.82552039519E-05 -2.95746370248E-04 -2.12596787001E-04 -2.78189998822E-04 +6.40517959782E-01 +6.34991677394E-01
2.57000000000E+09 +6.61581869812E-01 +5.39605236671E-01 -1.58897525309E-04 -3.10039200010E-04 -2.87271971981E-04 -2.30453886546E-04 +6.45892391278E-01 +6.27410607728E-01
2.57500000000E+09 +6.67655736674E-01 +5.31435289915E-01 -2.81977605497E-04 -1.72687409257E-04 -3.06178074950E-04 -1.00496933208E-04 +6.51234955122E-01 +6.20011859689E-01
2.58000000000E+09 +6.72912518022E-01 +5.23185530972E-01 -1.97196854306E-04 -1.17071159402E-04 -1.84157734946E-04 -8.33044862701E-05 +6.56525696275E-01 +6.12872488785E-01
2.58500000000E+09 +6.77522730612E-01 +5.15035257747E-01 -2.64553546293E-04 -8.65356125060E-05 -2.23239487838E-04 -9.32370896785E-05 +6.61739253791E-01 +6.05333746464E-01
2.59000000000E+09 +6.81515548835E-01 +5.07226975863E-01 -2.17496776632E-04 +4.20168806945E-06 -2.24189851530E-04 -2.62902026879E-05 +6.66591359113E-01 +5.97745845341E-01
2.59500000000E+09 +6.85255807667E-01 +4.99263247500E-01 -1.83082169751E-04 -9.77346305588E-06 -1.86093166398E-04 +5.19765756861E-05 +6.71820393394E-01 +5.89587390055E-01
2.60000000000E+09 +6.88940723486E-01 +4.91060844844E-01 -1.59389059099E-04 +7.22873924391E-05 -2.15307662482E-04 +4.92646621181E-05 +6.77127445257E-01 +5.81127876756E-01
2.60500000000E+09 +6.92911694442E-01 +4.81949753827E-01 -1.50648356587E-04 +5.21709782280E-05 -1.51362280201E-04 +5.74884334271E-05 +6.82679374269E-01 +5.72157596780E-01
2.61000000000E+09 +6.97235538201E-01 +4.71709338994E-01 -1.49820669039E-04 +7.38321568237E-06 -1.29543246915E-04 +4.49816876999E-05 +6.87663366336E-01 +5.63138424091E-01
2.61500000000E+09 +7.01923250423E-01 +4.60543312778E-01 -1.94092356392E-04 +4.41286644072E-05 -1.86022166378E-04 +5.84154334736E-05 +6.92313041194E-01 +5.54388093983E-01
2.62000000000E+09 +7.06528559080E-01 +4.48090434915E-01 -1.93592393019E-04 +1.78908926581E-04 -2.00516851839E-04 +1.63044564361E-04 +6.96842811517E-01 +5.45364537122E-01
2.62500000000E+09 +7.11386773289E-01 +4.34909647696E-01 -8.04053675023E-05 +1.98432186457E-04 -4.85253401567E-05 +1.52574980908E-04 +7.01307229396E-01 +5.36347765255E-01
2.63000000000E+09 +7.15813092030E-01 +4.21372067102E-01 -8.27527290726E-06 +8.91824853869E-05 +1.11427784848E-06 +8.82111958339E-05 +7.05478563723E-01 +5.27261548928E-01
2.63500000000E+09 +7.19639998068E-01 +4.08102899560E-01 -5.18823653254E-05 +1.19631304076E-04 -2.37570728425E-05 +1.82524620849E-04 +7.10003143365E-01 +5.18247654156E-01
2.64000000000E+09 +7.23272794013E-01 +3.95536368937E-01 +4.70620919914E-05 +1.49888371501E-04 +5.84554725988E-05 +1.32097118813E-04 +7.14517087007E-01 +5.08659569702E-01
2.64500000000E+09 +7.26409889788E-01 +3.83828704937E-01 +9.94034179924E-05 +1.10471140703E-04 +1.35202191315E-04 +1.13198247873E-04 +7.18866762453E-01 +4.99181716557E-01
2.65000000000E+09 +7.29221323338E-01 +3.73148421363E-01 +1.12111183657E-04 -1.70978722762E-05 +1.80334477122E-04 +1.13235544368E-05 +7.23041944220E-01 +4.89196532023E-01
2.65500000000E+09 +7.32190263989E-01 +3.62652496877E-01 +5.50859871478E-05 -9.36368558677E-05 +2.85442476440E-05 -8.97655754122E-05 +7.26717776080E-01 +4.78814332847E-01
2.66000000000E+09 +7.35363311655E-01 +3.52083727665E-01 -8.60483463446E-05 +8.40759388688E-06 -8.07578750854E-05 +3.58396243969E-05 +7.30550572191E-01 +4.68110916635E-01
2.66500000000E+09 +7.38560961879E-01 +3.41260873271E-01 +4.28945594086E-05 +5.27621438648E-05 +5.20603184799E-05 +3.35015574888E-05 +7.34915941852E-01 +4.57055969816E-01
2.67000000000E+09 +7.41681537145E-01 +3.29128196890E-01 +6.14385434742E-05 +1.60343217658E-05 +7.31535845285E-05 +1.90077659794E-05 +7.39138553950E-01 +4.46198183199E-01
2.67500000000E+09 +7.44221902268E-01 +3.15965145047E-01 +1.54442020938E-04 -7.21795249327E-05 +1.05450902066E-04 -9.38377279496E-05 +7.43260235779E-01 +4.34995103779E-01
2.68000000000E+09 +7.45727794983E-01 +3.01970360983E-01 -1.57951171972E-05 -2.01458187851E-04 -4.49095987931E-06 -1.45161618597E-04 +7.46969588363E-01 +4.23902403927E-01
2.68500000000E+09 +7.46794245444E-01 +2.88116152795E-01 -1.34604666205E-04 -6.66968977592E-05 -1.21270733983E-04 -3.76176951574E-05 +7.49928131884E-01 +4.12805256438E-01
2.69000000000E+09 +7.47740491326E-01 +2.73881854223E-01 -1.91957608136E-05 +5.41463500269E-05 -7.31343817299E-05 +7.66969532345E-05 +7.52625866267E-01 +4.01010411796E-01
2.69500000000E+09 +7.48271252829E-01 +2.59946109129E-01 +6.18913819184E-05 -3.61072584640E-05 +5.88317315852E-06 -4.74559708531E-06 +7.55154703170E-01 +3.88786457700E-01
2.70000000000E+09 +7.48827357819E-01 +2.46052301691E-01 -6.19703063759E-06 -1.02762198515E-04 -1.83298291786E-06 -5.12227388387E-05 +7.57987923132E-01 +3.75851383929E-01
2.70500000000E+09 +7.49147850692E-01 +2.32711540342E-01 -9.65178229583E-05 +1.68832259012E-05 -6.58619307034E-05 +2.80833494162E-05 +7.60699541640E-01 +3.62698329796E-01
2.71000000000E+09 +7.49715780509E-01 +2.19623498233E-01 -5.84382158315E-05 -4.69416986609E-05 +3.70206147267E-06 +2.39689220953E-05 +7.63649597331E-01 +3.49770552264E-01
2.71500000000E+09 +7.50686814789E-01 +2.05949966456E-01 +9.10553487563E-06 +3.04355953077E-05 +3.85970539545E-05 +1.40135641701E-05 +7.65950727109E-01 +3.37234375794E-01
2.72000000000E+09 +7.51321660056E-01 +1.91725800292E-01 +8.18072968511E-05 -8.55875166475E-05 +6.19673538430E-05 -1.07863102908E-04 +7.67799188436E-01 +3.24899436746E-01
2.72500000000E+09 +7.51662699767E-01 +1.76479635339E-01 -9.53888041151E-05 -1.30505639170E-04 -1.18588459404E-04 -1.15666545993E-04 +7.69249725162E-01 +3.11827913160E-01
2.73000000000E+09 +7.50574484552E-01 +1.60371291542E-01 -1.51632831662E-04 +7.52728111556E-05 -6.53875987684E-05 +9.72133373608E-05 +7.70603579754E-01 +2.97797430278E-01
2.73500000000E+09 +7.48524218071E-01 +1.43593963708E-01 +7.21612697035E-05 +1.85822374425E-05 +1.32910215528E-04 -1.97396200580E-05 +7.71285519554E-01 +2.82917774564E-01
2.74000000000E+09 +7.45192659887E-01 +1.27009821203E-01 +2.54419738640E-05 -1.91717471767E-05 +3.57143674214E-05 -1.01009939628E-04 +7.72479183086E-01 +2.68245383846E-01
2.74500000000E+09 +7.41083919799E-01 +1.09994639781E-01 +1.06149559536E-04 -1.81864605415E-04 +1.13266473993E-04 -1.77332500894E-04 +7.73417261591E-01 +2.53419610344E-01
2.75000000000E+09 +7.36210348334E-01 +9.35616486393E-02 -3.68788076064E-05 -2.44136479012E-04 -9.62322410587E-06 -3.12182916026E-04 +7.74273982050E-01 +2.38923012839E-01
2.75500000000E+09 +7.31112755602E-01 +7.69124907992E-02 -1.78990020689E-04 -3.47013358143E-04 -1.77623968883E-04 -4.00303555167E-04 +7.74437126664E-01 +2.23697210896E-01
2.76000000000E+09 +7.26119295926E-01 +6.05605647509E-02 -4.00704581498E-04 -2.77792130089E-04 -4.38667226870E-04 -3.30753806293E-04 +7.73461886304E-01 +2.08677120674E-01
2.76500000000E+09 +7.21539382218E-01 +4.41561713377E-02 -4.95431305922E-04 -5.80372572861E-05 -5.42842518418E-04 -1.20808794461E-04 +7.72526598122E-01 +1.93153139323E-01
2.77000000000E+09 +7.17339291476E-01 +2.67485300286E-02 -4.44583372154E-04 +1.50550550235E-04 -4.22932485296E-04 +9.56762447249E-05 +7.72033468645E-01 +1.76712265622E-01
2.77500000000E+09 +7.12533260082E-01 +8.02747192492E-03 -3.35192210659E-04 +8.82893338976E-05 -3.35401370905E-04 +1.62820191394E-04 +7.70863873201E-01 +1.59202203570E-01
2.78000000000E+09 +7.08794514461E-01 -1.14939043419E-02 -2.84879988298E-04 +1.55480742673E-04 -2.80897717535E-04 +1.68322143577E-04 +7.69228855348E-01 +1.41866981126E-01
2.78500000000E+09 +7.03840544300E-01 -3.19943278067E-02 -3.34275289227E-04 +1.69461441349E-04 -2.98788837758E-04 +1.77361795848E-04 +7.67032513820E-01 +1.24700629813E-01
2.79000000000E+09 +6.97896373840E-01 -5.30320538621E-02 -5.30673395545E-04 +2.50355212235E-04 -4.61584371721E-04 +2.75256069914E-04 +7.64897306039E-01 +1.08214963039E-01
2.79500000000E+09 +6.90717596249E-01 -7.34259023344E-02 -3.86991828556E-04 +5.78846314939E-04 -3.71828764384E-04 +5.07100615093E-04 +7.62103133335E-01 +8.99502605048E-02
2.80000000000E+09 +6.82051494135E-01 -9.35118396217E-02 -1.52799838233E-04 +6.25615737652E-04 -2.09390346464E-04 +6.00091823690E-04 +7.57725146065E-01 +7.10863643621E-02
2.80500000000E+09 +6.72580250763E-01 -1.12163639381E-01 -7.39053439204E-05 +5.77555096521E-04 -9.74000056979E-05 +5.51686196017E-04 +7.52767721773E-01 +5.21628104890E-02
2.81000000000E+09 +6.61959266223E-01 -1.29616982937E-01 +4.35428301330E-05 +5.58672065711E-04 +3.97781487214E-05 +6.23301579128E-04 +7.47445020388E-01 +3.22347646311E-02
2.81500000000E+09 +6.50832003155E-01 -1.46347740350E-01 +1.73061849833E-04 +5.78259197309E-04 +1.97784889039E-04 +5.86666445519E-04 +7.40905705604E-01 +1.19283697603E-02
2.82000000000E+09 +6.38326648155E-01 -1.62737648956E-01 +2.31472551648E-04 +4.54839003031E-04 +2.97184623988E-04 +4.06468597694E-04 +7.33969344913E-01 -8.41496957821E-03
2.82500000000E+09 +6.24901321748E-01 -1.78749594744E-01 +1.56838728916E-04 +4.18337924375E-04 +2.41233476771E-04 +4.16026002514E-04 +7.25500320598E-01 -2.92766135091E-02
2.83000000000E+09 +6.10458252907E-01 -1.95815186091E-01 +2.45303088100E-04 +4.57597407198E-04 +1.90729821776E-04 +4.26444135448E-04 +7.15630898372E-01 -4.95242389911E-02
2.83500000000E+09 +5.93893769265E-01 -2.14282852246E-01 +3.00569633780E-04 +6.05409685527E-04 +2.72696856470E-04 +5.99049067053E-04 +7.05273892174E-01 -6.97667284901E-02
2.84000000000E+09 +5.74460526036E-01 -2.32840484086E-01 +5.74742098271E-04 +3.81878009036E-04 +5.30235075100E-04 +3.77397971130E-04 +6.94134036607E-01 -9.06464604464E-02
2.84500000000E+09 +5.52837476378E-01 -2.51074628518E-01 +4.48768747300E-04 +2.19383738835E-04 +4.60963696453E-04 +2.54139204964E-04 +6.81519583131E-01 -1.11435249464E-01
2.85000000000E+09 +5.30399934598E-01 -2.68774605912E-01 +4.98981260064E-04 +3.33606599035E-04 +4.80890684164E-04 +3.51605832549E-04 +6.67444313410E-01 -1.32366105996E-01
2.85500000000E+09 +5.06604557700E-01 -2.86249885473E-01 +5.00022145667E-04 +2.62733571404E-04 +4.58286586376E-04 +2.50179679526E-04 +6.52423859396E-01 -1.52307997426E-01
2.86000000000E+09 +4.82019425371E-01 -3.02870131920E-01 +6.47944305779E-04 +2.60457219569E-04 +6.50721942203E-04 +2.30436077954E-04 +6.36409899869E-01 -1.72607159841E-01
2.86500000000E+09 +4.56668227509E-01 -3.18029964538E-01 +7.69380310558E-04 -2.78588135299E-05 +7.08254716685E-04 -6.41038852802E-05 +6.18887737157E-01 -1.92891637119E-01
2.87000000000E+09 +4.31247324648E-01 -3.31559154626E-01 +5.05152681196E-04 -1.09927311578E-04 +4.88603094171E-04 -7.11286448169E-05 +6.00141594785E-01 -2.13118407671E-01
2.87500000000E+09 +4.06426160871E-01 -3.43521673014E-01 +5.99013570715E-04 +1.38746690049E-04 +5.34375602326E-04 +9.53356452070E-05 +5.79646749064E-01 -2.32800493588E-01
2.88000000000E+09 +3.81506538991E-01 -3.55015496337E-01 +8.22970419909E-04 -5.01489408328E-05 +8.12315834272E-04 -5.18128323502E-05 +5.58281741272E-01 -2.51203119898E-01
2.88500000000E+09 +3.55428168155E-01 -3.65744015392E-01 +9.24998568499E-04 -2.78124983194E-04 +8.44685823913E-04 -2.61420946784E-04 +5.36019951546E-01 -2.69687342777E-01
2.89000000000E+09 +3.28065259953E-01 -3.75171363049E-01 +8.44187610428E-04 -5.64524218951E-04 +7.76071394327E-04 -4.48700842979E-04 +5.11577975086E-01 -2.87451966355E-01
2.89500000000E+09 +2.99175627582E-01 -3.83126644460E-01 +6.45572951862E-04 -6.71493562151E-04 +7.43767943108E-04 -5.82576950806E-04 +4.85824569885E-01 -3.05316221027E-01
2.90000000000E+09 +2.68489727752E-01 -3.89849945856E-01 +4.12346148385E-04 -6.77263557890E-04 +4.75199782447E-04 -6.75478763627E-04 +4.57010150650E-01 -3.22750921527E-01
2.90500000000E+09 +2.35885105856E-01 -3.94230891398E-01 +5.64593753298E-04 -8.54311169482E-04 +6.69594209088E-04 -8.24379198034E-04 +4.27299331991E-01 -3.37469304256E-01
2.91000000000E+09 +2.02770803649E-01 -3.95817669338E-01 +2.27903325417E-04 -1.18613016968E-03 +2.43171735246E-04 -1.15294061093E-03 +3.97511386892E-01 -3.52006521628E-01
2.91500000000E+09 +1.69947828845E-01 -3.95822010038E-01 -1.17050540144E-04 -7.62424112862E-04 -1.27713646211E-04 -7.66856918236E-04 +3.65199319662E-01 -3.64674775533E-01
2.92000000000E+09 +1.36292729650E-01 -3.93913491151E-01 +6.68316938951E-05 -6.45288612627E-04 +1.10115505485E-04 -6.78279540247E-04 +3.31677640944E-01 -3.74916402582E-01
2.92500000000E+09 +1.03092363048E-01 -3.89564080020E-01 +6.30344703639E-05 -1.16271220715E-03 +1.39007003103E-04 -1.11041446609E-03 +2.96507242244E-01 -3.82604044934E-01
2.93000000000E+09 +7.10538322018E-02 -3.83692425287E-01 -6.12562865226E-04 -1.27692517699E-03 -5.45469925100E-04 -1.29288074437E-03 +2.60770395035E-01 -3.89150346736E-01
2.93500000000E+09 +3.84051476595E-02 -3.76838133031E-01 -1.03625645638E-03 -6.36436369803E-04 -1.00568925988E-03 -7.09767132330E-04 +2.23002778441E-01 -3.94615448623E-01
2.94000000000E+09 +5.54433446449E-03 -3.66934949573E-01 -7.29287911755E-04 -7.67084083545E-05 -7.22489478764E-04 -1.82738037112E-04 +1.83563619229E-01 -3.98282507215E-01
2.94500000000E+09 -2.65994036077E-02 -3.54689482895E-01 -4.13846155182E-04 -2.07237216880E-04 -5.27134243216E-04 -2.43635490475E-04 +1.42412347676E-01 -3.98772525369E-01
2.95000000000E+09 -5.89019289627E-02 -3.39499275716E-01 -4.26215354218E-04 -3.28738355231E-04 -4.23035408907E-04 -3.57299177820E-04 +1.02588415360E-01 -3.95239211407E-01
2.95500000000E+09 -8.98014485999E-02 -3.20574470830E-01 -6.30726788867E-04 -2.82491175138E-04 -7.07816716529E-04 -2.94321297370E-04 +6.25003061471E-02 -3.90351667595E-01
2.96000000000E+09 -1.18984719033E-01 -2.99497239581E-01 -7.11766092144E-04 -1.50133540104E-04 -8.17842021351E-04 -6.53994741611E-05 +2.16635836575E-02 -3.80998849961E-01
2.96500000000E+09 -1.46726525177E-01 -2.76720573137E-01 -5.79737756087E-04 +4.06881221991E-04 -5.73639954171E-04 +4.37518790452E-04 -1.77508810142E-02 -3.69466499769E-01
2.97000000000E+09 -1.73943604122E-01 -2.51530633767E-01 +6.27589112531E-06 +1.33685821040E-04 +3.19050316236E-05 +1.54710590188E-04 -5.92489066814E-02 -3.55844934956E-01
2.97500000000E+09 -1.99057538315E-01 -2.23826723092E-01 +2.84764501069E-05 -3.00890240379E-04 -5.58495136158E-06 -2.20168034036E-04 -9.86476364383E-02 -3.37656581484E-01
2.98000000000E+09 -2.21933068925E-01 -1.94622398213E-01 -6.08550869196E-04 -4.03252909142E-04 -5.65243403441E-04 -3.28818607241E-04 -1.37526826505E-01 -3.17885285103E-01
2.98500000000E+09 -2.43093019535E-01 -1.65101411986E-01 -4.79284448739E-04 +2.69133272754E-05 -4.23639252131E-04 +9.54006236505E-05 -1.74490595202E-01 -2.94242447951E-01
2.99000000000E+09 -2.62920328231E-01 -1.34358239910E-01 -4.53319511773E-04 -1.58091370761E-04 -3.93051782290E-04 -1.53415423472E-04 -2.09549175398E-01 -2.67960600970E-01
2.99500000000E+09 -2.80367014338E-01 -1.03191954682E-01 -6.09171907366E-04 +6.54936355245E-05 -4.77090523767E-04 +1.10440770665E-04 -2.42988664056E-01 -2.37211850402E-01
3.00000000000E+09 -2.96340408355E-01 -7.14984217529E-02 -3.90728406919E-04 +9.03091871557E-06 -3.74514294019E-04 -2.90076747649E-06 -2.71760334792E-01 -2.05591746774E-01
3.00500000000E+09 -3.09458706831E-01 -3.98594470051E-02 -7.49172747773E-04 -3.25114909510E-05 -7.01170289735E-04 -1.18545633686E-04 -3.00776612153E-01 -1.73167382236E-01
3.01000000000E+09 -3.20687765355E-01 -8.78914113896E-03 -7.14066741342E-04 +3.41940331139E-04 -6.73621317754E-04 +2.25210489072E-04 -3.26861594509E-01 -1.38016362628E-01
3.01500000000E+09 -3.29832310901E-01 +2.21442390579E-02 -4.71487092982E-04 +5.48133729739E-04 -5.68657414375E-04 +4.37958503821E-04 -3.50042685578E-01 -1.01906392431E-01
3.02000000000E+09 -3.36145547802E-01 +5.38449098037E-02 -2.09268173309E-04 +5.37623551288E-04 -2.71508776304E-04 +5.59302529308E-04 -3.70399171042E-01 -6.43424612789E-02
3.02500000000E+09 -3.38746906357E-01 +8.46574997046E-02 -6.22133737906E-05 +2.40644942476E-04 -1.19336971952E-04 +2.38131314734E-04 -3.87176367841E-01 -2.54886563961E-02
3.03000000000E+09 -3.38610992606E-01 +1.14825462783E-01 -3.97784376529E-04 +1.73372945390E-04 -4.61148150212E-04 +1.33494751109E-04 -4.00545835992E-01 +1.34853993012E-02
3.03500000000E+09 -3.35931686437E-01 +1.43833974878E-01 -4.95498645835E-04 +5.54808000190E-04 -5.91851114280E-04 +5.88583698070E-04 -4.12015829726E-01 +5.28764821006E-02
3.04000000000E+09 -3.31911938996E-01 +1.72796415846E-01 -5.48896222500E-05 +4.17881473178E-04 -1.30265445372E-04 +4.35491071656E-04 -4.20471404597E-01 +9.29322003826E-02
3.04500000000E+09 -3.25117875086E-01 +2.02029128060E-01 -4.04232878375E-04 +5.83735725231E-04 -4.02237010968E-04 +6.88367338703E-04 -4.25742630187E-01 +1.32529404213E-01
3.05000000000E+09 -3.16477415327E-01 +2.30684287342E-01 +9.51812143942E-05 +6.71020587142E-04 +6.09148038393E-05 +7.17782099561E-04 -4.28464277264E-01 +1.71200371090E-01
3.05500000000E+09 -3.05879657968E-01 +2.58617933095E-01 -3.05298644940E-05 +5.56400042871E-04 +2.33117287011E-05 +5.60479197368E-04 -4.29231976580E-01 +2.08780938984E-01
3.06000000000E+09 -2.94783833438E-01 +2.85882366368E-01 +1.30289468242E-04 +4.71576567366E-04 +2.04808025530E-04 +5.36143983649E-04 -4.28065555885E-01 +2.46634128846E-01
3.06500000000E+09 -2.82200608899E-01 +3.12490773506E-01 +5.10006808817E-05 +4.24077673993E-04 +4.23372279557E-05 +4.01458965181E-04 -4.24069680140E-01 +2.84348826427E-01
3.07000000000E+09 -2.68737222267E-01 +3.37482112170E-01 +2.28292869552E-04 +6.01732446330E-04 +2.00755791026E-04 +6.04401784542E-04 -4.17318266242E-01 +3.20119130267E-01
