# Hz S RI R 50
! CMT, C1220, 16058040, 17.2.0/1
! Date: 15/08/2018 09:45:18
! Data: Format (Calibration Info)
! Freq                      S11: Re/Im (F2)                       S21: Re/Im (F2)                       S12: Re/Im (F2)                       S22: Re/Im (F2)            
2.50000000000E+09 +5.80162108540E-01 +6.61430005070E-01 +2.01881396773E-04 -1.71864179629E-03 +2.29162031351E-04 -1.85632439019E-03 +5.73761625898E-01 +7.18416023814E-01
2.50500000000E+09 +5.87102464729E-01 +6.53805674117E-01 +1.14787476708E-06 -1.74963361006E-03 -3.62358082030E-05 -1.85741948678E-03 +5.79242713364E-01 +7.12969678211E-01
2.51000000000E+09 +5.94442512406E-01 +6.45689022374E-01 -1.80405447948E-04 -1.76781985641E-03 -3.05404255188E-04 -1.76138483203E-03 +5.84652578499E-01 +7.07927912844E-01
2.51500000000E+09 +6.01663000389E-01 +6.37316308875E-01 -4.12639558994E-04 -1.81183048892E-03 -4.51530189949E-04 -1.76348116223E-03 +5.89902653656E-01 +7.02456991474E-01
2.52000000000E+09 +6.08589856242E-01 +6.28561324277E-01 -6.46734979866E-04 -1.74553781177E-03 -5.48461715004E-04 -1.75653071257E-03 +5.95231042160E-01 +6.96376447171E-01
2.52500000000E+09 +6.14490509733E-01 +6.20012194332E-01 -7.67890479877E-04 -1.63015636906E-03 -7.16854947574E-04 -1.73001374088E-03 +6.01170630885E-01 +6.89801241541E-01
2.53000000000E+09 +6.19907182773E-01 +6.11746921723E-01 -8.87955753676E-04 -1.59817920548E-03 -8.91220843518E-04 -1.65975129899E-03 +6.07443604803E-01 +6.82689016833E-01
2.53500000000E+09 +6.24652994978E-01 +6.03561454580E-01 -9.56303804231E-04 -1.50197569353E-03 -9.92119143455E-04 -1.46993676614E-03 +6.13102686477E-01 +6.75668374832E-01
2.54000000000E+09 +6.28852672043E-01 +5.95817713956E-01 -1.11853144220E-03 -1.52295060076E-03 -1.10322939508E-03 -1.53139433353E-03 +6.18875894058E-01 +6.69230519381E-01
2.54500000000E+09 +6.33114125757E-01 +5.88715070010E-01 -1.34331890871E-03 -1.47884037690E-03 -1.30378476159E-03 -1.62251966169E-03 +6.24490088443E-01 +6.62815846329E-01
2.55000000000E+09 +6.37979335908E-01 +5.81691557112E-01 -1.65143326621E-03 -1.20905283824E-03 -1.64094721197E-03 -1.49383809799E-03 +6.29587002740E-01 +6.56461371814E-01
2.55500000000E+09 +6.43573363526E-01 +5.74119019509E-01 -1.76504030737E-03 -1.04203590182E-03 -1.99197330262E-03 -1.27178911239E-03 +6.34768968787E-01 +6.49979547057E-01
2.56000000000E+09 +6.50025417662E-01 +5.66422573786E-01 -1.64856943600E-03 -7.52711996481E-04 -1.99875561908E-03 -7.48685520663E-04 +6.40255134962E-01 +6.42733776429E-01
2.56500000000E+09 +6.57039226730E-01 +5.57620933554E-01 -1.61001611089E-03 -8.47793150398E-04 -1.94857197272E-03 -5.78921602375E-04 +6.45868112164E-01 +6.35112717154E-01
2.57000000000E+09 +6.64119064076E-01 +5.48606104292E-01 -1.76769786858E-03 -8.20217475931E-04 -1.89839773940E-03 -4.30671528009E-04 +6.51280317575E-01 +6.27579485157E-01
2.57500000000E+09 +6.71266704628E-01 +5.38760975190E-01 -2.02075045762E-03 -7.62370390304E-04 -1.85306379950E-03 -3.53711862238E-04 +6.56603049904E-01 +6.20198836177E-01
2.58000000000E+09 +6.77442139586E-01 +5.28939785524E-01 -2.26525838198E-03 -4.40970186458E-04 -1.92743403335E-03 -3.00582688817E-04 +6.61472855533E-01 +6.12968868895E-01
2.58500000000E+09 +6.83113951287E-01 +5.18921019492E-01 -2.19202692503E-03 -5.36790227826E-05 -1.93557160771E-03 -1.24398369165E-04 +6.66081008573E-01 +6.05537252519E-01
2.59000000000E+09 +6.88269519088E-01 +5.09407364775E-01 -1.96325398067E-03 +4.22174816954E-06 -1.85341328416E-03 -1.26041036806E-04 +6.71227969258E-01 +5.97627943948E-01
2.59500000000E+09 +6.92798852290E-01 +4.99565442918E-01 -2.01189761209E-03 -7.79232786056E-05 -2.01343743305E-03 -2.25354615438E-04 +6.76268782608E-01 +5.89225476315E-01
2.60000000000E+09 +6.96604374919E-01 +4.90047241966E-01 -2.32083699630E-03 -1.81069749870E-05 -2.31061285512E-03 -3.49526044247E-05 +6.81427402392E-01 +5.80814002088E-01
2.60500000000E+09 +7.00709440796E-01 +4.80241773636E-01 -2.62184602145E-03 +3.12111196289E-04 -2.57764036413E-03 +2.78801548504E-04 +6.86639830850E-01 +5.72308125814E-01
2.61000000000E+09 +7.04876565540E-01 +4.70000050903E-01 -2.75300655372E-03 +7.84478365889E-04 -2.71377064549E-03 +7.59337525750E-04 +6.91579595303E-01 +5.63704185268E-01
2.61500000000E+09 +7.09710011940E-01 +4.59012253292E-01 -2.43272564588E-03 +1.40044472511E-03 -2.51189842500E-03 +1.31124203489E-03 +6.96051602607E-01 +5.55401410145E-01
2.62000000000E+09 +7.14552693618E-01 +4.46942105081E-01 -2.07766696312E-03 +1.39198715776E-03 -2.17732951387E-03 +1.45602433958E-03 +7.00951290439E-01 +5.46571539439E-01
2.62500000000E+09 +7.19418636031E-01 +4.33622737803E-01 -2.10085740409E-03 +1.35588850252E-03 -2.14093643164E-03 +1.56027778083E-03 +7.05867130643E-01 +5.37159284974E-01
2.63000000000E+09 +7.23902914800E-01 +4.19819651204E-01 -2.12381388626E-03 +1.68185228866E-03 -1.88773056720E-03 +1.85602930649E-03 +7.10588404736E-01 +5.27810402186E-01
2.63500000000E+09 +7.27851667087E-01 +4.05696730700E-01 -2.07719912639E-03 +1.91529840748E-03 -1.73024966613E-03 +1.91403292342E-03 +7.15723833246E-01 +5.18483917348E-01
2.64000000000E+09 +7.31333247196E-01 +3.91825019061E-01 -1.99981747440E-03 +2.38263587228E-03 -1.65082337192E-03 +2.09265271952E-03 +7.20544413245E-01 +5.09113943403E-01
2.64500000000E+09 +7.34381984970E-01 +3.78599808161E-01 -1.49040111901E-03 +2.70473651931E-03 -1.50256116714E-03 +2.23047805597E-03 +7.25196193387E-01 +4.99818699800E-01
2.65000000000E+09 +7.36965703459E-01 +3.66073641728E-01 -1.09788683016E-03 +2.65433128905E-03 -1.42385017908E-03 +2.42918205824E-03 +7.29634971817E-01 +4.90216541719E-01
2.65500000000E+09 +7.39570556739E-01 +3.53801988843E-01 -9.82350424042E-04 +2.58791853452E-03 -1.27748344640E-03 +2.63316664990E-03 +7.33573575624E-01 +4.79631448769E-01
2.66000000000E+09 +7.42292946794E-01 +3.41904795292E-01 -9.34592442055E-04 +2.75328732074E-03 -1.00678389078E-03 +3.04600790018E-03 +7.37667165761E-01 +4.68584971271E-01
2.66500000000E+09 +7.45235166589E-01 +3.29884703916E-01 -6.72360768704E-04 +3.00751852465E-03 -4.89207549431E-04 +3.21968979529E-03 +7.42394323131E-01 +4.57146958748E-01
2.67000000000E+09 +7.47939257715E-01 +3.16788524200E-01 -2.29692344827E-04 +3.06975887212E-03 -4.92298184268E-06 +3.01060363252E-03 +7.47061975665E-01 +4.45971752071E-01
2.67500000000E+09 +7.50095744058E-01 +3.02914535699E-01 +8.33120523839E-05 +2.93020284884E-03 +1.71844592627E-04 +2.75016809487E-03 +7.51140362029E-01 +4.34761920300E-01
2.68000000000E+09 +7.51815512307E-01 +2.88246748454E-01 +1.93561654471E-04 +2.78017433013E-03 +2.04432090758E-04 +2.65047345109E-03 +7.54985367013E-01 +4.24148955448E-01
2.68500000000E+09 +7.52860731654E-01 +2.72857296746E-01 +1.26638890690E-04 +2.89307098182E-03 +8.12944213145E-05 +2.81912249706E-03 +7.58343738672E-01 +4.12655337933E-01
2.69000000000E+09 +7.53082014130E-01 +2.57227458067E-01 +3.55678242705E-04 +3.16159473921E-03 +3.07116242590E-04 +3.16443022445E-03 +7.61113008821E-01 +4.00646085735E-01
2.69500000000E+09 +7.53215463973E-01 +2.41784255117E-01 +8.02982593430E-04 +3.29582681917E-03 +8.95304572053E-04 +3.24666932323E-03 +7.64053035087E-01 +3.87409817190E-01
2.70000000000E+09 +7.53129945870E-01 +2.26399586388E-01 +1.22741915253E-03 +3.26581476579E-03 +1.21668002848E-03 +3.18970251992E-03 +7.67316724581E-01 +3.73716219056E-01
2.70500000000E+09 +7.52842017154E-01 +2.11275587343E-01 +1.62168197975E-03 +3.00295955971E-03 +1.43792405779E-03 +2.88677115245E-03 +7.70423771192E-01 +3.59835629761E-01
2.71000000000E+09 +7.52800235829E-01 +1.96641767745E-01 +1.75847038878E-03 +2.89261134975E-03 +1.66306866327E-03 +2.93595031781E-03 +7.72971383397E-01 +3.46971503330E-01
2.71500000000E+09 +7.53309593416E-01 +1.81868313173E-01 +1.77454387430E-03 +2.79599453372E-03 +1.83278839685E-03 +2.92007240208E-03 +7.75872962064E-01 +3.34555463328E-01
2.72000000000E+09 +7.53804478406E-01 +1.66768010621E-01 +1.97292067521E-03 +2.93609940588E-03 +2.26958556958E-03 +2.97433021194E-03 +7.78409386830E-01 +3.21412003921E-01
2.72500000000E+09 +7.54223872750E-01 +1.51158449758E-01 +2.49178058917E-03 +2.89307429030E-03 +2.73370774118E-03 +2.57488364687E-03 +7.79432506932E-01 +3.07022529043E-01
2.73000000000E+09 +7.53887723171E-01 +1.35054173579E-01 +2.66426924954E-03 +2.79057015760E-03 +2.57830949424E-03 +2.36701633193E-03 +7.80628152564E-01 +2.92379805353E-01
2.73500000000E+09 +7.52679421737E-01 +1.17936576126E-01 +3.05218969442E-03 +3.03610237316E-03 +2.63094648273E-03 +2.62830322457E-03 +7.81432357465E-01 +2.77038123722E-01
2.74000000000E+09 +7.50267283061E-01 +1.00720639205E-01 +3.96585704703E-03 +2.91840615962E-03 +3.33093451199E-03 +2.84681293697E-03 +7.82993582704E-01 +2.62062489656E-01
2.74500000000E+09 +7.46537977372E-01 +8.27443786319E-02 +4.42655955339E-03 +2.11964966526E-03 +3.94340681009E-03 +2.56965599860E-03 +7.84096725630E-01 +2.46710054056E-01
2.75000000000E+09 +7.41358799316E-01 +6.51080145804E-02 +4.66126956150E-03 +1.68057058359E-03 +4.58843801029E-03 +2.26105252203E-03 +7.84218753892E-01 +2.31440463231E-01
2.75500000000E+09 +7.35551293150E-01 +4.75340025188E-02 +4.80726025039E-03 +1.14221086251E-03 +5.10994558120E-03 +1.61378423158E-03 +7.83416529873E-01 +2.16110340172E-01
2.76000000000E+09 +7.29472424151E-01 +3.03074336855E-02 +4.97492722041E-03 +9.51832862430E-04 +5.33901042143E-03 +1.09881732583E-03 +7.82555145099E-01 +2.00646066773E-01
2.76500000000E+09 +7.23571922956E-01 +1.31649485495E-02 +5.44863909667E-03 +6.21667136781E-04 +5.79697012197E-03 +6.02242707726E-04 +7.81360169543E-01 +1.83373778562E-01
2.77000000000E+09 +7.18369496900E-01 -4.74746639183E-03 +6.00761305653E-03 -1.55626355075E-04 +6.32176522395E-03 -2.81031780931E-04 +7.80111161395E-01 +1.65572859002E-01
2.77500000000E+09 +7.13450471370E-01 -2.34706999883E-02 +6.04731228900E-03 -1.30234419471E-03 +6.19546224995E-03 -1.54671185748E-03 +7.78080523773E-01 +1.47510442399E-01
2.78000000000E+09 +7.08874913834E-01 -4.32260594553E-02 +5.62131971635E-03 -1.84511671574E-03 +5.65795251411E-03 -2.23847355692E-03 +7.75646521326E-01 +1.30225991217E-01
2.78500000000E+09 +7.03675192182E-01 -6.40316942313E-02 +5.52530631737E-03 -2.28195400733E-03 +5.33657640110E-03 -2.62147864203E-03 +7.73269565215E-01 +1.13168429784E-01
2.79000000000E+09 +6.97498215365E-01 -8.57574954951E-02 +5.57319976911E-03 -2.92371609107E-03 +5.16277856012E-03 -3.06815709411E-03 +7.69949468782E-01 +9.55932250494E-02
2.79500000000E+09 +6.89940876489E-01 -1.07050190602E-01 +5.25851091207E-03 -3.53102314841E-03 +4.95542262972E-03 -3.39707358404E-03 +7.65518067764E-01 +7.73184001792E-02
2.80000000000E+09 +6.80588412283E-01 -1.27690635874E-01 +5.32548883640E-03 -4.26785161040E-03 +5.27307594615E-03 -3.99881105878E-03 +7.60344820746E-01 +5.82087932866E-02
2.80500000000E+09 +6.70592121987E-01 -1.47005888067E-01 +4.67882399652E-03 -5.40361676625E-03 +4.85566879879E-03 -5.22563725919E-03 +7.54378859384E-01 +3.93760392068E-02
2.81000000000E+09 +6.59498006435E-01 -1.65481467469E-01 +3.76044063648E-03 -5.56566513717E-03 +3.87322533476E-03 -5.63988822960E-03 +7.48638660585E-01 +2.02512510849E-02
2.81500000000E+09 +6.47565472569E-01 -1.83024854015E-01 +3.64490734846E-03 -5.82189044822E-03 +3.57154400432E-03 -6.07517125158E-03 +7.41724498062E-01 +9.29706086359E-04
2.82000000000E+09 +6.34757459840E-01 -2.00390923759E-01 +3.33197747396E-03 -6.59121657787E-03 +2.99399338421E-03 -6.69175953502E-03 +7.34154338804E-01 -1.86370171185E-02
2.82500000000E+09 +6.20975714732E-01 -2.18084121889E-01 +2.36128196064E-03 -7.33224462343E-03 +2.01812918899E-03 -7.02100420904E-03 +7.24701666740E-01 -3.86911496014E-02
2.83000000000E+09 +6.05054535268E-01 -2.36430042572E-01 +1.58192763500E-03 -7.62686499641E-03 +1.53172856839E-03 -7.21777850351E-03 +7.14342433564E-01 -5.87995155447E-02
2.83500000000E+09 +5.87895510288E-01 -2.54653116887E-01 +5.41770431460E-04 -7.68829675033E-03 +7.80254999656E-04 -7.41753066920E-03 +7.03746084870E-01 -7.88292836579E-02
2.84000000000E+09 +5.68888355773E-01 -2.73423400030E-01 -1.46971474326E-05 -7.40254987503E-03 +1.69840771262E-04 -7.35074271514E-03 +6.92638306171E-01 -9.98537347191E-02
2.84500000000E+09 +5.48185558411E-01 -2.92489093968E-01 +2.99622524444E-05 -7.95233062421E-03 +1.65569506993E-04 -7.95547336845E-03 +6.80153501505E-01 -1.20586935916E-01
2.85000000000E+09 +5.25888679220E-01 -3.11217386853E-01 -9.41280915733E-04 -9.15927535544E-03 -9.45824117030E-04 -9.14838732908E-03 +6.66158556887E-01 -1.41008442963E-01
2.85500000000E+09 +5.02460423580E-01 -3.29277999398E-01 -2.94030872424E-03 -9.56063424641E-03 -2.97433685326E-03 -9.42097980919E-03 +6.50716125640E-01 -1.60593495926E-01
2.86000000000E+09 +4.78051902705E-01 -3.47055186030E-01 -4.64966511801E-03 -8.93493866284E-03 -4.56785821666E-03 -8.82831065478E-03 +6.34839031847E-01 -1.80610099194E-01
2.86500000000E+09 +4.53086167885E-01 -3.63113624183E-01 -6.21911943444E-03 -7.99191838355E-03 -6.09211136774E-03 -7.98729308483E-03 +6.17319324109E-01 -2.01740234238E-01
2.87000000000E+09 +4.27583602893E-01 -3.78643132205E-01 -6.96980133380E-03 -6.52877398926E-03 -7.01511990198E-03 -6.52632513166E-03 +5.97306151038E-01 -2.22826187767E-01
2.87500000000E+09 +4.01796463413E-01 -3.92422681285E-01 -6.76640996698E-03 -5.82760046447E-03 -6.90378144290E-03 -5.60875406322E-03 +5.76617109413E-01 -2.41771569786E-01
2.88000000000E+09 +3.75787341736E-01 -4.05067994982E-01 -7.30193846415E-03 -5.93292155585E-03 -7.29765763010E-03 -5.52623631589E-03 +5.55501527396E-01 -2.60382013710E-01
2.88500000000E+09 +3.49357469205E-01 -4.16547910086E-01 -9.03545713607E-03 -5.31635528661E-03 -8.54544690061E-03 -4.82037514281E-03 +5.33088861754E-01 -2.77927492896E-01
2.89000000000E+09 +3.22087756040E-01 -4.27564840696E-01 -9.50189563266E-03 -3.57900322140E-03 -8.83857232716E-03 -3.61013561896E-03 +5.08556518501E-01 -2.96146485518E-01
2.89500000000E+09 +2.93334237048E-01 -4.37576908256E-01 -9.70350326069E-03 -2.86542984139E-03 -9.24214184607E-03 -3.20886721844E-03 +4.80538621923E-01 -3.13627934193E-01
2.90000000000E+09 +2.62595263763E-01 -4.46620873910E-01 -1.04906369074E-02 -1.76880590335E-03 -1.04670430564E-02 -2.17112254961E-03 +4.51239008938E-01 -3.28630260551E-01
2.90500000000E+09 +2.28701929257E-01 -4.53541544054E-01 -1.05745920684E-02 -4.34589023904E-04 -1.07757772893E-02 -5.01877674249E-04 +4.22515706652E-01 -3.44064779123E-01
2.91000000000E+09 +1.93469032181E-01 -4.57009762362E-01 -1.08510215841E-02 +5.08109682089E-04 -1.07740307506E-02 +7.98626142965E-04 +3.91406153790E-01 -3.59364051057E-01
2.91500000000E+09 +1.58036662820E-01 -4.57867992781E-01 -1.12327351126E-02 +2.39548318975E-03 -1.06708854385E-02 +2.56541913575E-03 +3.58351377438E-01 -3.71446764800E-01
2.92000000000E+09 +1.22574825287E-01 -4.56489221244E-01 -1.01291438113E-02 +4.07428576407E-03 -9.54673069898E-03 +3.78752848134E-03 +3.24228972271E-01 -3.80621083269E-01
2.92500000000E+09 +8.77507651581E-02 -4.53239336333E-01 -9.38307549887E-03 +4.23870327493E-03 -9.05477306306E-03 +3.63119917274E-03 +2.88777045505E-01 -3.87073378410E-01
2.93000000000E+09 +5.33125801650E-02 -4.48853589629E-01 -9.76508929340E-03 +5.16930452162E-03 -9.83853147581E-03 +4.56014569423E-03 +2.53343894266E-01 -3.92746067425E-01
2.93500000000E+09 +1.83654116270E-02 -4.43425011952E-01 -9.34641869732E-03 +6.75613955997E-03 -9.63531673969E-03 +6.36793888841E-03 +2.15750541149E-01 -3.98304917432E-01
2.94000000000E+09 -1.67272641150E-02 -4.35879806419E-01 -8.59228199375E-03 +7.98319069638E-03 -8.83014917068E-03 +7.83847520808E-03 +1.75581369626E-01 -4.02226249917E-01
2.94500000000E+09 -5.17179907728E-02 -4.26190170906E-01 -7.63419964684E-03 +9.62032981249E-03 -7.86400823018E-03 +9.39731303678E-03 +1.34766482991E-01 -4.01883343227E-01
2.95000000000E+09 -8.71915772023E-02 -4.12391711691E-01 -5.70513234404E-03 +1.02799215373E-02 -6.10460415211E-03 +1.01101013055E-02 +9.46510972800E-02 -3.97291478394E-01
2.95500000000E+09 -1.20290502554E-01 -3.95250843658E-01 -4.57606311715E-03 +1.01270699299E-02 -5.02392422455E-03 +1.01595915879E-02 +5.64939935978E-02 -3.90560503780E-01
2.96000000000E+09 -1.51762759374E-01 -3.76127195155E-01 -4.24002979759E-03 +1.05567627538E-02 -4.51752131423E-03 +1.09641433829E-02 +1.65244557996E-02 -3.82115605236E-01
2.96500000000E+09 -1.82488826287E-01 -3.54788735023E-01 -3.32314141069E-03 +1.16153685946E-02 -3.08237108748E-03 +1.20891357845E-02 -2.44620730039E-02 -3.70304651697E-01
2.97000000000E+09 -2.12290618754E-01 -3.30314326156E-01 -1.82633482681E-03 +1.23583589614E-02 -1.37689377791E-03 +1.23572031601E-02 -6.51518956990E-02 -3.55698326681E-01
2.97500000000E+09 -2.40218951559E-01 -3.03843640518E-01 -2.74428776360E-04 +1.29664193057E-02 -7.72557875137E-05 +1.26223317859E-02 -1.04705604295E-01 -3.38283095197E-01
2.98000000000E+09 -2.67691546503E-01 -2.75664341261E-01 +2.15917743616E-03 +1.28135912211E-02 +1.82149408704E-03 +1.24661695708E-02 -1.42942976572E-01 -3.18327341641E-01
2.98500000000E+09 -2.94143355529E-01 -2.45204588798E-01 +3.28233957731E-03 +1.17729170514E-02 +2.83439386061E-03 +1.18983839655E-02 -1.80085528886E-01 -2.94803450430E-01
2.99000000000E+09 -3.18933754455E-01 -2.12961334570E-01 +3.82225183155E-03 +1.15539054787E-02 +3.81501878521E-03 +1.21817008149E-02 -2.15416972325E-01 -2.67860546734E-01
2.99500000000E+09 -3.41793033471E-01 -1.79147115746E-01 +5.24502861514E-03 +1.24258796025E-02 +5.82577587674E-03 +1.27912057635E-02 -2.48819559196E-01 -2.38108376916E-01
3.00000000000E+09 -3.61019830876E-01 -1.45040737322E-01 +8.12396905710E-03 +1.16381735591E-02 +8.79479952109E-03 +1.12197110584E-02 -2.79589194981E-01 -2.05873485684E-01
3.00500000000E+09 -3.78926686873E-01 -1.12061736730E-01 +9.44789229204E-03 +9.92770236270E-03 +9.41351119675E-03 +9.23388473431E-03 -3.08363153553E-01 -1.73065218008E-01
3.01000000000E+09 -3.95254655482E-01 -7.89299331835E-02 +1.05389989762E-02 +8.46374025849E-03 +1.00314166234E-02 +8.12239660151E-03 -3.35080090501E-01 -1.38170178797E-01
3.01500000000E+09 -4.09532298221E-01 -4.46875723828E-02 +1.12480787779E-02 +7.30154432174E-03 +1.08474652140E-02 +7.39935229396E-03 -3.59113316087E-01 -1.01899111303E-01
3.02000000000E+09 -4.20091574889E-01 -9.30967145496E-03 +1.21707129489E-02 +6.06713802408E-03 +1.19803656348E-02 +6.23667461116E-03 -3.79645646112E-01 -6.22831715444E-02
3.02500000000E+09 -4.27017291253E-01 +2.56718357986E-02 +1.29934448900E-02 +4.71140870628E-03 +1.28952484581E-02 +4.77479032918E-03 -3.95696484225E-01 -2.22263253028E-02
3.03000000000E+09 -4.30551803247E-01 +6.10274849636E-02 +1.37588904602E-02 +2.82106787399E-03 +1.36096596552E-02 +2.97447526698E-03 -4.09626350098E-01 +1.81270074543E-02
3.03500000000E+09 -4.30437262418E-01 +9.60889897787E-02 +1.40401321645E-02 +1.04770091537E-03 +1.39340765363E-02 +1.46320191390E-03 -4.20680680666E-01 +5.85806554572E-02
3.04000000000E+09 -4.27937757236E-01 +1.30122918043E-01 +1.42290563015E-02 -1.16569952943E-03 +1.46542181325E-02 -6.09868384621E-04 -4.29756730723E-01 +9.95463073895E-02
3.04500000000E+09 -4.23549109818E-01 +1.64258481674E-01 +1.36411545326E-02 -3.20773225648E-03 +1.45837186542E-02 -3.26257942960E-03 -4.34826109459E-01 +1.41370470139E-01
3.05000000000E+09 -4.17133589713E-01 +1.98614608756E-01 +1.26684894837E-02 -4.85125879763E-03 +1.33103927026E-02 -5.67846632385E-03 -4.35319155878E-01 +1.81721331115E-01
3.05500000000E+09 -4.08547166436E-01 +2.32232751597E-01 +1.16907036466E-02 -6.09352222992E-03 +1.14375107038E-02 -6.99824693087E-03 -4.34491923462E-01 +2.19884068922E-01
3.06000000000E+09 -3.98844705083E-01 +2.65616462783E-01 +1.11625440798E-02 -7.43055558848E-03 +1.02880543123E-02 -7.75350680902E-03 -4.32258531823E-01 +2.58671060573E-01
3.06500000000E+09 -3.86594922742E-01 +2.98239322184E-01 +1.00952098790E-02 -9.29085636635E-03 +9.47990938015E-03 -8.73727875764E-03 -4.26843747159E-01 +2.96625205476E-01
3.07000000000E+09 -3.72959695029E-01 +3.27933665065E-01 +7.92069595911E-03 -1.07113835937E-02 +8.26380103979E-03 -9.88669920907E-03 -4.19475786200E-01 +3.32639025721E-01
