# Hz S RI R 50
! CMT, C1220, 16058040, 17.2.0/1
! Date: 15/08/2018 09:44:33
! Data: Format (Calibration Info)
! Freq                      S11: Re/Im (F2)                       S21: Re/Im (F2)                       S12: Re/Im (F2)                       S22: Re/Im (F2)            
2.50000000000E+09 +5.82118961378E-01 +6.59926182572E-01 -1.98295152658E-04 -1.78989300089E-03 -2.25408758449E-04 -1.90686436333E-03 +5.73658817622E-01 +7.18840437933E-01
2.50500000000E+09 +5.89201536525E-01 +6.52087827158E-01 -3.71615980245E-04 -1.75396188634E-03 -5.04599227826E-04 -1.84088182862E-03 +5.79176120083E-01 +7.13218691562E-01
2.51000000000E+09 +5.96494842962E-01 +6.43859699936E-01 -5.75489550516E-04 -1.76261966451E-03 -6.52794460555E-04 -1.72002188439E-03 +5.84655764333E-01 +7.08072651292E-01
2.51500000000E+09 +6.03844310180E-01 +6.35395360095E-01 -7.64214957683E-04 -1.73607209712E-03 -7.88764957215E-04 -1.66334378310E-03 +5.89920834875E-01 +7.02760669599E-01
2.52000000000E+09 +6.10578121931E-01 +6.26551608568E-01 -9.89055262590E-04 -1.67927072041E-03 -9.08566748377E-04 -1.64477444946E-03 +5.95187196713E-01 +6.96562060755E-01
2.52500000000E+09 +6.16582677387E-01 +6.17951317184E-01 -1.13820984920E-03 -1.50464434847E-03 -1.06784494976E-03 -1.54269882964E-03 +6.01119896411E-01 +6.90017154494E-01
2.53000000000E+09 +6.22058346612E-01 +6.09656666858E-01 -1.15640501584E-03 -1.40089115541E-03 -1.21494997752E-03 -1.43866913285E-03 +6.07362073703E-01 +6.82586561822E-01
2.53500000000E+09 +6.26756774694E-01 +6.01713927071E-01 -1.23199296967E-03 -1.34602105028E-03 -1.25478878427E-03 -1.31643962174E-03 +6.13182829306E-01 +6.75925815590E-01
2.54000000000E+09 +6.30919410429E-01 +5.93895443742E-01 -1.43980173158E-03 -1.32578670478E-03 -1.42254211196E-03 -1.31751382624E-03 +6.18901182918E-01 +6.69437337522E-01
2.54500000000E+09 +6.35128726575E-01 +5.86716731424E-01 -1.58267911810E-03 -1.30493054209E-03 -1.56718051796E-03 -1.40478695791E-03 +6.24530416128E-01 +6.63159373628E-01
2.55000000000E+09 +6.39725559890E-01 +5.79678333344E-01 -1.86440309465E-03 -1.04805110622E-03 -1.91151285706E-03 -1.24204605796E-03 +6.29744737577E-01 +6.56619323377E-01
2.55500000000E+09 +6.45347588298E-01 +5.72100512186E-01 -1.97290588077E-03 -8.10348541053E-04 -2.20988127611E-03 -1.00968403357E-03 +6.34868544287E-01 +6.50089750523E-01
2.56000000000E+09 +6.51793213009E-01 +5.64374908753E-01 -1.87118462634E-03 -5.53623724732E-04 -2.25813728701E-03 -4.61854029841E-04 +6.40348482619E-01 +6.42691557838E-01
2.56500000000E+09 +6.58594760541E-01 +5.55578711249E-01 -1.84961145428E-03 -5.82223063802E-04 -2.18369496660E-03 -2.19321952213E-04 +6.46069432880E-01 +6.35114685314E-01
2.57000000000E+09 +6.65758274245E-01 +5.46392892220E-01 -2.00454644323E-03 -4.83689623755E-04 -2.06526502827E-03 -1.18153569860E-05 +6.51458430498E-01 +6.27391757918E-01
2.57500000000E+09 +6.73013028862E-01 +5.36440317847E-01 -2.17879451728E-03 -3.01773097092E-04 -1.93084292500E-03 +3.67106808062E-05 +6.56725557913E-01 +6.19984963456E-01
2.58000000000E+09 +6.79111508077E-01 +5.26429946798E-01 -2.38398831466E-03 -7.36971296492E-05 -1.99660692893E-03 +4.92226217857E-05 +6.61610981337E-01 +6.12600139776E-01
2.58500000000E+09 +6.84844068563E-01 +5.16161113500E-01 -2.28128482412E-03 +3.91363525695E-04 -1.98702652337E-03 +2.53303090237E-04 +6.66108906554E-01 +6.05091989778E-01
2.59000000000E+09 +6.89953054889E-01 +5.06565310952E-01 -1.94448671904E-03 +4.29976511161E-04 -1.93988602097E-03 +2.44389910420E-04 +6.71167663094E-01 +5.97138708455E-01
2.59500000000E+09 +6.94406330552E-01 +4.96802580658E-01 -2.04309002036E-03 +3.10672233837E-04 -2.06683314535E-03 +2.19953192183E-04 +6.76221470935E-01 +5.88565675511E-01
2.60000000000E+09 +6.98203759504E-01 +4.87278126294E-01 -2.31066651166E-03 +4.50870281295E-04 -2.31441939662E-03 +4.02874698775E-04 +6.80980559940E-01 +5.80183362531E-01
2.60500000000E+09 +7.02454140002E-01 +4.77479398975E-01 -2.56278004797E-03 +7.53388083715E-04 -2.55421964285E-03 +7.30975709668E-04 +6.86241297139E-01 +5.71724826172E-01
2.61000000000E+09 +7.06531851695E-01 +4.67151426236E-01 -2.54607822030E-03 +1.28738906707E-03 -2.57442258533E-03 +1.21961549131E-03 +6.91086215174E-01 +5.63075880595E-01
2.61500000000E+09 +7.11230940917E-01 +4.56159227067E-01 -2.17841997261E-03 +1.85180044694E-03 -2.26486259553E-03 +1.88730235151E-03 +6.95393639517E-01 +5.54906972712E-01
2.62000000000E+09 +7.15992927793E-01 +4.43807134485E-01 -1.80595881869E-03 +1.79437799059E-03 -1.80853144811E-03 +1.89516644805E-03 +7.00171436254E-01 +5.46063907819E-01
2.62500000000E+09 +7.20783114082E-01 +4.30456494894E-01 -1.79798820179E-03 +1.68934735918E-03 -1.70953394324E-03 +1.95465722969E-03 +7.05130279103E-01 +5.36816659641E-01
2.63000000000E+09 +7.25269598660E-01 +4.16516461488E-01 -1.84139298722E-03 +1.99567555607E-03 -1.56961132363E-03 +2.13712922085E-03 +7.09777124460E-01 +5.27547482635E-01
2.63500000000E+09 +7.29223094822E-01 +4.02212412702E-01 -1.75413878131E-03 +2.21019130582E-03 -1.34930344097E-03 +2.13886454054E-03 +7.15011693617E-01 +5.18174539114E-01
2.64000000000E+09 +7.32674482997E-01 +3.88191785692E-01 -1.62196275152E-03 +2.71010223180E-03 -1.32012014351E-03 +2.33008420683E-03 +7.19756170893E-01 +5.08719368020E-01
2.64500000000E+09 +7.35744732834E-01 +3.74904156893E-01 -1.00781392504E-03 +2.97633304775E-03 -1.09644860355E-03 +2.54440930573E-03 +7.24320517817E-01 +4.99508232223E-01
2.65000000000E+09 +7.38395405053E-01 +3.62085876901E-01 -6.08341326146E-04 +2.82871738035E-03 -8.92014130328E-04 +2.61084662690E-03 +7.28668133623E-01 +4.89978825377E-01
2.65500000000E+09 +7.40981526782E-01 +3.49662929277E-01 -5.09397465254E-04 +2.69631815173E-03 -8.19993321438E-04 +2.77010261246E-03 +7.32638375924E-01 +4.79299374612E-01
2.66000000000E+09 +7.43775048882E-01 +3.37779292227E-01 -5.14523616274E-04 +2.82069700071E-03 -5.53055353397E-04 +3.03216933657E-03 +7.36544500357E-01 +4.68301223002E-01
2.66500000000E+09 +7.46660111894E-01 +3.25533884286E-01 -2.33829681550E-04 +3.06974830647E-03 -3.27508260200E-05 +3.21640449344E-03 +7.41373235539E-01 +4.57015895984E-01
2.67000000000E+09 +7.49201126546E-01 +3.12400334549E-01 +2.66370016512E-04 +3.14270987609E-03 +4.37692012862E-04 +3.02135048541E-03 +7.46015166605E-01 +4.45895812357E-01
2.67500000000E+09 +7.51330869231E-01 +2.98638982798E-01 +6.00774672546E-04 +2.91062052335E-03 +6.41887395146E-04 +2.71370381268E-03 +7.50114159626E-01 +4.34645851566E-01
2.68000000000E+09 +7.52940420703E-01 +2.83748724878E-01 +6.03216514879E-04 +2.73851785338E-03 +5.53553896393E-04 +2.59163566546E-03 +7.53604319639E-01 +4.24166135910E-01
2.68500000000E+09 +7.53711533101E-01 +2.68069131337E-01 +5.68336925751E-04 +2.88109368944E-03 +4.35079121759E-04 +2.87480241257E-03 +7.56909825255E-01 +4.12736446910E-01
2.69000000000E+09 +7.53617570293E-01 +2.52362961593E-01 +8.45271755523E-04 +3.22315163267E-03 +7.95771940065E-04 +3.25491087735E-03 +7.59534657206E-01 +4.00669738160E-01
2.69500000000E+09 +7.53218930229E-01 +2.36785514823E-01 +1.48673758642E-03 +3.24469701974E-03 +1.46248788276E-03 +3.20936240290E-03 +7.62665507445E-01 +3.87832828960E-01
2.70000000000E+09 +7.52919971145E-01 +2.21375283584E-01 +1.94739628160E-03 +3.03167350078E-03 +1.84009113401E-03 +2.99848487548E-03 +7.65871636800E-01 +3.74049472047E-01
2.70500000000E+09 +7.52445058009E-01 +2.06191465967E-01 +2.22769268472E-03 +2.60251292080E-03 +2.14451166167E-03 +2.62031494470E-03 +7.68887760583E-01 +3.60315477675E-01
2.71000000000E+09 +7.52249648186E-01 +1.91386852936E-01 +2.27629065861E-03 +2.40535383327E-03 +2.19549062309E-03 +2.51247917925E-03 +7.71632712502E-01 +3.47754000798E-01
2.71500000000E+09 +7.52636974182E-01 +1.76478477223E-01 +2.21773350591E-03 +2.33790720097E-03 +2.34141963862E-03 +2.50883082250E-03 +7.74651454493E-01 +3.35370977286E-01
2.72000000000E+09 +7.52952150232E-01 +1.61420115655E-01 +2.46204257206E-03 +2.53207073984E-03 +2.78972661519E-03 +2.50999787962E-03 +7.76985240984E-01 +3.22192700529E-01
2.72500000000E+09 +7.53157572776E-01 +1.45705574294E-01 +2.99554879411E-03 +2.36141193348E-03 +3.17667995951E-03 +1.99171628018E-03 +7.77907164935E-01 +3.08150306780E-01
2.73000000000E+09 +7.52663539500E-01 +1.29532452295E-01 +3.09560995564E-03 +2.09933127846E-03 +2.97838995391E-03 +1.68655261712E-03 +7.79232144197E-01 +2.93790072746E-01
2.73500000000E+09 +7.51025438660E-01 +1.12489555920E-01 +3.39274983542E-03 +2.17342469462E-03 +2.95015320658E-03 +1.89566653320E-03 +7.80217350589E-01 +2.78672952046E-01
2.74000000000E+09 +7.48262751877E-01 +9.52669366434E-02 +4.17134621538E-03 +1.94565017822E-03 +3.54037624007E-03 +2.07340663186E-03 +7.81969858871E-01 +2.63743108898E-01
2.74500000000E+09 +7.44294206274E-01 +7.75156335461E-02 +4.33448373883E-03 +1.25543428559E-03 +3.97800881255E-03 +1.73773578263E-03 +7.83204314701E-01 +2.48338246755E-01
2.75000000000E+09 +7.38846822543E-01 +5.96983026291E-02 +4.40435309671E-03 +1.02141085959E-03 +4.45376505416E-03 +1.55447647603E-03 +7.83619303328E-01 +2.33218889821E-01
2.75500000000E+09 +7.32513871199E-01 +4.23514356694E-02 +4.68229639361E-03 +6.85671584961E-04 +4.98256008509E-03 +1.00122633495E-03 +7.83038350997E-01 +2.18035621367E-01
2.76000000000E+09 +7.26210523465E-01 +2.52747520825E-02 +4.92926120436E-03 +3.87012476090E-04 +5.22294595425E-03 +4.93313938149E-04 +7.82472439482E-01 +2.02562173116E-01
2.76500000000E+09 +7.20099341166E-01 +8.29993435730E-03 +5.36773201759E-03 +2.59928185695E-05 +5.64383458060E-03 -3.08592261002E-05 +7.81393102144E-01 +1.85276988154E-01
2.77000000000E+09 +7.14814880873E-01 -9.37320119298E-03 +5.96686960089E-03 -7.79883765240E-04 +6.19401022275E-03 -9.75554206863E-04 +7.80596088749E-01 +1.67531012903E-01
2.77500000000E+09 +7.09867105963E-01 -2.78749001589E-02 +5.82641419224E-03 -2.12306084379E-03 +5.96779090043E-03 -2.39454790239E-03 +7.78563856622E-01 +1.49244525341E-01
2.78000000000E+09 +7.05045018632E-01 -4.73640984554E-02 +5.17070379517E-03 -2.65534989944E-03 +5.14965908029E-03 -2.96110794457E-03 +7.76429199971E-01 +1.31926059836E-01
2.78500000000E+09 +6.99794130277E-01 -6.77571985018E-02 +4.99584902337E-03 -2.86831393564E-03 +4.72730280101E-03 -3.15048889468E-03 +7.74163095763E-01 +1.14728303628E-01
2.79000000000E+09 +6.93793156655E-01 -8.91253469322E-02 +5.10125873529E-03 -3.32951202507E-03 +4.71068242058E-03 -3.43152954346E-03 +7.71308100237E-01 +9.70911752551E-02
2.79500000000E+09 +6.85928561850E-01 -1.10238960150E-01 +4.88531461666E-03 -3.99081348114E-03 +4.55283880473E-03 -3.78115643817E-03 +7.67176507390E-01 +7.84630582346E-02
2.80000000000E+09 +6.76329129052E-01 -1.30553737875E-01 +5.04155432976E-03 -4.90019539280E-03 +4.93778745359E-03 -4.50184504054E-03 +7.61711218488E-01 +5.88991547026E-02
2.80500000000E+09 +6.66079658531E-01 -1.49358045851E-01 +4.08010833213E-03 -6.19348250671E-03 +4.34373984384E-03 -5.98528312188E-03 +7.55751136187E-01 +4.01510625904E-02
2.81000000000E+09 +6.54930062928E-01 -1.67383035788E-01 +2.96711577228E-03 -6.18864856212E-03 +3.15698851870E-03 -6.36844248985E-03 +7.50158828061E-01 +2.06739799417E-02
2.81500000000E+09 +6.43033741743E-01 -1.84770889839E-01 +2.69501258618E-03 -6.48615014702E-03 +2.54960715871E-03 -6.75386266870E-03 +7.43079706249E-01 +1.21193021912E-03
2.82000000000E+09 +6.30095004472E-01 -2.01956781294E-01 +2.12268750391E-03 -6.98661607645E-03 +1.75647469526E-03 -7.10249579069E-03 +7.35659392909E-01 -1.85703587277E-02
2.82500000000E+09 +6.16251004631E-01 -2.19266146503E-01 +1.13946469394E-03 -7.41767658994E-03 +7.89635383665E-04 -7.16649012782E-03 +7.26073137046E-01 -3.88875397029E-02
2.83000000000E+09 +6.00270081164E-01 -2.37483743495E-01 +4.16722421001E-04 -7.60056650802E-03 +3.38703225254E-04 -7.14969991330E-03 +7.15590014742E-01 -5.88661794153E-02
2.83500000000E+09 +5.83191550418E-01 -2.55368197933E-01 -6.51074735714E-04 -7.57738252673E-03 -4.08134068401E-04 -7.31698617177E-03 +7.05263712716E-01 -7.86568430403E-02
2.84000000000E+09 +5.64493444632E-01 -2.73763723959E-01 -1.06240522056E-03 -6.95772076979E-03 -8.93514421409E-04 -6.97389111013E-03 +6.94786309802E-01 -1.00151741284E-01
2.84500000000E+09 +5.43782152751E-01 -2.92696472830E-01 -8.27007999873E-04 -7.55248723512E-03 -7.68184955982E-04 -7.62844593633E-03 +6.82181575400E-01 -1.21853702658E-01
2.85000000000E+09 +5.21459318192E-01 -3.11082298454E-01 -1.99179900023E-03 -8.81424891520E-03 -2.00545679684E-03 -8.79379781559E-03 +6.67431901485E-01 -1.42487009686E-01
2.85500000000E+09 +4.98170223544E-01 -3.28623976358E-01 -4.08530344460E-03 -9.06746092126E-03 -4.11543103479E-03 -8.94017346523E-03 +6.52010305551E-01 -1.61859315880E-01
2.86000000000E+09 +4.73970065797E-01 -3.46215748570E-01 -5.84162209339E-03 -8.22234833985E-03 -5.69863500021E-03 -8.12064478942E-03 +6.36397267469E-01 -1.82313383855E-01
2.86500000000E+09 +4.49109982625E-01 -3.62128508903E-01 -7.46829090889E-03 -6.82640982090E-03 -7.33265749271E-03 -6.87132380007E-03 +6.18894531264E-01 -2.03958137341E-01
2.87000000000E+09 +4.23639379234E-01 -3.77453448916E-01 -7.56776011051E-03 -5.02166225519E-03 -7.61430404346E-03 -4.99248669827E-03 +5.98501755411E-01 -2.25494472880E-01
2.87500000000E+09 +3.97679541291E-01 -3.91188408658E-01 -7.01854896647E-03 -4.57121220816E-03 -7.13047778188E-03 -4.34157418661E-03 +5.77310740864E-01 -2.44901253892E-01
2.88000000000E+09 +3.71601439638E-01 -4.03480832046E-01 -7.55840464433E-03 -4.99688744314E-03 -7.54484145912E-03 -4.58255818559E-03 +5.55720627992E-01 -2.63519763278E-01
2.88500000000E+09 +3.45591920293E-01 -4.14446534532E-01 -9.40190049365E-03 -4.11330025655E-03 -8.92921637821E-03 -3.79039547350E-03 +5.33063762327E-01 -2.81590424173E-01
2.89000000000E+09 +3.18736810734E-01 -4.25395876885E-01 -9.69372384917E-03 -2.36943058291E-03 -9.11369198073E-03 -2.56311174081E-03 +5.07294729508E-01 -3.00255653162E-01
2.89500000000E+09 +2.90378228495E-01 -4.35362976619E-01 -9.95009769858E-03 -1.50813290163E-03 -9.57057269555E-03 -1.94225689955E-03 +4.78462958669E-01 -3.17086996477E-01
2.90000000000E+09 +2.59772665051E-01 -4.44447133892E-01 -1.03588646898E-02 -1.13560986573E-04 -1.04043145824E-02 -5.13380191290E-04 +4.48640354682E-01 -3.31802605815E-01
2.90500000000E+09 +2.25959551568E-01 -4.51268867631E-01 -9.96378855958E-03 +1.08192038144E-03 -1.01847857051E-02 +1.00785290138E-03 +4.19526022057E-01 -3.46811348918E-01
2.91000000000E+09 +1.91358609544E-01 -4.54107910210E-01 -1.00519397472E-02 +1.70988958502E-03 -1.00113680555E-02 +1.96148957217E-03 +3.88445983536E-01 -3.61760575653E-01
2.91500000000E+09 +1.56508903707E-01 -4.54840356227E-01 -1.03054422102E-02 +3.30236080955E-03 -9.79305047958E-03 +3.46004280125E-03 +3.54867650225E-01 -3.74236267275E-01
2.92000000000E+09 +1.21622021056E-01 -4.53373378837E-01 -9.33947895519E-03 +4.72272961552E-03 -8.82922444211E-03 +4.34592250368E-03 +3.19497827948E-01 -3.82664098148E-01
2.92500000000E+09 +8.73273192563E-02 -4.50124677649E-01 -8.86834540704E-03 +4.92129495908E-03 -8.61596292974E-03 +4.32494316602E-03 +2.83991950028E-01 -3.88239811307E-01
2.93000000000E+09 +5.34393762770E-02 -4.45985257550E-01 -9.22929281604E-03 +5.94632241702E-03 -9.37352319449E-03 +5.35717998511E-03 +2.48271640935E-01 -3.92906491716E-01
2.93500000000E+09 +1.86431523690E-02 -4.40804184927E-01 -8.67213882683E-03 +7.70170916276E-03 -9.02654276630E-03 +7.39833083794E-03 +2.10868872252E-01 -3.98010737816E-01
2.94000000000E+09 -1.61775563165E-02 -4.33138693703E-01 -7.69178446106E-03 +8.94939604608E-03 -7.88894460094E-03 +8.79979550189E-03 +1.70444869889E-01 -4.01191585937E-01
2.94500000000E+09 -5.07421948139E-02 -4.23696496468E-01 -6.49911498553E-03 +1.05726517691E-02 -6.72227735845E-03 +1.03674496752E-02 +1.29553061874E-01 -3.99974406794E-01
2.95000000000E+09 -8.58009355001E-02 -4.10171832992E-01 -4.30225178678E-03 +1.09026555023E-02 -4.72508379572E-03 +1.07683400565E-02 +9.03213270638E-02 -3.94605436665E-01
2.95500000000E+09 -1.18692816394E-01 -3.93285759922E-01 -3.03026324736E-03 +1.06486470595E-02 -3.50915740170E-03 +1.08160833527E-02 +5.27493022449E-02 -3.87558256669E-01
2.96000000000E+09 -1.49554873585E-01 -3.74337413645E-01 -2.61089686966E-03 +1.07493281133E-02 -2.85384680866E-03 +1.12531291996E-02 +1.29079054418E-02 -3.78636112020E-01
2.96500000000E+09 -1.79766438721E-01 -3.53647321453E-01 -1.80951647606E-03 +1.14510814917E-02 -1.55013004749E-03 +1.19260232952E-02 -2.77280485052E-02 -3.66571746603E-01
2.97000000000E+09 -2.09385610102E-01 -3.29842135252E-01 -3.11548938868E-04 +1.21386621659E-02 +1.35900451037E-04 +1.21349486078E-02 -6.79718883969E-02 -3.51490294637E-01
2.97500000000E+09 -2.37456546668E-01 -3.03933397220E-01 +1.29054626706E-03 +1.26707076559E-02 +1.42002325173E-03 +1.22325781479E-02 -1.07216888801E-01 -3.33505215086E-01
2.98000000000E+09 -2.65089543691E-01 -2.76153523021E-01 +3.82452234417E-03 +1.20333132639E-02 +3.45909634092E-03 +1.18413302013E-02 -1.44103671718E-01 -3.12938233382E-01
2.98500000000E+09 -2.91730543441E-01 -2.45816417945E-01 +4.58821675903E-03 +1.09121888244E-02 +4.20759538837E-03 +1.12418822905E-02 -1.80430962158E-01 -2.90052476130E-01
2.99000000000E+09 -3.16336497569E-01 -2.13483962250E-01 +5.14679669075E-03 +1.05931233158E-02 +5.25521569475E-03 +1.11855348005E-02 -2.15475882698E-01 -2.63315178238E-01
2.99500000000E+09 -3.38764554598E-01 -1.80336891766E-01 +6.44162814362E-03 +1.11469667337E-02 +7.10986225479E-03 +1.14179780748E-02 -2.48449125668E-01 -2.33629810154E-01
3.00000000000E+09 -3.58679671069E-01 -1.47096668785E-01 +8.92997364152E-03 +9.97084666930E-03 +9.52459605879E-03 +9.54227104743E-03 -2.78791018752E-01 -2.01329081604E-01
3.00500000000E+09 -3.77331799277E-01 -1.14092470728E-01 +9.62670166461E-03 +8.58882998120E-03 +9.56450520806E-03 +7.90800996051E-03 -3.07015605670E-01 -1.68626879750E-01
3.01000000000E+09 -3.94129939273E-01 -8.05154753907E-02 +1.08477685272E-02 +7.41063618432E-03 +1.03048797740E-02 +7.04428091658E-03 -3.32902625910E-01 -1.34033878119E-01
3.01500000000E+09 -4.08408818108E-01 -4.58846163447E-02 +1.17294517927E-02 +6.05859467484E-03 +1.13089704839E-02 +6.24350131643E-03 -3.56745990136E-01 -9.81278855892E-02
3.02000000000E+09 -4.18714068323E-01 -1.06803542846E-02 +1.24110115018E-02 +4.68184181453E-03 +1.22823259171E-02 +4.89089743230E-03 -3.76809188978E-01 -5.84533751681E-02
3.02500000000E+09 -4.25911926196E-01 +2.44402856698E-02 +1.30771277036E-02 +3.24874355941E-03 +1.30489149539E-02 +3.35052955376E-03 -3.91531617872E-01 -1.88374625930E-02
3.03000000000E+09 -4.29688844357E-01 +5.99238402475E-02 +1.34841444163E-02 +1.32359374023E-03 +1.33587456285E-02 +1.49903399561E-03 -4.05047145380E-01 +1.99900294667E-02
3.03500000000E+09 -4.29631329879E-01 +9.52063668552E-02 +1.35383373766E-02 -2.78376317529E-04 +1.34892988712E-02 +1.28207529996E-04 -4.16657863797E-01 +5.95674747289E-02
3.04000000000E+09 -4.27105293649E-01 +1.29574488689E-01 +1.37271584554E-02 -2.34739225085E-03 +1.41061541146E-02 -1.91436679604E-03 -4.25426824456E-01 +1.00136512000E-01
3.04500000000E+09 -4.22610921734E-01 +1.63652001125E-01 +1.28164086871E-02 -4.27159201211E-03 +1.35971419731E-02 -4.33234494650E-03 -4.30774183500E-01 +1.41163230548E-01
3.05000000000E+09 -4.15959989643E-01 +1.98088874135E-01 +1.19303670917E-02 -5.60080674663E-03 +1.24198081495E-02 -6.39949137843E-03 -4.31751722027E-01 +1.81120298653E-01
3.05500000000E+09 -4.07833557378E-01 +2.31545416318E-01 +1.11423636826E-02 -6.63625752540E-03 +1.07779889618E-02 -7.59398069924E-03 -4.31021722343E-01 +2.18868450099E-01
3.06000000000E+09 -3.97974043829E-01 +2.65334974076E-01 +1.07342652328E-02 -8.15008872505E-03 +9.81649622221E-03 -8.38196600019E-03 -4.29056291385E-01 +2.57313055830E-01
3.06500000000E+09 -3.85486784664E-01 +2.97964682386E-01 +9.51602132023E-03 -1.01956778190E-02 +8.91855606948E-03 -9.57415401128E-03 -4.23730025951E-01 +2.94657193296E-01
3.07000000000E+09 -3.71750150178E-01 +3.27612269184E-01 +7.03347946059E-03 -1.17349292763E-02 +7.43452556869E-03 -1.09102089194E-02 -4.16597238586E-01 +3.29893539288E-01
