# Hz S RI R 50
! CMT, C1220, 16058040, 17.2.0/1
! Date: 15/08/2018 10:40:24
! Data: Format (Calibration Info)
! Freq                      S11: Re/Im (F2)                       S21: Re/Im (F2)                       S12: Re/Im (F2)                       S22: Re/Im (F2)            
2.50000000000E+09 +5.93265028284E-01 +6.48905960353E-01 -1.97881462780E-04 -3.91192888990E-04 -2.14388317193E-04 -4.28327184296E-04 +5.64200496972E-01 +7.25115404879E-01
2.50500000000E+09 +6.00099440173E-01 +6.40777797963E-01 -3.01060643708E-04 -3.64801577388E-04 -3.52906852442E-04 -3.40486209500E-04 +5.70211814480E-01 +7.19568354864E-01
2.51000000000E+09 +6.07619190773E-01 +6.32497491376E-01 -3.14150220928E-04 -2.66468641947E-04 -3.07991938131E-04 -2.74939274665E-04 +5.76226029643E-01 +7.14186413993E-01
2.51500000000E+09 +6.15558158264E-01 +6.24605521259E-01 -3.00657204257E-04 -2.75773723448E-04 -2.96321833049E-04 -2.80116291167E-04 +5.81654697605E-01 +7.08709553766E-01
2.52000000000E+09 +6.22397255761E-01 +6.17045273409E-01 -3.61041641802E-04 -3.09320021416E-04 -3.37478222448E-04 -2.60364461783E-04 +5.86983390636E-01 +7.02844738612E-01
2.52500000000E+09 +6.28176253469E-01 +6.10671397634E-01 -4.10138279786E-04 -2.84213283651E-04 -3.94931108884E-04 -2.91952898142E-04 +5.92982452424E-01 +6.96340244722E-01
2.53000000000E+09 +6.33020982673E-01 +6.04991362733E-01 -4.40644073419E-04 -2.53040492050E-04 -4.30176451758E-04 -2.82182222565E-04 +5.99427277867E-01 +6.89169048332E-01
2.53500000000E+09 +6.36950980188E-01 +5.99696016117E-01 -5.28433757991E-04 -1.88055823445E-04 -5.26921981981E-04 -1.88895442366E-04 +6.05351835980E-01 +6.82019435777E-01
2.54000000000E+09 +6.40175261905E-01 +5.93766484204E-01 -5.03022348878E-04 -1.08533762018E-04 -5.34384576753E-04 -1.72382264734E-04 +6.11130775215E-01 +6.75200815726E-01
2.54500000000E+09 +6.43632807041E-01 +5.87678377707E-01 -6.03941891212E-04 -7.06533063226E-05 -6.13962422150E-04 -5.97539506568E-05 +6.16562134434E-01 +6.68859137389E-01
2.55000000000E+09 +6.48010256266E-01 +5.80330081809E-01 -5.77096448599E-04 +3.87742560229E-05 -6.20684008682E-04 -4.24924854712E-06 +6.21628971083E-01 +6.62741670620E-01
2.55500000000E+09 +6.53305129576E-01 +5.71318265953E-01 -5.17629909522E-04 +1.02101985572E-04 -6.38082161619E-04 +1.20248787244E-04 +6.26635427440E-01 +6.56377968848E-01
2.56000000000E+09 +6.59873113785E-01 +5.61598468778E-01 -4.06745176763E-04 +8.22541414179E-05 -4.86742363402E-04 +1.32101323403E-04 +6.31681528381E-01 +6.49321579737E-01
2.56500000000E+09 +6.67187576925E-01 +5.51252892885E-01 -5.31588528844E-04 -8.85833489203E-06 -6.33249954761E-04 +9.39320661427E-05 +6.36922812564E-01 +6.41871436506E-01
2.57000000000E+09 +6.74864937628E-01 +5.41295997294E-01 -6.68001622922E-04 +1.15179629953E-04 -5.59151693166E-04 +1.78585579063E-04 +6.42149232406E-01 +6.34284684953E-01
2.57500000000E+09 +6.82442476415E-01 +5.31945928353E-01 -6.64036873477E-04 +1.55900999579E-04 -5.48172044490E-04 +2.25840771804E-04 +6.47431984873E-01 +6.26941179473E-01
2.58000000000E+09 +6.88838524351E-01 +5.23820388473E-01 -6.57758039621E-04 +2.35648200313E-04 -5.61904006285E-04 +2.46567204864E-04 +6.52676106389E-01 +6.19712958332E-01
2.58500000000E+09 +6.94175992183E-01 +5.16907952550E-01 -7.40998756217E-04 +3.62252693961E-04 -6.74010899940E-04 +2.97128952574E-04 +6.57804493235E-01 +6.12619317445E-01
2.59000000000E+09 +6.98239956163E-01 +5.10962389994E-01 -7.14475384090E-04 +5.13426137577E-04 -7.19991698445E-04 +4.65595418824E-04 +6.63016705685E-01 +6.05224878453E-01
2.59500000000E+09 +7.01673437366E-01 +5.05069692292E-01 -6.02771837098E-04 +6.43778211853E-04 -6.87053696587E-04 +5.92162221010E-04 +6.68248228178E-01 +5.97475434635E-01
2.60000000000E+09 +7.04088436904E-01 +4.98362016156E-01 -5.17246444679E-04 +7.05360490002E-04 -5.24355528747E-04 +6.94726039168E-04 +6.73947253285E-01 +5.89358578417E-01
2.60500000000E+09 +7.06646332573E-01 +4.90006605111E-01 -5.37031443441E-04 +7.45999325189E-04 -5.32602169035E-04 +7.40734232281E-04 +6.79811557904E-01 +5.80518087301E-01
2.61000000000E+09 +7.09529880329E-01 +4.79717315882E-01 -5.09695255318E-04 +9.74690065463E-04 -5.05734513122E-04 +8.94193595121E-04 +6.85174544396E-01 +5.71427796880E-01
2.61500000000E+09 +7.13477386131E-01 +4.67458795663E-01 -2.27928402624E-04 +9.72723701705E-04 -2.75514880009E-04 +9.61034641064E-04 +6.90300134374E-01 +5.62718233409E-01
2.62000000000E+09 +7.18005890492E-01 +4.53196798819E-01 -2.13832811447E-04 +8.30946083089E-04 -2.43109889317E-04 +8.87962857695E-04 +6.95488853514E-01 +5.53692137033E-01
2.62500000000E+09 +7.23364407021E-01 +4.37878412327E-01 -3.03446048278E-04 +9.46054577728E-04 -2.80405471593E-04 +1.02247508508E-03 +7.00548555554E-01 +5.44415437499E-01
2.63000000000E+09 +7.28873820852E-01 +4.22563752121E-01 -1.55944878791E-04 +1.16056809158E-03 -3.23015506809E-05 +1.16398839802E-03 +7.05275831357E-01 +5.34852426697E-01
2.63500000000E+09 +7.33911104574E-01 +4.08436615487E-01 -5.64040198512E-05 +1.15116767737E-03 +7.51035666524E-05 +1.05115938546E-03 +7.09678900025E-01 +5.25420479768E-01
2.64000000000E+09 +7.38469626710E-01 +3.96197851522E-01 +1.18675098639E-04 +1.34866098299E-03 +1.42875768218E-04 +1.09347719296E-03 +7.14325828783E-01 +5.15670734092E-01
2.64500000000E+09 +7.42673651211E-01 +3.85994814341E-01 +4.82094923985E-04 +1.22545451841E-03 +3.20851376061E-04 +1.12083737843E-03 +7.18734379360E-01 +5.05739075170E-01
2.65000000000E+09 +7.45500174370E-01 +3.77179384824E-01 +5.95055320955E-04 +1.04883863672E-03 +4.25009062895E-04 +1.08312633153E-03 +7.22847572416E-01 +4.95505111202E-01
2.65500000000E+09 +7.47655214592E-01 +3.69039985445E-01 +5.08167445123E-04 +9.84180138633E-04 +4.62981706844E-04 +1.04388257417E-03 +7.26679134768E-01 +4.85028355521E-01
2.66000000000E+09 +7.49319111005E-01 +3.60840174357E-01 +4.82591480563E-04 +1.11197073180E-03 +5.31091236744E-04 +1.21234796715E-03 +7.30631745603E-01 +4.74017840304E-01
2.66500000000E+09 +7.51025695244E-01 +3.51557543530E-01 +7.35533383038E-04 +1.23963377743E-03 +8.38199924950E-04 +1.25872577264E-03 +7.34883408022E-01 +4.62870387951E-01
2.67000000000E+09 +7.52593712870E-01 +3.39977718659E-01 +1.04511830628E-03 +1.21394252134E-03 +1.09421058099E-03 +1.08330057871E-03 +7.39031766667E-01 +4.51938107944E-01
2.67500000000E+09 +7.54173428503E-01 +3.26333149263E-01 +1.29325769022E-03 +1.03718496680E-03 +1.25917852504E-03 +9.92996591633E-04 +7.43093842990E-01 +4.41076679684E-01
2.68000000000E+09 +7.55574145159E-01 +3.10796894743E-01 +1.44962518259E-03 +8.08143407925E-04 +1.40122322492E-03 +7.98886613114E-04 +7.46923554779E-01 +4.30000404957E-01
2.68500000000E+09 +7.57013042099E-01 +2.94123837275E-01 +1.33679484137E-03 +6.52329700963E-04 +1.37221165150E-03 +6.38991688441E-04 +7.50019223171E-01 +4.18769563432E-01
2.69000000000E+09 +7.58659156192E-01 +2.77384546727E-01 +1.48678179654E-03 +6.41386760951E-04 +1.45518367200E-03 +6.60629347048E-04 +7.52844609649E-01 +4.07045304883E-01
2.69500000000E+09 +7.60585537135E-01 +2.61025672378E-01 +1.68701725358E-03 +5.95071297467E-04 +1.62857368621E-03 +5.42614455398E-04 +7.55871774890E-01 +3.94813458456E-01
2.70000000000E+09 +7.62160099409E-01 +2.45292689603E-01 +1.94064225131E-03 +3.86160080859E-04 +1.91098827050E-03 +3.68767629254E-04 +7.59128594868E-01 +3.81334230340E-01
2.70500000000E+09 +7.63490285447E-01 +2.30806065425E-01 +2.19088907553E-03 +1.12808592934E-04 +2.11580280311E-03 +1.45786153217E-04 +7.61997507042E-01 +3.68229047797E-01
2.71000000000E+09 +7.64422915670E-01 +2.17241469906E-01 +2.25716795789E-03 -4.13010971796E-04 +2.32982831775E-03 -3.25795867983E-04 +7.65032252365E-01 +3.55147427562E-01
2.71500000000E+09 +7.64854574250E-01 +2.03883684452E-01 +1.97892396596E-03 -9.12519553329E-04 +2.14377975345E-03 -9.30715844325E-04 +7.67645947273E-01 +3.42444858089E-01
2.72000000000E+09 +7.64871856964E-01 +1.90755584861E-01 +1.65836214358E-03 -9.36727800411E-04 +1.71355354365E-03 -1.10875962536E-03 +7.69682961060E-01 +3.29812163764E-01
2.72500000000E+09 +7.64579728893E-01 +1.76519134974E-01 +1.74347771662E-03 -9.55845978461E-04 +1.59717713963E-03 -1.16405328667E-03 +7.71201185023E-01 +3.16270253339E-01
2.73000000000E+09 +7.63622862060E-01 +1.61070413346E-01 +1.69843420002E-03 -1.41620274742E-03 +1.47909945029E-03 -1.39662895650E-03 +7.72605433435E-01 +3.02279085365E-01
2.73500000000E+09 +7.61771845838E-01 +1.44100649468E-01 +1.37605571310E-03 -1.58467068506E-03 +1.17937316529E-03 -1.37230654145E-03 +7.74234169757E-01 +2.87380432274E-01
2.74000000000E+09 +7.59485558177E-01 +1.26596943051E-01 +1.17999541985E-03 -1.56052125731E-03 +1.14967941869E-03 -1.28730435327E-03 +7.75857495697E-01 +2.71861541579E-01
2.74500000000E+09 +7.55993081947E-01 +1.08140173615E-01 +1.28336112293E-03 -1.64038744363E-03 +1.40192870805E-03 -1.38724029370E-03 +7.77263620980E-01 +2.56180048395E-01
2.75000000000E+09 +7.51608423886E-01 +8.97717625349E-02 +1.25538896077E-03 -2.03123260066E-03 +1.55245952231E-03 -1.90929799680E-03 +7.78011256165E-01 +2.40279569234E-01
2.75500000000E+09 +7.46512790828E-01 +7.19228125466E-02 +9.08996267439E-04 -2.41190716549E-03 +1.12377523061E-03 -2.56244928754E-03 +7.77326064397E-01 +2.24583487158E-01
2.76000000000E+09 +7.41382961850E-01 +5.47201286753E-02 +3.37546864687E-04 -2.63152217502E-03 +4.58598099516E-04 -2.86594773309E-03 +7.76326370753E-01 +2.09109531721E-01
2.76500000000E+09 +7.35934387658E-01 +3.72275384658E-02 -1.44208704572E-04 -2.44642053497E-03 -1.94113481284E-04 -2.60479287254E-03 +7.75300352617E-01 +1.92573938909E-01
2.77000000000E+09 +7.30135189138E-01 +1.90490263862E-02 -4.25554959553E-04 -2.27232722103E-03 -4.41495730870E-04 -2.35080716952E-03 +7.73728791178E-01 +1.75123756886E-01
2.77500000000E+09 +7.23675952435E-01 +1.31438905730E-04 -5.88413739411E-04 -2.07765054380E-03 -6.84480192700E-04 -2.13561981305E-03 +7.71366785588E-01 +1.57457197524E-01
2.78000000000E+09 +7.16944928981E-01 -1.98057417244E-02 -5.64186939766E-04 -1.95869750941E-03 -7.43313730729E-04 -1.95692610589E-03 +7.68855782558E-01 +1.39862389646E-01
2.78500000000E+09 +7.09580912582E-01 -4.08757259050E-02 -7.07999323488E-04 -1.91664985914E-03 -8.67581081373E-04 -1.83780814835E-03 +7.65941768593E-01 +1.22688364314E-01
2.79000000000E+09 +7.01532420219E-01 -6.26412325361E-02 -7.88560928439E-04 -2.05883345368E-03 -8.39983366438E-04 -1.93292201305E-03 +7.62455947228E-01 +1.05939304075E-01
2.79500000000E+09 +6.92893554921E-01 -8.40939201550E-02 -1.11032059612E-03 -2.22923415195E-03 -1.06335424655E-03 -2.04363883455E-03 +7.58425535208E-01 +8.87745331063E-02
2.80000000000E+09 +6.83699203811E-01 -1.04876392715E-01 -1.50768824995E-03 -2.12186809309E-03 -1.38527334408E-03 -2.06477070630E-03 +7.53445992488E-01 +7.10260122794E-02
2.80500000000E+09 +6.73991294809E-01 -1.24428971120E-01 -1.82173504476E-03 -2.00714702631E-03 -1.71487031172E-03 -2.05850441254E-03 +7.47942007937E-01 +5.28702606882E-02
2.81000000000E+09 +6.63416498592E-01 -1.42373076440E-01 -2.25332844486E-03 -1.67765931881E-03 -2.26391605284E-03 -1.76664174655E-03 +7.42751862335E-01 +3.44276609737E-02
2.81500000000E+09 +6.51188064368E-01 -1.58726255633E-01 -2.24228857303E-03 -1.27992593910E-03 -2.36393131145E-03 -1.22139762160E-03 +7.36713829320E-01 +1.46067051824E-02
2.82000000000E+09 +6.37813097114E-01 -1.73905255792E-01 -2.35777070611E-03 -1.04821499379E-03 -2.40815637727E-03 -8.93953465571E-04 +7.29971914600E-01 -5.24306631935E-03
2.82500000000E+09 +6.22435414484E-01 -1.88869818274E-01 -2.39967417965E-03 -8.18573930217E-04 -2.31774125445E-03 -7.06542416872E-04 +7.22209278628E-01 -2.53121217190E-02
2.83000000000E+09 +6.04949142349E-01 -2.04356819820E-01 -2.64658359868E-03 -8.28857675121E-04 -2.45493690019E-03 -7.47251905922E-04 +7.13466171112E-01 -4.55036582877E-02
2.83500000000E+09 +5.85072579464E-01 -2.20984368282E-01 -2.93128854512E-03 -3.50948710947E-04 -2.77886091399E-03 -4.10738006312E-04 +7.03647068737E-01 -6.60647673472E-02
2.84000000000E+09 +5.62893620596E-01 -2.38929451723E-01 -2.90994525311E-03 +1.84218621220E-04 -2.84464637493E-03 +9.92097770378E-05 +6.92685224070E-01 -8.73365588411E-02
2.84500000000E+09 +5.38693665973E-01 -2.58335501725E-01 -2.65560646530E-03 +4.38143031891E-04 -2.67388240173E-03 +4.07496363018E-04 +6.79834414475E-01 -1.08437477987E-01
2.85000000000E+09 +5.12934359417E-01 -2.78279227888E-01 -2.53401728031E-03 +5.39696198782E-04 -2.56781420072E-03 +6.53312950510E-04 +6.65858308232E-01 -1.29100951181E-01
2.85500000000E+09 +4.85872675656E-01 -2.97649634051E-01 -2.65264139456E-03 +7.63633430936E-04 -2.64940800975E-03 +7.67385272431E-04 +6.50391877151E-01 -1.49102743158E-01
2.86000000000E+09 +4.58956547918E-01 -3.15016535279E-01 -2.66476449207E-03 +1.22363295368E-03 -2.58583660916E-03 +1.09905511043E-03 +6.35053280684E-01 -1.68653795692E-01
2.86500000000E+09 +4.33691145534E-01 -3.29820800523E-01 -2.50415517942E-03 +1.29890154839E-03 -2.54879336746E-03 +1.25995953985E-03 +6.17914944652E-01 -1.89364334076E-01
2.87000000000E+09 +4.08843159804E-01 -3.43628983516E-01 -2.47852881822E-03 +1.85489684258E-03 -2.59127693469E-03 +1.85250319541E-03 +5.99196757745E-01 -2.09008831606E-01
2.87500000000E+09 +3.83759456541E-01 -3.54487638763E-01 -2.04901855852E-03 +1.83159991422E-03 -2.03249857954E-03 +1.85605192173E-03 +5.79293314038E-01 -2.28485277513E-01
2.88000000000E+09 +3.58284007451E-01 -3.63318244013E-01 -2.60210655462E-03 +1.99506651858E-03 -2.48206983644E-03 +1.97179894372E-03 +5.58768575966E-01 -2.46618511187E-01
2.88500000000E+09 +3.30681251289E-01 -3.70420473598E-01 -2.28218916336E-03 +3.14568555065E-03 -2.16333711187E-03 +2.98123008305E-03 +5.37009125531E-01 -2.65788251830E-01
2.89000000000E+09 +3.00618502220E-01 -3.74939994900E-01 -1.56056354463E-03 +3.34034492110E-03 -1.52264504341E-03 +3.15125980138E-03 +5.12565099888E-01 -2.83859687579E-01
2.89500000000E+09 +2.69514920897E-01 -3.78039868706E-01 -1.07083901233E-03 +3.44159152764E-03 -1.28048946510E-03 +3.31998152032E-03 +4.86875997868E-01 -3.01088049243E-01
2.90000000000E+09 +2.35648270938E-01 -3.80848337466E-01 -6.42838576029E-04 +3.54879615315E-03 -7.99805247929E-04 +3.56575009537E-03 +4.60189759265E-01 -3.18239015503E-01
2.90500000000E+09 +1.98626578845E-01 -3.82180837982E-01 -3.08413127355E-04 +3.64854923588E-03 -2.99973874003E-04 +3.69704122001E-03 +4.32078725883E-01 -3.34932085930E-01
2.91000000000E+09 +1.61736033457E-01 -3.81031643873E-01 +1.71003972143E-04 +3.74529190808E-03 +3.07534595807E-04 +3.77140765752E-03 +4.02536972971E-01 -3.51495540679E-01
2.91500000000E+09 +1.24706805851E-01 -3.78582420255E-01 +7.78970241254E-04 +3.87966775661E-03 +8.23531082432E-04 +3.65383709904E-03 +3.69501015820E-01 -3.65620665951E-01
2.92000000000E+09 +8.87186331228E-02 -3.73450457852E-01 +1.67262096828E-03 +3.76240058056E-03 +1.51954939799E-03 +3.60495940143E-03 +3.35040863394E-01 -3.76881167112E-01
2.92500000000E+09 +5.49547982226E-02 -3.65512685504E-01 +2.27452009083E-03 +2.89713632031E-03 +1.98133871872E-03 +2.88923444562E-03 +2.99395023795E-01 -3.85172566540E-01
2.93000000000E+09 +2.33323011052E-02 -3.56220086614E-01 +1.95955086930E-03 +2.49560057820E-03 +1.75768814007E-03 +2.55906926874E-03 +2.62878489964E-01 -3.92500031329E-01
2.93500000000E+09 -7.57223544503E-03 -3.45259030690E-01 +2.25708450362E-03 +2.67356044759E-03 +2.17993393091E-03 +2.74794426201E-03 +2.24433175958E-01 -3.98556758201E-01
2.94000000000E+09 -3.87178977974E-02 -3.30628798883E-01 +2.69179417409E-03 +2.13064334734E-03 +2.61399796278E-03 +2.15957445455E-03 +1.83360401029E-01 -4.02119220951E-01
2.94500000000E+09 -6.84829674925E-02 -3.13419661140E-01 +2.74526648136E-03 +1.97671628621E-03 +2.68280043270E-03 +1.98142258700E-03 +1.43615322722E-01 -4.01730044043E-01
2.95000000000E+09 -9.96476889925E-02 -2.92713828398E-01 +3.23975884721E-03 +1.53995209096E-03 +3.18660874818E-03 +1.68066130459E-03 +1.03011654915E-01 -4.00495371945E-01
2.95500000000E+09 -1.28644406488E-01 -2.68019832506E-01 +3.16502149244E-03 +8.81723824630E-04 +3.16951888869E-03 +1.06182575740E-03 +6.18366335561E-02 -3.95256770291E-01
2.96000000000E+09 -1.56026826666E-01 -2.42370311075E-01 +3.06041289912E-03 +4.23091037816E-04 +3.22498582423E-03 +4.98316689836E-04 +1.98070773420E-02 -3.86838117520E-01
2.96500000000E+09 -1.82044516306E-01 -2.15403041383E-01 +2.59659909404E-03 +3.54036936454E-04 +2.70645302063E-03 +3.54642316620E-04 -2.15828027328E-02 -3.73668723125E-01
2.97000000000E+09 -2.05860989562E-01 -1.87781853081E-01 +2.84872822524E-03 +6.68337414643E-04 +2.86190976028E-03 +5.80515106876E-04 -6.13734817423E-02 -3.58248623758E-01
2.97500000000E+09 -2.27978808245E-01 -1.59297995586E-01 +3.32535216506E-03 +5.93925981103E-05 +3.23772414095E-03 +8.39204122307E-05 -9.99486446274E-02 -3.41679600325E-01
2.98000000000E+09 -2.48552091185E-01 -1.30242120912E-01 +3.12712311917E-03 -2.97296763014E-04 +3.06520940987E-03 -1.44352794842E-04 -1.39017881782E-01 -3.22682588579E-01
2.98500000000E+09 -2.66782376245E-01 -9.90435145749E-02 +3.24653983123E-03 -5.08958672871E-04 +3.25730003297E-03 -4.07304108834E-04 -1.76861191333E-01 -3.00128382659E-01
2.99000000000E+09 -2.81597057538E-01 -6.67844349605E-02 +3.30904487618E-03 -1.08265789493E-03 +3.48452520392E-03 -1.06079596108E-03 -2.12804947654E-01 -2.73899009651E-01
2.99500000000E+09 -2.93732463814E-01 -3.44046524055E-02 +2.89223938621E-03 -1.39855898533E-03 +2.91966867346E-03 -1.51932532286E-03 -2.46824814262E-01 -2.44167131633E-01
3.00000000000E+09 -3.04661679344E-01 -2.45476067285E-03 +3.11977856170E-03 -1.51782021283E-03 +3.06224127121E-03 -1.63752800703E-03 -2.77720797359E-01 -2.11871106815E-01
3.00500000000E+09 -3.14563245835E-01 +2.99955167547E-02 +3.03537217222E-03 -2.13137513922E-03 +2.88347683952E-03 -2.07186615890E-03 -3.06817006902E-01 -1.79099511880E-01
3.01000000000E+09 -3.22518439193E-01 +6.24907664690E-02 +2.69965616477E-03 -2.83024862495E-03 +2.67311233168E-03 -2.63157049957E-03 -3.33817879971E-01 -1.42929954377E-01
3.01500000000E+09 -3.28437274883E-01 +9.48224574249E-02 +2.07684467681E-03 -3.16041219242E-03 +2.13643209390E-03 -3.02396401388E-03 -3.57465785275E-01 -1.06833942511E-01
3.02000000000E+09 -3.31274895764E-01 +1.26218966091E-01 +1.56512432178E-03 -3.32965064983E-03 +1.64154692861E-03 -3.31409635743E-03 -3.78321649176E-01 -6.89625927546E-02
3.02500000000E+09 -3.31218638547E-01 +1.55853597214E-01 +1.21770000655E-03 -3.35134737493E-03 +1.29495237664E-03 -3.43813209871E-03 -3.95555850416E-01 -3.07579723103E-02
3.03000000000E+09 -3.29041792969E-01 +1.83338720045E-01 +6.24105042274E-04 -3.44585163748E-03 +6.70778913985E-04 -3.44976634252E-03 -4.11285238698E-01 +9.16730154291E-03
3.03500000000E+09 -3.24692775664E-01 +2.10720619693E-01 +2.91322504574E-04 -3.20675855033E-03 +3.82905352817E-04 -3.23707323831E-03 -4.23222140449E-01 +5.06679810882E-02
3.04000000000E+09 -3.17214353225E-01 +2.38579391786E-01 +1.70769896925E-04 -3.49776688568E-03 +3.00348977498E-04 -3.54965034286E-03 -4.30325932929E-01 +9.20622187140E-02
3.04500000000E+09 -3.07445761763E-01 +2.65406184872E-01 -7.15192564372E-04 -3.38016592599E-03 -6.71778272000E-04 -3.55906750606E-03 -4.35854623354E-01 +1.31817725361E-01
3.05000000000E+09 -2.95938374317E-01 +2.94332910123E-01 -7.92185577263E-04 -2.93237856814E-03 -9.23584841621E-04 -3.03226433292E-03 -4.38513400415E-01 +1.70877218247E-01
3.05500000000E+09 -2.81700777621E-01 +3.21926052907E-01 -8.86414268582E-04 -3.05162166857E-03 -1.08308063608E-03 -3.03428862106E-03 -4.39607694288E-01 +2.09616568255E-01
3.06000000000E+09 -2.67668005038E-01 +3.49100115610E-01 -1.42540351481E-03 -3.05185493017E-03 -1.47812852269E-03 -2.91805964326E-03 -4.37852934959E-01 +2.47594861607E-01
3.06500000000E+09 -2.53241093769E-01 +3.75815864195E-01 -1.81718863999E-03 -2.96048741148E-03 -1.63965335092E-03 -2.78216849979E-03 -4.33481797523E-01 +2.85239617710E-01
3.07000000000E+09 -2.39112690596E-01 +3.99990590876E-01 -2.52026900283E-03 -2.58514497110E-03 -2.31740526141E-03 -2.65943250904E-03 -4.26928457435E-01 +3.21379737459E-01
