# Hz S RI R 50
! CMT, C1220, 16058040, 17.2.0/1
! Date: 15/08/2018 10:28:18
! Data: Format (Calibration Info)
! Freq                      S11: Re/Im (F2)                       S21: Re/Im (F2)                       S12: Re/Im (F2)                       S22: Re/Im (F2)            
2.50000000000E+09 +5.79216917343E-01 +6.41758130486E-01 +2.05568636978E-04 +2.53262256380E-05 +2.43616768192E-04 +2.38735400168E-05 +5.69284955193E-01 +7.21000008732E-01
2.50500000000E+09 +5.86258430346E-01 +6.34110372419E-01 +2.92135080154E-04 -8.19974436389E-05 +2.85386155532E-04 -4.94170183506E-05 +5.75218931158E-01 +7.15009255001E-01
2.51000000000E+09 +5.93659918885E-01 +6.26137671797E-01 +2.04586744902E-04 -7.29919640809E-05 +2.19496072900E-04 -6.20163255521E-05 +5.81124273548E-01 +7.09340077175E-01
2.51500000000E+09 +6.00902571227E-01 +6.18441697065E-01 +1.59181109331E-04 -1.65503173978E-05 +1.56781116763E-04 -5.50158821239E-05 +5.86575581641E-01 +7.03329794290E-01
2.52000000000E+09 +6.07644777395E-01 +6.10500973983E-01 +2.59017619107E-04 -9.51575084502E-05 +2.80129311705E-04 -6.87148460171E-05 +5.91614422663E-01 +6.96821529084E-01
2.52500000000E+09 +6.13272334851E-01 +6.03147420349E-01 +2.30723843681E-04 -1.86871406429E-04 +2.27878889045E-04 -1.90430152774E-04 +5.97323920272E-01 +6.90148304753E-01
2.53000000000E+09 +6.18406976308E-01 +5.96273817092E-01 +1.97204338342E-04 -2.16293042434E-04 +1.72924366611E-04 -2.14535796419E-04 +6.03102308465E-01 +6.82757944984E-01
2.53500000000E+09 +6.23099633139E-01 +5.89834830747E-01 +9.12061027075E-05 -2.41454950188E-04 +1.28879399332E-04 -2.04899453792E-04 +6.08661177674E-01 +6.75734718966E-01
2.54000000000E+09 +6.27499037527E-01 +5.83645464989E-01 +7.94517267417E-05 -2.07568234871E-04 +6.09017230553E-05 -1.82837618280E-04 +6.14136024762E-01 +6.69066673744E-01
2.54500000000E+09 +6.31836339163E-01 +5.77543525684E-01 +4.30770141952E-05 -1.81629581344E-04 +5.85104445885E-05 -1.63347756353E-04 +6.19358009946E-01 +6.62564926976E-01
2.55000000000E+09 +6.36572549231E-01 +5.71348071851E-01 +1.51510495122E-04 -2.40987289892E-04 +1.35125460864E-04 -2.07334490048E-04 +6.23926139435E-01 +6.56432367664E-01
2.55500000000E+09 +6.41767607805E-01 +5.64790323999E-01 +4.81978069611E-05 -2.85798037662E-04 +5.33354563525E-05 -3.07073736871E-04 +6.28658791493E-01 +6.50213865710E-01
2.56000000000E+09 +6.47812557165E-01 +5.57975917914E-01 -9.81120576744E-06 -2.95672034683E-04 -2.49952180416E-05 -3.04563589864E-04 +6.33582437190E-01 +6.43548209600E-01
2.56500000000E+09 +6.54208086896E-01 +5.50124647505E-01 -5.50238870755E-05 -2.59926603362E-04 -1.32851677973E-04 -2.90232101073E-04 +6.39017544209E-01 +6.36304730128E-01
2.57000000000E+09 +6.60310432618E-01 +5.42102108343E-01 -1.71874725343E-04 -3.00458343690E-04 -1.96249307237E-04 -2.56329439721E-04 +6.44282753823E-01 +6.28727667124E-01
2.57500000000E+09 +6.66353701041E-01 +5.34022507737E-01 -1.95367250625E-04 -1.47002363296E-04 -1.92460563690E-04 -1.25595823111E-04 +6.49537801071E-01 +6.21510979724E-01
2.58000000000E+09 +6.71524467081E-01 +5.25895625556E-01 -2.13922284450E-04 -9.99214130135E-05 -1.50967607030E-04 -1.21457023261E-04 +6.54753732996E-01 +6.14345889531E-01
2.58500000000E+09 +6.76215358576E-01 +5.17808706052E-01 -1.49537382889E-04 -9.25701938293E-05 -1.90129512221E-04 -1.29261752182E-04 +6.59807885826E-01 +6.06831960755E-01
2.59000000000E+09 +6.80336162507E-01 +5.10079505953E-01 -2.58801334360E-04 -3.61737262041E-05 -2.39111203438E-04 -6.38869539757E-05 +6.64816349924E-01 +5.99371736576E-01
2.59500000000E+09 +6.84404024959E-01 +5.02135742917E-01 -2.37331447856E-04 -1.62755450136E-05 -2.19736818235E-04 -8.27030068650E-06 +6.70072240677E-01 +5.91233656584E-01
2.60000000000E+09 +6.88086846078E-01 +4.93816739171E-01 -1.75389209730E-04 +1.26996515976E-04 -1.75696526833E-04 +9.88206854687E-05 +6.75333291905E-01 +5.82933192648E-01
2.60500000000E+09 +6.92202602604E-01 +4.84800088661E-01 -3.10743259540E-05 +7.40102919632E-05 -7.93556094703E-05 +7.07927707931E-05 +6.80913985558E-01 +5.74045948512E-01
2.61000000000E+09 +6.96649641682E-01 +4.74741895780E-01 -2.60521893064E-05 -3.97775159817E-05 -3.87665641209E-05 -3.06052989882E-06 +6.85874739959E-01 +5.65184701433E-01
2.61500000000E+09 +7.01327963591E-01 +4.63473637728E-01 -1.09766474831E-04 -2.41378671356E-05 -1.25454684718E-04 -1.57988122473E-05 +6.90580720213E-01 +5.56649065167E-01
2.62000000000E+09 +7.06113650229E-01 +4.51125073553E-01 -1.33893195194E-04 +1.08448897257E-04 -1.43426126212E-04 +1.13605482689E-04 +6.95208106204E-01 +5.47726728190E-01
2.62500000000E+09 +7.10923779366E-01 +4.37808243688E-01 -6.13469822843E-06 +1.43149132323E-04 -3.49813051322E-05 +2.09661496371E-04 +6.99731616170E-01 +5.39035062609E-01
2.63000000000E+09 +7.15189641308E-01 +4.24318947635E-01 +1.01475374364E-04 -4.26128671689E-05 +8.31998027609E-05 +3.09291075470E-05 +7.04325611925E-01 +5.29821873979E-01
2.63500000000E+09 +7.19159976273E-01 +4.11135228435E-01 +2.31792320065E-07 -4.51567870389E-05 -5.26085046437E-05 +1.36003286493E-05 +7.08908524616E-01 +5.20581403205E-01
2.64000000000E+09 +7.22867366442E-01 +3.98486406983E-01 +2.92001996443E-05 +4.83399633989E-05 -1.17756753307E-05 +1.44773971942E-05 +7.13486047669E-01 +5.10855527674E-01
2.64500000000E+09 +7.26173653336E-01 +3.86899417175E-01 +1.30626100543E-04 +2.96343282797E-05 +1.10455749926E-04 +6.38916320407E-06 +7.17944369677E-01 +5.01292875898E-01
2.65000000000E+09 +7.29112855815E-01 +3.76104826325E-01 +1.44650530499E-04 -1.40935586599E-04 +1.73972005373E-04 -6.38138174362E-05 +7.22231667752E-01 +4.91294799148E-01
2.65500000000E+09 +7.32211679008E-01 +3.65542969015E-01 -2.83964945095E-05 -2.47455774073E-04 +5.72881513759E-05 -3.13756219848E-04 +7.25826812062E-01 +4.80970911599E-01
2.66000000000E+09 +7.35274582434E-01 +3.55034489735E-01 -1.15875548901E-04 -1.21634780233E-04 -7.27980476975E-05 -1.47153549592E-04 +7.29649477488E-01 +4.70158291107E-01
2.66500000000E+09 +7.38595216696E-01 +3.44395886123E-01 -7.43647140432E-05 -1.01342315254E-04 -1.18534599041E-04 -1.13231901881E-04 +7.33878282179E-01 +4.59128888706E-01
2.67000000000E+09 +7.41625429774E-01 +3.32475844871E-01 -1.19077013938E-04 -1.02217130872E-04 -1.10566704127E-04 -1.02479745785E-04 +7.38212727155E-01 +4.48214990165E-01
2.67500000000E+09 +7.44197429197E-01 +3.19369029717E-01 -8.22995868012E-05 -1.30204519585E-04 -1.24944565504E-04 -1.69527709036E-04 +7.42385558874E-01 +4.36958647111E-01
2.68000000000E+09 +7.45843190734E-01 +3.05597423772E-01 -2.55594352885E-04 -1.39353864294E-04 -2.39708832801E-04 -1.81266992489E-04 +7.45919753491E-01 +4.25874816309E-01
2.68500000000E+09 +7.46973093334E-01 +2.91883431818E-01 -3.01219689762E-04 -4.29357840861E-05 -3.29585649830E-04 +4.53080844915E-05 +7.48709297137E-01 +4.14830800419E-01
2.69000000000E+09 +7.48029728002E-01 +2.77577119749E-01 -2.18218053162E-04 +1.29755126002E-04 -2.07708412305E-04 +1.23662087381E-04 +7.51569350953E-01 +4.03457443740E-01
2.69500000000E+09 +7.48505239651E-01 +2.63751755320E-01 -8.44603574589E-05 +1.17141506838E-04 -7.56916800081E-05 +1.17355023144E-04 +7.54325220841E-01 +3.91421414308E-01
2.70000000000E+09 +7.49086084471E-01 +2.49936585412E-01 -1.03418661217E-04 +2.04935644838E-06 -1.16717409939E-04 -2.08691403934E-05 +7.57368639661E-01 +3.78692351764E-01
2.70500000000E+09 +7.49642431192E-01 +2.36535248559E-01 -2.11947061407E-04 +7.22471267468E-06 -1.85710476026E-04 +3.00305171693E-05 +7.60489920648E-01 +3.65754162551E-01
2.71000000000E+09 +7.50267552479E-01 +2.23339487056E-01 -1.38755536230E-04 +1.36029811883E-04 -2.16527434312E-04 +1.30052511496E-04 +7.63562918732E-01 +3.52561147148E-01
2.71500000000E+09 +7.51273751172E-01 +2.09711799723E-01 -9.32390836901E-05 +2.15119839652E-04 -1.18990649598E-04 +2.00291500112E-04 +7.65977367384E-01 +3.39831149645E-01
2.72000000000E+09 +7.52139119645E-01 +1.95574270681E-01 +3.15027783361E-05 +1.57367717393E-04 +7.21661546451E-05 +1.71975651533E-04 +7.67805539491E-01 +3.27401972173E-01
2.72500000000E+09 +7.52518390525E-01 +1.80592016943E-01 +1.61934041775E-05 +6.16539698539E-05 +4.00556817877E-05 -1.23281575159E-06 +7.69459432173E-01 +3.14116457614E-01
2.73000000000E+09 +7.51801363718E-01 +1.64533207472E-01 +6.54496781725E-06 +1.39586286848E-04 +7.74844094132E-06 +1.13598921916E-04 +7.70912964785E-01 +3.00208508633E-01
2.73500000000E+09 +7.49694146181E-01 +1.47980423596E-01 +1.95981000517E-04 -9.58952325551E-07 +1.38494845949E-04 -2.65569253752E-05 +7.71951664475E-01 +2.85196748930E-01
2.74000000000E+09 +7.46713786773E-01 +1.31566429439E-01 +2.19103332336E-05 -1.48911214164E-04 +8.14033319914E-05 -1.30190989695E-04 +7.72987653976E-01 +2.70445999987E-01
2.74500000000E+09 +7.42759655745E-01 +1.14694159467E-01 -3.68779502891E-06 -2.15368654801E-04 -6.59947603970E-06 -2.30048375182E-04 +7.74005949733E-01 +2.55367916423E-01
2.75000000000E+09 +7.38094370444E-01 +9.79946167046E-02 -1.19993387130E-04 -2.08838526621E-04 -5.59860362218E-05 -2.78482073179E-04 +7.74987750594E-01 +2.40754560456E-01
2.75500000000E+09 +7.33242008759E-01 +8.13086316748E-02 -2.80320862447E-04 -2.59251805413E-04 -2.84768726671E-04 -3.50024716544E-04 +7.75037180359E-01 +2.25381184741E-01
2.76000000000E+09 +7.28284055746E-01 +6.46988897116E-02 -4.92307726014E-04 -1.85354382609E-04 -5.16762675372E-04 -1.84889964641E-04 +7.74075993054E-01 +2.09980731296E-01
2.76500000000E+09 +7.23598623666E-01 +4.79666067211E-02 -5.44479635476E-04 +5.97335731053E-05 -5.61976312857E-04 +1.27748250230E-04 +7.72973864514E-01 +1.94574431436E-01
2.77000000000E+09 +7.19343169148E-01 +3.04965304508E-02 -4.80234250082E-04 +2.07133208362E-04 -4.62189568013E-04 +2.35548907231E-04 +7.72413225461E-01 +1.78222661094E-01
2.77500000000E+09 +7.15407427831E-01 +1.23493423912E-02 -4.24311386968E-04 +2.78175921320E-04 -4.25661620853E-04 +3.36956348118E-04 +7.71631733479E-01 +1.61016287868E-01
2.78000000000E+09 +7.11490447834E-01 -6.93497039832E-03 -3.47048004827E-04 +3.32507516216E-04 -2.64280486916E-04 +3.77704658327E-04 +7.70194728500E-01 +1.43010913070E-01
2.78500000000E+09 +7.06605653006E-01 -2.71197705518E-02 -4.69138692664E-04 +3.48707139908E-04 -4.30698330476E-04 +4.29193641783E-04 +7.67868005419E-01 +1.25915190399E-01
2.79000000000E+09 +7.00871703570E-01 -4.76666222175E-02 -4.20214898880E-04 +6.35023273677E-04 -3.79741028874E-04 +5.99798955693E-04 +7.65554989866E-01 +1.09019229224E-01
2.79500000000E+09 +6.93865412968E-01 -6.75507246286E-02 -1.58980428151E-04 +7.22087118048E-04 -1.68469965289E-04 +7.30923711861E-04 +7.62576898404E-01 +9.07837338526E-02
2.80000000000E+09 +6.85892890668E-01 -8.72351437512E-02 +3.49940674705E-05 +7.64202734338E-04 +4.06561525330E-05 +7.72522591806E-04 +7.58276789026E-01 +7.18750093392E-02
2.80500000000E+09 +6.76789787646E-01 -1.05559635240E-01 +5.64726865813E-05 +5.73590636250E-04 +4.73956843162E-05 +6.49045581179E-04 +7.53261701454E-01 +5.25902721169E-02
2.81000000000E+09 +6.66728607648E-01 -1.22908840465E-01 +1.50975712031E-04 +7.49513483264E-04 +1.62730102133E-04 +7.91858696725E-04 +7.47702747745E-01 +3.28499038009E-02
2.81500000000E+09 +6.55762771733E-01 -1.39477827062E-01 +3.40188530190E-04 +6.79455611285E-04 +3.68298581461E-04 +7.33999603207E-04 +7.41425661456E-01 +1.23328830150E-02
2.82000000000E+09 +6.43923610762E-01 -1.56093098600E-01 +3.16997758025E-04 +4.44288942050E-04 +4.04785523558E-04 +4.72076205793E-04 +7.34300412469E-01 -8.12623195229E-03
2.82500000000E+09 +6.30698965580E-01 -1.72472426960E-01 +2.79628193482E-04 +5.46776513101E-04 +2.47353312190E-04 +5.49419883508E-04 +7.25339060057E-01 -2.92705018671E-02
2.83000000000E+09 +6.16242224646E-01 -1.89498520280E-01 +5.21516501861E-04 +6.88112958109E-04 +4.76534899017E-04 +6.34637245541E-04 +7.15028836262E-01 -4.96320786201E-02
2.83500000000E+09 +6.00355705456E-01 -2.07890500885E-01 +7.27825389946E-04 +6.23661447418E-04 +6.94260159094E-04 +5.60614873204E-04 +7.04099241038E-01 -6.94086503152E-02
2.84000000000E+09 +5.81124910051E-01 -2.26763280000E-01 +8.38732797715E-04 +2.08820109001E-04 +8.46106783777E-04 +2.74643172598E-04 +6.93139007388E-01 -8.98507339702E-02
2.84500000000E+09 +5.60163553408E-01 -2.45246072588E-01 +5.78627229679E-04 +1.09373819795E-04 +5.88573613338E-04 +1.55708760910E-04 +6.80679694699E-01 -1.10816447331E-01
2.85000000000E+09 +5.37916769300E-01 -2.63234975519E-01 +5.17137462328E-04 +2.77545108392E-04 +5.71678459740E-04 +2.72228823313E-04 +6.66337566741E-01 -1.31511173798E-01
2.85500000000E+09 +5.14374890726E-01 -2.80938179234E-01 +5.75358127383E-04 +4.77555469635E-04 +6.16957107448E-04 +4.77683053572E-04 +6.51481617245E-01 -1.51076605980E-01
2.86000000000E+09 +4.89850746561E-01 -2.97638841906E-01 +1.23183839214E-03 +4.49522254650E-04 +1.24075968883E-03 +4.40008335371E-04 +6.35424008664E-01 -1.71421951413E-01
2.86500000000E+09 +4.64837393249E-01 -3.12665563470E-01 +1.34050153013E-03 -2.18791098152E-04 +1.32236131089E-03 -2.33876843020E-04 +6.17720844004E-01 -1.91526013287E-01
2.87000000000E+09 +4.40008189562E-01 -3.26142089459E-01 +9.96424587427E-04 -4.55553767067E-04 +1.02840040856E-03 -4.45683782089E-04 +5.98711523327E-01 -2.11024764009E-01
2.87500000000E+09 +4.15641352411E-01 -3.38612296806E-01 +7.02338925184E-04 -4.92177029083E-04 +7.13363349968E-04 -5.01908433946E-04 +5.78559752888E-01 -2.30175132170E-01
2.88000000000E+09 +3.90815016240E-01 -3.50515826147E-01 +7.86287545551E-04 -3.42942970158E-04 +7.60763281325E-04 -3.87375891556E-04 +5.57869313885E-01 -2.48706789257E-01
2.88500000000E+09 +3.64718415766E-01 -3.61462933991E-01 +1.00821649530E-03 -4.56403290563E-04 +9.04815199189E-04 -4.34222784741E-04 +5.35514784889E-01 -2.67132660241E-01
2.89000000000E+09 +3.37541772894E-01 -3.70852389823E-01 +9.62972797523E-04 -8.11214323195E-04 +9.06853605502E-04 -8.09611845089E-04 +5.11915000248E-01 -2.84717450283E-01
2.89500000000E+09 +3.09226898048E-01 -3.78865965943E-01 +8.85555986256E-04 -1.06852846147E-03 +8.90707890456E-04 -9.93155356617E-04 +4.86443121720E-01 -3.03329885838E-01
2.90000000000E+09 +2.79408123841E-01 -3.85912721229E-01 +4.38454263809E-04 -1.10295784027E-03 +4.73163248419E-04 -1.06258978765E-03 +4.57426607549E-01 -3.20549422453E-01
2.90500000000E+09 +2.47597853231E-01 -3.90837649769E-01 +6.18617109444E-04 -1.07948863414E-03 +6.33058764788E-04 -1.03984720457E-03 +4.27813698567E-01 -3.35427407860E-01
2.91000000000E+09 +2.15246246738E-01 -3.93017548149E-01 +4.01715483534E-04 -1.66307884790E-03 +3.84384690134E-04 -1.61070149407E-03 +3.98097734324E-01 -3.49742932769E-01
2.91500000000E+09 +1.82867713056E-01 -3.93734365485E-01 -2.87139573377E-04 -1.50593758253E-03 -2.61229573918E-04 -1.34413430671E-03 +3.66041508413E-01 -3.62554026983E-01
2.92000000000E+09 +1.50126858646E-01 -3.92737302101E-01 -2.32336668638E-04 -1.28202645832E-03 -2.26354212692E-04 -1.13755017905E-03 +3.32759266122E-01 -3.72786426762E-01
2.92500000000E+09 +1.17213137890E-01 -3.89771310952E-01 -4.10623138627E-04 -1.45658029582E-03 -3.12057173383E-04 -1.37792123347E-03 +2.98130384968E-01 -3.81025837355E-01
2.93000000000E+09 +8.49018098506E-02 -3.84573832251E-01 -8.88771093904E-04 -1.41278656512E-03 -8.43877496882E-04 -1.43198422436E-03 +2.61993279280E-01 -3.88420409393E-01
2.93500000000E+09 +5.27262120608E-02 -3.78320022205E-01 -1.12846041042E-03 -8.11729687622E-04 -1.13843154235E-03 -9.03513237522E-04 +2.23276077120E-01 -3.93810604884E-01
2.94000000000E+09 +2.01051429733E-02 -3.69578839905E-01 -9.14282116706E-04 -5.88026696421E-04 -8.67317056455E-04 -5.90851420803E-04 +1.83593539643E-01 -3.96360416529E-01
2.94500000000E+09 -1.19187041179E-02 -3.58432541635E-01 -7.41863544187E-04 -8.71351552017E-04 -7.24884088651E-04 -9.10873384694E-04 +1.42952909831E-01 -3.96263555033E-01
2.95000000000E+09 -4.40148528577E-02 -3.44606764013E-01 -1.33250898509E-03 -8.17708679653E-04 -1.29017185184E-03 -8.62156789342E-04 +1.03730377940E-01 -3.92421036348E-01
2.95500000000E+09 -7.55491557464E-02 -3.27355676392E-01 -1.39371525971E-03 -3.61637821301E-04 -1.42271246214E-03 -4.07377924710E-04 +6.45965343498E-02 -3.87307195796E-01
2.96000000000E+09 -1.05482379772E-01 -3.07348914264E-01 -1.46845696003E-03 -1.96913043373E-04 -1.59910151547E-03 -2.25954780159E-04 +2.42841241405E-02 -3.78770943346E-01
2.96500000000E+09 -1.33962120970E-01 -2.85495869031E-01 -1.37414270647E-03 +3.67086111033E-04 -1.42253914280E-03 +3.97086796056E-04 -1.49456826565E-02 -3.67745301810E-01
2.97000000000E+09 -1.61861579716E-01 -2.61231410152E-01 -8.86199103034E-04 +4.28414691853E-04 -8.91624838811E-04 +4.74105703415E-04 -5.61737071921E-02 -3.54336751901E-01
2.97500000000E+09 -1.87703259064E-01 -2.34342297376E-01 -9.57934498163E-04 +2.18010727629E-04 -9.55413782201E-04 +1.96997720894E-04 -9.53489606424E-02 -3.36602266890E-01
2.98000000000E+09 -2.11815321321E-01 -2.06301201996E-01 -1.12020161150E-03 +3.48376844958E-04 -1.12494221259E-03 +2.93313287055E-04 -1.33927774391E-01 -3.16979423135E-01
2.98500000000E+09 -2.33832145703E-01 -1.77193256475E-01 -1.00019561189E-03 +7.69697384380E-04 -1.02438394400E-03 +7.38546929371E-04 -1.70568647397E-01 -2.93843286541E-01
2.99000000000E+09 -2.54560430936E-01 -1.47380744697E-01 -6.92253889255E-04 +6.27902960772E-04 -7.61313701749E-04 +6.64078117060E-04 -2.05722737128E-01 -2.68134800060E-01
2.99500000000E+09 -2.73437038995E-01 -1.16969160474E-01 -9.70364745391E-04 +6.96077440931E-04 -9.84710783086E-04 +7.76289234552E-04 -2.38869673606E-01 -2.38245536950E-01
3.00000000000E+09 -2.90711859888E-01 -8.57775315962E-02 -7.37159692482E-04 +1.16450727903E-03 -6.88711482741E-04 +1.21435377194E-03 -2.68775090938E-01 -2.07570983145E-01
3.00500000000E+09 -3.05574513930E-01 -5.45905883034E-02 -5.44605514899E-04 +1.19079041224E-03 -4.54962487143E-04 +1.13871717031E-03 -2.98057718212E-01 -1.74727712684E-01
3.01000000000E+09 -3.17914435000E-01 -2.30347989871E-02 -1.26488672019E-04 +1.22331185831E-03 -1.64734305784E-04 +1.17902426285E-03 -3.23914278396E-01 -1.39965007923E-01
3.01500000000E+09 -3.27689151561E-01 +7.77462505123E-03 +1.95529248564E-04 +1.18527506759E-03 +2.23957248895E-04 +1.16129824628E-03 -3.47989346051E-01 -1.03876148269E-01
3.02000000000E+09 -3.35000964004E-01 +3.91156647180E-02 +3.41575826699E-04 +8.64868151369E-04 +3.87674696965E-04 +8.96144657212E-04 -3.67792596707E-01 -6.59333409595E-02
3.02500000000E+09 -3.38814901393E-01 +6.95344471237E-02 +5.30120567387E-04 +6.67400711181E-04 +6.11317257639E-04 +6.79007355914E-04 -3.84299365349E-01 -2.74642451533E-02
3.03000000000E+09 -3.40285499703E-01 +9.94684489860E-02 +2.47892008823E-04 +2.58198398909E-04 +2.81783505334E-04 +1.84483024832E-04 -3.97935593742E-01 +1.12524831954E-02
3.03500000000E+09 -3.39373878687E-01 +1.29033631459E-01 -5.92071460256E-05 +6.04274384660E-04 -6.02638983275E-05 +6.15929052693E-04 -4.08808826801E-01 +5.01772229217E-02
3.04000000000E+09 -3.36237873295E-01 +1.58809886990E-01 +3.62502198220E-04 +4.21338717846E-04 +3.34195067334E-04 +4.95739846104E-04 -4.17762327519E-01 +8.91558242684E-02
3.04500000000E+09 -3.30552160314E-01 +1.88436160876E-01 +6.90796667052E-05 +6.52413959124E-04 +3.73644832250E-05 +7.42885630896E-04 -4.23526586289E-01 +1.27964735049E-01
3.05000000000E+09 -3.22988249452E-01 +2.17657041790E-01 +5.59602839777E-04 +7.43772018180E-04 +5.84918762221E-04 +7.72532736235E-04 -4.27032374014E-01 +1.66398490407E-01
3.05500000000E+09 -3.13491696582E-01 +2.46194009681E-01 +5.84313400404E-04 +4.25183429180E-04 +6.46345577765E-04 +4.46854913575E-04 -4.28090892316E-01 +2.03820306730E-01
3.06000000000E+09 -3.03404699332E-01 +2.73846521445E-01 +5.22531260710E-04 +2.36791399352E-04 +5.06283762681E-04 +1.73084188517E-04 -4.27305781763E-01 +2.41305680403E-01
3.06500000000E+09 -2.92049516526E-01 +3.01403343520E-01 +3.89936639554E-04 +1.75748279451E-04 +3.25730758353E-04 +2.58295686870E-04 -4.23855999196E-01 +2.78376471283E-01
3.07000000000E+09 -2.79524526505E-01 +3.27192503375E-01 +4.08142144635E-04 +4.42045993395E-04 +3.22083979281E-04 +4.98148027922E-04 -4.18077676819E-01 +3.13908883680E-01
