# Hz S RI R 50
! CMT, C1220, 16058040, 17.2.0/1
! Date: 15/08/2018 10:45:46
! Data: Format (Calibration Info)
! Freq                      S11: Re/Im (F2)                       S21: Re/Im (F2)                       S12: Re/Im (F2)                       S22: Re/Im (F2)            
2.50000000000E+09 +5.92693619261E-01 +6.53617273793E-01 +4.27735298171E-06 -5.44903442142E-04 +1.92514375815E-05 -5.72760709216E-04 +5.63452121135E-01 +7.25536768076E-01
2.50500000000E+09 +5.99491447715E-01 +6.45437071735E-01 -9.30629521704E-05 -6.08448171086E-04 -1.22317452401E-04 -6.14006125212E-04 +5.69322528280E-01 +7.20038154508E-01
2.51000000000E+09 +6.06960207923E-01 +6.37202103380E-01 -2.02441694477E-04 -6.15007105843E-04 -2.50869128359E-04 -5.64071085153E-04 +5.75240424050E-01 +7.14620177576E-01
2.51500000000E+09 +6.14748618700E-01 +6.29422857825E-01 -3.23654764475E-04 -6.27794585104E-04 -3.07440026914E-04 -5.82112357227E-04 +5.80716495309E-01 +7.09166610262E-01
2.52000000000E+09 +6.21829458687E-01 +6.22016747241E-01 -3.81591794549E-04 -5.68346706842E-04 -3.56418834809E-04 -5.42885217023E-04 +5.86150693963E-01 +7.03056412763E-01
2.52500000000E+09 +6.27706388611E-01 +6.15426582600E-01 -4.74563841225E-04 -5.45025646366E-04 -4.76791288871E-04 -5.66456887006E-04 +5.92155285134E-01 +6.96654684493E-01
2.53000000000E+09 +6.32640962967E-01 +6.09719492529E-01 -5.38493748887E-04 -4.70856318228E-04 -5.43464227971E-04 -5.17877138158E-04 +5.98405632292E-01 +6.89440311044E-01
2.53500000000E+09 +6.36917314252E-01 +6.04274741357E-01 -6.12477656027E-04 -4.24794617538E-04 -6.27208519049E-04 -4.16940528243E-04 +6.04381732487E-01 +6.82301531805E-01
2.54000000000E+09 +6.40340548305E-01 +5.98357357911E-01 -6.82954363912E-04 -3.77384280802E-04 -6.23280421736E-04 -4.44635625701E-04 +6.09944041514E-01 +6.75439467308E-01
2.54500000000E+09 +6.43914664387E-01 +5.92162824459E-01 -7.40558121218E-04 -2.86394689916E-04 -6.90576118067E-04 -3.62025225946E-04 +6.15355291225E-01 +6.69237675480E-01
2.55000000000E+09 +6.48348631135E-01 +5.84603269640E-01 -7.93899744022E-04 -2.26771519133E-04 -7.77459533536E-04 -2.89857787934E-04 +6.20495630861E-01 +6.63153003488E-01
2.55500000000E+09 +6.53727162848E-01 +5.75623339237E-01 -7.82861922108E-04 -1.15447428864E-04 -9.12886224360E-04 -2.34461785109E-04 +6.25464618905E-01 +6.56853694355E-01
2.56000000000E+09 +6.60372784920E-01 +5.65950633413E-01 -7.51323575752E-04 -9.54027504695E-05 -1.03886807969E-03 -4.87578303561E-05 +6.30514582179E-01 +6.49732333080E-01
2.56500000000E+09 +6.67705641923E-01 +5.55483172722E-01 -7.82634815332E-04 -9.23825951776E-05 -9.05007044000E-04 +8.64388587410E-05 +6.35765732614E-01 +6.42356731318E-01
2.57000000000E+09 +6.75437462519E-01 +5.45476075532E-01 -9.29066871995E-04 -5.78421726218E-05 -8.56124347166E-04 +1.92589779851E-04 +6.40664655659E-01 +6.34642972435E-01
2.57500000000E+09 +6.83063766768E-01 +5.36067631790E-01 -9.79755664457E-04 +1.29000301192E-04 -8.28507497164E-04 +1.75720065878E-04 +6.46051513719E-01 +6.27518898229E-01
2.58000000000E+09 +6.89592740625E-01 +5.27822583584E-01 -1.02609503293E-03 +2.01757443638E-04 -8.25294031119E-04 +2.06237381746E-04 +6.51100803543E-01 +6.20359358718E-01
2.58500000000E+09 +6.94938020698E-01 +5.20625330754E-01 -1.04283118439E-03 +2.92226562381E-04 -9.23589623926E-04 +1.83392006466E-04 +6.56216424910E-01 +6.13225012301E-01
2.59000000000E+09 +6.98941582315E-01 +5.14503942612E-01 -1.11173365929E-03 +4.83169653233E-04 -1.02688188767E-03 +3.90375567657E-04 +6.61366995426E-01 +6.06123891674E-01
2.59500000000E+09 +7.02159914117E-01 +5.08547517920E-01 -9.77571164964E-04 +6.38221033801E-04 -1.03525073042E-03 +6.04817879216E-04 +6.66703252045E-01 +5.98358321969E-01
2.60000000000E+09 +7.04583040631E-01 +5.02018228504E-01 -8.75681975309E-04 +7.19733604605E-04 -8.69941413234E-04 +7.30981275695E-04 +6.72422993083E-01 +5.90033509933E-01
2.60500000000E+09 +7.07212091594E-01 +4.93775351413E-01 -9.55892952492E-04 +7.67760381641E-04 -9.29034082526E-04 +7.26529130389E-04 +6.78222781424E-01 +5.81188804744E-01
2.61000000000E+09 +7.10158963286E-01 +4.83393414643E-01 -1.01283345948E-03 +1.00373575260E-03 -1.02125188567E-03 +9.86861603656E-04 +6.83390676801E-01 +5.72343741749E-01
2.61500000000E+09 +7.13914492385E-01 +4.71011688549E-01 -6.47469327661E-04 +1.21839810655E-03 -7.49068770388E-04 +1.24953663169E-03 +6.88579831532E-01 +5.63693308590E-01
2.62000000000E+09 +7.18364658355E-01 +4.56742305348E-01 -5.14447311320E-04 +1.12596872668E-03 -5.76890511702E-04 +1.27559058257E-03 +6.93556357411E-01 +5.54920995202E-01
2.62500000000E+09 +7.23654788891E-01 +4.41462298977E-01 -6.00472632984E-04 +1.16153064450E-03 -5.12197512656E-04 +1.26206052934E-03 +6.98815729934E-01 +5.45853770035E-01
2.63000000000E+09 +7.29098022430E-01 +4.26257024905E-01 -5.97235719438E-04 +1.28384323144E-03 -3.59560726513E-04 +1.38344138406E-03 +7.03504018935E-01 +5.36281614835E-01
2.63500000000E+09 +7.34017871154E-01 +4.12164354872E-01 -6.09228008647E-04 +1.47900715746E-03 -3.39528624730E-04 +1.35190554196E-03 +7.08136845892E-01 +5.26991743413E-01
2.64000000000E+09 +7.38566779533E-01 +4.00037619816E-01 -3.34366567934E-04 +1.87059606552E-03 -2.48119566565E-04 +1.62580324971E-03 +7.12652463023E-01 +5.17294656500E-01
2.64500000000E+09 +7.42731979918E-01 +3.89746301157E-01 +2.62487074663E-04 +1.98328336556E-03 +9.56554460977E-05 +1.69594860313E-03 +7.17177201268E-01 +5.07594571043E-01
2.65000000000E+09 +7.45600341071E-01 +3.80770524672E-01 +5.06371579547E-04 +1.58100816970E-03 +3.04201304640E-04 +1.56872141635E-03 +7.21363850148E-01 +4.97524062720E-01
2.65500000000E+09 +7.47719125258E-01 +3.72537508993E-01 +3.72512186706E-04 +1.47728915562E-03 +2.85285631078E-04 +1.59551747594E-03 +7.25250538489E-01 +4.87065396836E-01
2.66000000000E+09 +7.49362969455E-01 +3.64225637160E-01 +3.47419445054E-04 +1.69987147153E-03 +3.67221780639E-04 +1.76933729937E-03 +7.29221192865E-01 +4.76091105691E-01
2.66500000000E+09 +7.50899159560E-01 +3.55185564116E-01 +6.01996837689E-04 +1.85549236897E-03 +7.36972438453E-04 +1.88709275813E-03 +7.33446874363E-01 +4.65182558891E-01
2.67000000000E+09 +7.52179197459E-01 +3.43685417721E-01 +9.86222456919E-04 +1.89157871172E-03 +1.08914846162E-03 +1.77077888307E-03 +7.37940489904E-01 +4.54354836342E-01
2.67500000000E+09 +7.53689004847E-01 +3.30414998402E-01 +1.36283611951E-03 +1.74850289134E-03 +1.26003340373E-03 +1.65788784022E-03 +7.42152962865E-01 +4.43309780530E-01
2.68000000000E+09 +7.55276892708E-01 +3.14865359447E-01 +1.61658632208E-03 +1.47376350542E-03 +1.48145345510E-03 +1.49212687514E-03 +7.45926575627E-01 +4.32408001397E-01
2.68500000000E+09 +7.56762056846E-01 +2.98258984238E-01 +1.63843264619E-03 +1.38317984298E-03 +1.55213265748E-03 +1.42448423778E-03 +7.49301184438E-01 +4.21369389542E-01
2.69000000000E+09 +7.58404875514E-01 +2.81303455500E-01 +1.88315336884E-03 +1.39079684583E-03 +1.84953538940E-03 +1.35506141198E-03 +7.52276379189E-01 +4.09678125967E-01
2.69500000000E+09 +7.60109713122E-01 +2.64715190255E-01 +2.19964595180E-03 +1.13721810419E-03 +2.21832526440E-03 +1.15145600792E-03 +7.55563809459E-01 +3.97509334980E-01
2.70000000000E+09 +7.61537853040E-01 +2.48850812554E-01 +2.51229746622E-03 +8.08355069282E-04 +2.44218422588E-03 +8.02358555983E-04 +7.58949652603E-01 +3.84054495682E-01
2.70500000000E+09 +7.62557202517E-01 +2.34490840968E-01 +2.64509730033E-03 +4.69519810199E-04 +2.55705750225E-03 +5.56794193579E-04 +7.61865757286E-01 +3.70978078523E-01
2.71000000000E+09 +7.63524472262E-01 +2.21051010860E-01 +2.68451418981E-03 +1.78115815052E-05 +2.74876262199E-03 +1.79621916752E-04 +7.65154292471E-01 +3.57882371115E-01
2.71500000000E+09 +7.64063426614E-01 +2.07828694193E-01 +2.61032399819E-03 -3.74919327655E-04 +2.79126477155E-03 -2.97472136733E-04 +7.68121597378E-01 +3.45258722279E-01
2.72000000000E+09 +7.64302784032E-01 +1.95051149781E-01 +2.49305607296E-03 -5.21231180011E-04 +2.61940459638E-03 -7.10367328639E-04 +7.70429224914E-01 +3.32346215449E-01
2.72500000000E+09 +7.64213918883E-01 +1.80830622559E-01 +2.59184060028E-03 -6.94670212775E-04 +2.45035152196E-03 -9.94252186924E-04 +7.72143365501E-01 +3.18774252830E-01
2.73000000000E+09 +7.63123578080E-01 +1.65608186679E-01 +2.66479543513E-03 -1.10222802052E-03 +2.32983172928E-03 -1.20451647237E-03 +7.73666575185E-01 +3.04600176173E-01
2.73500000000E+09 +7.61313688470E-01 +1.48879842773E-01 +2.47527972677E-03 -1.56034547760E-03 +2.17412267221E-03 -1.35994989954E-03 +7.75149311403E-01 +2.89581837361E-01
2.74000000000E+09 +7.58699120132E-01 +1.31657707428E-01 +2.15920340980E-03 -1.80237364982E-03 +2.03299070103E-03 -1.43234205508E-03 +7.76907205197E-01 +2.73980608925E-01
2.74500000000E+09 +7.55178678550E-01 +1.13736290277E-01 +2.10955745943E-03 -2.08183420339E-03 +2.24328370768E-03 -1.71602701654E-03 +7.78425788334E-01 +2.58158473068E-01
2.75000000000E+09 +7.50806707760E-01 +9.56804109627E-02 +1.78320178897E-03 -2.35383355347E-03 +2.12586499596E-03 -2.23554091643E-03 +7.79346591550E-01 +2.42357713195E-01
2.75500000000E+09 +7.45815771280E-01 +7.82599098195E-02 +1.60401675762E-03 -2.53139748048E-03 +1.84814824572E-03 -2.63511708628E-03 +7.78945489230E-01 +2.26419515361E-01
2.76000000000E+09 +7.40870144768E-01 +6.07945074280E-02 +1.28132808639E-03 -2.80883685936E-03 +1.38831088393E-03 -2.99102395981E-03 +7.78032597003E-01 +2.10842279862E-01
2.76500000000E+09 +7.35322873887E-01 +4.33127497220E-02 +9.31163152434E-04 -2.80958731339E-03 +9.55140174753E-04 -2.93710058424E-03 +7.77163265503E-01 +1.93944237597E-01
2.77000000000E+09 +7.29246576276E-01 +2.49382846349E-02 +6.49919051542E-04 -3.09895383956E-03 +6.06709778055E-04 -3.21259530878E-03 +7.75439674121E-01 +1.76191459467E-01
2.77500000000E+09 +7.22394276521E-01 +6.01146421704E-03 +6.90065208427E-05 -3.15787638643E-03 -1.30336371142E-05 -3.37576807190E-03 +7.73108570160E-01 +1.58399574409E-01
2.78000000000E+09 +7.15313406451E-01 -1.34989971239E-02 -3.77113432592E-04 -2.92434384369E-03 -5.32310050571E-04 -2.97441324338E-03 +7.70647024953E-01 +1.40855318963E-01
2.78500000000E+09 +7.07661887556E-01 -3.41626992668E-02 -5.02035034232E-04 -2.59906233937E-03 -7.07671780864E-04 -2.56557514254E-03 +7.68081039950E-01 +1.23481155892E-01
2.79000000000E+09 +6.99600470766E-01 -5.49439624124E-02 -4.05885743902E-04 -2.61014750733E-03 -4.97967656459E-04 -2.50457714391E-03 +7.64703746650E-01 +1.06343131772E-01
2.79500000000E+09 +6.91489664073E-01 -7.58384708793E-02 -5.43387960293E-04 -2.88054836525E-03 -4.78420233807E-04 -2.71873571913E-03 +7.60569428861E-01 +8.84918181284E-02
2.80000000000E+09 +6.82636853516E-01 -9.63356354153E-02 -9.97831659124E-04 -3.07170420323E-03 -8.41613652808E-04 -2.92326742973E-03 +7.55352411615E-01 +7.04930380591E-02
2.80500000000E+09 +6.73242175668E-01 -1.15879688448E-01 -1.40679320086E-03 -3.05756440018E-03 -1.32184463011E-03 -3.09649407840E-03 +7.49752003485E-01 +5.22108705619E-02
2.81000000000E+09 +6.62513819198E-01 -1.33575796750E-01 -1.98929124724E-03 -2.79708868649E-03 -2.01157438393E-03 -2.91432091346E-03 +7.44220545611E-01 +3.34800814692E-02
2.81500000000E+09 +6.50281359910E-01 -1.49631247920E-01 -2.11099640486E-03 -2.58958950218E-03 -2.27049601036E-03 -2.59956841575E-03 +7.38221299908E-01 +1.35540074214E-02
2.82000000000E+09 +6.36848239805E-01 -1.63971027680E-01 -2.69332375005E-03 -2.52331676124E-03 -2.85017981256E-03 -2.33987422341E-03 +7.31074963530E-01 -6.56751599834E-03
2.82500000000E+09 +6.22255194675E-01 -1.78175061440E-01 -3.05437924927E-03 -1.97956186271E-03 -2.92968498845E-03 -1.79456823668E-03 +7.22953046386E-01 -2.67200131956E-02
2.83000000000E+09 +6.05448414291E-01 -1.93584337098E-01 -3.25182805123E-03 -1.56931209459E-03 -3.08656505780E-03 -1.44961972138E-03 +7.13947731644E-01 -4.71381378261E-02
2.83500000000E+09 +5.86317328916E-01 -2.09870913709E-01 -3.06746153671E-03 -9.90663729437E-04 -2.91703523044E-03 -1.03416146406E-03 +7.03685676445E-01 -6.76524084649E-02
2.84000000000E+09 +5.65229561562E-01 -2.27810364585E-01 -2.98935830329E-03 -1.07058885097E-03 -2.86036071688E-03 -1.16927282391E-03 +6.92496994119E-01 -8.88652493541E-02
2.84500000000E+09 +5.41672947093E-01 -2.47250720426E-01 -3.40765106034E-03 -1.18350939048E-03 -3.36642316683E-03 -1.23759571107E-03 +6.79135329481E-01 -1.09964700296E-01
2.85000000000E+09 +5.16741740391E-01 -2.67229936295E-01 -3.89513312145E-03 -6.08394116051E-04 -3.89820581357E-03 -6.29898260788E-04 +6.65192500165E-01 -1.30025525045E-01
2.85500000000E+09 +4.90164029588E-01 -2.86675534714E-01 -3.98744926725E-03 +1.14092211842E-05 -3.92664339837E-03 +2.08959657765E-05 +6.49903435238E-01 -1.50002786433E-01
2.86000000000E+09 +4.63944342155E-01 -3.03460070507E-01 -3.86107866468E-03 +6.71105580038E-04 -3.79783989507E-03 +6.43623528274E-04 +6.34450767213E-01 -1.70034676466E-01
2.86500000000E+09 +4.39698659245E-01 -3.18176199712E-01 -3.77556564347E-03 +6.85972752228E-04 -3.74122694125E-03 +5.73185339551E-04 +6.16879746998E-01 -1.90857255944E-01
2.87000000000E+09 +4.16122671117E-01 -3.31954172259E-01 -3.95787240567E-03 +1.58654996586E-03 -4.06969468521E-03 +1.59266011974E-03 +5.97458496245E-01 -2.10694995124E-01
2.87500000000E+09 +3.92095719994E-01 -3.43621765994E-01 -3.21238224169E-03 +1.74117779074E-03 -3.21572372009E-03 +1.80613182856E-03 +5.76744498398E-01 -2.29377044126E-01
2.88000000000E+09 +3.67080467209E-01 -3.53537317054E-01 -3.62573197785E-03 +1.76385583560E-03 -3.55828529942E-03 +1.82880037147E-03 +5.56503979205E-01 -2.46827172723E-01
2.88500000000E+09 +3.39234496041E-01 -3.60869173879E-01 -3.57672474325E-03 +2.61950732837E-03 -3.33002410062E-03 +2.50621597239E-03 +5.34749211529E-01 -2.65935127249E-01
2.89000000000E+09 +3.09724906291E-01 -3.65302054809E-01 -3.26848326630E-03 +3.01376256882E-03 -3.18917587872E-03 +2.79702799672E-03 +5.10132346145E-01 -2.83853010810E-01
2.89500000000E+09 +2.78960711783E-01 -3.69030693445E-01 -3.07761152378E-03 +3.46501273497E-03 -3.13024187954E-03 +3.30173035529E-03 +4.84302160482E-01 -3.00800555838E-01
2.90000000000E+09 +2.45640076882E-01 -3.71573280343E-01 -2.50627701193E-03 +4.30644594718E-03 -2.70379347317E-03 +4.22258248997E-03 +4.57266983268E-01 -3.17764975421E-01
2.90500000000E+09 +2.10234609991E-01 -3.73329648050E-01 -1.89876886523E-03 +4.37975022089E-03 -1.97669272980E-03 +4.47209158254E-03 +4.28720769592E-01 -3.33540576273E-01
2.91000000000E+09 +1.74148651024E-01 -3.73155056443E-01 -1.10391987573E-03 +4.74206186562E-03 -9.42220033660E-04 +4.77648146011E-03 +3.99205481251E-01 -3.49392772702E-01
2.91500000000E+09 +1.37938126327E-01 -3.71623832678E-01 -4.55711930527E-04 +4.65962220598E-03 -3.30984796198E-04 +4.52581710546E-03 +3.66760522424E-01 -3.62586542361E-01
2.92000000000E+09 +1.02117990200E-01 -3.68249015029E-01 +2.47349525059E-04 +4.48855395485E-03 +1.63051482559E-04 +4.24257598355E-03 +3.32962272164E-01 -3.73710069182E-01
2.92500000000E+09 +6.80372299710E-02 -3.61145852356E-01 +4.94687103286E-04 +4.11302980288E-03 +3.00019411901E-04 +3.91889608536E-03 +2.97608378539E-01 -3.81638967516E-01
2.93000000000E+09 +3.61662548156E-02 -3.52358645002E-01 +5.50372418047E-04 +4.20219208209E-03 +2.82358521915E-04 +4.20722566042E-03 +2.61702364272E-01 -3.88801218172E-01
2.93500000000E+09 +5.54701743665E-03 -3.41332612368E-01 +9.77210872604E-04 +4.50335323879E-03 +8.16851352789E-04 +4.57231164102E-03 +2.23373621586E-01 -3.95143102673E-01
2.94000000000E+09 -2.44511403581E-02 -3.27677918639E-01 +1.57890964938E-03 +4.19840788568E-03 +1.58484638538E-03 +4.25177090487E-03 +1.81972507915E-01 -3.98104231571E-01
2.94500000000E+09 -5.42038071158E-02 -3.12026514933E-01 +1.75029954939E-03 +4.55560790438E-03 +1.68205701968E-03 +4.56378775507E-03 +1.42769105658E-01 -3.97057605877E-01
2.95000000000E+09 -8.53513208876E-02 -2.92741017014E-01 +3.10532554879E-03 +4.29168679097E-03 +2.94215393101E-03 +4.37161649516E-03 +1.02890346916E-01 -3.94920362327E-01
2.95500000000E+09 -1.14619753143E-01 -2.69587319148E-01 +3.40241122356E-03 +3.61491768791E-03 +3.31194658034E-03 +3.78063184746E-03 +6.28093913629E-02 -3.89738759328E-01
2.96000000000E+09 -1.42846693782E-01 -2.45747321513E-01 +3.66750184575E-03 +2.82809569102E-03 +3.74020015568E-03 +2.95749046499E-03 +2.18897737018E-02 -3.81458601228E-01
2.96500000000E+09 -1.70394728875E-01 -2.19221137688E-01 +3.40840390637E-03 +2.71101795069E-03 +3.49549982381E-03 +2.79322500046E-03 -1.87884583346E-02 -3.68765250676E-01
2.97000000000E+09 -1.94380041491E-01 -1.91714024065E-01 +3.70672979008E-03 +2.81599063633E-03 +3.73499954929E-03 +2.77284332106E-03 -5.77590382557E-02 -3.53448066593E-01
2.97500000000E+09 -2.16861605718E-01 -1.64727211949E-01 +4.59653200333E-03 +3.04760989488E-03 +4.41496204872E-03 +3.01846816851E-03 -9.57858075679E-02 -3.37436051927E-01
2.98000000000E+09 -2.38869537027E-01 -1.35992854423E-01 +5.73125706000E-03 +2.22624046018E-03 +5.56772645883E-03 +2.35989959969E-03 -1.34300985686E-01 -3.18553960281E-01
2.98500000000E+09 -2.57294141611E-01 -1.05484733850E-01 +5.97726459197E-03 +7.09888706833E-04 +6.00153208867E-03 +1.04534703192E-03 -1.71098882828E-01 -2.96665594604E-01
2.99000000000E+09 -2.73228098432E-01 -7.41591366434E-02 +5.68637488482E-03 -1.37335468357E-04 +5.95615628887E-03 +3.06033134371E-05 -2.06516755738E-01 -2.70955050646E-01
2.99500000000E+09 -2.86766610768E-01 -4.28668942869E-02 +5.41208963765E-03 -5.24312274389E-04 +5.58886485929E-03 -6.72379055029E-04 -2.38959466640E-01 -2.42567863403E-01
3.00000000000E+09 -2.99718217034E-01 -1.05329688036E-02 +5.55327282562E-03 -1.10907515047E-03 +5.54100458997E-03 -1.35147484373E-03 -2.70407420834E-01 -2.12364851076E-01
3.00500000000E+09 -3.10196385220E-01 +2.23695186383E-02 +5.71110448255E-03 -1.79629130841E-03 +5.48263640864E-03 -1.82941519426E-03 -3.00020034985E-01 -1.80109741136E-01
3.01000000000E+09 -3.18826267851E-01 +5.45850210895E-02 +5.33170678090E-03 -3.14482753431E-03 +5.13736605620E-03 -2.88059670233E-03 -3.26934278509E-01 -1.44991301015E-01
3.01500000000E+09 -3.25974907858E-01 +8.72775993096E-02 +4.44258870388E-03 -3.72122278071E-03 +4.65201919781E-03 -3.46875044699E-03 -3.51086284075E-01 -1.09887481533E-01
3.02000000000E+09 -3.29106345179E-01 +1.18778122348E-01 +3.90553144243E-03 -4.05679217441E-03 +4.15096624207E-03 -3.96270001019E-03 -3.72437810587E-01 -7.25959253802E-02
3.02500000000E+09 -3.29996605975E-01 +1.48051347751E-01 +3.53150291028E-03 -4.41997842168E-03 +3.62385400494E-03 -4.57907598920E-03 -3.90541658081E-01 -3.49317903588E-02
3.03000000000E+09 -3.29034258659E-01 +1.75713397651E-01 +2.76398092408E-03 -4.90800677391E-03 +2.82424383341E-03 -5.02091941255E-03 -4.06086152069E-01 +4.74877914691E-03
3.03500000000E+09 -3.25861584655E-01 +2.03980471430E-01 +1.96517268780E-03 -5.01115552833E-03 +1.96086067138E-03 -5.05586617487E-03 -4.18749418767E-01 +4.52466678944E-02
3.04000000000E+09 -3.19088005732E-01 +2.32481936001E-01 +1.28256650416E-03 -5.29816719247E-03 +1.44243983351E-03 -5.32822023276E-03 -4.26444451515E-01 +8.57789475532E-02
3.04500000000E+09 -3.09946155286E-01 +2.60138835203E-01 +5.74389106507E-04 -4.60033554244E-03 +6.17724640695E-04 -4.91232775013E-03 -4.32824236158E-01 +1.24987443024E-01
3.05000000000E+09 -2.98653599375E-01 +2.89525904247E-01 +6.33270009346E-04 -4.73753728330E-03 +4.51097618342E-04 -5.01280010478E-03 -4.36817202133E-01 +1.63503785960E-01
3.05500000000E+09 -2.84956499626E-01 +3.17569914823E-01 +2.25842278293E-04 -5.02613803488E-03 -1.38660059194E-04 -5.11349226008E-03 -4.38918661466E-01 +2.02665042887E-01
3.06000000000E+09 -2.71325592147E-01 +3.44963785579E-01 -3.48641760636E-04 -5.32566895067E-03 -5.96275964203E-04 -5.09752546536E-03 -4.37661195025E-01 +2.41070122876E-01
3.06500000000E+09 -2.57182381145E-01 +3.71588745357E-01 -1.35722933661E-03 -5.47659168572E-03 -1.28516050668E-03 -5.25024616647E-03 -4.33921131197E-01 +2.78086689030E-01
3.07000000000E+09 -2.44520266736E-01 +3.96269139312E-01 -2.67179881818E-03 -4.95892750324E-03 -2.35121458438E-03 -4.98205889980E-03 -4.28602802797E-01 +3.14650444352E-01
