# Hz S RI R 50
! CMT, C1220, 16058040, 17.2.0/1
! Date: 15/08/2018 10:20:16
! Data: Format (Calibration Info)
! Freq                      S11: Re/Im (F2)                       S21: Re/Im (F2)                       S12: Re/Im (F2)                       S22: Re/Im (F2)            
2.50000000000E+09 +5.96427295585E-01 +6.34145559002E-01 -3.19263912164E-04 +1.30278001606E-04 -3.43856471207E-04 +1.14118179634E-04 +5.73004305067E-01 +7.16985327800E-01
2.50500000000E+09 +6.02995049157E-01 +6.26344012552E-01 -2.65406191205E-04 +1.98460447743E-04 -3.05680695929E-04 +2.33364392178E-04 +5.78533559259E-01 +7.11402528242E-01
2.51000000000E+09 +6.09618480815E-01 +6.18030688963E-01 -2.18773590727E-04 +2.09767467337E-04 -2.16134035778E-04 +2.38007636573E-04 +5.83942313471E-01 +7.06191467397E-01
2.51500000000E+09 +6.15879368200E-01 +6.09966859194E-01 -2.18509889495E-04 +1.80391194658E-04 -1.74668500022E-04 +2.01529220849E-04 +5.89315799074E-01 +7.00946889422E-01
2.52000000000E+09 +6.21829264333E-01 +6.02197604524E-01 -2.16085098129E-04 +2.10712315448E-04 -1.97811616173E-04 +2.09072246737E-04 +5.94472251476E-01 +6.94800612281E-01
2.52500000000E+09 +6.26938485576E-01 +5.94948354016E-01 -2.12817180576E-04 +2.31843060428E-04 -2.39342305878E-04 +2.04370362031E-04 +6.00003644587E-01 +6.88630822632E-01
2.53000000000E+09 +6.31730621405E-01 +5.88162880264E-01 -2.28215586881E-04 +3.08115648877E-04 -2.43503530890E-04 +3.19000492464E-04 +6.06169607674E-01 +6.81645477688E-01
2.53500000000E+09 +6.36053427206E-01 +5.82112178902E-01 -1.63839226469E-04 +3.08065985403E-04 -1.71175994161E-04 +3.50545071685E-04 +6.12194137313E-01 +6.74893543700E-01
2.54000000000E+09 +6.40116976008E-01 +5.76139729288E-01 -1.74440829883E-04 +4.26727364122E-04 -1.00800799013E-04 +4.36662177532E-04 +6.17895053106E-01 +6.68218032358E-01
2.54500000000E+09 +6.44265289292E-01 +5.70629994478E-01 -3.89906632896E-05 +5.04820133006E-04 -2.30434010269E-05 +4.60404734056E-04 +6.23642411203E-01 +6.61908086697E-01
2.55000000000E+09 +6.49028270695E-01 +5.64852059639E-01 +1.31569604352E-04 +4.08123865414E-04 +1.33029861001E-04 +4.79225719969E-04 +6.29167198703E-01 +6.55598133257E-01
2.55500000000E+09 +6.54561577279E-01 +5.58073112792E-01 +2.05919448182E-04 +3.06083225775E-04 +1.88886117291E-04 +3.88073782767E-04 +6.34419180820E-01 +6.49148982463E-01
2.56000000000E+09 +6.60764227355E-01 +5.50778484516E-01 +1.41613389407E-04 +2.08174581197E-04 +2.02800516965E-04 +1.89206418778E-04 +6.39785259207E-01 +6.41849040572E-01
2.56500000000E+09 +6.67093636011E-01 +5.42178718911E-01 -3.99861531505E-06 +1.72400416212E-04 +6.23266409598E-05 +1.67175769286E-04 +6.45432432938E-01 +6.34485455138E-01
2.57000000000E+09 +6.73330197629E-01 +5.33357203284E-01 -4.64180430973E-05 +3.50811149640E-04 +7.26723510861E-05 +3.29181658621E-04 +6.50724839895E-01 +6.26376925639E-01
2.57500000000E+09 +6.79699806045E-01 +5.24267009648E-01 +1.44843871170E-04 +3.56890596782E-04 +2.19651342253E-04 +3.06120190872E-04 +6.56029442583E-01 +6.18885332756E-01
2.58000000000E+09 +6.85259595732E-01 +5.15277076719E-01 +2.64217864685E-04 +3.80448177838E-04 +2.44729659711E-04 +2.67762442749E-04 +6.61053123607E-01 +6.11640711724E-01
2.58500000000E+09 +6.90509246766E-01 +5.06278261403E-01 +3.40372104781E-04 +2.31935009120E-04 +2.51850280006E-04 +1.52808528014E-04 +6.65991794767E-01 +6.04031101626E-01
2.59000000000E+09 +6.95129890970E-01 +4.97619821159E-01 +2.11482793158E-04 +9.38864823828E-05 +1.88283113740E-04 +1.19223287440E-04 +6.70755344347E-01 +5.96446153249E-01
2.59500000000E+09 +6.99358762401E-01 +4.89074277785E-01 +1.43732297564E-04 +1.29587942315E-04 +1.56561330444E-04 +1.48645471571E-04 +6.75683864845E-01 +5.88364719623E-01
2.60000000000E+09 +7.03273654470E-01 +4.80600382578E-01 +1.66603938329E-04 +1.97291047562E-04 +1.48607211368E-04 +1.75695833365E-04 +6.80810487012E-01 +5.79820184499E-01
2.60500000000E+09 +7.07307570962E-01 +4.71547694628E-01 +2.12893532488E-04 +1.97443378258E-04 +1.65078334196E-04 +2.54385544675E-04 +6.86057599664E-01 +5.71200075031E-01
2.61000000000E+09 +7.11378830580E-01 +4.61549099237E-01 +2.84341507599E-04 +2.39718108413E-04 +2.64861952440E-04 +2.75936747901E-04 +6.91250917711E-01 +5.62400581136E-01
2.61500000000E+09 +7.15856214229E-01 +4.50446002996E-01 +3.22099186469E-04 +1.91575354382E-04 +3.48368694219E-04 +1.86067062670E-04 +6.95931621386E-01 +5.53556558459E-01
2.62000000000E+09 +7.19841371930E-01 +4.38042587771E-01 +3.11272422253E-04 +1.02787379169E-04 +4.07565328731E-04 +1.56602737505E-04 +7.00699827998E-01 +5.44670848221E-01
2.62500000000E+09 +7.23762666381E-01 +4.24892813798E-01 +2.68288078885E-04 +1.27016747472E-04 +3.18742975646E-04 +1.53629029789E-04 +7.05323375102E-01 +5.35848560863E-01
2.63000000000E+09 +7.27418052673E-01 +4.11507333443E-01 +3.16427359558E-04 +1.92351056243E-04 +3.26349876771E-04 +1.62814717760E-04 +7.10410971396E-01 +5.26703512122E-01
2.63500000000E+09 +7.30441392075E-01 +3.98106333842E-01 +3.82644588409E-04 +2.19157317357E-04 +3.89686762126E-04 +1.19220547462E-04 +7.15458867484E-01 +5.17047402975E-01
2.64000000000E+09 +7.33391307810E-01 +3.85326613055E-01 +5.24035755308E-04 +1.75645527920E-04 +4.48584014756E-04 +1.35789912298E-04 +7.20220252627E-01 +5.07187752622E-01
2.64500000000E+09 +7.36261072650E-01 +3.73359579490E-01 +5.31150251025E-04 +8.84457166460E-05 +4.65611042004E-04 +1.23830649370E-04 +7.24953926356E-01 +4.97424332628E-01
2.65000000000E+09 +7.38611335417E-01 +3.61938685065E-01 +5.90993350286E-04 -3.44572061183E-06 +5.95171467322E-04 +3.63503607449E-05 +7.29238781470E-01 +4.87382761936E-01
2.65500000000E+09 +7.41256117562E-01 +3.51030660622E-01 +6.98636811620E-04 -1.09694770862E-04 +7.12909840606E-04 -9.65504233398E-05 +7.33245247471E-01 +4.76952493394E-01
2.66000000000E+09 +7.43983834825E-01 +3.40153836516E-01 +6.71400815646E-04 -2.45767834991E-04 +7.42622003005E-04 -2.84918294485E-04 +7.37284490298E-01 +4.65777849264E-01
2.66500000000E+09 +7.46702771651E-01 +3.29010903655E-01 +6.81377647952E-04 -3.06887077010E-04 +6.70085832956E-04 -3.77411278212E-04 +7.41291164611E-01 +4.54361116435E-01
2.67000000000E+09 +7.49004625962E-01 +3.16962497241E-01 +6.00370800262E-04 -5.67559988660E-04 +5.48494686107E-04 -6.44100771606E-04 +7.45490716917E-01 +4.43401252628E-01
2.67500000000E+09 +7.50707903497E-01 +3.04183640868E-01 +3.32965356833E-04 -6.17814922384E-04 +2.62676844773E-04 -5.21922568983E-04 +7.49649401540E-01 +4.32029151327E-01
2.68000000000E+09 +7.52146397540E-01 +2.90715105469E-01 +3.69967508990E-04 -4.64343464502E-04 +3.12358462872E-04 -4.35107767734E-04 +7.53299136017E-01 +4.20503743238E-01
2.68500000000E+09 +7.52740767924E-01 +2.76538989646E-01 +3.19066076081E-04 -5.89237791939E-04 +3.25084717747E-04 -5.10991073858E-04 +7.55923525654E-01 +4.08814562025E-01
2.69000000000E+09 +7.53139528315E-01 +2.62284501367E-01 +2.93507992320E-04 -5.73505702122E-04 +3.35490475117E-04 -5.72294527019E-04 +7.58214274697E-01 +3.97021700444E-01
2.69500000000E+09 +7.53062892756E-01 +2.48146924094E-01 +2.64578006266E-04 -7.52159104775E-04 +2.40802731450E-04 -6.72727279502E-04 +7.60618998040E-01 +3.84545770895E-01
2.70000000000E+09 +7.53313418805E-01 +2.34166352114E-01 +2.01930966472E-04 -8.08769329022E-04 +1.99217009280E-04 -7.52222302710E-04 +7.63631282435E-01 +3.71359622177E-01
2.70500000000E+09 +7.53620773710E-01 +2.20619392249E-01 -3.05209849335E-05 -8.61841543382E-04 -5.59645030204E-05 -8.22896692057E-04 +7.66083068489E-01 +3.57784614000E-01
2.71000000000E+09 +7.54382497733E-01 +2.07263774606E-01 -2.07246156681E-04 -8.62103221541E-04 -1.36516676766E-04 -8.60364957938E-04 +7.68737316679E-01 +3.44830090906E-01
2.71500000000E+09 +7.55975561399E-01 +1.93340985926E-01 -4.51907435550E-04 -7.06547166527E-04 -4.90954784971E-04 -8.39848816819E-04 +7.71183551080E-01 +3.32157063563E-01
2.72000000000E+09 +7.57287535024E-01 +1.78661232072E-01 -4.74069517760E-04 -4.09125204418E-04 -5.16107686006E-04 -3.75273673628E-04 +7.73125487743E-01 +3.19574152864E-01
2.72500000000E+09 +7.58037519328E-01 +1.62882632116E-01 -1.85958609117E-04 -3.91684245877E-04 -1.82442220529E-04 -4.13259071562E-04 +7.74203380753E-01 +3.06345470159E-01
2.73000000000E+09 +7.57629562061E-01 +1.46635181786E-01 -2.01519849306E-04 -6.59715318171E-04 -2.48613612487E-04 -5.54193768918E-04 +7.75359664151E-01 +2.92608888877E-01
2.73500000000E+09 +7.55940795998E-01 +1.29538950444E-01 -4.10514900060E-04 -6.44228885783E-04 -3.31710688348E-04 -5.69781614133E-04 +7.76545949992E-01 +2.78141974789E-01
2.74000000000E+09 +7.53171160615E-01 +1.12850373479E-01 -6.27084110091E-04 -5.30103130882E-04 -5.16411455625E-04 -5.20476247600E-04 +7.78040249784E-01 +2.63230951888E-01
2.74500000000E+09 +7.49169441041E-01 +9.55269642176E-02 -6.07714984608E-04 -3.16654801278E-04 -5.02934451242E-04 -3.81510408659E-04 +7.79128108899E-01 +2.47884494256E-01
2.75000000000E+09 +7.44043243298E-01 +7.84163545876E-02 -4.84276212766E-04 -2.34137525534E-04 -4.64953892297E-04 -3.07838905546E-04 +7.79834708452E-01 +2.33012192746E-01
2.75500000000E+09 +7.38391863812E-01 +6.18067612989E-02 -4.44468720864E-04 -3.75621362180E-04 -4.54988474093E-04 -4.58858499160E-04 +7.79848110983E-01 +2.17427427469E-01
2.76000000000E+09 +7.33076662846E-01 +4.54637587234E-02 -5.52933630443E-04 -4.05113182842E-04 -6.37318375299E-04 -4.90626040500E-04 +7.79268807777E-01 +2.02177024647E-01
2.76500000000E+09 +7.28163312798E-01 +2.89307108861E-02 -7.71239515285E-04 -3.33075412498E-04 -7.86605308588E-04 -3.67417319475E-04 +7.78400407686E-01 +1.85346737705E-01
2.77000000000E+09 +7.23336985625E-01 +1.11488619660E-02 -7.49720039754E-04 -2.21161184019E-04 -7.58839812310E-04 -2.17377390953E-04 +7.76913925334E-01 +1.67755392264E-01
2.77500000000E+09 +7.18615368442E-01 -7.42940737060E-03 -8.14014605077E-04 -1.69362896548E-04 -8.16752025539E-04 -9.45365337762E-05 +7.74937236745E-01 +1.50050471722E-01
2.78000000000E+09 +7.13267223163E-01 -2.70730821511E-02 -8.70318031317E-04 -3.86380708557E-05 -8.93758570144E-04 -3.09028788074E-05 +7.72946301369E-01 +1.32189789463E-01
2.78500000000E+09 +7.06847557155E-01 -4.75667126722E-02 -8.21209852123E-04 +4.00436302605E-05 -8.36616128452E-04 +1.27715354382E-04 +7.70368186132E-01 +1.14398510322E-01
2.79000000000E+09 +6.99493881900E-01 -6.78852732615E-02 -9.30098410688E-04 +1.62194224246E-04 -8.69736183217E-04 +1.31457024835E-04 +7.66930082250E-01 +9.70796741453E-02
2.79500000000E+09 +6.91372225641E-01 -8.82046033908E-02 -9.44074487807E-04 +3.54213144023E-04 -8.75928358534E-04 +3.85811191068E-04 +7.62553685756E-01 +7.94783441495E-02
2.80000000000E+09 +6.81240036473E-01 -1.08557809815E-01 -6.18817445877E-04 +6.06007462191E-04 -6.32835871322E-04 +5.54313054440E-04 +7.57944476139E-01 +6.12611967201E-02
2.80500000000E+09 +6.70107635498E-01 -1.27443902032E-01 -3.70902567152E-04 +3.18840884769E-04 -3.64691762183E-04 +2.78609936294E-04 +7.52281127647E-01 +4.19617006264E-02
2.81000000000E+09 +6.57949890996E-01 -1.45333286515E-01 -6.84106474214E-04 +1.60721141817E-04 -7.02599136337E-04 +1.34117831988E-04 +7.45586187952E-01 +2.29475366892E-02
2.81500000000E+09 +6.44905156457E-01 -1.62183047727E-01 -8.00834076235E-04 +3.88131029205E-04 -8.27851379833E-04 +4.18963734391E-04 +7.38532942928E-01 +3.91812424702E-03
2.82000000000E+09 +6.31130054538E-01 -1.78634780336E-01 -9.49648507487E-04 +6.18680270206E-04 -8.94593801128E-04 +6.40827012946E-04 +7.31400744522E-01 -1.55740786542E-02
2.82500000000E+09 +6.16922834519E-01 -1.95110079418E-01 -6.83247546639E-04 +9.67761099327E-04 -6.61329603371E-04 +9.11322900555E-04 +7.22236156797E-01 -3.55090919538E-02
2.83000000000E+09 +6.00727132955E-01 -2.12544717304E-01 -3.38785531854E-04 +9.63055113812E-04 -3.53559129204E-04 +9.40449558105E-04 +7.12658515517E-01 -5.47138095006E-02
2.83500000000E+09 +5.83198248419E-01 -2.29924914759E-01 -3.51010693123E-04 +8.40903108129E-04 -3.84182159083E-04 +7.78884796830E-04 +7.01983815656E-01 -7.46939036721E-02
2.84000000000E+09 +5.64080588320E-01 -2.47897887627E-01 -2.65939703671E-04 +8.85630100538E-04 -3.00619590024E-04 +8.43862211219E-04 +6.90928579563E-01 -9.44352168620E-02
2.84500000000E+09 +5.42704941160E-01 -2.66285192350E-01 -4.62826313975E-04 +7.67878616764E-04 -4.99562520479E-04 +7.68402981710E-04 +6.79029383053E-01 -1.14948382480E-01
2.85000000000E+09 +5.19808959554E-01 -2.84217862329E-01 -3.05826281707E-04 +1.44836750201E-03 -3.61709916020E-04 +1.47946283978E-03 +6.65841668030E-01 -1.35718512050E-01
2.85500000000E+09 +4.95298927382E-01 -3.01724545139E-01 +3.96561337943E-04 +1.03207883811E-03 +3.25750058590E-04 +1.08523478661E-03 +6.51295836577E-01 -1.56011753007E-01
2.86000000000E+09 +4.69495607238E-01 -3.18219692878E-01 -6.03196332080E-05 +6.78620499641E-04 -6.10723810049E-05 +7.38488008871E-04 +6.35644058492E-01 -1.76482314010E-01
2.86500000000E+09 +4.43404117014E-01 -3.32746116429E-01 -4.07041809710E-04 +1.32181535599E-03 -3.56262529724E-04 +1.33395911014E-03 +6.18384822915E-01 -1.96872141158E-01
2.87000000000E+09 +4.17713186317E-01 -3.46402348446E-01 +4.85368106350E-04 +1.66837519425E-03 +5.26705890592E-04 +1.69532381462E-03 +5.99906738501E-01 -2.17057370472E-01
2.87500000000E+09 +3.91824881843E-01 -3.59486584554E-01 +7.30790923046E-04 +1.20569703579E-03 +7.94409618906E-04 +1.19949005791E-03 +5.79906210339E-01 -2.36843153132E-01
2.88000000000E+09 +3.64743680164E-01 -3.71527246807E-01 +7.13876238966E-04 +1.18489777827E-03 +7.97980044135E-04 +1.11781299855E-03 +5.59181860964E-01 -2.56050040015E-01
2.88500000000E+09 +3.36724364426E-01 -3.81976293925E-01 +1.09858692578E-03 +1.01448203992E-03 +1.10500393253E-03 +9.57981913098E-04 +5.36752610953E-01 -2.75358045661E-01
2.89000000000E+09 +3.07430984261E-01 -3.90497439099E-01 +9.18757802458E-04 +7.59836692108E-04 +7.52864739084E-04 +7.75353414379E-04 +5.11534668143E-01 -2.93551342393E-01
2.89500000000E+09 +2.77118641214E-01 -3.97234622447E-01 +1.02583106277E-03 +1.13389850004E-03 +9.03094482631E-04 +1.12305667018E-03 +4.84971240672E-01 -3.11061823346E-01
2.90000000000E+09 +2.45318426414E-01 -4.02218326767E-01 +1.74533568469E-03 +1.00041189644E-03 +1.69035181258E-03 +1.05436808092E-03 +4.56308042671E-01 -3.27666205353E-01
2.90500000000E+09 +2.11612433058E-01 -4.05221623881E-01 +1.64830183327E-03 +2.62824150116E-04 +1.66197334082E-03 +2.06734081139E-04 +4.25938614991E-01 -3.42891527639E-01
2.91000000000E+09 +1.76286562565E-01 -4.04723273705E-01 +1.77797509617E-03 +2.13103975058E-04 +1.70705960032E-03 +1.21901855265E-04 +3.95263931114E-01 -3.56620349603E-01
2.91500000000E+09 +1.41400135789E-01 -4.01443400052E-01 +1.71856350157E-03 -1.88380257886E-04 +1.62155876716E-03 -1.66887301225E-04 +3.63272079067E-01 -3.68815080940E-01
2.92000000000E+09 +1.06367018726E-01 -3.95588154015E-01 +1.69807053159E-03 -8.16913920368E-04 +1.53324169197E-03 -7.13673569738E-04 +3.30276061537E-01 -3.79442564828E-01
2.92500000000E+09 +7.19613293146E-02 -3.88930820001E-01 +7.13834128812E-04 -7.18184624170E-04 +7.08630539787E-04 -6.09219886807E-04 +2.94565055018E-01 -3.88457751683E-01
2.93000000000E+09 +3.64367635441E-02 -3.79648977308E-01 +9.45391065839E-04 -1.26207174490E-04 +9.11214549910E-04 +2.67287138223E-05 +2.57288851462E-01 -3.94425501213E-01
2.93500000000E+09 +2.19364564732E-03 -3.67584686729E-01 +1.55860183126E-03 -4.62567773278E-04 +1.61871329551E-03 -3.76421911693E-04 +2.19271132500E-01 -3.98989346341E-01
2.94000000000E+09 -3.10625767301E-02 -3.54011587146E-01 +1.05604543190E-03 -1.01481839846E-03 +1.21862583122E-03 -9.50142596995E-04 +1.80293144877E-01 -4.01222714942E-01
2.94500000000E+09 -6.34827678862E-02 -3.38393818482E-01 +9.82136949952E-04 -7.40652618090E-04 +1.08612702367E-03 -7.67246743766E-04 +1.41093789308E-01 -4.01956324929E-01
2.95000000000E+09 -9.55528551088E-02 -3.20286872075E-01 +1.16208951310E-03 -9.90561425361E-04 +1.25719780992E-03 -9.61188784337E-04 +1.00583126698E-01 -3.99881390926E-01
2.95500000000E+09 -1.26241792973E-01 -2.98878848890E-01 +1.20358277890E-03 -1.29878016912E-03 +1.30960825798E-03 -1.30256123864E-03 +6.02280206002E-02 -3.93910285676E-01
2.96000000000E+09 -1.54645904632E-01 -2.74093185719E-01 +7.67857981702E-04 -1.87135861431E-03 +8.71521645870E-04 -1.98449204481E-03 +2.00997451677E-02 -3.85090081554E-01
2.96500000000E+09 -1.80398124774E-01 -2.47789751783E-01 -7.97168345369E-05 -1.69450629581E-03 -1.16813777304E-04 -1.78543889445E-03 -2.04929657435E-02 -3.74230415511E-01
2.97000000000E+09 -2.04763768387E-01 -2.19792019962E-01 +9.85214437679E-05 -1.13289232384E-03 +8.11744683027E-07 -1.15896330557E-03 -6.26376090235E-02 -3.59387646672E-01
2.97500000000E+09 -2.27756305946E-01 -1.89694513701E-01 +3.86980229676E-04 -1.23255788982E-03 +3.68639777042E-04 -1.25111108380E-03 -1.01799609429E-01 -3.40379219651E-01
2.98000000000E+09 -2.48597069007E-01 -1.57611025014E-01 +2.34565314865E-04 -1.82084618645E-03 +2.67885992658E-04 -1.80454973825E-03 -1.40096036792E-01 -3.20478054704E-01
2.98500000000E+09 -2.67182263139E-01 -1.25112691281E-01 -4.77583174070E-04 -1.94235736644E-03 -4.58800543198E-04 -1.99487589226E-03 -1.76088799327E-01 -2.96645689229E-01
2.99000000000E+09 -2.84259613513E-01 -9.18591517576E-02 -8.85488176151E-04 -1.69981228793E-03 -9.37153925664E-04 -1.74949974838E-03 -2.11185950698E-01 -2.72293347269E-01
2.99500000000E+09 -2.99185784778E-01 -5.86843989312E-02 -1.02620754391E-03 -1.14935521289E-03 -1.15060905676E-03 -1.16018716226E-03 -2.45720628366E-01 -2.43051469086E-01
3.00000000000E+09 -3.12734336822E-01 -2.53575397794E-02 -7.86433605564E-04 -9.02029973122E-04 -7.60568837838E-04 -9.38722788575E-04 -2.77199794921E-01 -2.10982123444E-01
3.00500000000E+09 -3.23651624819E-01 +7.66217634920E-03 -9.33705758507E-04 -1.40330859419E-03 -9.77290455571E-04 -1.30176634337E-03 -3.06216450474E-01 -1.77597453882E-01
3.01000000000E+09 -3.32251649569E-01 +3.99718751922E-02 -1.71379813473E-03 -1.27091647364E-03 -1.59969241726E-03 -1.25817352471E-03 -3.33253924444E-01 -1.42300024481E-01
3.01500000000E+09 -3.37615033024E-01 +7.26290884470E-02 -1.80676535459E-03 -2.40995268152E-04 -1.80664492970E-03 -2.55183304307E-04 -3.57192022193E-01 -1.05103090053E-01
3.02000000000E+09 -3.40049574376E-01 +1.03658805656E-01 -1.27246908369E-03 -8.28121499549E-05 -1.27354097130E-03 -6.79270244467E-05 -3.77033049107E-01 -6.67110579686E-02
3.02500000000E+09 -3.39904151364E-01 +1.34446954974E-01 -1.05052156164E-03 -1.70073353511E-04 -1.00205141258E-03 -2.21446263186E-04 -3.93305179805E-01 -2.71006561689E-02
3.03000000000E+09 -3.36575445318E-01 +1.64648095597E-01 -1.42940621059E-03 -5.28594607223E-04 -1.44810884061E-03 -5.00070833659E-04 -4.07406415458E-01 +1.18691140318E-02
3.03500000000E+09 -3.31032941147E-01 +1.94262314820E-01 -2.01367910220E-03 +1.68001984570E-04 -2.01942368589E-03 +2.09295442716E-04 -4.19544503756E-01 +5.26540013441E-02
3.04000000000E+09 -3.22757321125E-01 +2.23611382353E-01 -1.69435550353E-03 +1.01925592995E-03 -1.74301958072E-03 +1.00747859859E-03 -4.27836075878E-01 +9.36897527832E-02
3.04500000000E+09 -3.12865650037E-01 +2.52092236166E-01 -6.69928644295E-04 +1.28670184426E-03 -6.99946075615E-04 +1.34232992607E-03 -4.33634375638E-01 +1.34562871668E-01
3.05000000000E+09 -3.01484968018E-01 +2.80043578148E-01 -2.75937942873E-04 +5.48440436149E-04 -3.05351513554E-04 +5.25585288647E-04 -4.36377775245E-01 +1.75050701265E-01
3.05500000000E+09 -2.89237217887E-01 +3.07587885193E-01 -6.86448557962E-04 +2.08808417815E-04 -6.82515977342E-04 +2.52684596747E-04 -4.35810255036E-01 +2.14740615509E-01
3.06000000000E+09 -2.75292294162E-01 +3.34544649816E-01 -1.30877901652E-03 +7.29933289708E-04 -1.23944926165E-03 +7.43933417679E-04 -4.32673462650E-01 +2.53405045494E-01
3.06500000000E+09 -2.60727212465E-01 +3.59424815774E-01 -4.59054153781E-04 +1.53803900028E-03 -4.44479496393E-04 +1.43483274451E-03 -4.27382522552E-01 +2.90377094481E-01
3.07000000000E+09 -2.45936661207E-01 +3.83294610961E-01 +1.88506050006E-04 +8.29227051472E-04 +8.18320161494E-05 +8.71335041944E-04 -4.20276671014E-01 +3.26098080437E-01
