# Hz S RI R 50
! CMT, C1220, 16058040, 17.2.0/1
! Date: 15/08/2018 10:15:16
! Data: Format (Calibration Info)
! Freq                      S11: Re/Im (F2)                       S21: Re/Im (F2)                       S12: Re/Im (F2)                       S22: Re/Im (F2)            
2.50000000000E+09 +5.96605146073E-01 +6.33333642707E-01 -2.54065358776E-04 +1.87954100411E-04 -3.07373313309E-04 +1.56686558021E-04 +5.73111048848E-01 +7.16462227398E-01
2.50500000000E+09 +6.02872119893E-01 +6.25472531488E-01 -2.00678191664E-04 +2.00452658033E-04 -2.02863399426E-04 +2.57734585659E-04 +5.78712573990E-01 +7.11046374974E-01
2.51000000000E+09 +6.09235667067E-01 +6.17311018708E-01 -1.66425893805E-04 +2.68170747548E-04 -1.16435952917E-04 +2.59340345496E-04 +5.84119351834E-01 +7.05865154547E-01
2.51500000000E+09 +6.15484839828E-01 +6.09544946902E-01 -1.02713074201E-04 +2.45384054778E-04 -1.00493246343E-04 +2.63220345471E-04 +5.89261813156E-01 +7.00560824392E-01
2.52000000000E+09 +6.21252148936E-01 +6.01905986886E-01 -1.14361996256E-05 +2.28029587334E-04 -1.34123108630E-05 +2.12460127864E-04 +5.94362389010E-01 +6.94632656909E-01
2.52500000000E+09 +6.26456936005E-01 +5.94948091054E-01 +7.95967042238E-06 +1.86574669920E-04 -2.65924023520E-05 +1.93872244239E-04 +5.99904014831E-01 +6.88308033965E-01
2.53000000000E+09 +6.31173245202E-01 +5.88318232088E-01 -2.29774856820E-05 +1.92692241025E-04 -3.72239758816E-05 +1.82752215886E-04 +6.06106574999E-01 +6.81452082463E-01
2.53500000000E+09 +6.35777150070E-01 +5.82201685923E-01 +2.96009547856E-05 +2.32296399160E-04 -1.22257189493E-05 +2.53296152456E-04 +6.12252748184E-01 +6.74619192126E-01
2.54000000000E+09 +6.39919346593E-01 +5.76227843532E-01 +9.72171443140E-06 +2.44608664133E-04 +3.15421637181E-05 +2.34695276579E-04 +6.18191941172E-01 +6.68017356538E-01
2.54500000000E+09 +6.44353901252E-01 +5.70573938270E-01 +1.01847540218E-04 +2.67232870383E-04 +6.48883426090E-05 +2.32240879015E-04 +6.24205085835E-01 +6.61654869070E-01
2.55000000000E+09 +6.49213504926E-01 +5.64538249026E-01 +1.71654865165E-04 +2.18981797838E-04 +1.18138145985E-04 +2.32158128912E-04 +6.29472296914E-01 +6.55235678221E-01
2.55500000000E+09 +6.54619386085E-01 +5.57758337046E-01 +1.86349824026E-04 +1.21589726813E-04 +2.65019596912E-04 +1.28036808876E-04 +6.34557001464E-01 +6.48778014008E-01
2.56000000000E+09 +6.60777853922E-01 +5.50489515228E-01 +1.32053984362E-04 +4.34441600190E-05 +1.50121325746E-04 +1.84142946214E-05 +6.39860877869E-01 +6.41728503409E-01
2.56500000000E+09 +6.67097161298E-01 +5.42045164473E-01 +4.30113247439E-05 -2.85996898701E-05 +3.57678933555E-05 -4.37671382173E-05 +6.45310995245E-01 +6.34018104568E-01
2.57000000000E+09 +6.73171829101E-01 +5.33451583067E-01 -3.73748763436E-05 +6.05097607467E-05 -4.07261570586E-05 +6.46332833109E-05 +6.50731168254E-01 +6.26014975572E-01
2.57500000000E+09 +6.79181749641E-01 +5.24540494694E-01 -5.95087090952E-05 +8.20072860765E-05 -1.97681031782E-05 +9.32024681979E-05 +6.56151230744E-01 +6.18324897512E-01
2.58000000000E+09 +6.84571030859E-01 +5.15994442478E-01 +8.07886293960E-06 +1.68196999468E-04 +4.78447284366E-05 +1.53949064380E-04 +6.61126409639E-01 +6.10953900086E-01
2.58500000000E+09 +6.89756478054E-01 +5.07125929833E-01 +4.67338492574E-05 +1.54352710770E-04 +3.50477807412E-05 +1.30568613272E-04 +6.65998735836E-01 +6.03416492275E-01
2.59000000000E+09 +6.94258575926E-01 +4.98686773541E-01 +1.62728901755E-05 +1.18531712246E-04 +5.06107833055E-05 +1.09133784701E-04 +6.70580890690E-01 +5.96078043715E-01
2.59500000000E+09 +6.98527918138E-01 +4.90226728410E-01 +8.94895106491E-05 +1.34513710849E-04 +9.53388246947E-05 +1.92510862195E-04 +6.75426329612E-01 +5.88184213339E-01
2.60000000000E+09 +7.02588134917E-01 +4.81622131525E-01 +8.65777016982E-05 +1.15824164291E-04 +7.93996441274E-05 +1.13843072120E-04 +6.80386025406E-01 +5.79754803624E-01
2.60500000000E+09 +7.06718888203E-01 +4.72519938686E-01 +1.17670292287E-04 +1.58211915142E-04 +3.19242859056E-05 +1.45024209949E-04 +6.85751852321E-01 +5.71249768181E-01
2.61000000000E+09 +7.11052979392E-01 +4.62451126791E-01 +1.63073733805E-04 +1.99040889544E-04 +1.28117633846E-04 +2.31273509216E-04 +6.91143126057E-01 +5.62362231519E-01
2.61500000000E+09 +7.15588729372E-01 +4.51135208682E-01 +2.55410719688E-04 +1.95985139356E-04 +2.35107918997E-04 +2.44857897619E-04 +6.96059374293E-01 +5.53563144599E-01
2.62000000000E+09 +7.19524741647E-01 +4.38719578998E-01 +2.02126670892E-04 +1.04644090138E-04 +2.14379744391E-04 +1.09579346453E-04 +7.00925325871E-01 +5.44493311251E-01
2.62500000000E+09 +7.23567354977E-01 +4.25736988287E-01 +1.73885444011E-04 +1.48504274024E-04 +1.93643714950E-04 +2.05432052206E-04 +7.05828207280E-01 +5.35537593636E-01
2.63000000000E+09 +7.27250516938E-01 +4.12527838819E-01 +2.49019923489E-04 +2.17459732712E-04 +2.79131521745E-04 +1.59266583222E-04 +7.10733911821E-01 +5.26407806184E-01
2.63500000000E+09 +7.30505396735E-01 +3.99408977394E-01 +3.24724477820E-04 +1.83886461883E-04 +3.06281836118E-04 +1.73682623358E-04 +7.15526536761E-01 +5.16972416115E-01
2.64000000000E+09 +7.33400634406E-01 +3.86716246204E-01 +4.62625484704E-04 +9.72709826573E-05 +3.67029633041E-04 +7.67187662124E-05 +7.20407502793E-01 +5.07093818817E-01
2.64500000000E+09 +7.36540592971E-01 +3.74861361570E-01 +4.08462279177E-04 -4.45312142902E-05 +3.77178543389E-04 +1.36062018661E-05 +7.25301893122E-01 +4.97122966510E-01
2.65000000000E+09 +7.38813227305E-01 +3.63628841341E-01 +3.58921311351E-04 -2.40863036162E-05 +3.57846986694E-04 +1.77704019435E-05 +7.29503021827E-01 +4.86710486333E-01
2.65500000000E+09 +7.41731747095E-01 +3.52628302113E-01 +4.57742296241E-04 -5.20743954605E-05 +4.29629961883E-04 -2.58248690701E-05 +7.33308561473E-01 +4.76156483024E-01
2.66000000000E+09 +7.44550956468E-01 +3.41777179230E-01 +4.69617873769E-04 -1.64706140439E-04 +5.22580423898E-04 -1.69435871085E-04 +7.37252989796E-01 +4.64920603680E-01
2.66500000000E+09 +7.47349519537E-01 +3.30509375817E-01 +4.74420940029E-04 -2.68053775467E-04 +4.82872366116E-04 -2.97184308259E-04 +7.40994686397E-01 +4.53673773503E-01
2.67000000000E+09 +7.49502812331E-01 +3.18431519543E-01 +4.16894968004E-04 -3.95539666708E-04 +3.85940856128E-04 -3.99277905714E-04 +7.45130049905E-01 +4.43058510738E-01
2.67500000000E+09 +7.51189897183E-01 +3.05721485899E-01 +2.03319040639E-04 -3.94255018281E-04 +1.77224993519E-04 -3.67369364084E-04 +7.49460465260E-01 +4.31837145203E-01
2.68000000000E+09 +7.52675997919E-01 +2.92433325745E-01 +1.98641842309E-04 -3.30658098399E-04 +2.28432418525E-04 -2.98780565106E-04 +7.53095971835E-01 +4.20499400311E-01
2.68500000000E+09 +7.53332340834E-01 +2.78363606030E-01 +1.55967884956E-04 -3.69602637310E-04 +1.38817790945E-04 -3.42587289955E-04 +7.55744449027E-01 +4.08840069467E-01
2.69000000000E+09 +7.53740262025E-01 +2.64353842488E-01 +1.18787808233E-04 -3.11531582234E-04 +8.88469854872E-05 -3.92151513660E-04 +7.58116697033E-01 +3.97020103417E-01
2.69500000000E+09 +7.53903456516E-01 +2.50334086943E-01 +1.68671586691E-04 -3.25674971111E-04 +1.84998395265E-04 -3.11612135198E-04 +7.61011493629E-01 +3.84595368261E-01
2.70000000000E+09 +7.54082516630E-01 +2.36819773901E-01 +1.79668287974E-04 -4.89671892889E-04 +1.92120314721E-04 -4.68447759689E-04 +7.63829623589E-01 +3.71122184061E-01
2.70500000000E+09 +7.54657994810E-01 +2.23537069837E-01 +4.50394906485E-05 -4.77731656475E-04 +7.60633784566E-05 -5.32059433662E-04 +7.66517528923E-01 +3.57488035832E-01
2.71000000000E+09 +7.55764347889E-01 +2.10163608895E-01 -1.57978003436E-05 -5.65328013179E-04 -2.05170001885E-05 -5.66223399877E-04 +7.69206908222E-01 +3.44606581074E-01
2.71500000000E+09 +7.57538580365E-01 +1.96213921335E-01 -2.48904141972E-04 -5.54064941425E-04 -2.87042336910E-04 -5.99717139590E-04 +7.71763912877E-01 +3.31965670038E-01
2.72000000000E+09 +7.58929888764E-01 +1.81492786163E-01 -2.46193894752E-04 -2.57785531834E-04 -3.10112663641E-04 -2.88016300439E-04 +7.73595157163E-01 +3.19268694209E-01
2.72500000000E+09 +7.59868105934E-01 +1.65843394683E-01 -3.15597177398E-05 -2.83826498377E-04 -9.08069033561E-05 -2.68455063724E-04 +7.74832568418E-01 +3.05965798217E-01
2.73000000000E+09 +7.59531107933E-01 +1.49690745004E-01 -5.38596250769E-05 -4.77686862828E-04 -9.88609369572E-05 -4.35392867554E-04 +7.76169723208E-01 +2.91995979770E-01
2.73500000000E+09 +7.58079171226E-01 +1.32713428068E-01 -2.77615727319E-04 -4.94688845413E-04 -2.39915533341E-04 -3.81966313132E-04 +7.77139004981E-01 +2.77132280979E-01
2.74000000000E+09 +7.55722379686E-01 +1.15982272723E-01 -4.14426844776E-04 -3.63273399199E-04 -3.19974161511E-04 -3.07880884831E-04 +7.78444847719E-01 +2.61909971483E-01
2.74500000000E+09 +7.52009218930E-01 +9.87820078910E-02 -2.99541046460E-04 -2.28315873454E-04 -2.61805873738E-04 -2.74058576061E-04 +7.79511254908E-01 +2.46730147799E-01
2.75000000000E+09 +7.47325746033E-01 +8.16094600608E-02 -2.20458396248E-04 -3.31406867382E-04 -2.18698957160E-04 -4.27587436665E-04 +7.80285069730E-01 +2.31879972510E-01
2.75500000000E+09 +7.41955010749E-01 +6.50122064235E-02 -4.06960944046E-04 -4.50703436300E-04 -3.16297367566E-04 -4.34587293264E-04 +7.80353411410E-01 +2.16524055396E-01
2.76000000000E+09 +7.36932392898E-01 +4.85406293008E-02 -5.10152718430E-04 -3.87684342171E-04 -5.17424707275E-04 -4.56987958544E-04 +7.79678778511E-01 +2.01092111825E-01
2.76500000000E+09 +7.32075178265E-01 +3.16568590709E-02 -6.95316819766E-04 -2.80899601306E-04 -6.69630188631E-04 -2.90933231392E-04 +7.78558085513E-01 +1.84152711672E-01
2.77000000000E+09 +7.27304013557E-01 +1.38612435632E-02 -5.82892592497E-04 -9.41719448022E-05 -5.79289730912E-04 -3.51392746036E-05 +7.77065236526E-01 +1.66569278258E-01
2.77500000000E+09 +7.22541713854E-01 -4.70463739287E-03 -4.77079868984E-04 -1.86952135334E-06 -5.45571870402E-04 +2.82062593734E-07 +7.74981208494E-01 +1.48348770358E-01
2.78000000000E+09 +7.17365088495E-01 -2.43164794594E-02 -5.40032689909E-04 -1.03311740441E-04 -5.93237706967E-04 -7.41060296496E-05 +7.72792505093E-01 +1.30349766092E-01
2.78500000000E+09 +7.11058226981E-01 -4.45234093393E-02 -6.21534905851E-04 -1.02674737647E-04 -6.41117181759E-04 -8.08995893880E-05 +7.70118837978E-01 +1.12638981727E-01
2.79000000000E+09 +7.04126655517E-01 -6.50145536843E-02 -7.55153255259E-04 +7.66336386788E-05 -7.26699178935E-04 +1.02341340115E-04 +7.66724710056E-01 +9.55756242318E-02
2.79500000000E+09 +6.95920119300E-01 -8.55835867339E-02 -7.55418070078E-04 +3.76220569509E-04 -6.96587743548E-04 +3.16134387272E-04 +7.62555894416E-01 +7.79424142483E-02
2.80000000000E+09 +6.85876043177E-01 -1.05585303023E-01 -3.43813949561E-04 +5.33316309359E-04 -3.77722772246E-04 +4.44422101428E-04 +7.57672793941E-01 +5.94926423846E-02
2.80500000000E+09 +6.75070652836E-01 -1.24071222866E-01 -1.92162072511E-04 +1.91654859857E-04 -1.91451037771E-04 +1.43170771412E-04 +7.51674283596E-01 +4.02702273374E-02
2.81000000000E+09 +6.63653675613E-01 -1.41772002892E-01 -4.82302209145E-04 +2.39960648038E-05 -4.86376312463E-04 +1.35048779166E-05 +7.44761718065E-01 +2.10327362651E-02
2.81500000000E+09 +6.51258165000E-01 -1.58848181924E-01 -6.72124038915E-04 +1.80081278130E-04 -6.36235747229E-04 +2.40329721753E-04 +7.37420530356E-01 +1.99710593313E-03
2.82000000000E+09 +6.37991692203E-01 -1.75717108130E-01 -8.59064799410E-04 +4.40560055551E-04 -7.95178857040E-04 +4.66290707596E-04 +7.30138867237E-01 -1.75723159371E-02
2.82500000000E+09 +6.23698159505E-01 -1.92678169426E-01 -4.17749995736E-04 +8.02025223852E-04 -4.54556001659E-04 +7.87699553587E-04 +7.20957578496E-01 -3.75202082873E-02
2.83000000000E+09 +6.07831660968E-01 -2.10190514235E-01 -2.73784618542E-04 +6.36603609825E-04 -2.75236081810E-04 +5.58210939924E-04 +7.11045978683E-01 -5.66768199152E-02
2.83500000000E+09 +5.90753747594E-01 -2.27951773659E-01 -3.89854220163E-04 +5.99167208694E-04 -4.08128783828E-04 +6.17633452798E-04 +7.00237086492E-01 -7.62739008698E-02
2.84000000000E+09 +5.71731901641E-01 -2.46539535978E-01 -2.39815744252E-04 +7.71787610525E-04 -2.35529551541E-04 +8.06493755601E-04 +6.89125288844E-01 -9.59532000310E-02
2.84500000000E+09 +5.50648162000E-01 -2.65178029783E-01 -1.66178669391E-04 +6.75123814596E-04 -2.20943198070E-04 +6.69308465341E-04 +6.77000342878E-01 -1.16502745390E-01
2.85000000000E+09 +5.28040564928E-01 -2.83744670734E-01 -4.70159883489E-05 +1.00665215800E-03 +1.37534269569E-05 +1.01925854807E-03 +6.63222294679E-01 -1.37305207782E-01
2.85500000000E+09 +5.03780662145E-01 -3.01820243009E-01 +4.42263492608E-04 +6.07597771758E-04 +4.21350168168E-04 +5.95798215465E-04 +6.48279118260E-01 -1.57227622895E-01
2.86000000000E+09 +4.78602650211E-01 -3.18608154597E-01 +4.41964805205E-05 +3.04535613283E-04 +5.33456295790E-05 +3.12833458345E-04 +6.32715080695E-01 -1.77301326451E-01
2.86500000000E+09 +4.52811985589E-01 -3.34185245236E-01 -2.95819187264E-04 +7.04218028092E-04 -2.77381177503E-04 +6.96716749859E-04 +6.15573459723E-01 -1.97471816326E-01
2.87000000000E+09 +4.27228338562E-01 -3.48439729366E-01 +1.64367661882E-04 +1.01769912012E-03 +1.99356020861E-04 +1.06509159070E-03 +5.97217640528E-01 -2.17232379005E-01
2.87500000000E+09 +4.01193700657E-01 -3.61878591188E-01 +2.69501013096E-04 +7.78280927831E-04 +2.94601504318E-04 +7.76313819726E-04 +5.77125561558E-01 -2.36944642642E-01
2.88000000000E+09 +3.74197440593E-01 -3.74179426550E-01 +3.32385943575E-04 +9.19799788645E-04 +3.96730610737E-04 +9.18722516398E-04 +5.56325905174E-01 -2.55433199231E-01
2.88500000000E+09 +3.46423441509E-01 -3.85068363196E-01 +7.81095287221E-04 +7.50667155741E-04 +7.48107550061E-04 +6.67356997578E-04 +5.34269904257E-01 -2.74376062899E-01
2.89000000000E+09 +3.16939091001E-01 -3.94205837648E-01 +4.70000315596E-04 +5.39580563414E-04 +4.57812626913E-04 +4.69821521653E-04 +5.09356458286E-01 -2.92475241600E-01
2.89500000000E+09 +2.86428738690E-01 -4.01466357382E-01 +5.40718465417E-04 +8.05898372006E-04 +4.68644218402E-04 +7.57967277829E-04 +4.82943862911E-01 -3.10080706163E-01
2.90000000000E+09 +2.54467388077E-01 -4.06689432682E-01 +7.80611620202E-04 +8.48789757862E-04 +7.59864653183E-04 +8.78071937054E-04 +4.54450043085E-01 -3.27029219206E-01
2.90500000000E+09 +2.20812558210E-01 -4.10183512463E-01 +1.05854464419E-03 +8.01715888318E-04 +1.01487908040E-03 +7.49875821003E-04 +4.24240191893E-01 -3.42304106046E-01
2.91000000000E+09 +1.85581487709E-01 -4.10564280527E-01 +1.60425133801E-03 +4.94468811987E-04 +1.58163850389E-03 +4.01703413058E-04 +3.93487708882E-01 -3.56590199635E-01
2.91500000000E+09 +1.50456031459E-01 -4.08106465702E-01 +1.57433231909E-03 -1.41961065686E-04 +1.47678194387E-03 -1.14302746736E-04 +3.61197036180E-01 -3.68392425856E-01
2.92000000000E+09 +1.14882794796E-01 -4.03476733864E-01 +1.14990645873E-03 -4.78002307058E-04 +1.07738225802E-03 -5.23463353012E-04 +3.28198858742E-01 -3.78994373730E-01
2.92500000000E+09 +7.96823263910E-02 -3.96823159780E-01 +8.25260601783E-04 -3.02260459889E-04 +8.54753423497E-04 -2.35756934108E-04 +2.92141425975E-01 -3.87915946113E-01
2.93000000000E+09 +4.45540635798E-02 -3.87882347231E-01 +9.71801494987E-04 -1.75797666405E-04 +1.02982882625E-03 -7.63866577010E-05 +2.54162344171E-01 -3.93440202676E-01
2.93500000000E+09 +1.01708384642E-02 -3.76740883792E-01 +1.25098017557E-03 -6.00200808885E-04 +1.25777666957E-03 -5.09504489013E-04 +2.16228387279E-01 -3.97015498564E-01
2.94000000000E+09 -2.34698966484E-02 -3.64000625989E-01 +1.03302476809E-03 -7.83246504193E-04 +1.02805968083E-03 -7.81553262883E-04 +1.77827520727E-01 -3.99141960007E-01
2.94500000000E+09 -5.69954225234E-02 -3.48767755538E-01 +9.41229311335E-04 -8.79775752828E-04 +9.23972164626E-04 -7.86379535951E-04 +1.38816030261E-01 -4.00342374711E-01
2.95000000000E+09 -8.95356720529E-02 -3.30873261478E-01 +8.76325711800E-04 -1.12618875931E-03 +9.56464368379E-04 -1.08744713296E-03 +9.79134900899E-02 -3.97486202126E-01
2.95500000000E+09 -1.21231435283E-01 -3.09610415340E-01 +7.67291976661E-04 -1.28762495182E-03 +8.33969952396E-04 -1.33387569287E-03 +5.79939304252E-02 -3.90918700733E-01
2.96000000000E+09 -1.50106577560E-01 -2.85335938017E-01 +3.93475765809E-04 -1.86628552248E-03 +4.46879680533E-04 -2.01062013537E-03 +1.85741911405E-02 -3.81227983326E-01
2.96500000000E+09 -1.77200248566E-01 -2.59727318601E-01 -7.81793337325E-04 -1.61911040734E-03 -8.25282806733E-04 -1.70844276873E-03 -2.11146935529E-02 -3.70198581962E-01
2.97000000000E+09 -2.03103685291E-01 -2.31746324335E-01 -7.76833613169E-04 -6.39871032246E-04 -7.32852834433E-04 -6.78118592611E-04 -6.24930600980E-02 -3.55471003044E-01
2.97500000000E+09 -2.27101123733E-01 -2.01674162169E-01 -2.35172906851E-04 -3.90131558276E-04 -2.09013265373E-04 -3.67120901143E-04 -1.00933381375E-01 -3.36772584646E-01
2.98000000000E+09 -2.48960317518E-01 -1.69923844646E-01 +3.46894195980E-06 -8.32749871718E-04 +5.62041032433E-05 -8.52793627480E-04 -1.38279119343E-01 -3.18159106028E-01
2.98500000000E+09 -2.68837872284E-01 -1.37458254079E-01 -5.00550872044E-04 -1.02967385646E-03 -4.32413699889E-04 -1.13961848083E-03 -1.75138178518E-01 -2.95774566383E-01
2.99000000000E+09 -2.86731251521E-01 -1.03856127465E-01 -7.46016443351E-04 -7.92078589569E-04 -7.79516800347E-04 -8.81043827835E-04 -2.10850317620E-01 -2.71388553378E-01
2.99500000000E+09 -3.02385079549E-01 -7.08689655913E-02 -8.71285943961E-04 -4.61710057540E-04 -9.04823731119E-04 -5.04735352490E-04 -2.45591988271E-01 -2.41685472344E-01
3.00000000000E+09 -3.17072007450E-01 -3.74232370926E-02 -7.15870850773E-04 -6.54633105003E-05 -7.82108994321E-04 -8.65470861254E-06 -2.76733197687E-01 -2.09267558517E-01
3.00500000000E+09 -3.29053387493E-01 -3.59992419422E-03 -3.08854752481E-04 -1.21821958055E-04 -3.06342932666E-04 -8.70212785069E-05 -3.05174394741E-01 -1.76075875523E-01
3.01000000000E+09 -3.38153143844E-01 +2.96437872831E-02 -5.67251253656E-04 -4.54437978443E-04 -5.30989648452E-04 -4.64435533098E-04 -3.32668882908E-01 -1.41194510397E-01
3.01500000000E+09 -3.44364609373E-01 +6.28977253398E-02 -5.73284281749E-04 -1.05134985307E-04 -5.66133199708E-04 -1.15999530138E-04 -3.56896706591E-01 -1.04331635650E-01
3.02000000000E+09 -3.47190140295E-01 +9.49558117216E-02 -3.56831813862E-04 -9.67422987735E-05 -3.77263930393E-04 -7.22316488287E-05 -3.77446778043E-01 -6.57652142570E-02
3.02500000000E+09 -3.47517242730E-01 +1.26537473753E-01 -1.05784406741E-04 -9.18201494758E-05 -1.69878223747E-04 -8.58623568117E-05 -3.93851780084E-01 -2.58827246195E-02
3.03000000000E+09 -3.44578368777E-01 +1.57347936211E-01 -2.50001354093E-04 -8.77070703290E-04 -2.92893868401E-04 -9.10078144765E-04 -4.07508634758E-01 +1.36428069960E-02
3.03500000000E+09 -3.39521336194E-01 +1.87465619629E-01 -1.27168633985E-03 -4.64122160427E-04 -1.26277725851E-03 -4.61189838852E-04 -4.18819976075E-01 +5.43275435587E-02
3.04000000000E+09 -3.31861815818E-01 +2.17481831230E-01 -1.09572348013E-03 +3.33114119873E-04 -1.15511349772E-03 +3.40827746365E-04 -4.26859953099E-01 +9.52758022537E-02
3.04500000000E+09 -3.22183407099E-01 +2.46772187332E-01 -5.48797902299E-04 +5.63422879128E-04 -5.37161814958E-04 +5.34960311363E-04 -4.32217931628E-01 +1.35874971414E-01
3.05000000000E+09 -3.10797182331E-01 +2.75527629444E-01 -2.16804527637E-04 +2.52122464905E-04 -1.91706366837E-04 +3.28431819691E-04 -4.34949149163E-01 +1.75903772635E-01
3.05500000000E+09 -2.98197661727E-01 +3.03515995422E-01 -1.38522892119E-04 +5.66384787683E-05 -1.33154612771E-04 +7.54929163759E-05 -4.34736768053E-01 +2.14946681807E-01
3.06000000000E+09 -2.84384650564E-01 +3.30753769095E-01 -5.61646376670E-04 -2.37500964554E-04 -5.52843140683E-04 -1.86523157899E-04 -4.32415333046E-01 +2.53177232579E-01
3.06500000000E+09 -2.69784106050E-01 +3.56365541569E-01 -6.17348650336E-04 +1.83765008352E-04 -5.94569310881E-04 +1.88620277766E-04 -4.27694305016E-01 +2.90454351569E-01
3.07000000000E+09 -2.54890407632E-01 +3.80951266196E-01 -6.03164000731E-04 +3.96879689301E-04 -6.10442162536E-04 +3.16840842003E-04 -4.20550526417E-01 +3.26581092897E-01
