# Hz S RI R 50
! CMT, C1220, 16058040, 17.2.0/1
! Date: 15/08/2018 10:33:32
! Data: Format (Calibration Info)
! Freq                      S11: Re/Im (F2)                       S21: Re/Im (F2)                       S12: Re/Im (F2)                       S22: Re/Im (F2)            
2.50000000000E+09 +5.78703065071E-01 +6.66144582963E-01 -1.56149581104E-04 +4.50931030324E-05 -1.88746313207E-04 +1.16503298611E-04 +5.65553148293E-01 +7.22363646802E-01
2.50500000000E+09 +5.86186629208E-01 +6.58080596352E-01 -6.17559441370E-05 +7.27107073569E-05 -7.59262480110E-05 +9.29007619392E-05 +5.71008906299E-01 +7.16783472212E-01
2.51000000000E+09 +5.93954798807E-01 +6.49857621559E-01 -8.02643691735E-05 -1.34304025852E-05 -4.24255558450E-05 -4.66411134361E-05 +5.76645153096E-01 +7.11579949446E-01
2.51500000000E+09 +6.01488947643E-01 +6.41781904288E-01 -1.10717134096E-04 -8.74539416826E-05 -1.00435157590E-04 -8.24171606894E-05 +5.81984408622E-01 +7.06241964617E-01
2.52000000000E+09 +6.08466443993E-01 +6.33871242603E-01 -1.69469199399E-04 +5.40465579521E-05 -1.59144250480E-04 +2.46036015734E-05 +5.87262202897E-01 +7.00289667829E-01
2.52500000000E+09 +6.14291210827E-01 +6.26440736249E-01 -3.65592286261E-05 +3.90373954745E-05 -6.37051013795E-05 +4.48183770407E-06 +5.93067392768E-01 +6.93889326155E-01
2.53000000000E+09 +6.19738060769E-01 +6.19413321494E-01 -6.97033605704E-05 +1.90258331749E-05 -4.96325657418E-05 -3.56019050834E-05 +5.99179497255E-01 +6.86980296356E-01
2.53500000000E+09 +6.24436506047E-01 +6.12478744281E-01 -1.30447449602E-04 -1.81734948976E-05 -1.20289068467E-04 -2.72501174047E-05 +6.05272953963E-01 +6.80376427004E-01
2.54000000000E+09 +6.28765484701E-01 +6.05595660872E-01 -1.47981140529E-04 -1.54424047453E-05 -1.31631372079E-04 -5.54413793745E-05 +6.11206622906E-01 +6.73728715914E-01
2.54500000000E+09 +6.33483629042E-01 +5.98516535355E-01 -2.37783048020E-04 -4.66593213441E-06 -2.12534631535E-04 -2.24443982147E-05 +6.17004113091E-01 +6.67565174717E-01
2.55000000000E+09 +6.38520565224E-01 +5.90994146942E-01 -2.67059930668E-04 +1.05654234938E-04 -2.33428584402E-04 +9.28035103274E-05 +6.22548811453E-01 +6.61283812070E-01
2.55500000000E+09 +6.44193827608E-01 +5.82787740620E-01 -1.30126560143E-04 +2.12544485581E-04 -2.03349035086E-04 +1.75722806592E-04 +6.27612647120E-01 +6.54708561481E-01
2.56000000000E+09 +6.50566003560E-01 +5.74753785606E-01 -5.65534695822E-05 +1.35790761631E-04 -9.05087136529E-05 +2.02954839458E-04 +6.32688688317E-01 +6.47329357567E-01
2.56500000000E+09 +6.57614278847E-01 +5.66164519773E-01 -1.73748518430E-05 +1.26063242496E-04 +4.88455688406E-05 +1.25800284095E-04 +6.37818086078E-01 +6.39732717731E-01
2.57000000000E+09 +6.64735852510E-01 +5.57369516611E-01 -5.93077843899E-05 +5.92601317807E-05 -1.87224048008E-05 +9.76495271678E-05 +6.43114265958E-01 +6.31805897700E-01
2.57500000000E+09 +6.71620336341E-01 +5.48516506034E-01 -1.09001790025E-04 +1.37028663073E-04 -1.05176039090E-04 +1.19856670478E-04 +6.48530946204E-01 +6.24094534096E-01
2.58000000000E+09 +6.77392106073E-01 +5.40347431907E-01 -7.66913673132E-05 +1.80204293980E-04 -7.11834241950E-05 +1.40172080539E-04 +6.53529834603E-01 +6.16429377429E-01
2.58500000000E+09 +6.82798679967E-01 +5.32334811739E-01 -6.67341361628E-05 +2.58122836553E-04 -7.09761388674E-05 +1.84890803226E-04 +6.58248689601E-01 +6.08948034502E-01
2.59000000000E+09 +6.87612628209E-01 +5.24621556970E-01 +8.27888582400E-06 +1.99186144077E-04 +1.23771419828E-05 +2.27319778945E-04 +6.63034126723E-01 +6.01454700746E-01
2.59500000000E+09 +6.92112909546E-01 +5.16622967302E-01 +1.24594255338E-04 +1.99136592660E-04 +9.28817990642E-05 +1.90918197561E-04 +6.67817475985E-01 +5.93348513183E-01
2.60000000000E+09 +6.96131796559E-01 +5.07776080411E-01 +1.25444943835E-04 +1.15417894239E-04 +1.20315082096E-04 +1.42442895300E-04 +6.72765804903E-01 +5.85169727303E-01
2.60500000000E+09 +7.00176897567E-01 +4.98045673161E-01 +1.34493734499E-04 +1.32033935299E-04 +1.41039595912E-04 +1.07464126905E-04 +6.77997627039E-01 +5.76686969975E-01
2.61000000000E+09 +7.04400025965E-01 +4.87455532284E-01 +1.12303260256E-04 +6.43124745946E-05 +9.52685964588E-05 +9.93996874426E-05 +6.83158426363E-01 +5.68140866720E-01
2.61500000000E+09 +7.09472258876E-01 +4.75652691397E-01 +1.81176522037E-04 +4.89420786999E-05 +1.79359043898E-04 +2.13591984488E-05 +6.88069464547E-01 +5.59543850112E-01
2.62000000000E+09 +7.14282616459E-01 +4.62485724044E-01 +9.29832807035E-05 -1.15855580049E-04 +1.18693087077E-04 -8.51266209319E-05 +6.93017851459E-01 +5.50486002962E-01
2.62500000000E+09 +7.19044284412E-01 +4.48669337247E-01 -8.14847905478E-05 -1.60529251493E-06 -1.01523477579E-04 -1.66626329010E-05 +6.97530674790E-01 +5.41693146367E-01
2.63000000000E+09 +7.23576559973E-01 +4.34706377419E-01 +1.34709111937E-05 +1.58158307106E-04 -9.02256665770E-06 +1.46644049356E-04 +7.02003332305E-01 +5.32838529745E-01
2.63500000000E+09 +7.27536155626E-01 +4.21146047681E-01 +6.47420073490E-05 +1.31077350603E-04 +6.09984294791E-05 +9.69876972267E-05 +7.06680868561E-01 +5.23726235853E-01
2.64000000000E+09 +7.31126937363E-01 +4.08566543122E-01 +2.00444761216E-04 +2.28744599803E-04 +1.47853932355E-04 +1.49275138291E-04 +7.11355619905E-01 +5.14232315466E-01
2.64500000000E+09 +7.34612944964E-01 +3.96687721371E-01 +2.20458877299E-04 +2.71823863882E-06 +2.24576941959E-04 -2.33103267824E-05 +7.15911944944E-01 +5.04641448992E-01
2.65000000000E+09 +7.37414385523E-01 +3.85685893750E-01 +1.13908430453E-04 -6.22056060346E-05 +1.20719048169E-04 -3.51778813841E-05 +7.20002088761E-01 +4.94432283226E-01
2.65500000000E+09 +7.40552041307E-01 +3.74600103083E-01 +7.72112705697E-05 -6.01781603809E-05 +1.11649842662E-04 -6.07347000520E-05 +7.23875265093E-01 +4.83988849020E-01
2.66000000000E+09 +7.43472077158E-01 +3.63528016206E-01 +3.83269555268E-05 -2.42317250144E-05 +6.47139844936E-05 +1.49516284468E-05 +7.27730059576E-01 +4.72971030947E-01
2.66500000000E+09 +7.46362170438E-01 +3.51932330748E-01 +3.84410376218E-05 +1.84597841736E-05 +4.51149281610E-05 +1.79524577065E-05 +7.31940938308E-01 +4.62323278034E-01
2.67000000000E+09 +7.49279716821E-01 +3.39115189743E-01 +1.49909177029E-04 -4.28922932609E-06 +1.69550216683E-04 -2.62115259774E-05 +7.36458037796E-01 +4.51516164031E-01
2.67500000000E+09 +7.52021119415E-01 +3.25241972448E-01 +1.00863598563E-04 -8.09667584212E-05 +1.20724773356E-04 -6.54188518802E-05 +7.40419714173E-01 +4.40649046083E-01
2.68000000000E+09 +7.54078996447E-01 +3.10448625808E-01 +1.38950119352E-04 -1.32576671681E-04 +1.39124423545E-04 -1.48163227259E-04 +7.44419713874E-01 +4.29790256494E-01
2.68500000000E+09 +7.55734690042E-01 +2.95573595272E-01 +3.90112376268E-05 -2.29260829058E-04 -7.89843497960E-06 -2.20748456684E-04 +7.47723648601E-01 +4.18344959819E-01
2.69000000000E+09 +7.57152864939E-01 +2.80970499263E-01 -1.06560383801E-04 -1.20500599530E-04 -1.15654968235E-04 -1.68157101965E-04 +7.50256975124E-01 +4.06308937465E-01
2.69500000000E+09 +7.58584871263E-01 +2.66845957858E-01 -1.50300140218E-04 -3.61018851164E-05 -9.12209290853E-05 -1.86740351833E-05 +7.53026178462E-01 +3.94052593176E-01
2.70000000000E+09 +7.59981372509E-01 +2.52942847643E-01 -1.17441018688E-04 -8.23098771189E-05 -1.29697766045E-04 -7.33325848819E-05 +7.55992961724E-01 +3.80948697417E-01
2.70500000000E+09 +7.61314569316E-01 +2.39524934688E-01 -1.86649103983E-04 +2.70964322570E-05 -1.79000719171E-04 +1.31088194151E-05 +7.59159100864E-01 +3.67781319621E-01
2.71000000000E+09 +7.62398082322E-01 +2.26041454990E-01 -1.35432085690E-04 +1.44755912774E-04 -1.42024238051E-04 +1.09187977507E-04 +7.61770095712E-01 +3.54687982969E-01
2.71500000000E+09 +7.63648895697E-01 +2.12444435067E-01 -2.55365289010E-05 +7.59738190434E-05 +1.04299066207E-05 +9.50890916602E-05 +7.64367409348E-01 +3.42137089312E-01
2.72000000000E+09 +7.64653525950E-01 +1.97977404241E-01 -9.19732099557E-05 -3.13160623143E-05 -1.24063525964E-04 -2.86699229005E-05 +7.65937105823E-01 +3.29457863306E-01
2.72500000000E+09 +7.65219721162E-01 +1.82341048038E-01 -2.01270327167E-04 +8.38311567890E-05 -1.95117952686E-04 +1.45360937612E-04 +7.66945941872E-01 +3.16333299459E-01
2.73000000000E+09 +7.64925027182E-01 +1.65598501532E-01 -2.52302877728E-04 +2.34053925352E-04 -2.39240168771E-04 +2.02085862872E-04 +7.67930554564E-01 +3.02537697687E-01
2.73500000000E+09 +7.63262929252E-01 +1.47613911421E-01 -2.54391608354E-04 +4.02822429450E-04 -2.14649722951E-04 +3.86560806423E-04 +7.68824933938E-01 +2.88571951796E-01
2.74000000000E+09 +7.60681032834E-01 +1.29804829190E-01 +7.52322850408E-05 +6.13274300144E-04 +8.11039252907E-06 +5.57432621485E-04 +7.70744313864E-01 +2.73983492687E-01
2.74500000000E+09 +7.57258483654E-01 +1.11670597418E-01 +2.23667875941E-04 +5.02420259413E-04 +1.85126673874E-04 +4.95209233814E-04 +7.72095535824E-01 +2.58807851168E-01
2.75000000000E+09 +7.53369224710E-01 +9.34868735484E-02 +3.57233206762E-04 +4.35586427444E-04 +2.50650286664E-04 +4.83256293342E-04 +7.73147778083E-01 +2.43869026173E-01
2.75500000000E+09 +7.48606898843E-01 +7.57132425823E-02 +3.94138789329E-04 +2.87329835628E-04 +4.15757901646E-04 +3.22188881928E-04 +7.73068832839E-01 +2.29309666722E-01
2.76000000000E+09 +7.44272223472E-01 +5.83233956173E-02 +3.09255976872E-04 +4.58639488002E-04 +2.95752808343E-04 +4.66254244632E-04 +7.73200165632E-01 +2.14284333926E-01
2.76500000000E+09 +7.39628850746E-01 +4.02598374589E-02 +6.28487414208E-04 +4.70583996458E-04 +6.47850806634E-04 +4.76079046412E-04 +7.72577526436E-01 +1.97789493954E-01
2.77000000000E+09 +7.34568425975E-01 +2.17516943652E-02 +7.61683057666E-04 +2.07990638013E-04 +8.07114898355E-04 +1.55643945600E-04 +7.71786168198E-01 +1.80714073136E-01
2.77500000000E+09 +7.29892541127E-01 +2.77173074156E-03 +6.91447163934E-04 +7.44885371563E-05 +7.71393597112E-04 +6.70891582561E-05 +7.70466379330E-01 +1.62824288814E-01
2.78000000000E+09 +7.24755148750E-01 -1.79459528234E-02 +8.09269322211E-04 +1.04735326590E-04 +8.50361049241E-04 +1.20650916327E-05 +7.69136361823E-01 +1.45032913866E-01
2.78500000000E+09 +7.18398502220E-01 -3.94539855163E-02 +1.05611965579E-03 -3.86494135581E-05 +1.00653267791E-03 -7.36097920462E-05 +7.66704108298E-01 +1.26867468153E-01
2.79000000000E+09 +7.11811947867E-01 -6.16195795508E-02 +1.07047780437E-03 -3.93659978469E-04 +1.06237499002E-03 -4.52982182033E-04 +7.63491734962E-01 +1.09547118370E-01
2.79500000000E+09 +7.03521504954E-01 -8.42488039827E-02 +1.11210964661E-03 -6.84736587604E-04 +1.00707144188E-03 -6.65928472566E-04 +7.59390636167E-01 +9.17041175503E-02
2.80000000000E+09 +6.93680654889E-01 -1.05578850559E-01 +8.13626672044E-04 -1.02942095581E-03 +8.16543788309E-04 -9.71969957588E-04 +7.54719024870E-01 +7.35750721806E-02
2.80500000000E+09 +6.83960343004E-01 -1.25442783357E-01 +5.84595118524E-04 -1.00244688780E-03 +6.07778332570E-04 -9.54898603549E-04 +7.49047567708E-01 +5.43922647767E-02
2.81000000000E+09 +6.73590257628E-01 -1.44173091340E-01 +6.19800318220E-04 -1.10488647877E-03 +6.40463567443E-04 -1.11746249806E-03 +7.42614865166E-01 +3.55003415163E-02
2.81500000000E+09 +6.62921054601E-01 -1.62032486849E-01 +4.24013871416E-04 -1.31106039240E-03 +4.33266325016E-04 -1.37211056766E-03 +7.36236523027E-01 +1.60290169375E-02
2.82000000000E+09 +6.51275033250E-01 -1.79395731170E-01 +1.77148998274E-04 -1.41821573691E-03 +1.51011753548E-04 -1.42660041475E-03 +7.28995383494E-01 -3.68829137605E-03
2.82500000000E+09 +6.38496327087E-01 -1.96710381001E-01 +1.24944212522E-04 -1.53539707810E-03 +5.91719148708E-05 -1.46018875818E-03 +7.21132150235E-01 -2.30285757051E-02
2.83000000000E+09 +6.23997584385E-01 -2.14395100416E-01 -2.33926138272E-04 -1.82274993745E-03 -2.26314395202E-04 -1.73515992908E-03 +7.12412791214E-01 -4.30360528798E-02
2.83500000000E+09 +6.07729189960E-01 -2.32374738175E-01 -7.52456140858E-04 -1.75560954144E-03 -6.27482862076E-04 -1.67103946536E-03 +7.02491699319E-01 -6.31209374630E-02
2.84000000000E+09 +5.89609313296E-01 -2.51231903938E-01 -1.06374217658E-03 -1.59970906777E-03 -9.95307036515E-04 -1.60642442814E-03 +6.91856878873E-01 -8.37585717162E-02
2.84500000000E+09 +5.68665102031E-01 -2.70975720200E-01 -1.43397463677E-03 -1.38656137256E-03 -1.43901508748E-03 -1.44529311441E-03 +6.80177602735E-01 -1.04332955373E-01
2.85000000000E+09 +5.46460321762E-01 -2.90099333191E-01 -1.60710864280E-03 -1.03439014204E-03 -1.62671868596E-03 -1.04576644760E-03 +6.67150763271E-01 -1.25516788420E-01
2.85500000000E+09 +5.22706822038E-01 -3.09258690263E-01 -1.77377429465E-03 -7.21151525352E-04 -1.77275035439E-03 -6.73827206118E-04 +6.52715572623E-01 -1.46286752336E-01
2.86000000000E+09 +4.98425322146E-01 -3.27454546623E-01 -1.52337112172E-03 -4.58693057125E-04 -1.50450580671E-03 -4.25228641603E-04 +6.37309024165E-01 -1.67547585559E-01
2.86500000000E+09 +4.73658433463E-01 -3.45175972749E-01 -1.67590773742E-03 -4.22459424445E-04 -1.64791865539E-03 -4.38101870537E-04 +6.19781208218E-01 -1.88970370746E-01
2.87000000000E+09 +4.48234295641E-01 -3.60811582650E-01 -1.63953897850E-03 -4.06290014372E-04 -1.66790622910E-03 -4.20312499841E-04 +6.00312649177E-01 -2.09634489520E-01
2.87500000000E+09 +4.23362392586E-01 -3.75546612300E-01 -2.15285342492E-03 -5.45146771319E-04 -2.21960682916E-03 -5.32321781408E-04 +5.80212166741E-01 -2.29116575531E-01
2.88000000000E+09 +3.97641935154E-01 -3.88680259737E-01 -2.83272616970E-03 +1.79047845214E-04 -2.78506531212E-03 +2.72622618492E-04 +5.58853080156E-01 -2.49066416206E-01
2.88500000000E+09 +3.71356770356E-01 -4.00807595983E-01 -2.69118742771E-03 +1.35893809574E-03 -2.53772153402E-03 +1.35207287965E-03 +5.35527537833E-01 -2.67833994767E-01
2.89000000000E+09 +3.43443754537E-01 -4.12379072249E-01 -1.73975574779E-03 +1.84637496154E-03 -1.66650984360E-03 +1.72730182417E-03 +5.09779243439E-01 -2.86211241714E-01
2.89500000000E+09 +3.12767377663E-01 -4.22403520042E-01 -1.26402455345E-03 +1.48282020758E-03 -1.33580817399E-03 +1.42964415172E-03 +4.82921327715E-01 -3.03485889446E-01
2.90000000000E+09 +2.80205028316E-01 -4.30531688019E-01 -1.55566520513E-03 +1.62178727408E-03 -1.65312229284E-03 +1.55856475283E-03 +4.54428925508E-01 -3.20205038554E-01
2.90500000000E+09 +2.45445478868E-01 -4.36694817122E-01 -1.32561241232E-03 +1.92163816383E-03 -1.29531553120E-03 +1.90307110956E-03 +4.24291869082E-01 -3.35911581614E-01
2.91000000000E+09 +2.09686090389E-01 -4.40842661286E-01 -1.26169951514E-03 +2.01180055710E-03 -1.21856145063E-03 +2.02749864699E-03 +3.92736509118E-01 -3.49454055923E-01
2.91500000000E+09 +1.73038945011E-01 -4.43533566597E-01 -1.05929028869E-03 +2.28253605879E-03 -9.71774920485E-04 +2.20226440276E-03 +3.61352135503E-01 -3.60889573443E-01
2.92000000000E+09 +1.35854095446E-01 -4.43250830099E-01 -9.47050783755E-04 +2.73358171427E-03 -9.08293376911E-04 +2.56225968796E-03 +3.28329406417E-01 -3.71788235821E-01
2.92500000000E+09 +9.93211468159E-02 -4.41735914689E-01 -5.64968553193E-04 +3.37055790649E-03 -6.62772661782E-04 +3.19410793272E-03 +2.92356449171E-01 -3.80185386310E-01
2.93000000000E+09 +6.32482319139E-02 -4.37909179403E-01 +5.92198012240E-04 +3.51586921380E-03 +4.19374151777E-04 +3.46116523175E-03 +2.54712645080E-01 -3.86371303908E-01
2.93500000000E+09 +2.79816303126E-02 -4.32398322280E-01 +1.10065386164E-03 +3.25262316250E-03 +9.66411598373E-04 +3.32622212378E-03 +2.15976667264E-01 -3.89808539386E-01
2.94000000000E+09 -6.69680794599E-03 -4.25280997070E-01 +2.00381024300E-03 +3.15222681317E-03 +1.95713146660E-03 +3.18876383763E-03 +1.77170451806E-01 -3.91314212728E-01
2.94500000000E+09 -4.25414622692E-02 -4.15619361997E-01 +2.27251042506E-03 +2.47437464684E-03 +2.21391294187E-03 +2.52190063287E-03 +1.38324458223E-01 -3.91714366270E-01
2.95000000000E+09 -7.79506428978E-02 -4.02131441813E-01 +2.60476329942E-03 +1.97957084483E-03 +2.52966896548E-03 +2.10456075047E-03 +9.80247232923E-02 -3.89697073299E-01
2.95500000000E+09 -1.12283088608E-01 -3.84743066214E-01 +2.79199253290E-03 +1.73197300933E-03 +2.81602528517E-03 +1.81515514670E-03 +5.68791827671E-02 -3.83203786075E-01
2.96000000000E+09 -1.44984325074E-01 -3.65210393802E-01 +2.98673039300E-03 +1.35003508308E-03 +3.07221571009E-03 +1.44996944270E-03 +1.73910522395E-02 -3.73000592234E-01
2.96500000000E+09 -1.77401587747E-01 -3.43177862334E-01 +3.32819503408E-03 +1.19963666894E-03 +3.51299754994E-03 +1.13013394231E-03 -2.29527351519E-02 -3.61154904059E-01
2.97000000000E+09 -2.08243341826E-01 -3.17675577877E-01 +4.19412645815E-03 +4.60384206479E-04 +4.20796100238E-03 +3.22883357788E-04 -6.22867246577E-02 -3.45331705846E-01
2.97500000000E+09 -2.36767803780E-01 -2.91028962014E-01 +4.30152133005E-03 -1.00762803465E-03 +4.11203853171E-03 -1.02269601924E-03 -1.01584076085E-01 -3.28540417274E-01
2.98000000000E+09 -2.64898626887E-01 -2.62868583394E-01 +3.24175736835E-03 -1.94585963110E-03 +3.20574309716E-03 -1.83073970570E-03 -1.39244948149E-01 -3.07249557762E-01
2.98500000000E+09 -2.90740360608E-01 -2.32119375326E-01 +2.45696262568E-03 -1.86128299850E-03 +2.62495412890E-03 -1.81079090527E-03 -1.74758173260E-01 -2.84521155837E-01
2.99000000000E+09 -3.14115276469E-01 -2.00901902129E-01 +2.35661126266E-03 -2.03548675476E-03 +2.50912175981E-03 -2.11648277204E-03 -2.08733354450E-01 -2.58612843639E-01
2.99500000000E+09 -3.36802951353E-01 -1.69776968041E-01 +2.26280056544E-03 -2.22069584758E-03 +2.24287265970E-03 -2.40086925859E-03 -2.41462048015E-01 -2.30396799202E-01
3.00000000000E+09 -3.57939110299E-01 -1.35607165252E-01 +1.94738341614E-03 -2.79268361315E-03 +1.77007599906E-03 -2.92185036220E-03 -2.72698789016E-01 -1.98377672261E-01
3.00500000000E+09 -3.75640711168E-01 -1.01144915052E-01 +1.24121316973E-03 -3.23881589317E-03 +1.04170817184E-03 -3.18197749235E-03 -3.00649306345E-01 -1.64382523787E-01
3.01000000000E+09 -3.91336005185E-01 -6.62936373211E-02 +2.88422117565E-04 -3.10395648359E-03 +2.51362406354E-04 -2.93402797296E-03 -3.26208042036E-01 -1.28942367431E-01
3.01500000000E+09 -4.03794000168E-01 -3.11474034250E-02 +2.63172261158E-04 -2.82176948208E-03 +3.13686572773E-04 -2.72068806595E-03 -3.48293119946E-01 -9.35947888925E-02
3.02000000000E+09 -4.13599531876E-01 +3.67644656780E-03 -2.40721723574E-04 -3.08633653025E-03 -1.89980197515E-04 -3.07948386128E-03 -3.68698096372E-01 -5.70853972244E-02
3.02500000000E+09 -4.20863160336E-01 +3.81121414323E-02 -7.34540837052E-04 -2.86250068397E-03 -7.12072051799E-04 -2.91427697581E-03 -3.85909984140E-01 -1.81812429123E-02
3.03000000000E+09 -4.25632469955E-01 +7.31287826308E-02 -1.47725773797E-03 -2.51461235248E-03 -1.34975473401E-03 -2.55507977314E-03 -3.98955309778E-01 +2.07762883390E-02
3.03500000000E+09 -4.25727105202E-01 +1.07534178795E-01 -1.65178667570E-03 -1.65396942927E-03 -1.56190581732E-03 -1.60563512717E-03 -4.10035880461E-01 +5.99077815506E-02
3.04000000000E+09 -4.24436932506E-01 +1.39824196251E-01 -1.07023090790E-03 -1.72782877832E-03 -1.00444477608E-03 -1.76361521512E-03 -4.18464410360E-01 +9.97926299201E-02
3.04500000000E+09 -4.21318792136E-01 +1.73092167938E-01 -1.33368398057E-03 -1.85010286019E-03 -1.32114233626E-03 -1.99950757722E-03 -4.23938903425E-01 +1.39647429651E-01
3.05000000000E+09 -4.15183623824E-01 +2.06351795424E-01 -1.82170236704E-03 -1.88099078811E-03 -1.99889608710E-03 -1.92233453321E-03 -4.26569557083E-01 +1.78426571806E-01
3.05500000000E+09 -4.07137666834E-01 +2.38739965957E-01 -2.37231471583E-03 -1.32064520330E-03 -2.53035176656E-03 -1.17688761344E-03 -4.26677503701E-01 +2.16596332801E-01
3.06000000000E+09 -3.97432423687E-01 +2.71223238156E-01 -2.48843330130E-03 -6.43216656100E-04 -2.36845623729E-03 -4.58596047403E-04 -4.24516444998E-01 +2.53604960905E-01
3.06500000000E+09 -3.85234912995E-01 +3.02685572040E-01 -2.11372475697E-03 -1.26251789420E-04 -1.99799243743E-03 -1.46394280944E-04 -4.20027913685E-01 +2.89776440970E-01
3.07000000000E+09 -3.72332141823E-01 +3.32219861271E-01 -1.87581284055E-03 -1.47960106305E-04 -1.81562664321E-03 -2.04094054632E-04 -4.14074496286E-01 +3.24914714937E-01
