# Hz S RI R 50
! CMT, C1220, 16058040, 17.2.0/1
! Date: 15/08/2018 09:56:54
! Data: Format (Calibration Info)
! Freq                      S11: Re/Im (F2)                       S21: Re/Im (F2)                       S12: Re/Im (F2)                       S22: Re/Im (F2)            
2.50000000000E+09 +5.98538502174E-01 +6.31908341719E-01 -1.06570729464E-04 -1.44761352338E-03 -8.03152903253E-05 -1.60547705403E-03 +5.77348576920E-01 +7.13865116927E-01
2.50500000000E+09 +6.04753397882E-01 +6.24591274157E-01 -2.44985718032E-04 -1.50991894276E-03 -3.33262328898E-04 -1.59449391333E-03 +5.83030754514E-01 +7.08319944830E-01
2.51000000000E+09 +6.11310044749E-01 +6.16991525639E-01 -3.97317575174E-04 -1.48649094424E-03 -4.77196458201E-04 -1.43677511417E-03 +5.88635374867E-01 +7.03032779696E-01
2.51500000000E+09 +6.18010127017E-01 +6.09244149350E-01 -5.52055497084E-04 -1.56058705350E-03 -5.13811677290E-04 -1.46231415044E-03 +5.93745445734E-01 +6.97630664865E-01
2.52000000000E+09 +6.24147356038E-01 +6.01248798738E-01 -7.48246281144E-04 -1.56205478154E-03 -7.29103403271E-04 -1.50411298452E-03 +5.98703305051E-01 +6.91621185109E-01
2.52500000000E+09 +6.29735526240E-01 +5.93681531567E-01 -9.54252935176E-04 -1.38084601404E-03 -9.43824699039E-04 -1.44408018756E-03 +6.04430258685E-01 +6.85190827860E-01
2.53000000000E+09 +6.35047510635E-01 +5.86427166185E-01 -1.11275749384E-03 -1.14070264035E-03 -1.13072945477E-03 -1.27748758174E-03 +6.10334329547E-01 +6.78051378184E-01
2.53500000000E+09 +6.39663438560E-01 +5.79795001995E-01 -1.06208688553E-03 -1.15667167238E-03 -1.09812093898E-03 -1.08994611137E-03 +6.16231823877E-01 +6.71069575639E-01
2.54000000000E+09 +6.44175673839E-01 +5.73142818169E-01 -1.19212368102E-03 -1.14311877647E-03 -1.13355320913E-03 -1.17388984928E-03 +6.22219756941E-01 +6.64439216850E-01
2.54500000000E+09 +6.48746485812E-01 +5.66453033546E-01 -1.42332779381E-03 -1.14200369216E-03 -1.35256142631E-03 -1.20694366206E-03 +6.28152583759E-01 +6.57957217356E-01
2.55000000000E+09 +6.53210929134E-01 +5.59651929452E-01 -1.62247514796E-03 -9.07853448519E-04 -1.67114728119E-03 -1.09938055425E-03 +6.33193771455E-01 +6.51776453271E-01
2.55500000000E+09 +6.58134994640E-01 +5.52241770984E-01 -1.73235528118E-03 -6.03283070165E-04 -1.97584625417E-03 -7.44868886682E-04 +6.38199823774E-01 +6.45558026108E-01
2.56000000000E+09 +6.63681206312E-01 +5.44914898450E-01 -1.61496995172E-03 -3.79259049398E-04 -1.93263339951E-03 -3.18495157589E-04 +6.43371913400E-01 +6.38256908754E-01
2.56500000000E+09 +6.69680657190E-01 +5.36573131261E-01 -1.51260915365E-03 -3.97419408414E-04 -1.67635606238E-03 -1.16791389883E-04 +6.48782543718E-01 +6.30792380967E-01
2.57000000000E+09 +6.75995170757E-01 +5.27944768398E-01 -1.58563313498E-03 -5.19044506851E-04 -1.65221060160E-03 -1.79527591535E-04 +6.54371192405E-01 +6.22887292101E-01
2.57500000000E+09 +6.82231175397E-01 +5.18927932977E-01 -1.96775020748E-03 -4.34598181034E-04 -1.78796688413E-03 -8.87325600114E-05 +6.60057146307E-01 +6.14903624972E-01
2.58000000000E+09 +6.87975129615E-01 +5.10024818673E-01 -2.12521330762E-03 +2.69754893920E-05 -1.78611261061E-03 +1.32936391035E-04 +6.65064911503E-01 +6.07312446985E-01
2.58500000000E+09 +6.93455408106E-01 +5.01057471257E-01 -1.93701222211E-03 +3.79572292485E-04 -1.74497126359E-03 +2.13999733618E-04 +6.69917318050E-01 +5.99908546330E-01
2.59000000000E+09 +6.98526209020E-01 +4.92592959232E-01 -1.77117834056E-03 +4.49409761719E-04 -1.73578201092E-03 +2.95453030356E-04 +6.74740308869E-01 +5.92453169358E-01
2.59500000000E+09 +7.03446912362E-01 +4.84115777628E-01 -1.73212237714E-03 +3.74038585184E-04 -1.77550181813E-03 +3.10583778702E-04 +6.79572630829E-01 +5.84200023615E-01
2.60000000000E+09 +7.07617743349E-01 +4.75741378719E-01 -1.87411540434E-03 +3.67336362841E-04 -1.90315074438E-03 +3.65645816887E-04 +6.84540822563E-01 +5.75476171904E-01
2.60500000000E+09 +7.12037565380E-01 +4.66818103920E-01 -2.17490325522E-03 +7.30956984987E-04 -2.21242768523E-03 +8.05041274221E-04 +6.89519781148E-01 +5.66587379254E-01
2.61000000000E+09 +7.16211484990E-01 +4.57292147548E-01 -2.13207596629E-03 +1.31031524769E-03 -2.12229437784E-03 +1.27954723272E-03 +6.94430765114E-01 +5.57522889863E-01
2.61500000000E+09 +7.20638562374E-01 +4.46885665477E-01 -1.66599520939E-03 +1.57953329848E-03 -1.77329854054E-03 +1.56405319221E-03 +6.99273000390E-01 +5.48885836459E-01
2.62000000000E+09 +7.24667567649E-01 +4.35432138289E-01 -1.47274455923E-03 +1.50474481049E-03 -1.55901799049E-03 +1.63537640910E-03 +7.04110692760E-01 +5.39742666885E-01
2.62500000000E+09 +7.28657381563E-01 +4.23422990441E-01 -1.41470065598E-03 +1.57545708029E-03 -1.38371220832E-03 +1.80593592059E-03 +7.08493681527E-01 +5.30652076018E-01
2.63000000000E+09 +7.32706592614E-01 +4.10944761925E-01 -1.36426402634E-03 +1.64479606716E-03 -1.11234573457E-03 +1.77272055077E-03 +7.12705542245E-01 +5.21913024050E-01
2.63500000000E+09 +7.36166387687E-01 +3.98198689019E-01 -1.45617404165E-03 +1.83061222798E-03 -1.11974995843E-03 +1.75884035630E-03 +7.17457426154E-01 +5.12898468213E-01
2.64000000000E+09 +7.39614770733E-01 +3.85844007591E-01 -1.22503397372E-03 +2.21920434529E-03 -9.62635154871E-04 +1.94142057478E-03 +7.22329209797E-01 +5.03222399366E-01
2.64500000000E+09 +7.43329442194E-01 +3.73897397826E-01 -8.21027446727E-04 +2.30127602527E-03 -8.73234991244E-04 +1.90243394668E-03 +7.27104129463E-01 +4.93249857545E-01
2.65000000000E+09 +7.46318868438E-01 +3.62225523827E-01 -6.85682391365E-04 +2.25182002025E-03 -9.52700789127E-04 +2.12465066716E-03 +7.31392568063E-01 +4.83080577547E-01
2.65500000000E+09 +7.49401193390E-01 +3.50662492069E-01 -5.92530683328E-04 +2.27430501640E-03 -8.07214798553E-04 +2.36861726943E-03 +7.35023400491E-01 +4.72947923811E-01
2.66000000000E+09 +7.52433412488E-01 +3.39022211321E-01 -5.11410138804E-04 +2.47086091785E-03 -5.73605148093E-04 +2.63251253842E-03 +7.39213323147E-01 +4.62365416984E-01
2.66500000000E+09 +7.55139789970E-01 +3.27595640115E-01 -3.09423125972E-04 +2.63704323881E-03 -1.56848381289E-04 +2.77522980139E-03 +7.43875516385E-01 +4.51205238431E-01
2.67000000000E+09 +7.57591325767E-01 +3.15266092944E-01 -3.57052931109E-05 +2.88688585151E-03 +1.38609576565E-04 +2.76121672558E-03 +7.48113910117E-01 +4.39832351077E-01
2.67500000000E+09 +7.59658078203E-01 +3.02051015155E-01 +4.48477554726E-04 +2.90501515821E-03 +4.79740517765E-04 +2.70935382104E-03 +7.52199424138E-01 +4.28226549778E-01
2.68000000000E+09 +7.60726088193E-01 +2.88353431730E-01 +7.31029811553E-04 +2.66771530946E-03 +6.29487346976E-04 +2.49987873740E-03 +7.55927413130E-01 +4.16910223191E-01
2.68500000000E+09 +7.61525098482E-01 +2.74499288989E-01 +7.04726537550E-04 +2.68214299475E-03 +6.57770180671E-04 +2.71321557048E-03 +7.58838979808E-01 +4.05611032622E-01
2.69000000000E+09 +7.62048334833E-01 +2.60675034611E-01 +1.07539034999E-03 +2.83487979221E-03 +1.03167585080E-03 +2.84659759880E-03 +7.61883940024E-01 +3.93637864117E-01
2.69500000000E+09 +7.62844842506E-01 +2.46455310906E-01 +1.35342731395E-03 +2.73931840786E-03 +1.41708362535E-03 +2.67912743197E-03 +7.64572539171E-01 +3.80567649947E-01
2.70000000000E+09 +7.63476277634E-01 +2.32250441901E-01 +1.75322933923E-03 +2.83671686779E-03 +1.67716452820E-03 +2.74898606388E-03 +7.66892317341E-01 +3.66941503252E-01
2.70500000000E+09 +7.64118595914E-01 +2.18292462013E-01 +2.26871906977E-03 +2.56191373458E-03 +2.12304377166E-03 +2.54648331733E-03 +7.69320421757E-01 +3.53411211235E-01
2.71000000000E+09 +7.64991032195E-01 +2.04555862202E-01 +2.43921964813E-03 +2.18304463567E-03 +2.38201537914E-03 +2.38291035775E-03 +7.72305421834E-01 +3.40453714738E-01
2.71500000000E+09 +7.66334760904E-01 +1.90440139184E-01 +2.48811432994E-03 +1.89028498377E-03 +2.62207095458E-03 +2.13209679076E-03 +7.74881300465E-01 +3.27229403316E-01
2.72000000000E+09 +7.67246218825E-01 +1.75633601614E-01 +2.56725936289E-03 +1.85463433152E-03 +2.85783987152E-03 +1.84115317811E-03 +7.76565863669E-01 +3.14191549496E-01
2.72500000000E+09 +7.67482865479E-01 +1.60478055734E-01 +2.84786775021E-03 +1.74853680021E-03 +3.00262577959E-03 +1.43742206848E-03 +7.77086235778E-01 +3.00998055315E-01
2.73000000000E+09 +7.66718245722E-01 +1.45007479089E-01 +3.00791875673E-03 +1.64150588858E-03 +2.86298654357E-03 +1.24477786508E-03 +7.78162778789E-01 +2.87470597545E-01
2.73500000000E+09 +7.65514788168E-01 +1.29108877383E-01 +3.39533178978E-03 +1.47643513030E-03 +2.93749988808E-03 +1.26411078153E-03 +7.79146132820E-01 +2.72685522161E-01
2.74000000000E+09 +7.63141554840E-01 +1.13041919969E-01 +3.63483085784E-03 +1.14907320371E-03 +3.20133219443E-03 +1.32357831493E-03 +7.80394449266E-01 +2.57216739541E-01
2.74500000000E+09 +7.60055232590E-01 +9.66280403189E-02 +3.89639702740E-03 +8.37067968536E-04 +3.62407295021E-03 +1.30993644601E-03 +7.80860840713E-01 +2.41893542987E-01
2.75000000000E+09 +7.56408699916E-01 +7.98722271985E-02 +4.30361665087E-03 +4.35579594227E-04 +4.39054982372E-03 +9.46750268917E-04 +7.81542007174E-01 +2.27046339482E-01
2.75500000000E+09 +7.51950441868E-01 +6.28164069832E-02 +4.35310473550E-03 -2.18446977658E-04 +4.60142353135E-03 +7.34889478562E-05 +7.81119510284E-01 +2.12098327615E-01
2.76000000000E+09 +7.47044786876E-01 +4.59731394565E-02 +4.27860021998E-03 -4.44349539707E-04 +4.67908458843E-03 -4.29152481214E-04 +7.80559991850E-01 +1.97280339668E-01
2.76500000000E+09 +7.42194923737E-01 +2.90417898352E-02 +4.60684975782E-03 -8.22647685521E-04 +4.85009598648E-03 -9.22196406599E-04 +7.79819170508E-01 +1.80724011722E-01
2.77000000000E+09 +7.37774201134E-01 +1.14282498819E-02 +4.80139676119E-03 -1.59741471266E-03 +4.93156054645E-03 -1.77392776674E-03 +7.78418578763E-01 +1.63048602705E-01
2.77500000000E+09 +7.33157459587E-01 -6.95125166917E-03 +4.44820283137E-03 -2.38059374613E-03 +4.53607500514E-03 -2.64388671025E-03 +7.75805400956E-01 +1.45058876567E-01
2.78000000000E+09 +7.28293239787E-01 -2.62233327230E-02 +4.11987041765E-03 -2.69152925945E-03 +4.08577763017E-03 -3.00190054523E-03 +7.74083748668E-01 +1.27563468018E-01
2.78500000000E+09 +7.22325730321E-01 -4.62472026106E-02 +3.97765392519E-03 -3.02468878122E-03 +3.71998849402E-03 -3.25029617452E-03 +7.71762982366E-01 +1.09843666978E-01
2.79000000000E+09 +7.15390338244E-01 -6.65309613648E-02 +3.99011092016E-03 -3.58488850714E-03 +3.58580053732E-03 -3.57488534401E-03 +7.68989673701E-01 +9.21130118196E-02
2.79500000000E+09 +7.07263713259E-01 -8.63403666724E-02 +3.67389445826E-03 -4.37708785085E-03 +3.42799799952E-03 -4.14595549141E-03 +7.64306685842E-01 +7.39632782033E-02
2.80000000000E+09 +6.98039176719E-01 -1.06073402661E-01 +2.95437643476E-03 -4.93256637020E-03 +3.03728115142E-03 -4.64544735008E-03 +7.58668958277E-01 +5.57531023568E-02
2.80500000000E+09 +6.87688643813E-01 -1.24884463661E-01 +2.30001382313E-03 -5.29164923897E-03 +2.47891585321E-03 -5.13685773324E-03 +7.52811420466E-01 +3.79188740845E-02
2.81000000000E+09 +6.76621824067E-01 -1.42881922310E-01 +1.87826174364E-03 -5.31547967013E-03 +2.04254206767E-03 -5.40056973267E-03 +7.47047008733E-01 +1.83295759139E-02
2.81500000000E+09 +6.64792929114E-01 -1.60189856504E-01 +1.31918952066E-03 -5.69072234865E-03 +1.17958781440E-03 -5.83226111954E-03 +7.39917591929E-01 -1.84762634121E-03
2.82000000000E+09 +6.52270891081E-01 -1.77837261363E-01 +8.57385011259E-04 -5.93461403999E-03 +5.55672189981E-04 -5.93146838441E-03 +7.31441702929E-01 -2.17366786549E-02
2.82500000000E+09 +6.38086939288E-01 -1.94990530864E-01 +2.41946744971E-05 -6.36711516175E-03 -1.72535682264E-04 -6.13803539451E-03 +7.22187559263E-01 -4.05760571458E-02
2.83000000000E+09 +6.22634257784E-01 -2.12745368813E-01 -1.05190132672E-03 -6.11661221215E-03 -1.01891195960E-03 -5.79889193381E-03 +7.12950664795E-01 -5.96023719170E-02
2.83500000000E+09 +6.05300047767E-01 -2.30865856419E-01 -1.41289530621E-03 -5.54675464805E-03 -1.32286135503E-03 -5.38282647678E-03 +7.03453507146E-01 -7.91570168138E-02
2.84000000000E+09 +5.85970126565E-01 -2.48380029797E-01 -1.44593202923E-03 -5.56344717362E-03 -1.22662686954E-03 -5.60005346887E-03 +6.92006938875E-01 -1.00313936334E-01
2.84500000000E+09 +5.65363637165E-01 -2.65974026633E-01 -2.18719039606E-03 -6.02940455098E-03 -2.11622195904E-03 -6.09243669513E-03 +6.79031740638E-01 -1.20819846055E-01
2.85000000000E+09 +5.43173564748E-01 -2.83569322148E-01 -2.91819911270E-03 -6.07349767648E-03 -2.92562025118E-03 -6.10822042861E-03 +6.64944170686E-01 -1.40972707798E-01
2.85500000000E+09 +5.19817013240E-01 -3.00745093160E-01 -4.09106461899E-03 -5.83826302097E-03 -4.08534553330E-03 -5.77755443205E-03 +6.51094747772E-01 -1.60552682189E-01
2.86000000000E+09 +4.95763729090E-01 -3.17695311628E-01 -4.89424046986E-03 -5.35203902600E-03 -4.81655201885E-03 -5.22086670537E-03 +6.35659320300E-01 -1.82065395147E-01
2.86500000000E+09 +4.70221704758E-01 -3.34489029863E-01 -5.75627482863E-03 -4.42811257345E-03 -5.61180595392E-03 -4.44508671533E-03 +6.17825552496E-01 -2.02797574191E-01
2.87000000000E+09 +4.43033132526E-01 -3.49012437813E-01 -5.82722047224E-03 -3.45759639623E-03 -5.81805348978E-03 -3.47549094478E-03 +5.98557011845E-01 -2.22590970588E-01
2.87500000000E+09 +4.16719520410E-01 -3.61413453885E-01 -5.75534824004E-03 -3.09172856680E-03 -5.79933678723E-03 -2.97070288047E-03 +5.78645530170E-01 -2.41616849540E-01
2.88000000000E+09 +3.90743389048E-01 -3.73080141779E-01 -6.12501746220E-03 -3.07672912216E-03 -6.04335264600E-03 -2.80294454054E-03 +5.57443291035E-01 -2.60810638941E-01
2.88500000000E+09 +3.64018711131E-01 -3.84075110268E-01 -6.98279221376E-03 -2.64410700038E-03 -6.67552106158E-03 -2.35887759868E-03 +5.34995374368E-01 -2.79722642666E-01
2.89000000000E+09 +3.35934991261E-01 -3.93731753635E-01 -7.47186004169E-03 -1.66459292824E-03 -7.02934310383E-03 -1.73632457516E-03 +5.09479404023E-01 -2.98301476349E-01
2.89500000000E+09 +3.06268891891E-01 -4.01643503366E-01 -7.90253188762E-03 -6.59640369108E-04 -7.65382711655E-03 -9.90397063860E-04 +4.81876514200E-01 -3.15547064862E-01
2.90000000000E+09 +2.74754740407E-01 -4.07469407702E-01 -7.81115538345E-03 +3.74331172380E-04 -7.94357466699E-03 +8.62549256387E-05 +4.52949640227E-01 -3.31086614694E-01
2.90500000000E+09 +2.41530901721E-01 -4.10685192472E-01 -7.73007346791E-03 +1.01810637788E-03 -7.93706859822E-03 +1.01342052946E-03 +4.24257433493E-01 -3.46186103990E-01
2.91000000000E+09 +2.06823819338E-01 -4.11526506874E-01 -7.86306452917E-03 +1.81235741292E-03 -7.80135760678E-03 +2.04545876590E-03 +3.92988733064E-01 -3.61004486488E-01
2.91500000000E+09 +1.71569758141E-01 -4.08783552483E-01 -7.73307646494E-03 +2.95013846406E-03 -7.32690806996E-03 +3.04805408583E-03 +3.60070738130E-01 -3.73253946651E-01
2.92000000000E+09 +1.36396285090E-01 -4.03944137984E-01 -7.18937114675E-03 +3.58523583338E-03 -6.80654045736E-03 +3.28924309625E-03 +3.25636090240E-01 -3.82269430266E-01
2.92500000000E+09 +1.02244738636E-01 -3.97531681485E-01 -7.02163074220E-03 +4.08810373876E-03 -6.93476403349E-03 +3.65518444922E-03 +2.91158270048E-01 -3.89681550822E-01
2.93000000000E+09 +6.78970538203E-02 -3.90555846416E-01 -7.11218999774E-03 +5.03432481629E-03 -7.28681758081E-03 +4.56727720893E-03 +2.54623200874E-01 -3.95491849749E-01
2.93500000000E+09 +3.27581931298E-02 -3.81860825958E-01 -6.54317016001E-03 +6.29959802996E-03 -6.76340417753E-03 +6.06057856495E-03 +2.16794219275E-01 -4.00569208632E-01
2.94000000000E+09 -2.25566640703E-03 -3.70217792671E-01 -5.81478429647E-03 +6.97545630587E-03 -5.95553783336E-03 +6.89201844521E-03 +1.77227424038E-01 -4.02629886526E-01
2.94500000000E+09 -3.61048541077E-02 -3.55250041010E-01 -5.39884160706E-03 +7.98623384083E-03 -5.48458326794E-03 +7.78490456085E-03 +1.38004317705E-01 -4.02433528248E-01
2.95000000000E+09 -6.78985689945E-02 -3.37584267779E-01 -3.98414697772E-03 +9.17339786109E-03 -4.34822161646E-03 +8.96003101431E-03 +9.95471742171E-02 -3.99651093784E-01
2.95500000000E+09 -9.70879703752E-02 -3.18148924731E-01 -2.39272282676E-03 +9.14085953111E-03 -2.79231709751E-03 +9.35234758979E-03 +5.99410470618E-02 -3.95514028121E-01
2.96000000000E+09 -1.26425765976E-01 -2.96924983938E-01 -1.67206110589E-03 +9.05417558572E-03 -1.84401031273E-03 +9.44976044125E-03 +1.87666398665E-02 -3.87437570530E-01
2.96500000000E+09 -1.54158023813E-01 -2.72702569474E-01 -9.59974421811E-04 +9.28242281744E-03 -8.27741935916E-04 +9.55620607639E-03 -2.30802511030E-02 -3.75738472899E-01
2.97000000000E+09 -1.80967150157E-01 -2.45174038841E-01 -4.17790199459E-04 +9.49389313929E-03 -1.02157710799E-04 +9.55140764965E-03 -6.41006738764E-02 -3.59905681759E-01
2.97500000000E+09 -2.05128728600E-01 -2.15270969361E-01 +5.50860393219E-04 +1.06268293411E-02 +5.92875103492E-04 +1.04033830766E-02 -1.04119584409E-01 -3.42500229234E-01
2.98000000000E+09 -2.27849285700E-01 -1.83776071050E-01 +3.10383420775E-03 +1.10394079303E-02 +2.67258851932E-03 +1.09008481767E-02 -1.42727600826E-01 -3.21794741349E-01
2.98500000000E+09 -2.47986836835E-01 -1.51349711674E-01 +4.59172308717E-03 +9.62909859413E-03 +4.26033059824E-03 +9.93251857882E-03 -1.80025271062E-01 -2.99195789886E-01
2.99000000000E+09 -2.67318477602E-01 -1.19022178041E-01 +5.13202228693E-03 +8.92542775560E-03 +5.26047302898E-03 +9.40673508449E-03 -2.16429138712E-01 -2.71721591025E-01
2.99500000000E+09 -2.85129851673E-01 -8.49627318384E-02 +5.95093594495E-03 +8.89840529086E-03 +6.41615442659E-03 +9.04895035319E-03 -2.48956907707E-01 -2.41185026282E-01
3.00000000000E+09 -3.00271215362E-01 -5.03033445192E-02 +7.23075690091E-03 +8.71298752797E-03 +7.64780545204E-03 +8.34379480675E-03 -2.79703932876E-01 -2.09368382260E-01
3.00500000000E+09 -3.11807147897E-01 -1.63021994289E-02 +9.41310620658E-03 +8.20079570985E-03 +9.33957663297E-03 +7.62445001539E-03 -3.09174952197E-01 -1.75093837442E-01
3.01000000000E+09 -3.20865054895E-01 +1.64568004931E-02 +1.10285061450E-02 +5.55435325888E-03 +1.04699659957E-02 +5.48172111479E-03 -3.34792479897E-01 -1.38860482927E-01
3.01500000000E+09 -3.27918859696E-01 +4.82448123498E-02 +1.08110374336E-02 +3.64494796409E-03 +1.05594617876E-02 +4.02809389925E-03 -3.58150252305E-01 -1.01755072927E-01
3.02000000000E+09 -3.32982986883E-01 +8.03406427190E-02 +1.06850396442E-02 +2.50144006363E-03 +1.08156567958E-02 +2.89356618589E-03 -3.77259069611E-01 -6.31576310614E-02
3.02500000000E+09 -3.34704479334E-01 +1.13491126889E-01 +1.08792141948E-02 +1.85870420924E-03 +1.11412284526E-02 +1.96898958846E-03 -3.92695260788E-01 -2.43395710640E-02
3.03000000000E+09 -3.31645399015E-01 +1.45943022821E-01 +1.14770182630E-02 +4.86227342861E-04 +1.15832599095E-02 +5.51166406746E-04 -4.06725116284E-01 +1.43384628173E-02
3.03500000000E+09 -3.26518027114E-01 +1.75778980352E-01 +1.20818121258E-02 -1.21755905642E-03 +1.20973367936E-02 -1.01334906387E-03 -4.18446136469E-01 +5.51644154629E-02
3.04000000000E+09 -3.19629642316E-01 +2.06667193369E-01 +1.17075210431E-02 -3.69864117563E-03 +1.21282385810E-02 -3.44233428498E-03 -4.26100137531E-01 +9.63248683540E-02
3.04500000000E+09 -3.11291101851E-01 +2.35157604087E-01 +1.00697903767E-02 -4.93602035729E-03 +1.07234183941E-02 -5.20043109726E-03 -4.31309642536E-01 +1.37071610551E-01
3.05000000000E+09 -3.02150388665E-01 +2.64348463016E-01 +9.53681750161E-03 -5.78378736695E-03 +9.87608013832E-03 -6.49360715705E-03 -4.32942462573E-01 +1.76351486768E-01
3.05500000000E+09 -2.91396217801E-01 +2.93198119009E-01 +8.83871021966E-03 -6.88901312192E-03 +8.50620556302E-03 -7.55483603192E-03 -4.33767039173E-01 +2.14725178720E-01
3.06000000000E+09 -2.78742581982E-01 +3.21133425111E-01 +7.79188099540E-03 -8.31280331019E-03 +7.12998825400E-03 -8.43346955054E-03 -4.31348521453E-01 +2.53715652757E-01
3.06500000000E+09 -2.64909614067E-01 +3.46931966645E-01 +6.06185903301E-03 -9.60581484100E-03 +5.75977942906E-03 -9.04370314462E-03 -4.25504713445E-01 +2.91443431236E-01
3.07000000000E+09 -2.51351582490E-01 +3.71343250483E-01 +3.86403876583E-03 -9.68820416244E-03 +4.28617201409E-03 -9.24366351665E-03 -4.17640562839E-01 +3.26488822364E-01
