# Hz S RI R 50
! CMT, C1220, 16058040, 17.2.0/1
! Date: 15/08/2018 10:44:58
! Data: Format (Calibration Info)
! Freq                      S11: Re/Im (F2)                       S21: Re/Im (F2)                       S12: Re/Im (F2)                       S22: Re/Im (F2)            
2.50000000000E+09 +5.92604235390E-01 +6.53833316228E-01 -5.49034778030E-05 -2.15042415905E-04 -4.34055585112E-05 -2.08134382737E-04 +5.63882104642E-01 +7.25888090192E-01
2.50500000000E+09 +5.99400490208E-01 +6.45609510035E-01 -3.96608489215E-05 -2.55330534920E-04 -5.70335699511E-05 -2.72309352487E-04 +5.69899315557E-01 +7.20213521685E-01
2.51000000000E+09 +6.06848391466E-01 +6.37377513973E-01 -5.39784640240E-05 -3.14304282743E-04 -1.35941000209E-04 -2.96925920384E-04 +5.75843947972E-01 +7.14952200455E-01
2.51500000000E+09 +6.14548928205E-01 +6.29504865281E-01 -1.49399897802E-04 -2.84550845120E-04 -1.46206368588E-04 -3.37405218539E-04 +5.81377620958E-01 +7.09413705874E-01
2.52000000000E+09 +6.21758620402E-01 +6.21887810983E-01 -1.92269753021E-04 -2.93939384175E-04 -2.39600399335E-04 -3.02994861068E-04 +5.86849403740E-01 +7.03387304093E-01
2.52500000000E+09 +6.27592674232E-01 +6.15549605834E-01 -2.51519942351E-04 -2.85686561868E-04 -2.82536719077E-04 -3.19108122374E-04 +5.92853681103E-01 +6.96810923550E-01
2.53000000000E+09 +6.32531950094E-01 +6.09793280615E-01 -3.14483023152E-04 -2.19235642051E-04 -3.70003621442E-04 -2.44654101590E-04 +5.99192653974E-01 +6.89629396092E-01
2.53500000000E+09 +6.36721355482E-01 +6.04293596843E-01 -3.61665373938E-04 -1.70044867453E-04 -4.21209478553E-04 -2.05019321713E-04 +6.05108488754E-01 +6.82346128603E-01
2.54000000000E+09 +6.40149020816E-01 +5.98397126378E-01 -4.21532886246E-04 -1.52550243292E-04 -4.11834183017E-04 -1.66100086886E-04 +6.10773398463E-01 +6.75472610504E-01
2.54500000000E+09 +6.43818355241E-01 +5.92154952334E-01 -3.71124651310E-04 -1.07036814409E-04 -4.04127554111E-04 -9.23830451440E-05 +6.16241713088E-01 +6.69059091745E-01
2.55000000000E+09 +6.48215573848E-01 +5.84572302665E-01 -4.17376439738E-04 -4.16435672195E-05 -4.40185985868E-04 -9.32228102906E-05 +6.21278043472E-01 +6.62841502799E-01
2.55500000000E+09 +6.53609687825E-01 +5.75534715368E-01 -4.30850194280E-04 -3.94892380565E-05 -4.61368449721E-04 -3.04370077066E-05 +6.26329950187E-01 +6.56524327834E-01
2.56000000000E+09 +6.60308397783E-01 +5.65877488249E-01 -4.06652849907E-04 -8.00631493250E-06 -4.60790008566E-04 -2.11712197463E-05 +6.31270185458E-01 +6.49428697113E-01
2.56500000000E+09 +6.67619442859E-01 +5.55369285501E-01 -5.07133734322E-04 -8.58403776792E-05 -5.95676818137E-04 +2.37804824700E-05 +6.36528106587E-01 +6.41911080013E-01
2.57000000000E+09 +6.75277493461E-01 +5.45470441382E-01 -6.13589527282E-04 +4.78316723664E-05 -5.79004579311E-04 +1.54372496096E-04 +6.41415999877E-01 +6.34147744724E-01
2.57500000000E+09 +6.82975165608E-01 +5.36081150221E-01 -5.87855096360E-04 +8.05891289109E-05 -5.09247742451E-04 +1.80546825961E-04 +6.46683907036E-01 +6.26846809102E-01
2.58000000000E+09 +6.89629680284E-01 +5.27907308514E-01 -6.14694504937E-04 +1.89275302543E-04 -4.84957382852E-04 +1.87435136393E-04 +6.51835029407E-01 +6.19702042038E-01
2.58500000000E+09 +6.95029294719E-01 +5.20581444378E-01 -6.54623248727E-04 +2.20500360322E-04 -5.77369627852E-04 +1.52148266963E-04 +6.56814211642E-01 +6.12452724783E-01
2.59000000000E+09 +6.98838057830E-01 +5.14557811873E-01 -6.73367031938E-04 +3.96640784411E-04 -6.55741850903E-04 +3.28092717739E-04 +6.61929148893E-01 +6.05222747604E-01
2.59500000000E+09 +7.02098154985E-01 +5.08695582040E-01 -6.18628789381E-04 +4.84864521151E-04 -6.29963873029E-04 +4.81408416036E-04 +6.67179195545E-01 +5.97481912546E-01
2.60000000000E+09 +7.04612157349E-01 +5.01977290793E-01 -5.11364553251E-04 +5.34599332857E-04 -4.70753545963E-04 +5.72148777630E-04 +6.72738970160E-01 +5.89355185579E-01
2.60500000000E+09 +7.07167112198E-01 +4.93644550645E-01 -5.55078414451E-04 +5.63739153939E-04 -5.15336219297E-04 +5.61712563851E-04 +6.78547284586E-01 +5.80403486466E-01
2.61000000000E+09 +7.10052036638E-01 +4.83367597443E-01 -5.49947875931E-04 +7.76437125651E-04 -5.99705616420E-04 +7.60535217325E-04 +6.83794422055E-01 +5.71477199048E-01
2.61500000000E+09 +7.13967729813E-01 +4.71138601118E-01 -2.93615468851E-04 +8.87052974481E-04 -3.57002755726E-04 +9.43120515125E-04 +6.88888804042E-01 +5.62884597725E-01
2.62000000000E+09 +7.18566983136E-01 +4.56901581827E-01 -1.85894398123E-04 +7.48463694370E-04 -1.81497457391E-04 +8.17502864314E-04 +6.93885637629E-01 +5.53816170408E-01
2.62500000000E+09 +7.23738095657E-01 +4.41400815049E-01 -2.83648060020E-04 +8.27872922192E-04 -2.10647284560E-04 +9.00673800982E-04 +6.98830453798E-01 +5.44614916283E-01
2.63000000000E+09 +7.29132297037E-01 +4.26155379235E-01 -2.33561193862E-04 +9.20501166964E-04 -8.07566103598E-05 +9.55088343484E-04 +7.03526881298E-01 +5.35282690557E-01
2.63500000000E+09 +7.34108330185E-01 +4.12007313821E-01 -1.70226046109E-04 +1.02248714984E-03 -7.00211503447E-05 +9.09790186472E-04 +7.08049899316E-01 +5.25982639736E-01
2.64000000000E+09 +7.38596461136E-01 +3.99476585172E-01 -2.07389170557E-05 +1.32727554696E-03 -3.37512925843E-05 +1.11123308481E-03 +7.12557795983E-01 +5.16105433626E-01
2.64500000000E+09 +7.42598942016E-01 +3.89342718161E-01 +4.52499827377E-04 +1.31369032212E-03 +2.89544281093E-04 +1.17939942476E-03 +7.16921313864E-01 +5.06307432700E-01
2.65000000000E+09 +7.45453627818E-01 +3.80547311288E-01 +5.77709382528E-04 +9.59330447799E-04 +4.45561581649E-04 +1.01457624327E-03 +7.21030337298E-01 +4.96281479067E-01
2.65500000000E+09 +7.47713500752E-01 +3.72321867609E-01 +5.07716663111E-04 +8.83736922090E-04 +3.87099816101E-04 +9.87624083040E-04 +7.24648017509E-01 +4.85840511556E-01
2.66000000000E+09 +7.49433545574E-01 +3.63817817289E-01 +4.13200023223E-04 +9.95355812544E-04 +4.23214890401E-04 +1.11181045603E-03 +7.28541418612E-01 +4.74894425336E-01
2.66500000000E+09 +7.50823939750E-01 +3.54597176426E-01 +6.38323079303E-04 +1.17991684488E-03 +7.46430146630E-04 +1.17865482837E-03 +7.32449669524E-01 +4.63970052398E-01
2.67000000000E+09 +7.52040423143E-01 +3.43091351869E-01 +9.58922182196E-04 +1.17301570748E-03 +1.00975430802E-03 +1.04520752247E-03 +7.36829961061E-01 +4.53354255051E-01
2.67500000000E+09 +7.53433477769E-01 +3.29862542884E-01 +1.15201997349E-03 +9.50654882821E-04 +1.13817480034E-03 +8.49535328286E-04 +7.40951855032E-01 +4.42594585242E-01
2.68000000000E+09 +7.55150184973E-01 +3.14387187722E-01 +1.27347604277E-03 +7.76572493085E-04 +1.17788825513E-03 +7.73289398519E-04 +7.44807847403E-01 +4.31795409014E-01
2.68500000000E+09 +7.56626682995E-01 +2.97664591844E-01 +1.20672647128E-03 +7.34974922268E-04 +1.15282164290E-03 +7.32338158291E-04 +7.48028396359E-01 +4.20822946282E-01
2.69000000000E+09 +7.58353736463E-01 +2.80576004289E-01 +1.49376575594E-03 +8.06749102671E-04 +1.46699089601E-03 +8.04730647517E-04 +7.50958134283E-01 +4.09246125637E-01
2.69500000000E+09 +7.59996770009E-01 +2.64075017582E-01 +1.79802136977E-03 +5.68302102690E-04 +1.77828233274E-03 +5.63829199672E-04 +7.54055796646E-01 +3.97206946137E-01
2.70000000000E+09 +7.61431394401E-01 +2.48269115067E-01 +1.94288525772E-03 +1.94374404195E-04 +1.92832897250E-03 +2.13972510595E-04 +7.57431936518E-01 +3.83891809592E-01
2.70500000000E+09 +7.62559356915E-01 +2.33964904315E-01 +2.01160257296E-03 -1.54774733526E-04 +1.98882215810E-03 -2.16095150553E-05 +7.60224494830E-01 +3.70853865399E-01
2.71000000000E+09 +7.63507700357E-01 +2.20411737811E-01 +1.95859329143E-03 -4.88927863090E-04 +1.94793295166E-03 -4.19631614432E-04 +7.63327960379E-01 +3.57955111535E-01
2.71500000000E+09 +7.64127903053E-01 +2.07337652277E-01 +1.74071381590E-03 -7.80559450706E-04 +1.84127640644E-03 -8.28157452543E-04 +7.66238824124E-01 +3.45703813832E-01
2.72000000000E+09 +7.64242586081E-01 +1.94279101447E-01 +1.64581614399E-03 -8.02201344467E-04 +1.76929062324E-03 -9.63704276053E-04 +7.68691585935E-01 +3.33097478242E-01
2.72500000000E+09 +7.64297570887E-01 +1.80200271506E-01 +1.69879534759E-03 -1.01599748040E-03 +1.54770999032E-03 -1.18999749617E-03 +7.70464804837E-01 +3.19712224131E-01
2.73000000000E+09 +7.63291962926E-01 +1.64750352247E-01 +1.62290430266E-03 -1.31101693312E-03 +1.37243257578E-03 -1.33900235437E-03 +7.72176836542E-01 +3.05683006193E-01
2.73500000000E+09 +7.61593126451E-01 +1.47699031712E-01 +1.44837242918E-03 -1.54985788555E-03 +1.24133842163E-03 -1.36600277894E-03 +7.73813795506E-01 +2.90713377601E-01
2.74000000000E+09 +7.58752367846E-01 +1.30315308138E-01 +1.19659427566E-03 -1.73055919612E-03 +1.16184966361E-03 -1.44807201690E-03 +7.75530690387E-01 +2.75312347409E-01
2.74500000000E+09 +7.54999023985E-01 +1.12337177600E-01 +1.11698491632E-03 -1.89498232207E-03 +1.26425841066E-03 -1.66478209543E-03 +7.77204268760E-01 +2.59759047865E-01
2.75000000000E+09 +7.50595618423E-01 +9.42892305201E-02 +8.46358816098E-04 -2.18159543591E-03 +1.09788887195E-03 -2.09901282527E-03 +7.78296090881E-01 +2.43977973524E-01
2.75500000000E+09 +7.45608256165E-01 +7.66035846261E-02 +4.81897895818E-04 -2.22011735199E-03 +7.16713119850E-04 -2.35704967091E-03 +7.78054689630E-01 +2.28281937149E-01
2.76000000000E+09 +7.40353905757E-01 +5.90599405025E-02 +1.98490312144E-04 -2.32989348418E-03 +2.45672530975E-04 -2.48794653664E-03 +7.77374310090E-01 +2.12957934198E-01
2.76500000000E+09 +7.34494739840E-01 +4.13993515532E-02 -1.49971658325E-04 -2.25164351115E-03 -1.65185798383E-04 -2.42889113320E-03 +7.76565022667E-01 +1.96123383455E-01
2.77000000000E+09 +7.28224299085E-01 +2.30971548213E-02 -3.79357317755E-04 -2.37337260032E-03 -4.87366550236E-04 -2.44591638088E-03 +7.75229603234E-01 +1.78543649454E-01
2.77500000000E+09 +7.21297795045E-01 +4.18486877633E-03 -8.88710275332E-04 -2.18860298267E-03 -9.55536285465E-04 -2.27356358635E-03 +7.73364272928E-01 +1.60890646346E-01
2.78000000000E+09 +7.14334779124E-01 -1.55510614116E-02 -1.02321322970E-03 -1.93002776373E-03 -1.12614941240E-03 -1.92267056753E-03 +7.71106156707E-01 +1.43027986337E-01
2.78500000000E+09 +7.06358985988E-01 -3.64931067033E-02 -1.14440313508E-03 -1.68354567042E-03 -1.23368692366E-03 -1.59200673326E-03 +7.68509541596E-01 +1.25772036634E-01
2.79000000000E+09 +6.97739815747E-01 -5.72147929548E-02 -1.00657266526E-03 -1.70749382997E-03 -1.04049792780E-03 -1.64136318621E-03 +7.65499614434E-01 +1.08835777504E-01
2.79500000000E+09 +6.89481511234E-01 -7.80061262432E-02 -1.19561216983E-03 -1.89187867258E-03 -1.16785755414E-03 -1.76774442883E-03 +7.61691454085E-01 +9.11022543103E-02
2.80000000000E+09 +6.80545429781E-01 -9.84761865498E-02 -1.79505124072E-03 -1.86854427860E-03 -1.66863929415E-03 -1.83577001555E-03 +7.57051684895E-01 +7.31731452214E-02
2.80500000000E+09 +6.70907153499E-01 -1.17894013408E-01 -1.98934368496E-03 -1.50929505546E-03 -1.94384133108E-03 -1.63812801498E-03 +7.51922068927E-01 +5.44265937688E-02
2.81000000000E+09 +6.59981236558E-01 -1.35410055460E-01 -2.21560587005E-03 -1.13519128817E-03 -2.31877654153E-03 -1.24232726794E-03 +7.46643455701E-01 +3.55225290716E-02
2.81500000000E+09 +6.47674951524E-01 -1.51464601787E-01 -2.17036239893E-03 -1.02183399292E-03 -2.29286683658E-03 -9.93961986890E-04 +7.41013242987E-01 +1.52830350919E-02
2.82000000000E+09 +6.34061969878E-01 -1.65767810290E-01 -2.55247326188E-03 -7.98639783842E-04 -2.56636070872E-03 -7.39551156578E-04 +7.34140779623E-01 -5.12822203706E-03
2.82500000000E+09 +6.19285792429E-01 -1.79702707678E-01 -2.67712491065E-03 -3.90082204464E-04 -2.63228464538E-03 -3.08541665295E-04 +7.26257555615E-01 -2.56607316106E-02
2.83000000000E+09 +6.02207952285E-01 -1.95293413007E-01 -2.85553758510E-03 -8.46453043549E-06 -2.78629919657E-03 +2.06986391059E-05 +7.17482148111E-01 -4.66162830789E-02
2.83500000000E+09 +5.82767885838E-01 -2.11022690976E-01 -2.77482182759E-03 +5.50969589879E-04 -2.67839583603E-03 +4.69820216611E-04 +7.07346696915E-01 -6.78096245278E-02
2.84000000000E+09 +5.61604947555E-01 -2.28675692714E-01 -2.32693145126E-03 +9.01634422283E-04 -2.35889686393E-03 +8.14738245154E-04 +6.95965416676E-01 -8.92956844129E-02
2.84500000000E+09 +5.37778217142E-01 -2.47540404405E-01 -2.18914739052E-03 +8.10403070103E-04 -2.29149750398E-03 +8.42060459710E-04 +6.82921879512E-01 -1.10708328475E-01
2.85000000000E+09 +5.13363897601E-01 -2.67051943321E-01 -2.40868910647E-03 +1.13628042851E-03 -2.45976406878E-03 +1.10925345654E-03 +6.68650090584E-01 -1.31643342497E-01
2.85500000000E+09 +4.86818189981E-01 -2.86530427861E-01 -2.30319455630E-03 +1.55482731964E-03 -2.26903419999E-03 +1.56941639799E-03 +6.53071661106E-01 -1.51854053924E-01
2.86000000000E+09 +4.60585541020E-01 -3.03255113572E-01 -1.91788285995E-03 +2.05619494302E-03 -1.88368855386E-03 +2.01801504665E-03 +6.37399154907E-01 -1.72115336069E-01
2.86500000000E+09 +4.36284080786E-01 -3.17848241982E-01 -1.54100106571E-03 +1.88616546277E-03 -1.56343779296E-03 +1.80001926378E-03 +6.19797387522E-01 -1.93479756444E-01
2.87000000000E+09 +4.12441238143E-01 -3.31389048073E-01 -1.69753566714E-03 +2.38627228414E-03 -1.73767953225E-03 +2.46242572433E-03 +6.00131582617E-01 -2.13575188320E-01
2.87500000000E+09 +3.88328224671E-01 -3.42528330634E-01 -9.05854732859E-04 +2.48242885141E-03 -8.44270210386E-04 +2.51928658031E-03 +5.79111747764E-01 -2.32946415753E-01
2.88000000000E+09 +3.63714753113E-01 -3.51668869244E-01 -9.37262883696E-04 +2.39918214822E-03 -8.34848769064E-04 +2.36022554682E-03 +5.57996392760E-01 -2.50818391599E-01
2.88500000000E+09 +3.36616089047E-01 -3.59211170409E-01 -6.30918537873E-04 +2.80094701387E-03 -5.49223470585E-04 +2.65535673212E-03 +5.35731622892E-01 -2.69669475100E-01
2.89000000000E+09 +3.07082532622E-01 -3.64145729181E-01 -2.84026357949E-05 +2.86180849567E-03 -9.97679336543E-05 +2.71561419333E-03 +5.10851040992E-01 -2.87547096809E-01
2.89500000000E+09 +2.75810373859E-01 -3.67767497129E-01 +4.22919289209E-04 +2.57667004029E-03 +3.48440445413E-04 +2.49752099593E-03 +4.84818933742E-01 -3.04740939948E-01
2.90000000000E+09 +2.42345046956E-01 -3.69964094041E-01 +5.62082183839E-04 +2.41811585760E-03 +4.31510456334E-04 +2.43003709245E-03 +4.57425205806E-01 -3.21957700437E-01
2.90500000000E+09 +2.06975850577E-01 -3.71082855528E-01 +6.20552515227E-04 +2.33346298214E-03 +5.97227560687E-04 +2.37727040794E-03 +4.28360240201E-01 -3.38023486637E-01
2.91000000000E+09 +1.71173202242E-01 -3.70939931362E-01 +1.25086198908E-03 +2.56226992462E-03 +1.28508473781E-03 +2.47808073845E-03 +3.98130158347E-01 -3.53884372760E-01
2.91500000000E+09 +1.34771380304E-01 -3.68967743069E-01 +1.54776693599E-03 +2.10504066862E-03 +1.51206932340E-03 +2.04099313489E-03 +3.64850056584E-01 -3.67122074339E-01
2.92000000000E+09 +9.94681814268E-02 -3.64884315730E-01 +2.13358827792E-03 +1.83265119147E-03 +1.98174635882E-03 +1.83183554953E-03 +3.30309637544E-01 -3.77627147016E-01
2.92500000000E+09 +6.60532717487E-02 -3.57772343166E-01 +2.01963102370E-03 +9.68225355220E-04 +1.91283495007E-03 +1.00380695908E-03 +2.94784476317E-01 -3.85175137135E-01
2.93000000000E+09 +3.45034221122E-02 -3.49145186093E-01 +1.54883774715E-03 +7.44850758368E-04 +1.50736289435E-03 +8.62417982486E-04 +2.58470098393E-01 -3.92199314418E-01
2.93500000000E+09 +3.88195277129E-03 -3.38270224087E-01 +1.63567451693E-03 +8.63755431828E-04 +1.63555774964E-03 +9.80577558980E-04 +2.19520867960E-01 -3.97941613937E-01
2.94000000000E+09 -2.59889120355E-02 -3.24293309445E-01 +1.65493007763E-03 +3.06829739901E-04 +1.64139148227E-03 +3.84280855466E-04 +1.78024501324E-01 -4.00691627073E-01
2.94500000000E+09 -5.53344990071E-02 -3.08250407002E-01 +1.06489218399E-03 +5.43220454503E-04 +1.01162740304E-03 +4.75043875777E-04 +1.38174563307E-01 -3.99219595016E-01
2.95000000000E+09 -8.59411077694E-02 -2.88529328797E-01 +1.53561046276E-03 +8.20407200000E-04 +1.47525767049E-03 +8.94377072271E-04 +9.77227409203E-02 -3.96560862485E-01
2.95500000000E+09 -1.13899298992E-01 -2.65276702929E-01 +1.72058418174E-03 +6.77028856875E-04 +1.72194283663E-03 +7.28809131661E-04 +5.74442113531E-02 -3.90404922388E-01
2.96000000000E+09 -1.41451685310E-01 -2.42352475666E-01 +1.81589911001E-03 -1.61227248112E-04 +1.89587424110E-03 -1.60333860984E-04 +1.62602580000E-02 -3.81114511871E-01
2.96500000000E+09 -1.68769256872E-01 -2.16053582094E-01 +1.07518185504E-03 +6.22406146502E-05 +1.09129349716E-03 +1.69679869694E-05 -2.41563174518E-02 -3.67613182263E-01
2.97000000000E+09 -1.92371217427E-01 -1.89052968947E-01 +1.29489754733E-03 +4.32787009623E-04 +1.22782574913E-03 +3.94798341153E-04 -6.29472080711E-02 -3.51741237506E-01
2.97500000000E+09 -2.14881904232E-01 -1.62342063254E-01 +1.54248205671E-03 +4.54585290100E-04 +1.50226364165E-03 +4.52528129662E-04 -1.00935125022E-01 -3.34727334805E-01
2.98000000000E+09 -2.36257863441E-01 -1.33861816522E-01 +1.80382957252E-03 +4.04117519252E-04 +1.70094470787E-03 +4.26037608722E-04 -1.38520202175E-01 -3.15119245555E-01
2.98500000000E+09 -2.54583177992E-01 -1.03798924007E-01 +2.08168722301E-03 -3.44379899525E-05 +2.15372965618E-03 +5.71249440092E-05 -1.75083469156E-01 -2.92725909848E-01
2.99000000000E+09 -2.70199760996E-01 -7.29375060425E-02 +2.01595097705E-03 -3.85926348382E-04 +2.04543368763E-03 -3.73065301217E-04 -2.09846334781E-01 -2.66521379684E-01
2.99500000000E+09 -2.83640514969E-01 -4.20944493848E-02 +1.97354317374E-03 -3.94529513513E-04 +2.01298538775E-03 -4.81581783835E-04 -2.41842533954E-01 -2.37511109749E-01
3.00000000000E+09 -2.96480362428E-01 -1.07343725661E-02 +2.20401628035E-03 -9.07848811231E-04 +2.10922082753E-03 -9.91296936182E-04 -2.72022944045E-01 -2.06574200781E-01
3.00500000000E+09 -3.07580235964E-01 +2.17254634572E-02 +2.05359026123E-03 -1.03151516088E-03 +1.89612988842E-03 -1.05519287061E-03 -3.00403023692E-01 -1.74565450427E-01
3.01000000000E+09 -3.16558521112E-01 +5.38252216448E-02 +1.76978890530E-03 -1.67924524344E-03 +1.65850339658E-03 -1.51003126277E-03 -3.26624072356E-01 -1.40070022764E-01
3.01500000000E+09 -3.23890473775E-01 +8.61632119036E-02 +1.31782645526E-03 -1.61986432445E-03 +1.36438431470E-03 -1.50895984163E-03 -3.50416391320E-01 -1.05018696288E-01
3.02000000000E+09 -3.27471248478E-01 +1.17482716118E-01 +1.19859122874E-03 -1.63456816723E-03 +1.31668404882E-03 -1.58864589068E-03 -3.71203183345E-01 -6.77801303369E-02
3.02500000000E+09 -3.28449821949E-01 +1.46982510620E-01 +1.21395071053E-03 -1.72595627443E-03 +1.26729495252E-03 -1.75312824109E-03 -3.88592513152E-01 -3.04345683677E-02
3.03000000000E+09 -3.27326143270E-01 +1.74458405943E-01 +9.71553479180E-04 -1.96322617147E-03 +9.51131595970E-04 -1.95428841577E-03 -4.03938235573E-01 +9.03344577118E-03
3.03500000000E+09 -3.24345384529E-01 +2.02233632041E-01 +8.21811398531E-04 -1.90766362291E-03 +7.86376412107E-04 -1.88159118279E-03 -4.15661714027E-01 +4.92769862331E-02
3.04000000000E+09 -3.17895663807E-01 +2.30604648410E-01 +5.19577183521E-04 -2.27072887225E-03 +5.83100891545E-04 -2.24888400885E-03 -4.22797730884E-01 +8.93132258665E-02
3.04500000000E+09 -3.08698904825E-01 +2.58138939206E-01 +4.58244068563E-05 -1.84705717625E-03 +7.30040661284E-05 -1.96051603716E-03 -4.28832411047E-01 +1.27732586438E-01
3.05000000000E+09 -2.97887929008E-01 +2.87100091561E-01 +3.29644502901E-04 -1.66984494094E-03 +3.18560853856E-04 -1.78217359874E-03 -4.32524400360E-01 +1.65684740875E-01
3.05500000000E+09 -2.84427232965E-01 +3.15386811263E-01 +4.90441063829E-04 -2.01517739193E-03 +3.56610605792E-04 -2.07610970737E-03 -4.34270151216E-01 +2.03975597086E-01
3.06000000000E+09 -2.70891837494E-01 +3.42943513522E-01 +2.10531187263E-04 -2.47947745601E-03 +8.20120611988E-05 -2.41788330384E-03 -4.33428376424E-01 +2.41317711539E-01
3.06500000000E+09 -2.56777372664E-01 +3.69728585468E-01 -2.06412629858E-04 -2.76707576099E-03 -1.97520400842E-04 -2.59579479438E-03 -4.29908677122E-01 +2.78469605858E-01
3.07000000000E+09 -2.43690498563E-01 +3.93987079397E-01 -1.18032218592E-03 -2.69146633506E-03 -1.01628822697E-03 -2.71490801511E-03 -4.24110103746E-01 +3.14253582058E-01
