# Hz S RI R 50
! CMT, C1220, 16058040, 17.2.0/1
! Date: 15/08/2018 10:40:43
! Data: Format (Calibration Info)
! Freq                      S11: Re/Im (F2)                       S21: Re/Im (F2)                       S12: Re/Im (F2)                       S22: Re/Im (F2)            
2.50000000000E+09 +5.92977817841E-01 +6.49879851866E-01 -1.71341912727E-04 -2.56875009641E-04 -1.75579590936E-04 -3.12533405570E-04 +5.64143827018E-01 +7.25459457371E-01
2.50500000000E+09 +5.99798581210E-01 +6.41729706784E-01 -2.02495469302E-04 -2.39376821661E-04 -2.14550047777E-04 -2.42776690374E-04 +5.70086896183E-01 +7.19882856667E-01
2.51000000000E+09 +6.07391491295E-01 +6.33278698638E-01 -2.48740583188E-04 -2.25787292018E-04 -2.04938020195E-04 -2.44810502728E-04 +5.76033918924E-01 +7.14524013128E-01
2.51500000000E+09 +6.15255816486E-01 +6.25508048225E-01 -2.53247327606E-04 -2.56053216401E-04 -2.18590746896E-04 -2.40358820100E-04 +5.81513803967E-01 +7.09066675954E-01
2.52000000000E+09 +6.22225337335E-01 +6.18062594474E-01 -2.64689983875E-04 -2.26967602087E-04 -2.73834473821E-04 -2.67751235832E-04 +5.86946434275E-01 +7.03070903757E-01
2.52500000000E+09 +6.28056872334E-01 +6.11718792550E-01 -3.34342219096E-04 -2.31109783144E-04 -3.65922411673E-04 -2.52316787051E-04 +5.92990051805E-01 +6.96547300235E-01
2.53000000000E+09 +6.32938348663E-01 +6.05901741956E-01 -3.64797160969E-04 -2.11795548341E-04 -3.58390492023E-04 -2.50962342051E-04 +5.99331177591E-01 +6.89323372574E-01
2.53500000000E+09 +6.36937564363E-01 +6.00471333291E-01 -4.24251879766E-04 -1.25532490348E-04 -4.33600292166E-04 -1.56456558663E-04 +6.05342522474E-01 +6.82292940028E-01
2.54000000000E+09 +6.40210953338E-01 +5.94603997916E-01 -4.28016826876E-04 -6.60415440147E-05 -4.17176709983E-04 -8.76904581837E-05 +6.11180113954E-01 +6.75547885354E-01
2.54500000000E+09 +6.43772314838E-01 +5.88514635849E-01 -4.60355100145E-04 -2.93893946711E-05 -5.08077969900E-04 -3.82943502712E-05 +6.16657270404E-01 +6.69063535686E-01
2.55000000000E+09 +6.48139441365E-01 +5.81134767755E-01 -4.25346294334E-04 +7.57313861246E-05 -4.94982710117E-04 -2.84021047694E-06 +6.21776365846E-01 +6.62982608188E-01
2.55500000000E+09 +6.53513830587E-01 +5.72096572096E-01 -4.04872143688E-04 +1.13956454054E-04 -4.80600803932E-04 +9.53594436084E-05 +6.26814634070E-01 +6.56523497590E-01
2.56000000000E+09 +6.60126637854E-01 +5.62541960780E-01 -3.55203112239E-04 +2.56835864708E-05 -3.98447248624E-04 +5.00117739166E-05 +6.31865177129E-01 +6.49464209856E-01
2.56500000000E+09 +6.67599865847E-01 +5.52081937405E-01 -4.32181116727E-04 +2.15156560548E-05 -4.54265710777E-04 +7.06614563326E-05 +6.37039844795E-01 +6.42019748915E-01
2.57000000000E+09 +6.75284807717E-01 +5.42026038251E-01 -4.86813795045E-04 +2.88494128861E-05 -4.89042897983E-04 +1.58190215024E-04 +6.42224638820E-01 +6.34219728586E-01
2.57500000000E+09 +6.83040612802E-01 +5.32714086942E-01 -5.59074399495E-04 +1.44934073288E-04 -4.79226119273E-04 +1.43589735634E-04 +6.47511240776E-01 +6.26865317050E-01
2.58000000000E+09 +6.89566375331E-01 +5.24615473854E-01 -5.79476292557E-04 +1.75208792666E-04 -5.01335370362E-04 +1.59578801203E-04 +6.52705388845E-01 +6.19809504023E-01
2.58500000000E+09 +6.94929104919E-01 +5.17448184261E-01 -6.01644661507E-04 +2.73925854366E-04 -5.61946096103E-04 +2.13542302298E-04 +6.57838476400E-01 +6.12503428930E-01
2.59000000000E+09 +6.98967451260E-01 +5.11542691335E-01 -6.26435729538E-04 +3.83951644338E-04 -6.26527879041E-04 +3.30830231599E-04 +6.62842034881E-01 +6.05259228185E-01
2.59500000000E+09 +7.02384940663E-01 +5.05566779297E-01 -5.94342065699E-04 +5.43461042358E-04 -6.30168695643E-04 +4.70847012657E-04 +6.68241533872E-01 +5.97526381189E-01
2.60000000000E+09 +7.04806411640E-01 +4.98856897770E-01 -5.32409130708E-04 +6.51073864069E-04 -4.84340874169E-04 +6.33175416305E-04 +6.73893126153E-01 +5.89292661065E-01
2.60500000000E+09 +7.07424602552E-01 +4.90528745164E-01 -4.74118863462E-04 +6.55745298556E-04 -3.87880505823E-04 +6.34875348283E-04 +6.79647165396E-01 +5.80417278093E-01
2.61000000000E+09 +7.10365489184E-01 +4.80195841402E-01 -4.51593263377E-04 +7.51726291986E-04 -4.68560052211E-04 +7.33509828308E-04 +6.85160143702E-01 +5.71524855824E-01
2.61500000000E+09 +7.14492355200E-01 +4.67783678150E-01 -2.59644679154E-04 +8.17651293281E-04 -3.09993139211E-04 +8.46558732514E-04 +6.90248881641E-01 +5.62648551134E-01
2.62000000000E+09 +7.19164482863E-01 +4.53415301888E-01 -2.52274462785E-04 +7.74018973082E-04 -2.33669360038E-04 +7.93769025389E-04 +6.95440315590E-01 +5.53481889657E-01
2.62500000000E+09 +7.24385978283E-01 +4.38185187504E-01 -1.94173697269E-04 +8.30779234627E-04 -1.86389510472E-04 +9.30028740341E-04 +7.00246205080E-01 +5.44269916005E-01
2.63000000000E+09 +7.29979489770E-01 +4.22870785997E-01 -1.65281813872E-04 +1.02618287103E-03 -5.74226541819E-05 +9.98469409715E-04 +7.05144634633E-01 +5.34773976432E-01
2.63500000000E+09 +7.35181324717E-01 +4.08617602205E-01 -1.03145178241E-04 +9.88400894537E-04 +3.73773010779E-06 +8.69120278150E-04 +7.09489403195E-01 +5.25320304197E-01
2.64000000000E+09 +7.39738931613E-01 +3.96349008592E-01 +2.56120400207E-05 +1.19647832753E-03 +1.57003767030E-05 +1.06972298180E-03 +7.14060181809E-01 +5.15389040349E-01
2.64500000000E+09 +7.43884115911E-01 +3.86013882319E-01 +3.69825220605E-04 +1.18758020713E-03 +2.66789178875E-04 +1.11664482503E-03 +7.18553766736E-01 +5.05504739431E-01
2.65000000000E+09 +7.46801113115E-01 +3.77036152700E-01 +5.29914289183E-04 +1.01082443284E-03 +3.90986483311E-04 +1.01573588783E-03 +7.22482237377E-01 +4.95323972749E-01
2.65500000000E+09 +7.49007756856E-01 +3.68688097725E-01 +4.99366605447E-04 +9.01306620489E-04 +4.16694205692E-04 +9.81208496451E-04 +7.26343657412E-01 +4.84853638686E-01
2.66000000000E+09 +7.50687789803E-01 +3.60352644849E-01 +4.72863358475E-04 +1.01594247319E-03 +4.32894381247E-04 +1.10535155720E-03 +7.30225818819E-01 +4.73734290486E-01
2.66500000000E+09 +7.52375026429E-01 +3.51035297625E-01 +6.17324006070E-04 +1.12403447216E-03 +7.25615126227E-04 +1.13026394807E-03 +7.34307582374E-01 +4.62685473053E-01
2.67000000000E+09 +7.53810989792E-01 +3.39413854510E-01 +9.13756040279E-04 +1.15732923125E-03 +9.64146345405E-04 +1.01379746832E-03 +7.38367317461E-01 +4.51834856974E-01
2.67500000000E+09 +7.55356264294E-01 +3.25940133168E-01 +1.13964527060E-03 +9.98123479069E-04 +1.09493501835E-03 +8.97723830376E-04 +7.42447700267E-01 +4.41130995604E-01
2.68000000000E+09 +7.57106913806E-01 +3.10151783306E-01 +1.35121052971E-03 +7.21712745661E-04 +1.28128566895E-03 +7.07094341597E-04 +7.46254588010E-01 +4.30141784645E-01
2.68500000000E+09 +7.58756535568E-01 +2.93234149081E-01 +1.23667930121E-03 +6.35099855019E-04 +1.19937295726E-03 +6.31298966875E-04 +7.49557347230E-01 +4.18877567126E-01
2.69000000000E+09 +7.60370167568E-01 +2.75964140636E-01 +1.28845370579E-03 +6.53843708286E-04 +1.33373366834E-03 +6.64118741204E-04 +7.52192724158E-01 +4.07249240155E-01
2.69500000000E+09 +7.61855765117E-01 +2.59369071628E-01 +1.60812628834E-03 +6.71253964407E-04 +1.60351327058E-03 +6.48662003441E-04 +7.55262778272E-01 +3.95015089581E-01
2.70000000000E+09 +7.63225677136E-01 +2.43488227252E-01 +1.90662168191E-03 +3.24025069209E-04 +1.84999083761E-03 +3.58048430067E-04 +7.58475983780E-01 +3.81713069050E-01
2.70500000000E+09 +7.64368524532E-01 +2.29097409282E-01 +1.99164693491E-03 +4.41632764345E-05 +1.95970212487E-03 +1.07289234506E-04 +7.61285752403E-01 +3.68525317371E-01
2.71000000000E+09 +7.65339910622E-01 +2.15461924744E-01 +2.01818859152E-03 -3.99623556021E-04 +2.06036346249E-03 -3.25659130897E-04 +7.64438748716E-01 +3.55479688043E-01
2.71500000000E+09 +7.65866395953E-01 +2.01884298122E-01 +1.79801268426E-03 -7.42077611951E-04 +1.91543477938E-03 -8.20860923485E-04 +7.67010428050E-01 +3.42925555346E-01
2.72000000000E+09 +7.65789847811E-01 +1.88574780811E-01 +1.68521457305E-03 -7.33774371971E-04 +1.73053612080E-03 -8.42922089244E-04 +7.68940859086E-01 +3.30301606217E-01
2.72500000000E+09 +7.65579274323E-01 +1.74183178897E-01 +1.87619439041E-03 -8.93617655226E-04 +1.74417403864E-03 -1.09289071350E-03 +7.70549326639E-01 +3.16954414612E-01
2.73000000000E+09 +7.64440762882E-01 +1.58557237868E-01 +1.78327805913E-03 -1.41101827139E-03 +1.53780053218E-03 -1.44906910670E-03 +7.71922408367E-01 +3.02927850106E-01
2.73500000000E+09 +7.62401927610E-01 +1.41411203723E-01 +1.34300971319E-03 -1.61102248106E-03 +1.13121515473E-03 -1.44694258789E-03 +7.73579807045E-01 +2.88084261774E-01
2.74000000000E+09 +7.59769574078E-01 +1.23773595724E-01 +1.11965176004E-03 -1.58447972035E-03 +1.10522442247E-03 -1.32347622111E-03 +7.75277759556E-01 +2.72731482003E-01
2.74500000000E+09 +7.55957644901E-01 +1.05327942084E-01 +1.20480823357E-03 -1.68541861338E-03 +1.34699900615E-03 -1.44686469904E-03 +7.76653967901E-01 +2.57190679002E-01
2.75000000000E+09 +7.51492507476E-01 +8.71822027972E-02 +1.23472494437E-03 -2.07078737444E-03 +1.46394499670E-03 -1.98259122571E-03 +7.77584730266E-01 +2.41514256281E-01
2.75500000000E+09 +7.46505833991E-01 +6.92240620097E-02 +7.73277961279E-04 -2.41781888394E-03 +1.02953605385E-03 -2.56709021618E-03 +7.77101746142E-01 +2.25719319695E-01
2.76000000000E+09 +7.41291735025E-01 +5.16286010031E-02 +2.65654808916E-04 -2.56719087369E-03 +2.77859616672E-04 -2.76899893576E-03 +7.76129518887E-01 +2.10397602272E-01
2.76500000000E+09 +7.35600634288E-01 +3.39176217339E-02 -1.33728509297E-04 -2.35474664414E-03 -1.96565703351E-04 -2.51257716864E-03 +7.75241346445E-01 +1.93813168886E-01
2.77000000000E+09 +7.29343812560E-01 +1.54021771566E-02 -3.80111616450E-04 -2.25969388799E-03 -4.10025556451E-04 -2.36487783025E-03 +7.73741434257E-01 +1.76381980055E-01
2.77500000000E+09 +7.22322607362E-01 -3.46979622462E-03 -5.67874180749E-04 -2.22275493536E-03 -7.15829405613E-04 -2.29199645210E-03 +7.71483940903E-01 +1.58689466904E-01
2.78000000000E+09 +7.15416003089E-01 -2.32277093293E-02 -8.48034679914E-04 -2.14036611250E-03 -9.53878791786E-04 -2.13296257294E-03 +7.69306817177E-01 +1.41041128091E-01
2.78500000000E+09 +7.07885274379E-01 -4.42827223279E-02 -1.09740952157E-03 -1.91375630843E-03 -1.16083168402E-03 -1.86923920404E-03 +7.66461300884E-01 +1.23880401695E-01
2.79000000000E+09 +6.99515203717E-01 -6.61647092296E-02 -1.05876966897E-03 -1.82138354788E-03 -1.05706905545E-03 -1.69394014264E-03 +7.62951861954E-01 +1.07133506237E-01
2.79500000000E+09 +6.90875288605E-01 -8.76392354506E-02 -1.08215398197E-03 -1.99673027030E-03 -1.08901800811E-03 -1.85048239459E-03 +7.59104478862E-01 +8.97923290049E-02
2.80000000000E+09 +6.81199747652E-01 -1.08670749643E-01 -1.52864551019E-03 -1.97799297563E-03 -1.44033471206E-03 -1.95102859058E-03 +7.54339100216E-01 +7.20758728262E-02
2.80500000000E+09 +6.71092851239E-01 -1.28222621583E-01 -1.86286457200E-03 -1.92548692580E-03 -1.78568966270E-03 -1.96937774465E-03 +7.48942406444E-01 +5.37679544672E-02
2.81000000000E+09 +6.59841742268E-01 -1.46046001471E-01 -2.35968614382E-03 -1.57178166828E-03 -2.40799328650E-03 -1.62533683303E-03 +7.43705762464E-01 +3.52247646741E-02
2.81500000000E+09 +6.47224404334E-01 -1.62298404880E-01 -2.38864048406E-03 -1.13763798731E-03 -2.41799267900E-03 -1.10099595254E-03 +7.37812422588E-01 +1.55074072866E-02
2.82000000000E+09 +6.33050134304E-01 -1.77085912593E-01 -2.59418244257E-03 -9.94094148408E-04 -2.58626538782E-03 -8.92212821178E-04 +7.31238788692E-01 -4.39827186558E-03
2.82500000000E+09 +6.17437511136E-01 -1.91180452381E-01 -2.69617582688E-03 -6.75372474139E-04 -2.69411963356E-03 -5.54872894015E-04 +7.23585516321E-01 -2.47218091279E-02
2.83000000000E+09 +6.00107136115E-01 -2.06403955159E-01 -2.98515680073E-03 -3.71261434125E-04 -2.83664375046E-03 -4.28750346764E-04 +7.15096393088E-01 -4.49712594297E-02
2.83500000000E+09 +5.80020353672E-01 -2.23141384579E-01 -3.07712917375E-03 +3.87874798210E-04 -2.97276612558E-03 +2.21664100826E-04 +7.05364709433E-01 -6.59729931098E-02
2.84000000000E+09 +5.57551743934E-01 -2.40824105848E-01 -2.69136512795E-03 +7.22791900483E-04 -2.65146851012E-03 +6.26699621594E-04 +6.94241294331E-01 -8.74025318690E-02
2.84500000000E+09 +5.32853395268E-01 -2.60025336586E-01 -2.45229302531E-03 +7.32903098199E-04 -2.43731644196E-03 +7.38830010795E-04 +6.81316222248E-01 -1.08596618376E-01
2.85000000000E+09 +5.06531081583E-01 -2.79109259278E-01 -2.60278767517E-03 +9.21350565248E-04 -2.61120770960E-03 +9.65905092965E-04 +6.67364887085E-01 -1.29478029687E-01
2.85500000000E+09 +4.79424801335E-01 -2.97824932716E-01 -2.67175383792E-03 +1.27173323961E-03 -2.61701163846E-03 +1.22036705622E-03 +6.51993393283E-01 -1.49739418542E-01
2.86000000000E+09 +4.52470081903E-01 -3.14259154222E-01 -2.54462566518E-03 +1.90064930986E-03 -2.48108169253E-03 +1.82729832872E-03 +6.36558266903E-01 -1.69675537886E-01
2.86500000000E+09 +4.27567222057E-01 -3.28487715010E-01 -2.06907881882E-03 +2.02984049734E-03 -2.09775432058E-03 +1.97322146527E-03 +6.19334197651E-01 -1.90548503005E-01
2.87000000000E+09 +4.03063916186E-01 -3.42110204648E-01 -1.99990894977E-03 +2.44393832452E-03 -2.08981508558E-03 +2.52095714137E-03 +6.00532046027E-01 -2.10600358567E-01
2.87500000000E+09 +3.77732375301E-01 -3.52424809429E-01 -1.36346622776E-03 +2.31240761884E-03 -1.24476657857E-03 +2.35879399950E-03 +5.80107504521E-01 -2.30285018339E-01
2.88000000000E+09 +3.52596358870E-01 -3.60845308117E-01 -1.72676275828E-03 +2.31145773380E-03 -1.57525876056E-03 +2.28425393505E-03 +5.59331895648E-01 -2.48477462573E-01
2.88500000000E+09 +3.24828172211E-01 -3.67841959900E-01 -1.35968709176E-03 +3.23728164091E-03 -1.30170494482E-03 +3.09300786194E-03 +5.37305388376E-01 -2.67618905197E-01
2.89000000000E+09 +2.94165320103E-01 -3.71475914352E-01 -6.31150243493E-04 +3.25685021154E-03 -6.63187914082E-04 +3.07558604670E-03 +5.12467243605E-01 -2.85639753569E-01
2.89500000000E+09 +2.63293764247E-01 -3.73577234515E-01 -2.70958703122E-04 +3.14953208779E-03 -3.57078967729E-04 +3.02495211255E-03 +4.86634384294E-01 -3.02873741638E-01
2.90000000000E+09 +2.29891599049E-01 -3.75111458159E-01 +1.46564248730E-04 +3.16764091011E-03 +4.30113845215E-05 +3.13511982255E-03 +4.59733358463E-01 -3.20170805280E-01
2.90500000000E+09 +1.94078093915E-01 -3.75821861964E-01 +2.94255386021E-04 +3.15766998486E-03 +2.87786344358E-04 +3.17949966040E-03 +4.31185228802E-01 -3.36700353113E-01
2.91000000000E+09 +1.58356390203E-01 -3.74417473103E-01 +9.59246532001E-04 +3.41514648053E-03 +9.96017798205E-04 +3.40040765540E-03 +4.01375423851E-01 -3.53128576865E-01
2.91500000000E+09 +1.21693695576E-01 -3.72432574852E-01 +1.49872211173E-03 +3.05009935845E-03 +1.47277276842E-03 +2.85481473479E-03 +3.68217523325E-01 -3.67065563576E-01
2.92000000000E+09 +8.56589603117E-02 -3.67098243644E-01 +2.00144841303E-03 +2.99810386902E-03 +1.81917330449E-03 +2.90590872737E-03 +3.33496096037E-01 -3.78173299178E-01
2.92500000000E+09 +5.20146548472E-02 -3.58463666194E-01 +2.47929419294E-03 +2.03040988661E-03 +2.28082194163E-03 +2.03744908894E-03 +2.97684848135E-01 -3.85990789249E-01
2.93000000000E+09 +2.14007741567E-02 -3.48181318339E-01 +2.02501985955E-03 +1.82787506692E-03 +1.94230550548E-03 +1.93854998617E-03 +2.61325888436E-01 -3.93133400902E-01
2.93500000000E+09 -8.44735724029E-03 -3.36839558040E-01 +2.36757466095E-03 +1.76434854747E-03 +2.36017184821E-03 +1.86996327727E-03 +2.22653609133E-01 -3.99239770537E-01
2.94000000000E+09 -3.81955030808E-02 -3.22101646117E-01 +2.60288078128E-03 +1.19275321652E-03 +2.67074955792E-03 +1.30773929444E-03 +1.81201943584E-01 -4.02441529898E-01
2.94500000000E+09 -6.67871130141E-02 -3.05251078609E-01 +2.40693268910E-03 +1.25481399293E-03 +2.36065351782E-03 +1.32809050367E-03 +1.41449303027E-01 -4.01641185505E-01
2.95000000000E+09 -9.69066465078E-02 -2.85252461338E-01 +3.07901233474E-03 +8.74947967023E-04 +3.03436546964E-03 +1.00384819163E-03 +1.00865787309E-01 -3.99983570916E-01
2.95500000000E+09 -1.25554039450E-01 -2.61032889950E-01 +2.77409044107E-03 +3.69175998050E-04 +2.79172414829E-03 +5.30662953413E-04 +5.98689420122E-02 -3.94476402060E-01
2.96000000000E+09 -1.52186189682E-01 -2.36088734300E-01 +2.90093731017E-03 -2.55371351292E-04 +2.98561427201E-03 -2.20206452443E-04 +1.79727222368E-02 -3.85775304787E-01
2.96500000000E+09 -1.78097311314E-01 -2.09141277288E-01 +2.21491932891E-03 -3.71960800507E-04 +2.27009759492E-03 -3.90932557792E-04 -2.33264091556E-02 -3.72610613717E-01
2.97000000000E+09 -2.01129917136E-01 -1.81465256631E-01 +2.37981977126E-03 -2.23498349565E-04 +2.35664676474E-03 -3.16189333376E-04 -6.30516720673E-02 -3.56691951704E-01
2.97500000000E+09 -2.21684156578E-01 -1.53462167429E-01 +2.27542875580E-03 -6.31679186141E-04 +2.22611162446E-03 -6.11924585302E-04 -1.01511904194E-01 -3.39848136140E-01
2.98000000000E+09 -2.41621915276E-01 -1.25856735249E-01 +2.02646258137E-03 -2.91154684804E-04 +1.98763908527E-03 -2.96286650081E-04 -1.40150393917E-01 -3.20437685861E-01
2.98500000000E+09 -2.59392879418E-01 -9.56160153937E-02 +2.70494733402E-03 -4.76842416385E-04 +2.70915291839E-03 -4.23600486502E-04 -1.77612649416E-01 -2.97742568464E-01
2.99000000000E+09 -2.74061649661E-01 -6.45256823448E-02 +2.56274354337E-03 -1.38486556383E-03 +2.74727836467E-03 -1.42647194418E-03 -2.13110487582E-01 -2.71434226301E-01
2.99500000000E+09 -2.86551345807E-01 -3.30755196901E-02 +2.00955049630E-03 -1.43037770222E-03 +2.01548875063E-03 -1.50718109749E-03 -2.46560571731E-01 -2.41652580836E-01
3.00000000000E+09 -2.97801579186E-01 -1.54818191884E-03 +2.28151639151E-03 -1.48082512113E-03 +2.21145786305E-03 -1.59149152042E-03 -2.77075437461E-01 -2.09520078286E-01
3.00500000000E+09 -3.07373265071E-01 +3.07080687549E-02 +1.99074628511E-03 -1.83325927270E-03 +1.88086003428E-03 -1.81545963527E-03 -3.05798446907E-01 -1.76819618218E-01
3.01000000000E+09 -3.14696058426E-01 +6.21476881791E-02 +2.08661281022E-03 -2.38347271604E-03 +2.00644844625E-03 -2.24827698555E-03 -3.32140858881E-01 -1.40986179095E-01
3.01500000000E+09 -3.21037561720E-01 +9.36060036509E-02 +1.32090337796E-03 -2.67993868734E-03 +1.39675407498E-03 -2.61004844383E-03 -3.55590216558E-01 -1.05629285880E-01
3.02000000000E+09 -3.23741622881E-01 +1.24035575501E-01 +8.63420869402E-04 -2.60032549488E-03 +9.53019117926E-04 -2.63212057399E-03 -3.76710688752E-01 -6.79393984480E-02
3.02500000000E+09 -3.24317550814E-01 +1.52328438903E-01 +8.50799448958E-04 -2.35607670813E-03 +9.34677500334E-04 -2.38452620650E-03 -3.94039660763E-01 -3.00566599251E-02
3.03000000000E+09 -3.23247577664E-01 +1.79185397032E-01 +7.09639828250E-04 -2.74173972314E-03 +7.52803487027E-04 -2.81761280567E-03 -4.09587481925E-01 +9.90722863079E-03
3.03500000000E+09 -3.19937458060E-01 +2.06828855904E-01 +2.81012517252E-04 -2.80175184073E-03 +3.08337004372E-04 -2.76345705621E-03 -4.21401826722E-01 +5.11947460511E-02
3.04000000000E+09 -3.12536646252E-01 +2.34960515851E-01 -1.52782799960E-04 -3.14905435449E-03 -1.11925207031E-04 -3.24689474894E-03 -4.28251792143E-01 +9.22982529858E-02
3.04500000000E+09 -3.02454279217E-01 +2.61269961836E-01 -9.62666084177E-04 -2.56031189116E-03 -1.02587108768E-03 -2.73290366919E-03 -4.33735182475E-01 +1.31384142061E-01
3.05000000000E+09 -2.91705319979E-01 +2.89474909513E-01 -7.23624047916E-04 -2.01533592246E-03 -8.64184458017E-04 -2.10558421348E-03 -4.36791903879E-01 +1.70157504245E-01
3.05500000000E+09 -2.77669536856E-01 +3.16922538322E-01 -5.81145718142E-04 -2.27469451300E-03 -7.60373847917E-04 -2.25184168545E-03 -4.38005599362E-01 +2.08837800947E-01
3.06000000000E+09 -2.64381953108E-01 +3.43234257838E-01 -9.80801735204E-04 -2.37358001079E-03 -1.04220761561E-03 -2.27526843000E-03 -4.36601033230E-01 +2.46545654668E-01
3.06500000000E+09 -2.50609060856E-01 +3.69727680242E-01 -1.24756482641E-03 -2.47075722734E-03 -1.22250567538E-03 -2.36236938602E-03 -4.32538435168E-01 +2.84257331788E-01
3.07000000000E+09 -2.37768209093E-01 +3.93877051429E-01 -2.12896387732E-03 -2.41849335439E-03 -1.95722960770E-03 -2.46299651273E-03 -4.26046642974E-01 +3.20474112413E-01
