# Hz S RI R 50
! CMT, C1220, 16058040, 17.2.0/1
! Date: 15/08/2018 10:41:36
! Data: Format (Calibration Info)
! Freq                      S11: Re/Im (F2)                       S21: Re/Im (F2)                       S12: Re/Im (F2)                       S22: Re/Im (F2)            
2.50000000000E+09 +5.92367952219E-01 +6.48978236481E-01 -2.22944554166E-05 -3.30745301834E-04 -1.52149269263E-05 -3.80443143766E-04 +5.63874568278E-01 +7.25159866139E-01
2.50500000000E+09 +5.99239837239E-01 +6.40763359341E-01 -9.69272345566E-05 -4.36161170860E-04 -1.14393002409E-04 -4.10771895672E-04 +5.69720341043E-01 +7.19671305204E-01
2.51000000000E+09 +6.06600064003E-01 +6.32411047233E-01 -2.11257732284E-04 -4.55570454299E-04 -1.62063294542E-04 -4.19723777942E-04 +5.75727078303E-01 +7.14265706347E-01
2.51500000000E+09 +6.14374584370E-01 +6.24630123823E-01 -2.91669637677E-04 -4.07415359094E-04 -2.56192184379E-04 -4.24959684951E-04 +5.81227763647E-01 +7.08771100654E-01
2.52000000000E+09 +6.21388748172E-01 +6.17101839403E-01 -3.53261018685E-04 -3.67657264785E-04 -2.88878297693E-04 -4.14562604294E-04 +5.86606289799E-01 +7.02822314594E-01
2.52500000000E+09 +6.27237004941E-01 +6.10620726836E-01 -4.14494284525E-04 -3.57841030251E-04 -4.31311186890E-04 -3.78720543784E-04 +5.92650759875E-01 +6.96298972852E-01
2.53000000000E+09 +6.31944948828E-01 +6.04902127634E-01 -4.54738434066E-04 -3.09946803148E-04 -4.52435593110E-04 -3.19891786071E-04 +5.98848685138E-01 +6.89196555965E-01
2.53500000000E+09 +6.36017083721E-01 +5.99467337890E-01 -5.59888983507E-04 -2.44864294608E-04 -5.51861579583E-04 -2.51672493975E-04 +6.04848928505E-01 +6.82016699427E-01
2.54000000000E+09 +6.39354170098E-01 +5.93556144802E-01 -5.24225166606E-04 -1.15736374612E-04 -5.20321998011E-04 -1.46040822812E-04 +6.10612303280E-01 +6.75214595240E-01
2.54500000000E+09 +6.42939365659E-01 +5.87272936766E-01 -5.29008936535E-04 -1.46180899489E-04 -5.28238300931E-04 -1.65631821796E-04 +6.15866353569E-01 +6.68913398484E-01
2.55000000000E+09 +6.47123035361E-01 +5.79579260904E-01 -5.26507278086E-04 -5.16642506918E-05 -5.64509024297E-04 -7.90498827647E-05 +6.21060030569E-01 +6.62838248813E-01
2.55500000000E+09 +6.52336081761E-01 +5.70503173297E-01 -5.31135152137E-04 -2.89644909468E-05 -6.52821165193E-04 -4.97339309177E-05 +6.25986750184E-01 +6.56462383453E-01
2.56000000000E+09 +6.58817399096E-01 +5.60903828542E-01 -5.26039674269E-04 +3.30759377112E-06 -6.51781260781E-04 +1.71330907936E-06 +6.30999549714E-01 +6.49498067804E-01
2.56500000000E+09 +6.66173904835E-01 +5.50561707231E-01 -5.69378004941E-04 -1.29386559633E-05 -6.02349182887E-04 +7.76625255541E-05 +6.36417232858E-01 +6.42158710541E-01
2.57000000000E+09 +6.73803336057E-01 +5.40406026220E-01 -5.75045430366E-04 +6.93512150462E-05 -5.58984175804E-04 +1.51648945042E-04 +6.41441777318E-01 +6.34353170781E-01
2.57500000000E+09 +6.81434418746E-01 +5.31083061322E-01 -6.19845313713E-04 +7.82821127695E-05 -5.16700117737E-04 +1.44888336583E-04 +6.46730502163E-01 +6.27150596623E-01
2.58000000000E+09 +6.87842691508E-01 +5.22844167291E-01 -6.89300237771E-04 +1.11612197185E-04 -6.03346516505E-04 +1.38521503880E-04 +6.51856557132E-01 +6.20101612370E-01
2.58500000000E+09 +6.93089839706E-01 +5.15762142756E-01 -7.74862051465E-04 +2.56453687798E-04 -7.10379716768E-04 +1.49127130670E-04 +6.57018931052E-01 +6.12845302541E-01
2.59000000000E+09 +6.97008672654E-01 +5.09805191885E-01 -7.65953046951E-04 +4.13709681294E-04 -7.37200033262E-04 +2.94378695958E-04 +6.62175195311E-01 +6.05689367621E-01
2.59500000000E+09 +7.00208986135E-01 +5.03878737337E-01 -6.77954758414E-04 +5.42235307748E-04 -7.26263778705E-04 +4.60594221730E-04 +6.67460173347E-01 +5.98023163863E-01
2.60000000000E+09 +7.02449390636E-01 +4.97177483871E-01 -6.29105124758E-04 +5.52544035114E-04 -7.21236454192E-04 +5.40361442310E-04 +6.73284282935E-01 +5.89783252880E-01
2.60500000000E+09 +7.04883726179E-01 +4.88980791691E-01 -6.63072522720E-04 +6.04035678640E-04 -6.77594612034E-04 +5.86196021294E-04 +6.79113569322E-01 +5.80903610816E-01
2.61000000000E+09 +7.07717795453E-01 +4.78771790785E-01 -6.76337042026E-04 +8.35656567565E-04 -7.21494461379E-04 +8.18045921401E-04 +6.84322327634E-01 +5.71930019874E-01
2.61500000000E+09 +7.11786709240E-01 +4.66535226143E-01 -4.56382424963E-04 +9.85857246872E-04 -4.89808957544E-04 +1.02581733147E-03 +6.89498915057E-01 +5.63359190136E-01
2.62000000000E+09 +7.16152388546E-01 +4.52091458572E-01 -3.51872113059E-04 +8.90898646721E-04 -3.46078819041E-04 +9.13546140150E-04 +6.94728382779E-01 +5.54337603686E-01
2.62500000000E+09 +7.21408163767E-01 +4.36928769084E-01 -3.94173857574E-04 +9.66814028062E-04 -3.76239216698E-04 +1.00190540241E-03 +6.99756733322E-01 +5.45199401987E-01
2.63000000000E+09 +7.26635368394E-01 +4.21748824530E-01 -3.33346216311E-04 +1.09505993511E-03 -1.93007622837E-04 +1.14807422002E-03 +7.04534709377E-01 +5.35730467213E-01
2.63500000000E+09 +7.31485629942E-01 +4.07653413183E-01 -2.72313692793E-04 +1.22214943674E-03 -1.21269298563E-04 +1.16252910776E-03 +7.09141923592E-01 +5.26323401579E-01
2.64000000000E+09 +7.35993330014E-01 +3.95518740619E-01 -3.13195838041E-05 +1.52297504089E-03 +7.05726572057E-06 +1.31806781928E-03 +7.13657474412E-01 +5.16433690509E-01
2.64500000000E+09 +7.39911894122E-01 +3.85342083777E-01 +4.29212784167E-04 +1.46024013862E-03 +2.97804915632E-04 +1.29177765707E-03 +7.18062874162E-01 +5.06590877276E-01
2.65000000000E+09 +7.42754806975E-01 +3.76569890127E-01 +5.47391392927E-04 +1.16993270993E-03 +3.66570366241E-04 +1.13748713279E-03 +7.22312085795E-01 +4.96497212431E-01
2.65500000000E+09 +7.44883309987E-01 +3.68331172027E-01 +4.02715882762E-04 +1.12402281766E-03 +3.85858162048E-04 +1.18885078348E-03 +7.26152350971E-01 +4.86000408372E-01
2.66000000000E+09 +7.46493141347E-01 +3.60060574710E-01 +4.50619171900E-04 +1.22043379216E-03 +4.87499630454E-04 +1.37819499487E-03 +7.30160541633E-01 +4.74897746663E-01
2.66500000000E+09 +7.47744727583E-01 +3.50923998181E-01 +7.62763173873E-04 +1.44330962404E-03 +9.03819970301E-04 +1.44546510785E-03 +7.34311567696E-01 +4.63899196507E-01
2.67000000000E+09 +7.48960921514E-01 +3.39664217992E-01 +1.06758333431E-03 +1.26150007167E-03 +1.13076299203E-03 +1.14950637993E-03 +7.38588527732E-01 +4.53048603072E-01
2.67500000000E+09 +7.50444252870E-01 +3.26437306971E-01 +1.20680457341E-03 +1.11545270231E-03 +1.19457635394E-03 +1.03783336227E-03 +7.42812037879E-01 +4.42187671425E-01
2.68000000000E+09 +7.51898942362E-01 +3.10901409049E-01 +1.32538441462E-03 +8.84640157372E-04 +1.28916030650E-03 +9.27582370322E-04 +7.46698317360E-01 +4.31234638220E-01
2.68500000000E+09 +7.53479613944E-01 +2.94468894538E-01 +1.34045113878E-03 +9.44643106839E-04 +1.31351039171E-03 +9.72920934909E-04 +7.49964164046E-01 +4.19893379118E-01
2.69000000000E+09 +7.55079030360E-01 +2.77586190216E-01 +1.66129175063E-03 +9.16080205698E-04 +1.65640518001E-03 +8.96320801696E-04 +7.52771490680E-01 +4.08200745376E-01
2.69500000000E+09 +7.56636968885E-01 +2.61350708950E-01 +1.88557235739E-03 +6.96022798801E-04 +1.80634116065E-03 +6.76608524349E-04 +7.55941203891E-01 +3.95871832372E-01
2.70000000000E+09 +7.58166724226E-01 +2.45924544411E-01 +2.18780573408E-03 +3.75788251299E-04 +2.03882433932E-03 +3.90559100763E-04 +7.59209133149E-01 +3.82512072750E-01
2.70500000000E+09 +7.59330225727E-01 +2.31698829506E-01 +2.21478738045E-03 -8.20261859062E-06 +2.13954309906E-03 +3.06557098639E-05 +7.62085229651E-01 +3.69311148561E-01
2.71000000000E+09 +7.60244361329E-01 +2.18546597755E-01 +2.10130853183E-03 -3.88220285562E-04 +2.20557230623E-03 -3.02848714111E-04 +7.65261163684E-01 +3.56211487102E-01
2.71500000000E+09 +7.60952621305E-01 +2.05567123503E-01 +1.94570058964E-03 -6.51828864069E-04 +2.10949727865E-03 -6.88806340406E-04 +7.67994364223E-01 +3.43655783357E-01
2.72000000000E+09 +7.61291043526E-01 +1.92646063301E-01 +1.84521341708E-03 -7.33605375573E-04 +1.93072900746E-03 -8.90396964114E-04 +7.70083245754E-01 +3.30935360912E-01
2.72500000000E+09 +7.61222284455E-01 +1.78553518916E-01 +1.96129929366E-03 -8.55303882931E-04 +1.81702183884E-03 -1.04410600942E-03 +7.71790916168E-01 +3.17379097009E-01
2.73000000000E+09 +7.60233327047E-01 +1.63171770895E-01 +2.03666624780E-03 -1.26294078833E-03 +1.75639357022E-03 -1.31753745282E-03 +7.73238476767E-01 +3.03237558070E-01
2.73500000000E+09 +7.58344979475E-01 +1.46272990882E-01 +1.82976553093E-03 -1.62078045539E-03 +1.55074363810E-03 -1.44112614176E-03 +7.74740941432E-01 +2.88205063447E-01
2.74000000000E+09 +7.55727742174E-01 +1.28937079399E-01 +1.43109017757E-03 -1.74895837826E-03 +1.41422643744E-03 -1.49800007710E-03 +7.76403791071E-01 +2.72619427540E-01
2.74500000000E+09 +7.52170595024E-01 +1.10944164792E-01 +1.35778378542E-03 -1.93488495713E-03 +1.59394787260E-03 -1.68852504999E-03 +7.77737529564E-01 +2.57060094005E-01
2.75000000000E+09 +7.47807380685E-01 +9.30725402715E-02 +1.13431998455E-03 -2.19832313006E-03 +1.39044449430E-03 -2.10886405105E-03 +7.78688032556E-01 +2.41255110606E-01
2.75500000000E+09 +7.42717967198E-01 +7.55153557785E-02 +9.23062202686E-04 -2.40134327213E-03 +1.10181917774E-03 -2.52701398464E-03 +7.78381500333E-01 +2.25296850262E-01
2.76000000000E+09 +7.37691831275E-01 +5.83437846227E-02 +3.88338561379E-04 -2.60710292325E-03 +4.99377179243E-04 -2.75609965640E-03 +7.77534092762E-01 +2.09721755793E-01
2.76500000000E+09 +7.32082833552E-01 +4.11188190242E-02 +1.28864373696E-04 -2.46362636022E-03 +1.26070293364E-04 -2.57165258106E-03 +7.76316234473E-01 +1.92891773339E-01
2.77000000000E+09 +7.26116264464E-01 +2.32117278708E-02 -5.77343469750E-05 -2.60172899749E-03 -1.40195131543E-04 -2.69807878145E-03 +7.74707352101E-01 +1.75222048980E-01
2.77500000000E+09 +7.19529413292E-01 +4.51935992126E-03 -5.38735837556E-04 -2.56187144334E-03 -6.53882015544E-04 -2.66726522531E-03 +7.72218339498E-01 +1.57559518454E-01
2.78000000000E+09 +7.12536341198E-01 -1.49434147339E-02 -8.30048848820E-04 -2.32437862972E-03 -9.44267435037E-04 -2.34507993061E-03 +7.69815792969E-01 +1.40078820817E-01
2.78500000000E+09 +7.04897013332E-01 -3.52379651850E-02 -1.04044515679E-03 -2.13382238856E-03 -1.18369629931E-03 -2.02265138148E-03 +7.67013179808E-01 +1.22835635173E-01
2.79000000000E+09 +6.97340647475E-01 -5.57809483914E-02 -1.08631864506E-03 -2.10082625013E-03 -1.11699337907E-03 -1.95110170940E-03 +7.63678194601E-01 +1.05788677111E-01
2.79500000000E+09 +6.89372397171E-01 -7.67948443678E-02 -1.25372102975E-03 -2.15152194157E-03 -1.24222757936E-03 -2.04724684315E-03 +7.59596030169E-01 +8.81205166583E-02
2.80000000000E+09 +6.80729022517E-01 -9.71614550671E-02 -1.68447123852E-03 -2.08057037684E-03 -1.54050817667E-03 -2.02189140098E-03 +7.54495623865E-01 +7.01740826468E-02
2.80500000000E+09 +6.71327068909E-01 -1.16246391956E-01 -1.81639010399E-03 -1.88168383900E-03 -1.71547787607E-03 -1.93673519358E-03 +7.48791700873E-01 +5.19383806964E-02
2.81000000000E+09 +6.61264710575E-01 -1.33825152270E-01 -2.17451832986E-03 -1.72358218416E-03 -2.18514983291E-03 -1.80855909014E-03 +7.43003260135E-01 +3.33860284285E-02
2.81500000000E+09 +6.49315846047E-01 -1.49650467799E-01 -2.47318620846E-03 -1.53817834620E-03 -2.58591950924E-03 -1.53922701164E-03 +7.37047451154E-01 +1.37754198816E-02
2.82000000000E+09 +6.36596496281E-01 -1.64081292432E-01 -2.79129517760E-03 -1.13247296411E-03 -2.86607377054E-03 -9.58453495382E-04 +7.30226764090E-01 -6.10592200771E-03
2.82500000000E+09 +6.22244932609E-01 -1.78627238441E-01 -2.97500382196E-03 -6.62782497271E-04 -2.88261154393E-03 -4.98835481808E-04 +7.22227717409E-01 -2.61621768890E-02
2.83000000000E+09 +6.05500300986E-01 -1.93920971384E-01 -3.10967874140E-03 -2.37961304991E-04 -2.89974509755E-03 -1.89346976747E-04 +7.13638687686E-01 -4.64584920677E-02
2.83500000000E+09 +5.87069757230E-01 -2.10008010520E-01 -2.95820932310E-03 +4.24515553834E-04 -2.86166860299E-03 +3.35882516749E-04 +7.03758956168E-01 -6.72816348240E-02
2.84000000000E+09 +5.66189394065E-01 -2.28305506713E-01 -2.40095484426E-03 +6.48637743960E-04 -2.41674463708E-03 +5.75624412893E-04 +6.92434280915E-01 -8.86185171968E-02
2.84500000000E+09 +5.42916896753E-01 -2.47956939449E-01 -2.39909235899E-03 +3.79796346584E-04 -2.36311802623E-03 +3.99572961077E-04 +6.79033833940E-01 -1.09744986858E-01
2.85000000000E+09 +5.18130998809E-01 -2.68302238427E-01 -2.69722947506E-03 +6.91140045844E-04 -2.64896156064E-03 +6.77225177912E-04 +6.64918062922E-01 -1.29973977955E-01
2.85500000000E+09 +4.91782374948E-01 -2.87715173192E-01 -2.75270021833E-03 +1.19308554518E-03 -2.70301876461E-03 +1.20053436962E-03 +6.49544193853E-01 -1.49810710076E-01
2.86000000000E+09 +4.66046006088E-01 -3.05048389498E-01 -2.43416088380E-03 +1.78006880410E-03 -2.37431812964E-03 +1.69586545792E-03 +6.34262815196E-01 -1.69519433403E-01
2.86500000000E+09 +4.41748179012E-01 -3.20418055478E-01 -2.23900860239E-03 +1.70053469853E-03 -2.24921005663E-03 +1.65927037364E-03 +6.17003619683E-01 -1.90392929483E-01
2.87000000000E+09 +4.17996921815E-01 -3.34449070973E-01 -2.08452163468E-03 +2.55898706976E-03 -2.12224354084E-03 +2.55512950805E-03 +5.97705211159E-01 -2.10303909612E-01
2.87500000000E+09 +3.93991459518E-01 -3.46049776205E-01 -1.15368226317E-03 +2.39193619730E-03 -1.09586757332E-03 +2.40194973053E-03 +5.76976228000E-01 -2.29187173853E-01
2.88000000000E+09 +3.69389271134E-01 -3.55752992031E-01 -1.33015303383E-03 +2.09019546788E-03 -1.19471571166E-03 +2.01627861093E-03 +5.56648952728E-01 -2.46581284612E-01
2.88500000000E+09 +3.42405595372E-01 -3.63603595115E-01 -1.34452456889E-03 +2.57198735104E-03 -1.25326154609E-03 +2.44597824652E-03 +5.34977811875E-01 -2.65546777817E-01
2.89000000000E+09 +3.13001474397E-01 -3.69341340728E-01 -9.74720378374E-04 +2.75128538391E-03 -9.97814634195E-04 +2.59969375679E-03 +5.10395806984E-01 -2.83228204819E-01
2.89500000000E+09 +2.81487590565E-01 -3.73303187525E-01 -6.17259296591E-04 +2.93224444058E-03 -7.23323560245E-04 +2.82676631990E-03 +4.85079090278E-01 -3.00263085782E-01
2.90000000000E+09 +2.48083580206E-01 -3.75990933036E-01 +1.53968762926E-05 +3.09231127861E-03 -1.67737672001E-04 +3.09018679498E-03 +4.58365070794E-01 -3.17421588936E-01
2.90500000000E+09 +2.12643731398E-01 -3.77867798738E-01 +2.50384204570E-04 +2.79325154074E-03 +2.50848472125E-04 +2.90085817370E-03 +4.29988660415E-01 -3.33709358622E-01
2.91000000000E+09 +1.76435173781E-01 -3.78115841258E-01 +6.63697987083E-04 +2.75158338287E-03 +6.69676062510E-04 +2.80039508278E-03 +4.00561154265E-01 -3.49917037239E-01
2.91500000000E+09 +1.40459471013E-01 -3.76793653583E-01 +8.78444709552E-04 +2.81238844613E-03 +9.03680711395E-04 +2.69780912867E-03 +3.67766265950E-01 -3.63574747694E-01
2.92000000000E+09 +1.04831860973E-01 -3.73557319102E-01 +1.63493019435E-03 +2.52292356078E-03 +1.51114666827E-03 +2.41731687297E-03 +3.33623652847E-01 -3.74686255087E-01
2.92500000000E+09 +7.07774856661E-02 -3.67617057661E-01 +1.80779480656E-03 +1.95441358219E-03 +1.62769598693E-03 +1.93464215880E-03 +2.98258946360E-01 -3.82452358379E-01
2.93000000000E+09 +3.84807982733E-02 -3.59275411700E-01 +1.58941551360E-03 +1.47914035254E-03 +1.49952814808E-03 +1.58776371116E-03 +2.62367139751E-01 -3.89680339283E-01
2.93500000000E+09 +7.58229758495E-03 -3.48571383305E-01 +1.53331758303E-03 +1.59592744204E-03 +1.44142039277E-03 +1.68389831869E-03 +2.24330516057E-01 -3.95972458952E-01
2.94000000000E+09 -2.28167299426E-02 -3.35585656966E-01 +1.56709336020E-03 +1.31736354133E-03 +1.57064973567E-03 +1.38082219986E-03 +1.83059486755E-01 -3.99404944362E-01
2.94500000000E+09 -5.32508206841E-02 -3.19880871279E-01 +1.50684103405E-03 +1.68386321501E-03 +1.43140940589E-03 +1.69286770585E-03 +1.43675862315E-01 -3.98717031856E-01
2.95000000000E+09 -8.41708012666E-02 -3.00242093992E-01 +2.29143250778E-03 +1.44601919996E-03 +2.26014991412E-03 +1.50263592448E-03 +1.03584258326E-01 -3.97102987214E-01
2.95500000000E+09 -1.13334515892E-01 -2.78012384936E-01 +2.26396208855E-03 +8.45396997120E-04 +2.27049695058E-03 +9.36020153926E-04 +6.29828506729E-02 -3.91972978563E-01
2.96000000000E+09 -1.42418071242E-01 -2.54548618398E-01 +1.98533926697E-03 +3.94494223393E-04 +2.07477403871E-03 +4.60140635235E-04 +2.16207211351E-02 -3.83552659417E-01
2.96500000000E+09 -1.70051871864E-01 -2.28267677993E-01 +1.68481016170E-03 +7.60289858417E-04 +1.76375674063E-03 +7.95398457880E-04 -1.91150144547E-02 -3.71194423737E-01
2.97000000000E+09 -1.95173144809E-01 -2.01430045096E-01 +2.06051191967E-03 +6.57944116553E-04 +2.04708097771E-03 +5.75252767997E-04 -5.88030235501E-02 -3.56071274607E-01
2.97500000000E+09 -2.18814644422E-01 -1.73477102941E-01 +2.22642598400E-03 +5.72594252594E-04 +2.19075771799E-03 +5.66484921731E-04 -9.73030446722E-02 -3.39845290181E-01
2.98000000000E+09 -2.40154111522E-01 -1.44646109558E-01 +2.24222111525E-03 +5.34120708139E-04 +2.18325971467E-03 +5.30321017554E-04 -1.35957048762E-01 -3.21026278733E-01
2.98500000000E+09 -2.59047684883E-01 -1.14450415110E-01 +2.74198542989E-03 +1.94855631458E-04 +2.75187154696E-03 +3.19076084241E-04 -1.73701820313E-01 -2.98952174201E-01
2.99000000000E+09 -2.75507285010E-01 -8.32286757169E-02 +2.65038253880E-03 -3.00440664794E-04 +2.78953869813E-03 -2.74502021990E-04 -2.09426371599E-01 -2.72823911771E-01
2.99500000000E+09 -2.89694013338E-01 -5.16988944797E-02 +2.60400717987E-03 -5.24121353055E-04 +2.69124104301E-03 -6.40155589789E-04 -2.42791006621E-01 -2.43775653467E-01
3.00000000000E+09 -3.03110424277E-01 -1.90997691318E-02 +2.54226794928E-03 -8.33031329581E-04 +2.51681828272E-03 -9.34936109749E-04 -2.73993084701E-01 -2.12528275780E-01
3.00500000000E+09 -3.13848965350E-01 +1.40788487352E-02 +2.56603648062E-03 -1.16078414323E-03 +2.47599455263E-03 -1.18694818891E-03 -3.03495771860E-01 -1.79861189449E-01
3.01000000000E+09 -3.23082425246E-01 +4.68918676820E-02 +2.41453767031E-03 -1.56411205674E-03 +2.33699262878E-03 -1.46869518605E-03 -3.30404141172E-01 -1.44064848633E-01
3.01500000000E+09 -3.30165519066E-01 +8.00572651759E-02 +2.19371339767E-03 -1.81788324666E-03 +2.24525800531E-03 -1.67500258631E-03 -3.54034568175E-01 -1.08494582896E-01
3.02000000000E+09 -3.33482895379E-01 +1.11854254058E-01 +2.01208258284E-03 -2.23136800869E-03 +2.17750400759E-03 -2.15489222425E-03 -3.75299813736E-01 -7.11257456125E-02
3.02500000000E+09 -3.34546631625E-01 +1.41389594332E-01 +1.55158557252E-03 -2.37319236914E-03 +1.55758298406E-03 -2.41663890370E-03 -3.93083758201E-01 -3.30778434998E-02
3.03000000000E+09 -3.33681007645E-01 +1.69725297531E-01 +1.43948922257E-03 -2.33050402662E-03 +1.47136833025E-03 -2.24003667848E-03 -4.08566356568E-01 +6.76514036387E-03
3.03500000000E+09 -3.30462941459E-01 +1.97927643420E-01 +1.28238055031E-03 -2.56453755096E-03 +1.29591798357E-03 -2.57623509892E-03 -4.20842244192E-01 +4.75566227107E-02
3.04000000000E+09 -3.23829997518E-01 +2.26978187442E-01 +8.67341757295E-04 -2.93009813553E-03 +1.00721632478E-03 -3.02077632316E-03 -4.28218054632E-01 +8.85159696955E-02
3.04500000000E+09 -3.14303812412E-01 +2.54814483043E-01 +2.07607141000E-04 -2.79453288794E-03 +2.94925433943E-04 -3.00214301359E-03 -4.34285631413E-01 +1.27511176708E-01
3.05000000000E+09 -3.03426675144E-01 +2.84220372962E-01 +1.94147553159E-04 -2.56861591748E-03 +1.89599105986E-04 -2.68465026975E-03 -4.38172948582E-01 +1.66455115581E-01
3.05500000000E+09 -2.89755466008E-01 +3.12946575910E-01 +1.15054075208E-04 -2.68138924668E-03 -8.20590860929E-05 -2.75832854257E-03 -4.39920089197E-01 +2.05546274837E-01
3.06000000000E+09 -2.75773228884E-01 +3.41154185707E-01 -6.76571180743E-05 -2.76122346261E-03 -1.93498134131E-04 -2.67452796298E-03 -4.38648478498E-01 +2.43907625978E-01
3.06500000000E+09 -2.61196168647E-01 +3.68168171067E-01 -4.43911876774E-04 -3.22545101578E-03 -3.70531693587E-04 -3.05033234671E-03 -4.34537995156E-01 +2.81593783637E-01
3.07000000000E+09 -2.48002642184E-01 +3.92660171262E-01 -1.38391567552E-03 -3.16837228709E-03 -1.15915069701E-03 -3.17383080229E-03 -4.28588385033E-01 +3.18043819135E-01
