# Hz S RI R 50
! CMT, C1220, 16058040, 17.2.0/1
! Date: 15/08/2018 10:25:05
! Data: Format (Calibration Info)
! Freq                      S11: Re/Im (F2)                       S21: Re/Im (F2)                       S12: Re/Im (F2)                       S22: Re/Im (F2)            
2.50000000000E+09 +5.81908781532E-01 +6.37592715547E-01 +1.27103445475E-04 +1.74513421994E-05 +8.86281430250E-05 +3.38034809792E-05 +5.71500332634E-01 +7.19537929458E-01
2.50500000000E+09 +5.89355207343E-01 +6.29835817978E-01 +1.58041578220E-04 -2.58981695434E-07 +1.74481324642E-04 -1.36432572581E-05 +5.77548630689E-01 +7.13567699304E-01
2.51000000000E+09 +5.97038991192E-01 +6.21744914380E-01 +1.53960147443E-04 -4.58259741391E-05 +1.23322229367E-04 -2.96695558940E-05 +5.83362048761E-01 +7.07860895655E-01
2.51500000000E+09 +6.04301159736E-01 +6.13823837802E-01 +9.87591732513E-05 -5.86432112727E-06 +1.13147819779E-04 +1.18747368278E-05 +5.88756670430E-01 +7.01888750257E-01
2.52000000000E+09 +6.10929157866E-01 +6.05706299843E-01 +1.86665067509E-04 -5.10705398916E-05 +2.00220487769E-04 +8.75616837280E-06 +5.93789233962E-01 +6.95369197616E-01
2.52500000000E+09 +6.16388525443E-01 +5.98423531829E-01 +1.44888267534E-04 -7.33678600068E-05 +1.71558854437E-04 -7.43565027786E-05 +5.99528985786E-01 +6.88620528613E-01
2.53000000000E+09 +6.21261280323E-01 +5.91493231196E-01 +1.35642535661E-04 -8.16916974662E-05 +1.73497898646E-04 -9.37563129106E-05 +6.05285240022E-01 +6.81244599595E-01
2.53500000000E+09 +6.25532385334E-01 +5.85038987025E-01 +8.72483986285E-05 -1.02752321027E-04 +1.19241706896E-04 -8.08454107905E-05 +6.10914126562E-01 +6.74131869247E-01
2.54000000000E+09 +6.29458781477E-01 +5.78778492856E-01 +1.34940716487E-04 -6.85381402300E-05 +8.79313835470E-05 -6.18577105584E-05 +6.16517927177E-01 +6.67332814503E-01
2.54500000000E+09 +6.33506718040E-01 +5.72890076528E-01 +1.21446011803E-04 -8.38782660813E-05 +1.13734394476E-04 -8.05022156758E-05 +6.21789672358E-01 +6.60758661038E-01
2.55000000000E+09 +6.38295896476E-01 +5.66615624324E-01 +2.21341696458E-04 -5.71226347172E-05 +2.06799012742E-04 -5.50205844983E-05 +6.26303964688E-01 +6.54629198331E-01
2.55500000000E+09 +6.43620582169E-01 +5.59921942397E-01 +1.96304247551E-04 -2.52967710725E-04 +2.98487312669E-04 -2.95793821231E-04 +6.30942020398E-01 +6.48406600486E-01
2.56000000000E+09 +6.49904815786E-01 +5.52858694717E-01 +7.65264277335E-05 -2.91062437594E-04 +1.06417396808E-04 -3.69231213384E-04 +6.35871639309E-01 +6.41722398169E-01
2.56500000000E+09 +6.56415449148E-01 +5.44746659319E-01 -1.10323316050E-05 -2.75266253351E-04 -3.07203130952E-05 -2.94492246158E-04 +6.41284731516E-01 +6.34636012830E-01
2.57000000000E+09 +6.62805750508E-01 +5.36571487949E-01 -1.24605847296E-04 -3.17550722661E-04 -1.39935093337E-04 -2.75831249834E-04 +6.46700581487E-01 +6.26884016010E-01
2.57500000000E+09 +6.69043097724E-01 +5.28300870924E-01 -1.43006441166E-04 -1.51626877406E-04 -2.18079191112E-04 -1.07982414781E-04 +6.52058494730E-01 +6.19363908814E-01
2.58000000000E+09 +6.74404648394E-01 +5.19962627903E-01 -1.02642217592E-04 -1.23913455053E-04 -8.45828796178E-05 -1.00346507872E-04 +6.57229133588E-01 +6.12030239546E-01
2.58500000000E+09 +6.78796044632E-01 +5.11473910818E-01 -9.80981989549E-05 -1.96235803306E-04 -8.19828692207E-05 -1.59665518788E-04 +6.62225930647E-01 +6.04471296876E-01
2.59000000000E+09 +6.82582692309E-01 +5.03689051152E-01 -1.73305972517E-04 -1.02277477969E-04 -2.31925171488E-04 -1.43728915978E-04 +6.66990669428E-01 +5.96970696223E-01
2.59500000000E+09 +6.86407986564E-01 +4.95775655731E-01 -1.95262979737E-04 -6.31247005501E-05 -2.41673203586E-04 -9.01130743706E-06 +6.72289718505E-01 +5.88934108521E-01
2.60000000000E+09 +6.89827835139E-01 +4.87481855053E-01 -1.93714284375E-04 +8.03593983619E-05 -2.01035877275E-04 +9.82704356073E-05 +6.77622614808E-01 +5.80521049069E-01
2.60500000000E+09 +6.93856527938E-01 +4.78424327002E-01 -9.80807648698E-05 +7.44895334202E-05 -6.29022004911E-05 +1.18688583164E-04 +6.82997463492E-01 +5.71597565844E-01
2.61000000000E+09 +6.98252826009E-01 +4.68105318147E-01 -1.74635395982E-05 +1.29299216879E-04 +5.48030279339E-06 +1.12196349282E-04 +6.88006691894E-01 +5.62549752412E-01
2.61500000000E+09 +7.03162043691E-01 +4.56633776703E-01 +3.25574992826E-05 +1.00605528532E-04 +3.77629346771E-05 +9.29773475976E-05 +6.92685242980E-01 +5.53919068543E-01
2.62000000000E+09 +7.07867279216E-01 +4.43954923871E-01 +5.55008051343E-05 +8.92143223743E-05 +7.32006465171E-05 +1.27276934124E-04 +6.97259459641E-01 +5.44982693538E-01
2.62500000000E+09 +7.12550426341E-01 +4.30572132265E-01 +1.41106519799E-04 +4.00648752446E-05 +1.61838940102E-04 +2.98666301099E-05 +7.01625564850E-01 +5.36023586819E-01
2.63000000000E+09 +7.17072107040E-01 +4.17059821210E-01 +1.28492824408E-04 -6.81859993070E-05 +1.19213369038E-04 -8.85608300041E-05 +7.06075641464E-01 +5.27095436436E-01
2.63500000000E+09 +7.20990793253E-01 +4.03710140931E-01 +7.38795121915E-05 -6.70370725131E-05 +9.24335308721E-05 -6.09510411803E-05 +7.10711292200E-01 +5.17873531075E-01
2.64000000000E+09 +7.24365841123E-01 +3.90954053178E-01 +4.99578898022E-05 -4.48312283309E-05 +2.31637943819E-05 -7.54008670332E-05 +7.15345938048E-01 +5.08144323769E-01
2.64500000000E+09 +7.27575258038E-01 +3.79219068174E-01 +8.72956079771E-05 +5.44380243385E-07 +1.50737463324E-04 -1.38693709283E-05 +7.19683870125E-01 +4.98461756849E-01
2.65000000000E+09 +7.30094050247E-01 +3.68437158778E-01 +2.51012323185E-04 -1.83220968702E-04 +2.53428998022E-04 -1.77473832937E-04 +7.23924101508E-01 +4.88483067465E-01
2.65500000000E+09 +7.33010364567E-01 +3.57837468267E-01 +1.11645583367E-04 -3.29467879641E-04 +1.18668566762E-04 -3.63319090005E-04 +7.27509883244E-01 +4.77941552181E-01
2.66000000000E+09 +7.36005019226E-01 +3.47154113848E-01 -7.88585262371E-05 -2.42889575700E-04 -5.33740154223E-05 -2.73851895383E-04 +7.31308858673E-01 +4.67027206217E-01
2.66500000000E+09 +7.39302298093E-01 +3.35968888188E-01 +7.32288157850E-06 -2.57196293437E-04 -1.99950780960E-06 -2.50043188919E-04 +7.35449688155E-01 +4.55867987589E-01
2.67000000000E+09 +7.42250478276E-01 +3.23511749413E-01 -1.59972255955E-04 -2.80559956786E-04 -1.02311084862E-04 -2.41481279140E-04 +7.39613680282E-01 +4.45041687966E-01
2.67500000000E+09 +7.44757314011E-01 +3.09863476271E-01 -1.93142464601E-04 -2.39547330855E-04 -2.56855789672E-04 -2.44142643612E-04 +7.43768321991E-01 +4.33777213403E-01
2.68000000000E+09 +7.46198758325E-01 +2.95773320982E-01 -2.61557789503E-04 -8.56087405414E-05 -2.49124144552E-04 -9.30785205273E-05 +7.47175945459E-01 +4.22603767170E-01
2.68500000000E+09 +7.47339404288E-01 +2.81552927879E-01 -1.73894360535E-04 +2.44974171914E-05 -1.75432279438E-04 -5.35694867970E-06 +7.49989909992E-01 +4.11451156807E-01
2.69000000000E+09 +7.48008472446E-01 +2.67213365649E-01 -1.26016856780E-04 +7.24191958327E-06 -5.09749540519E-05 -2.94498931194E-05 +7.52490699115E-01 +3.99831575171E-01
2.69500000000E+09 +7.48438707763E-01 +2.53360424208E-01 -1.02095574174E-05 -6.45615076015E-05 +1.43878226894E-05 -6.18665345042E-05 +7.54938273105E-01 +3.87799732558E-01
2.70000000000E+09 +7.48627279690E-01 +2.39606428012E-01 -7.08643803985E-05 -2.60130803430E-04 -3.58161715979E-05 -2.58649079048E-04 +7.57812445533E-01 +3.75025540888E-01
2.70500000000E+09 +7.48691991499E-01 +2.26631739633E-01 -2.37779867125E-04 -1.43692487009E-04 -2.06251955081E-04 -1.68633916383E-04 +7.60693177013E-01 +3.62235605157E-01
2.71000000000E+09 +7.49207742493E-01 +2.13761978204E-01 -2.89135785005E-04 -1.35114529190E-04 -2.98723972398E-04 -9.18420984436E-05 +7.63770947796E-01 +3.49184642466E-01
2.71500000000E+09 +7.50194835820E-01 +2.00247630489E-01 -2.64612668257E-04 +9.34898592879E-05 -2.38579157102E-04 +8.89080394991E-05 +7.66073135504E-01 +3.36602043514E-01
2.72000000000E+09 +7.50806187146E-01 +1.85853303524E-01 -4.81415617908E-05 +2.06619906645E-05 +1.01644621171E-06 -4.56938380743E-05 +7.67861042615E-01 +3.24218341104E-01
2.72500000000E+09 +7.51005446502E-01 +1.70309030794E-01 -2.06113483704E-04 -1.48766124061E-04 -2.03933247903E-04 -1.40145538269E-04 +7.69387267979E-01 +3.11133537086E-01
2.73000000000E+09 +7.49879080696E-01 +1.53602200603E-01 -1.94744440981E-04 +4.46637935398E-06 -1.97885893164E-04 +2.03403722724E-05 +7.70686442077E-01 +2.97118313713E-01
2.73500000000E+09 +7.47424432913E-01 +1.36411821378E-01 -8.36474204291E-05 -1.34729119176E-04 -7.15811192961E-05 -1.00062335000E-04 +7.71507978793E-01 +2.82203686023E-01
2.74000000000E+09 +7.44215993815E-01 +1.19441555493E-01 -2.74610635196E-04 -1.84991801480E-04 -2.46203016163E-04 -2.03388974290E-04 +7.72594782684E-01 +2.67333614616E-01
2.74500000000E+09 +7.39946377472E-01 +1.01998403268E-01 -3.19394983254E-04 -1.16226753650E-04 -2.50463026221E-04 -7.98204894080E-05 +7.73476168954E-01 +2.52364264026E-01
2.75000000000E+09 +7.34710579672E-01 +8.49986914432E-02 -3.44811986512E-04 -8.54193741552E-05 -3.12614284825E-04 -9.50985079955E-05 +7.74340788221E-01 +2.37881213808E-01
2.75500000000E+09 +7.29422119030E-01 +6.84087626459E-02 -3.33316154771E-04 -9.68952743239E-05 -3.99674474810E-04 -1.24851485050E-04 +7.74194833394E-01 +2.22717567016E-01
2.76000000000E+09 +7.24095411114E-01 +5.21104665294E-02 -5.25198620048E-04 -6.93984722939E-05 -6.03684038895E-04 -3.87052679600E-05 +7.73226609066E-01 +2.07534661047E-01
2.76500000000E+09 +7.19164756589E-01 +3.59212225297E-02 -4.83013614901E-04 +1.02824472842E-04 -5.20867111655E-04 +1.45227351868E-04 +7.71927563594E-01 +1.92264370257E-01
2.77000000000E+09 +7.14875284483E-01 +1.88446356291E-02 -4.71773625365E-04 +2.95788928367E-04 -5.64502477665E-04 +2.65736445327E-04 +7.71301843325E-01 +1.76023284958E-01
2.77500000000E+09 +7.10780242992E-01 +5.34858048235E-04 -4.58777237490E-04 +2.46213866318E-04 -4.93421455249E-04 +2.91735775442E-04 +7.70199089718E-01 +1.58721604382E-01
2.78000000000E+09 +7.06317682453E-01 -1.89170223484E-02 -3.40472153624E-04 +3.05174397310E-04 -3.60952261337E-04 +2.77779141337E-04 +7.68667788955E-01 +1.41327299880E-01
2.78500000000E+09 +7.00838469279E-01 -3.94813275725E-02 -5.27640627477E-04 +2.00842756498E-04 -5.25555206037E-04 +2.93150988482E-04 +7.66351536754E-01 +1.24499831635E-01
2.79000000000E+09 +6.94326851959E-01 -6.04033012663E-02 -6.92460796675E-04 +5.73855319954E-04 -6.60754792688E-04 +5.80338238743E-04 +7.64353368432E-01 +1.07941566863E-01
2.79500000000E+09 +6.86809393190E-01 -8.11565505593E-02 -3.83494838815E-04 +9.01348891024E-04 -3.41323542679E-04 +8.75257716884E-04 +7.61538234913E-01 +8.97912767836E-02
2.80000000000E+09 +6.77522707088E-01 -1.01464296429E-01 +8.38171428209E-06 +8.73445359395E-04 +5.42042096589E-06 +8.34009190044E-04 +7.57270019960E-01 +7.12355546334E-02
2.80500000000E+09 +6.67509210505E-01 -1.20037096453E-01 -1.60721758624E-05 +4.62626590282E-04 -1.38233810444E-05 +4.75245807210E-04 +7.52401775526E-01 +5.22732533443E-02
2.81000000000E+09 +6.56607225913E-01 -1.37579639142E-01 -2.60431610023E-04 +6.11716268877E-04 -3.02011618244E-04 +6.70749844928E-04 +7.47202408439E-01 +3.23975059465E-02
2.81500000000E+09 +6.45195920332E-01 -1.53962250430E-01 -1.67267958732E-04 +9.14600862982E-04 -1.42081499637E-04 +9.61922755429E-04 +7.40890906789E-01 +1.21154023826E-02
2.82000000000E+09 +6.32737271035E-01 -1.70217327904E-01 +1.36332821811E-05 +9.73738827162E-04 +9.40967145042E-05 +1.00889796949E-03 +7.34087199515E-01 -8.41903049318E-03
2.82500000000E+09 +6.19134498020E-01 -1.86330069726E-01 +2.66225220539E-04 +1.09821866512E-03 +3.44280899222E-04 +1.00931586555E-03 +7.25419476820E-01 -2.93201249786E-02
2.83000000000E+09 +6.04025907960E-01 -2.03119105448E-01 +5.67874739381E-04 +1.02043853051E-03 +5.73764576692E-04 +9.60429368559E-04 +7.15661284193E-01 -4.97523735778E-02
2.83500000000E+09 +5.87224290139E-01 -2.21096542418E-01 +7.40362258745E-04 +8.93571338726E-04 +6.92750559402E-04 +8.27787267406E-04 +7.05039728049E-01 -6.99366841786E-02
2.84000000000E+09 +5.67198311976E-01 -2.39180486457E-01 +9.58948206957E-04 +6.21127695987E-04 +9.40933477232E-04 +6.86478756005E-04 +6.93791548041E-01 -9.05702393987E-02
2.84500000000E+09 +5.45619524695E-01 -2.57077660700E-01 +7.54307575140E-04 +4.03494965952E-04 +7.78641845432E-04 +3.67566000183E-04 +6.81378583611E-01 -1.11422451805E-01
2.85000000000E+09 +5.22727181674E-01 -2.74945830171E-01 +9.26612699036E-04 +5.64384030316E-04 +9.46962511342E-04 +5.07804520424E-04 +6.67143418048E-01 -1.32115717426E-01
2.85500000000E+09 +4.97909171697E-01 -2.92397547484E-01 +1.00872713782E-03 +3.77258892803E-04 +1.00575241389E-03 +3.70789637886E-04 +6.52459554678E-01 -1.51820368238E-01
2.86000000000E+09 +4.72146114687E-01 -3.08418724514E-01 +1.18850277553E-03 +3.41354454162E-04 +1.21783797693E-03 +3.54354944052E-04 +6.36534732054E-01 -1.72321394436E-01
2.86500000000E+09 +4.46577309213E-01 -3.22736838378E-01 +1.52515046032E-03 +2.40284663965E-05 +1.50604929042E-03 -3.08101837948E-05 +6.18944102516E-01 -1.92551793537E-01
2.87000000000E+09 +4.21111087588E-01 -3.35994295597E-01 +1.38331156742E-03 -5.45117870714E-04 +1.40638638396E-03 -5.19620818860E-04 +6.00320479139E-01 -2.12619848246E-01
2.87500000000E+09 +3.95788115972E-01 -3.47906319328E-01 +9.47713703608E-04 -7.68515947722E-04 +8.72551999086E-04 -8.40714567188E-04 +5.79950955723E-01 -2.32014586393E-01
2.88000000000E+09 +3.70339828712E-01 -3.59006591030E-01 +7.15859612314E-04 -6.72537915482E-04 +6.52618024583E-04 -6.70968668975E-04 +5.59244986780E-01 -2.50685965151E-01
2.88500000000E+09 +3.43520829912E-01 -3.69049842406E-01 +7.10169894818E-04 -4.92470157908E-04 +6.09955226200E-04 -5.28897905447E-04 +5.36769643254E-01 -2.69602575503E-01
2.89000000000E+09 +3.15508798865E-01 -3.77301405193E-01 +8.13357363516E-04 -7.52255240202E-04 +7.11996544445E-04 -6.04044212752E-04 +5.12492612810E-01 -2.86955144155E-01
2.89500000000E+09 +2.86447646750E-01 -3.83887250611E-01 +6.69453168409E-04 -8.66882863292E-04 +6.75953458885E-04 -8.18583161586E-04 +4.87314162059E-01 -3.05281647420E-01
2.90000000000E+09 +2.55780598931E-01 -3.89261798998E-01 +3.80537588666E-04 -7.76486007668E-04 +4.36233196644E-04 -6.84328306072E-04 +4.58503426371E-01 -3.22859181242E-01
2.90500000000E+09 +2.23589539064E-01 -3.92435995730E-01 +5.95673936865E-04 -8.34302773996E-04 +6.08631695488E-04 -7.87139348180E-04 +4.29121177685E-01 -3.38084872813E-01
2.91000000000E+09 +1.90633501371E-01 -3.92980934339E-01 +3.53083738019E-04 -1.15778870273E-03 +3.51065249175E-04 -1.19939223815E-03 +3.99128650996E-01 -3.53106738674E-01
2.91500000000E+09 +1.57737931157E-01 -3.91822346709E-01 -8.84984991550E-05 -8.39773872942E-04 -4.23039224199E-05 -8.55060697887E-04 +3.66656836769E-01 -3.66325628612E-01
2.92000000000E+09 +1.24545429483E-01 -3.88683197695E-01 +2.48547091785E-04 -7.54044988506E-04 +2.86722427384E-04 -7.99688070848E-04 +3.32828436922E-01 -3.76708589405E-01
2.92500000000E+09 +9.19712443440E-02 -3.83455352154E-01 +1.61465115854E-05 -1.11039530013E-03 +1.62693178320E-04 -1.10507906660E-03 +2.97633530770E-01 -3.84837630204E-01
2.93000000000E+09 +5.99379640949E-02 -3.76744997349E-01 -2.82081891410E-04 -1.17261598008E-03 -2.73060080662E-04 -1.22667417126E-03 +2.61470751751E-01 -3.91780779473E-01
2.93500000000E+09 +2.82056938626E-02 -3.68673984379E-01 -4.78627831650E-04 -6.33243039858E-04 -4.50150498519E-04 -7.15166023890E-04 +2.22819421959E-01 -3.97535242811E-01
2.94000000000E+09 -3.70294302813E-03 -3.58005793916E-01 -2.05706301042E-04 -5.30289565837E-04 -1.74273376080E-04 -5.28207157752E-04 +1.82734786629E-01 -4.00729346201E-01
2.94500000000E+09 -3.46832152055E-02 -3.44850364802E-01 +7.66700173152E-06 -8.24019063295E-04 +3.67611184556E-05 -9.09335184347E-04 +1.41417918299E-01 -4.01077496687E-01
2.95000000000E+09 -6.56075360219E-02 -3.29287590369E-01 -2.28795675057E-04 -1.26065380984E-03 -2.26206173072E-04 -1.26954408339E-03 +1.01183931471E-01 -3.97403079526E-01
2.95500000000E+09 -9.53652760111E-02 -3.10501454910E-01 -8.01978002478E-04 -1.29485017935E-03 -7.69496876972E-04 -1.34827835674E-03 +6.08041884825E-02 -3.91865036340E-01
2.96000000000E+09 -1.23638102806E-01 -2.89175444591E-01 -1.33942118590E-03 -9.88473338224E-04 -1.36662210400E-03 -9.95040815110E-04 +1.98958381566E-02 -3.82289056628E-01
2.96500000000E+09 -1.50759991112E-01 -2.66291113253E-01 -1.20372270504E-03 -9.38931671370E-05 -1.27373413558E-03 -6.15865180525E-05 -1.96308617382E-02 -3.70251495849E-01
2.97000000000E+09 -1.76847531339E-01 -2.40264931660E-01 -3.90572919292E-04 -1.00108482208E-04 -4.53854100695E-04 -7.87030076540E-05 -6.09389886906E-02 -3.56377854117E-01
2.97500000000E+09 -2.00357658736E-01 -2.12384937073E-01 -5.06108087437E-04 -8.21963618878E-04 -4.64603011261E-04 -7.38536761271E-04 -1.00226857162E-01 -3.38183487063E-01
2.98000000000E+09 -2.22052662995E-01 -1.83079202523E-01 -1.44857409483E-03 -8.27419791298E-04 -1.35680619477E-03 -8.46813300148E-04 -1.39111442473E-01 -3.18408491160E-01
2.98500000000E+09 -2.41751949048E-01 -1.54048852927E-01 -1.61898944903E-03 +1.21175298121E-04 -1.63980562353E-03 +5.93828890425E-05 -1.76078927044E-01 -2.94777589524E-01
2.99000000000E+09 -2.60508144068E-01 -1.23435834265E-01 -1.00314666387E-03 +3.28400102870E-04 -1.04763318280E-03 +3.82788311609E-04 -2.11467205605E-01 -2.68304673976E-01
2.99500000000E+09 -2.76760171382E-01 -9.30537096171E-02 -9.70167468267E-04 +1.46524324922E-04 -9.89705111573E-04 +2.06592443518E-04 -2.44900223814E-01 -2.37424598483E-01
3.00000000000E+09 -2.92739038912E-01 -6.18198390785E-02 -1.02072505179E-03 +2.72739462841E-04 -1.02111738155E-03 +3.24119867970E-04 -2.74045250922E-01 -2.05558775317E-01
3.00500000000E+09 -3.05494089824E-01 -2.95850189584E-02 -1.26829033745E-03 +3.49209058496E-04 -1.20199527586E-03 +3.67793543842E-04 -3.02968273245E-01 -1.72588038169E-01
3.01000000000E+09 -3.14834862631E-01 +1.88668006634E-03 -1.08972768322E-03 +8.89366011965E-04 -1.06197923061E-03 +8.18922289013E-04 -3.28925704967E-01 -1.37243562269E-01
3.01500000000E+09 -3.22199837886E-01 +3.16657709686E-02 -5.00006851627E-04 +1.28255672093E-03 -5.68571624916E-04 +1.25228750178E-03 -3.52427355308E-01 -1.00906711280E-01
3.02000000000E+09 -3.28220402967E-01 +6.20805832050E-02 +8.59445579086E-05 +8.47310701204E-04 +7.46095118040E-05 +8.31623530967E-04 -3.72591095980E-01 -6.27415814052E-02
3.02500000000E+09 -3.29948928942E-01 +9.22016491924E-02 -5.18555492314E-05 +2.47861218257E-04 -7.63928748811E-05 +2.38104451830E-04 -3.89338406493E-01 -2.35825135028E-02
3.03000000000E+09 -3.29317955292E-01 +1.20912701125E-01 -8.08929756943E-04 +3.73366710857E-04 -8.25791420130E-04 +3.43237894096E-04 -4.02573802860E-01 +1.64067707291E-02
3.03500000000E+09 -3.27027977321E-01 +1.49072918386E-01 -6.10456972087E-04 +1.15502248217E-03 -6.41358967683E-04 +1.09897297680E-03 -4.12732317402E-01 +5.64781301697E-02
3.04000000000E+09 -3.22002411207E-01 +1.77777760999E-01 +1.82366773418E-04 +6.94009685167E-04 +1.48983201607E-04 +7.25272199995E-04 -4.20152215716E-01 +9.59144382554E-02
3.04500000000E+09 -3.14707209345E-01 +2.05302628684E-01 -2.66541682440E-04 +7.23207010117E-04 -2.94508514882E-04 +7.32307036086E-04 -4.25180014860E-01 +1.34945939129E-01
3.05000000000E+09 -3.06209178490E-01 +2.33146642373E-01 +1.18171929968E-04 +6.75087451337E-04 +9.48873657547E-05 +6.83155652136E-04 -4.28046322528E-01 +1.73263836343E-01
3.05500000000E+09 -2.95162006309E-01 +2.60154923737E-01 -3.08105078193E-04 +6.24793940622E-04 -3.03976060440E-04 +6.28534371111E-04 -4.28482354825E-01 +2.11127773003E-01
3.06000000000E+09 -2.83719718350E-01 +2.86017342528E-01 -1.41940905295E-04 +9.26603385140E-04 -7.99938397359E-05 +9.09620717600E-04 -4.26687411248E-01 +2.48869998839E-01
3.06500000000E+09 -2.71682362008E-01 +3.11333811045E-01 +2.15094009493E-04 +8.60307692346E-04 +2.09506924818E-04 +8.32206321552E-04 -4.22268287772E-01 +2.85890209057E-01
3.07000000000E+09 -2.58989039790E-01 +3.35809226824E-01 +4.79900280395E-04 +7.02087543894E-04 +3.91142140420E-04 +6.70922221311E-04 -4.15467780438E-01 +3.21087042023E-01
