# Hz S RI R 50
! CMT, C1220, 16058040, 17.2.0/1
! Date: 15/08/2018 09:47:39
! Data: Format (Calibration Info)
! Freq                      S11: Re/Im (F2)                       S21: Re/Im (F2)                       S12: Re/Im (F2)                       S22: Re/Im (F2)            
2.50000000000E+09 +5.77945785440E-01 +6.66879662354E-01 +2.06340408110E-04 -1.57026595465E-03 +2.21165404182E-04 -1.64202034846E-03 +5.75828563506E-01 +7.17842820281E-01
2.50500000000E+09 +5.84760018325E-01 +6.59215296145E-01 +2.82163473941E-05 -1.59538204663E-03 -4.29178136490E-05 -1.64408777918E-03 +5.81226861087E-01 +7.12148773061E-01
2.51000000000E+09 +5.91965912683E-01 +6.51152968768E-01 -1.85546249296E-04 -1.62086418862E-03 -2.15373127083E-04 -1.58309006049E-03 +5.86758706883E-01 +7.06884308388E-01
2.51500000000E+09 +5.99337699329E-01 +6.42951792233E-01 -3.45572890528E-04 -1.61655526423E-03 -3.21106575305E-04 -1.55479548083E-03 +5.91873177898E-01 +7.01453395985E-01
2.52000000000E+09 +6.06243120565E-01 +6.34161258655E-01 -5.16661173717E-04 -1.57569088094E-03 -4.46896027660E-04 -1.62405153385E-03 +5.97048874741E-01 +6.95273653861E-01
2.52500000000E+09 +6.12207825584E-01 +6.25533537238E-01 -6.13075622543E-04 -1.53223384021E-03 -5.77906248697E-04 -1.57307780947E-03 +6.03095189372E-01 +6.88663016900E-01
2.53000000000E+09 +6.18023131571E-01 +6.17225158562E-01 -7.71045405525E-04 -1.47684243662E-03 -7.82298589777E-04 -1.51593153410E-03 +6.09416373774E-01 +6.81507837458E-01
2.53500000000E+09 +6.23053123934E-01 +6.09106161004E-01 -9.50570137873E-04 -1.40884389826E-03 -9.15772965957E-04 -1.37484926854E-03 +6.15293961595E-01 +6.74759505739E-01
2.54000000000E+09 +6.27335778538E-01 +6.01168608614E-01 -9.94605497146E-04 -1.31348196470E-03 -9.77023163746E-04 -1.35256934791E-03 +6.21065072182E-01 +6.68150930958E-01
2.54500000000E+09 +6.31732191963E-01 +5.93989417324E-01 -1.12498076315E-03 -1.31923540899E-03 -1.02228223312E-03 -1.42585189442E-03 +6.26584541444E-01 +6.61778386978E-01
2.55000000000E+09 +6.36555250825E-01 +5.86792534695E-01 -1.34061021229E-03 -1.17577003594E-03 -1.26172614910E-03 -1.43947213938E-03 +6.31625838766E-01 +6.55181509798E-01
2.55500000000E+09 +6.42180005676E-01 +5.79074902661E-01 -1.50593315246E-03 -1.12445355697E-03 -1.68438153797E-03 -1.37218844583E-03 +6.36810317840E-01 +6.48560657832E-01
2.56000000000E+09 +6.48421681560E-01 +5.71276645234E-01 -1.55171298582E-03 -8.26356849514E-04 -1.89068017508E-03 -8.89159880276E-04 +6.42288923277E-01 +6.41125832543E-01
2.56500000000E+09 +6.55297085713E-01 +5.62566571374E-01 -1.51539785589E-03 -8.58539115067E-04 -1.84908737117E-03 -6.18555438781E-04 +6.47891387801E-01 +6.33619113878E-01
2.57000000000E+09 +6.62302603444E-01 +5.53660852459E-01 -1.63403428133E-03 -7.89467205450E-04 -1.75059199335E-03 -4.07704538132E-04 +6.53272005469E-01 +6.26009577485E-01
2.57500000000E+09 +6.69481761061E-01 +5.44079166834E-01 -1.80258579692E-03 -7.51628159930E-04 -1.67702965014E-03 -3.81751322781E-04 +6.58634726714E-01 +6.18581722985E-01
2.58000000000E+09 +6.75930828186E-01 +5.34202140741E-01 -2.06546696600E-03 -5.56269716409E-04 -1.71685153349E-03 -3.71449810030E-04 +6.63369015167E-01 +6.11168978608E-01
2.58500000000E+09 +6.81695748945E-01 +5.24162867104E-01 -2.07120806190E-03 -6.11796368530E-05 -1.79357124133E-03 -1.58448520538E-04 +6.67881562557E-01 +6.03617333261E-01
2.59000000000E+09 +6.87019026117E-01 +5.14533550967E-01 -1.78740613099E-03 -8.09885507521E-05 -1.65673596840E-03 -2.04336448346E-04 +6.72812972245E-01 +5.95866573749E-01
2.59500000000E+09 +6.91717498710E-01 +5.04788656146E-01 -1.93513909546E-03 -1.78038142607E-04 -1.84286877782E-03 -3.04686946645E-04 +6.77939295279E-01 +5.87248207524E-01
2.60000000000E+09 +6.95587480284E-01 +4.95326343378E-01 -2.11432880218E-03 -6.88587663645E-05 -2.12015880246E-03 -9.78694222946E-05 +6.82893961435E-01 +5.78774319599E-01
2.60500000000E+09 +6.99915504908E-01 +4.85626272962E-01 -2.33582937691E-03 +1.66193794045E-04 -2.32921302709E-03 +2.01915843588E-04 +6.88284191708E-01 +5.70193008438E-01
2.61000000000E+09 +7.04153077385E-01 +4.75263931980E-01 -2.56596323221E-03 +5.81367090512E-04 -2.56624238055E-03 +5.16545565559E-04 +6.93083364197E-01 +5.61661322059E-01
2.61500000000E+09 +7.08721865226E-01 +4.64404674287E-01 -2.27928665769E-03 +1.24829095144E-03 -2.39766838304E-03 +1.26089473046E-03 +6.97400244545E-01 +5.53387377313E-01
2.62000000000E+09 +7.13406116941E-01 +4.52378647088E-01 -1.81097222198E-03 +1.27751157409E-03 -1.93023120739E-03 +1.33938050521E-03 +7.02096732798E-01 +5.44543696084E-01
2.62500000000E+09 +7.18172190453E-01 +4.39296126656E-01 -1.83145244663E-03 +1.05874630127E-03 -1.83991064158E-03 +1.28738326021E-03 +7.07081434779E-01 +5.35309827751E-01
2.63000000000E+09 +7.22749643856E-01 +4.25705916311E-01 -1.98308059611E-03 +1.28029172529E-03 -1.75862408343E-03 +1.49637573191E-03 +7.11808585357E-01 +5.25744620471E-01
2.63500000000E+09 +7.26661012897E-01 +4.11799980863E-01 -2.00960342805E-03 +1.42530639014E-03 -1.68462101180E-03 +1.47360381303E-03 +7.16881197113E-01 +5.16343104846E-01
2.64000000000E+09 +7.30050817225E-01 +3.97847385606E-01 -2.13438437676E-03 +1.94329438671E-03 -1.75985941273E-03 +1.73438869818E-03 +7.21665203263E-01 +5.06852219345E-01
2.64500000000E+09 +7.33021348301E-01 +3.84862004052E-01 -1.63152070315E-03 +2.49915003935E-03 -1.54501873887E-03 +2.05883106119E-03 +7.26007809392E-01 +4.97423955209E-01
2.65000000000E+09 +7.35616026666E-01 +3.72489084766E-01 -1.08846520050E-03 +2.37411415023E-03 -1.32352286249E-03 +2.15731182332E-03 +7.30192565689E-01 +4.88071024346E-01
2.65500000000E+09 +7.38186253161E-01 +3.60363037379E-01 -1.02640197206E-03 +2.17478778049E-03 -1.21893129447E-03 +2.14927592064E-03 +7.34114620708E-01 +4.77480618635E-01
2.66000000000E+09 +7.40971474120E-01 +3.48564378616E-01 -1.16123343179E-03 +2.32308019457E-03 -1.24323514001E-03 +2.50634804679E-03 +7.38078403097E-01 +4.66376403132E-01
2.66500000000E+09 +7.43817317289E-01 +3.36515557053E-01 -9.63429716979E-04 +2.66993910632E-03 -8.60427216779E-04 +2.79143805873E-03 +7.42770290195E-01 +4.55209645075E-01
2.67000000000E+09 +7.46389053735E-01 +3.23558182725E-01 -5.46981616412E-04 +2.79305690412E-03 -3.19289095404E-04 +2.76971848683E-03 +7.47252752751E-01 +4.43981123440E-01
2.67500000000E+09 +7.48425610545E-01 +3.09971898896E-01 -2.25122165154E-04 +2.67024137564E-03 -1.27299704935E-04 +2.50407726784E-03 +7.51292113271E-01 +4.32839984790E-01
2.68000000000E+09 +7.50288324531E-01 +2.95496984859E-01 -2.30122146726E-04 +2.64056389056E-03 -2.00454316484E-04 +2.47230707484E-03 +7.55068958061E-01 +4.22314247945E-01
2.68500000000E+09 +7.51371165822E-01 +2.80177592279E-01 -2.65311284417E-04 +2.77656241397E-03 -3.24165455862E-04 +2.71867547018E-03 +7.58102185987E-01 +4.10835052179E-01
2.69000000000E+09 +7.51829881121E-01 +2.64656666220E-01 +8.90507772543E-05 +3.25701460843E-03 +8.08336944049E-06 +3.24605585440E-03 +7.60577072907E-01 +3.98931440619E-01
2.69500000000E+09 +7.52051738889E-01 +2.49210267684E-01 +6.47143238544E-04 +3.28639879863E-03 +6.47700959259E-04 +3.23360273470E-03 +7.63700045361E-01 +3.86208776211E-01
2.70000000000E+09 +7.52111021533E-01 +2.33568425904E-01 +1.05167404715E-03 +3.13751915606E-03 +1.01790098464E-03 +3.06077107280E-03 +7.66822273430E-01 +3.72687207152E-01
2.70500000000E+09 +7.52054336048E-01 +2.18510788103E-01 +1.27558575128E-03 +2.81422328442E-03 +1.16917891981E-03 +2.80139137902E-03 +7.70068224958E-01 +3.58992538862E-01
2.71000000000E+09 +7.52099576516E-01 +2.03610611116E-01 +1.39866477118E-03 +2.69719394992E-03 +1.28188472299E-03 +2.81617333273E-03 +7.72883209931E-01 +3.46268895700E-01
2.71500000000E+09 +7.52700269405E-01 +1.88823469395E-01 +1.27639891309E-03 +2.75143021477E-03 +1.32305673765E-03 +2.95584724094E-03 +7.75764826269E-01 +3.33780637973E-01
2.72000000000E+09 +7.53267701850E-01 +1.73934653686E-01 +1.63034052742E-03 +3.10244923469E-03 +1.89803775267E-03 +3.18166780839E-03 +7.78003479958E-01 +3.20705790424E-01
2.72500000000E+09 +7.53846397838E-01 +1.58571913153E-01 +2.24949671340E-03 +2.95073371016E-03 +2.54858841987E-03 +2.66956693421E-03 +7.79096426950E-01 +3.06780896753E-01
2.73000000000E+09 +7.53630572322E-01 +1.42585767310E-01 +2.39214965650E-03 +2.76735419699E-03 +2.36721241547E-03 +2.28049107724E-03 +7.80376715650E-01 +2.92254823276E-01
2.73500000000E+09 +7.52684368145E-01 +1.25614879682E-01 +2.62016726978E-03 +2.93750802141E-03 +2.27993950606E-03 +2.53695589077E-03 +7.81293840599E-01 +2.77195960225E-01
2.74000000000E+09 +7.50474017590E-01 +1.08440418827E-01 +3.39983296645E-03 +2.92497912556E-03 +2.83702554872E-03 +2.81020760090E-03 +7.83132202991E-01 +2.62563514419E-01
2.74500000000E+09 +7.46678838419E-01 +9.06181149776E-02 +3.79486970975E-03 +2.29312063863E-03 +3.32091172787E-03 +2.68756680800E-03 +7.84725459908E-01 +2.46892091988E-01
2.75000000000E+09 +7.41523021592E-01 +7.30814328791E-02 +4.07243780391E-03 +2.08877596968E-03 +3.94812794561E-03 +2.64746938698E-03 +7.84953015031E-01 +2.31591538646E-01
2.75500000000E+09 +7.35808575293E-01 +5.56901386736E-02 +4.36637001014E-03 +1.81256719819E-03 +4.52113589924E-03 +2.14349012577E-03 +7.83922093709E-01 +2.16521308947E-01
2.76000000000E+09 +7.29903510818E-01 +3.83003747405E-02 +4.71180856729E-03 +1.57434268668E-03 +5.01365715993E-03 +1.70853076695E-03 +7.83390718703E-01 +2.01076419307E-01
2.76500000000E+09 +7.23943312029E-01 +2.11297689932E-02 +5.17401327441E-03 +1.24966212935E-03 +5.48973002865E-03 +1.21149845738E-03 +7.82292639596E-01 +1.83823847253E-01
2.77000000000E+09 +7.18724331287E-01 +3.36929184289E-03 +5.83419438845E-03 +5.45132831122E-04 +6.12777781299E-03 +4.42331156206E-04 +7.81449230288E-01 +1.66138624019E-01
2.77500000000E+09 +7.13787749564E-01 -1.51427586443E-02 +6.09105071288E-03 -6.36029376376E-04 +6.28809388067E-03 -8.75765921018E-04 +7.79723980862E-01 +1.47977677825E-01
2.78000000000E+09 +7.09180107495E-01 -3.46400236834E-02 +5.63111685589E-03 -1.36258830978E-03 +5.68997308110E-03 -1.73354978655E-03 +7.77550755880E-01 +1.30676799398E-01
2.78500000000E+09 +7.04124733887E-01 -5.51471926427E-02 +5.51993314878E-03 -1.70987779643E-03 +5.30515223824E-03 -2.08834737822E-03 +7.75436630460E-01 +1.13430046638E-01
2.79000000000E+09 +6.98161566744E-01 -7.64297642711E-02 +5.55842551176E-03 -2.13969272412E-03 +5.22246392247E-03 -2.31137792941E-03 +7.72073101974E-01 +9.56075373504E-02
2.79500000000E+09 +6.90768902590E-01 -9.71302886359E-02 +5.68242192002E-03 -2.72853629360E-03 +5.27103688829E-03 -2.62088551212E-03 +7.67623589104E-01 +7.70675281902E-02
2.80000000000E+09 +6.82112439701E-01 -1.17312729244E-01 +5.93219928781E-03 -3.76711100626E-03 +5.72770278832E-03 -3.39989645445E-03 +7.62240577388E-01 +5.80293496199E-02
2.80500000000E+09 +6.72775068629E-01 -1.36544946323E-01 +5.24357259707E-03 -5.16483706644E-03 +5.36416884472E-03 -4.90862157813E-03 +7.56495113287E-01 +3.92943297767E-02
2.81000000000E+09 +6.62206136810E-01 -1.55178646803E-01 +4.11909817098E-03 -5.30054896430E-03 +4.28581625365E-03 -5.37213091948E-03 +7.51069778421E-01 +2.01441789070E-02
2.81500000000E+09 +6.50433593333E-01 -1.72779672634E-01 +3.90716668355E-03 -5.60209855155E-03 +3.85824300063E-03 -5.83298008701E-03 +7.44415007203E-01 +5.14212937199E-04
2.82000000000E+09 +6.37776153779E-01 -1.90083836962E-01 +3.57896992099E-03 -6.15576530457E-03 +3.29800540834E-03 -6.25832046826E-03 +7.36893800241E-01 -1.93069378938E-02
2.82500000000E+09 +6.24277673270E-01 -2.07309293962E-01 +2.96011778926E-03 -6.82026828629E-03 +2.56846857756E-03 -6.60061913646E-03 +7.27487943928E-01 -3.94754408090E-02
2.83000000000E+09 +6.09232025204E-01 -2.25685532821E-01 +2.26489556448E-03 -7.45402056153E-03 +2.12907363817E-03 -6.96208054626E-03 +7.17247378806E-01 -5.96215048119E-02
2.83500000000E+09 +5.92815611607E-01 -2.44005084820E-01 +1.04154794720E-03 -7.58653332966E-03 +1.16735198841E-03 -7.28628405515E-03 +7.06557734737E-01 -7.97963029639E-02
2.84000000000E+09 +5.74398286166E-01 -2.62804967686E-01 +6.16980894563E-04 -7.14529876241E-03 +8.64121973657E-04 -6.99735890806E-03 +6.95842134141E-01 -1.00954914986E-01
2.84500000000E+09 +5.54332782164E-01 -2.81908747374E-01 +7.44220700077E-04 -7.93161142908E-03 +8.89107023340E-04 -7.96710340887E-03 +6.83784917155E-01 -1.22351659505E-01
2.85000000000E+09 +5.32958953482E-01 -3.00957238858E-01 -3.54532155075E-04 -9.11416549057E-03 -3.73077428991E-04 -9.07764181245E-03 +6.69735941359E-01 -1.43609419516E-01
2.85500000000E+09 +5.10249434886E-01 -3.19366323318E-01 -2.13029158528E-03 -9.61833420360E-03 -2.06604092891E-03 -9.46462762702E-03 +6.53841433044E-01 -1.63616978925E-01
2.86000000000E+09 +4.86456382952E-01 -3.37667836363E-01 -3.90876626288E-03 -9.27387717945E-03 -3.74908259868E-03 -9.19009331385E-03 +6.37718559324E-01 -1.83900358933E-01
2.86500000000E+09 +4.61941466775E-01 -3.54088666577E-01 -5.74467398290E-03 -8.31331928723E-03 -5.55959682011E-03 -8.44663836659E-03 +6.20010164905E-01 -2.05203137724E-01
2.87000000000E+09 +4.37073199078E-01 -3.69812989553E-01 -6.34673627290E-03 -6.73517202748E-03 -6.31298432163E-03 -6.76660563001E-03 +5.99727720448E-01 -2.26288336152E-01
2.87500000000E+09 +4.11940265442E-01 -3.83805887167E-01 -6.11006975767E-03 -6.22333057334E-03 -6.25202159303E-03 -6.10146287531E-03 +5.79131209446E-01 -2.45749503827E-01
2.88000000000E+09 +3.86918814647E-01 -3.97300314363E-01 -6.72039231659E-03 -6.59885888243E-03 -6.73056258072E-03 -6.19505798437E-03 +5.57527442333E-01 -2.65118846270E-01
2.88500000000E+09 +3.60667531172E-01 -4.09548063984E-01 -8.66341208111E-03 -5.90957420148E-03 -8.28731333604E-03 -5.56367097198E-03 +5.34247557498E-01 -2.83082489378E-01
2.89000000000E+09 +3.33666040255E-01 -4.21150152549E-01 -9.16622288203E-03 -4.24669100322E-03 -8.64060098323E-03 -4.15599438225E-03 +5.08965239230E-01 -3.01273090271E-01
2.89500000000E+09 +3.05235881746E-01 -4.31703709464E-01 -9.60628077268E-03 -3.48033085415E-03 -9.19770335279E-03 -3.83416065523E-03 +4.80337892521E-01 -3.18681365159E-01
2.90000000000E+09 +2.74936070307E-01 -4.41205422864E-01 -1.03482477868E-02 -1.99790703187E-03 -1.03571595588E-02 -2.41657194463E-03 +4.50309348032E-01 -3.33506606639E-01
2.90500000000E+09 +2.41976200453E-01 -4.48729221949E-01 -1.00641969492E-02 -8.14429849453E-04 -1.03397214054E-02 -8.14034119456E-04 +4.21098148960E-01 -3.48443916685E-01
2.91000000000E+09 +2.07612934541E-01 -4.53587775026E-01 -1.01593153241E-02 -4.01592773007E-05 -1.02654557036E-02 +2.86777664246E-04 +3.89827362421E-01 -3.63258750396E-01
2.91500000000E+09 +1.72118979629E-01 -4.55908181810E-01 -1.06266338359E-02 +1.22587736972E-03 -1.01727270862E-02 +1.47330553447E-03 +3.56566862005E-01 -3.75372782712E-01
2.92000000000E+09 +1.36599295331E-01 -4.55547209909E-01 -1.01602213318E-02 +2.69616355937E-03 -9.50746767815E-03 +2.62462495174E-03 +3.21695364826E-01 -3.84713699980E-01
2.92500000000E+09 +1.01730542157E-01 -4.53352958339E-01 -9.78625735135E-03 +3.05218108100E-03 -9.40500633574E-03 +2.57925311377E-03 +2.85487837654E-01 -3.90493241823E-01
2.93000000000E+09 +6.70511049718E-02 -4.50237805976E-01 -1.01583083713E-02 +4.15249068492E-03 -1.01111557158E-02 +3.60257131229E-03 +2.49311855958E-01 -3.95264069032E-01
2.93500000000E+09 +3.20602928141E-02 -4.45770711988E-01 -1.00948801697E-02 +5.83468842794E-03 -1.02796046623E-02 +5.48934422402E-03 +2.11823520441E-01 -3.99759321494E-01
2.94000000000E+09 -3.25616105482E-03 -4.39563418030E-01 -9.21383779900E-03 +7.31754260171E-03 -9.32817969723E-03 +7.13864977340E-03 +1.71970679992E-01 -4.02750479669E-01
2.94500000000E+09 -3.92437952906E-02 -4.31032980563E-01 -8.38095381806E-03 +8.79664413741E-03 -8.53325334208E-03 +8.53316299997E-03 +1.31778547414E-01 -4.01957174203E-01
2.95000000000E+09 -7.49595063291E-02 -4.18383163166E-01 -6.72957158060E-03 +9.63361084613E-03 -7.06759245799E-03 +9.36598575174E-03 +9.17867276613E-02 -3.97274851217E-01
2.95500000000E+09 -1.08730293814E-01 -4.02636749340E-01 -5.61912099212E-03 +9.90622354151E-03 -6.15422359217E-03 +9.90464554933E-03 +5.35937926611E-02 -3.90170442885E-01
2.96000000000E+09 -1.41307263903E-01 -3.85243880920E-01 -5.16584713122E-03 +1.02939521151E-02 -5.53179719387E-03 +1.06662998153E-02 +1.36309924086E-02 -3.81169576931E-01
2.96500000000E+09 -1.73666283432E-01 -3.64719399755E-01 -4.47614510532E-03 +1.15869939425E-02 -4.38614013134E-03 +1.20239716334E-02 -2.73945766256E-02 -3.69054262037E-01
2.97000000000E+09 -2.04742950020E-01 -3.40941866839E-01 -2.85598317241E-03 +1.26482574860E-02 -2.31874669126E-03 +1.27356194605E-02 -6.75684808630E-02 -3.53466956447E-01
2.97500000000E+09 -2.34295469420E-01 -3.14956889906E-01 -1.10570244628E-03 +1.33847488386E-02 -9.43444365096E-04 +1.29543503687E-02 -1.06305052986E-01 -3.35725309231E-01
2.98000000000E+09 -2.62658999733E-01 -2.86845113807E-01 +1.56564885178E-03 +1.33679984100E-02 +1.18347621012E-03 +1.29853942116E-02 -1.43827919678E-01 -3.15551605291E-01
2.98500000000E+09 -2.89966287527E-01 -2.57289494590E-01 +2.83809033448E-03 +1.21676058457E-02 +2.37441870260E-03 +1.23949026401E-02 -1.80469088543E-01 -2.92453402111E-01
2.99000000000E+09 -3.16175483936E-01 -2.25594369068E-01 +3.35709543968E-03 +1.18802637064E-02 +3.34001847448E-03 +1.24611280741E-02 -2.15701425679E-01 -2.65203376259E-01
2.99500000000E+09 -3.40504249226E-01 -1.91934888575E-01 +4.65711966103E-03 +1.27073858655E-02 +5.19491524677E-03 +1.31624696033E-02 -2.48868502922E-01 -2.35702866293E-01
3.00000000000E+09 -3.61363388805E-01 -1.57892849106E-01 +7.36991440398E-03 +1.22204286654E-02 +8.03077919983E-03 +1.19195824935E-02 -2.79918024101E-01 -2.03056789941E-01
3.00500000000E+09 -3.80633736138E-01 -1.24484040917E-01 +8.80637638414E-03 +1.09221951159E-02 +8.84885968850E-03 +1.01426203083E-02 -3.07740344349E-01 -1.69200309526E-01
3.01000000000E+09 -3.98020198641E-01 -9.07209903535E-02 +1.05612685387E-02 +9.46698683663E-03 +1.01091904831E-02 +9.09607415084E-03 -3.33013879200E-01 -1.34519280597E-01
3.01500000000E+09 -4.13224099583E-01 -5.62270121309E-02 +1.15374461345E-02 +7.86792351145E-03 +1.10646843611E-02 +7.97024598144E-03 -3.56314520228E-01 -9.90528225687E-02
3.02000000000E+09 -4.25014755072E-01 -2.05967908575E-02 +1.22689227138E-02 +6.35172386648E-03 +1.20449454197E-02 +6.56586288773E-03 -3.76613614474E-01 -5.96657511595E-02
3.02500000000E+09 -4.33055255729E-01 +1.54017255886E-02 +1.28769719240E-02 +5.14715552833E-03 +1.28124498386E-02 +5.23860967265E-03 -3.91906346756E-01 -2.01159313525E-02
3.03000000000E+09 -4.37153303828E-01 +5.13279905286E-02 +1.37580026815E-02 +3.32334874069E-03 +1.36283170213E-02 +3.41865090215E-03 -4.05468190132E-01 +1.97554548371E-02
3.03500000000E+09 -4.38032542347E-01 +8.67859734527E-02 +1.40103993729E-02 +1.38854627791E-03 +1.39264814329E-02 +1.84527577737E-03 -4.16342909830E-01 +5.95494593725E-02
3.04000000000E+09 -4.36776078809E-01 +1.21608456625E-01 +1.42502803427E-02 -6.80412896841E-04 +1.45764348158E-02 -1.53309641419E-04 -4.24853792437E-01 +9.99012205708E-02
3.04500000000E+09 -4.33415396795E-01 +1.57117777473E-01 +1.36399545293E-02 -2.64331796561E-03 +1.45048509464E-02 -2.58910982712E-03 -4.30311996091E-01 +1.40599137690E-01
3.05000000000E+09 -4.27177928797E-01 +1.92717956356E-01 +1.30234463403E-02 -4.22852403136E-03 +1.36626830430E-02 -5.05142448244E-03 -4.30912404804E-01 +1.80515532143E-01
3.05500000000E+09 -4.18801874704E-01 +2.27044089006E-01 +1.22263738819E-02 -5.73153424245E-03 +1.19754997014E-02 -6.67832472053E-03 -4.30159566018E-01 +2.17886869485E-01
3.06000000000E+09 -4.09320287870E-01 +2.61002001263E-01 +1.15726009927E-02 -7.34350184987E-03 +1.06317883378E-02 -7.56943884955E-03 -4.28523706933E-01 +2.56084759888E-01
3.06500000000E+09 -3.97498494961E-01 +2.93869693988E-01 +1.02983320851E-02 -9.23340478763E-03 +9.62225183626E-03 -8.66269247285E-03 -4.23578653947E-01 +2.93627767142E-01
3.07000000000E+09 -3.84764460865E-01 +3.24625693938E-01 +8.02686574975E-03 -1.04745166242E-02 +8.29082340791E-03 -9.66345143895E-03 -4.16804665891E-01 +3.29343099697E-01
