# Hz S RI R 50
! CMT, C1220, 16058040, 17.2.0/1
! Date: 15/08/2018 10:50:29
! Data: Format (Calibration Info)
! Freq                      S11: Re/Im (F2)                       S21: Re/Im (F2)                       S12: Re/Im (F2)                       S22: Re/Im (F2)            
2.50000000000E+09 +5.80454892441E-01 +6.50489722284E-01 -1.22520655032E-03 +5.88075622199E-04 -1.31812532088E-03 +6.13772201246E-04 +5.62311742299E-01 +7.25823030999E-01
2.50500000000E+09 +5.87948329460E-01 +6.41320409443E-01 -1.19860144179E-03 +7.05874098665E-04 -1.25111767108E-03 +7.33986677017E-04 +5.67955856668E-01 +7.20308480074E-01
2.51000000000E+09 +5.96305124773E-01 +6.31989759031E-01 -1.19941894324E-03 +7.81636471307E-04 -1.16025750018E-03 +8.21827245145E-04 +5.73786515046E-01 +7.14899514050E-01
2.51500000000E+09 +6.04577028893E-01 +6.23113061661E-01 -1.15364839459E-03 +1.01028854059E-03 -1.07288010983E-03 +9.39947454103E-04 +5.78922580355E-01 +7.09259613065E-01
2.52000000000E+09 +6.12307296490E-01 +6.14775605310E-01 -9.54509504773E-04 +1.11435306234E-03 -9.77763827500E-04 +1.09884743748E-03 +5.84023854083E-01 +7.03011048140E-01
2.52500000000E+09 +6.18482931172E-01 +6.07669351022E-01 -7.82593718547E-04 +1.17967877991E-03 -8.46302346843E-04 +1.15784223066E-03 +5.89367083179E-01 +6.96750021911E-01
2.53000000000E+09 +6.23283036306E-01 +6.01435281661E-01 -7.50285268261E-04 +1.15181754425E-03 -7.92250082482E-04 +1.20553278546E-03 +5.95317410768E-01 +6.89865384123E-01
2.53500000000E+09 +6.27156818878E-01 +5.95894000861E-01 -7.76870905719E-04 +1.32813512029E-03 -7.63376897426E-04 +1.30295628925E-03 +6.01199298683E-01 +6.83285236544E-01
2.54000000000E+09 +6.30134438699E-01 +5.90162463852E-01 -5.97105965558E-04 +1.47217492163E-03 -5.93909041091E-04 +1.47477607433E-03 +6.07157690127E-01 +6.77040522919E-01
2.54500000000E+09 +6.33069833874E-01 +5.84122287607E-01 -4.25269395594E-04 +1.56936547648E-03 -5.16015774963E-04 +1.56980998122E-03 +6.12826054455E-01 +6.71086301294E-01
2.55000000000E+09 +6.36915537362E-01 +5.77136608504E-01 -9.15502953407E-05 +1.65268651774E-03 -2.41370079456E-04 +1.73847052137E-03 +6.18122927090E-01 +6.65038199492E-01
2.55500000000E+09 +6.41942894557E-01 +5.68696491731E-01 +5.71671046378E-05 +1.46233555516E-03 +1.20677669208E-05 +1.65794142822E-03 +6.23119739770E-01 +6.58841114723E-01
2.56000000000E+09 +6.48635081746E-01 +5.59658708286E-01 +8.20992952203E-05 +1.40472341128E-03 +2.06215862086E-04 +1.63169629056E-03 +6.28243797575E-01 +6.51842280860E-01
2.56500000000E+09 +6.56619342467E-01 +5.49506884424E-01 +1.15535251671E-04 +1.48144096001E-03 +4.16750633129E-04 +1.62874289154E-03 +6.33553134160E-01 +6.44666809338E-01
2.57000000000E+09 +6.64998945207E-01 +5.39041411907E-01 +3.09288636119E-04 +1.59135596690E-03 +6.62870686010E-04 +1.45909995962E-03 +6.39116031125E-01 +6.37278820205E-01
2.57500000000E+09 +6.72988076042E-01 +5.28754769226E-01 +5.86327559958E-04 +1.56865111021E-03 +6.98506220853E-04 +1.28079094649E-03 +6.44993702695E-01 +6.29871544025E-01
2.58000000000E+09 +6.79823792464E-01 +5.19676166632E-01 +8.13377702734E-04 +1.48630884865E-03 +7.33238132439E-04 +1.17998691560E-03 +6.50559560730E-01 +6.22475197974E-01
2.58500000000E+09 +6.85372639977E-01 +5.11359327524E-01 +9.53755584978E-04 +1.19379264400E-03 +7.55824209922E-04 +1.07885281357E-03 +6.55899637844E-01 +6.14756002241E-01
2.59000000000E+09 +6.89484794390E-01 +5.04066823979E-01 +9.15939803897E-04 +1.06353038063E-03 +7.64172103371E-04 +1.07198927357E-03 +6.60805919767E-01 +6.07161056747E-01
2.59500000000E+09 +6.92313464059E-01 +4.96599193006E-01 +9.35665027278E-04 +1.09498748791E-03 +9.08336995611E-04 +1.14783967599E-03 +6.65768596586E-01 +5.99254130231E-01
2.60000000000E+09 +6.94194850429E-01 +4.88754965538E-01 +1.10996932971E-03 +1.00515626502E-03 +1.11306111005E-03 +1.06715183112E-03 +6.71123891283E-01 +5.91075369670E-01
2.60500000000E+09 +6.96259328391E-01 +4.79098124164E-01 +1.26156973512E-03 +8.70261063477E-04 +1.23794435378E-03 +8.63661454463E-04 +6.76831137729E-01 +5.82329218558E-01
2.61000000000E+09 +6.98882896010E-01 +4.67565428804E-01 +1.25716854207E-03 +6.93582269225E-04 +1.17839376612E-03 +7.17251326210E-04 +6.82194243923E-01 +5.73308252730E-01
2.61500000000E+09 +7.02511570104E-01 +4.53891975067E-01 +1.28649399373E-03 +5.99932950924E-04 +1.24923650834E-03 +6.08992029472E-04 +6.87168173276E-01 +5.64523193413E-01
2.62000000000E+09 +7.06921494420E-01 +4.38051573596E-01 +1.27494817934E-03 +4.34809057885E-04 +1.33425956375E-03 +4.17349719673E-04 +6.91894377863E-01 +5.55753825218E-01
2.62500000000E+09 +7.12160239305E-01 +4.21322921134E-01 +1.21838066721E-03 +4.50055583488E-04 +1.25714434508E-03 +4.08363407435E-04 +6.96965519505E-01 +5.47109842309E-01
2.63000000000E+09 +7.17768587330E-01 +4.04566124113E-01 +1.35559621071E-03 +4.64435118738E-04 +1.33661392542E-03 +2.86773856824E-04 +7.01841303413E-01 +5.37973288597E-01
2.63500000000E+09 +7.23015930794E-01 +3.88541381225E-01 +1.47841508155E-03 +2.45545240968E-04 +1.34317788097E-03 +5.48650033714E-05 +7.06658597969E-01 +5.28734424615E-01
2.64000000000E+09 +7.27318941255E-01 +3.74214266961E-01 +1.36755475104E-03 +1.31937534440E-04 +1.22130590309E-03 +5.56648794634E-05 +7.11274775409E-01 +5.19166147981E-01
2.64500000000E+09 +7.30761530342E-01 +3.62225140480E-01 +1.38067388170E-03 -3.61086680615E-05 +1.23125405529E-03 +3.72265749057E-05 +7.15886368483E-01 +5.09445933941E-01
2.65000000000E+09 +7.32870183646E-01 +3.52280814580E-01 +1.26127467302E-03 -1.42255895156E-04 +1.20377424451E-03 +3.71777806520E-05 +7.20551933524E-01 +4.99324306845E-01
2.65500000000E+09 +7.34492948717E-01 +3.43140011806E-01 +1.23994864348E-03 -1.07230959248E-04 +1.30742600384E-03 +1.19157383792E-06 +7.24667969909E-01 +4.88680423358E-01
2.66000000000E+09 +7.35759919809E-01 +3.34064488475E-01 +1.30160538039E-03 -1.02996883028E-04 +1.40987541337E-03 -7.14738757067E-05 +7.28672008376E-01 +4.77549146763E-01
2.66500000000E+09 +7.36664534650E-01 +3.24217353188E-01 +1.32005376375E-03 -2.10955478945E-04 +1.34509589128E-03 -3.06910544477E-04 +7.33038564464E-01 +4.66533453912E-01
2.67000000000E+09 +7.37701532507E-01 +3.12177914107E-01 +1.28333051195E-03 -2.22555657547E-04 +1.25894099207E-03 -3.30165020173E-04 +7.37575045308E-01 +4.55839742390E-01
2.67500000000E+09 +7.38901785116E-01 +2.98107652246E-01 +1.36554173587E-03 -2.77392452677E-04 +1.21822933671E-03 -3.16594389746E-04 +7.42031902679E-01 +4.44760520925E-01
2.68000000000E+09 +7.40081673800E-01 +2.82170614685E-01 +1.45214680089E-03 -4.44612062746E-04 +1.41682288799E-03 -3.27663138546E-04 +7.46115005273E-01 +4.33325247359E-01
2.68500000000E+09 +7.41392175950E-01 +2.65153174334E-01 +1.39241969264E-03 -6.18747292392E-04 +1.33826774382E-03 -5.28572334085E-04 +7.49206863962E-01 +4.21781657853E-01
2.69000000000E+09 +7.42508886242E-01 +2.47675295101E-01 +1.33413266044E-03 -5.52966418968E-04 +1.32759293532E-03 -5.34523465706E-04 +7.52090784580E-01 +4.09708359448E-01
2.69500000000E+09 +7.43434582770E-01 +2.31199555313E-01 +1.55520831255E-03 -5.80317575673E-04 +1.50292796248E-03 -6.44500579505E-04 +7.55065710118E-01 +3.97184804703E-01
2.70000000000E+09 +7.44354524583E-01 +2.15728823258E-01 +1.66248857355E-03 -9.47750539536E-04 +1.61402619993E-03 -8.70516992856E-04 +7.58135372974E-01 +3.83824426837E-01
2.70500000000E+09 +7.44908733192E-01 +2.01729195636E-01 +1.61896365319E-03 -1.20787632616E-03 +1.58537558932E-03 -1.08724563309E-03 +7.61213593332E-01 +3.70403131205E-01
2.71000000000E+09 +7.44936138396E-01 +1.88779951334E-01 +1.49706460111E-03 -1.44462079071E-03 +1.57764175954E-03 -1.39770370463E-03 +7.64033105945E-01 +3.56872177322E-01
2.71500000000E+09 +7.44924257210E-01 +1.76111717958E-01 +1.32085183924E-03 -1.50191877339E-03 +1.44004414759E-03 -1.53762309368E-03 +7.66118052901E-01 +3.44370096670E-01
2.72000000000E+09 +7.44550355773E-01 +1.63426615650E-01 +1.27962297010E-03 -1.72971155848E-03 +1.30636433705E-03 -1.87897671919E-03 +7.68273971613E-01 +3.31661209728E-01
2.72500000000E+09 +7.44309729426E-01 +1.49249096667E-01 +1.08018258661E-03 -1.90628920028E-03 +8.61883243198E-04 -1.90225130794E-03 +7.69369613368E-01 +3.18046065143E-01
2.73000000000E+09 +7.43207457406E-01 +1.33557192306E-01 +1.08226539548E-03 -1.93783564454E-03 +8.74314423025E-04 -1.81351777608E-03 +7.70463945801E-01 +3.03808758983E-01
2.73500000000E+09 +7.41261323906E-01 +1.15952817588E-01 +9.22940494786E-04 -2.28878951346E-03 +8.09199614739E-04 -1.98544601282E-03 +7.70949097613E-01 +2.89137593071E-01
2.74000000000E+09 +7.38581474938E-01 +9.77865949917E-02 +6.13711861268E-04 -2.33715298612E-03 +7.16680568442E-04 -2.01192487862E-03 +7.72355582071E-01 +2.74519649360E-01
2.74500000000E+09 +7.34925249409E-01 +7.87164917894E-02 +4.20347358153E-04 -2.42366385500E-03 +7.10216369954E-04 -2.23888167282E-03 +7.73773404252E-01 +2.59624445292E-01
2.75000000000E+09 +7.30142895623E-01 +5.99981095924E-02 +3.76052922620E-04 -2.40110066423E-03 +6.57760313867E-04 -2.45098510385E-03 +7.74780204189E-01 +2.44529048802E-01
2.75500000000E+09 +7.24948198809E-01 +4.24556494003E-02 +2.09867548786E-04 -2.81445240866E-03 +3.74724277134E-04 -3.05287332867E-03 +7.74865056133E-01 +2.29576938174E-01
2.76000000000E+09 +7.19881744299E-01 +2.54299835956E-02 -2.65316053267E-04 -2.81477504925E-03 -2.60210271358E-04 -3.05151741820E-03 +7.74388696757E-01 +2.14162067973E-01
2.76500000000E+09 +7.14198793544E-01 +8.75908024635E-03 -6.52293214244E-04 -2.92555536839E-03 -7.31675141818E-04 -3.01517192136E-03 +7.73599820766E-01 +1.98332745646E-01
2.77000000000E+09 +7.08546471834E-01 -8.19436555187E-03 -1.10335318477E-03 -2.67483728046E-03 -1.17501101712E-03 -2.76939214348E-03 +7.73148644783E-01 +1.81129741272E-01
2.77500000000E+09 +7.02681044287E-01 -2.61568614291E-02 -1.04224273043E-03 -2.17223146654E-03 -1.11234530298E-03 -2.23577825492E-03 +7.71726120463E-01 +1.62914466688E-01
2.78000000000E+09 +6.96301268588E-01 -4.52108085714E-02 -7.78661701364E-04 -2.52678585764E-03 -9.43092846049E-04 -2.57100932764E-03 +7.69795754701E-01 +1.45099074559E-01
2.78500000000E+09 +6.89417051656E-01 -6.54416778412E-02 -1.16486736506E-03 -2.94779497778E-03 -1.33920472754E-03 -2.80597547040E-03 +7.67811665105E-01 +1.27405930580E-01
2.79000000000E+09 +6.82427910842E-01 -8.71361300308E-02 -1.71952076743E-03 -2.79766636385E-03 -1.78438098024E-03 -2.53388767638E-03 +7.64955600411E-01 +1.10037226078E-01
2.79500000000E+09 +6.74240618350E-01 -1.09467583855E-01 -1.89972691712E-03 -2.76918740187E-03 -1.77146499773E-03 -2.57089539751E-03 +7.61412143601E-01 +9.18415515049E-02
2.80000000000E+09 +6.65118800200E-01 -1.31144200000E-01 -2.28329606751E-03 -2.64989320416E-03 -2.10284303678E-03 -2.61532004187E-03 +7.56555581052E-01 +7.30917558296E-02
2.80500000000E+09 +6.55249697917E-01 -1.51371217490E-01 -2.30807136548E-03 -2.60669424917E-03 -2.21795011248E-03 -2.67940115262E-03 +7.50800846783E-01 +5.35764123566E-02
2.81000000000E+09 +6.44549162813E-01 -1.69442223660E-01 -2.86550198632E-03 -3.02594985375E-03 -2.93029807381E-03 -3.14051086289E-03 +7.44125860507E-01 +3.44392865493E-02
2.81500000000E+09 +6.33157711459E-01 -1.85411889151E-01 -3.72268590642E-03 -2.66627223952E-03 -3.84120299221E-03 -2.60661353631E-03 +7.37869552418E-01 +1.46338197771E-02
2.82000000000E+09 +6.21064990226E-01 -2.00488391569E-01 -4.08819210959E-03 -2.46828005878E-03 -4.17024024546E-03 -2.27538692748E-03 +7.30566339633E-01 -6.13618449860E-03
2.82500000000E+09 +6.07131312102E-01 -2.15028485437E-01 -4.77224745979E-03 -2.01422613970E-03 -4.66170732798E-03 -1.77148768521E-03 +7.21450376340E-01 -2.64932307640E-02
2.83000000000E+09 +5.91466239336E-01 -2.29587095562E-01 -5.15415742170E-03 -1.39190646398E-03 -4.89212042551E-03 -1.30449034405E-03 +7.11474660908E-01 -4.58635935924E-02
2.83500000000E+09 +5.74665258726E-01 -2.45947874806E-01 -5.61024858451E-03 -8.04245505763E-04 -5.36846550614E-03 -9.70571877846E-04 +7.01372133030E-01 -6.57108557977E-02
2.84000000000E+09 +5.54872364288E-01 -2.64403689364E-01 -5.80252573723E-03 +8.06963320618E-06 -5.74167944527E-03 -1.66884041208E-04 +6.90228118680E-01 -8.56702902052E-02
2.84500000000E+09 +5.32365294948E-01 -2.84128288820E-01 -5.69189749677E-03 +6.78244386205E-04 -5.83040931632E-03 +5.81963004665E-04 +6.78046831713E-01 -1.06305356640E-01
2.85000000000E+09 +5.08349693263E-01 -3.04440487001E-01 -5.82202081653E-03 +9.59833559660E-04 -5.88963974149E-03 +9.79980820652E-04 +6.64322576318E-01 -1.26751571377E-01
2.85500000000E+09 +4.82825558986E-01 -3.24375110747E-01 -6.61889777741E-03 +1.62226131724E-03 -6.51887928100E-03 +1.66675155805E-03 +6.49181801197E-01 -1.47262833146E-01
2.86000000000E+09 +4.57975306152E-01 -3.42388849045E-01 -6.41888529788E-03 +2.89157508681E-03 -6.32673016789E-03 +2.78687835005E-03 +6.33254248041E-01 -1.66620165022E-01
2.86500000000E+09 +4.34311692668E-01 -3.58762286164E-01 -6.43456835723E-03 +3.68619574320E-03 -6.45813113343E-03 +3.59858634782E-03 +6.16744708670E-01 -1.87030397136E-01
2.87000000000E+09 +4.11546597071E-01 -3.73637890540E-01 -6.16066248332E-03 +5.06399279300E-03 -6.16669371093E-03 +5.07019508942E-03 +5.98419133510E-01 -2.07278770066E-01
2.87500000000E+09 +3.89254836402E-01 -3.86477173091E-01 -5.46003981699E-03 +5.83556781367E-03 -5.29404740665E-03 +5.92470053305E-03 +5.77912292982E-01 -2.26639632978E-01
2.88000000000E+09 +3.66400312045E-01 -3.97991776276E-01 -4.96927538053E-03 +6.39745466280E-03 -4.58917801120E-03 +6.37665201975E-03 +5.57339953583E-01 -2.44988672292E-01
2.88500000000E+09 +3.41659498097E-01 -4.07474222367E-01 -4.64335450108E-03 +7.52253796031E-03 -4.24803472456E-03 +7.15530129866E-03 +5.34977253519E-01 -2.63292241509E-01
2.89000000000E+09 +3.15542939954E-01 -4.15982559261E-01 -3.55596129476E-03 +8.62028963191E-03 -3.55583362476E-03 +8.05980344582E-03 +5.11017218884E-01 -2.81770732978E-01
2.89500000000E+09 +2.86134244387E-01 -4.23576521050E-01 -2.24979163124E-03 +9.18744963437E-03 -2.57943586479E-03 +8.84461392297E-03 +4.83902341503E-01 -2.99639167946E-01
2.90000000000E+09 +2.54669909945E-01 -4.30006603301E-01 -1.40168976284E-03 +9.36148097241E-03 -1.75621873855E-03 +9.42980397045E-03 +4.56869980231E-01 -3.15398621767E-01
2.90500000000E+09 +2.20357259745E-01 -4.35908920598E-01 -3.88199193178E-04 +1.03312748696E-02 -4.03916710460E-04 +1.05330412558E-02 +4.28209133851E-01 -3.31300543443E-01
2.91000000000E+09 +1.84542894333E-01 -4.39391544970E-01 +1.16057584335E-03 +1.08236892266E-02 +1.41653929988E-03 +1.06593694956E-02 +3.98821039500E-01 -3.45722519933E-01
2.91500000000E+09 +1.49982008320E-01 -4.41539234861E-01 +3.10879034361E-03 +1.14479913245E-02 +3.16514861312E-03 +1.08687117190E-02 +3.67626324943E-01 -3.58450399880E-01
2.92000000000E+09 +1.15259375397E-01 -4.43038298993E-01 +5.35797271431E-03 +1.06408155333E-02 +4.92151142573E-03 +9.98863158633E-03 +3.35022193146E-01 -3.69903390186E-01
2.92500000000E+09 +8.07706249764E-02 -4.42574611277E-01 +6.74474719394E-03 +9.76063076190E-03 +5.98733177332E-03 +9.51544829503E-03 +3.00022878245E-01 -3.78593711046E-01
2.93000000000E+09 +4.72278024220E-02 -4.38770175839E-01 +7.85601479443E-03 +8.58157007422E-03 +7.24634062428E-03 +8.81960309771E-03 +2.64000620337E-01 -3.86461138210E-01
2.93500000000E+09 +1.45025487932E-02 -4.32837745097E-01 +8.91613541795E-03 +8.13676520335E-03 +8.60376514144E-03 +8.50921318680E-03 +2.25804842894E-01 -3.91753989308E-01
2.94000000000E+09 -1.82357056456E-02 -4.23814282102E-01 +1.02038188432E-02 +7.30768564958E-03 +1.00693146578E-02 +7.54441352549E-03 +1.86970305393E-01 -3.96214516567E-01
2.94500000000E+09 -5.02110149263E-02 -4.11576257098E-01 +1.23387629723E-02 +6.17092973276E-03 +1.21276033802E-02 +6.35927397569E-03 +1.46334451019E-01 -3.96353188296E-01
2.95000000000E+09 -8.28259742047E-02 -3.97686230778E-01 +1.33932865804E-02 +3.58299627076E-03 +1.32048084230E-02 +4.10303894269E-03 +1.07512894114E-01 -3.94505133183E-01
2.95500000000E+09 -1.16962559072E-01 -3.80294642407E-01 +1.35582375868E-02 +1.19415173657E-03 +1.38732903288E-02 +1.74884232662E-03 +6.78582754053E-02 -3.90744095831E-01
2.96000000000E+09 -1.50065950612E-01 -3.59373722287E-01 +1.32435194883E-02 -5.50765687514E-04 +1.38292194725E-02 -3.78430119533E-04 +2.60569417061E-02 -3.83963506379E-01
2.96500000000E+09 -1.81681155948E-01 -3.36633061889E-01 +1.31905384025E-02 -1.98781496543E-03 +1.35365349660E-02 -2.33646426300E-03 -1.51152554567E-02 -3.72123401208E-01
2.97000000000E+09 -2.12044970981E-01 -3.12429920098E-01 +1.30189500322E-02 -3.51230543804E-03 +1.29070541141E-02 -3.91296750779E-03 -5.60462300904E-02 -3.58464963656E-01
2.97500000000E+09 -2.40366524707E-01 -2.86492114073E-01 +1.35611158069E-02 -5.35604674489E-03 +1.30484127803E-02 -5.40383485336E-03 -9.60829780858E-02 -3.41492608823E-01
2.98000000000E+09 -2.66612064069E-01 -2.59540768644E-01 +1.24421236197E-02 -8.27947508843E-03 +1.23598495774E-02 -7.76044395578E-03 -1.34926235212E-01 -3.22638721351E-01
2.98500000000E+09 -2.90765362692E-01 -2.30471885327E-01 +1.10921741220E-02 -1.02590733594E-02 +1.16570917512E-02 -9.88163423893E-03 -1.71750418598E-01 -3.00281706237E-01
2.99000000000E+09 -3.12043195815E-01 -2.00447785274E-01 +8.86041589783E-03 -1.16373666748E-02 +9.50232611095E-03 -1.20539162319E-02 -2.08511699925E-01 -2.75215270160E-01
2.99500000000E+09 -3.31345556260E-01 -1.69803027140E-01 +7.31938613356E-03 -1.26572039437E-02 +7.30609847465E-03 -1.33505423861E-02 -2.42162156486E-01 -2.46144021091E-01
3.00000000000E+09 -3.50868635980E-01 -1.38013964939E-01 +5.35528266202E-03 -1.33577026433E-02 +4.63274394930E-03 -1.36771025838E-02 -2.74216908958E-01 -2.14529539604E-01
3.00500000000E+09 -3.67383645488E-01 -1.03532440529E-01 +3.72991284440E-03 -1.44504619863E-02 +3.06609693846E-03 -1.40405088265E-02 -3.03359216145E-01 -1.82120364886E-01
3.01000000000E+09 -3.81529178828E-01 -7.01390581057E-02 +7.90844313669E-04 -1.49727787556E-02 +8.27271007262E-04 -1.42433672297E-02 -3.32239675076E-01 -1.46681426724E-01
3.01500000000E+09 -3.94612864073E-01 -3.63504639877E-02 -1.51265630005E-03 -1.40617061793E-02 -1.07902928312E-03 -1.37960991731E-02 -3.56460823869E-01 -1.09994514328E-01
3.02000000000E+09 -4.04149730988E-01 -2.23078166934E-03 -2.90159811283E-03 -1.33131378463E-02 -2.60868870616E-03 -1.34600350973E-02 -3.77740154934E-01 -7.13350926731E-02
3.02500000000E+09 -4.10362220758E-01 +2.99705367264E-02 -4.64901013137E-03 -1.31268150474E-02 -4.51004303976E-03 -1.32850781002E-02 -3.95047097926E-01 -3.26323560838E-02
3.03000000000E+09 -4.14131496386E-01 +6.13471800886E-02 -6.45817651731E-03 -1.20421367567E-02 -6.25770239748E-03 -1.19627391748E-02 -4.09769389346E-01 +7.86715149071E-03
3.03500000000E+09 -4.14865851543E-01 +9.24497319492E-02 -8.30077664842E-03 -1.15300676131E-02 -7.93426786851E-03 -1.16624548012E-02 -4.21003409477E-01 +4.73145557562E-02
3.04000000000E+09 -4.12252639138E-01 +1.23751600233E-01 -1.01354228617E-02 -8.89646711433E-03 -1.00459980864E-02 -9.44485689130E-03 -4.30025171182E-01 +8.86287743040E-02
3.04500000000E+09 -4.07115388450E-01 +1.55125448351E-01 -1.00337773506E-02 -7.12468409994E-03 -1.05387903800E-02 -7.71561779767E-03 -4.35541116399E-01 +1.28537968024E-01
3.05000000000E+09 -3.99671538114E-01 +1.88153224614E-01 -1.05872808418E-02 -5.87815293759E-03 -1.14489237941E-02 -5.81584135450E-03 -4.38598853773E-01 +1.68293123398E-01
3.05500000000E+09 -3.88873814144E-01 +2.22301121645E-01 -1.09503398221E-02 -4.64823892444E-03 -1.13918484366E-02 -4.00506362802E-03 -4.39083541505E-01 +2.06620281105E-01
3.06000000000E+09 -3.76227338873E-01 +2.55632156200E-01 -1.14727671637E-02 -3.60471923770E-03 -1.12469442778E-02 -2.82072871916E-03 -4.37722830888E-01 +2.43695336407E-01
3.06500000000E+09 -3.62296433877E-01 +2.88336428375E-01 -1.22642232093E-02 -1.62466621250E-03 -1.14859243344E-02 -1.47055779077E-03 -4.34899167816E-01 +2.81165356602E-01
3.07000000000E+09 -3.48290651686E-01 +3.18333278420E-01 -1.18048951587E-02 +4.52430662736E-04 -1.14987051703E-02 -8.53826713224E-05 -4.27883341672E-01 +3.17868730494E-01
