# Hz S RI R 50
! CMT, C1220, 16058040, 17.2.0/1
! Date: 15/08/2018 09:44:46
! Data: Format (Calibration Info)
! Freq                      S11: Re/Im (F2)                       S21: Re/Im (F2)                       S12: Re/Im (F2)                       S22: Re/Im (F2)            
2.50000000000E+09 +5.81406461846E-01 +6.60740097516E-01 -7.38322250309E-05 -1.78777153010E-03 -1.19022297821E-04 -1.93513977759E-03 +5.74060128091E-01 +7.18651590890E-01
2.50500000000E+09 +5.88312707685E-01 +6.52989074036E-01 -2.88046379821E-04 -1.80762008088E-03 -3.66975945106E-04 -1.91103264326E-03 +5.79562365525E-01 +7.13108205666E-01
2.51000000000E+09 +5.95723600675E-01 +6.44625675056E-01 -5.03998339890E-04 -1.85380130496E-03 -5.71319984328E-04 -1.76364811667E-03 +5.84964486916E-01 +7.07896651771E-01
2.51500000000E+09 +6.03025565936E-01 +6.36276933345E-01 -7.05303600793E-04 -1.81106871708E-03 -7.24280262359E-04 -1.71856472356E-03 +5.90163828791E-01 +7.02446777750E-01
2.52000000000E+09 +6.09836822363E-01 +6.27434024148E-01 -9.55178730798E-04 -1.72868028443E-03 -8.63885872944E-04 -1.70977796809E-03 +5.95348969598E-01 +6.96409729459E-01
2.52500000000E+09 +6.15744515818E-01 +6.18801794785E-01 -1.11007269722E-03 -1.55992027795E-03 -1.07356856388E-03 -1.60640376600E-03 +6.01345840958E-01 +6.89746293508E-01
2.53000000000E+09 +6.21185614532E-01 +6.10406567562E-01 -1.18801233449E-03 -1.43833294632E-03 -1.17944816361E-03 -1.51978660739E-03 +6.07551719300E-01 +6.82485436499E-01
2.53500000000E+09 +6.25888042455E-01 +6.02441759625E-01 -1.27377288985E-03 -1.41162405821E-03 -1.27093905046E-03 -1.42916135947E-03 +6.13413372668E-01 +6.75742011623E-01
2.54000000000E+09 +6.30080952633E-01 +5.94631872417E-01 -1.45339579274E-03 -1.34733404778E-03 -1.40574495026E-03 -1.38847135934E-03 +6.19109486018E-01 +6.69197166013E-01
2.54500000000E+09 +6.34329055326E-01 +5.87538785118E-01 -1.68353605323E-03 -1.31458315606E-03 -1.56895360549E-03 -1.49297532543E-03 +6.24676984144E-01 +6.62874800344E-01
2.55000000000E+09 +6.39048529191E-01 +5.80554553684E-01 -1.85896890430E-03 -1.03207179620E-03 -1.88864481033E-03 -1.29729968959E-03 +6.29760088569E-01 +6.56268181289E-01
2.55500000000E+09 +6.44612626601E-01 +5.72909773606E-01 -1.97187282500E-03 -8.04063320143E-04 -2.24213508386E-03 -1.05734458753E-03 +6.34917400436E-01 +6.49784438358E-01
2.56000000000E+09 +6.50976474911E-01 +5.65208999074E-01 -1.90399915778E-03 -5.27429524421E-04 -2.28272805571E-03 -4.65205319201E-04 +6.40506220772E-01 +6.42485375042E-01
2.56500000000E+09 +6.57842602297E-01 +5.56437875899E-01 -1.88373218055E-03 -5.69210577324E-04 -2.16726374396E-03 -2.17961930674E-04 +6.46024140698E-01 +6.34738894640E-01
2.57000000000E+09 +6.64899568184E-01 +5.47304960853E-01 -1.98158263816E-03 -4.99924151125E-04 -2.04925646444E-03 -4.25950818326E-05 +6.51439732680E-01 +6.27278244901E-01
2.57500000000E+09 +6.72167115059E-01 +5.37331604720E-01 -2.19432550820E-03 -3.97932266569E-04 -1.96463698165E-03 -4.02724217257E-05 +6.56819861561E-01 +6.19856915439E-01
2.58000000000E+09 +6.78392812089E-01 +5.27351909795E-01 -2.38316989612E-03 -6.54553534530E-05 -2.00199851053E-03 +5.90633189276E-05 +6.61602442938E-01 +6.12438698987E-01
2.58500000000E+09 +6.83936301546E-01 +5.17101051534E-01 -2.25701376344E-03 +3.52752283914E-04 -1.96579467525E-03 +2.70644139191E-04 +6.66224461199E-01 +6.04984666387E-01
2.59000000000E+09 +6.89079241044E-01 +5.07603721240E-01 -1.94606851190E-03 +4.53355607837E-04 -1.87684788158E-03 +2.69124117538E-04 +6.71336105252E-01 +5.97124228153E-01
2.59500000000E+09 +6.93553699803E-01 +4.97819570972E-01 -2.00979708368E-03 +3.10335083124E-04 -2.02047742333E-03 +2.02910663582E-04 +6.76207757802E-01 +5.88558684633E-01
2.60000000000E+09 +6.97412458958E-01 +4.88294809229E-01 -2.23426716571E-03 +3.80248468083E-04 -2.25345917947E-03 +3.59363076380E-04 +6.81205231884E-01 +5.80168168856E-01
2.60500000000E+09 +7.01451716432E-01 +4.78653495018E-01 -2.53917301672E-03 +6.76262704713E-04 -2.48943749226E-03 +6.91515104058E-04 +6.86421195088E-01 +5.71709048829E-01
2.61000000000E+09 +7.05621064815E-01 +4.68329414539E-01 -2.63989898646E-03 +1.22442005335E-03 -2.55254130861E-03 +1.18500410037E-03 +6.91338699817E-01 +5.63220772721E-01
2.61500000000E+09 +7.10309951862E-01 +4.57416796619E-01 -2.21401388553E-03 +1.79815981277E-03 -2.29746842759E-03 +1.72306387509E-03 +6.95547699171E-01 +5.54825425099E-01
2.62000000000E+09 +7.15142834595E-01 +4.45156358434E-01 -1.82066641112E-03 +1.73740852913E-03 -1.85510076289E-03 +1.83776328659E-03 +7.00409916035E-01 +5.46025193917E-01
2.62500000000E+09 +7.19912954015E-01 +4.31749734126E-01 -1.81690725737E-03 +1.63785692664E-03 -1.80143044165E-03 +1.83587141884E-03 +7.05345293308E-01 +5.36749434075E-01
2.63000000000E+09 +7.24357888997E-01 +4.17948958740E-01 -1.91711158151E-03 +1.95424459971E-03 -1.61438276489E-03 +2.11486362501E-03 +7.10053200761E-01 +5.27355456691E-01
2.63500000000E+09 +7.28333772592E-01 +4.03640120710E-01 -1.89673016273E-03 +2.19121578830E-03 -1.45936347148E-03 +2.11359415679E-03 +7.15184840701E-01 +5.18117829685E-01
2.64000000000E+09 +7.31815650788E-01 +3.89605298684E-01 -1.65767635649E-03 +2.70579348547E-03 -1.39967824490E-03 +2.35899880082E-03 +7.19817835191E-01 +5.08728515472E-01
2.64500000000E+09 +7.35078066830E-01 +3.76294062761E-01 -1.06161775061E-03 +3.05993449908E-03 -1.09351262585E-03 +2.52750608383E-03 +7.24481148732E-01 +4.99499783563E-01
2.65000000000E+09 +7.37721258853E-01 +3.63525449950E-01 -6.58435296717E-04 +2.78310937562E-03 -9.78683413331E-04 +2.54363766115E-03 +7.28882631711E-01 +4.90016448908E-01
2.65500000000E+09 +7.40233285411E-01 +3.51154727194E-01 -5.87292702099E-04 +2.70800527176E-03 -8.68261661990E-04 +2.78593160915E-03 +7.32863980252E-01 +4.79315272159E-01
2.66000000000E+09 +7.43055944506E-01 +3.39335038307E-01 -5.90771883022E-04 +2.87173342597E-03 -6.35554019148E-04 +3.06533376052E-03 +7.36837802544E-01 +4.68284049671E-01
2.66500000000E+09 +7.45859884607E-01 +3.27231090615E-01 -2.57281546568E-04 +3.15633433685E-03 -8.20517486551E-05 +3.26330730003E-03 +7.41569731909E-01 +4.57091682410E-01
2.67000000000E+09 +7.48597949879E-01 +3.14153960100E-01 +2.55583526813E-04 +3.25487424370E-03 +3.90919980405E-04 +3.14278564324E-03 +7.46302972559E-01 +4.46038788160E-01
2.67500000000E+09 +7.50616727155E-01 +3.00257754974E-01 +6.28851819650E-04 +2.97558080554E-03 +6.92625039567E-04 +2.80478945136E-03 +7.50408609047E-01 +4.34803767706E-01
2.68000000000E+09 +7.52259180443E-01 +2.85686948396E-01 +7.13666399250E-04 +2.71756576940E-03 +6.09555059223E-04 +2.53729486742E-03 +7.54210910357E-01 +4.24301349499E-01
2.68500000000E+09 +7.52973051798E-01 +2.70162234087E-01 +5.68997099703E-04 +2.83236599145E-03 +4.47033124566E-04 +2.80236061765E-03 +7.57364652582E-01 +4.12780251087E-01
2.69000000000E+09 +7.52995583272E-01 +2.54536238268E-01 +8.51100482025E-04 +3.17054360068E-03 +8.36321959751E-04 +3.19135645608E-03 +7.60071063505E-01 +4.00734215219E-01
2.69500000000E+09 +7.52675991542E-01 +2.39035862237E-01 +1.46638076559E-03 +3.16709534262E-03 +1.45717431908E-03 +3.13938121930E-03 +7.63274072588E-01 +3.87845113077E-01
2.70000000000E+09 +7.52550249081E-01 +2.23592040284E-01 +1.90426208442E-03 +2.99294446416E-03 +1.83214350737E-03 +2.93029430711E-03 +7.66469379296E-01 +3.73930807834E-01
2.70500000000E+09 +7.52132707426E-01 +2.08461492807E-01 +2.14508026134E-03 +2.49844181045E-03 +2.00969820078E-03 +2.54832994780E-03 +7.69448209266E-01 +3.60082202945E-01
2.71000000000E+09 +7.52111887923E-01 +1.93780527455E-01 +2.16266516736E-03 +2.31030853220E-03 +2.07323926662E-03 +2.45478886667E-03 +7.72129901129E-01 +3.47388522218E-01
2.71500000000E+09 +7.52669343604E-01 +1.78950010249E-01 +2.06391412712E-03 +2.33213486121E-03 +2.20014173015E-03 +2.53944988070E-03 +7.75066786255E-01 +3.35138601087E-01
2.72000000000E+09 +7.53183061575E-01 +1.63903253910E-01 +2.36129490015E-03 +2.49554182243E-03 +2.70745077093E-03 +2.44829590834E-03 +7.77562903523E-01 +3.21935762272E-01
2.72500000000E+09 +7.53537634517E-01 +1.48257966798E-01 +2.87241660499E-03 +2.30237114039E-03 +3.07397985780E-03 +1.95563349556E-03 +7.78509048623E-01 +3.07822335815E-01
2.73000000000E+09 +7.53099517637E-01 +1.32069017429E-01 +2.91617037554E-03 +2.16466066865E-03 +2.87049303462E-03 +1.69970759632E-03 +7.79755871050E-01 +2.93268902646E-01
2.73500000000E+09 +7.51765051700E-01 +1.15094081583E-01 +3.14892047426E-03 +2.35647293389E-03 +2.75984190529E-03 +1.94826696634E-03 +7.80668520841E-01 +2.78132948432E-01
2.74000000000E+09 +7.49122257818E-01 +9.78145898921E-02 +4.00292652977E-03 +2.17773378469E-03 +3.34183273752E-03 +2.21970820166E-03 +7.82441234774E-01 +2.63236365600E-01
2.74500000000E+09 +7.45211322442E-01 +7.99846913241E-02 +4.31193177603E-03 +1.50025054442E-03 +3.89979889582E-03 +1.91242751953E-03 +7.83572287169E-01 +2.48011658684E-01
2.75000000000E+09 +7.39856847127E-01 +6.21756000746E-02 +4.43722141147E-03 +1.09264846912E-03 +4.43091544509E-03 +1.57739716391E-03 +7.84028802596E-01 +2.32883633066E-01
2.75500000000E+09 +7.33682244082E-01 +4.46947516430E-02 +4.58269140841E-03 +7.13384445726E-04 +4.89622437938E-03 +1.06295548277E-03 +7.83429877773E-01 +2.17675603731E-01
2.76000000000E+09 +7.27311335164E-01 +2.74901486077E-02 +4.75206688815E-03 +5.06458466590E-04 +5.11218762189E-03 +6.19860918007E-04 +7.82773562227E-01 +2.02160530619E-01
2.76500000000E+09 +7.21329067851E-01 +1.04251653573E-02 +5.33544779463E-03 +2.36333186192E-04 +5.57741250915E-03 +1.04951513932E-04 +7.81952815685E-01 +1.84779337405E-01
2.77000000000E+09 +7.16112287120E-01 -7.28760365799E-03 +5.92557058349E-03 -6.23149941275E-04 +6.11770154198E-03 -8.17449334121E-04 +7.80994581959E-01 +1.66952934309E-01
2.77500000000E+09 +7.11272785438E-01 -2.59582130542E-02 +5.81477510517E-03 -1.95533132774E-03 +5.93768221712E-03 -2.17464030146E-03 +7.79097805344E-01 +1.48809700637E-01
2.78000000000E+09 +7.06534089983E-01 -4.56020356707E-02 +5.13699001721E-03 -2.53290433218E-03 +5.14680718150E-03 -2.81104747096E-03 +7.76970537933E-01 +1.31292504559E-01
2.78500000000E+09 +7.01344519011E-01 -6.61315189763E-02 +4.99702639976E-03 -2.71220391613E-03 +4.76181625788E-03 -3.02654668538E-03 +7.74691459514E-01 +1.14049444697E-01
2.79000000000E+09 +6.95282685809E-01 -8.75339135718E-02 +5.09140391497E-03 -3.24554907979E-03 +4.73085128950E-03 -3.37948056165E-03 +7.71588195484E-01 +9.62313374053E-02
2.79500000000E+09 +6.87710703729E-01 -1.08837254370E-01 +4.87040156619E-03 -3.88072170869E-03 +4.52871929245E-03 -3.63076859761E-03 +7.67284040043E-01 +7.73514080039E-02
2.80000000000E+09 +6.78308953289E-01 -1.29163843304E-01 +4.94966795711E-03 -4.71755151373E-03 +4.91191040211E-03 -4.44371097785E-03 +7.61709716368E-01 +5.78526442025E-02
2.80500000000E+09 +6.68230047702E-01 -1.48290990584E-01 +4.09696840009E-03 -5.95247157552E-03 +4.31681465927E-03 -5.80694985118E-03 +7.55545631852E-01 +3.90842622450E-02
2.81000000000E+09 +6.57164222797E-01 -1.66445040607E-01 +3.03066992736E-03 -5.98596071198E-03 +3.20073346678E-03 -6.16114643611E-03 +7.49798335766E-01 +1.98577381346E-02
2.81500000000E+09 +6.45295831636E-01 -1.84024144189E-01 +2.75609084134E-03 -6.16701736465E-03 +2.70013007571E-03 -6.38913790816E-03 +7.42726278742E-01 +5.14096288095E-04
2.82000000000E+09 +6.32328192971E-01 -2.01453661750E-01 +2.37602267284E-03 -6.75886071072E-03 +2.01514545156E-03 -6.82072216638E-03 +7.35257009444E-01 -1.91628611618E-02
2.82500000000E+09 +6.18449015190E-01 -2.18984176731E-01 +1.41956835792E-03 -7.24610642904E-03 +1.13726715733E-03 -6.98343488302E-03 +7.25768507297E-01 -3.94785410378E-02
2.83000000000E+09 +6.02449178764E-01 -2.37472432347E-01 +6.73465877109E-04 -7.51569775579E-03 +6.31951348152E-04 -7.12675407746E-03 +7.15193874205E-01 -5.94118933427E-02
2.83500000000E+09 +5.85308465067E-01 -2.55678220567E-01 -4.47790815440E-04 -7.46709211257E-03 -2.18797493161E-04 -7.24365080440E-03 +7.04705513215E-01 -7.91336385141E-02
2.84000000000E+09 +5.66415916429E-01 -2.74153435435E-01 -8.33302400675E-04 -6.84915539779E-03 -5.95638640966E-04 -6.81105265336E-03 +6.94299409943E-01 -1.00685517068E-01
2.84500000000E+09 +5.45728698043E-01 -2.93152587912E-01 -5.41099576971E-04 -7.41208412914E-03 -4.68107386805E-04 -7.43025425762E-03 +6.81432261534E-01 -1.22135670382E-01
2.85000000000E+09 +5.23437999944E-01 -3.11768051191E-01 -1.52781282943E-03 -8.72751950895E-03 -1.57299286902E-03 -8.66645974329E-03 +6.66794045874E-01 -1.42561395408E-01
2.85500000000E+09 +5.00156680039E-01 -3.29572523282E-01 -3.55298226378E-03 -9.15576574519E-03 -3.61725667965E-03 -8.99862372567E-03 +6.51571951971E-01 -1.62037015469E-01
2.86000000000E+09 +4.75810654527E-01 -3.47291063904E-01 -5.43891526310E-03 -8.41882493692E-03 -5.29345473002E-03 -8.31383168208E-03 +6.35895153133E-01 -1.82575537544E-01
2.86500000000E+09 +4.50767264833E-01 -3.63324843433E-01 -7.00900093898E-03 -7.13546632417E-03 -6.88079591485E-03 -7.09632600755E-03 +6.18154331994E-01 -2.04205012305E-01
2.87000000000E+09 +4.25120639456E-01 -3.78770361028E-01 -7.30342821637E-03 -5.41888898671E-03 -7.34762103574E-03 -5.45939261160E-03 +5.97543217689E-01 -2.25632503844E-01
2.87500000000E+09 +3.99045994568E-01 -3.92503276630E-01 -6.88878858325E-03 -4.94474007277E-03 -6.95058338598E-03 -4.71618701107E-03 +5.76280427802E-01 -2.44645668881E-01
2.88000000000E+09 +3.72690355937E-01 -4.04776036406E-01 -7.39114307372E-03 -5.22936610315E-03 -7.32138354959E-03 -4.84750734006E-03 +5.54865162742E-01 -2.63114150961E-01
2.88500000000E+09 +3.46471365709E-01 -4.15702066917E-01 -9.20042980326E-03 -4.54263774426E-03 -8.71958668833E-03 -4.20426655041E-03 +5.32290422646E-01 -2.80916487268E-01
2.89000000000E+09 +3.19568099366E-01 -4.26754984783E-01 -9.61888457479E-03 -2.83259426910E-03 -9.01664244513E-03 -2.92803283342E-03 +5.06641190489E-01 -2.99311546599E-01
2.89500000000E+09 +2.90880680472E-01 -4.36741046425E-01 -9.88378948383E-03 -1.97063748059E-03 -9.50697294396E-03 -2.33755026399E-03 +4.78139090234E-01 -3.16198974100E-01
2.90000000000E+09 +2.60089349879E-01 -4.45914797415E-01 -1.04236392440E-02 -5.69077976590E-04 -1.04856137910E-02 -9.66478166904E-04 +4.48446337044E-01 -3.30780070798E-01
2.90500000000E+09 +2.26215053595E-01 -4.52539230548E-01 -1.01460920594E-02 +6.67157661418E-04 -1.03366415407E-02 +6.35967951002E-04 +4.19479163365E-01 -3.45915982254E-01
2.91000000000E+09 +1.91375125964E-01 -4.55526903846E-01 -1.02045930820E-02 +1.39614705633E-03 -1.01187734410E-02 +1.72519996924E-03 +3.88258447467E-01 -3.60831242557E-01
2.91500000000E+09 +1.56381954643E-01 -4.56093145101E-01 -1.05269489698E-02 +2.99008478370E-03 -9.98354713174E-03 +3.16771533801E-03 +3.54963533470E-01 -3.72873599713E-01
2.92000000000E+09 +1.21485589866E-01 -4.54622115795E-01 -9.50679141135E-03 +4.46397779733E-03 -8.92995578986E-03 +4.14527990396E-03 +3.20078135758E-01 -3.81533304382E-01
2.92500000000E+09 +8.70906362966E-02 -4.51380507556E-01 -8.94374337891E-03 +4.61381068575E-03 -8.71104934753E-03 +4.03232320502E-03 +2.84560477697E-01 -3.87130464176E-01
2.93000000000E+09 +5.29911744458E-02 -4.47274077684E-01 -9.37008026666E-03 +5.65763848362E-03 -9.47172530821E-03 +5.09968928799E-03 +2.49281288107E-01 -3.91801062532E-01
2.93500000000E+09 +1.82241491473E-02 -4.42099530360E-01 -8.90671859311E-03 +7.36239842785E-03 -9.21986577719E-03 +6.99688738812E-03 +2.11830043182E-01 -3.97262772592E-01
2.94000000000E+09 -1.68892212935E-02 -4.34597163248E-01 -8.04697130689E-03 +8.56694313342E-03 -8.28495252687E-03 +8.41867436594E-03 +1.71627874397E-01 -4.00533596881E-01
2.94500000000E+09 -5.19177221639E-02 -4.24847414803E-01 -6.99377179785E-03 +1.03457714367E-02 -7.17555527947E-03 +1.01112404539E-02 +1.30993701219E-01 -3.99396197877E-01
2.95000000000E+09 -8.70050700473E-02 -4.11067414294E-01 -4.77637034043E-03 +1.08924385955E-02 -5.13939846034E-03 +1.07574233865E-02 +9.15298999147E-02 -3.94333199982E-01
2.95500000000E+09 -1.19970584410E-01 -3.94230710973E-01 -3.43692797836E-03 +1.05496620481E-02 -3.84912388424E-03 +1.06748200083E-02 +5.39992868888E-02 -3.87212388802E-01
2.96000000000E+09 -1.51294266704E-01 -3.75111819298E-01 -3.04648345387E-03 +1.06653651947E-02 -3.25665777921E-03 +1.10898301626E-02 +1.46039457683E-02 -3.78558783854E-01
2.96500000000E+09 -1.81696907048E-01 -3.54111144897E-01 -2.28889428277E-03 +1.14289021777E-02 -2.03670621988E-03 +1.19622152231E-02 -2.59839827704E-02 -3.66801487170E-01
2.97000000000E+09 -2.11534730055E-01 -3.29960950060E-01 -8.87431086257E-04 +1.23210840567E-02 -4.48954156370E-04 +1.22756922616E-02 -6.63833051763E-02 -3.51939808368E-01
2.97500000000E+09 -2.39490638456E-01 -3.03717645076E-01 +7.81473911476E-04 +1.30042185065E-02 +9.13504184700E-04 +1.25333603191E-02 -1.05594345940E-01 -3.34274196091E-01
2.98000000000E+09 -2.67064836027E-01 -2.75717944309E-01 +3.40662742544E-03 +1.23952258877E-02 +2.96909714654E-03 +1.21623537543E-02 -1.42821158667E-01 -3.14214015878E-01
2.98500000000E+09 -2.93781375598E-01 -2.45231579375E-01 +4.27523583865E-03 +1.11891302124E-02 +3.88167524591E-03 +1.15211016644E-02 -1.79351981513E-01 -2.91242755521E-01
2.99000000000E+09 -3.18396195013E-01 -2.12581367464E-01 +4.78014226207E-03 +1.08800586746E-02 +4.82716699831E-03 +1.14646562413E-02 -2.14676735460E-01 -2.64567444553E-01
2.99500000000E+09 -3.40708144769E-01 -1.78896849878E-01 +6.15601474294E-03 +1.16006299738E-02 +6.75185828128E-03 +1.19335664800E-02 -2.47641079872E-01 -2.34825568366E-01
3.00000000000E+09 -3.59993264676E-01 -1.45491556988E-01 +8.79424350159E-03 +1.04827678824E-02 +9.41510863415E-03 +1.00400468409E-02 -2.78087309604E-01 -2.02926409081E-01
3.00500000000E+09 -3.78405126624E-01 -1.12653482500E-01 +9.55478236225E-03 +8.97404105719E-03 +9.60625386585E-03 +8.36906965906E-03 -3.06869011488E-01 -1.70371137623E-01
3.01000000000E+09 -3.94969912232E-01 -7.93094544737E-02 +1.08291760346E-02 +7.87830303854E-03 +1.03709126388E-02 +7.49888100658E-03 -3.33163535098E-01 -1.35406380700E-01
3.01500000000E+09 -4.09323542487E-01 -4.46348154906E-02 +1.17375419751E-02 +6.46782424442E-03 +1.13235594224E-02 +6.58164592683E-03 -3.57039809976E-01 -9.91985034994E-02
3.02000000000E+09 -4.19593581142E-01 -9.20919526817E-03 +1.25454085760E-02 +5.05311915854E-03 +1.23972597926E-02 +5.33487692635E-03 -3.77056586643E-01 -5.94028896229E-02
3.02500000000E+09 -4.26454155764E-01 +2.59444507736E-02 +1.32578462319E-02 +3.68152046259E-03 +1.32446390186E-02 +3.74814527674E-03 -3.91826199926E-01 -1.98261092259E-02
3.03000000000E+09 -4.29897969316E-01 +6.11889055009E-02 +1.37852032140E-02 +1.66144173832E-03 +1.36773400604E-02 +1.73188850573E-03 -4.05329762928E-01 +1.90405227138E-02
3.03500000000E+09 -4.29871699977E-01 +9.62126579853E-02 +1.38291030748E-02 -2.92823200660E-05 +1.37593769216E-02 +3.45110703070E-04 -4.17053902933E-01 +5.85339340650E-02
3.04000000000E+09 -4.27391227464E-01 +1.30321092895E-01 +1.38745919134E-02 -2.23801586421E-03 +1.42896230325E-02 -1.69343989209E-03 -4.26339635510E-01 +9.92823915844E-02
3.04500000000E+09 -4.23010125398E-01 +1.64500108405E-01 +1.30633559864E-02 -4.03627086239E-03 +1.39247910173E-02 -4.15242421526E-03 -4.31574058771E-01 +1.40510514393E-01
3.05000000000E+09 -4.16323335444E-01 +1.98818742670E-01 +1.22433305770E-02 -5.47060504075E-03 +1.27543748431E-02 -6.31497890739E-03 -4.32312074264E-01 +1.80536138164E-01
3.05500000000E+09 -4.07923996641E-01 +2.32221335724E-01 +1.13781714048E-02 -6.60311482467E-03 +1.10857356131E-02 -7.58348390803E-03 -4.31685032576E-01 +2.18118367426E-01
3.06000000000E+09 -3.98176596841E-01 +2.65854100605E-01 +1.08077390299E-02 -8.13272624714E-03 +9.93575929039E-03 -8.34593322464E-03 -4.29961720307E-01 +2.56573609314E-01
3.06500000000E+09 -3.85676682336E-01 +2.98476352967E-01 +9.63539125988E-03 -1.00950090516E-02 +9.04305990450E-03 -9.39251717910E-03 -4.24825220368E-01 +2.94144054813E-01
3.07000000000E+09 -3.71881723167E-01 +3.28167118059E-01 +7.35919861723E-03 -1.15058038503E-02 +7.66946225868E-03 -1.06945862198E-02 -4.17732700024E-01 +3.29668917393E-01
