# Hz S RI R 50
! CMT, C1220, 16058040, 17.2.0/1
! Date: 15/08/2018 10:31:58
! Data: Format (Calibration Info)
! Freq                      S11: Re/Im (F2)                       S21: Re/Im (F2)                       S12: Re/Im (F2)                       S22: Re/Im (F2)            
2.50000000000E+09 +5.81179563665E-01 +6.64284574626E-01 -2.78160969751E-04 +2.17891167402E-04 -3.31801187271E-04 +2.20281041540E-04 +5.64795189669E-01 +7.22134733618E-01
2.50500000000E+09 +5.88688763455E-01 +6.55789164372E-01 -1.85445487705E-04 +1.74429297815E-04 -1.99309331737E-04 +1.81509922061E-04 +5.70284653537E-01 +7.16659314599E-01
2.51000000000E+09 +5.96279688053E-01 +6.47305376169E-01 -1.84034194791E-04 +1.54411587747E-04 -1.50501986577E-04 +1.48048814367E-04 +5.75888789773E-01 +7.11547712472E-01
2.51500000000E+09 +6.03821613686E-01 +6.39194779350E-01 -1.60253232345E-04 +1.60165619876E-04 -1.60927971539E-04 +1.48500726788E-04 +5.81256866523E-01 +7.06306555354E-01
2.52000000000E+09 +6.10618914417E-01 +6.31353972150E-01 -2.32070871583E-04 +2.11291273911E-04 -2.32981668834E-04 +1.73687783675E-04 +5.86494399811E-01 +7.00363747610E-01
2.52500000000E+09 +6.16542722958E-01 +6.23965565303E-01 -1.19680305458E-04 +2.57798616429E-04 -1.00264769208E-04 +2.27502554226E-04 +5.92102082353E-01 +6.94036476964E-01
2.53000000000E+09 +6.21814852719E-01 +6.16859894787E-01 -9.76494872225E-05 +1.66525569688E-04 -1.07785777433E-04 +2.39677128750E-04 +5.98248781723E-01 +6.87228329069E-01
2.53500000000E+09 +6.26509738642E-01 +6.09859344639E-01 -1.10049914595E-04 +2.46541132752E-04 -1.36939753219E-04 +2.39072204623E-04 +6.04219895624E-01 +6.80548893575E-01
2.54000000000E+09 +6.30785910364E-01 +6.02885415323E-01 -1.05440918049E-04 +1.88638630165E-04 -1.18098158177E-04 +1.80650067730E-04 +6.10228677236E-01 +6.74202935382E-01
2.54500000000E+09 +6.35411993119E-01 +5.95635140998E-01 -1.56027932030E-04 +2.17024354045E-04 -1.61064470111E-04 +2.32756341825E-04 +6.16102848377E-01 +6.68012317015E-01
2.55000000000E+09 +6.40265442350E-01 +5.88012253397E-01 -1.27195645166E-04 +3.05976199033E-04 -1.70557381296E-04 +3.26293577816E-04 +6.21549695769E-01 +6.61789724751E-01
2.55500000000E+09 +6.45684548064E-01 +5.79722150494E-01 -3.00766726231E-05 +4.16421854021E-04 -8.39510743378E-05 +4.48029770378E-04 +6.26659674565E-01 +6.55251740854E-01
2.56000000000E+09 +6.52024273124E-01 +5.71605355551E-01 +6.67375694219E-05 +3.56325066822E-04 +1.04608738635E-04 +4.52495050305E-04 +6.31818067054E-01 +6.48059791734E-01
2.56500000000E+09 +6.59165919104E-01 +5.62667527339E-01 +1.03511750326E-04 +2.97868961869E-04 +1.90119072199E-04 +3.19461640895E-04 +6.37114337016E-01 +6.40691766645E-01
2.57000000000E+09 +6.66160091541E-01 +5.53782074978E-01 +3.70998790102E-05 +2.73241230769E-04 +1.21118385326E-04 +2.73429726019E-04 +6.42372387424E-01 +6.32848657249E-01
2.57500000000E+09 +6.72953686100E-01 +5.44892954129E-01 +3.02185630613E-05 +4.02059028316E-04 +1.16905914448E-04 +3.47573294781E-04 +6.47994556717E-01 +6.25123226965E-01
2.58000000000E+09 +6.78624567244E-01 +5.36449908990E-01 +2.27798860230E-04 +4.36849486956E-04 +1.79689360241E-04 +3.13767048482E-04 +6.53104671444E-01 +6.17477605939E-01
2.58500000000E+09 +6.83913657658E-01 +5.28447071678E-01 +2.68956035358E-04 +3.21941541743E-04 +2.30666939865E-04 +2.40475027589E-04 +6.57725558861E-01 +6.09898874141E-01
2.59000000000E+09 +6.88573577309E-01 +5.20754206818E-01 +2.69633990106E-04 +2.58896712586E-04 +2.49515647369E-04 +2.77002278083E-04 +6.62571314947E-01 +6.02607237187E-01
2.59500000000E+09 +6.93047761997E-01 +5.12797545213E-01 +3.12493432586E-04 +2.80011682025E-04 +2.70681356335E-04 +2.99845583165E-04 +6.67468166089E-01 +5.94580132968E-01
2.60000000000E+09 +6.96785481263E-01 +5.04115720882E-01 +3.63679969360E-04 +2.26108152749E-04 +3.60578256802E-04 +1.76647404412E-04 +6.72582756645E-01 +5.86524257714E-01
2.60500000000E+09 +7.00812254259E-01 +4.94475858882E-01 +3.24538329452E-04 +2.04039416230E-04 +3.10522723281E-04 +2.16191274843E-04 +6.77873031248E-01 +5.78003138751E-01
2.61000000000E+09 +7.04996497383E-01 +4.83636410446E-01 +4.95988716607E-04 +2.04231654062E-04 +5.30260356426E-04 +1.88634401815E-04 +6.83185767321E-01 +5.69302843533E-01
2.61500000000E+09 +7.09695500607E-01 +4.71769585743E-01 +5.49622321568E-04 -6.43871553298E-05 +5.82357841968E-04 -4.46009235420E-05 +6.88171902042E-01 +5.60723507511E-01
2.62000000000E+09 +7.14278066254E-01 +4.58449334877E-01 +2.97596959169E-04 -1.48154296964E-04 +4.07856044377E-04 -1.87513333708E-04 +6.93174930821E-01 +5.51876477430E-01
2.62500000000E+09 +7.18995418116E-01 +4.44605028005E-01 +2.12689649342E-04 -7.11853462838E-05 +2.51260717822E-04 -7.66244342122E-05 +6.97901450811E-01 +5.43050921874E-01
2.63000000000E+09 +7.23356894430E-01 +4.30601249650E-01 +3.37755313427E-04 +6.53591415359E-05 +3.08451566992E-04 -1.16493799548E-05 +7.02553640896E-01 +5.34243812171E-01
2.63500000000E+09 +7.27104016207E-01 +4.16948419778E-01 +3.83434980865E-04 -1.18396789076E-06 +3.31380559922E-04 -5.49972623247E-05 +7.07367976173E-01 +5.25136392574E-01
2.64000000000E+09 +7.30597889190E-01 +4.04313379319E-01 +3.79127056012E-04 -5.10880954357E-05 +3.48508041780E-04 -4.79381783463E-05 +7.12186837262E-01 +5.15602671511E-01
2.64500000000E+09 +7.33669045525E-01 +3.92352876615E-01 +4.86513331987E-04 -1.61495955487E-04 +4.45090091303E-04 -1.42093620447E-04 +7.16971372984E-01 +5.05743510008E-01
2.65000000000E+09 +7.36280532030E-01 +3.81320306739E-01 +4.37608051729E-04 -2.53076097236E-04 +3.83338821252E-04 -2.35495656106E-04 +7.21202060538E-01 +4.95592401164E-01
2.65500000000E+09 +7.39137258244E-01 +3.70316771785E-01 +3.40517759837E-04 -2.92879137887E-04 +3.72994484850E-04 -2.63182704598E-04 +7.25229330640E-01 +4.84997358880E-01
2.66000000000E+09 +7.41853894977E-01 +3.58879538061E-01 +4.13501391201E-04 -2.48870435925E-04 +3.96014876168E-04 -2.82113514720E-04 +7.29282348488E-01 +4.73883007405E-01
2.66500000000E+09 +7.44084576733E-01 +3.47370193292E-01 +3.81167475237E-04 -4.48434860547E-04 +3.47445324191E-04 -4.74869481148E-04 +7.33520523213E-01 +4.63034276429E-01
2.67000000000E+09 +7.46657315976E-01 +3.34691989913E-01 +2.25374611592E-04 -5.45653966153E-04 +1.30198107644E-04 -5.25270066085E-04 +7.38228609301E-01 +4.52130154908E-01
2.67500000000E+09 +7.48983784363E-01 +3.21043451653E-01 +8.92360739706E-05 -4.16510456448E-04 +7.64222646535E-05 -4.50980010318E-04 +7.42366953297E-01 +4.40895500022E-01
2.68000000000E+09 +7.51030592714E-01 +3.06399805073E-01 +1.62584840027E-04 -3.43840436994E-04 +1.73754620470E-04 -3.01262060455E-04 +7.46305511089E-01 +4.29859118271E-01
2.68500000000E+09 +7.52603448492E-01 +2.91679484869E-01 +1.79797724912E-04 -5.77280168996E-04 +2.24787298971E-04 -5.95090573504E-04 +7.49640830231E-01 +4.18160046122E-01
2.69000000000E+09 +7.53827615182E-01 +2.76936829134E-01 -7.21951148147E-05 -5.90051248892E-04 -7.58954571878E-05 -5.52312016103E-04 +7.52231845936E-01 +4.06017013387E-01
2.69500000000E+09 +7.54630661334E-01 +2.63204015567E-01 -2.91954110695E-05 -5.86697224367E-04 -3.74138805483E-05 -5.59685231143E-04 +7.54874165262E-01 +3.93532305322E-01
2.70000000000E+09 +7.55921428426E-01 +2.49758373712E-01 -2.66478803894E-04 -6.10298362905E-04 -2.78820297940E-04 -6.11110634923E-04 +7.57633448943E-01 +3.80357614522E-01
2.70500000000E+09 +7.56953510993E-01 +2.36715296285E-01 -3.78132075489E-04 -4.92108521674E-04 -3.52195313259E-04 -4.62331689266E-04 +7.60868916905E-01 +3.67043905407E-01
2.71000000000E+09 +7.57907795966E-01 +2.23715799511E-01 -4.59450416690E-04 -3.22237740041E-04 -3.95575633079E-04 -3.92696323072E-04 +7.63497702029E-01 +3.53644850912E-01
2.71500000000E+09 +7.59120508736E-01 +2.10342546827E-01 -3.41706750229E-04 -2.55146126916E-04 -3.52310004680E-04 -2.83110395641E-04 +7.65934920698E-01 +3.40987479939E-01
2.72000000000E+09 +7.59756001607E-01 +1.95922416200E-01 -4.52075540281E-04 -3.34937219775E-04 -4.66238548706E-04 -3.38922844490E-04 +7.67519164038E-01 +3.28058306278E-01
2.72500000000E+09 +7.59891391740E-01 +1.80573480560E-01 -5.66875893329E-04 -1.28877389428E-04 -5.30697964863E-04 -9.08788357268E-05 +7.68438075972E-01 +3.14756213012E-01
2.73000000000E+09 +7.59321584343E-01 +1.64013175205E-01 -4.41419138190E-04 -5.08930155909E-05 -4.60067576100E-04 +2.89949732599E-05 +7.69235826377E-01 +3.00859621057E-01
2.73500000000E+09 +7.57484702176E-01 +1.46174991354E-01 -5.10477386611E-04 +8.32503886479E-05 -4.15780651117E-04 +6.63042682034E-05 +7.70143316358E-01 +2.86712572304E-01
2.74000000000E+09 +7.54717246854E-01 +1.28445759795E-01 -2.96976291479E-04 +1.66861410666E-04 -3.03984876261E-04 +9.40059314293E-05 +7.71793121067E-01 +2.71809881725E-01
2.74500000000E+09 +7.50976173477E-01 +1.10740711762E-01 -4.20776645427E-04 +1.10035696291E-04 -3.82439056225E-04 +2.56457369896E-05 +7.73046658277E-01 +2.56471644241E-01
2.75000000000E+09 +7.46646987476E-01 +9.32331152396E-02 -2.78294500493E-04 +3.32228877998E-04 -3.51558469648E-04 +2.82402989814E-04 +7.73924828214E-01 +2.41451184257E-01
2.75500000000E+09 +7.42277075214E-01 +7.62838843334E-02 -1.63250773022E-04 +2.63848000151E-04 -2.20055823615E-04 +2.99328780329E-04 +7.73722064954E-01 +2.26605972321E-01
2.76000000000E+09 +7.38282812546E-01 +5.89992168146E-02 -8.22566173744E-05 +4.30498903812E-04 -1.33106810901E-04 +4.76812975466E-04 +7.73603176526E-01 +2.11360956364E-01
2.76500000000E+09 +7.33401385631E-01 +4.12556549310E-02 +8.48754078542E-05 +2.91123504911E-04 +9.83431488025E-05 +3.61611884854E-04 +7.72523407702E-01 +1.94575676055E-01
2.77000000000E+09 +7.28231630069E-01 +2.33554896098E-02 +1.79475281890E-04 +2.42538771291E-04 +2.03361702694E-04 +2.43391239460E-04 +7.71158644200E-01 +1.77670837410E-01
2.77500000000E+09 +7.23366880749E-01 +4.81066856571E-03 +1.72374757748E-04 +2.33307567064E-04 +1.79795146874E-04 +2.03075913240E-04 +7.69594379574E-01 +1.59763380123E-01
2.78000000000E+09 +7.18235519995E-01 -1.49988341975E-02 +2.55309099809E-04 +1.36523825754E-04 +2.45826232718E-04 +1.14388503274E-04 +7.67693383063E-01 +1.42016790184E-01
2.78500000000E+09 +7.12096690130E-01 -3.59921233707E-02 +4.24750604107E-04 +1.88503827471E-05 +4.24672792341E-04 -3.20289761638E-05 +7.65220239205E-01 +1.24041800074E-01
2.79000000000E+09 +7.05519936508E-01 -5.76621977277E-02 +2.75539331008E-04 -2.33551423236E-04 +2.88798559414E-04 -2.28949815464E-04 +7.61892260306E-01 +1.06673422366E-01
2.79500000000E+09 +6.97180233772E-01 -7.96009040131E-02 +3.53114315746E-04 -1.69293134962E-04 +3.10136721943E-04 -1.60775808253E-04 +7.57329237143E-01 +8.87518017121E-02
2.80000000000E+09 +6.88198171656E-01 -1.00540297205E-01 +3.18926956433E-04 -4.30862243692E-04 +3.23962238040E-04 -4.01365432494E-04 +7.51871441989E-01 +7.07943582849E-02
2.80500000000E+09 +6.78598154043E-01 -1.20303650447E-01 +1.41347197776E-04 -4.62328911957E-04 +2.00849501978E-04 -4.82799157851E-04 +7.45925066653E-01 +5.21301721178E-02
2.81000000000E+09 +6.68411030943E-01 -1.38676869509E-01 +1.73348088879E-04 -4.87474997127E-04 +1.71854356373E-04 -4.86155343913E-04 +7.39342827331E-01 +3.34415882302E-02
2.81500000000E+09 +6.58192818158E-01 -1.56023306539E-01 +4.69458261844E-05 -7.21814447889E-04 +5.27319910055E-05 -7.50220862001E-04 +7.32632513587E-01 +1.44822311901E-02
2.82000000000E+09 +6.46922215483E-01 -1.73277619705E-01 -7.70375245921E-05 -7.07838835493E-04 -1.55732477166E-04 -7.43551806665E-04 +7.25361111986E-01 -4.87236084930E-03
2.82500000000E+09 +6.34159284750E-01 -1.89715189375E-01 -1.47134422731E-04 -8.25108466664E-04 -2.10437650405E-04 -8.08795950541E-04 +7.17262730955E-01 -2.40828062899E-02
2.83000000000E+09 +6.20380384261E-01 -2.06584685915E-01 -3.86802971880E-04 -9.92160517232E-04 -3.33102917189E-04 -9.17220853000E-04 +7.08452592066E-01 -4.37877488563E-02
2.83500000000E+09 +6.04911851441E-01 -2.24239289848E-01 -7.83838567102E-04 -1.03372086678E-03 -7.23483252424E-04 -1.00693298482E-03 +6.98442984858E-01 -6.33990981697E-02
2.84000000000E+09 +5.87355930377E-01 -2.42691947605E-01 -1.24291795550E-03 -8.38320981463E-04 -1.16794344713E-03 -8.75054252940E-04 +6.87792873027E-01 -8.39945540178E-02
2.84500000000E+09 +5.67073389608E-01 -2.62231820187E-01 -1.34385603176E-03 -4.50493557814E-04 -1.38033587090E-03 -5.11060835576E-04 +6.75395244367E-01 -1.04226064867E-01
2.85000000000E+09 +5.45154511777E-01 -2.80964276156E-01 -1.35894847351E-03 -3.33199637038E-04 -1.35084966713E-03 -2.92183102541E-04 +6.62126674296E-01 -1.24534934002E-01
2.85500000000E+09 +5.21963453829E-01 -2.99795527232E-01 -1.62915293351E-03 +4.64463923388E-05 -1.61174659421E-03 +9.64197366187E-06 +6.47792388446E-01 -1.44601263772E-01
2.86000000000E+09 +4.98340807540E-01 -3.17731368596E-01 -1.41628658474E-03 +3.74114802797E-04 -1.45134768535E-03 +3.25739449946E-04 +6.32734793557E-01 -1.65223570539E-01
2.86500000000E+09 +4.74322993817E-01 -3.34800886051E-01 -1.30787689781E-03 +4.12118236358E-04 -1.31360288961E-03 +4.26518905978E-04 +6.15530064879E-01 -1.86181062417E-01
2.87000000000E+09 +4.50423311261E-01 -3.50572343339E-01 -1.59461136054E-03 +4.84051052687E-04 -1.63496161827E-03 +4.54247226878E-04 +5.96110961285E-01 -2.06570728654E-01
2.87500000000E+09 +4.26003997365E-01 -3.65424832805E-01 -1.76853382112E-03 +8.31977242656E-04 -1.72534099669E-03 +8.58129475189E-04 +5.75923781924E-01 -2.25261662735E-01
2.88000000000E+09 +4.01319334284E-01 -3.78557055312E-01 -1.87263809841E-03 +1.37206525235E-03 -1.77292405657E-03 +1.37432104351E-03 +5.55143435555E-01 -2.44411985258E-01
2.88500000000E+09 +3.76341412559E-01 -3.90923148185E-01 -1.56158579724E-03 +2.21186499080E-03 -1.42577836437E-03 +2.13404392405E-03 +5.32433067664E-01 -2.62778747477E-01
2.89000000000E+09 +3.49386263133E-01 -4.03116658648E-01 -5.25675704551E-04 +2.42986676809E-03 -5.25866587906E-04 +2.36512187460E-03 +5.07515551722E-01 -2.80621104747E-01
2.89500000000E+09 +3.19094986500E-01 -4.13382897254E-01 -2.44791512930E-04 +2.03669586921E-03 -3.63374387640E-04 +1.93237416749E-03 +4.81274212419E-01 -2.97627211394E-01
2.90000000000E+09 +2.87364328246E-01 -4.21409657560E-01 -1.83834240710E-04 +2.10857547112E-03 -2.43486061343E-04 +2.10042395653E-03 +4.53629906687E-01 -3.14058529739E-01
2.90500000000E+09 +2.53990647467E-01 -4.28026675227E-01 +2.00767959855E-05 +2.26295355018E-03 +3.27138502844E-05 +2.25343190950E-03 +4.24022845591E-01 -3.29982460561E-01
2.91000000000E+09 +2.19115424372E-01 -4.32934048774E-01 +3.49632043828E-04 +2.45182862818E-03 +3.67735044537E-04 +2.44114321664E-03 +3.93248417256E-01 -3.43130011859E-01
2.91500000000E+09 +1.83364060153E-01 -4.36551433402E-01 +1.01303302798E-03 +2.30693215437E-03 +1.04498575009E-03 +2.17913299164E-03 +3.62636690390E-01 -3.54950652934E-01
2.92000000000E+09 +1.46748246148E-01 -4.37944179769E-01 +9.52485084973E-04 +1.96889398531E-03 +8.76028447086E-04 +1.86976896754E-03 +3.29976495162E-01 -3.65783481457E-01
2.92500000000E+09 +1.10249772320E-01 -4.37352062816E-01 +1.27388249086E-03 +2.50307675763E-03 +1.08642317719E-03 +2.43797759463E-03 +2.95034621348E-01 -3.74099924923E-01
2.93000000000E+09 +7.45327253610E-02 -4.34206461011E-01 +1.94867514106E-03 +2.03542655388E-03 +1.87219406146E-03 +2.09657982641E-03 +2.58533289517E-01 -3.80632717514E-01
2.93500000000E+09 +3.95162965316E-02 -4.29810859346E-01 +2.20544267600E-03 +2.11044557270E-03 +2.09761227455E-03 +2.16709914558E-03 +2.20646093323E-01 -3.84602324422E-01
2.94000000000E+09 +4.88787266294E-03 -4.23341910067E-01 +3.03240777151E-03 +1.50096436611E-03 +3.00182030917E-03 +1.54699530852E-03 +1.82672019343E-01 -3.86877222169E-01
2.94500000000E+09 -3.03672222283E-02 -4.14287605681E-01 +2.76812037584E-03 +1.06405175059E-03 +2.77907522565E-03 +1.08945313680E-03 +1.44240918413E-01 -3.88232923014E-01
2.95000000000E+09 -6.47763434402E-02 -4.01648778458E-01 +3.21624677911E-03 +7.94931435687E-04 +3.15505395541E-03 +9.21653284833E-04 +1.04263207231E-01 -3.86827494107E-01
2.95500000000E+09 -9.85572811183E-02 -3.86364305108E-01 +3.46702218619E-03 +5.68491476971E-06 +3.53963243668E-03 +1.55669409793E-04 +6.39332810706E-02 -3.81097702505E-01
2.96000000000E+09 -1.31833652931E-01 -3.68408591319E-01 +3.25761949248E-03 -3.07097662285E-04 +3.43642610268E-03 -2.95779478257E-04 +2.48160803163E-02 -3.72200698687E-01
2.96500000000E+09 -1.65087859091E-01 -3.47373369304E-01 +3.57043113322E-03 -7.76382309944E-04 +3.71146611481E-03 -8.63084954685E-04 -1.54990480721E-02 -3.61651646021E-01
2.97000000000E+09 -1.96087593847E-01 -3.22837501195E-01 +3.62808658667E-03 -1.76503480051E-03 +3.54377700965E-03 -1.81649942844E-03 -5.50311412563E-02 -3.47011725110E-01
2.97500000000E+09 -2.25592698462E-01 -2.97124052942E-01 +3.17053864525E-03 -2.37640614017E-03 +3.08149440362E-03 -2.29370897555E-03 -9.45806290141E-02 -3.31567654932E-01
2.98000000000E+09 -2.53960418896E-01 -2.69342514941E-01 +2.69636759983E-03 -2.78628738953E-03 +2.73179276250E-03 -2.63722490227E-03 -1.33476050095E-01 -3.11319499927E-01
2.98500000000E+09 -2.79874226623E-01 -2.40032027399E-01 +2.36704606683E-03 -3.32030078685E-03 +2.51520096767E-03 -3.27510480910E-03 -1.69533265279E-01 -2.88996230689E-01
2.99000000000E+09 -3.04260674389E-01 -2.10279045603E-01 +1.57768765702E-03 -3.94543345151E-03 +1.70741211914E-03 -4.10579181433E-03 -2.04383826477E-01 -2.63968619029E-01
2.99500000000E+09 -3.28294159739E-01 -1.79404364211E-01 +9.06669918682E-04 -3.81112380323E-03 +7.86693682680E-04 -4.03115107340E-03 -2.37895604782E-01 -2.36019412940E-01
3.00000000000E+09 -3.49873165770E-01 -1.46042188993E-01 +2.99230875993E-04 -4.11583790591E-03 +8.76951319036E-05 -4.09730047220E-03 -2.69899461640E-01 -2.04548804693E-01
3.00500000000E+09 -3.68714783583E-01 -1.12453678609E-01 -5.99579854685E-04 -3.92734418105E-03 -7.42017468506E-04 -3.75185886262E-03 -2.98669857181E-01 -1.71016683873E-01
3.01000000000E+09 -3.85629476674E-01 -7.80557301745E-02 -1.09768828121E-03 -3.55698831349E-03 -1.05274219813E-03 -3.39773301004E-03 -3.25435080026E-01 -1.35865010882E-01
3.01500000000E+09 -3.99589242651E-01 -4.33932643487E-02 -1.54851489530E-03 -3.47993323714E-03 -1.40644143561E-03 -3.37301951066E-03 -3.48927417734E-01 -1.00008682423E-01
3.02000000000E+09 -4.10768817828E-01 -7.91481858478E-03 -1.99076259082E-03 -3.15113791419E-03 -1.91804825781E-03 -3.13039402892E-03 -3.69827284801E-01 -6.32041420108E-02
3.02500000000E+09 -4.18319057805E-01 +2.66514099249E-02 -2.55771835558E-03 -2.88018991488E-03 -2.53768889079E-03 -2.92201694569E-03 -3.87958517470E-01 -2.40780201572E-02
3.03000000000E+09 -4.23524909638E-01 +6.09543397941E-02 -2.95158355617E-03 -2.11946702604E-03 -2.88938823064E-03 -2.09182948767E-03 -4.01576568981E-01 +1.54089835364E-02
3.03500000000E+09 -4.25462384457E-01 +9.45578419706E-02 -3.12378499326E-03 -1.69607942268E-03 -3.06635756667E-03 -1.74168041024E-03 -4.13241532343E-01 +5.46021168990E-02
3.04000000000E+09 -4.25948246600E-01 +1.27261138461E-01 -3.22638334429E-03 -1.13387702866E-03 -3.21540873781E-03 -1.28671255711E-03 -4.22735511201E-01 +9.48801496933E-02
3.04500000000E+09 -4.24287877065E-01 +1.61376121453E-01 -3.14470601504E-03 -5.94328337431E-04 -3.31022128726E-03 -5.99454728986E-04 -4.28973411111E-01 +1.35564342162E-01
3.05000000000E+09 -4.18742359107E-01 +1.95342582200E-01 -3.12331338276E-03 -4.00467201549E-04 -3.37226240049E-03 -3.00575584554E-04 -4.32021107999E-01 +1.75236181352E-01
3.05500000000E+09 -4.11289628413E-01 +2.28390315890E-01 -3.20537479440E-03 +2.88189039387E-04 -3.23984231765E-03 +5.70382210621E-04 -4.32507447911E-01 +2.14180734176E-01
3.06000000000E+09 -4.01705672038E-01 +2.61002268205E-01 -2.95549411289E-03 +6.44010699017E-04 -2.72874575691E-03 +8.06597408257E-04 -4.30634082925E-01 +2.52376238091E-01
3.06500000000E+09 -3.90671661554E-01 +2.92479637847E-01 -2.62512337005E-03 +8.91839429950E-04 -2.44329742633E-03 +8.09794101522E-04 -4.25849404967E-01 +2.89287642827E-01
3.07000000000E+09 -3.78889993790E-01 +3.22896517661E-01 -2.63073141945E-03 +1.13361603948E-03 -2.60160027827E-03 +9.02123773564E-04 -4.19673550987E-01 +3.25340670133E-01
