# Hz S RI R 50
! CMT, C1220, 16058040, 17.2.0/1
! Date: 15/08/2018 10:39:40
! Data: Format (Calibration Info)
! Freq                      S11: Re/Im (F2)                       S21: Re/Im (F2)                       S12: Re/Im (F2)                       S22: Re/Im (F2)            
2.50000000000E+09 +5.95087995200E-01 +6.47467577283E-01 -6.06914844901E-05 -6.41053131306E-04 -5.40407267100E-05 -6.98987453581E-04 +5.65219030919E-01 +7.24198513922E-01
2.50500000000E+09 +6.01768113972E-01 +6.38979680964E-01 -1.96673152914E-04 -6.85699904333E-04 -2.98708539647E-04 -7.41417356958E-04 +5.71098692779E-01 +7.18630731478E-01
2.51000000000E+09 +6.09432822520E-01 +6.30737738156E-01 -3.17406080494E-04 -7.15083753395E-04 -3.40169823032E-04 -6.82059428236E-04 +5.76965536302E-01 +7.13249453459E-01
2.51500000000E+09 +6.17210596652E-01 +6.22764480260E-01 -4.67882404976E-04 -6.71836206188E-04 -3.95742048463E-04 -6.29837520913E-04 +5.82393381479E-01 +7.07685684249E-01
2.52000000000E+09 +6.24210205954E-01 +6.15240869151E-01 -4.83801954005E-04 -6.12030094540E-04 -4.45490306109E-04 -5.96214972775E-04 +5.87701906186E-01 +7.01669943798E-01
2.52500000000E+09 +6.29984022642E-01 +6.08646757746E-01 -6.02630731281E-04 -5.91347780088E-04 -5.40935587376E-04 -6.11401626167E-04 +5.93670817436E-01 +6.95249397973E-01
2.53000000000E+09 +6.34777272952E-01 +6.02979202538E-01 -6.63852596586E-04 -5.41632028531E-04 -6.51043480842E-04 -6.38828804797E-04 +5.99952402501E-01 +6.87993409173E-01
2.53500000000E+09 +6.38789158976E-01 +5.97576496079E-01 -7.71460271017E-04 -5.11766947109E-04 -7.77443329833E-04 -4.66518272060E-04 +6.05816021972E-01 +6.80820073783E-01
2.54000000000E+09 +6.41989469600E-01 +5.91698464837E-01 -8.01483006023E-04 -4.37814756080E-04 -8.30611864451E-04 -4.43846208404E-04 +6.11573304665E-01 +6.73957364940E-01
2.54500000000E+09 +6.45402318118E-01 +5.85338312682E-01 -9.21597120271E-04 -2.99538408027E-04 -8.86341734168E-04 -3.99119105056E-04 +6.16928956358E-01 +6.67726283246E-01
2.55000000000E+09 +6.49691573508E-01 +5.77802184161E-01 -9.41849064032E-04 -1.73734093056E-04 -9.88329989118E-04 -2.81732626068E-04 +6.21916388364E-01 +6.61618244976E-01
2.55500000000E+09 +6.54825901842E-01 +5.68649661379E-01 -9.07302450386E-04 -5.43594159951E-05 -1.08060858371E-03 -1.43503409947E-04 +6.26887118709E-01 +6.55335471235E-01
2.56000000000E+09 +6.61268636647E-01 +5.59004351631E-01 -9.11533812648E-04 -6.06822569641E-05 -1.01857193664E-03 +3.67960395794E-05 +6.31778399412E-01 +6.48331856517E-01
2.56500000000E+09 +6.68543763912E-01 +5.48423761989E-01 -8.96720701849E-04 -5.66481885993E-05 -1.03353490579E-03 +1.46004415896E-04 +6.37053960189E-01 +6.40785518862E-01
2.57000000000E+09 +6.76114732176E-01 +5.38409619161E-01 -1.01806453629E-03 +4.41524051006E-05 -9.58689013815E-04 +2.26575226975E-04 +6.42130783446E-01 +6.33177763641E-01
2.57500000000E+09 +6.83502219678E-01 +5.29018386718E-01 -1.07856451332E-03 +1.44585241239E-04 -9.13875396555E-04 +2.83839756836E-04 +6.47487131383E-01 +6.25970692243E-01
2.58000000000E+09 +6.89776770856E-01 +5.20857070583E-01 -1.07676837458E-03 +2.55259920416E-04 -9.03385752522E-04 +2.80047243400E-04 +6.52648500251E-01 +6.18811638276E-01
2.58500000000E+09 +6.95000645035E-01 +5.13683742782E-01 -1.10953676487E-03 +4.09507429779E-04 -9.69340049530E-04 +3.18814307642E-04 +6.57835104104E-01 +6.11563821713E-01
2.59000000000E+09 +6.98912237072E-01 +5.07660728494E-01 -1.08402223717E-03 +6.09417294764E-04 -1.03636605387E-03 +5.23625644185E-04 +6.62855545220E-01 +6.04399057910E-01
2.59500000000E+09 +7.01910216278E-01 +5.01878488358E-01 -9.75274762877E-04 +7.53099458044E-04 -1.02387843073E-03 +6.86465169881E-04 +6.67981992057E-01 +5.96754944281E-01
2.60000000000E+09 +7.04337983846E-01 +4.95285615604E-01 -9.24310386065E-04 +8.55852119749E-04 -9.14652498116E-04 +8.19921158092E-04 +6.73771734482E-01 +5.88519783795E-01
2.60500000000E+09 +7.06812426144E-01 +4.86936483033E-01 -9.28541440682E-04 +7.77938774317E-04 -9.50036644955E-04 +8.24194734386E-04 +6.79498829484E-01 +5.79581584727E-01
2.61000000000E+09 +7.09598748601E-01 +4.76511189670E-01 -9.61585170895E-04 +1.08167619619E-03 -1.00870745880E-03 +1.10564199811E-03 +6.84748325119E-01 +5.70582968178E-01
2.61500000000E+09 +7.13428878205E-01 +4.63965366878E-01 -6.02620566332E-04 +1.27547553855E-03 -6.51118233247E-04 +1.27234017193E-03 +6.89894878749E-01 +5.62040712462E-01
2.62000000000E+09 +7.17946358126E-01 +4.49758512389E-01 -5.97491781607E-04 +1.12212220449E-03 -5.64886163555E-04 +1.21959630155E-03 +6.95062181497E-01 +5.53006913130E-01
2.62500000000E+09 +7.23100108995E-01 +4.34553095823E-01 -6.58617541332E-04 +1.24339392106E-03 -6.03185277067E-04 +1.33480923141E-03 +7.00171324800E-01 +5.44016224964E-01
2.63000000000E+09 +7.28582209210E-01 +4.19258879741E-01 -5.80028236719E-04 +1.44681808003E-03 -3.40380542378E-04 +1.45332075906E-03 +7.04799451253E-01 +5.34436196142E-01
2.63500000000E+09 +7.33398428612E-01 +4.05049432589E-01 -4.48308798669E-04 +1.61050867285E-03 -2.43893677033E-04 +1.44748434174E-03 +7.09306030057E-01 +5.25117439402E-01
2.64000000000E+09 +7.38098512509E-01 +3.93048767863E-01 -2.38767797604E-04 +1.91038927226E-03 -1.48055795809E-04 +1.63231338762E-03 +7.13773473133E-01 +5.15539204160E-01
2.64500000000E+09 +7.42193027704E-01 +3.82827747053E-01 +3.09162259351E-04 +1.88050480526E-03 +1.46530504152E-04 +1.65416092666E-03 +7.18441500008E-01 +5.05665239492E-01
2.65000000000E+09 +7.44896072573E-01 +3.73933695472E-01 +4.66295134106E-04 +1.58761855265E-03 +2.16450185700E-04 +1.56595485506E-03 +7.22534386824E-01 +4.95395767452E-01
2.65500000000E+09 +7.47046310663E-01 +3.65816275833E-01 +3.87269407832E-04 +1.48225585965E-03 +2.33581690510E-04 +1.57148427230E-03 +7.26257287712E-01 +4.84918722243E-01
2.66000000000E+09 +7.48621894761E-01 +3.57429118980E-01 +3.95005991375E-04 +1.69633884880E-03 +3.76071504686E-04 +1.79401631186E-03 +7.30292061193E-01 +4.74029282758E-01
2.66500000000E+09 +7.50206251868E-01 +3.48353715686E-01 +6.09940534804E-04 +1.88196676610E-03 +7.49480005767E-04 +1.94151594247E-03 +7.34351950195E-01 +4.62992149154E-01
2.67000000000E+09 +7.51440930883E-01 +3.36702201640E-01 +1.04715712523E-03 +1.87841963081E-03 +1.13244579310E-03 +1.77682571719E-03 +7.38720319198E-01 +4.52375034594E-01
2.67500000000E+09 +7.52840811656E-01 +3.23239411273E-01 +1.34188424585E-03 +1.73055454210E-03 +1.35381875770E-03 +1.59493215553E-03 +7.42785464524E-01 +4.41458634885E-01
2.68000000000E+09 +7.54282190577E-01 +3.07592221467E-01 +1.60465643621E-03 +1.45096264949E-03 +1.52212614419E-03 +1.42573614379E-03 +7.46735424712E-01 +4.30555926417E-01
2.68500000000E+09 +7.55705569452E-01 +2.90975326984E-01 +1.63572862129E-03 +1.35979769398E-03 +1.57916787986E-03 +1.40399905724E-03 +7.49942476730E-01 +4.19200809027E-01
2.69000000000E+09 +7.57228029266E-01 +2.74235617202E-01 +1.88319086567E-03 +1.24990020871E-03 +1.88389196831E-03 +1.30699632826E-03 +7.52832531997E-01 +4.07705234418E-01
2.69500000000E+09 +7.58746451161E-01 +2.57904637343E-01 +2.04392640143E-03 +1.08243666781E-03 +2.00892699286E-03 +1.08605663948E-03 +7.56070916473E-01 +3.95474192607E-01
2.70000000000E+09 +7.60102961890E-01 +2.42303629823E-01 +2.35002748755E-03 +9.06169859072E-04 +2.28312848291E-03 +8.62789389770E-04 +7.59316227422E-01 +3.82031226233E-01
2.70500000000E+09 +7.61208589280E-01 +2.28286073499E-01 +2.58949578377E-03 +6.80950750841E-04 +2.45054594430E-03 +7.28732479020E-04 +7.62193886162E-01 +3.69058300000E-01
2.71000000000E+09 +7.62131394881E-01 +2.14954809351E-01 +2.80216926231E-03 +2.17572407165E-04 +2.84555713686E-03 +3.68672443329E-04 +7.65370337069E-01 +3.56061980920E-01
2.71500000000E+09 +7.62468172040E-01 +2.01778652949E-01 +2.67788420868E-03 -3.36408880985E-04 +2.87628433001E-03 -3.11240130699E-04 +7.68233142255E-01 +3.43661530628E-01
2.72000000000E+09 +7.62635586174E-01 +1.88731477909E-01 +2.45647672854E-03 -5.80087571282E-04 +2.59941060890E-03 -7.68213870151E-04 +7.70622435653E-01 +3.30891295396E-01
2.72500000000E+09 +7.62111826186E-01 +1.74446052615E-01 +2.43141953824E-03 -6.97736320640E-04 +2.29564557431E-03 -9.84318535055E-04 +7.72292598815E-01 +3.17199765684E-01
2.73000000000E+09 +7.60847122413E-01 +1.59087266352E-01 +2.49416865455E-03 -9.33321623656E-04 +2.15150994756E-03 -1.06703519468E-03 +7.73900509685E-01 +3.02955573345E-01
2.73500000000E+09 +7.58906085344E-01 +1.42165832805E-01 +2.28948906569E-03 -1.32958245733E-03 +2.03876043856E-03 -1.17977281995E-03 +7.75412252285E-01 +2.87988638545E-01
2.74000000000E+09 +7.56296632877E-01 +1.24846478398E-01 +2.12197385395E-03 -1.46331404658E-03 +2.01958213783E-03 -1.15857646110E-03 +7.77210454730E-01 +2.72590853193E-01
2.74500000000E+09 +7.52610993131E-01 +1.06515756035E-01 +2.13557434843E-03 -1.80292639464E-03 +2.27220697754E-03 -1.42644004571E-03 +7.78957450051E-01 +2.56866679484E-01
2.75000000000E+09 +7.47977051128E-01 +8.85754096553E-02 +1.99820359486E-03 -2.02331589187E-03 +2.25564706412E-03 -1.84030704903E-03 +7.79816774456E-01 +2.40849034378E-01
2.75500000000E+09 +7.42987082585E-01 +7.14398635827E-02 +1.76406304595E-03 -2.36050474899E-03 +2.04765060817E-03 -2.44483364073E-03 +7.79445718947E-01 +2.25113998678E-01
2.76000000000E+09 +7.38077907630E-01 +5.40964419141E-02 +1.43548125830E-03 -2.72114148088E-03 +1.51081495561E-03 -2.89915431371E-03 +7.78540512076E-01 +2.09552424072E-01
2.76500000000E+09 +7.32575866500E-01 +3.66670588224E-02 +1.10427031342E-03 -2.77899939497E-03 +1.08927736376E-03 -2.90555928912E-03 +7.77690984334E-01 +1.92562572822E-01
2.77000000000E+09 +7.26412758591E-01 +1.84461872134E-02 +6.59878224315E-04 -3.01044451168E-03 +5.95950301948E-04 -3.15664195061E-03 +7.76050842370E-01 +1.74832526799E-01
2.77500000000E+09 +7.19503115957E-01 -1.88792934268E-04 +1.72634819206E-04 -2.88121063705E-03 +4.17762712736E-05 -2.95809902881E-03 +7.73974834978E-01 +1.56933523200E-01
2.78000000000E+09 +7.12529864562E-01 -1.95698032714E-02 -1.58752597975E-05 -2.62525256669E-03 -1.40197756253E-04 -2.62131015450E-03 +7.71386267476E-01 +1.39094571697E-01
2.78500000000E+09 +7.04916757234E-01 -4.00485528580E-02 +1.79435807359E-05 -2.51094205015E-03 -1.44972161481E-04 -2.47704319432E-03 +7.68772379968E-01 +1.21944590627E-01
2.79000000000E+09 +6.97050930503E-01 -6.10579097117E-02 +1.57753541091E-05 -2.71500709281E-03 -1.18813516507E-04 -2.67722047869E-03 +7.65374754825E-01 +1.04819347363E-01
2.79500000000E+09 +6.88592725462E-01 -8.22197866346E-02 -2.88335119890E-04 -3.19331784239E-03 -2.95363622385E-04 -2.98770691731E-03 +7.61341315051E-01 +8.70441508456E-02
2.80000000000E+09 +6.79559689559E-01 -1.02880796198E-01 -1.05055283234E-03 -3.24548284581E-03 -8.71510201522E-04 -3.13478232691E-03 +7.56377070051E-01 +6.90440077254E-02
2.80500000000E+09 +6.69879128814E-01 -1.22076340421E-01 -1.39647448692E-03 -3.02464364641E-03 -1.23981439135E-03 -3.04101164295E-03 +7.50854756031E-01 +5.04177850521E-02
2.81000000000E+09 +6.59280708844E-01 -1.39631151009E-01 -1.70740017722E-03 -2.81375723499E-03 -1.74397181761E-03 -2.88809155824E-03 +7.45416842669E-01 +3.15298971095E-02
2.81500000000E+09 +6.47026863617E-01 -1.55430354090E-01 -1.88802158925E-03 -2.62589928535E-03 -1.97678842622E-03 -2.66356812166E-03 +7.39279637038E-01 +1.11558882717E-02
2.82000000000E+09 +6.33956405070E-01 -1.69704130291E-01 -2.37706846114E-03 -2.48442612229E-03 -2.47568624905E-03 -2.38380620196E-03 +7.31976182685E-01 -9.06662953836E-03
2.82500000000E+09 +6.19284328511E-01 -1.84056077846E-01 -2.64383555323E-03 -2.15916878101E-03 -2.62521332095E-03 -1.98151102367E-03 +7.23690524688E-01 -2.92947220473E-02
2.83000000000E+09 +6.02373544098E-01 -1.99296101990E-01 -2.90607905296E-03 -1.78974395192E-03 -2.80066189441E-03 -1.70346801886E-03 +7.14792572789E-01 -4.96515768023E-02
2.83500000000E+09 +5.83212586119E-01 -2.15635282622E-01 -2.84826392315E-03 -1.49681370297E-03 -2.75815092203E-03 -1.50560742138E-03 +7.04334759951E-01 -7.03247006606E-02
2.84000000000E+09 +5.61641070678E-01 -2.33626091213E-01 -3.13901595552E-03 -1.36654928941E-03 -3.06122432206E-03 -1.46769597957E-03 +6.93089826841E-01 -9.17448668668E-02
2.84500000000E+09 +5.37752019103E-01 -2.52924763319E-01 -3.30477326862E-03 -1.01867453305E-03 -3.38525100183E-03 -1.09263673372E-03 +6.79724731624E-01 -1.13141012620E-01
2.85000000000E+09 +5.12264159135E-01 -2.72717757820E-01 -3.46039462844E-03 -6.15161543409E-04 -3.44967050934E-03 -6.40990167330E-04 +6.65231192530E-01 -1.33789489775E-01
2.85500000000E+09 +4.85437097264E-01 -2.91785429619E-01 -3.65748881019E-03 -3.07001462739E-04 -3.60186708547E-03 -3.30962722328E-04 +6.49325353164E-01 -1.53864645854E-01
2.86000000000E+09 +4.59230254020E-01 -3.08484042078E-01 -3.52789632120E-03 +2.64152266781E-04 -3.44691936436E-03 +2.44318875347E-04 +6.33447124366E-01 -1.73571224576E-01
2.86500000000E+09 +4.35080991258E-01 -3.23182002341E-01 -3.69407812400E-03 +9.77884944709E-05 -3.65210647656E-03 +3.88067177423E-05 +6.15580873594E-01 -1.94168559903E-01
2.87000000000E+09 +4.11461708572E-01 -3.37164720337E-01 -4.00115682518E-03 +1.09856264020E-03 -4.11330226747E-03 +1.09839329177E-03 +5.96185124246E-01 -2.13602010482E-01
2.87500000000E+09 +3.87159723147E-01 -3.48898123661E-01 -3.38416179439E-03 +1.28351748628E-03 -3.36634267663E-03 +1.32710245314E-03 +5.75650510012E-01 -2.32526408879E-01
2.88000000000E+09 +3.61558446963E-01 -3.58506259516E-01 -3.71178770753E-03 +1.41911052045E-03 -3.56215711765E-03 +1.51367912801E-03 +5.54833134239E-01 -2.50254774140E-01
2.88500000000E+09 +3.33695335414E-01 -3.64992142421E-01 -3.50321305393E-03 +2.16526553276E-03 -3.33423226982E-03 +2.08169685839E-03 +5.32634937275E-01 -2.69190407714E-01
2.89000000000E+09 +3.04961350791E-01 -3.69277523703E-01 -3.48705921507E-03 +2.54948945903E-03 -3.31537075349E-03 +2.32987079163E-03 +5.07507846698E-01 -2.86977945712E-01
2.89500000000E+09 +2.74154020194E-01 -3.72976639254E-01 -3.25652494698E-03 +3.07286364028E-03 -3.28763095593E-03 +2.84440043532E-03 +4.81022047992E-01 -3.03393862240E-01
2.90000000000E+09 +2.41056062992E-01 -3.75647958683E-01 -2.72915341872E-03 +3.62523009088E-03 -2.82514214943E-03 +3.55400056532E-03 +4.53970045293E-01 -3.19623376847E-01
2.90500000000E+09 +2.05486640600E-01 -3.77325779868E-01 -2.37305636105E-03 +3.84343334876E-03 -2.48036794835E-03 +3.90561920641E-03 +4.25920582646E-01 -3.35101448089E-01
2.91000000000E+09 +1.69309974885E-01 -3.77232963947E-01 -1.78454628679E-03 +4.31605484206E-03 -1.65056527200E-03 +4.30086163997E-03 +3.96821764724E-01 -3.51181498659E-01
2.91500000000E+09 +1.32901246090E-01 -3.75753659346E-01 -1.17777845294E-03 +4.62593753804E-03 -1.08055244439E-03 +4.38859872403E-03 +3.63647071606E-01 -3.64783770134E-01
2.92000000000E+09 +9.67084526582E-02 -3.71703387334E-01 -3.25328836887E-04 +4.58045750475E-03 -3.38538295521E-04 +4.30705062333E-03 +3.29311938785E-01 -3.75398634709E-01
2.92500000000E+09 +6.32116089278E-02 -3.64225557865E-01 +4.34175194366E-05 +4.27425664731E-03 -1.15195880314E-04 +4.01646797298E-03 +2.93504228042E-01 -3.82849698906E-01
2.93000000000E+09 +3.16839412402E-02 -3.55396570099E-01 +2.82475491028E-04 +4.18460840643E-03 +7.32856350784E-05 +4.03362812972E-03 +2.57275604820E-01 -3.89307344044E-01
2.93500000000E+09 +1.50202578929E-03 -3.44319465367E-01 +5.13670870934E-04 +4.23176112817E-03 +4.02859146071E-04 +4.29313461612E-03 +2.19045171500E-01 -3.94569756652E-01
2.94000000000E+09 -2.81354515227E-02 -3.31382536794E-01 +9.28488287378E-04 +4.17443785701E-03 +8.70951472021E-04 +4.20611188199E-03 +1.78361225747E-01 -3.97273156555E-01
2.94500000000E+09 -5.85749532413E-02 -3.15961295920E-01 +1.22520571861E-03 +4.56547716431E-03 +1.14050041270E-03 +4.52696599210E-03 +1.39348721186E-01 -3.96144673185E-01
2.95000000000E+09 -9.00837390502E-02 -2.96268839908E-01 +2.35550547582E-03 +4.49687972525E-03 +2.18901918173E-03 +4.55727273048E-03 +9.94373588143E-02 -3.93756884883E-01
2.95500000000E+09 -1.19496886516E-01 -2.72704006927E-01 +2.96271400331E-03 +3.94338201320E-03 +2.87600608817E-03 +4.09206789883E-03 +5.98111523796E-02 -3.88283778682E-01
2.96000000000E+09 -1.47772928008E-01 -2.48279184454E-01 +3.13118417389E-03 +3.01776210262E-03 +3.20232757916E-03 +3.22108280969E-03 +1.84725888006E-02 -3.79594794970E-01
2.96500000000E+09 -1.74691534741E-01 -2.21579286504E-01 +2.87206556932E-03 +2.97302519036E-03 +2.98551549351E-03 +3.08050567830E-03 -2.18292868450E-02 -3.66225186212E-01
2.97000000000E+09 -1.98709144865E-01 -1.94415249978E-01 +3.01384357151E-03 +3.31236567610E-03 +3.14483610011E-03 +3.21596234461E-03 -6.03243218459E-02 -3.50622940870E-01
2.97500000000E+09 -2.21361670952E-01 -1.67583664049E-01 +4.20422234011E-03 +3.54057969686E-03 +4.13005941047E-03 +3.38264841783E-03 -9.77283256647E-02 -3.34393000225E-01
2.98000000000E+09 -2.43328519734E-01 -1.38957250843E-01 +5.16138901079E-03 +2.56251046146E-03 +5.01494824542E-03 +2.67255260831E-03 -1.35652709402E-01 -3.15869073869E-01
2.98500000000E+09 -2.62352273755E-01 -1.08489222033E-01 +5.32969902109E-03 +1.37796766954E-03 +5.36039623527E-03 +1.66571354911E-03 -1.72262810597E-01 -2.94218088124E-01
2.99000000000E+09 -2.78658093809E-01 -7.66443657715E-02 +5.28435563774E-03 +8.76457014975E-04 +5.46953033789E-03 +9.74879123483E-04 -2.07732717307E-01 -2.68832895109E-01
2.99500000000E+09 -2.92566130755E-01 -4.46601615160E-02 +5.34305898071E-03 +3.46998821602E-04 +5.55536858283E-03 +1.43838190103E-04 -2.40843471647E-01 -2.40292687655E-01
3.00000000000E+09 -3.04790080638E-01 -1.14070741011E-02 +5.57931112584E-03 -2.67574288436E-04 +5.57888275164E-03 -4.83384164327E-04 -2.71969630751E-01 -2.08818632227E-01
3.00500000000E+09 -3.14628009603E-01 +2.12179704347E-02 +5.85146944591E-03 -1.13687323913E-03 +5.58840830042E-03 -1.21673895738E-03 -3.00715534475E-01 -1.76489231058E-01
3.01000000000E+09 -3.23680423211E-01 +5.34959481469E-02 +5.27206672359E-03 -2.33958178475E-03 +5.08729150656E-03 -2.15821796990E-03 -3.27552107884E-01 -1.41669652774E-01
3.01500000000E+09 -3.30493654841E-01 +8.68139533987E-02 +4.74295127269E-03 -2.77486054001E-03 +4.77829481714E-03 -2.55300051995E-03 -3.51572381300E-01 -1.06094401393E-01
3.02000000000E+09 -3.33404291281E-01 +1.18096578459E-01 +4.28578994545E-03 -3.19669156523E-03 +4.43697671402E-03 -3.13152563353E-03 -3.72177679945E-01 -6.88565874221E-02
3.02500000000E+09 -3.34651738213E-01 +1.47632270052E-01 +3.93300896399E-03 -3.56545155636E-03 +4.04487438651E-03 -3.61567784037E-03 -3.89926666735E-01 -3.13309569009E-02
3.03000000000E+09 -3.33516157582E-01 +1.76255767241E-01 +3.52303654469E-03 -4.18464474807E-03 +3.48534941439E-03 -4.14391910473E-03 -4.04982444013E-01 +8.41848609020E-03
3.03500000000E+09 -3.29517674792E-01 +2.04661557607E-01 +2.76087929125E-03 -4.41555563178E-03 +2.85247280879E-03 -4.38630265655E-03 -4.17074397081E-01 +4.87227647796E-02
3.04000000000E+09 -3.22212611515E-01 +2.33234440856E-01 +2.19428890980E-03 -4.74974170570E-03 +2.44343868362E-03 -4.79502345068E-03 -4.24359212099E-01 +8.89997147045E-02
3.04500000000E+09 -3.12387099194E-01 +2.60823271152E-01 +1.62414278303E-03 -4.62768343653E-03 +1.73374571834E-03 -4.86424621292E-03 -4.30530069136E-01 +1.27835398252E-01
3.05000000000E+09 -3.00439850891E-01 +2.89775549541E-01 +1.25388068679E-03 -4.74826692336E-03 +1.19242889376E-03 -5.05023282288E-03 -4.34225761800E-01 +1.66131228248E-01
3.05500000000E+09 -2.86850684282E-01 +3.17410967160E-01 +9.87098488506E-04 -4.88568056500E-03 +6.62939754606E-04 -5.00937470496E-03 -4.36038675270E-01 +2.04637835291E-01
3.06000000000E+09 -2.73484652724E-01 +3.45191145023E-01 +3.76527187246E-04 -5.33760778212E-03 +1.82713998485E-04 -5.18801139906E-03 -4.35293355744E-01 +2.42245147580E-01
3.06500000000E+09 -2.59262300676E-01 +3.72574483546E-01 -6.61814170683E-04 -5.71564266767E-03 -5.44862052405E-04 -5.35352946289E-03 -4.31772934351E-01 +2.79616742719E-01
3.07000000000E+09 -2.45671353631E-01 +3.97944823574E-01 -1.84393122630E-03 -5.17987721618E-03 -1.49411823952E-03 -5.16317577089E-03 -4.26187623290E-01 +3.15626306880E-01
