# Hz S RI R 50
! CMT, C1220, 16058040, 17.2.0/1
! Date: 15/08/2018 10:49:41
! Data: Format (Calibration Info)
! Freq                      S11: Re/Im (F2)                       S21: Re/Im (F2)                       S12: Re/Im (F2)                       S22: Re/Im (F2)            
2.50000000000E+09 +5.80796996590E-01 +6.49649589649E-01 -1.05458848485E-03 +6.50372400817E-04 -1.14121755947E-03 +6.58833974105E-04 +5.62876601442E-01 +7.25920048287E-01
2.50500000000E+09 +5.88389421105E-01 +6.40453366381E-01 -9.62066481377E-04 +7.89630378345E-04 -1.02521865163E-03 +8.86021547883E-04 +5.68789056725E-01 +7.20389336888E-01
2.51000000000E+09 +5.96728053093E-01 +6.31086796955E-01 -8.62637851137E-04 +9.41449764740E-04 -8.26802701195E-04 +9.40372368161E-04 +5.74439647292E-01 +7.14901120459E-01
2.51500000000E+09 +6.05123402405E-01 +6.22122030452E-01 -7.27928071030E-04 +1.01249287430E-03 -7.23052758886E-04 +1.03012730722E-03 +5.79711198643E-01 +7.09256686804E-01
2.52000000000E+09 +6.12724716169E-01 +6.13700427156E-01 -5.74984442003E-04 +1.05099964551E-03 -5.60948415001E-04 +1.05348075218E-03 +5.84656981141E-01 +7.03048334175E-01
2.52500000000E+09 +6.18895238774E-01 +6.06531394151E-01 -5.05476836534E-04 +1.06786701635E-03 -5.38321276030E-04 +9.54802565365E-04 +5.90180804828E-01 +6.96711567036E-01
2.53000000000E+09 +6.23678374110E-01 +6.00370195574E-01 -4.80676615900E-04 +1.04557747050E-03 -4.73794966463E-04 +1.04981795976E-03 +5.96181749094E-01 +6.89811903577E-01
2.53500000000E+09 +6.27540340321E-01 +5.94929384263E-01 -4.49365331128E-04 +1.13748322799E-03 -4.39302128188E-04 +1.14706911843E-03 +6.02137185369E-01 +6.83286387995E-01
2.54000000000E+09 +6.30451717892E-01 +5.89262792305E-01 -3.02465291242E-04 +1.26048038175E-03 -3.21028220221E-04 +1.23952982634E-03 +6.08193886070E-01 +6.76940954121E-01
2.54500000000E+09 +6.33552053842E-01 +5.83345769496E-01 -1.28216082231E-04 +1.31733442113E-03 -2.28041409605E-04 +1.29655350627E-03 +6.13883013390E-01 +6.70766223630E-01
2.55000000000E+09 +6.37411320044E-01 +5.76265058738E-01 +1.24161037758E-04 +1.32630116762E-03 -2.06328828600E-05 +1.41402534463E-03 +6.19112005216E-01 +6.64695675859E-01
2.55500000000E+09 +6.42506495968E-01 +5.67822102603E-01 +3.01458030091E-04 +1.10264585469E-03 +2.96184756978E-04 +1.32611839324E-03 +6.24129015551E-01 +6.58446480678E-01
2.56000000000E+09 +6.49152377669E-01 +5.58737829064E-01 +2.72528708343E-04 +1.03982914591E-03 +4.24441022775E-04 +1.20740961125E-03 +6.29331471423E-01 +6.51375869589E-01
2.56500000000E+09 +6.57126057942E-01 +5.48503696830E-01 +2.98374546699E-04 +1.03963097212E-03 +5.35726336211E-04 +1.14824023688E-03 +6.34549177797E-01 +6.44194762371E-01
2.57000000000E+09 +6.65418896495E-01 +5.38041542791E-01 +3.96505054984E-04 +1.05815616037E-03 +5.88425535337E-04 +9.25685243567E-04 +6.40142633743E-01 +6.36645271024E-01
2.57500000000E+09 +6.73526220135E-01 +5.27859863417E-01 +5.57676693022E-04 +1.08266838321E-03 +5.90225438507E-04 +8.50694316125E-04 +6.46053087387E-01 +6.29100662276E-01
2.58000000000E+09 +6.80305885688E-01 +5.18781603326E-01 +6.42069990650E-04 +1.02060633014E-03 +6.52227694943E-04 +7.93129413327E-04 +6.51541408858E-01 +6.21732729094E-01
2.58500000000E+09 +6.85988073732E-01 +5.10364795519E-01 +7.63059023664E-04 +8.25706279401E-04 +6.31713536544E-04 +7.81258269267E-04 +6.56823254709E-01 +6.13898501647E-01
2.59000000000E+09 +6.89931957539E-01 +5.02926262645E-01 +7.67601248629E-04 +7.31039698190E-04 +6.84975809319E-04 +7.67768780191E-04 +6.61705813439E-01 +6.06272660788E-01
2.59500000000E+09 +6.92741672810E-01 +4.95522832358E-01 +8.15862034781E-04 +7.08442931102E-04 +7.90561855626E-04 +8.06981934293E-04 +6.66643870771E-01 +5.98328858598E-01
2.60000000000E+09 +6.94723886229E-01 +4.87392355818E-01 +9.49139948028E-04 +5.97598069990E-04 +9.31989801322E-04 +6.64004862656E-04 +6.71920281046E-01 +5.89985984757E-01
2.60500000000E+09 +6.96730754693E-01 +4.77663478021E-01 +9.81347913065E-04 +4.61031667901E-04 +9.37071703523E-04 +4.50132389097E-04 +6.77596159055E-01 +5.81402890434E-01
2.61000000000E+09 +6.99121911422E-01 +4.65991415029E-01 +8.67907919103E-04 +3.04223731706E-04 +8.75336317069E-04 +3.37033460628E-04 +6.82978174648E-01 +5.72289578466E-01
2.61500000000E+09 +7.02767380501E-01 +4.52287745800E-01 +8.69230701309E-04 +3.38271528765E-04 +8.59154187204E-04 +3.37934954437E-04 +6.87962479117E-01 +5.63347932702E-01
2.62000000000E+09 +7.07201545370E-01 +4.36489378488E-01 +8.16902941432E-04 +2.39027821829E-04 +8.59097099041E-04 +2.54566832786E-04 +6.92557007282E-01 +5.54502363584E-01
2.62500000000E+09 +7.12454450963E-01 +4.19485741692E-01 +7.90287107735E-04 +3.26138102850E-04 +8.48754134675E-04 +2.90443777390E-04 +6.97444076064E-01 +5.45732151858E-01
2.63000000000E+09 +7.17972010323E-01 +4.02740825370E-01 +9.06708115383E-04 +3.47557711096E-04 +9.75352435365E-04 +2.15924433123E-04 +7.02193330485E-01 +5.36694360545E-01
2.63500000000E+09 +7.23032200987E-01 +3.86604708839E-01 +1.08538829557E-03 +1.27867954986E-04 +9.95687768872E-04 +8.75849892134E-06 +7.06862791505E-01 +5.27444599202E-01
2.64000000000E+09 +7.27338245316E-01 +3.72362752579E-01 +9.48994744825E-04 -5.21814120851E-05 +8.05135215680E-04 -6.59928419365E-05 +7.11463765940E-01 +5.17748954619E-01
2.64500000000E+09 +7.30693795154E-01 +3.60324453640E-01 +8.34606032877E-04 -8.74182647247E-05 +7.31379115183E-04 +9.73534733165E-06 +7.15974370935E-01 +5.08200290198E-01
2.65000000000E+09 +7.32831056507E-01 +3.50414163839E-01 +7.48925041936E-04 -8.72569210914E-05 +6.97889831913E-04 +7.47501757566E-06 +7.20559812530E-01 +4.98081260904E-01
2.65500000000E+09 +7.34304369016E-01 +3.41120833742E-01 +7.16275684549E-04 -1.54595436135E-07 +7.23722748513E-04 +5.96876075475E-05 +7.24651985286E-01 +4.87401292276E-01
2.66000000000E+09 +7.35421415996E-01 +3.32161468742E-01 +7.72904422770E-04 +1.29078427367E-04 +7.97944423971E-04 +1.30862165548E-04 +7.28670124373E-01 +4.76220236249E-01
2.66500000000E+09 +7.36393483978E-01 +3.22316044632E-01 +8.57197635533E-04 +1.48654055902E-04 +9.00481471617E-04 +6.97472726732E-05 +7.32767628579E-01 +4.65148870405E-01
2.67000000000E+09 +7.37475725060E-01 +3.10190181136E-01 +1.01056750183E-03 +8.85832075633E-05 +9.76718616889E-04 +5.13813744449E-05 +7.37159879233E-01 +4.54445452810E-01
2.67500000000E+09 +7.38427010818E-01 +2.96033037277E-01 +1.10736565365E-03 +3.01736278351E-05 +1.09056344908E-03 -1.52101914459E-05 +7.41452105178E-01 +4.43450229851E-01
2.68000000000E+09 +7.39555033000E-01 +2.80179824733E-01 +1.14975889231E-03 -2.06332554342E-04 +1.11663908372E-03 -1.89097942119E-04 +7.45529634984E-01 +4.32303426382E-01
2.68500000000E+09 +7.40871654678E-01 +2.63311434540E-01 +9.72484965431E-04 -3.10082100702E-04 +9.60762170098E-04 -2.99422452958E-04 +7.48459897578E-01 +4.20683013874E-01
2.69000000000E+09 +7.41967971200E-01 +2.45850190358E-01 +9.62309250975E-04 -1.86017587949E-04 +1.00377951656E-03 -1.09416026351E-04 +7.51289560694E-01 +4.08837661060E-01
2.69500000000E+09 +7.42890288272E-01 +2.29375056021E-01 +1.23002020648E-03 -4.98756545717E-05 +1.20147753393E-03 -7.57989540002E-05 +7.54086768301E-01 +3.96253398650E-01
2.70000000000E+09 +7.43583369933E-01 +2.13886133025E-01 +1.45531943022E-03 -2.53549118529E-04 +1.43591361211E-03 -2.45581442493E-04 +7.57191713828E-01 +3.83214174356E-01
2.70500000000E+09 +7.43960730523E-01 +1.99949128322E-01 +1.65959513952E-03 -5.89103250249E-04 +1.65636762311E-03 -4.34373457105E-04 +7.60425118208E-01 +3.69879241401E-01
2.71000000000E+09 +7.44150089728E-01 +1.87053698548E-01 +1.57363225259E-03 -1.00847257085E-03 +1.63480187008E-03 -8.79563161526E-04 +7.62965608336E-01 +3.56416705527E-01
2.71500000000E+09 +7.44020222731E-01 +1.74339947018E-01 +1.38242394412E-03 -1.20659590657E-03 +1.48491376931E-03 -1.29120059404E-03 +7.65048324302E-01 +3.44049134719E-01
2.72000000000E+09 +7.43514147041E-01 +1.61560878661E-01 +1.18335854772E-03 -1.23393583662E-03 +1.16800485082E-03 -1.38484350180E-03 +7.67038343281E-01 +3.31549542525E-01
2.72500000000E+09 +7.43023593091E-01 +1.47657786807E-01 +1.06824052586E-03 -1.23371194389E-03 +9.18187031649E-04 -1.31870809424E-03 +7.68247234208E-01 +3.18239315607E-01
2.73000000000E+09 +7.41806187966E-01 +1.31907657591E-01 +1.25585319619E-03 -1.23512421561E-03 +1.04526643445E-03 -1.14961407188E-03 +7.69551642245E-01 +3.04159111144E-01
2.73500000000E+09 +7.39845748565E-01 +1.14396103909E-01 +1.38331685490E-03 -1.68510019069E-03 +1.11343538430E-03 -1.42961032050E-03 +7.70206025662E-01 +2.89411377168E-01
2.74000000000E+09 +7.36947915089E-01 +9.60945706509E-02 +1.05199724145E-03 -1.91100479547E-03 +1.07759746022E-03 -1.58760766866E-03 +7.71461402693E-01 +2.74746852620E-01
2.74500000000E+09 +7.33244338663E-01 +7.70717665750E-02 +8.02879249429E-04 -2.03213576876E-03 +9.99043695071E-04 -1.85506862961E-03 +7.72962124304E-01 +2.60217200523E-01
2.75000000000E+09 +7.28327937357E-01 +5.86106454693E-02 +8.10761385940E-04 -1.99674671196E-03 +1.05810496197E-03 -2.00133363860E-03 +7.73949148008E-01 +2.45228447399E-01
2.75500000000E+09 +7.23045781051E-01 +4.09926269937E-02 +7.37069379870E-04 -2.55434841572E-03 +9.42524143812E-04 -2.66824554816E-03 +7.74246471575E-01 +2.30371831610E-01
2.76000000000E+09 +7.17906142134E-01 +2.43596086340E-02 +3.34651711273E-04 -2.69804450366E-03 +3.91074698591E-04 -2.86384229347E-03 +7.73884954708E-01 +2.14993277178E-01
2.76500000000E+09 +7.12168308391E-01 +7.79656751060E-03 -2.20615239876E-04 -2.84566419976E-03 -2.68879884050E-04 -3.02465223242E-03 +7.73203783325E-01 +1.99121859636E-01
2.77000000000E+09 +7.06673098585E-01 -8.91804676172E-03 -6.64957715832E-04 -2.51324137726E-03 -7.69155049217E-04 -2.58498490964E-03 +7.72951718167E-01 +1.82012515201E-01
2.77500000000E+09 +7.00964933045E-01 -2.66312942395E-02 -4.81428513734E-04 -2.05477425009E-03 -5.95516190513E-04 -2.12879952497E-03 +7.71514891005E-01 +1.63855524204E-01
2.78000000000E+09 +6.94733638665E-01 -4.56921609289E-02 -2.30353498808E-04 -2.51305466578E-03 -4.06002831544E-04 -2.50797236822E-03 +7.69843566338E-01 +1.46165926202E-01
2.78500000000E+09 +6.88028720070E-01 -6.59530613951E-02 -5.56203299530E-04 -2.91031271728E-03 -7.11294031920E-04 -2.82899867799E-03 +7.67757150209E-01 +1.28520802894E-01
2.79000000000E+09 +6.80835701776E-01 -8.77438989830E-02 -1.05325650697E-03 -2.92477167005E-03 -1.10239766819E-03 -2.76593003627E-03 +7.65120986258E-01 +1.11244753038E-01
2.79500000000E+09 +6.72506836007E-01 -1.09754653879E-01 -1.37314216448E-03 -3.19965911940E-03 -1.30183046144E-03 -2.94810825968E-03 +7.61841884955E-01 +9.32674979396E-02
2.80000000000E+09 +6.63569393464E-01 -1.31228053545E-01 -2.03150577678E-03 -3.06325754282E-03 -1.91329112762E-03 -2.92646627499E-03 +7.57201215771E-01 +7.44094149786E-02
2.80500000000E+09 +6.54053804314E-01 -1.51582940024E-01 -2.14233140023E-03 -2.93175032095E-03 -1.96551696616E-03 -2.88156748493E-03 +7.51613653224E-01 +5.49105812894E-02
2.81000000000E+09 +6.43002451664E-01 -1.69686240121E-01 -2.56644196891E-03 -3.16325146775E-03 -2.66821476774E-03 -3.23276266171E-03 +7.45097475679E-01 +3.56393215967E-02
2.81500000000E+09 +6.31895512975E-01 -1.85527192503E-01 -3.32850563638E-03 -2.81874600402E-03 -3.47520589562E-03 -2.78794643916E-03 +7.38879254552E-01 +1.59231215783E-02
2.82000000000E+09 +6.19854232770E-01 -2.00615378650E-01 -3.57880173815E-03 -2.74550375355E-03 -3.74141026634E-03 -2.55959493873E-03 +7.31813386178E-01 -4.65748868515E-03
2.82500000000E+09 +6.05891456639E-01 -2.15109707788E-01 -4.31907221706E-03 -2.44589781259E-03 -4.24301162704E-03 -2.22642734047E-03 +7.23560245214E-01 -2.50775204381E-02
2.83000000000E+09 +5.90364853948E-01 -2.29732077834E-01 -4.95809191064E-03 -1.95122457867E-03 -4.59667642265E-03 -1.82793326705E-03 +7.13951620519E-01 -4.49873656864E-02
2.83500000000E+09 +5.73427002389E-01 -2.46046399848E-01 -5.51450827694E-03 -1.31687026220E-03 -5.27428000111E-03 -1.39590554212E-03 +7.03857973433E-01 -6.53352838942E-02
2.84000000000E+09 +5.53448829159E-01 -2.64404043979E-01 -5.76274364897E-03 -4.94727564682E-04 -5.67438491425E-03 -7.32778976324E-04 +6.92619685502E-01 -8.54812207675E-02
2.84500000000E+09 +5.31218971104E-01 -2.83909728887E-01 -5.86760311577E-03 +2.19497929574E-04 -5.94804514409E-03 +1.59377934044E-04 +6.80444200575E-01 -1.06303435220E-01
2.85000000000E+09 +5.07191445634E-01 -3.04372092012E-01 -5.95387525298E-03 +7.07842838657E-04 -5.96926469599E-03 +7.54846638214E-04 +6.66704836348E-01 -1.27182451042E-01
2.85500000000E+09 +4.81652535504E-01 -3.24177460723E-01 -6.48157789981E-03 +1.50256619148E-03 -6.37372368734E-03 +1.48856913209E-03 +6.51505482947E-01 -1.47784024771E-01
2.86000000000E+09 +4.56897540856E-01 -3.42450055666E-01 -6.25199871278E-03 +2.51052534629E-03 -6.18333382268E-03 +2.42159747589E-03 +6.35608326854E-01 -1.67121947704E-01
2.86500000000E+09 +4.33132207220E-01 -3.59031073519E-01 -6.46000917966E-03 +3.24235596545E-03 -6.43536963831E-03 +3.15723148632E-03 +6.19648763035E-01 -1.87594369614E-01
2.87000000000E+09 +4.10309220376E-01 -3.74021472561E-01 -6.27661795948E-03 +4.59724780004E-03 -6.31410539507E-03 +4.65438324453E-03 +6.01392632961E-01 -2.08565912137E-01
2.87500000000E+09 +3.87669603111E-01 -3.86653806103E-01 -5.66153576890E-03 +5.63717011008E-03 -5.54882188840E-03 +5.74668329465E-03 +5.80628072610E-01 -2.28514020686E-01
2.88000000000E+09 +3.64940341899E-01 -3.98025271647E-01 -5.10642568875E-03 +6.28358274157E-03 -4.72016288313E-03 +6.24675742285E-03 +5.59667097149E-01 -2.47247127329E-01
2.88500000000E+09 +3.40270636875E-01 -4.07441123736E-01 -4.48270144582E-03 +7.39541069793E-03 -4.19460273577E-03 +7.07174761956E-03 +5.37044050459E-01 -2.65918947553E-01
2.89000000000E+09 +3.14190100718E-01 -4.15973637955E-01 -3.44508193764E-03 +8.37839238873E-03 -3.44519795162E-03 +7.78783442409E-03 +5.12780887093E-01 -2.84308595689E-01
2.89500000000E+09 +2.84783123793E-01 -4.23165046018E-01 -2.20263060867E-03 +8.85769855944E-03 -2.49705438672E-03 +8.49952555760E-03 +4.85763636961E-01 -3.02450001571E-01
2.90000000000E+09 +2.53532055685E-01 -4.29596523838E-01 -1.17490338578E-03 +9.03619006523E-03 -1.53263498680E-03 +9.05340921787E-03 +4.58679970140E-01 -3.18435309675E-01
2.90500000000E+09 +2.19213870872E-01 -4.35433977042E-01 -1.36358420243E-04 +9.55002710927E-03 -1.43904467294E-04 +9.72053755448E-03 +4.29861011949E-01 -3.35072010598E-01
2.91000000000E+09 +1.83551171701E-01 -4.38812437552E-01 +8.12716502268E-04 +9.77251595349E-03 +1.07744207320E-03 +9.67049938134E-03 +3.99794794584E-01 -3.49937706755E-01
2.91500000000E+09 +1.48932360291E-01 -4.41079059209E-01 +2.29092319673E-03 +1.07561078587E-02 +2.46121571587E-03 +1.02055455241E-02 +3.67959960527E-01 -3.62984272786E-01
2.92000000000E+09 +1.14005430976E-01 -4.41773633612E-01 +4.66516562973E-03 +1.04227971665E-02 +4.24201840104E-03 +9.74677341439E-03 +3.34513249221E-01 -3.74816602986E-01
2.92500000000E+09 +8.01356758079E-02 -4.40894494621E-01 +6.32690933682E-03 +9.70652382808E-03 +5.54272994576E-03 +9.45230807445E-03 +2.98331626759E-01 -3.82952546634E-01
2.93000000000E+09 +4.72272719448E-02 -4.37241752991E-01 +7.83191056978E-03 +8.43809624277E-03 +7.15666787003E-03 +8.73344473624E-03 +2.62064369699E-01 -3.90306651224E-01
2.93500000000E+09 +1.51817118963E-02 -4.31462749660E-01 +8.84732560336E-03 +7.44725099275E-03 +8.53858544634E-03 +7.85791445928E-03 +2.23522418608E-01 -3.95617131813E-01
2.94000000000E+09 -1.74052567864E-02 -4.22810263765E-01 +9.74809516878E-03 +6.41296228140E-03 +9.57963367211E-03 +6.70834163720E-03 +1.84236344909E-01 -3.99585581650E-01
2.94500000000E+09 -4.94103221102E-02 -4.10720870688E-01 +1.11735257528E-02 +5.28012161927E-03 +1.09311982678E-02 +5.55487581730E-03 +1.43350431784E-01 -4.00000524708E-01
2.95000000000E+09 -8.17779944231E-02 -3.97261045226E-01 +1.19715850646E-02 +3.43332957133E-03 +1.17651738160E-02 +3.86283499263E-03 +1.03348471602E-01 -3.98024172976E-01
2.95500000000E+09 -1.16297740688E-01 -3.79940927861E-01 +1.24788610464E-02 +1.47263309480E-03 +1.27290721366E-02 +2.02693839579E-03 +6.31113607507E-02 -3.92906338881E-01
2.96000000000E+09 -1.49184547482E-01 -3.58569335996E-01 +1.23386039813E-02 -3.26476503639E-04 +1.29336788464E-02 -1.01114576974E-04 +2.13526958568E-02 -3.85345746610E-01
2.96500000000E+09 -1.80384549807E-01 -3.36219585772E-01 +1.22341926320E-02 -1.70689234735E-03 +1.27021320228E-02 -1.95990136123E-03 -1.99919456031E-02 -3.73030285712E-01
2.97000000000E+09 -2.10490840544E-01 -3.12121821439E-01 +1.24269279760E-02 -3.03729246078E-03 +1.23136324224E-02 -3.48685488753E-03 -6.11306848052E-02 -3.58459417551E-01
2.97500000000E+09 -2.38523969981E-01 -2.86878187562E-01 +1.27906190202E-02 -5.40585488933E-03 +1.23363461255E-02 -5.37618401786E-03 -1.01060945167E-01 -3.40935756404E-01
2.98000000000E+09 -2.65343321462E-01 -2.60789458251E-01 +1.11958734849E-02 -7.93642415998E-03 +1.11556352301E-02 -7.35961422719E-03 -1.39783552102E-01 -3.21228142783E-01
2.98500000000E+09 -2.90226411126E-01 -2.31737150572E-01 +9.85242288580E-03 -9.25706879668E-03 +1.03339285828E-02 -8.95366994939E-03 -1.76510669158E-01 -2.98138646932E-01
2.99000000000E+09 -3.11868225046E-01 -2.01271340881E-01 +8.16044904910E-03 -1.02577180527E-02 +8.71610803660E-03 -1.06457672462E-02 -2.12742694848E-01 -2.72486334034E-01
2.99500000000E+09 -3.31506538875E-01 -1.70686418939E-01 +6.98952662235E-03 -1.11531616482E-02 +7.01545380085E-03 -1.18345315190E-02 -2.46083862523E-01 -2.42708166645E-01
3.00000000000E+09 -3.50787268190E-01 -1.38216013803E-01 +5.61858479228E-03 -1.22156895774E-02 +4.97128688655E-03 -1.25015197013E-02 -2.77271481518E-01 -2.10437900710E-01
3.00500000000E+09 -3.67250871664E-01 -1.03898024576E-01 +3.78543730493E-03 -1.36170837353E-02 +3.12847957849E-03 -1.32457176112E-02 -3.05725558942E-01 -1.77698646056E-01
3.01000000000E+09 -3.80855237704E-01 -7.01582464155E-02 +8.72413964653E-04 -1.41881678827E-02 +8.80104369246E-04 -1.35115418511E-02 -3.33846066273E-01 -1.42204978417E-01
3.01500000000E+09 -3.93452234513E-01 -3.71332313208E-02 -1.34789849246E-03 -1.32532666184E-02 -9.58402066020E-04 -1.30202755425E-02 -3.57609015720E-01 -1.05493642236E-01
3.02000000000E+09 -4.03480707570E-01 -3.70796837550E-03 -2.81210676536E-03 -1.24397649252E-02 -2.63382544577E-03 -1.24656612263E-02 -3.78141278787E-01 -6.65375334584E-02
3.02500000000E+09 -4.10555358634E-01 +2.85416992312E-02 -4.31080482833E-03 -1.22490539446E-02 -4.24461895649E-03 -1.22883228823E-02 -3.94299048685E-01 -2.80981544277E-02
3.03000000000E+09 -4.14132178851E-01 +6.08118374434E-02 -5.99284969469E-03 -1.10230609912E-02 -5.85309071053E-03 -1.09405395580E-02 -4.08896201780E-01 +1.16118415235E-02
3.03500000000E+09 -4.14353685555E-01 +9.18458766033E-02 -7.44163670482E-03 -1.05875178992E-02 -7.07477256060E-03 -1.07205200511E-02 -4.20128941233E-01 +5.12322225639E-02
3.04000000000E+09 -4.11461336550E-01 +1.22888761356E-01 -9.34806127045E-03 -8.56493999061E-03 -9.13419211438E-03 -9.09111282063E-03 -4.28590773131E-01 +9.26232261157E-02
3.04500000000E+09 -4.06195483227E-01 +1.53680789972E-01 -9.54966687796E-03 -6.79901491287E-03 -9.98456480679E-03 -7.33640877213E-03 -4.33469645185E-01 +1.32304201370E-01
3.05000000000E+09 -3.98921522431E-01 +1.86339216367E-01 -9.96378180635E-03 -5.48478615569E-03 -1.07437296870E-02 -5.45855299881E-03 -4.36008021299E-01 +1.71661881468E-01
3.05500000000E+09 -3.88598056769E-01 +2.20076947611E-01 -1.05338726532E-02 -4.42808985654E-03 -1.09343739370E-02 -3.70440957390E-03 -4.36207765698E-01 +2.09572656670E-01
3.06000000000E+09 -3.76830567427E-01 +2.53573608739E-01 -1.10455903432E-02 -2.93291982595E-03 -1.07485086306E-02 -2.28496973234E-03 -4.34060204341E-01 +2.46238260188E-01
3.06500000000E+09 -3.63222541413E-01 +2.86865938725E-01 -1.13847571428E-02 -8.09323024115E-04 -1.05657678711E-02 -8.41242211483E-04 -4.31368845566E-01 +2.82928737429E-01
3.07000000000E+09 -3.49016035828E-01 +3.17779367022E-01 -1.05322706242E-02 +8.17801343401E-04 -1.02513134237E-02 +1.86510782567E-04 -4.24299496967E-01 +3.19230772140E-01
