# Hz S RI R 50
! CMT, C1220, 16058040, 17.2.0/1
! Date: 15/08/2018 10:18:16
! Data: Format (Calibration Info)
! Freq                      S11: Re/Im (F2)                       S21: Re/Im (F2)                       S12: Re/Im (F2)                       S22: Re/Im (F2)            
2.50000000000E+09 +5.94851600586E-01 +6.33981854044E-01 -2.75327171636E-04 +6.93439607362E-05 -3.09641471480E-04 +2.41765240739E-05 +5.73207274208E-01 +7.16532664154E-01
2.50500000000E+09 +6.01137733190E-01 +6.26153942763E-01 -2.25407282974E-04 +6.32930283001E-05 -2.48940162775E-04 +1.28700883552E-04 +5.78807579529E-01 +7.11135572193E-01
2.51000000000E+09 +6.07569150739E-01 +6.18124512638E-01 -2.05692750616E-04 +5.53266293953E-05 -2.14996172711E-04 +8.68218366091E-05 +5.84217157575E-01 +7.05741213844E-01
2.51500000000E+09 +6.13652213972E-01 +6.10297988186E-01 -1.64895862168E-04 +1.18218744374E-04 -2.18852713328E-04 +1.00010103342E-04 +5.89406926529E-01 +7.00484031790E-01
2.52000000000E+09 +6.19560217761E-01 +6.02604786164E-01 -2.21498386674E-04 +1.25478551746E-04 -1.94463701715E-04 +7.98115018886E-05 +5.94668479302E-01 +6.94383849129E-01
2.52500000000E+09 +6.24674269100E-01 +5.95477939964E-01 -2.47906165047E-04 +6.06104038381E-05 -2.44041618919E-04 +2.92185474013E-05 +6.00128207717E-01 +6.88010836543E-01
2.53000000000E+09 +6.29415482832E-01 +5.88651278549E-01 -2.97156366346E-04 +1.39759334040E-04 -3.03160349814E-04 +1.43542590751E-04 +6.06257382171E-01 +6.81238281849E-01
2.53500000000E+09 +6.33903853316E-01 +5.82669142221E-01 -2.79011888401E-04 +1.95089179405E-04 -3.18140538932E-04 +1.79752884263E-04 +6.12283727809E-01 +6.74263994652E-01
2.54000000000E+09 +6.37955819390E-01 +5.76703309184E-01 -2.55292065998E-04 +3.02785100748E-04 -2.57158607902E-04 +2.34932359029E-04 +6.17958466357E-01 +6.67552550107E-01
2.54500000000E+09 +6.42165399880E-01 +5.70928812435E-01 -2.00342069934E-04 +3.33815654520E-04 -2.06102606617E-04 +3.20130253796E-04 +6.23817421342E-01 +6.61259151735E-01
2.55000000000E+09 +6.47015330676E-01 +5.65186971299E-01 -6.89563544586E-05 +3.47895339995E-04 -1.15418820964E-04 +3.41432524847E-04 +6.29077156618E-01 +6.54909155411E-01
2.55500000000E+09 +6.52621128183E-01 +5.58408617303E-01 -6.10236249805E-06 +2.57625059485E-04 -4.01641130292E-05 +2.98864229166E-04 +6.34247268828E-01 +6.48436957035E-01
2.56000000000E+09 +6.58718081706E-01 +5.51134503096E-01 -4.53019636981E-05 +2.14300626027E-04 -6.62814283369E-05 +2.10496798034E-04 +6.39649578752E-01 +6.41206333025E-01
2.56500000000E+09 +6.65038820560E-01 +5.42733378235E-01 -1.28992862464E-04 +1.75265948590E-04 -1.49419238631E-04 +1.96353654836E-04 +6.44962814708E-01 +6.33777518259E-01
2.57000000000E+09 +6.71157855024E-01 +5.34172707710E-01 -1.82068097061E-04 +3.20825979658E-04 -1.05080553565E-04 +3.32897264118E-04 +6.50264860762E-01 +6.25962997612E-01
2.57500000000E+09 +6.77313387167E-01 +5.25295696416E-01 -6.13672224504E-05 +3.72926882569E-04 +1.06139281747E-05 +3.31914269029E-04 +6.55593764290E-01 +6.18407075179E-01
2.58000000000E+09 +6.82700229444E-01 +5.16528729787E-01 +5.53276803232E-05 +3.98826456367E-04 +4.15740787264E-05 +3.51226674273E-04 +6.60597712818E-01 +6.11256506115E-01
2.58500000000E+09 +6.87893151982E-01 +5.07678406681E-01 +6.00666865852E-05 +2.86792252718E-04 +6.11830620069E-05 +2.58605461154E-04 +6.65665894751E-01 +6.03581111220E-01
2.59000000000E+09 +6.92243806995E-01 +4.99286738807E-01 +3.43085095805E-05 +2.57789506166E-04 +3.06134854749E-05 +2.37178087641E-04 +6.70263186288E-01 +5.96098004499E-01
2.59500000000E+09 +6.96581721648E-01 +4.90869361729E-01 +4.63525221157E-05 +3.13111147562E-04 +8.13052405420E-05 +3.30506939319E-04 +6.75225176475E-01 +5.88198242942E-01
2.60000000000E+09 +7.00564687253E-01 +4.82162888992E-01 +8.39296664723E-05 +2.40819891877E-04 +6.84104072611E-05 +2.73688155902E-04 +6.80269142682E-01 +5.79699847429E-01
2.60500000000E+09 +7.04653866281E-01 +4.73127325094E-01 -1.86493056058E-05 +2.61043923384E-04 +3.98711648736E-05 +2.46367640363E-04 +6.85574364598E-01 +5.71115058771E-01
2.61000000000E+09 +7.08907614611E-01 +4.62941984251E-01 +1.03165256185E-04 +3.08820822496E-04 +5.72972404879E-05 +3.16820911584E-04 +6.90833142222E-01 +5.62261101962E-01
2.61500000000E+09 +7.13407147802E-01 +4.51817720079E-01 +1.61875481939E-04 +2.85960054683E-04 +1.52489783070E-04 +3.01049538729E-04 +6.95570710224E-01 +5.53533360414E-01
2.62000000000E+09 +7.17399184009E-01 +4.39460001819E-01 +1.15274353904E-04 +2.45164206455E-04 +1.46191752409E-04 +2.44570616494E-04 +7.00260735296E-01 +5.44608858327E-01
2.62500000000E+09 +7.21281731392E-01 +4.26497823539E-01 +2.85251909659E-05 +2.92788840070E-04 +9.12363596475E-05 +3.29627245552E-04 +7.05083973988E-01 +5.35812036110E-01
2.63000000000E+09 +7.24997627684E-01 +4.13314574564E-01 +7.77894735566E-05 +3.82602408605E-04 +1.47459815732E-04 +3.73375062749E-04 +7.09977944273E-01 +5.26508158359E-01
2.63500000000E+09 +7.28164425840E-01 +4.00014470375E-01 +1.64100750533E-04 +4.86848818303E-04 +2.09060459877E-04 +4.11115012271E-04 +7.14820000581E-01 +5.17112387914E-01
2.64000000000E+09 +7.31024786282E-01 +3.87374240687E-01 +2.66668101057E-04 +5.06188918518E-04 +2.27970508958E-04 +3.85228231626E-04 +7.19635470988E-01 +5.07346760789E-01
2.64500000000E+09 +7.33916261571E-01 +3.75455901528E-01 +4.25030802810E-04 +5.09481641974E-04 +3.21581610091E-04 +4.61694141897E-04 +7.24399654373E-01 +4.97681205649E-01
2.65000000000E+09 +7.36360431576E-01 +3.64480406841E-01 +5.74636138914E-04 +4.94930200462E-04 +4.37248493619E-04 +5.31236187223E-04 +7.28919917604E-01 +4.87618111134E-01
2.65500000000E+09 +7.39036826519E-01 +3.53633591064E-01 +7.35564619491E-04 +3.92744881794E-04 +7.11667208041E-04 +4.51695156719E-04 +7.32805258132E-01 +4.77198205953E-01
2.66000000000E+09 +7.41940217371E-01 +3.42854472445E-01 +7.45960004949E-04 +1.52638531281E-04 +7.40228006626E-04 +2.01199572044E-04 +7.36764844829E-01 +4.65963425639E-01
2.66500000000E+09 +7.44645924968E-01 +3.31807638715E-01 +8.18566278753E-04 +1.40961606626E-04 +7.72706281332E-04 +1.07740872395E-04 +7.40664534051E-01 +4.54708323261E-01
2.67000000000E+09 +7.46858796073E-01 +3.19788882678E-01 +8.75406530796E-04 -7.53197076012E-05 +8.55723284558E-04 -1.04356843486E-04 +7.44926586523E-01 +4.43985585946E-01
2.67500000000E+09 +7.48742246422E-01 +3.07262991431E-01 +6.88768820783E-04 -2.12507568594E-04 +6.36669168924E-04 -1.61079012725E-04 +7.49191945039E-01 +4.32736540257E-01
2.68000000000E+09 +7.50261095136E-01 +2.93879974275E-01 +7.41089908599E-04 -1.93626793321E-04 +6.90345786837E-04 -1.34372290001E-04 +7.53118271533E-01 +4.21246332863E-01
2.68500000000E+09 +7.51029585141E-01 +2.79878078369E-01 +7.06465929751E-04 -3.51522056047E-04 +7.48434332119E-04 -3.57044123347E-04 +7.55827480913E-01 +4.09643065712E-01
2.69000000000E+09 +7.51360125879E-01 +2.65751992083E-01 +6.37890268543E-04 -3.92173365972E-04 +6.12319630991E-04 -3.87141431979E-04 +7.58237666697E-01 +3.97946032435E-01
2.69500000000E+09 +7.51524226824E-01 +2.51720973692E-01 +6.82011017419E-04 -4.09504760457E-04 +6.71476336498E-04 -4.28911809175E-04 +7.60867171050E-01 +3.85480650303E-01
2.70000000000E+09 +7.51704672297E-01 +2.38043121456E-01 +6.63285685273E-04 -6.73822238384E-04 +6.51547162798E-04 -6.12178833023E-04 +7.64005718049E-01 +3.72195744015E-01
2.70500000000E+09 +7.52336366032E-01 +2.24625675033E-01 +3.75651010041E-04 -7.57701539813E-04 +4.55796441146E-04 -7.07127079477E-04 +7.66558131298E-01 +3.58607189941E-01
2.71000000000E+09 +7.53533002279E-01 +2.11272781442E-01 +2.97351517057E-04 -7.60059072291E-04 +3.55120521856E-04 -7.91463549137E-04 +7.69261210890E-01 +3.45595101960E-01
2.71500000000E+09 +7.55043489309E-01 +1.97279569354E-01 +3.59865623733E-05 -7.31356201197E-04 +5.56945415283E-05 -7.94463263700E-04 +7.71746426247E-01 +3.33015405305E-01
2.72000000000E+09 +7.56374232719E-01 +1.82711192724E-01 -1.85795049041E-05 -3.92549430274E-04 -5.15060000566E-06 -4.22214710004E-04 +7.73870997147E-01 +3.20254990666E-01
2.72500000000E+09 +7.57261303835E-01 +1.67087912931E-01 +3.12906226907E-04 -3.69906829479E-04 +2.86814897658E-04 -4.31952216134E-04 +7.75155487798E-01 +3.07107000345E-01
2.73000000000E+09 +7.57015221191E-01 +1.50995419778E-01 +3.43161491443E-04 -7.66137497678E-04 +2.15670415990E-04 -7.38373192349E-04 +7.76593001024E-01 +2.93270343235E-01
2.73500000000E+09 +7.55707543418E-01 +1.34153727027E-01 +1.01631094436E-04 -7.12014792017E-04 +8.88994936238E-05 -7.10800770141E-04 +7.77843251000E-01 +2.78480658029E-01
2.74000000000E+09 +7.53254972441E-01 +1.17360082901E-01 -7.43732764117E-05 -6.93403897381E-04 -2.47109465184E-05 -6.01732362808E-04 +7.79332084089E-01 +2.63322694095E-01
2.74500000000E+09 +7.49392098903E-01 +1.00130732360E-01 -5.21283138873E-05 -6.50360879543E-04 +7.19260825435E-05 -6.38112542684E-04 +7.80418342300E-01 +2.48108458953E-01
2.75000000000E+09 +7.44509397675E-01 +8.31470083692E-02 +3.09164099123E-05 -7.35378864752E-04 +1.74612541299E-04 -6.88770819672E-04 +7.81268156519E-01 +2.33073807196E-01
2.75500000000E+09 +7.39056896917E-01 +6.66357294746E-02 -5.35814158053E-06 -8.35986853881E-04 +2.30139504269E-05 -9.45141910285E-04 +7.81492016928E-01 +2.17494380654E-01
2.76000000000E+09 +7.34136239860E-01 +5.04261033734E-02 -2.75814461590E-04 -8.90772948964E-04 -2.50860308852E-04 -1.03060634413E-03 +7.80896267513E-01 +2.01946682019E-01
2.76500000000E+09 +7.29402733589E-01 +3.34718351379E-02 -3.91533137734E-04 -8.03373643746E-04 -4.74391820177E-04 -8.88117586898E-04 +7.80113844610E-01 +1.84934867763E-01
2.77000000000E+09 +7.24640797192E-01 +1.58458597900E-02 -3.78364024062E-04 -8.03064599213E-04 -3.89833933224E-04 -8.45492544810E-04 +7.78709772771E-01 +1.67025100253E-01
2.77500000000E+09 +7.20026620998E-01 -2.68255624865E-03 -4.19589181814E-04 -7.81796897826E-04 -5.12604322563E-04 -7.87921750134E-04 +7.76833730621E-01 +1.48882098008E-01
2.78000000000E+09 +7.15231628088E-01 -2.20219860209E-02 -6.67343024967E-04 -8.50511852417E-04 -6.88385611120E-04 -8.44798820790E-04 +7.74515881862E-01 +1.30626543101E-01
2.78500000000E+09 +7.09252920353E-01 -4.25120879463E-02 -8.14201436826E-04 -7.43895422495E-04 -8.45117477466E-04 -7.32903737789E-04 +7.71649713672E-01 +1.12714308574E-01
2.79000000000E+09 +7.02478608488E-01 -6.29191061558E-02 -9.39197850733E-04 -5.30020153563E-04 -9.58184451534E-04 -4.76551390625E-04 +7.68064878450E-01 +9.54392304163E-02
2.79500000000E+09 +6.94483625225E-01 -8.36836694254E-02 -9.87774616840E-04 -3.03723555690E-04 -9.16446293322E-04 -3.00304633726E-04 +7.63944443370E-01 +7.78286713741E-02
2.80000000000E+09 +6.84578108393E-01 -1.03763949999E-01 -7.25814931440E-04 -1.36318472561E-04 -7.41326571316E-04 -1.19058498705E-04 +7.59294337254E-01 +5.91999125316E-02
2.80500000000E+09 +6.73967519880E-01 -1.22405238316E-01 -6.63316825148E-04 -4.85593905111E-04 -6.05483002070E-04 -5.06466007276E-04 +7.53248503650E-01 +3.98649710583E-02
2.81000000000E+09 +6.62514500586E-01 -1.40196547830E-01 -1.02550621345E-03 -5.52402141500E-04 -1.10729588255E-03 -5.80142211067E-04 +7.46305765154E-01 +2.05449656068E-02
2.81500000000E+09 +6.50217540330E-01 -1.57443202495E-01 -1.24476966144E-03 -3.42416320104E-04 -1.30379987285E-03 -2.50653853557E-04 +7.38902914528E-01 +1.28495346353E-03
2.82000000000E+09 +6.36663420065E-01 -1.74386276757E-01 -1.48890990693E-03 +5.47699237229E-06 -1.45961659355E-03 +4.00489742003E-05 +7.31554053304E-01 -1.82468444151E-02
2.82500000000E+09 +6.22519586701E-01 -1.91236470224E-01 -1.22121839620E-03 +4.07161080911E-04 -1.18791034016E-03 +4.46700679405E-04 +7.22180439285E-01 -3.82695715062E-02
2.83000000000E+09 +6.06640431429E-01 -2.08720554252E-01 -9.98989537918E-04 +3.59220166201E-04 -9.66227328753E-04 +3.50659847157E-04 +7.12234689625E-01 -5.75684428231E-02
2.83500000000E+09 +5.89557430143E-01 -2.26568642266E-01 -1.09716631321E-03 +3.48797688192E-04 -1.03613598420E-03 +3.08975854443E-04 +7.01296291731E-01 -7.74544807344E-02
2.84000000000E+09 +5.70796453305E-01 -2.45352765473E-01 -1.08817509897E-03 +5.41643048373E-04 -1.07550412354E-03 +4.90644410108E-04 +6.90022395472E-01 -9.72381134424E-02
2.84500000000E+09 +5.49578622621E-01 -2.64497655452E-01 -1.19576162146E-03 +5.18481605929E-04 -1.16155492863E-03 +5.27513818668E-04 +6.77841156582E-01 -1.17930587388E-01
2.85000000000E+09 +5.26576980237E-01 -2.83116365582E-01 -1.04004695594E-03 +1.04947918699E-03 -1.07780318582E-03 +1.09820183046E-03 +6.63887366537E-01 -1.38705749199E-01
2.85500000000E+09 +5.02273669362E-01 -3.00865486714E-01 -5.98918725636E-04 +7.26904715312E-04 -5.43675840598E-04 +7.05061390261E-04 +6.48711711567E-01 -1.58655559719E-01
2.86000000000E+09 +4.77324952460E-01 -3.17663998026E-01 -1.11603717852E-03 +6.30407222520E-04 -1.09524322883E-03 +5.21337712626E-04 +6.32851645801E-01 -1.78616409622E-01
2.86500000000E+09 +4.51695965644E-01 -3.33402192357E-01 -1.37958745317E-03 +1.32374017967E-03 -1.36405233813E-03 +1.24473625705E-03 +6.15590742440E-01 -1.98667735795E-01
2.87000000000E+09 +4.25805467697E-01 -3.47916892712E-01 -7.55467463989E-04 +1.67508469375E-03 -7.83977753443E-04 +1.67257573656E-03 +5.97309275253E-01 -2.18633242855E-01
2.87500000000E+09 +3.99575719159E-01 -3.61344268499E-01 -7.07923004367E-04 +1.57868230718E-03 -6.62243678088E-04 +1.57244799574E-03 +5.76861950368E-01 -2.38689813040E-01
2.88000000000E+09 +3.72427487748E-01 -3.73348505301E-01 -5.11299631763E-04 +2.00082653189E-03 -4.38272845576E-04 +1.93778433424E-03 +5.55532499984E-01 -2.57223654460E-01
2.88500000000E+09 +3.44763892608E-01 -3.84100663479E-01 +1.58437954029E-04 +1.92521662119E-03 +1.50967832281E-04 +1.80754686040E-03 +5.33216985628E-01 -2.75922448548E-01
2.89000000000E+09 +3.15526984508E-01 -3.93405691854E-01 +8.08478096189E-05 +1.73866149438E-03 -3.44190693940E-05 +1.66038631629E-03 +5.08036504587E-01 -2.93822535123E-01
2.89500000000E+09 +2.84725913026E-01 -4.00938258895E-01 +2.18401924635E-04 +2.10985576028E-03 +1.23601070579E-04 +2.06609486674E-03 +4.81501150789E-01 -3.10768696049E-01
2.90000000000E+09 +2.52611474451E-01 -4.06186075650E-01 +9.07882602826E-04 +2.25957955422E-03 +7.40162844197E-04 +2.28466166272E-03 +4.53102418023E-01 -3.27513566627E-01
2.90500000000E+09 +2.18865925441E-01 -4.09845276131E-01 +1.31266335462E-03 +1.90529726880E-03 +1.28232373045E-03 +1.94458389592E-03 +4.22696403185E-01 -3.42548658355E-01
2.91000000000E+09 +1.83316950864E-01 -4.10354378958E-01 +1.78881039547E-03 +1.47129916454E-03 +1.83594647838E-03 +1.48379685339E-03 +3.91600606319E-01 -3.56344315056E-01
2.91500000000E+09 +1.47939816587E-01 -4.08025817758E-01 +1.82229348782E-03 +9.51262143122E-04 +1.80437932246E-03 +8.87167225278E-04 +3.59272740966E-01 -3.67758438271E-01
2.92000000000E+09 +1.12119614470E-01 -4.03087722716E-01 +1.71397845643E-03 +4.76020564682E-04 +1.62140404547E-03 +5.43895613143E-04 +3.26239840126E-01 -3.77857286211E-01
2.92500000000E+09 +7.69217302820E-02 -3.96579165398E-01 +1.29771932195E-03 +5.63893018293E-04 +1.27128859255E-03 +6.43903443348E-04 +2.90626308400E-01 -3.86249413500E-01
2.93000000000E+09 +4.14489460484E-02 -3.87659040170E-01 +1.61406414792E-03 +8.62890655987E-04 +1.58908355213E-03 +9.13897424592E-04 +2.53202827884E-01 -3.91539192714E-01
2.93500000000E+09 +6.93585134849E-03 -3.76293248578E-01 +2.03464739565E-03 +2.37671765058E-04 +2.10687458655E-03 +2.96632769781E-04 +2.15904851064E-01 -3.94695422261E-01
2.94000000000E+09 -2.66489978517E-02 -3.63420635626E-01 +1.67896522273E-03 -1.38147179573E-04 +1.81475176273E-03 -9.58035756032E-05 +1.78299366211E-01 -3.97132884332E-01
2.94500000000E+09 -6.01945681390E-02 -3.48193283898E-01 +1.52495938804E-03 -2.08209944840E-04 +1.51332043198E-03 -2.40332492442E-04 +1.39182113204E-01 -3.98427372199E-01
2.95000000000E+09 -9.30906978502E-02 -3.29996683286E-01 +1.52233943950E-03 -2.03459192873E-04 +1.57709938615E-03 -2.58428203997E-04 +9.83947625928E-02 -3.95433676955E-01
2.95500000000E+09 -1.24684608709E-01 -3.08440256344E-01 +1.70905416246E-03 -3.60807932085E-04 +1.69755916265E-03 -3.84576359289E-04 +5.89666125773E-02 -3.88891682422E-01
2.96000000000E+09 -1.53897062947E-01 -2.83823239085E-01 +1.60823631818E-03 -1.01006482135E-03 +1.65527034512E-03 -1.02558079073E-03 +1.97703777227E-02 -3.79848054859E-01
2.96500000000E+09 -1.80968629215E-01 -2.57583835193E-01 +7.18800742023E-04 -9.19739197439E-04 +6.81035716266E-04 -9.78929718233E-04 -1.99364707772E-02 -3.68894938696E-01
2.97000000000E+09 -2.06464718856E-01 -2.29316684213E-01 +9.96605146729E-04 -3.07520362714E-04 +8.85070140077E-04 -3.44546280739E-04 -6.12209005143E-02 -3.54193999095E-01
2.97500000000E+09 -2.30610896591E-01 -1.98935590215E-01 +1.64199590774E-03 -3.18941985624E-04 +1.52360455085E-03 -3.08162311577E-04 -9.93804806554E-02 -3.35515711897E-01
2.98000000000E+09 -2.52087745915E-01 -1.66772002167E-01 +1.83625935743E-03 -1.18923030787E-03 +1.78409957513E-03 -1.15482587305E-03 -1.36486242316E-01 -3.16748935606E-01
2.98500000000E+09 -2.71754447165E-01 -1.33821713362E-01 +1.22641277242E-03 -1.78493932343E-03 +1.30719484190E-03 -1.67537432452E-03 -1.72915616024E-01 -2.94538694047E-01
2.99000000000E+09 -2.89050774996E-01 -1.00097123972E-01 +7.57803650092E-04 -1.65166059413E-03 +8.01078497269E-04 -1.72019725243E-03 -2.08905789667E-01 -2.70316301660E-01
2.99500000000E+09 -3.04516800002E-01 -6.70422791488E-02 +6.27445403180E-04 -1.59572862732E-03 +5.66822243194E-04 -1.61612081104E-03 -2.43495724608E-01 -2.40301365275E-01
3.00000000000E+09 -3.19061791813E-01 -3.32306971935E-02 +6.29596665281E-04 -1.50225810624E-03 +5.86343025625E-04 -1.44374179201E-03 -2.73855345633E-01 -2.08050651865E-01
3.00500000000E+09 -3.30378233018E-01 +9.57653824218E-04 +6.01210793308E-04 -1.82665509607E-03 +5.83233720716E-04 -1.80139637104E-03 -3.01972962422E-01 -1.75546772070E-01
3.01000000000E+09 -3.38789586637E-01 +3.43248609232E-02 -2.96235302192E-05 -2.37184994919E-03 +2.93152721147E-05 -2.24216949637E-03 -3.29178367012E-01 -1.41076936470E-01
3.01500000000E+09 -3.44508791296E-01 +6.74128171351E-02 -5.60121525892E-04 -1.80063587869E-03 -4.35983433077E-04 -1.86181894274E-03 -3.52717022150E-01 -1.04525084105E-01
3.02000000000E+09 -3.46889106697E-01 +9.92032366464E-02 -5.70821057280E-04 -1.53610200023E-03 -5.30005073024E-04 -1.66313873390E-03 -3.73168195860E-01 -6.68797725324E-02
3.02500000000E+09 -3.46974972738E-01 +1.30506688720E-01 -4.20855703682E-04 -1.49844184100E-03 -3.69102521901E-04 -1.56709884164E-03 -3.89784580425E-01 -2.74559278051E-02
3.03000000000E+09 -3.43973427956E-01 +1.61354550992E-01 -7.71834493197E-04 -2.09057343550E-03 -7.87769309835E-04 -2.09511105101E-03 -4.03477897238E-01 +1.12292172819E-02
3.03500000000E+09 -3.38713254139E-01 +1.91719843396E-01 -1.86010032778E-03 -1.62961199131E-03 -1.83433020289E-03 -1.68004172226E-03 -4.15702254838E-01 +5.09285661520E-02
3.04000000000E+09 -3.30316360538E-01 +2.21714748545E-01 -1.89101738047E-03 -5.38096224459E-04 -1.99871165168E-03 -6.67802370419E-04 -4.24545477308E-01 +9.17838495034E-02
3.04500000000E+09 -3.20332860981E-01 +2.50751003872E-01 -1.05700204761E-03 -2.94938958689E-05 -1.19185613873E-03 -1.63246662457E-04 -4.30510063382E-01 +1.32109917478E-01
3.05000000000E+09 -3.08609146496E-01 +2.79039771454E-01 -8.28088126802E-04 -5.39820660337E-04 -8.88764669544E-04 -5.04646075615E-04 -4.33468826480E-01 +1.72136215954E-01
3.05500000000E+09 -2.95996633136E-01 +3.06825614744E-01 -8.61502917555E-04 -7.59975437488E-04 -9.72787562432E-04 -7.20264468511E-04 -4.33494423346E-01 +2.11041335710E-01
3.06000000000E+09 -2.81916407536E-01 +3.33910872637E-01 -1.54865732732E-03 -7.56025766632E-04 -1.53390159420E-03 -6.35600219599E-04 -4.31788714440E-01 +2.49133142256E-01
3.06500000000E+09 -2.67219657101E-01 +3.59497917677E-01 -1.43772515233E-03 +2.90518528448E-05 -1.36267061311E-03 -2.77094777717E-05 -4.27609035886E-01 +2.86691577597E-01
3.07000000000E+09 -2.51942918113E-01 +3.83896665759E-01 -1.18402977671E-03 +1.09484150855E-04 -1.18517401680E-03 +1.24842428960E-04 -4.20885925434E-01 +3.23276977017E-01
