# Hz S RI R 50
! CMT, C1220, 16058040, 17.2.0/1
! Date: 15/08/2018 10:39:28
! Data: Format (Calibration Info)
! Freq                      S11: Re/Im (F2)                       S21: Re/Im (F2)                       S12: Re/Im (F2)                       S22: Re/Im (F2)            
2.50000000000E+09 +5.95199865071E-01 +6.47048964927E-01 -4.83465740457E-05 -6.01243247346E-04 -2.85030817689E-05 -6.64135910022E-04 +5.65175532053E-01 +7.24184264013E-01
2.50500000000E+09 +6.01965120054E-01 +6.38634050184E-01 -1.27098353240E-04 -6.64172101447E-04 -1.96084401554E-04 -7.42494093964E-04 +5.71272139075E-01 +7.18574606995E-01
2.51000000000E+09 +6.09424390130E-01 +6.30298687041E-01 -2.39256755134E-04 -7.15710106490E-04 -2.35387540656E-04 -6.34852897214E-04 +5.77089102437E-01 +7.13233234337E-01
2.51500000000E+09 +6.17307075395E-01 +6.22474082481E-01 -3.52607448456E-04 -6.92485154753E-04 -3.41140059551E-04 -6.28976195857E-04 +5.82571380820E-01 +7.07743105526E-01
2.52000000000E+09 +6.24315379296E-01 +6.14754810626E-01 -4.15518710905E-04 -6.87157732346E-04 -4.03401558054E-04 -6.55985939323E-04 +5.87815551258E-01 +7.01602998502E-01
2.52500000000E+09 +6.30046267316E-01 +6.08334629648E-01 -4.88039923007E-04 -6.52936533074E-04 -5.18903414197E-04 -6.74535273300E-04 +5.93836201831E-01 +6.95183910773E-01
2.53000000000E+09 +6.34803560578E-01 +6.02561896422E-01 -5.93185229233E-04 -6.60855074631E-04 -5.85416224350E-04 -6.41875596528E-04 +6.00078364313E-01 +6.87947030382E-01
2.53500000000E+09 +6.38753783570E-01 +5.97115250814E-01 -7.05465101018E-04 -5.81864505637E-04 -6.90583777501E-04 -5.78721416422E-04 +6.06120522255E-01 +6.80760507326E-01
2.54000000000E+09 +6.42015957701E-01 +5.91249720586E-01 -7.95302187755E-04 -5.22098207623E-04 -7.61478655984E-04 -5.26299961182E-04 +6.11760149142E-01 +6.73921457209E-01
2.54500000000E+09 +6.45418784223E-01 +5.84968229888E-01 -9.28028930908E-04 -4.35546833366E-04 -9.14835668171E-04 -5.23126604898E-04 +6.17075606418E-01 +6.67554230190E-01
2.55000000000E+09 +6.49650489301E-01 +5.77394636208E-01 -9.90950856957E-04 -2.63556402923E-04 -1.01098241421E-03 -3.84904021982E-04 +6.22111212053E-01 +6.61461408237E-01
2.55500000000E+09 +6.54783228822E-01 +5.68327546413E-01 -9.87239330210E-04 -1.54952961893E-04 -1.10346823764E-03 -2.80685910119E-04 +6.27137722352E-01 +6.55120532319E-01
2.56000000000E+09 +6.61308596514E-01 +5.58531951278E-01 -9.53220140113E-04 -1.32991084949E-04 -1.15345900299E-03 -7.13833063319E-05 +6.32116321107E-01 +6.48195444628E-01
2.56500000000E+09 +6.68493236574E-01 +5.48017982235E-01 -1.00317322060E-03 -1.04379670600E-04 -1.12445001842E-03 +1.36183514646E-04 +6.37340562940E-01 +6.40666169158E-01
2.57000000000E+09 +6.76133641762E-01 +5.37931888597E-01 -1.08302576789E-03 +2.66569417101E-05 -1.08279987089E-03 +2.30878181422E-04 +6.42277395265E-01 +6.32956275054E-01
2.57500000000E+09 +6.83476389629E-01 +5.28656846154E-01 -1.17018600889E-03 +1.44244647591E-04 -9.88499700925E-04 +2.98578433107E-04 +6.47673319282E-01 +6.25752365109E-01
2.58000000000E+09 +6.90039017397E-01 +5.20511698765E-01 -1.15544269841E-03 +2.91103851531E-04 -1.00163307420E-03 +2.80268004187E-04 +6.52911141065E-01 +6.18652984819E-01
2.58500000000E+09 +6.95231352125E-01 +5.13483180681E-01 -1.16672847042E-03 +4.63760811778E-04 -1.05828244976E-03 +3.12682966963E-04 +6.57864854337E-01 +6.11412344548E-01
2.59000000000E+09 +6.99146384670E-01 +5.07443843982E-01 -1.14840530170E-03 +6.45645737236E-04 -1.15475756738E-03 +5.16893243776E-04 +6.63052705896E-01 +6.04191232401E-01
2.59500000000E+09 +7.02220732154E-01 +5.01532051833E-01 -1.07419899154E-03 +7.67300432819E-04 -1.11876847093E-03 +7.03385330015E-04 +6.68325227704E-01 +5.96393603021E-01
2.60000000000E+09 +7.04590319984E-01 +4.94903692220E-01 -9.07658310713E-04 +7.70030369264E-04 -9.55845529486E-04 +8.23723674292E-04 +6.74064378290E-01 +5.88360900955E-01
2.60500000000E+09 +7.07278104393E-01 +4.86474782467E-01 -9.23678704706E-04 +8.22669228553E-04 -9.33309745335E-04 +8.23767680066E-04 +6.79731721524E-01 +5.79361396610E-01
2.61000000000E+09 +7.10154083425E-01 +4.75939697886E-01 -1.01364142324E-03 +1.07090104768E-03 -1.01820513033E-03 +1.06712255009E-03 +6.85012352769E-01 +5.70437287440E-01
2.61500000000E+09 +7.13991502379E-01 +4.63479410989E-01 -6.99520506333E-04 +1.24099380883E-03 -7.59618319797E-04 +1.24445763441E-03 +6.90088595837E-01 +5.61853797661E-01
2.62000000000E+09 +7.18381822020E-01 +4.49076191546E-01 -5.99857878179E-04 +1.08753457295E-03 -6.50206518080E-04 +1.14239451718E-03 +6.95202205342E-01 +5.52732906875E-01
2.62500000000E+09 +7.23617227201E-01 +4.33711492925E-01 -6.89606898441E-04 +1.13648381555E-03 -6.39058964448E-04 +1.21995468172E-03 +7.00129724544E-01 +5.43552306824E-01
2.63000000000E+09 +7.29069391278E-01 +4.18436353809E-01 -6.28785927183E-04 +1.41464958447E-03 -5.12409296705E-04 +1.42615270833E-03 +7.04922675988E-01 +5.34169548360E-01
2.63500000000E+09 +7.33888648037E-01 +4.04353839801E-01 -6.56548091588E-04 +1.56884277786E-03 -4.04521185772E-04 +1.44912768205E-03 +7.09244771269E-01 +5.24734982069E-01
2.64000000000E+09 +7.38425088281E-01 +3.92361731178E-01 -3.98002738031E-04 +1.92596234779E-03 -3.39568033419E-04 +1.66204568226E-03 +7.13737884251E-01 +5.15210813390E-01
2.64500000000E+09 +7.42610208706E-01 +3.81944880798E-01 +1.30787609509E-04 +1.93394195441E-03 -1.71176783378E-05 +1.73856968491E-03 +7.18351770171E-01 +5.05407618896E-01
2.65000000000E+09 +7.45409785225E-01 +3.73171032226E-01 +3.24856191821E-04 +1.65155025316E-03 +1.24438729139E-04 +1.59545917333E-03 +7.22401698560E-01 +4.95150074736E-01
2.65500000000E+09 +7.47542494662E-01 +3.64881308464E-01 +2.81426238306E-04 +1.60954001793E-03 +1.16876061940E-04 +1.68469122543E-03 +7.26327801964E-01 +4.84809288961E-01
2.66000000000E+09 +7.49102047952E-01 +3.56620935445E-01 +2.75799402847E-04 +1.77991328792E-03 +2.37499602031E-04 +1.91426485713E-03 +7.30330514983E-01 +4.73735611081E-01
2.66500000000E+09 +7.50783430641E-01 +3.47419826646E-01 +5.49636097989E-04 +2.01535629814E-03 +6.76458095856E-04 +2.11344318568E-03 +7.34403652586E-01 +4.62885976826E-01
2.67000000000E+09 +7.51997309137E-01 +3.35757150608E-01 +9.64024762848E-04 +2.07532518548E-03 +1.05821109878E-03 +1.93992203637E-03 +7.38765488687E-01 +4.52078055938E-01
2.67500000000E+09 +7.53543069220E-01 +3.22238568058E-01 +1.30385757365E-03 +1.92905275199E-03 +1.25646682793E-03 +1.82432833529E-03 +7.42884124190E-01 +4.41260113051E-01
2.68000000000E+09 +7.54971995761E-01 +3.06490211165E-01 +1.64783481570E-03 +1.68707507995E-03 +1.53387165904E-03 +1.67678004808E-03 +7.46801387354E-01 +4.30343469251E-01
2.68500000000E+09 +7.56233865994E-01 +2.89732106704E-01 +1.66656192321E-03 +1.59135861017E-03 +1.60225719424E-03 +1.57500302149E-03 +7.49966382394E-01 +4.19024407783E-01
2.69000000000E+09 +7.57737460920E-01 +2.72767705168E-01 +1.95826731179E-03 +1.44529826188E-03 +1.91189720126E-03 +1.49431212561E-03 +7.52780889757E-01 +4.07310058324E-01
2.69500000000E+09 +7.59250603166E-01 +2.56416110286E-01 +2.21016303580E-03 +1.32936115663E-03 +2.17266542338E-03 +1.26181753871E-03 +7.56041358014E-01 +3.95181341053E-01
2.70000000000E+09 +7.60613207505E-01 +2.40814351839E-01 +2.50577514647E-03 +1.05543742261E-03 +2.45764136155E-03 +1.00025199874E-03 +7.59273871303E-01 +3.81825358304E-01
2.70500000000E+09 +7.61534213480E-01 +2.26742138950E-01 +2.76038825875E-03 +7.50566552428E-04 +2.65089845072E-03 +8.12461845883E-04 +7.62225480160E-01 +3.68861187227E-01
2.71000000000E+09 +7.62348927651E-01 +2.13413857742E-01 +2.90314966635E-03 +2.71279967031E-04 +2.94326037676E-03 +4.37042017994E-04 +7.65307059335E-01 +3.55920384450E-01
2.71500000000E+09 +7.62669497359E-01 +2.00180270236E-01 +2.86721981414E-03 -2.70341841321E-04 +3.05163728695E-03 -2.35407618493E-04 +7.68245249643E-01 +3.43407022681E-01
2.72000000000E+09 +7.62614713544E-01 +1.87240421387E-01 +2.64657993117E-03 -5.68275236677E-04 +2.75208573159E-03 -7.53106289765E-04 +7.70563388491E-01 +3.30850759594E-01
2.72500000000E+09 +7.62183680121E-01 +1.72875236591E-01 +2.56018464077E-03 -6.69698468173E-04 +2.47514327519E-03 -9.77989052639E-04 +7.72288806287E-01 +3.17300973696E-01
2.73000000000E+09 +7.60858716299E-01 +1.57487163964E-01 +2.60413672939E-03 -1.06563729370E-03 +2.28443995963E-03 -1.14729274272E-03 +7.73891112201E-01 +3.02962596769E-01
2.73500000000E+09 +7.58805380143E-01 +1.40576152121E-01 +2.43888656779E-03 -1.41840797572E-03 +2.10168328156E-03 -1.27213750160E-03 +7.75463124608E-01 +2.87996036945E-01
2.74000000000E+09 +7.55912504772E-01 +1.23171645630E-01 +2.16144258937E-03 -1.51408896500E-03 +2.03356254562E-03 -1.14705864459E-03 +7.77307598236E-01 +2.72562006933E-01
2.74500000000E+09 +7.52167650676E-01 +1.04941203816E-01 +2.25143865853E-03 -1.77468660788E-03 +2.31568832119E-03 -1.48520539000E-03 +7.79005850237E-01 +2.56820960596E-01
2.75000000000E+09 +7.47424827580E-01 +8.69109813928E-02 +2.05624553525E-03 -2.05193274853E-03 +2.32255375482E-03 -1.88338520587E-03 +7.79870790694E-01 +2.40817172835E-01
2.75500000000E+09 +7.42348403937E-01 +6.97107389253E-02 +1.81019330288E-03 -2.32450769293E-03 +2.10608123104E-03 -2.37131907604E-03 +7.79537432636E-01 +2.24990048941E-01
2.76000000000E+09 +7.37319675779E-01 +5.26067321953E-02 +1.52053436371E-03 -2.60799398447E-03 +1.65272318515E-03 -2.82464733502E-03 +7.78788194268E-01 +2.09431301412E-01
2.76500000000E+09 +7.31830172707E-01 +3.51865624238E-02 +1.31430593441E-03 -2.68798737601E-03 +1.27378989699E-03 -2.78837412952E-03 +7.77803170693E-01 +1.92256637740E-01
2.77000000000E+09 +7.25642714156E-01 +1.69780773915E-02 +9.84924029641E-04 -3.00757440973E-03 +9.72410331947E-04 -3.15279622937E-03 +7.76089479901E-01 +1.74534075788E-01
2.77500000000E+09 +7.18599028463E-01 -1.71902184221E-03 +4.34674073679E-04 -3.06664836791E-03 +3.68108165894E-04 -3.18002178888E-03 +7.73959162725E-01 +1.56508670896E-01
2.78000000000E+09 +7.11389638038E-01 -2.10978635878E-02 +1.74084140416E-04 -2.83917294138E-03 +2.26011523885E-05 -2.85728386238E-03 +7.71317944402E-01 +1.38771930976E-01
2.78500000000E+09 +7.03617026748E-01 -4.15651436527E-02 +1.10321664747E-04 -2.65253912814E-03 -2.40304505760E-07 -2.63462815980E-03 +7.68529726243E-01 +1.21713829444E-01
2.79000000000E+09 +6.95544956110E-01 -6.23328985933E-02 +1.69282907547E-04 -2.96895928231E-03 +1.20855650589E-05 -2.79328860886E-03 +7.65125268080E-01 +1.04572523661E-01
2.79500000000E+09 +6.87180908625E-01 -8.33615747889E-02 -8.23825685344E-05 -3.32565475141E-03 -1.36172218489E-04 -3.19048044259E-03 +7.61162056832E-01 +8.69665952791E-02
2.80000000000E+09 +6.78144687736E-01 -1.03961195665E-01 -7.76816486731E-04 -3.55264092272E-03 -6.72474476691E-04 -3.39981818142E-03 +7.56078559030E-01 +6.89494537081E-02
2.80500000000E+09 +6.68298754681E-01 -1.23205315497E-01 -1.32986210028E-03 -3.42968633700E-03 -1.19325719074E-03 -3.47580664229E-03 +7.50516203992E-01 +5.04888107173E-02
2.81000000000E+09 +6.57608517040E-01 -1.40707411252E-01 -1.84900126793E-03 -3.13354498137E-03 -1.84317901353E-03 -3.29195672078E-03 +7.45162510851E-01 +3.17956197226E-02
2.81500000000E+09 +6.45210600398E-01 -1.56422017213E-01 -1.99148066780E-03 -2.97855413382E-03 -2.15255855773E-03 -2.98700573920E-03 +7.39193878983E-01 +1.15023409121E-02
2.82000000000E+09 +6.32087212405E-01 -1.70530603953E-01 -2.60238040531E-03 -2.81818586383E-03 -2.70795955271E-03 -2.71959996219E-03 +7.31964537346E-01 -8.68814055431E-03
2.82500000000E+09 +6.17281038056E-01 -1.84682008596E-01 -2.96714300354E-03 -2.40822946511E-03 -2.93287678473E-03 -2.23492879098E-03 +7.23874573776E-01 -2.90677747819E-02
2.83000000000E+09 +6.00310278996E-01 -1.99753986544E-01 -3.32163999101E-03 -1.90006821317E-03 -3.16108506987E-03 -1.84498865978E-03 +7.14988049700E-01 -4.95441295150E-02
2.83500000000E+09 +5.81064338582E-01 -2.15856964980E-01 -3.22987949977E-03 -1.43219334343E-03 -3.04648011679E-03 -1.42542099448E-03 +7.04712836868E-01 -7.03519878133E-02
2.84000000000E+09 +5.59505376743E-01 -2.33645703498E-01 -3.24625948699E-03 -1.34946238087E-03 -3.16471005753E-03 -1.44631019428E-03 +6.93509117797E-01 -9.18798642689E-02
2.84500000000E+09 +5.35517700567E-01 -2.52914302518E-01 -3.51360589040E-03 -1.12449740429E-03 -3.52815998244E-03 -1.18429308639E-03 +6.79827039758E-01 -1.13413907496E-01
2.85000000000E+09 +5.10003348750E-01 -2.72417293775E-01 -3.75126652908E-03 -6.66082060306E-04 -3.73796864978E-03 -6.39067434295E-04 +6.65313084322E-01 -1.33921909932E-01
2.85500000000E+09 +4.83187228810E-01 -2.91095077003E-01 -3.87441017542E-03 -1.81970760239E-04 -3.79987131354E-03 -2.15497653296E-04 +6.49440091625E-01 -1.54037582929E-01
2.86000000000E+09 +4.57152749781E-01 -3.07520745136E-01 -3.67903728155E-03 +4.14436283834E-04 -3.62163186085E-03 +4.14616337164E-04 +6.33414628504E-01 -1.73842566147E-01
2.86500000000E+09 +4.33010911034E-01 -3.22027846219E-01 -3.67249990031E-03 +1.86453403288E-04 -3.69702644472E-03 +1.58694799449E-04 +6.15577241282E-01 -1.94423346986E-01
2.87000000000E+09 +4.09578599457E-01 -3.35664353691E-01 -4.08229579673E-03 +1.19070502940E-03 -4.13898511397E-03 +1.19984182890E-03 +5.96004296222E-01 -2.13733575149E-01
2.87500000000E+09 +3.85551543850E-01 -3.47232333126E-01 -3.29594754214E-03 +1.31400434244E-03 -3.28960945073E-03 +1.39306362572E-03 +5.75393046340E-01 -2.32426072321E-01
2.88000000000E+09 +3.60309044907E-01 -3.56882202039E-01 -3.67552907745E-03 +1.31471072776E-03 -3.56172856341E-03 +1.36643570483E-03 +5.54829259855E-01 -2.49873249884E-01
2.88500000000E+09 +3.32426790532E-01 -3.63377577357E-01 -3.56983992120E-03 +2.09334428894E-03 -3.38887613207E-03 +1.99588052190E-03 +5.32872981683E-01 -2.68882506453E-01
2.89000000000E+09 +3.03519098918E-01 -3.67489563146E-01 -3.56508807586E-03 +2.31074608432E-03 -3.44173264329E-03 +2.14420227383E-03 +5.07902596168E-01 -2.86668843271E-01
2.89500000000E+09 +2.72776431713E-01 -3.70747618311E-01 -3.45159599044E-03 +2.88831992937E-03 -3.51090065961E-03 +2.70150873842E-03 +4.81692480315E-01 -3.03248890000E-01
2.90000000000E+09 +2.39967243392E-01 -3.73002227082E-01 -3.07404699745E-03 +3.58352109082E-03 -3.19763421904E-03 +3.49482504708E-03 +4.54744512027E-01 -3.19891793155E-01
2.90500000000E+09 +2.04670604200E-01 -3.74508996538E-01 -2.74762547645E-03 +3.96953587487E-03 -2.89134281151E-03 +4.00168854348E-03 +4.26620937628E-01 -3.35434271926E-01
2.91000000000E+09 +1.68805541127E-01 -3.74164059267E-01 -2.05452147804E-03 +4.50453225841E-03 -1.92075814580E-03 +4.59293801096E-03 +3.97275667191E-01 -3.51771519049E-01
2.91500000000E+09 +1.32847532380E-01 -3.72547781147E-01 -1.43224654753E-03 +4.84203369949E-03 -1.26635195113E-03 +4.58092380752E-03 +3.64106035563E-01 -3.65386787027E-01
2.92000000000E+09 +9.69542258164E-02 -3.68534606143E-01 -5.83753597284E-04 +4.80988724838E-03 -6.11178663764E-04 +4.54756035689E-03 +3.29534244209E-01 -3.76153627814E-01
2.92500000000E+09 +6.35702817000E-02 -3.60937978516E-01 -1.16948301391E-04 +4.56227445360E-03 -3.00282148754E-04 +4.38310338857E-03 +2.93627328903E-01 -3.83803607310E-01
2.93000000000E+09 +3.25459164637E-02 -3.51968456055E-01 +1.60077025353E-04 +4.47652166284E-03 -7.49276325596E-05 +4.41488814331E-03 +2.57137335665E-01 -3.90177890760E-01
2.93500000000E+09 +2.74742689043E-03 -3.40924945517E-01 +5.14746674890E-04 +4.53880420457E-03 +4.18903114030E-04 +4.57096403220E-03 +2.18819910185E-01 -3.95582531793E-01
2.94000000000E+09 -2.64616516776E-02 -3.27845574468E-01 +8.83559892805E-04 +4.43951540444E-03 +7.63475449574E-04 +4.47433305992E-03 +1.77701708661E-01 -3.98099422568E-01
2.94500000000E+09 -5.63524268512E-02 -3.12692951285E-01 +1.26906174673E-03 +4.96326443625E-03 +1.20290766269E-03 +4.93720303559E-03 +1.38834219960E-01 -3.96726905864E-01
2.95000000000E+09 -8.73421707838E-02 -2.93219087650E-01 +2.54917566315E-03 +4.67775326115E-03 +2.34099218128E-03 +4.78063935550E-03 +9.87858436228E-02 -3.94221187581E-01
2.95500000000E+09 -1.16402657514E-01 -2.70035490594E-01 +3.13432705525E-03 +4.15117086008E-03 +3.00941809541E-03 +4.34009448511E-03 +5.90089425176E-02 -3.88605548907E-01
2.96000000000E+09 -1.44472937601E-01 -2.45977737080E-01 +3.33089737911E-03 +3.18584947541E-03 +3.32067016373E-03 +3.35835893217E-03 +1.78212531032E-02 -3.79657532463E-01
2.96500000000E+09 -1.71237719638E-01 -2.19500650533E-01 +3.04928738871E-03 +3.07274361682E-03 +3.19739522724E-03 +3.25204563689E-03 -2.24258949354E-02 -3.66353471192E-01
2.97000000000E+09 -1.94906168668E-01 -1.92453816465E-01 +3.28653608919E-03 +3.29989228458E-03 +3.35560560830E-03 +3.23791117907E-03 -6.09986781583E-02 -3.50582645635E-01
2.97500000000E+09 -2.17223931330E-01 -1.66006437869E-01 +4.27763892193E-03 +3.56405937410E-03 +4.16047756356E-03 +3.45044549298E-03 -9.83386699870E-02 -3.34314163203E-01
2.98000000000E+09 -2.39116019361E-01 -1.37778275243E-01 +5.26948691511E-03 +2.73779276827E-03 +5.07786134035E-03 +2.83856596217E-03 -1.36177759847E-01 -3.15703552613E-01
2.98500000000E+09 -2.57841759905E-01 -1.07755995876E-01 +5.38101358158E-03 +1.50986431180E-03 +5.42694427844E-03 +1.71784698161E-03 -1.72913930106E-01 -2.94105273725E-01
2.99000000000E+09 -2.73964224687E-01 -7.64444299154E-02 +5.45466355207E-03 +1.07702477592E-03 +5.73337485392E-03 +1.21430060873E-03 -2.08261417102E-01 -2.68478039567E-01
2.99500000000E+09 -2.87763594189E-01 -4.50465252367E-02 +5.60743088663E-03 +4.10962374564E-04 +5.86997247627E-03 +2.83762213767E-04 -2.41164853920E-01 -2.39876248768E-01
3.00000000000E+09 -3.00414616049E-01 -1.22689549826E-02 +5.80533840022E-03 -2.34816012806E-04 +5.78999992179E-03 -6.01581727493E-04 -2.72391647175E-01 -2.08695636437E-01
3.00500000000E+09 -3.10235672732E-01 +2.03318725346E-02 +5.99596351566E-03 -1.08039378475E-03 +5.68419553762E-03 -1.16425238797E-03 -3.01359465036E-01 -1.76151882547E-01
3.01000000000E+09 -3.19122068821E-01 +5.21806743783E-02 +5.46732085003E-03 -2.31405365063E-03 +5.29455540910E-03 -2.11473176787E-03 -3.27970908880E-01 -1.41012934503E-01
3.01500000000E+09 -3.26057142109E-01 +8.48816562286E-02 +4.87186768380E-03 -2.60475596556E-03 +4.90061484315E-03 -2.39883598780E-03 -3.51838226025E-01 -1.05543485778E-01
3.02000000000E+09 -3.29151506153E-01 +1.15929591061E-01 +4.62083320484E-03 -3.09340353473E-03 +4.78311006440E-03 -2.95011149342E-03 -3.72473551565E-01 -6.82104558798E-02
3.02500000000E+09 -3.30673280316E-01 +1.44983564178E-01 +4.32278676710E-03 -3.53932879445E-03 +4.43860443999E-03 -3.57747856856E-03 -3.90339790085E-01 -3.07518614139E-02
3.03000000000E+09 -3.29747290740E-01 +1.73360901750E-01 +3.85363228155E-03 -4.27388906205E-03 +3.85715910150E-03 -4.23395692576E-03 -4.05325848609E-01 +9.30957196077E-03
3.03500000000E+09 -3.26109045490E-01 +2.01332126334E-01 +3.15780343909E-03 -4.60650271300E-03 +3.21225008320E-03 -4.57245166880E-03 -4.17076671301E-01 +4.96870158182E-02
3.04000000000E+09 -3.19069758139E-01 +2.29674378118E-01 +2.46076293720E-03 -5.03504999632E-03 +2.66551398874E-03 -5.06318316007E-03 -4.24027154922E-01 +8.98938349924E-02
3.04500000000E+09 -3.09834856870E-01 +2.57081239312E-01 +1.81954963241E-03 -4.83522974133E-03 +1.87171117876E-03 -5.02527463151E-03 -4.30194669051E-01 +1.28446829826E-01
3.05000000000E+09 -2.98284070705E-01 +2.86105345662E-01 +1.53639504124E-03 -5.02548503193E-03 +1.53302285737E-03 -5.26740780287E-03 -4.33820572117E-01 +1.66598491703E-01
3.05500000000E+09 -2.84803249845E-01 +3.13861505296E-01 +1.08907612745E-03 -5.25620518757E-03 +7.73375477321E-04 -5.42350890317E-03 -4.35877395080E-01 +2.05051902061E-01
3.06000000000E+09 -2.71546616999E-01 +3.41474384795E-01 +4.92291194964E-04 -5.74341955849E-03 +2.79289301140E-04 -5.53164104688E-03 -4.35086505672E-01 +2.42951282589E-01
3.06500000000E+09 -2.57650737222E-01 +3.68530931778E-01 -6.88229598577E-04 -6.04954698280E-03 -5.88185976576E-04 -5.74446958387E-03 -4.31266131554E-01 +2.80242557047E-01
3.07000000000E+09 -2.44617620652E-01 +3.93861492928E-01 -1.90890170421E-03 -5.50204661038E-03 -1.56115464127E-03 -5.50966767628E-03 -4.25705820363E-01 +3.16162175347E-01
