# Hz S RI R 50
! CMT, C1220, 16058040, 17.2.0/1
! Date: 15/08/2018 09:58:52
! Data: Format (Calibration Info)
! Freq                      S11: Re/Im (F2)                       S21: Re/Im (F2)                       S12: Re/Im (F2)                       S22: Re/Im (F2)            
2.50000000000E+09 +5.97274991044E-01 +6.35097120507E-01 -9.60186589996E-05 -1.03309276528E-03 -1.25135432792E-04 -1.09542136129E-03 +5.77123619426E-01 +7.14180569358E-01
2.50500000000E+09 +6.03530641551E-01 +6.27766870821E-01 -1.93230105080E-04 -9.94725397477E-04 -2.33742646303E-04 -1.06147294054E-03 +5.82725541625E-01 +7.08742358871E-01
2.51000000000E+09 +6.10032967533E-01 +6.20195752019E-01 -2.13811761391E-04 -9.72407473909E-04 -2.78422051063E-04 -9.61369430631E-04 +5.88314892919E-01 +7.03391214014E-01
2.51500000000E+09 +6.16698559845E-01 +6.12384964346E-01 -3.51679449501E-04 -1.13340323692E-03 -2.88553232700E-04 -1.05378310222E-03 +5.93586934405E-01 +6.98007530000E-01
2.52000000000E+09 +6.22948634797E-01 +6.04520069324E-01 -5.82059678757E-04 -1.04768238414E-03 -5.14716499851E-04 -1.05372376911E-03 +5.98564591010E-01 +6.92075651621E-01
2.52500000000E+09 +6.28515091077E-01 +5.97151737292E-01 -7.22628083137E-04 -8.96120273371E-04 -6.90492116978E-04 -9.75365145668E-04 +6.04311299163E-01 +6.85527257562E-01
2.53000000000E+09 +6.33664125880E-01 +5.89895485581E-01 -7.38239533139E-04 -6.91292153568E-04 -7.38788777322E-04 -7.28088434682E-04 +6.10133806655E-01 +6.78328431740E-01
2.53500000000E+09 +6.38472907494E-01 +5.83251212052E-01 -5.50330179197E-04 -6.72323404787E-04 -5.93548482472E-04 -6.73761906635E-04 +6.16060803581E-01 +6.71360174538E-01
2.54000000000E+09 +6.42976727223E-01 +5.76630249939E-01 -6.45606990487E-04 -7.39159689652E-04 -6.09573129077E-04 -7.26369535095E-04 +6.22015735829E-01 +6.64763549370E-01
2.54500000000E+09 +6.47419489059E-01 +5.70004052228E-01 -7.76563336617E-04 -8.07121192038E-04 -7.31236119682E-04 -9.15651363227E-04 +6.27944957158E-01 +6.58275768419E-01
2.55000000000E+09 +6.51965201415E-01 +5.63208263643E-01 -9.40281351614E-04 -7.47499329749E-04 -9.89264206115E-04 -9.10049855960E-04 +6.33138529251E-01 +6.51944218978E-01
2.55500000000E+09 +6.56857878028E-01 +5.55730348780E-01 -1.06974251693E-03 -5.21366902338E-04 -1.21292908462E-03 -6.89601499768E-04 +6.38251658859E-01 +6.45572091662E-01
2.56000000000E+09 +6.62419373516E-01 +5.48297734284E-01 -9.99942599069E-04 -3.71710937232E-04 -1.19789061581E-03 -3.41593279100E-04 +6.43323948798E-01 +6.38393460823E-01
2.56500000000E+09 +6.68288843400E-01 +5.39870851406E-01 -9.18765192589E-04 -4.58003709117E-04 -1.06774791362E-03 -2.98231773614E-04 +6.48690438700E-01 +6.30874571188E-01
2.57000000000E+09 +6.74526500400E-01 +5.31396387592E-01 -1.03676323958E-03 -5.83612579684E-04 -1.12629549933E-03 -3.96836800530E-04 +6.54115441191E-01 +6.22908611751E-01
2.57500000000E+09 +6.80769277720E-01 +5.22385894934E-01 -1.37849675214E-03 -4.88316081992E-04 -1.22681916168E-03 -2.55157417299E-04 +6.59722327187E-01 +6.15036516795E-01
2.58000000000E+09 +6.86606872406E-01 +5.13640924174E-01 -1.46279930747E-03 -1.96908881393E-04 -1.22921383733E-03 -1.06422528180E-04 +6.64753965142E-01 +6.07523862779E-01
2.58500000000E+09 +6.92221860746E-01 +5.04896169636E-01 -1.40564773228E-03 +3.59704547946E-05 -1.26249486175E-03 -6.17952799188E-05 +6.69535582237E-01 +6.00042291974E-01
2.59000000000E+09 +6.97261526662E-01 +4.96457158868E-01 -1.28629663080E-03 +6.65490911841E-05 -1.23170605471E-03 +1.45494110405E-05 +6.74352046069E-01 +5.92600968027E-01
2.59500000000E+09 +7.02167977055E-01 +4.88343352495E-01 -1.39607730350E-03 +1.11680895136E-04 -1.41970537768E-03 +7.64244540406E-05 +6.79239671495E-01 +5.84378305228E-01
2.60000000000E+09 +7.06724222745E-01 +4.80065956385E-01 -1.55921974308E-03 +1.68247234927E-04 -1.51615557621E-03 +1.42477967658E-04 +6.84084643918E-01 +5.75655854492E-01
2.60500000000E+09 +7.11124822141E-01 +4.71138180664E-01 -1.71519056852E-03 +5.04725196072E-04 -1.67678334632E-03 +5.26418475132E-04 +6.89062951128E-01 +5.66741719668E-01
2.61000000000E+09 +7.15543765470E-01 +4.61684656059E-01 -1.60874872935E-03 +9.32891003737E-04 -1.56143335431E-03 +9.06246079869E-04 +6.93915911628E-01 +5.57805753396E-01
2.61500000000E+09 +7.19898018607E-01 +4.51226212509E-01 -1.22916433899E-03 +1.07197620402E-03 -1.25281051953E-03 +1.06562371918E-03 +6.98660534638E-01 +5.49483530848E-01
2.62000000000E+09 +7.24027177817E-01 +4.39899216888E-01 -1.12235648624E-03 +9.97521533866E-04 -1.15041178524E-03 +1.09008722963E-03 +7.03648311709E-01 +5.40417523702E-01
2.62500000000E+09 +7.28143177813E-01 +4.27762141039E-01 -1.05197972987E-03 +1.02410668667E-03 -9.36935260712E-04 +1.21378344843E-03 +7.08268001480E-01 +5.31476686870E-01
2.63000000000E+09 +7.32056860257E-01 +4.15269955940E-01 -9.38836958224E-04 +1.04017178405E-03 -7.38108292880E-04 +1.11663878472E-03 +7.12605053541E-01 +5.22577813507E-01
2.63500000000E+09 +7.35542447727E-01 +4.02730293707E-01 -1.12870227665E-03 +1.06384920774E-03 -8.88744100401E-04 +1.07925367381E-03 +7.17440386066E-01 +5.13341887118E-01
2.64000000000E+09 +7.39096855555E-01 +3.90342559104E-01 -1.03997128479E-03 +1.54044543957E-03 -8.39768140905E-04 +1.32791103395E-03 +7.22186259175E-01 +5.03522996064E-01
2.64500000000E+09 +7.42748197112E-01 +3.78497266422E-01 -6.17520603498E-04 +1.57279178124E-03 -7.01617595964E-04 +1.38104480971E-03 +7.27020186598E-01 +4.93787058859E-01
2.65000000000E+09 +7.45932566938E-01 +3.66860662417E-01 -4.74993852823E-04 +1.48078107465E-03 -7.12044660636E-04 +1.34314028532E-03 +7.31475425037E-01 +4.83567972649E-01
2.65500000000E+09 +7.49203633637E-01 +3.55217165621E-01 -4.80604829680E-04 +1.41301155467E-03 -6.36636594932E-04 +1.41709919994E-03 +7.35021244299E-01 +4.73333353439E-01
2.66000000000E+09 +7.52109106272E-01 +3.43526431568E-01 -5.23361064301E-04 +1.54407174932E-03 -5.71224306585E-04 +1.70357945522E-03 +7.39311965833E-01 +4.62748389871E-01
2.66500000000E+09 +7.54861255319E-01 +3.32108031815E-01 -4.16649699733E-04 +1.65522753749E-03 -3.44565704771E-04 +1.73268895283E-03 +7.43882434361E-01 +4.51462598266E-01
2.67000000000E+09 +7.57510170628E-01 +3.19818033213E-01 -3.89106373752E-04 +1.81455414055E-03 -2.81949736732E-04 +1.81487986690E-03 +7.48114588307E-01 +4.39983953753E-01
2.67500000000E+09 +7.59529004303E-01 +3.06767835291E-01 -5.23241880677E-05 +1.98444551176E-03 -1.32650092764E-05 +1.86422885237E-03 +7.51970557824E-01 +4.28299067418E-01
2.68000000000E+09 +7.60927661509E-01 +2.93292190362E-01 +1.34301864190E-04 +1.89008478207E-03 +1.29292681444E-04 +1.78661216063E-03 +7.55508876062E-01 +4.17117296010E-01
2.68500000000E+09 +7.61893317413E-01 +2.79320711175E-01 +1.05667662923E-04 +1.94606250941E-03 +3.03500650659E-05 +1.93407826246E-03 +7.58490388926E-01 +4.05850482739E-01
2.69000000000E+09 +7.62646259679E-01 +2.65405738217E-01 +3.87045498689E-04 +2.10838789360E-03 +3.79579258342E-04 +2.06676971549E-03 +7.61530927389E-01 +3.94022862970E-01
2.69500000000E+09 +7.63384832926E-01 +2.51396954380E-01 +5.87770304641E-04 +2.09989794300E-03 +5.81850608428E-04 +2.05555739505E-03 +7.64249798896E-01 +3.81150348039E-01
2.70000000000E+09 +7.64301101873E-01 +2.37325220961E-01 +7.76023452894E-04 +2.18353834287E-03 +7.34702452404E-04 +2.13668481607E-03 +7.66739682016E-01 +3.67500654436E-01
2.70500000000E+09 +7.65050804248E-01 +2.23382508883E-01 +1.17129332395E-03 +2.11688239283E-03 +1.07502539432E-03 +2.23877448910E-03 +7.69046179029E-01 +3.53931456833E-01
2.71000000000E+09 +7.66013392330E-01 +2.09765429549E-01 +1.43670067571E-03 +1.94267327198E-03 +1.31311121121E-03 +2.07033748020E-03 +7.71888085318E-01 +3.40967737107E-01
2.71500000000E+09 +7.67636641851E-01 +1.95661261510E-01 +1.51282292900E-03 +1.86214533757E-03 +1.57420129708E-03 +2.06631142546E-03 +7.74395738137E-01 +3.27953135098E-01
2.72000000000E+09 +7.68723942957E-01 +1.80899848309E-01 +1.68353010705E-03 +1.79036821086E-03 +1.87874652035E-03 +1.83297595495E-03 +7.76442374085E-01 +3.15113244639E-01
2.72500000000E+09 +7.69149083053E-01 +1.65724336172E-01 +1.96276328739E-03 +1.69779125379E-03 +2.09721519389E-03 +1.50110861414E-03 +7.77250883247E-01 +3.01699566907E-01
2.73000000000E+09 +7.68878624295E-01 +1.50260588559E-01 +2.10103892116E-03 +1.57654751946E-03 +2.02324105696E-03 +1.21285736094E-03 +7.78471299081E-01 +2.88074960996E-01
2.73500000000E+09 +7.68026030967E-01 +1.34072920028E-01 +2.30603290479E-03 +1.45314655953E-03 +1.97117795122E-03 +1.25359666279E-03 +7.79489930446E-01 +2.73201653262E-01
2.74000000000E+09 +7.65713110994E-01 +1.17841516611E-01 +2.57117952956E-03 +1.38556373495E-03 +2.14701911942E-03 +1.44058069645E-03 +7.80722810605E-01 +2.57761254762E-01
2.74500000000E+09 +7.62912672381E-01 +1.01362263718E-01 +2.83632821236E-03 +1.24218862669E-03 +2.56776771078E-03 +1.50943815537E-03 +7.81135703117E-01 +2.42243893088E-01
2.75000000000E+09 +7.59406022781E-01 +8.44618391055E-02 +3.28797248712E-03 +8.76460153836E-04 +3.28047655574E-03 +1.30999280506E-03 +7.81595190982E-01 +2.27249519690E-01
2.75500000000E+09 +7.55177447753E-01 +6.71597586049E-02 +3.33429501870E-03 +3.07603964704E-04 +3.60860113029E-03 +5.56949632154E-04 +7.81218714622E-01 +2.12351569036E-01
2.76000000000E+09 +7.50486575925E-01 +5.01614760592E-02 +3.29989561173E-03 +1.13869177546E-04 +3.55345743564E-03 +1.52305685755E-04 +7.80610645832E-01 +1.97303531075E-01
2.76500000000E+09 +7.45860480907E-01 +3.27978125525E-02 +3.62454150397E-03 -1.28517234019E-04 +3.81123695471E-03 -1.41875548231E-04 +7.79713263350E-01 +1.80828203840E-01
2.77000000000E+09 +7.41376853261E-01 +1.49249101367E-02 +3.75798748247E-03 -7.13840719147E-04 +3.88858622327E-03 -8.50188786657E-04 +7.78146458181E-01 +1.63135859625E-01
2.77500000000E+09 +7.36738374475E-01 -3.81469493905E-03 +3.62019653155E-03 -1.33083317499E-03 +3.66708727662E-03 -1.47397548286E-03 +7.75322405162E-01 +1.45246246115E-01
2.78000000000E+09 +7.32040371172E-01 -2.33801430320E-02 +3.41721323069E-03 -1.48179865963E-03 +3.37906648053E-03 -1.69147260415E-03 +7.73449050352E-01 +1.28085507110E-01
2.78500000000E+09 +7.26001185307E-01 -4.36339171775E-02 +3.38841728167E-03 -1.81512292564E-03 +3.28837474599E-03 -1.99446558041E-03 +7.71101449100E-01 +1.10417570121E-01
2.79000000000E+09 +7.19291656403E-01 -6.40007659001E-02 +3.53337078946E-03 -2.23665059138E-03 +3.27559525068E-03 -2.26455840711E-03 +7.68301239255E-01 +9.32185441622E-02
2.79500000000E+09 +7.11380439056E-01 -8.41754725912E-02 +3.45365553675E-03 -3.03713162821E-03 +3.23105371362E-03 -2.86892551851E-03 +7.63998535691E-01 +7.52084806508E-02
2.80000000000E+09 +7.02482940666E-01 -1.04141031333E-01 +2.82578390988E-03 -3.66671516382E-03 +2.83295024782E-03 -3.38225237411E-03 +7.58618926880E-01 +5.71211082865E-02
2.80500000000E+09 +6.92347799979E-01 -1.23327721061E-01 +2.15231702421E-03 -3.85068856556E-03 +2.25723220180E-03 -3.77859194339E-03 +7.52769382611E-01 +3.90723837680E-02
2.81000000000E+09 +6.81377287871E-01 -1.41686687729E-01 +1.88849441605E-03 -3.79878646716E-03 +2.05761576943E-03 -3.92129340371E-03 +7.47063354192E-01 +1.98304981288E-02
2.81500000000E+09 +6.69599565809E-01 -1.59356442363E-01 +1.53929809214E-03 -4.10618900178E-03 +1.47675484023E-03 -4.25865874309E-03 +7.40292013515E-01 +1.42175641227E-04
2.82000000000E+09 +6.57125384931E-01 -1.77124104014E-01 +1.37416754180E-03 -4.29014895467E-03 +1.16224580578E-03 -4.41163889153E-03 +7.32730827758E-01 -1.99259915508E-02
2.82500000000E+09 +6.43091344311E-01 -1.94975612834E-01 +9.30414949794E-04 -4.80164617310E-03 +6.69927840156E-04 -4.61060556396E-03 +7.24003809293E-01 -3.93570716746E-02
2.83000000000E+09 +6.27483429732E-01 -2.13182169606E-01 +1.87092622807E-04 -4.88445052553E-03 +1.66195630720E-04 -4.63637526721E-03 +7.14702960075E-01 -5.91059704241E-02
2.83500000000E+09 +6.10237233047E-01 -2.31763556576E-01 -3.53975972639E-04 -4.80859624317E-03 -2.34761605216E-04 -4.62319252674E-03 +7.04726828202E-01 -7.89953715061E-02
2.84000000000E+09 +5.90900266399E-01 -2.50036641543E-01 -5.82377036379E-04 -4.81412683265E-03 -5.14500926839E-04 -4.82944934073E-03 +6.93503491946E-01 -1.00167297244E-01
2.84500000000E+09 +5.70033391609E-01 -2.68364035605E-01 -1.29834417636E-03 -5.01844626748E-03 -1.30573236597E-03 -5.13113820329E-03 +6.80443996856E-01 -1.21170916056E-01
2.85000000000E+09 +5.47769434340E-01 -2.86381406904E-01 -1.69174120503E-03 -5.07725570773E-03 -1.76714892696E-03 -5.06357859346E-03 +6.66093568328E-01 -1.41553573242E-01
2.85500000000E+09 +5.24089112411E-01 -3.04206860564E-01 -2.71759441052E-03 -5.12948560885E-03 -2.70719567458E-03 -5.02308012206E-03 +6.51925874373E-01 -1.61211945215E-01
2.86000000000E+09 +4.99690616683E-01 -3.21633067423E-01 -3.56846353771E-03 -4.61585501495E-03 -3.49875629984E-03 -4.51473170037E-03 +6.36229095807E-01 -1.82670587943E-01
2.86500000000E+09 +4.74143117786E-01 -3.38300052337E-01 -4.10965832157E-03 -3.86854801479E-03 -4.04639607973E-03 -3.94650101975E-03 +6.18128817700E-01 -2.02889605054E-01
2.87000000000E+09 +4.47325207710E-01 -3.53710868721E-01 -4.27067461483E-03 -3.35012666802E-03 -4.26797402413E-03 -3.33805433636E-03 +5.99566570098E-01 -2.22812368261E-01
2.87500000000E+09 +4.20149317964E-01 -3.67194898571E-01 -4.39828087817E-03 -2.97627130612E-03 -4.48888470275E-03 -2.87464834489E-03 +5.79078969173E-01 -2.42438146952E-01
2.88000000000E+09 +3.93238058320E-01 -3.79227296799E-01 -4.59963947526E-03 -2.94464732231E-03 -4.54195551822E-03 -2.74159008449E-03 +5.57498346238E-01 -2.61455952962E-01
2.88500000000E+09 +3.65646775275E-01 -3.90353657816E-01 -5.48917260710E-03 -2.66716908184E-03 -5.29339838232E-03 -2.41964438187E-03 +5.35182228541E-01 -2.79973911901E-01
2.89000000000E+09 +3.36955324227E-01 -4.00181209838E-01 -5.91880132537E-03 -1.72632751539E-03 -5.53746197487E-03 -1.74852859759E-03 +5.09610115241E-01 -2.98614273136E-01
2.89500000000E+09 +3.06649091428E-01 -4.08347210369E-01 -6.09316642556E-03 -7.18800561385E-04 -5.90676473305E-03 -1.04807284051E-03 +4.82087265829E-01 -3.15494659068E-01
2.90000000000E+09 +2.74677899767E-01 -4.14710845306E-01 -5.84354301619E-03 -2.33917703937E-04 -5.85554165381E-03 -4.87222173708E-04 +4.53670525427E-01 -3.31197705543E-01
2.90500000000E+09 +2.40145775050E-01 -4.18570581176E-01 -5.91344877795E-03 +6.02683094154E-05 -5.99583215371E-03 -2.14625890944E-05 +4.24921950878E-01 -3.46239384960E-01
2.91000000000E+09 +2.04480846592E-01 -4.19088853240E-01 -6.36084914854E-03 +5.79048003883E-04 -6.26942116466E-03 +7.17001748153E-04 +3.93958679139E-01 -3.61538821699E-01
2.91500000000E+09 +1.68696254171E-01 -4.16502935740E-01 -6.30088221568E-03 +1.69059346659E-03 -6.02540414077E-03 +1.73919341052E-03 +3.60903582057E-01 -3.74352476952E-01
2.92000000000E+09 +1.32816332365E-01 -4.11835681184E-01 -5.86208311036E-03 +2.15568852215E-03 -5.58755522139E-03 +1.90984701414E-03 +3.26014075918E-01 -3.84101036463E-01
2.92500000000E+09 +9.77369340103E-02 -4.05638649091E-01 -5.89128528344E-03 +2.73245339532E-03 -5.72812854721E-03 +2.29067108383E-03 +2.90331429782E-01 -3.91285276154E-01
2.93000000000E+09 +6.21997562401E-02 -3.98334513541E-01 -5.91956836558E-03 +3.41110608975E-03 -5.97666851878E-03 +3.08016886984E-03 +2.53722133974E-01 -3.96520351864E-01
2.93500000000E+09 +2.61995331231E-02 -3.89074543611E-01 -5.59386383864E-03 +4.27811176957E-03 -5.76972505291E-03 +4.12088190319E-03 +2.15730114631E-01 -4.01470161411E-01
2.94000000000E+09 -9.33709284946E-03 -3.76812201826E-01 -5.10811828972E-03 +4.96434287698E-03 -5.25384005765E-03 +4.85482938248E-03 +1.75878730972E-01 -4.03120804581E-01
2.94500000000E+09 -4.36303870534E-02 -3.61715096741E-01 -4.72364860673E-03 +5.61244738138E-03 -4.78362054606E-03 +5.48855110204E-03 +1.36593127496E-01 -4.02624859628E-01
2.95000000000E+09 -7.65197731608E-02 -3.43871876009E-01 -4.00916527167E-03 +6.57960800121E-03 -4.24384550238E-03 +6.43506573799E-03 +9.73545343785E-02 -3.99432596967E-01
2.95500000000E+09 -1.06958714535E-01 -3.23474376925E-01 -2.85917863675E-03 +6.87151262070E-03 -3.17926732832E-03 +6.94731323012E-03 +5.81535455760E-02 -3.94117391680E-01
2.96000000000E+09 -1.36854819102E-01 -3.01342986805E-01 -2.50695229304E-03 +7.01961550378E-03 -2.69274190900E-03 +7.33087273108E-03 +1.74889617905E-02 -3.85708944491E-01
2.96500000000E+09 -1.64880762432E-01 -2.76314479716E-01 -1.65993471305E-03 +7.60980318283E-03 -1.59111735862E-03 +7.92263546298E-03 -2.36342640460E-02 -3.73535977079E-01
2.97000000000E+09 -1.91982536863E-01 -2.48376582670E-01 -9.94453927385E-04 +7.82526933245E-03 -7.16416530056E-04 +7.85075514997E-03 -6.42215702332E-02 -3.57693058750E-01
2.97500000000E+09 -2.16514758034E-01 -2.17862324581E-01 -1.13853004752E-04 +8.44547028492E-03 +2.24219593804E-05 +8.23120264842E-03 -1.03270562880E-01 -3.39941739666E-01
2.98000000000E+09 -2.39679648707E-01 -1.85919399297E-01 +1.52152152283E-03 +8.60425275066E-03 +1.24512370942E-03 +8.39183219743E-03 -1.40748681821E-01 -3.19462777376E-01
2.98500000000E+09 -2.60389664557E-01 -1.52367475914E-01 +2.30329239485E-03 +8.04935859822E-03 +2.00980019516E-03 +8.20926230405E-03 -1.77389186241E-01 -2.98091723513E-01
2.99000000000E+09 -2.79256912313E-01 -1.18898007522E-01 +3.18145358456E-03 +8.22465017725E-03 +3.18555399862E-03 +8.59504208878E-03 -2.14364904945E-01 -2.71556111217E-01
2.99500000000E+09 -2.96750030190E-01 -8.46567687198E-02 +4.78622565288E-03 +7.96229204021E-03 +5.22189720191E-03 +8.09511389763E-03 -2.47005041981E-01 -2.41056814025E-01
3.00000000000E+09 -3.12301282355E-01 -4.98177197760E-02 +5.63226337471E-03 +7.01265428443E-03 +5.93160994631E-03 +6.73149186689E-03 -2.77680161432E-01 -2.09790891900E-01
3.00500000000E+09 -3.24380590700E-01 -1.51061872253E-02 +6.82407866141E-03 +6.89978027362E-03 +6.68510126136E-03 +6.45075337387E-03 -3.07401984443E-01 -1.76025382596E-01
3.01000000000E+09 -3.33778553013E-01 +1.86524137706E-02 +8.17129199610E-03 +5.31276596307E-03 +7.74288223299E-03 +5.14484143635E-03 -3.33098895011E-01 -1.39839201093E-01
3.01500000000E+09 -3.40693972510E-01 +5.14031207807E-02 +8.49924354734E-03 +3.76458877123E-03 +8.14405587361E-03 +4.01412447959E-03 -3.56881741839E-01 -1.03234235721E-01
3.02000000000E+09 -3.45262432919E-01 +8.42513561592E-02 +8.52974538560E-03 +2.56896252259E-03 +8.56126979919E-03 +2.85217079225E-03 -3.76309802151E-01 -6.43248849334E-02
3.02500000000E+09 -3.46666313392E-01 +1.17511799491E-01 +8.37729677076E-03 +2.00147214527E-03 +8.45935639699E-03 +2.12564903991E-03 -3.91820406284E-01 -2.59553362338E-02
3.03000000000E+09 -3.44002432787E-01 +1.50519262274E-01 +8.99233451118E-03 +1.40949692139E-03 +9.04688282861E-03 +1.48021800327E-03 -4.06382762698E-01 +1.29420454457E-02
3.03500000000E+09 -3.38681564111E-01 +1.81127100673E-01 +9.91759528364E-03 -8.11900481085E-06 +9.93537274457E-03 +1.56713589185E-04 -4.18415459354E-01 +5.35533611998E-02
3.04000000000E+09 -3.31561726425E-01 +2.12588497436E-01 +9.79694144364E-03 -2.32611535999E-03 +1.01267946346E-02 -2.09604253134E-03 -4.26730460193E-01 +9.51176509854E-02
3.04500000000E+09 -3.22755299620E-01 +2.42132941779E-01 +8.53032886338E-03 -3.54395249784E-03 +9.04132048080E-03 -3.67399507646E-03 -4.31510730599E-01 +1.36400905865E-01
3.05000000000E+09 -3.12749680337E-01 +2.71897525015E-01 +7.80432142776E-03 -4.42481202961E-03 +8.10191295164E-03 -4.99352182278E-03 -4.32636556201E-01 +1.75168596889E-01
3.05500000000E+09 -3.01171471603E-01 +3.01016141284E-01 +6.98572465305E-03 -4.94491204230E-03 +6.69602276181E-03 -5.36748308249E-03 -4.33942324204E-01 +2.13206081805E-01
3.06000000000E+09 -2.88209604364E-01 +3.29381698100E-01 +6.66011968314E-03 -5.86494185106E-03 +6.23517206924E-03 -5.99721988159E-03 -4.31900965994E-01 +2.52781059847E-01
3.06500000000E+09 -2.73985640732E-01 +3.55660039133E-01 +5.64903752316E-03 -7.20399201588E-03 +5.36884811299E-03 -6.75478414118E-03 -4.25895477776E-01 +2.90503207402E-01
3.07000000000E+09 -2.59681280885E-01 +3.80448391761E-01 +3.71776091901E-03 -7.69972254335E-03 +4.09800626409E-03 -7.34852151683E-03 -4.17901185352E-01 +3.25724830509E-01
