# Hz S RI R 50
! CMT, C1220, 16058040, 17.2.0/1
! Date: 15/08/2018 10:27:46
! Data: Format (Calibration Info)
! Freq                      S11: Re/Im (F2)                       S21: Re/Im (F2)                       S12: Re/Im (F2)                       S22: Re/Im (F2)            
2.50000000000E+09 +5.79786171278E-01 +6.42305443945E-01 +2.08371937172E-04 -1.76897738669E-05 +2.29433055002E-04 -1.25436304505E-05 +5.69244385994E-01 +7.20625770341E-01
2.50500000000E+09 +5.87033973072E-01 +6.34743708780E-01 +2.81675922299E-04 -7.61457478067E-05 +2.49718555280E-04 -1.11493590913E-04 +5.75394488680E-01 +7.14774453072E-01
2.51000000000E+09 +5.94571896366E-01 +6.26862191922E-01 +2.23460004291E-04 -1.14505417370E-04 +1.66743572366E-04 -1.96954710559E-04 +5.81164193735E-01 +7.09054932466E-01
2.51500000000E+09 +6.01891453234E-01 +6.19091168383E-01 +1.62449501416E-04 -1.35483971490E-04 +1.63204503825E-04 -9.90045733321E-05 +5.86652549817E-01 +7.03031288197E-01
2.52000000000E+09 +6.08579351216E-01 +6.11144766651E-01 +2.36029320584E-04 -1.64341088019E-04 +2.34534821244E-04 -1.50910851801E-04 +5.91710014768E-01 +6.96630724907E-01
2.52500000000E+09 +6.14323526327E-01 +6.03701563788E-01 +1.44455168974E-04 -2.54657506908E-04 +1.85218339129E-04 -2.36607240119E-04 +5.97386821325E-01 +6.89950971793E-01
2.53000000000E+09 +6.19547808380E-01 +5.96831620325E-01 +1.05802694126E-04 -2.79676578329E-04 +6.60168661495E-05 -2.31813480318E-04 +6.03200950547E-01 +6.82586449552E-01
2.53500000000E+09 +6.24232885157E-01 +5.90402519164E-01 +2.22365676067E-05 -2.52791125493E-04 +1.78693697877E-05 -2.50999695686E-04 +6.08612709292E-01 +6.75763128919E-01
2.54000000000E+09 +6.28650031455E-01 +5.83944272042E-01 +7.52672418816E-05 -1.78418861229E-04 +6.06091994501E-05 -1.40543410984E-04 +6.14240079826E-01 +6.69167083755E-01
2.54500000000E+09 +6.32934665429E-01 +5.78001097802E-01 +6.74677592650E-05 -1.97457937739E-04 +7.00484334852E-05 -1.88072744920E-04 +6.19589804640E-01 +6.62525289747E-01
2.55000000000E+09 +6.37713591172E-01 +5.71855939357E-01 +6.52370432896E-05 -1.42518291969E-04 +7.08793885462E-05 -1.62440938983E-04 +6.24159070209E-01 +6.56577689380E-01
2.55500000000E+09 +6.43086012951E-01 +5.65190177992E-01 +3.60681375528E-05 -2.31753366490E-04 +7.84695011428E-05 -2.86591421232E-04 +6.28910401228E-01 +6.50508281421E-01
2.56000000000E+09 +6.49109709585E-01 +5.58293384441E-01 +4.31482522062E-06 -2.67713838002E-04 -2.79357678570E-05 -3.44965869246E-04 +6.33973507659E-01 +6.43829347974E-01
2.56500000000E+09 +6.55478728572E-01 +5.50279885218E-01 -7.22773694374E-05 -2.84777063393E-04 -1.23171352586E-04 -2.43494290924E-04 +6.39425079980E-01 +6.36820902487E-01
2.57000000000E+09 +6.61625251447E-01 +5.42422320816E-01 -1.22951662763E-04 -2.83085797291E-04 -1.83479657777E-04 -1.71788459024E-04 +6.44830717690E-01 +6.29337896375E-01
2.57500000000E+09 +6.67728651276E-01 +5.34318738082E-01 -1.44672600036E-04 -1.33212419646E-04 -1.64232688286E-04 -1.03085250773E-04 +6.50390337197E-01 +6.21893985003E-01
2.58000000000E+09 +6.73128067456E-01 +5.26102880082E-01 -1.37745758172E-04 -7.39125082338E-05 -7.41462175051E-05 -8.51197151423E-05 +6.55671985072E-01 +6.14814193031E-01
2.58500000000E+09 +6.77879351127E-01 +5.17895259001E-01 -5.60538469829E-05 -1.09264263757E-04 -3.00729032570E-05 -1.25017671754E-04 +6.60894758541E-01 +6.07178652188E-01
2.59000000000E+09 +6.81957226236E-01 +5.10125632441E-01 -7.60055406179E-05 -8.64032144053E-05 -6.37684209045E-05 -1.02822268666E-04 +6.65942981678E-01 +5.99562047956E-01
2.59500000000E+09 +6.86091242182E-01 +5.02236161908E-01 -1.07696670583E-04 -7.18546468673E-05 -6.73936632722E-05 -1.22565144414E-04 +6.71380425168E-01 +5.91449564807E-01
2.60000000000E+09 +6.89761686999E-01 +4.93948710770E-01 -9.54928346694E-05 -1.08369382095E-04 -9.07893367009E-05 -7.85884297502E-05 +6.76776920450E-01 +5.82909775815E-01
2.60500000000E+09 +6.93937099098E-01 +4.84832759291E-01 -1.07693707216E-04 -7.67640326258E-05 -1.08615122693E-04 -1.19439854884E-04 +6.82262143548E-01 +5.73905179717E-01
2.61000000000E+09 +6.98333819400E-01 +4.74775117067E-01 -7.96845208826E-05 -1.23657207862E-04 -7.70807944822E-05 -1.09996257097E-04 +6.87353275359E-01 +5.65042082428E-01
2.61500000000E+09 +7.03225705055E-01 +4.63484855960E-01 -1.12508892026E-04 -1.10493533472E-04 -1.26006011782E-04 -8.28824727996E-05 +6.91964639424E-01 +5.56267461675E-01
2.62000000000E+09 +7.07973366290E-01 +4.51002798527E-01 -1.28918885215E-04 -6.05190430624E-05 -1.63149973558E-04 -1.34435021796E-05 +6.96686748040E-01 +5.47162446569E-01
2.62500000000E+09 +7.12826565777E-01 +4.37731120130E-01 -9.89373404887E-05 -4.66846236067E-06 -4.31268558993E-05 -4.47718820663E-05 +7.01120381053E-01 +5.38373718663E-01
2.63000000000E+09 +7.17359895443E-01 +4.24353641553E-01 -5.77857432474E-05 -8.82573371950E-05 -1.06208254955E-04 -8.51870084652E-05 +7.05627732097E-01 +5.29195791398E-01
2.63500000000E+09 +7.21424020291E-01 +4.11122233527E-01 -1.37556022735E-04 -1.19952025301E-05 -1.76728007916E-04 -4.43764085718E-08 +7.10115260031E-01 +5.20024896747E-01
2.64000000000E+09 +7.25165213580E-01 +3.98335456468E-01 -7.81401420451E-05 +3.34265881744E-05 -4.83206654034E-05 +1.77397282496E-05 +7.14776874286E-01 +5.10362404371E-01
2.64500000000E+09 +7.28552283766E-01 +3.86544476685E-01 +1.06661683844E-05 +2.91662843263E-05 -9.92368821457E-06 +1.02705028626E-05 +7.19256016334E-01 +5.00786499021E-01
2.65000000000E+09 +7.31559178857E-01 +3.75683847543E-01 +5.69741162681E-05 -1.04157711668E-04 +8.73458615576E-05 -1.12325602974E-04 +7.23590382591E-01 +4.90912863019E-01
2.65500000000E+09 +7.34756298731E-01 +3.64969968838E-01 -5.22168727610E-05 -2.28314791006E-04 -5.01395029808E-05 -2.55724440470E-04 +7.27392004040E-01 +4.80496738549E-01
2.66000000000E+09 +7.38025514929E-01 +3.54303876646E-01 -1.65673056261E-04 -9.99299453461E-05 -8.58499360420E-05 -1.07377874809E-04 +7.31302434803E-01 +4.69504146035E-01
2.66500000000E+09 +7.41307511216E-01 +3.43438398723E-01 -6.14072187553E-05 -1.09561186054E-04 -1.05213262122E-04 -1.22825538025E-04 +7.35791076885E-01 +4.58345584966E-01
2.67000000000E+09 +7.44412967790E-01 +3.31127483864E-01 -1.53335082632E-04 -1.38757236579E-04 -1.69270004188E-04 -1.24954531354E-04 +7.40099005514E-01 +4.47159527669E-01
2.67500000000E+09 +7.46927481331E-01 +3.17950055854E-01 -2.14801871407E-04 -1.81819313859E-04 -2.41001664433E-04 -2.21633107511E-04 +7.44329105405E-01 +4.35643804534E-01
2.68000000000E+09 +7.48486400597E-01 +3.03943174162E-01 -3.60145537072E-04 -1.11576928058E-04 -3.46459717171E-04 -9.28624801020E-05 +7.47771237413E-01 +4.24315237404E-01
2.68500000000E+09 +7.49554019486E-01 +2.89813467801E-01 -3.05663846937E-04 +3.55786268449E-05 -3.08904882521E-04 +2.81310626960E-05 +7.50658249933E-01 +4.13111780019E-01
2.69000000000E+09 +7.50346806224E-01 +2.75554662384E-01 -1.88140904818E-04 +7.11597332094E-05 -2.02055352627E-04 +5.59345900615E-05 +7.53355147580E-01 +4.01417555885E-01
2.69500000000E+09 +7.50835641953E-01 +2.61461061759E-01 -1.45116237315E-04 -3.05867128476E-05 -1.49989823015E-04 -1.15248549638E-05 +7.55724136105E-01 +3.89057563050E-01
2.70000000000E+09 +7.51361535114E-01 +2.47509210279E-01 -2.06195431173E-04 -1.27647413535E-04 -2.68215883411E-04 -1.07234910423E-04 +7.58568365351E-01 +3.76119281698E-01
2.70500000000E+09 +7.51834857495E-01 +2.34115122325E-01 -3.16214187305E-04 +2.99215670879E-05 -3.35480003417E-04 +2.38202497784E-06 +7.61275674773E-01 +3.62975712077E-01
2.71000000000E+09 +7.52497994183E-01 +2.20889725778E-01 -3.99594307203E-04 +1.09953977584E-04 -3.81268207660E-04 +9.20147095797E-05 +7.63990564221E-01 +3.49916907420E-01
2.71500000000E+09 +7.53609385127E-01 +2.07141507771E-01 -3.24201439401E-04 +2.69662844592E-04 -3.61694515043E-04 +2.25640370455E-04 +7.66266889172E-01 +3.37287476100E-01
2.72000000000E+09 +7.54426250956E-01 +1.92837158787E-01 -2.06366500882E-04 +2.78392613854E-04 -1.68706598844E-04 +2.59807581580E-04 +7.67986598360E-01 +3.24920086404E-01
2.72500000000E+09 +7.54843445944E-01 +1.77602282615E-01 -2.28054531678E-04 +1.86941435586E-04 -1.62824103270E-04 +2.15676413563E-04 +7.69450982578E-01 +3.11770966176E-01
2.73000000000E+09 +7.53996852388E-01 +1.61395705797E-01 -2.21763739198E-04 +3.94739785549E-04 -1.47985510081E-04 +3.83006833917E-04 +7.70744664210E-01 +2.97915488440E-01
2.73500000000E+09 +7.52000901387E-01 +1.44473932914E-01 +2.40914535523E-05 +2.95570347815E-04 +5.91019909302E-06 +2.46816657328E-04 +7.71645058504E-01 +2.82957659998E-01
2.74000000000E+09 +7.48800978230E-01 +1.27927633924E-01 -2.86611172557E-05 +8.68751636187E-05 -3.67924434758E-06 +9.87745728586E-05 +7.73015223213E-01 +2.68183331690E-01
2.74500000000E+09 +7.44796286816E-01 +1.10820046839E-01 -1.09198999275E-04 +8.13320592763E-05 -1.21518976685E-04 +1.34711909602E-05 +7.73952441973E-01 +2.53010865497E-01
2.75000000000E+09 +7.39992534720E-01 +9.38452188313E-02 -2.50176589345E-04 +4.92838477341E-05 -2.82348015498E-04 +7.49323788349E-05 +7.74583438133E-01 +2.38107476215E-01
2.75500000000E+09 +7.34858743910E-01 +7.70002380467E-02 -2.77176687643E-04 +2.67590705645E-04 -3.27994669267E-04 +2.16140932656E-04 +7.74355242900E-01 +2.22746369745E-01
2.76000000000E+09 +7.29745624022E-01 +6.01406180136E-02 -2.73340209751E-04 +3.21806642456E-04 -3.31503215681E-04 +2.97535332114E-04 +7.73235302939E-01 +2.07742146406E-01
2.76500000000E+09 +7.24746454593E-01 +4.33638665639E-02 -1.83060934773E-04 +4.14779313871E-04 -1.96848447062E-04 +4.20051770771E-04 +7.72093807609E-01 +1.92066234738E-01
2.77000000000E+09 +7.20501037804E-01 +2.58842878949E-02 -9.65419799037E-05 +4.70573154679E-04 -1.00665733911E-04 +4.96188902925E-04 +7.71173157926E-01 +1.75613699782E-01
2.77500000000E+09 +7.16454753231E-01 +7.30031443460E-03 -4.00295593602E-05 +4.10663958429E-04 +1.24289298165E-05 +4.29182510773E-04 +7.69929091831E-01 +1.58300081293E-01
2.78000000000E+09 +7.12175610767E-01 -1.21293270191E-02 -9.12285804127E-05 +4.07085401427E-04 -1.44036684621E-05 +4.24880937600E-04 +7.68087807951E-01 +1.40720900475E-01
2.78500000000E+09 +7.07157114054E-01 -3.26325330971E-02 -1.59042451675E-04 +4.61213886286E-04 -1.18991798134E-04 +4.23230317240E-04 +7.65306691217E-01 +1.23829011011E-01
2.79000000000E+09 +7.01084515514E-01 -5.34856337215E-02 -1.80712274163E-04 +7.31768176856E-04 -9.49010442093E-05 +6.83471279102E-04 +7.63075905678E-01 +1.07370704597E-01
2.79500000000E+09 +6.93969356945E-01 -7.37994944779E-02 +1.68139199550E-04 +8.96396739133E-04 +2.57298301896E-04 +8.40912433773E-04 +7.59855983527E-01 +8.92423983792E-02
2.80000000000E+09 +6.85383723021E-01 -9.37652670016E-02 +5.18967705552E-04 +7.83780670275E-04 +4.64436323999E-04 +7.49895320521E-04 +7.55245786417E-01 +7.07203446536E-02
2.80500000000E+09 +6.75744074708E-01 -1.12374647423E-01 +5.59147832808E-04 +4.44107275335E-04 +5.80886217745E-04 +4.65030441136E-04 +7.49915129451E-01 +5.18497641074E-02
2.81000000000E+09 +6.65076347172E-01 -1.29905482765E-01 +4.86199774673E-04 +4.16575720445E-04 +4.97151256186E-04 +4.72205168997E-04 +7.44422483494E-01 +3.26063489205E-02
2.81500000000E+09 +6.53728676560E-01 -1.46453085482E-01 +5.20951060737E-04 +4.39347923285E-04 +5.82099395895E-04 +4.46472137212E-04 +7.38142349287E-01 +1.26934985829E-02
2.82000000000E+09 +6.41355374922E-01 -1.63037834117E-01 +5.73542770149E-04 +4.06544005281E-04 +5.52764709771E-04 +3.39992607496E-04 +7.31201888324E-01 -7.43380194257E-03
2.82500000000E+09 +6.27757913335E-01 -1.79269522499E-01 +7.01400448001E-04 +4.83686263702E-04 +6.22853538178E-04 +3.99528725185E-04 +7.22414089860E-01 -2.79543891583E-02
2.83000000000E+09 +6.12840880488E-01 -1.96596355735E-01 +8.55885623008E-04 +3.73255834072E-04 +8.23558801360E-04 +3.01920929706E-04 +7.12473496573E-01 -4.79296132597E-02
2.83500000000E+09 +5.96246392920E-01 -2.14884838101E-01 +8.99629000727E-04 +2.59445206124E-04 +8.67293561285E-04 +2.39647155133E-04 +7.02115906229E-01 -6.75444766802E-02
2.84000000000E+09 +5.76607944788E-01 -2.33587114195E-01 +1.05092384617E-03 -1.72333817913E-05 +9.89788234145E-04 +1.31293118699E-05 +6.91099045729E-01 -8.80428621575E-02
2.84500000000E+09 +5.55127931890E-01 -2.51898624076E-01 +8.11594114307E-04 -2.27206061552E-04 +8.15920315519E-04 -1.79771009748E-04 +6.78695025307E-01 -1.08809093508E-01
2.85000000000E+09 +5.32480357105E-01 -2.69665538038E-01 +9.27354800152E-04 -1.66091007147E-04 +9.35626462162E-04 -1.81699467754E-04 +6.64486328744E-01 -1.29079493099E-01
2.85500000000E+09 +5.08550098358E-01 -2.87316800790E-01 +8.91145648166E-04 -3.23085356460E-04 +8.98078163212E-04 -3.46170080490E-04 +6.49931982257E-01 -1.48488879775E-01
2.86000000000E+09 +4.83396246261E-01 -3.03915122210E-01 +8.87739099151E-04 -3.89522323003E-04 +8.89088129294E-04 -4.05604559013E-04 +6.34417472500E-01 -1.68554875101E-01
2.86500000000E+09 +4.58033752054E-01 -3.18593129969E-01 +9.64502688843E-04 -5.46160510305E-04 +9.54774959743E-04 -5.34990817175E-04 +6.16976880324E-01 -1.88531155438E-01
2.87000000000E+09 +4.32853473276E-01 -3.32048919617E-01 +9.77324209057E-04 -7.95937021289E-04 +9.76513978123E-04 -8.00144890571E-04 +5.98509195493E-01 -2.08151619191E-01
2.87500000000E+09 +4.07707892111E-01 -3.44406825710E-01 +7.78772919517E-04 -1.06338157934E-03 +7.49810601993E-04 -1.12500133061E-03 +5.78592711362E-01 -2.27380346722E-01
2.88000000000E+09 +3.82350299883E-01 -3.56071676947E-01 +4.36879513298E-04 -1.23302393186E-03 +3.94343235899E-04 -1.23825384243E-03 +5.57877269281E-01 -2.45579923289E-01
2.88500000000E+09 +3.55557628161E-01 -3.66715517582E-01 +1.27806047223E-04 -1.10393996285E-03 +1.44391028566E-04 -1.05271191518E-03 +5.36170016522E-01 -2.63799201840E-01
2.89000000000E+09 +3.27491645920E-01 -3.75763622114E-01 +1.79464446886E-04 -9.98483711607E-04 +1.95377604413E-04 -9.24883530404E-04 +5.12476165827E-01 -2.81428439842E-01
2.89500000000E+09 +2.98257519808E-01 -3.83170943539E-01 +2.22291133683E-04 -1.28672328445E-03 +2.72959627934E-04 -1.22286719432E-03 +4.87654135511E-01 -2.99301728565E-01
2.90000000000E+09 +2.67431612699E-01 -3.89244179353E-01 -2.43530441391E-04 -1.30601352107E-03 -2.33988231958E-04 -1.34216098848E-03 +4.59729853338E-01 -3.16733304683E-01
2.90500000000E+09 +2.35356626414E-01 -3.93142431317E-01 -3.59133494869E-04 -1.18109745459E-03 -3.63440932890E-04 -1.19309871686E-03 +4.30808478749E-01 -3.31851625324E-01
2.91000000000E+09 +2.02389130111E-01 -3.94505714671E-01 -5.67415288827E-04 -1.38607414949E-03 -6.03137961724E-04 -1.35221709271E-03 +4.01454970223E-01 -3.46609890323E-01
2.91500000000E+09 +1.69602321493E-01 -3.94279091903E-01 -1.03660901249E-03 -9.76284014574E-04 -1.04409283225E-03 -8.55541643450E-04 +3.69939032444E-01 -3.59738573016E-01
2.92000000000E+09 +1.36216864466E-01 -3.91930076498E-01 -8.30297513003E-04 -6.48259540678E-04 -7.29947855774E-04 -6.36039014015E-04 +3.37371251375E-01 -3.70278000062E-01
2.92500000000E+09 +1.03183716441E-01 -3.87496825544E-01 -8.80895797227E-04 -8.53379132456E-04 -7.67460077913E-04 -7.96191581005E-04 +3.03402920344E-01 -3.79215043820E-01
2.93000000000E+09 +7.09896365381E-02 -3.81181441170E-01 -1.26471393022E-03 -7.55071975741E-04 -1.23975280769E-03 -8.43083926727E-04 +2.67812507506E-01 -3.87303045173E-01
2.93500000000E+09 +3.88505211964E-02 -3.73870548309E-01 -1.48615822226E-03 +5.35983019368E-06 -1.48159056262E-03 -9.22804165101E-05 +2.29708915099E-01 -3.93574381734E-01
2.94000000000E+09 +6.33232867963E-03 -3.63870270694E-01 -1.03484848196E-03 +3.39306152049E-04 -1.00648228825E-03 +3.46665873858E-04 +1.90202787285E-01 -3.97730831446E-01
2.94500000000E+09 -2.52665085221E-02 -3.51048842114E-01 -6.28806403730E-04 +1.49178347294E-04 -6.13065239074E-04 +1.09853852192E-04 +1.49188732733E-01 -3.98776010040E-01
2.95000000000E+09 -5.68114848322E-02 -3.36160735369E-01 -6.82909910740E-04 -7.51675433148E-05 -7.25576166394E-04 -1.32695231148E-04 +1.09597764194E-01 -3.96173693127E-01
2.95500000000E+09 -8.74464033707E-02 -3.17700990065E-01 -9.81855866610E-04 -4.33404419530E-05 -9.68377256739E-04 -8.61018622793E-05 +6.93703219585E-02 -3.92199524548E-01
2.96000000000E+09 -1.16550372212E-01 -2.96679874166E-01 -1.24210044827E-03 +1.69123210041E-04 -1.31162622856E-03 +1.74149735766E-04 +2.80835250506E-02 -3.83921451455E-01
2.96500000000E+09 -1.44132849273E-01 -2.74115415594E-01 -8.48101944733E-04 +9.24177502053E-04 -8.99965664799E-04 +9.40140359319E-04 -1.19087708772E-02 -3.73197196134E-01
2.97000000000E+09 -1.71229487759E-01 -2.48777373122E-01 -7.95846500684E-05 +7.65028655272E-04 -9.98138992069E-05 +7.60713893431E-04 -5.39708512173E-02 -3.60134800458E-01
2.97500000000E+09 -1.95852746566E-01 -2.21285532440E-01 -9.93607954618E-05 +9.11075953447E-05 -1.71875766729E-04 +6.52891064185E-05 -9.40502904974E-02 -3.42491778938E-01
2.98000000000E+09 -2.18746530246E-01 -1.92234304197E-01 -8.07480765833E-04 -6.33766142423E-05 -7.97233116595E-04 -7.95077629322E-05 -1.33465644424E-01 -3.23072078903E-01
2.98500000000E+09 -2.39388863504E-01 -1.63079267557E-01 -8.70858516583E-04 +6.38057980849E-04 -8.99661046373E-04 +6.27700764252E-04 -1.70851543039E-01 -2.99527984888E-01
2.99000000000E+09 -2.59346650044E-01 -1.32763578477E-01 -4.16143784641E-04 +6.70237897968E-04 -4.56786417193E-04 +6.97445315430E-04 -2.06459011805E-01 -2.73700881569E-01
2.99500000000E+09 -2.76829259506E-01 -1.01766121112E-01 -5.02476990081E-04 +5.71267327605E-04 -4.79810179214E-04 +6.26958414008E-04 -2.40436003408E-01 -2.43833507359E-01
3.00000000000E+09 -2.92861505148E-01 -7.05781890395E-02 -3.52415842203E-04 +7.30213020880E-04 -3.36369159813E-04 +7.44345392345E-04 -2.70492423361E-01 -2.12545024045E-01
3.00500000000E+09 -3.06517650587E-01 -3.91134571535E-02 -6.04560892518E-04 +6.67874292156E-04 -4.80779909060E-04 +6.09437632789E-04 -3.00518158888E-01 -1.80193532498E-01
3.01000000000E+09 -3.17404484788E-01 -7.45699791092E-03 -3.19794008894E-04 +1.11070513912E-03 -3.23775096868E-04 +1.08561896142E-03 -3.27528727994E-01 -1.44913817054E-01
3.01500000000E+09 -3.25779366888E-01 +2.28545915961E-02 +1.74689734094E-04 +1.22699902782E-03 +1.04746895707E-04 +1.23359916580E-03 -3.51744499756E-01 -1.08400979877E-01
3.02000000000E+09 -3.32238643697E-01 +5.37275115360E-02 +5.44049998183E-04 +8.29808222649E-04 +6.18212164919E-04 +8.04621993569E-04 -3.72581295199E-01 -7.03646694625E-02
3.02500000000E+09 -3.34962296498E-01 +8.42407373156E-02 +6.10360222688E-04 +2.54372001370E-04 +5.74633926108E-04 +2.07695606464E-04 -3.89940291454E-01 -3.11090622220E-02
3.03000000000E+09 -3.34743634060E-01 +1.13846334930E-01 -2.17643069860E-04 +2.53987762774E-04 -1.70378672177E-04 +2.09553203159E-04 -4.04277449144E-01 +8.67219189809E-03
3.03500000000E+09 -3.32634270162E-01 +1.42318611856E-01 -1.36746270312E-04 +9.62113938363E-04 -1.30955876240E-04 +9.89409521776E-04 -4.15519334997E-01 +4.87186306255E-02
3.04000000000E+09 -3.28783186125E-01 +1.71341307376E-01 +6.82715429396E-04 +5.68800867772E-04 +6.83572534723E-04 +5.81545662975E-04 -4.24500970972E-01 +8.87617223233E-02
3.04500000000E+09 -3.22264811028E-01 +1.99999051136E-01 +3.19867532334E-04 +4.87393749870E-04 +2.62339220065E-04 +4.97207191996E-04 -4.30457531718E-01 +1.28925957869E-01
3.05000000000E+09 -3.14202048903E-01 +2.28662549668E-01 +6.42133683233E-04 +5.22797742704E-04 +7.03571248412E-04 +5.45763383121E-04 -4.33477338748E-01 +1.68409323806E-01
3.05500000000E+09 -3.03628651134E-01 +2.56465169949E-01 +3.90732788592E-04 +3.17736218570E-04 +4.14470465116E-04 +2.29093195115E-04 -4.34406082952E-01 +2.07132685882E-01
3.06000000000E+09 -2.92680271674E-01 +2.82942659374E-01 +5.64747782904E-04 +2.72417102001E-04 +5.20286859299E-04 +2.62631266055E-04 -4.32418246515E-01 +2.45953413615E-01
3.06500000000E+09 -2.81037680645E-01 +3.08944447201E-01 +5.91212463447E-04 +1.75421709185E-04 +5.52618786654E-04 +2.38463522707E-04 -4.27823665223E-01 +2.83465413399E-01
3.07000000000E+09 -2.68702562833E-01 +3.33797095239E-01 +6.69595354629E-04 +8.37898442655E-05 +6.30434404760E-04 +1.61592358008E-04 -4.21002892721E-01 +3.19076089046E-01
