# Hz S RI R 50
! CMT, C1220, 16058040, 17.2.0/1
! Date: 15/08/2018 10:25:35
! Data: Format (Calibration Info)
! Freq                      S11: Re/Im (F2)                       S21: Re/Im (F2)                       S12: Re/Im (F2)                       S22: Re/Im (F2)            
2.50000000000E+09 +5.81227824455E-01 +6.38729535058E-01 +2.55465066475E-04 +2.70987149976E-05 +2.47141172424E-04 +6.63023191764E-05 +5.70833950351E-01 +7.19813628266E-01
2.50500000000E+09 +5.88400450901E-01 +6.30930217278E-01 +2.48077021616E-04 -6.26026024526E-05 +3.35558950701E-04 -9.59782534571E-05 +5.76847920403E-01 +7.13965068926E-01
2.51000000000E+09 +5.95891465637E-01 +6.23012963363E-01 +2.71429770663E-04 -1.23319722237E-04 +2.80319631884E-04 -1.47493346029E-04 +5.82831009358E-01 +7.08384175485E-01
2.51500000000E+09 +6.03058588417E-01 +6.15034638193E-01 +2.24430446033E-04 -1.27141467501E-04 +2.33010431978E-04 -1.22321787865E-04 +5.88071599727E-01 +7.02358595294E-01
2.52000000000E+09 +6.09585603332E-01 +6.06995267826E-01 +2.80959199634E-04 -1.94783482873E-04 +3.05103766225E-04 -1.33800492796E-04 +5.93287598771E-01 +6.95902644412E-01
2.52500000000E+09 +6.15103294279E-01 +5.99618228727E-01 +2.16444966330E-04 -2.85143902799E-04 +2.17855724911E-04 -2.72132138107E-04 +5.98912914819E-01 +6.89133697536E-01
2.53000000000E+09 +6.19974713329E-01 +5.92668148315E-01 +1.63808621165E-04 -3.04134818467E-04 +1.43746130476E-04 -2.58110894679E-04 +6.04925656569E-01 +6.81716110923E-01
2.53500000000E+09 +6.24360200129E-01 +5.86152178009E-01 +7.75893432352E-05 -3.26295707349E-04 +9.31780818879E-05 -3.23296672695E-04 +6.10426390093E-01 +6.74614759126E-01
2.54000000000E+09 +6.28432327226E-01 +5.79863637142E-01 -5.63794768199E-06 -2.70685859940E-04 +3.08461779827E-05 -2.41401830150E-04 +6.16026435712E-01 +6.67856795561E-01
2.54500000000E+09 +6.32680367278E-01 +5.73781564728E-01 -5.19005997023E-05 -2.44120997368E-04 +4.03731500930E-05 -2.57956470740E-04 +6.21362249888E-01 +6.61289984177E-01
2.55000000000E+09 +6.37289576494E-01 +5.67656571453E-01 +2.50728205468E-05 -1.96055622148E-04 +5.39386943373E-05 -2.65586612706E-04 +6.25890335044E-01 +6.54944601942E-01
2.55500000000E+09 +6.42558936538E-01 +5.61064205393E-01 -1.65726681594E-05 -3.06754713647E-04 -2.02299925923E-05 -3.62534010969E-04 +6.30507668391E-01 +6.48806551100E-01
2.56000000000E+09 +6.48714567568E-01 +5.54252925043E-01 -1.31204783985E-04 -2.72036933561E-04 -1.52992491153E-04 -3.36319564878E-04 +6.35435215743E-01 +6.42078605665E-01
2.56500000000E+09 +6.55118204723E-01 +5.46285253181E-01 -1.62299306896E-04 -3.07154294830E-04 -2.59356807686E-04 -2.78635302139E-04 +6.40726756133E-01 +6.34929905001E-01
2.57000000000E+09 +6.61273403650E-01 +5.38215958159E-01 -2.32998084039E-04 -2.37741983958E-04 -3.00730136173E-04 -2.10425319410E-04 +6.46041956170E-01 +6.27416909635E-01
2.57500000000E+09 +6.67227210058E-01 +5.29962803551E-01 -3.02771258772E-04 -1.13838674309E-04 -3.53152041536E-04 -5.96474753279E-05 +6.51474569780E-01 +6.19859504956E-01
2.58000000000E+09 +6.72524221328E-01 +5.21756512180E-01 -2.59398330663E-04 -1.35242368629E-05 -2.19727739373E-04 +1.00865775378E-05 +6.56650319230E-01 +6.12746346630E-01
2.58500000000E+09 +6.77023370822E-01 +5.13497770569E-01 -2.80094901060E-04 -6.29756178331E-05 -2.18955029225E-04 -5.56954539869E-05 +6.61804727490E-01 +6.05044013913E-01
2.59000000000E+09 +6.80989099349E-01 +5.05675474073E-01 -2.83932038646E-04 +4.00032262397E-05 -2.36575223028E-04 +4.20507345356E-05 +6.66843022966E-01 +5.97764299720E-01
2.59500000000E+09 +6.84812449839E-01 +4.97538483273E-01 -1.83587332086E-04 +5.67993137139E-05 -1.73689902598E-04 +7.35670495679E-05 +6.71938580354E-01 +5.89720109265E-01
2.60000000000E+09 +6.88170453517E-01 +4.89284105102E-01 -1.33712270142E-04 +1.36451887244E-04 -1.57233774609E-04 +1.19287153302E-04 +6.77231546117E-01 +5.81206520907E-01
2.60500000000E+09 +6.92221597536E-01 +4.80190013488E-01 -1.18454314913E-04 +1.02175205243E-04 -9.23032554775E-05 +1.17889724772E-04 +6.82865444373E-01 +5.72344595501E-01
2.61000000000E+09 +6.96555485529E-01 +4.70041732496E-01 -9.08623116407E-05 +6.58366762176E-05 -8.35214291893E-05 +5.54961908154E-05 +6.87891459718E-01 +5.63234342439E-01
2.61500000000E+09 +7.01027137286E-01 +4.58338618051E-01 -1.89548588855E-04 +2.32108041861E-05 -1.86161344780E-04 -1.26547586237E-05 +6.92618902345E-01 +5.54505502770E-01
2.62000000000E+09 +7.05656996630E-01 +4.45929212881E-01 -1.63735199940E-04 +8.69024298574E-05 -2.13629836591E-04 +1.54352329803E-04 +6.97324585920E-01 +5.45396124993E-01
2.62500000000E+09 +7.10304163346E-01 +4.32566999946E-01 -7.24103484201E-05 +1.49441228423E-04 -6.15813607880E-05 +1.54954033325E-04 +7.01783924271E-01 +5.36521712422E-01
2.63000000000E+09 +7.14730316359E-01 +4.19000597599E-01 -3.71138238408E-05 +8.24065452126E-05 -6.31640079084E-05 +6.46355644069E-05 +7.05948455174E-01 +5.27325118972E-01
2.63500000000E+09 +7.18497930525E-01 +4.05812564987E-01 -1.45929136422E-04 +1.64194714637E-04 -1.08817373249E-04 +1.58924387855E-04 +7.10430814411E-01 +5.18116465537E-01
2.64000000000E+09 +7.21774906223E-01 +3.93104646216E-01 -2.99635626208E-05 +2.18098590514E-04 -8.94992646429E-05 +1.22073847902E-04 +7.14912520759E-01 +5.08504201310E-01
2.64500000000E+09 +7.24895594210E-01 +3.81398811459E-01 +3.89654666188E-05 +2.61262913943E-04 +1.85713238858E-05 +1.79990117202E-04 +7.19318937475E-01 +4.98931684877E-01
2.65000000000E+09 +7.27558318132E-01 +3.70774626459E-01 +1.29783776817E-04 +1.34839734718E-04 +9.76767045338E-05 +1.53111565418E-04 +7.23481630262E-01 +4.88941245182E-01
2.65500000000E+09 +7.30378036172E-01 +3.60172612387E-01 +3.02074087526E-05 -1.59887728486E-05 +5.77694868347E-05 +2.83764115680E-05 +7.27104693944E-01 +4.78443761607E-01
2.66000000000E+09 +7.33452431618E-01 +3.49736127941E-01 -6.23963209889E-05 +1.48628024927E-04 -8.43462571692E-05 +1.63461960382E-04 +7.31049776966E-01 +4.67614553075E-01
2.66500000000E+09 +7.36563246681E-01 +3.38909191425E-01 +6.14603940341E-05 +1.91558583034E-04 +5.28363188848E-05 +2.41903387380E-04 +7.35189886998E-01 +4.56562404848E-01
2.67000000000E+09 +7.39572318411E-01 +3.26752891752E-01 +1.12603589397E-04 +1.94429435237E-04 +1.56598382041E-04 +1.98531167059E-04 +7.39507943320E-01 +4.45707740607E-01
2.67500000000E+09 +7.42028618124E-01 +3.13498121381E-01 +1.97386962823E-04 +4.37824589933E-05 +1.82152303426E-04 +5.88056100291E-05 +7.43641685317E-01 +4.34453975731E-01
2.68000000000E+09 +7.43456419075E-01 +2.99557558957E-01 +1.38554604671E-04 -2.36372943313E-05 +1.17851879505E-04 +1.68330966984E-05 +7.47359886617E-01 +4.23386477490E-01
2.68500000000E+09 +7.44479416955E-01 +2.85672872606E-01 +1.97948633279E-05 +2.15701189402E-05 +4.15025132271E-05 +1.17139230693E-05 +7.50255187945E-01 +4.12016674101E-01
2.69000000000E+09 +7.45256051449E-01 +2.71337407806E-01 +1.08832146415E-04 +1.82482063849E-04 +1.50074917273E-04 +1.50028020972E-04 +7.52900428075E-01 +4.00264222240E-01
2.69500000000E+09 +7.45692294643E-01 +2.57586911347E-01 +2.44103464179E-04 +2.27765947645E-05 +2.72481611335E-04 +8.50063815239E-05 +7.55163587420E-01 +3.87993170818E-01
2.70000000000E+09 +7.46092340879E-01 +2.43865238209E-01 +1.91236599414E-04 -1.70025726967E-04 +2.48863918711E-04 -1.32308938357E-04 +7.58058668820E-01 +3.75149703382E-01
2.70500000000E+09 +7.46254577787E-01 +2.30673723313E-01 +6.74775172417E-05 -1.05676273261E-04 +9.13303597720E-05 -9.17891589088E-05 +7.60803070581E-01 +3.62146172699E-01
2.71000000000E+09 +7.46738292361E-01 +2.17648725631E-01 +1.09942653426E-04 -1.29218302466E-04 +1.02902363970E-04 -1.42357664218E-04 +7.63510046180E-01 +3.49169042393E-01
2.71500000000E+09 +7.47627142581E-01 +2.04208683146E-01 +5.38334155007E-05 -5.87265830818E-05 +7.10743750587E-05 -4.39532722384E-05 +7.65802165050E-01 +3.36646075538E-01
2.72000000000E+09 +7.48307658284E-01 +1.90098202350E-01 +1.42690884874E-04 -1.31690001055E-04 +1.54396749697E-04 -8.32409762785E-05 +7.67509062890E-01 +3.24337084695E-01
2.72500000000E+09 +7.48533111518E-01 +1.74970529776E-01 +2.27868022839E-05 -1.95900005003E-04 -2.52108925268E-05 -2.24672773436E-04 +7.68930717012E-01 +3.11253789806E-01
2.73000000000E+09 +7.47498977494E-01 +1.58852222806E-01 -1.43333642717E-05 +7.69139338470E-06 -5.34814148779E-05 -3.70396881960E-05 +7.70258406404E-01 +2.97307294944E-01
2.73500000000E+09 +7.45217627053E-01 +1.42069494560E-01 +1.99831673728E-04 -8.05387964361E-05 +1.50890746124E-04 -1.02827853959E-04 +7.71076504750E-01 +2.82381549262E-01
2.74000000000E+09 +7.41808536079E-01 +1.25517868239E-01 +8.74181217545E-05 -1.62790945406E-04 +7.48053806107E-05 -1.49052133840E-04 +7.72091923850E-01 +2.67692504945E-01
2.74500000000E+09 +7.37571239554E-01 +1.08749702538E-01 +1.51432068635E-04 -1.99439333604E-04 +1.24446505364E-04 -2.25803963911E-04 +7.72871592863E-01 +2.52814972759E-01
2.75000000000E+09 +7.32740178497E-01 +9.23681487440E-02 +8.00134314821E-05 -3.00141331952E-04 +7.26892679010E-05 -2.75369838975E-04 +7.74014442159E-01 +2.38470983918E-01
2.75500000000E+09 +7.27553614827E-01 +7.57915925850E-02 -5.49042454233E-05 -3.70362986429E-04 -3.97333286253E-05 -4.93894102179E-04 +7.74038589197E-01 +2.23242863148E-01
2.76000000000E+09 +7.22373078663E-01 +5.97440834613E-02 -2.71460228938E-04 -3.93812236550E-04 -2.84240525687E-04 -4.38537092540E-04 +7.72950984211E-01 +2.08021885810E-01
2.76500000000E+09 +7.17559340499E-01 +4.34840898114E-02 -3.80268369372E-04 -1.89844967829E-04 -3.66773401475E-04 -2.59169476452E-04 +7.71752934400E-01 +1.92693462492E-01
2.77000000000E+09 +7.13587052819E-01 +2.65473884801E-02 -2.70505300428E-04 -9.99777765525E-05 -3.42450205694E-04 -8.65822036600E-05 +7.71131805363E-01 +1.76359052860E-01
2.77500000000E+09 +7.09648737539E-01 +8.55594596438E-03 -2.57178700475E-04 -1.73978882182E-04 -2.87083128752E-04 -1.68151780939E-04 +7.69936713877E-01 +1.58940514671E-01
2.78000000000E+09 +7.05696241612E-01 -1.05731726263E-02 -3.30729089422E-04 -1.92261684034E-04 -3.61421967497E-04 -1.79505897106E-04 +7.68254766024E-01 +1.41690486597E-01
2.78500000000E+09 +7.00926983284E-01 -3.07616564223E-02 -4.72608718956E-04 -2.12181668431E-04 -4.54213834520E-04 -1.18694595492E-04 +7.66050262433E-01 +1.24722785627E-01
2.79000000000E+09 +6.95114245704E-01 -5.14487696562E-02 -6.39999947754E-04 +4.44740089914E-06 -5.40429211377E-04 +5.76531505317E-05 +7.63851126027E-01 +1.08342324350E-01
2.79500000000E+09 +6.88100165706E-01 -7.18305774139E-02 -5.59800900245E-04 +2.60327308837E-04 -4.91655792821E-04 +1.96630232647E-04 +7.61178731498E-01 +9.03543912815E-02
2.80000000000E+09 +6.79691043207E-01 -9.16342240572E-02 -3.38848791463E-04 +3.32904849100E-04 -3.22968347824E-04 +2.86988865165E-04 +7.56872422256E-01 +7.15856188199E-02
2.80500000000E+09 +6.70404430585E-01 -1.10018160643E-01 -3.53270272784E-04 +2.26602218555E-04 -3.56463385420E-04 +2.47577773803E-04 +7.51912620699E-01 +5.26243516349E-02
2.81000000000E+09 +6.60077594447E-01 -1.27501409929E-01 -4.06872159241E-04 +3.46473915800E-04 -4.15213193740E-04 +3.22553491937E-04 +7.46612209296E-01 +3.29758268324E-02
2.81500000000E+09 +6.48988185869E-01 -1.44055888122E-01 -3.36967020077E-04 +4.33746080197E-04 -3.09751385602E-04 +3.90529497190E-04 +7.40253286684E-01 +1.27612267675E-02
2.82000000000E+09 +6.36943060027E-01 -1.60403448907E-01 -3.56994967987E-04 +3.72392068528E-04 -3.10007611223E-04 +4.04671666658E-04 +7.33496762674E-01 -7.37045025157E-03
2.82500000000E+09 +6.23745363969E-01 -1.76440190696E-01 -3.83961230431E-04 +5.85623928165E-04 -3.71100596536E-04 +5.83518805078E-04 +7.25179108062E-01 -2.82664919121E-02
2.83000000000E+09 +6.09423067487E-01 -1.93504750397E-01 -1.93613011335E-04 +7.35152496085E-04 -1.57222737624E-04 +6.16350012197E-04 +7.15502766067E-01 -4.85320956868E-02
2.83500000000E+09 +5.93270198099E-01 -2.12021809515E-01 -2.24947561545E-05 +8.76225185831E-04 -4.53676992130E-05 +8.39632530769E-04 +7.05269943979E-01 -6.87781364853E-02
2.84000000000E+09 +5.73752318423E-01 -2.30616981255E-01 +3.68813661230E-04 +6.80670828127E-04 +3.34270595603E-04 +6.60187412109E-04 +6.94122849691E-01 -8.95814520653E-02
2.84500000000E+09 +5.52453281645E-01 -2.48663658988E-01 +2.84040387109E-04 +4.32706622031E-04 +2.49510558287E-04 +4.48433977821E-04 +6.81602431213E-01 -1.10598365635E-01
2.85000000000E+09 +5.30220086133E-01 -2.66463556374E-01 +1.44348280499E-04 +5.63119847981E-04 +1.75569402010E-04 +5.48286937467E-04 +6.67530387071E-01 -1.31404221735E-01
2.85500000000E+09 +5.06424054033E-01 -2.83980073194E-01 +1.98883937034E-04 +6.78107369492E-04 +2.51432204160E-04 +6.45601388658E-04 +6.52509577950E-01 -1.51244161563E-01
2.86000000000E+09 +4.81867809910E-01 -3.00473640776E-01 +5.83852598077E-04 +6.67298567500E-04 +6.06286714248E-04 +6.82117280850E-04 +6.36631486529E-01 -1.71576309635E-01
2.86500000000E+09 +4.56728701779E-01 -3.15376964150E-01 +8.14844564394E-04 +3.59745411982E-04 +7.49193562443E-04 +3.59479757630E-04 +6.19254358753E-01 -1.91769623609E-01
2.87000000000E+09 +4.31727947666E-01 -3.28771209747E-01 +5.94355862481E-04 +1.40076445276E-04 +6.18926346455E-04 +1.89435231592E-04 +6.00677060252E-01 -2.11852995094E-01
2.87500000000E+09 +4.07261878544E-01 -3.40852956284E-01 +4.90306511162E-04 +2.60083848625E-04 +4.69629256868E-04 +3.12044814221E-04 +5.80426529751E-01 -2.31636493500E-01
2.88000000000E+09 +3.82537755402E-01 -3.52647041237E-01 +7.38722531943E-04 +4.41751056634E-04 +7.54725295238E-04 +3.01416349538E-04 +5.59300334469E-01 -2.50049099818E-01
2.88500000000E+09 +3.56364642386E-01 -3.63369865363E-01 +1.02883293599E-03 +1.25950371331E-04 +9.75185899359E-04 +1.45479706116E-04 +5.37256588877E-01 -2.68484788766E-01
2.89000000000E+09 +3.29159006327E-01 -3.72578645843E-01 +8.97702288857E-04 -2.45339287617E-04 +8.30752654362E-04 -2.21727829441E-04 +5.13184434607E-01 -2.86385495675E-01
2.89500000000E+09 +3.00887518712E-01 -3.80620408007E-01 +8.12940209784E-04 -4.27425437055E-04 +8.34417269418E-04 -3.20478983520E-04 +4.87907105117E-01 -3.04683523390E-01
2.90000000000E+09 +2.70537032384E-01 -3.87469586134E-01 +4.35349419743E-04 -3.16766310603E-04 +4.66249482884E-04 -2.94750151266E-04 +4.59246328871E-01 -3.22430821951E-01
2.90500000000E+09 +2.38338021202E-01 -3.91970880543E-01 +8.21552693841E-04 -2.98808879200E-04 +8.69225655185E-04 -2.97353674813E-04 +4.29595411713E-01 -3.37942943061E-01
2.91000000000E+09 +2.05812892406E-01 -3.93794183623E-01 +6.48588830829E-04 -7.63127410786E-04 +7.08985367955E-04 -8.16058990931E-04 +3.99578958313E-01 -3.52644948680E-01
2.91500000000E+09 +1.73071627487E-01 -3.94201076506E-01 +3.60921101870E-04 -5.97146426459E-04 +3.17210979261E-04 -5.67839695720E-04 +3.67224403897E-01 -3.65884995363E-01
2.92000000000E+09 +1.39705859845E-01 -3.92583210519E-01 +4.76701038703E-04 -6.35364572721E-04 +4.06958633317E-04 -6.24324496041E-04 +3.33441447057E-01 -3.76274367899E-01
2.92500000000E+09 +1.06513777845E-01 -3.88621114024E-01 +3.38361562267E-04 -1.07018416893E-03 +3.82157532359E-04 -1.00529188369E-03 +2.98005502771E-01 -3.84412180196E-01
2.93000000000E+09 +7.44684937641E-02 -3.82939406272E-01 -1.91106976280E-04 -9.03485121753E-04 -1.33772635052E-04 -9.37968735866E-04 +2.61733192969E-01 -3.91242415116E-01
2.93500000000E+09 +4.18427418888E-02 -3.76283414427E-01 -3.18338463466E-04 -4.51269684522E-04 -3.41899008175E-04 -4.43695357874E-04 +2.23518132360E-01 -3.96554452813E-01
2.94000000000E+09 +9.07546325030E-03 -3.66595738347E-01 -8.04638238498E-06 -2.47670812988E-04 +9.52692313722E-07 -2.55893283579E-04 +1.83835558249E-01 -4.00223462980E-01
2.94500000000E+09 -2.27055817314E-02 -3.54678554128E-01 +1.79464673650E-04 -6.24133950951E-04 +1.47524978879E-04 -6.28243269293E-04 +1.42535739799E-01 -4.00604496121E-01
2.95000000000E+09 -5.48631185298E-02 -3.40024500877E-01 -6.89091030942E-05 -7.59568725552E-04 -7.20060836500E-05 -6.96655751850E-04 +1.02524727117E-01 -3.97035879026E-01
2.95500000000E+09 -8.58790982128E-02 -3.21688818711E-01 -3.02953556730E-04 -6.30375723817E-04 -3.02621574518E-04 -6.59957088838E-04 +6.23650041048E-02 -3.92096467677E-01
2.96000000000E+09 -1.15160026211E-01 -3.00951458070E-01 -4.30379422340E-04 -5.32069594434E-04 -3.97036421801E-04 -6.00103690122E-04 +2.11859445329E-02 -3.82638985750E-01
2.96500000000E+09 -1.42988027323E-01 -2.78477675896E-01 -4.03328034886E-04 -1.46157979870E-04 -3.82356997110E-04 -1.86108969266E-04 -1.83482127610E-02 -3.70984423892E-01
2.97000000000E+09 -1.70197622156E-01 -2.53462005469E-01 -7.68045142123E-06 -2.60624387347E-04 +2.36766426375E-05 -2.28854285029E-04 -6.00420843465E-02 -3.57413968608E-01
2.97500000000E+09 -1.95091770591E-01 -2.26013706275E-01 -7.46513567088E-05 -6.62059127721E-04 -4.31799425342E-05 -6.18256576856E-04 -9.96231187001E-02 -3.39065368322E-01
2.98000000000E+09 -2.18293130033E-01 -1.97454367785E-01 -5.12958123460E-04 -6.66499689909E-04 -4.64200401910E-04 -6.41154859080E-04 -1.38578579790E-01 -3.19305700271E-01
2.98500000000E+09 -2.39517693002E-01 -1.68179898055E-01 -3.60438546174E-04 -3.91731437878E-04 -3.04569427963E-04 -3.65953449653E-04 -1.75692552956E-01 -2.95613787268E-01
2.99000000000E+09 -2.59534204133E-01 -1.37923285937E-01 -5.03794701833E-04 -7.21892750858E-04 -5.01576200821E-04 -7.19726969065E-04 -2.11104158958E-01 -2.69185056594E-01
2.99500000000E+09 -2.77425862667E-01 -1.07064174396E-01 -9.22853489723E-04 -3.77348741771E-04 -9.38116656124E-04 -3.96752477101E-04 -2.44963809524E-01 -2.38283290060E-01
3.00000000000E+09 -2.93869977346E-01 -7.56351930064E-02 -8.61633036907E-04 -9.72212392643E-05 -8.30186976066E-04 -9.01716668622E-05 -2.74077685139E-01 -2.06147073069E-01
3.00500000000E+09 -3.07717161766E-01 -4.41977193735E-02 -8.51787107747E-04 +1.49824599040E-05 -7.88235182702E-04 -5.86267010697E-05 -3.02909416440E-01 -1.73275750559E-01
3.01000000000E+09 -3.19068161221E-01 -1.28888805097E-02 -7.60437516142E-04 +9.46035745172E-05 -7.77250798402E-04 +4.87163567273E-05 -3.28870325268E-01 -1.37724752389E-01
3.01500000000E+09 -3.28402644977E-01 +1.78730442061E-02 -6.71947787807E-04 +2.22039767900E-04 -6.18601724274E-04 +1.25668425348E-04 -3.52085908959E-01 -1.01224134184E-01
3.02000000000E+09 -3.34959254932E-01 +4.94465489461E-02 -6.34731979235E-04 +2.61788815007E-04 -6.56353987556E-04 +2.32514072809E-04 -3.72138307149E-01 -6.33035677772E-02
3.02500000000E+09 -3.37825261475E-01 +8.01079247463E-02 -3.81648211889E-04 +2.31631054170E-04 -3.87491945197E-04 +1.64351488682E-04 -3.88475133304E-01 -2.43581214414E-02
3.03000000000E+09 -3.38221059520E-01 +1.09999913900E-01 -7.64646447487E-04 +1.15781619274E-04 -7.75196763865E-04 +6.08389313462E-06 -4.01837206975E-01 +1.48357967482E-02
3.03500000000E+09 -3.36197461225E-01 +1.39329855208E-01 -8.32240717884E-04 +6.92472981180E-04 -8.80630207847E-04 +7.05575691151E-04 -4.12797231748E-01 +5.45234378262E-02
3.04000000000E+09 -3.32191711754E-01 +1.68822614206E-01 -1.92837524390E-04 +4.64464430509E-04 -2.41627523212E-04 +4.66074401950E-04 -4.20851124989E-01 +9.43963801487E-02
3.04500000000E+09 -3.25455749455E-01 +1.97992034900E-01 -6.03291736666E-04 +5.99809750769E-04 -6.38786038416E-04 +6.63046719109E-04 -4.25840184056E-01 +1.33834830564E-01
3.05000000000E+09 -3.16930291524E-01 +2.26773925116E-01 -6.62710253738E-05 +8.17967777367E-04 -5.49021857633E-05 +9.10843472950E-04 -4.28334524508E-01 +1.72229722588E-01
3.05500000000E+09 -3.06533493657E-01 +2.54575357757E-01 -1.14413706799E-04 +5.38087078432E-04 -7.10803905264E-05 +5.95304700430E-04 -4.29101621379E-01 +2.09637315554E-01
3.06000000000E+09 -2.95757594799E-01 +2.81703557404E-01 +2.36411879864E-05 +4.68717268634E-04 +5.55670828970E-05 +5.15864171782E-04 -4.27999254841E-01 +2.47382564040E-01
3.06500000000E+09 -2.83580798465E-01 +3.08607492150E-01 -6.79875629199E-05 +4.95366072539E-04 -4.49896865610E-05 +4.75516366959E-04 -4.23976461963E-01 +2.85000204453E-01
3.07000000000E+09 -2.70504485318E-01 +3.33791138683E-01 +7.50624876732E-05 +7.26581441221E-04 +1.52421068919E-05 +7.18876378376E-04 -4.17265885257E-01 +3.20733876987E-01
