# Hz S RI R 50
! CMT, C1220, 16058040, 17.2.0/1
! Date: 15/08/2018 10:52:56
! Data: Format (Calibration Info)
! Freq                      S11: Re/Im (F2)                       S21: Re/Im (F2)                       S12: Re/Im (F2)                       S22: Re/Im (F2)            
2.50000000000E+09 +5.79697993067E-01 +6.52588804188E-01 -8.78606133385E-04 +6.62767721641E-04 -1.02567026147E-03 +6.97167458791E-04 +5.61192504753E-01 +7.26910633092E-01
2.50500000000E+09 +5.87379567103E-01 +6.43540619022E-01 -8.03867261159E-04 +7.47766313345E-04 -7.98337508631E-04 +8.25929291998E-04 +5.66905414018E-01 +7.21296706158E-01
2.51000000000E+09 +5.95739567291E-01 +6.34182151976E-01 -6.95707805566E-04 +7.97738960834E-04 -7.14387745673E-04 +8.61802396554E-04 +5.72714334314E-01 +7.15884220047E-01
2.51500000000E+09 +6.04196109733E-01 +6.25335107744E-01 -6.45024659142E-04 +8.91032783629E-04 -6.40044882236E-04 +8.75344587329E-04 +5.78097002809E-01 +7.10141659646E-01
2.52000000000E+09 +6.11854452634E-01 +6.16990195809E-01 -5.23189777119E-04 +9.74308339627E-04 -5.91556643561E-04 +8.72074842463E-04 +5.83023193767E-01 +7.03975547670E-01
2.52500000000E+09 +6.18026878124E-01 +6.09846437241E-01 -3.99897038145E-04 +9.04058522655E-04 -4.51123105939E-04 +8.97021334725E-04 +5.88506354454E-01 +6.97518613143E-01
2.53000000000E+09 +6.22941255975E-01 +6.03777477359E-01 -3.91302317715E-04 +9.37174601228E-04 -4.74591251857E-04 +9.81447941824E-04 +5.94470352446E-01 +6.90784452421E-01
2.53500000000E+09 +6.26656230135E-01 +5.98337875152E-01 -3.61381888097E-04 +1.01286444719E-03 -3.80221432018E-04 +1.03917078027E-03 +6.00290605436E-01 +6.84229733104E-01
2.54000000000E+09 +6.29817619237E-01 +5.92599722235E-01 -2.25545471039E-04 +1.19866663182E-03 -2.23013992540E-04 +1.17649622689E-03 +6.06147175219E-01 +6.77986792548E-01
2.54500000000E+09 +6.32906685174E-01 +5.86673115543E-01 -5.73443237232E-05 +1.18746746198E-03 -1.28224489148E-04 +1.20792405979E-03 +6.11849951987E-01 +6.71721436923E-01
2.55000000000E+09 +6.36809919044E-01 +5.79627716710E-01 +1.73732129159E-04 +1.17665206641E-03 +1.77464678248E-06 +1.27954101083E-03 +6.16940853028E-01 +6.65735453161E-01
2.55500000000E+09 +6.41831276623E-01 +5.71196366725E-01 +2.65932306056E-04 +1.03928117337E-03 +2.29705610882E-04 +1.17793170001E-03 +6.22148567486E-01 +6.59488917363E-01
2.56000000000E+09 +6.48440526131E-01 +5.62126982141E-01 +2.34849941897E-04 +1.00948847198E-03 +3.42350674558E-04 +1.14682475546E-03 +6.27254125524E-01 +6.52592727838E-01
2.56500000000E+09 +6.56366688961E-01 +5.51934796325E-01 +2.78459691423E-04 +1.02798526121E-03 +5.30444985506E-04 +1.16668691092E-03 +6.32503679685E-01 +6.45421147558E-01
2.57000000000E+09 +6.64889593699E-01 +5.41472940855E-01 +4.46972974370E-04 +1.04813322835E-03 +6.64056285921E-04 +8.79904619109E-04 +6.38131440525E-01 +6.37966284007E-01
2.57500000000E+09 +6.72963149318E-01 +5.31269563593E-01 +6.34730683606E-04 +1.00778176424E-03 +6.62224113421E-04 +7.90402188165E-04 +6.43826936402E-01 +6.30538053036E-01
2.58000000000E+09 +6.79789956004E-01 +5.22349071056E-01 +7.52066881896E-04 +9.38728626638E-04 +6.94030063893E-04 +7.78192319294E-04 +6.49288423104E-01 +6.23188767604E-01
2.58500000000E+09 +6.85512007186E-01 +5.14046320482E-01 +8.73559850254E-04 +7.99716150880E-04 +6.86213033003E-04 +7.00477430587E-04 +6.54592514556E-01 +6.15492845320E-01
2.59000000000E+09 +6.89601347611E-01 +5.06681763506E-01 +8.75564300634E-04 +6.31068612559E-04 +7.54374855981E-04 +6.30790602258E-04 +6.59516233071E-01 +6.07917321477E-01
2.59500000000E+09 +6.92533181095E-01 +4.99369761278E-01 +8.86217323541E-04 +6.21975265047E-04 +8.90438419941E-04 +6.81156374969E-04 +6.64552396950E-01 +5.99813512352E-01
2.60000000000E+09 +6.94395713903E-01 +4.91318671468E-01 +9.75600686841E-04 +4.69072428699E-04 +9.94249210999E-04 +4.93722942326E-04 +6.69771480430E-01 +5.91682283494E-01
2.60500000000E+09 +6.96581126731E-01 +4.81870549220E-01 +1.00432993263E-03 +2.67886306739E-04 +9.68932798663E-04 +2.34248066814E-04 +6.75564726761E-01 +5.83135912036E-01
2.61000000000E+09 +6.98932766108E-01 +4.70331609332E-01 +8.22481424838E-04 +1.28495720839E-04 +8.38524885934E-04 +2.16102924026E-04 +6.80861251481E-01 +5.74172320699E-01
2.61500000000E+09 +7.02619679991E-01 +4.56805361645E-01 +8.46591529777E-04 +1.26126302180E-04 +8.35394102296E-04 +1.63638945162E-04 +6.85710422314E-01 +5.65389750360E-01
2.62000000000E+09 +7.07129334081E-01 +4.41105668980E-01 +8.17062023927E-04 +6.03406339442E-05 +8.63040966461E-04 +4.07012199382E-05 +6.90421514476E-01 +5.56533537047E-01
2.62500000000E+09 +7.12465242314E-01 +4.24362259131E-01 +7.35431883000E-04 +9.09906379689E-05 +7.80130489203E-04 +4.23343605720E-05 +6.95246545072E-01 +5.48001005561E-01
2.63000000000E+09 +7.18166556837E-01 +4.07501894253E-01 +8.29493530618E-04 +1.34930081391E-04 +8.08581549415E-04 +2.29067545912E-05 +7.00086680093E-01 +5.38910246602E-01
2.63500000000E+09 +7.23331889073E-01 +3.91646322936E-01 +8.73907040580E-04 -5.58789110367E-05 +8.02243451852E-04 -1.17643262691E-04 +7.04905054721E-01 +5.29641313796E-01
2.64000000000E+09 +7.27824417540E-01 +3.77321206439E-01 +7.66773256477E-04 -1.09424122117E-04 +6.44525043530E-04 -1.18078271245E-04 +7.09664051109E-01 +5.20293309288E-01
2.64500000000E+09 +7.31274274234E-01 +3.65355424182E-01 +6.77349784561E-04 -1.84206178871E-04 +6.10688651877E-04 -1.27110184035E-04 +7.14238036787E-01 +5.10657194632E-01
2.65000000000E+09 +7.33434505178E-01 +3.55630558756E-01 +6.12989295243E-04 -1.80265472286E-04 +6.26270053545E-04 -1.13529083149E-04 +7.18847306922E-01 +5.00731492652E-01
2.65500000000E+09 +7.35221218986E-01 +3.46445095675E-01 +4.90034360521E-04 -1.00650736927E-04 +5.23766798045E-04 -8.31856950856E-05 +7.23015066425E-01 +4.90236677189E-01
2.66000000000E+09 +7.36440274453E-01 +3.37532293445E-01 +5.65208972619E-04 -9.84056106836E-06 +5.62873478951E-04 +9.46306876883E-06 +7.26883682324E-01 +4.79122414060E-01
2.66500000000E+09 +7.37521737847E-01 +3.27718001075E-01 +6.33306240561E-04 -3.21124130325E-06 +6.25516009990E-04 -2.18877942185E-05 +7.31083277648E-01 +4.68227393901E-01
2.67000000000E+09 +7.38785708803E-01 +3.15860436673E-01 +6.89810470020E-04 +4.32000656985E-05 +6.74545550587E-04 -4.71772387448E-05 +7.35742654396E-01 +4.57558709930E-01
2.67500000000E+09 +7.40002944453E-01 +3.01700584172E-01 +8.69821398707E-04 -1.44539823007E-05 +7.61687079785E-04 -1.03544384515E-04 +7.40220629546E-01 +4.46525827274E-01
2.68000000000E+09 +7.41232810364E-01 +2.85875436127E-01 +8.84242665774E-04 -1.73241650981E-04 +7.75107178104E-04 -2.21821301979E-04 +7.44612806422E-01 +4.35449438662E-01
2.68500000000E+09 +7.42616556644E-01 +2.69109043552E-01 +7.13101381210E-04 -2.28066684535E-04 +7.05322464997E-04 -2.27735015716E-04 +7.47881703050E-01 +4.23797141635E-01
2.69000000000E+09 +7.44003956816E-01 +2.51753052348E-01 +7.68130460281E-04 -1.02323363298E-04 +7.24491320202E-04 -1.13711012578E-04 +7.50683981516E-01 +4.11804674209E-01
2.69500000000E+09 +7.45117704411E-01 +2.35241214412E-01 +9.29360099343E-04 -6.77117654633E-05 +9.01182703062E-04 -9.99209384263E-05 +7.53686865956E-01 +3.99427590387E-01
2.70000000000E+09 +7.46215850701E-01 +2.19781572467E-01 +1.14872199158E-03 -2.76077657294E-04 +1.06201570733E-03 -2.49341801254E-04 +7.56850539133E-01 +3.86401848847E-01
2.70500000000E+09 +7.46818339263E-01 +2.05557720962E-01 +1.22095765263E-03 -4.23864009815E-04 +1.18471537753E-03 -3.67519444695E-04 +7.60190253175E-01 +3.72882331935E-01
2.71000000000E+09 +7.47016367442E-01 +1.92486810016E-01 +1.22184133901E-03 -7.09402058870E-04 +1.20203991112E-03 -6.64549008102E-04 +7.62943040260E-01 +3.59514413079E-01
2.71500000000E+09 +7.46984617586E-01 +1.79885916808E-01 +1.09312462669E-03 -8.16009003465E-04 +1.20612693731E-03 -9.07234433985E-04 +7.65347297341E-01 +3.46840393356E-01
2.72000000000E+09 +7.46716887203E-01 +1.67062052556E-01 +9.93164884219E-04 -9.83209911623E-04 +1.00968621231E-03 -1.10111537769E-03 +7.67570617133E-01 +3.34254155204E-01
2.72500000000E+09 +7.46551664306E-01 +1.52966158201E-01 +8.15256621926E-04 -1.09392796514E-03 +6.76289437166E-04 -1.12629859095E-03 +7.68868219932E-01 +3.20672204036E-01
2.73000000000E+09 +7.45581797211E-01 +1.37265289772E-01 +8.39694304596E-04 -9.26192970114E-04 +6.98778516547E-04 -9.05246179463E-04 +7.70395478558E-01 +3.06521997430E-01
2.73500000000E+09 +7.43878254205E-01 +1.19704935978E-01 +1.02132111683E-03 -1.15820588160E-03 +8.61712721630E-04 -1.01539445859E-03 +7.71076070547E-01 +2.91666623772E-01
2.74000000000E+09 +7.41357143741E-01 +1.01263167687E-01 +9.12649752391E-04 -1.37094264022E-03 +8.85714268505E-04 -1.16374229940E-03 +7.72237401239E-01 +2.76866490204E-01
2.74500000000E+09 +7.37972971185E-01 +8.21845990262E-02 +7.53602705599E-04 -1.46112570760E-03 +9.50645037497E-04 -1.35638255257E-03 +7.73646128471E-01 +2.62139574053E-01
2.75000000000E+09 +7.33525722128E-01 +6.33357312986E-02 +7.95618282552E-04 -1.61251415774E-03 +1.01475666708E-03 -1.59635219617E-03 +7.74866550305E-01 +2.46956884484E-01
2.75500000000E+09 +7.28205275462E-01 +4.55034452855E-02 +6.95439245436E-04 -2.02523155349E-03 +8.31608572383E-04 -2.17325899045E-03 +7.75176586722E-01 +2.31968859112E-01
2.76000000000E+09 +7.23194937357E-01 +2.85380959592E-02 +3.62314759291E-04 -2.11680783610E-03 +3.47479864219E-04 -2.28542038246E-03 +7.74887763739E-01 +2.16347816741E-01
2.76500000000E+09 +7.17630888900E-01 +1.18038059006E-02 -5.02284201134E-05 -2.19424118279E-03 -1.17299646219E-04 -2.32973045101E-03 +7.74135164167E-01 +2.00180869053E-01
2.77000000000E+09 +7.12177557347E-01 -5.38653054494E-03 -3.78948069285E-04 -2.05689932648E-03 -4.40080754117E-04 -2.11926419238E-03 +7.73823242264E-01 +1.83123480907E-01
2.77500000000E+09 +7.06469158659E-01 -2.34288826996E-02 -3.43850303180E-04 -1.67051187453E-03 -4.24504805686E-04 -1.68545758176E-03 +7.72436460831E-01 +1.65011167310E-01
2.78000000000E+09 +7.00187246452E-01 -4.27642653004E-02 -3.33381091285E-05 -1.91026471852E-03 -1.51831494041E-04 -1.95350657275E-03 +7.70761016656E-01 +1.47002588438E-01
2.78500000000E+09 +6.93473461157E-01 -6.33333330612E-02 -2.32011360072E-04 -2.33537794773E-03 -3.36808776688E-04 -2.32671395222E-03 +7.68686151156E-01 +1.29147166864E-01
2.79000000000E+09 +6.86346581779E-01 -8.52676979138E-02 -6.22320201343E-04 -2.49183319952E-03 -6.37109048840E-04 -2.38386271124E-03 +7.65727007484E-01 +1.11713322272E-01
2.79500000000E+09 +6.78150777355E-01 -1.07640859541E-01 -8.78432462906E-04 -2.69177842550E-03 -8.15459585161E-04 -2.54688787932E-03 +7.62194572261E-01 +9.34525401443E-02
2.80000000000E+09 +6.69168644741E-01 -1.29232343314E-01 -1.40007095558E-03 -2.76380671125E-03 -1.27470988956E-03 -2.65260466984E-03 +7.57508635858E-01 +7.44682887295E-02
2.80500000000E+09 +6.59689500510E-01 -1.49526331237E-01 -1.56645874417E-03 -2.59705120400E-03 -1.48946994507E-03 -2.64944384039E-03 +7.51989559793E-01 +5.48992585628E-02
2.81000000000E+09 +6.48912712328E-01 -1.68001772258E-01 -1.98401433977E-03 -2.73161986416E-03 -1.97127058731E-03 -2.95654607256E-03 +7.45371867494E-01 +3.54784328797E-02
2.81500000000E+09 +6.37478345172E-01 -1.84090713267E-01 -2.58802907100E-03 -2.63164892800E-03 -2.67917656982E-03 -2.61916472069E-03 +7.38984192794E-01 +1.57357113671E-02
2.82000000000E+09 +6.25456049889E-01 -1.99435516615E-01 -2.97228946348E-03 -2.58969711749E-03 -3.00557280329E-03 -2.42362575637E-03 +7.31586175886E-01 -4.92566884463E-03
2.82500000000E+09 +6.11502264525E-01 -2.14026338935E-01 -3.51132281750E-03 -2.34377798034E-03 -3.38039844414E-03 -2.14704626706E-03 +7.22729329215E-01 -2.54500690992E-02
2.83000000000E+09 +5.95877797283E-01 -2.28909142321E-01 -4.09295097137E-03 -2.05056343971E-03 -3.88334971621E-03 -1.96782776682E-03 +7.12705986099E-01 -4.53619831422E-02
2.83500000000E+09 +5.78780519801E-01 -2.45327684233E-01 -4.69844817182E-03 -1.46800297122E-03 -4.41525487083E-03 -1.45293095346E-03 +7.02398823560E-01 -6.53333318967E-02
2.84000000000E+09 +5.58945467516E-01 -2.63863824768E-01 -4.85080225098E-03 -7.30768035228E-04 -4.84200472606E-03 -8.66874169331E-04 +6.90990537739E-01 -8.53763084572E-02
2.84500000000E+09 +5.36438627040E-01 -2.83692266176E-01 -4.99747596095E-03 -1.04061316122E-04 -5.03157065481E-03 -2.71896511980E-04 +6.78956385888E-01 -1.05845879232E-01
2.85000000000E+09 +5.12491530764E-01 -3.04374546628E-01 -5.05314702170E-03 +2.43097397546E-04 -5.07348607807E-03 +2.25642898686E-04 +6.65346198152E-01 -1.26606363589E-01
2.85500000000E+09 +4.87232075080E-01 -3.24637642710E-01 -5.67553151721E-03 +8.28890981901E-04 -5.65581645845E-03 +8.46270130662E-04 +6.49991862790E-01 -1.47231848214E-01
2.86000000000E+09 +4.62128043961E-01 -3.43384258678E-01 -5.55217379984E-03 +1.79526670894E-03 -5.42027484805E-03 +1.73832516350E-03 +6.33789843659E-01 -1.66391153883E-01
2.86500000000E+09 +4.38064116415E-01 -3.60159678794E-01 -5.65198662634E-03 +2.27971760867E-03 -5.63504537219E-03 +2.22892061264E-03 +6.17259182021E-01 -1.86787577799E-01
2.87000000000E+09 +4.15025807662E-01 -3.75407349504E-01 -5.81191904758E-03 +3.43509120291E-03 -5.82022594614E-03 +3.45461067916E-03 +5.98833515067E-01 -2.07053546899E-01
2.87500000000E+09 +3.92036561466E-01 -3.88386050588E-01 -5.32523178593E-03 +4.43789960945E-03 -5.28002879083E-03 +4.53219075288E-03 +5.78504378284E-01 -2.26690415369E-01
2.88000000000E+09 +3.69088541378E-01 -3.99708337939E-01 -4.76245740420E-03 +5.12497519188E-03 -4.45877394374E-03 +5.12391582390E-03 +5.57689178384E-01 -2.45065935167E-01
2.88500000000E+09 +3.44198907611E-01 -4.09664739954E-01 -4.52336389051E-03 +6.09686435916E-03 -4.14851255864E-03 +5.82803648487E-03 +5.35346168077E-01 -2.63719418334E-01
2.89000000000E+09 +3.17606904192E-01 -4.18443358844E-01 -3.53753890664E-03 +7.09234553333E-03 -3.48847960062E-03 +6.63631933446E-03 +5.11150877076E-01 -2.81970821346E-01
2.89500000000E+09 +2.87502467801E-01 -4.25878077512E-01 -2.44350529495E-03 +7.54342882601E-03 -2.76310904781E-03 +7.08965095543E-03 +4.84140713593E-01 -2.99991539102E-01
2.90000000000E+09 +2.55685171696E-01 -4.32180160640E-01 -1.90136201715E-03 +7.84601295020E-03 -2.17382826916E-03 +7.73798936707E-03 +4.56571366786E-01 -3.15646978583E-01
2.90500000000E+09 +2.21160421540E-01 -4.38032664539E-01 -8.59170096316E-04 +8.55278079983E-03 -9.65187775440E-04 +8.73469823406E-03 +4.28015081161E-01 -3.31166883335E-01
2.91000000000E+09 +1.85047914593E-01 -4.41765790766E-01 +5.96404640266E-05 +8.74259069336E-03 +2.41347266276E-04 +8.67771307462E-03 +3.98531935334E-01 -3.45576329910E-01
2.91500000000E+09 +1.49630003619E-01 -4.44079873577E-01 +1.36156087565E-03 +9.91854561364E-03 +1.51225381170E-03 +9.45076443191E-03 +3.67470977921E-01 -3.58467877573E-01
2.92000000000E+09 +1.14070646948E-01 -4.44616801844E-01 +3.73845346955E-03 +9.64815455930E-03 +3.39532296922E-03 +9.06958121073E-03 +3.34665969534E-01 -3.70464357019E-01
2.92500000000E+09 +7.97932398633E-02 -4.43542616666E-01 +5.03557787928E-03 +8.85261096921E-03 +4.46143521510E-03 +8.59982248725E-03 +2.99085786509E-01 -3.78875097053E-01
2.93000000000E+09 +4.63393166056E-02 -4.39643901672E-01 +6.36104635144E-03 +7.95795487398E-03 +5.76908723202E-03 +8.12442204818E-03 +2.63085222674E-01 -3.86213615669E-01
2.93500000000E+09 +1.37155800418E-02 -4.33469012811E-01 +7.40680046547E-03 +7.29978906472E-03 +7.12499527253E-03 +7.67533910150E-03 +2.25025246303E-01 -3.91286010572E-01
2.94000000000E+09 -1.91591679012E-02 -4.24543938024E-01 +8.20673368195E-03 +6.43694102668E-03 +8.07926179149E-03 +6.63691319838E-03 +1.86314089093E-01 -3.95375847395E-01
2.94500000000E+09 -5.15479826508E-02 -4.12140823730E-01 +9.86316634812E-03 +5.60172612614E-03 +9.68801247769E-03 +5.83417515310E-03 +1.45672553662E-01 -3.95686821500E-01
2.95000000000E+09 -8.42711564560E-02 -3.97918904016E-01 +1.07663110239E-02 +3.76654575330E-03 +1.05399830964E-02 +4.19619976704E-03 +1.06349433011E-01 -3.93652050465E-01
2.95500000000E+09 -1.18576365112E-01 -3.80267388096E-01 +1.13553744771E-02 +2.04703494690E-03 +1.15606226686E-02 +2.56631478731E-03 +6.67886106206E-02 -3.89001829982E-01
2.96000000000E+09 -1.51913670816E-01 -3.58892875235E-01 +1.12114682049E-02 +2.06290093281E-04 +1.17728645843E-02 +3.69145227229E-04 +2.57775056418E-02 -3.82287692664E-01
2.96500000000E+09 -1.83213725200E-01 -3.35802814659E-01 +1.12586731307E-02 -9.30772498026E-04 +1.16675938144E-02 -1.18126315402E-03 -1.53355234830E-02 -3.70521362950E-01
2.97000000000E+09 -2.13443350590E-01 -3.11531995761E-01 +1.14150587073E-02 -2.27767666459E-03 +1.12701012954E-02 -2.65332777422E-03 -5.58649549097E-02 -3.56762901668E-01
2.97500000000E+09 -2.41367382967E-01 -2.85647781882E-01 +1.18354331869E-02 -4.15374256445E-03 +1.14289829058E-02 -4.20484681047E-03 -9.56468427746E-02 -3.39726140284E-01
2.98000000000E+09 -2.67996716834E-01 -2.59290428554E-01 +1.08001726575E-02 -6.63490203199E-03 +1.06683763730E-02 -6.17350467605E-03 -1.33871679470E-01 -3.20507987862E-01
2.98500000000E+09 -2.92831957111E-01 -2.30216343260E-01 +9.66532726312E-03 -8.24692663935E-03 +1.01226769331E-02 -7.96945521081E-03 -1.70457430989E-01 -2.98633200031E-01
2.99000000000E+09 -3.14634192600E-01 -1.99567159663E-01 +7.73768541883E-03 -9.34195284651E-03 +8.31544501624E-03 -9.64583515397E-03 -2.07100269931E-01 -2.73720878124E-01
2.99500000000E+09 -3.34404910170E-01 -1.68399258604E-01 +6.73171791086E-03 -1.01260408372E-02 +6.71081688008E-03 -1.07614515220E-02 -2.40389524833E-01 -2.45019715032E-01
3.00000000000E+09 -3.53545773293E-01 -1.35596591028E-01 +5.22267816714E-03 -1.10335599672E-02 +4.68682785367E-03 -1.13666803817E-02 -2.72426103641E-01 -2.13899183489E-01
3.00500000000E+09 -3.69798003245E-01 -1.01093030088E-01 +3.75035016695E-03 -1.22188934909E-02 +3.11360469144E-03 -1.18907268117E-02 -3.01476835626E-01 -1.81474696632E-01
3.01000000000E+09 -3.83511411796E-01 -6.71013277572E-02 +1.19059369262E-03 -1.29404269845E-02 +1.16322350281E-03 -1.23052569116E-02 -3.29728871631E-01 -1.46823561363E-01
3.01500000000E+09 -3.96019515284E-01 -3.35285566178E-02 -1.07564865955E-03 -1.20193226938E-02 -7.65369651859E-04 -1.17836609275E-02 -3.54423514727E-01 -1.10668806441E-01
3.02000000000E+09 -4.05771974848E-01 -1.13148000111E-04 -2.21356925298E-03 -1.11252470684E-02 -1.93254144834E-03 -1.11683011403E-02 -3.75875960589E-01 -7.17233206105E-02
3.02500000000E+09 -4.12843072358E-01 +3.23336003954E-02 -3.49651172069E-03 -1.13719881365E-02 -3.40323717089E-03 -1.14166206049E-02 -3.92820395161E-01 -3.31770036237E-02
3.03000000000E+09 -4.16493993071E-01 +6.50017645344E-02 -5.48317338203E-03 -1.01178716813E-02 -5.36803856022E-03 -1.00649799962E-02 -4.07808438196E-01 +6.66513230242E-03
3.03500000000E+09 -4.16367763858E-01 +9.64892393310E-02 -6.46177795298E-03 -9.65238649185E-03 -6.14639335850E-03 -9.82654471552E-03 -4.19260762876E-01 +4.61853475248E-02
3.04000000000E+09 -4.13209468518E-01 +1.27603423063E-01 -8.31627551266E-03 -7.84009774856E-03 -8.19049899490E-03 -8.35212799271E-03 -4.28248576141E-01 +8.68445870906E-02
3.04500000000E+09 -4.07301061151E-01 +1.58574748857E-01 -8.49248696421E-03 -6.24260686510E-03 -8.77144081791E-03 -6.70324443040E-03 -4.33962728124E-01 +1.26330234757E-01
3.05000000000E+09 -4.00029968297E-01 +1.90935413533E-01 -8.85019218027E-03 -5.06012491988E-03 -9.49515598017E-03 -5.11348754756E-03 -4.37288916172E-01 +1.65601884991E-01
3.05500000000E+09 -3.89324437862E-01 +2.25046329265E-01 -9.16193098229E-03 -4.06357551518E-03 -9.60938918122E-03 -3.52676131653E-03 -4.38237115733E-01 +2.03878150022E-01
3.06000000000E+09 -3.77057408805E-01 +2.57908007894E-01 -9.73862670519E-03 -3.01989059363E-03 -9.50212480864E-03 -2.39112424862E-03 -4.36882868686E-01 +2.40919691114E-01
3.06500000000E+09 -3.63596172851E-01 +2.91175575937E-01 -1.03474496249E-02 -1.19385932781E-03 -9.67041749130E-03 -1.12708949824E-03 -4.34848018059E-01 +2.78083682584E-01
3.07000000000E+09 -3.49331078309E-01 +3.21798531614E-01 -9.64753956211E-03 +5.93418261929E-04 -9.37690811605E-03 +1.88252490454E-06 -4.28224674852E-01 +3.15089147542E-01
