# Hz S RI R 50
! CMT, C1220, 16058040, 17.2.0/1
! Date: 15/08/2018 09:57:42
! Data: Format (Calibration Info)
! Freq                      S11: Re/Im (F2)                       S21: Re/Im (F2)                       S12: Re/Im (F2)                       S22: Re/Im (F2)            
2.50000000000E+09 +5.97934759247E-01 +6.32962859275E-01 -2.64280222726E-04 -9.86077718375E-04 -2.89931882693E-04 -1.02741487519E-03 +5.77368574725E-01 +7.13766079215E-01
2.50500000000E+09 +6.04101677310E-01 +6.25589105359E-01 -3.04359089128E-04 -9.34978940749E-04 -3.82428751160E-04 -9.30238056948E-04 +5.83008993487E-01 +7.08120628893E-01
2.51000000000E+09 +6.10708361938E-01 +6.17934904290E-01 -3.46827395415E-04 -9.24802553077E-04 -4.19864200404E-04 -8.83447205899E-04 +5.88512341520E-01 +7.02784158262E-01
2.51500000000E+09 +6.17294826755E-01 +6.10179969144E-01 -4.61241074789E-04 -9.67387880158E-04 -4.77403142057E-04 -9.17621033895E-04 +5.93574613645E-01 +6.97469605991E-01
2.52000000000E+09 +6.23517893173E-01 +6.02240308063E-01 -6.35566647959E-04 -9.58946008983E-04 -5.67391263703E-04 -9.27573369054E-04 +5.98556703561E-01 +6.91530613894E-01
2.52500000000E+09 +6.29155365959E-01 +5.94664973047E-01 -7.87129191612E-04 -8.43813814970E-04 -7.76657801924E-04 -8.66226129477E-04 +6.04252190280E-01 +6.85078362567E-01
2.53000000000E+09 +6.34445832680E-01 +5.87459983748E-01 -8.71111767379E-04 -5.92034167819E-04 -8.93218047475E-04 -6.59826139145E-04 +6.10175241269E-01 +6.77733112067E-01
2.53500000000E+09 +6.39176856775E-01 +5.80616189648E-01 -7.01104782946E-04 -5.24296455916E-04 -7.62576874124E-04 -4.96860902216E-04 +6.16034542383E-01 +6.70779179761E-01
2.54000000000E+09 +6.43702156203E-01 +5.74025745542E-01 -8.33798343805E-04 -6.06687762965E-04 -7.90645846487E-04 -6.32369340014E-04 +6.21874777881E-01 +6.64078862348E-01
2.54500000000E+09 +6.48225412940E-01 +5.67340448762E-01 -9.63499582326E-04 -5.63412147974E-04 -9.55532110371E-04 -6.22335172915E-04 +6.27716926374E-01 +6.57580086461E-01
2.55000000000E+09 +6.52781115998E-01 +5.60493037325E-01 -1.07742679985E-03 -4.28753396713E-04 -1.10880011163E-03 -4.95290169576E-04 +6.32793521354E-01 +6.51524039280E-01
2.55500000000E+09 +6.57681575565E-01 +5.53169579331E-01 -1.06388254425E-03 -1.99147077378E-04 -1.22094795839E-03 -2.84380566570E-04 +6.37800391261E-01 +6.45208522080E-01
2.56000000000E+09 +6.63178210920E-01 +5.45687749898E-01 -9.54351361430E-04 -1.43563223472E-04 -1.13673405115E-03 -7.77382585303E-05 +6.43040342557E-01 +6.38034172356E-01
2.56500000000E+09 +6.69181828285E-01 +5.37292676955E-01 -8.68558511154E-04 -1.89793415019E-04 -1.01353726993E-03 -5.07009643112E-05 +6.48219273663E-01 +6.30529192859E-01
2.57000000000E+09 +6.75422575671E-01 +5.28609630888E-01 -1.01349061163E-03 -3.35863915362E-04 -1.04054734000E-03 -9.89485638201E-05 +6.53798021527E-01 +6.22612572068E-01
2.57500000000E+09 +6.81644488237E-01 +5.19440431572E-01 -1.35844810266E-03 -1.46892467014E-04 -1.17525745439E-03 +4.50023301471E-05 +6.59320981084E-01 +6.14680566759E-01
2.58000000000E+09 +6.87227027478E-01 +5.10658869948E-01 -1.31608442494E-03 +1.91518101000E-04 -1.10433108819E-03 +2.17842926248E-04 +6.64253458328E-01 +6.07182700121E-01
2.58500000000E+09 +6.92691245773E-01 +5.01920318562E-01 -1.10959693145E-03 +3.53350655179E-04 -1.03633491321E-03 +2.43983533428E-04 +6.69110618625E-01 +5.99833208297E-01
2.59000000000E+09 +6.97876364875E-01 +4.93412505596E-01 -9.83741656834E-04 +3.33936456476E-04 -9.94311883046E-04 +2.05403457618E-04 +6.73850514221E-01 +5.92297686464E-01
2.59500000000E+09 +7.02732229651E-01 +4.85075912373E-01 -1.10722234405E-03 +2.84103043415E-04 -1.14115807982E-03 +2.39528369386E-04 +6.78593790520E-01 +5.84319968452E-01
2.60000000000E+09 +7.07054236664E-01 +4.76580717532E-01 -1.21844105829E-03 +3.41664236225E-04 -1.23384562614E-03 +3.11195753121E-04 +6.83564535175E-01 +5.75694733503E-01
2.60500000000E+09 +7.11350545749E-01 +4.67727167226E-01 -1.37465608887E-03 +6.79963087391E-04 -1.40165273800E-03 +6.10955139962E-04 +6.88592718018E-01 +5.66695348316E-01
2.61000000000E+09 +7.15640844460E-01 +4.58000475635E-01 -1.25274631587E-03 +9.74813039039E-04 -1.27510562061E-03 +9.75601000318E-04 +6.93405405836E-01 +5.57895490941E-01
2.61500000000E+09 +7.19939496839E-01 +4.47756615131E-01 -9.29437307894E-04 +1.11383123730E-03 -9.19736509113E-04 +1.11766226863E-03 +6.98256517667E-01 +5.49348429817E-01
2.62000000000E+09 +7.24056276903E-01 +4.36543656074E-01 -8.30342146679E-04 +1.07587583278E-03 -8.68764721416E-04 +1.16029655829E-03 +7.03118769536E-01 +5.40386098234E-01
2.62500000000E+09 +7.28228711980E-01 +4.24582367283E-01 -7.06037248337E-04 +1.17558373071E-03 -6.25858984633E-04 +1.30621568906E-03 +7.07615594047E-01 +5.31421329506E-01
2.63000000000E+09 +7.32150324422E-01 +4.11900647434E-01 -5.58535934840E-04 +1.10467953215E-03 -3.82797976531E-04 +1.14573407726E-03 +7.12005910941E-01 +5.22783232147E-01
2.63500000000E+09 +7.35712551031E-01 +3.99018547111E-01 -6.71047351774E-04 +1.09984841469E-03 -4.89608344147E-04 +1.04566448850E-03 +7.16827968734E-01 +5.13655917770E-01
2.64000000000E+09 +7.38891659244E-01 +3.86687755662E-01 -5.34402729821E-04 +1.32416166971E-03 -4.43313125319E-04 +1.14709174573E-03 +7.21725750880E-01 +5.03894059957E-01
2.64500000000E+09 +7.42588560243E-01 +3.74795206636E-01 -4.43712188484E-04 +1.36696398735E-03 -4.50672280336E-04 +1.14991863465E-03 +7.26465185896E-01 +4.94062023060E-01
2.65000000000E+09 +7.45572480919E-01 +3.63244776141E-01 -2.86932616536E-04 +1.42960945251E-03 -4.22993106444E-04 +1.27418870422E-03 +7.30816832777E-01 +4.84019600045E-01
2.65500000000E+09 +7.48902421926E-01 +3.51664341869E-01 -1.78921197856E-04 +1.33851665056E-03 -3.26136483047E-04 +1.38776767218E-03 +7.34499464514E-01 +4.73981421369E-01
2.66000000000E+09 +7.51781752945E-01 +3.39905187811E-01 -1.00271775746E-04 +1.49067476790E-03 -1.89568695082E-04 +1.57259646582E-03 +7.38895711571E-01 +4.63328775845E-01
2.66500000000E+09 +7.54424400159E-01 +3.28391012857E-01 +1.58745559510E-05 +1.44694393737E-03 +1.93991164006E-04 +1.49494588472E-03 +7.43432800472E-01 +4.52026717635E-01
2.67000000000E+09 +7.56813781807E-01 +3.16213025181E-01 +1.33857152551E-04 +1.45148657027E-03 +2.36760870881E-04 +1.39988601409E-03 +7.47712039121E-01 +4.40747165475E-01
2.67500000000E+09 +7.58930037986E-01 +3.03228343591E-01 +3.47658273892E-04 +1.51769771983E-03 +3.31098672268E-04 +1.39873789156E-03 +7.51707924447E-01 +4.29388671797E-01
2.68000000000E+09 +7.60008622931E-01 +2.89466382662E-01 +3.99156431620E-04 +1.36740136097E-03 +3.39724128372E-04 +1.30444716416E-03 +7.55431916688E-01 +4.18163431816E-01
2.68500000000E+09 +7.60672171712E-01 +2.75536193996E-01 +3.40013165754E-04 +1.43717917750E-03 +2.18348639669E-04 +1.40524607301E-03 +7.58635998131E-01 +4.06847939393E-01
2.69000000000E+09 +7.61286295595E-01 +2.61711419513E-01 +5.13019775111E-04 +1.65679172180E-03 +5.20020668501E-04 +1.62130064536E-03 +7.61768080668E-01 +3.95009705619E-01
2.69500000000E+09 +7.61990962898E-01 +2.47722519010E-01 +7.52495372620E-04 +1.58297558965E-03 +7.30116688596E-04 +1.56258356286E-03 +7.64639667430E-01 +3.81829717349E-01
2.70000000000E+09 +7.62759158517E-01 +2.33581841686E-01 +9.48522885514E-04 +1.61360185513E-03 +8.88737018931E-04 +1.54702483334E-03 +7.67136777551E-01 +3.68405679647E-01
2.70500000000E+09 +7.63349345375E-01 +2.19600930836E-01 +1.37973296003E-03 +1.46048979457E-03 +1.24239416289E-03 +1.47569387730E-03 +7.69801433295E-01 +3.54827879843E-01
2.71000000000E+09 +7.64127868480E-01 +2.05901621381E-01 +1.39216764191E-03 +1.12949648184E-03 +1.32568519346E-03 +1.23060938794E-03 +7.72692215952E-01 +3.41554723116E-01
2.71500000000E+09 +7.65525093653E-01 +1.91848739309E-01 +1.25586219304E-03 +9.78023649460E-04 +1.37114041127E-03 +1.11022046014E-03 +7.75232964080E-01 +3.28507041358E-01
2.72000000000E+09 +7.66417455386E-01 +1.77331950717E-01 +1.33833248585E-03 +1.07728175874E-03 +1.47357087226E-03 +1.04370111338E-03 +7.77220858826E-01 +3.15487302312E-01
2.72500000000E+09 +7.66708294702E-01 +1.62308508048E-01 +1.47076164795E-03 +1.07011583695E-03 +1.56531436132E-03 +9.19253705174E-04 +7.78036771388E-01 +3.02168521017E-01
2.73000000000E+09 +7.66375000115E-01 +1.47145361532E-01 +1.52211544889E-03 +1.04201058587E-03 +1.45424431395E-03 +8.15450055194E-04 +7.79126037990E-01 +2.88348094777E-01
2.73500000000E+09 +7.65408184174E-01 +1.31146930876E-01 +1.75898179564E-03 +9.81162876137E-04 +1.58127625354E-03 +8.65327814130E-04 +7.80276464264E-01 +2.73522847960E-01
2.74000000000E+09 +7.63252659748E-01 +1.14978792678E-01 +2.05830368711E-03 +8.79358729553E-04 +1.76175668394E-03 +8.98220976624E-04 +7.81476893934E-01 +2.57895595604E-01
2.74500000000E+09 +7.60210825254E-01 +9.84259202606E-02 +2.23318835262E-03 +6.62444855573E-04 +2.03373497166E-03 +9.22651186638E-04 +7.82018612532E-01 +2.42575112817E-01
2.75000000000E+09 +7.56465881731E-01 +8.17487779289E-02 +2.47551138284E-03 +4.23068226260E-04 +2.56502333957E-03 +7.52239118008E-04 +7.82631986326E-01 +2.27405463703E-01
2.75500000000E+09 +7.51758184542E-01 +6.49266444504E-02 +2.49337675367E-03 +1.52411688052E-05 +2.71759113396E-03 +1.66636356360E-04 +7.82229084340E-01 +2.12362956989E-01
2.76000000000E+09 +7.47065640597E-01 +4.82280868115E-02 +2.44271317342E-03 -1.25739957206E-04 +2.62239604733E-03 -1.42810154439E-04 +7.81638451531E-01 +1.97453523208E-01
2.76500000000E+09 +7.42194798510E-01 +3.14088851329E-02 +2.59111131682E-03 -1.92368411306E-04 +2.79756073251E-03 -3.02900895453E-04 +7.80693584109E-01 +1.81023530603E-01
2.77000000000E+09 +7.38070634584E-01 +1.39665982994E-02 +2.78709898786E-03 -5.79789865500E-04 +2.93368784207E-03 -7.22975534077E-04 +7.79591258374E-01 +1.63315680386E-01
2.77500000000E+09 +7.33599836522E-01 -4.59056202932E-03 +2.73044139963E-03 -1.07952573176E-03 +2.77108757994E-03 -1.30602203137E-03 +7.77413178609E-01 +1.45103301215E-01
2.78000000000E+09 +7.28943370453E-01 -2.37936314560E-02 +2.57060861143E-03 -1.22034315963E-03 +2.51002367636E-03 -1.42100298109E-03 +7.75234877712E-01 +1.27303204933E-01
2.78500000000E+09 +7.22839363480E-01 -4.38463329921E-02 +2.49151990701E-03 -1.43273382444E-03 +2.31294203659E-03 -1.66583674342E-03 +7.72826104596E-01 +1.09421287866E-01
2.79000000000E+09 +7.16070889783E-01 -6.38290820012E-02 +2.66667567300E-03 -1.70606826736E-03 +2.38981360222E-03 -1.84882883642E-03 +7.69886458391E-01 +9.18337208149E-02
2.79500000000E+09 +7.08435576103E-01 -8.33767294402E-02 +2.53456598992E-03 -2.43932669962E-03 +2.34933131201E-03 -2.32100165526E-03 +7.65405513255E-01 +7.36696278780E-02
2.80000000000E+09 +6.99966132229E-01 -1.03023588150E-01 +2.03812631209E-03 -2.73760113508E-03 +2.08254606699E-03 -2.55439610900E-03 +7.59906902330E-01 +5.54096018911E-02
2.80500000000E+09 +6.90322261037E-01 -1.22282252153E-01 +1.56928354390E-03 -2.96456968007E-03 +1.67913239521E-03 -2.88698033511E-03 +7.54078229740E-01 +3.71916137105E-02
2.81000000000E+09 +6.79445486387E-01 -1.40758502182E-01 +1.52038241974E-03 -2.98534414815E-03 +1.60803019297E-03 -2.97362296087E-03 +7.48232953261E-01 +1.74548846691E-02
2.81500000000E+09 +6.67538249259E-01 -1.58427146197E-01 +1.17368071844E-03 -3.30159268237E-03 +1.08922032997E-03 -3.32333783147E-03 +7.40910947080E-01 -2.82554299381E-03
2.82000000000E+09 +6.54838198790E-01 -1.75956946683E-01 +9.65768921770E-04 -3.44487360858E-03 +8.10559128326E-04 -3.43693436290E-03 +7.32429384314E-01 -2.28875494502E-02
2.82500000000E+09 +6.41097580241E-01 -1.93071285446E-01 +4.33329024968E-04 -3.83608810810E-03 +2.93692719438E-04 -3.64898764703E-03 +7.23243163198E-01 -4.21174380483E-02
2.83000000000E+09 +6.25971693009E-01 -2.11257708142E-01 -1.27516082313E-04 -3.70008026995E-03 -8.92528215965E-05 -3.45683835587E-03 +7.13453482561E-01 -6.16053255731E-02
2.83500000000E+09 +6.08903545132E-01 -2.29487592230E-01 -3.82590769009E-04 -3.41982880881E-03 -1.90916647692E-04 -3.26830335932E-03 +7.03253325596E-01 -8.11276238521E-02
2.84000000000E+09 +5.89884566237E-01 -2.47585570708E-01 -3.50680488207E-04 -3.55910247916E-03 -1.45417039821E-04 -3.59126778693E-03 +6.91917644312E-01 -1.01880008868E-01
2.84500000000E+09 +5.69021629934E-01 -2.65565738863E-01 -9.59267160015E-04 -3.91139612767E-03 -8.29432078532E-04 -3.98498952431E-03 +6.78854223847E-01 -1.22712086783E-01
2.85000000000E+09 +5.47290555475E-01 -2.83547512694E-01 -1.39260019496E-03 -3.91591230605E-03 -1.40033196580E-03 -3.98793537004E-03 +6.64289851212E-01 -1.42995948944E-01
2.85500000000E+09 +5.23756075900E-01 -3.01230663159E-01 -2.08963520957E-03 -3.81301768881E-03 -2.09378756791E-03 -3.80053148570E-03 +6.49994575573E-01 -1.62556457659E-01
2.86000000000E+09 +4.99388398092E-01 -3.18493014628E-01 -2.61351156101E-03 -3.57391586901E-03 -2.54933230416E-03 -3.65643364485E-03 +6.34334908086E-01 -1.83814022595E-01
2.86500000000E+09 +4.73944036270E-01 -3.34790060518E-01 -3.30628139035E-03 -3.03043251894E-03 -3.27336451529E-03 -3.11090098279E-03 +6.15987624731E-01 -2.04101184085E-01
2.87000000000E+09 +4.47782024013E-01 -3.49572322900E-01 -3.30907841442E-03 -2.32020400367E-03 -3.34834391142E-03 -2.37562296576E-03 +5.96964757844E-01 -2.23527309361E-01
2.87500000000E+09 +4.21511130786E-01 -3.62933630418E-01 -3.05395402692E-03 -2.01933857581E-03 -3.16595659231E-03 -1.95839388073E-03 +5.77050168719E-01 -2.42804324691E-01
2.88000000000E+09 +3.95249116149E-01 -3.75257484436E-01 -3.12659384327E-03 -2.25059491549E-03 -3.12799318407E-03 -2.15029939536E-03 +5.55310081605E-01 -2.61934259175E-01
2.88500000000E+09 +3.68138662015E-01 -3.86662417749E-01 -3.89801145256E-03 -2.12424958567E-03 -3.77066765807E-03 -1.95319979221E-03 +5.32577769483E-01 -2.80395858039E-01
2.89000000000E+09 +3.39632249129E-01 -3.96366316572E-01 -3.99849321855E-03 -1.66360068472E-03 -3.77316810287E-03 -1.65508623962E-03 +5.07241291571E-01 -2.98562421698E-01
2.89500000000E+09 +3.10030965133E-01 -4.04438629065E-01 -4.48932526964E-03 -1.30278654561E-03 -4.31756326770E-03 -1.47934700610E-03 +4.79247881388E-01 -3.15643221753E-01
2.90000000000E+09 +2.78790299665E-01 -4.11033292457E-01 -4.78555874610E-03 -7.33861081605E-04 -4.81216160972E-03 -8.13357032666E-04 +4.50612281443E-01 -3.30718527762E-01
2.90500000000E+09 +2.45045972521E-01 -4.15188043144E-01 -4.57914122601E-03 -1.47272283820E-05 -4.64956153678E-03 -8.23149789005E-08 +4.21685596606E-01 -3.45613909358E-01
2.91000000000E+09 +2.09545521681E-01 -4.16134034928E-01 -4.53850823145E-03 +2.06215858843E-04 -4.53170357481E-03 +3.04648888998E-04 +3.90479698428E-01 -3.60316883876E-01
2.91500000000E+09 +1.74281430220E-01 -4.13592239254E-01 -4.52654792322E-03 +5.88571855737E-04 -4.27257167092E-03 +6.81899180933E-04 +3.57336962419E-01 -3.72207287885E-01
2.92000000000E+09 +1.38842775268E-01 -4.09200350469E-01 -4.64244681996E-03 +6.22442221536E-04 -4.35270917751E-03 +5.87251369837E-04 +3.22791180659E-01 -3.80953033635E-01
2.92500000000E+09 +1.04562159220E-01 -4.03272063879E-01 -4.98502816389E-03 +1.12742720290E-03 -4.78198813082E-03 +8.91830777647E-04 +2.88027248984E-01 -3.87639372142E-01
2.93000000000E+09 +6.94982812149E-02 -3.96994248776E-01 -5.44412192057E-03 +1.92397603245E-03 -5.36384569905E-03 +1.61373989920E-03 +2.51897915768E-01 -3.92699611530E-01
2.93500000000E+09 +3.35365959913E-02 -3.88519665028E-01 -5.07377933311E-03 +3.02057078043E-03 -5.18373355887E-03 +2.86163125650E-03 +2.14559488897E-01 -3.96977869226E-01
2.94000000000E+09 -2.70421564939E-03 -3.76493121311E-01 -4.61096040947E-03 +3.49972249659E-03 -4.68615677287E-03 +3.34362463073E-03 +1.75633051347E-01 -3.98686542481E-01
2.94500000000E+09 -3.61688902926E-02 -3.61115673991E-01 -4.33703676099E-03 +3.99397889686E-03 -4.37820912821E-03 +3.84404802695E-03 +1.37037454123E-01 -3.98437766935E-01
2.95000000000E+09 -6.83141531411E-02 -3.44028556927E-01 -4.10774393675E-03 +4.69392281924E-03 -4.30445773562E-03 +4.52376833279E-03 +9.86065548609E-02 -3.95119735203E-01
2.95500000000E+09 -9.85157982184E-02 -3.24806143505E-01 -3.27605942451E-03 +5.15419923082E-03 -3.50876218482E-03 +5.15591226157E-03 +6.02685093649E-02 -3.90184993286E-01
2.96000000000E+09 -1.28505635453E-01 -3.03747432413E-01 -3.15328010962E-03 +5.47251492761E-03 -3.38074539444E-03 +5.62290879145E-03 +2.01488032638E-02 -3.82579733415E-01
2.96500000000E+09 -1.57456659048E-01 -2.79069968468E-01 -2.50756167021E-03 +6.28389174884E-03 -2.53224754016E-03 +6.52218849886E-03 -2.11366179576E-02 -3.70804194312E-01
2.97000000000E+09 -1.84712956857E-01 -2.50995074271E-01 -1.83073938964E-03 +6.37781071610E-03 -1.64686753740E-03 +6.44169875130E-03 -6.06467957242E-02 -3.55245592833E-01
2.97500000000E+09 -2.08790492293E-01 -2.20749042401E-01 -1.54892952486E-03 +7.29246660014E-03 -1.36542660035E-03 +7.05877527889E-03 -9.95171800882E-02 -3.38582804733E-01
2.98000000000E+09 -2.32041909377E-01 -1.89444359509E-01 +2.84074312430E-04 +7.77723215738E-03 +4.82504490699E-05 +7.61403362516E-03 -1.37514211557E-01 -3.19027737603E-01
2.98500000000E+09 -2.53109270829E-01 -1.56723187660E-01 +8.22004727632E-04 +7.20981471704E-03 +5.38521398573E-04 +7.23849755887E-03 -1.74384493850E-01 -2.97940138250E-01
2.99000000000E+09 -2.72796008289E-01 -1.23394603229E-01 +1.42119806786E-03 +7.68794523684E-03 +1.35807108813E-03 +8.04963704497E-03 -2.11350118886E-01 -2.71757539553E-01
2.99500000000E+09 -2.90321413612E-01 -8.92308238127E-02 +3.09424959075E-03 +7.93732642734E-03 +3.41310994909E-03 +8.10791640651E-03 -2.44385232817E-01 -2.41447116425E-01
3.00000000000E+09 -3.06098773490E-01 -5.45998808922E-02 +3.96055606770E-03 +7.24917107849E-03 +4.22967619816E-03 +7.04739146861E-03 -2.75279993199E-01 -2.10128553328E-01
3.00500000000E+09 -3.18358703955E-01 -2.01173849549E-02 +5.42715673225E-03 +7.57784047958E-03 +5.35835644753E-03 +7.13131082149E-03 -3.04538459966E-01 -1.76420401666E-01
3.01000000000E+09 -3.27903324599E-01 +1.35630002858E-02 +7.18172726520E-03 +6.01989071443E-03 +6.75951963423E-03 +5.89112558537E-03 -3.30679334602E-01 -1.41032441769E-01
3.01500000000E+09 -3.35471767279E-01 +4.62241300233E-02 +7.68138987670E-03 +4.42729334648E-03 +7.41542447655E-03 +4.64714181709E-03 -3.54603866329E-01 -1.04538301448E-01
3.02000000000E+09 -3.39996162420E-01 +7.96173618732E-02 +7.73493046910E-03 +3.21926656709E-03 +7.73672596176E-03 +3.57078276286E-03 -3.74371930118E-01 -6.60592634343E-02
3.02500000000E+09 -3.41015181918E-01 +1.12527728377E-01 +7.75974508602E-03 +2.54393585169E-03 +7.93846012238E-03 +2.68895007212E-03 -3.90236730530E-01 -2.76725357377E-02
3.03000000000E+09 -3.38818937717E-01 +1.44794574456E-01 +8.00937295970E-03 +1.97782927894E-03 +8.04585583599E-03 +2.03437356759E-03 -4.04994427000E-01 +1.09565065747E-02
3.03500000000E+09 -3.34297351303E-01 +1.75689168226E-01 +9.12949873574E-03 +1.16615496198E-03 +9.09266554067E-03 +1.36382621573E-03 -4.17044932712E-01 +5.18127068328E-02
3.04000000000E+09 -3.27324898131E-01 +2.07559381926E-01 +9.55539104746E-03 -1.16207443779E-03 +9.77705832998E-03 -8.07814006987E-04 -4.25318571414E-01 +9.30693465387E-02
3.04500000000E+09 -3.18419457000E-01 +2.37133342287E-01 +8.64170599177E-03 -2.61438293956E-03 +9.16284942512E-03 -2.68197784947E-03 -4.30499790112E-01 +1.34011084313E-01
3.05000000000E+09 -3.08196211421E-01 +2.66783435100E-01 +7.78399859815E-03 -3.93394195954E-03 +8.17349102727E-03 -4.41456808897E-03 -4.32193861439E-01 +1.72631395295E-01
3.05500000000E+09 -2.96815908028E-01 +2.95366076311E-01 +6.75871648140E-03 -4.31919658788E-03 +6.61169514600E-03 -4.82132559680E-03 -4.33810115062E-01 +2.10700500777E-01
3.06000000000E+09 -2.84243072321E-01 +3.23706587732E-01 +6.45820106381E-03 -5.07430591553E-03 +6.01159236211E-03 -5.18145207589E-03 -4.32230500222E-01 +2.50144127542E-01
3.06500000000E+09 -2.70171029245E-01 +3.49905050680E-01 +5.38874054316E-03 -6.19387049276E-03 +5.20926270653E-03 -5.91901660126E-03 -4.26597091330E-01 +2.88249733819E-01
3.07000000000E+09 -2.56082438980E-01 +3.74732222214E-01 +3.99821566203E-03 -6.53180202874E-03 +4.26043025363E-03 -6.21442737900E-03 -4.18985300015E-01 +3.23500707344E-01
