# Hz S RI R 50
! CMT, C1220, 16058040, 17.2.0/1
! Date: 15/08/2018 09:55:19
! Data: Format (Calibration Info)
! Freq                      S11: Re/Im (F2)                       S21: Re/Im (F2)                       S12: Re/Im (F2)                       S22: Re/Im (F2)            
2.50000000000E+09 +5.96679627205E-01 +6.31721641703E-01 -3.54522843005E-04 -7.57159680349E-04 -3.75171102601E-04 -8.79403262720E-04 +5.77723844400E-01 +7.13750217043E-01
2.50500000000E+09 +6.02708863988E-01 +6.24650607496E-01 -3.77121053824E-04 -7.80572951700E-04 -4.41356415013E-04 -7.90590764703E-04 +5.83426587365E-01 +7.08182010640E-01
2.51000000000E+09 +6.09312081612E-01 +6.17252561576E-01 -4.13961802686E-04 -8.02577016576E-04 -4.52125714593E-04 -7.73772682309E-04 +5.89016405761E-01 +7.02846959428E-01
2.51500000000E+09 +6.15749166124E-01 +6.09774243075E-01 -5.51284721518E-04 -8.52321639816E-04 -5.40170664379E-04 -7.95464427833E-04 +5.94270853169E-01 +6.97479848554E-01
2.52000000000E+09 +6.21985879558E-01 +6.01943929380E-01 -7.23781791348E-04 -7.76118523173E-04 -6.31952510266E-04 -8.15878303464E-04 +5.99337719391E-01 +6.91598239198E-01
2.52500000000E+09 +6.27569263976E-01 +5.94191686329E-01 -8.16400941612E-04 -6.53978087584E-04 -8.05245789255E-04 -7.45992660949E-04 +6.05002149912E-01 +6.84940026489E-01
2.53000000000E+09 +6.32732633421E-01 +5.86842605795E-01 -8.55836919003E-04 -4.92764880077E-04 -8.72541909615E-04 -4.96073851103E-04 +6.11141530452E-01 +6.77661425627E-01
2.53500000000E+09 +6.37630188173E-01 +5.79785626413E-01 -7.87902572233E-04 -5.13029039512E-04 -7.86885852434E-04 -5.12030005832E-04 +6.16937933513E-01 +6.70703629828E-01
2.54000000000E+09 +6.42160127333E-01 +5.73113153007E-01 -9.04333725123E-04 -5.04267900318E-04 -8.82817938255E-04 -5.46026035114E-04 +6.22881885710E-01 +6.64052130385E-01
2.54500000000E+09 +6.46831948194E-01 +5.66414824952E-01 -1.02056479725E-03 -4.62108855508E-04 -1.01978255302E-03 -5.07298179607E-04 +6.28675605398E-01 +6.57539195823E-01
2.55000000000E+09 +6.51505744373E-01 +5.59756081982E-01 -1.12119878780E-03 -3.15448952242E-04 -1.17368223265E-03 -4.53371536605E-04 +6.33793430637E-01 +6.51283979620E-01
2.55500000000E+09 +6.56470471465E-01 +5.52428888491E-01 -1.15698110479E-03 -1.34125855896E-04 -1.29163826441E-03 -1.86398022441E-04 +6.38905711813E-01 +6.45055850218E-01
2.56000000000E+09 +6.61917301991E-01 +5.45348423256E-01 -1.11679775921E-03 -3.97067134503E-06 -1.26147547428E-03 +1.07578870385E-04 +6.44100109943E-01 +6.37855521267E-01
2.56500000000E+09 +6.67922604258E-01 +5.37458827276E-01 -1.05270340366E-03 -4.32949328123E-06 -1.13542199053E-03 +1.72900715783E-04 +6.49377719271E-01 +6.30122642301E-01
2.57000000000E+09 +6.74152399707E-01 +5.29297653141E-01 -1.18248110692E-03 +3.42659630514E-05 -1.14185395877E-03 +2.48114781366E-04 +6.54822577146E-01 +6.22088917959E-01
2.57500000000E+09 +6.80331567921E-01 +5.20561458426E-01 -1.39985369504E-03 +2.10917783662E-04 -1.15777592800E-03 +3.85798364457E-04 +6.60394316879E-01 +6.14228336703E-01
2.58000000000E+09 +6.86185068516E-01 +5.11962054783E-01 -1.31504778099E-03 +5.56819964454E-04 -1.08715566629E-03 +4.88670705453E-04 +6.65584689708E-01 +6.06762907903E-01
2.58500000000E+09 +6.91729169520E-01 +5.03101485038E-01 -1.04842752751E-03 +6.32922261433E-04 -9.54414414025E-04 +5.09394711813E-04 +6.70444523862E-01 +5.99092927402E-01
2.59000000000E+09 +6.96779829509E-01 +4.94588570352E-01 -1.01741107364E-03 +5.91503949983E-04 -9.96171294267E-04 +5.09900907064E-04 +6.75164789930E-01 +5.91553483237E-01
2.59500000000E+09 +7.01773843284E-01 +4.86042346242E-01 -1.06768308730E-03 +7.04826319405E-04 -1.08375568506E-03 +6.38784936726E-04 +6.79817754067E-01 +5.83402143418E-01
2.60000000000E+09 +7.06213080898E-01 +4.77402370650E-01 -1.04033909086E-03 +7.74483117991E-04 -1.04511425284E-03 +7.80056683947E-04 +6.84598149867E-01 +5.74691719393E-01
2.60500000000E+09 +7.10622771163E-01 +4.68252995468E-01 -1.12588954656E-03 +1.06552366864E-03 -1.14140488942E-03 +1.06654198486E-03 +6.89562019847E-01 +5.65698225040E-01
2.61000000000E+09 +7.14925737346E-01 +4.58515122502E-01 -8.88366538031E-04 +1.33890315401E-03 -8.93643943270E-04 +1.34515853683E-03 +6.94534562487E-01 +5.56746546324E-01
2.61500000000E+09 +7.19270988133E-01 +4.48228061148E-01 -5.08963921034E-04 +1.38001446024E-03 -5.45978927558E-04 +1.40991888888E-03 +6.99158963764E-01 +5.48282302030E-01
2.62000000000E+09 +7.23487597401E-01 +4.37276968175E-01 -4.15482206679E-04 +1.28218513675E-03 -3.65178921556E-04 +1.32134346253E-03 +7.04224739343E-01 +5.39276925176E-01
2.62500000000E+09 +7.27907520479E-01 +4.25367378638E-01 -2.95983289553E-04 +1.22178898090E-03 -1.78178120426E-04 +1.36526706686E-03 +7.08686449138E-01 +5.30288518620E-01
2.63000000000E+09 +7.31924090561E-01 +4.12954434074E-01 -1.83730444029E-04 +1.15345010397E-03 +5.86921878031E-06 +1.15983743081E-03 +7.12879081797E-01 +5.21391480560E-01
2.63500000000E+09 +7.35505930958E-01 +4.00266913539E-01 -2.97373974199E-04 +1.17561144221E-03 -1.46785701545E-04 +1.04188075607E-03 +7.17686964366E-01 +5.12197323062E-01
2.64000000000E+09 +7.38785105913E-01 +3.88030126718E-01 -1.49538230514E-04 +1.34725193312E-03 -9.89809351470E-05 +1.14105463571E-03 +7.22323704314E-01 +5.02482601079E-01
2.64500000000E+09 +7.42505947729E-01 +3.76170485065E-01 -6.85783400743E-05 +1.41028845191E-03 -1.34100034210E-04 +1.17733102198E-03 +7.26892527298E-01 +4.92809527204E-01
2.65000000000E+09 +7.45765314675E-01 +3.64503392740E-01 +2.02840613415E-04 +1.40851318293E-03 -2.84131487971E-05 +1.32278954171E-03 +7.31403521748E-01 +4.82679503143E-01
2.65500000000E+09 +7.49202199272E-01 +3.52651995780E-01 +2.32245782456E-04 +1.25485081374E-03 +1.55149832891E-04 +1.34111396445E-03 +7.35179481392E-01 +4.72497753111E-01
2.66000000000E+09 +7.52235391030E-01 +3.40726406222E-01 +2.31310884589E-04 +1.37548499887E-03 +2.50872887178E-04 +1.50255111875E-03 +7.39493457055E-01 +4.61765783269E-01
2.66500000000E+09 +7.54929007396E-01 +3.29022524421E-01 +4.43567699540E-04 +1.41484659254E-03 +5.65279157485E-04 +1.38248443183E-03 +7.44095940263E-01 +4.50425404193E-01
2.67000000000E+09 +7.57510417277E-01 +3.16793991528E-01 +4.20294139847E-04 +1.39552545219E-03 +4.93968944524E-04 +1.28455934412E-03 +7.48269178575E-01 +4.39101137261E-01
2.67500000000E+09 +7.59645163352E-01 +3.03717514925E-01 +6.55687941267E-04 +1.46277997080E-03 +6.56382198417E-04 +1.33003805577E-03 +7.52205371283E-01 +4.27560313573E-01
2.68000000000E+09 +7.61020868331E-01 +2.90401021784E-01 +8.01136036785E-04 +1.33906801880E-03 +7.21180746353E-04 +1.33084712846E-03 +7.55742572994E-01 +4.16186511213E-01
2.68500000000E+09 +7.61984910645E-01 +2.76625182340E-01 +8.50992745565E-04 +1.34892964280E-03 +7.98743466985E-04 +1.34633631697E-03 +7.58842475846E-01 +4.04895114592E-01
2.69000000000E+09 +7.62777830429E-01 +2.62936639654E-01 +1.10601699635E-03 +1.42731703968E-03 +1.07181816352E-03 +1.47790287176E-03 +7.61693637039E-01 +3.92839345958E-01
2.69500000000E+09 +7.63772247513E-01 +2.48963045665E-01 +1.31574447984E-03 +1.31977915830E-03 +1.29071653211E-03 +1.31606817624E-03 +7.64367884821E-01 +3.80048068852E-01
2.70000000000E+09 +7.64834961478E-01 +2.34703420507E-01 +1.61275503906E-03 +1.26936301321E-03 +1.51624806196E-03 +1.27448626685E-03 +7.66909358347E-01 +3.66341328904E-01
2.70500000000E+09 +7.65709580844E-01 +2.20364971152E-01 +1.97224624881E-03 +8.84457315568E-04 +1.85991517997E-03 +9.73473600696E-04 +7.69308238171E-01 +3.52775095780E-01
2.71000000000E+09 +7.66429363576E-01 +2.06335831286E-01 +1.81943437929E-03 +4.93902189505E-04 +1.86015962170E-03 +6.54837883358E-04 +7.72028528603E-01 +3.39506202425E-01
2.71500000000E+09 +7.67798191647E-01 +1.91968748773E-01 +1.66892493949E-03 +3.64719143455E-04 +1.75226159184E-03 +4.81243609324E-04 +7.74299744104E-01 +3.26604206503E-01
2.72000000000E+09 +7.68945645408E-01 +1.77231636609E-01 +1.70256252665E-03 +3.83983069474E-04 +1.84527314502E-03 +2.87584404118E-04 +7.76119785249E-01 +3.13836611991E-01
2.72500000000E+09 +7.69578140106E-01 +1.61844915976E-01 +1.84795714444E-03 +3.53173673498E-04 +1.91093400183E-03 +1.26007871976E-04 +7.76760800327E-01 +3.00586598098E-01
2.73000000000E+09 +7.69616949450E-01 +1.46276149727E-01 +1.96292101306E-03 +1.91882764849E-04 +1.81880351850E-03 +4.73925102581E-05 +7.77827280790E-01 +2.87081212703E-01
2.73500000000E+09 +7.68626650312E-01 +1.29891871595E-01 +2.05001535210E-03 -1.63355808328E-04 +1.80139777369E-03 -1.29464734972E-04 +7.78893552478E-01 +2.72322613162E-01
2.74000000000E+09 +7.66507857294E-01 +1.13634003843E-01 +1.86264547135E-03 -3.13799126733E-04 +1.74165126786E-03 -9.60401371198E-05 +7.80120586743E-01 +2.56906198569E-01
2.74500000000E+09 +7.63631876833E-01 +9.70068100744E-02 +1.88527450661E-03 -2.80246534240E-04 +1.85269639260E-03 -4.03528963800E-05 +7.80642093962E-01 +2.41614739138E-01
2.75000000000E+09 +7.59925499066E-01 +8.04110016754E-02 +2.17247624055E-03 -4.66287232186E-04 +2.27942392951E-03 -1.97956941710E-04 +7.81312221166E-01 +2.26790820450E-01
2.75500000000E+09 +7.55445325309E-01 +6.33123729676E-02 +2.24601833486E-03 -9.30549815059E-04 +2.49875465196E-03 -8.17687994537E-04 +7.80895218372E-01 +2.12059764617E-01
2.76000000000E+09 +7.50856757379E-01 +4.62053348371E-02 +2.10597596171E-03 -1.13786251827E-03 +2.25387602291E-03 -1.15215084054E-03 +7.80571597001E-01 +1.97225162725E-01
2.76500000000E+09 +7.45974095820E-01 +2.91070273389E-02 +1.99172465671E-03 -1.29488232194E-03 +2.09337498447E-03 -1.43396676384E-03 +7.79712786407E-01 +1.80512753667E-01
2.77000000000E+09 +7.41665199996E-01 +1.10565439635E-02 +1.98854663259E-03 -1.56132223206E-03 +2.06152686674E-03 -1.67222366552E-03 +7.78026523569E-01 +1.62721956584E-01
2.77500000000E+09 +7.36977860547E-01 -7.93503264183E-03 +1.75315697556E-03 -1.87371794136E-03 +1.76456172693E-03 -2.03257985615E-03 +7.75467930196E-01 +1.45001806649E-01
2.78000000000E+09 +7.32020523029E-01 -2.76127894247E-02 +1.69027677101E-03 -1.95912186673E-03 +1.60473450828E-03 -2.16027380459E-03 +7.73778196424E-01 +1.27685820976E-01
2.78500000000E+09 +7.25831981314E-01 -4.78957320313E-02 +1.40945830880E-03 -2.25297364216E-03 +1.24343107869E-03 -2.41003122388E-03 +7.71742669735E-01 +1.09798724400E-01
2.79000000000E+09 +7.19089500608E-01 -6.84122049108E-02 +1.25212816039E-03 -2.32809631422E-03 +1.10097570060E-03 -2.35082315332E-03 +7.68927334861E-01 +9.21737166498E-02
2.79500000000E+09 +7.11262381569E-01 -8.82476896503E-02 +1.12237781538E-03 -2.79486430495E-03 +1.01343182732E-03 -2.59617991860E-03 +7.64402315964E-01 +7.42844992125E-02
2.80000000000E+09 +7.02709720639E-01 -1.08034644591E-01 +6.76929406618E-04 -2.96021174185E-03 +6.71616561691E-04 -2.84196563626E-03 +7.58898693079E-01 +5.63140443934E-02
2.80500000000E+09 +6.92948649483E-01 -1.27446625596E-01 +1.12306114698E-04 -2.98670931515E-03 +1.63106781258E-04 -2.98645821946E-03 +7.53405104059E-01 +3.81354705688E-02
2.81000000000E+09 +6.81753303007E-01 -1.46066644078E-01 +3.55643200294E-05 -2.78780403403E-03 +3.58146116529E-05 -2.87408189342E-03 +7.47495284859E-01 +1.82714044453E-02
2.81500000000E+09 +6.69674805724E-01 -1.63793078209E-01 -3.12770832349E-04 -2.94689960743E-03 -4.64023149507E-04 -2.98098989557E-03 +7.40165068068E-01 -1.71729593205E-03
2.82000000000E+09 +6.56578382531E-01 -1.81528254744E-01 -5.42523473617E-04 -2.98819915108E-03 -6.85630742795E-04 -2.91532575259E-03 +7.31990429667E-01 -2.13667037010E-02
2.82500000000E+09 +6.42150358013E-01 -1.98912718861E-01 -8.84390552250E-04 -3.03758216115E-03 -9.35256150623E-04 -2.84372796744E-03 +7.23422167015E-01 -4.06523193810E-02
2.83000000000E+09 +6.26050872689E-01 -2.17273745795E-01 -1.55199430587E-03 -2.90971566294E-03 -1.47807358845E-03 -2.73477318576E-03 +7.14211692510E-01 -5.98602997063E-02
2.83500000000E+09 +6.08249300650E-01 -2.35421725304E-01 -1.57854509550E-03 -2.45407076989E-03 -1.45399045319E-03 -2.35924442080E-03 +7.04434686858E-01 -7.98331062478E-02
2.84000000000E+09 +5.88506637221E-01 -2.53870296499E-01 -1.48924713584E-03 -2.55001960333E-03 -1.44511916787E-03 -2.55493541317E-03 +6.92955068246E-01 -1.00839820078E-01
2.84500000000E+09 +5.67183344200E-01 -2.72060447921E-01 -2.11562838433E-03 -2.63623856475E-03 -2.05177824256E-03 -2.67370364351E-03 +6.79943484276E-01 -1.21659781817E-01
2.85000000000E+09 +5.44637820653E-01 -2.90511795054E-01 -2.38067133877E-03 -2.45247286784E-03 -2.32835313118E-03 -2.41755147829E-03 +6.65877530145E-01 -1.41830129071E-01
2.85500000000E+09 +5.20234513706E-01 -3.08119257691E-01 -3.00642899061E-03 -2.29644444111E-03 -2.93626169187E-03 -2.23184705999E-03 +6.51977371265E-01 -1.61911260472E-01
2.86000000000E+09 +4.95246172200E-01 -3.24695216348E-01 -3.28912634673E-03 -1.60263682050E-03 -3.20929918432E-03 -1.60365042707E-03 +6.36030457472E-01 -1.83348169284E-01
2.86500000000E+09 +4.69872839688E-01 -3.40654538125E-01 -3.36522452866E-03 -1.04593954399E-03 -3.36104027850E-03 -1.10584423579E-03 +6.18288420678E-01 -2.03926882104E-01
2.87000000000E+09 +4.43278713825E-01 -3.55490968454E-01 -3.28483797467E-03 -5.39789889542E-04 -3.29241853863E-03 -5.66300332081E-04 +5.99437631069E-01 -2.23925272492E-01
2.87500000000E+09 +4.16601493419E-01 -3.68390835364E-01 -3.00686202332E-03 -4.05267980626E-04 -2.99599558362E-03 -3.55878449631E-04 +5.79424251353E-01 -2.43742696566E-01
2.88000000000E+09 +3.89518019696E-01 -3.80438865960E-01 -3.10658911061E-03 -5.70952836291E-04 -3.03658796065E-03 -5.08073726247E-04 +5.57664021459E-01 -2.63023551918E-01
2.88500000000E+09 +3.61629667620E-01 -3.91005442791E-01 -3.59815037146E-03 -1.81352936578E-04 -3.38403502933E-03 -9.30734349846E-05 +5.34761282762E-01 -2.82129787758E-01
2.89000000000E+09 +3.32597826531E-01 -3.99870986904E-01 -3.58083994520E-03 +3.05043160402E-04 -3.35969674652E-03 +1.81244404564E-04 +5.08643722412E-01 -3.00456008652E-01
2.89500000000E+09 +3.02355104511E-01 -4.07474797566E-01 -3.55682633563E-03 +8.98262057939E-04 -3.45520691358E-03 +6.87152485931E-04 +4.80728875586E-01 -3.17533846635E-01
2.90000000000E+09 +2.70005377877E-01 -4.13086708626E-01 -3.21353391840E-03 +1.30572121231E-03 -3.31368741580E-03 +1.17995990095E-03 +4.52047260328E-01 -3.32735018970E-01
2.90500000000E+09 +2.35911369693E-01 -4.16100513740E-01 -2.80561664970E-03 +1.23438488357E-03 -2.89625128480E-03 +1.26430347974E-03 +4.23220057742E-01 -3.48120564837E-01
2.91000000000E+09 +2.00869712279E-01 -4.15784770304E-01 -3.10018906351E-03 +1.42116196871E-03 -3.10282544218E-03 +1.51278405671E-03 +3.91393903458E-01 -3.63122979030E-01
2.91500000000E+09 +1.65857295762E-01 -4.12915538768E-01 -2.86611956508E-03 +1.79697554659E-03 -2.75467345991E-03 +1.82712540761E-03 +3.57895089963E-01 -3.74851192924E-01
2.92000000000E+09 +1.30591851268E-01 -4.07841974634E-01 -2.79104614091E-03 +1.74641998387E-03 -2.67405235071E-03 +1.63606021691E-03 +3.23727115787E-01 -3.83649761564E-01
2.92500000000E+09 +9.63533743466E-02 -4.01087914219E-01 -2.96988369450E-03 +2.06717155460E-03 -2.91828849742E-03 +1.84751044697E-03 +2.88707671099E-01 -3.91086146361E-01
2.93000000000E+09 +6.15399176651E-02 -3.93234364340E-01 -3.16599261920E-03 +2.51011646237E-03 -3.26676936566E-03 +2.36334542275E-03 +2.51975745542E-01 -3.96774740047E-01
2.93500000000E+09 +2.63473012759E-02 -3.83081369986E-01 -2.83709487667E-03 +3.38712837786E-03 -2.94930487519E-03 +3.34459785667E-03 +2.13434435858E-01 -4.01565846349E-01
2.94000000000E+09 -8.17712363466E-03 -3.69564807361E-01 -2.03792633908E-03 +3.77946327797E-03 -2.15259655472E-03 +3.81010049685E-03 +1.73414763620E-01 -4.02614532743E-01
2.94500000000E+09 -4.10427886651E-02 -3.53955851737E-01 -1.62425198427E-03 +3.44102005229E-03 -1.68674984006E-03 +3.38950750218E-03 +1.34635738161E-01 -4.01595423790E-01
2.95000000000E+09 -7.28250159280E-02 -3.35578035366E-01 -1.91627824775E-03 +3.80759506952E-03 -1.97334354374E-03 +3.75537924231E-03 +9.63673563261E-02 -3.98322042899E-01
2.95500000000E+09 -1.02214997154E-01 -3.15094169972E-01 -1.33081619338E-03 +4.18273878895E-03 -1.50207032297E-03 +4.20800805487E-03 +5.74873493620E-02 -3.93837691574E-01
2.96000000000E+09 -1.31486938724E-01 -2.93048464057E-01 -1.22555468877E-03 +4.67997608050E-03 -1.24466716006E-03 +4.83220550844E-03 +1.62031832953E-02 -3.85428478465E-01
2.96500000000E+09 -1.58846704090E-01 -2.67502524804E-01 -3.15309922122E-04 +4.94555148195E-03 -1.92496115953E-04 +5.09474898177E-03 -2.50183399697E-02 -3.72991404241E-01
2.97000000000E+09 -1.84630207604E-01 -2.39890658886E-01 -8.96512673080E-06 +4.63122344239E-03 +1.88347701609E-04 +4.61834815028E-03 -6.52944099010E-02 -3.57559145527E-01
2.97500000000E+09 -2.08563411279E-01 -2.09913482789E-01 +1.38440483301E-04 +5.46070142008E-03 +1.67572063710E-04 +5.29772888046E-03 -1.05169209333E-01 -3.39865457057E-01
2.98000000000E+09 -2.30186731203E-01 -1.78135219633E-01 +1.52280574934E-03 +5.48087541110E-03 +1.34731216656E-03 +5.37322073654E-03 -1.43126378505E-01 -3.19007382095E-01
2.98500000000E+09 -2.49612263854E-01 -1.45829617442E-01 +1.69176694417E-03 +5.38841045943E-03 +1.41435835983E-03 +5.37548880235E-03 -1.80142685169E-01 -2.97003359603E-01
2.99000000000E+09 -2.67381322437E-01 -1.13280927448E-01 +2.81201618950E-03 +5.65509566554E-03 +2.79316876649E-03 +5.83275424256E-03 -2.16455428388E-01 -2.69478802136E-01
2.99500000000E+09 -2.84049191295E-01 -8.01087999628E-02 +3.88428567129E-03 +5.04418208551E-03 +4.18134233128E-03 +5.13505163781E-03 -2.48441344495E-01 -2.39053232960E-01
3.00000000000E+09 -2.98959690002E-01 -4.58012839822E-02 +3.97979495607E-03 +4.52079584299E-03 +4.13930122376E-03 +4.33392099930E-03 -2.79122104064E-01 -2.07819559736E-01
3.00500000000E+09 -3.10184593959E-01 -1.14245433664E-02 +5.18320808246E-03 +5.19559680838E-03 +4.97671455294E-03 +4.82563340281E-03 -3.09074397444E-01 -1.73624322309E-01
3.01000000000E+09 -3.18291131908E-01 +2.17715677346E-02 +6.81285663544E-03 +3.58565147379E-03 +6.45492938650E-03 +3.57938818745E-03 -3.34524835093E-01 -1.37276529236E-01
3.01500000000E+09 -3.24633030274E-01 +5.36181477377E-02 +6.96750191532E-03 +2.07792089881E-03 +6.78106064895E-03 +2.32242715027E-03 -3.58198217213E-01 -9.97630795639E-02
3.02000000000E+09 -3.28499682544E-01 +8.53750706994E-02 +6.93057426993E-03 +8.48027077538E-04 +6.94220993408E-03 +1.07115927898E-03 -3.76606954191E-01 -6.10390252649E-02
3.02500000000E+09 -3.29645177167E-01 +1.17348316822E-01 +6.35712980856E-03 +2.60235577954E-04 +6.47051661501E-03 +3.82883841628E-04 -3.91656667866E-01 -2.28896758669E-02
3.03000000000E+09 -3.27063355472E-01 +1.48814528524E-01 +6.68868767026E-03 +2.03529749065E-04 +6.63221908155E-03 +3.22693827254E-04 -4.05939651375E-01 +1.56202850047E-02
3.03500000000E+09 -3.21964913999E-01 +1.78490617636E-01 +7.68532207722E-03 -8.06282151849E-04 +7.73309743836E-03 -6.84816601721E-04 -4.17452787775E-01 +5.65648180908E-02
3.04000000000E+09 -3.14757059781E-01 +2.08727113140E-01 +7.44439858580E-03 -2.98401651814E-03 +7.75122183059E-03 -2.83654716967E-03 -4.25263980684E-01 +9.77170867195E-02
3.04500000000E+09 -3.05603413411E-01 +2.37025127447E-01 +6.27661515613E-03 -3.95742087091E-03 +6.65488905081E-03 -4.15891962290E-03 -4.29794075436E-01 +1.38639966708E-01
3.05000000000E+09 -2.95573593889E-01 +2.65268313550E-01 +5.38578452345E-03 -4.63867091612E-03 +5.54579431087E-03 -5.12555468803E-03 -4.31407694316E-01 +1.77211763161E-01
3.05500000000E+09 -2.84424690831E-01 +2.93251458909E-01 +4.71018961343E-03 -4.70249455846E-03 +4.48187609474E-03 -5.07824162325E-03 -4.32679624452E-01 +2.15559797535E-01
3.06000000000E+09 -2.71382054083E-01 +3.20781788148E-01 +4.40884943609E-03 -5.81252524253E-03 +4.01688844274E-03 -5.81888680311E-03 -4.29947249137E-01 +2.54963635188E-01
3.06500000000E+09 -2.57525587741E-01 +3.46131314629E-01 +3.12138550855E-03 -6.48341677313E-03 +2.96205881830E-03 -6.13453371136E-03 -4.23551587296E-01 +2.92172939580E-01
3.07000000000E+09 -2.43654227251E-01 +3.70237577097E-01 +1.61160292645E-03 -6.71322385983E-03 +1.94602092177E-03 -6.56462921230E-03 -4.15627240648E-01 +3.26541026345E-01
