# Hz S RI R 50
! CMT, C1220, 16058040, 17.2.0/1
! Date: 15/08/2018 10:44:12
! Data: Format (Calibration Info)
! Freq                      S11: Re/Im (F2)                       S21: Re/Im (F2)                       S12: Re/Im (F2)                       S22: Re/Im (F2)            
2.50000000000E+09 +5.92279862420E-01 +6.52220689228E-01 -1.69263610787E-05 -1.88456723586E-04 -1.66828720445E-05 -1.99897058550E-04 +5.63357391111E-01 +7.25628263239E-01
2.50500000000E+09 +5.98922051456E-01 +6.44107600315E-01 -1.32367522282E-05 -1.53048688792E-04 +1.27908702025E-05 -1.75343339548E-04 +5.69463613774E-01 +7.20126300069E-01
2.51000000000E+09 +6.06412522533E-01 +6.35905439543E-01 +5.18510307929E-06 -1.86233847577E-04 -4.76803345264E-06 -1.69595430276E-04 +5.75278306229E-01 +7.14764534135E-01
2.51500000000E+09 +6.14172298313E-01 +6.27983762922E-01 -8.15782378387E-05 -2.44302338790E-04 -6.71178377706E-05 -2.66466054424E-04 +5.80767817223E-01 +7.09336621983E-01
2.52000000000E+09 +6.21085378911E-01 +6.20382779330E-01 -9.34551955677E-05 -3.26002508614E-04 -7.49619202261E-05 -2.74951283415E-04 +5.86233146816E-01 +7.03349488325E-01
2.52500000000E+09 +6.26889012159E-01 +6.13909889259E-01 -2.30705525532E-04 -2.66433150841E-04 -2.20715254891E-04 -2.84595799652E-04 +5.92212626451E-01 +6.96875480726E-01
2.53000000000E+09 +6.31690208355E-01 +6.08163602086E-01 -2.42074691145E-04 -2.42201259417E-04 -2.05374035373E-04 -2.47238813457E-04 +5.98509624446E-01 +6.89646718459E-01
2.53500000000E+09 +6.35721219456E-01 +6.02774944501E-01 -3.38696041242E-04 -2.60778129071E-04 -3.32808730058E-04 -1.86723838779E-04 +6.04483539426E-01 +6.82652275797E-01
2.54000000000E+09 +6.39032026152E-01 +5.96923275438E-01 -3.27827505039E-04 -1.35818780619E-04 -3.44750245903E-04 -1.48228867304E-04 +6.10253375113E-01 +6.75827797811E-01
2.54500000000E+09 +6.42686221825E-01 +5.90755304751E-01 -3.40086581993E-04 -1.14263409020E-04 -2.95186805542E-04 -1.50056408389E-04 +6.15712340949E-01 +6.69401008955E-01
2.55000000000E+09 +6.47023128893E-01 +5.83166333026E-01 -3.32163813019E-04 -1.05960292532E-04 -3.67822847935E-04 -1.27827733028E-04 +6.20893916057E-01 +6.63446654951E-01
2.55500000000E+09 +6.52268668672E-01 +5.74219804114E-01 -3.94649438251E-04 -8.64361597208E-05 -4.66527902211E-04 -7.54575979554E-05 +6.25820828321E-01 +6.56997647660E-01
2.56000000000E+09 +6.58800850941E-01 +5.64615782555E-01 -3.55917437199E-04 -1.39539940737E-05 -4.75644433653E-04 +4.90532752896E-05 +6.30898237242E-01 +6.50011487441E-01
2.56500000000E+09 +6.66038578201E-01 +5.54288707325E-01 -3.90403707014E-04 -4.05777478054E-05 -3.98878290147E-04 +5.90306455202E-05 +6.36190566859E-01 +6.42619867070E-01
2.57000000000E+09 +6.73738405314E-01 +5.44309001404E-01 -4.48834194825E-04 +7.05221862725E-05 -4.08508575709E-04 +1.56674668635E-04 +6.41276691101E-01 +6.34920355918E-01
2.57500000000E+09 +6.81324125910E-01 +5.35098551886E-01 -3.72951961097E-04 +6.09202824799E-05 -3.20717461755E-04 +1.15417219755E-04 +6.46628249111E-01 +6.27622094883E-01
2.58000000000E+09 +6.87832951883E-01 +5.26878803326E-01 -4.52653459799E-04 +5.12582107108E-05 -3.56464421088E-04 +7.38352911117E-05 +6.51802474635E-01 +6.20334206024E-01
2.58500000000E+09 +6.93055975679E-01 +5.19911610929E-01 -5.96063565865E-04 +1.42693546872E-04 -5.04698239162E-04 +8.48949693025E-05 +6.57009240053E-01 +6.13251672216E-01
2.59000000000E+09 +6.97224369407E-01 +5.13940786882E-01 -5.72127436329E-04 +3.15737957613E-04 -5.25288554467E-04 +2.47287423427E-04 +6.62076626918E-01 +6.05964841760E-01
2.59500000000E+09 +7.00266570451E-01 +5.08197595353E-01 -4.51500843107E-04 +4.13295414433E-04 -4.65682302322E-04 +3.65965865202E-04 +6.67371787671E-01 +5.98305681029E-01
2.60000000000E+09 +7.02656930413E-01 +5.01520233808E-01 -3.79848381692E-04 +3.87227539474E-04 -3.97789754332E-04 +3.59710677563E-04 +6.73039233298E-01 +5.90055582850E-01
2.60500000000E+09 +7.05234464792E-01 +4.93229115719E-01 -4.12455007684E-04 +3.16611996779E-04 -3.81431606379E-04 +3.16213337216E-04 +6.78852806697E-01 +5.81170704561E-01
2.61000000000E+09 +7.07988029095E-01 +4.83218760741E-01 -4.21138966737E-04 +5.03077900045E-04 -4.46384494198E-04 +5.39154453283E-04 +6.84286925423E-01 +5.72317124360E-01
2.61500000000E+09 +7.12070589509E-01 +4.71002220945E-01 -2.97388777639E-04 +5.48989546771E-04 -2.96961638720E-04 +6.16489515242E-04 +6.89344001283E-01 +5.63640023584E-01
2.62000000000E+09 +7.16598047578E-01 +4.56637848934E-01 -3.02999083478E-04 +4.83036683053E-04 -3.53146226157E-04 +5.75811443937E-04 +6.94536030790E-01 +5.54459557420E-01
2.62500000000E+09 +7.21657666179E-01 +4.41394491871E-01 -4.26666527343E-04 +6.30765826264E-04 -4.08624153655E-04 +6.60072802304E-04 +6.99550164406E-01 +5.45446319664E-01
2.63000000000E+09 +7.26987879483E-01 +4.26216451053E-01 -3.66066049657E-04 +7.85973604437E-04 -2.30863299425E-04 +8.51522482906E-04 +7.04361763397E-01 +5.35940956205E-01
2.63500000000E+09 +7.31682914961E-01 +4.12230861187E-01 -3.34747150965E-04 +8.57959543160E-04 -2.17957261159E-04 +8.43311318520E-04 +7.08948524346E-01 +5.26439369939E-01
2.64000000000E+09 +7.36275074162E-01 +4.00162936192E-01 -1.33435784811E-04 +1.17064118075E-03 -1.12577566946E-04 +1.02133461026E-03 +7.13654574775E-01 +5.16690992996E-01
2.64500000000E+09 +7.40271592082E-01 +3.90041978005E-01 +2.80200866659E-04 +1.15372149585E-03 +1.28321610516E-04 +1.01305605222E-03 +7.18080787934E-01 +5.06752608303E-01
2.65000000000E+09 +7.43316024121E-01 +3.81240329840E-01 +3.37418734183E-04 +9.13123007379E-04 +1.86526340538E-04 +9.26416312428E-04 +7.22153846689E-01 +4.96496895496E-01
2.65500000000E+09 +7.45504419036E-01 +3.73053442269E-01 +2.44407723247E-04 +9.25853807275E-04 +1.88318353921E-04 +9.50825407419E-04 +7.25871937728E-01 +4.86114718603E-01
2.66000000000E+09 +7.46969179974E-01 +3.64778121881E-01 +2.25373850203E-04 +1.09069299607E-03 +2.96292151807E-04 +1.13325514821E-03 +7.29907519402E-01 +4.74991049433E-01
2.66500000000E+09 +7.48506646769E-01 +3.55939671301E-01 +5.70203340268E-04 +1.27269862826E-03 +6.52511934855E-04 +1.25594410274E-03 +7.34034326742E-01 +4.63885415149E-01
2.67000000000E+09 +7.49958620161E-01 +3.44518501435E-01 +8.69254465000E-04 +1.14188571751E-03 +8.85617380005E-04 +1.00604052400E-03 +7.38217454915E-01 +4.53096635042E-01
2.67500000000E+09 +7.51387122946E-01 +3.31353194413E-01 +1.07172260015E-03 +1.02205714580E-03 +9.92617610196E-04 +9.22555062680E-04 +7.42261677951E-01 +4.42183115017E-01
2.68000000000E+09 +7.53021379141E-01 +3.15852715814E-01 +1.22222747633E-03 +8.29775345699E-04 +1.15938154990E-03 +7.77752109915E-04 +7.46252358083E-01 +4.31060824730E-01
2.68500000000E+09 +7.54612678653E-01 +2.99544768599E-01 +1.23027733717E-03 +7.36898295331E-04 +1.19963686229E-03 +7.77037620940E-04 +7.49303261389E-01 +4.19851499341E-01
2.69000000000E+09 +7.56360452077E-01 +2.82573200629E-01 +1.42237377346E-03 +6.57440189070E-04 +1.44663471805E-03 +6.74882765903E-04 +7.52077198743E-01 +4.08256762187E-01
2.69500000000E+09 +7.58201760534E-01 +2.66312143974E-01 +1.60466126788E-03 +5.18254206331E-04 +1.55433646764E-03 +4.78843013909E-04 +7.55168395880E-01 +3.96085544541E-01
2.70000000000E+09 +7.59760345244E-01 +2.50573641102E-01 +1.81350933536E-03 +2.71683563824E-04 +1.76275450912E-03 +3.14794536635E-04 +7.58368585040E-01 +3.82864114091E-01
2.70500000000E+09 +7.61043547055E-01 +2.36548017558E-01 +1.94549009510E-03 -1.13366715538E-04 +1.88667480709E-03 -3.96018078085E-06 +7.61395423884E-01 +3.69707709636E-01
2.71000000000E+09 +7.62134121755E-01 +2.23158861925E-01 +1.93784868518E-03 -4.22599317472E-04 +1.94672089729E-03 -3.34267022639E-04 +7.64633035179E-01 +3.56668238073E-01
2.71500000000E+09 +7.62878443566E-01 +2.10198341256E-01 +1.66984412407E-03 -8.03928637198E-04 +1.83002787662E-03 -7.96080288722E-04 +7.67258757209E-01 +3.43958186873E-01
2.72000000000E+09 +7.63267738808E-01 +1.97316492973E-01 +1.43092651587E-03 -8.14888567807E-04 +1.47839999358E-03 -9.89953967178E-04 +7.69272750517E-01 +3.31365086454E-01
2.72500000000E+09 +7.63218983497E-01 +1.83295776806E-01 +1.51706733755E-03 -8.75555776552E-04 +1.37558276155E-03 -1.04770894288E-03 +7.71027476317E-01 +3.17947537856E-01
2.73000000000E+09 +7.62600961378E-01 +1.68075349404E-01 +1.58390347258E-03 -1.12565182904E-03 +1.36802867831E-03 -1.20243842184E-03 +7.72653154240E-01 +3.03898450672E-01
2.73500000000E+09 +7.60724143490E-01 +1.51204980843E-01 +1.37483461000E-03 -1.50127525231E-03 +1.19639723911E-03 -1.29093585361E-03 +7.74254888725E-01 +2.88898582282E-01
2.74000000000E+09 +7.58076136937E-01 +1.34073275074E-01 +1.05937817221E-03 -1.57655458710E-03 +1.10731668146E-03 -1.32307315476E-03 +7.76038900927E-01 +2.73243448428E-01
2.74500000000E+09 +7.54627721237E-01 +1.16353703637E-01 +1.07967419890E-03 -1.72180789013E-03 +1.24195461042E-03 -1.55480509642E-03 +7.77385298599E-01 +2.57513159478E-01
2.75000000000E+09 +7.50462345614E-01 +9.83665420109E-02 +9.68808403560E-04 -1.92577477020E-03 +1.18092655751E-03 -1.89787460803E-03 +7.77996211243E-01 +2.41667638036E-01
2.75500000000E+09 +7.45611116956E-01 +8.07150127849E-02 +6.98009402010E-04 -2.20813677412E-03 +8.70980046346E-04 -2.26317780962E-03 +7.77482950591E-01 +2.26047022567E-01
2.76000000000E+09 +7.40542112339E-01 +6.34169031408E-02 +2.51133940318E-04 -2.43027069682E-03 +3.12495742975E-04 -2.56365625175E-03 +7.76600568811E-01 +2.10528512447E-01
2.76500000000E+09 +7.35018976340E-01 +4.61308631009E-02 -1.44430176551E-04 -2.24631144019E-03 -2.12945952556E-04 -2.35352537464E-03 +7.75601549787E-01 +1.93820278565E-01
2.77000000000E+09 +7.29147418178E-01 +2.80981389887E-02 -3.35915350880E-04 -2.26780796387E-03 -4.06831429574E-04 -2.35019211491E-03 +7.74006800446E-01 +1.76347381510E-01
2.77500000000E+09 +7.22768656790E-01 +9.29718943053E-03 -7.87531396543E-04 -2.18142844215E-03 -8.91960290722E-04 -2.19756247021E-03 +7.71698909627E-01 +1.58522089815E-01
2.78000000000E+09 +7.15956738376E-01 -1.04525731055E-02 -8.74721775840E-04 -2.00874978610E-03 -9.87596456774E-04 -2.00373292153E-03 +7.69102775046E-01 +1.40918834005E-01
2.78500000000E+09 +7.08456349293E-01 -3.08427037912E-02 -1.07726249206E-03 -1.88273825725E-03 -1.23668995712E-03 -1.81232972173E-03 +7.66303157577E-01 +1.23885929686E-01
2.79000000000E+09 +7.01052428639E-01 -5.16047284886E-02 -1.26559510869E-03 -1.89376131207E-03 -1.33618897612E-03 -1.79167818720E-03 +7.62952574800E-01 +1.07118834432E-01
2.79500000000E+09 +6.93309889798E-01 -7.26908198419E-02 -1.56292027070E-03 -1.88252916026E-03 -1.51968735505E-03 -1.77543079036E-03 +7.58930385221E-01 +8.98923457391E-02
2.80000000000E+09 +6.84883463201E-01 -9.34182111031E-02 -2.04130846010E-03 -1.58126804800E-03 -1.92271319410E-03 -1.56184825219E-03 +7.54246819830E-01 +7.20228417559E-02
2.80500000000E+09 +6.75624954620E-01 -1.12742772919E-01 -2.02312833760E-03 -1.33239445573E-03 -1.96195178968E-03 -1.35237917899E-03 +7.48795656464E-01 +5.37087483073E-02
2.81000000000E+09 +6.65483297021E-01 -1.30765020857E-01 -2.27827465774E-03 -1.17673510870E-03 -2.32201343539E-03 -1.22250380435E-03 +7.43620627173E-01 +3.51165398533E-02
2.81500000000E+09 +6.53689189522E-01 -1.46766360932E-01 -2.54002544677E-03 -9.72477746987E-04 -2.58601179651E-03 -9.17708780390E-04 +7.37543550570E-01 +1.51045490324E-02
2.82000000000E+09 +6.41152249740E-01 -1.61589086604E-01 -2.84493491148E-03 -4.58823497566E-04 -2.82523122119E-03 -2.63734451257E-04 +7.30874886249E-01 -4.66295424085E-03
2.82500000000E+09 +6.26820979600E-01 -1.76473761233E-01 -2.77494483711E-03 +3.80100521907E-05 -2.64023357256E-03 +1.73262491874E-04 +7.22965688155E-01 -2.51033519730E-02
2.83000000000E+09 +6.10184031758E-01 -1.92132588697E-01 -2.78300283855E-03 +3.50807198737E-04 -2.63003729022E-03 +3.19224378781E-04 +7.14221681183E-01 -4.54180361181E-02
2.83500000000E+09 +5.91722565692E-01 -2.08758847741E-01 -2.65620798773E-03 +9.62775087460E-04 -2.61267123346E-03 +7.81263614028E-04 +7.04245577467E-01 -6.61490896015E-02
2.84000000000E+09 +5.70602682438E-01 -2.27372416036E-01 -2.27067724389E-03 +1.22937186884E-03 -2.25352221799E-03 +1.14010504781E-03 +6.93217830547E-01 -8.73459818795E-02
2.84500000000E+09 +5.47528070528E-01 -2.47002041893E-01 -2.03234131592E-03 +1.31004345879E-03 -2.12188395782E-03 +1.21048411319E-03 +6.80312460095E-01 -1.08836803320E-01
2.85000000000E+09 +5.22770846994E-01 -2.67721476171E-01 -1.97173971878E-03 +1.46851558141E-03 -1.96287656252E-03 +1.48845336208E-03 +6.66033231910E-01 -1.29572153698E-01
2.85500000000E+09 +4.96524023901E-01 -2.87634199124E-01 -1.82511797118E-03 +1.57168495661E-03 -1.79998567148E-03 +1.58703058407E-03 +6.50281212897E-01 -1.49345508335E-01
2.86000000000E+09 +4.70493173017E-01 -3.05406917099E-01 -1.64173212296E-03 +1.94377826907E-03 -1.64219249081E-03 +1.88384379121E-03 +6.34747382666E-01 -1.68746374131E-01
2.86500000000E+09 +4.46103803502E-01 -3.21101881209E-01 -1.56048428025E-03 +1.89861402085E-03 -1.61160691092E-03 +1.85814703471E-03 +6.17701986065E-01 -1.89150410145E-01
2.87000000000E+09 +4.22316922605E-01 -3.35573087897E-01 -1.38900233418E-03 +2.73555561971E-03 -1.42874732717E-03 +2.78094217510E-03 +5.99215868979E-01 -2.08964401962E-01
2.87500000000E+09 +3.97930247182E-01 -3.47748664410E-01 -3.64331588544E-04 +2.47455497747E-03 -3.32530267947E-04 +2.52089646918E-03 +5.78799023622E-01 -2.28610005992E-01
2.88000000000E+09 +3.72739808029E-01 -3.57952464851E-01 -5.89705487481E-04 +2.14054041554E-03 -4.82554967376E-04 +2.12735208278E-03 +5.58050264597E-01 -2.46437022407E-01
2.88500000000E+09 +3.45253993797E-01 -3.66296093252E-01 -3.69145265295E-04 +2.66874385329E-03 -3.27034046773E-04 +2.50186391095E-03 +5.36435305425E-01 -2.65196208709E-01
2.89000000000E+09 +3.15177903640E-01 -3.72327029939E-01 +9.24052048128E-05 +2.55234141850E-03 -1.29324029400E-05 +2.43932997657E-03 +5.12245618811E-01 -2.83126319866E-01
2.89500000000E+09 +2.83166285043E-01 -3.76317581808E-01 +2.93679313967E-04 +2.63956391552E-03 +1.74287694345E-04 +2.56613814885E-03 +4.86845563091E-01 -3.00591247331E-01
2.90000000000E+09 +2.49064138286E-01 -3.79338101693E-01 +8.36657336905E-04 +2.65263696789E-03 +6.54030058208E-04 +2.73897929367E-03 +4.60104410276E-01 -3.17940399682E-01
2.90500000000E+09 +2.13027677634E-01 -3.81285627064E-01 +1.10291096970E-03 +2.37259775181E-03 +1.10844006124E-03 +2.42610352728E-03 +4.31699873466E-01 -3.34651962884E-01
2.91000000000E+09 +1.76129600488E-01 -3.81522030038E-01 +1.50915390506E-03 +2.17947424395E-03 +1.54736545003E-03 +2.19714152068E-03 +4.01905609774E-01 -3.50856402860E-01
2.91500000000E+09 +1.39633924755E-01 -3.80348592967E-01 +1.75242824902E-03 +2.03916921128E-03 +1.74637853090E-03 +1.92498040758E-03 +3.69253429108E-01 -3.64854786205E-01
2.92000000000E+09 +1.03168709600E-01 -3.77362321455E-01 +2.16765528488E-03 +1.64112425472E-03 +2.00072410204E-03 +1.63780924824E-03 +3.34783256875E-01 -3.76307657708E-01
2.92500000000E+09 +6.81652722907E-02 -3.71050804905E-01 +2.18971100903E-03 +1.04840251026E-03 +2.00783072080E-03 +1.11713511058E-03 +2.98818488859E-01 -3.84532995297E-01
2.93000000000E+09 +3.52280251185E-02 -3.62235169023E-01 +1.95326672256E-03 +7.85395826431E-04 +1.88399281023E-03 +8.67089846763E-04 +2.62221955578E-01 -3.91400291019E-01
2.93500000000E+09 +3.82025172478E-03 -3.51287945052E-01 +2.09546547042E-03 +6.59165827168E-04 +2.05773879778E-03 +8.10329895230E-04 +2.23854195449E-01 -3.97156591163E-01
2.94000000000E+09 -2.72945048822E-02 -3.37976748642E-01 +2.08286299537E-03 +1.89468784138E-04 +2.08515471794E-03 +1.98792745937E-04 +1.82983368114E-01 -4.00421373171E-01
2.94500000000E+09 -5.82377232630E-02 -3.21792073970E-01 +1.59714439093E-03 +1.98948624235E-04 +1.62428830130E-03 +1.72700539982E-04 +1.43367769404E-01 -3.99948861721E-01
2.95000000000E+09 -8.97867445784E-02 -3.01860463362E-01 +1.93150972117E-03 +1.69873284269E-04 +1.90653533305E-03 +2.50626122651E-04 +1.02945514182E-01 -3.98076442153E-01
2.95500000000E+09 -1.19515280106E-01 -2.78970057438E-01 +2.01823115838E-03 -1.63450811354E-04 +2.05093204840E-03 -1.85405430610E-04 +6.26427640364E-02 -3.92778949151E-01
2.96000000000E+09 -1.48986722599E-01 -2.54696727900E-01 +1.49190724609E-03 -7.58638063510E-04 +1.51823572770E-03 -7.97625741143E-04 +2.10658444859E-02 -3.84484156318E-01
2.96500000000E+09 -1.76931609676E-01 -2.27718241135E-01 +9.68274499601E-04 -2.10367819091E-04 +1.01439595860E-03 -1.98892323403E-04 -1.96056296266E-02 -3.71462887273E-01
2.97000000000E+09 -2.02156264695E-01 -2.00334128801E-01 +1.50812168452E-03 +3.73837035633E-06 +1.49977320340E-03 -3.50914336232E-05 -5.87564558727E-02 -3.56847063078E-01
2.97500000000E+09 -2.26284233199E-01 -1.71697006391E-01 +1.73120905441E-03 -5.12396848977E-04 +1.63393001617E-03 -5.06940854286E-04 -9.75546591405E-02 -3.40854026611E-01
2.98000000000E+09 -2.47801940164E-01 -1.41855243305E-01 +1.14425165898E-03 -6.89097418718E-04 +1.17258677152E-03 -6.01417112248E-04 -1.36640684023E-01 -3.21977584417E-01
2.98500000000E+09 -2.66613817907E-01 -1.10743028162E-01 +1.37725236541E-03 -3.65540213066E-04 +1.38131031786E-03 -3.43752494036E-04 -1.74213619748E-01 -2.99759272164E-01
2.99000000000E+09 -2.82876199207E-01 -7.89015303867E-02 +1.55183701056E-03 -5.99854763187E-04 +1.58439995098E-03 -5.35551551727E-04 -2.10294793917E-01 -2.73963457949E-01
2.99500000000E+09 -2.96904098857E-01 -4.66667380278E-02 +1.47884282203E-03 -7.74597194142E-04 +1.50622967734E-03 -8.61952361390E-04 -2.44069757633E-01 -2.44637993987E-01
3.00000000000E+09 -3.10179604876E-01 -1.35533078236E-02 +1.54834253776E-03 -8.87786683875E-04 +1.48841228323E-03 -1.01269275762E-03 -2.75255531268E-01 -2.13076836317E-01
3.00500000000E+09 -3.20950130450E-01 +2.03446370678E-02 +1.52959771151E-03 -1.16852872453E-03 +1.45140353464E-03 -1.17957152219E-03 -3.04757808389E-01 -1.80533449816E-01
3.01000000000E+09 -3.29678523092E-01 +5.39233727987E-02 +1.28216760721E-03 -1.40522425174E-03 +1.27742494718E-03 -1.33031765066E-03 -3.32044731157E-01 -1.44706328387E-01
3.01500000000E+09 -3.36295710562E-01 +8.75219682169E-02 +1.29688588758E-03 -1.60589086554E-03 +1.27751505320E-03 -1.47543276814E-03 -3.56189518312E-01 -1.08500443963E-01
3.02000000000E+09 -3.39248487129E-01 +1.19745339674E-01 +1.12652399714E-03 -1.98699762837E-03 +1.25142316433E-03 -1.94940093197E-03 -3.77149106743E-01 -7.02540718664E-02
3.02500000000E+09 -3.39540275157E-01 +1.49804557429E-01 +4.97296070558E-04 -2.02001420068E-03 +5.86953478257E-04 -2.05376736090E-03 -3.94387727657E-01 -3.19168691913E-02
3.03000000000E+09 -3.38100409549E-01 +1.78088885441E-01 +4.94919462822E-04 -1.75639959338E-03 +5.06911042205E-04 -1.76948402416E-03 -4.09571604520E-01 +8.05240350165E-03
3.03500000000E+09 -3.34602169731E-01 +2.06558142746E-01 +4.39071573803E-04 -2.00169927819E-03 +4.90134291582E-04 -1.97239973907E-03 -4.21320785948E-01 +4.87187374214E-02
3.04000000000E+09 -3.27563924689E-01 +2.35656591767E-01 +2.70061453556E-04 -2.26190231625E-03 +3.26410722805E-04 -2.31899343603E-03 -4.29045685027E-01 +8.95165124006E-02
3.04500000000E+09 -3.17582060237E-01 +2.63754197020E-01 -3.97820111001E-04 -2.24734331095E-03 -4.04817411541E-04 -2.31416112696E-03 -4.34605731680E-01 +1.29249911033E-01
3.05000000000E+09 -3.06276083669E-01 +2.93217676657E-01 -4.33501518783E-04 -1.92917753198E-03 -5.94517906385E-04 -1.99806160553E-03 -4.37635358107E-01 +1.67765996220E-01
3.05500000000E+09 -2.92053748195E-01 +3.22006979477E-01 -5.86293457516E-04 -1.99191071077E-03 -6.93173932242E-04 -1.88833204694E-03 -4.39110264085E-01 +2.06461287150E-01
3.06000000000E+09 -2.77523261092E-01 +3.49816423099E-01 -8.12519569326E-04 -1.85886219129E-03 -9.28409864274E-04 -1.77600437669E-03 -4.37749532498E-01 +2.44437633448E-01
3.06500000000E+09 -2.62848638938E-01 +3.76580372038E-01 -9.70431640984E-04 -1.93959152486E-03 -8.73512697377E-04 -1.82746233665E-03 -4.33982768191E-01 +2.81724931367E-01
3.07000000000E+09 -2.49377110508E-01 +4.00893996689E-01 -1.57537630249E-03 -1.92521059463E-03 -1.42291194635E-03 -1.95703249471E-03 -4.28116031905E-01 +3.18057377106E-01
