# Hz S RI R 50
! CMT, C1220, 16058040, 17.2.0/1
! Date: 15/08/2018 10:26:24
! Data: Format (Calibration Info)
! Freq                      S11: Re/Im (F2)                       S21: Re/Im (F2)                       S12: Re/Im (F2)                       S22: Re/Im (F2)            
2.50000000000E+09 +5.81767386493E-01 +6.41787747371E-01 +2.07254924918E-04 -4.83776397371E-05 +2.37940663927E-04 +9.28853881903E-06 +5.70608689935E-01 +7.19662062605E-01
2.50500000000E+09 +5.88925629023E-01 +6.34145913746E-01 +2.38571412697E-04 -2.50175375507E-05 +2.71215516477E-04 +6.50616914999E-06 +5.76597553046E-01 +7.13770870310E-01
2.51000000000E+09 +5.96399484772E-01 +6.26158580699E-01 +2.51949032685E-04 -9.60649119854E-05 +3.05327620214E-04 -1.08355215557E-04 +5.82518622329E-01 +7.07955234035E-01
2.51500000000E+09 +6.03674847799E-01 +6.18309500765E-01 +2.57289061475E-04 -8.24854128083E-05 +3.12015762629E-04 -1.05307382964E-04 +5.87895671808E-01 +7.01993637725E-01
2.52000000000E+09 +6.10320842703E-01 +6.10462994136E-01 +2.95669221886E-04 -2.13378418779E-04 +2.90286669945E-04 -1.72011969859E-04 +5.92892472334E-01 +6.95578158073E-01
2.52500000000E+09 +6.16032794911E-01 +6.03072247728E-01 +1.73375497340E-04 -2.22515558124E-04 +2.18112343207E-04 -2.83522701724E-04 +5.98586935378E-01 +6.88892448439E-01
2.53000000000E+09 +6.21080166931E-01 +5.96270599286E-01 +1.75319358331E-04 -2.61234541632E-04 +2.22217299439E-04 -2.74119534551E-04 +6.04405910262E-01 +6.81534222297E-01
2.53500000000E+09 +6.25777661648E-01 +5.89814340762E-01 +1.29487726220E-04 -2.89575245669E-04 +1.61406677797E-04 -3.02945202151E-04 +6.09956494621E-01 +6.74478700871E-01
2.54000000000E+09 +6.29926035283E-01 +5.83497225206E-01 +1.02003226719E-04 -2.98375421930E-04 +5.62359739937E-05 -2.72255185901E-04 +6.15550867451E-01 +6.67824532970E-01
2.54500000000E+09 +6.34278366869E-01 +5.77627890325E-01 +6.51577378294E-06 -2.85381930889E-04 +5.63342587375E-05 -2.93083480098E-04 +6.20931839047E-01 +6.61271007879E-01
2.55000000000E+09 +6.39081326583E-01 +5.71502701965E-01 +2.95932627377E-05 -2.57957148691E-04 +3.42995590791E-05 -2.51512129241E-04 +6.25506589794E-01 +6.54928373097E-01
2.55500000000E+09 +6.44472043299E-01 +5.64720406548E-01 +4.56007320634E-05 -3.06080626571E-04 +7.92689940486E-05 -3.50031544514E-04 +6.30068685730E-01 +6.48863501653E-01
2.56000000000E+09 +6.50653238313E-01 +5.57883881454E-01 +1.36464616696E-05 -2.92565120397E-04 -5.09363484564E-05 -4.12958056338E-04 +6.35002125777E-01 +6.42056182696E-01
2.56500000000E+09 +6.57019701630E-01 +5.49924829195E-01 -7.49473882152E-05 -3.50193529686E-04 -1.58246185696E-04 -3.21645002590E-04 +6.40096932561E-01 +6.34898051203E-01
2.57000000000E+09 +6.63255067663E-01 +5.41966392393E-01 -1.30800615199E-04 -3.38051631829E-04 -2.62488933664E-04 -3.25896189576E-04 +6.45433925475E-01 +6.27420496521E-01
2.57500000000E+09 +6.69467190100E-01 +5.33792534356E-01 -3.18015960883E-04 -2.30777972485E-04 -2.81609635489E-04 -1.17992429168E-04 +6.50787417491E-01 +6.20132990279E-01
2.58000000000E+09 +6.74742865610E-01 +5.25536972560E-01 -2.21519729378E-04 -1.15866452361E-04 -2.08044318574E-04 -7.14873772776E-05 +6.56038269082E-01 +6.12903973792E-01
2.58500000000E+09 +6.79590447481E-01 +5.17281814336E-01 -2.15536210197E-04 -1.42735471954E-04 -1.89180022708E-04 -5.23127590348E-05 +6.61129154043E-01 +6.05281731421E-01
2.59000000000E+09 +6.83702353551E-01 +5.09498131313E-01 -1.91686705258E-04 -3.99894320973E-06 -2.23927053826E-04 -3.98245570388E-05 +6.66064607288E-01 +5.97858573139E-01
2.59500000000E+09 +6.87618902652E-01 +5.01615513919E-01 -1.60230151998E-04 -3.92324272833E-05 -1.15598788568E-04 -6.12794300367E-05 +6.71171785308E-01 +5.89965054387E-01
2.60000000000E+09 +6.91364085509E-01 +4.93257799554E-01 -1.71675957915E-04 +4.98020684440E-06 -1.43360179718E-04 -1.15048775998E-05 +6.76480875763E-01 +5.81444484107E-01
2.60500000000E+09 +6.95647827318E-01 +4.84128747038E-01 -1.21077319398E-04 +3.94182493231E-05 -1.11371112886E-04 -9.13334669810E-06 +6.81951130070E-01 +5.72607064847E-01
2.61000000000E+09 +6.99982348005E-01 +4.73871427233E-01 -7.37003865907E-05 -1.11462418698E-04 -4.25266050884E-05 -1.00125477760E-04 +6.87162054329E-01 +5.63769640415E-01
2.61500000000E+09 +7.04738980584E-01 +4.62509460414E-01 -1.41044556107E-04 -9.89510237073E-05 -1.76108356184E-04 -8.89294140906E-05 +6.91788000953E-01 +5.55065576448E-01
2.62000000000E+09 +7.09498013648E-01 +4.50147764772E-01 -1.86670622009E-04 +5.33560640568E-05 -2.03450426292E-04 +2.55184629540E-05 +6.96476040561E-01 +5.46056323338E-01
2.62500000000E+09 +7.14431367456E-01 +4.36941944305E-01 -1.09809048941E-04 +5.18043197271E-05 -9.76392041559E-05 +3.57424126872E-05 +7.00863220751E-01 +5.37127136040E-01
2.63000000000E+09 +7.18990579138E-01 +4.23363825087E-01 -8.60765837833E-05 +1.11032457053E-05 -6.67718540967E-05 +2.28539013027E-05 +7.05455327985E-01 +5.28053546668E-01
2.63500000000E+09 +7.22900394307E-01 +4.09978914459E-01 -1.11526854116E-04 +3.91416346456E-05 -9.22442091866E-05 +1.76948753559E-05 +7.09939411893E-01 +5.18980377330E-01
2.64000000000E+09 +7.26577491825E-01 +3.97218605070E-01 -9.06388931863E-05 -2.50382234246E-05 -8.27273893336E-05 -4.70775941468E-05 +7.14363602156E-01 +5.09408591597E-01
2.64500000000E+09 +7.29879796843E-01 +3.85500258835E-01 -6.65437695311E-05 -1.01098083536E-05 -5.64726810854E-05 +6.96688565767E-06 +7.18863258852E-01 +4.99835585822E-01
2.65000000000E+09 +7.32781267258E-01 +3.74785315064E-01 -5.72754203630E-05 -5.18183254887E-05 -5.37999792017E-05 -3.55412742057E-05 +7.23161875042E-01 +4.89872328311E-01
2.65500000000E+09 +7.36069479805E-01 +3.64123905577E-01 -1.71220783083E-04 -7.96628987677E-05 -1.98902678612E-04 -1.01254315306E-04 +7.26873468664E-01 +4.79491197994E-01
2.66000000000E+09 +7.39306837665E-01 +3.53394173015E-01 -2.08909977830E-04 +1.01616205166E-04 -2.64127301271E-04 +1.48801595497E-04 +7.30593702624E-01 +4.68627871625E-01
2.66500000000E+09 +7.42601189779E-01 +3.42333957402E-01 -7.73514344063E-05 +1.41009678827E-04 -5.85563887914E-05 +1.65758111105E-04 +7.34918345210E-01 +4.57581112996E-01
2.67000000000E+09 +7.45692949695E-01 +3.30162183528E-01 -6.69809992909E-06 +1.17532776997E-04 +3.26475119319E-05 +1.23811472318E-04 +7.39143800449E-01 +4.46763671470E-01
2.67500000000E+09 +7.48173591178E-01 +3.16775249398E-01 +5.93394723044E-05 +3.17445239308E-06 +2.09653395828E-05 +3.61554926924E-06 +7.43338523374E-01 +4.35712467019E-01
2.68000000000E+09 +7.49800913002E-01 +3.02814178803E-01 -8.47432021899E-05 -8.94919106767E-05 -6.31725411154E-05 -5.07831479428E-05 +7.47189335135E-01 +4.24644151518E-01
2.68500000000E+09 +7.51019043200E-01 +2.88712001433E-01 -1.16958463073E-04 +3.51541745655E-05 -1.31916395252E-04 +5.39456698739E-05 +7.50206924779E-01 +4.13423267547E-01
2.69000000000E+09 +7.51692726999E-01 +2.74297340276E-01 +1.25948348472E-05 +1.34664137665E-04 +2.29464286922E-05 +1.65705571832E-04 +7.52902088510E-01 +4.01780383686E-01
2.69500000000E+09 +7.51765771903E-01 +2.59334630798E-01 +6.76355668397E-05 +1.28387002947E-05 +5.86379043678E-05 +2.13501278201E-05 +7.55558811927E-01 +3.89437512461E-01
2.70000000000E+09 +7.52295094869E-01 +2.45156316068E-01 -9.38097143597E-06 -5.21885648382E-05 -1.94806618527E-05 -8.34643012068E-05 +7.58571052768E-01 +3.76503283029E-01
2.70500000000E+09 +7.52605072062E-01 +2.31594271053E-01 -4.28901422647E-05 -3.85103867942E-05 -9.13805955351E-05 -3.36989081592E-05 +7.61365590598E-01 +3.63508220693E-01
2.71000000000E+09 +7.53231169604E-01 +2.18246973827E-01 -6.16197254421E-05 -3.10569464055E-05 -5.96285927683E-05 -2.56670447887E-05 +7.64459376031E-01 +3.50457926245E-01
2.71500000000E+09 +7.54012163072E-01 +2.04442858054E-01 -6.41225774703E-05 -4.79215985426E-05 -3.75489058014E-05 -4.01020043967E-05 +7.66801992651E-01 +3.37762563271E-01
2.72000000000E+09 +7.54729454266E-01 +1.90110369177E-01 -1.10965006545E-04 -1.38096492949E-04 -8.83179641721E-05 -1.42243223338E-04 +7.68724046197E-01 +3.25218503255E-01
2.72500000000E+09 +7.54999189489E-01 +1.74686006803E-01 -2.70690335599E-04 -1.35177244551E-04 -2.91478808867E-04 -9.79739762236E-05 +7.69982120965E-01 +3.11953586105E-01
2.73000000000E+09 +7.53945089562E-01 +1.58328502759E-01 -3.02743177361E-04 +1.38123362833E-04 -3.01073453122E-04 +1.52208986650E-04 +7.71442196042E-01 +2.97989534521E-01
2.73500000000E+09 +7.51662243251E-01 +1.41399997838E-01 -1.23268960613E-04 +1.66785477037E-04 -6.54334758085E-05 +1.42365843163E-04 +7.72173172494E-01 +2.83101893526E-01
2.74000000000E+09 +7.48370896362E-01 +1.24606125593E-01 -8.82909743895E-05 +2.00626867851E-04 -1.14557624839E-04 +1.45807638539E-04 +7.73458084169E-01 +2.68417895375E-01
2.74500000000E+09 +7.44174846357E-01 +1.07467355617E-01 -1.22427596627E-05 +5.65806769016E-05 -4.86538498667E-05 +4.38079868835E-05 +7.74344954223E-01 +2.53453265897E-01
2.75000000000E+09 +7.39259178233E-01 +9.04666345619E-02 -7.71596382056E-05 +5.41667722998E-06 -5.85007256404E-05 +6.46557709493E-06 +7.75432678053E-01 +2.38776361119E-01
2.75500000000E+09 +7.33753826725E-01 +7.35702531546E-02 -1.31820178250E-04 -1.39621190966E-05 -1.50063679943E-04 -7.20806992145E-05 +7.75390901965E-01 +2.23510032112E-01
2.76000000000E+09 +7.28442109417E-01 +5.70600721683E-02 -2.31059190564E-04 +5.44410618346E-05 -2.36076646333E-04 +1.43595955165E-05 +7.74528403815E-01 +2.08433683668E-01
2.76500000000E+09 +7.23597209273E-01 +4.03949000463E-02 -3.21475389208E-04 +9.72504225055E-05 -3.21866175915E-04 +1.46478090967E-04 +7.73599865856E-01 +1.92813632057E-01
2.77000000000E+09 +7.19271259814E-01 +2.28336157312E-02 -1.91123656239E-04 +2.64724594694E-04 -2.18684886662E-04 +2.88697284313E-04 +7.73065979829E-01 +1.76063882924E-01
2.77500000000E+09 +7.15019719173E-01 +4.41762443059E-03 -1.76276048250E-04 +2.15818043772E-04 -1.89318894181E-04 +1.90834281651E-04 +7.71742618349E-01 +1.58422924739E-01
2.78000000000E+09 +7.10921037235E-01 -1.51896479747E-02 -1.42298945008E-04 +2.28219535397E-04 -1.23571342488E-04 +2.70300893636E-04 +7.70000128562E-01 +1.41005182023E-01
2.78500000000E+09 +7.05556349151E-01 -3.58587278130E-02 -1.33250771496E-04 +8.96742271120E-05 -1.25270858885E-04 +9.72960984305E-06 +7.67763088888E-01 +1.23840660317E-01
2.79000000000E+09 +6.99129749517E-01 -5.68385389333E-02 -4.26147628779E-04 +1.16640008868E-04 -3.48129072313E-04 +1.11162626075E-04 +7.65429068174E-01 +1.07218768420E-01
2.79500000000E+09 +6.91684043244E-01 -7.73332598974E-02 -3.23551925214E-04 +4.32360484882E-04 -2.90594504199E-04 +3.67034281188E-04 +7.62728416233E-01 +8.88334736656E-02
2.80000000000E+09 +6.82785219772E-01 -9.73097839352E-02 -1.97263685816E-04 +4.74888018635E-04 -2.44974064770E-04 +4.43970589684E-04 +7.58004447367E-01 +6.98581224236E-02
2.80500000000E+09 +6.73091403347E-01 -1.15960772947E-01 -2.33588279163E-04 +4.77048862888E-04 -2.36458144128E-04 +4.98828325632E-04 +7.52876982362E-01 +5.08283863567E-02
2.81000000000E+09 +6.62121333166E-01 -1.33538392592E-01 -2.43536082849E-04 +6.18103312084E-04 -2.51008664594E-04 +6.23940690179E-04 +7.47426190963E-01 +3.10157239194E-02
2.81500000000E+09 +6.50506323077E-01 -1.50316711531E-01 -1.33695727516E-05 +8.74244034242E-04 +9.29429809310E-06 +8.23617939975E-04 +7.40868253001E-01 +1.08912116229E-02
2.82000000000E+09 +6.37758827095E-01 -1.66761320675E-01 +2.10189498851E-04 +7.42073126281E-04 +3.10199271071E-04 +7.50639523277E-04 +7.33777349037E-01 -9.54911042541E-03
2.82500000000E+09 +6.23991559717E-01 -1.83124338491E-01 +2.60157857344E-04 +6.24628603858E-04 +2.35812583433E-04 +5.71185385627E-04 +7.25210540681E-01 -3.04220978734E-02
2.83000000000E+09 +6.08588419926E-01 -2.00421968387E-01 +2.42308085193E-04 +6.75474526181E-04 +2.44637168266E-04 +6.69325263693E-04 +7.15305965217E-01 -5.08042892652E-02
2.83500000000E+09 +5.91249301915E-01 -2.18406459434E-01 +4.33137643457E-04 +9.13693055856E-04 +4.28007711434E-04 +9.32133959785E-04 +7.04790688158E-01 -7.09790919761E-02
2.84000000000E+09 +5.71193638966E-01 -2.36628572843E-01 +9.01449070852E-04 +7.70498402882E-04 +8.54067508428E-04 +8.16720382883E-04 +6.93440511755E-01 -9.17238655042E-02
2.84500000000E+09 +5.49324188967E-01 -2.54409312884E-01 +9.75708658613E-04 +5.97507912907E-04 +9.23710800310E-04 +6.24415672350E-04 +6.80866057046E-01 -1.12745096866E-01
2.85000000000E+09 +5.26420250613E-01 -2.71854674213E-01 +1.21688735600E-03 +4.55010345457E-04 +1.20860060237E-03 +3.92887541308E-04 +6.66461201211E-01 -1.33766339703E-01
2.85500000000E+09 +5.02272716743E-01 -2.89059457106E-01 +1.16914508598E-03 +5.40381139833E-05 +1.08251396916E-03 -8.36684576902E-06 +6.51011374209E-01 -1.53594360598E-01
2.86000000000E+09 +4.76877174656E-01 -3.05461216038E-01 +1.10259198696E-03 -1.93201216673E-06 +1.09342563156E-03 -2.72160150486E-05 +6.34823038084E-01 -1.73679859035E-01
2.86500000000E+09 +4.51241799582E-01 -3.19600405115E-01 +1.16063522505E-03 -2.53373843180E-04 +1.17010385299E-03 -2.63258673539E-04 +6.16892338465E-01 -1.93903413998E-01
2.87000000000E+09 +4.25751051222E-01 -3.32706773034E-01 +1.00599485608E-03 -3.84396609645E-04 +9.98603935961E-04 -3.67854286339E-04 +5.97857056754E-01 -2.13603623235E-01
2.87500000000E+09 +4.00592579516E-01 -3.44368410118E-01 +1.05726159276E-03 -5.51064410984E-04 +1.00173183247E-03 -5.51790980613E-04 +5.77161617886E-01 -2.32914110198E-01
2.88000000000E+09 +3.75208247391E-01 -3.55455569439E-01 +9.09932806750E-04 -7.75612132047E-04 +7.90365937464E-04 -7.53723399525E-04 +5.55806067647E-01 -2.50713754484E-01
2.88500000000E+09 +3.48799286027E-01 -3.65693361798E-01 +7.30546669470E-04 -7.66338488336E-04 +7.42901356146E-04 -7.47825870086E-04 +5.33811898670E-01 -2.68826844673E-01
2.89000000000E+09 +3.20655221137E-01 -3.74430224237E-01 +6.38690116656E-04 -1.00343889777E-03 +6.27350118215E-04 -9.78972058494E-04 +5.09630911537E-01 -2.86262796021E-01
2.89500000000E+09 +2.91576835832E-01 -3.81317111763E-01 +5.90183973625E-04 -8.53401153282E-04 +5.94880693652E-04 -7.82082444489E-04 +4.84202407335E-01 -3.03969090875E-01
2.90000000000E+09 +2.61002631090E-01 -3.87294618041E-01 +6.25704422498E-04 -1.13915916148E-03 +6.93281541146E-04 -1.12223735301E-03 +4.55609619288E-01 -3.21398811645E-01
2.90500000000E+09 +2.28293377823E-01 -3.91395912920E-01 +1.00650541627E-04 -1.49029240348E-03 +1.42594894835E-04 -1.53083335406E-03 +4.25860057612E-01 -3.36168226334E-01
2.91000000000E+09 +1.94778769965E-01 -3.91840916692E-01 -2.80205677101E-04 -1.21923319049E-03 -3.12159443185E-04 -1.17788210440E-03 +3.96116611667E-01 -3.50137729651E-01
2.91500000000E+09 +1.61915590834E-01 -3.90840142511E-01 -2.27162855910E-04 -7.51471856890E-04 -2.41540408635E-04 -7.18861621722E-04 +3.64428991285E-01 -3.62902098660E-01
2.92000000000E+09 +1.28365291847E-01 -3.87656959641E-01 +3.95463735408E-05 -8.12722508630E-04 +3.46042659130E-05 -7.85789598504E-04 +3.30975294762E-01 -3.73364327403E-01
2.92500000000E+09 +9.60704327742E-02 -3.82311239002E-01 +3.49740778471E-05 -1.41557461853E-03 +5.57824529887E-05 -1.35744518228E-03 +2.95844990840E-01 -3.80941654314E-01
2.93000000000E+09 +6.41573811358E-02 -3.76105870086E-01 -9.28305331732E-04 -1.59989848760E-03 -8.38034532155E-04 -1.60466343172E-03 +2.60129360360E-01 -3.87653080378E-01
2.93500000000E+09 +3.17090467996E-02 -3.68185850581E-01 -1.29556256549E-03 -6.90325176047E-04 -1.23713186754E-03 -7.47933464920E-04 +2.22017978975E-01 -3.93029436042E-01
2.94000000000E+09 -8.92884876713E-04 -3.57399605497E-01 -7.34463438442E-04 -1.60085698249E-04 -7.65122581128E-04 -1.58526500092E-04 +1.82207540888E-01 -3.96027408031E-01
2.94500000000E+09 -3.21549325478E-02 -3.43903325781E-01 -3.59109792144E-04 -4.10855895267E-04 -3.45725810182E-04 -3.80707242934E-04 +1.41418409430E-01 -3.95473360380E-01
2.95000000000E+09 -6.33851904948E-02 -3.27666740086E-01 -4.41419718934E-04 -9.84894880929E-04 -4.55463088843E-04 -9.49902648539E-04 +1.02465409338E-01 -3.91605843117E-01
2.95500000000E+09 -9.28789536006E-02 -3.08541299417E-01 -1.28308884793E-03 -7.91393338649E-04 -1.22973207583E-03 -8.36964035645E-04 +6.32832542538E-02 -3.86346284298E-01
2.96000000000E+09 -1.21258173393E-01 -2.87136651959E-01 -1.48941138727E-03 -2.85173810796E-04 -1.49683338789E-03 -3.18356968174E-04 +2.33381888718E-02 -3.77359176012E-01
2.96500000000E+09 -1.47903676441E-01 -2.64251463938E-01 -1.03051892238E-03 +4.01603708136E-04 -1.09458362115E-03 +4.41504979470E-04 -1.56067717201E-02 -3.66317107820E-01
2.97000000000E+09 -1.74295460025E-01 -2.38434032119E-01 -5.23297996512E-04 +1.90076374089E-04 -5.30584857382E-04 +1.72963410008E-04 -5.66872373000E-02 -3.52582540785E-01
2.97500000000E+09 -1.97874773998E-01 -2.10672446578E-01 -4.21803014425E-04 -3.24097156179E-04 -4.07600683266E-04 -3.06835889691E-04 -9.51460313144E-02 -3.34720947726E-01
2.98000000000E+09 -2.19705009366E-01 -1.81803207327E-01 -1.35908443905E-03 -3.83237524678E-04 -1.30946659490E-03 -3.93820028397E-04 -1.33105087442E-01 -3.15878562246E-01
2.98500000000E+09 -2.40098605556E-01 -1.52983936696E-01 -1.26924805551E-03 +4.21054436890E-04 -1.33303825189E-03 +3.36358033920E-04 -1.70221239225E-01 -2.93282010259E-01
2.99000000000E+09 -2.59436291337E-01 -1.22129121703E-01 -1.02902445847E-03 +5.31899547806E-04 -1.01175251224E-03 +5.48200091991E-04 -2.05197865307E-01 -2.67502147102E-01
2.99500000000E+09 -2.75662495014E-01 -9.11783191753E-02 -7.84466772740E-04 +6.92537554165E-04 -8.20156558000E-04 +7.52693942725E-04 -2.38623050590E-01 -2.37756871683E-01
3.00000000000E+09 -2.91037816073E-01 -6.00602653000E-02 -5.76292389827E-04 +4.75714563247E-04 -5.36541420147E-04 +5.31452400987E-04 -2.68138021263E-01 -2.06940463000E-01
3.00500000000E+09 -3.03443564671E-01 -2.89029122094E-02 -1.03253153993E-03 +5.35069388951E-04 -9.20338925122E-04 +5.08834042027E-04 -2.97650585798E-01 -1.74445379717E-01
3.01000000000E+09 -3.14207985543E-01 +1.84288380935E-03 -9.56161332225E-04 +1.00148293943E-03 -9.08212658069E-04 +9.45813040188E-04 -3.23760793721E-01 -1.39524894956E-01
3.01500000000E+09 -3.22632304092E-01 +3.23388850983E-02 -3.79173672166E-04 +1.53413743434E-03 -3.80999900639E-04 +1.51346902623E-03 -3.47230283330E-01 -1.03899287030E-01
3.02000000000E+09 -3.28167241268E-01 +6.37098570325E-02 +4.36659494944E-04 +1.06853767380E-03 +4.40347808835E-04 +1.06292184002E-03 -3.67925365719E-01 -6.63478111841E-02
3.02500000000E+09 -3.30038105657E-01 +9.36995195325E-02 +2.64731644686E-04 +2.55990903442E-04 +2.41443658778E-04 +2.54209582446E-04 -3.84746920686E-01 -2.76366731674E-02
3.03000000000E+09 -3.29132588942E-01 +1.23198563132E-01 -4.24831736900E-04 +3.98903547243E-04 -3.73475576725E-04 +4.01896767767E-04 -3.98588109733E-01 +1.11445482462E-02
3.03500000000E+09 -3.26070511240E-01 +1.50808638084E-01 -3.61919221299E-04 +9.05102679665E-04 -4.43938441474E-04 +9.32246935434E-04 -4.10072731421E-01 +5.06971839576E-02
3.04000000000E+09 -3.21961346948E-01 +1.79254553166E-01 +2.10710790476E-04 +8.15224401791E-04 +2.20592977583E-04 +8.18666434764E-04 -4.18430376619E-01 +9.05030804796E-02
3.04500000000E+09 -3.14726668181E-01 +2.07215574902E-01 +8.74150934296E-05 +8.62008395874E-04 +8.81367975026E-05 +8.60863298196E-04 -4.23788215306E-01 +1.29413682433E-01
3.05000000000E+09 -3.06496368071E-01 +2.35202970473E-01 +3.75813747408E-04 +6.22134129345E-04 +4.24449012785E-04 +7.03760633374E-04 -4.27041071426E-01 +1.67486885547E-01
3.05500000000E+09 -2.95715138756E-01 +2.62224430641E-01 +2.00642730645E-05 +6.25940293849E-04 +9.37254741199E-05 +6.34481160163E-04 -4.28277690126E-01 +2.04796850647E-01
3.06000000000E+09 -2.84541771731E-01 +2.88365356835E-01 +2.72789854593E-04 +8.76628066973E-04 +2.70574325821E-04 +8.51361967345E-04 -4.27956659304E-01 +2.42421761142E-01
3.06500000000E+09 -2.72891845038E-01 +3.13675302599E-01 +4.88956994096E-04 +6.94013138315E-04 +4.39082304584E-04 +6.46610450983E-04 -4.24629514653E-01 +2.80506000644E-01
3.07000000000E+09 -2.60053680194E-01 +3.38526729341E-01 +6.86502753292E-04 +5.76060131589E-04 +6.27122641242E-04 +5.72215157592E-04 -4.18213809225E-01 +3.16339076488E-01
