# Hz S RI R 50
! CMT, C1220, 16058040, 17.2.0/1
! Date: 15/08/2018 10:16:53
! Data: Format (Calibration Info)
! Freq                      S11: Re/Im (F2)                       S21: Re/Im (F2)                       S12: Re/Im (F2)                       S22: Re/Im (F2)            
2.50000000000E+09 +5.96701346833E-01 +6.33233156213E-01 -1.65234781025E-04 +2.43203483831E-04 -2.15259330486E-04 +3.51250307336E-04 +5.73113558845E-01 +7.16562966465E-01
2.50500000000E+09 +6.03097137901E-01 +6.25266326843E-01 -6.11392435673E-05 +3.32698349262E-04 -9.41845607211E-05 +3.63607656938E-04 +5.78587753496E-01 +7.11037513423E-01
2.51000000000E+09 +6.09474947902E-01 +6.16954762606E-01 +3.66748606675E-05 +3.01487379608E-04 -1.03477417182E-05 +2.47260850193E-04 +5.84007301680E-01 +7.05880381663E-01
2.51500000000E+09 +6.15531303527E-01 +6.09044292314E-01 +3.24427313563E-05 +3.35814212421E-04 +2.93026626015E-05 +2.66057938620E-04 +5.89252087119E-01 +7.00587965253E-01
2.52000000000E+09 +6.21433751213E-01 +6.01071512400E-01 +1.02281678317E-04 +3.13451922945E-04 +1.39045440746E-04 +2.98877621154E-04 +5.94337374258E-01 +6.94690993336E-01
2.52500000000E+09 +6.26536811430E-01 +5.93731753743E-01 +1.39647104815E-04 +1.85995435099E-04 +9.28751334129E-05 +1.55458351810E-04 +5.99893508836E-01 +6.88317846232E-01
2.53000000000E+09 +6.31034456885E-01 +5.86993511786E-01 +1.11001700162E-04 +1.41566858554E-04 +8.79866959629E-05 +1.55176457707E-04 +6.06000682725E-01 +6.81535976468E-01
2.53500000000E+09 +6.35480218042E-01 +5.80787111364E-01 +2.90315863512E-05 +2.01995027681E-04 +8.08706735839E-05 +1.27012762559E-04 +6.12079993388E-01 +6.74727052923E-01
2.54000000000E+09 +6.39346607752E-01 +5.74662678507E-01 +8.87831047303E-05 +2.55667251483E-04 +2.93332336728E-05 +2.29855448905E-04 +6.17847392764E-01 +6.67965140833E-01
2.54500000000E+09 +6.43431399981E-01 +5.68864187269E-01 +1.92472501883E-04 +2.72897982204E-04 +1.63113570548E-04 +3.00358946696E-04 +6.23665862253E-01 +6.61696645328E-01
2.55000000000E+09 +6.48206163235E-01 +5.62892672279E-01 +2.35237375941E-04 +1.71771676979E-04 +2.60206476147E-04 +2.19663394720E-04 +6.29127467947E-01 +6.55368603549E-01
2.55500000000E+09 +6.53578035614E-01 +5.55991716291E-01 +2.89832529816E-04 +4.56637894248E-05 +3.33480839446E-04 +9.59865591947E-05 +6.34365920541E-01 +6.49026448931E-01
2.56000000000E+09 +6.59466478067E-01 +5.48727401052E-01 +1.90862518922E-04 -8.41989563382E-05 +2.23695073973E-04 -8.54826267825E-05 +6.39806827095E-01 +6.41726723945E-01
2.56500000000E+09 +6.65690749029E-01 +5.40328723462E-01 +1.57158991418E-06 -6.37991305378E-05 +4.18517960927E-05 -7.59331035329E-05 +6.45231208994E-01 +6.34231915834E-01
2.57000000000E+09 +6.71626483175E-01 +5.31580220458E-01 +2.43248041925E-05 +1.83664183941E-04 +9.70226749982E-05 +1.56091986221E-04 +6.50656994120E-01 +6.26158718108E-01
2.57500000000E+09 +6.77480138754E-01 +5.22663119018E-01 +1.36524554183E-04 +1.54685375991E-04 +1.10539097102E-04 +8.22174563725E-05 +6.55888961988E-01 +6.18575680487E-01
2.58000000000E+09 +6.82877333627E-01 +5.13904123393E-01 +1.66109147075E-04 +1.70587099579E-04 +1.65577767331E-04 +1.22170940563E-04 +6.60826238013E-01 +6.11257879194E-01
2.58500000000E+09 +6.87779134898E-01 +5.05035017276E-01 +2.39409988241E-04 +6.67270065569E-05 +2.15898601786E-04 +2.98650877816E-05 +6.65832084734E-01 +6.03728349032E-01
2.59000000000E+09 +6.92162665439E-01 +4.96577291354E-01 +1.33504248599E-04 -1.73905142134E-05 +1.49022044069E-04 +2.72345618369E-05 +6.70309645698E-01 +5.96282105962E-01
2.59500000000E+09 +6.96373042732E-01 +4.88176960420E-01 +1.03326314345E-04 +1.35623589656E-04 +1.45463088270E-04 +1.05420143851E-04 +6.75349874514E-01 +5.88409851825E-01
2.60000000000E+09 +7.00114857747E-01 +4.79509219449E-01 +2.75978919437E-04 +1.02046895231E-04 +3.19737999671E-04 +9.32415549210E-05 +6.80413720931E-01 +5.79980550332E-01
2.60500000000E+09 +7.04060565872E-01 +4.70359925387E-01 +2.20063673737E-04 +3.73934209786E-05 +2.39720307422E-04 +4.88800555653E-05 +6.85761606414E-01 +5.71278434601E-01
2.61000000000E+09 +7.08285658226E-01 +4.60349222334E-01 +2.59788175286E-04 +5.88539234584E-05 +2.23099428505E-04 +3.60465835973E-05 +6.90918737265E-01 +5.62557474490E-01
2.61500000000E+09 +7.12834117255E-01 +4.49117236090E-01 +3.41583737655E-04 -4.10785602289E-05 +3.55650800195E-04 -1.13067892841E-05 +6.95785487356E-01 +5.53780954461E-01
2.62000000000E+09 +7.16855858145E-01 +4.36612929529E-01 +2.67507598645E-04 -1.05845086742E-04 +2.82691123225E-04 -1.23761252812E-04 +7.00592983874E-01 +5.44832935349E-01
2.62500000000E+09 +7.20482714280E-01 +4.23559625020E-01 +2.08608131869E-04 -1.11944380576E-04 +2.54744339734E-04 -6.81759001650E-05 +7.05434689505E-01 +5.35980564391E-01
2.63000000000E+09 +7.24054561323E-01 +4.10184336228E-01 +2.50301953449E-04 -7.24354267062E-05 +2.09796337517E-04 -1.22920138122E-04 +7.10259919383E-01 +5.26854897528E-01
2.63500000000E+09 +7.27126873413E-01 +3.97002251672E-01 +2.24634203304E-04 -1.25038217037E-04 +1.96697783756E-04 -1.09961154166E-04 +7.15440272000E-01 +5.17405079399E-01
2.64000000000E+09 +7.29765935699E-01 +3.84391581527E-01 +2.36907759890E-04 -1.33649780470E-04 +2.28848278021E-04 -1.01992889955E-04 +7.20331153625E-01 +5.07327300060E-01
2.64500000000E+09 +7.32611610824E-01 +3.72514347586E-01 +1.46904715831E-04 -9.93983140585E-05 +1.55037187465E-04 -1.15296169753E-04 +7.25227001598E-01 +4.97499225706E-01
2.65000000000E+09 +7.34718157219E-01 +3.61340007961E-01 +2.54887562042E-04 -6.96450727757E-05 +2.38369411656E-04 -2.91443154191E-05 +7.29386032934E-01 +4.87390121946E-01
2.65500000000E+09 +7.37082930501E-01 +3.50691237443E-01 +3.35074170036E-04 -8.32514973516E-05 +3.62002771581E-04 -1.44540013036E-04 +7.33425552152E-01 +4.76736103711E-01
2.66000000000E+09 +7.39852343699E-01 +3.39992737504E-01 +2.97920508106E-04 -2.08653198889E-04 +3.13226349887E-04 -2.36900296034E-04 +7.37233730903E-01 +4.65556559994E-01
2.66500000000E+09 +7.42342901172E-01 +3.28908767744E-01 +3.69964996350E-04 -2.42665890525E-04 +3.45989406729E-04 -2.44503380626E-04 +7.41018759054E-01 +4.54261318189E-01
2.67000000000E+09 +7.44360715341E-01 +3.16975984645E-01 +2.84802482859E-04 -4.71735740466E-04 +2.13083060714E-04 -4.76311143353E-04 +7.45244904682E-01 +4.43636906028E-01
2.67500000000E+09 +7.45993745084E-01 +3.04650697359E-01 +1.20109374298E-04 -3.34894007538E-04 +6.22061087833E-05 -3.39954538881E-04 +7.49386257323E-01 +4.32174119853E-01
2.68000000000E+09 +7.47391414878E-01 +2.91367951347E-01 +1.84910450887E-04 -2.75620271505E-04 +1.73035516492E-04 -2.23873699727E-04 +7.53269819782E-01 +4.20804082090E-01
2.68500000000E+09 +7.48019609093E-01 +2.77425068247E-01 +2.34442260023E-04 -3.83962558395E-04 +2.40372294909E-04 -4.14889863117E-04 +7.55956790145E-01 +4.09151830351E-01
2.69000000000E+09 +7.48207920810E-01 +2.63392690330E-01 +1.57081433768E-04 -4.34219551429E-04 +1.21480788254E-04 -4.41965039985E-04 +7.58291439684E-01 +3.97365331856E-01
2.69500000000E+09 +7.48169036169E-01 +2.49545454237E-01 +1.57548922638E-04 -4.65909561434E-04 +1.67972047550E-04 -4.80425854335E-04 +7.60789672025E-01 +3.85007257129E-01
2.70000000000E+09 +7.48211176299E-01 +2.36019156698E-01 +1.44110424419E-04 -5.97773529561E-04 +1.43832494289E-04 -5.74355325993E-04 +7.63790675207E-01 +3.71718125041E-01
2.70500000000E+09 +7.48583131598E-01 +2.22869617197E-01 +1.99153166756E-05 -7.26743385771E-04 +7.54776060319E-05 -6.71754873382E-04 +7.66417228568E-01 +3.58165443744E-01
2.71000000000E+09 +7.49503169891E-01 +2.09830430332E-01 -2.11078671101E-04 -8.38193088870E-04 -2.04898432980E-04 -8.09554405059E-04 +7.69190020185E-01 +3.45074378795E-01
2.71500000000E+09 +7.51035504217E-01 +1.96196542905E-01 -4.67738263799E-04 -5.79030678471E-04 -5.06098812624E-04 -6.70081304437E-04 +7.71684851671E-01 +3.32423885172E-01
2.72000000000E+09 +7.52358256950E-01 +1.81889708934E-01 -4.27701252089E-04 -4.09302004947E-04 -4.94310187344E-04 -4.11668272051E-04 +7.73892360650E-01 +3.19757379745E-01
2.72500000000E+09 +7.53229414339E-01 +1.66544867619E-01 -2.45783709460E-04 -4.00827282248E-04 -3.15107381929E-04 -3.45577679202E-04 +7.74972513568E-01 +3.06325885162E-01
2.73000000000E+09 +7.52955960608E-01 +1.50604719326E-01 -3.58253503206E-04 -6.14451778530E-04 -3.66181186090E-04 -5.49915494551E-04 +7.76090919744E-01 +2.92573167013E-01
2.73500000000E+09 +7.51474722191E-01 +1.34213065941E-01 -5.87134128044E-04 -5.77639078927E-04 -5.50453412840E-04 -5.00249080439E-04 +7.77365704126E-01 +2.77913520977E-01
2.74000000000E+09 +7.49041323250E-01 +1.17723346809E-01 -8.42209505437E-04 -3.96667458283E-04 -7.26157639101E-04 -4.22563569421E-04 +7.78770900895E-01 +2.62807395246E-01
2.74500000000E+09 +7.45737664049E-01 +1.00803872028E-01 -7.20216571119E-04 -2.43325625746E-05 -6.93992751771E-04 -1.70305067442E-04 +7.79913809566E-01 +2.47439036156E-01
2.75000000000E+09 +7.40839099972E-01 +8.37457920892E-02 -5.07514675520E-04 -4.55459080224E-05 -5.24360591526E-04 -1.05392595844E-04 +7.80710757841E-01 +2.32363127766E-01
2.75500000000E+09 +7.35583019760E-01 +6.74831611981E-02 -4.92341117326E-04 -2.77715741865E-04 -5.47228959557E-04 -3.55711523588E-04 +7.80648775897E-01 +2.16945140789E-01
2.76000000000E+09 +7.30672902619E-01 +5.13532431558E-02 -8.06453129563E-04 -1.93185910379E-04 -8.36968261356E-04 -2.64725700411E-04 +7.79934181025E-01 +2.01428452212E-01
2.76500000000E+09 +7.26053279970E-01 +3.45998031807E-02 -9.02539261320E-04 -3.27764082539E-06 -9.62097590001E-04 -6.30676248506E-05 +7.79041894243E-01 +1.84526445450E-01
2.77000000000E+09 +7.21389459098E-01 +1.70524882291E-02 -8.06044408698E-04 +2.00320531885E-04 -8.04064275045E-04 +1.99480985886E-04 +7.77647453229E-01 +1.66780577303E-01
2.77500000000E+09 +7.16710557538E-01 -1.60678887393E-03 -6.76592410235E-04 +2.11783960330E-04 -6.78046754329E-04 +2.53226695139E-04 +7.75304131279E-01 +1.48767533750E-01
2.78000000000E+09 +7.11354354834E-01 -2.06043832424E-02 -8.23871023537E-04 +2.34367210427E-04 -8.35382243331E-04 +3.29025562569E-04 +7.73275265466E-01 +1.31152328393E-01
2.78500000000E+09 +7.05485176622E-01 -4.05081008325E-02 -6.21139149395E-04 +4.21999847974E-04 -5.86926669676E-04 +4.46714591692E-04 +7.70726600944E-01 +1.13340519205E-01
2.79000000000E+09 +6.98910514412E-01 -6.07195064235E-02 -7.07516515625E-04 +3.51950089870E-04 -6.42951643049E-04 +3.41739632141E-04 +7.67349995209E-01 +9.57400312079E-02
2.79500000000E+09 +6.91064703202E-01 -8.13159917184E-02 -7.10115645062E-04 +6.00201643499E-04 -6.63897508386E-04 +5.40447390451E-04 +7.62904226315E-01 +7.80239076202E-02
2.80000000000E+09 +6.81154730570E-01 -1.00998532721E-01 -4.53711162550E-04 +7.66918859258E-04 -4.33426244524E-04 +7.24995931715E-04 +7.58061369606E-01 +5.97952698464E-02
2.80500000000E+09 +6.70537732801E-01 -1.19151593520E-01 -2.56349963547E-04 +5.16636643594E-04 -2.74529517999E-04 +4.92216278098E-04 +7.52304202146E-01 +4.06548896898E-02
2.81000000000E+09 +6.59508048283E-01 -1.36563644718E-01 -4.24790158003E-04 +3.66712907561E-04 -4.73705434399E-04 +3.62486252659E-04 +7.45553053076E-01 +2.14519572051E-02
2.81500000000E+09 +6.47595415083E-01 -1.53430726708E-01 -6.80314660748E-04 +3.97966808634E-04 -6.50852306792E-04 +4.73138870241E-04 +7.38145286066E-01 +2.30163289046E-03
2.82000000000E+09 +6.34584008941E-01 -1.70054277689E-01 -8.17888570879E-04 +8.09219435426E-04 -8.15083736066E-04 +8.76542063539E-04 +7.31080486410E-01 -1.71627770135E-02
2.82500000000E+09 +6.20733660657E-01 -1.87138740501E-01 -4.38990672012E-04 +1.16465478187E-03 -3.49603585623E-04 +1.10534896392E-03 +7.21747884093E-01 -3.71741025063E-02
2.83000000000E+09 +6.05066815016E-01 -2.04210810302E-01 -1.88966989031E-04 +1.10581598000E-03 -1.80288564018E-04 +1.01422675990E-03 +7.12009226231E-01 -5.64143572861E-02
2.83500000000E+09 +5.88571957246E-01 -2.21615734653E-01 -6.43967482130E-05 +1.10017023759E-03 -1.43383824731E-04 +1.06406577689E-03 +7.01227619291E-01 -7.64932937696E-02
2.84000000000E+09 +5.70516523552E-01 -2.40262439709E-01 +2.45052485027E-05 +1.09189446421E-03 -3.35792232001E-05 +1.05225895151E-03 +6.89910173421E-01 -9.63532623723E-02
2.84500000000E+09 +5.50109885929E-01 -2.59412289113E-01 -6.91765427126E-05 +1.08266700265E-03 -9.83655098488E-05 +1.16979959163E-03 +6.77694850120E-01 -1.16902461850E-01
2.85000000000E+09 +5.27810622879E-01 -2.78346967252E-01 +3.49457293192E-04 +1.57029699382E-03 +2.81064177921E-04 +1.54878478813E-03 +6.64004654098E-01 -1.37566014422E-01
2.85500000000E+09 +5.03541906760E-01 -2.96483535519E-01 +8.01094671346E-04 +1.11508033694E-03 +7.54304181614E-04 +1.09738136860E-03 +6.49074073235E-01 -1.57638063401E-01
2.86000000000E+09 +4.79021571165E-01 -3.12978426773E-01 +5.61783041734E-04 +9.58173455327E-04 +5.24787785930E-04 +9.64575468103E-04 +6.33287392122E-01 -1.77925460136E-01
2.86500000000E+09 +4.54161783281E-01 -3.28801109479E-01 +6.11628106686E-04 +1.18475547173E-03 +6.48553623054E-04 +1.30679216577E-03 +6.15773762477E-01 -1.98144557236E-01
2.87000000000E+09 +4.29075096271E-01 -3.43895316509E-01 +1.10777656159E-03 +1.00573793962E-03 +1.16395305024E-03 +1.05024157054E-03 +5.96983751664E-01 -2.18013239059E-01
2.87500000000E+09 +4.02987328455E-01 -3.57859504621E-01 +1.13149249899E-03 +8.16090099801E-04 +1.17141262056E-03 +8.18526830477E-04 +5.76743463257E-01 -2.37185722433E-01
2.88000000000E+09 +3.76149957974E-01 -3.70051814233E-01 +1.18405901853E-03 +6.43789546875E-04 +1.17201430554E-03 +5.88076844407E-04 +5.56224413132E-01 -2.55641564492E-01
2.88500000000E+09 +3.48621191155E-01 -3.80954432829E-01 +1.38521040302E-03 +6.03391947645E-04 +1.33226303182E-03 +5.16249069870E-04 +5.34050567438E-01 -2.74798049513E-01
2.89000000000E+09 +3.20247660321E-01 -3.90466365004E-01 +1.30790833763E-03 +2.99494213515E-04 +1.26842608968E-03 +2.54326409700E-04 +5.09014540679E-01 -2.92627147474E-01
2.89500000000E+09 +2.90059262871E-01 -3.98904330349E-01 +1.31829800561E-03 +3.62360803315E-04 +1.28125580571E-03 +3.92280456920E-04 +4.82766754027E-01 -3.09972623590E-01
2.90000000000E+09 +2.58034055295E-01 -4.04901945366E-01 +1.54725951932E-03 +2.69343239179E-04 +1.58783857886E-03 +2.41474290364E-04 +4.54281007971E-01 -3.26663266617E-01
2.90500000000E+09 +2.24121789304E-01 -4.08659923476E-01 +1.54808864346E-03 -1.87299663948E-05 +1.59429181458E-03 -1.04601859746E-04 +4.24076758946E-01 -3.42187498986E-01
2.91000000000E+09 +1.89199978901E-01 -4.09302980611E-01 +1.75370229188E-03 -1.79940229057E-05 +1.71165611667E-03 -7.31014275953E-05 +3.92922726605E-01 -3.55924399618E-01
2.91500000000E+09 +1.54399112530E-01 -4.07569088825E-01 +2.25868773621E-03 -5.97555555070E-04 +2.05301819792E-03 -6.63192591747E-04 +3.60807095185E-01 -3.67596296035E-01
2.92000000000E+09 +1.19131469582E-01 -4.04159029245E-01 +1.51819036275E-03 -1.57545483360E-03 +1.39258550518E-03 -1.49065177209E-03 +3.27874345478E-01 -3.77825860435E-01
2.92500000000E+09 +8.30132967256E-02 -3.98389329625E-01 +7.10316164839E-04 -1.17353234744E-03 +7.10857547236E-04 -1.05786034355E-03 +2.92569170090E-01 -3.86561132457E-01
2.93000000000E+09 +4.76378902678E-02 -3.89297954388E-01 +9.80308666353E-04 -5.63587009726E-04 +9.53910462341E-04 -4.73083293516E-04 +2.55278042428E-01 -3.92362204396E-01
2.93500000000E+09 +1.36607497409E-02 -3.78841969984E-01 +1.53727702161E-03 -9.37732929908E-04 +1.56738333403E-03 -8.73179018846E-04 +2.17455071124E-01 -3.96823352507E-01
2.94000000000E+09 -2.01669429332E-02 -3.67005092040E-01 +1.52986127214E-03 -1.56293079783E-03 +1.54390137518E-03 -1.50816389058E-03 +1.78114666968E-01 -3.98869351015E-01
2.94500000000E+09 -5.41281094194E-02 -3.52773229103E-01 +1.04257531374E-03 -1.99667344314E-03 +1.04522939266E-03 -1.91327283021E-03 +1.38827621807E-01 -3.98691005013E-01
2.95000000000E+09 -8.77679935351E-02 -3.35203259265E-01 +6.44024705043E-04 -2.11775306586E-03 +7.22529147936E-04 -2.07086359644E-03 +9.94340547875E-02 -3.95785999086E-01
2.95500000000E+09 -1.19789085382E-01 -3.13728710731E-01 +5.83298275567E-04 -2.12375956522E-03 +7.04000475998E-04 -2.08013227298E-03 +5.99604056483E-02 -3.89838816925E-01
2.96000000000E+09 -1.49164538480E-01 -2.89963321649E-01 -1.83646033846E-05 -2.61962291341E-03 +1.23364327498E-04 -2.75789024262E-03 +2.05796410120E-02 -3.81055353467E-01
2.96500000000E+09 -1.76685533445E-01 -2.64295626656E-01 -7.74221010009E-04 -2.32673617630E-03 -8.03818178808E-04 -2.37662376783E-03 -1.92311756716E-02 -3.70158406943E-01
2.97000000000E+09 -2.02852984858E-01 -2.36878456637E-01 -9.08526244725E-04 -1.94961659368E-03 -9.91956071611E-04 -1.92288487299E-03 -6.05230318024E-02 -3.55774398488E-01
2.97500000000E+09 -2.27873218195E-01 -2.06975698067E-01 -1.00710098322E-03 -1.81584946226E-03 -9.82270370476E-04 -1.74215439947E-03 -9.91480134229E-02 -3.37442815182E-01
2.98000000000E+09 -2.50389950084E-01 -1.74854763240E-01 -1.24502261067E-03 -1.83196577412E-03 -1.19514000785E-03 -1.88443160123E-03 -1.37013459289E-01 -3.18322492959E-01
2.98500000000E+09 -2.70356257522E-01 -1.42200478387E-01 -1.62746845731E-03 -1.52790060048E-03 -1.61980023505E-03 -1.67657383860E-03 -1.73103043154E-01 -2.95496198320E-01
2.99000000000E+09 -2.88664678013E-01 -1.09052216498E-01 -1.81978248847E-03 -1.26416318792E-03 -1.84258032513E-03 -1.38150272317E-03 -2.08525945146E-01 -2.71496517746E-01
2.99500000000E+09 -3.05222717172E-01 -7.56814363481E-02 -1.96413211994E-03 -1.14113433488E-03 -2.08111701077E-03 -1.09825531364E-03 -2.42698975657E-01 -2.42579342391E-01
3.00000000000E+09 -3.20307945290E-01 -4.21242173832E-02 -2.30178907768E-03 -6.32624442701E-04 -2.31472192062E-03 -5.52875073732E-04 -2.74331464286E-01 -2.11399531429E-01
3.00500000000E+09 -3.32650424428E-01 -7.77853872257E-03 -2.31036478791E-03 -2.00382948593E-04 -2.31502463373E-03 -2.18921366710E-04 -3.03815715144E-01 -1.78603926961E-01
3.01000000000E+09 -3.41797587673E-01 +2.57322799833E-02 -2.36611804050E-03 +5.26988379413E-05 -2.27763235225E-03 -1.69889508412E-05 -3.31627694167E-01 -1.43389535687E-01
3.01500000000E+09 -3.48625099869E-01 +5.88829796921E-02 -2.25311822647E-03 +7.71305162077E-04 -2.24910616129E-03 +6.76275647848E-04 -3.55993873864E-01 -1.06139016355E-01
3.02000000000E+09 -3.52012477537E-01 +9.14373044220E-02 -1.67131852793E-03 +8.74715811656E-04 -1.68434551620E-03 +8.72438386327E-04 -3.76392388473E-01 -6.76395879915E-02
3.02500000000E+09 -3.52657200138E-01 +1.23247648391E-01 -1.55007714047E-03 +8.79613492030E-04 -1.55711594437E-03 +9.13537675821E-04 -3.92618528792E-01 -2.79232475226E-02
3.03000000000E+09 -3.50577834491E-01 +1.54920563462E-01 -1.55458595141E-03 +9.18277183621E-04 -1.59186785061E-03 +9.99806670749E-04 -4.07025064068E-01 +1.09901884203E-02
3.03500000000E+09 -3.45128254499E-01 +1.86298334669E-01 -1.61126004278E-03 +1.34172339992E-03 -1.65177448030E-03 +1.41485057354E-03 -4.19209210586E-01 +5.17862146007E-02
3.04000000000E+09 -3.36992935437E-01 +2.16495255356E-01 -1.25942211923E-03 +1.81328649468E-03 -1.26330384244E-03 +1.83574334759E-03 -4.27540697445E-01 +9.31630934417E-02
3.04500000000E+09 -3.27502640560E-01 +2.46098818527E-01 -5.99306020653E-04 +1.89076638832E-03 -5.64876029747E-04 +2.02213177161E-03 -4.33178586538E-01 +1.34086991874E-01
3.05000000000E+09 -3.16164415016E-01 +2.75513399913E-01 -3.00030310383E-04 +1.53999814408E-03 -2.53585227901E-04 +1.57836199400E-03 -4.35712536988E-01 +1.74342890104E-01
3.05500000000E+09 -3.03166994665E-01 +3.03984962187E-01 -2.61283446384E-04 +1.47467452809E-03 -7.55047920854E-05 +1.46625917572E-03 -4.35551457635E-01 +2.13725862907E-01
3.06000000000E+09 -2.89235286783E-01 +3.31612954387E-01 -1.80656708760E-04 +1.53202696530E-03 -8.02483478220E-05 +1.56798039680E-03 -4.32565636057E-01 +2.52643804057E-01
3.06500000000E+09 -2.74147470608E-01 +3.57801931317E-01 +2.82834371244E-04 +1.56796815252E-03 +2.83534483932E-04 +1.44092620115E-03 -4.27512781907E-01 +2.89109468081E-01
3.07000000000E+09 -2.58818294000E-01 +3.82444614507E-01 +4.06396680784E-04 +1.26623737200E-03 +4.18558242541E-04 +1.21179002824E-03 -4.20911884665E-01 +3.24883147742E-01
