# Hz S RI R 50
! CMT, C1220, 16058040, 17.2.0/1
! Date: 15/08/2018 10:25:14
! Data: Format (Calibration Info)
! Freq                      S11: Re/Im (F2)                       S21: Re/Im (F2)                       S12: Re/Im (F2)                       S22: Re/Im (F2)            
2.50000000000E+09 +5.81153562107E-01 +6.38713339519E-01 +1.64816306530E-04 +3.11821724402E-05 +1.62896808487E-04 +1.39863901000E-05 +5.71204247076E-01 +7.19582051114E-01
2.50500000000E+09 +5.88386575943E-01 +6.31063058233E-01 +2.00117015426E-04 -3.35515587630E-05 +2.34089255088E-04 -5.13882418993E-05 +5.77192905709E-01 +7.13776191642E-01
2.51000000000E+09 +5.95930834725E-01 +6.23025330400E-01 +1.99048103615E-04 -7.55547330508E-05 +1.41965022789E-04 -1.31035056459E-04 +5.83089056015E-01 +7.08037524505E-01
2.51500000000E+09 +6.03092601370E-01 +6.15102988149E-01 +1.30769849173E-04 -7.70666978319E-05 +1.17036511420E-04 -6.93446892055E-05 +5.88502254786E-01 +7.02047544179E-01
2.52000000000E+09 +6.09580946403E-01 +6.07137059397E-01 +1.64430801352E-04 -1.18551116470E-04 +2.07019327690E-04 -6.65175399589E-05 +5.93600927149E-01 +6.95654463329E-01
2.52500000000E+09 +6.15173670469E-01 +5.99618660766E-01 +1.53314680834E-04 -1.81814068607E-04 +1.39290756189E-04 -1.87121719785E-04 +5.99396300981E-01 +6.88816052999E-01
2.53000000000E+09 +6.20073475650E-01 +5.92832251052E-01 +1.14522011769E-04 -1.84560485891E-04 +9.70201448557E-05 -2.17002726541E-04 +6.05180810223E-01 +6.81347282358E-01
2.53500000000E+09 +6.24432699855E-01 +5.86363818497E-01 +5.53574079824E-06 -1.59960845112E-04 +3.36872358487E-05 -1.64414073436E-04 +6.10876119817E-01 +6.74317730086E-01
2.54000000000E+09 +6.28533322424E-01 +5.80107760551E-01 -8.94349444846E-06 -1.25966399267E-04 +4.29232217527E-06 -1.26377571003E-04 +6.16438317874E-01 +6.67447327532E-01
2.54500000000E+09 +6.32602403395E-01 +5.73977331615E-01 +1.08701934804E-05 -7.05103868495E-05 +3.74315207159E-05 -1.17325004274E-04 +6.21632628915E-01 +6.60831591417E-01
2.55000000000E+09 +6.37371576848E-01 +5.67911518645E-01 +9.84637215799E-05 -9.15491961171E-05 +1.63716001637E-04 -1.00465974071E-04 +6.26280150088E-01 +6.54634378455E-01
2.55500000000E+09 +6.42744250196E-01 +5.61290760247E-01 +4.29349022267E-05 -2.00006218379E-04 +9.86544672674E-05 -2.02073531276E-04 +6.30797864646E-01 +6.48504819287E-01
2.56000000000E+09 +6.48944528151E-01 +5.54375230686E-01 -4.46698973604E-06 -2.02563691247E-04 +3.88607811168E-06 -2.50910486249E-04 +6.35727695216E-01 +6.41787516042E-01
2.56500000000E+09 +6.55402660269E-01 +5.46562069535E-01 -5.04550840797E-05 -2.17273140174E-04 -7.16738543712E-05 -1.93729819260E-04 +6.41013405690E-01 +6.34636132854E-01
2.57000000000E+09 +6.61584731300E-01 +5.38447200192E-01 -1.65712536093E-04 -2.06122773560E-04 -1.91017650820E-04 -1.97897891745E-04 +6.46352911541E-01 +6.27053785658E-01
2.57500000000E+09 +6.67648247075E-01 +5.30251088943E-01 -1.74577373972E-04 -3.22716939704E-05 -1.95122144220E-04 -1.82831908971E-05 +6.51741596978E-01 +6.19551344004E-01
2.58000000000E+09 +6.72950370705E-01 +5.21884930560E-01 -9.51273884091E-05 -4.64008618483E-05 -4.53676488398E-05 -2.03556558017E-06 +6.56898236727E-01 +6.12381232551E-01
2.58500000000E+09 +6.77459111760E-01 +5.13437431751E-01 -8.63915513147E-05 -1.13027955392E-04 -2.16005860119E-05 -1.08965463052E-04 +6.62002433052E-01 +6.04835369216E-01
2.59000000000E+09 +6.81236135608E-01 +5.05648294557E-01 -1.33735129873E-04 -4.93113330606E-05 -1.48959436437E-04 -3.30791281598E-05 +6.66894330983E-01 +5.97283013755E-01
2.59500000000E+09 +6.85042258781E-01 +4.97703669630E-01 -1.00497029053E-04 -1.03222792546E-05 -1.77682205754E-04 -1.77262444391E-05 +6.72258448588E-01 +5.89315669943E-01
2.60000000000E+09 +6.88593756598E-01 +4.89411694037E-01 -1.09262599613E-04 +8.52275312714E-05 -9.44806779092E-05 +2.83141756177E-05 +6.77579598282E-01 +5.80855109078E-01
2.60500000000E+09 +6.92610252424E-01 +4.80337261856E-01 -5.42314979252E-05 +2.07698389503E-05 -6.95019762558E-05 +4.23271131498E-05 +6.83099279834E-01 +5.71971104156E-01
2.61000000000E+09 +6.97027521587E-01 +4.70222340138E-01 -2.30703244089E-05 +6.47875373766E-05 -3.14051017708E-05 +1.45999453493E-06 +6.88155741538E-01 +5.62915546345E-01
2.61500000000E+09 +7.01727492734E-01 +4.58764815443E-01 -5.81696024678E-05 +3.07516644942E-05 -4.01169995875E-05 +2.71498513900E-05 +6.92809256349E-01 +5.54102606878E-01
2.62000000000E+09 +7.06481115762E-01 +4.46268274640E-01 -9.96008293934E-05 +1.05890825638E-04 -3.66524008503E-05 +7.06392464577E-05 +6.97453024011E-01 +5.45047053297E-01
2.62500000000E+09 +7.11119276496E-01 +4.33065891325E-01 +2.30097335539E-05 +9.67374819090E-05 +2.64013857721E-06 +8.65368043401E-05 +7.01853539013E-01 +5.36108814025E-01
2.63000000000E+09 +7.15551643919E-01 +4.19589942172E-01 +2.49089464501E-05 +1.46532623596E-05 +2.45110873817E-05 -3.63838915869E-05 +7.06110887305E-01 +5.27030798245E-01
2.63500000000E+09 +7.19531793356E-01 +4.06419042892E-01 -4.64150162887E-05 -2.34077800648E-06 -6.67340280337E-05 +4.13504891876E-05 +7.10682754208E-01 +5.17750179019E-01
2.64000000000E+09 +7.22963476274E-01 +3.93644928927E-01 -2.20828293324E-05 +1.16224866447E-04 +1.54155653593E-05 +1.05717455643E-04 +7.15196278096E-01 +5.08058322589E-01
2.64500000000E+09 +7.26113427311E-01 +3.82029698417E-01 +1.36201090174E-04 +1.94830417291E-04 +7.21192163888E-05 +1.90552881679E-04 +7.19521180887E-01 +4.98480390862E-01
2.65000000000E+09 +7.28804485477E-01 +3.71215657734E-01 +2.58725750096E-04 +2.86568973080E-05 +2.34679775874E-04 +6.52864601957E-05 +7.23742931286E-01 +4.88489139151E-01
2.65500000000E+09 +7.31681867341E-01 +3.60548966953E-01 +1.37868103407E-04 -1.44842196429E-04 +2.25975179364E-04 -1.79550047132E-04 +7.27405663541E-01 +4.78009511384E-01
2.66000000000E+09 +7.34774166538E-01 +3.50027881421E-01 +5.32568855483E-05 -2.27352452790E-05 -2.36755021901E-06 -6.06120267480E-05 +7.31108492268E-01 +4.67036417029E-01
2.66500000000E+09 +7.38078029508E-01 +3.39130428422E-01 +1.03819808982E-04 -4.05054131669E-05 +1.12084824636E-04 -5.63620795198E-05 +7.35373018008E-01 +4.56071497868E-01
2.67000000000E+09 +7.41141087718E-01 +3.26846253434E-01 +1.27819828979E-04 -1.02853013287E-04 +1.10553424107E-04 -1.47348204762E-04 +7.39603044284E-01 +4.45231894509E-01
2.67500000000E+09 +7.43596454514E-01 +3.13606382664E-01 +9.42630749316E-05 -2.21637890565E-04 +6.32854878116E-05 -1.54561766161E-04 +7.43741727986E-01 +4.33967609989E-01
2.68000000000E+09 +7.45152975927E-01 +2.99607978386E-01 -4.15741145619E-05 -1.38503468296E-04 -3.72163666796E-05 -1.45711560441E-04 +7.47386164118E-01 +4.22783086247E-01
2.68500000000E+09 +7.46270983375E-01 +2.85490169837E-01 +1.05345161680E-05 -7.62410154304E-05 -2.25486807128E-05 -5.36430845024E-05 +7.50222930885E-01 +4.11540414059E-01
2.69000000000E+09 +7.46882442714E-01 +2.71272097660E-01 +7.26259109684E-05 -5.84408915261E-05 +3.86294880664E-05 -4.96426285519E-05 +7.52703697235E-01 +3.99759407010E-01
2.69500000000E+09 +7.47415218536E-01 +2.57401280440E-01 +1.27046201008E-04 -1.28812136610E-04 +1.08913011611E-04 -1.44086571607E-04 +7.55050727978E-01 +3.87599037448E-01
2.70000000000E+09 +7.47831219206E-01 +2.43532885547E-01 +8.85852246090E-05 -3.50160350681E-04 +1.17263238221E-05 -2.75298429739E-04 +7.57941584391E-01 +3.74799071026E-01
2.70500000000E+09 +7.48068788675E-01 +2.30321635826E-01 -1.60879420923E-04 -2.39208014723E-04 -1.09057285404E-04 -2.14608793233E-04 +7.60689771506E-01 +3.61887752421E-01
2.71000000000E+09 +7.48668307543E-01 +2.17304748143E-01 -1.92043662030E-04 -1.89591298291E-04 -1.99711814590E-04 -2.11125546675E-04 +7.63571279265E-01 +3.48876450951E-01
2.71500000000E+09 +7.49576285214E-01 +2.03763789773E-01 -2.05925142540E-04 +1.34702914402E-05 -2.13186834719E-04 -1.12453027169E-05 +7.65898007238E-01 +3.36340483843E-01
2.72000000000E+09 +7.50262144969E-01 +1.89550588560E-01 -2.51151637073E-05 -6.39744545079E-05 -4.83979161677E-05 -1.06961470507E-04 +7.67712145102E-01 +3.24121721764E-01
2.72500000000E+09 +7.50596886836E-01 +1.74227118662E-01 -1.45649923552E-04 -2.10516108877E-04 -1.21573944279E-04 -1.64820510950E-04 +7.69137516508E-01 +3.10961239246E-01
2.73000000000E+09 +7.49535777071E-01 +1.57914335908E-01 -1.46656985411E-04 -1.61335372893E-05 -1.21730631319E-04 +2.60118654363E-06 +7.70363448171E-01 +2.97039112454E-01
2.73500000000E+09 +7.47194502116E-01 +1.40926121540E-01 +1.90701086524E-05 -1.79809969485E-04 +8.58442001008E-06 -1.31464808651E-04 +7.71168039885E-01 +2.82030382502E-01
2.74000000000E+09 +7.44063761546E-01 +1.24395596847E-01 -6.81803940796E-05 -2.13139207792E-04 -8.90297707376E-05 -2.41083856256E-04 +7.72334122949E-01 +2.67354181133E-01
2.74500000000E+09 +7.40021232502E-01 +1.07340844130E-01 -1.62186310036E-04 -2.28584567377E-04 -7.45388914756E-05 -2.17688100479E-04 +7.73086855051E-01 +2.52520048447E-01
2.75000000000E+09 +7.35078664013E-01 +9.05048129151E-02 -1.95208204449E-04 -2.56911230745E-04 -1.74268862236E-04 -2.66226039949E-04 +7.74072295711E-01 +2.37971402434E-01
2.75500000000E+09 +7.29876567833E-01 +7.39640756022E-02 -2.63207886079E-04 -3.35571037582E-04 -2.56501734828E-04 -3.54121190775E-04 +7.74052304399E-01 +2.22808212508E-01
2.76000000000E+09 +7.24691398331E-01 +5.74781336371E-02 -4.74513234159E-04 -3.09350027241E-04 -5.14121955645E-04 -3.33201309997E-04 +7.73024148194E-01 +2.07648977860E-01
2.76500000000E+09 +7.19827139860E-01 +4.12231955126E-02 -4.99254380509E-04 -7.75399155291E-05 -5.48647539275E-04 -7.14739281774E-05 +7.71788656146E-01 +1.92252993260E-01
2.77000000000E+09 +7.15766145217E-01 +2.40738323265E-02 -5.27181417097E-04 +6.87672133442E-05 -5.46486546027E-04 +1.05079345956E-04 +7.71165688085E-01 +1.75929643044E-01
2.77500000000E+09 +7.11942781759E-01 +5.64381842529E-03 -4.92820546909E-04 +5.46413274281E-05 -5.14320427889E-04 +9.01768184175E-05 +7.69960348349E-01 +1.58775113518E-01
2.78000000000E+09 +7.07830149824E-01 -1.37636519809E-02 -4.19621098723E-04 +7.11696081919E-05 -4.13395919705E-04 +9.33844667135E-05 +7.68315916368E-01 +1.41351337468E-01
2.78500000000E+09 +7.02725242238E-01 -3.42848656516E-02 -6.31540194337E-04 +3.47012752710E-05 -6.36162885320E-04 +6.19804443064E-05 +7.66069451105E-01 +1.24447177571E-01
2.79000000000E+09 +6.96512608494E-01 -5.51234038166E-02 -8.47409398945E-04 +3.03410581297E-04 -7.49600574181E-04 +3.49537949346E-04 +7.64002855961E-01 +1.08028550674E-01
2.79500000000E+09 +6.89400334917E-01 -7.56147948172E-02 -6.02587534597E-04 +7.01882511463E-04 -5.48449297290E-04 +6.23140955760E-04 +7.61209268211E-01 +8.99598707211E-02
2.80000000000E+09 +6.80572351580E-01 -9.57625770606E-02 -2.19172260571E-04 +7.06437635790E-04 -2.10622082818E-04 +6.85484813466E-04 +7.57038167743E-01 +7.11870596842E-02
2.80500000000E+09 +6.70920419680E-01 -1.14238486058E-01 -2.24272065118E-04 +4.55853571167E-04 -2.35699232105E-04 +4.94749836015E-04 +7.52080280437E-01 +5.22350438515E-02
2.81000000000E+09 +6.60199774640E-01 -1.31760676228E-01 -3.51539707867E-04 +5.40163173445E-04 -3.82086090925E-04 +5.73849418213E-04 +7.46784893262E-01 +3.25078161234E-02
2.81500000000E+09 +6.48999523660E-01 -1.48200333834E-01 -2.55381326778E-04 +7.03313286702E-04 -2.93517490824E-04 +7.15770114778E-04 +7.40455956141E-01 +1.23353270505E-02
2.82000000000E+09 +6.36812432461E-01 -1.64597653859E-01 -2.48747931768E-04 +8.07452977304E-04 -2.40279707333E-04 +8.21895578417E-04 +7.33577980177E-01 -8.03524477435E-03
2.82500000000E+09 +6.23378597125E-01 -1.80819902012E-01 -1.19946484229E-04 +9.65473951949E-04 -4.79155887999E-05 +9.09903352925E-04 +7.25134592274E-01 -2.89227633166E-02
2.83000000000E+09 +6.08747344900E-01 -1.98007428298E-01 +1.41966361470E-04 +1.06115568082E-03 +1.88444431292E-04 +9.83572826316E-04 +7.15429819091E-01 -4.93341445659E-02
2.83500000000E+09 +5.92272258247E-01 -2.16510218726E-01 +4.11756652873E-04 +9.95957696905E-04 +3.93150653919E-04 +1.03026631869E-03 +7.04889334418E-01 -6.96025759895E-02
2.84000000000E+09 +5.72357120591E-01 -2.35052159048E-01 +6.95799863248E-04 +7.66114812619E-04 +6.58102203419E-04 +7.72165339100E-04 +6.93764484309E-01 -9.03215094665E-02
2.84500000000E+09 +5.51182142877E-01 -2.53035515199E-01 +4.61837248987E-04 +5.35381417946E-04 +5.27236822004E-04 +4.95058648327E-04 +6.81281085168E-01 -1.11176949632E-01
2.85000000000E+09 +5.28661503059E-01 -2.71130869262E-01 +5.31406766492E-04 +7.69815835464E-04 +5.00936011318E-04 +8.64179153030E-04 +6.66883520028E-01 -1.31998583811E-01
2.85500000000E+09 +5.04367537725E-01 -2.88915877990E-01 +7.02257575318E-04 +8.15620348396E-04 +6.98187125798E-04 +7.60198214052E-04 +6.51986136789E-01 -1.51636385372E-01
2.86000000000E+09 +4.79147341269E-01 -3.05573532112E-01 +1.06536891826E-03 +7.27776274239E-04 +1.07233466675E-03 +7.35935047824E-04 +6.36155892953E-01 -1.71884528470E-01
2.86500000000E+09 +4.53523558316E-01 -3.20320070075E-01 +1.26922238637E-03 +3.53814738987E-04 +1.28751570012E-03 +4.13359841160E-04 +6.18750685921E-01 -1.91972711000E-01
2.87000000000E+09 +4.28264953649E-01 -3.33629671010E-01 +1.24011708201E-03 -3.00501874637E-05 +1.30128492020E-03 -7.48861909399E-06 +6.00151523051E-01 -2.12034981871E-01
2.87500000000E+09 +4.03224346475E-01 -3.45874848852E-01 +1.00601798964E-03 -1.85656365868E-04 +9.80188186324E-04 -1.99180021039E-04 +5.79833658723E-01 -2.31573038536E-01
2.88000000000E+09 +3.77948785337E-01 -3.57649233377E-01 +9.71252770721E-04 -1.42496295444E-04 +1.00054995670E-03 -1.49798300825E-04 +5.58964652464E-01 -2.50081947685E-01
2.88500000000E+09 +3.51042210113E-01 -3.68190950875E-01 +1.09393837765E-03 -3.00620001659E-04 +1.05925568975E-03 -2.93521978575E-04 +5.36821610571E-01 -2.68735052836E-01
2.89000000000E+09 +3.22962089894E-01 -3.76990110129E-01 +9.89821698083E-04 -6.06423979750E-04 +1.05419141805E-03 -4.95142574793E-04 +5.12688828554E-01 -2.86519698095E-01
2.89500000000E+09 +2.93965571350E-01 -3.84154656346E-01 +9.22271044155E-04 -7.53380781249E-04 +9.19308185855E-04 -6.63782503463E-04 +4.87399577185E-01 -3.04724683479E-01
2.90000000000E+09 +2.63441013490E-01 -3.90278260516E-01 +6.01535770029E-04 -7.06540561235E-04 +6.69220928109E-04 -6.91079512736E-04 +4.58858581181E-01 -3.22355756622E-01
2.90500000000E+09 +2.31096124240E-01 -3.94221631088E-01 +8.22325150563E-04 -6.80249947717E-04 +8.56833464018E-04 -7.19704721080E-04 +4.29298603157E-01 -3.37727690509E-01
2.91000000000E+09 +1.97981334789E-01 -3.95494709826E-01 +5.45809513182E-04 -1.10013576209E-03 +5.28208262605E-04 -1.18182769701E-03 +3.99151152514E-01 -3.52547567150E-01
2.91500000000E+09 +1.64995086096E-01 -3.95041074661E-01 +1.53239340816E-04 -9.54281189362E-04 +1.00566489237E-04 -8.90591961133E-04 +3.66944304205E-01 -3.65658271342E-01
2.92000000000E+09 +1.31549457040E-01 -3.92412757236E-01 +3.58166728686E-04 -8.37852707013E-04 +2.90460915799E-04 -8.17889423667E-04 +3.33077962952E-01 -3.76002856163E-01
2.92500000000E+09 +9.87585808948E-02 -3.87735374019E-01 +1.19887226851E-04 -1.17004551838E-03 +1.85932802509E-04 -1.11225026350E-03 +2.97943314362E-01 -3.83995704881E-01
2.93000000000E+09 +6.64740256616E-02 -3.81749876426E-01 -2.37617041751E-04 -1.08605810688E-03 -2.02247451006E-04 -1.15173920786E-03 +2.61774610202E-01 -3.90830064491E-01
2.93500000000E+09 +3.39683924911E-02 -3.74157100414E-01 -2.88336078507E-04 -6.90138406821E-04 -3.44980501023E-04 -6.15390924232E-04 +2.23487042785E-01 -3.96407792507E-01
2.94000000000E+09 +1.52140148387E-03 -3.63970941613E-01 -9.35012515004E-05 -5.50934742171E-04 -1.36921108952E-04 -5.37586587334E-04 +1.83892855581E-01 -3.99850675611E-01
2.94500000000E+09 -3.00998962450E-02 -3.51221708585E-01 +2.33040366866E-05 -8.18105403199E-04 +3.83995420404E-05 -7.72624492554E-04 +1.42873584518E-01 -4.00339587277E-01
2.95000000000E+09 -6.17791458260E-02 -3.35995748139E-01 -7.50757067861E-05 -9.58291808358E-04 -1.07834517623E-04 -9.46396311972E-04 +1.02914994614E-01 -3.97143232066E-01
2.95500000000E+09 -9.23667166689E-02 -3.17477320552E-01 -4.61883394529E-04 -1.04698261849E-03 -4.43157097418E-04 -1.04767546770E-03 +6.25632924603E-02 -3.92217100233E-01
2.96000000000E+09 -1.21446218999E-01 -2.96203703405E-01 -7.73775152574E-04 -9.12874721854E-04 -7.53499530588E-04 -9.89760104810E-04 +2.14321998537E-02 -3.82802048462E-01
2.96500000000E+09 -1.49176208269E-01 -2.73417975658E-01 -8.00878177753E-04 -3.17962937880E-04 -7.91318076472E-04 -3.16950412593E-04 -1.82041095361E-02 -3.71337724772E-01
2.97000000000E+09 -1.76054088514E-01 -2.47551603476E-01 -3.73299029487E-04 -3.25528937138E-04 -3.09287692059E-04 -3.03335922567E-04 -5.98463102141E-02 -3.57665399148E-01
2.97500000000E+09 -2.00354209118E-01 -2.19708216245E-01 -3.52940281676E-04 -8.59972926422E-04 -3.01627888991E-04 -7.67398061018E-04 -9.95397698388E-02 -3.39525194444E-01
2.98000000000E+09 -2.22880895079E-01 -1.90519343146E-01 -9.98427427704E-04 -9.79104577318E-04 -9.40035682988E-04 -9.89997910011E-04 -1.38680863878E-01 -3.19940714191E-01
2.98500000000E+09 -2.43451067455E-01 -1.61050195233E-01 -1.22532884564E-03 -4.35479112578E-04 -1.21734565179E-03 -4.58673830627E-04 -1.76090857765E-01 -2.96193650928E-01
2.99000000000E+09 -2.62952377014E-01 -1.30331974870E-01 -1.18042299501E-03 -2.71066448236E-04 -1.19637997383E-03 -4.11950275121E-04 -2.11770733029E-01 -2.69616387575E-01
2.99500000000E+09 -2.79919469253E-01 -9.94201880404E-02 -1.24850841573E-03 -1.21655835572E-04 -1.29574569111E-03 -8.21104661368E-05 -2.45421153453E-01 -2.38428459457E-01
3.00000000000E+09 -2.96002566359E-01 -6.79310080879E-02 -1.17624188518E-03 +2.47345867351E-04 -1.18725664970E-03 +2.34098240767E-04 -2.74522625711E-01 -2.06259510472E-01
3.00500000000E+09 -3.09413853526E-01 -3.59620870059E-02 -1.19747989834E-03 +2.72197445066E-04 -1.16294027941E-03 +2.73125320588E-04 -3.03456966512E-01 -1.73197954534E-01
3.01000000000E+09 -3.19768944786E-01 -4.23303659526E-03 -1.11868516631E-03 +5.39137593749E-04 -1.08447159347E-03 +5.18676058880E-04 -3.29299818039E-01 -1.37731573899E-01
3.01500000000E+09 -3.27728436648E-01 +2.63162368854E-02 -8.40384302763E-04 +9.75405824312E-04 -8.51867625884E-04 +9.87233462300E-04 -3.52665024571E-01 -1.01266296913E-01
3.02000000000E+09 -3.33872117666E-01 +5.72652902980E-02 -2.87532811095E-04 +8.57455219933E-04 -3.34885638544E-04 +8.75466772875E-04 -3.72734238844E-01 -6.32338461958E-02
3.02500000000E+09 -3.35962103749E-01 +8.78209073480E-02 -8.96453536015E-05 +4.52456202736E-04 -1.33687164336E-04 +4.53992432763E-04 -3.89290345839E-01 -2.43132524136E-02
3.03000000000E+09 -3.35579651255E-01 +1.17018643892E-01 -6.62770782701E-04 +3.17489589223E-04 -7.30679643129E-04 +4.04948562968E-04 -4.02684465038E-01 +1.55248793681E-02
3.03500000000E+09 -3.33653440002E-01 +1.45880900784E-01 -6.60038247650E-04 +1.02396342496E-03 -6.62039719598E-04 +1.01721924078E-03 -4.13168810679E-01 +5.53721831958E-02
3.04000000000E+09 -3.28840663422E-01 +1.75362419906E-01 +1.06720007182E-04 +7.03954284589E-04 +1.21950851814E-04 +7.19216162389E-04 -4.20928089856E-01 +9.50108339210E-02
3.04500000000E+09 -3.21604437695E-01 +2.03748797589E-01 -3.19893997457E-04 +7.23242720428E-04 -3.19697064013E-04 +7.42877171279E-04 -4.26029264513E-01 +1.34184183088E-01
3.05000000000E+09 -3.13055626724E-01 +2.32078285334E-01 +2.32295967237E-04 +7.03214005610E-04 +2.01394591421E-04 +7.59806080611E-04 -4.28847681859E-01 +1.72471022413E-01
3.05500000000E+09 -3.02346243563E-01 +2.59823430129E-01 -9.15589819835E-05 +4.05157731496E-04 -3.94463250023E-05 +3.58114328805E-04 -4.29803630415E-01 +2.10347433455E-01
3.06000000000E+09 -2.90879073823E-01 +2.86344901810E-01 -1.12383382874E-04 +5.89582908277E-04 -4.71779756684E-05 +5.65127681515E-04 -4.28263945423E-01 +2.48332137042E-01
3.06500000000E+09 -2.78800650947E-01 +3.12356337252E-01 +9.61840963752E-05 +6.42450656133E-04 +9.21196212375E-05 +6.86988898455E-04 -4.24169692697E-01 +2.85869205581E-01
3.07000000000E+09 -2.65897715405E-01 +3.37240647408E-01 +2.86121352681E-04 +6.04862048076E-04 +2.53838099786E-04 +5.89471784398E-04 -4.17131484057E-01 +3.21726509944E-01
