# Hz S RI R 50
! CMT, C1220, 16058040, 17.2.0/1
! Date: 15/08/2018 10:08:27
! Data: Format (Calibration Info)
! Freq                      S11: Re/Im (F2)                       S21: Re/Im (F2)                       S12: Re/Im (F2)                       S22: Re/Im (F2)            
2.50000000000E+09 +5.98104033850E-01 +6.33177425499E-01 -4.31763578245E-04 -2.06296308198E-04 -4.49467066555E-04 -2.07025359898E-04 +5.72711938715E-01 +7.16720674242E-01
2.50500000000E+09 +6.04317821645E-01 +6.25604113035E-01 -4.29981179830E-04 -2.16194900518E-04 -4.32905454114E-04 -2.03529083527E-04 +5.78445981859E-01 +7.11361142577E-01
2.51000000000E+09 +6.10805856091E-01 +6.17633887949E-01 -4.64639951995E-04 -2.35543192240E-04 -4.70903910582E-04 -2.37500995844E-04 +5.84222931689E-01 +7.06155393608E-01
2.51500000000E+09 +6.16992889980E-01 +6.09588678896E-01 -6.19911529978E-04 -2.55055703728E-04 -6.31859353649E-04 -1.82385529656E-04 +5.89577524914E-01 +7.00573208315E-01
2.52000000000E+09 +6.22754291205E-01 +6.01452820679E-01 -7.08820670572E-04 -1.13176410950E-04 -6.92899835471E-04 -1.42071441540E-04 +5.94692862341E-01 +6.94766339242E-01
2.52500000000E+09 +6.27634145902E-01 +5.93701673775E-01 -6.66067722532E-04 +1.00783253402E-05 -6.99945329754E-04 -2.82278903885E-05 +6.00347277850E-01 +6.88190142816E-01
2.53000000000E+09 +6.31936899710E-01 +5.86900618426E-01 -6.23279410863E-04 +5.69256763733E-05 -6.40523879190E-04 +3.56128248119E-05 +6.06535648365E-01 +6.81230118535E-01
2.53500000000E+09 +6.36171046421E-01 +5.80423536074E-01 -6.53725971697E-04 +1.13171175184E-04 -6.97611459982E-04 +8.71206108703E-05 +6.12505068122E-01 +6.74454428123E-01
2.54000000000E+09 +6.40170231456E-01 +5.74296484525E-01 -6.80932930223E-04 +1.26784782931E-04 -6.62437026518E-04 +1.26653555739E-04 +6.18542372660E-01 +6.67669959374E-01
2.54500000000E+09 +6.44388190414E-01 +5.68294775519E-01 -7.65331982160E-04 +3.35703630176E-04 -7.69158881707E-04 +2.75246432743E-04 +6.24263600825E-01 +6.61111282699E-01
2.55000000000E+09 +6.49176304947E-01 +5.62262550228E-01 -6.31451660497E-04 +4.89205171766E-04 -6.73179995884E-04 +4.13999274288E-04 +6.29628648521E-01 +6.54894338803E-01
2.55500000000E+09 +6.54278088922E-01 +5.55354061687E-01 -5.16114216250E-04 +5.12150201949E-04 -6.17809280762E-04 +5.66667399572E-04 +6.34677234532E-01 +6.48443733076E-01
2.56000000000E+09 +6.60063110053E-01 +5.48565866702E-01 -4.24125897316E-04 +4.67083852169E-04 -4.48833413715E-04 +5.85139171300E-04 +6.39984728248E-01 +6.41327069101E-01
2.56500000000E+09 +6.66305168440E-01 +5.40671202493E-01 -4.17476120382E-04 +4.55496989994E-04 -3.67191601266E-04 +5.80156697830E-04 +6.45526110278E-01 +6.33829364084E-01
2.57000000000E+09 +6.72440571028E-01 +5.32080073614E-01 -4.92639211498E-04 +4.60345621447E-04 -3.72342978130E-04 +5.72148088164E-04 +6.50918069503E-01 +6.25668579535E-01
2.57500000000E+09 +6.78310522553E-01 +5.23274665898E-01 -5.43475952170E-04 +6.70536931239E-04 -3.56947936017E-04 +6.50944894963E-04 +6.56292270380E-01 +6.18162288207E-01
2.58000000000E+09 +6.83362163947E-01 +5.14602853983E-01 -3.25108668761E-04 +8.17840635637E-04 -2.35852515806E-04 +6.88968824617E-04 +6.61548697918E-01 +6.10523801683E-01
2.58500000000E+09 +6.88105905028E-01 +5.06033764673E-01 -2.04056435751E-04 +7.44562792403E-04 -2.23906773919E-04 +6.50126410904E-04 +6.66301414307E-01 +6.02928648942E-01
2.59000000000E+09 +6.92456997553E-01 +4.97764874250E-01 -9.39998459404E-05 +8.04048588688E-04 -1.71315420458E-04 +7.42629952072E-04 +6.71245523770E-01 +5.95498922986E-01
2.59500000000E+09 +6.96636667520E-01 +4.89650542292E-01 -1.70200569422E-07 +7.22937081180E-04 -5.24341132771E-05 +6.81570334964E-04 +6.76003534183E-01 +5.87439737781E-01
2.60000000000E+09 +7.00609007825E-01 +4.81254112820E-01 -1.31779964705E-05 +6.57153740702E-04 -8.18747837261E-06 +6.99911431377E-04 +6.81038474136E-01 +5.79013279343E-01
2.60500000000E+09 +7.05000224277E-01 +4.72206183538E-01 +1.07115815205E-05 +6.78134417982E-04 +8.72292669419E-06 +6.98584733624E-04 +6.86285833417E-01 +5.70066694720E-01
2.61000000000E+09 +7.09221887135E-01 +4.62201999221E-01 +3.27993079371E-05 +7.97061459682E-04 +2.47127190515E-06 +8.12952210125E-04 +6.91119216092E-01 +5.61247386329E-01
2.61500000000E+09 +7.13838382007E-01 +4.51431969050E-01 +2.45610841331E-04 +8.30109209288E-04 +2.25726305158E-04 +8.68778988511E-04 +6.95920400437E-01 +5.52589639864E-01
2.62000000000E+09 +7.18132038919E-01 +4.39422684506E-01 +3.91690809157E-04 +6.80089818703E-04 +4.38895832983E-04 +7.32299968234E-04 +7.00436245382E-01 +5.43630597865E-01
2.62500000000E+09 +7.22255193191E-01 +4.26422852376E-01 +3.48727375460E-04 +5.64471659729E-04 +4.06674598834E-04 +5.65765716874E-04 +7.05244250409E-01 +5.34899371246E-01
2.63000000000E+09 +7.25665352856E-01 +4.13207892757E-01 +3.37262580395E-04 +5.94304832237E-04 +3.92888228087E-04 +5.52376231914E-04 +7.10225135138E-01 +5.25907073030E-01
2.63500000000E+09 +7.28934248945E-01 +4.00015403740E-01 +3.18929977803E-04 +5.92108773267E-04 +3.75292474672E-04 +5.22887276092E-04 +7.14979148782E-01 +5.16408932824E-01
2.64000000000E+09 +7.31701178479E-01 +3.87175486277E-01 +3.92240570281E-04 +7.40964142771E-04 +3.69287827497E-04 +5.78226692393E-04 +7.19714925530E-01 +5.06725194347E-01
2.64500000000E+09 +7.34497961576E-01 +3.75080196437E-01 +6.11237864117E-04 +6.84576968468E-04 +5.05869792274E-04 +6.33865978529E-04 +7.24199170613E-01 +4.96983763035E-01
2.65000000000E+09 +7.36746104282E-01 +3.63316120785E-01 +6.21862006569E-04 +5.60213789675E-04 +5.51398186192E-04 +5.28579400216E-04 +7.28399222302E-01 +4.87145261808E-01
2.65500000000E+09 +7.39138627140E-01 +3.51641310925E-01 +6.02747831888E-04 +5.55501044992E-04 +5.83019693842E-04 +6.20770529076E-04 +7.32787923738E-01 +4.76999930355E-01
2.66000000000E+09 +7.41211608343E-01 +3.40120380380E-01 +6.72533676266E-04 +4.44722130830E-04 +7.65082966315E-04 +5.18772617892E-04 +7.37098544774E-01 +4.65567756880E-01
2.66500000000E+09 +7.43493614979E-01 +3.28651718153E-01 +6.40614083159E-04 +5.50506311030E-04 +6.95627391427E-04 +5.16972075547E-04 +7.41371056558E-01 +4.54216844662E-01
2.67000000000E+09 +7.45525070289E-01 +3.16043959295E-01 +9.28396190180E-04 +6.23978794207E-04 +9.33003452991E-04 +5.36210240829E-04 +7.45467717288E-01 +4.43002411514E-01
2.67500000000E+09 +7.46783188530E-01 +3.02943442717E-01 +1.18524713299E-03 +2.49273466433E-04 +1.11362879985E-03 +2.51930651937E-04 +7.49492189458E-01 +4.31832499801E-01
2.68000000000E+09 +7.47694803359E-01 +2.89606654798E-01 +1.00208714857E-03 +1.46467830788E-05 +9.22944184986E-04 +5.31290377362E-05 +7.53397366827E-01 +4.20793628946E-01
2.68500000000E+09 +7.48134115005E-01 +2.75664656019E-01 +9.16883888346E-04 +5.34119251578E-05 +8.87768302786E-04 +1.16271304943E-04 +7.56504215768E-01 +4.09069099410E-01
2.69000000000E+09 +7.47754567808E-01 +2.61974139134E-01 +9.82654843814E-04 +8.12943830762E-05 +9.41770986342E-04 +1.30696822348E-04 +7.59212715647E-01 +3.96856701681E-01
2.69500000000E+09 +7.47561958470E-01 +2.48827981317E-01 +1.11192798010E-03 +4.87609613982E-05 +1.13853168383E-03 +4.38041201481E-05 +7.61793625685E-01 +3.84063288506E-01
2.70000000000E+09 +7.47634526740E-01 +2.35882368160E-01 +1.33331347495E-03 -1.10295517495E-04 +1.27307747379E-03 -5.04642276330E-05 +7.64263992969E-01 +3.70712873513E-01
2.70500000000E+09 +7.48106497345E-01 +2.23336428524E-01 +1.29032206977E-03 -5.06801070321E-04 +1.30634782915E-03 -4.73767741415E-04 +7.67284078643E-01 +3.57394392922E-01
2.71000000000E+09 +7.49089656407E-01 +2.10538748051E-01 +1.11237140812E-03 -6.11144847802E-04 +1.18052049762E-03 -5.51348730814E-04 +7.70096229431E-01 +3.43921323493E-01
2.71500000000E+09 +7.50515699809E-01 +1.96974328099E-01 +1.03606247765E-03 -8.09262644582E-04 +1.17365564155E-03 -8.12158560170E-04 +7.72198223072E-01 +3.31165041482E-01
2.72000000000E+09 +7.51742537514E-01 +1.82942456688E-01 +8.38349375263E-04 -8.00204370251E-04 +8.05876425143E-04 -8.96139675025E-04 +7.74067622555E-01 +3.18469385392E-01
2.72500000000E+09 +7.52888181077E-01 +1.67596722789E-01 +7.83197957179E-04 -7.97512924329E-04 +7.29034340570E-04 -8.55432350274E-04 +7.75170870971E-01 +3.05258843870E-01
2.73000000000E+09 +7.52990928482E-01 +1.51158802187E-01 +7.69117987819E-04 -8.32399710051E-04 +6.38200255003E-04 -7.95350566775E-04 +7.76563051310E-01 +2.91392408379E-01
2.73500000000E+09 +7.51404236765E-01 +1.33833208166E-01 +7.32246144287E-04 -9.57304602171E-04 +6.23226549272E-04 -8.09540256138E-04 +7.77843895184E-01 +2.76183629014E-01
2.74000000000E+09 +7.48698885507E-01 +1.17103671950E-01 +8.13113236114E-04 -1.00872260544E-03 +8.13553986790E-04 -8.11700432095E-04 +7.78825952638E-01 +2.60893896688E-01
2.74500000000E+09 +7.45029195038E-01 +1.00343074485E-01 +7.65811088941E-04 -1.31657008707E-03 +7.96273654473E-04 -1.11441570062E-03 +7.79662881287E-01 +2.45772092728E-01
2.75000000000E+09 +7.40880009800E-01 +8.39440606436E-02 +4.38251356334E-04 -1.47472380225E-03 +6.19741728261E-04 -1.51868894776E-03 +7.80427276618E-01 +2.31046774807E-01
2.75500000000E+09 +7.36273000787E-01 +6.75592776616E-02 +1.38569792616E-04 -1.42603762073E-03 +2.54122238112E-04 -1.45543789270E-03 +7.80667453865E-01 +2.15920715993E-01
2.76000000000E+09 +7.31928039314E-01 +5.12992205157E-02 +1.68708369296E-04 -1.31599582829E-03 +2.22451933088E-04 -1.43022754679E-03 +7.80034491645E-01 +2.00012656630E-01
2.76500000000E+09 +7.27246273717E-01 +3.46267892969E-02 +6.82221647475E-05 -1.53237878717E-03 +1.27196519151E-04 -1.60054027236E-03 +7.78443011868E-01 +1.82815424061E-01
2.77000000000E+09 +7.22845647345E-01 +1.74347923534E-02 -1.38691246735E-04 -1.46498923326E-03 -2.00051995879E-04 -1.54689834359E-03 +7.76735798309E-01 +1.65787362576E-01
2.77500000000E+09 +7.18611019404E-01 -9.94666658968E-04 -2.75087437715E-04 -1.57183091853E-03 -3.10318002818E-04 -1.67278360813E-03 +7.74960040633E-01 +1.47645777829E-01
2.78000000000E+09 +7.14029846138E-01 -2.08515722473E-02 -5.63183783602E-04 -1.71996393900E-03 -6.68832512387E-04 -1.75996827435E-03 +7.72597762401E-01 +1.29582208546E-01
2.78500000000E+09 +7.07656005533E-01 -4.16678106239E-02 -9.62192550320E-04 -1.46751383695E-03 -9.92461405320E-04 -1.33817768247E-03 +7.69574588170E-01 +1.11934667755E-01
2.79000000000E+09 +7.00511918880E-01 -6.30698992721E-02 -8.83594825958E-04 -1.26278765585E-03 -9.42019760583E-04 -1.17887244613E-03 +7.66078181882E-01 +9.48661616038E-02
2.79500000000E+09 +6.91320272617E-01 -8.39449918228E-02 -1.13748718640E-03 -1.34636506894E-03 -1.11834717370E-03 -1.29050947738E-03 +7.61759351763E-01 +7.73599226368E-02
2.80000000000E+09 +6.81369934598E-01 -1.04021956657E-01 -1.41115141111E-03 -1.01239714082E-03 -1.34632911868E-03 -9.64011637007E-04 +7.56946576377E-01 +5.93496444220E-02
2.80500000000E+09 +6.70422945105E-01 -1.23314543416E-01 -1.33587196400E-03 -8.44580163625E-04 -1.25226886097E-03 -8.67999462605E-04 +7.51231012683E-01 +4.03755012385E-02
2.81000000000E+09 +6.58962477682E-01 -1.41592336417E-01 -1.48844976756E-03 -7.80434520749E-04 -1.52920246962E-03 -7.74565198908E-04 +7.44567500921E-01 +2.12916116102E-02
2.81500000000E+09 +6.46201504189E-01 -1.59357406811E-01 -1.49239365137E-03 -4.48043982415E-04 -1.54953610615E-03 -4.05709511102E-04 +7.37518876676E-01 +1.95803266447E-03
2.82000000000E+09 +6.32581515278E-01 -1.76347326835E-01 -1.46728762193E-03 -6.66083468933E-04 -1.49393922694E-03 -5.55275261079E-04 +7.29710306763E-01 -1.75057453331E-02
2.82500000000E+09 +6.18070707446E-01 -1.93113029790E-01 -1.88977555012E-03 -4.53081200337E-04 -1.85093305270E-03 -3.81939075797E-04 +7.20958459313E-01 -3.69017402180E-02
2.83000000000E+09 +6.02702335335E-01 -2.10828502078E-01 -2.09499480533E-03 +2.99394050071E-04 -1.92183077800E-03 +2.96194445308E-04 +7.11623654640E-01 -5.59943607241E-02
2.83500000000E+09 +5.84639118390E-01 -2.29680407039E-01 -1.55892517506E-03 +7.17058072977E-04 -1.54389985150E-03 +6.00817923727E-04 +7.01960884422E-01 -7.60889388095E-02
2.84000000000E+09 +5.64285719614E-01 -2.48175065510E-01 -1.10712565370E-03 +7.25265806340E-04 -1.15088370891E-03 +7.05947370498E-04 +6.90376675631E-01 -9.70902700858E-02
2.84500000000E+09 +5.41906775125E-01 -2.66350290762E-01 -8.44516255482E-04 +4.25842747881E-04 -8.50535524505E-04 +3.20207118737E-04 +6.77702511157E-01 -1.17464046297E-01
2.85000000000E+09 +5.18091943813E-01 -2.83997405777E-01 -1.17347343962E-03 +8.59751035034E-05 -1.23457301096E-03 +1.15477075887E-04 +6.64069099060E-01 -1.37923464710E-01
2.85500000000E+09 +4.93638403105E-01 -3.00831354094E-01 -1.52228565897E-03 +6.07061308186E-04 -1.49568720167E-03 +5.71656638322E-04 +6.49188955379E-01 -1.58298100319E-01
2.86000000000E+09 +4.68485384253E-01 -3.17733152851E-01 -1.09179975685E-03 +7.65592668868E-04 -1.06347156437E-03 +7.48868523021E-04 +6.32734126492E-01 -1.78491677933E-01
2.86500000000E+09 +4.42132757712E-01 -3.33458292091E-01 -1.15049515410E-03 +6.48803462386E-04 -1.13336775127E-03 +5.59658375423E-04 +6.15065337470E-01 -1.98349672876E-01
2.87000000000E+09 +4.15634232800E-01 -3.47141321860E-01 -1.20816583953E-03 +1.01046985953E-03 -1.20898218579E-03 +1.00093729204E-03 +5.96656110488E-01 -2.17027682039E-01
2.87500000000E+09 +3.90040334883E-01 -3.59338433323E-01 -1.01524850420E-03 +9.79849730689E-04 -9.98114749677E-04 +1.03500238737E-03 +5.78220753264E-01 -2.36820143911E-01
2.88000000000E+09 +3.64049580949E-01 -3.71525649817E-01 -1.00942285224E-03 +1.16737223711E-03 -9.34173492349E-04 +1.11669953195E-03 +5.57269333415E-01 -2.56961908892E-01
2.88500000000E+09 +3.37118709503E-01 -3.82206004076E-01 -7.36158235251E-04 +1.38124446672E-03 -7.08727348412E-04 +1.26307324073E-03 +5.33725211995E-01 -2.75520363513E-01
2.89000000000E+09 +3.08581711939E-01 -3.91764768884E-01 -5.58763322658E-04 +9.92631384427E-04 -5.26551130506E-04 +8.79472456394E-04 +5.09102364875E-01 -2.93159415055E-01
2.89500000000E+09 +2.78159455294E-01 -3.99452796293E-01 -9.51409756287E-04 +1.00748952168E-03 -9.72866210551E-04 +1.00775893127E-03 +4.82021164883E-01 -3.10543724244E-01
2.90000000000E+09 +2.45651115287E-01 -4.04382571473E-01 -1.07084164997E-03 +1.38303587158E-03 -1.16602713397E-03 +1.29740064098E-03 +4.53865409042E-01 -3.26177596140E-01
2.90500000000E+09 +2.11913875038E-01 -4.06478241951E-01 -8.01649062411E-04 +2.05053419546E-03 -8.71272532435E-04 +2.04082851468E-03 +4.24872133736E-01 -3.41973921027E-01
2.91000000000E+09 +1.77556969168E-01 -4.06519684355E-01 +5.88487142157E-05 +2.05641336879E-03 +8.76379163267E-05 +2.08385778834E-03 +3.94077151160E-01 -3.56348520481E-01
2.91500000000E+09 +1.42463609282E-01 -4.04401493788E-01 +3.25328336656E-05 +1.43412113936E-03 +7.41743965628E-05 +1.43002485639E-03 +3.61804150053E-01 -3.68347793169E-01
2.92000000000E+09 +1.06737749603E-01 -3.99748740031E-01 -1.62869344857E-04 +1.83437956063E-03 -2.09055530623E-04 +1.81328285618E-03 +3.28969657603E-01 -3.78349524294E-01
2.92500000000E+09 +7.09807638238E-02 -3.93722343601E-01 +5.34485403650E-04 +1.66071753078E-03 +4.61623587866E-04 +1.55000361436E-03 +2.93640352777E-01 -3.86886426606E-01
2.93000000000E+09 +3.52182362075E-02 -3.84780439581E-01 +1.67610360240E-04 +1.47469986283E-03 +9.56663209882E-05 +1.50371528318E-03 +2.56975914788E-01 -3.93583725226E-01
2.93500000000E+09 -2.50859637612E-06 -3.74319296858E-01 +4.89985342863E-04 +1.80001264006E-03 +4.39996121961E-04 +1.85034545235E-03 +2.18317137023E-01 -3.98163376402E-01
2.94000000000E+09 -3.49048601343E-02 -3.61211603625E-01 +4.64507830156E-04 +1.66702306250E-03 +4.29713686101E-04 +1.64402083699E-03 +1.79551207495E-01 -3.99535134433E-01
2.94500000000E+09 -6.90651180467E-02 -3.45796341509E-01 +8.56790805947E-04 +2.06321151997E-03 +8.48392251554E-04 +2.05120698199E-03 +1.41980520174E-01 -4.00564985881E-01
2.95000000000E+09 -1.01885376215E-01 -3.27191801928E-01 +1.37828284273E-03 +1.69534292403E-03 +1.39391970160E-03 +1.75797411754E-03 +1.01670417879E-01 -3.99841941652E-01
2.95500000000E+09 -1.33187393046E-01 -3.05801120498E-01 +1.51164097364E-03 +1.51836188127E-03 +1.47985505500E-03 +1.56704067524E-03 +6.02981652855E-02 -3.94047641562E-01
2.96000000000E+09 -1.63002814761E-01 -2.82445248919E-01 +1.85924538529E-03 +1.14285025786E-03 +1.92498570246E-03 +1.18275032186E-03 +2.01135583485E-02 -3.84647317934E-01
2.96500000000E+09 -1.92214511658E-01 -2.56339865154E-01 +1.53297359653E-03 +5.46216978621E-04 +1.61726127758E-03 +4.94232637985E-04 -2.03232477469E-02 -3.72098068458E-01
2.97000000000E+09 -2.19382280789E-01 -2.25934151086E-01 +1.09176158045E-03 +1.00830683222E-03 +1.12148581997E-03 +9.08374954002E-04 -5.91371738833E-02 -3.57981143729E-01
2.97500000000E+09 -2.42525810183E-01 -1.93713829392E-01 +1.45513536600E-03 +1.38253644528E-03 +1.43264753768E-03 +1.31668467666E-03 -9.92753783306E-02 -3.42464439282E-01
2.98000000000E+09 -2.63478492612E-01 -1.61431037983E-01 +2.19725536119E-03 +1.53888578121E-03 +2.07288667537E-03 +1.56278142953E-03 -1.38753815779E-01 -3.23218055887E-01
2.98500000000E+09 -2.83426767322E-01 -1.28840348149E-01 +2.91990630091E-03 +7.83678020867E-04 +3.00680358893E-03 +9.47155114426E-04 -1.77230853472E-01 -2.99067634866E-01
2.99000000000E+09 -3.02106633858E-01 -9.48692825822E-02 +2.85605523797E-03 -2.82151672825E-04 +3.01437067770E-03 -2.34434657616E-04 -2.11446435358E-01 -2.72734271989E-01
2.99500000000E+09 -3.18169507075E-01 -5.98056935471E-02 +2.09624267962E-03 -4.15017818082E-04 +2.14149153883E-03 -5.08596842997E-04 -2.45250920794E-01 -2.44014479169E-01
3.00000000000E+09 -3.31462641858E-01 -2.42393141859E-02 +2.37858757184E-03 +8.66944894456E-05 +2.32476945942E-03 -4.46234842407E-05 -2.77002992365E-01 -2.12211161777E-01
3.00500000000E+09 -3.41528611128E-01 +9.79433096681E-03 +2.86916341432E-03 -4.46631880813E-04 +2.75226697654E-03 -4.73062181867E-04 -3.05962188100E-01 -1.78130562023E-01
3.01000000000E+09 -3.49456392926E-01 +4.32662485122E-02 +2.98391968182E-03 -1.28625882486E-03 +2.88938865602E-03 -1.14760268260E-03 -3.32678892534E-01 -1.42879568646E-01
3.01500000000E+09 -3.55372975346E-01 +7.62399542372E-02 +2.64886152524E-03 -2.04302238264E-03 +2.71274470592E-03 -1.82079129321E-03 -3.55394440472E-01 -1.06300437902E-01
3.02000000000E+09 -3.57876558686E-01 +1.09125303197E-01 +1.68482976635E-03 -2.49322160725E-03 +1.85564155194E-03 -2.46759405485E-03 -3.75940197894E-01 -6.98891186690E-02
3.02500000000E+09 -3.57126449237E-01 +1.41677675824E-01 +1.58265024132E-03 -1.92398376593E-03 +1.68360138453E-03 -1.88514911587E-03 -3.94794730443E-01 -3.06184225668E-02
3.03000000000E+09 -3.53032211403E-01 +1.73117776682E-01 +1.67685756382E-03 -2.63596454016E-03 +1.75425211376E-03 -2.62701247428E-03 -4.09147752848E-01 +1.09959460543E-02
3.03500000000E+09 -3.46147313917E-01 +2.03083352909E-01 +9.29170248414E-04 -3.29113793650E-03 +9.64788552060E-04 -3.32897335139E-03 -4.19321406005E-01 +5.19411783009E-02
3.04000000000E+09 -3.38250271823E-01 +2.32539251899E-01 -5.29600219641E-04 -3.19926523214E-03 -4.61997327994E-04 -3.25491792010E-03 -4.26986243882E-01 +9.23235415282E-02
3.04500000000E+09 -3.28304139604E-01 +2.61798651911E-01 -8.31128344402E-04 -1.84649809339E-03 -8.47935311740E-04 -1.94889100379E-03 -4.32522856626E-01 +1.31685179274E-01
3.05000000000E+09 -3.16702316145E-01 +2.90919654423E-01 -2.17050871071E-04 -1.32542546898E-03 -2.81645643342E-04 -1.37226534597E-03 -4.36790350325E-01 +1.71439413207E-01
3.05500000000E+09 -3.02974226601E-01 +3.19375763813E-01 +4.01494319630E-04 -1.74820158645E-03 +3.36037921564E-04 -1.71647212843E-03 -4.36551078642E-01 +2.12108923736E-01
3.06000000000E+09 -2.87966417511E-01 +3.45751806018E-01 +1.03718547692E-04 -2.87555781550E-03 -6.68293606595E-05 -2.82694091058E-03 -4.33441391173E-01 +2.49704695645E-01
3.06500000000E+09 -2.73005747758E-01 +3.70530986806E-01 -1.56275672725E-03 -2.62847581093E-03 -1.43947385848E-03 -2.51230593516E-03 -4.28999150238E-01 +2.86745372315E-01
3.07000000000E+09 -2.57842100112E-01 +3.94135371826E-01 -1.96939876983E-03 -1.36828580209E-03 -1.86987689180E-03 -1.44509736313E-03 -4.22898868781E-01 +3.22076280767E-01
