# Hz S RI R 50
! CMT, C1220, 16058040, 17.2.0/1
! Date: 15/08/2018 09:53:43
! Data: Format (Calibration Info)
! Freq                      S11: Re/Im (F2)                       S21: Re/Im (F2)                       S12: Re/Im (F2)                       S22: Re/Im (F2)            
2.50000000000E+09 +5.98027196904E-01 +6.23092295752E-01 -3.83580536345E-04 -1.11552399265E-03 -4.01850187372E-04 -1.30331856581E-03 +5.78907551802E-01 +7.12863747550E-01
2.50500000000E+09 +6.04212059274E-01 +6.16090683002E-01 -5.24042540867E-04 -1.17573378372E-03 -5.61903587582E-04 -1.18327459733E-03 +5.84648645858E-01 +7.07331211003E-01
2.51000000000E+09 +6.10751059873E-01 +6.08740633525E-01 -6.39594358707E-04 -1.09207413518E-03 -6.94171648452E-04 -1.02599935569E-03 +5.90223338678E-01 +7.02027601650E-01
2.51500000000E+09 +6.17380943782E-01 +6.01301231757E-01 -7.48072068767E-04 -1.05087028878E-03 -7.45146421346E-04 -9.87014270330E-04 +5.95392134352E-01 +6.96619480480E-01
2.52000000000E+09 +6.23657054533E-01 +5.93372329870E-01 -9.18813496586E-04 -1.03232699216E-03 -8.47755531976E-04 -1.03500256166E-03 +6.00475998034E-01 +6.90690567438E-01
2.52500000000E+09 +6.29233090516E-01 +5.85716768290E-01 -1.07123274404E-03 -8.53812268174E-04 -1.08701223133E-03 -9.27775533725E-04 +6.06251353861E-01 +6.84163044352E-01
2.53000000000E+09 +6.34440408035E-01 +5.78215178554E-01 -1.14629664345E-03 -6.61134998079E-04 -1.20224152682E-03 -7.31355253173E-04 +6.12250669783E-01 +6.76815723561E-01
2.53500000000E+09 +6.39081911697E-01 +5.71211576208E-01 -1.08400448975E-03 -5.60790832804E-04 -1.08005209119E-03 -5.87249845532E-04 +6.18270455241E-01 +6.69744018519E-01
2.54000000000E+09 +6.43531207594E-01 +5.64451208154E-01 -1.15494351535E-03 -5.31236370242E-04 -1.07161711198E-03 -5.51547040538E-04 +6.24311267173E-01 +6.63139990090E-01
2.54500000000E+09 +6.48135406090E-01 +5.57731228510E-01 -1.21768112942E-03 -4.92962687376E-04 -1.21561888373E-03 -5.94891297573E-04 +6.30190957054E-01 +6.56379058453E-01
2.55000000000E+09 +6.52712658554E-01 +5.50839176164E-01 -1.32093281545E-03 -3.03374777960E-04 -1.40021917439E-03 -4.78731470906E-04 +6.35260302264E-01 +6.50138046046E-01
2.55500000000E+09 +6.57554151802E-01 +5.43655173706E-01 -1.33036252571E-03 -1.41122186878E-04 -1.50252408857E-03 -2.50299303713E-04 +6.40045626142E-01 +6.43660348762E-01
2.56000000000E+09 +6.63208750815E-01 +5.36562484384E-01 -1.24205828623E-03 -3.58363383859E-05 -1.46246285921E-03 +1.08028979806E-04 +6.45254951504E-01 +6.36526343495E-01
2.56500000000E+09 +6.69473795923E-01 +5.28711494270E-01 -1.16991736466E-03 -2.76051043246E-05 -1.25753300924E-03 +1.95767228113E-04 +6.50434854541E-01 +6.28912415666E-01
2.57000000000E+09 +6.75850308229E-01 +5.20510469857E-01 -1.23232546091E-03 -1.71974080473E-04 -1.24243287125E-03 +6.91135324177E-05 +6.56081837633E-01 +6.20883710703E-01
2.57500000000E+09 +6.82400719394E-01 +5.11640909814E-01 -1.62450629199E-03 -3.50344779352E-05 -1.42214768484E-03 +2.34302523441E-04 +6.61647323198E-01 +6.12828166977E-01
2.58000000000E+09 +6.88102056957E-01 +5.02854299047E-01 -1.58253585958E-03 +4.26159729032E-04 -1.33017932174E-03 +3.69829186833E-04 +6.66516991765E-01 +6.05216197009E-01
2.58500000000E+09 +6.93675220328E-01 +4.94078306206E-01 -1.39439355910E-03 +5.75157943519E-04 -1.24324797082E-03 +4.64043971815E-04 +6.71347303823E-01 +5.97733243471E-01
2.59000000000E+09 +6.98712260287E-01 +4.85363704297E-01 -1.31229767318E-03 +6.08386392546E-04 -1.25145491439E-03 +4.21173573412E-04 +6.76057994216E-01 +5.90416940293E-01
2.59500000000E+09 +7.03541340180E-01 +4.76540934544E-01 -1.31127647506E-03 +6.73376204395E-04 -1.35507671012E-03 +5.69476908474E-04 +6.80604637094E-01 +5.82187888399E-01
2.60000000000E+09 +7.07773194769E-01 +4.67706145671E-01 -1.42687568897E-03 +6.22984678029E-04 -1.42317897805E-03 +6.12947829719E-04 +6.85348399147E-01 +5.73648391931E-01
2.60500000000E+09 +7.12115986189E-01 +4.58464843711E-01 -1.63275560010E-03 +9.50270487131E-04 -1.69633194118E-03 +8.98394070507E-04 +6.90530758592E-01 +5.64745732187E-01
2.61000000000E+09 +7.16353072048E-01 +4.48765469526E-01 -1.51821523633E-03 +1.52488711585E-03 -1.52724606535E-03 +1.43686538897E-03 +6.95503159028E-01 +5.55752557744E-01
2.61500000000E+09 +7.20863038437E-01 +4.38237309373E-01 -1.01058393228E-03 +1.69116672163E-03 -1.06529249091E-03 +1.68508570472E-03 +7.00373822087E-01 +5.47173687288E-01
2.62000000000E+09 +7.25086879540E-01 +4.26829960786E-01 -7.80949654408E-04 +1.50101339595E-03 -8.20468947487E-04 +1.66010143470E-03 +7.05317882045E-01 +5.38120684155E-01
2.62500000000E+09 +7.29269282673E-01 +4.14857073418E-01 -7.07693345953E-04 +1.51414366876E-03 -6.52757574411E-04 +1.61468911660E-03 +7.09606682727E-01 +5.29170490665E-01
2.63000000000E+09 +7.33387201701E-01 +4.02360841019E-01 -6.44213866846E-04 +1.54415196140E-03 -4.78686527494E-04 +1.57619215194E-03 +7.14039800909E-01 +5.20471521076E-01
2.63500000000E+09 +7.37011785237E-01 +3.89715729076E-01 -7.28884855745E-04 +1.65198133175E-03 -5.24726761050E-04 +1.52957723318E-03 +7.18893481792E-01 +5.10988685163E-01
2.64000000000E+09 +7.40466190610E-01 +3.77290170509E-01 -5.51344708379E-04 +2.01711428985E-03 -4.22813374325E-04 +1.70758195741E-03 +7.23619240483E-01 +5.01166880206E-01
2.64500000000E+09 +7.43995642795E-01 +3.65289567506E-01 -1.36957929433E-04 +1.99251461745E-03 -2.47388390933E-04 +1.76308840320E-03 +7.28254075186E-01 +4.91194092965E-01
2.65000000000E+09 +7.47222473134E-01 +3.53285476775E-01 +1.11151211993E-05 +1.91777776835E-03 -2.00047396727E-04 +1.80843874228E-03 +7.32461982427E-01 +4.80910455532E-01
2.65500000000E+09 +7.50253513519E-01 +3.41322098653E-01 +1.46881069827E-04 +1.81509510112E-03 -8.20045624144E-05 +1.90695117503E-03 +7.36121128367E-01 +4.70817779918E-01
2.66000000000E+09 +7.53108224455E-01 +3.29280145964E-01 +1.73906364870E-04 +1.96087411377E-03 +1.57708280106E-04 +2.08135475105E-03 +7.40387143417E-01 +4.60185319257E-01
2.66500000000E+09 +7.55602228483E-01 +3.17511409349E-01 +4.01675665645E-04 +1.98238392599E-03 +5.09777986894E-04 +2.01213632713E-03 +7.44897674846E-01 +4.48901520579E-01
2.67000000000E+09 +7.58120482393E-01 +3.05007029401E-01 +5.65901007398E-04 +2.03282934799E-03 +6.99587699775E-04 +1.92776290559E-03 +7.48897298586E-01 +4.37396759408E-01
2.67500000000E+09 +7.60222960687E-01 +2.91868011538E-01 +9.61634008621E-04 +1.98319715198E-03 +8.96830806636E-04 +1.82277440029E-03 +7.52774416699E-01 +4.26046512643E-01
2.68000000000E+09 +7.61612263885E-01 +2.78022756089E-01 +9.91015559060E-04 +1.67373756921E-03 +9.49662696873E-04 +1.64692452560E-03 +7.56415965329E-01 +4.14677316592E-01
2.68500000000E+09 +7.62284998158E-01 +2.64048800247E-01 +9.76847613139E-04 +1.73068281169E-03 +9.30792193590E-04 +1.75247788949E-03 +7.59250020923E-01 +4.03295896527E-01
2.69000000000E+09 +7.62998665495E-01 +2.50361249377E-01 +1.23674600065E-03 +1.85624253909E-03 +1.26419307786E-03 +1.86344410514E-03 +7.62172269378E-01 +3.91319465470E-01
2.69500000000E+09 +7.63866495324E-01 +2.36179638996E-01 +1.50695821106E-03 +1.74404312372E-03 +1.52684917328E-03 +1.66308543480E-03 +7.64643940095E-01 +3.78524291726E-01
2.70000000000E+09 +7.64338164362E-01 +2.21835692552E-01 +1.79419343698E-03 +1.68015995828E-03 +1.74605323760E-03 +1.60276915422E-03 +7.67143672998E-01 +3.65141771390E-01
2.70500000000E+09 +7.64751677525E-01 +2.07784160003E-01 +2.05962069108E-03 +1.28799969117E-03 +1.94951321828E-03 +1.33902895381E-03 +7.69606675964E-01 +3.51786522905E-01
2.71000000000E+09 +7.65403610713E-01 +1.93846197219E-01 +1.94781601592E-03 +1.00420823433E-03 +1.98156825029E-03 +1.11528568745E-03 +7.72766976910E-01 +3.38550955783E-01
2.71500000000E+09 +7.66426269655E-01 +1.79662609843E-01 +1.84912058482E-03 +1.01520947039E-03 +2.00179465480E-03 +1.01196246894E-03 +7.75164288588E-01 +3.25494081323E-01
2.72000000000E+09 +7.67301878649E-01 +1.64724391275E-01 +1.94951290928E-03 +1.01394532837E-03 +2.09303309428E-03 +9.20051771888E-04 +7.76844953365E-01 +3.12630793863E-01
2.72500000000E+09 +7.67492022698E-01 +1.49270892296E-01 +2.25904328425E-03 +1.11866975463E-03 +2.26996783371E-03 +8.23013865198E-04 +7.77512366822E-01 +2.99422982899E-01
2.73000000000E+09 +7.66663403541E-01 +1.33439905234E-01 +2.45547449345E-03 +9.61806963227E-04 +2.27056105546E-03 +6.17428638402E-04 +7.78688326715E-01 +2.85814146059E-01
2.73500000000E+09 +7.65123274679E-01 +1.17371055322E-01 +2.64511933111E-03 +6.69230098436E-04 +2.28737798392E-03 +5.38678166398E-04 +7.79748081257E-01 +2.70823993008E-01
2.74000000000E+09 +7.62531079594E-01 +1.01308069163E-01 +2.94210577337E-03 +4.92529770809E-04 +2.50039582851E-03 +6.85701402230E-04 +7.80925028344E-01 +2.55244819381E-01
2.74500000000E+09 +7.59326573014E-01 +8.49734995749E-02 +3.13288035022E-03 +2.36491243433E-04 +2.89860718880E-03 +6.06887958344E-04 +7.81397449846E-01 +2.39964518917E-01
2.75000000000E+09 +7.55590366109E-01 +6.83183617888E-02 +3.42799043219E-03 -1.75677559854E-04 +3.52307851484E-03 +2.36854282687E-04 +7.81953347421E-01 +2.25056303017E-01
2.75500000000E+09 +7.50750530800E-01 +5.13102244447E-02 +3.37897689034E-03 -6.99390906420E-04 +3.60770871751E-03 -4.64567728041E-04 +7.81524519077E-01 +2.10136545302E-01
2.76000000000E+09 +7.45473925945E-01 +3.44397546302E-02 +3.35815728977E-03 -9.48263553113E-04 +3.62064326028E-03 -8.86584284441E-04 +7.80849599052E-01 +1.95089654612E-01
2.76500000000E+09 +7.40059639617E-01 +1.78933892571E-02 +3.50294035608E-03 -1.38857171375E-03 +3.70722426544E-03 -1.41982021262E-03 +7.79641331878E-01 +1.78733505628E-01
2.77000000000E+09 +7.35243994668E-01 +6.49490717175E-04 +3.61429873124E-03 -1.96691988462E-03 +3.79145543616E-03 -2.06257506194E-03 +7.78011756376E-01 +1.61031835470E-01
2.77500000000E+09 +7.30315629258E-01 -1.76544874083E-02 +3.22081388961E-03 -2.77354553287E-03 +3.26642254497E-03 -3.02323549678E-03 +7.75436164283E-01 +1.43339030268E-01
2.78000000000E+09 +7.25134779643E-01 -3.67846005160E-02 +2.69986689454E-03 -2.99691374799E-03 +2.63857488171E-03 -3.21569152091E-03 +7.73671492084E-01 +1.25924564319E-01
2.78500000000E+09 +7.18668192045E-01 -5.66998207994E-02 +2.29234776566E-03 -3.14423854304E-03 +2.11354253542E-03 -3.29244128561E-03 +7.71470197956E-01 +1.08348737734E-01
2.79000000000E+09 +7.11424795370E-01 -7.65131535041E-02 +2.27191243330E-03 -3.36642869738E-03 +2.10275355477E-03 -3.35062632284E-03 +7.68641268165E-01 +9.08085417931E-02
2.79500000000E+09 +7.03410927818E-01 -9.56572324037E-02 +1.96647562465E-03 -4.09289043793E-03 +1.90018685428E-03 -3.93462642061E-03 +7.64014519256E-01 +7.29674394837E-02
2.80000000000E+09 +6.94840868664E-01 -1.15069041013E-01 +1.22649313573E-03 -4.24450222540E-03 +1.36210406809E-03 -4.09088834314E-03 +7.58407236851E-01 +5.53192751417E-02
2.80500000000E+09 +6.84805714007E-01 -1.34216046985E-01 +6.52647123942E-04 -4.34758079546E-03 +8.07014646567E-04 -4.36126842882E-03 +7.53297741288E-01 +3.75364283278E-02
2.81000000000E+09 +6.73250965790E-01 -1.52024943188E-01 +3.76133097929E-04 -4.14768034404E-03 +4.34177755469E-04 -4.39013067126E-03 +7.47659232210E-01 +1.74740734601E-02
2.81500000000E+09 +6.61118260466E-01 -1.68608682105E-01 -4.49397091533E-05 -4.38477367175E-03 -2.52553117117E-04 -4.56711145061E-03 +7.40486095278E-01 -2.81051822436E-03
2.82000000000E+09 +6.48381191065E-01 -1.85546046483E-01 -4.09067207107E-04 -4.46090476668E-03 -6.90557457338E-04 -4.38189661875E-03 +7.32246301588E-01 -2.27840546212E-02
2.82500000000E+09 +6.34049038392E-01 -2.02234941635E-01 -1.03602253244E-03 -4.67295746192E-03 -1.25036732436E-03 -4.45510783113E-03 +7.23609684179E-01 -4.17264837885E-02
2.83000000000E+09 +6.18436113195E-01 -2.19889979373E-01 -1.84880529073E-03 -4.19578043580E-03 -1.81371382080E-03 -3.98565600430E-03 +7.14562018229E-01 -6.10983756982E-02
2.83500000000E+09 +6.00541594389E-01 -2.37803565381E-01 -1.95061299105E-03 -3.69205715907E-03 -1.80902607847E-03 -3.53297993321E-03 +7.04936353926E-01 -8.13114672439E-02
2.84000000000E+09 +5.80201497764E-01 -2.55006802033E-01 -1.82705169748E-03 -3.73457034871E-03 -1.72631768238E-03 -3.71536956204E-03 +6.93370064278E-01 -1.02686466038E-01
2.84500000000E+09 +5.59176818161E-01 -2.71699733237E-01 -2.41716511570E-03 -3.94135781422E-03 -2.38907130848E-03 -4.03074656790E-03 +6.80044503821E-01 -1.23613938407E-01
2.85000000000E+09 +5.36959838028E-01 -2.88743203074E-01 -2.86281674938E-03 -4.05825823568E-03 -2.85863361569E-03 -3.97510702333E-03 +6.65799365605E-01 -1.44020000407E-01
2.85500000000E+09 +5.13349714604E-01 -3.05277703452E-01 -3.70844276419E-03 -3.71445402761E-03 -3.65446793847E-03 -3.59621428279E-03 +6.51617918530E-01 -1.64101306109E-01
2.86000000000E+09 +4.89282322022E-01 -3.21306314124E-01 -4.19850006051E-03 -3.39348269604E-03 -4.01690990417E-03 -3.38458212515E-03 +6.35366895787E-01 -1.85562100176E-01
2.86500000000E+09 +4.64225542044E-01 -3.36906384611E-01 -4.79739321742E-03 -2.72972511996E-03 -4.72757498149E-03 -2.76550926767E-03 +6.17359356460E-01 -2.05929848998E-01
2.87000000000E+09 +4.37715230201E-01 -3.50559763606E-01 -4.96318208566E-03 -1.97008478256E-03 -4.90427675888E-03 -1.94244924039E-03 +5.97734159426E-01 -2.25676051127E-01
2.87500000000E+09 +4.11876788060E-01 -3.62107965938E-01 -4.88597904281E-03 -1.56094095550E-03 -4.94261926774E-03 -1.43896855248E-03 +5.77769194941E-01 -2.44600930901E-01
2.88000000000E+09 +3.86180627607E-01 -3.72819400302E-01 -5.03707431408E-03 -1.45697500531E-03 -4.88868555463E-03 -1.21859387227E-03 +5.56490299513E-01 -2.63611486409E-01
2.88500000000E+09 +3.59514142591E-01 -3.82599644141E-01 -5.68765417727E-03 -1.15649644693E-03 -5.36616791445E-03 -1.02069917215E-03 +5.33670399622E-01 -2.82894208455E-01
2.89000000000E+09 +3.31760112677E-01 -3.90574522747E-01 -5.88743634782E-03 -2.17582301463E-04 -5.53806756686E-03 -3.74267056551E-04 +5.07858848017E-01 -3.01069013208E-01
2.89500000000E+09 +3.02822879713E-01 -3.97021843254E-01 -6.10741916216E-03 +4.38285622571E-04 -5.93254842186E-03 +6.73739167237E-05 +4.80098216932E-01 -3.18329503692E-01
2.90000000000E+09 +2.72380881443E-01 -4.01709450082E-01 -6.14692036656E-03 +1.27340909174E-03 -6.22310908231E-03 +9.70212820828E-04 +4.51138579627E-01 -3.33604218041E-01
2.90500000000E+09 +2.40334751780E-01 -4.04043473149E-01 -5.93353804229E-03 +2.09268073612E-03 -6.11149623609E-03 +1.96198334870E-03 +4.22362985183E-01 -3.48636497682E-01
2.91000000000E+09 +2.06879449510E-01 -4.04177674887E-01 -5.76873909987E-03 +2.76483062475E-03 -5.72282199641E-03 +2.80356577219E-03 +3.90921556244E-01 -3.63493067593E-01
2.91500000000E+09 +1.72819496279E-01 -4.00634669525E-01 -5.28104783263E-03 +3.58927714081E-03 -5.06725484267E-03 +3.48866164414E-03 +3.57555605981E-01 -3.75580529409E-01
2.92000000000E+09 +1.39501398030E-01 -3.94703823353E-01 -4.68650592828E-03 +3.79733065348E-03 -4.40693020087E-03 +3.51772979069E-03 +3.23298873616E-01 -3.84403428421E-01
2.92500000000E+09 +1.07778891210E-01 -3.87652826944E-01 -4.56103863558E-03 +3.80047761968E-03 -4.51515057251E-03 +3.40297474503E-03 +2.88188033315E-01 -3.92183122401E-01
2.93000000000E+09 +7.54271973164E-02 -3.80516490605E-01 -4.87192393530E-03 +4.55995119546E-03 -5.03917899577E-03 +4.25151327495E-03 +2.51406365072E-01 -3.98186651483E-01
2.93500000000E+09 +4.22026361320E-02 -3.71324373040E-01 -4.24069657871E-03 +5.71553164289E-03 -4.42125961090E-03 +5.66435412747E-03 +2.12014989175E-01 -4.03218753543E-01
2.94000000000E+09 +9.20902631075E-03 -3.59025225685E-01 -3.23485618960E-03 +6.12646988702E-03 -3.39547492167E-03 +6.08126884487E-03 +1.71515590290E-01 -4.03864619241E-01
2.94500000000E+09 -2.26140789402E-02 -3.43543967390E-01 -2.94932557406E-03 +6.19886649772E-03 -3.05282412943E-03 +6.11418475615E-03 +1.32850550886E-01 -4.02171479630E-01
2.95000000000E+09 -5.20481537214E-02 -3.25808578503E-01 -2.46277683833E-03 +7.29644445767E-03 -2.72265141510E-03 +7.21711303292E-03 +9.44881940346E-02 -3.99183313653E-01
2.95500000000E+09 -7.93328361044E-02 -3.06772178781E-01 -9.79888200039E-04 +7.54931078681E-03 -1.26417141414E-03 +7.66902824984E-03 +5.50006692097E-02 -3.94118281646E-01
2.96000000000E+09 -1.07055499371E-01 -2.86275182871E-01 -2.89470448763E-04 +7.46261427559E-03 -4.03513988726E-04 +7.78436431052E-03 +1.39993580111E-02 -3.85304325753E-01
2.96500000000E+09 -1.33056842187E-01 -2.62671939630E-01 +3.56336336032E-04 +7.46078132166E-03 +4.48304407135E-04 +7.79261048705E-03 -2.75961677114E-02 -3.72591880742E-01
2.97000000000E+09 -1.58026146704E-01 -2.36355559560E-01 +8.40097148557E-04 +7.62628906823E-03 +1.09241509092E-03 +7.67808804136E-03 -6.78912670808E-02 -3.56247877744E-01
2.97500000000E+09 -1.80396403178E-01 -2.07769568071E-01 +1.68945024740E-03 +8.44810382495E-03 +1.72611980132E-03 +8.27879016790E-03 -1.07138754888E-01 -3.37846827952E-01
2.98000000000E+09 -2.01109715967E-01 -1.78519666952E-01 +3.84715885482E-03 +8.37068194680E-03 +3.57666246467E-03 +8.30377677464E-03 -1.44244216520E-01 -3.17093665075E-01
2.98500000000E+09 -2.20117131584E-01 -1.48068698354E-01 +4.91749125813E-03 +7.09595505984E-03 +4.69816701269E-03 +7.45573684808E-03 -1.81078445779E-01 -2.95027673029E-01
2.99000000000E+09 -2.37976590021E-01 -1.17349703579E-01 +5.30550566800E-03 +6.38460006155E-03 +5.49968771090E-03 +6.74319922811E-03 -2.16712172219E-01 -2.67506367255E-01
2.99500000000E+09 -2.54139396450E-01 -8.52741117839E-02 +5.90108062527E-03 +6.10655397187E-03 +6.35390695523E-03 +6.24712359030E-03 -2.48463870589E-01 -2.37295613961E-01
3.00000000000E+09 -2.68090881334E-01 -5.27967704511E-02 +6.68057874227E-03 +5.86065138624E-03 +6.95489116691E-03 +5.55286170377E-03 -2.78877042150E-01 -2.06352007973E-01
3.00500000000E+09 -2.78881881686E-01 -2.09624319407E-02 +8.47796281420E-03 +5.69609862572E-03 +8.34601090638E-03 +5.28129107509E-03 -3.08690654487E-01 -1.72252200591E-01
3.01000000000E+09 -2.87722760818E-01 +9.91615130688E-03 +9.85463193022E-03 +3.20607030894E-03 +9.48304591127E-03 +3.16797896095E-03 -3.34205708391E-01 -1.36280299205E-01
3.01500000000E+09 -2.94576771617E-01 +4.00527076692E-02 +9.43543425893E-03 +1.34522147974E-03 +9.22234735236E-03 +1.59179401741E-03 -3.57738045224E-01 -9.90907071812E-02
3.02000000000E+09 -2.99166682752E-01 +7.03895086713E-02 +8.92791527795E-03 +3.99496760805E-04 +9.09685820006E-03 +5.67207970069E-04 -3.76679994277E-01 -6.05433413962E-02
3.02500000000E+09 -3.00662400247E-01 +1.00877989044E-01 +8.95817180810E-03 -3.37156245421E-05 +9.17170710473E-03 -1.60124339090E-05 -3.92029666001E-01 -2.20576245608E-02
3.03000000000E+09 -2.98446218501E-01 +1.30736167482E-01 +9.24505050673E-03 -1.21504691099E-03 +9.31837350901E-03 -1.28024486714E-03 -4.06642682646E-01 +1.67594225565E-02
3.03500000000E+09 -2.94216848173E-01 +1.58568863212E-01 +9.51816595757E-03 -2.52493292892E-03 +9.51666011161E-03 -2.37114690840E-03 -4.18034559425E-01 +5.86651834772E-02
3.04000000000E+09 -2.88146244087E-01 +1.87789401376E-01 +9.04017222476E-03 -4.51360627265E-03 +9.37054798118E-03 -4.36296825478E-03 -4.24629759529E-01 +1.00180061811E-01
3.04500000000E+09 -2.79791506076E-01 +2.14547427945E-01 +7.65236337931E-03 -5.39054673050E-03 +8.05415554450E-03 -5.57606369870E-03 -4.28650146374E-01 +1.40107021830E-01
3.05000000000E+09 -2.70966981224E-01 +2.42040937345E-01 +7.08598665782E-03 -6.16351259216E-03 +7.21512989401E-03 -6.76717471688E-03 -4.30663528172E-01 +1.78433815957E-01
3.05500000000E+09 -2.60539333461E-01 +2.69079922505E-01 +6.32937198700E-03 -6.90150806325E-03 +6.00039579303E-03 -7.39361991880E-03 -4.31840214560E-01 +2.17109354362E-01
3.06000000000E+09 -2.48797585350E-01 +2.95475234882E-01 +5.27632530126E-03 -8.23204307967E-03 +4.67484397971E-03 -8.18887967798E-03 -4.28581443749E-01 +2.56270607971E-01
3.06500000000E+09 -2.35992190693E-01 +3.20282893319E-01 +3.56487381853E-03 -8.82919553801E-03 +3.37963073769E-03 -8.36808339426E-03 -4.22186364726E-01 +2.93270385910E-01
3.07000000000E+09 -2.23448717129E-01 +3.43756290622E-01 +1.70875132545E-03 -8.72567634960E-03 +2.12114616042E-03 -8.41533653974E-03 -4.14340063800E-01 +3.27351504562E-01
