# Hz S RI R 50
! CMT, C1220, 16058040, 17.2.0/1
! Date: 15/08/2018 10:09:36
! Data: Format (Calibration Info)
! Freq                      S11: Re/Im (F2)                       S21: Re/Im (F2)                       S12: Re/Im (F2)                       S22: Re/Im (F2)            
2.50000000000E+09 +5.99444919439E-01 +6.35300781532E-01 -5.83244165927E-04 -5.76841014647E-04 -6.53905009487E-04 -6.29156476888E-04 +5.72929307151E-01 +7.16518684276E-01
2.50500000000E+09 +6.05654203988E-01 +6.27842036982E-01 -5.82744169648E-04 -5.54113982394E-04 -6.83386445576E-04 -5.03943676287E-04 +5.78533029664E-01 +7.11091697352E-01
2.51000000000E+09 +6.12217679095E-01 +6.19882188359E-01 -6.57823553235E-04 -5.83285229636E-04 -6.67985564752E-04 -5.13103243857E-04 +5.84286863376E-01 +7.06013582310E-01
2.51500000000E+09 +6.18484934302E-01 +6.11831026052E-01 -7.90977074232E-04 -5.23886610365E-04 -7.25240655057E-04 -4.80379986600E-04 +5.89640701563E-01 +7.00486864324E-01
2.52000000000E+09 +6.24216617575E-01 +6.03646545385E-01 -8.92975734770E-04 -4.56721466148E-04 -8.16558039788E-04 -3.80007808279E-04 +5.94881163677E-01 +6.94647561905E-01
2.52500000000E+09 +6.29198853284E-01 +5.96294075798E-01 -9.30458848234E-04 -2.99204323767E-04 -9.39531790080E-04 -3.08661735111E-04 +6.00697223349E-01 +6.88023941768E-01
2.53000000000E+09 +6.33800466453E-01 +5.89148401681E-01 -9.06333453211E-04 -1.52695758350E-04 -8.59340038727E-04 -1.90795165543E-04 +6.06580485459E-01 +6.80984125291E-01
2.53500000000E+09 +6.38068483966E-01 +5.82671746373E-01 -8.95110367988E-04 -1.29962908799E-04 -8.32918682255E-04 -1.35028352975E-04 +6.12574696603E-01 +6.74328658486E-01
2.54000000000E+09 +6.42193685529E-01 +5.76333473219E-01 -9.22447013614E-04 -8.47858113719E-05 -9.00812989156E-04 -1.01476754644E-04 +6.18567084440E-01 +6.67520961313E-01
2.54500000000E+09 +6.46543687868E-01 +5.70292700430E-01 -9.89322247005E-04 +5.71260089128E-05 -9.87199052042E-04 -3.94324463769E-05 +6.24276893597E-01 +6.60962594141E-01
2.55000000000E+09 +6.51123261042E-01 +5.64033409168E-01 -9.60714408825E-04 +2.13314341090E-04 -1.02986125330E-03 +8.87453322075E-05 +6.29633009185E-01 +6.54848238002E-01
2.55500000000E+09 +6.56286176639E-01 +5.57093359311E-01 -8.92779931853E-04 +2.55103908194E-04 -1.03024542710E-03 +2.81450047260E-04 +6.34733001679E-01 +6.48325761085E-01
2.56000000000E+09 +6.62138255783E-01 +5.50105150883E-01 -7.86881000175E-04 +2.80087004647E-04 -9.14330413358E-04 +3.68445086403E-04 +6.40089458572E-01 +6.41247132623E-01
2.56500000000E+09 +6.68528568842E-01 +5.41904838948E-01 -8.02134251225E-04 +2.07048692432E-04 -8.23664113763E-04 +3.77156091676E-04 +6.45644131526E-01 +6.33691656488E-01
2.57000000000E+09 +6.74662981708E-01 +5.33279464138E-01 -9.48843553262E-04 +1.59412071185E-04 -9.27040105482E-04 +3.76570295359E-04 +6.51069970007E-01 +6.25549660184E-01
2.57500000000E+09 +6.80640510896E-01 +5.24124538641E-01 -1.14805308183E-03 +4.57597368564E-04 -9.33496217003E-04 +5.49752835323E-04 +6.56378652220E-01 +6.17818273402E-01
2.58000000000E+09 +6.85523974740E-01 +5.15340088797E-01 -1.01045996772E-03 +7.50216727222E-04 -8.56774162323E-04 +6.90378743339E-04 +6.61450897122E-01 +6.10353422121E-01
2.58500000000E+09 +6.90362039722E-01 +5.06465226199E-01 -7.98046990155E-04 +8.87465503056E-04 -7.18656434412E-04 +7.01881272914E-04 +6.66293236141E-01 +6.02851750310E-01
2.59000000000E+09 +6.94808884344E-01 +4.97941226145E-01 -6.49526477712E-04 +8.66928249400E-04 -7.25815181561E-04 +7.64694742234E-04 +6.71220982163E-01 +5.95257476980E-01
2.59500000000E+09 +6.98973999147E-01 +4.89661659977E-01 -6.70025582011E-04 +8.23612253395E-04 -6.91633970134E-04 +7.90454949614E-04 +6.75794440712E-01 +5.87115211387E-01
2.60000000000E+09 +7.03048646121E-01 +4.81051457608E-01 -7.06384070474E-04 +8.60693996811E-04 -7.06524793010E-04 +8.47243671610E-04 +6.80906196540E-01 +5.78762378443E-01
2.60500000000E+09 +7.07300393755E-01 +4.71916611794E-01 -7.20760187661E-04 +1.04805477095E-03 -7.92236943388E-04 +1.05051377127E-03 +6.86153180165E-01 +5.70093501411E-01
2.61000000000E+09 +7.11473990698E-01 +4.61829147415E-01 -5.54664586960E-04 +1.34561984061E-03 -5.70135708006E-04 +1.33759392101E-03 +6.91084014495E-01 +5.61264413257E-01
2.61500000000E+09 +7.16031627169E-01 +4.50983042644E-01 -1.75081633004E-04 +1.34794793630E-03 -2.31323678602E-04 +1.37686362852E-03 +6.96056526207E-01 +5.52615731065E-01
2.62000000000E+09 +7.20145833113E-01 +4.38882413365E-01 -5.04604970005E-05 +1.22028551215E-03 -5.43734638274E-05 +1.31582200407E-03 +7.00437342327E-01 +5.43484832548E-01
2.62500000000E+09 +7.24278440449E-01 +4.25983918489E-01 -9.14397327642E-05 +1.11719153866E-03 +2.64498029058E-05 +1.17870211811E-03 +7.05223445199E-01 +5.34897937250E-01
2.63000000000E+09 +7.27720139653E-01 +4.12765072994E-01 -5.94335938881E-05 +1.24147261828E-03 +5.81613804966E-05 +1.15597324758E-03 +7.10250129308E-01 +5.25964409449E-01
2.63500000000E+09 +7.30839257689E-01 +3.99669947604E-01 +1.31225275358E-05 +1.33430148299E-03 +1.30033983966E-04 +1.19080255999E-03 +7.15224742957E-01 +5.16388644475E-01
2.64000000000E+09 +7.33614172122E-01 +3.86859497953E-01 +1.95213678835E-04 +1.45875939336E-03 +2.14340123733E-04 +1.23439561877E-03 +7.19849546772E-01 +5.06623488866E-01
2.64500000000E+09 +7.36396846955E-01 +3.74732095456E-01 +5.13063987129E-04 +1.29712080164E-03 +3.62613304575E-04 +1.17487835065E-03 +7.24254320749E-01 +4.96906236063E-01
2.65000000000E+09 +7.38804972960E-01 +3.62862944619E-01 +5.34968477762E-04 +1.17117247169E-03 +4.09465023531E-04 +1.19107073841E-03 +7.28428811089E-01 +4.87222487724E-01
2.65500000000E+09 +7.40959385675E-01 +3.51153592965E-01 +5.78963349021E-04 +1.17203992264E-03 +4.80219202508E-04 +1.26353715860E-03 +7.32837820611E-01 +4.77039407355E-01
2.66000000000E+09 +7.43111151104E-01 +3.39678099582E-01 +6.09815371423E-04 +1.18004066500E-03 +6.27809893911E-04 +1.23860751584E-03 +7.37446398861E-01 +4.65685857826E-01
2.66500000000E+09 +7.45276287744E-01 +3.28164123514E-01 +6.71467776814E-04 +1.30124296977E-03 +7.42654055793E-04 +1.30295719324E-03 +7.41529343021E-01 +4.54172524430E-01
2.67000000000E+09 +7.47257463176E-01 +3.15420133042E-01 +1.03933004244E-03 +1.42153647317E-03 +1.04656682993E-03 +1.28774490280E-03 +7.45674500773E-01 +4.43112194148E-01
2.67500000000E+09 +7.48526189242E-01 +3.01990811280E-01 +1.32586677440E-03 +1.05555826153E-03 +1.25163309982E-03 +9.49590703151E-04 +7.49637254974E-01 +4.31827519009E-01
2.68000000000E+09 +7.49061549208E-01 +2.88486303780E-01 +1.25061513364E-03 +8.23391098823E-04 +1.12601893426E-03 +8.26436896747E-04 +7.53473948630E-01 +4.20802430310E-01
2.68500000000E+09 +7.49285153922E-01 +2.74509326274E-01 +1.31592843429E-03 +8.46634395949E-04 +1.22277903420E-03 +9.10155027041E-04 +7.56644189572E-01 +4.09167377542E-01
2.69000000000E+09 +7.48944924246E-01 +2.60581291898E-01 +1.42609934800E-03 +8.62406957031E-04 +1.37014890971E-03 +8.93804379719E-04 +7.59319320232E-01 +3.96901241009E-01
2.69500000000E+09 +7.48630001549E-01 +2.47144223316E-01 +1.60416874694E-03 +7.36691216798E-04 +1.57818089186E-03 +7.20404617830E-04 +7.61855096488E-01 +3.84170309239E-01
2.70000000000E+09 +7.48564389268E-01 +2.33978840031E-01 +1.77602631866E-03 +5.82167389934E-04 +1.77268686119E-03 +5.74057838591E-04 +7.64555663303E-01 +3.70822959449E-01
2.70500000000E+09 +7.48723722173E-01 +2.21038529290E-01 +1.86815845140E-03 +3.31434533045E-04 +1.79978361727E-03 +4.40891649459E-04 +7.67534969235E-01 +3.57460246119E-01
2.71000000000E+09 +7.49206382509E-01 +2.08032336361E-01 +1.92926065207E-03 +1.22248123709E-04 +1.96653218682E-03 +2.04130332989E-04 +7.70351468941E-01 +3.43907642785E-01
2.71500000000E+09 +7.50454551934E-01 +1.94515182317E-01 +1.90966221560E-03 -1.14864671452E-04 +2.09491133614E-03 -1.53446141604E-04 +7.72580814156E-01 +3.31195410750E-01
2.72000000000E+09 +7.51425090701E-01 +1.80134171345E-01 +1.82550337032E-03 -3.18433801772E-04 +1.92733357596E-03 -4.35470965727E-04 +7.74352658707E-01 +3.18413686220E-01
2.72500000000E+09 +7.52292248791E-01 +1.64793954841E-01 +1.75574614999E-03 -3.77320448128E-04 +1.71792685799E-03 -5.50895708510E-04 +7.75427786207E-01 +3.05360371644E-01
2.73000000000E+09 +7.51926619814E-01 +1.48418390664E-01 +1.90306368265E-03 -3.84001957850E-04 +1.68031239515E-03 -5.09599159319E-04 +7.77089332689E-01 +2.91295658517E-01
2.73500000000E+09 +7.50159899216E-01 +1.31305140098E-01 +1.99611011630E-03 -6.67884347290E-04 +1.73247006012E-03 -5.68481957345E-04 +7.78234820963E-01 +2.76066725749E-01
2.74000000000E+09 +7.47189942357E-01 +1.14913236621E-01 +2.14645260096E-03 -1.07617722668E-03 +1.96348960573E-03 -7.88673121472E-04 +7.79258937103E-01 +2.60504425333E-01
2.74500000000E+09 +7.43616832870E-01 +9.83626478016E-02 +1.89049777495E-03 -1.47935514794E-03 +1.98703198655E-03 -1.17668389486E-03 +7.79968949180E-01 +2.45459256485E-01
2.75000000000E+09 +7.39209316124E-01 +8.20294197892E-02 +1.43019374583E-03 -1.64451883144E-03 +1.67933717647E-03 -1.52614381111E-03 +7.80492378777E-01 +2.30666246211E-01
2.75500000000E+09 +7.34411184418E-01 +6.57325129902E-02 +1.38302313441E-03 -1.43925145212E-03 +1.60351945410E-03 -1.47469812704E-03 +7.80776429441E-01 +2.15459673858E-01
2.76000000000E+09 +7.29641922647E-01 +4.96620650050E-02 +1.61516225576E-03 -1.63599564166E-03 +1.78828429293E-03 -1.70981967211E-03 +7.80162914253E-01 +1.99369303367E-01
2.76500000000E+09 +7.24833840522E-01 +3.35809597866E-02 +1.44811271460E-03 -2.16281244504E-03 +1.40014852910E-03 -2.31912137821E-03 +7.78376068164E-01 +1.82182407987E-01
2.77000000000E+09 +7.20621242300E-01 +1.65763896429E-02 +1.07634881598E-03 -2.30757029074E-03 +1.07084697891E-03 -2.39772273828E-03 +7.76376890601E-01 +1.65314526523E-01
2.77500000000E+09 +7.16279426921E-01 -1.73619371190E-03 +7.68886926622E-04 -2.52590214252E-03 +7.09964000226E-04 -2.63035219316E-03 +7.74580855421E-01 +1.47523509763E-01
2.78000000000E+09 +7.11361720520E-01 -2.13250002496E-02 +3.44653237872E-04 -2.54026053722E-03 +2.00666340176E-04 -2.67829727533E-03 +7.72322980919E-01 +1.29632933875E-01
2.78500000000E+09 +7.05028889623E-01 -4.18452183200E-02 +1.82538940487E-04 -2.38435789918E-03 +3.30284577498E-06 -2.37014186841E-03 +7.69512164062E-01 +1.11927502214E-01
2.79000000000E+09 +6.97607560156E-01 -6.30039098385E-02 +1.14637466126E-04 -2.58352952896E-03 +6.16578352807E-06 -2.48286025589E-03 +7.65899431108E-01 +9.45384792915E-02
2.79500000000E+09 +6.88343720411E-01 -8.35690125829E-02 -4.48153953232E-04 -2.73990759344E-03 -4.72347531791E-04 -2.53939179967E-03 +7.61300735899E-01 +7.72547410450E-02
2.80000000000E+09 +6.78200013472E-01 -1.03622591512E-01 -5.95206942649E-04 -2.42232643320E-03 -5.25463387001E-04 -2.28134865627E-03 +7.56557085204E-01 +5.94690991429E-02
2.80500000000E+09 +6.66942011358E-01 -1.22464122700E-01 -8.00170981086E-04 -2.56149646236E-03 -7.28527242999E-04 -2.64253039404E-03 +7.51053636547E-01 +4.04006163046E-02
2.81000000000E+09 +6.55254486285E-01 -1.40362588690E-01 -1.14808380180E-03 -2.36641776091E-03 -1.15306267264E-03 -2.48607816414E-03 +7.44376567645E-01 +2.11668944310E-02
2.81500000000E+09 +6.42504303511E-01 -1.57884925387E-01 -1.26461739574E-03 -2.17409706060E-03 -1.38647643042E-03 -2.28099445660E-03 +7.37236828870E-01 +2.12158748396E-03
2.82000000000E+09 +6.28844707552E-01 -1.74634475455E-01 -1.50446434838E-03 -2.46228382685E-03 -1.60648280235E-03 -2.38774114010E-03 +7.29495266896E-01 -1.69044864661E-02
2.82500000000E+09 +6.14237808481E-01 -1.91157756336E-01 -2.19680581845E-03 -2.29392642225E-03 -2.15988289458E-03 -2.10741929864E-03 +7.21248488942E-01 -3.65012340417E-02
2.83000000000E+09 +5.98462398465E-01 -2.08879894257E-01 -2.46760264441E-03 -1.47653363739E-03 -2.31551818595E-03 -1.40950551511E-03 +7.11762195070E-01 -5.58949363827E-02
2.83500000000E+09 +5.80225386624E-01 -2.27070398849E-01 -2.01550884837E-03 -1.15632203021E-03 -1.91229571711E-03 -1.12083996923E-03 +7.01700615003E-01 -7.60933655712E-02
2.84000000000E+09 +5.59796457640E-01 -2.44729682134E-01 -1.92625100554E-03 -1.24262223629E-03 -1.94022487148E-03 -1.25171624456E-03 +6.90037854796E-01 -9.66032249845E-02
2.84500000000E+09 +5.37973409956E-01 -2.62425484916E-01 -1.99830261365E-03 -1.41434139342E-03 -1.98127978438E-03 -1.36729062020E-03 +6.77655838157E-01 -1.16762508918E-01
2.85000000000E+09 +5.14544893798E-01 -2.79652864702E-01 -2.53157493693E-03 -1.48750302422E-03 -2.56173496256E-03 -1.48100086759E-03 +6.64463976009E-01 -1.37365243761E-01
2.85500000000E+09 +4.90454794181E-01 -2.96598599631E-01 -2.84511508293E-03 -8.81518172132E-04 -2.78743032555E-03 -8.65353476272E-04 +6.49842117228E-01 -1.58100661190E-01
2.86000000000E+09 +4.65611334380E-01 -3.13038592411E-01 -2.65902939317E-03 -7.38013096141E-04 -2.56108414856E-03 -7.71110990629E-04 +6.33004802053E-01 -1.78410056199E-01
2.86500000000E+09 +4.39535378029E-01 -3.28457794731E-01 -3.06300768637E-03 -8.28845817397E-04 -3.01124503407E-03 -9.19773487143E-04 +6.15303135532E-01 -1.98067839759E-01
2.87000000000E+09 +4.13430514634E-01 -3.41648770371E-01 -3.45752763908E-03 -3.66657444768E-05 -3.45885483501E-03 -5.67894471302E-05 +5.96861077348E-01 -2.16813693559E-01
2.87500000000E+09 +3.88917582821E-01 -3.53645950428E-01 -3.14893180311E-03 +1.40483064468E-04 -3.12503338170E-03 +1.75762712639E-04 +5.78533473672E-01 -2.36416720667E-01
2.88000000000E+09 +3.63303356713E-01 -3.65875525685E-01 -3.38819882885E-03 +3.06905743231E-04 -3.28550861708E-03 +3.80849801492E-04 +5.57601578085E-01 -2.56660534916E-01
2.88500000000E+09 +3.36795575461E-01 -3.76557995320E-01 -3.29990036577E-03 +9.11550211906E-04 -3.13541540611E-03 +8.99064169919E-04 +5.34123640040E-01 -2.74928018610E-01
2.89000000000E+09 +3.08784464247E-01 -3.85803536416E-01 -3.15281267837E-03 +6.26848240118E-04 -3.05656557021E-03 +5.75272382210E-04 +5.09975912361E-01 -2.92366625166E-01
2.89500000000E+09 +2.78709573331E-01 -3.93446646213E-01 -3.92407470958E-03 +1.14749869853E-03 -3.76914550971E-03 +9.32224743341E-04 +4.83114223577E-01 -3.10487262748E-01
2.90000000000E+09 +2.46801048326E-01 -3.98272922977E-01 -3.96098884111E-03 +2.15860225177E-03 -4.04338944717E-03 +2.05269363515E-03 +4.54815005131E-01 -3.26105365974E-01
2.90500000000E+09 +2.13942976341E-01 -4.00292409183E-01 -3.30366807934E-03 +2.96378967314E-03 -3.37134468868E-03 +3.03379834011E-03 +4.25767160754E-01 -3.42324377861E-01
2.91000000000E+09 +1.79729205215E-01 -4.00763225883E-01 -2.48555514094E-03 +2.89233314483E-03 -2.43728177189E-03 +2.95446422086E-03 +3.94666643660E-01 -3.56359768967E-01
2.91500000000E+09 +1.45055746334E-01 -3.98399980553E-01 -3.09286945591E-03 +2.70348407365E-03 -2.86722593937E-03 +2.66114760850E-03 +3.62625478665E-01 -3.68186370738E-01
2.92000000000E+09 +1.09691725102E-01 -3.93856737029E-01 -3.18548388050E-03 +4.07060022273E-03 -2.93106479855E-03 +3.77460529834E-03 +3.30614899729E-01 -3.78447371845E-01
2.92500000000E+09 +7.45498501589E-02 -3.87850030287E-01 -2.04887749777E-03 +4.51825193788E-03 -2.14757521919E-03 +4.13835994586E-03 +2.95079860316E-01 -3.87901824491E-01
2.93000000000E+09 +3.93222458529E-02 -3.79254957308E-01 -1.35397249412E-03 +4.58253975666E-03 -1.63358129579E-03 +4.42893982567E-03 +2.57866174753E-01 -3.94858712182E-01
2.93500000000E+09 +4.06384154362E-03 -3.69215948293E-01 -8.55864445942E-04 +4.62658202331E-03 -1.08126756429E-03 +4.62004819578E-03 +2.18683417828E-01 -3.99388652611E-01
2.94000000000E+09 -3.02578978156E-02 -3.56234837328E-01 -1.02274430547E-03 +4.55938324176E-03 -1.13587298044E-03 +4.56353221720E-03 +1.79674928372E-01 -4.00415757273E-01
2.94500000000E+09 -6.39750236506E-02 -3.41215384285E-01 -5.92790387423E-04 +5.84281015335E-03 -7.24299974736E-04 +5.78900964693E-03 +1.42212499351E-01 -4.01278124300E-01
2.95000000000E+09 -9.68106192476E-02 -3.23217449335E-01 +1.07978306169E-03 +6.04182790166E-03 +8.88966821028E-04 +6.00927450193E-03 +1.01738641532E-01 -4.01037404793E-01
2.95500000000E+09 -1.27691012334E-01 -3.02231995874E-01 +2.14311294925E-03 +5.46673564246E-03 +1.87536917190E-03 +5.59777194968E-03 +6.00232872771E-02 -3.94972008654E-01
2.96000000000E+09 -1.57461480488E-01 -2.79635981987E-01 +2.52867875459E-03 +4.78071117564E-03 +2.52834709781E-03 +5.11195248972E-03 +1.96485352287E-02 -3.85236777259E-01
2.96500000000E+09 -1.86571446028E-01 -2.53762700825E-01 +2.78830403513E-03 +4.53843976336E-03 +2.90488414997E-03 +4.70396980793E-03 -2.01301160872E-02 -3.72547160665E-01
2.97000000000E+09 -2.13320439162E-01 -2.24105233788E-01 +3.11758522664E-03 +4.75311601176E-03 +3.31793747092E-03 +4.71575290202E-03 -5.92914876704E-02 -3.58950363062E-01
2.97500000000E+09 -2.36506209518E-01 -1.93045959482E-01 +4.27373804726E-03 +4.82041238555E-03 +4.19940927783E-03 +4.69043452697E-03 -1.00021226058E-01 -3.43326248506E-01
2.98000000000E+09 -2.57890072115E-01 -1.61501788656E-01 +5.47068440852E-03 +3.84092318749E-03 +5.22517914679E-03 +3.92045916645E-03 -1.39842051734E-01 -3.22970145988E-01
2.98500000000E+09 -2.78162394336E-01 -1.29408730011E-01 +5.82909169314E-03 +2.60508954196E-03 +5.83954607286E-03 +2.84581039600E-03 -1.77076907564E-01 -2.98422305738E-01
2.99000000000E+09 -2.97278868273E-01 -9.60113518822E-02 +5.58534394930E-03 +1.62556205554E-03 +5.85969935143E-03 +1.76795298534E-03 -2.10633216935E-01 -2.72875720179E-01
2.99500000000E+09 -3.13602473326E-01 -6.08961779324E-02 +5.45870970315E-03 +1.59239500546E-03 +5.74963619535E-03 +1.53495888852E-03 -2.45096617205E-01 -2.45011945895E-01
3.00000000000E+09 -3.26661185717E-01 -2.59372215361E-02 +6.53614090869E-03 +1.58672749876E-03 +6.62887315396E-03 +1.15660430078E-03 -2.77209297144E-01 -2.12872954685E-01
3.00500000000E+09 -3.37071682376E-01 +7.19891319993E-03 +7.35919059879E-03 -1.01505181562E-04 +7.05328030492E-03 -2.85400910564E-04 -3.06203463895E-01 -1.78830642443E-01
3.01000000000E+09 -3.45627598410E-01 +4.00015358540E-02 +7.08046815478E-03 -2.01372928826E-03 +6.76230839893E-03 -1.79769426677E-03 -3.33170108987E-01 -1.43572199020E-01
3.01500000000E+09 -3.52075673088E-01 +7.28141211725E-02 +5.99259419725E-03 -3.10464888886E-03 +6.00486815261E-03 -2.80842385308E-03 -3.56083651694E-01 -1.06585518103E-01
3.02000000000E+09 -3.55179907066E-01 +1.05673362403E-01 +4.83227918469E-03 -3.32651535940E-03 +4.98967079347E-03 -3.16904007815E-03 -3.76460192021E-01 -7.01529372027E-02
3.02500000000E+09 -3.54940147691E-01 +1.38215875633E-01 +5.08317193074E-03 -3.25584611552E-03 +5.18965986951E-03 -3.25314296848E-03 -3.95491867420E-01 -3.06803739983E-02
3.03000000000E+09 -3.50907438956E-01 +1.69989268577E-01 +4.78484982150E-03 -4.50545845337E-03 +4.85263547869E-03 -4.52644467715E-03 -4.09578498484E-01 +1.13424805381E-02
3.03500000000E+09 -3.44252986853E-01 +1.99223707352E-01 +3.58077406194E-03 -5.65370942304E-03 +3.73416348643E-03 -5.60227283562E-03 -4.19553495960E-01 +5.18218803691E-02
3.04000000000E+09 -3.37392515687E-01 +2.28911359296E-01 +1.76534426224E-03 -5.48034372206E-03 +1.98230244823E-03 -5.61321823615E-03 -4.27866089069E-01 +9.20651212746E-02
3.04500000000E+09 -3.27942611502E-01 +2.58361917178E-01 +1.42606519623E-03 -4.37389925569E-03 +1.54524332577E-03 -4.53824724897E-03 -4.33631362965E-01 +1.32359797814E-01
3.05000000000E+09 -3.16586767139E-01 +2.87794676835E-01 +1.78691033705E-03 -4.38532607583E-03 +1.72700327594E-03 -4.68071614935E-03 -4.37120025084E-01 +1.72905574978E-01
3.05500000000E+09 -3.03261814741E-01 +3.16226373276E-01 +1.89764586908E-03 -5.23289493770E-03 +1.66319937547E-03 -5.38758789330E-03 -4.35785155630E-01 +2.13407636112E-01
3.06000000000E+09 -2.89072970636E-01 +3.42841062488E-01 +6.46358031788E-04 -6.49755022835E-03 +2.92684175773E-04 -6.34409267499E-03 -4.32273687004E-01 +2.50119366480E-01
3.06500000000E+09 -2.74393133345E-01 +3.68038089354E-01 -1.65561222145E-03 -5.76997258295E-03 -1.46630875399E-03 -5.47254415599E-03 -4.28255300729E-01 +2.86418182114E-01
3.07000000000E+09 -2.59725448100E-01 +3.91908562716E-01 -1.96109537096E-03 -4.13144421143E-03 -1.68876184261E-03 -4.15906464782E-03 -4.22676591140E-01 +3.21710286093E-01
