# Hz S RI R 50
! CMT, C1220, 16058040, 17.2.0/1
! Date: 15/08/2018 10:19:06
! Data: Format (Calibration Info)
! Freq                      S11: Re/Im (F2)                       S21: Re/Im (F2)                       S12: Re/Im (F2)                       S22: Re/Im (F2)            
2.50000000000E+09 +5.96622548408E-01 +6.35149256569E-01 -2.51821090847E-04 +1.81416852222E-04 -2.93734914162E-04 +2.24445124463E-04 +5.72962676635E-01 +7.17131680843E-01
2.50500000000E+09 +6.02991072018E-01 +6.27274791078E-01 -1.97874642567E-04 +2.89595189732E-04 -2.33352274112E-04 +3.14315404167E-04 +5.78621900409E-01 +7.11529878136E-01
2.51000000000E+09 +6.09603796739E-01 +6.19124483899E-01 -1.06028045747E-04 +2.61159169043E-04 -6.39390218448E-05 +2.56765197069E-04 +5.84103823388E-01 +7.06285246712E-01
2.51500000000E+09 +6.15811528891E-01 +6.11223469331E-01 -7.53716327478E-05 +2.80377702441E-04 -1.36135631691E-04 +2.51685768234E-04 +5.89290556046E-01 +7.00981145022E-01
2.52000000000E+09 +6.21720885595E-01 +6.03526326653E-01 -5.62484771986E-05 +2.70418433990E-04 -5.71578269901E-05 +3.49117533481E-04 +5.94472729555E-01 +6.95053054110E-01
2.52500000000E+09 +6.27079304784E-01 +5.96155863509E-01 -4.39680469796E-05 +2.36865607322E-04 -8.53234069836E-06 +2.06112557011E-04 +6.00196380635E-01 +6.88777080642E-01
2.53000000000E+09 +6.31789197940E-01 +5.89281342341E-01 +3.17854305880E-07 +2.43227350289E-04 +1.63924443584E-05 +2.68527999495E-04 +6.06171513551E-01 +6.81942172594E-01
2.53500000000E+09 +6.36256629802E-01 +5.83036017992E-01 +3.58471192631E-05 +1.82368999070E-04 +4.89741852051E-05 +2.34996312365E-04 +6.12242818496E-01 +6.75086765378E-01
2.54000000000E+09 +6.40435938289E-01 +5.76932973994E-01 -3.06963327562E-05 +2.75576239040E-04 -9.37779424060E-06 +2.35859188220E-04 +6.18207410441E-01 +6.68437539447E-01
2.54500000000E+09 +6.44716769730E-01 +5.70999790622E-01 +8.99625403731E-05 +3.34812448272E-04 +6.21516426317E-05 +2.68467477800E-04 +6.24090285849E-01 +6.62025875311E-01
2.55000000000E+09 +6.49453589566E-01 +5.65137915051E-01 +1.59268916307E-04 +2.10506571628E-04 +1.83964995983E-04 +2.52799464269E-04 +6.29500228218E-01 +6.55587214199E-01
2.55500000000E+09 +6.55085369289E-01 +5.58219798352E-01 +2.60385267395E-04 +1.95993492377E-04 +2.98945202670E-04 +2.42494110490E-04 +6.34799885998E-01 +6.49111717735E-01
2.56000000000E+09 +6.61103843168E-01 +5.50853432755E-01 +1.90196992689E-04 +3.95584890078E-05 +2.76293201838E-04 +8.76283769139E-06 +6.40174442346E-01 +6.41891542719E-01
2.56500000000E+09 +6.67367321552E-01 +5.42520942756E-01 +3.15790452124E-05 -8.47916477896E-06 +5.16943582345E-06 -8.60913761786E-06 +6.45676329744E-01 +6.34235528087E-01
2.57000000000E+09 +6.73635523564E-01 +5.33818918712E-01 -8.54219648427E-05 +1.37325447402E-04 -5.16413769135E-05 +1.60040465241E-04 +6.51142007593E-01 +6.26327771208E-01
2.57500000000E+09 +6.79699777899E-01 +5.24821791962E-01 +5.06846293965E-05 +2.32170038604E-04 +6.90417735285E-05 +1.77061399249E-04 +6.56417117731E-01 +6.18572273949E-01
2.58000000000E+09 +6.85226898240E-01 +5.15928448812E-01 +1.12636203157E-04 +2.48935485129E-04 +8.69082077277E-05 +1.74374124190E-04 +6.61346344182E-01 +6.11364462684E-01
2.58500000000E+09 +6.90311353960E-01 +5.06900010326E-01 +1.63018838400E-04 +2.03018012634E-04 +1.35744015790E-04 +1.78973084186E-04 +6.66311396989E-01 +6.03695149599E-01
2.59000000000E+09 +6.94672134818E-01 +4.98529147226E-01 +8.61277849018E-05 +1.31726148716E-04 +1.05226979620E-04 +1.66340916631E-04 +6.70941631052E-01 +5.96084274015E-01
2.59500000000E+09 +6.99104209379E-01 +4.89980609253E-01 +8.92985928360E-05 +1.78080795532E-04 +6.36201397040E-05 +2.33083797064E-04 +6.75883568981E-01 +5.88082384563E-01
2.60000000000E+09 +7.03133904619E-01 +4.81228416018E-01 +1.85702612384E-04 +3.01581879762E-04 +1.46720529195E-04 +2.25227538319E-04 +6.80891442827E-01 +5.79435029449E-01
2.60500000000E+09 +7.07260893231E-01 +4.71974073970E-01 +2.20846052562E-04 +2.34566476266E-04 +1.55354912951E-04 +2.79195074914E-04 +6.86083691242E-01 +5.70923714342E-01
2.61000000000E+09 +7.11488938401E-01 +4.61697336674E-01 +3.98976778612E-04 +3.04645048477E-04 +2.70579645008E-04 +3.17707131051E-04 +6.91340065839E-01 +5.62082655977E-01
2.61500000000E+09 +7.15974813911E-01 +4.50382098754E-01 +4.05208734997E-04 +1.89298021041E-04 +4.19328945725E-04 +1.72133519571E-04 +6.96078587254E-01 +5.53308837207E-01
2.62000000000E+09 +7.19940299945E-01 +4.37820155203E-01 +3.51638456234E-04 +8.62602154830E-05 +3.77974299943E-04 +6.62310366409E-05 +7.00737650849E-01 +5.44332091813E-01
2.62500000000E+09 +7.23924619002E-01 +4.24694983005E-01 +3.44709312573E-04 +1.54259672317E-04 +4.12594546100E-04 +1.00182664395E-04 +7.05465693746E-01 +5.35407787285E-01
2.63000000000E+09 +7.27535773336E-01 +4.11152918327E-01 +3.97319054521E-04 +1.64914278007E-04 +4.28967689171E-04 +4.82272293774E-05 +7.10311531746E-01 +5.26152172429E-01
2.63500000000E+09 +7.30616300917E-01 +3.97751556362E-01 +5.22643651723E-04 +1.44504894957E-04 +5.12681112045E-04 +5.77676330552E-05 +7.15217527930E-01 +5.16631231427E-01
2.64000000000E+09 +7.33467318780E-01 +3.84822346257E-01 +6.14399070019E-04 -1.86325951032E-05 +5.53925562713E-04 -5.89850288500E-06 +7.20194121820E-01 +5.06809373793E-01
2.64500000000E+09 +7.36187237894E-01 +3.72759116511E-01 +5.35246688177E-04 -1.49332311564E-04 +4.58697229188E-04 -1.07277747356E-04 +7.24829938464E-01 +4.96813895532E-01
2.65000000000E+09 +7.38444749671E-01 +3.61316881134E-01 +4.63600468085E-04 -1.64031207383E-04 +5.02243154807E-04 -8.69113174999E-05 +7.28982370727E-01 +4.86790573202E-01
2.65500000000E+09 +7.40734704444E-01 +3.50390138206E-01 +5.77887987663E-04 -1.57046177654E-04 +6.01757464497E-04 -1.34502718500E-04 +7.32873840983E-01 +4.76356619076E-01
2.66000000000E+09 +7.43593098701E-01 +3.39668936905E-01 +5.72188759852E-04 -3.21404568002E-04 +6.35953853418E-04 -3.13698011433E-04 +7.36727517138E-01 +4.65132960188E-01
2.66500000000E+09 +7.46181568204E-01 +3.28332984375E-01 +5.92714205978E-04 -3.91400618446E-04 +5.66294750442E-04 -3.82558414504E-04 +7.40623066403E-01 +4.53856839667E-01
2.67000000000E+09 +7.48051289309E-01 +3.16144506748E-01 +5.36025030142E-04 -5.91721288749E-04 +4.63505859663E-04 -6.39179663799E-04 +7.44749580847E-01 +4.43125664188E-01
2.67500000000E+09 +7.49633469641E-01 +3.03613776026E-01 +2.94842890863E-04 -6.19995349609E-04 +2.18945634370E-04 -6.25379959215E-04 +7.48954634777E-01 +4.31797042222E-01
2.68000000000E+09 +7.50990412510E-01 +2.90145538479E-01 +2.55917075588E-04 -4.84798087017E-04 +2.76740388752E-04 -5.20254317993E-04 +7.52467216114E-01 +4.20280607638E-01
2.68500000000E+09 +7.51687873726E-01 +2.76033952131E-01 +2.28036937244E-04 -5.51697084567E-04 +2.52347980018E-04 -5.32076245371E-04 +7.55265438321E-01 +4.08800466410E-01
2.69000000000E+09 +7.51893416747E-01 +2.61769322646E-01 +2.70973819580E-04 -5.89771646287E-04 +2.76984837940E-04 -5.56979489571E-04 +7.57549946451E-01 +3.97112241082E-01
2.69500000000E+09 +7.51778077168E-01 +2.47437088447E-01 +2.20039182990E-04 -7.00510146285E-04 +2.41066042191E-04 -6.70403310331E-04 +7.60104618035E-01 +3.84719533212E-01
2.70000000000E+09 +7.51671867007E-01 +2.33554744431E-01 +7.79123590384E-05 -7.97759133263E-04 +1.23235294960E-04 -7.57533856381E-04 +7.62983449978E-01 +3.71417320472E-01
2.70500000000E+09 +7.51936672745E-01 +2.20154902625E-01 +2.39140650397E-05 -7.53322532304E-04 +6.40121392228E-05 -7.55042426119E-04 +7.65438051448E-01 +3.57994182405E-01
2.71000000000E+09 +7.52807390931E-01 +2.06785261133E-01 -1.10230076651E-04 -9.03478150428E-04 -6.40097659484E-05 -9.43588174369E-04 +7.68031446750E-01 +3.45088799399E-01
2.71500000000E+09 +7.54318420431E-01 +1.92608562820E-01 -3.35982938662E-04 -7.89833895161E-04 -3.72665118759E-04 -8.67058979673E-04 +7.70515461981E-01 +3.32507123618E-01
2.72000000000E+09 +7.55469916604E-01 +1.77600173140E-01 -4.34925541711E-04 -6.61247026763E-04 -5.03497576422E-04 -6.61606084436E-04 +7.72588113586E-01 +3.20027390566E-01
2.72500000000E+09 +7.55728518348E-01 +1.61791405492E-01 -2.98970324814E-04 -5.44852692392E-04 -3.27502750353E-04 -5.06830820104E-04 +7.73858759010E-01 +3.06725600264E-01
2.73000000000E+09 +7.54924890165E-01 +1.45729167864E-01 -3.18590749042E-04 -8.41885293445E-04 -3.60492890097E-04 -7.13606666315E-04 +7.75018178056E-01 +2.93007902810E-01
2.73500000000E+09 +7.53042421882E-01 +1.28885191500E-01 -5.89303337150E-04 -8.02434677573E-04 -4.96683938841E-04 -6.94500294899E-04 +7.75933256391E-01 +2.78561395188E-01
2.74000000000E+09 +7.50067853684E-01 +1.12401518604E-01 -8.01398668261E-04 -6.29877430530E-04 -6.78599866464E-04 -6.43212975564E-04 +7.77442831439E-01 +2.63784187978E-01
2.74500000000E+09 +7.46090309910E-01 +9.52131896606E-02 -8.23954057164E-04 -4.35121624240E-04 -7.57592635093E-04 -5.30809210708E-04 +7.78800408712E-01 +2.48560406655E-01
2.75000000000E+09 +7.40728713367E-01 +7.80069825295E-02 -7.66149372507E-04 -3.73557277436E-04 -7.09620694529E-04 -4.21277390654E-04 +7.79578694618E-01 +2.33572842436E-01
2.75500000000E+09 +7.34772741245E-01 +6.18779557107E-02 -7.05929753421E-04 -4.03060475237E-04 -7.43636031487E-04 -4.79120238747E-04 +7.79580908067E-01 +2.18432688729E-01
2.76000000000E+09 +7.29316797972E-01 +4.58234405307E-02 -9.48832453055E-04 -4.85495270172E-04 -1.02807617234E-03 -5.05234290271E-04 +7.79060509912E-01 +2.02968751695E-01
2.76500000000E+09 +7.24376257544E-01 +2.91521979989E-02 -1.17830744546E-03 -2.80845482330E-04 -1.25896671277E-03 -2.65211268198E-04 +7.78221670856E-01 +1.86311570612E-01
2.77000000000E+09 +7.19252172389E-01 +1.16297670565E-02 -1.19394337424E-03 +4.79021857414E-05 -1.25597341621E-03 +8.20031005527E-05 +7.77088919389E-01 +1.68848573400E-01
2.77500000000E+09 +7.14276493065E-01 -6.83789533997E-03 -1.00115117960E-03 +1.82904814898E-04 -1.07570448463E-03 +2.20513922669E-04 +7.75296150915E-01 +1.50793116272E-01
2.78000000000E+09 +7.08479427862E-01 -2.60711387172E-02 -1.13083680320E-03 +1.24693291752E-04 -1.14023464902E-03 +2.19344437939E-04 +7.73279104212E-01 +1.32910339581E-01
2.78500000000E+09 +7.01987914550E-01 -4.57760229929E-02 -1.13908008540E-03 +3.99748639756E-04 -1.08758199706E-03 +4.39754089470E-04 +7.70577455200E-01 +1.15142249585E-01
2.79000000000E+09 +6.95199178269E-01 -6.56101117991E-02 -1.05691248756E-03 +5.19380661496E-04 -1.03438642608E-03 +5.55889178985E-04 +7.67223917213E-01 +9.78245140620E-02
2.79500000000E+09 +6.87225894221E-01 -8.62345831397E-02 -1.09008460338E-03 +8.28408317960E-04 -1.01696106865E-03 +8.15947226623E-04 +7.63146121002E-01 +8.04011728455E-02
2.80000000000E+09 +6.76739091668E-01 -1.06252790700E-01 -6.17461022348E-04 +9.26342411515E-04 -6.21763107582E-04 +8.36935116224E-04 +7.58829415565E-01 +6.20200876922E-02
2.80500000000E+09 +6.65305557478E-01 -1.24595360672E-01 -6.21778421064E-04 +6.05939239446E-04 -6.00118408377E-04 +5.88016971827E-04 +7.53167869409E-01 +4.28096850437E-02
2.81000000000E+09 +6.53171706232E-01 -1.41449688093E-01 -7.50795147320E-04 +6.63369767822E-04 -7.80149134239E-04 +6.56613741021E-04 +7.46728653084E-01 +2.35921561339E-02
2.81500000000E+09 +6.40695399852E-01 -1.57820934942E-01 -8.01866801574E-04 +7.86192679960E-04 -8.19295491989E-04 +8.42056780151E-04 +7.39737709160E-01 +4.17714038870E-03
2.82000000000E+09 +6.27184552748E-01 -1.74082250441E-01 -9.65544148863E-04 +1.11301149243E-03 -9.24579375020E-04 +1.12232113501E-03 +7.32500643736E-01 -1.53239553768E-02
2.82500000000E+09 +6.12949371443E-01 -1.90704451921E-01 -5.18721178435E-04 +1.49707011058E-03 -4.91036507461E-04 +1.46310410368E-03 +7.23568582634E-01 -3.52306572931E-02
2.83000000000E+09 +5.96193311082E-01 -2.07903800201E-01 -3.16503477295E-04 +1.34796496129E-03 -2.55003503037E-04 +1.28160995143E-03 +7.14099435812E-01 -5.47643673841E-02
2.83500000000E+09 +5.78305823017E-01 -2.24636543561E-01 -3.44057676801E-04 +1.48944124659E-03 -4.04997519792E-04 +1.44192289663E-03 +7.03552821220E-01 -7.48733110146E-02
2.84000000000E+09 +5.59532893755E-01 -2.41717065304E-01 +2.32949702021E-04 +1.62931342093E-03 +1.38346868610E-04 +1.66431187611E-03 +6.92631189645E-01 -9.50750284715E-02
2.84500000000E+09 +5.38849524579E-01 -2.59874268861E-01 +5.83768053057E-05 +1.32858555934E-03 +7.34330836773E-05 +1.31495648904E-03 +6.80584225897E-01 -1.15997490564E-01
2.85000000000E+09 +5.16370308164E-01 -2.77834055233E-01 +3.06176740173E-04 +1.84425479380E-03 +3.44770040806E-04 +1.85072861932E-03 +6.66886777501E-01 -1.37195745055E-01
2.85500000000E+09 +4.91719150561E-01 -2.95532578559E-01 +9.76580668669E-04 +1.42473064965E-03 +9.96126148902E-04 +1.37599210364E-03 +6.52047321969E-01 -1.57410848182E-01
2.86000000000E+09 +4.66136206780E-01 -3.10825675624E-01 +5.22551848021E-04 +9.36532699708E-04 +5.37700110324E-04 +9.48778117843E-04 +6.36348349282E-01 -1.77787929705E-01
2.86500000000E+09 +4.41260086039E-01 -3.24776854141E-01 +3.29414089510E-04 +1.67313613421E-03 +3.07555467952E-04 +1.63645274767E-03 +6.19067835038E-01 -1.98249570552E-01
2.87000000000E+09 +4.16517988753E-01 -3.38400518428E-01 +1.45243451542E-03 +1.76713612819E-03 +1.47751473624E-03 +1.79257888060E-03 +6.00829312176E-01 -2.18482445813E-01
2.87500000000E+09 +3.90970902766E-01 -3.51556461624E-01 +1.53016952143E-03 +1.22362676703E-03 +1.52943331283E-03 +1.20213269843E-03 +5.80388903437E-01 -2.38978302189E-01
2.88000000000E+09 +3.63936843937E-01 -3.63218316489E-01 +1.79143868090E-03 +9.18634019400E-04 +1.73918452911E-03 +8.62629289437E-04 +5.59285544395E-01 -2.57833900521E-01
2.88500000000E+09 +3.36059662228E-01 -3.72962203357E-01 +1.68109100326E-03 +7.00173806666E-04 +1.56016675766E-03 +6.95313937151E-04 +5.36657717858E-01 -2.77220044071E-01
2.89000000000E+09 +3.07490015995E-01 -3.80307080048E-01 +1.71045019955E-03 +6.79145958198E-04 +1.64935567830E-03 +6.73707298870E-04 +5.11159878143E-01 -2.95271863629E-01
2.89500000000E+09 +2.78764376501E-01 -3.87157281077E-01 +1.89976330438E-03 +6.97696438305E-04 +1.82375447733E-03 +7.54607982213E-04 +4.84672605161E-01 -3.12548554630E-01
2.90000000000E+09 +2.47496231873E-01 -3.92351904226E-01 +2.54663613915E-03 +3.47233172379E-04 +2.58458643076E-03 +4.35760528282E-04 +4.56165983248E-01 -3.29452184268E-01
2.90500000000E+09 +2.14217858177E-01 -3.95726513709E-01 +2.35380335417E-03 -5.00499678361E-04 +2.38775068548E-03 -5.33833558312E-04 +4.25763482029E-01 -3.44999765594E-01
2.91000000000E+09 +1.79148708325E-01 -3.95104844543E-01 +1.93977249835E-03 -6.26408454014E-04 +1.88874788293E-03 -6.73058721841E-04 +3.94459898641E-01 -3.59399677463E-01
2.91500000000E+09 +1.45152688644E-01 -3.91386524819E-01 +2.26300889131E-03 -4.23228640471E-04 +2.18501389416E-03 -4.53106157349E-04 +3.61666453828E-01 -3.71521929406E-01
2.92000000000E+09 +1.12272143115E-01 -3.86095278283E-01 +2.52661608439E-03 -1.60906989469E-03 +2.41286027224E-03 -1.48116907096E-03 +3.27887353804E-01 -3.81933785182E-01
2.92500000000E+09 +7.79152762094E-02 -3.81279040909E-01 +1.61588463439E-03 -1.95092115306E-03 +1.60046522427E-03 -1.77441254475E-03 +2.91711089580E-01 -3.90433370173E-01
2.93000000000E+09 +4.23124195999E-02 -3.71480037893E-01 +1.17102912362E-03 -1.67987325995E-03 +1.25451713792E-03 -1.60009188522E-03 +2.53845491931E-01 -3.95776428614E-01
2.93500000000E+09 +9.50455817848E-03 -3.59370723740E-01 +1.33277644104E-03 -1.77373419068E-03 +1.33834866206E-03 -1.67663618174E-03 +2.16051603051E-01 -3.99325273650E-01
2.94000000000E+09 -2.23215216473E-02 -3.45839649442E-01 +1.27144216446E-03 -1.86477186320E-03 +1.33251654097E-03 -1.82978057294E-03 +1.77429590569E-01 -4.01498932716E-01
2.94500000000E+09 -5.33515088993E-02 -3.31676037702E-01 +1.25569877322E-03 -2.54935345274E-03 +1.29358676951E-03 -2.48902118408E-03 +1.37628174453E-01 -4.02625508483E-01
2.95000000000E+09 -8.52920141253E-02 -3.14707837296E-01 +2.87847068837E-04 -3.10337389929E-03 +3.74968325405E-04 -3.07541880465E-03 +9.63840050819E-02 -3.99350006264E-01
2.95500000000E+09 -1.16401507288E-01 -2.93342604013E-01 -1.45146879296E-04 -2.61944122100E-03 -7.76634025068E-05 -2.63667213540E-03 +5.62932565851E-02 -3.92263587991E-01
2.96000000000E+09 -1.43572107779E-01 -2.68638590365E-01 -6.59963545685E-04 -2.96458469842E-03 -5.93105481097E-04 -3.11911862271E-03 +1.67743971547E-02 -3.82745080344E-01
2.96500000000E+09 -1.69047848739E-01 -2.43900634463E-01 -1.58992300786E-03 -2.28704189762E-03 -1.67927837357E-03 -2.30133398925E-03 -2.33403365090E-02 -3.71315558369E-01
2.97000000000E+09 -1.92911829524E-01 -2.16737049291E-01 -1.36569674924E-03 -1.65238485021E-03 -1.39242724267E-03 -1.70952796403E-03 -6.43388722883E-02 -3.55771716704E-01
2.97500000000E+09 -2.16158374897E-01 -1.88613017241E-01 -1.01826536231E-03 -1.52856022986E-03 -1.00948857986E-03 -1.46268903578E-03 -1.02443712789E-01 -3.37282824649E-01
2.98000000000E+09 -2.37616699147E-01 -1.57621529262E-01 -1.51117041715E-03 -2.15568065149E-03 -1.43207733344E-03 -2.13900088107E-03 -1.40176474927E-01 -3.18238220586E-01
2.98500000000E+09 -2.56623500646E-01 -1.25923693817E-01 -2.44446498056E-03 -1.47945652939E-03 -2.44601412481E-03 -1.59007444736E-03 -1.76990853813E-01 -2.94886438743E-01
2.99000000000E+09 -2.73257307133E-01 -9.36152790876E-02 -2.34864310028E-03 -5.79791912402E-04 -2.52359702997E-03 -6.74501122178E-04 -2.12374224727E-01 -2.69939148305E-01
2.99500000000E+09 -2.88776835355E-01 -6.18318032115E-02 -1.88279159326E-03 -3.42807099767E-04 -2.02171446140E-03 -3.37908000239E-04 -2.46558985773E-01 -2.39920188681E-01
3.00000000000E+09 -3.02254412415E-01 -2.97830106122E-02 -1.86760217390E-03 -2.32690930605E-04 -1.85351590311E-03 -1.65076134529E-04 -2.76949121478E-01 -2.07720196922E-01
3.00500000000E+09 -3.14636133763E-01 +2.55936726833E-03 -1.92427762330E-03 -2.20244938239E-04 -1.84675858961E-03 -1.48304441989E-04 -3.05068558982E-01 -1.75198893034E-01
3.01000000000E+09 -3.23344570838E-01 +3.51972592832E-02 -2.37044925646E-03 +3.17006132786E-06 -2.27454435823E-03 -2.11076635076E-05 -3.32698207809E-01 -1.40533999349E-01
3.01500000000E+09 -3.29180445618E-01 +6.68742036379E-02 -2.10153103787E-03 +9.10179022539E-04 -2.08380454212E-03 +8.37196548847E-04 -3.56872397517E-01 -1.03171151122E-01
3.02000000000E+09 -3.32046770114E-01 +9.76468201154E-02 -1.18396488310E-03 +1.03035559993E-03 -1.18607615374E-03 +9.79184040181E-04 -3.76621212926E-01 -6.43822170729E-02
3.02500000000E+09 -3.32383233219E-01 +1.27657196378E-01 -1.00206523821E-03 +3.80357183585E-04 -9.81179843459E-04 +3.45121277724E-04 -3.92753477777E-01 -2.47096733652E-02
3.03000000000E+09 -3.30257090196E-01 +1.56748567893E-01 -1.99122658198E-03 +1.02970534883E-04 -1.98715546455E-03 +8.41848784730E-05 -4.05897824921E-01 +1.47443275831E-02
3.03500000000E+09 -3.26425457090E-01 +1.86909787190E-01 -2.22351169735E-03 +1.41068126735E-03 -2.28409935596E-03 +1.32325479228E-03 -4.17291260057E-01 +5.46161779213E-02
3.04000000000E+09 -3.18185763892E-01 +2.16228413727E-01 -1.45294858357E-03 +2.24934879960E-03 -1.52664174482E-03 +2.22321533026E-03 -4.25516207774E-01 +9.52831389171E-02
3.04500000000E+09 -3.08948546329E-01 +2.44069403570E-01 -2.32694169400E-04 +1.99986598017E-03 -2.89629966233E-04 +2.14902417318E-03 -4.31233010415E-01 +1.35754617124E-01
3.05000000000E+09 -2.98746228202E-01 +2.71734822934E-01 -2.62488768683E-04 +1.13220564938E-03 -2.65970202912E-04 +1.11885957944E-03 -4.33596169146E-01 +1.75824009857E-01
3.05500000000E+09 -2.87050113187E-01 +2.99479461196E-01 -7.07908489332E-04 +1.22367583162E-03 -6.02863689881E-04 +1.29196125873E-03 -4.33215014978E-01 +2.14670595289E-01
3.06000000000E+09 -2.73681647713E-01 +3.26094206959E-01 -8.13484672692E-04 +1.81480003997E-03 -6.63854472804E-04 +1.82524648489E-03 -4.30766239643E-01 +2.53231962122E-01
3.06500000000E+09 -2.59880694307E-01 +3.51502161707E-01 +2.15922022397E-04 +2.16354522590E-03 +2.34445359586E-04 +2.02675395207E-03 -4.25399549690E-01 +2.90235957830E-01
3.07000000000E+09 -2.45222415870E-01 +3.75406467444E-01 +7.65815814590E-04 +1.63541270130E-03 +6.62986540394E-04 +1.62995604811E-03 -4.18234417302E-01 +3.25587091407E-01
