# Hz S RI R 50
! CMT, C1220, 16058040, 17.2.0/1
! Date: 15/08/2018 10:22:56
! Data: Format (Calibration Info)
! Freq                      S11: Re/Im (F2)                       S21: Re/Im (F2)                       S12: Re/Im (F2)                       S22: Re/Im (F2)            
2.50000000000E+09 +5.81942469975E-01 +6.35955542632E-01 +2.43154852560E-04 -4.67516908314E-05 +2.82348392206E-04 -3.48231390424E-05 +5.72007218755E-01 +7.18808792107E-01
2.50500000000E+09 +5.88954030424E-01 +6.28268214022E-01 +2.95517891093E-04 -1.18042325201E-04 +2.84849504515E-04 -1.61008835486E-04 +5.77978013924E-01 +7.12799109273E-01
2.51000000000E+09 +5.96290015666E-01 +6.20149454513E-01 +2.57757080439E-04 -1.29411036354E-04 +2.48519113898E-04 -1.78547223421E-04 +5.83887840249E-01 +7.07125990618E-01
2.51500000000E+09 +6.03377077481E-01 +6.12158179365E-01 +2.41624215493E-04 -1.32905733633E-04 +2.21193985917E-04 -1.13759595706E-04 +5.89054728688E-01 +7.01092127565E-01
2.52000000000E+09 +6.09722430281E-01 +6.03910692999E-01 +2.55232071725E-04 -2.46742542785E-04 +2.90052332167E-04 -2.12261302065E-04 +5.94170254412E-01 +6.94661669941E-01
2.52500000000E+09 +6.15119971724E-01 +5.96330108853E-01 +1.88096889104E-04 -2.84995547785E-04 +1.81939457635E-04 -2.51602235507E-04 +5.99656715579E-01 +6.87826172016E-01
2.53000000000E+09 +6.20007142669E-01 +5.89319415803E-01 +1.55571074314E-04 -2.78557649959E-04 +1.64700238514E-04 -2.85181854885E-04 +6.05518201532E-01 +6.80370521052E-01
2.53500000000E+09 +6.24369996332E-01 +5.82670505805E-01 +7.69756268606E-05 -2.81268644518E-04 +9.39835157690E-05 -2.81391649272E-04 +6.11033222941E-01 +6.73349070020E-01
2.54000000000E+09 +6.28436707470E-01 +5.76433242496E-01 +4.09525382266E-05 -2.94977161870E-04 +7.19736248693E-05 -3.01906767772E-04 +6.16745919540E-01 +6.66688681316E-01
2.54500000000E+09 +6.32508132207E-01 +5.70533467185E-01 +2.05583255361E-05 -2.46436374065E-04 +6.88964901299E-05 -2.37177110836E-04 +6.22003220669E-01 +6.60195571084E-01
2.55000000000E+09 +6.37161147247E-01 +5.64641134504E-01 +7.05309800527E-05 -2.00440614729E-04 +1.80286456866E-04 -2.87053255391E-04 +6.26538694907E-01 +6.53995924572E-01
2.55500000000E+09 +6.42327463986E-01 +5.58035258747E-01 +1.07562067739E-05 -3.24825050916E-04 +2.27950988973E-05 -3.43952599620E-04 +6.31218796566E-01 +6.47863891463E-01
2.56000000000E+09 +6.48434799900E-01 +5.51203633762E-01 -3.94012506281E-05 -3.41019616854E-04 -5.88788730642E-05 -4.08046583703E-04 +6.35976782289E-01 +6.41168930139E-01
2.56500000000E+09 +6.54768491243E-01 +5.43183585812E-01 -9.78127680596E-05 -2.69184190772E-04 -1.40177877934E-04 -3.53607579617E-04 +6.41461444100E-01 +6.33898253456E-01
2.57000000000E+09 +6.60644333296E-01 +5.34959381854E-01 -1.46588500802E-04 -3.55945319972E-04 -2.07717507255E-04 -2.79666097126E-04 +6.46726073326E-01 +6.26207857032E-01
2.57500000000E+09 +6.66652419154E-01 +5.26504174925E-01 -2.39990185577E-04 -2.39645458616E-04 -2.50919755679E-04 -1.69224998258E-04 +6.52057467074E-01 +6.18687393756E-01
2.58000000000E+09 +6.71770492593E-01 +5.17917429505E-01 -2.19603573425E-04 -1.57017542761E-04 -1.93879635932E-04 -1.51514790366E-04 +6.57371121603E-01 +6.11526161731E-01
2.58500000000E+09 +6.76105079659E-01 +5.09478308282E-01 -2.44736093949E-04 -1.69236215442E-04 -2.11241970802E-04 -1.45917348677E-04 +6.62481285453E-01 +6.03966248315E-01
2.59000000000E+09 +6.80192140733E-01 +5.01313667028E-01 -2.59687647833E-04 -6.69456698047E-05 -2.90750951309E-04 -6.15038428762E-05 +6.67280283417E-01 +5.96456081718E-01
2.59500000000E+09 +6.83753623171E-01 +4.93141353151E-01 -2.03958871732E-04 -3.61323715600E-05 -1.56067198932E-04 -5.70845319362E-06 +6.72305127094E-01 +5.88445599204E-01
2.60000000000E+09 +6.87159728488E-01 +4.84694762620E-01 -2.03106827021E-04 +5.01031839757E-05 -2.29550056132E-04 +3.61208890540E-05 +6.77522540354E-01 +5.80033895384E-01
2.60500000000E+09 +6.91028381729E-01 +4.75514946453E-01 -1.34030378273E-04 +4.37807999277E-05 -1.44842325071E-04 +2.21958829553E-05 +6.82941079399E-01 +5.71089642769E-01
2.61000000000E+09 +6.95313351980E-01 +4.65283727213E-01 -7.74166451319E-05 -5.16648930926E-07 -1.06388888739E-04 -1.06092506753E-06 +6.87984643782E-01 +5.62164830871E-01
2.61500000000E+09 +6.99943180635E-01 +4.53963318303E-01 -1.84877099102E-04 -2.38464839898E-05 -1.67765656193E-04 -2.87427730060E-05 +6.92746766938E-01 +5.53448569539E-01
2.62000000000E+09 +7.04441502015E-01 +4.41465416271E-01 -1.42366746944E-04 +9.91630291935E-05 -1.87484907846E-04 +1.18305144938E-04 +6.97399741304E-01 +5.44495381328E-01
2.62500000000E+09 +7.09108277923E-01 +4.27953821657E-01 -4.24363535456E-05 +1.36160493443E-04 -2.40787847475E-05 +1.25546481269E-04 +7.01808081489E-01 +5.35679520450E-01
2.63000000000E+09 +7.13313116824E-01 +4.14314361669E-01 -2.61281901464E-05 +2.89837625107E-05 -2.39470039107E-05 +4.04474048166E-05 +7.06270508405E-01 +5.26699863561E-01
2.63500000000E+09 +7.16890108566E-01 +4.00908151322E-01 -3.22607306602E-05 +4.78022236113E-05 -3.64212978144E-05 +4.86468009365E-05 +7.10769520460E-01 +5.17700962800E-01
2.64000000000E+09 +7.20209177365E-01 +3.88134132811E-01 +1.92061188917E-06 +5.61297016905E-05 +2.94130178883E-05 +4.30408101524E-05 +7.15359068853E-01 +5.07932935061E-01
2.64500000000E+09 +7.23075753610E-01 +3.76360578155E-01 +6.47959539404E-05 +2.64738715007E-05 +9.08575405028E-05 +2.08726005681E-06 +7.19760895437E-01 +4.98450041593E-01
2.65000000000E+09 +7.25806311856E-01 +3.65605636664E-01 +8.73625702737E-05 -9.33155494514E-05 +1.49270880444E-04 -9.85371581642E-05 +7.24054592340E-01 +4.88302471423E-01
2.65500000000E+09 +7.28740591242E-01 +3.55000310773E-01 -1.53792404263E-05 -2.07537985575E-04 -5.10332054598E-05 -2.51796168767E-04 +7.27827987863E-01 +4.77740593248E-01
2.66000000000E+09 +7.31865852200E-01 +3.44415407404E-01 -1.51859133341E-04 -8.49775596519E-05 -1.76814805808E-04 -1.15561308304E-04 +7.31677663196E-01 +4.66793694847E-01
2.66500000000E+09 +7.34899160047E-01 +3.33496287969E-01 -7.95132525833E-05 -3.49863142842E-05 -1.64026466883E-04 -1.10545678244E-04 +7.35843507496E-01 +4.55713511700E-01
2.67000000000E+09 +7.37745344364E-01 +3.21371759168E-01 -1.10211972196E-04 +1.92102950918E-05 -1.45617046841E-04 +6.69842589872E-05 +7.40181311831E-01 +4.44698770892E-01
2.67500000000E+09 +7.40009127578E-01 +3.08151040371E-01 -5.24616420635E-05 -3.50937099531E-05 -9.95598244955E-05 -1.02695802770E-05 +7.44095242510E-01 +4.33536853776E-01
2.68000000000E+09 +7.41314313842E-01 +2.94031590431E-01 -1.45132147571E-04 -1.00125003538E-04 -1.37113218607E-04 -6.88366133120E-05 +7.47581439183E-01 +4.22607734814E-01
2.68500000000E+09 +7.41824153556E-01 +2.79969986296E-01 -2.42646927533E-04 -9.13805477121E-07 -2.78250306302E-04 -2.97311541215E-05 +7.50583022561E-01 +4.11449792018E-01
2.69000000000E+09 +7.42188541271E-01 +2.65660135587E-01 -1.65711022050E-04 +1.32105024531E-04 -1.83695282895E-04 +1.55781102153E-04 +7.53220611297E-01 +3.99692913724E-01
2.69500000000E+09 +7.42326668999E-01 +2.51678047977E-01 -3.25137588232E-05 +6.33747726915E-05 +2.14671365472E-05 +1.04994544967E-04 +7.55650498126E-01 +3.87485764157E-01
2.70000000000E+09 +7.42510460608E-01 +2.37885668824E-01 -6.64344422122E-05 +8.39758370190E-07 -6.37314830900E-05 +1.65957555389E-05 +7.58528147333E-01 +3.74680801801E-01
2.70500000000E+09 +7.42579880297E-01 +2.24538885552E-01 -1.88995477484E-04 -3.57940078021E-06 -1.55550404545E-04 +1.15861508176E-05 +7.61340103893E-01 +3.61741092975E-01
2.71000000000E+09 +7.42934898928E-01 +2.11439421188E-01 -8.57758761899E-05 +7.21371348391E-05 -9.30498389310E-05 +5.96994814852E-05 +7.64563988228E-01 +3.48860740198E-01
2.71500000000E+09 +7.43775383457E-01 +1.97990769692E-01 -6.29700639704E-05 +1.35398662688E-04 -9.01849189026E-05 +7.82608211502E-05 +7.66909116010E-01 +3.36201199687E-01
2.72000000000E+09 +7.44353891894E-01 +1.83868981248E-01 +3.23446938834E-05 -1.28262518243E-05 -1.09348624513E-07 -2.75080446618E-05 +7.68887186826E-01 +3.23847134719E-01
2.72500000000E+09 +7.44537107047E-01 +1.68743575019E-01 -1.69208744284E-04 -9.98410617902E-05 -1.69718074313E-04 -1.05996888888E-04 +7.70262222831E-01 +3.10574307906E-01
2.73000000000E+09 +7.43259347483E-01 +1.52776543865E-01 -2.22799582875E-04 +1.36084860265E-04 -1.77651122291E-04 +1.36650810775E-04 +7.71474029622E-01 +2.96469437388E-01
2.73500000000E+09 +7.40717559526E-01 +1.35965222736E-01 +1.04010513011E-05 +6.37739557716E-05 -1.42874936875E-05 +8.75413078743E-05 +7.72401661674E-01 +2.81431600029E-01
2.74000000000E+09 +7.37064709728E-01 +1.19321930297E-01 -4.10167023550E-05 -3.93707100265E-05 -4.88063892581E-06 -6.07682531341E-05 +7.73453734609E-01 +2.66497088877E-01
2.74500000000E+09 +7.32373486559E-01 +1.02529850131E-01 -3.02701829277E-05 -1.05349952204E-04 -7.79243379829E-05 -1.25562189203E-04 +7.74358342946E-01 +2.51535223169E-01
2.75000000000E+09 +7.27054172382E-01 +8.60624216376E-02 -2.30742385359E-04 -8.91230390140E-05 -2.52941095267E-04 -1.09236026272E-04 +7.75298502016E-01 +2.36902554368E-01
2.75500000000E+09 +7.21624679363E-01 +6.97376216539E-02 -3.12135533260E-04 -5.60472511005E-05 -3.29035926695E-04 -6.04297040906E-05 +7.75280648268E-01 +2.21729533875E-01
2.76000000000E+09 +7.16342299544E-01 +5.35292549819E-02 -4.15306337115E-04 +6.80287858173E-05 -4.75666053555E-04 +4.21557277084E-05 +7.74159950224E-01 +2.06680772200E-01
2.76500000000E+09 +7.11685706534E-01 +3.71932309142E-02 -4.14531712176E-04 +2.52477510881E-04 -4.42753326296E-04 +2.54666945198E-04 +7.72992703104E-01 +1.91205375765E-01
2.77000000000E+09 +7.07501625360E-01 +2.00490937574E-02 -2.59804708765E-04 +3.80369757413E-04 -2.74979403204E-04 +3.75229698064E-04 +7.72194014169E-01 +1.74674915928E-01
2.77500000000E+09 +7.03663332397E-01 +1.98729087815E-03 -2.41556888821E-04 +3.40678795733E-04 -2.20841789343E-04 +4.04086573394E-04 +7.70997908885E-01 +1.57175620079E-01
2.78000000000E+09 +6.99860586159E-01 -1.70723526537E-02 -1.25989024172E-04 +3.67045874873E-04 -1.12634536340E-04 +3.55529667309E-04 +7.69510187716E-01 +1.39820671947E-01
2.78500000000E+09 +6.94969609612E-01 -3.74495946241E-02 -1.76250153767E-04 +3.21894880979E-04 -1.38709360735E-04 +3.72508352026E-04 +7.67407443702E-01 +1.22584466063E-01
2.79000000000E+09 +6.88844236557E-01 -5.80711563354E-02 -1.81205607453E-04 +4.10489602551E-04 -1.55684925519E-04 +4.26219144000E-04 +7.65072103175E-01 +1.06007957069E-01
2.79500000000E+09 +6.81361192777E-01 -7.79780283126E-02 -7.55241089529E-05 +5.34540831647E-04 -3.01711395050E-05 +5.42639900888E-04 +7.62191631777E-01 +8.79220971797E-02
2.80000000000E+09 +6.72544624995E-01 -9.74446872511E-02 +1.24021592958E-04 +5.19446333651E-04 +1.20246737060E-04 +5.38643492176E-04 +7.57901689179E-01 +6.91239696702E-02
2.80500000000E+09 +6.62802909850E-01 -1.15659797760E-01 +5.26394077528E-05 +4.20045887575E-04 +6.55397685468E-05 +3.30734448136E-04 +7.52835773826E-01 +4.99842368127E-02
2.81000000000E+09 +6.51909563917E-01 -1.32798663266E-01 +5.03583015549E-05 +5.22800211159E-04 +7.19645270768E-05 +5.00719952053E-04 +7.47201842149E-01 +2.99471949538E-02
2.81500000000E+09 +6.40660425781E-01 -1.49139321205E-01 +2.18688800878E-04 +5.78280402959E-04 +2.48507810643E-04 +5.81771056342E-04 +7.40654460798E-01 +9.65974809185E-03
2.82000000000E+09 +6.27981125578E-01 -1.65409491906E-01 +3.07512969329E-04 +4.29199747305E-04 +3.26652918167E-04 +3.47155020325E-04 +7.33708250610E-01 -1.08788774923E-02
2.82500000000E+09 +6.14510865148E-01 -1.81258196402E-01 +1.86299386199E-04 +4.04467378780E-04 +1.63272568932E-04 +3.82004053042E-04 +7.25267220284E-01 -3.18128595988E-02
2.83000000000E+09 +6.00037221347E-01 -1.98095747283E-01 +2.60825626519E-04 +5.50855753848E-04 +2.35865397541E-04 +5.51183212989E-04 +7.15242250493E-01 -5.23852540638E-02
2.83500000000E+09 +5.83790035136E-01 -2.16249705436E-01 +4.35720439352E-04 +7.06303475942E-04 +3.40163508162E-04 +7.01162327802E-04 +7.04592155858E-01 -7.26157361015E-02
2.84000000000E+09 +5.64549143134E-01 -2.34544501826E-01 +7.50954060816E-04 +4.78323961407E-04 +7.19681400320E-04 +5.31440772223E-04 +6.92902652958E-01 -9.32984257540E-02
2.84500000000E+09 +5.43211175391E-01 -2.52749101900E-01 +6.37735346535E-04 +3.40156411064E-04 +6.37522657744E-04 +3.63776151339E-04 +6.79983879866E-01 -1.14117668131E-01
2.85000000000E+09 +5.20506718399E-01 -2.70222652164E-01 +7.94266440291E-04 +3.40280182534E-04 +7.58407546024E-04 +3.68334380379E-04 +6.65562254718E-01 -1.34805962344E-01
2.85500000000E+09 +4.96596076861E-01 -2.87021817784E-01 +8.10331733278E-04 +3.04186172406E-04 +8.10044857249E-04 +3.73324658620E-04 +6.50223205035E-01 -1.54776777481E-01
2.86000000000E+09 +4.72161059371E-01 -3.02963276616E-01 +1.11166878193E-03 +2.30860135431E-04 +1.09307521624E-03 +1.74609051920E-04 +6.33962485636E-01 -1.75067442461E-01
2.86500000000E+09 +4.47230917739E-01 -3.17554162098E-01 +1.23378917124E-03 -2.34403880990E-04 +1.21998960811E-03 -1.98306141096E-04 +6.16322543958E-01 -1.94998752069E-01
2.87000000000E+09 +4.22122428329E-01 -3.30852596292E-01 +9.01012206131E-04 -5.23028347167E-04 +9.57828543346E-04 -4.68739329298E-04 +5.97456658899E-01 -2.14933403738E-01
2.87500000000E+09 +3.97310371414E-01 -3.42726288110E-01 +8.16788163916E-04 -4.09725822060E-04 +8.20886675010E-04 -4.43118968563E-04 +5.76707706762E-01 -2.34136711953E-01
2.88000000000E+09 +3.72579902896E-01 -3.54127957522E-01 +9.64612457807E-04 -4.92597902735E-04 +9.61468903300E-04 -5.43422212013E-04 +5.55429142988E-01 -2.52108175963E-01
2.88500000000E+09 +3.46806574687E-01 -3.64690373842E-01 +9.51030508649E-04 -8.12397779129E-04 +9.11324548058E-04 -7.72667551583E-04 +5.32947306817E-01 -2.70214498517E-01
2.89000000000E+09 +3.19708537608E-01 -3.74009222806E-01 +5.92584970633E-04 -1.18235202551E-03 +6.13364118163E-04 -1.08096405070E-03 +5.08591163987E-01 -2.87473979621E-01
2.89500000000E+09 +2.91323286306E-01 -3.81900533131E-01 +3.21110660351E-04 -1.10855137631E-03 +3.68685776697E-04 -1.11840920696E-03 +4.83388777627E-01 -3.05364736146E-01
2.90000000000E+09 +2.61087912870E-01 -3.88342077120E-01 +4.17810584868E-05 -9.51334393516E-04 +8.03267848613E-05 -9.57633356155E-04 +4.54674139463E-01 -3.22804057404E-01
2.90500000000E+09 +2.29017267787E-01 -3.92391864299E-01 +1.82483729396E-04 -9.86555399226E-04 +2.44413325027E-04 -9.41468332308E-04 +4.25158634102E-01 -3.37794232405E-01
2.91000000000E+09 +1.96647722313E-01 -3.93500123444E-01 -1.97963577537E-05 -1.19056201772E-03 -3.66520538689E-05 -1.23333181024E-03 +3.95050629977E-01 -3.52196728616E-01
2.91500000000E+09 +1.64386426334E-01 -3.93249730935E-01 -4.64966352902E-04 -8.32936467700E-04 -4.84693090636E-04 -8.17771267655E-04 +3.62795382618E-01 -3.64624035586E-01
2.92000000000E+09 +1.31481070573E-01 -3.91302703618E-01 -1.64820126369E-04 -6.61488509079E-04 -1.88978904902E-04 -6.21267032971E-04 +3.29334811095E-01 -3.74577072043E-01
2.92500000000E+09 +9.85989051777E-02 -3.87002688316E-01 -1.34066742859E-04 -1.04056847195E-03 -1.11710685825E-04 -9.43538564820E-04 +2.94231770431E-01 -3.82246088748E-01
2.93000000000E+09 +6.67260026795E-02 -3.80859580351E-01 -7.68900484083E-04 -1.12296393762E-03 -7.08753306731E-04 -1.12861526267E-03 +2.58401492384E-01 -3.88861157064E-01
2.93500000000E+09 +3.46073643571E-02 -3.73850643105E-01 -1.03692300097E-03 -4.34427135870E-04 -9.91086332325E-04 -4.67434056243E-04 +2.20102062767E-01 -3.94569884474E-01
2.94000000000E+09 +2.35355293778E-03 -3.64099650212E-01 -5.25973360994E-04 -3.41006537543E-05 -4.85307490868E-04 -5.35059749739E-05 +1.79968792472E-01 -3.97582116201E-01
2.94500000000E+09 -2.90829644250E-02 -3.52165585985E-01 -1.36420927418E-04 -3.53636553197E-04 -1.19333165134E-04 -3.30729883776E-04 +1.38981215272E-01 -3.97011459181E-01
2.95000000000E+09 -6.09520901731E-02 -3.37469268707E-01 -2.76455540015E-04 -7.76241781450E-04 -2.90166393648E-04 -7.62088898740E-04 +9.95880785759E-02 -3.93040476953E-01
2.95500000000E+09 -9.16878323722E-02 -3.18991955379E-01 -7.72414877903E-04 -7.50939142836E-04 -7.71843667443E-04 -7.76758173987E-04 +5.99917387792E-02 -3.87349042073E-01
2.96000000000E+09 -1.20430585130E-01 -2.98019181404E-01 -1.13083160627E-03 -4.20408800309E-04 -1.15085898328E-03 -4.34817895474E-04 +2.00728556711E-02 -3.77454014502E-01
2.96500000000E+09 -1.47926961361E-01 -2.75327225648E-01 -9.18857594345E-04 +1.36060096722E-04 -9.00192228380E-04 +1.93424991977E-04 -1.86301339128E-02 -3.66227109951E-01
2.97000000000E+09 -1.74627816714E-01 -2.50194691701E-01 -4.78745345972E-04 -2.30967335174E-05 -3.66842694281E-04 -5.02821303025E-05 -5.99149088396E-02 -3.52603705933E-01
2.97500000000E+09 -1.99485665565E-01 -2.22802608131E-01 -5.93139708219E-04 -3.69727894797E-04 -5.79042837949E-04 -3.11891617582E-04 -9.89584214946E-02 -3.34458188207E-01
2.98000000000E+09 -2.22510195992E-01 -1.93766709709E-01 -1.18015531769E-03 -2.28262286103E-04 -1.10559162098E-03 -3.77807499609E-04 -1.37260516527E-01 -3.14686119093E-01
2.98500000000E+09 -2.43500627444E-01 -1.64139524422E-01 -1.07371864978E-03 +2.48527179094E-04 -1.08683224457E-03 +1.80192996992E-04 -1.73399962360E-01 -2.91587314229E-01
2.99000000000E+09 -2.63273245045E-01 -1.33580080565E-01 -9.98196506938E-04 +2.07040540628E-04 -1.10967988833E-03 +2.34024857785E-04 -2.08315423621E-01 -2.65946898397E-01
2.99500000000E+09 -2.80855935604E-01 -1.02506007653E-01 -1.02325631581E-03 +5.76064389472E-04 -1.13289634160E-03 +5.87315450760E-04 -2.41479447285E-01 -2.35763295309E-01
3.00000000000E+09 -2.96692493866E-01 -7.10029248674E-02 -7.22337427796E-04 +7.11142396103E-04 -6.79758080391E-04 +7.50783801987E-04 -2.70787904573E-01 -2.05084015143E-01
3.00500000000E+09 -3.09725811148E-01 -3.96024418248E-02 -7.91073934478E-04 +5.84727738652E-04 -7.64854922917E-04 +5.95805847316E-04 -3.00752471657E-01 -1.72139682161E-01
3.01000000000E+09 -3.20613851607E-01 -8.58487677810E-03 -6.63044623398E-04 +1.02529036626E-03 -6.76437029100E-04 +8.91684050901E-04 -3.26816406240E-01 -1.36682514779E-01
3.01500000000E+09 -3.29072731035E-01 +2.20861614285E-02 -1.06273244153E-04 +1.07672276622E-03 -1.53897214004E-04 +9.95510632015E-04 -3.50113119503E-01 -1.00488684665E-01
3.02000000000E+09 -3.34756118607E-01 +5.35736726782E-02 +2.40080614668E-05 +7.47630127340E-04 -1.59494650968E-05 +7.96432670265E-04 -3.70425714757E-01 -6.29536997470E-02
3.02500000000E+09 -3.36622330633E-01 +8.38767195892E-02 +2.22755989029E-04 +5.18386512869E-04 +1.96485193986E-04 +6.20787567536E-04 -3.87332008159E-01 -2.40617719221E-02
3.03000000000E+09 -3.36381488554E-01 +1.13609810292E-01 -7.13278833931E-05 +2.81846045178E-04 -6.96963145136E-05 +3.40462345405E-04 -4.00851273182E-01 +1.55161235899E-02
3.03500000000E+09 -3.33438374622E-01 +1.42731765720E-01 -2.82588796883E-04 +6.27315761194E-04 -2.82726462434E-04 +6.51614972961E-04 -4.11489179194E-01 +5.54323952591E-02
3.04000000000E+09 -3.28484074037E-01 +1.71605948955E-01 +3.31376272921E-05 +4.78418584305E-04 -3.70667382384E-06 +5.20391134543E-04 -4.19264670071E-01 +9.55075321676E-02
3.04500000000E+09 -3.21403980826E-01 +2.00314095058E-01 -2.38519268756E-04 +8.12323061938E-04 -3.13694475352E-04 +8.74420468155E-04 -4.24014999842E-01 +1.34712196342E-01
3.05000000000E+09 -3.12810698066E-01 +2.28784451744E-01 +3.44130584535E-04 +8.46041065875E-04 +3.95387884712E-04 +8.95794623906E-04 -4.26570702528E-01 +1.73066077607E-01
3.05500000000E+09 -3.01962303432E-01 +2.56360711561E-01 +2.61304216083E-04 +5.84479614117E-04 +2.53524133864E-04 +5.75200669168E-04 -4.27419937367E-01 +2.10100976267E-01
3.06000000000E+09 -2.90703910833E-01 +2.83018216400E-01 +4.11950722174E-04 +3.51937415650E-04 +4.08328688651E-04 +3.16765527728E-04 -4.26055802948E-01 +2.47861480884E-01
3.06500000000E+09 -2.78143628361E-01 +3.09315009300E-01 +2.98980495726E-05 +1.95151773422E-04 +1.14969094183E-04 +2.83656475887E-04 -4.21831941957E-01 +2.84773705074E-01
3.07000000000E+09 -2.64430794674E-01 +3.33869423655E-01 +1.23895235478E-04 +6.36123563044E-04 +9.79271311471E-05 +6.03962775141E-04 -4.15489633620E-01 +3.20118214634E-01
