# Hz S RI R 50
! CMT, C1220, 16058040, 17.2.0/1
! Date: 15/08/2018 10:16:00
! Data: Format (Calibration Info)
! Freq                      S11: Re/Im (F2)                       S21: Re/Im (F2)                       S12: Re/Im (F2)                       S22: Re/Im (F2)            
2.50000000000E+09 +5.96068534241E-01 +6.35171948219E-01 -1.58644812762E-04 +1.32370203806E-04 -1.99608111003E-04 +1.32859109284E-04 +5.72865073430E-01 +7.17429155027E-01
2.50500000000E+09 +6.02555222652E-01 +6.27546568044E-01 -8.95619729262E-05 +2.05707402158E-04 -1.37160782839E-04 +2.04402356797E-04 +5.78431697847E-01 +7.11818575848E-01
2.51000000000E+09 +6.09205828891E-01 +6.19414897069E-01 -2.06951094981E-05 +1.60244803063E-04 -6.48159728153E-06 +1.54974181871E-04 +5.83901457939E-01 +7.06596299454E-01
2.51500000000E+09 +6.15449472528E-01 +6.11519285904E-01 -2.68183526257E-05 +1.50417212546E-04 +1.84904681514E-05 +1.59843676937E-04 +5.89116002700E-01 +7.01459548937E-01
2.52000000000E+09 +6.21434567756E-01 +6.03818988809E-01 +3.86518016902E-05 +1.54164478696E-04 -1.62986307561E-06 +1.68186540429E-04 +5.94255666335E-01 +6.95361784765E-01
2.52500000000E+09 +6.26658165883E-01 +5.96471525606E-01 -2.91172565332E-07 +1.28151158955E-04 -5.77163943496E-05 +8.66037368944E-05 +5.99888819731E-01 +6.89092617134E-01
2.53000000000E+09 +6.31438675573E-01 +5.89811586337E-01 +3.36521307036E-05 +1.59651099180E-04 +1.84585218740E-05 +2.21764632822E-04 +6.06012658420E-01 +6.82160530257E-01
2.53500000000E+09 +6.36019006163E-01 +5.83684211281E-01 +7.07725627214E-05 +9.83302114992E-05 +5.21680971913E-05 +7.60703223274E-05 +6.12162735230E-01 +6.75325970154E-01
2.54000000000E+09 +6.40301804366E-01 +5.77553169173E-01 +4.93762799054E-06 +1.43215485724E-04 -2.90718202819E-05 +1.32675235346E-04 +6.18066450213E-01 +6.68688859710E-01
2.54500000000E+09 +6.44569532881E-01 +5.71646488903E-01 +9.79144693438E-05 +1.78191887585E-04 +4.36617158179E-05 +1.53662734986E-04 +6.24002304063E-01 +6.62259966296E-01
2.55000000000E+09 +6.49455543761E-01 +5.65875013320E-01 +2.11194999158E-04 +1.55399872567E-04 +1.93483317332E-04 +1.61351614245E-04 +6.29455910992E-01 +6.55848497718E-01
2.55500000000E+09 +6.55057903500E-01 +5.58854632785E-01 +2.24583491002E-04 +1.00404026543E-04 +2.51213420927E-04 +9.92319390589E-05 +6.34563729764E-01 +6.49414027315E-01
2.56000000000E+09 +6.61149368314E-01 +5.51411687042E-01 +2.30682177883E-04 -6.63928463448E-05 +2.59810420369E-04 -1.00275632981E-04 +6.39988318634E-01 +6.42211341922E-01
2.56500000000E+09 +6.67492433541E-01 +5.43037937771E-01 +7.00505296501E-05 -1.53997844170E-04 +6.14721067640E-05 -1.76428651427E-04 +6.45550801543E-01 +6.34573406876E-01
2.57000000000E+09 +6.73740746391E-01 +5.34252691131E-01 -4.36688805346E-05 +2.14291541997E-05 -4.86649675867E-05 +1.46713161700E-05 +6.50986646165E-01 +6.26524935620E-01
2.57500000000E+09 +6.79733138843E-01 +5.25264317305E-01 +1.65184611449E-05 +1.24101490507E-04 +9.55263819051E-06 +6.22056043581E-05 +6.56268055208E-01 +6.18758886417E-01
2.58000000000E+09 +6.85159229298E-01 +5.16314708599E-01 +5.36775776635E-05 +8.22789322419E-05 +4.00144133203E-05 +5.76986106603E-05 +6.61273241493E-01 +6.11311447823E-01
2.58500000000E+09 +6.90438935399E-01 +5.07397501232E-01 +1.12382748608E-04 -5.68570714550E-06 +8.68740383923E-05 +1.57205140148E-05 +6.66283212188E-01 +6.03715337367E-01
2.59000000000E+09 +6.94921514300E-01 +4.98834414828E-01 -2.64579151358E-06 -9.30653214883E-06 +2.44769276607E-05 -1.41627519296E-05 +6.70816365676E-01 +5.96155224682E-01
2.59500000000E+09 +6.99338639443E-01 +4.90365255782E-01 -3.83234468449E-05 +2.54426157992E-06 -8.36652852375E-06 -2.22213332788E-05 +6.75772562449E-01 +5.88063501414E-01
2.60000000000E+09 +7.03287894004E-01 +4.81612737187E-01 +2.67589328616E-05 +4.73457824839E-05 -2.89011244532E-05 +1.48460834302E-05 +6.80683921370E-01 +5.79426192138E-01
2.60500000000E+09 +7.07457342427E-01 +4.72297365146E-01 -6.87102910038E-05 +6.16365830668E-05 -2.80367976502E-06 +7.12314670222E-05 +6.85841698264E-01 +5.70766940749E-01
2.61000000000E+09 +7.11780930418E-01 +4.62046491728E-01 +2.88150430385E-05 +1.63869877474E-04 +2.87884185468E-05 +1.67527843621E-04 +6.91006319162E-01 +5.61946620222E-01
2.61500000000E+09 +7.16272213745E-01 +4.50602188420E-01 +7.56102551023E-05 +1.29866774463E-04 +1.24026036238E-04 +1.65514561174E-04 +6.95801421953E-01 +5.53174685843E-01
2.62000000000E+09 +7.20314470762E-01 +4.38074500416E-01 +3.46495674321E-05 +1.26675524182E-04 +3.14542536013E-05 +1.54354745762E-04 +7.00564628148E-01 +5.44111392633E-01
2.62500000000E+09 +7.24249017799E-01 +4.24900596438E-01 +1.08198847226E-04 +1.64832111736E-04 +1.31943249201E-04 +1.75472453140E-04 +7.05234987556E-01 +5.35154349406E-01
2.63000000000E+09 +7.27946205867E-01 +4.11495150450E-01 +1.50112789508E-04 +1.95641553051E-04 +1.70594777964E-04 +1.31691802519E-04 +7.10029498880E-01 +5.26029426787E-01
2.63500000000E+09 +7.31042433013E-01 +3.97954480672E-01 +2.62082084490E-04 +1.91789716909E-04 +2.91908805822E-04 +1.71796655979E-04 +7.14890478295E-01 +5.16645857726E-01
2.64000000000E+09 +7.33996373374E-01 +3.85202780630E-01 +3.59588450006E-04 +1.32188499706E-04 +3.28229321460E-04 +8.45265200961E-05 +7.19636720490E-01 +5.06821748844E-01
2.64500000000E+09 +7.36876245736E-01 +3.73039029964E-01 +3.21118207004E-04 -1.25635296342E-05 +3.08556712046E-04 +1.34223317552E-06 +7.24529022505E-01 +4.96821707232E-01
2.65000000000E+09 +7.39254621771E-01 +3.61657500142E-01 +2.86843828229E-04 +2.20034501996E-05 +2.50610328504E-04 +1.16977481432E-05 +7.28705358570E-01 +4.86690131337E-01
2.65500000000E+09 +7.41699831333E-01 +3.50536542307E-01 +4.15436182438E-04 +1.23742137977E-05 +4.16358634143E-04 +3.44316738250E-05 +7.32554177426E-01 +4.76108870100E-01
2.66000000000E+09 +7.44473986964E-01 +3.39713200420E-01 +4.34031076374E-04 -1.01666088191E-04 +4.67368814691E-04 -9.93878039322E-05 +7.36249254008E-01 +4.64830579691E-01
2.66500000000E+09 +7.47225290745E-01 +3.28323478287E-01 +4.76843641893E-04 -2.00190078755E-04 +4.24521887422E-04 -2.65485771676E-04 +7.40088964488E-01 +4.53678384840E-01
2.67000000000E+09 +7.49243105940E-01 +3.16030445351E-01 +4.20106117123E-04 -4.64070369901E-04 +3.50524403250E-04 -4.27370594889E-04 +7.44152291275E-01 +4.42890580891E-01
2.67500000000E+09 +7.50940399142E-01 +3.03283407103E-01 +1.36555612616E-04 -4.01335986700E-04 +1.64276296155E-04 -3.90546695398E-04 +7.48296490614E-01 +4.31723216012E-01
2.68000000000E+09 +7.52339042253E-01 +2.89729617057E-01 +1.57732355216E-04 -3.62034444561E-04 +1.91863543598E-04 -3.41586738772E-04 +7.51810645161E-01 +4.20317474277E-01
2.68500000000E+09 +7.52905554056E-01 +2.75692286160E-01 +1.10579321085E-04 -4.05319924942E-04 +1.24221295154E-04 -3.82950079758E-04 +7.54376246757E-01 +4.08719626354E-01
2.69000000000E+09 +7.53165396916E-01 +2.61494864235E-01 +9.56875288712E-05 -3.81788318460E-04 +1.06565005421E-04 -4.07397388807E-04 +7.56700033071E-01 +3.97012336999E-01
2.69500000000E+09 +7.53244321939E-01 +2.47266943020E-01 +5.55704443428E-05 -4.10392063468E-04 +8.50522893163E-06 -3.90239540283E-04 +7.59129113105E-01 +3.84761956054E-01
2.70000000000E+09 +7.53433839302E-01 +2.33409174094E-01 +1.20607782996E-06 -4.22052489705E-04 +1.86104849502E-05 -3.89226006760E-04 +7.62082632382E-01 +3.71562741159E-01
2.70500000000E+09 +7.53713040562E-01 +2.19845000112E-01 +1.17319191227E-06 -4.26531595040E-04 +3.62072164289E-05 -4.30160351666E-04 +7.64615351165E-01 +3.58036494706E-01
2.71000000000E+09 +7.54615107881E-01 +2.06508230652E-01 -7.37264368876E-05 -5.58097270030E-04 -7.14516758226E-05 -6.29739839646E-04 +7.67248369992E-01 +3.45303010691E-01
2.71500000000E+09 +7.56116659457E-01 +1.92334080589E-01 -3.09675235213E-04 -4.85248377098E-04 -3.37420831036E-04 -5.46859877229E-04 +7.69627976507E-01 +3.32883860493E-01
2.72000000000E+09 +7.57469927206E-01 +1.77389869750E-01 -2.99616308674E-04 -2.86285545628E-04 -3.25289340780E-04 -3.11609518253E-04 +7.71657918512E-01 +3.20308555124E-01
2.72500000000E+09 +7.57927892314E-01 +1.61235720314E-01 -2.07390680504E-04 -2.35115271781E-04 -2.19229965748E-04 -2.06903861659E-04 +7.72864656427E-01 +3.07351902445E-01
2.73000000000E+09 +7.57162967597E-01 +1.44929802067E-01 -1.95659682611E-04 -4.86176672086E-04 -2.06477422011E-04 -4.01115415918E-04 +7.74086756546E-01 +2.93676883786E-01
2.73500000000E+09 +7.55225689334E-01 +1.28119882226E-01 -3.09611729835E-04 -3.71668014727E-04 -3.17328982040E-04 -3.32681523918E-04 +7.75284099866E-01 +2.79133568729E-01
2.74000000000E+09 +7.52267944454E-01 +1.11495181510E-01 -4.62478901754E-04 -2.57055070793E-04 -4.28265709205E-04 -2.68780370146E-04 +7.76756218046E-01 +2.64309077549E-01
2.74500000000E+09 +7.48576465751E-01 +9.41378960890E-02 -4.02601555037E-04 -1.16081127679E-04 -3.64214456350E-04 -2.09273777312E-04 +7.78084459007E-01 +2.49136680257E-01
2.75000000000E+09 +7.43377443412E-01 +7.68962438355E-02 -3.27276199800E-04 -1.93831163196E-04 -2.73734342699E-04 -2.19206317926E-04 +7.79020179452E-01 +2.34318360311E-01
2.75500000000E+09 +7.37530587718E-01 +6.04247184320E-02 -2.92283424383E-04 -3.82796081515E-04 -3.52812578400E-04 -4.08341319843E-04 +7.79077566583E-01 +2.18882713280E-01
2.76000000000E+09 +7.32004711074E-01 +4.41587857809E-02 -5.48526844579E-04 -3.56633629091E-04 -5.82489353028E-04 -3.69275063309E-04 +7.78528756891E-01 +2.03673006158E-01
2.76500000000E+09 +7.26939283956E-01 +2.75982762415E-02 -7.11197201671E-04 -1.79943214714E-04 -7.52099400148E-04 -2.15184790738E-04 +7.77671019870E-01 +1.86905374459E-01
2.77000000000E+09 +7.22099343503E-01 +1.00088889219E-02 -6.89173783717E-04 -3.25044944933E-05 -6.77976665119E-04 +3.04762032261E-05 +7.76505681653E-01 +1.69547557871E-01
2.77500000000E+09 +7.17244364358E-01 -8.61111948115E-03 -5.79560104280E-04 +1.17907597830E-05 -5.66596527790E-04 +6.65244387502E-05 +7.74629634071E-01 +1.51638269963E-01
2.78000000000E+09 +7.11746888912E-01 -2.82746251297E-02 -7.57917527991E-04 +7.54919238410E-05 -7.61866516818E-04 +6.71627974634E-05 +7.72883417425E-01 +1.33882166764E-01
2.78500000000E+09 +7.05134339773E-01 -4.82884279895E-02 -7.27234985988E-04 +2.75521627319E-04 -6.78785864228E-04 +3.22263050187E-04 +7.70640963467E-01 +1.16161137496E-01
2.79000000000E+09 +6.98019858499E-01 -6.85370155069E-02 -6.09688989644E-04 +3.09836602526E-04 -5.72906555120E-04 +3.01150584767E-04 +7.67277252554E-01 +9.87042597204E-02
2.79500000000E+09 +6.89910873763E-01 -8.89989633707E-02 -6.84099431898E-04 +4.30013997992E-04 -6.38324248684E-04 +4.18279953725E-04 +7.63354192142E-01 +8.11333908867E-02
2.80000000000E+09 +6.79500336395E-01 -1.09425651356E-01 -3.31586980217E-04 +5.72265174864E-04 -3.57355189191E-04 +5.71254384521E-04 +7.58847403265E-01 +6.28442902006E-02
2.80500000000E+09 +6.68212250671E-01 -1.28128303650E-01 -3.53461766297E-04 +3.02696541953E-04 -3.10437118183E-04 +2.72984923912E-04 +7.53347230663E-01 +4.36586851435E-02
2.81000000000E+09 +6.55993910821E-01 -1.45477797028E-01 -4.76484280266E-04 +2.87366800072E-04 -5.11341939948E-04 +2.88810857043E-04 +7.46949309946E-01 +2.44051972674E-02
2.81500000000E+09 +6.43208580513E-01 -1.62018660665E-01 -5.67857443337E-04 +4.23738157272E-04 -5.92442959948E-04 +4.41610338025E-04 +7.40079696303E-01 +4.81115702899E-03
2.82000000000E+09 +6.29594063629E-01 -1.78473593806E-01 -8.04935315632E-04 +6.72229500973E-04 -7.42896574149E-04 +6.42609228847E-04 +7.32994475996E-01 -1.50334306448E-02
2.82500000000E+09 +6.15391519849E-01 -1.95247769948E-01 -4.11193961457E-04 +1.03712735792E-03 -3.30117647207E-04 +1.05484125685E-03 +7.24052113694E-01 -3.50300097165E-02
2.83000000000E+09 +5.98869144700E-01 -2.12859293641E-01 -1.01860404414E-04 +8.38598021481E-04 -1.03419712282E-04 +7.95930640644E-04 +7.14567013764E-01 -5.46268459512E-02
2.83500000000E+09 +5.80772833819E-01 -2.30159565421E-01 -2.49365099781E-04 +7.79161638126E-04 -3.02730080095E-04 +7.80714907843E-04 +7.04078304826E-01 -7.48087260537E-02
2.84000000000E+09 +5.61234031961E-01 -2.47655736556E-01 -3.48460271502E-05 +1.05899066790E-03 -5.78924078553E-05 +1.03410316332E-03 +6.93071512825E-01 -9.50680220915E-02
2.84500000000E+09 +5.40230291391E-01 -2.65589265354E-01 -1.04766928350E-04 +8.45469475920E-04 -1.02030197227E-04 +8.00403709352E-04 +6.80852950886E-01 -1.15952788164E-01
2.85000000000E+09 +5.17610968547E-01 -2.83525707874E-01 +3.75266674239E-05 +1.28876078004E-03 +6.68931874232E-05 +1.31408242778E-03 +6.67338319523E-01 -1.37150069219E-01
2.85500000000E+09 +4.93120874568E-01 -3.01332326025E-01 +6.07966861038E-04 +1.04622154653E-03 +5.91011056239E-04 +1.02830471030E-03 +6.52518382400E-01 -1.57618833257E-01
2.86000000000E+09 +4.67471277482E-01 -3.17425093336E-01 +4.16938212217E-04 +6.77135153321E-04 +3.98994718822E-04 +6.45335167220E-04 +6.36837124293E-01 -1.78177212988E-01
2.86500000000E+09 +4.41869247637E-01 -3.31563546260E-01 +1.07984625603E-04 +1.05098171024E-03 +4.33410960428E-05 +1.01878404244E-03 +6.19666506137E-01 -1.99068100477E-01
2.87000000000E+09 +4.16595942536E-01 -3.44927244781E-01 +7.86991809968E-04 +1.27278488856E-03 +8.17996187612E-04 +1.28582320424E-03 +6.01005149066E-01 -2.19628337317E-01
2.87500000000E+09 +3.91200214414E-01 -3.57893824573E-01 +8.83521401446E-04 +1.08685630684E-03 +9.04625219584E-04 +1.09254532656E-03 +5.80449822055E-01 -2.39776081454E-01
2.88000000000E+09 +3.64319983203E-01 -3.70018749880E-01 +1.25646464071E-03 +8.86720423686E-04 +1.25393481750E-03 +8.21671124544E-04 +5.59272841775E-01 -2.58793966299E-01
2.88500000000E+09 +3.36184827660E-01 -3.80268378146E-01 +1.37815108346E-03 +6.29767580332E-04 +1.30876511186E-03 +5.59046212345E-04 +5.36495540278E-01 -2.78248287994E-01
2.89000000000E+09 +3.06780707357E-01 -3.87977442123E-01 +1.22813388638E-03 +3.19290845361E-04 +1.17467879102E-03 +3.95275581202E-04 +5.10902123427E-01 -2.96539687103E-01
2.89500000000E+09 +2.77484564636E-01 -3.94109097788E-01 +1.21754276694E-03 +4.97808897102E-04 +1.20293780551E-03 +6.17477925985E-04 +4.83997651126E-01 -3.13726671453E-01
2.90000000000E+09 +2.46404446294E-01 -3.99212685537E-01 +1.82398726074E-03 +4.95558786149E-04 +1.81699132500E-03 +5.64884047102E-04 +4.55514330787E-01 -3.30703203579E-01
2.90500000000E+09 +2.13241741508E-01 -4.02704973854E-01 +1.90980855201E-03 -2.82201536203E-04 +1.97922533508E-03 -3.00085869624E-04 +4.24743216310E-01 -3.46550428737E-01
2.91000000000E+09 +1.77945596021E-01 -4.02768620917E-01 +1.58205256051E-03 -5.70718191300E-04 +1.54819816624E-03 -6.34118887640E-04 +3.93242817275E-01 -3.60641371352E-01
2.91500000000E+09 +1.42994236068E-01 -3.99245956313E-01 +1.59703096348E-03 -4.80258686351E-04 +1.53841332410E-03 -5.15173979803E-04 +3.60367661007E-01 -3.72766431235E-01
2.92000000000E+09 +1.08853121041E-01 -3.93251989322E-01 +1.76212295185E-03 -1.14464331986E-03 +1.63860830989E-03 -1.10327032338E-03 +3.26324073277E-01 -3.83247827814E-01
2.92500000000E+09 +7.51683104665E-02 -3.87070103591E-01 +1.11087291165E-03 -1.34893103253E-03 +1.04305317199E-03 -1.29127978598E-03 +2.89890845894E-01 -3.91345307381E-01
2.93000000000E+09 +4.01071513096E-02 -3.78041077061E-01 +1.02866813843E-03 -1.12235948063E-03 +1.02692403245E-03 -1.02896185218E-03 +2.52080745869E-01 -3.96862703262E-01
2.93500000000E+09 +6.59602743288E-03 -3.66425102192E-01 +1.22750103276E-03 -1.47659700171E-03 +1.27159153225E-03 -1.41031080488E-03 +2.13423196977E-01 -4.00641447495E-01
2.94000000000E+09 -2.61253862004E-02 -3.52906588120E-01 +8.32677679855E-04 -1.85672219280E-03 +8.48129660738E-04 -1.81714335978E-03 +1.73938163865E-01 -4.02063085432E-01
2.94500000000E+09 -5.74761787123E-02 -3.37931448669E-01 +5.53729128516E-04 -1.78510162800E-03 +6.13138237946E-04 -1.68744666319E-03 +1.34555854792E-01 -4.02182114579E-01
2.95000000000E+09 -8.96081433505E-02 -3.20663046670E-01 +3.92980290219E-04 -2.05336134508E-03 +4.57314948917E-04 -2.02585012975E-03 +9.38616212851E-02 -3.98977432246E-01
2.95500000000E+09 -1.20540442025E-01 -2.99342643615E-01 +1.94567235204E-04 -1.93884460803E-03 +2.77964948443E-04 -2.00940583302E-03 +5.36725708437E-02 -3.91895750051E-01
2.96000000000E+09 -1.48210618610E-01 -2.74709256560E-01 -2.57619485401E-04 -2.62832262117E-03 -1.80231599431E-04 -2.78532731449E-03 +1.39918178605E-02 -3.81939117272E-01
2.96500000000E+09 -1.73924536348E-01 -2.49827431646E-01 -1.46327196523E-03 -2.15638658977E-03 -1.52443753355E-03 -2.18996232280E-03 -2.62371383559E-02 -3.70010495916E-01
2.97000000000E+09 -1.98347662556E-01 -2.22064703792E-01 -1.43276228244E-03 -1.36647699164E-03 -1.41668734454E-03 -1.34871323119E-03 -6.72423231841E-02 -3.54157606196E-01
2.97500000000E+09 -2.21012019577E-01 -1.93607912418E-01 -9.69821345862E-04 -1.08860603010E-03 -9.68715752373E-04 -1.04944075964E-03 -1.05373732293E-01 -3.35078201989E-01
2.98000000000E+09 -2.42758098225E-01 -1.62997361423E-01 -1.29303440444E-03 -1.62263522933E-03 -1.17290077367E-03 -1.64444733795E-03 -1.42631922606E-01 -3.15502620320E-01
2.98500000000E+09 -2.62210571930E-01 -1.31254937072E-01 -2.00984387733E-03 -1.28539291275E-03 -1.96842942918E-03 -1.36717616279E-03 -1.78768455439E-01 -2.92102271323E-01
2.99000000000E+09 -2.79347266447E-01 -9.83187891336E-02 -2.23648115451E-03 -5.89564671366E-04 -2.38235392792E-03 -6.88683840619E-04 -2.13549644417E-01 -2.67180880018E-01
2.99500000000E+09 -2.94678671943E-01 -6.63424839571E-02 -1.97310101572E-03 -7.14191876873E-05 -2.02403465149E-03 -8.01969856461E-05 -2.47446573219E-01 -2.37680339454E-01
3.00000000000E+09 -3.08278958153E-01 -3.37626661257E-02 -1.70944832277E-03 +2.42486093757E-04 -1.70134369579E-03 +2.97560277954E-04 -2.77985999421E-01 -2.05297669473E-01
3.00500000000E+09 -3.20247112467E-01 -1.59113582037E-03 -1.53583198968E-03 +1.81029703100E-04 -1.46224830710E-03 +2.28956817687E-04 -3.06261460120E-01 -1.72296520968E-01
3.01000000000E+09 -3.29228950889E-01 +3.07530808489E-02 -1.97832012850E-03 +1.67390104474E-04 -1.89167577149E-03 +1.03146691974E-04 -3.33351773978E-01 -1.37273790287E-01
3.01500000000E+09 -3.35600585355E-01 +6.27198880441E-02 -1.86049233004E-03 +1.02838660954E-03 -1.79875187070E-03 +9.75054257336E-04 -3.56999722581E-01 -9.99442214456E-02
3.02000000000E+09 -3.38689274793E-01 +9.40723776572E-02 -1.24431664796E-03 +1.40015022963E-03 -1.31012100195E-03 +1.40314443545E-03 -3.76429320879E-01 -6.13288353779E-02
3.02500000000E+09 -3.38797652976E-01 +1.24531156388E-01 -4.47319928646E-04 +1.24637042745E-03 -4.82022195635E-04 +1.30346893590E-03 -3.92078933501E-01 -2.19379148139E-02
3.03000000000E+09 -3.36452510145E-01 +1.53882078154E-01 -7.03152720647E-04 +4.07483689753E-04 -7.14018975489E-04 +4.05119624813E-04 -4.05415277033E-01 +1.68223090076E-02
3.03500000000E+09 -3.32094454995E-01 +1.83468590669E-01 -1.31541604114E-03 +8.93356573962E-04 -1.23423483966E-03 +8.80046093640E-04 -4.16836077580E-01 +5.71113120319E-02
3.04000000000E+09 -3.24565173294E-01 +2.12919787991E-01 -9.83328816608E-04 +1.68031263816E-03 -1.09799986575E-03 +1.66494618453E-03 -4.24378182026E-01 +9.81058095083E-02
3.04500000000E+09 -3.15509630855E-01 +2.41293663423E-01 -2.78468944707E-05 +1.70180023763E-03 -3.50173083901E-05 +1.80353330693E-03 -4.29503661917E-01 +1.38309194447E-01
3.05000000000E+09 -3.04781405846E-01 +2.69313990953E-01 -5.60748629870E-05 +1.01385918720E-03 +5.90756008008E-05 +1.08958423485E-03 -4.31696185179E-01 +1.77860134921E-01
3.05500000000E+09 -2.93002408916E-01 +2.96627635110E-01 -6.85011708629E-05 +1.24672026202E-03 +2.24558727485E-05 +1.26755314211E-03 -4.31429030310E-01 +2.16588376374E-01
3.06000000000E+09 -2.80112663561E-01 +3.23522509463E-01 -1.49235455789E-04 +1.30845579947E-03 -9.48259471863E-05 +1.24758414232E-03 -4.28612071665E-01 +2.54576230336E-01
3.06500000000E+09 -2.66359082554E-01 +3.49239221677E-01 +6.39664729723E-04 +1.51842392105E-03 +5.56870063011E-04 +1.43505940106E-03 -4.23249895157E-01 +2.90885532347E-01
3.07000000000E+09 -2.51436338982E-01 +3.73526744144E-01 +8.81122348718E-04 +9.69806783063E-04 +7.57983677731E-04 +1.05658787177E-03 -4.16457803045E-01 +3.26080811755E-01
