# Hz S RI R 50
! CMT, C1220, 16058040, 17.2.0/1
! Date: 15/08/2018 09:48:08
! Data: Format (Calibration Info)
! Freq                      S11: Re/Im (F2)                       S21: Re/Im (F2)                       S12: Re/Im (F2)                       S22: Re/Im (F2)            
2.50000000000E+09 +5.76938070438E-01 +6.67533817200E-01 +9.22773067362E-05 -1.68176290000E-03 +1.68080884666E-04 -1.78601560891E-03 +5.75244650624E-01 +7.18158024725E-01
2.50500000000E+09 +5.83821223539E-01 +6.59987874419E-01 -5.12390759284E-05 -1.72587740227E-03 -1.34112713426E-04 -1.80077570975E-03 +5.80828404926E-01 +7.12664201603E-01
2.51000000000E+09 +5.91011962159E-01 +6.51814591187E-01 -3.45027230061E-04 -1.80007087144E-03 -4.22770992921E-04 -1.74394009112E-03 +5.86345404587E-01 +7.07297355824E-01
2.51500000000E+09 +5.98247431281E-01 +6.43641801359E-01 -4.97394583305E-04 -1.74471687756E-03 -4.79133652657E-04 -1.68960018453E-03 +5.91462067918E-01 +7.01741937216E-01
2.52000000000E+09 +6.05144430583E-01 +6.34798839289E-01 -7.07654168421E-04 -1.72870916738E-03 -6.28398339896E-04 -1.70151389851E-03 +5.96845601433E-01 +6.95613979287E-01
2.52500000000E+09 +6.11218696981E-01 +6.26316348965E-01 -8.61391862458E-04 -1.55032532167E-03 -8.20846704243E-04 -1.64308268471E-03 +6.02714607619E-01 +6.88957182443E-01
2.53000000000E+09 +6.16924097692E-01 +6.18026828739E-01 -9.77987621822E-04 -1.47440934769E-03 -9.30409177320E-04 -1.54549600787E-03 +6.08993046936E-01 +6.81917031846E-01
2.53500000000E+09 +6.21940060210E-01 +6.09773561710E-01 -1.06786728228E-03 -1.41448493203E-03 -1.12196365779E-03 -1.40641946638E-03 +6.14786677841E-01 +6.75146353773E-01
2.54000000000E+09 +6.26274765920E-01 +6.01944434039E-01 -1.22166552453E-03 -1.34689789340E-03 -1.09441168471E-03 -1.38504152730E-03 +6.20486901080E-01 +6.68622253522E-01
2.54500000000E+09 +6.30640081655E-01 +5.94644417135E-01 -1.32770745468E-03 -1.32796027490E-03 -1.24119443107E-03 -1.43933723915E-03 +6.26043458248E-01 +6.62244839032E-01
2.55000000000E+09 +6.35514135786E-01 +5.87599315837E-01 -1.55302017628E-03 -1.17214357517E-03 -1.52433795128E-03 -1.45453897590E-03 +6.31221122816E-01 +6.55789585529E-01
2.55500000000E+09 +6.41036753709E-01 +5.79889962177E-01 -1.69943368657E-03 -1.05715638670E-03 -1.94257762053E-03 -1.34804917798E-03 +6.36421871340E-01 +6.49265343589E-01
2.56000000000E+09 +6.47305513407E-01 +5.72270402785E-01 -1.76247187468E-03 -7.94537334034E-04 -2.12602292741E-03 -7.57948289490E-04 +6.41945750010E-01 +6.41697885181E-01
2.56500000000E+09 +6.54198353342E-01 +5.63674072904E-01 -1.69772610465E-03 -7.25431103246E-04 -2.00071534490E-03 -4.86796199428E-04 +6.47653395470E-01 +6.34271691078E-01
2.57000000000E+09 +6.61115401415E-01 +5.54627884485E-01 -1.79339314434E-03 -6.78908310091E-04 -1.90827742654E-03 -3.06878530819E-04 +6.53098464130E-01 +6.26571418218E-01
2.57500000000E+09 +6.68429730457E-01 +5.45199072128E-01 -1.94893930316E-03 -6.74518091214E-04 -1.79839462704E-03 -2.82237087029E-04 +6.58352744731E-01 +6.19276462763E-01
2.58000000000E+09 +6.74835159868E-01 +5.35333466559E-01 -2.22397656736E-03 -4.17177585865E-04 -1.92292889206E-03 -2.69073246744E-04 +6.63302605003E-01 +6.11813716554E-01
2.58500000000E+09 +6.80553378044E-01 +5.25334028604E-01 -2.20790714790E-03 +4.55037270753E-05 -1.93417879623E-03 -6.44753191332E-05 +6.67940624626E-01 +6.04227182445E-01
2.59000000000E+09 +6.85919887183E-01 +5.15970599164E-01 -1.99051890735E-03 +7.77913755265E-05 -1.85119830930E-03 -5.47621492489E-05 +6.72954215524E-01 +5.96342179269E-01
2.59500000000E+09 +6.90592258377E-01 +5.06049972868E-01 -2.05762472375E-03 +2.93819677528E-06 -2.09456089189E-03 -8.78603688657E-05 +6.78042478984E-01 +5.87663060151E-01
2.60000000000E+09 +6.94504837758E-01 +4.96571395104E-01 -2.28988225256E-03 +1.26718553175E-04 -2.26159428079E-03 +6.40486236126E-05 +6.82884750324E-01 +5.79114412618E-01
2.60500000000E+09 +6.98537296461E-01 +4.86968702948E-01 -2.61991778718E-03 +4.14804469410E-04 -2.65189210890E-03 +3.94128808435E-04 +6.88149218684E-01 +5.70611384650E-01
2.61000000000E+09 +7.02721207278E-01 +4.76768807586E-01 -2.79748587645E-03 +9.56795948975E-04 -2.77752085188E-03 +8.85482090585E-04 +6.92967136563E-01 +5.61982153342E-01
2.61500000000E+09 +7.07391837184E-01 +4.66083119451E-01 -2.36280991396E-03 +1.60162753431E-03 -2.43185984586E-03 +1.60294408773E-03 +6.97236400106E-01 +5.53821522261E-01
2.62000000000E+09 +7.12084603427E-01 +4.54313856686E-01 -1.90126229464E-03 +1.59100303756E-03 -1.98123059886E-03 +1.72806383628E-03 +7.01941901694E-01 +5.44986432390E-01
2.62500000000E+09 +7.16989489145E-01 +4.41304044635E-01 -1.93937872651E-03 +1.39582318260E-03 -1.90171166750E-03 +1.65777289854E-03 +7.06848192089E-01 +5.35657209248E-01
2.63000000000E+09 +7.21507667222E-01 +4.27887056130E-01 -2.03650575721E-03 +1.69709519477E-03 -1.79478483354E-03 +1.93949328912E-03 +7.11709006265E-01 +5.26237931771E-01
2.63500000000E+09 +7.25476175923E-01 +4.14030626970E-01 -2.12001413397E-03 +1.92680335194E-03 -1.67584726577E-03 +1.94059000030E-03 +7.16718707750E-01 +5.16910609019E-01
2.64000000000E+09 +7.29045113003E-01 +4.00266358067E-01 -2.08484640582E-03 +2.55271155130E-03 -1.72532267051E-03 +2.23352194000E-03 +7.21530370391E-01 +5.07393611864E-01
2.64500000000E+09 +7.32190374338E-01 +3.87327277691E-01 -1.29976031805E-03 +3.06714827246E-03 -1.33597294368E-03 +2.56785818603E-03 +7.25918070528E-01 +4.98082380355E-01
2.65000000000E+09 +7.34809906096E-01 +3.74931362926E-01 -8.04510825850E-04 +2.82575727630E-03 -1.08671548794E-03 +2.58591547396E-03 +7.30293572078E-01 +4.88569702676E-01
2.65500000000E+09 +7.37707445605E-01 +3.62841854797E-01 -7.16794786980E-04 +2.64904115971E-03 -9.73234997396E-04 +2.63992839273E-03 +7.34240808751E-01 +4.78044733549E-01
2.66000000000E+09 +7.40642237529E-01 +3.50957412226E-01 -7.14256223905E-04 +2.77610885161E-03 -8.33947479570E-04 +2.93483101169E-03 +7.38245007485E-01 +4.66936048775E-01
2.66500000000E+09 +7.43537362984E-01 +3.38987338078E-01 -4.46534888611E-04 +3.02732350386E-03 -2.65939007979E-04 +3.17097938068E-03 +7.42915945913E-01 +4.55559413646E-01
2.67000000000E+09 +7.46164482353E-01 +3.26154370970E-01 +2.72652031437E-05 +3.06509916950E-03 +2.63157889832E-04 +2.92557067067E-03 +7.47515227527E-01 +4.44306464688E-01
2.67500000000E+09 +7.48399579713E-01 +3.12698982186E-01 +3.06253780555E-04 +2.82201411556E-03 +3.56294375939E-04 +2.64212867681E-03 +7.51542648592E-01 +4.33025845727E-01
2.68000000000E+09 +7.50359591668E-01 +2.98225757491E-01 +3.14595230945E-04 +2.76651380629E-03 +2.32683784869E-04 +2.60249714672E-03 +7.55289107252E-01 +4.22394410900E-01
2.68500000000E+09 +7.51621300596E-01 +2.82921244305E-01 +3.21327530830E-04 +2.90851881580E-03 +2.31327529642E-04 +2.85331179887E-03 +7.58342664931E-01 +4.10912726356E-01
2.69000000000E+09 +7.52006092628E-01 +2.67399180078E-01 +5.54628284231E-04 +3.20691326848E-03 +5.48027623086E-04 +3.28864231543E-03 +7.60894916038E-01 +3.98923818411E-01
2.69500000000E+09 +7.52379072361E-01 +2.52025505598E-01 +1.10858520378E-03 +3.27385449509E-03 +1.14933378241E-03 +3.19335237405E-03 +7.63719311993E-01 +3.85957570752E-01
2.70000000000E+09 +7.52680814750E-01 +2.36333004931E-01 +1.57130711292E-03 +3.14209487547E-03 +1.45559990337E-03 +3.08181770629E-03 +7.66839604047E-01 +3.72314153948E-01
2.70500000000E+09 +7.52690504988E-01 +2.21219363908E-01 +1.91842797861E-03 +2.70194832926E-03 +1.70308785155E-03 +2.73690724161E-03 +7.69850428622E-01 +3.58640962717E-01
2.71000000000E+09 +7.52905072953E-01 +2.06462706209E-01 +1.92619898618E-03 +2.56957294409E-03 +1.82622011995E-03 +2.75031718419E-03 +7.72509342923E-01 +3.46087231184E-01
2.71500000000E+09 +7.53682727176E-01 +1.91493763756E-01 +1.83147918717E-03 +2.61607168837E-03 +1.94606507069E-03 +2.87642647671E-03 +7.75354043735E-01 +3.33526364070E-01
2.72000000000E+09 +7.54474641891E-01 +1.76581979258E-01 +2.25399538707E-03 +2.92804747870E-03 +2.56808367650E-03 +2.97117894628E-03 +7.77528109408E-01 +3.20521895723E-01
2.72500000000E+09 +7.55173553951E-01 +1.61043336892E-01 +2.87636560720E-03 +2.71896504434E-03 +3.14230519514E-03 +2.41715694986E-03 +7.78394215455E-01 +3.06602416200E-01
2.73000000000E+09 +7.54909240804E-01 +1.44957927617E-01 +3.11308349450E-03 +2.38081600203E-03 +3.04064271082E-03 +1.93401904649E-03 +7.79687041805E-01 +2.92210479552E-01
2.73500000000E+09 +7.53980203020E-01 +1.28194037178E-01 +3.29270733639E-03 +2.31473535445E-03 +2.91319067088E-03 +2.02442867931E-03 +7.80559257395E-01 +2.77407826903E-01
2.74000000000E+09 +7.51817446239E-01 +1.11023564720E-01 +4.01440584254E-03 +2.15915415741E-03 +3.40317699219E-03 +2.22368694572E-03 +7.82395574228E-01 +2.62802337666E-01
2.74500000000E+09 +7.48348611586E-01 +9.32542722725E-02 +4.16532312364E-03 +1.53502597529E-03 +3.80359903829E-03 +1.92580366113E-03 +7.83831855540E-01 +2.47421741255E-01
2.75000000000E+09 +7.43428856573E-01 +7.55678084413E-02 +4.41325392847E-03 +1.27119517190E-03 +4.36703594666E-03 +1.69780217570E-03 +7.84112200722E-01 +2.32243258311E-01
2.75500000000E+09 +7.37673829879E-01 +5.79505990116E-02 +4.52757108928E-03 +9.02982987459E-04 +4.84171271672E-03 +1.20171181824E-03 +7.83319779048E-01 +2.17035924391E-01
2.76000000000E+09 +7.31731254790E-01 +4.05603025556E-02 +4.79207373898E-03 +6.39298362579E-04 +5.13662933735E-03 +7.28216878120E-04 +7.82850628783E-01 +2.01693526094E-01
2.76500000000E+09 +7.26040132120E-01 +2.34079703744E-02 +5.19095957627E-03 +3.08232211042E-04 +5.42992187748E-03 +2.34673955282E-04 +7.81805340176E-01 +1.84434279120E-01
2.77000000000E+09 +7.21107499907E-01 +5.33514866217E-03 +5.77089123929E-03 -3.36556162799E-04 +6.01879938402E-03 -4.73119304783E-04 +7.80898093611E-01 +1.66717582022E-01
2.77500000000E+09 +7.16363829198E-01 -1.34530289326E-02 +5.82547863438E-03 -1.60679735680E-03 +5.99961461341E-03 -1.83205764613E-03 +7.79104935359E-01 +1.48670995660E-01
2.78000000000E+09 +7.11718261537E-01 -3.31907446406E-02 +5.29829270976E-03 -2.29569915134E-03 +5.27134077578E-03 -2.60529059649E-03 +7.76955612372E-01 +1.31440429444E-01
2.78500000000E+09 +7.06909095992E-01 -5.36381515927E-02 +4.92837153744E-03 -2.52643312653E-03 +4.70810662555E-03 -2.80452735734E-03 +7.74728987444E-01 +1.14314203442E-01
2.79000000000E+09 +7.01218698096E-01 -7.52562010258E-02 +5.15176379931E-03 -2.88462456887E-03 +4.76305592543E-03 -3.02140807805E-03 +7.71807842004E-01 +9.67054645674E-02
2.79500000000E+09 +6.94051241690E-01 -9.62779200652E-02 +5.10493309858E-03 -3.56265961066E-03 +4.70217822144E-03 -3.39173614273E-03 +7.67509214580E-01 +7.80425131218E-02
2.80000000000E+09 +6.85636434515E-01 -1.16920355668E-01 +5.11926532447E-03 -4.45727462312E-03 +5.04301020829E-03 -4.13177090677E-03 +7.62156282323E-01 +5.87276779380E-02
2.80500000000E+09 +6.76118195202E-01 -1.36576546763E-01 +4.38673079323E-03 -5.68398237466E-03 +4.61644028768E-03 -5.49208539951E-03 +7.56226030592E-01 +3.99466137821E-02
2.81000000000E+09 +6.65474183771E-01 -1.55242624911E-01 +3.28883866973E-03 -5.91702014855E-03 +3.52375296000E-03 -6.02704752413E-03 +7.50649487190E-01 +2.07989393849E-02
2.81500000000E+09 +6.53962224996E-01 -1.73119096229E-01 +2.84955085551E-03 -6.03054302515E-03 +2.79179015551E-03 -6.28100211417E-03 +7.44002012166E-01 +1.40773530900E-03
2.82000000000E+09 +6.41461174171E-01 -1.90731031954E-01 +2.56554025792E-03 -6.49679459437E-03 +2.24957596697E-03 -6.63754337100E-03 +7.36408062801E-01 -1.82223309761E-02
2.82500000000E+09 +6.28024827205E-01 -2.08687260151E-01 +1.78076032589E-03 -7.11255473739E-03 +1.37738300365E-03 -6.86582730343E-03 +7.27206816584E-01 -3.84094914991E-02
2.83000000000E+09 +6.12502195805E-01 -2.27504384865E-01 +8.62033035283E-04 -7.28625087591E-03 +8.31826498644E-04 -6.93389954307E-03 +7.16774794919E-01 -5.83892076941E-02
2.83500000000E+09 +5.95619941516E-01 -2.46315214188E-01 -8.67387458285E-05 -7.25370528307E-03 +1.89932849666E-04 -6.98123689514E-03 +7.06370573929E-01 -7.83468984604E-02
2.84000000000E+09 +5.76895950658E-01 -2.65162198550E-01 -3.71960190878E-04 -6.92032109334E-03 -1.36858448718E-04 -6.86952695004E-03 +6.96047086574E-01 -9.95379058995E-02
2.84500000000E+09 +5.56829180703E-01 -2.84522135860E-01 -3.92941468443E-04 -7.46605466985E-03 -2.62314286243E-04 -7.52021804679E-03 +6.84127264104E-01 -1.20988238488E-01
2.85000000000E+09 +5.35087677685E-01 -3.03816536948E-01 -1.35690232626E-03 -8.48785624126E-03 -1.36618003288E-03 -8.50057773530E-03 +6.69843557945E-01 -1.42036527683E-01
2.85500000000E+09 +5.12121777783E-01 -3.22358182543E-01 -3.06510638281E-03 -8.99312595378E-03 -3.03318158509E-03 -8.85537869966E-03 +6.54416409579E-01 -1.61609033151E-01
2.86000000000E+09 +4.88215273147E-01 -3.40762534047E-01 -4.92124016062E-03 -8.48064107287E-03 -4.78468832849E-03 -8.32319665695E-03 +6.38863362093E-01 -1.82014176730E-01
2.86500000000E+09 +4.63317099334E-01 -3.57756953021E-01 -6.59193395696E-03 -7.21555600544E-03 -6.49624086545E-03 -7.28050769317E-03 +6.21465213998E-01 -2.03636655912E-01
2.87000000000E+09 +4.37968144879E-01 -3.73513001535E-01 -6.90323127038E-03 -5.55742471116E-03 -6.92028113845E-03 -5.57370455902E-03 +6.01338835065E-01 -2.25238085657E-01
2.87500000000E+09 +4.12386196631E-01 -3.87934544364E-01 -6.56107125291E-03 -5.12765463866E-03 -6.63863452823E-03 -4.96417797323E-03 +5.80573755243E-01 -2.44759770732E-01
2.88000000000E+09 +3.86328875664E-01 -4.01279513774E-01 -6.91223931781E-03 -5.47156896167E-03 -6.90088830857E-03 -5.05654387270E-03 +5.59333102820E-01 -2.64143695131E-01
2.88500000000E+09 +3.59894634639E-01 -4.13260706729E-01 -8.72186681250E-03 -4.97611574613E-03 -8.33765753688E-03 -4.64964055230E-03 +5.36276862695E-01 -2.82792072466E-01
2.89000000000E+09 +3.32879402012E-01 -4.24932238514E-01 -9.56654749587E-03 -3.25530516575E-03 -8.94194014641E-03 -3.25017334238E-03 +5.10698568164E-01 -3.01456847347E-01
2.89500000000E+09 +3.03806393354E-01 -4.35842555172E-01 -9.74272379704E-03 -2.07971644590E-03 -9.35424286647E-03 -2.47703646549E-03 +4.81952098483E-01 -3.18984435735E-01
2.90000000000E+09 +2.72711042768E-01 -4.45368683674E-01 -1.00345936523E-02 -8.18786620731E-04 -1.01191243561E-02 -1.18161740150E-03 +4.51506886051E-01 -3.33726934188E-01
2.90500000000E+09 +2.38930110004E-01 -4.52811948040E-01 -9.78657202571E-03 +2.20936950698E-04 -9.94967745205E-03 +2.87923963365E-04 +4.22455936524E-01 -3.48657667576E-01
2.91000000000E+09 +2.03711873257E-01 -4.57198808325E-01 -9.93430090034E-03 +9.66783888769E-04 -9.90154543020E-03 +1.33587302296E-03 +3.91050481740E-01 -3.63567473670E-01
2.91500000000E+09 +1.67796498812E-01 -4.58908599325E-01 -1.03499346071E-02 +2.55855430467E-03 -9.81951857141E-03 +2.76040870870E-03 +3.57637530620E-01 -3.75975165257E-01
2.92000000000E+09 +1.32060957888E-01 -4.58048311738E-01 -9.36684061402E-03 +4.25262287579E-03 -8.78232980146E-03 +3.87868172556E-03 +3.22483614993E-01 -3.84995883395E-01
2.92500000000E+09 +9.67653919539E-02 -4.55700504009E-01 -8.48398630604E-03 +4.11011291923E-03 -8.20223633437E-03 +3.53875735486E-03 +2.86643637350E-01 -3.90871816208E-01
2.93000000000E+09 +6.16129070669E-02 -4.51836400840E-01 -9.18073525163E-03 +4.82154300639E-03 -9.22137863453E-03 +4.25714011481E-03 +2.50535806719E-01 -3.95491181168E-01
2.93500000000E+09 +2.64299864002E-02 -4.46945846130E-01 -8.97603687470E-03 +6.63508467099E-03 -9.25153337824E-03 +6.28762921770E-03 +2.13293682957E-01 -4.00424396319E-01
2.94000000000E+09 -9.56640598346E-03 -4.40194299060E-01 -8.01683150795E-03 +8.04053279387E-03 -8.21525900662E-03 +7.83152975272E-03 +1.73257273357E-01 -4.03897920455E-01
2.94500000000E+09 -4.54469932626E-02 -4.30488671424E-01 -6.94637725452E-03 +9.44728359500E-03 -7.22752460138E-03 +9.20236501007E-03 +1.32540941591E-01 -4.03042709088E-01
2.95000000000E+09 -8.07794266070E-02 -4.17094201136E-01 -5.06493929026E-03 +1.00021949840E-02 -5.43318905139E-03 +9.84848963247E-03 +9.28076446835E-02 -3.98280183983E-01
2.95500000000E+09 -1.14663727656E-01 -4.00959699565E-01 -3.92243878129E-03 +9.75556532895E-03 -4.36316978902E-03 +9.88606368918E-03 +5.46591965615E-02 -3.91502309637E-01
2.96000000000E+09 -1.46908031148E-01 -3.82497248993E-01 -3.60977526824E-03 +9.96774011260E-03 -3.91482690985E-03 +1.04008033778E-02 +1.45398607754E-02 -3.83157101505E-01
2.96500000000E+09 -1.78947523032E-01 -3.61842685000E-01 -2.99771895138E-03 +1.08495952712E-02 -2.84355062190E-03 +1.12592828971E-02 -2.71910607264E-02 -3.71199327862E-01
2.97000000000E+09 -2.09994333475E-01 -3.37311150419E-01 -1.61253909742E-03 +1.18313141834E-02 -1.18723644167E-03 +1.18266575680E-02 -6.79778664057E-02 -3.55707647130E-01
2.97500000000E+09 -2.38547833031E-01 -3.10417840081E-01 -2.34015065861E-04 +1.26259011276E-02 -9.08958646308E-05 +1.22536569673E-02 -1.07282397612E-01 -3.37584601120E-01
2.98000000000E+09 -2.66310591762E-01 -2.82459029401E-01 +2.60904991627E-03 +1.25758276495E-02 +2.24900656707E-03 +1.22944951652E-02 -1.44964972350E-01 -3.16848137839E-01
2.98500000000E+09 -2.93728425886E-01 -2.52425940169E-01 +3.81577811339E-03 +1.10772022198E-02 +3.41783665126E-03 +1.13773553326E-02 -1.81491766850E-01 -2.93534807282E-01
2.99000000000E+09 -3.19323290959E-01 -2.20098897790E-01 +4.16111496515E-03 +1.05542936384E-02 +4.14876196246E-03 +1.10772715961E-02 -2.17029897265E-01 -2.66368822865E-01
2.99500000000E+09 -3.42880884318E-01 -1.85998146830E-01 +5.07148243444E-03 +1.12534992488E-02 +5.69237912188E-03 +1.15683784789E-02 -2.50366154205E-01 -2.36149014875E-01
3.00000000000E+09 -3.62863293370E-01 -1.51774180193E-01 +7.51915325672E-03 +1.08561973765E-02 +8.20676625116E-03 +1.04449709305E-02 -2.80899342370E-01 -2.03311914261E-01
3.00500000000E+09 -3.81353451921E-01 -1.18587690337E-01 +8.81756671615E-03 +9.51376330919E-03 +8.81935494925E-03 +8.83692650111E-03 -3.08934597504E-01 -1.69846031294E-01
3.01000000000E+09 -3.98208775549E-01 -8.50526551419E-02 +1.01376597563E-02 +8.15245718153E-03 +9.64277888702E-03 +7.72843587422E-03 -3.34602123295E-01 -1.34752300121E-01
3.01500000000E+09 -4.12942134967E-01 -5.05277216384E-02 +1.07976683496E-02 +6.96133610667E-03 +1.02877253580E-02 +7.05391917450E-03 -3.57853490627E-01 -9.86568496280E-02
3.02000000000E+09 -4.24130119443E-01 -1.50100657899E-02 +1.16382487313E-02 +5.87544364268E-03 +1.15502572491E-02 +6.04868715295E-03 -3.77618273779E-01 -5.87888815062E-02
3.02500000000E+09 -4.31229597407E-01 +2.06662217336E-02 +1.27314975520E-02 +4.59486527508E-03 +1.26774401627E-02 +4.69378229627E-03 -3.92082188160E-01 -1.92772227978E-02
3.03000000000E+09 -4.34999227802E-01 +5.58150744032E-02 +1.34859236421E-02 +2.31472141849E-03 +1.32935937734E-02 +2.43695083701E-03 -4.05424155906E-01 +1.99374874818E-02
3.03500000000E+09 -4.35838234745E-01 +9.09543583901E-02 +1.32191081474E-02 +5.97974149703E-04 +1.30826452123E-02 +1.03131256911E-03 -4.16732978389E-01 +5.94887247316E-02
3.04000000000E+09 -4.34083137888E-01 +1.25806881784E-01 +1.33641640347E-02 -1.11906999212E-03 +1.36482813051E-02 -5.61665313267E-04 -4.25414371512E-01 +1.00059201832E-01
3.04500000000E+09 -4.30112113255E-01 +1.60683910718E-01 +1.29337129094E-02 -2.78049805454E-03 +1.37391240282E-02 -2.74431386515E-03 -4.30717683842E-01 +1.40526395859E-01
3.05000000000E+09 -4.23618063338E-01 +1.95561326421E-01 +1.23894465987E-02 -4.38366834257E-03 +1.29176581435E-02 -5.13855636618E-03 -4.31682154097E-01 +1.80441974572E-01
3.05500000000E+09 -4.15404727610E-01 +2.29320818455E-01 +1.17157818370E-02 -5.73604008235E-03 +1.14606455275E-02 -6.60500824234E-03 -4.31071109615E-01 +2.18192971218E-01
3.06000000000E+09 -4.05916496084E-01 +2.63140560779E-01 +1.11198013102E-02 -7.33706174397E-03 +1.03195972329E-02 -7.60984468452E-03 -4.29195557658E-01 +2.56779876888E-01
3.06500000000E+09 -3.93943280228E-01 +2.95693902626E-01 +9.86921039178E-03 -9.27168178002E-03 +9.26611483939E-03 -8.60552033844E-03 -4.23663527944E-01 +2.94459258481E-01
3.07000000000E+09 -3.81095391680E-01 +3.25724318213E-01 +7.70382277648E-03 -1.05809565199E-02 +8.03675144840E-03 -9.76346226811E-03 -4.16359274898E-01 +3.29865416253E-01
