# Hz S RI R 50
! CMT, C1220, 16058040, 17.2.0/1
! Date: 15/08/2018 09:47:09
! Data: Format (Calibration Info)
! Freq                      S11: Re/Im (F2)                       S21: Re/Im (F2)                       S12: Re/Im (F2)                       S22: Re/Im (F2)            
2.50000000000E+09 +5.78088472318E-01 +6.66808849131E-01 +1.33788417529E-04 -1.50488826826E-03 +1.77219017081E-04 -1.58242350768E-03 +5.75551459586E-01 +7.17397584118E-01
2.50500000000E+09 +5.84937488391E-01 +6.59126418097E-01 -4.45131302965E-06 -1.47308019121E-03 -3.21498813401E-05 -1.58982296540E-03 +5.81027410150E-01 +7.11852301982E-01
2.51000000000E+09 +5.92416578241E-01 +6.51178468711E-01 -1.93566592469E-04 -1.56756371576E-03 -2.63105527139E-04 -1.53959500612E-03 +5.86406881611E-01 +7.06524367935E-01
2.51500000000E+09 +5.99715207508E-01 +6.42810076579E-01 -4.17891359797E-04 -1.58952696287E-03 -4.57284829028E-04 -1.51903292603E-03 +5.91532770314E-01 +7.01136707050E-01
2.52000000000E+09 +6.06675350151E-01 +6.34096017454E-01 -5.47951359120E-04 -1.48902511763E-03 -5.32813886032E-04 -1.46177389321E-03 +5.96821476622E-01 +6.95082860501E-01
2.52500000000E+09 +6.12745845735E-01 +6.25511592996E-01 -6.79936472813E-04 -1.35626120466E-03 -5.97773934576E-04 -1.41388344547E-03 +6.02708715051E-01 +6.88540472595E-01
2.53000000000E+09 +6.18475409370E-01 +6.17019063733E-01 -7.14521663444E-04 -1.32123252063E-03 -7.19776408499E-04 -1.39601455292E-03 +6.09085922562E-01 +6.81418267270E-01
2.53500000000E+09 +6.23522506522E-01 +6.08977638000E-01 -9.05023211876E-04 -1.29885447365E-03 -8.86123975593E-04 -1.30210568305E-03 +6.14936589373E-01 +6.74709257072E-01
2.54000000000E+09 +6.27943625009E-01 +6.01083136464E-01 -1.05041921568E-03 -1.26657406645E-03 -9.72569541462E-04 -1.24208545563E-03 +6.20727612179E-01 +6.68096631587E-01
2.54500000000E+09 +6.32225026816E-01 +5.93636723986E-01 -1.18055551905E-03 -1.22412705296E-03 -1.07318838206E-03 -1.28997467491E-03 +6.26272410983E-01 +6.61743375038E-01
2.55000000000E+09 +6.37077361501E-01 +5.86545487227E-01 -1.24111951965E-03 -1.02666708972E-03 -1.29840173785E-03 -1.18699904478E-03 +6.31248191272E-01 +6.55254954994E-01
2.55500000000E+09 +6.42675965094E-01 +5.78834183336E-01 -1.38200178589E-03 -9.27191394705E-04 -1.54340899519E-03 -1.11669345052E-03 +6.36541997052E-01 +6.48717959928E-01
2.56000000000E+09 +6.49170327300E-01 +5.71072019849E-01 -1.39041890488E-03 -7.24140382984E-04 -1.70476800055E-03 -7.59966938302E-04 +6.42030972608E-01 +6.41183004683E-01
2.56500000000E+09 +6.55977448518E-01 +5.62274225713E-01 -1.40393779499E-03 -6.93610681140E-04 -1.64993181068E-03 -5.24863664949E-04 +6.47644532614E-01 +6.33631847130E-01
2.57000000000E+09 +6.63125181205E-01 +5.53313812923E-01 -1.50549995571E-03 -6.84739597783E-04 -1.57354856928E-03 -3.83504670194E-04 +6.53084691031E-01 +6.26039353924E-01
2.57500000000E+09 +6.70251024908E-01 +5.43540184573E-01 -1.58090852103E-03 -6.48200008465E-04 -1.51655276744E-03 -2.73373929674E-04 +6.58359026173E-01 +6.18659582660E-01
2.58000000000E+09 +6.76567933173E-01 +5.33744956931E-01 -1.79692780294E-03 -5.11383654480E-04 -1.56406331830E-03 -3.00961413809E-04 +6.63073755856E-01 +6.11283444261E-01
2.58500000000E+09 +6.82412255261E-01 +5.23753822425E-01 -1.77886923969E-03 -1.42328451098E-04 -1.56117500098E-03 -1.65164146627E-04 +6.67668000731E-01 +6.03707032144E-01
2.59000000000E+09 +6.87727379667E-01 +5.14234766761E-01 -1.60648464694E-03 -9.14881553995E-05 -1.46271447811E-03 -2.32356216010E-04 +6.72471790813E-01 +5.95841056684E-01
2.59500000000E+09 +6.92413230462E-01 +5.04344054535E-01 -1.67830305661E-03 -2.18549167167E-04 -1.64387606616E-03 -3.38912301638E-04 +6.77615904912E-01 +5.87420014406E-01
2.60000000000E+09 +6.96299924116E-01 +4.94887299703E-01 -1.88543683647E-03 -1.18543540766E-04 -1.92765750293E-03 -2.08643325334E-04 +6.82591030505E-01 +5.78889624771E-01
2.60500000000E+09 +7.00522428065E-01 +4.85124065425E-01 -2.15921249387E-03 +7.44128881761E-05 -2.13226198428E-03 +7.64632817432E-05 +6.87868675964E-01 +5.70492804280E-01
2.61000000000E+09 +7.04816603438E-01 +4.74977078490E-01 -2.35308161417E-03 +4.43746716840E-04 -2.33967228628E-03 +3.68657223203E-04 +6.92756498779E-01 +5.61958115386E-01
2.61500000000E+09 +7.09543421916E-01 +4.64022595011E-01 -2.18166214718E-03 +1.03524609974E-03 -2.24326846519E-03 +1.02968642863E-03 +6.96997685487E-01 +5.53655862842E-01
2.62000000000E+09 +7.14381240460E-01 +4.52100861567E-01 -1.78561416937E-03 +1.06647499061E-03 -1.83595923682E-03 +1.20006876988E-03 +7.01737364404E-01 +5.44937822747E-01
2.62500000000E+09 +7.19279655449E-01 +4.38877153003E-01 -1.74207774956E-03 +9.78960240269E-04 -1.79048327853E-03 +1.18870028803E-03 +7.06826334758E-01 +5.35789735275E-01
2.63000000000E+09 +7.23836391892E-01 +4.25187016182E-01 -1.82409522323E-03 +1.18761283320E-03 -1.63089255994E-03 +1.36830160582E-03 +7.11615169476E-01 +5.26364782455E-01
2.63500000000E+09 +7.27824711546E-01 +4.11142651001E-01 -1.89558447713E-03 +1.28551792505E-03 -1.56535401859E-03 +1.32537554367E-03 +7.16743160545E-01 +5.16901554851E-01
2.64000000000E+09 +7.31376462445E-01 +3.97325769256E-01 -2.00835957202E-03 +1.72339534711E-03 -1.64282958765E-03 +1.52549596373E-03 +7.21599190056E-01 +5.07419488504E-01
2.64500000000E+09 +7.34413198997E-01 +3.84062041290E-01 -1.60313160958E-03 +2.16952353585E-03 -1.53311698488E-03 +1.85667266865E-03 +7.26028864896E-01 +4.98154859511E-01
2.65000000000E+09 +7.37031795635E-01 +3.71686564013E-01 -1.10766188592E-03 +2.21623607199E-03 -1.32204602821E-03 +2.01883120374E-03 +7.30461600601E-01 +4.88618030625E-01
2.65500000000E+09 +7.39683362210E-01 +3.59330123235E-01 -9.90601834356E-04 +2.03496960636E-03 -1.20182253381E-03 +1.99790330227E-03 +7.34333322836E-01 +4.78072965660E-01
2.66000000000E+09 +7.42432409971E-01 +3.47312847014E-01 -1.07816835786E-03 +2.13723007706E-03 -1.18139721874E-03 +2.30041735466E-03 +7.38377654471E-01 +4.66926677707E-01
2.66500000000E+09 +7.45358967524E-01 +3.35258516552E-01 -9.52853959382E-04 +2.45394123786E-03 -7.89910138584E-04 +2.56016736381E-03 +7.43091743752E-01 +4.55541766603E-01
2.67000000000E+09 +7.48041936267E-01 +3.21992925744E-01 -5.67448319195E-04 +2.61674413391E-03 -3.52187846455E-04 +2.55282860093E-03 +7.47675562840E-01 +4.44499548589E-01
2.67500000000E+09 +7.49966457741E-01 +3.08215804316E-01 -2.92206159155E-04 +2.51339278802E-03 -1.84239645654E-04 +2.37235033025E-03 +7.51801477021E-01 +4.33351023157E-01
2.68000000000E+09 +7.51620078854E-01 +2.93613821390E-01 -1.82070669327E-04 +2.42972394094E-03 -1.95685340400E-04 +2.30432336504E-03 +7.55504255098E-01 +4.22663299170E-01
2.68500000000E+09 +7.52485140269E-01 +2.78211522421E-01 -2.26006354343E-04 +2.49493032266E-03 -3.41878869394E-04 +2.41281311124E-03 +7.58807436391E-01 +4.11017751096E-01
2.69000000000E+09 +7.52891247893E-01 +2.62562109766E-01 -1.00976718325E-04 +2.90762196540E-03 -1.47527938728E-04 +2.89469647058E-03 +7.61293798796E-01 +3.99104921588E-01
2.69500000000E+09 +7.53033058322E-01 +2.47091738654E-01 +4.92554043933E-04 +3.10744611681E-03 +4.18629070682E-04 +3.02305726604E-03 +7.64116346257E-01 +3.86220707316E-01
2.70000000000E+09 +7.53159658083E-01 +2.31341179793E-01 +9.33962862382E-04 +3.00298141053E-03 +8.66203521158E-04 +2.87655300192E-03 +7.67515978021E-01 +3.72730739081E-01
2.70500000000E+09 +7.52811316014E-01 +2.16046679440E-01 +1.25190607633E-03 +2.57827782791E-03 +1.12448239689E-03 +2.57763987088E-03 +7.70794611967E-01 +3.58975641105E-01
2.71000000000E+09 +7.52759835802E-01 +2.01267182617E-01 +1.29704115937E-03 +2.34376114518E-03 +1.15420168977E-03 +2.42296022060E-03 +7.73294014802E-01 +3.45986050256E-01
2.71500000000E+09 +7.53294027325E-01 +1.86389819795E-01 +1.02122784023E-03 +2.35570846311E-03 +1.08477543260E-03 +2.52876935493E-03 +7.76185209897E-01 +3.33633164572E-01
2.72000000000E+09 +7.53877009458E-01 +1.71498043114E-01 +1.15838021091E-03 +2.72373783396E-03 +1.42006582701E-03 +2.84066779693E-03 +7.78516275624E-01 +3.20660564596E-01
2.72500000000E+09 +7.54379283397E-01 +1.56072031669E-01 +1.70589836201E-03 +2.74854008394E-03 +2.00228360846E-03 +2.51726436630E-03 +7.79715049779E-01 +3.06636492768E-01
2.73000000000E+09 +7.54211484992E-01 +1.40022127029E-01 +1.80958075547E-03 +2.66410456456E-03 +1.85618923308E-03 +2.28616271345E-03 +7.81040469775E-01 +2.92000742842E-01
2.73500000000E+09 +7.53074581265E-01 +1.22925491219E-01 +2.04087369623E-03 +3.02104289744E-03 +1.84336158241E-03 +2.60535459851E-03 +7.81948884534E-01 +2.76897612266E-01
2.74000000000E+09 +7.50784045621E-01 +1.05627779097E-01 +2.96021681508E-03 +3.01876311349E-03 +2.45419968275E-03 +2.93544688531E-03 +7.83843881920E-01 +2.62228384734E-01
2.74500000000E+09 +7.46904268153E-01 +8.77547798812E-02 +3.38978124893E-03 +2.50496865788E-03 +2.89985351290E-03 +2.82342487815E-03 +7.85244879814E-01 +2.46510235540E-01
2.75000000000E+09 +7.41621920214E-01 +7.00651269124E-02 +3.68069630450E-03 +2.21617053120E-03 +3.54995743622E-03 +2.72876018715E-03 +7.85492882821E-01 +2.31139007756E-01
2.75500000000E+09 +7.35659435186E-01 +5.28264663580E-02 +3.90604662875E-03 +1.91530403316E-03 +4.06049984054E-03 +2.35669195888E-03 +7.84575260085E-01 +2.15848501924E-01
2.76000000000E+09 +7.29741088793E-01 +3.56708637296E-02 +4.15857084706E-03 +1.79119803889E-03 +4.52508549845E-03 +1.94958536133E-03 +7.83887771004E-01 +2.00410175762E-01
2.76500000000E+09 +7.23831273075E-01 +1.82951296446E-02 +4.72516270730E-03 +1.68266290132E-03 +5.00829407333E-03 +1.64318130083E-03 +7.82859381296E-01 +1.83121098232E-01
2.77000000000E+09 +7.18496925874E-01 +4.18428568750E-04 +5.54268778067E-03 +9.93725684035E-04 +5.79317414979E-03 +9.09522949068E-04 +7.81981638003E-01 +1.65288447211E-01
2.77500000000E+09 +7.13394234680E-01 -1.84020850823E-02 +5.80080085664E-03 -1.41333359579E-04 +6.03964830141E-03 -3.38856706860E-04 +7.80116859109E-01 +1.46812412948E-01
2.78000000000E+09 +7.08377009592E-01 -3.79235408314E-02 +5.52497542554E-03 -8.08735428922E-04 +5.57483827402E-03 -1.11464380000E-03 +7.77784636510E-01 +1.29377642366E-01
2.78500000000E+09 +7.03179069060E-01 -5.83242366912E-02 +5.50853379846E-03 -1.28158773319E-03 +5.35803155783E-03 -1.61949603802E-03 +7.75300287078E-01 +1.12047503449E-01
2.79000000000E+09 +6.97049655648E-01 -7.96258574460E-02 +5.51766165191E-03 -1.88653689874E-03 +5.17967411882E-03 -2.06492649400E-03 +7.71709301849E-01 +9.43347871079E-02
2.79500000000E+09 +6.89414825139E-01 -1.00435980185E-01 +5.43121899524E-03 -2.39540269289E-03 +5.11323175736E-03 -2.25746098495E-03 +7.67167551824E-01 +7.59285992511E-02
2.80000000000E+09 +6.80451370133E-01 -1.20570019549E-01 +5.72369094564E-03 -3.25002560616E-03 +5.57853763729E-03 -2.99665310391E-03 +7.61850946320E-01 +5.68722422445E-02
2.80500000000E+09 +6.70898001815E-01 -1.39874276543E-01 +5.18943988787E-03 -4.60031787726E-03 +5.32515498792E-03 -4.33126754740E-03 +7.55951008583E-01 +3.80682038127E-02
2.81000000000E+09 +6.59953642991E-01 -1.58187797309E-01 +4.08609019415E-03 -4.81458280999E-03 +4.30275551530E-03 -4.86451623152E-03 +7.50361602281E-01 +1.89235727079E-02
2.81500000000E+09 +6.48145380113E-01 -1.75764278738E-01 +3.98630088398E-03 -5.03951999264E-03 +3.87521096546E-03 -5.27182276233E-03 +7.43508915577E-01 -7.31152292157E-04
2.82000000000E+09 +6.35162689326E-01 -1.93249184402E-01 +3.75354764757E-03 -5.62366886257E-03 +3.43396058188E-03 -5.75834047531E-03 +7.35687366412E-01 -2.03826965623E-02
2.82500000000E+09 +6.21091342168E-01 -2.10343315734E-01 +3.10044782516E-03 -6.27118880143E-03 +2.73325785229E-03 -6.05250421854E-03 +7.26131713143E-01 -4.03099133931E-02
2.83000000000E+09 +6.05639240087E-01 -2.27916583583E-01 +2.59320805079E-03 -6.83418269372E-03 +2.43930641843E-03 -6.41881797609E-03 +7.15635479687E-01 -6.04248486126E-02
2.83500000000E+09 +5.89384701329E-01 -2.45812747307E-01 +1.36845258397E-03 -7.19672947128E-03 +1.55753833262E-03 -6.90279532978E-03 +7.04821395225E-01 -8.02226374471E-02
2.84000000000E+09 +5.71369666459E-01 -2.64730745296E-01 +6.94332915964E-04 -6.68916569474E-03 +9.32660723434E-04 -6.60027994445E-03 +6.94297632038E-01 -1.00959687794E-01
2.84500000000E+09 +5.50966276580E-01 -2.84205060338E-01 +1.08282726931E-03 -7.16949206984E-03 +1.18142594064E-03 -7.20251522850E-03 +6.82452192481E-01 -1.22272549152E-01
2.85000000000E+09 +5.28885571554E-01 -3.03057118765E-01 +3.17375600359E-04 -8.47436917925E-03 +2.83150593116E-04 -8.41730954608E-03 +6.68361665380E-01 -1.43498091484E-01
2.85500000000E+09 +5.05878357258E-01 -3.20875286665E-01 -1.40301762565E-03 -9.11484187408E-03 -1.41249095828E-03 -9.01273240282E-03 +6.52577668623E-01 -1.63440934328E-01
2.86000000000E+09 +4.82252118367E-01 -3.38638099404E-01 -3.22698411301E-03 -8.83773761543E-03 -3.16147783378E-03 -8.76859346847E-03 +6.36240487533E-01 -1.83573796497E-01
2.86500000000E+09 +4.57952193030E-01 -3.55112140674E-01 -4.95766342831E-03 -8.05926552792E-03 -4.87481188799E-03 -8.10082848546E-03 +6.18532036346E-01 -2.04707069133E-01
2.87000000000E+09 +4.32779207506E-01 -3.70880235945E-01 -5.56958687748E-03 -6.34388925801E-03 -5.59630764451E-03 -6.38795028065E-03 +5.98226271308E-01 -2.25741947233E-01
2.87500000000E+09 +4.07154896700E-01 -3.84645723637E-01 -5.05612738717E-03 -5.98498671667E-03 -5.24347461320E-03 -5.80111829385E-03 +5.77534972028E-01 -2.45135845123E-01
2.88000000000E+09 +3.82005270518E-01 -3.97339088989E-01 -5.76404358164E-03 -6.54331336730E-03 -5.80788740840E-03 -6.19510234811E-03 +5.55809656476E-01 -2.64061030923E-01
2.88500000000E+09 +3.56068317698E-01 -4.09345306784E-01 -7.55994453824E-03 -5.90251208974E-03 -7.19200435381E-03 -5.44995186902E-03 +5.32666017511E-01 -2.81835395376E-01
2.89000000000E+09 +3.29060905799E-01 -4.20795205587E-01 -7.96519149220E-03 -4.39320357623E-03 -7.42289079962E-03 -4.28520550485E-03 +5.07581261176E-01 -2.99488735187E-01
2.89500000000E+09 +3.00218497076E-01 -4.31180121769E-01 -8.18397324942E-03 -3.94898999522E-03 -7.75769963859E-03 -4.19245142756E-03 +4.79421736785E-01 -3.16885714038E-01
2.90000000000E+09 +2.69507433979E-01 -4.39878651612E-01 -9.17832066386E-03 -3.09875434562E-03 -9.12955031014E-03 -3.45183946935E-03 +4.49135021919E-01 -3.31807985088E-01
2.90500000000E+09 +2.36322274679E-01 -4.46359244267E-01 -9.30049395923E-03 -1.89103866242E-03 -9.42968746020E-03 -1.90330459472E-03 +4.20204402920E-01 -3.45918318058E-01
2.91000000000E+09 +2.02767792437E-01 -4.50176218643E-01 -9.69515830429E-03 -1.18756454127E-03 -9.63265337289E-03 -9.51800787221E-04 +3.89414628590E-01 -3.60609712534E-01
2.91500000000E+09 +1.68036872282E-01 -4.52445179673E-01 -1.03381224246E-02 +1.92294671268E-04 -9.89424249330E-03 +4.18973247352E-04 +3.56667270837E-01 -3.72456007591E-01
2.92000000000E+09 +1.32633273215E-01 -4.51884303770E-01 -9.81577320831E-03 +1.77892682816E-03 -9.22754359235E-03 +1.65230496738E-03 +3.22514617179E-01 -3.81612502829E-01
2.92500000000E+09 +9.76529679959E-02 -4.49294411129E-01 -9.37965232227E-03 +2.06123842395E-03 -8.99189175931E-03 +1.57798184445E-03 +2.87078297652E-01 -3.88056129083E-01
2.93000000000E+09 +6.33501572295E-02 -4.45317292733E-01 -9.92053998196E-03 +2.98830644758E-03 -9.85508674563E-03 +2.48284453046E-03 +2.51138742702E-01 -3.93046448969E-01
2.93500000000E+09 +2.89149919070E-02 -4.39961713602E-01 -9.85230568244E-03 +4.48099952188E-03 -1.00453831779E-02 +4.21176205125E-03 +2.14110370628E-01 -3.97830150276E-01
2.94000000000E+09 -5.11242669137E-03 -4.33117519115E-01 -9.42979241276E-03 +5.78471381631E-03 -9.55159251523E-03 +5.63723582410E-03 +1.74600244657E-01 -4.01719476297E-01
2.94500000000E+09 -3.98672392851E-02 -4.25220019369E-01 -8.86495882348E-03 +7.53060029736E-03 -8.95523076543E-03 +7.31487742454E-03 +1.34055949372E-01 -4.01514317940E-01
2.95000000000E+09 -7.54511616627E-02 -4.12778371189E-01 -7.35114461612E-03 +8.43133120809E-03 -7.61589519762E-03 +8.15815039664E-03 +9.39537583914E-02 -3.96790169925E-01
2.95500000000E+09 -1.09207391720E-01 -3.96486545205E-01 -6.37775734755E-03 +8.84326074587E-03 -6.84080593603E-03 +8.85031053175E-03 +5.58487665501E-02 -3.90125600172E-01
2.96000000000E+09 -1.40327826078E-01 -3.78474208272E-01 -5.92036331687E-03 +9.53509395979E-03 -6.27254116993E-03 +9.88574302548E-03 +1.55560750469E-02 -3.81396259138E-01
2.96500000000E+09 -1.71682536501E-01 -3.58445104794E-01 -5.06910802870E-03 +1.05628636410E-02 -4.96313686877E-03 +1.10608477731E-02 -2.54374722413E-02 -3.68998132735E-01
2.97000000000E+09 -2.01749473765E-01 -3.35265819770E-01 -3.75028627608E-03 +1.15489864748E-02 -3.35270970688E-03 +1.16554923660E-02 -6.56120171673E-02 -3.54158583796E-01
2.97500000000E+09 -2.30915264700E-01 -3.10210437877E-01 -2.44083765600E-03 +1.24399597890E-02 -2.18317249355E-03 +1.20878135946E-02 -1.04658276187E-01 -3.36429892574E-01
2.98000000000E+09 -2.59351419238E-01 -2.82465967753E-01 +3.82173927483E-06 +1.25755701359E-02 -2.98360687085E-04 +1.22154684653E-02 -1.42209364791E-01 -3.16370728281E-01
2.98500000000E+09 -2.86117848945E-01 -2.52714356949E-01 +1.07797646786E-03 +1.17140168267E-02 +5.98887617970E-04 +1.19156209202E-02 -1.78812336897E-01 -2.93281592265E-01
2.99000000000E+09 -3.11367599186E-01 -2.21762194048E-01 +1.64578390401E-03 +1.19893551892E-02 +1.52581882527E-03 +1.25967211896E-02 -2.14041998649E-01 -2.66398975822E-01
2.99500000000E+09 -3.35628656421E-01 -1.89408626261E-01 +3.06167323879E-03 +1.29730901049E-02 +3.58505038155E-03 +1.34973140665E-02 -2.47417075716E-01 -2.36958879211E-01
3.00000000000E+09 -3.56883701824E-01 -1.55895257607E-01 +6.10806132835E-03 +1.27574131839E-02 +6.74927182469E-03 +1.24944370063E-02 -2.78400210695E-01 -2.04323471774E-01
3.00500000000E+09 -3.76270600300E-01 -1.22558294486E-01 +7.50995064790E-03 +1.12954424339E-02 +7.71156624087E-03 +1.05916116527E-02 -3.05925235414E-01 -1.71021338660E-01
3.01000000000E+09 -3.93429780250E-01 -8.89258721211E-02 +9.08733129368E-03 +1.02482051959E-02 +8.69946571247E-03 +9.76342737422E-03 -3.31653711403E-01 -1.37233579054E-01
3.01500000000E+09 -4.07957765741E-01 -5.50777652520E-02 +1.03454666342E-02 +9.02970445273E-03 +9.86835474255E-03 +9.04056461482E-03 -3.55730350672E-01 -1.02058456145E-01
3.02000000000E+09 -4.19630904758E-01 -2.05305268863E-02 +1.13005566057E-02 +7.36450854541E-03 +1.12300484442E-02 +7.55547688923E-03 -3.76608348702E-01 -6.27939816827E-02
3.02500000000E+09 -4.28644216125E-01 +1.46659423868E-02 +1.17645577440E-02 +6.27476907678E-03 +1.17013373930E-02 +6.38579200773E-03 -3.92856270195E-01 -2.28871409014E-02
3.03000000000E+09 -4.33348953031E-01 +5.09092224189E-02 +1.30893206788E-02 +4.97886905185E-03 +1.29134809224E-02 +5.01809419910E-03 -4.06625996438E-01 +1.75633928203E-02
3.03500000000E+09 -4.33984523832E-01 +8.66775738288E-02 +1.38227298492E-02 +3.10846203192E-03 +1.36288594417E-02 +3.41458956941E-03 -4.17607743191E-01 +5.72540185438E-02
3.04000000000E+09 -4.32304278280E-01 +1.20947000981E-01 +1.43265657905E-02 +6.42740421694E-04 +1.46681871617E-02 +1.24929071589E-03 -4.26769052851E-01 +9.79528643470E-02
3.04500000000E+09 -4.29038414536E-01 +1.55631306352E-01 +1.37789888698E-02 -1.46040875052E-03 +1.46664276200E-02 -1.34990026546E-03 -4.32344091435E-01 +1.38937907947E-01
3.05000000000E+09 -4.23428075937E-01 +1.90582190673E-01 +1.30408054588E-02 -3.11815137067E-03 +1.36861642067E-02 -3.87095949501E-03 -4.33305368134E-01 +1.79114087287E-01
3.05500000000E+09 -4.15596626575E-01 +2.25171735318E-01 +1.22653088835E-02 -4.27741302044E-03 +1.20351869767E-02 -5.24622051181E-03 -4.32705932723E-01 +2.17136319447E-01
3.06000000000E+09 -4.05905546237E-01 +2.59149412929E-01 +1.20721445609E-02 -5.71182937978E-03 +1.12068348563E-02 -6.12562130180E-03 -4.31087561603E-01 +2.55805127216E-01
3.06500000000E+09 -3.94100055947E-01 +2.91752767156E-01 +1.12332526776E-02 -7.98849271506E-03 +1.04959330959E-02 -7.41067159493E-03 -4.25908006429E-01 +2.93982520107E-01
3.07000000000E+09 -3.81626189617E-01 +3.21753888748E-01 +9.15434942088E-03 -9.55016449895E-03 +9.33960663674E-03 -8.69231325769E-03 -4.18919152463E-01 +3.30245202309E-01
