# Hz S RI R 50
! CMT, C1220, 16058040, 17.2.0/1
! Date: 15/08/2018 10:28:28
! Data: Format (Calibration Info)
! Freq                      S11: Re/Im (F2)                       S21: Re/Im (F2)                       S12: Re/Im (F2)                       S22: Re/Im (F2)            
2.50000000000E+09 +5.78844603798E-01 +6.41598303050E-01 +2.51723879737E-04 +1.99018663928E-05 +2.70994189078E-04 +8.31232365593E-06 +5.69272620223E-01 +7.21063782574E-01
2.50500000000E+09 +5.85982134652E-01 +6.34019976796E-01 +2.42701083194E-04 -4.07323912324E-05 +2.62362320825E-04 -7.47332055606E-05 +5.75270315685E-01 +7.15135293773E-01
2.51000000000E+09 +5.93416454418E-01 +6.26067767799E-01 +1.99711788806E-04 -1.06764275763E-04 +2.21696625276E-04 -1.30708918305E-04 +5.81202770046E-01 +7.09409999784E-01
2.51500000000E+09 +6.00746699427E-01 +6.18245231098E-01 +1.97283614557E-04 -1.11881763792E-04 +1.87999236460E-04 -1.35177297243E-04 +5.86539071433E-01 +7.03410028463E-01
2.52000000000E+09 +6.07432256646E-01 +6.10352784097E-01 +2.64090566517E-04 -1.05349850602E-04 +2.51823218867E-04 -1.00328600656E-04 +5.91661594567E-01 +6.96989094914E-01
2.52500000000E+09 +6.13166561944E-01 +6.02945100845E-01 +1.70801259338E-04 -1.97417171431E-04 +1.76722606969E-04 -2.30666562570E-04 +5.97415943328E-01 +6.90220106628E-01
2.53000000000E+09 +6.18376564144E-01 +5.96137331417E-01 +1.22423016969E-04 -2.24096699206E-04 +1.32565186477E-04 -2.55430180682E-04 +6.03232786487E-01 +6.82896117534E-01
2.53500000000E+09 +6.22998434867E-01 +5.89632667947E-01 +3.48365133806E-05 -2.19902501687E-04 +5.68707785100E-05 -2.37930069187E-04 +6.08684022080E-01 +6.75915659259E-01
2.54000000000E+09 +6.27385082785E-01 +5.83430140874E-01 +5.86760138618E-06 -2.19207510770E-04 +3.58398317282E-05 -1.83436542707E-04 +6.14265549352E-01 +6.69105475456E-01
2.54500000000E+09 +6.31718319417E-01 +5.77342591564E-01 +2.55763520342E-05 -1.86953965288E-04 +7.26597912131E-05 -1.47530676739E-04 +6.19439443181E-01 +6.62637991790E-01
2.55000000000E+09 +6.36445614856E-01 +5.71173718090E-01 +1.13806782297E-04 -1.53314713677E-04 +9.29017959681E-05 -1.81471906163E-04 +6.24094241608E-01 +6.56355700103E-01
2.55500000000E+09 +6.41669486022E-01 +5.64576784448E-01 +4.61011450898E-05 -2.86619163067E-04 +6.88599031292E-05 -2.98875689877E-04 +6.28815486069E-01 +6.50321511199E-01
2.56000000000E+09 +6.47735271986E-01 +5.57780254142E-01 -2.67972008955E-05 -2.75612363674E-04 -3.94453601111E-05 -2.70445308315E-04 +6.33588323104E-01 +6.43585169897E-01
2.56500000000E+09 +6.54007199719E-01 +5.50036917061E-01 -4.86469301578E-05 -2.68677578754E-04 -1.80197409737E-04 -2.57678102315E-04 +6.39170933388E-01 +6.36510493952E-01
2.57000000000E+09 +6.60127483264E-01 +5.42155483588E-01 -1.54030795372E-04 -2.41999833699E-04 -1.92916310042E-04 -2.37039578164E-04 +6.44409054466E-01 +6.28845251307E-01
2.57500000000E+09 +6.66247834402E-01 +5.33973762505E-01 -2.11472918847E-04 -1.46994952343E-04 -2.01074026029E-04 -8.49035534086E-05 +6.49831185962E-01 +6.21557569386E-01
2.58000000000E+09 +6.71501669858E-01 +5.25764717980E-01 -1.32344448133E-04 -1.18771313562E-04 -1.16301208978E-04 -8.90683048860E-05 +6.54824799262E-01 +6.14477704390E-01
2.58500000000E+09 +6.76119038672E-01 +5.17842089777E-01 -1.55945229338E-04 -1.49620586720E-04 -1.59849367155E-04 -1.03898856174E-04 +6.59944515143E-01 +6.06988836871E-01
2.59000000000E+09 +6.80321262827E-01 +5.10013620157E-01 -1.90940939870E-04 -7.95120330449E-05 -2.65428808789E-04 -6.04023012814E-05 +6.65011565945E-01 +5.99368737446E-01
2.59500000000E+09 +6.84311065415E-01 +5.02110195953E-01 -2.09931942167E-04 -1.87775372604E-05 -1.94583481902E-04 -2.13360286776E-05 +6.70282954187E-01 +5.91436154056E-01
2.60000000000E+09 +6.88008530409E-01 +4.93771240932E-01 -1.68287596008E-04 +1.16312766415E-04 -1.11554801594E-04 +9.26947905984E-05 +6.75755062707E-01 +5.82849018004E-01
2.60500000000E+09 +6.92070961842E-01 +4.84739575463E-01 +3.90961918388E-06 +6.63703799896E-05 -2.13935957353E-05 +6.05354532730E-05 +6.81283137701E-01 +5.73990314021E-01
2.61000000000E+09 +6.96604935102E-01 +4.74622963759E-01 -5.16105073691E-05 -4.03091512619E-05 -2.58537443959E-05 -3.62398954020E-05 +6.86276069280E-01 +5.64907915620E-01
2.61500000000E+09 +7.01259903290E-01 +4.63372228171E-01 -1.35432044569E-04 -5.01312054558E-05 -1.51990495902E-04 -9.64459602050E-05 +6.90937493385E-01 +5.56342467339E-01
2.62000000000E+09 +7.05981319133E-01 +4.51014889649E-01 -1.40715542203E-04 +8.49178773675E-05 -1.49094581587E-04 +4.33677289795E-05 +6.95460235864E-01 +5.47494157331E-01
2.62500000000E+09 +7.10765475415E-01 +4.37756482193E-01 -1.77254257832E-06 +1.08566139796E-04 -3.76411094423E-05 +1.25510601816E-04 +7.00014124652E-01 +5.38628816492E-01
2.63000000000E+09 +7.15095164927E-01 +4.24384619158E-01 +4.69566877103E-05 -3.20467336696E-05 +5.50612355255E-05 -6.49624223088E-05 +7.04435783383E-01 +5.29426935303E-01
2.63500000000E+09 +7.18969547138E-01 +4.11279956158E-01 -1.00006035442E-04 -4.65934902240E-05 -7.58239968581E-05 -3.99686008532E-05 +7.08933930843E-01 +5.20173724820E-01
2.64000000000E+09 +7.22684142349E-01 +3.98763949075E-01 -6.36836406158E-05 +7.12301049040E-05 -8.87995203353E-05 +5.91116410531E-05 +7.13639986822E-01 +5.10609708488E-01
2.64500000000E+09 +7.26057607307E-01 +3.87198322363E-01 +4.47251809989E-05 +7.97104229297E-05 +1.27656485726E-05 +7.63822125331E-05 +7.17966847009E-01 +5.01052871787E-01
2.65000000000E+09 +7.29107640192E-01 +3.76325074403E-01 +7.55909254557E-05 -5.10120119190E-05 +1.30713868600E-04 -2.44270820311E-05 +7.22255496361E-01 +4.91169360355E-01
2.65500000000E+09 +7.32266042270E-01 +3.65670217420E-01 -5.40891673407E-05 -2.08021829875E-04 -5.86835570985E-05 -2.37615812051E-04 +7.25957599238E-01 +4.80786535118E-01
2.66000000000E+09 +7.35413447168E-01 +3.55161937323E-01 -1.90811488965E-04 -3.03020112846E-05 -1.93121639084E-04 -2.32104810762E-05 +7.29764162054E-01 +4.69883167661E-01
2.66500000000E+09 +7.38614264289E-01 +3.44462096855E-01 -1.13453921467E-04 -2.28604733954E-05 -1.71459871054E-04 +4.53480420104E-05 +7.34120475596E-01 +4.58885206456E-01
2.67000000000E+09 +7.41766874825E-01 +3.32572482293E-01 -1.21375092091E-04 +1.20278619295E-04 -9.17390883973E-05 +1.03193539890E-04 +7.38478668275E-01 +4.47977500280E-01
2.67500000000E+09 +7.44301523168E-01 +3.19498466606E-01 +2.55726108337E-05 +3.32708672693E-05 -2.03535547820E-05 +4.86177880602E-06 +7.42603879933E-01 +4.36635323819E-01
2.68000000000E+09 +7.45824481901E-01 +3.05654203759E-01 -1.22524455590E-04 -2.95506223110E-05 -1.00917911059E-04 -5.94464659570E-05 +7.46185191058E-01 +4.25447162491E-01
2.68500000000E+09 +7.46882178939E-01 +2.91948751930E-01 -1.94680643166E-04 +5.60123855899E-05 -1.68026649631E-04 +4.77803954240E-05 +7.49019235880E-01 +4.14334526442E-01
2.69000000000E+09 +7.47885377298E-01 +2.77945301637E-01 -9.60023751139E-05 +2.02709044537E-04 -3.18224736177E-05 +2.18340655356E-04 +7.51576719039E-01 +4.02777926471E-01
2.69500000000E+09 +7.48497340787E-01 +2.64090575115E-01 +1.24749851075E-04 +9.11874554842E-05 +9.35808486569E-05 +6.84367198098E-05 +7.54159231430E-01 +3.90902911664E-01
2.70000000000E+09 +7.49193408386E-01 +2.50165324210E-01 +4.32973054258E-05 -6.82916318811E-05 +3.88049850904E-05 -6.98331986183E-05 +7.57162830796E-01 +3.77951172365E-01
2.70500000000E+09 +7.49653416566E-01 +2.36760748244E-01 -6.24010774131E-05 -3.67220788831E-05 -1.54503489478E-05 -4.41686927090E-05 +7.60066648272E-01 +3.65121584208E-01
2.71000000000E+09 +7.50228453333E-01 +2.23525135089E-01 -4.74071061523E-05 +7.65206635072E-06 -5.26288503647E-06 -4.97465491869E-06 +7.63061889245E-01 +3.52007190122E-01
2.71500000000E+09 +7.51271652370E-01 +2.09953163894E-01 +2.30644326690E-05 +3.58137547206E-05 +1.50338494648E-05 +5.65773513594E-05 +7.65317136531E-01 +3.39363562182E-01
2.72000000000E+09 +7.52114784058E-01 +1.95903546712E-01 +9.48382859833E-05 -7.06158495567E-05 +3.62755875663E-05 -7.67228195498E-05 +7.67196552478E-01 +3.27141997343E-01
2.72500000000E+09 +7.52460898645E-01 +1.80863578372E-01 -1.64081460089E-05 -1.83943256051E-04 -9.05153509105E-05 -1.11318177093E-04 +7.68920457459E-01 +3.14011034981E-01
2.73000000000E+09 +7.51643701919E-01 +1.64840438211E-01 -1.06057064050E-04 -2.25162154152E-05 -8.79790415501E-05 -1.78964320829E-05 +7.70254693801E-01 +3.00104303591E-01
2.73500000000E+09 +7.49480872011E-01 +1.48257311637E-01 +2.88764474177E-05 -1.03611823501E-04 +4.60616814948E-05 -1.18873752390E-04 +7.71379300715E-01 +2.85279146233E-01
2.74000000000E+09 +7.46310810992E-01 +1.31823631982E-01 -1.60837816275E-04 -1.30295005330E-04 -1.06207026165E-04 -1.68364402170E-04 +7.72614137582E-01 +2.70501265228E-01
2.74500000000E+09 +7.42357295197E-01 +1.15147920527E-01 -1.92328557140E-04 -1.47079735301E-04 -1.61141115414E-04 -1.63425193306E-04 +7.73624505228E-01 +2.55474859761E-01
2.75000000000E+09 +7.37662081607E-01 +9.85945345531E-02 -1.81713108076E-04 -1.11389199932E-04 -2.01845902563E-04 -1.52327671182E-04 +7.74644274237E-01 +2.40645215870E-01
2.75500000000E+09 +7.32702752686E-01 +8.19757700196E-02 -2.67748974429E-04 -1.08434963901E-04 -2.97169856462E-04 -1.69351555266E-04 +7.74551804916E-01 +2.25327194771E-01
2.76000000000E+09 +7.27822480025E-01 +6.55153928564E-02 -4.31292923301E-04 -1.08447665241E-04 -4.00364683770E-04 -1.21334330958E-04 +7.73563955175E-01 +2.10112431173E-01
2.76500000000E+09 +7.23313363113E-01 +4.89120627593E-02 -4.53879401491E-04 +1.00579717998E-04 -4.70052668806E-04 +1.16335813651E-04 +7.72612740366E-01 +1.94742680217E-01
2.77000000000E+09 +7.19147090853E-01 +3.15760686983E-02 -3.37572276084E-04 +2.00650615665E-04 -3.46220461070E-04 +2.49586917962E-04 +7.71965108237E-01 +1.78264334695E-01
2.77500000000E+09 +7.15249258509E-01 +1.33672952163E-02 -3.06595163253E-04 +2.53836334333E-04 -2.99156910302E-04 +2.72726392652E-04 +7.70923897895E-01 +1.60970956811E-01
2.78000000000E+09 +7.11390835096E-01 -5.84795167979E-03 -1.82424303222E-04 +1.86750142950E-04 -1.92830942701E-04 +2.18553775953E-04 +7.69404407094E-01 +1.43401028112E-01
2.78500000000E+09 +7.06605757767E-01 -2.60191336387E-02 -3.55875058920E-04 +1.51529387256E-04 -3.14056621835E-04 +1.91374771601E-04 +7.67265541409E-01 +1.26307878886E-01
2.79000000000E+09 +7.01015159250E-01 -4.65207002345E-02 -3.38973564415E-04 +4.04587381635E-04 -3.29154291691E-04 +3.59876575648E-04 +7.64922801952E-01 +1.09655601389E-01
2.79500000000E+09 +6.94121697279E-01 -6.65456990218E-02 -2.22283255591E-04 +4.79938358700E-04 -1.78143319633E-04 +4.46794015200E-04 +7.62062387358E-01 +9.14718356311E-02
2.80000000000E+09 +6.86048178679E-01 -8.61316956532E-02 -1.24905611048E-04 +4.41642859515E-04 -1.22547154439E-04 +4.70470133861E-04 +7.57788102297E-01 +7.26219889741E-02
2.80500000000E+09 +6.76887645052E-01 -1.04555031616E-01 -1.49089670582E-04 +4.24979491517E-04 -1.35391930961E-04 +4.17615116985E-04 +7.52919382160E-01 +5.36019117386E-02
2.81000000000E+09 +6.66717982506E-01 -1.21958939122E-01 -8.68307464227E-05 +5.45314519037E-04 -1.16380190590E-04 +5.55544326341E-04 +7.47506650057E-01 +3.37200762225E-02
2.81500000000E+09 +6.55937679367E-01 -1.38445158503E-01 +1.19282169540E-04 +5.17141641820E-04 +1.45351780952E-04 +5.13065074093E-04 +7.41330073481E-01 +1.34223346191E-02
2.82000000000E+09 +6.43869871407E-01 -1.54870068591E-01 +8.07455659439E-05 +3.55409929814E-04 +6.80615813131E-05 +4.06257227274E-04 +7.34286689300E-01 -6.96222813249E-03
2.82500000000E+09 +6.30566662188E-01 -1.70978146683E-01 -7.85036394128E-05 +4.42767235503E-04 -5.99509331382E-05 +4.33666497390E-04 +7.25758169592E-01 -2.81401785101E-02
2.83000000000E+09 +6.16323473406E-01 -1.88002366317E-01 +4.39918026377E-06 +7.82075778129E-04 +4.03865238861E-05 +7.34379655604E-04 +7.15781370829E-01 -4.86638495126E-02
2.83500000000E+09 +6.00359852760E-01 -2.06258716771E-01 +3.62387256965E-04 +8.97599198255E-04 +3.44757305331E-04 +8.35902056071E-04 +7.04998515501E-01 -6.86566791914E-02
2.84000000000E+09 +5.81310364060E-01 -2.24966542151E-01 +6.82630601972E-04 +5.04495405072E-04 +6.40095025856E-04 +5.52148031075E-04 +6.93805821953E-01 -8.92353022572E-02
2.84500000000E+09 +5.60489447099E-01 -2.43274640134E-01 +4.27497715551E-04 +3.75392142955E-04 +4.33024285927E-04 +4.20919739797E-04 +6.81434152426E-01 -1.10189604008E-01
2.85000000000E+09 +5.38310549522E-01 -2.61225217079E-01 +3.74918346565E-04 +5.42688406037E-04 +3.52090339132E-04 +5.68212315348E-04 +6.67218311520E-01 -1.30797048720E-01
2.85500000000E+09 +5.14973202936E-01 -2.78814785108E-01 +4.92179014930E-04 +8.53869854709E-04 +5.45014247481E-04 +8.56171504593E-04 +6.52450190200E-01 -1.50835518040E-01
2.86000000000E+09 +4.90812039781E-01 -2.95534652277E-01 +1.21274701144E-03 +8.02508497863E-04 +1.15794827679E-03 +7.85822083738E-04 +6.36288253985E-01 -1.71273154799E-01
2.86500000000E+09 +4.66013994761E-01 -3.10684042964E-01 +1.41870323266E-03 +9.03357528010E-05 +1.37346218095E-03 +1.03979195599E-04 +6.18540607943E-01 -1.91388403034E-01
2.87000000000E+09 +4.41251659031E-01 -3.24452790224E-01 +1.12644792837E-03 -1.70887059831E-04 +1.14785735955E-03 -2.18954319978E-04 +5.99455195107E-01 -2.11167646668E-01
2.87500000000E+09 +4.16914534309E-01 -3.36968765115E-01 +8.79123207217E-04 -1.53436209476E-04 +8.72186206970E-04 -1.89551764331E-04 +5.79192475289E-01 -2.30159770192E-01
2.88000000000E+09 +3.92060768556E-01 -3.48970368637E-01 +1.10391233516E-03 -7.83536291778E-06 +1.14336755189E-03 -6.72888377055E-05 +5.58563778951E-01 -2.48546931413E-01
2.88500000000E+09 +3.66004566360E-01 -3.59973034634E-01 +1.41222723972E-03 -3.67208850126E-04 +1.30331635681E-03 -4.01525945550E-04 +5.36166931737E-01 -2.66849474144E-01
2.89000000000E+09 +3.38885243667E-01 -3.69422735246E-01 +1.28035077369E-03 -8.54100040815E-04 +1.16667251721E-03 -7.79032637748E-04 +5.12812995224E-01 -2.84420805801E-01
2.89500000000E+09 +3.10759537466E-01 -3.77442964880E-01 +1.10802072056E-03 -1.09018372008E-03 +1.14894162583E-03 -1.01313729197E-03 +4.87601320372E-01 -3.03000549847E-01
2.90000000000E+09 +2.80871791736E-01 -3.84694922136E-01 +6.43038939665E-04 -1.21596020295E-03 +6.19013467580E-04 -1.17538244885E-03 +4.58803541343E-01 -3.20564640793E-01
2.90500000000E+09 +2.48843276293E-01 -3.89565243281E-01 +7.07308094608E-04 -1.19047737328E-03 +7.49774148606E-04 -1.21889420422E-03 +4.29126725536E-01 -3.35775062690E-01
2.91000000000E+09 +2.16801151014E-01 -3.91599721887E-01 +4.41465858678E-04 -1.69743833228E-03 +3.75195922463E-04 -1.70271869536E-03 +3.99281967307E-01 -3.50123371312E-01
2.91500000000E+09 +1.84662113126E-01 -3.92532566210E-01 -9.25389146135E-05 -1.49299795684E-03 -1.34709631809E-04 -1.39829369694E-03 +3.67527226871E-01 -3.63196877933E-01
2.92000000000E+09 +1.51930161956E-01 -3.91621125023E-01 -1.22147741370E-04 -1.38176060538E-03 -7.86275370254E-05 -1.21292823345E-03 +3.34008315205E-01 -3.73911344465E-01
2.92500000000E+09 +1.19003478288E-01 -3.88656526153E-01 -3.89748615938E-04 -1.59333852237E-03 -2.86204468208E-04 -1.50176293640E-03 +2.99114756026E-01 -3.82280687130E-01
2.93000000000E+09 +8.68884928747E-02 -3.83562416964E-01 -9.82339158596E-04 -1.45634609529E-03 -8.81370895387E-04 -1.38807609026E-03 +2.62926351280E-01 -3.89576660329E-01
2.93500000000E+09 +5.48432570588E-02 -3.77490863004E-01 -1.21883863509E-03 -6.70551866298E-04 -1.08426983215E-03 -7.42135538667E-04 +2.24087579340E-01 -3.95082870572E-01
2.94000000000E+09 +2.24977357683E-02 -3.68918834865E-01 -7.54430652405E-04 -3.28785143533E-04 -7.02975205551E-04 -4.12456072916E-04 +1.84536207103E-01 -3.97855914419E-01
2.94500000000E+09 -9.33022679898E-03 -3.57844493244E-01 -4.73645220617E-04 -7.69627180246E-04 -4.94831928380E-04 -7.71108116028E-04 +1.43433623987E-01 -3.98307535516E-01
2.95000000000E+09 -4.15240499509E-02 -3.44533271569E-01 -1.09807927307E-03 -8.52944275432E-04 -1.00247016698E-03 -8.59079304968E-04 +1.03629450016E-01 -3.94505614838E-01
2.95500000000E+09 -7.32413644516E-02 -3.27407929407E-01 -1.18938216332E-03 -3.01078680529E-04 -1.19562621229E-03 -3.99165994280E-04 +6.40781665986E-02 -3.89167802969E-01
2.96000000000E+09 -1.03021369734E-01 -3.07656909818E-01 -1.11338415972E-03 -2.09013344191E-04 -1.14091989106E-03 -2.69012114716E-04 +2.37313301855E-02 -3.80313460871E-01
2.96500000000E+09 -1.31535913288E-01 -2.86053521347E-01 -9.93051097041E-04 +6.34523428283E-05 -1.03073946261E-03 +5.18113503709E-05 -1.55949985185E-02 -3.69266801312E-01
2.97000000000E+09 -1.59655560027E-01 -2.62003054800E-01 -6.71450283711E-04 +5.35704406321E-05 -7.41479741031E-04 +4.31548381134E-05 -5.70626113363E-02 -3.55874314199E-01
2.97500000000E+09 -1.85637478278E-01 -2.35268502805E-01 -8.48514394654E-04 -1.55300077373E-04 -7.97542565263E-04 -1.35024753709E-04 -9.62234011690E-02 -3.37969331316E-01
2.98000000000E+09 -2.09731080122E-01 -2.07346212100E-01 -1.06890155164E-03 -3.38111995376E-05 -1.00157750934E-03 -1.23296349740E-05 -1.35157676781E-01 -3.18653512098E-01
2.98500000000E+09 -2.31980119284E-01 -1.78393346688E-01 -9.43217771558E-04 +2.63810489661E-04 -1.00214149698E-03 +2.77731631409E-04 -1.72312763577E-01 -2.95151206823E-01
2.99000000000E+09 -2.52617994512E-01 -1.48850583211E-01 -8.50943483304E-04 +2.66665118193E-06 -9.16016783089E-04 +5.14757269873E-05 -2.07508374658E-01 -2.68950192110E-01
2.99500000000E+09 -2.71731170383E-01 -1.18623094275E-01 -1.32091372386E-03 +2.30140591995E-04 -1.31320277279E-03 +2.55442485787E-04 -2.40731410611E-01 -2.38767635771E-01
3.00000000000E+09 -2.89029549134E-01 -8.75053604926E-02 -1.26701067042E-03 +8.35166149029E-04 -1.20717077894E-03 +9.30793643168E-04 -2.70357381079E-01 -2.07951032292E-01
3.00500000000E+09 -3.03894617256E-01 -5.65046756798E-02 -9.69463467153E-04 +9.53263721563E-04 -8.95201871649E-04 +9.41627907950E-04 -2.99994289446E-01 -1.74997572403E-01
3.01000000000E+09 -3.16605054052E-01 -2.54115350061E-02 -6.29163971548E-04 +1.19707246980E-03 -6.87812760194E-04 +1.11627094301E-03 -3.26000020641E-01 -1.39995890401E-01
3.01500000000E+09 -3.26677582066E-01 +5.42003365438E-03 -3.86207061937E-04 +1.19520394774E-03 -3.32362654783E-04 +1.23335795916E-03 -3.49875584042E-01 -1.03487111749E-01
3.02000000000E+09 -3.33991775044E-01 +3.68314163204E-02 -1.70067146575E-04 +1.19206368551E-03 -1.86657078977E-04 +1.18057365235E-03 -3.69693508232E-01 -6.55202755590E-02
3.02500000000E+09 -3.37784338749E-01 +6.70472218121E-02 +2.19228751710E-04 +1.11828010299E-03 +2.01661225640E-04 +1.10530339203E-03 -3.86367739802E-01 -2.66398002334E-02
3.03000000000E+09 -3.39558919126E-01 +9.67718416378E-02 +1.55222519310E-04 +6.60543825213E-04 +1.90549060549E-04 +6.61982615950E-04 -3.99645441568E-01 +1.25881934187E-02
3.03500000000E+09 -3.38767804028E-01 +1.26383695271E-01 -8.06457544634E-05 +9.94578230636E-04 -7.80509509260E-05 +1.00150681452E-03 -4.10178539481E-01 +5.15972559000E-02
3.04000000000E+09 -3.35792663937E-01 +1.56063763510E-01 +3.47355966823E-04 +7.99115970570E-04 +3.42358401239E-04 +8.54666294023E-04 -4.18890324239E-01 +9.05566719489E-02
3.04500000000E+09 -3.30258098294E-01 +1.85741602873E-01 +1.61978719746E-04 +1.08086077551E-03 +1.72084641130E-04 +1.13633728509E-03 -4.24695911902E-01 +1.29614446039E-01
3.05000000000E+09 -3.22846073139E-01 +2.15009778852E-01 +8.81703531053E-04 +1.00999979477E-03 +9.14034347978E-04 +1.04174525590E-03 -4.27959265057E-01 +1.68134644752E-01
3.05500000000E+09 -3.13413128886E-01 +2.43585015572E-01 +8.97460102556E-04 +5.74942217440E-04 +9.62021204191E-04 +4.94272801207E-04 -4.28837583752E-01 +2.05707875450E-01
3.06000000000E+09 -3.03474451374E-01 +2.71100163970E-01 +9.28509386920E-04 +1.83853610902E-04 +9.01404822120E-04 +1.11792250654E-04 -4.27519320209E-01 +2.43462169528E-01
3.06500000000E+09 -2.92360660022E-01 +2.98752975284E-01 +5.95274342195E-04 +2.77239880529E-05 +6.18367978709E-04 +2.41235384773E-05 -4.24025133132E-01 +2.80328731603E-01
3.07000000000E+09 -2.79721538298E-01 +3.24654103608E-01 +5.58152385794E-04 +2.87400785705E-04 +4.74066126483E-04 +2.54665710639E-04 -4.17878297326E-01 +3.15972647861E-01
