# Hz S RI R 50
! CMT, C1220, 16058040, 17.2.0/1
! Date: 15/08/2018 10:16:43
! Data: Format (Calibration Info)
! Freq                      S11: Re/Im (F2)                       S21: Re/Im (F2)                       S12: Re/Im (F2)                       S22: Re/Im (F2)            
2.50000000000E+09 +5.96792078057E-01 +6.33430933608E-01 -1.47001254010E-04 +1.75396547286E-04 -1.13622586484E-04 +1.94516231185E-04 +5.73106123098E-01 +7.16765932252E-01
2.50500000000E+09 +6.03154443537E-01 +6.25567652986E-01 -2.56795958509E-05 +1.67453200949E-04 -3.29729782795E-05 +2.60827649393E-04 +5.78645866415E-01 +7.11169850548E-01
2.51000000000E+09 +6.09589417680E-01 +6.17274309281E-01 +2.74849126063E-05 +1.73924071253E-04 +2.44002792945E-05 +2.12463970970E-04 +5.83993981308E-01 +7.05954000442E-01
2.51500000000E+09 +6.15785029741E-01 +6.09402100785E-01 -9.85070943542E-07 +2.16374549356E-04 +3.64109946599E-06 +2.04095610838E-04 +5.89301778597E-01 +7.00882802235E-01
2.52000000000E+09 +6.21573816334E-01 +6.01435316144E-01 +7.14777771823E-05 +2.02877906488E-04 +7.31639936368E-05 +1.86862370256E-04 +5.94481870471E-01 +6.94793097293E-01
2.52500000000E+09 +6.26798161846E-01 +5.94109981554E-01 +5.10219232452E-05 +1.46438756095E-04 +5.74671169907E-05 +1.01810353378E-04 +6.00066899597E-01 +6.88443486801E-01
2.53000000000E+09 +6.31411764998E-01 +5.87270070289E-01 +1.78949081993E-05 +1.35038589621E-04 +9.10071668291E-05 +1.68774385979E-04 +6.06090094869E-01 +6.81611559265E-01
2.53500000000E+09 +6.35830143934E-01 +5.81068830308E-01 +5.50264834853E-05 +1.59254708088E-04 +4.05757309987E-05 +1.49523908755E-04 +6.12131680055E-01 +6.74801954796E-01
2.54000000000E+09 +6.39896413954E-01 +5.74965016611E-01 +3.03499255959E-05 +2.05472290873E-04 +4.73531390696E-05 +2.06073769491E-04 +6.17968842698E-01 +6.68053188213E-01
2.54500000000E+09 +6.43904624116E-01 +5.69115793802E-01 +1.38426015794E-04 +2.79471345877E-04 +8.51911053924E-05 +2.38213722596E-04 +6.23748573631E-01 +6.61667036658E-01
2.55000000000E+09 +6.48759374317E-01 +5.63176690274E-01 +2.21046786727E-04 +2.10160093466E-04 +2.07929465398E-04 +1.89099026726E-04 +6.29077516603E-01 +6.55447748389E-01
2.55500000000E+09 +6.54083461773E-01 +5.56210999325E-01 +2.99557821003E-04 +8.03887355136E-05 +3.44001496934E-04 +1.13389342070E-04 +6.34372786472E-01 +6.49052225039E-01
2.56000000000E+09 +6.60000266888E-01 +5.48970867634E-01 +2.04842271749E-04 -5.62283688457E-05 +3.05579603388E-04 -8.04415578755E-05 +6.39654806882E-01 +6.41833868428E-01
2.56500000000E+09 +6.66298919829E-01 +5.40575503908E-01 +3.99963444875E-05 -3.55569548344E-05 +2.36026631522E-06 -5.28856364097E-05 +6.45243423805E-01 +6.34295026883E-01
2.57000000000E+09 +6.72340585266E-01 +5.31664846430E-01 +9.70583961050E-05 +1.21064902499E-04 +7.94152802821E-05 +9.89782424772E-05 +6.50740987269E-01 +6.26381197896E-01
2.57500000000E+09 +6.78268983772E-01 +5.22766011313E-01 +1.40274742207E-04 +1.16643131484E-04 +1.33770474830E-04 +4.39982366445E-05 +6.56069662643E-01 +6.18738850286E-01
2.58000000000E+09 +6.83582745876E-01 +5.14010236543E-01 +2.41527621961E-04 +1.19426979610E-04 +1.76832502254E-04 +9.38541222942E-05 +6.61016341379E-01 +6.11478536507E-01
2.58500000000E+09 +6.88518744591E-01 +5.05092294870E-01 +2.37686572102E-04 -3.21900962121E-05 +2.50002082418E-04 -4.33537021000E-06 +6.66002029597E-01 +6.03911999289E-01
2.59000000000E+09 +6.93088210705E-01 +4.96607944201E-01 +1.50799035926E-04 -5.40863895669E-05 +1.28785835780E-04 -4.83511654942E-05 +6.70707674811E-01 +5.96375005455E-01
2.59500000000E+09 +6.97261724802E-01 +4.88039824450E-01 +1.38200740127E-04 +3.60986456770E-05 +9.80855934435E-05 +9.96119577250E-05 +6.75693968199E-01 +5.88480433211E-01
2.60000000000E+09 +7.00915263839E-01 +4.79399128019E-01 +2.17002581454E-04 +9.44011381465E-06 +1.91834812606E-04 +5.07641073524E-05 +6.80883597389E-01 +5.79832844580E-01
2.60500000000E+09 +7.05007229319E-01 +4.70212522710E-01 +1.45103576124E-04 -4.88456554973E-05 +1.40452624326E-04 +1.64529229901E-05 +6.86097973517E-01 +5.71151812813E-01
2.61000000000E+09 +7.09086619130E-01 +4.60112383596E-01 +2.17562482986E-04 -2.37336202884E-05 +2.02994505837E-04 +4.69112986300E-06 +6.91324331677E-01 +5.62391925332E-01
2.61500000000E+09 +7.13734029661E-01 +4.48844641800E-01 +7.86513716406E-05 -6.57587111919E-05 +1.49944883550E-04 -7.64068436812E-05 +6.96012072944E-01 +5.53585265794E-01
2.62000000000E+09 +7.17603153539E-01 +4.36217671071E-01 +5.75052028164E-05 -6.27116304192E-05 +9.68741324441E-05 -6.02875185254E-05 +7.00872939804E-01 +5.44537098563E-01
2.62500000000E+09 +7.21301161578E-01 +4.23125923875E-01 +1.26492858364E-04 -1.96136276118E-05 +1.16010428812E-04 -1.92059975706E-05 +7.05524867293E-01 +5.35552914276E-01
2.63000000000E+09 +7.24842692515E-01 +4.09864498034E-01 +8.47867062437E-05 +1.06208698613E-05 +1.02520066975E-04 +6.39347391568E-06 +7.10448158861E-01 +5.26400247301E-01
2.63500000000E+09 +7.27885526901E-01 +3.96538810447E-01 +1.75551361241E-04 +1.02510933395E-04 +1.60780085422E-04 +1.23362781326E-05 +7.15433847677E-01 +5.17017523968E-01
2.64000000000E+09 +7.30533391145E-01 +3.83763200005E-01 +2.29995348035E-04 -2.80524421781E-05 +1.87694368610E-04 -2.18851613327E-05 +7.20300764844E-01 +5.07146853429E-01
2.64500000000E+09 +7.33364617800E-01 +3.71975936543E-01 +1.42459424608E-04 +2.55831101048E-05 +1.14564912804E-04 -4.45913971915E-06 +7.24995538750E-01 +4.97176501104E-01
2.65000000000E+09 +7.35457585075E-01 +3.60726384291E-01 +2.87966640651E-04 +1.83634173489E-06 +2.56546444751E-04 +9.73146567090E-06 +7.29329388376E-01 +4.87180195588E-01
2.65500000000E+09 +7.37747403569E-01 +3.50014647736E-01 +3.37967789940E-04 -5.52559339690E-05 +3.18677416986E-04 -2.27015778091E-06 +7.33207512314E-01 +4.76638478406E-01
2.66000000000E+09 +7.40609945396E-01 +3.39296770168E-01 +2.96185648926E-04 -1.06752750732E-04 +2.69839892822E-04 -1.06154877544E-04 +7.37106314370E-01 +4.65474127966E-01
2.66500000000E+09 +7.43115663134E-01 +3.28145042915E-01 +4.50788994958E-04 -1.58119594573E-04 +4.29879591788E-04 -2.01967169243E-04 +7.40970929217E-01 +4.54108908254E-01
2.67000000000E+09 +7.45127732409E-01 +3.16135960969E-01 +3.22368870513E-04 -4.49342964584E-04 +3.37340618377E-04 -4.66803170897E-04 +7.45175783836E-01 +4.43468393546E-01
2.67500000000E+09 +7.46879440754E-01 +3.03610152346E-01 +1.15822565027E-04 -3.78819105375E-04 +1.50394565028E-04 -3.36110325980E-04 +7.49572230341E-01 +4.32108117081E-01
2.68000000000E+09 +7.48108218608E-01 +2.90254732159E-01 +1.39949249254E-04 -3.02317395755E-04 +1.55280741552E-04 -2.53814225894E-04 +7.53161030052E-01 +4.20536189461E-01
2.68500000000E+09 +7.48740864240E-01 +2.76331610117E-01 +2.00038153010E-04 -3.89928909542E-04 +2.14262533495E-04 -3.77270025463E-04 +7.55891659628E-01 +4.09001308293E-01
2.69000000000E+09 +7.48988806964E-01 +2.62200037009E-01 +1.11501587130E-04 -4.59333076673E-04 +7.64845112504E-05 -4.62001557573E-04 +7.58286918330E-01 +3.97131342318E-01
2.69500000000E+09 +7.48877713979E-01 +2.48019212662E-01 +9.09547135355E-05 -4.27883422223E-04 +9.64984109285E-05 -4.11999891997E-04 +7.60610649646E-01 +3.84681049142E-01
2.70000000000E+09 +7.48791589643E-01 +2.34446021352E-01 +9.90853500977E-05 -4.80130169821E-04 +1.08102222884E-04 -4.63731696148E-04 +7.63728888842E-01 +3.71339782825E-01
2.70500000000E+09 +7.49041456863E-01 +2.21249907757E-01 +9.69218070032E-05 -6.09301601522E-04 +7.88951088017E-05 -6.08814218382E-04 +7.66322731576E-01 +3.57732682718E-01
2.71000000000E+09 +7.49939205215E-01 +2.08147999005E-01 -1.45373278053E-04 -6.89549464722E-04 -1.38193041057E-04 -7.25230277222E-04 +7.68944553490E-01 +3.44762826240E-01
2.71500000000E+09 +7.51364569138E-01 +1.94264868956E-01 -4.00841111557E-04 -5.32374863834E-04 -4.08873604223E-04 -5.88387624304E-04 +7.71482854615E-01 +3.32071774506E-01
2.72000000000E+09 +7.52422179233E-01 +1.79794043950E-01 -3.71637873646E-04 -3.48560492967E-04 -4.16849308179E-04 -3.36029767146E-04 +7.73367861430E-01 +3.19368568039E-01
2.72500000000E+09 +7.53034910122E-01 +1.64405421984E-01 -2.32343387448E-04 -3.31878990118E-04 -2.01674674574E-04 -3.09854874686E-04 +7.74420916443E-01 +3.06013460383E-01
2.73000000000E+09 +7.52585967038E-01 +1.48623679216E-01 -1.95583626647E-04 -5.39107539342E-04 -2.58789236129E-04 -5.29725722208E-04 +7.75564304816E-01 +2.92321651329E-01
2.73500000000E+09 +7.50795216194E-01 +1.32015203276E-01 -4.49645139340E-04 -5.73027407429E-04 -3.95141258880E-04 -5.17757478995E-04 +7.76666289377E-01 +2.77821689976E-01
2.74000000000E+09 +7.48201226841E-01 +1.15743522405E-01 -7.75909630520E-04 -3.93705875932E-04 -6.25745580535E-04 -4.14004708384E-04 +7.78126039655E-01 +2.62749097155E-01
2.74500000000E+09 +7.44822202601E-01 +9.87576817067E-02 -7.08065890559E-04 -1.06334943333E-04 -6.50043358583E-04 -1.97696904508E-04 +7.79115098793E-01 +2.47485024078E-01
2.75000000000E+09 +7.39700823631E-01 +8.18614629210E-02 -4.70712263461E-04 -6.42787313065E-05 -4.91201712856E-04 -1.18875280058E-04 +7.79939907036E-01 +2.32722617116E-01
2.75500000000E+09 +7.34275456035E-01 +6.56726513748E-02 -4.42402115846E-04 -2.94195373345E-04 -4.14168753003E-04 -4.03424288232E-04 +7.80120804830E-01 +2.17149919181E-01
2.76000000000E+09 +7.29164948631E-01 +4.97570889131E-02 -7.55828850310E-04 -2.97655827433E-04 -7.86443640839E-04 -3.01000158006E-04 +7.79359217410E-01 +2.01751015207E-01
2.76500000000E+09 +7.24486298938E-01 +3.30925640997E-02 -8.89370364745E-04 -2.01273681731E-05 -9.52975634884E-04 -5.36496404555E-05 +7.78441811698E-01 +1.84996727577E-01
2.77000000000E+09 +7.19801442025E-01 +1.56711405643E-02 -7.69730035551E-04 +1.97488066937E-04 -8.03630920542E-04 +1.96213740594E-04 +7.77119089614E-01 +1.67350247540E-01
2.77500000000E+09 +7.15044968176E-01 -2.98168481951E-03 -6.67818350332E-04 +1.88508473924E-04 -7.11322611114E-04 +2.16104573221E-04 +7.75062940806E-01 +1.49402927351E-01
2.78000000000E+09 +7.09570761258E-01 -2.19552146142E-02 -8.35741935843E-04 +3.02818614670E-04 -8.39648900148E-04 +3.58716995526E-04 +7.73065427841E-01 +1.31588887790E-01
2.78500000000E+09 +7.03597193889E-01 -4.17096285236E-02 -5.99583367197E-04 +4.19457198660E-04 -5.87158871209E-04 +4.46523114966E-04 +7.70585343149E-01 +1.13820153418E-01
2.79000000000E+09 +6.97017303326E-01 -6.17755618937E-02 -6.80842251225E-04 +3.99754465631E-04 -6.41081931277E-04 +3.98110295662E-04 +7.67124916830E-01 +9.62319672651E-02
2.79500000000E+09 +6.88983318957E-01 -8.24413613356E-02 -6.24077920699E-04 +6.64852267923E-04 -5.93494359823E-04 +6.26476873863E-04 +7.62805604966E-01 +7.85138226378E-02
2.80000000000E+09 +6.78905147745E-01 -1.02130686501E-01 -3.43231671374E-04 +7.38600635807E-04 -3.49777835950E-04 +6.74465415572E-04 +7.57967329112E-01 +6.02412269473E-02
2.80500000000E+09 +6.67902914351E-01 -1.20117195606E-01 -2.52439856124E-04 +4.56432644992E-04 -1.64410824762E-04 +5.51932161267E-04 +7.52084978689E-01 +4.10263686619E-02
2.81000000000E+09 +6.56880505055E-01 -1.37066505776E-01 -3.66753472632E-04 +3.19555622669E-04 -3.34044691979E-04 +3.33280804669E-04 +7.45315014871E-01 +2.18414344712E-02
2.81500000000E+09 +6.44788273673E-01 -1.54073984695E-01 -5.68414205446E-04 +4.05332023737E-04 -5.60723410641E-04 +4.45901493044E-04 +7.38003897066E-01 +2.77100184636E-03
2.82000000000E+09 +6.31737588841E-01 -1.70468975125E-01 -7.78409878745E-04 +8.23595744936E-04 -6.69437809753E-04 +8.08187481194E-04 +7.30584720012E-01 -1.66876582738E-02
2.82500000000E+09 +6.17788638249E-01 -1.87246524999E-01 -2.90680019489E-04 +1.10836707183E-03 -1.98693399149E-04 +1.04919518929E-03 +7.21363894875E-01 -3.65455711451E-02
2.83000000000E+09 +6.01906354583E-01 -2.04131588148E-01 -6.12864532639E-05 +9.61490971605E-04 -2.23531348721E-05 +8.75247374565E-04 +7.11578256063E-01 -5.56769555958E-02
2.83500000000E+09 +5.85231431556E-01 -2.21211506518E-01 -5.97859671215E-05 +9.02159716232E-04 -3.06590404683E-05 +8.29064711583E-04 +7.00844530727E-01 -7.54046416784E-02
2.84000000000E+09 +5.67203773587E-01 -2.39455677878E-01 +3.27429123102E-05 +8.56668133041E-04 +2.19546540930E-05 +8.40677243146E-04 +6.89730001640E-01 -9.50542020586E-02
2.84500000000E+09 +5.46807285269E-01 -2.58352689750E-01 -9.09175051617E-05 +9.17082581919E-04 -1.53465828191E-04 +8.55931642084E-04 +6.77861036391E-01 -1.15412311240E-01
2.85000000000E+09 +5.24360996449E-01 -2.76933978669E-01 +1.90553939476E-04 +1.32146585715E-03 +1.52368704304E-04 +1.33851177772E-03 +6.64557362383E-01 -1.35921940783E-01
2.85500000000E+09 +5.00282816652E-01 -2.94628170808E-01 +6.66558368962E-04 +8.53272198926E-04 +5.85476139834E-04 +8.20770074539E-04 +6.50066281297E-01 -1.56057194719E-01
2.86000000000E+09 +4.75893298648E-01 -3.10884526822E-01 +2.37550382084E-04 +7.99291264589E-04 +1.97798912416E-04 +7.78238977760E-04 +6.34696381393E-01 -1.76420383723E-01
2.86500000000E+09 +4.51235644373E-01 -3.26276271894E-01 +2.66217335446E-04 +1.30264218403E-03 +2.44545068649E-04 +1.29240593622E-03 +6.17754410208E-01 -1.96948484653E-01
2.87000000000E+09 +4.26295716816E-01 -3.41002870454E-01 +9.74488371010E-04 +1.20596480570E-03 +9.98610562587E-04 +1.22440457595E-03 +5.99166147504E-01 -2.17464881120E-01
2.87500000000E+09 +4.00500757652E-01 -3.54717736891E-01 +1.13713620742E-03 +9.70016748902E-04 +1.15943853055E-03 +9.37455249065E-04 +5.78840350362E-01 -2.37102269292E-01
2.88000000000E+09 +3.73680930666E-01 -3.66770600285E-01 +1.10115708535E-03 +6.57496274979E-04 +1.09975115832E-03 +6.22325861733E-04 +5.58270257564E-01 -2.55977830477E-01
2.88500000000E+09 +3.46420800605E-01 -3.77156303846E-01 +1.14629185720E-03 +7.26342284983E-04 +1.12617645294E-03 +7.46061566447E-04 +5.35934591819E-01 -2.75505544185E-01
2.89000000000E+09 +3.18489617423E-01 -3.86232631913E-01 +1.27543140635E-03 +5.19201425436E-04 +1.24046758649E-03 +5.85252818610E-04 +5.10687286791E-01 -2.93662811075E-01
2.89500000000E+09 +2.88750911626E-01 -3.94390800049E-01 +1.40747361797E-03 +6.27330305105E-04 +1.32033839599E-03 +7.89645578752E-04 +4.84052083828E-01 -3.11230026748E-01
2.90000000000E+09 +2.57134523006E-01 -4.00266946171E-01 +1.98274525747E-03 +4.07992104638E-04 +2.00579487213E-03 +4.93379109588E-04 +4.55092704068E-01 -3.28026457691E-01
2.90500000000E+09 +2.23698984016E-01 -4.03987727446E-01 +1.85754618354E-03 -2.99814783936E-04 +1.90320291638E-03 -3.16271039124E-04 +4.24517122517E-01 -3.43343258458E-01
2.91000000000E+09 +1.89097468610E-01 -4.04357974369E-01 +1.75524051935E-03 -1.63211217987E-04 +1.78662679637E-03 -2.67635955461E-04 +3.93381225004E-01 -3.56855519359E-01
2.91500000000E+09 +1.55023297406E-01 -4.02392769987E-01 +2.28353197229E-03 -7.65342279548E-04 +2.16871658707E-03 -8.22662583333E-04 +3.61387484537E-01 -3.68455901269E-01
2.92000000000E+09 +1.20460395347E-01 -3.99122580841E-01 +1.51609488275E-03 -1.72922010563E-03 +1.46443606829E-03 -1.62426938991E-03 +3.28483412403E-01 -3.78751210122E-01
2.92500000000E+09 +8.46419829218E-02 -3.93702311110E-01 +7.77300058600E-04 -1.28917392127E-03 +8.01957785042E-04 -1.19630014899E-03 +2.93067114626E-01 -3.87555469781E-01
2.93000000000E+09 +4.97268950264E-02 -3.84453255435E-01 +9.95180219589E-04 -8.39848720886E-04 +9.92797613478E-04 -8.23334848146E-04 +2.55757034194E-01 -3.93310299099E-01
2.93500000000E+09 +1.65458996528E-02 -3.74145389629E-01 +1.38129722949E-03 -1.23150224830E-03 +1.39317726186E-03 -1.18402499007E-03 +2.17994729258E-01 -3.97886043670E-01
2.94000000000E+09 -1.68491412957E-02 -3.62674924028E-01 +1.21181229878E-03 -1.73321315950E-03 +1.17634436838E-03 -1.76609603786E-03 +1.78715294982E-01 -4.00126348339E-01
2.94500000000E+09 -5.03181375328E-02 -3.48961560026E-01 +6.89374758244E-04 -2.04343533766E-03 +6.59585469950E-04 -1.99534407965E-03 +1.39448412768E-01 -4.00309200872E-01
2.95000000000E+09 -8.36902325301E-02 -3.31793463125E-01 +2.55244014086E-04 -1.99911930348E-03 +3.04747333545E-04 -1.91297442780E-03 +9.98426042597E-02 -3.97857044638E-01
2.95500000000E+09 -1.15345535064E-01 -3.10715299733E-01 +4.02991179009E-04 -1.97407199231E-03 +4.84536037731E-04 -1.92160943335E-03 +5.98365420816E-02 -3.92265892419E-01
2.96000000000E+09 -1.44341049541E-01 -2.87393879701E-01 -2.33314730256E-04 -2.52685227279E-03 -2.91534314787E-04 -2.65303674687E-03 +1.98261916228E-02 -3.83453133341E-01
2.96500000000E+09 -1.71851683441E-01 -2.62385005069E-01 -1.01535401059E-03 -2.02204943858E-03 -1.08912993982E-03 -2.03893326026E-03 -2.05151794854E-02 -3.72333991907E-01
2.97000000000E+09 -1.98057582557E-01 -2.35178318015E-01 -1.06457634080E-03 -1.55311350046E-03 -1.10464647807E-03 -1.50422158228E-03 -6.22490886857E-02 -3.57775922953E-01
2.97500000000E+09 -2.22727185541E-01 -2.05528140213E-01 -9.55051253445E-04 -1.41916344256E-03 -9.22446167080E-04 -1.35063896658E-03 -1.01307933616E-01 -3.39156414819E-01
2.98000000000E+09 -2.44862746842E-01 -1.74008920782E-01 -1.18759214136E-03 -1.58623975099E-03 -1.05895196649E-03 -1.55328499269E-03 -1.39627600870E-01 -3.19753838039E-01
2.98500000000E+09 -2.64890786512E-01 -1.42029994708E-01 -1.45020982285E-03 -1.30365781135E-03 -1.46112562484E-03 -1.40645037449E-03 -1.76365510199E-01 -2.96095700754E-01
2.99000000000E+09 -2.83256893297E-01 -1.09400102967E-01 -1.65536879369E-03 -1.05862725142E-03 -1.71244893699E-03 -1.01729834345E-03 -2.11460228857E-01 -2.71109048309E-01
2.99500000000E+09 -3.00035651372E-01 -7.63536839704E-02 -1.63417757057E-03 -8.88031008943E-04 -1.70265403379E-03 -9.08703969776E-04 -2.45365549009E-01 -2.41940377904E-01
3.00000000000E+09 -3.14905210890E-01 -4.30904603410E-02 -1.91368408073E-03 -6.42968581884E-04 -1.89164323421E-03 -5.68714262929E-04 -2.76720289699E-01 -2.10065468121E-01
3.00500000000E+09 -3.27237119238E-01 -9.43647462199E-03 -2.05626847623E-03 -3.32303815250E-04 -1.93071858823E-03 -3.18342007579E-04 -3.05693605986E-01 -1.76898474289E-01
3.01000000000E+09 -3.36555077439E-01 +2.34742111906E-02 -2.22722665758E-03 -1.67022104580E-04 -2.12927466793E-03 -2.28344672741E-04 -3.32994816206E-01 -1.41556368900E-01
3.01500000000E+09 -3.43600376894E-01 +5.61154679913E-02 -2.19462007705E-03 +6.59325444173E-04 -2.21061331559E-03 +5.71625180139E-04 -3.56901844604E-01 -1.04267594063E-01
3.02000000000E+09 -3.47297758781E-01 +8.82574416097E-02 -1.48972883295E-03 +8.39441342219E-04 -1.58434565631E-03 +7.16290346255E-04 -3.76747724401E-01 -6.58757786230E-02
3.02500000000E+09 -3.48312262509E-01 +1.19691041734E-01 -1.48887603010E-03 +6.25352197270E-04 -1.64617570678E-03 +5.58706209722E-04 -3.92917713580E-01 -2.65697061547E-02
3.03000000000E+09 -3.46502346431E-01 +1.50877979086E-01 -1.70365924153E-03 +8.32488668091E-04 -1.73276772941E-03 +7.49349774283E-04 -4.06993482545E-01 +1.22042705348E-02
3.03500000000E+09 -3.41556948936E-01 +1.81870849639E-01 -1.84299595297E-03 +1.29168222919E-03 -1.91329420144E-03 +1.20484024232E-03 -4.19323834838E-01 +5.27782910127E-02
3.04000000000E+09 -3.34031019341E-01 +2.11779526165E-01 -1.40641825157E-03 +1.95391173749E-03 -1.42911295253E-03 +1.95041381673E-03 -4.27657200223E-01 +9.43440987244E-02
3.04500000000E+09 -3.25009259626E-01 +2.41063086281E-01 -5.35878305002E-04 +1.90206055202E-03 -5.85720451351E-04 +2.02764861931E-03 -4.33030845113E-01 +1.35197135096E-01
3.05000000000E+09 -3.14301954590E-01 +2.70523385161E-01 -3.46248357055E-04 +1.51144037923E-03 -3.28788906350E-04 +1.68298080254E-03 -4.35675306665E-01 +1.75259780020E-01
3.05500000000E+09 -3.01697505455E-01 +2.99097138808E-01 -3.67495556780E-04 +1.66551502725E-03 -2.17172243955E-04 +1.73678797566E-03 -4.35707785740E-01 +2.14762651156E-01
3.06000000000E+09 -2.88177318693E-01 +3.26457970866E-01 -2.06423997610E-04 +1.82924724898E-03 -9.96788231439E-05 +1.77282205416E-03 -4.32717073018E-01 +2.53679736421E-01
3.06500000000E+09 -2.73763323229E-01 +3.52782799218E-01 +5.58033983991E-04 +1.84232226596E-03 +5.55099688099E-04 +1.72486555621E-03 -4.27407966916E-01 +2.90595581815E-01
3.07000000000E+09 -2.58806920226E-01 +3.77554261862E-01 +8.10165244298E-04 +1.15745258228E-03 +7.72888183308E-04 +1.18763544569E-03 -4.20284080875E-01 +3.26366837568E-01
