# Hz S RI R 50
! CMT, C1220, 16058040, 17.2.0/1
! Date: 15/08/2018 09:50:54
! Data: Format (Calibration Info)
! Freq                      S11: Re/Im (F2)                       S21: Re/Im (F2)                       S12: Re/Im (F2)                       S22: Re/Im (F2)            
2.50000000000E+09 +5.76227903621E-01 +6.69800367938E-01 -2.82657034896E-05 -1.63904658925E-03 -6.25084413601E-05 -1.81913168528E-03 +5.75496970346E-01 +7.18066823678E-01
2.50500000000E+09 +5.83089506352E-01 +6.62138279610E-01 -1.67324075130E-04 -1.69303221866E-03 -2.46024218258E-04 -1.79482084309E-03 +5.80861533933E-01 +7.12413223694E-01
2.51000000000E+09 +5.90400588717E-01 +6.54132327092E-01 -3.72887717356E-04 -1.78349159408E-03 -4.46061226551E-04 -1.75728352685E-03 +5.86315510566E-01 +7.07173756204E-01
2.51500000000E+09 +5.97630315215E-01 +6.45868951598E-01 -5.78256139929E-04 -1.80277688571E-03 -5.64888040689E-04 -1.77001391314E-03 +5.91541737460E-01 +7.01611223127E-01
2.52000000000E+09 +6.04429517868E-01 +6.37226898633E-01 -8.28449825296E-04 -1.73158899782E-03 -7.51824416633E-04 -1.74649481357E-03 +5.96702646758E-01 +6.95569157863E-01
2.52500000000E+09 +6.10476729701E-01 +6.28841976520E-01 -9.71690595643E-04 -1.56679556987E-03 -9.44447100277E-04 -1.64731521485E-03 +6.02713384253E-01 +6.88896709178E-01
2.53000000000E+09 +6.16222570936E-01 +6.20746662953E-01 -1.03828249418E-03 -1.52529437918E-03 -1.09297377887E-03 -1.54296320643E-03 +6.08978620739E-01 +6.81696838004E-01
2.53500000000E+09 +6.21236526985E-01 +6.12780186490E-01 -1.20789364915E-03 -1.51869440357E-03 -1.21474679115E-03 -1.55631947802E-03 +6.14680684238E-01 +6.75048405764E-01
2.54000000000E+09 +6.25701417695E-01 +6.05051283752E-01 -1.37595737439E-03 -1.42246267325E-03 -1.34211150544E-03 -1.43851324775E-03 +6.20313308246E-01 +6.68477668738E-01
2.54500000000E+09 +6.30181797887E-01 +5.97773374032E-01 -1.60910563165E-03 -1.37283477110E-03 -1.54533541294E-03 -1.53192244118E-03 +6.25882818722E-01 +6.62172141269E-01
2.55000000000E+09 +6.35146500195E-01 +5.90651103413E-01 -1.79710665056E-03 -1.15239690012E-03 -1.79313405211E-03 -1.37990026999E-03 +6.30900028633E-01 +6.55678099716E-01
2.55500000000E+09 +6.40814548293E-01 +5.82756831714E-01 -1.91091435681E-03 -9.29314075446E-04 -2.15088712920E-03 -1.18519176713E-03 +6.36175757371E-01 +6.49111322367E-01
2.56000000000E+09 +6.47171070214E-01 +5.74878604995E-01 -1.92396736893E-03 -6.91950868971E-04 -2.30420072360E-03 -6.85958351594E-04 +6.41638185678E-01 +6.41726211200E-01
2.56500000000E+09 +6.54097738607E-01 +5.65928242404E-01 -1.87216562233E-03 -6.77834431185E-04 -2.23764463532E-03 -3.63243075693E-04 +6.47537875301E-01 +6.34175017936E-01
2.57000000000E+09 +6.61154651443E-01 +5.56648551337E-01 -2.07930285000E-03 -6.23296387535E-04 -2.14426766792E-03 -1.40085610259E-04 +6.52974804095E-01 +6.26646485697E-01
2.57500000000E+09 +6.68500436837E-01 +5.46892239496E-01 -2.18644784433E-03 -4.17347462490E-04 -1.97387760686E-03 -5.15664396839E-05 +6.58283483727E-01 +6.19293800296E-01
2.58000000000E+09 +6.75003447411E-01 +5.36933178634E-01 -2.40768454413E-03 -1.47218137564E-04 -2.01887249505E-03 -1.33837527204E-05 +6.63087026524E-01 +6.11966414158E-01
2.58500000000E+09 +6.80794055578E-01 +5.26866286529E-01 -2.28138318012E-03 +2.81808068690E-04 -2.02764480374E-03 +1.65087928074E-04 +6.67617159448E-01 +6.04426558763E-01
2.59000000000E+09 +6.86189358979E-01 +5.17356613170E-01 -2.03984453276E-03 +3.32896587939E-04 -1.91965000194E-03 +1.75103641159E-04 +6.72748309729E-01 +5.96470485328E-01
2.59500000000E+09 +6.90951419504E-01 +5.07715929921E-01 -2.16446983912E-03 +2.19596276423E-04 -2.19211650878E-03 +8.67286804725E-05 +6.77891820730E-01 +5.87741233933E-01
2.60000000000E+09 +6.94851675983E-01 +4.98411451881E-01 -2.43083539601E-03 +4.36729947101E-04 -2.43995806007E-03 +3.44069492467E-04 +6.82944393030E-01 +5.79196825287E-01
2.60500000000E+09 +6.99106317217E-01 +4.88864434009E-01 -2.55442756312E-03 +7.59600752706E-04 -2.56124941995E-03 +7.24935704437E-04 +6.88212438448E-01 +5.70592414048E-01
2.61000000000E+09 +7.03243765739E-01 +4.78736571518E-01 -2.68841059440E-03 +1.18725107485E-03 -2.69068524266E-03 +1.17914826964E-03 +6.92970726854E-01 +5.62098928282E-01
2.61500000000E+09 +7.07774066027E-01 +4.68115200956E-01 -2.25850920588E-03 +1.77577728417E-03 -2.35662469408E-03 +1.75909665962E-03 +6.97249971084E-01 +5.53786854761E-01
2.62000000000E+09 +7.12437784587E-01 +4.56363053703E-01 -1.82581043336E-03 +1.76855656609E-03 -1.99081627809E-03 +1.87024131676E-03 +7.01892924089E-01 +5.44971274645E-01
2.62500000000E+09 +7.17107585971E-01 +4.43455381277E-01 -1.92046677717E-03 +1.61422389682E-03 -1.79688754602E-03 +1.78064009752E-03 +7.06672392234E-01 +5.35608498787E-01
2.63000000000E+09 +7.21415646141E-01 +4.30046301787E-01 -1.98236531090E-03 +1.91780432158E-03 -1.68867736829E-03 +2.12219570581E-03 +7.11321105374E-01 +5.26220518602E-01
2.63500000000E+09 +7.25341669596E-01 +4.16412804298E-01 -1.95227005159E-03 +2.17180656552E-03 -1.49114799811E-03 +2.14304563659E-03 +7.16405463569E-01 +5.16904015162E-01
2.64000000000E+09 +7.28877249265E-01 +4.02763269459E-01 -1.86610758061E-03 +2.66461928652E-03 -1.49930045156E-03 +2.25946706228E-03 +7.21308859926E-01 +5.07474369346E-01
2.64500000000E+09 +7.32037174131E-01 +3.89797979279E-01 -1.30548279304E-03 +3.14702282588E-03 -1.32132215720E-03 +2.64795140033E-03 +7.25719754550E-01 +4.98037154634E-01
2.65000000000E+09 +7.34773993682E-01 +3.77349956179E-01 -7.13720256151E-04 +2.96460160123E-03 -1.02694189046E-03 +2.73212367024E-03 +7.29986783976E-01 +4.88718043887E-01
2.65500000000E+09 +7.37630690805E-01 +3.65180086646E-01 -4.81407688086E-04 +2.83562083151E-03 -8.60649041860E-04 +2.92036052191E-03 +7.33810018432E-01 +4.78255556796E-01
2.66000000000E+09 +7.40558867276E-01 +3.53332732099E-01 -5.03317460044E-04 +2.89052303923E-03 -5.90310773464E-04 +3.13213771824E-03 +7.37816746334E-01 +4.67365746620E-01
2.66500000000E+09 +7.43532006587E-01 +3.41370015832E-01 -3.16906469720E-04 +3.13257521314E-03 -1.56555486189E-04 +3.32607359539E-03 +7.42740077748E-01 +4.56172842582E-01
2.67000000000E+09 +7.46131025980E-01 +3.28241709583E-01 +1.98298868922E-04 +3.32760296253E-03 +3.63921924556E-04 +3.15133889035E-03 +7.47296598900E-01 +4.44757363627E-01
2.67500000000E+09 +7.48320159914E-01 +3.14621250692E-01 +5.28240814872E-04 +3.13758348197E-03 +5.76111400234E-04 +2.89216108812E-03 +7.51365401413E-01 +4.33430535434E-01
2.68000000000E+09 +7.50056632410E-01 +3.00093284700E-01 +7.03696213000E-04 +2.97187429047E-03 +6.13475614957E-04 +2.84876703572E-03 +7.55031957004E-01 +4.22927955340E-01
2.68500000000E+09 +7.51179560524E-01 +2.84764371133E-01 +7.23679435245E-04 +2.95981027143E-03 +6.13130945793E-04 +2.95736947427E-03 +7.58248878225E-01 +4.11438968924E-01
2.69000000000E+09 +7.51431237407E-01 +2.69395344337E-01 +9.90858479345E-04 +3.22285142464E-03 +9.77591855991E-04 +3.22818314568E-03 +7.60895051067E-01 +3.99618357394E-01
2.69500000000E+09 +7.51696832997E-01 +2.53991193938E-01 +1.47575380133E-03 +3.26728454193E-03 +1.49708021045E-03 +3.19053948378E-03 +7.63930185646E-01 +3.86704773078E-01
2.70000000000E+09 +7.51963740838E-01 +2.38523846299E-01 +1.91134270860E-03 +3.13520902562E-03 +1.85555013685E-03 +2.99057949015E-03 +7.67072662842E-01 +3.73133028486E-01
2.70500000000E+09 +7.51881349328E-01 +2.23405113159E-01 +2.30526918292E-03 +2.59664671970E-03 +2.12210480108E-03 +2.64825699726E-03 +7.70216748038E-01 +3.59421014492E-01
2.71000000000E+09 +7.52253352522E-01 +2.08705693148E-01 +2.32899841722E-03 +2.34716046477E-03 +2.22421009893E-03 +2.59534976570E-03 +7.72963649949E-01 +3.46485516139E-01
2.71500000000E+09 +7.53129356043E-01 +1.93736663843E-01 +2.18382579408E-03 +2.35773693100E-03 +2.29981544318E-03 +2.55521531647E-03 +7.75753736798E-01 +3.33878515872E-01
2.72000000000E+09 +7.53682521800E-01 +1.78638433632E-01 +2.44171503243E-03 +2.58036963025E-03 +2.71208269365E-03 +2.66649608208E-03 +7.77720549397E-01 +3.20768949482E-01
2.72500000000E+09 +7.54156126436E-01 +1.63006610586E-01 +3.10403292688E-03 +2.50938874311E-03 +3.32047567269E-03 +2.18366037892E-03 +7.78696485889E-01 +3.06860299216E-01
2.73000000000E+09 +7.53949941147E-01 +1.47013024395E-01 +3.29870951325E-03 +2.19354873604E-03 +3.22407249978E-03 +1.74780197339E-03 +7.80116023815E-01 +2.92694513930E-01
2.73500000000E+09 +7.52907416595E-01 +1.30162045330E-01 +3.56546133221E-03 +2.16105254525E-03 +3.13219650341E-03 +1.82207707394E-03 +7.81168255050E-01 +2.77789329962E-01
2.74000000000E+09 +7.50655563857E-01 +1.13225978105E-01 +4.21194642416E-03 +1.90182267392E-03 +3.59505990547E-03 +2.00866633106E-03 +7.83014439428E-01 +2.63163589261E-01
2.74500000000E+09 +7.47152088106E-01 +9.56097785644E-02 +4.42326044609E-03 +1.26543008871E-03 +4.07086654598E-03 +1.78269808906E-03 +7.84280598836E-01 +2.47623548788E-01
2.75000000000E+09 +7.42252312281E-01 +7.80640976350E-02 +4.60250155297E-03 +1.05075834627E-03 +4.58112986425E-03 +1.60178847860E-03 +7.84482203234E-01 +2.32431670937E-01
2.75500000000E+09 +7.36587330343E-01 +6.08659487442E-02 +4.90476200035E-03 +6.19140725012E-04 +5.21430239396E-03 +9.82498880972E-04 +7.83567262653E-01 +2.17350894537E-01
2.76000000000E+09 +7.30949813955E-01 +4.35825830127E-02 +5.17637724717E-03 +2.77657833440E-04 +5.50797918458E-03 +3.59863242941E-04 +7.83189449003E-01 +2.02045748049E-01
2.76500000000E+09 +7.25316578014E-01 +2.65019108934E-02 +5.53931237582E-03 -2.36941183939E-04 +5.77688440803E-03 -2.93666522281E-04 +7.82296765947E-01 +1.84850225231E-01
2.77000000000E+09 +7.20362801787E-01 +8.78970534171E-03 +5.97165506701E-03 -1.01473040503E-03 +6.17033594259E-03 -1.19671358384E-03 +7.81600386767E-01 +1.67108585181E-01
2.77500000000E+09 +7.15646513407E-01 -9.91399487413E-03 +5.88786658537E-03 -2.24800955500E-03 +5.96953023822E-03 -2.53063201987E-03 +7.79846059381E-01 +1.48914904417E-01
2.78000000000E+09 +7.11012477900E-01 -2.93125396979E-02 +5.19766947157E-03 -2.78199853769E-03 +5.13061604282E-03 -3.09201159936E-03 +7.77702397261E-01 +1.31676872695E-01
2.78500000000E+09 +7.06070621367E-01 -4.95782870793E-02 +5.01874471607E-03 -3.08052366744E-03 +4.72885440639E-03 -3.34209098416E-03 +7.75628683796E-01 +1.14514670858E-01
2.79000000000E+09 +7.00404221222E-01 -7.11848667847E-02 +5.00656241044E-03 -3.64104208050E-03 +4.57693417151E-03 -3.69894481692E-03 +7.72297992260E-01 +9.66278129192E-02
2.79500000000E+09 +6.92654141399E-01 -9.24152400258E-02 +4.71145839837E-03 -4.17633328592E-03 +4.41206417583E-03 -3.91797413090E-03 +7.67956070017E-01 +7.79675170434E-02
2.80000000000E+09 +6.83603026573E-01 -1.12733361391E-01 +4.80436893173E-03 -5.02570967030E-03 +4.73256599561E-03 -4.62194702652E-03 +7.62613652264E-01 +5.89339937705E-02
2.80500000000E+09 +6.73996230896E-01 -1.31706827166E-01 +3.98963924278E-03 -6.17016636319E-03 +4.18652086477E-03 -5.96586556901E-03 +7.57070364317E-01 +4.00558978408E-02
2.81000000000E+09 +6.63340472500E-01 -1.50003371596E-01 +2.91790465634E-03 -6.32408098455E-03 +3.06374513848E-03 -6.44391315039E-03 +7.51837711748E-01 +2.04708557885E-02
2.81500000000E+09 +6.52017011705E-01 -1.67677350654E-01 +2.49935269213E-03 -6.51466410814E-03 +2.38777326068E-03 -6.79423035522E-03 +7.44932160459E-01 +7.83694527670E-04
2.82000000000E+09 +6.39821482420E-01 -1.85225580771E-01 +1.96988234359E-03 -6.97118650920E-03 +1.65683530363E-03 -7.06272100848E-03 +7.37152555479E-01 -1.90515412950E-02
2.82500000000E+09 +6.26685201532E-01 -2.03095793123E-01 +1.05695433461E-03 -7.34174115111E-03 +7.86090373756E-04 -7.07352134685E-03 +7.27513587777E-01 -3.90816692362E-02
2.83000000000E+09 +6.11473629143E-01 -2.21611291845E-01 +4.52824862827E-04 -7.61171376492E-03 +4.13967764033E-04 -7.17462811527E-03 +7.17153353336E-01 -5.90676252557E-02
2.83500000000E+09 +5.95318451295E-01 -2.40013158567E-01 -6.26308494745E-04 -7.64945459043E-03 -3.54181990084E-04 -7.40516726723E-03 +7.06571639873E-01 -7.89926170161E-02
2.84000000000E+09 +5.77404563342E-01 -2.58864845990E-01 -1.11227552212E-03 -7.21982785830E-03 -9.18323327135E-04 -7.18816275081E-03 +6.96064467245E-01 -1.00349453727E-01
2.84500000000E+09 +5.57758363575E-01 -2.78054766373E-01 -1.12050911531E-03 -7.79993356801E-03 -1.01107784894E-03 -7.89736622443E-03 +6.83762777448E-01 -1.21753296470E-01
2.85000000000E+09 +5.36441668740E-01 -2.97071319633E-01 -2.47899043701E-03 -8.73970004406E-03 -2.45612799664E-03 -8.81522842493E-03 +6.69380192243E-01 -1.42668874316E-01
2.85500000000E+09 +5.14228966401E-01 -3.15305444659E-01 -4.29396793648E-03 -8.82137714174E-03 -4.32378511629E-03 -8.67034908442E-03 +6.53990465884E-01 -1.61973822986E-01
2.86000000000E+09 +4.90820126385E-01 -3.33691611257E-01 -5.86567117897E-03 -8.02531474592E-03 -5.82671410769E-03 -7.89896486672E-03 +6.38214051490E-01 -1.82055857184E-01
2.86500000000E+09 +4.66810344198E-01 -3.50569703351E-01 -7.36030151670E-03 -6.72255862320E-03 -7.25611396031E-03 -6.75312662918E-03 +6.20939405850E-01 -2.03452094427E-01
2.87000000000E+09 +4.41645024124E-01 -3.67068377719E-01 -7.65177277959E-03 -5.08092399714E-03 -7.69123989264E-03 -5.10378674574E-03 +6.00827700094E-01 -2.24717593511E-01
2.87500000000E+09 +4.15634185090E-01 -3.81393589632E-01 -7.26112121249E-03 -4.62161813314E-03 -7.33870668903E-03 -4.38760689113E-03 +5.80368920835E-01 -2.44231700192E-01
2.88000000000E+09 +3.89961059264E-01 -3.94120390281E-01 -7.76259843788E-03 -4.90000861130E-03 -7.74557365010E-03 -4.50758472562E-03 +5.59205481903E-01 -2.63668988260E-01
2.88500000000E+09 +3.64517238039E-01 -4.05977660749E-01 -9.66721246784E-03 -3.98578947191E-03 -9.20613503410E-03 -3.64859954356E-03 +5.36308909676E-01 -2.82074885274E-01
2.89000000000E+09 +3.38050566023E-01 -4.17915966662E-01 -9.93073337878E-03 -2.20895462136E-03 -9.29289092071E-03 -2.23680098260E-03 +5.10876931578E-01 -3.00767135606E-01
2.89500000000E+09 +3.09911243560E-01 -4.29179144821E-01 -1.00841488559E-02 -1.15282802425E-03 -9.70476329029E-03 -1.55877852184E-03 +4.82331604842E-01 -3.18279335977E-01
2.90000000000E+09 +2.79117157467E-01 -4.39404637457E-01 -1.03324465467E-02 +9.20503504536E-05 -1.03730334290E-02 -2.51338874108E-04 +4.52241143083E-01 -3.33454940059E-01
2.90500000000E+09 +2.45208900031E-01 -4.46851080533E-01 -9.90834218445E-03 +1.39525037663E-03 -1.01375213192E-02 +1.34986790773E-03 +4.22859466997E-01 -3.48470399762E-01
2.91000000000E+09 +2.10946473291E-01 -4.50660213391E-01 -9.85361822893E-03 +1.86447334359E-03 -9.71260222358E-03 +2.10806069373E-03 +3.91456520761E-01 -3.63403435754E-01
2.91500000000E+09 +1.76101137019E-01 -4.53028421667E-01 -1.03827035982E-02 +3.20287215810E-03 -9.81703857997E-03 +3.34369839797E-03 +3.57874535879E-01 -3.75637281328E-01
2.92000000000E+09 +1.40534581524E-01 -4.52975084838E-01 -9.64088675035E-03 +5.06027030164E-03 -9.09582198274E-03 +4.64093560028E-03 +3.22774288058E-01 -3.84648167725E-01
2.92500000000E+09 +1.05450399768E-01 -4.50986264456E-01 -8.71858974439E-03 +5.31348857120E-03 -8.44798495196E-03 +4.75224417007E-03 +2.86941816444E-01 -3.90591382510E-01
2.93000000000E+09 +7.03806927026E-02 -4.47878015346E-01 -9.03424587451E-03 +6.22550196331E-03 -9.16066201445E-03 +5.63140707834E-03 +2.50832906189E-01 -3.95222372761E-01
2.93500000000E+09 +3.48299144969E-02 -4.43451792909E-01 -8.51504074695E-03 +8.11157043365E-03 -8.88921344269E-03 +7.75294618338E-03 +2.13449620409E-01 -3.99945605047E-01
2.94000000000E+09 -4.43084132408E-04 -4.37098188619E-01 -7.28267254184E-03 +9.14832461751E-03 -7.50579072070E-03 +8.95558446177E-03 +1.73743598944E-01 -4.02947498501E-01
2.94500000000E+09 -3.62230517817E-02 -4.29400600629E-01 -6.25422929382E-03 +1.04603983258E-02 -6.46777842194E-03 +1.02816702754E-02 +1.33431811630E-01 -4.02389682268E-01
2.95000000000E+09 -7.25085276725E-02 -4.17223538597E-01 -4.21136071147E-03 +1.11299601871E-02 -4.63561517182E-03 +1.10059129808E-02 +9.34698790355E-02 -3.97869005563E-01
2.95500000000E+09 -1.06490710357E-01 -4.01631953637E-01 -2.76588819300E-03 +1.07966254866E-02 -3.28426044234E-03 +1.10411622391E-02 +5.52852474842E-02 -3.90741724935E-01
2.96000000000E+09 -1.38324192706E-01 -3.84382575409E-01 -2.32411942379E-03 +1.09199472281E-02 -2.52465450304E-03 +1.14335620866E-02 +1.52200336274E-02 -3.81974482417E-01
2.96500000000E+09 -1.70307553059E-01 -3.64841419032E-01 -1.48558444480E-03 +1.18062149852E-02 -1.22071643542E-03 +1.22539667534E-02 -2.56749497339E-02 -3.69831956954E-01
2.97000000000E+09 -2.01310900726E-01 -3.41592524048E-01 +2.93170137113E-04 +1.24286314622E-02 +7.37069744183E-04 +1.24543163189E-02 -6.57669654005E-02 -3.54896027534E-01
2.97500000000E+09 -2.30647436064E-01 -3.16141044980E-01 +1.97651304063E-03 +1.25531199770E-02 +2.15272370189E-03 +1.21438143902E-02 -1.04912553958E-01 -3.37502026699E-01
2.98000000000E+09 -2.59260424870E-01 -2.88466782948E-01 +4.32050574643E-03 +1.19307483465E-02 +3.88514929253E-03 +1.16959552240E-02 -1.42691236316E-01 -3.17191365195E-01
2.98500000000E+09 -2.86711206868E-01 -2.58365440304E-01 +5.34129018283E-03 +1.06912491406E-02 +4.99880778894E-03 +1.10262319556E-02 -1.79588061586E-01 -2.93953536457E-01
2.99000000000E+09 -3.12146766202E-01 -2.26820127537E-01 +5.87166888486E-03 +9.93756699135E-03 +5.99279592034E-03 +1.05250088883E-02 -2.14803660545E-01 -2.66644402999E-01
2.99500000000E+09 -3.36700616350E-01 -1.94236639909E-01 +6.67338038603E-03 +1.01475480803E-02 +7.32469834328E-03 +1.04499752675E-02 -2.48185716368E-01 -2.36984765240E-01
3.00000000000E+09 -3.58533915842E-01 -1.60414458882E-01 +8.79215106861E-03 +9.45691145025E-03 +9.35066493547E-03 +8.99492002697E-03 -2.78864266608E-01 -2.04128777779E-01
3.00500000000E+09 -3.78229777924E-01 -1.26908211806E-01 +9.69569844337E-03 +8.08263133194E-03 +9.64485958270E-03 +7.34135925226E-03 -3.06478913907E-01 -1.71151927180E-01
3.01000000000E+09 -3.96080168793E-01 -9.33656324992E-02 +1.09345381093E-02 +6.92997731203E-03 +1.04438027146E-02 +6.56682814120E-03 -3.32279020508E-01 -1.37004712749E-01
3.01500000000E+09 -4.11493362255E-01 -5.88616981309E-02 +1.17716741755E-02 +5.37521824247E-03 +1.13470216256E-02 +5.46591458342E-03 -3.56186220034E-01 -1.01235353200E-01
3.02000000000E+09 -4.23334598207E-01 -2.41614834984E-02 +1.21009444399E-02 +3.82107650576E-03 +1.20108183930E-02 +4.00884642417E-03 -3.76341834172E-01 -6.15243219403E-02
3.02500000000E+09 -4.32383074900E-01 +1.10822879725E-02 +1.22828551208E-02 +2.66742896533E-03 +1.21819255635E-02 +2.70239028927E-03 -3.91678331736E-01 -2.21187894000E-02
3.03000000000E+09 -4.37503570696E-01 +4.72920509536E-02 +1.29737757578E-02 +1.31621128460E-03 +1.28854473895E-02 +1.39559621252E-03 -4.05419852772E-01 +1.78756302429E-02
3.03500000000E+09 -4.38510744773E-01 +8.31445549634E-02 +1.32541581394E-02 -4.42101340255E-04 +1.31585867552E-02 -2.00864166473E-06 -4.16639833865E-01 +5.73823133049E-02
3.04000000000E+09 -4.36992674085E-01 +1.17889376832E-01 +1.32840527165E-02 -2.65339110052E-03 +1.36298535948E-02 -2.20559019763E-03 -4.25663828004E-01 +9.77820743295E-02
3.04500000000E+09 -4.33824118065E-01 +1.52638030773E-01 +1.23185717750E-02 -4.37549789695E-03 +1.31292579144E-02 -4.46450252842E-03 -4.31178219592E-01 +1.38717030335E-01
3.05000000000E+09 -4.28421178496E-01 +1.88062114715E-01 +1.14326391157E-02 -5.61633878313E-03 +1.18885828977E-02 -6.38767753798E-03 -4.32087183116E-01 +1.78609707390E-01
3.05500000000E+09 -4.21213879631E-01 +2.22743656059E-01 +1.06587200788E-02 -6.71173054300E-03 +1.03219226460E-02 -7.52556387661E-03 -4.31405442703E-01 +2.16419296582E-01
3.06000000000E+09 -4.12022569647E-01 +2.57629286602E-01 +1.00543175685E-02 -8.01830470136E-03 +9.16687410441E-03 -8.23441521625E-03 -4.29563901290E-01 +2.54880345701E-01
3.06500000000E+09 -4.00228329497E-01 +2.91117132861E-01 +9.05492178845E-03 -9.86547449347E-03 +8.43130097895E-03 -9.16599273214E-03 -4.24391857051E-01 +2.92602224152E-01
3.07000000000E+09 -3.87486710633E-01 +3.21299769106E-01 +6.69156023633E-03 -1.11747935646E-02 +7.05018486085E-03 -1.03678889888E-02 -4.17602475917E-01 +3.28449719627E-01
