# Hz S RI R 50
! CMT, C1220, 16058040, 17.2.0/1
! Date: 15/08/2018 10:18:04
! Data: Format (Calibration Info)
! Freq                      S11: Re/Im (F2)                       S21: Re/Im (F2)                       S12: Re/Im (F2)                       S22: Re/Im (F2)            
2.50000000000E+09 +5.94238867218E-01 +6.34370406182E-01 -3.42551514534E-04 +1.12095366207E-04 -3.97295286141E-04 +8.26492824656E-05 +5.73354977901E-01 +7.16373880079E-01
2.50500000000E+09 +6.00693718297E-01 +6.26564784645E-01 -3.32900315812E-04 +1.26347401619E-04 -3.17474610478E-04 +1.74001771010E-04 +5.79039025140E-01 +7.10785197320E-01
2.51000000000E+09 +6.07183366628E-01 +6.18414004223E-01 -2.71460991222E-04 +1.47762888938E-04 -2.69852947235E-04 +1.92576524599E-04 +5.84469863029E-01 +7.05576095804E-01
2.51500000000E+09 +6.13439344933E-01 +6.10472446737E-01 -2.32447695768E-04 +1.83343127615E-04 -2.05433359335E-04 +1.71978701896E-04 +5.89701611359E-01 +7.00239157847E-01
2.52000000000E+09 +6.19282179346E-01 +6.02748641870E-01 -1.95897103005E-04 +1.83667015371E-04 -1.82727859563E-04 +1.97905693280E-04 +5.94855973380E-01 +6.94191689879E-01
2.52500000000E+09 +6.24628004968E-01 +5.95497785344E-01 -2.29877042705E-04 +1.28265658232E-04 -2.37302514637E-04 +1.04635370437E-04 +6.00311705148E-01 +6.87933064427E-01
2.53000000000E+09 +6.29228838249E-01 +5.88752488825E-01 -2.64825475553E-04 +1.66173749148E-04 -2.80272516362E-04 +1.81993663889E-04 +6.06383974719E-01 +6.81037585124E-01
2.53500000000E+09 +6.33593738233E-01 +5.82590971472E-01 -2.76365519283E-04 +2.21937031841E-04 -2.67229559989E-04 +1.88125959381E-04 +6.12405058840E-01 +6.74165037343E-01
2.54000000000E+09 +6.37737650562E-01 +5.76568883749E-01 -1.92422680379E-04 +3.38404839008E-04 -2.03188868519E-04 +2.74572939250E-04 +6.18159271780E-01 +6.67484404483E-01
2.54500000000E+09 +6.41882603864E-01 +5.70834841643E-01 -1.68765635445E-04 +3.50805610410E-04 -1.41456995845E-04 +3.19924690900E-04 +6.23914616755E-01 +6.61162118878E-01
2.55000000000E+09 +6.46666822439E-01 +5.64996115075E-01 -2.28856081115E-05 +2.98289212553E-04 -2.62611474020E-05 +2.87051908361E-04 +6.29354693323E-01 +6.54753787155E-01
2.55500000000E+09 +6.52196641215E-01 +5.58202615135E-01 -1.53853069618E-05 +1.77714857921E-04 +9.23376178004E-08 +2.32461561843E-04 +6.34501177699E-01 +6.48271972325E-01
2.56000000000E+09 +6.58306572505E-01 +5.50867020019E-01 -3.89813133265E-05 +1.24837730501E-04 -9.35078523769E-05 +1.30189079735E-04 +6.39884784291E-01 +6.41091049191E-01
2.56500000000E+09 +6.64520031516E-01 +5.42536087638E-01 -1.62692107061E-04 +1.49817567874E-04 -1.97081667140E-04 +1.95813085157E-04 +6.45266978996E-01 +6.33476613990E-01
2.57000000000E+09 +6.70542220556E-01 +5.33975418436E-01 -2.50258397793E-04 +2.79287458611E-04 -2.08315736832E-04 +3.52659229490E-04 +6.50628006421E-01 +6.25687746215E-01
2.57500000000E+09 +6.76780189584E-01 +5.25155260679E-01 -1.11541180871E-04 +3.55256481972E-04 -6.19668740794E-05 +3.43764958985E-04 +6.55854622571E-01 +6.18106378320E-01
2.58000000000E+09 +6.82134538772E-01 +5.16540293240E-01 -3.07128106629E-05 +3.66447535056E-04 -9.17767175026E-06 +3.27376347119E-04 +6.60806396315E-01 +6.10818361898E-01
2.58500000000E+09 +6.87292254847E-01 +5.07801129114E-01 +1.41356862563E-05 +2.97776179393E-04 -2.74263346710E-05 +2.70750920251E-04 +6.65727649312E-01 +6.03165355481E-01
2.59000000000E+09 +6.91965517067E-01 +4.99229224134E-01 -4.70697931192E-05 +2.88916029070E-04 -8.15322882638E-05 +3.04048824515E-04 +6.70288690912E-01 +5.95640473839E-01
2.59500000000E+09 +6.96284013369E-01 +4.90898512957E-01 -4.26965670363E-05 +3.57194700907E-04 -5.49297118541E-05 +4.04694875075E-04 +6.75186315169E-01 +5.87813550743E-01
2.60000000000E+09 +7.00264434757E-01 +4.82296698255E-01 +1.35860610616E-05 +3.28097358557E-04 +2.09481909164E-06 +3.92507398637E-04 +6.80228050571E-01 +5.79365191796E-01
2.60500000000E+09 +7.04247624110E-01 +4.73051535417E-01 +3.42738934214E-06 +4.34126010983E-04 +3.43090347732E-06 +4.66197510281E-04 +6.85524251771E-01 +5.70881157802E-01
2.61000000000E+09 +7.08687518826E-01 +4.63034817659E-01 +1.55162239215E-04 +5.22826380889E-04 +1.41077307234E-04 +4.69513397785E-04 +6.90667344558E-01 +5.62114942952E-01
2.61500000000E+09 +7.13220085137E-01 +4.51728493619E-01 +2.27668822714E-04 +3.96353940565E-04 +2.11771761875E-04 +4.07200111835E-04 +6.95549703000E-01 +5.53458159994E-01
2.62000000000E+09 +7.17314568818E-01 +4.39205984970E-01 +2.02562430574E-04 +2.76631468091E-04 +2.05314550056E-04 +3.13437309645E-04 +7.00206413473E-01 +5.44544267931E-01
2.62500000000E+09 +7.21163887604E-01 +4.26149388315E-01 +1.55470258418E-04 +3.73851864870E-04 +1.97345580712E-04 +3.45378567184E-04 +7.05005465021E-01 +5.35672528958E-01
2.63000000000E+09 +7.24898577969E-01 +4.12958025212E-01 +2.24999828536E-04 +4.56092804608E-04 +2.21564237890E-04 +4.65462119322E-04 +7.09861413592E-01 +5.26397810389E-01
2.63500000000E+09 +7.28111711222E-01 +3.99503928387E-01 +3.22129842270E-04 +4.69198951928E-04 +3.79565018231E-04 +3.76972127926E-04 +7.14858425118E-01 +5.17044904719E-01
2.64000000000E+09 +7.30886583861E-01 +3.86901991942E-01 +3.55350196543E-04 +4.91054009843E-04 +3.33198797652E-04 +4.27866812152E-04 +7.19698681528E-01 +5.07193562177E-01
2.64500000000E+09 +7.33888719047E-01 +3.75036210188E-01 +4.72837907312E-04 +4.26448060638E-04 +3.99434388567E-04 +4.15541447336E-04 +7.24586609793E-01 +4.97549173674E-01
2.65000000000E+09 +7.36151479643E-01 +3.63872865471E-01 +5.88954926116E-04 +3.71640415798E-04 +4.90757556336E-04 +4.58579764026E-04 +7.28841124062E-01 +4.87445503134E-01
2.65500000000E+09 +7.38901761581E-01 +3.53216372436E-01 +7.52823083242E-04 +3.01649618155E-04 +7.62122350795E-04 +3.93443005436E-04 +7.32857606809E-01 +4.76946806503E-01
2.66000000000E+09 +7.41723041247E-01 +3.42333241482E-01 +6.79779778097E-04 +1.21719937277E-04 +7.55933770162E-04 +1.94564184553E-04 +7.36672258991E-01 +4.65688884760E-01
2.66500000000E+09 +7.44385050747E-01 +3.31194386871E-01 +7.44672347996E-04 +8.80624548546E-05 +7.73447160663E-04 +1.21202427392E-04 +7.40620500533E-01 +4.54551839706E-01
2.67000000000E+09 +7.46620654289E-01 +3.19303937247E-01 +8.40099901916E-04 -8.93809282193E-05 +7.90237301292E-04 -1.06264692292E-04 +7.44744557907E-01 +4.43746868768E-01
2.67500000000E+09 +7.48385015883E-01 +3.06778147044E-01 +6.69975400139E-04 -1.83129163179E-04 +6.18704280607E-04 -1.89602353604E-04 +7.49001545878E-01 +4.32590312548E-01
2.68000000000E+09 +7.50104273648E-01 +2.93305477396E-01 +7.81524573657E-04 -9.08117298278E-05 +6.76365610076E-04 -7.84041150686E-05 +7.52770178473E-01 +4.21363883384E-01
2.68500000000E+09 +7.50757603847E-01 +2.79324827385E-01 +7.65276545138E-04 -3.24048648224E-04 +7.71455299987E-04 -2.73710935277E-04 +7.55515627448E-01 +4.09740602342E-01
2.69000000000E+09 +7.51188433042E-01 +2.65175991548E-01 +7.01428303363E-04 -3.60893925186E-04 +7.21677229750E-04 -3.67821758931E-04 +7.58050731483E-01 +3.98044564100E-01
2.69500000000E+09 +7.51273356075E-01 +2.51156831615E-01 +7.46032675756E-04 -3.90734344724E-04 +7.06251159492E-04 -3.65857112633E-04 +7.60748434273E-01 +3.85763470925E-01
2.70000000000E+09 +7.51731101802E-01 +2.37463598093E-01 +7.15560218244E-04 -6.45001599869E-04 +7.30263236944E-04 -6.44511948960E-04 +7.63752711340E-01 +3.72392959614E-01
2.70500000000E+09 +7.52281727479E-01 +2.24023758104E-01 +5.11026634451E-04 -7.13543061108E-04 +5.77965627771E-04 -6.98836481706E-04 +7.66390578330E-01 +3.58753550851E-01
2.71000000000E+09 +7.53341435478E-01 +2.10575279082E-01 +4.08785477956E-04 -7.92714503711E-04 +5.32497839025E-04 -8.13391061687E-04 +7.69100370769E-01 +3.45811659802E-01
2.71500000000E+09 +7.55046311131E-01 +1.96559082923E-01 +1.45748739427E-04 -8.30912791501E-04 +2.19753810381E-04 -8.62103050379E-04 +7.71656844766E-01 +3.33272930843E-01
2.72000000000E+09 +7.56492524300E-01 +1.81917456339E-01 +5.12439961610E-05 -5.77177135900E-04 +5.08206066199E-05 -5.69612108763E-04 +7.73702688628E-01 +3.20660759106E-01
2.72500000000E+09 +7.57369583858E-01 +1.66293231221E-01 +3.50762901540E-04 -4.86973111737E-04 +3.53818559345E-04 -5.72865420787E-04 +7.75222148890E-01 +3.07550853375E-01
2.73000000000E+09 +7.57146703908E-01 +1.50079227695E-01 +3.19825374586E-04 -9.03089893272E-04 +2.13403545307E-04 -8.95504819244E-04 +7.76750621576E-01 +2.93670550280E-01
2.73500000000E+09 +7.55824302325E-01 +1.32978190566E-01 +8.53644128567E-05 -8.53373577098E-04 +2.24575896924E-05 -7.52037517494E-04 +7.78050647030E-01 +2.78794592558E-01
2.74000000000E+09 +7.53196890745E-01 +1.16120903648E-01 -3.44604524841E-05 -7.24414277677E-04 -2.46607538837E-05 -7.22400969725E-04 +7.79496372726E-01 +2.63753446912E-01
2.74500000000E+09 +7.49316999173E-01 +9.88310264324E-02 -3.27198277417E-05 -6.90167217051E-04 +2.32237830027E-05 -6.74891502656E-04 +7.80715646520E-01 +2.48371429230E-01
2.75000000000E+09 +7.44313282243E-01 +8.18122590402E-02 +8.36975040313E-07 -6.71698510623E-04 +6.03077279618E-05 -7.08793382278E-04 +7.81516876073E-01 +2.33373770123E-01
2.75500000000E+09 +7.38898359192E-01 +6.53307470471E-02 +3.52067044131E-05 -8.41747043286E-04 +3.65984033841E-05 -8.90976086421E-04 +7.81794224970E-01 +2.17807662892E-01
2.76000000000E+09 +7.33907014722E-01 +4.90533087295E-02 -1.43849336230E-04 -9.45510036023E-04 -1.76502062557E-04 -9.97467890210E-04 +7.81227512256E-01 +2.02276429733E-01
2.76500000000E+09 +7.29133032352E-01 +3.20910269460E-02 -3.35306168903E-04 -9.45627962958E-04 -3.96861030634E-04 -9.62497802430E-04 +7.80544184990E-01 +1.85290279020E-01
2.77000000000E+09 +7.24347512320E-01 +1.43531465445E-02 -3.50158225975E-04 -8.82370087319E-04 -3.87306417804E-04 -8.37803840966E-04 +7.79249229123E-01 +1.67409756970E-01
2.77500000000E+09 +7.19524221329E-01 -4.18540996718E-03 -4.03182908296E-04 -9.10421579086E-04 -4.74406198469E-04 -8.49660881021E-04 +7.77300579641E-01 +1.49153249548E-01
2.78000000000E+09 +7.14625409091E-01 -2.35399593169E-02 -6.25189316751E-04 -9.27449976605E-04 -6.65769970904E-04 -8.45935908806E-04 +7.75134780601E-01 +1.30961185134E-01
2.78500000000E+09 +7.08746709953E-01 -4.40994586823E-02 -6.92136782275E-04 -9.54855875841E-04 -7.37344817196E-04 -8.20522699839E-04 +7.72438126905E-01 +1.12976390856E-01
2.79000000000E+09 +7.01748676304E-01 -6.45964414875E-02 -9.48840101115E-04 -8.96665336214E-04 -8.92985374771E-04 -8.03663712131E-04 +7.68782653872E-01 +9.57016933600E-02
2.79500000000E+09 +6.93801808837E-01 -8.51821893496E-02 -1.13508692624E-03 -6.54421113205E-04 -9.93630158020E-04 -6.09859811884E-04 +7.64818236720E-01 +7.79456740342E-02
2.80000000000E+09 +6.83742633425E-01 -1.05289543862E-01 -1.03232369088E-03 -3.70368362197E-04 -8.71257292605E-04 -4.10250358132E-04 +7.60160781890E-01 +5.91633592028E-02
2.80500000000E+09 +6.73200137043E-01 -1.24064217396E-01 -9.63612923518E-04 -6.17062273135E-04 -8.56044352564E-04 -6.63559178551E-04 +7.54141508650E-01 +3.96210783089E-02
2.81000000000E+09 +6.61631910720E-01 -1.41857418145E-01 -1.28845520740E-03 -6.22226441222E-04 -1.25681118777E-03 -7.10834806796E-04 +7.47330415050E-01 +2.02648241870E-02
2.81500000000E+09 +6.49097019921E-01 -1.59122307384E-01 -1.48036089619E-03 -3.98461246241E-04 -1.55856032491E-03 -4.69473014837E-04 +7.39794925801E-01 +9.83253054830E-04
2.82000000000E+09 +6.35455527688E-01 -1.75972318750E-01 -1.77679161717E-03 -3.25837703321E-05 -1.82369454214E-03 -8.20581002505E-05 +7.32435177628E-01 -1.85780566463E-02
2.82500000000E+09 +6.21103665231E-01 -1.92692170339E-01 -1.57731867212E-03 +3.92399780488E-04 -1.50932899505E-03 +3.29574574329E-04 +7.23244582260E-01 -3.86735432617E-02
2.83000000000E+09 +6.05385747002E-01 -2.10147730093E-01 -1.32305276704E-03 +5.19175114475E-04 -1.32642121909E-03 +4.01713573194E-04 +7.13322829209E-01 -5.82511259564E-02
2.83500000000E+09 +5.88174281641E-01 -2.28019764786E-01 -1.46109612009E-03 +4.30466587455E-04 -1.47273581343E-03 +4.00472331911E-04 +7.02393904681E-01 -7.83819643480E-02
2.84000000000E+09 +5.69362742315E-01 -2.46751550761E-01 -1.44389942283E-03 +7.59131061101E-04 -1.55083621175E-03 +6.60504655919E-04 +6.90972505074E-01 -9.83690796054E-02
2.84500000000E+09 +5.47721637401E-01 -2.65895890474E-01 -1.45888647629E-03 +8.27877087528E-04 -1.61284369901E-03 +8.69567926667E-04 +6.78759414622E-01 -1.19081999391E-01
2.85000000000E+09 +5.24723843957E-01 -2.84084291372E-01 -1.35046904914E-03 +1.50069079858E-03 -1.39926725762E-03 +1.51954073105E-03 +6.64756729503E-01 -1.40135739431E-01
2.85500000000E+09 +5.00414893106E-01 -3.01726106848E-01 -6.42671361630E-04 +1.23743720214E-03 -7.24716191545E-04 +1.24269705168E-03 +6.49448312811E-01 -1.60301994690E-01
2.86000000000E+09 +4.75622576790E-01 -3.18298052233E-01 -1.02990459806E-03 +9.16517201500E-04 -1.10765488429E-03 +1.01615693686E-03 +6.33217892781E-01 -1.80435477508E-01
2.86500000000E+09 +4.50093245738E-01 -3.34043984131E-01 -1.26230456694E-03 +1.57456134708E-03 -1.33827311586E-03 +1.66899278916E-03 +6.15766839333E-01 -2.00570795646E-01
2.87000000000E+09 +4.24098026030E-01 -3.48460180897E-01 -6.71567732518E-04 +1.94721265268E-03 -6.41911937767E-04 +2.07786877117E-03 +5.96860994971E-01 -2.20752514928E-01
2.87500000000E+09 +3.97801870114E-01 -3.61624076524E-01 -4.45060471123E-04 +1.78013407929E-03 -2.96195618509E-04 +1.90481480818E-03 +5.76139380383E-01 -2.40402070709E-01
2.88000000000E+09 +3.70855854332E-01 -3.73376790936E-01 -3.04089816115E-04 +2.07920711609E-03 -1.45441104126E-04 +2.08187683913E-03 +5.54600866948E-01 -2.58843435683E-01
2.88500000000E+09 +3.43500848974E-01 -3.84247067456E-01 +3.27444789042E-04 +1.95865168004E-03 +3.83704974518E-04 +1.86590772932E-03 +5.31982346753E-01 -2.77338176492E-01
2.89000000000E+09 +3.14357686088E-01 -3.93581100199E-01 +1.11718011050E-04 +1.73328247730E-03 +1.70426639675E-04 +1.61322243584E-03 +5.06695410522E-01 -2.94856554185E-01
2.89500000000E+09 +2.83515501401E-01 -4.01081390439E-01 +2.35843572159E-04 +2.09939603609E-03 +2.37857096819E-04 +2.04673861110E-03 +4.80259554969E-01 -3.11669569256E-01
2.90000000000E+09 +2.51414869775E-01 -4.06083136791E-01 +8.13651370824E-04 +2.25705559428E-03 +8.74025630385E-04 +2.19749502039E-03 +4.51722349052E-01 -3.28427663829E-01
2.90500000000E+09 +2.17867773734E-01 -4.09482549947E-01 +1.07504581093E-03 +1.89555736000E-03 +1.18719331185E-03 +1.78724133459E-03 +4.21233718815E-01 -3.43200910560E-01
2.91000000000E+09 +1.82731400855E-01 -4.09971593047E-01 +1.48925747089E-03 +1.83162258988E-03 +1.54178957419E-03 +1.61709932060E-03 +3.90302284447E-01 -3.56889003786E-01
2.91500000000E+09 +1.47427196424E-01 -4.07784680241E-01 +1.66813816284E-03 +1.45469892013E-03 +1.58237682039E-03 +1.25221101685E-03 +3.57773682012E-01 -3.68456909390E-01
2.92000000000E+09 +1.11780735758E-01 -4.02821204908E-01 +1.74605483052E-03 +1.10244720519E-03 +1.53476879197E-03 +9.37552902303E-04 +3.24598067674E-01 -3.78240224605E-01
2.92500000000E+09 +7.67624290745E-02 -3.96162541372E-01 +1.52951156657E-03 +1.22890426765E-03 +1.29897292327E-03 +1.14260706130E-03 +2.89002953959E-01 -3.86538593813E-01
2.93000000000E+09 +4.14750769328E-02 -3.87165276459E-01 +2.03109020094E-03 +1.37468103636E-03 +1.84153900326E-03 +1.41594501205E-03 +2.51235652629E-01 -3.91625756704E-01
2.93500000000E+09 +7.37954962556E-03 -3.75843456704E-01 +2.73896840790E-03 +7.77976758388E-04 +2.51763219980E-03 +8.83834435807E-04 +2.13887323622E-01 -3.94497929052E-01
2.94000000000E+09 -2.60177594772E-02 -3.63042978464E-01 +2.51972467717E-03 +1.96719823974E-04 +2.46434651484E-03 +3.36851327438E-04 +1.76113483703E-01 -3.96637863829E-01
2.94500000000E+09 -5.92348225496E-02 -3.48046708062E-01 +2.36802770949E-03 -5.22770234922E-05 +2.37171836792E-03 +1.08696449111E-04 +1.36845330335E-01 -3.97285178967E-01
2.95000000000E+09 -9.20730123183E-02 -3.29905593695E-01 +2.66711929540E-03 -3.98982494162E-04 +2.62516547693E-03 -2.26013800286E-04 +9.63574510792E-02 -3.93910232131E-01
2.95500000000E+09 -1.23248620805E-01 -3.08590946076E-01 +2.59590093820E-03 -9.05607784948E-04 +2.72186340959E-03 -7.24990587673E-04 +5.70765442252E-02 -3.86963196918E-01
2.96000000000E+09 -1.52325243567E-01 -2.84314877496E-01 +2.34829269377E-03 -1.64080438184E-03 +2.52204285045E-03 -1.58790382295E-03 +1.82554422062E-02 -3.77310617518E-01
2.96500000000E+09 -1.79267924795E-01 -2.58340486463E-01 +1.41392681240E-03 -1.72646281915E-03 +1.48300540522E-03 -1.72451983166E-03 -2.07832309330E-02 -3.66086227463E-01
2.97000000000E+09 -2.04559930046E-01 -2.30490911427E-01 +1.38259257406E-03 -1.36662044334E-03 +1.39557884674E-03 -1.24743203120E-03 -6.14620939909E-02 -3.51185604728E-01
2.97500000000E+09 -2.28765256528E-01 -2.00402828825E-01 +1.61596036978E-03 -1.33843788199E-03 +1.69849355528E-03 -1.29218513034E-03 -9.89615350773E-02 -3.32544441668E-01
2.98000000000E+09 -2.50324159195E-01 -1.68585356988E-01 +1.62788898382E-03 -2.10577133571E-03 +1.79123686976E-03 -2.00249443528E-03 -1.35433182249E-01 -3.13998177471E-01
2.98500000000E+09 -2.69832843669E-01 -1.36004690575E-01 +8.28925528315E-04 -2.46581995328E-03 +1.06452303644E-03 -2.56025849070E-03 -1.71344842271E-01 -2.92026461764E-01
2.99000000000E+09 -2.87292771233E-01 -1.02802664240E-01 +2.22767072915E-04 -2.28566102749E-03 +3.20453815644E-04 -2.49006529160E-03 -2.06905728076E-01 -2.68376202833E-01
2.99500000000E+09 -3.02979791404E-01 -6.99813408388E-02 +8.50344490232E-05 -2.02182929093E-03 +1.05189612992E-04 -2.15861600356E-03 -2.41226850377E-01 -2.38847450441E-01
3.00000000000E+09 -3.17610504784E-01 -3.62992195218E-02 +4.66145909356E-05 -1.83289440409E-03 -5.73688510452E-05 -1.92410210836E-03 -2.71448950262E-01 -2.07202222685E-01
3.00500000000E+09 -3.28849589803E-01 -2.56352143428E-03 -4.87763586875E-05 -1.96875812614E-03 -1.13679560070E-04 -1.99985062280E-03 -2.99783391125E-01 -1.75431080242E-01
3.01000000000E+09 -3.37676525039E-01 +3.01499790495E-02 -5.59398343319E-04 -2.24480834775E-03 -5.58515152262E-04 -2.27129439630E-03 -3.27279976111E-01 -1.41247379377E-01
3.01500000000E+09 -3.43908972543E-01 +6.31858057787E-02 -9.56586034232E-04 -1.66594547302E-03 -9.79973075977E-04 -1.71159057784E-03 -3.51267313817E-01 -1.04883333646E-01
3.02000000000E+09 -3.46555944161E-01 +9.48626966569E-02 -7.52170097924E-04 -1.33421127281E-03 -8.30350339996E-04 -1.43307155366E-03 -3.71945099209E-01 -6.73330076190E-02
3.02500000000E+09 -3.46987537771E-01 +1.26184746916E-01 -5.82589577404E-04 -1.43440308582E-03 -6.38735665492E-04 -1.45244485981E-03 -3.88544440525E-01 -2.77308834225E-02
3.03000000000E+09 -3.44124857931E-01 +1.56977847048E-01 -8.09341976254E-04 -2.14861592612E-03 -8.99950306879E-04 -2.09075939712E-03 -4.02255006969E-01 +1.08209590586E-02
3.03500000000E+09 -3.38960605019E-01 +1.87200636196E-01 -2.11427932146E-03 -1.70256238423E-03 -2.07497185808E-03 -1.68150331025E-03 -4.14664862435E-01 +5.05243066061E-02
3.04000000000E+09 -3.30904318831E-01 +2.17042608478E-01 -2.07774479391E-03 -5.35658270203E-04 -2.13082383110E-03 -5.05209466887E-04 -4.23432677751E-01 +9.12930708439E-02
3.04500000000E+09 -3.21210831220E-01 +2.46006519640E-01 -1.21453606620E-03 -1.03191662731E-04 -1.29915198017E-03 +5.43150349560E-06 -4.29390048916E-01 +1.31356085609E-01
3.05000000000E+09 -3.09787295676E-01 +2.74326540566E-01 -9.66825750922E-04 -6.23450441654E-04 -1.00745709985E-03 -5.07750122437E-04 -4.32514470223E-01 +1.71529781004E-01
3.05500000000E+09 -2.97488812721E-01 +3.02207199699E-01 -1.23866338310E-03 -8.44945794050E-04 -1.23183363336E-03 -7.44315795119E-04 -4.32642874751E-01 +2.10366903331E-01
3.06000000000E+09 -2.83647225551E-01 +3.29451248960E-01 -1.98990722354E-03 -6.67538315476E-04 -1.84657158733E-03 -5.29147149284E-04 -4.30885768439E-01 +2.48319620767E-01
3.06500000000E+09 -2.69034417506E-01 +3.54896657731E-01 -1.82230657699E-03 +1.92816333963E-04 -1.61530098710E-03 +1.54022234552E-04 -4.26698535143E-01 +2.85416818757E-01
3.07000000000E+09 -2.54030589811E-01 +3.79294654472E-01 -1.36643628269E-03 +3.04325950114E-04 -1.27893940555E-03 +1.94592905482E-04 -4.20409904906E-01 +3.21759007540E-01
