# Hz S RI R 50
! CMT, C1220, 16058040, 17.2.0/1
! Date: 15/08/2018 10:42:42
! Data: Format (Calibration Info)
! Freq                      S11: Re/Im (F2)                       S21: Re/Im (F2)                       S12: Re/Im (F2)                       S22: Re/Im (F2)            
2.50000000000E+09 +5.92155768770E-01 +6.51520223168E-01 -2.05546417341E-05 -4.06101481099E-04 -3.26735100855E-05 -4.30855055172E-04 +5.64462038904E-01 +7.24931190044E-01
2.50500000000E+09 +5.98884929299E-01 +6.43208700161E-01 -9.63306485482E-05 -4.25783103454E-04 -1.80962634784E-04 -4.93217917857E-04 +5.70412191306E-01 +7.19293515860E-01
2.51000000000E+09 +6.06277715771E-01 +6.35093096357E-01 -1.79538383532E-04 -4.49155961830E-04 -2.05058660657E-04 -4.52773706948E-04 +5.76337148320E-01 +7.13987745725E-01
2.51500000000E+09 +6.14066644537E-01 +6.27285502968E-01 -2.59505586621E-04 -4.77000399903E-04 -2.46966740188E-04 -3.91076613908E-04 +5.81809194049E-01 +7.08364670952E-01
2.52000000000E+09 +6.21179482542E-01 +6.19707274643E-01 -3.09429029402E-04 -4.28589655517E-04 -3.10091250790E-04 -4.42330154408E-04 +5.87226191959E-01 +7.02270851906E-01
2.52500000000E+09 +6.26987253484E-01 +6.13235615803E-01 -3.99943263252E-04 -4.00591238080E-04 -3.29263215005E-04 -4.34137801838E-04 +5.93147803049E-01 +6.95781001449E-01
2.53000000000E+09 +6.31962382055E-01 +6.07534659206E-01 -4.19323414397E-04 -4.35682332788E-04 -4.62715669915E-04 -3.86263324998E-04 +5.99368543508E-01 +6.88614113228E-01
2.53500000000E+09 +6.36049029609E-01 +6.01913805574E-01 -5.59624914604E-04 -3.55920813609E-04 -5.64025478277E-04 -3.08445989159E-04 +6.05353268305E-01 +6.81505309345E-01
2.54000000000E+09 +6.39429278124E-01 +5.96135094993E-01 -5.73260617782E-04 -3.10008771520E-04 -5.51687031747E-04 -3.62602620172E-04 +6.11021554743E-01 +6.74554949712E-01
2.54500000000E+09 +6.42905533980E-01 +5.89828989949E-01 -6.89268618318E-04 -2.42105485570E-04 -6.60678433877E-04 -3.01187937330E-04 +6.16249926089E-01 +6.68309502832E-01
2.55000000000E+09 +6.47343537353E-01 +5.82298867471E-01 -6.90670019115E-04 -9.78650080304E-05 -7.42169893993E-04 -1.65070769237E-04 +6.21401079908E-01 +6.62249017052E-01
2.55500000000E+09 +6.52656936114E-01 +5.73236944398E-01 -6.96488127699E-04 -4.53324838723E-05 -7.74651630088E-04 -4.96561873871E-05 +6.26327140656E-01 +6.55863606061E-01
2.56000000000E+09 +6.59293916093E-01 +5.63591120826E-01 -6.28700200618E-04 -1.08903080636E-05 -7.44068282362E-04 +5.31256633038E-05 +6.31331700933E-01 +6.48766692716E-01
2.56500000000E+09 +6.66639924333E-01 +5.53239300861E-01 -6.78946210962E-04 -4.75784951734E-05 -7.07596093858E-04 +9.69825328325E-05 +6.36543715010E-01 +6.41445738342E-01
2.57000000000E+09 +6.74350722618E-01 +5.43130050609E-01 -7.46450356884E-04 -2.06047468529E-06 -7.46385583435E-04 +1.61538627503E-04 +6.41508836989E-01 +6.33770717649E-01
2.57500000000E+09 +6.81990467365E-01 +5.33780171101E-01 -7.90405293464E-04 +1.34485788176E-04 -6.33112711675E-04 +1.77169676034E-04 +6.46842997155E-01 +6.26488025489E-01
2.58000000000E+09 +6.88501223548E-01 +5.25486794278E-01 -7.71569571160E-04 +1.83404073820E-04 -6.69302611446E-04 +1.67580004943E-04 +6.51929023937E-01 +6.19334840830E-01
2.58500000000E+09 +6.93649741652E-01 +5.18540885107E-01 -9.29449732711E-04 +2.68052473813E-04 -8.21828225141E-04 +1.48606358207E-04 +6.57121426415E-01 +6.12178251483E-01
2.59000000000E+09 +6.97826756357E-01 +5.12622165810E-01 -8.79645561450E-04 +4.97226143169E-04 -8.60373877505E-04 +3.59457903615E-04 +6.62275053187E-01 +6.04878572173E-01
2.59500000000E+09 +7.00951006025E-01 +5.06743722160E-01 -7.68699236015E-04 +6.26048246417E-04 -8.74399008503E-04 +5.91804175624E-04 +6.67469393952E-01 +5.97118448284E-01
2.60000000000E+09 +7.03459747765E-01 +5.00170088327E-01 -7.02355967781E-04 +6.58974837821E-04 -6.88921759398E-04 +6.28293416947E-04 +6.73179296415E-01 +5.88920503173E-01
2.60500000000E+09 +7.05947741491E-01 +4.91787133971E-01 -6.61317437526E-04 +6.51964970923E-04 -7.01820120088E-04 +6.89750388483E-04 +6.78863810054E-01 +5.80085865535E-01
2.61000000000E+09 +7.08805565425E-01 +4.81546371712E-01 -7.52275825870E-04 +8.24943915881E-04 -7.63475083036E-04 +8.34717400696E-04 +6.84140791943E-01 +5.71132061964E-01
2.61500000000E+09 +7.12628259349E-01 +4.69136528731E-01 -4.60267998066E-04 +9.69264156571E-04 -5.19918358467E-04 +9.87720740000E-04 +6.89185331641E-01 +5.62588916787E-01
2.62000000000E+09 +7.17097850311E-01 +4.54952062162E-01 -3.88424721094E-04 +8.62854098371E-04 -4.48439034339E-04 +9.66959946296E-04 +6.94284239308E-01 +5.53541012462E-01
2.62500000000E+09 +7.22290524163E-01 +4.39718590949E-01 -5.13106448586E-04 +9.85687836549E-04 -4.66526388993E-04 +1.04755205071E-03 +6.99276183315E-01 +5.44493800743E-01
2.63000000000E+09 +7.27736615491E-01 +4.24528159942E-01 -4.44059503462E-04 +1.18258861470E-03 -2.91953766281E-04 +1.20168167784E-03 +7.03911478144E-01 +5.34945277265E-01
2.63500000000E+09 +7.32427445854E-01 +4.10476992565E-01 -3.65027501783E-04 +1.28804323862E-03 -2.07809092149E-04 +1.18943196653E-03 +7.08386185813E-01 +5.25632586038E-01
2.64000000000E+09 +7.37144422918E-01 +3.98388514420E-01 -1.65941675300E-04 +1.57274746584E-03 -1.04089707958E-04 +1.37203020180E-03 +7.12907171780E-01 +5.16045447047E-01
2.64500000000E+09 +7.41261097301E-01 +3.88005210979E-01 +3.35241971306E-04 +1.54713447095E-03 +1.74231741835E-04 +1.39500836559E-03 +7.17469578108E-01 +5.06204277508E-01
2.65000000000E+09 +7.44164845223E-01 +3.79119373314E-01 +4.53230713215E-04 +1.21641765271E-03 +2.93605674026E-04 +1.22406096229E-03 +7.21564254630E-01 +4.96110590863E-01
2.65500000000E+09 +7.46198741050E-01 +3.70893378938E-01 +3.44003595198E-04 +1.15779108465E-03 +2.70119203142E-04 +1.25038157536E-03 +7.25340508625E-01 +4.85771632040E-01
2.66000000000E+09 +7.47771363372E-01 +3.62621103101E-01 +2.65107712664E-04 +1.34351717096E-03 +3.25859646318E-04 +1.46281524599E-03 +7.29414766432E-01 +4.74746692102E-01
2.66500000000E+09 +7.49381343545E-01 +3.53586675789E-01 +5.18105178177E-04 +1.50756697916E-03 +6.21475678331E-04 +1.56269955307E-03 +7.33384240234E-01 +4.63866219597E-01
2.67000000000E+09 +7.50846837421E-01 +3.41984771510E-01 +8.63960728499E-04 +1.53949753047E-03 +9.38054846034E-04 +1.41341883447E-03 +7.37818052604E-01 +4.53237046141E-01
2.67500000000E+09 +7.52363996436E-01 +3.28611077665E-01 +1.15747674390E-03 +1.43251884771E-03 +1.12123966139E-03 +1.34459185522E-03 +7.41860356378E-01 +4.42397088593E-01
2.68000000000E+09 +7.53923606557E-01 +3.12911653786E-01 +1.43944348651E-03 +1.21220237582E-03 +1.33126875890E-03 +1.17691802803E-03 +7.45889194935E-01 +4.31592209890E-01
2.68500000000E+09 +7.55337477011E-01 +2.96297316332E-01 +1.39119475229E-03 +1.09979335480E-03 +1.31827478678E-03 +1.14933326389E-03 +7.49182886059E-01 +4.20309284379E-01
2.69000000000E+09 +7.56991610404E-01 +2.79235133107E-01 +1.66730537854E-03 +1.02735841784E-03 +1.64211005105E-03 +1.03753893180E-03 +7.52113335719E-01 +4.08713706864E-01
2.69500000000E+09 +7.58712211451E-01 +2.62925928709E-01 +1.81302338233E-03 +8.54308638277E-04 +1.81477328193E-03 +8.45906156948E-04 +7.55216597777E-01 +3.96594334562E-01
2.70000000000E+09 +7.60209070859E-01 +2.47089718718E-01 +2.05430220405E-03 +6.93348699970E-04 +1.94006236818E-03 +6.81655653210E-04 +7.58588110265E-01 +3.83326493554E-01
2.70500000000E+09 +7.61222201176E-01 +2.32966471006E-01 +2.21782901567E-03 +4.23080300934E-04 +2.12887656255E-03 +5.42542622419E-04 +7.61432882483E-01 +3.70166535000E-01
2.71000000000E+09 +7.62404158737E-01 +2.19536405722E-01 +2.39167302550E-03 +6.33968304920E-05 +2.42323383469E-03 +2.31051777890E-04 +7.64569761605E-01 +3.57360831866E-01
2.71500000000E+09 +7.62817193625E-01 +2.06449871207E-01 +2.39712398805E-03 -3.87955942431E-04 +2.54526418417E-03 -3.75218458212E-04 +7.67517386000E-01 +3.44929617848E-01
2.72000000000E+09 +7.63116638816E-01 +1.93485873405E-01 +2.22219194131E-03 -6.53596834263E-04 +2.27946459008E-03 -8.68322275350E-04 +7.69980848690E-01 +3.32215053843E-01
2.72500000000E+09 +7.62906820138E-01 +1.79203268930E-01 +2.12426473118E-03 -8.58281768112E-04 +2.04669715116E-03 -9.93152670939E-04 +7.71745034044E-01 +3.18731252558E-01
2.73000000000E+09 +7.61632356804E-01 +1.63952949006E-01 +2.17335227330E-03 -1.14248226097E-03 +1.87397168983E-03 -1.16847332034E-03 +7.73442707082E-01 +3.04456191750E-01
2.73500000000E+09 +7.59715743746E-01 +1.47427365233E-01 +1.94381156884E-03 -1.48183403962E-03 +1.61899962032E-03 -1.28177073384E-03 +7.75006670321E-01 +2.89365081579E-01
2.74000000000E+09 +7.57141288623E-01 +1.30214065651E-01 +1.64019906079E-03 -1.52451117647E-03 +1.62368872913E-03 -1.25724607252E-03 +7.76804723540E-01 +2.73907831706E-01
2.74500000000E+09 +7.53780555473E-01 +1.12253227669E-01 +1.77177460734E-03 -1.79398011987E-03 +1.89045702545E-03 -1.47410281034E-03 +7.78365148412E-01 +2.58357471910E-01
2.75000000000E+09 +7.49142510392E-01 +9.42309827885E-02 +1.54562234315E-03 -2.09554800015E-03 +1.85731017437E-03 -1.96073070595E-03 +7.79297385650E-01 +2.42365200808E-01
2.75500000000E+09 +7.44240030545E-01 +7.68157113622E-02 +1.34357465398E-03 -2.36576414820E-03 +1.60705513686E-03 -2.45800102235E-03 +7.79202824204E-01 +2.26744653626E-01
2.76000000000E+09 +7.39180820617E-01 +5.93462839808E-02 +9.62294837665E-04 -2.71817673983E-03 +1.07943044652E-03 -2.92902307074E-03 +7.78442172426E-01 +2.11053941829E-01
2.76500000000E+09 +7.33729408581E-01 +4.18519254776E-02 +4.88915565010E-04 -2.63105932738E-03 +5.00642161204E-04 -2.81616353974E-03 +7.77707108086E-01 +1.94191385105E-01
2.77000000000E+09 +7.27558629537E-01 +2.34753419537E-02 +1.12754194411E-04 -2.79575128690E-03 +4.79342266631E-05 -2.97072058450E-03 +7.76126877154E-01 +1.76358220862E-01
2.77500000000E+09 +7.20552146273E-01 +4.79757276014E-03 -4.36489855780E-04 -2.64390812607E-03 -5.28533793542E-04 -2.74482019464E-03 +7.73996543147E-01 +1.58457951840E-01
2.78000000000E+09 +7.13570701831E-01 -1.46054258088E-02 -5.61857309646E-04 -2.31085944839E-03 -7.28607023662E-04 -2.32729700225E-03 +7.71483932533E-01 +1.40658155460E-01
2.78500000000E+09 +7.06069034916E-01 -3.52401967403E-02 -5.70205738019E-04 -2.06366401759E-03 -7.25485982701E-04 -2.01437037070E-03 +7.68842303409E-01 +1.23422223647E-01
2.79000000000E+09 +6.98152632780E-01 -5.61571974234E-02 -5.30410593324E-04 -2.20578140343E-03 -6.09687946754E-04 -2.08061178075E-03 +7.65584867829E-01 +1.06342498261E-01
2.79500000000E+09 +6.89912302381E-01 -7.73248665220E-02 -6.67979998403E-04 -2.57015157015E-03 -7.60911885220E-04 -2.39074810763E-03 +7.61507242594E-01 +8.87192766305E-02
2.80000000000E+09 +6.80936330890E-01 -9.79115134174E-02 -1.36697581286E-03 -2.64761630322E-03 -1.28479566494E-03 -2.56119518284E-03 +7.56713569880E-01 +7.06955305979E-02
2.80500000000E+09 +6.71264777901E-01 -1.17326393670E-01 -1.77108716268E-03 -2.31237415041E-03 -1.63818949876E-03 -2.36841277329E-03 +7.51379797623E-01 +5.20989265698E-02
2.81000000000E+09 +6.60530747042E-01 -1.34802790533E-01 -1.98518950506E-03 -1.93612899147E-03 -1.97898553940E-03 -2.00182745762E-03 +7.45939000746E-01 +3.32613484566E-02
2.81500000000E+09 +6.48341364475E-01 -1.50721569433E-01 -1.99898995414E-03 -1.91163696631E-03 -2.09875509703E-03 -1.90015798857E-03 +7.39853839178E-01 +1.28482250351E-02
2.82000000000E+09 +6.35227608291E-01 -1.64888293260E-01 -2.50929076734E-03 -1.72776200565E-03 -2.60465975922E-03 -1.57540410335E-03 +7.32718072981E-01 -7.32937858588E-03
2.82500000000E+09 +6.20668229766E-01 -1.79105258776E-01 -2.62770953753E-03 -1.33666937463E-03 -2.51811084426E-03 -1.16419676990E-03 +7.24604088703E-01 -2.77081390454E-02
2.83000000000E+09 +6.03901646395E-01 -1.94395068993E-01 -2.92819371860E-03 -9.91712858614E-04 -2.73638829278E-03 -9.26225513135E-04 +7.15733551423E-01 -4.80644804207E-02
2.83500000000E+09 +5.84849583909E-01 -2.10737518401E-01 -2.79617516307E-03 -4.93738785100E-04 -2.65171864978E-03 -6.16809561796E-04 +7.05487793644E-01 -6.89917565888E-02
2.84000000000E+09 +5.63402110515E-01 -2.28493315352E-01 -2.80284292071E-03 -4.84910028095E-04 -2.74957766148E-03 -5.12983748314E-04 +6.94571787547E-01 -9.03560901041E-02
2.84500000000E+09 +5.39840539681E-01 -2.47706891595E-01 -2.99899018952E-03 -1.46410373937E-04 -2.94888197013E-03 -2.25768526260E-04 +6.81271078543E-01 -1.11935046742E-01
2.85000000000E+09 +5.14823282753E-01 -2.67395652570E-01 -3.10752899083E-03 +3.14889631978E-04 -3.05967654669E-03 +2.59991651330E-04 +6.66789382621E-01 -1.32779577964E-01
2.85500000000E+09 +4.88262829245E-01 -2.86268842574E-01 -3.03125107525E-03 +6.13957993050E-04 -2.98089949817E-03 +6.38686544122E-04 +6.50902384650E-01 -1.52821289083E-01
2.86000000000E+09 +4.62425610397E-01 -3.02825823410E-01 -2.77009149904E-03 +1.14592594991E-03 -2.72017830753E-03 +1.05541596087E-03 +6.35182545351E-01 -1.72665487291E-01
2.86500000000E+09 +4.38616208152E-01 -3.17372213417E-01 -2.67825235686E-03 +9.31018601618E-04 -2.67875244394E-03 +8.93698700968E-04 +6.17606516586E-01 -1.93604004591E-01
2.87000000000E+09 +4.15404448066E-01 -3.31413316971E-01 -2.94423705348E-03 +1.79105140080E-03 -3.02719709890E-03 +1.71780462101E-03 +5.98137522298E-01 -2.13509237887E-01
2.87500000000E+09 +3.91467307217E-01 -3.43128130633E-01 -2.29349700972E-03 +1.76010398005E-03 -2.30901839834E-03 +1.81087769784E-03 +5.77352467552E-01 -2.32613070278E-01
2.88000000000E+09 +3.66323710645E-01 -3.52964462626E-01 -2.58895209953E-03 +1.98807020307E-03 -2.52736004402E-03 +1.93744297488E-03 +5.56311765351E-01 -2.50312402940E-01
2.88500000000E+09 +3.38520841921E-01 -3.59882284059E-01 -2.15055285088E-03 +2.72114967460E-03 -2.00527396499E-03 +2.62856929933E-03 +5.34295973351E-01 -2.69251155402E-01
2.89000000000E+09 +3.09662268727E-01 -3.64058167981E-01 -1.81989457015E-03 +2.66428738027E-03 -1.71761256397E-03 +2.50336538561E-03 +5.09285279588E-01 -2.87328019605E-01
2.89500000000E+09 +2.79269598449E-01 -3.67668421770E-01 -1.43034655823E-03 +2.82932062019E-03 -1.61431219491E-03 +2.70962838362E-03 +4.82878024982E-01 -3.04097866436E-01
2.90000000000E+09 +2.46607253408E-01 -3.70498422598E-01 -1.13092254649E-03 +3.13217250613E-03 -1.26929633953E-03 +3.16659865312E-03 +4.55465528922E-01 -3.20652770551E-01
2.90500000000E+09 +2.11508262994E-01 -3.72482815448E-01 -8.61455233840E-04 +3.15860852067E-03 -9.32589270365E-04 +3.20877027023E-03 +4.26816295526E-01 -3.36149165151E-01
2.91000000000E+09 +1.75743283914E-01 -3.72673198642E-01 -2.47258986160E-04 +3.29679199429E-03 -2.06480950773E-04 +3.39669533569E-03 +3.97553152681E-01 -3.51654806347E-01
2.91500000000E+09 +1.39699290101E-01 -3.71667925615E-01 -4.82950119154E-05 +3.37038582552E-03 +5.44170648960E-05 +3.24608605006E-03 +3.64725397716E-01 -3.65584619762E-01
2.92000000000E+09 +1.03489431697E-01 -3.68216284051E-01 +7.70083672491E-04 +3.32484322351E-03 +6.90962032070E-04 +3.16001449089E-03 +3.30074499125E-01 -3.76199646953E-01
2.92500000000E+09 +6.98625432978E-02 -3.60948606693E-01 +8.81474548998E-04 +2.74293802622E-03 +7.74102527635E-04 +2.63431327101E-03 +2.94450381594E-01 -3.83906304921E-01
2.93000000000E+09 +3.87824229221E-02 -3.52392070209E-01 +8.10364568332E-04 +2.66546654307E-03 +6.68841581696E-04 +2.67170369529E-03 +2.58118208819E-01 -3.90508530526E-01
2.93500000000E+09 +8.61748654056E-03 -3.41795185749E-01 +1.07477676249E-03 +2.78311062940E-03 +1.04421442725E-03 +2.82750217127E-03 +2.19749990199E-01 -3.95894308132E-01
2.94000000000E+09 -2.07716374718E-02 -3.28910901943E-01 +1.32644196617E-03 +2.46355768866E-03 +1.32557338093E-03 +2.46012951386E-03 +1.78655933572E-01 -3.98775011534E-01
2.94500000000E+09 -5.05371041013E-02 -3.14189638204E-01 +1.15890120998E-03 +2.76179606191E-03 +1.12257318129E-03 +2.73269676593E-03 +1.39235630247E-01 -3.97381670589E-01
2.95000000000E+09 -8.18607176718E-02 -2.95346673166E-01 +1.88564426131E-03 +2.83222584076E-03 +1.81857672332E-03 +2.84501168278E-03 +9.92543495831E-02 -3.94991397582E-01
2.95500000000E+09 -1.11360376852E-01 -2.72547396774E-01 +2.43698500907E-03 +2.58471398088E-03 +2.38959580186E-03 +2.69396249296E-03 +5.95672870076E-02 -3.89337411153E-01
2.96000000000E+09 -1.39716493059E-01 -2.48853200868E-01 +2.52200958519E-03 +1.72695440172E-03 +2.55527597610E-03 +1.72832156605E-03 +1.82154762063E-02 -3.80867996160E-01
2.96500000000E+09 -1.66702714367E-01 -2.22528631788E-01 +2.20186751039E-03 +1.75668803107E-03 +2.25094959063E-03 +1.84124730218E-03 -2.24539363034E-02 -3.67557472334E-01
2.97000000000E+09 -1.90529701385E-01 -1.95850477030E-01 +2.43084504531E-03 +1.98359442953E-03 +2.39629603233E-03 +1.87983360800E-03 -6.14142238471E-02 -3.51813247342E-01
2.97500000000E+09 -2.13290807324E-01 -1.69628756059E-01 +3.00983658299E-03 +2.26722862643E-03 +2.94524338276E-03 +2.20028254442E-03 -9.90964681970E-02 -3.34906502384E-01
2.98000000000E+09 -2.35314646751E-01 -1.41512307895E-01 +3.84301821473E-03 +1.68056291595E-03 +3.68271756206E-03 +1.82578852548E-03 -1.36694577421E-01 -3.15803340324E-01
2.98500000000E+09 -2.54450116581E-01 -1.11905490906E-01 +4.09269250503E-03 +7.53656572088E-04 +4.08614053733E-03 +9.36579698991E-04 -1.73196978839E-01 -2.94034580636E-01
2.99000000000E+09 -2.71193382896E-01 -8.07619359964E-02 +4.05089132080E-03 +3.10784717953E-04 +4.19399251316E-03 +4.85109036212E-04 -2.08469719444E-01 -2.68422825205E-01
2.99500000000E+09 -2.85356072995E-01 -4.96042780813E-02 +4.13923600202E-03 -1.02093821610E-04 +4.26719284624E-03 -1.65160258093E-04 -2.41423265401E-01 -2.39712775995E-01
3.00000000000E+09 -2.98597400865E-01 -1.69071245306E-02 +4.27699892056E-03 -6.93787017209E-04 +4.27756261631E-03 -8.72844955992E-04 -2.72133787976E-01 -2.08507002143E-01
3.00500000000E+09 -3.09003369264E-01 +1.54730135705E-02 +4.34850532763E-03 -1.26894685981E-03 +4.24646491342E-03 -1.25168394880E-03 -3.00801508970E-01 -1.76342047275E-01
3.01000000000E+09 -3.18300413939E-01 +4.72573458791E-02 +4.01078354125E-03 -2.42285441286E-03 +3.88970030301E-03 -2.20959646367E-03 -3.27636628569E-01 -1.41436869031E-01
3.01500000000E+09 -3.26000385496E-01 +7.99354167838E-02 +3.30750118134E-03 -2.66832863644E-03 +3.46241647299E-03 -2.53963393484E-03 -3.51571170243E-01 -1.06007155732E-01
3.02000000000E+09 -3.29594535417E-01 +1.11151777599E-01 +2.91056449189E-03 -2.97108920121E-03 +3.10136819338E-03 -2.94376884907E-03 -3.72294766274E-01 -6.86357204980E-02
3.02500000000E+09 -3.31538863431E-01 +1.40290356833E-01 +2.59396992679E-03 -3.01363416087E-03 +2.76426363089E-03 -3.10847330996E-03 -3.89738804565E-01 -3.12305059143E-02
3.03000000000E+09 -3.31270172857E-01 +1.68581116264E-01 +2.28044370112E-03 -3.45776041691E-03 +2.34241372371E-03 -3.56784917163E-03 -4.05246828105E-01 +8.44857523098E-03
3.03500000000E+09 -3.28214607071E-01 +1.97189530433E-01 +1.72191694799E-03 -3.64628795830E-03 +1.77259071662E-03 -3.71099939424E-03 -4.17311125461E-01 +4.89205730319E-02
3.04000000000E+09 -3.21653700418E-01 +2.25979109071E-01 +1.21294503796E-03 -4.00695675492E-03 +1.28278900211E-03 -4.11013205046E-03 -4.24516253640E-01 +8.94601758975E-02
3.04500000000E+09 -3.12591802298E-01 +2.53816671944E-01 +6.29712115778E-04 -3.65920669819E-03 +6.41355270339E-04 -3.84626302916E-03 -4.30356367043E-01 +1.28359591497E-01
3.05000000000E+09 -3.01444422757E-01 +2.83168832743E-01 +4.61161070622E-04 -3.64807622463E-03 +3.53825938998E-04 -3.91653299378E-03 -4.33924095542E-01 +1.66677294923E-01
3.05500000000E+09 -2.87913832109E-01 +3.10979712658E-01 +2.04806100833E-04 -3.71700974471E-03 -1.58880937603E-04 -3.73902479980E-03 -4.35326783833E-01 +2.05125368798E-01
3.06000000000E+09 -2.75060352345E-01 +3.38598444016E-01 -1.47684070397E-04 -3.94554015458E-03 -2.97039696914E-04 -3.69955939469E-03 -4.34196471686E-01 +2.42590626927E-01
3.06500000000E+09 -2.61533867126E-01 +3.65672559609E-01 -7.23497436560E-04 -4.13549031080E-03 -7.18752988975E-04 -3.88175850107E-03 -4.30666964357E-01 +2.79840460333E-01
3.07000000000E+09 -2.48882839855E-01 +3.91323724500E-01 -1.73702622480E-03 -3.85954358484E-03 -1.47589121117E-03 -3.83931920973E-03 -4.24846941322E-01 +3.15635547984E-01
