# Hz S RI R 50
! CMT, C1220, 16058040, 17.2.0/1
! Date: 15/08/2018 09:53:33
! Data: Format (Calibration Info)
! Freq                      S11: Re/Im (F2)                       S21: Re/Im (F2)                       S12: Re/Im (F2)                       S22: Re/Im (F2)            
2.50000000000E+09 +5.98604908440E-01 +6.24426990504E-01 -4.44202371945E-04 -1.13143098207E-03 -4.56386009633E-04 -1.25147752175E-03 +5.78963948308E-01 +7.12680552892E-01
2.50500000000E+09 +6.04871586046E-01 +6.17466881586E-01 -5.47384689355E-04 -1.12770701640E-03 -6.17952838199E-04 -1.12874345432E-03 +5.84617455281E-01 +7.07166721502E-01
2.51000000000E+09 +6.11241817065E-01 +6.10121654322E-01 -6.36808929695E-04 -1.02544392760E-03 -7.00773738293E-04 -9.83956629813E-04 +5.90246828737E-01 +7.01973504050E-01
2.51500000000E+09 +6.17805044310E-01 +6.02741760103E-01 -7.42577517233E-04 -1.00826503904E-03 -7.07396732364E-04 -1.01286712034E-03 +5.95373615149E-01 +6.96585832519E-01
2.52000000000E+09 +6.24103702580E-01 +5.94785819825E-01 -8.84514453489E-04 -1.03574787365E-03 -8.36846571159E-04 -1.02969646139E-03 +6.00506348823E-01 +6.90441100053E-01
2.52500000000E+09 +6.29747305768E-01 +5.87120461920E-01 -1.08842810914E-03 -9.11235546865E-04 -1.00743294816E-03 -9.59268630044E-04 +6.06155974391E-01 +6.83877211506E-01
2.53000000000E+09 +6.34965656902E-01 +5.79484366309E-01 -1.13965680098E-03 -6.98118475607E-04 -1.18493954750E-03 -6.93756458535E-04 +6.12107977384E-01 +6.76585855103E-01
2.53500000000E+09 +6.39895017305E-01 +5.72262823167E-01 -1.05026942166E-03 -6.26309717970E-04 -1.04057593601E-03 -6.09255062169E-04 +6.18097085860E-01 +6.69605921525E-01
2.54000000000E+09 +6.44410420560E-01 +5.65281189791E-01 -1.13252161478E-03 -6.23785695988E-04 -1.14141206769E-03 -6.13354294719E-04 +6.24112522204E-01 +6.62976089340E-01
2.54500000000E+09 +6.49105960325E-01 +5.58516678122E-01 -1.26524038866E-03 -5.97601227042E-04 -1.22055018598E-03 -7.19371158794E-04 +6.30051295732E-01 +6.56397744921E-01
2.55000000000E+09 +6.53791125892E-01 +5.51561292353E-01 -1.37209113625E-03 -4.07095742658E-04 -1.42570851327E-03 -5.81244825894E-04 +6.35086302573E-01 +6.50118484991E-01
2.55500000000E+09 +6.58654029196E-01 +5.44360047042E-01 -1.40053766704E-03 -2.17445897923E-04 -1.67794404564E-03 -2.85114528775E-04 +6.40018952628E-01 +6.43706396753E-01
2.56000000000E+09 +6.64181445035E-01 +5.37229048043E-01 -1.37750613586E-03 -3.77386090307E-05 -1.62218249482E-03 +8.53956190955E-05 +6.45058932975E-01 +6.36475605372E-01
2.56500000000E+09 +6.70214238105E-01 +5.29360189216E-01 -1.22200021292E-03 -4.91520882006E-05 -1.40116733845E-03 +1.64359978921E-04 +6.50263136858E-01 +6.29009178477E-01
2.57000000000E+09 +6.76496066153E-01 +5.21202062119E-01 -1.33927620526E-03 -1.91559031376E-04 -1.35023836352E-03 +1.27473019851E-04 +6.55984253241E-01 +6.20932315361E-01
2.57500000000E+09 +6.82762402266E-01 +5.12315849393E-01 -1.65036019353E-03 -9.66836119458E-06 -1.49646371840E-03 +2.54697447806E-04 +6.61704853276E-01 +6.12851293036E-01
2.58000000000E+09 +6.88405800376E-01 +5.03433221066E-01 -1.70297244069E-03 +4.68492341765E-04 -1.44253653793E-03 +4.44420314867E-04 +6.66549612752E-01 +6.05223168332E-01
2.58500000000E+09 +6.94083084293E-01 +4.94596192627E-01 -1.49086042485E-03 +6.96929273703E-04 -1.36192161682E-03 +5.29815169075E-04 +6.71424741044E-01 +5.97815406775E-01
2.59000000000E+09 +6.99202705228E-01 +4.85747639429E-01 -1.32255252301E-03 +7.10775999955E-04 -1.32278095281E-03 +6.03296846037E-04 +6.76175707746E-01 +5.90396693289E-01
2.59500000000E+09 +7.03903512040E-01 +4.76785384168E-01 -1.32649088431E-03 +7.34138348505E-04 -1.38525470538E-03 +6.85026415199E-04 +6.80784638247E-01 +5.82240224467E-01
2.60000000000E+09 +7.08161110166E-01 +4.67867453444E-01 -1.38870586742E-03 +6.98585995025E-04 -1.43462091617E-03 +7.51966055311E-04 +6.85578467598E-01 +5.73649441394E-01
2.60500000000E+09 +7.12602613133E-01 +4.58631494125E-01 -1.57474872339E-03 +9.96038234372E-04 -1.60067882964E-03 +1.01772065983E-03 +6.90473308428E-01 +5.64509468042E-01
2.61000000000E+09 +7.16745355206E-01 +4.49016642983E-01 -1.42017685564E-03 +1.52601420719E-03 -1.43601044188E-03 +1.54641372602E-03 +6.95472154137E-01 +5.55633493354E-01
2.61500000000E+09 +7.21307515457E-01 +4.38579742174E-01 -1.00438089902E-03 +1.67872762891E-03 -1.00953341461E-03 +1.68950354674E-03 +7.00235364106E-01 +5.47151704447E-01
2.62000000000E+09 +7.25486276335E-01 +4.27240826656E-01 -8.17580602622E-04 +1.54661673598E-03 -7.64600339917E-04 +1.55848237725E-03 +7.05225578652E-01 +5.38047532396E-01
2.62500000000E+09 +7.29476002284E-01 +4.15302050844E-01 -7.73821753695E-04 +1.50566788320E-03 -7.02663991644E-04 +1.63638019551E-03 +7.09587265875E-01 +5.29046944562E-01
2.63000000000E+09 +7.33728233890E-01 +4.02952054362E-01 -6.99786313929E-04 +1.58589505577E-03 -5.31653361004E-04 +1.55645335312E-03 +7.13961964259E-01 +5.20461323784E-01
2.63500000000E+09 +7.37384801704E-01 +3.90178662858E-01 -7.97444355166E-04 +1.64493548035E-03 -5.45644578217E-04 +1.55259609249E-03 +7.18890330802E-01 +5.11214655234E-01
2.64000000000E+09 +7.40836554299E-01 +3.77647800285E-01 -5.50131819893E-04 +2.05479902322E-03 -4.61216868843E-04 +1.78310252344E-03 +7.23628777812E-01 +5.01371140499E-01
2.64500000000E+09 +7.44542344492E-01 +3.65491346012E-01 -1.22882173962E-04 +2.00424935500E-03 -2.31431669944E-04 +1.71942002680E-03 +7.28340976313E-01 +4.91418851115E-01
2.65000000000E+09 +7.47672818675E-01 +3.53406310889E-01 +4.13536750774E-05 +1.95188434053E-03 -2.23474784614E-04 +1.86010418449E-03 +7.32642257512E-01 +4.81115384979E-01
2.65500000000E+09 +7.50702592542E-01 +3.41207519627E-01 +1.95296612100E-04 +1.85258816019E-03 -2.69155204851E-05 +1.98713367600E-03 +7.36258663673E-01 +4.70915616045E-01
2.66000000000E+09 +7.53577188382E-01 +3.29289925562E-01 +2.54567448706E-04 +1.94344131052E-03 +2.26211429941E-04 +2.13174386267E-03 +7.40579001408E-01 +4.60334639597E-01
2.66500000000E+09 +7.56166117862E-01 +3.17498034610E-01 +4.78290572897E-04 +1.92401736479E-03 +5.79012851846E-04 +1.99476160822E-03 +7.45251559382E-01 +4.48844098157E-01
2.67000000000E+09 +7.58655440920E-01 +3.05049009441E-01 +5.72245440083E-04 +2.00423481800E-03 +6.60572785076E-04 +1.87780992900E-03 +7.49275759220E-01 +4.37376511578E-01
2.67500000000E+09 +7.60686729529E-01 +2.91750804433E-01 +8.73017369361E-04 +1.93758733263E-03 +8.35515053819E-04 +1.82754843219E-03 +7.53037098334E-01 +4.25909679551E-01
2.68000000000E+09 +7.61642824343E-01 +2.78024061574E-01 +9.16836783076E-04 +1.72435343926E-03 +8.94686304343E-04 +1.70812633172E-03 +7.56628649949E-01 +4.14723175628E-01
2.68500000000E+09 +7.62233649101E-01 +2.64344254145E-01 +9.16678715388E-04 +1.83318649562E-03 +8.51106365466E-04 +1.79692954400E-03 +7.59627246484E-01 +4.03336882782E-01
2.69000000000E+09 +7.62788846087E-01 +2.50596563515E-01 +1.29071048787E-03 +1.91429579577E-03 +1.31415874759E-03 +1.99370465360E-03 +7.62488257548E-01 +3.91292447059E-01
2.69500000000E+09 +7.63547439588E-01 +2.36480710402E-01 +1.50842323055E-03 +1.82230206067E-03 +1.53376728916E-03 +1.76822563654E-03 +7.64989317322E-01 +3.78317266788E-01
2.70000000000E+09 +7.64104954818E-01 +2.22169166228E-01 +1.77545863577E-03 +1.70864494172E-03 +1.78738714448E-03 +1.67564592552E-03 +7.67376470685E-01 +3.64802842077E-01
2.70500000000E+09 +7.64412245544E-01 +2.08035858016E-01 +1.99100846244E-03 +1.32037337549E-03 +1.95207011154E-03 +1.33831900591E-03 +7.69752716936E-01 +3.51434221002E-01
2.71000000000E+09 +7.65029339291E-01 +1.94187985448E-01 +1.99556884302E-03 +1.18239629374E-03 +2.02947965842E-03 +1.25621707488E-03 +7.72828419711E-01 +3.38317437700E-01
2.71500000000E+09 +7.66145520685E-01 +1.79807654865E-01 +1.97989710475E-03 +1.03960325812E-03 +2.10991512501E-03 +1.09781824687E-03 +7.75332558034E-01 +3.25199550070E-01
2.72000000000E+09 +7.66967561876E-01 +1.64894264834E-01 +2.09890909850E-03 +1.08791110054E-03 +2.26211087991E-03 +9.59074594593E-04 +7.76874957937E-01 +3.12258197203E-01
2.72500000000E+09 +7.67163457753E-01 +1.49410537671E-01 +2.39220880941E-03 +1.01200487210E-03 +2.43747381707E-03 +6.99165129643E-04 +7.77505211388E-01 +2.99225543951E-01
2.73000000000E+09 +7.66434914215E-01 +1.33865518028E-01 +2.58486410337E-03 +7.67924889869E-04 +2.39791694132E-03 +4.75231971557E-04 +7.78653805634E-01 +2.85659263219E-01
2.73500000000E+09 +7.65043075420E-01 +1.17803039858E-01 +2.65957534839E-03 +5.10545633173E-04 +2.26660362095E-03 +4.33078468343E-04 +7.79963119920E-01 +2.70805986105E-01
2.74000000000E+09 +7.62636968889E-01 +1.01610118062E-01 +2.80324818847E-03 +4.42293117455E-04 +2.43866291162E-03 +5.78975145022E-04 +7.81267780036E-01 +2.55084911500E-01
2.74500000000E+09 +7.59429323950E-01 +8.53191519908E-02 +3.05041716532E-03 +1.83205878377E-04 +2.85402275199E-03 +5.74374328327E-04 +7.81750444897E-01 +2.39577170597E-01
2.75000000000E+09 +7.55675137459E-01 +6.85301946488E-02 +3.32774329862E-03 -2.22209969573E-04 +3.43679357539E-03 +1.15453753594E-04 +7.82106699351E-01 +2.24638997241E-01
2.75500000000E+09 +7.50818582775E-01 +5.15866163188E-02 +3.24174786597E-03 -7.44706885532E-04 +3.43275297428E-03 -4.91049180191E-04 +7.81759231123E-01 +2.09963156253E-01
2.76000000000E+09 +7.45515206108E-01 +3.48484246834E-02 +3.20801736780E-03 -7.80312076371E-04 +3.42654507811E-03 -7.27956752561E-04 +7.81258819294E-01 +1.94875578027E-01
2.76500000000E+09 +7.40262719371E-01 +1.83650753144E-02 +3.52810256037E-03 -1.15861989914E-03 +3.68802586073E-03 -1.29044918704E-03 +7.80187532374E-01 +1.78115814482E-01
2.77000000000E+09 +7.35628496333E-01 +9.53840326722E-04 +3.58079344069E-03 -1.86744894582E-03 +3.77708825313E-03 -2.02084185237E-03 +7.78311502212E-01 +1.60141273282E-01
2.77500000000E+09 +7.30680778928E-01 -1.73742710311E-02 +3.16128467450E-03 -2.62897977724E-03 +3.22832605886E-03 -2.76534595284E-03 +7.75481099747E-01 +1.42527580876E-01
2.78000000000E+09 +7.25363860856E-01 -3.64398524224E-02 +2.76091664225E-03 -2.81145004938E-03 +2.63625073143E-03 -2.93977426714E-03 +7.73701047673E-01 +1.25189952415E-01
2.78500000000E+09 +7.19059993293E-01 -5.58767678439E-02 +2.48888624631E-03 -2.86142284301E-03 +2.30174745078E-03 -2.99737942811E-03 +7.71451665676E-01 +1.07445527231E-01
2.79000000000E+09 +7.11939772052E-01 -7.56948634629E-02 +2.60871906126E-03 -3.21099052071E-03 +2.34293898389E-03 -3.15463854745E-03 +7.68484436278E-01 +8.97598751252E-02
2.79500000000E+09 +7.04037122036E-01 -9.48475324333E-02 +2.33375725662E-03 -4.02076196007E-03 +2.22482759296E-03 -3.78600337390E-03 +7.63276167032E-01 +7.19700157045E-02
2.80000000000E+09 +6.95368211603E-01 -1.14283736411E-01 +1.49281516239E-03 -4.35143487531E-03 +1.58608989188E-03 -4.15716332575E-03 +7.57670747017E-01 +5.48277134417E-02
2.80500000000E+09 +6.85196959342E-01 -1.33179709756E-01 +9.21340587902E-04 -4.31321767885E-03 +1.11986051613E-03 -4.30439584212E-03 +7.52854511151E-01 +3.72551291565E-02
2.81000000000E+09 +6.73961717461E-01 -1.50921265943E-01 +7.17371988041E-04 -4.35365708482E-03 +8.14396274340E-04 -4.52750966943E-03 +7.47218688471E-01 +1.71766364301E-02
2.81500000000E+09 +6.62184937021E-01 -1.67991265586E-01 +1.03258931620E-04 -4.63409448933E-03 +8.01192980767E-06 -4.83376391600E-03 +7.39998515636E-01 -3.39742819565E-03
2.82000000000E+09 +6.49459060117E-01 -1.85362147693E-01 -2.95361603799E-04 -4.64467019275E-03 -6.08627303901E-04 -4.64372273621E-03 +7.31521839691E-01 -2.32310879861E-02
2.82500000000E+09 +6.35171426937E-01 -2.02284833263E-01 -9.12434196777E-04 -4.75748701768E-03 -1.14223839575E-03 -4.57803704307E-03 +7.22749063144E-01 -4.18277904336E-02
2.83000000000E+09 +6.19464672520E-01 -2.20158121096E-01 -1.68366766503E-03 -4.46642656928E-03 -1.63845189400E-03 -4.24760815696E-03 +7.14104005534E-01 -6.09376728263E-02
2.83500000000E+09 +6.01613917608E-01 -2.37998178813E-01 -1.84507222526E-03 -3.91192311894E-03 -1.76304784061E-03 -3.85596366012E-03 +7.04668585754E-01 -8.14525172072E-02
2.84000000000E+09 +5.81668487216E-01 -2.55075611458E-01 -1.84122217218E-03 -4.10236689658E-03 -1.75920600966E-03 -4.06042115308E-03 +6.92868659768E-01 -1.03068984477E-01
2.84500000000E+09 +5.60865601293E-01 -2.72021765512E-01 -2.47311761174E-03 -4.20394760907E-03 -2.48559015631E-03 -4.22217414539E-03 +6.79294894861E-01 -1.23878673860E-01
2.85000000000E+09 +5.38732995470E-01 -2.89255773382E-01 -2.84026408167E-03 -4.13150718601E-03 -2.89672522666E-03 -4.04408327220E-03 +6.65056699416E-01 -1.43978164355E-01
2.85500000000E+09 +5.15209508914E-01 -3.05989347819E-01 -3.65527580249E-03 -4.03512946986E-03 -3.62583493574E-03 -3.90388063397E-03 +6.51055055116E-01 -1.64421533059E-01
2.86000000000E+09 +4.91111169470E-01 -3.22180655005E-01 -4.30929263555E-03 -3.70343640929E-03 -4.27997096892E-03 -3.53061268500E-03 +6.34332295442E-01 -1.86146100005E-01
2.86500000000E+09 +4.65635640753E-01 -3.37881213465E-01 -4.89440898433E-03 -2.70542285028E-03 -4.89729525496E-03 -2.71147997536E-03 +6.15659648786E-01 -2.06042381839E-01
2.87000000000E+09 +4.39038287654E-01 -3.51480570954E-01 -4.79110756465E-03 -2.07163437330E-03 -4.80204795273E-03 -1.98357974580E-03 +5.96423734386E-01 -2.25010679057E-01
2.87500000000E+09 +4.13324637836E-01 -3.63191506871E-01 -4.89731403215E-03 -1.88601702643E-03 -4.83072997573E-03 -1.68360823491E-03 +5.76911026970E-01 -2.43666695446E-01
2.88000000000E+09 +3.87681532670E-01 -3.74239780333E-01 -5.14849031734E-03 -1.63181578111E-03 -4.96964525141E-03 -1.37841344716E-03 +5.55914870271E-01 -2.63109735463E-01
2.88500000000E+09 +3.61082077175E-01 -3.84195964657E-01 -5.72956124872E-03 -1.28715827323E-03 -5.43469384024E-03 -1.20782749412E-03 +5.32668602254E-01 -2.82237599847E-01
2.89000000000E+09 +3.33443405883E-01 -3.92741449358E-01 -5.94856897009E-03 -4.98734746066E-04 -5.55433649631E-03 -6.15977540544E-04 +5.06817165439E-01 -2.99905864057E-01
2.89500000000E+09 +3.04346876923E-01 -3.99628776759E-01 -6.22598165948E-03 +1.90891378957E-04 -5.99749581423E-03 -1.37864459686E-04 +4.79483205822E-01 -3.16748592633E-01
2.90000000000E+09 +2.73752087612E-01 -4.04724078676E-01 -6.13876040500E-03 +8.96134098077E-04 -6.19822309859E-03 +6.17186610850E-04 +4.51121513530E-01 -3.32216595580E-01
2.90500000000E+09 +2.41333606614E-01 -4.07313767430E-01 -6.23166663292E-03 +1.49797119568E-03 -6.36165986637E-03 +1.43523578226E-03 +4.22300658002E-01 -3.47615128194E-01
2.91000000000E+09 +2.07591796692E-01 -4.07424927069E-01 -6.26385547807E-03 +2.30691900999E-03 -6.16246159563E-03 +2.43633921554E-03 +3.90749045679E-01 -3.62279399734E-01
2.91500000000E+09 +1.73595651621E-01 -4.03865595901E-01 -5.82679927319E-03 +3.21159929438E-03 -5.62665249482E-03 +3.12901567391E-03 +3.57814518770E-01 -3.74013459595E-01
2.92000000000E+09 +1.40226655180E-01 -3.98449662523E-01 -5.46374879310E-03 +3.62313834091E-03 -5.24138605389E-03 +3.31711824238E-03 +3.24022602016E-01 -3.83020259407E-01
2.92500000000E+09 +1.07922834218E-01 -3.92041734675E-01 -5.28212062560E-03 +4.03006566485E-03 -5.33308789148E-03 +3.62778444510E-03 +2.89222415470E-01 -3.91152000667E-01
2.93000000000E+09 +7.46738457304E-02 -3.85086397287E-01 -5.33523623975E-03 +4.86338522400E-03 -5.57112029926E-03 +4.55066299325E-03 +2.52337790147E-01 -3.97535413794E-01
2.93500000000E+09 +4.08069305237E-02 -3.75715921170E-01 -4.64520951447E-03 +6.01290265494E-03 -4.92234789393E-03 +5.87619027374E-03 +2.12775359990E-01 -4.02539565932E-01
2.94000000000E+09 +7.48996568604E-03 -3.63359759607E-01 -3.70673398410E-03 +6.34641751175E-03 -3.84862152456E-03 +6.36210354956E-03 +1.72480863438E-01 -4.03012996334E-01
2.94500000000E+09 -2.44355883812E-02 -3.48146391792E-01 -3.51369853021E-03 +6.58983325698E-03 -3.60012616992E-03 +6.50728763425E-03 +1.34191926908E-01 -4.01609283639E-01
2.95000000000E+09 -5.45867341596E-02 -3.30554237058E-01 -2.86189229285E-03 +7.95343374411E-03 -3.12711598844E-03 +7.84396819003E-03 +9.56680088088E-02 -3.98882853945E-01
2.95500000000E+09 -8.24972222403E-02 -3.11363212352E-01 -1.03032987143E-03 +8.22825442037E-03 -1.39343263364E-03 +8.41036611974E-03 +5.61414529783E-02 -3.93973341602E-01
2.96000000000E+09 -1.10589177787E-01 -2.90381627929E-01 -2.90530291010E-04 +7.81304747496E-03 -4.91789688513E-04 +8.22200435150E-03 +1.51455584613E-02 -3.85027756931E-01
2.96500000000E+09 -1.36963234955E-01 -2.66602922778E-01 +2.20826753400E-04 +7.88700608362E-03 +4.45833177930E-04 +8.19120039033E-03 -2.60384921263E-02 -3.72479083553E-01
2.97000000000E+09 -1.62397037634E-01 -2.40084754025E-01 +8.00625144920E-04 +8.06387992135E-03 +1.05472367314E-03 +8.09090656893E-03 -6.60668491106E-02 -3.56409392167E-01
2.97500000000E+09 -1.85512913903E-01 -2.11196472555E-01 +1.67145752637E-03 +9.07872657273E-03 +1.86193289684E-03 +8.79901873139E-03 -1.05386457864E-01 -3.38797843652E-01
2.98000000000E+09 -2.06709817147E-01 -1.81401044200E-01 +4.02750593282E-03 +8.82449928314E-03 +3.75167048022E-03 +8.72461022138E-03 -1.43018262278E-01 -3.18239618362E-01
2.98500000000E+09 -2.26222252527E-01 -1.50500133082E-01 +4.91568301026E-03 +7.53598280459E-03 +4.69781455211E-03 +7.81058745135E-03 -1.80093828399E-01 -2.96278081988E-01
2.99000000000E+09 -2.44384236764E-01 -1.19245441090E-01 +5.31990455176E-03 +6.96720306170E-03 +5.51354974126E-03 +7.30953415291E-03 -2.15681618886E-01 -2.68845170909E-01
2.99500000000E+09 -2.60868898610E-01 -8.68355550420E-02 +6.12181394490E-03 +6.94839103633E-03 +6.57628566888E-03 +6.99870585436E-03 -2.47761706957E-01 -2.39265478202E-01
3.00000000000E+09 -2.75098323710E-01 -5.39885550908E-02 +7.20845262027E-03 +6.57802267458E-03 +7.49411551167E-03 +6.18911147798E-03 -2.78751628977E-01 -2.08193590390E-01
3.00500000000E+09 -2.86325390181E-01 -2.15853192825E-02 +9.05330984679E-03 +6.19300928615E-03 +8.87593400464E-03 +5.67818183486E-03 -3.09116180329E-01 -1.73840723227E-01
3.01000000000E+09 -2.94921609686E-01 +1.00606113094E-02 +1.05178052478E-02 +3.62407502952E-03 +1.00221443524E-02 +3.53077884406E-03 -3.34652091762E-01 -1.37644225283E-01
3.01500000000E+09 -3.01678754729E-01 +4.04646374498E-02 +1.00834764370E-02 +1.66698738764E-03 +9.80488204304E-03 +1.94635331613E-03 -3.58491254895E-01 -1.00203889812E-01
3.02000000000E+09 -3.06197756132E-01 +7.12399178325E-02 +9.67038726218E-03 +6.12095866246E-04 +9.72344741120E-03 +8.56785149444E-04 -3.77374571078E-01 -6.16284458886E-02
3.02500000000E+09 -3.07913616048E-01 +1.02367442527E-01 +9.79407675155E-03 -5.49798369585E-06 +9.96229597311E-03 +2.94709704452E-05 -3.93041639080E-01 -2.28950290199E-02
3.03000000000E+09 -3.05659127843E-01 +1.33288195597E-01 +1.01012154043E-02 -1.25388810476E-03 +1.01397727383E-02 -1.27781867210E-03 -4.07368076361E-01 +1.61529388510E-02
3.03500000000E+09 -3.00963790872E-01 +1.61941397618E-01 +1.03491251573E-02 -2.81052793666E-03 +1.03455559035E-02 -2.63489227366E-03 -4.18874792533E-01 +5.79875146354E-02
3.04000000000E+09 -2.94394363239E-01 +1.91600487071E-01 +9.72213506997E-03 -4.97795643957E-03 +1.00734810310E-02 -4.75989508890E-03 -4.25611990437E-01 +9.94274689427E-02
3.04500000000E+09 -2.86018545816E-01 +2.18700875151E-01 +8.09525167180E-03 -5.91993249438E-03 +8.57918306383E-03 -6.15795988683E-03 -4.29742113595E-01 +1.39727354939E-01
3.05000000000E+09 -2.77117127358E-01 +2.46527783189E-01 +7.46611663227E-03 -6.61360133777E-03 +7.59595703011E-03 -7.18019268606E-03 -4.31906039535E-01 +1.78029904594E-01
3.05500000000E+09 -2.66479094773E-01 +2.74174914267E-01 +6.63436831401E-03 -7.49763030166E-03 +6.30435207874E-03 -7.94053318113E-03 -4.33318428469E-01 +2.17251948862E-01
3.06000000000E+09 -2.54190715463E-01 +3.01032734943E-01 +5.45605728918E-03 -8.86048353617E-03 +4.88928285778E-03 -8.69257673605E-03 -4.29679453370E-01 +2.56452232459E-01
3.06500000000E+09 -2.40985812695E-01 +3.25990068415E-01 +3.62501631853E-03 -9.37807044311E-03 +3.53918786435E-03 -8.80382344741E-03 -4.23356566316E-01 +2.93286071889E-01
3.07000000000E+09 -2.27940508517E-01 +3.49922049926E-01 +1.71957751406E-03 -9.29848455836E-03 +2.21181937736E-03 -9.04435941139E-03 -4.15664211796E-01 +3.27637948788E-01
