# Hz S RI R 50
! CMT, C1220, 16058040, 17.2.0/1
! Date: 15/08/2018 10:23:56
! Data: Format (Calibration Info)
! Freq                      S11: Re/Im (F2)                       S21: Re/Im (F2)                       S12: Re/Im (F2)                       S22: Re/Im (F2)            
2.50000000000E+09 +5.81867599390E-01 +6.37455104821E-01 +2.97022305736E-04 +1.02629038266E-04 +3.05266905817E-04 +7.38087281558E-05 +5.71055853142E-01 +7.18954430579E-01
2.50500000000E+09 +5.88902175434E-01 +6.29676597281E-01 +3.56786004459E-04 +8.33388961894E-06 +4.00252195359E-04 -4.55201449903E-05 +5.77092838664E-01 +7.13079320006E-01
2.51000000000E+09 +5.96344511533E-01 +6.21700370537E-01 +4.03140851943E-04 -6.56555987314E-06 +3.90940588872E-04 -3.08333073042E-05 +5.82870123305E-01 +7.07431288858E-01
2.51500000000E+09 +6.03661083380E-01 +6.13591193723E-01 +3.63690883513E-04 -8.89580400854E-05 +3.84898533362E-04 -6.65680678439E-05 +5.88147182744E-01 +7.01436476604E-01
2.52000000000E+09 +6.10248485908E-01 +6.05421738783E-01 +4.28968180606E-04 -1.47919024797E-04 +4.14426580744E-04 -1.39936527667E-04 +5.93085586387E-01 +6.95005111007E-01
2.52500000000E+09 +6.15911976732E-01 +5.97683146222E-01 +3.82412875406E-04 -2.39635457277E-04 +3.70495713519E-04 -2.20470215376E-04 +5.98691904849E-01 +6.88337287971E-01
2.53000000000E+09 +6.21017756161E-01 +5.90554980428E-01 +3.41410841949E-04 -2.79752082914E-04 +3.37287375173E-04 -2.77177240669E-04 +6.04469029614E-01 +6.80961036285E-01
2.53500000000E+09 +6.25348527690E-01 +5.83798822525E-01 +2.20343304601E-04 -2.74313519032E-04 +2.05234381137E-04 -2.64630636430E-04 +6.10037506010E-01 +6.73956745525E-01
2.54000000000E+09 +6.29474630451E-01 +5.77409318727E-01 +2.43788345960E-04 -2.78513222766E-04 +2.35729879433E-04 -2.74492813456E-04 +6.15647432974E-01 +6.67282807154E-01
2.54500000000E+09 +6.33720263716E-01 +5.71545509327E-01 +2.37351188646E-04 -2.15861547649E-04 +2.53620205246E-04 -2.19754636755E-04 +6.20858227081E-01 +6.60847863335E-01
2.55000000000E+09 +6.38498890368E-01 +5.65323352013E-01 +2.71946278840E-04 -2.55175633886E-04 +3.49921388641E-04 -2.15732194013E-04 +6.25326777174E-01 +6.54692487308E-01
2.55500000000E+09 +6.43690869641E-01 +5.58588292747E-01 +3.02431875499E-04 -4.54596845867E-04 +3.63357708595E-04 -5.05692171396E-04 +6.29983419751E-01 +6.48772820192E-01
2.56000000000E+09 +6.49842961782E-01 +5.51648562141E-01 +1.55138300169E-04 -5.29633215633E-04 +1.35841034711E-04 -6.01507905331E-04 +6.34889716231E-01 +6.42169770346E-01
2.56500000000E+09 +6.56022140989E-01 +5.43587733647E-01 +8.56958727841E-05 -4.85717487060E-04 -5.21426827140E-05 -5.54007548069E-04 +6.40256361161E-01 +6.35193073744E-01
2.57000000000E+09 +6.62111214778E-01 +5.35494601967E-01 -4.26765097450E-05 -5.30589038969E-04 -1.06873316416E-04 -5.15033265122E-04 +6.45776381944E-01 +6.27659200008E-01
2.57500000000E+09 +6.68231644756E-01 +5.26856978964E-01 -1.32922043593E-04 -4.02575675684E-04 -1.56764805792E-04 -3.14441955832E-04 +6.51363158422E-01 +6.20212810572E-01
2.58000000000E+09 +6.73349529467E-01 +5.18251153312E-01 -1.03385959690E-04 -4.08066472628E-04 -9.58539931800E-05 -3.39019959480E-04 +6.56579016908E-01 +6.13057580368E-01
2.58500000000E+09 +6.77834586467E-01 +5.09616095893E-01 -1.54969663408E-04 -3.96790868452E-04 -1.02420677495E-04 -3.00883985470E-04 +6.61790226102E-01 +6.05483545594E-01
2.59000000000E+09 +6.81669671957E-01 +5.01489410933E-01 -1.86693563596E-04 -2.97327402568E-04 -1.45212861926E-04 -3.33947479209E-04 +6.66810958569E-01 +5.97998620280E-01
2.59500000000E+09 +6.85602763019E-01 +4.93314060625E-01 -1.47011097965E-04 -3.26293118016E-04 -1.30294454924E-04 -3.59913143680E-04 +6.72059557963E-01 +5.89970858177E-01
2.60000000000E+09 +6.89177027075E-01 +4.84675158701E-01 -2.24140278320E-04 -2.63994845171E-04 -2.25148291502E-04 -3.23376185895E-04 +6.77496320420E-01 +5.81530309006E-01
2.60500000000E+09 +6.93037266592E-01 +4.75344744016E-01 -2.02751229044E-04 -2.53880906993E-04 -1.69770963114E-04 -2.41628298968E-04 +6.82966596554E-01 +5.72532993512E-01
2.61000000000E+09 +6.97269279068E-01 +4.65000176739E-01 -2.03544231651E-04 -3.26345168028E-04 -2.19084844086E-04 -3.73370248334E-04 +6.88089847282E-01 +5.63657036197E-01
2.61500000000E+09 +7.01943206427E-01 +4.53488026845E-01 -3.21339589702E-04 -2.86220083223E-04 -3.08462712850E-04 -2.69507798681E-04 +6.92872404574E-01 +5.54930942442E-01
2.62000000000E+09 +7.06733359191E-01 +4.40990272468E-01 -3.07592309480E-04 -1.57526828194E-04 -3.05070311755E-04 -1.69494609748E-04 +6.97538458034E-01 +5.45948309695E-01
2.62500000000E+09 +7.11454737974E-01 +4.27372207811E-01 -2.39333354515E-04 -1.25936535355E-04 -2.92821165102E-04 -1.29306107213E-04 +7.02113423511E-01 +5.37197107836E-01
2.63000000000E+09 +7.15810699994E-01 +4.13322847215E-01 -1.94521428162E-04 -2.02382823142E-04 -2.13344268925E-04 -1.59674619411E-04 +7.06495788145E-01 +5.28075771804E-01
2.63500000000E+09 +7.19474972486E-01 +3.99578992119E-01 -3.19946979043E-04 -2.81451234636E-04 -2.69115103233E-04 -2.25370708871E-04 +7.11206896081E-01 +5.18972920854E-01
2.64000000000E+09 +7.22619582838E-01 +3.86451940050E-01 -3.93330020044E-04 -2.17311731780E-04 -3.31695759995E-04 -1.63259561596E-04 +7.15841994817E-01 +5.09347122548E-01
2.64500000000E+09 +7.25553655636E-01 +3.74531987266E-01 -4.18831063193E-04 -1.68179516515E-04 -3.28108927330E-04 -1.39772973910E-04 +7.20277874955E-01 +4.99585557180E-01
2.65000000000E+09 +7.28236653279E-01 +3.63493569807E-01 -3.99203835923E-04 -9.54953013128E-05 -3.67613892555E-04 -1.01865225983E-04 +7.24632828836E-01 +4.89619225697E-01
2.65500000000E+09 +7.31048504214E-01 +3.52626994591E-01 -4.16542814577E-04 -9.12538623226E-05 -3.92570282843E-04 -1.47275603062E-04 +7.28524547849E-01 +4.79187796024E-01
2.66000000000E+09 +7.33900593930E-01 +3.41890769116E-01 -4.42051017989E-04 -6.56623821086E-05 -4.83050402353E-04 -7.20796401161E-05 +7.32468131177E-01 +4.68073114352E-01
2.66500000000E+09 +7.36905475181E-01 +3.30809765375E-01 -4.44775617450E-04 -7.47710653186E-05 -4.33148646741E-04 -3.17560639068E-05 +7.36912446186E-01 +4.56884034845E-01
2.67000000000E+09 +7.39402099274E-01 +3.18535501930E-01 -5.02778262928E-04 -9.78631877129E-06 -4.61898847393E-04 +1.20231827681E-05 +7.41245325600E-01 +4.45868087714E-01
2.67500000000E+09 +7.41539501578E-01 +3.05331732385E-01 -5.27098363599E-04 +8.71487705981E-06 -4.69847043611E-04 +5.67310157793E-05 +7.45438492314E-01 +4.34328472190E-01
2.68000000000E+09 +7.42750560955E-01 +2.91045658454E-01 -5.65689481800E-04 +1.22372976496E-04 -5.92627954315E-04 +1.00646395076E-04 +7.48977812576E-01 +4.22996610442E-01
2.68500000000E+09 +7.43277464669E-01 +2.76685651173E-01 -5.89139877950E-04 +3.00668675074E-04 -5.89170463628E-04 +3.20837161977E-04 +7.51795997018E-01 +4.11837086777E-01
2.69000000000E+09 +7.43536484213E-01 +2.62335681803E-01 -4.11831741189E-04 +4.14752446941E-04 -4.25859764506E-04 +3.98320453329E-04 +7.54454833542E-01 +3.99961677186E-01
2.69500000000E+09 +7.43495062732E-01 +2.48230539406E-01 -3.94560430252E-04 +3.78256263622E-04 -4.25249210074E-04 +3.97566651019E-04 +7.56941767223E-01 +3.87579903621E-01
2.70000000000E+09 +7.43480989160E-01 +2.34144957918E-01 -2.70375857211E-04 +4.58586429098E-04 -2.77895462175E-04 +4.08248275238E-04 +7.59802829979E-01 +3.74585847867E-01
2.70500000000E+09 +7.43423902450E-01 +2.20861189241E-01 -2.40503372521E-04 +4.67486544600E-04 -2.66457580883E-04 +3.40686603298E-04 +7.62557051601E-01 +3.61536729159E-01
2.71000000000E+09 +7.43725505867E-01 +2.07354496643E-01 -2.14715221224E-04 +4.43545268213E-04 -2.61047114923E-04 +4.30331043129E-04 +7.65558378906E-01 +3.48513515103E-01
2.71500000000E+09 +7.44338841553E-01 +1.93701458039E-01 -1.84492997376E-04 +4.88412819188E-04 -1.63274993871E-04 +4.50905872252E-04 +7.67958450942E-01 +3.35896731568E-01
2.72000000000E+09 +7.44568898468E-01 +1.79576502835E-01 -1.54475113660E-04 +3.89241315833E-04 -1.55889531170E-04 +4.23456479170E-04 +7.69797403439E-01 +3.23247630092E-01
2.72500000000E+09 +7.44528105112E-01 +1.64349616297E-01 -3.22510616767E-04 +3.81669341439E-04 -2.04929143381E-04 +4.08387530876E-04 +7.71029389856E-01 +3.09849031549E-01
2.73000000000E+09 +7.43166500541E-01 +1.48315544706E-01 -2.38965530222E-04 +7.80650014118E-04 -1.47708100376E-04 +7.08299924862E-04 +7.72160678400E-01 +2.95896808184E-01
2.73500000000E+09 +7.40462150845E-01 +1.31401285201E-01 +1.93161920420E-04 +6.76416209300E-04 +1.67162717934E-04 +5.64763587202E-04 +7.73081028743E-01 +2.80850684508E-01
2.74000000000E+09 +7.36646885948E-01 +1.14754846996E-01 +1.69292635069E-04 +5.03047010981E-04 +7.93172988362E-05 +4.43986586375E-04 +7.74283237272E-01 +2.65827752750E-01
2.74500000000E+09 +7.31788055999E-01 +9.74911940053E-02 +2.57724880496E-04 +3.99227826050E-04 +1.73510272678E-04 +4.42430914048E-04 +7.75193529094E-01 +2.50584040814E-01
2.75000000000E+09 +7.25868714087E-01 +8.07602878659E-02 +1.71562150865E-04 +2.53762492264E-04 +1.69714691832E-04 +3.05963877534E-04 +7.75925735160E-01 +2.35670265922E-01
2.75500000000E+09 +7.19750822127E-01 +6.44235673299E-02 +6.48891014483E-05 +3.40003619654E-04 +4.45630149400E-05 +3.68727008553E-04 +7.75635428785E-01 +2.20441342249E-01
2.76000000000E+09 +7.13885611403E-01 +4.82583474342E-02 +4.41134821544E-05 +4.54861152686E-04 +3.54351202398E-05 +4.83998348099E-04 +7.74404034077E-01 +2.05103846480E-01
2.76500000000E+09 +7.08845347833E-01 +3.22573184341E-02 +1.94871389800E-04 +5.13936524214E-04 +1.23074725436E-04 +5.37736525320E-04 +7.73042274119E-01 +1.89573216231E-01
2.77000000000E+09 +7.04347646957E-01 +1.51991118356E-02 +2.66877580265E-04 +5.58756738818E-04 +3.03069095667E-04 +5.42956746381E-04 +7.72065388713E-01 +1.73051506168E-01
2.77500000000E+09 +7.00084737621E-01 -2.74506318340E-03 +2.49090754307E-04 +4.51591805689E-04 +3.33590772333E-04 +4.75100835988E-04 +7.70618116125E-01 +1.55691142468E-01
2.78000000000E+09 +6.95723630921E-01 -2.16755674067E-02 +4.51133440335E-04 +4.77662315718E-04 +5.40921355051E-04 +4.57285277700E-04 +7.68858892775E-01 +1.38001350634E-01
2.78500000000E+09 +6.90445554772E-01 -4.15385843101E-02 +3.62229414850E-04 +2.00081532904E-04 +4.29294002574E-04 +1.31025982855E-04 +7.66188655247E-01 +1.21100812375E-01
2.79000000000E+09 +6.84084880848E-01 -6.17152274895E-02 +1.72279360185E-04 +3.69510140792E-04 +1.85572503849E-04 +3.79054533862E-04 +7.63735328548E-01 +1.04554790843E-01
2.79500000000E+09 +6.76509287527E-01 -8.15875337375E-02 +4.95582248587E-04 +3.95241903315E-04 +4.54179004561E-04 +3.37532312030E-04 +7.60676852237E-01 +8.63207949213E-02
2.80000000000E+09 +6.67171025126E-01 -1.00747069730E-01 +4.33354589327E-04 +3.49274759219E-04 +3.89182898052E-04 +3.41052158880E-04 +7.55949733479E-01 +6.77168020825E-02
2.80500000000E+09 +6.57157090092E-01 -1.18435683125E-01 +4.90172882351E-04 +1.84914358701E-04 +4.94926689623E-04 +1.86382452132E-04 +7.50484453690E-01 +4.87043780339E-02
2.81000000000E+09 +6.46198252529E-01 -1.34816550773E-01 +2.87519728860E-04 +2.98531050121E-04 +3.68282167377E-04 +2.66252013916E-04 +7.44541649541E-01 +2.91545341668E-02
2.81500000000E+09 +6.34926795877E-01 -1.50993299007E-01 +5.60034826299E-04 +4.39899761015E-04 +6.34549590406E-04 +4.08482481820E-04 +7.38109121780E-01 +9.33528496929E-03
2.82000000000E+09 +6.22316739794E-01 -1.66901719517E-01 +7.12120133914E-04 +1.37432414279E-04 +7.09950728194E-04 +7.61328615835E-05 +7.30835075386E-01 -1.10947664613E-02
2.82500000000E+09 +6.08395956340E-01 -1.82961993831E-01 +4.95826714299E-04 +1.25907389653E-04 +4.38101350677E-04 +4.03943934141E-05 +7.21985580411E-01 -3.16694509323E-02
2.83000000000E+09 +5.92893412723E-01 -1.99137483619E-01 +5.72678562532E-04 +3.25891754855E-04 +5.54810745429E-04 +3.22448547899E-04 +7.12007842962E-01 -5.16476460754E-02
2.83500000000E+09 +5.76430849758E-01 -2.16003325287E-01 +7.12230828239E-04 +3.41419914987E-04 +7.24992946256E-04 +3.57152729764E-04 +7.01330982672E-01 -7.14503830416E-02
2.84000000000E+09 +5.57468820289E-01 -2.33677655292E-01 +1.06104849602E-03 +1.80899024783E-04 +1.00022872955E-03 +2.19884288681E-04 +6.89859464584E-01 -9.19136804085E-02
2.84500000000E+09 +5.36563495822E-01 -2.51185662724E-01 +1.07347685617E-03 -7.63550195648E-05 +1.05068596196E-03 -1.01040130396E-04 +6.77149073477E-01 -1.12460580589E-01
2.85000000000E+09 +5.14043105919E-01 -2.68653616028E-01 +1.11920552198E-03 -2.95253524438E-04 +1.09488999015E-03 -2.85254852290E-04 +6.62405048853E-01 -1.32887631796E-01
2.85500000000E+09 +4.89632033469E-01 -2.85189794710E-01 +8.44804832724E-04 -3.89835550054E-04 +7.72268621848E-04 -3.37952256647E-04 +6.47376513195E-01 -1.51781442074E-01
2.86000000000E+09 +4.64946079793E-01 -3.00057558112E-01 +1.22496816505E-03 -1.84873140890E-04 +1.22720249415E-03 -1.80373460901E-04 +6.31723496594E-01 -1.71726894290E-01
2.86500000000E+09 +4.40496859245E-01 -3.14136439475E-01 +1.44554269508E-03 -8.04859033650E-04 +1.40299425216E-03 -7.28317191659E-04 +6.13958746144E-01 -1.91737944005E-01
2.87000000000E+09 +4.15427819933E-01 -3.26721976767E-01 +1.15234855712E-03 -1.19486768281E-03 +1.17787579937E-03 -1.19471395051E-03 +5.95104993777E-01 -2.10857880214E-01
2.87500000000E+09 +3.90977827232E-01 -3.38061764773E-01 +7.20166437414E-04 -1.46443044159E-03 +6.80825399992E-04 -1.44114525985E-03 +5.75176603455E-01 -2.29707625476E-01
2.88000000000E+09 +3.66182506577E-01 -3.48669794234E-01 +3.44877643656E-04 -1.29280348596E-03 +3.55505009729E-04 -1.26725005221E-03 +5.54222452235E-01 -2.47645778040E-01
2.88500000000E+09 +3.40530280487E-01 -3.58492733324E-01 +3.56765171036E-04 -1.16798249791E-03 +3.30200110893E-04 -1.07656641367E-03 +5.32397274786E-01 -2.65586037293E-01
2.89000000000E+09 +3.13925371490E-01 -3.66751163945E-01 +3.81600478395E-04 -1.40262590391E-03 +4.12379562315E-04 -1.34636803520E-03 +5.08440318754E-01 -2.82857648719E-01
2.89500000000E+09 +2.86277413915E-01 -3.74170071285E-01 +3.14185239870E-04 -1.53421130395E-03 +4.52166513145E-04 -1.49014078462E-03 +4.83409772822E-01 -3.00203873203E-01
2.90000000000E+09 +2.56425563738E-01 -3.79899583842E-01 -3.78759374433E-04 -2.11023541732E-03 -2.84541172860E-04 -2.15258654163E-03 +4.55562366788E-01 -3.17206573256E-01
2.90500000000E+09 +2.24603843682E-01 -3.83392707414E-01 -9.28015001359E-04 -1.32880819720E-03 -8.79604831079E-04 -1.38254959165E-03 +4.26718807309E-01 -3.32144313180E-01
2.91000000000E+09 +1.93107081146E-01 -3.82910629757E-01 -6.20924951682E-04 -1.23120782747E-03 -6.17143090467E-04 -1.29903539045E-03 +3.97459643221E-01 -3.46638742237E-01
2.91500000000E+09 +1.62354442311E-01 -3.82259836313E-01 -9.04720613317E-04 -1.33294583846E-03 -9.01808894969E-04 -1.24609382006E-03 +3.65903716192E-01 -3.59419367377E-01
2.92000000000E+09 +1.30706629996E-01 -3.79702100360E-01 -9.60547009000E-04 -1.08887516769E-03 -8.83968790920E-04 -1.02794845573E-03 +3.32960880638E-01 -3.69345388334E-01
2.92500000000E+09 +9.92685438743E-02 -3.75769367215E-01 -1.16024893773E-03 -1.42520216356E-03 -1.08987088323E-03 -1.40203784698E-03 +2.99169775013E-01 -3.77467056208E-01
2.93000000000E+09 +6.79118005564E-02 -3.69651650543E-01 -1.90438222263E-03 -9.83520973927E-04 -1.86792550100E-03 -1.03217433607E-03 +2.63926010365E-01 -3.84912863661E-01
2.93500000000E+09 +3.68131836568E-02 -3.61973237769E-01 -1.87406811085E-03 +3.04948652663E-05 -1.95458526119E-03 -5.39086400257E-06 +2.26039070849E-01 -3.90924386493E-01
2.94000000000E+09 +6.19662061485E-03 -3.51941186044E-01 -1.07489792391E-03 +1.26919955410E-04 -1.12222792582E-03 +1.73721844388E-04 +1.86949275705E-01 -3.94644052570E-01
2.94500000000E+09 -2.39833244895E-02 -3.40204235745E-01 -9.12500797169E-04 -3.05769354699E-04 -9.47390226831E-04 -2.46586264589E-04 +1.46404770689E-01 -3.95420660909E-01
2.95000000000E+09 -5.40866756657E-02 -3.25512142448E-01 -1.36482544241E-03 -4.90411081361E-04 -1.40869457162E-03 -4.97591272448E-04 +1.06928424159E-01 -3.92410074267E-01
2.95500000000E+09 -8.32925129744E-02 -3.07848895098E-01 -1.72887047970E-03 +1.34412405119E-05 -1.81391577568E-03 -1.04098416459E-05 +6.78009189365E-02 -3.87548802760E-01
2.96000000000E+09 -1.10611721700E-01 -2.87847245264E-01 -1.84254381896E-03 +4.08509609637E-04 -1.97496562457E-03 +4.65871451638E-04 +2.76797582633E-02 -3.79439084659E-01
2.96500000000E+09 -1.37367987277E-01 -2.66438565143E-01 -1.34647103458E-03 +1.13044943195E-03 -1.34547674663E-03 +1.23711864916E-03 -1.16830083337E-02 -3.69177693338E-01
2.97000000000E+09 -1.62874660719E-01 -2.41972355912E-01 -5.48891054230E-04 +9.53789604660E-04 -4.53109823214E-04 +1.04658183898E-03 -5.34245978946E-02 -3.56185061900E-01
2.97500000000E+09 -1.87110377781E-01 -2.15966819899E-01 -6.26685479131E-04 +1.12920820563E-04 -6.13995959337E-04 +1.75605839463E-04 -9.31947742514E-02 -3.39055022152E-01
2.98000000000E+09 -2.09319551466E-01 -1.88230089585E-01 -1.44134037000E-03 +5.71858812883E-04 -1.35663246141E-03 +5.74731580997E-04 -1.32188992729E-01 -3.19754914492E-01
2.98500000000E+09 -2.30459238315E-01 -1.59650713460E-01 -1.08641475810E-03 +1.15474312314E-03 -1.07171976974E-03 +1.13789103318E-03 -1.69292211451E-01 -2.96870211830E-01
2.99000000000E+09 -2.48964182685E-01 -1.29584926904E-01 -5.79334077295E-04 +1.21959040950E-03 -5.70414153679E-04 +1.23707995565E-03 -2.04771860982E-01 -2.71333996643E-01
2.99500000000E+09 -2.65582639251E-01 -1.00772654116E-01 -6.70377915889E-04 +7.97075208493E-04 -6.58360729063E-04 +7.99134133370E-04 -2.38425224997E-01 -2.41678844645E-01
3.00000000000E+09 -2.81823910287E-01 -7.08790281608E-02 -8.68152222357E-04 +1.34748431936E-03 -8.07644623535E-04 +1.26950023234E-03 -2.68417579197E-01 -2.10659928390E-01
3.00500000000E+09 -2.95073504824E-01 -4.08052678819E-02 -6.65576633927E-04 +1.55614371237E-03 -5.72552003643E-04 +1.48682593551E-03 -2.98214865534E-01 -1.78609485841E-01
3.01000000000E+09 -3.06276521997E-01 -1.08306126500E-02 -1.16234978330E-04 +1.85129076581E-03 -1.80161972711E-04 +1.69751110249E-03 -3.25422270266E-01 -1.43555032705E-01
3.01500000000E+09 -3.15173122377E-01 +1.90334875943E-02 +8.26855657617E-04 +1.84502877908E-03 +7.15381331022E-04 +1.78883031556E-03 -3.49888246870E-01 -1.07349637836E-01
3.02000000000E+09 -3.20918513729E-01 +4.91225950716E-02 +8.80897645645E-04 +6.62142695073E-04 +7.51942651078E-04 +7.25412750098E-04 -3.70585826300E-01 -6.95901278614E-02
3.02500000000E+09 -3.23250113787E-01 +7.85658800893E-02 +2.79508976663E-04 +7.04234013032E-04 +2.53613726415E-04 +7.50776668246E-04 -3.88334709967E-01 -3.05785823642E-02
3.03000000000E+09 -3.22834510204E-01 +1.06838913508E-01 +5.93483683604E-05 +8.25165316307E-04 +4.27504423416E-05 +9.08930852367E-04 -4.02449698258E-01 +9.24718069754E-03
3.03500000000E+09 -3.21225312188E-01 +1.34195587436E-01 +1.08801487122E-04 +1.63687801728E-03 +6.21757537608E-05 +1.66910375192E-03 -4.13589492367E-01 +4.93251358157E-02
3.04000000000E+09 -3.17656044877E-01 +1.62496694147E-01 +1.38342378191E-03 +1.11094137244E-03 +1.31515004517E-03 +1.28632100732E-03 -4.21937305692E-01 +8.85099923657E-02
3.04500000000E+09 -3.11758388883E-01 +1.90366880345E-01 +1.06518038074E-03 +5.65183614387E-04 +1.12139635885E-03 +6.52856627219E-04 -4.28701775396E-01 +1.28078519490E-01
3.05000000000E+09 -3.04121497761E-01 +2.18712757289E-01 +9.80496719386E-04 +5.18489292306E-04 +1.06826778554E-03 +5.85434063598E-04 -4.32485074510E-01 +1.67603759245E-01
3.05500000000E+09 -2.94272336035E-01 +2.46043004264E-01 +8.95720904452E-04 +4.06865118617E-04 +1.00942076255E-03 +4.01202666295E-04 -4.33816987531E-01 +2.06412031697E-01
3.06000000000E+09 -2.83336481342E-01 +2.72201398791E-01 +1.11057565044E-03 +2.60776380311E-04 +1.18055427121E-03 +2.17430423090E-04 -4.32309173954E-01 +2.45395106101E-01
3.06500000000E+09 -2.72425544196E-01 +2.98021094754E-01 +8.89413698714E-04 -1.10687762210E-04 +8.79859175001E-04 -6.52201494703E-05 -4.27841351879E-01 +2.83182856260E-01
3.07000000000E+09 -2.59190647595E-01 +3.22459356615E-01 +6.10014359403E-04 +1.01705578266E-05 +6.74983910823E-04 +4.09282682019E-05 -4.21106320588E-01 +3.19208353614E-01
