# Hz S RI R 50
! CMT, C1220, 16058040, 17.2.0/1
! Date: 15/08/2018 10:08:35
! Data: Format (Calibration Info)
! Freq                      S11: Re/Im (F2)                       S21: Re/Im (F2)                       S12: Re/Im (F2)                       S22: Re/Im (F2)            
2.50000000000E+09 +5.97989338979E-01 +6.33777954316E-01 -5.03246223535E-04 -1.68833274752E-04 -5.51484387489E-04 -2.06083718913E-04 +5.72895619009E-01 +7.16546319298E-01
2.50500000000E+09 +6.04244848110E-01 +6.26256001424E-01 -5.01736397498E-04 -2.50714881845E-04 -5.46213135182E-04 -1.95111489602E-04 +5.78477501123E-01 +7.11025331273E-01
2.51000000000E+09 +6.10822776793E-01 +6.18366736362E-01 -5.95522840526E-04 -2.14467452203E-04 -5.67732268699E-04 -2.27691221786E-04 +5.84257784795E-01 +7.05964226171E-01
2.51500000000E+09 +6.17155618444E-01 +6.10304388575E-01 -6.38978162992E-04 -1.57149554612E-04 -6.20804292493E-04 -1.66587881641E-04 +5.89617076900E-01 +7.00455545132E-01
2.52000000000E+09 +6.22832444527E-01 +6.02114597662E-01 -6.80850897501E-04 -5.16898948779E-05 -6.64216796524E-04 -5.64208503512E-05 +5.94746823751E-01 +6.94675614374E-01
2.52500000000E+09 +6.27552347550E-01 +5.94559176061E-01 -6.93406636692E-04 +7.22810927010E-05 -7.17156669003E-04 +1.94467339934E-05 +6.00537839012E-01 +6.88125483609E-01
2.53000000000E+09 +6.32131469699E-01 +5.87482043537E-01 -6.38977910799E-04 +1.52835113859E-04 -6.33830457292E-04 +7.48313774907E-05 +6.06554391677E-01 +6.80995705143E-01
2.53500000000E+09 +6.36369986658E-01 +5.81053316447E-01 -6.81326268853E-04 +1.79460506824E-04 -6.15336591366E-04 +1.49899864765E-04 +6.12574122090E-01 +6.74342462542E-01
2.54000000000E+09 +6.40284835564E-01 +5.74900561961E-01 -6.74683077667E-04 +1.95085765385E-04 -6.58764894500E-04 +2.13502552270E-04 +6.18547652492E-01 +6.67396169354E-01
2.54500000000E+09 +6.44530184761E-01 +5.69115869483E-01 -6.38624721874E-04 +3.57144798441E-04 -6.91309823479E-04 +3.13337295120E-04 +6.24310062787E-01 +6.60925959951E-01
2.55000000000E+09 +6.49347168890E-01 +5.63004650090E-01 -5.45778867693E-04 +4.39560514665E-04 -6.42340389327E-04 +4.04848106415E-04 +6.29649349760E-01 +6.54767463230E-01
2.55500000000E+09 +6.54449414981E-01 +5.56070084273E-01 -4.58001040501E-04 +4.78624156877E-04 -5.25830973250E-04 +5.65091686420E-04 +6.34651791530E-01 +6.48227089559E-01
2.56000000000E+09 +6.60261732399E-01 +5.49312497729E-01 -3.91174425115E-04 +4.92446744189E-04 -4.25469654792E-04 +5.61212794984E-04 +6.40057026630E-01 +6.41231863878E-01
2.56500000000E+09 +6.66537244279E-01 +5.41294465209E-01 -3.89923842506E-04 +4.04528691981E-04 -3.42877434084E-04 +5.08531307412E-04 +6.45498740390E-01 +6.33555228052E-01
2.57000000000E+09 +6.72696178168E-01 +5.32827027521E-01 -4.51816409902E-04 +3.78060599536E-04 -3.72072617358E-04 +4.77067414413E-04 +6.50785148012E-01 +6.25456924175E-01
2.57500000000E+09 +6.78711216982E-01 +5.23867327873E-01 -5.37786129345E-04 +5.73449537397E-04 -4.27166884581E-04 +5.95617300200E-04 +6.56155206961E-01 +6.17807428695E-01
2.58000000000E+09 +6.83714530733E-01 +5.15221570730E-01 -3.48113617481E-04 +8.17809693113E-04 -2.52955480799E-04 +6.40263439941E-04 +6.61253115868E-01 +6.10281378162E-01
2.58500000000E+09 +6.88558990797E-01 +5.06559684099E-01 -2.17564942344E-04 +7.13437302425E-04 -2.36713862581E-04 +6.34240792270E-04 +6.66169775342E-01 +6.02862795281E-01
2.59000000000E+09 +6.92863398765E-01 +4.98430501284E-01 -1.44734127015E-04 +7.30284743330E-04 -1.84822676756E-04 +7.14609981970E-04 +6.70855578029E-01 +5.95388405296E-01
2.59500000000E+09 +6.97113552999E-01 +4.90172907652E-01 -1.36819549787E-04 +6.96243554250E-04 -1.35858174794E-04 +6.58607071960E-04 +6.75793264512E-01 +5.87333889966E-01
2.60000000000E+09 +7.01120488949E-01 +4.81809427623E-01 -7.98130970958E-06 +6.86893668168E-04 -7.04297709125E-05 +7.15906850010E-04 +6.80777138751E-01 +5.78910830920E-01
2.60500000000E+09 +7.05509698247E-01 +4.72680764208E-01 -3.66726551315E-05 +7.42466980908E-04 -3.12477193725E-05 +7.58659155420E-04 +6.86043733751E-01 +5.70085386990E-01
2.61000000000E+09 +7.09731937671E-01 +4.62814723591E-01 +2.94894198117E-05 +8.84035141126E-04 +4.04233858883E-05 +9.08679427181E-04 +6.90905777526E-01 +5.61250837938E-01
2.61500000000E+09 +7.14399132298E-01 +4.51870313348E-01 +3.03635002913E-04 +9.13355868629E-04 +3.12111463777E-04 +9.05515548026E-04 +6.95821634693E-01 +5.52705607904E-01
2.62000000000E+09 +7.18800093349E-01 +4.39844077288E-01 +4.26394627652E-04 +7.32400716385E-04 +5.20507124494E-04 +7.80656977165E-04 +7.00349054206E-01 +5.43537619623E-01
2.62500000000E+09 +7.22818679821E-01 +4.26801424386E-01 +3.69180695649E-04 +5.64646670296E-04 +4.36856121096E-04 +5.49256975393E-04 +7.05129927991E-01 +5.34896571532E-01
2.63000000000E+09 +7.26337843263E-01 +4.13658153859E-01 +3.55188487388E-04 +6.19602861224E-04 +4.29554464310E-04 +5.50250397283E-04 +7.10062187932E-01 +5.25952017702E-01
2.63500000000E+09 +7.29533083099E-01 +4.00364461764E-01 +4.43284552675E-04 +5.83903333531E-04 +4.46027393882E-04 +4.93403139048E-04 +7.14792878443E-01 +5.16500832020E-01
2.64000000000E+09 +7.32275213350E-01 +3.87559326209E-01 +4.07654234785E-04 +6.07938896261E-04 +3.57529746035E-04 +4.71983823391E-04 +7.19595804254E-01 +5.06756665717E-01
2.64500000000E+09 +7.34965544573E-01 +3.75500647450E-01 +5.55901120960E-04 +5.64793182920E-04 +4.75228607457E-04 +5.33936750300E-04 +7.24074040303E-01 +4.97025054286E-01
2.65000000000E+09 +7.37459823725E-01 +3.63755278238E-01 +5.03715073480E-04 +4.76815941419E-04 +4.82465006350E-04 +4.73829602173E-04 +7.28287683788E-01 +4.87168438092E-01
2.65500000000E+09 +7.39653714799E-01 +3.51998740457E-01 +5.07424366066E-04 +4.49274253349E-04 +4.77143470234E-04 +5.00751122906E-04 +7.32683283947E-01 +4.77063783118E-01
2.66000000000E+09 +7.41796355809E-01 +3.40424792987E-01 +6.00487046950E-04 +4.31891715626E-04 +6.59116707312E-04 +4.45256578516E-04 +7.37053478943E-01 +4.65754025216E-01
2.66500000000E+09 +7.44022622201E-01 +3.28870512441E-01 +5.39327968726E-04 +4.94377228016E-04 +5.65404813504E-04 +4.52274583522E-04 +7.41275535981E-01 +4.54395555732E-01
2.67000000000E+09 +7.46031497395E-01 +3.16340182746E-01 +7.39677106989E-04 +5.61257094160E-04 +7.65889840086E-04 +4.97389036575E-04 +7.45522103895E-01 +4.43270701470E-01
2.67500000000E+09 +7.47300287497E-01 +3.03193361057E-01 +9.29066276695E-04 +3.35050072501E-04 +8.86163280901E-04 +2.80301469414E-04 +7.49569594052E-01 +4.32160530077E-01
2.68000000000E+09 +7.48285520178E-01 +2.89696042180E-01 +8.41524210238E-04 +1.80652780792E-04 +7.89310090668E-04 +1.83725355095E-04 +7.53469295243E-01 +4.21029492251E-01
2.68500000000E+09 +7.48648754832E-01 +2.75673345103E-01 +8.03587428476E-04 +2.58280567320E-04 +8.10253974060E-04 +2.74564609285E-04 +7.56674364477E-01 +4.09388575984E-01
2.69000000000E+09 +7.48354892309E-01 +2.62038483215E-01 +9.15880459717E-04 +3.17448749800E-04 +8.92822767585E-04 +3.21933118695E-04 +7.59323980905E-01 +3.97171210314E-01
2.69500000000E+09 +7.48115325081E-01 +2.48916187743E-01 +1.10379440629E-03 +2.41375850777E-04 +1.08707883770E-03 +2.65942116947E-04 +7.62085691594E-01 +3.84270352377E-01
2.70000000000E+09 +7.48250321132E-01 +2.35730959244E-01 +1.29029560498E-03 +1.14880324585E-04 +1.31610124494E-03 +9.20587591992E-05 +7.64540103553E-01 +3.70887175244E-01
2.70500000000E+09 +7.48774549224E-01 +2.23145196720E-01 +1.35768930922E-03 -3.29235236146E-04 +1.32791471564E-03 -2.57739312237E-04 +7.67484410092E-01 +3.57583499108E-01
2.71000000000E+09 +7.49681104461E-01 +2.10214662223E-01 +1.19051901566E-03 -4.61749657492E-04 +1.24393795005E-03 -4.34548730643E-04 +7.70466901086E-01 +3.44039076627E-01
2.71500000000E+09 +7.51056552612E-01 +1.96693562401E-01 +1.18242316170E-03 -6.62042565665E-04 +1.20644715582E-03 -6.75804811184E-04 +7.72446217051E-01 +3.31266663829E-01
2.72000000000E+09 +7.52267208455E-01 +1.82537284735E-01 +9.15588460062E-04 -6.98235168508E-04 +9.60898877185E-04 -8.59301055791E-04 +7.74382890371E-01 +3.18505893062E-01
2.72500000000E+09 +7.53340330393E-01 +1.67201615147E-01 +8.90471225269E-04 -7.06969877007E-04 +8.00925381395E-04 -8.12844629333E-04 +7.75416739388E-01 +3.05272283324E-01
2.73000000000E+09 +7.53445164890E-01 +1.50717930499E-01 +9.06159622309E-04 -7.41486454818E-04 +7.70058990295E-04 -7.65192335798E-04 +7.76793727726E-01 +2.91313720384E-01
2.73500000000E+09 +7.51805900700E-01 +1.33343465803E-01 +8.61798868471E-04 -9.70349995420E-04 +7.84467079807E-04 -8.58214947159E-04 +7.78005591594E-01 +2.76256132236E-01
2.74000000000E+09 +7.48907072710E-01 +1.16626973309E-01 +8.92331648159E-04 -1.02342285309E-03 +8.80644857203E-04 -8.25900532076E-04 +7.79052818651E-01 +2.60972031813E-01
2.74500000000E+09 +7.45378471647E-01 +9.98327444809E-02 +7.51895215945E-04 -1.28478771080E-03 +8.92033126963E-04 -1.12311919927E-03 +7.80091482784E-01 +2.45804086683E-01
2.75000000000E+09 +7.41034561368E-01 +8.33729778416E-02 +4.52952698182E-04 -1.43258038369E-03 +6.08625373761E-04 -1.45190687581E-03 +7.80595223791E-01 +2.30895268103E-01
2.75500000000E+09 +7.36409371696E-01 +6.71577827989E-02 +2.07356440524E-04 -1.30208665353E-03 +3.39811125759E-04 -1.37086146331E-03 +7.80758674966E-01 +2.15975142231E-01
2.76000000000E+09 +7.32073490690E-01 +5.09602320256E-02 +2.91718311474E-04 -1.20337280908E-03 +3.18094899151E-04 -1.29947860986E-03 +7.80273756069E-01 +2.00068021117E-01
2.76500000000E+09 +7.27291474224E-01 +3.43588520299E-02 +1.89060751768E-04 -1.40298030103E-03 +1.93877807841E-04 -1.51041979781E-03 +7.78874220426E-01 +1.82969521417E-01
2.77000000000E+09 +7.22977002395E-01 +1.71432012508E-02 +4.13405176737E-05 -1.36549975120E-03 +1.89043976225E-05 -1.42489323660E-03 +7.77192385218E-01 +1.65875861168E-01
2.77500000000E+09 +7.18839882067E-01 -1.15346934322E-03 -5.08591639364E-05 -1.50850907478E-03 -6.51231851232E-05 -1.54887222553E-03 +7.75519323093E-01 +1.47544933838E-01
2.78000000000E+09 +7.14132562814E-01 -2.10331868213E-02 -3.33879303861E-04 -1.59514202266E-03 -4.39423253921E-04 -1.63597394016E-03 +7.72910652348E-01 +1.29462537234E-01
2.78500000000E+09 +7.07888926234E-01 -4.17962819125E-02 -6.65152908062E-04 -1.35464879723E-03 -7.28339513255E-04 -1.33144641302E-03 +7.70229387402E-01 +1.11825203832E-01
2.79000000000E+09 +7.00690856003E-01 -6.32003903089E-02 -5.47279030247E-04 -1.25526745346E-03 -5.46196939652E-04 -1.18474346934E-03 +7.66565809958E-01 +9.44534370587E-02
2.79500000000E+09 +6.91672105480E-01 -8.42534027728E-02 -7.77457616956E-04 -1.49821871359E-03 -6.95091623329E-04 -1.37496671145E-03 +7.62103310132E-01 +7.69743975906E-02
2.80000000000E+09 +6.81565052556E-01 -1.04430154452E-01 -1.01128426458E-03 -1.21034711924E-03 -9.20041914230E-04 -1.18789805983E-03 +7.57264528385E-01 +5.89709283202E-02
2.80500000000E+09 +6.70422347118E-01 -1.23755391919E-01 -1.06047838464E-03 -1.19958593086E-03 -9.64149969097E-04 -1.20451132382E-03 +7.51475674969E-01 +3.99461762399E-02
2.81000000000E+09 +6.58982795649E-01 -1.42188661552E-01 -1.19767500071E-03 -1.11069920764E-03 -1.23783097281E-03 -1.15085968364E-03 +7.44863374292E-01 +2.08192720853E-02
2.81500000000E+09 +6.46065736127E-01 -1.59994618828E-01 -1.31410847831E-03 -9.38354560377E-04 -1.36216967897E-03 -9.35274324526E-04 +7.37918699054E-01 +1.47198108993E-03
2.82000000000E+09 +6.32404952430E-01 -1.77092316024E-01 -1.31965208291E-03 -1.13999149709E-03 -1.41238801248E-03 -1.05996826781E-03 +7.29920864370E-01 -1.79276140519E-02
2.82500000000E+09 +6.17827830939E-01 -1.93997319964E-01 -1.95575939645E-03 -1.02303126809E-03 -1.92467046934E-03 -9.37118857204E-04 +7.21371371978E-01 -3.73567331147E-02
2.83000000000E+09 +6.02114749751E-01 -2.11640114207E-01 -2.26459438597E-03 -1.85458039993E-04 -2.20475452297E-03 -1.88671336681E-04 +7.11901025294E-01 -5.65895163659E-02
2.83500000000E+09 +5.84159428306E-01 -2.30276477562E-01 -1.84827237643E-03 +4.05707371166E-04 -1.80251771126E-03 +3.24518667573E-04 +7.02001898392E-01 -7.65990029271E-02
2.84000000000E+09 +5.63876338719E-01 -2.48848452577E-01 -1.32880409771E-03 +5.07448499160E-04 -1.34570123765E-03 +4.79746069686E-04 +6.90616677022E-01 -9.75968047469E-02
2.84500000000E+09 +5.41308118339E-01 -2.67178974141E-01 -1.07945940703E-03 +1.19005299213E-04 -1.04052762134E-03 +9.27402525028E-05 +6.78007111623E-01 -1.18190634460E-01
2.85000000000E+09 +5.17362418327E-01 -2.84791883201E-01 -1.45314476922E-03 -2.16703139300E-04 -1.50653273484E-03 -1.95122157721E-04 +6.64382943770E-01 -1.38759051594E-01
2.85500000000E+09 +4.92864201989E-01 -3.01532754968E-01 -1.89161273538E-03 +4.22945192311E-04 -1.82578751796E-03 +4.18974609502E-04 +6.49387578055E-01 -1.59325034281E-01
2.86000000000E+09 +4.67898314103E-01 -3.18367948359E-01 -1.33867916345E-03 +6.85399480979E-04 -1.30471903273E-03 +6.75380250466E-04 +6.32637659898E-01 -1.79790106297E-01
2.86500000000E+09 +4.41573165111E-01 -3.34221929289E-01 -1.34243632617E-03 +5.62419100356E-04 -1.34744636375E-03 +5.22073454036E-04 +6.14709954752E-01 -1.99620058328E-01
2.87000000000E+09 +4.14842610527E-01 -3.48041441629E-01 -1.34259467878E-03 +9.06050903528E-04 -1.37805267630E-03 +8.95701373016E-04 +5.96097718439E-01 -2.18334399260E-01
2.87500000000E+09 +3.89149407952E-01 -3.60210581141E-01 -1.19453982379E-03 +7.54910453487E-04 -1.18093663976E-03 +7.81824113454E-04 +5.77276058300E-01 -2.37954045257E-01
2.88000000000E+09 +3.63027334900E-01 -3.72328414904E-01 -1.35899814510E-03 +8.42515399557E-04 -1.28587126138E-03 +8.09161518301E-04 +5.56158990060E-01 -2.57733154752E-01
2.88500000000E+09 +3.36080360208E-01 -3.82927344730E-01 -1.13640565391E-03 +1.28194453105E-03 -1.10786940958E-03 +1.22986756635E-03 +5.32551551859E-01 -2.76243322193E-01
2.89000000000E+09 +3.07471784214E-01 -3.92476466462E-01 -7.72732357247E-04 +8.68053234339E-04 -7.76280032393E-04 +7.60006654773E-04 +5.07718903907E-01 -2.93504198653E-01
2.89500000000E+09 +2.76709144418E-01 -4.00188930908E-01 -1.33136892009E-03 +8.41736644950E-04 -1.35735240840E-03 +7.34371349080E-04 +4.80720977583E-01 -3.10885597766E-01
2.90000000000E+09 +2.43995366337E-01 -4.05162390073E-01 -1.67661699885E-03 +1.20308537602E-03 -1.74669623932E-03 +1.11329118379E-03 +4.52551613835E-01 -3.26112927164E-01
2.90500000000E+09 +2.09962484462E-01 -4.06900314129E-01 -1.57312276464E-03 +2.08943170997E-03 -1.68329523940E-03 +2.08055187403E-03 +4.23767997032E-01 -3.41794289521E-01
2.91000000000E+09 +1.75599254168E-01 -4.06546343614E-01 -6.28622325435E-04 +2.41924595631E-03 -6.33836821264E-04 +2.40227971457E-03 +3.93040172851E-01 -3.55990688531E-01
2.91500000000E+09 +1.40645435788E-01 -4.04264296814E-01 -4.88083359382E-04 +1.76204728635E-03 -4.33643167025E-04 +1.74797655465E-03 +3.60695347768E-01 -3.68143396947E-01
2.92000000000E+09 +1.04731247840E-01 -3.99842294815E-01 -7.09349985707E-04 +2.31593119442E-03 -7.43137929900E-04 +2.16143233016E-03 +3.27874566045E-01 -3.77928044994E-01
2.92500000000E+09 +6.83479840921E-02 -3.93396225937E-01 -8.50148506587E-05 +2.29772855455E-03 -1.72769552228E-04 +2.11129121190E-03 +2.92588094038E-01 -3.86331885670E-01
2.93000000000E+09 +3.27275215992E-02 -3.83777216661E-01 -2.33037611514E-04 +2.28751679420E-03 -3.67085318662E-04 +2.31225238495E-03 +2.56025981696E-01 -3.92846167528E-01
2.93500000000E+09 -2.14649865060E-03 -3.73089958081E-01 +3.70936962130E-04 +2.72341993334E-03 +3.03335659604E-04 +2.76897521375E-03 +2.17404683979E-01 -3.97478345283E-01
2.94000000000E+09 -3.70267738120E-02 -3.60191518160E-01 +5.03727133652E-04 +2.32242545358E-03 +4.95278108562E-04 +2.39141129902E-03 +1.78385958258E-01 -3.98636553872E-01
2.94500000000E+09 -7.15187513972E-02 -3.44478508173E-01 +7.91361638256E-04 +2.72145189600E-03 +7.58654729562E-04 +2.76441739081E-03 +1.41021903415E-01 -3.99268266204E-01
2.95000000000E+09 -1.04297593736E-01 -3.25373112624E-01 +1.42308992885E-03 +2.60705393093E-03 +1.34869899532E-03 +2.71159272978E-03 +1.00891452855E-01 -3.98534747863E-01
2.95500000000E+09 -1.35266833301E-01 -3.03699757515E-01 +1.95296963934E-03 +2.39098187939E-03 +1.91788839105E-03 +2.59008602418E-03 +5.95103918125E-02 -3.92393454555E-01
2.96000000000E+09 -1.64790728690E-01 -2.80232114140E-01 +2.37916493067E-03 +1.86785457073E-03 +2.48020467704E-03 +2.01604540793E-03 +1.96333249299E-02 -3.82582804814E-01
2.96500000000E+09 -1.93722292639E-01 -2.54143990192E-01 +2.37871877750E-03 +1.20881539401E-03 +2.50808198198E-03 +1.19131901937E-03 -2.02303741423E-02 -3.69854524564E-01
2.97000000000E+09 -2.20973515547E-01 -2.23648806084E-01 +1.86467978634E-03 +1.28042239471E-03 +1.95061488118E-03 +1.14341942924E-03 -5.85438479040E-02 -3.55697267504E-01
2.97500000000E+09 -2.43878031492E-01 -1.91066109590E-01 +2.24519096357E-03 +1.60988077370E-03 +2.15780720624E-03 +1.51921936775E-03 -9.80876800018E-02 -3.40340629071E-01
2.98000000000E+09 -2.64207531809E-01 -1.58739856944E-01 +2.91380357935E-03 +1.57432598325E-03 +2.81000308615E-03 +1.55409935873E-03 -1.37260539464E-01 -3.21502467845E-01
2.98500000000E+09 -2.83963600969E-01 -1.26381328057E-01 +3.73678319585E-03 +7.23872736524E-04 +3.75540488135E-03 +8.59484525472E-04 -1.75381066143E-01 -2.97678751827E-01
2.99000000000E+09 -3.02315022703E-01 -9.25223614927E-02 +3.45581014060E-03 -5.49815653584E-04 +3.63019431315E-03 -5.14911583624E-04 -2.09340570554E-01 -2.71801523108E-01
2.99500000000E+09 -3.18461513071E-01 -5.74570268164E-02 +2.58777482386E-03 -6.55783315109E-04 +2.61922339504E-03 -8.21895744468E-04 -2.42992706437E-01 -2.43706858530E-01
3.00000000000E+09 -3.31540790155E-01 -2.18498084962E-02 +2.60487843479E-03 -1.11360567259E-04 +2.63602780768E-03 -2.80618665298E-04 -2.75058646450E-01 -2.12377566883E-01
3.00500000000E+09 -3.41160126820E-01 +1.23903564907E-02 +3.35336816678E-03 -5.31685636581E-04 +3.15867947402E-03 -5.93015773084E-04 -3.04143901832E-01 -1.78630325512E-01
3.01000000000E+09 -3.48798257522E-01 +4.53411328878E-02 +3.41358634551E-03 -1.57439301982E-03 +3.29576573801E-03 -1.38862625807E-03 -3.31185911286E-01 -1.43481449195E-01
3.01500000000E+09 -3.54708998161E-01 +7.83089674227E-02 +2.95431465898E-03 -2.38001191963E-03 +3.01530582240E-03 -2.19553726638E-03 -3.53953666823E-01 -1.06981536494E-01
3.02000000000E+09 -3.57128081886E-01 +1.11131845585E-01 +1.89220751879E-03 -2.80716474121E-03 +1.98053670973E-03 -2.67522619398E-03 -3.74809987555E-01 -7.08103046816E-02
3.02500000000E+09 -3.56167041927E-01 +1.43597975745E-01 +1.80885283583E-03 -2.15081262644E-03 +1.88833335376E-03 -2.09850355321E-03 -3.93846165091E-01 -3.14633471583E-02
3.03000000000E+09 -3.51830102441E-01 +1.75175736187E-01 +2.03291806520E-03 -2.74889425737E-03 +2.10707270521E-03 -2.72035001506E-03 -4.08360813368E-01 +1.00025302786E-02
3.03500000000E+09 -3.44612192509E-01 +2.04597567836E-01 +1.35373391900E-03 -3.72054049465E-03 +1.44110771535E-03 -3.68236209186E-03 -4.18753080303E-01 +5.09200505340E-02
3.04000000000E+09 -3.36901820973E-01 +2.33702788775E-01 -1.59825791573E-04 -3.65324897666E-03 -9.96062705325E-05 -3.80285774046E-03 -4.26483714197E-01 +9.12713641680E-02
3.04500000000E+09 -3.27071188677E-01 +2.63008683421E-01 -6.96156806018E-04 -2.48372289374E-03 -6.73183484458E-04 -2.64197549704E-03 -4.32106744001E-01 +1.30842037250E-01
3.05000000000E+09 -3.15523894850E-01 +2.92236266765E-01 -3.08210292802E-04 -1.83249770339E-03 -3.95508199036E-04 -1.95895094357E-03 -4.36278246852E-01 +1.70527382307E-01
3.05500000000E+09 -3.01405956490E-01 +3.20506291564E-01 +4.70275508518E-04 -2.21060490308E-03 +3.15667405493E-04 -2.24312723854E-03 -4.36010949157E-01 +2.11027374449E-01
3.06000000000E+09 -2.86383650470E-01 +3.46456370150E-01 +5.16964237835E-05 -3.57905849646E-03 -5.55326935314E-05 -3.40782502180E-03 -4.33185269637E-01 +2.48500819107E-01
3.06500000000E+09 -2.71551769758E-01 +3.70890296523E-01 -1.85871505266E-03 -3.26572528541E-03 -1.77579991752E-03 -3.10786014946E-03 -4.29058079909E-01 +2.85456296825E-01
3.07000000000E+09 -2.56681872366E-01 +3.94393291224E-01 -2.41827366642E-03 -1.76246811745E-03 -2.22160685068E-03 -1.93851549106E-03 -4.23256184007E-01 +3.20762299029E-01
