# Hz S RI R 50
! CMT, C1220, 16058040, 17.2.0/1
! Date: 15/08/2018 09:56:27
! Data: Format (Calibration Info)
! Freq                      S11: Re/Im (F2)                       S21: Re/Im (F2)                       S12: Re/Im (F2)                       S22: Re/Im (F2)            
2.50000000000E+09 +5.98105380884E-01 +6.31599175460E-01 -2.76117810103E-04 -1.39328214685E-03 -3.18767430955E-04 -1.51600616049E-03 +5.77594560053E-01 +7.13413716415E-01
2.50500000000E+09 +6.04392471421E-01 +6.24204975234E-01 -3.86863809504E-04 -1.40399336260E-03 -5.04586464629E-04 -1.48341800548E-03 +5.83255900088E-01 +7.07837559814E-01
2.51000000000E+09 +6.10986285130E-01 +6.16560933148E-01 -5.44933516229E-04 -1.40888859030E-03 -5.96894080704E-04 -1.32068505422E-03 +5.88724713805E-01 +7.02548891642E-01
2.51500000000E+09 +6.17664386339E-01 +6.08738236822E-01 -7.25950592585E-04 -1.41445248622E-03 -7.05825971511E-04 -1.34893209780E-03 +5.93827279489E-01 +6.97156715948E-01
2.52000000000E+09 +6.23915982166E-01 +6.00817793941E-01 -9.75220867510E-04 -1.30314465623E-03 -8.73668661577E-04 -1.32963388081E-03 +5.98880475376E-01 +6.91337760686E-01
2.52500000000E+09 +6.29521703081E-01 +5.93226843504E-01 -1.18275528038E-03 -1.12749762222E-03 -1.06641266905E-03 -1.17745444247E-03 +6.04463786619E-01 +6.84847693814E-01
2.53000000000E+09 +6.34673431839E-01 +5.85959320714E-01 -1.21816761829E-03 -9.28953720527E-04 -1.18952257766E-03 -9.15656765911E-04 +6.10458218170E-01 +6.77755671440E-01
2.53500000000E+09 +6.39243727084E-01 +5.79205899966E-01 -1.02783070961E-03 -8.25916287769E-04 -1.13749676897E-03 -8.47902103741E-04 +6.16341488722E-01 +6.70850979734E-01
2.54000000000E+09 +6.43695644257E-01 +5.72753162920E-01 -1.17420313027E-03 -9.07073153524E-04 -1.15170243306E-03 -8.92083094233E-04 +6.22374371771E-01 +6.64171660064E-01
2.54500000000E+09 +6.48317265541E-01 +5.66144695035E-01 -1.41283337998E-03 -8.88421862524E-04 -1.34577659855E-03 -9.18243421298E-04 +6.28246565394E-01 +6.57796877525E-01
2.55000000000E+09 +6.52866028478E-01 +5.59390099312E-01 -1.68039713484E-03 -6.64771918469E-04 -1.68116270783E-03 -8.22189165968E-04 +6.33531233357E-01 +6.51599196186E-01
2.55500000000E+09 +6.57618215220E-01 +5.52041217123E-01 -1.68260537309E-03 -3.00291547729E-04 -1.94831339178E-03 -4.39866177989E-04 +6.38619331827E-01 +6.45290322054E-01
2.56000000000E+09 +6.63165933962E-01 +5.44920552730E-01 -1.52080017188E-03 -1.05543098968E-04 -1.77686379336E-03 +4.45803741064E-05 +6.43738641400E-01 +6.38012146623E-01
2.56500000000E+09 +6.69306311955E-01 +5.36601974852E-01 -1.37011713960E-03 -1.36057531159E-04 -1.49910228115E-03 +1.11304264817E-04 +6.48924331049E-01 +6.30524012588E-01
2.57000000000E+09 +6.75594417280E-01 +5.28045694672E-01 -1.44496832442E-03 -2.93986338629E-04 -1.47683588457E-03 +2.44718709436E-05 +6.54573317729E-01 +6.22514477830E-01
2.57500000000E+09 +6.81904613206E-01 +5.18833719636E-01 -1.79746049783E-03 -1.85377310814E-04 -1.61380346368E-03 +1.15699463573E-04 +6.60205440224E-01 +6.14674744939E-01
2.58000000000E+09 +6.87543224122E-01 +5.09866913325E-01 -1.92231578458E-03 +2.77773705299E-04 -1.57556032126E-03 +3.36091143492E-04 +6.65404808855E-01 +6.07054534560E-01
2.58500000000E+09 +6.92942399567E-01 +5.00993910648E-01 -1.75108857220E-03 +5.44336968369E-04 -1.55582205453E-03 +4.45223137023E-04 +6.70254385320E-01 +5.99484648706E-01
2.59000000000E+09 +6.97937732810E-01 +4.92561218608E-01 -1.57718812300E-03 +6.39296806238E-04 -1.51463233176E-03 +4.57168980300E-04 +6.74882961794E-01 +5.92036812817E-01
2.59500000000E+09 +7.02665253952E-01 +4.84136569620E-01 -1.55852083214E-03 +6.05565470848E-04 -1.61962539333E-03 +5.07337121426E-04 +6.79625095165E-01 +5.83825106947E-01
2.60000000000E+09 +7.07061091015E-01 +4.75607037694E-01 -1.69096987505E-03 +6.67150906318E-04 -1.68687477446E-03 +6.43520179403E-04 +6.84552752397E-01 +5.75202804152E-01
2.60500000000E+09 +7.11490232452E-01 +4.66828740378E-01 -1.81088810827E-03 +1.01896102575E-03 -1.82734299307E-03 +1.06106615513E-03 +6.89520424305E-01 +5.66172207454E-01
2.61000000000E+09 +7.15898710019E-01 +4.57296739073E-01 -1.67254929912E-03 +1.42711600825E-03 -1.64984044402E-03 +1.45632505079E-03 +6.94536454301E-01 +5.57310424951E-01
2.61500000000E+09 +7.20228945980E-01 +4.46773462120E-01 -1.28761586424E-03 +1.57225978596E-03 -1.30837091378E-03 +1.56917194761E-03 +6.99271392003E-01 +5.48783282864E-01
2.62000000000E+09 +7.24284765056E-01 +4.35601626805E-01 -1.11180682729E-03 +1.57161852229E-03 -1.21859141734E-03 +1.67257066300E-03 +7.04111765158E-01 +5.39666006283E-01
2.62500000000E+09 +7.28374943295E-01 +4.23686096175E-01 -1.01919267426E-03 +1.62862898986E-03 -9.00885863958E-04 +1.78774217638E-03 +7.08586546364E-01 +5.30705281145E-01
2.63000000000E+09 +7.32495573103E-01 +4.11190110411E-01 -9.11333960613E-04 +1.59798711984E-03 -6.73269052471E-04 +1.72435961814E-03 +7.12954131962E-01 +5.22123390217E-01
2.63500000000E+09 +7.35965232782E-01 +3.98545572217E-01 -9.75240662990E-04 +1.76357871674E-03 -6.76993419914E-04 +1.64613669722E-03 +7.17796854461E-01 +5.13022998293E-01
2.64000000000E+09 +7.39455601445E-01 +3.86227924574E-01 -7.63670798915E-04 +2.11639606620E-03 -6.07271637460E-04 +1.80598994442E-03 +7.22788850599E-01 +5.03219998934E-01
2.64500000000E+09 +7.43092206523E-01 +3.74331850903E-01 -3.71944075539E-04 +2.02829318392E-03 -4.68334428492E-04 +1.78095143294E-03 +7.27558672897E-01 +4.93326345424E-01
2.65000000000E+09 +7.46202515968E-01 +3.62713575563E-01 -2.38353167351E-04 +2.02610973413E-03 -5.25909126970E-04 +1.90094025390E-03 +7.31975250080E-01 +4.83184782996E-01
2.65500000000E+09 +7.49331292895E-01 +3.51087069556E-01 -1.84530895065E-04 +1.96529483960E-03 -4.34279362785E-04 +2.05985376777E-03 +7.35752061915E-01 +4.72813022216E-01
2.66000000000E+09 +7.52117861437E-01 +3.39493131522E-01 -1.11558412457E-04 +2.18277512317E-03 -9.92762016127E-05 +2.32046580722E-03 +7.40013494100E-01 +4.62088367483E-01
2.66500000000E+09 +7.54966989989E-01 +3.28101734288E-01 +1.24802120357E-04 +2.28358103164E-03 +1.93042936936E-04 +2.30399838872E-03 +7.44569082913E-01 +4.50849250247E-01
2.67000000000E+09 +7.57518100894E-01 +3.15794388764E-01 +3.82529870922E-04 +2.33480518582E-03 +5.69227885352E-04 +2.27578356122E-03 +7.48799571051E-01 +4.39359543340E-01
2.67500000000E+09 +7.59671041433E-01 +3.02498153316E-01 +7.88258440801E-04 +2.31151932626E-03 +7.73723674641E-04 +2.13775977453E-03 +7.52804563953E-01 +4.27778482339E-01
2.68000000000E+09 +7.60822531465E-01 +2.88886808079E-01 +1.00167680807E-03 +2.00885805759E-03 +8.76910381939E-04 +1.93389819181E-03 +7.56492325107E-01 +4.16440438910E-01
2.68500000000E+09 +7.61798169956E-01 +2.75041397688E-01 +8.81090306849E-04 +1.98198364621E-03 +8.14737614030E-04 +1.94838400676E-03 +7.59446399590E-01 +4.04819218417E-01
2.69000000000E+09 +7.62459023326E-01 +2.61070878099E-01 +1.07304644567E-03 +2.15773492015E-03 +1.09405250396E-03 +2.16268837027E-03 +7.62257444006E-01 +3.92909222755E-01
2.69500000000E+09 +7.63203445975E-01 +2.47034858698E-01 +1.31970684300E-03 +2.11120876389E-03 +1.34184549965E-03 +2.12030378545E-03 +7.64818889932E-01 +3.79962368107E-01
2.70000000000E+09 +7.64019994739E-01 +2.32869029751E-01 +1.65299758518E-03 +2.18468741990E-03 +1.55763093639E-03 +2.09294128274E-03 +7.67103835220E-01 +3.66399224993E-01
2.70500000000E+09 +7.64642793680E-01 +2.19031430224E-01 +2.16608414224E-03 +1.85451889924E-03 +2.02499453987E-03 +1.89359013031E-03 +7.69513951354E-01 +3.52910847626E-01
2.71000000000E+09 +7.65553316498E-01 +2.05418011381E-01 +2.20284575130E-03 +1.46865608929E-03 +2.21135177462E-03 +1.61520339427E-03 +7.72294782105E-01 +3.39858630919E-01
2.71500000000E+09 +7.67040339608E-01 +1.91343816669E-01 +2.15342640997E-03 +1.18766518800E-03 +2.27404969478E-03 +1.32870807224E-03 +7.74708898970E-01 +3.26949835969E-01
2.72000000000E+09 +7.68000921386E-01 +1.76575907034E-01 +2.13322502037E-03 +1.22980476422E-03 +2.31717747489E-03 +1.10972299484E-03 +7.76671758621E-01 +3.14062121714E-01
2.72500000000E+09 +7.68253627195E-01 +1.61294717048E-01 +2.36041154900E-03 +1.16526995649E-03 +2.45559256036E-03 +9.37105075382E-04 +7.77367269052E-01 +3.00875769098E-01
2.73000000000E+09 +7.67733410126E-01 +1.45903692604E-01 +2.53696821899E-03 +1.13909132661E-03 +2.38248018633E-03 +7.74210629563E-04 +7.78521002067E-01 +2.87225426766E-01
2.73500000000E+09 +7.66408191845E-01 +1.29773448853E-01 +2.77288171251E-03 +8.69228467385E-04 +2.41023278402E-03 +7.55567623443E-04 +7.79673833994E-01 +2.72514331049E-01
2.74000000000E+09 +7.64124392717E-01 +1.13698941216E-01 +2.93785746029E-03 +7.16739094022E-04 +2.57484528747E-03 +8.51369653757E-04 +7.80880782361E-01 +2.57013753337E-01
2.74500000000E+09 +7.61423425783E-01 +9.71906933333E-02 +3.10119401533E-03 +5.12871803319E-04 +2.91342533263E-03 +8.95123940310E-04 +7.81548646873E-01 +2.41717215249E-01
2.75000000000E+09 +7.57820093014E-01 +8.02775415245E-02 +3.47497628803E-03 +1.18004483908E-04 +3.55354685752E-03 +4.83997398761E-04 +7.82297216297E-01 +2.26704001688E-01
2.75500000000E+09 +7.53563476255E-01 +6.32281361661E-02 +3.40796728888E-03 -4.26046068068E-04 +3.68841029432E-03 -2.85116491174E-04 +7.82091182213E-01 +2.11501594917E-01
2.76000000000E+09 +7.48913146020E-01 +4.62648162489E-02 +3.29247603910E-03 -6.29129055273E-04 +3.53877998416E-03 -6.61158791838E-04 +7.81355141729E-01 +1.96359862854E-01
2.76500000000E+09 +7.44412191320E-01 +2.92583628690E-02 +3.50834982709E-03 -8.90056130828E-04 +3.63105256588E-03 -9.89176896180E-04 +7.80457034441E-01 +1.79810502426E-01
2.77000000000E+09 +7.40046894018E-01 +1.18070027258E-02 +3.61663106093E-03 -1.37579621738E-03 +3.75643420625E-03 -1.52432863141E-03 +7.78940835782E-01 +1.62012872555E-01
2.77500000000E+09 +7.35795790312E-01 -6.77734135830E-03 +3.48776941344E-03 -2.08069002231E-03 +3.53010985861E-03 -2.20143381706E-03 +7.76086614166E-01 +1.43742212520E-01
2.78000000000E+09 +7.31156717661E-01 -2.60827237475E-02 +3.21538083341E-03 -2.27784773427E-03 +3.14948592086E-03 -2.50164620348E-03 +7.73987986858E-01 +1.26296623013E-01
2.78500000000E+09 +7.25261180100E-01 -4.63019981678E-02 +3.09085056552E-03 -2.65723575969E-03 +2.91533680259E-03 -2.86491051408E-03 +7.71531827386E-01 +1.08707835776E-01
2.79000000000E+09 +7.18405873691E-01 -6.67112912614E-02 +2.97046143992E-03 -3.12903112153E-03 +2.69368451379E-03 -3.08572306667E-03 +7.68684032959E-01 +9.11770931638E-02
2.79500000000E+09 +7.10351372070E-01 -8.68121156479E-02 +2.74468528344E-03 -3.71302354787E-03 +2.52648426897E-03 -3.52387848081E-03 +7.64102737980E-01 +7.31051880005E-02
2.80000000000E+09 +7.01232651795E-01 -1.06768889776E-01 +2.01290488472E-03 -4.06257946892E-03 +2.06962928094E-03 -3.83518144779E-03 +7.58420560120E-01 +5.51530062185E-02
2.80500000000E+09 +6.90995708491E-01 -1.25918643245E-01 +1.44744491584E-03 -4.18820949182E-03 +1.60097842610E-03 -4.15932960559E-03 +7.52415502661E-01 +3.71559165377E-02
2.81000000000E+09 +6.80071652957E-01 -1.44175303255E-01 +1.28897301289E-03 -4.14834078111E-03 +1.43224463978E-03 -4.25771004113E-03 +7.46739031762E-01 +1.78725477577E-02
2.81500000000E+09 +6.68390001723E-01 -1.62085633225E-01 +8.22493078758E-04 -4.48570527255E-03 +7.18130874748E-04 -4.62317873100E-03 +7.39696082678E-01 -2.11212419567E-03
2.82000000000E+09 +6.55529262624E-01 -1.80080484484E-01 +4.25335751564E-04 -4.64115027558E-03 +2.34452319268E-04 -4.66361842484E-03 +7.31582391927E-01 -2.21024919177E-02
2.82500000000E+09 +6.41238677636E-01 -1.97622416867E-01 -2.38442372367E-04 -4.83130207590E-03 -4.16891729328E-04 -4.66932306496E-03 +7.22529208581E-01 -4.12880841114E-02
2.83000000000E+09 +6.25791195501E-01 -2.15552843587E-01 -1.00133503502E-03 -4.62158525123E-03 -9.79225840662E-04 -4.45559546148E-03 +7.13065164095E-01 -6.03851964453E-02
2.83500000000E+09 +6.08538660948E-01 -2.33896277702E-01 -1.32326170158E-03 -4.12030522815E-03 -1.25219551414E-03 -4.02947221202E-03 +7.03402108248E-01 -7.99900485227E-02
2.84000000000E+09 +5.89155083043E-01 -2.51818257950E-01 -1.23360087556E-03 -4.03598543079E-03 -1.11083485727E-03 -4.04575861807E-03 +6.92282801047E-01 -1.01013850353E-01
2.84500000000E+09 +5.68367616497E-01 -2.69718943105E-01 -1.57470446941E-03 -4.28691758466E-03 -1.49763795182E-03 -4.39226433944E-03 +6.79305018209E-01 -1.22031544464E-01
2.85000000000E+09 +5.46166320340E-01 -2.87665759354E-01 -1.94495798050E-03 -4.53346990811E-03 -1.93622598320E-03 -4.49520914424E-03 +6.64775944270E-01 -1.42549370430E-01
2.85500000000E+09 +5.22445184698E-01 -3.05312979780E-01 -2.86776422112E-03 -4.48597071328E-03 -2.88196969889E-03 -4.42926733835E-03 +6.50454996178E-01 -1.62082324413E-01
2.86000000000E+09 +4.97870779392E-01 -3.22504868529E-01 -3.35258127816E-03 -4.14752632585E-03 -3.31652746718E-03 -4.16738718604E-03 +6.34826200876E-01 -1.83429441241E-01
2.86500000000E+09 +4.72286935649E-01 -3.39419561200E-01 -4.20954728552E-03 -3.65653826726E-03 -4.17483889496E-03 -3.68673972185E-03 +6.16814988037E-01 -2.04075644116E-01
2.87000000000E+09 +4.44942218804E-01 -3.54572224653E-01 -4.37367189219E-03 -2.77621156755E-03 -4.46349028210E-03 -2.76455916087E-03 +5.97352455804E-01 -2.24025348169E-01
2.87500000000E+09 +4.18029853074E-01 -3.67555632172E-01 -4.13204419291E-03 -2.44200467573E-03 -4.19621214070E-03 -2.35892316577E-03 +5.76801976602E-01 -2.42908271252E-01
2.88000000000E+09 +3.91402830766E-01 -3.79604141185E-01 -4.29353399230E-03 -2.61730718510E-03 -4.18904235195E-03 -2.37217017837E-03 +5.55237908419E-01 -2.61583117659E-01
2.88500000000E+09 +3.63809377768E-01 -3.90635151601E-01 -4.99984074908E-03 -2.55246494936E-03 -4.78586701977E-03 -2.34399885687E-03 +5.32911576691E-01 -2.79911315470E-01
2.89000000000E+09 +3.35200740228E-01 -4.00357618446E-01 -5.45555522362E-03 -2.02840227672E-03 -5.09643674578E-03 -2.03663197940E-03 +5.07251051784E-01 -2.98369027045E-01
2.89500000000E+09 +3.04835059962E-01 -4.08159581560E-01 -5.99240572773E-03 -1.41035970833E-03 -5.74798836121E-03 -1.59482971232E-03 +4.79667240910E-01 -3.15123010564E-01
2.90000000000E+09 +2.72896334515E-01 -4.14035214749E-01 -6.14733335875E-03 -6.38495823923E-04 -6.12272746230E-03 -8.75600866143E-04 +4.50745645157E-01 -3.30203066977E-01
2.90500000000E+09 +2.38799822149E-01 -4.17057771982E-01 -6.36200559613E-03 -1.02434139102E-04 -6.41639351096E-03 -9.59434686339E-05 +4.22375886353E-01 -3.44503420081E-01
2.91000000000E+09 +2.03736371687E-01 -4.17415883310E-01 -6.66034394995E-03 +5.10783251803E-04 -6.52946484495E-03 +6.20311436168E-04 +3.91668393110E-01 -3.59004139547E-01
2.91500000000E+09 +1.68052704939E-01 -4.14637452601E-01 -6.71205881680E-03 +1.70181560862E-03 -6.42803031222E-03 +1.80282356020E-03 +3.59279870720E-01 -3.71334563633E-01
2.92000000000E+09 +1.32164007504E-01 -4.09578664215E-01 -6.06453019304E-03 +2.15797614555E-03 -5.68831311028E-03 +1.98431761544E-03 +3.25056647520E-01 -3.80340369272E-01
2.92500000000E+09 +9.73851877713E-02 -4.02655553357E-01 -6.09549623560E-03 +2.32762042882E-03 -5.86076086545E-03 +1.97897115654E-03 +2.91024252049E-01 -3.87611184607E-01
2.93000000000E+09 +6.27832730063E-02 -3.95172975240E-01 -6.63113215945E-03 +3.00476860386E-03 -6.60828147544E-03 +2.58091808656E-03 +2.55179094041E-01 -3.93786185955E-01
2.93500000000E+09 +2.73375888493E-02 -3.86019041549E-01 -6.52326750881E-03 +4.28549649961E-03 -6.68532903870E-03 +4.03975221090E-03 +2.17417352924E-01 -3.99461871086E-01
2.94000000000E+09 -7.87397138951E-03 -3.73888300463E-01 -6.29766271539E-03 +5.22519203185E-03 -6.37256567297E-03 +5.11129063384E-03 +1.77451252186E-01 -4.01780786959E-01
2.94500000000E+09 -4.20816130190E-02 -3.58610017430E-01 -5.78362628608E-03 +6.69442440382E-03 -5.82411740759E-03 +6.50894261797E-03 +1.38032402557E-01 -4.01313435516E-01
2.95000000000E+09 -7.42520062033E-02 -3.40103876435E-01 -4.27620631279E-03 +7.62005388000E-03 -4.50447988930E-03 +7.45064527010E-03 +9.95638724220E-02 -3.98064399725E-01
2.95500000000E+09 -1.03515151524E-01 -3.19836092754E-01 -3.16943888916E-03 +7.43740169353E-03 -3.53244530216E-03 +7.45228280250E-03 +6.06772696115E-02 -3.93566214461E-01
2.96000000000E+09 -1.32566575556E-01 -2.98046425760E-01 -2.88659278809E-03 +7.70441744423E-03 -3.14436227244E-03 +8.04021941318E-03 +1.98791534639E-02 -3.85819318934E-01
2.96500000000E+09 -1.60389953723E-01 -2.73300007319E-01 -2.18971415124E-03 +8.34097098567E-03 -2.11370719408E-03 +8.63412771327E-03 -2.15725008564E-02 -3.74253090002E-01
2.97000000000E+09 -1.87107170425E-01 -2.45393977390E-01 -1.57076129807E-03 +8.85844627614E-03 -1.34284074346E-03 +8.90256636533E-03 -6.22477360811E-02 -3.58760730334E-01
2.97500000000E+09 -2.11297603746E-01 -2.14857679912E-01 -5.97212383829E-04 +1.00666915308E-02 -5.01107461711E-04 +9.77024786041E-03 -1.02087024114E-01 -3.41544333209E-01
2.98000000000E+09 -2.33796354549E-01 -1.83089792224E-01 +1.84301863217E-03 +1.02934828624E-02 +1.48719769450E-03 +1.01095658126E-02 -1.40452418938E-01 -3.21086753512E-01
2.98500000000E+09 -2.54008743389E-01 -1.49931516103E-01 +3.03144057403E-03 +9.36376068788E-03 +2.68537799068E-03 +9.68468875968E-03 -1.77273904982E-01 -2.99300673098E-01
2.99000000000E+09 -2.72917229283E-01 -1.17206277207E-01 +3.94772561549E-03 +9.11077821446E-03 +3.97149591175E-03 +9.66340818848E-03 -2.14159218723E-01 -2.72587351032E-01
2.99500000000E+09 -2.90386018713E-01 -8.29991033297E-02 +5.12018445276E-03 +9.05274828930E-03 +5.61217018707E-03 +9.29615127380E-03 -2.46946282498E-01 -2.42063830842E-01
3.00000000000E+09 -3.05518200415E-01 -4.81101583424E-02 +6.49826243651E-03 +8.47368602051E-03 +6.88259752182E-03 +8.17761839449E-03 -2.77689405631E-01 -2.10469708476E-01
3.00500000000E+09 -3.17108613104E-01 -1.37002231158E-02 +8.15876493327E-03 +8.17389723476E-03 +8.06373503244E-03 +7.61597442557E-03 -3.07378172773E-01 -1.76762486402E-01
3.01000000000E+09 -3.25772655933E-01 +1.96750659682E-02 +9.83954578970E-03 +6.04125893449E-03 +9.33597205482E-03 +5.93090258259E-03 -3.33287623299E-01 -1.40870367419E-01
3.01500000000E+09 -3.32483705231E-01 +5.18255807633E-02 +1.01493581869E-02 +4.16439446040E-03 +9.82307715179E-03 +4.48769187914E-03 -3.57494021971E-01 -1.04009552966E-01
3.02000000000E+09 -3.36992763831E-01 +8.45599496797E-02 +1.00572333168E-02 +2.90096335207E-03 +1.01340053235E-02 +3.22545551534E-03 -3.76961108879E-01 -6.50506834823E-02
3.02500000000E+09 -3.38134187645E-01 +1.17838446583E-01 +1.02836876359E-02 +2.12643187541E-03 +1.04832979927E-02 +2.21528096447E-03 -3.92787505121E-01 -2.63617493719E-02
3.03000000000E+09 -3.34724425068E-01 +1.50462676606E-01 +1.07987880924E-02 +7.14622550106E-04 +1.07829768884E-02 +6.98951018303E-04 -4.06942157244E-01 +1.25448013151E-02
3.03500000000E+09 -3.29284500753E-01 +1.80690054401E-01 +1.12134256362E-02 -8.74628979410E-04 +1.12426880291E-02 -7.31649907197E-04 -4.18947880767E-01 +5.32925045911E-02
3.04000000000E+09 -3.22131334185E-01 +2.11511332459E-01 +1.07228196592E-02 -3.14577019483E-03 +1.10329096259E-02 -2.89050134653E-03 -4.27100221497E-01 +9.46659294231E-02
3.04500000000E+09 -3.13247675704E-01 +2.40623038050E-01 +9.41058587000E-03 -4.08264767064E-03 +1.00072803880E-02 -4.23941813957E-03 -4.32409518673E-01 +1.36060011019E-01
3.05000000000E+09 -3.03429511678E-01 +2.69889097454E-01 +8.92146571733E-03 -5.04365065156E-03 +9.26375525479E-03 -5.60973565950E-03 -4.33871310871E-01 +1.75282079635E-01
3.05500000000E+09 -2.91796632073E-01 +2.98606199273E-01 +8.14255355668E-03 -5.89432672451E-03 +7.87353912668E-03 -6.49573969587E-03 -4.35197930170E-01 +2.13464649468E-01
3.06000000000E+09 -2.78730228128E-01 +3.26342331851E-01 +7.37137464577E-03 -7.08303451870E-03 +6.82545070348E-03 -7.15993464885E-03 -4.33169048834E-01 +2.53209462506E-01
3.06500000000E+09 -2.64497139877E-01 +3.51881005375E-01 +6.08608011659E-03 -8.27879204528E-03 +5.77523821495E-03 -7.76697283608E-03 -4.27168461386E-01 +2.91183943497E-01
3.07000000000E+09 -2.50282702555E-01 +3.76122718396E-01 +4.21454311686E-03 -8.58249723484E-03 +4.59680476308E-03 -8.20283774712E-03 -4.19253913154E-01 +3.26610856194E-01
