# Hz S RI R 50
! CMT, C1220, 16058040, 17.2.0/1
! Date: 15/08/2018 11:34:49
! Data: Format (Calibration Info)
! Freq                      S11: Re/Im (F2)                       S21: Re/Im (F2)                       S12: Re/Im (F2)                       S22: Re/Im (F2)            
4.00000000000E+09 +6.67347176343E-01 -3.55493371652E-01 +1.06564570481E-03 -2.06483927312E-03 +1.16017913102E-03 -2.10591283377E-03 +7.75570162369E-01 -3.53606646521E-01
4.00500000000E+09 +6.59595608351E-01 -3.63613700017E-01 +6.90863030185E-04 -2.37872945949E-03 +7.81805135832E-04 -2.42779137615E-03 +7.67287438006E-01 -3.65009115418E-01
4.01000000000E+09 +6.50838815823E-01 -3.70874987457E-01 +2.68471164442E-04 -2.44251858593E-03 +3.34728150123E-04 -2.43637301999E-03 +7.58378937805E-01 -3.76581752877E-01
4.01500000000E+09 +6.41886281725E-01 -3.78561017183E-01 -1.70143101245E-04 -2.24386182406E-03 -6.61963811636E-05 -2.30459003953E-03 +7.48414516086E-01 -3.87189170109E-01
4.02000000000E+09 +6.31823248912E-01 -3.87388978733E-01 -1.10706272046E-04 -2.13476652264E-03 -3.91647157672E-05 -2.14418245332E-03 +7.38582225601E-01 -3.97549058865E-01
4.02500000000E+09 +6.20476526121E-01 -3.96637394996E-01 -2.03114608701E-04 -2.30412665179E-03 -6.71587804003E-05 -2.26892190358E-03 +7.28499010445E-01 -4.07795650051E-01
4.03000000000E+09 +6.08589679384E-01 -4.06109694907E-01 -5.29308198858E-04 -2.41257560021E-03 -4.42345261705E-04 -2.52565697389E-03 +7.18234492571E-01 -4.18561737200E-01
4.03500000000E+09 +5.96848260046E-01 -4.15462338878E-01 -9.71403344616E-04 -2.28208715904E-03 -9.15061993508E-04 -2.33336136235E-03 +7.07091385715E-01 -4.29816948330E-01
4.04000000000E+09 +5.85388571144E-01 -4.25173159198E-01 -9.32721871851E-04 -2.02944223149E-03 -9.11138329793E-04 -2.09665644299E-03 +6.95481986189E-01 -4.40855718272E-01
4.04500000000E+09 +5.73944423142E-01 -4.34508108254E-01 -1.20163047070E-03 -2.05366466845E-03 -1.12119703771E-03 -2.19486784246E-03 +6.83598412866E-01 -4.51464048359E-01
4.05000000000E+09 +5.62554439255E-01 -4.43516662562E-01 -1.30726988800E-03 -2.03940266392E-03 -1.25004884923E-03 -2.15826091087E-03 +6.72079894775E-01 -4.61200633966E-01
4.05500000000E+09 +5.50536506122E-01 -4.51954519328E-01 -1.35549282589E-03 -2.14861679652E-03 -1.37267548662E-03 -2.31217937918E-03 +6.59892461460E-01 -4.70945204878E-01
4.06000000000E+09 +5.37245180163E-01 -4.59342628552E-01 -2.04607702025E-03 -2.16638160253E-03 -2.08167633352E-03 -2.29578720555E-03 +6.47363268128E-01 -4.80623041500E-01
4.06500000000E+09 +5.23674997933E-01 -4.65258639433E-01 -2.43438565960E-03 -1.38936514847E-03 -2.51233258123E-03 -1.49587325700E-03 +6.33910202861E-01 -4.89674502717E-01
4.07000000000E+09 +5.10108432039E-01 -4.71848142110E-01 -2.02289940810E-03 -1.21996735464E-03 -2.06897739208E-03 -1.31512310651E-03 +6.20186240940E-01 -4.99087807662E-01
4.07500000000E+09 +4.94736487538E-01 -4.78913289730E-01 -2.27045014699E-03 -1.32572007190E-03 -2.29203550958E-03 -1.43256065012E-03 +6.06610588556E-01 -5.08170013210E-01
4.08000000000E+09 +4.78860518333E-01 -4.85405462368E-01 -2.51650638790E-03 -1.10531187223E-03 -2.58406458975E-03 -1.17996022982E-03 +5.93187756865E-01 -5.17875588828E-01
4.08500000000E+09 +4.62709858031E-01 -4.92648744394E-01 -2.64221711239E-03 -8.80219274966E-04 -2.71628166128E-03 -1.03196804579E-03 +5.79208658973E-01 -5.27292210009E-01
4.09000000000E+09 +4.46288204784E-01 -5.00223688116E-01 -2.92883503176E-03 -5.34173412176E-04 -3.01762212694E-03 -5.85952893059E-04 +5.64751932887E-01 -5.36200691534E-01
4.09500000000E+09 +4.29706287823E-01 -5.07055787758E-01 -2.86349537018E-03 +4.08388432908E-05 -2.98870507727E-03 -4.60962829889E-05 +5.49277383945E-01 -5.44080239953E-01
4.10000000000E+09 +4.14276417808E-01 -5.13936545039E-01 -2.26561596610E-03 -1.77857597868E-05 -2.30680492387E-03 -7.70875863878E-05 +5.33442806890E-01 -5.51154741255E-01
4.10500000000E+09 +3.97623243245E-01 -5.20343520739E-01 -2.71411609359E-03 -2.66857885914E-04 -2.80921310681E-03 -3.02586169563E-04 +5.17154321771E-01 -5.58490058245E-01
4.11000000000E+09 +3.81043246709E-01 -5.24048903704E-01 -3.08763797981E-03 +2.63533349834E-04 -3.17287803927E-03 +2.24985725157E-04 +4.99971709482E-01 -5.66321901667E-01
4.11500000000E+09 +3.65457793553E-01 -5.26599867128E-01 -3.05217122602E-03 +8.21218474328E-04 -3.08369398471E-03 +8.35603517807E-04 +4.82087097828E-01 -5.73533473143E-01
4.12000000000E+09 +3.49069510971E-01 -5.29047163972E-01 -2.78271032447E-03 +1.22098772542E-03 -2.88790652591E-03 +1.20825626504E-03 +4.64784963850E-01 -5.80078307061E-01
4.12500000000E+09 +3.32476515734E-01 -5.30703705318E-01 -2.66740986759E-03 +1.48937293345E-03 -2.68529171751E-03 +1.49636582588E-03 +4.47705671096E-01 -5.85956900402E-01
4.13000000000E+09 +3.15092423729E-01 -5.33512622004E-01 -2.04128867049E-03 +1.47804560950E-03 -2.11453003400E-03 +1.54670542676E-03 +4.30587292808E-01 -5.91722355206E-01
4.13500000000E+09 +2.95776323140E-01 -5.37058004078E-01 -2.06968080306E-03 +1.27316269827E-03 -2.11289386860E-03 +1.30986255266E-03 +4.12165973200E-01 -5.97574266555E-01
4.14000000000E+09 +2.75435942148E-01 -5.39633476518E-01 -2.33389477724E-03 +1.23267025476E-03 -2.45048534589E-03 +1.26961062998E-03 +3.92032851284E-01 -6.02504273709E-01
4.14500000000E+09 +2.56216846598E-01 -5.42356375956E-01 -2.77418110842E-03 +1.86669259197E-03 -2.90194178720E-03 +1.90170491347E-03 +3.72090832146E-01 -6.06524630943E-01
4.15000000000E+09 +2.37384524062E-01 -5.46784375181E-01 -2.03345286278E-03 +2.24274825849E-03 -2.15150235022E-03 +2.31840432400E-03 +3.53105092484E-01 -6.10355779738E-01
4.15500000000E+09 +2.17781366639E-01 -5.49562730085E-01 -2.20234752686E-03 +2.23765632029E-03 -2.28240764516E-03 +2.29218291868E-03 +3.33918428169E-01 -6.14316326909E-01
4.16000000000E+09 +2.00509459618E-01 -5.51691880358E-01 -2.08248887261E-03 +2.68588671126E-03 -2.16345374237E-03 +2.69398015448E-03 +3.14526001820E-01 -6.17720253817E-01
4.16500000000E+09 +1.83497491044E-01 -5.52870309452E-01 -1.73645064737E-03 +2.93988264940E-03 -1.81738789497E-03 +3.02080269962E-03 +2.93963137263E-01 -6.19281833980E-01
4.17000000000E+09 +1.66264070400E-01 -5.52634463398E-01 -1.78860897142E-03 +3.17908318297E-03 -1.85129328312E-03 +3.20989447147E-03 +2.73964462484E-01 -6.19572094100E-01
4.17500000000E+09 +1.49258653573E-01 -5.50181334789E-01 -1.17786388237E-03 +3.83098607233E-03 -1.26196015616E-03 +3.92220193935E-03 +2.54036276701E-01 -6.20340150297E-01
4.18000000000E+09 +1.32148777378E-01 -5.46762913563E-01 -2.31566374035E-04 +3.57821433087E-03 -3.22561234439E-04 +3.64947182243E-03 +2.32761785240E-01 -6.21745457538E-01
4.18500000000E+09 +1.12972339927E-01 -5.42710887529E-01 -4.81772768891E-04 +2.99621252108E-03 -5.61488862415E-04 +3.05001483472E-03 +2.09850592395E-01 -6.22104452624E-01
4.19000000000E+09 +9.31653850251E-02 -5.37082844598E-01 -9.30464156780E-04 +3.27047210800E-03 -1.04837280544E-03 +3.36797422899E-03 +1.87143165354E-01 -6.20872646059E-01
4.19500000000E+09 +7.33687531925E-02 -5.31889933706E-01 -7.42053323339E-04 +4.12031965488E-03 -8.45033812360E-04 +4.28244921938E-03 +1.64927809402E-01 -6.18563680034E-01
4.20000000000E+09 +5.26179349121E-02 -5.27669968487E-01 -6.98965464767E-05 +4.69509232165E-03 -1.96310085868E-04 +4.78059614142E-03 +1.43587653249E-01 -6.16071691603E-01
4.20500000000E+09 +3.14534081782E-02 -5.23781732565E-01 +1.04031720139E-03 +5.14713577721E-03 +9.91617024971E-04 +5.26387789384E-03 +1.20955891822E-01 -6.12876491002E-01
4.21000000000E+09 +1.06955531534E-02 -5.19273300568E-01 +2.25163892120E-03 +4.62685313845E-03 +2.23843397431E-03 +4.80414913945E-03 +9.76950042699E-02 -6.08356525418E-01
4.21500000000E+09 -9.10243798231E-03 -5.14959929352E-01 +2.28008187891E-03 +3.62748571798E-03 +2.35789275254E-03 +3.75020389682E-03 +7.49211249080E-02 -6.02855713661E-01
4.22000000000E+09 -2.77802430927E-02 -5.08718182997E-01 +2.29667425003E-03 +3.54679154821E-03 +2.34180874478E-03 +3.71742159442E-03 +5.30076165977E-02 -5.96581996488E-01
4.22500000000E+09 -4.41911073080E-02 -5.01776184411E-01 +2.65107310392E-03 +3.58822187367E-03 +2.68289257896E-03 +3.65070551387E-03 +3.17943286798E-02 -5.90441285820E-01
4.23000000000E+09 -6.05630270009E-02 -4.94254748833E-01 +3.00657254707E-03 +3.29226005643E-03 +3.04170340202E-03 +3.39507809342E-03 +1.11697060214E-02 -5.83787569611E-01
4.23500000000E+09 -7.78440087005E-02 -4.84051852987E-01 +3.27098924456E-03 +3.31361169594E-03 +3.29730246105E-03 +3.43831582971E-03 -1.11127771903E-02 -5.76514066388E-01
4.24000000000E+09 -9.45728113258E-02 -4.72335615569E-01 +3.68505463047E-03 +3.31452894626E-03 +3.82044921270E-03 +3.45378818042E-03 -3.34943122792E-02 -5.67072451288E-01
4.24500000000E+09 -1.12332680912E-01 -4.59854472823E-01 +4.34389222377E-03 +2.84681047297E-03 +4.40691516290E-03 +2.94277776705E-03 -5.53552988685E-02 -5.55945476466E-01
4.25000000000E+09 -1.31616220070E-01 -4.46773206003E-01 +4.78938889896E-03 +2.77833372529E-03 +4.89401339534E-03 +2.89970353644E-03 -7.56035327896E-02 -5.45349790350E-01
4.25500000000E+09 -1.51412610402E-01 -4.33898694640E-01 +5.54423640555E-03 +2.07936891978E-03 +5.68566369726E-03 +2.19765336851E-03 -9.60082215100E-02 -5.34433538314E-01
4.26000000000E+09 -1.71708751988E-01 -4.21604100018E-01 +6.12806812881E-03 +9.36460070550E-04 +6.25593066587E-03 +9.22983240228E-04 -1.16876376771E-01 -5.22581676069E-01
4.26500000000E+09 -1.92510339015E-01 -4.09963181253E-01 +5.55379589520E-03 +1.62101171269E-04 +5.72492198065E-03 +1.49992522762E-04 -1.36692148288E-01 -5.08869000671E-01
4.27000000000E+09 -2.12038337797E-01 -3.97703781124E-01 +5.46006684620E-03 -3.16736025444E-04 +5.61876356173E-03 -3.78632736807E-04 -1.57551052361E-01 -4.95064900567E-01
4.27500000000E+09 -2.29885750127E-01 -3.85983392266E-01 +5.22538723382E-03 -1.05211426489E-03 +5.40696872878E-03 -1.09374932682E-03 -1.77653677081E-01 -4.79195432070E-01
4.28000000000E+09 -2.46413874594E-01 -3.73723082199E-01 +4.93579321333E-03 -7.83227050472E-04 +5.13297403198E-03 -8.26241805884E-04 -1.96950371315E-01 -4.65163834872E-01
4.28500000000E+09 -2.60735929784E-01 -3.60537499026E-01 +5.76771641208E-03 -9.36220574883E-04 +5.87753693354E-03 -1.07967653475E-03 -2.18830617440E-01 -4.49540495484E-01
4.29000000000E+09 -2.73675770577E-01 -3.46262116262E-01 +6.22045402210E-03 -2.39200900986E-03 +6.33103064181E-03 -2.52011891581E-03 -2.38111113753E-01 -4.31093768865E-01
4.29500000000E+09 -2.86054889369E-01 -3.30853057993E-01 +5.03431194729E-03 -3.38274704221E-03 +5.15379316807E-03 -3.49835655649E-03 -2.54283747808E-01 -4.11933143895E-01
4.30000000000E+09 -2.98901152784E-01 -3.13774843518E-01 +5.28806859191E-03 -3.39632948704E-03 +5.31868798843E-03 -3.64391804107E-03 -2.70073879292E-01 -3.94475689663E-01
4.30500000000E+09 -3.12027202700E-01 -2.95449148135E-01 +4.57185590410E-03 -4.63838048366E-03 +4.58031052159E-03 -4.80541496757E-03 -2.85836394033E-01 -3.75601695655E-01
4.31000000000E+09 -3.25191085101E-01 -2.75788620933E-01 +3.81037974250E-03 -4.71826820857E-03 +3.78200898727E-03 -4.84312690308E-03 -3.01779010303E-01 -3.55713494160E-01
4.31500000000E+09 -3.38551097448E-01 -2.56073019345E-01 +3.67818629227E-03 -4.89710172288E-03 +3.64965597030E-03 -5.08944648284E-03 -3.17487785378E-01 -3.34167505721E-01
4.32000000000E+09 -3.51022360597E-01 -2.36525637345E-01 +3.20542875005E-03 -5.79109802791E-03 +3.09197137221E-03 -6.01895324401E-03 -3.30589786311E-01 -3.11812554806E-01
4.32500000000E+09 -3.62074333224E-01 -2.18460478225E-01 +1.65380939738E-03 -5.81792611034E-03 +1.53103393058E-03 -5.93617998602E-03 -3.42687642894E-01 -2.90374220836E-01
4.33000000000E+09 -3.73360171881E-01 -2.01664556773E-01 +2.14452285245E-03 -4.98131705098E-03 +2.07451957190E-03 -5.03750238054E-03 -3.54716310299E-01 -2.70064301698E-01
4.33500000000E+09 -3.83554965175E-01 -1.83752051003E-01 +2.31738811179E-03 -5.78757207120E-03 +2.12966186398E-03 -5.82917260413E-03 -3.66964298539E-01 -2.46457294952E-01
4.34000000000E+09 -3.91324625213E-01 -1.64827541036E-01 +1.88781498558E-03 -6.69100694026E-03 +1.73224596115E-03 -6.61406005173E-03 -3.77937212636E-01 -2.21998730192E-01
4.34500000000E+09 -3.96800660070E-01 -1.45081018655E-01 +1.07331594956E-03 -7.80057567912E-03 +1.05564985990E-03 -7.72053693145E-03 -3.86341768497E-01 -1.96675080228E-01
4.35000000000E+09 -4.00512416543E-01 -1.24454891999E-01 -7.02291779135E-04 -8.23804808878E-03 -7.30421767593E-04 -8.12473474295E-03 -3.95111400210E-01 -1.73265310380E-01
4.35500000000E+09 -4.03729174488E-01 -1.02824353142E-01 -2.31852518470E-03 -7.68448532181E-03 -2.25104819986E-03 -7.68899057927E-03 -4.04358831088E-01 -1.50173407924E-01
4.36000000000E+09 -4.07049527691E-01 -8.10542240727E-02 -2.51468305341E-03 -6.54985842911E-03 -2.48382377604E-03 -6.49018334844E-03 -4.12707998002E-01 -1.26583551331E-01
4.36500000000E+09 -4.12262807899E-01 -5.78185664652E-02 -3.06144581078E-03 -6.80736337829E-03 -3.13506076495E-03 -6.87390163514E-03 -4.18602290985E-01 -1.01211444404E-01
4.37000000000E+09 -4.17719996201E-01 -3.33470414152E-02 -3.64158484404E-03 -6.28100314408E-03 -3.72181123782E-03 -6.33506546948E-03 -4.22456923511E-01 -7.65203099266E-02
4.37500000000E+09 -4.22306599859E-01 -9.70327929701E-03 -4.22422027664E-03 -6.68464091203E-03 -4.31380580809E-03 -6.74548076201E-03 -4.24036487564E-01 -5.18178653534E-02
4.38000000000E+09 -4.26432794655E-01 +1.21415016091E-02 -5.56343783118E-03 -5.97684917941E-03 -5.67548883966E-03 -6.09651541262E-03 -4.27949633278E-01 -2.83034434294E-02
4.38500000000E+09 -4.30121223842E-01 +3.26376864153E-02 -6.51900764750E-03 -5.25353412603E-03 -6.69270763334E-03 -5.23212844681E-03 -4.31184448670E-01 -2.03684087871E-03
4.39000000000E+09 -4.32734924806E-01 +5.11787003774E-02 -6.60207066310E-03 -4.49894582684E-03 -6.79248286241E-03 -4.44247922663E-03 -4.32618026952E-01 +2.51995718193E-02
4.39500000000E+09 -4.33873757905E-01 +6.84840493709E-02 -7.78879631845E-03 -4.19302083015E-03 -7.97099456414E-03 -4.06268385315E-03 -4.31083237049E-01 +5.04499019201E-02
4.40000000000E+09 -4.33784005245E-01 +8.61524449023E-02 -8.71944658556E-03 -2.46679279297E-03 -8.85518523114E-03 -2.34999102325E-03 -4.29184159452E-01 +7.40784299743E-02
4.40500000000E+09 -4.31610459827E-01 +1.04524370989E-01 -8.72931516219E-03 -1.29984520076E-03 -8.79979249413E-03 -1.08917168131E-03 -4.26860201788E-01 +9.75597290419E-02
4.41000000000E+09 -4.28003180856E-01 +1.23950890449E-01 -8.29300528189E-03 +5.44581752161E-04 -8.35435783255E-03 +6.95926189541E-04 -4.24874592654E-01 +1.20253326954E-01
4.41500000000E+09 -4.24265895199E-01 +1.45265782226E-01 -7.64943544820E-03 +9.49331346455E-04 -7.70363637675E-03 +1.11711415236E-03 -4.21146661729E-01 +1.46166824976E-01
4.42000000000E+09 -4.18962293170E-01 +1.67640939588E-01 -7.39097988110E-03 +1.33954582760E-03 -7.39543086583E-03 +1.53085691165E-03 -4.14757613663E-01 +1.70757373745E-01
4.42500000000E+09 -4.15015193870E-01 +1.89668731773E-01 -7.33325613972E-03 +1.73409646114E-03 -7.29444581844E-03 +1.93259791385E-03 -4.07828767437E-01 +1.92573867112E-01
4.43000000000E+09 -4.11642849737E-01 +2.12148868121E-01 -7.71680154753E-03 +2.36245802210E-03 -7.53716783166E-03 +2.53911900696E-03 -4.03794384825E-01 +2.15312798431E-01
4.43500000000E+09 -4.08491023460E-01 +2.33214539457E-01 -7.78059643749E-03 +3.95258512589E-03 -7.58657798707E-03 +4.12081575244E-03 -3.97360923390E-01 +2.39069884197E-01
4.44000000000E+09 -4.06085915869E-01 +2.52089015986E-01 -6.70830056694E-03 +5.70491833913E-03 -6.60223023859E-03 +5.76422021493E-03 -3.88487353549E-01 +2.62088239599E-01
4.44500000000E+09 -4.04002853400E-01 +2.69313734693E-01 -4.98736550340E-03 +5.62842762070E-03 -4.90305985407E-03 +5.69066220754E-03 -3.77979857603E-01 +2.82687269321E-01
4.45000000000E+09 -4.00973526947E-01 +2.85277750672E-01 -4.47299669788E-03 +5.33688171656E-03 -4.31120422792E-03 +5.47772431041E-03 -3.68020992026E-01 +3.01508920407E-01
4.45500000000E+09 -3.95545772351E-01 +3.00307162966E-01 -4.77134483285E-03 +5.53311833649E-03 -4.62390548739E-03 +5.65494123109E-03 -3.58465649467E-01 +3.19832911970E-01
4.46000000000E+09 -3.88260762049E-01 +3.14471941696E-01 -4.11481345069E-03 +6.75128575157E-03 -3.85573352380E-03 +6.79582418690E-03 -3.49369049049E-01 +3.40397778606E-01
4.46500000000E+09 -3.78324337343E-01 +3.29638600145E-01 -3.15890958891E-03 +7.16391629118E-03 -2.89025095174E-03 +7.21695384050E-03 -3.36256470700E-01 +3.59243626807E-01
4.47000000000E+09 -3.65761886438E-01 +3.44372267880E-01 -1.98353287188E-03 +7.21645224713E-03 -1.69644522370E-03 +7.17250545475E-03 -3.23931684043E-01 +3.76877668355E-01
4.47500000000E+09 -3.54071339001E-01 +3.59489256672E-01 -1.47303672558E-03 +6.66462351564E-03 -1.20604533429E-03 +6.64810395559E-03 -3.11775627443E-01 +3.93199863854E-01
4.48000000000E+09 -3.42767808662E-01 +3.77263313529E-01 -1.69768919088E-03 +7.31679430842E-03 -1.47329581889E-03 +7.18676812732E-03 -3.00891333110E-01 +4.10916055995E-01
4.48500000000E+09 -3.31159641673E-01 +3.96220509689E-01 -4.00651820426E-04 +8.17445644052E-03 -1.77564270448E-04 +7.95727280866E-03 -2.88117726202E-01 +4.28324206345E-01
4.49000000000E+09 -3.20782064648E-01 +4.14116515920E-01 +1.11623149453E-03 +8.43594709694E-03 +1.22537985286E-03 +8.14639475131E-03 -2.74390138322E-01 +4.44908616774E-01
4.49500000000E+09 -3.11920316391E-01 +4.31822568443E-01 +2.48994177792E-03 +7.44182482077E-03 +2.49885072000E-03 +7.27066019499E-03 -2.59400252285E-01 +4.58739154882E-01
4.50000000000E+09 -3.03454302457E-01 +4.47150130099E-01 +3.00860762856E-03 +6.61319919103E-03 +3.09391928349E-03 +6.47142645932E-03 -2.45510999086E-01 +4.71913826324E-01
4.50500000000E+09 -2.96602868676E-01 +4.60271273530E-01 +3.57834551873E-03 +6.04995469004E-03 +3.61489636974E-03 +5.88347269645E-03 -2.31989398096E-01 +4.84212861667E-01
4.51000000000E+09 -2.89212679071E-01 +4.71681027143E-01 +3.50501376115E-03 +5.57219561043E-03 +3.52347082907E-03 +5.35463895739E-03 -2.19318401003E-01 +4.98802314063E-01
4.51500000000E+09 -2.80458685194E-01 +4.80820587612E-01 +4.06202776084E-03 +5.77238896635E-03 +4.00973652492E-03 +5.63849910162E-03 -2.04645939800E-01 +5.12013979783E-01
4.52000000000E+09 -2.70611465535E-01 +4.88871334628E-01 +5.16296661980E-03 +5.29659645150E-03 +5.18149134152E-03 +5.08641377321E-03 -1.90199662103E-01 +5.24161428463E-01
4.52500000000E+09 -2.58744140414E-01 +4.97459166646E-01 +5.45407027371E-03 +3.92351661536E-03 +5.49045733455E-03 +3.69877895335E-03 -1.75798345479E-01 +5.34263202748E-01
4.53000000000E+09 -2.44715174044E-01 +5.06950011823E-01 +5.54292872812E-03 +3.82383489497E-03 +5.54677369346E-03 +3.59292438277E-03 -1.61991986688E-01 +5.45148149570E-01
4.53500000000E+09 -2.28079778369E-01 +5.17019889214E-01 +5.89421628456E-03 +3.24092553414E-03 +5.80454641418E-03 +3.02175158516E-03 -1.46670787894E-01 +5.55164215100E-01
4.54000000000E+09 -2.10866465768E-01 +5.26861503354E-01 +6.23081997260E-03 +2.72160523706E-03 +6.20017265346E-03 +2.54331851612E-03 -1.30711294964E-01 +5.66183122341E-01
4.54500000000E+09 -1.94885520307E-01 +5.37363175732E-01 +6.79745190653E-03 +1.91698329649E-03 +6.70231716939E-03 +1.66120264763E-03 -1.13786585541E-01 +5.74206286440E-01
4.55000000000E+09 -1.80396781466E-01 +5.48079104191E-01 +6.95518444113E-03 +7.69021628325E-04 +6.81119643107E-03 +5.89499366914E-04 -9.83531393123E-02 +5.82616130308E-01
4.55500000000E+09 -1.68191194384E-01 +5.59036723219E-01 +6.56389641861E-03 -9.34849165551E-04 +6.37159474132E-03 -1.05860171357E-03 -8.40561099804E-02 +5.90236673759E-01
4.56000000000E+09 -1.57188269505E-01 +5.70146645191E-01 +5.02364345734E-03 -1.00086244539E-03 +4.87696838770E-03 -1.10664588526E-03 -7.02108643868E-02 +5.99332292667E-01
4.56500000000E+09 -1.46436806160E-01 +5.80247960685E-01 +4.82789677770E-03 -6.70682281224E-04 +4.70813374438E-03 -7.03985332044E-04 -5.47123486205E-02 +6.07423085164E-01
4.57000000000E+09 -1.36120233901E-01 +5.88602337925E-01 +5.20802210499E-03 -2.77244627408E-04 +4.96027435207E-03 -3.47412566873E-04 -3.87695908707E-02 +6.13724109553E-01
