# Hz S RI R 50
! CMT, C1220, 16058040, 17.2.0/1
! Date: 15/08/2018 11:36:54
! Data: Format (Calibration Info)
! Freq                      S11: Re/Im (F2)                       S21: Re/Im (F2)                       S12: Re/Im (F2)                       S22: Re/Im (F2)            
4.00000000000E+09 +6.69343084758E-01 -3.55683549566E-01 +3.24042589681E-04 -3.29568429911E-03 +5.00847146847E-04 -3.37335203154E-03 +7.75470408601E-01 -3.52568650844E-01
4.00500000000E+09 +6.61405113092E-01 -3.63859675231E-01 -9.53662952324E-05 -3.44527745863E-03 -1.66252682758E-05 -3.50618964433E-03 +7.67053144970E-01 -3.63729910274E-01
4.01000000000E+09 +6.52693074287E-01 -3.71174841865E-01 -6.08292070904E-04 -3.41585254449E-03 -5.29290097399E-04 -3.45772156881E-03 +7.58475099547E-01 -3.75059788065E-01
4.01500000000E+09 +6.43437298314E-01 -3.78927501207E-01 -1.14335464911E-03 -3.20884202739E-03 -1.00133752307E-03 -3.30690056461E-03 +7.48632738366E-01 -3.85775125183E-01
4.02000000000E+09 +6.33413269551E-01 -3.87541453373E-01 -1.25538174228E-03 -2.94520562112E-03 -1.18106274610E-03 -3.05676928500E-03 +7.38726809974E-01 -3.96136728627E-01
4.02500000000E+09 +6.22495088913E-01 -3.96785391671E-01 -1.39542058068E-03 -2.90785741230E-03 -1.31988798280E-03 -3.00461611390E-03 +7.28594949823E-01 -4.06385754983E-01
4.03000000000E+09 +6.10762652393E-01 -4.06789934632E-01 -1.72644559481E-03 -2.94674150772E-03 -1.71179552025E-03 -3.10099332657E-03 +7.18367308003E-01 -4.17084611252E-01
4.03500000000E+09 +5.98616607322E-01 -4.16459828238E-01 -2.27054728701E-03 -2.72553052035E-03 -2.25954304462E-03 -2.87472215442E-03 +7.07202702376E-01 -4.28295407819E-01
4.04000000000E+09 +5.86849329985E-01 -4.26133058835E-01 -2.37536151865E-03 -2.35235339250E-03 -2.35569243022E-03 -2.46783443485E-03 +6.95768539143E-01 -4.39366533499E-01
4.04500000000E+09 +5.75256515339E-01 -4.35387640916E-01 -2.61485499130E-03 -2.19300555683E-03 -2.67376193202E-03 -2.42456966754E-03 +6.83987736959E-01 -4.50045241751E-01
4.05000000000E+09 +5.64033775422E-01 -4.44109187827E-01 -2.75795183813E-03 -1.88507756883E-03 -2.88708400540E-03 -2.10444718428E-03 +6.72419299292E-01 -4.59784472663E-01
4.05500000000E+09 +5.52346306200E-01 -4.52563529554E-01 -2.67059898655E-03 -1.78117125345E-03 -2.74495162545E-03 -1.98773360770E-03 +6.60128375286E-01 -4.69473904282E-01
4.06000000000E+09 +5.39084146836E-01 -4.60386311600E-01 -3.24963385963E-03 -1.88293083804E-03 -3.33410491588E-03 -1.98449726591E-03 +6.47676611642E-01 -4.78947299077E-01
4.06500000000E+09 +5.25356944669E-01 -4.66530456148E-01 -3.72184333238E-03 -1.10762052786E-03 -3.82858326250E-03 -1.11427014984E-03 +6.34361534999E-01 -4.88041376721E-01
4.07000000000E+09 +5.11467212406E-01 -4.73181543162E-01 -3.40275932097E-03 -7.67800986781E-04 -3.48110578972E-03 -8.50650622320E-04 +6.20526824293E-01 -4.97658310278E-01
4.07500000000E+09 +4.95950935625E-01 -4.80087709645E-01 -3.59977791794E-03 -6.04411825468E-04 -3.62327093152E-03 -7.37424245050E-04 +6.06613436715E-01 -5.06507522239E-01
4.08000000000E+09 +4.80194281291E-01 -4.86635213011E-01 -3.66890664507E-03 -2.57433877988E-04 -3.74095022175E-03 -3.14367246353E-04 +5.93446489943E-01 -5.15968870967E-01
4.08500000000E+09 +4.63923487643E-01 -4.94122300595E-01 -3.73370968054E-03 +5.26953036894E-05 -3.85075804120E-03 -3.51027911080E-05 +5.79482159336E-01 -5.25488214649E-01
4.09000000000E+09 +4.47270750060E-01 -5.01771707846E-01 -3.93286453058E-03 +4.73924449163E-04 -4.06888073180E-03 +4.10157036412E-04 +5.65002028542E-01 -5.34120928914E-01
4.09500000000E+09 +4.30582425058E-01 -5.08720376166E-01 -3.89022465405E-03 +1.07168399159E-03 -4.02980836848E-03 +1.08013421427E-03 +5.49811345131E-01 -5.41835255751E-01
4.10000000000E+09 +4.15045700590E-01 -5.15424376574E-01 -3.26994643060E-03 +1.35494128810E-03 -3.38011508988E-03 +1.36583089491E-03 +5.34007524283E-01 -5.48965872163E-01
4.10500000000E+09 +3.98456564355E-01 -5.21886397500E-01 -3.47800249597E-03 +1.24837865228E-03 -3.54397650993E-03 +1.23429598493E-03 +5.18060211505E-01 -5.55970296997E-01
4.11000000000E+09 +3.81815001277E-01 -5.25893381986E-01 -3.70918671958E-03 +1.84069671299E-03 -3.75920906942E-03 +1.80183784059E-03 +5.01187868312E-01 -5.63983249970E-01
4.11500000000E+09 +3.65929434164E-01 -5.28756402289E-01 -3.38936249463E-03 +2.37526573595E-03 -3.57776539035E-03 +2.32930550866E-03 +4.83537737377E-01 -5.71425891366E-01
4.12000000000E+09 +3.49236888604E-01 -5.31094243320E-01 -3.21118088928E-03 +2.79903941783E-03 -3.33470206105E-03 +2.79015649878E-03 +4.66371005492E-01 -5.78010961000E-01
4.12500000000E+09 +3.32418075365E-01 -5.32871215973E-01 -2.87514959850E-03 +3.31792837789E-03 -3.03674984053E-03 +3.32955668256E-03 +4.49325799387E-01 -5.83923674813E-01
4.13000000000E+09 +3.14800377329E-01 -5.35522281652E-01 -2.03814054003E-03 +3.49043883197E-03 -2.19016707673E-03 +3.55401579339E-03 +4.32291037023E-01 -5.89659031727E-01
4.13500000000E+09 +2.95394779081E-01 -5.38853244964E-01 -1.64214727310E-03 +3.20548295018E-03 -1.80138249989E-03 +3.24589114044E-03 +4.14455775391E-01 -5.95393952572E-01
4.14000000000E+09 +2.75065250317E-01 -5.41877671383E-01 -1.67633779139E-03 +3.00754116417E-03 -1.88261032113E-03 +3.06625257865E-03 +3.94631803413E-01 -6.00799884759E-01
4.14500000000E+09 +2.55164631501E-01 -5.44687195498E-01 -1.90400883545E-03 +3.52063819433E-03 -2.09480798059E-03 +3.59934993661E-03 +3.74719122111E-01 -6.05379259427E-01
4.15000000000E+09 +2.36168065110E-01 -5.48676262402E-01 -1.18062492447E-03 +3.86876678875E-03 -1.29202785690E-03 +3.95891922316E-03 +3.55680543623E-01 -6.09443397087E-01
4.15500000000E+09 +2.16476874252E-01 -5.51392461667E-01 -1.10660310384E-03 +3.95859469746E-03 -1.17196362574E-03 +4.09232130506E-03 +3.36368751683E-01 -6.13468938479E-01
4.16000000000E+09 +1.98937816752E-01 -5.53462158093E-01 -6.29545795328E-04 +4.20941366288E-03 -6.43553991708E-04 +4.34296288083E-03 +3.16939976417E-01 -6.16921982472E-01
4.16500000000E+09 +1.81741386222E-01 -5.54638207062E-01 -1.38638952639E-04 +4.08141329849E-03 -2.33443336330E-04 +4.18906098647E-03 +2.96627704674E-01 -6.18905361551E-01
4.17000000000E+09 +1.64199276397E-01 -5.54285123767E-01 -2.48486552940E-04 +4.11780477980E-03 -2.45884367922E-04 +4.25749077485E-03 +2.76206474055E-01 -6.19693633418E-01
4.17500000000E+09 +1.46849784866E-01 -5.51674701969E-01 +3.69550016332E-04 +4.74639475517E-03 +2.90994507880E-04 +4.91310684299E-03 +2.55933405225E-01 -6.20363634134E-01
4.18000000000E+09 +1.29621342707E-01 -5.47572796006E-01 +1.56118901569E-03 +4.65147606219E-03 +1.55825210301E-03 +4.91725584206E-03 +2.34799226254E-01 -6.21454526775E-01
4.18500000000E+09 +1.10591224979E-01 -5.43413529916E-01 +1.73810742254E-03 +3.69115638906E-03 +1.79712209990E-03 +3.86534721373E-03 +2.12106679377E-01 -6.22170481510E-01
4.19000000000E+09 +9.08425790219E-02 -5.37509232616E-01 +1.45670435499E-03 +3.53091873802E-03 +1.52218877454E-03 +3.69539213781E-03 +1.89353565344E-01 -6.21137765907E-01
4.19500000000E+09 +7.11078288049E-02 -5.32246099416E-01 +1.44849468537E-03 +3.82672249359E-03 +1.44891943725E-03 +3.98354871650E-03 +1.67246264365E-01 -6.18961968150E-01
4.20000000000E+09 +5.02994769377E-02 -5.27884687975E-01 +1.78957871895E-03 +4.28976170748E-03 +1.80630439595E-03 +4.48113293415E-03 +1.45539531843E-01 -6.16490128384E-01
4.20500000000E+09 +2.89598524720E-02 -5.23672246551E-01 +2.86325011413E-03 +4.70529932895E-03 +2.89904732972E-03 +4.85912580074E-03 +1.23089682356E-01 -6.13428156447E-01
4.21000000000E+09 +8.23620711443E-03 -5.18623692724E-01 +4.17094428915E-03 +4.25519546050E-03 +4.31345564773E-03 +4.39610399877E-03 +9.98486481686E-02 -6.09329942310E-01
4.21500000000E+09 -1.11196213257E-02 -5.14320078832E-01 +4.42571004112E-03 +2.86844025757E-03 +4.52768293328E-03 +2.89529252557E-03 +7.64753975463E-02 -6.04132378654E-01
4.22000000000E+09 -2.97141362353E-02 -5.08026009728E-01 +4.37151463940E-03 +2.46930243573E-03 +4.44727800485E-03 +2.53667246818E-03 +5.45678518003E-02 -5.97703494758E-01
4.22500000000E+09 -4.63132972831E-02 -5.00927449542E-01 +4.46511109758E-03 +2.19598823575E-03 +4.46894327398E-03 +2.29174644585E-03 +3.33026761946E-02 -5.91772707172E-01
4.23000000000E+09 -6.25272478002E-02 -4.93097096255E-01 +4.77363697118E-03 +1.80644900594E-03 +4.84130006978E-03 +1.91703498293E-03 +1.24499521587E-02 -5.85106713591E-01
4.23500000000E+09 -7.97934594328E-02 -4.82958686989E-01 +4.76098975030E-03 +1.52973140639E-03 +4.88560859339E-03 +1.57822016098E-03 -9.82234302372E-03 -5.78202962774E-01
4.24000000000E+09 -9.68167106768E-02 -4.70931490029E-01 +4.96423398602E-03 +1.18890948934E-03 +5.14423951720E-03 +1.22116899621E-03 -3.27648198939E-02 -5.69118310220E-01
4.24500000000E+09 -1.14016415680E-01 -4.57986173307E-01 +5.05212587669E-03 +6.30533672649E-04 +5.23295829882E-03 +6.15347266750E-04 -5.51020732741E-02 -5.57980956310E-01
4.25000000000E+09 -1.33227883502E-01 -4.44975518389E-01 +5.23911098335E-03 +7.51817121286E-04 +5.36920106367E-03 +7.64824385051E-04 -7.58556633797E-02 -5.47222169338E-01
4.25500000000E+09 -1.52923861684E-01 -4.31603618695E-01 +5.98493285441E-03 +1.41037918742E-04 +6.10070819218E-03 +1.53674124204E-04 -9.65830724307E-02 -5.35766738640E-01
4.26000000000E+09 -1.72904862706E-01 -4.18935684048E-01 +6.62776315165E-03 -9.88545556633E-04 +6.75501558462E-03 -9.94048372043E-04 -1.17419653893E-01 -5.23748920836E-01
4.26500000000E+09 -1.93101313129E-01 -4.07386062330E-01 +5.89863237004E-03 -2.14978530558E-03 +6.06922487280E-03 -2.21639072890E-03 -1.37554426849E-01 -5.10095838104E-01
4.27000000000E+09 -2.12469526881E-01 -3.94954342381E-01 +5.38474920759E-03 -2.88332729173E-03 +5.51626411556E-03 -3.07893846869E-03 -1.58543537251E-01 -4.96093284681E-01
4.27500000000E+09 -2.29999120294E-01 -3.83197230519E-01 +4.66555804839E-03 -3.44870546077E-03 +4.68121140358E-03 -3.60379876107E-03 -1.78954717023E-01 -4.79816945802E-01
4.28000000000E+09 -2.46159637615E-01 -3.70750993016E-01 +4.02631047681E-03 -2.81014098829E-03 +4.06276105477E-03 -2.86736439569E-03 -1.98146769867E-01 -4.65374724260E-01
4.28500000000E+09 -2.60196561321E-01 -3.57528300674E-01 +4.79806893835E-03 -2.75459804302E-03 +4.82872668128E-03 -2.82795146517E-03 -2.19846430484E-01 -4.49791758866E-01
4.29000000000E+09 -2.72821847565E-01 -3.42742709652E-01 +5.26211905034E-03 -4.11203177704E-03 +5.31637123977E-03 -4.18663643138E-03 -2.39583170542E-01 -4.31104294652E-01
4.29500000000E+09 -2.84146560668E-01 -3.27656787530E-01 +3.91474921465E-03 -5.28017391460E-03 +3.92904150493E-03 -5.38942381208E-03 -2.55952381648E-01 -4.11121375784E-01
4.30000000000E+09 -2.96703412376E-01 -3.11188725037E-01 +3.66468972175E-03 -5.23042243235E-03 +3.69269375007E-03 -5.33482223725E-03 -2.71055562604E-01 -3.93110966205E-01
4.30500000000E+09 -3.09999133352E-01 -2.93281770437E-01 +2.78152239715E-03 -5.95292318911E-03 +2.73186204653E-03 -6.11563835512E-03 -2.86135885562E-01 -3.74350914240E-01
4.31000000000E+09 -3.23409173806E-01 -2.73634814347E-01 +2.11490143159E-03 -5.73437636551E-03 +2.16268215003E-03 -5.91099899539E-03 -3.01910197397E-01 -3.54898933289E-01
4.31500000000E+09 -3.36745679005E-01 -2.53702903182E-01 +2.01312208526E-03 -6.05703045928E-03 +2.04069888156E-03 -6.23208973936E-03 -3.17634349750E-01 -3.33419562172E-01
4.32000000000E+09 -3.48699801383E-01 -2.33912293642E-01 +1.07740027320E-03 -7.07920042936E-03 +1.02494558471E-03 -7.23342785508E-03 -3.30982996529E-01 -3.11030452171E-01
4.32500000000E+09 -3.58952366143E-01 -2.16158831039E-01 -9.12226614273E-04 -6.75986820946E-03 -1.04001676935E-03 -6.83516505052E-03 -3.43044445575E-01 -2.89328898456E-01
4.33000000000E+09 -3.69966499396E-01 -2.00193557858E-01 -5.02358062962E-04 -5.03940443852E-03 -5.77309770014E-04 -5.09441303697E-03 -3.54695222135E-01 -2.68811378911E-01
4.33500000000E+09 -3.80262900358E-01 -1.82938272043E-01 +1.01295673063E-04 -5.52875527395E-03 -2.07434711423E-05 -5.54831930965E-03 -3.66788014047E-01 -2.45475839717E-01
4.34000000000E+09 -3.88497010887E-01 -1.64418848861E-01 -1.11396826111E-04 -6.28594850011E-03 -1.46517073242E-04 -6.34603175440E-03 -3.77685698264E-01 -2.21306962490E-01
4.34500000000E+09 -3.94291526578E-01 -1.44579115851E-01 -8.83307801872E-04 -7.43565061629E-03 -9.59097263644E-04 -7.46451488176E-03 -3.86493667616E-01 -1.95808791135E-01
4.35000000000E+09 -3.97765056674E-01 -1.23586000259E-01 -2.85433028064E-03 -7.90261870295E-03 -2.96752334517E-03 -7.93227429988E-03 -3.95027331245E-01 -1.71948472794E-01
4.35500000000E+09 -4.00265390197E-01 -1.02494850999E-01 -4.52853103635E-03 -6.69116874683E-03 -4.59330619715E-03 -6.75440957453E-03 -4.03763258084E-01 -1.49032360891E-01
4.36000000000E+09 -4.03741075949E-01 -8.13180558020E-02 -4.38843531978E-03 -5.10026264839E-03 -4.43414417992E-03 -5.15830237997E-03 -4.12299162466E-01 -1.25559921481E-01
4.36500000000E+09 -4.08981327997E-01 -5.84300787376E-02 -4.61609388260E-03 -5.56691898116E-03 -4.67849462590E-03 -5.59603657055E-03 -4.18284991950E-01 -1.00022983152E-01
4.37000000000E+09 -4.14304304986E-01 -3.44613246174E-02 -5.24279416521E-03 -5.02425034747E-03 -5.44757271692E-03 -5.07546764119E-03 -4.21698451965E-01 -7.50170063509E-02
4.37500000000E+09 -4.19238834624E-01 -1.14806913523E-02 -5.77771581827E-03 -4.91363078591E-03 -5.92010816929E-03 -4.88614127730E-03 -4.22936863705E-01 -5.03437238350E-02
4.38000000000E+09 -4.24194148724E-01 +1.00637820794E-02 -6.57081642949E-03 -4.29821317763E-03 -6.75932669827E-03 -4.22565718348E-03 -4.26509313700E-01 -2.69928122937E-02
4.38500000000E+09 -4.28047722693E-01 +3.07356054065E-02 -7.43534130032E-03 -3.36356252893E-03 -7.65620419393E-03 -3.27929473913E-03 -4.29454149507E-01 -9.85520033378E-04
4.39000000000E+09 -4.30827655858E-01 +4.94410712593E-02 -7.17672555406E-03 -2.64393478144E-03 -7.29648113878E-03 -2.49010863177E-03 -4.30853745354E-01 +2.58130670071E-02
4.39500000000E+09 -4.31694864147E-01 +6.67964861917E-02 -8.15173376567E-03 -2.52344166921E-03 -8.26706848036E-03 -2.31746252722E-03 -4.29204464605E-01 +5.14471988980E-02
4.40000000000E+09 -4.31285460603E-01 +8.42314406339E-02 -9.13387981648E-03 -9.33632076225E-04 -9.19123285483E-03 -7.42170335137E-04 -4.26636833359E-01 +7.45775736016E-02
4.40500000000E+09 -4.28875063269E-01 +1.01876731568E-01 -9.12852410215E-03 +3.82783643864E-04 -9.20829019964E-03 +5.67354850417E-04 -4.24464441329E-01 +9.73891146981E-02
4.41000000000E+09 -4.25861910493E-01 +1.20373828698E-01 -8.60709777769E-03 +2.47574032910E-03 -8.54476367383E-03 +2.74521895961E-03 -4.22320204666E-01 +1.19758257323E-01
4.41500000000E+09 -4.22771576625E-01 +1.41552582474E-01 -7.42380332572E-03 +2.94072141257E-03 -7.39442443395E-03 +3.10363037640E-03 -4.19181420542E-01 +1.45093488657E-01
4.42000000000E+09 -4.18108088352E-01 +1.63982315742E-01 -7.04824684565E-03 +3.00911578848E-03 -6.93799660406E-03 +3.25575557161E-03 -4.12495450473E-01 +1.69846570090E-01
4.42500000000E+09 -4.14258219811E-01 +1.86499949413E-01 -7.02351851576E-03 +3.38997975234E-03 -6.84306749818E-03 +3.54344026071E-03 -4.05306032644E-01 +1.91173253959E-01
4.43000000000E+09 -4.10720805292E-01 +2.09105430708E-01 -7.21569345640E-03 +4.17150195101E-03 -7.02089604586E-03 +4.29163445493E-03 -4.01632757588E-01 +2.13006671873E-01
4.43500000000E+09 -4.07519411734E-01 +2.29837255725E-01 -7.00083648989E-03 +5.67540339538E-03 -6.71915753055E-03 +5.71044194043E-03 -3.96016780165E-01 +2.36426770955E-01
4.44000000000E+09 -4.05211806900E-01 +2.48271721695E-01 -5.64067411179E-03 +7.22901112079E-03 -5.48514440932E-03 +7.21494403784E-03 -3.87879052338E-01 +2.59462074455E-01
4.44500000000E+09 -4.03712563034E-01 +2.65116723958E-01 -3.96935485849E-03 +6.74341265231E-03 -3.87116368739E-03 +6.76024038672E-03 -3.77672269187E-01 +2.80416243658E-01
4.45000000000E+09 -4.01350661165E-01 +2.81251183360E-01 -3.63404195030E-03 +6.53020030820E-03 -3.45079804678E-03 +6.55350633698E-03 -3.67812505121E-01 +2.99250430954E-01
4.45500000000E+09 -3.96445272363E-01 +2.96493724983E-01 -3.96035615781E-03 +7.00039766517E-03 -3.76029947127E-03 +7.04766057235E-03 -3.58360131834E-01 +3.17445673994E-01
4.46000000000E+09 -3.89388767039E-01 +3.10766621631E-01 -2.96642223830E-03 +8.33679487498E-03 -2.73997818452E-03 +8.32703660887E-03 -3.49892262558E-01 +3.38156899153E-01
4.46500000000E+09 -3.79811830905E-01 +3.26282791440E-01 -1.46118509145E-03 +8.71162333851E-03 -1.22500603113E-03 +8.74563221076E-03 -3.36704917783E-01 +3.57345906472E-01
4.47000000000E+09 -3.67659553981E-01 +3.41104521539E-01 +1.57670326087E-04 +8.30358523891E-03 +3.52655361127E-04 +8.15771696609E-03 -3.24655526259E-01 +3.74975804646E-01
4.47500000000E+09 -3.56028762273E-01 +3.56528567204E-01 +4.79797365666E-04 +7.21749561838E-03 +6.68475831013E-04 +7.04606460134E-03 -3.12466324578E-01 +3.91502707364E-01
4.48000000000E+09 -3.44916261288E-01 +3.74284145579E-01 +8.91844838596E-05 +7.76579596420E-03 +2.75530801367E-04 +7.59960008053E-03 -3.01544059016E-01 +4.09255599501E-01
4.48500000000E+09 -3.33596987238E-01 +3.93192210624E-01 +1.33350516864E-03 +8.48349224468E-03 +1.51239850444E-03 +8.25161616413E-03 -2.88892677028E-01 +4.26504112905E-01
4.49000000000E+09 -3.23695156914E-01 +4.11268305034E-01 +2.92102584329E-03 +8.68062429807E-03 +2.96665654103E-03 +8.45124147710E-03 -2.75434134570E-01 +4.43078681954E-01
4.49500000000E+09 -3.15285345159E-01 +4.29327826359E-01 +4.42075287130E-03 +7.60735837500E-03 +4.36831982615E-03 +7.44126767193E-03 -2.60392783476E-01 +4.56983450439E-01
4.50000000000E+09 -3.07203440127E-01 +4.45287144605E-01 +5.03592691147E-03 +6.69064068170E-03 +4.99223606190E-03 +6.46937737958E-03 -2.46891003029E-01 +4.70247958789E-01
4.50500000000E+09 -2.99991486087E-01 +4.59210296418E-01 +5.62581134793E-03 +5.69010670418E-03 +5.56178230477E-03 +5.60468777085E-03 -2.33238974315E-01 +4.82560237594E-01
4.51000000000E+09 -2.92221964569E-01 +4.70856448395E-01 +5.63081933322E-03 +5.03766272070E-03 +5.68623800465E-03 +4.95115634112E-03 -2.20837640176E-01 +4.96884087699E-01
4.51500000000E+09 -2.83109074115E-01 +4.79928569691E-01 +6.11877719519E-03 +5.07072212325E-03 +6.16034275729E-03 +4.86573793081E-03 -2.06761832749E-01 +5.10198863179E-01
4.52000000000E+09 -2.73442691092E-01 +4.87707097816E-01 +7.25028047138E-03 +4.15511019561E-03 +7.24014901405E-03 +3.94093496499E-03 -1.92390246317E-01 +5.22787904900E-01
4.52500000000E+09 -2.62257518674E-01 +4.96407302041E-01 +7.12725306311E-03 +2.32553103976E-03 +7.04754431940E-03 +2.12049827104E-03 -1.78191242313E-01 +5.32881853105E-01
4.53000000000E+09 -2.48342275043E-01 +5.06383186318E-01 +6.76783779798E-03 +2.34704018290E-03 +6.73399136701E-03 +2.16510968507E-03 -1.64641759414E-01 +5.44057758178E-01
4.53500000000E+09 -2.31884357441E-01 +5.16966735622E-01 +7.12727281867E-03 +1.84651887191E-03 +7.02565738304E-03 +1.67107623305E-03 -1.49784853133E-01 +5.54626967161E-01
4.54000000000E+09 -2.14443344079E-01 +5.27524530967E-01 +7.57753430544E-03 +1.21969045348E-03 +7.45387188724E-03 +9.49205939937E-04 -1.33765636491E-01 +5.66164307554E-01
4.54500000000E+09 -1.97576715226E-01 +5.38136177641E-01 +8.06024234932E-03 +1.33569565887E-04 +7.90764695273E-03 -7.54557380646E-05 -1.16427695312E-01 +5.74840944065E-01
4.55000000000E+09 -1.82893072750E-01 +5.48347211301E-01 +7.91058807819E-03 -1.35939041629E-03 +7.68559128887E-03 -1.51792398598E-03 -1.00486027662E-01 +5.83202849550E-01
4.55500000000E+09 -1.70923408781E-01 +5.58875935464E-01 +7.01578785923E-03 -3.12284651393E-03 +6.78154783836E-03 -3.07667486410E-03 -8.61390160243E-02 +5.90561752918E-01
4.56000000000E+09 -1.60416910724E-01 +5.70001263751E-01 +5.26794232269E-03 -3.02356713925E-03 +5.08350832510E-03 -3.07723909230E-03 -7.26248217499E-02 +5.99943374150E-01
4.56500000000E+09 -1.50036999968E-01 +5.80632369860E-01 +5.09203277556E-03 -2.68505651555E-03 +4.93539659246E-03 -2.67445810418E-03 -5.68382090021E-02 +6.08426818159E-01
4.57000000000E+09 -1.39276364172E-01 +5.89558888796E-01 +5.15207099862E-03 -2.63348735355E-03 +4.92368831385E-03 -2.65271875316E-03 -4.08539918006E-02 +6.14980108189E-01
