# Hz S RI R 50
! CMT, C1220, 16058040, 17.2.0/1
! Date: 15/08/2018 11:32:00
! Data: Format (Calibration Info)
! Freq                      S11: Re/Im (F2)                       S21: Re/Im (F2)                       S12: Re/Im (F2)                       S22: Re/Im (F2)            
4.00000000000E+09 +6.65756066154E-01 -3.55676674570E-01 +1.33580711031E-03 -3.57473878176E-03 +1.49123231275E-03 -3.59794907506E-03 +7.74683048335E-01 -3.55104276695E-01
4.00500000000E+09 +6.57870717822E-01 -3.63763661873E-01 +9.76462764959E-04 -3.85990853675E-03 +1.14309115291E-03 -3.90710537353E-03 +7.66371179692E-01 -3.66379798447E-01
4.01000000000E+09 +6.49166329715E-01 -3.71015012049E-01 +4.10868935267E-04 -4.02740551992E-03 +5.46072508972E-04 -4.06470891358E-03 +7.57584473974E-01 -3.77756127575E-01
4.01500000000E+09 +6.40059976504E-01 -3.78411720220E-01 -1.15864129452E-04 -3.99702251660E-03 +1.85822277323E-05 -4.07574717577E-03 +7.47902211496E-01 -3.88476970639E-01
4.02000000000E+09 +6.30103260650E-01 -3.86854728253E-01 -4.38905209730E-04 -3.85469826554E-03 -2.78974950877E-04 -3.97366817676E-03 +7.38107887439E-01 -3.99091036981E-01
4.02500000000E+09 +6.19138969673E-01 -3.95960971760E-01 -7.25109549481E-04 -3.83576897388E-03 -5.51950520909E-04 -3.97275582356E-03 +7.27766869229E-01 -4.09421615891E-01
4.03000000000E+09 +6.07591767681E-01 -4.05652417545E-01 -1.00761235915E-03 -3.94933627328E-03 -8.72615071445E-04 -4.13865800511E-03 +7.17433537676E-01 -4.20035439135E-01
4.03500000000E+09 +5.95778602992E-01 -4.15097740210E-01 -1.65115256893E-03 -3.82054060668E-03 -1.54974990060E-03 -4.07910993086E-03 +7.06137811321E-01 -4.31005365560E-01
4.04000000000E+09 +5.84325763371E-01 -4.25093413818E-01 -1.86505324281E-03 -3.55740806911E-03 -1.77129785153E-03 -3.76109398025E-03 +6.94797791159E-01 -4.42207695662E-01
4.04500000000E+09 +5.72608481337E-01 -4.34672902009E-01 -2.18084500643E-03 -3.50522221481E-03 -2.15805766592E-03 -3.74231659113E-03 +6.82786589081E-01 -4.52985626245E-01
4.05000000000E+09 +5.60919756423E-01 -4.43338560453E-01 -2.55613177505E-03 -3.32670049474E-03 -2.53586833873E-03 -3.55877472146E-03 +6.71011997949E-01 -4.62638161525E-01
4.05500000000E+09 +5.49173493722E-01 -4.51518222664E-01 -2.67661449515E-03 -3.24177009079E-03 -2.67795777744E-03 -3.48820637230E-03 +6.58706218037E-01 -4.72387372144E-01
4.06000000000E+09 +5.36255643145E-01 -4.59143782814E-01 -3.24967945783E-03 -3.34311753677E-03 -3.33255749794E-03 -3.57368832208E-03 +6.46171506951E-01 -4.81603332139E-01
4.06500000000E+09 +5.22588194483E-01 -4.65277422838E-01 -3.99744958717E-03 -2.70034656524E-03 -4.10903975814E-03 -2.87839258735E-03 +6.33167100954E-01 -4.90772932270E-01
4.07000000000E+09 +5.08971137005E-01 -4.71895879361E-01 -4.01082884110E-03 -2.21951578209E-03 -4.11089330361E-03 -2.35176974453E-03 +6.19463031180E-01 -5.00361865827E-01
4.07500000000E+09 +4.93582063846E-01 -4.79036655289E-01 -4.26255068874E-03 -1.86317512876E-03 -4.32023900549E-03 -2.05076477786E-03 +6.05717332216E-01 -5.09516201624E-01
4.08000000000E+09 +4.77638405463E-01 -4.85713598452E-01 -4.43901716703E-03 -1.48590469564E-03 -4.54187248249E-03 -1.69324103901E-03 +5.92241362405E-01 -5.19097872543E-01
4.08500000000E+09 +4.61389533819E-01 -4.92855123073E-01 -4.52491295637E-03 -9.52040626892E-04 -4.70088950708E-03 -1.15424051069E-03 +5.78085857762E-01 -5.28534402967E-01
4.09000000000E+09 +4.44930630596E-01 -5.00475840040E-01 -4.67204194212E-03 -7.12105587263E-04 -4.88426751564E-03 -8.11415438394E-04 +5.63670464244E-01 -5.37419531664E-01
4.09500000000E+09 +4.28217865915E-01 -5.07263916557E-01 -4.86686490574E-03 -2.43757307768E-04 -5.09682129916E-03 -2.25092454846E-04 +5.48249470692E-01 -5.45273076811E-01
4.10000000000E+09 +4.12896688427E-01 -5.13809670294E-01 -4.65244672979E-03 +2.96671066078E-04 -4.78361966899E-03 +2.71486759030E-04 +5.32156823267E-01 -5.52448724479E-01
4.10500000000E+09 +3.96669147606E-01 -5.20140616990E-01 -4.87208768544E-03 +4.53067058973E-04 -5.00813181643E-03 +4.48311025296E-04 +5.15856485120E-01 -5.59251814337E-01
4.11000000000E+09 +3.80143837302E-01 -5.24361205484E-01 -5.08660262819E-03 +1.14453288673E-03 -5.23911439220E-03 +1.13770014473E-03 +4.98675351357E-01 -5.67148613675E-01
4.11500000000E+09 +3.64145740825E-01 -5.27202372124E-01 -4.83923237706E-03 +1.90635822268E-03 -4.97696401213E-03 +1.87590409747E-03 +4.81180321405E-01 -5.74440190421E-01
4.12000000000E+09 +3.47493492521E-01 -5.29431458496E-01 -4.60624566414E-03 +2.24134884858E-03 -4.73763954008E-03 +2.25208315092E-03 +4.63755648967E-01 -5.81184751423E-01
4.12500000000E+09 +3.30756133898E-01 -5.31150005352E-01 -4.40088994356E-03 +2.75586837994E-03 -4.56688876239E-03 +2.78330554126E-03 +4.46454540378E-01 -5.87010888791E-01
4.13000000000E+09 +3.13350347223E-01 -5.33543730454E-01 -3.89581078976E-03 +3.12091776256E-03 -3.99208678416E-03 +3.18976589515E-03 +4.29233240193E-01 -5.92427401698E-01
4.13500000000E+09 +2.94536353825E-01 -5.37017967614E-01 -3.46633235206E-03 +3.12240432242E-03 -3.62319261458E-03 +3.09855433221E-03 +4.11182655149E-01 -5.98047154956E-01
4.14000000000E+09 +2.74517265526E-01 -5.40241435834E-01 -3.61824561317E-03 +3.08481271366E-03 -3.82088921171E-03 +3.09882835389E-03 +3.91294041471E-01 -6.03338510392E-01
4.14500000000E+09 +2.54672371311E-01 -5.43324882127E-01 -3.93337574004E-03 +3.89548456157E-03 -4.15189862834E-03 +3.88098089333E-03 +3.71150400671E-01 -6.07632340506E-01
4.15000000000E+09 +2.35708853849E-01 -5.47589404546E-01 -3.18859763117E-03 +4.56295910947E-03 -3.32441798192E-03 +4.70014723108E-03 +3.51761179245E-01 -6.11441722011E-01
4.15500000000E+09 +2.15993226372E-01 -5.50441071650E-01 -2.91897035294E-03 +4.81020320574E-03 -3.02082717638E-03 +4.87747521622E-03 +3.32407633245E-01 -6.14910878694E-01
4.16000000000E+09 +1.98343236324E-01 -5.52457450292E-01 -2.37894487132E-03 +5.23163900466E-03 -2.47799682636E-03 +5.35008468082E-03 +3.13337940708E-01 -6.17853078692E-01
4.16500000000E+09 +1.81180396722E-01 -5.53653919565E-01 -1.77362922071E-03 +5.34689909980E-03 -1.87244227423E-03 +5.35851314421E-03 +2.93453054478E-01 -6.19901567784E-01
4.17000000000E+09 +1.63666976756E-01 -5.53242807730E-01 -1.66310685127E-03 +5.55669899836E-03 -1.79701475089E-03 +5.57125997294E-03 +2.73201839825E-01 -6.20849436920E-01
4.17500000000E+09 +1.46182765668E-01 -5.50347725201E-01 -1.09904306642E-03 +6.13025331828E-03 -1.24594711327E-03 +6.30949772129E-03 +2.52651979047E-01 -6.21544179689E-01
4.18000000000E+09 +1.29227478929E-01 -5.46018839744E-01 +1.27217364112E-05 +6.41426136793E-03 -1.50081853506E-04 +6.58444231743E-03 +2.31172067375E-01 -6.22321619559E-01
4.18500000000E+09 +1.10479342919E-01 -5.42425721880E-01 +4.83260749797E-04 +5.82002648266E-03 +4.02472348161E-04 +6.02746875922E-03 +2.08717821085E-01 -6.22551805756E-01
4.19000000000E+09 +9.03874651926E-02 -5.36819200614E-01 +6.17863101985E-04 +5.92692887394E-03 +5.06898805895E-04 +6.11043854599E-03 +1.86003163528E-01 -6.21541421473E-01
4.19500000000E+09 +7.02175021344E-02 -5.31425278627E-01 +1.06219743931E-03 +6.26670319434E-03 +9.08112868164E-04 +6.47280727692E-03 +1.63717173085E-01 -6.19249828365E-01
4.20000000000E+09 +4.91752963833E-02 -5.26830409955E-01 +1.67804127604E-03 +6.50111216291E-03 +1.63958187114E-03 +6.73513590327E-03 +1.42108073439E-01 -6.16354945558E-01
4.20500000000E+09 +2.80013686215E-02 -5.22221202806E-01 +2.87714363128E-03 +6.83348232919E-03 +2.86238970406E-03 +7.11593715361E-03 +1.19759434235E-01 -6.12906144389E-01
4.21000000000E+09 +7.51073498555E-03 -5.17142337986E-01 +4.10068929524E-03 +6.42262874651E-03 +4.15468639862E-03 +6.71538146613E-03 +9.68570876189E-02 -6.08653982809E-01
4.21500000000E+09 -1.11444915632E-02 -5.12784278692E-01 +4.65915964718E-03 +5.29629826229E-03 +4.73173230920E-03 +5.56825073213E-03 +7.39085452268E-02 -6.03536918173E-01
4.22000000000E+09 -2.98269681792E-02 -5.07230541108E-01 +4.87806058322E-03 +4.92282248454E-03 +5.00939478185E-03 +5.11800477457E-03 +5.15564391317E-02 -5.97402103537E-01
4.22500000000E+09 -4.67256663415E-02 -5.00070744248E-01 +5.25350743013E-03 +4.69316030776E-03 +5.37693789619E-03 +4.90140510422E-03 +2.99661662480E-02 -5.90788656825E-01
4.23000000000E+09 -6.31766434116E-02 -4.92027953040E-01 +6.09235526887E-03 +4.34655640048E-03 +6.27664022551E-03 +4.59707651305E-03 +9.46055295021E-03 -5.83207190410E-01
4.23500000000E+09 -8.03026565427E-02 -4.81439900835E-01 +6.39167758446E-03 +3.57493454579E-03 +6.63465742851E-03 +3.76334287253E-03 -1.22327654896E-02 -5.75867486809E-01
4.24000000000E+09 -9.68133244707E-02 -4.69284775477E-01 +6.84001964828E-03 +3.23651191089E-03 +7.06755686206E-03 +3.32172139545E-03 -3.41143712509E-02 -5.66665072738E-01
4.24500000000E+09 -1.13986826476E-01 -4.56871939262E-01 +7.20161606247E-03 +2.16604513522E-03 +7.46239327400E-03 +2.29103325299E-03 -5.60482885506E-02 -5.56053840211E-01
4.25000000000E+09 -1.33302134653E-01 -4.43966115663E-01 +7.23087621518E-03 +2.10788477382E-03 +7.49605250834E-03 +2.10733628826E-03 -7.66835174240E-02 -5.45294178787E-01
4.25500000000E+09 -1.53129911652E-01 -4.30899463397E-01 +8.02601558458E-03 +1.69389929942E-03 +8.29817107926E-03 +1.63316909415E-03 -9.67402793275E-02 -5.33818932753E-01
4.26000000000E+09 -1.73520189293E-01 -4.18314106057E-01 +9.11569866509E-03 +3.18166902175E-04 +9.39499663801E-03 +2.19293524346E-04 -1.17326760286E-01 -5.22081390367E-01
4.26500000000E+09 -1.94039003067E-01 -4.06972185676E-01 +8.64790997403E-03 -1.11934092016E-03 +8.88635080235E-03 -1.30402798180E-03 -1.37119748279E-01 -5.08736909708E-01
4.27000000000E+09 -2.13974555484E-01 -3.94594621684E-01 +8.42649037838E-03 -2.18457561513E-03 +8.62719387367E-03 -2.38854528312E-03 -1.58178173534E-01 -4.95251781709E-01
4.27500000000E+09 -2.31908635209E-01 -3.82660648161E-01 +7.91701042205E-03 -3.37301542313E-03 +8.03835651812E-03 -3.56977972745E-03 -1.78689555490E-01 -4.79053442505E-01
4.28000000000E+09 -2.48194073739E-01 -3.69952619041E-01 +7.07763779951E-03 -3.53610331959E-03 +7.07277472259E-03 -3.68471234740E-03 -1.97436024069E-01 -4.64292718130E-01
4.28500000000E+09 -2.62184321112E-01 -3.56547803881E-01 +7.27668721468E-03 -3.51049882829E-03 +7.31037015532E-03 -3.70903323727E-03 -2.18389457418E-01 -4.49119655496E-01
4.29000000000E+09 -2.74870956545E-01 -3.41908824635E-01 +7.82210392331E-03 -4.79636189218E-03 +7.80815340621E-03 -4.98922851677E-03 -2.37915151247E-01 -4.31849683872E-01
4.29500000000E+09 -2.86326108482E-01 -3.26611675941E-01 +6.62304476257E-03 -6.29605286696E-03 +6.66270946244E-03 -6.48441043812E-03 -2.55502336222E-01 -4.12663735789E-01
4.30000000000E+09 -2.99122481346E-01 -3.10024899632E-01 +6.28813063172E-03 -6.60219642039E-03 +6.33225197251E-03 -6.80313084032E-03 -2.71395530314E-01 -3.94216959935E-01
4.30500000000E+09 -3.12403583833E-01 -2.91708595314E-01 +5.34257585648E-03 -7.66242113123E-03 +5.29238554432E-03 -7.82759479945E-03 -2.86478063268E-01 -3.74669473013E-01
4.31000000000E+09 -3.25756087902E-01 -2.71816418747E-01 +4.56791118588E-03 -8.07655638150E-03 +4.46953325427E-03 -8.17966680474E-03 -3.01625618161E-01 -3.55119180499E-01
4.31500000000E+09 -3.38853954576E-01 -2.51677787843E-01 +3.87348689982E-03 -8.58906499075E-03 +3.83605591295E-03 -8.70367508240E-03 -3.17473894007E-01 -3.34480050770E-01
4.32000000000E+09 -3.50646221276E-01 -2.31717818208E-01 +2.75217969995E-03 -9.69087263275E-03 +2.69841111589E-03 -9.87672898826E-03 -3.31433608083E-01 -3.11843048365E-01
4.32500000000E+09 -3.60875131796E-01 -2.13889155577E-01 +4.86552064190E-04 -9.73716363315E-03 +3.53786644048E-04 -9.80839039243E-03 -3.43326020844E-01 -2.89759218323E-01
4.33000000000E+09 -3.71761827512E-01 -1.97633095287E-01 +1.48631364659E-04 -8.10332784071E-03 +2.04514959428E-06 -8.17240011207E-03 -3.54567837174E-01 -2.69166437309E-01
4.33500000000E+09 -3.81880646721E-01 -1.80097750787E-01 +6.15799477561E-04 -8.45111415640E-03 +4.34507722814E-04 -8.44902515799E-03 -3.66425607067E-01 -2.46325099673E-01
4.34000000000E+09 -3.89561677584E-01 -1.61440956895E-01 -4.00819950206E-05 -9.38233704087E-03 -1.47103731909E-04 -9.39169279539E-03 -3.77617647044E-01 -2.22322344270E-01
4.34500000000E+09 -3.95116270734E-01 -1.41566934164E-01 -1.01213647025E-03 -1.02384808513E-02 -1.10226174094E-03 -1.01673771119E-02 -3.86947042232E-01 -1.96883639874E-01
4.35000000000E+09 -3.98442365995E-01 -1.20675297720E-01 -3.13899612130E-03 -1.08333683710E-02 -3.11200846752E-03 -1.07219240462E-02 -3.95412845694E-01 -1.72899715696E-01
4.35500000000E+09 -4.01046461529E-01 -9.94042370467E-02 -5.14896809569E-03 -9.78023752907E-03 -5.14064820443E-03 -9.79710120344E-03 -4.04067578527E-01 -1.49719596391E-01
4.36000000000E+09 -4.04313911963E-01 -7.81333427070E-02 -5.73091249093E-03 -8.11830728110E-03 -5.74212757872E-03 -8.18333816915E-03 -4.11891523624E-01 -1.26642323878E-01
4.36500000000E+09 -4.09430249157E-01 -5.48406558443E-02 -6.21208410069E-03 -8.09777263506E-03 -6.30809829737E-03 -8.21360235111E-03 -4.18219334880E-01 -1.02029085170E-01
4.37000000000E+09 -4.14477937203E-01 -3.06031097575E-02 -7.05408300705E-03 -7.37474032832E-03 -7.21269352845E-03 -7.50515584504E-03 -4.22790444173E-01 -7.72461943891E-02
4.37500000000E+09 -4.18738929097E-01 -7.55394482902E-03 -7.84500991099E-03 -7.14001049292E-03 -8.03714655854E-03 -7.16464789559E-03 -4.24731479021E-01 -5.18467802614E-02
4.38000000000E+09 -4.23504691145E-01 +1.36474713741E-02 -8.90714139889E-03 -6.04637724868E-03 -9.11800157553E-03 -6.01128799269E-03 -4.27858969528E-01 -2.83572501279E-02
4.38500000000E+09 -4.27557582109E-01 +3.42397996017E-02 -9.69020953195E-03 -4.84057203123E-03 -9.97718203026E-03 -4.81676616087E-03 -4.31153013823E-01 -2.65229453192E-03
4.39000000000E+09 -4.30255398811E-01 +5.31797358893E-02 -9.55491142348E-03 -3.93243203469E-03 -9.87553185844E-03 -3.84136949902E-03 -4.33151966738E-01 +2.44122586785E-02
4.39500000000E+09 -4.30884933852E-01 +7.07805018033E-02 -1.05932430094E-02 -3.56674270650E-03 -1.08703505811E-02 -3.30879903390E-03 -4.32194712175E-01 +5.06418765730E-02
4.40000000000E+09 -4.30148324454E-01 +8.85779557794E-02 -1.17588278445E-02 -1.77770513583E-03 -1.19298067692E-02 -1.53200975989E-03 -4.29683948095E-01 +7.48306354983E-02
4.40500000000E+09 -4.27070924651E-01 +1.06025368827E-01 -1.17644253194E-02 -1.02095947174E-04 -1.18980047104E-02 +1.37142394472E-04 -4.26630170876E-01 +9.80556980621E-02
4.41000000000E+09 -4.24042645797E-01 +1.24344607361E-01 -1.13343123043E-02 +2.25152316737E-03 -1.14094599355E-02 +2.56445720937E-03 -4.24442289062E-01 +1.20172289277E-01
4.41500000000E+09 -4.20604933726E-01 +1.45556889268E-01 -1.02766813003E-02 +3.03493988655E-03 -1.02732891672E-02 +3.29977060391E-03 -4.21406378335E-01 +1.45717114018E-01
4.42000000000E+09 -4.15883707333E-01 +1.67749970128E-01 -9.82332262397E-03 +3.69555317329E-03 -9.74117117958E-03 +3.95103055501E-03 -4.15231562691E-01 +1.70844370138E-01
4.42500000000E+09 -4.11954762024E-01 +1.90384704379E-01 -9.44955924418E-03 +4.25404093429E-03 -9.23634432920E-03 +4.54045373499E-03 -4.08059532979E-01 +1.93533235637E-01
4.43000000000E+09 -4.08197596247E-01 +2.12799200911E-01 -9.58177321437E-03 +5.11315363046E-03 -9.31417521127E-03 +5.35552887472E-03 -4.02745908536E-01 +2.15639657053E-01
4.43500000000E+09 -4.04939492108E-01 +2.33481894658E-01 -9.17304046521E-03 +6.81247706786E-03 -8.82102973190E-03 +6.95637156990E-03 -3.96698182863E-01 +2.38551899295E-01
4.44000000000E+09 -4.02272403033E-01 +2.51757395898E-01 -8.02582391800E-03 +8.57395119948E-03 -7.74348015600E-03 +8.63049293610E-03 -3.88501358917E-01 +2.61437754530E-01
4.44500000000E+09 -4.00586726473E-01 +2.68382570216E-01 -5.99526713427E-03 +8.61164891565E-03 -5.76259570731E-03 +8.70195915901E-03 -3.77886115491E-01 +2.82763310231E-01
4.45000000000E+09 -3.97928192067E-01 +2.84243347928E-01 -5.27307813969E-03 +8.41192544980E-03 -5.03398954311E-03 +8.49780135502E-03 -3.67618315320E-01 +3.00957420315E-01
4.45500000000E+09 -3.92672645849E-01 +2.99061995055E-01 -5.43100887037E-03 +8.91038835811E-03 -5.15962579937E-03 +9.02667729495E-03 -3.58277447092E-01 +3.19233772354E-01
4.46000000000E+09 -3.85636786214E-01 +3.12934543605E-01 -4.19248113790E-03 +1.04134511676E-02 -3.87362956426E-03 +1.04512399105E-02 -3.49436366490E-01 +3.39084198266E-01
4.46500000000E+09 -3.75946963396E-01 +3.28287607062E-01 -2.44283581955E-03 +1.06900257094E-02 -2.06943294308E-03 +1.06491321706E-02 -3.37312127444E-01 +3.58449521043E-01
4.47000000000E+09 -3.63753438546E-01 +3.43052139492E-01 -8.64755654440E-04 +1.04247955444E-02 -4.47773665690E-04 +1.03584001106E-02 -3.25061475096E-01 +3.76842192385E-01
4.47500000000E+09 -3.51912781838E-01 +3.58606779419E-01 -1.65967654735E-04 +9.49293720135E-03 +1.34433344153E-04 +9.37229288884E-03 -3.12432332134E-01 +3.93792044931E-01
4.48000000000E+09 -3.40244351114E-01 +3.76464967623E-01 -1.61633022358E-04 +9.93864956987E-03 +1.91139387582E-04 +9.73848091014E-03 -3.01032085403E-01 +4.11296125806E-01
4.48500000000E+09 -3.28395438413E-01 +3.94834258666E-01 +1.05373702684E-03 +1.05115672387E-02 +1.29710298496E-03 +1.01693396232E-02 -2.88105700710E-01 +4.28501566359E-01
4.49000000000E+09 -3.18727161194E-01 +4.12354806864E-01 +2.78037069627E-03 +1.09514892231E-02 +2.89389502930E-03 +1.05452348679E-02 -2.74886728984E-01 +4.44723985352E-01
4.49500000000E+09 -3.10455358377E-01 +4.30151376063E-01 +4.48616617247E-03 +9.91797208371E-03 +4.51181204959E-03 +9.54661401702E-03 -2.59715173633E-01 +4.59211997171E-01
4.50000000000E+09 -3.02552515908E-01 +4.45867497208E-01 +5.25389497940E-03 +9.01422064851E-03 +5.22173134965E-03 +8.71318556726E-03 -2.45923533256E-01 +4.72402358191E-01
4.50500000000E+09 -2.95689183142E-01 +4.59901757222E-01 +6.21656935238E-03 +8.23854701399E-03 +6.20624807320E-03 +7.97365403738E-03 -2.32021474667E-01 +4.85280537932E-01
4.51000000000E+09 -2.87748210150E-01 +4.71505889059E-01 +6.68417812019E-03 +7.47643178041E-03 +6.53749263568E-03 +7.20822076155E-03 -2.18781986046E-01 +4.99355133968E-01
4.51500000000E+09 -2.78390385483E-01 +4.80398535038E-01 +7.39573780134E-03 +7.01005294272E-03 +7.32499086891E-03 +6.71663947660E-03 -2.04252564656E-01 +5.12227995327E-01
4.52000000000E+09 -2.68506016129E-01 +4.88049375935E-01 +8.45378439832E-03 +5.98570807796E-03 +8.29791184321E-03 +5.76124609088E-03 -1.90103115202E-01 +5.24560827167E-01
4.52500000000E+09 -2.57065995110E-01 +4.96238496552E-01 +8.67947402870E-03 +4.41078181865E-03 +8.57929791485E-03 +4.17420102517E-03 -1.75074557168E-01 +5.35080636396E-01
4.53000000000E+09 -2.43309403753E-01 +5.05949001834E-01 +8.58669077389E-03 +3.96004865778E-03 +8.47660346034E-03 +3.70683774619E-03 -1.61072871142E-01 +5.45284681454E-01
4.53500000000E+09 -2.26845407169E-01 +5.16163043731E-01 +9.03786254646E-03 +3.33014405988E-03 +8.86710966275E-03 +3.07248078345E-03 -1.45964574271E-01 +5.55182560452E-01
4.54000000000E+09 -2.09818267113E-01 +5.26705508659E-01 +9.69837288127E-03 +2.40747441117E-03 +9.47865738209E-03 +2.14655270342E-03 -1.30390988785E-01 +5.65896294475E-01
4.54500000000E+09 -1.93137599777E-01 +5.37766637245E-01 +1.01906779397E-02 +1.07615181331E-03 +9.91757018920E-03 +9.77823620636E-04 -1.13646992716E-01 +5.74486718230E-01
4.55000000000E+09 -1.78010428398E-01 +5.48300474108E-01 +1.01821001813E-02 -5.30458803842E-04 +9.89903944158E-03 -6.37218084212E-04 -9.79195089431E-02 +5.83138192144E-01
4.55500000000E+09 -1.65582645264E-01 +5.58732342187E-01 +9.52953932706E-03 -2.61589105509E-03 +9.30116047233E-03 -2.65669539615E-03 -8.28572670965E-02 +5.90543706934E-01
4.56000000000E+09 -1.54784835119E-01 +5.69503394021E-01 +7.75571215909E-03 -3.18335444480E-03 +7.53351833827E-03 -3.15238780202E-03 -6.97009782998E-02 +5.98934262018E-01
4.56500000000E+09 -1.44454353362E-01 +5.79420368515E-01 +7.17187154693E-03 -2.88336726479E-03 +7.02162901851E-03 -2.96027293995E-03 -5.45090751855E-02 +6.07386162239E-01
4.57000000000E+09 -1.34385042547E-01 +5.87906825542E-01 +7.22070116720E-03 -3.05081637277E-03 +7.01398346245E-03 -3.05637457056E-03 -3.87141697831E-02 +6.14009849372E-01
