# Hz S RI R 50
! CMT, C1220, 16058040, 17.2.0/1
! Date: 15/08/2018 11:36:34
! Data: Format (Calibration Info)
! Freq                      S11: Re/Im (F2)                       S21: Re/Im (F2)                       S12: Re/Im (F2)                       S22: Re/Im (F2)            
4.00000000000E+09 +6.69292308037E-01 -3.56311851037E-01 +8.63320706794E-04 -3.55342165837E-03 +1.02399443841E-03 -3.66667342421E-03 +7.75392025129E-01 -3.52114950952E-01
4.00500000000E+09 +6.61166989237E-01 -3.64564389983E-01 +4.12684891602E-04 -3.76983718015E-03 +5.60497587627E-04 -3.87653704871E-03 +7.67193418423E-01 -3.63354718558E-01
4.01000000000E+09 +6.52472506554E-01 -3.72046224107E-01 -1.31026014115E-04 -3.88484410177E-03 -4.18265199204E-05 -3.96015747938E-03 +7.58470800703E-01 -3.74678303278E-01
4.01500000000E+09 +6.43237446540E-01 -3.79614442695E-01 -7.01729134931E-04 -3.79265814000E-03 -5.63186467226E-04 -3.86511481710E-03 +7.48846423635E-01 -3.85448317611E-01
4.02000000000E+09 +6.33090425619E-01 -3.88136743353E-01 -8.64505275421E-04 -3.53680126937E-03 -7.56447110505E-04 -3.65754217471E-03 +7.39195626689E-01 -3.95958206760E-01
4.02500000000E+09 +6.22094177363E-01 -3.97467115370E-01 -1.09816782892E-03 -3.51194751141E-03 -9.43348904775E-04 -3.63257307937E-03 +7.28943912760E-01 -4.06245599659E-01
4.03000000000E+09 +6.10238124501E-01 -4.07435817249E-01 -1.42350669171E-03 -3.66039964011E-03 -1.36347298245E-03 -3.81985496597E-03 +7.18782057864E-01 -4.16932221508E-01
4.03500000000E+09 +5.98206930590E-01 -4.17070431900E-01 -2.02923848212E-03 -3.47763419690E-03 -2.01465172177E-03 -3.70696651442E-03 +7.07656162435E-01 -4.28285060264E-01
4.04000000000E+09 +5.86439122511E-01 -4.26900889647E-01 -2.31447063492E-03 -3.10819509110E-03 -2.25177081551E-03 -3.29201994430E-03 +6.96296798660E-01 -4.39324469625E-01
4.04500000000E+09 +5.74629366098E-01 -4.36101361797E-01 -2.62912897765E-03 -2.97112210225E-03 -2.59888788711E-03 -3.16550534771E-03 +6.84420154010E-01 -4.50033590734E-01
4.05000000000E+09 +5.63395867765E-01 -4.44713034404E-01 -2.79095632905E-03 -2.68276128269E-03 -2.85786210024E-03 -2.92067930267E-03 +6.72812589196E-01 -4.59848663536E-01
4.05500000000E+09 +5.51494988408E-01 -4.53265457521E-01 -2.77250742260E-03 -2.60832880324E-03 -2.85362686997E-03 -2.79195074583E-03 +6.60670420162E-01 -4.69715161521E-01
4.06000000000E+09 +5.38209038731E-01 -4.60935057973E-01 -3.41327475669E-03 -2.79488583309E-03 -3.44870139129E-03 -2.96347677466E-03 +6.47897993406E-01 -4.79167589786E-01
4.06500000000E+09 +5.24375772709E-01 -4.66896551229E-01 -4.10475113081E-03 -2.06939173707E-03 -4.19202126530E-03 -2.16484971328E-03 +6.34751797373E-01 -4.88238051873E-01
4.07000000000E+09 +5.10510700150E-01 -4.73597024398E-01 -3.98987221873E-03 -1.62845433917E-03 -4.09554878883E-03 -1.67270299595E-03 +6.21085540509E-01 -4.97760189702E-01
4.07500000000E+09 +4.95031807247E-01 -4.80450121355E-01 -4.16916639095E-03 -1.35155258691E-03 -4.21649856917E-03 -1.46814667168E-03 +6.07375042012E-01 -5.06783594742E-01
4.08000000000E+09 +4.79265217493E-01 -4.87041260996E-01 -4.33677228651E-03 -9.78928364079E-04 -4.45733822315E-03 -1.19846758416E-03 +5.93989649377E-01 -5.16356366390E-01
4.08500000000E+09 +4.62872988574E-01 -4.94430441507E-01 -4.48855598943E-03 -5.73729587084E-04 -4.60658682428E-03 -6.98488164466E-04 +5.80176493866E-01 -5.26013556265E-01
4.09000000000E+09 +4.46178366434E-01 -5.01969952267E-01 -4.67469275067E-03 -1.42817063471E-04 -4.88633556126E-03 -2.59066117004E-04 +5.65725173504E-01 -5.34812559964E-01
4.09500000000E+09 +4.29429970221E-01 -5.08834453728E-01 -4.87723515250E-03 +4.64702576628E-04 -5.05205595245E-03 +3.98673563996E-04 +5.50514911564E-01 -5.42570724021E-01
4.10000000000E+09 +4.13838185772E-01 -5.15404879228E-01 -4.34236156914E-03 +8.80818092144E-04 -4.47845000320E-03 +8.07744740363E-04 +5.34743766584E-01 -5.49856377865E-01
4.10500000000E+09 +3.97309827648E-01 -5.21786680060E-01 -4.72556079409E-03 +9.89357288942E-04 -4.78858861490E-03 +9.25400697149E-04 +5.18528144375E-01 -5.57074159043E-01
4.11000000000E+09 +3.80651866761E-01 -5.25823102961E-01 -4.95676443899E-03 +1.69855628582E-03 -5.09879955586E-03 +1.70670112754E-03 +5.01507763398E-01 -5.65170082123E-01
4.11500000000E+09 +3.64560478364E-01 -5.28568285248E-01 -4.67270209918E-03 +2.49143990887E-03 -4.89203297195E-03 +2.42899441997E-03 +4.83858363964E-01 -5.72668312456E-01
4.12000000000E+09 +3.47962699001E-01 -5.30723037259E-01 -4.36763205597E-03 +3.09554236832E-03 -4.62282120187E-03 +3.01372441572E-03 +4.66507356686E-01 -5.79344186317E-01
4.12500000000E+09 +3.31159875674E-01 -5.32420058436E-01 -4.02095748747E-03 +3.70331359682E-03 -4.24959472056E-03 +3.73540793817E-03 +4.49404789930E-01 -5.85332845238E-01
4.13000000000E+09 +3.13669101626E-01 -5.34845350326E-01 -3.12177861936E-03 +4.05499709405E-03 -3.34172457574E-03 +4.09016315213E-03 +4.32221447118E-01 -5.91276739384E-01
4.13500000000E+09 +2.94321689847E-01 -5.38267010730E-01 -2.64967405343E-03 +3.83658537918E-03 -2.79147350120E-03 +3.87337288658E-03 +4.14092694467E-01 -5.97136444966E-01
4.14000000000E+09 +2.73954246989E-01 -5.41303489159E-01 -2.76080060308E-03 +3.76612723918E-03 -2.99099141535E-03 +3.83279303943E-03 +3.93914534950E-01 -6.02675539362E-01
4.14500000000E+09 +2.53922871884E-01 -5.43692748953E-01 -2.87588938878E-03 +4.55751806844E-03 -3.11936269824E-03 +4.63586168401E-03 +3.73536698599E-01 -6.07055615500E-01
4.15000000000E+09 +2.35251033562E-01 -5.47334888010E-01 -1.93570068071E-03 +5.03008244163E-03 -2.12875970176E-03 +5.20268784329E-03 +3.54140125847E-01 -6.10773439564E-01
4.15500000000E+09 +2.15834358110E-01 -5.50246651991E-01 -1.59267806013E-03 +5.09355035330E-03 -1.72547641655E-03 +5.33831643102E-03 +3.34887858979E-01 -6.14522026963E-01
4.16000000000E+09 +1.98348438638E-01 -5.52362084845E-01 -9.23292070100E-04 +5.35813504695E-03 -1.05506090395E-03 +5.53086311114E-03 +3.15604078380E-01 -6.17672427838E-01
4.16500000000E+09 +1.81037719683E-01 -5.53559289577E-01 -3.65065266106E-04 +5.15745926259E-03 -3.93523651050E-04 +5.28127249143E-03 +2.95211627533E-01 -6.19786672396E-01
4.17000000000E+09 +1.63434248319E-01 -5.52953562919E-01 -4.06452381344E-04 +5.21355613142E-03 -4.58726942456E-04 +5.31937474402E-03 +2.74601973389E-01 -6.20662351390E-01
4.17500000000E+09 +1.46272668354E-01 -5.49777593619E-01 +2.01936613659E-04 +5.88183069394E-03 +1.30665930875E-04 +6.04425194557E-03 +2.54096499369E-01 -6.20946891448E-01
4.18000000000E+09 +1.29509180580E-01 -5.45649556435E-01 +1.58801606168E-03 +5.80336790486E-03 +1.53747075604E-03 +6.03398869983E-03 +2.32809610809E-01 -6.21760464731E-01
4.18500000000E+09 +1.10789219745E-01 -5.41753836026E-01 +1.83917867414E-03 +4.83964311323E-03 +1.92700327747E-03 +5.03952335790E-03 +2.10202927186E-01 -6.22016464336E-01
4.19000000000E+09 +9.10165926130E-02 -5.35992525701E-01 +1.68526284714E-03 +4.75139595389E-03 +1.70248426221E-03 +4.90472139419E-03 +1.87645001523E-01 -6.20754064115E-01
4.19500000000E+09 +7.12370463962E-02 -5.30741730730E-01 +1.63423827386E-03 +5.04232299868E-03 +1.67665076859E-03 +5.13829371018E-03 +1.65509007545E-01 -6.18579649458E-01
4.20000000000E+09 +5.03336404000E-02 -5.26273639111E-01 +2.16428461217E-03 +5.59582402406E-03 +2.14103501128E-03 +5.79265837445E-03 +1.43986173014E-01 -6.15842511809E-01
4.20500000000E+09 +2.93108971097E-02 -5.21781523533E-01 +3.56292997597E-03 +5.93827392230E-03 +3.57540516955E-03 +6.13370479243E-03 +1.21862134904E-01 -6.12786811369E-01
4.21000000000E+09 +8.86182882248E-03 -5.16780871411E-01 +4.90327905821E-03 +5.33532958174E-03 +5.05519343791E-03 +5.49686903954E-03 +9.85451550904E-02 -6.08952414861E-01
4.21500000000E+09 -1.01156586611E-02 -5.12615642846E-01 +5.17558704793E-03 +3.92871802637E-03 +5.29807031775E-03 +4.06853887555E-03 +7.51523959942E-02 -6.03468239590E-01
4.22000000000E+09 -2.86850737028E-02 -5.06671321651E-01 +5.23403264795E-03 +3.49944395463E-03 +5.33441396043E-03 +3.59763214329E-03 +5.33000287777E-02 -5.97249358467E-01
4.22500000000E+09 -4.53186080214E-02 -4.99533312709E-01 +5.37926131889E-03 +3.27457460855E-03 +5.49838936179E-03 +3.41600018232E-03 +3.15523694802E-02 -5.90894362773E-01
4.23000000000E+09 -6.13292935248E-02 -4.91666822820E-01 +6.12032367378E-03 +2.91495697401E-03 +6.22495799325E-03 +3.02927122613E-03 +1.08819069979E-02 -5.84027712146E-01
4.23500000000E+09 -7.83480572521E-02 -4.81546431270E-01 +6.33117356596E-03 +2.28871482199E-03 +6.44771988388E-03 +2.40938954653E-03 -1.14389191711E-02 -5.76813038905E-01
4.24000000000E+09 -9.50609245626E-02 -4.69643765246E-01 +6.67946598965E-03 +1.78008030689E-03 +6.83174364174E-03 +1.86240868224E-03 -3.42441038068E-02 -5.67143527091E-01
4.24500000000E+09 -1.12094112644E-01 -4.57033558072E-01 +6.77586983285E-03 +9.62955471810E-04 +6.94806757109E-03 +9.54411541607E-04 -5.60462386226E-02 -5.55945867113E-01
4.25000000000E+09 -1.31329126469E-01 -4.44207037995E-01 +6.94429287239E-03 +8.42385495232E-04 +7.05147275084E-03 +8.36888768333E-04 -7.67143421191E-02 -5.45034904661E-01
4.25500000000E+09 -1.50779016172E-01 -4.31025351944E-01 +7.75460625873E-03 +1.97999445306E-04 +7.92954044619E-03 +2.47222525236E-04 -9.69192111998E-02 -5.33298344841E-01
4.26000000000E+09 -1.70456995722E-01 -4.18774669994E-01 +8.43689616987E-03 -1.30633413946E-03 +8.68299896311E-03 -1.27168948385E-03 -1.17139130256E-01 -5.21245296371E-01
4.26500000000E+09 -1.90848727536E-01 -4.07839151122E-01 +7.63241942646E-03 -2.61001163139E-03 +7.84348475782E-03 -2.64831061573E-03 -1.36963382294E-01 -5.07747478601E-01
4.27000000000E+09 -2.10646389173E-01 -3.95568221858E-01 +7.20206260707E-03 -3.52042769180E-03 +7.35520942775E-03 -3.63142239631E-03 -1.57866869350E-01 -4.93774904384E-01
4.27500000000E+09 -2.28217508489E-01 -3.83742529660E-01 +6.43042578674E-03 -4.50436938565E-03 +6.52995741323E-03 -4.64534745821E-03 -1.78032524919E-01 -4.77747614364E-01
4.28000000000E+09 -2.44520581245E-01 -3.71463830467E-01 +5.60897324946E-03 -4.29821103730E-03 +5.69320056044E-03 -4.41699617547E-03 -1.96695818574E-01 -4.63141921036E-01
4.28500000000E+09 -2.58537135613E-01 -3.58261975506E-01 +6.08984512031E-03 -4.44714288596E-03 +6.16842485704E-03 -4.59812388666E-03 -2.17587792976E-01 -4.47884909313E-01
4.29000000000E+09 -2.71093620601E-01 -3.43945211172E-01 +6.13704577598E-03 -5.97198871004E-03 +6.16850654757E-03 -6.14126826289E-03 -2.36920296339E-01 -4.30286902371E-01
4.29500000000E+09 -2.82863355307E-01 -3.29248037397E-01 +4.43250583973E-03 -6.95500196051E-03 +4.48261908529E-03 -7.13887700210E-03 -2.53663275578E-01 -4.10965199946E-01
4.30000000000E+09 -2.95760391333E-01 -3.12656564057E-01 +4.14196338197E-03 -6.86158238471E-03 +4.15154586605E-03 -7.01491719967E-03 -2.69193369724E-01 -3.93417272998E-01
4.30500000000E+09 -3.09270231924E-01 -2.94697846586E-01 +3.22872135068E-03 -7.61799752122E-03 +3.19042932408E-03 -7.75557014969E-03 -2.84668711840E-01 -3.74522025529E-01
4.31000000000E+09 -3.22823742297E-01 -2.74932475070E-01 +2.59117870020E-03 -7.64608944373E-03 +2.56138631520E-03 -7.80026351657E-03 -3.00525940657E-01 -3.54741985161E-01
4.31500000000E+09 -3.35920618217E-01 -2.54949243218E-01 +2.10841298748E-03 -8.17679550472E-03 +2.02313232401E-03 -8.37251496484E-03 -3.16119716097E-01 -3.33537993342E-01
4.32000000000E+09 -3.48019337133E-01 -2.35418692334E-01 +6.95387182467E-04 -9.14366898176E-03 +5.94105421659E-04 -9.25862863058E-03 -3.29470736913E-01 -3.11187076938E-01
4.32500000000E+09 -3.58539948904E-01 -2.17723503721E-01 -1.54998161945E-03 -8.60693091045E-03 -1.72778194285E-03 -8.74862587033E-03 -3.41316062628E-01 -2.89798187435E-01
4.33000000000E+09 -3.69697435723E-01 -2.01721516718E-01 -1.40706429594E-03 -6.79914518488E-03 -1.51533397991E-03 -6.85100143566E-03 -3.53103661883E-01 -2.69573015298E-01
4.33500000000E+09 -3.80055826150E-01 -1.84263267169E-01 -9.41138448848E-04 -7.16254099775E-03 -1.03582319821E-03 -7.18234208449E-03 -3.65444910651E-01 -2.46299273258E-01
4.34000000000E+09 -3.88081617001E-01 -1.65658713380E-01 -1.35952187026E-03 -7.79317322728E-03 -1.47660744283E-03 -7.77567273716E-03 -3.76408502402E-01 -2.22032215385E-01
4.34500000000E+09 -3.93832940918E-01 -1.46202115181E-01 -2.28866882654E-03 -8.70150827598E-03 -2.37393032635E-03 -8.66099043589E-03 -3.85255955350E-01 -1.96874885922E-01
4.35000000000E+09 -3.97783467318E-01 -1.25476793977E-01 -4.31066335347E-03 -8.89150253050E-03 -4.38144872639E-03 -8.88072111350E-03 -3.93930675663E-01 -1.73180812235E-01
4.35500000000E+09 -4.00711435588E-01 -1.04113989669E-01 -5.92855612719E-03 -7.73509418483E-03 -6.00355644911E-03 -7.69927438774E-03 -4.02903214631E-01 -1.50118653896E-01
4.36000000000E+09 -4.04266534608E-01 -8.27320632590E-02 -5.98721622935E-03 -6.05934631766E-03 -6.07596123955E-03 -6.07842964369E-03 -4.11124962093E-01 -1.26759345005E-01
4.36500000000E+09 -4.09413270731E-01 -5.96791213460E-02 -6.47887095449E-03 -6.30879775415E-03 -6.61262511381E-03 -6.27420012300E-03 -4.17019223358E-01 -1.01608888445E-01
4.37000000000E+09 -4.14625567232E-01 -3.57651296378E-02 -7.35322179666E-03 -5.42552328924E-03 -7.52122310708E-03 -5.35434671984E-03 -4.20791211467E-01 -7.70329392784E-02
4.37500000000E+09 -4.19687575209E-01 -1.31852591998E-02 -7.73133663429E-03 -4.72064192240E-03 -7.88636438774E-03 -4.62572930208E-03 -4.22526739321E-01 -5.26482380288E-02
4.38000000000E+09 -4.25260761628E-01 +8.59449819513E-03 -8.21595249409E-03 -4.00374962621E-03 -8.42356065231E-03 -3.89835513889E-03 -4.26436432475E-01 -2.93688982694E-02
4.38500000000E+09 -4.29330256857E-01 +2.95627965212E-02 -8.97475304660E-03 -3.08320300171E-03 -9.12087132981E-03 -2.86041075565E-03 -4.29775391470E-01 -3.51119817790E-03
4.39000000000E+09 -4.32119301998E-01 +4.83641415943E-02 -8.64274642398E-03 -2.22260549374E-03 -8.79751430291E-03 -2.04524358737E-03 -4.31756165627E-01 +2.34376025930E-02
4.39500000000E+09 -4.33101394754E-01 +6.60661727758E-02 -9.64696970048E-03 -2.00919116302E-03 -9.77199804391E-03 -1.79643885852E-03 -4.30683932244E-01 +4.92111175494E-02
4.40000000000E+09 -4.32497524184E-01 +8.37394773664E-02 -1.06559476879E-02 -2.97226227820E-04 -1.06993007993E-02 -9.11640705466E-05 -4.28496962385E-01 +7.28656980713E-02
4.40500000000E+09 -4.29991943867E-01 +1.01148273062E-01 -1.08004538777E-02 +1.12337690742E-03 -1.07923201231E-02 +1.34081452853E-03 -4.26168020543E-01 +9.60872920408E-02
4.41000000000E+09 -4.27449121483E-01 +1.19797382841E-01 -1.01371613746E-02 +3.70334206211E-03 -1.00990202991E-02 +3.90565066612E-03 -4.24229376774E-01 +1.18441694195E-01
4.41500000000E+09 -4.24331292215E-01 +1.41396817263E-01 -8.80882580969E-03 +4.34329072675E-03 -8.77305191030E-03 +4.56103167139E-03 -4.21333525594E-01 +1.44064782360E-01
4.42000000000E+09 -4.19748579671E-01 +1.64085825563E-01 -8.09583523065E-03 +4.76830765844E-03 -8.01780159140E-03 +4.93420604788E-03 -4.15101000807E-01 +1.69216384902E-01
4.42500000000E+09 -4.15587423329E-01 +1.87076126063E-01 -7.78314623506E-03 +5.19073208059E-03 -7.63264904853E-03 +5.32101584430E-03 -4.08147385417E-01 +1.91224997058E-01
4.43000000000E+09 -4.11679582921E-01 +2.09501218276E-01 -7.69472056908E-03 +5.93885420421E-03 -7.49216728016E-03 +6.00728311370E-03 -4.04106326668E-01 +2.13642244512E-01
4.43500000000E+09 -4.08581304259E-01 +2.30104532644E-01 -7.27765964374E-03 +7.40514965508E-03 -7.03720463180E-03 +7.38263648237E-03 -3.98140500347E-01 +2.37587172518E-01
4.44000000000E+09 -4.06442022832E-01 +2.48694723429E-01 -5.91513808422E-03 +8.98519803694E-03 -5.68408224444E-03 +8.93824067839E-03 -3.89654666294E-01 +2.60729449856E-01
4.44500000000E+09 -4.04691273246E-01 +2.65764605513E-01 -4.16818911867E-03 +8.72207599498E-03 -3.99782072518E-03 +8.70170776125E-03 -3.78961598872E-01 +2.81868212146E-01
4.45000000000E+09 -4.02237527649E-01 +2.81881386715E-01 -3.27984499189E-03 +8.67015336385E-03 -3.14096713476E-03 +8.69553619565E-03 -3.68911258802E-01 +3.00384902721E-01
4.45500000000E+09 -3.96992256319E-01 +2.97100738973E-01 -3.11929220997E-03 +9.00928369615E-03 -2.91600125297E-03 +9.02628310252E-03 -3.59481588008E-01 +3.18895961709E-01
4.46000000000E+09 -3.90062563983E-01 +3.11158863395E-01 -1.79130760593E-03 +9.91562723193E-03 -1.51168940577E-03 +9.94165631433E-03 -3.50518068219E-01 +3.39412486136E-01
4.46500000000E+09 -3.80625891911E-01 +3.26575253259E-01 -2.25970932051E-04 +9.83668322857E-03 +2.34683239772E-05 +9.78376039882E-03 -3.37715564080E-01 +3.58570122645E-01
4.47000000000E+09 -3.68595322800E-01 +3.41846279821E-01 +1.22192230747E-03 +9.26285390175E-03 +1.43204449989E-03 +9.15000335309E-03 -3.25368883936E-01 +3.76399983708E-01
4.47500000000E+09 -3.56565846627E-01 +3.57539340826E-01 +1.66131695991E-03 +8.07680924627E-03 +1.77994210824E-03 +7.95828732910E-03 -3.13210779853E-01 +3.93058441855E-01
4.48000000000E+09 -3.45173824043E-01 +3.75134099238E-01 +1.34863754726E-03 +8.52308270130E-03 +1.54770493644E-03 +8.40806315151E-03 -3.02111828177E-01 +4.10948131172E-01
4.48500000000E+09 -3.33724000187E-01 +3.93726255519E-01 +2.69696047784E-03 +9.08741464635E-03 +2.87680299710E-03 +8.79574733586E-03 -2.89035630685E-01 +4.28235724491E-01
4.49000000000E+09 -3.24156178740E-01 +4.11652842668E-01 +4.27618556779E-03 +9.04140392645E-03 +4.39271818511E-03 +8.72080785302E-03 -2.75456515369E-01 +4.44648503255E-01
4.49500000000E+09 -3.15836214943E-01 +4.29958350194E-01 +5.73058585152E-03 +7.74536074760E-03 +5.68336087675E-03 +7.47766733428E-03 -2.60404500769E-01 +4.58525093065E-01
4.50000000000E+09 -3.07620452912E-01 +4.46014606756E-01 +6.11716369276E-03 +6.66029210490E-03 +6.07781670949E-03 +6.44324443754E-03 -2.46881297846E-01 +4.71801677948E-01
4.50500000000E+09 -3.00378747529E-01 +4.60040818079E-01 +6.78566413468E-03 +5.74851434834E-03 +6.72327015840E-03 +5.61245624439E-03 -2.33277642019E-01 +4.84379603318E-01
4.51000000000E+09 -2.92447698702E-01 +4.71776614222E-01 +6.76998019223E-03 +4.90076326031E-03 +6.72057841420E-03 +4.72708821224E-03 -2.20549976852E-01 +4.98876560132E-01
4.51500000000E+09 -2.83216947550E-01 +4.80742279067E-01 +7.17027391516E-03 +4.71265598203E-03 +7.10865393479E-03 +4.56332393585E-03 -2.06026366354E-01 +5.12187017019E-01
4.52000000000E+09 -2.73511648642E-01 +4.88408038545E-01 +8.16554389335E-03 +3.81693675370E-03 +8.08863853607E-03 +3.53353913294E-03 -1.91619638989E-01 +5.24855732911E-01
4.52500000000E+09 -2.62252312516E-01 +4.97172851458E-01 +7.98051659468E-03 +2.08463796384E-03 +7.79953893763E-03 +1.84977715659E-03 -1.76624564024E-01 +5.35218379164E-01
4.53000000000E+09 -2.48144031326E-01 +5.07041621603E-01 +7.64000695862E-03 +2.01611067423E-03 +7.45865595494E-03 +1.83769180929E-03 -1.62468334917E-01 +5.45826424043E-01
4.53500000000E+09 -2.31826913491E-01 +5.17536295167E-01 +8.03205823708E-03 +1.49925871971E-03 +7.87445276850E-03 +1.29982246392E-03 -1.47247873140E-01 +5.55717000140E-01
4.54000000000E+09 -2.14383901960E-01 +5.28099133027E-01 +8.38909989410E-03 +6.91423018230E-04 +8.21383419339E-03 +4.45344723377E-04 -1.31519974987E-01 +5.66697972295E-01
4.54500000000E+09 -1.97618702593E-01 +5.38780022899E-01 +8.68951404354E-03 -4.03239218009E-04 +8.44950095990E-03 -5.81147523074E-04 -1.14418024349E-01 +5.75133225528E-01
4.55000000000E+09 -1.82574090482E-01 +5.49153955038E-01 +8.60590172446E-03 -1.80950732249E-03 +8.34444662044E-03 -1.92052457440E-03 -9.85440375549E-02 +5.83427839092E-01
4.55500000000E+09 -1.70436356667E-01 +5.59666289525E-01 +7.77770095396E-03 -3.62822368086E-03 +7.49160792822E-03 -3.59782073974E-03 -8.39925001417E-02 +5.90740297110E-01
4.56000000000E+09 -1.59722957536E-01 +5.70552040528E-01 +6.03808856927E-03 -3.82300309085E-03 +5.83479216743E-03 -3.74668029433E-03 -7.04944788344E-02 +5.99520414890E-01
4.56500000000E+09 -1.49411922376E-01 +5.81011730551E-01 +5.68394167362E-03 -3.51443239972E-03 +5.45320699780E-03 -3.51590555800E-03 -5.50557505211E-02 +6.07824879872E-01
4.57000000000E+09 -1.38928113316E-01 +5.89770527939E-01 +5.63597305648E-03 -3.53800050215E-03 +5.38222026684E-03 -3.56719795958E-03 -3.89733908901E-02 +6.14131002772E-01
