# Hz S RI R 50
! CMT, C1220, 16058040, 17.2.0/1
! Date: 15/08/2018 11:29:31
! Data: Format (Calibration Info)
! Freq                      S11: Re/Im (F2)                       S21: Re/Im (F2)                       S12: Re/Im (F2)                       S22: Re/Im (F2)            
4.00000000000E+09 +6.73003890450E-01 -3.61962739207E-01 +3.19790052584E-03 -1.39460620316E-03 +3.29184666492E-03 -1.26945040501E-03 +7.74269045444E-01 -3.56719990939E-01
4.00500000000E+09 +6.65778293313E-01 -3.69563921748E-01 +2.80136979544E-03 -1.69027788884E-03 +2.91128021879E-03 -1.61128288370E-03 +7.66084381198E-01 -3.67762234392E-01
4.01000000000E+09 +6.57637703417E-01 -3.77209009727E-01 +2.66715008644E-03 -1.71533638141E-03 +2.80937182057E-03 -1.68349990423E-03 +7.57201416682E-01 -3.79236694246E-01
4.01500000000E+09 +6.48116766313E-01 -3.84633338203E-01 +2.64549417667E-03 -2.09404577623E-03 +2.77612364356E-03 -1.98119324585E-03 +7.47432232102E-01 -3.89868588682E-01
4.02000000000E+09 +6.37472120650E-01 -3.93122414381E-01 +2.45166467433E-03 -2.42675672116E-03 +2.59052376582E-03 -2.38212757204E-03 +7.37546976115E-01 -4.00453403764E-01
4.02500000000E+09 +6.25808648283E-01 -4.01908213908E-01 +2.19454073782E-03 -2.65444679624E-03 +2.30681314973E-03 -2.62185593317E-03 +7.27181137513E-01 -4.10632785197E-01
4.03000000000E+09 +6.13682984976E-01 -4.11161091425E-01 +1.98849621624E-03 -3.06745441144E-03 +2.19868410482E-03 -3.07252257632E-03 +7.16906435893E-01 -4.21265840029E-01
4.03500000000E+09 +6.01863078777E-01 -4.20638294317E-01 +1.28836130951E-03 -3.12449882789E-03 +1.47346985538E-03 -3.16976583166E-03 +7.05919557971E-01 -4.32324543415E-01
4.04000000000E+09 +5.90358382195E-01 -4.31217218735E-01 +1.28698736169E-03 -2.85572615826E-03 +1.44252519252E-03 -2.90634803702E-03 +6.94533891975E-01 -4.43470702026E-01
4.04500000000E+09 +5.77988048131E-01 -4.41425677025E-01 +1.36781167906E-03 -3.12401773697E-03 +1.53244899859E-03 -3.21472869160E-03 +6.82490879698E-01 -4.54254394908E-01
4.05000000000E+09 +5.66295100508E-01 -4.50021094588E-01 +9.95258009314E-04 -3.73583461660E-03 +1.13415259749E-03 -3.89347338076E-03 +6.70621534137E-01 -4.63902150513E-01
4.05500000000E+09 +5.54426286488E-01 -4.58051957969E-01 +5.43006786194E-04 -3.72913139425E-03 +7.02790617027E-04 -3.89865020580E-03 +6.58346079428E-01 -4.73598648774E-01
4.06000000000E+09 +5.42061230228E-01 -4.65062773014E-01 +1.27166113166E-04 -3.91981145083E-03 +1.79507561213E-04 -4.06821435591E-03 +6.45988886644E-01 -4.83128066982E-01
4.06500000000E+09 +5.29286553359E-01 -4.71257033693E-01 -4.35001991968E-04 -3.69455433900E-03 -3.72889946454E-04 -3.74323784706E-03 +6.32793597647E-01 -4.92182983727E-01
4.07000000000E+09 +5.15662068553E-01 -4.77621728401E-01 -4.35715293622E-04 -3.58181357750E-03 -3.89568704089E-04 -3.67466657802E-03 +6.18790679051E-01 -5.01909949393E-01
4.07500000000E+09 +5.00509701262E-01 -4.84252238010E-01 -6.35302000822E-04 -3.91101931237E-03 -5.61045721701E-04 -4.04486803938E-03 +6.04967460131E-01 -5.10860587903E-01
4.08000000000E+09 +4.84400835567E-01 -4.90008645535E-01 -1.30106845834E-03 -4.18611414506E-03 -1.22630041537E-03 -4.31945089610E-03 +5.91319767252E-01 -5.20136848550E-01
4.08500000000E+09 +4.68903879360E-01 -4.97175376267E-01 -2.01201484513E-03 -3.63687541821E-03 -1.96220153528E-03 -3.82132808772E-03 +5.77338307828E-01 -5.29521203982E-01
4.09000000000E+09 +4.52031167700E-01 -5.04965985302E-01 -2.15199326946E-03 -3.32912129984E-03 -2.13917927357E-03 -3.48135840895E-03 +5.62903936621E-01 -5.38180390656E-01
4.09500000000E+09 +4.35087825873E-01 -5.12377547899E-01 -2.41707745561E-03 -3.23610492920E-03 -2.44798272424E-03 -3.41365552316E-03 +5.47630695418E-01 -5.46175616831E-01
4.10000000000E+09 +4.18142601587E-01 -5.19377148497E-01 -2.51767375211E-03 -3.12794774546E-03 -2.55323808844E-03 -3.24465883432E-03 +5.31620609174E-01 -5.53213308545E-01
4.10500000000E+09 +4.01639689266E-01 -5.25143043539E-01 -3.01625593494E-03 -3.34258677614E-03 -3.06602568322E-03 -3.39331965060E-03 +5.15120194617E-01 -5.60123248960E-01
4.11000000000E+09 +3.85213503117E-01 -5.29285511691E-01 -3.86136872532E-03 -2.91964556166E-03 -3.88523974683E-03 -3.05646695143E-03 +4.98373625380E-01 -5.67728105684E-01
4.11500000000E+09 +3.70073327217E-01 -5.32520700853E-01 -4.14448145527E-03 -2.00531457016E-03 -4.14638315677E-03 -2.17434225008E-03 +4.80853432329E-01 -5.75205819340E-01
4.12000000000E+09 +3.53320728072E-01 -5.36517510600E-01 -4.01792940389E-03 -1.61066222099E-03 -4.11162173163E-03 -1.75003634658E-03 +4.63178043761E-01 -5.81929110195E-01
4.12500000000E+09 +3.35273987890E-01 -5.38379558476E-01 -4.24359388897E-03 -1.15763025501E-03 -4.31840930304E-03 -1.33224972245E-03 +4.46137418331E-01 -5.87514035573E-01
4.13000000000E+09 +3.16830490589E-01 -5.40275892086E-01 -4.01468517392E-03 -8.59822043390E-04 -4.07071607521E-03 -1.00323091550E-03 +4.28993850501E-01 -5.93171824856E-01
4.13500000000E+09 +2.97852651900E-01 -5.42429124922E-01 -4.02497795900E-03 -5.65582750129E-04 -4.09558306891E-03 -7.59629411718E-04 +4.10991578929E-01 -5.98713918393E-01
4.14000000000E+09 +2.77974147682E-01 -5.45052866398E-01 -4.13832200070E-03 -4.52378159553E-04 -4.29344809018E-03 -6.37089033970E-04 +3.91134396285E-01 -6.04091647848E-01
4.14500000000E+09 +2.58597119745E-01 -5.47852241914E-01 -4.48049102939E-03 +6.32939793782E-05 -4.64529737324E-03 -3.64691872066E-05 +3.71008568912E-01 -6.08544553868E-01
4.15000000000E+09 +2.39537066086E-01 -5.52562876867E-01 -4.03672978587E-03 +3.90806102551E-04 -4.21257457187E-03 +3.62106575798E-04 +3.51614491575E-01 -6.12320101347E-01
4.15500000000E+09 +2.19108572229E-01 -5.56266072419E-01 -4.14406122165E-03 +3.10303848040E-04 -4.34474127408E-03 +3.05199011449E-04 +3.32236699079E-01 -6.15803775370E-01
4.16000000000E+09 +2.00241562273E-01 -5.58111731342E-01 -4.66148530707E-03 +5.36021214729E-04 -4.79919765046E-03 +5.82270758111E-04 +3.13091322795E-01 -6.18686739169E-01
4.16500000000E+09 +1.82564032132E-01 -5.58931841416E-01 -5.00553112368E-03 +1.53770553141E-03 -5.05717147777E-03 +1.55357261606E-03 +2.92960918949E-01 -6.20948800515E-01
4.17000000000E+09 +1.64937472906E-01 -5.57913739025E-01 -4.79656218850E-03 +2.18981829780E-03 -4.90169518844E-03 +2.19769369845E-03 +2.72567525739E-01 -6.21563774626E-01
4.17500000000E+09 +1.48012615630E-01 -5.55102681334E-01 -4.24671549236E-03 +2.94781595029E-03 -4.40084820991E-03 +2.94110587431E-03 +2.52031744125E-01 -6.21694288446E-01
4.18000000000E+09 +1.31309560636E-01 -5.50981481055E-01 -3.30943116465E-03 +3.04757242213E-03 -3.46857389888E-03 +3.12910371446E-03 +2.31227832279E-01 -6.22618112308E-01
4.18500000000E+09 +1.12540730524E-01 -5.47135799458E-01 -3.43939015268E-03 +2.49966009137E-03 -3.56695728901E-03 +2.58135276106E-03 +2.08606753803E-01 -6.23149448327E-01
4.19000000000E+09 +9.25773091018E-02 -5.41295275954E-01 -4.13545668739E-03 +2.86653031265E-03 -4.25546303115E-03 +2.92057454729E-03 +1.85780460815E-01 -6.22084219752E-01
4.19500000000E+09 +7.23004095124E-02 -5.35623957769E-01 -4.46551852215E-03 +4.20054371300E-03 -4.66664087933E-03 +4.35004217798E-03 +1.63509923272E-01 -6.19793991295E-01
4.20000000000E+09 +5.08847844312E-02 -5.30967977106E-01 -3.37963329793E-03 +5.02225689889E-03 -3.58876676331E-03 +5.06674014424E-03 +1.41757075527E-01 -6.16616250610E-01
4.20500000000E+09 +2.92611300161E-02 -5.25643025914E-01 -2.78769880919E-03 +5.40091051196E-03 -2.94185789415E-03 +5.52557817629E-03 +1.19743581176E-01 -6.12896241470E-01
4.21000000000E+09 +8.84490686088E-03 -5.20647155942E-01 -1.99186185268E-03 +5.60824375563E-03 -2.09704760083E-03 +5.70342349814E-03 +9.70585251695E-02 -6.08702254237E-01
4.21500000000E+09 -1.05200196692E-02 -5.15705920615E-01 -1.60292530549E-03 +5.89980154353E-03 -1.68210433455E-03 +5.97749765083E-03 +7.42093872648E-02 -6.03446159651E-01
4.22000000000E+09 -2.87272396638E-02 -5.09773681564E-01 -8.94802161809E-04 +6.18622972913E-03 -9.69365617352E-04 +6.29081367743E-03 +5.24543156975E-02 -5.97379284475E-01
4.22500000000E+09 -4.54712078714E-02 -5.02668844693E-01 -5.72033816921E-05 +6.31910395947E-03 -1.82945755492E-04 +6.45163923039E-03 +3.10183940284E-02 -5.91331748256E-01
4.23000000000E+09 -6.12974468585E-02 -4.95326111250E-01 +1.11788273992E-03 +5.72151872637E-03 +1.06217563421E-03 +5.93033634526E-03 +1.05331312264E-02 -5.84035096478E-01
4.23500000000E+09 -7.86688481506E-02 -4.85388757992E-01 +6.51451042536E-04 +5.15853184066E-03 +5.88566909265E-04 +5.26962625636E-03 -1.11584027089E-02 -5.77032889960E-01
4.24000000000E+09 -9.61682385729E-02 -4.73298366233E-01 +4.60885709157E-04 +5.81856611860E-03 +4.68870252817E-04 +5.97361306780E-03 -3.32956277021E-02 -5.68022981188E-01
4.24500000000E+09 -1.14192323233E-01 -4.59950988659E-01 +1.35516640093E-03 +6.65888709917E-03 +1.39076617285E-03 +6.80560780176E-03 -5.55212562326E-02 -5.57285762950E-01
4.25000000000E+09 -1.33565565714E-01 -4.45687155785E-01 +2.40164208840E-03 +6.64977719453E-03 +2.43405386061E-03 +6.81720501590E-03 -7.60419205669E-02 -5.46401030894E-01
4.25500000000E+09 -1.53146766444E-01 -4.31539068641E-01 +3.73671593753E-03 +6.49602845012E-03 +3.95100456720E-03 +6.71758476454E-03 -9.62062741766E-02 -5.34991389760E-01
4.26000000000E+09 -1.72821939821E-01 -4.18564407857E-01 +5.12084461031E-03 +5.34706203173E-03 +5.22060661225E-03 +5.50484401710E-03 -1.16400175752E-01 -5.23467437540E-01
4.26500000000E+09 -1.93927132276E-01 -4.07332297762E-01 +4.77140897015E-03 +4.28273665942E-03 +4.95004363982E-03 +4.36115052867E-03 -1.36680536982E-01 -5.10623089562E-01
4.27000000000E+09 -2.14315270641E-01 -3.94871599223E-01 +4.52604593114E-03 +4.37197312939E-03 +4.78017257446E-03 +4.37584633700E-03 -1.58273649086E-01 -4.96571871208E-01
4.27500000000E+09 -2.32619572809E-01 -3.82783805120E-01 +5.58572879406E-03 +4.36882130872E-03 +5.74782900876E-03 +4.41521326314E-03 -1.78337065153E-01 -4.79867998868E-01
4.28000000000E+09 -2.48841481919E-01 -3.69863350877E-01 +6.14808478752E-03 +3.16557874548E-03 +6.29958626067E-03 +3.15937715744E-03 -1.96888264117E-01 -4.65648228510E-01
4.28500000000E+09 -2.62511673694E-01 -3.56105808171E-01 +6.08031334141E-03 +3.24133237500E-03 +6.23439070191E-03 +3.20400299171E-03 -2.18259510619E-01 -4.50229708877E-01
4.29000000000E+09 -2.73953077163E-01 -3.41814210864E-01 +7.13903741400E-03 +2.39610545509E-03 +7.30180984523E-03 +2.35302575099E-03 -2.37533582997E-01 -4.32594313543E-01
4.29500000000E+09 -2.84931494587E-01 -3.27324550528E-01 +6.71895377776E-03 +1.57433983519E-03 +6.82284799467E-03 +1.49531203885E-03 -2.54703355286E-01 -4.13414344659E-01
4.30000000000E+09 -2.97143917693E-01 -3.10879744217E-01 +7.29375877595E-03 +1.65431486996E-03 +7.44435326021E-03 +1.59580341173E-03 -2.70007000671E-01 -3.95193713968E-01
4.30500000000E+09 -3.09884862690E-01 -2.92644219862E-01 +8.26572708168E-03 +3.62687084647E-04 +8.41937748711E-03 +3.04028890882E-04 -2.84973110622E-01 -3.76394521041E-01
4.31000000000E+09 -3.22850883100E-01 -2.72674443642E-01 +8.17759736487E-03 -1.36650739449E-03 +8.34379672782E-03 -1.44453438510E-03 -3.00422137836E-01 -3.57297127414E-01
4.31500000000E+09 -3.36455608641E-01 -2.52679178699E-01 +7.34793689697E-03 -1.97560039122E-03 +7.47768331771E-03 -2.01178575042E-03 -3.16539225109E-01 -3.36516652555E-01
4.32000000000E+09 -3.49284753310E-01 -2.32187096395E-01 +6.98317318498E-03 -2.79239159779E-03 +7.03772264036E-03 -2.88834093844E-03 -3.30572730069E-01 -3.14133702553E-01
4.32500000000E+09 -3.60767308147E-01 -2.13160608651E-01 +5.92968296233E-03 -2.87575405984E-03 +6.00277260324E-03 -2.95899655521E-03 -3.42726317545E-01 -2.92104012227E-01
4.33000000000E+09 -3.71249005881E-01 -1.95152579390E-01 +6.78418932161E-03 -2.57527844036E-03 +6.84256711564E-03 -2.64127120821E-03 -3.53996512317E-01 -2.71857767361E-01
4.33500000000E+09 -3.80543576936E-01 -1.77798079406E-01 +7.60266276936E-03 -3.73630640421E-03 +7.68110393129E-03 -3.92262121246E-03 -3.66156731404E-01 -2.48959574377E-01
4.34000000000E+09 -3.87655985646E-01 -1.59988250741E-01 +7.02400379676E-03 -5.73736175462E-03 +7.07089708326E-03 -5.86434794263E-03 -3.77431678453E-01 -2.25002318007E-01
4.34500000000E+09 -3.93758419685E-01 -1.42517817075E-01 +5.95376530110E-03 -6.42043067117E-03 +5.94611843034E-03 -6.47621769539E-03 -3.86890464760E-01 -1.99655052752E-01
4.35000000000E+09 -3.99460935737E-01 -1.22022537558E-01 +5.26152970526E-03 -7.17185282677E-03 +5.24485582233E-03 -7.21400343385E-03 -3.95700803365E-01 -1.75747881194E-01
4.35500000000E+09 -4.02745480592E-01 -9.93968825023E-02 +4.12912944903E-03 -7.61303160050E-03 +4.10873282757E-03 -7.73388949262E-03 -4.04616019517E-01 -1.52581601996E-01
4.36000000000E+09 -4.05326722698E-01 -7.63404654393E-02 +3.88303943994E-03 -7.83095548098E-03 +3.88175799336E-03 -7.96602567217E-03 -4.12922334630E-01 -1.29380737383E-01
4.36500000000E+09 -4.08141362419E-01 -5.33362829094E-02 +2.70954569370E-03 -9.06443005910E-03 +2.66855460202E-03 -9.19439808441E-03 -4.19475641175E-01 -1.04156336935E-01
4.37000000000E+09 -4.12634140194E-01 -3.04973396482E-02 +9.93605917105E-04 -8.86191773722E-03 +8.59015245596E-04 -9.09529905016E-03 -4.23828130469E-01 -7.88299381156E-02
4.37500000000E+09 -4.17920007628E-01 -7.84892794120E-03 +2.75909653791E-04 -8.21242870690E-03 +1.22883651551E-04 -8.38891271682E-03 -4.25243245508E-01 -5.34198187105E-02
4.38000000000E+09 -4.23779463435E-01 +1.47821820211E-02 +1.84496136529E-04 -8.34216262908E-03 -5.99009673598E-05 -8.39956288389E-03 -4.28488123982E-01 -3.03197098206E-02
4.38500000000E+09 -4.28366921731E-01 +3.61535686475E-02 -6.64013700382E-04 -8.91561365185E-03 -8.81972918738E-04 -8.99569470519E-03 -4.31843958380E-01 -4.64073679578E-03
4.39000000000E+09 -4.31205166865E-01 +5.58575072906E-02 -1.50686094579E-03 -9.14878879100E-03 -1.68812514632E-03 -9.24685915554E-03 -4.33780962247E-01 +2.26406952105E-02
4.39500000000E+09 -4.32729211434E-01 +7.37252234692E-02 -3.33765786902E-03 -9.36193722689E-03 -3.59873637160E-03 -9.30074336902E-03 -4.32700057405E-01 +4.86481961333E-02
4.40000000000E+09 -4.32478487670E-01 +9.22963569674E-02 -5.05712684337E-03 -8.55825520058E-03 -5.29361519943E-03 -8.51729882629E-03 -4.30247299400E-01 +7.27793097799E-02
4.40500000000E+09 -4.29774401112E-01 +1.09964403464E-01 -5.89680321938E-03 -7.33209104905E-03 -6.07210884693E-03 -7.22479735106E-03 -4.27399814461E-01 +9.59796208220E-02
4.41000000000E+09 -4.27042783351E-01 +1.29033560629E-01 -6.08690150923E-03 -6.13167155666E-03 -6.23167928158E-03 -6.00203634743E-03 -4.25190510206E-01 +1.18254260114E-01
4.41500000000E+09 -4.22573698233E-01 +1.50459187372E-01 -6.52831873747E-03 -5.79931421798E-03 -6.67817670530E-03 -5.69224839785E-03 -4.22195309042E-01 +1.43724932874E-01
4.42000000000E+09 -4.17203127717E-01 +1.72643256991E-01 -6.89156017315E-03 -5.31386656157E-03 -6.99452101640E-03 -5.12955579477E-03 -4.15985721263E-01 +1.68944345959E-01
4.42500000000E+09 -4.12732696345E-01 +1.94965085090E-01 -7.92075656677E-03 -4.76573477093E-03 -7.98194917921E-03 -4.50672326077E-03 -4.08966857845E-01 +1.91207722649E-01
4.43000000000E+09 -4.09283112058E-01 +2.17529015360E-01 -8.31308393776E-03 -3.53244930039E-03 -8.23558281826E-03 -3.27173381034E-03 -4.04463289366E-01 +2.13179467249E-01
4.43500000000E+09 -4.05881099103E-01 +2.39220553148E-01 -8.44553801469E-03 -2.53125549823E-03 -8.28545414080E-03 -2.37710470020E-03 -3.98673570207E-01 +2.36733428571E-01
4.44000000000E+09 -4.02937147883E-01 +2.58781766490E-01 -8.64468477694E-03 -1.75189877190E-03 -8.53140460047E-03 -1.65611553089E-03 -3.90592245099E-01 +2.60023653414E-01
4.44500000000E+09 -4.00074508043E-01 +2.76321903985E-01 -8.88415891160E-03 -9.70477916669E-04 -8.81942928549E-03 -8.48721389148E-04 -3.79759129165E-01 +2.81659513736E-01
4.45000000000E+09 -3.96450886160E-01 +2.91386934860E-01 -9.05598721971E-03 -3.66198761889E-05 -9.09637820227E-03 +1.43115785694E-04 -3.69189026613E-01 +3.00400038378E-01
4.45500000000E+09 -3.91851152233E-01 +3.04937043096E-01 -9.51795296184E-03 +1.39699288661E-03 -9.44404802523E-03 +1.54172107484E-03 -3.59420454563E-01 +3.18526925904E-01
4.46000000000E+09 -3.86395526119E-01 +3.18763646845E-01 -8.51623406141E-03 +3.16571116365E-03 -8.40882783455E-03 +3.38144400008E-03 -3.50834827820E-01 +3.38398459525E-01
4.46500000000E+09 -3.77123561614E-01 +3.34001759250E-01 -7.31464838186E-03 +3.35996042787E-03 -7.23612390321E-03 +3.57208621390E-03 -3.38287192483E-01 +3.57978000664E-01
4.47000000000E+09 -3.66050843458E-01 +3.49301884578E-01 -7.12718025209E-03 +3.33338015040E-03 -6.95505734206E-03 +3.54294357986E-03 -3.25859626805E-01 +3.76230656852E-01
4.47500000000E+09 -3.53083881219E-01 +3.65803839551E-01 -7.51312916806E-03 +4.10411560288E-03 -7.35112576421E-03 +4.27408285802E-03 -3.13111413383E-01 +3.93056154670E-01
4.48000000000E+09 -3.40464819907E-01 +3.83069117253E-01 -7.08460698593E-03 +5.24366127465E-03 -6.76447208370E-03 +5.38688307147E-03 -3.01794430299E-01 +4.10405448368E-01
4.48500000000E+09 -3.28480140931E-01 +4.00849345123E-01 -6.15921145686E-03 +6.29233813404E-03 -5.91968835360E-03 +6.31992524715E-03 -2.88915819041E-01 +4.27484904303E-01
4.49000000000E+09 -3.18219318228E-01 +4.18330467525E-01 -5.04857110526E-03 +7.10561191548E-03 -4.77830962991E-03 +7.00847635381E-03 -2.75699386933E-01 +4.43891592932E-01
4.49500000000E+09 -3.10047780056E-01 +4.35843383327E-01 -4.15000309175E-03 +7.02383120319E-03 -3.98230414052E-03 +6.91503622669E-03 -2.60335429839E-01 +4.58412326820E-01
4.50000000000E+09 -3.02641710417E-01 +4.51924134247E-01 -3.73625027706E-03 +7.43815996648E-03 -3.57630727535E-03 +7.29511462903E-03 -2.46266229672E-01 +4.71434348995E-01
4.50500000000E+09 -2.96500950290E-01 +4.66091947839E-01 -2.86311580521E-03 +8.20556371763E-03 -2.69889844639E-03 +8.14858633340E-03 -2.32497111203E-01 +4.83829690303E-01
4.51000000000E+09 -2.89333945735E-01 +4.78454265021E-01 -1.11225319207E-03 +8.39513265397E-03 -9.62760841452E-04 +8.28947859772E-03 -2.20125544708E-01 +4.97941617327E-01
4.51500000000E+09 -2.80581484044E-01 +4.88679649444E-01 -1.95738468071E-04 +7.87611490445E-03 -4.03585677278E-05 +7.69757944770E-03 -2.05544240452E-01 +5.11265056605E-01
4.52000000000E+09 -2.70223562747E-01 +4.97010135047E-01 +5.99110148555E-04 +7.48625614774E-03 +6.96028661906E-04 +7.30240822578E-03 -1.91287703713E-01 +5.23736234705E-01
4.52500000000E+09 -2.58733502936E-01 +5.04810022342E-01 +1.09433834234E-03 +6.80645340854E-03 +1.19589681036E-03 +6.58394067504E-03 -1.76164277072E-01 +5.34394722451E-01
4.53000000000E+09 -2.45050325901E-01 +5.13662861627E-01 +1.17401176667E-03 +6.90259127783E-03 +1.26956815217E-03 +6.73578250908E-03 -1.61995541642E-01 +5.44521487553E-01
4.53500000000E+09 -2.29282274215E-01 +5.23443408201E-01 +1.66089148209E-03 +7.13198970351E-03 +1.80877863716E-03 +6.93299112970E-03 -1.46960976684E-01 +5.54333402058E-01
4.54000000000E+09 -2.13122501120E-01 +5.34581395687E-01 +3.40093748408E-03 +7.21984492989E-03 +3.53034104683E-03 +6.93606411953E-03 -1.31615768292E-01 +5.65359151193E-01
4.54500000000E+09 -1.96465690188E-01 +5.46652643184E-01 +4.46464576727E-03 +5.85649139191E-03 +4.40705007727E-03 +5.61935095877E-03 -1.14413219780E-01 +5.73995510855E-01
4.55000000000E+09 -1.80446934070E-01 +5.58417000327E-01 +4.54763374398E-03 +4.71327397071E-03 +4.45890997014E-03 +4.50056991649E-03 -9.86044826603E-02 +5.82543211984E-01
4.55500000000E+09 -1.66947428243E-01 +5.69635969390E-01 +4.51182715434E-03 +3.73165034935E-03 +4.41751854532E-03 +3.58692904889E-03 -8.38729170695E-02 +5.89766087031E-01
4.56000000000E+09 -1.54869737274E-01 +5.80754006247E-01 +3.90058488332E-03 +3.41557237671E-03 +3.80271315372E-03 +3.26789442735E-03 -7.06175348245E-02 +5.98344344386E-01
4.56500000000E+09 -1.44144072783E-01 +5.90396411323E-01 +3.80861381978E-03 +3.64760880515E-03 +3.78557830845E-03 +3.47513070798E-03 -5.53076065390E-02 +6.06865119668E-01
4.57000000000E+09 -1.34414469736E-01 +5.98559991554E-01 +4.49712761117E-03 +3.80190768508E-03 +4.42160880473E-03 +3.62640560976E-03 -3.92955874729E-02 +6.13676050060E-01
