# Hz S RI R 50
! CMT, C1220, 16058040, 17.2.0/1
! Date: 15/08/2018 11:35:34
! Data: Format (Calibration Info)
! Freq                      S11: Re/Im (F2)                       S21: Re/Im (F2)                       S12: Re/Im (F2)                       S22: Re/Im (F2)            
4.00000000000E+09 +6.68560671449E-01 -3.54766378966E-01 +6.72002591738E-04 -3.51476697185E-03 +8.27587460505E-04 -3.60515656852E-03 +7.74948310226E-01 -3.53546618353E-01
4.00500000000E+09 +6.60601093186E-01 -3.63054482777E-01 +3.49454411912E-04 -3.79396484873E-03 +5.06174782072E-04 -3.84245913450E-03 +7.66664617334E-01 -3.64760867701E-01
4.01000000000E+09 +6.52062056709E-01 -3.70265161825E-01 -2.81866588760E-04 -3.95375532483E-03 -1.09287346250E-04 -4.01588502813E-03 +7.57764481422E-01 -3.76092998937E-01
4.01500000000E+09 +6.42783889945E-01 -3.77931633871E-01 -9.51860820288E-04 -3.84062264804E-03 -7.91453726440E-04 -3.96648296113E-03 +7.48016991088E-01 -3.86672336828E-01
4.02000000000E+09 +6.32787370973E-01 -3.86405838011E-01 -1.22123146902E-03 -3.49441862142E-03 -1.08079987824E-03 -3.67406953430E-03 +7.38232133231E-01 -3.97038066974E-01
4.02500000000E+09 +6.21911551741E-01 -3.95648868124E-01 -1.35155055404E-03 -3.37367527103E-03 -1.21406809946E-03 -3.56646420670E-03 +7.27980450205E-01 -4.07317436073E-01
4.03000000000E+09 +6.10346390224E-01 -4.05479647678E-01 -1.67516736167E-03 -3.49636711902E-03 -1.59698344990E-03 -3.64463290201E-03 +7.17856722411E-01 -4.17811076475E-01
4.03500000000E+09 +5.98434335986E-01 -4.15024965365E-01 -2.24903465161E-03 -3.24417724929E-03 -2.14833826694E-03 -3.46015357870E-03 +7.06892092261E-01 -4.29019781932E-01
4.04000000000E+09 +5.87130696120E-01 -4.24924704556E-01 -2.40774901255E-03 -2.91099410199E-03 -2.40238969619E-03 -3.04237522779E-03 +6.95583613453E-01 -4.40065443690E-01
4.04500000000E+09 +5.75374668535E-01 -4.34443415299E-01 -2.66375662034E-03 -2.73132840976E-03 -2.68353366022E-03 -3.03017594269E-03 +6.83681142022E-01 -4.50923608388E-01
4.05000000000E+09 +5.64084909747E-01 -4.43072994437E-01 -2.92618424094E-03 -2.46451340637E-03 -3.01748872178E-03 -2.73736527578E-03 +6.71901758657E-01 -4.60722098448E-01
4.05500000000E+09 +5.52544894463E-01 -4.51512103967E-01 -2.89113028075E-03 -2.39412091109E-03 -3.00512665377E-03 -2.60755782010E-03 +6.59736490240E-01 -4.70304871750E-01
4.06000000000E+09 +5.39425388160E-01 -4.59368838683E-01 -3.48580370578E-03 -2.54939514418E-03 -3.60937057236E-03 -2.69903383342E-03 +6.47203483175E-01 -4.79646010200E-01
4.06500000000E+09 +5.25654105717E-01 -4.65560170786E-01 -4.16715470795E-03 -1.80079062129E-03 -4.28932573742E-03 -1.89001484930E-03 +6.34133475144E-01 -4.88736765685E-01
4.07000000000E+09 +5.12116138414E-01 -4.72097586544E-01 -4.03704738097E-03 -1.28101140612E-03 -4.13275247291E-03 -1.33326250161E-03 +6.20538325699E-01 -4.98513417088E-01
4.07500000000E+09 +4.96804334113E-01 -4.79524427000E-01 -4.11336207335E-03 -8.73889246489E-04 -4.18537463487E-03 -9.61148255360E-04 +6.06595668526E-01 -5.07707242519E-01
4.08000000000E+09 +4.80880774927E-01 -4.86227899793E-01 -4.13782657840E-03 -6.05156606509E-04 -4.24796254378E-03 -7.55474803222E-04 +5.93226630800E-01 -5.17188398220E-01
4.08500000000E+09 +4.64675696709E-01 -4.93548083860E-01 -4.16443403472E-03 -3.34941120158E-04 -4.32307456254E-03 -4.11107136919E-04 +5.79309738383E-01 -5.26660996552E-01
4.09000000000E+09 +4.47947581190E-01 -5.01266455088E-01 -4.51305678465E-03 +8.84009612261E-06 -4.65551719461E-03 -9.35416846922E-05 +5.64824197975E-01 -5.35489256946E-01
4.09500000000E+09 +4.31330778481E-01 -5.08213544108E-01 -4.65577836474E-03 +5.83707620990E-04 -4.84963690120E-03 +6.46750771224E-04 +5.49500058931E-01 -5.43341706614E-01
4.10000000000E+09 +4.16035659691E-01 -5.14804331795E-01 -4.15251153953E-03 +1.16665011146E-03 -4.31507576107E-03 +1.18582625780E-03 +5.33647284707E-01 -5.50404542042E-01
4.10500000000E+09 +3.99650299311E-01 -5.21480831323E-01 -4.32328032155E-03 +1.26453230793E-03 -4.41005940206E-03 +1.23692108459E-03 +5.17514170606E-01 -5.57462949399E-01
4.11000000000E+09 +3.83132396343E-01 -5.25819605691E-01 -4.40366561254E-03 +1.84331959758E-03 -4.47939564910E-03 +1.79353520225E-03 +5.00552507115E-01 -5.65376538554E-01
4.11500000000E+09 +3.66845469618E-01 -5.28884715448E-01 -4.16529877164E-03 +2.41943288882E-03 -4.27505333723E-03 +2.41976620977E-03 +4.83001491707E-01 -5.72906641530E-01
4.12000000000E+09 +3.50180498076E-01 -5.31043427919E-01 -3.95288912442E-03 +2.95192051621E-03 -4.00438122834E-03 +2.89355260249E-03 +4.65544759839E-01 -5.79560625253E-01
4.12500000000E+09 +3.33410029218E-01 -5.32817463978E-01 -3.54559346234E-03 +3.39138103555E-03 -3.66771079806E-03 +3.37998451210E-03 +4.48513522027E-01 -5.85380074515E-01
4.13000000000E+09 +3.15872746402E-01 -5.35439815781E-01 -2.92238028885E-03 +3.67906814917E-03 -3.05554110970E-03 +3.62991715543E-03 +4.31374874558E-01 -5.91304020102E-01
4.13500000000E+09 +2.96996160215E-01 -5.38965808550E-01 -2.47612554056E-03 +3.56398993361E-03 -2.67704056547E-03 +3.59207089973E-03 +4.13289597560E-01 -5.96987313734E-01
4.14000000000E+09 +2.76722797798E-01 -5.42348959261E-01 -2.57113019571E-03 +3.44619976614E-03 -2.78815799133E-03 +3.49526017353E-03 +3.93329845857E-01 -6.02463714605E-01
4.14500000000E+09 +2.56470030021E-01 -5.45358324988E-01 -2.85199181835E-03 +4.09476857267E-03 -3.08546174455E-03 +4.15675885742E-03 +3.73283435412E-01 -6.06902466907E-01
4.15000000000E+09 +2.37536303681E-01 -5.49286468403E-01 -1.91065310422E-03 +4.78881447046E-03 -2.13768890788E-03 +4.89816137193E-03 +3.53929400303E-01 -6.10873509770E-01
4.15500000000E+09 +2.17891621421E-01 -5.52305103502E-01 -1.56594968761E-03 +4.85446778835E-03 -1.69762572717E-03 +4.99743680559E-03 +3.34668300166E-01 -6.14521991497E-01
4.16000000000E+09 +2.00105865076E-01 -5.54371998912E-01 -9.71453323765E-04 +5.03443326199E-03 -1.08452546657E-03 +5.16045710769E-03 +3.15540429958E-01 -6.17934904749E-01
4.16500000000E+09 +1.82973423843E-01 -5.55625349570E-01 -4.22227221791E-04 +4.83702974450E-03 -5.22368794829E-04 +4.95825786312E-03 +2.95081383150E-01 -6.20211444854E-01
4.17000000000E+09 +1.65420624133E-01 -5.55475455261E-01 -4.90892413508E-04 +4.87797087092E-03 -6.17311778870E-04 +5.11874132174E-03 +2.74460811721E-01 -6.20973312316E-01
4.17500000000E+09 +1.47820723357E-01 -5.52730328950E-01 +4.40775546759E-05 +5.51215056458E-03 -1.19241351827E-04 +5.75360557575E-03 +2.53766375612E-01 -6.21446085055E-01
4.18000000000E+09 +1.30859250903E-01 -5.48459963312E-01 +1.24119341922E-03 +5.75764829453E-03 +1.22539615162E-03 +5.98616835905E-03 +2.32417026983E-01 -6.22094382065E-01
4.18500000000E+09 +1.12065497181E-01 -5.45030114945E-01 +1.74085141699E-03 +4.89003936849E-03 +1.73331044097E-03 +5.14595731366E-03 +2.09846211341E-01 -6.22462095540E-01
4.19000000000E+09 +9.18928878446E-02 -5.39624297696E-01 +1.76926503794E-03 +4.67502757553E-03 +1.76405188307E-03 +4.82372289073E-03 +1.87425071025E-01 -6.21352678369E-01
4.19500000000E+09 +7.14995429606E-02 -5.34401425590E-01 +1.83454107017E-03 +4.65027850505E-03 +1.86400478764E-03 +4.86040646522E-03 +1.65145874773E-01 -6.19317923256E-01
4.20000000000E+09 +5.02143611738E-02 -5.29784509161E-01 +2.03510212413E-03 +5.06567036453E-03 +2.14761034504E-03 +5.26231450384E-03 +1.43231961859E-01 -6.16671230129E-01
4.20500000000E+09 +2.89213243042E-02 -5.25137571980E-01 +3.17196193956E-03 +5.46836822573E-03 +3.27566935390E-03 +5.69812100780E-03 +1.20779877378E-01 -6.13116925080E-01
4.21000000000E+09 +8.35130103698E-03 -5.20138379748E-01 +4.33630130352E-03 +5.02209232553E-03 +4.52703914664E-03 +5.23802207775E-03 +9.78551931204E-02 -6.08865440819E-01
4.21500000000E+09 -1.05308855590E-02 -5.16185911293E-01 +4.70752443618E-03 +3.80885183222E-03 +4.83840089348E-03 +3.91567427921E-03 +7.48168273152E-02 -6.03670440636E-01
4.22000000000E+09 -2.96853465202E-02 -5.10653128532E-01 +4.76526801721E-03 +3.47634890337E-03 +4.94788458828E-03 +3.52208672656E-03 +5.26304797542E-02 -5.97564758397E-01
4.22500000000E+09 -4.70206187177E-02 -5.03416147351E-01 +4.94695230090E-03 +3.22450234809E-03 +5.10174696162E-03 +3.31511999553E-03 +3.10191263359E-02 -5.91284964213E-01
4.23000000000E+09 -6.36758926745E-02 -4.95186020706E-01 +5.67707587758E-03 +2.91121349255E-03 +5.87747961999E-03 +2.96179162280E-03 +1.02600078354E-02 -5.83905188071E-01
4.23500000000E+09 -8.09616990528E-02 -4.84502762369E-01 +5.77581404584E-03 +2.24227144674E-03 +5.88964322297E-03 +2.21066440299E-03 -1.16301795905E-02 -5.76645599210E-01
4.24000000000E+09 -9.76095264860E-02 -4.72302885593E-01 +6.00131152113E-03 +2.03776634452E-03 +6.10083997754E-03 +2.05015205349E-03 -3.37757919240E-02 -5.67642402469E-01
4.24500000000E+09 -1.14892383743E-01 -4.60105024387E-01 +6.12961216734E-03 +1.26656312350E-03 +6.24259656894E-03 +1.23449456223E-03 -5.62026244997E-02 -5.56941631703E-01
4.25000000000E+09 -1.34641963864E-01 -4.46909739130E-01 +6.47019474015E-03 +1.51838007137E-03 +6.50960919318E-03 +1.47744487561E-03 -7.71601197489E-02 -5.45934424636E-01
4.25500000000E+09 -1.54502645074E-01 -4.33552292962E-01 +7.47405044523E-03 +1.01916632957E-03 +7.59784726131E-03 +9.50710193990E-04 -9.75041269787E-02 -5.34110484933E-01
4.26000000000E+09 -1.74747234836E-01 -4.20718698838E-01 +8.57179691866E-03 -6.04921456364E-04 +8.68868548644E-03 -6.89240239602E-04 -1.17872014933E-01 -5.22066868142E-01
4.26500000000E+09 -1.95215690041E-01 -4.09209731143E-01 +7.83549269993E-03 -2.18433698030E-03 +7.87967426010E-03 -2.22158775936E-03 -1.37792481965E-01 -5.08651504275E-01
4.27000000000E+09 -2.15047376561E-01 -3.96550933336E-01 +7.25335418969E-03 -3.15514146300E-03 +7.37406413254E-03 -3.25267561677E-03 -1.58937474999E-01 -4.94641817164E-01
4.27500000000E+09 -2.32893849415E-01 -3.84612463352E-01 +6.51816613728E-03 -4.09392160255E-03 +6.57714460222E-03 -4.15362460027E-03 -1.79036288474E-01 -4.78391828169E-01
4.28000000000E+09 -2.49340097537E-01 -3.71775683544E-01 +5.72725787453E-03 -3.93239278923E-03 +5.76661397299E-03 -3.95421622214E-03 -1.97917210325E-01 -4.63889709849E-01
4.28500000000E+09 -2.63238658603E-01 -3.57919823070E-01 +6.13058566668E-03 -3.85842490272E-03 +6.23523737142E-03 -3.88154563631E-03 -2.19172952662E-01 -4.48437926416E-01
4.29000000000E+09 -2.75686708719E-01 -3.43309182012E-01 +6.70016943054E-03 -5.41260175924E-03 +6.76385544020E-03 -5.46133875582E-03 -2.38684052587E-01 -4.30583232808E-01
4.29500000000E+09 -2.87148272609E-01 -3.28168427964E-01 +5.12591476970E-03 -6.84362957461E-03 +5.19914286111E-03 -6.99895065233E-03 -2.55667740960E-01 -4.10982584157E-01
4.30000000000E+09 -3.00178645190E-01 -3.11426916729E-01 +4.52909091079E-03 -6.87385501057E-03 +4.61047517823E-03 -7.00858666268E-03 -2.71243314439E-01 -3.92553274895E-01
4.30500000000E+09 -3.13556631390E-01 -2.92902521742E-01 +3.57407781995E-03 -7.69708374156E-03 +3.63333225706E-03 -7.86607520624E-03 -2.86029968120E-01 -3.73240854766E-01
4.31000000000E+09 -3.26866108167E-01 -2.72700952836E-01 +2.68001385242E-03 -7.86255640179E-03 +2.71879802923E-03 -8.03769380485E-03 -3.01030646856E-01 -3.53793585083E-01
4.31500000000E+09 -3.39566381975E-01 -2.52410354896E-01 +2.00636229992E-03 -8.13823929902E-03 +2.00237289715E-03 -8.29499544788E-03 -3.16782539657E-01 -3.33251015787E-01
4.32000000000E+09 -3.51143728127E-01 -2.32589463555E-01 +6.95699091437E-04 -8.79892618810E-03 +6.72689790387E-04 -8.98449510126E-03 -3.30591498915E-01 -3.10759508806E-01
4.32500000000E+09 -3.61413235073E-01 -2.15024677300E-01 -1.47445059318E-03 -8.33825865268E-03 -1.57857226809E-03 -8.54292280763E-03 -3.42700705277E-01 -2.88858466971E-01
4.33000000000E+09 -3.72707737395E-01 -1.98886034285E-01 -1.14103171890E-03 -6.34195118370E-03 -1.25565066923E-03 -6.50950490551E-03 -3.53952017105E-01 -2.68277361740E-01
4.33500000000E+09 -3.82953996744E-01 -1.81075637010E-01 -4.05693945745E-04 -6.84658624117E-03 -5.16650763105E-04 -6.87164128308E-03 -3.65803901639E-01 -2.45254899170E-01
4.34000000000E+09 -3.90702079342E-01 -1.61983516257E-01 -8.54606326258E-04 -7.89459293520E-03 -9.72269252833E-04 -7.94690222555E-03 -3.76765710583E-01 -2.21235511925E-01
4.34500000000E+09 -3.95856455232E-01 -1.42010477286E-01 -1.90051523923E-03 -8.69529133396E-03 -1.97513193132E-03 -8.71294054005E-03 -3.85761416281E-01 -1.95981072902E-01
4.35000000000E+09 -3.98996343985E-01 -1.21311065666E-01 -3.94865616392E-03 -8.98837946329E-03 -4.07812738650E-03 -9.04148771752E-03 -3.94302236181E-01 -1.72230658479E-01
4.35500000000E+09 -4.01712846357E-01 -1.00280285415E-01 -5.59935442951E-03 -7.50972531420E-03 -5.73265509146E-03 -7.53269594151E-03 -4.03071988243E-01 -1.49243359633E-01
4.36000000000E+09 -4.05330686766E-01 -7.88235507418E-02 -5.42130150142E-03 -5.94688578649E-03 -5.55442521180E-03 -6.01312568711E-03 -4.11249693537E-01 -1.26073401890E-01
4.36500000000E+09 -4.10177437235E-01 -5.53264192987E-02 -5.69528767506E-03 -6.29438827768E-03 -5.88882907854E-03 -6.28352407301E-03 -4.17656293610E-01 -1.01211493939E-01
4.37000000000E+09 -4.15130867007E-01 -3.12337957483E-02 -6.55841768983E-03 -5.72934681805E-03 -6.76211219799E-03 -5.65420492576E-03 -4.21779489577E-01 -7.61379228164E-02
4.37500000000E+09 -4.19188305165E-01 -8.26268669035E-03 -7.06882798181E-03 -5.52707481313E-03 -7.28834630357E-03 -5.33789630250E-03 -4.23270381328E-01 -5.09463485885E-02
4.38000000000E+09 -4.24148051735E-01 +1.28906418947E-02 -7.87862802826E-03 -4.66181462594E-03 -8.09793842217E-03 -4.50977556630E-03 -4.26370304897E-01 -2.77427759026E-02
4.38500000000E+09 -4.28190876764E-01 +3.36706353322E-02 -8.75057766238E-03 -3.80441097955E-03 -8.88991458983E-03 -3.64168969496E-03 -4.29574881469E-01 -2.20507722106E-03
4.39000000000E+09 -4.30724184397E-01 +5.25558456347E-02 -8.66913138478E-03 -3.02138340896E-03 -8.83359005796E-03 -2.70573119859E-03 -4.31589504816E-01 +2.46415345859E-02
4.39500000000E+09 -4.31224646698E-01 +6.99656455822E-02 -9.90413555734E-03 -2.59320258566E-03 -9.99868524453E-03 -2.28162553693E-03 -4.30496774268E-01 +5.07791508949E-02
4.40000000000E+09 -4.30278051794E-01 +8.75238188789E-02 -1.09332311319E-02 -5.42369601309E-04 -1.10012819074E-02 -2.83742126069E-04 -4.27713430730E-01 +7.44086492832E-02
4.40500000000E+09 -4.27278380388E-01 +1.04521363414E-01 -1.06068829321E-02 +1.04339547675E-03 -1.05645057630E-02 +1.26620926743E-03 -4.25174220221E-01 +9.72048831713E-02
4.41000000000E+09 -4.24890234828E-01 +1.22777745515E-01 -9.79518959011E-03 +3.07117526100E-03 -9.68676713191E-03 +3.25278954422E-03 -4.23263154176E-01 +1.19203695997E-01
4.41500000000E+09 -4.21644111234E-01 +1.44198994764E-01 -8.84033345200E-03 +3.46086069371E-03 -8.78341993206E-03 +3.69245201178E-03 -4.20400009098E-01 +1.44756284727E-01
4.42000000000E+09 -4.16854073363E-01 +1.66619633201E-01 -8.53361890643E-03 +3.97556106431E-03 -8.38169317117E-03 +4.12593183326E-03 -4.14269612423E-01 +1.69736753481E-01
4.42500000000E+09 -4.12562600200E-01 +1.89299159379E-01 -8.34608088854E-03 +4.64600329595E-03 -8.04479516486E-03 +4.77926716894E-03 -4.07263874398E-01 +1.92189323251E-01
4.43000000000E+09 -4.08663431035E-01 +2.11293726852E-01 -8.35156590977E-03 +5.53224174690E-03 -8.05035839633E-03 +5.66568170621E-03 -4.02558804392E-01 +2.14267586933E-01
4.43500000000E+09 -4.05607433804E-01 +2.31705015490E-01 -7.65563279313E-03 +7.20720159904E-03 -7.40039044871E-03 +7.21743400667E-03 -3.96754324471E-01 +2.37355437769E-01
4.44000000000E+09 -4.03493234337E-01 +2.49989098033E-01 -6.30610365695E-03 +8.73560660051E-03 -6.10178836897E-03 +8.64234645586E-03 -3.88701506738E-01 +2.60488451653E-01
4.44500000000E+09 -4.01998219502E-01 +2.67138577071E-01 -4.30989033461E-03 +8.46432507400E-03 -4.19112639115E-03 +8.43530401158E-03 -3.78067059675E-01 +2.81736426485E-01
4.45000000000E+09 -3.99293498556E-01 +2.83190765043E-01 -3.74402099464E-03 +8.05800485360E-03 -3.57949999671E-03 +8.06391197480E-03 -3.68247998680E-01 +3.00033560328E-01
4.45500000000E+09 -3.93873514412E-01 +2.98294587520E-01 -4.02635365995E-03 +8.46774333635E-03 -3.81260303148E-03 +8.51573519505E-03 -3.58973388700E-01 +3.18802200060E-01
4.46000000000E+09 -3.86565706549E-01 +3.12036959175E-01 -2.70967973974E-03 +9.83189845939E-03 -2.47226635598E-03 +9.84074653594E-03 -3.50072425499E-01 +3.39039887183E-01
4.46500000000E+09 -3.77025751356E-01 +3.26948119414E-01 -1.04984335917E-03 +9.91438528425E-03 -7.88333133032E-04 +9.89737765453E-03 -3.37419323491E-01 +3.58406502563E-01
4.47000000000E+09 -3.65212731470E-01 +3.41774979955E-01 +4.19346353164E-04 +9.40116381198E-03 +6.36792839654E-04 +9.34384401775E-03 -3.24986823136E-01 +3.76436017292E-01
4.47500000000E+09 -3.53498349202E-01 +3.57453054586E-01 +7.99310097785E-04 +8.59659726436E-03 +1.02095562637E-03 +8.45628412507E-03 -3.12666460948E-01 +3.93263298314E-01
4.48000000000E+09 -3.41883981293E-01 +3.75110059775E-01 +8.63926034806E-04 +8.94297877362E-03 +1.07906908855E-03 +8.84185263754E-03 -3.01449920451E-01 +4.10768947967E-01
4.48500000000E+09 -3.30085059835E-01 +3.93453877161E-01 +2.15119377554E-03 +9.47947249878E-03 +2.30396301296E-03 +9.26152982994E-03 -2.88739774889E-01 +4.28080778839E-01
4.49000000000E+09 -3.20704473901E-01 +4.10932692899E-01 +3.91696283030E-03 +9.50315164889E-03 +3.99582976792E-03 +9.21359056980E-03 -2.75220158864E-01 +4.44498428896E-01
4.49500000000E+09 -3.12436309340E-01 +4.28840231601E-01 +5.20037676467E-03 +8.26688848717E-03 +5.13170754279E-03 +8.09393721697E-03 -2.60198430532E-01 +4.58702939372E-01
4.50000000000E+09 -3.04517190234E-01 +4.44656488340E-01 +5.69586741790E-03 +7.44918334090E-03 +5.61864293792E-03 +7.28290372146E-03 -2.46393297957E-01 +4.72064509556E-01
4.50500000000E+09 -2.97384852682E-01 +4.58603056729E-01 +6.54345773530E-03 +6.68480448807E-03 +6.49872805914E-03 +6.58295073817E-03 -2.32579146811E-01 +4.84774402663E-01
4.51000000000E+09 -2.89561521073E-01 +4.69913176076E-01 +6.91396718221E-03 +5.82642829121E-03 +6.87445506383E-03 +5.67920910344E-03 -2.19523921965E-01 +4.98910935479E-01
4.51500000000E+09 -2.80823499611E-01 +4.78719183158E-01 +7.46322648000E-03 +5.29973871304E-03 +7.51059734279E-03 +5.07645466179E-03 -2.05067586812E-01 +5.11974037148E-01
4.52000000000E+09 -2.71236090063E-01 +4.86625736861E-01 +8.29129295354E-03 +4.17307788312E-03 +8.30544075346E-03 +3.96618617011E-03 -1.90939699636E-01 +5.24294104105E-01
4.52500000000E+09 -2.59905115173E-01 +4.95201958439E-01 +8.10134789010E-03 +2.68225463902E-03 +8.05312824520E-03 +2.45943672728E-03 -1.75957798121E-01 +5.34730741244E-01
4.53000000000E+09 -2.45958657874E-01 +5.04973371510E-01 +7.98044352286E-03 +2.51991478541E-03 +7.82908933750E-03 +2.26705459339E-03 -1.62323589703E-01 +5.45176716113E-01
4.53500000000E+09 -2.29542544862E-01 +5.14946699061E-01 +8.31518592398E-03 +1.93202204753E-03 +8.19847749051E-03 +1.66765135968E-03 -1.47134168524E-01 +5.55400577070E-01
4.54000000000E+09 -2.12828065886E-01 +5.25284147419E-01 +8.74724818327E-03 +1.01192080717E-03 +8.59675806987E-03 +8.00158961852E-04 -1.31488674005E-01 +5.66290717998E-01
4.54500000000E+09 -1.96432303414E-01 +5.36200578269E-01 +9.11404147231E-03 -2.10745843395E-04 +8.86608412937E-03 -4.21792494364E-04 -1.14459743179E-01 +5.74900479926E-01
4.55000000000E+09 -1.81716506362E-01 +5.46980331211E-01 +8.87053869938E-03 -1.52929719720E-03 +8.62771718999E-03 -1.70966194064E-03 -9.87163028092E-02 +5.83526229325E-01
4.55500000000E+09 -1.69575423491E-01 +5.57717208512E-01 +8.15690691151E-03 -3.41383614897E-03 +7.88601979999E-03 -3.41513692032E-03 -8.39123525816E-02 +5.90834403513E-01
4.56000000000E+09 -1.58553878072E-01 +5.68670918330E-01 +6.49131898965E-03 -3.74046501779E-03 +6.22334681116E-03 -3.79502073428E-03 -7.05782088535E-02 +5.99651923934E-01
4.56500000000E+09 -1.48390136834E-01 +5.78570882834E-01 +5.89238716416E-03 -3.46533445709E-03 +5.69037686575E-03 -3.51266505072E-03 -5.50749729442E-02 +6.07931907676E-01
4.57000000000E+09 -1.38323511158E-01 +5.87279502967E-01 +5.81036455390E-03 -3.47814924949E-03 +5.56622971741E-03 -3.52516594126E-03 -3.91886175653E-02 +6.14551537336E-01
