# Hz S RI R 50
! CMT, C1220, 16058040, 17.2.0/1
! Date: 15/08/2018 11:34:38
! Data: Format (Calibration Info)
! Freq                      S11: Re/Im (F2)                       S21: Re/Im (F2)                       S12: Re/Im (F2)                       S22: Re/Im (F2)            
4.00000000000E+09 +6.67640361588E-01 -3.55049763246E-01 +1.17867025208E-03 -2.12864733801E-03 +1.35531730748E-03 -2.13827268801E-03 +7.75200920905E-01 -3.53548363177E-01
4.00500000000E+09 +6.59911380156E-01 -3.62996073869E-01 +8.67768388201E-04 -2.41690019856E-03 +9.59113953728E-04 -2.45866352705E-03 +7.66964063021E-01 -3.64919342113E-01
4.01000000000E+09 +6.51329328883E-01 -3.70393473108E-01 +3.89343498764E-04 -2.49005025096E-03 +4.63078819217E-04 -2.52339037367E-03 +7.58059578232E-01 -3.76482869016E-01
4.01500000000E+09 +6.42480049197E-01 -3.78187233109E-01 -7.46248202819E-05 -2.30257458023E-03 +3.60395708417E-05 -2.40072544943E-03 +7.48111366657E-01 -3.86945116164E-01
4.02000000000E+09 +6.32341898753E-01 -3.87074148840E-01 +2.55716088878E-05 -2.13003591542E-03 +7.31393466061E-05 -2.18044081415E-03 +7.38449019114E-01 -3.97210827881E-01
4.02500000000E+09 +6.21034394952E-01 -3.96453923752E-01 -6.60594680400E-05 -2.29490694431E-03 +2.01759844682E-05 -2.30289957937E-03 +7.28354232984E-01 -4.07420768617E-01
4.03000000000E+09 +6.09097700341E-01 -4.05921690235E-01 -2.81153034168E-04 -2.46249571490E-03 -1.74813769279E-04 -2.49656217322E-03 +7.18139671431E-01 -4.18223304871E-01
4.03500000000E+09 +5.97353130542E-01 -4.15314943922E-01 -6.93839797608E-04 -2.40010195747E-03 -6.28181908229E-04 -2.45206562650E-03 +7.06974376653E-01 -4.29438626088E-01
4.04000000000E+09 +5.86015478525E-01 -4.25062336366E-01 -7.77990881079E-04 -2.16969145025E-03 -6.73127696405E-04 -2.30440050010E-03 +6.95596631295E-01 -4.40519835810E-01
4.04500000000E+09 +5.74551291357E-01 -4.34443942772E-01 -9.66415776555E-04 -2.22021907383E-03 -9.64361626345E-04 -2.35868707248E-03 +6.83669344666E-01 -4.51148978546E-01
4.05000000000E+09 +5.63102798251E-01 -4.43467672099E-01 -1.10674814797E-03 -2.26627462580E-03 -1.12479410772E-03 -2.41468046427E-03 +6.72092737785E-01 -4.60959629362E-01
4.05500000000E+09 +5.51061648336E-01 -4.51936046862E-01 -1.27795331222E-03 -2.37627421175E-03 -1.29120049640E-03 -2.48302763791E-03 +6.59921397519E-01 -4.70633045056E-01
4.06000000000E+09 +5.37773800298E-01 -4.59521410046E-01 -1.98578155118E-03 -2.34893352086E-03 -2.01210347860E-03 -2.49994934700E-03 +6.47552372167E-01 -4.80319951501E-01
4.06500000000E+09 +5.24139931247E-01 -4.65307091159E-01 -2.38260096410E-03 -1.69221692602E-03 -2.46559202989E-03 -1.77977269995E-03 +6.34077917603E-01 -4.89497373046E-01
4.07000000000E+09 +5.10605562698E-01 -4.71899746003E-01 -1.99972315872E-03 -1.51822197329E-03 -2.06912153273E-03 -1.56374311904E-03 +6.20287705142E-01 -4.98988531430E-01
4.07500000000E+09 +4.95309969440E-01 -4.78982744933E-01 -2.26332182867E-03 -1.59193196330E-03 -2.28681346931E-03 -1.68411350949E-03 +6.06818671681E-01 -5.08106325572E-01
4.08000000000E+09 +4.79424359418E-01 -4.85640782849E-01 -2.53698307866E-03 -1.40832402710E-03 -2.57930897417E-03 -1.46180194419E-03 +5.93134281682E-01 -5.17747241006E-01
4.08500000000E+09 +4.63312532211E-01 -4.92843532638E-01 -2.77448158611E-03 -1.18214135176E-03 -2.78054905482E-03 -1.29462577608E-03 +5.79107363247E-01 -5.27275356623E-01
4.09000000000E+09 +4.46784891214E-01 -5.00509666774E-01 -3.03627160938E-03 -7.35716174883E-04 -3.16518997502E-03 -7.96691949971E-04 +5.64574217173E-01 -5.35965179029E-01
4.09500000000E+09 +4.30355967279E-01 -5.07412751238E-01 -2.96357086792E-03 -2.21860169916E-04 -3.08740307653E-03 -2.56763658886E-04 +5.49315875734E-01 -5.43750357230E-01
4.10000000000E+09 +4.15004518249E-01 -5.14279399762E-01 -2.43712579576E-03 -2.40364924026E-04 -2.51747657892E-03 -2.28985652344E-04 +5.33547818245E-01 -5.50886606344E-01
4.10500000000E+09 +3.98427278518E-01 -5.20826030605E-01 -2.85119365544E-03 -4.68492623446E-04 -2.91040012003E-03 -5.12182506816E-04 +5.17257856144E-01 -5.58019969278E-01
4.11000000000E+09 +3.81782369648E-01 -5.24730624763E-01 -3.33968022874E-03 +3.94187095436E-05 -3.44730934793E-03 -5.16508232603E-05 +5.00218356899E-01 -5.65968269046E-01
4.11500000000E+09 +3.65920838085E-01 -5.27374748242E-01 -3.35665786267E-03 +6.93149790139E-04 -3.38828058533E-03 +6.56619515208E-04 +4.82406695546E-01 -5.73366335410E-01
4.12000000000E+09 +3.49503750526E-01 -5.29796880466E-01 -3.13088484222E-03 +1.09244410334E-03 -3.22229752935E-03 +1.06999423385E-03 +4.64983254649E-01 -5.79905661600E-01
4.12500000000E+09 +3.32997850384E-01 -5.31435089968E-01 -2.94624169429E-03 +1.48865354845E-03 -3.05354357242E-03 +1.45872768925E-03 +4.48193766213E-01 -5.85664617427E-01
4.13000000000E+09 +3.15680972918E-01 -5.34473371932E-01 -2.29887627301E-03 +1.48912354351E-03 -2.37355714171E-03 +1.43701385579E-03 +4.31092319641E-01 -5.91773160727E-01
4.13500000000E+09 +2.96095502186E-01 -5.38102734602E-01 -2.35989583023E-03 +1.24705196194E-03 -2.45129205452E-03 +1.20749334860E-03 +4.12749428414E-01 -5.97573942549E-01
4.14000000000E+09 +2.75760960564E-01 -5.40885841834E-01 -2.63873787559E-03 +1.27493880339E-03 -2.74254483147E-03 +1.22152618425E-03 +3.92686321833E-01 -6.02830409147E-01
4.14500000000E+09 +2.56160015281E-01 -5.43535580656E-01 -2.95982579437E-03 +1.88013171037E-03 -3.12639869102E-03 +1.91097547966E-03 +3.72595327503E-01 -6.06972155614E-01
4.15000000000E+09 +2.37234232606E-01 -5.47719881825E-01 -2.34346846707E-03 +2.20720723679E-03 -2.47498624502E-03 +2.25631448782E-03 +3.53588075801E-01 -6.10980861255E-01
4.15500000000E+09 +2.17846162375E-01 -5.50625524657E-01 -2.59452460272E-03 +2.31823304645E-03 -2.68168998038E-03 +2.38389471936E-03 +3.34247644592E-01 -6.15081357409E-01
4.16000000000E+09 +2.00429153284E-01 -5.52892443063E-01 -2.45410432158E-03 +2.88283146190E-03 -2.57000887177E-03 +2.94128694812E-03 +3.14583935373E-01 -6.18345997919E-01
4.16500000000E+09 +1.83261755408E-01 -5.54295244522E-01 -1.94390484516E-03 +3.26326147969E-03 -2.05476687347E-03 +3.24038630144E-03 +2.93923425036E-01 -6.20094867722E-01
4.17000000000E+09 +1.65710284929E-01 -5.54015426388E-01 -1.97685915546E-03 +3.42468512495E-03 -2.08709341512E-03 +3.45155927884E-03 +2.73631791331E-01 -6.20443752741E-01
4.17500000000E+09 +1.48583701708E-01 -5.51304520357E-01 -1.35813256578E-03 +4.10402437988E-03 -1.47436835066E-03 +4.19643768217E-03 +2.53444910747E-01 -6.21010107568E-01
4.18000000000E+09 +1.31241773913E-01 -5.47750529173E-01 -3.63509836223E-04 +3.85841778325E-03 -4.68997329655E-04 +4.00663894816E-03 +2.32331843757E-01 -6.22217983822E-01
4.18500000000E+09 +1.12197201682E-01 -5.43445828752E-01 -5.78029807809E-04 +3.28524006224E-03 -6.14437344366E-04 +3.41811894526E-03 +2.09194287106E-01 -6.22565677770E-01
4.19000000000E+09 +9.24175204854E-02 -5.37856718114E-01 -9.78929078408E-04 +3.58694857111E-03 -1.05923945895E-03 +3.74737118257E-03 +1.86488203341E-01 -6.21118018914E-01
4.19500000000E+09 +7.26776453441E-02 -5.32788180729E-01 -8.11910309922E-04 +4.53870571269E-03 -8.21395605288E-04 +4.62672980597E-03 +1.64376232764E-01 -6.18616417209E-01
4.20000000000E+09 +5.17712619037E-02 -5.28683036517E-01 -2.44969612072E-05 +5.06885933518E-03 -1.48202176603E-04 +5.21844727781E-03 +1.42895962593E-01 -6.15988080733E-01
4.20500000000E+09 +3.02530808677E-02 -5.24677504568E-01 +1.19368305865E-03 +5.45619593920E-03 +1.14770123238E-03 +5.61000736365E-03 +1.20418958346E-01 -6.12615436611E-01
4.21000000000E+09 +9.43612622755E-03 -5.20009506561E-01 +2.46929736442E-03 +4.86623410090E-03 +2.52878898740E-03 +5.05548863445E-03 +9.73400793049E-02 -6.08241417688E-01
4.21500000000E+09 -1.03765508847E-02 -5.15478526875E-01 +2.50040847929E-03 +3.80425299953E-03 +2.61368997216E-03 +3.98803800959E-03 +7.44264895404E-02 -6.02598512232E-01
4.22000000000E+09 -2.90599744068E-02 -5.09128999674E-01 +2.51723031996E-03 +3.65119652448E-03 +2.64698562633E-03 +3.78661777134E-03 +5.28001792858E-02 -5.96399328599E-01
4.22500000000E+09 -4.55234440269E-02 -5.02104507058E-01 +2.73636104989E-03 +3.57991273924E-03 +2.83789381038E-03 +3.68667943169E-03 +3.15270658118E-02 -5.90366917886E-01
4.23000000000E+09 -6.18760711946E-02 -4.94472767293E-01 +3.06482329731E-03 +3.46222634326E-03 +3.14991395311E-03 +3.48577685944E-03 +1.10097157631E-02 -5.83715036100E-01
4.23500000000E+09 -7.91054135104E-02 -4.84280774712E-01 +3.31788672087E-03 +3.40854476494E-03 +3.41280339579E-03 +3.49575792298E-03 -1.14248774653E-02 -5.76846778520E-01
4.24000000000E+09 -9.61222229933E-02 -4.72592504503E-01 +3.84615526356E-03 +3.38565805769E-03 +3.96622604397E-03 +3.48894994388E-03 -3.40152015670E-02 -5.67278699083E-01
4.24500000000E+09 -1.13959622270E-01 -4.59817903125E-01 +4.33643177186E-03 +2.97790663475E-03 +4.44880546064E-03 +2.96742577617E-03 -5.60375664659E-02 -5.55953503066E-01
4.25000000000E+09 -1.33234503466E-01 -4.46533309877E-01 +4.89994897716E-03 +2.92583531855E-03 +5.00115649380E-03 +2.95297136721E-03 -7.64521897664E-02 -5.45227503317E-01
4.25500000000E+09 -1.52954114615E-01 -4.33281234713E-01 +5.63766082256E-03 +2.20420592973E-03 +5.72493984858E-03 +2.22267475855E-03 -9.68562887159E-02 -5.33909630574E-01
4.26000000000E+09 -1.73096982928E-01 -4.21011531120E-01 +6.19765671702E-03 +1.17640290712E-03 +6.38806820242E-03 +1.11805643082E-03 -1.17438917348E-01 -5.22113775393E-01
4.26500000000E+09 -1.93932922109E-01 -4.09322454267E-01 +5.78453342902E-03 +4.16091442957E-04 +5.90353233118E-03 +3.39394124346E-04 -1.37443546883E-01 -5.08389478060E-01
4.27000000000E+09 -2.13532828361E-01 -3.96843299979E-01 +5.67191422797E-03 -1.05111049959E-04 +5.77549216619E-03 -1.92263262295E-04 -1.58249280950E-01 -4.94144964536E-01
4.27500000000E+09 -2.31300088905E-01 -3.85051581801E-01 +5.58156045183E-03 -7.15149291997E-04 +5.62866283667E-03 -7.43279130737E-04 -1.78019017895E-01 -4.78171190394E-01
4.28000000000E+09 -2.47639104882E-01 -3.72553229277E-01 +5.49955944028E-03 -5.36216476548E-04 +5.58758731613E-03 -5.89615300252E-04 -1.97114216002E-01 -4.64356366638E-01
4.28500000000E+09 -2.61920492564E-01 -3.59408508452E-01 +6.30219131068E-03 -9.18154236965E-04 +6.31152743375E-03 -9.98823792009E-04 -2.19010726480E-01 -4.48681062373E-01
4.29000000000E+09 -2.74802924638E-01 -3.44803361970E-01 +6.75754050723E-03 -2.49324873454E-03 +6.79112936643E-03 -2.55604061289E-03 -2.38278743610E-01 -4.30200424059E-01
4.29500000000E+09 -2.86950118767E-01 -3.29287626668E-01 +5.57416332736E-03 -3.51337577862E-03 +5.61437896647E-03 -3.55773336585E-03 -2.54409380581E-01 -4.10673330056E-01
4.30000000000E+09 -2.99455371020E-01 -3.12183083950E-01 +5.77449675129E-03 -3.73585478596E-03 +5.86017678819E-03 -3.79246814356E-03 -2.69630792170E-01 -3.93053623097E-01
4.30500000000E+09 -3.12514572363E-01 -2.94062916199E-01 +5.01503709818E-03 -4.96909539077E-03 +5.07762792921E-03 -5.04850245193E-03 -2.85175721378E-01 -3.74614488835E-01
4.31000000000E+09 -3.25771531256E-01 -2.74260721810E-01 +4.23628900314E-03 -5.18162501583E-03 +4.29052024303E-03 -5.27930463783E-03 -3.01066900331E-01 -3.54809716510E-01
4.31500000000E+09 -3.38855292853E-01 -2.54345577251E-01 +3.98262990360E-03 -5.60327084406E-03 +4.02972602255E-03 -5.71240133292E-03 -3.16560491199E-01 -3.33447410414E-01
4.32000000000E+09 -3.51026156411E-01 -2.34911978708E-01 +3.13580253789E-03 -6.56190810816E-03 +3.16837599192E-03 -6.70752158958E-03 -3.29697423817E-01 -3.11410821492E-01
4.32500000000E+09 -3.61983622656E-01 -2.17007553396E-01 +1.52473179071E-03 -6.43895070740E-03 +1.49451979061E-03 -6.52836391841E-03 -3.41741569597E-01 -2.89908121352E-01
4.33000000000E+09 -3.73155828649E-01 -2.00183930434E-01 +1.82303091826E-03 -5.51780867286E-03 +1.80799288240E-03 -5.63694443537E-03 -3.53633429745E-01 -2.69955800980E-01
4.33500000000E+09 -3.83241977174E-01 -1.82380417280E-01 +1.94478158618E-03 -6.23033578666E-03 +1.83342030347E-03 -6.35960512487E-03 -3.66208023572E-01 -2.46602807214E-01
4.34000000000E+09 -3.91022151445E-01 -1.63502319028E-01 +1.48601922407E-03 -6.98424378779E-03 +1.41560803764E-03 -7.06924714427E-03 -3.77356932822E-01 -2.21961181391E-01
4.34500000000E+09 -3.96407213361E-01 -1.43785207277E-01 +6.01936196512E-04 -8.02303570138E-03 +4.82304109724E-04 -8.06051697382E-03 -3.85619634924E-01 -1.96735151389E-01
4.35000000000E+09 -4.00083048820E-01 -1.23037578245E-01 -1.20973247114E-03 -8.34643620316E-03 -1.29069365395E-03 -8.33208202780E-03 -3.94396980169E-01 -1.73355848427E-01
4.35500000000E+09 -4.02965209924E-01 -1.01682385720E-01 -2.79434091500E-03 -7.50752505990E-03 -2.86675881013E-03 -7.52699598427E-03 -4.03667994684E-01 -1.50627266253E-01
4.36000000000E+09 -4.06353724118E-01 -8.01015112272E-02 -2.81504153716E-03 -6.25990281918E-03 -2.89057130562E-03 -6.30974281108E-03 -4.12438453682E-01 -1.27016860909E-01
4.36500000000E+09 -4.11636447019E-01 -5.68442125897E-02 -3.19648504968E-03 -6.60567543471E-03 -3.41801890682E-03 -6.70017012356E-03 -4.18467973600E-01 -1.01499901099E-01
4.37000000000E+09 -4.16939260877E-01 -3.23203285660E-02 -3.71769361680E-03 -6.23476374430E-03 -3.89154495960E-03 -6.21608276629E-03 -4.22100732239E-01 -7.64520599621E-02
4.37500000000E+09 -4.21344702925E-01 -8.87150788724E-03 -4.42477286056E-03 -6.46486410775E-03 -4.60106716970E-03 -6.42124693491E-03 -4.23491214014E-01 -5.20058733698E-02
4.38000000000E+09 -4.25737224474E-01 +1.28782220185E-02 -5.57912485584E-03 -5.78780714132E-03 -5.71869225569E-03 -5.70511323399E-03 -4.27594826547E-01 -2.86725698583E-02
4.38500000000E+09 -4.29387991541E-01 +3.33969479205E-02 -6.41143343330E-03 -5.16771810175E-03 -6.51995505918E-03 -5.08922987448E-03 -4.30792516857E-01 -2.41558575463E-03
4.39000000000E+09 -4.31861335441E-01 +5.19821131979E-02 -6.67581364674E-03 -4.52363166281E-03 -6.83197080903E-03 -4.40774590262E-03 -4.32430144791E-01 +2.48190114275E-02
4.39500000000E+09 -4.32878646009E-01 +6.92592246355E-02 -7.82869552755E-03 -4.11726168235E-03 -7.92784754496E-03 -3.93340579680E-03 -4.30854884496E-01 +5.02678491940E-02
4.40000000000E+09 -4.32775211251E-01 +8.69379513757E-02 -8.62367052494E-03 -2.48032659679E-03 -8.73170045269E-03 -2.29638024442E-03 -4.28667274364E-01 +7.37123056078E-02
4.40500000000E+09 -4.30228356274E-01 +1.05183070717E-01 -8.73362901225E-03 -1.38260682768E-03 -8.76241342921E-03 -1.20690576940E-03 -4.26609643818E-01 +9.69161514762E-02
4.41000000000E+09 -4.26788100986E-01 +1.24284955090E-01 -8.36371526270E-03 +6.04715819631E-04 -8.39455970872E-03 +7.22618289858E-04 -4.24708036859E-01 +1.19786236847E-01
4.41500000000E+09 -4.23126958603E-01 +1.45545164465E-01 -7.54877257547E-03 +9.56202199654E-04 -7.58357540743E-03 +1.10923424333E-03 -4.21023446395E-01 +1.45693563380E-01
4.42000000000E+09 -4.17715925620E-01 +1.68070366525E-01 -7.42798584218E-03 +1.19584097095E-03 -7.35950239016E-03 +1.35023331952E-03 -4.14495200176E-01 +1.70196114219E-01
4.42500000000E+09 -4.13614248381E-01 +1.89992973435E-01 -7.55380289044E-03 +1.67515830466E-03 -7.37585720247E-03 +1.80871212710E-03 -4.07663733658E-01 +1.91760819838E-01
4.43000000000E+09 -4.10147035023E-01 +2.12313781001E-01 -7.95634856217E-03 +2.37952977792E-03 -7.78814720853E-03 +2.52047346466E-03 -4.03923694786E-01 +2.14316755826E-01
4.43500000000E+09 -4.07077167806E-01 +2.33142815079E-01 -7.96819639662E-03 +4.12179052320E-03 -7.80761479704E-03 +4.15751475148E-03 -3.97876370678E-01 +2.38322557409E-01
4.44000000000E+09 -4.04734799986E-01 +2.51973327901E-01 -6.87697559585E-03 +5.99504419395E-03 -6.68599669234E-03 +6.03930222560E-03 -3.88979004525E-01 +2.61604724363E-01
4.44500000000E+09 -4.02589616927E-01 +2.69040873975E-01 -4.93048952333E-03 +5.78344253753E-03 -4.82266310253E-03 +5.81789674912E-03 -3.78301651407E-01 +2.82242262582E-01
4.45000000000E+09 -3.99588269154E-01 +2.84763174776E-01 -4.35754683105E-03 +5.53419760395E-03 -4.25408013693E-03 +5.55205751285E-03 -3.68619887440E-01 +3.00625120551E-01
4.45500000000E+09 -3.94385826891E-01 +2.99569553087E-01 -4.72340940928E-03 +5.64479882779E-03 -4.64435571147E-03 +5.73755305372E-03 -3.59591780849E-01 +3.19329537979E-01
4.46000000000E+09 -3.87285295945E-01 +3.13800983332E-01 -4.01175470044E-03 +6.84164103801E-03 -3.87126818664E-03 +7.02720355854E-03 -3.50641377469E-01 +3.40472894767E-01
4.46500000000E+09 -3.77294966069E-01 +3.29046187582E-01 -3.04759993397E-03 +7.32428052050E-03 -2.81999498721E-03 +7.38002279442E-03 -3.37266109745E-01 +3.59713423921E-01
4.47000000000E+09 -3.64799876476E-01 +3.43439772641E-01 -1.77658714790E-03 +7.29228964767E-03 -1.57668428608E-03 +7.34137667573E-03 -3.24468041428E-01 +3.77475111957E-01
4.47500000000E+09 -3.53253465319E-01 +3.58556945987E-01 -1.29561909420E-03 +6.59831114225E-03 -1.07446543598E-03 +6.59267300304E-03 -3.12198982883E-01 +3.93457598234E-01
4.48000000000E+09 -3.42065241581E-01 +3.76290107629E-01 -1.59264566783E-03 +7.26414622761E-03 -1.38570549466E-03 +7.20266993789E-03 -3.01250150726E-01 +4.11212171436E-01
4.48500000000E+09 -3.30732063083E-01 +3.95365486362E-01 -2.75535130634E-04 +8.08058041296E-03 -6.10764361087E-05 +7.89821899519E-03 -2.88795713501E-01 +4.28760921306E-01
4.49000000000E+09 -3.20498816093E-01 +4.13345523506E-01 +1.11996188637E-03 +8.34098845635E-03 +1.28275205896E-03 +8.04247542967E-03 -2.74665517458E-01 +4.45568063116E-01
4.49500000000E+09 -3.11555310721E-01 +4.31171262098E-01 +2.47112550211E-03 +7.33968746636E-03 +2.52205474493E-03 +7.10935709961E-03 -2.59340983512E-01 +4.59311152541E-01
4.50000000000E+09 -3.03121418543E-01 +4.46482212000E-01 +2.96871975646E-03 +6.52462437197E-03 +2.97648925721E-03 +6.38146309654E-03 -2.45480087164E-01 +4.72145860883E-01
4.50500000000E+09 -2.96241618818E-01 +4.59578304271E-01 +3.43660198908E-03 +6.00274706801E-03 +3.44102173640E-03 +5.82500143895E-03 -2.32096763731E-01 +4.84455992004E-01
4.51000000000E+09 -2.89036278683E-01 +4.70872586114E-01 +3.37236004220E-03 +5.57082282327E-03 +3.39670333376E-03 +5.38394308012E-03 -2.19469461093E-01 +4.99099128870E-01
4.51500000000E+09 -2.80173557223E-01 +4.80274602122E-01 +3.98695795946E-03 +5.98375798943E-03 +3.95184053627E-03 +5.75186967378E-03 -2.04646915796E-01 +5.12374392551E-01
4.52000000000E+09 -2.70318291503E-01 +4.88051615706E-01 +5.25984215314E-03 +5.44143468946E-03 +5.25305066200E-03 +5.19958302175E-03 -1.89899720895E-01 +5.24316222271E-01
4.52500000000E+09 -2.58614044643E-01 +4.96681314507E-01 +5.65162279107E-03 +3.89875911362E-03 +5.56931600538E-03 +3.68087884361E-03 -1.75971872868E-01 +5.34240120508E-01
4.53000000000E+09 -2.44616739292E-01 +5.06127219865E-01 +5.58769602050E-03 +3.70634623193E-03 +5.51014522594E-03 +3.52329446929E-03 -1.62266488289E-01 +5.45403384427E-01
4.53500000000E+09 -2.27896196018E-01 +5.16231004261E-01 +5.88998738956E-03 +3.20215670565E-03 +5.78702117755E-03 +2.98257625135E-03 -1.46831362934E-01 +5.55781958981E-01
4.54000000000E+09 -2.10893705916E-01 +5.26054399171E-01 +6.23972818390E-03 +2.72377597957E-03 +6.11409827407E-03 +2.55643310971E-03 -1.30590728158E-01 +5.66765334114E-01
4.54500000000E+09 -1.94788655451E-01 +5.36581423757E-01 +6.92232500002E-03 +1.86411039572E-03 +6.77753692735E-03 +1.71393477417E-03 -1.13489280105E-01 +5.74682623147E-01
4.55000000000E+09 -1.80483091792E-01 +5.47208294251E-01 +7.04797175930E-03 +6.16707575154E-04 +6.84240319951E-03 +5.25025889721E-04 -9.82580527560E-02 +5.82713932138E-01
4.55500000000E+09 -1.68343235634E-01 +5.58189543648E-01 +6.57066842710E-03 -1.09901109163E-03 +6.34200171928E-03 -1.13766470193E-03 -8.41081722449E-02 +5.90602989550E-01
4.56000000000E+09 -1.57509809645E-01 +5.69344981280E-01 +4.96060881119E-03 -1.14299211260E-03 +4.87216097249E-03 -1.20268475037E-03 -7.00623653424E-02 +5.99863389035E-01
4.56500000000E+09 -1.46981511204E-01 +5.79691178185E-01 +4.66853127518E-03 -9.05633541899E-04 +4.55203534043E-03 -9.59248103319E-04 -5.43610190438E-02 +6.07858116887E-01
4.57000000000E+09 -1.36434599342E-01 +5.88177502671E-01 +4.95641334596E-03 -4.73804299551E-04 +4.80831967295E-03 -4.89808401403E-04 -3.83974926790E-02 +6.13970213569E-01
