# Hz S RI R 50
! CMT, C1220, 16058040, 17.2.0/1
! Date: 15/08/2018 11:32:11
! Data: Format (Calibration Info)
! Freq                      S11: Re/Im (F2)                       S21: Re/Im (F2)                       S12: Re/Im (F2)                       S22: Re/Im (F2)            
4.00000000000E+09 +6.66341154900E-01 -3.55690126009E-01 +1.56522116849E-03 -3.43718303472E-03 +1.75311129258E-03 -3.48751229714E-03 +7.74669034941E-01 -3.55225127261E-01
4.00500000000E+09 +6.58234572743E-01 -3.63848447949E-01 +1.35797692207E-03 -3.82120642106E-03 +1.46432249506E-03 -3.89697995207E-03 +7.66120906350E-01 -3.66416498283E-01
4.01000000000E+09 +6.49649088791E-01 -3.70939433266E-01 +7.32572005793E-04 -4.09983586493E-03 +8.54784760802E-04 -4.11298680730E-03 +7.57279465933E-01 -3.77643643472E-01
4.01500000000E+09 +6.40395706811E-01 -3.78369561175E-01 +3.67607146574E-05 -4.12425449848E-03 +1.88072860000E-04 -4.15059747065E-03 +7.47762003671E-01 -3.88280418127E-01
4.02000000000E+09 +6.30541918606E-01 -3.86846682526E-01 -2.10769539456E-04 -3.93545848131E-03 -5.15583056105E-05 -3.99137492161E-03 +7.37933989516E-01 -3.98788253783E-01
4.02500000000E+09 +6.19751806260E-01 -3.95842083350E-01 -4.32080213918E-04 -3.93408146078E-03 -3.24095611663E-04 -4.05054361429E-03 +7.27626064099E-01 -4.09156795969E-01
4.03000000000E+09 +6.08015252520E-01 -4.05729477346E-01 -7.38025465949E-04 -4.11802764146E-03 -6.42683272870E-04 -4.26286781913E-03 +7.17278569915E-01 -4.19673756925E-01
4.03500000000E+09 +5.96230757630E-01 -4.15175112708E-01 -1.41867172085E-03 -4.12293974811E-03 -1.33391072703E-03 -4.28085444760E-03 +7.06305405528E-01 -4.30831947492E-01
4.04000000000E+09 +5.84959779664E-01 -4.25117619026E-01 -1.67292582018E-03 -3.79826547946E-03 -1.55600247332E-03 -3.96894924515E-03 +6.94840406257E-01 -4.41990747330E-01
4.04500000000E+09 +5.73154209482E-01 -4.34687100399E-01 -2.09551794139E-03 -3.77101706045E-03 -2.02642363661E-03 -3.98422094993E-03 +6.83008260623E-01 -4.52740731064E-01
4.05000000000E+09 +5.61612586986E-01 -4.43344423733E-01 -2.43162495726E-03 -3.56206003995E-03 -2.38229859539E-03 -3.83993244260E-03 +6.71192418550E-01 -4.62548490960E-01
4.05500000000E+09 +5.49876953776E-01 -4.51674913034E-01 -2.55999209151E-03 -3.49513143575E-03 -2.55344100914E-03 -3.76845193477E-03 +6.58827952149E-01 -4.72145842325E-01
4.06000000000E+09 +5.36873017363E-01 -4.59435306851E-01 -3.17789737664E-03 -3.64380576801E-03 -3.24387986795E-03 -3.89338133540E-03 +6.46434170098E-01 -4.81623817818E-01
4.06500000000E+09 +5.23113479089E-01 -4.65556604999E-01 -4.04258335843E-03 -3.03074696009E-03 -4.12249048927E-03 -3.23673748905E-03 +6.33289638070E-01 -4.90763715279E-01
4.07000000000E+09 +5.09625769007E-01 -4.72175587485E-01 -4.07049109622E-03 -2.54079723638E-03 -4.05311785488E-03 -2.62879140554E-03 +6.19543025463E-01 -5.00421943850E-01
4.07500000000E+09 +4.94279453137E-01 -4.79515647134E-01 -4.26139845740E-03 -2.14509672936E-03 -4.25823330496E-03 -2.33064368261E-03 +6.05638900367E-01 -5.09570161347E-01
4.08000000000E+09 +4.78229866475E-01 -4.86288546398E-01 -4.46608497793E-03 -1.82244845363E-03 -4.60881249604E-03 -2.07413707580E-03 +5.92048115141E-01 -5.18952289965E-01
4.08500000000E+09 +4.61952354861E-01 -4.93472081444E-01 -4.65341064425E-03 -1.39648836814E-03 -4.81496671258E-03 -1.59882106558E-03 +5.78093260768E-01 -5.28267723067E-01
4.09000000000E+09 +4.45326582761E-01 -5.00972974997E-01 -4.86456694472E-03 -1.02644859251E-03 -5.00772903941E-03 -1.17190822991E-03 +5.63680511149E-01 -5.37105940786E-01
4.09500000000E+09 +4.28745918840E-01 -5.07911408449E-01 -5.20299439069E-03 -4.93521234533E-04 -5.40495085276E-03 -6.13906809805E-04 +5.48260441374E-01 -5.45068741922E-01
4.10000000000E+09 +4.13321639974E-01 -5.14343943650E-01 -4.96097383499E-03 +8.05400762317E-05 -5.08340686958E-03 +7.48279844546E-05 +5.32249151688E-01 -5.52209454040E-01
4.10500000000E+09 +3.96984317751E-01 -5.20812875882E-01 -5.20354639630E-03 +2.20059112461E-04 -5.31022950459E-03 +1.78611161071E-04 +5.15868482136E-01 -5.59031718861E-01
4.11000000000E+09 +3.80484178357E-01 -5.25117699912E-01 -5.43912802867E-03 +9.61969298292E-04 -5.63806951562E-03 +9.00893483996E-04 +4.98959543559E-01 -5.66789801504E-01
4.11500000000E+09 +3.64322119222E-01 -5.28007535644E-01 -5.20378587300E-03 +1.72757142984E-03 -5.41651829251E-03 +1.61789638492E-03 +4.81474557338E-01 -5.74122904916E-01
4.12000000000E+09 +3.47673653815E-01 -5.30217670778E-01 -5.01782360047E-03 +2.16310871471E-03 -5.19321608748E-03 +2.16773874919E-03 +4.64079795557E-01 -5.80808024045E-01
4.12500000000E+09 +3.30855914006E-01 -5.31893991363E-01 -4.87457652932E-03 +2.83185627019E-03 -5.01900715134E-03 +2.78656397679E-03 +4.46898192214E-01 -5.86705088665E-01
4.13000000000E+09 +3.13394080597E-01 -5.34296336578E-01 -4.27659675301E-03 +3.25628143421E-03 -4.46597952026E-03 +3.21502851560E-03 +4.29724754084E-01 -5.92319623864E-01
4.13500000000E+09 +2.94461301690E-01 -5.37761211087E-01 -3.87748287859E-03 +3.23071219958E-03 -4.03530528345E-03 +3.25710487549E-03 +4.11713128253E-01 -5.98115817784E-01
4.14000000000E+09 +2.74461392861E-01 -5.41108051898E-01 -3.99922761228E-03 +3.33297374785E-03 -4.23034270040E-03 +3.27315793123E-03 +3.91711423678E-01 -6.03493634506E-01
4.14500000000E+09 +2.54469043240E-01 -5.44126347311E-01 -4.29748889153E-03 +4.12443382952E-03 -4.57621777561E-03 +4.17671002711E-03 +3.71433989132E-01 -6.07978930072E-01
4.15000000000E+09 +2.35441769920E-01 -5.48298389792E-01 -3.36717790737E-03 +4.88230360389E-03 -3.57194669780E-03 +5.04768985334E-03 +3.52006275545E-01 -6.11663881037E-01
4.15500000000E+09 +2.15778525337E-01 -5.51244124522E-01 -3.05113127942E-03 +5.03254078340E-03 -3.19515664048E-03 +5.25853301864E-03 +3.32746972412E-01 -6.15232343860E-01
4.16000000000E+09 +1.98086314573E-01 -5.53222356631E-01 -2.57601334451E-03 +5.53096296434E-03 -2.64087366479E-03 +5.71519188301E-03 +3.13437412249E-01 -6.18241451208E-01
4.16500000000E+09 +1.80781795552E-01 -5.54428719630E-01 -1.95845907377E-03 +5.65656271535E-03 -2.04961002332E-03 +5.80000618469E-03 +2.93333088560E-01 -6.20242717506E-01
4.17000000000E+09 +1.63231083803E-01 -5.53983695785E-01 -1.75282163990E-03 +5.88239655917E-03 -1.90942505652E-03 +5.98949957658E-03 +2.72871606453E-01 -6.21182593999E-01
4.17500000000E+09 +1.45580412375E-01 -5.51086784314E-01 -1.13972695732E-03 +6.52638837808E-03 -1.29888093117E-03 +6.65742194092E-03 +2.52225313514E-01 -6.21508030111E-01
4.18000000000E+09 +1.28718315611E-01 -5.46675775553E-01 +8.35501575980E-05 +6.82220565316E-03 -3.09403322109E-05 +7.05838482410E-03 +2.30989092192E-01 -6.22044365760E-01
4.18500000000E+09 +1.09986571998E-01 -5.43068179233E-01 +6.19897326930E-04 +6.13401914426E-03 +6.27166866807E-04 +6.32855567052E-03 +2.08547792007E-01 -6.22363556421E-01
4.19000000000E+09 +8.96155869692E-02 -5.37467910302E-01 +6.78901443711E-04 +6.08340475009E-03 +6.43986879475E-04 +6.25884401222E-03 +1.86059468935E-01 -6.21315873858E-01
4.19500000000E+09 +6.94151352755E-02 -5.31931833577E-01 +9.90248877322E-04 +6.42251507121E-03 +9.08454079776E-04 +6.63201886489E-03 +1.63722739279E-01 -6.19039849303E-01
4.20000000000E+09 +4.82979195598E-02 -5.27165988207E-01 +1.64761920760E-03 +6.84419807950E-03 +1.57615201654E-03 +7.09131659816E-03 +1.42006337043E-01 -6.16103263415E-01
4.20500000000E+09 +2.73033704566E-02 -5.22445787585E-01 +2.98990401868E-03 +7.22836285510E-03 +2.94791507259E-03 +7.46745392228E-03 +1.20087114218E-01 -6.12474168291E-01
4.21000000000E+09 +6.76745837546E-03 -5.17419406395E-01 +4.24204295997E-03 +6.75010257205E-03 +4.34282693984E-03 +6.99604536580E-03 +9.73429792455E-02 -6.08526285178E-01
4.21500000000E+09 -1.19467954476E-02 -5.12999941066E-01 +4.82515145028E-03 +5.58373495089E-03 +4.94693892365E-03 +5.77139670160E-03 +7.41075583704E-02 -6.03591815775E-01
4.22000000000E+09 -3.06771245205E-02 -5.07433207687E-01 +5.02719537585E-03 +5.16076994873E-03 +5.08695127742E-03 +5.31629936069E-03 +5.21181306018E-02 -5.97347751962E-01
4.22500000000E+09 -4.76008430219E-02 -5.00160718218E-01 +5.40929291766E-03 +5.00359894916E-03 +5.49060378694E-03 +5.14360910263E-03 +3.03144030825E-02 -5.91103180758E-01
4.23000000000E+09 -6.40547036125E-02 -4.92122631712E-01 +6.36997737821E-03 +4.70887673314E-03 +6.51171290280E-03 +4.83682976120E-03 +9.84641199510E-03 -5.83579683094E-01
4.23500000000E+09 -8.11433295853E-02 -4.81450683905E-01 +6.77887240313E-03 +3.86639161921E-03 +6.87260011785E-03 +3.99707498083E-03 -1.18897921834E-02 -5.76581925631E-01
4.24000000000E+09 -9.76931859656E-02 -4.69250275224E-01 +7.20207495525E-03 +3.42346722370E-03 +7.38314721760E-03 +3.54498143096E-03 -3.42333766945E-02 -5.67455842915E-01
4.24500000000E+09 -1.14829822509E-01 -4.56888956996E-01 +7.48015208928E-03 +2.51536134116E-03 +7.77043236792E-03 +2.54178394358E-03 -5.64197426161E-02 -5.56534348925E-01
4.25000000000E+09 -1.34336238192E-01 -4.43753980934E-01 +7.75068777090E-03 +2.35723016104E-03 +7.92364315678E-03 +2.42844189092E-03 -7.70023834071E-02 -5.45469747098E-01
4.25500000000E+09 -1.54066524385E-01 -4.30688608222E-01 +8.72037835442E-03 +1.84171929038E-03 +8.92479148052E-03 +1.85729340252E-03 -9.72858903107E-02 -5.34136358390E-01
4.26000000000E+09 -1.74401377257E-01 -4.17968676088E-01 +9.90830122028E-03 +2.73002589755E-04 +1.01235946216E-02 +2.23598391381E-04 -1.17762120727E-01 -5.22271070274E-01
4.26500000000E+09 -1.94994078115E-01 -4.06688528227E-01 +9.31994536876E-03 -1.49958818882E-03 +9.52397430274E-03 -1.56426831559E-03 -1.37784594543E-01 -5.08970486985E-01
4.27000000000E+09 -2.14928588300E-01 -3.94103337647E-01 +8.82965194159E-03 -2.51279563322E-03 +9.05222609998E-03 -2.69283909205E-03 -1.58806577518E-01 -4.94995858806E-01
4.27500000000E+09 -2.32711445159E-01 -3.81951375306E-01 +8.30363332314E-03 -3.70257228851E-03 +8.46446544122E-03 -3.86288801325E-03 -1.79225800917E-01 -4.78790525118E-01
4.28000000000E+09 -2.49025709967E-01 -3.69198728307E-01 +7.37185285011E-03 -3.85376012003E-03 +7.47504477820E-03 -4.06566029627E-03 -1.97937153466E-01 -4.64061199242E-01
4.28500000000E+09 -2.62909689888E-01 -3.55615061325E-01 +7.81452961510E-03 -3.88823361364E-03 +7.81910867111E-03 -4.02742711470E-03 -2.18886900344E-01 -4.48673910770E-01
4.29000000000E+09 -2.75536453221E-01 -3.40980708834E-01 +8.26061840678E-03 -5.55476202821E-03 +8.38806222131E-03 -5.65793134395E-03 -2.38375790948E-01 -4.31201033909E-01
4.29500000000E+09 -2.86903334410E-01 -3.25741042490E-01 +6.77462912117E-03 -7.18076385713E-03 +6.87183938763E-03 -7.33607722184E-03 -2.55633838427E-01 -4.11753616461E-01
4.30000000000E+09 -2.99772427309E-01 -3.09004297973E-01 +6.17038753953E-03 -7.32928714450E-03 +6.24410329704E-03 -7.51505147641E-03 -2.71075026632E-01 -3.93427353807E-01
4.30500000000E+09 -3.12961177638E-01 -2.90651010541E-01 +5.14931145409E-03 -8.25587404121E-03 +5.17044415578E-03 -8.45250057158E-03 -2.86102155245E-01 -3.74307693195E-01
4.31000000000E+09 -3.26271239384E-01 -2.70563141253E-01 +4.30245498469E-03 -8.53708013149E-03 +4.26137059252E-03 -8.70030189574E-03 -3.01338476436E-01 -3.54904837287E-01
4.31500000000E+09 -3.39087895928E-01 -2.50247677690E-01 +3.62516879687E-03 -9.11532409994E-03 +3.63549925755E-03 -9.24338275330E-03 -3.17110874390E-01 -3.34149210024E-01
4.32000000000E+09 -3.50599232339E-01 -2.30450087619E-01 +2.41555559709E-03 -9.99720778877E-03 +2.39144446946E-03 -1.02456018169E-02 -3.31163385261E-01 -3.11766661858E-01
4.32500000000E+09 -3.60803613316E-01 -2.12662248169E-01 +1.49452128306E-04 -1.00799001688E-02 +4.48104203789E-05 -1.02169143796E-02 -3.43040588553E-01 -2.89720707168E-01
4.33000000000E+09 -3.71648935290E-01 -1.96441979501E-01 -1.79254459821E-04 -8.37307957057E-03 -2.87987957376E-04 -8.47188960910E-03 -3.54286813792E-01 -2.69350361448E-01
4.33500000000E+09 -3.81620488875E-01 -1.78692900818E-01 +2.34196029040E-04 -8.75226882727E-03 +1.41342742187E-04 -8.82083845297E-03 -3.66550578995E-01 -2.46433910894E-01
4.34000000000E+09 -3.89104878232E-01 -1.59984091365E-01 -5.39571968770E-04 -9.68186199127E-03 -6.30325684370E-04 -9.74688293704E-03 -3.77778691295E-01 -2.22279311677E-01
4.34500000000E+09 -3.94288603391E-01 -1.40334080718E-01 -1.57624703695E-03 -1.03252755748E-02 -1.67374793815E-03 -1.03123943299E-02 -3.86964295352E-01 -1.96806410873E-01
4.35000000000E+09 -3.97530127414E-01 -1.19702533302E-01 -3.59356669083E-03 -1.07162306120E-02 -3.69365820891E-03 -1.08192088860E-02 -3.95473593753E-01 -1.72674560229E-01
4.35500000000E+09 -4.00186034644E-01 -9.86944909333E-02 -5.50801010818E-03 -9.61745722614E-03 -5.61052190916E-03 -9.66355091067E-03 -4.04125810126E-01 -1.49527382569E-01
4.36000000000E+09 -4.03650177608E-01 -7.74059462529E-02 -5.89396089540E-03 -8.06964969083E-03 -6.08359943006E-03 -8.14601343097E-03 -4.12297953388E-01 -1.26478180810E-01
4.36500000000E+09 -4.08560821299E-01 -5.40690321256E-02 -6.44604311039E-03 -8.18391064180E-03 -6.64523201222E-03 -8.20953507758E-03 -4.18606100840E-01 -1.01319560285E-01
4.37000000000E+09 -4.13517045564E-01 -2.99487866815E-02 -7.43563244685E-03 -7.37122049103E-03 -7.66220610440E-03 -7.36474529879E-03 -4.22473490962E-01 -7.62611161503E-02
4.37500000000E+09 -4.17438382860E-01 -7.11596888777E-03 -8.29908298566E-03 -7.02629343010E-03 -8.50959107876E-03 -6.89503536524E-03 -4.24113636586E-01 -5.12499728690E-02
4.38000000000E+09 -4.22454952159E-01 +1.38450356324E-02 -9.17623402034E-03 -5.66153074838E-03 -9.44375015524E-03 -5.59395173902E-03 -4.27185691806E-01 -2.80014311631E-02
4.38500000000E+09 -4.26545565754E-01 +3.44152512361E-02 -9.80814341184E-03 -4.57271873844E-03 -1.00664019718E-02 -4.41218900255E-03 -4.30475247650E-01 -2.46408440064E-03
4.39000000000E+09 -4.29363321008E-01 +5.33184608134E-02 -9.66101404542E-03 -3.82883854521E-03 -9.95574697296E-03 -3.61186088663E-03 -4.32539990021E-01 +2.46720370971E-02
4.39500000000E+09 -4.29924841955E-01 +7.09759283118E-02 -1.08006304012E-02 -3.41414226970E-03 -1.10319351000E-02 -3.13725413551E-03 -4.31370233589E-01 +5.08807473493E-02
4.40000000000E+09 -4.29021774185E-01 +8.85425902310E-02 -1.20020138100E-02 -1.56867330387E-03 -1.21066655337E-02 -1.26965043762E-03 -4.28581806533E-01 +7.45704049657E-02
4.40500000000E+09 -4.25871462217E-01 +1.05863167517E-01 -1.19867392472E-02 +5.50655542488E-05 -1.20002048507E-02 +3.65504284487E-04 -4.25858643669E-01 +9.75855823223E-02
4.41000000000E+09 -4.23167350039E-01 +1.24066024265E-01 -1.15273488457E-02 +2.52314257677E-03 -1.14390988135E-02 +2.75838419979E-03 -4.23706124600E-01 +1.19705851197E-01
4.41500000000E+09 -4.19932709832E-01 +1.45300907702E-01 -1.04893509855E-02 +3.25752148035E-03 -1.04286462610E-02 +3.57903208306E-03 -4.20700676666E-01 +1.44966218096E-01
4.42000000000E+09 -4.15068632595E-01 +1.67728717532E-01 -9.96796016288E-03 +3.95795883900E-03 -9.80130288534E-03 +4.24651168158E-03 -4.14712341418E-01 +1.69973160431E-01
4.42500000000E+09 -4.10993663233E-01 +1.90239890818E-01 -9.61069967270E-03 +4.64341795278E-03 -9.30982021459E-03 +4.87316643681E-03 -4.07640171996E-01 +1.92475330453E-01
4.43000000000E+09 -4.07296274779E-01 +2.12324796327E-01 -9.64039336512E-03 +5.53341436553E-03 -9.30588331925E-03 +5.67712029467E-03 -4.02895924247E-01 +2.14447494830E-01
4.43500000000E+09 -4.04162922663E-01 +2.32989849584E-01 -9.16178846871E-03 +7.17202824894E-03 -8.81614109182E-03 +7.18799141636E-03 -3.97108465442E-01 +2.37613370139E-01
4.44000000000E+09 -4.01708000094E-01 +2.51307794321E-01 -8.01936861423E-03 +8.97261405461E-03 -7.69348244447E-03 +8.91089304803E-03 -3.88958706056E-01 +2.60667200981E-01
4.44500000000E+09 -4.00010075715E-01 +2.68044456126E-01 -5.94259139231E-03 +8.87723622560E-03 -5.74735944061E-03 +8.87253229938E-03 -3.78586456242E-01 +2.82017523923E-01
4.45000000000E+09 -3.97224217765E-01 +2.83838553459E-01 -5.28973394451E-03 +8.86212972643E-03 -5.05442507007E-03 +8.83360028222E-03 -3.68401088634E-01 +3.00662186125E-01
4.45500000000E+09 -3.91951087468E-01 +2.98592199068E-01 -5.38782944054E-03 +9.43710748150E-03 -5.17931044826E-03 +9.51221717295E-03 -3.59008668623E-01 +3.19119202240E-01
4.46000000000E+09 -3.85011553338E-01 +3.12408632153E-01 -3.83868016606E-03 +1.09776441609E-02 -3.64655372656E-03 +1.09941567087E-02 -3.50178272990E-01 +3.39287424795E-01
4.46500000000E+09 -3.75388163190E-01 +3.27737221002E-01 -1.96909536198E-03 +1.12380736217E-02 -1.75619472637E-03 +1.12143430420E-02 -3.37645252193E-01 +3.58834626805E-01
4.47000000000E+09 -3.63250648829E-01 +3.42572959226E-01 -2.78340570452E-04 +1.07859796867E-02 -8.98000961160E-05 +1.06502390484E-02 -3.25168080978E-01 +3.76956001108E-01
4.47500000000E+09 -3.51262185824E-01 +3.58198675787E-01 +4.18703354332E-04 +9.83012827593E-03 +6.26562076398E-04 +9.70691763795E-03 -3.12485342968E-01 +3.93925605789E-01
4.48000000000E+09 -3.39589418189E-01 +3.75801015110E-01 +5.33233267362E-04 +1.00753876966E-02 +7.20350146615E-04 +9.88046083237E-03 -3.01210458776E-01 +4.11196915835E-01
4.48500000000E+09 -3.27696094868E-01 +3.93985310073E-01 +1.70797881016E-03 +1.05401091300E-02 +1.82195483301E-03 +1.03128640726E-02 -2.88435556025E-01 +4.28452827072E-01
4.49000000000E+09 -3.18287819266E-01 +4.11385917461E-01 +3.45596761687E-03 +1.08443221695E-02 +3.58845113642E-03 +1.05327697777E-02 -2.75023269711E-01 +4.44949046528E-01
4.49500000000E+09 -3.10137000741E-01 +4.29262844438E-01 +5.14197528986E-03 +9.67658906429E-03 +5.15733052360E-03 +9.43026750888E-03 -2.59646978351E-01 +4.59171513848E-01
4.50000000000E+09 -3.02350507325E-01 +4.44969160225E-01 +5.79267311390E-03 +8.62315107924E-03 +5.78726697025E-03 +8.44227670377E-03 -2.45900741098E-01 +4.72220275886E-01
4.50500000000E+09 -2.95505211465E-01 +4.59028713228E-01 +6.78773233555E-03 +7.86452906589E-03 +6.77404819989E-03 +7.69779105542E-03 -2.32143770808E-01 +4.84835607221E-01
4.51000000000E+09 -2.87507039866E-01 +4.70551877141E-01 +7.11566243405E-03 +6.83718027647E-03 +7.14185502582E-03 +6.65117825871E-03 -2.19427663117E-01 +4.98959981864E-01
4.51500000000E+09 -2.78478584298E-01 +4.79271934546E-01 +7.65145281384E-03 +6.25946386208E-03 +7.72029404091E-03 +6.05079759442E-03 -2.04967483808E-01 +5.12155143519E-01
4.52000000000E+09 -2.68656496063E-01 +4.87060253424E-01 +8.50521336554E-03 +5.28481011032E-03 +8.50406891030E-03 +5.05846663234E-03 -1.90826054133E-01 +5.24672600865E-01
4.52500000000E+09 -2.57303906826E-01 +4.95291747561E-01 +8.56319653209E-03 +3.80446868112E-03 +8.48707990545E-03 +3.52371701927E-03 -1.75872732033E-01 +5.35180762037E-01
4.53000000000E+09 -2.43535908518E-01 +5.04998569492E-01 +8.42994922958E-03 +3.43328450242E-03 +8.38946115552E-03 +3.15945485380E-03 -1.61829008331E-01 +5.45833429694E-01
4.53500000000E+09 -2.27217430098E-01 +5.15135814878E-01 +8.87255889211E-03 +2.89324800111E-03 +8.74841538992E-03 +2.60309999705E-03 -1.46389882377E-01 +5.55826296463E-01
4.54000000000E+09 -2.10314993827E-01 +5.25721373585E-01 +9.43858873039E-03 +1.96178934532E-03 +9.25983391527E-03 +1.66595537711E-03 -1.30739780757E-01 +5.66451287917E-01
4.54500000000E+09 -1.93673011236E-01 +5.36885323880E-01 +9.85617223738E-03 +6.63076152379E-04 +9.61954502998E-03 +3.70812555409E-04 -1.13814972860E-01 +5.75074419252E-01
4.55000000000E+09 -1.78608003746E-01 +5.47552455455E-01 +9.70750747241E-03 -8.01509110132E-04 +9.42201234666E-03 -1.01104126080E-03 -9.81722912993E-02 +5.83597009912E-01
4.55500000000E+09 -1.66156908908E-01 +5.58137719729E-01 +9.07531998493E-03 -2.73403692833E-03 +8.70372002993E-03 -2.81129755749E-03 -8.32727705992E-02 +5.91209040728E-01
4.56000000000E+09 -1.55266508175E-01 +5.68772645213E-01 +7.36212112891E-03 -3.12191580288E-03 +7.08171759856E-03 -3.19273536963E-03 -6.96334566169E-02 +5.99717890940E-01
4.56500000000E+09 -1.45042610878E-01 +5.78557193335E-01 +6.90550830524E-03 -2.82509901483E-03 +6.62629516924E-03 -2.90989697707E-03 -5.42368376141E-02 +6.07989326885E-01
4.57000000000E+09 -1.35204769272E-01 +5.87137510690E-01 +6.98086115111E-03 -2.94747733967E-03 +6.65103966905E-03 -3.04012711670E-03 -3.84252188086E-02 +6.14657844586E-01
