# Hz S RI R 50
! CMT, C1220, 16058040, 17.2.0/1
! Date: 15/08/2018 11:31:52
! Data: Format (Calibration Info)
! Freq                      S11: Re/Im (F2)                       S21: Re/Im (F2)                       S12: Re/Im (F2)                       S22: Re/Im (F2)            
4.00000000000E+09 +6.65204341004E-01 -3.56486986112E-01 +1.25159258134E-03 -3.66481294844E-03 +1.45935831942E-03 -3.76528818567E-03 +7.74898707598E-01 -3.55455597737E-01
4.00500000000E+09 +6.57227009536E-01 -3.64477073214E-01 +8.27635532860E-04 -3.94307647713E-03 +1.02688732689E-03 -4.00546198587E-03 +7.66525809573E-01 -3.66767621488E-01
4.01000000000E+09 +6.48594646521E-01 -3.71670700359E-01 +2.55633928812E-04 -4.09943011222E-03 +4.19561776192E-04 -4.16336855547E-03 +7.57599220906E-01 -3.78143725877E-01
4.01500000000E+09 +6.39320047860E-01 -3.79234685734E-01 -3.16800983501E-04 -4.07637896034E-03 -1.15663936507E-04 -4.16552302495E-03 +7.47934402743E-01 -3.88764807367E-01
4.02000000000E+09 +6.29207274755E-01 -3.87563535482E-01 -5.93227847357E-04 -3.85099763385E-03 -4.50256083116E-04 -4.01089538209E-03 +7.38134864617E-01 -3.99329612587E-01
4.02500000000E+09 +6.18257097922E-01 -3.96487717397E-01 -8.33351540381E-04 -3.71070483480E-03 -6.99739962650E-04 -3.91954261525E-03 +7.27744608107E-01 -4.09646520389E-01
4.03000000000E+09 +6.06704413203E-01 -4.06017287814E-01 -1.12025299198E-03 -3.97953395286E-03 -1.05985519689E-03 -4.14884600373E-03 +7.17527440834E-01 -4.20286401549E-01
4.03500000000E+09 +5.94946022360E-01 -4.15490112643E-01 -1.80335434388E-03 -3.83943502644E-03 -1.77870653359E-03 -4.05521699206E-03 +7.06343369351E-01 -4.31546997582E-01
4.04000000000E+09 +5.83424793795E-01 -4.25340168083E-01 -2.05849308092E-03 -3.42509893268E-03 -1.96657505840E-03 -3.64158136889E-03 +6.94804228385E-01 -4.42699207674E-01
4.04500000000E+09 +5.71792663835E-01 -4.34925805769E-01 -2.29502722954E-03 -3.35456598719E-03 -2.32072726052E-03 -3.54096836286E-03 +6.82910898749E-01 -4.53411681074E-01
4.05000000000E+09 +5.60073501071E-01 -4.43601425592E-01 -2.61199527792E-03 -3.18497085540E-03 -2.65878147616E-03 -3.43997504999E-03 +6.71016098719E-01 -4.63266557253E-01
4.05500000000E+09 +5.48162751860E-01 -4.51580128492E-01 -2.68405287330E-03 -3.10955773900E-03 -2.78210077977E-03 -3.28369996230E-03 +6.58572648012E-01 -4.73012111208E-01
4.06000000000E+09 +5.35324834407E-01 -4.59090150417E-01 -3.37046625036E-03 -3.20010796712E-03 -3.44493850472E-03 -3.38558548181E-03 +6.45896500962E-01 -4.82434273314E-01
4.06500000000E+09 +5.21823145815E-01 -4.65271099010E-01 -4.04682405537E-03 -2.51976658415E-03 -4.16240633688E-03 -2.60804675424E-03 +6.32650982829E-01 -4.91363077721E-01
4.07000000000E+09 +5.08100614065E-01 -4.71911894521E-01 -4.02137961196E-03 -2.07986057328E-03 -4.06236453636E-03 -2.19366058223E-03 +6.18882632907E-01 -5.00808036519E-01
4.07500000000E+09 +4.92783421555E-01 -4.79082217446E-01 -4.29983476253E-03 -1.79134326374E-03 -4.33029535354E-03 -1.91976955590E-03 +6.04948515411E-01 -5.09858118442E-01
4.08000000000E+09 +4.76738813287E-01 -4.85693905795E-01 -4.50747650167E-03 -1.36729916911E-03 -4.60776792643E-03 -1.49938898875E-03 +5.91452344510E-01 -5.19244112857E-01
4.08500000000E+09 +4.60365426086E-01 -4.92734017291E-01 -4.52995582932E-03 -8.30910006537E-04 -4.64320899151E-03 -9.93397269711E-04 +5.77476696663E-01 -5.28647676767E-01
4.09000000000E+09 +4.44021676651E-01 -5.00212143950E-01 -4.64952217486E-03 -5.60102122107E-04 -4.78707496108E-03 -6.70838459440E-04 +5.63028127381E-01 -5.37402357223E-01
4.09500000000E+09 +4.27452348717E-01 -5.06995851923E-01 -4.90244350414E-03 -7.35341117604E-05 -5.07340514560E-03 -1.59818526275E-04 +5.47610411336E-01 -5.45209624494E-01
4.10000000000E+09 +4.12053629452E-01 -5.13528708389E-01 -4.65161548918E-03 +3.43270067860E-04 -4.75443197447E-03 +3.20164322805E-04 +5.31482867989E-01 -5.52253174744E-01
4.10500000000E+09 +3.95777110119E-01 -5.19919487392E-01 -4.98788338108E-03 +5.72792194036E-04 -5.11812924576E-03 +4.77890777039E-04 +5.15241881382E-01 -5.58965135636E-01
4.11000000000E+09 +3.79072029451E-01 -5.24065287019E-01 -5.23946998788E-03 +1.39482173067E-03 -5.30571140711E-03 +1.32799545680E-03 +4.98286028242E-01 -5.66644483292E-01
4.11500000000E+09 +3.63148068426E-01 -5.26795837353E-01 -4.81759488323E-03 +2.20656981315E-03 -5.01146142621E-03 +2.11983052739E-03 +4.80877430815E-01 -5.74120169618E-01
4.12000000000E+09 +3.46534033893E-01 -5.28914410242E-01 -4.46256226546E-03 +2.57507740796E-03 -4.66206726173E-03 +2.54780972279E-03 +4.63468002376E-01 -5.80823111928E-01
4.12500000000E+09 +3.29813391584E-01 -5.30448619777E-01 -4.23997078967E-03 +3.08366336497E-03 -4.46594225074E-03 +3.05003889875E-03 +4.46323568160E-01 -5.86596287119E-01
4.13000000000E+09 +3.12372035461E-01 -5.32892572844E-01 -3.69658027549E-03 +3.39330633329E-03 -3.85327941445E-03 +3.37199834107E-03 +4.29073087253E-01 -5.92176382399E-01
4.13500000000E+09 +2.93460605499E-01 -5.36143748082E-01 -3.26522670945E-03 +3.37364877501E-03 -3.43459076493E-03 +3.37094957270E-03 +4.10968014532E-01 -5.97877949539E-01
4.14000000000E+09 +2.73421763765E-01 -5.39271929242E-01 -3.29942108687E-03 +3.44552101715E-03 -3.50456402757E-03 +3.47650849543E-03 +3.90976285555E-01 -6.03155419761E-01
4.14500000000E+09 +2.53877269676E-01 -5.42213446856E-01 -3.48368808710E-03 +4.02566236320E-03 -3.77249790271E-03 +4.12310435424E-03 +3.70948436620E-01 -6.07302510643E-01
4.15000000000E+09 +2.34909625561E-01 -5.46338657987E-01 -2.72812723727E-03 +4.68408371381E-03 -2.93781471238E-03 +4.83396914539E-03 +3.51732427708E-01 -6.11204259414E-01
4.15500000000E+09 +2.15384157034E-01 -5.49163136071E-01 -2.46468508303E-03 +4.89678738580E-03 -2.63468655737E-03 +5.04285871681E-03 +3.32347965493E-01 -6.14819331059E-01
4.16000000000E+09 +1.97744063383E-01 -5.51063167091E-01 -1.83980186003E-03 +5.31141797323E-03 -1.93124122447E-03 +5.42327863426E-03 +3.13166354434E-01 -6.17608640733E-01
4.16500000000E+09 +1.80677949546E-01 -5.52214781283E-01 -1.21464363502E-03 +5.19820574760E-03 -1.30231007774E-03 +5.36031014362E-03 +2.93104529381E-01 -6.19754173926E-01
4.17000000000E+09 +1.63303289790E-01 -5.51648684044E-01 -1.14213607775E-03 +5.20642153385E-03 -1.25822773236E-03 +5.38861260412E-03 +2.72714783605E-01 -6.20424587282E-01
4.17500000000E+09 +1.46096799717E-01 -5.48809160512E-01 -6.27078381738E-04 +5.72505142541E-03 -6.91867042285E-04 +5.93559540076E-03 +2.52287716390E-01 -6.20780889166E-01
4.18000000000E+09 +1.29214484391E-01 -5.44612195838E-01 +3.06420887941E-04 +5.86202843945E-03 +2.48227443852E-04 +6.12789247515E-03 +2.31054383528E-01 -6.21507661431E-01
4.18500000000E+09 +1.10672664283E-01 -5.40785815091E-01 +6.28348025919E-04 +5.36924255529E-03 +6.26878773056E-04 +5.58039960448E-03 +2.08752757518E-01 -6.21640497986E-01
4.19000000000E+09 +9.07248426032E-02 -5.35255933773E-01 +7.08671390350E-04 +5.56513013576E-03 +6.72302405816E-04 +5.72047770254E-03 +1.86350013583E-01 -6.20524871939E-01
4.19500000000E+09 +7.08023868190E-02 -5.29983600199E-01 +1.20479484491E-03 +5.90289907221E-03 +1.17903784032E-03 +6.07619632071E-03 +1.64245899984E-01 -6.18321971662E-01
4.20000000000E+09 +4.98823139001E-02 -5.25523765045E-01 +1.77677899687E-03 +6.00797149305E-03 +1.76970712220E-03 +6.17155784909E-03 +1.42785581122E-01 -6.15614639279E-01
4.20500000000E+09 +2.88033638208E-02 -5.21019101641E-01 +2.85254502758E-03 +6.33837859984E-03 +2.81135546548E-03 +6.54751324295E-03 +1.20526716422E-01 -6.12274788964E-01
4.21000000000E+09 +8.26292882014E-03 -5.16081504804E-01 +3.97275895075E-03 +5.91231663021E-03 +4.07972972885E-03 +6.16669173560E-03 +9.78128848217E-02 -6.08100529301E-01
4.21500000000E+09 -1.03865709892E-02 -5.11567643296E-01 +4.42659391498E-03 +4.90260237466E-03 +4.54854833493E-03 +5.02822427702E-03 +7.48837462420E-02 -6.03100025882E-01
4.22000000000E+09 -2.87590484954E-02 -5.06031144959E-01 +4.60672287131E-03 +4.61686783763E-03 +4.78252161254E-03 +4.67563692843E-03 +5.28626361090E-02 -5.97220855097E-01
4.22500000000E+09 -4.55685944881E-02 -4.99026801254E-01 +5.03579168884E-03 +4.39534821946E-03 +5.05451660034E-03 +4.48394454673E-03 +3.11530927198E-02 -5.91109197930E-01
4.23000000000E+09 -6.19623362650E-02 -4.91260054399E-01 +5.73591537505E-03 +4.10418760100E-03 +5.90359754081E-03 +4.17522558647E-03 +1.04555116949E-02 -5.83761559040E-01
4.23500000000E+09 -7.90543915499E-02 -4.80738910405E-01 +6.13429634082E-03 +3.47633578075E-03 +6.30644091377E-03 +3.51303338863E-03 -1.13510820150E-02 -5.76571258450E-01
4.24000000000E+09 -9.57266785083E-02 -4.68720541456E-01 +6.60278286026E-03 +3.01479501663E-03 +6.73195921250E-03 +3.11234268636E-03 -3.35034115514E-02 -5.67404543772E-01
4.24500000000E+09 -1.12745629006E-01 -4.56079477393E-01 +6.98302231620E-03 +2.08190090288E-03 +7.12710414662E-03 +2.13879327685E-03 -5.55129202265E-02 -5.56676683760E-01
4.25000000000E+09 -1.31932160713E-01 -4.43293317431E-01 +7.01797706262E-03 +1.98975357261E-03 +7.13176371479E-03 +2.01954290017E-03 -7.61751024700E-02 -5.46222717515E-01
4.25500000000E+09 -1.51632953201E-01 -4.30352357472E-01 +7.83685400614E-03 +1.48596691247E-03 +8.01335163950E-03 +1.55118089135E-03 -9.67006522718E-02 -5.34710265047E-01
4.26000000000E+09 -1.71907461914E-01 -4.18089004487E-01 +8.76846709854E-03 +1.90318145835E-04 +9.00933537944E-03 +2.27756277123E-04 -1.17410737604E-01 -5.22807195177E-01
4.26500000000E+09 -1.92526015160E-01 -4.06768847413E-01 +8.38645863733E-03 -1.17774200652E-03 +8.60882158415E-03 -1.19679378487E-03 -1.37367661151E-01 -5.09447871356E-01
4.27000000000E+09 -2.12373601549E-01 -3.94462241003E-01 +8.22627880085E-03 -2.24744755861E-03 +8.46104394749E-03 -2.37805699276E-03 -1.58394850199E-01 -4.95513184033E-01
4.27500000000E+09 -2.30218830516E-01 -3.82646499207E-01 +7.65876264648E-03 -3.51179972771E-03 +7.71682058308E-03 -3.57354329610E-03 -1.78620656031E-01 -4.79194882126E-01
4.28000000000E+09 -2.46456703155E-01 -3.70261915394E-01 +6.62199185086E-03 -3.67176961455E-03 +6.77024125368E-03 -3.74358966401E-03 -1.97278208149E-01 -4.64757959404E-01
4.28500000000E+09 -2.60544682427E-01 -3.56962963266E-01 +6.82968425887E-03 -3.59202853393E-03 +6.95346870945E-03 -3.65386019238E-03 -2.18322118578E-01 -4.49570874839E-01
4.29000000000E+09 -2.73210645686E-01 -3.42644462519E-01 +7.27512755557E-03 -4.82049448843E-03 +7.42001170933E-03 -4.94118364314E-03 -2.37806294515E-01 -4.32244453671E-01
4.29500000000E+09 -2.84947290634E-01 -3.27449246138E-01 +6.25059648211E-03 -6.10730048235E-03 +6.29970358780E-03 -6.23879530362E-03 -2.55472340586E-01 -4.13278849187E-01
4.30000000000E+09 -2.97673265481E-01 -3.10870989156E-01 +6.00998024720E-03 -6.44415892056E-03 +6.03267135451E-03 -6.67990471452E-03 -2.71457661237E-01 -3.94609733618E-01
4.30500000000E+09 -3.11101102285E-01 -2.92751172264E-01 +4.88436240833E-03 -7.59560365779E-03 +4.97297800768E-03 -7.84078774660E-03 -2.86634381875E-01 -3.75234821080E-01
4.31000000000E+09 -3.24478549018E-01 -2.72967598756E-01 +3.95493741697E-03 -7.86143996178E-03 +3.95866391133E-03 -8.05687050984E-03 -3.01796234484E-01 -3.55407665809E-01
4.31500000000E+09 -3.37696929498E-01 -2.53056839067E-01 +3.37512955134E-03 -8.11561475119E-03 +3.33720624524E-03 -8.31574695198E-03 -3.17293119067E-01 -3.34784109544E-01
4.32000000000E+09 -3.49795741902E-01 -2.33176806810E-01 +2.31696577470E-03 -9.03504600952E-03 +2.29377900544E-03 -9.28533445816E-03 -3.31196839240E-01 -3.12672609094E-01
4.32500000000E+09 -3.60249786389E-01 -2.15379281436E-01 +2.84093523285E-04 -9.05715821567E-03 +2.11926799052E-04 -9.19225224297E-03 -3.43490856184E-01 -2.90973500814E-01
4.33000000000E+09 -3.71233841217E-01 -1.99107515699E-01 +8.17177689570E-05 -7.54570878426E-03 -1.92751913141E-05 -7.62030367721E-03 -3.55278423356E-01 -2.70244559485E-01
4.33500000000E+09 -3.81332173749E-01 -1.81518179287E-01 +5.21804359492E-04 -7.90975631326E-03 +4.62000822746E-04 -7.98657000378E-03 -3.67195361493E-01 -2.47009184703E-01
4.34000000000E+09 -3.89000962489E-01 -1.62876979777E-01 -8.53529988284E-05 -8.73882591811E-03 -1.37526115279E-04 -8.82103744689E-03 -3.78480630795E-01 -2.22872108295E-01
4.34500000000E+09 -3.94725099685E-01 -1.43321503939E-01 -9.16574153016E-04 -9.58796035745E-03 -9.79851498612E-04 -9.61484289522E-03 -3.87825358796E-01 -1.97406787376E-01
4.35000000000E+09 -3.98444195948E-01 -1.22444282931E-01 -2.80677718454E-03 -1.01077430268E-02 -2.91820910561E-03 -1.01412184951E-02 -3.96626809952E-01 -1.73391229730E-01
4.35500000000E+09 -4.01205496131E-01 -1.01009210449E-01 -4.80269479265E-03 -9.27823966522E-03 -4.90627828007E-03 -9.29370808944E-03 -4.05505755998E-01 -1.49758422985E-01
4.36000000000E+09 -4.04587519550E-01 -7.96262288942E-02 -5.37996628856E-03 -7.64730865129E-03 -5.52115576365E-03 -7.74350671642E-03 -4.13308800460E-01 -1.26320056452E-01
4.36500000000E+09 -4.09738357615E-01 -5.63478404559E-02 -5.67505190574E-03 -7.58019795041E-03 -5.83117035354E-03 -7.66752210049E-03 -4.19327949811E-01 -1.01460084390E-01
4.37000000000E+09 -4.14830964152E-01 -3.21730010126E-02 -6.36239516194E-03 -6.98505502685E-03 -6.66893614080E-03 -7.03003853324E-03 -4.23672793173E-01 -7.64920393428E-02
4.37500000000E+09 -4.19373119844E-01 -9.18551438746E-03 -7.00020960932E-03 -6.87090542424E-03 -7.28850320006E-03 -6.87749688781E-03 -4.25511495350E-01 -5.09685858537E-02
4.38000000000E+09 -4.24167398529E-01 +1.23789916747E-02 -7.99065120841E-03 -6.00069776502E-03 -8.35013063242E-03 -5.89701084563E-03 -4.28351166022E-01 -2.73436250765E-02
4.38500000000E+09 -4.28242437957E-01 +3.30074701910E-02 -9.01654963507E-03 -5.12609336687E-03 -9.26103375722E-03 -4.94924992819E-03 -4.31330099410E-01 -1.53759853700E-03
4.39000000000E+09 -4.31111205786E-01 +5.18546524837E-02 -9.20257346301E-03 -4.30493701088E-03 -9.38708728895E-03 -4.08477271128E-03 -4.32935014356E-01 +2.53066157674E-02
4.39500000000E+09 -4.31928383069E-01 +6.94951309398E-02 -1.02866064590E-02 -3.74650553629E-03 -1.04458227183E-02 -3.54312865418E-03 -4.31999924273E-01 +5.12758439632E-02
4.40000000000E+09 -4.31313092517E-01 +8.74192726739E-02 -1.13945839428E-02 -1.99649276446E-03 -1.15258718667E-02 -1.72071349353E-03 -4.29303095292E-01 +7.52668940789E-02
4.40500000000E+09 -4.28383617720E-01 +1.05051175744E-01 -1.14521390746E-02 -3.46822642475E-04 -1.15250721046E-02 -7.84511876177E-05 -4.26291031005E-01 +9.82682916233E-02
4.41000000000E+09 -4.25326630007E-01 +1.23556625981E-01 -1.10000223645E-02 +1.90761449434E-03 -1.10224795949E-02 +2.24524285252E-03 -4.24052100402E-01 +1.20352046022E-01
4.41500000000E+09 -4.21973321776E-01 +1.44819739061E-01 -1.00342391129E-02 +2.66491317430E-03 -9.95916740008E-03 +2.95861092647E-03 -4.21184412552E-01 +1.45614378762E-01
4.42000000000E+09 -4.17244099352E-01 +1.67121758197E-01 -9.60153128739E-03 +3.26453174401E-03 -9.44253997981E-03 +3.53416806330E-03 -4.15245561204E-01 +1.70798187832E-01
4.42500000000E+09 -4.13550813994E-01 +1.89996462326E-01 -9.31766199720E-03 +3.85495228122E-03 -9.08089144952E-03 +4.05397309780E-03 -4.08345211186E-01 +1.93515699933E-01
4.43000000000E+09 -4.09666059897E-01 +2.12690335344E-01 -9.56960215416E-03 +4.64805596857E-03 -9.29604613080E-03 +4.84559388859E-03 -4.03124627708E-01 +2.15913542621E-01
4.43500000000E+09 -4.06250868512E-01 +2.33502965691E-01 -9.31711457800E-03 +6.46297767003E-03 -8.99400692416E-03 +6.54267914084E-03 -3.96822419093E-01 +2.39052025048E-01
4.44000000000E+09 -4.03492810686E-01 +2.51852757742E-01 -8.08847738323E-03 +8.38597423415E-03 -7.83351217290E-03 +8.40419070274E-03 -3.88561944465E-01 +2.61810263548E-01
4.44500000000E+09 -4.01709182978E-01 +2.68363632527E-01 -5.99165706935E-03 +8.39655134908E-03 -5.74687825519E-03 +8.40019075134E-03 -3.77957917582E-01 +2.83212505379E-01
4.45000000000E+09 -3.99106985920E-01 +2.84247849077E-01 -5.26477065427E-03 +8.22072100701E-03 -5.06525747903E-03 +8.16668849350E-03 -3.67538691588E-01 +3.01588740060E-01
4.45500000000E+09 -3.94079833265E-01 +2.99295518101E-01 -5.46246134730E-03 +8.66663923409E-03 -5.19671129848E-03 +8.59884884312E-03 -3.58056785903E-01 +3.19955534722E-01
4.46000000000E+09 -3.86728931285E-01 +3.13415871067E-01 -4.31026379917E-03 +1.01358754077E-02 -4.07958469593E-03 +1.01519724143E-02 -3.49072431383E-01 +3.39877031420E-01
4.46500000000E+09 -3.76938773794E-01 +3.28747316028E-01 -2.64170938934E-03 +1.05046803808E-02 -2.40810938829E-03 +1.04747630420E-02 -3.36474344182E-01 +3.58935074635E-01
4.47000000000E+09 -3.64556086354E-01 +3.43617371945E-01 -9.21638594804E-04 +1.04340942313E-02 -7.64785910250E-04 +1.03135665623E-02 -3.24382957325E-01 +3.76996809432E-01
4.47500000000E+09 -3.52693219738E-01 +3.58983947372E-01 -1.74259230096E-04 +9.48278434560E-03 +7.96316271988E-05 +9.34292860782E-03 -3.11799050415E-01 +3.94120547419E-01
4.48000000000E+09 -3.41330676959E-01 +3.76708731835E-01 -1.36259706524E-04 +9.74081133451E-03 +9.42124388781E-05 +9.59285230089E-03 -3.00274630610E-01 +4.11452796898E-01
4.48500000000E+09 -3.29556042871E-01 +3.95544678319E-01 +9.80268946777E-04 +1.03234962032E-02 +1.18072196221E-03 +1.00713350818E-02 -2.87271448947E-01 +4.28379009271E-01
4.49000000000E+09 -3.19725142757E-01 +4.13379498496E-01 +2.67098835146E-03 +1.06781408081E-02 +2.74726926845E-03 +1.04210347718E-02 -2.74012020029E-01 +4.44365076063E-01
4.49500000000E+09 -3.11137923716E-01 +4.31175161390E-01 +4.40787092488E-03 +9.76588188970E-03 +4.38352533866E-03 +9.55390802537E-03 -2.59139191969E-01 +4.58700373279E-01
4.50000000000E+09 -3.03037054118E-01 +4.46741579224E-01 +5.19324029068E-03 +8.83244474739E-03 +5.14507003184E-03 +8.68748250832E-03 -2.45506531735E-01 +4.71959529033E-01
4.50500000000E+09 -2.96182351548E-01 +4.60614135194E-01 +6.16873467068E-03 +7.78339533683E-03 +6.16231976118E-03 +7.68331976441E-03 -2.31504097511E-01 +4.84799064815E-01
4.51000000000E+09 -2.88492816739E-01 +4.72305980809E-01 +6.36364108304E-03 +7.09681360193E-03 +6.36724455913E-03 +6.94278311805E-03 -2.18393828243E-01 +4.98642539478E-01
4.51500000000E+09 -2.79170692022E-01 +4.81500762893E-01 +6.95630760440E-03 +6.79811852706E-03 +6.97716872394E-03 +6.56541824073E-03 -2.04203381245E-01 +5.11518364512E-01
4.52000000000E+09 -2.68961050569E-01 +4.89267524355E-01 +8.02231767156E-03 +5.96227611203E-03 +8.02472506621E-03 +5.72547505489E-03 -1.90154631980E-01 +5.24164196623E-01
4.52500000000E+09 -2.57312152236E-01 +4.97495900390E-01 +8.37894922323E-03 +4.40107591011E-03 +8.32280182526E-03 +4.16645963251E-03 -1.75014371343E-01 +5.34697390419E-01
4.53000000000E+09 -2.43417193841E-01 +5.06992515258E-01 +8.32660656330E-03 +3.94178606856E-03 +8.21265054908E-03 +3.72874016273E-03 -1.61060779045E-01 +5.44843794202E-01
4.53500000000E+09 -2.26998677578E-01 +5.17205594643E-01 +8.72528252285E-03 +3.28102460178E-03 +8.64996900644E-03 +3.03076597035E-03 -1.45901922343E-01 +5.54527386256E-01
4.54000000000E+09 -2.09817668003E-01 +5.27825510359E-01 +9.21604633809E-03 +2.47377593510E-03 +9.08354673680E-03 +2.14610040929E-03 -1.30776567676E-01 +5.65332379654E-01
4.54500000000E+09 -1.93035187867E-01 +5.38798547452E-01 +9.77127157601E-03 +1.23707599917E-03 +9.56732845133E-03 +9.70987531292E-04 -1.13978651673E-01 +5.74232085215E-01
4.55000000000E+09 -1.77783025115E-01 +5.49250441529E-01 +9.82272505366E-03 -2.10377358071E-04 +9.49632207991E-03 -4.34775559782E-04 -9.82381178496E-02 +5.83148353031E-01
4.55500000000E+09 -1.65205980875E-01 +5.59564164870E-01 +9.32965577098E-03 -2.22472026677E-03 +9.03892898075E-03 -2.32234792525E-03 -8.29975218883E-02 +5.90569490031E-01
4.56000000000E+09 -1.54576988886E-01 +5.70247542445E-01 +7.65487847261E-03 -2.89729737534E-03 +7.38911302487E-03 -2.94378909589E-03 -6.95983958045E-02 +5.98679002069E-01
4.56500000000E+09 -1.44280891636E-01 +5.80310931478E-01 +7.05966170937E-03 -2.66293995186E-03 +6.91886786839E-03 -2.76141709166E-03 -5.45367486802E-02 +6.06950166802E-01
4.57000000000E+09 -1.34125619096E-01 +5.88790267073E-01 +7.01267145853E-03 -2.62265638227E-03 +6.72635539402E-03 -2.73173055012E-03 -3.89709322570E-02 +6.13757802080E-01
