# Hz S RI R 50
! CMT, C1220, 16058040, 17.2.0/1
! Date: 15/08/2018 11:33:51
! Data: Format (Calibration Info)
! Freq                      S11: Re/Im (F2)                       S21: Re/Im (F2)                       S12: Re/Im (F2)                       S22: Re/Im (F2)            
4.00000000000E+09 +6.67252328308E-01 -3.57084329641E-01 +7.49482570269E-04 -2.64459360105E-03 +8.16400968099E-04 -2.73431049985E-03 +7.74846956174E-01 -3.54463361243E-01
4.00500000000E+09 +6.59200686693E-01 -3.65127132843E-01 +5.10879821777E-04 -2.95397193816E-03 +5.55081129299E-04 -2.95529347022E-03 +7.66462153994E-01 -3.65714703182E-01
4.01000000000E+09 +6.50567872988E-01 -3.72383486958E-01 +1.10952772504E-05 -3.10081129102E-03 +1.12365793719E-04 -3.13859540346E-03 +7.57520164336E-01 -3.77141770250E-01
4.01500000000E+09 +6.41298824629E-01 -3.79950117706E-01 -5.52194538339E-04 -2.96787308147E-03 -4.49901995700E-04 -2.99308019819E-03 +7.47687333776E-01 -3.87608319506E-01
4.02000000000E+09 +6.31352746629E-01 -3.88524488349E-01 -6.34461532074E-04 -2.72597433328E-03 -5.51694086990E-04 -2.77751398213E-03 +7.37846909276E-01 -3.98003752119E-01
4.02500000000E+09 +6.20288088310E-01 -3.97953615331E-01 -7.39093475432E-04 -2.75577648251E-03 -6.34739955108E-04 -2.80569041156E-03 +7.27685290303E-01 -4.08070380119E-01
4.03000000000E+09 +6.08315920219E-01 -4.07748125822E-01 -1.01221321153E-03 -2.95552284258E-03 -9.27755362647E-04 -3.03846932889E-03 +7.17446599662E-01 -4.18789050432E-01
4.03500000000E+09 +5.96170588328E-01 -4.17193808728E-01 -1.57086000008E-03 -2.73519265616E-03 -1.42973920476E-03 -2.85851011760E-03 +7.06402189380E-01 -4.30018455258E-01
4.04000000000E+09 +5.84646572717E-01 -4.26807958391E-01 -1.65046477266E-03 -2.49755050383E-03 -1.66738461483E-03 -2.63835101952E-03 +6.94965363074E-01 -4.40917413695E-01
4.04500000000E+09 +5.72865080444E-01 -4.36169282548E-01 -2.00911342527E-03 -2.35902282042E-03 -1.91929017367E-03 -2.56927297544E-03 +6.83129928710E-01 -4.51593823182E-01
4.05000000000E+09 +5.61621075274E-01 -4.44789307202E-01 -2.08975325414E-03 -2.19199878629E-03 -2.07168839740E-03 -2.35003247057E-03 +6.71557387927E-01 -4.61341623351E-01
4.05500000000E+09 +5.49647321667E-01 -4.53271099326E-01 -2.15152518871E-03 -2.27085827977E-03 -2.19212188138E-03 -2.43343154111E-03 +6.59274836357E-01 -4.71091818722E-01
4.06000000000E+09 +5.36381317816E-01 -4.60965616938E-01 -2.81376753284E-03 -2.28238630035E-03 -2.92816130084E-03 -2.49292067354E-03 +6.46865119184E-01 -4.80653032013E-01
4.06500000000E+09 +5.22563188302E-01 -4.67024801830E-01 -3.37171636888E-03 -1.52922587939E-03 -3.45962244629E-03 -1.65601008240E-03 +6.33475187874E-01 -4.89755302522E-01
4.07000000000E+09 +5.08629391607E-01 -4.73487556535E-01 -3.02845828159E-03 -1.15021142671E-03 -3.10473519794E-03 -1.27228568967E-03 +6.19704530219E-01 -4.99175977564E-01
4.07500000000E+09 +4.93215981604E-01 -4.80455858025E-01 -3.23852653422E-03 -9.59730308782E-04 -3.29590445677E-03 -1.16289580097E-03 +6.06095889249E-01 -5.08181542027E-01
4.08000000000E+09 +4.77279912071E-01 -4.86993930924E-01 -3.28153604701E-03 -6.85620580313E-04 -3.40447379598E-03 -8.57430126219E-04 +5.92617293471E-01 -5.17886603799E-01
4.08500000000E+09 +4.60885127035E-01 -4.94122978424E-01 -3.38688993084E-03 -4.00815730750E-04 -3.56944985852E-03 -4.76664494360E-04 +5.78435584582E-01 -5.27447519201E-01
4.09000000000E+09 +4.44369489453E-01 -5.01307192415E-01 -3.52474529516E-03 -8.06289044948E-05 -3.74288304526E-03 -1.25199639744E-04 +5.63845693481E-01 -5.36094562830E-01
4.09500000000E+09 +4.27914210585E-01 -5.08204212854E-01 -3.56165194525E-03 +4.15347436764E-04 -3.73469576567E-03 +4.04606384731E-04 +5.48369197132E-01 -5.43651732696E-01
4.10000000000E+09 +4.12355769037E-01 -5.14843021496E-01 -3.14300681437E-03 +5.93515943056E-04 -3.22210104928E-03 +5.83679396323E-04 +5.32574877909E-01 -5.50489660319E-01
4.10500000000E+09 +3.95824631228E-01 -5.21048346440E-01 -3.39168495332E-03 +6.18643534921E-04 -3.49383480911E-03 +6.19288892448E-04 +5.16683626571E-01 -5.57486390435E-01
4.11000000000E+09 +3.79203973953E-01 -5.24940037132E-01 -3.64206637371E-03 +1.13537395499E-03 -3.71718261796E-03 +1.10027957554E-03 +4.99714152884E-01 -5.65500396355E-01
4.11500000000E+09 +3.63257257715E-01 -5.27583911912E-01 -3.55262077439E-03 +1.69027019201E-03 -3.66465723235E-03 +1.67700443516E-03 +4.82226460370E-01 -5.72925190620E-01
4.12000000000E+09 +3.46660344002E-01 -5.29679074100E-01 -3.29617910775E-03 +2.15360397619E-03 -3.34825832859E-03 +2.13882686554E-03 +4.64907008393E-01 -5.79535122492E-01
4.12500000000E+09 +3.30062105187E-01 -5.31073111460E-01 -3.00138957672E-03 +2.49017035420E-03 -3.12717463963E-03 +2.42610679867E-03 +4.47977696283E-01 -5.85293170375E-01
4.13000000000E+09 +3.12680303007E-01 -5.33647347049E-01 -2.46756328374E-03 +2.70784804632E-03 -2.54073759993E-03 +2.70119405011E-03 +4.31026187389E-01 -5.91248407731E-01
4.13500000000E+09 +2.93660357341E-01 -5.36979030789E-01 -2.17866283874E-03 +2.51165993163E-03 -2.33331503569E-03 +2.54614561953E-03 +4.12723766432E-01 -5.97044698432E-01
4.14000000000E+09 +2.73516718410E-01 -5.40124283379E-01 -2.33486319339E-03 +2.47889500427E-03 -2.48861333841E-03 +2.45144551507E-03 +3.92778613798E-01 -6.02238320760E-01
4.14500000000E+09 +2.53653179056E-01 -5.42703550521E-01 -2.59876793884E-03 +3.06956689882E-03 -2.85023143495E-03 +3.04598500756E-03 +3.72724210890E-01 -6.06492201960E-01
4.15000000000E+09 +2.34819949104E-01 -5.46771651988E-01 -1.95644405166E-03 +3.60521493872E-03 -2.13533434414E-03 +3.68100559117E-03 +3.53912600469E-01 -6.10514434765E-01
4.15500000000E+09 +2.15328248976E-01 -5.49293387860E-01 -1.65372079300E-03 +3.80482803213E-03 -1.84580925819E-03 +3.85818437399E-03 +3.34738871665E-01 -6.14573618577E-01
4.16000000000E+09 +1.97945978148E-01 -5.51248555090E-01 -1.22676687522E-03 +4.01231029475E-03 -1.30505263191E-03 +4.09387950134E-03 +3.15212844054E-01 -6.18202332204E-01
4.16500000000E+09 +1.81104176172E-01 -5.52282711200E-01 -7.15945757119E-04 +4.00398921934E-03 -8.51349193513E-04 +4.07707615276E-03 +2.94548388470E-01 -6.19948493411E-01
4.17000000000E+09 +1.63870738821E-01 -5.52120757823E-01 -8.03435443862E-04 +3.99203842453E-03 -9.61054609970E-04 +4.13040955786E-03 +2.74095351884E-01 -6.20601026280E-01
4.17500000000E+09 +1.46432241298E-01 -5.49343972759E-01 -1.93777327191E-04 +4.71104815746E-03 -3.18784774125E-04 +4.89947689927E-03 +2.53679114651E-01 -6.20873201730E-01
4.18000000000E+09 +1.29457011809E-01 -5.45126727920E-01 +9.56471755240E-04 +4.48348323008E-03 +8.49642544985E-04 +4.71152299178E-03 +2.32777735376E-01 -6.21864157036E-01
4.18500000000E+09 +1.10819371143E-01 -5.41087792900E-01 +9.31388787785E-04 +3.76962455724E-03 +9.05108875975E-04 +3.94060745019E-03 +2.10076369602E-01 -6.22437175557E-01
4.19000000000E+09 +9.10772186922E-02 -5.35228996692E-01 +7.93408513344E-04 +3.72797884537E-03 +8.18070992392E-04 +3.90738716588E-03 +1.87299347116E-01 -6.21117300295E-01
4.19500000000E+09 +7.14596364740E-02 -5.30093618029E-01 +8.18316896540E-04 +4.06121538189E-03 +8.67969609362E-04 +4.27372458623E-03 +1.65236294697E-01 -6.18688767891E-01
4.20000000000E+09 +5.06022629229E-02 -5.25864453992E-01 +1.25166724572E-03 +4.56885254307E-03 +1.28380200392E-03 +4.77585371621E-03 +1.43926416773E-01 -6.16268779419E-01
4.20500000000E+09 +2.95063004862E-02 -5.21639945201E-01 +2.40253512392E-03 +4.87956967075E-03 +2.49537383059E-03 +5.05613401208E-03 +1.21491030090E-01 -6.13054809508E-01
4.21000000000E+09 +8.81585657982E-03 -5.16617659137E-01 +3.51341093987E-03 +4.31580826924E-03 +3.61457784829E-03 +4.48316390641E-03 +9.83937195347E-02 -6.08964641321E-01
4.21500000000E+09 -9.97518693055E-03 -5.12226451127E-01 +3.54329039693E-03 +3.22102817264E-03 +3.63187864598E-03 +3.31656731351E-03 +7.53404728339E-02 -6.03700647461E-01
4.22000000000E+09 -2.83288232374E-02 -5.06563472757E-01 +3.49089296915E-03 +3.04051132275E-03 +3.65333634868E-03 +3.04204508080E-03 +5.33319483643E-02 -5.97396768481E-01
4.22500000000E+09 -4.50737965868E-02 -4.99597739212E-01 +3.77355760086E-03 +2.98124176335E-03 +3.85199888179E-03 +2.97723153529E-03 +3.21608769013E-02 -5.91527663451E-01
4.23000000000E+09 -6.12811273047E-02 -4.91766406658E-01 +4.18792811700E-03 +2.77067208800E-03 +4.33390397360E-03 +2.75367988546E-03 +1.13958726098E-02 -5.84956463444E-01
4.23500000000E+09 -7.83854770320E-02 -4.81568223569E-01 +4.47197825312E-03 +2.51103189964E-03 +4.56277224516E-03 +2.38711151935E-03 -1.08895081385E-02 -5.77830907954E-01
4.24000000000E+09 -9.51665947383E-02 -4.69681191323E-01 +4.72056005704E-03 +2.07356453859E-03 +4.75736657419E-03 +2.06340314830E-03 -3.36123782708E-02 -5.68604751214E-01
4.24500000000E+09 -1.12263523409E-01 -4.57202057917E-01 +4.83982599527E-03 +1.66849611493E-03 +4.90515781098E-03 +1.67128274846E-03 -5.57306691493E-02 -5.57632669128E-01
4.25000000000E+09 -1.31500670711E-01 -4.44389955401E-01 +5.23899441160E-03 +1.86025993955E-03 +5.34540777366E-03 +1.86971832002E-03 -7.65523495147E-02 -5.46949897919E-01
4.25500000000E+09 -1.51130587202E-01 -4.31328713482E-01 +6.13687893923E-03 +1.32371735246E-03 +6.22477267209E-03 +1.32210974859E-03 -9.71365212586E-02 -5.35656966009E-01
4.26000000000E+09 -1.71396315442E-01 -4.19094036124E-01 +7.13727675828E-03 +1.07439781866E-04 +7.24931785383E-03 +7.55249273104E-05 -1.18118788988E-01 -5.23803675714E-01
4.26500000000E+09 -1.92014275058E-01 -4.07831050448E-01 +6.58682984037E-03 -1.32303068116E-03 +6.63124010752E-03 -1.31286671923E-03 -1.38410541296E-01 -5.10058134763E-01
4.27000000000E+09 -2.11694563100E-01 -3.95461558533E-01 +6.17215874818E-03 -2.12731713936E-03 +6.23045837764E-03 -2.19157694678E-03 -1.59449845780E-01 -4.95408620702E-01
4.27500000000E+09 -2.29303434135E-01 -3.83703461403E-01 +5.45712587650E-03 -3.05233819139E-03 +5.49008593797E-03 -3.04655633954E-03 -1.79269609450E-01 -4.79193442075E-01
4.28000000000E+09 -2.45826172295E-01 -3.71622908645E-01 +4.73274248922E-03 -2.53494702311E-03 +4.78114761075E-03 -2.55402607833E-03 -1.98135471693E-01 -4.65171252207E-01
4.28500000000E+09 -2.59967892784E-01 -3.58087313192E-01 +5.47663396784E-03 -2.42087102106E-03 +5.51615331537E-03 -2.45736970751E-03 -2.20102797555E-01 -4.49777001387E-01
4.29000000000E+09 -2.72485866780E-01 -3.43677125973E-01 +6.09905108221E-03 -3.85972118454E-03 +6.18868459097E-03 -3.94670966195E-03 -2.39782112807E-01 -4.31145142387E-01
4.29500000000E+09 -2.84334464704E-01 -3.28682733909E-01 +4.74961621483E-03 -5.28027689142E-03 +4.91321398106E-03 -5.35896296670E-03 -2.56220529978E-01 -4.11349700803E-01
4.30000000000E+09 -2.97141352447E-01 -3.12079941387E-01 +4.42771771646E-03 -5.44922813987E-03 +4.49790612342E-03 -5.53663769775E-03 -2.71418847678E-01 -3.93355092217E-01
4.30500000000E+09 -3.10356149749E-01 -2.93938145973E-01 +3.33013362579E-03 -6.22952084826E-03 +3.41924892426E-03 -6.34235244924E-03 -2.86643453149E-01 -3.74563751827E-01
4.31000000000E+09 -3.23813634232E-01 -2.74278826706E-01 +2.71744519051E-03 -6.21084218324E-03 +2.80219011768E-03 -6.36596655713E-03 -3.02426482655E-01 -3.54890957713E-01
4.31500000000E+09 -3.36979255099E-01 -2.54333159002E-01 +2.20276624514E-03 -6.61322094541E-03 +2.29876256677E-03 -6.76133159782E-03 -3.17880809882E-01 -3.33302600013E-01
4.32000000000E+09 -3.49011546384E-01 -2.34637999089E-01 +1.08090553663E-03 -7.30604440455E-03 +1.09854635886E-03 -7.49413665486E-03 -3.31020837531E-01 -3.11367650389E-01
4.32500000000E+09 -3.59350953289E-01 -2.17028000226E-01 -9.63741870323E-04 -6.76382883240E-03 -1.04719859632E-03 -6.92171604150E-03 -3.43145444353E-01 -2.89956951360E-01
4.33000000000E+09 -3.70703667090E-01 -2.00982011886E-01 -2.94434846907E-04 -4.94185685370E-03 -3.76446861561E-04 -5.06811372127E-03 -3.55186815869E-01 -2.69752781907E-01
4.33500000000E+09 -3.81263082443E-01 -1.83396576872E-01 +4.09868684931E-04 -5.53288994845E-03 +2.72935765904E-04 -5.65441636230E-03 -3.67944277387E-01 -2.46249670709E-01
4.34000000000E+09 -3.89275638175E-01 -1.64387270262E-01 +1.65763267407E-04 -6.54410363498E-03 +4.10199573658E-05 -6.64598261008E-03 -3.79184404055E-01 -2.21104308964E-01
4.34500000000E+09 -3.94472823778E-01 -1.44524357926E-01 -8.28502407269E-04 -7.68213173363E-03 -9.50365573781E-04 -7.72303339435E-03 -3.87242283107E-01 -1.95502625842E-01
4.35000000000E+09 -3.97898027460E-01 -1.23996715418E-01 -3.04334858824E-03 -7.86466968272E-03 -3.19766898094E-03 -7.92141263409E-03 -3.95755793039E-01 -1.71870230411E-01
4.35500000000E+09 -4.00850440335E-01 -1.02955710152E-01 -4.47050831417E-03 -6.32746402023E-03 -4.61918491199E-03 -6.34629548914E-03 -4.04713514828E-01 -1.48884638907E-01
4.36000000000E+09 -4.04466734466E-01 -8.16636729642E-02 -3.92448556766E-03 -4.95056395055E-03 -4.11163079701E-03 -4.96629978946E-03 -4.13135051218E-01 -1.25263856347E-01
4.36500000000E+09 -4.09764211042E-01 -5.85192217975E-02 -4.17144729896E-03 -5.35703891509E-03 -4.34249083737E-03 -5.34377201331E-03 -4.19122577103E-01 -9.97771878973E-02
4.37000000000E+09 -4.15228102463E-01 -3.43529686237E-02 -4.68382354323E-03 -5.01509542514E-03 -4.82509092376E-03 -4.91601282149E-03 -4.22555837969E-01 -7.44583793050E-02
4.37500000000E+09 -4.19833486478E-01 -1.11048657746E-02 -5.13312456766E-03 -5.20371866765E-03 -5.35573114959E-03 -5.12654087431E-03 -4.23568139737E-01 -4.97281617660E-02
4.38000000000E+09 -4.24762478741E-01 +1.05046740168E-02 -6.17292776366E-03 -4.51320263347E-03 -6.39551089386E-03 -4.38150057736E-03 -4.26939123347E-01 -2.65210096171E-02
4.38500000000E+09 -4.28589791829E-01 +3.11266001283E-02 -6.84300480145E-03 -3.59379451109E-03 -7.09868327614E-03 -3.38645677849E-03 -4.29765080760E-01 -4.95630382105E-04
4.39000000000E+09 -4.31455602784E-01 +4.97895365558E-02 -6.67571581804E-03 -3.10258704819E-03 -6.77592615816E-03 -2.91283589922E-03 -4.31373613875E-01 +2.64241876341E-02
4.39500000000E+09 -4.32501094696E-01 +6.72098702336E-02 -7.92156209033E-03 -3.02340630853E-03 -8.02073380538E-03 -2.79163525866E-03 -4.29316995997E-01 +5.17931449054E-02
4.40000000000E+09 -4.32201994601E-01 +8.50215762790E-02 -9.01824851308E-03 -1.32698477954E-03 -9.05592135100E-03 -1.06040936714E-03 -4.26774554669E-01 +7.47005250098E-02
4.40500000000E+09 -4.29630714841E-01 +1.02842340923E-01 -8.99077958685E-03 +1.84819619270E-04 -8.95220531668E-03 +3.11344044534E-04 -4.24994992102E-01 +9.73166872868E-02
4.41000000000E+09 -4.26808680743E-01 +1.21624438276E-01 -8.15813865442E-03 +2.28089693066E-03 -8.05040328120E-03 +2.44874701404E-03 -4.23265149123E-01 +1.20044769772E-01
4.41500000000E+09 -4.23543279559E-01 +1.43097842456E-01 -7.08928329428E-03 +2.44293916347E-03 -6.95160999906E-03 +2.59952194853E-03 -4.19697350169E-01 +1.45846368306E-01
4.42000000000E+09 -4.18684574107E-01 +1.65669784976E-01 -6.78313834959E-03 +2.32078553550E-03 -6.64871775962E-03 +2.47577625931E-03 -4.13121180865E-01 +1.70406169626E-01
4.42500000000E+09 -4.14906476174E-01 +1.88350899779E-01 -7.07474999155E-03 +2.82375666992E-03 -6.95490369904E-03 +2.91087668573E-03 -4.06174209340E-01 +1.91731160327E-01
4.43000000000E+09 -4.11201073266E-01 +2.11096943368E-01 -7.35260452548E-03 +3.71881243595E-03 -7.18529302771E-03 +3.75007682994E-03 -4.02519492122E-01 +2.13915770911E-01
4.43500000000E+09 -4.07729489568E-01 +2.31913478271E-01 -6.96196619536E-03 +5.45463644512E-03 -6.79294187558E-03 +5.40741806298E-03 -3.96705361111E-01 +2.37710429308E-01
4.44000000000E+09 -4.05440004905E-01 +2.50185439906E-01 -5.58794119819E-03 +7.02441181159E-03 -5.41886267325E-03 +6.96920745111E-03 -3.88217684802E-01 +2.61103429791E-01
4.44500000000E+09 -4.03876038254E-01 +2.67459022005E-01 -3.71846374616E-03 +6.43497566969E-03 -3.64069715144E-03 +6.40076584964E-03 -3.77401043758E-01 +2.81901494115E-01
4.45000000000E+09 -4.01077682925E-01 +2.83590351575E-01 -3.40787837119E-03 +6.00695441402E-03 -3.25737777467E-03 +6.00743396628E-03 -3.67570739791E-01 +3.00219592925E-01
4.45500000000E+09 -3.95962450276E-01 +2.98705287481E-01 -3.87364557506E-03 +6.33110228522E-03 -3.76569954155E-03 +6.35077604422E-03 -3.58399100238E-01 +3.18587174090E-01
4.46000000000E+09 -3.88582285376E-01 +3.13014553530E-01 -2.87281420547E-03 +7.69610540929E-03 -2.79265447044E-03 +7.74174441568E-03 -3.49806873351E-01 +3.39514808601E-01
4.46500000000E+09 -3.78601199651E-01 +3.28172099508E-01 -1.44233396614E-03 +7.83501540424E-03 -1.31015649921E-03 +7.85882408190E-03 -3.36432077520E-01 +3.58841445361E-01
4.47000000000E+09 -3.66424946591E-01 +3.42946388671E-01 -2.42192342115E-04 +7.43736112353E-03 -5.49983085680E-05 +7.37026469691E-03 -3.23716761011E-01 +3.76355494871E-01
4.47500000000E+09 -3.54875352317E-01 +3.58436435942E-01 -3.27340712323E-06 +6.55848316668E-03 +9.23010840193E-05 +6.54670609747E-03 -3.11712591385E-01 +3.92372635098E-01
4.48000000000E+09 -3.43361266131E-01 +3.76300274524E-01 -3.36331788952E-04 +7.15392451905E-03 -1.87824825414E-04 +7.06986823264E-03 -3.00882981209E-01 +4.10078072676E-01
4.48500000000E+09 -3.31604518722E-01 +3.95053078349E-01 +9.05654890326E-04 +7.92556837566E-03 +1.02849527866E-03 +7.75786251239E-03 -2.88358939900E-01 +4.27554075866E-01
4.49000000000E+09 -3.21674197024E-01 +4.12945218292E-01 +2.49572876947E-03 +8.13077993748E-03 +2.60785967421E-03 +7.91901735889E-03 -2.74478142788E-01 +4.44251063715E-01
4.49500000000E+09 -3.13235089230E-01 +4.30848683853E-01 +3.78850790449E-03 +6.92598947630E-03 +3.75014004813E-03 +6.75705892532E-03 -2.59220551702E-01 +4.57730996173E-01
4.50000000000E+09 -3.05128108966E-01 +4.46590230053E-01 +4.18332741400E-03 +5.96254077174E-03 +4.13532768999E-03 +5.84288994715E-03 -2.45884126197E-01 +4.70657359347E-01
4.50500000000E+09 -2.97933404214E-01 +4.60466890539E-01 +4.49726945055E-03 +5.42561936378E-03 +4.58645935191E-03 +5.34796150716E-03 -2.32803456994E-01 +4.83085970643E-01
4.51000000000E+09 -2.90181039944E-01 +4.72038408651E-01 +4.69113879445E-03 +4.93888084531E-03 +4.74609365861E-03 +4.83073263094E-03 -2.20318174932E-01 +4.98005491279E-01
4.51500000000E+09 -2.81092526452E-01 +4.81016376839E-01 +5.31333890475E-03 +4.87104351263E-03 +5.37425638811E-03 +4.74797370981E-03 -2.05565820184E-01 +5.11649166573E-01
4.52000000000E+09 -2.71292008205E-01 +4.88847467734E-01 +6.28440020015E-03 +4.02957802234E-03 +6.25744594457E-03 +3.84315374488E-03 -1.90785006959E-01 +5.23822173760E-01
4.52500000000E+09 -2.59827148261E-01 +4.97410040288E-01 +6.10226817937E-03 +2.37878289611E-03 +6.08289798488E-03 +2.19821072869E-03 -1.76617300888E-01 +5.33641287950E-01
4.53000000000E+09 -2.45811044340E-01 +5.07081860226E-01 +5.74357209099E-03 +2.49095929517E-03 +5.79267000375E-03 +2.29485708329E-03 -1.63136862781E-01 +5.44603260249E-01
4.53500000000E+09 -2.29214063244E-01 +5.17574092414E-01 +6.05804839411E-03 +2.24865875638E-03 +6.03338116393E-03 +2.00697641899E-03 -1.47918075028E-01 +5.55252840431E-01
4.54000000000E+09 -2.11850233045E-01 +5.28109248120E-01 +6.67011888310E-03 +1.69228923706E-03 +6.55185013424E-03 +1.45337961813E-03 -1.31844855616E-01 +5.66434910333E-01
4.54500000000E+09 -1.95048590352E-01 +5.38526425602E-01 +7.15294098931E-03 +5.89317078182E-04 +7.00074761295E-03 +3.84935366851E-04 -1.14603047793E-01 +5.74763131898E-01
4.55000000000E+09 -1.80304327815E-01 +5.49118846936E-01 +6.92443740228E-03 -6.30960082208E-04 +6.72394189015E-03 -8.17679272187E-04 -9.90613901865E-02 +5.83001063041E-01
4.55500000000E+09 -1.68109066512E-01 +5.59666031266E-01 +6.21990797976E-03 -2.17531804917E-03 +5.99695769281E-03 -2.29051604780E-03 -8.49312316415E-02 +5.90694366909E-01
4.56000000000E+09 -1.57324889762E-01 +5.70769128585E-01 +4.64755533767E-03 -2.06903910086E-03 +4.51393117401E-03 -2.14857294560E-03 -7.08692630086E-02 +6.00214062795E-01
4.56500000000E+09 -1.46742752067E-01 +5.81081647386E-01 +4.45308805020E-03 -1.59204806975E-03 +4.27025009825E-03 -1.67199169055E-03 -5.48393791911E-02 +6.08217261705E-01
4.57000000000E+09 -1.36127100384E-01 +5.89517645865E-01 +4.78849057881E-03 -1.40022816478E-03 +4.56156324998E-03 -1.50868398582E-03 -3.88779500954E-02 +6.14271688616E-01
