# Hz S RI R 50
! CMT, C1220, 16058040, 17.2.0/1
! Date: 15/08/2018 11:36:12
! Data: Format (Calibration Info)
! Freq                      S11: Re/Im (F2)                       S21: Re/Im (F2)                       S12: Re/Im (F2)                       S22: Re/Im (F2)            
4.00000000000E+09 +6.69416662063E-01 -3.56243528677E-01 +1.39809625091E-03 -3.70100200907E-03 +1.56416142403E-03 -3.77269811076E-03 +7.75788623229E-01 -3.53274041775E-01
4.00500000000E+09 +6.61249401498E-01 -3.64526087047E-01 +8.87107264743E-04 -4.14288432584E-03 +1.05097637340E-03 -4.18208463761E-03 +7.67315595848E-01 -3.64630966860E-01
4.01000000000E+09 +6.52568273350E-01 -3.71945505717E-01 +1.58238093219E-04 -4.29725180683E-03 +3.38653174182E-04 -4.40281914186E-03 +7.58498635291E-01 -3.75979644918E-01
4.01500000000E+09 +6.43302444616E-01 -3.79453875891E-01 -5.55138802523E-04 -4.20268196940E-03 -3.77018709060E-04 -4.29912991623E-03 +7.48742654773E-01 -3.86675992634E-01
4.02000000000E+09 +6.33354043055E-01 -3.88256815246E-01 -8.00943519359E-04 -3.83026326332E-03 -6.31923901182E-04 -3.98716606696E-03 +7.38993459765E-01 -3.97151949534E-01
4.02500000000E+09 +6.22150480201E-01 -3.97689041408E-01 -8.49275375296E-04 -3.73491195055E-03 -7.41939082947E-04 -3.89419864685E-03 +7.28677611619E-01 -4.07467398950E-01
4.03000000000E+09 +6.10336402605E-01 -4.07541081524E-01 -1.18899322003E-03 -3.99017730195E-03 -1.02527041945E-03 -4.20069808780E-03 +7.18336604882E-01 -4.18065504461E-01
4.03500000000E+09 +5.98313254447E-01 -4.17136608057E-01 -1.81744378966E-03 -3.92091641156E-03 -1.74139487670E-03 -4.13343637431E-03 +7.07207917456E-01 -4.29349186150E-01
4.04000000000E+09 +5.86683783583E-01 -4.27055965828E-01 -2.14850908207E-03 -3.67186582416E-03 -2.07864699740E-03 -3.91252693149E-03 +6.95628540268E-01 -4.40373519946E-01
4.04500000000E+09 +5.74843137169E-01 -4.36250859141E-01 -2.62348325660E-03 -3.49252157772E-03 -2.59117296399E-03 -3.76336029229E-03 +6.83746259629E-01 -4.51050534139E-01
4.05000000000E+09 +5.63546276499E-01 -4.45108757659E-01 -2.88840606816E-03 -3.11984396355E-03 -2.90973353353E-03 -3.42670224812E-03 +6.72063682176E-01 -4.60882404693E-01
4.05500000000E+09 +5.51515964264E-01 -4.53686454500E-01 -2.89319061254E-03 -3.04675371916E-03 -2.92480732345E-03 -3.31126394073E-03 +6.59654442595E-01 -4.70550839280E-01
4.06000000000E+09 +5.38127478504E-01 -4.61423711651E-01 -3.53558309467E-03 -3.23728378812E-03 -3.69181260303E-03 -3.41270564365E-03 +6.47195026001E-01 -4.79894283981E-01
4.06500000000E+09 +5.24259118354E-01 -4.67261477714E-01 -4.22649110399E-03 -2.49205398621E-03 -4.38386443747E-03 -2.64539570895E-03 +6.34026073206E-01 -4.89021974909E-01
4.07000000000E+09 +5.10509803491E-01 -4.73868808071E-01 -4.23476112848E-03 -2.05017444048E-03 -4.27305334429E-03 -2.11078842227E-03 +6.20179620545E-01 -4.98662381917E-01
4.07500000000E+09 +4.95088527255E-01 -4.80951627395E-01 -4.38600566575E-03 -1.66991346770E-03 -4.41741650743E-03 -1.78312058952E-03 +6.06372759894E-01 -5.07689369507E-01
4.08000000000E+09 +4.79035826870E-01 -4.87604859860E-01 -4.59258066776E-03 -1.47837638235E-03 -4.62179115577E-03 -1.59829318199E-03 +5.92886438909E-01 -5.17165511573E-01
4.08500000000E+09 +4.62525282139E-01 -4.94902631489E-01 -4.81676256488E-03 -1.07812070686E-03 -4.94618718513E-03 -1.22587191627E-03 +5.78867096716E-01 -5.26611989836E-01
4.09000000000E+09 +4.45850625572E-01 -5.02341706957E-01 -5.25242358716E-03 -5.72344894013E-04 -5.40858142486E-03 -7.44530166915E-04 +5.64300898955E-01 -5.35358277045E-01
4.09500000000E+09 +4.29051743429E-01 -5.09052093618E-01 -5.43780603339E-03 +2.00377088510E-04 -5.59472844781E-03 +1.42776124929E-04 +5.48941300130E-01 -5.43018657006E-01
4.10000000000E+09 +4.13659098243E-01 -5.15650175848E-01 -4.90268898732E-03 +7.20708621565E-04 -4.98148534172E-03 +7.57097441487E-04 +5.33099341465E-01 -5.50084617332E-01
4.10500000000E+09 +3.97308843891E-01 -5.22082941873E-01 -5.03426106184E-03 +8.83843866171E-04 -5.13030168546E-03 +8.54144473649E-04 +5.16737322420E-01 -5.57056705178E-01
4.11000000000E+09 +3.80375204848E-01 -5.26558763696E-01 -5.28567889746E-03 +1.48168366620E-03 -5.39888186010E-03 +1.38371410002E-03 +4.99804151343E-01 -5.64798772295E-01
4.11500000000E+09 +3.63998618650E-01 -5.28975632450E-01 -5.24226813448E-03 +2.22709726485E-03 -5.33075147540E-03 +2.17749467818E-03 +4.82331655501E-01 -5.72198347006E-01
4.12000000000E+09 +3.47403353871E-01 -5.30922639791E-01 -4.99317880932E-03 +2.82141037333E-03 -5.14822175437E-03 +2.78672071590E-03 +4.64857070747E-01 -5.78872626453E-01
4.12500000000E+09 +3.30787189837E-01 -5.32508618018E-01 -4.71329547274E-03 +3.56436224512E-03 -4.90590805991E-03 +3.50043007107E-03 +4.47811560348E-01 -5.84607911106E-01
4.13000000000E+09 +3.13318108388E-01 -5.35030713437E-01 -3.91174705886E-03 +4.01398669015E-03 -4.04063576196E-03 +4.01251846864E-03 +4.30740007955E-01 -5.90124286690E-01
4.13500000000E+09 +2.94065412911E-01 -5.38299049526E-01 -3.38221215517E-03 +3.98619655254E-03 -3.61848577999E-03 +3.91084552493E-03 +4.12665326789E-01 -5.95742744002E-01
4.14000000000E+09 +2.73573322837E-01 -5.41589973901E-01 -3.45261666676E-03 +3.95780049658E-03 -3.72512188042E-03 +3.91595262767E-03 +3.92942273312E-01 -6.01010009384E-01
4.14500000000E+09 +2.53341212388E-01 -5.43883350583E-01 -3.67172065940E-03 +4.70528508118E-03 -4.01216158031E-03 +4.83547105876E-03 +3.73037432568E-01 -6.05322579565E-01
4.15000000000E+09 +2.34800529547E-01 -5.47456571796E-01 -2.60704635020E-03 +5.47351784486E-03 -2.86990143601E-03 +5.64247562668E-03 +3.54010725499E-01 -6.09214225424E-01
4.15500000000E+09 +2.15379371413E-01 -5.50428813535E-01 -2.23161111351E-03 +5.48070904000E-03 -2.34871873808E-03 +5.67100569065E-03 +3.34794022643E-01 -6.13190667982E-01
4.16000000000E+09 +1.97858417867E-01 -5.52444647059E-01 -1.66352571874E-03 +5.82266302851E-03 -1.80050381502E-03 +5.93974054649E-03 +3.15464749216E-01 -6.16329949991E-01
4.16500000000E+09 +1.80576784057E-01 -5.53704853867E-01 -1.13967841162E-03 +5.88209699797E-03 -1.27166848817E-03 +5.99710082341E-03 +2.95173226942E-01 -6.18344616064E-01
4.17000000000E+09 +1.62841791914E-01 -5.52989925888E-01 -1.03177107252E-03 +6.15794821371E-03 -1.12798206507E-03 +6.31116662051E-03 +2.74854294348E-01 -6.19157283089E-01
4.17500000000E+09 +1.45623090098E-01 -5.49785539635E-01 -1.58626963004E-04 +6.88883293271E-03 -3.00402648316E-04 +7.10204559739E-03 +2.54510355274E-01 -6.19507438760E-01
4.18000000000E+09 +1.29203721720E-01 -5.45448657229E-01 +1.35877473954E-03 +6.86196892226E-03 +1.29018652511E-03 +7.17909818644E-03 +2.33456776154E-01 -6.20349857306E-01
4.18500000000E+09 +1.10326012038E-01 -5.41771598480E-01 +1.81615515767E-03 +5.92803331357E-03 +1.83525880520E-03 +6.16601018233E-03 +2.11220500304E-01 -6.20843381505E-01
4.19000000000E+09 +9.04879129304E-02 -5.36144641664E-01 +1.79276282364E-03 +5.69286193137E-03 +1.78790478667E-03 +5.92631924531E-03 +1.88744139526E-01 -6.19895087785E-01
4.19500000000E+09 +7.04587297103E-02 -5.30684798832E-01 +1.90634641083E-03 +5.99701088841E-03 +1.89097212184E-03 +6.21918796935E-03 +1.66565552528E-01 -6.17929948099E-01
4.20000000000E+09 +4.95160868139E-02 -5.25948406479E-01 +2.58416968049E-03 +6.42191194029E-03 +2.57093447808E-03 +6.71127332146E-03 +1.44987538346E-01 -6.15355461533E-01
4.20500000000E+09 +2.86569777207E-02 -5.21355610355E-01 +3.93148903009E-03 +6.63142563266E-03 +4.05140799277E-03 +6.96568592949E-03 +1.22560870087E-01 -6.12060335342E-01
4.21000000000E+09 +8.47008000752E-03 -5.16349631741E-01 +5.32655762839E-03 +6.02943591207E-03 +5.51334127726E-03 +6.26725160702E-03 +9.96982535870E-02 -6.07908615467E-01
4.21500000000E+09 -1.04197599239E-02 -5.12300978047E-01 +5.68923768418E-03 +4.71350968694E-03 +5.85457549499E-03 +4.88806353223E-03 +7.66829949350E-02 -6.02753274671E-01
4.22000000000E+09 -2.91840841717E-02 -5.06494986126E-01 +5.90279297320E-03 +4.27534084459E-03 +6.01590173867E-03 +4.38768071680E-03 +5.48521161079E-02 -5.96744391306E-01
4.22500000000E+09 -4.59395049175E-02 -4.99104022962E-01 +6.35315507451E-03 +3.91144057613E-03 +6.49292082034E-03 +4.00119325572E-03 +3.32740497539E-02 -5.90810717375E-01
4.23000000000E+09 -6.18773911098E-02 -4.91175989100E-01 +7.08852598376E-03 +3.19113830679E-03 +7.26696921743E-03 +3.27206076555E-03 +1.26517233463E-02 -5.83797575875E-01
4.23500000000E+09 -7.88181938331E-02 -4.81096254801E-01 +7.12339213773E-03 +2.32848141229E-03 +7.30470452953E-03 +2.37628533408E-03 -9.31065598523E-03 -5.76832739042E-01
4.24000000000E+09 -9.54809340616E-02 -4.69187354858E-01 +7.28420161380E-03 +1.88097718174E-03 +7.50624426448E-03 +1.91527559713E-03 -3.16860904936E-02 -5.67980993745E-01
4.24500000000E+09 -1.12784262619E-01 -4.56805750601E-01 +7.42780746431E-03 +1.25518376548E-03 +7.62849161166E-03 +1.25326082882E-03 -5.38817268801E-02 -5.57297848774E-01
4.25000000000E+09 -1.32031951001E-01 -4.43459838832E-01 +7.76092973380E-03 +1.05877686730E-03 +7.96594230178E-03 +1.01886930478E-03 -7.48745978945E-02 -5.46650610224E-01
4.25500000000E+09 -1.51313049648E-01 -4.30255045156E-01 +8.67430413744E-03 +2.99108611061E-04 +8.86192158076E-03 +2.78893731582E-04 -9.52942766923E-02 -5.35291695281E-01
4.26000000000E+09 -1.70824466417E-01 -4.17892183369E-01 +9.42292813060E-03 -1.51164698739E-03 +9.65262634417E-03 -1.61549060353E-03 -1.16051568329E-01 -5.23385786680E-01
4.26500000000E+09 -1.91239448997E-01 -4.07124859871E-01 +8.42262688143E-03 -3.00704261180E-03 +8.58793470771E-03 -3.15037960759E-03 -1.35923809171E-01 -5.10016141637E-01
4.27000000000E+09 -2.11013310744E-01 -3.94850899543E-01 +7.80050597894E-03 -3.83378678396E-03 +7.92140827679E-03 -4.06793930293E-03 -1.57288903395E-01 -4.96408328583E-01
4.27500000000E+09 -2.28943240493E-01 -3.83177324049E-01 +7.04787541563E-03 -4.72034171874E-03 +7.07552986275E-03 -4.89820201818E-03 -1.77762870811E-01 -4.80170135947E-01
4.28000000000E+09 -2.45280626541E-01 -3.70226781564E-01 +6.34666924573E-03 -4.58291372746E-03 +6.36269676242E-03 -4.78394887828E-03 -1.96744610925E-01 -4.65951179119E-01
4.28500000000E+09 -2.58523100147E-01 -3.56759361209E-01 +6.72545688237E-03 -4.87228290393E-03 +6.74505190285E-03 -5.04925322622E-03 -2.18288289255E-01 -4.50685850852E-01
4.29000000000E+09 -2.70824239520E-01 -3.42806531655E-01 +6.82121321818E-03 -6.34810721834E-03 +6.80121178860E-03 -6.53767221840E-03 -2.38253528166E-01 -4.32804853554E-01
4.29500000000E+09 -2.82559661794E-01 -3.28297651232E-01 +5.18470266039E-03 -7.57435218374E-03 +5.17481713020E-03 -7.70018041563E-03 -2.55548546227E-01 -4.13308381837E-01
4.30000000000E+09 -2.95605328220E-01 -3.11668550469E-01 +4.80021203216E-03 -7.58425458380E-03 +4.84771861905E-03 -7.68379423365E-03 -2.71328618138E-01 -3.94741603726E-01
4.30500000000E+09 -3.08968044785E-01 -2.93565099401E-01 +3.91717892003E-03 -8.56173116010E-03 +3.87676298017E-03 -8.66643291925E-03 -2.86358994679E-01 -3.75407836696E-01
4.31000000000E+09 -3.22349751166E-01 -2.73719473283E-01 +2.90232896428E-03 -8.92797653124E-03 +2.88325263405E-03 -9.05973001472E-03 -3.01731662603E-01 -3.55921048437E-01
4.31500000000E+09 -3.35161485284E-01 -2.53871205558E-01 +1.95222494940E-03 -9.17433315306E-03 +2.00992590304E-03 -9.34622188659E-03 -3.17590566510E-01 -3.35078471014E-01
4.32000000000E+09 -3.46971660706E-01 -2.34582638501E-01 +6.23848967931E-04 -9.85000156724E-03 +5.47314369227E-04 -9.96000341546E-03 -3.31580575611E-01 -3.12785052967E-01
4.32500000000E+09 -3.57556020614E-01 -2.17257368793E-01 -1.52171172059E-03 -9.31750506304E-03 -1.60718923408E-03 -9.40579013449E-03 -3.44006622311E-01 -2.90965852420E-01
4.33000000000E+09 -3.68911686878E-01 -2.01276026907E-01 -1.23306501205E-03 -7.67841227188E-03 -1.35218654820E-03 -7.77551088581E-03 -3.55956584216E-01 -2.69920902407E-01
4.33500000000E+09 -3.79229117912E-01 -1.83797183601E-01 -8.70053605433E-04 -8.29292229492E-03 -9.52871718637E-04 -8.30822603994E-03 -3.68008901773E-01 -2.46433825713E-01
4.34000000000E+09 -3.87025797616E-01 -1.65248896551E-01 -1.90033048517E-03 -9.16492864686E-03 -1.93904916867E-03 -9.16990121277E-03 -3.78930567982E-01 -2.21765610710E-01
4.34500000000E+09 -3.92692514593E-01 -1.46113203471E-01 -3.16433641145E-03 -9.55005230183E-03 -3.18067586928E-03 -9.56968599980E-03 -3.87550150193E-01 -1.96272826714E-01
4.35000000000E+09 -3.96811478893E-01 -1.25546607476E-01 -5.13945412437E-03 -9.44949224158E-03 -5.14058190620E-03 -9.51366686669E-03 -3.96101580737E-01 -1.72620604849E-01
4.35500000000E+09 -3.99997556115E-01 -1.04190326332E-01 -6.53628813351E-03 -8.06519280270E-03 -6.55850204867E-03 -8.20001702199E-03 -4.05114012630E-01 -1.49466848367E-01
4.36000000000E+09 -4.03600717855E-01 -8.25102783098E-02 -6.62915177885E-03 -6.63277564538E-03 -6.75863898180E-03 -6.69273247484E-03 -4.13310702266E-01 -1.25974961516E-01
4.36500000000E+09 -4.08494096888E-01 -5.93429379805E-02 -7.09164382673E-03 -6.78333578602E-03 -7.35157115577E-03 -6.85596045712E-03 -4.19759616324E-01 -1.00742319369E-01
4.37000000000E+09 -4.13715995550E-01 -3.55926771891E-02 -8.12515808594E-03 -5.82283417965E-03 -8.35844675181E-03 -5.77979273126E-03 -4.23576209720E-01 -7.54033149456E-02
4.37500000000E+09 -4.18466103899E-01 -1.31632117544E-02 -8.66855714004E-03 -5.10739942068E-03 -8.91638074869E-03 -5.05980826173E-03 -4.25058198622E-01 -5.00376288391E-02
4.38000000000E+09 -4.24147967491E-01 +8.31953318080E-03 -9.24507994672E-03 -4.05006402243E-03 -9.53532458615E-03 -4.00849025153E-03 -4.28060492890E-01 -2.64176783655E-02
4.38500000000E+09 -4.28561971641E-01 +2.92447802803E-02 -9.88132302911E-03 -3.00882527069E-03 -1.01772117650E-02 -2.89986965189E-03 -4.30800951704E-01 -5.57884253143E-04
4.39000000000E+09 -4.31330904007E-01 +4.84251536477E-02 -9.65752276529E-03 -2.07591658409E-03 -9.93451724291E-03 -1.89969636484E-03 -4.32536195267E-01 +2.61158015788E-02
4.39500000000E+09 -4.32095959323E-01 +6.59336687031E-02 -1.06269648709E-02 -1.52347464728E-03 -1.08170738943E-02 -1.18665944562E-03 -4.31410805043E-01 +5.20301993286E-02
4.40000000000E+09 -4.31427585472E-01 +8.34309755188E-02 -1.12795176638E-02 +5.47819697939E-04 -1.14090604184E-02 +8.28422846279E-04 -4.28814273203E-01 +7.60699269998E-02
4.40500000000E+09 -4.28905217811E-01 +1.00521291432E-01 -1.08103385377E-02 +1.80197785391E-03 -1.08679675517E-02 +2.14999051629E-03 -4.25990200002E-01 +9.90702476885E-02
4.41000000000E+09 -4.26553749961E-01 +1.19152965829E-01 -1.01638848932E-02 +3.82483593008E-03 -1.01700581000E-02 +4.14617791121E-03 -4.23791004909E-01 +1.21637532280E-01
4.41500000000E+09 -4.23574626626E-01 +1.40598105965E-01 -9.25977380427E-03 +4.46714064434E-03 -9.14984957109E-03 +4.73645233747E-03 -4.20297982455E-01 +1.47193163833E-01
4.42000000000E+09 -4.19145499157E-01 +1.63192121105E-01 -8.60576403333E-03 +5.02306368861E-03 -8.44253948995E-03 +5.34462690962E-03 -4.13660284028E-01 +1.72058863727E-01
4.42500000000E+09 -4.15185139636E-01 +1.86223549488E-01 -8.10731236153E-03 +5.63279424321E-03 -7.77345484493E-03 +5.87107080906E-03 -4.06096635540E-01 +1.94078198927E-01
4.43000000000E+09 -4.11219709656E-01 +2.08525556901E-01 -7.97769725747E-03 +6.38193033075E-03 -7.63060768624E-03 +6.54904343741E-03 -4.01420046993E-01 +2.15838267963E-01
4.43500000000E+09 -4.08418857459E-01 +2.29038280468E-01 -7.24007745415E-03 +7.73516864948E-03 -6.88793780099E-03 +7.75255814535E-03 -3.95429798606E-01 +2.38794212289E-01
4.44000000000E+09 -4.06387639672E-01 +2.47747239562E-01 -6.06588959135E-03 +9.01652017495E-03 -5.79118066797E-03 +8.93162885887E-03 -3.87142606020E-01 +2.61696825486E-01
4.44500000000E+09 -4.04584455544E-01 +2.64932260205E-01 -4.49214844380E-03 +8.76889672898E-03 -4.19040838109E-03 +8.73586557555E-03 -3.76543228097E-01 +2.82647462116E-01
4.45000000000E+09 -4.02441725594E-01 +2.80799236521E-01 -3.80343135904E-03 +8.84599087572E-03 -3.52232716989E-03 +8.84036715795E-03 -3.66595875557E-01 +3.01017231021E-01
4.45500000000E+09 -3.97345231114E-01 +2.96087236427E-01 -3.67519881355E-03 +9.32511114253E-03 -3.37536440806E-03 +9.31348623551E-03 -3.57084737272E-01 +3.19226506517E-01
4.46000000000E+09 -3.90656766272E-01 +3.10390963762E-01 -2.36829901161E-03 +1.03844401123E-02 -2.03524778139E-03 +1.02644456909E-02 -3.48324001101E-01 +3.39349685117E-01
4.46500000000E+09 -3.81172907601E-01 +3.26047185652E-01 -7.10785422334E-04 +1.05198041079E-02 -5.21858944918E-04 +1.04064098040E-02 -3.35539168247E-01 +3.58496053182E-01
4.47000000000E+09 -3.69063292375E-01 +3.41386596281E-01 +8.99247110656E-04 +1.01823451663E-02 +1.07960704577E-03 +9.99169511912E-03 -3.23183495174E-01 +3.76093725436E-01
4.47500000000E+09 -3.56892198317E-01 +3.57074216165E-01 +1.67435934251E-03 +9.30425434224E-03 +1.84367895778E-03 +9.04052798518E-03 -3.10936827242E-01 +3.92654314200E-01
4.48000000000E+09 -3.45469304616E-01 +3.74588243925E-01 +1.76296932455E-03 +9.35604811754E-03 +1.87198201766E-03 +9.10203828845E-03 -2.99986445873E-01 +4.09954316675E-01
4.48500000000E+09 -3.34063019447E-01 +3.93145155944E-01 +2.97668356367E-03 +9.62121190558E-03 +3.07097760251E-03 +9.35486673664E-03 -2.87388305749E-01 +4.27249913301E-01
4.49000000000E+09 -3.24967994192E-01 +4.11247159692E-01 +4.49356256825E-03 +9.52999762738E-03 +4.50077124603E-03 +9.21372789640E-03 -2.74031846911E-01 +4.43679582330E-01
4.49500000000E+09 -3.16436507452E-01 +4.29858690102E-01 +5.83842890298E-03 +8.48870737099E-03 +5.72619274671E-03 +8.26728653964E-03 -2.58911133259E-01 +4.57779776470E-01
4.50000000000E+09 -3.08044809006E-01 +4.46011045435E-01 +6.57905033997E-03 +7.52545648915E-03 +6.44385493582E-03 +7.42416047780E-03 -2.45222176060E-01 +4.70816748903E-01
4.50500000000E+09 -3.00627961901E-01 +4.60080286871E-01 +7.55042649874E-03 +6.55968325583E-03 +7.44209665892E-03 +6.47387709145E-03 -2.31415731722E-01 +4.83239903622E-01
4.51000000000E+09 -2.92596608886E-01 +4.71502532241E-01 +7.76892216592E-03 +5.39651614405E-03 +7.66453271873E-03 +5.31702788842E-03 -2.18806120258E-01 +4.97250821276E-01
4.51500000000E+09 -2.83766815058E-01 +4.80512097785E-01 +8.13244342952E-03 +4.73079393480E-03 +8.14514285050E-03 +4.62692847211E-03 -2.04564865273E-01 +5.10175388801E-01
4.52000000000E+09 -2.73966792948E-01 +4.88560202993E-01 +8.80303824508E-03 +3.64185664161E-03 +8.75488414838E-03 +3.49735254047E-03 -1.90451583605E-01 +5.22482513282E-01
4.52500000000E+09 -2.62467379785E-01 +4.97301755811E-01 +8.54192063777E-03 +2.03083097306E-03 +8.47007013199E-03 +1.93501055648E-03 -1.76066881952E-01 +5.32781429656E-01
4.53000000000E+09 -2.48474956631E-01 +5.07151806470E-01 +8.17624816899E-03 +1.85040352553E-03 +8.11725248914E-03 +1.69916339522E-03 -1.62429697088E-01 +5.43377788988E-01
4.53500000000E+09 -2.32043405886E-01 +5.17473371051E-01 +8.57775626131E-03 +1.39127182974E-03 +8.47859600668E-03 +1.10435193626E-03 -1.47543891635E-01 +5.53445553041E-01
4.54000000000E+09 -2.14776205212E-01 +5.28138779327E-01 +8.89184160876E-03 +3.43813951379E-04 +8.73015672624E-03 +9.22976566236E-05 -1.31998061858E-01 +5.64586560815E-01
4.54500000000E+09 -1.98301570190E-01 +5.38919496839E-01 +9.01280822784E-03 -7.85905119258E-04 +8.84219716755E-03 -9.95551423401E-04 -1.15116347585E-01 +5.73074960918E-01
4.55000000000E+09 -1.83200413956E-01 +5.49752620767E-01 +8.83686565729E-03 -2.08585710716E-03 +8.58696224178E-03 -2.28554133758E-03 -9.96412827909E-02 +5.81530707910E-01
4.55500000000E+09 -1.70656526432E-01 +5.60341440952E-01 +8.07854310581E-03 -3.78985165421E-03 +7.81730445601E-03 -3.86279705405E-03 -8.51418258365E-02 +5.88930529140E-01
4.56000000000E+09 -1.59688154074E-01 +5.71091695328E-01 +6.39961696273E-03 -4.23971516478E-03 +6.17357424851E-03 -4.26671885210E-03 -7.21261368528E-02 +5.97877305662E-01
4.56500000000E+09 -1.49448390429E-01 +5.81200353047E-01 +5.75044505934E-03 -3.97390253127E-03 +5.48728837169E-03 -4.05391694846E-03 -5.69145510218E-02 +6.06630393313E-01
4.57000000000E+09 -1.39403227576E-01 +5.89954516703E-01 +5.37044703571E-03 -3.88086765158E-03 +5.14936588716E-03 -3.90602159603E-03 -4.10776510074E-02 +6.13411467985E-01
