# Hz S RI R 50
! CMT, C1220, 16058040, 17.2.0/1
! Date: 15/08/2018 11:35:45
! Data: Format (Calibration Info)
! Freq                      S11: Re/Im (F2)                       S21: Re/Im (F2)                       S12: Re/Im (F2)                       S22: Re/Im (F2)            
4.00000000000E+09 +6.69569861600E-01 -3.55095864674E-01 +1.08557897989E-03 -3.57854378986E-03 +1.27590078146E-03 -3.59947453689E-03 +7.74777892562E-01 -3.53261001672E-01
4.00500000000E+09 +6.61508098438E-01 -3.63389948768E-01 +7.48841828777E-04 -3.89901712404E-03 +8.83275344446E-04 -3.98719988941E-03 +7.66508962690E-01 -3.64565511948E-01
4.01000000000E+09 +6.52955593040E-01 -3.70823859385E-01 +8.90511797602E-05 -4.11251072472E-03 +2.21894827898E-04 -4.20539862655E-03 +7.57759515303E-01 -3.75872280190E-01
4.01500000000E+09 +6.43693949571E-01 -3.78476051977E-01 -5.85719140378E-04 -4.06553546710E-03 -4.42283789470E-04 -4.13115597962E-03 +7.48038913524E-01 -3.86448227027E-01
4.02000000000E+09 +6.33792247405E-01 -3.87015177051E-01 -8.70867851199E-04 -3.74303724807E-03 -6.81549909565E-04 -3.83330115060E-03 +7.38177053819E-01 -3.96784010440E-01
4.02500000000E+09 +6.22863427152E-01 -3.96478914720E-01 -9.55692530217E-04 -3.71499185888E-03 -8.15119340335E-04 -3.80887250399E-03 +7.28090573469E-01 -4.06951343666E-01
4.03000000000E+09 +6.11056399281E-01 -4.06402827802E-01 -1.36396033916E-03 -3.82184398822E-03 -1.13379401807E-03 -4.01491570319E-03 +7.17987120566E-01 -4.17661291030E-01
4.03500000000E+09 +5.99218839387E-01 -4.15923192253E-01 -1.90575462702E-03 -3.74007596068E-03 -1.82405141113E-03 -4.02073596988E-03 +7.06880220987E-01 -4.28784956289E-01
4.04000000000E+09 +5.87678724323E-01 -4.26014582930E-01 -2.19806126346E-03 -3.39012263279E-03 -2.18828985896E-03 -3.60616757550E-03 +6.95611816157E-01 -4.39938789935E-01
4.04500000000E+09 +5.75919638272E-01 -4.35460214964E-01 -2.61873544228E-03 -3.23700828617E-03 -2.54251357788E-03 -3.51260830360E-03 +6.83755406394E-01 -4.50747826446E-01
4.05000000000E+09 +5.64739379572E-01 -4.44196686560E-01 -2.87612163554E-03 -2.95258882064E-03 -2.91181015180E-03 -3.24354256185E-03 +6.72030618279E-01 -4.60558142547E-01
4.05500000000E+09 +5.52908155586E-01 -4.52870623028E-01 -2.84373401272E-03 -2.89425576363E-03 -2.99989043342E-03 -3.13825261899E-03 +6.59733812456E-01 -4.70070211133E-01
4.06000000000E+09 +5.39630453810E-01 -4.60725769550E-01 -3.53260367249E-03 -2.98856264405E-03 -3.64735122975E-03 -3.18970360810E-03 +6.47356033194E-01 -4.79429563027E-01
4.06500000000E+09 +5.25688654612E-01 -4.66720649931E-01 -4.21849477286E-03 -2.23134797674E-03 -4.39123430009E-03 -2.37356446345E-03 +6.34317734924E-01 -4.88642496376E-01
4.07000000000E+09 +5.12145562417E-01 -4.73373190270E-01 -4.13479677930E-03 -1.71925820361E-03 -4.25666680338E-03 -1.81780484235E-03 +6.20691433637E-01 -4.98423724897E-01
4.07500000000E+09 +4.96719115345E-01 -4.80729387076E-01 -4.19243954499E-03 -1.34337781800E-03 -4.28279957030E-03 -1.50126587195E-03 +6.06899347721E-01 -5.07635719804E-01
4.08000000000E+09 +4.80708120708E-01 -4.87359174612E-01 -4.30600914458E-03 -1.13806815004E-03 -4.45285877212E-03 -1.27377733907E-03 +5.93353990865E-01 -5.17183195538E-01
4.08500000000E+09 +4.64304945413E-01 -4.94851557765E-01 -4.45972103193E-03 -8.26275124488E-04 -4.63076917860E-03 -9.67410050014E-04 +5.79433948633E-01 -5.26679405864E-01
4.09000000000E+09 +4.47551187414E-01 -5.02374026205E-01 -4.90511651903E-03 -4.54241469175E-04 -5.07066054693E-03 -5.84411996035E-04 +5.64965387112E-01 -5.35359454948E-01
4.09500000000E+09 +4.30850787427E-01 -5.09159275912E-01 -5.07402285228E-03 +2.26183904189E-04 -5.34728668533E-03 +2.61633840960E-04 +5.49729613835E-01 -5.43162219426E-01
4.10000000000E+09 +4.15652117900E-01 -5.15783897886E-01 -4.62458476886E-03 +8.25901326879E-04 -4.69705793944E-03 +8.66890252788E-04 +5.33841943457E-01 -5.50400745791E-01
4.10500000000E+09 +3.99259045235E-01 -5.22461428270E-01 -4.74435219853E-03 +9.36045481026E-04 -4.78919148262E-03 +9.27147947910E-04 +5.17857920021E-01 -5.57556684826E-01
4.11000000000E+09 +3.82599118549E-01 -5.26959686123E-01 -4.92692658049E-03 +1.52049201992E-03 -5.04611492996E-03 +1.45332986218E-03 +5.00818671797E-01 -5.65499041692E-01
4.11500000000E+09 +3.66096990900E-01 -5.29967234046E-01 -4.79138674861E-03 +2.20873916876E-03 -4.91687829605E-03 +2.08809635339E-03 +4.83154480186E-01 -5.73124325165E-01
4.12000000000E+09 +3.49362357238E-01 -5.32028402197E-01 -4.59345325816E-03 +2.77700861325E-03 -4.71800699215E-03 +2.73237357761E-03 +4.65667783715E-01 -5.79807441107E-01
4.12500000000E+09 +3.32597596575E-01 -5.33697469377E-01 -4.25938518614E-03 +3.34457340454E-03 -4.38242184072E-03 +3.28232672677E-03 +4.48482063503E-01 -5.85626724362E-01
4.13000000000E+09 +3.15040319974E-01 -5.36299034896E-01 -3.57199358718E-03 +3.72643192960E-03 -3.74468665463E-03 +3.70501517458E-03 +4.31311391759E-01 -5.91316444806E-01
4.13500000000E+09 +2.95947220499E-01 -5.39998418174E-01 -3.18611822973E-03 +3.62003039223E-03 -3.33080493680E-03 +3.57416587093E-03 +4.13349176948E-01 -5.97230723825E-01
4.14000000000E+09 +2.75455342786E-01 -5.43333630968E-01 -3.28611447539E-03 +3.68289992031E-03 -3.51441537192E-03 +3.67734470262E-03 +3.93357396255E-01 -6.02586154834E-01
4.14500000000E+09 +2.54937409545E-01 -5.46181232084E-01 -3.53539906379E-03 +4.45374333920E-03 -3.79017478579E-03 +4.49840017657E-03 +3.73292136554E-01 -6.07099219589E-01
4.15000000000E+09 +2.36034893842E-01 -5.49949678624E-01 -2.48074354552E-03 +5.19012401350E-03 -2.67502830579E-03 +5.29157181261E-03 +3.53923263739E-01 -6.11141808299E-01
4.15500000000E+09 +2.16391057042E-01 -5.52812988509E-01 -2.01898069661E-03 +5.18259674777E-03 -2.16595307803E-03 +5.33073054631E-03 +3.34451438161E-01 -6.14857594729E-01
4.16000000000E+09 +1.98579218419E-01 -5.54890520616E-01 -1.53875631674E-03 +5.43081953276E-03 -1.72621428915E-03 +5.57114189533E-03 +3.15134433452E-01 -6.18006394020E-01
4.16500000000E+09 +1.81134583420E-01 -5.56104319330E-01 -1.05955581847E-03 +5.51477675578E-03 -1.23062900122E-03 +5.61422961388E-03 +2.94736971995E-01 -6.20134197880E-01
4.17000000000E+09 +1.63380128777E-01 -5.55551768668E-01 -1.02833727878E-03 +5.73022153271E-03 -1.20776209192E-03 +5.85439982820E-03 +2.74252703450E-01 -6.20910806041E-01
4.17500000000E+09 +1.45851224434E-01 -5.52448469985E-01 -2.79387941300E-04 +6.45605289827E-03 -4.39548013437E-04 +6.67220600086E-03 +2.53623235515E-01 -6.21434021781E-01
4.18000000000E+09 +1.29047055315E-01 -5.48124291518E-01 +1.18947379689E-03 +6.59264978554E-03 +1.11938647274E-03 +6.90194550114E-03 +2.32377060764E-01 -6.22155772049E-01
4.18500000000E+09 +1.10252820833E-01 -5.44521838785E-01 +1.76150911597E-03 +5.69695148127E-03 +1.74245346061E-03 +6.00380212228E-03 +2.09785700863E-01 -6.22544950650E-01
4.19000000000E+09 +9.01058479122E-02 -5.38985485755E-01 +1.80910511271E-03 +5.42514354028E-03 +1.79129553282E-03 +5.64035819989E-03 +1.87079687157E-01 -6.21352117598E-01
4.19500000000E+09 +6.96711423156E-02 -5.33509761398E-01 +1.84840761748E-03 +5.43270752357E-03 +1.88428750543E-03 +5.74022403760E-03 +1.64829942622E-01 -6.19156504831E-01
4.20000000000E+09 +4.84151958495E-02 -5.28649728740E-01 +2.22168871935E-03 +5.87425349537E-03 +2.28268471071E-03 +6.12098008721E-03 +1.43105791796E-01 -6.16543677458E-01
4.20500000000E+09 +2.74144662482E-02 -5.23730318959E-01 +3.58115525366E-03 +6.30457715372E-03 +3.63230778139E-03 +6.55637995323E-03 +1.20579585877E-01 -6.13050287500E-01
4.21000000000E+09 +7.17272564259E-03 -5.18743392532E-01 +4.86670506720E-03 +5.71792817246E-03 +5.05503664321E-03 +5.99017874780E-03 +9.75713098522E-02 -6.08730700185E-01
4.21500000000E+09 -1.17083602763E-02 -5.14748476240E-01 +5.16598161113E-03 +4.50622602201E-03 +5.39134715190E-03 +4.64640615278E-03 +7.44254450330E-02 -6.03529237219E-01
4.22000000000E+09 -3.08203073389E-02 -5.09165241106E-01 +5.37677820736E-03 +4.15231114374E-03 +5.57860453167E-03 +4.23943207580E-03 +5.25058901849E-02 -5.97173569261E-01
4.22500000000E+09 -4.81596440851E-02 -5.01670657331E-01 +5.75444066130E-03 +3.79555171838E-03 +5.91781142610E-03 +3.87263456063E-03 +3.09693282467E-02 -5.91019047054E-01
4.23000000000E+09 -6.43936841059E-02 -4.93332852691E-01 +6.54930354050E-03 +3.19169576912E-03 +6.72374178796E-03 +3.25133787141E-03 +1.02376906756E-02 -5.83781201812E-01
4.23500000000E+09 -8.14697638201E-02 -4.82850293955E-01 +6.49756753184E-03 +2.36121234133E-03 +6.69856506468E-03 +2.36577800581E-03 -1.17778099809E-02 -5.76551859418E-01
4.24000000000E+09 -9.80694731118E-02 -4.70658365739E-01 +6.59554614986E-03 +2.17658681064E-03 +6.72396264899E-03 +2.22083163397E-03 -3.41852775301E-02 -5.67349730166E-01
4.24500000000E+09 -1.15490781419E-01 -4.58378147276E-01 +6.91236041322E-03 +1.55777707545E-03 +7.03961640973E-03 +1.56158020052E-03 -5.64428323260E-02 -5.56490584346E-01
4.25000000000E+09 -1.35179448054E-01 -4.44972827783E-01 +7.32808523384E-03 +1.52941986701E-03 +7.50827228012E-03 +1.55851822650E-03 -7.72459878656E-02 -5.45337233443E-01
4.25500000000E+09 -1.54737358126E-01 -4.31388186861E-01 +8.34360696046E-03 +8.60246824530E-04 +8.47910796750E-03 +8.24736696184E-04 -9.75607538251E-02 -5.33658276432E-01
4.26000000000E+09 -1.74512929715E-01 -4.18599299194E-01 +9.39605685473E-03 -1.01174166449E-03 +9.55068823882E-03 -1.05417836432E-03 -1.17970024181E-01 -5.21403793430E-01
4.26500000000E+09 -1.94977638580E-01 -4.07299601905E-01 +8.40825579944E-03 -2.62616813783E-03 +8.51801631087E-03 -2.74717335064E-03 -1.37396345581E-01 -5.07954956652E-01
4.27000000000E+09 -2.14767597144E-01 -3.94725887543E-01 +7.73431760291E-03 -3.51832027005E-03 +7.83342134696E-03 -3.57697929527E-03 -1.58454309854E-01 -4.94295590826E-01
4.27500000000E+09 -2.32550120524E-01 -3.82655252377E-01 +7.08519949170E-03 -4.28002492909E-03 +7.12845114611E-03 -4.34720744718E-03 -1.78566150536E-01 -4.78065424380E-01
4.28000000000E+09 -2.48875028061E-01 -3.69502785270E-01 +6.37573109073E-03 -4.32698703900E-03 +6.44475446920E-03 -4.36596608170E-03 -1.97600895360E-01 -4.63837402822E-01
4.28500000000E+09 -2.62225357805E-01 -3.55685681449E-01 +6.75290242037E-03 -4.39551846864E-03 +6.82231149590E-03 -4.52161988901E-03 -2.18948101526E-01 -4.48324763673E-01
4.29000000000E+09 -2.74389466895E-01 -3.41296062011E-01 +7.04878146682E-03 -6.00946841090E-03 +7.18284815891E-03 -6.10804674280E-03 -2.38451954517E-01 -4.30328930726E-01
4.29500000000E+09 -2.85899042748E-01 -3.26483299864E-01 +5.44534180371E-03 -7.37555332579E-03 +5.47635317921E-03 -7.53191079101E-03 -2.55370198336E-01 -4.10804499206E-01
4.30000000000E+09 -2.98836322514E-01 -3.09584016387E-01 +4.97019486850E-03 -7.41431976436E-03 +4.97100269669E-03 -7.57517211734E-03 -2.70887611779E-01 -3.92407818125E-01
4.30500000000E+09 -3.11962235701E-01 -2.91154831891E-01 +3.91537873421E-03 -8.44191252839E-03 +3.94951780022E-03 -8.57094316023E-03 -2.85567493127E-01 -3.73167062117E-01
4.31000000000E+09 -3.25026498721E-01 -2.70900305334E-01 +2.87032334640E-03 -8.63904403957E-03 +2.90055648903E-03 -8.80830936772E-03 -3.00795990998E-01 -3.53778519879E-01
4.31500000000E+09 -3.37478481599E-01 -2.50894099263E-01 +2.04708832114E-03 -8.88417150441E-03 +2.08225111199E-03 -9.06892957514E-03 -3.16425254095E-01 -3.33207262957E-01
4.32000000000E+09 -3.48864382088E-01 -2.31463259834E-01 +7.63325769962E-04 -9.42296954648E-03 +7.25792787796E-04 -9.61774882557E-03 -3.30277020862E-01 -3.10946715540E-01
4.32500000000E+09 -3.59163706206E-01 -2.14122590817E-01 -1.33515703361E-03 -9.00798241012E-03 -1.42314374000E-03 -9.17170138981E-03 -3.42497901218E-01 -2.89053860248E-01
4.33000000000E+09 -3.70364927276E-01 -1.97942498648E-01 -1.06967480704E-03 -7.24247158518E-03 -1.17452081635E-03 -7.36771895769E-03 -3.53908962544E-01 -2.68431591705E-01
4.33500000000E+09 -3.80381105409E-01 -1.80414523003E-01 -5.86571360501E-04 -7.89185576662E-03 -7.04865335319E-04 -7.95743569709E-03 -3.65717797476E-01 -2.45159269176E-01
4.34000000000E+09 -3.87894998234E-01 -1.61653367945E-01 -1.40970365995E-03 -8.80619712739E-03 -1.55026884919E-03 -8.86116547596E-03 -3.76494536340E-01 -2.21146303833E-01
4.34500000000E+09 -3.93070613827E-01 -1.42281348991E-01 -2.54297848004E-03 -9.23038357324E-03 -2.67274834936E-03 -9.24708443253E-03 -3.85292326296E-01 -1.96020626483E-01
4.35000000000E+09 -3.96524783665E-01 -1.21891880872E-01 -4.58594749029E-03 -9.36827227167E-03 -4.64021117501E-03 -9.41020477499E-03 -3.93918473536E-01 -1.72565903986E-01
4.35500000000E+09 -3.99503663710E-01 -1.01014247616E-01 -6.03324602994E-03 -7.94242994123E-03 -6.14123365070E-03 -7.98638118611E-03 -4.02916610267E-01 -1.49586946166E-01
4.36000000000E+09 -4.03124963755E-01 -7.94662900584E-02 -5.99478578975E-03 -6.59505778363E-03 -6.13157535644E-03 -6.54847728050E-03 -4.11131718266E-01 -1.26288844714E-01
4.36500000000E+09 -4.07882501713E-01 -5.63269452506E-02 -6.45194335794E-03 -6.91224528332E-03 -6.64344945986E-03 -6.88121242058E-03 -4.17448021938E-01 -1.01400037985E-01
4.37000000000E+09 -4.12957847546E-01 -3.25816053754E-02 -7.47657068720E-03 -6.09665556220E-03 -7.65907182298E-03 -6.05740280986E-03 -4.21737193120E-01 -7.63750308723E-02
4.37500000000E+09 -4.17302490545E-01 -9.95887338312E-03 -8.14367827240E-03 -5.56878238734E-03 -8.36701648913E-03 -5.49654571833E-03 -4.23136155140E-01 -5.11649492742E-02
4.38000000000E+09 -4.22643108302E-01 +1.12097466641E-02 -8.71896922620E-03 -4.58486649794E-03 -8.94591975929E-03 -4.44523453695E-03 -4.26214842928E-01 -2.79783637082E-02
4.38500000000E+09 -4.26846105381E-01 +3.20486465056E-02 -9.59891901671E-03 -3.66710993653E-03 -9.85996517205E-03 -3.52202764369E-03 -4.29309069287E-01 -2.58656736934E-03
4.39000000000E+09 -4.29488452739E-01 +5.12074099085E-02 -9.51013652867E-03 -2.68120919534E-03 -9.71706914073E-03 -2.49921584181E-03 -4.31479936092E-01 +2.41127964162E-02
4.39500000000E+09 -4.29916639434E-01 +6.84624711323E-02 -1.06397058040E-02 -2.05760756891E-03 -1.07607294105E-02 -1.84954208780E-03 -4.30591757109E-01 +5.00353829121E-02
4.40000000000E+09 -4.29079144913E-01 +8.58309025078E-02 -1.13330120640E-02 +2.20649406062E-05 -1.13976065491E-02 +3.24745898973E-04 -4.28287954300E-01 +7.38917547036E-02
4.40500000000E+09 -4.26262227628E-01 +1.02638306297E-01 -1.09722239498E-02 +1.41813869739E-03 -1.09855122079E-02 +1.65375824025E-03 -4.25695607389E-01 +9.69241122209E-02
4.41000000000E+09 -4.24174874122E-01 +1.20929549368E-01 -1.02871738959E-02 +3.36412424268E-03 -1.03040668157E-02 +3.56896912474E-03 -4.23617094073E-01 +1.19408712080E-01
4.41500000000E+09 -4.20893571647E-01 +1.42366062587E-01 -9.50946093466E-03 +3.94832690331E-03 -9.45617011424E-03 +4.24521732707E-03 -4.20500975615E-01 +1.44744917035E-01
4.42000000000E+09 -4.16111889922E-01 +1.64842554966E-01 -9.06283367549E-03 +4.74979286185E-03 -8.90405058885E-03 +5.00712674087E-03 -4.14477402029E-01 +1.69626763863E-01
4.42500000000E+09 -4.11953498006E-01 +1.87302901193E-01 -8.39888768807E-03 +5.59600050293E-03 -8.18708161398E-03 +5.80506103203E-03 -4.07588053039E-01 +1.92076699119E-01
4.43000000000E+09 -4.08146429084E-01 +2.09325149638E-01 -8.17803388748E-03 +6.24673592074E-03 -7.92782093132E-03 +6.40009104806E-03 -4.02864256981E-01 +2.14173848600E-01
4.43500000000E+09 -4.05304908035E-01 +2.29654127685E-01 -7.50203025728E-03 +7.63577606985E-03 -7.25522455161E-03 +7.65018171476E-03 -3.97093952128E-01 +2.37414262651E-01
4.44000000000E+09 -4.03413941360E-01 +2.47995116214E-01 -6.27468294913E-03 +9.02256846799E-03 -6.04273386102E-03 +8.97825785601E-03 -3.88892183771E-01 +2.60456877255E-01
4.44500000000E+09 -4.01813624230E-01 +2.65138950159E-01 -4.51547446486E-03 +8.76416616177E-03 -4.25252123118E-03 +8.73122866193E-03 -3.78460041046E-01 +2.81642962173E-01
4.45000000000E+09 -3.99284570875E-01 +2.80873780400E-01 -3.85068579827E-03 +8.58791002623E-03 -3.62363294249E-03 +8.59754229457E-03 -3.68644932027E-01 +3.00383323700E-01
4.45500000000E+09 -3.94265415369E-01 +2.95964898900E-01 -3.95347880866E-03 +9.12909711839E-03 -3.70304324899E-03 +9.16524713370E-03 -3.59012624168E-01 +3.19030781614E-01
4.46000000000E+09 -3.87434711899E-01 +3.09765340885E-01 -2.44157134754E-03 +1.03122182543E-02 -2.15897106084E-03 +1.02833195033E-02 -3.50173112976E-01 +3.39145806464E-01
4.46500000000E+09 -3.78123048837E-01 +3.25121861464E-01 -8.62017934951E-04 +1.02871657702E-02 -5.30413708109E-04 +1.02535728411E-02 -3.37564667754E-01 +3.58480871045E-01
4.47000000000E+09 -3.66206174014E-01 +3.40279874280E-01 +5.65272349026E-04 +9.84756909910E-03 +8.80392146912E-04 +9.68425058559E-03 -3.25234821747E-01 +3.76614582877E-01
4.47500000000E+09 -3.54351907886E-01 +3.55767435869E-01 +1.19465761159E-03 +8.97109048814E-03 +1.41641307349E-03 +8.80684033766E-03 -3.12871151576E-01 +3.93246867520E-01
4.48000000000E+09 -3.42838995587E-01 +3.73255238746E-01 +1.22862261722E-03 +9.22813500792E-03 +1.38114534870E-03 +8.95904453318E-03 -3.01894489227E-01 +4.11012943258E-01
4.48500000000E+09 -3.31575358557E-01 +3.91652948116E-01 +2.39178471499E-03 +9.68834491614E-03 +2.51391200604E-03 +9.38927442770E-03 -2.88958880234E-01 +4.28386560854E-01
4.49000000000E+09 -3.22386009870E-01 +4.09471778140E-01 +4.03201057774E-03 +9.74464212653E-03 +4.02602563916E-03 +9.40664154464E-03 -2.75415113530E-01 +4.44988348387E-01
4.49500000000E+09 -3.14148673884E-01 +4.27704608969E-01 +5.47398455599E-03 +8.71062829810E-03 +5.33745086730E-03 +8.42012265189E-03 -2.60262729196E-01 +4.59272434542E-01
4.50000000000E+09 -3.06103388102E-01 +4.43822125422E-01 +6.14572433827E-03 +7.80211063655E-03 +6.03280534344E-03 +7.62305705651E-03 -2.46434432877E-01 +4.72501564636E-01
4.50500000000E+09 -2.98969873658E-01 +4.57745857838E-01 +7.17496955054E-03 +6.94675489215E-03 +7.10995333109E-03 +6.81852879368E-03 -2.32536996980E-01 +4.85143916671E-01
4.51000000000E+09 -2.91204614274E-01 +4.69091846552E-01 +7.50711183383E-03 +5.80117346844E-03 +7.42394992354E-03 +5.65252457733E-03 -2.19568300508E-01 +4.99246540253E-01
4.51500000000E+09 -2.82513813541E-01 +4.77992314635E-01 +7.89145667432E-03 +5.19432519258E-03 +7.81955013169E-03 +5.00792043364E-03 -2.05017088058E-01 +5.12368899676E-01
4.52000000000E+09 -2.72891183753E-01 +4.86131456465E-01 +8.63591086233E-03 +4.16062656371E-03 +8.53340328901E-03 +4.01917586602E-03 -1.90799938120E-01 +5.24695030618E-01
4.52500000000E+09 -2.61489671838E-01 +4.94759729796E-01 +8.53256735723E-03 +2.65758822472E-03 +8.39371209147E-03 +2.55273100196E-03 -1.75852864178E-01 +5.35192263338E-01
4.53000000000E+09 -2.47648286833E-01 +5.04513523835E-01 +8.37507638813E-03 +2.44195612411E-03 +8.27333217315E-03 +2.30373660472E-03 -1.61939380616E-01 +5.45708450203E-01
4.53500000000E+09 -2.31422059249E-01 +5.14633871655E-01 +8.81204110383E-03 +1.74111760893E-03 +8.69998572637E-03 +1.57537347555E-03 -1.46709594064E-01 +5.55705151304E-01
4.54000000000E+09 -2.14567761582E-01 +5.25332039458E-01 +9.14744783460E-03 +7.23976236966E-04 +8.99045909045E-03 +5.24589901856E-04 -1.31028327456E-01 +5.66581200257E-01
4.54500000000E+09 -1.98242650102E-01 +5.36282995203E-01 +9.44139853669E-03 -5.46181153362E-04 +9.18603346499E-03 -6.89265822181E-04 -1.14066852695E-01 +5.75156307894E-01
4.55000000000E+09 -1.83321994872E-01 +5.47244548699E-01 +9.18165668819E-03 -1.92819318055E-03 +8.90578337167E-03 -2.08613075834E-03 -9.80990841776E-02 +5.83484147845E-01
4.55500000000E+09 -1.70938085455E-01 +5.58008018036E-01 +8.34796577619E-03 -3.66927372292E-03 +8.07721945475E-03 -3.74959378089E-03 -8.34739459314E-02 +5.90746504970E-01
4.56000000000E+09 -1.60007407053E-01 +5.68732901065E-01 +6.62856385932E-03 -4.08035407678E-03 +6.42383081563E-03 -4.08428214737E-03 -7.01451075655E-02 +5.99494384881E-01
4.56500000000E+09 -1.49898402923E-01 +5.78864018388E-01 +5.97836804934E-03 -3.86151590732E-03 +5.82325055407E-03 -3.91792251391E-03 -5.48122410518E-02 +6.07805495913E-01
4.57000000000E+09 -1.39932841812E-01 +5.87587532236E-01 +5.68536788807E-03 -3.83314481162E-03 +5.50694377516E-03 -3.89391054795E-03 -3.89841245441E-02 +6.14432058918E-01
