# Hz S RI R 50
! CMT, C1220, 16058040, 17.2.0/1
! Date: 15/08/2018 11:34:25
! Data: Format (Calibration Info)
! Freq                      S11: Re/Im (F2)                       S21: Re/Im (F2)                       S12: Re/Im (F2)                       S22: Re/Im (F2)            
4.00000000000E+09 +6.67986549660E-01 -3.55268513553E-01 +1.15632269557E-03 -2.37385348393E-03 +1.31346877067E-03 -2.39803952396E-03 +7.74914835292E-01 -3.53711860813E-01
4.00500000000E+09 +6.60248028976E-01 -3.63189248821E-01 +8.81096596590E-04 -2.67443208337E-03 +9.61491667820E-04 -2.70106204214E-03 +7.66648073041E-01 -3.65023844869E-01
4.01000000000E+09 +6.51911064833E-01 -3.70661902176E-01 +4.06062167830E-04 -2.77367789146E-03 +4.60891486763E-04 -2.84888855200E-03 +7.57750674354E-01 -3.76535043729E-01
4.01500000000E+09 +6.42892533247E-01 -3.78534806080E-01 -1.36812729309E-04 -2.62407166024E-03 -1.93967676573E-05 -2.68965282724E-03 +7.47955651255E-01 -3.87064013785E-01
4.02000000000E+09 +6.32729409332E-01 -3.87384929013E-01 -1.34017782748E-04 -2.35850852187E-03 +3.92704294543E-05 -2.44992342684E-03 +7.38128559324E-01 -3.97431136072E-01
4.02500000000E+09 +6.21513119053E-01 -3.96774189668E-01 -1.65233047534E-04 -2.54559189383E-03 -1.32673685058E-05 -2.60699382509E-03 +7.27994434532E-01 -4.07446207893E-01
4.03000000000E+09 +6.09577587950E-01 -4.06403191141E-01 -4.65717656332E-04 -2.75088286066E-03 -3.29738297653E-04 -2.85635220363E-03 +7.17821681621E-01 -4.18215690751E-01
4.03500000000E+09 +5.97675999267E-01 -4.15829746682E-01 -9.55838661552E-04 -2.60941122812E-03 -8.61662848773E-04 -2.72522015181E-03 +7.06639847466E-01 -4.29483004054E-01
4.04000000000E+09 +5.86254375611E-01 -4.25462070324E-01 -1.01284335380E-03 -2.43273321469E-03 -9.67150809563E-04 -2.54088499550E-03 +6.95232201887E-01 -4.40420972585E-01
4.04500000000E+09 +5.74883941851E-01 -4.34959211741E-01 -1.31020703534E-03 -2.42248730601E-03 -1.25210885841E-03 -2.61471069330E-03 +6.83288011175E-01 -4.51035471233E-01
4.05000000000E+09 +5.63538341102E-01 -4.44011207436E-01 -1.49892374675E-03 -2.37747667173E-03 -1.45986474046E-03 -2.57386657937E-03 +6.71861337371E-01 -4.60834571772E-01
4.05500000000E+09 +5.51384048696E-01 -4.52601139756E-01 -1.55037318302E-03 -2.40090524937E-03 -1.59526537085E-03 -2.58835475450E-03 +6.59662617315E-01 -4.70557982081E-01
4.06000000000E+09 +5.38174412566E-01 -4.60197754278E-01 -2.24499326402E-03 -2.42363009245E-03 -2.33687580937E-03 -2.59091489584E-03 +6.47226955886E-01 -4.79927895423E-01
4.06500000000E+09 +5.24454356815E-01 -4.66117380441E-01 -2.67515935276E-03 -1.66805925672E-03 -2.82307710632E-03 -1.81088680884E-03 +6.33929067835E-01 -4.89092955961E-01
4.07000000000E+09 +5.10760120558E-01 -4.72797973644E-01 -2.35370126234E-03 -1.58953080384E-03 -2.37620786408E-03 -1.59798661711E-03 +6.20214408090E-01 -4.98611859459E-01
4.07500000000E+09 +4.95399963942E-01 -4.79948659600E-01 -2.67324992078E-03 -1.56598476309E-03 -2.69899943966E-03 -1.65077728534E-03 +6.06769619784E-01 -5.07620481354E-01
4.08000000000E+09 +4.79577816293E-01 -4.86543651501E-01 -2.86587545018E-03 -1.28543826469E-03 -2.91847902537E-03 -1.44482150022E-03 +5.93489047458E-01 -5.17464681844E-01
4.08500000000E+09 +4.63261051033E-01 -4.93940744573E-01 -3.13917728853E-03 -1.07107739999E-03 -3.19221787442E-03 -1.16287090443E-03 +5.79299370664E-01 -5.27165405739E-01
4.09000000000E+09 +4.46670304558E-01 -5.01547556324E-01 -3.36175065386E-03 -5.47387251321E-04 -3.56775945421E-03 -6.59458859053E-04 +5.64816944032E-01 -5.35938455833E-01
4.09500000000E+09 +4.30148206884E-01 -5.08343180772E-01 -3.26259813957E-03 -1.75602623786E-05 -3.40187916939E-03 -4.39477155578E-05 +5.49435336067E-01 -5.43553195109E-01
4.10000000000E+09 +4.14767236371E-01 -5.15261247964E-01 -2.69405784920E-03 +2.11843039752E-06 -2.80560545128E-03 -1.30702359525E-05 +5.33765914013E-01 -5.50660314255E-01
4.10500000000E+09 +3.98120618908E-01 -5.21855910789E-01 -3.13881485524E-03 -2.27709163686E-04 -3.22503851264E-03 -2.23280147014E-04 +5.17755773258E-01 -5.57989796448E-01
4.11000000000E+09 +3.81287858677E-01 -5.25807892076E-01 -3.51108175417E-03 +3.06215267590E-04 -3.57534128131E-03 +2.20941788486E-04 +5.00480361126E-01 -5.66147618495E-01
4.11500000000E+09 +3.65449908559E-01 -5.28472564253E-01 -3.58521921797E-03 +9.56985070193E-04 -3.66228144482E-03 +9.13549932657E-04 +4.82620589439E-01 -5.73517705649E-01
4.12000000000E+09 +3.49021982884E-01 -5.30737334742E-01 -3.29177604933E-03 +1.53725186471E-03 -3.35377542018E-03 +1.46648028280E-03 +4.65197956105E-01 -5.80013652502E-01
4.12500000000E+09 +3.32346673935E-01 -5.32547210383E-01 -2.96466747899E-03 +1.82962086916E-03 -3.06557287003E-03 +1.82128297238E-03 +4.48243088379E-01 -5.85729454560E-01
4.13000000000E+09 +3.14838384584E-01 -5.35402616518E-01 -2.32348723658E-03 +1.79988884883E-03 -2.45840826785E-03 +1.84844606694E-03 +4.31193033841E-01 -5.91762215206E-01
4.13500000000E+09 +2.95466650310E-01 -5.38869159742E-01 -2.45142821373E-03 +1.59131654026E-03 -2.52818390615E-03 +1.54434665719E-03 +4.12747597172E-01 -5.97706968879E-01
4.14000000000E+09 +2.75036672454E-01 -5.41819149591E-01 -2.70213698851E-03 +1.74728010395E-03 -2.81615060402E-03 +1.64626338609E-03 +3.92563331018E-01 -6.02676508174E-01
4.14500000000E+09 +2.55287228514E-01 -5.44423446335E-01 -3.00192568812E-03 +2.37495889318E-03 -3.19475472977E-03 +2.31794568935E-03 +3.72678883692E-01 -6.06885132039E-01
4.15000000000E+09 +2.36230296744E-01 -5.48599139015E-01 -2.38490083236E-03 +2.75572277444E-03 -2.54361415316E-03 +2.81583555735E-03 +3.53807995575E-01 -6.10886178151E-01
4.15500000000E+09 +2.16805217815E-01 -5.51248119914E-01 -2.34245765186E-03 +2.85115565760E-03 -2.46835801801E-03 +2.97678090692E-03 +3.34544369045E-01 -6.14905630847E-01
4.16000000000E+09 +1.99422609478E-01 -5.53349092077E-01 -2.18041011371E-03 +3.34218299455E-03 -2.29589460980E-03 +3.40178277032E-03 +3.14942987891E-01 -6.18400139730E-01
4.16500000000E+09 +1.82278712978E-01 -5.54776106723E-01 -1.72879843884E-03 +3.60613405254E-03 -1.84569555316E-03 +3.71501795357E-03 +2.94347970084E-01 -6.20233396324E-01
4.17000000000E+09 +1.64604723048E-01 -5.54532948509E-01 -1.64923601432E-03 +3.87002937201E-03 -1.77445960808E-03 +3.94092444338E-03 +2.74007127132E-01 -6.20686038054E-01
4.17500000000E+09 +1.47246034291E-01 -5.51790187484E-01 -9.47075890521E-04 +4.38479962847E-03 -1.09342595044E-03 +4.55708765112E-03 +2.53842941385E-01 -6.21415255772E-01
4.18000000000E+09 +1.29958201097E-01 -5.47841686801E-01 -1.34811656043E-05 +4.18397362919E-03 -5.96860106825E-05 +4.34071423935E-03 +2.32575275153E-01 -6.22673093995E-01
4.18500000000E+09 +1.10915108123E-01 -5.43757987002E-01 -6.22326826570E-05 +3.59952099892E-03 -1.16795067951E-04 +3.72421876065E-03 +2.09668889331E-01 -6.23149000421E-01
4.19000000000E+09 +9.11892360702E-02 -5.37957378633E-01 -4.05550613162E-04 +3.85565123912E-03 -4.54249796706E-04 +3.99230392358E-03 +1.86699350342E-01 -6.22023466412E-01
4.19500000000E+09 +7.12825079939E-02 -5.32877357728E-01 -1.41494798508E-04 +4.53582763064E-03 -1.88939168846E-04 +4.72167562286E-03 +1.64360326612E-01 -6.19347419731E-01
4.20000000000E+09 +5.02388880581E-02 -5.28704739805E-01 +4.88138655260E-04 +4.95106320880E-03 +4.70364426489E-04 +5.20699619326E-03 +1.42879774683E-01 -6.16715058086E-01
4.20500000000E+09 +2.87122449788E-02 -5.24535307160E-01 +1.73682554912E-03 +5.32981023080E-03 +1.71832238870E-03 +5.54297054540E-03 +1.20253009951E-01 -6.13472227262E-01
4.21000000000E+09 +7.83146787107E-03 -5.19729037203E-01 +2.88674134333E-03 +4.76981614263E-03 +3.00147016338E-03 +4.92112918406E-03 +9.67679473089E-02 -6.09084492477E-01
4.21500000000E+09 -1.18006901259E-02 -5.15046989353E-01 +2.97212741850E-03 +3.75279114185E-03 +2.98293662907E-03 +3.83848835805E-03 +7.37835919422E-02 -6.03268432749E-01
4.22000000000E+09 -3.03346139837E-02 -5.08733565248E-01 +3.06734856657E-03 +3.62428625896E-03 +3.11786399845E-03 +3.70917104463E-03 +5.19418298368E-02 -5.96799019702E-01
4.22500000000E+09 -4.68835751314E-02 -5.01691174514E-01 +3.34867120516E-03 +3.46027811412E-03 +3.32802048462E-03 +3.53657582672E-03 +3.09443335086E-02 -5.90431911570E-01
4.23000000000E+09 -6.33529867874E-02 -4.93874483821E-01 +3.72897597567E-03 +3.16755608329E-03 +3.76929218772E-03 +3.32112498212E-03 +1.03393289269E-02 -5.83929625738E-01
4.23500000000E+09 -8.05654714493E-02 -4.83597645900E-01 +3.97995534016E-03 +2.93397528955E-03 +3.99861604965E-03 +3.09030745559E-03 -1.20667103176E-02 -5.76558335143E-01
4.24000000000E+09 -9.77248435375E-02 -4.71700729199E-01 +4.28997357311E-03 +2.78720520562E-03 +4.35189398362E-03 +2.89285473322E-03 -3.42307643507E-02 -5.66933154556E-01
4.24500000000E+09 -1.15409672175E-01 -4.58702381393E-01 +4.67517586410E-03 +2.29212217452E-03 +4.75322260022E-03 +2.38430691828E-03 -5.60767192732E-02 -5.55957056423E-01
4.25000000000E+09 -1.34575376136E-01 -4.45446667383E-01 +5.13039078273E-03 +2.36457683526E-03 +5.25028984124E-03 +2.39998987445E-03 -7.66136292840E-02 -5.45259447180E-01
4.25500000000E+09 -1.54217336965E-01 -4.32104172795E-01 +5.74565351264E-03 +1.65352596346E-03 +5.92827818344E-03 +1.73023045382E-03 -9.68877570829E-02 -5.34074090041E-01
4.26000000000E+09 -1.74388933399E-01 -4.19619219310E-01 +6.42077101083E-03 +5.65879246392E-04 +6.64612668242E-03 +5.99869133926E-04 -1.17631304672E-01 -5.22165210534E-01
4.26500000000E+09 -1.95072711765E-01 -4.07858613223E-01 +5.97954694238E-03 -4.20339407889E-04 +6.11191825569E-03 -4.27053607921E-04 -1.37649601217E-01 -5.08528606533E-01
4.27000000000E+09 -2.14587710968E-01 -3.95245124088E-01 +5.57815716460E-03 -9.23830897174E-04 +5.73692134202E-03 -9.49845634426E-04 -1.58420965657E-01 -4.94412827653E-01
4.27500000000E+09 -2.32390174541E-01 -3.83382534120E-01 +5.34248167318E-03 -1.42256134642E-03 +5.50592852092E-03 -1.55954939865E-03 -1.78385638011E-01 -4.78550472911E-01
4.28000000000E+09 -2.48457869462E-01 -3.70598501399E-01 +5.20211607809E-03 -1.22799010451E-03 +5.30684366100E-03 -1.39679901763E-03 -1.97678273945E-01 -4.64557510349E-01
4.28500000000E+09 -2.62550551332E-01 -3.57363396223E-01 +5.82330702067E-03 -1.50873629927E-03 +5.84144423632E-03 -1.67399850252E-03 -2.19511429359E-01 -4.48991993747E-01
4.29000000000E+09 -2.75164899998E-01 -3.42632881900E-01 +6.25839864777E-03 -2.90481650044E-03 +6.32829639667E-03 -3.07878921400E-03 -2.39155228271E-01 -4.30456457043E-01
4.29500000000E+09 -2.86966351801E-01 -3.27277561526E-01 +5.18498347893E-03 -3.97956403246E-03 +5.16301962423E-03 -4.17922367593E-03 -2.55336276972E-01 -4.10511240737E-01
4.30000000000E+09 -2.99529309089E-01 -3.10328556536E-01 +5.17377238839E-03 -4.12323682143E-03 +5.17821431321E-03 -4.31349530489E-03 -2.70671405224E-01 -3.92895924327E-01
4.30500000000E+09 -3.12497261143E-01 -2.91938011857E-01 +4.52664067253E-03 -5.23455768432E-03 +4.51733952861E-03 -5.41505321677E-03 -2.85972432814E-01 -3.73864986566E-01
4.31000000000E+09 -3.25587917173E-01 -2.72153348540E-01 +3.71210848413E-03 -5.38303089662E-03 +3.64752261916E-03 -5.57654084720E-03 -3.01528632385E-01 -3.54238828139E-01
4.31500000000E+09 -3.38456724368E-01 -2.52305318719E-01 +3.42573589534E-03 -5.84637369081E-03 +3.34778951538E-03 -5.87559095191E-03 -3.17154638156E-01 -3.32822656218E-01
4.32000000000E+09 -3.50442213392E-01 -2.32772098084E-01 +2.52755279731E-03 -6.76369559689E-03 +2.41388035319E-03 -6.82507416273E-03 -3.30056728578E-01 -3.10515086501E-01
4.32500000000E+09 -3.61115429800E-01 -2.14882139150E-01 +7.61965009954E-04 -6.54743090039E-03 +6.71560590767E-04 -6.56071991267E-03 -3.41861727052E-01 -2.89161905804E-01
4.33000000000E+09 -3.72034331394E-01 -1.98237698303E-01 +1.19580548831E-03 -5.39040496770E-03 +1.16465923890E-03 -5.34294063114E-03 -3.53702515393E-01 -2.69128461108E-01
4.33500000000E+09 -3.81890755165E-01 -1.80611280718E-01 +1.42874196901E-03 -6.04813791116E-03 +1.37885993738E-03 -6.11486678246E-03 -3.65885290752E-01 -2.45831738221E-01
4.34000000000E+09 -3.89649432099E-01 -1.61855164855E-01 +1.01719886212E-03 -6.76693865728E-03 +9.56357147627E-04 -6.80468167736E-03 -3.77034754259E-01 -2.21440018174E-01
4.34500000000E+09 -3.94919838901E-01 -1.42171956524E-01 +2.46473610883E-04 -7.95694354776E-03 +2.47391051556E-04 -7.91921910165E-03 -3.85344322325E-01 -1.96257578406E-01
4.35000000000E+09 -3.98330038384E-01 -1.21512963036E-01 -1.78033016148E-03 -8.36698631603E-03 -1.74855541093E-03 -8.40857059628E-03 -3.93956464905E-01 -1.73038814292E-01
4.35500000000E+09 -4.01220531754E-01 -1.00392151495E-01 -3.53154507878E-03 -7.30991055379E-03 -3.49375419342E-03 -7.33369932957E-03 -4.03210410467E-01 -1.50469617639E-01
4.36000000000E+09 -4.04504455200E-01 -7.88230229537E-02 -3.49449994569E-03 -5.77591131586E-03 -3.48366148579E-03 -5.90981290711E-03 -4.12154910262E-01 -1.26888196690E-01
4.36500000000E+09 -4.09533871277E-01 -5.56451531867E-02 -3.67229003406E-03 -6.06143611294E-03 -3.76867963226E-03 -6.10909810842E-03 -4.18255941368E-01 -1.01375912489E-01
4.37000000000E+09 -4.14573207422E-01 -3.14446368268E-02 -4.14070392179E-03 -5.59906102840E-03 -4.32155125156E-03 -5.68774370553E-03 -4.21950417886E-01 -7.62889261807E-02
4.37500000000E+09 -4.19164177909E-01 -8.32246255001E-03 -4.69272209525E-03 -5.79471018065E-03 -4.91753960215E-03 -5.84598549685E-03 -4.23360450562E-01 -5.17765700141E-02
4.38000000000E+09 -4.23524266468E-01 +1.32959748600E-02 -5.67199093705E-03 -5.09940400120E-03 -5.89399602474E-03 -5.12083245042E-03 -4.27477483098E-01 -2.85666929004E-02
4.38500000000E+09 -4.27205088132E-01 +3.38803884188E-02 -6.51268929552E-03 -4.47462043512E-03 -6.76302459974E-03 -4.42842047768E-03 -4.30895491281E-01 -2.02256020443E-03
4.39000000000E+09 -4.29609939036E-01 +5.23382197801E-02 -6.60371586711E-03 -3.87833783190E-03 -6.83130778636E-03 -3.78170475671E-03 -4.32249391124E-01 +2.54678655866E-02
4.39500000000E+09 -4.30250873485E-01 +6.94284455733E-02 -7.80260196530E-03 -3.50498318919E-03 -7.94682749567E-03 -3.32987937845E-03 -4.30353234855E-01 +5.08887652454E-02
4.40000000000E+09 -4.30180798653E-01 +8.67917290241E-02 -8.50706606960E-03 -1.76977983038E-03 -8.62241872430E-03 -1.58889343933E-03 -4.27772893456E-01 +7.40649494598E-02
4.40500000000E+09 -4.27624208499E-01 +1.04748676058E-01 -8.43406782391E-03 -7.52777374794E-04 -8.42659030555E-03 -5.16785029907E-04 -4.25869152170E-01 +9.69513706734E-02
4.41000000000E+09 -4.24166234881E-01 +1.23410098242E-01 -8.02338064918E-03 +1.06456031442E-03 -7.96486340858E-03 +1.30322968867E-03 -4.24324882035E-01 +1.19812711580E-01
4.41500000000E+09 -4.20745533156E-01 +1.44512430070E-01 -7.24042008274E-03 +1.37465447386E-03 -7.23224716052E-03 +1.58359703724E-03 -4.20462128804E-01 +1.45778221827E-01
4.42000000000E+09 -4.15540679144E-01 +1.66620656400E-01 -6.96133335972E-03 +1.48910177021E-03 -6.90598309694E-03 +1.72684013696E-03 -4.13760698352E-01 +1.70157497036E-01
4.42500000000E+09 -4.11780134981E-01 +1.88369175332E-01 -7.22541995813E-03 +1.89283455643E-03 -7.05864587062E-03 +2.06107298251E-03 -4.06964274536E-01 +1.91547126029E-01
4.43000000000E+09 -4.08587705470E-01 +2.10810227275E-01 -7.59285441182E-03 +2.69936731185E-03 -7.40266951124E-03 +2.83298264014E-03 -4.03147541891E-01 +2.14011690007E-01
4.43500000000E+09 -4.05419341024E-01 +2.31630363293E-01 -7.50103580967E-03 +4.34097572891E-03 -7.34674719214E-03 +4.41600411993E-03 -3.97260838504E-01 +2.37645155361E-01
4.44000000000E+09 -4.03122001679E-01 +2.50126921451E-01 -6.36317707397E-03 +6.14313119416E-03 -6.21294817258E-03 +6.16875510806E-03 -3.88781442690E-01 +2.61141869345E-01
4.44500000000E+09 -4.01423154972E-01 +2.66795523000E-01 -4.48971485953E-03 +5.79604542545E-03 -4.37207526896E-03 +5.78652240618E-03 -3.77998553573E-01 +2.81784883378E-01
4.45000000000E+09 -3.98759203275E-01 +2.82660185160E-01 -3.90867139752E-03 +5.45133971052E-03 -3.79605945209E-03 +5.54818073462E-03 -3.68320003807E-01 +3.00079279911E-01
4.45500000000E+09 -3.93890728848E-01 +2.97676250838E-01 -4.40070624595E-03 +5.57829148228E-03 -4.26611378816E-03 +5.65179191738E-03 -3.59232034456E-01 +3.18575674918E-01
4.46000000000E+09 -3.86793945629E-01 +3.11964056421E-01 -3.76501360689E-03 +6.91086216985E-03 -3.54561458701E-03 +6.94272690715E-03 -3.50566249605E-01 +3.39516357909E-01
4.46500000000E+09 -3.76785343588E-01 +3.27171333229E-01 -2.67104464760E-03 +7.32042758332E-03 -2.48923416083E-03 +7.28680815807E-03 -3.37547609482E-01 +3.59056173748E-01
4.47000000000E+09 -3.64566366276E-01 +3.41537656110E-01 -1.46270773554E-03 +7.27988436694E-03 -1.22441631664E-03 +7.23492216952E-03 -3.24762966242E-01 +3.77034409188E-01
4.47500000000E+09 -3.53064521069E-01 +3.56719380911E-01 -9.62432091094E-04 +6.61448627307E-03 -7.23267954986E-04 +6.55986602903E-03 -3.12430949158E-01 +3.93051129625E-01
4.48000000000E+09 -3.42020895406E-01 +3.74321425007E-01 -1.23808786829E-03 +7.20834365442E-03 -9.99953669587E-04 +7.05921065211E-03 -3.01590185951E-01 +4.10838086298E-01
4.48500000000E+09 -3.30772786770E-01 +3.93270076422E-01 +3.60355320495E-05 +7.88971418727E-03 +2.42758748015E-04 +7.67217604471E-03 -2.88987715009E-01 +4.28369317361E-01
4.49000000000E+09 -3.20733680428E-01 +4.11374219809E-01 +1.50651857495E-03 +8.15628364405E-03 +1.61541805694E-03 +7.87644701239E-03 -2.75126536372E-01 +4.45370734892E-01
4.49500000000E+09 -3.12189514720E-01 +4.29208199227E-01 +2.79961833769E-03 +7.18261229728E-03 +2.75273807707E-03 +6.95641346131E-03 -2.59616566806E-01 +4.58910195695E-01
4.50000000000E+09 -3.03893687629E-01 +4.44688722162E-01 +3.37300178799E-03 +6.29175461469E-03 +3.29551861858E-03 +6.12568612599E-03 -2.45896577610E-01 +4.71982872797E-01
4.50500000000E+09 -2.96944412132E-01 +4.58095968908E-01 +3.72464133217E-03 +5.76153045558E-03 +3.68942347764E-03 +5.59833669110E-03 -2.32577151941E-01 +4.84367797207E-01
4.51000000000E+09 -2.89783395867E-01 +4.69279078417E-01 +3.71416132256E-03 +5.35443433551E-03 +3.69580371548E-03 +5.19300733421E-03 -2.19801060193E-01 +4.99112501383E-01
4.51500000000E+09 -2.81234779963E-01 +4.78619571624E-01 +4.37200579341E-03 +5.59103333224E-03 +4.31163868925E-03 +5.42761980036E-03 -2.04888549793E-01 +5.12508364541E-01
4.52000000000E+09 -2.71605167801E-01 +4.86838375820E-01 +5.61740229900E-03 +5.07510258773E-03 +5.54139653159E-03 +4.84838009972E-03 -1.90078143507E-01 +5.24284135588E-01
4.52500000000E+09 -2.59897973549E-01 +4.95591008617E-01 +5.85286201925E-03 +3.31970641323E-03 +5.75264159711E-03 +3.12402489724E-03 -1.76155052340E-01 +5.34026355104E-01
4.53000000000E+09 -2.45780975825E-01 +5.05175312324E-01 +5.68376028595E-03 +3.13663467910E-03 +5.60357751238E-03 +2.98882429652E-03 -1.62678809668E-01 +5.45081812081E-01
4.53500000000E+09 -2.29147556700E-01 +5.15307795891E-01 +5.76693700872E-03 +2.66426102550E-03 +5.67505306996E-03 +2.50133079240E-03 -1.47417104556E-01 +5.55738192706E-01
4.54000000000E+09 -2.12285275027E-01 +5.25398629426E-01 +6.16652331789E-03 +2.38487114934E-03 +6.00863945468E-03 +2.20130343021E-03 -1.31081239815E-01 +5.66785167799E-01
4.54500000000E+09 -1.96153382582E-01 +5.36079638149E-01 +6.86475047349E-03 +1.49668963256E-03 +6.69156555083E-03 +1.38133747779E-03 -1.13855864940E-01 +5.74934842313E-01
4.55000000000E+09 -1.81583496301E-01 +5.47008477941E-01 +6.97248003565E-03 +2.68788156565E-04 +6.77262002778E-03 +1.35575674489E-04 -9.85776426169E-02 +5.82907625592E-01
4.55500000000E+09 -1.69399490068E-01 +5.57714483273E-01 +6.44928694125E-03 -1.59906440177E-03 +6.23016262416E-03 -1.60414391297E-03 -8.45541073236E-02 +5.90561961126E-01
4.56000000000E+09 -1.58892850599E-01 +5.69073211745E-01 +4.72339743764E-03 -1.62073441613E-03 +4.60263708250E-03 -1.63070287692E-03 -7.06557385445E-02 +6.00232481054E-01
4.56500000000E+09 -1.48231556403E-01 +5.79598388748E-01 +4.35609646146E-03 -1.23396701575E-03 +4.28204271045E-03 -1.29176672421E-03 -5.46192840332E-02 +6.08367648909E-01
4.57000000000E+09 -1.37555487093E-01 +5.88279866197E-01 +4.60925003474E-03 -7.88272958675E-04 +4.50836075788E-03 -8.02347623247E-04 -3.85440477588E-02 +6.14281522936E-01
