# Hz S RI R 50
! CMT, C1220, 16058040, 17.2.0/1
! Date: 15/08/2018 11:34:12
! Data: Format (Calibration Info)
! Freq                      S11: Re/Im (F2)                       S21: Re/Im (F2)                       S12: Re/Im (F2)                       S22: Re/Im (F2)            
4.00000000000E+09 +6.68210927837E-01 -3.56418459766E-01 +1.13361024842E-03 -2.40340498125E-03 +1.22005175258E-03 -2.43057475577E-03 +7.74667792887E-01 -3.54014441593E-01
4.00500000000E+09 +6.60325396865E-01 -3.64533027035E-01 +8.03004407980E-04 -2.75644266206E-03 +9.11303630460E-04 -2.80526621593E-03 +7.66313813633E-01 -3.65254514763E-01
4.01000000000E+09 +6.51811977626E-01 -3.71939061028E-01 +2.61994915716E-04 -2.88372242134E-03 +3.72226673986E-04 -2.89740946798E-03 +7.57550200321E-01 -3.76843059532E-01
4.01500000000E+09 +6.42681317631E-01 -3.79695928388E-01 -1.59846982291E-04 -2.71637454256E-03 -9.95979137398E-05 -2.72068778109E-03 +7.47586886445E-01 -3.87349588324E-01
4.02000000000E+09 +6.32541337454E-01 -3.88399986203E-01 -1.55488952357E-04 -2.56893820016E-03 -5.50967607714E-05 -2.62470493129E-03 +7.37883500970E-01 -3.97649726021E-01
4.02500000000E+09 +6.21351235812E-01 -3.97850620485E-01 -2.98148045410E-04 -2.64738301892E-03 -1.66495183109E-04 -2.73237010723E-03 +7.27703912147E-01 -4.07841471176E-01
4.03000000000E+09 +6.09300494573E-01 -4.07498441731E-01 -5.71488502015E-04 -2.85078552564E-03 -4.56125537388E-04 -2.94476158433E-03 +7.17483136064E-01 -4.18555103621E-01
4.03500000000E+09 +5.97206048758E-01 -4.16984941353E-01 -1.09209982424E-03 -2.71017469665E-03 -9.53182301626E-04 -2.81552607473E-03 +7.06410151969E-01 -4.29844858016E-01
4.04000000000E+09 +5.85819458362E-01 -4.26638000077E-01 -1.13048099190E-03 -2.55150985262E-03 -1.06325351389E-03 -2.62053145663E-03 +6.94921390353E-01 -4.40764776918E-01
4.04500000000E+09 +5.74125027451E-01 -4.36286865803E-01 -1.44786554929E-03 -2.53127901708E-03 -1.43194843685E-03 -2.66682282713E-03 +6.83074730727E-01 -4.51423288644E-01
4.05000000000E+09 +5.62658152643E-01 -4.44973023269E-01 -1.60609063149E-03 -2.41404350802E-03 -1.59315891504E-03 -2.60359307710E-03 +6.71497623947E-01 -4.61260105768E-01
4.05500000000E+09 +5.50817593357E-01 -4.53477076544E-01 -1.79608629557E-03 -2.56756223643E-03 -1.72069738968E-03 -2.73646154975E-03 +6.59220961623E-01 -4.70913436341E-01
4.06000000000E+09 +5.37535508962E-01 -4.61390331271E-01 -2.43823347990E-03 -2.54879125412E-03 -2.54364074405E-03 -2.70753268931E-03 +6.46768497005E-01 -4.80432666207E-01
4.06500000000E+09 +5.23710626619E-01 -4.67376112227E-01 -2.92443858313E-03 -1.81022421124E-03 -3.04789409532E-03 -1.95648614230E-03 +6.33322592011E-01 -4.89445777887E-01
4.07000000000E+09 +5.09892515131E-01 -4.74012918976E-01 -2.58851304966E-03 -1.59433006723E-03 -2.59929228796E-03 -1.70225271792E-03 +6.19638689992E-01 -4.98858256826E-01
4.07500000000E+09 +4.94401241343E-01 -4.81144469167E-01 -2.96383588147E-03 -1.58047504305E-03 -2.99713727276E-03 -1.65982805247E-03 +6.06192269335E-01 -5.07795259892E-01
4.08000000000E+09 +4.78290179929E-01 -4.87726343790E-01 -3.11886021463E-03 -1.25831463464E-03 -3.17213347478E-03 -1.38522453756E-03 +5.92744643540E-01 -5.17521420357E-01
4.08500000000E+09 +4.61867434767E-01 -4.94909564705E-01 -3.31273330326E-03 -8.90203993866E-04 -3.40363570651E-03 -1.03758835049E-03 +5.78675075493E-01 -5.26998221378E-01
4.09000000000E+09 +4.45343411536E-01 -5.02257372150E-01 -3.50652974433E-03 -5.30157097919E-04 -3.68785933485E-03 -6.25718249530E-04 +5.64218482906E-01 -5.35658330728E-01
4.09500000000E+09 +4.28797994285E-01 -5.09275062537E-01 -3.52300186391E-03 -4.02601601504E-05 -3.71600007350E-03 -3.13834246610E-05 +5.48955352074E-01 -5.43317921257E-01
4.10000000000E+09 +4.13208234723E-01 -5.16094189503E-01 -3.08503893269E-03 +1.09888036227E-04 -3.14679923391E-03 +7.59564759479E-05 +5.33258762398E-01 -5.50332678738E-01
4.10500000000E+09 +3.96458241102E-01 -5.22363117604E-01 -3.48404778641E-03 +1.06655905585E-05 -3.53924196090E-03 -4.35121435343E-05 +5.17225540446E-01 -5.57555580781E-01
4.11000000000E+09 +3.79714675635E-01 -5.26189088147E-01 -3.84894278823E-03 +6.11927509004E-04 -3.99627494485E-03 +5.61605394968E-04 +5.00298397970E-01 -5.65551399774E-01
4.11500000000E+09 +3.63712843663E-01 -5.28933375292E-01 -3.74606537389E-03 +1.34623322708E-03 -3.90956285675E-03 +1.32728516053E-03 +4.82466155788E-01 -5.73091932423E-01
4.12000000000E+09 +3.47085131047E-01 -5.31012855564E-01 -3.36041809940E-03 +1.81776607095E-03 -3.49012268637E-03 +1.79318907642E-03 +4.65077271165E-01 -5.79566202896E-01
4.12500000000E+09 +3.30406971001E-01 -5.32419864257E-01 -3.09533933029E-03 +2.07596025403E-03 -3.15931849438E-03 +2.10020008656E-03 +4.48300792132E-01 -5.85297946268E-01
4.13000000000E+09 +3.12991557674E-01 -5.35088898115E-01 -2.62596630262E-03 +2.12299130188E-03 -2.67895187263E-03 +2.13148776358E-03 +4.31301076698E-01 -5.91442980111E-01
4.13500000000E+09 +2.93793162300E-01 -5.38429684619E-01 -2.59637250707E-03 +1.99968712275E-03 -2.70942499849E-03 +2.02862756960E-03 +4.12940484686E-01 -5.97353239309E-01
4.14000000000E+09 +2.73449768411E-01 -5.41369175217E-01 -2.75509531704E-03 +2.15333780167E-03 -2.88185239969E-03 +2.14854968907E-03 +3.92927531801E-01 -6.02607284514E-01
4.14500000000E+09 +2.53611694875E-01 -5.43971522103E-01 -3.01572284116E-03 +2.73912088509E-03 -3.20911753281E-03 +2.76635130907E-03 +3.72786475351E-01 -6.06780270663E-01
4.15000000000E+09 +2.34754541717E-01 -5.47941906260E-01 -2.40415425074E-03 +3.32214939125E-03 -2.56515444367E-03 +3.35925331383E-03 +3.53952492210E-01 -6.10734475033E-01
4.15500000000E+09 +2.15131811940E-01 -5.50510354588E-01 -2.19825536503E-03 +3.43232918901E-03 -2.34579492564E-03 +3.52936006385E-03 +3.34901895583E-01 -6.15010788044E-01
4.16000000000E+09 +1.97647471639E-01 -5.52408462135E-01 -1.89212726591E-03 +3.81645472293E-03 -1.95390787952E-03 +3.89367938904E-03 +3.15164332906E-01 -6.18638113374E-01
4.16500000000E+09 +1.80707637994E-01 -5.53590039583E-01 -1.39884370772E-03 +3.94746225295E-03 -1.44213623993E-03 +4.04756429084E-03 +2.94526975786E-01 -6.20437145418E-01
4.17000000000E+09 +1.63289376837E-01 -5.53296837462E-01 -1.39345541576E-03 +4.08254235278E-03 -1.47182852766E-03 +4.18753878713E-03 +2.73930449713E-01 -6.20974748974E-01
4.17500000000E+09 +1.45882462169E-01 -5.50552438126E-01 -7.54694972718E-04 +4.77057893645E-03 -8.85895247266E-04 +4.90051162988E-03 +2.53609661915E-01 -6.21340236671E-01
4.18000000000E+09 +1.28652411984E-01 -5.46310637923E-01 +3.10091013615E-04 +4.64854285862E-03 +2.10834540378E-04 +4.79408436890E-03 +2.32555142980E-01 -6.22355126459E-01
4.18500000000E+09 +1.09833872954E-01 -5.41971265792E-01 +3.29655998187E-04 +4.01845566514E-03 +2.97120329518E-04 +4.18073842184E-03 +2.09788156273E-01 -6.22966897621E-01
4.19000000000E+09 +9.01778543141E-02 -5.36149729175E-01 +2.22646872295E-04 +4.15303023094E-03 +1.83137744812E-04 +4.26496916206E-03 +1.86873978778E-01 -6.21574859642E-01
4.19500000000E+09 +7.03842903932E-02 -5.30934748614E-01 +3.87394490018E-04 +4.60965218236E-03 +4.33640808846E-04 +4.79814601999E-03 +1.64768944541E-01 -6.19112105342E-01
4.20000000000E+09 +4.94130726975E-02 -5.26534381913E-01 +9.57830891185E-04 +5.09158151809E-03 +9.32149290385E-04 +5.23835893066E-03 +1.43370733218E-01 -6.16651588375E-01
4.20500000000E+09 +2.81835657236E-02 -5.22284703260E-01 +2.21094422164E-03 +5.43698272812E-03 +2.20719028864E-03 +5.62960882405E-03 +1.20906654625E-01 -6.13477281178E-01
4.21000000000E+09 +7.46944865704E-03 -5.17310788476E-01 +3.41414669236E-03 +4.75592490560E-03 +3.46830879655E-03 +4.97056768604E-03 +9.75083345577E-02 -6.09304004904E-01
4.21500000000E+09 -1.17650578971E-02 -5.12723132880E-01 +3.41040781657E-03 +3.69884268277E-03 +3.57831206463E-03 +3.82302916163E-03 +7.44376583212E-02 -6.03615470672E-01
4.22000000000E+09 -3.00993511506E-02 -5.06591515712E-01 +3.60691799020E-03 +3.50295228823E-03 +3.62234515027E-03 +3.59845983767E-03 +5.25233513346E-02 -5.97272050971E-01
4.22500000000E+09 -4.66511112449E-02 -4.99550846793E-01 +3.78876242902E-03 +3.29585682526E-03 +3.93897680396E-03 +3.34607595255E-03 +3.15220948540E-02 -5.91433310397E-01
4.23000000000E+09 -6.28711990612E-02 -4.91702375158E-01 +4.20019053198E-03 +2.99298700902E-03 +4.32733136175E-03 +3.07075731036E-03 +1.06022421064E-02 -5.84772561641E-01
4.23500000000E+09 -7.99887838036E-02 -4.81429218561E-01 +4.42347208548E-03 +2.78052141893E-03 +4.52475464908E-03 +2.81946281500E-03 -1.17747192601E-02 -5.77723538393E-01
4.24000000000E+09 -9.68824748559E-02 -4.69564053869E-01 +4.69339849348E-03 +2.53847665362E-03 +4.76876196082E-03 +2.54878683988E-03 -3.45457998441E-02 -5.68306569167E-01
4.24500000000E+09 -1.14129901634E-01 -4.56782141696E-01 +5.00521192850E-03 +2.05581435536E-03 +5.08335592894E-03 +2.04006092569E-03 -5.66379121757E-02 -5.57028019553E-01
4.25000000000E+09 -1.33347068691E-01 -4.43687331450E-01 +5.50376769784E-03 +2.15728724715E-03 +5.53706320355E-03 +2.19239097067E-03 -7.72797776760E-02 -5.46167051975E-01
4.25500000000E+09 -1.52889622490E-01 -4.30439765006E-01 +6.28377823582E-03 +1.54595939866E-03 +6.41303076603E-03 +1.54288123425E-03 -9.78827398571E-02 -5.34884642650E-01
4.26000000000E+09 -1.72974789764E-01 -4.18074737699E-01 +7.22131164495E-03 +3.36993815852E-04 +7.31967183616E-03 +3.09525063695E-04 -1.18628975442E-01 -5.22758336935E-01
4.26500000000E+09 -1.93479265648E-01 -4.06601819140E-01 +6.62215100368E-03 -9.72246839879E-04 +6.76594267027E-03 -9.63031666052E-04 -1.38844305844E-01 -5.08951773619E-01
4.27000000000E+09 -2.13146173235E-01 -3.94099922290E-01 +6.33551169224E-03 -1.70802890022E-03 +6.38694480406E-03 -1.73769645138E-03 -1.59693682015E-01 -4.94301827652E-01
4.27500000000E+09 -2.30814051562E-01 -3.82122842815E-01 +5.76992357126E-03 -2.58698107761E-03 +5.86679436454E-03 -2.59999090270E-03 -1.79215047433E-01 -4.78184975933E-01
4.28000000000E+09 -2.47056659867E-01 -3.69786226889E-01 +5.29381886516E-03 -2.31963035417E-03 +5.34439279453E-03 -2.36526862833E-03 -1.98219114929E-01 -4.64502044329E-01
4.28500000000E+09 -2.61057892409E-01 -3.56237859686E-01 +5.85253170704E-03 -2.37701966013E-03 +5.89351878391E-03 -2.44499285054E-03 -2.20233401301E-01 -4.48767922848E-01
4.29000000000E+09 -2.73354053933E-01 -3.41592140373E-01 +6.38477829761E-03 -3.78506585080E-03 +6.47305296433E-03 -3.85732581454E-03 -2.39687097393E-01 -4.30079974388E-01
4.29500000000E+09 -2.84862295241E-01 -3.26569518182E-01 +5.12647237109E-03 -5.19710307722E-03 +5.22426547435E-03 -5.19954906610E-03 -2.55957704169E-01 -4.10356380284E-01
4.30000000000E+09 -2.97471267527E-01 -3.09853936406E-01 +4.78143056100E-03 -5.41449763152E-03 +4.88368127047E-03 -5.48138906853E-03 -2.70944769758E-01 -3.92449550809E-01
4.30500000000E+09 -3.10429262151E-01 -2.91727446741E-01 +3.72704297638E-03 -6.30742705646E-03 +3.87021350465E-03 -6.43608860096E-03 -2.86256224707E-01 -3.73937553619E-01
4.31000000000E+09 -3.23621415064E-01 -2.72086978539E-01 +2.94121033784E-03 -6.29934693714E-03 +2.94277691682E-03 -6.48243380883E-03 -3.02150780149E-01 -3.54057407651E-01
4.31500000000E+09 -3.36614164303E-01 -2.52264483939E-01 +2.42176730425E-03 -6.64144427637E-03 +2.49931994393E-03 -6.73533337450E-03 -3.17416638782E-01 -3.32489683608E-01
4.32000000000E+09 -3.48439759714E-01 -2.32555632637E-01 +1.35977320395E-03 -7.37042483988E-03 +1.35397667616E-03 -7.56476027754E-03 -3.30409361499E-01 -3.10621237739E-01
4.32500000000E+09 -3.58905855863E-01 -2.14909613387E-01 -6.44472006541E-04 -6.85890120746E-03 -6.71787827991E-04 -7.08711464299E-03 -3.42424972957E-01 -2.89182693456E-01
4.33000000000E+09 -3.69789015316E-01 -1.98745624374E-01 -1.30047444908E-04 -5.18533628569E-03 -2.42251464956E-04 -5.29171724461E-03 -3.54427538543E-01 -2.69132253982E-01
4.33500000000E+09 -3.79963462724E-01 -1.81454329538E-01 +4.83618505904E-04 -5.68485409307E-03 +3.82305951505E-04 -5.75823481984E-03 -3.67213513467E-01 -2.45602223548E-01
4.34000000000E+09 -3.87868827629E-01 -1.62697855725E-01 +2.67336511356E-04 -6.59553070286E-03 +1.14989476867E-04 -6.67697483394E-03 -3.78109649342E-01 -2.20664275801E-01
4.34500000000E+09 -3.93160812387E-01 -1.42866033821E-01 -6.25144842311E-04 -7.78878301232E-03 -7.89122717962E-04 -7.78510203919E-03 -3.86200023390E-01 -1.95221520558E-01
4.35000000000E+09 -3.96413559899E-01 -1.22400303962E-01 -2.84566471021E-03 -7.99997351312E-03 -2.91397855777E-03 -7.99604060561E-03 -3.94696791982E-01 -1.71786685314E-01
4.35500000000E+09 -3.99401932698E-01 -1.01470549681E-01 -4.31122805605E-03 -6.58952210383E-03 -4.46410817326E-03 -6.63923441383E-03 -4.03596724516E-01 -1.48963160705E-01
4.36000000000E+09 -4.02874619174E-01 -7.99887702499E-02 -3.93016608837E-03 -5.03250954151E-03 -4.13302291509E-03 -5.05075953006E-03 -4.12307104431E-01 -1.25659740118E-01
4.36500000000E+09 -4.07787073704E-01 -5.69105848049E-02 -4.04686661551E-03 -5.39250021219E-03 -4.24199883612E-03 -5.38417802679E-03 -4.18399555531E-01 -9.99708864845E-02
4.37000000000E+09 -4.13055497435E-01 -3.30325681397E-02 -4.48018190525E-03 -5.03185595019E-03 -4.58009882236E-03 -4.96947494814E-03 -4.21613867885E-01 -7.47974100164E-02
4.37500000000E+09 -4.17630137434E-01 -9.98339959214E-03 -4.97844222460E-03 -5.38488072972E-03 -5.07622009585E-03 -5.24612606579E-03 -4.22694962872E-01 -5.03317718623E-02
4.38000000000E+09 -4.22428939441E-01 +1.15165320791E-02 -6.03902470525E-03 -4.77634409012E-03 -6.17031470861E-03 -4.63547884094E-03 -4.26284690817E-01 -2.73158609893E-02
4.38500000000E+09 -4.26148802928E-01 +3.20617879936E-02 -6.88774333667E-03 -3.78972899236E-03 -7.08134703748E-03 -3.66982603729E-03 -4.29421417606E-01 -1.44794227645E-03
4.39000000000E+09 -4.28647347279E-01 +5.04367551683E-02 -6.80233254961E-03 -3.20164563954E-03 -6.93905481063E-03 -3.05054656371E-03 -4.31152218042E-01 +2.56402375887E-02
4.39500000000E+09 -4.29541954148E-01 +6.73373315008E-02 -7.83887881663E-03 -2.88442112256E-03 -7.94923771365E-03 -2.66638637987E-03 -4.29211440124E-01 +5.10193186626E-02
4.40000000000E+09 -4.29477713431E-01 +8.47864059942E-02 -8.68913310474E-03 -1.34367755130E-03 -8.72932168364E-03 -1.15611255815E-03 -4.26762401833E-01 +7.38099786928E-02
4.40500000000E+09 -4.27151671263E-01 +1.02400340137E-01 -8.70958692021E-03 -1.19066144681E-04 -8.72196923068E-03 +5.87095245820E-05 -4.25271372902E-01 +9.65420036033E-02
4.41000000000E+09 -4.24190583271E-01 +1.21104291763E-01 -8.13957685083E-03 +1.91197376967E-03 -8.10917826594E-03 +2.13102443350E-03 -4.23792207465E-01 +1.19520710042E-01
4.41500000000E+09 -4.20894585099E-01 +1.42333196672E-01 -7.09435018366E-03 +2.26108300247E-03 -7.03853819695E-03 +2.40199910365E-03 -4.20041451952E-01 +1.45488518581E-01
4.42000000000E+09 -4.15994266295E-01 +1.64601051527E-01 -6.75977599059E-03 +2.18377912093E-03 -6.68434516409E-03 +2.34818710706E-03 -4.13531166279E-01 +1.70008899340E-01
4.42500000000E+09 -4.12530392071E-01 +1.86651654560E-01 -6.99905771602E-03 +2.57743827742E-03 -6.83860408581E-03 +2.73931751026E-03 -4.06598952183E-01 +1.91408203678E-01
4.43000000000E+09 -4.09327698337E-01 +2.09295979063E-01 -7.35426698878E-03 +3.42829191389E-03 -7.17933415175E-03 +3.49229568624E-03 -4.03001499684E-01 +2.13684282271E-01
4.43500000000E+09 -4.06132701232E-01 +2.30263030401E-01 -7.15408038097E-03 +5.22916576933E-03 -6.93646948047E-03 +5.18386188570E-03 -3.97320978887E-01 +2.37591536029E-01
4.44000000000E+09 -4.03884082602E-01 +2.48627459182E-01 -5.70578909796E-03 +6.89522320335E-03 -5.55977115717E-03 +6.88697851093E-03 -3.88717318923E-01 +2.61286581454E-01
4.44500000000E+09 -4.02456118109E-01 +2.65526620667E-01 -3.78671926317E-03 +6.31924685460E-03 -3.69672766257E-03 +6.29616056460E-03 -3.77611984994E-01 +2.82045626021E-01
4.45000000000E+09 -3.99801154003E-01 +2.81583088583E-01 -3.36338912662E-03 +5.88781784904E-03 -3.27041766840E-03 +5.85398946652E-03 -3.67776493674E-01 +3.00095521885E-01
4.45500000000E+09 -3.95020277012E-01 +2.96716624303E-01 -3.86428406575E-03 +6.12016599584E-03 -3.76274925441E-03 +6.18212892266E-03 -3.58820354739E-01 +3.18490915654E-01
4.46000000000E+09 -3.87754868916E-01 +3.11091829957E-01 -2.95015691166E-03 +7.47585285378E-03 -2.74285885760E-03 +7.52171520399E-03 -3.50124411348E-01 +3.39558119438E-01
4.46500000000E+09 -3.77816612620E-01 +3.26427311615E-01 -1.63228785950E-03 +7.59601301983E-03 -1.47292906718E-03 +7.65128577122E-03 -3.36856864736E-01 +3.58961692781E-01
4.47000000000E+09 -3.65571512443E-01 +3.40918610695E-01 -4.38989454159E-04 +7.27569337818E-03 -2.50451612768E-04 +7.20108511672E-03 -3.24126258861E-01 +3.76701434817E-01
4.47500000000E+09 -3.54079092437E-01 +3.56340552148E-01 -1.65277780271E-04 +6.49965008848E-03 +5.17553936907E-05 +6.41942459425E-03 -3.11942210689E-01 +3.92646735398E-01
4.48000000000E+09 -3.42901309639E-01 +3.73978073331E-01 -4.53191948647E-04 +7.05435420160E-03 -2.50062587550E-04 +6.94327141694E-03 -3.01147452612E-01 +4.10318498840E-01
4.48500000000E+09 -3.31422784061E-01 +3.92859763038E-01 +8.38726592213E-04 +7.74334353725E-03 +9.74865361848E-04 +7.56801481822E-03 -2.88722706522E-01 +4.27862378392E-01
4.49000000000E+09 -3.21573055997E-01 +4.10819845897E-01 +2.32540215050E-03 +7.84544321243E-03 +2.39882630542E-03 +7.71000947198E-03 -2.74794820127E-01 +4.44738055101E-01
4.49500000000E+09 -3.13144938724E-01 +4.28716182581E-01 +3.49069254665E-03 +6.81466411483E-03 +3.44495250323E-03 +6.62557245458E-03 -2.59564707049E-01 +4.58227671935E-01
4.50000000000E+09 -3.05065890895E-01 +4.44380010575E-01 +4.04515007672E-03 +5.83030936872E-03 +3.95155691487E-03 +5.68970583033E-03 -2.46011680250E-01 +4.71306060792E-01
4.50500000000E+09 -2.98110393989E-01 +4.57878696412E-01 +4.37028306032E-03 +5.20708751271E-03 +4.32947968023E-03 +5.05826052840E-03 -2.32907521178E-01 +4.83718268149E-01
4.51000000000E+09 -2.90891736361E-01 +4.69381866058E-01 +4.31640179760E-03 +4.72989640720E-03 +4.33957101507E-03 +4.64752617217E-03 -2.20443528771E-01 +4.98731814000E-01
4.51500000000E+09 -2.82233786658E-01 +4.78628606951E-01 +4.85944102154E-03 +4.80252958638E-03 +4.88795645731E-03 +4.67785569903E-03 -2.05361177838E-01 +5.12408027676E-01
4.52000000000E+09 -2.72559053599E-01 +4.86963653553E-01 +5.96198992163E-03 +4.14227588828E-03 +5.95449131948E-03 +3.94252977888E-03 -1.90411748302E-01 +5.24300256189E-01
4.52500000000E+09 -2.60914825408E-01 +4.95594019538E-01 +5.88276074818E-03 +2.41737908987E-03 +5.86169676348E-03 +2.30329272058E-03 -1.76527312850E-01 +5.34127937690E-01
4.53000000000E+09 -2.47201134069E-01 +5.05302759825E-01 +5.61369998936E-03 +2.41301196367E-03 +5.57956306877E-03 +2.19987357828E-03 -1.62867022006E-01 +5.45199450665E-01
4.53500000000E+09 -2.30670751237E-01 +5.15748751013E-01 +5.68364881974E-03 +2.06105749178E-03 +5.66208404963E-03 +1.90841387410E-03 -1.47452138644E-01 +5.55765521491E-01
4.54000000000E+09 -2.13688968722E-01 +5.26335480341E-01 +6.10740496213E-03 +1.80895117369E-03 +6.01793342566E-03 +1.56568527054E-03 -1.31243682871E-01 +5.66853821476E-01
4.54500000000E+09 -1.97097372742E-01 +5.37238240631E-01 +6.71192935500E-03 +8.59180794869E-04 +6.60526644472E-03 +6.58469674416E-04 -1.13922268161E-01 +5.74987327815E-01
4.55000000000E+09 -1.82368966664E-01 +5.48209179156E-01 +6.66795439721E-03 -4.04335977531E-04 +6.46036379435E-03 -5.38968576944E-04 -9.86350944895E-02 +5.82984457690E-01
4.55500000000E+09 -1.69999954985E-01 +5.58844663245E-01 +6.02988362105E-03 -2.07593732441E-03 +5.83607475209E-03 -2.15772799821E-03 -8.47066743843E-02 +5.90710926245E-01
4.56000000000E+09 -1.59372841477E-01 +5.70129842617E-01 +4.32539062864E-03 -1.93770914179E-03 +4.14533336761E-03 -1.96702134218E-03 -7.06042928695E-02 +6.00315402106E-01
4.56500000000E+09 -1.48795835637E-01 +5.80798076449E-01 +4.05928394223E-03 -1.41580156217E-03 +3.88590304335E-03 -1.45785634243E-03 -5.45381787251E-02 +6.08420780047E-01
4.57000000000E+09 -1.37992105016E-01 +5.89501775624E-01 +4.45425091261E-03 -9.72438685762E-04 +4.26742973152E-03 -1.08000674823E-03 -3.85429270381E-02 +6.14349090296E-01
