# Hz S RI R 50
! CMT, C1220, 16058040, 17.2.0/1
! Date: 15/08/2018 10:23:09
! Data: Format (Calibration Info)
! Freq                      S11: Re/Im (F2)                       S21: Re/Im (F2)                       S12: Re/Im (F2)                       S22: Re/Im (F2)            
2.50000000000E+09 +5.81693864556E-01 +6.36792300930E-01 +2.12677322596E-04 -6.00559519419E-05 +2.78901498607E-04 -1.13366616702E-05 +5.72015545949E-01 +7.18594484591E-01
2.50500000000E+09 +5.88585336690E-01 +6.29095657067E-01 +2.48618812047E-04 -9.69297867643E-05 +2.67353209283E-04 -1.06229629450E-04 +5.78101927316E-01 +7.12704342805E-01
2.51000000000E+09 +5.95984058319E-01 +6.21064808087E-01 +2.23121861219E-04 -7.38167518800E-05 +2.42646048116E-04 -1.13330891782E-04 +5.83938339050E-01 +7.06870683582E-01
2.51500000000E+09 +6.03046548586E-01 +6.13078733536E-01 +2.47379066512E-04 -1.04854651616E-04 +2.33721795952E-04 -1.01900758888E-04 +5.89194366512E-01 +7.00912373565E-01
2.52000000000E+09 +6.09649278185E-01 +6.04821503063E-01 +2.71252421218E-04 -1.83792336813E-04 +2.99553834829E-04 -2.02814872611E-04 +5.94173777842E-01 +6.94416960956E-01
2.52500000000E+09 +6.15076671235E-01 +5.97273162450E-01 +2.34849654644E-04 -2.90270686218E-04 +2.56114990323E-04 -2.82445378678E-04 +5.99697197027E-01 +6.87591851881E-01
2.53000000000E+09 +6.19972948134E-01 +5.90254382779E-01 +1.65656300198E-04 -2.60276807488E-04 +1.43050199897E-04 -2.75552305979E-04 +6.05501479825E-01 +6.80222378009E-01
2.53500000000E+09 +6.24434972589E-01 +5.83575692205E-01 +1.18621878833E-04 -2.96331816066E-04 +1.10221767940E-04 -2.81027123849E-04 +6.11020068927E-01 +6.73178104682E-01
2.54000000000E+09 +6.28448914235E-01 +5.77325164481E-01 +4.09254384228E-05 -2.12358386349E-04 +8.58229028929E-05 -2.30915454026E-04 +6.16687376916E-01 +6.66427321566E-01
2.54500000000E+09 +6.32635957678E-01 +5.71391723246E-01 +5.47874347979E-05 -2.23891088002E-04 +7.05726915531E-05 -2.20644005415E-04 +6.21840430403E-01 +6.59889611869E-01
2.55000000000E+09 +6.37262050233E-01 +5.65472627091E-01 +8.85488078128E-05 -2.15932276725E-04 +1.03430817294E-04 -2.69189003086E-04 +6.26427350933E-01 +6.53888766622E-01
2.55500000000E+09 +6.42463154143E-01 +5.58819714320E-01 +5.56045944233E-05 -3.28824290520E-04 +8.54462188747E-05 -3.25368198223E-04 +6.30892768103E-01 +6.47743796401E-01
2.56000000000E+09 +6.48649705545E-01 +5.52036106072E-01 +1.75746198076E-05 -3.47912217079E-04 -7.44797330479E-05 -4.04963197976E-04 +6.35755971826E-01 +6.41169396401E-01
2.56500000000E+09 +6.54860775756E-01 +5.43949739877E-01 -4.12674403668E-05 -3.34225713350E-04 -1.67934512842E-04 -3.69450938482E-04 +6.41018169860E-01 +6.33963741364E-01
2.57000000000E+09 +6.60837854587E-01 +5.35744402474E-01 -1.50035562068E-04 -3.34801058298E-04 -2.39450615264E-04 -3.29441147770E-04 +6.46561331342E-01 +6.26223492702E-01
2.57500000000E+09 +6.66808491060E-01 +5.27444951559E-01 -2.77393365735E-04 -2.22074402697E-04 -2.65717047987E-04 -1.80452892068E-04 +6.51901280343E-01 +6.18900046738E-01
2.58000000000E+09 +6.72030061069E-01 +5.18798301271E-01 -2.34005912786E-04 -1.08922995547E-04 -1.80302550316E-04 -9.50794986289E-05 +6.57237595915E-01 +6.11694942682E-01
2.58500000000E+09 +6.76408019888E-01 +5.10340719597E-01 -2.02789091400E-04 -1.42119648242E-04 -2.17237524976E-04 -1.10106815296E-04 +6.62438999478E-01 +6.04194855652E-01
2.59000000000E+09 +6.80497758919E-01 +5.02336264226E-01 -2.29765894472E-04 -6.76739471689E-05 -2.04797646375E-04 -6.37302733158E-05 +6.67261265715E-01 +5.96553836899E-01
2.59500000000E+09 +6.84146300862E-01 +4.94109520523E-01 -1.85251948632E-04 -5.75163688103E-05 -2.36256420502E-04 -1.59881085903E-05 +6.72288178373E-01 +5.88650809461E-01
2.60000000000E+09 +6.87578355960E-01 +4.85700403447E-01 -2.54048966701E-04 +2.55716013228E-05 -2.10684209365E-04 -2.54526336924E-05 +6.77654996630E-01 +5.80177845061E-01
2.60500000000E+09 +6.91678055255E-01 +4.76489023477E-01 -1.19159015723E-04 +2.86534509045E-05 -9.60813397376E-05 +6.23823348025E-05 +6.82961450677E-01 +5.71223647339E-01
2.61000000000E+09 +6.95867123488E-01 +4.66193994904E-01 -6.44053434020E-05 +1.91649123712E-05 -1.06514885087E-04 +2.61470717369E-05 +6.87950451049E-01 +5.62361759063E-01
2.61500000000E+09 +7.00514754902E-01 +4.54843986176E-01 -1.65073091819E-04 -3.07154529123E-05 -1.02116892753E-04 -3.09628174561E-05 +6.92801879421E-01 +5.53721570778E-01
2.62000000000E+09 +7.05073899113E-01 +4.42380208484E-01 -1.18590707070E-04 +8.62534610036E-05 -1.44513746723E-04 +8.29165227677E-05 +6.97402955980E-01 +5.44720038194E-01
2.62500000000E+09 +7.09773799042E-01 +4.28933702562E-01 -3.23688013558E-05 +1.01387503196E-04 -3.98249331092E-07 +1.12184994035E-04 +7.01799533771E-01 +5.35861136342E-01
2.63000000000E+09 +7.14038611490E-01 +4.15145933929E-01 -2.43212436305E-05 +2.46412376222E-07 -1.35434275929E-05 +1.42813780528E-05 +7.06149166806E-01 +5.26920955055E-01
2.63500000000E+09 +7.17658165135E-01 +4.01682921390E-01 -9.76104125651E-06 +5.01409214810E-05 +7.47270659057E-06 +1.31975368353E-05 +7.10746713645E-01 +5.17859530876E-01
2.64000000000E+09 +7.21048507076E-01 +3.88824042645E-01 +5.35227959218E-05 +1.53769197649E-05 +2.94779737687E-05 -3.32343827717E-05 +7.15285740426E-01 +5.08190885809E-01
2.64500000000E+09 +7.24053999557E-01 +3.77101952910E-01 +6.58213291718E-05 -1.66774724807E-05 +5.39997870402E-05 -6.47566642405E-05 +7.19674989548E-01 +4.98747416881E-01
2.65000000000E+09 +7.26746689639E-01 +3.66273439343E-01 +3.98166159085E-05 -1.59451763045E-04 +5.68228582074E-05 -1.96125165374E-04 +7.23994235831E-01 +4.88677768300E-01
2.65500000000E+09 +7.29773944497E-01 +3.55647308382E-01 -1.02220835594E-04 -2.38770800391E-04 -8.47268318502E-05 -2.64285391354E-04 +7.27826116407E-01 +4.78307842252E-01
2.66000000000E+09 +7.32799657686E-01 +3.44963100054E-01 -1.51824190433E-04 -7.04761062269E-05 -1.67141145230E-04 -9.48061836233E-05 +7.31773662296E-01 +4.67378924578E-01
2.66500000000E+09 +7.35930369582E-01 +3.33970321471E-01 -1.11367121801E-04 -1.09066016527E-04 -1.62384013251E-04 -1.21181990501E-04 +7.36170396267E-01 +4.56239223995E-01
2.67000000000E+09 +7.38687252546E-01 +3.21820573506E-01 -1.24419693249E-04 -6.57083191124E-05 -1.24816380946E-04 -7.10106178657E-05 +7.40527709862E-01 +4.45338816193E-01
2.67500000000E+09 +7.41013641716E-01 +3.08536278427E-01 -6.69138420630E-05 -1.11354116659E-04 -1.08026821561E-04 -1.19283241784E-04 +7.44611143438E-01 +4.34130579430E-01
2.68000000000E+09 +7.42279018083E-01 +2.94367753507E-01 -2.60888941869E-04 -1.43833302953E-04 -2.58354367671E-04 -1.15085176723E-04 +7.48287310706E-01 +4.23068693384E-01
2.68500000000E+09 +7.42932647646E-01 +2.80394419717E-01 -3.10399328059E-04 +1.19923904580E-05 -3.14283729319E-04 +8.22571207573E-05 +7.51252105436E-01 +4.11743503307E-01
2.69000000000E+09 +7.43272530866E-01 +2.65970777096E-01 -2.67583239140E-04 +1.14704499441E-04 -1.73413393150E-04 +1.61763508074E-04 +7.53883949086E-01 +3.99943562171E-01
2.69500000000E+09 +7.43463431446E-01 +2.52032690066E-01 -1.02877069304E-04 +1.25982990271E-04 -8.17862938575E-05 +9.71429200625E-05 +7.56406580499E-01 +3.87625226692E-01
2.70000000000E+09 +7.43659793836E-01 +2.38081941757E-01 -1.54633323777E-04 -2.44769095621E-05 -1.14143619248E-04 +1.87177546385E-06 +7.59207656034E-01 +3.74596696544E-01
2.70500000000E+09 +7.43808701564E-01 +2.24785684987E-01 -2.20992535026E-04 +8.98193729144E-05 -1.36746025413E-04 +9.55820791222E-05 +7.62022338545E-01 +3.61759216046E-01
2.71000000000E+09 +7.44166140416E-01 +2.11671667230E-01 -1.09775445720E-04 +1.00622030453E-04 -9.10807991452E-05 +8.30023510490E-05 +7.65075537187E-01 +3.48682579456E-01
2.71500000000E+09 +7.45064457477E-01 +1.98128218682E-01 -2.27716533241E-05 +1.17787461247E-04 -2.29819304405E-05 +1.09068495065E-04 +7.67531650462E-01 +3.36261693554E-01
2.72000000000E+09 +7.45670656809E-01 +1.84054549809E-01 -1.27967500984E-05 -6.40802465236E-05 -9.30781382003E-06 -4.44306730946E-05 +7.69463710448E-01 +3.23837699026E-01
2.72500000000E+09 +7.45839782851E-01 +1.68871156048E-01 -1.84770100587E-04 -1.34699657527E-04 -2.38517910335E-04 -8.18386999159E-05 +7.70792923520E-01 +3.10307981582E-01
2.73000000000E+09 +7.44656227725E-01 +1.52886428981E-01 -2.62410471152E-04 +1.89333692230E-04 -1.95229403188E-04 +9.04092176067E-05 +7.72079686539E-01 +2.96396677168E-01
2.73500000000E+09 +7.42236132710E-01 +1.35979600270E-01 -7.13682499281E-05 +1.08866537813E-04 -6.88889638571E-05 +4.58139590502E-05 +7.73046959101E-01 +2.81422510710E-01
2.74000000000E+09 +7.38593441835E-01 +1.19283745745E-01 -5.71594106873E-05 +6.33214793639E-05 -8.41764459499E-05 +6.07257569949E-05 +7.74242060899E-01 +2.66305324018E-01
2.74500000000E+09 +7.33844094160E-01 +1.02284475683E-01 -5.92488544002E-05 -5.89954728061E-05 -1.23250997784E-04 -1.12884745319E-04 +7.75111010385E-01 +2.51305415743E-01
2.75000000000E+09 +7.28498930368E-01 +8.57647441276E-02 -1.99045292901E-04 -8.18954984664E-05 -2.35173313348E-04 -7.10743942121E-05 +7.76096040303E-01 +2.36589422437E-01
2.75500000000E+09 +7.22963693010E-01 +6.92569706099E-02 -3.11879930549E-04 -4.11241600620E-05 -3.54707206567E-04 -4.71323080474E-05 +7.76031285693E-01 +2.21380639418E-01
2.76000000000E+09 +7.17662473406E-01 +5.30005598995E-02 -4.07114280374E-04 +1.20468408452E-04 -4.79240242562E-04 +1.04344284834E-04 +7.75083049355E-01 +2.06182586970E-01
2.76500000000E+09 +7.12901859665E-01 +3.65911925030E-02 -4.11103412858E-04 +2.42588341619E-04 -4.36194269372E-04 +3.00391835790E-04 +7.73952135381E-01 +1.90602759867E-01
2.77000000000E+09 +7.08699979534E-01 +1.93553848148E-02 -3.52062595256E-04 +3.94727533538E-04 -3.35784625651E-04 +4.90756309148E-04 +7.73189092424E-01 +1.73798181929E-01
2.77500000000E+09 +7.04774789659E-01 +1.37007977610E-03 -2.77447200273E-04 +4.34337575193E-04 -2.67864440824E-04 +4.48999998321E-04 +7.71896242478E-01 +1.56223899356E-01
2.78000000000E+09 +7.01097264419E-01 -1.77458105003E-02 -1.47968719138E-04 +4.99433921191E-04 -1.18159500543E-04 +5.53059261393E-04 +7.70205198239E-01 +1.38652354980E-01
2.78500000000E+09 +6.96226513792E-01 -3.81295687558E-02 -7.46157123294E-05 +4.15960336223E-04 -6.02392508961E-05 +4.25899905812E-04 +7.67825099424E-01 +1.21617395887E-01
2.79000000000E+09 +6.89987275956E-01 -5.87771880425E-02 -1.73387927468E-04 +4.39605396065E-04 -1.25833438262E-04 +3.80777275915E-04 +7.65582402438E-01 +1.04810332810E-01
2.79500000000E+09 +6.82685434642E-01 -7.87258739238E-02 -1.16281605416E-04 +6.13818366684E-04 -7.53842572041E-05 +5.16074821294E-04 +7.62564188470E-01 +8.65763678353E-02
2.80000000000E+09 +6.73920673043E-01 -9.84481728122E-02 +2.72780375989E-05 +6.65016032265E-04 +2.83441415450E-05 +6.12782787428E-04 +7.58002916550E-01 +6.77747691060E-02
2.80500000000E+09 +6.64212800088E-01 -1.16640413704E-01 +6.13414120960E-05 +5.63041103687E-04 +4.62780030406E-05 +5.42190930864E-04 +7.52663755560E-01 +4.86240695478E-02
2.81000000000E+09 +6.53358614626E-01 -1.33896834197E-01 +1.53588510301E-04 +6.95152729129E-04 +8.37274873839E-05 +6.53929275898E-04 +7.46850134100E-01 +2.85662273220E-02
2.81500000000E+09 +6.42038247698E-01 -1.50475080060E-01 +3.70552747635E-04 +7.10542060854E-04 +4.08101102176E-04 +7.07817543173E-04 +7.40216842190E-01 +8.43309048935E-03
2.82000000000E+09 +6.29418406089E-01 -1.66902023011E-01 +5.12386912561E-04 +4.71107733416E-04 +5.33155580976E-04 +4.99775629952E-04 +7.33005199561E-01 -1.20385180427E-02
2.82500000000E+09 +6.15780489009E-01 -1.82909635252E-01 +3.61969004660E-04 +4.63101021439E-04 +3.19660323865E-04 +4.25964441294E-04 +7.24318219672E-01 -3.28123680964E-02
2.83000000000E+09 +6.01143649386E-01 -1.99977463149E-01 +4.22824886384E-04 +5.27719851068E-04 +3.97928434403E-04 +5.41380880271E-04 +7.14364504515E-01 -5.30030369071E-02
2.83500000000E+09 +5.84481938553E-01 -2.18247399564E-01 +5.89300099288E-04 +7.16118217900E-04 +4.82671541465E-04 +7.28723124536E-04 +7.03719998029E-01 -7.32778382876E-02
2.84000000000E+09 +5.65125061962E-01 -2.36570112596E-01 +9.08674254602E-04 +4.73558563298E-04 +8.55503146709E-04 +5.57186726952E-04 +6.92147326651E-01 -9.39422292157E-02
2.84500000000E+09 +5.43635680839E-01 -2.54832286605E-01 +8.73827755801E-04 +3.20177906884E-04 +8.78285228669E-04 +3.30138857422E-04 +6.79272038786E-01 -1.14661391791E-01
2.85000000000E+09 +5.20898290938E-01 -2.72339965261E-01 +9.93224178463E-04 +2.51773463046E-04 +9.69787866069E-04 +3.07509521611E-04 +6.64818783694E-01 -1.35447706714E-01
2.85500000000E+09 +4.96721915709E-01 -2.89130820561E-01 +1.02292597559E-03 +1.09577205877E-04 +1.06270608646E-03 +1.50406476934E-04 +6.49422422366E-01 -1.55359491044E-01
2.86000000000E+09 +4.72107289285E-01 -3.05094959981E-01 +1.26751459042E-03 -2.42325578199E-05 +1.23504351918E-03 -6.45242813895E-05 +6.33036195526E-01 -1.75544898413E-01
2.86500000000E+09 +4.47120280973E-01 -3.19771921958E-01 +1.18441109976E-03 -5.20189306406E-04 +1.19992701046E-03 -4.55610540567E-04 +6.15196571666E-01 -1.95510696124E-01
2.87000000000E+09 +4.21863953843E-01 -3.32981025666E-01 +8.47505103648E-04 -5.58161243757E-04 +8.83466690392E-04 -5.36520518190E-04 +5.96051256911E-01 -2.15194824591E-01
2.87500000000E+09 +3.97076453085E-01 -3.44885104391E-01 +7.72845771060E-04 -4.66966774227E-04 +7.90638420958E-04 -4.92203506150E-04 +5.75265111709E-01 -2.34358040184E-01
2.88000000000E+09 +3.72102600404E-01 -3.56321700098E-01 +8.74912934338E-04 -5.56908179534E-04 +8.82340759676E-04 -5.57522449939E-04 +5.53878218723E-01 -2.52207061670E-01
2.88500000000E+09 +3.46146215974E-01 -3.66804468665E-01 +9.62299762024E-04 -7.89171720817E-04 +9.05516158840E-04 -7.45894814297E-04 +5.31389484440E-01 -2.70057294214E-01
2.89000000000E+09 +3.19044389616E-01 -3.76301037263E-01 +7.28895894619E-04 -1.03505258141E-03 +7.47593023137E-04 -1.06084974019E-03 +5.06809008886E-01 -2.87075315258E-01
2.89500000000E+09 +2.90295614318E-01 -3.84227303153E-01 +5.53247650688E-04 -1.05746771586E-03 +5.43600048731E-04 -1.04546037090E-03 +4.81439784953E-01 -3.04535466201E-01
2.90000000000E+09 +2.59748201592E-01 -3.90851486427E-01 +3.76947923059E-04 -1.11908727159E-03 +4.33324242774E-04 -1.06699014806E-03 +4.52888578190E-01 -3.21496686925E-01
2.90500000000E+09 +2.27388236173E-01 -3.94733164744E-01 +3.46515583735E-04 -1.26516691269E-03 +3.88543127222E-04 -1.33424748805E-03 +4.23556567715E-01 -3.36022029926E-01
2.91000000000E+09 +1.94700844322E-01 -3.95801045558E-01 +3.21234597671E-05 -1.53412346664E-03 -6.79575944496E-05 -1.53627835568E-03 +3.93774293491E-01 -3.50004540960E-01
2.91500000000E+09 +1.62196710852E-01 -3.95439243163E-01 -3.78296863738E-04 -1.10190519367E-03 -3.97582430498E-04 -1.13872674504E-03 +3.62059001306E-01 -3.62165419140E-01
2.92000000000E+09 +1.28910111621E-01 -3.93226922513E-01 -2.29098469161E-04 -1.05448311889E-03 -2.12228574046E-04 -1.00434311332E-03 +3.29117674550E-01 -3.72234941104E-01
2.92500000000E+09 +9.58251215031E-02 -3.88645858475E-01 -2.92569757901E-04 -1.43353815294E-03 -2.50468336954E-04 -1.30820761057E-03 +2.94514917898E-01 -3.79869546833E-01
2.93000000000E+09 +6.37455057364E-02 -3.82505301685E-01 -9.53228823883E-04 -1.44744249083E-03 -8.95910609822E-04 -1.38757408989E-03 +2.58973812288E-01 -3.86733467424E-01
2.93500000000E+09 +3.13180940131E-02 -3.75137236271E-01 -1.35840318097E-03 -7.40226686910E-04 -1.29229787125E-03 -7.26386192702E-04 +2.20797359330E-01 -3.92390090631E-01
2.94000000000E+09 -1.06484743363E-03 -3.65062825059E-01 -9.41531780898E-04 -2.26257092651E-04 -9.90648820849E-04 -2.23823353315E-04 +1.80997537470E-01 -3.95571124070E-01
2.94500000000E+09 -3.27949909208E-02 -3.52621429282E-01 -6.24934943805E-04 -3.41474922305E-04 -5.66809015170E-04 -3.32417355396E-04 +1.40308973122E-01 -3.95200998107E-01
2.95000000000E+09 -6.46809685731E-02 -3.37347292407E-01 -6.82108818682E-04 -7.40267296024E-04 -6.91072889311E-04 -8.10473465135E-04 +1.01176355334E-01 -3.91469780745E-01
2.95500000000E+09 -9.52205512363E-02 -3.18438582424E-01 -1.22856351799E-03 -5.48329835743E-04 -1.21758844605E-03 -7.06480276654E-04 +6.15201064241E-02 -3.86062703458E-01
2.96000000000E+09 -1.23871303863E-01 -2.97209380710E-01 -1.49184244633E-03 -1.42327079640E-04 -1.54642661208E-03 -1.98312021069E-04 +2.17699271747E-02 -3.76463384879E-01
2.96500000000E+09 -1.51202482209E-01 -2.74301750002E-01 -1.15178481199E-03 +4.89771088423E-04 -1.19298910913E-03 +5.11445757653E-04 -1.70359692292E-02 -3.65218748774E-01
2.97000000000E+09 -1.78000328315E-01 -2.48783161700E-01 -5.64398403040E-04 +2.99164039445E-04 -5.33383354307E-04 +2.36183317167E-04 -5.81788407992E-02 -3.51488961315E-01
2.97500000000E+09 -2.02768796436E-01 -2.20969625242E-01 -6.23675116117E-04 -5.26486899638E-05 -5.66952487857E-04 -9.75428589290E-05 -9.69336706693E-02 -3.33486739459E-01
2.98000000000E+09 -2.25423104947E-01 -1.91523355616E-01 -1.19338825319E-03 -8.75724679460E-05 -1.15901958403E-03 -1.12970021769E-04 -1.35046087940E-01 -3.13962530488E-01
2.98500000000E+09 -2.46201827282E-01 -1.61823755884E-01 -1.10200762605E-03 +4.12047856407E-04 -1.19170024280E-03 +4.03230315177E-04 -1.71135143875E-01 -2.90939783233E-01
2.99000000000E+09 -2.65782482223E-01 -1.31060890358E-01 -1.00633174349E-03 +5.69343153977E-04 -1.05569690782E-03 +5.78983296091E-04 -2.05779491420E-01 -2.65452334139E-01
2.99500000000E+09 -2.83130176956E-01 -9.97170517501E-02 -7.95115728437E-04 +8.20562472574E-04 -8.40758238582E-04 +8.66941532298E-04 -2.38472917070E-01 -2.35704711136E-01
3.00000000000E+09 -2.98692781208E-01 -6.79578890947E-02 -4.35472807791E-04 +7.43516536248E-04 -3.80838739454E-04 +7.46058317923E-04 -2.67842337205E-01 -2.05494287828E-01
3.00500000000E+09 -3.11296383121E-01 -3.63572438630E-02 -7.50521757710E-04 +4.46528287298E-04 -6.79434679090E-04 +4.68322459737E-04 -2.97491066580E-01 -1.73109302456E-01
3.01000000000E+09 -3.21917561812E-01 -5.41750117062E-03 -6.88377935322E-04 +9.90418323745E-04 -7.03063945569E-04 +9.46093566307E-04 -3.23683223217E-01 -1.38310754803E-01
3.01500000000E+09 -3.30310644389E-01 +2.53861785190E-02 -1.35556633512E-04 +1.22653418327E-03 -2.14572394239E-04 +1.13013804807E-03 -3.47347695905E-01 -1.02764890269E-01
3.02000000000E+09 -3.35702011975E-01 +5.69663655954E-02 +7.42548735004E-05 +8.65294714249E-04 +8.32556261740E-05 +9.37043491611E-04 -3.67989469753E-01 -6.55950216092E-02
3.02500000000E+09 -3.37323979528E-01 +8.74231151230E-02 +1.99140531693E-04 +4.92635136512E-04 +2.20365855224E-04 +5.91435227662E-04 -3.85595388163E-01 -2.70340309715E-02
3.03000000000E+09 -3.36652348471E-01 +1.17384186097E-01 -1.85567528488E-04 +3.78925408894E-04 -1.11277728238E-04 +3.29340819777E-04 -3.99548946657E-01 +1.24300729839E-02
3.03500000000E+09 -3.33100429258E-01 +1.46286648049E-01 -3.31461054213E-04 +6.80490360605E-04 -3.58223018899E-04 +6.92734095795E-04 -4.10883084657E-01 +5.21910925424E-02
3.04000000000E+09 -3.28111695848E-01 +1.74913978177E-01 -4.87165798547E-06 +6.53713216974E-04 -2.83448809255E-05 +6.48970444140E-04 -4.19035452651E-01 +9.24019932635E-02
3.04500000000E+09 -3.20834397290E-01 +2.03581959567E-01 -1.60427341823E-04 +1.00729955625E-03 -2.14257240754E-04 +1.01735811300E-03 -4.24406788291E-01 +1.31490081172E-01
3.05000000000E+09 -3.12035481106E-01 +2.31863336196E-01 +5.14744682273E-04 +8.96613308119E-04 +4.98719724186E-04 +9.48103514824E-04 -4.27582348004E-01 +1.70190462092E-01
3.05500000000E+09 -3.00886990583E-01 +2.59498309750E-01 +2.78299039862E-04 +6.07470620966E-04 +3.64386385789E-04 +5.92733499265E-04 -4.28561681678E-01 +2.07992597750E-01
3.06000000000E+09 -2.89277485766E-01 +2.86072108588E-01 +4.70309302904E-04 +5.65385313506E-04 +4.06740103650E-04 +5.21836457430E-04 -4.27171812041E-01 +2.45890789286E-01
3.06500000000E+09 -2.76525685972E-01 +3.11870669196E-01 +2.18313805427E-04 +5.42748069218E-04 +2.78166008170E-04 +4.22806546388E-04 -4.23049889599E-01 +2.82988766766E-01
3.07000000000E+09 -2.62889016322E-01 +3.36231407941E-01 +4.47423003339E-04 +7.02172571716E-04 +3.96284389814E-04 +7.20559458644E-04 -4.16776203976E-01 +3.18459771175E-01
