# Hz S RI R 50
! CMT, C1220, 16058040, 17.2.0/1
! Date: 15/08/2018 10:24:39
! Data: Format (Calibration Info)
! Freq                      S11: Re/Im (F2)                       S21: Re/Im (F2)                       S12: Re/Im (F2)                       S22: Re/Im (F2)            
2.50000000000E+09 +5.82984302314E-01 +6.36470227907E-01 +3.10855543351E-04 +4.12045900963E-05 +3.05705057872E-04 +3.01071051097E-05 +5.71524420212E-01 +7.19058480685E-01
2.50500000000E+09 +5.90302287939E-01 +6.28455178177E-01 +3.58225681797E-04 -3.11602113347E-06 +3.89927882263E-04 -8.02007366905E-05 +5.77441659145E-01 +7.13227563115E-01
2.51000000000E+09 +5.97828182117E-01 +6.20243258559E-01 +3.24238480410E-04 -1.70458789290E-04 +2.88649683185E-04 -1.53887768761E-04 +5.83255353087E-01 +7.07469003930E-01
2.51500000000E+09 +6.05114223188E-01 +6.12206034974E-01 +2.64926175346E-04 -9.74123741414E-05 +2.42726339864E-04 -1.28270378666E-04 +5.88717816344E-01 +7.01506377872E-01
2.52000000000E+09 +6.11679856145E-01 +6.04180796378E-01 +2.75547453812E-04 -1.74544599736E-04 +2.58277590034E-04 -1.81283859863E-04 +5.93783921629E-01 +6.95005326364E-01
2.52500000000E+09 +6.17219293328E-01 +5.96704446239E-01 +2.38357413209E-04 -2.13871002709E-04 +2.36732494681E-04 -2.10508940424E-04 +5.99391797058E-01 +6.88171692936E-01
2.53000000000E+09 +6.22059516874E-01 +5.89680516177E-01 +1.79229053930E-04 -2.75207184963E-04 +1.79746174549E-04 -2.51198750235E-04 +6.05241958073E-01 +6.80825928741E-01
2.53500000000E+09 +6.26266701406E-01 +5.83201343319E-01 +1.02289946154E-04 -2.84825601347E-04 +7.10095543263E-05 -2.63615436605E-04 +6.10781178687E-01 +6.73730556329E-01
2.54000000000E+09 +6.30047286700E-01 +5.76910767141E-01 +1.99681362092E-05 -2.30282988942E-04 +5.52970258385E-05 -2.16674218803E-04 +6.16288332692E-01 +6.67018565248E-01
2.54500000000E+09 +6.34179041210E-01 +5.70990427417E-01 +7.25278377907E-07 -1.01129663061E-04 +4.52088596098E-05 -1.09246964296E-04 +6.21492453506E-01 +6.60331244097E-01
2.55000000000E+09 +6.38931383196E-01 +5.64697691052E-01 +1.17944238678E-04 -1.15268372768E-04 +1.89997358178E-04 -7.16568044419E-05 +6.26061823329E-01 +6.54275834333E-01
2.55500000000E+09 +6.44080301637E-01 +5.57720137851E-01 +1.31448615496E-04 -2.41973112022E-04 +1.96528355272E-04 -2.84704350238E-04 +6.30690920258E-01 +6.48140684911E-01
2.56000000000E+09 +6.50258577971E-01 +5.50667580983E-01 +2.22196197205E-05 -2.86570718864E-04 +8.35462343796E-05 -3.01631206604E-04 +6.35409913357E-01 +6.41373585082E-01
2.56500000000E+09 +6.56683460325E-01 +5.42591769737E-01 +1.83690480619E-05 -2.18410674966E-04 +1.41351431875E-06 -2.49303407389E-04 +6.40866290287E-01 +6.34373208773E-01
2.57000000000E+09 +6.62876075830E-01 +5.34255364944E-01 -1.63543674932E-06 -2.03600087569E-04 -6.98962862120E-05 -2.36197979910E-04 +6.46229369535E-01 +6.26687595129E-01
2.57500000000E+09 +6.68986731070E-01 +5.25706252793E-01 -8.92358226512E-05 -1.21310464258E-04 -3.14380464849E-05 -1.27926887775E-04 +6.51617363165E-01 +6.19293371946E-01
2.58000000000E+09 +6.74247967301E-01 +5.17033062133E-01 +7.34025039159E-05 -1.14345055205E-04 +5.94061658223E-05 -1.39321501696E-04 +6.56768104420E-01 +6.12121243271E-01
2.58500000000E+09 +6.78329336142E-01 +5.08644389203E-01 +9.30630353910E-05 -2.48086592354E-04 +1.12955276486E-04 -1.95342535324E-04 +6.61886484671E-01 +6.04728313287E-01
2.59000000000E+09 +6.82064652122E-01 +5.00801477384E-01 -1.60803660655E-05 -2.41709960348E-04 -5.26029247263E-05 -2.55792423431E-04 +6.66755474655E-01 +5.97171732022E-01
2.59500000000E+09 +6.85799360163E-01 +4.92886948634E-01 -4.92408214368E-05 -2.44992985508E-04 -1.79469658183E-05 -2.85732034954E-04 +6.72011234760E-01 +5.89228213143E-01
2.60000000000E+09 +6.89210018357E-01 +4.84366291718E-01 -5.27699819456E-05 -2.27497127602E-04 -8.66819537794E-05 -2.00374777359E-04 +6.77432803958E-01 +5.80685176986E-01
2.60500000000E+09 +6.92918411106E-01 +4.75098277383E-01 -4.92924163726E-05 -1.86190948000E-04 -8.22982725219E-05 -2.34425145030E-04 +6.82784076568E-01 +5.71710733175E-01
2.61000000000E+09 +6.97109010468E-01 +4.64552052958E-01 +5.00244723922E-05 -2.42857361538E-04 +5.07760308788E-05 -2.91998938598E-04 +6.87985589075E-01 +5.62740563502E-01
2.61500000000E+09 +7.01807339435E-01 +4.53001543645E-01 -1.12527268971E-04 -3.82654880315E-04 -1.15162883240E-04 -3.90893520660E-04 +6.92682793206E-01 +5.54035700873E-01
2.62000000000E+09 +7.06456827854E-01 +4.40391306507E-01 -2.03064376875E-04 -2.49751657216E-04 -2.19119110709E-04 -1.83905185391E-04 +6.97170654453E-01 +5.45090291805E-01
2.62500000000E+09 +7.11098343759E-01 +4.26874345767E-01 -1.73465318033E-04 -1.95377425104E-04 -2.33090327506E-04 -1.70953082069E-04 +7.01510345045E-01 +5.36255279315E-01
2.63000000000E+09 +7.15592366924E-01 +4.12932291257E-01 -1.77477655534E-04 -2.24433332967E-04 -1.66162162054E-04 -1.76567706158E-04 +7.05946189630E-01 +5.27187727453E-01
2.63500000000E+09 +7.19028250304E-01 +3.99260563503E-01 -2.03310248930E-04 -2.17481907680E-04 -1.76763583120E-04 -1.70333060780E-04 +7.10499756205E-01 +5.18091417871E-01
2.64000000000E+09 +7.21937685974E-01 +3.86475662686E-01 -2.34176413771E-04 -1.11730558192E-04 -2.21529173758E-04 -1.18021881156E-04 +7.15076583653E-01 +5.08350069191E-01
2.64500000000E+09 +7.24678438368E-01 +3.74805543149E-01 -1.71033513864E-04 -4.67440139779E-05 -1.14262707175E-04 -9.24937006670E-06 +7.19357214639E-01 +4.98851870742E-01
2.65000000000E+09 +7.27067052534E-01 +3.63843032030E-01 -9.79903181098E-05 -1.05217320762E-04 -4.99546872643E-05 -1.63736012590E-04 +7.23687217501E-01 +4.88918097431E-01
2.65500000000E+09 +7.29668191901E-01 +3.53172502218E-01 -1.96330020881E-04 -2.03838241739E-04 -1.58711487275E-04 -2.02545709434E-04 +7.27223270179E-01 +4.78519527206E-01
2.66000000000E+09 +7.32411867613E-01 +3.42530714902E-01 -2.05347050214E-04 -8.34257122185E-05 -1.60042434878E-04 -1.20393574802E-04 +7.31171764831E-01 +4.67735429326E-01
2.66500000000E+09 +7.35113903191E-01 +3.31564438549E-01 -1.62398305499E-04 -1.77975737286E-04 -1.92565236673E-04 -2.10294147851E-04 +7.35526939622E-01 +4.56762496508E-01
2.67000000000E+09 +7.37671215375E-01 +3.19562327276E-01 -3.28734019229E-04 -1.67965983087E-04 -2.94318461665E-04 -1.83057298149E-04 +7.39937999313E-01 +4.45890765381E-01
2.67500000000E+09 +7.40199472140E-01 +3.06455418030E-01 -2.60052261202E-04 -1.32178419469E-04 -2.40067786026E-04 -1.58651453550E-04 +7.44087341100E-01 +4.34589328812E-01
2.68000000000E+09 +7.41776705763E-01 +2.92245302531E-01 -3.24746262075E-04 -8.44093550554E-05 -2.87412385445E-04 -8.15657078591E-05 +7.47743425208E-01 +4.23314676432E-01
2.68500000000E+09 +7.42353002686E-01 +2.77984227098E-01 -2.93905702594E-04 -1.25711016590E-04 -2.80307177159E-04 -1.56794605855E-04 +7.50521498293E-01 +4.12194034947E-01
2.69000000000E+09 +7.42701708077E-01 +2.63820903852E-01 -2.86436115404E-04 -4.98681740814E-05 -3.19457681027E-04 -6.05613640813E-05 +7.53242097396E-01 +4.00646571061E-01
2.69500000000E+09 +7.42721714606E-01 +2.50138535381E-01 -3.52926722940E-04 -1.16817983647E-04 -4.21923290166E-04 -8.83615311342E-05 +7.55766898231E-01 +3.88433085776E-01
2.70000000000E+09 +7.42721931840E-01 +2.36656864825E-01 -3.53300378875E-04 -7.93050565092E-05 -4.06574359575E-04 -3.66734037757E-05 +7.58673391454E-01 +3.75514223844E-01
2.70500000000E+09 +7.42750280419E-01 +2.23776181617E-01 -4.88670856134E-04 -5.87624087753E-05 -5.21138670011E-04 -5.63508088807E-05 +7.61595408000E-01 +3.62446387395E-01
2.71000000000E+09 +7.42977132273E-01 +2.10599764829E-01 -5.69490441855E-04 +5.93237697186E-05 -5.92859953125E-04 +4.23404690621E-05 +7.64590983009E-01 +3.49360850860E-01
2.71500000000E+09 +7.43296233715E-01 +1.97141453990E-01 -4.85282848198E-04 +2.76134136494E-04 -5.32902643026E-04 +2.66755634967E-04 +7.66907104158E-01 +3.36720269774E-01
2.72000000000E+09 +7.43560113557E-01 +1.83177752691E-01 -4.31766048313E-04 +2.53094257002E-04 -4.05691185676E-04 +3.01394174462E-04 +7.68727940945E-01 +3.24401322785E-01
2.72500000000E+09 +7.43302821257E-01 +1.68005685478E-01 -4.80626276106E-04 +3.14075977353E-04 -4.49933994183E-04 +3.94750794578E-04 +7.70202827404E-01 +3.11212123866E-01
2.73000000000E+09 +7.42014620148E-01 +1.51888991832E-01 -4.33363993752E-04 +5.45155300263E-04 -2.62257760668E-04 +4.84380598936E-04 +7.71450054290E-01 +2.97262135376E-01
2.73500000000E+09 +7.39303484481E-01 +1.34956166707E-01 -1.89277130587E-04 +4.12687252196E-04 -1.06455519129E-04 +3.77136034552E-04 +7.72546783218E-01 +2.82319633303E-01
2.74000000000E+09 +7.35638765229E-01 +1.18267991795E-01 -2.79685254154E-04 +4.39180959389E-04 -2.39672560101E-04 +3.31004392762E-04 +7.73715170351E-01 +2.67491871278E-01
2.74500000000E+09 +7.30652450909E-01 +1.01382060989E-01 -2.17374767573E-04 +3.90906770734E-04 -2.07426612333E-04 +3.70529031565E-04 +7.74639036101E-01 +2.52427338664E-01
2.75000000000E+09 +7.25332318152E-01 +8.54785144158E-02 -1.79370666941E-04 +4.85126190034E-04 -2.00897268533E-04 +3.96412435593E-04 +7.75618212599E-01 +2.37811710978E-01
2.75500000000E+09 +7.19918113775E-01 +6.94246319100E-02 -1.60802903970E-04 +4.38462135203E-04 -2.32669033610E-04 +4.15410600698E-04 +7.75632603322E-01 +2.22540266000E-01
2.76000000000E+09 +7.14562232640E-01 +5.35280578916E-02 -1.40598770512E-04 +4.40046064474E-04 -2.30945992812E-04 +4.50943414305E-04 +7.74639623028E-01 +2.07315759887E-01
2.76500000000E+09 +7.09242744502E-01 +3.79446209632E-02 -1.61425167069E-04 +4.65600513588E-04 -1.87129812232E-04 +5.72635944239E-04 +7.73617762551E-01 +1.91782135008E-01
2.77000000000E+09 +7.05065494571E-01 +2.17336491503E-02 -8.15254784364E-05 +5.90218460419E-04 -7.75291614081E-05 +6.92017486463E-04 +7.72876069871E-01 +1.75269105516E-01
2.77500000000E+09 +7.00873602144E-01 +4.31222656144E-03 -9.46201892231E-05 +5.29459996661E-04 -1.04976033449E-04 +5.53545636341E-04 +7.71766959270E-01 +1.57931022159E-01
2.78000000000E+09 +6.97159526480E-01 -1.43253999539E-02 -7.06273799297E-06 +6.52056648655E-04 +1.42743109515E-05 +7.24627923636E-04 +7.70409627238E-01 +1.40052208709E-01
2.78500000000E+09 +6.92067412161E-01 -3.43015575018E-02 -2.76249260336E-05 +6.63484856653E-04 +7.50241837005E-05 +6.66641363451E-04 +7.67948754269E-01 +1.22947114147E-01
2.79000000000E+09 +6.85985392930E-01 -5.48608895088E-02 +2.09302155613E-05 +8.57721767911E-04 +8.11536356197E-05 +7.68137319845E-04 +7.65729354074E-01 +1.06207269410E-01
2.79500000000E+09 +6.78157402587E-01 -7.48231488542E-02 +4.15116306530E-04 +9.42887074999E-04 +3.39393527795E-04 +8.72793454716E-04 +7.62761364625E-01 +8.79173618719E-02
2.80000000000E+09 +6.69643244296E-01 -9.39357672398E-02 +6.33027843881E-04 +7.79871187955E-04 +5.78944830191E-04 +7.94993545080E-04 +7.58275472954E-01 +6.90233575765E-02
2.80500000000E+09 +6.60286150753E-01 -1.12053918039E-01 +4.45924774897E-04 +4.66854200663E-04 +3.85231976421E-04 +5.14056995614E-04 +7.53204827317E-01 +4.98607822106E-02
2.81000000000E+09 +6.49971064847E-01 -1.29028673928E-01 +3.18715408789E-04 +7.42287218762E-04 +3.71240786299E-04 +7.94918600189E-04 +7.47630696741E-01 +2.98992731300E-02
2.81500000000E+09 +6.38697810829E-01 -1.45174600214E-01 +6.35190494920E-04 +9.49790577172E-04 +7.34180621968E-04 +9.35772967321E-04 +7.41010415864E-01 +9.41259466130E-03
2.82000000000E+09 +6.26509712988E-01 -1.60869551113E-01 +9.86981805154E-04 +6.95060015032E-04 +1.01566716565E-03 +6.29502711035E-04 +7.33726355848E-01 -1.11025637118E-02
2.82500000000E+09 +6.13021788684E-01 -1.75950302399E-01 +8.63134579370E-04 +5.06473098965E-04 +8.44921829156E-04 +4.80772323986E-04 +7.24894077697E-01 -3.19009260036E-02
2.83000000000E+09 +5.98976822746E-01 -1.91885160318E-01 +1.18707648658E-03 +5.61422814652E-04 +1.15379329796E-03 +5.10983872863E-04 +7.14844083925E-01 -5.21328453101E-02
2.83500000000E+09 +5.83185955810E-01 -2.09551400840E-01 +1.31048456435E-03 +3.54964238374E-04 +1.27163143314E-03 +3.47991809446E-04 +7.04045879580E-01 -7.22564076713E-02
2.84000000000E+09 +5.64094019808E-01 -2.27818992564E-01 +1.57325110342E-03 -1.46829148070E-04 +1.55093701827E-03 -1.01322792797E-04 +6.92669057987E-01 -9.27970606825E-02
2.84500000000E+09 +5.42609265154E-01 -2.45113315525E-01 +1.22995220435E-03 -4.86763425802E-04 +1.25957088764E-03 -4.45557375976E-04 +6.80035771556E-01 -1.13617670965E-01
2.85000000000E+09 +5.20745164190E-01 -2.62178544730E-01 +9.22561681906E-04 -5.59779628712E-04 +8.56144425980E-04 -5.58217998403E-04 +6.65330548994E-01 -1.34432903758E-01
2.85500000000E+09 +4.97247479703E-01 -2.78904673123E-01 +7.75383929995E-04 -1.06129103261E-04 +7.27421097178E-04 -1.74486654553E-04 +6.50392195625E-01 -1.53772127177E-01
2.86000000000E+09 +4.73473598680E-01 -2.94959126769E-01 +1.42049842530E-03 -2.51675686867E-05 +1.42843100143E-03 +2.86833567284E-05 +6.34289022148E-01 -1.74145906635E-01
2.86500000000E+09 +4.48868101335E-01 -3.09763375950E-01 +1.86675566547E-03 -9.25905367279E-04 +1.88758166343E-03 -8.54271845509E-04 +6.16504846502E-01 -1.94361933015E-01
2.87000000000E+09 +4.23967345495E-01 -3.22777367040E-01 +1.19883879929E-03 -1.61278200810E-03 +1.24088218040E-03 -1.67426691952E-03 +5.97265276778E-01 -2.13974869861E-01
2.87500000000E+09 +3.99900145414E-01 -3.33880669904E-01 +4.87555807219E-04 -1.51610209645E-03 +4.77106055298E-04 -1.57580876526E-03 +5.76954383108E-01 -2.32868513233E-01
2.88000000000E+09 +3.76502644663E-01 -3.45037729014E-01 +2.37687591489E-04 -1.27170637206E-03 +2.38163135131E-04 -1.19468855129E-03 +5.56020382107E-01 -2.51275341218E-01
2.88500000000E+09 +3.51325467930E-01 -3.56127131189E-01 +4.76874132507E-04 -9.45751330928E-04 +4.18851167029E-04 -9.64754195892E-04 +5.33502734945E-01 -2.69573653187E-01
2.89000000000E+09 +3.23953505992E-01 -3.65122341047E-01 +6.51648017981E-04 -1.47988435004E-03 +6.44439427638E-04 -1.36987266478E-03 +5.09492544091E-01 -2.86925538491E-01
2.89500000000E+09 +2.95988554158E-01 -3.71973324843E-01 +1.73487839388E-04 -1.71484280861E-03 +2.46851432148E-04 -1.62257589327E-03 +4.83892725475E-01 -3.05087293825E-01
2.90000000000E+09 +2.67339194729E-01 -3.78036115947E-01 -2.93596619793E-04 -1.59653367123E-03 -2.16459925802E-04 -1.55775722583E-03 +4.55086245987E-01 -3.22043711780E-01
2.90500000000E+09 +2.36363458748E-01 -3.82999546102E-01 -1.70913933152E-04 -1.32755961290E-03 -1.79532824324E-04 -1.28170779988E-03 +4.25524200994E-01 -3.37058946683E-01
2.91000000000E+09 +2.04321858782E-01 -3.85006934201E-01 -3.36661816597E-04 -1.83719216525E-03 -3.10728694291E-04 -1.75810201392E-03 +3.95214641103E-01 -3.51272608240E-01
2.91500000000E+09 +1.71867761306E-01 -3.85064575486E-01 -8.60432804091E-04 -1.59891496461E-03 -8.83841132771E-04 -1.56222197144E-03 +3.63099845039E-01 -3.63535186553E-01
2.92000000000E+09 +1.39661618329E-01 -3.82565601177E-01 -1.14511434291E-03 -1.37417842885E-03 -1.13640543712E-03 -1.27017937056E-03 +3.29596363554E-01 -3.73169882134E-01
2.92500000000E+09 +1.08510934936E-01 -3.78809504808E-01 -1.30987868221E-03 -1.22265418339E-03 -1.14832760368E-03 -1.27548790644E-03 +2.95376939728E-01 -3.80682783099E-01
2.93000000000E+09 +7.77091301079E-02 -3.74043522251E-01 -1.69445848384E-03 -8.89172709552E-04 -1.63967351042E-03 -9.03670365037E-04 +2.59774643163E-01 -3.87630282533E-01
2.93500000000E+09 +4.58211141089E-02 -3.67840002326E-01 -1.57135071202E-03 -3.30208586826E-04 -1.53579983233E-03 -3.11475315571E-04 +2.21526556887E-01 -3.93061032878E-01
2.94000000000E+09 +1.41281049798E-02 -3.58174251944E-01 -1.16777944969E-03 -8.27607010411E-05 -1.18613929128E-03 -6.73001235913E-05 +1.82215581600E-01 -3.95969482194E-01
2.94500000000E+09 -1.62449839969E-02 -3.46903829941E-01 -9.80141667449E-04 -5.40371109523E-04 -9.34067375847E-04 -5.51906091804E-04 +1.41501699591E-01 -3.96319332378E-01
2.95000000000E+09 -4.69682312817E-02 -3.33561396832E-01 -1.62479454392E-03 -6.84728174025E-04 -1.59945894080E-03 -7.61399715711E-04 +1.01935133449E-01 -3.92662001998E-01
2.95500000000E+09 -7.75450479708E-02 -3.16914955330E-01 -2.07272394644E-03 +1.41411821299E-04 -2.15237935481E-03 -5.85754564190E-06 +6.26167431333E-02 -3.87095357904E-01
2.96000000000E+09 -1.06892816448E-01 -2.97240881676E-01 -1.74718372332E-03 +8.24022105574E-04 -1.82394501879E-03 +8.76887523298E-04 +2.25375825282E-02 -3.78132716063E-01
2.96500000000E+09 -1.34798011279E-01 -2.75454932574E-01 -9.29564152967E-04 +1.13714349956E-03 -9.31484825556E-04 +1.18348338347E-03 -1.65205210780E-02 -3.66838280626E-01
2.97000000000E+09 -1.61562432924E-01 -2.51266452032E-01 -6.41597020040E-04 +5.81258696368E-04 -6.32615630582E-04 +6.01926857960E-04 -5.76802167166E-02 -3.53464261068E-01
2.97500000000E+09 -1.86534434098E-01 -2.24958655057E-01 -9.50931882304E-04 +4.13261567601E-04 -9.40771338096E-04 +4.14643359711E-04 -9.69196691715E-02 -3.35850573699E-01
2.98000000000E+09 -2.09453220521E-01 -1.97291841715E-01 -1.20637493584E-03 +9.18585509831E-04 -1.27350687630E-03 +8.49728749585E-04 -1.35757553654E-01 -3.16375232101E-01
2.98500000000E+09 -2.31134353729E-01 -1.68893423467E-01 -4.28421333224E-04 +1.21564468136E-03 -4.60545007739E-04 +1.18351352208E-03 -1.72674435083E-01 -2.92609822297E-01
2.99000000000E+09 -2.50898050333E-01 -1.38985470987E-01 -2.65907693165E-04 +4.70867534475E-04 -2.78218906243E-04 +5.29723215443E-04 -2.07437330894E-01 -2.66354888145E-01
2.99500000000E+09 -2.68968988757E-01 -1.09160475853E-01 -8.67249150084E-04 +5.57965422517E-04 -9.46536843583E-04 +5.84298906973E-04 -2.40228871582E-01 -2.36199637290E-01
3.00000000000E+09 -2.85430183616E-01 -7.79689868882E-02 -1.03220156337E-03 +1.22493266608E-03 -9.68361366416E-04 +1.25886548716E-03 -2.69393971042E-01 -2.05190131798E-01
3.00500000000E+09 -2.99095163178E-01 -4.71969970506E-02 -4.96547745591E-04 +1.65780144691E-03 -4.67479261852E-04 +1.63608642400E-03 -2.98288122223E-01 -1.72798835936E-01
3.01000000000E+09 -3.10927395529E-01 -1.67887791034E-02 +3.23900376337E-04 +1.36273858251E-03 +2.86390742594E-04 +1.34775501750E-03 -3.24201006132E-01 -1.38169580042E-01
3.01500000000E+09 -3.20520824002E-01 +1.39863658707E-02 +2.64084092870E-04 +9.97407665634E-04 +1.96938793101E-04 +1.04194582509E-03 -3.48131347295E-01 -1.02441449130E-01
3.02000000000E+09 -3.27123837437E-01 +4.47443809850E-02 +2.09740343209E-04 +8.52594359023E-04 +1.63610758638E-04 +9.42804895573E-04 -3.68285732071E-01 -6.48406076480E-02
3.02500000000E+09 -3.30149665425E-01 +7.46220659983E-02 +7.82300444091E-05 +9.36374545936E-04 +9.89349553137E-05 +9.53999486796E-04 -3.85313899276E-01 -2.61997388240E-02
3.03000000000E+09 -3.31020792469E-01 +1.03112092421E-01 +3.44472418091E-04 +1.13568862687E-03 +3.46134170768E-04 +1.17946942551E-03 -3.98890760817E-01 +1.30692919809E-02
3.03500000000E+09 -3.30421090287E-01 +1.31670658012E-01 +5.32109653197E-04 +1.13744441232E-03 +5.88077418956E-04 +1.16561934113E-03 -4.09580928840E-01 +5.24330081370E-02
3.04000000000E+09 -3.27157146751E-01 +1.60944449066E-01 +9.17535992513E-04 +5.09896067132E-04 +9.05209557493E-04 +5.59698199554E-04 -4.17872484281E-01 +9.12393449845E-02
3.04500000000E+09 -3.21031616356E-01 +1.90108160249E-01 +4.47271098033E-04 +6.72780110703E-04 +4.16784929128E-04 +7.13935102946E-04 -4.23953798169E-01 +1.30121921222E-01
3.05000000000E+09 -3.12708758626E-01 +2.18470277616E-01 +7.18569833980E-04 +8.28175116037E-04 +8.08447356733E-04 +8.18480250433E-04 -4.27839234111E-01 +1.68890758480E-01
3.05500000000E+09 -3.03260149507E-01 +2.45845814327E-01 +1.04407273216E-03 +7.93089248820E-04 +1.15668529584E-03 +7.16080075036E-04 -4.28922153941E-01 +2.07045344461E-01
3.06000000000E+09 -2.92822017351E-01 +2.73138883701E-01 +1.27939625028E-03 -5.72787008849E-05 +1.21757699932E-03 -1.02893396820E-04 -4.27577781065E-01 +2.45349798255E-01
3.06500000000E+09 -2.81470404944E-01 +3.00177765657E-01 +6.80104836251E-04 -3.12125935765E-04 +5.91224145863E-04 -2.61909004577E-04 -4.23397012819E-01 +2.82622988094E-01
3.07000000000E+09 -2.68594159718E-01 +3.25853807121E-01 +2.77324055053E-04 +6.68237176792E-05 +2.62424605604E-04 +1.38165701534E-04 -4.16624302106E-01 +3.18278451254E-01
