# Hz S RI R 50
! CMT, C1220, 16058040, 17.2.0/1
! Date: 15/08/2018 10:24:30
! Data: Format (Calibration Info)
! Freq                      S11: Re/Im (F2)                       S21: Re/Im (F2)                       S12: Re/Im (F2)                       S22: Re/Im (F2)            
2.50000000000E+09 +5.82125247335E-01 +6.37279151463E-01 +2.84709108721E-04 +1.16185246833E-04 +3.52916903007E-04 +1.21890758136E-04 +5.71405903485E-01 +7.18847974606E-01
2.50500000000E+09 +5.89137913096E-01 +6.29373293674E-01 +4.48611399113E-04 +3.50482283920E-05 +4.49482222262E-04 +1.33578155972E-05 +5.77361000798E-01 +7.13033618285E-01
2.51000000000E+09 +5.96623329226E-01 +6.21219913343E-01 +3.46761775739E-04 -7.31700992146E-05 +3.45603182225E-04 -1.01831801217E-04 +5.83222165005E-01 +7.07335502016E-01
2.51500000000E+09 +6.03834502237E-01 +6.13231368440E-01 +3.10392869398E-04 -7.02435648102E-05 +2.97032535880E-04 -7.25092795308E-05 +5.88555557857E-01 +7.01429220576E-01
2.52000000000E+09 +6.10541302039E-01 +6.04988260312E-01 +3.66512040773E-04 -9.73594955755E-05 +3.77865487404E-04 -9.13439623088E-05 +5.93643136956E-01 +6.94970110228E-01
2.52500000000E+09 +6.16088463621E-01 +5.97335283618E-01 +3.72623299771E-04 -2.21514798481E-04 +4.08346856512E-04 -1.93297698396E-04 +5.99223194286E-01 +6.88284456071E-01
2.53000000000E+09 +6.20975886875E-01 +5.90276403543E-01 +3.35105251238E-04 -3.19472195487E-04 +3.68104132124E-04 -2.84575669857E-04 +6.05197048948E-01 +6.80888583030E-01
2.53500000000E+09 +6.25373407379E-01 +5.83581185774E-01 +2.02790042518E-04 -3.42760294367E-04 +2.16026177289E-04 -3.47659178254E-04 +6.10583468800E-01 +6.73759483837E-01
2.54000000000E+09 +6.29301169320E-01 +5.77264695877E-01 +1.89921098769E-04 -3.47787374443E-04 +1.91867364498E-04 -3.54332506348E-04 +6.16261034465E-01 +6.67090371629E-01
2.54500000000E+09 +6.33511712414E-01 +5.71348932044E-01 +1.05489446954E-04 -2.78349318123E-04 +8.57151392360E-05 -2.67378867927E-04 +6.21418977089E-01 +6.60440733011E-01
2.55000000000E+09 +6.38159541576E-01 +5.65027201986E-01 +2.17513058783E-04 -2.45019325401E-04 +2.97921039298E-04 -2.58828350282E-04 +6.26105215247E-01 +6.54330098297E-01
2.55500000000E+09 +6.43189159504E-01 +5.58171892942E-01 +2.22946415387E-04 -4.43582809423E-04 +2.39574234239E-04 -5.13748937836E-04 +6.30578848049E-01 +6.48173611475E-01
2.56000000000E+09 +6.49264028945E-01 +5.51326840921E-01 +1.29777698843E-05 -4.61050426408E-04 -3.98043560861E-05 -5.72575174320E-04 +6.35512868600E-01 +6.41487794232E-01
2.56500000000E+09 +6.55562138960E-01 +5.43327292017E-01 -7.22695133075E-05 -4.23933354634E-04 -1.40260154404E-04 -3.91921233683E-04 +6.40656775250E-01 +6.34445352855E-01
2.57000000000E+09 +6.61706663497E-01 +5.34962307200E-01 -1.57986387055E-04 -4.11155183433E-04 -2.03615713077E-04 -3.69390647591E-04 +6.45980075241E-01 +6.26693454098E-01
2.57500000000E+09 +6.67693040122E-01 +5.26497244359E-01 -2.00624964390E-04 -2.22183090865E-04 -2.48082907799E-04 -1.75056456848E-04 +6.51383922625E-01 +6.19324091702E-01
2.58000000000E+09 +6.72705589680E-01 +5.17766284707E-01 -1.18002249462E-04 -1.76917485591E-04 -1.05352134507E-04 -1.32518068190E-04 +6.56627640999E-01 +6.12188880176E-01
2.58500000000E+09 +6.76973868315E-01 +5.09326152155E-01 -1.24968766630E-04 -2.59823359431E-04 -1.13762958985E-04 -2.69420813736E-04 +6.61664391846E-01 +6.04894460038E-01
2.59000000000E+09 +6.80701541513E-01 +5.01496728722E-01 -1.90534520855E-04 -1.69210429312E-04 -1.67543977941E-04 -1.40613298872E-04 +6.66659455443E-01 +5.97474908706E-01
2.59500000000E+09 +6.84475989499E-01 +4.93470320720E-01 -9.07984541363E-05 -8.09971426973E-05 -9.54473029167E-05 -1.21223469340E-04 +6.71934005871E-01 +5.89401075933E-01
2.60000000000E+09 +6.87849978263E-01 +4.84847857470E-01 -8.47501257641E-05 -5.34376540841E-05 -5.89386132794E-05 -7.84001977776E-05 +6.77257945076E-01 +5.81010824860E-01
2.60500000000E+09 +6.91430175577E-01 +4.75665201097E-01 +5.62260944904E-06 -1.27670394435E-04 +1.61998653333E-05 -1.17350936017E-04 +6.82723240463E-01 +5.72003603300E-01
2.61000000000E+09 +6.95702382700E-01 +4.65464567356E-01 +8.33918060612E-05 -2.28598735454E-04 +5.89751725586E-05 -2.49125033484E-04 +6.87844307835E-01 +5.63100228638E-01
2.61500000000E+09 +7.00265619862E-01 +4.54176841760E-01 -1.47570798169E-04 -3.43810340475E-04 -9.74499121888E-05 -3.71142487498E-04 +6.92565857456E-01 +5.54431332266E-01
2.62000000000E+09 +7.04854263197E-01 +4.41600095897E-01 -1.28433402631E-04 -1.69587572866E-04 -1.45516556075E-04 -2.65022964492E-04 +6.97124201348E-01 +5.45437430355E-01
2.62500000000E+09 +7.09442683635E-01 +4.28069078254E-01 -7.74760930586E-05 -1.79887209733E-04 -6.06960721721E-05 -1.80886231507E-04 +7.01516455290E-01 +5.36568573306E-01
2.63000000000E+09 +7.13701617126E-01 +4.14030094336E-01 -5.01158995558E-05 -2.62918359839E-04 -1.27261552807E-04 -2.95874984980E-04 +7.06178996953E-01 +5.27494551628E-01
2.63500000000E+09 +7.17035092893E-01 +4.00454958120E-01 -2.06775575080E-04 -3.42605105199E-04 -2.38902278885E-04 -3.29901789506E-04 +7.10812869522E-01 +5.18283262342E-01
2.64000000000E+09 +7.20227470119E-01 +3.87750133813E-01 -3.10922464308E-04 -2.85147394174E-04 -3.12610674723E-04 -2.49149417613E-04 +7.15262472992E-01 +5.08669325354E-01
2.64500000000E+09 +7.23187348753E-01 +3.76045189854E-01 -2.84597870180E-04 -1.90944056181E-04 -2.33763245161E-04 -1.60679337325E-04 +7.19557227245E-01 +4.98935978270E-01
2.65000000000E+09 +7.25733021435E-01 +3.65186422588E-01 -2.37964995213E-04 -1.60144414468E-04 -1.83979235938E-04 -2.02890522643E-04 +7.23776690130E-01 +4.89066599485E-01
2.65500000000E+09 +7.28476026691E-01 +3.54467282642E-01 -3.56465877702E-04 -2.44580065629E-04 -3.63440768668E-04 -3.05734488087E-04 +7.27465200742E-01 +4.78654559601E-01
2.66000000000E+09 +7.31082118157E-01 +3.43889855722E-01 -4.73680354376E-04 -1.36203152279E-04 -4.46308366353E-04 -2.00524562331E-04 +7.31339329026E-01 +4.67863529908E-01
2.66500000000E+09 +7.33729852277E-01 +3.33267449124E-01 -4.72363613556E-04 -1.50347578625E-04 -4.94875808689E-04 -9.72505840226E-05 +7.35768161571E-01 +4.56989347727E-01
2.67000000000E+09 +7.36428760340E-01 +3.21321614807E-01 -5.52818690817E-04 +5.28576011391E-05 -5.80456592017E-04 +8.29051324106E-05 +7.40155381834E-01 +4.46072972386E-01
2.67500000000E+09 +7.38777233132E-01 +3.08290815811E-01 -4.46983573837E-04 +1.16985374579E-04 -4.04171274752E-04 +1.31750817603E-04 +7.44435990328E-01 +4.34685933434E-01
2.68000000000E+09 +7.40049887913E-01 +2.94106381578E-01 -4.28146185063E-04 +1.64757245500E-04 -3.90875272229E-04 +1.80695852427E-04 +7.48013104251E-01 +4.23527899274E-01
2.68500000000E+09 +7.40369241699E-01 +2.79906017230E-01 -4.00205956038E-04 +1.77946188445E-04 -4.10158280939E-04 +1.29340964872E-04 +7.50868684679E-01 +4.12341296942E-01
2.69000000000E+09 +7.40596405305E-01 +2.66032219696E-01 -3.21209440062E-04 +2.96562606957E-04 -3.23548632061E-04 +2.41917890853E-04 +7.53730440566E-01 +4.00702340315E-01
2.69500000000E+09 +7.40684795758E-01 +2.52150559177E-01 -2.95089422017E-04 +2.68379599449E-04 -3.11096431442E-04 +2.60015144857E-04 +7.56305084366E-01 +3.88494132275E-01
2.70000000000E+09 +7.40674762628E-01 +2.38568063223E-01 -1.65829835252E-04 +2.07353834682E-04 -1.73407126678E-04 +2.53657211733E-04 +7.59272649509E-01 +3.75497165580E-01
2.70500000000E+09 +7.40909978775E-01 +2.25624919316E-01 -2.56658250642E-04 +1.24078406311E-04 -2.08174042916E-04 +7.87656461303E-05 +7.62168917275E-01 +3.62329366356E-01
2.71000000000E+09 +7.41073302599E-01 +2.12306127988E-01 -3.52621216867E-04 +1.40134993999E-04 -3.77345968753E-04 +1.00856419582E-04 +7.65129489380E-01 +3.49249740065E-01
2.71500000000E+09 +7.41584773374E-01 +1.99189823596E-01 -2.96786883487E-04 +3.17263343176E-04 -3.53313067795E-04 +3.52203962384E-04 +7.67635687100E-01 +3.36503732443E-01
2.72000000000E+09 +7.42200455974E-01 +1.85558986366E-01 -2.21785271979E-04 +2.69199255674E-04 -2.51350571441E-04 +2.34376908816E-04 +7.69285216081E-01 +3.24131999211E-01
2.72500000000E+09 +7.42244142746E-01 +1.70714967013E-01 -3.38887333762E-04 +2.98743666215E-04 -3.22367605433E-04 +3.01837557374E-04 +7.70646078569E-01 +3.10955842590E-01
2.73000000000E+09 +7.41178583047E-01 +1.54649377605E-01 -3.07966412237E-04 +4.77607718629E-04 -2.17767478576E-04 +4.43307326109E-04 +7.71933087818E-01 +2.96985173386E-01
2.73500000000E+09 +7.38406225333E-01 +1.37960262529E-01 -9.06078162206E-05 +3.32822255182E-04 -6.99603231884E-05 +3.20693355640E-04 +7.72958647570E-01 +2.81889527967E-01
2.74000000000E+09 +7.34741882834E-01 +1.21532324798E-01 -2.53920262713E-04 +3.12636078185E-04 -2.46846053977E-04 +3.02628332253E-04 +7.74063913260E-01 +2.67003061684E-01
2.74500000000E+09 +7.29958680634E-01 +1.04933106394E-01 -1.55906450928E-04 +4.72404332775E-04 -1.89150966583E-04 +4.32782166049E-04 +7.75026534528E-01 +2.51896804837E-01
2.75000000000E+09 +7.24692432007E-01 +8.87710556136E-02 -9.84459725452E-05 +4.64512858713E-04 -1.31321152953E-04 +4.54881541364E-04 +7.75962806978E-01 +2.37115237577E-01
2.75500000000E+09 +7.19293108146E-01 +7.25210663886E-02 -1.95902468513E-04 +4.58532789809E-04 -2.65989317167E-04 +4.90815757976E-04 +7.75859231200E-01 +2.21898704133E-01
2.76000000000E+09 +7.13675634189E-01 +5.63921639261E-02 -1.41367908799E-04 +5.30805147618E-04 -1.52115455109E-04 +5.96659522035E-04 +7.74860040610E-01 +2.06686763653E-01
2.76500000000E+09 +7.08596167787E-01 +4.07228581356E-02 -8.13115194678E-05 +6.44797291447E-04 -7.38963829089E-05 +7.00337977742E-04 +7.73689890578E-01 +1.90999312052E-01
2.77000000000E+09 +7.04403430359E-01 +2.42840537020E-02 +1.22180634758E-04 +7.04410124760E-04 +1.25179293241E-04 +7.70814016837E-04 +7.72903661655E-01 +1.74460374095E-01
2.77500000000E+09 +7.00620258990E-01 +6.83232644385E-03 +1.90663027356E-04 +6.12835324758E-04 +1.41265463729E-04 +6.59706622406E-04 +7.71783870175E-01 +1.57254114545E-01
2.78000000000E+09 +6.97049208858E-01 -1.19443325460E-02 +3.07114020108E-04 +6.73850349034E-04 +3.39296655237E-04 +6.54522344215E-04 +7.70250609850E-01 +1.39441034198E-01
2.78500000000E+09 +6.92095279328E-01 -3.17849198455E-02 +2.12939131395E-04 +5.94617705140E-04 +2.07918030222E-04 +5.15463092168E-04 +7.67802849931E-01 +1.22285902440E-01
2.79000000000E+09 +6.86204820503E-01 -5.18670992593E-02 +3.19578518283E-04 +7.45208107618E-04 +3.25438925614E-04 +7.50617066820E-04 +7.65486900126E-01 +1.05531321159E-01
2.79500000000E+09 +6.78880156469E-01 -7.15329106167E-02 +7.26426959294E-04 +7.44746738310E-04 +6.28656348852E-04 +6.66610793525E-04 +7.62411440849E-01 +8.71768440443E-02
2.80000000000E+09 +6.70573382097E-01 -9.03314617973E-02 +7.81718441717E-04 +4.73982311792E-04 +7.24852476736E-04 +5.02783130258E-04 +7.57844340171E-01 +6.84269405689E-02
2.80500000000E+09 +6.61464885712E-01 -1.08348427817E-01 +5.85747698432E-04 +1.68297903574E-04 +5.34808842861E-04 +2.30517593520E-04 +7.52801388588E-01 +4.92174780513E-02
2.81000000000E+09 +6.51082888969E-01 -1.25303684011E-01 +4.15368433515E-04 +4.18165564981E-04 +4.66127669032E-04 +4.18287720875E-04 +7.46913183153E-01 +2.93160336675E-02
2.81500000000E+09 +6.40169919119E-01 -1.41336443451E-01 +6.93419139829E-04 +5.12265104236E-04 +7.30417920430E-04 +5.97329486914E-04 +7.40458200396E-01 +8.93632966997E-03
2.82000000000E+09 +6.28329397713E-01 -1.57239230059E-01 +8.72215975876E-04 +2.41811977036E-04 +9.05202747854E-04 +2.52488561912E-04 +7.33016586029E-01 -1.16280613452E-02
2.82500000000E+09 +6.15243220026E-01 -1.72707588344E-01 +7.27112328335E-04 +1.86009419183E-04 +7.51386994626E-04 +1.45028037959E-04 +7.24219024416E-01 -3.24421561547E-02
2.83000000000E+09 +6.01331831864E-01 -1.89043616066E-01 +9.73410305946E-04 +2.53523400959E-04 +9.43113021378E-04 +2.67245133249E-04 +7.13926667103E-01 -5.27052724446E-02
2.83500000000E+09 +5.85749756320E-01 -2.06911214317E-01 +1.05585426993E-03 +1.48629901675E-04 +1.03951028139E-03 +1.67481735677E-04 +7.03028103699E-01 -7.24341529545E-02
2.84000000000E+09 +5.67107027304E-01 -2.25473110074E-01 +1.26398425872E-03 -2.34863515650E-04 +1.30872778705E-03 -1.65971698519E-04 +6.91744081691E-01 -9.30313508485E-02
2.84500000000E+09 +5.46032248120E-01 -2.43203101538E-01 +1.02841234874E-03 -5.49177076644E-04 +1.08065589998E-03 -5.19466969285E-04 +6.78947205836E-01 -1.13724119336E-01
2.85000000000E+09 +5.24328579765E-01 -2.60707339013E-01 +6.81328286955E-04 -5.72325784599E-04 +6.71365806649E-04 -5.44254297812E-04 +6.64249722173E-01 -1.34283111864E-01
2.85500000000E+09 +5.00915902747E-01 -2.77610035109E-01 +5.96298262928E-04 -1.78529102281E-04 +5.88438490321E-04 -2.26162086745E-04 +6.49063268688E-01 -1.53623775807E-01
2.86000000000E+09 +4.77220554894E-01 -2.93799910691E-01 +1.28343618735E-03 -7.48983796719E-05 +1.24481222731E-03 -4.71394076089E-05 +6.33141858482E-01 -1.73627995372E-01
2.86500000000E+09 +4.52585942057E-01 -3.09057814233E-01 +1.56176993090E-03 -9.68100300537E-04 +1.56909350163E-03 -9.04361237484E-04 +6.15365690536E-01 -1.93700869393E-01
2.87000000000E+09 +4.27686266388E-01 -3.22266625070E-01 +8.96434901989E-04 -1.53972228275E-03 +9.10895576689E-04 -1.54822600679E-03 +5.96280986704E-01 -2.13190527687E-01
2.87500000000E+09 +4.03708530485E-01 -3.33871224522E-01 +3.56279263179E-04 -1.44529738438E-03 +3.39433574635E-04 -1.45774351904E-03 +5.76090820724E-01 -2.31984642421E-01
2.88000000000E+09 +3.79920393444E-01 -3.45435049610E-01 +1.17506624937E-04 -1.16942525943E-03 +1.15652470843E-04 -1.13851119269E-03 +5.55271419194E-01 -2.50259210449E-01
2.88500000000E+09 +3.54556129523E-01 -3.56566904786E-01 +2.44290505120E-04 -9.50424643044E-04 +2.70395859185E-04 -8.81794072362E-04 +5.32918429646E-01 -2.68283906708E-01
2.89000000000E+09 +3.27739385317E-01 -3.65878206707E-01 +3.11237104120E-04 -1.35010155079E-03 +3.05201380594E-04 -1.27468367559E-03 +5.09113550589E-01 -2.85558623883E-01
2.89500000000E+09 +2.99834693496E-01 -3.73476729856E-01 +4.81742264808E-05 -1.32146216821E-03 +1.38113560876E-04 -1.34609959282E-03 +4.83709299524E-01 -3.03802370734E-01
2.90000000000E+09 +2.71040224890E-01 -3.80056070557E-01 -3.33138902667E-04 -1.42111334233E-03 -3.43946268215E-04 -1.47615929612E-03 +4.54980385249E-01 -3.20860895657E-01
2.90500000000E+09 +2.39813705980E-01 -3.85308413458E-01 -2.57150324111E-04 -1.02750134072E-03 -2.72898116499E-04 -1.06902595373E-03 +4.25637079137E-01 -3.35788418574E-01
2.91000000000E+09 +2.07847704713E-01 -3.87450364294E-01 -1.63055910508E-04 -1.61637939768E-03 -2.09735837490E-04 -1.56847643947E-03 +3.95459133773E-01 -3.50176132710E-01
2.91500000000E+09 +1.75546860475E-01 -3.87942500390E-01 -9.45261566869E-04 -1.69729182842E-03 -9.67787956139E-04 -1.62069203020E-03 +3.63373884259E-01 -3.62538291985E-01
2.92000000000E+09 +1.43171088182E-01 -3.86103795780E-01 -1.32391191309E-03 -1.05538931574E-03 -1.26199266529E-03 -9.85759057708E-04 +3.29922906537E-01 -3.72163261915E-01
2.92500000000E+09 +1.11425546516E-01 -3.82765567805E-01 -1.21378220957E-03 -1.05312464896E-03 -1.04530049591E-03 -1.06620920453E-03 +2.95683058012E-01 -3.79638178513E-01
2.93000000000E+09 +8.01575093589E-02 -3.78364348583E-01 -1.62219405194E-03 -7.13511749439E-04 -1.52859791970E-03 -7.47750062833E-04 +2.60175057921E-01 -3.86570972915E-01
2.93500000000E+09 +4.78463301536E-02 -3.72500540398E-01 -1.46985900297E-03 -2.21551212448E-04 -1.47934751976E-03 -2.81949295595E-04 +2.21913538638E-01 -3.91905344190E-01
2.94000000000E+09 +1.57855911153E-02 -3.63374411219E-01 -1.06742697334E-03 -1.07970186921E-04 -1.05368523701E-03 -1.05622414561E-04 +1.82776413416E-01 -3.94703129989E-01
2.94500000000E+09 -1.52811956206E-02 -3.52490074605E-01 -1.12821476531E-03 -4.66799016654E-04 -1.08712352445E-03 -4.98529056634E-04 +1.42400633004E-01 -3.94853902273E-01
2.95000000000E+09 -4.66869587876E-02 -3.39257444402E-01 -1.66275742108E-03 -3.79092658204E-04 -1.60810437195E-03 -4.48545180627E-04 +1.03240991974E-01 -3.91137143716E-01
2.95500000000E+09 -7.78976864227E-02 -3.22466092312E-01 -1.84563117318E-03 +2.84876655722E-04 -1.91151423534E-03 +2.25293316239E-04 +6.46181750420E-02 -3.85778409416E-01
2.96000000000E+09 -1.07601476482E-01 -3.02528034863E-01 -1.58404091874E-03 +7.77446824323E-04 -1.63049421798E-03 +7.49707845284E-04 +2.47117811790E-02 -3.77266323623E-01
2.96500000000E+09 -1.35951038103E-01 -2.80521305191E-01 -1.09799484365E-03 +1.07708921692E-03 -1.11850118724E-03 +1.11409094080E-03 -1.40475167017E-02 -3.66547239106E-01
2.97000000000E+09 -1.63040727590E-01 -2.56149843629E-01 -6.28099953518E-04 +8.93906255630E-04 -6.29940938532E-04 +9.04462989437E-04 -5.51637540822E-02 -3.53748106301E-01
2.97500000000E+09 -1.88647872999E-01 -2.29648846168E-01 -7.56010930294E-04 +5.73017025695E-04 -6.90030070185E-04 +5.78214035402E-04 -9.46396577176E-02 -3.36749784438E-01
2.98000000000E+09 -2.12420608848E-01 -2.01673984546E-01 -1.04315888387E-03 +9.93028906267E-04 -1.06057857858E-03 +9.70971275927E-04 -1.33767617909E-01 -3.17601510131E-01
2.98500000000E+09 -2.34756207749E-01 -1.72454127428E-01 -3.26110051281E-04 +1.22457501208E-03 -3.45283521584E-04 +1.23144224880E-03 -1.70999142904E-01 -2.94292737343E-01
2.99000000000E+09 -2.54567151641E-01 -1.42288926365E-01 -1.69037141558E-04 +6.48841436873E-04 -9.88991882318E-05 +6.50447221666E-04 -2.06211671959E-01 -2.68169552429E-01
2.99500000000E+09 -2.72775633529E-01 -1.12490336634E-01 -5.66567428716E-04 +6.28362710430E-04 -5.85961566985E-04 +6.67558361931E-04 -2.39318202777E-01 -2.38093948891E-01
3.00000000000E+09 -2.89883922795E-01 -8.14827845647E-02 -7.09167953024E-04 +1.20474809654E-03 -6.75335592138E-04 +1.20597832587E-03 -2.68883083809E-01 -2.07082655537E-01
3.00500000000E+09 -3.03913707973E-01 -5.04914866457E-02 -1.58505773531E-04 +1.42167945470E-03 -6.88119642927E-05 +1.34500893886E-03 -2.98185478803E-01 -1.74666162255E-01
3.01000000000E+09 -3.16062674542E-01 -1.96932393485E-02 +4.33042930446E-04 +1.06540807098E-03 +4.39740216291E-04 +9.85907895042E-04 -3.24632447457E-01 -1.39762591856E-01
3.01500000000E+09 -3.25344415574E-01 +1.14382182129E-02 +3.68063785345E-04 +8.25954789611E-04 +4.02384668714E-04 +8.40580372397E-04 -3.48724126070E-01 -1.03614079331E-01
3.02000000000E+09 -3.31868035124E-01 +4.21957482669E-02 +2.52590663546E-04 +4.17689239678E-04 +1.65994466238E-04 +3.53995903801E-04 -3.68706286387E-01 -6.55387444313E-02
3.02500000000E+09 -3.35111571019E-01 +7.25090649156E-02 -1.69704640584E-05 +6.76500872043E-04 -4.40645699359E-05 +6.55275557952E-04 -3.85322476596E-01 -2.68092748923E-02
3.03000000000E+09 -3.35936853955E-01 +1.01904900569E-01 +7.31921530082E-05 +8.06737769082E-04 +7.14412244248E-05 +7.97063712261E-04 -3.98843722710E-01 +1.21399932197E-02
3.03500000000E+09 -3.34845134356E-01 +1.31127506784E-01 +3.11629093239E-05 +1.09897931382E-03 +2.83414374940E-05 +1.08392287381E-03 -4.09570888624E-01 +5.14694784985E-02
3.04000000000E+09 -3.31525610330E-01 +1.60699862243E-01 +7.34092974353E-04 +6.87201829092E-04 +7.18303570397E-04 +7.17859575498E-04 -4.18039167856E-01 +9.00230678468E-02
3.04500000000E+09 -3.25457792155E-01 +1.90232873649E-01 +3.24678563477E-04 +6.81510264479E-04 +2.75845574749E-04 +7.32761182598E-04 -4.24366293746E-01 +1.28870914166E-01
3.05000000000E+09 -3.17236413545E-01 +2.19121138846E-01 +5.18089992381E-04 +9.21274846186E-04 +6.05733536776E-04 +9.35017829407E-04 -4.28321737129E-01 +1.67618996426E-01
3.05500000000E+09 -3.07724344203E-01 +2.47046930120E-01 +9.43327273634E-04 +8.01550299802E-04 +9.94677697543E-04 +7.99042884626E-04 -4.29626729007E-01 +2.05749496373E-01
3.06000000000E+09 -2.97154676508E-01 +2.74524591773E-01 +1.14765888599E-03 +1.40462543337E-04 +1.09976015823E-03 +5.95618454582E-05 -4.28575194843E-01 +2.44142094556E-01
3.06500000000E+09 -2.85415375566E-01 +3.01746041324E-01 +6.31415303521E-04 -9.08522431803E-05 +5.58117121285E-04 -7.84373325822E-05 -4.24628664919E-01 +2.81528640396E-01
3.07000000000E+09 -2.72060849621E-01 +3.27246271873E-01 +3.97199489931E-04 +3.51201498124E-04 +3.74389955366E-04 +3.24523189056E-04 -4.18229793844E-01 +3.17363865833E-01
