# Hz S RI R 50
! CMT, C1220, 16058040, 17.2.0/1
! Date: 15/08/2018 10:27:35
! Data: Format (Calibration Info)
! Freq                      S11: Re/Im (F2)                       S21: Re/Im (F2)                       S12: Re/Im (F2)                       S22: Re/Im (F2)            
2.50000000000E+09 +5.80324090504E-01 +6.42427232303E-01 +2.92934193221E-04 -1.54830117890E-05 +3.17478715134E-04 -3.81638684397E-05 +5.69346023427E-01 +7.20743403629E-01
2.50500000000E+09 +5.87497013878E-01 +6.34781640789E-01 +3.55962391818E-04 -7.91953814281E-05 +3.55470231179E-04 -1.35117801647E-04 +5.75381982516E-01 +7.15012437694E-01
2.51000000000E+09 +5.95004331659E-01 +6.26831892714E-01 +2.54989188864E-04 -1.47071849026E-04 +2.87153251340E-04 -1.94896648608E-04 +5.81291732722E-01 +7.09328398990E-01
2.51500000000E+09 +6.02324303351E-01 +6.19084320910E-01 +2.29750476751E-04 -1.67521161788E-04 +2.36837489871E-04 -1.26042785579E-04 +5.86680987941E-01 +7.03354948692E-01
2.52000000000E+09 +6.09008640028E-01 +6.11241126503E-01 +2.84747792696E-04 -2.29755589511E-04 +3.12216636352E-04 -1.83933588139E-04 +5.91811164790E-01 +6.97095154631E-01
2.52500000000E+09 +6.14827242725E-01 +6.03818951861E-01 +1.80830337344E-04 -2.85714175031E-04 +1.85332442215E-04 -2.60542367609E-04 +5.97510524003E-01 +6.90370911062E-01
2.53000000000E+09 +6.19980117280E-01 +5.96964705703E-01 +1.23925538227E-04 -2.86707857171E-04 +1.33192467237E-04 -2.82390974068E-04 +6.03425872192E-01 +6.83075661359E-01
2.53500000000E+09 +6.24691909092E-01 +5.90438199969E-01 +6.64684169053E-05 -2.50657436985E-04 +6.29070659864E-05 -2.64896596633E-04 +6.09086788257E-01 +6.76095719629E-01
2.54000000000E+09 +6.28954096332E-01 +5.84135576967E-01 +5.45391372849E-05 -2.16469603882E-04 +9.52594743662E-05 -2.21791101823E-04 +6.14669216821E-01 +6.69543556437E-01
2.54500000000E+09 +6.33385686167E-01 +5.78161672450E-01 +6.10962477474E-05 -2.31175963789E-04 +7.38556223906E-05 -2.29402412074E-04 +6.20008603216E-01 +6.62923798295E-01
2.55000000000E+09 +6.38254606317E-01 +5.72032756580E-01 +8.29477996385E-05 -1.87612048585E-04 +1.04139941954E-04 -2.02798851856E-04 +6.24682257098E-01 +6.56707795649E-01
2.55500000000E+09 +6.43608859733E-01 +5.65250765243E-01 +9.59882647019E-05 -2.38186898269E-04 +6.35021994204E-05 -3.39865688696E-04 +6.29472284394E-01 +6.50624157029E-01
2.56000000000E+09 +6.49662931619E-01 +5.58509933519E-01 +3.69535510475E-05 -2.67229591038E-04 +4.34110881954E-05 -3.79470787307E-04 +6.34518006673E-01 +6.43913862851E-01
2.56500000000E+09 +6.56129488049E-01 +5.50571007763E-01 -3.58128916505E-05 -3.50820679876E-04 -8.16649856039E-05 -3.21374673679E-04 +6.39976746114E-01 +6.36834818652E-01
2.57000000000E+09 +6.62353975240E-01 +5.42558870032E-01 -7.14454140544E-05 -3.29946695652E-04 -1.42121376414E-04 -2.89086800736E-04 +6.45476667505E-01 +6.29172742066E-01
2.57500000000E+09 +6.68415139053E-01 +5.34396099091E-01 -1.90938426839E-04 -2.17479170148E-04 -1.76910153862E-04 -1.94460340557E-04 +6.50914374500E-01 +6.21823162225E-01
2.58000000000E+09 +6.73926526028E-01 +5.26352339068E-01 -1.60147457299E-04 -1.23927293901E-04 -1.23993932980E-04 -1.04595030456E-04 +6.56213502795E-01 +6.14573334128E-01
2.58500000000E+09 +6.78486571018E-01 +5.17972977274E-01 -7.03582113358E-05 -1.61165375344E-04 -5.46820019709E-05 -1.10960807172E-04 +6.61415489085E-01 +6.06940673960E-01
2.59000000000E+09 +6.82541610030E-01 +5.10120892068E-01 -1.39278914742E-04 -1.48334056655E-04 -9.11714354785E-05 -1.73876077798E-04 +6.66454271068E-01 +5.99343217663E-01
2.59500000000E+09 +6.86607337356E-01 +5.02283245585E-01 -1.28823400361E-04 -2.07621495830E-04 -1.19650342922E-04 -2.34594485939E-04 +6.71742349028E-01 +5.91225216346E-01
2.60000000000E+09 +6.90431697524E-01 +4.93970189481E-01 -1.82879264994E-04 -1.97809061987E-04 -1.68686927802E-04 -1.72540428285E-04 +6.77180205175E-01 +5.82602648299E-01
2.60500000000E+09 +6.94589350998E-01 +4.84926515151E-01 -1.52445962951E-04 -1.65567629991E-04 -1.56785373730E-04 -1.46844216277E-04 +6.82708135090E-01 +5.73784014973E-01
2.61000000000E+09 +6.99047060698E-01 +4.74774348278E-01 -1.56700063098E-04 -1.29464919922E-04 -1.28881251996E-04 -1.48674239588E-04 +6.87871376127E-01 +5.64760311739E-01
2.61500000000E+09 +7.04036456891E-01 +4.63469893145E-01 -1.79079995378E-04 -1.69982264860E-04 -1.93665883304E-04 -1.65165996799E-04 +6.92544917026E-01 +5.55977115545E-01
2.62000000000E+09 +7.08816464287E-01 +4.50980860389E-01 -2.08346884567E-04 -6.65203615640E-05 -2.05505577488E-04 -1.97385936891E-05 +6.97116995217E-01 +5.46918039856E-01
2.62500000000E+09 +7.13592879734E-01 +4.37669537923E-01 -1.81015635549E-04 -2.32019348348E-05 -2.27436395413E-04 -1.35173275386E-05 +7.01647331693E-01 +5.37950151952E-01
2.63000000000E+09 +7.18255569512E-01 +4.24231088199E-01 -2.09214262259E-04 -8.26818224727E-05 -2.18778035175E-04 -3.67263225764E-05 +7.06151514753E-01 +5.28795068069E-01
2.63500000000E+09 +7.22250453609E-01 +4.10871669683E-01 -2.19735643631E-04 -1.76252866130E-05 -2.05927696650E-04 +3.65919661264E-05 +7.10737653189E-01 +5.19428707736E-01
2.64000000000E+09 +7.26030995058E-01 +3.98022928028E-01 -1.90702073353E-04 +4.47022269257E-05 -7.94855157232E-05 +5.10439074198E-06 +7.15194787801E-01 +5.09706173981E-01
2.64500000000E+09 +7.29410147283E-01 +3.86126042864E-01 -1.46468359270E-04 +3.60151472523E-05 -8.71479000463E-05 +1.88894887442E-06 +7.19609084283E-01 +5.00100293264E-01
2.65000000000E+09 +7.32366025111E-01 +3.75330348636E-01 -3.74126622995E-05 -3.83308382229E-05 -2.44654130739E-05 -6.30350502284E-05 +7.23904016021E-01 +4.90101452454E-01
2.65500000000E+09 +7.35512390798E-01 +3.64483922496E-01 -1.56053439555E-04 -1.35519535203E-04 -1.82115405612E-04 -1.82328955146E-04 +7.27652297442E-01 +4.79484910832E-01
2.66000000000E+09 +7.38776479123E-01 +3.53892526134E-01 -1.95563524430E-04 +6.70363636787E-06 -1.89583771994E-04 +9.54074570177E-06 +7.31612006924E-01 +4.68469412992E-01
2.66500000000E+09 +7.42033434272E-01 +3.42809674195E-01 -1.24890684974E-04 -2.81276487252E-06 -1.44151841192E-04 -3.69735695546E-05 +7.35712911701E-01 +4.57295771868E-01
2.67000000000E+09 +7.45113604624E-01 +3.30672849640E-01 -1.55671813821E-04 -1.01728516076E-04 -1.62430212035E-04 -4.17971830971E-05 +7.39878773929E-01 +4.46210469923E-01
2.67500000000E+09 +7.47592047857E-01 +3.17445265621E-01 -1.99782104283E-04 -8.55274731811E-05 -1.91372589497E-04 -9.72423666242E-05 +7.44018671732E-01 +4.34817356948E-01
2.68000000000E+09 +7.49291125123E-01 +3.03526320161E-01 -3.66460144823E-04 +1.09381253706E-05 -3.35416321045E-04 +1.46484589375E-05 +7.47435270080E-01 +4.23551667125E-01
2.68500000000E+09 +7.50531463976E-01 +2.89411256616E-01 -2.54894823207E-04 +1.45110133919E-04 -2.70304314832E-04 +9.29803858571E-05 +7.50275164697E-01 +4.12227854669E-01
2.69000000000E+09 +7.51266693426E-01 +2.75013337388E-01 -1.69520619274E-04 +1.30500210509E-04 -1.61938115479E-04 +1.64006575806E-04 +7.52911681793E-01 +4.00593359489E-01
2.69500000000E+09 +7.51816614903E-01 +2.60907481560E-01 -1.58558198403E-04 +3.17089951360E-05 -1.13495726851E-04 +1.72869835275E-05 +7.55330350226E-01 +3.88273765309E-01
2.70000000000E+09 +7.52403432768E-01 +2.46882907258E-01 -2.32053698468E-04 -6.46044211490E-05 -2.54928684999E-04 -5.93324564200E-05 +7.58100511303E-01 +3.75321974170E-01
2.70500000000E+09 +7.52748421538E-01 +2.33347978427E-01 -3.50864209972E-04 +9.46543838375E-05 -3.44530107363E-04 +2.69840009174E-05 +7.60560732563E-01 +3.62311878762E-01
2.71000000000E+09 +7.53565198484E-01 +2.20012494244E-01 -3.78739282296E-04 +1.59804621410E-04 -3.81543559753E-04 +1.79661526143E-04 +7.63341981091E-01 +3.49283410447E-01
2.71500000000E+09 +7.54580723018E-01 +2.06019956789E-01 -3.09283705313E-04 +3.06206697718E-04 -2.81234643619E-04 +3.46974098973E-04 +7.65518319109E-01 +3.36753976544E-01
2.72000000000E+09 +7.55359718402E-01 +1.91597504755E-01 -1.39912324311E-04 +2.66860310003E-04 -1.20562048474E-04 +2.97325297357E-04 +7.67208832415E-01 +3.24396815950E-01
2.72500000000E+09 +7.55570757876E-01 +1.76228045132E-01 -2.71765757161E-04 +2.30327744010E-04 -2.07888777699E-04 +2.83900925889E-04 +7.68522250041E-01 +3.11237809812E-01
2.73000000000E+09 +7.54514768561E-01 +1.59954459321E-01 -1.81985820676E-04 +4.95939488045E-04 -1.67399544930E-04 +4.63132565770E-04 +7.69822818407E-01 +2.97310510020E-01
2.73500000000E+09 +7.52260698985E-01 +1.43014511172E-01 +4.97606839314E-05 +4.05396235051E-04 +5.59023159195E-05 +4.00204633877E-04 +7.70626165979E-01 +2.82591792023E-01
2.74000000000E+09 +7.49018285489E-01 +1.26422683331E-01 +5.37590595961E-05 +1.59922276088E-04 +4.01246972786E-05 +2.17959580000E-04 +7.71723486918E-01 +2.67933881133E-01
2.74500000000E+09 +7.45083166680E-01 +1.09286697514E-01 +3.79056917226E-05 +2.06728496021E-04 +3.06797711053E-05 +1.88236739433E-04 +7.72524256058E-01 +2.52813669090E-01
2.75000000000E+09 +7.40005375027E-01 +9.22278140484E-02 -1.60366266448E-04 +1.84720278323E-04 -1.19317659914E-04 +1.83711878773E-04 +7.73124853058E-01 +2.38147576580E-01
2.75500000000E+09 +7.34762060007E-01 +7.54243974094E-02 -1.32151460834E-04 +3.22260212301E-04 -1.26458034569E-04 +2.62792143183E-04 +7.72842690206E-01 +2.23200790085E-01
2.76000000000E+09 +7.29483175905E-01 +5.86251381607E-02 -1.11023246766E-04 +4.39716160711E-04 -9.34950191236E-05 +4.33792776541E-04 +7.71773420171E-01 +2.08120699647E-01
2.76500000000E+09 +7.24563885408E-01 +4.18268460861E-02 -2.45879156665E-06 +3.98573222246E-04 +6.61906121522E-05 +4.18294709104E-04 +7.70563689556E-01 +1.92856881017E-01
2.77000000000E+09 +7.20231246446E-01 +2.42579754303E-02 +1.04205487062E-04 +4.30344478848E-04 +7.35769682806E-05 +4.17197439048E-04 +7.69898146620E-01 +1.76535718340E-01
2.77500000000E+09 +7.15982832361E-01 +5.57123653132E-03 +1.47949170264E-04 +3.41947195270E-04 +1.44567804775E-04 +3.69255333260E-04 +7.68609435153E-01 +1.59399615206E-01
2.78000000000E+09 +7.11516237981E-01 -1.38705738488E-02 +1.12040431140E-04 +2.79177989781E-04 +1.72506900435E-04 +3.12354230178E-04 +7.66823061412E-01 +1.42038018834E-01
2.78500000000E+09 +7.06374672383E-01 -3.43340873796E-02 +1.28266273886E-05 +2.49716516118E-04 -1.11717458824E-05 +2.38469125498E-04 +7.64381774657E-01 +1.25513489603E-01
2.79000000000E+09 +7.00186024533E-01 -5.50004976516E-02 -1.01745180613E-04 +4.82515373697E-04 -8.61734522819E-05 +4.55840170045E-04 +7.62261802266E-01 +1.09135497362E-01
2.79500000000E+09 +6.93046316775E-01 -7.55460993302E-02 +2.33583362349E-04 +6.77332035451E-04 +1.94677952117E-04 +6.96011203579E-04 +7.59337224016E-01 +9.12775524689E-02
2.80000000000E+09 +6.84135070887E-01 -9.54327813392E-02 +4.61043790092E-04 +5.35998144542E-04 +4.91507603333E-04 +5.67745652068E-04 +7.55009338271E-01 +7.26021874116E-02
2.80500000000E+09 +6.74413666192E-01 -1.13913469093E-01 +5.31977461224E-04 +2.22668638576E-04 +4.63843720769E-04 +2.65392693730E-04 +7.49945157232E-01 +5.40682569431E-02
2.81000000000E+09 +6.63562867282E-01 -1.31212903733E-01 +3.04582362256E-04 +2.68744006125E-04 +3.13330415486E-04 +2.79610532625E-04 +7.44671753357E-01 +3.47905553943E-02
2.81500000000E+09 +6.52190757437E-01 -1.47781149066E-01 +4.21150302067E-04 +3.56692983950E-04 +4.77169557337E-04 +3.97515668788E-04 +7.38806940148E-01 +1.48125790798E-02
2.82000000000E+09 +6.39731450215E-01 -1.64404885847E-01 +4.90183009749E-04 +3.21094547102E-04 +5.07003265847E-04 +2.90677763417E-04 +7.32066880748E-01 -5.44411629891E-03
2.82500000000E+09 +6.25947816947E-01 -1.80777126349E-01 +5.82295134610E-04 +3.03014682575E-04 +6.05511407700E-04 +2.57639167255E-04 +7.23745744645E-01 -2.61360096363E-02
2.83000000000E+09 +6.10703126248E-01 -1.97829222150E-01 +6.62218497751E-04 +2.37073949787E-04 +6.64126559082E-04 +1.92857415591E-04 +7.13982800731E-01 -4.62618695957E-02
2.83500000000E+09 +5.93874132067E-01 -2.15941428910E-01 +7.32759384148E-04 +2.72680649564E-04 +7.12972121292E-04 +2.75408614662E-04 +7.03760906216E-01 -6.62293043395E-02
2.84000000000E+09 +5.74113550806E-01 -2.34347851684E-01 +1.00465189630E-03 +1.53269489235E-05 +1.02667013032E-03 +9.46156777168E-05 +6.92846451217E-01 -8.68073123476E-02
2.84500000000E+09 +5.52536016958E-01 -2.52587412588E-01 +8.90924093474E-04 -2.39907305385E-04 +8.96717522938E-04 -2.75094092588E-04 +6.80474575611E-01 -1.07548748747E-01
2.85000000000E+09 +5.29805649291E-01 -2.70340495344E-01 +8.39703153251E-04 -3.34144612055E-04 +8.15352030631E-04 -3.47705177380E-04 +6.66538426520E-01 -1.27990557526E-01
2.85500000000E+09 +5.05316310637E-01 -2.87848042843E-01 +6.68099331690E-04 -4.03076216105E-04 +5.77688832782E-04 -4.75439898510E-04 +6.52069583146E-01 -1.47511911428E-01
2.86000000000E+09 +4.80015441410E-01 -3.03936597349E-01 +6.82873068916E-04 -3.26868257483E-04 +7.30905658423E-04 -3.17663714391E-04 +6.36697279317E-01 -1.67738390943E-01
2.86500000000E+09 +4.54644384246E-01 -3.18173628771E-01 +8.86250302260E-04 -4.37198735053E-04 +9.06183424087E-04 -4.63096534818E-04 +6.19546455874E-01 -1.88032574656E-01
2.87000000000E+09 +4.29473900596E-01 -3.31602664454E-01 +9.04112146668E-04 -9.15298191750E-04 +9.19902974506E-04 -9.05065848157E-04 +6.01159740934E-01 -2.07985579051E-01
2.87500000000E+09 +4.04098713725E-01 -3.43658925288E-01 +5.83628149565E-04 -1.19744457213E-03 +5.32664293322E-04 -1.21650782051E-03 +5.81277924432E-01 -2.27490352277E-01
2.88000000000E+09 +3.78499808631E-01 -3.54763509971E-01 +1.51467143898E-04 -1.22816280228E-03 +4.26090026527E-05 -1.23296085509E-03 +5.60595796404E-01 -2.45918837689E-01
2.88500000000E+09 +3.51929401481E-01 -3.64884640554E-01 -2.17822258765E-04 -9.67088900867E-04 -2.57651501976E-04 -9.29386176929E-04 +5.39168121958E-01 -2.64532864535E-01
2.89000000000E+09 +3.24117415726E-01 -3.73619207654E-01 -5.51406790272E-05 -6.75213662561E-04 -2.02319033501E-05 -6.62610798016E-04 +5.15647368489E-01 -2.82452456729E-01
2.89500000000E+09 +2.95133131419E-01 -3.80789797045E-01 +1.03041320883E-04 -1.01708994404E-03 +1.04339760381E-04 -9.13016295078E-04 +4.90905387124E-01 -3.00936893194E-01
2.90000000000E+09 +2.64478423010E-01 -3.86490355678E-01 -4.02852279011E-04 -1.03396709164E-03 -3.70763509760E-04 -1.03402083127E-03 +4.62805869353E-01 -3.19096108423E-01
2.90500000000E+09 +2.32596622777E-01 -3.90330105365E-01 -4.62230658738E-04 -7.55482786341E-04 -4.17599179483E-04 -7.67614130582E-04 +4.33600868245E-01 -3.35052894990E-01
2.91000000000E+09 +1.99620619995E-01 -3.91273153189E-01 -4.86169457154E-04 -9.44220592729E-04 -5.23842828041E-04 -8.71627133451E-04 +4.03803056965E-01 -3.50087182796E-01
2.91500000000E+09 +1.67196019629E-01 -3.90698342344E-01 -8.40198172966E-04 -5.02879817347E-04 -8.22999152325E-04 -4.53217364720E-04 +3.71753166463E-01 -3.63740624459E-01
2.92000000000E+09 +1.34089839356E-01 -3.88296669900E-01 -4.49683364594E-04 -3.53601633332E-04 -4.31286899630E-04 -3.39197748917E-04 +3.38228063872E-01 -3.74516206119E-01
2.92500000000E+09 +1.01233010379E-01 -3.83731346349E-01 -4.84909781786E-04 -6.82904748172E-04 -4.04552935773E-04 -6.25904388836E-04 +3.03712855911E-01 -3.83413100961E-01
2.93000000000E+09 +6.91762045513E-02 -3.77182902664E-01 -1.04711412612E-03 -6.48498401851E-04 -9.94257718556E-04 -7.43279660922E-04 +2.67532594490E-01 -3.91447551597E-01
2.93500000000E+09 +3.72304227385E-02 -3.69542718884E-01 -1.12645274461E-03 +1.78041132926E-04 -1.11163430859E-03 +7.91369430079E-05 +2.28745364429E-01 -3.97637215642E-01
2.94000000000E+09 +4.97307528065E-03 -3.59186353460E-01 -5.89794622676E-04 +4.08381118050E-04 -5.98198464686E-04 +3.36651125061E-04 +1.88876360560E-01 -4.01537506077E-01
2.94500000000E+09 -2.62673861510E-02 -3.46307258447E-01 -1.09986941675E-04 -1.82233788389E-05 -1.07377053353E-04 -5.57130046596E-06 +1.47373920801E-01 -4.02456821652E-01
2.95000000000E+09 -5.74086707518E-02 -3.31045302752E-01 -2.59758043151E-04 -5.39371678683E-04 -2.52704396681E-04 -4.98377885850E-04 +1.07063464402E-01 -3.99520644637E-01
2.95500000000E+09 -8.75212954161E-02 -3.12543020417E-01 -9.20006093668E-04 -4.44958013718E-04 -8.81530103694E-04 -5.29021171061E-04 +6.67242415357E-02 -3.95182410459E-01
2.96000000000E+09 -1.16218901084E-01 -2.91372581469E-01 -1.21507754014E-03 -2.01150668644E-05 -1.28451786120E-03 -2.65544261545E-05 +2.50169970862E-02 -3.86625730808E-01
2.96500000000E+09 -1.43306755984E-01 -2.68674937278E-01 -7.82831349525E-04 +8.24389923566E-04 -8.11470767033E-04 +8.65509173743E-04 -1.52230500605E-02 -3.75596643253E-01
2.97000000000E+09 -1.69809672087E-01 -2.43487789436E-01 +9.87393713981E-05 +4.28775494081E-04 +1.59318259177E-04 +4.31004335736E-04 -5.76425595658E-02 -3.62221356378E-01
2.97500000000E+09 -1.94184321710E-01 -2.16214480081E-01 -7.12731455473E-05 -4.90949996574E-04 -1.46219974269E-04 -4.80295711862E-04 -9.79538740469E-02 -3.44052818151E-01
2.98000000000E+09 -2.16575955434E-01 -1.87061031577E-01 -1.24327664963E-03 -4.65706207016E-04 -1.18599445911E-03 -5.40481471034E-04 -1.37615112153E-01 -3.24284765989E-01
2.98500000000E+09 -2.36694078867E-01 -1.58228732658E-01 -1.22676620356E-03 +6.05610912042E-04 -1.27019167036E-03 +6.03910652231E-04 -1.75420046448E-01 -3.00487037331E-01
2.99000000000E+09 -2.56252564254E-01 -1.28064881989E-01 -5.58214793391E-04 +6.22059581532E-04 -6.17627901432E-04 +6.59612884875E-04 -2.11424784156E-01 -2.73903288541E-01
2.99500000000E+09 -2.73004166245E-01 -9.76957655439E-02 -6.13732532486E-04 +3.87805515091E-04 -6.32601198822E-04 +5.14594614760E-04 -2.45650300957E-01 -2.43117196099E-01
3.00000000000E+09 -2.89220310590E-01 -6.69604369327E-02 -6.41377463683E-04 +5.56650366589E-04 -6.40405828700E-04 +6.34379236246E-04 -2.75645661063E-01 -2.10934368596E-01
3.00500000000E+09 -3.02714923075E-01 -3.53809991886E-02 -9.32258012218E-04 +6.75881186277E-04 -8.11102930473E-04 +7.30750916446E-04 -3.05399161254E-01 -1.77594053845E-01
3.01000000000E+09 -3.12987169644E-01 -4.29721812140E-03 -4.94168005322E-04 +1.34030545232E-03 -4.81696811058E-04 +1.25671647417E-03 -3.31884320574E-01 -1.41132685952E-01
3.01500000000E+09 -3.21282348809E-01 +2.54259925677E-02 +1.16949549214E-04 +1.36072370674E-03 +1.34788374969E-04 +1.39007340502E-03 -3.55067635093E-01 -1.04000586803E-01
3.02000000000E+09 -3.27791848220E-01 +5.58668166506E-02 +4.88898448111E-04 +9.31017806736E-04 +6.08934454166E-04 +9.89646907393E-04 -3.75147311895E-01 -6.56668555982E-02
3.02500000000E+09 -3.30332091094E-01 +8.60334953351E-02 +5.09008688231E-04 +2.81781854642E-04 +5.32923100293E-04 +2.23012595463E-04 -3.91863611472E-01 -2.62184303377E-02
3.03000000000E+09 -3.30142146343E-01 +1.15158178669E-01 -2.82047884003E-04 +3.91747766284E-04 -3.06043728678E-04 +3.36323141855E-04 -4.05201058535E-01 +1.37421506149E-02
3.03500000000E+09 -3.28120885116E-01 +1.43247280855E-01 -5.70649772059E-05 +1.17034409203E-03 -3.83053941757E-05 +1.11931847237E-03 -4.15827356729E-01 +5.37149743577E-02
3.04000000000E+09 -3.24218126947E-01 +1.71764950251E-01 +8.11736343313E-04 +6.23629943099E-04 +8.12332299151E-04 +6.58081979209E-04 -4.23923471991E-01 +9.36249700852E-02
3.04500000000E+09 -3.18091833877E-01 +2.00030804363E-01 +4.13904617298E-04 +5.35185914492E-04 +3.64609855843E-04 +5.07846253746E-04 -4.29080134474E-01 +1.33466406764E-01
3.05000000000E+09 -3.10040486154E-01 +2.28791451024E-01 +6.32381154270E-04 +3.54458446833E-04 +6.60900910366E-04 +3.28849591557E-04 -4.31521667281E-01 +1.72432857174E-01
3.05500000000E+09 -2.99411865992E-01 +2.56015928974E-01 +2.65704169983E-04 +2.30124776671E-04 +2.00506369437E-04 +1.75038915512E-04 -4.32079646697E-01 +2.10793477644E-01
3.06000000000E+09 -2.88667766199E-01 +2.82257577460E-01 +4.46223790719E-04 +3.36661967093E-04 +4.18151818535E-04 +3.31922278501E-04 -4.29747433411E-01 +2.48945669765E-01
3.06500000000E+09 -2.77379854209E-01 +3.07933189022E-01 +4.69454570872E-04 +2.12278775772E-04 +3.85064507385E-04 +2.14628396266E-04 -4.24935024477E-01 +2.85997234313E-01
3.07000000000E+09 -2.65160421822E-01 +3.32843704052E-01 +4.77427554180E-04 +1.17915891518E-04 +3.69870289034E-04 +1.37639066193E-04 -4.18042925483E-01 +3.21213846129E-01
