# Hz S RI R 50
! CMT, C1220, 16058040, 17.2.0/1
! Date: 15/08/2018 10:28:38
! Data: Format (Calibration Info)
! Freq                      S11: Re/Im (F2)                       S21: Re/Im (F2)                       S12: Re/Im (F2)                       S22: Re/Im (F2)            
2.50000000000E+09 +5.79583413209E-01 +6.42282620682E-01 +2.69206389990E-04 +4.85966692776E-05 +3.12296115086E-04 +2.38932876514E-05 +5.69208187934E-01 +7.21106760885E-01
2.50500000000E+09 +5.86591780675E-01 +6.34512485099E-01 +3.32137541021E-04 -5.68397722671E-05 +3.28473514342E-04 -7.01058680267E-05 +5.75211236031E-01 +7.15144110121E-01
2.51000000000E+09 +5.94054887411E-01 +6.26616611111E-01 +2.36334414634E-04 -1.43963971265E-04 +2.22919351189E-04 -1.15282808258E-04 +5.81082258945E-01 +7.09570524679E-01
2.51500000000E+09 +6.01330108575E-01 +6.18847503519E-01 +1.79497704760E-04 -1.21556403375E-04 +1.72190421143E-04 -1.12964520774E-04 +5.86567168467E-01 +7.03502764496E-01
2.52000000000E+09 +6.08008119476E-01 +6.10934529668E-01 +2.84823944941E-04 -1.32436925822E-04 +2.82313618904E-04 -1.17192586137E-04 +5.91753889327E-01 +6.97224006794E-01
2.52500000000E+09 +6.13657415304E-01 +6.03612722099E-01 +1.95659264669E-04 -2.37650999600E-04 +2.10632824763E-04 -2.65028802090E-04 +5.97483463620E-01 +6.90394241668E-01
2.53000000000E+09 +6.18823126631E-01 +5.96754169673E-01 +1.56943447530E-04 -2.41902265906E-04 +1.24195657158E-04 -2.84092387973E-04 +6.03408036861E-01 +6.83081436330E-01
2.53500000000E+09 +6.23338092223E-01 +5.90064737962E-01 +8.18957880303E-05 -2.85008663656E-04 +6.58538882068E-05 -2.22574131980E-04 +6.08830144976E-01 +6.75906594025E-01
2.54000000000E+09 +6.27652373431E-01 +5.83870551092E-01 +3.64482296287E-05 -2.17177162617E-04 +4.95682904048E-05 -2.68708238248E-04 +6.14406407210E-01 +6.69290686117E-01
2.54500000000E+09 +6.32081341761E-01 +5.77706208365E-01 +6.03342545714E-06 -1.80825096036E-04 +6.06606653413E-05 -1.59693931197E-04 +6.19591125550E-01 +6.62587315810E-01
2.55000000000E+09 +6.36843123839E-01 +5.71581060148E-01 +1.26804002582E-04 -2.21814609675E-04 +1.34095123407E-04 -2.41518795770E-04 +6.24202823747E-01 +6.56354675729E-01
2.55500000000E+09 +6.41906268931E-01 +5.64834647475E-01 +4.14706284878E-05 -3.19144752687E-04 +4.69059364703E-05 -3.92982791408E-04 +6.28877495183E-01 +6.50190194651E-01
2.56000000000E+09 +6.47989173675E-01 +5.58238557261E-01 -9.47168940503E-05 -3.31310926218E-04 -1.31211896581E-04 -3.39998714852E-04 +6.33758294496E-01 +6.43521808568E-01
2.56500000000E+09 +6.54299495326E-01 +5.50333897087E-01 -1.02681696990E-04 -2.72350531548E-04 -1.69740637647E-04 -2.67060698855E-04 +6.39080035356E-01 +6.36448238265E-01
2.57000000000E+09 +6.60426530040E-01 +5.42429181730E-01 -2.07423753209E-04 -2.16766456010E-04 -2.40549505132E-04 -2.06155305525E-04 +6.44503529405E-01 +6.28842378823E-01
2.57500000000E+09 +6.66425483523E-01 +5.34346903418E-01 -2.27165829895E-04 -1.33171394505E-04 -2.44991321027E-04 -6.40317328915E-05 +6.49768363471E-01 +6.21547791215E-01
2.58000000000E+09 +6.71733735678E-01 +5.26246725635E-01 -1.43497989823E-04 -9.91825394764E-05 -1.40762206537E-04 -8.10379753529E-05 +6.54972859132E-01 +6.14432890294E-01
2.58500000000E+09 +6.76343611001E-01 +5.18228693353E-01 -1.27239830448E-04 -9.91964145497E-05 -1.18503565590E-04 -1.00472449470E-04 +6.60036355621E-01 +6.07008508724E-01
2.59000000000E+09 +6.80593668362E-01 +5.10311263948E-01 -2.66867973942E-04 -4.30780115071E-05 -2.31406485252E-04 -4.58944655850E-05 +6.65140001501E-01 +5.99507506116E-01
2.59500000000E+09 +6.84652088222E-01 +5.02421041798E-01 -1.56260966653E-04 -1.10165752201E-05 -1.75451751255E-04 -3.86947029105E-05 +6.70277978057E-01 +5.91532606830E-01
2.60000000000E+09 +6.88372847250E-01 +4.94099139261E-01 -1.11613389282E-04 +5.08860840611E-05 -1.47379748100E-04 +1.17038126695E-04 +6.75813325142E-01 +5.83047570090E-01
2.60500000000E+09 +6.92526746756E-01 +4.85128682374E-01 -4.13653304695E-05 +4.58223817646E-05 -1.40661844981E-05 +6.93495248187E-05 +6.81366332143E-01 +5.74083639489E-01
2.61000000000E+09 +6.96902831566E-01 +4.74807700873E-01 -3.35036091494E-05 -5.24434122161E-05 -1.74689728408E-05 -1.09375986551E-04 +6.86579900026E-01 +5.65189873343E-01
2.61500000000E+09 +7.01633319192E-01 +4.63527849459E-01 -1.18734076080E-04 -1.64361822943E-04 -1.61554991335E-04 -1.36927778355E-04 +6.91230370436E-01 +5.56451293706E-01
2.62000000000E+09 +7.06227925142E-01 +4.51170397110E-01 -1.70733842094E-04 -3.20408617906E-05 -2.29646355166E-04 +3.75708687296E-05 +6.95812003089E-01 +5.47416162340E-01
2.62500000000E+09 +7.10985180536E-01 +4.37939631431E-01 -1.18778858064E-04 +1.08981329806E-04 -5.53146231607E-05 +1.21902325660E-04 +7.00294586678E-01 +5.38619518092E-01
2.63000000000E+09 +7.15343456498E-01 +4.24574444172E-01 +2.07491574212E-05 -7.50068921309E-05 -5.57574198953E-05 -5.63906756676E-05 +7.04869334507E-01 +5.29371110271E-01
2.63500000000E+09 +7.19251776379E-01 +4.11423885546E-01 -1.70917293471E-04 -6.65150778652E-05 -1.67624270558E-04 -6.52968794451E-06 +7.09367955593E-01 +5.20042678808E-01
2.64000000000E+09 +7.22853761237E-01 +3.98976897744E-01 -1.70020091569E-04 +8.04332281498E-05 -1.23672364587E-04 +4.69032946785E-05 +7.13850526745E-01 +5.10343459666E-01
2.64500000000E+09 +7.26242101800E-01 +3.87355813374E-01 -6.33780734901E-05 +1.12426713732E-04 -1.01265750399E-04 +1.19940572281E-04 +7.18213231070E-01 +5.00803488403E-01
2.65000000000E+09 +7.29244307785E-01 +3.76612608314E-01 +3.08289897591E-05 +5.10010691504E-05 +4.12374951507E-05 +4.93235382383E-05 +7.22382997609E-01 +4.90853372130E-01
2.65500000000E+09 +7.32321274876E-01 +3.66105223526E-01 -8.88510362595E-05 -7.81321010629E-05 -4.86550347683E-05 -6.56820449680E-05 +7.26074028986E-01 +4.80559717186E-01
2.66000000000E+09 +7.35537801147E-01 +3.55579768379E-01 -1.96453597422E-04 +6.80644264555E-06 -2.18157399126E-04 +6.48442060734E-05 +7.29833661119E-01 +4.69757573522E-01
2.66500000000E+09 +7.38735783453E-01 +3.44901371468E-01 -1.31015940474E-04 +9.75271377827E-05 -1.41855638412E-04 +1.37966489472E-04 +7.34141790234E-01 +4.58690505685E-01
2.67000000000E+09 +7.41830164978E-01 +3.32996440322E-01 -8.57991157569E-05 +2.23317326930E-04 -1.98191422545E-05 +1.94959485944E-04 +7.38511058293E-01 +4.47833936927E-01
2.67500000000E+09 +7.44511958545E-01 +3.20125789208E-01 +9.90770177628E-05 +1.48838403977E-04 +9.99101739625E-05 +1.09948147981E-04 +7.42623616195E-01 +4.36485137169E-01
2.68000000000E+09 +7.46102823937E-01 +3.06222265431E-01 -1.31292593213E-06 +4.53003531822E-06 +4.09669896156E-05 +9.83384585934E-06 +7.46310602106E-01 +4.25419714962E-01
2.68500000000E+09 +7.47037111910E-01 +2.92484035040E-01 -3.72259388167E-05 +4.16301108431E-05 -5.81179317502E-05 +2.14672504542E-05 +7.49330095678E-01 +4.14272963589E-01
2.69000000000E+09 +7.48127167464E-01 +2.78451527107E-01 +3.82134036363E-05 +8.88019454397E-05 -2.73692982977E-06 +1.11824277146E-04 +7.51976664647E-01 +4.02573529985E-01
2.69500000000E+09 +7.48867072768E-01 +2.64551001570E-01 +1.59014464132E-04 +3.58372661572E-05 +1.81654619131E-04 +7.86787232137E-05 +7.54509734584E-01 +3.90509213038E-01
2.70000000000E+09 +7.49398275479E-01 +2.50596132744E-01 +1.05913192190E-04 -1.80337188804E-04 +1.07958349453E-04 -1.24277307608E-04 +7.57402927790E-01 +3.77607450651E-01
2.70500000000E+09 +7.50084407217E-01 +2.37224492339E-01 -5.20825255244E-05 -1.19789341966E-04 -3.70761433088E-05 -1.46980481039E-04 +7.60165623827E-01 +3.64548625546E-01
2.71000000000E+09 +7.50495753570E-01 +2.23876722131E-01 -1.11077755129E-04 -9.46499018335E-05 -1.36269235905E-04 -6.49396241324E-05 +7.63189324435E-01 +3.51480065469E-01
2.71500000000E+09 +7.51605338216E-01 +2.10323224523E-01 -6.69554645755E-05 +1.17485983909E-05 -4.74448384643E-05 -1.78138874625E-05 +7.65255639846E-01 +3.38816868625E-01
2.72000000000E+09 +7.52348641149E-01 +1.96190609783E-01 -1.06518847145E-05 -4.05394128600E-05 +5.87287986271E-06 -4.04430677144E-05 +7.67088762070E-01 +3.26576418409E-01
2.72500000000E+09 +7.52650194668E-01 +1.81178156111E-01 -1.05143559838E-04 -1.27294607526E-04 -1.41642276524E-04 -7.12291245951E-05 +7.68674565893E-01 +3.13443623249E-01
2.73000000000E+09 +7.51822752648E-01 +1.65259130530E-01 -1.59304368697E-04 +1.45787255755E-04 -1.37437395890E-04 +9.83137410597E-05 +7.70093673103E-01 +2.99515289841E-01
2.73500000000E+09 +7.49716615074E-01 +1.48685961871E-01 +7.50579806791E-05 +6.04318073854E-05 +2.70417434430E-05 -2.20654218715E-05 +7.70910058355E-01 +2.84539323315E-01
2.74000000000E+09 +7.46619370054E-01 +1.32403083282E-01 -3.03315048153E-05 -2.92292414444E-05 -3.14744221885E-05 -1.69987250660E-05 +7.71845988943E-01 +2.69937149940E-01
2.74500000000E+09 +7.42541723995E-01 +1.15740735136E-01 +2.36066392935E-05 -2.41473097599E-05 -2.98238401268E-05 -7.32905860576E-05 +7.72753500437E-01 +2.55139309762E-01
2.75000000000E+09 +7.38052969666E-01 +9.93286601087E-02 -4.05592656850E-05 -9.68555142749E-05 -5.30449082099E-05 -7.33818247210E-05 +7.73999478250E-01 +2.40702836199E-01
2.75500000000E+09 +7.33284632368E-01 +8.27047253341E-02 -7.63326989849E-05 -1.43100033624E-04 -6.98375300482E-05 -1.40306472028E-04 +7.73988117245E-01 +2.25453345858E-01
2.76000000000E+09 +7.28334429665E-01 +6.61800162416E-02 -2.06180660411E-04 -1.63323142183E-04 -2.47377202661E-04 -1.30958808906E-04 +7.72943063863E-01 +2.10198338769E-01
2.76500000000E+09 +7.23837216215E-01 +4.95450447820E-02 -2.62263241316E-04 -3.73814649386E-05 -2.52510139692E-04 -3.51528148333E-05 +7.71876557490E-01 +1.94996960727E-01
2.77000000000E+09 +7.19728022741E-01 +3.22349659464E-02 -1.72939518581E-04 +3.25248126689E-07 -2.37042803631E-04 -1.66292643625E-05 +7.71362447352E-01 +1.78540276462E-01
2.77500000000E+09 +7.15869192643E-01 +1.39680002461E-02 -2.50399136908E-04 +1.35743132874E-06 -2.13553612923E-04 +4.05718870479E-05 +7.70462257232E-01 +1.61293136581E-01
2.78000000000E+09 +7.12136847666E-01 -5.19382145954E-03 -2.40733906723E-04 -3.26642147000E-05 -2.31182039175E-04 +2.23871884484E-05 +7.69126789070E-01 +1.43774655445E-01
2.78500000000E+09 +7.07337152009E-01 -2.54307869973E-02 -4.63820312348E-04 -1.05696360345E-05 -3.81863576272E-04 +3.54843438396E-05 +7.66847754835E-01 +1.26704218981E-01
2.79000000000E+09 +7.01724969931E-01 -4.60466607070E-02 -4.39963317105E-04 +1.89951413510E-04 -4.26544483408E-04 +2.21452198219E-04 +7.64618458703E-01 +1.10042903560E-01
2.79500000000E+09 +6.94932221021E-01 -6.60500845229E-02 -3.39401241048E-04 +3.38832752239E-04 -3.29998073842E-04 +3.57987975412E-04 +7.61914875453E-01 +9.19772660251E-02
2.80000000000E+09 +6.86839886145E-01 -8.56976027082E-02 -2.56954277791E-04 +3.70678914294E-04 -2.77433132811E-04 +3.09063672555E-04 +7.57685095195E-01 +7.29607131389E-02
2.80500000000E+09 +6.77774530817E-01 -1.04137190293E-01 -3.77965832647E-04 +3.97186230721E-04 -3.77062336007E-04 +3.68478048659E-04 +7.52686299574E-01 +5.38337298290E-02
2.81000000000E+09 +6.67716603028E-01 -1.21534933802E-01 -2.79478297025E-04 +6.35393236411E-04 -2.95937045849E-04 +6.51044547716E-04 +7.47248745482E-01 +3.39937832600E-02
2.81500000000E+09 +6.56849929734E-01 -1.38125390891E-01 -3.50907493134E-06 +6.03737059784E-04 +8.65099767558E-06 +6.72373920846E-04 +7.40877402560E-01 +1.38837184016E-02
2.82000000000E+09 +6.44671534479E-01 -1.54704505422E-01 +4.03681987132E-06 +5.26067124066E-04 +2.24547457813E-05 +5.16253726334E-04 +7.34018886023E-01 -6.54284631101E-03
2.82500000000E+09 +6.31417948482E-01 -1.70867403543E-01 -9.19173934733E-05 +5.97902380172E-04 -6.86537937273E-05 +6.17729161147E-04 +7.25396056394E-01 -2.74424083879E-02
2.83000000000E+09 +6.17037618600E-01 -1.88018541221E-01 +5.29647387019E-05 +8.61093713152E-04 +9.90703606515E-05 +7.99229888811E-04 +7.15559113538E-01 -4.77949858955E-02
2.83500000000E+09 +6.00987928221E-01 -2.06268908290E-01 +4.15746287935E-04 +1.01839558178E-03 +3.81649608025E-04 +9.47971878942E-04 +7.04871481115E-01 -6.78956158020E-02
2.84000000000E+09 +5.81855713176E-01 -2.24993214801E-01 +7.35801649990E-04 +5.86381331649E-04 +7.68598852504E-04 +6.21449010354E-04 +6.93786807222E-01 -8.84630912890E-02
2.84500000000E+09 +5.60917811121E-01 -2.43348338032E-01 +6.73822452010E-04 +2.73644761456E-04 +6.44795935150E-04 +2.91469028138E-04 +6.81334749606E-01 -1.09256053645E-01
2.85000000000E+09 +5.38542188119E-01 -2.61209079066E-01 +4.66305445492E-04 +3.06453820552E-04 +4.42597645283E-04 +2.83461511558E-04 +6.67462223792E-01 -1.29763447862E-01
2.85500000000E+09 +5.15104754452E-01 -2.78523361251E-01 +4.44741324271E-04 +5.85999264149E-04 +4.94770985309E-04 +5.74114872833E-04 +6.52931424761E-01 -1.49755788343E-01
2.86000000000E+09 +4.91146666231E-01 -2.95067450095E-01 +1.04182845673E-03 +6.53354467925E-04 +1.02722917027E-03 +6.65226810340E-04 +6.36973447638E-01 -1.70161197748E-01
2.86500000000E+09 +4.66388529052E-01 -3.10312301290E-01 +1.24711429078E-03 +1.63879107115E-05 +1.22312533712E-03 -1.18342081946E-06 +6.19656769753E-01 -1.90374392968E-01
2.87000000000E+09 +4.41607771303E-01 -3.23940978497E-01 +8.89132765888E-04 -3.26208174544E-04 +9.10975139371E-04 -2.92364025819E-04 +6.00968921855E-01 -2.10541313373E-01
2.87500000000E+09 +4.17171786570E-01 -3.36311406424E-01 +5.32911738655E-04 -2.55482301738E-04 +5.38071522786E-04 -2.47386867580E-04 +5.80708928277E-01 -2.30044351594E-01
2.88000000000E+09 +3.92508030582E-01 -3.48270440611E-01 +7.32002892881E-04 -8.13023869800E-06 +7.46301401902E-04 -4.96937200102E-05 +5.59741011020E-01 -2.48815713284E-01
2.88500000000E+09 +3.66600793870E-01 -3.59177971517E-01 +1.03921080008E-03 -1.91629336831E-04 +9.65725949649E-04 -2.41594978233E-04 +5.37304250569E-01 -2.67296462833E-01
2.89000000000E+09 +3.39638000731E-01 -3.68591241270E-01 +8.99023018778E-04 -5.64652536394E-04 +8.66943425044E-04 -4.77085706512E-04 +5.13620301134E-01 -2.84866656600E-01
2.89500000000E+09 +3.11491210948E-01 -3.76654141754E-01 +8.24674453155E-04 -6.76203720945E-04 +8.66910540139E-04 -6.01305337854E-04 +4.88435405482E-01 -3.03551833376E-01
2.90000000000E+09 +2.81792193856E-01 -3.83953984781E-01 +3.78598767474E-04 -7.34884940452E-04 +4.90268057067E-04 -7.25484814243E-04 +4.59604980822E-01 -3.21313302495E-01
2.90500000000E+09 +2.49812313808E-01 -3.88856002891E-01 +7.49911348153E-04 -5.39520858227E-04 +7.81146095063E-04 -5.34300793361E-04 +4.29846833213E-01 -3.36445655955E-01
2.91000000000E+09 +2.17688649678E-01 -3.91025617758E-01 +7.29961140021E-04 -1.10423359716E-03 +6.86402179684E-04 -1.22377334552E-03 +3.99569560059E-01 -3.50967982082E-01
2.91500000000E+09 +1.85548233954E-01 -3.91881717815E-01 +1.70178347512E-04 -1.06624055537E-03 +1.93994912815E-04 -1.06011508408E-03 +3.67451616593E-01 -3.63771705901E-01
2.92000000000E+09 +1.52703751705E-01 -3.90850294585E-01 +1.85887446662E-04 -1.03713661316E-03 +1.71398138055E-04 -9.93774728676E-04 +3.34032922087E-01 -3.74166463596E-01
2.92500000000E+09 +1.19826865655E-01 -3.87817672756E-01 +9.79018634524E-05 -1.26782515921E-03 +1.08638516081E-04 -1.24549426576E-03 +2.99202567102E-01 -3.82079386698E-01
2.93000000000E+09 +8.78452623404E-02 -3.82696534293E-01 -5.28557000192E-04 -1.30370826392E-03 -4.10724873415E-04 -1.29634036588E-03 +2.63527033050E-01 -3.89429052136E-01
2.93500000000E+09 +5.56883688965E-02 -3.76520242735E-01 -6.44373620427E-04 -7.27997571847E-04 -6.51509672925E-04 -7.95544453023E-04 +2.25010497864E-01 -3.95103608355E-01
2.94000000000E+09 +2.33184173537E-02 -3.67812230303E-01 -2.86199848117E-04 -6.15448416719E-04 -2.95876537090E-04 -6.02186810521E-04 +1.85738024446E-01 -3.98150974906E-01
2.94500000000E+09 -8.46029875644E-03 -3.56885104466E-01 -1.75160065864E-04 -1.14454983175E-03 -1.97235186204E-04 -1.08368977030E-03 +1.44874483954E-01 -3.98930085341E-01
2.95000000000E+09 -4.05801595469E-02 -3.43386780788E-01 -8.05171695656E-04 -1.17043041053E-03 -7.74184793678E-04 -1.19498419483E-03 +1.04999905362E-01 -3.95772605189E-01
2.95500000000E+09 -7.22142681998E-02 -3.26059931316E-01 -1.05780527412E-03 -7.66435169454E-04 -1.06232385323E-03 -7.86613749877E-04 +6.49836326610E-02 -3.90996075037E-01
2.96000000000E+09 -1.01764671124E-01 -3.06175370088E-01 -1.17262132711E-03 -5.80633612726E-04 -1.22758449934E-03 -5.76061624291E-04 +2.40673591010E-02 -3.82091875266E-01
2.96500000000E+09 -1.30144279793E-01 -2.84462342334E-01 -1.09185599154E-03 -1.50576237408E-04 -1.08920891491E-03 -1.36662959712E-04 -1.55077672903E-02 -3.71112448403E-01
2.97000000000E+09 -1.57871153832E-01 -2.60564122585E-01 -7.83330545838E-04 -1.49175684258E-04 -8.28763142293E-04 -1.44083043917E-04 -5.73610766805E-02 -3.57853033508E-01
2.97500000000E+09 -1.83720323700E-01 -2.33989917076E-01 -1.05218291254E-03 -3.05770267549E-04 -1.00966529879E-03 -2.72652758596E-04 -9.72395574513E-02 -3.40043907353E-01
2.98000000000E+09 -2.07819400150E-01 -2.06266420804E-01 -1.26697823501E-03 +8.68886199735E-05 -1.20609664773E-03 +5.30840922442E-05 -1.36615132998E-01 -3.20126783317E-01
2.98500000000E+09 -2.29991310343E-01 -1.77351552737E-01 -9.57970660800E-04 +3.78529066625E-04 -9.69783363752E-04 +4.08013743673E-04 -1.73861402214E-01 -2.96279562852E-01
2.99000000000E+09 -2.50692690866E-01 -1.47894730548E-01 -7.12762503917E-04 +1.53593524027E-04 -7.71457231109E-04 +1.23416464567E-04 -2.09465152109E-01 -2.69614531674E-01
2.99500000000E+09 -2.69653274157E-01 -1.17788985789E-01 -1.11756205704E-03 +1.55693796523E-04 -1.13380470259E-03 +2.05416458190E-04 -2.42497621249E-01 -2.38794162716E-01
3.00000000000E+09 -2.87040808187E-01 -8.68692306154E-02 -1.24801968503E-03 +7.79513030069E-04 -1.15863026499E-03 +8.00731049053E-04 -2.71872368299E-01 -2.07499173222E-01
3.00500000000E+09 -3.01979767784E-01 -5.60458528375E-02 -8.10213044992E-04 +1.04420206280E-03 -7.54165019992E-04 +9.92448304294E-04 -3.01044284255E-01 -1.74440202841E-01
3.01000000000E+09 -3.14757801201E-01 -2.51360679145E-02 -3.55322037410E-04 +1.02597329915E-03 -2.87425659247E-04 +9.60806501854E-04 -3.26629839833E-01 -1.39336693855E-01
3.01500000000E+09 -3.25064933816E-01 +5.48867355697E-03 -8.57717550032E-05 +8.89779197207E-04 -9.20314683744E-05 +8.65606821711E-04 -3.50174234898E-01 -1.03185911896E-01
3.02000000000E+09 -3.32667000314E-01 +3.68634911408E-02 -1.41175039280E-04 +6.65175672571E-04 -1.72550809848E-04 +6.60379252626E-04 -3.69936143310E-01 -6.54270870129E-02
3.02500000000E+09 -3.36696239875E-01 +6.71389268336E-02 +2.68209951015E-05 +6.92650635475E-04 +9.36780556152E-06 +6.75323808892E-04 -3.86788446872E-01 -2.67811404300E-02
3.03000000000E+09 -3.38641997404E-01 +9.69959564838E-02 -1.26293330329E-04 +4.84745804479E-04 -1.49037978959E-04 +4.88858210994E-04 -4.00074985261E-01 +1.26092064458E-02
3.03500000000E+09 -3.37960112185E-01 +1.26696110940E-01 -2.07101243989E-04 +7.56985075466E-04 -2.31144043042E-04 +7.53304639120E-04 -4.10679240847E-01 +5.12590734643E-02
3.04000000000E+09 -3.35089683018E-01 +1.56288097872E-01 +1.49155351181E-04 +4.79438426429E-04 +1.25736432330E-04 +5.55874041887E-04 -4.19878186058E-01 +9.02538420429E-02
3.04500000000E+09 -3.29826629700E-01 +1.86039790826E-01 -2.31057571227E-04 +8.25079277148E-04 -2.64175737158E-04 +8.28858691595E-04 -4.25783566549E-01 +1.29551343107E-01
3.05000000000E+09 -3.22771714999E-01 +2.15417248532E-01 +3.28641548599E-04 +9.71847713264E-04 +3.69953894140E-04 +1.03272223310E-03 -4.29238505487E-01 +1.68220750726E-01
3.05500000000E+09 -3.13389869680E-01 +2.44196572854E-01 +4.40058082606E-04 +7.07346388330E-04 +4.98692998875E-04 +6.84872508447E-04 -4.30260112803E-01 +2.06387417720E-01
3.06000000000E+09 -3.03548574888E-01 +2.71820199309E-01 +5.67631093237E-04 +3.21668045781E-04 +5.75396481591E-04 +3.61512234600E-04 -4.28882859705E-01 +2.44441102842E-01
3.06500000000E+09 -2.92569688574E-01 +2.99611954869E-01 +2.71058021108E-04 +1.54903102080E-04 +2.62423224289E-04 +1.63147341036E-04 -4.25091219623E-01 +2.81752214327E-01
3.07000000000E+09 -2.80157502297E-01 +3.25703439483E-01 +2.24794880958E-04 +5.38958806341E-04 +1.77266448801E-04 +5.21682066739E-04 -4.18559583276E-01 +3.17613965586E-01
