# Hz S RI R 50
! CMT, C1220, 16058040, 17.2.0/1
! Date: 15/08/2018 10:26:45
! Data: Format (Calibration Info)
! Freq                      S11: Re/Im (F2)                       S21: Re/Im (F2)                       S12: Re/Im (F2)                       S22: Re/Im (F2)            
2.50000000000E+09 +5.82495420188E-01 +6.42053740729E-01 +2.62319004271E-04 +1.21033620715E-04 +2.15585383452E-04 +9.40490601808E-05 +5.70456858081E-01 +7.19686351883E-01
2.50500000000E+09 +5.89712181230E-01 +6.34144487520E-01 +3.44353408041E-04 +8.28714576118E-05 +3.59080925744E-04 +7.64941070551E-05 +5.76452152398E-01 +7.13682864476E-01
2.51000000000E+09 +5.97132607048E-01 +6.26170477373E-01 +3.64302621334E-04 -2.86921086679E-05 +3.56428470558E-04 -2.44277683618E-05 +5.82347530342E-01 +7.07949486634E-01
2.51500000000E+09 +6.04362829170E-01 +6.18401129076E-01 +3.66801231542E-04 -5.24958992934E-05 +3.38023088460E-04 -6.04803821471E-05 +5.87582122564E-01 +7.01998958529E-01
2.52000000000E+09 +6.11014199364E-01 +6.10484625481E-01 +3.94221654277E-04 -1.38385051861E-04 +3.67050433561E-04 -1.43370634779E-04 +5.92600897273E-01 +6.95571716763E-01
2.52500000000E+09 +6.16780721995E-01 +6.03145764983E-01 +2.84808412498E-04 -1.86773099654E-04 +2.93962637911E-04 -1.60699040596E-04 +5.98211250387E-01 +6.88862687338E-01
2.53000000000E+09 +6.22012554972E-01 +5.96342376288E-01 +3.25406215035E-04 -2.32709589033E-04 +3.43694715555E-04 -2.62673018359E-04 +6.04112814496E-01 +6.81679670055E-01
2.53500000000E+09 +6.26604023325E-01 +5.89755873184E-01 +2.12932751387E-04 -3.09221998434E-04 +2.80858099298E-04 -3.30766105414E-04 +6.09648874180E-01 +6.74542534088E-01
2.54000000000E+09 +6.30698509079E-01 +5.83513051092E-01 +1.99279854048E-04 -3.27784130835E-04 +2.37191645753E-04 -2.84864320616E-04 +6.15135994599E-01 +6.67979720725E-01
2.54500000000E+09 +6.35191768424E-01 +5.77744759304E-01 +1.01708333289E-04 -2.99781765424E-04 +1.38169041309E-04 -3.47266747239E-04 +6.20389717720E-01 +6.61309887393E-01
2.55000000000E+09 +6.40276253033E-01 +5.71522991066E-01 +1.59602596538E-04 -2.41921717968E-04 +1.73003303364E-04 -2.85350795167E-04 +6.25025871134E-01 +6.55192326635E-01
2.55500000000E+09 +6.45621889415E-01 +5.64501477111E-01 +1.62498929161E-04 -3.80097780607E-04 +2.67380911109E-04 -4.36877654014E-04 +6.29645006416E-01 +6.49094296693E-01
2.56000000000E+09 +6.51685981611E-01 +5.57554230356E-01 +8.13310524827E-05 -4.57049431389E-04 +7.16863648962E-05 -6.09513720139E-04 +6.34492111798E-01 +6.42403077842E-01
2.56500000000E+09 +6.58079281819E-01 +5.49610340916E-01 -5.29397295627E-05 -4.16481010059E-04 -1.41153307952E-04 -4.82401883230E-04 +6.39741197854E-01 +6.35229059598E-01
2.57000000000E+09 +6.64248051384E-01 +5.41756239245E-01 -1.09285490503E-04 -4.71698975746E-04 -2.19156401993E-04 -4.06346770579E-04 +6.45084827835E-01 +6.27804028776E-01
2.57500000000E+09 +6.70491297502E-01 +5.33420136533E-01 -2.83391859955E-04 -3.44277045533E-04 -2.70232389144E-04 -2.50736243702E-04 +6.50526792189E-01 +6.20538819594E-01
2.58000000000E+09 +6.75944025123E-01 +5.25010151081E-01 -2.32306874635E-04 -2.43113150492E-04 -1.80717233162E-04 -1.77536919068E-04 +6.55828895722E-01 +6.13371513332E-01
2.58500000000E+09 +6.80558685887E-01 +5.16610396753E-01 -2.08120564086E-04 -2.58656888444E-04 -1.65739539014E-04 -2.27626369849E-04 +6.60805254424E-01 +6.05832673277E-01
2.59000000000E+09 +6.84608027053E-01 +5.08817243536E-01 -2.03546351728E-04 -2.00632149244E-04 -2.57989733072E-04 -2.12694153209E-04 +6.65739330550E-01 +5.98287007501E-01
2.59500000000E+09 +6.88651522758E-01 +5.01078150000E-01 -2.41765211646E-04 -1.58865003407E-04 -2.52565407206E-04 -1.56421366824E-04 +6.70976353286E-01 +5.90467979655E-01
2.60000000000E+09 +6.92562237994E-01 +4.92609430186E-01 -1.63685734313E-04 -5.81372573377E-05 -2.17192578264E-04 -6.90344337675E-05 +6.76437519330E-01 +5.82010718417E-01
2.60500000000E+09 +6.96620772600E-01 +4.83303651559E-01 -1.68770534886E-04 -1.90998968421E-05 -1.68378652686E-04 -1.02413964390E-05 +6.81871953044E-01 +5.73332057713E-01
2.61000000000E+09 +7.00956763881E-01 +4.72979586868E-01 -9.11036232019E-05 -8.89810809728E-05 -1.12470422244E-04 -1.13399112940E-04 +6.87022373343E-01 +5.64465129682E-01
2.61500000000E+09 +7.05698310842E-01 +4.61540208895E-01 -1.42297802778E-04 -1.49682409472E-04 -1.65973002098E-04 -1.72887265952E-04 +6.91815910658E-01 +5.55819326931E-01
2.62000000000E+09 +7.10367527179E-01 +4.49045956548E-01 -1.39930761646E-04 -4.50993581013E-05 -1.94993711592E-04 -2.96014021726E-05 +6.96533815753E-01 +5.46859934691E-01
2.62500000000E+09 +7.15189867321E-01 +4.35806839870E-01 -1.45334316853E-04 -1.29933547020E-06 -1.76365492253E-04 -2.40963486385E-05 +7.01112426826E-01 +5.37862573400E-01
2.63000000000E+09 +7.19735136650E-01 +4.22202284370E-01 -7.90137288707E-05 -9.67548142068E-05 -8.35210983900E-05 -2.98209782295E-05 +7.05608901640E-01 +5.28787370709E-01
2.63500000000E+09 +7.23629350481E-01 +4.08608461827E-01 -1.08167605252E-04 -1.68251826589E-04 -1.32152030313E-04 -8.60510770846E-05 +7.10229872673E-01 +5.19671261486E-01
2.64000000000E+09 +7.27183581362E-01 +3.95829252217E-01 -2.01984560396E-04 -2.00293728389E-04 -1.43608886210E-04 -1.28478825988E-04 +7.14870629043E-01 +5.10097166479E-01
2.64500000000E+09 +7.30396888353E-01 +3.83993712294E-01 -1.81231474391E-04 -1.37986223880E-04 -1.47722565253E-04 -8.93028420404E-05 +7.19447622718E-01 +5.00410665334E-01
2.65000000000E+09 +7.33189565853E-01 +3.73207302985E-01 -1.89307251094E-04 -1.25785566752E-04 -1.67020657704E-04 -1.54191914055E-04 +7.23853882031E-01 +4.90424297842E-01
2.65500000000E+09 +7.36496017917E-01 +3.62465651242E-01 -3.21116408824E-04 -9.83936567979E-05 -3.11320062605E-04 -1.93416250264E-04 +7.27504913251E-01 +4.79893766142E-01
2.66000000000E+09 +7.39715554180E-01 +3.51634626552E-01 -3.37367928886E-04 -4.47805018230E-05 -3.22242399487E-04 -2.12185091963E-06 +7.31418340265E-01 +4.68944928649E-01
2.66500000000E+09 +7.42878680452E-01 +3.40513766598E-01 -3.20733388049E-04 -2.76861228996E-05 -3.19934659833E-04 -4.22586480788E-05 +7.35694038612E-01 +4.57905763548E-01
2.67000000000E+09 +7.45682858952E-01 +3.28187973033E-01 -3.99381630803E-04 +7.45841792526E-05 -3.92435267838E-04 +1.06682388870E-04 +7.39923655616E-01 +4.46956305446E-01
2.67500000000E+09 +7.48037170824E-01 +3.14971287386E-01 -3.16196584375E-04 +1.35609872274E-04 -3.55985737860E-04 +9.77607889094E-05 +7.44128999499E-01 +4.35684297854E-01
2.68000000000E+09 +7.49691499781E-01 +3.00986140021E-01 -3.30585449416E-04 +1.89801337657E-04 -3.27923639202E-04 +1.56474453605E-04 +7.47907794898E-01 +4.24673830787E-01
2.68500000000E+09 +7.50804847831E-01 +2.86643097064E-01 -2.64214356305E-04 +2.68220639562E-04 -3.13064694374E-04 +2.60446257026E-04 +7.50956840114E-01 +4.13362383072E-01
2.69000000000E+09 +7.51420504058E-01 +2.72254525826E-01 -1.64959282111E-04 +3.44277737756E-04 -1.11491570699E-04 +3.23942226216E-04 +7.53654602718E-01 +4.01635228637E-01
2.69500000000E+09 +7.51892914029E-01 +2.58167628109E-01 -1.22029819935E-04 +2.62530063169E-04 -1.64323598382E-04 +2.29347649649E-04 +7.56227457211E-01 +3.89389353022E-01
2.70000000000E+09 +7.52288304382E-01 +2.44052276166E-01 -1.08662120246E-04 +2.93676312582E-04 -1.32238092711E-04 +2.91146901462E-04 +7.59169871058E-01 +3.76442498093E-01
2.70500000000E+09 +7.52600859610E-01 +2.30642916198E-01 -1.90865300151E-05 +2.02204011445E-04 -7.62175223814E-05 +2.34914413404E-04 +7.62023194681E-01 +3.63429899438E-01
2.71000000000E+09 +7.53438869890E-01 +2.17070689545E-01 -4.19396587399E-05 +2.16301322432E-04 -3.58870668854E-05 +2.51985700051E-04 +7.65189332079E-01 +3.50369163076E-01
2.71500000000E+09 +7.54055620550E-01 +2.03003031815E-01 +3.54721752496E-05 +2.62346125198E-04 +2.02442398911E-05 +2.86943591397E-04 +7.67573163104E-01 +3.37620698010E-01
2.72000000000E+09 +7.54463020789E-01 +1.88511860554E-01 +7.43805183456E-05 +8.35603682655E-05 +9.98160387598E-05 +1.56037805258E-04 +7.69510240926E-01 +3.24784862971E-01
2.72500000000E+09 +7.54273268893E-01 +1.73222785061E-01 -1.28651868012E-04 +2.82229219135E-05 -1.29933729078E-04 +5.43348025479E-05 +7.70766097139E-01 +3.11625626681E-01
2.73000000000E+09 +7.53189393905E-01 +1.57045439070E-01 -1.29592985049E-04 +3.11259683424E-04 -6.96124245841E-05 +2.54069263955E-04 +7.72139552169E-01 +2.97500208199E-01
2.73500000000E+09 +7.50842471676E-01 +1.40082527384E-01 +1.47089398151E-04 +1.70532902730E-04 +1.41438906225E-04 +1.79826151648E-04 +7.73033232519E-01 +2.82487224542E-01
2.74000000000E+09 +7.47453055782E-01 +1.23201255024E-01 +3.52544128810E-05 +1.99196768380E-05 +9.07664275363E-05 +2.03911877481E-05 +7.74135125209E-01 +2.67512510856E-01
2.74500000000E+09 +7.42903487250E-01 +1.05827661520E-01 +1.73892881131E-05 +3.31813985932E-05 -3.67562426337E-05 -1.89209418921E-07 +7.74989681275E-01 +2.52418126770E-01
2.75000000000E+09 +7.37506816967E-01 +8.91400944164E-02 -5.69311759831E-05 +3.41099153681E-05 -6.41055961027E-05 +4.82785309749E-05 +7.75784262297E-01 +2.37725666744E-01
2.75500000000E+09 +7.31911533164E-01 +7.25765053407E-02 -1.20467652335E-04 -2.76081438238E-05 -8.77558210748E-05 +1.68536063671E-05 +7.75727153859E-01 +2.22343508524E-01
2.76000000000E+09 +7.26576606257E-01 +5.60752587718E-02 -1.87214007359E-04 -3.23677365315E-05 -2.05168936986E-04 -2.10522421501E-06 +7.74610675882E-01 +2.07008320522E-01
2.76500000000E+09 +7.21536894411E-01 +3.93830025759E-02 -3.29288562985E-04 +1.86358707124E-04 -3.88158156352E-04 +1.80683831490E-04 +7.73451946283E-01 +1.91180779522E-01
2.77000000000E+09 +7.16894741565E-01 +2.17241826269E-02 -1.96986756548E-04 +4.03681697784E-04 -2.06790036373E-04 +3.95557211476E-04 +7.72388623719E-01 +1.74645438503E-01
2.77500000000E+09 +7.12989598712E-01 +3.87727233743E-03 -6.69103995173E-05 +3.21732924947E-04 -1.39496706021E-04 +3.62044090844E-04 +7.71011976828E-01 +1.57615859843E-01
2.78000000000E+09 +7.08547142400E-01 -1.52875354465E-02 -2.76664575338E-05 +4.37991989572E-04 -9.49710754350E-07 +4.26683408550E-04 +7.69577205392E-01 +1.40262417701E-01
2.78500000000E+09 +7.03125565282E-01 -3.56559726134E-02 +4.07704340214E-05 +2.72184670811E-04 +1.48043404121E-05 +2.42861004360E-04 +7.67116430241E-01 +1.22958691939E-01
2.79000000000E+09 +6.96734655356E-01 -5.62007539597E-02 -1.96214118545E-04 +3.55974267126E-04 -1.53835315252E-04 +3.68931628835E-04 +7.64625505814E-01 +1.06354617019E-01
2.79500000000E+09 +6.89145577969E-01 -7.67744992397E-02 +3.00721832412E-05 +5.79743772033E-04 +8.85300116905E-05 +5.24731563546E-04 +7.61840055747E-01 +8.80877492780E-02
2.80000000000E+09 +6.79794480407E-01 -9.64813098123E-02 +6.47128579832E-05 +5.16736591879E-04 +6.49330369978E-05 +4.60310457022E-04 +7.57169310298E-01 +6.90253720037E-02
2.80500000000E+09 +6.69777293054E-01 -1.14634456063E-01 +1.28716853181E-04 +4.23650380274E-04 +1.40108156452E-04 +4.16574418664E-04 +7.51841696826E-01 +5.00925309824E-02
2.81000000000E+09 +6.58666440825E-01 -1.31612706138E-01 +4.70654651115E-05 +4.64869163525E-04 +8.30465773914E-05 +5.36104108929E-04 +7.46158746873E-01 +3.05116943522E-02
2.81500000000E+09 +6.47217990459E-01 -1.48104646896E-01 +2.76968591905E-04 +6.72523255346E-04 +3.04525552037E-04 +6.28952280195E-04 +7.39735926278E-01 +1.04597263509E-02
2.82000000000E+09 +6.34354915760E-01 -1.64232360229E-01 +4.66024379308E-04 +4.50128653272E-04 +4.87266680996E-04 +4.43834747770E-04 +7.32667765302E-01 -9.99092792289E-03
2.82500000000E+09 +6.20272875132E-01 -1.80431406014E-01 +2.89613396596E-04 +3.19415327896E-04 +2.86754996298E-04 +3.03882068903E-04 +7.23747903190E-01 -3.09214376559E-02
2.83000000000E+09 +6.04511822647E-01 -1.96983910571E-01 +2.86804033540E-04 +5.90330007199E-04 +2.83516635625E-04 +5.50749557619E-04 +7.13622634863E-01 -5.11103980834E-02
2.83500000000E+09 +5.87390053721E-01 -2.14103592808E-01 +4.91238259102E-04 +7.66484103211E-04 +4.69088703513E-04 +7.59913299019E-04 +7.02829074886E-01 -7.11876438957E-02
2.84000000000E+09 +5.67840984072E-01 -2.31683428974E-01 +9.12375275652E-04 +6.33767031777E-04 +9.13760619580E-04 +6.56350511310E-04 +6.91179858576E-01 -9.15766419724E-02
2.84500000000E+09 +5.46149444123E-01 -2.49251963880E-01 +1.07468898367E-03 +3.77734413627E-04 +1.07487639462E-03 +3.38110308778E-04 +6.78528898515E-01 -1.11990069782E-01
2.85000000000E+09 +5.23548931992E-01 -2.66277589235E-01 +1.12629585557E-03 +6.68925638191E-05 +1.17528268878E-03 +2.18114593397E-05 +6.64225137913E-01 -1.32687225679E-01
2.85500000000E+09 +4.99286807980E-01 -2.83067231079E-01 +7.94422705948E-04 -1.78696982803E-04 +7.27729855786E-04 -2.13178545726E-04 +6.48939605246E-01 -1.52140822608E-01
2.86000000000E+09 +4.74277055007E-01 -2.98266728320E-01 +8.96302560232E-04 +3.33199994813E-04 +8.84436370202E-04 +2.54323601431E-04 +6.32984501493E-01 -1.71789434395E-01
2.86500000000E+09 +4.49790789966E-01 -3.12264504727E-01 +1.44402436044E-03 -2.44083294928E-06 +1.40594115889E-03 -3.25206486217E-05 +6.15430704664E-01 -1.91733186172E-01
2.87000000000E+09 +4.24670491444E-01 -3.25337672984E-01 +1.45859482392E-03 -5.92798629086E-04 +1.46648376089E-03 -6.06693321110E-04 +5.96543612041E-01 -2.11177085542E-01
2.87500000000E+09 +3.99744573286E-01 -3.36902408051E-01 +1.12808720894E-03 -1.02094458271E-03 +1.16250240722E-03 -1.06814808522E-03 +5.76364596255E-01 -2.30135287603E-01
2.88000000000E+09 +3.74457889927E-01 -3.47571019214E-01 +6.85315407742E-04 -1.03667992068E-03 +6.06210197128E-04 -1.02342170419E-03 +5.55668712223E-01 -2.48095154582E-01
2.88500000000E+09 +3.48251801298E-01 -3.57361345140E-01 +5.96364250535E-04 -7.69764200450E-04 +5.27575427406E-04 -7.31687204953E-04 +5.33980294960E-01 -2.66421430555E-01
2.89000000000E+09 +3.20836284474E-01 -3.65278525017E-01 +8.26908191824E-04 -9.12667941494E-04 +8.62252523748E-04 -8.69032825070E-04 +5.09895127355E-01 -2.83904930728E-01
2.89500000000E+09 +2.92670592684E-01 -3.72340231035E-01 +8.98905223496E-04 -1.17673940126E-03 +8.85736887611E-04 -1.05492690222E-03 +4.84696334390E-01 -3.01815087719E-01
2.90000000000E+09 +2.62579808248E-01 -3.77891657832E-01 +5.56247458970E-04 -1.75271384362E-03 +6.35286430961E-04 -1.76073227489E-03 +4.56089233531E-01 -3.19115428897E-01
2.90500000000E+09 +2.30574218394E-01 -3.81901903917E-01 -1.94901285057E-04 -1.55241497500E-03 -1.79345013360E-04 -1.57897585068E-03 +4.26599981708E-01 -3.33761006069E-01
2.91000000000E+09 +1.97823324405E-01 -3.81832039091E-01 -1.66504566216E-04 -1.35522323613E-03 -1.65497840105E-04 -1.24460175998E-03 +3.97110550723E-01 -3.47744676024E-01
2.91500000000E+09 +1.65964047982E-01 -3.80855135250E-01 -4.22203033835E-05 -1.31332636281E-03 -1.17059901816E-04 -1.18528238901E-03 +3.65621053617E-01 -3.60387295876E-01
2.92000000000E+09 +1.33434608818E-01 -3.77765467764E-01 -1.81914318441E-04 -1.54952038405E-03 -1.72788216830E-04 -1.46412949047E-03 +3.32487012397E-01 -3.71015472969E-01
2.92500000000E+09 +1.01731714752E-01 -3.72953221452E-01 -5.68715373340E-04 -1.95753355215E-03 -3.79076097416E-04 -1.89340727393E-03 +2.97811909429E-01 -3.78737851733E-01
2.93000000000E+09 +7.03355345193E-02 -3.66241357514E-01 -1.60883445993E-03 -1.53619689183E-03 -1.53673474528E-03 -1.64574800282E-03 +2.62306433245E-01 -3.85754347727E-01
2.93500000000E+09 +3.91832712426E-02 -3.58513077189E-01 -1.65820540928E-03 -6.04313933561E-04 -1.59870721847E-03 -6.24690813559E-04 +2.24079346919E-01 -3.91043636921E-01
2.94000000000E+09 +7.83544423647E-03 -3.47881528204E-01 -1.00959602571E-03 -2.83615240822E-04 -9.92982751609E-04 -2.78837809594E-04 +1.85061204936E-01 -3.93655234356E-01
2.94500000000E+09 -2.23844377634E-02 -3.35452810880E-01 -7.01414182453E-04 -7.26152108206E-04 -6.08525898921E-04 -7.43826081069E-04 +1.45590420091E-01 -3.93695026910E-01
2.95000000000E+09 -5.25768046847E-02 -3.19926300876E-01 -1.29470713752E-03 -1.18160779020E-03 -1.24548529832E-03 -1.28283015235E-03 +1.06914126872E-01 -3.90972434341E-01
2.95500000000E+09 -8.17633496302E-02 -3.01998450561E-01 -2.04473694417E-03 -5.33527350508E-04 -2.03857282957E-03 -7.11089093389E-04 +6.79217781273E-02 -3.86477141746E-01
2.96000000000E+09 -1.09371031779E-01 -2.81132379209E-01 -2.09872516315E-03 +1.37781118249E-04 -2.21386958333E-03 +1.50857825807E-04 +2.78197116553E-02 -3.78687143391E-01
2.96500000000E+09 -1.35691228563E-01 -2.59503738612E-01 -1.47799781372E-03 +9.03972261929E-04 -1.45949251152E-03 +9.63598464315E-04 -1.18383661422E-02 -3.68335262320E-01
2.97000000000E+09 -1.61326934659E-01 -2.34568373749E-01 -7.92795121266E-04 +6.58470300011E-04 -8.38662432507E-04 +6.21556759505E-04 -5.31244816768E-02 -3.55104112001E-01
2.97500000000E+09 -1.84941471976E-01 -2.08440064155E-01 -8.35264285064E-04 +4.31881744130E-05 -8.21642772183E-04 -1.39117975290E-05 -9.22347660935E-02 -3.37860384749E-01
2.98000000000E+09 -2.06517379690E-01 -1.80682366767E-01 -1.84746841739E-03 +3.01429388598E-04 -1.81975815453E-03 +2.10763861401E-04 -1.30790052135E-01 -3.19396343633E-01
2.98500000000E+09 -2.27688278967E-01 -1.52983251099E-01 -1.40234738813E-03 +1.37200378520E-03 -1.51848164857E-03 +1.32530765153E-03 -1.68803095834E-01 -2.96989298337E-01
2.99000000000E+09 -2.46880744652E-01 -1.22499743342E-01 -6.29524491185E-04 +1.29395113066E-03 -6.72192609432E-04 +1.38373886024E-03 -2.04553353743E-01 -2.70978795925E-01
2.99500000000E+09 -2.62985327238E-01 -9.28273409015E-02 -5.44933019075E-04 +8.98407434956E-04 -5.46949363563E-04 +9.01234856402E-04 -2.38317960524E-01 -2.41155746012E-01
3.00000000000E+09 -2.78740968348E-01 -6.29158441831E-02 -7.88634609709E-04 +7.70391812281E-04 -7.30651870693E-04 +8.53203814468E-04 -2.68660016877E-01 -2.09750357426E-01
3.00500000000E+09 -2.91945673022E-01 -3.28152772175E-02 -1.08435907544E-03 +1.18305146437E-03 -9.91479626133E-04 +1.21143606667E-03 -2.97747307596E-01 -1.76779626367E-01
3.01000000000E+09 -3.02948508520E-01 -2.77884259576E-03 -3.91359338134E-04 +1.81979884490E-03 -4.08855406688E-04 +1.81605514410E-03 -3.24009008132E-01 -1.42127304481E-01
3.01500000000E+09 -3.12135039029E-01 +2.70454680130E-02 +5.57758014948E-04 +1.77018154489E-03 +4.99286353093E-04 +1.88330784714E-03 -3.47863166596E-01 -1.06219050707E-01
3.02000000000E+09 -3.17804970377E-01 +5.72189679503E-02 +9.91858906786E-04 +5.92862996102E-04 +1.00474464593E-03 +6.50519545984E-04 -3.68330004842E-01 -6.83980391945E-02
3.02500000000E+09 -3.20815944165E-01 +8.64225542886E-02 -4.57162647201E-05 +1.67962380337E-04 +9.86302190591E-05 +7.32882957871E-05 -3.85214011962E-01 -3.00082137171E-02
3.03000000000E+09 -3.20589317829E-01 +1.15040932086E-01 -5.56533673490E-04 +8.47964752506E-04 -4.32227054302E-04 +8.45939677383E-04 -3.99117232655E-01 +8.68222146903E-03
3.03500000000E+09 -3.19024368045E-01 +1.42208900930E-01 -2.55040438780E-04 +1.31981109324E-03 -2.51634985132E-04 +1.27122016668E-03 -4.10980376820E-01 +4.82055671569E-02
3.04000000000E+09 -3.15555566925E-01 +1.70379154016E-01 +6.29786281091E-04 +1.15607555755E-03 +6.56732908925E-04 +1.17101526775E-03 -4.19451437637E-01 +8.77901109107E-02
3.04500000000E+09 -3.09719048926E-01 +1.97978717046E-01 +5.81339877875E-04 +9.27648377896E-04 +6.13843490790E-04 +9.62189904386E-04 -4.25605060641E-01 +1.26534863953E-01
3.05000000000E+09 -3.02168781285E-01 +2.25908178994E-01 +4.67890995945E-04 +6.86107361398E-04 +4.35663254742E-04 +6.70352206846E-04 -4.29583511888E-01 +1.65012990460E-01
3.05500000000E+09 -2.92539313987E-01 +2.52691978357E-01 +1.66105011778E-04 +1.22219985645E-03 +1.56022628567E-04 +1.13154354764E-03 -4.31415729875E-01 +2.03123771040E-01
3.06000000000E+09 -2.82410139609E-01 +2.78657229846E-01 +1.16035509930E-03 +1.39293823767E-03 +1.07637745375E-03 +1.27947513380E-03 -4.31001614621E-01 +2.41406092314E-01
3.06500000000E+09 -2.72281034860E-01 +3.04563967278E-01 +1.44176596535E-03 +5.93478563351E-04 +1.27767684111E-03 +5.39625635839E-04 -4.27630320005E-01 +2.79664912974E-01
3.07000000000E+09 -2.59763026091E-01 +3.29878006504E-01 +1.13592798035E-03 +2.09250568599E-04 +9.96497805222E-04 +2.61724130392E-04 -4.21308605388E-01 +3.16323657195E-01
