# Hz S RI R 50
! CMT, C1220, 16058040, 17.2.0/1
! Date: 15/08/2018 10:28:08
! Data: Format (Calibration Info)
! Freq                      S11: Re/Im (F2)                       S21: Re/Im (F2)                       S12: Re/Im (F2)                       S22: Re/Im (F2)            
2.50000000000E+09 +5.79846725021E-01 +6.42109275542E-01 +2.70576227555E-04 +1.97377391127E-05 +2.59353872378E-04 +1.48264032161E-05 +5.69063475410E-01 +7.20709651608E-01
2.50500000000E+09 +5.86896350538E-01 +6.34543643623E-01 +2.75462882982E-04 -9.94171558177E-05 +2.97286940996E-04 -9.16226079034E-05 +5.75118352633E-01 +7.14831048470E-01
2.51000000000E+09 +5.94364489937E-01 +6.26546620080E-01 +1.85157050026E-04 -1.38455352024E-04 +1.97220051807E-04 -1.75285626353E-04 +5.80947166371E-01 +7.09168911819E-01
2.51500000000E+09 +6.01566458109E-01 +6.18779996030E-01 +1.91483857229E-04 -1.01279589456E-04 +1.39935280684E-04 -9.62193578762E-05 +5.86431867709E-01 +7.03278781378E-01
2.52000000000E+09 +6.08354785250E-01 +6.10838461835E-01 +2.54211085800E-04 -1.38232724888E-04 +2.46800703348E-04 -1.23636948410E-04 +5.91607786792E-01 +6.96728417437E-01
2.52500000000E+09 +6.13905900929E-01 +6.03462941670E-01 +1.67256833768E-04 -2.25734806749E-04 +1.68805276271E-04 -2.22515583384E-04 +5.97233055537E-01 +6.90032190010E-01
2.53000000000E+09 +6.19151095139E-01 +5.96702637939E-01 +1.03786580010E-04 -2.59601327247E-04 +1.54071678005E-04 -2.63721951206E-04 +6.03096416192E-01 +6.82709221501E-01
2.53500000000E+09 +6.23827723165E-01 +5.90305205691E-01 +5.79850709631E-05 -1.96094579494E-04 +5.80952845072E-05 -2.46732831988E-04 +6.08556208123E-01 +6.75625735545E-01
2.54000000000E+09 +6.28161903211E-01 +5.84083886154E-01 +2.79199347934E-05 -2.21663422489E-04 +3.71560017246E-05 -1.76257522306E-04 +6.14084267376E-01 +6.69006049732E-01
2.54500000000E+09 +6.32573730533E-01 +5.78036783352E-01 +5.04759466196E-05 -1.45289962171E-04 +3.26811961798E-05 -1.26122098002E-04 +6.19279937262E-01 +6.62308175417E-01
2.55000000000E+09 +6.37259321842E-01 +5.71760377389E-01 +1.30413426473E-04 -1.70933022338E-04 +1.27559227310E-04 -1.86346727722E-04 +6.23852105920E-01 +6.56195370894E-01
2.55500000000E+09 +6.42408862212E-01 +5.65254656251E-01 +5.84664522754E-05 -2.55594673751E-04 +1.55333378285E-05 -2.87552325170E-04 +6.28485078880E-01 +6.50004160170E-01
2.56000000000E+09 +6.48544052919E-01 +5.58436310610E-01 -7.77597699045E-06 -2.64884360827E-04 -7.34136423736E-05 -2.44472482437E-04 +6.33353057265E-01 +6.43365697050E-01
2.56500000000E+09 +6.54950837690E-01 +5.50636766561E-01 -3.98222335988E-05 -2.18659799004E-04 -7.95493844577E-05 -2.12805612809E-04 +6.38752050387E-01 +6.36264034820E-01
2.57000000000E+09 +6.60964217882E-01 +5.42769969655E-01 -1.43758806722E-04 -2.69196215232E-04 -1.81696555017E-04 -1.93499854419E-04 +6.44005240363E-01 +6.28795003866E-01
2.57500000000E+09 +6.67060915078E-01 +5.34648035784E-01 -1.59886941448E-04 -1.20535191553E-04 -1.46702000623E-04 -7.67271655087E-05 +6.49284296348E-01 +6.21573030730E-01
2.58000000000E+09 +6.72297460038E-01 +5.26536415619E-01 -1.22533177287E-04 -7.85782887625E-05 -1.29872274365E-04 -7.59281836791E-05 +6.54567286961E-01 +6.14518576342E-01
2.58500000000E+09 +6.77235680930E-01 +5.18402699695E-01 -1.40525924239E-04 -1.02914332489E-04 -1.11044087002E-04 -8.29861200109E-05 +6.59699634665E-01 +6.07050892022E-01
2.59000000000E+09 +6.81345545405E-01 +5.10585547929E-01 -1.51381537701E-04 -1.14584543293E-05 -1.35538145664E-04 -3.76945268423E-05 +6.64808061450E-01 +5.99646363284E-01
2.59500000000E+09 +6.85449586253E-01 +5.02722958137E-01 -8.52921664131E-05 -4.58946789738E-05 -1.07285667006E-04 -3.76966566758E-05 +6.70045692328E-01 +5.91539612926E-01
2.60000000000E+09 +6.89095279294E-01 +4.94292314759E-01 -5.23899448247E-05 +1.18065442492E-06 -7.90955107561E-05 +4.06280294794E-05 +6.75436302435E-01 +5.83102082850E-01
2.60500000000E+09 +6.93275023543E-01 +4.85327901071E-01 -1.21443533242E-05 -6.48766618137E-05 +8.54803241304E-06 -1.83987818968E-05 +6.81072573610E-01 +5.74169787013E-01
2.61000000000E+09 +6.97707086691E-01 +4.75074761446E-01 -3.01364403826E-06 -9.89443524472E-05 -2.83395718423E-05 -1.38915889783E-04 +6.86125362153E-01 +5.65349805166E-01
2.61500000000E+09 +7.02439428651E-01 +4.63918216057E-01 -1.05952993344E-04 -6.85130861171E-05 -1.25293615586E-04 -1.30287922061E-04 +6.90884436916E-01 +5.56584770708E-01
2.62000000000E+09 +7.07134157609E-01 +4.51517521901E-01 -1.90149967118E-04 -4.81679821513E-05 -1.62575028846E-04 -5.92176306488E-05 +6.95362357592E-01 +5.47644366903E-01
2.62500000000E+09 +7.11838987422E-01 +4.38218987047E-01 -4.68540252180E-05 +2.62729387561E-07 -6.30616900882E-05 +1.88861204580E-05 +6.99924557812E-01 +5.38880153270E-01
2.63000000000E+09 +7.16195873278E-01 +4.24819279690E-01 -4.80787637512E-05 -1.22893807417E-04 -5.13140503651E-05 -1.05324519424E-04 +7.04530094356E-01 +5.29764135042E-01
2.63500000000E+09 +7.20232616962E-01 +4.11766170409E-01 -1.60756800970E-04 -4.00348297434E-05 -1.90136958850E-04 -4.19637321352E-05 +7.09014947942E-01 +5.20452203804E-01
2.64000000000E+09 +7.23900560619E-01 +3.99233170844E-01 -1.23617132420E-04 +6.12666335900E-05 -1.09380883803E-04 +1.62970672064E-05 +7.13537512701E-01 +5.10820601632E-01
2.64500000000E+09 +7.27367648491E-01 +3.87548184212E-01 -1.34659005811E-05 +4.23587830293E-05 -1.59861264551E-05 +5.09794396113E-05 +7.17897184357E-01 +5.01388716959E-01
2.65000000000E+09 +7.30426031865E-01 +3.76808964175E-01 +4.64348877918E-05 -5.59509034394E-05 +2.96238730183E-05 -1.54360779964E-05 +7.22139735514E-01 +4.91628409870E-01
2.65500000000E+09 +7.33425318726E-01 +3.66081297776E-01 -6.62116205069E-05 -1.54627769025E-04 -8.21056093908E-05 -1.91704354370E-04 +7.25935826620E-01 +4.81302378024E-01
2.66000000000E+09 +7.36728513444E-01 +3.55609419072E-01 -1.86787686164E-04 +2.63790352175E-06 -1.87436134601E-04 -4.54891821278E-05 +7.29859782668E-01 +4.70509092118E-01
2.66500000000E+09 +7.39960559345E-01 +3.44896223067E-01 -6.73579473396E-05 -5.72265191575E-06 -6.09860359703E-05 +4.80204365465E-05 +7.34297376205E-01 +4.59472494660E-01
2.67000000000E+09 +7.43133518324E-01 +3.32917717850E-01 -4.32655163142E-05 +3.80036355382E-05 -5.14248970398E-05 -1.39925901353E-07 +7.38725500775E-01 +4.48526122835E-01
2.67500000000E+09 +7.45568644922E-01 +3.19758737141E-01 +1.00101291272E-05 -8.11495868671E-05 +2.25123919509E-05 -9.78185254490E-05 +7.42882581522E-01 +4.37268878504E-01
2.68000000000E+09 +7.47188094791E-01 +3.05922997379E-01 -1.30502271353E-04 -1.37046489081E-04 -1.20334485376E-04 -1.00953842161E-04 +7.46683075584E-01 +4.25951101820E-01
2.68500000000E+09 +7.48410701741E-01 +2.92206452720E-01 -1.94576390263E-04 -6.93369712292E-06 -2.32739681355E-04 -6.98960958801E-05 +7.49625201059E-01 +4.14961537546E-01
2.69000000000E+09 +7.49299850919E-01 +2.78020888977E-01 -9.24955543062E-05 +4.00768415069E-05 -6.81943015482E-05 +2.35687686855E-05 +7.52436578158E-01 +4.03314293489E-01
2.69500000000E+09 +7.50014466330E-01 +2.64091770221E-01 -2.93180958917E-05 -2.52240481395E-05 -1.97304160535E-05 -6.37277010707E-05 +7.55204201168E-01 +3.91201441570E-01
2.70000000000E+09 +7.50515185323E-01 +2.50197510693E-01 -7.36891959835E-05 -2.10008199252E-04 -6.00003811350E-05 -1.85980669509E-04 +7.58068414927E-01 +3.78124530182E-01
2.70500000000E+09 +7.51137868013E-01 +2.36684164219E-01 -2.97567617501E-04 -1.62861222216E-04 -2.47879302008E-04 -1.44617619381E-04 +7.60965713681E-01 +3.65118608552E-01
2.71000000000E+09 +7.51709244518E-01 +2.23471780388E-01 -3.55237512388E-04 -1.55235739387E-05 -3.05947948706E-04 -6.69189065821E-05 +7.64036825504E-01 +3.51986536778E-01
2.71500000000E+09 +7.52893332140E-01 +2.09913155135E-01 -3.27120835765E-04 +1.17541021058E-04 -2.98533427651E-04 +1.09848562554E-04 +7.66399083754E-01 +3.39235967360E-01
2.72000000000E+09 +7.53708238832E-01 +1.95631183348E-01 -1.71045612379E-04 +1.45875335551E-04 -1.82720621964E-04 +1.49072450847E-04 +7.68187188763E-01 +3.26947158691E-01
2.72500000000E+09 +7.53963244573E-01 +1.80482474758E-01 -2.02163797024E-04 +5.54714041928E-05 -2.27382795353E-04 +5.25422782408E-05 +7.69794087182E-01 +3.13626654425E-01
2.73000000000E+09 +7.53142532371E-01 +1.64408736644E-01 -2.82328418761E-04 +2.30156806354E-04 -1.62103048551E-04 +2.15997136357E-04 +7.71318556343E-01 +2.99833623080E-01
2.73500000000E+09 +7.50963246592E-01 +1.47801200850E-01 -7.31987003201E-05 +1.75992959660E-04 -5.74858450658E-05 +1.40303097007E-04 +7.72314527827E-01 +2.84835597455E-01
2.74000000000E+09 +7.47836744589E-01 +1.31430618400E-01 -8.60819052040E-05 +1.16396739490E-04 -8.42472632159E-05 +6.63481413766E-05 +7.73689857463E-01 +2.70024061206E-01
2.74500000000E+09 +7.43931266621E-01 +1.14668948851E-01 -7.55326918063E-05 +8.95114670335E-05 -1.04403794827E-04 +5.89001389133E-05 +7.74676479277E-01 +2.54800542973E-01
2.75000000000E+09 +7.39387520442E-01 +9.80449778576E-02 -1.08914959607E-04 +2.89692074829E-05 -1.41637026637E-04 +2.04686272550E-05 +7.75593312346E-01 +2.39976815208E-01
2.75500000000E+09 +7.34560203761E-01 +8.13861360786E-02 -2.29365498424E-04 +1.75525084576E-05 -2.46052521125E-04 -1.14420024485E-05 +7.75618982186E-01 +2.24680604660E-01
2.76000000000E+09 +7.29692226094E-01 +6.47366016343E-02 -2.98829570103E-04 +6.12615773379E-05 -3.42092066551E-04 +5.72668726985E-05 +7.74553552679E-01 +2.09173653639E-01
2.76500000000E+09 +7.25040836690E-01 +4.79370150478E-02 -3.25135641199E-04 +2.43659819843E-04 -3.24773809534E-04 +2.06267399983E-04 +7.73547819988E-01 +1.93580364380E-01
2.77000000000E+09 +7.21031978801E-01 +3.05162808102E-02 -2.71584914808E-04 +3.04251010213E-04 -2.85056987668E-04 +3.80351668775E-04 +7.72876785715E-01 +1.76894811696E-01
2.77500000000E+09 +7.17098557524E-01 +1.21950412038E-02 -2.18987827906E-04 +3.56676428969E-04 -1.82879890014E-04 +3.54633391576E-04 +7.71783921121E-01 +1.59557351947E-01
2.78000000000E+09 +7.13176826521E-01 -7.25188123052E-03 -1.41739107865E-04 +3.27072119841E-04 -8.72614442361E-05 +3.21777299472E-04 +7.70162570434E-01 +1.41565705861E-01
2.78500000000E+09 +7.08278122057E-01 -2.76436505857E-02 -2.46257183163E-04 +3.11049563896E-04 -2.31270481130E-04 +3.45437497874E-04 +7.67590372135E-01 +1.24389555037E-01
2.79000000000E+09 +7.02579525548E-01 -4.83172957614E-02 -3.02966007076E-04 +5.31997886332E-04 -2.57349515696E-04 +4.60411323976E-04 +7.65073236603E-01 +1.07715189455E-01
2.79500000000E+09 +6.95602596606E-01 -6.85524073349E-02 -1.07482601863E-04 +6.01142646606E-04 -1.13502096137E-04 +6.07427954924E-04 +7.61991036473E-01 +8.95013701580E-02
2.80000000000E+09 +6.87253579822E-01 -8.84019605818E-02 -5.62571235254E-06 +7.15987291033E-04 +1.81976278665E-05 +6.56019515742E-04 +7.57553419368E-01 +7.05769142206E-02
2.80500000000E+09 +6.78067807262E-01 -1.06884028552E-01 +7.95329579310E-05 +6.36064130428E-04 +5.67572113253E-05 +5.85441022874E-04 +7.52242722557E-01 +5.14141776439E-02
2.81000000000E+09 +6.67776322879E-01 -1.24300538996E-01 +1.24858386964E-04 +7.41372180989E-04 +1.32231655675E-04 +7.53291253734E-04 +7.46629946853E-01 +3.18141517575E-02
2.81500000000E+09 +6.56630311234E-01 -1.40845766489E-01 +3.66564100253E-04 +7.64101000361E-04 +4.31731750243E-04 +7.24221982918E-04 +7.40284561538E-01 +1.13725734039E-02
2.82000000000E+09 +6.44506491538E-01 -1.57365216371E-01 +3.67118531381E-04 +6.30879333457E-04 +3.85376747736E-04 +5.97297360059E-04 +7.33065558680E-01 -8.83239184450E-03
2.82500000000E+09 +6.31087629391E-01 -1.73651669037E-01 +4.58172330532E-04 +6.56160696077E-04 +4.65319319869E-04 +6.36426082363E-04 +7.24046302335E-01 -2.97615217996E-02
2.83000000000E+09 +6.16614525728E-01 -1.90648561983E-01 +7.96250162125E-04 +7.33356483718E-04 +7.13837158893E-04 +6.73685844380E-04 +7.13702577645E-01 -4.98866337073E-02
2.83500000000E+09 +6.00547025941E-01 -2.08947645752E-01 +8.97699749402E-04 +5.37230011255E-04 +8.88060675538E-04 +5.68819721879E-04 +7.03015561345E-01 -6.95893610148E-02
2.84000000000E+09 +5.81123243477E-01 -2.27722364424E-01 +1.04963696433E-03 +1.75253918671E-04 +1.07588837718E-03 +2.35620730071E-04 +6.91917846018E-01 -9.00942262796E-02
2.84500000000E+09 +5.60300288202E-01 -2.46037999058E-01 +8.10938292596E-04 -1.64975859506E-05 +8.29850632597E-04 -3.43577163363E-05 +6.79440946179E-01 -1.10973744107E-01
2.85000000000E+09 +5.38111747889E-01 -2.64044452963E-01 +7.25997190034E-04 +1.72395460195E-04 +7.50648288589E-04 +1.39814778880E-04 +6.64995486149E-01 -1.31563546984E-01
2.85500000000E+09 +5.14533482071E-01 -2.81809425385E-01 +9.25642522155E-04 +2.68276032545E-04 +9.11825836104E-04 +1.75866922191E-04 +6.50061658802E-01 -1.51164590858E-01
2.86000000000E+09 +4.90103977822E-01 -2.98609042209E-01 +1.42705645103E-03 -3.82177335283E-05 +1.38038979915E-03 +1.98401227838E-05 +6.33775330373E-01 -1.71325500076E-01
2.86500000000E+09 +4.65027635185E-01 -3.13755307816E-01 +1.32255376377E-03 -6.07616721540E-04 +1.36534536924E-03 -6.04156644886E-04 +6.16009482908E-01 -1.90955093777E-01
2.87000000000E+09 +4.40233809999E-01 -3.27418759936E-01 +9.61770616119E-04 -8.37714049490E-04 +9.77946205627E-04 -8.64864818063E-04 +5.97188668247E-01 -2.10136552769E-01
2.87500000000E+09 +4.15699790173E-01 -3.40077074168E-01 +6.24251744261E-04 -8.24413929027E-04 +6.20430368448E-04 -8.66324488263E-04 +5.77408331247E-01 -2.29363807993E-01
2.88000000000E+09 +3.90678308428E-01 -3.52191849577E-01 +6.50436464397E-04 -7.29195999200E-04 +6.06690972693E-04 -7.62197278004E-04 +5.56553228869E-01 -2.47849063988E-01
2.88500000000E+09 +3.64279995757E-01 -3.63265793525E-01 +6.93252964949E-04 -8.37622061209E-04 +6.00551668712E-04 -8.04083221830E-04 +5.34425117391E-01 -2.66034250077E-01
2.89000000000E+09 +3.36705741735E-01 -3.72743182815E-01 +6.10359750407E-04 -1.02260558028E-03 +5.86391177107E-04 -9.38206695833E-04 +5.10650986211E-01 -2.83603756800E-01
2.89500000000E+09 +3.07952983507E-01 -3.80801051051E-01 +5.55666514489E-04 -1.25683148358E-03 +5.77484698703E-04 -1.14358955777E-03 +4.85162171401E-01 -3.01668341915E-01
2.90000000000E+09 +2.77624603058E-01 -3.87701310769E-01 +1.49593524039E-05 -1.25518767025E-03 +6.24653077450E-05 -1.24985478275E-03 +4.56615330752E-01 -3.18825017676E-01
2.90500000000E+09 +2.45489730271E-01 -3.92427803138E-01 +2.06539838054E-04 -1.11637271903E-03 +1.74702511808E-04 -1.12111327896E-03 +4.27291137605E-01 -3.33555875461E-01
2.91000000000E+09 +2.12818299688E-01 -3.94422483384E-01 -2.84816993300E-06 -1.60118738342E-03 -5.91019847061E-05 -1.63614989601E-03 +3.97482057691E-01 -3.47796522924E-01
2.91500000000E+09 +1.80174449811E-01 -3.94956396172E-01 -7.06249958377E-04 -1.31221664543E-03 -7.15181284846E-04 -1.26262239323E-03 +3.65714472522E-01 -3.60306693374E-01
2.92000000000E+09 +1.46873444249E-01 -3.93493080817E-01 -5.25717274838E-04 -9.67613918060E-04 -5.74294939704E-04 -9.46436890503E-04 +3.32817326446E-01 -3.70488099186E-01
2.92500000000E+09 +1.13854092353E-01 -3.89901719899E-01 -7.06661899155E-04 -1.17853964058E-03 -6.19665182448E-04 -1.13379349105E-03 +2.98603977855E-01 -3.78807677916E-01
2.93000000000E+09 +8.15368298093E-02 -3.84489375445E-01 -1.12564881263E-03 -1.04434198285E-03 -1.02939500608E-03 -1.14012333965E-03 +2.62760664193E-01 -3.86092701342E-01
2.93500000000E+09 +4.90936899603E-02 -3.77913082985E-01 -1.24083737611E-03 -4.77131938593E-04 -1.25307362192E-03 -5.14904366927E-04 +2.24325420310E-01 -3.91318435565E-01
2.94000000000E+09 +1.63515097897E-02 -3.68707781388E-01 -9.82974322873E-04 -2.89853669308E-04 -9.45906437942E-04 -3.21215541778E-04 +1.85378231510E-01 -3.94040573888E-01
2.94500000000E+09 -1.57175752294E-02 -3.56962603547E-01 -9.16399409929E-04 -5.08546777133E-04 -9.11527899024E-04 -5.15056256649E-04 +1.45085040341E-01 -3.94415888891E-01
2.95000000000E+09 -4.77904579445E-02 -3.42792739265E-01 -1.23906110914E-03 -3.15070176013E-04 -1.21707064411E-03 -3.38250825443E-04 +1.06225063584E-01 -3.90931805505E-01
2.95500000000E+09 -7.92074220708E-02 -3.25083373753E-01 -1.22380962124E-03 +1.29382868164E-05 -1.27282485496E-03 -6.96443175868E-05 +6.72409343738E-02 -3.86696194473E-01
2.96000000000E+09 -1.09035154282E-01 -3.04753316879E-01 -1.30224141974E-03 +8.18996359532E-05 -1.35569470302E-03 +7.76792299164E-05 +2.67017790099E-02 -3.78337419104E-01
2.96500000000E+09 -1.37298802436E-01 -2.82507950257E-01 -1.11589430542E-03 +5.56844799800E-04 -1.22046863149E-03 +6.36119786661E-04 -1.24461307520E-02 -3.67625797611E-01
2.97000000000E+09 -1.65069384126E-01 -2.57954466489E-01 -7.26883275014E-04 +5.84616286613E-04 -6.66234445615E-04 +6.21427427733E-04 -5.38569672160E-02 -3.54631426533E-01
2.97500000000E+09 -1.90718439635E-01 -2.30830359479E-01 -6.77183465738E-04 +3.29357761100E-04 -6.26652563028E-04 +3.97029480378E-04 -9.32012227294E-02 -3.36960799003E-01
2.98000000000E+09 -2.14665428487E-01 -2.02412792855E-01 -8.54170722030E-04 +4.23757188693E-04 -8.65269906763E-04 +4.00290805607E-04 -1.31874263831E-01 -3.17652758238E-01
2.98500000000E+09 -2.36490291232E-01 -1.73073827733E-01 -8.16272563327E-04 +7.54297975866E-04 -8.05975870284E-04 +6.89981874544E-04 -1.68739165535E-01 -2.94564926243E-01
2.99000000000E+09 -2.57037272253E-01 -1.43062544570E-01 -4.76004586764E-04 +5.53690026490E-04 -4.86891761422E-04 +6.35671372112E-04 -2.03710198349E-01 -2.68846598004E-01
2.99500000000E+09 -2.75639110794E-01 -1.12267602288E-01 -7.59134037268E-04 +6.84201314959E-04 -7.74256227695E-04 +6.97011989746E-04 -2.36892011638E-01 -2.39387976576E-01
3.00000000000E+09 -2.92639507560E-01 -8.09198887270E-02 -4.87132185586E-04 +1.02594194166E-03 -4.77569213337E-04 +1.02586229216E-03 -2.66842867398E-01 -2.08724621517E-01
3.00500000000E+09 -3.07313678354E-01 -4.93290385586E-02 -4.53069646296E-04 +9.32146162087E-04 -2.96460425100E-04 +8.96212804254E-04 -2.96098305477E-01 -1.76242879467E-01
3.01000000000E+09 -3.19286330662E-01 -1.75174086124E-02 -1.39544879975E-04 +1.00958342765E-03 -1.27370683419E-04 +1.00009693813E-03 -3.22149591511E-01 -1.41927167941E-01
3.01500000000E+09 -3.28580355968E-01 +1.34226435015E-02 +1.49100328831E-04 +1.01921867085E-03 +7.52914782263E-05 +1.06246648009E-03 -3.46158212167E-01 -1.06113101503E-01
3.02000000000E+09 -3.35630176449E-01 +4.48266894299E-02 +3.67539760334E-04 +8.24630464171E-04 +2.62495117768E-04 +8.77888895498E-04 -3.66319622330E-01 -6.89006881799E-02
3.02500000000E+09 -3.39098597917E-01 +7.54125370666E-02 +5.58179162541E-04 +6.07778019256E-04 +5.64034307130E-04 +5.97952986813E-04 -3.83528455060E-01 -3.07894189527E-02
3.03000000000E+09 -3.40099521177E-01 +1.05516449219E-01 +1.35221539963E-04 +2.39300318664E-04 +8.84151443689E-05 +1.93577297863E-04 -3.97823458048E-01 +7.97506434438E-03
3.03500000000E+09 -3.38764357865E-01 +1.35078774413E-01 -6.91011857363E-05 +6.96358186798E-04 -1.15118812356E-04 +7.15320391088E-04 -4.09357217842E-01 +4.67751075493E-02
3.04000000000E+09 -3.35114815628E-01 +1.64824046890E-01 +4.75969101946E-04 +5.34278899046E-04 +4.23473867876E-04 +6.00236832820E-04 -4.19111006786E-01 +8.59131330687E-02
3.04500000000E+09 -3.28974360631E-01 +1.94254696497E-01 +1.97082619969E-04 +6.79261408287E-04 +1.59303433783E-04 +7.14581881954E-04 -4.25446052287E-01 +1.25289561515E-01
3.05000000000E+09 -3.21122626384E-01 +2.23260086222E-01 +7.04387902828E-04 +6.85764899680E-04 +8.14163858492E-04 +7.20593139306E-04 -4.29287191280E-01 +1.64232783576E-01
3.05500000000E+09 -3.11241513589E-01 +2.51757127183E-01 +5.99652635850E-04 +2.74866701988E-04 +6.27497841412E-04 +2.38150443300E-04 -4.30705081075E-01 +2.02163074069E-01
3.06000000000E+09 -3.00754845453E-01 +2.79170038807E-01 +5.52689461169E-04 +1.24275050317E-04 +5.46484093298E-04 +7.76803704306E-05 -4.29944913005E-01 +2.40365224124E-01
3.06500000000E+09 -2.89189618287E-01 +3.06276491061E-01 +4.17782507162E-04 +1.09546026308E-04 +3.81324628154E-04 +7.09790678115E-05 -4.26570139808E-01 +2.78082178076E-01
3.07000000000E+09 -2.76594881774E-01 +3.31826731680E-01 +4.07730296418E-04 +2.65944847960E-04 +4.59285574869E-04 +3.44528341291E-04 -4.20499244572E-01 +3.14063469352E-01
