# Hz S RI R 50
! CMT, C1220, 16058040, 17.2.0/1
! Date: 15/08/2018 10:27:15
! Data: Format (Calibration Info)
! Freq                      S11: Re/Im (F2)                       S21: Re/Im (F2)                       S12: Re/Im (F2)                       S22: Re/Im (F2)            
2.50000000000E+09 +5.81900106816E-01 +6.42800475912E-01 +3.20077853111E-04 +3.98274483876E-05 +3.44340550060E-04 +6.23843109399E-05 +5.69567101490E-01 +7.20756957673E-01
2.50500000000E+09 +5.89087738012E-01 +6.35133210682E-01 +3.91388813804E-04 -1.19607412896E-05 +4.29087153869E-04 +8.59206339485E-06 +5.75502320195E-01 +7.14760903664E-01
2.51000000000E+09 +5.96545878694E-01 +6.27102563460E-01 +3.45865246264E-04 -9.45194111443E-05 +3.40326023871E-04 -1.44250618110E-04 +5.81427848461E-01 +7.09071366645E-01
2.51500000000E+09 +6.03716920392E-01 +6.19390250104E-01 +3.18836291188E-04 -1.39850455086E-04 +3.73227465901E-04 -1.30300302726E-04 +5.86742551074E-01 +7.03281673883E-01
2.52000000000E+09 +6.10522985264E-01 +6.11626318129E-01 +3.55508488848E-04 -1.78938103541E-04 +3.24830470264E-04 -2.30343622923E-04 +5.91922355128E-01 +6.96867482110E-01
2.52500000000E+09 +6.16405543899E-01 +6.04203237262E-01 +2.69852103620E-04 -2.72402111949E-04 +3.01731650703E-04 -2.40187942045E-04 +5.97691676290E-01 +6.90163607242E-01
2.53000000000E+09 +6.21629381070E-01 +5.97313549520E-01 +2.46492938884E-04 -3.13933744826E-04 +2.59033288052E-04 -3.36401340722E-04 +6.03653155095E-01 +6.82892883568E-01
2.53500000000E+09 +6.26358339956E-01 +5.90845128335E-01 +1.97623809910E-04 -2.60020117935E-04 +2.13778043769E-04 -3.21233839894E-04 +6.09198625415E-01 +6.75934325475E-01
2.54000000000E+09 +6.30710715014E-01 +5.84541013709E-01 +1.62341082571E-04 -2.82283569834E-04 +1.56483006586E-04 -2.39559193870E-04 +6.14743960231E-01 +6.69222872917E-01
2.54500000000E+09 +6.35172542159E-01 +5.78556724419E-01 +1.18130162990E-04 -2.83308117970E-04 +1.44253176448E-04 -3.16024313716E-04 +6.20110733062E-01 +6.62617909191E-01
2.55000000000E+09 +6.40129447535E-01 +5.72247567819E-01 +1.40919251355E-04 -2.14856956699E-04 +1.65318306995E-04 -2.48181770005E-04 +6.24751250492E-01 +6.56423666042E-01
2.55500000000E+09 +6.45414852610E-01 +5.65314603993E-01 +1.80484926116E-04 -3.55072724092E-04 +1.69880168522E-04 -4.00476609506E-04 +6.29525729459E-01 +6.50274692637E-01
2.56000000000E+09 +6.51436536795E-01 +5.58373877854E-01 +6.23174804867E-05 -4.61857356409E-04 -1.15458521195E-06 -5.18753125612E-04 +6.34413935828E-01 +6.43526438545E-01
2.56500000000E+09 +6.57837355689E-01 +5.50538242267E-01 -2.28904740816E-05 -4.04717362007E-04 -6.75486874792E-05 -4.94420518933E-04 +6.39818766452E-01 +6.36564215132E-01
2.57000000000E+09 +6.63922479569E-01 +5.42457468163E-01 -8.15759605876E-05 -4.43723300848E-04 -2.01530381166E-04 -3.59741642248E-04 +6.45234849260E-01 +6.28937447342E-01
2.57500000000E+09 +6.70094250425E-01 +5.34350349900E-01 -1.77549559590E-04 -3.17343202338E-04 -1.94194525267E-04 -2.23490055635E-04 +6.50858940465E-01 +6.21631624363E-01
2.58000000000E+09 +6.75484870527E-01 +5.26145737244E-01 -1.69817541876E-04 -2.18528601060E-04 -1.51130907111E-04 -1.53868769263E-04 +6.55977610432E-01 +6.14422758841E-01
2.58500000000E+09 +6.80222664564E-01 +5.17815718671E-01 -7.60470254198E-05 -2.18710103598E-04 -8.15370817721E-05 -2.67728591542E-04 +6.61230089975E-01 +6.06766791859E-01
2.59000000000E+09 +6.84361398813E-01 +5.10069365279E-01 -1.41017519851E-04 -2.40303925710E-04 -1.29009214239E-04 -2.10807100992E-04 +6.66195733206E-01 +5.99259035112E-01
2.59500000000E+09 +6.88376025173E-01 +5.02237954531E-01 -1.57667655566E-04 -2.50172091746E-04 -1.31453734550E-04 -2.39079645548E-04 +6.71469638224E-01 +5.91149871524E-01
2.60000000000E+09 +6.92312796844E-01 +4.93907996152E-01 -1.93111631147E-04 -2.47487557691E-04 -1.82585678774E-04 -1.91574381752E-04 +6.76965077650E-01 +5.82671467051E-01
2.60500000000E+09 +6.96579578228E-01 +4.84653874101E-01 -2.57654195911E-04 -1.76430768751E-04 -2.25342304877E-04 -2.17531972148E-04 +6.82578550495E-01 +5.73884897146E-01
2.61000000000E+09 +7.00868769145E-01 +4.74428737048E-01 -1.46544418477E-04 -2.14252500218E-04 -1.04596930106E-04 -1.81059586842E-04 +6.87676084665E-01 +5.64736132438E-01
2.61500000000E+09 +7.05822812039E-01 +4.62976912652E-01 -2.18749807110E-04 -2.65552455370E-04 -2.22492698544E-04 -2.90117524748E-04 +6.92414048683E-01 +5.55997972740E-01
2.62000000000E+09 +7.10563325111E-01 +4.50414044986E-01 -3.15878776548E-04 -1.68707137641E-04 -3.80360159934E-04 -1.10866516233E-04 +6.96996725950E-01 +5.47036652110E-01
2.62500000000E+09 +7.15307866012E-01 +4.37215689824E-01 -2.73107584894E-04 -1.23181425181E-04 -2.78750775835E-04 -1.32067665937E-04 +7.01592902545E-01 +5.38009501147E-01
2.63000000000E+09 +7.20028560798E-01 +4.23714842005E-01 -2.85208142279E-04 -1.34517044441E-04 -2.97670777324E-04 -1.15045835742E-04 +7.06078298659E-01 +5.28769571464E-01
2.63500000000E+09 +7.24078656365E-01 +4.10188490582E-01 -3.07176190943E-04 -6.09376504790E-05 -2.61703957597E-04 -1.13024106098E-05 +7.10547860139E-01 +5.19470592347E-01
2.64000000000E+09 +7.27696293618E-01 +3.97344306544E-01 -3.07184255365E-04 -6.04210834815E-05 -2.68214445057E-04 -9.75052567259E-05 +7.15029257877E-01 +5.09695299546E-01
2.64500000000E+09 +7.30982679690E-01 +3.85535973142E-01 -3.45329479958E-04 +5.02800130160E-05 -2.94466425342E-04 +2.65319755689E-05 +7.19452805886E-01 +5.00081147706E-01
2.65000000000E+09 +7.34030379494E-01 +3.74657316261E-01 -2.33917078900E-04 +3.97889931900E-05 -2.60526680393E-04 +1.78475641090E-05 +7.23745398600E-01 +4.90169018699E-01
2.65500000000E+09 +7.37211090325E-01 +3.63734931721E-01 -2.96635790752E-04 -7.42185652341E-06 -3.20760428850E-04 -8.28479057476E-05 +7.27449139208E-01 +4.79615443807E-01
2.66000000000E+09 +7.40524790109E-01 +3.52946169615E-01 -3.45975394351E-04 +7.41364672408E-05 -3.93411782413E-04 +1.06918727195E-04 +7.31331189606E-01 +4.68712410336E-01
2.66500000000E+09 +7.43705610408E-01 +3.41711233952E-01 -2.68308486744E-04 +1.11242581638E-04 -2.90844854349E-04 +1.04569619958E-04 +7.35442549122E-01 +4.57452802248E-01
2.67000000000E+09 +7.46536775393E-01 +3.29482603522E-01 -2.91088042772E-04 +9.29053630704E-05 -2.84339456685E-04 +1.27300568278E-04 +7.39747868075E-01 +4.46600177517E-01
2.67500000000E+09 +7.48792627737E-01 +3.16222494999E-01 -2.69241862797E-04 +8.94563079569E-05 -3.04242678656E-04 +1.75139919408E-04 +7.43920766204E-01 +4.35318334820E-01
2.68000000000E+09 +7.50428800798E-01 +3.02269870583E-01 -3.23754397984E-04 +2.24197814286E-04 -3.19440292241E-04 +2.37028603705E-04 +7.47587537166E-01 +4.24004852188E-01
2.68500000000E+09 +7.51501194060E-01 +2.88023051904E-01 -1.93698303742E-04 +2.57011256955E-04 -1.94058831867E-04 +2.89519354684E-04 +7.50335781263E-01 +4.12668190231E-01
2.69000000000E+09 +7.52168120487E-01 +2.73557517596E-01 -9.69707734899E-05 +2.97410441836E-04 -1.18434598443E-04 +2.44051394144E-04 +7.52884594862E-01 +4.01008373393E-01
2.69500000000E+09 +7.52540787173E-01 +2.59421971647E-01 -1.13619948841E-04 +1.12589127425E-04 -7.85404320231E-05 +1.75812696336E-04 +7.55520308262E-01 +3.88738554569E-01
2.70000000000E+09 +7.52968554275E-01 +2.45350131633E-01 -2.05947797638E-04 +1.18656608136E-04 -1.41558533948E-04 +1.62477143914E-04 +7.58142672726E-01 +3.75691740440E-01
2.70500000000E+09 +7.53211339162E-01 +2.32075664514E-01 -1.85641829052E-04 +1.51098391569E-04 -1.82554862601E-04 +1.55762232165E-04 +7.60809106312E-01 +3.62686879741E-01
2.71000000000E+09 +7.54042122108E-01 +2.18666014402E-01 -2.29221622063E-04 +2.70830463692E-04 -2.57772124008E-04 +2.13243098721E-04 +7.63699094030E-01 +3.49692815329E-01
2.71500000000E+09 +7.54930943987E-01 +2.04674925372E-01 -1.07437618070E-04 +3.62489911750E-04 -1.45536966541E-04 +3.84711905886E-04 +7.66055350337E-01 +3.37045565754E-01
2.72000000000E+09 +7.55516386433E-01 +1.90297112560E-01 -2.98662637017E-05 +2.23353337165E-04 -3.40293645407E-05 +2.18609656015E-04 +7.67736342636E-01 +3.24607892886E-01
2.72500000000E+09 +7.55563533722E-01 +1.74809986554E-01 -2.41350737083E-04 +2.41356166029E-04 -1.93181670220E-04 +2.46513640687E-04 +7.69037014390E-01 +3.11456293414E-01
2.73000000000E+09 +7.54518668402E-01 +1.58770371116E-01 -1.53194917471E-04 +5.28849702967E-04 -1.00338841712E-04 +5.30153356464E-04 +7.70224238989E-01 +2.97626024616E-01
2.73500000000E+09 +7.52323775538E-01 +1.41750285386E-01 +1.77203635607E-04 +4.10887162583E-04 +1.40368939627E-04 +3.30486032109E-04 +7.71119827492E-01 +2.82823587870E-01
2.74000000000E+09 +7.49178289430E-01 +1.24986549440E-01 +8.34733582406E-05 +1.96383768070E-04 +5.33078120119E-05 +1.93865420698E-04 +7.72199681130E-01 +2.68007099900E-01
2.74500000000E+09 +7.44975520968E-01 +1.07726542965E-01 +3.76662080910E-05 +2.47967355802E-04 +4.44918984994E-05 +2.29012363015E-04 +7.73127644781E-01 +2.52978991709E-01
2.75000000000E+09 +7.39613714357E-01 +9.06663342183E-02 -3.29571853447E-05 +2.79947589143E-04 -7.14635125509E-05 +2.93687678473E-04 +7.73759703092E-01 +2.38351121795E-01
2.75500000000E+09 +7.34101945284E-01 +7.37664419063E-02 +5.80220990962E-05 +3.06127845500E-04 +6.23288696153E-05 +3.03513543948E-04 +7.73634468450E-01 +2.23309095878E-01
2.76000000000E+09 +7.28769005680E-01 +5.70919636881E-02 +1.05211032675E-04 +2.96760434272E-04 +1.07235174044E-04 +3.46971823360E-04 +7.72612720894E-01 +2.08183008332E-01
2.76500000000E+09 +7.23702036372E-01 +4.02444010108E-02 +1.24812972154E-04 +3.02113588245E-04 +8.14234508044E-05 +2.77192991694E-04 +7.71361191689E-01 +1.92608344012E-01
2.77000000000E+09 +7.19047179899E-01 +2.26344875969E-02 +1.74387034902E-04 +3.68524740006E-04 +1.76109816816E-04 +3.68663977849E-04 +7.70472751695E-01 +1.76224041413E-01
2.77500000000E+09 +7.14303046970E-01 +3.91763475573E-03 +1.69667929024E-04 +2.42731918212E-04 +2.10106496852E-04 +2.11276045398E-04 +7.69072291587E-01 +1.59054378085E-01
2.78000000000E+09 +7.09583198079E-01 -1.51963053363E-02 +2.29455722943E-04 +1.66426797563E-04 +2.40417698002E-04 +1.89773696922E-04 +7.67460107770E-01 +1.41905962225E-01
2.78500000000E+09 +7.04129476874E-01 -3.54066259171E-02 +7.60420327863E-05 +5.28437818966E-05 +6.39414579895E-05 +5.67129758624E-05 +7.65236661435E-01 +1.25049421772E-01
2.79000000000E+09 +6.97903518601E-01 -5.59111797532E-02 -8.63316555825E-05 +2.96313716872E-04 -4.83508618823E-05 +2.97409797206E-04 +7.62950357443E-01 +1.08708681506E-01
2.79500000000E+09 +6.90489065278E-01 -7.64617794097E-02 +2.43952252270E-04 +4.98897754770E-04 +2.29729679940E-04 +4.89251925232E-04 +7.60212678572E-01 +9.05277762433E-02
2.80000000000E+09 +6.81225976138E-01 -9.61241098733E-02 +3.57510458498E-04 +4.04320607300E-04 +3.53162213261E-04 +3.99278942459E-04 +7.55739310420E-01 +7.17532372710E-02
2.80500000000E+09 +6.71309938607E-01 -1.14185162269E-01 +3.99571499457E-04 +1.55546067310E-04 +3.69325623351E-04 +1.89597894451E-04 +7.50518386334E-01 +5.30025472606E-02
2.81000000000E+09 +6.60506743142E-01 -1.31260217580E-01 +2.19689886410E-04 +1.67207040224E-04 +2.19097829329E-04 +1.81593955070E-04 +7.45095254230E-01 +3.36298524081E-02
2.81500000000E+09 +6.49189151483E-01 -1.47730657614E-01 +3.23927586509E-04 +3.21487246919E-04 +3.51093062224E-04 +3.21024376095E-04 +7.39066466238E-01 +1.37258977897E-02
2.82000000000E+09 +6.36503784502E-01 -1.64062620804E-01 +4.20252193791E-04 +1.98421829212E-04 +3.97498445371E-04 +1.70348879103E-04 +7.32228964982E-01 -6.70992835070E-03
2.82500000000E+09 +6.22418650835E-01 -1.80507527818E-01 +2.89351035270E-04 +1.87319987028E-04 +2.78509180756E-04 +2.07618451763E-04 +7.23716750073E-01 -2.74008673766E-02
2.83000000000E+09 +6.06765139749E-01 -1.97087685066E-01 +3.51919723774E-04 +4.00271463887E-04 +3.55153054105E-04 +4.37978356192E-04 +7.13884627937E-01 -4.75773750663E-02
2.83500000000E+09 +5.89827472418E-01 -2.14589386231E-01 +6.19510587076E-04 +5.41446736240E-04 +5.70029763737E-04 +5.23977932921E-04 +7.03451513553E-01 -6.74789404318E-02
2.84000000000E+09 +5.70358831380E-01 -2.32707695223E-01 +1.13940176771E-03 +2.84593123885E-04 +1.08791578547E-03 +3.08766112619E-04 +6.92205834803E-01 -8.81756990538E-02
2.84500000000E+09 +5.48567546832E-01 -2.50702336117E-01 +1.07286316185E-03 -2.64023296095E-04 +1.02211307035E-03 -2.83162258499E-04 +6.79747215674E-01 -1.08751997243E-01
2.85000000000E+09 +5.25624263920E-01 -2.68078413340E-01 +7.48008145915E-04 -5.14868866002E-04 +7.55535373249E-04 -4.85705413177E-04 +6.65706914198E-01 -1.29107734725E-01
2.85500000000E+09 +5.01055700917E-01 -2.84904056501E-01 +3.19885228860E-04 -3.51271686037E-04 +2.48200219658E-04 -3.67441502354E-04 +6.50983363925E-01 -1.48524425097E-01
2.86000000000E+09 +4.76040533162E-01 -3.00222298281E-01 +5.93118870319E-04 +1.45519755936E-04 +5.90349733234E-04 +1.48695120732E-04 +6.35635785975E-01 -1.68660642822E-01
2.86500000000E+09 +4.51351289469E-01 -3.14467573986E-01 +1.16767571426E-03 -1.69669973799E-04 +1.15893724146E-03 -1.21845931443E-04 +6.18468035063E-01 -1.88819027652E-01
2.87000000000E+09 +4.25958928109E-01 -3.27873974151E-01 +1.14374935828E-03 -8.62569418219E-04 +1.23406814403E-03 -8.36884337951E-04 +5.99806713256E-01 -2.08711207370E-01
2.87500000000E+09 +4.00413247337E-01 -3.39618602635E-01 +6.45062623156E-04 -1.20575638709E-03 +5.77715117318E-04 -1.22401570213E-03 +5.79849633663E-01 -2.28067618096E-01
2.88000000000E+09 +3.74778147703E-01 -3.50020730000E-01 +1.14439323350E-04 -1.12237093410E-03 +8.75587473796E-05 -1.10071084508E-03 +5.59169805287E-01 -2.46288059405E-01
2.88500000000E+09 +3.48578825976E-01 -3.59582827405E-01 +1.10100330843E-05 -5.69913618962E-04 +2.21590125453E-05 -5.15910330911E-04 +5.37776655105E-01 -2.64762305758E-01
2.89000000000E+09 +3.20965665801E-01 -3.67775411196E-01 +5.87147855582E-04 -6.63889135066E-04 +5.60436640147E-04 -6.00172653227E-04 +5.14060306160E-01 -2.82636551977E-01
2.89500000000E+09 +2.92186842870E-01 -3.74753832098E-01 +5.07088221827E-04 -1.26747739008E-03 +5.45610690246E-04 -1.14937618943E-03 +4.89199911338E-01 -3.01099298651E-01
2.90000000000E+09 +2.61858906777E-01 -3.79825884758E-01 -1.31020443663E-04 -1.41539293960E-03 -4.56273405906E-05 -1.41112001366E-03 +4.60765759363E-01 -3.18834046088E-01
2.90500000000E+09 +2.30319939709E-01 -3.83304647136E-01 -3.21606782252E-04 -1.06993831472E-03 -2.49021962062E-04 -1.08168060771E-03 +4.31684135972E-01 -3.34182280324E-01
2.91000000000E+09 +1.97756875631E-01 -3.83506257553E-01 -3.43965479948E-04 -1.10478361573E-03 -3.71346499325E-04 -1.11280990739E-03 +4.01905329664E-01 -3.49286868920E-01
2.91500000000E+09 +1.65991296165E-01 -3.82840631793E-01 -4.75440390774E-04 -8.76574612442E-04 -4.56474187204E-04 -9.01881065668E-04 +3.70076652025E-01 -3.62387287744E-01
2.92000000000E+09 +1.33122316014E-01 -3.80026246679E-01 -3.82823524058E-04 -1.01400074212E-03 -3.87729958648E-04 -1.04216905639E-03 +3.36884208666E-01 -3.73108193328E-01
2.92500000000E+09 +1.00957986367E-01 -3.74986628748E-01 -7.42319973108E-04 -1.37188250667E-03 -6.07239263509E-04 -1.39386424797E-03 +3.02362825765E-01 -3.81903310300E-01
2.93000000000E+09 +6.97897670378E-02 -3.67918096344E-01 -1.60396298419E-03 -9.78870058201E-04 -1.47044156017E-03 -1.04208359695E-03 +2.66383684142E-01 -3.89577158469E-01
2.93500000000E+09 +3.87886101449E-02 -3.60490829633E-01 -1.32382535032E-03 -5.57194685987E-05 -1.41596904331E-03 -7.48850148755E-05 +2.27815485027E-01 -3.95557835431E-01
2.94000000000E+09 +7.14825499415E-03 -3.50067532863E-01 -8.49543496845E-04 +1.67949235780E-04 -8.39934832710E-04 +1.50473480164E-04 +1.88277586594E-01 -3.99108365727E-01
2.94500000000E+09 -2.33171479703E-02 -3.37208906905E-01 -4.25061248502E-04 -2.63997108838E-04 -4.60475195254E-04 -2.25717658055E-04 +1.47603471392E-01 -3.99875720725E-01
2.95000000000E+09 -5.35395767013E-02 -3.21919079705E-01 -7.84060795266E-04 -7.81938761674E-04 -7.77132218824E-04 -8.09816591209E-04 +1.07792541031E-01 -3.97279124841E-01
2.95500000000E+09 -8.28236232384E-02 -3.03908480930E-01 -1.61862541951E-03 -4.98389375821E-04 -1.66295413179E-03 -5.43865033122E-04 +6.78242772233E-02 -3.93158948477E-01
2.96000000000E+09 -1.10652686909E-01 -2.83109675288E-01 -1.76864711022E-03 +3.86636509842E-04 -1.86840933753E-03 +4.00719041746E-04 +2.62996769479E-02 -3.85089826428E-01
2.96500000000E+09 -1.37245553964E-01 -2.61198521769E-01 -8.92321146573E-04 +1.07637950450E-03 -9.46786887765E-04 +1.22542485405E-03 -1.41163416209E-02 -3.74236260798E-01
2.97000000000E+09 -1.63122051355E-01 -2.36258494195E-01 -1.43095774030E-04 +5.10380944043E-04 -1.16154152980E-04 +5.81056926747E-04 -5.62748224593E-02 -3.60785153740E-01
2.97500000000E+09 -1.86901222268E-01 -2.09617091653E-01 -4.82788738242E-04 -2.93645514782E-04 -4.31492324184E-04 -3.21830839852E-04 -9.65354711119E-02 -3.42996952310E-01
2.98000000000E+09 -2.08538611972E-01 -1.81413351194E-01 -1.61929226924E-03 +2.43493692249E-05 -1.52900086011E-03 +4.95848859488E-05 -1.35863020581E-01 -3.23365777765E-01
2.98500000000E+09 -2.29075609885E-01 -1.53579570006E-01 -1.16376520943E-03 +1.30033709111E-03 -1.23589810317E-03 +1.33103721510E-03 -1.73731003547E-01 -3.00047467351E-01
2.99000000000E+09 -2.48275775184E-01 -1.23371554574E-01 -2.30068840580E-04 +9.74406759471E-04 -2.09193467945E-04 +9.45773187020E-04 -2.09934360655E-01 -2.73372820706E-01
2.99500000000E+09 -2.64686736589E-01 -9.38899936625E-02 -5.17256563366E-04 +3.83175172456E-04 -4.72225174260E-04 +4.44263755053E-04 -2.43942040700E-01 -2.42796535958E-01
3.00000000000E+09 -2.80832308426E-01 -6.35929001711E-02 -9.91251763264E-04 +6.60957171703E-04 -8.94770463131E-04 +6.84047476727E-04 -2.73999102694E-01 -2.10700628404E-01
3.00500000000E+09 -2.93849523068E-01 -3.29015921838E-02 -1.02500012200E-03 +1.30620817825E-03 -9.74893137840E-04 +1.23351892104E-03 -3.03523161188E-01 -1.77496195777E-01
3.01000000000E+09 -3.04196808514E-01 -2.88212753937E-03 -1.60796585183E-04 +1.80185744925E-03 -1.90393468547E-04 +1.70565290686E-03 -3.29800878382E-01 -1.41628315971E-01
3.01500000000E+09 -3.13301460668E-01 +2.64607640524E-02 +6.12800716810E-04 +1.41883100339E-03 +5.58978244035E-04 +1.40884999478E-03 -3.53262013955E-01 -1.04834980193E-01
3.02000000000E+09 -3.19444284157E-01 +5.66064210690E-02 +7.77889918546E-04 +5.98022635672E-04 +7.27202334639E-04 +5.87344671702E-04 -3.73321113631E-01 -6.66984687789E-02
3.02500000000E+09 -3.22251058605E-01 +8.61898387883E-02 +1.16909320863E-04 +1.57920874997E-04 +1.16063091319E-04 +1.23631318095E-04 -3.90285096675E-01 -2.77314135859E-02
3.03000000000E+09 -3.21873426470E-01 +1.14736220222E-01 -4.68971696050E-04 +8.17679659055E-04 -4.68453563975E-04 +7.49726079970E-04 -4.03750969583E-01 +1.18189153784E-02
3.03500000000E+09 -3.20193567126E-01 +1.41737882444E-01 -1.09568801046E-04 +1.47986782786E-03 -1.66689070323E-04 +1.42547012546E-03 -4.15140522513E-01 +5.16793232874E-02
3.04000000000E+09 -3.17027757897E-01 +1.69812598744E-01 +9.46893669088E-04 +1.06286344043E-03 +9.45942446546E-04 +1.09164667008E-03 -4.23602610941E-01 +9.17212418044E-02
3.04500000000E+09 -3.11542173157E-01 +1.97751229082E-01 +7.81719491596E-04 +6.48073694634E-04 +7.32234578870E-04 +7.18201430428E-04 -4.28996724865E-01 +1.31629721880E-01
3.05000000000E+09 -3.03659641129E-01 +2.26257536332E-01 +6.50739638460E-04 +4.72050608906E-04 +6.45411259019E-04 +4.84226678514E-04 -4.31811093803E-01 +1.70515883376E-01
3.05500000000E+09 -2.93541581787E-01 +2.52738556108E-01 +3.85481329518E-04 +7.31393170432E-04 +4.49415474910E-04 +7.45432684685E-04 -4.32699161177E-01 +2.09015378197E-01
3.06000000000E+09 -2.83646133351E-01 +2.78638490517E-01 +1.17379809439E-03 +7.80405004818E-04 +1.19278047523E-03 +7.52099895780E-04 -4.30761835780E-01 +2.47176036975E-01
3.06500000000E+09 -2.73397098537E-01 +3.04379711262E-01 +1.16985667791E-03 +2.99911584303E-05 +1.14220040204E-03 +5.61505984930E-05 -4.26558140795E-01 +2.84703767949E-01
3.07000000000E+09 -2.61423488137E-01 +3.29742874885E-01 +8.14489609349E-04 -1.82981935336E-04 +8.73693461358E-04 -8.39388866733E-05 -4.19677241256E-01 +3.20671257924E-01
