# Hz S RI R 50
! CMT, C1220, 16058040, 17.2.0/1
! Date: 15/08/2018 10:27:57
! Data: Format (Calibration Info)
! Freq                      S11: Re/Im (F2)                       S21: Re/Im (F2)                       S12: Re/Im (F2)                       S22: Re/Im (F2)            
2.50000000000E+09 +5.79614976722E-01 +6.42642011836E-01 +2.01079957290E-04 +3.34489290144E-05 +2.35026779632E-04 -1.69539259945E-06 +5.69234680457E-01 +7.20556229503E-01
2.50500000000E+09 +5.86791820659E-01 +6.35124952645E-01 +2.27353669482E-04 -5.75587141529E-05 +2.80281254186E-04 -4.64311088947E-05 +5.75252670684E-01 +7.14623028512E-01
2.51000000000E+09 +5.94230886234E-01 +6.27188827003E-01 +1.91764277873E-04 -1.43580460168E-04 +1.64556381969E-04 -9.28111515339E-05 +5.81145820495E-01 +7.08932862777E-01
2.51500000000E+09 +6.01519184525E-01 +6.19412780474E-01 +1.74102498066E-04 -3.80788883091E-05 +1.71609290091E-04 -5.73486758660E-05 +5.86527844309E-01 +7.02969731891E-01
2.52000000000E+09 +6.08225891687E-01 +6.11451416276E-01 +2.38324241343E-04 -1.17153730636E-04 +2.19000060477E-04 -6.43116355545E-05 +5.91637192140E-01 +6.96464523478E-01
2.52500000000E+09 +6.14063682347E-01 +6.04277840031E-01 +1.66794272350E-04 -1.42073354040E-04 +1.76403098596E-04 -1.66001288566E-04 +5.97187669436E-01 +6.89795223301E-01
2.53000000000E+09 +6.19273416810E-01 +5.97375544542E-01 +1.36100979772E-04 -2.00474726544E-04 +1.18617805620E-04 -1.92818386086E-04 +6.03066380951E-01 +6.82513533174E-01
2.53500000000E+09 +6.23970876612E-01 +5.90955253537E-01 +8.27714599874E-05 -1.72637020338E-04 +7.82636353711E-05 -1.76756226043E-04 +6.08422698523E-01 +6.75607327362E-01
2.54000000000E+09 +6.28339309889E-01 +5.84747014664E-01 +1.47303773736E-04 -1.35820446405E-04 +1.00969138935E-04 -1.24763042355E-04 +6.14020356123E-01 +6.69014123006E-01
2.54500000000E+09 +6.32742801874E-01 +5.78609596646E-01 +6.68126429757E-05 -1.72144742596E-04 +7.69878750067E-05 -1.93809393397E-04 +6.19284525623E-01 +6.62422871775E-01
2.55000000000E+09 +6.37618541565E-01 +5.72420941167E-01 +7.76505114034E-05 -1.99056176347E-04 +1.51205184827E-04 -1.95063965371E-04 +6.23834488298E-01 +6.56384518472E-01
2.55500000000E+09 +6.42824800012E-01 +5.65664399899E-01 +2.97078716030E-05 -2.64691880460E-04 +1.13665642190E-04 -3.00794561730E-04 +6.28587385661E-01 +6.50336208771E-01
2.56000000000E+09 +6.48880249857E-01 +5.58933323629E-01 +2.20177457084E-05 -3.17092179528E-04 -3.96603715239E-05 -3.46214905738E-04 +6.33582299920E-01 +6.43679650021E-01
2.56500000000E+09 +6.55228453974E-01 +5.51043818628E-01 -5.28462358393E-05 -2.65832748709E-04 -1.10054158017E-04 -3.10403416391E-04 +6.38980432789E-01 +6.36537308482E-01
2.57000000000E+09 +6.61251344773E-01 +5.43189553519E-01 -1.21313186356E-04 -2.95086296736E-04 -1.63950050557E-04 -2.79563670266E-04 +6.44397195748E-01 +6.29100061526E-01
2.57500000000E+09 +6.67421905217E-01 +5.35089417650E-01 -1.75645158418E-04 -1.95858887130E-04 -1.84128479129E-04 -1.76225541575E-04 +6.49829696303E-01 +6.21713023898E-01
2.58000000000E+09 +6.72705903884E-01 +5.27030291873E-01 -1.48432179100E-04 -1.20841884816E-04 -1.41280173634E-04 -8.57046533027E-05 +6.55078926196E-01 +6.14594863212E-01
2.58500000000E+09 +6.77516488835E-01 +5.18890716067E-01 -1.46579171904E-04 -1.22811383827E-04 -1.44859223405E-04 -1.24586946167E-04 +6.60069704360E-01 +6.07086123966E-01
2.59000000000E+09 +6.81645135605E-01 +5.11234970943E-01 -1.74745367669E-04 -1.81052274627E-05 -1.50101343563E-04 -6.04509899778E-05 +6.65188249072E-01 +5.99542905234E-01
2.59500000000E+09 +6.85741655692E-01 +5.03315639319E-01 -8.65186298052E-05 -8.11812713663E-05 -1.18814619703E-04 -1.22592886160E-04 +6.70469202336E-01 +5.91496117579E-01
2.60000000000E+09 +6.89599988262E-01 +4.94936405064E-01 -1.52655393882E-04 +8.24982371320E-06 -1.11591355184E-04 -2.17610633597E-05 +6.75952654427E-01 +5.82832347208E-01
2.60500000000E+09 +6.93697474058E-01 +4.85771631668E-01 -7.71552152776E-05 -3.66458923694E-05 -6.65886122660E-05 -4.74519972661E-05 +6.81385689026E-01 +5.74148549964E-01
2.61000000000E+09 +6.98123953861E-01 +4.75671768877E-01 -5.69865402219E-05 -8.14506245948E-05 -6.65228675613E-05 -6.74059180529E-05 +6.86447850827E-01 +5.65295208280E-01
2.61500000000E+09 +7.03033912003E-01 +4.64402112498E-01 -9.25588461624E-05 -7.80273434152E-05 -1.56656634111E-04 -9.30520148509E-05 +6.91132186310E-01 +5.56712547813E-01
2.62000000000E+09 +7.07836358060E-01 +4.52036944031E-01 -1.03893602098E-04 +2.99321618679E-05 -1.39163963330E-04 -1.41171767855E-05 +6.95762231612E-01 +5.47699053038E-01
2.62500000000E+09 +7.12593753174E-01 +4.38682465431E-01 -2.68209420951E-05 +2.20279157838E-05 +7.24794196476E-08 +1.59122628633E-05 +7.00349256230E-01 +5.38995342126E-01
2.63000000000E+09 +7.17079057171E-01 +4.25303447010E-01 +1.26517477935E-05 -8.60555156949E-05 -2.82191026720E-05 -1.25575856426E-04 +7.04814089153E-01 +5.29842589788E-01
2.63500000000E+09 +7.21045362494E-01 +4.12142280310E-01 -1.63305181107E-04 -7.80729130173E-05 -1.12510771138E-04 -3.47107406621E-05 +7.09494605451E-01 +5.20751888177E-01
2.64000000000E+09 +7.24764441767E-01 +3.99517019708E-01 -3.20097694598E-05 -2.30621711694E-05 -2.29791822018E-05 +2.22091686057E-05 +7.14192263620E-01 +5.11104226317E-01
2.64500000000E+09 +7.28183312231E-01 +3.87724751135E-01 +2.76612844875E-05 -4.71016127471E-05 +2.89447488852E-05 -3.47192731821E-05 +7.18669326975E-01 +5.01459768440E-01
2.65000000000E+09 +7.31243743542E-01 +3.76915203779E-01 +9.17706488488E-05 -1.28564733730E-04 +9.36683634703E-05 -1.44691426122E-04 +7.22973601797E-01 +4.91503144466E-01
2.65500000000E+09 +7.34452340605E-01 +3.66301673180E-01 -5.00123846767E-05 -2.21476601937E-04 -6.24031748797E-05 -2.53093787918E-04 +7.26751759778E-01 +4.81099921370E-01
2.66000000000E+09 +7.37728648128E-01 +3.55714539616E-01 -2.00084845430E-04 -1.23206807281E-04 -1.80636818829E-04 -9.75817439552E-05 +7.30856863009E-01 +4.70265573844E-01
2.66500000000E+09 +7.41061534119E-01 +3.44805398203E-01 -9.59521735133E-05 -1.12835269346E-04 -1.58574464302E-04 -1.32797450907E-04 +7.35270904463E-01 +4.59053510373E-01
2.67000000000E+09 +7.44232632513E-01 +3.32749716388E-01 -1.61907569608E-04 -9.24357445761E-05 -1.55552262534E-04 -7.78690586940E-05 +7.39561860749E-01 +4.48011290621E-01
2.67500000000E+09 +7.46626438089E-01 +3.19524595273E-01 -1.89807340171E-04 -1.71029425547E-04 -8.85481227885E-05 -1.44450101078E-04 +7.43724573176E-01 +4.36540867587E-01
2.68000000000E+09 +7.48225232698E-01 +3.05640529809E-01 -2.70818742149E-04 -1.08068328220E-04 -2.65600487869E-04 -1.24654218360E-04 +7.47267477410E-01 +4.25352699034E-01
2.68500000000E+09 +7.49476511041E-01 +2.91743669229E-01 -2.97939760897E-04 +7.18212172455E-06 -2.40676973204E-04 -9.69417192943E-06 +7.50160506570E-01 +4.14299359175E-01
2.69000000000E+09 +7.50248349811E-01 +2.77387646752E-01 -2.30481635303E-04 +1.05178584511E-04 -1.90300241649E-04 +1.09515818593E-04 +7.53050807926E-01 +4.02721774345E-01
2.69500000000E+09 +7.50811031259E-01 +2.63443714157E-01 -1.19616217209E-04 +6.86671114190E-05 -1.15060917190E-04 +3.45424438313E-05 +7.55589528877E-01 +3.90468032514E-01
2.70000000000E+09 +7.51396673041E-01 +2.49427961415E-01 -2.06724819336E-04 -1.00279641854E-04 -1.32408483756E-04 -6.81938545027E-05 +7.58518996457E-01 +3.77505985123E-01
2.70500000000E+09 +7.51836507913E-01 +2.36070871515E-01 -2.92701633468E-04 -2.76034731540E-05 -2.97824299647E-04 -8.24254167740E-05 +7.61417570329E-01 +3.64492496866E-01
2.71000000000E+09 +7.52436507367E-01 +2.22845860870E-01 -3.76631663148E-04 +3.35415902519E-05 -3.21304469054E-04 +2.16527262995E-05 +7.64548681717E-01 +3.51379806539E-01
2.71500000000E+09 +7.53603600688E-01 +2.09172175502E-01 -3.18276132862E-04 +2.11172154793E-04 -3.36928202957E-04 +2.08823548266E-04 +7.66920159214E-01 +3.38595372386E-01
2.72000000000E+09 +7.54469446168E-01 +1.94992374729E-01 -1.10055846735E-04 +2.49052049680E-04 -1.29236919426E-04 +2.88070084682E-04 +7.68864259368E-01 +3.26170135986E-01
2.72500000000E+09 +7.54826331310E-01 +1.79826797029E-01 -1.74364511626E-04 +1.10492205745E-04 -1.37331363989E-04 +1.02244627243E-04 +7.70339166584E-01 +3.12908081785E-01
2.73000000000E+09 +7.53957268634E-01 +1.63673656841E-01 -2.27677101949E-04 +2.99536317166E-04 -1.70207854926E-04 +2.62245240102E-04 +7.71758203738E-01 +2.98887216792E-01
2.73500000000E+09 +7.51972199928E-01 +1.46857658376E-01 -7.13182883740E-06 +2.47140743157E-04 -2.55705692643E-05 +1.53198179005E-04 +7.72767734255E-01 +2.83724277916E-01
2.74000000000E+09 +7.48910822011E-01 +1.30397974826E-01 -1.07529734105E-04 +1.05201115285E-04 -1.00973931194E-04 +8.82173138496E-05 +7.74028250653E-01 +2.68834017456E-01
2.74500000000E+09 +7.44922885087E-01 +1.13531869878E-01 -8.31379755939E-05 +1.12723863928E-04 -1.39435553056E-04 +1.37283558031E-04 +7.74997242140E-01 +2.53415112960E-01
2.75000000000E+09 +7.40427688637E-01 +9.66915293301E-02 -1.60667278511E-04 +1.23374327422E-04 -2.07376993818E-04 +1.01653191859E-04 +7.75633690175E-01 +2.38636053030E-01
2.75500000000E+09 +7.35429634633E-01 +7.98788324798E-02 -2.50784875003E-04 +1.68927675884E-04 -2.18143200613E-04 +1.61648409523E-04 +7.75557916423E-01 +2.23229990598E-01
2.76000000000E+09 +7.30603760373E-01 +6.30701187135E-02 -2.15777646878E-04 +2.44649014890E-04 -2.81946917609E-04 +2.29278238579E-04 +7.74554136077E-01 +2.07883293777E-01
2.76500000000E+09 +7.25732994641E-01 +4.61627349257E-02 -1.85368673125E-04 +2.99027798212E-04 -1.96783513489E-04 +3.54916346521E-04 +7.73226471014E-01 +1.92117837215E-01
2.77000000000E+09 +7.21407256591E-01 +2.85839349540E-02 -1.12638462961E-04 +3.88381797792E-04 -9.91909262911E-05 +3.63376647505E-04 +7.72289538496E-01 +1.75607620074E-01
2.77500000000E+09 +7.17453948104E-01 +1.00197893356E-02 -9.68856013013E-05 +3.09041894523E-04 -9.33546786278E-05 +3.00845018215E-04 +7.71053445214E-01 +1.58233472135E-01
2.78000000000E+09 +7.13261972092E-01 -9.35093940530E-03 -1.23407001653E-04 +2.97674205133E-04 -5.61526037930E-05 +3.05134679014E-04 +7.69326049063E-01 +1.40552563626E-01
2.78500000000E+09 +7.08419087633E-01 -2.97881776112E-02 -2.39389937996E-04 +3.21540142882E-04 -1.87261031996E-04 +3.62464794677E-04 +7.66637690027E-01 +1.23592667479E-01
2.79000000000E+09 +7.02362787954E-01 -5.05296423404E-02 -2.63444325649E-04 +6.08970912862E-04 -1.58584929204E-04 +5.97416136060E-04 +7.64171738852E-01 +1.06908254216E-01
2.79500000000E+09 +6.95277061565E-01 -7.06852517103E-02 +3.73795936901E-05 +7.32663505314E-04 +6.12696735050E-05 +6.76730832861E-04 +7.60946884477E-01 +8.87453422983E-02
2.80000000000E+09 +6.86846354303E-01 -9.06764741821E-02 +2.53684599236E-04 +7.03972665164E-04 +2.16018325252E-04 +6.57622279398E-04 +7.56431976597E-01 +7.00587843322E-02
2.80500000000E+09 +6.77501936293E-01 -1.09067445613E-01 +2.59329527755E-04 +4.89624531810E-04 +2.48475498757E-04 +4.48534823533E-04 +7.51166604151E-01 +5.09936022656E-02
2.81000000000E+09 +6.66973189568E-01 -1.26573261922E-01 +2.39437785606E-04 +5.61944581267E-04 +2.41188390355E-04 +5.18931228445E-04 +7.45512974781E-01 +3.15217824440E-02
2.81500000000E+09 +6.55831291866E-01 -1.43045440019E-01 +3.87303065801E-04 +6.48978400704E-04 +3.75113090551E-04 +6.09937508759E-04 +7.39145902401E-01 +1.13765875874E-02
2.82000000000E+09 +6.43639601180E-01 -1.59635625340E-01 +3.93418546420E-04 +5.60060907486E-04 +4.82414339308E-04 +5.40642042169E-04 +7.32001743632E-01 -8.98844921133E-03
2.82500000000E+09 +6.30312758569E-01 -1.76003801817E-01 +5.62006873935E-04 +6.90926529230E-04 +4.88077875396E-04 +6.23384548945E-04 +7.23031213861E-01 -2.99039049964E-02
2.83000000000E+09 +6.15661217948E-01 -1.93080330056E-01 +8.64840083904E-04 +6.27865519575E-04 +7.72070236393E-04 +5.37886632203E-04 +7.12669359924E-01 -5.00224178299E-02
2.83500000000E+09 +5.99426667262E-01 -2.11423932679E-01 +9.94269659128E-04 +4.39223852585E-04 +9.31220862170E-04 +4.14315677176E-04 +7.01889892023E-01 -6.95096053154E-02
2.84000000000E+09 +5.80103203684E-01 -2.30188636005E-01 +1.10013627585E-03 +5.18642674472E-05 +1.05571458719E-03 +1.18474858162E-04 +6.90744743024E-01 -9.01205469575E-02
2.84500000000E+09 +5.58972876752E-01 -2.48716801463E-01 +8.30061121303E-04 -7.52599024196E-05 +8.24885414826E-04 -9.79706052212E-05 +6.78036790215E-01 -1.10816266705E-01
2.85000000000E+09 +5.36507785803E-01 -2.66729789517E-01 +8.63416304863E-04 +4.78362509900E-05 +8.69898731142E-04 +5.61900999573E-05 +6.63365756235E-01 -1.31070281268E-01
2.85500000000E+09 +5.12803776795E-01 -2.84495577724E-01 +1.02673999289E-03 -4.69849849019E-05 +1.05244677564E-03 -5.87510286259E-05 +6.48587337337E-01 -1.50242939062E-01
2.86000000000E+09 +4.88073548815E-01 -3.01344143672E-01 +1.29506384172E-03 -2.85965416006E-04 +1.25283099030E-03 -2.85253924181E-04 +6.32610155695E-01 -1.70170208512E-01
2.86500000000E+09 +4.62839860387E-01 -3.16466101962E-01 +1.19822189030E-03 -6.58582307202E-04 +1.19543951592E-03 -6.65724706220E-04 +6.14907525966E-01 -1.89712629160E-01
2.87000000000E+09 +4.37669723956E-01 -3.30167493551E-01 +1.07301344990E-03 -9.69357306647E-04 +1.04924645921E-03 -9.01513595469E-04 +5.96433637249E-01 -2.08896945070E-01
2.87500000000E+09 +4.12647878074E-01 -3.42745764187E-01 +6.63656676721E-04 -1.15472414706E-03 +6.72833439699E-04 -1.12268981851E-03 +5.76687325350E-01 -2.27915547257E-01
2.88000000000E+09 +3.87558978286E-01 -3.54608578007E-01 +4.29671426029E-04 -1.14263868238E-03 +4.34382750780E-04 -1.15943605337E-03 +5.55980704921E-01 -2.46063701766E-01
2.88500000000E+09 +3.60880744834E-01 -3.65591060585E-01 +2.81913797590E-04 -1.01937826889E-03 +3.12084133401E-04 -1.02501856608E-03 +5.34262150598E-01 -2.64281218138E-01
2.89000000000E+09 +3.32904768643E-01 -3.74816253569E-01 +2.39635805195E-04 -1.13698743694E-03 +2.38825902830E-04 -1.06834913398E-03 +5.10484638309E-01 -2.81723614698E-01
2.89500000000E+09 +3.03879706416E-01 -3.82579879152E-01 +2.38657342197E-04 -1.30101112787E-03 +2.79947004587E-04 -1.29276033385E-03 +4.85564303716E-01 -2.99677594102E-01
2.90000000000E+09 +2.73240490174E-01 -3.88861454772E-01 -3.11718870698E-04 -1.18928386145E-03 -2.85827913067E-04 -1.26155070349E-03 +4.57349195778E-01 -3.16834726294E-01
2.90500000000E+09 +2.41237683132E-01 -3.93075665145E-01 -2.07185462355E-04 -1.04373753727E-03 -2.57111948709E-04 -1.11858300175E-03 +4.28245282325E-01 -3.31659448124E-01
2.91000000000E+09 +2.08509582521E-01 -3.94828105691E-01 -4.90892435794E-04 -1.32624893686E-03 -5.07354870205E-04 -1.34652403060E-03 +3.98919768676E-01 -3.46215442005E-01
2.91500000000E+09 +1.75805957408E-01 -3.94999230693E-01 -9.79882548425E-04 -9.35480085503E-04 -9.62792578835E-04 -9.14429669110E-04 +3.67268366113E-01 -3.58984665793E-01
2.92000000000E+09 +1.42661028197E-01 -3.93281474992E-01 -7.13125317712E-04 -5.90044086395E-04 -6.76084696863E-04 -6.36384770250E-04 +3.34659219338E-01 -3.69150420416E-01
2.92500000000E+09 +1.09626074677E-01 -3.89446787049E-01 -7.39305969788E-04 -7.85347929856E-04 -6.72784943040E-04 -7.88367005478E-04 +3.00516135008E-01 -3.77906697184E-01
2.93000000000E+09 +7.73054665871E-02 -3.83597114607E-01 -1.11571190098E-03 -7.25215934932E-04 -1.09740767455E-03 -8.20021988101E-04 +2.64735967991E-01 -3.85367119000E-01
2.93500000000E+09 +4.51558704688E-02 -3.76782394312E-01 -1.21995280244E-03 -6.15839718907E-05 -1.27771579961E-03 -6.26380466053E-05 +2.26580947528E-01 -3.91073382266E-01
2.94000000000E+09 +1.24675612749E-02 -3.67467496733E-01 -7.60161634638E-04 +1.66636872950E-04 -7.96925346277E-04 +1.60033220232E-04 +1.87283402746E-01 -3.94191729755E-01
2.94500000000E+09 -1.94072173467E-02 -3.55501130373E-01 -5.10237427367E-04 -2.40416822445E-04 -5.33463989521E-04 -1.81081774728E-04 +1.46935503259E-01 -3.94478901853E-01
2.95000000000E+09 -5.13369138630E-02 -3.41128655487E-01 -8.23144259953E-04 -3.00918187381E-04 -8.23800157726E-04 -2.83073835249E-04 +1.08177537525E-01 -3.91193273444E-01
2.95500000000E+09 -8.27606496544E-02 -3.23201522058E-01 -8.51593030090E-04 -1.40462568440E-04 -8.90018633369E-04 -1.69148415163E-04 +6.91018546824E-02 -3.87032427272E-01
2.96000000000E+09 -1.12337423435E-01 -3.02554067658E-01 -1.21257760673E-03 -1.20044535038E-05 -1.16580701162E-03 -1.03369666560E-04 +2.86903344408E-02 -3.78860196871E-01
2.96500000000E+09 -1.40470555213E-01 -2.80161386482E-01 -1.02386349450E-03 +5.57075511645E-04 -1.02056808914E-03 +5.99026875568E-04 -1.03719172494E-02 -3.68260103941E-01
2.97000000000E+09 -1.68152018187E-01 -2.55253214878E-01 -4.19990614058E-04 +5.05675886339E-04 -3.56246870402E-04 +5.28829986951E-04 -5.14859910060E-02 -3.55693692354E-01
2.97500000000E+09 -1.93489759153E-01 -2.27898163295E-01 -4.57754215454E-04 +4.93378077174E-05 -3.87073550261E-04 +1.72672164979E-05 -9.10069070939E-02 -3.38508049455E-01
2.98000000000E+09 -2.17042847565E-01 -1.99117869425E-01 -9.96378996771E-04 -2.05759525759E-05 -9.11443036784E-04 -2.88283502450E-05 -1.29794647473E-01 -3.19599719822E-01
2.98500000000E+09 -2.38457408856E-01 -1.69807807059E-01 -1.09050684735E-03 +6.21295279818E-04 -1.09100098264E-03 +4.97190071698E-04 -1.66774753340E-01 -2.96759993348E-01
2.99000000000E+09 -2.58871867432E-01 -1.39565191255E-01 -7.21838777521E-04 +6.81087909385E-04 -7.47418356732E-04 +6.43467925820E-04 -2.02161025207E-01 -2.71800545049E-01
2.99500000000E+09 -2.77074831577E-01 -1.08515750893E-01 -8.63557736654E-04 +7.87128347141E-04 -8.72001008096E-04 +7.45459831469E-04 -2.35866308834E-01 -2.42633208604E-01
3.00000000000E+09 -2.93563028587E-01 -7.71963269537E-02 -6.29719422292E-04 +1.03092927891E-03 -5.77621834069E-04 +1.00956837928E-03 -2.66232299031E-01 -2.12310760021E-01
3.00500000000E+09 -3.07820524539E-01 -4.56207475971E-02 -5.62040208211E-04 +1.05146560089E-03 -5.61934796269E-04 +1.01148658864E-03 -2.96404256564E-01 -1.80163185869E-01
3.01000000000E+09 -3.19321174283E-01 -1.38763766436E-02 -2.20295348196E-04 +1.35829983270E-03 -3.19299852172E-04 +1.32131173947E-03 -3.23461342363E-01 -1.45478462842E-01
3.01500000000E+09 -3.28304225404E-01 +1.69410549236E-02 +2.82351309265E-04 +1.38614634116E-03 +2.19066078259E-04 +1.41253627449E-03 -3.48044563958E-01 -1.09409873221E-01
3.02000000000E+09 -3.34905579559E-01 +4.81824275758E-02 +6.62477462210E-04 +1.01969513712E-03 +6.08911661145E-04 +1.08143200678E-03 -3.68936925503E-01 -7.14722419271E-02
3.02500000000E+09 -3.38018540753E-01 +7.86859422798E-02 +7.63322500939E-04 +4.98485956999E-04 +7.56517378891E-04 +5.42611126789E-04 -3.86290845702E-01 -3.27000272449E-02
3.03000000000E+09 -3.38366525328E-01 +1.08510029297E-01 +1.90401499686E-04 +2.33380512864E-04 +1.45403199465E-04 +2.79757726551E-04 -4.00847678612E-01 +6.59615845897E-03
3.03500000000E+09 -3.36754847327E-01 +1.37631356609E-01 +2.14917337300E-04 +9.17848978000E-04 +2.37166321356E-04 +9.54845240127E-04 -4.12322665959E-01 +4.60894917590E-02
3.04000000000E+09 -3.33145634193E-01 +1.67039942681E-01 +9.11116119847E-04 +3.82066646937E-04 +9.27710246607E-04 +4.85009596074E-04 -4.21736418376E-01 +8.56599421229E-02
3.04500000000E+09 -3.26749344428E-01 +1.96158419233E-01 +4.27404384957E-04 +2.95430625807E-04 +5.31396094305E-04 +3.54376006508E-04 -4.28134256152E-01 +1.25623340522E-01
3.05000000000E+09 -3.18892692836E-01 +2.24963247872E-01 +7.09155623965E-04 +2.21503340704E-04 +8.72070866391E-04 +2.88455418298E-04 -4.31548815654E-01 +1.64566551681E-01
3.05500000000E+09 -3.08760569582E-01 +2.53141685318E-01 +5.01918979014E-04 -4.00028405524E-05 +5.01180601325E-04 -1.29596289199E-04 -4.33068063338E-01 +2.02863380328E-01
3.06000000000E+09 -2.98129498969E-01 +2.80242016373E-01 +4.07401074657E-04 -1.10954417543E-06 +4.06574011940E-04 -9.42373270196E-05 -4.31969366980E-01 +2.41565073699E-01
3.06500000000E+09 -2.86625888139E-01 +3.06907219568E-01 +2.41110119337E-04 +3.56396360858E-05 +2.64541659195E-04 -7.40265260059E-06 -4.28003659281E-01 +2.79121436857E-01
3.07000000000E+09 -2.74151142295E-01 +3.32255270976E-01 +3.39903170443E-04 +1.52062638517E-04 +2.64361436581E-04 +1.53218907390E-04 -4.21880037751E-01 +3.14991723537E-01
