# Hz S RI R 50
! CMT, C1220, 16058040, 17.2.0/1
! Date: 15/08/2018 10:27:04
! Data: Format (Calibration Info)
! Freq                      S11: Re/Im (F2)                       S21: Re/Im (F2)                       S12: Re/Im (F2)                       S22: Re/Im (F2)            
2.50000000000E+09 +5.82349421492E-01 +6.42684517423E-01 +2.85668013615E-04 +1.14167810303E-04 +3.01007404640E-04 +1.22914778659E-04 +5.69778986103E-01 +7.20258238884E-01
2.50500000000E+09 +5.89528053748E-01 +6.34913812248E-01 +3.88873718837E-04 +2.62403595377E-05 +4.34512100894E-04 +4.30770939583E-05 +5.75767453381E-01 +7.14259951684E-01
2.51000000000E+09 +5.96877534358E-01 +6.26891255763E-01 +4.04125539544E-04 -7.05757235505E-05 +3.95350979762E-04 -4.04627601134E-05 +5.81534178757E-01 +7.08567772262E-01
2.51500000000E+09 +6.04188871227E-01 +6.19144541699E-01 +3.68702552376E-04 -1.15672847218E-04 +3.81694363989E-04 -8.83691326635E-05 +5.86772912930E-01 +7.02599971594E-01
2.52000000000E+09 +6.10982702781E-01 +6.11291596003E-01 +3.67502073347E-04 -1.55215275756E-04 +3.87462050603E-04 -1.59186568761E-04 +5.91891656347E-01 +6.96266639007E-01
2.52500000000E+09 +6.16710526196E-01 +6.03782297002E-01 +3.05592012325E-04 -2.57078425470E-04 +3.03453600516E-04 -1.94010603138E-04 +5.97631982894E-01 +6.89749067823E-01
2.53000000000E+09 +6.22015229016E-01 +5.96942072870E-01 +3.19656776032E-04 -3.04050607207E-04 +3.29958939464E-04 -3.32632197833E-04 +6.03454509904E-01 +6.82534641891E-01
2.53500000000E+09 +6.26629928856E-01 +5.90396411907E-01 +1.90202365685E-04 -3.38818251774E-04 +2.11089433475E-04 -3.45444139404E-04 +6.09016599117E-01 +6.75454491713E-01
2.54000000000E+09 +6.30941416408E-01 +5.84121582445E-01 +1.38604197064E-04 -2.97472849064E-04 +1.47892120495E-04 -3.23469121363E-04 +6.14653605996E-01 +6.68906819516E-01
2.54500000000E+09 +6.35435423926E-01 +5.78130112955E-01 +1.38679918180E-04 -2.77502789593E-04 +1.50441827301E-04 -3.32445834466E-04 +6.19926404111E-01 +6.62361569044E-01
2.55000000000E+09 +6.40354591298E-01 +5.71871086120E-01 +1.78778199363E-04 -2.47297547250E-04 +1.93311538196E-04 -3.10002898567E-04 +6.24694559003E-01 +6.56123285843E-01
2.55500000000E+09 +6.45578055260E-01 +5.64907375539E-01 +1.94687759559E-04 -4.08063506122E-04 +2.30152191587E-04 -4.49430592043E-04 +6.29330764506E-01 +6.50108209679E-01
2.56000000000E+09 +6.51648113837E-01 +5.57995998307E-01 +5.30733207774E-05 -4.67196935568E-04 +1.25154546657E-05 -5.64101295763E-04 +6.34264309313E-01 +6.43260995934E-01
2.56500000000E+09 +6.57966877564E-01 +5.50101763518E-01 -3.72160052024E-05 -4.27565733584E-04 -1.48980887011E-04 -4.41591180248E-04 +6.39645396179E-01 +6.36334299675E-01
2.57000000000E+09 +6.64180175740E-01 +5.42187153069E-01 -1.18794044332E-04 -4.37839966601E-04 -2.20011261350E-04 -4.02068509841E-04 +6.45144230164E-01 +6.28708991977E-01
2.57500000000E+09 +6.70354520829E-01 +5.33977114186E-01 -2.34436578136E-04 -2.99409024819E-04 -2.86842098225E-04 -2.34981166924E-04 +6.50575043340E-01 +6.21342022282E-01
2.58000000000E+09 +6.75700194127E-01 +5.25767386232E-01 -1.77160339713E-04 -1.89890942114E-04 -1.25125547147E-04 -1.80059300574E-04 +6.55780980055E-01 +6.14176960600E-01
2.58500000000E+09 +6.80478775115E-01 +5.17523578506E-01 -1.45565710192E-04 -2.27095586935E-04 -1.00686587309E-04 -1.86653540396E-04 +6.61007302213E-01 +6.06591822448E-01
2.59000000000E+09 +6.84616800785E-01 +5.09602794377E-01 -1.58724112169E-04 -2.07540852071E-04 -1.09803272032E-04 -2.27899999759E-04 +6.65833351915E-01 +5.99138690326E-01
2.59500000000E+09 +6.88680195166E-01 +5.01653248913E-01 -1.60235462014E-04 -2.27589726109E-04 -1.18750310093E-04 -2.30887965959E-04 +6.71131563344E-01 +5.91180816812E-01
2.60000000000E+09 +6.92500669104E-01 +4.93418599684E-01 -1.26023591496E-04 -2.08783984227E-04 -1.60516688178E-04 -1.67532903147E-04 +6.76580500803E-01 +5.82750785433E-01
2.60500000000E+09 +6.96776897557E-01 +4.84229498455E-01 -1.67794020339E-04 -7.97862430574E-05 -1.44502916339E-04 -1.48095808096E-04 +6.82263977388E-01 +5.73918185133E-01
2.61000000000E+09 +7.01122576126E-01 +4.73814720843E-01 -5.85233387303E-05 -2.09978476344E-04 -1.16942099545E-04 -1.93641372116E-04 +6.87375553583E-01 +5.64907064903E-01
2.61500000000E+09 +7.06017435759E-01 +4.62355597534E-01 -2.05339519775E-04 -2.80173526594E-04 -1.62383265835E-04 -2.44127200845E-04 +6.92135231793E-01 +5.56280944143E-01
2.62000000000E+09 +7.10639236513E-01 +4.49849763050E-01 -2.83674937140E-04 -1.56316722437E-04 -2.90583892281E-04 -1.55131239025E-04 +6.96821715168E-01 +5.47332311057E-01
2.62500000000E+09 +7.15408823764E-01 +4.36640692464E-01 -2.04554437106E-04 -1.52793969206E-04 -2.16923803269E-04 -9.14753331885E-05 +7.01376434622E-01 +5.38378839611E-01
2.63000000000E+09 +7.20091948448E-01 +4.23086849445E-01 -2.11952187096E-04 -1.75189753921E-04 -2.06110746646E-04 -1.48965529267E-04 +7.05947153773E-01 +5.29164466099E-01
2.63500000000E+09 +7.24043771522E-01 +4.09491099999E-01 -2.15138490593E-04 -1.58632584112E-04 -2.47679721487E-04 -1.35567519916E-04 +7.10598469793E-01 +5.19905447748E-01
2.64000000000E+09 +7.27587012411E-01 +3.96707561648E-01 -3.72723586085E-04 -2.30809421406E-04 -2.52775942736E-04 -1.95627204506E-04 +7.15208355205E-01 +5.10193990035E-01
2.64500000000E+09 +7.30839376212E-01 +3.84858295616E-01 -3.56780429483E-04 -6.75827073665E-05 -2.97886130215E-04 -6.28567758760E-05 +7.19782879613E-01 +5.00464477533E-01
2.65000000000E+09 +7.33663836353E-01 +3.74005695277E-01 -2.99325947861E-04 -1.16618612562E-04 -2.86002185986E-04 -1.28697435275E-04 +7.24064653194E-01 +4.90551094819E-01
2.65500000000E+09 +7.37007929854E-01 +3.63203875669E-01 -3.90250410588E-04 -1.21174491191E-04 -3.88735420977E-04 -1.31904278407E-04 +7.27718997773E-01 +4.79948961265E-01
2.66000000000E+09 +7.40316455152E-01 +3.52351623771E-01 -4.63693822994E-04 +4.22405899435E-05 -5.08628536373E-04 -1.57366771059E-05 +7.31588098574E-01 +4.68882239737E-01
2.66500000000E+09 +7.43362459064E-01 +3.41084049894E-01 -3.92931252492E-04 +5.35399120689E-05 -4.02296726434E-04 +9.57736696116E-05 +7.35820424330E-01 +4.57750418961E-01
2.67000000000E+09 +7.46146079165E-01 +3.28893339318E-01 -3.72026982713E-04 +1.15391265661E-04 -4.07280286848E-04 +9.20234570092E-05 +7.40076556836E-01 +4.46742637791E-01
2.67500000000E+09 +7.48387709997E-01 +3.15698472706E-01 -3.83043616345E-04 +1.60238732238E-04 -3.83087650582E-04 +9.77151769616E-05 +7.44223282780E-01 +4.35452983499E-01
2.68000000000E+09 +7.50053905842E-01 +3.01814756895E-01 -3.83131717548E-04 +3.00217155335E-04 -3.98933217134E-04 +2.43444821058E-04 +7.47807062686E-01 +4.24175521861E-01
2.68500000000E+09 +7.51197623971E-01 +2.87578523512E-01 -2.28482457923E-04 +3.19364533440E-04 -3.03639707935E-04 +3.69413918991E-04 +7.50814988058E-01 +4.12996705829E-01
2.69000000000E+09 +7.51815052215E-01 +2.73134825898E-01 -1.45646509324E-04 +3.56313810441E-04 -1.54823091473E-04 +3.20961318071E-04 +7.53383031081E-01 +4.01313874937E-01
2.69500000000E+09 +7.52199454850E-01 +2.59084969953E-01 -1.08463676316E-04 +2.32615923086E-04 -1.64101432098E-04 +2.76037402421E-04 +7.55887604762E-01 +3.89097025352E-01
2.70000000000E+09 +7.52669591261E-01 +2.45050694072E-01 -1.28416378192E-04 +2.64034205302E-04 -1.59278383064E-04 +3.03203898334E-04 +7.58843352693E-01 +3.76067624292E-01
2.70500000000E+09 +7.52971734117E-01 +2.31675466408E-01 -6.58253000592E-05 +2.17857835815E-04 -5.92299905234E-05 +2.69280762770E-04 +7.61725445173E-01 +3.63067349176E-01
2.71000000000E+09 +7.53816747052E-01 +2.18094691605E-01 -1.19963656601E-04 +2.74335077059E-04 -2.06740361263E-04 +2.74857676566E-04 +7.64687572942E-01 +3.49865638957E-01
2.71500000000E+09 +7.54662864661E-01 +2.04026683965E-01 -8.02272769042E-05 +3.56105589252E-04 -9.11493330937E-05 +3.05721369475E-04 +7.66968905283E-01 +3.37072901691E-01
2.72000000000E+09 +7.55096173111E-01 +1.89616985798E-01 +1.85653424822E-05 +1.60098973607E-04 +7.73477113161E-05 +1.68253398513E-04 +7.68794875198E-01 +3.24394279039E-01
2.72500000000E+09 +7.55026654490E-01 +1.74248629299E-01 -2.04618979214E-04 +1.66307188611E-04 -2.22038557112E-04 +1.86537414996E-04 +7.70095467360E-01 +3.11142193789E-01
2.73000000000E+09 +7.53930004116E-01 +1.58147267093E-01 -1.67781852066E-04 +4.93520344278E-04 -1.25526930329E-04 +4.44592017092E-04 +7.71165698252E-01 +2.97122341566E-01
2.73500000000E+09 +7.51447454929E-01 +1.41186391693E-01 +1.42950586879E-04 +3.82933189451E-04 +1.25283740146E-04 +3.46347390182E-04 +7.71962603493E-01 +2.82071989274E-01
2.74000000000E+09 +7.48208857172E-01 +1.24517357216E-01 +7.02562882181E-05 +1.65902497915E-04 +3.61765163604E-05 +1.81022407931E-04 +7.72877063096E-01 +2.67310967022E-01
2.74500000000E+09 +7.43786371418E-01 +1.07115028622E-01 +3.78592216737E-05 +1.47364925572E-04 -1.93275416062E-05 +1.64415696291E-04 +7.73683314172E-01 +2.52244846987E-01
2.75000000000E+09 +7.38313901090E-01 +9.04104808987E-02 -3.49040287771E-05 +2.58032158013E-04 -3.39916242058E-05 +2.48658419348E-04 +7.74404767236E-01 +2.37590130669E-01
2.75500000000E+09 +7.32866244618E-01 +7.38957061093E-02 -4.62622495515E-05 +2.86262435837E-04 -2.43930435051E-05 +2.59214791885E-04 +7.74252181957E-01 +2.22482567846E-01
2.76000000000E+09 +7.27505894384E-01 +5.73513945274E-02 +2.91792834225E-05 +2.90620806976E-04 +5.13125165084E-05 +3.20122765599E-04 +7.73185277127E-01 +2.07302743363E-01
2.76500000000E+09 +7.22466796858E-01 +4.06219456130E-02 +2.03175008058E-05 +3.00969722137E-04 -2.11403785059E-05 +3.18784278155E-04 +7.71999685534E-01 +1.91707994362E-01
2.77000000000E+09 +7.17836954913E-01 +2.30461651884E-02 +8.83238301193E-05 +3.79996145963E-04 +1.08933272399E-04 +4.47327144491E-04 +7.70961927249E-01 +1.75364318680E-01
2.77500000000E+09 +7.13163566964E-01 +4.54781823306E-03 +1.67547984364E-04 +2.89008696699E-04 +1.34497886321E-04 +2.58899353879E-04 +7.69550294893E-01 +1.58047302401E-01
2.78000000000E+09 +7.08599577456E-01 -1.43832941615E-02 +2.18003309750E-04 +3.51050525376E-04 +1.67332497619E-04 +3.72183775541E-04 +7.67930899263E-01 +1.40902249961E-01
2.78500000000E+09 +7.03239729939E-01 -3.46398685533E-02 +9.17400566457E-05 +1.84115041002E-04 +1.74161963450E-04 +2.22721901412E-04 +7.65612491938E-01 +1.23966209587E-01
2.79000000000E+09 +6.97078269344E-01 -5.52023851799E-02 +2.16147356375E-05 +3.86199844761E-04 +7.16823112985E-05 +3.97437222909E-04 +7.63182713403E-01 +1.07572670403E-01
2.79500000000E+09 +6.89599562016E-01 -7.57417870901E-02 +3.27776893589E-04 +4.68612726253E-04 +2.93783442865E-04 +4.16525149211E-04 +7.60422579028E-01 +8.92822634348E-02
2.80000000000E+09 +6.80208935737E-01 -9.53354072124E-02 +3.84197691109E-04 +4.14891388335E-04 +3.61492357385E-04 +4.19906582005E-04 +7.55756087769E-01 +7.03823772811E-02
2.80500000000E+09 +6.70371296614E-01 -1.13349364306E-01 +3.46255047481E-04 +2.23211040087E-04 +3.81916734780E-04 +2.52908644998E-04 +7.50488087889E-01 +5.16518920820E-02
2.81000000000E+09 +6.59558439292E-01 -1.30358399201E-01 +2.55009200534E-04 +2.77250236775E-04 +2.62589771147E-04 +2.99902347429E-04 +7.44865371300E-01 +3.23138486732E-02
2.81500000000E+09 +6.48065595336E-01 -1.46797562354E-01 +4.56183395561E-04 +3.95310027897E-04 +4.78928169728E-04 +3.67954175507E-04 +7.38677948113E-01 +1.23804957187E-02
2.82000000000E+09 +6.35376249301E-01 -1.63028785753E-01 +5.86545003133E-04 +1.66323672142E-04 +6.01920721646E-04 +1.24457514378E-04 +7.31608358889E-01 -7.94457537861E-03
2.82500000000E+09 +6.21218548686E-01 -1.79356597156E-01 +2.94756100824E-04 +7.69843696736E-05 +2.70410443610E-04 +9.43667017454E-05 +7.22971833123E-01 -2.85982633767E-02
2.83000000000E+09 +6.05460669005E-01 -1.95735554281E-01 +3.54990806226E-04 +4.10651965330E-04 +3.74360084198E-04 +3.78011613431E-04 +7.13176240683E-01 -4.87322742302E-02
2.83500000000E+09 +5.88617719183E-01 -2.12800576904E-01 +6.36646773164E-04 +5.03988940510E-04 +5.56912050478E-04 +5.27877980365E-04 +7.02485828610E-01 -6.86772538478E-02
2.84000000000E+09 +5.69313776600E-01 -2.30607092481E-01 +1.18103379810E-03 +2.97552470316E-04 +1.11655823728E-03 +3.39783603720E-04 +6.91185179547E-01 -8.91623677149E-02
2.84500000000E+09 +5.47553136499E-01 -2.48414336365E-01 +1.08861327792E-03 -1.91459090169E-04 +1.12553394799E-03 -1.26041830865E-04 +6.78544779653E-01 -1.09609330006E-01
2.85000000000E+09 +5.24884255974E-01 -2.65626206041E-01 +8.97195951591E-04 -5.47106843720E-04 +8.55256482001E-04 -4.82290209175E-04 +6.64423697080E-01 -1.29922244960E-01
2.85500000000E+09 +5.00417927420E-01 -2.82253592980E-01 +3.60486491169E-04 -3.98334931122E-04 +3.42851932360E-04 -4.31404290071E-04 +6.49644517666E-01 -1.49214958457E-01
2.86000000000E+09 +4.75746622162E-01 -2.97391913074E-01 +6.52276711261E-04 +1.24194738213E-04 +6.24024945874E-04 +1.28811027898E-04 +6.34136202135E-01 -1.69251688754E-01
2.86500000000E+09 +4.51304169138E-01 -3.11645487004E-01 +1.24393536008E-03 -1.19727038189E-04 +1.19816567997E-03 -1.51967047146E-04 +6.16836702456E-01 -1.89302398761E-01
2.87000000000E+09 +4.26262498260E-01 -3.24961756198E-01 +1.26214108347E-03 -9.30120320455E-04 +1.24040803785E-03 -9.57759806053E-04 +5.98106447569E-01 -2.09016818639E-01
2.87500000000E+09 +4.00993754860E-01 -3.36668412158E-01 +6.46943536176E-04 -1.24128800429E-03 +5.80130504472E-04 -1.27532519649E-03 +5.77877553779E-01 -2.28054092587E-01
2.88000000000E+09 +3.75601818204E-01 -3.47250101871E-01 +8.46742972818E-05 -1.03428237657E-03 +5.35027781333E-05 -1.04637486414E-03 +5.57325034187E-01 -2.45852192331E-01
2.88500000000E+09 +3.49466700356E-01 -3.56791216575E-01 +2.56533768522E-04 -5.53736929966E-04 +1.58760124762E-04 -5.08943225024E-04 +5.35970768266E-01 -2.64304869079E-01
2.89000000000E+09 +3.22202886360E-01 -3.65029799534E-01 +6.55879947504E-04 -8.81009476831E-04 +6.50454151888E-04 -7.79582800123E-04 +5.12245615143E-01 -2.81925149664E-01
2.89500000000E+09 +2.93673819275E-01 -3.72126015730E-01 +5.76423450150E-04 -1.27683243624E-03 +5.84594793523E-04 -1.25427204896E-03 +4.87436742321E-01 -3.00041777417E-01
2.90000000000E+09 +2.63415869992E-01 -3.77280225400E-01 -5.41335078784E-05 -1.59589916254E-03 -1.20368057506E-05 -1.57904834165E-03 +4.59269593462E-01 -3.17759660015E-01
2.90500000000E+09 +2.31892309335E-01 -3.80805065545E-01 -4.13002783218E-04 -1.12588719570E-03 -4.80839279075E-04 -1.09936814826E-03 +4.30297198285E-01 -3.32818716095E-01
2.91000000000E+09 +1.99674449523E-01 -3.81041119934E-01 -2.39371386243E-04 -9.87614261264E-04 -2.84764885776E-04 -9.18667295818E-04 +4.00694023894E-01 -3.47696701328E-01
2.91500000000E+09 +1.68097822549E-01 -3.80492835036E-01 -1.51376532677E-04 -1.13554788844E-03 -1.50730460106E-04 -1.00800350008E-03 +3.68997931115E-01 -3.60723284114E-01
2.92000000000E+09 +1.35353763704E-01 -3.77808569718E-01 -3.95251855263E-04 -1.30457896480E-03 -3.86456409060E-04 -1.29539240608E-03 +3.36077290055E-01 -3.71370146834E-01
2.92500000000E+09 +1.03292911584E-01 -3.72845578301E-01 -7.54560354943E-04 -1.62374481627E-03 -5.90366903451E-04 -1.57369816475E-03 +3.01705379030E-01 -3.80061564376E-01
2.93000000000E+09 +7.24564274882E-02 -3.65845822162E-01 -1.73350217058E-03 -1.16661268235E-03 -1.60728422601E-03 -1.25885361608E-03 +2.65765090424E-01 -3.87664806686E-01
2.93500000000E+09 +4.16366363011E-02 -3.58593455509E-01 -1.58343333419E-03 -2.37439650234E-04 -1.56273042541E-03 -2.44546481378E-04 +2.27339784782E-01 -3.93618638921E-01
2.94000000000E+09 +1.01720198176E-02 -3.48323140691E-01 -9.33067749964E-04 -5.63286305187E-05 -8.82934053764E-04 -7.18507741289E-05 +1.87744069269E-01 -3.96842859134E-01
2.94500000000E+09 -2.00009162051E-02 -3.35915472560E-01 -6.99653088336E-04 -4.85969713806E-04 -7.11889893451E-04 -5.52129465181E-04 +1.47618740859E-01 -3.97120048303E-01
2.95000000000E+09 -5.01020140679E-02 -3.20896901907E-01 -1.21645971584E-03 -8.27578828519E-04 -1.18963999846E-03 -9.50200643801E-04 +1.08317060468E-01 -3.94513679898E-01
2.95500000000E+09 -7.94207292801E-02 -3.03146015407E-01 -1.95876930207E-03 -3.72663784463E-04 -1.99024751556E-03 -4.81350315427E-04 +6.87500915316E-02 -3.90080971825E-01
2.96000000000E+09 -1.07171650420E-01 -2.82610602610E-01 -1.96702200616E-03 +5.39417428293E-04 -2.11192017499E-03 +4.90484436780E-04 +2.81242512887E-02 -3.82279611048E-01
2.96500000000E+09 -1.33725149791E-01 -2.61013213054E-01 -1.14218866380E-03 +1.19260237123E-03 -1.24458049774E-03 +1.29747707999E-03 -1.20367171799E-02 -3.71897329795E-01
2.97000000000E+09 -1.59482226328E-01 -2.36275522076E-01 -4.41774300796E-04 +6.42947189491E-04 -4.57203303201E-04 +6.92769228599E-04 -5.37109790681E-02 -3.58398571799E-01
2.97500000000E+09 -1.83186967039E-01 -2.10264948852E-01 -8.03907397889E-04 +5.23904788318E-05 -8.18156817409E-04 -2.99292892872E-06 -9.32367119921E-02 -3.41090773139E-01
2.98000000000E+09 -2.05020552431E-01 -1.82646152927E-01 -1.73562934055E-03 +5.59194251201E-04 -1.71935800391E-03 +5.28485444940E-04 -1.32080775525E-01 -3.22209713227E-01
2.98500000000E+09 -2.26190443354E-01 -1.55037138011E-01 -1.05487696969E-03 +1.62734090935E-03 -1.15861439769E-03 +1.69772042602E-03 -1.70049346253E-01 -2.99832201273E-01
2.99000000000E+09 -2.45573785524E-01 -1.24825492628E-01 -2.46158369167E-05 +1.24433664360E-03 -7.49939906312E-05 +1.36060500797E-03 -2.06309123757E-01 -2.73775304510E-01
2.99500000000E+09 -2.62023673212E-01 -9.55817730845E-02 -2.03937830966E-04 +5.42085677273E-04 -2.38718688085E-04 +6.27533421644E-04 -2.40205712887E-01 -2.43955047400E-01
3.00000000000E+09 -2.78295030619E-01 -6.54398093786E-02 -7.86430014780E-04 +6.36582297891E-04 -7.87644628543E-04 +7.06886826521E-04 -2.71150186839E-01 -2.12611909205E-01
3.00500000000E+09 -2.91616190501E-01 -3.50134856522E-02 -9.38226424261E-04 +1.49181356399E-03 -8.61456909408E-04 +1.37745045267E-03 -3.01094275028E-01 -1.79406158746E-01
3.01000000000E+09 -3.02489833450E-01 -5.16249701693E-03 +5.97229792935E-05 +1.86723151367E-03 +1.07108581964E-04 +1.79241050357E-03 -3.27798262844E-01 -1.43876005107E-01
3.01500000000E+09 -3.11941565648E-01 +2.43177547031E-02 +8.92936268080E-04 +1.38820426838E-03 +8.39192959606E-04 +1.41263559398E-03 -3.51815528692E-01 -1.07195845026E-01
3.02000000000E+09 -3.18212943159E-01 +5.45108473719E-02 +8.83897716978E-04 +3.77155546167E-04 +9.49817557679E-04 +4.44651993434E-04 -3.72264087289E-01 -6.88734100763E-02
3.02500000000E+09 -3.21180206659E-01 +8.39706609061E-02 +1.11104516602E-04 +3.47200764758E-05 +1.87230254514E-04 +1.67826869125E-05 -3.89300446143E-01 -2.99865041040E-02
3.03000000000E+09 -3.21116329940E-01 +1.12584361259E-01 -3.60064224281E-04 +7.23850130127E-04 -3.93767858734E-04 +7.11065993101E-04 -4.03326820512E-01 +9.66903869442E-03
3.03500000000E+09 -3.19561132784E-01 +1.39588790076E-01 -5.43815969053E-05 +1.32032852464E-03 -7.19289609666E-05 +1.31394693585E-03 -4.14616173964E-01 +4.98671919189E-02
3.04000000000E+09 -3.16506025241E-01 +1.67593309189E-01 +9.61515946351E-04 +8.95264548524E-04 +8.94353905156E-04 +9.47469872887E-04 -4.22865959239E-01 +8.96940877356E-02
3.04500000000E+09 -3.11199232159E-01 +1.95594118657E-01 +6.20435103917E-04 +5.01330687295E-04 +6.30918347681E-04 +5.41630248007E-04 -4.28413222506E-01 +1.29284572964E-01
3.05000000000E+09 -3.03509078596E-01 +2.23993483019E-01 +3.86064677359E-04 +4.87624051441E-04 +4.00703335876E-04 +3.85261755854E-04 -4.31501615398E-01 +1.67846381298E-01
3.05500000000E+09 -2.93706141868E-01 +2.50504869731E-01 +1.73797594854E-04 +1.02025953143E-03 +2.34277509985E-04 +9.73229086401E-04 -4.32799190026E-01 +2.06013858541E-01
3.06000000000E+09 -2.83995141618E-01 +2.76468415796E-01 +1.24610472243E-03 +1.08559139955E-03 +1.17611768233E-03 +9.79189608512E-04 -4.31586113982E-01 +2.44258715757E-01
3.06500000000E+09 -2.73984501769E-01 +3.02479158780E-01 +1.30029484768E-03 +1.91121924094E-04 +1.22556941602E-03 +1.70086573396E-04 -4.27803921464E-01 +2.81823696533E-01
3.07000000000E+09 -2.61915924894E-01 +3.27897433191E-01 +8.72911666993E-04 -3.48495523495E-05 +8.04221437357E-04 +2.92854097436E-05 -4.21665315416E-01 +3.18155872830E-01
