# Hz S RI R 50
! CMT, C1220, 16058040, 17.2.0/1
! Date: 15/08/2018 10:26:55
! Data: Format (Calibration Info)
! Freq                      S11: Re/Im (F2)                       S21: Re/Im (F2)                       S12: Re/Im (F2)                       S22: Re/Im (F2)            
2.50000000000E+09 +5.82199149401E-01 +6.42307664931E-01 +2.58799950073E-04 +1.10003894828E-05 +2.91641986747E-04 +9.36362411696E-05 +5.70065380882E-01 +7.19876278984E-01
2.50500000000E+09 +5.89417923698E-01 +6.34539382252E-01 +3.23005522983E-04 -2.33864089325E-05 +3.17601370405E-04 -3.77025524918E-05 +5.76179290857E-01 +7.14083657011E-01
2.51000000000E+09 +5.96913258237E-01 +6.26601532711E-01 +3.28620997165E-04 -8.40587408009E-05 +3.00303526570E-04 -1.08780579653E-04 +5.81962620705E-01 +7.08352389238E-01
2.51500000000E+09 +6.04105230141E-01 +6.18769754310E-01 +3.07183055070E-04 -1.20770177066E-04 +2.62188551468E-04 -1.06664715391E-04 +5.87237627749E-01 +7.02405619929E-01
2.52000000000E+09 +6.10880233905E-01 +6.10992423753E-01 +2.82090179134E-04 -1.61301425829E-04 +3.35247656497E-04 -1.62435130687E-04 +5.92286685553E-01 +6.96008562865E-01
2.52500000000E+09 +6.16689705038E-01 +6.03539595678E-01 +2.89910708652E-04 -1.92686978629E-04 +2.96352312417E-04 -1.98800074076E-04 +5.97982740601E-01 +6.89230674640E-01
2.53000000000E+09 +6.21873858006E-01 +5.96716506146E-01 +2.63417777429E-04 -2.77803832503E-04 +2.54527144621E-04 -2.58326041747E-04 +6.03850900932E-01 +6.81967788977E-01
2.53500000000E+09 +6.26609699397E-01 +5.90135895622E-01 +1.41523915841E-04 -2.63764738697E-04 +1.48780996015E-04 -2.69044351294E-04 +6.09263463444E-01 +6.74916764602E-01
2.54000000000E+09 +6.30864948045E-01 +5.83799900583E-01 +1.25925591674E-04 -2.29592014494E-04 +1.40231576167E-04 -2.21756590383E-04 +6.14858549046E-01 +6.68248645396E-01
2.54500000000E+09 +6.35403077123E-01 +5.77902760850E-01 +9.96336904992E-05 -2.05478036222E-04 +1.01294416098E-04 -2.28647680881E-04 +6.20116160656E-01 +6.61638605633E-01
2.55000000000E+09 +6.40404863443E-01 +5.71629225229E-01 +1.59557261650E-04 -2.28561256193E-04 +1.88147779558E-04 -1.86323609378E-04 +6.24724260303E-01 +6.55517538255E-01
2.55500000000E+09 +6.45681190752E-01 +5.64600590205E-01 +2.05166623987E-04 -3.25012706553E-04 +2.76967822399E-04 -3.69726442342E-04 +6.29296063098E-01 +6.49492913510E-01
2.56000000000E+09 +6.51709902238E-01 +5.57640953943E-01 +1.04019821351E-04 -4.25074174806E-04 +1.20167740792E-04 -5.05946028007E-04 +6.34077814235E-01 +6.42909119319E-01
2.56500000000E+09 +6.58033208336E-01 +5.49718631707E-01 -1.51673103538E-06 -3.89842505280E-04 -5.41538912207E-05 -3.87888815622E-04 +6.39427693272E-01 +6.35891551676E-01
2.57000000000E+09 +6.64170950611E-01 +5.41739568710E-01 -3.84627128884E-05 -4.13577297455E-04 -1.27250218702E-04 -3.45469056369E-04 +6.44986086503E-01 +6.28435277903E-01
2.57500000000E+09 +6.70513600547E-01 +5.33439143416E-01 -1.34206845181E-04 -3.34410654551E-04 -1.66036984454E-04 -2.37760011246E-04 +6.50441188452E-01 +6.21134236284E-01
2.58000000000E+09 +6.75765126022E-01 +5.25284485036E-01 -9.20970312968E-05 -2.18325359033E-04 -6.09179012917E-05 -1.68918720020E-04 +6.55675115271E-01 +6.14004768222E-01
2.58500000000E+09 +6.80395121452E-01 +5.16947230919E-01 -9.49253529194E-05 -2.75533879088E-04 -7.76395989409E-05 -2.69775963595E-04 +6.60837259308E-01 +6.06531256802E-01
2.59000000000E+09 +6.84419892728E-01 +5.09157880570E-01 -1.42826809957E-04 -2.61160746088E-04 -1.19037369317E-04 -2.29325777204E-04 +6.65812413107E-01 +5.98898360778E-01
2.59500000000E+09 +6.88576033214E-01 +5.01253183714E-01 -1.24367997778E-04 -2.79169449431E-04 -1.18468405530E-04 -2.42985374783E-04 +6.71065539129E-01 +5.90952955945E-01
2.60000000000E+09 +6.92456641816E-01 +4.92886624819E-01 -1.59865736623E-04 -2.71326765025E-04 -1.20362699957E-04 -2.48690859321E-04 +6.76630692382E-01 +5.82528106208E-01
2.60500000000E+09 +6.96655604524E-01 +4.83615723968E-01 -2.26345483249E-04 -1.70135532815E-04 -2.03063602286E-04 -1.81860239448E-04 +6.82238532750E-01 +5.73662512222E-01
2.61000000000E+09 +7.01146175932E-01 +4.73429294806E-01 -1.31136337533E-04 -2.14309264242E-04 -1.60502472919E-04 -2.20494212784E-04 +6.87432152006E-01 +5.64681875554E-01
2.61500000000E+09 +7.05841207324E-01 +4.61872873333E-01 -2.72716488063E-04 -3.00684688384E-04 -2.73717699633E-04 -3.34040624531E-04 +6.92098342747E-01 +5.56035906745E-01
2.62000000000E+09 +7.10478773054E-01 +4.49493024074E-01 -3.56485944021E-04 -1.20085745467E-04 -3.98654054800E-04 -1.24542264361E-04 +6.96789985014E-01 +5.47062985542E-01
2.62500000000E+09 +7.15343620774E-01 +4.36218002125E-01 -2.74700235064E-04 -5.59399502605E-05 -3.18155703263E-04 -4.87837714231E-05 +7.01282558502E-01 +5.38216305099E-01
2.63000000000E+09 +7.20101963211E-01 +4.22556840219E-01 -2.40865988498E-04 -4.11074416911E-05 -2.48598283332E-04 -5.27835020001E-05 +7.05812705207E-01 +5.29012353985E-01
2.63500000000E+09 +7.24076106072E-01 +4.08899398082E-01 -2.66017956231E-04 -4.78553982793E-05 -2.44485761845E-04 -1.76066270181E-05 +7.10336785459E-01 +5.19861070784E-01
2.64000000000E+09 +7.27547465230E-01 +3.96113297465E-01 -3.00168008973E-04 -7.41127377436E-05 -2.26278012747E-04 -3.98547421530E-05 +7.14916287153E-01 +5.10264958931E-01
2.64500000000E+09 +7.30808092974E-01 +3.84237042388E-01 -2.56829310924E-04 +5.50032967503E-05 -2.42647164994E-04 +2.32792212467E-05 +7.19475544650E-01 +5.00802063466E-01
2.65000000000E+09 +7.33701274227E-01 +3.73324421162E-01 -2.37892639835E-04 +1.86794959279E-06 -2.12079156528E-04 -2.98544318173E-05 +7.23872385051E-01 +4.90672514479E-01
2.65500000000E+09 +7.36869568507E-01 +3.62522600689E-01 -2.37712831572E-04 -4.14931283252E-05 -2.72110158702E-04 -4.74418059953E-05 +7.27706007209E-01 +4.80163495181E-01
2.66000000000E+09 +7.40080586647E-01 +3.51582806094E-01 -2.45777087674E-04 +8.91891493569E-05 -2.92039916149E-04 +8.95179733808E-05 +7.31633374931E-01 +4.69252468924E-01
2.66500000000E+09 +7.43088687882E-01 +3.40339225201E-01 -2.12983209737E-04 +1.04285319883E-04 -1.98552198618E-04 +1.15531825355E-04 +7.35885756285E-01 +4.58096845881E-01
2.67000000000E+09 +7.45851033659E-01 +3.28142247647E-01 -1.93558988931E-04 +9.63516342185E-05 -2.12981888362E-04 +1.22291205939E-04 +7.40389356347E-01 +4.47198234145E-01
2.67500000000E+09 +7.48086878218E-01 +3.14864777844E-01 -2.07204836200E-04 -6.24820645429E-06 -1.92134263151E-04 +2.08930864798E-05 +7.44568323594E-01 +4.35857944994E-01
2.68000000000E+09 +7.49698429295E-01 +3.01030079057E-01 -2.92060898990E-04 +7.11965028373E-05 -2.98627143500E-04 +7.25400376549E-05 +7.48379815360E-01 +4.24468919844E-01
2.68500000000E+09 +7.50690406886E-01 +2.86694419224E-01 -3.12522611525E-04 +1.86464920826E-04 -2.75441699593E-04 +1.49653095145E-04 +7.51417594953E-01 +4.13116437626E-01
2.69000000000E+09 +7.51330904479E-01 +2.72327737092E-01 -1.91451338151E-04 +1.47709552979E-04 -1.75709143257E-04 +1.84544745214E-04 +7.53954752202E-01 +4.01350455046E-01
2.69500000000E+09 +7.51804287250E-01 +2.58253715218E-01 -2.17403298087E-04 +6.44912531455E-05 -1.73026870707E-04 +4.52768763630E-05 +7.56441125160E-01 +3.88934174733E-01
2.70000000000E+09 +7.52098285973E-01 +2.44261587923E-01 -2.41394549698E-04 +1.46891842418E-04 -2.23170067638E-04 +1.46999876476E-04 +7.59215816584E-01 +3.75945356294E-01
2.70500000000E+09 +7.52394710502E-01 +2.31010518516E-01 -2.44683823371E-04 +1.34130366226E-04 -2.35536988160E-04 +1.48934729746E-04 +7.61927020259E-01 +3.62904859195E-01
2.71000000000E+09 +7.53266513866E-01 +2.17389207586E-01 -2.66846379477E-04 +2.27659084379E-04 -3.02878973313E-04 +1.89399999797E-04 +7.64804081764E-01 +3.49884181169E-01
2.71500000000E+09 +7.53912015893E-01 +2.03383541995E-01 -1.76876925464E-04 +3.27583584285E-04 -2.08867496210E-04 +3.58865601774E-04 +7.67242058619E-01 +3.37125414252E-01
2.72000000000E+09 +7.54322486301E-01 +1.89046555522E-01 -9.67056464904E-05 +1.89152600511E-04 -1.22929693609E-04 +2.17084695760E-04 +7.69174476820E-01 +3.24483145152E-01
2.72500000000E+09 +7.54132193437E-01 +1.73689250028E-01 -2.75861364294E-04 +2.24490954582E-04 -2.13816556963E-04 +2.64005761541E-04 +7.70277129762E-01 +3.11201366526E-01
2.73000000000E+09 +7.53107204138E-01 +1.57726645638E-01 -2.82996936849E-04 +5.95911320662E-04 -1.88341105347E-04 +5.45409898017E-04 +7.71682665089E-01 +2.97214028364E-01
2.73500000000E+09 +7.50755522119E-01 +1.40776389956E-01 +1.48303354451E-04 +4.98989335881E-04 +6.93227103342E-05 +4.88698334258E-04 +7.72513923517E-01 +2.82413902600E-01
2.74000000000E+09 +7.47429724315E-01 +1.23986267184E-01 +1.00051412954E-04 +3.00510189130E-04 +1.14090632880E-04 +2.66020084389E-04 +7.73668857919E-01 +2.67450164019E-01
2.74500000000E+09 +7.43103100695E-01 +1.06711784356E-01 +1.42281207953E-04 +2.53984259227E-04 +8.69919921580E-05 +2.26579116482E-04 +7.74659679042E-01 +2.52269839378E-01
2.75000000000E+09 +7.37539707933E-01 +8.99307675821E-02 +1.28077773246E-04 +2.29903373572E-04 +5.85065683142E-05 +2.32415538282E-04 +7.75463690506E-01 +2.37441254293E-01
2.75500000000E+09 +7.32187630356E-01 +7.33456532722E-02 +1.08467332853E-04 +1.54503587170E-04 +9.27160726426E-05 +1.81878052861E-04 +7.75271618003E-01 +2.22122362322E-01
2.76000000000E+09 +7.26803884760E-01 +5.68872599814E-02 +5.32500744616E-05 +9.58463930004E-05 -2.10692825165E-05 +1.02590802621E-04 +7.74248889150E-01 +2.06783997703E-01
2.76500000000E+09 +7.21834110740E-01 +4.00598179194E-02 -7.80375283839E-05 +1.93851012937E-04 -4.38122380961E-05 +1.66821969090E-04 +7.72877037138E-01 +1.91063598352E-01
2.77000000000E+09 +7.17107243123E-01 +2.24487801562E-02 +5.74341052224E-05 +3.64568027152E-04 +7.62826374837E-05 +3.30740952717E-04 +7.71835374613E-01 +1.74462506152E-01
2.77500000000E+09 +7.12204380381E-01 +4.08374637219E-03 +9.00719112797E-05 +1.81092569332E-04 +9.89935305518E-05 +2.11390085973E-04 +7.70206473563E-01 +1.57298729629E-01
2.78000000000E+09 +7.07662963784E-01 -1.49063122591E-02 +1.05696784909E-04 +2.17115460327E-04 +1.24020010124E-04 +2.17154376749E-04 +7.68521627819E-01 +1.40035202998E-01
2.78500000000E+09 +7.02172835850E-01 -3.51001891387E-02 -7.97667474491E-05 +5.92708576702E-05 +9.04876454672E-06 +6.36530397923E-05 +7.66125815978E-01 +1.23056253279E-01
2.79000000000E+09 +6.95719031864E-01 -5.54589168849E-02 -2.05743074386E-04 +3.35877490519E-04 -1.91205664086E-04 +3.05480705267E-04 +7.63700280788E-01 +1.06550667025E-01
2.79500000000E+09 +6.88183487658E-01 -7.58123452452E-02 +1.63160921329E-05 +5.02896401145E-04 +5.33845730524E-05 +5.37633086722E-04 +7.60763170703E-01 +8.82870631374E-02
2.80000000000E+09 +6.78808612925E-01 -9.53691955856E-02 +1.15599184830E-04 +5.28303510016E-04 +1.15478378275E-04 +4.58955721991E-04 +7.55970845234E-01 +6.93161010911E-02
2.80500000000E+09 +6.68833383953E-01 -1.13138218147E-01 +2.47192702698E-04 +4.64000855030E-04 +2.29984563804E-04 +4.63216282561E-04 +7.50479551981E-01 +5.07632123093E-02
2.81000000000E+09 +6.58032376606E-01 -1.29872452771E-01 +1.30671356063E-04 +5.28551142093E-04 +8.87065437301E-05 +5.15174577145E-04 +7.44922538845E-01 +3.14132997856E-02
2.81500000000E+09 +6.46882696710E-01 -1.46224012976E-01 +3.79671677269E-04 +6.63879184759E-04 +4.22735414312E-04 +6.74837129870E-04 +7.38746060439E-01 +1.14803892840E-02
2.82000000000E+09 +6.34260292254E-01 -1.62331733746E-01 +5.82961876429E-04 +4.37716028131E-04 +5.51862263545E-04 +3.73148895859E-04 +7.31721013886E-01 -8.86223512860E-03
2.82500000000E+09 +6.20358132984E-01 -1.78429810684E-01 +3.89208819541E-04 +2.84607400102E-04 +3.38072229308E-04 +2.78562966187E-04 +7.23134186198E-01 -2.95223402644E-02
2.83000000000E+09 +6.04802346997E-01 -1.94697703546E-01 +4.00791145377E-04 +6.22218914634E-04 +4.22823730990E-04 +6.31428827154E-04 +7.13167416302E-01 -4.97149236517E-02
2.83500000000E+09 +5.88098378291E-01 -2.11954300301E-01 +7.67128119978E-04 +7.31678825999E-04 +6.69575917618E-04 +7.72545377652E-04 +7.02532860071E-01 -6.98100082659E-02
2.84000000000E+09 +5.68890962160E-01 -2.29814021111E-01 +1.22522862296E-03 +4.65863840571E-04 +1.23006368637E-03 +4.50958928371E-04 +6.91024427810E-01 -9.03429540247E-02
2.84500000000E+09 +5.47403086916E-01 -2.47598766067E-01 +1.30284027505E-03 +1.34377934923E-05 +1.28883496361E-03 -6.37988216971E-06 +6.78426819666E-01 -1.10893469034E-01
2.85000000000E+09 +5.24904967997E-01 -2.64925206318E-01 +1.19317881727E-03 -3.91229095258E-04 +1.16010892238E-03 -3.64589026156E-04 +6.64172214230E-01 -1.31349261275E-01
2.85500000000E+09 +5.00522308998E-01 -2.81743268845E-01 +6.12680133622E-04 -3.79702057291E-04 +6.21979423074E-04 -3.70014862974E-04 +6.49022658446E-01 -1.50678352493E-01
2.86000000000E+09 +4.75712251980E-01 -2.97002192737E-01 +8.48733007339E-04 +1.19624612766E-04 +8.42001700667E-04 +1.06142462603E-04 +6.33232745690E-01 -1.70543365535E-01
2.86500000000E+09 +4.51219405351E-01 -3.11306618318E-01 +1.41417628803E-03 -2.03311523797E-04 +1.45164938125E-03 -1.04774517937E-04 +6.15642269250E-01 -1.90544436868E-01
2.87000000000E+09 +4.26196157500E-01 -3.24503093895E-01 +1.35037159540E-03 -9.14161905350E-04 +1.43137276903E-03 -9.45250931013E-04 +5.96927805037E-01 -2.10045482832E-01
2.87500000000E+09 +4.01040105528E-01 -3.36311802285E-01 +9.08022972252E-04 -1.22536095570E-03 +9.19594091691E-04 -1.23960264342E-03 +5.76581423131E-01 -2.28950442247E-01
2.88000000000E+09 +3.75602541097E-01 -3.46840745008E-01 +3.73248339719E-04 -1.17869696973E-03 +3.08371005383E-04 -1.14618236938E-03 +5.55918510306E-01 -2.46631807217E-01
2.88500000000E+09 +3.49421910096E-01 -3.56416186984E-01 +4.31101572775E-04 -7.87082809815E-04 +4.11125875765E-04 -7.67166505655E-04 +5.34550016046E-01 -2.64744920706E-01
2.89000000000E+09 +3.22250966895E-01 -3.64373968245E-01 +7.10238785149E-04 -1.00001782944E-03 +7.31005641423E-04 -9.69397127828E-04 +5.10798666993E-01 -2.82356642616E-01
2.89500000000E+09 +2.93959198053E-01 -3.71495954394E-01 +6.66637688606E-04 -1.42153936758E-03 +7.12933843656E-04 -1.35639345571E-03 +4.85690714939E-01 -3.00253931991E-01
2.90000000000E+09 +2.63876268701E-01 -3.76745669616E-01 +1.00846206739E-04 -1.85690466284E-03 +1.57319846104E-04 -1.90348920657E-03 +4.57552885519E-01 -3.17597124104E-01
2.90500000000E+09 +2.32216582465E-01 -3.80565346039E-01 -5.32640857354E-04 -1.45279169814E-03 -5.55126109304E-04 -1.45776729811E-03 +4.28414361187E-01 -3.32626313486E-01
2.91000000000E+09 +1.99928293098E-01 -3.80618956504E-01 -4.56604714428E-04 -1.10176759496E-03 -4.67909438346E-04 -1.13183962507E-03 +3.99000272961E-01 -3.46746414191E-01
2.91500000000E+09 +1.68473062084E-01 -3.80025717825E-01 -2.73962013086E-04 -1.05896295969E-03 -2.68756022541E-04 -9.89798561982E-04 +3.67786274123E-01 -3.59722042015E-01
2.92000000000E+09 +1.35985187699E-01 -3.77415780176E-01 -4.26937057376E-04 -1.44239574304E-03 -3.26754416309E-04 -1.39107712147E-03 +3.34705880630E-01 -3.70533857421E-01
2.92500000000E+09 +1.04066403770E-01 -3.72705678516E-01 -8.04442363663E-04 -1.78919545576E-03 -6.77454614465E-04 -1.70197833121E-03 +3.00247037103E-01 -3.78638935576E-01
2.93000000000E+09 +7.31146630451E-02 -3.65915690449E-01 -1.80465807460E-03 -1.25411013998E-03 -1.76910921077E-03 -1.31763226419E-03 +2.64876065857E-01 -3.86068772855E-01
2.93500000000E+09 +4.22099796690E-02 -3.58694756121E-01 -1.65369965218E-03 -2.89814206210E-04 -1.64552040880E-03 -3.16624671880E-04 +2.26580898813E-01 -3.91923930475E-01
2.94000000000E+09 +1.09002607732E-02 -3.48533516256E-01 -1.07526317919E-03 +1.26814313134E-06 -1.10070716556E-03 -2.54653545014E-05 +1.87441804833E-01 -3.95106456859E-01
2.94500000000E+09 -1.94567777373E-02 -3.36375384769E-01 -7.01771709517E-04 -4.07259187420E-04 -6.69628933484E-04 -4.08113979389E-04 +1.47489522552E-01 -3.95499270726E-01
2.95000000000E+09 -4.97430164190E-02 -3.21248842471E-01 -1.15033487877E-03 -9.26048662643E-04 -1.11647166587E-03 -9.70129893869E-04 +1.08317222205E-01 -3.92960430478E-01
2.95500000000E+09 -7.92161132414E-02 -3.03600619697E-01 -1.94909287315E-03 -4.61874930967E-04 -1.93117942701E-03 -5.46458328212E-04 +6.88422169449E-02 -3.88601287694E-01
2.96000000000E+09 -1.06965759752E-01 -2.82980373709E-01 -1.97724935079E-03 +3.30209071530E-04 -2.04760677248E-03 +2.99884237518E-04 +2.84374587546E-02 -3.80726733065E-01
2.96500000000E+09 -1.33494020102E-01 -2.61354443301E-01 -1.31280760886E-03 +9.85786514972E-04 -1.28603531075E-03 +1.06629036704E-03 -1.13707220386E-02 -3.70487864303E-01
2.97000000000E+09 -1.59228588386E-01 -2.36698033345E-01 -6.12704263944E-04 +6.66557913767E-04 -5.80383435174E-04 +7.04314556282E-04 -5.31702772736E-02 -3.57105856442E-01
2.97500000000E+09 -1.83288333103E-01 -2.10721632154E-01 -7.32302415515E-04 -8.97715520954E-05 -6.99051565084E-04 -4.98619689155E-05 -9.25396630985E-02 -3.39637334591E-01
2.98000000000E+09 -2.05071366738E-01 -1.83043391081E-01 -1.85774734364E-03 +3.93382044629E-04 -1.81552610104E-03 +3.31312610095E-04 -1.31155217236E-01 -3.20953623515E-01
2.98500000000E+09 -2.26350413936E-01 -1.55164971990E-01 -1.23935326181E-03 +1.44014529598E-03 -1.28800674285E-03 +1.45288785087E-03 -1.69158129715E-01 -2.98365993431E-01
2.99000000000E+09 -2.45530844766E-01 -1.24765466122E-01 -3.66856999710E-04 +1.17612338255E-03 -3.49999709471E-04 +1.23138258960E-03 -2.04923314150E-01 -2.72201858640E-01
2.99500000000E+09 -2.61851645603E-01 -9.54185702761E-02 -5.13630273402E-04 +6.95185216050E-04 -5.67356508293E-04 +7.37661730305E-04 -2.38539805198E-01 -2.42710705997E-01
3.00000000000E+09 -2.77891784838E-01 -6.53799482640E-02 -9.47983599018E-04 +7.94491388397E-04 -9.16159162349E-04 +8.21920653185E-04 -2.69208549366E-01 -2.11536206551E-01
3.00500000000E+09 -2.91239615507E-01 -3.51334051773E-02 -1.05865445096E-03 +1.43361862903E-03 -1.03453670670E-03 +1.38559534609E-03 -2.98648941552E-01 -1.78609077927E-01
3.01000000000E+09 -3.02081613457E-01 -5.20876099136E-03 -2.84285007448E-04 +1.96117488488E-03 -2.56537339115E-04 +1.85696610499E-03 -3.25065524676E-01 -1.43668596217E-01
3.01500000000E+09 -3.11467911824E-01 +2.43362051351E-02 +7.00477307143E-04 +1.71885122829E-03 +5.77027596417E-04 +1.73474425356E-03 -3.49149248963E-01 -1.07581795772E-01
3.02000000000E+09 -3.17469009000E-01 +5.43388632678E-02 +8.30579395191E-04 +6.72421443751E-04 +8.25653347251E-04 +7.12166339882E-04 -3.69820158310E-01 -6.98701799349E-02
3.02500000000E+09 -3.20675754737E-01 +8.36034095537E-02 +8.00478055785E-05 +4.10959794322E-04 +7.73924902526E-06 +4.53911127399E-04 -3.87177972146E-01 -3.13302206839E-02
3.03000000000E+09 -3.20544150732E-01 +1.12143410500E-01 -1.92036302614E-04 +1.02732282398E-03 -2.15765638361E-04 +9.98677309738E-04 -4.01577161261E-01 +7.69421482099E-03
3.03500000000E+09 -3.19163230813E-01 +1.39200468046E-01 +5.57986615970E-05 +1.47635636842E-03 +8.34104728220E-05 +1.47011883702E-03 -4.13595081616E-01 +4.78095745292E-02
3.04000000000E+09 -3.16072801422E-01 +1.67171091358E-01 +1.06840340323E-03 +1.08157953950E-03 +9.90347066647E-04 +1.20610139758E-03 -4.22116841726E-01 +8.79909652218E-02
3.04500000000E+09 -3.10824128051E-01 +1.94955531838E-01 +8.38410444511E-04 +7.31336360527E-04 +8.75410193588E-04 +7.57384998237E-04 -4.27863323371E-01 +1.27397958301E-01
3.05000000000E+09 -3.03299411011E-01 +2.23317459795E-01 +6.55130492782E-04 +5.55182494551E-04 +7.16278904830E-04 +5.66528266523E-04 -4.31457369113E-01 +1.66050188514E-01
3.05500000000E+09 -2.93669140187E-01 +2.49915293011E-01 +5.00123808166E-04 +9.84741196759E-04 +5.29972952696E-04 +9.88527570855E-04 -4.33039413054E-01 +2.04481554110E-01
3.06000000000E+09 -2.84026401505E-01 +2.75897255972E-01 +1.49473837873E-03 +9.37063369966E-04 +1.49320424765E-03 +8.68853396783E-04 -4.32080225958E-01 +2.42716820884E-01
3.06500000000E+09 -2.74157566393E-01 +3.02180703473E-01 +1.41643350980E-03 +3.39991431684E-06 +1.33845432914E-03 +5.20844197162E-05 -4.28595179915E-01 +2.81190875875E-01
3.07000000000E+09 -2.61901684435E-01 +3.27697360612E-01 +9.05479353594E-04 -1.81962203157E-04 +8.81920230468E-04 -2.11808982798E-04 -4.21880286086E-01 +3.17718404223E-01
