# Hz S RI R 50
! CMT, C1220, 16058040, 17.2.0/1
! Date: 15/08/2018 10:25:46
! Data: Format (Calibration Info)
! Freq                      S11: Re/Im (F2)                       S21: Re/Im (F2)                       S12: Re/Im (F2)                       S22: Re/Im (F2)            
2.50000000000E+09 +5.81314078217E-01 +6.37852370859E-01 +1.99339229719E-04 -4.52008643294E-05 +2.14157007591E-04 -2.41795391320E-05 +5.70933229895E-01 +7.20069837702E-01
2.50500000000E+09 +5.88495364530E-01 +6.30076903156E-01 +2.23590266876E-04 -3.53525873954E-05 +2.10762925262E-04 -5.01279414608E-05 +5.77060486076E-01 +7.14179546900E-01
2.51000000000E+09 +5.96049280440E-01 +6.22080173332E-01 +2.34173147850E-04 -9.88187416698E-05 +2.21734731866E-04 -1.09279457926E-04 +5.82889156975E-01 +7.08282964026E-01
2.51500000000E+09 +6.03282276417E-01 +6.14065777095E-01 +2.08988531441E-04 -9.85420114672E-05 +1.87805477054E-04 -1.20174247471E-04 +5.88244516994E-01 +7.02227737282E-01
2.52000000000E+09 +6.09874300038E-01 +6.06090157720E-01 +2.67267785307E-04 -1.38640709913E-04 +2.32963748803E-04 -1.75645657721E-04 +5.93319296201E-01 +6.95929123306E-01
2.52500000000E+09 +6.15333338304E-01 +5.98629231537E-01 +1.46027207515E-04 -2.57362661683E-04 +1.93846368952E-04 -2.16827610309E-04 +5.98995396362E-01 +6.89050097519E-01
2.53000000000E+09 +6.20316989766E-01 +5.91833141987E-01 +1.73548889224E-04 -2.27646681577E-04 +1.68802709099E-04 -2.81999142911E-04 +6.04882939528E-01 +6.81639084071E-01
2.53500000000E+09 +6.24664571146E-01 +5.85303697937E-01 +1.09469301433E-04 -2.47695757433E-04 +6.07220336343E-05 -2.88340436110E-04 +6.10422798528E-01 +6.74541434763E-01
2.54000000000E+09 +6.28561088875E-01 +5.79126661001E-01 +3.93324354905E-05 -2.40102384256E-04 +1.52648501929E-05 -2.29809777107E-04 +6.15934056563E-01 +6.67823518806E-01
2.54500000000E+09 +6.32738041806E-01 +5.73030070288E-01 +2.63534576352E-06 -2.42534815533E-04 -1.29511114082E-05 -2.43913839619E-04 +6.21259919706E-01 +6.61279056892E-01
2.55000000000E+09 +6.37378297422E-01 +5.66846673393E-01 +8.29845600424E-05 -2.23831364752E-04 +1.17276729896E-04 -2.69939183893E-04 +6.25928784078E-01 +6.54989987126E-01
2.55500000000E+09 +6.42506260545E-01 +5.60206391741E-01 +3.21735250357E-05 -3.66628521054E-04 +4.49040820909E-05 -4.14350187795E-04 +6.30485520843E-01 +6.48800575659E-01
2.56000000000E+09 +6.48799176760E-01 +5.53309101028E-01 -3.84110531923E-05 -3.45495939531E-04 -6.08349956904E-05 -4.28598026363E-04 +6.35272905909E-01 +6.42098168904E-01
2.56500000000E+09 +6.55223385063E-01 +5.45236929019E-01 -9.81292862494E-05 -3.45155579750E-04 -1.99082322222E-04 -3.73865180121E-04 +6.40658622488E-01 +6.35034498057E-01
2.57000000000E+09 +6.61293780595E-01 +5.37077246454E-01 -2.40621111954E-04 -3.62370309516E-04 -2.97105790176E-04 -3.17616195968E-04 +6.46053438863E-01 +6.27469801310E-01
2.57500000000E+09 +6.67489565924E-01 +5.28729335849E-01 -3.59024968178E-04 -2.25084931666E-04 -3.52914420165E-04 -1.36816029677E-04 +6.51400741744E-01 +6.20063712855E-01
2.58000000000E+09 +6.72712120303E-01 +5.20485324125E-01 -3.24215849824E-04 -9.38346825074E-05 -2.66054635830E-04 -9.52434814110E-05 +6.56634933824E-01 +6.12782422692E-01
2.58500000000E+09 +6.77202738657E-01 +5.12189078046E-01 -2.88995305127E-04 -1.16596561360E-04 -2.77148344558E-04 -7.25528225407E-05 +6.61769284774E-01 +6.05269223828E-01
2.59000000000E+09 +6.81018626775E-01 +5.04358205250E-01 -3.16705399435E-04 +2.89664434554E-05 -3.41713409656E-04 +3.73903285707E-05 +6.66594775119E-01 +5.97546422323E-01
2.59500000000E+09 +6.84726864010E-01 +4.96425461573E-01 -2.77492341215E-04 +3.61309342733E-05 -2.80862367699E-04 +1.10900463218E-05 +6.71899818047E-01 +5.89599157389E-01
2.60000000000E+09 +6.88098267361E-01 +4.88237882619E-01 -2.88318108655E-04 +9.29863563287E-05 -2.60891064396E-04 +1.24322650849E-04 +6.77316222148E-01 +5.81014947741E-01
2.60500000000E+09 +6.92098073447E-01 +4.79245788026E-01 -2.41479566316E-04 +1.27714072704E-04 -2.42455059641E-04 +1.15568827717E-04 +6.82751253465E-01 +5.72180123551E-01
2.61000000000E+09 +6.96431665277E-01 +4.69036877419E-01 -1.47125673950E-04 +1.50200083081E-04 -1.74555379903E-04 +1.47574734383E-04 +6.87732998926E-01 +5.63035754192E-01
2.61500000000E+09 +7.01063395127E-01 +4.57779684188E-01 -1.44135933449E-04 +1.00252689095E-04 -1.73964777095E-04 +1.25752891964E-04 +6.92339808269E-01 +5.54356798562E-01
2.62000000000E+09 +7.05780764395E-01 +4.45404829745E-01 -1.78708884996E-04 +2.19679850018E-04 -1.55330843137E-04 +2.24152878153E-04 +6.96984800782E-01 +5.45426337351E-01
2.62500000000E+09 +7.10573011571E-01 +4.31899091207E-01 -1.35416168496E-05 +2.63181980296E-04 +5.41636240343E-05 +2.79451254096E-04 +7.01430756362E-01 +5.36448245170E-01
2.63000000000E+09 +7.15028782068E-01 +4.18375605057E-01 -2.55605864344E-05 +1.54549297553E-04 -9.76283459621E-06 +1.56656348465E-04 +7.05638869471E-01 +5.27270935542E-01
2.63500000000E+09 +7.18795231519E-01 +4.05033887692E-01 -3.29433701518E-05 +1.48036511614E-04 -1.33565277717E-05 +1.85062686588E-04 +7.10062536307E-01 +5.18212082894E-01
2.64000000000E+09 +7.22233862352E-01 +3.92398576677E-01 +1.07128324211E-04 +1.75116527312E-04 +5.14844271473E-05 +1.54500271717E-04 +7.14562240668E-01 +5.08670277394E-01
2.64500000000E+09 +7.25295174104E-01 +3.80800109374E-01 +1.26864208470E-04 +1.41132703832E-04 +8.60755994060E-05 +8.30764605737E-05 +7.19128585824E-01 +4.99070853628E-01
2.65000000000E+09 +7.27996198651E-01 +3.69972626239E-01 +1.74016935217E-04 +4.67741000605E-05 +2.00614257978E-04 +4.92056187719E-05 +7.23339178929E-01 +4.89078724310E-01
2.65500000000E+09 +7.30832546105E-01 +3.59569385069E-01 +4.01045023028E-05 -1.47309461657E-04 +5.30615676920E-05 -1.28179424720E-04 +7.26962857377E-01 +4.78613923217E-01
2.66000000000E+09 +7.33856148877E-01 +3.48976969541E-01 -6.07049608011E-05 +2.97062233614E-05 -7.17239355521E-05 +8.00438953463E-05 +7.30796895271E-01 +4.67760512787E-01
2.66500000000E+09 +7.36933486647E-01 +3.38145118147E-01 +3.95291855735E-05 +3.41391813510E-05 +3.92476042593E-05 +1.40556877005E-04 +7.34967951442E-01 +4.56707666594E-01
2.67000000000E+09 +7.39916106909E-01 +3.25948625134E-01 +6.65746806165E-05 +5.64450855504E-05 +5.94699250006E-05 +6.73561332284E-05 +7.39220295936E-01 +4.45868180862E-01
2.67500000000E+09 +7.42245740862E-01 +3.12613596934E-01 +1.01323336340E-04 -2.52394180405E-05 +1.43540438710E-04 -3.90346693136E-05 +7.43323548660E-01 +4.34654184491E-01
2.68000000000E+09 +7.43694778470E-01 +2.98632095025E-01 -8.12847331873E-06 -9.50260349529E-05 +2.68850209625E-05 -8.41632636017E-05 +7.46994126638E-01 +4.23512193693E-01
2.68500000000E+09 +7.44912337039E-01 +2.84706639788E-01 -8.85274101123E-05 +1.66049902212E-05 -1.08330905470E-04 +1.75967556656E-05 +7.49847689186E-01 +4.12363368861E-01
2.69000000000E+09 +7.45554885741E-01 +2.70387255394E-01 +1.08064946596E-05 +1.20547307105E-04 +1.25772151571E-05 +1.54765453102E-04 +7.52536720003E-01 +4.00717159472E-01
2.69500000000E+09 +7.45993226018E-01 +2.56742874392E-01 +7.93627415144E-05 +1.33715439727E-04 +6.33755739460E-05 +1.58447540815E-04 +7.55028683492E-01 +3.88391820861E-01
2.70000000000E+09 +7.46387166383E-01 +2.43166217307E-01 +9.66581250335E-05 +5.12606448023E-05 +7.50075822753E-05 +1.12724477810E-05 +7.57924495795E-01 +3.75587048357E-01
2.70500000000E+09 +7.46683041874E-01 +2.29944761183E-01 +2.34233171922E-05 +1.03577234852E-04 +3.08313847138E-05 +5.75049189116E-05 +7.60591593274E-01 +3.62518517715E-01
2.71000000000E+09 +7.47106180025E-01 +2.17095784338E-01 +1.37801744930E-04 +5.97615659384E-05 +9.14367683314E-05 +7.52046872742E-05 +7.63535415425E-01 +3.49644502425E-01
2.71500000000E+09 +7.48000698618E-01 +2.03657351110E-01 +1.98685710065E-04 +5.35837496475E-05 +1.95523573317E-04 +4.09213632610E-05 +7.65850580596E-01 +3.37078290355E-01
2.72000000000E+09 +7.48661653410E-01 +1.89549791829E-01 +2.27121085024E-04 -9.04407830185E-05 +2.06582721010E-04 -1.12187502672E-04 +7.67668870768E-01 +3.24793429007E-01
2.72500000000E+09 +7.48892869418E-01 +1.74398652435E-01 +9.63377162340E-05 -1.20416464407E-04 +1.01065677443E-04 -1.30317648504E-04 +7.69167526300E-01 +3.11544771242E-01
2.73000000000E+09 +7.47835247984E-01 +1.58261499134E-01 +9.73699669672E-05 -3.14299069466E-05 +4.59658697719E-05 +8.24486539753E-06 +7.70379866709E-01 +2.97515402757E-01
2.73500000000E+09 +7.45597911753E-01 +1.41326245611E-01 +2.26003376243E-04 -1.49957177748E-04 +2.16241489018E-04 -1.20360751267E-04 +7.71190153115E-01 +2.82684142717E-01
2.74000000000E+09 +7.42283794224E-01 +1.24730584045E-01 +1.05400060926E-04 -3.14656437271E-04 +9.99980104205E-05 -2.32042807259E-04 +7.72222749615E-01 +2.67940913394E-01
2.74500000000E+09 +7.37988837502E-01 +1.07602302133E-01 +4.97299754302E-05 -3.83758058291E-04 +1.52105800014E-04 -3.24564154435E-04 +7.73020360649E-01 +2.53111563066E-01
2.75000000000E+09 +7.33079387722E-01 +9.10779710812E-02 -7.41334045219E-06 -3.91323953378E-04 -2.12119782627E-05 -3.42107565759E-04 +7.73944868800E-01 +2.38687180322E-01
2.75500000000E+09 +7.27982809456E-01 +7.46020027691E-02 -1.93827412445E-04 -4.51700418385E-04 -1.29748916871E-04 -4.79370802414E-04 +7.73961119907E-01 +2.23606255176E-01
2.76000000000E+09 +7.22794380775E-01 +5.82854184832E-02 -4.24090266835E-04 -4.17824808036E-04 -4.14105591404E-04 -4.64659663545E-04 +7.73101077019E-01 +2.08663417781E-01
2.76500000000E+09 +7.18039807181E-01 +4.20636318311E-02 -5.10546001646E-04 -1.81015726949E-04 -5.40123405220E-04 -2.04628445609E-04 +7.72060830626E-01 +1.93088594783E-01
2.77000000000E+09 +7.13823764851E-01 +2.49759498137E-02 -4.90752034428E-04 +3.46483545447E-05 -4.26883100831E-04 +1.53812863665E-05 +7.71561593751E-01 +1.76706213274E-01
2.77500000000E+09 +7.09743059849E-01 +6.95396139942E-03 -4.28649274861E-04 +1.08324988324E-04 -3.78992716506E-04 +4.90682752907E-05 +7.70344797164E-01 +1.59343006065E-01
2.78000000000E+09 +7.05748989004E-01 -1.22044502174E-02 -3.03262626287E-04 +8.43779168277E-05 -2.63049098363E-04 +1.10760211095E-04 +7.68748903872E-01 +1.42043575071E-01
2.78500000000E+09 +7.00799600212E-01 -3.25053011098E-02 -3.77567559633E-04 +2.63487577510E-05 -4.06001386310E-04 +3.73958599978E-05 +7.66696178519E-01 +1.24999310125E-01
2.79000000000E+09 +6.94799260123E-01 -5.32867966577E-02 -5.06113510296E-04 +2.19074091021E-04 -4.29595250429E-04 +2.02876855123E-04 +7.64556923053E-01 +1.08484615720E-01
2.79500000000E+09 +6.87652841020E-01 -7.36622401857E-02 -3.85653376953E-04 +3.55138487598E-04 -3.70701441054E-04 +3.70611393528E-04 +7.61701382990E-01 +9.02142354226E-02
2.80000000000E+09 +6.79049259025E-01 -9.35973427785E-02 -2.43723854599E-04 +4.77551237545E-04 -2.30986937245E-04 +4.42516218354E-04 +7.57286296911E-01 +7.15555433462E-02
2.80500000000E+09 +6.69708506525E-01 -1.12024152987E-01 -1.50488668239E-04 +3.61298093396E-04 -1.41017746711E-04 +3.39781444679E-04 +7.52446351187E-01 +5.26252807579E-02
2.81000000000E+09 +6.59246956815E-01 -1.29497982764E-01 -1.16621299430E-04 +3.68721222379E-04 -1.53716117481E-04 +3.84696523932E-04 +7.47198656106E-01 +3.27364272897E-02
2.81500000000E+09 +6.48190408673E-01 -1.46142466800E-01 -1.61523498048E-05 +3.78575354772E-04 -4.20146302239E-05 +4.57154575072E-04 +7.40713407104E-01 +1.25633594380E-02
2.82000000000E+09 +6.35949339767E-01 -1.62326321851E-01 -7.01600914566E-05 +3.46900949391E-04 -8.64044396252E-05 +3.48810037180E-04 +7.33857186793E-01 -7.75972829616E-03
2.82500000000E+09 +6.22770316322E-01 -1.78257529951E-01 -1.79656776539E-04 +4.00933363272E-04 -1.25510196002E-04 +3.91692545502E-04 +7.25392783396E-01 -2.86278069422E-02
2.83000000000E+09 +6.08519620152E-01 -1.95160776400E-01 -8.54112575931E-05 +4.15947124773E-04 -4.34764623375E-05 +4.76419619916E-04 +7.15516226969E-01 -4.88052081335E-02
2.83500000000E+09 +5.92353807711E-01 -2.13617778548E-01 +7.15622230337E-06 +7.29807394968E-04 +3.64791975094E-06 +7.00433500093E-04 +7.05301719021E-01 -6.88730779181E-02
2.84000000000E+09 +5.72807028919E-01 -2.32083169245E-01 +4.04728049827E-04 +5.17244940395E-04 +3.63029576441E-04 +5.57923762007E-04 +6.94237711244E-01 -8.97992772134E-02
2.84500000000E+09 +5.51402297637E-01 -2.50286881764E-01 +2.88088642744E-04 +3.41146505457E-04 +2.95775487463E-04 +3.43612110185E-04 +6.81821102191E-01 -1.10717157773E-01
2.85000000000E+09 +5.29030188490E-01 -2.67875863253E-01 +3.03853349099E-04 +4.71147819228E-04 +3.10701895776E-04 +4.63263042669E-04 +6.67784296542E-01 -1.31500049852E-01
2.85500000000E+09 +5.05249721788E-01 -2.85346753740E-01 +4.38234989771E-04 +4.89681323778E-04 +4.24303834842E-04 +5.14617696213E-04 +6.52982452351E-01 -1.51470870426E-01
2.86000000000E+09 +4.80847426196E-01 -3.02102761571E-01 +6.75157988697E-04 +4.19798432129E-04 +6.90389125637E-04 +3.39839383915E-04 +6.37122179714E-01 -1.71792582075E-01
2.86500000000E+09 +4.55608078031E-01 -3.17229379318E-01 +6.93311340739E-04 +5.05352472953E-05 +7.00182231970E-04 +2.40747318070E-05 +6.19817413574E-01 -1.92134134104E-01
2.87000000000E+09 +4.30361165114E-01 -3.30739967667E-01 +4.04202337468E-04 -5.98190191442E-05 +4.32899972027E-04 -5.81652509910E-05 +6.01253465299E-01 -2.12551317200E-01
2.87500000000E+09 +4.05827662999E-01 -3.42808994443E-01 +3.82723441338E-04 +2.48883506856E-04 +3.65325652962E-04 +2.21161328552E-04 +5.80781934420E-01 -2.32525593971E-01
2.88000000000E+09 +3.80941191415E-01 -3.54596009365E-01 +7.17445597756E-04 +2.52307777447E-04 +7.46853522251E-04 +2.10889295975E-04 +5.59390805384E-01 -2.51131663145E-01
2.88500000000E+09 +3.54821920087E-01 -3.65151298501E-01 +8.85303375335E-04 -1.05234826051E-04 +8.32457436498E-04 -9.09343753841E-05 +5.37154775191E-01 -2.69777802465E-01
2.89000000000E+09 +3.27573850169E-01 -3.74417511495E-01 +7.00718331209E-04 -4.40900835862E-04 +7.02552872443E-04 -3.61365455374E-04 +5.12554440375E-01 -2.87536177632E-01
2.89500000000E+09 +2.98985504528E-01 -3.82340370203E-01 +5.11510000711E-04 -4.63355465973E-04 +4.70588333942E-04 -4.29762945454E-04 +4.87014619596E-01 -3.05633330790E-01
2.90000000000E+09 +2.68603540817E-01 -3.88967284743E-01 +2.71762471093E-04 -3.06904442145E-04 +2.59706101977E-04 -2.80690334627E-04 +4.58186801059E-01 -3.23208768562E-01
2.90500000000E+09 +2.36127712103E-01 -3.93382688798E-01 +6.95734532451E-04 -2.73943517789E-04 +6.64498525051E-04 -2.52623372176E-04 +4.28301060016E-01 -3.38207915580E-01
2.91000000000E+09 +2.03332119038E-01 -3.94918662860E-01 +4.92732013453E-04 -7.20674972540E-04 +4.93586784749E-04 -7.43505709825E-04 +3.98347276807E-01 -3.52666524972E-01
2.91500000000E+09 +1.70513774624E-01 -3.94912685515E-01 +2.92314578888E-04 -5.50057146736E-04 +2.59559782118E-04 -5.18321290822E-04 +3.66051954560E-01 -3.65584434314E-01
2.92000000000E+09 +1.37272769768E-01 -3.93022284268E-01 +4.35406695255E-04 -5.90156061792E-04 +4.00233538962E-04 -5.57320093444E-04 +3.32546309970E-01 -3.75865814945E-01
2.92500000000E+09 +1.04125822880E-01 -3.88971466227E-01 +3.21454355773E-04 -9.96064300101E-04 +3.63401041502E-04 -8.95695869491E-04 +2.97409323922E-01 -3.83701715454E-01
2.93000000000E+09 +7.21527146681E-02 -3.83138110233E-01 -1.80863765180E-04 -9.66870519143E-04 -1.87020983523E-04 -1.02312535883E-03 +2.61485800444E-01 -3.90597168206E-01
2.93500000000E+09 +3.97718467207E-02 -3.76288308084E-01 -5.24040351147E-04 -5.34485565384E-04 -4.38105789504E-04 -5.43908784432E-04 +2.23298305498E-01 -3.96297675160E-01
2.94000000000E+09 +7.25751188173E-03 -3.66685107386E-01 -1.51147125716E-04 -1.90759020134E-04 -1.00867417430E-04 -2.05916142785E-04 +1.83466240023E-01 -3.99882407956E-01
2.94500000000E+09 -2.44867706200E-02 -3.54824676971E-01 +8.30829991854E-05 -6.29723047157E-04 +9.33228672566E-05 -6.29705241502E-04 +1.42098194679E-01 -4.00187542730E-01
2.95000000000E+09 -5.65862365450E-02 -3.40126822168E-01 -2.72473712861E-04 -7.26970335705E-04 -2.86538058702E-04 -7.49281756566E-04 +1.02153780469E-01 -3.96659420530E-01
2.95500000000E+09 -8.75988226596E-02 -3.21758054428E-01 -5.69278460231E-04 -4.55418084425E-04 -5.50757011452E-04 -5.10026497245E-04 +6.20673700306E-02 -3.91784318899E-01
2.96000000000E+09 -1.16758554341E-01 -3.01006902753E-01 -5.75514552033E-04 -3.30168178730E-04 -6.08898741536E-04 -4.45438397741E-04 +2.07915228194E-02 -3.82514226121E-01
2.96500000000E+09 -1.44456405886E-01 -2.78419491694E-01 -5.18033789647E-04 +4.85724402653E-05 -5.51401929570E-04 -5.02001254301E-05 -1.91972949913E-02 -3.70716619604E-01
2.97000000000E+09 -1.71618995243E-01 -2.53398136332E-01 -1.23799659909E-04 -7.31768975743E-05 -1.69442118466E-04 -1.28244415986E-04 -6.07295415858E-02 -3.56449403990E-01
2.97500000000E+09 -1.96511970372E-01 -2.26118904466E-01 -1.74167158825E-04 -4.14297519800E-04 -2.47003255542E-04 -4.36199284593E-04 -1.00014273679E-01 -3.37947345759E-01
2.98000000000E+09 -2.19645667962E-01 -1.97274447140E-01 -6.42323630566E-04 -4.01701351739E-04 -6.78244317348E-04 -3.66901536511E-04 -1.38685016675E-01 -3.18038872606E-01
2.98500000000E+09 -2.40823754174E-01 -1.67968612207E-01 -4.10571060319E-04 +2.94386245636E-05 -4.44818295603E-04 +7.73627352920E-05 -1.75510624061E-01 -2.94486289287E-01
2.99000000000E+09 -2.60678626257E-01 -1.37548002327E-01 -4.12556806979E-04 -2.32298758609E-04 -3.93399575287E-04 -2.25730769822E-04 -2.10771784878E-01 -2.68079433522E-01
2.99500000000E+09 -2.78432609309E-01 -1.06533854178E-01 -6.38381680911E-04 -4.68846404139E-05 -6.16585857627E-04 -6.25867091313E-06 -2.44168740323E-01 -2.37235400313E-01
3.00000000000E+09 -2.94529908496E-01 -7.47599375872E-02 -4.45691157121E-04 +3.82017212808E-05 -4.38546026994E-04 +1.50533380475E-04 -2.73089914629E-01 -2.05349031631E-01
3.00500000000E+09 -3.07868252821E-01 -4.31475213541E-02 -5.37119843887E-04 -5.16114653737E-05 -4.87494351030E-04 +2.50105679204E-06 -3.01973618625E-01 -1.72659448434E-01
3.01000000000E+09 -3.19154504611E-01 -1.21619547534E-02 -5.59521250132E-04 +1.09060837071E-04 -4.13271712456E-04 +9.25629119148E-05 -3.27746337517E-01 -1.37292180429E-01
3.01500000000E+09 -3.28510225885E-01 +1.87965162768E-02 -3.82748572219E-04 +2.60458538324E-04 -3.07718492634E-04 +1.68946416303E-04 -3.50937161352E-01 -1.01354985755E-01
3.02000000000E+09 -3.34893193559E-01 +5.05210745475E-02 -2.88207040224E-04 +2.30988275048E-04 -2.74265134212E-04 +1.82574330293E-04 -3.71214631698E-01 -6.36299923460E-02
3.02500000000E+09 -3.37697408387E-01 +8.12501353220E-02 -1.36196707205E-04 -2.35223798480E-05 -1.33254342664E-04 -7.12970009409E-05 -3.87967722701E-01 -2.45827992478E-02
3.03000000000E+09 -3.37811382603E-01 +1.11257769144E-01 -5.65745250062E-04 -1.52020974846E-04 -5.83670545834E-04 -1.75857579423E-04 -4.01448722622E-01 +1.45282653333E-02
3.03500000000E+09 -3.35431242386E-01 +1.40322886733E-01 -8.10791172831E-04 +3.69481348025E-04 -8.06622151120E-04 +2.81656636110E-04 -4.12459370866E-01 +5.43257120349E-02
3.04000000000E+09 -3.31358629816E-01 +1.69240324914E-01 -2.92833362668E-04 +2.16300118665E-04 -3.61931567661E-04 +2.15201327239E-04 -4.20504766063E-01 +9.42109839537E-02
3.04500000000E+09 -3.24754830706E-01 +1.98409361770E-01 -7.19672754592E-04 +4.60706967559E-04 -7.75823842026E-04 +4.52829389079E-04 -4.25651885645E-01 +1.33639964316E-01
3.05000000000E+09 -3.16149354523E-01 +2.27000506006E-01 -2.99992202749E-04 +6.58617447419E-04 -2.89920155893E-04 +7.52830215802E-04 -4.28267109915E-01 +1.72136342133E-01
3.05500000000E+09 -3.05631079973E-01 +2.54755369091E-01 -3.51231173661E-04 +6.07329962735E-04 -2.83364897068E-04 +6.62517897250E-04 -4.28804196231E-01 +2.09872890926E-01
3.06000000000E+09 -2.94721509775E-01 +2.81862743247E-01 -8.68983732435E-05 +5.66784273732E-04 -4.43503317369E-05 +5.83266840583E-04 -4.27497081574E-01 +2.47686917476E-01
3.06500000000E+09 -2.82367565659E-01 +3.08640681866E-01 -1.48732855062E-04 +5.25140822676E-04 -1.75630058675E-04 +5.27264395529E-04 -4.23111699809E-01 +2.84883977769E-01
3.07000000000E+09 -2.68849946268E-01 +3.33705494821E-01 +8.99353592424E-06 +8.18608188775E-04 +2.72627810062E-05 +8.13248456066E-04 -4.16472585202E-01 +3.20393228071E-01
