# Hz S RI R 50
! CMT, C1220, 16058040, 17.2.0/1
! Date: 15/08/2018 10:24:56
! Data: Format (Calibration Info)
! Freq                      S11: Re/Im (F2)                       S21: Re/Im (F2)                       S12: Re/Im (F2)                       S22: Re/Im (F2)            
2.50000000000E+09 +5.81361791478E-01 +6.39446039759E-01 +1.64376620994E-04 +1.02409858696E-04 +1.35032160874E-04 +4.03372470938E-05 +5.71558421259E-01 +7.19414998947E-01
2.50500000000E+09 +5.88607923724E-01 +6.31661913235E-01 +2.27699553678E-04 +3.44760343388E-05 +2.29058186914E-04 +4.51219856937E-05 +5.77595770033E-01 +7.13487476147E-01
2.51000000000E+09 +5.96104313605E-01 +6.23557179768E-01 +1.97555742606E-04 -1.53803176980E-05 +1.41495021336E-04 +8.70677154845E-06 +5.83385760431E-01 +7.07737291632E-01
2.51500000000E+09 +6.03463610181E-01 +6.15644530092E-01 +1.89384407058E-04 +5.43279635850E-05 +1.19459255536E-04 +3.75204599630E-05 +5.88750236746E-01 +7.01745479326E-01
2.52000000000E+09 +6.10193693935E-01 +6.07519257050E-01 +2.64801956130E-04 -4.73584754223E-05 +2.57307457332E-04 -2.23442904348E-05 +5.93952077385E-01 +6.95276858657E-01
2.52500000000E+09 +6.15914190022E-01 +6.00026348933E-01 +2.35987469981E-04 -1.02466794673E-04 +2.47682428494E-04 -1.00211964801E-04 +5.99585806992E-01 +6.88430075746E-01
2.53000000000E+09 +6.20991367027E-01 +5.93042073568E-01 +1.69413798933E-04 -1.49350556047E-04 +1.94842759960E-04 -1.32020236682E-04 +6.05342759140E-01 +6.81043839626E-01
2.53500000000E+09 +6.25423628401E-01 +5.86368948972E-01 +1.88685584847E-04 -1.59886679139E-04 +1.69570926127E-04 -1.50265718943E-04 +6.10780157141E-01 +6.73864013443E-01
2.54000000000E+09 +6.29561582331E-01 +5.80069646124E-01 +1.73209240705E-04 -9.97947028352E-05 +1.45184565041E-04 -9.31488795968E-05 +6.16482733994E-01 +6.67176633339E-01
2.54500000000E+09 +6.33679844606E-01 +5.74094228340E-01 +1.61127526526E-04 -1.55369961576E-04 +1.56981984761E-04 -6.89794280894E-05 +6.21797361081E-01 +6.60504841957E-01
2.55000000000E+09 +6.38379821424E-01 +5.67968377952E-01 +2.16484799319E-04 -1.05367835430E-04 +2.26264667429E-04 -6.47817606715E-05 +6.26262146892E-01 +6.54498459023E-01
2.55500000000E+09 +6.43799918105E-01 +5.61203098482E-01 +1.98256378676E-04 -2.95641477313E-04 +2.36374316423E-04 -2.96857899642E-04 +6.30940038142E-01 +6.48344799668E-01
2.56000000000E+09 +6.49961399322E-01 +5.54308814364E-01 +9.65187395532E-05 -3.45660076505E-04 +7.82340253618E-05 -4.26323973105E-04 +6.35849212925E-01 +6.41715519505E-01
2.56500000000E+09 +6.56347411151E-01 +5.46250336028E-01 +2.02762000781E-05 -2.90544585699E-04 -8.19556953266E-05 -3.92538373037E-04 +6.41176218157E-01 +6.34546348666E-01
2.57000000000E+09 +6.62446760500E-01 +5.38141665213E-01 -7.54063253542E-05 -3.12271380689E-04 -1.59867904941E-04 -2.55559800652E-04 +6.46588088326E-01 +6.26764809524E-01
2.57500000000E+09 +6.68636448295E-01 +5.29624204649E-01 -1.34104125786E-04 -1.46586076989E-04 -1.69692244710E-04 -1.06326837949E-04 +6.51896244981E-01 +6.19248853739E-01
2.58000000000E+09 +6.74054609671E-01 +5.21144570162E-01 +4.35271347491E-06 -4.06051094331E-05 -7.24547286783E-05 -4.38767472755E-05 +6.57119683622E-01 +6.11918036485E-01
2.58500000000E+09 +6.78567701813E-01 +5.12598948584E-01 -4.41371750157E-05 -1.50071132892E-04 -7.64576356245E-05 -1.53181408538E-04 +6.62086562419E-01 +6.04481860853E-01
2.59000000000E+09 +6.82330174625E-01 +5.04800325897E-01 -1.21155702154E-04 -1.40098763473E-04 -1.18377030316E-04 -1.34821845024E-04 +6.66921651226E-01 +5.96946902740E-01
2.59500000000E+09 +6.86267328863E-01 +4.96784489257E-01 -1.49762793807E-04 -7.97691933698E-05 -1.29643062417E-04 -3.69013677309E-05 +6.72336602053E-01 +5.88943766005E-01
2.60000000000E+09 +6.89895282756E-01 +4.88389643320E-01 -8.76605864713E-05 +3.65058238811E-06 -8.84263764230E-05 +5.15591088685E-07 +6.77486077142E-01 +5.80442371064E-01
2.60500000000E+09 +6.93834446550E-01 +4.79254686483E-01 -2.57732870318E-05 +1.00021752275E-05 -6.08101170287E-05 +3.45747773904E-05 +6.82894595404E-01 +5.71569426558E-01
2.61000000000E+09 +6.98260712487E-01 +4.69080298698E-01 +6.48469559634E-05 +1.85349892898E-05 +7.24900805387E-05 +4.71919702569E-05 +6.87936561653E-01 +5.62558663320E-01
2.61500000000E+09 +7.03111516175E-01 +4.57499719664E-01 +5.52349883626E-05 -5.19624157092E-05 +1.04019585485E-04 -6.68393965633E-05 +6.92597064339E-01 +5.53950015513E-01
2.62000000000E+09 +7.07801059903E-01 +4.44824664226E-01 +5.75627679276E-05 -4.97280740463E-05 +2.04130867020E-05 -5.11155998026E-05 +6.97124981484E-01 +5.44876640601E-01
2.62500000000E+09 +7.12547105203E-01 +4.31357294476E-01 +1.03215850586E-04 -6.44567027541E-05 +9.65639285881E-05 -1.25353652538E-04 +7.01577379058E-01 +5.36095014053E-01
2.63000000000E+09 +7.17026025312E-01 +4.17603712000E-01 +9.14982457624E-05 -1.37426830389E-04 +4.09191009764E-05 -1.53721169227E-04 +7.06032652501E-01 +5.27082477771E-01
2.63500000000E+09 +7.20981936084E-01 +4.03937754803E-01 +2.84057300294E-05 -1.12398662306E-04 +2.50267630999E-05 -1.00767021211E-04 +7.10609281912E-01 +5.18006204709E-01
2.64000000000E+09 +7.24354791542E-01 +3.90919051469E-01 -1.19528300326E-05 -1.13869244314E-04 -2.86576537239E-05 -1.17998309541E-04 +7.15336416787E-01 +5.08193594776E-01
2.64500000000E+09 +7.27526864799E-01 +3.79034318465E-01 +5.43280831328E-05 -1.19008636315E-04 +8.02270897504E-05 -7.70402083698E-05 +7.19775496229E-01 +4.98533229863E-01
2.65000000000E+09 +7.30198457826E-01 +3.68048947789E-01 +1.32985328318E-04 -1.95122479485E-04 +1.84791354994E-04 -2.09371379820E-04 +7.23947086385E-01 +4.88519327802E-01
2.65500000000E+09 +7.33063837740E-01 +3.57323708066E-01 -3.30580845077E-05 -3.97570780532E-04 -1.92903611539E-05 -3.90071403265E-04 +7.27491372346E-01 +4.77949961375E-01
2.66000000000E+09 +7.36103513647E-01 +3.46560773573E-01 -1.42755620419E-04 -2.14230432681E-04 -6.46008108059E-05 -3.20165510724E-04 +7.31272768916E-01 +4.67128763320E-01
2.66500000000E+09 +7.39225604335E-01 +3.35405594312E-01 -1.03598892366E-04 -3.07459598606E-04 -1.22796822109E-04 -3.35447730555E-04 +7.35496031482E-01 +4.56012671181E-01
2.67000000000E+09 +7.41912759245E-01 +3.23098773448E-01 -2.13983098006E-04 -3.68729211040E-04 -2.63311138586E-04 -3.17412838215E-04 +7.39867936829E-01 +4.45258343421E-01
2.67500000000E+09 +7.44101569732E-01 +3.09852542755E-01 -2.64949039536E-04 -2.63019045813E-04 -2.99475893041E-04 -2.84568911617E-04 +7.43838702323E-01 +4.33814687118E-01
2.68000000000E+09 +7.45600740931E-01 +2.95712029155E-01 -3.45420546284E-04 -1.10626060484E-04 -3.83936456320E-04 -7.01613606126E-05 +7.47258601190E-01 +4.22598758429E-01
2.68500000000E+09 +7.46506286026E-01 +2.81226147022E-01 -2.86596807638E-04 -6.62307447775E-07 -2.40940900971E-04 -1.68110629078E-05 +7.50169799794E-01 +4.11540862513E-01
2.69000000000E+09 +7.46887855109E-01 +2.66896857291E-01 -2.00851184826E-04 +4.44734803443E-05 -2.39607942750E-04 +1.27493306407E-06 +7.52545099989E-01 +3.99947979754E-01
2.69500000000E+09 +7.47142182342E-01 +2.52645938727E-01 -1.59676384703E-04 -6.78745032738E-05 -1.56419855554E-04 -6.16942858346E-05 +7.55042775312E-01 +3.87908902977E-01
2.70000000000E+09 +7.47248380185E-01 +2.38702142381E-01 -2.17490397672E-04 -1.68860233240E-04 -2.23918041763E-04 -1.79566406482E-04 +7.57987869046E-01 +3.75070184759E-01
2.70500000000E+09 +7.47403615318E-01 +2.25601717772E-01 -3.39944993294E-04 -1.18241235055E-04 -3.44361197257E-04 -1.11723755289E-04 +7.60899807855E-01 +3.62191561058E-01
2.71000000000E+09 +7.48028998417E-01 +2.12344961267E-01 -4.10082010253E-04 +2.77417478972E-05 -3.98958214851E-04 -2.88902310972E-05 +7.63947640962E-01 +3.49255149084E-01
2.71500000000E+09 +7.48921828321E-01 +1.98577677394E-01 -3.13780364369E-04 +2.10247954024E-04 -3.46319695648E-04 +1.97459439254E-04 +7.66303857948E-01 +3.36582772564E-01
2.72000000000E+09 +7.49521597813E-01 +1.84166404687E-01 -1.22089132363E-04 +8.06581304848E-05 -1.31183409984E-04 +7.31015124650E-05 +7.68136949660E-01 +3.24243630203E-01
2.72500000000E+09 +7.49623442030E-01 +1.68595623130E-01 -2.76117767233E-04 +1.01857705033E-05 -2.41724078225E-04 +4.14890999015E-06 +7.69669801662E-01 +3.11100041089E-01
2.73000000000E+09 +7.48224776069E-01 +1.52331954610E-01 -3.00758209123E-04 +1.83270899425E-04 -2.55438517999E-04 +1.32315975630E-04 +7.70932020776E-01 +2.97090353080E-01
2.73500000000E+09 +7.45670693847E-01 +1.35150511595E-01 -1.04088332300E-04 +3.21958055725E-05 -6.96549712508E-05 +2.31864262679E-05 +7.71892396605E-01 +2.82054395405E-01
2.74000000000E+09 +7.42243978646E-01 +1.18269484658E-01 -3.29399265895E-04 -5.56377884740E-05 -2.66090728568E-04 -3.85381251416E-05 +7.72917538948E-01 +2.67254372000E-01
2.74500000000E+09 +7.37575559432E-01 +1.00859573509E-01 -3.06193980722E-04 +3.03527192148E-05 -3.01285499303E-04 +2.81581444823E-05 +7.73766358559E-01 +2.52220736249E-01
2.75000000000E+09 +7.31852103150E-01 +8.38260086187E-02 -3.38908018446E-04 +5.90107254462E-05 -3.55165467449E-04 +7.53994131990E-05 +7.74609299056E-01 +2.37617002976E-01
2.75500000000E+09 +7.26081212869E-01 +6.72145976500E-02 -3.68386215741E-04 +4.63502430889E-05 -4.47048180086E-04 +3.09446701228E-05 +7.74535040325E-01 +2.22582742159E-01
2.76000000000E+09 +7.20522281302E-01 +5.08488139739E-02 -5.42208038084E-04 +1.43113827438E-04 -6.00076353302E-04 +1.29534003242E-04 +7.73476196626E-01 +2.07283743542E-01
2.76500000000E+09 +7.15353564151E-01 +3.44180934901E-02 -5.17919852400E-04 +2.49172487099E-04 -5.23115653831E-04 +2.59741629875E-04 +7.72249777845E-01 +1.91978092877E-01
2.77000000000E+09 +7.10826880192E-01 +1.72568228337E-02 -4.82617872260E-04 +3.99813265120E-04 -5.40850782760E-04 +4.69881616293E-04 +7.71639575484E-01 +1.75700835669E-01
2.77500000000E+09 +7.06356699957E-01 -1.11290761880E-03 -4.46965016915E-04 +4.15215198554E-04 -4.43977712057E-04 +4.46669486702E-04 +7.70363057641E-01 +1.58492171761E-01
2.78000000000E+09 +7.01872119448E-01 -2.01118604803E-02 -3.66110030072E-04 +4.96382621232E-04 -3.95653922983E-04 +5.28130832723E-04 +7.68982656597E-01 +1.40998788246E-01
2.78500000000E+09 +6.96421673949E-01 -4.03910204263E-02 -5.60277681568E-04 +5.43765418850E-04 -4.80115412192E-04 +5.50676888478E-04 +7.66741486509E-01 +1.24005248973E-01
2.79000000000E+09 +6.89991911162E-01 -6.09577334773E-02 -5.11729179275E-04 +8.74712748396E-04 -4.86902936455E-04 +8.83214359159E-04 +7.64549216128E-01 +1.07544674011E-01
2.79500000000E+09 +6.82457023914E-01 -8.12959981486E-02 -1.50180170875E-04 +1.18118354240E-03 -7.11735906547E-05 +1.09803866715E-03 +7.61654754620E-01 +8.93965051919E-02
2.80000000000E+09 +6.72997405007E-01 -1.01097535037E-01 +3.12884161966E-04 +1.02929026016E-03 +2.78565672757E-04 +9.92018560363E-04 +7.57390148043E-01 +7.07694488925E-02
2.80500000000E+09 +6.62857433972E-01 -1.19088690863E-01 +2.53020202702E-04 +6.07267824743E-04 +2.15536865212E-04 +5.94625301383E-04 +7.52544501177E-01 +5.16460680132E-02
2.81000000000E+09 +6.51800541212E-01 -1.36231706221E-01 -1.08186093467E-05 +7.80505859199E-04 +1.97938455844E-05 +8.29635172668E-04 +7.47223190793E-01 +3.17844208071E-02
2.81500000000E+09 +6.40192548653E-01 -1.52337679995E-01 +2.45143683488E-04 +1.12669074022E-03 +2.94829015116E-04 +1.10921696880E-03 +7.40853343755E-01 +1.15120458822E-02
2.82000000000E+09 +6.27673593728E-01 -1.68594204559E-01 +6.56919432140E-04 +1.08527263327E-03 +6.93192055518E-04 +1.07967180829E-03 +7.33902854661E-01 -9.02688799605E-03
2.82500000000E+09 +6.13538122035E-01 -1.84578476021E-01 +8.25066764212E-04 +8.72130441018E-04 +7.97637429250E-04 +8.22591308578E-04 +7.25226569591E-01 -2.99873347706E-02
2.83000000000E+09 +5.98263957972E-01 -2.01139213345E-01 +1.05869013075E-03 +7.81984369540E-04 +9.53744289737E-04 +7.18094089902E-04 +7.15484305692E-01 -5.04223175724E-02
2.83500000000E+09 +5.81408725888E-01 -2.18761827003E-01 +1.13175091268E-03 +5.81912157058E-04 +1.12709069332E-03 +5.55550691131E-04 +7.04660107088E-01 -7.04686823412E-02
2.84000000000E+09 +5.61624310824E-01 -2.36703792846E-01 +1.27210243994E-03 +2.77099708662E-04 +1.23853300081E-03 +2.84599106769E-04 +6.93456855767E-01 -9.09991502017E-02
2.84500000000E+09 +5.39879515374E-01 -2.54619587239E-01 +9.87760700235E-04 +1.09703520405E-05 +9.84235028989E-04 +5.58785089708E-06 +6.81070102081E-01 -1.11848965850E-01
2.85000000000E+09 +5.16805852712E-01 -2.71771451014E-01 +1.05526295208E-03 +1.08086700893E-05 +1.07191895984E-03 +4.91123762594E-05 +6.66717627556E-01 -1.32587329534E-01
2.85500000000E+09 +4.92112780438E-01 -2.88546830108E-01 +9.08570906596E-04 -1.71981214376E-05 +9.47607880999E-04 -4.20449487011E-05 +6.51878551710E-01 -1.52290728106E-01
2.86000000000E+09 +4.66917651710E-01 -3.03776417174E-01 +1.18370784170E-03 +1.32228430645E-04 +1.17316701388E-03 +1.79705511110E-04 +6.35975664415E-01 -1.72792376940E-01
2.86500000000E+09 +4.41827634608E-01 -3.17751066217E-01 +1.59934893204E-03 -3.09702031506E-04 +1.59287177765E-03 -2.57552165007E-04 +6.18412572452E-01 -1.92981318822E-01
2.87000000000E+09 +4.16390234733E-01 -3.30647754076E-01 +1.39453602717E-03 -9.61129323260E-04 +1.45801578404E-03 -8.84524051386E-04 +5.99659383607E-01 -2.13013965112E-01
2.87500000000E+09 +3.91048539134E-01 -3.41875467211E-01 +8.23370258379E-04 -1.14973757483E-03 +7.71526204694E-04 -1.21044975722E-03 +5.79241361751E-01 -2.32284206057E-01
2.88000000000E+09 +3.66057299126E-01 -3.52225725613E-01 +4.58478463961E-04 -9.33714810506E-04 +4.38009701294E-04 -9.24109820606E-04 +5.58440633777E-01 -2.50788142966E-01
2.88500000000E+09 +3.40021108217E-01 -3.62073764049E-01 +4.83050761418E-04 -7.02369075553E-04 +4.38554880185E-04 -6.70738702415E-04 +5.35949616668E-01 -2.69487094610E-01
2.89000000000E+09 +3.12248132102E-01 -3.70206780554E-01 +8.01678794397E-04 -8.38338033236E-04 +6.72878801511E-04 -7.28943850815E-04 +5.11822314050E-01 -2.86753939957E-01
2.89500000000E+09 +2.83576732545E-01 -3.76459612636E-01 +5.67605786696E-04 -1.11978070292E-03 +6.65328917694E-04 -1.07603059761E-03 +4.86681814397E-01 -3.05146777865E-01
2.90000000000E+09 +2.53609703111E-01 -3.81354430170E-01 +3.23836191003E-04 -1.10122145082E-03 +3.35024397204E-04 -1.07668363252E-03 +4.57924939922E-01 -3.22756220048E-01
2.90500000000E+09 +2.22252208397E-01 -3.84630164205E-01 +4.08852411231E-04 -1.17239412039E-03 +4.15535309921E-04 -1.13568702847E-03 +4.28419038315E-01 -3.37855428326E-01
2.91000000000E+09 +1.89961210482E-01 -3.84988164919E-01 +7.37750946158E-05 -1.50541545065E-03 +7.88158134174E-06 -1.48439959902E-03 +3.98393364485E-01 -3.52780053026E-01
2.91500000000E+09 +1.57857508027E-01 -3.83963315704E-01 -3.68754538081E-04 -1.00980460761E-03 -3.23572637365E-04 -9.89625102673E-04 +3.65967947924E-01 -3.65866777264E-01
2.92000000000E+09 +1.25316360141E-01 -3.80867270296E-01 -3.73218648223E-05 -1.11493144489E-03 -4.28584342432E-05 -1.03118377064E-03 +3.32238048046E-01 -3.76208872669E-01
2.92500000000E+09 +9.34947677658E-02 -3.75695778880E-01 -3.89005950460E-04 -1.39071414100E-03 -2.86598181444E-04 -1.31491795873E-03 +2.97112895674E-01 -3.84160943093E-01
2.93000000000E+09 +6.23840265314E-02 -3.68745626950E-01 -8.86545956543E-04 -1.32662893411E-03 -8.43733938152E-04 -1.36453400486E-03 +2.60938436830E-01 -3.91157463624E-01
2.93500000000E+09 +3.14198260011E-02 -3.61297461302E-01 -1.09521882822E-03 -7.16108016998E-04 -1.08439562317E-03 -6.66295418480E-04 +2.22339609858E-01 -3.96750908942E-01
2.94000000000E+09 -2.12976129720E-04 -3.50718822130E-01 -6.76313218034E-04 -3.26614841456E-04 -7.35366376258E-04 -3.25510214900E-04 +1.82265639254E-01 -3.99876396496E-01
2.94500000000E+09 -3.01772459910E-02 -3.37690892446E-01 -2.75858647342E-04 -6.20653805166E-04 -3.22857983674E-04 -6.76272578244E-04 +1.41027509857E-01 -4.00088246020E-01
2.95000000000E+09 -6.02421162106E-02 -3.22451783811E-01 -6.94819135762E-04 -1.26272378488E-03 -6.01957649364E-04 -1.23580790778E-03 +1.00874162128E-01 -3.96242406939E-01
2.95500000000E+09 -8.93456718202E-02 -3.04211915073E-01 -1.44399114883E-03 -9.67143699063E-04 -1.46930799876E-03 -1.07172652724E-03 +6.07607137327E-02 -3.90514689013E-01
2.96000000000E+09 -1.17139138769E-01 -2.83514010891E-01 -1.77730397140E-03 -2.75801158339E-04 -1.85187325763E-03 -3.60529764613E-04 +2.02452726591E-02 -3.80838582940E-01
2.96500000000E+09 -1.43895362938E-01 -2.61105216177E-01 -1.19105767894E-03 +6.78684460416E-04 -1.24452142506E-03 +7.21986437414E-04 -1.89171607118E-02 -3.69107195955E-01
2.97000000000E+09 -1.69716125504E-01 -2.35677335086E-01 -2.97155892965E-04 +2.54095153727E-04 -2.59195551736E-04 +2.38469371058E-04 -6.01354014665E-02 -3.55294977918E-01
2.97500000000E+09 -1.93023216487E-01 -2.08451457514E-01 -6.03652643715E-04 -6.01946018513E-04 -5.81514995466E-04 -5.60484400914E-04 -9.92508326527E-02 -3.37395535560E-01
2.98000000000E+09 -2.14105896938E-01 -1.79801964070E-01 -1.69913037573E-03 -2.77247140636E-04 -1.68626501005E-03 -3.23431210939E-04 -1.38116866958E-01 -3.17774767862E-01
2.98500000000E+09 -2.33839934277E-01 -1.51880322507E-01 -1.34686735515E-03 +8.72356977820E-04 -1.39302976589E-03 +8.08667301719E-04 -1.74998214698E-01 -2.94116130591E-01
2.99000000000E+09 -2.52692794586E-01 -1.22228925966E-01 -4.34690531419E-04 +6.13303688346E-04 -5.00202542791E-04 +6.24221130342E-04 -2.10282071845E-01 -2.67956481143E-01
2.99500000000E+09 -2.69304076964E-01 -9.27600434213E-02 -6.70742273274E-04 +1.34334258960E-04 -6.92141066475E-04 +1.40655361067E-04 -2.43644308552E-01 -2.37138203734E-01
3.00000000000E+09 -2.85288753154E-01 -6.18006253987E-02 -1.03809102022E-03 +3.13143019840E-04 -1.00620298565E-03 +3.66803033673E-04 -2.72739468431E-01 -2.05578638993E-01
3.00500000000E+09 -2.97296969351E-01 -3.03866972106E-02 -1.29122122988E-03 +6.46538359695E-04 -1.19804942844E-03 +6.71238741031E-04 -3.01802330948E-01 -1.72863244440E-01
3.01000000000E+09 -3.06617529881E-01 -4.32562845496E-04 -8.01360593142E-04 +1.19467999634E-03 -7.92677701019E-04 +1.16487331489E-03 -3.27861060890E-01 -1.37703075842E-01
3.01500000000E+09 -3.14715923634E-01 +2.83002410906E-02 -1.32245969454E-04 +1.30862565304E-03 -1.78230627079E-04 +1.23180134083E-03 -3.51676391483E-01 -1.01508120732E-01
3.02000000000E+09 -3.21042943460E-01 +5.84604689266E-02 +2.23003233864E-04 +6.20840562329E-04 +2.17894480697E-04 +6.23399818401E-04 -3.71881905375E-01 -6.31678048546E-02
3.02500000000E+09 -3.22786794531E-01 +8.80805524751E-02 -2.40471785511E-04 +2.19265040301E-04 -2.25630650910E-04 +2.17309431507E-04 -3.88443667789E-01 -2.40091823715E-02
3.03000000000E+09 -3.22306227195E-01 +1.16100144435E-01 -8.15839671288E-04 +7.41945425433E-04 -8.02378799002E-04 +7.22360400422E-04 -4.01786872934E-01 +1.57126960528E-02
3.03500000000E+09 -3.20417698881E-01 +1.43794393517E-01 -3.01269378705E-04 +1.39914800219E-03 -2.73703723846E-04 +1.34630277311E-03 -4.12033166436E-01 +5.55878329265E-02
3.04000000000E+09 -3.16039286326E-01 +1.71861758233E-01 +4.81126896899E-04 +6.19627809414E-04 +4.85241781210E-04 +6.41590779033E-04 -4.19641686596E-01 +9.49555069922E-02
3.04500000000E+09 -3.09689907947E-01 +1.99242440154E-01 -1.02454588221E-04 +6.77478741464E-04 -7.63020467673E-05 +7.14692759814E-04 -4.24811690026E-01 +1.33916669800E-01
3.05000000000E+09 -3.01546004922E-01 +2.27100681872E-01 +4.65873376242E-05 +6.38389425444E-04 +6.11548912960E-05 +6.37410457342E-04 -4.27859956626E-01 +1.72389746490E-01
3.05500000000E+09 -2.90888817869E-01 +2.53388916948E-01 -1.27744166024E-04 +9.14813357804E-04 -1.04018410186E-04 +1.00134875758E-03 -4.28413881951E-01 +2.10260669762E-01
3.06000000000E+09 -2.80291214339E-01 +2.78951785402E-01 +3.95773033590E-04 +1.00200166738E-03 +3.99943338602E-04 +1.01280159822E-03 -4.26852396427E-01 +2.48118668067E-01
3.06500000000E+09 -2.69133462449E-01 +3.03949571588E-01 +6.21643250538E-04 +6.81419396985E-04 +5.39878919807E-04 +7.21398543722E-04 -4.22388555489E-01 +2.85065843611E-01
3.07000000000E+09 -2.56976346160E-01 +3.28462595667E-01 +5.66165047493E-04 +4.39947008285E-04 +4.88382269040E-04 +4.75177606485E-04 -4.15603014447E-01 +3.20502698064E-01
