# Hz S RI R 50
! CMT, C1220, 16058040, 17.2.0/1
! Date: 15/08/2018 10:25:24
! Data: Format (Calibration Info)
! Freq                      S11: Re/Im (F2)                       S21: Re/Im (F2)                       S12: Re/Im (F2)                       S22: Re/Im (F2)            
2.50000000000E+09 +5.81269980844E-01 +6.38533329625E-01 +1.49948812903E-04 +1.65513954865E-05 +2.03260271856E-04 -1.71735240618E-05 +5.70974527475E-01 +7.19859350824E-01
2.50500000000E+09 +5.88398773568E-01 +6.30901606350E-01 +1.59194551849E-04 -3.88972641785E-05 +2.08004722627E-04 -6.12266477587E-05 +5.77174188884E-01 +7.13876147244E-01
2.51000000000E+09 +5.95890210975E-01 +6.22828418231E-01 +1.61439547530E-04 -8.11726966299E-05 +2.06932262884E-04 -8.06885658640E-05 +5.83029877617E-01 +7.08191436336E-01
2.51500000000E+09 +6.03191344240E-01 +6.14893979638E-01 +1.19818155363E-04 -2.77145612607E-05 +1.49561720514E-04 -8.57180622604E-05 +5.88354628053E-01 +7.02217765976E-01
2.52000000000E+09 +6.09664959458E-01 +6.06778046768E-01 +2.17221365593E-04 -1.22696414894E-04 +1.73572739510E-04 -1.04887109452E-04 +5.93545602130E-01 +6.95697217049E-01
2.52500000000E+09 +6.15156309166E-01 +5.99360608187E-01 +1.46123175614E-04 -1.49874516115E-04 +1.63061114276E-04 -1.97640439672E-04 +5.99136396854E-01 +6.88924559537E-01
2.53000000000E+09 +6.20086186912E-01 +5.92440362103E-01 +1.15145320090E-04 -1.61076932091E-04 +1.27707725102E-04 -1.63347921727E-04 +6.05040900528E-01 +6.81425634174E-01
2.53500000000E+09 +6.24414926748E-01 +5.85969784705E-01 +5.28559676673E-06 -1.64498152444E-04 +6.75966111953E-05 -2.01856127049E-04 +6.10595752960E-01 +6.74350290680E-01
2.54000000000E+09 +6.28535658376E-01 +5.79727383630E-01 +3.78048164045E-05 -1.33066032279E-04 +9.04481028464E-06 -1.31737540561E-04 +6.16118313936E-01 +6.67717524540E-01
2.54500000000E+09 +6.32596482796E-01 +5.73612488739E-01 +5.59732076010E-05 -1.44408835565E-04 +2.34947970403E-05 -1.21667890064E-04 +6.21426442308E-01 +6.61015573533E-01
2.55000000000E+09 +6.37225011632E-01 +5.67524086872E-01 +1.29929165024E-04 -1.26828320220E-04 +1.13626304266E-04 -1.09854860270E-04 +6.25942370065E-01 +6.54905820621E-01
2.55500000000E+09 +6.42427034308E-01 +5.60943892702E-01 +7.53737340830E-05 -2.60699263804E-04 +1.09907349664E-04 -3.02658894383E-04 +6.30505203359E-01 +6.48791339498E-01
2.56000000000E+09 +6.48643772542E-01 +5.54119328706E-01 -8.61141342918E-07 -2.90113724156E-04 -9.11958859665E-06 -3.11006182501E-04 +6.35329389370E-01 +6.42061692903E-01
2.56500000000E+09 +6.55089111526E-01 +5.46117522711E-01 -9.19899810768E-05 -2.77705614920E-04 -1.34981690006E-04 -2.60274491517E-04 +6.40794644751E-01 +6.35095628888E-01
2.57000000000E+09 +6.61238697375E-01 +5.38139962397E-01 -1.89472334978E-04 -2.87839281880E-04 -2.50281202011E-04 -2.11868377029E-04 +6.46198586615E-01 +6.27451803379E-01
2.57500000000E+09 +6.67292828171E-01 +5.29834767582E-01 -2.58546804521E-04 -1.29071242380E-04 -2.15753265610E-04 -7.11907469649E-05 +6.51660205774E-01 +6.20018151854E-01
2.58000000000E+09 +6.72450892577E-01 +5.21490837816E-01 -1.71637161881E-04 -7.91887247732E-05 -1.44423077240E-04 -3.47428910377E-05 +6.56890254669E-01 +6.12776889747E-01
2.58500000000E+09 +6.76998334065E-01 +5.13272094572E-01 -1.86532938368E-04 -1.84752708057E-04 -1.47259651943E-04 -1.20386249512E-04 +6.61965518208E-01 +6.05188332426E-01
2.59000000000E+09 +6.80845454417E-01 +5.05388367479E-01 -2.94613683089E-04 -2.37156258328E-05 -2.45213949051E-04 -7.90884291733E-05 +6.66895340253E-01 +5.97661540207E-01
2.59500000000E+09 +6.84778522927E-01 +4.97432964388E-01 -2.56686293859E-04 -5.22934516213E-06 -2.64448257860E-04 -2.22729599984E-05 +6.72251537735E-01 +5.89680563574E-01
2.60000000000E+09 +6.88146231454E-01 +4.89057561221E-01 -2.54701538707E-04 +9.27957417779E-05 -2.43842994425E-04 +7.23310957010E-05 +6.77569989159E-01 +5.81035400851E-01
2.60500000000E+09 +6.92162642892E-01 +4.80048821449E-01 -1.78600894757E-04 +1.23619685604E-04 -2.13287509651E-04 +5.14476522519E-05 +6.83150142645E-01 +5.72107911460E-01
2.61000000000E+09 +6.96541056734E-01 +4.69912985694E-01 -1.39424982697E-04 +1.32323869996E-04 -1.30635707608E-04 +7.44549893891E-05 +6.88198667468E-01 +5.62979264502E-01
2.61500000000E+09 +7.01218509929E-01 +4.58588378814E-01 -1.27885638761E-04 +1.35456162722E-04 -1.14133308292E-04 +1.26079852476E-04 +6.92893744846E-01 +5.54215334570E-01
2.62000000000E+09 +7.05890239272E-01 +4.46158138764E-01 -4.68879420468E-05 +2.16696382116E-04 -7.98422309139E-05 +1.98615824455E-04 +6.97347264482E-01 +5.45191483348E-01
2.62500000000E+09 +7.10626452770E-01 +4.32798148038E-01 +2.11317022678E-05 +1.85886882100E-04 +5.08970927305E-05 +1.92554614523E-04 +7.01708220848E-01 +5.36310901037E-01
2.63000000000E+09 +7.14880994489E-01 +4.19343904996E-01 +4.22598341489E-05 +9.03144572701E-05 +8.18489774223E-05 +9.52874717512E-05 +7.06059563612E-01 +5.27177068134E-01
2.63500000000E+09 +7.18693819643E-01 +4.06148004533E-01 -4.85338555347E-05 +1.09186256996E-04 -5.19603376809E-05 +1.40114408420E-04 +7.10529583836E-01 +5.18025845055E-01
2.64000000000E+09 +7.22063989949E-01 +3.93614481881E-01 +7.52006286506E-05 +1.43252138137E-04 +4.82348155830E-05 +1.61639790560E-04 +7.15094079795E-01 +5.08519383333E-01
2.64500000000E+09 +7.25271317799E-01 +3.81901211787E-01 +1.54206297111E-04 +1.75227278931E-04 +9.72835026975E-05 +1.88566442916E-04 +7.19503817855E-01 +4.98721136760E-01
2.65000000000E+09 +7.27996501269E-01 +3.71153604767E-01 +2.49457188117E-04 +3.87366088291E-05 +2.39892689753E-04 +9.90633041452E-05 +7.23639015884E-01 +4.88745609992E-01
2.65500000000E+09 +7.30821647362E-01 +3.60657979790E-01 +1.55834356660E-04 -1.32250749269E-04 +1.41472214254E-04 -1.63587513781E-04 +7.27390524044E-01 +4.78330228483E-01
2.66000000000E+09 +7.33897224350E-01 +3.50123554354E-01 +2.08013400625E-05 -4.58384894824E-05 +5.64239221867E-05 -4.77942658680E-05 +7.31188891836E-01 +4.67433380517E-01
2.66500000000E+09 +7.37160676325E-01 +3.39267786297E-01 +6.67669893971E-05 -2.95359459541E-05 +6.94276105119E-05 -1.19208917652E-05 +7.35417016597E-01 +4.56425252211E-01
2.67000000000E+09 +7.40198120050E-01 +3.27202785412E-01 +6.33694811734E-05 -6.69233281927E-05 +1.26099871921E-04 -4.68061259694E-05 +7.39770534199E-01 +4.45542638119E-01
2.67500000000E+09 +7.42647477326E-01 +3.13747859673E-01 +4.00597898742E-05 -9.46297603075E-05 +3.26577590757E-05 -1.32006656017E-04 +7.43909121276E-01 +4.34135606021E-01
2.68000000000E+09 +7.44184110861E-01 +2.99831257954E-01 -7.77584842705E-05 -9.81197031246E-05 -4.05372390031E-05 -1.04213976315E-04 +7.47504163172E-01 +4.22922379917E-01
2.68500000000E+09 +7.45219840352E-01 +2.85902531710E-01 -9.49885770880E-05 +2.86903340302E-05 -1.17083832580E-04 -3.57243715887E-08 +7.50331638348E-01 +4.11631296459E-01
2.69000000000E+09 +7.45904810714E-01 +2.71597084876E-01 +2.15414614254E-05 +9.77912069986E-05 +5.73587674533E-05 +1.17630691204E-04 +7.52967955167E-01 +3.99907305899E-01
2.69500000000E+09 +7.46338679834E-01 +2.57751123367E-01 +1.10086533803E-04 +5.31014513936E-05 +1.05152166125E-04 +7.20917050467E-05 +7.55147126549E-01 +3.87568178311E-01
2.70000000000E+09 +7.46695066151E-01 +2.43981438200E-01 +9.29456180353E-05 -1.06939914918E-04 +1.17745309690E-04 -9.17836383899E-05 +7.58033425723E-01 +3.74819345055E-01
2.70500000000E+09 +7.46912408674E-01 +2.30856333103E-01 +3.03538396238E-05 -3.62716266409E-05 -9.97087951669E-06 -1.27268614187E-06 +7.60658156461E-01 +3.61815247528E-01
2.71000000000E+09 +7.47303948227E-01 +2.17885670449E-01 +8.37399029306E-05 -7.60093863998E-05 +8.66088669587E-05 -9.65790472649E-05 +7.63505102671E-01 +3.48945750989E-01
2.71500000000E+09 +7.48302680525E-01 +2.04497310761E-01 +2.60498283153E-05 +4.09839852468E-05 +2.24272154160E-05 +2.99898289157E-05 +7.65802838881E-01 +3.36383267057E-01
2.72000000000E+09 +7.49060062234E-01 +1.90319659393E-01 +1.94715700273E-04 -4.83950247846E-05 +1.96106702901E-04 +3.62650651929E-06 +7.67492860798E-01 +3.24060067174E-01
2.72500000000E+09 +7.49285934034E-01 +1.75292797899E-01 +1.74360249813E-04 -1.83614052011E-04 +1.34291628846E-04 -2.44950975868E-04 +7.68891470986E-01 +3.11016426636E-01
2.73000000000E+09 +7.48307405648E-01 +1.59038021702E-01 +9.49131642240E-05 -9.04643342371E-05 +5.19574312261E-05 -5.91285265675E-05 +7.70319763056E-01 +2.97090860453E-01
2.73500000000E+09 +7.46100848134E-01 +1.42157708444E-01 +2.40558406468E-04 -2.26166288612E-04 +2.06578751857E-04 -2.03658614379E-04 +7.71106689560E-01 +2.82113178038E-01
2.74000000000E+09 +7.42877162014E-01 +1.25796027830E-01 +9.59596152082E-05 -3.75300903273E-04 +7.98611183265E-05 -3.49856303502E-04 +7.72136951374E-01 +2.67459204362E-01
2.74500000000E+09 +7.38801521788E-01 +1.08805004738E-01 +1.80182262400E-05 -4.22457723596E-04 +3.03265126624E-05 -3.96605515605E-04 +7.72872778656E-01 +2.52457771362E-01
2.75000000000E+09 +7.33971273900E-01 +9.23122254818E-02 -1.17210537985E-04 -4.51254006003E-04 -4.78414033007E-05 -4.46412586232E-04 +7.73954079088E-01 +2.38027162128E-01
2.75500000000E+09 +7.28853783791E-01 +7.57017113679E-02 -2.35327351945E-04 -5.11096737223E-04 -2.41999471660E-04 -5.54598650170E-04 +7.73889973459E-01 +2.22824446495E-01
2.76000000000E+09 +7.23834858536E-01 +5.94040583610E-02 -4.57552312131E-04 -4.19795212834E-04 -5.37794231621E-04 -5.13371483512E-04 +7.72854224274E-01 +2.07791455510E-01
2.76500000000E+09 +7.19020753262E-01 +4.31320615561E-02 -5.39132964122E-04 -2.32458761453E-04 -5.58137359098E-04 -2.53504176429E-04 +7.71574579743E-01 +1.92478044326E-01
2.77000000000E+09 +7.15072214675E-01 +2.60784881071E-02 -5.34393702092E-04 -1.20281113972E-04 -5.25219269549E-04 -5.42583315010E-05 +7.70960572982E-01 +1.76203482461E-01
2.77500000000E+09 +7.10932826984E-01 +7.80137399230E-03 -4.13789355555E-04 -6.77755750448E-05 -4.82396937194E-04 -9.13501339701E-05 +7.69626910031E-01 +1.58893201461E-01
2.78000000000E+09 +7.06887917230E-01 -1.14096129502E-02 -4.34647533439E-04 -6.14173359728E-05 -4.42614590008E-04 -6.11319380568E-05 +7.68079649735E-01 +1.41545870451E-01
2.78500000000E+09 +7.01940936078E-01 -3.16753809591E-02 -5.85077054680E-04 -2.91570730918E-05 -5.83405693714E-04 -1.45177183213E-06 +7.65847390161E-01 +1.24669906431E-01
2.79000000000E+09 +6.96188260906E-01 -5.24591250278E-02 -7.21374269320E-04 +2.42680819973E-04 -6.52533445122E-04 +3.02126742267E-04 +7.63779496968E-01 +1.08314481782E-01
2.79500000000E+09 +6.89035728754E-01 -7.28152976529E-02 -5.44829968192E-04 +4.98888046389E-04 -5.07018359024E-04 +4.74668148459E-04 +7.60996332674E-01 +9.02741463239E-02
2.80000000000E+09 +6.80370891682E-01 -9.28091874875E-02 -2.44396600231E-04 +5.16046534478E-04 -2.76458674809E-04 +4.87081092058E-04 +7.56652450834E-01 +7.16100728931E-02
2.80500000000E+09 +6.70961266351E-01 -1.11289385992E-01 -3.02227058370E-04 +2.34354255748E-04 -2.45133714831E-04 +2.84352868954E-04 +7.51936411917E-01 +5.27208369530E-02
2.81000000000E+09 +6.60560153313E-01 -1.28752309340E-01 -3.97813395847E-04 +3.33732607758E-04 -4.16866938143E-04 +3.22701964180E-04 +7.46511048186E-01 +3.28637106681E-02
2.81500000000E+09 +6.49384198392E-01 -1.45331872322E-01 -3.92732688828E-04 +4.80497190581E-04 -4.13152541704E-04 +4.52663455433E-04 +7.40260315938E-01 +1.27821098847E-02
2.82000000000E+09 +6.37234524906E-01 -1.61649482959E-01 -3.52112318805E-04 +5.50627669503E-04 -3.52321949120E-04 +5.77224511021E-04 +7.33517694290E-01 -7.62873024464E-03
2.82500000000E+09 +6.24119388672E-01 -1.77688308266E-01 -3.46827197573E-04 +7.61002996592E-04 -3.24288382620E-04 +7.45162494024E-04 +7.25037105462E-01 -2.84684733936E-02
2.83000000000E+09 +6.09664781868E-01 -1.94783798249E-01 -1.05302113945E-04 +8.77869794010E-04 -1.38689886590E-04 +8.42148222286E-04 +7.15327888965E-01 -4.87470443069E-02
2.83500000000E+09 +5.93411587843E-01 -2.13264650764E-01 +8.32528061892E-05 +8.89047478076E-04 +4.50431832852E-05 +9.11318541753E-04 +7.04929575036E-01 -6.89720601030E-02
2.84000000000E+09 +5.73826342176E-01 -2.31916853733E-01 +3.43636990135E-04 +7.71241497706E-04 +3.74453378819E-04 +7.45889124174E-04 +6.93805237074E-01 -8.97497963165E-02
2.84500000000E+09 +5.52589744372E-01 -2.50020768386E-01 +3.04142843467E-04 +5.32980207143E-04 +2.31419339435E-04 +5.58789482569E-04 +6.81403035026E-01 -1.10639646970E-01
2.85000000000E+09 +5.30284198842E-01 -2.67953136580E-01 +3.06240894454E-04 +7.03878614434E-04 +2.73681170142E-04 +7.63771822408E-04 +6.67262963267E-01 -1.31345895848E-01
2.85500000000E+09 +5.06323830211E-01 -2.85681201995E-01 +4.37335682349E-04 +7.38295437863E-04 +4.31684694384E-04 +8.10748909111E-04 +6.52313177915E-01 -1.51170182466E-01
2.86000000000E+09 +4.81575220276E-01 -3.02293037473E-01 +7.61151027633E-04 +8.17169664196E-04 +7.53874899725E-04 +7.34038668455E-04 +6.36605502450E-01 -1.71641325383E-01
2.86500000000E+09 +4.56298378540E-01 -3.17282092040E-01 +9.71167026530E-04 +4.81305024562E-04 +9.38599334391E-04 +5.32896977053E-04 +6.19060072747E-01 -1.91914753373E-01
2.87000000000E+09 +4.31185785032E-01 -3.30889663380E-01 +9.90596674119E-04 +2.37463775714E-04 +9.79178566785E-04 +3.18676943627E-04 +6.00359556430E-01 -2.11971670740E-01
2.87500000000E+09 +4.06266157308E-01 -3.43217857197E-01 +8.17186852544E-04 +1.34410258974E-04 +8.33006405870E-04 +1.10077060359E-04 +5.80045981598E-01 -2.31324396498E-01
2.88000000000E+09 +3.81116745110E-01 -3.55069904781E-01 +9.35581314436E-04 +8.58130597302E-05 +9.58899668913E-04 +9.76110259671E-05 +5.59210803611E-01 -2.49793472088E-01
2.88500000000E+09 +3.54492035555E-01 -3.65817800202E-01 +1.04728456116E-03 -8.49315296285E-05 +1.03437602057E-03 -8.64795398763E-05 +5.37013992193E-01 -2.68567646438E-01
2.89000000000E+09 +3.26821515390E-01 -3.74705495527E-01 +9.33183320959E-04 -3.63700317398E-04 +9.40974672160E-04 -3.44064316998E-04 +5.12692128702E-01 -2.86177403541E-01
2.89500000000E+09 +2.98075645495E-01 -3.82380711858E-01 +7.69014497486E-04 -4.40083200384E-04 +7.90159103668E-04 -4.58239456803E-04 +4.87476798533E-01 -3.04247045387E-01
2.90000000000E+09 +2.67406934491E-01 -3.88728997884E-01 +5.23284432172E-04 -3.50119335862E-04 +5.18663911181E-04 -4.16136475664E-04 +4.58972665477E-01 -3.21821261043E-01
2.90500000000E+09 +2.35141779415E-01 -3.92786554283E-01 +8.90504405211E-04 -3.20928218978E-04 +8.83868558660E-04 -3.33744227484E-04 +4.29618842155E-01 -3.37013761654E-01
2.91000000000E+09 +2.02557359692E-01 -3.94195733612E-01 +7.52146374988E-04 -7.86401390367E-04 +6.82343169296E-04 -8.04657767194E-04 +3.99998238602E-01 -3.52090216690E-01
2.91500000000E+09 +1.69727695517E-01 -3.94160839429E-01 +4.78697120427E-04 -6.96720879509E-04 +4.40499920605E-04 -6.79783452045E-04 +3.67584369696E-01 -3.65367738715E-01
2.92000000000E+09 +1.36521319322E-01 -3.92042482599E-01 +5.60457112557E-04 -8.37440536784E-04 +5.37030315519E-04 -7.80038619329E-04 +3.33889769883E-01 -3.75833974298E-01
2.92500000000E+09 +1.03479112253E-01 -3.87787828184E-01 +3.31692342807E-04 -1.13171291237E-03 +3.33870496769E-04 -1.04948566972E-03 +2.98773017366E-01 -3.83935804391E-01
2.93000000000E+09 +7.16549035826E-02 -3.81896981949E-01 -2.02836258213E-04 -9.68356856982E-04 -1.55153932034E-04 -1.01844318307E-03 +2.62751115284E-01 -3.91017620617E-01
2.93500000000E+09 +3.93009091221E-02 -3.74884809618E-01 -3.19353414434E-04 -4.22285812728E-04 -3.32563472418E-04 -4.48619227995E-04 +2.24554073405E-01 -3.96910114331E-01
2.94000000000E+09 +6.77387276358E-03 -3.65213338436E-01 +1.88008775650E-04 -2.93561880237E-04 +1.11554589689E-04 -3.18733399208E-04 +1.84460265113E-01 -4.00659863110E-01
2.94500000000E+09 -2.48891874964E-02 -3.53124003401E-01 +3.44738706290E-04 -8.20525623952E-04 +3.70392870374E-04 -7.64193832266E-04 +1.43110953687E-01 -4.01129100043E-01
2.95000000000E+09 -5.67903648321E-02 -3.38479066927E-01 +1.29031947259E-05 -1.04722414978E-03 +2.07445587069E-05 -9.38555770882E-04 +1.02791105785E-01 -3.97764247499E-01
2.95500000000E+09 -8.77470172850E-02 -3.20252100421E-01 -2.94553527452E-04 -9.41920509509E-04 -2.41181000087E-04 -9.78902043006E-04 +6.22373053273E-02 -3.92541115193E-01
2.96000000000E+09 -1.17016250264E-01 -2.99412928916E-01 -5.89302550063E-04 -9.21563771227E-04 -5.60847548073E-04 -9.57860091914E-04 +2.12192305494E-02 -3.82997278515E-01
2.96500000000E+09 -1.44976141887E-01 -2.77030324441E-01 -6.43389041955E-04 -3.78596296465E-04 -7.05465621736E-04 -4.42822372043E-04 -1.84741325163E-02 -3.71338245531E-01
2.97000000000E+09 -1.72415529137E-01 -2.51697040827E-01 -2.54297380289E-04 -3.89956594886E-04 -2.34997641624E-04 -3.11139069947E-04 -6.00142952605E-02 -3.57415108600E-01
2.97500000000E+09 -1.97058193761E-01 -2.23902934349E-01 -3.33514629090E-04 -7.58926334811E-04 -2.13146366024E-04 -7.19587443113E-04 -9.94342005580E-02 -3.39133834496E-01
2.98000000000E+09 -2.20072632316E-01 -1.95273221006E-01 -7.63250771754E-04 -8.15816580700E-04 -6.70539578911E-04 -8.21089213875E-04 -1.38420756722E-01 -3.19354712814E-01
2.98500000000E+09 -2.41249566397E-01 -1.65962467174E-01 -7.86633450832E-04 -3.88507819096E-04 -7.44627413560E-04 -5.13602845139E-04 -1.75193453057E-01 -2.95719460277E-01
2.99000000000E+09 -2.61244153737E-01 -1.35388602492E-01 -8.80074849076E-04 -4.97432733645E-04 -8.91470022272E-04 -6.01393048580E-04 -2.10667440477E-01 -2.69501430942E-01
2.99500000000E+09 -2.79016394584E-01 -1.04298689232E-01 -1.06632227188E-03 -2.06850391948E-04 -1.13439508495E-03 -1.77387704390E-04 -2.44341221906E-01 -2.38851800590E-01
3.00000000000E+09 -2.95217156366E-01 -7.26514315898E-02 -1.00298425146E-03 +3.26713930586E-05 -1.00693671631E-03 +5.19687147413E-05 -2.73473194237E-01 -2.07068888036E-01
3.00500000000E+09 -3.08787872518E-01 -4.10281703740E-02 -9.86116900417E-04 +1.64533860853E-04 -1.00699405146E-03 +8.58142182857E-05 -3.02702719136E-01 -1.74355537709E-01
3.01000000000E+09 -3.19852936363E-01 -9.45599669887E-03 -9.02638900990E-04 +3.45068071775E-04 -9.47316643080E-04 +2.71067858310E-04 -3.29006904426E-01 -1.38942674141E-01
3.01500000000E+09 -3.28742074491E-01 +2.13597590850E-02 -7.05960408128E-04 +6.23931354714E-04 -7.11464618901E-04 +5.96601878752E-04 -3.52560650679E-01 -1.02607104437E-01
3.02000000000E+09 -3.35147082626E-01 +5.29145137910E-02 -3.25823327581E-04 +4.97283261310E-04 -3.82333070217E-04 +4.97361917514E-04 -3.72973230036E-01 -6.45821566247E-02
3.02500000000E+09 -3.37551125134E-01 +8.35155626757E-02 -1.72784302651E-04 +2.15251718480E-04 -2.36046434847E-04 +2.34664302442E-04 -3.89871022114E-01 -2.52971670504E-02
3.03000000000E+09 -3.37475418124E-01 +1.13144474618E-01 -6.57648593618E-04 +2.91261429681E-05 -7.02324558890E-04 +5.49139767191E-05 -4.03578916060E-01 +1.43426127520E-02
3.03500000000E+09 -3.35454386436E-01 +1.42044427594E-01 -8.71540898991E-04 +6.83734953997E-04 -9.23757153922E-04 +7.21646327372E-04 -4.14459726495E-01 +5.47731950654E-02
3.04000000000E+09 -3.31359135684E-01 +1.71620188504E-01 -1.23747775712E-04 +5.54543002045E-04 -2.12858899347E-04 +5.56150592249E-04 -4.22074793178E-01 +9.48067235607E-02
3.04500000000E+09 -3.24229882773E-01 +2.00665806498E-01 -5.11488112132E-04 +5.91956683518E-04 -5.15384765969E-04 +6.23902194672E-04 -4.27065245618E-01 +1.34310910479E-01
3.05000000000E+09 -3.15636157871E-01 +2.29115174589E-01 -6.53846836971E-05 +6.48989865075E-04 -9.20410576583E-06 +7.89616731365E-04 -4.29540758430E-01 +1.73062785191E-01
3.05500000000E+09 -3.05280857855E-01 +2.56886339047E-01 -1.79725820728E-04 +3.73784434104E-04 -1.65616374195E-04 +4.29758603549E-04 -4.30043464138E-01 +2.10819979277E-01
3.06000000000E+09 -2.94211869117E-01 +2.83923451733E-01 -1.94369464935E-04 +4.83149046622E-04 -1.82633882582E-04 +5.24774135846E-04 -4.28366399550E-01 +2.48720300520E-01
3.06500000000E+09 -2.82080456900E-01 +3.10335874278E-01 -2.02972548016E-04 +6.17703273167E-04 -1.58408839478E-04 +5.74833660548E-04 -4.23889682727E-01 +2.85977176525E-01
3.07000000000E+09 -2.69067076619E-01 +3.35384475881E-01 +5.89833837530E-05 +7.11448736700E-04 +9.16478052561E-05 +6.73229477157E-04 -4.17179713467E-01 +3.21528027949E-01
