# Hz S RI R 50
! CMT, C1220, 16058040, 17.2.0/1
! Date: 15/08/2018 10:23:36
! Data: Format (Calibration Info)
! Freq                      S11: Re/Im (F2)                       S21: Re/Im (F2)                       S12: Re/Im (F2)                       S22: Re/Im (F2)            
2.50000000000E+09 +5.81189298306E-01 +6.38213487881E-01 +3.30247652770E-04 +2.97607178341E-05 +3.37080057784E-04 +2.19648179233E-05 +5.71080625406E-01 +7.18777766597E-01
2.50500000000E+09 +5.88224710483E-01 +6.30557966347E-01 +3.89398305695E-04 -2.16522743711E-05 +4.56229062679E-04 -2.03810425855E-05 +5.77190922128E-01 +7.12874673271E-01
2.51000000000E+09 +5.95656957164E-01 +6.22617867457E-01 +3.99650795923E-04 -7.72841014829E-05 +3.69517443961E-04 -9.74774541827E-05 +5.82954512199E-01 +7.07293386083E-01
2.51500000000E+09 +6.02808002059E-01 +6.14558600665E-01 +4.33258958821E-04 -9.36083249735E-05 +4.02190410868E-04 -1.35844245321E-04 +5.88238755395E-01 +7.01357430968E-01
2.52000000000E+09 +6.09424645318E-01 +6.06449513599E-01 +4.43193729820E-04 -2.84095625234E-04 +4.35350569360E-04 -2.23638148065E-04 +5.93310143099E-01 +6.94970062307E-01
2.52500000000E+09 +6.15068897253E-01 +5.98805724543E-01 +3.47195783059E-04 -3.12762307909E-04 +3.19370757156E-04 -3.18233134364E-04 +5.98760737998E-01 +6.88248115937E-01
2.53000000000E+09 +6.20059950483E-01 +5.91754171571E-01 +2.58019897873E-04 -3.61808291728E-04 +2.55806530208E-04 -3.51559697026E-04 +6.04735865810E-01 +6.80907251765E-01
2.53500000000E+09 +6.24705302126E-01 +5.85113494647E-01 +1.85144670634E-04 -3.28300166846E-04 +1.59901471705E-04 -3.46201738630E-04 +6.10299380526E-01 +6.73924657679E-01
2.54000000000E+09 +6.28734547958E-01 +5.78818300196E-01 +1.26595398831E-04 -2.38652755565E-04 +1.15628317576E-04 -2.82326090925E-04 +6.15872978289E-01 +6.67056038436E-01
2.54500000000E+09 +6.32937179336E-01 +5.72950175373E-01 +1.13423565597E-04 -2.78131337211E-04 +9.53386030959E-05 -2.31054296688E-04 +6.21167869279E-01 +6.60603932193E-01
2.55000000000E+09 +6.37924564971E-01 +5.66929021044E-01 +1.85570692213E-04 -2.21102850948E-04 +1.70840628734E-04 -2.35582476119E-04 +6.25616935096E-01 +6.54644883327E-01
2.55500000000E+09 +6.43289153096E-01 +5.60148932237E-01 +1.82939906372E-04 -3.28921868412E-04 +2.21278228523E-04 -3.48070739380E-04 +6.30248692641E-01 +6.48486117017E-01
2.56000000000E+09 +6.49462241500E-01 +5.53307217325E-01 +1.02728848590E-04 -3.44602267254E-04 +9.18014192252E-05 -4.38844784292E-04 +6.35064128812E-01 +6.41897996386E-01
2.56500000000E+09 +6.55709631309E-01 +5.45160002201E-01 +7.51753553243E-05 -3.68645882664E-04 -2.66816724704E-05 -4.16480338978E-04 +6.40463055768E-01 +6.34895995707E-01
2.57000000000E+09 +6.61738778028E-01 +5.37096883875E-01 -2.58689641065E-05 -4.15544024067E-04 -1.10981502904E-04 -3.93970266502E-04 +6.45875032224E-01 +6.27387461773E-01
2.57500000000E+09 +6.67912078387E-01 +5.28642343146E-01 -1.43772435952E-04 -3.51950188755E-04 -1.92561854967E-04 -2.29442431782E-04 +6.51377788415E-01 +6.20016090007E-01
2.58000000000E+09 +6.73141747904E-01 +5.20093818698E-01 -9.48229254798E-05 -2.30598448721E-04 -1.13536271368E-04 -2.39790255629E-04 +6.56716215948E-01 +6.12840742662E-01
2.58500000000E+09 +6.77724235223E-01 +5.11438265397E-01 -4.93484111248E-05 -2.57533756635E-04 -6.85214712676E-05 -2.09772246327E-04 +6.61984502435E-01 +6.05397566049E-01
2.59000000000E+09 +6.81777127938E-01 +5.03354606927E-01 -7.56023971448E-05 -2.00135589997E-04 -5.92681691056E-05 -2.16525782024E-04 +6.66964852056E-01 +5.97940101247E-01
2.59500000000E+09 +6.85527308865E-01 +4.95071008114E-01 -6.97936280866E-05 -3.07935172419E-04 -7.69796204691E-05 -3.21473890116E-04 +6.72177124544E-01 +5.90043802067E-01
2.60000000000E+09 +6.89106413212E-01 +4.86501481710E-01 -1.50441927679E-04 -2.81255085220E-04 -1.83035458444E-04 -2.87742573900E-04 +6.77483539776E-01 +5.81481075950E-01
2.60500000000E+09 +6.93146225116E-01 +4.77284726781E-01 -1.16735336896E-04 -2.52086753581E-04 -1.12884685824E-04 -2.87518074409E-04 +6.83205065648E-01 +5.72626727286E-01
2.61000000000E+09 +6.97504119013E-01 +4.66961452935E-01 -2.04611969425E-04 -2.85829396239E-04 -1.65133839116E-04 -3.58053218324E-04 +6.88359315810E-01 +5.63601563219E-01
2.61500000000E+09 +7.02184348761E-01 +4.55541176965E-01 -3.19738400856E-04 -3.23723548323E-04 -2.97254354641E-04 -3.81714930840E-04 +6.93232032842E-01 +5.54904339058E-01
2.62000000000E+09 +7.06862833287E-01 +4.43020608655E-01 -3.95333823760E-04 -1.64302903510E-04 -3.73399531209E-04 -1.64422358620E-04 +6.97860350028E-01 +5.45743887466E-01
2.62500000000E+09 +7.11668661673E-01 +4.29420278968E-01 -2.86667386744E-04 -1.22727513049E-04 -3.19468189293E-04 -1.27755205126E-04 +7.02454059208E-01 +5.36924336387E-01
2.63000000000E+09 +7.16106492048E-01 +4.15528790881E-01 -2.57960200836E-04 -1.20494058392E-04 -2.68544474470E-04 -1.03334202660E-04 +7.06908898790E-01 +5.27773067051E-01
2.63500000000E+09 +7.19908157855E-01 +4.01875674021E-01 -3.03816374911E-04 -1.38473942077E-04 -2.97514133494E-04 -8.89115548296E-05 +7.11516831413E-01 +5.18664068819E-01
2.64000000000E+09 +7.23174741342E-01 +3.88827946382E-01 -3.46127467764E-04 -6.82673130427E-05 -2.21620220745E-04 -8.27087812259E-05 +7.16217557996E-01 +5.08950208076E-01
2.64500000000E+09 +7.26217605587E-01 +3.76804789681E-01 -3.64556730299E-04 -2.29381172896E-05 -3.05498322383E-04 -8.18091880856E-05 +7.20617790730E-01 +4.99201381482E-01
2.65000000000E+09 +7.28939660160E-01 +3.65936280757E-01 -3.37921013039E-04 +2.39675265430E-05 -3.01327486547E-04 -7.48978542152E-05 +7.24851845760E-01 +4.89321269194E-01
2.65500000000E+09 +7.32033048170E-01 +3.55166080370E-01 -3.80635652440E-04 +2.92276292003E-05 -3.73645133469E-04 -3.93594960307E-05 +7.28691453743E-01 +4.78748871575E-01
2.66000000000E+09 +7.35075831168E-01 +3.44378890822E-01 -3.47984842125E-04 +1.25611089635E-04 -3.91667955116E-04 +1.09365233609E-04 +7.32880728316E-01 +4.67757035815E-01
2.66500000000E+09 +7.38188646464E-01 +3.33207011550E-01 -2.71635418375E-04 +1.13625464617E-04 -2.41052511547E-04 +1.47441710683E-04 +7.37186235870E-01 +4.56568370547E-01
2.67000000000E+09 +7.40986213735E-01 +3.20817694154E-01 -2.11528766274E-04 +1.14226282051E-04 -1.77808184601E-04 +1.44120374786E-04 +7.41568280032E-01 +4.45469303789E-01
2.67500000000E+09 +7.43059491343E-01 +3.07551548978E-01 -1.66385417807E-04 -1.00642265786E-05 -1.34172344542E-04 -3.91191406701E-05 +7.45664153176E-01 +4.34116635840E-01
2.68000000000E+09 +7.44451252782E-01 +2.93478229152E-01 -3.88765715110E-04 -1.59900392608E-05 -3.90883971182E-04 -4.50984195071E-05 +7.49371595730E-01 +4.22773334670E-01
2.68500000000E+09 +7.45130414575E-01 +2.79142189836E-01 -4.46103297089E-04 +1.83894635028E-04 -3.77857841954E-04 +1.96517593147E-04 +7.52257994342E-01 +4.11348802558E-01
2.69000000000E+09 +7.45626122299E-01 +2.64716625828E-01 -2.20378634409E-04 +2.57407637209E-04 -2.00303187056E-04 +2.80875301322E-04 +7.54874044617E-01 +3.99472990003E-01
2.69500000000E+09 +7.45803587591E-01 +2.50553633229E-01 -1.93572851865E-04 +1.80559357978E-04 -1.88563935570E-04 +1.93077135515E-04 +7.57308545060E-01 +3.86932339769E-01
2.70000000000E+09 +7.46015545281E-01 +2.36306488269E-01 -2.37858453201E-04 +1.42009067175E-04 -2.38535561387E-04 +1.44026223951E-04 +7.60141055365E-01 +3.73924202662E-01
2.70500000000E+09 +7.46121474506E-01 +2.22680442461E-01 -2.20256922168E-04 +2.27733929897E-04 -2.45105227797E-04 +2.12672623057E-04 +7.62880682611E-01 +3.60820451584E-01
2.71000000000E+09 +7.46444299207E-01 +2.09354105017E-01 -2.03988936749E-04 +2.06160904047E-04 -2.16826074653E-04 +2.07167340439E-04 +7.65784990916E-01 +3.47852741545E-01
2.71500000000E+09 +7.47159829336E-01 +1.95473761938E-01 -1.80290915278E-04 +2.73749561181E-04 -1.95390693235E-04 +2.36863132497E-04 +7.68184020721E-01 +3.35053734167E-01
2.72000000000E+09 +7.47667165897E-01 +1.81153628245E-01 -1.95534476167E-04 +1.53984364056E-04 -2.25473199102E-04 +1.53709210838E-04 +7.69849888752E-01 +3.22412504897E-01
2.72500000000E+09 +7.47655759372E-01 +1.65885860189E-01 -3.74429793076E-04 +1.95675373008E-04 -3.36172222483E-04 +2.11202249706E-04 +7.71109809450E-01 +3.09067975118E-01
2.73000000000E+09 +7.46415002234E-01 +1.49664831573E-01 -3.49121080021E-04 +5.47501938425E-04 -2.57390399297E-04 +5.80056197167E-04 +7.72178815458E-01 +2.95019406104E-01
2.73500000000E+09 +7.43877849500E-01 +1.32633292607E-01 +3.27523533519E-05 +5.91424265276E-04 +4.55717251790E-05 +5.30966234271E-04 +7.72888398814E-01 +2.79905225031E-01
2.74000000000E+09 +7.40187903003E-01 +1.15721932353E-01 +1.95251911327E-04 +4.58033518526E-04 +1.22749530804E-04 +3.83812721594E-04 +7.73995835147E-01 +2.64949819839E-01
2.74500000000E+09 +7.35399065694E-01 +9.84029620939E-02 +2.40232023359E-04 +2.65714037691E-04 +1.80876259870E-04 +2.65829324020E-04 +7.74776855086E-01 +2.49852657504E-01
2.75000000000E+09 +7.29663571412E-01 +8.15060130945E-02 +1.82147085382E-04 +8.47303027023E-05 +1.77394113570E-04 +6.98822714862E-05 +7.75532936019E-01 +2.35060446442E-01
2.75500000000E+09 +7.23555627695E-01 +6.48355775941E-02 -7.29027577298E-05 +5.43511664847E-05 -1.39343476707E-04 +7.90470299290E-05 +7.75092670790E-01 +2.19735043958E-01
2.76000000000E+09 +7.17921109981E-01 +4.85882497619E-02 -1.48595095910E-04 +1.55976656984E-04 -2.03967139148E-04 +2.20874788919E-04 +7.73929580333E-01 +2.04514350352E-01
2.76500000000E+09 +7.13014367824E-01 +3.23827273986E-02 -2.00496308365E-04 +2.58221795686E-04 -2.49905890603E-04 +2.92417038106E-04 +7.72407174407E-01 +1.88936586685E-01
2.77000000000E+09 +7.08684650569E-01 +1.49405611543E-02 -1.41382522894E-04 +4.62313655060E-04 -7.77267944628E-05 +4.91457995150E-04 +7.71355634083E-01 +1.72410612795E-01
2.77500000000E+09 +7.04600691077E-01 -3.39786503763E-03 -8.60546596031E-05 +4.31662291594E-04 -7.20414820508E-05 +4.77726291800E-04 +7.69893141294E-01 +1.55078908955E-01
2.78000000000E+09 +7.00382366584E-01 -2.28860522047E-02 +1.86368100490E-04 +5.46136310023E-04 +1.71322614619E-04 +6.02604885651E-04 +7.67991170904E-01 +1.37585196631E-01
2.78500000000E+09 +6.94903573002E-01 -4.33305967512E-02 +2.27947533641E-04 +2.29885101643E-04 +2.41970064156E-04 +1.75695104563E-04 +7.65313296693E-01 +1.20725710708E-01
2.79000000000E+09 +6.88245528605E-01 -6.39648961567E-02 -1.26019950017E-04 +2.85707637206E-04 -7.16522560149E-05 +2.56919154927E-04 +7.62905138598E-01 +1.04404881781E-01
2.79500000000E+09 +6.80510473042E-01 -8.40479206991E-02 +1.43058563579E-05 +5.35619712969E-04 +3.67019654286E-05 +4.72804462074E-04 +7.59885178464E-01 +8.63897086328E-02
2.80000000000E+09 +6.71211795214E-01 -1.03362848139E-01 +7.55055073969E-05 +5.94550877047E-04 +6.27611119282E-05 +6.21201226810E-04 +7.55165753959E-01 +6.76197228017E-02
2.80500000000E+09 +6.61199490655E-01 -1.21504440694E-01 +1.84539673232E-04 +5.21664526442E-04 +1.88792687009E-04 +5.31254099306E-04 +7.49602947054E-01 +4.87898833878E-02
2.81000000000E+09 +6.49989909448E-01 -1.38611461960E-01 +1.70531235244E-04 +7.11506946983E-04 +1.39833255124E-04 +7.16959325477E-04 +7.43753858483E-01 +2.92973445821E-02
2.81500000000E+09 +6.38177759075E-01 -1.55052715705E-01 +5.11738674979E-04 +9.16614547554E-04 +5.26179867539E-04 +8.75165975025E-04 +7.37312055847E-01 +9.60990488661E-03
2.82000000000E+09 +6.25161702197E-01 -1.71268445697E-01 +8.16591651546E-04 +4.90979216788E-04 +8.58937213011E-04 +4.56802907918E-04 +7.30189956193E-01 -1.06324240024E-02
2.82500000000E+09 +6.11173264776E-01 -1.87481382454E-01 +5.83927667477E-04 +3.15787221142E-04 +5.58733231962E-04 +2.70192112277E-04 +7.21348002762E-01 -3.10522006883E-02
2.83000000000E+09 +5.95438946146E-01 -2.04236160504E-01 +5.16796982250E-04 +4.84200139224E-04 +5.15006704000E-04 +4.36550276539E-04 +7.11424061952E-01 -5.08767838529E-02
2.83500000000E+09 +5.78122928832E-01 -2.21572550372E-01 +7.14312550139E-04 +6.85783655120E-04 +6.71874384607E-04 +6.16767782800E-04 +7.01058661080E-01 -7.07559846213E-02
2.84000000000E+09 +5.58543304332E-01 -2.39109867378E-01 +1.04739654355E-03 +4.55049549549E-04 +1.07680035761E-03 +4.84698127895E-04 +6.89608191747E-01 -9.12770933315E-02
2.84500000000E+09 +5.37252266427E-01 -2.56497419728E-01 +1.10864775839E-03 +2.85462969952E-04 +1.14298273168E-03 +2.79622925500E-04 +6.76803208868E-01 -1.11740376581E-01
2.85000000000E+09 +5.14847492189E-01 -2.73997758655E-01 +1.28580174702E-03 +6.47443005306E-05 +1.26272086335E-03 +8.12172497918E-05 +6.62287114454E-01 -1.31956756817E-01
2.85500000000E+09 +4.90210971418E-01 -2.91030232949E-01 +1.08530479566E-03 -1.36845792602E-04 +1.02683927176E-03 -1.44292688623E-04 +6.47323382855E-01 -1.51006245421E-01
2.86000000000E+09 +4.64570660494E-01 -3.06587491007E-01 +1.35944447448E-03 -1.48850881574E-05 +1.40990278173E-03 +4.47853735777E-05 +6.31765238093E-01 -1.70692611637E-01
2.86500000000E+09 +4.39099747032E-01 -3.20172822606E-01 +1.53592045590E-03 -5.77348454264E-04 +1.59895606603E-03 -5.15679943077E-04 +6.14464536536E-01 -1.90581939367E-01
2.87000000000E+09 +4.13723070872E-01 -3.32496501471E-01 +1.31233437521E-03 -9.70925238302E-04 +1.34266995916E-03 -9.56023672123E-04 +5.96031200289E-01 -2.10038346549E-01
2.87500000000E+09 +3.89282326463E-01 -3.43633709696E-01 +9.93221125200E-04 -1.09620201777E-03 +9.75455632652E-04 -1.11456512340E-03 +5.76110226713E-01 -2.29099871352E-01
2.88000000000E+09 +3.64378175145E-01 -3.54763815745E-01 +8.46504310849E-04 -1.08711025773E-03 +7.43429416468E-04 -1.09239531628E-03 +5.55232975576E-01 -2.47159056849E-01
2.88500000000E+09 +3.38078668816E-01 -3.65138304939E-01 +8.47945704047E-04 -1.01347654285E-03 +7.54664551704E-04 -1.00071646538E-03 +5.33543979783E-01 -2.64975764280E-01
2.89000000000E+09 +3.10202188919E-01 -3.73493681908E-01 +8.32428218625E-04 -1.33638448043E-03 +8.40659376946E-04 -1.28573648577E-03 +5.09895196818E-01 -2.82619348449E-01
2.89500000000E+09 +2.81676756531E-01 -3.80238339851E-01 +8.52858900533E-04 -1.56126118708E-03 +9.77649047099E-04 -1.50127732146E-03 +4.84683918878E-01 -3.00454360975E-01
2.90000000000E+09 +2.51217334527E-01 -3.85893018751E-01 +2.94405524821E-04 -2.24449129647E-03 +4.06248911736E-04 -2.28271093715E-03 +4.56750490680E-01 -3.17731680503E-01
2.90500000000E+09 +2.18894334524E-01 -3.88996520735E-01 -5.05951115192E-04 -1.99714018991E-03 -5.36169164579E-04 -2.07035135121E-03 +4.27710308328E-01 -3.32888750023E-01
2.91000000000E+09 +1.86376694869E-01 -3.88484966993E-01 -7.21155184747E-04 -1.62287423481E-03 -6.95806525354E-04 -1.61576101405E-03 +3.98276112101E-01 -3.47301474589E-01
2.91500000000E+09 +1.54702680553E-01 -3.86900165107E-01 -6.57676566112E-04 -1.28350199530E-03 -7.21813684994E-04 -1.18682859745E-03 +3.66797276680E-01 -3.59983070680E-01
2.92000000000E+09 +1.22498911019E-01 -3.83432919085E-01 -5.43093936209E-04 -1.33488951494E-03 -5.05260278614E-04 -1.25502136633E-03 +3.33955527793E-01 -3.70370877517E-01
2.92500000000E+09 +9.10373047851E-02 -3.78642792202E-01 -8.28131212038E-04 -1.83370417186E-03 -6.79523734798E-04 -1.79444150752E-03 +2.99786671039E-01 -3.78569858060E-01
2.93000000000E+09 +5.92963394782E-02 -3.72426205215E-01 -1.79470861460E-03 -1.55607119894E-03 -1.69757128457E-03 -1.62500540422E-03 +2.64176577944E-01 -3.85996353935E-01
2.93500000000E+09 +2.74099189839E-02 -3.64297968460E-01 -1.94743829046E-03 -5.19800461900E-04 -1.91034387261E-03 -5.83516381350E-04 +2.26241937228E-01 -3.91796640217E-01
2.94000000000E+09 -4.39505461855E-03 -3.52964102028E-01 -1.31564341878E-03 -1.50559184699E-04 -1.35202324871E-03 -1.61610187719E-04 +1.87366992513E-01 -3.95448369539E-01
2.94500000000E+09 -3.44385824590E-02 -3.39601352428E-01 -1.07400506594E-03 -4.39855431872E-04 -1.04856266209E-03 -4.59912028401E-04 +1.46973251236E-01 -3.96287941626E-01
2.95000000000E+09 -6.42612508545E-02 -3.23687382687E-01 -1.34425662947E-03 -6.71434922217E-04 -1.31365471359E-03 -7.46839866133E-04 +1.07486736874E-01 -3.93849832284E-01
2.95500000000E+09 -9.27121352735E-02 -3.05360191328E-01 -1.91288522910E-03 -3.30587406804E-04 -1.87853542062E-03 -3.86502739036E-04 +6.79196641500E-02 -3.89152846148E-01
2.96000000000E+09 -1.20271048769E-01 -2.84692454885E-01 -2.04332388547E-03 +2.65500487974E-04 -2.13727954559E-03 +2.71482024869E-04 +2.75852057118E-02 -3.80874581627E-01
2.96500000000E+09 -1.46740156429E-01 -2.62405897985E-01 -1.31638384430E-03 +1.02173461445E-03 -1.34260896333E-03 +1.10692626145E-03 -1.19814289844E-02 -3.70777150068E-01
2.97000000000E+09 -1.72345877187E-01 -2.36674075162E-01 -6.90171393624E-04 +6.47433779887E-04 -6.81304046800E-04 +7.21043772825E-04 -5.41587333060E-02 -3.57926472052E-01
2.97500000000E+09 -1.95469001169E-01 -2.09658614928E-01 -8.34550872605E-04 +2.16821374449E-05 -8.49988984950E-04 +1.14494570153E-06 -9.43194751011E-02 -3.40708828130E-01
2.98000000000E+09 -2.16934110870E-01 -1.81074040925E-01 -1.65171944353E-03 +4.22204565945E-04 -1.64602878331E-03 +3.72148294281E-04 -1.33735124302E-01 -3.21095024693E-01
2.98500000000E+09 -2.36953511109E-01 -1.52306545132E-01 -1.31738486337E-03 +1.09896732192E-03 -1.39589515336E-03 +1.11274271931E-03 -1.71076902782E-01 -2.97917520962E-01
2.99000000000E+09 -2.55387533025E-01 -1.22137199404E-01 -8.35091645174E-04 +1.23230353091E-03 -8.61236953930E-04 +1.24755799094E-03 -2.06682636424E-01 -2.71954281867E-01
2.99500000000E+09 -2.71282869821E-01 -9.24574662361E-02 -5.99187808533E-04 +9.28909211852E-04 -6.61720517818E-04 +9.61166517851E-04 -2.40404280233E-01 -2.41906154785E-01
3.00000000000E+09 -2.86820638480E-01 -6.22355956471E-02 -7.86807381493E-04 +9.38087240051E-04 -6.96558381010E-04 +9.88414482761E-04 -2.70470222588E-01 -2.10440248105E-01
3.00500000000E+09 -2.99154962990E-01 -3.20216381595E-02 -1.04266672770E-03 +1.15656506629E-03 -1.01550547388E-03 +1.15044254996E-03 -3.00070071745E-01 -1.78012187604E-01
3.01000000000E+09 -3.09902522588E-01 -1.81150056954E-03 -6.35063659027E-04 +1.74014579614E-03 -6.75463057434E-04 +1.66371517470E-03 -3.26961844838E-01 -1.42839341271E-01
3.01500000000E+09 -3.17925868270E-01 +2.81129238215E-02 +3.03742430812E-04 +1.94265360080E-03 +2.68700115792E-04 +1.90846768282E-03 -3.51185862189E-01 -1.06263660456E-01
3.02000000000E+09 -3.22784280891E-01 +5.87351891669E-02 +6.67650055576E-04 +9.35790507849E-04 +6.47630142719E-04 +1.00468556883E-03 -3.71686112067E-01 -6.83837025502E-02
3.02500000000E+09 -3.24219717438E-01 +8.79187680913E-02 +1.89600639509E-04 +6.22457702157E-04 +2.12219843395E-04 +6.56217065044E-04 -3.89016359757E-01 -2.95202231897E-02
3.03000000000E+09 -3.23043713030E-01 +1.16066562601E-01 -2.09685809544E-04 +8.92827886968E-04 -1.66909763954E-04 +8.76161659719E-04 -4.03065526215E-01 +1.01714383746E-02
3.03500000000E+09 -3.20713683574E-01 +1.43042699949E-01 -2.23708638421E-04 +1.43342514024E-03 -2.46535945803E-04 +1.41760338845E-03 -4.14283710639E-01 +5.00078389251E-02
3.04000000000E+09 -3.16570096249E-01 +1.71331004194E-01 +6.84338797052E-04 +1.32782415153E-03 +7.13384832679E-04 +1.35789274649E-03 -4.22811381195E-01 +8.96644851132E-02
3.04500000000E+09 -3.09766319241E-01 +1.98852782958E-01 +7.80785588187E-04 +1.13178052164E-03 +7.60554091978E-04 +1.22884946728E-03 -4.29236264977E-01 +1.29416234376E-01
3.05000000000E+09 -3.01652592986E-01 +2.26827680776E-01 +9.98139541374E-04 +9.02761403757E-04 +1.07617395308E-03 +8.94429641465E-04 -4.32778639861E-01 +1.68943845628E-01
3.05500000000E+09 -2.91079612946E-01 +2.53483883898E-01 +7.33600000730E-04 +7.13874938759E-04 +8.29669803416E-04 +6.73300077822E-04 -4.34028547307E-01 +2.07596656596E-01
3.06000000000E+09 -2.79749643363E-01 +2.79297360415E-01 +9.55422604497E-04 +7.55182964082E-04 +9.98055280841E-04 +6.65479228337E-04 -4.32465787046E-01 +2.46442419849E-01
3.06500000000E+09 -2.68349907548E-01 +3.04116825969E-01 +1.04612350089E-03 +4.46940204731E-04 +1.00654148903E-03 +4.35524470944E-04 -4.28156734056E-01 +2.84265513198E-01
3.07000000000E+09 -2.55522425526E-01 +3.28255208635E-01 +9.36802133666E-04 +3.38832590037E-04 +9.76968352937E-04 +3.13900429870E-04 -4.21311022229E-01 +3.20528836478E-01
