# Hz S RI R 50
! CMT, C1220, 16058040, 17.2.0/1
! Date: 15/08/2018 10:23:18
! Data: Format (Calibration Info)
! Freq                      S11: Re/Im (F2)                       S21: Re/Im (F2)                       S12: Re/Im (F2)                       S22: Re/Im (F2)            
2.50000000000E+09 +5.81074080858E-01 +6.37465134715E-01 +2.70134799004E-04 +2.61660421976E-05 +2.24187264205E-04 +1.07079504049E-05 +5.71740636051E-01 +7.18337931708E-01
2.50500000000E+09 +5.88100243815E-01 +6.29729189717E-01 +3.15197028718E-04 -2.72455373541E-06 +2.96310846896E-04 -4.80804520571E-06 +5.77850499272E-01 +7.12492843722E-01
2.51000000000E+09 +5.95472323427E-01 +6.21843970054E-01 +2.94327317708E-04 -3.12137988847E-05 +3.34121049839E-04 -6.53632996674E-05 +5.83580053413E-01 +7.06774083973E-01
2.51500000000E+09 +6.02560870192E-01 +6.13902560874E-01 +3.61477553329E-04 -2.08106349874E-05 +3.05802100562E-04 -6.54067242504E-05 +5.88866494231E-01 +7.00788618963E-01
2.52000000000E+09 +6.09235609975E-01 +6.05780730431E-01 +4.17518847982E-04 -2.13080066079E-04 +3.95208839371E-04 -2.00686950297E-04 +5.93822535563E-01 +6.94398511031E-01
2.52500000000E+09 +6.14857380472E-01 +5.98213569827E-01 +2.84581418761E-04 -3.11349764353E-04 +2.80175962275E-04 -2.79838175369E-04 +5.99396284150E-01 +6.87593412119E-01
2.53000000000E+09 +6.19832766244E-01 +5.90994160938E-01 +2.33319469158E-04 -3.01896458502E-04 +2.24172806122E-04 -3.43148152922E-04 +6.05317827164E-01 +6.80301102961E-01
2.53500000000E+09 +6.24317961492E-01 +5.84460000182E-01 +1.89532495090E-04 -3.12953647195E-04 +1.91959666551E-04 -3.52160768492E-04 +6.10887012310E-01 +6.73300294642E-01
2.54000000000E+09 +6.28359003208E-01 +5.78228262616E-01 +1.20162273420E-04 -3.49376926050E-04 +1.10853203061E-04 -3.48996368697E-04 +6.16372493102E-01 +6.66536042463E-01
2.54500000000E+09 +6.32650866374E-01 +5.72290917575E-01 +8.78797219516E-05 -3.03110374647E-04 +7.72693174868E-05 -3.35909946920E-04 +6.21665955382E-01 +6.59958675804E-01
2.55000000000E+09 +6.37412068275E-01 +5.66244942672E-01 +8.32973756918E-05 -2.81217119197E-04 +1.49840005217E-04 -3.36341775882E-04 +6.26137085413E-01 +6.53992247603E-01
2.55500000000E+09 +6.42674242309E-01 +5.59653122502E-01 +6.90590637282E-05 -3.68244287043E-04 +1.03740143216E-04 -4.22281996018E-04 +6.30780297065E-01 +6.47896833023E-01
2.56000000000E+09 +6.48838178312E-01 +5.52731172612E-01 -1.70529435980E-05 -3.85954316070E-04 -8.93524121095E-05 -4.65229721982E-04 +6.35659403546E-01 +6.41208704991E-01
2.56500000000E+09 +6.55189593014E-01 +5.44710355830E-01 -1.27688809275E-04 -3.55893787672E-04 -1.91123648933E-04 -3.94223295322E-04 +6.40866948709E-01 +6.34047416244E-01
2.57000000000E+09 +6.61084624285E-01 +5.36497517594E-01 -2.04206387127E-04 -4.01830505078E-04 -2.64744031835E-04 -3.33367037250E-04 +6.46172391466E-01 +6.26556000623E-01
2.57500000000E+09 +6.67180943037E-01 +5.28136146054E-01 -2.81556003517E-04 -2.45582565831E-04 -3.47613998767E-04 -1.13288510424E-04 +6.51572730496E-01 +6.19031382041E-01
2.58000000000E+09 +6.72246736724E-01 +5.19538910678E-01 -2.69160607921E-04 -1.19622796664E-04 -2.50076922713E-04 -8.74068553664E-05 +6.56899098128E-01 +6.11934021850E-01
2.58500000000E+09 +6.76700984535E-01 +5.11060668002E-01 -2.50601198218E-04 -6.49891799213E-05 -1.95727738933E-04 -9.45370909558E-05 +6.62015000855E-01 +6.04376491040E-01
2.59000000000E+09 +6.80688132301E-01 +5.02919702611E-01 -2.04887031740E-04 -8.11335699199E-06 -1.71647213107E-04 -1.15785257307E-05 +6.66948328488E-01 +5.96870951899E-01
2.59500000000E+09 +6.84432792564E-01 +4.94656567949E-01 -1.33996279102E-04 -6.66685251749E-05 -9.46728482527E-05 -1.09537150182E-04 +6.72132662691E-01 +5.89085143295E-01
2.60000000000E+09 +6.88004190565E-01 +4.86306944152E-01 -1.55653275494E-04 -2.44701916216E-05 -1.46309531674E-04 -2.88939364428E-05 +6.77347709685E-01 +5.80712431009E-01
2.60500000000E+09 +6.91969481589E-01 +4.77278333248E-01 -1.12117734049E-04 +3.94312633390E-05 -6.07805915795E-05 +4.14581222064E-05 +6.82893754155E-01 +5.71905725696E-01
2.61000000000E+09 +6.96201418725E-01 +4.66924829153E-01 +6.30119192011E-06 -4.34998684412E-05 -3.14619622192E-06 -4.63614626375E-05 +6.87919630864E-01 +5.62920030267E-01
2.61500000000E+09 +7.00914804084E-01 +4.55720626574E-01 -7.61207595338E-05 -1.28713164393E-04 -1.27955179798E-04 -1.46106770602E-04 +6.92859956515E-01 +5.54285363758E-01
2.62000000000E+09 +7.05689901385E-01 +4.43186183391E-01 -1.37252897813E-04 -2.30628920244E-05 -1.81242945838E-04 -6.51702013942E-05 +6.97515266014E-01 +5.45290429954E-01
2.62500000000E+09 +7.10512658850E-01 +4.29761156983E-01 -8.49597507251E-05 -1.46945582863E-05 -6.90333196026E-05 -4.48691304542E-05 +7.02068588379E-01 +5.36416453882E-01
2.63000000000E+09 +7.14860568686E-01 +4.16032973643E-01 -6.88790978344E-05 -8.11762534491E-05 -5.98867277367E-05 -1.24694847056E-04 +7.06546863390E-01 +5.27471377407E-01
2.63500000000E+09 +7.18618776550E-01 +4.02435043439E-01 -8.94685712311E-05 -9.59523130783E-05 -1.23121450598E-04 -1.03879222358E-04 +7.11226406536E-01 +5.18323994662E-01
2.64000000000E+09 +7.22090696051E-01 +3.89566194760E-01 -5.88964798679E-05 -9.81946252345E-05 -1.19822534861E-04 -1.42876510422E-04 +7.15660751079E-01 +5.08585596286E-01
2.64500000000E+09 +7.25205386485E-01 +3.77557578793E-01 -1.51913815156E-04 -9.92892478107E-05 -1.03172069318E-04 -1.15558232230E-04 +7.20166532746E-01 +4.98925365697E-01
2.65000000000E+09 +7.27821075277E-01 +3.66632807459E-01 -1.07169090437E-04 -8.36084307614E-05 -8.55402245118E-05 -1.22226782718E-04 +7.24509947842E-01 +4.88945564024E-01
2.65500000000E+09 +7.31018996496E-01 +3.56025541171E-01 -2.62387950576E-04 -1.72988317678E-04 -2.38142847788E-04 -2.11802630323E-04 +7.28295380042E-01 +4.78516732177E-01
2.66000000000E+09 +7.34124276055E-01 +3.45148754181E-01 -3.08100153019E-04 +2.37182118692E-05 -2.78669106527E-04 +1.92375848659E-05 +7.32387666158E-01 +4.67590748788E-01
2.66500000000E+09 +7.37250834300E-01 +3.34126517122E-01 -2.15999069636E-04 +7.25789921818E-06 -1.98261605669E-04 +1.14327490799E-05 +7.36549233562E-01 +4.56393937966E-01
2.67000000000E+09 +7.40116408592E-01 +3.21750066315E-01 -2.15841088012E-04 +4.98409303254E-05 -1.87460991418E-04 +1.04136405606E-04 +7.40916028833E-01 +4.45409819966E-01
2.67500000000E+09 +7.42138783039E-01 +3.08486581001E-01 -1.25662707089E-04 -2.65046816906E-05 -9.92375224056E-05 +4.01954929008E-06 +7.44986496273E-01 +4.34289248461E-01
2.68000000000E+09 +7.43388477333E-01 +2.94404766841E-01 -2.95022659957E-04 -5.12136599675E-05 -2.58550484956E-04 -8.54144870964E-05 +7.48779884995E-01 +4.23184205062E-01
2.68500000000E+09 +7.44065599750E-01 +2.80219499243E-01 -3.26363017373E-04 +1.11813007770E-04 -3.28301782137E-04 +9.59344882455E-05 +7.51803055285E-01 +4.11919304478E-01
2.69000000000E+09 +7.44412054047E-01 +2.65899789793E-01 -1.72023412856E-04 +2.57730201738E-04 -1.32493098693E-04 +3.00632323217E-04 +7.54492091064E-01 +4.00159416314E-01
2.69500000000E+09 +7.44589835350E-01 +2.51944315284E-01 -8.22081434794E-05 +1.42993309339E-04 -7.83422822749E-05 +6.87904184647E-05 +7.57147447532E-01 +3.87751964105E-01
2.70000000000E+09 +7.44775621071E-01 +2.38005964225E-01 -6.45112220932E-05 +7.58476158793E-05 -9.23481911175E-05 +9.81379943579E-05 +7.60077431519E-01 +3.74666488492E-01
2.70500000000E+09 +7.44865528975E-01 +2.24639237106E-01 -1.15657831518E-04 +1.47514742738E-04 -1.08493585330E-04 +1.62029641065E-04 +7.62979210194E-01 +3.61608540224E-01
2.71000000000E+09 +7.45416998198E-01 +2.11445405144E-01 -6.89549671309E-05 +7.84778318779E-05 -1.14742542164E-04 +1.15803691174E-06 +7.65993697305E-01 +3.48481078653E-01
2.71500000000E+09 +7.46397051538E-01 +1.97976574221E-01 -9.38526912868E-05 +1.13459713113E-04 -1.06902389611E-04 +8.02758927153E-05 +7.68542243087E-01 +3.35715678007E-01
2.72000000000E+09 +7.47220480831E-01 +1.83786905869E-01 -6.12047797212E-05 -2.50718948770E-05 -9.70307483410E-05 -4.47342391447E-05 +7.70243916808E-01 +3.23131775102E-01
2.72500000000E+09 +7.47485744180E-01 +1.68510448267E-01 -2.64720347953E-04 -7.09790115927E-05 -2.88220605888E-04 -3.80301429735E-05 +7.71570701674E-01 +3.09767936953E-01
2.73000000000E+09 +7.46476364419E-01 +1.52345219760E-01 -3.15647546815E-04 +2.33533757148E-04 -2.96590204960E-04 +2.74268630461E-04 +7.72800125748E-01 +2.95605387388E-01
2.73500000000E+09 +7.44023320879E-01 +1.35204214947E-01 -3.61198722389E-05 +2.32547422306E-04 -8.24444030051E-05 +1.99556162500E-04 +7.73683125607E-01 +2.80424864215E-01
2.74000000000E+09 +7.40454900578E-01 +1.18242066574E-01 -4.57962650777E-05 +2.23524851817E-04 -1.17755242077E-04 +1.86601406401E-04 +7.74726949796E-01 +2.65309778433E-01
2.74500000000E+09 +7.35755847620E-01 +1.01017238695E-01 -4.80224048254E-05 +2.12195181164E-05 -8.17986050546E-06 +8.72939898291E-05 +7.75459395054E-01 +2.50165194126E-01
2.75000000000E+09 +7.30283690243E-01 +8.42678343410E-02 -8.53196321541E-05 +2.58095289430E-05 -1.51940661450E-04 -3.87863708805E-05 +7.76254102938E-01 +2.35568701756E-01
2.75500000000E+09 +7.24713856458E-01 +6.75091353071E-02 -2.40346715176E-04 +1.23111215072E-07 -2.62958626301E-04 +2.51179790968E-05 +7.76125678077E-01 +2.20247350521E-01
2.76000000000E+09 +7.19144789752E-01 +5.11651691247E-02 -2.69271415145E-04 +8.64750483973E-05 -2.66722758937E-04 +1.39247759874E-04 +7.75048276095E-01 +2.05044305527E-01
2.76500000000E+09 +7.14250098860E-01 +3.46755095726E-02 -3.11675086887E-04 +1.40787454770E-04 -3.31679940679E-04 +2.08503906828E-04 +7.73699410221E-01 +1.89435228685E-01
2.77000000000E+09 +7.09893303537E-01 +1.73800528745E-02 -2.99919466392E-04 +3.36324875842E-04 -2.40963031081E-04 +3.54167941689E-04 +7.72774237400E-01 +1.72666367717E-01
2.77500000000E+09 +7.05800011985E-01 -7.87858505802E-04 -2.61022860786E-04 +3.76496412867E-04 -2.90111233468E-04 +3.60369263319E-04 +7.71321309029E-01 +1.55259130778E-01
2.78000000000E+09 +7.01898680285E-01 -1.99392903732E-02 -1.46750286222E-04 +4.45786751350E-04 -9.43220060307E-05 +4.70871913203E-04 +7.69647816256E-01 +1.37805909377E-01
2.78500000000E+09 +6.96879584674E-01 -4.03916109305E-02 -5.29207778404E-05 +3.66837921138E-04 -3.46878588636E-05 +3.38092631568E-04 +7.67251916680E-01 +1.20518155854E-01
2.79000000000E+09 +6.90660387056E-01 -6.10788429508E-02 -1.83602022659E-04 +3.43776519359E-04 -1.99775082906E-04 +3.71311952223E-04 +7.64632289378E-01 +1.04045798775E-01
2.79500000000E+09 +6.83060338922E-01 -8.11984572230E-02 -1.36589875044E-04 +5.81333792312E-04 -1.23353302492E-04 +4.57316188684E-04 +7.61792867164E-01 +8.59033716667E-02
2.80000000000E+09 +6.74039336677E-01 -1.00687201086E-01 -3.17234439433E-05 +6.11410678807E-04 -7.89996980769E-05 +5.76632012805E-04 +7.57261306951E-01 +6.68661405648E-02
2.80500000000E+09 +6.64359244669E-01 -1.18815990698E-01 -3.67599591903E-05 +5.94213214347E-04 -6.67234967189E-05 +5.85917038998E-04 +7.51818917638E-01 +4.76587406818E-02
2.81000000000E+09 +6.53451670003E-01 -1.36162717663E-01 -2.29084250754E-05 +8.08044080076E-04 -2.30770853228E-05 +8.29613073541E-04 +7.45897408815E-01 +2.77568340746E-02
2.81500000000E+09 +6.42064818138E-01 -1.52792379302E-01 +2.73845131798E-04 +9.43501270630E-04 +3.37201933433E-04 +9.70310694669E-04 +7.39089717993E-01 +7.77847118549E-03
2.82000000000E+09 +6.29336030745E-01 -1.69208517078E-01 +6.44502900542E-04 +7.55245572775E-04 +6.58425276061E-04 +7.04499256554E-04 +7.31767220537E-01 -1.25861734006E-02
2.82500000000E+09 +6.15725024579E-01 -1.85345592551E-01 +5.61828630462E-04 +5.26329174316E-04 +4.96819318165E-04 +5.19088330816E-04 +7.22708189852E-01 -3.33699406194E-02
2.83000000000E+09 +6.00912442524E-01 -2.02637921096E-01 +5.05849932962E-04 +6.21184528509E-04 +5.32816662249E-04 +5.89760083528E-04 +7.12607708357E-01 -5.33452427641E-02
2.83500000000E+09 +5.84087276669E-01 -2.20829537441E-01 +6.70860264853E-04 +8.34275867494E-04 +6.66320583007E-04 +7.94997275174E-04 +7.01822270258E-01 -7.32156593019E-02
2.84000000000E+09 +5.64465431622E-01 -2.39228466848E-01 +1.09938918163E-03 +6.13807061965E-04 +1.11556440525E-03 +6.20528746625E-04 +6.90255755108E-01 -9.36832977196E-02
2.84500000000E+09 +5.42796395041E-01 -2.57431598436E-01 +1.16639161084E-03 +2.81285854397E-04 +1.20105124307E-03 +2.89176420582E-04 +6.77501205430E-01 -1.14305287864E-01
2.85000000000E+09 +5.20026903355E-01 -2.74997385307E-01 +1.26645703238E-03 +7.32038781189E-05 +1.23737590027E-03 +6.62336462793E-05 +6.62882576503E-01 -1.34706838993E-01
2.85500000000E+09 +4.95642127033E-01 -2.92050295499E-01 +1.16743246054E-03 -1.23560873749E-04 +1.18174244939E-03 -1.21842938483E-04 +6.47506144713E-01 -1.54144693837E-01
2.86000000000E+09 +4.70454285672E-01 -3.08156040369E-01 +1.33385470082E-03 -2.59736389941E-04 +1.32631874307E-03 -2.95220145951E-04 +6.31328641981E-01 -1.73847302571E-01
2.86500000000E+09 +4.44950781790E-01 -3.22692960938E-01 +1.28563553154E-03 -6.79188270369E-04 +1.23558380327E-03 -6.58949714822E-04 +6.13838459611E-01 -1.93731334800E-01
2.87000000000E+09 +4.19220969426E-01 -3.35666649164E-01 +9.34901278801E-04 -8.14997925164E-04 +9.00149425364E-04 -7.71700944215E-04 +5.94985960211E-01 -2.13231730440E-01
2.87500000000E+09 +3.94096819372E-01 -3.47195814185E-01 +7.63235187821E-04 -8.31092529185E-04 +7.23082118877E-04 -8.25236928160E-04 +5.74570843222E-01 -2.32227585172E-01
2.88000000000E+09 +3.69079932427E-01 -3.58390195762E-01 +6.78015148904E-04 -9.26726613656E-04 +6.28623692017E-04 -9.38705964163E-04 +5.53411132496E-01 -2.50051567743E-01
2.88500000000E+09 +3.42849645197E-01 -3.68679997853E-01 +6.11777488865E-04 -9.16901315921E-04 +5.91681116049E-04 -8.42915977373E-04 +5.31179182036E-01 -2.67893483984E-01
2.89000000000E+09 +3.15263340318E-01 -3.77882949756E-01 +4.39514039533E-04 -1.09394405010E-03 +4.55333393079E-04 -1.00535045624E-03 +5.07022950189E-01 -2.84976851939E-01
2.89500000000E+09 +2.86236047146E-01 -3.85179160479E-01 +3.88739273145E-04 -9.63615614910E-04 +4.12455720475E-04 -8.39708919354E-04 +4.81803576721E-01 -3.02551124140E-01
2.90000000000E+09 +2.55706714914E-01 -3.91221483342E-01 +3.53056127985E-04 -1.12570127377E-03 +4.20799256849E-04 -1.11237446393E-03 +4.53451405370E-01 -3.19612096437E-01
2.90500000000E+09 +2.23378907953E-01 -3.94788017189E-01 +1.77529867446E-04 -1.33320496386E-03 +2.16052231768E-04 -1.28996330406E-03 +4.24203414389E-01 -3.34343692742E-01
2.91000000000E+09 +1.90667914438E-01 -3.95226222800E-01 -1.74285619823E-04 -1.26945038488E-03 -1.37213575957E-04 -1.28191739970E-03 +3.94609564266E-01 -3.48464191271E-01
2.91500000000E+09 +1.58470749659E-01 -3.94405927272E-01 -2.85503876919E-04 -9.20991877815E-04 -2.65587382337E-04 -8.97745974119E-04 +3.62786454218E-01 -3.60715561623E-01
2.92000000000E+09 +1.25405579294E-01 -3.91836643417E-01 -9.30077010109E-06 -1.00759801911E-03 +9.30778974735E-06 -9.68478758534E-04 +3.29902318923E-01 -3.70714740032E-01
2.92500000000E+09 +9.27473626851E-02 -3.87106428308E-01 -1.65912906750E-04 -1.50701076373E-03 -1.06291967403E-04 -1.44890906061E-03 +2.95368318166E-01 -3.78342940238E-01
2.93000000000E+09 +6.09796930467E-02 -3.80880817377E-01 -9.17723817359E-04 -1.53693965281E-03 -8.01150198221E-04 -1.57543294552E-03 +2.59889734533E-01 -3.85146686993E-01
2.93500000000E+09 +2.86478557315E-02 -3.73417407138E-01 -1.25878311794E-03 -8.13734712893E-04 -1.25210384401E-03 -9.13118239746E-04 +2.21816824092E-01 -3.90571050771E-01
2.94000000000E+09 -3.91058675246E-03 -3.63250036120E-01 -8.48058386813E-04 -5.45897412255E-04 -9.08662786233E-04 -5.56817353241E-04 +1.82518677269E-01 -3.93422854163E-01
2.94500000000E+09 -3.56097778060E-02 -3.50489057032E-01 -7.45838290903E-04 -7.99675497108E-04 -7.22182917716E-04 -8.52025136179E-04 +1.42450587275E-01 -3.93029977882E-01
2.95000000000E+09 -6.72806705871E-02 -3.34816331067E-01 -1.06012073574E-03 -1.07286132283E-03 -1.03015198262E-03 -1.12642741457E-03 +1.03890897028E-01 -3.89709326331E-01
2.95500000000E+09 -9.72996442033E-02 -3.15714597557E-01 -1.68043902905E-03 -7.81853145984E-04 -1.68517319164E-03 -8.70846057064E-04 +6.50175560601E-02 -3.84584661545E-01
2.96000000000E+09 -1.25836187677E-01 -2.94491555115E-01 -2.03812310071E-03 -1.72225381236E-04 -2.14707396046E-03 -2.03108571880E-04 +2.55436833431E-02 -3.75860942267E-01
2.96500000000E+09 -1.53123790988E-01 -2.71389062404E-01 -1.52425099111E-03 +6.85571581083E-04 -1.59522988513E-03 +7.84478029787E-04 -1.30521482800E-02 -3.65506683156E-01
2.97000000000E+09 -1.79882104068E-01 -2.45529229654E-01 -9.56152318263E-04 +5.25592555556E-04 -9.53981525104E-04 +5.77270186811E-04 -5.44041646214E-02 -3.52358611622E-01
2.97500000000E+09 -2.04306211356E-01 -2.17168156194E-01 -9.26598987402E-04 +1.23650335637E-04 -8.83544064788E-04 +2.54050055325E-04 -9.34150472478E-02 -3.35177030182E-01
2.98000000000E+09 -2.26353932338E-01 -1.87424678339E-01 -1.54616874860E-03 +3.77629076603E-04 -1.48251480979E-03 +3.73386184836E-04 -1.31706672396E-01 -3.16263310080E-01
2.98500000000E+09 -2.46629379188E-01 -1.57573751070E-01 -1.12876688124E-03 +1.04221378677E-03 -1.23903023928E-03 +1.02382063726E-03 -1.68464457150E-01 -2.93865184851E-01
2.99000000000E+09 -2.65673790269E-01 -1.26677488980E-01 -7.65058525270E-04 +1.12179389775E-03 -8.58217508549E-04 +1.19650213677E-03 -2.03882335954E-01 -2.68674596497E-01
2.99500000000E+09 -2.82392351114E-01 -9.55189216439E-02 -3.56056575442E-04 +1.14787467966E-03 -3.23607528939E-04 +1.13691894135E-03 -2.37271320925E-01 -2.38954152087E-01
3.00000000000E+09 -2.97636858810E-01 -6.39281237399E-02 -6.57710951734E-05 +8.06069084515E-04 +7.91864745492E-06 +8.15893717714E-04 -2.67252053611E-01 -2.08559297219E-01
3.00500000000E+09 -3.09589840772E-01 -3.23461363677E-02 -5.11183816028E-04 +5.40248559545E-04 -5.12155635591E-04 +4.56504198605E-04 -2.97169678795E-01 -1.75966454551E-01
3.01000000000E+09 -3.19807119249E-01 -1.69843519877E-03 -4.12463899736E-04 +9.89586490939E-04 -3.97036133702E-04 +9.50430500919E-04 -3.23784335315E-01 -1.41074138631E-01
3.01500000000E+09 -3.27788414126E-01 +2.87393512335E-02 +1.78855379599E-04 +1.13677853733E-03 +1.31261831407E-04 +1.13007142234E-03 -3.47915152674E-01 -1.05131226041E-01
3.02000000000E+09 -3.32808570292E-01 +5.99679720843E-02 +4.83159031312E-04 +6.30897696252E-04 +4.00094730573E-04 +6.28056630041E-04 -3.68617402212E-01 -6.75190526375E-02
3.02500000000E+09 -3.34212411694E-01 +9.00592151428E-02 +2.83120214391E-04 +1.61104881843E-04 +2.39682874168E-04 +8.14595420856E-05 -3.85710416957E-01 -2.89566176929E-02
3.03000000000E+09 -3.33125937183E-01 +1.19444006227E-01 -2.45263636746E-04 +1.25468861541E-04 -3.20000115497E-04 +9.39489459537E-05 -3.99785383065E-01 +1.04248010239E-02
3.03500000000E+09 -3.29570302728E-01 +1.47732024194E-01 -5.81777407726E-04 +5.17451805756E-04 -6.00736999033E-04 +5.36765350195E-04 -4.11025931149E-01 +5.00282397837E-02
3.04000000000E+09 -3.24864450509E-01 +1.76043593887E-01 -2.25449283423E-04 +6.53268404071E-04 -2.10558072910E-04 +6.61473402111E-04 -4.19446709014E-01 +8.96717079690E-02
3.04500000000E+09 -3.17490114190E-01 +2.04374811361E-01 -2.78095789588E-04 +9.85594166844E-04 -2.79838297276E-04 +1.07617730599E-03 -4.25585649030E-01 +1.28701372309E-01
3.05000000000E+09 -3.08938404109E-01 +2.32341982771E-01 +2.68448050511E-04 +8.53246464076E-04 +3.42712242208E-04 +9.50303978362E-04 -4.29084446764E-01 +1.67552133380E-01
3.05500000000E+09 -2.97899249521E-01 +2.59816904644E-01 +5.49371327170E-05 +6.32876988060E-04 +8.00154389372E-05 +6.72923295878E-04 -4.30609943754E-01 +2.05498396327E-01
3.06000000000E+09 -2.86180039713E-01 +2.86235594026E-01 +1.09881973140E-04 +8.08657066673E-04 +8.97056125502E-05 +7.88304389491E-04 -4.29776239329E-01 +2.43765858082E-01
3.06500000000E+09 -2.73610722835E-01 +3.11486790718E-01 +2.48146772518E-04 +9.55604710042E-04 +2.28267864096E-04 +9.45399369697E-04 -4.26003776598E-01 +2.81239073590E-01
3.07000000000E+09 -2.60165599359E-01 +3.35813678572E-01 +5.66434552248E-04 +1.04210809550E-03 +5.32662804856E-04 +9.84695259128E-04 -4.20138116278E-01 +3.17370092176E-01
