# Hz S RI R 50
! CMT, C1220, 16058040, 17.2.0/1
! Date: 15/08/2018 10:26:36
! Data: Format (Calibration Info)
! Freq                      S11: Re/Im (F2)                       S21: Re/Im (F2)                       S12: Re/Im (F2)                       S22: Re/Im (F2)            
2.50000000000E+09 +5.82528432666E-01 +6.42227997671E-01 +2.60890405044E-04 +1.00349985286E-04 +2.95539043943E-04 +1.06916543417E-04 +5.70715787632E-01 +7.19564581853E-01
2.50500000000E+09 +5.89622302456E-01 +6.34468411075E-01 +3.78013817289E-04 +2.76384868402E-05 +3.94497070681E-04 +2.70782888790E-05 +5.76709392581E-01 +7.13674006201E-01
2.51000000000E+09 +5.97147367054E-01 +6.26436013221E-01 +3.77058950311E-04 -3.49210590965E-05 +3.82149155768E-04 -4.88032492372E-05 +5.82534240866E-01 +7.07903088270E-01
2.51500000000E+09 +6.04375711120E-01 +6.18610348067E-01 +4.01817253217E-04 -1.27961216858E-04 +4.10616207854E-04 -1.08560866152E-04 +5.87819139433E-01 +7.01975757419E-01
2.52000000000E+09 +6.10977593358E-01 +6.10751346014E-01 +4.00176464271E-04 -2.00172378081E-04 +3.72517878176E-04 -1.94671813601E-04 +5.92909572352E-01 +6.95444695264E-01
2.52500000000E+09 +6.16717362206E-01 +6.03441544811E-01 +3.05594939188E-04 -2.81023304703E-04 +2.63480859780E-04 -2.24272052941E-04 +5.98462013689E-01 +6.88811808218E-01
2.53000000000E+09 +6.21865766654E-01 +5.96633274184E-01 +2.59251452418E-04 -3.00942415476E-04 +2.97211544360E-04 -3.21193642251E-04 +6.04374159007E-01 +6.81515692462E-01
2.53500000000E+09 +6.26596593488E-01 +5.90135006770E-01 +1.86118712595E-04 -3.54984349456E-04 +1.73086030328E-04 -3.89387118566E-04 +6.09838885934E-01 +6.74469366432E-01
2.54000000000E+09 +6.30783525797E-01 +5.83851921728E-01 +1.43783215416E-04 -3.58358497390E-04 +1.29800533224E-04 -3.65137931133E-04 +6.15447738671E-01 +6.67711723590E-01
2.54500000000E+09 +6.35186632075E-01 +5.77994944052E-01 +1.35106633525E-06 -3.98425032498E-04 +6.14725249162E-05 -3.89321890788E-04 +6.20666905676E-01 +6.61154147211E-01
2.55000000000E+09 +6.40167578585E-01 +5.71709282866E-01 +2.52233051222E-05 -2.52135252428E-04 +4.03468858058E-05 -2.41447140563E-04 +6.25218109930E-01 +6.54983209311E-01
2.55500000000E+09 +6.45570723533E-01 +5.64968373260E-01 +9.38366631132E-05 -2.97712384587E-04 +1.22122201322E-04 -3.39040826214E-04 +6.29847513378E-01 +6.48763512853E-01
2.56000000000E+09 +6.51751922481E-01 +5.57943511546E-01 -8.99923303794E-06 -3.83034159762E-04 -2.66766622899E-05 -4.85289910444E-04 +6.34672447769E-01 +6.42122011181E-01
2.56500000000E+09 +6.58128781550E-01 +5.50022708156E-01 -1.02029961870E-04 -3.31338939561E-04 -1.50722747716E-04 -3.90728716401E-04 +6.39871726832E-01 +6.34910994897E-01
2.57000000000E+09 +6.64234786754E-01 +5.42118383599E-01 -2.00665612372E-04 -3.44283946761E-04 -2.42034091315E-04 -3.11537836199E-04 +6.45213769361E-01 +6.27536529006E-01
2.57500000000E+09 +6.70491651188E-01 +5.33846787196E-01 -2.77743371803E-04 -1.85299494694E-04 -2.77825063594E-04 -1.32108426666E-04 +6.50530598348E-01 +6.20274626750E-01
2.58000000000E+09 +6.75867337441E-01 +5.25561723943E-01 -1.69879832819E-04 -7.08284761436E-05 -1.99376714242E-04 -5.46229471052E-05 +6.55754164277E-01 +6.13073766279E-01
2.58500000000E+09 +6.80581287365E-01 +5.17312170528E-01 -1.58903849227E-04 -6.82238911072E-05 -1.34173888384E-04 -6.50190524913E-05 +6.60928492690E-01 +6.05541349239E-01
2.59000000000E+09 +6.84627059019E-01 +5.09412240584E-01 -1.60721330653E-04 -6.71016034844E-05 -1.64185698914E-04 -7.82912272624E-05 +6.65728624166E-01 +5.98010068243E-01
2.59500000000E+09 +6.88629234242E-01 +5.01542141802E-01 -9.65389512854E-05 -1.19554507424E-04 -9.52229178338E-05 -7.31748715726E-05 +6.70931614913E-01 +5.90213932493E-01
2.60000000000E+09 +6.92486342102E-01 +4.93188310851E-01 -8.62333603594E-05 -5.23413943128E-05 -1.32174124227E-04 -9.41638834936E-05 +6.76373962253E-01 +5.81771172088E-01
2.60500000000E+09 +6.96690103395E-01 +4.83941015619E-01 -9.68560882372E-05 -1.03176794554E-04 -6.77675245580E-05 -7.47534600262E-05 +6.81959439594E-01 +5.72931399113E-01
2.61000000000E+09 +7.01033161684E-01 +4.73743469707E-01 -3.57835381962E-05 -1.75209396152E-04 -6.21690365548E-05 -1.16738969821E-04 +6.87030911653E-01 +5.64062419671E-01
2.61500000000E+09 +7.05896346389E-01 +4.62294959045E-01 -1.38970130191E-04 -2.03358055338E-04 -1.53953426913E-04 -1.86265744474E-04 +6.91780334801E-01 +5.55457559765E-01
2.62000000000E+09 +7.10472394508E-01 +4.49862180618E-01 -1.83084751351E-04 -8.42341387586E-05 -2.21785419505E-04 -1.21778423442E-04 +6.96528438753E-01 +5.46505530814E-01
2.62500000000E+09 +7.15419993900E-01 +4.36637390083E-01 -1.57103537468E-04 -8.76206767473E-05 -1.59486019754E-04 -8.73529084952E-05 +7.01011151525E-01 +5.37506182846E-01
2.63000000000E+09 +7.19941957381E-01 +4.23043049952E-01 -1.92310397831E-04 -6.65579827212E-05 -2.05823210380E-04 -2.47141375583E-05 +7.05477143071E-01 +5.28420612536E-01
2.63500000000E+09 +7.23930298376E-01 +4.09613609132E-01 -2.13408498415E-04 -6.70677531123E-05 -1.57935979391E-04 -6.46458624267E-05 +7.10052901001E-01 +5.19254528332E-01
2.64000000000E+09 +7.27577758327E-01 +3.96892083677E-01 -1.96698756410E-04 -1.04703473992E-04 -1.96087302923E-04 -1.05314278942E-04 +7.14612836411E-01 +5.09565074376E-01
2.64500000000E+09 +7.30799585467E-01 +3.85082392457E-01 -2.66109638890E-04 -2.94245902576E-05 -2.47251897800E-04 -3.39236340073E-05 +7.19170554817E-01 +5.00138148848E-01
2.65000000000E+09 +7.33649130364E-01 +3.74185698136E-01 -2.06732276715E-04 -1.31018028451E-05 -1.91786273530E-04 -5.95935857784E-05 +7.23422539830E-01 +4.90094255617E-01
2.65500000000E+09 +7.37038651243E-01 +3.63517786327E-01 -2.90835609310E-04 -7.21030640566E-05 -3.42634251165E-04 -7.60772028265E-05 +7.27151740373E-01 +4.79743407475E-01
2.66000000000E+09 +7.40185593962E-01 +3.52688011042E-01 -3.49538756888E-04 +1.26234579275E-04 -3.22833354200E-04 +1.26365579835E-04 +7.30930672015E-01 +4.68721727827E-01
2.66500000000E+09 +7.43522853952E-01 +3.41622718078E-01 -2.30356969551E-04 +2.04241923574E-04 -2.20087731260E-04 +2.28233683133E-04 +7.35244669326E-01 +4.57790736306E-01
2.67000000000E+09 +7.46387953716E-01 +3.29164011681E-01 -1.99528096882E-04 +2.11697884235E-04 -1.77408525127E-04 +2.07575456888E-04 +7.39478536396E-01 +4.46930325158E-01
2.67500000000E+09 +7.48690022296E-01 +3.16024189040E-01 -3.57238809671E-05 +1.15188730136E-04 -4.50611426821E-05 +1.19409627308E-04 +7.43713390332E-01 +4.35810052400E-01
2.68000000000E+09 +7.50442658884E-01 +3.01965639871E-01 -1.19599288095E-04 +7.41463290242E-05 -7.89828690310E-05 +1.16950032031E-04 +7.47514325685E-01 +4.24685145006E-01
2.68500000000E+09 +7.51424735498E-01 +2.87741524547E-01 -1.02511508612E-04 +2.10329466364E-04 -1.41098745448E-04 +1.81242682167E-04 +7.50672320524E-01 +4.13543469059E-01
2.69000000000E+09 +7.52214085363E-01 +2.73376755661E-01 +2.80139196401E-06 +2.49257181875E-04 +4.90119814746E-05 +2.27648241800E-04 +7.53312866487E-01 +4.01827035502E-01
2.69500000000E+09 +7.52859571106E-01 +2.59355664935E-01 +7.82716380918E-05 +9.34998121391E-05 +6.40340934262E-05 +5.52800835711E-05 +7.56057939182E-01 +3.89549031689E-01
2.70000000000E+09 +7.53378450018E-01 +2.45251023187E-01 -4.37626432349E-06 +6.37068305421E-05 +2.86645966560E-05 +4.06438698396E-05 +7.59025056761E-01 +3.76420485493E-01
2.70500000000E+09 +7.53704894821E-01 +2.31746191084E-01 +3.71120738482E-05 +6.39818867090E-06 +4.23239362119E-05 +1.32862693071E-05 +7.61871547000E-01 +3.63338100132E-01
2.71000000000E+09 +7.54421768220E-01 +2.18156091265E-01 -2.54027132485E-05 -2.22946529423E-05 -3.14411523407E-05 +1.16982157782E-05 +7.64851931800E-01 +3.50334926074E-01
2.71500000000E+09 +7.55249347031E-01 +2.04208469028E-01 -1.54583248093E-05 -4.27829025363E-06 -2.72348330932E-05 +2.41091802003E-05 +7.67395123579E-01 +3.37560212207E-01
2.72000000000E+09 +7.55800063372E-01 +1.89828403272E-01 -3.03308409096E-05 -1.43795915237E-04 -2.78281639430E-05 -1.45431637665E-04 +7.69221910141E-01 +3.24930710928E-01
2.72500000000E+09 +7.55830664383E-01 +1.74357890444E-01 -2.56855433135E-04 -1.42263240004E-04 -2.41511087477E-04 -1.47311708302E-04 +7.70553170650E-01 +3.11689078884E-01
2.73000000000E+09 +7.54665030372E-01 +1.58207712077E-01 -3.57904217668E-04 +1.55568454549E-04 -2.90219549478E-04 +1.65605847905E-04 +7.71862061530E-01 +2.97601351602E-01
2.73500000000E+09 +7.52296931925E-01 +1.41171501628E-01 -1.37039732906E-04 +1.84177100434E-04 -5.05082358803E-05 +1.33337015151E-04 +7.72624082321E-01 +2.82663855506E-01
2.74000000000E+09 +7.49010318007E-01 +1.24540793873E-01 -9.75368085670E-05 +1.75325029010E-04 -1.27369349938E-04 +1.04475015826E-04 +7.73653846169E-01 +2.67945281677E-01
2.74500000000E+09 +7.44814273104E-01 +1.07197439237E-01 -8.44274834695E-05 +1.37973028887E-04 -5.05020724896E-05 +1.20007620294E-04 +7.74632415958E-01 +2.52942070179E-01
2.75000000000E+09 +7.39618279785E-01 +9.01126924110E-02 -6.19133195539E-05 +1.12540233366E-04 -7.24485710668E-05 +1.06098123502E-04 +7.75566907592E-01 +2.38247419172E-01
2.75500000000E+09 +7.34075563742E-01 +7.33412934454E-02 -1.15414147162E-04 +2.85817097928E-05 -1.89439398719E-04 +8.79591285986E-07 +7.75636680646E-01 +2.23003341983E-01
2.76000000000E+09 +7.28760207500E-01 +5.69362370039E-02 -1.60770068702E-04 +2.83264544944E-05 -2.50074073301E-04 +2.28435288609E-05 +7.74691575120E-01 +2.07806649992E-01
2.76500000000E+09 +7.23733659982E-01 +4.02588840536E-02 -3.38336880774E-04 +1.79380346108E-04 -3.42673600804E-04 +1.76641080662E-04 +7.73667864948E-01 +1.92172581467E-01
2.77000000000E+09 +7.19340821101E-01 +2.25613348328E-02 -1.99151367216E-04 +3.81584877790E-04 -2.13579123781E-04 +3.23650792995E-04 +7.73039936360E-01 +1.75362089607E-01
2.77500000000E+09 +7.13682419173E-01 +3.38023096325E-03 -1.36159796917E-04 +3.00572256553E-04 -1.35740287970E-04 +2.80579398685E-04 +7.71574033527E-01 +1.57877201961E-01
2.78000000000E+09 +7.09250832038E-01 -1.60568133572E-02 +1.67472872038E-05 +3.33315749059E-04 -1.41888007461E-05 +3.68062040121E-04 +7.70023775466E-01 +1.40352526097E-01
2.78500000000E+09 +7.03812028835E-01 -3.65867762220E-02 +6.18439038820E-06 +8.89626850844E-05 +2.84269087335E-05 +1.09315146421E-04 +7.67690100243E-01 +1.23190020223E-01
2.79000000000E+09 +6.97167217237E-01 -5.72937855650E-02 -2.88553628244E-04 +1.25452954143E-04 -2.76975572488E-04 +2.34880131248E-04 +7.65278322020E-01 +1.06544857086E-01
2.79500000000E+09 +6.89778881001E-01 -7.77058422541E-02 -1.18438116921E-04 +4.40049565763E-04 -9.17737222862E-05 +3.86165098963E-04 +7.62439783160E-01 +8.81979731446E-02
2.80000000000E+09 +6.80598113727E-01 -9.75927586247E-02 -1.61405251686E-04 +4.32394349160E-04 -1.42111311438E-04 +3.66526302579E-04 +7.57767960692E-01 +6.91454586882E-02
2.80500000000E+09 +6.70707182095E-01 -1.16015019488E-01 -1.23227914185E-04 +4.89231543997E-04 -1.59930120769E-04 +4.81636870797E-04 +7.52376878803E-01 +5.00303722789E-02
2.81000000000E+09 +6.59480305422E-01 -1.33334281777E-01 -1.64207880279E-04 +5.93430772238E-04 -1.99429379548E-04 +6.09746497325E-04 +7.46736886289E-01 +3.03915580040E-02
2.81500000000E+09 +6.47941923273E-01 -1.49782477871E-01 +1.14576424245E-04 +8.67712182949E-04 +9.34223142105E-05 +8.22116003809E-04 +7.40132655454E-01 +1.01734708285E-02
2.82000000000E+09 +6.35156209663E-01 -1.65947469289E-01 +3.26234951674E-04 +6.81626996127E-04 +4.09973800941E-04 +6.94879145406E-04 +7.33146858648E-01 -1.00741551846E-02
2.82500000000E+09 +6.21260137042E-01 -1.82269100335E-01 +3.24170241462E-04 +5.15830136339E-04 +3.38245714209E-04 +4.88908515322E-04 +7.24288572479E-01 -3.09171872788E-02
2.83000000000E+09 +6.05604940734E-01 -1.99243633594E-01 +2.76360795433E-04 +6.70093544514E-04 +2.47187166067E-04 +5.50467712963E-04 +7.14259502592E-01 -5.11943784759E-02
2.83500000000E+09 +5.88192790027E-01 -2.16766079289E-01 +5.34018035983E-04 +9.29532714333E-04 +4.40492311999E-04 +8.52610590204E-04 +7.03584601435E-01 -7.12759049809E-02
2.84000000000E+09 +5.68212381607E-01 -2.34484171599E-01 +9.46863716315E-04 +7.27638347286E-04 +8.61882819102E-04 +7.56833429881E-04 +6.92117134090E-01 -9.18575863275E-02
2.84500000000E+09 +5.46576858270E-01 -2.52018729244E-01 +1.03063401198E-03 +5.32985392201E-04 +1.06243338814E-03 +5.05925008310E-04 +6.79512553007E-01 -1.12411230734E-01
2.85000000000E+09 +5.24027989936E-01 -2.69211850523E-01 +1.22304609996E-03 +2.46796829933E-04 +1.20092663140E-03 +2.59632866553E-04 +6.65198079019E-01 -1.33264760602E-01
2.85500000000E+09 +4.99677498266E-01 -2.86354535416E-01 +1.00008621879E-03 -1.08299047705E-04 +1.01401044745E-03 -8.40156549137E-05 +6.49858417609E-01 -1.52978571603E-01
2.86000000000E+09 +4.74239016203E-01 -3.02151241165E-01 +9.92848820949E-04 +6.62145494269E-05 +1.03821671255E-03 +2.85194569289E-05 +6.33747279172E-01 -1.72864327260E-01
2.86500000000E+09 +4.49020815565E-01 -3.16049624566E-01 +1.25711420405E-03 -2.01738749475E-04 +1.30979050371E-03 -1.88760221499E-04 +6.16101651387E-01 -1.93022312742E-01
2.87000000000E+09 +4.23784983294E-01 -3.28875436261E-01 +1.23802504032E-03 -5.03396362001E-04 +1.25464013462E-03 -5.24569101014E-04 +5.97107262433E-01 -2.12678577987E-01
2.87500000000E+09 +3.98853594244E-01 -3.40428584562E-01 +1.07651001168E-03 -7.76966816905E-04 +1.05759728965E-03 -8.43666369169E-04 +5.76566722984E-01 -2.31770662493E-01
2.88000000000E+09 +3.73414925663E-01 -3.51409809879E-01 +6.77789333188E-04 -8.56555372122E-04 +7.04720714667E-04 -9.02475662304E-04 +5.55373399530E-01 -2.49760100354E-01
2.88500000000E+09 +3.46894362966E-01 -3.61454653205E-01 +7.18582479050E-04 -7.36725369201E-04 +7.20421260801E-04 -6.72764359087E-04 +5.33428584347E-01 -2.67872259147E-01
2.89000000000E+09 +3.18856819048E-01 -3.69441565879E-01 +7.04214016763E-04 -9.44370147844E-04 +7.55162443471E-04 -8.81360899057E-04 +5.09247688386E-01 -2.85349481717E-01
2.89500000000E+09 +2.90563506009E-01 -3.76025482430E-01 +7.51771842077E-04 -9.05732421735E-04 +8.40886373472E-04 -8.61278594905E-04 +4.83685393054E-01 -3.03051178863E-01
2.90000000000E+09 +2.60406719863E-01 -3.81865024777E-01 +7.31999653265E-04 -1.50395278082E-03 +7.58778886224E-04 -1.46433045076E-03 +4.55125403894E-01 -3.20090078095E-01
2.90500000000E+09 +2.27867197409E-01 -3.85975455549E-01 +3.80340202990E-06 -1.61690145474E-03 +2.11342384420E-05 -1.65619495472E-03 +4.25669862895E-01 -3.34591393462E-01
2.91000000000E+09 +1.94473583282E-01 -3.85964465941E-01 -1.99220071047E-04 -1.26074823233E-03 -2.33769771592E-04 -1.28719815402E-03 +3.95940771391E-01 -3.48490298691E-01
2.91500000000E+09 +1.62204569425E-01 -3.84589851150E-01 -1.47898735249E-04 -1.08900986316E-03 -1.53095590170E-04 -1.09656640043E-03 +3.64610105582E-01 -3.60940358357E-01
2.92000000000E+09 +1.29298434651E-01 -3.81042823842E-01 -1.45144811672E-04 -1.20490837798E-03 -1.04283683800E-04 -1.16884292286E-03 +3.31585949421E-01 -3.71629675549E-01
2.92500000000E+09 +9.78031132850E-02 -3.75919745908E-01 -2.05744857003E-04 -1.73200965869E-03 -1.01340290660E-04 -1.68574076486E-03 +2.96621529980E-01 -3.79198664094E-01
2.93000000000E+09 +6.61760944025E-02 -3.69613961863E-01 -1.26847526894E-03 -1.65536449621E-03 -1.18590549393E-03 -1.71155413688E-03 +2.61247328529E-01 -3.85975313680E-01
2.93500000000E+09 +3.42190499205E-02 -3.61787297445E-01 -1.49013657383E-03 -7.30004786914E-04 -1.46252948227E-03 -8.22313777300E-04 +2.23086548199E-01 -3.91433358026E-01
2.94000000000E+09 +2.23683467407E-03 -3.50654464318E-01 -1.03913208502E-03 -3.17067593725E-04 -1.03442474025E-03 -3.18816017954E-04 +1.83901577559E-01 -3.94114925020E-01
2.94500000000E+09 -2.82079846083E-02 -3.37566446090E-01 -6.66776947927E-04 -5.29194424426E-04 -6.90385896460E-04 -5.25974922243E-04 +1.43986213155E-01 -3.94168193613E-01
2.95000000000E+09 -5.86952072823E-02 -3.21635390301E-01 -9.11008769228E-04 -9.99083137176E-04 -9.28603885805E-04 -1.03146769711E-03 +1.05041988891E-01 -3.91090986081E-01
2.95500000000E+09 -8.78637517962E-02 -3.03112852787E-01 -1.75670158675E-03 -5.81009697982E-04 -1.77648810396E-03 -6.92272008434E-04 +6.59511412091E-02 -3.86223214385E-01
2.96000000000E+09 -1.15736055595E-01 -2.81739902119E-01 -1.85229461815E-03 +8.50204782137E-05 -1.96201318486E-03 +1.14159384517E-04 +2.57878818156E-02 -3.77866652771E-01
2.96500000000E+09 -1.42045297418E-01 -2.59391522273E-01 -1.17830909630E-03 +7.27914920356E-04 -1.19660780936E-03 +8.05620810136E-04 -1.34624672032E-02 -3.67086231816E-01
2.97000000000E+09 -1.67836493852E-01 -2.33803139132E-01 -6.81226960449E-04 +5.33703136180E-04 -6.98685579653E-04 +5.35611778759E-04 -5.46351360831E-02 -3.53677376826E-01
2.97500000000E+09 -1.90985620172E-01 -2.07184275739E-01 -4.83548791438E-04 +1.49906462268E-05 -4.93064727889E-04 -1.24175351851E-05 -9.35356310233E-02 -3.36018782774E-01
2.98000000000E+09 -2.12574641496E-01 -1.78913572118E-01 -1.39921794750E-03 -1.89333044266E-05 -1.39997601462E-03 -2.22567590850E-05 -1.31660572257E-01 -3.17363883972E-01
2.98500000000E+09 -2.33263221651E-01 -1.50688125599E-01 -1.23592412815E-03 +8.69748271384E-04 -1.30433584165E-03 +7.77340491819E-04 -1.69174924070E-01 -2.95010474934E-01
2.99000000000E+09 -2.52402189235E-01 -1.19917284449E-01 -7.17492936186E-04 +9.37498345734E-04 -7.33506818326E-04 +9.36799911538E-04 -2.04509194690E-01 -2.68928626642E-01
2.99500000000E+09 -2.68332976528E-01 -8.96214613427E-02 -5.18598144198E-04 +7.34683521570E-04 -4.71343081982E-04 +7.48672508836E-04 -2.37734426558E-01 -2.39329820947E-01
3.00000000000E+09 -2.83533128256E-01 -5.92036550499E-02 -5.41270730922E-04 +5.01080795227E-04 -4.98768963033E-04 +4.99911590136E-04 -2.67792690935E-01 -2.08546903355E-01
3.00500000000E+09 -2.96271988192E-01 -2.89938110670E-02 -8.69528733271E-04 +6.60275725016E-04 -8.77043373893E-04 +6.74132883226E-04 -2.97188918577E-01 -1.75770411887E-01
3.01000000000E+09 -3.07190312521E-01 +1.36361795089E-03 -7.82948324063E-04 +1.04946972223E-03 -7.91071323674E-04 +9.75851061190E-04 -3.23295197835E-01 -1.41027476020E-01
3.01500000000E+09 -3.15890504439E-01 +3.14354927656E-02 -1.19941889359E-04 +1.56326036435E-03 -1.34341943582E-04 +1.53906809327E-03 -3.46999741707E-01 -1.05377526087E-01
3.02000000000E+09 -3.21232129734E-01 +6.22552384281E-02 +5.92536491213E-04 +6.87153021612E-04 +5.85815378732E-04 +6.83502019269E-04 -3.67522843863E-01 -6.78262294835E-02
3.02500000000E+09 -3.23532962098E-01 +9.15304665969E-02 -1.50596920895E-04 +4.85455325760E-05 -1.41184542909E-04 +1.00932009080E-04 -3.84632001025E-01 -2.95866914814E-02
3.03000000000E+09 -3.22879861014E-01 +1.20423802291E-01 -6.77643898044E-04 +6.17762747908E-04 -7.10930744763E-04 +6.60451412391E-04 -3.98757510341E-01 +9.34452553596E-03
3.03500000000E+09 -3.20672344695E-01 +1.47551698277E-01 -4.62211304874E-04 +1.19689590872E-03 -5.17071934833E-04 +1.18025715662E-03 -4.10521455532E-01 +4.86751604210E-02
3.04000000000E+09 -3.16760508521E-01 +1.75828381917E-01 +2.36620493953E-04 +1.13905352910E-03 +2.17907729341E-04 +1.24831191387E-03 -4.19237620121E-01 +8.84553612184E-02
3.04500000000E+09 -3.10212231746E-01 +2.03454425834E-01 +2.78413302904E-04 +1.08699745124E-03 +2.87454192748E-04 +1.16238581944E-03 -4.25003099216E-01 +1.27565270057E-01
3.05000000000E+09 -3.02297455229E-01 +2.31196369645E-01 +4.11522323169E-04 +7.83050990639E-04 +3.85570066026E-04 +8.57683732609E-04 -4.28520072538E-01 +1.65800576657E-01
3.05500000000E+09 -2.92130951907E-01 +2.57905558436E-01 +4.16820119396E-05 +9.52479492402E-04 +6.29157245767E-05 +9.28237698323E-04 -4.30338189812E-01 +2.03601671089E-01
3.06000000000E+09 -2.81415182493E-01 +2.83804783836E-01 +7.13439755823E-04 +1.23160598548E-03 +7.13833745874E-04 +1.18767041291E-03 -4.29907481367E-01 +2.41802303760E-01
3.06500000000E+09 -2.70754308695E-01 +3.09200558366E-01 +9.62046548283E-04 +7.35694531254E-04 +9.58258221045E-04 +6.47615227537E-04 -4.26619113768E-01 +2.79893816648E-01
3.07000000000E+09 -2.58173130745E-01 +3.34170060172E-01 +9.07413580890E-04 +3.74233453740E-04 +8.60723629909E-04 +3.69543163231E-04 -4.20239540173E-01 +3.16445312233E-01
