# Hz S RI R 50
! CMT, C1220, 16058040, 17.2.0/1
! Date: 15/08/2018 10:23:46
! Data: Format (Calibration Info)
! Freq                      S11: Re/Im (F2)                       S21: Re/Im (F2)                       S12: Re/Im (F2)                       S22: Re/Im (F2)            
2.50000000000E+09 +5.81024073526E-01 +6.38311876047E-01 +3.35796391401E-04 +6.19770114524E-05 +3.74712224886E-04 +9.33694074551E-05 +5.71164561619E-01 +7.18955476871E-01
2.50500000000E+09 +5.88115425104E-01 +6.30627420030E-01 +4.36407418599E-04 +3.88048577881E-05 +3.94890433916E-04 +6.52681361453E-05 +5.77002653781E-01 +7.13019888623E-01
2.51000000000E+09 +5.95506940542E-01 +6.22571393019E-01 +4.40735034792E-04 -3.05986564357E-06 +4.05331288724E-04 -6.85091634393E-05 +5.82851010294E-01 +7.07338244997E-01
2.51500000000E+09 +6.02744967652E-01 +6.14605113189E-01 +4.42305757936E-04 -7.08758868089E-05 +4.23362097484E-04 -8.72717495113E-05 +5.88055381846E-01 +7.01437386237E-01
2.52000000000E+09 +6.09396003524E-01 +6.06433277674E-01 +4.33229257496E-04 -2.16614342150E-04 +4.74774150879E-04 -1.82172742550E-04 +5.93140344591E-01 +6.95042710371E-01
2.52500000000E+09 +6.14850881170E-01 +5.98727751044E-01 +3.76722296944E-04 -2.86309260107E-04 +3.90083540049E-04 -2.66724923894E-04 +5.98731724818E-01 +6.88396774349E-01
2.53000000000E+09 +6.19988864775E-01 +5.91654767309E-01 +3.30059480625E-04 -3.22060398865E-04 +2.97910936943E-04 -3.53715944916E-04 +6.04483214493E-01 +6.81048920074E-01
2.53500000000E+09 +6.24486485987E-01 +5.85049916866E-01 +2.51857264822E-04 -3.44045361631E-04 +1.77572848024E-04 -3.90003315227E-04 +6.10115574920E-01 +6.73974030416E-01
2.54000000000E+09 +6.28542679326E-01 +5.78776447629E-01 +1.37793202829E-04 -2.82015300851E-04 +1.19665864656E-04 -3.36065952750E-04 +6.15675465489E-01 +6.67309511407E-01
2.54500000000E+09 +6.32934377149E-01 +5.72936660313E-01 +9.20743845739E-05 -2.82954910367E-04 +1.26146866075E-04 -2.76697500667E-04 +6.20942089319E-01 +6.60855853217E-01
2.55000000000E+09 +6.37838116915E-01 +5.66840293597E-01 +1.62024588710E-04 -2.32578559992E-04 +2.26546686723E-04 -2.50581118159E-04 +6.25576559861E-01 +6.54709744446E-01
2.55500000000E+09 +6.43254114138E-01 +5.60141104007E-01 +1.66828255641E-04 -4.01272753613E-04 +2.28467829039E-04 -4.41080927773E-04 +6.30088373787E-01 +6.48691034690E-01
2.56000000000E+09 +6.49391869358E-01 +5.53117753132E-01 +7.38946562359E-05 -4.36322107050E-04 +6.22457709631E-05 -5.05012322217E-04 +6.35026013761E-01 +6.42154576569E-01
2.56500000000E+09 +6.55792526091E-01 +5.45140630516E-01 +2.11384415184E-05 -3.76057961414E-04 -5.54033628133E-05 -4.04690003123E-04 +6.40282665812E-01 +6.35097020968E-01
2.57000000000E+09 +6.61903433742E-01 +5.36948559255E-01 -8.12757720593E-05 -4.45973793679E-04 -1.49348012876E-04 -4.49252882130E-04 +6.45790315336E-01 +6.27562731767E-01
2.57500000000E+09 +6.68009905897E-01 +5.28385820682E-01 -1.74093731261E-04 -2.63820570181E-04 -2.13427975453E-04 -2.21201287936E-04 +6.51313610031E-01 +6.20105323757E-01
2.58000000000E+09 +6.73248754733E-01 +5.19758536269E-01 -1.33028615681E-04 -2.79104098814E-04 -1.15108310867E-04 -1.97063260503E-04 +6.56536552914E-01 +6.13019842318E-01
2.58500000000E+09 +6.77859194632E-01 +5.11062807151E-01 -9.16209971898E-05 -1.93534191061E-04 -6.20631458765E-05 -2.04574175685E-04 +6.61760508767E-01 +6.05522359802E-01
2.59000000000E+09 +6.81745840211E-01 +5.02831513226E-01 -8.50880213341E-05 -2.04170144981E-04 -4.43022964927E-05 -2.23480206680E-04 +6.66812305280E-01 +5.98057267480E-01
2.59500000000E+09 +6.85664141834E-01 +4.94569464371E-01 -2.45114119578E-05 -2.35992671252E-04 -3.06811757696E-05 -2.67620237212E-04 +6.72012330105E-01 +5.90127758268E-01
2.60000000000E+09 +6.89132240101E-01 +4.85983084081E-01 -1.31123013819E-04 -2.50249808739E-04 -8.52892199763E-05 -2.75870650179E-04 +6.77450303032E-01 +5.81747894600E-01
2.60500000000E+09 +6.93152900034E-01 +4.76619767969E-01 -7.39991663222E-05 -2.82565713392E-04 -5.79112435253E-05 -2.23101513123E-04 +6.82972173155E-01 +5.72846942140E-01
2.61000000000E+09 +6.97431837844E-01 +4.66371090617E-01 -1.42272982474E-04 -4.04285253369E-04 -2.38326929403E-05 -3.67791647217E-04 +6.88182805596E-01 +5.63885870955E-01
2.61500000000E+09 +7.02189740428E-01 +4.54824940024E-01 -2.16593311005E-04 -3.93080802569E-04 -2.22791838739E-04 -3.48345261505E-04 +6.93090082720E-01 +5.55063657212E-01
2.62000000000E+09 +7.06881565055E-01 +4.42347134993E-01 -2.94389257724E-04 -2.77969750148E-04 -2.60641539663E-04 -2.32865728654E-04 +6.97716438408E-01 +5.46069324469E-01
2.62500000000E+09 +7.11658844982E-01 +4.28785883660E-01 -2.20069141239E-04 -2.06877113486E-04 -2.56217136225E-04 -2.33550412219E-04 +7.02275097314E-01 +5.37236794170E-01
2.63000000000E+09 +7.15989182850E-01 +4.14752239344E-01 -2.47574964997E-04 -2.58235076156E-04 -2.33022970445E-04 -1.89500087001E-04 +7.06802250864E-01 +5.28109783351E-01
2.63500000000E+09 +7.19661687931E-01 +4.01127682720E-01 -3.22665210984E-04 -2.37156559970E-04 -3.16196266732E-04 -2.19640118958E-04 +7.11454687421E-01 +5.18750165595E-01
2.64000000000E+09 +7.23001720176E-01 +3.88033394790E-01 -4.00583235505E-04 -2.57097765817E-04 -3.58048560556E-04 -2.09584450591E-04 +7.16144265877E-01 +5.09134112911E-01
2.64500000000E+09 +7.25975984251E-01 +3.76008337639E-01 -5.01260050512E-04 -1.63027909607E-04 -4.33944178012E-04 -2.00501921831E-04 +7.20522393751E-01 +4.99403131124E-01
2.65000000000E+09 +7.28585963206E-01 +3.65064810808E-01 -4.60451575321E-04 -7.58343611553E-05 -4.18774728290E-04 -1.66112171557E-04 +7.24844648702E-01 +4.89240944578E-01
2.65500000000E+09 +7.31714030658E-01 +3.54311538610E-01 -4.95900481739E-04 -3.50198187436E-05 -4.73020270994E-04 -1.32930139124E-04 +7.28656635867E-01 +4.78733547351E-01
2.66000000000E+09 +7.34768737361E-01 +3.43468812038E-01 -4.90590663627E-04 +7.66847693282E-05 -4.78227485481E-04 +4.30075613272E-05 +7.32559963239E-01 +4.67836822059E-01
2.66500000000E+09 +7.37881777145E-01 +3.32271756052E-01 -3.69344642864E-04 +9.00638573308E-05 -4.44414757803E-04 +8.69858121153E-05 +7.36907096856E-01 +4.56635327089E-01
2.67000000000E+09 +7.40523769705E-01 +3.19846549108E-01 -3.66258411672E-04 +1.78314783667E-04 -3.91871047732E-04 +1.77736980700E-04 +7.41270095136E-01 +4.45643806686E-01
2.67500000000E+09 +7.42507810293E-01 +3.06560048140E-01 -3.89533906384E-04 +4.96325962152E-05 -3.24769799947E-04 +5.64250971214E-05 +7.45413983243E-01 +4.34289170763E-01
2.68000000000E+09 +7.43851257967E-01 +2.92439008400E-01 -4.98257568260E-04 +1.53338272950E-04 -4.99519944385E-04 +1.00993237069E-04 +7.49062353171E-01 +4.23034712663E-01
2.68500000000E+09 +7.44439492214E-01 +2.77988051965E-01 -4.91761100698E-04 +3.18353363375E-04 -4.96644837523E-04 +3.05908800049E-04 +7.51951800240E-01 +4.11719753657E-01
2.69000000000E+09 +7.44720273340E-01 +2.63537641254E-01 -2.59722197699E-04 +4.26216567695E-04 -2.53425274577E-04 +3.71729618130E-04 +7.54664689460E-01 +3.99880202352E-01
2.69500000000E+09 +7.44946878954E-01 +2.49448370941E-01 -1.87349388265E-04 +2.95831431184E-04 -2.17098208608E-04 +3.47190325773E-04 +7.57215155066E-01 +3.87507716504E-01
2.70000000000E+09 +7.44996600515E-01 +2.35188584434E-01 -2.49473011508E-04 +2.70942455733E-04 -1.79792889089E-04 +2.77124414134E-04 +7.60115792938E-01 +3.74340055849E-01
2.70500000000E+09 +7.44947788499E-01 +2.21632371497E-01 -1.63667973774E-04 +2.68455564759E-04 -2.16388475318E-04 +2.64253503573E-04 +7.62821961992E-01 +3.61156464427E-01
2.71000000000E+09 +7.45284632530E-01 +2.08116310337E-01 -1.71919540394E-04 +2.37869183391E-04 -1.94173272733E-04 +2.30597950789E-04 +7.65758204890E-01 +3.48114196003E-01
2.71500000000E+09 +7.45724847586E-01 +1.94306253444E-01 -1.67639996106E-04 +3.17321412612E-04 -1.78732606437E-04 +2.86843151901E-04 +7.68162608655E-01 +3.35360466285E-01
2.72000000000E+09 +7.46210260754E-01 +1.80099940065E-01 -2.23062889106E-04 +2.23604067205E-04 -1.73266607587E-04 +2.55248934343E-04 +7.69942630083E-01 +3.22594964333E-01
2.72500000000E+09 +7.45888745447E-01 +1.64862100694E-01 -3.80718212441E-04 +2.11622131518E-04 -4.11470461325E-04 +2.75623273229E-04 +7.71014544876E-01 +3.09293552800E-01
2.73000000000E+09 +7.44692264053E-01 +1.48722380908E-01 -3.69536635650E-04 +6.59875515755E-04 -2.96455436403E-04 +5.83560179151E-04 +7.72116913420E-01 +2.95172952840E-01
2.73500000000E+09 +7.41870013572E-01 +1.31838012654E-01 +3.53152273759E-05 +6.60387428035E-04 +5.97855093362E-05 +5.70261939837E-04 +7.72701604896E-01 +2.80083313123E-01
2.74000000000E+09 +7.38186083488E-01 +1.15005369730E-01 +1.23090021496E-04 +4.97333543933E-04 +4.10454872017E-05 +4.60118793992E-04 +7.73837323796E-01 +2.65258067036E-01
2.74500000000E+09 +7.33237381723E-01 +9.76834184060E-02 +2.56845839862E-04 +3.96009283071E-04 +1.27097760058E-04 +3.36855745713E-04 +7.74696579906E-01 +2.50178787513E-01
2.75000000000E+09 +7.27408458202E-01 +8.09749275436E-02 +1.37244236777E-04 +2.00192657038E-04 +1.14684435043E-04 +2.32811822768E-04 +7.75462698997E-01 +2.35278431367E-01
2.75500000000E+09 +7.21200478871E-01 +6.44973359490E-02 -8.90183026398E-05 +2.56464121930E-04 -9.87387783660E-05 +2.32635548692E-04 +7.75127863528E-01 +2.20034578325E-01
2.76000000000E+09 +7.15415723094E-01 +4.85653418083E-02 -9.98120899195E-05 +3.46243543379E-04 -1.45288848243E-04 +3.88621787253E-04 +7.73987876860E-01 +2.04882044301E-01
2.76500000000E+09 +7.10554532935E-01 +3.24033279668E-02 -6.71897448811E-05 +4.19180397252E-04 -1.32667013180E-04 +4.33365459008E-04 +7.72487240095E-01 +1.89286167013E-01
2.77000000000E+09 +7.06177595502E-01 +1.51512648369E-02 -6.78458097753E-06 +5.50638442277E-04 +3.56493418150E-05 +6.07974359747E-04 +7.71561664622E-01 +1.72907596961E-01
2.77500000000E+09 +7.02069201331E-01 -2.99683474065E-03 +5.42145791334E-05 +5.97564509023E-04 +6.32367015315E-05 +6.12766220138E-04 +7.70158566493E-01 +1.55411170425E-01
2.78000000000E+09 +6.97839916621E-01 -2.21513940771E-02 +3.09441740406E-04 +6.39278148682E-04 +3.37780466943E-04 +6.18405200831E-04 +7.68206874971E-01 +1.37897621171E-01
2.78500000000E+09 +6.92480215344E-01 -4.24330434317E-02 +2.99538658435E-04 +3.24153610676E-04 +3.27528022301E-04 +2.94466142778E-04 +7.65621977489E-01 +1.20999459685E-01
2.79000000000E+09 +6.85894259115E-01 -6.28550992730E-02 +1.06441656476E-04 +3.95088532091E-04 +1.04730914780E-04 +3.79609150755E-04 +7.63185904994E-01 +1.04636768594E-01
2.79500000000E+09 +6.78153544520E-01 -8.28519255191E-02 +2.71479737263E-04 +5.69093282576E-04 +2.66847405413E-04 +4.77316863408E-04 +7.60220988817E-01 +8.65170574056E-02
2.80000000000E+09 +6.68797862907E-01 -1.02052926285E-01 +3.69043477660E-04 +5.82886438486E-04 +3.12498275146E-04 +5.98979039634E-04 +7.55471656930E-01 +6.77434265487E-02
2.80500000000E+09 +6.58741212781E-01 -1.19893852569E-01 +3.82994485559E-04 +4.50018732120E-04 +4.00025268506E-04 +4.71261504473E-04 +7.49980108208E-01 +4.88949264374E-02
2.81000000000E+09 +6.47598803380E-01 -1.36658549725E-01 +3.82160503234E-04 +5.66802105430E-04 +4.11207666548E-04 +5.93816588903E-04 +7.44004366218E-01 +2.93429029185E-02
2.81500000000E+09 +6.36094114300E-01 -1.52991893870E-01 +6.51847223691E-04 +7.08939616659E-04 +7.54928215743E-04 +7.51586882115E-04 +7.37499251616E-01 +9.56705062416E-03
2.82000000000E+09 +6.23121754108E-01 -1.69021289222E-01 +9.28220739821E-04 +3.31737634504E-04 +9.69093631883E-04 +2.76207897808E-04 +7.30245391167E-01 -1.07433930480E-02
2.82500000000E+09 +6.09134313610E-01 -1.85034933406E-01 +6.58645631169E-04 +1.69662321231E-04 +6.29794995916E-04 +1.46213758797E-04 +7.21475843788E-01 -3.11401293098E-02
2.83000000000E+09 +5.93364795718E-01 -2.01454318204E-01 +6.60271210938E-04 +3.23443577030E-04 +6.24392675056E-04 +2.95589971176E-04 +7.11627445367E-01 -5.10675466241E-02
2.83500000000E+09 +5.76443370753E-01 -2.18372242978E-01 +9.19585633267E-04 +4.20527292488E-04 +8.02660361474E-04 +4.08984246774E-04 +7.01136302991E-01 -7.08824359549E-02
2.84000000000E+09 +5.57257245627E-01 -2.35775883208E-01 +1.20309426021E-03 +2.11367261033E-04 +1.14333400904E-03 +2.43031324295E-04 +6.89591796767E-01 -9.12572640047E-02
2.84500000000E+09 +5.36259928503E-01 -2.53123488111E-01 +1.24279589634E-03 -7.09992904939E-05 +1.20221695226E-03 -6.44985867577E-05 +6.76909579788E-01 -1.11750237495E-01
2.85000000000E+09 +5.13805819094E-01 -2.70624236080E-01 +1.17513497415E-03 -3.42795823801E-04 +1.26989069187E-03 -3.14897890311E-04 +6.62389543712E-01 -1.32027453756E-01
2.85500000000E+09 +4.89417999539E-01 -2.87236029561E-01 +8.73693107411E-04 -3.97553107033E-04 +8.44583858344E-04 -3.84938482197E-04 +6.47511585391E-01 -1.51084327265E-01
2.86000000000E+09 +4.64355159521E-01 -3.02359237322E-01 +1.23657915235E-03 -2.40437163511E-04 +1.19811879679E-03 -2.09653895023E-04 +6.31897388788E-01 -1.70877255409E-01
2.86500000000E+09 +4.39469306525E-01 -3.16212574165E-01 +1.42704356802E-03 -6.85918758035E-04 +1.39158454097E-03 -7.58348176449E-04 +6.14433808661E-01 -1.90863219599E-01
2.87000000000E+09 +4.14265322848E-01 -3.28516664259E-01 +1.14371063252E-03 -1.14471968011E-03 +1.15695198006E-03 -1.20340619989E-03 +5.95642891096E-01 -2.10277040880E-01
2.87500000000E+09 +3.89951242501E-01 -3.39706103178E-01 +7.32375133403E-04 -1.34936508275E-03 +6.66011024650E-04 -1.31671257242E-03 +5.75756550763E-01 -2.29135151073E-01
2.88000000000E+09 +3.65337124252E-01 -3.50550726584E-01 +4.86629580213E-04 -1.15454209523E-03 +4.43414944084E-04 -1.19687314277E-03 +5.54996425173E-01 -2.47123408939E-01
2.88500000000E+09 +3.39307220690E-01 -3.60701202003E-01 +5.45950914579E-04 -1.04231891487E-03 +4.62229810474E-04 -9.69451039238E-04 +5.33145796090E-01 -2.65030522049E-01
2.89000000000E+09 +3.12175791230E-01 -3.68937014523E-01 +6.53844039055E-04 -1.21895232141E-03 +5.98852627884E-04 -1.12738091131E-03 +5.09467698503E-01 -2.82518275300E-01
2.89500000000E+09 +2.84296189424E-01 -3.76032511092E-01 +8.09758867199E-04 -1.43103491128E-03 +8.68979771378E-04 -1.34435888506E-03 +4.84343252221E-01 -3.00159425194E-01
2.90000000000E+09 +2.54168563657E-01 -3.81892106034E-01 +1.53378558832E-04 -2.25531244620E-03 +1.73349522906E-04 -2.22485736170E-03 +4.56576666736E-01 -3.17266810091E-01
2.90500000000E+09 +2.21947103435E-01 -3.85199615659E-01 -6.71532896327E-04 -1.70401003759E-03 -6.73963389832E-04 -1.81329123507E-03 +4.27816469900E-01 -3.32508817458E-01
2.91000000000E+09 +1.90015004170E-01 -3.84612065821E-01 -5.24754021689E-04 -1.52725571535E-03 -5.49066582741E-04 -1.49540977585E-03 +3.98274466014E-01 -3.47127436843E-01
2.91500000000E+09 +1.58976553858E-01 -3.83421160482E-01 -7.04148665018E-04 -1.48803278184E-03 -6.70308543114E-04 -1.40507757316E-03 +3.66721522264E-01 -3.59874588925E-01
2.92000000000E+09 +1.27118378857E-01 -3.80428848458E-01 -7.14391906255E-04 -1.37221109976E-03 -6.47465537379E-04 -1.31391723464E-03 +3.33719318346E-01 -3.70219021130E-01
2.92500000000E+09 +9.59039068437E-02 -3.75979243338E-01 -1.01409666096E-03 -1.92196757558E-03 -8.79573059434E-04 -1.92818177613E-03 +2.99554612048E-01 -3.78394138633E-01
2.93000000000E+09 +6.44132502458E-02 -3.69735542328E-01 -1.99833976252E-03 -1.49751956202E-03 -1.90476845823E-03 -1.57283614105E-03 +2.64073741804E-01 -3.85722004451E-01
2.93500000000E+09 +3.29872012999E-02 -3.61952327661E-01 -2.08999547032E-03 -4.29038724059E-04 -2.10891371834E-03 -5.10619844385E-04 +2.25972030294E-01 -3.91584066402E-01
2.94000000000E+09 +1.88794051628E-03 -3.51225728765E-01 -1.44354180526E-03 -1.99847806847E-04 -1.42390942808E-03 -2.93355174069E-04 +1.87025527622E-01 -3.95071505547E-01
2.94500000000E+09 -2.79414329566E-02 -3.38645596354E-01 -1.35539357234E-03 -5.08749208204E-04 -1.35398693815E-03 -5.85946562764E-04 +1.46746946370E-01 -3.95821723544E-01
2.95000000000E+09 -5.76453161416E-02 -3.23374021271E-01 -1.73960881986E-03 -4.92447180247E-04 -1.72991977784E-03 -5.93578245159E-04 +1.07206017483E-01 -3.92964319506E-01
2.95500000000E+09 -8.62204580340E-02 -3.05732735417E-01 -2.11852072975E-03 -3.26014307683E-05 -2.22130816240E-03 -1.63126811619E-04 +6.81411359312E-02 -3.88133078906E-01
2.96000000000E+09 -1.13498982539E-01 -2.85446830332E-01 -2.30985222369E-03 +6.45053284928E-04 -2.42135155971E-03 +6.07810243354E-04 +2.79355694716E-02 -3.80154725908E-01
2.96500000000E+09 -1.39935782820E-01 -2.63773606410E-01 -1.49688648756E-03 +1.43771286147E-03 -1.60965283586E-03 +1.54049593886E-03 -1.13886581016E-02 -3.69961818199E-01
2.97000000000E+09 -1.65291587520E-01 -2.38954385249E-01 -7.93235708818E-04 +1.16418837627E-03 -7.87594342081E-04 +1.21216338518E-03 -5.32837252806E-02 -3.57259986632E-01
2.97500000000E+09 -1.89010136570E-01 -2.12925511456E-01 -9.06052457881E-04 +5.12811820715E-04 -8.06624100581E-04 +4.85173428367E-04 -9.32632877407E-02 -3.40290230425E-01
2.98000000000E+09 -2.10890390822E-01 -1.84899339463E-01 -1.48540648627E-03 +1.00493160919E-03 -1.43545609679E-03 +9.19564674688E-04 -1.32536729928E-01 -3.20994547907E-01
2.98500000000E+09 -2.31475785819E-01 -1.56342408555E-01 -9.48795491492E-04 +1.55851893600E-03 -9.95987469023E-04 +1.53720395865E-03 -1.70081763593E-01 -2.98255030307E-01
2.99000000000E+09 -2.49785930594E-01 -1.26368489671E-01 -2.57439802418E-04 +1.49041439924E-03 -3.18450528735E-04 +1.61664780026E-03 -2.05991107210E-01 -2.72411184791E-01
2.99500000000E+09 -2.65928490781E-01 -9.74454555917E-02 -3.15218234171E-04 +9.09844275315E-04 -2.57245225686E-04 +9.18800372226E-04 -2.39700858416E-01 -2.42484213059E-01
3.00000000000E+09 -2.81893511340E-01 -6.77688983180E-02 -5.25679546284E-04 +1.12677055498E-03 -4.53373034274E-04 +1.14097797141E-03 -2.70022497508E-01 -2.11186793202E-01
3.00500000000E+09 -2.94936374170E-01 -3.79562424481E-02 -5.30604114113E-04 +1.32800851061E-03 -3.99230404881E-04 +1.30641700246E-03 -2.99775308433E-01 -1.78751318579E-01
3.01000000000E+09 -3.06147616607E-01 -7.96879890868E-03 -1.53770552063E-04 +1.62332358833E-03 -1.20104763371E-04 +1.55030810979E-03 -3.26994772878E-01 -1.43452756505E-01
3.01500000000E+09 -3.14664236911E-01 +2.18499589668E-02 +8.42702870582E-04 +1.60175497607E-03 +7.41378568730E-04 +1.62178799361E-03 -3.51431182458E-01 -1.06714780351E-01
3.02000000000E+09 -3.19992502145E-01 +5.19265756639E-02 +7.35974432380E-04 +4.76798597852E-04 +8.18468025214E-04 +4.81100294441E-04 -3.71842593116E-01 -6.84865690912E-02
3.02500000000E+09 -3.22009622450E-01 +8.09595470589E-02 +1.50623425634E-04 +3.88503105742E-04 +1.17936140153E-04 +3.96422487788E-04 -3.89065491090E-01 -2.94445923749E-02
3.03000000000E+09 -3.21421334670E-01 +1.08832970138E-01 -3.04184092132E-04 +6.53428351662E-04 -2.88445894101E-04 +6.87439013849E-04 -4.03038097861E-01 +1.03983300992E-02
3.03500000000E+09 -3.19892520490E-01 +1.35891516951E-01 -1.97306767211E-04 +1.51953267110E-03 -2.49506135542E-04 +1.49309275187E-03 -4.13765223953E-01 +5.02172496821E-02
3.04000000000E+09 -3.16088669349E-01 +1.64154561286E-01 +9.33687774290E-04 +1.25870956446E-03 +9.32110760818E-04 +1.25820260278E-03 -4.22161264086E-01 +8.93154345973E-02
3.04500000000E+09 -3.10062542405E-01 +1.91654117349E-01 +7.51592377074E-04 +8.97732766936E-04 +7.64983711184E-04 +8.49086879413E-04 -4.28670297780E-01 +1.28876767296E-01
3.05000000000E+09 -3.02502221220E-01 +2.19831521503E-01 +8.34691315645E-04 +8.15043898150E-04 +8.75596837170E-04 +8.46037912503E-04 -4.32209082428E-01 +1.68226668596E-01
3.05500000000E+09 -2.92529604224E-01 +2.46847168875E-01 +7.57382809321E-04 +8.25243445914E-04 +7.59765929904E-04 +7.90377913012E-04 -4.33569249435E-01 +2.06814671319E-01
3.06000000000E+09 -2.81656821032E-01 +2.72783375940E-01 +1.12778130238E-03 +7.23985377750E-04 +1.17322810021E-03 +7.06143398096E-04 -4.32190799965E-01 +2.45514036841E-01
3.06500000000E+09 -2.70640345338E-01 +2.98197296837E-01 +1.18657469287E-03 +3.26224403421E-04 +1.12606809327E-03 +3.47850749090E-04 -4.28073523769E-01 +2.83191179998E-01
3.07000000000E+09 -2.57971248482E-01 +3.22463805406E-01 +9.82384503467E-04 +2.09155730257E-04 +9.55390990194E-04 +2.93870538614E-04 -4.21607435107E-01 +3.19305299371E-01
