# Hz S RI R 50
! CMT, C1220, 16058040, 17.2.0/1
! Date: 15/08/2018 10:22:45
! Data: Format (Calibration Info)
! Freq                      S11: Re/Im (F2)                       S21: Re/Im (F2)                       S12: Re/Im (F2)                       S22: Re/Im (F2)            
2.50000000000E+09 +5.81325830707E-01 +6.35547741382E-01 +2.72555504805E-04 -3.07613435227E-05 +3.04111487890E-04 -7.38939848919E-05 +5.71963835225E-01 +7.18865596401E-01
2.50500000000E+09 +5.88380016776E-01 +6.27791863187E-01 +2.80771303486E-04 -1.25784821657E-04 +3.45389343866E-04 -3.98701175161E-05 +5.77946918983E-01 +7.12877247649E-01
2.51000000000E+09 +5.95788664424E-01 +6.19771249815E-01 +2.72122644466E-04 -1.48340841186E-04 +2.49805140338E-04 -1.43947487606E-04 +5.83652835722E-01 +7.07234584516E-01
2.51500000000E+09 +6.02871241671E-01 +6.11862897462E-01 +2.17372014836E-04 -1.33309708834E-04 +2.27689889020E-04 -1.37590471032E-04 +5.88952949135E-01 +7.01325986599E-01
2.52000000000E+09 +6.09246841491E-01 +6.03598024285E-01 +2.80345420436E-04 -1.59167415289E-04 +3.07527257765E-04 -1.14542444604E-04 +5.94040127729E-01 +6.94932992778E-01
2.52500000000E+09 +6.14729892103E-01 +5.95930065874E-01 +1.94829887818E-04 -2.96555930142E-04 +2.15733623538E-04 -2.35550769558E-04 +5.99583597659E-01 +6.88102408213E-01
2.53000000000E+09 +6.19617961245E-01 +5.88796802841E-01 +1.76248685641E-04 -2.60443948538E-04 +1.50157290663E-04 -3.32523771745E-04 +6.05513321715E-01 +6.80667118391E-01
2.53500000000E+09 +6.23911933254E-01 +5.82229486600E-01 +9.94097916455E-05 -3.12552003497E-04 +1.03574003308E-04 -2.64325338862E-04 +6.11039738261E-01 +6.73466144137E-01
2.54000000000E+09 +6.27883258736E-01 +5.75917316703E-01 +9.98096385380E-05 -2.66889940676E-04 +5.94961540321E-05 -2.29497092290E-04 +6.16742141140E-01 +6.66846340045E-01
2.54500000000E+09 +6.31981464680E-01 +5.70064051290E-01 +1.34595126466E-05 -2.28808863148E-04 +5.69619058033E-05 -2.52699730156E-04 +6.22028208247E-01 +6.60297410124E-01
2.55000000000E+09 +6.36581171742E-01 +5.64013731904E-01 +1.07443424261E-04 -2.34576257287E-04 +9.33556702438E-05 -2.60322777162E-04 +6.26648960787E-01 +6.54191702203E-01
2.55500000000E+09 +6.41675516543E-01 +5.57415686824E-01 +6.89560636186E-05 -3.39402605969E-04 +8.10893635337E-05 -4.27380211903E-04 +6.31220595731E-01 +6.47997837064E-01
2.56000000000E+09 +6.47819421328E-01 +5.50562198323E-01 -3.81722288475E-05 -3.72896941779E-04 -6.59860752715E-05 -3.74924993991E-04 +6.36048442175E-01 +6.41253805975E-01
2.56500000000E+09 +6.54143773524E-01 +5.42488240134E-01 -1.18500117241E-04 -3.36382687989E-04 -1.51459350292E-04 -3.64688423940E-04 +6.41450687457E-01 +6.34088806342E-01
2.57000000000E+09 +6.60001230270E-01 +5.34242123128E-01 -1.75520838240E-04 -3.50984583927E-04 -2.11790023364E-04 -3.15200950579E-04 +6.46750098284E-01 +6.26155921279E-01
2.57500000000E+09 +6.65908685909E-01 +5.25861406765E-01 -2.61243508141E-04 -2.59685707221E-04 -2.95754669154E-04 -1.88042592875E-04 +6.52136235878E-01 +6.18668427409E-01
2.58000000000E+09 +6.70892289649E-01 +5.17358518659E-01 -2.37013989293E-04 -1.57889993308E-04 -1.73194057088E-04 -1.34630451044E-04 +6.57387740190E-01 +6.11419990581E-01
2.58500000000E+09 +6.75370221303E-01 +5.08894769504E-01 -3.08377784670E-04 -1.59512311873E-04 -2.65250911017E-04 -1.58513911484E-04 +6.62302086755E-01 +6.04041984441E-01
2.59000000000E+09 +6.79290302889E-01 +5.00622885126E-01 -3.32161883811E-04 -5.49491797862E-05 -2.94965279137E-04 -7.88778472681E-05 +6.67189111951E-01 +5.96477119106E-01
2.59500000000E+09 +6.82987084214E-01 +4.92576989860E-01 -2.81093374830E-04 +2.19624015541E-05 -2.43528111731E-04 -6.53403987221E-05 +6.72280974489E-01 +5.88569702273E-01
2.60000000000E+09 +6.86454871982E-01 +4.84219584956E-01 -2.38887500782E-04 +5.19756087814E-05 -2.56455934848E-04 +1.21367803141E-04 +6.77405521258E-01 +5.80127134078E-01
2.60500000000E+09 +6.90311779121E-01 +4.74955817357E-01 -1.93762606605E-04 +9.04225418650E-05 -2.04120976411E-04 +2.10673793709E-05 +6.82932273687E-01 +5.71193384958E-01
2.61000000000E+09 +6.94516761663E-01 +4.64713786546E-01 -1.12378091247E-04 +8.60378031400E-06 -1.07270844829E-04 +4.04321202647E-05 +6.88039703190E-01 +5.62252593722E-01
2.61500000000E+09 +6.99216572324E-01 +4.53389251195E-01 -1.56448737532E-04 -2.17204772234E-06 -2.13319454409E-04 +2.86827439750E-05 +6.92773431119E-01 +5.53579241701E-01
2.62000000000E+09 +7.03706093440E-01 +4.40800756197E-01 -1.74779564767E-04 +1.35241908830E-04 -2.06978709164E-04 +1.57717249634E-04 +6.97354978220E-01 +5.44605945990E-01
2.62500000000E+09 +7.08328632004E-01 +4.27366146503E-01 -5.85315783401E-05 +2.00062235193E-04 -6.12104442357E-05 +1.84566675756E-04 +7.01860941852E-01 +5.35727291801E-01
2.63000000000E+09 +7.12483031047E-01 +4.13627103047E-01 +2.95530960101E-05 +6.32888295047E-05 +2.11852846540E-05 +5.59477434766E-05 +7.06338656859E-01 +5.26632656669E-01
2.63500000000E+09 +7.15972687694E-01 +4.00324711006E-01 -5.06949590845E-05 +8.03859165152E-05 -3.68463886890E-05 +2.98986744748E-05 +7.10918393094E-01 +5.17634177004E-01
2.64000000000E+09 +7.19197778654E-01 +3.87501889080E-01 +7.83463634509E-06 +8.60803100454E-05 -9.17715152956E-06 +1.18565602294E-04 +7.15485969911E-01 +5.07758902988E-01
2.64500000000E+09 +7.22202198010E-01 +3.75788298182E-01 +1.42605801603E-04 +7.17945338599E-05 +9.55542817546E-05 +9.25895296535E-05 +7.19867983117E-01 +4.98043275308E-01
2.65000000000E+09 +7.24843857775E-01 +3.64988729373E-01 +8.58524813707E-05 -3.37439806256E-05 +1.38691000729E-04 -4.15772522605E-05 +7.24002160553E-01 +4.88002473305E-01
2.65500000000E+09 +7.27743133210E-01 +3.54438336013E-01 -4.07386429081E-06 -2.03558774809E-04 -1.34582134142E-05 -1.92719306270E-04 +7.27749492848E-01 +4.77364661000E-01
2.66000000000E+09 +7.30820681277E-01 +3.43878571824E-01 -1.34155339391E-04 -8.63792686700E-05 -1.53125143064E-04 -8.69888711907E-05 +7.31432053751E-01 +4.66459340185E-01
2.66500000000E+09 +7.33820592069E-01 +3.33010918943E-01 -1.61672701007E-04 -5.54958825297E-05 -1.33945545880E-04 -6.99083715549E-05 +7.35701515336E-01 +4.55470850174E-01
2.67000000000E+09 +7.36685124734E-01 +3.20950267887E-01 -1.61421336295E-04 +2.34443255886E-05 -1.08407049820E-04 +2.27144181852E-05 +7.39904434219E-01 +4.44476798086E-01
2.67500000000E+09 +7.38911006206E-01 +3.07627511602E-01 -6.63378921830E-05 +8.58605534933E-06 -5.77146064771E-06 +1.64240782835E-05 +7.43859900618E-01 +4.33397420018E-01
2.68000000000E+09 +7.40098243530E-01 +2.93421292744E-01 -1.18038064275E-04 -5.73239683972E-05 -1.37541725762E-04 -7.62481926303E-05 +7.47213685410E-01 +4.22414518802E-01
2.68500000000E+09 +7.40592593877E-01 +2.79582552215E-01 -2.24217320503E-04 +9.88928339927E-06 -2.48884123268E-04 +2.40164309034E-07 +7.50154107857E-01 +4.11252806517E-01
2.69000000000E+09 +7.40914596895E-01 +2.65327204774E-01 -1.08155615306E-04 +1.98325069680E-04 -1.67799865083E-04 +1.68840795802E-04 +7.52806130416E-01 +3.99583581862E-01
2.69500000000E+09 +7.41013248540E-01 +2.51262415981E-01 +8.20500081190E-06 +1.59223215256E-04 +3.45703654452E-05 +1.90738765819E-04 +7.55304435119E-01 +3.87452088573E-01
2.70000000000E+09 +7.41084696668E-01 +2.37486375181E-01 +3.13865727040E-05 -1.27157968609E-05 -1.14583845301E-05 +1.23565882806E-05 +7.58394071371E-01 +3.74471091535E-01
2.70500000000E+09 +7.41244331338E-01 +2.24308126021E-01 -7.97835625636E-05 +3.07841228710E-05 -1.43935594772E-04 +1.02857732670E-04 +7.61166814816E-01 +3.61625632356E-01
2.71000000000E+09 +7.41499842591E-01 +2.11241233967E-01 -9.55488676826E-06 +6.07843258362E-05 -6.90390226462E-05 +1.12020304973E-04 +7.64251738818E-01 +3.48688033677E-01
2.71500000000E+09 +7.42325919804E-01 +1.97939428698E-01 +1.35906957239E-05 +1.42406975218E-04 +4.35199686500E-05 +1.74163304628E-04 +7.66569548639E-01 +3.36000506079E-01
2.72000000000E+09 +7.43014704841E-01 +1.83893871406E-01 +1.36753774848E-04 +7.21538758323E-06 +1.38107813662E-04 +6.71076204048E-05 +7.68409497823E-01 +3.23696309412E-01
2.72500000000E+09 +7.43011157366E-01 +1.68756073988E-01 -1.59234284072E-05 -9.06632998547E-05 -8.54438972851E-06 -9.70626147796E-05 +7.69820291168E-01 +3.10314276549E-01
2.73000000000E+09 +7.41929407767E-01 +1.52907628753E-01 -1.01914956227E-04 +7.91234437936E-05 -8.96942365053E-05 +8.54669721231E-05 +7.70999403957E-01 +2.96334511325E-01
2.73500000000E+09 +7.39276978605E-01 +1.36084854806E-01 +7.92617723030E-05 -2.13667340123E-05 +9.99688964910E-05 -9.66001549447E-06 +7.71845774040E-01 +2.81250093985E-01
2.74000000000E+09 +7.35606421064E-01 +1.19481887103E-01 +1.83869903796E-05 -9.31142010977E-05 +5.67990704027E-05 -9.66731638922E-05 +7.72782638424E-01 +2.66381596630E-01
2.74500000000E+09 +7.30877442225E-01 +1.02695335847E-01 -4.49360146110E-05 -1.71652418071E-04 -8.95645559316E-06 -1.55397706277E-04 +7.73749332886E-01 +2.51652443474E-01
2.75000000000E+09 +7.25422720744E-01 +8.64212550580E-02 -1.56862119573E-04 -1.43681578428E-04 -1.91847211719E-04 -1.90327931401E-04 +7.74568776372E-01 +2.37026638660E-01
2.75500000000E+09 +7.20073322425E-01 +7.00031589301E-02 -2.37486493571E-04 -1.09907398214E-04 -2.28633546131E-04 -1.35717743935E-04 +7.74535845922E-01 +2.21856062039E-01
2.76000000000E+09 +7.14857459014E-01 +5.40241992409E-02 -3.56629745335E-04 -5.53601667846E-05 -3.91943166979E-04 -7.22763223551E-05 +7.73465347846E-01 +2.06931111725E-01
2.76500000000E+09 +7.10195326336E-01 +3.77602651309E-02 -3.42175417051E-04 +5.55096962047E-05 -3.84609519180E-04 +5.93499836046E-05 +7.72196287659E-01 +1.91478205774E-01
2.77000000000E+09 +7.06155258043E-01 +2.07236791780E-02 -2.69143904084E-04 +1.54644264466E-04 -2.92194904768E-04 +1.44114445009E-04 +7.71483514263E-01 +1.75128181780E-01
2.77500000000E+09 +7.02252005660E-01 +2.66310611987E-03 -3.17027300172E-04 +1.28550033859E-04 -2.90781225002E-04 +1.51729679312E-04 +7.70377219514E-01 +1.57800401720E-01
2.78000000000E+09 +6.98530269978E-01 -1.63377754938E-02 -2.69891503086E-04 +2.03795431367E-04 -2.27484392935E-04 +2.16802534046E-04 +7.68863453361E-01 +1.40347995827E-01
2.78500000000E+09 +6.93594413084E-01 -3.64880271916E-02 -3.86592379317E-04 +2.32624609749E-04 -3.14011537042E-04 +1.98318513424E-04 +7.66825023490E-01 +1.23293483867E-01
2.79000000000E+09 +6.87478826872E-01 -5.71343181451E-02 -3.96163733470E-04 +4.01602436487E-04 -3.50285521516E-04 +4.67215428156E-04 +7.64652844736E-01 +1.06732850872E-01
2.79500000000E+09 +6.80128829903E-01 -7.69700289839E-02 -2.02564861489E-04 +5.24397050021E-04 -1.32211619388E-04 +5.81681311572E-04 +7.61894625029E-01 +8.87904924937E-02
2.80000000000E+09 +6.71300651936E-01 -9.64361949733E-02 -1.40507051689E-06 +5.14228503918E-04 +3.41457188456E-06 +4.94050951499E-04 +7.57688858339E-01 +6.99478709315E-02
2.80500000000E+09 +6.61591697295E-01 -1.14472378110E-01 -6.17505375441E-05 +4.04067345253E-04 -7.68250669975E-05 +3.58433455514E-04 +7.52707615439E-01 +5.08533593763E-02
2.81000000000E+09 +6.50796256389E-01 -1.31576391514E-01 -7.46751368904E-05 +5.68962791663E-04 -8.11300313982E-05 +5.80445395681E-04 +7.47186243988E-01 +3.07286358278E-02
2.81500000000E+09 +6.39513695469E-01 -1.47940945860E-01 +1.28534685982E-04 +6.02186395434E-04 +1.68588383113E-04 +6.17975457948E-04 +7.40850810770E-01 +1.05174147131E-02
2.82000000000E+09 +6.26996716275E-01 -1.64149182131E-01 +2.71751823868E-04 +4.46805980304E-04 +2.66869536722E-04 +4.05784139748E-04 +7.33862470365E-01 -1.02062176851E-02
2.82500000000E+09 +6.13509298696E-01 -1.79810162210E-01 +1.46807842597E-04 +4.63959251905E-04 +1.55040013863E-04 +4.19176244844E-04 +7.25298652527E-01 -3.12913761468E-02
2.83000000000E+09 +5.99235296146E-01 -1.96529240464E-01 +2.42529694638E-04 +6.24857553535E-04 +1.83248349903E-04 +6.00228151413E-04 +7.15279929918E-01 -5.17835905272E-02
2.83500000000E+09 +5.83090629079E-01 -2.14567888483E-01 +4.61445556200E-04 +7.48235015087E-04 +3.89936501721E-04 +7.49840180268E-04 +7.04567417457E-01 -7.19205055124E-02
2.84000000000E+09 +5.64051870220E-01 -2.32970830325E-01 +8.13101724527E-04 +4.54726178613E-04 +7.69918512963E-04 +4.54771056476E-04 +6.93031686680E-01 -9.24971403615E-02
2.84500000000E+09 +5.42897413266E-01 -2.51086492152E-01 +6.68889303042E-04 +1.99114185967E-04 +6.28023505848E-04 +2.25049161622E-04 +6.80232283930E-01 -1.13254885005E-01
2.85000000000E+09 +5.20370228919E-01 -2.68484603950E-01 +5.99050332378E-04 +1.84205454378E-04 +6.07892366489E-04 +2.06888489828E-04 +6.65975473572E-01 -1.33899092477E-01
2.85500000000E+09 +4.96692555249E-01 -2.85321596119E-01 +4.50640561548E-04 +3.08764114242E-04 +4.61996239778E-04 +3.15038825245E-04 +6.50888642870E-01 -1.53976523128E-01
2.86000000000E+09 +4.72346950132E-01 -3.01318911471E-01 +9.65517007451E-04 +3.21838677303E-04 +8.66800363373E-04 +3.39622057742E-04 +6.34667103928E-01 -1.74304960801E-01
2.86500000000E+09 +4.47613959992E-01 -3.16044817034E-01 +1.03213925624E-03 -1.27386279499E-04 +1.05432305440E-03 -1.36555359782E-04 +6.17191797199E-01 -1.94343063664E-01
2.87000000000E+09 +4.22655506197E-01 -3.29467625742E-01 +7.78555153382E-04 -3.34665874793E-04 +8.17103959392E-04 -3.27694539471E-04 +5.98337449561E-01 -2.14363515233E-01
2.87500000000E+09 +3.98047648436E-01 -3.41416940365E-01 +5.83663185979E-04 -2.58472086462E-04 +6.00852761972E-04 -2.70054023053E-04 +5.77875926227E-01 -2.33531553694E-01
2.88000000000E+09 +3.73352503937E-01 -3.52984266805E-01 +7.31414010865E-04 -1.96892687802E-04 +7.03508818371E-04 -1.91799806840E-04 +5.56757065086E-01 -2.51872744273E-01
2.88500000000E+09 +3.47497854899E-01 -3.63614810374E-01 +9.26062516495E-04 -4.01037084169E-04 +8.86012609590E-04 -3.93736468633E-04 +5.34213920325E-01 -2.70254371409E-01
2.89000000000E+09 +3.20400598724E-01 -3.72899233667E-01 +7.26846565519E-04 -7.61919304875E-04 +6.57949695050E-04 -7.17983685558E-04 +5.09967225392E-01 -2.87609578286E-01
2.89500000000E+09 +2.91970915411E-01 -3.80672819658E-01 +5.07078766087E-04 -8.05522275738E-04 +5.36774940010E-04 -7.71067536985E-04 +4.84785771678E-01 -3.05915108193E-01
2.90000000000E+09 +2.61958455632E-01 -3.87082740704E-01 +1.86179466255E-04 -6.52897682959E-04 +1.64026201916E-04 -6.36442674235E-04 +4.55942499453E-01 -3.23643545219E-01
2.90500000000E+09 +2.29951204024E-01 -3.91073083890E-01 +5.19860725981E-04 -5.86987467848E-04 +4.82715479209E-04 -5.30335625778E-04 +4.26245111238E-01 -3.38845885293E-01
2.91000000000E+09 +1.97788376722E-01 -3.92194833694E-01 +3.60512158061E-04 -1.04260058535E-03 +3.91569010590E-04 -1.05754791631E-03 +3.95875944765E-01 -3.53526098254E-01
2.91500000000E+09 +1.65715839613E-01 -3.91901148818E-01 +6.26301644162E-05 -7.26531454785E-04 -3.94755535898E-06 -7.60434770988E-04 +3.63458396747E-01 -3.66095902663E-01
2.92000000000E+09 +1.33116643942E-01 -3.89999330572E-01 +2.14493674745E-04 -7.95525548892E-04 +1.75075832695E-04 -7.91452594648E-04 +3.29658047158E-01 -3.76152363352E-01
2.92500000000E+09 +1.00437728819E-01 -3.85964933487E-01 +7.91497864103E-05 -1.20978694997E-03 +1.36391755635E-04 -1.14469264632E-03 +2.94180759064E-01 -3.83636349327E-01
2.93000000000E+09 +6.85904401648E-02 -3.80000172672E-01 -5.94529322323E-04 -1.25309836672E-03 -4.99255904520E-04 -1.27349768826E-03 +2.58112344866E-01 -3.90327272675E-01
2.93500000000E+09 +3.67342034504E-02 -3.73101475020E-01 -8.43213408981E-04 -5.59076058352E-04 -8.54766031812E-04 -5.69771054741E-04 +2.19462686590E-01 -3.95748648927E-01
2.94000000000E+09 +4.68966506476E-03 -3.63559637815E-01 -3.67973150575E-04 -2.41954312665E-04 -3.30353890438E-04 -1.94539740146E-04 +1.79469633164E-01 -3.98619040100E-01
2.94500000000E+09 -2.65456227215E-02 -3.51873047163E-01 -7.06848467920E-05 -6.70737921489E-04 -1.64428604888E-05 -6.33681993790E-04 +1.38369596374E-01 -3.98300702569E-01
2.95000000000E+09 -5.81424993931E-02 -3.37737964276E-01 -4.80414616893E-04 -1.04844506352E-03 -4.36700132827E-04 -1.02425947048E-03 +9.87967745863E-02 -3.94033162885E-01
2.95500000000E+09 -8.89622251988E-02 -3.19632945966E-01 -8.52505030389E-04 -8.17624610955E-04 -8.39349956631E-04 -9.09894977851E-04 +5.92523537630E-02 -3.88275454409E-01
2.96000000000E+09 -1.17843568082E-01 -2.98965745607E-01 -1.18639228184E-03 -5.34297548294E-04 -1.19183951099E-03 -5.52043002597E-04 +1.90409145877E-02 -3.78432867888E-01
2.96500000000E+09 -1.45400007288E-01 -2.76472822179E-01 -1.05192489321E-03 +7.71345450781E-05 -1.10604790473E-03 +5.96827435297E-05 -1.96584676776E-02 -3.66866408093E-01
2.97000000000E+09 -1.72196000949E-01 -2.51645480591E-01 -5.21739919075E-04 -5.06342574098E-05 -4.75739361603E-04 -2.46093345431E-05 -6.09010054067E-02 -3.53505347101E-01
2.97500000000E+09 -1.97121569620E-01 -2.24460885162E-01 -6.65413563022E-04 -3.99188684501E-04 -6.90389414456E-04 -4.43807951998E-04 -1.00321427473E-01 -3.35457639356E-01
2.98000000000E+09 -2.20291761842E-01 -1.95673272374E-01 -1.16405481842E-03 -1.92245183830E-04 -1.14297286484E-03 -2.16075929481E-04 -1.38984733781E-01 -3.15534432619E-01
2.98500000000E+09 -2.41315908640E-01 -1.66203711868E-01 -8.93864946410E-04 +2.96346229693E-04 -8.79566986731E-04 +1.59468066448E-04 -1.75446597460E-01 -2.92300973996E-01
2.99000000000E+09 -2.61187105325E-01 -1.36073612913E-01 -8.24807683002E-04 +7.12566570989E-05 -9.12664215356E-04 +3.15666491061E-06 -2.10722277917E-01 -2.66316879415E-01
2.99500000000E+09 -2.79029066240E-01 -1.05220311960E-01 -1.10322561231E-03 +2.87923253774E-04 -1.10476806070E-03 +3.24440145111E-04 -2.43916805625E-01 -2.35423894052E-01
3.00000000000E+09 -2.95012616798E-01 -7.37777960119E-02 -8.90926780733E-04 +6.41516479603E-04 -9.50464089901E-04 +6.98359975028E-04 -2.73005041665E-01 -2.04164708953E-01
3.00500000000E+09 -3.08266615024E-01 -4.25267685624E-02 -9.00120894511E-04 +6.88186131429E-04 -8.34511458010E-04 +6.93076076618E-04 -3.02696735498E-01 -1.70943781957E-01
3.01000000000E+09 -3.19206631540E-01 -1.16489496861E-02 -6.16000912617E-04 +9.85915428695E-04 -6.14083501882E-04 +9.02147512050E-04 -3.28504208578E-01 -1.35272450690E-01
3.01500000000E+09 -3.27909442934E-01 +1.89425406930E-02 -8.86993301252E-05 +1.02289165871E-03 -1.44827573421E-04 +9.65219751071E-04 -3.51861170620E-01 -9.87256596523E-02
3.02000000000E+09 -3.33701402410E-01 +5.02472556559E-02 -8.56215481758E-05 +6.24863381908E-04 -4.53946395494E-05 +6.11657904820E-04 -3.71590522816E-01 -6.06940492238E-02
3.02500000000E+09 -3.35756119425E-01 +8.03971881516E-02 +2.08259285333E-05 +5.24051380030E-04 -1.33084390092E-05 +5.48287824352E-04 -3.87914937479E-01 -2.17066382355E-02
3.03000000000E+09 -3.35781355515E-01 +1.09946764342E-01 -2.32570943113E-04 +3.59120585430E-04 -1.99504582979E-04 +4.72925667272E-04 -4.00751928753E-01 +1.78436967947E-02
3.03500000000E+09 -3.33081879884E-01 +1.39119028386E-01 -2.94055404857E-04 +6.84130910380E-04 -3.55705444032E-04 +7.52096235698E-04 -4.10974785867E-01 +5.71916903334E-02
3.04000000000E+09 -3.28408329063E-01 +1.67921944531E-01 +1.20395044444E-04 +4.68768379049E-04 +8.02670647379E-05 +4.90305574874E-04 -4.18848128563E-01 +9.69516605888E-02
3.04500000000E+09 -3.21611112610E-01 +1.96721544462E-01 -2.96412330052E-04 +7.22575628804E-04 -3.26898886632E-04 +7.43906398285E-04 -4.23443242855E-01 +1.36051199946E-01
3.05000000000E+09 -3.13108185853E-01 +2.25163753599E-01 +2.05725059135E-04 +9.44925699565E-04 +3.27137189159E-04 +9.71999244929E-04 -4.25927451649E-01 +1.73912592763E-01
3.05500000000E+09 -3.02467517943E-01 +2.52690317726E-01 +3.11966220951E-04 +6.78818709177E-04 +3.63443146498E-04 +7.01385105480E-04 -4.26687815077E-01 +2.11112694474E-01
3.06000000000E+09 -2.91489484933E-01 +2.79275404267E-01 +5.25284025011E-04 +3.55756387051E-04 +5.36400952903E-04 +3.40280604804E-04 -4.25444277282E-01 +2.48618349638E-01
3.06500000000E+09 -2.79271917725E-01 +3.05694673101E-01 +1.94588034348E-04 +2.12187701422E-04 +2.20305055110E-04 +2.20689588175E-04 -4.21377216765E-01 +2.85319385574E-01
3.07000000000E+09 -2.65784325115E-01 +3.30353475248E-01 +1.44529431566E-04 +5.75584675069E-04 +1.14034556507E-04 +5.51118582554E-04 -4.14979494928E-01 +3.20635457655E-01
