# Hz S RI R 50
! CMT, C1220, 16058040, 17.2.0/1
! Date: 15/08/2018 10:23:27
! Data: Format (Calibration Info)
! Freq                      S11: Re/Im (F2)                       S21: Re/Im (F2)                       S12: Re/Im (F2)                       S22: Re/Im (F2)            
2.50000000000E+09 +5.81220363145E-01 +6.37876632909E-01 +3.20386816325E-04 -5.68083192256E-06 +3.65946551340E-04 -5.87705442819E-05 +5.71433654351E-01 +7.18661134748E-01
2.50500000000E+09 +5.88199087553E-01 +6.30251221494E-01 +3.60765331785E-04 -4.68870302838E-05 +3.46045212730E-04 -7.38239480777E-05 +5.77494669399E-01 +7.12810177802E-01
2.51000000000E+09 +5.95671997223E-01 +6.22200547364E-01 +3.40471797949E-04 -9.43369777104E-05 +3.06448560352E-04 -7.44831358266E-05 +5.83226196790E-01 +7.07068487497E-01
2.51500000000E+09 +6.02758390447E-01 +6.14246517226E-01 +3.61937748386E-04 -1.11853650278E-04 +3.84042195590E-04 -1.17616730363E-04 +5.88566671592E-01 +7.01195700493E-01
2.52000000000E+09 +6.09359082736E-01 +6.06124550821E-01 +4.01039756471E-04 -2.64341163051E-04 +3.84651362017E-04 -2.38846932743E-04 +5.93516879471E-01 +6.94721882213E-01
2.52500000000E+09 +6.15088180811E-01 +5.98549756209E-01 +2.68005786212E-04 -3.26174380245E-04 +2.99808879950E-04 -3.25515003217E-04 +5.99220757629E-01 +6.87914541237E-01
2.53000000000E+09 +6.20039379418E-01 +5.91348726707E-01 +2.58295610469E-04 -3.35930963386E-04 +2.56099815038E-04 -3.45100634821E-04 +6.04967005884E-01 +6.80635447113E-01
2.53500000000E+09 +6.24479794983E-01 +5.84825737701E-01 +1.15554681269E-04 -3.22670649782E-04 +1.39740307665E-04 -3.62421959838E-04 +6.10633071130E-01 +6.73488324083E-01
2.54000000000E+09 +6.28585369045E-01 +5.78641380409E-01 +7.92844595426E-05 -2.63600240162E-04 +1.02354294546E-04 -2.38825333629E-04 +6.16179920795E-01 +6.66849565181E-01
2.54500000000E+09 +6.32859453334E-01 +5.72728031985E-01 +8.04696915932E-05 -2.18266446547E-04 +9.40886880207E-05 -2.36510039673E-04 +6.21349436855E-01 +6.60235714389E-01
2.55000000000E+09 +6.37680577928E-01 +5.66651612834E-01 +1.71571082719E-04 -2.33924937326E-04 +1.62996697759E-04 -2.53390248215E-04 +6.25849710925E-01 +6.54298533587E-01
2.55500000000E+09 +6.43049020751E-01 +5.59966801963E-01 +1.45631331038E-04 -3.31758709043E-04 +1.99790912378E-04 -3.72025630490E-04 +6.30418967121E-01 +6.48165785546E-01
2.56000000000E+09 +6.49154113459E-01 +5.53212522203E-01 +1.06614283425E-04 -3.41199754062E-04 +6.65378024290E-05 -3.95955612588E-04 +6.35208231640E-01 +6.41593122840E-01
2.56500000000E+09 +6.55472640947E-01 +5.45109353459E-01 +3.22981956031E-05 -3.70827362566E-04 -1.34360579943E-05 -4.13984007484E-04 +6.40509093410E-01 +6.34568322104E-01
2.57000000000E+09 +6.61455607591E-01 +5.37000390502E-01 -2.20273024493E-05 -4.00793632983E-04 -1.07996337473E-04 -4.07721496485E-04 +6.46032292690E-01 +6.27113482385E-01
2.57500000000E+09 +6.67498704279E-01 +5.28584357669E-01 -1.77720286199E-04 -3.09153716438E-04 -1.94715183997E-04 -2.76942342429E-04 +6.51549112169E-01 +6.19710000737E-01
2.58000000000E+09 +6.72800000289E-01 +5.20060651808E-01 -1.22193139676E-04 -2.44274602718E-04 -1.22804975405E-04 -1.70703638649E-04 +6.56831902734E-01 +6.12588763825E-01
2.58500000000E+09 +6.77368098726E-01 +5.11541700370E-01 -1.59235308140E-04 -2.68495496405E-04 -1.16041661817E-04 -2.00339819754E-04 +6.62160928852E-01 +6.05095337359E-01
2.59000000000E+09 +6.81346173235E-01 +5.03284092209E-01 -1.32153604077E-04 -2.43760116071E-04 -8.85001455199E-05 -2.25669472809E-04 +6.66994445402E-01 +5.97628108269E-01
2.59500000000E+09 +6.85094704987E-01 +4.95171490472E-01 -1.08390699692E-04 -2.35963847671E-04 -1.26656933232E-04 -2.80192267602E-04 +6.72212557586E-01 +5.89715714518E-01
2.60000000000E+09 +6.88743643320E-01 +4.86685055906E-01 -1.69375412226E-04 -2.22777566291E-04 -1.64533025536E-04 -2.30562574232E-04 +6.77597727471E-01 +5.81203886196E-01
2.60500000000E+09 +6.92890644531E-01 +4.77378239246E-01 -1.69054202804E-04 -2.68132489472E-04 -1.69150560439E-04 -2.50174347978E-04 +6.83243373930E-01 +5.72361653809E-01
2.61000000000E+09 +6.97139974589E-01 +4.67117546088E-01 -2.14486234393E-04 -2.78990449890E-04 -1.84606098264E-04 -2.50180987079E-04 +6.88391151653E-01 +5.63311305632E-01
2.61500000000E+09 +7.01719851663E-01 +4.55671948762E-01 -3.29503326030E-04 -2.39861250812E-04 -2.98743938866E-04 -2.53022476179E-04 +6.93163611333E-01 +5.54582077980E-01
2.62000000000E+09 +7.06416453418E-01 +4.43167839119E-01 -3.36481007783E-04 -8.57393067730E-05 -4.02405966913E-04 -1.28975295181E-04 +6.97807081691E-01 +5.45613951728E-01
2.62500000000E+09 +7.11268467080E-01 +4.29684344090E-01 -2.68042984110E-04 -3.44834228537E-05 -2.83580622738E-04 -3.61263265072E-05 +7.02394459591E-01 +5.36771187560E-01
2.63000000000E+09 +7.15646980654E-01 +4.15762052329E-01 -2.41205847202E-04 -5.23322188898E-05 -2.56945295499E-04 -1.97488291806E-05 +7.06865752161E-01 +5.27610244063E-01
2.63500000000E+09 +7.19267094671E-01 +4.02128074648E-01 -2.35658779307E-04 +1.02988124926E-05 -2.16405055179E-04 +1.17998822525E-06 +7.11404114479E-01 +5.18456328352E-01
2.64000000000E+09 +7.22747281691E-01 +3.89072398022E-01 -2.56719127315E-04 +1.19260842817E-05 -2.06071658864E-04 -1.86576008937E-05 +7.16054968637E-01 +5.08875498501E-01
2.64500000000E+09 +7.25740803143E-01 +3.77146798520E-01 -2.11671140739E-04 +9.26021270775E-06 -2.22296734912E-04 +9.68930663511E-06 +7.20555438526E-01 +4.99319436723E-01
2.65000000000E+09 +7.28414843274E-01 +3.66419736968E-01 -2.02754053685E-04 -1.48753023326E-05 -1.77673110826E-04 -5.70682325382E-05 +7.24904408491E-01 +4.89230155547E-01
2.65500000000E+09 +7.31506732242E-01 +3.55692309472E-01 -2.41067756937E-04 -3.90506700506E-05 -2.47082104990E-04 -6.68747074531E-05 +7.28813473349E-01 +4.78764388388E-01
2.66000000000E+09 +7.34729632683E-01 +3.44846297382E-01 -2.17116732809E-04 +1.00015492463E-04 -2.94667254691E-04 +1.44406163971E-04 +7.32834582784E-01 +4.67626937525E-01
2.66500000000E+09 +7.37828340357E-01 +3.33847282959E-01 -1.30382940671E-04 +9.06118630249E-05 -1.42931034787E-04 +1.20599529904E-04 +7.37193109171E-01 +4.56372769901E-01
2.67000000000E+09 +7.40573449534E-01 +3.21503649072E-01 -7.06634381748E-05 +7.49546681441E-05 -7.77201554355E-05 +7.45255040065E-05 +7.41555151855E-01 +4.45402316338E-01
2.67500000000E+09 +7.42792297863E-01 +3.08202782642E-01 -8.37578359944E-05 -1.00852279289E-04 -8.35192633233E-05 -1.45425265901E-04 +7.45681186562E-01 +4.34120060009E-01
2.68000000000E+09 +7.44098875423E-01 +2.94065561104E-01 -3.29314363098E-04 -9.29556759396E-05 -2.91707870674E-04 -1.67544186410E-04 +7.49394650221E-01 +4.22728320617E-01
2.68500000000E+09 +7.44873094974E-01 +2.79831340909E-01 -3.93436195399E-04 +9.56589974766E-05 -4.35812885214E-04 +4.38537318071E-05 +7.52252598228E-01 +4.11340292487E-01
2.69000000000E+09 +7.45283257756E-01 +2.65382448438E-01 -2.54186512435E-04 +2.13072431764E-04 -2.36829011030E-04 +2.16896070852E-04 +7.54869406960E-01 +3.99617875385E-01
2.69500000000E+09 +7.45550889203E-01 +2.51361528333E-01 -1.72431125975E-04 +1.05825832139E-04 -1.84771055635E-04 +9.86095972390E-05 +7.57437924624E-01 +3.87142892537E-01
2.70000000000E+09 +7.45878515069E-01 +2.37202015913E-01 -2.07177524518E-04 +1.37639872848E-04 -2.52814229423E-04 +7.47563737608E-05 +7.60256331799E-01 +3.74052079548E-01
2.70500000000E+09 +7.45798050266E-01 +2.23582842478E-01 -2.34039743048E-04 +1.75323740024E-04 -2.32968231529E-04 +1.53882707511E-04 +7.62915601563E-01 +3.60988937030E-01
2.71000000000E+09 +7.46334290215E-01 +2.10322809970E-01 -2.00090093687E-04 +1.75151564808E-04 -2.22682592331E-04 +1.08885025515E-04 +7.65873680746E-01 +3.47898337853E-01
2.71500000000E+09 +7.47080540184E-01 +1.96611867016E-01 -1.70043965953E-04 +2.25540625473E-04 -1.63257471192E-04 +2.15488584808E-04 +7.68309223980E-01 +3.35188223330E-01
2.72000000000E+09 +7.47716129732E-01 +1.82330772336E-01 -1.57687434559E-04 +1.51182682052E-04 -1.46147030041E-04 +1.54776750678E-04 +7.70121468065E-01 +3.22525641852E-01
2.72500000000E+09 +7.47847318168E-01 +1.67011753038E-01 -3.10910830168E-04 +1.42543397172E-04 -2.71060416847E-04 +1.62485216972E-04 +7.71447498130E-01 +3.09212035639E-01
2.73000000000E+09 +7.46670154161E-01 +1.50784692637E-01 -3.66264844343E-04 +4.65807695411E-04 -2.91235361839E-04 +4.83046938226E-04 +7.72650526315E-01 +2.95117376809E-01
2.73500000000E+09 +7.43991662282E-01 +1.33694767515E-01 +2.70667542011E-05 +5.17929240265E-04 +4.38356827498E-05 +4.65431572681E-04 +7.73400468975E-01 +2.79881939283E-01
2.74000000000E+09 +7.40439516144E-01 +1.16835621238E-01 +2.40909240264E-04 +4.06896713024E-04 +1.22963973011E-04 +3.21488360613E-04 +7.74314285234E-01 +2.64889909800E-01
2.74500000000E+09 +7.35753751152E-01 +9.96568696157E-02 +2.52359881366E-04 +1.25510678670E-04 +1.87129065299E-04 +1.76663237033E-04 +7.75126353217E-01 +2.49757437457E-01
2.75000000000E+09 +7.30281271733E-01 +8.27719475619E-02 +7.44419641905E-05 -4.89735436709E-05 +1.02466963143E-04 +1.09401223375E-05 +7.75906756747E-01 +2.35006560370E-01
2.75500000000E+09 +7.24394777763E-01 +6.59702302906E-02 -1.27795049907E-04 -7.77453637125E-05 -1.44510711411E-04 -3.61756293851E-05 +7.75636851565E-01 +2.19638447913E-01
2.76000000000E+09 +7.18805199291E-01 +4.97055682650E-02 -2.41087819273E-04 +4.89177939550E-05 -2.52221436572E-04 +3.59525452954E-05 +7.74449649148E-01 +2.04452910911E-01
2.76500000000E+09 +7.13936692333E-01 +3.32756741405E-02 -3.22580180749E-04 +1.84979016501E-04 -3.53653413562E-04 +2.04400586705E-04 +7.73055273402E-01 +1.88836199528E-01
2.77000000000E+09 +7.09633933016E-01 +1.59030582951E-02 -2.08734630579E-04 +3.93305559510E-04 -2.01578851847E-04 +4.40126866308E-04 +7.71985941871E-01 +1.72154764562E-01
2.77500000000E+09 +7.05677939235E-01 -2.32718533743E-03 -1.93766650948E-04 +3.83787056875E-04 -1.87755008532E-04 +3.61224454054E-04 +7.70406864049E-01 +1.54686494342E-01
2.78000000000E+09 +7.01725990533E-01 -2.17907074990E-02 -4.03818782017E-05 +5.28278945886E-04 +4.90245988842E-05 +5.58516292120E-04 +7.68468227565E-01 +1.37152369982E-01
2.78500000000E+09 +6.96429803697E-01 -4.24048913846E-02 +8.79964617943E-05 +3.13942650711E-04 +1.44788412598E-04 +3.03123035219E-04 +7.65832911567E-01 +1.20235774447E-01
2.79000000000E+09 +6.89859423054E-01 -6.31541664894E-02 -2.04181170653E-04 +3.16858677514E-04 -1.64792070814E-04 +2.64193391377E-04 +7.63439588885E-01 +1.03909948846E-01
2.79500000000E+09 +6.82179570049E-01 -8.32189894754E-02 -2.11552089464E-04 +6.13591491865E-04 -9.09806729240E-05 +4.99793621986E-04 +7.60491632198E-01 +8.58767679795E-02
2.80000000000E+09 +6.73069394222E-01 -1.02783013195E-01 -3.35608941159E-05 +6.60992333227E-04 -3.98246741004E-05 +6.07959522406E-04 +7.55742598877E-01 +6.69636892399E-02
2.80500000000E+09 +6.63107392315E-01 -1.21025824655E-01 +7.71341751005E-05 +6.62050037428E-04 +7.69750892494E-05 +6.19291235744E-04 +7.50151566055E-01 +4.80988040995E-02
2.81000000000E+09 +6.52064777283E-01 -1.38273824685E-01 +1.13284025970E-04 +7.54467355165E-04 +1.22721905184E-04 +7.65289280049E-04 +7.44170324858E-01 +2.84848003620E-02
2.81500000000E+09 +6.40286652468E-01 -1.54882898852E-01 +4.38110688969E-04 +9.28973930861E-04 +4.65816918550E-04 +9.29528943253E-04 +7.37444494241E-01 +8.67092525060E-03
2.82000000000E+09 +6.27359435358E-01 -1.71145347943E-01 +7.60221812345E-04 +5.92134941563E-04 +7.87445071833E-04 +5.99800961575E-04 +7.30371571554E-01 -1.14287835576E-02
2.82500000000E+09 +6.13487466502E-01 -1.87326877593E-01 +5.39276680782E-04 +3.84257499717E-04 +5.48560008750E-04 +3.63227354268E-04 +7.21519442995E-01 -3.20579485157E-02
2.83000000000E+09 +5.98202721991E-01 -2.04495191482E-01 +5.38753878867E-04 +4.45164724418E-04 +4.64259916292E-04 +4.65412287906E-04 +7.11650674695E-01 -5.19517108709E-02
2.83500000000E+09 +5.80852957160E-01 -2.22287980007E-01 +6.80132795368E-04 +6.97360316541E-04 +6.29574493110E-04 +7.14438556207E-04 +7.01071692678E-01 -7.17545666597E-02
2.84000000000E+09 +5.61185991592E-01 -2.40170913194E-01 +1.07193749072E-03 +4.67284600828E-04 +9.79175046850E-04 +5.04237503289E-04 +6.89440154571E-01 -9.22328154872E-02
2.84500000000E+09 +5.39736726040E-01 -2.57992700446E-01 +1.03945300062E-03 +3.19875736669E-04 +1.08094681936E-03 +3.91220787483E-04 +6.76616633086E-01 -1.12702001716E-01
2.85000000000E+09 +5.17104498188E-01 -2.75524384240E-01 +1.27058607816E-03 +2.25408364529E-04 +1.26288549004E-03 +2.35965305074E-04 +6.62000149815E-01 -1.32809549848E-01
2.85500000000E+09 +4.92531177176E-01 -2.92615837072E-01 +1.19787389986E-03 -7.26555338687E-05 +1.18856564044E-03 -7.84808613219E-05 +6.46856947785E-01 -1.52035151853E-01
2.86000000000E+09 +4.67011836351E-01 -3.08485988861E-01 +1.39683208007E-03 -8.34844809451E-05 +1.39701818675E-03 -3.48579322650E-05 +6.31229289798E-01 -1.71616457968E-01
2.86500000000E+09 +4.41375554923E-01 -3.22449795131E-01 +1.46510026592E-03 -6.07487261004E-04 +1.45200223495E-03 -5.91877945240E-04 +6.13923026735E-01 -1.91537864612E-01
2.87000000000E+09 +4.15756186317E-01 -3.35001132403E-01 +1.15595615402E-03 -8.67845057227E-04 +1.20103753117E-03 -9.15496390281E-04 +5.95383110834E-01 -2.10965153683E-01
2.87500000000E+09 +3.90999879856E-01 -3.46302877822E-01 +9.45513597757E-04 -9.47879480907E-04 +9.43081355431E-04 -9.48891115294E-04 +5.75132748213E-01 -2.30015760734E-01
2.88000000000E+09 +3.66002999469E-01 -3.57559432708E-01 +8.37609030957E-04 -9.35662296402E-04 +7.72957372842E-04 -9.83600571785E-04 +5.54170954806E-01 -2.47974686020E-01
2.88500000000E+09 +3.39635980862E-01 -3.67896234582E-01 +8.39470638693E-04 -1.01163898394E-03 +7.35143620748E-04 -1.05388612760E-03 +5.32256361090E-01 -2.65634575427E-01
2.89000000000E+09 +3.11728817317E-01 -3.76827554840E-01 +7.18036196227E-04 -1.29689852866E-03 +7.02068525438E-04 -1.20525330423E-03 +5.08522125383E-01 -2.83100714001E-01
2.89500000000E+09 +2.82725030930E-01 -3.83765582793E-01 +6.55499084866E-04 -1.38128961665E-03 +6.84010604752E-04 -1.30539420523E-03 +4.83271365593E-01 -3.00759274750E-01
2.90000000000E+09 +2.52172546294E-01 -3.89579167920E-01 +3.64079577973E-04 -1.74863415999E-03 +4.14683332192E-04 -1.76184949787E-03 +4.55265638746E-01 -3.17703924948E-01
2.90500000000E+09 +2.19772002890E-01 -3.92871912513E-01 -2.68697236154E-04 -1.75598121928E-03 -2.53131830995E-04 -1.85313532141E-03 +4.26318276764E-01 -3.32601572133E-01
2.91000000000E+09 +1.86942058760E-01 -3.92792296362E-01 -6.32218221479E-04 -1.48562121237E-03 -6.48639659205E-04 -1.48619997694E-03 +3.96913710531E-01 -3.46899886600E-01
2.91500000000E+09 +1.54837208193E-01 -3.91538287254E-01 -6.26558993158E-04 -9.76321490060E-04 -6.43278495394E-04 -9.85611898698E-04 +3.65622335074E-01 -3.59351439381E-01
2.92000000000E+09 +1.21968071587E-01 -3.88402515395E-01 -3.53460293938E-04 -1.09344074887E-03 -3.34782855667E-04 -1.02509672523E-03 +3.32966342181E-01 -3.69814949400E-01
2.92500000000E+09 +8.99978595886E-02 -3.83164548864E-01 -5.77177729154E-04 -1.60526234172E-03 -4.51495433969E-04 -1.51534717015E-03 +2.98716281385E-01 -3.77857930698E-01
2.93000000000E+09 +5.80398659938E-02 -3.76988226718E-01 -1.37629947561E-03 -1.48270889894E-03 -1.28994607645E-03 -1.51280265276E-03 +2.63294824232E-01 -3.85034320235E-01
2.93500000000E+09 +2.57310622651E-02 -3.68958566736E-01 -1.65715054700E-03 -6.25166550826E-04 -1.64215581102E-03 -6.44298584528E-04 +2.25537507527E-01 -3.90819329166E-01
2.94000000000E+09 -6.48995274986E-03 -3.57984749440E-01 -1.17475096176E-03 -1.96854955458E-04 -1.13561182942E-03 -1.92265130268E-04 +1.86510101619E-01 -3.94462125280E-01
2.94500000000E+09 -3.74783349234E-02 -3.44538044111E-01 -8.04043433706E-04 -3.80535386650E-04 -8.39265756345E-04 -3.93863243458E-04 +1.46315769269E-01 -3.95133388854E-01
2.95000000000E+09 -6.80523225999E-02 -3.28359519543E-01 -1.01569146695E-03 -7.45391155222E-04 -9.17567255133E-04 -7.14038936995E-04 +1.07033040571E-01 -3.92600095660E-01
2.95500000000E+09 -9.70976446697E-02 -3.09425411384E-01 -1.53841189112E-03 -4.88343184048E-04 -1.58096548810E-03 -5.49737309600E-04 +6.73905190738E-02 -3.87780630853E-01
2.96000000000E+09 -1.25007242338E-01 -2.88337079780E-01 -1.78312033737E-03 +5.96262539907E-05 -1.87727730834E-03 +2.01868638554E-05 +2.74586759792E-02 -3.79149834550E-01
2.96500000000E+09 -1.51686409101E-01 -2.65561356862E-01 -1.21270238369E-03 +7.52722694987E-04 -1.24504315530E-03 +7.73558468276E-04 -1.18497778077E-02 -3.69146510934E-01
2.97000000000E+09 -1.77878359067E-01 -2.39558774233E-01 -6.83377990087E-04 +4.86978626808E-04 -6.12773040715E-04 +4.71848347619E-04 -5.38081332277E-02 -3.56130839128E-01
2.97500000000E+09 -2.01314209194E-01 -2.11558618582E-01 -6.84012608947E-04 -1.22131672928E-04 -6.73981039272E-04 -1.13009523612E-04 -9.34257467131E-02 -3.38907275658E-01
2.98000000000E+09 -2.22814824352E-01 -1.82306394164E-01 -1.52207040621E-03 +6.22168037197E-05 -1.45215418925E-03 +5.12856829006E-05 -1.32528922100E-01 -3.19516679064E-01
2.98500000000E+09 -2.42653412193E-01 -1.53177188360E-01 -1.34984036050E-03 +8.11931189825E-04 -1.47284965169E-03 +7.58531476234E-04 -1.69550060053E-01 -2.96690042204E-01
2.99000000000E+09 -2.61418127073E-01 -1.22650283227E-01 -9.79410010992E-04 +1.05280972026E-03 -1.04981016613E-03 +1.04593292205E-03 -2.04895696258E-01 -2.71183213286E-01
2.99500000000E+09 -2.77604439771E-01 -9.21096550569E-02 -6.36914395600E-04 +9.11305006579E-04 -7.07127295492E-04 +1.00157019736E-03 -2.38491800042E-01 -2.41475397135E-01
3.00000000000E+09 -2.92933098856E-01 -6.11524832680E-02 -5.12079247948E-04 +7.53535333929E-04 -5.18303878696E-04 +8.12617817243E-04 -2.68707576572E-01 -2.10674514003E-01
3.00500000000E+09 -3.04822805605E-01 -3.02426400199E-02 -9.37490946079E-04 +7.16508884011E-04 -9.07255088953E-04 +7.47797427389E-04 -2.98463076250E-01 -1.78216642960E-01
3.01000000000E+09 -3.15171912999E-01 +1.74169104361E-04 -7.72202456054E-04 +1.40497485978E-03 -7.29625991558E-04 +1.23978127458E-03 -3.25418894630E-01 -1.43330390551E-01
3.01500000000E+09 -3.23027595514E-01 +3.03969855909E-02 -1.75688606119E-06 +1.64097693558E-03 -4.07341560699E-05 +1.67545372641E-03 -3.49863777882E-01 -1.07237131059E-01
3.02000000000E+09 -3.27999449159E-01 +6.13329080535E-02 +5.46064323883E-04 +9.57361753825E-04 +5.36610495756E-04 +1.04326808581E-03 -3.70880078186E-01 -6.95108797462E-02
3.02500000000E+09 -3.29194146316E-01 +9.10169970378E-02 +2.22421693993E-04 +4.85134325403E-04 +2.44287091847E-04 +4.76966096061E-04 -3.88485690738E-01 -3.06447454631E-02
3.03000000000E+09 -3.27738790247E-01 +1.19887016172E-01 -1.57270712396E-04 +6.27473981331E-04 -1.81045441768E-04 +6.15858099896E-04 -4.02778510250E-01 +9.05716193250E-03
3.03500000000E+09 -3.24579632955E-01 +1.47288433116E-01 -3.02762032106E-04 +1.03386678680E-03 -3.76422536929E-04 +9.88772653456E-04 -4.14275711083E-01 +4.90481201250E-02
3.04000000000E+09 -3.20097643555E-01 +1.75698601884E-01 +2.49160025603E-04 +1.00765095149E-03 +2.70163217344E-04 +1.03591158656E-03 -4.22975199896E-01 +8.90812539496E-02
3.04500000000E+09 -3.12715972339E-01 +2.03419677979E-01 +2.69022522275E-04 +1.06801143789E-03 +2.58408946875E-04 +1.14762539700E-03 -4.29338091151E-01 +1.28985686152E-01
3.05000000000E+09 -3.04106433793E-01 +2.31248026733E-01 +6.92718887629E-04 +8.05407665436E-04 +8.02266730670E-04 +8.00572289983E-04 -4.32752310925E-01 +1.68614884681E-01
3.05500000000E+09 -2.93128423840E-01 +2.58200037856E-01 +3.35596728953E-04 +5.32694454202E-04 +3.84180721536E-04 +5.06091660531E-04 -4.33894029235E-01 +2.07241416866E-01
3.06000000000E+09 -2.81436450948E-01 +2.84065039220E-01 +4.55714581874E-04 +7.03346554326E-04 +4.46046788754E-04 +6.58321611875E-04 -4.32462189887E-01 +2.45995487901E-01
3.06500000000E+09 -2.69522370893E-01 +3.08886671969E-01 +4.83646838959E-04 +7.23783193519E-04 +4.42974243703E-04 +6.74477203034E-04 -4.28198212243E-01 +2.83967889303E-01
3.07000000000E+09 -2.56351755714E-01 +3.32999907642E-01 +6.95464476245E-04 +6.51446905419E-04 +6.47637242208E-04 +6.56573580216E-04 -4.21491949321E-01 +3.20120551879E-01
