# Hz S RI R 50
! CMT, C1220, 16058040, 17.2.0/1
! Date: 15/08/2018 10:26:06
! Data: Format (Calibration Info)
! Freq                      S11: Re/Im (F2)                       S21: Re/Im (F2)                       S12: Re/Im (F2)                       S22: Re/Im (F2)            
2.50000000000E+09 +5.81148447527E-01 +6.40449393086E-01 +2.45155780385E-04 -4.11467330165E-05 +2.38548592117E-04 -5.51148226888E-05 +5.70682701132E-01 +7.19945314355E-01
2.50500000000E+09 +5.88344926331E-01 +6.32860074611E-01 +2.66473095405E-04 -6.80242063977E-05 +3.09879115534E-04 -6.14099689780E-05 +5.76844771320E-01 +7.13999130543E-01
2.51000000000E+09 +5.95778210242E-01 +6.24777826190E-01 +2.22624219991E-04 -1.57939710665E-04 +2.35799413884E-04 -1.45983988225E-04 +5.82731093937E-01 +7.08233015720E-01
2.51500000000E+09 +6.02976540212E-01 +6.16962216025E-01 +2.29234375101E-04 -1.36650931824E-04 +1.88848049935E-04 -1.57066834441E-04 +5.88072748342E-01 +7.02231152516E-01
2.52000000000E+09 +6.09590761739E-01 +6.09081002774E-01 +2.45787086017E-04 -2.66209015118E-04 +2.41289946049E-04 -2.00635156915E-04 +5.93207896309E-01 +6.95790791407E-01
2.52500000000E+09 +6.15247222856E-01 +6.01701804109E-01 +1.90959104391E-04 -3.00568246941E-04 +1.83159038445E-04 -2.67588760572E-04 +5.98797930593E-01 +6.89029885146E-01
2.53000000000E+09 +6.20261531585E-01 +5.94902004875E-01 +1.43512397818E-04 -2.82425210856E-04 +1.12362271895E-04 -2.97762010423E-04 +6.04653052284E-01 +6.81539703649E-01
2.53500000000E+09 +6.24775539974E-01 +5.88402774471E-01 +3.74098498976E-05 -3.06922346713E-04 +3.60434266078E-05 -3.57734898609E-04 +6.10233825692E-01 +6.74600464026E-01
2.54000000000E+09 +6.29060736889E-01 +5.82162098471E-01 +8.56128947831E-06 -2.92340418047E-04 -4.55941477526E-05 -2.85055456488E-04 +6.15788897330E-01 +6.67665219802E-01
2.54500000000E+09 +6.33240101269E-01 +5.76190331081E-01 -3.08336421163E-05 -2.94287698905E-04 -1.96927526718E-05 -2.71903689121E-04 +6.21155031825E-01 +6.61146945816E-01
2.55000000000E+09 +6.38005863082E-01 +5.70003602741E-01 -8.48409674290E-05 -1.90221136310E-04 -7.82133057814E-06 -2.14412533548E-04 +6.25655067654E-01 +6.54872946274E-01
2.55500000000E+09 +6.43357249623E-01 +5.63294329213E-01 -4.63430186918E-05 -2.21001304439E-04 +7.63877334899E-06 -3.08405528902E-04 +6.30192634171E-01 +6.48725519890E-01
2.56000000000E+09 +6.49552117044E-01 +5.56445900130E-01 -7.57704833626E-05 -2.64853278178E-04 -1.40728687133E-04 -3.45088777780E-04 +6.34984930556E-01 +6.41941877556E-01
2.56500000000E+09 +6.55943500174E-01 +5.48424365728E-01 -1.02716984371E-04 -2.56395389002E-04 -2.01222847979E-04 -2.21226659244E-04 +6.40333085997E-01 +6.34914593685E-01
2.57000000000E+09 +6.62055288332E-01 +5.40393869798E-01 -1.79763855108E-04 -2.96559941473E-04 -2.71961722913E-04 -2.23850011707E-04 +6.45579048371E-01 +6.27391735819E-01
2.57500000000E+09 +6.68161720858E-01 +5.32305164807E-01 -2.97879061468E-04 -1.35172548375E-04 -2.83931019409E-04 -6.73553210957E-05 +6.50949567821E-01 +6.19970700807E-01
2.58000000000E+09 +6.73526145064E-01 +5.24031897997E-01 -1.93611792573E-04 +1.88684035492E-06 -1.53122938440E-04 -3.11807762975E-05 +6.56122525227E-01 +6.12840480374E-01
2.58500000000E+09 +6.78156977562E-01 +5.15810609385E-01 -1.59226866470E-04 -3.19255232658E-05 -1.51642396243E-04 -1.32356569147E-05 +6.61364794388E-01 +6.05262288358E-01
2.59000000000E+09 +6.82198080307E-01 +5.08068714551E-01 -2.14875194165E-04 -1.66003689520E-05 -1.45567198421E-04 +2.77035225329E-05 +6.66249711786E-01 +5.97735901730E-01
2.59500000000E+09 +6.86016377890E-01 +5.00157494213E-01 -9.11615491352E-05 -3.28324578245E-05 -1.00199354616E-04 -2.11298695452E-05 +6.71443078446E-01 +5.89835639402E-01
2.60000000000E+09 +6.89763995539E-01 +4.91874702609E-01 -1.41139351120E-04 -8.60622186844E-06 -1.19105978438E-04 +1.17337019451E-05 +6.76818071219E-01 +5.81313107936E-01
2.60500000000E+09 +6.93734506764E-01 +4.82744590847E-01 -1.25169453713E-04 -1.67254198972E-05 -1.43937741315E-04 +6.28430529196E-05 +6.82297391340E-01 +5.72423342175E-01
2.61000000000E+09 +6.98079015660E-01 +4.72588039595E-01 -1.16965111314E-04 -2.42649876258E-05 -6.34091267341E-05 -9.24722211141E-06 +6.87453644937E-01 +5.63443698547E-01
2.61500000000E+09 +7.03575215348E-01 +4.62522416038E-01 -2.06826702900E-04 -2.74317067730E-05 -1.64722820879E-04 -5.22465165079E-05 +6.92082469940E-01 +5.54663994464E-01
2.62000000000E+09 +7.08342261119E-01 +4.50121349192E-01 -1.84541181201E-04 +9.39668088935E-05 -2.35600624894E-04 +1.04038874107E-04 +6.96714941844E-01 +5.45607405721E-01
2.62500000000E+09 +7.13153373802E-01 +4.36916048483E-01 -7.66072659848E-05 +1.42689345518E-04 -8.39160613954E-05 +1.65389410989E-04 +7.01049374486E-01 +5.36612886524E-01
2.63000000000E+09 +7.17702459520E-01 +4.23382897731E-01 -6.71532796502E-05 +1.06293175409E-04 -4.22390036952E-05 +1.07003018357E-04 +7.05301020371E-01 +5.27641977767E-01
2.63500000000E+09 +7.21577176937E-01 +4.10190450865E-01 -4.54175915599E-06 +1.17336752178E-04 -2.97550148542E-05 +1.22835497254E-04 +7.09738509607E-01 +5.18467931966E-01
2.64000000000E+09 +7.25184764043E-01 +3.97629485776E-01 +4.04453327961E-05 +1.04015751987E-04 +4.65855935806E-06 +7.20377591118E-05 +7.14333033894E-01 +5.08990322322E-01
2.64500000000E+09 +7.28653533377E-01 +3.85891209338E-01 +7.93286177032E-05 +7.61808459764E-05 +5.88734638092E-05 +9.31036055382E-05 +7.18730933730E-01 +4.99411712171E-01
2.65000000000E+09 +7.31405527837E-01 +3.75162659280E-01 +1.27384800756E-04 -5.59736438369E-05 +1.15025070899E-04 +2.59844644480E-05 +7.22932345789E-01 +4.89492721893E-01
2.65500000000E+09 +7.34636506764E-01 +3.64676966498E-01 -1.51467058391E-05 -6.91720438056E-05 -7.19917089876E-05 -1.01659298163E-04 +7.26564350789E-01 +4.79134613904E-01
2.66000000000E+09 +7.37902876542E-01 +3.53918400671E-01 -8.64201489515E-05 +4.61581558701E-05 -1.26899731653E-04 +6.98260152148E-05 +7.30435005831E-01 +4.68435636370E-01
2.66500000000E+09 +7.41109248277E-01 +3.43041128539E-01 +1.95194996720E-05 +4.34791151495E-05 +2.63601608396E-05 +5.71820676924E-05 +7.34835460749E-01 +4.57365006420E-01
2.67000000000E+09 +7.44254898417E-01 +3.30910236053E-01 +9.96605166741E-05 +4.08796760825E-05 +8.91255265651E-05 -2.51052150916E-05 +7.39075647512E-01 +4.46468548132E-01
2.67500000000E+09 +7.46649555273E-01 +3.17591303485E-01 +1.48496460247E-04 -1.31094932646E-04 +1.38960873089E-04 -7.31739519270E-05 +7.43210096758E-01 +4.35365611254E-01
2.68000000000E+09 +7.48353654069E-01 +3.03727134645E-01 -2.62752226779E-05 -2.15211481881E-04 -7.19124001514E-06 -2.14608510386E-04 +7.46895458351E-01 +4.24270384131E-01
2.68500000000E+09 +7.49491202137E-01 +2.89768477486E-01 -1.67540291333E-04 -9.29806320151E-05 -1.85613254588E-04 -1.25169647768E-04 +7.50003711712E-01 +4.13082576839E-01
2.69000000000E+09 +7.50505949239E-01 +2.75532799468E-01 -4.73865184263E-05 +2.32047343997E-05 -6.97989560201E-05 +9.85833683083E-06 +7.52734856854E-01 +4.01347950788E-01
2.69500000000E+09 +7.51166803353E-01 +2.61579706395E-01 -5.74768718132E-05 -1.21020363479E-04 +9.11826880320E-06 -7.62885880629E-05 +7.55332883335E-01 +3.89110247065E-01
2.70000000000E+09 +7.51805496228E-01 +2.47720638899E-01 -8.40052054659E-05 -1.00121993918E-04 -7.75649747998E-05 -7.30501024537E-05 +7.58150200211E-01 +3.76118875863E-01
2.70500000000E+09 +7.52236126010E-01 +2.34231912815E-01 -1.02780115053E-04 +3.83496585173E-06 -1.05623172388E-04 -3.02636004581E-05 +7.61016273888E-01 +3.63110477336E-01
2.71000000000E+09 +7.53020571929E-01 +2.20892598205E-01 -9.01115815985E-05 -3.05188415753E-05 -5.99637341212E-05 +9.79637109630E-06 +7.63943693636E-01 +3.50162066931E-01
2.71500000000E+09 +7.53978109174E-01 +2.07123093524E-01 -4.70377938427E-05 -2.54276477987E-05 -4.78757837248E-05 -8.52451881241E-07 +7.66241836527E-01 +3.37607008720E-01
2.72000000000E+09 +7.54733496979E-01 +1.92841585504E-01 -6.60330199098E-05 -9.83407686987E-05 -8.66679553640E-05 -1.25865979466E-04 +7.68148057691E-01 +3.25170150355E-01
2.72500000000E+09 +7.55016225036E-01 +1.77416189007E-01 -2.20298636708E-04 -1.18813514366E-04 -2.38193370167E-04 -8.33973236389E-05 +7.69556633921E-01 +3.11921850194E-01
2.73000000000E+09 +7.54085957260E-01 +1.61323249299E-01 -2.14466553370E-04 +1.42158247613E-04 -2.06974556586E-04 +1.61814346890E-04 +7.70989337493E-01 +2.98064216376E-01
2.73500000000E+09 +7.51851662670E-01 +1.44271576842E-01 +4.58539076725E-05 +1.10050432331E-04 -2.13290179564E-06 +1.13744360039E-04 +7.71729931632E-01 +2.83000448535E-01
2.74000000000E+09 +7.48586165679E-01 +1.27643659113E-01 +9.09095001042E-06 +5.56201770562E-05 -9.45077652545E-06 +4.56575362136E-05 +7.72744287938E-01 +2.68288754430E-01
2.74500000000E+09 +7.44417022836E-01 +1.10604805734E-01 +3.71961279687E-05 -9.71412273734E-05 +1.14527917838E-04 -5.11719527225E-05 +7.73637294803E-01 +2.53482873499E-01
2.75000000000E+09 +7.39690283920E-01 +9.39388632741E-02 -2.45280514942E-05 -1.52661681509E-04 +2.76556156242E-05 -2.05447992973E-04 +7.74669247504E-01 +2.39009360462E-01
2.75500000000E+09 +7.34538986072E-01 +7.71057676183E-02 -1.47747647863E-04 -2.52687990181E-04 -1.13049505554E-04 -2.36988966380E-04 +7.74723876219E-01 +2.23730382078E-01
2.76000000000E+09 +7.29453095338E-01 +6.07246569126E-02 -3.14158634360E-04 -2.32496272749E-04 -4.11762912102E-04 -2.14267158891E-04 +7.73741242162E-01 +2.08777778800E-01
2.76500000000E+09 +7.24858068916E-01 +4.41042388611E-02 -4.74429588379E-04 -7.21290516694E-05 -4.89264791002E-04 -7.88197790721E-05 +7.73014376506E-01 +1.93372024668E-01
2.77000000000E+09 +7.20612572373E-01 +2.65607457876E-02 -3.91811167564E-04 +1.05347962439E-04 -4.04004416704E-04 +1.79876703993E-04 +7.72470509434E-01 +1.76742683568E-01
2.77500000000E+09 +7.16591640509E-01 +8.21441767569E-03 -3.57508402344E-04 +1.47275587230E-04 -4.21964905074E-04 +1.41504587451E-04 +7.71293780433E-01 +1.59210533721E-01
2.78000000000E+09 +7.12785066742E-01 -1.13553238849E-02 -3.25389755211E-04 +2.73022843964E-04 -3.01356719968E-04 +2.93784289206E-04 +7.69822329305E-01 +1.41750496160E-01
2.78500000000E+09 +7.07652320732E-01 -3.20642357773E-02 -3.32226946442E-04 +1.63637248818E-04 -2.81079589097E-04 +1.81797436978E-04 +7.67629794088E-01 +1.24667108510E-01
2.79000000000E+09 +7.01556755866E-01 -5.29788653258E-02 -5.38665772805E-04 +2.18071246939E-04 -4.86317026855E-04 +2.27792846157E-04 +7.65430705529E-01 +1.08016467749E-01
2.79500000000E+09 +6.94341384703E-01 -7.33733262695E-02 -5.02109060168E-04 +5.93492802108E-04 -4.39953275549E-04 +5.21681449621E-04 +7.62752053337E-01 +8.97418650384E-02
2.80000000000E+09 +6.85669485513E-01 -9.35063438516E-02 -2.92371467188E-04 +6.88613473345E-04 -3.54143520915E-04 +6.85770450910E-04 +7.58378678419E-01 +7.07389527002E-02
2.80500000000E+09 +6.76151082848E-01 -1.12273447789E-01 -1.97556892863E-04 +7.83377355515E-04 -2.00064085739E-04 +7.45986980576E-04 +7.53454438523E-01 +5.15867041982E-02
2.81000000000E+09 +6.65716096668E-01 -1.29964834962E-01 +5.89140434714E-05 +8.60950946184E-04 -4.74478105428E-05 +8.92316391152E-04 +7.47939564444E-01 +3.15259322224E-02
2.81500000000E+09 +6.54389075941E-01 -1.46957143522E-01 +2.24002220089E-04 +8.14309172201E-04 +2.70768043114E-04 +8.51821943836E-04 +7.41413662188E-01 +1.11670450899E-02
2.82000000000E+09 +6.41755885812E-01 -1.63558745186E-01 +3.96426803867E-04 +6.62958227509E-04 +3.89010005607E-04 +6.52180914603E-04 +7.34182573092E-01 -9.21942851819E-03
2.82500000000E+09 +6.28161469172E-01 -1.79929261396E-01 +4.44372373124E-04 +5.33048995772E-04 +4.36141508768E-04 +5.28561313812E-04 +7.25545287147E-01 -3.01265781901E-02
2.83000000000E+09 +6.13307109050E-01 -1.97464381245E-01 +4.33521260294E-04 +5.19984993865E-04 +4.47427072304E-04 +5.51781101955E-04 +7.15611356408E-01 -5.04802582682E-02
2.83500000000E+09 +5.96256205566E-01 -2.15851683873E-01 +5.26792381065E-04 +6.29099408544E-04 +4.95637738771E-04 +6.87347790187E-04 +7.05055345083E-01 -7.06887734221E-02
2.84000000000E+09 +5.76403997682E-01 -2.34514389256E-01 +7.91934685557E-04 +3.63976810566E-04 +8.26862956350E-04 +4.48636396945E-04 +6.93683143713E-01 -9.14386909483E-02
2.84500000000E+09 +5.54568742155E-01 -2.52701479165E-01 +6.87822210660E-04 +2.25550856075E-04 +7.47508781140E-04 +1.96357703581E-04 +6.81013803192E-01 -1.12208996231E-01
2.85000000000E+09 +5.31868713431E-01 -2.70425903535E-01 +7.90433388852E-04 +2.24288369787E-04 +7.60256826636E-04 +2.84540831821E-04 +6.66852871605E-01 -1.33023237161E-01
2.85500000000E+09 +5.07759310526E-01 -2.87772152089E-01 +7.66865677254E-04 +6.74548554735E-05 +7.70207093986E-04 -8.20702037621E-06 +6.51557233468E-01 -1.52966964805E-01
2.86000000000E+09 +4.82712825010E-01 -3.04658594020E-01 +8.75872583241E-04 +2.11758403788E-06 +8.70630512633E-04 -2.31061520203E-05 +6.35588305466E-01 -1.72938058039E-01
2.86500000000E+09 +4.57053838963E-01 -3.19594275856E-01 +7.97992751489E-04 -2.19138103228E-04 +8.04145493894E-04 -2.43309161049E-04 +6.18225537146E-01 -1.93024289868E-01
2.87000000000E+09 +4.31291430344E-01 -3.32919704496E-01 +5.44110873255E-04 -1.96258722474E-04 +5.31876879886E-04 -2.95209760140E-04 +5.99417538598E-01 -2.13358994684E-01
2.87500000000E+09 +4.06148467228E-01 -3.44750581302E-01 +6.61935882599E-04 -3.43066337833E-05 +6.38517301445E-04 -1.13191658601E-04 +5.78825187704E-01 -2.32860602867E-01
2.88000000000E+09 +3.80881451659E-01 -3.56068329130E-01 +8.29282818640E-04 -2.21507311849E-04 +7.62149002072E-04 -2.36878554737E-04 +5.57588925808E-01 -2.51258595976E-01
2.88500000000E+09 +3.54565348612E-01 -3.66719189774E-01 +9.06976813109E-04 -3.90339790571E-04 +8.38461037180E-04 -3.66781460039E-04 +5.35461300694E-01 -2.69685462929E-01
2.89000000000E+09 +3.26622396479E-01 -3.76022902581E-01 +7.75169026919E-04 -6.32251577503E-04 +7.17973375831E-04 -6.05481918827E-04 +5.10961224285E-01 -2.87599954547E-01
2.89500000000E+09 +2.97409583756E-01 -3.83497590406E-01 +7.42522038712E-04 -6.57380092520E-04 +7.06592209219E-04 -5.45326863275E-04 +4.85205445562E-01 -3.05647546605E-01
2.90000000000E+09 +2.66601148137E-01 -3.89868392907E-01 +7.07452248795E-04 -7.75174142662E-04 +7.42901601798E-04 -7.12579695056E-04 +4.56107782573E-01 -3.23068349226E-01
2.90500000000E+09 +2.33860682378E-01 -3.94217957086E-01 +6.72351446799E-04 -1.09604747277E-03 +7.00718852754E-04 -1.12263416188E-03 +4.26126376167E-01 -3.37782599543E-01
2.91000000000E+09 +2.00351056358E-01 -3.95297841592E-01 +2.27800829905E-04 -1.39141881686E-03 +2.04314877188E-04 -1.31619274023E-03 +3.96013233602E-01 -3.51962892480E-01
2.91500000000E+09 +1.67448800455E-01 -3.94845077674E-01 -1.00914438775E-04 -9.98820460049E-04 -2.99437322640E-05 -9.09961980156E-04 +3.63684935314E-01 -3.64307145710E-01
2.92000000000E+09 +1.33607203891E-01 -3.92650461343E-01 +1.35843165367E-04 -9.00139620124E-04 +1.96236873116E-04 -8.68656698562E-04 +3.30238450943E-01 -3.74446918625E-01
2.92500000000E+09 +1.00445012949E-01 -3.87911290499E-01 +1.33894440159E-04 -1.42867623437E-03 +2.50534642242E-04 -1.36997629247E-03 +2.95059912734E-01 -3.81743398972E-01
2.93000000000E+09 +6.82016617847E-02 -3.81866608821E-01 -6.43296545776E-04 -1.66148816171E-03 -5.28845934368E-04 -1.70385141794E-03 +2.59471821895E-01 -3.88064978883E-01
2.93500000000E+09 +3.53908222798E-02 -3.74575181833E-01 -1.15250272828E-03 -1.00924820258E-03 -1.14978793823E-03 -1.10315345678E-03 +2.21676183282E-01 -3.93098108688E-01
2.94000000000E+09 +2.31477309217E-03 -3.64458848836E-01 -9.03797536024E-04 -4.57749320001E-04 -9.11068621727E-04 -5.13027227930E-04 +1.82392683639E-01 -3.96286936973E-01
2.94500000000E+09 -2.98964615682E-02 -3.51534129024E-01 -7.67365741713E-04 -5.61937914231E-04 -7.27147331517E-04 -6.09163754522E-04 +1.41775251910E-01 -3.96378639314E-01
2.95000000000E+09 -6.22009332783E-02 -3.35716664378E-01 -7.91767456035E-04 -6.56185811398E-04 -7.72261189113E-04 -6.58886243303E-04 +1.02702560008E-01 -3.92838633033E-01
2.95500000000E+09 -9.28177721943E-02 -3.16386546058E-01 -1.17535856236E-03 -5.43960967763E-04 -1.17261328338E-03 -5.69520073537E-04 +6.32397439782E-02 -3.88007309288E-01
2.96000000000E+09 -1.21844114162E-01 -2.94897675292E-01 -1.39339424813E-03 -1.11514623409E-04 -1.55120666489E-03 -1.73848438160E-04 +2.27609325611E-02 -3.79104759663E-01
2.96500000000E+09 -1.49278762894E-01 -2.71743089593E-01 -9.98208637469E-04 +5.93259198725E-04 -1.05713687280E-03 +6.60233154256E-04 -1.65237115371E-02 -3.67769699593E-01
2.97000000000E+09 -1.76459465088E-01 -2.46150061379E-01 -4.41351322627E-04 +4.06266270042E-04 -4.31203702260E-04 +4.16212302840E-04 -5.77807098086E-02 -3.54320430772E-01
2.97500000000E+09 -2.01223327699E-01 -2.17839270192E-01 -3.00231014240E-04 +8.29856667056E-05 -2.96491198945E-04 +1.50328004973E-05 -9.69146289969E-02 -3.36446254101E-01
2.98000000000E+09 -2.23499511990E-01 -1.88383581380E-01 -8.89129885007E-04 -7.45071346715E-05 -8.44738907152E-04 -1.42328944169E-05 -1.35492718614E-01 -3.17170810322E-01
2.98500000000E+09 -2.44167271998E-01 -1.58742570224E-01 -6.90502451521E-04 +3.03703522686E-04 -7.49013953080E-04 +3.94815449930E-04 -1.72609649947E-01 -2.94073335559E-01
2.99000000000E+09 -2.63589410862E-01 -1.27820522434E-01 -5.34568082581E-04 +2.91444953429E-04 -6.16292719609E-04 +3.40009448601E-04 -2.08043167640E-01 -2.67863239786E-01
2.99500000000E+09 -2.80558563548E-01 -9.64750956361E-02 -5.00108269464E-04 +4.18888369509E-04 -5.10708656042E-04 +4.75832011227E-04 -2.41433635487E-01 -2.37393389255E-01
3.00000000000E+09 -2.96259473775E-01 -6.47550813490E-02 -2.86591193737E-04 +2.44787022024E-04 -2.60129676223E-04 +2.75319886858E-04 -2.70755586381E-01 -2.05872258224E-01
3.00500000000E+09 -3.08639660964E-01 -3.29340149804E-02 -6.77514254278E-04 +5.70342158106E-05 -6.50377772116E-04 +9.14832848590E-05 -2.99815140266E-01 -1.73127688690E-01
3.01000000000E+09 -3.19387211461E-01 -2.10462763260E-03 -7.51007482952E-04 +4.53258017126E-04 -6.74580336228E-04 +4.03876985059E-04 -3.25597042232E-01 -1.37834413700E-01
3.01500000000E+09 -3.28104683315E-01 +2.85892319120E-02 -5.77211957539E-04 +8.42463011308E-04 -6.09479000479E-04 +7.35342781618E-04 -3.48788776694E-01 -1.01859064771E-01
3.02000000000E+09 -3.34059897552E-01 +6.01871826710E-02 -7.69676283971E-05 +8.11779830579E-04 -9.51410437019E-05 +7.56586170675E-04 -3.68945245762E-01 -6.44536978318E-02
3.02500000000E+09 -3.36347602037E-01 +9.07576494145E-02 -1.01898122989E-04 +2.40266640014E-04 -1.24677669027E-04 +1.86165166354E-04 -3.85421867748E-01 -2.58105651750E-02
3.03000000000E+09 -3.35754329656E-01 +1.20826918927E-01 -5.60958508910E-04 +3.36535145985E-04 -5.94384799517E-04 +3.36982980527E-04 -3.98980452777E-01 +1.29393667809E-02
3.03500000000E+09 -3.32636963979E-01 +1.49199188445E-01 -5.97473518073E-04 +7.88379648136E-04 -5.49655806055E-04 +8.23445404691E-04 -4.10255509169E-01 +5.21789161957E-02
3.04000000000E+09 -3.28667933061E-01 +1.77741295581E-01 -8.31587297699E-05 +7.57738064687E-04 -1.06478554750E-04 +7.71161418620E-04 -4.18715615153E-01 +9.17837639492E-02
3.04500000000E+09 -3.21719812500E-01 +2.06571238661E-01 -2.47042539246E-04 +9.46875078359E-04 -2.86334644533E-04 +9.74300441329E-04 -4.24041021595E-01 +1.30886605094E-01
3.05000000000E+09 -3.13341566684E-01 +2.34962634952E-01 +2.52207321904E-04 +9.76578027359E-04 +2.85843825501E-04 +9.90027100854E-04 -4.27189228123E-01 +1.68957198940E-01
3.05500000000E+09 -3.02665089706E-01 +2.62852266358E-01 +1.39205932634E-04 +7.59336561587E-04 +1.49567508410E-04 +8.37937655598E-04 -4.28578705175E-01 +2.06286620855E-01
3.06000000000E+09 -2.91282219704E-01 +2.89835004123E-01 +4.13955874319E-04 +8.24104127125E-04 +3.85391742639E-04 +7.75925874875E-04 -4.27949560900E-01 +2.44302049944E-01
3.06500000000E+09 -2.78865656273E-01 +3.15827273007E-01 +4.99622896750E-04 +7.26047797628E-04 +4.89586883971E-04 +6.53038533706E-04 -4.24392201213E-01 +2.82092423484E-01
3.07000000000E+09 -2.65591424955E-01 +3.40727103628E-01 +7.04860621042E-04 +6.48432275552E-04 +6.44855077285E-04 +6.72916624489E-04 -4.18042343222E-01 +3.18102507479E-01
