# Hz S RI R 50
! CMT, C1220, 16058040, 17.2.0/1
! Date: 15/08/2018 10:24:47
! Data: Format (Calibration Info)
! Freq                      S11: Re/Im (F2)                       S21: Re/Im (F2)                       S12: Re/Im (F2)                       S22: Re/Im (F2)            
2.50000000000E+09 +5.81828556122E-01 +6.38567846418E-01 +1.86420841705E-04 +8.81408091049E-05 +2.18266531414E-04 +9.92255213915E-05 +5.71566987106E-01 +7.19276478524E-01
2.50500000000E+09 +5.89118047457E-01 +6.30725608023E-01 +2.56041556946E-04 +3.27342281078E-05 +2.72652711649E-04 +3.10782162200E-05 +5.77552321213E-01 +7.13301246459E-01
2.51000000000E+09 +5.96692920006E-01 +6.22588748968E-01 +2.71778550318E-04 -4.98242059189E-05 +2.17373856639E-04 -6.77136259056E-05 +5.83410453033E-01 +7.07618880619E-01
2.51500000000E+09 +6.03961916867E-01 +6.14593803102E-01 +2.02671689951E-04 +1.20596190883E-06 +1.75228855558E-04 +2.22756746665E-05 +5.88639931255E-01 +7.01641177609E-01
2.52000000000E+09 +6.10596643143E-01 +6.06493087050E-01 +3.23242251508E-04 -1.99300677824E-05 +2.75705026800E-04 -5.27196026322E-05 +5.93977942474E-01 +6.95182451655E-01
2.52500000000E+09 +6.16306692457E-01 +5.98892079774E-01 +2.61529759271E-04 -1.51613074734E-04 +2.20904235647E-04 -1.49703759519E-04 +5.99458237531E-01 +6.88383397780E-01
2.53000000000E+09 +6.21373257978E-01 +5.91719206703E-01 +2.61289682998E-04 -1.83342706870E-04 +2.44836189628E-04 -1.47743749324E-04 +6.05312720242E-01 +6.80979099116E-01
2.53500000000E+09 +6.25782840098E-01 +5.85148296695E-01 +1.70896758453E-04 -1.40814841687E-04 +1.49589905412E-04 -1.75646869546E-04 +6.10837869752E-01 +6.73835012621E-01
2.54000000000E+09 +6.29688623389E-01 +5.78817514597E-01 +1.57300468305E-04 -1.76036047660E-04 +1.80936830016E-04 -9.87957121265E-05 +6.16394515945E-01 +6.67101783912E-01
2.54500000000E+09 +6.33948614748E-01 +5.72867150998E-01 +1.14059386416E-04 -1.31953651812E-04 +1.76625045874E-04 -1.59182501745E-04 +6.21635170576E-01 +6.60541083448E-01
2.55000000000E+09 +6.38696651475E-01 +5.66623208623E-01 +2.25207020741E-04 -1.28517261855E-04 +2.28368274515E-04 -1.28525016323E-04 +6.26232738401E-01 +6.54327351358E-01
2.55500000000E+09 +6.43947590513E-01 +5.59728561628E-01 +2.23477753730E-04 -2.84813031836E-04 +2.39007168333E-04 -3.30462652539E-04 +6.30888943773E-01 +6.48243410176E-01
2.56000000000E+09 +6.50065177648E-01 +5.52876778285E-01 +7.69956462747E-05 -3.21792116758E-04 +1.09145020708E-05 -4.10939826468E-04 +6.35660968214E-01 +6.41587476788E-01
2.56500000000E+09 +6.56524325670E-01 +5.44799347692E-01 +1.72665475484E-05 -2.90492220823E-04 -5.93548532103E-05 -3.07546236483E-04 +6.41181278470E-01 +6.34435315920E-01
2.57000000000E+09 +6.62646088077E-01 +5.36531410528E-01 -7.39335614437E-05 -2.87906713424E-04 -1.59794373623E-04 -2.40994623876E-04 +6.46490298984E-01 +6.26573960583E-01
2.57500000000E+09 +6.68833982861E-01 +5.28167550765E-01 -1.23447898546E-04 -1.61974397495E-04 -1.67244912555E-04 -1.27983897129E-04 +6.51889193844E-01 +6.19287434558E-01
2.58000000000E+09 +6.74151073905E-01 +5.19563534919E-01 -4.65625477643E-05 -1.54927858298E-04 -2.33060373567E-05 -8.83617449795E-05 +6.56955811136E-01 +6.11954148991E-01
2.58500000000E+09 +6.78541426684E-01 +5.10903909237E-01 -2.66868255665E-05 -1.91094374071E-04 +1.26575848879E-05 -1.39861542208E-04 +6.61994223367E-01 +6.04451439217E-01
2.59000000000E+09 +6.82354948441E-01 +5.03046059146E-01 -9.06283658256E-05 -1.64729881274E-04 -9.83117257783E-05 -1.54322474290E-04 +6.66865082836E-01 +5.96916935646E-01
2.59500000000E+09 +6.86141966304E-01 +4.94978394073E-01 -8.07626681235E-05 -1.06786518323E-04 -7.45392605851E-05 -9.75406290031E-05 +6.72100379299E-01 +5.89067246722E-01
2.60000000000E+09 +6.89766958294E-01 +4.86537959959E-01 -8.28935820525E-05 -7.84014868510E-05 -7.54870179396E-05 -7.38804575056E-05 +6.77466481900E-01 +5.80520112297E-01
2.60500000000E+09 +6.93663106893E-01 +4.77228691097E-01 -4.63876652455E-05 -3.17096575051E-05 -2.55077037814E-05 -2.70873079581E-05 +6.82961437484E-01 +5.71525614673E-01
2.61000000000E+09 +6.97965617312E-01 +4.67017513885E-01 +2.32897295427E-05 -1.56743797856E-05 +6.66203962822E-05 -6.82164059682E-05 +6.87779702892E-01 +5.62631483420E-01
2.61500000000E+09 +7.02752459411E-01 +4.55469551450E-01 +7.59352309897E-05 -1.91843586570E-04 +6.16519368858E-05 -2.00600954652E-04 +6.92546596218E-01 +5.53923613853E-01
2.62000000000E+09 +7.07334766695E-01 +4.42836560981E-01 -1.13735687430E-05 -1.04124604350E-04 +1.88467931759E-05 -1.43132448741E-04 +6.97052484761E-01 +5.45009461087E-01
2.62500000000E+09 +7.12077508290E-01 +4.29358620584E-01 +2.88952712088E-05 -1.14582489121E-04 +5.91657974987E-05 -1.55888929649E-04 +7.01404627169E-01 +5.36145843953E-01
2.63000000000E+09 +7.16609284950E-01 +4.15423443022E-01 +4.19960639880E-05 -1.86388565074E-04 -1.93429758734E-05 -2.06296758082E-04 +7.05926659802E-01 +5.27199535910E-01
2.63500000000E+09 +7.20398514113E-01 +4.01792306543E-01 -2.54460147558E-05 -1.90353702386E-04 -1.84576627943E-05 -1.84163393611E-04 +7.10588682627E-01 +5.18097212489E-01
2.64000000000E+09 +7.23632688998E-01 +3.88696687412E-01 -1.23159695382E-05 -2.03276712866E-04 -2.46917575213E-07 -1.77778560048E-04 +7.15109205031E-01 +5.08399152457E-01
2.64500000000E+09 +7.26596363871E-01 +3.76704458166E-01 +3.79822284801E-06 -1.92609929624E-04 +3.28412611930E-05 -1.56535411993E-04 +7.19605937988E-01 +4.98689887770E-01
2.65000000000E+09 +7.29242323818E-01 +3.65757526916E-01 +1.58323819449E-05 -3.16484506048E-04 +5.40472316832E-05 -2.65245344964E-04 +7.23764354660E-01 +4.88727580551E-01
2.65500000000E+09 +7.31968510065E-01 +3.54971391838E-01 -1.04832257404E-04 -3.88163423433E-04 -1.14996707996E-04 -4.17138222872E-04 +7.27381574563E-01 +4.78290239497E-01
2.66000000000E+09 +7.34927717778E-01 +3.44160463619E-01 -2.32863579487E-04 -2.81280590912E-04 -2.43777448977E-04 -2.74862926925E-04 +7.31253558002E-01 +4.67433137488E-01
2.66500000000E+09 +7.37746534293E-01 +3.33015027021E-01 -1.79809847471E-04 -3.05032401096E-04 -2.23750662907E-04 -3.66294376895E-04 +7.35510995652E-01 +4.56423483062E-01
2.67000000000E+09 +7.40382532069E-01 +3.20748858809E-01 -3.42367825469E-04 -2.66802310995E-04 -3.65636497033E-04 -2.64135148451E-04 +7.39850392601E-01 +4.45422914154E-01
2.67500000000E+09 +7.42572237071E-01 +3.07584613910E-01 -4.32511272406E-04 -2.55822747967E-04 -4.32459685133E-04 -1.53329476875E-04 +7.43947337335E-01 +4.34127446199E-01
2.68000000000E+09 +7.44026433058E-01 +2.93354649455E-01 -4.30068643602E-04 -3.74927288757E-05 -4.39386895593E-04 -4.95709319176E-05 +7.47430488702E-01 +4.22842944923E-01
2.68500000000E+09 +7.44728585082E-01 +2.78803411177E-01 -3.84990199576E-04 -2.62330248846E-05 -3.74534053990E-04 +4.94383785202E-07 +7.50301752613E-01 +4.11827673767E-01
2.69000000000E+09 +7.44930779374E-01 +2.64428505473E-01 -2.97726212318E-04 +3.12276029583E-05 -3.21863686273E-04 +8.98876884019E-05 +7.52746323016E-01 +4.00390698942E-01
2.69500000000E+09 +7.44928315795E-01 +2.50326214459E-01 -2.60177713294E-04 +5.16896196786E-05 -2.82862612936E-04 +5.60774944207E-05 +7.55384281058E-01 +3.88210135505E-01
2.70000000000E+09 +7.44894601772E-01 +2.36550760688E-01 -3.62615498522E-04 -1.03121548055E-04 -3.22042799658E-04 -1.02765277640E-04 +7.58370839421E-01 +3.75448183926E-01
2.70500000000E+09 +7.45058604659E-01 +2.23401967295E-01 -3.91985528751E-04 +1.86946249744E-05 -3.92332204565E-04 -2.75582207707E-05 +7.61216537949E-01 +3.62469907412E-01
2.71000000000E+09 +7.45532592470E-01 +2.10174854853E-01 -4.59971054681E-04 +1.36964311791E-04 -4.54490178014E-04 +1.06213311453E-04 +7.64215934958E-01 +3.49481280358E-01
2.71500000000E+09 +7.46135860315E-01 +1.96533690440E-01 -3.89733443451E-04 +2.51124487615E-04 -4.13770707615E-04 +3.26632479579E-04 +7.66681033018E-01 +3.36723013087E-01
2.72000000000E+09 +7.46586036675E-01 +1.82286737883E-01 -2.28788150773E-04 +1.59552914418E-04 -2.09197638376E-04 +1.81832306188E-04 +7.68454030369E-01 +3.24377622310E-01
2.72500000000E+09 +7.46420858201E-01 +1.66887647067E-01 -2.99420220852E-04 +1.34670349029E-04 -3.25126136758E-04 +1.16377958589E-04 +7.69992221309E-01 +3.11230613579E-01
2.73000000000E+09 +7.45038480952E-01 +1.50736201472E-01 -2.95239577777E-04 +3.33557354778E-04 -2.64858568981E-04 +2.59790540999E-04 +7.71253798940E-01 +2.97229958914E-01
2.73500000000E+09 +7.42386298042E-01 +1.33679894334E-01 -1.14687813689E-04 +1.41924294924E-04 -9.05951176273E-05 +1.24590317857E-04 +7.72286882679E-01 +2.82300386508E-01
2.74000000000E+09 +7.38866793853E-01 +1.16835658548E-01 -2.68639025180E-04 +6.86470598562E-05 -2.62146392262E-04 +6.05821643370E-05 +7.73352582245E-01 +2.67388433473E-01
2.74500000000E+09 +7.33798033604E-01 +9.93273032891E-02 -3.12616654102E-04 +1.58020428026E-04 -2.96738640286E-04 +1.00790609068E-04 +7.74262101761E-01 +2.52327250270E-01
2.75000000000E+09 +7.27985219513E-01 +8.28551383018E-02 -3.38963525976E-04 +2.31378712856E-04 -4.14122124367E-04 +1.98394528280E-04 +7.75160124372E-01 +2.37643288490E-01
2.75500000000E+09 +7.22200328622E-01 +6.65381577325E-02 -3.70849106814E-04 +1.97905162933E-04 -4.54279685293E-04 +1.96072836945E-04 +7.75068977691E-01 +2.22487888132E-01
2.76000000000E+09 +7.16581078189E-01 +5.03281762869E-02 -4.11025499377E-04 +2.89396944019E-04 -4.51138456732E-04 +3.17043970363E-04 +7.74002909563E-01 +2.07297046576E-01
2.76500000000E+09 +7.11150154456E-01 +3.39709924086E-02 -3.89745684081E-04 +4.27799909348E-04 -4.19957274064E-04 +4.87616515998E-04 +7.72906250929E-01 +1.91830423414E-01
2.77000000000E+09 +7.06422486884E-01 +1.72301960227E-02 -3.63856278414E-04 +5.84931770925E-04 -3.40284474336E-04 +6.59252240870E-04 +7.72184605195E-01 +1.75437296557E-01
2.77500000000E+09 +7.01897553918E-01 -7.73058849516E-04 -3.12210117043E-04 +5.33930242825E-04 -3.11857825224E-04 +5.78586860437E-04 +7.70945543329E-01 +1.58162428622E-01
2.78000000000E+09 +6.97599087674E-01 -1.93405198335E-02 -2.50465516617E-04 +6.82767313318E-04 -2.42292724849E-04 +7.54868971292E-04 +7.69523996645E-01 +1.40593884344E-01
2.78500000000E+09 +6.92309185742E-01 -3.94556177776E-02 -3.06735344614E-04 +7.61264627963E-04 -2.21718217642E-04 +7.70708416207E-04 +7.67229334871E-01 +1.23566239841E-01
2.79000000000E+09 +6.85953211308E-01 -5.98186069863E-02 -2.10023508445E-04 +1.01889853521E-03 -1.09502960112E-04 +1.03530709228E-03 +7.65058780341E-01 +1.06904488073E-01
2.79500000000E+09 +6.78059856101E-01 -8.01258549156E-02 +2.38903539571E-04 +1.21321756702E-03 +2.93058519773E-04 +1.12146563016E-03 +7.62169472015E-01 +8.87673118845E-02
2.80000000000E+09 +6.68647837392E-01 -9.92353940692E-02 +6.37800724377E-04 +9.53550277047E-04 +5.83674285213E-04 +9.35419644412E-04 +7.57805034174E-01 +6.99682244399E-02
2.80500000000E+09 +6.58810572310E-01 -1.16946313269E-01 +5.00348058732E-04 +5.22041213868E-04 +4.63081706716E-04 +5.34766175056E-04 +7.52826800443E-01 +5.09555959504E-02
2.81000000000E+09 +6.47951563735E-01 -1.33745327687E-01 +3.29742713978E-04 +6.88392820536E-04 +2.97730251408E-04 +7.10093372232E-04 +7.47441913520E-01 +3.10306205871E-02
2.81500000000E+09 +6.36612951146E-01 -1.49769886678E-01 +5.56256853315E-04 +9.39571437896E-04 +5.81083744063E-04 +9.43633700103E-04 +7.41089572366E-01 +1.07901965207E-02
2.82000000000E+09 +6.24069224965E-01 -1.65764273137E-01 +9.20879507998E-04 +8.09143101069E-04 +9.62257215689E-04 +7.39760239099E-04 +7.34204709104E-01 -9.96219194182E-03
2.82500000000E+09 +6.09963028626E-01 -1.81285479958E-01 +9.04240021374E-04 +5.46181162986E-04 +9.32869319345E-04 +4.50510295768E-04 +7.25290477592E-01 -3.08483675772E-02
2.83000000000E+09 +5.95022815920E-01 -1.97238870212E-01 +1.13023371283E-03 +5.57240390839E-04 +1.02664858814E-03 +5.16103338469E-04 +7.15348443444E-01 -5.12491573911E-02
2.83500000000E+09 +5.78881157076E-01 -2.14551921200E-01 +1.19800833892E-03 +3.42631410527E-04 +1.13832409453E-03 +4.24217385918E-04 +7.04610591728E-01 -7.14108749105E-02
2.84000000000E+09 +5.59486944467E-01 -2.32619874668E-01 +1.47992701797E-03 -2.08119691836E-05 +1.39810967368E-03 +7.90981835708E-05 +6.93315407808E-01 -9.19777115582E-02
2.84500000000E+09 +5.37606620539E-01 -2.50219301901E-01 +1.10520932634E-03 -2.83762726221E-04 +1.11528606529E-03 -2.97860498343E-04 +6.80706132680E-01 -1.12842449990E-01
2.85000000000E+09 +5.14840862802E-01 -2.66991783804E-01 +9.51025077236E-04 -3.80217270235E-04 +9.62987563156E-04 -3.43558747330E-04 +6.66288018605E-01 -1.33651574943E-01
2.85500000000E+09 +4.90764976173E-01 -2.83336706882E-01 +7.12405942477E-04 -1.49530322936E-04 +6.96591773088E-04 -1.40005184513E-04 +6.51309367054E-01 -1.53092495791E-01
2.86000000000E+09 +4.66373134430E-01 -2.98552981656E-01 +1.21845074009E-03 +9.99660651464E-05 +1.19060044009E-03 +1.37438405817E-04 +6.35297071020E-01 -1.73626008943E-01
2.86500000000E+09 +4.41688274564E-01 -3.12913417941E-01 +1.73897992332E-03 -5.66328114001E-04 +1.75206211379E-03 -4.77023122700E-04 +6.17587527777E-01 -1.93709641204E-01
2.87000000000E+09 +4.16146666084E-01 -3.25690972063E-01 +1.32382547418E-03 -1.31826869753E-03 +1.32718625687E-03 -1.29823938402E-03 +5.98691459081E-01 -2.13618672691E-01
2.87500000000E+09 +3.91276915428E-01 -3.36165782832E-01 +5.84280647109E-04 -1.35056907342E-03 +5.66865693677E-04 -1.37059346766E-03 +5.78221756419E-01 -2.32728037548E-01
2.88000000000E+09 +3.67399071106E-01 -3.46296703170E-01 +3.77130134971E-04 -1.10458245845E-03 +3.29142224641E-04 -1.02701391285E-03 +5.57455084535E-01 -2.51092459912E-01
2.88500000000E+09 +3.42215542940E-01 -3.56645312269E-01 +3.95886422806E-04 -7.32693909006E-04 +4.17358037861E-04 -7.25465964789E-04 +5.34951942784E-01 -2.69756467657E-01
2.89000000000E+09 +3.14487083262E-01 -3.65063881278E-01 +7.80123173928E-04 -1.08269688441E-03 +7.46493571378E-04 -1.02219259417E-03 +5.10733518140E-01 -2.87090008490E-01
2.89500000000E+09 +2.86243697550E-01 -3.71113428140E-01 +3.94776135956E-04 -1.39555537554E-03 +4.53271904117E-04 -1.35553379758E-03 +4.85453174345E-01 -3.05416934017E-01
2.90000000000E+09 +2.57402621553E-01 -3.75917109293E-01 +7.69715704567E-05 -1.34257768613E-03 +1.32900757214E-04 -1.31876924533E-03 +4.56589321116E-01 -3.22837389003E-01
2.90500000000E+09 +2.26780282487E-01 -3.79884322705E-01 +1.06623613807E-04 -1.28512147571E-03 +1.08650701646E-04 -1.32549957946E-03 +4.26998287019E-01 -3.37816411480E-01
2.91000000000E+09 +1.94999950033E-01 -3.80858028892E-01 -2.09420147151E-04 -1.69253048596E-03 -2.16999899505E-04 -1.66430621701E-03 +3.96872084716E-01 -3.52427542601E-01
2.91500000000E+09 +1.63113109582E-01 -3.80204568099E-01 -6.02433261714E-04 -1.34285763101E-03 -6.70458504641E-04 -1.26467354127E-03 +3.64417744022E-01 -3.65197174907E-01
2.92000000000E+09 +1.31079359189E-01 -3.77202785449E-01 -6.16637828150E-04 -1.32042069614E-03 -6.02234004719E-04 -1.24227916051E-03 +3.30751879773E-01 -3.75199341443E-01
2.92500000000E+09 +9.99057683548E-02 -3.72432274392E-01 -9.32125701535E-04 -1.35518055108E-03 -8.65535573620E-04 -1.29383690824E-03 +2.95827462372E-01 -3.82894874365E-01
2.93000000000E+09 +6.96628491313E-02 -3.66481136044E-01 -1.58193366820E-03 -1.07548173310E-03 -1.45211456828E-03 -1.12207040409E-03 +2.59905439509E-01 -3.89797245671E-01
2.93500000000E+09 +3.86129584151E-02 -3.60061652232E-01 -1.45549286744E-03 -2.21048619886E-04 -1.50350457687E-03 -2.31898615227E-04 +2.21297199323E-01 -3.95324011253E-01
2.94000000000E+09 +7.20867502318E-03 -3.49801776793E-01 -9.43526552710E-04 +8.65890514546E-05 -8.99954343797E-04 +6.78914174369E-05 +1.81497004797E-01 -3.98102590322E-01
2.94500000000E+09 -2.25050923317E-02 -3.37593523436E-01 -4.42064333122E-04 -3.80089940101E-04 -3.92244131932E-04 -3.88394387919E-04 +1.40513403853E-01 -3.98233623328E-01
2.95000000000E+09 -5.22585887819E-02 -3.23220253997E-01 -9.81557845464E-04 -9.48043490769E-04 -9.28123391766E-04 -1.03302601089E-03 +1.00639281728E-01 -3.94248817723E-01
2.95500000000E+09 -8.14295985529E-02 -3.06037088231E-01 -1.72314404581E-03 -3.86063914019E-04 -1.74000402184E-03 -5.11821982669E-04 +6.10932208667E-02 -3.88300592869E-01
2.96000000000E+09 -1.09397577855E-01 -2.86248892576E-01 -1.76581885104E-03 +4.12837077181E-04 -1.82159905331E-03 +4.15865552644E-04 +2.09203242742E-02 -3.78891317688E-01
2.96500000000E+09 -1.36551228894E-01 -2.64634879724E-01 -7.72936054163E-04 +1.02559854893E-03 -7.57100919989E-04 +1.05106583818E-03 -1.79665081652E-02 -3.67385325424E-01
2.97000000000E+09 -1.62692481353E-01 -2.39769093679E-01 -7.55830209279E-05 +2.01521034862E-04 -5.92721339286E-05 +1.48452091581E-04 -5.90019053812E-02 -3.53791260050E-01
2.97500000000E+09 -1.86202875800E-01 -2.13127254782E-01 -6.76237789266E-04 -4.17215708853E-04 -7.02921134558E-04 -4.14945941019E-04 -9.79849505801E-02 -3.36062511887E-01
2.98000000000E+09 -2.07637562458E-01 -1.85500580142E-01 -1.59645137313E-03 +1.53404027915E-04 -1.58791595771E-03 +1.43354421393E-04 -1.36710704630E-01 -3.16639997711E-01
2.98500000000E+09 -2.28233906295E-01 -1.58146496104E-01 -9.00298223612E-04 +1.00755412052E-03 -1.01230947469E-03 +9.89501997610E-04 -1.73490026545E-01 -2.93295741240E-01
2.99000000000E+09 -2.47507797315E-01 -1.28824183024E-01 -3.13704934033E-04 +4.57142410158E-04 -3.15428283144E-04 +4.46630155482E-04 -2.08662431374E-01 -2.67045290946E-01
2.99500000000E+09 -2.64872268232E-01 -9.95026978176E-02 -8.46983785446E-04 +1.37443183112E-04 -9.20148873484E-04 +1.66769968736E-04 -2.41671818168E-01 -2.36827794933E-01
3.00000000000E+09 -2.80883461159E-01 -6.86779591939E-02 -1.21240761292E-03 +5.64444012574E-04 -1.20962131251E-03 +6.41332547722E-04 -2.71048010746E-01 -2.05533773208E-01
3.00500000000E+09 -2.93271157593E-01 -3.82827439056E-02 -1.16947456463E-03 +1.14917372758E-03 -1.09916825977E-03 +1.18402051292E-03 -3.00147106893E-01 -1.72808858015E-01
3.01000000000E+09 -3.03968917170E-01 -8.85158554775E-03 -3.71973954697E-04 +1.41307101715E-03 -3.12967358985E-04 +1.34971606245E-03 -3.26125338715E-01 -1.37864060222E-01
3.01500000000E+09 -3.13032582561E-01 +2.05145570941E-02 +8.56133284264E-05 +1.19691692706E-03 +5.69084595466E-05 +1.19498136607E-03 -3.50046871163E-01 -1.01961886723E-01
3.02000000000E+09 -3.19422324865E-01 +5.06999012786E-02 +1.95350886266E-04 +7.10685081522E-04 +2.15479186071E-04 +7.11368444148E-04 -3.70261815300E-01 -6.37915622559E-02
3.02500000000E+09 -3.21662616671E-01 +8.01081024821E-02 -2.30153418161E-04 +4.91023397315E-04 -2.26394452544E-04 +4.85688892962E-04 -3.86995740934E-01 -2.47805271123E-02
3.03000000000E+09 -3.21894235187E-01 +1.07951221234E-01 -4.62379073767E-04 +1.10663563791E-03 -4.75708111657E-04 +1.10341580911E-03 -4.00321706104E-01 +1.46932507789E-02
3.03500000000E+09 -3.20803505062E-01 +1.35539170104E-01 +1.94743757056E-04 +1.41335637118E-03 +1.53326207908E-04 +1.33618846081E-03 -4.10716273427E-01 +5.43550255824E-02
3.04000000000E+09 -3.17356986794E-01 +1.63902691474E-01 +6.88404074088E-04 +5.81197022948E-04 +7.32708499010E-04 +6.19777399724E-04 -4.18502846236E-01 +9.34051222937E-02
3.04500000000E+09 -3.11519523396E-01 +1.91946009898E-01 +1.05503194589E-04 +6.82100645914E-04 +1.07868850411E-04 +7.02994870398E-04 -4.24107754309E-01 +1.32214099405E-01
3.05000000000E+09 -3.03395988989E-01 +2.19782601274E-01 +3.83606562005E-04 +7.03253180847E-04 +3.62638956403E-04 +7.17834962604E-04 -4.27567633920E-01 +1.70656267632E-01
3.05500000000E+09 -2.93742995246E-01 +2.46219750359E-01 +3.48582054407E-04 +8.70580702700E-04 +4.18405971870E-04 +9.02783576150E-04 -4.28443656136E-01 +2.08768517320E-01
3.06000000000E+09 -2.83494582398E-01 +2.72396242778E-01 +8.92526703512E-04 +5.65086659906E-04 +8.45907249126E-04 +4.63694439228E-04 -4.26940802460E-01 +2.46646491590E-01
3.06500000000E+09 -2.72761611468E-01 +2.98002293067E-01 +6.39797839049E-04 +1.90196314681E-04 +5.92889611161E-04 +1.60782476820E-04 -4.22593210941E-01 +2.83808675287E-01
3.07000000000E+09 -2.60694435645E-01 +3.23097623467E-01 +3.20579575810E-04 +1.93159139813E-04 +2.87206558250E-04 +2.23549105485E-04 -4.16065007578E-01 +3.19174818496E-01
