# Hz S RI R 50
! CMT, C1220, 16058040, 17.2.0/1
! Date: 15/08/2018 10:24:19
! Data: Format (Calibration Info)
! Freq                      S11: Re/Im (F2)                       S21: Re/Im (F2)                       S12: Re/Im (F2)                       S22: Re/Im (F2)            
2.50000000000E+09 +5.82085263313E-01 +6.36925549237E-01 +3.41791940942E-04 +1.02940336260E-04 +4.07787022595E-04 +1.27546930431E-04 +5.71386028352E-01 +7.18744533237E-01
2.50500000000E+09 +5.89131965272E-01 +6.29031509905E-01 +4.51089444467E-04 +1.07959923384E-05 +4.65666680814E-04 +2.88688286344E-06 +5.77308595129E-01 +7.13047999973E-01
2.51000000000E+09 +5.96686761013E-01 +6.20975758444E-01 +3.48689585896E-04 -1.05576079596E-04 +3.54406185158E-04 -9.48267872167E-05 +5.83156191898E-01 +7.07287879367E-01
2.51500000000E+09 +6.03769897201E-01 +6.12862990808E-01 +3.64185888571E-04 -7.90777206891E-05 +3.50786763089E-04 -9.22815247755E-05 +5.88394322076E-01 +7.01418080912E-01
2.52000000000E+09 +6.10540885518E-01 +6.04587127061E-01 +4.03992105402E-04 -6.90471814885E-05 +4.17472189608E-04 -1.05881620154E-04 +5.93518422959E-01 +6.94937396464E-01
2.52500000000E+09 +6.15968646366E-01 +5.96885716593E-01 +3.55246786778E-04 -1.99023905379E-04 +4.23037686750E-04 -1.91252395989E-04 +5.98995475314E-01 +6.88088066219E-01
2.53000000000E+09 +6.20967211657E-01 +5.89859333689E-01 +3.44332479704E-04 -3.01576347565E-04 +3.64547232949E-04 -3.14390403104E-04 +6.04837607833E-01 +6.80867121214E-01
2.53500000000E+09 +6.25259522638E-01 +5.83171510870E-01 +2.30050979131E-04 -2.93518459965E-04 +2.14025288605E-04 -3.22501487430E-04 +6.10363215341E-01 +6.73770018546E-01
2.54000000000E+09 +6.29164477999E-01 +5.76863101273E-01 +1.96809709793E-04 -3.05680415978E-04 +2.25017747461E-04 -2.74147987234E-04 +6.15903551074E-01 +6.67092353215E-01
2.54500000000E+09 +6.33333344714E-01 +5.70825065993E-01 +1.81464511937E-04 -2.38131056612E-04 +1.52617609483E-04 -2.35862190771E-04 +6.21251162515E-01 +6.60581496166E-01
2.55000000000E+09 +6.38052723889E-01 +5.64557418207E-01 +3.06827036602E-04 -2.67922243334E-04 +3.57671765796E-04 -2.47142286494E-04 +6.25777599108E-01 +6.54503669934E-01
2.55500000000E+09 +6.43013337470E-01 +5.57763493896E-01 +2.90108026595E-04 -4.93596708057E-04 +3.06750970571E-04 -5.32560761896E-04 +6.30351864828E-01 +6.48384642886E-01
2.56000000000E+09 +6.49172922976E-01 +5.50855523848E-01 +4.53560934849E-05 -5.19929890168E-04 +6.25751754074E-05 -6.48761825426E-04 +6.35161726274E-01 +6.41605323676E-01
2.56500000000E+09 +6.55481797009E-01 +5.42783855029E-01 +1.56505274771E-05 -4.59381593388E-04 -9.98972335013E-05 -4.90457886437E-04 +6.40619042020E-01 +6.34589717616E-01
2.57000000000E+09 +6.61588690639E-01 +5.34514356672E-01 -8.28499503323E-05 -4.79257943260E-04 -1.85608191806E-04 -4.69076410778E-04 +6.46024135966E-01 +6.26981292741E-01
2.57500000000E+09 +6.67592263841E-01 +5.25899372006E-01 -1.87946491100E-04 -3.57156109207E-04 -2.21182968228E-04 -2.77273840198E-04 +6.51405883134E-01 +6.19540206673E-01
2.58000000000E+09 +6.72553676986E-01 +5.17306030205E-01 -1.57245723930E-04 -3.31185006315E-04 -9.65320922887E-05 -2.62671221681E-04 +6.56614500786E-01 +6.12356580535E-01
2.58500000000E+09 +6.76822034031E-01 +5.08862690815E-01 -2.05065585345E-04 -3.78333138269E-04 -1.32116430365E-04 -3.17843937112E-04 +6.61636622086E-01 +6.04835948410E-01
2.59000000000E+09 +6.80596243113E-01 +5.00926124521E-01 -2.70823489626E-04 -2.52889474559E-04 -2.79321653302E-04 -2.88079862690E-04 +6.66598742139E-01 +5.97496157111E-01
2.59500000000E+09 +6.84376397460E-01 +4.92961885070E-01 -2.00265022162E-04 -1.63873933938E-04 -1.91713440491E-04 -1.86108032040E-04 +6.71805633026E-01 +5.89541617612E-01
2.60000000000E+09 +6.87814332520E-01 +4.84246940137E-01 -2.17152850750E-04 -1.49502685654E-04 -1.70046786226E-04 -1.16867054312E-04 +6.77200448000E-01 +5.80990104630E-01
2.60500000000E+09 +6.91481218403E-01 +4.75140365741E-01 -9.53734804450E-05 -1.28332682275E-04 -1.23594143243E-04 -1.25461461946E-04 +6.82694963702E-01 +5.72209838022E-01
2.61000000000E+09 +6.95505906643E-01 +4.64947430564E-01 -1.22772369271E-04 -2.65830580976E-04 -6.56180609272E-05 -2.66612321220E-04 +6.87744824205E-01 +5.63247651252E-01
2.61500000000E+09 +7.00139857630E-01 +4.53619376283E-01 -2.53828460787E-04 -2.03913069881E-04 -2.60346906621E-04 -2.72875788145E-04 +6.92472023714E-01 +5.54651255023E-01
2.62000000000E+09 +7.04807649995E-01 +4.40964988964E-01 -2.40607257504E-04 -1.11901152544E-04 -2.78052415679E-04 -1.35714539644E-04 +6.97049566060E-01 +5.45683469064E-01
2.62500000000E+09 +7.09456169760E-01 +4.27483013355E-01 -8.25871034776E-05 -9.96666174398E-05 -1.22859320667E-04 -8.98911660763E-05 +7.01584062497E-01 +5.36785273878E-01
2.63000000000E+09 +7.13590906812E-01 +4.13313718592E-01 -9.60555721457E-05 -2.36138308982E-04 -8.55490458740E-05 -1.86627197104E-04 +7.06141833532E-01 +5.27783124424E-01
2.63500000000E+09 +7.16958569135E-01 +3.99734881469E-01 -2.23627034294E-04 -2.67704962368E-04 -2.57829379794E-04 -2.53485372741E-04 +7.10810906070E-01 +5.18650962242E-01
2.64000000000E+09 +7.20135216162E-01 +3.87016739144E-01 -3.49462473523E-04 -1.98744477414E-04 -3.01068520236E-04 -1.47192844706E-04 +7.15472450959E-01 +5.08877001195E-01
2.64500000000E+09 +7.22980880259E-01 +3.75351035524E-01 -2.59886316858E-04 -1.56304497991E-04 -2.74463425227E-04 -1.21074548525E-04 +7.19848525669E-01 +4.99250636064E-01
2.65000000000E+09 +7.25484331809E-01 +3.64420546198E-01 -2.20013246084E-04 -1.52345840454E-04 -2.25482797871E-04 -1.41345372759E-04 +7.24067507254E-01 +4.89278964664E-01
2.65500000000E+09 +7.28197867335E-01 +3.53838431533E-01 -3.60933823509E-04 -2.55551588649E-04 -3.33983902339E-04 -2.37931122920E-04 +7.27701562339E-01 +4.78848966872E-01
2.66000000000E+09 +7.30908160219E-01 +3.43308836221E-01 -3.81754207183E-04 -1.42643436940E-04 -4.58512095230E-04 -2.14975520638E-04 +7.31659725052E-01 +4.67970585810E-01
2.66500000000E+09 +7.33586230606E-01 +3.32521722036E-01 -4.92905027019E-04 -1.54115062855E-04 -5.37648195674E-04 -1.62050870032E-04 +7.36007795509E-01 +4.56868138567E-01
2.67000000000E+09 +7.36307905507E-01 +3.20674297336E-01 -5.83326337509E-04 +4.95321150076E-05 -5.59901312497E-04 +6.81684349573E-05 +7.40354017218E-01 +4.45957572818E-01
2.67500000000E+09 +7.38588979095E-01 +3.07535758710E-01 -4.93170318933E-04 +5.98438945483E-05 -4.53540291740E-04 +5.92215414269E-05 +7.44488114622E-01 +4.34577063802E-01
2.68000000000E+09 +7.39953310859E-01 +2.93209625997E-01 -4.72567479569E-04 +1.39065098014E-04 -5.11320752428E-04 +1.25947175585E-04 +7.48108377937E-01 +4.23384435588E-01
2.68500000000E+09 +7.40235953031E-01 +2.79160230712E-01 -5.18129573138E-04 +1.63900480578E-04 -5.23568361804E-04 +1.58206400554E-04 +7.50839254730E-01 +4.12447301979E-01
2.69000000000E+09 +7.40470603241E-01 +2.64951709760E-01 -4.39650973322E-04 +3.55941094679E-04 -4.33894751315E-04 +3.23370397491E-04 +7.53778756339E-01 +4.00703678599E-01
2.69500000000E+09 +7.40568953794E-01 +2.51130535380E-01 -3.83646819694E-04 +3.46859632775E-04 -3.48720779198E-04 +3.62006338047E-04 +7.56331123063E-01 +3.88419121069E-01
2.70000000000E+09 +7.40596714886E-01 +2.37444808227E-01 -2.69475227243E-04 +3.86376771393E-04 -2.45314033493E-04 +3.66270271010E-04 +7.59235106857E-01 +3.75569880631E-01
2.70500000000E+09 +7.40675337253E-01 +2.24301366724E-01 -2.93692602384E-04 +2.87627054691E-04 -3.26727779020E-04 +2.67139219159E-04 +7.62262170734E-01 +3.62402796888E-01
2.71000000000E+09 +7.40851462501E-01 +2.11135662854E-01 -2.72282391440E-04 +4.13611646038E-04 -3.09579917881E-04 +3.48301280398E-04 +7.65302725301E-01 +3.49395266614E-01
2.71500000000E+09 +7.41211414165E-01 +1.98090797900E-01 -2.15378495134E-04 +5.04182280953E-04 -2.57358096526E-04 +5.11289607597E-04 +7.67754366322E-01 +3.36563233263E-01
2.72000000000E+09 +7.41733424356E-01 +1.84380061155E-01 -9.85580483983E-05 +3.98112936870E-04 -1.06735706827E-04 +5.07388858487E-04 +7.69506790462E-01 +3.24119764529E-01
2.72500000000E+09 +7.41905830671E-01 +1.69508338149E-01 -1.87843965515E-04 +3.89159168902E-04 -1.64438846346E-04 +4.48656566910E-04 +7.70952879576E-01 +3.10756387359E-01
2.73000000000E+09 +7.40686972099E-01 +1.53578339303E-01 -8.37832534243E-05 +6.15548560000E-04 -2.17904066882E-05 +5.38388586628E-04 +7.72303369982E-01 +2.96819562196E-01
2.73500000000E+09 +7.37953350419E-01 +1.36905442704E-01 +1.94675929344E-04 +4.32436405908E-04 +1.09499211463E-04 +3.81188457033E-04 +7.73184786764E-01 +2.81686531778E-01
2.74000000000E+09 +7.34128403775E-01 +1.20467267709E-01 +9.99534019550E-07 +3.42337286806E-04 -4.60086106086E-05 +2.94044838590E-04 +7.74292500196E-01 +2.66756010384E-01
2.74500000000E+09 +7.29506034687E-01 +1.03898567647E-01 +1.91072770603E-05 +4.02655773681E-04 -9.70656708562E-06 +4.11185012662E-04 +7.75207525899E-01 +2.51525278864E-01
2.75000000000E+09 +7.24226536042E-01 +8.76088375853E-02 +1.02640168854E-04 +3.53765473225E-04 +5.82637654722E-05 +3.22316655807E-04 +7.76016302467E-01 +2.36830487532E-01
2.75500000000E+09 +7.18773707725E-01 +7.13913656712E-02 -4.83922015168E-05 +2.79437552899E-04 -3.86818852292E-05 +2.94859540415E-04 +7.75877094125E-01 +2.21513977152E-01
2.76000000000E+09 +7.13196661310E-01 +5.53206581021E-02 -1.16094518592E-04 +3.38537584244E-04 -8.02073346281E-05 +3.55443810646E-04 +7.74897482617E-01 +2.06360884132E-01
2.76500000000E+09 +7.08274987570E-01 +3.96031163405E-02 -1.50632770335E-05 +5.11216158178E-04 -1.67303699162E-05 +5.20649809863E-04 +7.73662575381E-01 +1.90733631400E-01
2.77000000000E+09 +7.03947716506E-01 +2.30067650270E-02 +1.41988596558E-04 +5.51331328723E-04 +1.43438173770E-04 +5.70611294377E-04 +7.72700121433E-01 +1.74166614507E-01
2.77500000000E+09 +7.00111045865E-01 +5.54017524271E-03 +6.85646575785E-05 +4.88642718982E-04 +1.34682900475E-04 +5.15611381945E-04 +7.71530596627E-01 +1.56884023985E-01
2.78000000000E+09 +6.96470344444E-01 -1.33380317416E-02 +2.23024604686E-04 +4.81260300497E-04 +2.65198595599E-04 +5.77320487113E-04 +7.69983694420E-01 +1.39116982050E-01
2.78500000000E+09 +6.91418152434E-01 -3.32065514835E-02 +8.46313469715E-05 +4.55466671196E-04 +1.41249177049E-04 +4.15743360348E-04 +7.67638409210E-01 +1.21941230157E-01
2.79000000000E+09 +6.85528730019E-01 -5.34093312786E-02 +1.71838947354E-04 +7.50608561042E-04 +1.74996689398E-04 +7.24026877132E-04 +7.65265399602E-01 +1.05348055264E-01
2.79500000000E+09 +6.78128773131E-01 -7.32250682889E-02 +6.03211777065E-04 +7.17551187612E-04 +5.94326759536E-04 +6.51635012474E-04 +7.62290279543E-01 +8.68576561407E-02
2.80000000000E+09 +6.69588315180E-01 -9.21913069690E-02 +6.37739211764E-04 +5.00404082577E-04 +6.72859650468E-04 +4.60495893575E-04 +7.57638983507E-01 +6.80441842059E-02
2.80500000000E+09 +6.60251272191E-01 -1.10206207480E-01 +6.15965681946E-04 +2.27334143612E-04 +5.77276773957E-04 +2.66983508430E-04 +7.52382623910E-01 +4.87889467560E-02
2.81000000000E+09 +6.49739352992E-01 -1.26955822089E-01 +4.22376587531E-04 +3.24050788129E-04 +4.54761350506E-04 +3.92253852575E-04 +7.46463294406E-01 +2.89953644807E-02
2.81500000000E+09 +6.38720364348E-01 -1.43052384484E-01 +6.88829923359E-04 +5.35530118934E-04 +7.17177543903E-04 +4.90145136080E-04 +7.39913036732E-01 +8.67825341366E-03
2.82000000000E+09 +6.26780514587E-01 -1.58709135665E-01 +8.38507227236E-04 +2.61584730572E-04 +8.63857890769E-04 +2.35704718938E-04 +7.32594833767E-01 -1.17243124528E-02
2.82500000000E+09 +6.13617760162E-01 -1.74383436589E-01 +7.14891899490E-04 +2.24857605346E-04 +6.95192135941E-04 +1.85018467420E-04 +7.23476617020E-01 -3.25850903330E-02
2.83000000000E+09 +5.99351975615E-01 -1.90591488549E-01 +9.76834956123E-04 +2.74537861464E-04 +8.95998972158E-04 +2.10202768874E-04 +7.13268779840E-01 -5.27640908216E-02
2.83500000000E+09 +5.83859596198E-01 -2.08148605003E-01 +1.02974717542E-03 +1.31299132708E-04 +1.03529378495E-03 +1.43886135699E-04 +7.02364599840E-01 -7.25218073488E-02
2.84000000000E+09 +5.65206519880E-01 -2.26570537899E-01 +1.20344755400E-03 -2.46317214968E-04 +1.24670589425E-03 -1.63299627028E-04 +6.90840819723E-01 -9.29866408469E-02
2.84500000000E+09 +5.44371752878E-01 -2.44327804989E-01 +9.83532875520E-04 -5.32062090826E-04 +9.77380771889E-04 -5.30304679598E-04 +6.78055240784E-01 -1.13605342562E-01
2.85000000000E+09 +5.22561205510E-01 -2.61885776238E-01 +7.16453707909E-04 -5.34131842632E-04 +7.23235533976E-04 -5.69240982310E-04 +6.63400964894E-01 -1.33964870260E-01
2.85500000000E+09 +4.98959648004E-01 -2.78889140974E-01 +5.33820065350E-04 -2.64751074761E-04 +5.63184544590E-04 -2.61927948131E-04 +6.48281285204E-01 -1.53134968303E-01
2.86000000000E+09 +4.75165207340E-01 -2.94897532747E-01 +1.18128242533E-03 -1.40372641337E-04 +1.18429327552E-03 -1.10666911564E-04 +6.32443365924E-01 -1.73053849552E-01
2.86500000000E+09 +4.50659609306E-01 -3.10047787805E-01 +1.42270816324E-03 -9.57598602310E-04 +1.47345898276E-03 -9.70908577927E-04 +6.14756741414E-01 -1.93007931008E-01
2.87000000000E+09 +4.25757840187E-01 -3.23160856100E-01 +8.81697821392E-04 -1.44731029934E-03 +8.63923276086E-04 -1.46104667863E-03 +5.95734836664E-01 -2.12503909772E-01
2.87500000000E+09 +4.01501752460E-01 -3.35067165967E-01 +3.45466085024E-04 -1.50265506073E-03 +3.26330342839E-04 -1.52268789675E-03 +5.75680163395E-01 -2.31251831765E-01
2.88000000000E+09 +3.77344845105E-01 -3.46341020160E-01 +2.62524874209E-05 -1.19576502578E-03 -2.94902730021E-05 -1.18107145931E-03 +5.54856168786E-01 -2.49455951640E-01
2.88500000000E+09 +3.52023064536E-01 -3.57000283647E-01 +2.37808729417E-04 -8.99435001528E-04 +1.99757942387E-04 -8.80772656509E-04 +5.32622623557E-01 -2.67618514216E-01
2.89000000000E+09 +3.25411934991E-01 -3.66222353841E-01 +2.12427438744E-04 -1.33886594804E-03 +2.47641718747E-04 -1.25979363911E-03 +5.08590441838E-01 -2.84823550031E-01
2.89500000000E+09 +2.97438466854E-01 -3.73935448153E-01 +5.45064999148E-05 -1.30795461088E-03 +1.20894678103E-04 -1.26655652110E-03 +4.83314756876E-01 -3.02634617924E-01
2.90000000000E+09 +2.68294491047E-01 -3.80404932107E-01 -5.37048871885E-04 -1.52509921575E-03 -4.04866084714E-04 -1.52605636770E-03 +4.55037693235E-01 -3.19633732189E-01
2.90500000000E+09 +2.36761308971E-01 -3.84984096235E-01 -4.91069402795E-04 -8.74587384626E-04 -5.32446298266E-04 -9.46185539182E-04 +4.25809560902E-01 -3.34584236366E-01
2.91000000000E+09 +2.05049191455E-01 -3.86611247880E-01 -1.70802172557E-04 -1.32828637527E-03 -2.24873799593E-04 -1.31048311139E-03 +3.95926925189E-01 -3.48898016651E-01
2.91500000000E+09 +1.73106163498E-01 -3.86950922466E-01 -8.92727162824E-04 -1.58513221466E-03 -8.98640546568E-04 -1.44519371182E-03 +3.63929057980E-01 -3.61525903124E-01
2.92000000000E+09 +1.40723050616E-01 -3.85096254304E-01 -1.25828216849E-03 -8.34122781912E-04 -1.19460045238E-03 -7.89171578889E-04 +3.30707015113E-01 -3.71189485280E-01
2.92500000000E+09 +1.09069637381E-01 -3.81511644079E-01 -1.06046328432E-03 -9.64438039238E-04 -9.66149736095E-04 -9.40648280612E-04 +2.96596441460E-01 -3.78816412793E-01
2.93000000000E+09 +7.79153702065E-02 -3.76811265405E-01 -1.48179349104E-03 -6.15267197357E-04 -1.42926003611E-03 -7.21276501298E-04 +2.61166647235E-01 -3.85916529251E-01
2.93500000000E+09 +4.59786339034E-02 -3.70550271690E-01 -1.35355134936E-03 -1.21717866818E-04 -1.34694170407E-03 -1.38938781928E-04 +2.23064171536E-01 -3.91513337075E-01
2.94000000000E+09 +1.44770772488E-02 -3.61562943120E-01 -8.70116418780E-04 -5.09906850188E-05 -8.40742777011E-04 -4.51912169568E-05 +1.83915760743E-01 -3.94475221945E-01
2.94500000000E+09 -1.66542652874E-02 -3.50669679362E-01 -9.27848754070E-04 -5.59112820170E-04 -8.25278709363E-04 -4.96535587569E-04 +1.43367921200E-01 -3.94804668800E-01
2.95000000000E+09 -4.79759872696E-02 -3.37154449956E-01 -1.39350640474E-03 -5.19103882262E-04 -1.36852438154E-03 -5.39872134848E-04 +1.04179832646E-01 -3.91111342628E-01
2.95500000000E+09 -7.87606853028E-02 -3.20051360481E-01 -1.66611544004E-03 +8.59619201429E-05 -1.72787739258E-03 -4.32582672944E-06 +6.55109683419E-02 -3.85907459431E-01
2.96000000000E+09 -1.07840867285E-01 -3.00322298478E-01 -1.60819855227E-03 +3.84522200329E-04 -1.66151166461E-03 +4.29711668393E-04 +2.56787282236E-02 -3.77485671224E-01
2.96500000000E+09 -1.35813412923E-01 -2.78463635640E-01 -1.22157707036E-03 +9.36707372389E-04 -1.27396189001E-03 +9.32215958937E-04 -1.31769784735E-02 -3.66997248795E-01
2.97000000000E+09 -1.62679622246E-01 -2.54369190250E-01 -6.51937060378E-04 +8.62156002636E-04 -6.62520310053E-04 +8.95362482495E-04 -5.43697630298E-02 -3.54351227252E-01
2.97500000000E+09 -1.88185272790E-01 -2.27940648837E-01 -6.93454958738E-04 +2.88656432890E-04 -6.67547495427E-04 +3.02198057488E-04 -9.39869182224E-02 -3.37142039696E-01
2.98000000000E+09 -2.11718836312E-01 -2.00101030309E-01 -1.24563081265E-03 +7.88373907150E-04 -1.29837429793E-03 +7.23592083573E-04 -1.33073333962E-01 -3.18068725772E-01
2.98500000000E+09 -2.33794798371E-01 -1.70917048727E-01 -6.83956841958E-04 +1.17897249819E-03 -8.04630412715E-04 +1.17597608532E-03 -1.70295318774E-01 -2.94811785691E-01
2.99000000000E+09 -2.53180628116E-01 -1.40882606635E-01 -4.47184687663E-04 +8.62744785790E-04 -5.09073932841E-04 +8.97204349105E-04 -2.05499189203E-01 -2.68960562983E-01
2.99500000000E+09 -2.71170522652E-01 -1.11612852292E-01 -7.54195970254E-04 +8.03213010948E-04 -7.92084081944E-04 +8.87580096875E-04 -2.38715312362E-01 -2.39009296336E-01
3.00000000000E+09 -2.88301506929E-01 -8.07932538793E-02 -8.37454439803E-04 +1.46329859309E-03 -7.61451664491E-04 +1.51132420632E-03 -2.68380164026E-01 -2.08096816074E-01
3.00500000000E+09 -3.02287156340E-01 -4.98773188818E-02 -1.78261323136E-04 +1.60636695683E-03 -7.73897604999E-05 +1.58560443704E-03 -2.97882714619E-01 -1.75892892927E-01
3.01000000000E+09 -3.14282710179E-01 -1.93004869192E-02 +3.00775777730E-04 +1.35336863558E-03 +2.72045109651E-04 +1.29770645623E-03 -3.24560396791E-01 -1.41030646632E-01
3.01500000000E+09 -3.23577855355E-01 +1.14276561428E-02 +6.60778955560E-04 +1.28974856325E-03 +5.97618045017E-04 +1.24692943104E-03 -3.48954600950E-01 -1.04882551383E-01
3.02000000000E+09 -3.30217778276E-01 +4.19936802733E-02 +5.93530629739E-04 +4.86890849731E-04 +5.30435718512E-04 +5.36803051319E-04 -3.69309926116E-01 -6.66891373539E-02
3.02500000000E+09 -3.33509686273E-01 +7.24036119613E-02 +2.74941376939E-04 +6.89232312243E-04 +2.03722102957E-04 +7.34654257450E-04 -3.86022423055E-01 -2.78231842756E-02
3.03000000000E+09 -3.34283474358E-01 +1.01751426973E-01 +2.64377098765E-04 +5.94696994565E-04 +3.04587852206E-04 +5.57512849978E-04 -3.99770726881E-01 +1.13104044304E-02
3.03500000000E+09 -3.32993441254E-01 +1.30765827113E-01 +9.07036421766E-05 +1.08719449614E-03 +5.88224082285E-05 +1.09626947283E-03 -4.10466884564E-01 +5.08376710087E-02
3.04000000000E+09 -3.29712861170E-01 +1.60064810914E-01 +9.78430187848E-04 +7.13266539564E-04 +9.46437443081E-04 +7.43471411620E-04 -4.18894937344E-01 +8.95480098179E-02
3.04500000000E+09 -3.23801572988E-01 +1.89294847417E-01 +5.66683687693E-04 +4.40663251571E-04 +5.83823765371E-04 +5.12615508665E-04 -4.25435568354E-01 +1.28684015542E-01
3.05000000000E+09 -3.15740896140E-01 +2.18126919270E-01 +5.78753910142E-04 +6.39108798387E-04 +6.51050612195E-04 +6.31136234619E-04 -4.29222696055E-01 +1.67608574847E-01
3.05500000000E+09 -3.06093235648E-01 +2.46049685435E-01 +8.63671165960E-04 +5.24769078867E-04 +8.86799370031E-04 +4.79723208540E-04 -4.30422905789E-01 +2.05792300728E-01
3.06000000000E+09 -2.95435456906E-01 +2.73318398302E-01 +8.74853761837E-04 +4.10852981273E-05 +8.56714433188E-04 +6.65630450768E-07 -4.29161101436E-01 +2.44360098374E-01
3.06500000000E+09 -2.83801164310E-01 +3.00448603210E-01 +4.58306408277E-04 -7.73465897257E-05 +4.03663466151E-04 -6.28262481163E-05 -4.24973845621E-01 +2.81682991095E-01
3.07000000000E+09 -2.70362833159E-01 +3.25742598729E-01 +2.37691834828E-04 +3.67654926000E-04 +1.89105670868E-04 +3.80574701502E-04 -4.18616055711E-01 +3.17354718280E-01
