# Hz S RI R 50
! CMT, C1220, 16058040, 17.2.0/1
! Date: 14/08/2018 11:54:55
! Data: Format (Calibration Info)
! Freq                      S11: Re/Im (F2)                       S21: Re/Im (F2)                       S12: Re/Im (F2)                       S22: Re/Im (F2)            
1.00000000000E+09 -6.43279005504E-01 +7.10799512798E-01 -1.06066800574E-05 +1.24216757666E-05 -4.18020288996E-05 -2.84352486585E-05 -7.49964438011E-01 +6.26858427378E-01
1.00500000000E+09 -6.36264949710E-01 +7.15683090188E-01 +1.33644435012E-06 +3.63071557768E-05 -4.29143009703E-05 +1.87233185969E-07 -7.46544366221E-01 +6.30906679828E-01
1.01000000000E+09 -6.30289015056E-01 +7.20142701029E-01 -5.56446238726E-05 -1.39770185068E-07 -5.65611629116E-05 +2.11588455676E-05 -7.42797927723E-01 +6.34597422968E-01
1.01500000000E+09 -6.25931010733E-01 +7.23904504085E-01 +2.41669745551E-05 +1.74299748924E-05 -5.92313428794E-05 -9.27216817399E-06 -7.39612691541E-01 +6.38443922329E-01
1.02000000000E+09 -6.22780911281E-01 +7.27204869067E-01 -3.81785146526E-05 +1.04999907176E-05 +1.16212360586E-05 -3.50511561352E-05 -7.36012357179E-01 +6.41933023538E-01
1.02500000000E+09 -6.20622261767E-01 +7.29639171809E-01 +2.26475843946E-05 +1.91464091842E-06 +1.03896156058E-05 +2.61054030985E-05 -7.33081330276E-01 +6.45786618024E-01
1.03000000000E+09 -6.19148332518E-01 +7.32083968572E-01 -2.02763891055E-05 +7.03161622062E-06 -4.48234598060E-05 +1.49316321901E-05 -7.29372550361E-01 +6.49520466495E-01
1.03500000000E+09 -6.16926816439E-01 +7.34470849849E-01 -2.91883121018E-05 +5.28793190759E-05 -4.50475602261E-05 -6.17515834020E-07 -7.25709695386E-01 +6.53428264745E-01
1.04000000000E+09 -6.13336777718E-01 +7.37262916052E-01 -3.37339971505E-05 +3.24585840003E-05 -3.09866325113E-05 +2.28651693356E-05 -7.22058769807E-01 +6.57038588517E-01
1.04500000000E+09 -6.08335225292E-01 +7.40774586758E-01 -7.94840561650E-06 +6.60252095202E-05 -4.30662136140E-05 +3.79261081162E-05 -7.18558854347E-01 +6.60641878250E-01
1.05000000000E+09 -6.01590908028E-01 +7.44837449872E-01 -7.01490704010E-05 +3.28795595139E-05 -1.82871948016E-05 +7.51618678185E-05 -7.14976036424E-01 +6.64070868846E-01
1.05500000000E+09 -5.93611293856E-01 +7.49237917979E-01 -4.69516291842E-05 +6.28877357339E-06 -3.30884647260E-05 +4.10055506447E-05 -7.11662530055E-01 +6.67633837695E-01
1.06000000000E+09 -5.85156565494E-01 +7.54309564125E-01 -4.28052442142E-05 +7.98526268073E-05 -3.03178342181E-05 +1.13607363069E-04 -7.08370323141E-01 +6.71278069203E-01
1.06500000000E+09 -5.77117934764E-01 +7.59241885984E-01 -2.97967406990E-05 +4.59180614753E-05 -4.36703551715E-05 +2.59923860740E-05 -7.04637967039E-01 +6.75005831172E-01
1.07000000000E+09 -5.70141147221E-01 +7.63345928008E-01 -2.97515894551E-05 +5.38776154179E-05 -7.13805919762E-06 +9.76228643769E-05 -7.00655068782E-01 +6.78782147471E-01
1.07500000000E+09 -5.64682112621E-01 +7.67076849255E-01 -8.57687971215E-07 +6.82141419758E-05 +4.68963544012E-05 +1.12406569652E-04 -6.96269129902E-01 +6.82156276580E-01
1.08000000000E+09 -5.60899188935E-01 +7.70195683165E-01 +1.64960016988E-05 +5.39720364123E-05 +1.15945511531E-05 +7.27636690229E-05 -6.92293023727E-01 +6.86086025843E-01
1.08500000000E+09 -5.58699279058E-01 +7.72676921668E-01 +1.55397592642E-05 +8.19110557661E-05 +3.02868984694E-05 +5.44086256768E-05 -6.88203715468E-01 +6.89849358221E-01
1.09000000000E+09 -5.56677430526E-01 +7.74728139922E-01 +6.07757294918E-06 +6.04631675339E-05 +8.73931820304E-06 +4.76103566923E-05 -6.84647437952E-01 +6.93777455008E-01
1.09500000000E+09 -5.54718405290E-01 +7.76691690697E-01 +9.01966803887E-06 +2.95081398861E-05 -5.61040887297E-06 +7.63224867515E-05 -6.80641547817E-01 +6.97572197206E-01
1.10000000000E+09 -5.51726000682E-01 +7.78837202782E-01 +3.34951784336E-05 +5.96272073931E-05 +3.30673648013E-07 +2.52493555387E-05 -6.76697843233E-01 +7.01306953674E-01
1.10500000000E+09 -5.47266881739E-01 +7.81575005155E-01 +1.40440832516E-05 +4.54744265236E-05 -3.83051192900E-06 +4.57986739321E-05 -6.72309972013E-01 +7.04927317469E-01
1.11000000000E+09 -5.41122457311E-01 +7.84807717900E-01 -2.32505061621E-06 +6.71431147279E-05 +4.05378905948E-06 +8.36380230435E-05 -6.68152390770E-01 +7.08312597507E-01
1.11500000000E+09 -5.33557581292E-01 +7.88723421066E-01 +4.66125062361E-05 +4.97377191057E-05 +5.34712264072E-05 +8.10130762318E-05 -6.63980884924E-01 +7.11684630088E-01
1.12000000000E+09 -5.25598991510E-01 +7.92773098514E-01 +6.96005799177E-05 +3.54878308262E-05 +9.59845130340E-05 +5.74088894905E-05 -6.59894741194E-01 +7.15341148057E-01
1.12500000000E+09 -5.17660624346E-01 +7.96711799465E-01 +4.20455148653E-05 +5.95335091957E-05 +2.60437159300E-05 +6.52303621920E-05 -6.55594382084E-01 +7.19275044682E-01
1.13000000000E+09 -5.10608028447E-01 +8.00310568990E-01 +2.87769859300E-05 +5.16728757153E-05 +6.11378832060E-05 +3.48574428234E-05 -6.51188768508E-01 +7.23071864421E-01
1.13500000000E+09 -5.04636141002E-01 +8.03229641087E-01 +6.70962118683E-05 +3.87043099730E-05 +3.54997257953E-05 +6.41664964364E-05 -6.46704653532E-01 +7.26961334572E-01
1.14000000000E+09 -4.99885987638E-01 +8.06021772986E-01 +8.80347782192E-05 +5.09272694095E-05 +3.14248088277E-05 +5.87321733177E-05 -6.41999538571E-01 +7.30387658764E-01
1.14500000000E+09 -4.96207097429E-01 +8.08157296110E-01 +6.68912111846E-05 +5.70286265392E-05 +6.12754951407E-05 +7.53261357483E-05 -6.37366268073E-01 +7.33817080459E-01
1.15000000000E+09 -4.92720530363E-01 +8.09663669808E-01 +9.99720865709E-05 +2.45545358116E-05 +7.57986016369E-05 +7.13963771215E-05 -6.32739049509E-01 +7.37366053691E-01
1.15500000000E+09 -4.89323851412E-01 +8.11860028723E-01 +9.26636586276E-05 +7.14346562882E-05 +1.41005846021E-04 +1.10419491041E-05 -6.27812285519E-01 +7.41168383988E-01
1.16000000000E+09 -4.84574842227E-01 +8.13916632358E-01 +9.11929068247E-05 +7.05100892421E-05 +1.41894232812E-04 +8.29958614778E-05 -6.22989110290E-01 +7.45116354860E-01
1.16500000000E+09 -4.78570490374E-01 +8.16663764596E-01 +9.67144819671E-05 +7.16560951297E-05 +8.17402856201E-05 +7.07141069221E-05 -6.18016237581E-01 +7.48564727682E-01
1.17000000000E+09 -4.71291221855E-01 +8.19832272363E-01 +1.24912232784E-04 +8.28217267990E-05 +1.22320438958E-04 +6.62869372237E-05 -6.12401988140E-01 +7.51965930214E-01
1.17500000000E+09 -4.62931319196E-01 +8.23289023841E-01 +1.48173184335E-04 +4.45133349226E-05 +1.72102883031E-04 -1.15761469066E-05 -6.06762010092E-01 +7.55111608524E-01
1.18000000000E+09 -4.54672740263E-01 +8.26874776428E-01 +1.77977302688E-04 +6.28440058630E-07 +2.08424639258E-04 +4.73030537791E-05 -6.01059516619E-01 +7.58308859163E-01
1.18500000000E+09 -4.46401297722E-01 +8.30106082964E-01 +1.79057550373E-04 -1.69771405470E-05 +1.77371432575E-04 -1.98101502159E-06 -5.95164202850E-01 +7.61346711200E-01
1.19000000000E+09 -4.39004939047E-01 +8.32687805394E-01 +2.24918606609E-04 +1.91645702400E-05 +2.08398383947E-04 -2.00075837611E-05 -5.88981425551E-01 +7.63872059024E-01
1.19500000000E+09 -4.33090053863E-01 +8.34877185202E-01 +2.34011413279E-04 -3.16203209240E-05 +2.51691302818E-04 -3.72737040370E-05 -5.82941783244E-01 +7.65156909619E-01
1.20000000000E+09 -4.28571318531E-01 +8.35954976859E-01 +2.30891450378E-04 -1.13103594033E-04 +2.42534391144E-04 -1.37485955353E-04 -5.78496380052E-01 +7.65374025581E-01
1.20500000000E+09 -4.24766088600E-01 +8.37353233255E-01 +2.06085316783E-04 -1.97176443159E-04 +1.79825381582E-04 -1.54700818967E-04 -5.76188618351E-01 +7.66151169523E-01
1.21000000000E+09 -4.20839962571E-01 +8.38767500928E-01 +1.37341962003E-04 -2.43869421831E-04 +1.66561973490E-04 -1.62893299855E-04 -5.74304553042E-01 +7.69016083104E-01
1.21500000000E+09 -4.15692950619E-01 +8.40497314541E-01 +1.51259469088E-04 -1.55285995463E-04 +1.25054044284E-04 -2.15504612388E-04 -5.71517083975E-01 +7.73587915753E-01
1.22000000000E+09 -4.09224662504E-01 +8.42694462950E-01 +7.35554464068E-05 -1.53135477604E-04 +8.65899250691E-05 -1.81449276123E-04 -5.67369113910E-01 +7.78842675399E-01
1.22500000000E+09 -4.00934364371E-01 +8.45476752102E-01 +1.28823557957E-04 -1.85234973222E-04 +1.20862095631E-04 -1.93025754827E-04 -5.62301449905E-01 +7.83991196545E-01
1.23000000000E+09 -3.91422059594E-01 +8.48595595554E-01 +1.10591124312E-04 -1.65833774816E-04 +9.86839337828E-05 -1.71755985337E-04 -5.56468570851E-01 +7.88529488873E-01
1.23500000000E+09 -3.81284678948E-01 +8.52106508065E-01 +8.50916069366E-05 -2.08990488627E-04 +9.14170128160E-05 -1.78236849349E-04 -5.50727860920E-01 +7.92967974850E-01
1.24000000000E+09 -3.71037311383E-01 +8.55766748882E-01 +8.96882463774E-05 -1.98000163621E-04 +7.41621998856E-05 -2.38525514546E-04 -5.44617232268E-01 +7.96769731321E-01
1.24500000000E+09 -3.61826893883E-01 +8.59747409873E-01 +6.20048799119E-05 -2.73293071719E-04 +2.37738448110E-05 -2.10441247724E-04 -5.38324271769E-01 +8.00668427981E-01
1.25000000000E+09 -3.53476096541E-01 +8.62932753250E-01 +6.62287307105E-05 -2.77743249095E-04 +9.49083754298E-05 -2.26320909207E-04 -5.31633168136E-01 +8.04929855142E-01
1.25500000000E+09 -3.46841938797E-01 +8.65450355557E-01 +1.86646512184E-05 -2.99423627843E-04 +5.29398529613E-05 -3.00588450122E-04 -5.24862054777E-01 +8.08983430160E-01
1.26000000000E+09 -3.41190046490E-01 +8.67353916163E-01 -8.61001962002E-06 -2.65738742835E-04 +2.13245751378E-06 -3.36064958670E-04 -5.18154247970E-01 +8.13149570924E-01
1.26500000000E+09 -3.36253761990E-01 +8.68860346164E-01 -1.24426844876E-05 -3.29858252213E-04 -3.85341695027E-05 -3.51058195882E-04 -5.11110798068E-01 +8.17073898060E-01
1.27000000000E+09 -3.30933897655E-01 +8.70071637918E-01 -7.61769432972E-05 -3.81741772250E-04 -5.48644447117E-05 -3.99535683402E-04 -5.04388852629E-01 +8.20911179587E-01
1.27500000000E+09 -3.24514589911E-01 +8.71417091531E-01 -1.55517638027E-04 -3.60034079679E-04 -1.57092044247E-04 -3.67744007389E-04 -4.97341408003E-01 +8.24308093673E-01
1.28000000000E+09 -3.16205561562E-01 +8.73080032373E-01 -1.39414798716E-04 -3.12762331471E-04 -1.86933104388E-04 -3.81863070784E-04 -4.90341002347E-01 +8.27927965840E-01
1.28500000000E+09 -3.05929070920E-01 +8.75162513221E-01 -1.74078071342E-04 -3.09666965317E-04 -1.60665023943E-04 -3.45067405462E-04 -4.82793968035E-01 +8.31546506407E-01
1.29000000000E+09 -2.94182604029E-01 +8.77655362077E-01 -2.38470437550E-04 -2.95550505020E-04 -2.47743178350E-04 -3.11389690192E-04 -4.75434651022E-01 +8.35198858864E-01
1.29500000000E+09 -2.81707813284E-01 +8.80496618887E-01 -2.24164193587E-04 -3.48647069339E-04 -2.82572206259E-04 -3.22517278485E-04 -4.67441245288E-01 +8.38816567724E-01
1.30000000000E+09 -2.69540372979E-01 +8.83670947285E-01 -2.71306415114E-04 -3.63952916036E-04 -3.11171473092E-04 -3.01557751216E-04 -4.59690298479E-01 +8.42332023159E-01
1.30500000000E+09 -2.58222272152E-01 +8.86766770259E-01 -3.97212154840E-04 -3.40237447103E-04 -3.95947549498E-04 -2.77115498317E-04 -4.51361257633E-01 +8.45790366888E-01
1.31000000000E+09 -2.48454883810E-01 +8.89198792456E-01 -4.35906853329E-04 -2.88625078507E-04 -3.88486078190E-04 -2.48949966152E-04 -4.43029926001E-01 +8.49179191422E-01
1.31500000000E+09 -2.40584341675E-01 +8.91169589505E-01 -4.34192689496E-04 -1.84857226407E-04 -4.53353485904E-04 -2.32580622149E-04 -4.34435013483E-01 +8.52532706418E-01
1.32000000000E+09 -2.34279479247E-01 +8.92471722927E-01 -4.60187274788E-04 -1.85452041107E-04 -4.94662023292E-04 -1.79956221552E-04 -4.25212375564E-01 +8.56113117908E-01
1.32500000000E+09 -2.28446309113E-01 +8.93023937492E-01 -4.77267863728E-04 -1.69228580800E-04 -4.90707747304E-04 -1.02310105123E-04 -4.15438232274E-01 +8.59368539729E-01
1.33000000000E+09 -2.22047122305E-01 +8.93354140532E-01 -4.80846039868E-04 -1.36115345291E-04 -5.32054329971E-04 -1.19106171275E-04 -4.05785882938E-01 +8.62618198384E-01
1.33500000000E+09 -2.13876306381E-01 +8.93261802058E-01 -5.38324316701E-04 -1.02820142658E-04 -5.25349657559E-04 -4.70942941373E-05 -3.95728338310E-01 +8.65903558716E-01
1.34000000000E+09 -2.03196814599E-01 +8.93331666995E-01 -6.38758030478E-04 -7.07033890836E-05 -5.62876614220E-04 -5.12702410870E-05 -3.85443728639E-01 +8.69243719603E-01
1.34500000000E+09 -1.89825481067E-01 +8.93355436736E-01 -6.71773887766E-04 -4.88974831876E-05 -5.91044564779E-04 -1.13040598790E-05 -3.74538424043E-01 +8.72606761929E-01
1.35000000000E+09 -1.74418460259E-01 +8.93283106070E-01 -7.43563107477E-04 +6.97862046492E-05 -6.75119148170E-04 +5.31916112962E-05 -3.63538825863E-01 +8.75635747589E-01
1.35500000000E+09 -1.57857263433E-01 +8.93378186905E-01 -7.15999437797E-04 +1.56400702848E-04 -7.23697722442E-04 +1.61375230334E-04 -3.51769944223E-01 +8.78254776552E-01
1.36000000000E+09 -1.40926370801E-01 +8.93684180238E-01 -6.95063926558E-04 +2.47016804794E-04 -6.72159583101E-04 +2.35367605886E-04 -3.39815144478E-01 +8.80894038970E-01
1.36500000000E+09 -1.25009580649E-01 +8.94116120540E-01 -7.01359964687E-04 +2.74469180865E-04 -6.41917014246E-04 +2.52001293577E-04 -3.27610323182E-01 +8.83470498229E-01
1.37000000000E+09 -1.10373189465E-01 +8.94318232378E-01 -7.41794159265E-04 +3.24166527936E-04 -7.07929385427E-04 +3.05673045368E-04 -3.14717139118E-01 +8.85800938780E-01
1.37500000000E+09 -9.79286444500E-02 +8.94423849474E-01 -8.17514967045E-04 +3.85693798275E-04 -8.21998343623E-04 +2.85235995204E-04 -3.00775907709E-01 +8.88094547305E-01
1.38000000000E+09 -8.66834693788E-02 +8.94010036334E-01 -8.65106976992E-04 +5.22442136664E-04 -9.50683262636E-04 +4.32957384548E-04 -2.86116056311E-01 +8.89795787750E-01
1.38500000000E+09 -7.57403110415E-02 +8.92931530639E-01 -7.88882024701E-04 +7.12157491236E-04 -9.99432660996E-04 +6.87967944980E-04 -2.70784908844E-01 +8.91532430473E-01
1.39000000000E+09 -6.42478173505E-02 +8.91167041798E-01 -7.28788819789E-04 +7.67168765653E-04 -8.80183464275E-04 +9.30219718855E-04 -2.54938001587E-01 +8.92932804990E-01
1.39500000000E+09 -5.06515830753E-02 +8.88678469588E-01 -8.14226592128E-04 +8.66771440582E-04 -8.13300805642E-04 +1.06716538171E-03 -2.38085335119E-01 +8.93558381731E-01
1.40000000000E+09 -3.44975503136E-02 +8.84919852523E-01 -7.96771474382E-04 +1.06015441276E-03 -6.82595886053E-04 +1.15495084082E-03 -2.20513540927E-01 +8.93974205605E-01
1.40500000000E+09 -1.58111370666E-02 +8.80292663229E-01 -6.29621290635E-04 +1.19781812049E-03 -5.64615353919E-04 +1.21801666648E-03 -2.01790424110E-01 +8.93599336913E-01
1.41000000000E+09 +5.02304416865E-03 +8.74913776280E-01 -6.00817583460E-04 +1.23928798867E-03 -6.19469357694E-04 +1.28289617573E-03 -1.81602535508E-01 +8.92812987163E-01
1.41500000000E+09 +2.73362205315E-02 +8.68719537256E-01 -5.71423087160E-04 +1.43815980594E-03 -6.31150006949E-04 +1.48769718584E-03 -1.60296628868E-01 +8.91230706487E-01
1.42000000000E+09 +5.04130644403E-02 +8.62086598933E-01 -5.24634360325E-04 +1.59987700537E-03 -5.65938168286E-04 +1.75579429073E-03 -1.37415304552E-01 +8.88564661030E-01
1.42500000000E+09 +7.29699903145E-02 +8.54664970440E-01 -4.69922262431E-04 +1.89842465288E-03 -4.98261614415E-04 +2.15684880837E-03 -1.13834214258E-01 +8.84722905683E-01
1.43000000000E+09 +9.48253762600E-02 +8.46425389686E-01 -2.00113800887E-04 +2.31986878425E-03 +5.96030860441E-06 +2.52761406719E-03 -8.89848386891E-02 +8.79728119806E-01
1.43500000000E+09 +1.15867422318E-01 +8.37004872946E-01 +2.19384856154E-04 +2.55374240085E-03 +4.36555399623E-04 +2.59380897389E-03 -6.26949588645E-02 +8.72945558410E-01
1.44000000000E+09 +1.37040050697E-01 +8.26269886496E-01 +5.80647377639E-04 +2.68307640278E-03 +7.76463053183E-04 +2.70463710342E-03 -3.49215163625E-02 +8.64078305650E-01
1.44500000000E+09 +1.59512390107E-01 +8.13102598380E-01 +1.06865085066E-03 +2.74305978386E-03 +1.23961480034E-03 +2.69541916158E-03 -4.83456667750E-03 +8.52775196513E-01
1.45000000000E+09 +1.83762567880E-01 +7.96301271790E-01 +1.15537149911E-03 +2.72409081833E-03 +1.39393544186E-03 +2.73187223727E-03 +2.70100380880E-02 +8.37685684209E-01
1.45500000000E+09 +2.10120397917E-01 +7.75356703886E-01 +1.45734979317E-03 +3.20357806673E-03 +1.75460322291E-03 +3.10421653255E-03 +5.94481925115E-02 +8.19451323952E-01
1.46000000000E+09 +2.38880178829E-01 +7.49820714388E-01 +2.26382599735E-03 +3.76344871915E-03 +2.51058643560E-03 +3.36811367820E-03 +9.38884012280E-02 +7.98476860860E-01
1.46500000000E+09 +2.69401404013E-01 +7.19711212268E-01 +3.47155347134E-03 +3.95275913645E-03 +3.42061919600E-03 +3.42832715003E-03 +1.30324438682E-01 +7.71500169857E-01
1.47000000000E+09 +3.01247917156E-01 +6.84109287896E-01 +5.05918673952E-03 +3.70537341313E-03 +4.62065181947E-03 +3.38661881825E-03 +1.67042180354E-01 +7.37490359317E-01
1.47500000000E+09 +3.32616000310E-01 +6.42747426244E-01 +6.26340958691E-03 +2.67871001464E-03 +5.92064053906E-03 +2.81459945602E-03 +2.03327550496E-01 +6.96444571879E-01
1.48000000000E+09 +3.61614759157E-01 +5.94777415690E-01 +7.08639462628E-03 +1.65278396195E-03 +7.10988834960E-03 +1.82945881049E-03 +2.38929431923E-01 +6.47272171030E-01
1.48500000000E+09 +3.85644754482E-01 +5.39854619743E-01 +7.96086145176E-03 +7.50780072130E-04 +8.22169130776E-03 +6.66613471961E-04 +2.72094904033E-01 +5.89689197741E-01
1.49000000000E+09 +4.02838868971E-01 +4.78439590046E-01 +9.65570896518E-03 -6.03521299654E-04 +9.58113313536E-03 -1.05201937093E-03 +3.01153088261E-01 +5.20845572814E-01
1.49500000000E+09 +4.12041959885E-01 +4.10414782896E-01 +1.05488895648E-02 -3.31451052272E-03 +1.00088986454E-02 -3.54816821151E-03 +3.19223821064E-01 +4.40414450883E-01
1.50000000000E+09 +4.11477560794E-01 +3.33829993394E-01 +1.11017413679E-02 -6.22076929423E-03 +1.04503194971E-02 -5.86800748726E-03 +3.23005840385E-01 +3.52655005863E-01
1.50500000000E+09 +3.98070901718E-01 +2.50188785195E-01 +1.05915250346E-02 -1.04802454141E-02 +1.04408355494E-02 -9.74670551575E-03 +3.11851166093E-01 +2.58360122728E-01
1.51000000000E+09 +3.68899938982E-01 +1.60449523430E-01 +7.92764573004E-03 -1.47864704954E-02 +8.40794921174E-03 -1.43227002312E-02 +2.81929680468E-01 +1.59527739571E-01
1.51500000000E+09 +3.20254994767E-01 +7.02612830155E-02 +3.02665790237E-03 -1.77959542415E-02 +3.47469334298E-03 -1.78793835448E-02 +2.29027098139E-01 +6.21075673975E-02
1.52000000000E+09 +2.51047795316E-01 -1.34717592026E-02 -2.90669327043E-03 -1.88142295029E-02 -2.70722254884E-03 -1.90855093268E-02 +1.53879481196E-01 -2.50666387004E-02
1.52500000000E+09 +1.63694555095E-01 -8.25229359511E-02 -8.53234136065E-03 -1.64435674188E-02 -8.53398480025E-03 -1.66385727099E-02 +5.93597052448E-02 -9.36934534131E-02
1.53000000000E+09 +6.30147456043E-02 -1.30346554872E-01 -1.16779264590E-02 -1.35624697656E-02 -1.17750896522E-02 -1.37303999271E-02 -4.68711336093E-02 -1.40141074877E-01
1.53500000000E+09 -4.39033261167E-02 -1.53644391249E-01 -1.51656114522E-02 -1.08868878178E-02 -1.52696824956E-02 -1.08194151654E-02 -1.59001860309E-01 -1.60412032291E-01
1.54000000000E+09 -1.51007099992E-01 -1.53495350461E-01 -1.81247733179E-02 -6.20184513871E-03 -1.79602007510E-02 -6.14863648966E-03 -2.67454560212E-01 -1.57639090353E-01
1.54500000000E+09 -2.54006147001E-01 -1.30729665097E-01 -1.88881515882E-02 +2.33293070949E-05 -1.86938698455E-02 -3.33329424167E-04 -3.65725290153E-01 -1.34287632354E-01
1.55000000000E+09 -3.47212012392E-01 -8.78521671672E-02 -1.67850991340E-02 +5.21379940209E-03 -1.70164356704E-02 +4.62103140124E-03 -4.51258704775E-01 -9.78564983667E-02
1.55500000000E+09 -4.24351018425E-01 -3.05816222988E-02 -1.35820087561E-02 +8.97738259931E-03 -1.42007701322E-02 +8.62258965485E-03 -5.22310171464E-01 -5.09409151700E-02
1.56000000000E+09 -4.84003760653E-01 +3.10128332861E-02 -9.52544361456E-03 +1.09512212162E-02 -1.03519612466E-02 +1.11402230007E-02 -5.80187448603E-01 +1.64457438056E-03
1.56500000000E+09 -5.30096379036E-01 +9.12725787646E-02 -5.82263513191E-03 +1.12864140964E-02 -6.25103693505E-03 +1.18965715476E-02 -6.24974745873E-01 +5.68005116018E-02
1.57000000000E+09 -5.66618077741E-01 +1.48729781937E-01 -3.08912817257E-03 +1.05999565745E-02 -3.13540350257E-03 +1.13059283123E-02 -6.59096296869E-01 +1.12003467055E-01
