# Hz S RI R 50
! CMT, C1220, 16058040, 17.2.0/1
! Date: 14/08/2018 11:54:14
! Data: Format (Calibration Info)
! Freq                      S11: Re/Im (F2)                       S21: Re/Im (F2)                       S12: Re/Im (F2)                       S22: Re/Im (F2)            
1.00000000000E+09 -6.42571446061E-01 +7.09748966492E-01 -3.88129887055E-06 -2.11763155302E-05 -3.21913660937E-05 +1.47239731416E-05 -7.50042874070E-01 +6.26835241773E-01
1.00500000000E+09 -6.35409976096E-01 +7.14754457241E-01 -5.78958023964E-05 +9.45758791952E-06 -5.31190213640E-05 +9.98288724788E-06 -7.46492301642E-01 +6.30887146718E-01
1.01000000000E+09 -6.29599608837E-01 +7.19368220618E-01 -1.76161623024E-05 +2.64149716283E-05 +2.18512622032E-05 -2.79345961342E-06 -7.42933817720E-01 +6.34686672503E-01
1.01500000000E+09 -6.24978520293E-01 +7.23192280947E-01 -6.32135309175E-06 +9.33642576505E-06 -4.87237729458E-05 -9.16749218182E-06 -7.39490840006E-01 +6.38360034806E-01
1.02000000000E+09 -6.21986801654E-01 +7.26242153636E-01 -2.23252373403E-05 -9.28205073945E-06 -1.28298710588E-05 +3.89317454438E-06 -7.35956026910E-01 +6.42154365195E-01
1.02500000000E+09 -6.19894494954E-01 +7.28877163744E-01 -5.18312461278E-05 -1.20031595621E-05 -2.45397224350E-05 +1.87243270754E-05 -7.33000639197E-01 +6.45747707578E-01
1.03000000000E+09 -6.18341628257E-01 +7.31127713924E-01 -5.07219507969E-05 +3.54576304035E-05 -4.49647430174E-05 -1.39138724522E-05 -7.29530760846E-01 +6.49456772032E-01
1.03500000000E+09 -6.16108900304E-01 +7.33515351727E-01 -7.62408764893E-06 -1.96910331338E-05 -3.72025725468E-05 +7.77235838669E-05 -7.25860568244E-01 +6.53481730313E-01
1.04000000000E+09 -6.12652306153E-01 +7.36352708004E-01 -5.83455880214E-05 +1.04204698324E-05 -5.70621416782E-05 +3.36902113630E-05 -7.22053876372E-01 +6.57175969951E-01
1.04500000000E+09 -6.07566701860E-01 +7.39768631333E-01 -2.22727459351E-05 +1.48651017822E-05 -8.57885163790E-05 +5.27333225592E-05 -7.18397533315E-01 +6.60663156492E-01
1.05000000000E+09 -6.00717429779E-01 +7.43959375990E-01 -3.21172342649E-05 +8.70306914630E-05 +4.62553011480E-06 +4.47344100068E-05 -7.15068275834E-01 +6.64071339686E-01
1.05500000000E+09 -5.92801956392E-01 +7.48390097397E-01 -5.05261933788E-05 -2.22155310405E-06 -7.08543695928E-05 +6.84651368629E-05 -7.11722694626E-01 +6.67589957216E-01
1.06000000000E+09 -5.84206316373E-01 +7.53252516666E-01 -3.96687602425E-05 -2.26689505014E-05 -2.55689572330E-05 +2.63819548121E-05 -7.08409530434E-01 +6.71275274576E-01
1.06500000000E+09 -5.76082816322E-01 +7.58199895530E-01 -7.04891947811E-05 +4.85594565691E-05 -4.00986094963E-05 +5.12686522606E-05 -7.04616452706E-01 +6.75145267353E-01
1.07000000000E+09 -5.69109303857E-01 +7.62565393917E-01 -2.21632561678E-05 +9.10109737001E-05 -1.27249785100E-05 +6.96177819043E-05 -7.00623639986E-01 +6.78865163976E-01
1.07500000000E+09 -5.63833284981E-01 +7.66092020034E-01 -4.44291134180E-06 +9.05579348408E-05 -2.84178027823E-05 +7.19226126972E-05 -6.96293599854E-01 +6.82566508701E-01
1.08000000000E+09 -5.60100537996E-01 +7.69321039963E-01 -2.06090324866E-06 +6.22099798685E-05 -1.41743617994E-05 +3.96083580700E-05 -6.92206737645E-01 +6.86205378418E-01
1.08500000000E+09 -5.57633264674E-01 +7.71810107081E-01 -9.59781820061E-06 +7.05201358720E-05 -4.66470255835E-06 +1.12358529456E-04 -6.88300800173E-01 +6.90017767752E-01
1.09000000000E+09 -5.55788510058E-01 +7.73777175586E-01 -4.53244882118E-05 +8.20644411884E-05 -1.77521004536E-05 +4.12301530528E-05 -6.84359430760E-01 +6.93904936074E-01
1.09500000000E+09 -5.53926458660E-01 +7.75691512178E-01 -1.25765842031E-05 +7.54583294591E-05 +4.20090931051E-06 +2.83913279702E-05 -6.80475669826E-01 +6.97553301940E-01
1.10000000000E+09 -5.50769324002E-01 +7.77878459831E-01 +3.87162750934E-05 +7.73165679329E-05 -4.55538901195E-06 +6.14838598173E-05 -6.76676870105E-01 +7.01573836419E-01
1.10500000000E+09 -5.46241720184E-01 +7.80593197780E-01 -1.73469015503E-05 +1.07362316689E-04 +2.20679759013E-05 +5.81572500901E-05 -6.72350918145E-01 +7.05003352855E-01
1.11000000000E+09 -5.40251268505E-01 +7.83813070453E-01 -1.72814348794E-05 +8.33556704678E-05 +1.26042711953E-05 +8.20537686768E-05 -6.68118581655E-01 +7.08343823689E-01
1.11500000000E+09 -5.32763806123E-01 +7.87719459213E-01 +2.34767521952E-05 +1.20040926850E-04 +1.06958108945E-05 +4.11687419902E-05 -6.63953443435E-01 +7.11757150941E-01
1.12000000000E+09 -5.24830779830E-01 +7.91812840712E-01 +5.73439546706E-05 +8.96044066005E-05 +4.46954483045E-05 +5.70055788481E-05 -6.59864164700E-01 +7.15524026712E-01
1.12500000000E+09 -5.16766873785E-01 +7.95644096036E-01 +6.25327094743E-05 +8.25799257488E-05 +2.46914853640E-05 +5.56900968009E-05 -6.55464685571E-01 +7.19496260170E-01
1.13000000000E+09 -5.09706996523E-01 +7.99384124052E-01 +5.38989304842E-05 +5.95915243584E-05 +7.07190085327E-05 +1.34005246086E-04 -6.51126429856E-01 +7.23070484191E-01
1.13500000000E+09 -5.03831828271E-01 +8.02342645673E-01 +3.73869562602E-05 +6.17530291823E-05 +3.60240548011E-05 +7.96951667078E-05 -6.46558399212E-01 +7.26996721898E-01
1.14000000000E+09 -4.99160859506E-01 +8.04976840815E-01 +9.88955464722E-05 +5.25605124315E-05 +1.01406740303E-04 +6.88639436180E-05 -6.41893579074E-01 +7.30279466628E-01
1.14500000000E+09 -4.95519835834E-01 +8.06966386841E-01 +7.13304552082E-05 +8.33029369785E-05 +8.83274714719E-05 +5.33706498811E-05 -6.37332151738E-01 +7.33789131464E-01
1.15000000000E+09 -4.92021717080E-01 +8.08937581919E-01 +9.27374824931E-05 +5.53152756341E-05 +1.21921926543E-04 +6.30065155907E-05 -6.32654977703E-01 +7.37512560849E-01
1.15500000000E+09 -4.88434257476E-01 +8.10934932726E-01 +1.54024012981E-04 +6.74081635507E-05 +1.34109391769E-04 +5.52155601868E-05 -6.27862869253E-01 +7.41393002895E-01
1.16000000000E+09 -4.83784009486E-01 +8.12855738689E-01 +1.41804771421E-04 +5.38013473292E-05 +1.32540972295E-04 +8.71155593973E-05 -6.23008469691E-01 +7.45089190403E-01
1.16500000000E+09 -4.77898304763E-01 +8.15766134199E-01 +1.25156653085E-04 +2.77040238812E-05 +1.06113484186E-04 +5.83891728789E-05 -6.17784317494E-01 +7.48762825297E-01
1.17000000000E+09 -4.70606090642E-01 +8.18834791810E-01 +1.22687466595E-04 +1.61586601692E-05 +1.25930497512E-04 +6.80718766365E-05 -6.12369455622E-01 +7.51945968184E-01
1.17500000000E+09 -4.62234267765E-01 +8.22255941734E-01 +1.91435908655E-04 +7.04629694864E-05 +1.34355662203E-04 +2.01382063131E-05 -6.06649349766E-01 +7.55253274748E-01
1.18000000000E+09 -4.53927941858E-01 +8.25835982246E-01 +1.57823299329E-04 +6.04808610747E-05 +2.03538504033E-04 +4.61782143460E-05 -6.00977071220E-01 +7.58315049932E-01
1.18500000000E+09 -4.45686327731E-01 +8.29107287707E-01 +2.00636546813E-04 +1.46626100163E-05 +1.88924959626E-04 +3.24741070642E-05 -5.95050025328E-01 +7.61445663946E-01
1.19000000000E+09 -4.38287834312E-01 +8.31823070440E-01 +2.18090312907E-04 +1.84809184942E-05 +2.62061057343E-04 +2.59427225671E-05 -5.88815209172E-01 +7.64073018531E-01
1.19500000000E+09 -4.32417919576E-01 +8.34021904841E-01 +2.76199603730E-04 -5.41114625762E-05 +2.70190945836E-04 -2.88053345275E-05 -5.82853248456E-01 +7.65260087612E-01
1.20000000000E+09 -4.27813495615E-01 +8.35012073962E-01 +2.73320762289E-04 -1.36606943527E-04 +2.85061276131E-04 -1.68236820822E-04 -5.78297141903E-01 +7.65406564641E-01
1.20500000000E+09 -4.23907347206E-01 +8.36442658236E-01 +2.00665289397E-04 -1.88929422774E-04 +1.80907999870E-04 -2.05817199390E-04 -5.76036372798E-01 +7.66150093995E-01
1.21000000000E+09 -4.19956707997E-01 +8.37811311895E-01 +1.33315237502E-04 -2.07715135290E-04 +1.52451732381E-04 -2.07136958955E-04 -5.74326517832E-01 +7.69152747092E-01
1.21500000000E+09 -4.14904953429E-01 +8.39538334088E-01 +8.81948422151E-05 -2.13154708634E-04 +1.13392623889E-04 -1.94411377161E-04 -5.71497884740E-01 +7.73619622574E-01
1.22000000000E+09 -4.08268790339E-01 +8.41735669770E-01 +8.51417057054E-05 -1.47146309429E-04 +1.18809056095E-04 -2.34117473275E-04 -5.67261300868E-01 +7.78946268583E-01
1.22500000000E+09 -4.00166070720E-01 +8.44325930471E-01 +9.30930066485E-05 -1.99985066909E-04 +1.43092147734E-04 -1.55978876866E-04 -5.62173189893E-01 +7.84009502089E-01
1.23000000000E+09 -3.90634749883E-01 +8.47565037587E-01 +1.54953215688E-04 -1.86225422983E-04 +1.21464595972E-04 -1.81227435914E-04 -5.56356056219E-01 +7.88685085375E-01
1.23500000000E+09 -3.80512483177E-01 +8.51102168627E-01 +1.79705182188E-04 -1.96183650044E-04 +6.04728959996E-05 -1.93203792605E-04 -5.50528744949E-01 +7.92979869197E-01
1.24000000000E+09 -3.70102603363E-01 +8.54870852108E-01 +9.29139596358E-05 -2.55876396825E-04 +1.50788842575E-04 -2.40533687961E-04 -5.44595134701E-01 +7.96902294246E-01
1.24500000000E+09 -3.60904786800E-01 +8.58727847156E-01 +1.17288021585E-04 -2.77737258000E-04 +9.01937962590E-05 -2.33270215187E-04 -5.38270659515E-01 +8.00743328368E-01
1.25000000000E+09 -3.52786171246E-01 +8.61944499986E-01 +4.71506838414E-05 -3.15585250812E-04 +1.07613799002E-04 -3.24035028039E-04 -5.31650797195E-01 +8.05039455942E-01
1.25500000000E+09 -3.46091983491E-01 +8.64393795374E-01 +1.93415074180E-05 -3.16282426970E-04 +3.80616161071E-05 -3.64360349715E-04 -5.24635390001E-01 +8.08925406260E-01
1.26000000000E+09 -3.40337012434E-01 +8.66469019438E-01 -5.30386419719E-07 -2.97105929056E-04 +3.44807933431E-05 -3.62380413152E-04 -5.17911905885E-01 +8.13266623516E-01
1.26500000000E+09 -3.35403290377E-01 +8.67826795090E-01 -3.04253696051E-05 -3.88237504267E-04 -2.91599223523E-05 -3.88426792334E-04 -5.11002631097E-01 +8.17049304348E-01
1.27000000000E+09 -3.29993761810E-01 +8.69052253646E-01 -7.16643242570E-05 -3.78757215996E-04 -7.05883642999E-05 -4.07106492327E-04 -5.04139633317E-01 +8.20805972611E-01
1.27500000000E+09 -3.23678462589E-01 +8.70334954224E-01 -1.25095383431E-04 -4.25388200262E-04 -1.17663572883E-04 -4.01336788178E-04 -4.97134460693E-01 +8.24419877557E-01
1.28000000000E+09 -3.15430516880E-01 +8.72053299224E-01 -1.79914164343E-04 -3.62326186924E-04 -1.29411293269E-04 -4.11298161484E-04 -4.90157624262E-01 +8.27854782857E-01
1.28500000000E+09 -3.05134304346E-01 +8.74030383146E-01 -1.91393988059E-04 -3.53709686398E-04 -1.89394560845E-04 -4.19421051368E-04 -4.82822077872E-01 +8.31513376649E-01
1.29000000000E+09 -2.93470619049E-01 +8.76372829072E-01 -2.23208065211E-04 -3.33607144811E-04 -2.23829931925E-04 -3.57470170856E-04 -4.75207546523E-01 +8.35172982022E-01
1.29500000000E+09 -2.81142955994E-01 +8.79326865875E-01 -2.61830440487E-04 -3.73843354561E-04 -3.29958729677E-04 -3.42807099744E-04 -4.67259785067E-01 +8.38592578724E-01
1.30000000000E+09 -2.68659818501E-01 +8.82738903961E-01 -3.38443686141E-04 -3.91916457755E-04 -3.50892853502E-04 -3.13910911378E-04 -4.59481330558E-01 +8.42212942782E-01
1.30500000000E+09 -2.57393467991E-01 +8.85674460457E-01 -3.98991450491E-04 -3.30819593790E-04 -3.85666087695E-04 -2.86303238192E-04 -4.51279948704E-01 +8.45756159918E-01
1.31000000000E+09 -2.47714794150E-01 +8.88203825349E-01 -4.45807247424E-04 -2.70447632064E-04 -4.34261597861E-04 -2.75619920863E-04 -4.43047025021E-01 +8.49144196482E-01
1.31500000000E+09 -2.39779415276E-01 +8.90210193895E-01 -4.26291078094E-04 -2.02727560993E-04 -4.30810628050E-04 -2.61536377322E-04 -4.34292228397E-01 +8.52448148259E-01
1.32000000000E+09 -2.33468232536E-01 +8.91342766969E-01 -4.89056253407E-04 -2.27728678491E-04 -4.74130979235E-04 -2.35085797386E-04 -4.25158317843E-01 +8.55965680931E-01
1.32500000000E+09 -2.27721468285E-01 +8.91948045917E-01 -4.87775055006E-04 -1.80281844818E-04 -4.76838132799E-04 -2.30466096798E-04 -4.15378248214E-01 +8.59283833035E-01
1.33000000000E+09 -2.21277553699E-01 +8.92179914605E-01 -5.24092211397E-04 -2.12168069965E-04 -6.06378004551E-04 -1.88140473861E-04 -4.05567716644E-01 +8.62748591785E-01
1.33500000000E+09 -2.13234357212E-01 +8.92058768513E-01 -6.15232188806E-04 -1.86735051110E-04 -6.62082242782E-04 -8.96704007945E-05 -3.95814407017E-01 +8.65922392502E-01
1.34000000000E+09 -2.02588052720E-01 +8.92147490205E-01 -7.29267897310E-04 -1.33701142018E-04 -6.57372677703E-04 -1.28572229998E-04 -3.85592196675E-01 +8.69139461222E-01
1.34500000000E+09 -1.89062270744E-01 +8.91966041192E-01 -7.82153595785E-04 -6.34607165445E-05 -6.72544298606E-04 -5.56540636074E-05 -3.74453589986E-01 +8.72469431864E-01
1.35000000000E+09 -1.73768704798E-01 +8.91938092806E-01 -8.23834792024E-04 +2.77399297660E-05 -8.01205597176E-04 +1.18424320469E-05 -3.63326997966E-01 +8.75552678796E-01
1.35500000000E+09 -1.57065977675E-01 +8.92017485335E-01 -8.59138886031E-04 +1.10450643491E-04 -8.57188411492E-04 +1.03109771993E-04 -3.51731013472E-01 +8.78086774060E-01
1.36000000000E+09 -1.40300659324E-01 +8.92396823344E-01 -8.24359368794E-04 +1.89619949255E-04 -8.18078496232E-04 +1.76398088411E-04 -3.39878919914E-01 +8.80821514494E-01
1.36500000000E+09 -1.24352852812E-01 +8.92917207766E-01 -9.12406443521E-04 +2.60416655534E-04 -8.60503082141E-04 +2.37706362986E-04 -3.27690796470E-01 +8.83243135764E-01
1.37000000000E+09 -1.09827202667E-01 +8.93206573114E-01 -9.80691651279E-04 +3.57528237255E-04 -8.88098605377E-04 +3.20758757094E-04 -3.14706044716E-01 +8.85636939896E-01
1.37500000000E+09 -9.73497825141E-02 +8.93161301518E-01 -1.02474878425E-03 +5.47393868899E-04 -1.02138111439E-03 +3.81356789069E-04 -3.01017518099E-01 +8.87791393184E-01
1.38000000000E+09 -8.61435719670E-02 +8.92673066665E-01 -1.02916155156E-03 +6.74578238636E-04 -1.19486006222E-03 +5.74137783834E-04 -2.86447978744E-01 +8.89674509699E-01
1.38500000000E+09 -7.52680010189E-02 +8.91639637918E-01 -9.88304422974E-04 +8.56995608762E-04 -1.20549670085E-03 +8.69234001762E-04 -2.71032491286E-01 +8.91493362107E-01
1.39000000000E+09 -6.38355049287E-02 +8.89938141411E-01 -9.38647291038E-04 +1.00753377145E-03 -1.04623892422E-03 +1.14231017354E-03 -2.55138218001E-01 +8.92965448283E-01
1.39500000000E+09 -5.03345146676E-02 +8.87357415394E-01 -9.25451107405E-04 +1.11387824209E-03 -9.27336759743E-04 +1.28960811425E-03 -2.38347510419E-01 +8.93715585977E-01
1.40000000000E+09 -3.41503234432E-02 +8.83673251989E-01 -9.30241095724E-04 +1.27061414746E-03 -7.96297970106E-04 +1.43000132664E-03 -2.20738829043E-01 +8.94231238195E-01
1.40500000000E+09 -1.55352066251E-02 +8.79125563363E-01 -7.66265885264E-04 +1.50862106961E-03 -6.66587504665E-04 +1.50258887599E-03 -2.02081832012E-01 +8.93898739829E-01
1.41000000000E+09 +5.39566542043E-03 +8.73710294703E-01 -7.14514336912E-04 +1.64719714085E-03 -7.23123747715E-04 +1.67325433431E-03 -1.81965467943E-01 +8.93009859715E-01
1.41500000000E+09 +2.76736878144E-02 +8.67471161678E-01 -5.56933685331E-04 +1.86692332542E-03 -6.34248371873E-04 +1.88543822631E-03 -1.60658584090E-01 +8.91663891184E-01
1.42000000000E+09 +5.06791372376E-02 +8.60925604301E-01 -4.46323562922E-04 +2.00222680008E-03 -5.36417125278E-04 +2.17355028216E-03 -1.37756803289E-01 +8.89096164035E-01
1.42500000000E+09 +7.33111924830E-02 +8.53465309967E-01 -4.25632289116E-04 +2.29423202024E-03 -3.51456562907E-04 +2.55906011827E-03 -1.14041212464E-01 +8.85362203312E-01
1.43000000000E+09 +9.50609434842E-02 +8.45262927577E-01 -1.10838042481E-04 +2.69552080382E-03 +1.61653184425E-04 +2.97039987746E-03 -8.92146634042E-02 +8.80608034202E-01
1.43500000000E+09 +1.16043053129E-01 +8.35762800158E-01 +3.80206192651E-04 +2.95571187469E-03 +7.12628660190E-04 +3.04534830240E-03 -6.27288182915E-02 +8.73833561081E-01
1.44000000000E+09 +1.37141092075E-01 +8.24887158603E-01 +8.17907496125E-04 +3.10222953910E-03 +1.06401338063E-03 +3.03708278425E-03 -3.48385172230E-02 +8.65018124751E-01
1.44500000000E+09 +1.59448246885E-01 +8.11619074075E-01 +1.38776648539E-03 +3.06655811596E-03 +1.56130635801E-03 +3.05232318755E-03 -4.62316411149E-03 +8.53751665063E-01
1.45000000000E+09 +1.83475347139E-01 +7.94785398344E-01 +1.51853499602E-03 +3.09164839019E-03 +1.79002052732E-03 +3.04986578624E-03 +2.74456198423E-02 +8.38690875052E-01
1.45500000000E+09 +2.09656605363E-01 +7.74016074791E-01 +1.79320052054E-03 +3.54292925522E-03 +2.17707239837E-03 +3.34066100029E-03 +6.01181474750E-02 +8.20767292641E-01
1.46000000000E+09 +2.38143106324E-01 +7.48575229426E-01 +2.75259370347E-03 +4.17171704345E-03 +3.00412147247E-03 +3.72449016551E-03 +9.49168031692E-02 +7.99558047489E-01
1.46500000000E+09 +2.68580620448E-01 +7.18628386670E-01 +4.12141913355E-03 +4.38829372036E-03 +4.01728707541E-03 +3.73527717040E-03 +1.31650200205E-01 +7.72487987239E-01
1.47000000000E+09 +3.00320520503E-01 +6.82926680619E-01 +5.89046037143E-03 +4.05341952982E-03 +5.40513170769E-03 +3.71146779012E-03 +1.68573034202E-01 +7.38356924417E-01
1.47500000000E+09 +3.31392366311E-01 +6.41611527126E-01 +7.26669345826E-03 +2.81582474758E-03 +6.81794495233E-03 +2.95190540672E-03 +2.05128273436E-01 +6.97366687001E-01
1.48000000000E+09 +3.59998593497E-01 +5.93884790620E-01 +8.15608606389E-03 +1.73916818209E-03 +8.16381614342E-03 +1.97671487678E-03 +2.41319834182E-01 +6.48041049735E-01
1.48500000000E+09 +3.83511963242E-01 +5.39744597498E-01 +9.30656473003E-03 +6.98818335921E-04 +9.60271008730E-03 +5.72446321693E-04 +2.75026655251E-01 +5.89823505998E-01
1.49000000000E+09 +4.00750329388E-01 +4.79219435760E-01 +1.11238706153E-02 -1.02128324769E-03 +1.10916616978E-02 -1.57119347336E-03 +3.04493393566E-01 +5.20448955744E-01
1.49500000000E+09 +4.10155476208E-01 +4.11818479691E-01 +1.23406324160E-02 -4.12539333588E-03 +1.16504900051E-02 -4.46036341685E-03 +3.22741541187E-01 +4.39064124446E-01
1.50000000000E+09 +4.09898831499E-01 +3.35821666995E-01 +1.29004995885E-02 -7.91083694218E-03 +1.21329031378E-02 -7.44668689500E-03 +3.26840919215E-01 +3.50621922796E-01
1.50500000000E+09 +3.97190224247E-01 +2.52928140819E-01 +1.16990997554E-02 -1.29490730695E-02 +1.15797655374E-02 -1.20696278323E-02 +3.16006946167E-01 +2.54746229835E-01
1.51000000000E+09 +3.68430938389E-01 +1.63484835420E-01 +8.38553165917E-03 -1.76088357978E-02 +8.94816993490E-03 -1.70971770927E-02 +2.85090866068E-01 +1.53590608119E-01
1.51500000000E+09 +3.20389235444E-01 +7.38405131038E-02 +2.55209785441E-03 -2.09609950845E-02 +3.12434128882E-03 -2.10499085818E-02 +2.30066867025E-01 +5.49576143100E-02
1.52000000000E+09 +2.52450943066E-01 -9.24347334910E-03 -4.58551521202E-03 -2.17329200151E-02 -4.38859690944E-03 -2.20086568498E-02 +1.52619956396E-01 -3.25099454109E-02
1.52500000000E+09 +1.66683393875E-01 -7.86488008391E-02 -1.08707794595E-02 -1.85866556474E-02 -1.09067793112E-02 -1.87707780111E-02 +5.59107871827E-02 -1.00862242480E-01
1.53000000000E+09 +6.75773773199E-02 -1.27216006746E-01 -1.45673526661E-02 -1.50106279185E-02 -1.46988955045E-02 -1.51481319036E-02 -5.28578717393E-02 -1.46296870356E-01
1.53500000000E+09 -3.83669658611E-02 -1.52301501189E-01 -1.82691277464E-02 -1.13746077126E-02 -1.83005632321E-02 -1.13620403841E-02 -1.66943946812E-01 -1.64498195445E-01
1.54000000000E+09 -1.45567198192E-01 -1.53913290335E-01 -2.11724321672E-02 -5.71040332573E-03 -2.09198005743E-02 -5.69921560885E-03 -2.76501583978E-01 -1.58644536822E-01
1.54500000000E+09 -2.49564743585E-01 -1.31924450101E-01 -2.15732271404E-02 +1.18634713168E-03 -2.13324640032E-02 +7.77536452592E-04 -3.74100705765E-01 -1.32356785414E-01
1.55000000000E+09 -3.43237379919E-01 -8.92522634807E-02 -1.87641672073E-02 +7.01683834567E-03 -1.90505248529E-02 +6.28676274575E-03 -4.58268844274E-01 -9.36348781737E-02
1.55500000000E+09 -4.20207892769E-01 -3.23028012009E-02 -1.50502353125E-02 +1.08522233673E-02 -1.58748500613E-02 +1.04573063678E-02 -5.27502092516E-01 -4.53947482931E-02
1.56000000000E+09 -4.80076081252E-01 +2.82342355134E-02 -1.04715049735E-02 +1.32700454820E-02 -1.13739731423E-02 +1.34799459154E-02 -5.83260829837E-01 +8.06244818052E-03
1.56500000000E+09 -5.27314859901E-01 +8.75127821458E-02 -5.86352141942E-03 +1.35572904463E-02 -6.45357610999E-03 +1.42731831786E-02 -6.25906685351E-01 +6.29590680688E-02
1.57000000000E+09 -5.65426289690E-01 +1.45292778553E-01 -2.77341749456E-03 +1.22310514048E-02 -2.76499806272E-03 +1.30621003775E-02 -6.58595514093E-01 +1.17525333105E-01
