# Hz S RI R 50
! CMT, C1220, 16058040, 17.2.0/1
! Date: 14/08/2018 11:56:18
! Data: Format (Calibration Info)
! Freq                      S11: Re/Im (F2)                       S21: Re/Im (F2)                       S12: Re/Im (F2)                       S22: Re/Im (F2)            
1.00000000000E+09 -6.43871449576E-01 +7.11241475351E-01 -7.13409382291E-05 +1.37821230884E-06 +5.49103992075E-06 -1.31598882206E-05 -7.50153607059E-01 +6.26992101922E-01
1.00500000000E+09 -6.36755297684E-01 +7.16146224037E-01 -4.72927541365E-05 +6.73367567716E-06 -3.47183421259E-05 +6.32304386990E-05 -7.46375545881E-01 +6.31094409868E-01
1.01000000000E+09 -6.30817815341E-01 +7.20820925708E-01 -3.72086022794E-05 -8.89883916282E-06 -5.99173951033E-05 -1.27394267250E-05 -7.42753909389E-01 +6.34878710143E-01
1.01500000000E+09 -6.26504013744E-01 +7.24435809600E-01 -1.95717439045E-06 -8.15015200954E-06 -3.67794159831E-05 +2.72608409088E-06 -7.39387499820E-01 +6.38592019876E-01
1.02000000000E+09 -6.23402716398E-01 +7.27528074242E-01 -1.19753781568E-05 -7.02408529322E-06 +1.23464505294E-05 +2.96764988356E-05 -7.35903391178E-01 +6.42332125767E-01
1.02500000000E+09 -6.21293538047E-01 +7.30217001144E-01 -5.03566656828E-05 +3.94065979421E-06 -3.64541198871E-05 +7.28421537391E-06 -7.32850255080E-01 +6.45761396218E-01
1.03000000000E+09 -6.19841329840E-01 +7.32560288878E-01 -4.57910096868E-05 +1.73771945441E-05 -4.62654978433E-05 +2.06578322678E-05 -7.29487600036E-01 +6.49729868857E-01
1.03500000000E+09 -6.17308445672E-01 +7.34825947799E-01 -1.86492107678E-05 -4.41167502459E-05 -4.36681606730E-05 +4.06160080364E-05 -7.25748090067E-01 +6.53614162721E-01
1.04000000000E+09 -6.13987434266E-01 +7.37944879001E-01 -5.07072503326E-05 +6.23640495382E-05 -4.74374913286E-05 +3.90092991364E-05 -7.21869651674E-01 +6.57271227191E-01
1.04500000000E+09 -6.08930948611E-01 +7.41175697628E-01 -7.52930859957E-06 +9.14861037524E-06 +8.50639205522E-06 +5.22057708411E-05 -7.18516306597E-01 +6.60778061693E-01
1.05000000000E+09 -6.02095216728E-01 +7.45323681145E-01 -6.57065971216E-05 -8.92263075850E-06 -3.37431662213E-05 +4.22151894534E-05 -7.14963206598E-01 +6.64209241836E-01
1.05500000000E+09 -5.94292989688E-01 +7.49851239537E-01 -2.03290295642E-05 +8.90289914421E-05 -1.94296276731E-05 +2.05342100118E-05 -7.11549993830E-01 +6.67851593339E-01
1.06000000000E+09 -5.85684730332E-01 +7.54819839534E-01 +1.88470715390E-05 +5.12212907766E-05 -3.55949027646E-05 +5.85403202290E-05 -7.08351689692E-01 +6.71673965653E-01
1.06500000000E+09 -5.77599288457E-01 +7.59616297773E-01 -1.78008296609E-05 +5.00792258280E-05 -4.78048955778E-05 +1.21772863791E-05 -7.04550719884E-01 +6.75302887221E-01
1.07000000000E+09 -5.70640067077E-01 +7.63752595871E-01 -2.08323649384E-05 +1.09898391314E-04 -9.01042077189E-06 +4.45495706564E-05 -7.00627574951E-01 +6.78870709739E-01
1.07500000000E+09 -5.65407520546E-01 +7.67442961517E-01 +8.59688002083E-06 +9.99056492556E-05 +2.76031706708E-05 +4.65041767166E-05 -6.96280510211E-01 +6.82574273097E-01
1.08000000000E+09 -5.61585962171E-01 +7.70612159479E-01 +1.84825967640E-05 +7.07399837772E-05 +1.76012611934E-05 +1.04042976762E-04 -6.92273528751E-01 +6.86404545469E-01
1.08500000000E+09 -5.59274271898E-01 +7.73135758939E-01 -2.86958103182E-05 +3.60468705797E-05 -3.40680050935E-05 +3.44632548868E-05 -6.88244223629E-01 +6.90155663492E-01
1.09000000000E+09 -5.57156310298E-01 +7.75367434071E-01 +1.13892703881E-05 +5.33970156265E-05 +2.53507451667E-05 +4.41286449642E-05 -6.84190871544E-01 +6.93958855136E-01
1.09500000000E+09 -5.55325001875E-01 +7.77266629428E-01 +1.08681024634E-05 +8.10997117438E-05 +1.18060586449E-05 +7.75177292192E-05 -6.80395779627E-01 +6.97890599517E-01
1.10000000000E+09 -5.52159326354E-01 +7.79389071234E-01 -1.67331427372E-05 +3.40526006236E-05 +1.19820465807E-05 +5.99857565594E-05 -6.76480560687E-01 +7.01496848514E-01
1.10500000000E+09 -5.47664915434E-01 +7.82045310090E-01 +1.74381794597E-06 +8.32821761837E-05 +3.91078656064E-05 +5.15971456129E-05 -6.72157263709E-01 +7.05304060771E-01
1.11000000000E+09 -5.41625737677E-01 +7.85425136598E-01 -3.02773086204E-06 +5.51536110571E-05 +4.98457340968E-06 +3.17085514446E-05 -6.67949971005E-01 +7.08601625326E-01
1.11500000000E+09 -5.34194121875E-01 +7.89208895467E-01 +4.12773025157E-05 +8.39485860825E-05 +2.73902821661E-05 +7.35464127312E-05 -6.63805329415E-01 +7.11908549454E-01
1.12000000000E+09 -5.26135899935E-01 +7.93037613510E-01 +5.90908912787E-05 +1.11700576240E-04 +3.91526408504E-05 +3.75247931158E-05 -6.59755769605E-01 +7.15537404110E-01
1.12500000000E+09 -5.18215676989E-01 +7.97194402964E-01 +1.22929546171E-04 +5.82650879345E-05 +5.89084045678E-05 +7.85934222947E-05 -6.55414699777E-01 +7.19605002362E-01
1.13000000000E+09 -5.11210422880E-01 +8.00818279438E-01 +3.59323238920E-05 +5.71571301459E-05 +7.67276146221E-05 +6.70435098866E-05 -6.51233147896E-01 +7.23388572926E-01
1.13500000000E+09 -5.05197210513E-01 +8.03712727226E-01 +4.80331436051E-05 +3.02755068889E-05 +4.84995192144E-05 +5.68350587314E-05 -6.46614316509E-01 +7.27186557338E-01
1.14000000000E+09 -5.00513278096E-01 +8.06498895584E-01 +7.73264965793E-05 +8.45830626222E-05 +7.59995463571E-05 +5.62052492865E-05 -6.41851992801E-01 +7.30542913235E-01
1.14500000000E+09 -4.96784490962E-01 +8.08507292325E-01 +6.16531033553E-05 +5.95070178799E-05 +7.84978982187E-05 +5.13793143455E-05 -6.37199202002E-01 +7.34076924804E-01
1.15000000000E+09 -4.93456645010E-01 +8.10382161870E-01 +7.02936664623E-05 +3.38380104198E-05 +1.10801737698E-04 +4.02609169586E-05 -6.32569223466E-01 +7.37673106937E-01
1.15500000000E+09 -4.89849078740E-01 +8.12359559775E-01 +9.57129337280E-05 +6.02377227956E-05 +9.21537340007E-05 +5.30860613318E-05 -6.27576244422E-01 +7.41515157023E-01
1.16000000000E+09 -4.85141749074E-01 +8.14367969666E-01 +1.49692487929E-04 +4.43135409083E-05 +1.23847995312E-04 +4.55461973733E-05 -6.22794897866E-01 +7.45347204980E-01
1.16500000000E+09 -4.79102796593E-01 +8.17336462232E-01 +1.11107091630E-04 +1.34869651711E-05 +8.99794584041E-05 +3.46350910103E-05 -6.17646749618E-01 +7.48905828071E-01
1.17000000000E+09 -4.71877484865E-01 +8.20446017839E-01 +1.16018793067E-04 +5.88064055808E-06 +1.09042164959E-04 +4.92435427406E-05 -6.12321188118E-01 +7.52257915880E-01
1.17500000000E+09 -4.63496073626E-01 +8.23677738879E-01 +1.12394107773E-04 +3.96688058350E-06 +1.33551889009E-04 +2.08143632066E-05 -6.06418380009E-01 +7.55566709149E-01
1.18000000000E+09 -4.55166235097E-01 +8.27409765921E-01 +1.45450962819E-04 +2.75992108522E-05 +1.59067234623E-04 +3.05601724940E-05 -6.00926150018E-01 +7.58583194827E-01
1.18500000000E+09 -4.46850145034E-01 +8.30567315226E-01 +1.27935097443E-04 -8.02295790268E-06 +1.40900201013E-04 -1.58773123454E-05 -5.95003592239E-01 +7.61469042645E-01
1.19000000000E+09 -4.39578804289E-01 +8.33215958259E-01 +1.59578236113E-04 +4.11433618088E-06 +1.63142327110E-04 -5.32905378071E-05 -5.88589319303E-01 +7.64217879935E-01
1.19500000000E+09 -4.33630810243E-01 +8.35311147086E-01 +2.02538143363E-04 -2.36425149586E-05 +2.24433836436E-04 -2.95142405299E-05 -5.82642479190E-01 +7.65456421521E-01
1.20000000000E+09 -4.29038528826E-01 +8.36324628024E-01 +2.74735707218E-04 -6.82166516381E-05 +2.69032044161E-04 -9.26233534143E-05 -5.78099597230E-01 +7.65600866477E-01
1.20500000000E+09 -4.25299476935E-01 +8.37753908652E-01 +1.98558785257E-04 -1.82538572991E-04 +2.14468889698E-04 -2.06309913003E-04 -5.75962887672E-01 +7.66275915375E-01
1.21000000000E+09 -4.21367850080E-01 +8.39277634072E-01 +1.23344446158E-04 -2.05913458608E-04 +1.31419048405E-04 -1.73918103093E-04 -5.74069657697E-01 +7.69273951480E-01
1.21500000000E+09 -4.16239433464E-01 +8.40938394557E-01 +8.64722725410E-05 -1.56467045135E-04 +1.38238591400E-04 -1.79763718220E-04 -5.71333206259E-01 +7.73770924032E-01
1.22000000000E+09 -4.09579448367E-01 +8.43073944425E-01 +9.08423916947E-05 -2.01864827247E-04 +1.13441654875E-04 -1.71430240024E-04 -5.67161903931E-01 +7.79124383620E-01
1.22500000000E+09 -4.01546942125E-01 +8.45899755973E-01 +1.32466419341E-04 -1.64868343583E-04 +1.19953005478E-04 -2.01656002384E-04 -5.62088352423E-01 +7.84163024313E-01
1.23000000000E+09 -3.91886453015E-01 +8.49102681799E-01 +1.02420947794E-04 -1.85434821108E-04 +1.22155679798E-04 -2.00459812343E-04 -5.56231941240E-01 +7.88929841463E-01
1.23500000000E+09 -3.81763239231E-01 +8.52598191301E-01 +7.40232144712E-05 -1.94584106582E-04 +6.42368110662E-05 -1.96974180139E-04 -5.50434195346E-01 +7.93313250170E-01
1.24000000000E+09 -3.71642303484E-01 +8.56299343446E-01 +7.52207557908E-05 -2.23349545671E-04 +5.34168971769E-05 -2.37110886941E-04 -5.44433965144E-01 +7.97083541567E-01
1.24500000000E+09 -3.62252637212E-01 +8.60155778565E-01 +5.14923468760E-05 -2.81676984921E-04 +3.73241260335E-05 -2.14462523290E-04 -5.38092399831E-01 +8.00923398019E-01
1.25000000000E+09 -3.54036273188E-01 +8.63393025182E-01 +2.60232976048E-05 -2.72539507811E-04 +7.81887868149E-05 -2.60880356574E-04 -5.31386667839E-01 +8.05052672255E-01
1.25500000000E+09 -3.47413851280E-01 +8.65886426108E-01 +2.00033709629E-05 -2.72864987441E-04 +6.26359111159E-05 -2.93460903097E-04 -5.24571142454E-01 +8.09042310468E-01
1.26000000000E+09 -3.41710268445E-01 +8.67770962618E-01 +3.72017434551E-06 -2.71404250305E-04 +1.20862962381E-05 -2.99826344600E-04 -5.17785127333E-01 +8.13462750274E-01
1.26500000000E+09 -3.36642595903E-01 +8.69180039384E-01 +1.96999308402E-06 -3.30829664807E-04 -4.53468440673E-05 -3.24160922389E-04 -5.10868340168E-01 +8.17133067892E-01
1.27000000000E+09 -3.31390261226E-01 +8.70524281826E-01 -9.51578934982E-05 -3.50478854165E-04 -3.99901823736E-05 -3.31789076150E-04 -5.04033207285E-01 +8.21130242391E-01
1.27500000000E+09 -3.24966789364E-01 +8.71822209012E-01 -1.07376219140E-04 -3.49947046043E-04 -1.23507687707E-04 -3.19246507111E-04 -4.96994371595E-01 +8.24608513584E-01
1.28000000000E+09 -3.16689328217E-01 +8.73547363863E-01 -1.83658759137E-04 -3.74018942866E-04 -1.83747204553E-04 -3.60363164046E-04 -4.90018243292E-01 +8.27957847145E-01
1.28500000000E+09 -3.06233822513E-01 +8.75584374486E-01 -1.79640697009E-04 -3.02039896567E-04 -2.42434380879E-04 -3.37519577369E-04 -4.82553258127E-01 +8.31654529018E-01
1.29000000000E+09 -2.94526756097E-01 +8.77947602528E-01 -2.27412884327E-04 -2.80304361548E-04 -2.66069102325E-04 -2.87898667024E-04 -4.75149225355E-01 +8.35159560524E-01
1.29500000000E+09 -2.82143547403E-01 +8.80854675269E-01 -1.97468784736E-04 -2.93135037192E-04 -3.14462438967E-04 -2.46386324397E-04 -4.67083116474E-01 +8.38783397935E-01
1.30000000000E+09 -2.69997799447E-01 +8.83959940366E-01 -2.87778597901E-04 -3.05118940498E-04 -3.67426466413E-04 -2.59410816804E-04 -4.59328823955E-01 +8.42418590417E-01
1.30500000000E+09 -2.58839219104E-01 +8.86908433960E-01 -3.72832763604E-04 -2.88354365073E-04 -3.89032869599E-04 -2.66309990352E-04 -4.51232571136E-01 +8.45854932132E-01
1.31000000000E+09 -2.49112363954E-01 +8.89455742017E-01 -4.20290917764E-04 -2.23324509186E-04 -3.95610610560E-04 -1.88089830124E-04 -4.42938591587E-01 +8.49204874311E-01
1.31500000000E+09 -2.41252329496E-01 +8.91413559978E-01 -4.62541393104E-04 -1.39629041580E-04 -4.65452346992E-04 -2.28002354726E-04 -4.34089197841E-01 +8.52616162014E-01
1.32000000000E+09 -2.34755294343E-01 +8.92611136945E-01 -4.72474666262E-04 -1.54042482019E-04 -4.85416369163E-04 -1.70223135800E-04 -4.24944926983E-01 +8.56043613783E-01
1.32500000000E+09 -2.29034190541E-01 +8.93120582787E-01 -4.40667281626E-04 -1.55265274164E-04 -4.99696376809E-04 -1.40218320696E-04 -4.15282610756E-01 +8.59386312124E-01
1.33000000000E+09 -2.22565907797E-01 +8.93421339214E-01 -4.59725398128E-04 -1.74384056671E-04 -5.40043164281E-04 -1.11995351310E-04 -4.05654931476E-01 +8.62689527844E-01
1.33500000000E+09 -2.14387291303E-01 +8.93425983052E-01 -5.34645404509E-04 -9.31408447777E-05 -5.44361157646E-04 -4.99553304350E-05 -3.95665557409E-01 +8.66056210929E-01
1.34000000000E+09 -2.03823882631E-01 +8.93526315159E-01 -6.20412886309E-04 -7.66136581774E-05 -5.28574722909E-04 -1.75294735175E-05 -3.85511275724E-01 +8.69155185228E-01
1.34500000000E+09 -1.90381730529E-01 +8.93387949997E-01 -6.85977557708E-04 +2.50981344804E-05 -6.38344415266E-04 +2.39741364041E-05 -3.74651644503E-01 +8.72453432135E-01
1.35000000000E+09 -1.74992463531E-01 +8.93210181613E-01 -6.99339013646E-04 +8.75882958056E-05 -6.58461382739E-04 +1.34572653808E-04 -3.63280260542E-01 +8.75367661471E-01
1.35500000000E+09 -1.58503065054E-01 +8.93256172052E-01 -6.45104827056E-04 +2.13586050874E-04 -6.69635628672E-04 +1.80299671680E-04 -3.51788178987E-01 +8.78342291778E-01
1.36000000000E+09 -1.41773144694E-01 +8.93561278573E-01 -6.67997417153E-04 +2.36578719155E-04 -6.30860878335E-04 +2.27129907178E-04 -3.39854467239E-01 +8.80891964593E-01
1.36500000000E+09 -1.25762984235E-01 +8.94097111867E-01 -6.68252460305E-04 +2.71889574554E-04 -6.75141965136E-04 +2.30203709677E-04 -3.27705822038E-01 +8.83479296587E-01
1.37000000000E+09 -1.11327281451E-01 +8.94070160912E-01 -7.16057401769E-04 +3.13602782624E-04 -6.71151586725E-04 +3.19614705969E-04 -3.14749418105E-01 +8.85803382666E-01
1.37500000000E+09 -9.88502533729E-02 +8.94079588454E-01 -7.60879870570E-04 +4.46085266172E-04 -7.63359876648E-04 +3.12911148988E-04 -3.00991449119E-01 +8.87999228246E-01
1.38000000000E+09 -8.78524450549E-02 +8.93599573904E-01 -7.89367897397E-04 +5.74247661653E-04 -9.00027198131E-04 +5.04458249818E-04 -2.86413310115E-01 +8.89961684043E-01
1.38500000000E+09 -7.68039686403E-02 +8.92682654779E-01 -7.24408304544E-04 +6.98624161465E-04 -9.10788570545E-04 +6.63693682326E-04 -2.71055429369E-01 +8.91689698610E-01
1.39000000000E+09 -6.52478211503E-02 +8.91002946253E-01 -7.31229726067E-04 +7.96106076743E-04 -8.00661955708E-04 +8.47351005331E-04 -2.55171758255E-01 +8.93189890116E-01
1.39500000000E+09 -5.18049101541E-02 +8.88379225261E-01 -7.40771386675E-04 +8.54157238130E-04 -7.34744062115E-04 +9.89173000896E-04 -2.38279683214E-01 +8.93879470529E-01
1.40000000000E+09 -3.57024765795E-02 +8.84693074813E-01 -7.15923056634E-04 +1.00769709695E-03 -6.23171306933E-04 +1.11017348599E-03 -2.20855316090E-01 +8.94433248037E-01
1.40500000000E+09 -1.72903828654E-02 +8.80208433155E-01 -6.26219498183E-04 +1.16338605940E-03 -5.42826214916E-04 +1.17048466952E-03 -2.02103345300E-01 +8.94250992596E-01
1.41000000000E+09 +3.49561526183E-03 +8.74678352046E-01 -5.68465602764E-04 +1.27208272774E-03 -5.53897470450E-04 +1.23163647291E-03 -1.82182053446E-01 +8.93273014479E-01
1.41500000000E+09 +2.56175936568E-02 +8.68652725875E-01 -4.78357817081E-04 +1.45398746507E-03 -5.11649799128E-04 +1.48879161946E-03 -1.60870827408E-01 +8.91840205031E-01
1.42000000000E+09 +4.84440875015E-02 +8.61995711475E-01 -4.21355766728E-04 +1.54762237850E-03 -4.66046384047E-04 +1.66992278528E-03 -1.37905865000E-01 +8.89404222600E-01
1.42500000000E+09 +7.07463072503E-02 +8.54461571711E-01 -4.25543017481E-04 +1.82283025176E-03 -4.02076337260E-04 +2.06800266413E-03 -1.14227624328E-01 +8.85594656108E-01
1.43000000000E+09 +9.22294742836E-02 +8.46269608230E-01 -1.62382582463E-04 +2.24710304461E-03 +3.34323601937E-05 +2.43904969220E-03 -8.94032029623E-02 +8.80964954343E-01
1.43500000000E+09 +1.13086853229E-01 +8.37020600143E-01 +2.95030648434E-04 +2.43196038537E-03 +5.13990572254E-04 +2.47944535896E-03 -6.30511341047E-02 +8.74206316744E-01
1.44000000000E+09 +1.34020065493E-01 +8.26650003817E-01 +6.50310221647E-04 +2.55712743163E-03 +8.36415666721E-04 +2.52157492551E-03 -3.50114309438E-02 +8.65583820063E-01
1.44500000000E+09 +1.56523077028E-01 +8.13585295682E-01 +1.07103577345E-03 +2.53276445690E-03 +1.19527373376E-03 +2.52414716778E-03 -4.88557980197E-03 +8.54392324659E-01
1.45000000000E+09 +1.80412059247E-01 +7.96858975221E-01 +1.18456311232E-03 +2.62778804764E-03 +1.37733612327E-03 +2.60633330796E-03 +2.71504411077E-02 +8.39594897177E-01
1.45500000000E+09 +2.06413992147E-01 +7.76306211202E-01 +1.58044559435E-03 +3.01601936762E-03 +1.88239154899E-03 +2.87792240752E-03 +6.01312573796E-02 +8.21768245326E-01
1.46000000000E+09 +2.34778433638E-01 +7.51557090721E-01 +2.35018393544E-03 +3.33444612700E-03 +2.60093511066E-03 +2.96226392748E-03 +9.49599799110E-02 +8.00648047938E-01
1.46500000000E+09 +2.65275163469E-01 +7.22082802450E-01 +3.23584456494E-03 +3.41144646338E-03 +3.19323204278E-03 +2.91836555556E-03 +1.31594690555E-01 +7.73890556696E-01
1.47000000000E+09 +2.96906241161E-01 +6.87022294536E-01 +4.57782092214E-03 +3.35150273776E-03 +4.18500362107E-03 +3.06977443366E-03 +1.69063427292E-01 +7.40065183106E-01
1.47500000000E+09 +3.27949563183E-01 +6.46463638613E-01 +5.84351152050E-03 +2.60942303233E-03 +5.51801833348E-03 +2.67353167936E-03 +2.06036212997E-01 +6.98673022796E-01
1.48000000000E+09 +3.56892700007E-01 +5.99451478901E-01 +6.79246836942E-03 +1.65657611403E-03 +6.77943637985E-03 +1.78510667431E-03 +2.42269890193E-01 +6.49143979961E-01
1.48500000000E+09 +3.80874206699E-01 +5.46157527404E-01 +7.73619730609E-03 +4.90942364190E-04 +7.89468476443E-03 +4.13240715870E-04 +2.76129569586E-01 +5.90666868356E-01
1.49000000000E+09 +3.99145626727E-01 +4.86302137292E-01 +8.87513352614E-03 -9.20255204933E-04 +8.79765474929E-03 -1.38053623236E-03 +3.05662995040E-01 +5.21470624341E-01
1.49500000000E+09 +4.09727646322E-01 +4.19247383376E-01 +9.67326906347E-03 -3.01672248026E-03 +9.15978018365E-03 -3.26308823773E-03 +3.24476107910E-01 +4.39967171308E-01
1.50000000000E+09 +4.10599410174E-01 +3.43753445627E-01 +1.05569316318E-02 -5.66137676415E-03 +9.90295731900E-03 -5.37882716098E-03 +3.28427204029E-01 +3.50740739524E-01
1.50500000000E+09 +3.99496985664E-01 +2.61056575555E-01 +1.00909983157E-02 -1.00090108347E-02 +9.98909134897E-03 -9.31979952066E-03 +3.17121044270E-01 +2.54670851306E-01
1.51000000000E+09 +3.72691932140E-01 +1.71887502827E-01 +7.50240120796E-03 -1.41992354672E-02 +7.88055254158E-03 -1.37218513044E-02 +2.86130753064E-01 +1.53844150630E-01
1.51500000000E+09 +3.27696176186E-01 +8.18831550793E-02 +2.71400994831E-03 -1.69796694188E-02 +3.14247031415E-03 -1.69859861654E-02 +2.30954049817E-01 +5.51963796606E-02
1.52000000000E+09 +2.62711626088E-01 -3.95937930441E-03 -2.90167660968E-03 -1.78078901775E-02 -2.71536291985E-03 -1.80354386442E-02 +1.54037313738E-01 -3.18294351394E-02
1.52500000000E+09 +1.77396104314E-01 -7.67910154434E-02 -8.04911971019E-03 -1.56253867939E-02 -8.04118491068E-03 -1.58785958026E-02 +5.77414856737E-02 -1.00868620827E-01
1.53000000000E+09 +7.78494409867E-02 -1.28075218673E-01 -1.14205354404E-02 -1.30981619793E-02 -1.15578887122E-02 -1.32391019532E-02 -5.09766876014E-02 -1.46264825464E-01
1.53500000000E+09 -2.88740661735E-02 -1.55506741798E-01 -1.49452172598E-02 -9.92037067616E-03 -1.50147495504E-02 -9.90894920498E-03 -1.64689278523E-01 -1.64897554749E-01
1.54000000000E+09 -1.37446784599E-01 -1.59240344395E-01 -1.72808787953E-02 -5.27050577524E-03 -1.71382309895E-02 -5.25418851945E-03 -2.74254379877E-01 -1.60229420807E-01
1.54500000000E+09 -2.42917708043E-01 -1.39764543123E-01 -1.75428932652E-02 +3.49783519348E-04 -1.73878038779E-02 +3.49564438389E-05 -3.72709381454E-01 -1.34361803943E-01
1.55000000000E+09 -3.39511808280E-01 -9.88951610264E-02 -1.56320250334E-02 +4.81562108398E-03 -1.57930439645E-02 +4.24942500447E-03 -4.57311865486E-01 -9.59156490996E-02
1.55500000000E+09 -4.19886507196E-01 -4.20666053134E-02 -1.32101127359E-02 +8.38741635334E-03 -1.38474496419E-02 +8.00018436097E-03 -5.27354269910E-01 -4.77793759719E-02
1.56000000000E+09 -4.82092292463E-01 +1.96692300577E-02 -9.25826697858E-03 +1.09233881781E-02 -1.00255596129E-02 +1.11161618649E-02 -5.83818088434E-01 +5.77354871987E-03
1.56500000000E+09 -5.30386450920E-01 +8.03364279181E-02 -5.02913280953E-03 +1.12243443456E-02 -5.51722669035E-03 +1.18546677894E-02 -6.27103978909E-01 +6.10504675690E-02
1.57000000000E+09 -5.69208457093E-01 +1.38878777212E-01 -2.37856004381E-03 +1.00146979435E-02 -2.46825715885E-03 +1.06305866402E-02 -6.60345008066E-01 +1.16311605131E-01
