# Hz S RI R 50
! CMT, C1220, 16058040, 17.2.0/1
! Date: 14/08/2018 12:00:17
! Data: Format (Calibration Info)
! Freq                      S11: Re/Im (F2)                       S21: Re/Im (F2)                       S12: Re/Im (F2)                       S22: Re/Im (F2)            
1.00000000000E+09 -6.44365200950E-01 +7.12406095426E-01 +2.42550253853E-05 -3.28696482239E-05 -1.32139045519E-05 +1.07352978313E-05 -7.49879749977E-01 +6.26946425851E-01
1.00500000000E+09 -6.37349860077E-01 +7.17234502735E-01 -2.41168802979E-05 -3.70904958077E-05 -1.15415796514E-06 +1.90662465102E-05 -7.46214252387E-01 +6.31079334179E-01
1.01000000000E+09 -6.31386837202E-01 +7.21773898445E-01 -7.85684299658E-05 +2.43729006280E-05 -7.15461443572E-05 -2.19624989120E-05 -7.42840390509E-01 +6.34864723390E-01
1.01500000000E+09 -6.26872812735E-01 +7.25426865498E-01 -1.30176807722E-05 -6.70553886497E-06 -5.83643858592E-05 -2.29232476407E-05 -7.39334729170E-01 +6.38508447911E-01
1.02000000000E+09 -6.23897925291E-01 +7.28581871024E-01 -6.14766523864E-05 -2.37064537446E-07 -1.33265536025E-05 +6.53834188529E-05 -7.35806481814E-01 +6.42289839856E-01
1.02500000000E+09 -6.21725644440E-01 +7.31213342895E-01 -6.35458381274E-06 +5.44280113170E-06 +2.41651390939E-06 +5.12992591923E-05 -7.32969183163E-01 +6.45713003806E-01
1.03000000000E+09 -6.20141297975E-01 +7.33763020139E-01 -2.25709951704E-05 +4.81314662251E-05 -8.28149087753E-05 -2.41983686236E-05 -7.29360483507E-01 +6.49714883843E-01
1.03500000000E+09 -6.17692767278E-01 +7.36162551939E-01 -5.93882574581E-05 +1.36674993799E-05 -2.20956769131E-05 +5.27213985482E-06 -7.25725023883E-01 +6.53812525976E-01
1.04000000000E+09 -6.14130375833E-01 +7.38862485145E-01 -4.08392660454E-05 -1.30165473838E-05 -5.96525471400E-05 +4.79642178377E-05 -7.22046627625E-01 +6.57301436589E-01
1.04500000000E+09 -6.09076000642E-01 +7.42325723431E-01 +9.17445207803E-06 +4.54864441277E-05 -4.57694251960E-05 +4.90889167131E-05 -7.18263668305E-01 +6.60685691549E-01
1.05000000000E+09 -6.02312635140E-01 +7.46381498520E-01 -4.62655225037E-05 +5.57695140546E-05 -6.42393940023E-05 +6.63946936034E-05 -7.14968296257E-01 +6.64062243483E-01
1.05500000000E+09 -5.94336896436E-01 +7.50936029891E-01 -6.01681177969E-05 +1.33588463799E-06 -4.81659575739E-05 +5.88056747385E-05 -7.11547760126E-01 +6.67649008893E-01
1.06000000000E+09 -5.85816653716E-01 +7.55671508441E-01 -7.51961266549E-05 +7.76067374450E-05 -3.31688676990E-05 +5.01244063730E-05 -7.08171061165E-01 +6.71678586903E-01
1.06500000000E+09 -5.77888524035E-01 +7.60433982720E-01 -7.59538083567E-05 +6.86905509742E-05 -3.56779664104E-05 +6.94327287726E-05 -7.04607745933E-01 +6.75408712328E-01
1.07000000000E+09 -5.70894551673E-01 +7.64645399674E-01 -9.34829521048E-05 +5.60528595346E-05 +3.29948707143E-06 +7.86200809265E-05 -7.00553522487E-01 +6.78892507287E-01
1.07500000000E+09 -5.65400421777E-01 +7.68320043969E-01 +1.52989083190E-05 +5.85248590661E-05 +1.23415935732E-05 +3.15988748450E-05 -6.96157353828E-01 +6.82565454339E-01
1.08000000000E+09 -5.61739799448E-01 +7.71382085321E-01 -1.85016991063E-05 +6.94575435934E-05 -1.10619855021E-05 +8.51432902025E-05 -6.92204337877E-01 +6.86427613658E-01
1.08500000000E+09 -5.59254139230E-01 +7.73961167732E-01 +1.46684444925E-05 +6.21224099454E-05 -3.25961259623E-05 +4.52736633767E-05 -6.88170400744E-01 +6.90147398796E-01
1.09000000000E+09 -5.57140851561E-01 +7.76062360313E-01 -1.75897063707E-05 +8.91136893505E-05 -3.31441649609E-06 +2.44653985355E-05 -6.84265671711E-01 +6.93892846548E-01
1.09500000000E+09 -5.55288761692E-01 +7.77910148998E-01 -9.02338032848E-06 +6.22165154712E-05 -2.92769219797E-05 +1.20933423048E-04 -6.80519624806E-01 +6.97755415401E-01
1.10000000000E+09 -5.51960210219E-01 +7.80063142792E-01 -1.77180691771E-05 +3.80454780404E-05 +2.15097569165E-05 +7.16406320083E-05 -6.76524218467E-01 +7.01572142041E-01
1.10500000000E+09 -5.47345758971E-01 +7.82890369202E-01 +1.34690908541E-05 +9.55743188684E-05 -4.44054786901E-05 +2.56624180267E-05 -6.72234288411E-01 +7.05253971564E-01
1.11000000000E+09 -5.41302419239E-01 +7.86021766912E-01 +2.69025904879E-05 +8.45049779920E-05 +4.76369495071E-05 +6.95541765893E-05 -6.67949039603E-01 +7.08485162323E-01
1.11500000000E+09 -5.33838769865E-01 +7.89932357843E-01 +1.26328785243E-05 +6.51874426454E-05 +2.50814140195E-05 +1.09113403071E-04 -6.63849135342E-01 +7.12000031097E-01
1.12000000000E+09 -5.25864765398E-01 +7.93708006812E-01 +7.79888602538E-05 +5.95905489976E-05 +6.76908868954E-05 +6.10340213822E-05 -6.59703525281E-01 +7.15522537080E-01
1.12500000000E+09 -5.17721154755E-01 +7.97697061669E-01 +2.69188275909E-05 +6.68840226558E-05 +5.19806246347E-05 +8.32603695772E-05 -6.55472439624E-01 +7.19598339560E-01
1.13000000000E+09 -5.10855154283E-01 +8.01400171459E-01 +7.13432004897E-05 +6.76109117410E-05 +5.80586105849E-05 +6.38824999022E-05 -6.51269989496E-01 +7.23240407737E-01
1.13500000000E+09 -5.04845712385E-01 +8.04286076267E-01 +1.11942848947E-04 +8.21837366273E-05 +3.84106092490E-05 +5.77456057882E-05 -6.46600241061E-01 +7.27141366498E-01
1.14000000000E+09 -4.99915784528E-01 +8.07029312725E-01 +7.68959002564E-05 +4.19930755168E-05 +5.95680403565E-05 +7.99881481588E-05 -6.41774370155E-01 +7.30450815640E-01
1.14500000000E+09 -4.96234178931E-01 +8.08872453264E-01 +8.47502060818E-05 +8.06545469606E-05 +5.81392259420E-05 +7.08472244610E-05 -6.37217170930E-01 +7.33891758327E-01
1.15000000000E+09 -4.92748157716E-01 +8.10821782657E-01 +1.13424292708E-04 +4.94747948950E-05 +5.81642611758E-05 +9.74498702883E-05 -6.32489042427E-01 +7.37700844347E-01
1.15500000000E+09 -4.89103434140E-01 +8.12778086853E-01 +8.47553031358E-05 +5.82948147305E-05 +1.04542728652E-04 +5.75496244505E-05 -6.27661332853E-01 +7.41457460429E-01
1.16000000000E+09 -4.84264193788E-01 +8.14743815902E-01 +7.35064698081E-05 +4.68532095760E-05 +8.37532498772E-05 +8.51039505152E-05 -6.22830368141E-01 +7.45329535584E-01
1.16500000000E+09 -4.78359449245E-01 +8.17697258293E-01 +1.38043655263E-04 +8.85507392522E-05 +5.33772611136E-05 +5.34133556263E-05 -6.17760880621E-01 +7.48882312613E-01
1.17000000000E+09 -4.71034204170E-01 +8.20805465170E-01 +1.28814529805E-04 +4.95173061072E-05 +1.51806390725E-04 +6.84946392267E-05 -6.12237718772E-01 +7.52197659853E-01
1.17500000000E+09 -4.62814869453E-01 +8.24107512128E-01 +1.24281996271E-04 +1.15767980195E-05 +1.61062838701E-04 +4.66340626280E-05 -6.06474510497E-01 +7.55386796578E-01
1.18000000000E+09 -4.54194428679E-01 +8.27601782401E-01 +1.65429969150E-04 +6.28804545054E-05 +1.63828661878E-04 +1.22967760739E-05 -6.00911745119E-01 +7.58546153081E-01
1.18500000000E+09 -4.45918444478E-01 +8.30684405420E-01 +2.27291230880E-04 +7.55243644391E-06 +1.80345544694E-04 +5.49034639219E-05 -5.94973810867E-01 +7.61445841682E-01
1.19000000000E+09 -4.38744515032E-01 +8.33193135898E-01 +2.07959994425E-04 +3.44575400347E-05 +2.27632068517E-04 -1.26777890665E-05 -5.88658662377E-01 +7.64024965752E-01
1.19500000000E+09 -4.32838050105E-01 +8.35360083714E-01 +2.57542168897E-04 -8.39974284802E-05 +2.98942207598E-04 -1.99097578729E-05 -5.82755800329E-01 +7.65411865484E-01
1.20000000000E+09 -4.28069179393E-01 +8.36403612141E-01 +2.80944066017E-04 -1.15846239658E-04 +3.01512815963E-04 -1.54362990948E-04 -5.78073338279E-01 +7.65479822998E-01
1.20500000000E+09 -4.24110953241E-01 +8.37665296863E-01 +2.28172225939E-04 -2.01654423515E-04 +2.12689575623E-04 -1.69595551791E-04 -5.75861078190E-01 +7.66259770633E-01
1.21000000000E+09 -4.20248126573E-01 +8.39126132539E-01 +1.73338904206E-04 -1.91295209677E-04 +1.40229796869E-04 -1.98642509857E-04 -5.74111708372E-01 +7.69247997305E-01
1.21500000000E+09 -4.15180941717E-01 +8.40826650023E-01 +1.22979853994E-04 -1.63153654463E-04 +1.56886824241E-04 -2.28938199184E-04 -5.71306236171E-01 +7.73737725528E-01
1.22000000000E+09 -4.08605046654E-01 +8.42891718994E-01 +1.02267370397E-04 -1.45654966612E-04 +1.14824226064E-04 -1.93842223392E-04 -5.67175555136E-01 +7.79071775350E-01
1.22500000000E+09 -4.00428270903E-01 +8.45448545093E-01 +1.03709588389E-04 -2.10279773355E-04 +1.59493340671E-04 -2.13654609475E-04 -5.62051415687E-01 +7.84293874879E-01
1.23000000000E+09 -3.90791839484E-01 +8.48678813841E-01 +1.22725544035E-04 -2.07472390677E-04 +1.31444078172E-04 -2.21478727567E-04 -5.56303970782E-01 +7.88886330714E-01
1.23500000000E+09 -3.80722006604E-01 +8.52143204431E-01 +1.53151204266E-04 -1.99435705071E-04 +1.45910702394E-04 -2.27230042273E-04 -5.50392696068E-01 +7.93193621768E-01
1.24000000000E+09 -3.70447052841E-01 +8.55798086646E-01 +8.59095759405E-05 -2.77399666600E-04 +6.43746286577E-05 -2.64057972896E-04 -5.44366240076E-01 +7.97060030754E-01
1.24500000000E+09 -3.61135312195E-01 +8.59407588251E-01 +6.72106900352E-05 -3.07701132393E-04 +7.49384456963E-05 -2.58512609572E-04 -5.38006707978E-01 +8.00887422783E-01
1.25000000000E+09 -3.53051573471E-01 +8.62697487941E-01 +9.22400106776E-05 -2.64341564123E-04 +5.38249709111E-05 -2.54536429038E-04 -5.31457743247E-01 +8.05084078159E-01
1.25500000000E+09 -3.46360170190E-01 +8.65032097731E-01 +2.15978812892E-05 -2.79776499290E-04 +9.51825753977E-05 -3.19594948738E-04 -5.24684739382E-01 +8.09042892069E-01
1.26000000000E+09 -3.40699572958E-01 +8.66935581088E-01 +3.59476735014E-05 -3.28402396910E-04 +7.93292222630E-05 -3.12852923897E-04 -5.17804412830E-01 +8.13428493194E-01
1.26500000000E+09 -3.35617408823E-01 +8.68437805694E-01 +3.20487302753E-05 -3.62850983070E-04 +4.07305598533E-05 -3.47900843454E-04 -5.10879675454E-01 +8.17164997719E-01
1.27000000000E+09 -3.30212259398E-01 +8.69675410621E-01 -5.88612782947E-05 -3.95910128429E-04 -3.18807789932E-05 -3.85381741378E-04 -5.04047835918E-01 +8.21041340094E-01
1.27500000000E+09 -3.23722756689E-01 +8.70874541371E-01 -1.27245046882E-04 -3.85726846126E-04 -1.15583360557E-04 -4.12279901750E-04 -4.97028234655E-01 +8.24516489417E-01
1.28000000000E+09 -3.15439568524E-01 +8.72631812903E-01 -1.58364028653E-04 -3.98360934841E-04 -1.86554317240E-04 -3.88016422221E-04 -4.89886173438E-01 +8.28103968144E-01
1.28500000000E+09 -3.05037430829E-01 +8.74622631953E-01 -2.39012539312E-04 -3.68057703813E-04 -2.26103039379E-04 -4.31590157810E-04 -4.82660905879E-01 +8.31647754735E-01
1.29000000000E+09 -2.93363279906E-01 +8.76864929467E-01 -2.37244403029E-04 -3.42449206716E-04 -2.69459008516E-04 -3.81863758648E-04 -4.75088243220E-01 +8.35246772162E-01
1.29500000000E+09 -2.81099484829E-01 +8.79588800865E-01 -2.35619029943E-04 -3.44353275826E-04 -2.63855368802E-04 -4.09598076773E-04 -4.67219319673E-01 +8.38811280581E-01
1.30000000000E+09 -2.68868948538E-01 +8.82702889409E-01 -2.62308541748E-04 -4.15038839262E-04 -3.78084835519E-04 -3.64816842632E-04 -4.59457269312E-01 +8.42407421869E-01
1.30500000000E+09 -2.57884823911E-01 +8.85633464967E-01 -3.72810933678E-04 -3.69365952645E-04 -3.90026293986E-04 -3.43972706537E-04 -4.51241884191E-01 +8.45850830389E-01
1.31000000000E+09 -2.48142743425E-01 +8.88070944413E-01 -4.74955077741E-04 -3.39044910956E-04 -4.37217753388E-04 -3.04399021426E-04 -4.42930662797E-01 +8.49205765324E-01
1.31500000000E+09 -2.40385407574E-01 +8.90067351347E-01 -5.32017602847E-04 -2.59892365457E-04 -4.88204242234E-04 -2.61975428193E-04 -4.34093313508E-01 +8.52447861906E-01
1.32000000000E+09 -2.33962578475E-01 +8.91290795855E-01 -5.05389779713E-04 -2.52159548503E-04 -4.83614839293E-04 -2.71367085808E-04 -4.25013901825E-01 +8.55951136257E-01
1.32500000000E+09 -2.28097927319E-01 +8.91796708500E-01 -5.04462098592E-04 -2.16651850351E-04 -5.63453911519E-04 -2.22226287374E-04 -4.15323492858E-01 +8.59337394757E-01
1.33000000000E+09 -2.21603067912E-01 +8.92013311609E-01 -5.89095943611E-04 -2.32080512797E-04 -5.96436156897E-04 -1.59216182570E-04 -4.05515415556E-01 +8.62668888939E-01
1.33500000000E+09 -2.13371330470E-01 +8.91847971814E-01 -6.65708846517E-04 -1.86688763654E-04 -6.47454469484E-04 -1.64950139184E-04 -3.95595764052E-01 +8.65929604173E-01
1.34000000000E+09 -2.02766346637E-01 +8.91923945789E-01 -7.45037268573E-04 -1.65093645261E-04 -6.90658667875E-04 -9.56491346108E-05 -3.85364046502E-01 +8.69121883265E-01
1.34500000000E+09 -1.89549304923E-01 +8.91775070508E-01 -7.56232400337E-04 -7.39423791851E-05 -7.84595688512E-04 -7.15557829844E-05 -3.74524970038E-01 +8.72440786670E-01
1.35000000000E+09 -1.74072789189E-01 +8.91458435267E-01 -8.76406627804E-04 +4.64312382335E-05 -7.99579470624E-04 +6.29391118680E-05 -3.63417193076E-01 +8.75453281114E-01
1.35500000000E+09 -1.57620774989E-01 +8.91458128679E-01 -8.26298326098E-04 +1.54380076158E-04 -8.44557526693E-04 +1.13743352183E-04 -3.51688352552E-01 +8.78237942381E-01
1.36000000000E+09 -1.41038272989E-01 +8.91772577164E-01 -8.71534309000E-04 +1.68384131290E-04 -8.16313794717E-04 +1.56896894689E-04 -3.39849330606E-01 +8.80994438076E-01
1.36500000000E+09 -1.25074969328E-01 +8.92187701193E-01 -8.95872174985E-04 +2.58577949918E-04 -8.34229084657E-04 +2.34446138038E-04 -3.27831090059E-01 +8.83399830371E-01
1.37000000000E+09 -1.10592429319E-01 +8.92292824766E-01 -9.83836984910E-04 +3.13828168278E-04 -9.27435745271E-04 +2.97287908486E-04 -3.14909477240E-01 +8.85691051611E-01
1.37500000000E+09 -9.80093172087E-02 +8.92208632561E-01 -1.02365027800E-03 +4.45654306455E-04 -1.06145340434E-03 +3.60038321730E-04 -3.01032055498E-01 +8.88005146582E-01
1.38000000000E+09 -8.68880314928E-02 +8.91634791400E-01 -1.06159867503E-03 +6.59544526465E-04 -1.21779632491E-03 +5.60539813416E-04 -2.86547254020E-01 +8.89873733234E-01
1.38500000000E+09 -7.58149541354E-02 +8.90628717792E-01 -1.00860923671E-03 +8.48814291058E-04 -1.18899135698E-03 +8.18708307647E-04 -2.71142525073E-01 +8.91706881498E-01
1.39000000000E+09 -6.42609209371E-02 +8.88843633380E-01 -9.41951401193E-04 +9.21814955359E-04 -1.08221041262E-03 +1.02830080347E-03 -2.55114993340E-01 +8.93076276390E-01
1.39500000000E+09 -5.07726718055E-02 +8.86313705759E-01 -9.74170372432E-04 +1.06530708267E-03 -9.97179062731E-04 +1.26833558592E-03 -2.38362305273E-01 +8.93819404702E-01
1.40000000000E+09 -3.45595331004E-02 +8.82574172061E-01 -9.45587114292E-04 +1.27650816741E-03 -8.18420062895E-04 +1.39501410636E-03 -2.20868286753E-01 +8.94183389812E-01
1.40500000000E+09 -1.61786388301E-02 +8.78066079382E-01 -8.43188244549E-04 +1.50116356576E-03 -7.45143017789E-04 +1.48008726163E-03 -2.02106539481E-01 +8.94056504747E-01
1.41000000000E+09 +4.45170992284E-03 +8.72517751309E-01 -7.97645128909E-04 +1.62453272813E-03 -8.16916131384E-04 +1.57904543078E-03 -1.82250272847E-01 +8.93161070269E-01
1.41500000000E+09 +2.63560626724E-02 +8.66234712641E-01 -6.28355358221E-04 +1.85359735793E-03 -7.19310156844E-04 +1.88303144616E-03 -1.60829394420E-01 +8.91763951272E-01
1.42000000000E+09 +4.90108360527E-02 +8.59668952543E-01 -5.53555841791E-04 +1.96744004303E-03 -6.48060129209E-04 +2.14552968380E-03 -1.37984527705E-01 +8.89230833088E-01
1.42500000000E+09 +7.14321267115E-02 +8.52353663155E-01 -5.09040057766E-04 +2.24619619131E-03 -4.39314878250E-04 +2.58470387737E-03 -1.14278986221E-01 +8.85534526300E-01
1.43000000000E+09 +9.29645312715E-02 +8.44118199928E-01 -2.75365408410E-04 +2.73913637404E-03 -3.53677640021E-05 +3.00150927756E-03 -8.95645894550E-02 +8.80800930100E-01
1.43500000000E+09 +1.14039600903E-01 +8.34497706263E-01 +2.52420817143E-04 +3.05691128345E-03 +5.73485231651E-04 +3.15065544681E-03 -6.32495813249E-02 +8.74077959614E-01
1.44000000000E+09 +1.34975840172E-01 +8.23784009863E-01 +7.13150431680E-04 +3.20165856385E-03 +9.41896991599E-04 +3.17921321309E-03 -3.53738486871E-02 +8.65523205432E-01
1.44500000000E+09 +1.57315260445E-01 +8.10633423250E-01 +1.25461844407E-03 +3.27172866814E-03 +1.46600449308E-03 +3.24799198121E-03 -5.16568551508E-03 +8.54447369023E-01
1.45000000000E+09 +1.81339005006E-01 +7.93633845094E-01 +1.45802166392E-03 +3.34330104989E-03 +1.71938409834E-03 +3.27667488589E-03 +2.67539453910E-02 +8.39688863213E-01
1.45500000000E+09 +2.07191648150E-01 +7.72880779700E-01 +1.87084249351E-03 +3.78304604735E-03 +2.24216917014E-03 +3.61751205266E-03 +5.95752035720E-02 +8.21788381213E-01
1.46000000000E+09 +2.35585633666E-01 +7.47807336756E-01 +2.82274153920E-03 +4.35950476081E-03 +3.14215596398E-03 +3.87360433778E-03 +9.45141556971E-02 +8.00982758838E-01
1.46500000000E+09 +2.65713061555E-01 +7.18223913100E-01 +4.18478264887E-03 +4.49661693651E-03 +4.11604313132E-03 +3.90887498612E-03 +1.31200588141E-01 +7.74320368852E-01
1.47000000000E+09 +2.97140358828E-01 +6.83118208111E-01 +6.03721991439E-03 +4.21181857487E-03 +5.51292850857E-03 +3.86832084227E-03 +1.68476039620E-01 +7.40522591079E-01
1.47500000000E+09 +3.28237583034E-01 +6.42264973945E-01 +7.44749608071E-03 +2.99203817913E-03 +6.98134039873E-03 +3.10565808298E-03 +2.05767568652E-01 +6.99401358217E-01
1.48000000000E+09 +3.56857345133E-01 +5.94813559864E-01 +8.39942986832E-03 +1.84077012247E-03 +8.36962256508E-03 +2.06493385544E-03 +2.42232693710E-01 +6.50121199295E-01
1.48500000000E+09 +3.80471108723E-01 +5.40963069922E-01 +9.53900994385E-03 +6.42821558746E-04 +9.81070627420E-03 +5.48309628035E-04 +2.76645773466E-01 +5.91680132252E-01
1.49000000000E+09 +3.97922718358E-01 +4.80647778052E-01 +1.12785317791E-02 -1.15540685127E-03 +1.11681590837E-02 -1.65945594426E-03 +3.06387075371E-01 +5.21901560497E-01
1.49500000000E+09 +4.07897405003E-01 +4.13727792292E-01 +1.23290823902E-02 -4.15843938567E-03 +1.16070723080E-02 -4.47283891493E-03 +3.24920767944E-01 +4.40133641007E-01
1.50000000000E+09 +4.08429553500E-01 +3.37875617630E-01 +1.29131882217E-02 -7.82065840016E-03 +1.20908541934E-02 -7.38039310628E-03 +3.29113098723E-01 +3.50796157588E-01
1.50500000000E+09 +3.96467657925E-01 +2.54794302527E-01 +1.17487825077E-02 -1.27533836060E-02 +1.15938043732E-02 -1.18494921473E-02 +3.17507947523E-01 +2.54269223829E-01
1.51000000000E+09 +3.68379007112E-01 +1.65158795921E-01 +8.60212032350E-03 -1.73692140330E-02 +9.16357630158E-03 -1.68072280518E-02 +2.85893320295E-01 +1.53426806412E-01
1.51500000000E+09 +3.20933739820E-01 +7.55049551683E-02 +2.87511479881E-03 -2.08365497227E-02 +3.49822431548E-03 -2.09032704169E-02 +2.30407600192E-01 +5.51619400864E-02
1.52000000000E+09 +2.53886031366E-01 -7.84712137603E-03 -4.10453773326E-03 -2.16291446741E-02 -3.85367271137E-03 -2.19164170152E-02 +1.53029202034E-01 -3.15063494485E-02
1.52500000000E+09 +1.68582949374E-01 -7.80984197222E-02 -1.02941468416E-02 -1.87494477791E-02 -1.02655897530E-02 -1.90183174835E-02 +5.70409487286E-02 -9.93448125814E-02
1.53000000000E+09 +6.93325987774E-02 -1.27668820178E-01 -1.42402257508E-02 -1.54850264135E-02 -1.43362566921E-02 -1.56531284794E-02 -5.07720763662E-02 -1.44601221385E-01
1.53500000000E+09 -3.73582645610E-02 -1.53370156570E-01 -1.81350844536E-02 -1.17484523240E-02 -1.82190247811E-02 -1.17138088788E-02 -1.63876241460E-01 -1.63303952822E-01
1.54000000000E+09 -1.45437455886E-01 -1.55230550099E-01 -2.09653118805E-02 -6.06228849915E-03 -2.08556961135E-02 -6.08843208872E-03 -2.72827697895E-01 -1.58920073427E-01
1.54500000000E+09 -2.49611020670E-01 -1.32999563348E-01 -2.13781828464E-02 +7.21236194010E-04 -2.11877719897E-02 +3.64684647110E-04 -3.70928622414E-01 -1.33636642892E-01
1.55000000000E+09 -3.43095661745E-01 -9.07237724800E-02 -1.87912677137E-02 +6.37946596349E-03 -1.90090669259E-02 +5.67070116377E-03 -4.55421905942E-01 -9.57636068142E-02
1.55500000000E+09 -4.20381426843E-01 -3.44672119826E-02 -1.53618266430E-02 +1.03098013074E-02 -1.61387945960E-02 +9.83246000520E-03 -5.25587587709E-01 -4.82425180441E-02
1.56000000000E+09 -4.80633167800E-01 +2.58089412857E-02 -1.09484739160E-02 +1.28554072040E-02 -1.18883253123E-02 +1.30098461368E-02 -5.82378971468E-01 +4.99080037200E-03
1.56500000000E+09 -5.28089667322E-01 +8.52363696041E-02 -6.39369178406E-03 +1.33324543333E-02 -7.02225844499E-03 +1.40134125938E-02 -6.25952943198E-01 +6.03185378517E-02
1.57000000000E+09 -5.66135272949E-01 +1.43055550007E-01 -3.21182599779E-03 +1.22567038108E-02 -3.24189124597E-03 +1.30853121212E-02 -6.59345654985E-01 +1.15264739137E-01
