# Hz S RI R 50
! CMT, C1220, 16058040, 17.2.0/1
! Date: 14/08/2018 11:54:45
! Data: Format (Calibration Info)
! Freq                      S11: Re/Im (F2)                       S21: Re/Im (F2)                       S12: Re/Im (F2)                       S22: Re/Im (F2)            
1.00000000000E+09 -6.43138111650E-01 +7.10580644785E-01 +3.09860427870E-05 +2.20968742555E-06 -4.11889880880E-05 -3.75595496576E-05 -7.50177286399E-01 +6.26650653410E-01
1.00500000000E+09 -6.36024115821E-01 +7.15588124899E-01 -1.14508618679E-06 -8.86276299268E-06 -2.71471502403E-05 -1.77491882443E-05 -7.46502856457E-01 +6.30851389886E-01
1.01000000000E+09 -6.30086294251E-01 +7.20074152111E-01 -2.74353179572E-05 +6.86925755152E-06 -1.17249753767E-05 -2.98971027517E-05 -7.42894209784E-01 +6.34454616453E-01
1.01500000000E+09 -6.25676102919E-01 +7.23814358632E-01 +3.20577094996E-05 -3.42127007176E-05 -2.33980218136E-05 -3.54186582414E-05 -7.39518622764E-01 +6.38357460133E-01
1.02000000000E+09 -6.22491676026E-01 +7.27081854209E-01 -3.79725733770E-05 -2.92196286691E-05 -4.09855723308E-05 +3.60272710753E-05 -7.35922855472E-01 +6.41932489632E-01
1.02500000000E+09 -6.20538077886E-01 +7.29657005730E-01 -5.81709924164E-05 +1.24742586829E-05 -4.50163124854E-05 +1.11581502222E-05 -7.33078471827E-01 +6.45667413870E-01
1.03000000000E+09 -6.19016173394E-01 +7.31892741948E-01 -7.26398040783E-06 +7.48926345730E-06 -2.78279047482E-05 -6.18867712195E-06 -7.29561492259E-01 +6.49499457585E-01
1.03500000000E+09 -6.16744167446E-01 +7.34312457580E-01 -1.14745706743E-05 +3.69325720571E-05 -3.66007539772E-05 -2.89324312047E-05 -7.25775609901E-01 +6.53332933525E-01
1.04000000000E+09 -6.13273181744E-01 +7.37179383339E-01 -5.98994526255E-05 +6.57798669734E-05 -5.89512659587E-05 +1.45082644525E-05 -7.22026110179E-01 +6.57009509032E-01
1.04500000000E+09 -6.08253293701E-01 +7.40644997931E-01 -6.61914934727E-05 +2.21618379587E-05 -6.83562587623E-05 +3.88138054029E-05 -7.18532396788E-01 +6.60434384510E-01
1.05000000000E+09 -6.01399968099E-01 +7.44711326386E-01 -8.82354461083E-05 +4.62364595730E-05 -2.23870147439E-05 +3.14851912329E-05 -7.15006516610E-01 +6.63970845277E-01
1.05500000000E+09 -5.93456749049E-01 +7.49088622624E-01 -5.59514416516E-05 +4.01077920445E-06 -2.46421599906E-05 +4.74876292041E-05 -7.11810140530E-01 +6.67620082290E-01
1.06000000000E+09 -5.84812934604E-01 +7.54175036506E-01 -3.96234253876E-05 +4.27959153280E-05 -3.14697637101E-05 +1.92905969026E-05 -7.08460836654E-01 +6.71254780077E-01
1.06500000000E+09 -5.76883961907E-01 +7.59083764455E-01 +7.33844096141E-06 +5.61265708511E-05 -3.40746678545E-05 +4.48769160611E-05 -7.04709098980E-01 +6.75065976172E-01
1.07000000000E+09 -5.69697759650E-01 +7.63265685487E-01 -1.70561062242E-05 +6.31399420577E-05 +8.00791002348E-06 +6.31423567551E-05 -7.00687273530E-01 +6.78739862472E-01
1.07500000000E+09 -5.64543837384E-01 +7.66796361984E-01 -1.58525407089E-05 +6.17291769929E-05 -6.74407629019E-06 +6.97490648119E-05 -6.96260294604E-01 +6.82323924115E-01
1.08000000000E+09 -5.60887214479E-01 +7.70094341983E-01 +4.33964565322E-05 +8.17280883927E-05 +1.03169532506E-05 +6.81886352123E-05 -6.92366384320E-01 +6.86192613170E-01
1.08500000000E+09 -5.58325676504E-01 +7.72514976534E-01 +8.17122400775E-06 +6.69298389013E-05 -1.36167150242E-05 +3.66658418086E-05 -6.88236158928E-01 +6.89796498636E-01
1.09000000000E+09 -5.56345130118E-01 +7.74663879062E-01 +5.60659146062E-05 +3.90957361930E-05 -1.16537651518E-06 +9.42282723097E-05 -6.84578666485E-01 +6.93604319077E-01
1.09500000000E+09 -5.54571032056E-01 +7.76531791330E-01 +5.77267407427E-05 +6.43010888169E-05 -4.88683371937E-06 +5.07182810498E-05 -6.80664737558E-01 +6.97538749145E-01
1.10000000000E+09 -5.51225387387E-01 +7.78816116607E-01 -2.53572564510E-07 +5.00990474788E-05 +2.17388420215E-05 +5.61139686461E-05 -6.76631909146E-01 +7.01343438349E-01
1.10500000000E+09 -5.47009941052E-01 +7.81401523042E-01 +8.20367633318E-05 +7.96877876013E-05 +3.85471846339E-05 +9.11243544734E-05 -6.72338306803E-01 +7.05091011449E-01
1.11000000000E+09 -5.40923386824E-01 +7.84668373231E-01 +2.45952259567E-05 +4.65341587007E-05 +8.67866655180E-06 +9.45926525893E-05 -6.68031493270E-01 +7.08189134147E-01
1.11500000000E+09 -5.33391398124E-01 +7.88567836912E-01 +3.07312287047E-05 +7.19940540568E-05 +1.32244314426E-05 +2.70250599813E-05 -6.63956346888E-01 +7.11644724891E-01
1.12000000000E+09 -5.25508546521E-01 +7.92532524798E-01 +5.10433386506E-05 +7.75617547403E-05 +3.90934613690E-05 +1.15070867131E-04 -6.59905731967E-01 +7.15391973372E-01
1.12500000000E+09 -5.17354617382E-01 +7.96480192878E-01 +6.38568068255E-05 +6.76466002654E-05 +4.62811385585E-05 +7.21286451690E-05 -6.55693896272E-01 +7.19341744107E-01
1.13000000000E+09 -5.10450953437E-01 +8.00064301212E-01 +6.33236750705E-05 +1.05190536001E-04 +7.02883171204E-05 +8.02241848307E-05 -6.51337557271E-01 +7.22988006872E-01
1.13500000000E+09 -5.04377429300E-01 +8.03182791201E-01 +6.88285923482E-06 +5.44397354335E-05 +9.41177662660E-05 +4.40048961598E-05 -6.46723429576E-01 +7.26808253339E-01
1.14000000000E+09 -4.99804225535E-01 +8.05932757063E-01 +3.00541708273E-05 +2.85638859664E-05 +5.59059018880E-05 +9.82157521729E-05 -6.42075521209E-01 +7.30278973218E-01
1.14500000000E+09 -4.96058325906E-01 +8.07797202072E-01 +9.41669572876E-05 +5.14870970826E-05 +8.79287723496E-05 +8.72536344031E-05 -6.37333706514E-01 +7.33746218754E-01
1.15000000000E+09 -4.92621649162E-01 +8.09720265131E-01 +9.04385581152E-05 +7.65359520531E-05 +7.02026631503E-05 +7.13550921920E-05 -6.32739544157E-01 +7.37525087998E-01
1.15500000000E+09 -4.89037589658E-01 +8.11720295733E-01 +1.02394778875E-04 +3.79386568196E-05 +9.31905184160E-05 +4.76299524919E-05 -6.27921686686E-01 +7.41194587602E-01
1.16000000000E+09 -4.84450410310E-01 +8.13706540411E-01 +8.83304881380E-05 +5.71831756794E-05 +1.41897207582E-04 +7.89334893099E-05 -6.23038760237E-01 +7.44960865376E-01
1.16500000000E+09 -4.78423846497E-01 +8.16521700396E-01 +1.40891485662E-04 +8.08552098236E-05 +1.24647348026E-04 +1.70368627802E-05 -6.18066498779E-01 +7.48665693873E-01
1.17000000000E+09 -4.71216636458E-01 +8.19730186834E-01 +1.19147068453E-04 +4.25155645004E-05 +1.20488677618E-04 +3.56816565805E-05 -6.12477437996E-01 +7.52030135902E-01
1.17500000000E+09 -4.62822077369E-01 +8.23095215981E-01 +1.54691025224E-04 +4.21848994627E-05 +1.55909704116E-04 +2.66281062405E-05 -6.06720371589E-01 +7.55236064891E-01
1.18000000000E+09 -4.54403724873E-01 +8.26698471522E-01 +1.50468488101E-04 -4.80036747768E-06 +1.84416304156E-04 +8.47843093294E-06 -6.01208138615E-01 +7.58199190571E-01
1.18500000000E+09 -4.46162307752E-01 +8.29928633596E-01 +1.89884232050E-04 -1.70331995898E-05 +1.42632970760E-04 +4.45180667577E-05 -5.95186888231E-01 +7.61307013930E-01
1.19000000000E+09 -4.38993239842E-01 +8.32609297324E-01 +2.09094226906E-04 +9.79281999297E-06 +2.26579761456E-04 +9.16510163783E-06 -5.89013479690E-01 +7.63797116888E-01
1.19500000000E+09 -4.32967355840E-01 +8.34688854962E-01 +2.12437420904E-04 +2.00657073522E-05 +2.52279019772E-04 -5.64502144857E-05 -5.82950061730E-01 +7.65111094569E-01
1.20000000000E+09 -4.28344148986E-01 +8.35801121406E-01 +2.22652967379E-04 -9.90518497060E-05 +2.20596650814E-04 -1.30097357437E-04 -5.78384442423E-01 +7.65216015585E-01
1.20500000000E+09 -4.24538649828E-01 +8.37299555021E-01 +2.09687857453E-04 -1.80864195560E-04 +1.98917205203E-04 -2.23816486672E-04 -5.76249265686E-01 +7.66180611462E-01
1.21000000000E+09 -4.20512281827E-01 +8.38695296924E-01 +1.44557443286E-04 -1.93138165244E-04 +1.17123498066E-04 -1.76920467281E-04 -5.74455047088E-01 +7.69079583931E-01
1.21500000000E+09 -4.15540190367E-01 +8.40335595567E-01 +1.50643984870E-04 -1.36326350981E-04 +1.19515369097E-04 -1.82965588040E-04 -5.71545469350E-01 +7.73576113478E-01
1.22000000000E+09 -4.08943646276E-01 +8.42501811829E-01 +1.17275338941E-04 -1.82144245355E-04 +1.21476170891E-04 -1.67414745890E-04 -5.67319280715E-01 +7.78856802548E-01
1.22500000000E+09 -4.00823990747E-01 +8.45191182780E-01 +1.46137733920E-04 -1.65142445763E-04 +1.63676763432E-04 -2.13542642826E-04 -5.62214839912E-01 +7.83937129345E-01
1.23000000000E+09 -3.91224232722E-01 +8.48382437619E-01 +9.45418686396E-05 -2.24332379553E-04 +1.16923605999E-04 -2.12880366631E-04 -5.56583999197E-01 +7.88583129821E-01
1.23500000000E+09 -3.81186841235E-01 +8.52025825705E-01 +1.27022663979E-04 -2.03841947839E-04 +5.76313298627E-05 -2.24562894836E-04 -5.50728289748E-01 +7.93036223536E-01
1.24000000000E+09 -3.70746403803E-01 +8.55667993234E-01 +1.28048947149E-04 -2.75146152312E-04 +6.45938661073E-05 -2.27284769022E-04 -5.44648268778E-01 +7.97010448592E-01
1.24500000000E+09 -3.61467097078E-01 +8.59517203308E-01 +6.31103135883E-05 -2.40471654563E-04 +9.06962837684E-05 -2.95389861441E-04 -5.38273151333E-01 +8.00658585765E-01
1.25000000000E+09 -3.53296859899E-01 +8.62779880627E-01 +6.79623820620E-05 -3.10026090970E-04 +6.23950329623E-05 -2.90477611121E-04 -5.31684590141E-01 +8.04802891894E-01
1.25500000000E+09 -3.46531005724E-01 +8.65390293854E-01 +1.48650460081E-05 -3.15357542386E-04 +1.43849227635E-05 -2.97204300026E-04 -5.24865546022E-01 +8.08859312661E-01
1.26000000000E+09 -3.40946599377E-01 +8.67214868774E-01 +6.49040975453E-05 -2.82646164890E-04 -2.46570296756E-05 -2.97738566656E-04 -5.18249375156E-01 +8.13124076044E-01
1.26500000000E+09 -3.35975151940E-01 +8.68672065189E-01 -1.39413131960E-05 -3.04006337669E-04 -2.38762374332E-05 -3.17805856666E-04 -5.11168660780E-01 +8.16996580483E-01
1.27000000000E+09 -3.30637864043E-01 +8.69990010361E-01 -3.74253832096E-05 -3.93985395071E-04 -9.37250726146E-05 -3.93816151840E-04 -5.04344473067E-01 +8.21002915102E-01
1.27500000000E+09 -3.24282414082E-01 +8.71216408672E-01 -1.18079595490E-04 -3.78693571426E-04 -1.09557749746E-04 -3.57727435907E-04 -4.97352213849E-01 +8.24338147711E-01
1.28000000000E+09 -3.15976287243E-01 +8.72897482024E-01 -1.77583247277E-04 -3.41597486104E-04 -1.40128563324E-04 -4.11928634609E-04 -4.90296685337E-01 +8.27824887216E-01
1.28500000000E+09 -3.05616030680E-01 +8.74978670854E-01 -2.21652796018E-04 -2.81238901839E-04 -2.31734585070E-04 -3.51266137872E-04 -4.82959314671E-01 +8.31531107328E-01
1.29000000000E+09 -2.93952756461E-01 +8.77354701610E-01 -1.98615405429E-04 -2.99781409213E-04 -2.96192910721E-04 -3.24052057135E-04 -4.75477099254E-01 +8.35123373338E-01
1.29500000000E+09 -2.81605794209E-01 +8.80270270200E-01 -2.19656090159E-04 -3.26230668617E-04 -2.94798439158E-04 -3.22070718913E-04 -4.67619908151E-01 +8.38633983597E-01
1.30000000000E+09 -2.69180269988E-01 +8.83498529642E-01 -3.09296584477E-04 -3.32954211585E-04 -3.34142560003E-04 -3.05490883041E-04 -4.59498926237E-01 +8.42144085205E-01
1.30500000000E+09 -2.57973420189E-01 +8.86484831559E-01 -3.44559532537E-04 -3.55350710231E-04 -3.94467251243E-04 -3.22627928164E-04 -4.51424079528E-01 +8.45706817956E-01
1.31000000000E+09 -2.48259448273E-01 +8.89047980098E-01 -4.60050286821E-04 -3.11698295692E-04 -4.40500881828E-04 -3.07054691357E-04 -4.43236482281E-01 +8.49095739147E-01
1.31500000000E+09 -2.40473415471E-01 +8.91105035935E-01 -4.79886155213E-04 -2.37331136355E-04 -4.45739420677E-04 -2.26255649535E-04 -4.34424850596E-01 +8.52486176983E-01
1.32000000000E+09 -2.33977877979E-01 +8.92210512074E-01 -4.27836659769E-04 -1.87023663094E-04 -4.88376266722E-04 -1.84646679917E-04 -4.25235934549E-01 +8.55870780125E-01
1.32500000000E+09 -2.28336896866E-01 +8.92903682911E-01 -5.07516938231E-04 -1.75218619358E-04 -5.41519196386E-04 -2.03869368538E-04 -4.15577224475E-01 +8.59338430153E-01
1.33000000000E+09 -2.21734017537E-01 +8.93214716720E-01 -4.95938330264E-04 -1.31736173952E-04 -6.07110694567E-04 -1.07701328642E-04 -4.05847478883E-01 +8.62637704709E-01
1.33500000000E+09 -2.13657232755E-01 +8.93130666371E-01 -5.83794375725E-04 -1.40010174357E-04 -6.21319164301E-04 -6.33404096026E-05 -3.95824454513E-01 +8.65910756433E-01
1.34000000000E+09 -2.03057711355E-01 +8.93221287332E-01 -6.62058830317E-04 -9.02331324015E-05 -6.44316908275E-04 -4.06060700520E-05 -3.85569436173E-01 +8.69143107123E-01
1.34500000000E+09 -1.89654018207E-01 +8.93176168587E-01 -6.78459624098E-04 -2.85795604177E-05 -6.47267935099E-04 +4.12491658725E-05 -3.74605369669E-01 +8.72439425910E-01
1.35000000000E+09 -1.74269468999E-01 +8.93102131356E-01 -7.27143193909E-04 +8.49908826781E-05 -7.24518795568E-04 +7.44356165296E-05 -3.63525318044E-01 +8.75504591500E-01
1.35500000000E+09 -1.57549504773E-01 +8.93019002922E-01 -7.37492604609E-04 +1.36047208212E-04 -7.75380230609E-04 +1.66461933913E-04 -3.51869576610E-01 +8.78127745787E-01
1.36000000000E+09 -1.40814108958E-01 +8.93482803024E-01 -7.60671468398E-04 +2.14371259073E-04 -7.18724714786E-04 +2.04176339731E-04 -3.39910283413E-01 +8.80888729527E-01
1.36500000000E+09 -1.24664303281E-01 +8.93929709697E-01 -7.90009325016E-04 +3.16216978070E-04 -7.73716691698E-04 +2.72283808344E-04 -3.27747214434E-01 +8.83383702417E-01
1.37000000000E+09 -1.10227065357E-01 +8.93995062412E-01 -8.21354585511E-04 +3.77609873024E-04 -7.82439853335E-04 +3.34262771149E-04 -3.14838764383E-01 +8.85732334343E-01
1.37500000000E+09 -9.77418927768E-02 +8.94203198026E-01 -8.40290349163E-04 +5.14714476238E-04 -9.05468606291E-04 +3.66232253071E-04 -3.00933624729E-01 +8.87888213860E-01
1.38000000000E+09 -8.64861581159E-02 +8.93635028716E-01 -8.75152085427E-04 +5.87351317417E-04 -9.90780709856E-04 +4.86187208459E-04 -2.86331996404E-01 +8.89884509202E-01
1.38500000000E+09 -7.56023277314E-02 +8.92749926564E-01 -8.31268157346E-04 +7.61038250906E-04 -1.02244027281E-03 +8.03096226682E-04 -2.71009981132E-01 +8.91695030527E-01
1.39000000000E+09 -6.39768893440E-02 +8.91004619846E-01 -7.69437208433E-04 +8.42693482256E-04 -9.30158095537E-04 +9.72083660850E-04 -2.55020672260E-01 +8.92970708239E-01
1.39500000000E+09 -5.04920152038E-02 +8.88414317224E-01 -8.15954557218E-04 +9.47536900910E-04 -7.68799909520E-04 +1.13246790292E-03 -2.38113762145E-01 +8.93591284780E-01
1.40000000000E+09 -3.43059369038E-02 +8.84769021410E-01 -7.51393367097E-04 +1.12777070003E-03 -6.72392752984E-04 +1.22604163840E-03 -2.20436358289E-01 +8.94076426886E-01
1.40500000000E+09 -1.55561603849E-02 +8.80183796601E-01 -6.43500613741E-04 +1.26328480380E-03 -5.45775855491E-04 +1.27989573394E-03 -2.01704305215E-01 +8.93772033481E-01
1.41000000000E+09 +5.25166142059E-03 +8.74740676749E-01 -6.21237898896E-04 +1.39726513792E-03 -6.20860051160E-04 +1.36516043699E-03 -1.81623877675E-01 +8.92784114832E-01
1.41500000000E+09 +2.76152869731E-02 +8.68468267280E-01 -5.66030222975E-04 +1.55697381638E-03 -6.32667098601E-04 +1.57303364926E-03 -1.60260254408E-01 +8.91232964838E-01
1.42000000000E+09 +5.05803815484E-02 +8.61894468596E-01 -4.97224438289E-04 +1.70457987979E-03 -5.77252444981E-04 +1.83539867660E-03 -1.37312767869E-01 +8.88601847172E-01
1.42500000000E+09 +7.32279493691E-02 +8.54436142466E-01 -4.63162679967E-04 +1.98999761057E-03 -4.34583008137E-04 +2.27262815481E-03 -1.13667860455E-01 +8.84781540297E-01
1.43000000000E+09 +9.50727764818E-02 +8.46262455944E-01 -2.11887939335E-04 +2.38159854123E-03 +1.38858158787E-05 +2.62163185907E-03 -8.88517521695E-02 +8.79789030514E-01
1.43500000000E+09 +1.16133123613E-01 +8.36701105131E-01 +2.45559833701E-04 +2.61236988355E-03 +5.32972211372E-04 +2.66870778930E-03 -6.26666690514E-02 +8.72759659215E-01
1.44000000000E+09 +1.37389472640E-01 +8.25984970082E-01 +5.87105255937E-04 +2.74834564983E-03 +7.71215744924E-04 +2.76502929725E-03 -3.49785940866E-02 +8.63957107856E-01
1.44500000000E+09 +1.59704558714E-01 +8.12629572130E-01 +1.10949741028E-03 +2.82979287395E-03 +1.25306055920E-03 +2.77177298572E-03 -4.78967969557E-03 +8.52682444914E-01
1.45000000000E+09 +1.83953865673E-01 +7.95839229849E-01 +1.19120579961E-03 +2.84871836414E-03 +1.39168024785E-03 +2.85966229222E-03 +2.70559507495E-02 +8.37646529823E-01
1.45500000000E+09 +2.10277051361E-01 +7.74934084584E-01 +1.42688836377E-03 +3.34663830380E-03 +1.77671254677E-03 +3.22615817865E-03 +5.94070306906E-02 +8.19497196065E-01
1.46000000000E+09 +2.38869986233E-01 +7.49385573444E-01 +2.38493910031E-03 +3.99493053994E-03 +2.64202733592E-03 +3.58435919525E-03 +9.38185069743E-02 +7.98500332114E-01
1.46500000000E+09 +2.69391114492E-01 +7.19296047576E-01 +3.64378579197E-03 +4.21740339112E-03 +3.61161090509E-03 +3.57566145033E-03 +1.30180754951E-01 +7.71581057973E-01
1.47000000000E+09 +3.01163248241E-01 +6.83626353923E-01 +5.33233329904E-03 +3.87809585676E-03 +4.92911079502E-03 +3.63177723541E-03 +1.66974374684E-01 +7.37866132753E-01
1.47500000000E+09 +3.32358358327E-01 +6.42278315527E-01 +6.67434239252E-03 +2.78530004901E-03 +6.23524487556E-03 +2.87428491001E-03 +2.03416984446E-01 +6.96966747497E-01
1.48000000000E+09 +3.61317672343E-01 +5.94349702490E-01 +7.43859220934E-03 +1.69874431803E-03 +7.45557773122E-03 +1.94671268543E-03 +2.39279899367E-01 +6.47852652000E-01
1.48500000000E+09 +3.85177832252E-01 +5.39572364632E-01 +8.40267979741E-03 +7.32159259429E-04 +8.64953867251E-03 +6.93775046032E-04 +2.72980133799E-01 +5.90138761175E-01
1.49000000000E+09 +4.02229925184E-01 +4.78358654239E-01 +1.01017869617E-02 -6.55584269742E-04 +1.00896972265E-02 -1.15465454513E-03 +3.02363004511E-01 +5.20909629217E-01
1.49500000000E+09 +4.11376017431E-01 +4.10568257244E-01 +1.11926428800E-02 -3.51207343815E-03 +1.05613945257E-02 -3.84106754570E-03 +3.20376698318E-01 +4.39975455069E-01
1.50000000000E+09 +4.10876204517E-01 +3.34291456716E-01 +1.17351462880E-02 -6.72094966400E-03 +1.10347583101E-02 -6.39779796109E-03 +3.24302450855E-01 +3.52038590076E-01
1.50500000000E+09 +3.97680916238E-01 +2.50959623044E-01 +1.09382190316E-02 -1.11677001395E-02 +1.08301342939E-02 -1.04228902065E-02 +3.13356789326E-01 +2.56865987633E-01
1.51000000000E+09 +3.68875304150E-01 +1.61174360787E-01 +8.18008779734E-03 -1.55761413847E-02 +8.65516828169E-03 -1.51232335277E-02 +2.82714443108E-01 +1.57142030421E-01
1.51500000000E+09 +3.20340684164E-01 +7.09803467660E-02 +3.03792353356E-03 -1.86978342783E-02 +3.57533963158E-03 -1.88518174091E-02 +2.28728223133E-01 +5.93623251408E-02
1.52000000000E+09 +2.51359386896E-01 -1.25333065762E-02 -3.14247261147E-03 -1.97534986029E-02 -2.98222015773E-03 -2.01120764179E-02 +1.52364073929E-01 -2.73967583373E-02
1.52500000000E+09 +1.64388256862E-01 -8.15090263773E-02 -8.97854760137E-03 -1.72477650549E-02 -9.07997059282E-03 -1.74790060928E-02 +5.72728188027E-02 -9.53411235938E-02
1.53000000000E+09 +6.44974713395E-02 -1.29562710234E-01 -1.24365488339E-02 -1.43658869700E-02 -1.25698487292E-02 -1.44634495055E-02 -4.93175284238E-02 -1.41233291740E-01
1.53500000000E+09 -4.20598541311E-02 -1.53895326523E-01 -1.61693675666E-02 -1.13556114249E-02 -1.62352906573E-02 -1.13208757600E-02 -1.62080713244E-01 -1.60684417807E-01
1.54000000000E+09 -1.49824831679E-01 -1.54594608789E-01 -1.91911815681E-02 -6.35015031954E-03 -1.90245177108E-02 -6.34494833595E-03 -2.70411100022E-01 -1.56426935990E-01
1.54500000000E+09 -2.53683276800E-01 -1.31699539829E-01 -2.00501242880E-02 +2.65565914677E-04 -1.98229547492E-02 -9.34444829571E-05 -3.67808001075E-01 -1.32185059230E-01
1.55000000000E+09 -3.47190739078E-01 -8.83085435268E-02 -1.76433284015E-02 +5.77246410918E-03 -1.78665845063E-02 +5.19184416948E-03 -4.52268672762E-01 -9.53028713096E-02
1.55500000000E+09 -4.23920361919E-01 -3.09520292259E-02 -1.41691324949E-02 +9.61471067854E-03 -1.48734253744E-02 +9.25204491024E-03 -5.22444528514E-01 -4.86143556038E-02
1.56000000000E+09 -4.83601232764E-01 +3.03033817853E-02 -1.00156535889E-02 +1.16739630904E-02 -1.08592596716E-02 +1.18624822800E-02 -5.79654147240E-01 +3.60303369513E-03
1.56500000000E+09 -5.30130424345E-01 +9.05076610205E-02 -6.05727476492E-03 +1.20164904316E-02 -6.59264204125E-03 +1.26665089595E-02 -6.23909483290E-01 +5.83069839523E-02
1.57000000000E+09 -5.67013366270E-01 +1.48464775410E-01 -3.20238748272E-03 +1.12762178037E-02 -3.32210942507E-03 +1.20385850568E-02 -6.57789908851E-01 +1.12834908501E-01
