# Hz S RI R 50
! CMT, C1220, 16058040, 17.2.0/1
! Date: 14/08/2018 11:54:24
! Data: Format (Calibration Info)
! Freq                      S11: Re/Im (F2)                       S21: Re/Im (F2)                       S12: Re/Im (F2)                       S22: Re/Im (F2)            
1.00000000000E+09 -6.42939547794E-01 +7.10429620973E-01 -6.28588206588E-05 +2.61271155937E-06 -3.53402316194E-06 +5.16303670328E-06 -7.50083091379E-01 +6.26938939887E-01
1.00500000000E+09 -6.35943474227E-01 +7.15197764777E-01 +3.41561683746E-05 +2.07987135802E-05 -6.16413129931E-05 -1.15638754135E-05 -7.46485365518E-01 +6.31044801733E-01
1.01000000000E+09 -6.29827150429E-01 +7.19878623198E-01 -5.73598623847E-05 -1.93875171056E-05 -3.68949585460E-06 +1.37902534191E-05 -7.42782799983E-01 +6.34542885235E-01
1.01500000000E+09 -6.25364280465E-01 +7.23559478519E-01 +2.83830515846E-05 -1.43025782247E-05 -3.96537143442E-05 -6.75212342244E-06 -7.39461627933E-01 +6.38471516635E-01
1.02000000000E+09 -6.22417390739E-01 +7.26734872251E-01 -2.15458281099E-05 +1.69706268601E-05 +1.43443831910E-05 +8.09888825414E-05 -7.36132759467E-01 +6.42055617246E-01
1.02500000000E+09 -6.20228812555E-01 +7.29262981965E-01 -8.07021718796E-06 +2.84141109627E-05 -3.49312176404E-06 +7.55185377972E-06 -7.32978209651E-01 +6.45748755897E-01
1.03000000000E+09 -6.18706083418E-01 +7.31576795535E-01 -7.71220265957E-05 +9.25893100505E-06 -8.80240207692E-06 +3.71735789701E-05 -7.29354853229E-01 +6.49584046582E-01
1.03500000000E+09 -6.16353727162E-01 +7.33952930016E-01 -1.86373215926E-05 +1.45000252807E-05 -4.18648908735E-05 +1.75641475289E-05 -7.25741254935E-01 +6.53556500486E-01
1.04000000000E+09 -6.12982531342E-01 +7.36932403971E-01 -5.13074854599E-05 +2.75848750691E-05 -3.28895275554E-05 +3.34219014683E-06 -7.21976514100E-01 +6.57032008691E-01
1.04500000000E+09 -6.08056062056E-01 +7.40254076503E-01 -6.14111745039E-05 +3.54288758638E-05 -3.96862004046E-05 +1.11142101078E-06 -7.18509193729E-01 +6.60578258772E-01
1.05000000000E+09 -6.01038654219E-01 +7.44376225237E-01 -2.23701665635E-05 +3.44242706701E-05 -4.29147142462E-05 +2.74121542324E-05 -7.15026276463E-01 +6.64170001091E-01
1.05500000000E+09 -5.93116628469E-01 +7.48929112435E-01 -4.53986725562E-05 +1.40856362837E-05 -2.65735343158E-05 +4.32275122792E-05 -7.11812143526E-01 +6.67621936859E-01
1.06000000000E+09 -5.84639276185E-01 +7.53755862958E-01 -2.46402106288E-05 +4.46927647771E-05 -1.83924757303E-05 +7.02521723804E-05 -7.08348752831E-01 +6.71403579593E-01
1.06500000000E+09 -5.76425479306E-01 +7.58666714734E-01 -8.11880782779E-06 +1.03476000268E-04 -4.03288101856E-05 +6.59976277653E-05 -7.04575718787E-01 +6.75237349786E-01
1.07000000000E+09 -5.69539780121E-01 +7.62887736070E-01 +8.36146721191E-06 +6.14124328302E-05 -1.99829969420E-05 +5.66693739492E-05 -7.00729038110E-01 +6.78869226840E-01
1.07500000000E+09 -5.64140783517E-01 +7.66703049855E-01 +2.15134525757E-05 +8.68138659437E-05 +2.71056354897E-05 +8.35737499001E-05 -6.96395829429E-01 +6.82344538934E-01
1.08000000000E+09 -5.60382837121E-01 +7.69804396470E-01 +5.44804502273E-06 +1.26908899560E-04 -6.06111380967E-05 +3.50638977877E-05 -6.92498385850E-01 +6.86346032085E-01
1.08500000000E+09 -5.58059469238E-01 +7.72282984641E-01 +1.15478961413E-05 +8.01644820027E-05 -4.65890223395E-05 +3.29204175158E-05 -6.88293838180E-01 +6.89891150523E-01
1.09000000000E+09 -5.56129601843E-01 +7.74310821010E-01 -3.25234426898E-05 +5.53983715572E-05 +2.00831315212E-05 +7.96659361482E-05 -6.84301125330E-01 +6.93843285968E-01
1.09500000000E+09 -5.54274900631E-01 +7.76329545024E-01 +1.46185914758E-05 +3.32762027854E-05 +2.92291005426E-05 +8.06483244268E-05 -6.80548418254E-01 +6.97753047103E-01
1.10000000000E+09 -5.51012686618E-01 +7.78407228411E-01 +9.34504623803E-06 +3.13459137968E-05 +2.37114221980E-05 +6.35671956311E-05 -6.76617420814E-01 +7.01490312985E-01
1.10500000000E+09 -5.46590645933E-01 +7.81140570802E-01 -5.82045966416E-06 +9.07560429687E-05 +2.46861001913E-05 +5.84407375697E-05 -6.72254669298E-01 +7.05043148900E-01
1.11000000000E+09 -5.40612048526E-01 +7.84440441445E-01 +7.75625407404E-05 +9.11049974190E-05 -3.39222031114E-06 +5.22408982324E-05 -6.68060570470E-01 +7.08370457881E-01
1.11500000000E+09 -5.33178799072E-01 +7.88207587676E-01 +7.76109726933E-05 +4.29901347473E-05 +4.94527578253E-05 +1.12584279711E-04 -6.63837646340E-01 +7.11944148241E-01
1.12000000000E+09 -5.25169940066E-01 +7.92180373979E-01 +3.36875113511E-05 +1.03422003967E-04 +4.26448954028E-05 +5.17607880270E-05 -6.59701152966E-01 +7.15495131893E-01
1.12500000000E+09 -5.17100140363E-01 +7.96249903830E-01 +1.67180526344E-05 +5.46628649664E-05 +2.71394853104E-05 +5.29773493275E-05 -6.55557348867E-01 +7.19540985517E-01
1.13000000000E+09 -5.09993139769E-01 +7.99828657199E-01 +5.85654296922E-05 +7.89613298880E-05 +6.59375738898E-05 +3.85278832382E-05 -6.51256079129E-01 +7.23245859691E-01
1.13500000000E+09 -5.04196090682E-01 +8.02821210638E-01 +4.19452129111E-05 +7.25392909446E-05 +6.72829765680E-05 +5.44489857428E-05 -6.46716299252E-01 +7.27063138686E-01
1.14000000000E+09 -4.99439032153E-01 +8.05545067069E-01 +6.83686610921E-05 +7.13526797773E-05 +8.91791328491E-05 +5.76744330252E-05 -6.41893166146E-01 +7.30393667027E-01
1.14500000000E+09 -4.95807983830E-01 +8.07582009912E-01 +9.17533496947E-05 +1.09048183079E-04 +8.16005586804E-05 +6.87434177937E-05 -6.37363563277E-01 +7.33770621197E-01
1.15000000000E+09 -4.92387037697E-01 +8.09445585753E-01 +1.04189158160E-04 +1.92511633554E-05 +7.55629605067E-05 +1.05039325069E-04 -6.32589242385E-01 +7.37616932142E-01
1.15500000000E+09 -4.88823206584E-01 +8.11376257720E-01 +9.37175865375E-05 +7.71951229329E-05 +7.32923957705E-05 +7.03391546941E-05 -6.27795193500E-01 +7.41251274957E-01
1.16000000000E+09 -4.84133271176E-01 +8.13534856799E-01 +1.18670090067E-04 +1.84126375792E-05 +8.09240468076E-05 +1.09905721694E-04 -6.22830703319E-01 +7.45194913263E-01
1.16500000000E+09 -4.78193327604E-01 +8.16337114825E-01 +1.20583640644E-04 +7.37795407872E-05 +1.05425093288E-04 +5.48043393547E-05 -6.17841417079E-01 +7.48869802929E-01
1.17000000000E+09 -4.70833522467E-01 +8.19385167559E-01 +1.42554891315E-04 +3.75418903236E-05 +1.40934421542E-04 +3.58891802397E-05 -6.12272117323E-01 +7.52050271562E-01
1.17500000000E+09 -4.62605382226E-01 +8.22831919068E-01 +1.21947145122E-04 +4.73632169015E-05 +1.32503864959E-04 +3.82097767440E-05 -6.06759191621E-01 +7.55276205190E-01
1.18000000000E+09 -4.54172353451E-01 +8.26348888163E-01 +1.52478334878E-04 +3.08153175936E-05 +1.98686994135E-04 +2.89883760980E-05 -6.01060224846E-01 +7.58443084446E-01
1.18500000000E+09 -4.45883616615E-01 +8.29658293354E-01 +1.90216482732E-04 +5.92762223548E-05 +2.06997885319E-04 +1.08398415250E-05 -5.95102724868E-01 +7.61388080629E-01
1.19000000000E+09 -4.38562998140E-01 +8.32288362801E-01 +2.18088809188E-04 +4.72516796961E-06 +2.30833461463E-04 +2.16845769427E-05 -5.88917189136E-01 +7.63955628195E-01
1.19500000000E+09 -4.32545654462E-01 +8.34471852570E-01 +3.10056960623E-04 -6.70540161567E-05 +3.05068606214E-04 -7.71369416326E-05 -5.82873274363E-01 +7.65220730588E-01
1.20000000000E+09 -4.27877506070E-01 +8.35512450237E-01 +2.58804835066E-04 -1.34606189874E-04 +2.89630485249E-04 -1.56444406859E-04 -5.78419345949E-01 +7.65455994651E-01
1.20500000000E+09 -4.24207313225E-01 +8.36924275609E-01 +2.37097913066E-04 -1.96974111272E-04 +1.80839185759E-04 -2.30741264197E-04 -5.75987804557E-01 +7.66225316123E-01
1.21000000000E+09 -4.20231460827E-01 +8.38271062950E-01 +1.67341004708E-04 -1.53794674677E-04 +1.22869346516E-04 -2.00153857270E-04 -5.74292562801E-01 +7.69241077952E-01
1.21500000000E+09 -4.15102038064E-01 +8.40058322632E-01 +1.15425881377E-04 -1.95792405612E-04 +1.38298991555E-04 -1.71403234587E-04 -5.71430590470E-01 +7.73622989907E-01
1.22000000000E+09 -4.08711237540E-01 +8.42336145913E-01 +1.21943580157E-04 -1.50620504054E-04 +1.22702657834E-04 -1.80508601460E-04 -5.67304229471E-01 +7.79015234454E-01
1.22500000000E+09 -4.00415863201E-01 +8.44951914605E-01 +9.92590454353E-05 -1.62971481030E-04 +1.21236760471E-04 -1.73158222800E-04 -5.62247773999E-01 +7.84122192976E-01
1.23000000000E+09 -3.90927662611E-01 +8.48112332703E-01 +1.09739340042E-04 -2.10866513004E-04 +1.01962843275E-04 -2.09443611042E-04 -5.56380707959E-01 +7.88827911866E-01
1.23500000000E+09 -3.80786101823E-01 +8.51663952478E-01 +1.17740803725E-04 -1.91089604849E-04 +1.14875979508E-04 -2.52802203906E-04 -5.50578399860E-01 +7.93039039096E-01
1.24000000000E+09 -3.70380671425E-01 +8.55420403323E-01 +1.14337752639E-04 -2.55776315337E-04 +9.98533783893E-05 -2.32178520883E-04 -5.44617994845E-01 +7.96874677786E-01
1.24500000000E+09 -3.61233760877E-01 +8.59134962487E-01 +1.12575581982E-04 -2.53168769883E-04 +9.11509848954E-05 -2.74134184559E-04 -5.38225154249E-01 +8.00736279558E-01
1.25000000000E+09 -3.53011053038E-01 +8.62561095716E-01 +7.02689786200E-05 -3.02736478611E-04 +7.06313785471E-05 -3.17257670722E-04 -5.31656977546E-01 +8.04995261342E-01
1.25500000000E+09 -3.46338772654E-01 +8.64967085147E-01 +4.37643525165E-05 -3.30164429969E-04 +4.92235519943E-05 -3.61356816773E-04 -5.24573333706E-01 +8.08960295434E-01
1.26000000000E+09 -3.40609719906E-01 +8.66978367884E-01 -1.82046345301E-05 -3.33731663917E-04 +4.59466271209E-05 -3.35536192075E-04 -5.18120138268E-01 +8.13289010585E-01
1.26500000000E+09 -3.35665702538E-01 +8.68415163144E-01 -2.51050545914E-05 -3.17056448794E-04 -6.54363591868E-05 -3.54404891519E-04 -5.10898708019E-01 +8.17065860889E-01
1.27000000000E+09 -3.30383607821E-01 +8.69655040804E-01 -7.26925435247E-05 -3.96332836326E-04 -8.03883326150E-05 -4.02944014707E-04 -5.04261244826E-01 +8.20917019887E-01
1.27500000000E+09 -3.24019570522E-01 +8.70853688578E-01 -1.02272160234E-04 -3.53333013308E-04 -1.32984954979E-04 -4.09380842621E-04 -4.97160238550E-01 +8.24441035203E-01
1.28000000000E+09 -3.15709310524E-01 +8.72534328131E-01 -1.90977472399E-04 -3.86172073255E-04 -1.36750342184E-04 -4.34150773614E-04 -4.90147521762E-01 +8.27999908510E-01
1.28500000000E+09 -3.05266700500E-01 +8.74602666978E-01 -2.31139146632E-04 -3.46658781373E-04 -2.57529566308E-04 -3.68427929579E-04 -4.82734022798E-01 +8.31605161431E-01
1.29000000000E+09 -2.93545051523E-01 +8.77013445076E-01 -2.33409907022E-04 -3.35251244159E-04 -2.91220472756E-04 -3.44264674065E-04 -4.75262524702E-01 +8.35122627293E-01
1.29500000000E+09 -2.81210965784E-01 +8.79866617425E-01 -2.59132812041E-04 -3.60822678951E-04 -2.89881844044E-04 -3.78800682403E-04 -4.67400431801E-01 +8.38672072920E-01
1.30000000000E+09 -2.68832154177E-01 +8.83094279039E-01 -3.44920119685E-04 -3.56635579665E-04 -3.22628161848E-04 -3.29058584807E-04 -4.59471688874E-01 +8.42250750501E-01
1.30500000000E+09 -2.57644383971E-01 +8.86138616528E-01 -4.03216874546E-04 -3.71935449177E-04 -4.10193335699E-04 -3.19205980806E-04 -4.51389230658E-01 +8.45688257512E-01
1.31000000000E+09 -2.47791529654E-01 +8.88741469306E-01 -5.08576731952E-04 -2.85357669820E-04 -4.39712779846E-04 -2.90598664076E-04 -4.43028993619E-01 +8.49101846337E-01
1.31500000000E+09 -2.39876686816E-01 +8.90666756930E-01 -4.92632927693E-04 -2.57467375460E-04 -4.59267191548E-04 -2.07742810105E-04 -4.34239504781E-01 +8.52437092971E-01
1.32000000000E+09 -2.33677458469E-01 +8.91927000369E-01 -5.06800857237E-04 -2.16222725042E-04 -5.08203106680E-04 -2.22268810662E-04 -4.25051198585E-01 +8.55957614001E-01
1.32500000000E+09 -2.27929015281E-01 +8.92442393792E-01 -4.72315234978E-04 -1.88252508805E-04 -5.58228409326E-04 -1.52015615372E-04 -4.15470991588E-01 +8.59412422498E-01
1.33000000000E+09 -2.21317751375E-01 +8.92647894368E-01 -5.32788736639E-04 -1.87816708241E-04 -5.96139750216E-04 -1.41327758832E-04 -4.05634921537E-01 +8.62735559616E-01
1.33500000000E+09 -2.13275240795E-01 +8.92622511830E-01 -6.16411373148E-04 -9.27759523562E-05 -5.84419407507E-04 -9.02901309340E-05 -3.95780835145E-01 +8.65990193628E-01
1.34000000000E+09 -2.02591916636E-01 +8.92717268521E-01 -6.68826501872E-04 -1.40649159400E-04 -6.22372330788E-04 -9.69224721014E-06 -3.85468230244E-01 +8.69230930974E-01
1.34500000000E+09 -1.89196016669E-01 +8.92664995994E-01 -7.13908304484E-04 -9.06360856730E-05 -6.55346632855E-04 -8.59602270198E-05 -3.74532143448E-01 +8.72542874342E-01
1.35000000000E+09 -1.73751834080E-01 +8.92456504100E-01 -7.93290301026E-04 +2.26751060591E-05 -7.85141646455E-04 +3.36566491191E-05 -3.63294254340E-01 +8.75587973470E-01
1.35500000000E+09 -1.57142692517E-01 +8.92595539597E-01 -7.64588449877E-04 +1.43478440562E-04 -7.74995642756E-04 +1.26962507600E-04 -3.51681816844E-01 +8.78168262663E-01
1.36000000000E+09 -1.40431325033E-01 +8.92997271527E-01 -7.76423841812E-04 +2.02905123440E-04 -8.03523114570E-04 +2.21243065998E-04 -3.39792969569E-01 +8.80911334037E-01
1.36500000000E+09 -1.24372729370E-01 +8.93387669167E-01 -8.61745589771E-04 +2.31045924564E-04 -8.18103717077E-04 +2.46731800711E-04 -3.27593352021E-01 +8.83229370965E-01
1.37000000000E+09 -1.09973294326E-01 +8.93651842554E-01 -9.10592717156E-04 +3.39118215022E-04 -8.65765717412E-04 +2.57573822797E-04 -3.14731443322E-01 +8.85690949678E-01
1.37500000000E+09 -9.74191254655E-02 +8.93606807097E-01 -9.87866825483E-04 +4.87807343749E-04 -9.58299292427E-04 +3.07354933871E-04 -3.00864408778E-01 +8.87859762947E-01
1.38000000000E+09 -8.63768625893E-02 +8.93275890091E-01 -1.00392783444E-03 +6.18329456782E-04 -1.10706515257E-03 +4.80897011852E-04 -2.86397695797E-01 +8.89760473117E-01
1.38500000000E+09 -7.53363059995E-02 +8.92135735071E-01 -9.41908673398E-04 +7.76605163481E-04 -1.14778067552E-03 +8.47891887052E-04 -2.70966001567E-01 +8.91602177368E-01
1.39000000000E+09 -6.38881581321E-02 +8.90424837578E-01 -8.78290297247E-04 +9.27020692195E-04 -1.02792176051E-03 +1.08462070572E-03 -2.55024958657E-01 +8.93037695470E-01
1.39500000000E+09 -5.03078981821E-02 +8.87851172481E-01 -9.67576621588E-04 +1.00594689087E-03 -9.50485050759E-04 +1.25327448894E-03 -2.38211969811E-01 +8.93696155850E-01
1.40000000000E+09 -3.40842238544E-02 +8.84258361531E-01 -9.04023581038E-04 +1.21304480827E-03 -7.92257182267E-04 +1.36142678336E-03 -2.20664879121E-01 +8.94083300974E-01
1.40500000000E+09 -1.56547514330E-02 +8.79564120713E-01 -8.06459872941E-04 +1.43433890583E-03 -7.28005879780E-04 +1.46638158753E-03 -2.01918230000E-01 +8.93911393731E-01
1.41000000000E+09 +5.39872220369E-03 +8.74150133688E-01 -7.22762632169E-04 +1.53828432684E-03 -7.78316184210E-04 +1.54924814979E-03 -1.81832931930E-01 +8.92953030851E-01
1.41500000000E+09 +2.76535433162E-02 +8.67925363260E-01 -6.62858516949E-04 +1.83185793115E-03 -7.50732296407E-04 +1.84481212593E-03 -1.60572556365E-01 +8.91574036105E-01
1.42000000000E+09 +5.07174165100E-02 +8.61297611348E-01 -5.01703780888E-04 +1.96503729428E-03 -6.26761020454E-04 +2.13992724566E-03 -1.37614111885E-01 +8.88976283767E-01
1.42500000000E+09 +7.33235527570E-02 +8.53833642900E-01 -4.67914513336E-04 +2.29420699973E-03 -4.18997083916E-04 +2.57717547637E-03 -1.13924382388E-01 +8.85180944866E-01
1.43000000000E+09 +9.49667697625E-02 +8.45687703806E-01 -1.54168384539E-04 +2.71301510522E-03 +4.04646098074E-05 +2.99131622488E-03 -8.90311188117E-02 +8.80437060285E-01
1.43500000000E+09 +1.16160140283E-01 +8.36305567981E-01 +3.73501139801E-04 +2.99708474058E-03 +6.67531714260E-04 +3.05186658353E-03 -6.27236574986E-02 +8.73627557836E-01
1.44000000000E+09 +1.37258098201E-01 +8.25566115329E-01 +8.30749354520E-04 +3.11350536360E-03 +1.03321264822E-03 +3.06732202730E-03 -3.48172332858E-02 +8.64878270490E-01
1.44500000000E+09 +1.59606238702E-01 +8.12292089712E-01 +1.36700997047E-03 +3.14662166821E-03 +1.54831042500E-03 +3.07878916400E-03 -4.53292224070E-03 +8.53538531524E-01
1.45000000000E+09 +1.83737932670E-01 +7.95433355903E-01 +1.59004416039E-03 +3.15279538760E-03 +1.77826516181E-03 +3.08454276969E-03 +2.73776860283E-02 +8.38470751149E-01
1.45500000000E+09 +2.10009310663E-01 +7.74530687548E-01 +1.85396506145E-03 +3.53532235959E-03 +2.23323655114E-03 +3.34781897477E-03 +6.00810141679E-02 +8.20440957825E-01
1.46000000000E+09 +2.38581402710E-01 +7.49176329884E-01 +2.82535527752E-03 +4.11398771888E-03 +3.08617365571E-03 +3.67564629356E-03 +9.48603093502E-02 +7.99383583407E-01
1.46500000000E+09 +2.69183172811E-01 +7.19115974453E-01 +4.13741924691E-03 +4.26821978342E-03 +4.05316221333E-03 +3.62384227929E-03 +1.31523581560E-01 +7.72300148998E-01
1.47000000000E+09 +3.01058086936E-01 +6.83483190059E-01 +5.87630577779E-03 +3.89669017626E-03 +5.41878419361E-03 +3.55217243913E-03 +1.68535893272E-01 +7.38220356124E-01
1.47500000000E+09 +3.32358413692E-01 +6.42055967044E-01 +7.19784824512E-03 +2.60104393552E-03 +6.85476307206E-03 +2.73575280204E-03 +2.05115134286E-01 +6.96960676067E-01
1.48000000000E+09 +3.61118413052E-01 +5.93984875744E-01 +7.96991091724E-03 +1.39697955568E-03 +7.98426876243E-03 +1.62185071250E-03 +2.41135925707E-01 +6.47562242341E-01
1.48500000000E+09 +3.84720520462E-01 +5.39440836952E-01 +8.86823857295E-03 +4.62470889483E-04 +9.10958909292E-03 +2.55878248184E-04 +2.74701668390E-01 +5.89222061030E-01
1.49000000000E+09 +4.01749846673E-01 +4.78485305629E-01 +1.05455164018E-02 -1.08428106987E-03 +1.04573801604E-02 -1.59319173204E-03 +3.03915702646E-01 +5.19773763657E-01
1.49500000000E+09 +4.11084834041E-01 +4.10842980324E-01 +1.16414410495E-02 -3.94886464140E-03 +1.09451982410E-02 -4.26732547175E-03 +3.21855335079E-01 +4.38489905076E-01
1.50000000000E+09 +4.10540270497E-01 +3.34556197582E-01 +1.23105713311E-02 -7.34531501697E-03 +1.15133159659E-02 -6.99286321937E-03 +3.25502689549E-01 +3.50098915397E-01
1.50500000000E+09 +3.97355270750E-01 +2.51247604729E-01 +1.14253542895E-02 -1.20613154632E-02 +1.12295041942E-02 -1.12722895646E-02 +3.14032003358E-01 +2.54818057011E-01
1.51000000000E+09 +3.68258026603E-01 +1.61614320911E-01 +8.35056619263E-03 -1.67111415713E-02 +8.89094513061E-03 -1.61964083498E-02 +2.83017174970E-01 +1.54771943459E-01
1.51500000000E+09 +3.19644261474E-01 +7.19497064273E-02 +2.91254140868E-03 -1.99711944427E-02 +3.43702752849E-03 -1.99999228571E-02 +2.28554807880E-01 +5.69214539930E-02
1.52000000000E+09 +2.51181511182E-01 -1.10176300225E-02 -3.81044640274E-03 -2.10008833926E-02 -3.58930511774E-03 -2.12469902998E-02 +1.51827093092E-01 -2.99587131057E-02
1.52500000000E+09 +1.64834645190E-01 -8.00298847956E-02 -9.89259142845E-03 -1.81783767137E-02 -9.92257407722E-03 -1.83668996905E-02 +5.62726110455E-02 -9.80628267511E-02
1.53000000000E+09 +6.52179886894E-02 -1.28106702134E-01 -1.35574427602E-02 -1.51048828376E-02 -1.36196880925E-02 -1.52138370411E-02 -5.14104755073E-02 -1.43786269517E-01
1.53500000000E+09 -4.10851353227E-02 -1.52394738620E-01 -1.74227202592E-02 -1.17088311435E-02 -1.74637840580E-02 -1.16707086749E-02 -1.64703301446E-01 -1.62759933654E-01
1.54000000000E+09 -1.48085740550E-01 -1.53140944696E-01 -2.05193904759E-02 -6.28899262999E-03 -2.02978580640E-02 -6.36081049313E-03 -2.73866894346E-01 -1.57959701346E-01
1.54500000000E+09 -2.51439128796E-01 -1.30697464196E-01 -2.12073110935E-02 +4.72481461211E-04 -2.09570803361E-02 +2.32604731418E-05 -3.71580599319E-01 -1.32657807165E-01
1.55000000000E+09 -3.44696696452E-01 -8.81014388801E-02 -1.87735963698E-02 +6.26555377695E-03 -1.89968268555E-02 +5.61194136403E-03 -4.56138148942E-01 -9.47430372865E-02
1.55500000000E+09 -4.21523137035E-01 -3.11228355774E-02 -1.52329596654E-02 +1.03206863071E-02 -1.59988046519E-02 +9.88093339146E-03 -5.26116811231E-01 -4.70088491708E-02
1.56000000000E+09 -4.81160679089E-01 +2.95762306936E-02 -1.07891544882E-02 +1.27296236735E-02 -1.17741917273E-02 +1.30060436768E-02 -5.82614645481E-01 +6.26391366170E-03
1.56500000000E+09 -5.28033961047E-01 +8.90818250437E-02 -6.35223737129E-03 +1.32694484211E-02 -6.97059948781E-03 +1.39853855016E-02 -6.25967493437E-01 +6.13928348326E-02
1.57000000000E+09 -5.65650372279E-01 +1.46601877094E-01 -3.08100562591E-03 +1.22347869761E-02 -3.16509137451E-03 +1.30914868882E-02 -6.58980380375E-01 +1.16281300144E-01
