# Hz S RI R 50
! CMT, C1220, 16058040, 17.2.0/1
! Date: 14/08/2018 11:57:01
! Data: Format (Calibration Info)
! Freq                      S11: Re/Im (F2)                       S21: Re/Im (F2)                       S12: Re/Im (F2)                       S22: Re/Im (F2)            
1.00000000000E+09 -6.44621404152E-01 +7.11950931918E-01 +3.14169342037E-05 +4.30194307476E-05 -7.94708624890E-06 +3.65314959269E-05 -7.49912041350E-01 +6.27369153965E-01
1.00500000000E+09 -6.37599847961E-01 +7.16828551077E-01 -5.37697796831E-05 +1.18964412638E-05 -9.65518210144E-06 +8.81913923512E-06 -7.46209183692E-01 +6.31240351293E-01
1.01000000000E+09 -6.31507561336E-01 +7.21258010860E-01 -4.84590063388E-07 +2.34813917504E-05 +1.25353764914E-05 +9.38237056242E-07 -7.42596346928E-01 +6.34905553364E-01
1.01500000000E+09 -6.27113980414E-01 +7.25164052309E-01 +3.33883435296E-05 +5.51453260409E-05 +1.25630470304E-05 -1.63582090753E-05 -7.39239876021E-01 +6.38685615360E-01
1.02000000000E+09 -6.23985032103E-01 +7.28241781387E-01 -3.64035718933E-07 -2.09943687221E-05 -2.15475416131E-05 +4.15868676164E-05 -7.35777030783E-01 +6.42252747669E-01
1.02500000000E+09 -6.21912406893E-01 +7.30854221762E-01 -2.14156999770E-05 +2.67161515057E-05 -6.17955831898E-05 -7.32951052245E-06 -7.32892018741E-01 +6.45993525092E-01
1.03000000000E+09 -6.20497278494E-01 +7.33226705437E-01 -4.55635818073E-05 +1.35425587585E-05 +1.68894067465E-06 +2.23236351998E-05 -7.29488038408E-01 +6.49943304699E-01
1.03500000000E+09 -6.17946401347E-01 +7.35658889110E-01 -4.13363477151E-06 +5.42099900721E-05 -4.17199521101E-05 +1.74673277174E-05 -7.25445749581E-01 +6.53804661381E-01
1.04000000000E+09 -6.14731106680E-01 +7.38553909113E-01 -6.82836536324E-05 +1.87330482325E-05 -3.57359809157E-05 +1.82055708283E-05 -7.21821698059E-01 +6.57502343010E-01
1.04500000000E+09 -6.09708382745E-01 +7.41940582672E-01 -8.67991172040E-05 +6.92121638260E-05 -7.79399921216E-05 +1.67675863000E-06 -7.18203288019E-01 +6.60937386921E-01
1.05000000000E+09 -6.02691666914E-01 +7.46116524332E-01 -4.23702135907E-05 +4.95431476332E-05 -3.36183581951E-05 +3.09224776317E-05 -7.14754942640E-01 +6.64392571297E-01
1.05500000000E+09 -5.94794080476E-01 +7.50518190748E-01 +1.90658057035E-05 +7.69039857582E-05 -4.79950776143E-05 +5.31434499938E-05 -7.11469721538E-01 +6.68035459218E-01
1.06000000000E+09 -5.86417018005E-01 +7.55497054768E-01 -3.94689901141E-05 +6.59698698958E-05 +1.69748169145E-06 +3.44079224962E-05 -7.08089042975E-01 +6.71667212516E-01
1.06500000000E+09 -5.78250074663E-01 +7.60331204606E-01 -8.84719322621E-06 +2.79127333799E-05 -1.46380170581E-05 +7.96577268678E-05 -7.04419342619E-01 +6.75367250329E-01
1.07000000000E+09 -5.71245439683E-01 +7.64484869909E-01 -2.05770544071E-05 +4.40535475688E-05 -6.28506613354E-05 +7.05379386241E-05 -7.00471657071E-01 +6.79075025347E-01
1.07500000000E+09 -5.66005934826E-01 +7.68171718460E-01 -3.06913376962E-05 +9.30039868229E-05 -4.64232769579E-05 +7.52212514278E-05 -6.96022399842E-01 +6.82780611253E-01
1.08000000000E+09 -5.62239144415E-01 +7.71286256318E-01 +1.39907648724E-06 +6.32926013422E-05 -2.30005427018E-05 +8.10961293802E-05 -6.92091114875E-01 +6.86532055191E-01
1.08500000000E+09 -5.59887921555E-01 +7.73841303289E-01 -1.94325111569E-05 +9.82308449423E-05 -5.17187194514E-05 +4.51892841477E-05 -6.88068545422E-01 +6.90233770040E-01
1.09000000000E+09 -5.57750320187E-01 +7.75941672294E-01 +1.70904406521E-05 +9.19668476801E-05 +8.34515559671E-06 +8.93270529265E-05 -6.84231398154E-01 +6.94132743506E-01
1.09500000000E+09 -5.55961388303E-01 +7.77924364337E-01 +4.78149174623E-06 +8.33061304323E-05 +2.10636183827E-05 +6.50183910072E-05 -6.80343024369E-01 +6.97886605577E-01
1.10000000000E+09 -5.52763195891E-01 +7.80075090427E-01 +3.49245556528E-05 +4.94456197513E-05 +1.50981948771E-05 +8.28640775593E-05 -6.76336460717E-01 +7.01819089510E-01
1.10500000000E+09 -5.48358537262E-01 +7.82764295706E-01 +3.91373451665E-05 +8.94991224957E-05 +1.73207147838E-05 +5.81626556085E-05 -6.72013481903E-01 +7.05342096782E-01
1.11000000000E+09 -5.42205048880E-01 +7.86091504485E-01 +5.34955860184E-05 +8.34850245598E-05 +3.84178111355E-05 +8.43512409153E-05 -6.67722682827E-01 +7.08683140888E-01
1.11500000000E+09 -5.34782505355E-01 +7.89939989028E-01 +2.10227311243E-05 +8.67045451247E-05 +5.36622569337E-05 +9.54766201210E-05 -6.63719813974E-01 +7.12086278177E-01
1.12000000000E+09 -5.26723754385E-01 +7.93879497196E-01 +4.42349698208E-05 +4.68649839825E-05 +7.86617202810E-05 +6.01171429362E-05 -6.59464030788E-01 +7.15791472264E-01
1.12500000000E+09 -5.18739671218E-01 +7.97771057023E-01 +3.39386540529E-05 +6.49506191563E-05 +4.70844771665E-05 +5.64434773286E-05 -6.55341463766E-01 +7.19769594337E-01
1.13000000000E+09 -5.11660429931E-01 +8.01536446011E-01 +8.60917317676E-05 +1.06848458400E-04 +3.54204817475E-05 +3.07644513955E-05 -6.50899296190E-01 +7.23481978986E-01
1.13500000000E+09 -5.05711037816E-01 +8.04389795608E-01 +4.20116735000E-05 +7.01464836817E-05 +8.18039178732E-05 +7.06409914303E-05 -6.46343607893E-01 +7.27238839992E-01
1.14000000000E+09 -5.00970878296E-01 +8.07176083392E-01 +8.75294408993E-05 +6.25720137638E-05 +6.50612913679E-05 +8.60254747103E-05 -6.41795416965E-01 +7.30669615367E-01
1.14500000000E+09 -4.97375383535E-01 +8.09208690291E-01 +8.26510945374E-05 +6.71087523417E-05 +1.61848469218E-04 +5.58194322442E-05 -6.37108696050E-01 +7.34124288099E-01
1.15000000000E+09 -4.94066797008E-01 +8.11093716371E-01 +1.19427823431E-04 +8.55803435638E-05 +1.22310005615E-04 +7.77749760845E-06 -6.32301379205E-01 +7.37854316452E-01
1.15500000000E+09 -4.90318620525E-01 +8.13079461859E-01 +8.69889571103E-05 +9.67176317696E-05 +1.12224284351E-04 +4.05347228999E-05 -6.27520086716E-01 +7.41694688003E-01
1.16000000000E+09 -4.85576547280E-01 +8.15162951818E-01 +1.45343164598E-04 +2.41976802506E-05 +1.13292583245E-04 +4.54134279105E-05 -6.22604141555E-01 +7.45467014753E-01
1.16500000000E+09 -4.79696452811E-01 +8.17933546542E-01 +1.04549469648E-04 +4.43108020441E-05 +1.38403772079E-04 +4.53742880768E-05 -6.17459797819E-01 +7.49078338000E-01
1.17000000000E+09 -4.72338429839E-01 +8.21208547608E-01 +1.00987923004E-04 +3.70947324609E-05 +1.30769995260E-04 +6.48663704844E-05 -6.12141190020E-01 +7.52372174191E-01
1.17500000000E+09 -4.64122088764E-01 +8.24571706792E-01 +1.72550914626E-04 +8.09237434479E-05 +1.66372489144E-04 +3.88971867508E-05 -6.06370189819E-01 +7.55598976726E-01
1.18000000000E+09 -4.55585828361E-01 +8.28054509843E-01 +1.42107994921E-04 +2.41159108030E-05 +2.05702501457E-04 +4.46036564435E-06 -6.00742222931E-01 +7.58648736815E-01
1.18500000000E+09 -4.47470827253E-01 +8.31290806924E-01 +1.90201243767E-04 +1.90481244116E-05 +1.96759067545E-04 -7.62215428253E-07 -5.94736959887E-01 +7.61765652732E-01
1.19000000000E+09 -4.40165925926E-01 +8.33830351845E-01 +2.32745955570E-04 -4.43168769230E-05 +2.55831582847E-04 -4.09855423955E-07 -5.88542464780E-01 +7.64351051905E-01
1.19500000000E+09 -4.34146411806E-01 +8.35999240050E-01 +2.70280986212E-04 -3.29383820514E-05 +2.63153032538E-04 -7.03822231803E-05 -5.82611097839E-01 +7.65603197092E-01
1.20000000000E+09 -4.29539495706E-01 +8.37044013953E-01 +3.22273871867E-04 -1.09819597677E-04 +2.39340211350E-04 -1.33554617266E-04 -5.78039077989E-01 +7.65716823312E-01
1.20500000000E+09 -4.25651885755E-01 +8.38438639746E-01 +1.97928112051E-04 -2.34415098742E-04 +1.87494476523E-04 -1.88236792525E-04 -5.75647679615E-01 +7.66409435932E-01
1.21000000000E+09 -4.21756915832E-01 +8.39903139198E-01 +1.69563957045E-04 -2.50252300957E-04 +1.42466881748E-04 -2.12348551010E-04 -5.73954488170E-01 +7.69518692478E-01
1.21500000000E+09 -4.16659501087E-01 +8.41708162176E-01 +1.00814094182E-04 -2.02385588078E-04 +1.23395470330E-04 -1.74179512921E-04 -5.71243198459E-01 +7.74013742041E-01
1.22000000000E+09 -4.10000781995E-01 +8.43898273121E-01 +1.69871969223E-04 -1.73647384489E-04 +1.08252212211E-04 -1.78536278037E-04 -5.67012191631E-01 +7.79205720013E-01
1.22500000000E+09 -4.01971250088E-01 +8.46634448572E-01 +1.21676551545E-04 -2.13605109732E-04 +1.62486667991E-04 -2.39619180769E-04 -5.61865187693E-01 +7.84375983205E-01
1.23000000000E+09 -3.92316607928E-01 +8.49836465307E-01 +1.59102427711E-04 -2.50377817030E-04 +1.56185142990E-04 -2.31281968974E-04 -5.56023867220E-01 +7.89022649201E-01
1.23500000000E+09 -3.82267773231E-01 +8.53322901506E-01 +1.38377917135E-04 -2.47703950510E-04 +1.33615040804E-04 -2.46149782582E-04 -5.50230305893E-01 +7.93288680728E-01
1.24000000000E+09 -3.71988062150E-01 +8.56898552723E-01 +1.49743018523E-04 -2.63065879205E-04 +1.10349342853E-04 -2.29240681030E-04 -5.44170613492E-01 +7.97255524169E-01
1.24500000000E+09 -3.62705056846E-01 +8.60807159649E-01 +9.79136283560E-05 -2.90358721797E-04 +6.23699597193E-05 -2.65629863740E-04 -5.37961995153E-01 +8.01051700948E-01
1.25000000000E+09 -3.54548495606E-01 +8.63989421207E-01 +5.22965979649E-05 -3.43115181431E-04 +6.96753774564E-05 -2.88373318523E-04 -5.31237921584E-01 +8.05200586712E-01
1.25500000000E+09 -3.47811048095E-01 +8.66437448788E-01 +2.98349267859E-05 -3.15967677686E-04 +4.39207275563E-05 -3.02083885537E-04 -5.24523804075E-01 +8.09241733543E-01
1.26000000000E+09 -3.42117511083E-01 +8.68383625773E-01 +7.23458616335E-06 -3.51451873162E-04 +2.13681779781E-06 -3.59750118062E-04 -5.17794938408E-01 +8.13535803024E-01
1.26500000000E+09 -3.37188509234E-01 +8.69858129903E-01 -3.19261905388E-05 -3.57398004260E-04 -6.07862543157E-05 -3.80668823994E-04 -5.10656041888E-01 +8.17289732469E-01
1.27000000000E+09 -3.31787156008E-01 +8.71253218456E-01 -8.89954762621E-05 -4.18935081595E-04 -1.42432986618E-04 -4.31397886539E-04 -5.03864978536E-01 +8.21181698009E-01
1.27500000000E+09 -3.25381470964E-01 +8.72502517415E-01 -1.29472823988E-04 -4.09232976122E-04 -1.14218673557E-04 -4.20720118088E-04 -4.96880582288E-01 +8.24708988773E-01
1.28000000000E+09 -3.17154690866E-01 +8.74280012806E-01 -2.04368855027E-04 -3.91251376492E-04 -2.08504329969E-04 -4.09716443174E-04 -4.89823494732E-01 +8.28226337066E-01
1.28500000000E+09 -3.06589446485E-01 +8.76281899646E-01 -2.20869302260E-04 -3.17889306060E-04 -2.84605804657E-04 -3.47185825759E-04 -4.82342109290E-01 +8.31764467659E-01
1.29000000000E+09 -2.95011029820E-01 +8.78784604220E-01 -2.39567093404E-04 -3.26838773019E-04 -2.87052355378E-04 -3.90297799550E-04 -4.74853063938E-01 +8.35507477563E-01
1.29500000000E+09 -2.82559514385E-01 +8.81544211720E-01 -2.59387831511E-04 -3.25818768395E-04 -2.59797688532E-04 -3.50008445334E-04 -4.67097452109E-01 +8.38961996533E-01
1.30000000000E+09 -2.70288649994E-01 +8.84804892664E-01 -3.35658846960E-04 -3.53339964342E-04 -3.99198494074E-04 -2.54464632958E-04 -4.59085652135E-01 +8.42684370746E-01
1.30500000000E+09 -2.59025771283E-01 +8.87635465485E-01 -4.04259932120E-04 -3.23922532469E-04 -3.98852950899E-04 -2.94766525519E-04 -4.50995034597E-01 +8.46000538493E-01
1.31000000000E+09 -2.49409651493E-01 +8.90148920708E-01 -4.34459684074E-04 -2.92960409193E-04 -4.60898708898E-04 -2.36864702195E-04 -4.42755957733E-01 +8.49401463977E-01
1.31500000000E+09 -2.41576766265E-01 +8.92086440962E-01 -4.55142575566E-04 -1.71667061830E-04 -4.63490969824E-04 -1.91115659794E-04 -4.33890961238E-01 +8.52676717447E-01
1.32000000000E+09 -2.35187998514E-01 +8.93270419694E-01 -5.09387018804E-04 -1.92890221815E-04 -4.80245165129E-04 -2.33854260905E-04 -4.24816815880E-01 +8.56175124718E-01
1.32500000000E+09 -2.29434423240E-01 +8.93790398951E-01 -4.98523468352E-04 -1.92976677911E-04 -5.48406778830E-04 -2.13369646739E-04 -4.15045635723E-01 +8.59536577277E-01
1.33000000000E+09 -2.22907509395E-01 +8.94236094598E-01 -5.48536984759E-04 -2.10340746871E-04 -6.09480122143E-04 -1.22872731728E-04 -4.05415210146E-01 +8.62778968391E-01
1.33500000000E+09 -2.14727055920E-01 +8.94018486960E-01 -6.35250211571E-04 -1.62560358103E-04 -6.78841479649E-04 -9.75070919844E-05 -3.95360610229E-01 +8.66139358629E-01
1.34000000000E+09 -2.03984920607E-01 +8.93998759546E-01 -6.90723949719E-04 -1.32100809345E-04 -6.33537897193E-04 -6.02270204808E-05 -3.85184713570E-01 +8.69340750715E-01
1.34500000000E+09 -1.90715998333E-01 +8.94077205208E-01 -7.60497635427E-04 -3.11134845811E-05 -7.71262235829E-04 -2.80039364336E-05 -3.74162092961E-01 +8.72623431617E-01
1.35000000000E+09 -1.75312319670E-01 +8.93804779597E-01 -8.30813684417E-04 +7.54359795194E-05 -7.63538319516E-04 +3.08401101878E-05 -3.63155235670E-01 +8.75609291417E-01
1.35500000000E+09 -1.58791153992E-01 +8.93876220871E-01 -8.01879533236E-04 +1.57790369648E-04 -8.64950687452E-04 +1.49039031824E-04 -3.51369735455E-01 +8.78424512092E-01
1.36000000000E+09 -1.42169348283E-01 +8.94229196916E-01 -8.27496607882E-04 +2.51239660517E-04 -8.76971839372E-04 +2.53003451185E-04 -3.39559217218E-01 +8.81063771515E-01
1.36500000000E+09 -1.26261751794E-01 +8.94617601765E-01 -8.81634161079E-04 +3.01328504783E-04 -8.10299685923E-04 +3.23067444213E-04 -3.27348409221E-01 +8.83473348354E-01
1.37000000000E+09 -1.11862062520E-01 +8.94824463533E-01 -9.38740099417E-04 +4.01921974263E-04 -8.97718730308E-04 +3.81249142820E-04 -3.14627368182E-01 +8.85781493241E-01
1.37500000000E+09 -9.92795201147E-02 +8.94865569668E-01 -1.03259214341E-03 +5.14898022926E-04 -9.92017269713E-04 +4.45327777040E-04 -3.00777971512E-01 +8.88058905793E-01
1.38000000000E+09 -8.80911027536E-02 +8.94404685408E-01 -1.00863059183E-03 +7.44531815915E-04 -1.13757887297E-03 +6.36865362194E-04 -2.86311066806E-01 +8.89978486513E-01
1.38500000000E+09 -7.70910286877E-02 +8.93515892006E-01 -9.04357067515E-04 +8.85835649829E-04 -1.15773404024E-03 +9.36661038490E-04 -2.70848697165E-01 +8.91685885620E-01
1.39000000000E+09 -6.56076365451E-02 +8.91927805980E-01 -8.52897846471E-04 +1.02922959448E-03 -9.84560950767E-04 +1.11658246324E-03 -2.55036141523E-01 +8.93214057747E-01
1.39500000000E+09 -5.19744913490E-02 +8.89347805591E-01 -8.71749560371E-04 +1.15800791563E-03 -8.37076308636E-04 +1.34645378573E-03 -2.38149455503E-01 +8.93944968266E-01
1.40000000000E+09 -3.58646783944E-02 +8.85770766800E-01 -7.98013945690E-04 +1.31645624230E-03 -6.76116304337E-04 +1.44477197630E-03 -2.20778867781E-01 +8.94325235775E-01
1.40500000000E+09 -1.72746819654E-02 +8.81134917951E-01 -6.69783621982E-04 +1.52807571051E-03 -6.05277737136E-04 +1.50593115795E-03 -2.02025161399E-01 +8.94150728340E-01
1.41000000000E+09 +3.65705254897E-03 +8.75746126358E-01 -5.64778009085E-04 +1.65996220417E-03 -5.42236305766E-04 +1.65949638364E-03 -1.82062177701E-01 +8.93377193178E-01
1.41500000000E+09 +2.57443548093E-02 +8.69500816017E-01 -4.15335319228E-04 +1.84216238017E-03 -5.40078571299E-04 +1.89224475328E-03 -1.60831187543E-01 +8.92005572124E-01
1.42000000000E+09 +4.86766827991E-02 +8.62896023732E-01 -3.27820414887E-04 +1.96389812202E-03 -3.80207174950E-04 +2.11354641633E-03 -1.37731376684E-01 +8.89605758283E-01
1.42500000000E+09 +7.11797966595E-02 +8.55390538013E-01 -2.80706836612E-04 +2.24314806439E-03 -1.61679371111E-04 +2.49725430905E-03 -1.14124973296E-01 +8.85856307909E-01
1.43000000000E+09 +9.27142360568E-02 +8.47201421862E-01 +6.03217736137E-05 +2.64267378688E-03 +2.90082724369E-04 +2.90911174740E-03 -8.91013918317E-02 +8.81054878129E-01
1.43500000000E+09 +1.13731251341E-01 +8.37798488081E-01 +6.23750981256E-04 +2.81072194175E-03 +8.94430140126E-04 +2.83763452409E-03 -6.28502090022E-02 +8.74349514784E-01
1.44000000000E+09 +1.34776498138E-01 +8.27083315884E-01 +9.92144312876E-04 +2.83854306111E-03 +1.20829005019E-03 +2.80632800917E-03 -3.48978505852E-02 +8.65806690182E-01
1.44500000000E+09 +1.57208286486E-01 +8.13907776790E-01 +1.46398693669E-03 +2.89524317662E-03 +1.66426324120E-03 +2.84015871631E-03 -4.73478141893E-03 +8.54530051173E-01
1.45000000000E+09 +1.81217358907E-01 +7.97047413003E-01 +1.68481244610E-03 +2.90274823242E-03 +1.86385759210E-03 +2.85133640581E-03 +2.73331837095E-02 +8.39723600506E-01
1.45500000000E+09 +2.07171438118E-01 +7.76670668800E-01 +2.02144622927E-03 +3.25276804790E-03 +2.31190220847E-03 +3.08053236674E-03 +6.02075046385E-02 +8.21874672272E-01
1.46000000000E+09 +2.35740531970E-01 +7.51471638855E-01 +2.85589281352E-03 +3.77438280154E-03 +3.09722447367E-03 +3.28707309325E-03 +9.50082414530E-02 +8.00765463450E-01
1.46500000000E+09 +2.66108808840E-01 +7.21751363367E-01 +4.06499590733E-03 +3.86618423979E-03 +3.98616740187E-03 +3.34283883266E-03 +1.31659715199E-01 +7.73921977178E-01
1.47000000000E+09 +2.97640347231E-01 +6.86612788549E-01 +5.73690862602E-03 +3.54162339918E-03 +5.33800033896E-03 +3.25950598413E-03 +1.68899726766E-01 +7.39979398699E-01
1.47500000000E+09 +3.28652305243E-01 +6.45850767690E-01 +6.98496604023E-03 +2.36128376496E-03 +6.54268475843E-03 +2.47431869804E-03 +2.05938663721E-01 +6.98854175120E-01
1.48000000000E+09 +3.57317809587E-01 +5.98644478386E-01 +7.81552136973E-03 +1.31431880273E-03 +7.80777537449E-03 +1.52926217277E-03 +2.42110139294E-01 +6.49483698562E-01
1.48500000000E+09 +3.81387537020E-01 +5.45267346192E-01 +8.84464998663E-03 +2.44661560694E-04 +9.07724556229E-03 +9.22317969972E-05 +2.76193409668E-01 +5.91326684329E-01
1.49000000000E+09 +3.99350074202E-01 +4.85057873969E-01 +1.03581021284E-02 -1.42396600252E-03 +1.02887696353E-02 -1.91065945883E-03 +3.05728512088E-01 +5.22141113225E-01
1.49500000000E+09 +4.09915247565E-01 +4.18023521469E-01 +1.14599112285E-02 -4.21429031660E-03 +1.07317498097E-02 -4.46473428090E-03 +3.24578738255E-01 +4.40607438312E-01
1.50000000000E+09 +4.10720541129E-01 +3.42013000953E-01 +1.19571443416E-02 -7.81604680950E-03 +1.12160299197E-02 -7.33235862681E-03 +3.28875699582E-01 +3.51656715328E-01
1.50500000000E+09 +3.99359042941E-01 +2.58636131898E-01 +1.07018071485E-02 -1.26044918400E-02 +1.06601388265E-02 -1.17021076080E-02 +3.17993177550E-01 +2.55548177125E-01
1.51000000000E+09 +3.71487057402E-01 +1.68883255266E-01 +7.46567750615E-03 -1.69389349842E-02 +7.99032394728E-03 -1.64802404521E-02 +2.87324086157E-01 +1.54367762335E-01
1.51500000000E+09 +3.24904094347E-01 +7.90821118788E-02 +1.73085832421E-03 -1.99851251684E-02 +2.26857163763E-03 -2.00652309634E-02 +2.32386583228E-01 +5.53818636645E-02
1.52000000000E+09 +2.59053133953E-01 -5.42587606240E-03 -4.94276805610E-03 -2.03131057217E-02 -4.75810053006E-03 -2.06446938149E-02 +1.55232187564E-01 -3.23563944899E-02
1.52500000000E+09 +1.73557158803E-01 -7.70846482398E-02 -1.06278204870E-02 -1.73069280634E-02 -1.06202421042E-02 -1.75846257135E-02 +5.85536945065E-02 -1.01485769220E-01
1.53000000000E+09 +7.44660275413E-02 -1.27607071278E-01 -1.42203277094E-02 -1.41586194643E-02 -1.42880090575E-02 -1.43590707250E-02 -5.04360646209E-02 -1.47205591833E-01
1.53500000000E+09 -3.23547117521E-02 -1.54804957654E-01 -1.79720425998E-02 -1.04135390075E-02 -1.80747589218E-02 -1.04482026097E-02 -1.64519699245E-01 -1.65952271125E-01
1.54000000000E+09 -1.41121996558E-01 -1.57844749206E-01 -2.04227082973E-02 -4.68887749444E-03 -2.03029026959E-02 -4.66724903907E-03 -2.74639336956E-01 -1.61120530981E-01
1.54500000000E+09 -2.46365348348E-01 -1.36725287123E-01 -2.04278973808E-02 +1.90863995190E-03 -2.02147189026E-02 +1.46643871350E-03 -3.73477298502E-01 -1.34895377125E-01
1.55000000000E+09 -3.41387333959E-01 -9.50875172010E-02 -1.76453242536E-02 +7.22212845360E-03 -1.79077615224E-02 +6.59725883364E-03 -4.58366273251E-01 -9.58346612185E-02
1.55500000000E+09 -4.20066138512E-01 -3.87856234634E-02 -1.41251507788E-02 +1.08992874198E-02 -1.48847528151E-02 +1.05333646773E-02 -5.28098269126E-01 -4.71197124470E-02
1.56000000000E+09 -4.81890073246E-01 +2.17484184401E-02 -9.41159405755E-03 +1.30959706953E-02 -1.03160597857E-02 +1.33222182629E-02 -5.84086409575E-01 +6.75502604854E-03
1.56500000000E+09 -5.30687334685E-01 +8.19924180187E-02 -5.04972052075E-03 +1.30171073732E-02 -5.49832311858E-03 +1.37156669494E-02 -6.26893513374E-01 +6.21447562538E-02
1.57000000000E+09 -5.69346376694E-01 +1.40954479484E-01 -2.20765713951E-03 +1.16667122770E-02 -2.26274339184E-03 +1.24527385209E-02 -6.59808483620E-01 +1.17233125186E-01
