# Hz S RI R 50
! CMT, C1220, 16058040, 17.2.0/1
! Date: 14/08/2018 12:00:07
! Data: Format (Calibration Info)
! Freq                      S11: Re/Im (F2)                       S21: Re/Im (F2)                       S12: Re/Im (F2)                       S22: Re/Im (F2)            
1.00000000000E+09 -6.44408994863E-01 +7.12462072888E-01 -3.59475741651E-05 +4.99588081854E-05 +1.46666166642E-06 -5.56440236759E-05 -7.49862856138E-01 +6.26919072476E-01
1.00500000000E+09 -6.37503886492E-01 +7.17363691217E-01 -4.85799084738E-05 +9.46950129938E-06 -1.79398178576E-05 -1.96463501729E-06 -7.46442362747E-01 +6.30903849930E-01
1.01000000000E+09 -6.31509307251E-01 +7.21750583883E-01 -1.22551992325E-05 -1.31280810175E-05 -3.22340380553E-05 +3.70144917556E-05 -7.42717661122E-01 +6.34769830012E-01
1.01500000000E+09 -6.26978198507E-01 +7.25491716243E-01 -4.37008019429E-05 +5.10198095943E-05 -6.53582363601E-05 -2.61828066495E-05 -7.39271426055E-01 +6.38450052079E-01
1.02000000000E+09 -6.23902529424E-01 +7.28760981087E-01 +1.17362285237E-05 +3.05540405339E-06 -8.55823317721E-06 +7.20931725650E-07 -7.35921965201E-01 +6.42056413114E-01
1.02500000000E+09 -6.21770601773E-01 +7.31284244924E-01 -5.61300639829E-05 +1.65981674875E-05 -4.91122682375E-05 -2.23891944642E-05 -7.32953033947E-01 +6.45781386006E-01
1.03000000000E+09 -6.20057627794E-01 +7.33734552759E-01 -3.38714937331E-05 +6.90711202444E-05 -6.81491971913E-05 +2.26743000760E-05 -7.29417602842E-01 +6.49451342203E-01
1.03500000000E+09 -6.17723099793E-01 +7.36167925491E-01 -2.44708277491E-05 +4.86412996109E-05 -4.06019178326E-05 +5.38351213036E-05 -7.25581464643E-01 +6.53542687730E-01
1.04000000000E+09 -6.14206952853E-01 +7.39022481696E-01 -1.85002710194E-05 +2.39379749181E-05 -8.04491345663E-05 +9.39389657319E-05 -7.21883326248E-01 +6.57114354687E-01
1.04500000000E+09 -6.09089434604E-01 +7.42484808255E-01 -1.07441225442E-04 +8.91495898060E-06 -2.16737469393E-05 -3.75416897121E-05 -7.18357377170E-01 +6.60773411837E-01
1.05000000000E+09 -6.02175662346E-01 +7.46493046442E-01 -1.50480878834E-05 +3.27200231675E-05 -1.24929463127E-05 +3.41347654148E-05 -7.14928474130E-01 +6.64262858692E-01
1.05500000000E+09 -5.94304103265E-01 +7.51061604521E-01 -8.13942557282E-05 +9.29349370773E-05 -2.35603587171E-05 +3.29228382319E-05 -7.11672904840E-01 +6.67642308884E-01
1.06000000000E+09 -5.85777011899E-01 +7.55781656253E-01 -1.40777248827E-05 +8.55786430661E-05 -3.99639149092E-05 +8.69638914504E-05 -7.08163031430E-01 +6.71422486704E-01
1.06500000000E+09 -5.77761498130E-01 +7.60619651111E-01 -4.19996201345E-05 +8.35868497917E-05 -1.09185947827E-05 +2.64825768578E-05 -7.04651116692E-01 +6.75165362728E-01
1.07000000000E+09 -5.70789323161E-01 +7.64721504139E-01 -3.32557950983E-05 +5.24653297235E-05 -3.82580388021E-05 +3.29050031663E-05 -7.00646271074E-01 +6.78786138188E-01
1.07500000000E+09 -5.65573208603E-01 +7.68376385865E-01 -2.81642200111E-05 +6.16339145981E-05 -4.23006105013E-05 +5.54990494861E-05 -6.96129445600E-01 +6.82516882705E-01
1.08000000000E+09 -5.61683013296E-01 +7.71605266104E-01 -3.42130414394E-05 +8.76058730132E-05 +1.23646205096E-05 +1.01867854213E-04 -6.92249951756E-01 +6.86353017919E-01
1.08500000000E+09 -5.59223546168E-01 +7.74019099160E-01 +1.97075119553E-05 +3.18570862845E-05 +3.25749249447E-05 +8.29032149125E-05 -6.88226609220E-01 +6.89960819484E-01
1.09000000000E+09 -5.57154512085E-01 +7.76147919001E-01 -9.78387998923E-06 +9.61992666151E-05 +3.54567371800E-05 +5.48791311668E-05 -6.84303379779E-01 +6.93914282569E-01
1.09500000000E+09 -5.55131132748E-01 +7.78215669627E-01 +3.17633865955E-05 +7.31218792501E-05 -1.40666601791E-05 +3.49234665506E-05 -6.80491289048E-01 +6.97653239198E-01
1.10000000000E+09 -5.51917304777E-01 +7.80296809784E-01 +1.97500296864E-05 +4.81675287718E-05 -6.83702807109E-06 +8.23129099934E-05 -6.76421315405E-01 +7.01501762673E-01
1.10500000000E+09 -5.47332973688E-01 +7.83070876115E-01 +1.33671922849E-05 +9.29252128969E-05 +1.39068886253E-05 +5.97370227698E-05 -6.72172461579E-01 +7.05267175090E-01
1.11000000000E+09 -5.41174578417E-01 +7.86241915694E-01 +5.47456049260E-05 +2.56631560734E-05 +8.32980568803E-06 +5.08803134663E-05 -6.68004496398E-01 +7.08438169830E-01
1.11500000000E+09 -5.33732913517E-01 +7.90201004521E-01 +5.53891085850E-05 +5.52090624732E-05 +7.85762671705E-05 +5.85582473680E-05 -6.63851233156E-01 +7.11914222073E-01
1.12000000000E+09 -5.25748256453E-01 +7.93938975043E-01 +6.86237294961E-05 +7.60178325546E-05 +3.84997738746E-05 +9.13440205441E-05 -6.59760665263E-01 +7.15607631065E-01
1.12500000000E+09 -5.17741064732E-01 +7.97771856238E-01 +1.01824409697E-04 +5.14821179509E-05 +9.25217571903E-05 +8.16098654218E-05 -6.55379990419E-01 +7.19470968249E-01
1.13000000000E+09 -5.10631322047E-01 +8.01560465768E-01 +5.12806785083E-05 +2.50964944473E-05 +2.89032740745E-05 +6.38821174453E-05 -6.51141345324E-01 +7.23074426750E-01
1.13500000000E+09 -5.04630720208E-01 +8.04423143368E-01 +3.62765522182E-05 +9.88789839414E-05 +4.03980466148E-05 +4.08763513056E-05 -6.46478666219E-01 +7.26985645558E-01
1.14000000000E+09 -4.99751813358E-01 +8.07098662416E-01 +5.54994075757E-05 +5.22534082375E-05 +3.56158875131E-05 +1.97363706185E-05 -6.41943318440E-01 +7.30512036058E-01
1.14500000000E+09 -4.96141166053E-01 +8.09190896021E-01 +8.37198854047E-05 +5.45907531806E-05 +8.34464610977E-05 +6.13764266981E-05 -6.37181141068E-01 +7.33809084163E-01
1.15000000000E+09 -4.92576245354E-01 +8.11024229888E-01 +6.90740738689E-05 +3.54164989632E-05 +8.37094733309E-05 +2.85931980978E-05 -6.32501086694E-01 +7.37456637205E-01
1.15500000000E+09 -4.88909413032E-01 +8.12998735478E-01 +9.84505141454E-05 +5.96146971006E-05 +6.01118164493E-05 +9.05900001805E-05 -6.27648983180E-01 +7.41449861269E-01
1.16000000000E+09 -4.84154893026E-01 +8.14993377398E-01 +8.72717611117E-05 +6.86968147549E-05 +1.32957533221E-04 +6.30323896933E-05 -6.22745397897E-01 +7.45322227694E-01
1.16500000000E+09 -4.78084933744E-01 +8.17694012944E-01 +1.11399933738E-04 +5.97275017374E-05 +9.38477992395E-05 +1.22642945500E-05 -6.17703554332E-01 +7.48944911686E-01
1.17000000000E+09 -4.70788248586E-01 +8.20975788947E-01 +1.29985606521E-04 +6.15071854289E-05 +1.73605154110E-04 +5.72750467365E-05 -6.12426752961E-01 +7.52195302087E-01
1.17500000000E+09 -4.62634803291E-01 +8.24199186200E-01 +1.47536685326E-04 +6.69894670880E-05 +1.63696657246E-04 +6.12190184000E-05 -6.06490949326E-01 +7.55375440839E-01
1.18000000000E+09 -4.54053697319E-01 +8.27699981409E-01 +2.07397192340E-04 +7.86665836778E-05 +1.60543712699E-04 +4.50206819033E-06 -6.00922178893E-01 +7.58298146840E-01
1.18500000000E+09 -4.45688057599E-01 +8.30925778647E-01 +1.72257219071E-04 +1.55708494406E-05 +2.20251534166E-04 +7.41132370917E-05 -5.94956218076E-01 +7.61457269595E-01
1.19000000000E+09 -4.38455250836E-01 +8.33434500223E-01 +2.12985491124E-04 +2.06988495390E-05 +2.65421800774E-04 +3.75517692734E-05 -5.88696068106E-01 +7.64107931592E-01
1.19500000000E+09 -4.32495593342E-01 +8.35543084853E-01 +2.77248401354E-04 -2.03315943891E-05 +3.32084906816E-04 -1.87887521068E-05 -5.82770569379E-01 +7.65430456934E-01
1.20000000000E+09 -4.27838282178E-01 +8.36402307759E-01 +2.82882145780E-04 -8.71123199125E-05 +2.60032495559E-04 -1.26694705586E-04 -5.78293430738E-01 +7.65460477641E-01
1.20500000000E+09 -4.24002058187E-01 +8.37780528807E-01 +2.33431669523E-04 -2.04051372881E-04 +2.18726314710E-04 -2.01385646646E-04 -5.75913542662E-01 +7.66210860134E-01
1.21000000000E+09 -4.20021942144E-01 +8.39212654909E-01 +1.94564329899E-04 -1.96432053537E-04 +1.65038783379E-04 -2.14515373071E-04 -5.74173082959E-01 +7.69169884514E-01
1.21500000000E+09 -4.14886888436E-01 +8.41004892086E-01 +1.00460903064E-04 -1.79858438013E-04 +1.32658818230E-04 -2.17368622187E-04 -5.71294696045E-01 +7.73745346414E-01
1.22000000000E+09 -4.08253157755E-01 +8.43004382619E-01 +1.30540507030E-04 -1.53355904515E-04 +1.43621722435E-04 -1.82715252590E-04 -5.67166526183E-01 +7.79037258806E-01
1.22500000000E+09 -4.00093499421E-01 +8.45610527702E-01 +9.30840898096E-05 -1.88178725550E-04 +1.31317577160E-04 -1.73142750723E-04 -5.62203784619E-01 +7.84190835830E-01
1.23000000000E+09 -3.90546020202E-01 +8.48784178667E-01 +1.36269376957E-04 -1.43958780598E-04 +9.85155311158E-05 -2.21925415397E-04 -5.56281356896E-01 +7.88824041844E-01
1.23500000000E+09 -3.80329495236E-01 +8.52247130614E-01 +1.18955629509E-04 -2.07329291215E-04 +1.38071787540E-04 -2.25781232745E-04 -5.50279113962E-01 +7.93153334859E-01
1.24000000000E+09 -3.70207845883E-01 +8.55864952704E-01 +6.15940843982E-05 -2.48763913859E-04 +6.53870446457E-05 -2.18352855983E-04 -5.44466291226E-01 +7.96914372986E-01
1.24500000000E+09 -3.60937917789E-01 +8.59534849011E-01 +6.96578839540E-05 -2.61149543164E-04 +1.05326978138E-04 -2.24143821489E-04 -5.38118789698E-01 +8.00774126195E-01
1.25000000000E+09 -3.52758590894E-01 +8.62688784093E-01 +8.32153115498E-05 -2.70437675227E-04 +1.00829323736E-04 -2.22754855689E-04 -5.31471638162E-01 +8.05042163705E-01
1.25500000000E+09 -3.46021812877E-01 +8.65132929435E-01 +2.02604081781E-05 -3.39824013581E-04 +4.89330115353E-05 -3.34544246387E-04 -5.24547736247E-01 +8.09041702297E-01
1.26000000000E+09 -3.40424484778E-01 +8.67049939044E-01 +1.69854138539E-05 -3.30793928008E-04 +1.85591527984E-05 -3.28468763778E-04 -5.17898738956E-01 +8.13288884025E-01
1.26500000000E+09 -3.35344242217E-01 +8.68387078599E-01 -2.91872989243E-05 -3.57387231032E-04 +3.06991686798E-05 -3.71100382693E-04 -5.10894938047E-01 +8.17118246256E-01
1.27000000000E+09 -3.29906415597E-01 +8.69765516349E-01 -8.26599182538E-05 -3.75978568902E-04 -2.84680021173E-05 -4.04529053309E-04 -5.04063895522E-01 +8.20912572950E-01
1.27500000000E+09 -3.23498704877E-01 +8.71076927155E-01 -9.20258369636E-05 -3.88547934943E-04 -8.50376207751E-05 -3.83696341558E-04 -4.97065237013E-01 +8.24381126568E-01
1.28000000000E+09 -3.15225491378E-01 +8.72712331288E-01 -1.69471990289E-04 -3.89859771988E-04 -1.63550285609E-04 -4.27559852177E-04 -4.90071680704E-01 +8.27882994493E-01
1.28500000000E+09 -3.04680226990E-01 +8.74801911352E-01 -2.11915292510E-04 -3.81630275186E-04 -1.83742722580E-04 -3.92899519231E-04 -4.82579242084E-01 +8.31538621376E-01
1.29000000000E+09 -2.93122878313E-01 +8.76940942904E-01 -2.12700862275E-04 -3.43065404643E-04 -2.54452833036E-04 -3.85299013295E-04 -4.75074098390E-01 +8.35271707723E-01
1.29500000000E+09 -2.80907809841E-01 +8.79664320452E-01 -1.96403543708E-04 -3.67771752778E-04 -3.08816927544E-04 -3.97424365487E-04 -4.67317374195E-01 +8.38663701692E-01
1.30000000000E+09 -2.68641297230E-01 +8.82768405480E-01 -2.90260795809E-04 -4.16604635051E-04 -3.57534554244E-04 -3.63919580995E-04 -4.59336216887E-01 +8.42146718650E-01
1.30500000000E+09 -2.57542617187E-01 +8.85553438854E-01 -3.87607961415E-04 -3.47169592772E-04 -4.13662158096E-04 -3.43734862809E-04 -4.51201058953E-01 +8.45833420295E-01
1.31000000000E+09 -2.47946468763E-01 +8.88071644548E-01 -4.53869443457E-04 -3.25100444249E-04 -4.54310767925E-04 -3.06277426331E-04 -4.42994678007E-01 +8.49082634150E-01
1.31500000000E+09 -2.40111883328E-01 +8.90079344717E-01 -5.05045003508E-04 -2.34295759320E-04 -4.41095454056E-04 -2.90589002113E-04 -4.34103926417E-01 +8.52574121482E-01
1.32000000000E+09 -2.33650324964E-01 +8.91225964589E-01 -5.44425786780E-04 -2.47626173223E-04 -5.19943989264E-04 -2.55813847453E-04 -4.24963698947E-01 +8.55856180768E-01
1.32500000000E+09 -2.27868471825E-01 +8.91777117778E-01 -5.25409137119E-04 -2.44168876649E-04 -5.91157563285E-04 -2.32885931621E-04 -4.15397094733E-01 +8.59244288360E-01
1.33000000000E+09 -2.21185293588E-01 +8.92164461062E-01 -5.79169251025E-04 -2.25796628110E-04 -6.15951364582E-04 -1.80689774266E-04 -4.05639538283E-01 +8.62657355375E-01
1.33500000000E+09 -2.13080988856E-01 +8.91965631245E-01 -6.46670534544E-04 -1.96383359858E-04 -6.71829938308E-04 -1.59046871794E-04 -3.95632620565E-01 +8.65916009058E-01
1.34000000000E+09 -2.02391640505E-01 +8.91983966128E-01 -7.01644609006E-04 -1.44969407675E-04 -6.61339718332E-04 -9.99298581037E-05 -3.85562937432E-01 +8.69164535389E-01
1.34500000000E+09 -1.89071796253E-01 +8.91707484670E-01 -7.83514964864E-04 -7.83056043090E-05 -7.47676361774E-04 -5.10006538655E-05 -3.74667222211E-01 +8.72374864245E-01
1.35000000000E+09 -1.73719185004E-01 +8.91415538837E-01 -8.76807799868E-04 +8.21985465541E-05 -8.04927950629E-04 +2.88004634271E-05 -3.63466986980E-01 +8.75517861116E-01
1.35500000000E+09 -1.57081169238E-01 +8.91487079958E-01 -8.36412082521E-04 +1.67941279426E-04 -8.14401548178E-04 +1.51114560180E-04 -3.51796156077E-01 +8.78207559450E-01
1.36000000000E+09 -1.40669135584E-01 +8.91857710522E-01 -8.65636127645E-04 +1.79834961307E-04 -8.03891975139E-04 +2.26932539255E-04 -3.39817385888E-01 +8.80825432046E-01
1.36500000000E+09 -1.24640106774E-01 +8.92212559376E-01 -9.25019531309E-04 +2.34436723661E-04 -8.17241526319E-04 +2.31884278913E-04 -3.27757641724E-01 +8.83217085328E-01
1.37000000000E+09 -1.10208690764E-01 +8.92196189337E-01 -9.71847255006E-04 +3.45131409665E-04 -9.05426660341E-04 +2.92059052867E-04 -3.14954491856E-01 +8.85666453978E-01
1.37500000000E+09 -9.76584107481E-02 +8.92177045978E-01 -1.00601473285E-03 +4.56271695057E-04 -1.04091303799E-03 +3.66849933660E-04 -3.01115967744E-01 +8.87983114066E-01
1.38000000000E+09 -8.64684562669E-02 +8.91652509136E-01 -1.01180419070E-03 +6.52721753630E-04 -1.13058057035E-03 +4.99439538273E-04 -2.86564839346E-01 +8.89812821952E-01
1.38500000000E+09 -7.54124064876E-02 +8.90561790787E-01 -9.57922410384E-04 +8.25650745481E-04 -1.18207987435E-03 +8.80339582277E-04 -2.71128855562E-01 +8.91578028851E-01
1.39000000000E+09 -6.39108600647E-02 +8.88794835359E-01 -9.22752015617E-04 +8.93474586346E-04 -1.02219362622E-03 +1.06678848678E-03 -2.55387167099E-01 +8.93069288829E-01
1.39500000000E+09 -5.03210828622E-02 +8.86044047562E-01 -9.37513125498E-04 +1.03764153957E-03 -9.63014487819E-04 +1.23248077486E-03 -2.38516736017E-01 +8.93855675556E-01
1.40000000000E+09 -3.42472814599E-02 +8.82311952891E-01 -9.28742218394E-04 +1.19691460283E-03 -8.64123551181E-04 +1.34261606067E-03 -2.20899231578E-01 +8.94400846769E-01
1.40500000000E+09 -1.60075031026E-02 +8.77744565397E-01 -8.40139016843E-04 +1.37937129374E-03 -7.92842052126E-04 +1.44394887222E-03 -2.02244348075E-01 +8.94077693099E-01
1.41000000000E+09 +4.67795685289E-03 +8.72106245941E-01 -8.15132764055E-04 +1.58616663352E-03 -8.08363304048E-04 +1.52467129813E-03 -1.82267735673E-01 +8.93153540048E-01
1.41500000000E+09 +2.65147103204E-02 +8.65865500454E-01 -6.41726026183E-04 +1.77468527365E-03 -7.95892771152E-04 +1.81602041363E-03 -1.61094200294E-01 +8.91636998118E-01
1.42000000000E+09 +4.91620126696E-02 +8.59376319920E-01 -5.93388759966E-04 +1.90648472174E-03 -6.37928915618E-04 +2.10409852237E-03 -1.38026865569E-01 +8.89367236576E-01
1.42500000000E+09 +7.15783644589E-02 +8.52005894306E-01 -5.70713384766E-04 +2.21671910956E-03 -5.29992441495E-04 +2.55029958215E-03 -1.14426226135E-01 +8.85580740092E-01
1.43000000000E+09 +9.30353977888E-02 +8.43737393249E-01 -3.29666673953E-04 +2.69670129058E-03 -6.45222165730E-05 +2.99527303061E-03 -8.95663927421E-02 +8.80989641606E-01
1.43500000000E+09 +1.14023063666E-01 +8.34325110734E-01 +1.96871485672E-04 +3.03444821200E-03 +4.66105617172E-04 +3.10677463526E-03 -6.32997285494E-02 +8.74157533926E-01
1.44000000000E+09 +1.34908970772E-01 +8.23589108484E-01 +6.49877781573E-04 +3.23116117653E-03 +8.52906679827E-04 +3.23008471086E-03 -3.53815246829E-02 +8.65591378040E-01
1.44500000000E+09 +1.57171601518E-01 +8.10312526647E-01 +1.20587447028E-03 +3.34606061155E-03 +1.40102945200E-03 +3.31555326545E-03 -5.12743717512E-03 +8.54454663097E-01
1.45000000000E+09 +1.81167898677E-01 +7.93541467989E-01 +1.43402170488E-03 +3.42383548245E-03 +1.71864185756E-03 +3.42442475601E-03 +2.67768338083E-02 +8.39684879946E-01
1.45500000000E+09 +2.07058911100E-01 +7.72945415374E-01 +1.90803457584E-03 +3.84460378824E-03 +2.25992967505E-03 +3.69434073252E-03 +5.95653087111E-02 +8.21988562378E-01
1.46000000000E+09 +2.35334024178E-01 +7.47954689335E-01 +2.93012956429E-03 +4.38446524260E-03 +3.23273877995E-03 +3.90602205878E-03 +9.43430512462E-02 +8.01004828850E-01
1.46500000000E+09 +2.65605960856E-01 +7.18396403482E-01 +4.27606952460E-03 +4.48813357935E-03 +4.14885328259E-03 +3.85810387158E-03 +1.31175482854E-01 +7.74361421188E-01
1.47000000000E+09 +2.97155739998E-01 +6.83387844112E-01 +5.97738092319E-03 +4.14078632694E-03 +5.51832277271E-03 +3.79495359748E-03 +1.68654398782E-01 +7.40576776741E-01
1.47500000000E+09 +3.28206350442E-01 +6.42463834017E-01 +7.35387419741E-03 +2.92433991539E-03 +6.94812797199E-03 +3.09703702169E-03 +2.05751543002E-01 +6.99430258648E-01
1.48000000000E+09 +3.56835698599E-01 +5.95072886043E-01 +8.37587261171E-03 +1.84943282368E-03 +8.39836203520E-03 +2.08277964101E-03 +2.42229227620E-01 +6.50055123803E-01
1.48500000000E+09 +3.80440771722E-01 +5.41293740008E-01 +9.55974755011E-03 +5.93398041206E-04 +9.85453151825E-03 +4.71665978012E-04 +2.76509477327E-01 +5.91639462517E-01
1.49000000000E+09 +3.97945449924E-01 +4.81009535440E-01 +1.11649985659E-02 -1.31292902008E-03 +1.10742814835E-02 -1.84975326500E-03 +3.06079075984E-01 +5.22145720873E-01
1.49500000000E+09 +4.08028891291E-01 +4.14071373561E-01 +1.20877959472E-02 -4.23873759704E-03 +1.14052818947E-02 -4.51553901193E-03 +3.24757051275E-01 +4.40546156055E-01
1.50000000000E+09 +4.08514199570E-01 +3.38258326757E-01 +1.26283645931E-02 -7.69128721722E-03 +1.18842281085E-02 -7.28696869701E-03 +3.29027589496E-01 +3.51364869615E-01
1.50500000000E+09 +3.96439087386E-01 +2.55216289698E-01 +1.15470324532E-02 -1.25292254353E-02 +1.14319352685E-02 -1.16657224084E-02 +3.17816881683E-01 +2.54955857765E-01
1.51000000000E+09 +3.68299139147E-01 +1.66005532420E-01 +8.60420449304E-03 -1.70830093710E-02 +9.17085754012E-03 -1.65502939493E-02 +2.86555954893E-01 +1.53843000106E-01
1.51500000000E+09 +3.21115735095E-01 +7.65104174460E-02 +3.01295130890E-03 -2.06986926007E-02 +3.53330926351E-03 -2.08173126901E-02 +2.31220516613E-01 +5.54826029146E-02
1.52000000000E+09 +2.54621180957E-01 -6.70155406289E-03 -4.18364194715E-03 -2.15567326036E-02 -3.91221953633E-03 -2.18182912009E-02 +1.54239898770E-01 -3.13752474672E-02
1.52500000000E+09 +1.69598367758E-01 -7.72522463723E-02 -1.03466921123E-02 -1.85259691837E-02 -1.02719729193E-02 -1.88352606296E-02 +5.82623079957E-02 -1.00070726184E-01
1.53000000000E+09 +7.06050078285E-02 -1.27008908703E-01 -1.41134786822E-02 -1.51585566702E-02 -1.42320971787E-02 -1.53775678264E-02 -4.99647628267E-02 -1.45850109327E-01
1.53500000000E+09 -3.58848128174E-02 -1.53000718578E-01 -1.78756177870E-02 -1.14970547590E-02 -1.79585737489E-02 -1.15056487757E-02 -1.63797936922E-01 -1.64858645627E-01
1.54000000000E+09 -1.43841621911E-01 -1.55296149765E-01 -2.06071660221E-02 -6.02568061556E-03 -2.04426964896E-02 -5.99705066117E-03 -2.73462221902E-01 -1.60119755724E-01
1.54500000000E+09 -2.47947436912E-01 -1.33530498598E-01 -2.10495604028E-02 +6.79430134241E-04 -2.08136189674E-02 +2.84815474258E-04 -3.71782755512E-01 -1.34368960894E-01
1.55000000000E+09 -3.41811828786E-01 -9.16914385648E-02 -1.85714349665E-02 +6.18901994846E-03 -1.87906623523E-02 +5.59338010943E-03 -4.56330421380E-01 -9.61110562869E-02
1.55500000000E+09 -4.19535786686E-01 -3.55740544008E-02 -1.51996099983E-02 +1.01294494568E-02 -1.59485092847E-02 +9.68241247841E-03 -5.26326376913E-01 -4.82304769219E-02
1.56000000000E+09 -4.80172821790E-01 +2.48442813881E-02 -1.07866802803E-02 +1.27452181239E-02 -1.17042308918E-02 +1.29597350004E-02 -5.82984366005E-01 +5.08583912772E-03
1.56500000000E+09 -5.27768373245E-01 +8.42392176501E-02 -6.28444626353E-03 +1.30585825136E-02 -6.81877005431E-03 +1.37683467791E-02 -6.26425395185E-01 +6.04231233168E-02
1.57000000000E+09 -5.65986428187E-01 +1.42104154533E-01 -3.15874923666E-03 +1.19886234350E-02 -3.22246626353E-03 +1.27824254571E-02 -6.59619522165E-01 +1.15434320061E-01
