# Hz S RI R 50
! CMT, C1220, 16058040, 17.2.0/1
! Date: 14/08/2018 11:57:35
! Data: Format (Calibration Info)
! Freq                      S11: Re/Im (F2)                       S21: Re/Im (F2)                       S12: Re/Im (F2)                       S22: Re/Im (F2)            
1.00000000000E+09 -6.44319519835E-01 +7.11890252674E-01 -6.33069104414E-05 -8.25102443354E-06 -6.15330769622E-05 -1.22748658428E-05 -7.49716344552E-01 +6.27159271282E-01
1.00500000000E+09 -6.37344965503E-01 +7.17037040123E-01 -3.32390991132E-05 +1.79750086904E-05 -1.44929987876E-05 +4.64972404281E-06 -7.46259010393E-01 +6.31178802108E-01
1.01000000000E+09 -6.31393495882E-01 +7.21460687747E-01 -3.12802087141E-05 +6.47487206721E-05 +1.25315710008E-05 -4.21755944286E-05 -7.42756731274E-01 +6.34790318209E-01
1.01500000000E+09 -6.26839113845E-01 +7.25119647003E-01 -2.17019088384E-05 -4.16262771709E-07 +9.87512249289E-06 +5.95546559946E-06 -7.39298112179E-01 +6.38746310401E-01
1.02000000000E+09 -6.23741252685E-01 +7.28224115174E-01 -1.91171008583E-05 -1.72316809737E-05 -2.83239070890E-05 +2.32093003310E-05 -7.35777255460E-01 +6.42368007940E-01
1.02500000000E+09 -6.21604841108E-01 +7.30875706276E-01 -2.00037024113E-05 +3.49263003247E-06 -3.18923579655E-05 -5.12435898333E-06 -7.32745885117E-01 +6.46059889748E-01
1.03000000000E+09 -6.20106899049E-01 +7.33303402842E-01 -6.58362821516E-05 +2.40832012266E-06 -4.15532574548E-05 +4.79020025866E-05 -7.29196311995E-01 +6.49734395031E-01
1.03500000000E+09 -6.17902376133E-01 +7.35595746359E-01 -4.01506802614E-05 +3.24053206510E-05 -6.40095767458E-05 +5.94255685505E-05 -7.25616342756E-01 +6.53594054572E-01
1.04000000000E+09 -6.14434487217E-01 +7.38417156883E-01 -5.34845158918E-05 -4.48469191568E-06 -7.30335143723E-05 +1.59946142721E-05 -7.21977343846E-01 +6.57418177748E-01
1.04500000000E+09 -6.09303729935E-01 +7.41916268145E-01 -2.69050513799E-05 +4.89537226624E-05 -7.21368782389E-05 -2.98989014415E-05 -7.18273341623E-01 +6.60783463920E-01
1.05000000000E+09 -6.02559831279E-01 +7.46109976727E-01 -3.96930233989E-05 +6.24639240338E-05 -3.57127502178E-05 +5.59916124352E-05 -7.14762996824E-01 +6.64316156456E-01
1.05500000000E+09 -5.94468026613E-01 +7.50470716086E-01 -6.14055762709E-05 +5.84914610162E-05 -2.22196977438E-05 +6.77620010362E-05 -7.11442351187E-01 +6.67892417783E-01
1.06000000000E+09 -5.85944311731E-01 +7.55481450793E-01 -1.74075495843E-05 +5.00098054989E-05 -6.24812976581E-05 +2.12576235611E-05 -7.08201684033E-01 +6.71739430982E-01
1.06500000000E+09 -5.77926368814E-01 +7.60239312030E-01 -2.13980550370E-05 +6.28698494354E-05 +3.43700583700E-06 +1.06560414204E-04 -7.04390879518E-01 +6.75385595423E-01
1.07000000000E+09 -5.70922528955E-01 +7.64390033140E-01 +3.80922697152E-05 +7.99257590901E-05 -4.80405032479E-05 +1.10639950998E-04 -7.00432550597E-01 +6.79087429525E-01
1.07500000000E+09 -5.65589330219E-01 +7.68038132861E-01 -2.75473489909E-06 +1.09702438799E-04 -1.39636653168E-05 +6.77537763903E-05 -6.96161042779E-01 +6.82667753213E-01
1.08000000000E+09 -5.61990859481E-01 +7.71248889338E-01 +5.26150119397E-05 +5.72670767601E-05 -2.15644678948E-05 +5.60415878981E-05 -6.92065637952E-01 +6.86668528306E-01
1.08500000000E+09 -5.59701048548E-01 +7.73788800405E-01 -1.23787784560E-05 +4.56015461185E-05 -1.03296519315E-05 +6.21928388748E-05 -6.88171302575E-01 +6.90138647425E-01
1.09000000000E+09 -5.57423846402E-01 +7.75963258563E-01 +3.30920002620E-05 +8.70751069165E-05 +4.07335580678E-05 +6.49131857810E-05 -6.84193060811E-01 +6.94146997435E-01
1.09500000000E+09 -5.55584746137E-01 +7.77843144282E-01 +1.92006806116E-05 +6.04107658310E-05 +1.19955378813E-05 +7.80542558908E-05 -6.80356209073E-01 +6.97926690147E-01
1.10000000000E+09 -5.52386216928E-01 +7.79950503839E-01 +2.27573397056E-05 +7.13145127190E-05 +3.32511491471E-05 +3.99422457165E-05 -6.76420427859E-01 +7.01690959049E-01
1.10500000000E+09 -5.48028606776E-01 +7.82718494121E-01 -1.11372333844E-05 +6.87079688349E-05 +2.00199029320E-06 +9.12201513536E-05 -6.72021896611E-01 +7.05440695810E-01
1.11000000000E+09 -5.41801153140E-01 +7.86028304413E-01 +4.73834536433E-05 +1.00150737301E-04 +3.19163605401E-05 +4.49064621548E-05 -6.67779688263E-01 +7.08652746189E-01
1.11500000000E+09 -5.34333292312E-01 +7.89889329238E-01 -3.78760744877E-06 +6.88592022054E-05 +2.19196042173E-05 +5.00069067988E-05 -6.63703556406E-01 +7.12010973396E-01
1.12000000000E+09 -5.26327750219E-01 +7.93759146691E-01 +7.33076489344E-05 +5.13714204709E-05 +5.95528526423E-05 +8.13064812109E-05 -6.59540178284E-01 +7.15723288247E-01
1.12500000000E+09 -5.18414777497E-01 +7.97683076530E-01 +5.22561754422E-05 +7.37830897729E-05 -2.25838702639E-06 +7.93131507371E-05 -6.55380408442E-01 +7.19821641762E-01
1.13000000000E+09 -5.11341900087E-01 +8.01333475446E-01 +5.59798570329E-05 +9.48843796355E-05 +5.73321904614E-05 +9.31508128566E-05 -6.51016565016E-01 +7.23502509389E-01
1.13500000000E+09 -5.05355620065E-01 +8.04232976604E-01 +9.44846016024E-05 +4.65746526962E-05 +2.23651570558E-05 +5.30338802394E-05 -6.46402967352E-01 +7.27221094465E-01
1.14000000000E+09 -5.00684908323E-01 +8.07068148127E-01 +7.61196281351E-05 +7.83771995724E-05 +8.88935781372E-05 +6.50846603549E-05 -6.41796823262E-01 +7.30646620621E-01
1.14500000000E+09 -4.96908132554E-01 +8.08978410709E-01 +9.10123265472E-05 +8.24482758128E-05 +9.85470496703E-05 +1.04700135785E-04 -6.37266319812E-01 +7.34012989628E-01
1.15000000000E+09 -4.93441051103E-01 +8.10859786946E-01 +1.02304717308E-04 +4.84571175937E-05 +1.18499005046E-04 +7.86298251828E-05 -6.32337117367E-01 +7.37846284787E-01
1.15500000000E+09 -4.89761639847E-01 +8.12946957859E-01 +8.94875546523E-05 +7.24507979321E-05 +7.92852172408E-05 +1.32915089602E-04 -6.27602004817E-01 +7.41448766637E-01
1.16000000000E+09 -4.85029007724E-01 +8.14897961364E-01 +8.34629319330E-05 +5.92202549291E-05 +6.27258531193E-05 +8.47246397164E-05 -6.22598411851E-01 +7.45396364781E-01
1.16500000000E+09 -4.79244492518E-01 +8.17688390384E-01 +1.52536260393E-04 +4.93354263973E-05 +1.26604892621E-04 +1.00984077613E-04 -6.17535824193E-01 +7.49065415732E-01
1.17000000000E+09 -4.71731006566E-01 +8.20905770318E-01 +1.45548720281E-04 +3.38206451170E-05 +1.63517843855E-04 +9.38403105506E-06 -6.12034252062E-01 +7.52431406626E-01
1.17500000000E+09 -4.63519682084E-01 +8.24361196428E-01 +1.51275248621E-04 +2.19827393402E-05 +1.66838761120E-04 +4.62377836498E-05 -6.06283831286E-01 +7.55514694652E-01
1.18000000000E+09 -4.55156232016E-01 +8.27776691015E-01 +1.38359242232E-04 +4.98633292712E-05 +1.85534146167E-04 +6.51981604928E-05 -6.00897693381E-01 +7.58596219339E-01
1.18500000000E+09 -4.46895142354E-01 +8.30907474116E-01 +1.55821981246E-04 +2.01358815648E-05 +1.99998095545E-04 +6.34441525432E-06 -5.94783836742E-01 +7.61523188383E-01
1.19000000000E+09 -4.39736481027E-01 +8.33653287115E-01 +1.99929505189E-04 +8.47274333241E-07 +2.64994053947E-04 +5.60361251360E-06 -5.88551399566E-01 +7.64201174124E-01
1.19500000000E+09 -4.33689341048E-01 +8.35582606014E-01 +2.93409338531E-04 -3.64055263515E-05 +3.40029560222E-04 -6.50622523158E-05 -5.82587561667E-01 +7.65489391661E-01
1.20000000000E+09 -4.28933587209E-01 +8.36715066093E-01 +2.70482337844E-04 -1.23392145152E-04 +2.89484320190E-04 -1.08736103895E-04 -5.78008060246E-01 +7.65649337788E-01
1.20500000000E+09 -4.25252050058E-01 +8.38118300423E-01 +2.49976273473E-04 -1.92706320799E-04 +2.02865863498E-04 -1.92549054769E-04 -5.75760389028E-01 +7.66376989758E-01
1.21000000000E+09 -4.21199742263E-01 +8.39530682752E-01 +1.48263338801E-04 -2.07437193222E-04 +1.75423008111E-04 -2.30927482836E-04 -5.73967146138E-01 +7.69447596250E-01
1.21500000000E+09 -4.16067453077E-01 +8.41323341358E-01 +1.63994485995E-04 -2.09817661676E-04 +1.77613741481E-04 -1.89901770117E-04 -5.71165423563E-01 +7.73900226357E-01
1.22000000000E+09 -4.09490128595E-01 +8.43484323578E-01 +1.14306354194E-04 -1.61783028004E-04 +1.92796483995E-04 -2.22786104050E-04 -5.66935116748E-01 +7.79110773705E-01
1.22500000000E+09 -4.01394735755E-01 +8.46176384210E-01 +1.04900104055E-04 -1.63044889729E-04 +1.31685876813E-04 -1.72247073141E-04 -5.61783482008E-01 +7.84238359522E-01
1.23000000000E+09 -3.91914570985E-01 +8.49255846167E-01 +1.40919452994E-04 -1.87364069334E-04 +1.11769560835E-04 -2.34943461047E-04 -5.56048471396E-01 +7.89002009255E-01
1.23500000000E+09 -3.81727120415E-01 +8.52742478668E-01 +1.31072050338E-04 -2.28044132753E-04 +9.51095659703E-05 -2.68700707171E-04 -5.50227975513E-01 +7.93195152519E-01
1.24000000000E+09 -3.71476147243E-01 +8.56447686389E-01 +1.07108570412E-04 -2.63486109698E-04 +9.47748888619E-05 -2.39222939959E-04 -5.44294954296E-01 +7.97094150607E-01
1.24500000000E+09 -3.62268949586E-01 +8.60344543302E-01 +8.94928881455E-05 -3.12942089050E-04 +6.35597079053E-05 -2.48571740961E-04 -5.37889860813E-01 +8.00994873747E-01
1.25000000000E+09 -3.54135016499E-01 +8.63465225351E-01 +3.21955017145E-05 -2.95709625753E-04 +5.40947296118E-05 -3.49037854740E-04 -5.31366161147E-01 +8.05351760774E-01
1.25500000000E+09 -3.47282002135E-01 +8.65896530057E-01 +3.48211452610E-05 -3.53683508976E-04 +5.20713668033E-05 -3.38114009448E-04 -5.24380001983E-01 +8.09138006745E-01
1.26000000000E+09 -3.41669527205E-01 +8.67866345202E-01 -1.89373905184E-06 -3.53221467423E-04 +1.48664948200E-05 -3.62824379770E-04 -5.17675313895E-01 +8.13525753137E-01
1.26500000000E+09 -3.36735880279E-01 +8.69260302755E-01 -2.68927814184E-05 -3.49052880690E-04 +7.25775825261E-06 -3.76156213278E-04 -5.10724688126E-01 +8.17358721150E-01
1.27000000000E+09 -3.31324331490E-01 +8.70698219181E-01 -7.48140320205E-05 -4.13581186521E-04 -9.33759070224E-05 -3.98186465430E-04 -5.03936685279E-01 +8.21137451975E-01
1.27500000000E+09 -3.24816086744E-01 +8.71940598754E-01 -1.02896050212E-04 -4.53739371575E-04 -8.33483525346E-05 -3.82832516448E-04 -4.96854243100E-01 +8.24768711730E-01
1.28000000000E+09 -3.16663782326E-01 +8.73621847024E-01 -2.07184578936E-04 -3.62286974138E-04 -1.54888460366E-04 -3.90516120726E-04 -4.90083307070E-01 +8.28081755694E-01
1.28500000000E+09 -3.06147759028E-01 +8.75604657951E-01 -2.57499051867E-04 -3.62194772044E-04 -2.13507000996E-04 -4.07334754605E-04 -4.82536019596E-01 +8.31828723526E-01
1.29000000000E+09 -2.94605276042E-01 +8.78169926912E-01 -2.08284889074E-04 -3.32988686291E-04 -2.87726344609E-04 -3.65259456676E-04 -4.74980958862E-01 +8.35421057724E-01
1.29500000000E+09 -2.82183713024E-01 +8.80874653556E-01 -2.63564334885E-04 -3.66405937160E-04 -3.39636764227E-04 -3.80267413388E-04 -4.67202963141E-01 +8.38932718708E-01
1.30000000000E+09 -2.69849923218E-01 +8.84058335781E-01 -3.39488652203E-04 -4.18195212129E-04 -3.20551534171E-04 -3.08977668014E-04 -4.59274492247E-01 +8.42519706352E-01
1.30500000000E+09 -2.58740742980E-01 +8.86963311455E-01 -4.06753036476E-04 -4.13902696860E-04 -4.18939326753E-04 -3.19239453340E-04 -4.51015057836E-01 +8.46034447726E-01
1.31000000000E+09 -2.49025059219E-01 +8.89513493132E-01 -5.05121626272E-04 -3.40417631849E-04 -4.47075976460E-04 -2.83938088671E-04 -4.42721728537E-01 +8.49339293865E-01
1.31500000000E+09 -2.41296108072E-01 +8.91484780002E-01 -5.18352423458E-04 -2.54878240316E-04 -4.89808421931E-04 -2.99169866677E-04 -4.33871511334E-01 +8.52773456199E-01
1.32000000000E+09 -2.34889489346E-01 +8.92674741110E-01 -4.87111678097E-04 -2.22946445994E-04 -5.61234349758E-04 -2.25141811271E-04 -4.24733239469E-01 +8.56180449637E-01
1.32500000000E+09 -2.29052260911E-01 +8.93318809351E-01 -5.35791656420E-04 -1.95265660631E-04 -5.63064726199E-04 -2.27324411488E-04 -4.15096921991E-01 +8.59434027165E-01
1.33000000000E+09 -2.22662675303E-01 +8.93616932127E-01 -5.68638689319E-04 -2.42294122667E-04 -6.72618362266E-04 -1.95002006489E-04 -4.05462500121E-01 +8.62875568622E-01
1.33500000000E+09 -2.14359175972E-01 +8.93582023632E-01 -6.53677552346E-04 -1.98299795934E-04 -6.90108035361E-04 -1.37335797475E-04 -3.95351545099E-01 +8.66120827827E-01
1.34000000000E+09 -2.03742733564E-01 +8.93544464055E-01 -7.59025475214E-04 -1.38914250873E-04 -6.88982778522E-04 -4.79815037497E-05 -3.85288597289E-01 +8.69310965475E-01
1.34500000000E+09 -1.90314906174E-01 +8.93511021732E-01 -8.02472474691E-04 -7.39176524596E-05 -7.55195142265E-04 -5.73039633914E-05 -3.74215972423E-01 +8.72688164911E-01
1.35000000000E+09 -1.74877094800E-01 +8.93324175926E-01 -8.22994922566E-04 +4.15965253793E-05 -8.22921798719E-04 +7.80613986655E-05 -3.63207018569E-01 +8.75569586789E-01
1.35500000000E+09 -1.58436547422E-01 +8.93449259479E-01 -8.72272661424E-04 +8.68018591185E-05 -8.74901240854E-04 +1.67295261174E-04 -3.51411576286E-01 +8.78436985134E-01
1.36000000000E+09 -1.41809226395E-01 +8.93706073805E-01 -8.71310297333E-04 +1.99679855693E-04 -8.66877965205E-04 +2.27345020758E-04 -3.39633641181E-01 +8.81020538998E-01
1.36500000000E+09 -1.25794155007E-01 +8.94229465197E-01 -8.89231065639E-04 +3.11478850553E-04 -9.17953639206E-04 +2.38751421534E-04 -3.27518084630E-01 +8.83535591340E-01
1.37000000000E+09 -1.11349480419E-01 +8.94315930603E-01 -9.85542486989E-04 +3.90467918640E-04 -9.53232695670E-04 +2.83338900464E-04 -3.14569271139E-01 +8.85932433695E-01
1.37500000000E+09 -9.86980231194E-02 +8.94302834830E-01 -1.04924761528E-03 +5.36436933604E-04 -1.05969993062E-03 +4.34417701881E-04 -3.00787625836E-01 +8.88195963879E-01
1.38000000000E+09 -8.75518102192E-02 +8.93847393941E-01 -1.07184424746E-03 +7.26496372568E-04 -1.13389246626E-03 +5.72286237902E-04 -2.86273135677E-01 +8.90047269695E-01
1.38500000000E+09 -7.65689956472E-02 +8.92790672795E-01 -9.72597468987E-04 +9.05819228920E-04 -1.20603562806E-03 +9.17830580862E-04 -2.70870313558E-01 +8.91880294224E-01
1.39000000000E+09 -6.49164468564E-02 +8.91184055523E-01 -9.41454050460E-04 +1.01864177009E-03 -1.07698259534E-03 +1.11937106299E-03 -2.54937086519E-01 +8.93151771598E-01
1.39500000000E+09 -5.14210262677E-02 +8.88674805126E-01 -9.57247292727E-04 +1.14836171780E-03 -9.36137516507E-04 +1.32329808034E-03 -2.38029487702E-01 +8.94012295194E-01
1.40000000000E+09 -3.51450149965E-02 +8.84989644256E-01 -8.87729853254E-04 +1.34389650538E-03 -7.41483674394E-04 +1.47000212316E-03 -2.20482901676E-01 +8.94456186034E-01
1.40500000000E+09 -1.66059815262E-02 +8.80466611498E-01 -8.06124367618E-04 +1.55144054244E-03 -6.60623890628E-04 +1.56155135526E-03 -2.01757476066E-01 +8.94240938166E-01
1.41000000000E+09 +4.28173769781E-03 +8.75074788072E-01 -6.56069726947E-04 +1.68450133201E-03 -7.17994218893E-04 +1.64383210624E-03 -1.81752375255E-01 +8.93253632191E-01
1.41500000000E+09 +2.64012524074E-02 +8.68780639010E-01 -5.33417998422E-04 +1.86447873364E-03 -6.60348373255E-04 +1.89392785888E-03 -1.60496868806E-01 +8.91843938805E-01
1.42000000000E+09 +4.92103415544E-02 +8.62193358571E-01 -4.72448381774E-04 +1.99021639296E-03 -5.67978620754E-04 +2.20065084992E-03 -1.37431200529E-01 +8.89251539138E-01
1.42500000000E+09 +7.16526595144E-02 +8.54610410386E-01 -4.04060297198E-04 +2.33575791211E-03 -3.74902702156E-04 +2.61494099745E-03 -1.13819382224E-01 +8.85568351503E-01
1.43000000000E+09 +9.33913770143E-02 +8.46410602591E-01 -1.31875963473E-04 +2.79248310433E-03 +1.06414460435E-04 +3.06343849862E-03 -8.90613059209E-02 +8.80696081915E-01
1.43500000000E+09 +1.14609526022E-01 +8.37063520730E-01 +3.91293956303E-04 +3.10639321743E-03 +7.08568225184E-04 +3.15357603978E-03 -6.27600925871E-02 +8.73804668165E-01
1.44000000000E+09 +1.35789973177E-01 +8.26230987474E-01 +8.30862840322E-04 +3.16141723956E-03 +1.06441424559E-03 +3.21656725084E-03 -3.49328023640E-02 +8.65255072571E-01
1.44500000000E+09 +1.58194206043E-01 +8.13047610425E-01 +1.41074443004E-03 +3.26360203137E-03 +1.60858297426E-03 +3.21026991068E-03 -4.81928139854E-03 +8.53961055597E-01
1.45000000000E+09 +1.82281799014E-01 +7.96117182712E-01 +1.64897144966E-03 +3.25186166190E-03 +1.89323452575E-03 +3.18681835164E-03 +2.70308631450E-02 +8.39092003297E-01
1.45500000000E+09 +2.08473312748E-01 +7.75484942102E-01 +2.00840953939E-03 +3.73441781144E-03 +2.40363101603E-03 +3.52369236799E-03 +5.97357975016E-02 +8.21314956991E-01
1.46000000000E+09 +2.37039055677E-01 +7.50212538041E-01 +2.98236650543E-03 +4.24452773736E-03 +3.28031180481E-03 +3.77580726533E-03 +9.44901196784E-02 +8.00424374612E-01
1.46500000000E+09 +2.67550242991E-01 +7.20389332267E-01 +4.38838690973E-03 +4.36522841930E-03 +4.27037628996E-03 +3.70969794694E-03 +1.31097957083E-01 +7.73612808404E-01
1.47000000000E+09 +2.99338071293E-01 +6.84941557786E-01 +6.17341831106E-03 +3.96979470269E-03 +5.68260956041E-03 +3.63286952705E-03 +1.68285342044E-01 +7.39995766505E-01
1.47500000000E+09 +3.30590711004E-01 +6.43686704954E-01 +7.46835768704E-03 +2.63781501493E-03 +7.02834028388E-03 +2.81298526293E-03 +2.05327852138E-01 +6.99023284336E-01
1.48000000000E+09 +3.59384420170E-01 +5.96021105430E-01 +8.34497105878E-03 +1.56612986929E-03 +8.33275015124E-03 +1.77463245091E-03 +2.41766034059E-01 +6.49721551960E-01
1.48500000000E+09 +3.83190261672E-01 +5.41517839638E-01 +9.39863270563E-03 +4.27089640188E-04 +9.70237467858E-03 +2.37030015378E-04 +2.75973509188E-01 +5.91492809836E-01
1.49000000000E+09 +4.00557959355E-01 +4.80625927197E-01 +1.10462778958E-02 -1.27896377510E-03 +1.10370322782E-02 -1.87544297643E-03 +3.05605689596E-01 +5.21847321543E-01
1.49500000000E+09 +4.10376527727E-01 +4.13180671932E-01 +1.21843399283E-02 -4.29418909599E-03 +1.14907851476E-02 -4.61807679298E-03 +3.24084072296E-01 +4.40339684105E-01
1.50000000000E+09 +4.10616360777E-01 +3.36796170530E-01 +1.26890486646E-02 -7.98469755252E-03 +1.19009123317E-02 -7.51586995181E-03 +3.28409335296E-01 +3.51373093620E-01
1.50500000000E+09 +3.98226436764E-01 +2.53174006891E-01 +1.15219128996E-02 -1.27598651652E-02 +1.13947038139E-02 -1.18858299055E-02 +3.17146435363E-01 +2.55059709644E-01
1.51000000000E+09 +3.69397222379E-01 +1.62998059574E-01 +8.46604172018E-03 -1.73355328702E-02 +8.98395717984E-03 -1.67751279234E-02 +2.85829822680E-01 +1.54090739194E-01
1.51500000000E+09 +3.20933892374E-01 +7.29850229715E-02 +2.92721155068E-03 -2.07359390534E-02 +3.47605630059E-03 -2.08372702445E-02 +2.30553937711E-01 +5.56362576558E-02
1.52000000000E+09 +2.52885690506E-01 -1.03518749213E-02 -4.05683595940E-03 -2.17116292041E-02 -3.83549643711E-03 -2.20407946318E-02 +1.53200089743E-01 -3.12178499119E-02
1.52500000000E+09 +1.66785073734E-01 -7.99437684519E-02 -1.02669325310E-02 -1.89465245943E-02 -1.03351164705E-02 -1.91162307313E-02 +5.71419235137E-02 -9.91777191751E-02
1.53000000000E+09 +6.72761202544E-02 -1.29173005231E-01 -1.42816217349E-02 -1.57540484543E-02 -1.43772635369E-02 -1.58723011122E-02 -5.09662327149E-02 -1.44554216693E-01
1.53500000000E+09 -3.98052446354E-02 -1.54648667038E-01 -1.83135527233E-02 -1.21281687169E-02 -1.83763341656E-02 -1.20897922614E-02 -1.64303900930E-01 -1.62936802033E-01
1.54000000000E+09 -1.48582106979E-01 -1.55964823649E-01 -2.14650720210E-02 -6.52553787190E-03 -2.12542341452E-02 -6.51786819529E-03 -2.73127065161E-01 -1.58112297635E-01
1.54500000000E+09 -2.53009484448E-01 -1.32689398407E-01 -2.23001462979E-02 +6.46418603566E-04 -2.20485879922E-02 +1.85507550848E-04 -3.70791657188E-01 -1.32715633795E-01
1.55000000000E+09 -3.46199475930E-01 -8.96338650181E-02 -1.95245809449E-02 +6.68012108780E-03 -1.97121355169E-02 +6.01405349927E-03 -4.54955726776E-01 -9.49711915094E-02
1.55500000000E+09 -4.23058273001E-01 -3.29616608188E-02 -1.58688832900E-02 +1.07577523795E-02 -1.66225420304E-02 +1.03410965315E-02 -5.24924847903E-01 -4.76483383608E-02
1.56000000000E+09 -4.83089839116E-01 +2.76817103558E-02 -1.12721995536E-02 +1.34498222989E-02 -1.22019666290E-02 +1.36211353818E-02 -5.81757744634E-01 +5.41949116461E-03
1.56500000000E+09 -5.30611439210E-01 +8.74009077716E-02 -6.57264483906E-03 +1.38916646587E-02 -7.17313360060E-03 +1.45727467230E-02 -6.25158256754E-01 +6.05839829813E-02
1.57000000000E+09 -5.68367216717E-01 +1.45637215812E-01 -3.24043354553E-03 +1.28628810227E-02 -3.33983342324E-03 +1.36834747967E-02 -6.58477089630E-01 +1.15144604938E-01
