# Hz S RI R 50
! CMT, C1220, 16058040, 17.2.0/1
! Date: 14/08/2018 11:58:22
! Data: Format (Calibration Info)
! Freq                      S11: Re/Im (F2)                       S21: Re/Im (F2)                       S12: Re/Im (F2)                       S22: Re/Im (F2)            
1.00000000000E+09 -6.44743754945E-01 +7.12522232116E-01 -5.43711195739E-06 +1.13471339016E-06 -1.01902343759E-04 +1.93484519384E-05 -7.50177641947E-01 +6.26844016940E-01
1.00500000000E+09 -6.37632807500E-01 +7.17269367263E-01 +1.71837665329E-06 +1.60659967705E-05 -1.73289191918E-05 -3.12222381707E-05 -7.46317822438E-01 +6.30979907589E-01
1.01000000000E+09 -6.31555812280E-01 +7.21794172598E-01 -3.77732976760E-05 +3.23495719025E-06 +1.09527343367E-05 +2.59852048071E-06 -7.42721170065E-01 +6.34789327434E-01
1.01500000000E+09 -6.27252872423E-01 +7.25483126576E-01 +8.90586671482E-06 +6.21051515321E-06 +4.86397933435E-06 +3.17408773490E-05 -7.39470348127E-01 +6.38534833888E-01
1.02000000000E+09 -6.24081464934E-01 +7.28705359471E-01 +1.33007113782E-05 +2.27841901038E-05 -1.35128078438E-05 +3.50172546333E-05 -7.35815737914E-01 +6.42075968118E-01
1.02500000000E+09 -6.22074697393E-01 +7.31323853315E-01 +2.00664484472E-06 +4.81221759206E-05 -1.55648165806E-05 +5.57842672488E-06 -7.32995345336E-01 +6.45694497166E-01
1.03000000000E+09 -6.20489083415E-01 +7.33664203495E-01 -5.08917334358E-05 +2.05049319949E-05 +8.69715240508E-07 -2.16811283268E-05 -7.29536343760E-01 +6.49681203292E-01
1.03500000000E+09 -6.18097885382E-01 +7.36079209222E-01 +1.04273762423E-05 +3.45803626148E-05 -5.46616230769E-05 -1.61464915722E-05 -7.25840152867E-01 +6.53545666467E-01
1.04000000000E+09 -6.14617240262E-01 +7.38908186400E-01 -4.35991432329E-05 +1.37730602557E-05 -1.77461616866E-05 +8.39594462943E-05 -7.21913958853E-01 +6.57219975574E-01
1.04500000000E+09 -6.09407660493E-01 +7.42368457662E-01 -3.95710217698E-05 +2.58236143731E-05 -5.15110028010E-05 -1.85033102791E-05 -7.18449743508E-01 +6.60596558383E-01
1.05000000000E+09 -6.02688021208E-01 +7.46515200389E-01 -5.27156163603E-05 +4.69034722976E-05 -7.62130341232E-05 -2.32080100205E-05 -7.14850180492E-01 +6.64134497958E-01
1.05500000000E+09 -5.94700234064E-01 +7.50943059759E-01 -1.06738403880E-05 +9.59271129032E-05 -1.05369941532E-05 +1.03845055940E-04 -7.11721728328E-01 +6.67751871667E-01
1.06000000000E+09 -5.86184482111E-01 +7.55907954755E-01 -3.37399135204E-05 +2.28446510596E-05 -2.51162723558E-05 +1.22914729777E-05 -7.08393922537E-01 +6.71377418762E-01
1.06500000000E+09 -5.78140958213E-01 +7.60657228682E-01 -6.08708345119E-05 +5.89529351886E-05 -8.16215369245E-06 +1.80925619496E-05 -7.04562480423E-01 +6.75215875274E-01
1.07000000000E+09 -5.71147115197E-01 +7.64683576707E-01 -2.10228401724E-05 +8.14604976229E-05 -4.36547586244E-05 +7.99614477735E-05 -7.00739936681E-01 +6.78771628858E-01
1.07500000000E+09 -5.65874950601E-01 +7.68509539537E-01 -1.35501832564E-05 +1.29701014857E-04 -9.07157728650E-06 +9.48885478875E-05 -6.96454473002E-01 +6.82446083091E-01
1.08000000000E+09 -5.62079759055E-01 +7.71562457325E-01 +5.85090538612E-06 +7.68635538380E-05 +5.64848291016E-07 +8.37454236180E-05 -6.92354687471E-01 +6.86225364081E-01
1.08500000000E+09 -5.59682521988E-01 +7.73971336734E-01 +3.05316994537E-05 +3.11609819761E-05 +2.26222136318E-05 +8.87092012771E-05 -6.88277795754E-01 +6.90005854336E-01
1.09000000000E+09 -5.57553029025E-01 +7.76223012096E-01 +1.24154004917E-05 +5.27002394430E-05 -1.32084357723E-05 +9.17872373928E-05 -6.84273326744E-01 +6.93818780265E-01
1.09500000000E+09 -5.55772586952E-01 +7.78227828513E-01 +1.27926800202E-05 +1.02880382846E-04 -3.46304865913E-05 +5.74409895572E-05 -6.80517318694E-01 +6.97623841610E-01
1.10000000000E+09 -5.52426103312E-01 +7.80512769497E-01 +3.60449280845E-05 +1.66235454965E-06 +4.20434083949E-06 +2.44151700799E-05 -6.76550796342E-01 +7.01490604963E-01
1.10500000000E+09 -5.48003631743E-01 +7.83040758719E-01 +2.81301535459E-05 +6.64427010576E-05 +5.30640690027E-05 +8.81126363267E-05 -6.72128891594E-01 +7.04930882786E-01
1.11000000000E+09 -5.41971455356E-01 +7.86397211319E-01 -3.64643214390E-05 +7.43073098822E-05 +1.21796372066E-05 +5.58241604162E-05 -6.67946023942E-01 +7.08377437558E-01
1.11500000000E+09 -5.34406179986E-01 +7.90167251430E-01 +2.58394402574E-05 +7.74233340791E-05 +4.45770187935E-05 +5.92240066277E-05 -6.63937938939E-01 +7.11885305595E-01
1.12000000000E+09 -5.26429196076E-01 +7.94115579180E-01 +5.75632411566E-05 +8.64910164214E-05 +4.42321545021E-05 +9.59948393824E-05 -6.59891137870E-01 +7.15472186037E-01
1.12500000000E+09 -5.18453620690E-01 +7.97988443867E-01 +3.16522096607E-05 +6.86298796544E-06 +1.04488229984E-04 +8.18436588134E-05 -6.55407576716E-01 +7.19456951911E-01
1.13000000000E+09 -5.11428443076E-01 +8.01597254669E-01 +4.48697920142E-05 +3.68326623597E-05 +2.31063398081E-05 +7.32084256884E-05 -6.51241213150E-01 +7.23152883315E-01
1.13500000000E+09 -5.05476949633E-01 +8.04520973112E-01 +7.80203770153E-05 +4.15010166956E-05 +6.84456535118E-05 +6.53042710765E-05 -6.46728229303E-01 +7.26938982211E-01
1.14000000000E+09 -5.00711676087E-01 +8.07280441044E-01 +1.14578289729E-04 +1.30240663603E-05 +8.85564568065E-05 +5.24256840589E-05 -6.41934854787E-01 +7.30546076506E-01
1.14500000000E+09 -4.97043391830E-01 +8.09261634906E-01 +1.11736886274E-04 +5.78767336610E-05 +7.86500105442E-05 +1.93089842726E-05 -6.37374107727E-01 +7.33796283698E-01
1.15000000000E+09 -4.93499611816E-01 +8.11120391714E-01 +9.70683530775E-05 +3.74476694384E-05 +1.33940848074E-04 +4.09187757689E-05 -6.32644706865E-01 +7.37611670503E-01
1.15500000000E+09 -4.89940599247E-01 +8.13174392684E-01 +1.21125289495E-04 +5.90592947920E-05 +8.48218438551E-05 +3.43863817015E-05 -6.27948407477E-01 +7.41355650272E-01
1.16000000000E+09 -4.85197211469E-01 +8.15223664020E-01 +9.51086118304E-05 +5.11399274486E-05 +1.25429632442E-04 +2.81257979241E-05 -6.22838552678E-01 +7.45131276229E-01
1.16500000000E+09 -4.79157442235E-01 +8.18013791060E-01 +1.21199989046E-04 +1.14111833470E-05 +1.43975011110E-04 +9.16945266860E-05 -6.17913814777E-01 +7.48659024685E-01
1.17000000000E+09 -4.71828412618E-01 +8.21093494342E-01 +1.30208950863E-04 +7.53341484187E-05 +1.22055229006E-04 +4.56694795852E-05 -6.12339926834E-01 +7.52170935117E-01
1.17500000000E+09 -4.63671770510E-01 +8.24536351430E-01 +1.38243094794E-04 +1.21455688778E-05 +1.35705624672E-04 +3.83506251840E-05 -6.06617353813E-01 +7.55317461885E-01
1.18000000000E+09 -4.55177698835E-01 +8.28090567082E-01 +1.06702331761E-04 +1.69887020923E-05 +1.83677447608E-04 +2.00734720807E-05 -6.01012926481E-01 +7.58438888061E-01
1.18500000000E+09 -4.47008610200E-01 +8.31250064425E-01 +1.73983084471E-04 -1.74015519901E-05 +1.46037542341E-04 +4.00357252493E-05 -5.95091511447E-01 +7.61514725708E-01
1.19000000000E+09 -4.39644638022E-01 +8.33833124163E-01 +2.27359270223E-04 -2.59833426461E-06 +2.03971270174E-04 +7.47345229526E-06 -5.88853224373E-01 +7.64159027293E-01
1.19500000000E+09 -4.33579347217E-01 +8.35778248251E-01 +2.56903996557E-04 +3.18917040909E-06 +2.04004822901E-04 -9.70010379493E-05 -5.82855341792E-01 +7.65264921932E-01
1.20000000000E+09 -4.29092470228E-01 +8.36953933837E-01 +2.34211418320E-04 -9.10228607736E-05 +2.56787708761E-04 -8.59610091514E-05 -5.78236775449E-01 +7.65513013530E-01
1.20500000000E+09 -4.25116892008E-01 +8.38279527606E-01 +2.23994378926E-04 -1.55057730590E-04 +2.22918665942E-04 -2.30040265717E-04 -5.76055938998E-01 +7.66242239835E-01
1.21000000000E+09 -4.21262943624E-01 +8.39675982978E-01 +1.16516737558E-04 -2.21506064685E-04 +1.88626509102E-04 -2.03230534481E-04 -5.74168466954E-01 +7.69179925589E-01
1.21500000000E+09 -4.16232779705E-01 +8.41456533796E-01 +1.08596209880E-04 -2.60679594118E-04 +1.33729709293E-04 -1.87411902386E-04 -5.71523756677E-01 +7.73761775354E-01
1.22000000000E+09 -4.09602979791E-01 +8.43564187616E-01 +1.27727782140E-04 -1.93212765509E-04 +1.34195085623E-04 -2.25348061051E-04 -5.67273061575E-01 +7.79074418434E-01
1.22500000000E+09 -4.01394385501E-01 +8.46287914298E-01 +1.22955096948E-04 -1.77403875460E-04 +1.45097171825E-04 -1.71026735073E-04 -5.62199083835E-01 +7.84065352517E-01
1.23000000000E+09 -3.91864351530E-01 +8.49391452554E-01 +1.27236663073E-04 -2.07045435894E-04 +1.04798272566E-04 -2.33411712040E-04 -5.56453937117E-01 +7.88897375938E-01
1.23500000000E+09 -3.81686351820E-01 +8.52924399907E-01 +1.00504038045E-04 -2.19031869552E-04 +9.80872374157E-05 -2.25842879091E-04 -5.50614964410E-01 +7.93064242598E-01
1.24000000000E+09 -3.71502124795E-01 +8.56628307449E-01 +1.05567472712E-04 -2.16923946823E-04 +6.24242389008E-05 -2.32625921659E-04 -5.44716460653E-01 +7.96877602433E-01
1.24500000000E+09 -3.62208009913E-01 +8.60379612041E-01 +5.05192159834E-05 -2.82066559261E-04 +7.39957935230E-06 -2.22930059388E-04 -5.38270775425E-01 +8.00827192943E-01
1.25000000000E+09 -3.54117483028E-01 +8.63603116237E-01 +8.46165810891E-06 -2.65500214251E-04 +4.97356189046E-05 -2.80811955828E-04 -5.31667541102E-01 +8.04992524059E-01
1.25500000000E+09 -3.47352697162E-01 +8.65923866363E-01 -2.07494236020E-06 -2.66870411043E-04 +5.23611379894E-05 -2.88394099129E-04 -5.24822424258E-01 +8.09064449839E-01
1.26000000000E+09 -3.41624363201E-01 +8.67891821032E-01 -1.89924494369E-05 -2.99615646033E-04 -1.76772199012E-05 -3.69261806033E-04 -5.18131078212E-01 +8.13341730162E-01
1.26500000000E+09 -3.36714971972E-01 +8.69369802865E-01 -2.83654143743E-05 -3.19147514354E-04 -3.22297425920E-05 -3.39878683928E-04 -5.11010963669E-01 +8.17146169929E-01
1.27000000000E+09 -3.31233058409E-01 +8.70736915489E-01 -7.43209446556E-05 -3.41380189220E-04 -8.33772655339E-05 -4.00787713363E-04 -5.04264168517E-01 +8.20969841918E-01
1.27500000000E+09 -3.24841341976E-01 +8.72017508130E-01 -1.14910178507E-04 -3.98482182772E-04 -9.42000217876E-05 -3.54673420624E-04 -4.97177453772E-01 +8.24542278964E-01
1.28000000000E+09 -3.16500735957E-01 +8.73717673287E-01 -1.68636611329E-04 -3.25961838453E-04 -1.64826241122E-04 -3.70409452152E-04 -4.90212790177E-01 +8.28065942619E-01
1.28500000000E+09 -3.06134333743E-01 +8.75765640234E-01 -1.96941644477E-04 -2.86845472250E-04 -2.22765792530E-04 -3.75175705081E-04 -4.82718128313E-01 +8.31648417774E-01
1.29000000000E+09 -2.94387796594E-01 +8.78115647711E-01 -2.42207844272E-04 -2.85818366695E-04 -2.27851426658E-04 -3.59890853461E-04 -4.75309115369E-01 +8.35251248237E-01
1.29500000000E+09 -2.82132403783E-01 +8.81003492673E-01 -2.13675071260E-04 -3.29111554746E-04 -3.04844212201E-04 -2.86300178587E-04 -4.67411910463E-01 +8.38905013992E-01
1.30000000000E+09 -2.69884128378E-01 +8.83906901663E-01 -2.81696169582E-04 -3.35162003361E-04 -3.50246984735E-04 -2.62040042857E-04 -4.59405525332E-01 +8.42455100375E-01
1.30500000000E+09 -2.58820168291E-01 +8.87008160621E-01 -3.51205521112E-04 -3.00500042965E-04 -3.85552563496E-04 -2.82679395118E-04 -4.51281380989E-01 +8.45872461122E-01
1.31000000000E+09 -2.49092462607E-01 +8.89493637589E-01 -4.24105623883E-04 -2.59243365602E-04 -3.96923509065E-04 -2.38726645501E-04 -4.42951690750E-01 +8.49298143760E-01
1.31500000000E+09 -2.41321129990E-01 +8.91445486510E-01 -4.46260593470E-04 -1.62432411522E-04 -4.30690870883E-04 -2.56455422138E-04 -4.34204370629E-01 +8.52625499192E-01
1.32000000000E+09 -2.34975254360E-01 +8.92608457488E-01 -4.69960459080E-04 -1.72942416118E-04 -5.06034657682E-04 -2.20256468608E-04 -4.24961753814E-01 +8.55932487193E-01
1.32500000000E+09 -2.29194530104E-01 +8.93191621946E-01 -4.94865542413E-04 -1.61695606390E-04 -5.35047703579E-04 -1.32297546408E-04 -4.15304488961E-01 +8.59369015091E-01
1.33000000000E+09 -2.22533162890E-01 +8.93631952338E-01 -5.41984757776E-04 -1.44783332147E-04 -5.39891771231E-04 -9.93757822702E-05 -4.05689510918E-01 +8.62792392821E-01
1.33500000000E+09 -2.14374852461E-01 +8.93471244597E-01 -5.87508381844E-04 -1.24235220470E-04 -5.31288038161E-04 -8.53878359788E-05 -3.95579479889E-01 +8.66007205845E-01
1.34000000000E+09 -2.03798873691E-01 +8.93579366653E-01 -6.25915921111E-04 -6.16324865088E-05 -6.28559847668E-04 -2.82435788448E-05 -3.85453733017E-01 +8.69252191570E-01
1.34500000000E+09 -1.90362374816E-01 +8.93368026843E-01 -7.17330019359E-04 -1.65301805082E-05 -6.46592246286E-04 -7.60065689228E-05 -3.74624646757E-01 +8.72598724420E-01
1.35000000000E+09 -1.74922426326E-01 +8.93355493365E-01 -7.09415476498E-04 +1.06892452798E-04 -7.23412679247E-04 +1.02773221538E-04 -3.63436065973E-01 +8.75492603140E-01
1.35500000000E+09 -1.58306507181E-01 +8.93302791587E-01 -7.41254945772E-04 +1.72655475843E-04 -7.02966436164E-04 +1.92091739937E-04 -3.51749158828E-01 +8.78266807446E-01
1.36000000000E+09 -1.41704933619E-01 +8.93467794608E-01 -7.03630487428E-04 +2.43977977016E-04 -6.83723758318E-04 +2.45256917917E-04 -3.39886403247E-01 +8.80898128349E-01
1.36500000000E+09 -1.25621213241E-01 +8.94021296083E-01 -7.53656232578E-04 +2.96382776742E-04 -7.38211453615E-04 +2.75528639549E-04 -3.27670486347E-01 +8.83352915606E-01
1.37000000000E+09 -1.11264497731E-01 +8.94061429138E-01 -7.92044013034E-04 +3.88724033700E-04 -7.52313745701E-04 +3.01116224729E-04 -3.14788940216E-01 +8.85727189309E-01
1.37500000000E+09 -9.86112027815E-02 +8.94079677773E-01 -7.89116348997E-04 +4.89943698905E-04 -8.52807901079E-04 +3.52199575467E-04 -3.01017455910E-01 +8.87981332813E-01
1.38000000000E+09 -8.73897117584E-02 +8.93605355369E-01 -8.50043787142E-04 +5.59127892117E-04 -9.81931225917E-04 +4.97228672231E-04 -2.86330022320E-01 +8.89783985045E-01
1.38500000000E+09 -7.63740789220E-02 +8.92579455297E-01 -8.11671562296E-04 +7.59876730282E-04 -9.90143353009E-04 +7.70540354492E-04 -2.70913649062E-01 +8.91672290505E-01
1.39000000000E+09 -6.47192209288E-02 +8.90896975896E-01 -7.87543007125E-04 +8.86735361660E-04 -8.73347268056E-04 +9.78679009788E-04 -2.55134727215E-01 +8.93056522200E-01
1.39500000000E+09 -5.11237852963E-02 +8.88337905003E-01 -7.41147844417E-04 +9.62228590201E-04 -8.06388388978E-04 +1.15835504020E-03 -2.38258735291E-01 +8.93697236329E-01
1.40000000000E+09 -3.50383036390E-02 +8.84616981176E-01 -6.72970939996E-04 +1.12784109027E-03 -5.67657703236E-04 +1.21259299023E-03 -2.20671251743E-01 +8.94177325790E-01
1.40500000000E+09 -1.64497315462E-02 +8.79922987865E-01 -6.33490129589E-04 +1.26360467724E-03 -5.17393229529E-04 +1.27774981122E-03 -2.02060574551E-01 +8.93881609582E-01
1.41000000000E+09 +4.25261525874E-03 +8.74406541636E-01 -5.48221010709E-04 +1.37967665551E-03 -5.52770709733E-04 +1.38129445692E-03 -1.81841098257E-01 +8.92860965489E-01
1.41500000000E+09 +2.62979115035E-02 +8.68201689535E-01 -4.75146928139E-04 +1.52302894125E-03 -4.99557237246E-04 +1.56233344282E-03 -1.60563101396E-01 +8.91377624833E-01
1.42000000000E+09 +4.91357967824E-02 +8.61523615387E-01 -3.70901658175E-04 +1.67758970677E-03 -4.73168765373E-04 +1.84323556769E-03 -1.37547276625E-01 +8.88866524807E-01
1.42500000000E+09 +7.15928248753E-02 +8.54118873360E-01 -3.45195152566E-04 +1.98608647448E-03 -2.39128224820E-04 +2.19837486497E-03 -1.13915473556E-01 +8.84976438702E-01
1.43000000000E+09 +9.32830110755E-02 +8.45851720473E-01 -8.77508916615E-05 +2.32455976142E-03 +1.30762849413E-04 +2.50750155221E-03 -8.91691128075E-02 +8.79994635416E-01
1.43500000000E+09 +1.14230423065E-01 +8.36361765632E-01 +3.48809163286E-04 +2.49777308921E-03 +5.89765678325E-04 +2.52815087158E-03 -6.29978938486E-02 +8.73125786862E-01
1.44000000000E+09 +1.35476960826E-01 +8.25577321544E-01 +6.66446413440E-04 +2.65972833845E-03 +8.54682301783E-04 +2.63892224854E-03 -3.52056654225E-02 +8.64457106358E-01
1.44500000000E+09 +1.57833062073E-01 +8.12394233428E-01 +1.09528826658E-03 +2.70175620897E-03 +1.31006438459E-03 +2.69354989782E-03 -5.25735610530E-03 +8.53158612979E-01
1.45000000000E+09 +1.82068845612E-01 +7.95520851068E-01 +1.25849672190E-03 +2.74428481614E-03 +1.51982725148E-03 +2.73265000744E-03 +2.64941234102E-02 +8.38072102637E-01
1.45500000000E+09 +2.08287059637E-01 +7.74484881512E-01 +1.61148322075E-03 +3.20213545392E-03 +1.92847776136E-03 +3.04943311337E-03 +5.89596039751E-02 +8.20076767387E-01
1.46000000000E+09 +2.36658822507E-01 +7.49047402357E-01 +2.45749887575E-03 +3.67256759632E-03 +2.73361332221E-03 +3.29294952304E-03 +9.33902573985E-02 +7.98959047827E-01
1.46500000000E+09 +2.66818919363E-01 +7.19304529787E-01 +3.72617480133E-03 +3.77865040862E-03 +3.62674186403E-03 +3.24217890811E-03 +1.29438200212E-01 +7.72471491655E-01
1.47000000000E+09 +2.98553194155E-01 +6.83975062860E-01 +5.20708411155E-03 +3.42574136871E-03 +4.76189554441E-03 +3.16365503897E-03 +1.66210556805E-01 +7.38956380483E-01
1.47500000000E+09 +3.29425830208E-01 +6.42940164108E-01 +6.40652335767E-03 +2.40786691772E-03 +6.04706196733E-03 +2.54085331370E-03 +2.02906102674E-01 +6.98336951260E-01
1.48000000000E+09 +3.58366323230E-01 +5.95209890310E-01 +7.21893890777E-03 +1.35014635137E-03 +7.28374315456E-03 +1.60466700465E-03 +2.38793537458E-01 +6.49575817025E-01
1.48500000000E+09 +3.82069553316E-01 +5.40477070368E-01 +8.10737134901E-03 +3.19325579213E-04 +8.34565118634E-03 +2.53906686895E-04 +2.72655059663E-01 +5.92183644949E-01
1.49000000000E+09 +3.99053176613E-01 +4.79706778264E-01 +9.58475483248E-03 -1.19319759576E-03 +9.52273973935E-03 -1.65795798705E-03 +3.02129258109E-01 +5.23426727616E-01
1.49500000000E+09 +4.08401413619E-01 +4.12054483259E-01 +1.02820311171E-02 -3.90492476657E-03 +9.70579757645E-03 -4.13749197521E-03 +3.21146096259E-01 +4.43107888391E-01
1.50000000000E+09 +4.07903906929E-01 +3.36048508431E-01 +1.07010022148E-02 -6.74906016820E-03 +1.01107752839E-02 -6.43969132588E-03 +3.26135001782E-01 +3.54934137348E-01
1.50500000000E+09 +3.94809702149E-01 +2.53144676330E-01 +9.85179240979E-03 -1.09439013164E-02 +9.75530088699E-03 -1.02473061579E-02 +3.15731641044E-01 +2.59515380616E-01
1.51000000000E+09 +3.66140435614E-01 +1.64317704071E-01 +6.95306487525E-03 -1.49941377189E-02 +7.41064335845E-03 -1.46367776797E-02 +2.86044194704E-01 +1.59308510033E-01
1.51500000000E+09 +3.18707319149E-01 +7.53209343319E-02 +1.90625984497E-03 -1.74624139854E-02 +2.36522421585E-03 -1.75614975036E-02 +2.32843675211E-01 +6.04812405669E-02
1.52000000000E+09 +2.51248805755E-01 -8.10539610266E-03 -3.62141991201E-03 -1.79861585951E-02 -3.43320400746E-03 -1.82243535930E-02 +1.56481242948E-01 -2.75574714876E-02
1.52500000000E+09 +1.65197898614E-01 -7.74787959508E-02 -8.53538198607E-03 -1.56025658411E-02 -8.52566456554E-03 -1.57945143605E-02 +6.11581144015E-02 -9.67639639557E-02
1.53000000000E+09 +6.60426359433E-02 -1.25819206981E-01 -1.17471898688E-02 -1.32675012367E-02 -1.18190906989E-02 -1.33487048859E-02 -4.64319245021E-02 -1.43191686560E-01
1.53500000000E+09 -3.96832199307E-02 -1.50597391878E-01 -1.55311038203E-02 -1.03577162625E-02 -1.56395813936E-02 -1.03299045896E-02 -1.59661097718E-01 -1.63060525863E-01
1.54000000000E+09 -1.46612602646E-01 -1.52099130101E-01 -1.82317397444E-02 -5.39131314280E-03 -1.80468636764E-02 -5.38810522212E-03 -2.68854199110E-01 -1.59415020410E-01
1.54500000000E+09 -2.49717745420E-01 -1.30804629801E-01 -1.85861685776E-02 +9.35493334862E-04 -1.84330092700E-02 +6.02807038501E-04 -3.67323049027E-01 -1.35130754107E-01
1.55000000000E+09 -3.43492484754E-01 -8.93515084028E-02 -1.60330756444E-02 +5.70501258761E-03 -1.62322120370E-02 +5.08342708989E-03 -4.52543816096E-01 -9.77141105116E-02
1.55500000000E+09 -4.21471917921E-01 -3.31778944795E-02 -1.30824062649E-02 +8.89971989044E-03 -1.37592992297E-02 +8.62166691957E-03 -5.22998797850E-01 -5.04145769317E-02
1.56000000000E+09 -4.81943403148E-01 +2.79162875089E-02 -9.35708039476E-03 +1.09761475052E-02 -1.01704194713E-02 +1.11866254760E-02 -5.80221118176E-01 +2.22243467935E-03
1.56500000000E+09 -5.28757751221E-01 +8.76887777157E-02 -5.57577975952E-03 +1.15794940973E-02 -6.04410422572E-03 +1.22348407539E-02 -6.24607295978E-01 +5.71855129859E-02
1.57000000000E+09 -5.66303499743E-01 +1.45022259013E-01 -2.56537453859E-03 +1.07590809150E-02 -2.61525944836E-03 +1.15248792855E-02 -6.58750630040E-01 +1.11851333108E-01
