# Hz S RI R 50
! CMT, C1220, 16058040, 17.2.0/1
! Date: 14/08/2018 11:56:09
! Data: Format (Calibration Info)
! Freq                      S11: Re/Im (F2)                       S21: Re/Im (F2)                       S12: Re/Im (F2)                       S22: Re/Im (F2)            
1.00000000000E+09 -6.43894530155E-01 +7.11488598646E-01 -2.68488801309E-05 +1.37371994936E-05 +1.16934114221E-06 +1.88259302407E-06 -7.50067476523E-01 +6.27112825819E-01
1.00500000000E+09 -6.36862097997E-01 +7.16197129145E-01 -4.57960385548E-05 -3.07088435545E-05 +7.37102305333E-06 -1.13049401760E-05 -7.46206876901E-01 +6.31125865423E-01
1.01000000000E+09 -6.30971242612E-01 +7.20812098153E-01 -2.92523469039E-05 -5.78315736388E-06 +6.51494629798E-06 -1.74582995424E-05 -7.42808447112E-01 +6.34901720108E-01
1.01500000000E+09 -6.26446731819E-01 +7.24638818766E-01 +1.59537616180E-05 -8.92356740360E-06 -2.20465174333E-05 -1.14872950763E-05 -7.39232064385E-01 +6.38679523099E-01
1.02000000000E+09 -6.23499995129E-01 +7.27703259921E-01 -3.29854108074E-06 +2.41902284543E-05 -6.19691355406E-05 +4.27037866280E-05 -7.35870476855E-01 +6.42295063095E-01
1.02500000000E+09 -6.21289241075E-01 +7.30329925157E-01 -7.90555626564E-05 +1.64515853303E-05 -5.55408498918E-05 +1.04171761452E-05 -7.32775952593E-01 +6.45947682727E-01
1.03000000000E+09 -6.19878675184E-01 +7.32612374984E-01 -2.52543990616E-05 +1.53940803034E-05 -4.30182165340E-05 -1.98008434677E-05 -7.29439123744E-01 +6.49762864392E-01
1.03500000000E+09 -6.17454137494E-01 +7.34971095099E-01 -5.42049054937E-05 +1.42111490267E-05 -3.56365798369E-05 +3.71585954965E-05 -7.25599845405E-01 +6.53665493401E-01
1.04000000000E+09 -6.13916334982E-01 +7.37976105906E-01 -7.80791098871E-05 +1.92675668461E-05 -4.71660097293E-05 +6.81796121184E-05 -7.21789592807E-01 +6.57193399170E-01
1.04500000000E+09 -6.08952509284E-01 +7.41404250802E-01 -1.90786206690E-05 +2.65058129813E-05 -4.05605361042E-05 -5.26330223016E-06 -7.18319771170E-01 +6.60743922591E-01
1.05000000000E+09 -6.02097978832E-01 +7.45586516342E-01 -2.42850735180E-05 +5.48165492537E-05 -1.74295130734E-05 +3.05479899364E-05 -7.14851838222E-01 +6.64210269358E-01
1.05500000000E+09 -5.94074032184E-01 +7.49871290279E-01 -1.54488343847E-05 +3.54629426909E-05 -6.63932419012E-06 +1.31047519793E-05 -7.11525773619E-01 +6.67817090514E-01
1.06000000000E+09 -5.85648497892E-01 +7.54889664239E-01 -3.23089603459E-05 +8.66006245531E-05 -1.00408342749E-05 +4.84255635537E-05 -7.08136262808E-01 +6.71550948221E-01
1.06500000000E+09 -5.77682967829E-01 +7.59755121293E-01 -9.86991303377E-06 +4.93379313666E-05 -2.92689533853E-05 +6.04545573277E-05 -7.04563495996E-01 +6.75327839651E-01
1.07000000000E+09 -5.70632651480E-01 +7.63891989587E-01 -2.81331252724E-05 +4.37935817126E-05 -6.26792647246E-06 +1.06435929749E-04 -7.00408223875E-01 +6.78942151702E-01
1.07500000000E+09 -5.65237855971E-01 +7.67636350421E-01 -1.12313698264E-05 +4.89918362992E-05 -3.48420774620E-05 +8.59567783591E-05 -6.96127834595E-01 +6.82590199808E-01
1.08000000000E+09 -5.61613935813E-01 +7.70762148135E-01 +3.47589526433E-05 +5.17396521387E-05 -6.93940916940E-06 +5.16890667621E-05 -6.92219000305E-01 +6.86360856447E-01
1.08500000000E+09 -5.59194259366E-01 +7.73235447559E-01 +4.18264085011E-05 +7.20761859458E-05 -3.22569946616E-05 +3.95367420604E-05 -6.88213724311E-01 +6.90202932020E-01
1.09000000000E+09 -5.57184974634E-01 +7.75415939212E-01 -1.05564180587E-05 +6.25808064389E-05 +3.55409336258E-05 +6.59624514554E-05 -6.84118767562E-01 +6.94037297040E-01
1.09500000000E+09 -5.55257566819E-01 +7.77183585444E-01 +6.73198893004E-06 +2.40963365940E-05 +4.22013967313E-05 +5.49010158940E-05 -6.80416497252E-01 +6.97862526402E-01
1.10000000000E+09 -5.52026896948E-01 +7.79365747570E-01 -2.62762689608E-05 +6.07127806587E-05 +4.12424950810E-05 +9.59230813297E-05 -6.76391922835E-01 +7.01743621339E-01
1.10500000000E+09 -5.47713111886E-01 +7.82191975682E-01 -3.67344092587E-05 +1.49053987101E-05 -2.35519088075E-05 +5.81912555997E-05 -6.72167362858E-01 +7.05255753887E-01
1.11000000000E+09 -5.41520897448E-01 +7.85468621737E-01 -2.92733007920E-05 +1.03813883976E-04 +2.52460409636E-07 +1.27191732688E-04 -6.67892967344E-01 +7.08585699632E-01
1.11500000000E+09 -5.34107832503E-01 +7.89350491441E-01 +2.46828381359E-05 +8.85978045416E-05 +3.92030116603E-05 +5.11873978626E-05 -6.63760043450E-01 +7.12055522040E-01
1.12000000000E+09 -5.26149146038E-01 +7.93052798081E-01 +5.41317708495E-06 +8.37285181402E-05 +4.02703264479E-05 +7.08994164261E-05 -6.59609948410E-01 +7.15674149815E-01
1.12500000000E+09 -5.18133036830E-01 +7.97140771259E-01 +1.49395112363E-05 +6.71246841389E-05 +4.09089635691E-05 +9.39784369251E-05 -6.55422107915E-01 +7.19661942537E-01
1.13000000000E+09 -5.11115034344E-01 +8.00845729383E-01 +4.32326296844E-05 +6.95209336901E-05 +3.58559432754E-05 +3.38504006396E-05 -6.51023637078E-01 +7.23340100641E-01
1.13500000000E+09 -5.05170280279E-01 +8.03859019390E-01 +2.90833286612E-05 +5.07941194246E-05 +7.58091655959E-05 +7.39907910900E-05 -6.46517028352E-01 +7.27258428566E-01
1.14000000000E+09 -5.00536794668E-01 +8.06592962619E-01 +8.12438804836E-05 +2.38046664660E-05 +8.24160523273E-05 +7.68103972553E-05 -6.41792612641E-01 +7.30630676167E-01
1.14500000000E+09 -4.96879402247E-01 +8.08603156700E-01 +6.72389965471E-05 +8.10622459124E-05 +5.27903039687E-05 +7.30764750602E-05 -6.37058448616E-01 +7.33893269305E-01
1.15000000000E+09 -4.93288177490E-01 +8.10492322885E-01 +1.01969267314E-04 +4.66182248420E-05 +7.19471271990E-05 +6.59514196860E-05 -6.32413849229E-01 +7.37784717853E-01
1.15500000000E+09 -4.89705430236E-01 +8.12478134100E-01 +1.09853217110E-04 +4.19070352260E-05 +1.16906872820E-04 +7.94252807653E-05 -6.27618020543E-01 +7.41618119849E-01
1.16000000000E+09 -4.85131904252E-01 +8.14536360549E-01 +8.09940947348E-05 +4.89683224675E-05 +1.10700484600E-04 +5.32434445537E-05 -6.22751738146E-01 +7.45397067683E-01
1.16500000000E+09 -4.79163085355E-01 +8.17387829549E-01 +9.65629598658E-05 +5.21660699075E-05 +1.05476800997E-04 +4.01145653771E-05 -6.17714615475E-01 +7.48902721445E-01
1.17000000000E+09 -4.71823983577E-01 +8.20445796370E-01 +1.12755868426E-04 +9.49920593158E-06 +1.45933793734E-04 +6.14776337693E-05 -6.12204424396E-01 +7.52270708553E-01
1.17500000000E+09 -4.63543080304E-01 +8.23859664028E-01 +1.53294712577E-04 +2.51557821063E-05 +1.24314435751E-04 +3.08174808751E-05 -6.06430630314E-01 +7.55400144718E-01
1.18000000000E+09 -4.55167769838E-01 +8.27522599743E-01 +8.98525743919E-05 -4.84797112486E-06 +1.04080406042E-04 +4.64112273858E-06 -6.00826965178E-01 +7.58637187561E-01
1.18500000000E+09 -4.46914464926E-01 +8.30613343351E-01 +1.34314095802E-04 +3.95499848177E-05 +1.40062956056E-04 -9.00492262601E-06 -5.94917288649E-01 +7.61605489979E-01
1.19000000000E+09 -4.39509067714E-01 +8.33343031460E-01 +1.73356505336E-04 +2.71060671131E-05 +1.97311979124E-04 +1.57985312384E-05 -5.88492205223E-01 +7.64272830595E-01
1.19500000000E+09 -4.33680066200E-01 +8.35490237184E-01 +1.92366866192E-04 +2.42721791687E-05 +1.79120119745E-04 +1.47250649202E-05 -5.82673514247E-01 +7.65375131348E-01
1.20000000000E+09 -4.29020698562E-01 +8.36495814213E-01 +2.42873041310E-04 -6.87803975740E-05 +2.11431835703E-04 -1.25235134236E-04 -5.78103908660E-01 +7.65714605350E-01
1.20500000000E+09 -4.25150043974E-01 +8.37794182666E-01 +1.87793998933E-04 -1.50140774742E-04 +2.03803597328E-04 -1.84884590288E-04 -5.75736106861E-01 +7.66404941021E-01
1.21000000000E+09 -4.21217224990E-01 +8.39186303838E-01 +1.08290398281E-04 -1.89320706032E-04 +1.15100639489E-04 -1.72136915919E-04 -5.74071948512E-01 +7.69378131304E-01
1.21500000000E+09 -4.16180128071E-01 +8.41007828668E-01 +1.15945624367E-04 -1.80447753778E-04 +1.25722926438E-04 -1.57321788954E-04 -5.71260237827E-01 +7.73762186189E-01
1.22000000000E+09 -4.09704660413E-01 +8.43305041922E-01 +8.16756570605E-05 -1.41932158813E-04 +1.42172754510E-04 -1.56195966048E-04 -5.67094112257E-01 +7.79077433263E-01
1.22500000000E+09 -4.01442459251E-01 +8.45901391069E-01 +1.61503443282E-04 -1.55847155354E-04 +1.61533672241E-04 -1.44029893898E-04 -5.61993209491E-01 +7.84210458819E-01
1.23000000000E+09 -3.92005660760E-01 +8.49151562336E-01 +5.91268423732E-05 -2.09837224509E-04 +1.14230269950E-04 -2.22836197640E-04 -5.56209810493E-01 +7.88918530167E-01
1.23500000000E+09 -3.81789340428E-01 +8.52779053725E-01 +5.25919297677E-05 -1.99764814922E-04 +7.18567467472E-05 -2.02918442481E-04 -5.50316384925E-01 +7.93313589443E-01
1.24000000000E+09 -3.71542471624E-01 +8.56429146712E-01 +6.91455216321E-05 -2.46888575520E-04 +7.04999528169E-05 -2.14654529509E-04 -5.44234603608E-01 +7.97114152957E-01
1.24500000000E+09 -3.62290551278E-01 +8.60233296080E-01 +4.66790725149E-05 -2.19072101306E-04 +1.13480953949E-04 -2.31687184236E-04 -5.37999206184E-01 +8.00980184697E-01
1.25000000000E+09 -3.54078123704E-01 +8.63384950330E-01 +9.30051807832E-06 -2.51405022982E-04 +5.51067266648E-05 -2.45686165662E-04 -5.31412244343E-01 +8.05165531742E-01
1.25500000000E+09 -3.47292612060E-01 +8.65845528880E-01 +5.62002894312E-05 -2.44794534932E-04 +8.33771914193E-05 -3.00769757314E-04 -5.24483618349E-01 +8.09064660983E-01
1.26000000000E+09 -3.41688666723E-01 +8.67863093969E-01 -1.87359888965E-05 -2.94864565527E-04 -1.15827906137E-05 -2.98482143405E-04 -5.17729206816E-01 +8.13443466418E-01
1.26500000000E+09 -3.36700587331E-01 +8.69374392134E-01 +1.75497846061E-06 -3.28368368476E-04 -4.33368534443E-05 -3.23833285185E-04 -5.10764378827E-01 +8.17228811240E-01
1.27000000000E+09 -3.31307794357E-01 +8.70586970117E-01 -9.70511909395E-05 -3.37168141038E-04 -6.14333656500E-05 -2.91572369565E-04 -5.03937914759E-01 +8.20943040202E-01
1.27500000000E+09 -3.24885187148E-01 +8.71914383068E-01 -1.21499443090E-04 -3.47358819955E-04 -9.05312374540E-05 -3.31993899155E-04 -4.97004134282E-01 +8.24548492336E-01
1.28000000000E+09 -3.16728165898E-01 +8.73673325992E-01 -1.85330214523E-04 -3.59796741383E-04 -1.60454851584E-04 -3.53344223313E-04 -4.89925446734E-01 +8.27943198751E-01
1.28500000000E+09 -3.06195367919E-01 +8.75783135003E-01 -2.19311491809E-04 -3.14522264414E-04 -2.04768162587E-04 -3.38634031501E-04 -4.82574264615E-01 +8.31682808578E-01
1.29000000000E+09 -2.94588983305E-01 +8.78179638703E-01 -2.31392570760E-04 -2.99702252803E-04 -2.43086437432E-04 -3.05858111714E-04 -4.75003139107E-01 +8.35302325346E-01
1.29500000000E+09 -2.82029409128E-01 +8.80980485769E-01 -2.35886418533E-04 -3.04654974891E-04 -2.58902949605E-04 -3.35790879608E-04 -4.67144716452E-01 +8.38792468124E-01
1.30000000000E+09 -2.69872848390E-01 +8.84007033763E-01 -2.71780408858E-04 -3.09483742496E-04 -3.32975138595E-04 -3.15141431129E-04 -4.59258144395E-01 +8.42473453176E-01
1.30500000000E+09 -2.58666063369E-01 +8.87021950251E-01 -3.31470536981E-04 -3.26975894262E-04 -3.58723704037E-04 -2.61572507126E-04 -4.51138674757E-01 +8.45804162488E-01
1.31000000000E+09 -2.48968912526E-01 +8.89539564188E-01 -4.23587875052E-04 -2.37022922498E-04 -4.29626838187E-04 -2.23111636417E-04 -4.42656661908E-01 +8.49200273838E-01
1.31500000000E+09 -2.41202755775E-01 +8.91558825721E-01 -4.14191037450E-04 -1.92518431098E-04 -4.21594774003E-04 -2.03629593059E-04 -4.34168677836E-01 +8.52552395185E-01
1.32000000000E+09 -2.34774918741E-01 +8.92750874764E-01 -4.33441798353E-04 -1.56711928009E-04 -4.42684847426E-04 -1.51772844076E-04 -4.24862230108E-01 +8.55950987670E-01
1.32500000000E+09 -2.28951195554E-01 +8.93267150037E-01 -4.19927722333E-04 -1.23092464393E-04 -4.97467898254E-04 -1.65824986182E-04 -4.15332736284E-01 +8.59323568037E-01
1.33000000000E+09 -2.22479205782E-01 +8.93544138821E-01 -4.76541099530E-04 -1.36795133079E-04 -5.56732327748E-04 -8.28688369026E-05 -4.05503612327E-01 +8.62693670078E-01
1.33500000000E+09 -2.14322179198E-01 +8.93566523250E-01 -5.34352415217E-04 -1.14192966950E-04 -5.23142198192E-04 -6.48242323326E-05 -3.95527133108E-01 +8.66034536588E-01
1.34000000000E+09 -2.03744988718E-01 +8.93656731403E-01 -5.87249681466E-04 -8.75796978900E-05 -5.57518282780E-04 -1.38196595691E-05 -3.85399690596E-01 +8.69232907453E-01
1.34500000000E+09 -1.90335111865E-01 +8.93420456829E-01 -6.52681411395E-04 -5.34034651098E-05 -5.93312383302E-04 -2.82503600809E-05 -3.74447243060E-01 +8.72452813602E-01
1.35000000000E+09 -1.74899247486E-01 +8.93267258063E-01 -6.82048398429E-04 +8.34525295492E-05 -6.46069981953E-04 +8.04471474900E-05 -3.63290882064E-01 +8.75499637422E-01
1.35500000000E+09 -1.58306058359E-01 +8.93393371747E-01 -6.91113803520E-04 +1.10629971574E-04 -6.70494895197E-04 +1.65585461326E-04 -3.51723420972E-01 +8.78327344251E-01
1.36000000000E+09 -1.41665412815E-01 +8.93684064959E-01 -6.96061786426E-04 +1.74212209068E-04 -6.56038427470E-04 +1.82674607310E-04 -3.39822314213E-01 +8.80918122987E-01
1.36500000000E+09 -1.25680730914E-01 +8.94123345804E-01 -7.08842564479E-04 +2.54322353072E-04 -6.32145324675E-04 +2.13862118607E-04 -3.27708461819E-01 +8.83504666740E-01
1.37000000000E+09 -1.11281281303E-01 +8.94240579662E-01 -7.00509392837E-04 +3.06498359765E-04 -7.02260022153E-04 +2.58499671042E-04 -3.14723668225E-01 +8.85779108505E-01
1.37500000000E+09 -9.86666578099E-02 +8.94341133545E-01 -8.28782080397E-04 +4.13777887353E-04 -7.90234074761E-04 +3.20837380207E-04 -3.01110177703E-01 +8.88071890729E-01
1.38000000000E+09 -8.76062024668E-02 +8.93780998379E-01 -8.23879920298E-04 +5.25247815698E-04 -9.24888181910E-04 +4.58080178629E-04 -2.86335407374E-01 +8.89977067283E-01
1.38500000000E+09 -7.66740708384E-02 +8.92774002134E-01 -7.71659546868E-04 +6.97642034104E-04 -8.98417092671E-04 +6.85812791779E-04 -2.71056901302E-01 +8.91765929100E-01
1.39000000000E+09 -6.50534770848E-02 +8.91077327460E-01 -7.31053341894E-04 +7.57582066290E-04 -8.54319844122E-04 +8.94953840659E-04 -2.55196400528E-01 +8.93125873294E-01
1.39500000000E+09 -5.15708186882E-02 +8.88597951825E-01 -7.14804830028E-04 +8.56308035205E-04 -7.12003626207E-04 +1.00687976611E-03 -2.38272181254E-01 +8.93937275660E-01
1.40000000000E+09 -3.53945347038E-02 +8.84761386289E-01 -6.88624625889E-04 +1.01147041432E-03 -5.95071724271E-04 +1.07839384688E-03 -2.20652273602E-01 +8.94393819637E-01
1.40500000000E+09 -1.68403746956E-02 +8.80268366768E-01 -6.08367455790E-04 +1.17955538997E-03 -5.49259268026E-04 +1.15962913284E-03 -2.01984029278E-01 +8.94227616115E-01
1.41000000000E+09 +3.76520132171E-03 +8.74833753564E-01 -5.06047031588E-04 +1.29783469638E-03 -5.52354457931E-04 +1.23933426850E-03 -1.81889394480E-01 +8.93377798323E-01
1.41500000000E+09 +2.59193460740E-02 +8.68662545631E-01 -4.88319809439E-04 +1.40672440012E-03 -5.31530192282E-04 +1.44510771299E-03 -1.60499815871E-01 +8.91790352264E-01
1.42000000000E+09 +4.88074815588E-02 +8.61975886293E-01 -3.95818847513E-04 +1.52313984726E-03 -5.10390524392E-04 +1.69725094930E-03 -1.37655356712E-01 +8.89281326380E-01
1.42500000000E+09 +7.12613457706E-02 +8.54489819272E-01 -3.66402719327E-04 +1.73812744490E-03 -2.61657349512E-04 +1.98008628986E-03 -1.13899990845E-01 +8.85481510946E-01
1.43000000000E+09 +9.27321995413E-02 +8.46226966504E-01 -1.63978131926E-04 +2.14950387576E-03 +3.27123678296E-07 +2.32527449445E-03 -8.90195821609E-02 +8.80592277157E-01
1.43500000000E+09 +1.13520441890E-01 +8.36858007207E-01 +2.34749724720E-04 +2.34650238243E-03 +4.64346917333E-04 +2.39949276453E-03 -6.28013106759E-02 +8.73908752921E-01
1.44000000000E+09 +1.34465670582E-01 +8.26433460148E-01 +5.76967948044E-04 +2.46887544839E-03 +7.69868788206E-04 +2.42658132834E-03 -3.48329699793E-02 +8.65178207843E-01
1.44500000000E+09 +1.56921240112E-01 +8.13407882702E-01 +9.74035111766E-04 +2.51503795688E-03 +1.12120830360E-03 +2.50902401750E-03 -4.84455104416E-03 +8.54003265440E-01
1.45000000000E+09 +1.80956899087E-01 +7.96567056781E-01 +1.07919311523E-03 +2.56860613389E-03 +1.33026838944E-03 +2.58253474515E-03 +2.71679009599E-02 +8.39148967174E-01
1.45500000000E+09 +2.07037007510E-01 +7.75753606366E-01 +1.44442857582E-03 +3.01872087225E-03 +1.77639135573E-03 +2.94667625584E-03 +6.00627784646E-02 +8.21376749332E-01
1.46000000000E+09 +2.35238087276E-01 +7.50892150805E-01 +2.31283214066E-03 +3.39167403358E-03 +2.49043884447E-03 +3.00685105015E-03 +9.46656580119E-02 +8.00166329788E-01
1.46500000000E+09 +2.65550260063E-01 +7.21394994759E-01 +3.16284544383E-03 +3.47576311415E-03 +3.13818803856E-03 +3.04728473637E-03 +1.31077944120E-01 +7.73636109519E-01
1.47000000000E+09 +2.97273118975E-01 +6.86216791808E-01 +4.53566919957E-03 +3.41660528887E-03 +4.11952106298E-03 +3.13933881982E-03 +1.68468724196E-01 +7.40085028540E-01
1.47500000000E+09 +3.28346472535E-01 +6.45570496075E-01 +5.75558663780E-03 +2.59464677723E-03 +5.44705814597E-03 +2.67447732646E-03 +2.05679468223E-01 +6.98959441240E-01
1.48000000000E+09 +3.57153439576E-01 +5.98309890256E-01 +6.67259591025E-03 +1.67020605944E-03 +6.69924231772E-03 +1.86659115934E-03 +2.41936947581E-01 +6.49562275015E-01
1.48500000000E+09 +3.80932883207E-01 +5.44726728999E-01 +7.57280126828E-03 +6.06066438412E-04 +7.84021285486E-03 +4.86737612580E-04 +2.76089703812E-01 +5.91440743657E-01
1.49000000000E+09 +3.98717699797E-01 +4.84717661851E-01 +8.79982086443E-03 -7.89320746137E-04 +8.75747219687E-03 -1.27947102877E-03 +3.05881490519E-01 +5.22062182356E-01
1.49500000000E+09 +4.08869045610E-01 +4.17743519790E-01 +9.56222190392E-03 -2.97014868255E-03 +9.03251513350E-03 -3.24504035963E-03 +3.25015911028E-01 +4.40438906565E-01
1.50000000000E+09 +4.09491729198E-01 +3.42362816052E-01 +1.03461530462E-02 -5.44139536030E-03 +9.72684819351E-03 -5.19704795324E-03 +3.29330818937E-01 +3.50904298988E-01
1.50500000000E+09 +3.97926862940E-01 +2.59750484135E-01 +9.91178468728E-03 -9.71242028180E-03 +9.75127077741E-03 -9.02558795658E-03 +3.18174233057E-01 +2.54168946558E-01
1.51000000000E+09 +3.70740249219E-01 +1.70901210287E-01 +7.41947558399E-03 -1.37000981832E-02 +7.86902343855E-03 -1.32828125092E-02 +2.86933715981E-01 +1.52756227220E-01
1.51500000000E+09 +3.25239107874E-01 +8.12495422811E-02 +2.90695793789E-03 -1.63663729389E-02 +3.30173255422E-03 -1.63968791740E-02 +2.30967632669E-01 +5.36076891008E-02
1.52000000000E+09 +2.59852432319E-01 -3.73702227258E-03 -2.35593532835E-03 -1.72938489047E-02 -2.13707024636E-03 -1.74847367116E-02 +1.53136660702E-01 -3.34645041876E-02
1.52500000000E+09 +1.74799468423E-01 -7.55571259834E-02 -7.29072712424E-03 -1.54620976084E-02 -7.25921581454E-03 -1.57210660269E-02 +5.58913548441E-02 -1.01874264476E-01
1.53000000000E+09 +7.58280614020E-02 -1.26373467789E-01 -1.07926690944E-02 -1.33706545309E-02 -1.08538118830E-02 -1.34886630595E-02 -5.31042605888E-02 -1.46132507633E-01
1.53500000000E+09 -3.04276007805E-02 -1.53514692160E-01 -1.44667418634E-02 -1.02543236124E-02 -1.45280272869E-02 -1.02602490808E-02 -1.66534501924E-01 -1.64095492702E-01
1.54000000000E+09 -1.38486415901E-01 -1.57068536856E-01 -1.70293944524E-02 -5.78655817997E-03 -1.69121138537E-02 -5.77379650556E-03 -2.75740592055E-01 -1.58694674532E-01
1.54500000000E+09 -2.43465428105E-01 -1.37542767178E-01 -1.74438838257E-02 -1.66426347023E-05 -1.72005824161E-02 -3.02661274829E-04 -3.73409327097E-01 -1.32268910010E-01
1.55000000000E+09 -3.39515569179E-01 -9.66620129151E-02 -1.55899824106E-02 +4.31140220809E-03 -1.57184612976E-02 +3.75244488124E-03 -4.57107800407E-01 -9.37850249649E-02
1.55500000000E+09 -4.19519787992E-01 -4.00836075610E-02 -1.34883111857E-02 +7.90327439498E-03 -1.40823681112E-02 +7.52619997279E-03 -5.26325471576E-01 -4.58756520204E-02
1.56000000000E+09 -4.81383588455E-01 +2.14333693456E-02 -9.71666532894E-03 +1.07616262907E-02 -1.04995734990E-02 +1.09107044802E-02 -5.82358795229E-01 +6.97255750889E-03
1.56500000000E+09 -5.29497862839E-01 +8.18445434150E-02 -5.32539553059E-03 +1.12751611898E-02 -5.79043239486E-03 +1.18929785976E-02 -6.25540734705E-01 +6.16441674323E-02
1.57000000000E+09 -5.68070491500E-01 +1.40240552338E-01 -2.50602550581E-03 +1.00793690643E-02 -2.55178860158E-03 +1.07088901064E-02 -6.58747733924E-01 +1.16372120532E-01
