# Hz S RI R 50
! CMT, C1220, 16058040, 17.2.0/1
! Date: 14/08/2018 11:55:59
! Data: Format (Calibration Info)
! Freq                      S11: Re/Im (F2)                       S21: Re/Im (F2)                       S12: Re/Im (F2)                       S22: Re/Im (F2)            
1.00000000000E+09 -6.43731989182E-01 +7.11186567479E-01 -4.22142241301E-05 -4.95849463262E-05 -2.22208208658E-05 +3.62315904891E-05 -7.49974035948E-01 +6.27082253395E-01
1.00500000000E+09 -6.36618178353E-01 +7.16125089665E-01 -3.07687208471E-05 +2.13710520355E-06 -1.01852225426E-05 +2.22183564010E-05 -7.46480988599E-01 +6.31170045125E-01
1.01000000000E+09 -6.30725200816E-01 +7.20742116641E-01 -1.34105894317E-05 -2.14736456571E-05 -1.72362645631E-05 -6.70762053548E-06 -7.42746168342E-01 +6.34908459832E-01
1.01500000000E+09 -6.26352202620E-01 +7.24373836972E-01 -2.61194289378E-05 +4.80459311842E-06 -1.00162831459E-05 -2.23129038511E-05 -7.39274043454E-01 +6.38682026642E-01
1.02000000000E+09 -6.23162237020E-01 +7.27552656631E-01 -3.77738473863E-06 +2.83514083684E-05 -4.63876648481E-05 +4.93772326804E-05 -7.35867658630E-01 +6.42232590553E-01
1.02500000000E+09 -6.21067417286E-01 +7.30267449079E-01 -3.37766758924E-05 +2.75655846395E-05 -2.78686990103E-06 +1.03131177634E-05 -7.32816928525E-01 +6.45969625921E-01
1.03000000000E+09 -6.19493996057E-01 +7.32445780381E-01 -2.69808346995E-05 +7.51751740854E-06 -4.90738226915E-05 +3.84187365006E-05 -7.29453999791E-01 +6.49833878328E-01
1.03500000000E+09 -6.17283989436E-01 +7.34793084737E-01 -1.21431994122E-07 +6.03340817964E-05 -3.20325840125E-05 +1.85714339480E-05 -7.25617179632E-01 +6.53684289608E-01
1.04000000000E+09 -6.13744542640E-01 +7.37757272086E-01 -1.36595155076E-06 +4.18410931060E-06 -5.50230456192E-05 +5.38171630473E-05 -7.21787230542E-01 +6.57333125695E-01
1.04500000000E+09 -6.08539018408E-01 +7.41188171349E-01 -1.96905940906E-05 +2.38195691069E-05 -1.06202411189E-05 +2.42821694844E-05 -7.18255943780E-01 +6.60979522439E-01
1.05000000000E+09 -6.01867248084E-01 +7.45366002985E-01 -2.34631395392E-05 +9.85756701085E-06 -8.93652473623E-05 +7.78438733248E-05 -7.14751908915E-01 +6.64183037122E-01
1.05500000000E+09 -5.93995315177E-01 +7.49789678464E-01 +1.24300673917E-05 +5.06455893584E-05 -7.40693686215E-05 +4.16948593811E-05 -7.11530645783E-01 +6.67875199543E-01
1.06000000000E+09 -5.85440437623E-01 +7.54734141120E-01 -2.83355659936E-05 +4.78387950546E-05 -8.83603064325E-05 +2.63151204505E-05 -7.08105536999E-01 +6.71606766294E-01
1.06500000000E+09 -5.77365968485E-01 +7.59662926368E-01 -2.88393214872E-05 +7.20779056716E-05 -1.68271259017E-05 +6.46931364445E-05 -7.04426433184E-01 +6.75274517952E-01
1.07000000000E+09 -5.70271747651E-01 +7.63813837572E-01 -1.94580945441E-05 +7.08130229414E-05 -3.63674946251E-05 +1.02387278465E-04 -7.00473452446E-01 +6.78954618107E-01
1.07500000000E+09 -5.65074062046E-01 +7.67475958900E-01 +1.14081442528E-05 +9.57701872618E-05 -1.38296103423E-05 +3.48381022236E-05 -6.96038294334E-01 +6.82645683205E-01
1.08000000000E+09 -5.61400126637E-01 +7.70638068677E-01 +3.56396227335E-05 +6.69828978798E-05 +1.88654391071E-06 +4.78156585690E-05 -6.92189180466E-01 +6.86513425260E-01
1.08500000000E+09 -5.59050960034E-01 +7.73143628830E-01 -1.24569424167E-05 +4.40868252947E-05 +2.17182832514E-05 +3.58399842711E-05 -6.88123595730E-01 +6.90256865217E-01
1.09000000000E+09 -5.57043301387E-01 +7.75322333060E-01 -2.19105816090E-05 +3.75681783599E-05 +3.83431955805E-05 +6.62299675677E-05 -6.84229554311E-01 +6.93980617624E-01
1.09500000000E+09 -5.55164367204E-01 +7.77108347087E-01 +7.36379495786E-05 +6.45953217531E-05 +2.59451293636E-05 +8.87049137455E-05 -6.80446455936E-01 +6.97966088780E-01
1.10000000000E+09 -5.51881339484E-01 +7.79360898461E-01 +2.86735497030E-05 +9.73769592206E-05 +2.43744497250E-05 +9.58801950344E-05 -6.76353525776E-01 +7.01742526123E-01
1.10500000000E+09 -5.47473432653E-01 +7.82075105913E-01 +2.83536153331E-05 +4.22110092680E-05 +5.78709329886E-05 -2.70674712451E-05 -6.72167426597E-01 +7.05389166122E-01
1.11000000000E+09 -5.41293978044E-01 +7.85314837715E-01 +1.46456208177E-05 +3.22736308578E-06 +2.43088293283E-05 +4.65964776389E-05 -6.67900964397E-01 +7.08544160064E-01
1.11500000000E+09 -5.33942863433E-01 +7.89240648058E-01 +3.62399062193E-05 +8.58878357497E-05 +4.01197771389E-05 +7.96702879418E-05 -6.63752295495E-01 +7.12029808884E-01
1.12000000000E+09 -5.25989513937E-01 +7.93073105726E-01 +6.21647398773E-05 +2.51347760164E-05 +3.14191871667E-05 +6.71330532472E-05 -6.59572029874E-01 +7.15726074388E-01
1.12500000000E+09 -5.17989582154E-01 +7.97127453096E-01 +2.87247625591E-05 +3.86626135175E-05 +5.90055444743E-05 -9.42071755475E-06 -6.55255509429E-01 +7.19644412070E-01
1.13000000000E+09 -5.10966171856E-01 +8.00776465113E-01 +9.24049083047E-05 +8.06346851696E-05 +2.04082817542E-05 -8.83367813571E-06 -6.50861744757E-01 +7.23520426903E-01
1.13500000000E+09 -5.04953291536E-01 +8.03677199993E-01 +6.48011813644E-05 +5.12398625564E-05 +8.37607005863E-05 +1.67591832873E-05 -6.46460905731E-01 +7.27193136612E-01
1.14000000000E+09 -5.00365989311E-01 +8.06376141471E-01 +7.42351472123E-05 +8.10029720148E-05 +9.91287064443E-05 +2.51748589642E-05 -6.41843634601E-01 +7.30608479297E-01
1.14500000000E+09 -4.96668637769E-01 +8.08420723654E-01 +9.04948997284E-05 +3.60096901451E-05 +8.88565293388E-05 +3.35755029803E-05 -6.37192060761E-01 +7.33999354440E-01
1.15000000000E+09 -4.93193270937E-01 +8.10186017075E-01 +8.95643327678E-05 +3.60840160754E-05 +1.11480407101E-04 +3.88839199360E-05 -6.32368368628E-01 +7.37748088915E-01
1.15500000000E+09 -4.89613124408E-01 +8.12266323962E-01 +8.78708078673E-05 +4.57301802518E-05 +5.48602085664E-05 +6.28664469056E-05 -6.27687242002E-01 +7.41537666145E-01
1.16000000000E+09 -4.84895932383E-01 +8.14349131951E-01 +1.04967424451E-04 +3.42609017414E-05 +1.22384117968E-04 +1.65591644097E-05 -6.22749742056E-01 +7.45432385510E-01
1.16500000000E+09 -4.78988481686E-01 +8.17181722670E-01 +8.43371132000E-05 +2.46130092091E-05 +8.35813501194E-05 +3.35990682107E-05 -6.17632230971E-01 +7.49060048051E-01
1.17000000000E+09 -4.71564573096E-01 +8.20496260116E-01 +1.31322425829E-04 +4.71540789114E-05 +1.44435799200E-04 +3.74818070778E-05 -6.12148261008E-01 +7.52323987562E-01
1.17500000000E+09 -4.63336362489E-01 +8.23679464233E-01 +9.77233161775E-05 +3.99256971494E-05 +1.39394439456E-04 -1.39134915626E-05 -6.06481575707E-01 +7.55608453944E-01
1.18000000000E+09 -4.54931079731E-01 +8.27249621989E-01 +1.40493501490E-04 +4.32236913371E-05 +1.52299471941E-04 +1.62758680199E-05 -6.00737788052E-01 +7.58654567654E-01
1.18500000000E+09 -4.46719892813E-01 +8.30489911545E-01 +1.93207843548E-04 -2.56567450381E-06 +1.74405407219E-04 +3.59481424134E-05 -5.94807914564E-01 +7.61607306036E-01
1.19000000000E+09 -4.39506979086E-01 +8.33204154582E-01 +1.59803008996E-04 +4.34028712282E-05 +1.65334973280E-04 -3.22851676455E-05 -5.88653154129E-01 +7.64179113222E-01
1.19500000000E+09 -4.33396632453E-01 +8.35237200176E-01 +2.25873855672E-04 -8.95602726852E-06 +2.14104657558E-04 -4.31548471895E-05 -5.82608294175E-01 +7.65374805313E-01
1.20000000000E+09 -4.28734748308E-01 +8.36310695795E-01 +2.73721110301E-04 -9.92573827173E-05 +2.26900733101E-04 -1.03427438576E-04 -5.78061541011E-01 +7.65620215651E-01
1.20500000000E+09 -4.25100912811E-01 +8.37633021897E-01 +1.91095616666E-04 -1.40396293756E-04 +2.07880172299E-04 -1.95849068181E-04 -5.75741771873E-01 +7.66332685453E-01
1.21000000000E+09 -4.21134505323E-01 +8.39136952470E-01 +1.33091804579E-04 -1.98171940752E-04 +1.26122044773E-04 -1.53231815224E-04 -5.73964153838E-01 +7.69487541015E-01
1.21500000000E+09 -4.16050618126E-01 +8.40931980928E-01 +1.14953087187E-04 -1.26751038827E-04 +7.22003261564E-05 -1.41565262787E-04 -5.71250867037E-01 +7.73839598661E-01
1.22000000000E+09 -4.09489806170E-01 +8.42896852473E-01 +7.96414767517E-05 -1.40737463960E-04 +1.41772613317E-04 -1.89309901154E-04 -5.66884901341E-01 +7.79168999849E-01
1.22500000000E+09 -4.01277699328E-01 +8.45760816290E-01 +9.84628611488E-05 -1.46629681865E-04 +1.16897864137E-04 -1.90665434025E-04 -5.61886816930E-01 +7.84224311554E-01
1.23000000000E+09 -3.91798897356E-01 +8.48954480355E-01 +9.50222703028E-05 -1.98367833512E-04 +1.46380562959E-04 -2.04418776851E-04 -5.56181836470E-01 +7.88948195110E-01
1.23500000000E+09 -3.81611362902E-01 +8.52522286812E-01 +5.91142674980E-05 -1.92136610603E-04 +6.60196003503E-05 -1.71973331614E-04 -5.50252771419E-01 +7.93296681877E-01
1.24000000000E+09 -3.71395459100E-01 +8.56259315907E-01 +1.03045921554E-04 -1.95191717500E-04 +4.88958371421E-05 -2.16402507664E-04 -5.44350543028E-01 +7.97141137858E-01
1.24500000000E+09 -3.62080015682E-01 +8.60129662451E-01 +5.80687416061E-05 -2.42543086104E-04 +6.14709867707E-05 -2.02279929238E-04 -5.38033262343E-01 +8.00958882832E-01
1.25000000000E+09 -3.54073769318E-01 +8.63226066272E-01 +3.42789794094E-05 -1.97009552907E-04 +6.59402899106E-05 -2.29296674563E-04 -5.31305368919E-01 +8.05245281762E-01
1.25500000000E+09 -3.47186996136E-01 +8.65731427682E-01 +3.12392369568E-05 -2.23813010444E-04 +7.49660119893E-05 -2.98201604878E-04 -5.24368212939E-01 +8.09137176046E-01
1.26000000000E+09 -3.41585506601E-01 +8.67786952859E-01 +2.04324297047E-05 -3.10562677279E-04 +9.19846896375E-06 -2.91418253933E-04 -5.17754954155E-01 +8.13479935765E-01
1.26500000000E+09 -3.36508319902E-01 +8.69101879594E-01 +2.75360050064E-05 -2.80224778283E-04 -4.30259800209E-05 -3.28268321190E-04 -5.10674029774E-01 +8.17245493628E-01
1.27000000000E+09 -3.31218767831E-01 +8.70510723755E-01 -8.72502142798E-05 -3.62346268014E-04 -6.25233973348E-05 -3.09270224904E-04 -5.04001759965E-01 +8.21083814990E-01
1.27500000000E+09 -3.24844024211E-01 +8.71662391484E-01 -1.28588098772E-04 -3.40771334755E-04 -7.89848888330E-05 -2.81752609489E-04 -4.96884190776E-01 +8.24731943696E-01
1.28000000000E+09 -3.16522594649E-01 +8.73430023539E-01 -1.71544751256E-04 -3.21401241443E-04 -2.00685892883E-04 -3.39026531519E-04 -4.89871644934E-01 +8.28099841734E-01
1.28500000000E+09 -3.06048674035E-01 +8.75562123901E-01 -2.14502834079E-04 -2.62684902960E-04 -1.89676430326E-04 -3.06905323462E-04 -4.82500637448E-01 +8.31802222354E-01
1.29000000000E+09 -2.94383253779E-01 +8.78002028149E-01 -1.90073155588E-04 -2.96941090093E-04 -2.45102607881E-04 -3.32026408605E-04 -4.74992583703E-01 +8.35429236193E-01
1.29500000000E+09 -2.81984574116E-01 +8.80800385135E-01 -2.27174523825E-04 -2.92649503157E-04 -3.07514894519E-04 -2.77613456978E-04 -4.67142795308E-01 +8.38907053193E-01
1.30000000000E+09 -2.69815671512E-01 +8.83927793436E-01 -2.54784782034E-04 -3.11695198519E-04 -2.73794040151E-04 -3.05894127928E-04 -4.59165606911E-01 +8.42362954184E-01
1.30500000000E+09 -2.58430352774E-01 +8.86737237709E-01 -3.66621894927E-04 -2.73594503324E-04 -3.62968574013E-04 -2.73407348849E-04 -4.51133420845E-01 +8.45884964723E-01
1.31000000000E+09 -2.48945526079E-01 +8.89445367668E-01 -3.66957782536E-04 -2.72311774660E-04 -3.98497291411E-04 -2.02831896255E-04 -4.42827407258E-01 +8.49226811810E-01
1.31500000000E+09 -2.41004260766E-01 +8.91388921941E-01 -4.23769362642E-04 -2.08818120736E-04 -4.12229403324E-04 -1.99377411231E-04 -4.34007908360E-01 +8.52576200952E-01
1.32000000000E+09 -2.34677386110E-01 +8.92523452597E-01 -4.29913555269E-04 -1.49918193930E-04 -4.63254455402E-04 -1.88835320172E-04 -4.24802785323E-01 +8.56142879276E-01
1.32500000000E+09 -2.28885907459E-01 +8.93235125752E-01 -4.29351665560E-04 -1.46112750606E-04 -4.89812492054E-04 -1.69343129163E-04 -4.15192574674E-01 +8.59427119010E-01
1.33000000000E+09 -2.22414848558E-01 +8.93427067243E-01 -4.52989975511E-04 -1.29011770790E-04 -4.77628810956E-04 -1.16898151535E-04 -4.05501477097E-01 +8.62762949682E-01
1.33500000000E+09 -2.14248974242E-01 +8.93314888420E-01 -5.20994876409E-04 -1.14285555936E-04 -5.40471686938E-04 -4.03400360011E-05 -3.95437308941E-01 +8.66073352868E-01
1.34000000000E+09 -2.03622637257E-01 +8.93441718071E-01 -5.36234578964E-04 -6.49456694207E-05 -4.97112820598E-04 -7.11459179915E-05 -3.85282708926E-01 +8.69206897875E-01
1.34500000000E+09 -1.90154617313E-01 +8.93403809828E-01 -6.12303966402E-04 -9.42275129328E-06 -5.63332868409E-04 -2.16837219340E-05 -3.74349494261E-01 +8.72605354466E-01
1.35000000000E+09 -1.74746312140E-01 +8.93251612600E-01 -6.17768159013E-04 +7.68371173539E-05 -6.38022263123E-04 +7.02844050971E-05 -3.63297557154E-01 +8.75674821291E-01
1.35500000000E+09 -1.58158498554E-01 +8.93348043210E-01 -6.48889895577E-04 +1.57515252284E-04 -6.09759774549E-04 +1.36325904180E-04 -3.51560750666E-01 +8.78415188377E-01
1.36000000000E+09 -1.41471011520E-01 +8.93562745410E-01 -6.72461510206E-04 +2.41223831392E-04 -6.34961125066E-04 +2.41875879155E-04 -3.39760340327E-01 +8.81083884253E-01
1.36500000000E+09 -1.25463264787E-01 +8.93992602889E-01 -6.74399839663E-04 +2.01674540485E-04 -6.59277573784E-04 +2.22854282640E-04 -3.27482455729E-01 +8.83636583118E-01
1.37000000000E+09 -1.11090137594E-01 +8.94159251807E-01 -7.01457919254E-04 +3.03465979734E-04 -6.79677727914E-04 +2.70829227354E-04 -3.14635383431E-01 +8.85990691202E-01
1.37500000000E+09 -9.85581182282E-02 +8.94122475497E-01 -7.10207446577E-04 +3.72730484180E-04 -7.64528647914E-04 +2.98517696256E-04 -3.00739019685E-01 +8.88204950479E-01
1.38000000000E+09 -8.74385464331E-02 +8.93691629784E-01 -7.56176903413E-04 +5.02878156138E-04 -8.77770372270E-04 +4.06306918142E-04 -2.86167431314E-01 +8.90116302111E-01
1.38500000000E+09 -7.63370102262E-02 +8.92731451792E-01 -7.40553849227E-04 +6.58521726146E-04 -9.34510647062E-04 +6.57981299795E-04 -2.70870421711E-01 +8.91774817024E-01
1.39000000000E+09 -6.48682632164E-02 +8.91014761033E-01 -7.22351144739E-04 +7.17498623914E-04 -8.21699143986E-04 +8.55006867572E-04 -2.54891693382E-01 +8.93279757582E-01
1.39500000000E+09 -5.12770246854E-02 +8.88407626408E-01 -7.11588815100E-04 +7.93640088536E-04 -6.80822350131E-04 +9.53270686872E-04 -2.38062743577E-01 +8.93901378174E-01
1.40000000000E+09 -3.52619818934E-02 +8.84674744549E-01 -6.94312369331E-04 +9.79124456487E-04 -5.88526994827E-04 +1.02450410989E-03 -2.20536977253E-01 +8.94321406266E-01
1.40500000000E+09 -1.67157296422E-02 +8.80032091645E-01 -6.01426247091E-04 +1.08390249307E-03 -5.47285018513E-04 +1.09173775202E-03 -2.01846318394E-01 +8.94162898922E-01
1.41000000000E+09 +4.03066788645E-03 +8.74646291968E-01 -5.55592314684E-04 +1.16336037068E-03 -5.61075348051E-04 +1.19163469517E-03 -1.81742508272E-01 +8.93228261388E-01
1.41500000000E+09 +2.61663529953E-02 +8.68457323335E-01 -5.40818973974E-04 +1.31666521076E-03 -5.76463191911E-04 +1.35697403887E-03 -1.60444165446E-01 +8.91844075848E-01
1.42000000000E+09 +4.91357363614E-02 +8.61856984594E-01 -4.53897951820E-04 +1.46716836574E-03 -5.30656093813E-04 +1.61241043589E-03 -1.37535523302E-01 +8.89301444036E-01
1.42500000000E+09 +7.15240295083E-02 +8.54346859471E-01 -4.45409934393E-04 +1.72862927519E-03 -4.27154331928E-04 +1.96974983778E-03 -1.13785960829E-01 +8.85510432760E-01
1.43000000000E+09 +9.30347869964E-02 +8.45995620138E-01 -3.06631253976E-04 +2.13817419048E-03 -7.73536433760E-05 +2.34152467087E-03 -8.91513331507E-02 +8.80716692267E-01
1.43500000000E+09 +1.14005600076E-01 +8.36659338975E-01 +1.25594380509E-04 +2.36036217036E-03 +3.85714176101E-04 +2.41047159247E-03 -6.27959039536E-02 +8.73866740812E-01
1.44000000000E+09 +1.34873005619E-01 +8.26158932948E-01 +4.83939626262E-04 +2.43459907414E-03 +6.40482758937E-04 +2.43608475341E-03 -3.49255144172E-02 +8.65372891629E-01
1.44500000000E+09 +1.57307374758E-01 +8.13046210310E-01 +8.71272228312E-04 +2.50190791864E-03 +1.04440138650E-03 +2.44485941473E-03 -4.85045541913E-03 +8.54111528986E-01
1.45000000000E+09 +1.81367392732E-01 +7.96310069368E-01 +9.56860076468E-04 +2.58103705355E-03 +1.19092438282E-03 +2.60290126780E-03 +2.72540022994E-02 +8.39373158026E-01
1.45500000000E+09 +2.07429779266E-01 +7.75478828080E-01 +1.32291149662E-03 +3.03953962896E-03 +1.57244944818E-03 +2.95782942227E-03 +6.01186480288E-02 +8.21517242424E-01
1.46000000000E+09 +2.35691683467E-01 +7.50468832686E-01 +2.12967607496E-03 +3.47417835525E-03 +2.29537395105E-03 +3.14195010504E-03 +9.49363728756E-02 +8.00338261740E-01
1.46500000000E+09 +2.66171590935E-01 +7.20777879078E-01 +3.04070362192E-03 +3.60456954711E-03 +3.00091782476E-03 +3.13560256391E-03 +1.31535812230E-01 +7.73667545463E-01
1.47000000000E+09 +2.97779878972E-01 +6.85628431860E-01 +4.36107189239E-03 +3.65272326177E-03 +4.03983771402E-03 +3.27989561352E-03 +1.69095988994E-01 +7.39850938622E-01
1.47500000000E+09 +3.28746471059E-01 +6.44654111179E-01 +5.75100528147E-03 +2.83868310308E-03 +5.40646983462E-03 +2.89769984370E-03 +2.06185965943E-01 +6.98483150888E-01
1.48000000000E+09 +3.57510537336E-01 +5.97345000073E-01 +6.61012570220E-03 +1.86872453356E-03 +6.69547710837E-03 +2.03459193503E-03 +2.42533753235E-01 +6.48909860534E-01
1.48500000000E+09 +3.81162681335E-01 +5.43597275075E-01 +7.59591796547E-03 +8.70892466611E-04 +7.78308662154E-03 +7.39632466923E-04 +2.76577395421E-01 +5.90254842454E-01
1.49000000000E+09 +3.98780582036E-01 +4.83472646860E-01 +8.89836978738E-03 -4.45036434798E-04 +8.84205260341E-03 -8.89384241161E-04 +3.05741889935E-01 +5.20677816475E-01
1.49500000000E+09 +4.08821487614E-01 +4.16346191120E-01 +9.86649698006E-03 -2.66120565230E-03 +9.27092663275E-03 -2.97432602657E-03 +3.24276643470E-01 +4.38802931515E-01
1.50000000000E+09 +4.09036097215E-01 +3.40789135722E-01 +1.07673116404E-02 -5.25117971009E-03 +1.00635358704E-02 -4.98303258494E-03 +3.27659118284E-01 +3.49754128090E-01
1.50500000000E+09 +3.97049239684E-01 +2.58300645244E-01 +1.04071133815E-02 -9.71943985802E-03 +1.02012750889E-02 -8.94117049476E-03 +3.16028516729E-01 +2.53886474319E-01
1.51000000000E+09 +3.69558081755E-01 +1.69447928591E-01 +7.86579252513E-03 -1.38953668035E-02 +8.28851978551E-03 -1.33722633995E-02 +2.84762496158E-01 +1.53371615380E-01
1.51500000000E+09 +3.23498260503E-01 +7.99686540352E-02 +3.19285062120E-03 -1.66935116290E-02 +3.69664999969E-03 -1.67114818278E-02 +2.29151507712E-01 +5.51446728671E-02
1.52000000000E+09 +2.57536006906E-01 -4.53443891743E-03 -2.22840646098E-03 -1.77441835267E-02 -1.99576911807E-03 -1.79768598799E-02 +1.51975257153E-01 -3.11722791913E-02
1.52500000000E+09 +1.72205770677E-01 -7.56505992861E-02 -7.47647492397E-03 -1.59208227268E-02 -7.41815017859E-03 -1.61238780225E-02 +5.59360542594E-02 -9.93186119558E-02
1.53000000000E+09 +7.31359103573E-02 -1.25712882789E-01 -1.10441503119E-02 -1.36042496144E-02 -1.10944761960E-02 -1.37572386443E-02 -5.19590753985E-02 -1.43969455124E-01
1.53500000000E+09 -3.28644321529E-02 -1.51900629653E-01 -1.47314987195E-02 -1.03279657179E-02 -1.47881013141E-02 -1.03377867532E-02 -1.64759322762E-01 -1.62686467864E-01
1.54000000000E+09 -1.40113756794E-01 -1.54733578807E-01 -1.72371735388E-02 -5.76713181845E-03 -1.70502935185E-02 -5.73750522684E-03 -2.73753481887E-01 -1.58113156940E-01
1.54500000000E+09 -2.44213752042E-01 -1.34903782479E-01 -1.75279134378E-02 +1.64767403729E-05 -1.73913832670E-02 -3.02608415869E-04 -3.71545377009E-01 -1.32428697453E-01
1.55000000000E+09 -3.39573795731E-01 -9.42193308057E-02 -1.57549510807E-02 +4.40728618992E-03 -1.59052239476E-02 +3.90764331264E-03 -4.55713377761E-01 -9.46074532875E-02
1.55500000000E+09 -4.19051567133E-01 -3.77094690167E-02 -1.34047664955E-02 +8.02892393021E-03 -1.40088359528E-02 +7.65588279204E-03 -5.25589771057E-01 -4.70167566181E-02
1.56000000000E+09 -4.80417538092E-01 +2.35217595640E-02 -9.65720198319E-03 +1.07158395052E-02 -1.04355570071E-02 +1.08556989466E-02 -5.82180428765E-01 +5.91913383522E-03
1.56500000000E+09 -5.28111684269E-01 +8.35273675118E-02 -5.36549403130E-03 +1.12466460638E-02 -5.86772225123E-03 +1.18581726927E-02 -6.25645320174E-01 +6.09052169015E-02
1.57000000000E+09 -5.66555664697E-01 +1.41494062154E-01 -2.52309807158E-03 +1.00826758697E-02 -2.63498449254E-03 +1.07513440672E-02 -6.59183933474E-01 +1.15897324106E-01
