# Hz S RI R 50
! CMT, C1220, 16058040, 17.2.0/1
! Date: 14/08/2018 11:58:31
! Data: Format (Calibration Info)
! Freq                      S11: Re/Im (F2)                       S21: Re/Im (F2)                       S12: Re/Im (F2)                       S22: Re/Im (F2)            
1.00000000000E+09 -6.44631125562E-01 +7.12393005529E-01 +1.63239498869E-05 +1.70127081246E-05 -1.65587806284E-06 -1.84315793908E-05 -7.50004523739E-01 +6.26870826575E-01
1.00500000000E+09 -6.37531566952E-01 +7.17365462806E-01 +5.32726377164E-07 +1.53300969514E-05 -9.30889627442E-07 -4.28761010335E-06 -7.46508950703E-01 +6.31055236417E-01
1.01000000000E+09 -6.31669888876E-01 +7.21860603758E-01 -3.81946697789E-05 -9.21934657944E-06 -2.86110767387E-05 -6.38194356239E-06 -7.42781585215E-01 +6.34728604572E-01
1.01500000000E+09 -6.27198687854E-01 +7.25586904321E-01 -4.81444081482E-06 -2.63012333543E-06 -5.42956730495E-05 -1.45553859491E-05 -7.39465542699E-01 +6.38489357597E-01
1.02000000000E+09 -6.24025889452E-01 +7.28627764984E-01 -4.88080288439E-05 +4.51785024880E-08 -3.04093411456E-05 +5.00526022742E-05 -7.35948502953E-01 +6.42008953789E-01
1.02500000000E+09 -6.22049293678E-01 +7.31159058862E-01 -3.95823170841E-05 +2.18940812123E-05 -4.32641075293E-05 +5.07645419760E-05 -7.32949943748E-01 +6.45781640331E-01
1.03000000000E+09 -6.20346461001E-01 +7.33638045530E-01 -3.07687609945E-05 +1.56220775836E-05 -4.47486879016E-05 +4.22209967556E-05 -7.29423008045E-01 +6.49629053972E-01
1.03500000000E+09 -6.17990181692E-01 +7.35864820739E-01 +1.87287358292E-05 +2.60476258352E-05 -4.04830063164E-05 -7.95714648886E-06 -7.25803450688E-01 +6.53492723973E-01
1.04000000000E+09 -6.14490015595E-01 +7.38871040128E-01 -1.79074065264E-05 +4.84205093610E-05 -8.87068212353E-05 +1.68847901004E-05 -7.21787425982E-01 +6.57204633009E-01
1.04500000000E+09 -6.09424376476E-01 +7.42315101579E-01 -1.28296749757E-05 -2.00744751803E-05 -8.28157540828E-05 +6.13754418150E-05 -7.18403018110E-01 +6.60582428879E-01
1.05000000000E+09 -6.02698594555E-01 +7.46508217042E-01 -3.40392126021E-05 +2.76898917351E-05 -2.44219595765E-05 +1.25193241992E-05 -7.15008763637E-01 +6.64146329217E-01
1.05500000000E+09 -5.94833012795E-01 +7.50856369951E-01 +1.95740271520E-05 +2.40634882515E-05 -3.61557170045E-05 +3.22146738358E-05 -7.11646280346E-01 +6.67714060069E-01
1.06000000000E+09 -5.86207802449E-01 +7.55853079599E-01 +3.84588955426E-05 +3.68034720086E-05 -1.24397531324E-05 +3.28487001087E-05 -7.08446872571E-01 +6.71404271894E-01
1.06500000000E+09 -5.78224451189E-01 +7.60625884784E-01 -1.31129115104E-05 +1.76302561874E-05 -3.78097241317E-06 +7.18858412492E-05 -7.04570973820E-01 +6.75122719928E-01
1.07000000000E+09 -5.71145447715E-01 +7.64724789394E-01 -2.87855919005E-05 +5.71738624842E-05 +1.64561089500E-05 +2.09416486054E-05 -7.00667786456E-01 +6.78773891072E-01
1.07500000000E+09 -5.65779791913E-01 +7.68482184580E-01 -1.76987910968E-05 +4.77923140346E-05 -1.64089161566E-05 +6.67144553715E-05 -6.96364242062E-01 +6.82407990631E-01
1.08000000000E+09 -5.62139625888E-01 +7.71704699619E-01 +3.28212886218E-05 +1.02458603347E-04 -2.62492898388E-06 +5.61505082784E-05 -6.92386966075E-01 +6.86347904363E-01
1.08500000000E+09 -5.59592079120E-01 +7.74126549636E-01 -4.45217176880E-05 +2.56647026257E-05 +3.50468174764E-06 +1.00020198622E-04 -6.88309234440E-01 +6.89975746783E-01
1.09000000000E+09 -5.57554050491E-01 +7.76216016012E-01 +2.01836444263E-05 +7.12923092243E-05 +2.25025404400E-05 +5.85807845127E-05 -6.84323186525E-01 +6.93781756786E-01
1.09500000000E+09 -5.55722656215E-01 +7.78168648513E-01 +2.62623199957E-05 +4.32460263863E-05 +3.63191826624E-05 +2.95992809103E-05 -6.80607673671E-01 +6.97620563355E-01
1.10000000000E+09 -5.52439018999E-01 +7.80335563844E-01 +1.47735950169E-06 +3.96104860416E-06 +5.18656129618E-06 +5.56842320287E-05 -6.76577196815E-01 +7.01470092527E-01
1.10500000000E+09 -5.47970961621E-01 +7.82967999923E-01 +4.12550049632E-05 +5.34489585114E-05 -2.96011757792E-06 +9.39399464551E-05 -6.72370185980E-01 +7.05103636042E-01
1.11000000000E+09 -5.41968646447E-01 +7.86271407359E-01 +4.31211150067E-06 +9.57925234420E-05 +7.33724720105E-06 +6.57816682548E-05 -6.68039047312E-01 +7.08343303961E-01
1.11500000000E+09 -5.34389677943E-01 +7.90143981053E-01 +6.27275976961E-05 +5.42177858449E-05 +3.45852474792E-05 +5.83515248572E-05 -6.64013073095E-01 +7.11844159160E-01
1.12000000000E+09 -5.26333727839E-01 +7.93933906379E-01 +6.06152473387E-05 +6.55691190576E-05 +5.56764360883E-05 +4.27337779162E-05 -6.59815039694E-01 +7.15375713070E-01
1.12500000000E+09 -5.18411876008E-01 +7.97919016505E-01 +4.80763345392E-07 +4.56817709242E-05 +1.16493975241E-04 +3.95691470622E-05 -6.55419675351E-01 +7.19437018029E-01
1.13000000000E+09 -5.11402767754E-01 +8.01491080789E-01 +1.81854937120E-05 +4.66368323838E-05 -1.44668601671E-06 +8.84560186742E-05 -6.51140786553E-01 +7.23238892913E-01
1.13500000000E+09 -5.05380017622E-01 +8.04397133717E-01 +9.12637166741E-05 +4.42081738321E-05 +5.56592289094E-05 +5.02695853400E-05 -6.46784478800E-01 +7.26966008541E-01
1.14000000000E+09 -5.00694204409E-01 +8.07181535369E-01 +3.90052706815E-05 +3.44368438155E-05 +5.67318580749E-05 +1.04142215082E-04 -6.41992593117E-01 +7.30361958048E-01
1.14500000000E+09 -4.96970459824E-01 +8.09162353966E-01 +5.44013187248E-05 +4.72342754533E-05 +9.20417470237E-05 +4.12920542424E-05 -6.37308450187E-01 +7.33737693557E-01
1.15000000000E+09 -4.93301724353E-01 +8.11147307860E-01 +8.66983487325E-05 +7.16976614746E-05 +1.01800738901E-04 +1.10573278024E-04 -6.32640751525E-01 +7.37513855266E-01
1.15500000000E+09 -4.89847575657E-01 +8.13087863844E-01 +9.28990668497E-05 +6.56157405648E-05 +1.41485241462E-04 +6.99492303365E-05 -6.27702988888E-01 +7.41417823336E-01
1.16000000000E+09 -4.85128354873E-01 +8.15147485019E-01 +8.81986686361E-05 +4.71715921876E-05 +7.25892686828E-05 +3.13086969790E-05 -6.23026512612E-01 +7.45213343212E-01
1.16500000000E+09 -4.79089942231E-01 +8.17987780975E-01 +1.04290984148E-04 +5.73429103994E-05 +7.26942860379E-05 +1.28513404514E-07 -6.17801786589E-01 +7.48840801821E-01
1.17000000000E+09 -4.71844645092E-01 +8.21047035623E-01 +1.31023197935E-04 +5.20612218983E-05 +1.28855225360E-04 +3.39851893002E-05 -6.12318423056E-01 +7.52171516770E-01
1.17500000000E+09 -4.63605013018E-01 +8.24445344345E-01 +1.46339590136E-04 +1.88959507157E-05 +1.60516636242E-04 -5.02950209868E-06 -6.06647595567E-01 +7.55310149645E-01
1.18000000000E+09 -4.55137572302E-01 +8.27891711120E-01 +1.61861128322E-04 -7.98329421570E-06 +1.30620497373E-04 +6.56762970178E-05 -6.01095831326E-01 +7.58349849712E-01
1.18500000000E+09 -4.46965598314E-01 +8.31152471769E-01 +1.29668590567E-04 -2.14739050167E-05 +2.16147222726E-04 -1.71111475366E-05 -5.95187072078E-01 +7.61532051511E-01
1.19000000000E+09 -4.39618738413E-01 +8.33632543577E-01 +1.87404054695E-04 +1.22734384634E-05 +1.87290151363E-04 +1.23801751608E-05 -5.88895437800E-01 +7.64200147772E-01
1.19500000000E+09 -4.33758772516E-01 +8.35801070107E-01 +2.39427246372E-04 -3.86839175734E-05 +2.39923888406E-04 -3.42997587777E-05 -5.83019349675E-01 +7.65338301477E-01
1.20000000000E+09 -4.28998039708E-01 +8.36808241874E-01 +2.36503823761E-04 -9.82913596217E-05 +1.82029482922E-04 -1.30736777856E-04 -5.78373945531E-01 +7.65604301524E-01
1.20500000000E+09 -4.25124768601E-01 +8.38245186812E-01 +2.29594397022E-04 -1.98063490018E-04 +1.97231960581E-04 -1.83307457777E-04 -5.75978558041E-01 +7.66292847236E-01
1.21000000000E+09 -4.21124252586E-01 +8.39636750917E-01 +1.60932017067E-04 -2.02293569574E-04 +1.29436765874E-04 -2.23376794860E-04 -5.74144086010E-01 +7.69363977185E-01
1.21500000000E+09 -4.16033887369E-01 +8.41357444351E-01 +1.06623979154E-04 -1.67583961469E-04 +9.69284461596E-05 -1.63582962370E-04 -5.71512681546E-01 +7.73645480107E-01
1.22000000000E+09 -4.09537384031E-01 +8.43427132486E-01 +1.29410219927E-04 -1.44502846003E-04 +1.22951225710E-04 -1.42897720136E-04 -5.67205584200E-01 +7.78970468809E-01
1.22500000000E+09 -4.01236474829E-01 +8.46148037421E-01 +1.10892757367E-04 -1.39874040391E-04 +1.33620194246E-04 -1.70201770862E-04 -5.62162523600E-01 +7.84039449625E-01
1.23000000000E+09 -3.91789691382E-01 +8.49320077425E-01 +1.38807657280E-04 -2.17205401250E-04 +1.01357452723E-04 -1.90454543110E-04 -5.56406319661E-01 +7.88770291567E-01
1.23500000000E+09 -3.81668014536E-01 +8.52742359338E-01 +8.20166405892E-05 -2.37551335716E-04 +1.43451105214E-04 -2.54718035071E-04 -5.50661303605E-01 +7.93146525178E-01
1.24000000000E+09 -3.71347283907E-01 +8.56440696411E-01 +7.29128006136E-05 -2.28858060239E-04 +9.92179610006E-05 -2.44703856061E-04 -5.44623414288E-01 +7.97030865007E-01
1.24500000000E+09 -3.62166603815E-01 +8.60191222845E-01 +5.27184202933E-05 -2.44327465170E-04 +8.20957840710E-05 -2.64309365161E-04 -5.38344735977E-01 +8.00763810719E-01
1.25000000000E+09 -3.54039936261E-01 +8.63397719336E-01 +7.21195661807E-06 -2.76573832875E-04 +3.02681517093E-05 -2.82181800763E-04 -5.31701574463E-01 +8.04968927413E-01
1.25500000000E+09 -3.47323000494E-01 +8.65850057968E-01 +9.33787374325E-06 -2.83208397811E-04 +4.00391993099E-05 -3.12229529254E-04 -5.24744952172E-01 +8.09067539956E-01
1.26000000000E+09 -3.41551989129E-01 +8.67847502703E-01 -7.51932869510E-05 -2.63910726829E-04 -4.98967611390E-06 -2.87777805550E-04 -5.17990057924E-01 +8.13338708135E-01
1.26500000000E+09 -3.36525381079E-01 +8.69262339815E-01 -2.04243302726E-05 -3.13796375132E-04 -1.03234468603E-05 -3.51373680626E-04 -5.11043400958E-01 +8.17136414086E-01
1.27000000000E+09 -3.31213033112E-01 +8.70598586306E-01 -9.54367190881E-05 -3.38115981763E-04 -1.20990844825E-04 -3.15504395006E-04 -5.04264655822E-01 +8.21027095435E-01
1.27500000000E+09 -3.24700421899E-01 +8.71868037852E-01 -1.51718080948E-04 -3.63566260012E-04 -1.25659513039E-04 -3.59069208093E-04 -4.97197229559E-01 +8.24522711323E-01
1.28000000000E+09 -3.16468699918E-01 +8.73650779926E-01 -1.93212686060E-04 -2.88448731995E-04 -2.25309776392E-04 -3.51591114220E-04 -4.90198244212E-01 +8.27972129350E-01
1.28500000000E+09 -3.05941449464E-01 +8.75620020201E-01 -1.75905140778E-04 -3.06138344310E-04 -2.72504548177E-04 -3.58634555520E-04 -4.82898676107E-01 +8.31743267488E-01
1.29000000000E+09 -2.94389412370E-01 +8.77893723047E-01 -2.39153903609E-04 -2.61441237654E-04 -3.04558769822E-04 -3.30096473726E-04 -4.75309349144E-01 +8.35393130176E-01
1.29500000000E+09 -2.81971192794E-01 +8.80798347975E-01 -2.60885195876E-04 -3.00874060235E-04 -3.14275734462E-04 -3.03127462917E-04 -4.67449001433E-01 +8.38715721892E-01
1.30000000000E+09 -2.69757621450E-01 +8.83784973778E-01 -2.91474122332E-04 -3.19921467446E-04 -3.18739513019E-04 -2.79356976968E-04 -4.59476862900E-01 +8.42426628014E-01
1.30500000000E+09 -2.58597515656E-01 +8.86813696811E-01 -3.52204705971E-04 -2.65232957407E-04 -3.97088645262E-04 -2.48022921709E-04 -4.51251876016E-01 +8.45886821147E-01
1.31000000000E+09 -2.48958601637E-01 +8.89107080731E-01 -4.49783131963E-04 -2.10668300087E-04 -3.48395956175E-04 -2.32888978298E-04 -4.43104342240E-01 +8.49351216999E-01
1.31500000000E+09 -2.41208891303E-01 +8.91217791103E-01 -4.26240960070E-04 -1.56268856180E-04 -4.33883048403E-04 -2.29914425076E-04 -4.34207794362E-01 +8.52634733659E-01
1.32000000000E+09 -2.34686606727E-01 +8.92450996496E-01 -4.66627634829E-04 -1.40770263733E-04 -4.49341947226E-04 -1.31110099713E-04 -4.25108076770E-01 +8.56133390542E-01
1.32500000000E+09 -2.28894811228E-01 +8.92885356702E-01 -4.24172062276E-04 -9.08097734768E-05 -4.82941539281E-04 -7.86690686343E-05 -4.15354708316E-01 +8.59325344836E-01
1.33000000000E+09 -2.22399826199E-01 +8.93367064131E-01 -4.72301677289E-04 -9.95041667495E-05 -4.76733838803E-04 -8.82209342632E-05 -4.05687640990E-01 +8.62766571991E-01
1.33500000000E+09 -2.14224426523E-01 +8.93147955679E-01 -5.35531046025E-04 -1.22146685578E-04 -5.30879822156E-04 -5.53843332501E-05 -3.95701365977E-01 +8.66075202635E-01
1.34000000000E+09 -2.03575068844E-01 +8.93182351994E-01 -5.96213921798E-04 -4.54308964236E-05 -5.01419058727E-04 -5.30124786862E-05 -3.85585899216E-01 +8.69366927609E-01
1.34500000000E+09 -1.90290198567E-01 +8.93032689377E-01 -6.23461822394E-04 -1.18197629600E-05 -6.05499136710E-04 +9.05686363133E-06 -3.74459289505E-01 +8.72549922329E-01
1.35000000000E+09 -1.74761630114E-01 +8.92904658114E-01 -7.18244242292E-04 +3.08894970108E-05 -6.63233207921E-04 +5.59228335250E-05 -3.63250675582E-01 +8.75598520817E-01
1.35500000000E+09 -1.58282977847E-01 +8.92851352473E-01 -6.95326225088E-04 +1.68441521468E-04 -7.14851420290E-04 +1.55950979904E-04 -3.51603378652E-01 +8.78305803114E-01
1.36000000000E+09 -1.41659278482E-01 +8.93169645143E-01 -7.18932476185E-04 +2.48808500764E-04 -6.60520130053E-04 +2.32720519400E-04 -3.39720347217E-01 +8.81018096068E-01
1.36500000000E+09 -1.25619209180E-01 +8.93554876456E-01 -7.53091331474E-04 +2.63747784450E-04 -6.77382693435E-04 +2.07202548863E-04 -3.27440754842E-01 +8.83392552207E-01
1.37000000000E+09 -1.11093777034E-01 +8.93609818646E-01 -7.98503793238E-04 +3.75651375461E-04 -7.13862938965E-04 +2.67636616914E-04 -3.14580780972E-01 +8.85789095390E-01
1.37500000000E+09 -9.86092841356E-02 +8.93655579635E-01 -7.86344011659E-04 +4.18669132669E-04 -8.05194583507E-04 +2.83696736368E-04 -3.00742765485E-01 +8.87982525755E-01
1.38000000000E+09 -8.74506820969E-02 +8.93046503715E-01 -8.47599294000E-04 +5.37372166000E-04 -9.17377137532E-04 +4.82043173462E-04 -2.86137155727E-01 +8.89761771633E-01
1.38500000000E+09 -7.64742016237E-02 +8.92087356375E-01 -8.03850491950E-04 +7.67184825729E-04 -9.49423613998E-04 +7.39735474245E-04 -2.70920858212E-01 +8.91484086596E-01
1.39000000000E+09 -6.49418643585E-02 +8.90305695886E-01 -7.54166597927E-04 +8.85339549788E-04 -8.49537486565E-04 +1.01068775596E-03 -2.54830851035E-01 +8.92793510366E-01
1.39500000000E+09 -5.13281243749E-02 +8.87713158993E-01 -7.25025857068E-04 +9.94101305691E-04 -7.15458532994E-04 +1.14516533364E-03 -2.38154880201E-01 +8.93465995312E-01
1.40000000000E+09 -3.52223190054E-02 +8.84172653933E-01 -7.10771113308E-04 +1.12904861483E-03 -5.36312678233E-04 +1.24604712600E-03 -2.20618089702E-01 +8.93857291367E-01
1.40500000000E+09 -1.66720022423E-02 +8.79391355935E-01 -5.72279042646E-04 +1.24233480748E-03 -4.67476130608E-04 +1.26472683018E-03 -2.01999122579E-01 +8.93561843273E-01
1.41000000000E+09 +4.07079027833E-03 +8.73987109201E-01 -5.22574701984E-04 +1.35379869455E-03 -5.36528453610E-04 +1.32824563756E-03 -1.82039779035E-01 +8.92651532714E-01
1.41500000000E+09 +2.59759425819E-02 +8.67751281833E-01 -4.24926675942E-04 +1.51461174189E-03 -4.94101366716E-04 +1.54090327934E-03 -1.60705476405E-01 +8.91148547247E-01
1.42000000000E+09 +4.88842560544E-02 +8.61170951397E-01 -3.33596129678E-04 +1.64255286058E-03 -3.94773124626E-04 +1.79428967659E-03 -1.37829194665E-01 +8.88550064684E-01
1.42500000000E+09 +7.13867260126E-02 +8.53631591351E-01 -2.36490662620E-04 +1.90075206134E-03 -2.03675390432E-04 +2.16239525232E-03 -1.14245045131E-01 +8.84733642068E-01
1.43000000000E+09 +9.30470398172E-02 +8.45327894943E-01 +5.20568940031E-06 +2.24118779573E-03 +2.40093731032E-04 +2.43499838354E-03 -8.94404286708E-02 +8.79957788514E-01
1.43500000000E+09 +1.13999017837E-01 +8.35788826666E-01 +4.69798168346E-04 +2.40584122435E-03 +7.05060530656E-04 +2.40746048902E-03 -6.32603633504E-02 +8.73116186447E-01
1.44000000000E+09 +1.34980062920E-01 +8.25047084720E-01 +7.74162250563E-04 +2.40251184175E-03 +1.00023472392E-03 +2.42577924580E-03 -3.53946316321E-02 +8.64543592877E-01
1.44500000000E+09 +1.57324357070E-01 +8.11766092584E-01 +1.13876624299E-03 +2.38588214187E-03 +1.28519593281E-03 +2.37782763172E-03 -5.32694592440E-03 +8.53202550089E-01
1.45000000000E+09 +1.81543411388E-01 +7.94931297752E-01 +1.17844631613E-03 +2.46027512739E-03 +1.39130939353E-03 +2.44694895803E-03 +2.65436629492E-02 +8.38238489257E-01
1.45500000000E+09 +2.07568978333E-01 +7.73904380463E-01 +1.50438090738E-03 +2.94902028772E-03 +1.73308365931E-03 +2.83869644191E-03 +5.89592166963E-02 +8.20035101768E-01
1.46000000000E+09 +2.35599654301E-01 +7.48544626679E-01 +2.29308028443E-03 +3.41201089931E-03 +2.55208628948E-03 +3.03239700266E-03 +9.33097337224E-02 +7.98908939889E-01
1.46500000000E+09 +2.65781510129E-01 +7.18864766503E-01 +3.34379180579E-03 +3.49522713235E-03 +3.27989096298E-03 +2.97656856777E-03 +1.29529972684E-01 +7.72142672472E-01
1.47000000000E+09 +2.97152810118E-01 +6.83531422783E-01 +4.72695158446E-03 +3.32922428054E-03 +4.40610528196E-03 +2.98557520727E-03 +1.66241087362E-01 +7.38570344593E-01
1.47500000000E+09 +3.27877542747E-01 +6.42615007785E-01 +5.94826921312E-03 +2.42635340855E-03 +5.56442229436E-03 +2.51136152023E-03 +2.02633551434E-01 +6.97790599597E-01
1.48000000000E+09 +3.56549534705E-01 +5.95077812989E-01 +6.61581477229E-03 +1.46649027543E-03 +6.67922395567E-03 +1.62579771722E-03 +2.38320896284E-01 +6.48871259985E-01
1.48500000000E+09 +3.79852857332E-01 +5.41089403615E-01 +7.55822174861E-03 +6.86019320795E-04 +7.75277771035E-03 +5.48954846892E-04 +2.71810046841E-01 +5.91473043193E-01
1.49000000000E+09 +3.97021214985E-01 +4.80808429874E-01 +9.20754869285E-03 -6.87211633640E-04 +9.10619094717E-03 -1.14256015266E-03 +3.00757415972E-01 +5.22856147991E-01
1.49500000000E+09 +4.06489520091E-01 +4.13758564199E-01 +1.01616905213E-02 -3.25477165354E-03 +9.52852945123E-03 -3.50470181025E-03 +3.19162061865E-01 +4.43050912584E-01
1.50000000000E+09 +4.06357286480E-01 +3.38275369117E-01 +1.08464949529E-02 -6.15886258699E-03 +1.01317398200E-02 -5.81382055861E-03 +3.23742598903E-01 +3.55841323211E-01
1.50500000000E+09 +3.93650376159E-01 +2.55942716213E-01 +1.01638715247E-02 -1.06494964715E-02 +1.00748370437E-02 -9.83683289816E-03 +3.13613137961E-01 +2.61674903243E-01
1.51000000000E+09 +3.65525625240E-01 +1.67714013443E-01 +7.11514124274E-03 -1.49367332247E-02 +7.57110759782E-03 -1.44128554349E-02 +2.84825245250E-01 +1.62558057490E-01
1.51500000000E+09 +3.19154923745E-01 +7.91152887407E-02 +2.01176695068E-03 -1.73051144060E-02 +2.50223434714E-03 -1.73780045985E-02 +2.33011653275E-01 +6.43046620571E-02
1.52000000000E+09 +2.52954304227E-01 -4.58868813644E-03 -3.46647913520E-03 -1.79535728640E-02 -3.18490792291E-03 -1.81634390928E-02 +1.58377696430E-01 -2.39179177532E-02
1.52500000000E+09 +1.67830983502E-01 -7.46078254663E-02 -8.68603268474E-03 -1.56971560320E-02 -8.60378912111E-03 -1.58798406947E-02 +6.44782124411E-02 -9.40353369273E-02
1.53000000000E+09 +6.89587799524E-02 -1.23689341062E-01 -1.20247960755E-02 -1.31309433535E-02 -1.20040017077E-02 -1.32939612496E-02 -4.22442788414E-02 -1.42094471288E-01
1.53500000000E+09 -3.63077757645E-02 -1.48904277401E-01 -1.58384934286E-02 -9.88697087078E-03 -1.58777597076E-02 -9.94662130793E-03 -1.55195329096E-01 -1.63728534141E-01
1.54000000000E+09 -1.42678362141E-01 -1.51166813964E-01 -1.83457613103E-02 -4.52914026496E-03 -1.81331417679E-02 -4.56750546368E-03 -2.65271894830E-01 -1.61723175996E-01
1.54500000000E+09 -2.45568555871E-01 -1.31071785265E-01 -1.79931571552E-02 +1.80818150128E-03 -1.78599407795E-02 +1.38711483162E-03 -3.65079836713E-01 -1.38524115069E-01
1.55000000000E+09 -3.39698622158E-01 -9.09999153788E-02 -1.52098154234E-02 +6.13273295823E-03 -1.54696234238E-02 +5.55187644516E-03 -4.51947348357E-01 -1.01479070543E-01
1.55500000000E+09 -4.18682357608E-01 -3.52913168706E-02 -1.22390282344E-02 +9.04912555673E-03 -1.29534192148E-02 +8.68142871200E-03 -5.23776194953E-01 -5.36941152855E-02
1.56000000000E+09 -4.79951243435E-01 +2.55544780969E-02 -8.55522760005E-03 +1.09469279296E-02 -9.39893185036E-03 +1.11963867778E-02 -5.81943312305E-01 -2.92053567764E-05
1.56500000000E+09 -5.27150842636E-01 +8.53180710115E-02 -4.76721448982E-03 +1.13394722640E-02 -5.25439049235E-03 +1.19333856143E-02 -6.26628667595E-01 +5.57702616440E-02
1.57000000000E+09 -5.65167793321E-01 +1.42592572818E-01 -1.89198291358E-03 +1.02474509792E-02 -1.95386398033E-03 +1.09554853791E-02 -6.60545266506E-01 +1.11471574401E-01
