# Hz S RI R 50
! CMT, C1220, 16058040, 17.2.0/1
! Date: 14/08/2018 11:55:39
! Data: Format (Calibration Info)
! Freq                      S11: Re/Im (F2)                       S21: Re/Im (F2)                       S12: Re/Im (F2)                       S22: Re/Im (F2)            
1.00000000000E+09 -6.43537013131E-01 +7.10989963648E-01 -5.52571926557E-06 -1.33020794288E-05 +4.70458160305E-06 -6.51850612422E-06 -7.49973880047E-01 +6.27091724630E-01
1.00500000000E+09 -6.36499797604E-01 +7.15855339264E-01 -1.72675476581E-05 +2.85536943917E-05 -3.30404481582E-05 +1.89578153532E-05 -7.46297785497E-01 +6.31104685020E-01
1.01000000000E+09 -6.30485709922E-01 +7.20369898967E-01 -1.13222883854E-05 -1.46225154590E-05 -5.98557674316E-05 -3.41553062315E-05 -7.42787555969E-01 +6.34732174949E-01
1.01500000000E+09 -6.26161024462E-01 +7.24060031823E-01 -4.36763487051E-05 -1.73282133466E-05 +2.17130475640E-05 -1.13806706449E-05 -7.39365884998E-01 +6.38457435506E-01
1.02000000000E+09 -6.22947101775E-01 +7.27189942665E-01 -1.43670146989E-05 -2.20463800125E-05 -1.19882140664E-05 +4.62170784257E-05 -7.35883463586E-01 +6.42182719677E-01
1.02500000000E+09 -6.20932233606E-01 +7.29755639166E-01 -4.14492965997E-05 +3.26693527193E-05 -4.87114477302E-07 +3.97486757090E-05 -7.32808713359E-01 +6.45848624709E-01
1.03000000000E+09 -6.19369488189E-01 +7.32214673167E-01 -3.34707451412E-05 -1.11351441064E-05 -4.00762665503E-05 -3.04234244342E-06 -7.29267538649E-01 +6.49639023746E-01
1.03500000000E+09 -6.17073003603E-01 +7.34628252156E-01 -7.65889009687E-05 +2.40448395941E-05 -4.44308027103E-05 +2.32398322560E-05 -7.25684893201E-01 +6.53584881917E-01
1.04000000000E+09 -6.13665952865E-01 +7.37494308699E-01 -5.04300783360E-05 +2.04128940106E-05 -6.23756943642E-05 +6.45121814205E-07 -7.21982149665E-01 +6.57115034696E-01
1.04500000000E+09 -6.08582385878E-01 +7.40852168250E-01 -3.61756187416E-05 +4.33787855159E-05 -4.44932944625E-05 +4.70648039398E-05 -7.18351856230E-01 +6.60703652928E-01
1.05000000000E+09 -6.01737162048E-01 +7.44922548554E-01 -7.54456981152E-05 +6.58031787973E-05 -1.09090390136E-05 -2.41424697871E-06 -7.14871251426E-01 +6.64102215648E-01
1.05500000000E+09 -5.93882176546E-01 +7.49545090915E-01 -3.06217650065E-05 +4.39909129506E-05 -6.97149606451E-05 +3.36334570780E-05 -7.11647897681E-01 +6.67713419635E-01
1.06000000000E+09 -5.85450072827E-01 +7.54288636109E-01 -4.53070776066E-05 +3.56740993744E-05 -2.14608083279E-05 +4.47689837127E-05 -7.08312707459E-01 +6.71514010291E-01
1.06500000000E+09 -5.77230420271E-01 +7.59303829858E-01 -5.04453561165E-05 +7.92119161744E-05 -2.15698377145E-05 +4.06523095582E-05 -7.04603578701E-01 +6.75265653955E-01
1.07000000000E+09 -5.70223156720E-01 +7.63436193243E-01 -2.74437773650E-05 +3.88470873515E-05 -1.25222654848E-05 +4.38977167624E-05 -7.00578429744E-01 +6.78863742356E-01
1.07500000000E+09 -5.65073636949E-01 +7.67133008808E-01 -1.20928940896E-06 +4.80436673999E-05 -4.89768984438E-05 +5.29264108235E-05 -6.96102964729E-01 +6.82574790983E-01
1.08000000000E+09 -5.61226144274E-01 +7.70276268570E-01 +7.33118466447E-06 +6.50052579270E-05 +6.37261576930E-06 +5.85442974273E-05 -6.92190438257E-01 +6.86415591926E-01
1.08500000000E+09 -5.58792882966E-01 +7.72703100663E-01 +2.84833669343E-05 +6.35101374027E-05 -1.20554436883E-05 +4.12692097059E-05 -6.88231943287E-01 +6.90130181994E-01
1.09000000000E+09 -5.56837699364E-01 +7.74953535072E-01 -1.00870611918E-06 +2.02998216851E-06 -9.35477346371E-07 +6.49647468707E-05 -6.84438367807E-01 +6.93974692707E-01
1.09500000000E+09 -5.55109880495E-01 +7.76844890887E-01 +1.64451819331E-06 +2.44875804576E-05 +2.05790245822E-05 +7.73235598439E-05 -6.80516095273E-01 +6.97748107185E-01
1.10000000000E+09 -5.51873436352E-01 +7.78885831393E-01 +7.15476624008E-07 +1.06003727369E-04 +4.60763875911E-06 +6.11518667095E-05 -6.76466309320E-01 +7.01699385054E-01
1.10500000000E+09 -5.47499084412E-01 +7.81740298455E-01 +1.54191477167E-05 +4.94008377370E-05 +4.33408315748E-05 +9.53326390199E-05 -6.72236731337E-01 +7.05074383192E-01
1.11000000000E+09 -5.41344515060E-01 +7.85024456040E-01 +3.35229361618E-06 +6.41680958967E-05 +2.36638588746E-05 +7.77049698482E-05 -6.68069987052E-01 +7.08547712505E-01
1.11500000000E+09 -5.34001460107E-01 +7.88791666181E-01 +5.24586077661E-05 +4.54556464990E-05 -2.63413070768E-05 +6.80250648310E-05 -6.63941433647E-01 +7.12009952920E-01
1.12000000000E+09 -5.25958645840E-01 +7.92790169256E-01 -7.80111966251E-06 +5.77104971526E-05 +5.03699927629E-05 +8.48026432322E-05 -6.59886599717E-01 +7.15739687378E-01
1.12500000000E+09 -5.17844074370E-01 +7.96690454029E-01 +6.96933225827E-05 +6.89175433588E-05 +1.68052016581E-05 +6.08190557800E-05 -6.55351805473E-01 +7.19687889760E-01
1.13000000000E+09 -5.10944571435E-01 +8.00460320902E-01 +3.08253686378E-05 +7.22073395204E-05 +6.90016386054E-05 +2.96020059808E-05 -6.51100316556E-01 +7.23275646442E-01
1.13500000000E+09 -5.04990163706E-01 +8.03404655630E-01 +8.00299154399E-05 +6.24059619718E-05 +5.37034959402E-05 +3.83570888770E-05 -6.46516984064E-01 +7.27103422568E-01
1.14000000000E+09 -5.00324525400E-01 +8.06194546857E-01 +7.03818766502E-05 +7.86028800144E-05 +1.02157619780E-04 +7.38856254809E-05 -6.41842340202E-01 +7.30471346657E-01
1.14500000000E+09 -4.96680401416E-01 +8.08155511617E-01 +9.65244016545E-05 +2.34183259487E-05 +8.53353142779E-05 +4.83270224250E-05 -6.37228628613E-01 +7.33895568421E-01
1.15000000000E+09 -4.93111066045E-01 +8.10065606188E-01 +9.67510351295E-05 +3.93457598795E-05 +7.22494060553E-05 +4.50328441791E-05 -6.32531500274E-01 +7.37634303489E-01
1.15500000000E+09 -4.89541018428E-01 +8.11922629235E-01 +7.87828126425E-05 +5.01665586223E-05 +7.20143971929E-05 +7.66117901411E-05 -6.27523398919E-01 +7.41460449643E-01
1.16000000000E+09 -4.84930983827E-01 +8.13977585072E-01 +6.81703093636E-05 +2.44902923158E-05 +8.46560329857E-05 +4.33706586358E-05 -6.22874767549E-01 +7.45270610370E-01
1.16500000000E+09 -4.78939264413E-01 +8.16818588466E-01 +1.38351683092E-04 +5.36514535081E-05 +1.32318467626E-04 +3.14336614274E-06 -6.17720785836E-01 +7.48849480608E-01
1.17000000000E+09 -4.71604587969E-01 +8.20231090601E-01 +1.18675740240E-04 -1.93731731242E-05 +1.38763154813E-04 +7.15590824272E-06 -6.12372043984E-01 +7.52179783760E-01
1.17500000000E+09 -4.63300006589E-01 +8.23432742581E-01 +9.38340530560E-05 +1.55494617303E-05 +7.96726931974E-05 +2.25845270319E-05 -6.06411252035E-01 +7.55493435197E-01
1.18000000000E+09 -4.54901524204E-01 +8.26965578233E-01 +1.02119085777E-04 +2.49358935178E-05 +1.39682358788E-04 -1.78011580631E-06 -6.00933320533E-01 +7.58508569205E-01
1.18500000000E+09 -4.46697910081E-01 +8.30236206416E-01 +1.74233164581E-04 +2.47338846153E-05 +9.70395668150E-05 +1.38347908681E-05 -5.94976413700E-01 +7.61696514553E-01
1.19000000000E+09 -4.39354229076E-01 +8.32872957162E-01 +1.69719348050E-04 +5.14325327376E-05 +1.57708893866E-04 +2.63598745709E-05 -5.88669378361E-01 +7.64141882600E-01
1.19500000000E+09 -4.33320395606E-01 +8.35104481557E-01 +1.98369379419E-04 +1.81385741319E-05 +2.19117791789E-04 +1.96070463754E-05 -5.82713350982E-01 +7.65369411239E-01
1.20000000000E+09 -4.28831406555E-01 +8.36123565538E-01 +2.15463712231E-04 -1.14216136147E-04 +2.09332330187E-04 -8.54622560400E-05 -5.78226357764E-01 +7.65591951327E-01
1.20500000000E+09 -4.25007863704E-01 +8.37461201408E-01 +2.17787033449E-04 -1.48693423127E-04 +1.86053031697E-04 -1.20816719344E-04 -5.75865084563E-01 +7.66257442489E-01
1.21000000000E+09 -4.21122988675E-01 +8.38920128125E-01 +1.20683366626E-04 -1.48853658202E-04 +1.39227469920E-04 -1.61696263869E-04 -5.74047262287E-01 +7.69338861180E-01
1.21500000000E+09 -4.16002772205E-01 +8.40685310198E-01 +8.17383992839E-05 -1.33452791444E-04 +1.03881200192E-04 -1.01831450258E-04 -5.71427441307E-01 +7.73799608519E-01
1.22000000000E+09 -4.09456519713E-01 +8.42883172486E-01 +9.11343091765E-05 -1.33389874390E-04 +1.20673624460E-04 -1.99828902021E-04 -5.67148285297E-01 +7.79048500860E-01
1.22500000000E+09 -4.01305383266E-01 +8.45537187143E-01 +1.11601736493E-04 -1.55621131162E-04 +1.22453840129E-04 -1.79633975582E-04 -5.62039196543E-01 +7.84202671915E-01
1.23000000000E+09 -3.91754353744E-01 +8.48683795365E-01 +1.03715533200E-04 -1.78783347744E-04 +1.19336789150E-04 -2.08678917517E-04 -5.56279369556E-01 +7.88821298050E-01
1.23500000000E+09 -3.81530587816E-01 +8.52288748952E-01 +8.70382835848E-05 -2.32830404207E-04 +8.00721022752E-05 -2.12565394315E-04 -5.50464035169E-01 +7.92998628828E-01
1.24000000000E+09 -3.71357592132E-01 +8.55990080288E-01 +7.26774862023E-05 -2.24004116060E-04 +6.72091345589E-05 -2.47992637626E-04 -5.44425910581E-01 +7.96972979048E-01
1.24500000000E+09 -3.62016687839E-01 +8.59739228016E-01 +9.20551788680E-05 -2.02912453983E-04 +6.87137739380E-05 -2.03332828602E-04 -5.38110265268E-01 +8.00807242386E-01
1.25000000000E+09 -3.53925125311E-01 +8.63041944085E-01 +5.14153955207E-05 -2.81258162031E-04 +8.90845464884E-05 -2.65882218450E-04 -5.31486220709E-01 +8.05112318012E-01
1.25500000000E+09 -3.47043542318E-01 +8.65616869159E-01 -1.12553720627E-05 -2.36919950164E-04 +3.32665957397E-06 -2.80044490407E-04 -5.24619566202E-01 +8.09142859221E-01
1.26000000000E+09 -3.41625098558E-01 +8.67500394687E-01 +1.18224953921E-05 -2.64393164621E-04 +3.61057185827E-05 -3.33575717081E-04 -5.17839932210E-01 +8.13346339249E-01
1.26500000000E+09 -3.36518489937E-01 +8.68935783822E-01 -1.56689686976E-05 -3.21959252500E-04 -5.23301124968E-05 -3.54396721792E-04 -5.10936072307E-01 +8.17293930509E-01
1.27000000000E+09 -3.31255850274E-01 +8.70232828965E-01 -5.83529505609E-05 -3.25567162963E-04 -9.29749158862E-05 -3.73628763984E-04 -5.04193456530E-01 +8.21021375010E-01
1.27500000000E+09 -3.24870669754E-01 +8.71552427774E-01 -9.97210915868E-05 -3.27234378882E-04 -1.07708653828E-04 -3.17041565736E-04 -4.97155441145E-01 +8.24497749494E-01
1.28000000000E+09 -3.16497627469E-01 +8.73257087762E-01 -1.62516428437E-04 -2.91392343571E-04 -1.24847668738E-04 -2.84159600324E-04 -4.90037377428E-01 +8.27990817900E-01
1.28500000000E+09 -3.06086755482E-01 +8.75385021402E-01 -2.04405341480E-04 -2.94457863945E-04 -2.20619848457E-04 -3.05281041065E-04 -4.82638985415E-01 +8.31625568169E-01
1.29000000000E+09 -2.94461714396E-01 +8.77678904997E-01 -1.85110631983E-04 -2.41429567547E-04 -2.21810681746E-04 -2.82688696742E-04 -4.75222986058E-01 +8.35372287215E-01
1.29500000000E+09 -2.82090627904E-01 +8.80569341376E-01 -2.03236092497E-04 -3.03949763106E-04 -2.42345152259E-04 -3.09134919392E-04 -4.67113880798E-01 +8.38884645786E-01
1.30000000000E+09 -2.69680118403E-01 +8.83776303101E-01 -2.59152837578E-04 -3.04506696759E-04 -3.38226210345E-04 -2.41966615495E-04 -4.59410540555E-01 +8.42450708043E-01
1.30500000000E+09 -2.58495651685E-01 +8.86751129719E-01 -3.42408312427E-04 -3.05077926743E-04 -3.37505995302E-04 -2.35681410880E-04 -4.51256841492E-01 +8.45848691896E-01
1.31000000000E+09 -2.48775875048E-01 +8.89288767334E-01 -3.99929327232E-04 -2.39854700112E-04 -4.00645547305E-04 -1.70469309741E-04 -4.42874734708E-01 +8.49230828036E-01
1.31500000000E+09 -2.41032224560E-01 +8.91189837365E-01 -3.95357876798E-04 -1.78299354666E-04 -4.12559084709E-04 -2.02244339623E-04 -4.34213993612E-01 +8.52615967671E-01
1.32000000000E+09 -2.34590147428E-01 +8.92466066316E-01 -3.73012810265E-04 -1.40765290367E-04 -3.86254748728E-04 -2.07172279672E-04 -4.24986965215E-01 +8.56011879516E-01
1.32500000000E+09 -2.28853296955E-01 +8.93113718630E-01 -4.29721966648E-04 -1.45462749283E-04 -4.29429090729E-04 -1.35816644275E-04 -4.15303080252E-01 +8.59524925735E-01
1.33000000000E+09 -2.22391364699E-01 +8.93464370596E-01 -4.53936757358E-04 -1.10944315925E-04 -4.65633347764E-04 -1.29799278311E-04 -4.05607483176E-01 +8.62765948113E-01
1.33500000000E+09 -2.14143791134E-01 +8.93327379298E-01 -4.83411267015E-04 -1.29066542127E-04 -4.79302849132E-04 -7.74543571986E-05 -3.95689075661E-01 +8.66063012396E-01
1.34000000000E+09 -2.03597616674E-01 +8.93414734261E-01 -5.33901540016E-04 -1.10606331956E-04 -5.62941769563E-04 -2.22910076691E-05 -3.85318896667E-01 +8.69276393754E-01
1.34500000000E+09 -1.90262568918E-01 +8.93360325319E-01 -6.35740925158E-04 -5.01871148100E-05 -6.09874171017E-04 -6.12697727840E-05 -3.74442328394E-01 +8.72589516169E-01
1.35000000000E+09 -1.74784923564E-01 +8.93186443898E-01 -6.08139509005E-04 +6.31025260519E-05 -6.44724088824E-04 +1.42831207866E-05 -3.63307067294E-01 +8.75530162721E-01
1.35500000000E+09 -1.58143669652E-01 +8.93298840547E-01 -6.06253228203E-04 +1.32796249429E-04 -6.37236540590E-04 +1.23457903695E-04 -3.51540474294E-01 +8.78312593619E-01
1.36000000000E+09 -1.41455396297E-01 +8.93648787924E-01 -6.93991247183E-04 +1.73769134895E-04 -6.34696457890E-04 +1.71119646529E-04 -3.39864593502E-01 +8.80900107258E-01
1.36500000000E+09 -1.25360313462E-01 +8.94071773202E-01 -6.98296488874E-04 +2.21286356533E-04 -6.30170281775E-04 +2.41844605746E-04 -3.27624733613E-01 +8.83418984230E-01
1.37000000000E+09 -1.10917286562E-01 +8.94207093582E-01 -7.51007522556E-04 +3.36039731591E-04 -6.61200255919E-04 +2.58576762374E-04 -3.14692529391E-01 +8.85860131356E-01
1.37500000000E+09 -9.83451434382E-02 +8.94277485909E-01 -7.39493103598E-04 +3.42353650665E-04 -7.84115290351E-04 +2.90978131964E-04 -3.00982458036E-01 +8.87960976637E-01
1.38000000000E+09 -8.71760015804E-02 +8.93753315272E-01 -7.66095857475E-04 +5.44340817691E-04 -8.86392940732E-04 +4.30851324129E-04 -2.86288226783E-01 +8.90019428853E-01
1.38500000000E+09 -7.61523560472E-02 +8.92872930064E-01 -7.43432680526E-04 +6.55967827642E-04 -8.84086230016E-04 +6.33635020824E-04 -2.70898419031E-01 +8.91818010680E-01
1.39000000000E+09 -6.46682743966E-02 +8.91140756015E-01 -7.04036607447E-04 +7.39975509761E-04 -7.95870137644E-04 +8.51238794259E-04 -2.55012860967E-01 +8.93214332953E-01
1.39500000000E+09 -5.11356413644E-02 +8.88508083881E-01 -7.30559685445E-04 +7.96322385906E-04 -7.04898958018E-04 +9.23801988349E-04 -2.38157963878E-01 +8.93857485642E-01
1.40000000000E+09 -3.48591450715E-02 +8.84836845984E-01 -7.09649857093E-04 +9.43471202747E-04 -6.17249507123E-04 +1.02135558224E-03 -2.20690680085E-01 +8.94471875768E-01
1.40500000000E+09 -1.63541321715E-02 +8.80241690603E-01 -6.19763034503E-04 +1.10918196277E-03 -5.32152264996E-04 +1.13263114177E-03 -2.01804640737E-01 +8.94209241499E-01
1.41000000000E+09 +4.42417104077E-03 +8.74820573934E-01 -5.20102815914E-04 +1.21358916553E-03 -5.58718062067E-04 +1.17830383930E-03 -1.81767242708E-01 +8.93287052893E-01
1.41500000000E+09 +2.67733963259E-02 +8.68579246079E-01 -4.60055784916E-04 +1.35733340414E-03 -5.44643532642E-04 +1.34849186132E-03 -1.60293472025E-01 +8.91732714805E-01
1.42000000000E+09 +4.96017800250E-02 +8.61911692380E-01 -4.04065235839E-04 +1.45840874157E-03 -5.20105607274E-04 +1.61134856110E-03 -1.37389172060E-01 +8.89143141545E-01
1.42500000000E+09 +7.21268392405E-02 +8.54366394684E-01 -3.82511230678E-04 +1.69021146509E-03 -3.51708551612E-04 +1.91261188336E-03 -1.13639507973E-01 +8.85407320377E-01
1.43000000000E+09 +9.38045714407E-02 +8.46178928483E-01 -2.37824027343E-04 +2.07509074280E-03 -4.93325515724E-05 +2.29483798245E-03 -8.88146037022E-02 +8.80590416696E-01
1.43500000000E+09 +1.14764682771E-01 +8.36540307908E-01 +1.51120250000E-04 +2.28653000743E-03 +4.29899839975E-04 +2.34015470690E-03 -6.23684282004E-02 +8.73644956428E-01
1.44000000000E+09 +1.35894663703E-01 +8.26033559091E-01 +4.33809649466E-04 +2.41661370371E-03 +6.95154963460E-04 +2.38683326448E-03 -3.44495466094E-02 +8.64741589439E-01
1.44500000000E+09 +1.58267755397E-01 +8.12853785490E-01 +9.16804507492E-04 +2.40869246898E-03 +1.05481470790E-03 +2.37157966906E-03 -4.41381853567E-03 +8.53448115227E-01
1.45000000000E+09 +1.82450116221E-01 +7.95960549399E-01 +9.24861156949E-04 +2.49741678174E-03 +1.15321655146E-03 +2.44033656010E-03 +2.75160366088E-02 +8.38442747646E-01
1.45500000000E+09 +2.08619963990E-01 +7.75028521110E-01 +1.22131705052E-03 +2.95561176881E-03 +1.51143908384E-03 +2.89146231459E-03 +6.02816427208E-02 +8.20260006471E-01
1.46000000000E+09 +2.36952435956E-01 +7.49502281141E-01 +2.00682956540E-03 +3.46784697479E-03 +2.31278752921E-03 +3.16565646184E-03 +9.45736477365E-02 +7.98881321036E-01
1.46500000000E+09 +2.67109136135E-01 +7.19707402696E-01 +3.10940253151E-03 +3.65147868605E-03 +3.06441693237E-03 +3.13904199961E-03 +1.30894163719E-01 +7.72179950093E-01
1.47000000000E+09 +2.98817176222E-01 +6.84371063177E-01 +4.45348801702E-03 +3.49676741493E-03 +4.12578283954E-03 +3.16116591569E-03 +1.67754119762E-01 +7.38246359326E-01
1.47500000000E+09 +3.29756056409E-01 +6.43356884727E-01 +5.64895119113E-03 +2.62643266195E-03 +5.35507302629E-03 +2.74525106358E-03 +2.04501995039E-01 +6.97359354869E-01
1.48000000000E+09 +3.58529391798E-01 +5.95784720464E-01 +6.49008872002E-03 +1.79451113224E-03 +6.48573048858E-03 +1.95956111864E-03 +2.40277940889E-01 +6.48030154888E-01
1.48500000000E+09 +3.82260722048E-01 +5.41574939921E-01 +7.46782411254E-03 +7.90980868865E-04 +7.70448792418E-03 +7.39177023517E-04 +2.73714957332E-01 +5.90120561427E-01
1.49000000000E+09 +3.99448438060E-01 +4.80877289939E-01 +8.86137400089E-03 -5.13789171147E-04 +8.83250509181E-03 -9.93449243703E-04 +3.02915302356E-01 +5.21472558897E-01
1.49500000000E+09 +4.08813492885E-01 +4.13550763807E-01 +9.61593289331E-03 -2.95203036109E-03 +9.06277339130E-03 -3.22512916404E-03 +3.21618122498E-01 +4.40621694107E-01
1.50000000000E+09 +4.08588694154E-01 +3.37961784911E-01 +1.01970344556E-02 -5.35063351483E-03 +9.56516614025E-03 -5.02977326112E-03 +3.25738737153E-01 +3.52376776972E-01
1.50500000000E+09 +3.95855408192E-01 +2.55269052847E-01 +9.88617548414E-03 -9.33689961255E-03 +9.80588449448E-03 -8.68639370849E-03 +3.15386011998E-01 +2.57020201725E-01
1.51000000000E+09 +3.67691566712E-01 +1.66458451349E-01 +7.66639816110E-03 -1.34358398068E-02 +8.05845662972E-03 -1.30715802277E-02 +2.85086622221E-01 +1.56385563652E-01
1.51500000000E+09 +3.20633240640E-01 +7.70247514535E-02 +2.98603910710E-03 -1.63004898375E-02 +3.41980389696E-03 -1.63772782077E-02 +2.30681646408E-01 +5.78227304151E-02
1.52000000000E+09 +2.53396851330E-01 -6.73458264245E-03 -2.43922137028E-03 -1.71306103239E-02 -2.33610747679E-03 -1.73223305463E-02 +1.54340872856E-01 -2.97147346985E-02
1.52500000000E+09 +1.67669932818E-01 -7.62631637373E-02 -7.31836679393E-03 -1.50304316454E-02 -7.25640402440E-03 -1.52407030481E-02 +5.80468574201E-02 -9.90913919673E-02
1.53000000000E+09 +6.87851746001E-02 -1.25059641840E-01 -1.03876696909E-02 -1.28742032997E-02 -1.05105979842E-02 -1.29865314704E-02 -5.04517028127E-02 -1.44483275612E-01
1.53500000000E+09 -3.66939131378E-02 -1.50223165374E-01 -1.37571536146E-02 -1.02121209555E-02 -1.38468373583E-02 -1.01803750827E-02 -1.64132074815E-01 -1.63356514253E-01
1.54000000000E+09 -1.43308151385E-01 -1.52480724315E-01 -1.65499542623E-02 -6.07483155159E-03 -1.64688745280E-02 -6.04565556632E-03 -2.73572292013E-01 -1.58351021463E-01
1.54500000000E+09 -2.46718449640E-01 -1.31883731526E-01 -1.72648559177E-02 -1.25480924505E-04 -1.70566902755E-02 -3.86774082416E-04 -3.71229689420E-01 -1.32449462219E-01
1.55000000000E+09 -3.41143993455E-01 -9.08624927694E-02 -1.51493391253E-02 +4.29744460534E-03 -1.52912834515E-02 +3.75240195103E-03 -4.55447666765E-01 -9.44730604575E-02
1.55500000000E+09 -4.19709640150E-01 -3.45138185664E-02 -1.28838842009E-02 +7.53674202314E-03 -1.34090408378E-02 +7.16215621238E-03 -5.25042059963E-01 -4.67181713610E-02
1.56000000000E+09 -4.80521642041E-01 +2.65257629365E-02 -9.45393966387E-03 +9.95386522001E-03 -1.01831383848E-02 +1.01196227911E-02 -5.81221455936E-01 +6.18811409497E-03
1.56500000000E+09 -5.27740745531E-01 +8.65270331748E-02 -5.63761804065E-03 +1.06532012157E-02 -6.08215690112E-03 +1.12301878966E-02 -6.24630545600E-01 +6.08969512901E-02
1.57000000000E+09 -5.65548888717E-01 +1.44021080807E-01 -2.89743780043E-03 +9.88572879183E-03 -2.91797487310E-03 +1.05298159391E-02 -6.57907607622E-01 +1.15451598226E-01
