# Hz S RI R 50
! CMT, C1220, 16058040, 17.2.0/1
! Date: 14/08/2018 11:55:12
! Data: Format (Calibration Info)
! Freq                      S11: Re/Im (F2)                       S21: Re/Im (F2)                       S12: Re/Im (F2)                       S22: Re/Im (F2)            
1.00000000000E+09 -6.43299721773E-01 +7.10772666614E-01 +8.01532595928E-06 +4.45636610584E-05 +5.45452156243E-06 -1.48765301184E-05 -7.50097596273E-01 +6.26826657378E-01
1.00500000000E+09 -6.36326385820E-01 +7.15789768762E-01 -3.08848147449E-05 +5.63640182723E-05 -2.01602362694E-05 -1.04017132986E-05 -7.46515937393E-01 +6.30812239323E-01
1.01000000000E+09 -6.30300716336E-01 +7.20278540884E-01 -5.08375654157E-05 -4.25016519924E-06 -4.72260729412E-05 -1.90601632659E-05 -7.42931896113E-01 +6.34444927196E-01
1.01500000000E+09 -6.25791137467E-01 +7.23948072561E-01 -5.36891411306E-05 -2.81758029788E-05 -2.63437884947E-05 -4.73644907503E-07 -7.39504037524E-01 +6.38357567950E-01
1.02000000000E+09 -6.22809402157E-01 +7.27129083016E-01 -1.77833214360E-05 +1.39045867357E-05 -4.10981143732E-05 +5.00998900053E-06 -7.35928137184E-01 +6.41954154218E-01
1.02500000000E+09 -6.20791091243E-01 +7.29785514395E-01 -3.66723381656E-05 +2.95493840766E-05 +1.70198534960E-05 -1.69363431345E-05 -7.33088305813E-01 +6.45653975403E-01
1.03000000000E+09 -6.19145160811E-01 +7.32079811393E-01 -2.87573149589E-05 -9.15098416099E-06 -6.78281096280E-05 -1.97516743203E-05 -7.29606982118E-01 +6.49395403430E-01
1.03500000000E+09 -6.16737387730E-01 +7.34355979873E-01 -6.66799300716E-05 +1.50352381777E-06 -3.23168473015E-05 -1.52807344412E-05 -7.25876247219E-01 +6.53379877844E-01
1.04000000000E+09 -6.13338811856E-01 +7.37278485858E-01 -4.29642920502E-05 -2.78992031381E-05 +2.33132865559E-06 +2.29809383838E-05 -7.22051623068E-01 +6.57047058128E-01
1.04500000000E+09 -6.08386061066E-01 +7.40779309097E-01 -1.26337432387E-05 +4.32118514815E-05 -1.78445788166E-05 +4.18742258271E-05 -7.18436284472E-01 +6.60404506398E-01
1.05000000000E+09 -6.01580312687E-01 +7.44823255742E-01 -3.02787384536E-05 +2.45993735807E-05 -4.67715637226E-07 +1.23715190519E-05 -7.14925989045E-01 +6.63831279524E-01
1.05500000000E+09 -5.93621191603E-01 +7.49444518547E-01 -2.92735169791E-05 +5.36465685223E-05 -5.74707948759E-05 +5.50064811402E-05 -7.11757838200E-01 +6.67514614557E-01
1.06000000000E+09 -5.85093170248E-01 +7.54251141499E-01 -2.79433065845E-05 -2.45663848008E-06 -1.38488776880E-05 +5.15496229365E-05 -7.08353327977E-01 +6.71163801068E-01
1.06500000000E+09 -5.77006661659E-01 +7.59072477069E-01 -3.50192253694E-05 +6.20990212368E-05 -1.44728654457E-05 +6.07181929978E-05 -7.04737556548E-01 +6.74995148978E-01
1.07000000000E+09 -5.70051459122E-01 +7.63429172091E-01 -6.02989252067E-05 +4.78959989808E-05 -3.52169697446E-06 +5.37648225375E-05 -7.00733028535E-01 +6.78601487266E-01
1.07500000000E+09 -5.64572233205E-01 +7.67015293413E-01 -7.84431756452E-05 +1.06269801057E-04 +4.67987888618E-05 +1.93322149612E-05 -6.96420104386E-01 +6.82319048401E-01
1.08000000000E+09 -5.61025183804E-01 +7.70232750615E-01 +1.90785604115E-05 +8.79404944556E-05 +4.48471035539E-06 +5.77562988010E-05 -6.92344601109E-01 +6.86131868706E-01
1.08500000000E+09 -5.58665847594E-01 +7.72676550506E-01 +3.63396733324E-06 +5.01822716353E-05 +1.04919347860E-05 +6.42286506956E-05 -6.88374335163E-01 +6.89790297009E-01
1.09000000000E+09 -5.56630546449E-01 +7.74817167539E-01 +7.46942795774E-05 +8.25281676899E-05 +1.18015700226E-05 +6.66581091912E-05 -6.84478010838E-01 +6.93710806151E-01
1.09500000000E+09 -5.54828748291E-01 +7.76713949873E-01 +1.54236778430E-05 +3.73743594169E-05 +4.59285962885E-05 +8.61137222442E-05 -6.80668651737E-01 +6.97519069933E-01
1.10000000000E+09 -5.51628582895E-01 +7.78908706837E-01 -1.13648482505E-06 +6.28723206387E-05 +2.96259175865E-05 +1.15036316165E-04 -6.76668063925E-01 +7.01314969780E-01
1.10500000000E+09 -5.47239070449E-01 +7.81519659037E-01 +8.25438847209E-06 +4.82899061290E-05 -2.17288137374E-05 +8.66444776386E-05 -6.72336181304E-01 +7.04933613827E-01
1.11000000000E+09 -5.41052750601E-01 +7.84951244745E-01 -7.75933980043E-06 +8.06045581413E-05 +3.39956519154E-05 +6.87929554715E-05 -6.68137218299E-01 +7.08294636319E-01
1.11500000000E+09 -5.33750482186E-01 +7.88697072500E-01 +7.29720277453E-05 +5.22330568131E-05 +6.06445060208E-05 +6.94894876635E-05 -6.64079171756E-01 +7.11738054700E-01
1.12000000000E+09 -5.25759220389E-01 +7.92727702730E-01 +5.47124781301E-05 +5.78674254023E-05 -9.20020124510E-06 +1.03845515586E-04 -6.59938901265E-01 +7.15242798094E-01
1.12500000000E+09 -5.17647204327E-01 +7.96640637297E-01 +6.25870357242E-06 +2.65039791120E-05 +3.76630282577E-05 +7.75586118948E-05 -6.55645833748E-01 +7.19344857216E-01
1.13000000000E+09 -5.10588587593E-01 +8.00274998988E-01 +6.82017847949E-05 +6.60255100328E-05 +5.90797309301E-05 +8.37285296610E-05 -6.51415679670E-01 +7.23089088586E-01
1.13500000000E+09 -5.04679987798E-01 +8.03304637366E-01 +4.64145946435E-05 +4.60016401680E-05 +1.37700509358E-05 +5.65831963236E-05 -6.46772303125E-01 +7.26900941483E-01
1.14000000000E+09 -4.99955249017E-01 +8.06134415454E-01 +2.82666173352E-05 +6.82205478556E-05 +3.32793416497E-05 +2.61723234068E-05 -6.42180174476E-01 +7.30169372636E-01
1.14500000000E+09 -4.96465230926E-01 +8.08113672914E-01 +7.29271800212E-05 +8.93131986594E-05 +3.68172881228E-05 +6.15599031976E-05 -6.37329148211E-01 +7.33695731465E-01
1.15000000000E+09 -4.92853148380E-01 +8.09799049833E-01 +9.35013593516E-05 +3.01570837265E-05 +1.00201641513E-04 +4.98104972458E-05 -6.32667522322E-01 +7.37381890677E-01
1.15500000000E+09 -4.89279036391E-01 +8.11820560706E-01 +8.18156290727E-05 +4.83959597119E-05 +1.23219849335E-04 -1.37166591796E-07 -6.27772481832E-01 +7.41050601379E-01
1.16000000000E+09 -4.84540842775E-01 +8.13879485345E-01 +1.04335793286E-04 +1.17785897311E-05 +1.35265945154E-04 +4.01903692497E-05 -6.22970252007E-01 +7.44906193222E-01
1.16500000000E+09 -4.78537617013E-01 +8.16789106289E-01 +9.58531119866E-05 +4.24918944617E-05 +7.79328311416E-05 +9.79052090743E-05 -6.17887503521E-01 +7.48669187320E-01
1.17000000000E+09 -4.71357923029E-01 +8.19924334567E-01 +7.30872356257E-05 +4.93140003641E-05 +1.52856258009E-04 +6.41285998555E-05 -6.12419013467E-01 +7.51876025387E-01
1.17500000000E+09 -4.62989839915E-01 +8.23365138389E-01 +1.01406463089E-04 +2.56171995473E-05 +1.14165670160E-04 +3.74308042900E-05 -6.06702192738E-01 +7.55128914423E-01
1.18000000000E+09 -4.54695882315E-01 +8.26912247969E-01 +1.10086448706E-04 +5.23150278526E-05 +1.23079796462E-04 +2.38938692482E-05 -6.01123958210E-01 +7.58291650540E-01
1.18500000000E+09 -4.46334297182E-01 +8.30042345570E-01 +2.10542462607E-04 -1.48907551278E-05 +1.57372983487E-04 +2.09903908153E-05 -5.95222432886E-01 +7.61469313022E-01
1.19000000000E+09 -4.39173849160E-01 +8.32804362865E-01 +1.89725366524E-04 +7.88640313027E-06 +1.79743815957E-04 +3.36329896560E-05 -5.89019349387E-01 +7.63859250729E-01
1.19500000000E+09 -4.33078199683E-01 +8.34919176352E-01 +2.53699313889E-04 +1.83697132598E-05 +2.71080169500E-04 -7.04895343426E-05 -5.83084025636E-01 +7.65127827251E-01
1.20000000000E+09 -4.28550585612E-01 +8.35905618383E-01 +2.90864983005E-04 -1.37916817791E-04 +2.30045728842E-04 -1.34071802409E-04 -5.78433383615E-01 +7.65301651371E-01
1.20500000000E+09 -4.24696560619E-01 +8.37298747084E-01 +2.18670169132E-04 -1.58967093123E-04 +1.78185013580E-04 -2.24878920060E-04 -5.76127786104E-01 +7.66166642269E-01
1.21000000000E+09 -4.20836019821E-01 +8.38771886120E-01 +1.32866507614E-04 -2.18897669825E-04 +1.25055449353E-04 -1.79902261868E-04 -5.74265491342E-01 +7.69087976974E-01
1.21500000000E+09 -4.15763824778E-01 +8.40469546476E-01 +9.58194217084E-05 -1.48958223767E-04 +8.15014931874E-05 -1.86287904506E-04 -5.71539100946E-01 +7.73445716477E-01
1.22000000000E+09 -4.09225215775E-01 +8.42641296529E-01 +1.51321674378E-04 -1.98384994552E-04 +1.04101682695E-04 -1.61388048710E-04 -5.67430826614E-01 +7.78835160234E-01
1.22500000000E+09 -4.00932812882E-01 +8.45456653505E-01 +1.27072794903E-04 -1.52782027582E-04 +1.31260423498E-04 -1.49590329872E-04 -5.62296180426E-01 +7.83864794729E-01
1.23000000000E+09 -3.91384240278E-01 +8.48598376307E-01 +1.12547966732E-04 -1.80403085653E-04 +1.31348417347E-04 -2.03480470676E-04 -5.56564984272E-01 +7.88728562481E-01
1.23500000000E+09 -3.81309721037E-01 +8.52113914899E-01 +9.81642872180E-05 -1.67933840733E-04 +4.67978421126E-05 -2.00089802746E-04 -5.50669853671E-01 +7.93054088426E-01
1.24000000000E+09 -3.71056720918E-01 +8.55893939081E-01 +1.31138046402E-04 -2.06487618594E-04 +3.98518629091E-05 -2.09549177444E-04 -5.44747253146E-01 +7.96873017681E-01
1.24500000000E+09 -3.61822401655E-01 +8.59759313222E-01 +4.80511403478E-05 -2.33987395035E-04 +7.50081165103E-05 -2.09077833203E-04 -5.38480319544E-01 +8.00716219727E-01
1.25000000000E+09 -3.53601143476E-01 +8.62931882899E-01 +4.42716506138E-05 -2.29639608026E-04 +8.42242032747E-06 -2.50950910416E-04 -5.31679260020E-01 +8.04860537347E-01
1.25500000000E+09 -3.46949144353E-01 +8.65493151507E-01 +7.49191420847E-06 -2.46960400794E-04 +7.56422326960E-06 -2.77853702397E-04 -5.24931231486E-01 +8.08884744704E-01
1.26000000000E+09 -3.41158508806E-01 +8.67455956025E-01 +1.96434972150E-05 -2.77390800789E-04 +3.86652111142E-05 -3.17495479129E-04 -5.18126308768E-01 +8.13194905519E-01
1.26500000000E+09 -3.36257875057E-01 +8.68778299059E-01 +2.01135659929E-05 -3.12169099845E-04 -3.52065416436E-05 -3.55769845334E-04 -5.11054093050E-01 +8.17062960812E-01
1.27000000000E+09 -3.30878281779E-01 +8.70110580628E-01 -6.90887263536E-05 -3.49711892920E-04 -5.73756549792E-05 -3.53475884365E-04 -5.04508106777E-01 +8.20883581918E-01
1.27500000000E+09 -3.24447431974E-01 +8.71464562140E-01 -9.47192229393E-05 -3.56227912838E-04 -6.68562398021E-05 -4.04615757247E-04 -4.97275534926E-01 +8.24442877711E-01
1.28000000000E+09 -3.16205413276E-01 +8.73180685764E-01 -1.57110898476E-04 -3.32500222560E-04 -9.86947034288E-05 -3.55432230034E-04 -4.90449160498E-01 +8.27929937829E-01
1.28500000000E+09 -3.05890075472E-01 +8.75170689343E-01 -2.02986950828E-04 -2.91504117171E-04 -2.16328904989E-04 -3.71909101432E-04 -4.82934880874E-01 +8.31426321450E-01
1.29000000000E+09 -2.94241252085E-01 +8.77640713434E-01 -1.86160673684E-04 -3.02947074762E-04 -2.45896758973E-04 -3.07644465356E-04 -4.75367009859E-01 +8.35207310968E-01
1.29500000000E+09 -2.81854095739E-01 +8.80489824291E-01 -2.66367986943E-04 -3.60573053104E-04 -2.80567233698E-04 -2.64344257209E-04 -4.67464552818E-01 +8.38642654454E-01
1.30000000000E+09 -2.69400666654E-01 +8.83698087920E-01 -2.36230847730E-04 -3.62237964349E-04 -2.96573684602E-04 -3.02946983733E-04 -4.59707578435E-01 +8.42283427244E-01
1.30500000000E+09 -2.58375545871E-01 +8.86753417784E-01 -3.20702068524E-04 -2.68517228334E-04 -3.41890551766E-04 -2.93371491796E-04 -4.51395111283E-01 +8.45786622084E-01
1.31000000000E+09 -2.48505143875E-01 +8.89282933521E-01 -3.73748656410E-04 -2.38857895444E-04 -4.00711439221E-04 -2.29114193636E-04 -4.43171097517E-01 +8.49021154035E-01
1.31500000000E+09 -2.40653870401E-01 +8.91219814159E-01 -4.34311948163E-04 -1.55684472164E-04 -4.32024488278E-04 -2.24697464454E-04 -4.34362678898E-01 +8.52488823996E-01
1.32000000000E+09 -2.34278908769E-01 +8.92451238632E-01 -4.47050033278E-04 -1.52576239911E-04 -4.66695500312E-04 -1.41010439527E-04 -4.25163823698E-01 +8.55953744141E-01
1.32500000000E+09 -2.28610644171E-01 +8.93000484227E-01 -4.52816970541E-04 -1.17180956138E-04 -4.88484433026E-04 -1.16586717917E-04 -4.15531233008E-01 +8.59366694181E-01
1.33000000000E+09 -2.22070260657E-01 +8.93400908088E-01 -4.82038019595E-04 -1.05849043775E-04 -5.16819711329E-04 -7.44248178679E-05 -4.05835855415E-01 +8.62681787356E-01
1.33500000000E+09 -2.13805676896E-01 +8.93309342127E-01 -5.24516242547E-04 -8.79985350970E-05 -5.20088134822E-04 -2.40120390226E-05 -3.95784110701E-01 +8.65905076993E-01
1.34000000000E+09 -2.03342910495E-01 +8.93364511967E-01 -5.44992537369E-04 -7.63563715452E-05 -5.53611111770E-04 -5.30373967313E-05 -3.85551041451E-01 +8.69276173622E-01
1.34500000000E+09 -1.89889580215E-01 +8.93315759468E-01 -6.66263554760E-04 -2.64071890059E-05 -5.90125607089E-04 +1.68840296668E-05 -3.74612183467E-01 +8.72462044485E-01
1.35000000000E+09 -1.74535961466E-01 +8.93200748042E-01 -6.51421796277E-04 +9.41258773510E-05 -6.39294173415E-04 +7.72664350335E-05 -3.63398248781E-01 +8.75517783016E-01
1.35500000000E+09 -1.57603831559E-01 +8.93349197091E-01 -6.64962935027E-04 +1.40860448123E-04 -6.60917012081E-04 +1.61494709868E-04 -3.51881506475E-01 +8.78202588042E-01
1.36000000000E+09 -1.41059586321E-01 +8.93671259218E-01 -6.37658789416E-04 +2.17138952936E-04 -6.28037417085E-04 +2.18141262883E-04 -3.39991908516E-01 +8.80820531820E-01
1.36500000000E+09 -1.24940180652E-01 +8.94200126617E-01 -6.91485006427E-04 +2.91788434730E-04 -6.25551967310E-04 +2.48535048101E-04 -3.27824436008E-01 +8.83316616380E-01
1.37000000000E+09 -1.10467006934E-01 +8.94330281038E-01 -7.03782104563E-04 +3.30320419285E-04 -6.14231173360E-04 +2.71923538385E-04 -3.14855568499E-01 +8.85732539491E-01
1.37500000000E+09 -9.79798331027E-02 +8.94361027888E-01 -7.46680180085E-04 +3.94411974380E-04 -7.19451731565E-04 +3.41522064319E-04 -3.00946388187E-01 +8.87982180782E-01
1.38000000000E+09 -8.68402630530E-02 +8.93968662863E-01 -7.69412543680E-04 +5.03713747448E-04 -8.59789544001E-04 +4.26342972057E-04 -2.86328392303E-01 +8.89814786352E-01
1.38500000000E+09 -7.57586588555E-02 +8.93015064687E-01 -7.36600825988E-04 +6.62735984063E-04 -8.87174535294E-04 +6.73742309652E-04 -2.70934943439E-01 +8.91548752783E-01
1.39000000000E+09 -6.42276277603E-02 +8.91226597046E-01 -6.78002685371E-04 +7.50631180022E-04 -8.21500987713E-04 +8.66226683262E-04 -2.54989635211E-01 +8.92956738958E-01
1.39500000000E+09 -5.05832470459E-02 +8.88739717699E-01 -6.68525715634E-04 +8.12996888151E-04 -6.67389002723E-04 +9.37714358538E-04 -2.38072409059E-01 +8.93653194314E-01
1.40000000000E+09 -3.43777550537E-02 +8.84851420648E-01 -6.78830218152E-04 +9.73511661319E-04 -6.09026940138E-04 +1.06640657444E-03 -2.20516195325E-01 +8.94034843635E-01
1.40500000000E+09 -1.58281438772E-02 +8.80357447416E-01 -5.63786363720E-04 +1.12352621938E-03 -4.95180266810E-04 +1.12612397202E-03 -2.01764670216E-01 +8.93682776550E-01
1.41000000000E+09 +5.05110037602E-03 +8.74952480502E-01 -5.44363753569E-04 +1.19956636012E-03 -5.29562869346E-04 +1.13105078814E-03 -1.81720248096E-01 +8.92763162932E-01
1.41500000000E+09 +2.74418457977E-02 +8.68662724624E-01 -4.63689733433E-04 +1.35701963021E-03 -5.27319356353E-04 +1.36594500493E-03 -1.60413734145E-01 +8.91165473760E-01
1.42000000000E+09 +5.03302338189E-02 +8.61962240682E-01 -4.63372317328E-04 +1.47376844217E-03 -5.45696197450E-04 +1.61451951496E-03 -1.37512054344E-01 +8.88541620082E-01
1.42500000000E+09 +7.29192855200E-02 +8.54537590812E-01 -4.26889862699E-04 +1.75766473954E-03 -3.62714782912E-04 +1.98001236919E-03 -1.13895583372E-01 +8.84663817069E-01
1.43000000000E+09 +9.46666910323E-02 +8.46238761193E-01 -2.37596216733E-04 +2.08709595502E-03 -5.55156722994E-05 +2.29721986851E-03 -8.90899113006E-02 +8.79780870778E-01
1.43500000000E+09 +1.15684001820E-01 +8.36723244934E-01 +1.61506801219E-04 +2.31536677458E-03 +3.74282724873E-04 +2.35540465462E-03 -6.29248573690E-02 +8.72928327239E-01
1.44000000000E+09 +1.36858974717E-01 +8.25955360316E-01 +4.59306233208E-04 +2.50110336062E-03 +6.33280190880E-04 +2.45959579614E-03 -3.50965517465E-02 +8.64126553438E-01
1.44500000000E+09 +1.59253163663E-01 +8.12832146075E-01 +8.89245309561E-04 +2.54336253792E-03 +1.07760352914E-03 +2.51973858642E-03 -5.08229178273E-03 +8.52881006640E-01
1.45000000000E+09 +1.83471297774E-01 +7.95954741749E-01 +1.02242937986E-03 +2.54468897214E-03 +1.19133216566E-03 +2.53900689687E-03 +2.68230780784E-02 +8.37857781171E-01
1.45500000000E+09 +2.09868656728E-01 +7.75009427457E-01 +1.26257809895E-03 +3.04737755834E-03 +1.52573829081E-03 +2.90880639606E-03 +5.92742070263E-02 +8.19807942847E-01
1.46000000000E+09 +2.38361736560E-01 +7.49481145125E-01 +2.05647025516E-03 +3.56334058098E-03 +2.29902775098E-03 +3.19365339775E-03 +9.36468676292E-02 +7.98651911790E-01
1.46500000000E+09 +2.68779489106E-01 +7.19495991324E-01 +3.17006616289E-03 +3.76226694441E-03 +3.11995299616E-03 +3.25355635475E-03 +1.30096658835E-01 +7.71991198098E-01
1.47000000000E+09 +3.00603364759E-01 +6.83922912794E-01 +4.67387259923E-03 +3.55775957583E-03 +4.25612468259E-03 +3.28507105693E-03 +1.66897884500E-01 +7.38108625527E-01
1.47500000000E+09 +3.31620731653E-01 +6.42674766987E-01 +5.88190468505E-03 +2.61707235006E-03 +5.56843463797E-03 +2.71592798162E-03 +2.03418655764E-01 +6.97066935970E-01
1.48000000000E+09 +3.60729922844E-01 +5.94830345371E-01 +6.70719094325E-03 +1.58094407554E-03 +6.68353328790E-03 +1.79175991932E-03 +2.39274768572E-01 +6.48063640614E-01
1.48500000000E+09 +3.84593815702E-01 +5.40088885767E-01 +7.50154496368E-03 +7.21203242211E-04 +7.70032802383E-03 +6.09218005406E-04 +2.73050220707E-01 +5.90243221675E-01
1.49000000000E+09 +4.01728249140E-01 +4.78829954250E-01 +8.95469149349E-03 -5.70648922329E-04 +8.96543862608E-03 -9.95202292428E-04 +3.02148949532E-01 +5.21141565407E-01
1.49500000000E+09 +4.10885236406E-01 +4.10730238294E-01 +9.83400066328E-03 -3.06429252688E-03 +9.31019820465E-03 -3.32948655153E-03 +3.20360977684E-01 +4.40176901457E-01
1.50000000000E+09 +4.10335174241E-01 +3.34400131184E-01 +1.03398813520E-02 -5.69189286834E-03 +9.74749891117E-03 -5.39929889514E-03 +3.23991121551E-01 +3.52084493258E-01
1.50500000000E+09 +3.96789537638E-01 +2.51163126582E-01 +9.90415005326E-03 -9.65942785912E-03 +9.69471360767E-03 -9.03537306458E-03 +3.12766423954E-01 +2.57445012425E-01
1.51000000000E+09 +3.67744162660E-01 +1.61994214076E-01 +7.40692445034E-03 -1.37292410425E-02 +7.79619644698E-03 -1.32878580622E-02 +2.82345823840E-01 +1.58007705242E-01
1.51500000000E+09 +3.19530424008E-01 +7.21205961194E-02 +2.85572303599E-03 -1.64084517166E-02 +3.25634217434E-03 -1.64303965409E-02 +2.28561195776E-01 +6.06287874433E-02
1.52000000000E+09 +2.50727864473E-01 -1.15706645120E-02 -2.42772403921E-03 -1.73589247664E-02 -2.27374028359E-03 -1.76144486877E-02 +1.52867940314E-01 -2.58538622937E-02
1.52500000000E+09 +1.63645126260E-01 -8.02149362131E-02 -7.59872202107E-03 -1.53150972504E-02 -7.59000423056E-03 -1.54956437320E-02 +5.82234829749E-02 -9.41116529142E-02
1.53000000000E+09 +6.37339772331E-02 -1.27899407944E-01 -1.07223014222E-02 -1.28310969222E-02 -1.07254270389E-02 -1.29244311903E-02 -4.78979774357E-02 -1.39923279124E-01
1.53500000000E+09 -4.23401139238E-02 -1.51526425074E-01 -1.39968834657E-02 -1.02049217431E-02 -1.39919689259E-02 -1.01848284986E-02 -1.59813478496E-01 -1.60058398345E-01
1.54000000000E+09 -1.49130513731E-01 -1.52203323719E-01 -1.67645157624E-02 -5.88243222398E-03 -1.66499699599E-02 -5.89422436150E-03 -2.68313721930E-01 -1.56872400614E-01
1.54500000000E+09 -2.52022852106E-01 -1.29719982999E-01 -1.74170515974E-02 +1.16006046266E-05 -1.72340076098E-02 -3.40469820286E-04 -3.65778036683E-01 -1.33187906218E-01
1.55000000000E+09 -3.45067729335E-01 -8.74721493497E-02 -1.54646377334E-02 +4.56483963815E-03 -1.55743188762E-02 +4.00623624558E-03 -4.50847167180E-01 -9.69954834653E-02
1.55500000000E+09 -4.22297533685E-01 -3.07949413448E-02 -1.26837720210E-02 +7.97410614544E-03 -1.32774261933E-02 +7.64128185090E-03 -5.21721542222E-01 -5.06367912749E-02
1.56000000000E+09 -4.82258649911E-01 +3.02576307701E-02 -9.06554134427E-03 +9.94123986773E-03 -9.82461465853E-03 +1.01151949127E-02 -5.79618486055E-01 +1.72028588801E-03
1.56500000000E+09 -5.28713346541E-01 +9.02818165904E-02 -5.59308846767E-03 +1.03977132830E-02 -6.03026524799E-03 +1.09302648719E-02 -6.24432821807E-01 +5.66101756833E-02
1.57000000000E+09 -5.65600046469E-01 +1.47785445987E-01 -2.97301220501E-03 +9.76631708387E-03 -3.09479564350E-03 +1.04460595475E-02 -6.58752237943E-01 +1.11628014447E-01
