# Hz S RI R 50
! CMT, C1220, 16058040, 17.2.0/1
! Date: 14/08/2018 11:54:02
! Data: Format (Calibration Info)
! Freq                      S11: Re/Im (F2)                       S21: Re/Im (F2)                       S12: Re/Im (F2)                       S22: Re/Im (F2)            
1.00000000000E+09 -6.41883750700E-01 +7.09243556795E-01 -7.61654628409E-05 +3.14973038277E-05 +5.40735645400E-06 +2.18289888226E-05 -7.50089129365E-01 +6.26716030752E-01
1.00500000000E+09 -6.34845824503E-01 +7.14273565419E-01 -4.47025343914E-05 +3.47604603229E-05 -2.45599450778E-05 -2.04084468374E-05 -7.46463347410E-01 +6.30787198802E-01
1.01000000000E+09 -6.28883655966E-01 +7.18687648479E-01 -5.38692251023E-06 +7.86638026996E-06 -2.37151340238E-05 +3.02543860679E-05 -7.43019446932E-01 +6.34577753274E-01
1.01500000000E+09 -6.24444580360E-01 +7.22572554526E-01 -5.07640757068E-05 +4.64126101583E-05 -9.14252889190E-06 +2.74878755295E-05 -7.39512620960E-01 +6.38490259452E-01
1.02000000000E+09 -6.21465720642E-01 +7.25681841241E-01 -4.54608484753E-05 -1.31971267345E-06 -2.63725782560E-05 +1.56832073083E-05 -7.35939304591E-01 +6.42033457056E-01
1.02500000000E+09 -6.19272594524E-01 +7.28210778469E-01 -2.73783344319E-05 +1.63118331271E-05 -3.89576489507E-05 +2.88473234287E-05 -7.33009048128E-01 +6.45654367120E-01
1.03000000000E+09 -6.17749390592E-01 +7.30512260372E-01 -3.25948304207E-05 +1.43297353089E-05 -1.08570883013E-05 +1.72034285637E-05 -7.29396354561E-01 +6.49519976994E-01
1.03500000000E+09 -6.15478269772E-01 +7.32815465188E-01 -2.38947398356E-05 +1.03307802650E-05 -1.61112149053E-05 -4.91140996331E-05 -7.25827065220E-01 +6.53359195501E-01
1.04000000000E+09 -6.12082521339E-01 +7.35578266438E-01 -9.26895336822E-06 +1.07719002959E-05 -9.07466279361E-05 +5.69429078977E-06 -7.21990524634E-01 +6.56950298804E-01
1.04500000000E+09 -6.07026656200E-01 +7.39119283704E-01 -4.14174939623E-05 +2.82873099887E-05 -4.81093185018E-05 +7.64544731288E-07 -7.18421115654E-01 +6.60624227363E-01
1.05000000000E+09 -6.00294888210E-01 +7.43237759053E-01 -5.06288061824E-05 +4.42955271051E-05 -2.50813509712E-05 +3.88473160820E-05 -7.14990998661E-01 +6.63893950704E-01
1.05500000000E+09 -5.92238243993E-01 +7.47762910924E-01 -3.25736714425E-05 +5.03366794836E-05 -2.89478890505E-06 +3.04334158189E-05 -7.11770150193E-01 +6.67443875054E-01
1.06000000000E+09 -5.83747961701E-01 +7.52769659544E-01 -2.11860972210E-05 +2.95512051194E-05 -4.28441085990E-06 +1.21851075176E-05 -7.08586685172E-01 +6.71333698361E-01
1.06500000000E+09 -5.75589130856E-01 +7.57672437169E-01 -5.13995866284E-05 +3.43395024812E-05 +3.09898804018E-06 +4.60147805203E-05 -7.04585575953E-01 +6.74866656402E-01
1.07000000000E+09 -5.68628307744E-01 +7.61744782414E-01 -1.01550458418E-05 +1.04202658472E-04 -1.26652499366E-05 +6.23228331745E-05 -7.00670946880E-01 +6.78603538635E-01
1.07500000000E+09 -5.63274912763E-01 +7.65526544409E-01 -1.10190516935E-05 +7.21992615568E-05 +3.18626936482E-06 +2.23713000530E-06 -6.96378910056E-01 +6.82394347740E-01
1.08000000000E+09 -5.59585198259E-01 +7.68645613665E-01 +3.18702982368E-05 +6.76417699459E-05 +3.30561299993E-05 +5.82213904330E-05 -6.92375953294E-01 +6.86120109206E-01
1.08500000000E+09 -5.57124293734E-01 +7.71042735308E-01 +6.94012102875E-06 +4.80472557036E-05 +2.06959130748E-05 +7.61336381603E-05 -6.88314839048E-01 +6.89794036790E-01
1.09000000000E+09 -5.55272421662E-01 +7.73088161883E-01 -8.19894618402E-06 +9.39209313446E-05 -2.40665993260E-06 +1.04698232785E-04 -6.84319398726E-01 +6.93705035569E-01
1.09500000000E+09 -5.53440729294E-01 +7.74970861930E-01 +2.49105997731E-05 -2.31557380632E-06 +4.07845945622E-05 +8.55521956703E-06 -6.80547873975E-01 +6.97568320599E-01
1.10000000000E+09 -5.50326166506E-01 +7.77201130170E-01 -2.20893554747E-05 +5.23458564977E-05 +8.05560345418E-06 +3.25541430484E-05 -6.76686060323E-01 +7.01401503430E-01
1.10500000000E+09 -5.45936362159E-01 +7.80005130252E-01 +3.22801622449E-05 +8.03627351426E-05 +3.40764218026E-06 +6.97706348426E-05 -6.72338489210E-01 +7.04978348137E-01
1.11000000000E+09 -5.39815920418E-01 +7.83120980833E-01 +1.68163238427E-05 +5.62282269540E-05 +2.73219572425E-05 +6.35710284766E-05 -6.68233752249E-01 +7.08256945185E-01
1.11500000000E+09 -5.32433608915E-01 +7.86967474038E-01 +3.96659432759E-05 +8.29823583419E-05 +2.80806482086E-05 +7.83889378795E-05 -6.64041957108E-01 +7.11633461367E-01
1.12000000000E+09 -5.24509915819E-01 +7.90941087980E-01 +3.96051006165E-05 +7.87437945143E-05 +1.18786512497E-05 +9.46471835913E-05 -6.59842898510E-01 +7.15405778489E-01
1.12500000000E+09 -5.16407405049E-01 +7.94902636609E-01 +4.41462379227E-05 +5.90857844681E-05 +8.46368646103E-05 +4.06287373237E-05 -6.55630094600E-01 +7.19349155114E-01
1.13000000000E+09 -5.09408713051E-01 +7.98725916014E-01 +2.63591114335E-05 +2.82615008260E-05 +3.86131336483E-05 +6.39461807677E-05 -6.51359336519E-01 +7.22971824432E-01
1.13500000000E+09 -5.03329541357E-01 +8.01664131780E-01 +8.39582195424E-05 +9.62724253960E-05 +5.41482132081E-05 +5.90772919951E-05 -6.46763816387E-01 +7.26881420172E-01
1.14000000000E+09 -4.98821970933E-01 +8.04413690233E-01 +5.82267041142E-05 +9.65889058498E-05 +4.65852196157E-05 +2.30817751690E-05 -6.42235265901E-01 +7.30293138359E-01
1.14500000000E+09 -4.95083194677E-01 +8.06393073638E-01 +1.08897260360E-04 +7.11654218228E-05 +6.37376118544E-05 +1.01966941720E-04 -6.37408751488E-01 +7.33703376162E-01
1.15000000000E+09 -4.91619216634E-01 +8.08151115162E-01 +1.45202894993E-04 +6.26575090595E-05 +1.04485067335E-04 +4.81317497529E-05 -6.32748271624E-01 +7.37464162241E-01
1.15500000000E+09 -4.88070722317E-01 +8.10113748657E-01 +8.51324876408E-05 +4.25137729524E-05 +8.34318937027E-05 +9.09907596744E-05 -6.27819615085E-01 +7.41296090930E-01
1.16000000000E+09 -4.83490557725E-01 +8.12173073002E-01 +1.36004702033E-04 +3.76059384345E-05 +9.30184410177E-05 +3.37104843678E-05 -6.22917303801E-01 +7.45089998461E-01
1.16500000000E+09 -4.77429278845E-01 +8.14916517961E-01 +1.20076857437E-04 +5.91423880678E-05 +1.12433238192E-04 +4.46741552985E-05 -6.17979879616E-01 +7.48588273741E-01
1.17000000000E+09 -4.70105847924E-01 +8.18209903232E-01 +1.42473532388E-04 +3.91937837317E-05 +7.77660924641E-05 +6.12103954858E-05 -6.12466995105E-01 +7.52099028838E-01
1.17500000000E+09 -4.61914794488E-01 +8.21610534932E-01 +1.81571166940E-04 +5.28064117490E-05 +2.00905480551E-04 -3.96580298989E-06 -6.06827499585E-01 +7.55245765796E-01
1.18000000000E+09 -4.53438713727E-01 +8.25193842448E-01 +1.48675457366E-04 -5.66180559084E-05 +1.93853012102E-04 +2.77895385786E-05 -6.01057911963E-01 +7.58336011399E-01
1.18500000000E+09 -4.45364978245E-01 +8.28447643280E-01 +1.40894432737E-04 -1.08560686889E-05 +2.25939699241E-04 +1.90703345580E-05 -5.95149334555E-01 +7.61395639923E-01
1.19000000000E+09 -4.37888358384E-01 +8.31181679187E-01 +1.88326139843E-04 -2.37550585003E-05 +1.91756851115E-04 -2.89190050474E-05 -5.88897982103E-01 +7.63995395350E-01
1.19500000000E+09 -4.31888217604E-01 +8.33239877826E-01 +2.39349507137E-04 -7.44897005525E-05 +2.65439607331E-04 -7.24855558342E-05 -5.83026516386E-01 +7.65137350990E-01
1.20000000000E+09 -4.27303234782E-01 +8.34208246098E-01 +2.82931961670E-04 -1.07643887978E-04 +2.58517809947E-04 -1.76740281001E-04 -5.78431234813E-01 +7.65350402865E-01
1.20500000000E+09 -4.23445092400E-01 +8.35671021480E-01 +1.92817433804E-04 -1.77928861687E-04 +1.92665562828E-04 -2.26769873702E-04 -5.76271077445E-01 +7.66085579583E-01
1.21000000000E+09 -4.19674026169E-01 +8.37160673380E-01 +1.29647763433E-04 -2.21081514226E-04 +1.23768254525E-04 -2.39425035150E-04 -5.74403263377E-01 +7.69141161175E-01
1.21500000000E+09 -4.14536956792E-01 +8.38831611799E-01 +1.19758323449E-04 -1.37634340308E-04 +1.01032090406E-04 -2.14041615274E-04 -5.71616694738E-01 +7.73714843340E-01
1.22000000000E+09 -4.07889609570E-01 +8.40859575701E-01 +1.03222750588E-04 -1.53005062273E-04 +9.45420476274E-05 -1.63083424212E-04 -5.67420673438E-01 +7.78894719509E-01
1.22500000000E+09 -3.99719378038E-01 +8.43589946337E-01 +1.33362134752E-04 -1.82636666977E-04 +9.52003933608E-05 -1.86600438567E-04 -5.62401052993E-01 +7.84027409234E-01
1.23000000000E+09 -3.90276129214E-01 +8.46833570248E-01 +1.28678829961E-04 -2.16594988636E-04 +8.79960274509E-05 -1.97264792091E-04 -5.56521941067E-01 +7.88768267986E-01
1.23500000000E+09 -3.80085986228E-01 +8.50334216604E-01 +9.81109732453E-05 -2.28565565123E-04 +1.08174312499E-04 -2.31008623190E-04 -5.50672175396E-01 +7.93016050697E-01
1.24000000000E+09 -3.69833574561E-01 +8.54011448229E-01 +1.28933777346E-04 -2.82580181563E-04 +7.79091417984E-05 -2.42473113601E-04 -5.44684259449E-01 +7.96799824896E-01
1.24500000000E+09 -3.60655469548E-01 +8.57983067355E-01 +5.19470816664E-05 -2.78264448959E-04 +7.44669140675E-05 -2.42941437186E-04 -5.38363197499E-01 +8.00619590025E-01
1.25000000000E+09 -3.52458133693E-01 +8.61244649784E-01 +4.52452174255E-05 -2.93258209302E-04 +7.06231956469E-05 -3.06892423971E-04 -5.31662099388E-01 +8.04821396984E-01
1.25500000000E+09 -3.45617126922E-01 +8.63770296102E-01 +3.10701907780E-05 -2.82800013675E-04 +1.00566864038E-04 -3.16981214097E-04 -5.24758468230E-01 +8.08734824213E-01
1.26000000000E+09 -3.40285167703E-01 +8.65677650131E-01 +2.85417607381E-05 -3.33808150190E-04 +1.15403597124E-05 -3.49747984404E-04 -5.18120146167E-01 +8.13078479824E-01
1.26500000000E+09 -3.35243775330E-01 +8.67135379816E-01 +1.04029901095E-05 -3.10021027391E-04 -2.72228352253E-06 -3.44405460947E-04 -5.11033656938E-01 +8.17107777886E-01
1.27000000000E+09 -3.29889282060E-01 +8.68297202541E-01 -9.50691472379E-05 -3.76839141223E-04 -7.57517059087E-05 -3.96819568162E-04 -5.04240482614E-01 +8.20792216387E-01
1.27500000000E+09 -3.23578009201E-01 +8.69591808609E-01 -9.04913613381E-05 -3.86574476033E-04 -1.03690344473E-04 -3.83726607429E-04 -4.97210703937E-01 +8.24324479285E-01
1.28000000000E+09 -3.15300078654E-01 +8.71162590327E-01 -1.96308538831E-04 -3.65621852337E-04 -1.78364414868E-04 -3.91158131213E-04 -4.90283085063E-01 +8.27926343988E-01
1.28500000000E+09 -3.04930724138E-01 +8.73328378176E-01 -2.34388189215E-04 -3.72683332189E-04 -2.03928697044E-04 -3.98218343357E-04 -4.82884182658E-01 +8.31395338425E-01
1.29000000000E+09 -2.93222255908E-01 +8.75739261334E-01 -2.00559376342E-04 -3.94556922577E-04 -2.05647117921E-04 -3.60871421561E-04 -4.75387709971E-01 +8.35112222365E-01
1.29500000000E+09 -2.80823577097E-01 +8.78705850194E-01 -2.45613960627E-04 -3.73812755676E-04 -2.82684267503E-04 -3.52426597114E-04 -4.67575964063E-01 +8.38619012832E-01
1.30000000000E+09 -2.68520187165E-01 +8.81985190541E-01 -3.63820102984E-04 -3.70210809442E-04 -3.76486510594E-04 -3.43133063225E-04 -4.59605313736E-01 +8.42231005968E-01
1.30500000000E+09 -2.57186222363E-01 +8.85135933216E-01 -3.75565677486E-04 -3.66918941047E-04 -4.13751352110E-04 -3.34953609615E-04 -4.51443016349E-01 +8.45732957449E-01
1.31000000000E+09 -2.47437622206E-01 +8.87677252876E-01 -5.05485918339E-04 -3.10456055266E-04 -4.00916222366E-04 -2.86423926289E-04 -4.43173834593E-01 +8.49083934787E-01
1.31500000000E+09 -2.39522811725E-01 +8.89525007450E-01 -4.77911004435E-04 -2.35866606837E-04 -4.53109133933E-04 -2.48616952260E-04 -4.34410714523E-01 +8.52402876789E-01
1.32000000000E+09 -2.33263825641E-01 +8.90740201329E-01 -4.93781481977E-04 -2.12483181081E-04 -5.35525147815E-04 -2.64788690202E-04 -4.25343508705E-01 +8.55951634064E-01
1.32500000000E+09 -2.27533463835E-01 +8.91240835099E-01 -5.14066105201E-04 -1.84965240031E-04 -5.79688282922E-04 -2.45258268989E-04 -4.15522678040E-01 +8.59243875235E-01
1.33000000000E+09 -2.21067687195E-01 +8.91507274667E-01 -5.36872644281E-04 -2.03827089265E-04 -6.03943586865E-04 -1.98039849729E-04 -4.05838936451E-01 +8.62443104284E-01
1.33500000000E+09 -2.12918580507E-01 +8.91371292185E-01 -6.48703942643E-04 -1.69359866404E-04 -6.18097507037E-04 -8.89216500972E-05 -3.95794712206E-01 +8.65804408750E-01
1.34000000000E+09 -2.02370716098E-01 +8.91298172117E-01 -7.07837677799E-04 -1.29608530243E-04 -6.39738551684E-04 -7.59282045424E-05 -3.85732278138E-01 +8.69061011170E-01
1.34500000000E+09 -1.88937879013E-01 +8.91184318467E-01 -7.77399695900E-04 -4.22578765657E-05 -7.02431702907E-04 -4.14252691857E-05 -3.74879819088E-01 +8.72309532804E-01
1.35000000000E+09 -1.73511506669E-01 +8.91122255066E-01 -7.76035711490E-04 +5.99907772925E-05 -8.51790590316E-04 +7.06459751622E-05 -3.63684318881E-01 +8.75385481374E-01
1.35500000000E+09 -1.56775534331E-01 +8.91226984986E-01 -8.28455494279E-04 +1.31805450955E-04 -8.25977102921E-04 +1.14163669363E-04 -3.51897563764E-01 +8.78025945089E-01
1.36000000000E+09 -1.39996848850E-01 +8.91647450920E-01 -8.10249706106E-04 +1.86146925278E-04 -8.11346068601E-04 +1.77850997358E-04 -3.39944361439E-01 +8.80783130870E-01
1.36500000000E+09 -1.24093515361E-01 +8.92167719875E-01 -9.23096427291E-04 +2.40547549261E-04 -8.40601351255E-04 +2.03972053888E-04 -3.27918251504E-01 +8.83202864223E-01
1.37000000000E+09 -1.09723759802E-01 +8.92287522976E-01 -9.63677949183E-04 +3.48306000920E-04 -8.75943178616E-04 +2.33978935531E-04 -3.14963009257E-01 +8.85627528380E-01
1.37500000000E+09 -9.73277926739E-02 +8.92492092441E-01 -1.03963211935E-03 +4.69317823451E-04 -1.03579777296E-03 +3.50610682413E-04 -3.01256886627E-01 +8.87836801405E-01
1.38000000000E+09 -8.61442846475E-02 +8.91888515820E-01 -1.04169392845E-03 +6.63490230169E-04 -1.20440279001E-03 +5.15729738195E-04 -2.86719686684E-01 +8.89756672526E-01
1.38500000000E+09 -7.52450820932E-02 +8.90883471002E-01 -1.00212733066E-03 +8.50141958451E-04 -1.19583579308E-03 +8.32988293977E-04 -2.71259613561E-01 +8.91520260570E-01
1.39000000000E+09 -6.39695454027E-02 +8.89115675317E-01 -9.31370739195E-04 +9.80491201963E-04 -1.04914295677E-03 +1.12994628319E-03 -2.55240502041E-01 +8.92880411544E-01
1.39500000000E+09 -5.05008831264E-02 +8.86580266940E-01 -9.44844619317E-04 +1.05724595267E-03 -9.67798453937E-04 +1.28587417895E-03 -2.38440096240E-01 +8.93488424316E-01
1.40000000000E+09 -3.43175137014E-02 +8.82883648289E-01 -9.39114399801E-04 +1.28233893891E-03 -8.29733222359E-04 +1.40070235611E-03 -2.20923710647E-01 +8.93946153192E-01
1.40500000000E+09 -1.56643961418E-02 +8.78290705700E-01 -8.82424724681E-04 +1.52506596817E-03 -7.65699411284E-04 +1.48665519577E-03 -2.02286009274E-01 +8.93941508892E-01
1.41000000000E+09 +5.33707166781E-03 +8.72845716233E-01 -7.55984571301E-04 +1.73795305029E-03 -7.42742507068E-04 +1.67870378916E-03 -1.82251861190E-01 +8.92941966578E-01
1.41500000000E+09 +2.76750156725E-02 +8.66599104524E-01 -5.34611394912E-04 +1.86595306313E-03 -6.07880517581E-04 +1.96602641182E-03 -1.60948719958E-01 +8.91616182700E-01
1.42000000000E+09 +5.07207745606E-02 +8.60176367311E-01 -4.95841395172E-04 +2.00740490944E-03 -5.78074237231E-04 +2.15628923730E-03 -1.38075902945E-01 +8.89060488661E-01
1.42500000000E+09 +7.32985725660E-02 +8.52813800641E-01 -4.32427213628E-04 +2.32890655579E-03 -3.51863497941E-04 +2.61947989907E-03 -1.14363930916E-01 +8.85425626591E-01
1.43000000000E+09 +9.50839705436E-02 +8.44427953740E-01 -1.13707333624E-04 +2.73602800550E-03 +1.25790877765E-04 +3.01751857316E-03 -8.95612346781E-02 +8.80575303456E-01
1.43500000000E+09 +1.15987860203E-01 +8.35004898561E-01 +4.55619991214E-04 +2.97845015224E-03 +7.17110342122E-04 +3.05408954321E-03 -6.29975806772E-02 +8.73935339534E-01
1.44000000000E+09 +1.36863698868E-01 +8.24284098708E-01 +8.31504731258E-04 +3.10152782040E-03 +1.04032658712E-03 +3.03134733759E-03 -3.50315066354E-02 +8.65303763078E-01
1.44500000000E+09 +1.59110260818E-01 +8.11042585522E-01 +1.34978238870E-03 +3.09382177178E-03 +1.51869164381E-03 +3.12453092096E-03 -4.82460806678E-03 +8.54006375591E-01
1.45000000000E+09 +1.83227313963E-01 +7.94187658627E-01 +1.48831470445E-03 +3.18284239331E-03 +1.74743525862E-03 +3.14657121758E-03 +2.72207666542E-02 +8.38978610761E-01
1.45500000000E+09 +2.09155758912E-01 +7.73404029309E-01 +1.86166576750E-03 +3.70344502867E-03 +2.23509266435E-03 +3.55104950273E-03 +5.97842371581E-02 +8.21204787834E-01
1.46000000000E+09 +2.37652772652E-01 +7.48050709769E-01 +2.85985558307E-03 +4.25696347139E-03 +3.15630174298E-03 +3.78231362446E-03 +9.48552401738E-02 +8.00119770050E-01
1.46500000000E+09 +2.68033062800E-01 +7.18047603435E-01 +4.17933996485E-03 +4.40430243588E-03 +4.14220673982E-03 +3.79192130178E-03 +1.31617341410E-01 +7.73031576172E-01
1.47000000000E+09 +2.99701019787E-01 +6.82661111599E-01 +5.99489016713E-03 +4.16473899342E-03 +5.52408518782E-03 +3.81143128547E-03 +1.68706179471E-01 +7.38785523029E-01
1.47500000000E+09 +3.30958910514E-01 +6.41582034275E-01 +7.43553659212E-03 +2.84751394486E-03 +7.03593789595E-03 +3.00895720615E-03 +2.05390108535E-01 +6.97887741482E-01
1.48000000000E+09 +3.59780957355E-01 +5.93775426747E-01 +8.33001019843E-03 +1.74931491813E-03 +8.34880087905E-03 +2.02858885711E-03 +2.41676276388E-01 +6.48623205698E-01
1.48500000000E+09 +3.83200969807E-01 +5.39567711132E-01 +9.63667215088E-03 +6.54428335760E-04 +9.91467740500E-03 +5.05913159367E-04 +2.75794128803E-01 +5.90253427453E-01
1.49000000000E+09 +4.00061443591E-01 +4.78978084867E-01 +1.14161184193E-02 -1.26564760605E-03 +1.13488596484E-02 -1.87910169410E-03 +3.05514888951E-01 +5.20625599647E-01
1.49500000000E+09 +4.09291558182E-01 +4.12296134827E-01 +1.25085435929E-02 -4.43776895108E-03 +1.17056886548E-02 -4.77962975744E-03 +3.23668148377E-01 +4.38811067250E-01
1.50000000000E+09 +4.09378123795E-01 +3.36834386271E-01 +1.29328710362E-02 -8.24740391180E-03 +1.21352709557E-02 -7.78918522086E-03 +3.27943862728E-01 +3.50161221511E-01
1.50500000000E+09 +3.97060614824E-01 +2.53902136866E-01 +1.14957415271E-02 -1.31772803953E-02 +1.14072015169E-02 -1.22985587295E-02 +3.17022475339E-01 +2.53486994652E-01
1.51000000000E+09 +3.68377261598E-01 +1.64153982182E-01 +8.55996242556E-03 -1.77790257528E-02 +9.08682993768E-03 -1.72007160529E-02 +2.85364478990E-01 +1.51829986583E-01
1.51500000000E+09 +3.20135931869E-01 +7.49070385036E-02 +2.58251458167E-03 -2.16826276430E-02 +3.10879327843E-03 -2.17423388411E-02 +2.29075606499E-01 +5.34595152677E-02
1.52000000000E+09 +2.52913374130E-01 -7.71424354428E-03 -5.41233378959E-03 -2.22280398887E-02 -5.17488198653E-03 -2.25177879806E-02 +1.51394953198E-01 -3.29047453734E-02
1.52500000000E+09 +1.67872783615E-01 -7.73322424903E-02 -1.16307531739E-02 -1.83599695927E-02 -1.16109599276E-02 -1.85673120178E-02 +5.53374518780E-02 -1.00985313134E-01
1.53000000000E+09 +6.94235451397E-02 -1.26321298905E-01 -1.49885905122E-02 -1.46655564103E-02 -1.50670314880E-02 -1.48116751787E-02 -5.32870807968E-02 -1.46425925851E-01
1.53500000000E+09 -3.65059281302E-02 -1.52227454145E-01 -1.86385368388E-02 -1.10375591146E-02 -1.86751183741E-02 -1.10957234534E-02 -1.67406365043E-01 -1.64642432928E-01
1.54000000000E+09 -1.44255810798E-01 -1.54017977354E-01 -2.14643395490E-02 -5.30172443881E-03 -2.13106600986E-02 -5.30472734869E-03 -2.76952483390E-01 -1.58581926413E-01
1.54500000000E+09 -2.47915153805E-01 -1.31440229015E-01 -2.15832866527E-02 +1.88429687975E-03 -2.14076309998E-02 +1.40272826592E-03 -3.74038788660E-01 -1.32272320670E-01
1.55000000000E+09 -3.41022870260E-01 -8.94198634445E-02 -1.83039217643E-02 +7.55201788088E-03 -1.86038334114E-02 +6.87885580020E-03 -4.58112035280E-01 -9.41312017020E-02
1.55500000000E+09 -4.18276407927E-01 -3.32064150495E-02 -1.45538153137E-02 +1.08779290547E-02 -1.52845501165E-02 +1.05008316418E-02 -5.27967018015E-01 -4.60269767335E-02
1.56000000000E+09 -4.78650282661E-01 +2.71598463226E-02 -1.01907857521E-02 +1.30228870354E-02 -1.11447134350E-02 +1.33166251222E-02 -5.83728872268E-01 +7.69747305458E-03
1.56500000000E+09 -5.26234284896E-01 +8.66069700176E-02 -5.98060788763E-03 +1.33573777745E-02 -6.53983839757E-03 +1.41016113585E-02 -6.26388955138E-01 +6.25069383253E-02
1.57000000000E+09 -5.64198924559E-01 +1.44677938954E-01 -2.81142993824E-03 +1.24226731845E-02 -2.82845249860E-03 +1.32737390140E-02 -6.59342824811E-01 +1.17071259650E-01
