# Hz S RI R 50
! CMT, C1220, 16058040, 17.2.0/1
! Date: 14/08/2018 11:57:45
! Data: Format (Calibration Info)
! Freq                      S11: Re/Im (F2)                       S21: Re/Im (F2)                       S12: Re/Im (F2)                       S22: Re/Im (F2)            
1.00000000000E+09 -6.44653960704E-01 +7.12312579378E-01 -8.77594249577E-06 -1.92462456691E-05 -2.15720517870E-06 +2.67706868716E-06 -7.50078225282E-01 +6.27032379004E-01
1.00500000000E+09 -6.37591508059E-01 +7.17120019535E-01 -1.80106503857E-05 +2.35041580223E-05 -1.05718435174E-05 +2.41577058652E-05 -7.46369791568E-01 +6.30984615219E-01
1.01000000000E+09 -6.31609267322E-01 +7.21557537889E-01 -4.18585667830E-05 +1.47458562913E-05 -2.72678857963E-05 +2.69036593726E-05 -7.42836487994E-01 +6.34859267378E-01
1.01500000000E+09 -6.27145989769E-01 +7.25349366742E-01 -4.36416013618E-05 +9.26003964015E-06 +7.90726900764E-06 +3.23350307867E-05 -7.39302090711E-01 +6.38594627780E-01
1.02000000000E+09 -6.24076857392E-01 +7.28434061095E-01 -8.29532545931E-06 -2.02698317916E-05 +7.37206849998E-06 -4.98946693531E-05 -7.35970688868E-01 +6.42175422410E-01
1.02500000000E+09 -6.21924745386E-01 +7.31174266321E-01 -3.51234850834E-05 +2.31366446220E-06 -5.93563834042E-05 +4.32415472392E-06 -7.32934018470E-01 +6.45905040059E-01
1.03000000000E+09 -6.20406205966E-01 +7.33369452188E-01 -5.70926403246E-05 +3.01719138377E-05 -1.74034363927E-05 +2.75494551937E-07 -7.29340793605E-01 +6.49772194038E-01
1.03500000000E+09 -6.17959727089E-01 +7.35774453133E-01 -4.69470939606E-05 +4.25920489659E-05 -4.36798533460E-05 +4.77810005244E-06 -7.25652577445E-01 +6.53594697530E-01
1.04000000000E+09 -6.14506739394E-01 +7.38772532053E-01 -5.98942504768E-05 +3.55517839300E-05 -2.28744040276E-05 +3.89007602687E-05 -7.21812612496E-01 +6.57257996353E-01
1.04500000000E+09 -6.09515202867E-01 +7.42255025397E-01 -5.21285979369E-05 +4.48359963882E-05 -7.01062649087E-05 +5.15739875331E-05 -7.18362178885E-01 +6.60835170050E-01
1.05000000000E+09 -6.02613635996E-01 +7.46212129269E-01 -1.74867581040E-05 +2.85496463870E-05 -2.86490284172E-05 +4.26211960610E-05 -7.14816786053E-01 +6.64193549172E-01
1.05500000000E+09 -5.94683087132E-01 +7.50768693005E-01 -5.11830876378E-05 +4.73732292339E-05 -6.01607149527E-06 +3.68897693276E-05 -7.11506206646E-01 +6.67687961905E-01
1.06000000000E+09 -5.86158722108E-01 +7.55652915360E-01 -1.05129178380E-06 +3.98616149304E-05 -2.93394349353E-05 +2.49715190351E-05 -7.08168969164E-01 +6.71553351467E-01
1.06500000000E+09 -5.78100712705E-01 +7.60501025148E-01 -6.95196030046E-05 +6.39696300486E-05 -1.41827277498E-05 +8.57001781742E-05 -7.04513414034E-01 +6.75202541576E-01
1.07000000000E+09 -5.71240318271E-01 +7.64533112416E-01 +1.37173490835E-05 +5.83681489788E-05 -8.51042272668E-06 +4.74843853886E-05 -7.00500384475E-01 +6.78715708425E-01
1.07500000000E+09 -5.65849368996E-01 +7.68313093282E-01 -5.75628361652E-05 +7.00167042479E-05 -1.87452721656E-05 +3.37504047801E-05 -6.96198119303E-01 +6.82569570120E-01
1.08000000000E+09 -5.62160529241E-01 +7.71382712356E-01 +1.41607506324E-05 +8.14261608074E-05 -2.77392723118E-05 +3.87439196427E-05 -6.92102033960E-01 +6.86278513570E-01
1.08500000000E+09 -5.59636619381E-01 +7.73993569731E-01 +1.83370675129E-05 +5.21319008092E-05 +3.81028420557E-05 +9.91215631288E-05 -6.88093664506E-01 +6.90123048970E-01
1.09000000000E+09 -5.57562934504E-01 +7.75957207921E-01 -1.34537046486E-05 +6.11739284840E-05 +2.95407073875E-05 +3.91674630054E-05 -6.84147259549E-01 +6.93800862149E-01
1.09500000000E+09 -5.55880008152E-01 +7.78026994065E-01 -2.80863534201E-05 +6.45108900351E-05 -3.21023268756E-05 +4.15976830076E-05 -6.80446113338E-01 +6.97818248095E-01
1.10000000000E+09 -5.52484746880E-01 +7.80164731852E-01 +8.85152143988E-07 +1.10485878837E-04 +8.29067012744E-06 +1.16795886282E-04 -6.76475940793E-01 +7.01677093952E-01
1.10500000000E+09 -5.48049418149E-01 +7.82877279527E-01 +2.80814858795E-05 +3.19891543973E-05 +3.04092470552E-05 +4.95156118542E-05 -6.72284792157E-01 +7.05122580212E-01
1.11000000000E+09 -5.41924524460E-01 +7.86140947977E-01 +1.84992440269E-05 +5.82623028288E-05 +1.05601217255E-05 +6.44180321819E-05 -6.67910800717E-01 +7.08560689424E-01
1.11500000000E+09 -5.34546025388E-01 +7.89954953878E-01 +4.32367802585E-05 +6.95959333306E-05 +1.08642103263E-05 +1.44029860570E-04 -6.63672654462E-01 +7.12125220638E-01
1.12000000000E+09 -5.26506769340E-01 +7.93859456377E-01 +3.74262906841E-05 +8.19561358246E-05 +5.78447149578E-05 +5.76364352071E-05 -6.59687280555E-01 +7.15712981546E-01
1.12500000000E+09 -5.18403540758E-01 +7.97763439736E-01 +7.42446143827E-05 +5.25675321641E-05 +3.47981865235E-05 +1.11684982981E-04 -6.55396716009E-01 +7.19667722908E-01
1.13000000000E+09 -5.11451197055E-01 +8.01422663934E-01 +4.71766891627E-05 +9.86665571400E-05 +7.89088938735E-05 +6.95027904636E-05 -6.51065019084E-01 +7.23327664335E-01
1.13500000000E+09 -5.05531250068E-01 +8.04407244916E-01 +8.65409844342E-05 +1.00795632452E-04 +6.45570605265E-06 +8.91680364730E-05 -6.46444712092E-01 +7.27135540868E-01
1.14000000000E+09 -5.00769402571E-01 +8.07090331603E-01 +5.45117091430E-05 +5.38725774658E-05 +7.16811592105E-05 +8.38933391863E-05 -6.41768117669E-01 +7.30511581344E-01
1.14500000000E+09 -4.97134122309E-01 +8.09191051305E-01 +9.58148994976E-05 +5.30123835062E-05 +7.74306151317E-05 +6.74601048001E-05 -6.37110907859E-01 +7.34001834784E-01
1.15000000000E+09 -4.93685071480E-01 +8.10914750413E-01 +8.94266801172E-05 +4.99426811921E-05 +7.83628927898E-05 +8.51253250008E-05 -6.32544255685E-01 +7.37668719756E-01
1.15500000000E+09 -4.90002610705E-01 +8.13015142982E-01 +9.03584115963E-05 +7.72433068094E-05 +1.14844955224E-04 +7.29841902631E-05 -6.27532182169E-01 +7.41582700441E-01
1.16000000000E+09 -4.85152880434E-01 +8.15135515369E-01 +9.75250412787E-05 +7.65395507208E-05 +7.63102466924E-05 +8.42890770975E-05 -6.22701450895E-01 +7.45290320336E-01
1.16500000000E+09 -4.79230223072E-01 +8.17959497725E-01 +1.23215621110E-04 +4.56125701402E-05 +1.52634730472E-04 +6.52615853805E-05 -6.17571590929E-01 +7.49007149158E-01
1.17000000000E+09 -4.71944827061E-01 +8.21020838717E-01 +1.19954007587E-04 +4.10888525499E-05 +1.10110651748E-04 +3.63466732414E-05 -6.12244300262E-01 +7.52367664393E-01
1.17500000000E+09 -4.63723752997E-01 +8.24345281872E-01 +1.37989674003E-04 +7.38154417914E-05 +1.91401685858E-04 +2.21850238721E-05 -6.06449241989E-01 +7.55441158060E-01
1.18000000000E+09 -4.55350075839E-01 +8.27880142047E-01 +1.74309705914E-04 +2.92225869484E-05 +1.85579637682E-04 +6.68736607730E-05 -6.00805570997E-01 +7.58562834550E-01
1.18500000000E+09 -4.47080007198E-01 +8.31162833322E-01 +1.85388884999E-04 +5.12880863715E-05 +2.27127972153E-04 -7.59512363388E-06 -5.94974780883E-01 +7.61497937880E-01
1.19000000000E+09 -4.39830623904E-01 +8.33728659191E-01 +2.15930177246E-04 -2.60448205037E-05 +2.47487330553E-04 +2.00047987477E-05 -5.88630829486E-01 +7.64127904037E-01
1.19500000000E+09 -4.33792443880E-01 +8.35800018560E-01 +2.51654071369E-04 -5.18950936629E-05 +3.04870154557E-04 -8.20381418791E-05 -5.82763055707E-01 +7.65256601768E-01
1.20000000000E+09 -4.29138397439E-01 +8.36751589797E-01 +2.78791999473E-04 -1.00444860881E-04 +2.95192620825E-04 -1.22332451942E-04 -5.78032555386E-01 +7.65422199513E-01
1.20500000000E+09 -4.25359728868E-01 +8.38218209291E-01 +2.62695544616E-04 -1.69835139624E-04 +2.11496804674E-04 -2.08644451786E-04 -5.75825732487E-01 +7.66309838962E-01
1.21000000000E+09 -4.21387439641E-01 +8.39702337432E-01 +2.02050424307E-04 -2.35541449101E-04 +1.69040322536E-04 -1.96828203186E-04 -5.73940601528E-01 +7.69370715813E-01
1.21500000000E+09 -4.16465463154E-01 +8.41416582505E-01 +1.36651552431E-04 -2.52161741918E-04 +1.12720435879E-04 -2.02427276442E-04 -5.71219246721E-01 +7.73733084581E-01
1.22000000000E+09 -4.09607078545E-01 +8.43620974788E-01 +1.00294065327E-04 -1.87314251482E-04 +1.46455240652E-04 -1.72973364708E-04 -5.67084617110E-01 +7.79168535256E-01
1.22500000000E+09 -4.01498718397E-01 +8.46230798742E-01 +8.79547565189E-05 -1.88579155815E-04 +1.32102662372E-04 -1.97676445074E-04 -5.61951964824E-01 +7.84165779235E-01
1.23000000000E+09 -3.91978346289E-01 +8.49451782510E-01 +1.27056805084E-04 -2.06296267375E-04 +1.09049890654E-04 -2.20716891488E-04 -5.56227940726E-01 +7.88895733401E-01
1.23500000000E+09 -3.81907831714E-01 +8.53023509963E-01 +1.15470321483E-04 -2.50860212619E-04 +1.38412595933E-04 -2.75078135789E-04 -5.50312772015E-01 +7.93299321318E-01
1.24000000000E+09 -3.71659724665E-01 +8.56544794557E-01 +1.03717315296E-04 -2.53165423342E-04 +9.78153466996E-05 -2.32406332573E-04 -5.44424244516E-01 +7.97007664391E-01
1.24500000000E+09 -3.62408247228E-01 +8.60422457791E-01 +1.03209032965E-04 -2.78043268150E-04 +1.08347026178E-04 -2.54294441941E-04 -5.37963029988E-01 +8.00895952063E-01
1.25000000000E+09 -3.54284320698E-01 +8.63636375325E-01 +6.24165902758E-05 -2.79620022420E-04 +8.16760130592E-05 -2.98922207454E-04 -5.31389595319E-01 +8.05153336784E-01
1.25500000000E+09 -3.47492732058E-01 +8.66080771250E-01 +8.23718964840E-05 -2.93807173019E-04 +1.75341557701E-05 -3.57807853036E-04 -5.24562703981E-01 +8.09049036629E-01
1.26000000000E+09 -3.41934993966E-01 +8.68076256037E-01 +5.34132210971E-05 -3.15688431478E-04 +5.92279136435E-05 -3.72218717731E-04 -5.17748946960E-01 +8.13317017251E-01
1.26500000000E+09 -3.36863762400E-01 +8.69477201016E-01 -2.24656820046E-05 -3.47171399212E-04 -2.58203199271E-05 -3.90805912189E-04 -5.10810517642E-01 +8.17274665945E-01
1.27000000000E+09 -3.31389248366E-01 +8.70726681390E-01 -4.91865969500E-05 -3.99976660671E-04 -5.25305353928E-05 -3.64328698152E-04 -5.04079514741E-01 +8.21050296336E-01
1.27500000000E+09 -3.25022998749E-01 +8.72169305609E-01 -1.03942514706E-04 -4.10992799315E-04 -9.89544076945E-05 -4.04055816629E-04 -4.97099021494E-01 +8.24641515657E-01
1.28000000000E+09 -3.16854517612E-01 +8.73806383730E-01 -2.16394087143E-04 -4.37869411658E-04 -1.58591496925E-04 -4.17270899125E-04 -4.89917710259E-01 +8.28087757657E-01
1.28500000000E+09 -3.06392580367E-01 +8.75869597805E-01 -2.59300512394E-04 -3.17352419784E-04 -2.58226792477E-04 -4.15497027657E-04 -4.82698115394E-01 +8.31811884846E-01
1.29000000000E+09 -2.94713876415E-01 +8.78237081342E-01 -2.24498157227E-04 -3.29483413086E-04 -2.92810961466E-04 -3.74413757558E-04 -4.75030432738E-01 +8.35442128269E-01
1.29500000000E+09 -2.82342505233E-01 +8.81161309642E-01 -2.47305220385E-04 -4.02921231654E-04 -3.14738945074E-04 -3.64848985064E-04 -4.67199210272E-01 +8.38901842924E-01
1.30000000000E+09 -2.70013763243E-01 +8.84249858299E-01 -3.16887387534E-04 -3.63831997493E-04 -3.69125613275E-04 -3.77531442727E-04 -4.59305534448E-01 +8.42496565677E-01
1.30500000000E+09 -2.58997570107E-01 +8.87185450990E-01 -4.00855050300E-04 -3.72180016250E-04 -3.79776832212E-04 -3.03993086086E-04 -4.51131882217E-01 +8.45876465119E-01
1.31000000000E+09 -2.49307062121E-01 +8.89672648769E-01 -4.56774357599E-04 -3.27151801739E-04 -4.27549512013E-04 -2.89412065723E-04 -4.42859261545E-01 +8.49180184665E-01
1.31500000000E+09 -2.41403309447E-01 +8.91615582333E-01 -4.93873828977E-04 -2.77431781225E-04 -4.40864852524E-04 -2.58792948833E-04 -4.34108440307E-01 +8.52682101092E-01
1.32000000000E+09 -2.35118924174E-01 +8.92752605777E-01 -5.04459943675E-04 -1.96658188517E-04 -5.24707972794E-04 -2.40090605715E-04 -4.24829507639E-01 +8.56075538684E-01
1.32500000000E+09 -2.29325047662E-01 +8.93503388656E-01 -5.14890554158E-04 -2.12682047198E-04 -5.76434998173E-04 -1.73427592976E-04 -4.15305404876E-01 +8.59546472319E-01
1.33000000000E+09 -2.22690015122E-01 +8.93751755371E-01 -5.42975984913E-04 -2.28413233277E-04 -6.19091671527E-04 -1.48168632535E-04 -4.05471770522E-01 +8.62815670581E-01
1.33500000000E+09 -2.14517396200E-01 +8.93855033470E-01 -6.51765065339E-04 -1.53634904485E-04 -6.91271499023E-04 -1.23628090525E-04 -3.95561905711E-01 +8.66053728544E-01
1.34000000000E+09 -2.03930454797E-01 +8.93907482418E-01 -7.05001432258E-04 -7.63096231353E-05 -6.98448634003E-04 -1.19523327099E-04 -3.85375794437E-01 +8.69345789062E-01
1.34500000000E+09 -1.90560340359E-01 +8.93745037951E-01 -7.98262752027E-04 -7.46367413367E-05 -7.64419470682E-04 -6.90805127591E-05 -3.74414789869E-01 +8.72464176483E-01
1.35000000000E+09 -1.75146623917E-01 +8.93608649196E-01 -8.23470579044E-04 +3.15141398247E-05 -8.08221969749E-04 +5.54160334187E-05 -3.63261320673E-01 +8.75658742300E-01
1.35500000000E+09 -1.58638865457E-01 +8.93637210606E-01 -8.33213008735E-04 +1.34459266843E-04 -8.80579453025E-04 +1.56269716166E-04 -3.51682462875E-01 +8.78327606964E-01
1.36000000000E+09 -1.41856738872E-01 +8.93973830836E-01 -8.70161905630E-04 +2.09951525106E-04 -8.75763707918E-04 +2.51905910315E-04 -3.39745122063E-01 +8.81023457350E-01
1.36500000000E+09 -1.25817294959E-01 +8.94483176961E-01 -9.12952263429E-04 +2.27092104953E-04 -8.76566147613E-04 +2.50336295689E-04 -3.27505910718E-01 +8.83426072519E-01
1.37000000000E+09 -1.11423384587E-01 +8.94469011415E-01 -9.91231199564E-04 +3.70674091505E-04 -9.40877669852E-04 +3.15608759143E-04 -3.14694806416E-01 +8.85866668466E-01
1.37500000000E+09 -9.88353159674E-02 +8.94592807834E-01 -1.01707941102E-03 +5.45962313552E-04 -1.03139179815E-03 +3.72557596441E-04 -3.00885565916E-01 +8.87955930313E-01
1.38000000000E+09 -8.75865759436E-02 +8.94115172265E-01 -1.03400976610E-03 +6.88548418892E-04 -1.10243536953E-03 +5.74378930196E-04 -2.86335910095E-01 +8.89881844567E-01
1.38500000000E+09 -7.66106676275E-02 +8.93133082503E-01 -9.65285006396E-04 +8.54995205754E-04 -1.19123887786E-03 +8.99995959628E-04 -2.70957520940E-01 +8.91745093334E-01
1.39000000000E+09 -6.50249128729E-02 +8.91450202142E-01 -9.31546952221E-04 +1.01761522155E-03 -1.03343520058E-03 +1.12137565964E-03 -2.55020020432E-01 +8.93307450185E-01
1.39500000000E+09 -5.14373592282E-02 +8.88956114708E-01 -9.04357649666E-04 +1.10709377211E-03 -9.20793195501E-04 +1.28539399462E-03 -2.38146687102E-01 +8.93883138937E-01
1.40000000000E+09 -3.51241209786E-02 +8.85304746549E-01 -8.98742356760E-04 +1.29293326991E-03 -7.83835629899E-04 +1.43091820302E-03 -2.20607540188E-01 +8.94372921109E-01
1.40500000000E+09 -1.65462690132E-02 +8.80638155459E-01 -8.18153461960E-04 +1.54968428540E-03 -7.13119127031E-04 +1.51848021868E-03 -2.01864684744E-01 +8.94084541116E-01
1.41000000000E+09 +4.16512162148E-03 +8.75303132997E-01 -6.47475296581E-04 +1.66175028585E-03 -6.66947793482E-04 +1.65029345589E-03 -1.81806816672E-01 +8.93206675637E-01
1.41500000000E+09 +2.63646925273E-02 +8.69015645119E-01 -5.47801073495E-04 +1.79685547593E-03 -6.27476408599E-04 +1.81867469884E-03 -1.60445671625E-01 +8.91768415708E-01
1.42000000000E+09 +4.92927381633E-02 +8.62455947512E-01 -4.82268838555E-04 +2.00002767786E-03 -6.17388963558E-04 +2.11092641970E-03 -1.37649296503E-01 +8.89097337480E-01
1.42500000000E+09 +7.16975460554E-02 +8.55035606452E-01 -4.23111939813E-04 +2.27951173462E-03 -3.84570650495E-04 +2.54899099406E-03 -1.13803154641E-01 +8.85350590139E-01
1.43000000000E+09 +9.34456552640E-02 +8.46842569790E-01 -1.05605768462E-04 +2.71816810916E-03 +1.17845420599E-04 +2.97387355516E-03 -8.89622168990E-02 +8.80451017646E-01
1.43500000000E+09 +1.14657693754E-01 +8.37326363437E-01 +3.42278259263E-04 +2.96341661153E-03 +6.51536639602E-04 +3.01821264105E-03 -6.28108792337E-02 +8.73652349188E-01
1.44000000000E+09 +1.35824737205E-01 +8.26621637732E-01 +7.71864741902E-04 +3.10916444936E-03 +1.00402975313E-03 +3.10784921368E-03 -3.49652680091E-02 +8.64993403100E-01
1.44500000000E+09 +1.58312546459E-01 +8.13349953913E-01 +1.33962585490E-03 +3.14448722671E-03 +1.53281360030E-03 +3.11878455983E-03 -4.90017455733E-03 +8.53820120891E-01
1.45000000000E+09 +1.82531372690E-01 +7.96473032629E-01 +1.52115581019E-03 +3.23257028629E-03 +1.78626000282E-03 +3.17394270904E-03 +2.70077817367E-02 +8.38873177290E-01
1.45500000000E+09 +2.08904619563E-01 +7.75656168611E-01 +1.90126317934E-03 +3.68388055263E-03 +2.23839969677E-03 +3.53069559362E-03 +5.96577526286E-02 +8.21016026267E-01
1.46000000000E+09 +2.37383288318E-01 +7.50302537944E-01 +2.89198156980E-03 +4.27561627587E-03 +3.16783402675E-03 +3.75486002845E-03 +9.43253268555E-02 +7.99973669726E-01
1.46500000000E+09 +2.67829662913E-01 +7.20380025085E-01 +4.25971374714E-03 +4.33426875234E-03 +4.15049958248E-03 +3.76136233631E-03 +1.30909928409E-01 +7.73233632843E-01
1.47000000000E+09 +2.99727478146E-01 +6.84968779021E-01 +5.97310521432E-03 +3.99485067697E-03 +5.51151078656E-03 +3.64074226173E-03 +1.67985418592E-01 +7.39555461574E-01
1.47500000000E+09 +3.30978917653E-01 +6.43630741191E-01 +7.33901879777E-03 +2.73124800835E-03 +6.95234644254E-03 +2.86221692226E-03 +2.04888040765E-01 +6.98659176619E-01
1.48000000000E+09 +3.59884148595E-01 +5.95614632722E-01 +8.25217030009E-03 +1.60414185169E-03 +8.25662013602E-03 +1.87574369366E-03 +2.40987011555E-01 +6.49428417685E-01
1.48500000000E+09 +3.83661457387E-01 +5.41021075841E-01 +9.28312250943E-03 +4.95056421840E-04 +9.54394414597E-03 +3.44730490432E-04 +2.75048653714E-01 +5.91360554590E-01
1.49000000000E+09 +4.00627047076E-01 +4.79970780039E-01 +1.09597995985E-02 -1.18247197280E-03 +1.08425195334E-02 -1.75869481966E-03 +3.04678733166E-01 +5.21973969839E-01
1.49500000000E+09 +4.10284500743E-01 +4.12544058919E-01 +1.19606048480E-02 -4.20120725264E-03 +1.12240101169E-02 -4.47892551539E-03 +3.23227652677E-01 +4.40828817823E-01
1.50000000000E+09 +4.10425473049E-01 +3.36153479098E-01 +1.24445705453E-02 -7.59632701893E-03 +1.16999910099E-02 -7.20554809605E-03 +3.27568702692E-01 +3.52051641963E-01
1.50500000000E+09 +3.97702730626E-01 +2.52562483414E-01 +1.15737151372E-02 -1.23984796185E-02 +1.13970578635E-02 -1.15266228369E-02 +3.16446597248E-01 +2.56111515038E-01
1.51000000000E+09 +3.68913752992E-01 +1.62619941177E-01 +8.47406121839E-03 -1.71160496300E-02 +8.95864057545E-03 -1.65976683772E-02 +2.85615513793E-01 +1.55541973559E-01
1.51500000000E+09 +3.20611712112E-01 +7.26833004402E-02 +2.77672481906E-03 -2.03069630645E-02 +3.27333383369E-03 -2.03734720025E-02 +2.31040068674E-01 +5.69876734215E-02
1.52000000000E+09 +2.52439793492E-01 -1.07991306432E-02 -3.74372937893E-03 -2.11033217123E-02 -3.60446314616E-03 -2.13643913077E-02 +1.53981400718E-01 -3.04016073864E-02
1.52500000000E+09 +1.66210737044E-01 -8.04385612536E-02 -9.64124096924E-03 -1.85471653752E-02 -9.68513281050E-03 -1.87267758710E-02 +5.79155630743E-02 -9.86988350768E-02
1.53000000000E+09 +6.64386422072E-02 -1.29490759049E-01 -1.35616394149E-02 -1.56600747298E-02 -1.36707348090E-02 -1.57706607304E-02 -5.01225782612E-02 -1.44183380648E-01
1.53500000000E+09 -4.06789751412E-02 -1.54593957192E-01 -1.77888863352E-02 -1.23076503858E-02 -1.78500215446E-02 -1.22548403033E-02 -1.63359867479E-01 -1.62924341604E-01
1.54000000000E+09 -1.49063885879E-01 -1.55831153583E-01 -2.10127754228E-02 -6.82032183374E-03 -2.07742814120E-02 -6.79745263119E-03 -2.72314346209E-01 -1.58421061721E-01
1.54500000000E+09 -2.53483275576E-01 -1.32914853278E-01 -2.18526477791E-02 +2.76669322548E-04 -2.15802111555E-02 -1.32465798947E-04 -3.70279945746E-01 -1.33089593757E-01
1.55000000000E+09 -3.47129749098E-01 -8.98807917672E-02 -1.93287853709E-02 +6.14830354822E-03 -1.95231679039E-02 +5.44414777208E-03 -4.54709040571E-01 -9.53426769991E-02
1.55500000000E+09 -4.24286034551E-01 -3.27294142044E-02 -1.58972718286E-02 +1.03879459155E-02 -1.66993620915E-02 +9.85291620098E-03 -5.24496707354E-01 -4.79712983973E-02
1.56000000000E+09 -4.84164435971E-01 +2.84036583433E-02 -1.13956819351E-02 +1.30416001060E-02 -1.23199679076E-02 +1.31857251591E-02 -5.81353801055E-01 +4.98667324557E-03
1.56500000000E+09 -5.31022471799E-01 +8.81926720888E-02 -6.77194165656E-03 +1.36534164572E-02 -7.39374322913E-03 +1.43408262596E-02 -6.24927129984E-01 +5.99997154436E-02
1.57000000000E+09 -5.68605807324E-01 +1.46097382568E-01 -3.43863275040E-03 +1.27678783116E-02 -3.53195674812E-03 +1.35751462110E-02 -6.58347920487E-01 +1.14607749696E-01
