# Hz S RI R 50
! CMT, C1220, 16058040, 17.2.0/1
! Date: 14/08/2018 11:57:24
! Data: Format (Calibration Info)
! Freq                      S11: Re/Im (F2)                       S21: Re/Im (F2)                       S12: Re/Im (F2)                       S22: Re/Im (F2)            
1.00000000000E+09 -6.44538403960E-01 +7.11953068268E-01 +7.43030056521E-06 +1.61628215402E-05 -7.11403100646E-05 +2.43548399700E-06 -7.49695341754E-01 +6.27119946163E-01
1.00500000000E+09 -6.37446022616E-01 +7.16850352486E-01 -6.50987924477E-05 -9.22173605922E-06 +2.42479646410E-05 -1.81706783074E-05 -7.46311522087E-01 +6.31150585896E-01
1.01000000000E+09 -6.31652082751E-01 +7.21237968969E-01 -2.08840702292E-05 -1.54189670780E-05 -9.39787085197E-06 +1.76170357236E-05 -7.42731086514E-01 +6.34897428230E-01
1.01500000000E+09 -6.27111848223E-01 +7.25017251884E-01 -1.19692887699E-05 -4.37446053573E-06 -3.72149627303E-05 +4.35044668240E-05 -7.39264051839E-01 +6.38601829010E-01
1.02000000000E+09 -6.23888124875E-01 +7.28294883373E-01 -2.23506210120E-06 -8.93964669594E-06 -4.11862894712E-05 +2.03478677285E-05 -7.35726205296E-01 +6.42266867059E-01
1.02500000000E+09 -6.21836155472E-01 +7.30805545615E-01 -7.00341099651E-05 -4.62193962226E-05 -4.65282001539E-05 +5.48025727744E-05 -7.32705024209E-01 +6.45989238019E-01
1.03000000000E+09 -6.20352427867E-01 +7.33218871031E-01 -2.72699063807E-05 +2.91670059640E-05 -4.00412434645E-05 -2.19458063420E-07 -7.29342375813E-01 +6.49886956245E-01
1.03500000000E+09 -6.18071807979E-01 +7.35645294400E-01 -4.35283352567E-05 -1.08928826003E-05 -1.76485456495E-05 +4.53908665653E-05 -7.25582260204E-01 +6.53691972383E-01
1.04000000000E+09 -6.14527178091E-01 +7.38456309349E-01 -5.40985442439E-05 +8.47752055521E-06 -4.41190129969E-05 +4.86010521700E-05 -7.21771242603E-01 +6.57339884619E-01
1.04500000000E+09 -6.09555982706E-01 +7.41976990457E-01 -7.88551717515E-05 +4.12705803151E-05 -5.75011330118E-05 +5.07967155910E-05 -7.18350253513E-01 +6.60962498402E-01
1.05000000000E+09 -6.02747894363E-01 +7.46030055215E-01 -3.43166297359E-05 +3.35352436677E-05 -5.97255898366E-05 +1.03280101213E-05 -7.14864553580E-01 +6.64313252823E-01
1.05500000000E+09 -5.94809563788E-01 +7.50589153622E-01 -4.68400472824E-05 +4.31132838659E-05 -2.77128562916E-05 +2.03781696495E-05 -7.11447328911E-01 +6.67974323028E-01
1.06000000000E+09 -5.86250949077E-01 +7.55378432390E-01 -3.39789760505E-05 -1.64883294936E-06 -3.83114964924E-05 +3.00083518671E-05 -7.08121070165E-01 +6.71625725946E-01
1.06500000000E+09 -5.78212936741E-01 +7.60226300989E-01 -7.51030717423E-05 +7.31227076875E-05 -3.30841991759E-05 +8.28060479583E-05 -7.04414555577E-01 +6.75333665177E-01
1.07000000000E+09 -5.71302672928E-01 +7.64431758574E-01 +1.33075731865E-05 +4.98954954549E-05 -9.04198800825E-06 +8.84821868408E-05 -7.00417025375E-01 +6.79049064508E-01
1.07500000000E+09 -5.65791314687E-01 +7.68046087546E-01 -2.74128082364E-06 +1.44164034484E-04 -3.75115215839E-06 +9.70297401726E-05 -6.96077760150E-01 +6.82675999266E-01
1.08000000000E+09 -5.62194593814E-01 +7.71150280096E-01 -1.67349242755E-05 +6.28421579660E-05 +1.50648608898E-05 +1.26131230647E-04 -6.91965886121E-01 +6.86539740078E-01
1.08500000000E+09 -5.59761553627E-01 +7.73693051452E-01 -4.38310309013E-05 +6.64541367797E-05 +1.48645598821E-05 +4.48858754246E-05 -6.87928351573E-01 +6.90279369823E-01
1.09000000000E+09 -5.57756219079E-01 +7.75925904450E-01 +4.61312753597E-06 +7.11292642780E-05 +5.88733389020E-05 +3.76914970586E-05 -6.84083704139E-01 +6.94092542760E-01
1.09500000000E+09 -5.56013625946E-01 +7.77937945103E-01 -2.91146395386E-05 +9.27134752150E-05 +6.07263456039E-05 +2.29022909410E-05 -6.80283710994E-01 +6.97871542485E-01
1.10000000000E+09 -5.52749279428E-01 +7.79973260171E-01 +1.63092730255E-05 +8.82070684160E-05 +1.79086940644E-05 +9.91480894764E-05 -6.76222838767E-01 +7.01787178093E-01
1.10500000000E+09 -5.48170605182E-01 +7.82641884674E-01 +4.00396254653E-06 +9.30107846843E-05 +9.01736660890E-06 +1.09644244737E-04 -6.72063415262E-01 +7.05353935522E-01
1.11000000000E+09 -5.42130203393E-01 +7.85975663621E-01 +2.36142016888E-05 +8.91152002273E-05 +5.87303327855E-05 +9.91697607365E-05 -6.67725860345E-01 +7.08731022562E-01
1.11500000000E+09 -5.34738010481E-01 +7.89809663386E-01 +2.74752610604E-05 +5.38631830870E-05 +6.79794530188E-06 +1.04080586560E-04 -6.63597667396E-01 +7.12007114600E-01
1.12000000000E+09 -5.26783446509E-01 +7.93814085833E-01 +4.66238126220E-05 +6.86216764699E-05 +5.79716525946E-05 +1.12440754862E-04 -6.59579702290E-01 +7.15633172592E-01
1.12500000000E+09 -5.18712018598E-01 +7.97768683075E-01 +7.47897588582E-05 +2.68938357384E-05 +4.82586670904E-05 +9.38643890166E-05 -6.55341542604E-01 +7.19670913709E-01
1.13000000000E+09 -5.11728997562E-01 +8.01488584501E-01 +8.22213150409E-05 +7.34843259543E-05 +6.07044922570E-05 +1.27752961988E-05 -6.50981628399E-01 +7.23418735638E-01
1.13500000000E+09 -5.05567417024E-01 +8.04206608304E-01 +7.05572113210E-05 +9.25483460535E-05 +7.37387111021E-05 +9.22796937224E-05 -6.46486415925E-01 +7.27153608358E-01
1.14000000000E+09 -5.01007832595E-01 +8.07015083908E-01 +1.12088761146E-04 +7.43406565236E-05 +7.61224921528E-05 +7.44383660321E-05 -6.41721811099E-01 +7.30611397073E-01
1.14500000000E+09 -4.97303448551E-01 +8.09207173018E-01 +8.98895313411E-05 +5.20620377224E-05 +3.07337491854E-05 +6.62637323492E-05 -6.36980697602E-01 +7.34055630480E-01
1.15000000000E+09 -4.93718634402E-01 +8.10951581926E-01 +5.54805635313E-05 +3.89340439679E-05 +1.19354232565E-04 +7.28751843294E-05 -6.32377306067E-01 +7.37973463708E-01
1.15500000000E+09 -4.90081290812E-01 +8.12973875342E-01 +1.33822895318E-04 +7.18772323392E-05 +1.08492959100E-04 +6.31901808969E-05 -6.27540049399E-01 +7.41609765212E-01
1.16000000000E+09 -4.85483954907E-01 +8.14961803246E-01 +8.44174944363E-05 +6.28008837637E-05 +9.47131813532E-05 +7.35593240413E-05 -6.22580910547E-01 +7.45447501888E-01
1.16500000000E+09 -4.79575838443E-01 +8.17928699735E-01 +1.30910666788E-04 +6.28295673410E-05 +1.15385918853E-04 +4.95630703078E-05 -6.17549748012E-01 +7.49058427016E-01
1.17000000000E+09 -4.72268867020E-01 +8.21031161796E-01 +1.55216231967E-04 +2.71058601590E-06 +1.39327412434E-04 +8.32123735228E-05 -6.12043926016E-01 +7.52267077727E-01
1.17500000000E+09 -4.64074703487E-01 +8.24412157939E-01 +1.54036575387E-04 +3.43512295481E-05 +2.09926320480E-04 +4.91576487583E-05 -6.06232524762E-01 +7.55576073208E-01
1.18000000000E+09 -4.55649792528E-01 +8.27879634037E-01 +1.95264387454E-04 -9.01768353410E-06 +2.11029523922E-04 +4.21135317224E-05 -6.00717760026E-01 +7.58641628431E-01
1.18500000000E+09 -4.47349629579E-01 +8.31161756496E-01 +2.28593928763E-04 +7.53199440472E-06 +1.93359936366E-04 +1.84550949190E-05 -5.94702193492E-01 +7.61595562971E-01
1.19000000000E+09 -4.40153548639E-01 +8.33739613675E-01 +2.39935801751E-04 +2.02389283353E-05 +2.14079703442E-04 +5.82084800312E-06 -5.88551360927E-01 +7.64248349676E-01
1.19500000000E+09 -4.34137397450E-01 +8.35905127082E-01 +2.39251998652E-04 -6.60490037051E-05 +2.83253172004E-04 -2.67014439635E-05 -5.82608768317E-01 +7.65569108490E-01
1.20000000000E+09 -4.29543398140E-01 +8.36864305708E-01 +2.78058919660E-04 -1.44575588261E-04 +2.90888128080E-04 -1.27152980731E-04 -5.77952097853E-01 +7.65675747984E-01
1.20500000000E+09 -4.25684279514E-01 +8.38290063425E-01 +2.25083886448E-04 -1.84342802566E-04 +1.90163433827E-04 -2.34861109017E-04 -5.75786803887E-01 +7.66389533807E-01
1.21000000000E+09 -4.21712615482E-01 +8.39777161866E-01 +1.69605030628E-04 -2.25166723309E-04 +1.33529866851E-04 -1.84447614778E-04 -5.73809088539E-01 +7.69448363313E-01
1.21500000000E+09 -4.16792321516E-01 +8.41538506568E-01 +1.41062815949E-04 -1.64857407163E-04 +1.31339423848E-04 -1.86035872440E-04 -5.71167391939E-01 +7.73830217758E-01
1.22000000000E+09 -4.10038228858E-01 +8.43708769020E-01 +1.23485782622E-04 -1.66990281026E-04 +9.17373301251E-05 -2.08942011962E-04 -5.66997126995E-01 +7.79203799903E-01
1.22500000000E+09 -4.01851976119E-01 +8.46494389423E-01 +1.51143763424E-04 -1.70981220249E-04 +1.47809199382E-04 -1.82355616816E-04 -5.61816044117E-01 +7.84297242252E-01
1.23000000000E+09 -3.92385446614E-01 +8.49631145426E-01 +1.24216793629E-04 -2.05933146891E-04 +1.20848464841E-04 -2.40928212589E-04 -5.56109314533E-01 +7.88961441945E-01
1.23500000000E+09 -3.82143473285E-01 +8.53148191923E-01 +1.62217395093E-04 -2.42709929073E-04 +9.84978163730E-05 -2.45793748883E-04 -5.50290564973E-01 +7.93383761833E-01
1.24000000000E+09 -3.71892366644E-01 +8.56828575254E-01 +1.27197711236E-04 -2.36381003870E-04 +7.09678542391E-05 -2.37520510954E-04 -5.44138777070E-01 +7.97244935806E-01
1.24500000000E+09 -3.62796716623E-01 +8.60601010776E-01 +1.04009487438E-04 -3.03713252072E-04 +6.06445103436E-05 -3.08858422094E-04 -5.37927432248E-01 +8.01022594229E-01
1.25000000000E+09 -3.54495174416E-01 +8.63731851453E-01 +4.04252416397E-05 -2.82982432146E-04 +1.01520990032E-04 -2.69815761276E-04 -5.31197542498E-01 +8.05114342617E-01
1.25500000000E+09 -3.47879148733E-01 +8.66371432557E-01 +3.19287351602E-05 -3.10827513445E-04 +4.92898717541E-05 -3.71347001771E-04 -5.24306917592E-01 +8.09200492964E-01
1.26000000000E+09 -3.42217531095E-01 +8.68307852690E-01 +1.91003591075E-05 -3.50370650312E-04 +1.12205207142E-05 -3.55700134988E-04 -5.17583400489E-01 +8.13439743473E-01
1.26500000000E+09 -3.37204188702E-01 +8.69781299222E-01 +1.48609583147E-05 -3.41102181022E-04 -3.36098734432E-05 -4.02674390439E-04 -5.10600781169E-01 +8.17304369667E-01
1.27000000000E+09 -3.31777717528E-01 +8.71102546165E-01 -3.97454238138E-05 -4.11076500871E-04 -3.60388582522E-05 -4.05094061957E-04 -5.03948834188E-01 +8.21160212435E-01
1.27500000000E+09 -3.25302704322E-01 +8.72459158923E-01 -1.36195757720E-04 -3.83762695341E-04 -8.12011220538E-05 -4.55609316593E-04 -4.96818938389E-01 +8.24686961243E-01
1.28000000000E+09 -3.17087379487E-01 +8.74130072915E-01 -2.29245340088E-04 -4.08617765387E-04 -1.93167461727E-04 -4.42001059256E-04 -4.89847581384E-01 +8.28120129805E-01
1.28500000000E+09 -3.06628571103E-01 +8.76196411219E-01 -2.30243034561E-04 -3.45139266795E-04 -2.36677468325E-04 -3.83400105927E-04 -4.82430865438E-01 +8.31830630364E-01
1.29000000000E+09 -2.94921951789E-01 +8.78605524803E-01 -2.71730368196E-04 -3.26087046346E-04 -2.62495286067E-04 -3.84036453313E-04 -4.74961853272E-01 +8.35359812040E-01
1.29500000000E+09 -2.82526729590E-01 +8.81521222816E-01 -2.39591768236E-04 -4.04475657136E-04 -3.21809498672E-04 -3.71070960684E-04 -4.67071803351E-01 +8.38857213254E-01
1.30000000000E+09 -2.70369451699E-01 +8.84506031681E-01 -3.15277440497E-04 -3.73894106056E-04 -3.44567986190E-04 -3.63475023916E-04 -4.59135075070E-01 +8.42452456290E-01
1.30500000000E+09 -2.59185583538E-01 +8.87501165671E-01 -4.15310554469E-04 -3.75822883497E-04 -4.60499877377E-04 -3.73277922964E-04 -4.50995875963E-01 +8.45892440393E-01
1.31000000000E+09 -2.49478739465E-01 +8.89884641434E-01 -4.70955276708E-04 -2.93154309806E-04 -4.61792875707E-04 -2.88925160409E-04 -4.42700319631E-01 +8.49376952053E-01
1.31500000000E+09 -2.41578683906E-01 +8.91982106608E-01 -5.19300249316E-04 -2.70822314074E-04 -4.80726882221E-04 -2.16266238332E-04 -4.34008356618E-01 +8.52704966764E-01
1.32000000000E+09 -2.35268545529E-01 +8.93213104863E-01 -5.03704526731E-04 -2.43099387188E-04 -5.56295059707E-04 -2.50667241517E-04 -4.24800256577E-01 +8.56073862065E-01
1.32500000000E+09 -2.29578636941E-01 +8.93855575513E-01 -5.11876241342E-04 -2.10378242803E-04 -5.95679509087E-04 -1.71227109361E-04 -4.15065397721E-01 +8.59473761176E-01
1.33000000000E+09 -2.23091152522E-01 +8.94234271503E-01 -6.29834172613E-04 -1.92111371133E-04 -6.46536860936E-04 -1.62833347056E-04 -4.05350138610E-01 +8.62912148462E-01
1.33500000000E+09 -2.14843476253E-01 +8.94180239028E-01 -6.61752869506E-04 -1.64256730861E-04 -6.55392686208E-04 -1.05902969164E-04 -3.95350756485E-01 +8.65974960927E-01
1.34000000000E+09 -2.04216391169E-01 +8.94181232224E-01 -6.95316729859E-04 -1.18941622207E-04 -6.86915183674E-04 -5.47264913056E-05 -3.85257397687E-01 +8.69292614691E-01
1.34500000000E+09 -1.90720029276E-01 +8.94124106799E-01 -7.95075074309E-04 -3.80148360992E-05 -7.75445641082E-04 -2.10934818935E-05 -3.74216588717E-01 +8.72676886747E-01
1.35000000000E+09 -1.75350719897E-01 +8.94032529037E-01 -8.62454309150E-04 +6.34655384369E-05 -8.26776889886E-04 +7.86038625092E-05 -3.63128764418E-01 +8.75559703478E-01
1.35500000000E+09 -1.58737484999E-01 +8.94043364637E-01 -8.79450664162E-04 +1.12632480906E-04 -8.26551820174E-04 +1.43409479358E-04 -3.51516870838E-01 +8.78353757402E-01
1.36000000000E+09 -1.42158160176E-01 +8.94240361350E-01 -9.10722440178E-04 +1.99356807110E-04 -8.39504210644E-04 +2.54972154813E-04 -3.39560654291E-01 +8.81038142235E-01
1.36500000000E+09 -1.26065708041E-01 +8.94733295212E-01 -9.37514671323E-04 +2.62594918325E-04 -9.07304884960E-04 +2.86542236120E-04 -3.27452277756E-01 +8.83460824629E-01
1.37000000000E+09 -1.11562212786E-01 +8.94889211644E-01 -9.94443214154E-04 +4.19115605155E-04 -9.38522569474E-04 +3.46565186756E-04 -3.14535504862E-01 +8.85859664058E-01
1.37500000000E+09 -9.89012168550E-02 +8.94955827555E-01 -1.04520188868E-03 +5.16079133606E-04 -1.04451121908E-03 +3.92845997418E-04 -3.00801780769E-01 +8.88025250138E-01
1.38000000000E+09 -8.77914684630E-02 +8.94447732746E-01 -1.04934716180E-03 +7.38565458666E-04 -1.19933594369E-03 +6.47586777250E-04 -2.86231203772E-01 +8.89955140127E-01
1.38500000000E+09 -7.68020959246E-02 +8.93516912670E-01 -9.71182897582E-04 +9.41488078594E-04 -1.18768634065E-03 +9.33432508657E-04 -2.70706869654E-01 +8.91812132624E-01
1.39000000000E+09 -6.52945280867E-02 +8.91913318326E-01 -9.54544089361E-04 +9.97788049373E-04 -1.02232429496E-03 +1.19432531657E-03 -2.54891867845E-01 +8.93195801778E-01
1.39500000000E+09 -5.16417051524E-02 +8.89466080844E-01 -9.32982094200E-04 +1.15555710985E-03 -9.42099226751E-04 +1.38240455975E-03 -2.38081125188E-01 +8.93907914274E-01
1.40000000000E+09 -3.54335610968E-02 +8.85706529733E-01 -8.67490009063E-04 +1.36729842058E-03 -7.52943623092E-04 +1.50565226317E-03 -2.20527823315E-01 +8.94435016837E-01
1.40500000000E+09 -1.68121835123E-02 +8.81199958788E-01 -7.62980297921E-04 +1.55162402934E-03 -6.49713177799E-04 +1.58434740407E-03 -2.01886291678E-01 +8.94028087140E-01
1.41000000000E+09 +3.97739566165E-03 +8.75688635813E-01 -6.97448512894E-04 +1.71975840041E-03 -6.40553476855E-04 +1.64235491531E-03 -1.81786780189E-01 +8.93061027806E-01
1.41500000000E+09 +2.60636302346E-02 +8.69455005739E-01 -5.18211042737E-04 +1.88760336560E-03 -6.48123013990E-04 +1.92213487259E-03 -1.60535475024E-01 +8.91684940448E-01
1.42000000000E+09 +4.89818140801E-02 +8.62891661450E-01 -4.06385747485E-04 +2.04111877326E-03 -5.19416003433E-04 +2.24304869091E-03 -1.37654170188E-01 +8.89199271169E-01
1.42500000000E+09 +7.14599868115E-02 +8.55396159224E-01 -3.80687543210E-04 +2.32694530486E-03 -2.71706834547E-04 +2.67488033606E-03 -1.14056739610E-01 +8.85429280806E-01
1.43000000000E+09 +9.31568883832E-02 +8.47170188662E-01 -8.30239271835E-05 +2.79972894332E-03 +2.38448946857E-04 +3.01414813470E-03 -8.91348608783E-02 +8.80700471411E-01
1.43500000000E+09 +1.14255957992E-01 +8.37727844211E-01 +4.75189107443E-04 +3.06781911414E-03 +7.97801727744E-04 +3.05324121149E-03 -6.29250346004E-02 +8.73932016561E-01
1.44000000000E+09 +1.35429360772E-01 +8.27123511645E-01 +8.88495862508E-04 +3.08405832586E-03 +1.12879307336E-03 +3.08655405099E-03 -3.50365211756E-02 +8.65401005584E-01
1.44500000000E+09 +1.57848547982E-01 +8.13788161128E-01 +1.41760411247E-03 +3.21363410511E-03 +1.60350192502E-03 +3.13201688608E-03 -4.94301171688E-03 +8.54309095660E-01
1.45000000000E+09 +1.82053264045E-01 +7.97017248181E-01 +1.65317964034E-03 +3.22627193919E-03 +1.89339719249E-03 +3.17020219413E-03 +2.70833877171E-02 +8.39541305924E-01
1.45500000000E+09 +2.08216056848E-01 +7.76400752726E-01 +2.06072596223E-03 +3.66386415396E-03 +2.37946170446E-03 +3.48837000558E-03 +5.99332001932E-02 +8.21745576650E-01
1.46000000000E+09 +2.36814193533E-01 +7.51108889830E-01 +3.01156946585E-03 +4.20632475291E-03 +3.28689486028E-03 +3.69823450172E-03 +9.46160712973E-02 +8.00666601959E-01
1.46500000000E+09 +2.67248124522E-01 +7.21094434145E-01 +4.42777812750E-03 +4.31762636833E-03 +4.31874691911E-03 +3.66728226945E-03 +1.31413571748E-01 +7.74035441645E-01
1.47000000000E+09 +2.99106652833E-01 +6.85793741090E-01 +6.12460922089E-03 +3.87345430011E-03 +5.66448568078E-03 +3.53461146769E-03 +1.68802075625E-01 +7.40332962708E-01
1.47500000000E+09 +3.30332331393E-01 +6.44590033518E-01 +7.45512662098E-03 +2.61028605042E-03 +6.99855172373E-03 +2.79662912754E-03 +2.06011515551E-01 +6.99159187548E-01
1.48000000000E+09 +3.59064654472E-01 +5.96770191958E-01 +8.29415540541E-03 +1.48700215628E-03 +8.38699970585E-03 +1.73973333060E-03 +2.42547428540E-01 +6.49710611759E-01
1.48500000000E+09 +3.82756497209E-01 +5.42581139406E-01 +9.45870876204E-03 +3.46619550365E-04 +9.71889379327E-03 +1.90038971949E-04 +2.76790257871E-01 +5.91154143281E-01
1.49000000000E+09 +4.00146402466E-01 +4.81924791293E-01 +1.11279373072E-02 -1.42779221102E-03 +1.10267244662E-02 -1.99660770387E-03 +3.06113028962E-01 +5.21330753164E-01
1.49500000000E+09 +4.10272031021E-01 +4.14749516816E-01 +1.21860575186E-02 -4.41656544920E-03 +1.14738437729E-02 -4.74390336467E-03 +3.24628869383E-01 +4.39841416721E-01
1.50000000000E+09 +4.10847506159E-01 +3.38353322563E-01 +1.27509760243E-02 -8.15872180644E-03 +1.19250967121E-02 -7.70139669443E-03 +3.28837722693E-01 +3.50550709316E-01
1.50500000000E+09 +3.98524900587E-01 +2.54566743071E-01 +1.15158177117E-02 -1.30270396086E-02 +1.13856386795E-02 -1.22084510350E-02 +3.17103130901E-01 +2.54087970920E-01
1.51000000000E+09 +3.69792168086E-01 +1.64455128337E-01 +8.28980700828E-03 -1.77457279727E-02 +8.77773670997E-03 -1.72008344371E-02 +2.85579635533E-01 +1.53393162416E-01
1.51500000000E+09 +3.21602509324E-01 +7.48400365686E-02 +2.44138523189E-03 -2.11193574606E-02 +2.94237461258E-03 -2.11118873507E-02 +2.30077558496E-01 +5.52370310105E-02
1.52000000000E+09 +2.54355112547E-01 -8.43751998095E-03 -4.66149152183E-03 -2.17743922596E-02 -4.43480228597E-03 -2.19639389720E-02 +1.52946891772E-01 -3.12794087215E-02
1.52500000000E+09 +1.68766115518E-01 -7.90173249280E-02 -1.07394188022E-02 -1.87765184696E-02 -1.07306494438E-02 -1.90030619583E-02 +5.70477642680E-02 -9.94360650963E-02
1.53000000000E+09 +6.89935692359E-02 -1.28801852336E-01 -1.47989505060E-02 -1.55684670481E-02 -1.48936490165E-02 -1.57529167719E-02 -5.12669774597E-02 -1.44656468172E-01
1.53500000000E+09 -3.84233426159E-02 -1.54463684316E-01 -1.89745352903E-02 -1.16778828004E-02 -1.90180634666E-02 -1.16550534987E-02 -1.64284341684E-01 -1.63050914219E-01
1.54000000000E+09 -1.46992313041E-01 -1.55778951583E-01 -2.18241286557E-02 -5.57136747819E-03 -2.15689306104E-02 -5.59277209558E-03 -2.73084561617E-01 -1.58560582463E-01
1.54500000000E+09 -2.51184420672E-01 -1.32963265490E-01 -2.19930070789E-02 +1.55747308891E-03 -2.17483170558E-02 +1.05063304723E-03 -3.70929540276E-01 -1.33290575448E-01
1.55000000000E+09 -3.44669616035E-01 -9.07215278853E-02 -1.90100113222E-02 +7.23346736206E-03 -1.92662780965E-02 +6.47093620753E-03 -4.55600587501E-01 -9.56054828654E-02
1.55500000000E+09 -4.22363279814E-01 -3.41730984609E-02 -1.54091599598E-02 +1.10348559832E-02 -1.63039634151E-02 +1.06165938799E-02 -5.25954360788E-01 -4.78009222197E-02
1.56000000000E+09 -4.82763694076E-01 +2.66546698872E-02 -1.07787264309E-02 +1.37311963429E-02 -1.17314014704E-02 +1.39904273570E-02 -5.82548157119E-01 +5.75317392691E-03
1.56500000000E+09 -5.30326824635E-01 +8.63949124624E-02 -5.93435942314E-03 +1.39817630281E-02 -6.47095792997E-03 +1.47063274318E-02 -6.25694490162E-01 +6.09311617994E-02
1.57000000000E+09 -5.68425991647E-01 +1.44620056525E-01 -2.66644133719E-03 +1.26437785746E-02 -2.77862962209E-03 +1.35005325885E-02 -6.59033820320E-01 +1.15555696887E-01
