# Hz S RI R 50
! CMT, C1220, 16058040, 17.2.0/1
! Date: 14/08/2018 11:59:01
! Data: Format (Calibration Info)
! Freq                      S11: Re/Im (F2)                       S21: Re/Im (F2)                       S12: Re/Im (F2)                       S22: Re/Im (F2)            
1.00000000000E+09 -6.44507693104E-01 +7.12361534925E-01 +4.46953329174E-06 +5.49052324084E-05 -2.42845606313E-05 -1.10801570305E-05 -7.50079210305E-01 +6.26941162113E-01
1.00500000000E+09 -6.37338674150E-01 +7.17271488147E-01 -2.78777658332E-05 +5.14605917016E-06 +1.20641982890E-05 +2.10415039885E-05 -7.46478906247E-01 +6.30849559570E-01
1.01000000000E+09 -6.31418960170E-01 +7.21616878672E-01 +1.57871117478E-05 -2.95298341796E-05 +3.75870339877E-06 +1.11416129284E-05 -7.42778399583E-01 +6.34675518335E-01
1.01500000000E+09 -6.26964050286E-01 +7.25324854918E-01 -5.86979515343E-05 -8.08568922056E-06 -3.75378081378E-05 -3.39904985185E-05 -7.39410400020E-01 +6.38437000936E-01
1.02000000000E+09 -6.23950663663E-01 +7.28649165573E-01 -1.55180233589E-05 -4.05643850846E-05 -4.95782684332E-05 -3.14597779736E-05 -7.36105541142E-01 +6.41990253974E-01
1.02500000000E+09 -6.21817760328E-01 +7.31321700545E-01 -2.24281867780E-05 -2.24663396548E-05 -1.49016029438E-06 -1.63151372429E-05 -7.33129705558E-01 +6.45592738571E-01
1.03000000000E+09 -6.20175611388E-01 +7.33582927665E-01 +3.09461514517E-05 +1.74080503818E-05 -1.07098884644E-05 +6.11047699839E-05 -7.29481783980E-01 +6.49590668540E-01
1.03500000000E+09 -6.17806249862E-01 +7.35813326135E-01 -4.89071576985E-05 +2.00250757409E-05 -2.21422784606E-05 +3.29245081284E-05 -7.25797297663E-01 +6.53422334924E-01
1.04000000000E+09 -6.14248217451E-01 +7.38837866213E-01 -4.51529498222E-05 +2.55623052794E-05 -4.91721076008E-05 -2.50770125806E-05 -7.21916784423E-01 +6.57134118160E-01
1.04500000000E+09 -6.09223581990E-01 +7.42235011755E-01 -8.02610400027E-06 +2.90827274520E-05 -5.25830067556E-05 -2.17574118916E-05 -7.18531998953E-01 +6.60586542266E-01
1.05000000000E+09 -6.02476084216E-01 +7.46395578100E-01 -9.95506418132E-06 +5.47737647524E-05 -5.18745000796E-05 +1.65519772513E-05 -7.14997821666E-01 +6.64037260578E-01
1.05500000000E+09 -5.94502387831E-01 +7.50827804206E-01 -3.56472003591E-05 +3.56933890334E-05 +1.16961547312E-05 +3.18444091030E-05 -7.11735928911E-01 +6.67595869955E-01
1.06000000000E+09 -5.85963983582E-01 +7.55794990030E-01 -4.32658633820E-06 +2.22759726394E-05 -1.87613311434E-05 +2.41085752395E-05 -7.08338403894E-01 +6.71366843563E-01
1.06500000000E+09 -5.77886081862E-01 +7.60482596646E-01 -6.12115105374E-05 +4.43649128366E-05 +1.20467704783E-05 +1.61271320007E-05 -7.04658375215E-01 +6.75106574886E-01
1.07000000000E+09 -5.71031720331E-01 +7.64642532142E-01 -3.21703505831E-06 +3.82048092182E-06 -1.08395329932E-05 +6.64794889287E-05 -7.00730469925E-01 +6.78706815444E-01
1.07500000000E+09 -5.65577977225E-01 +7.68309008334E-01 +4.97457439066E-05 +6.63923116127E-05 +5.60269147416E-06 +7.26248072047E-05 -6.96335193014E-01 +6.82475444430E-01
1.08000000000E+09 -5.61800676027E-01 +7.71502149006E-01 -1.74794633256E-05 -8.26731460616E-07 +2.15234253951E-05 +5.50759508276E-05 -6.92230674236E-01 +6.86290376403E-01
1.08500000000E+09 -5.59384782804E-01 +7.74035468756E-01 +3.49180295787E-05 +4.70808511371E-05 +1.16797640587E-05 +8.96843697277E-05 -6.88303849836E-01 +6.89835914752E-01
1.09000000000E+09 -5.57335144616E-01 +7.76043002104E-01 +2.96156443084E-06 +9.53286083623E-06 +2.43765432212E-05 +8.67119962161E-05 -6.84507404019E-01 +6.93734121760E-01
1.09500000000E+09 -5.55317201600E-01 +7.77970206583E-01 +2.84155733036E-05 +4.08862704922E-05 +5.84329609972E-05 +3.34169191521E-05 -6.80592322759E-01 +6.97585485534E-01
1.10000000000E+09 -5.52168696848E-01 +7.80123918645E-01 +4.17453813445E-05 +7.97543418487E-05 +2.46035481128E-05 +3.54169686819E-05 -6.76660162584E-01 +7.01492291433E-01
1.10500000000E+09 -5.47679052711E-01 +7.82992450705E-01 +2.87048558111E-05 +5.22362318919E-05 +2.89551961227E-05 +1.66687253617E-05 -6.72395156807E-01 +7.05052454105E-01
1.11000000000E+09 -5.41559592946E-01 +7.86307266811E-01 +5.89722086590E-05 +6.60939795375E-05 -4.69140156252E-06 +5.04385816694E-05 -6.68084736579E-01 +7.08531872632E-01
1.11500000000E+09 -5.34089036121E-01 +7.90019940209E-01 +1.54410567111E-05 +3.74279353446E-05 +2.40473947787E-05 +1.36600922256E-04 -6.63879138319E-01 +7.11877598955E-01
1.12000000000E+09 -5.26018372396E-01 +7.93800725936E-01 +4.71310979665E-05 +8.56666879975E-05 +5.70854979050E-05 +1.23105076146E-04 -6.59924388298E-01 +7.15299412417E-01
1.12500000000E+09 -5.17968487411E-01 +7.97767285524E-01 +4.03897355528E-05 +5.72685038132E-05 +4.26930321075E-05 +3.68871803241E-05 -6.55518381455E-01 +7.19518672837E-01
1.13000000000E+09 -5.11012565899E-01 +8.01463194204E-01 +5.78320987118E-05 +5.90973117856E-05 +2.77433463222E-05 +1.04798592622E-04 -6.51292627534E-01 +7.23199560569E-01
1.13500000000E+09 -5.04851652529E-01 +8.04383376522E-01 +6.73648705351E-05 +4.44945127175E-05 +8.31926590980E-06 +3.07662556913E-05 -6.46704578461E-01 +7.26904713505E-01
1.14000000000E+09 -5.00194853505E-01 +8.07092853647E-01 +5.24277851714E-05 +5.86668605540E-05 +9.94279733219E-05 +2.17364930854E-05 -6.41957116284E-01 +7.30385252635E-01
1.14500000000E+09 -4.96656694817E-01 +8.09154858558E-01 +1.09794339509E-04 +8.03928726017E-05 +5.85660088626E-05 +7.80205066409E-05 -6.37379726063E-01 +7.33695870040E-01
1.15000000000E+09 -4.93149626123E-01 +8.10845186854E-01 +8.63433441320E-05 +9.00760296337E-05 +5.07493967677E-05 +8.08980834780E-05 -6.32574142817E-01 +7.37445342824E-01
1.15500000000E+09 -4.89323013511E-01 +8.12828759898E-01 +7.90275587391E-05 +6.30243745643E-05 +7.85659259576E-05 +5.12276234894E-06 -6.27873068061E-01 +7.41317122903E-01
1.16000000000E+09 -4.84699215730E-01 +8.14999332244E-01 +1.10673874733E-04 +1.00112023658E-05 +2.34543372808E-05 +4.77655627042E-05 -6.22890991587E-01 +7.45290658827E-01
1.16500000000E+09 -4.78539904265E-01 +8.17780784165E-01 +1.09494800973E-04 +2.13010178892E-05 +1.42095784590E-04 +4.40620492548E-05 -6.17853527711E-01 +7.48772042774E-01
1.17000000000E+09 -4.71361724961E-01 +8.20913493293E-01 +1.02303142294E-04 +2.55257445501E-05 +1.41755390575E-04 -7.34088248829E-06 -6.12420830462E-01 +7.51997983857E-01
1.17500000000E+09 -4.62991461751E-01 +8.24255741639E-01 +1.37600943171E-04 +6.16426437709E-05 +1.34995995774E-04 +7.02225135843E-05 -6.06707593683E-01 +7.55272614100E-01
1.18000000000E+09 -4.54453301158E-01 +8.27778092445E-01 +1.30172067610E-04 +2.24393018790E-05 +1.09891306398E-04 +2.72208521947E-05 -6.01104046771E-01 +7.58364364288E-01
1.18500000000E+09 -4.46454749330E-01 +8.30813900714E-01 +1.86798798142E-04 +5.65351176993E-05 +1.90824746742E-04 +7.15065995100E-05 -5.95090182507E-01 +7.61419475741E-01
1.19000000000E+09 -4.39021264949E-01 +8.33488218767E-01 +1.70013073278E-04 +5.79367758087E-05 +2.00435136354E-04 +2.83752200484E-05 -5.89011987603E-01 +7.64024854424E-01
1.19500000000E+09 -4.33048961745E-01 +8.35589151604E-01 +1.97093159780E-04 +1.23638110605E-05 +2.45837377773E-04 +2.28902465928E-05 -5.83051159450E-01 +7.65300305073E-01
1.20000000000E+09 -4.28441430360E-01 +8.36394332475E-01 +2.52073875766E-04 -5.42867755264E-05 +2.36642543349E-04 -6.48842925433E-05 -5.78358299102E-01 +7.65406497912E-01
1.20500000000E+09 -4.24582328222E-01 +8.37756808783E-01 +2.28049826872E-04 -1.54787648208E-04 +2.29519520230E-04 -1.40237695558E-04 -5.76131758192E-01 +7.66092197250E-01
1.21000000000E+09 -4.20660134725E-01 +8.39263451461E-01 +1.83695390389E-04 -2.02532712565E-04 +1.99972028329E-04 -1.93175981232E-04 -5.74221528250E-01 +7.69222414580E-01
1.21500000000E+09 -4.15551102654E-01 +8.41045781059E-01 +1.28967043557E-04 -1.50987768587E-04 +1.15789077857E-04 -1.35696856422E-04 -5.71587989363E-01 +7.73570337300E-01
1.22000000000E+09 -4.08899735596E-01 +8.43030531094E-01 +1.17443658300E-04 -2.03288680882E-04 +1.41264922765E-04 -1.99942583963E-04 -5.67385652141E-01 +7.78958721680E-01
1.22500000000E+09 -4.00697731945E-01 +8.45829755775E-01 +1.32996728607E-04 -1.76814382745E-04 +1.21273510953E-04 -1.89291105564E-04 -5.62257397554E-01 +7.84035389598E-01
1.23000000000E+09 -3.91248992519E-01 +8.48891353138E-01 +9.61793432330E-05 -2.28634285918E-04 +1.14371391183E-04 -2.79231966596E-04 -5.56449706111E-01 +7.88750813332E-01
1.23500000000E+09 -3.81119663198E-01 +8.52362628588E-01 +9.71986466864E-05 -2.15532016236E-04 +8.11379932483E-05 -2.57754548162E-04 -5.50654378331E-01 +7.93025959885E-01
1.24000000000E+09 -3.70920972473E-01 +8.56082813427E-01 +6.54285851726E-05 -2.34555157593E-04 +6.46149159023E-05 -2.33801738656E-04 -5.44602103447E-01 +7.96930167179E-01
1.24500000000E+09 -3.61551507911E-01 +8.59736521610E-01 +4.99860423551E-05 -2.57553980051E-04 +6.52429465652E-05 -2.75913124770E-04 -5.38279374944E-01 +8.00684511184E-01
1.25000000000E+09 -3.53558749828E-01 +8.62914527785E-01 +3.61306580296E-05 -2.38716474863E-04 +3.90130643633E-05 -2.64866954599E-04 -5.31727262183E-01 +8.04929630384E-01
1.25500000000E+09 -3.46582556695E-01 +8.65411842310E-01 +3.11651308760E-05 -3.03754465387E-04 +4.10026195427E-05 -3.24328437436E-04 -5.24834183572E-01 +8.08946467201E-01
1.26000000000E+09 -3.41047775778E-01 +8.67396863083E-01 +2.99893795334E-05 -2.84592194977E-04 -1.24547185989E-05 -3.18189939572E-04 -5.18138553560E-01 +8.13370625132E-01
1.26500000000E+09 -3.35962495930E-01 +8.68696312359E-01 +6.12205636659E-06 -2.79079377753E-04 +1.39895036196E-06 -3.55359367340E-04 -5.11103722561E-01 +8.17162393453E-01
1.27000000000E+09 -3.30564402899E-01 +8.70083077939E-01 -8.20450859110E-05 -3.28778809454E-04 -1.07416271658E-04 -3.53500799511E-04 -5.04283637972E-01 +8.20894166483E-01
1.27500000000E+09 -3.24137034388E-01 +8.71332447441E-01 -1.09645955086E-04 -3.60790138774E-04 -1.50729343985E-04 -3.76963466360E-04 -4.97321216460E-01 +8.24490853674E-01
1.28000000000E+09 -3.15855967763E-01 +8.73037371728E-01 -1.62294227046E-04 -3.22117845430E-04 -1.34101090254E-04 -3.77711561144E-04 -4.90265240554E-01 +8.27951638668E-01
1.28500000000E+09 -3.05289397342E-01 +8.75036168843E-01 -2.33716821677E-04 -2.69379309611E-04 -2.65805133669E-04 -3.61983972755E-04 -4.82849711181E-01 +8.31586626844E-01
1.29000000000E+09 -2.93696008560E-01 +8.77389919076E-01 -2.59240948207E-04 -2.75708213817E-04 -2.92481125570E-04 -3.30357050487E-04 -4.75383580868E-01 +8.35264100157E-01
1.29500000000E+09 -2.81441733304E-01 +8.80080348953E-01 -2.06213902405E-04 -2.85665668305E-04 -2.60543732259E-04 -2.78635791546E-04 -4.67408892040E-01 +8.38902360201E-01
1.30000000000E+09 -2.69194335488E-01 +8.83142608310E-01 -2.99173632623E-04 -3.06392940000E-04 -3.26607153970E-04 -2.51733781661E-04 -4.59583202445E-01 +8.42433197217E-01
1.30500000000E+09 -2.58135214505E-01 +8.86067801906E-01 -3.70887017932E-04 -2.88573765913E-04 -3.72282857649E-04 -2.26266601057E-04 -4.51470924071E-01 +8.45791276844E-01
1.31000000000E+09 -2.48480974210E-01 +8.88515122199E-01 -4.44031112688E-04 -2.68895533747E-04 -3.86956943537E-04 -2.31935664937E-04 -4.43043636682E-01 +8.49257463958E-01
1.31500000000E+09 -2.40714485063E-01 +8.90442068519E-01 -4.07055396529E-04 -1.77607952908E-04 -4.41667789684E-04 -2.19462294311E-04 -4.34442679874E-01 +8.52613599240E-01
1.32000000000E+09 -2.34148469705E-01 +8.91597439531E-01 -4.57739154079E-04 -1.58902805546E-04 -4.71500909502E-04 -1.44797968828E-04 -4.25150072467E-01 +8.56057032158E-01
1.32500000000E+09 -2.28414307428E-01 +8.92140629312E-01 -4.56459774351E-04 -1.38416872446E-04 -4.94555040788E-04 -9.98918641596E-05 -4.15430529934E-01 +8.59423085377E-01
1.33000000000E+09 -2.21873929564E-01 +8.92429519049E-01 -4.75262862138E-04 -1.14613824428E-04 -5.35736490299E-04 -7.24977563339E-05 -4.05860682758E-01 +8.62729901300E-01
1.33500000000E+09 -2.13611595749E-01 +8.92313726936E-01 -5.30676532803E-04 -1.31131334036E-04 -5.20206918440E-04 -3.87402293498E-05 -3.95875906693E-01 +8.66000281168E-01
1.34000000000E+09 -2.03023608274E-01 +8.92331812352E-01 -5.44881339209E-04 -8.88406627288E-06 -5.50580833495E-04 -3.34482742031E-05 -3.85559730810E-01 +8.69208278727E-01
1.34500000000E+09 -1.89671339159E-01 +8.92174836714E-01 -6.41010899879E-04 -3.52188504782E-05 -5.88781666335E-04 +8.59583634730E-07 -3.74538468179E-01 +8.72547964381E-01
1.35000000000E+09 -1.74332937458E-01 +8.91813107760E-01 -6.77277122291E-04 +4.28492653312E-05 -7.07411064972E-04 +1.97542070311E-05 -3.63413731325E-01 +8.75560048705E-01
1.35500000000E+09 -1.57889702176E-01 +8.91814971003E-01 -7.09294944333E-04 +1.37835458998E-04 -6.94513737227E-04 +1.33951123747E-04 -3.51763271556E-01 +8.78294336558E-01
1.36000000000E+09 -1.41311235610E-01 +8.91968495606E-01 -7.00677614655E-04 +2.51470854201E-04 -6.59952764620E-04 +2.31053012680E-04 -3.39844454676E-01 +8.81019572242E-01
1.36500000000E+09 -1.25459867820E-01 +8.92336038091E-01 -7.38572111212E-04 +2.48678294545E-04 -7.01865420197E-04 +2.59057531238E-04 -3.27682272870E-01 +8.83504043524E-01
1.37000000000E+09 -1.11044672145E-01 +8.92449329233E-01 -7.27312806166E-04 +3.40436517242E-04 -7.01817870268E-04 +3.02823797145E-04 -3.14774751530E-01 +8.85920515161E-01
1.37500000000E+09 -9.85384728115E-02 +8.92438325901E-01 -8.04269341588E-04 +4.65768114917E-04 -7.60007470610E-04 +3.36663765528E-04 -3.00934484729E-01 +8.87979229735E-01
1.38000000000E+09 -8.74120443702E-02 +8.91988207083E-01 -8.10097845786E-04 +5.65921429888E-04 -9.33329105277E-04 +5.06256298095E-04 -2.86346426394E-01 +8.89914200150E-01
1.38500000000E+09 -7.64809779326E-02 +8.90857233445E-01 -7.83314959815E-04 +7.40236433576E-04 -9.50867622666E-04 +7.32294805309E-04 -2.70995164179E-01 +8.91619050932E-01
1.39000000000E+09 -6.49290732694E-02 +8.89227134778E-01 -7.27516841786E-04 +8.62317316911E-04 -8.48642813742E-04 +1.02170206163E-03 -2.55072589838E-01 +8.93000742120E-01
1.39500000000E+09 -5.15351306042E-02 +8.86617668537E-01 -7.16102264921E-04 +9.36754715943E-04 -6.75454111560E-04 +1.12654999768E-03 -2.38220143364E-01 +8.93691079432E-01
1.40000000000E+09 -3.55228744419E-02 +8.82937091445E-01 -6.85686748552E-04 +1.07595348077E-03 -5.33350614671E-04 +1.19608624230E-03 -2.20587935222E-01 +8.94066601543E-01
1.40500000000E+09 -1.71593085944E-02 +8.78311281434E-01 -5.13379311790E-04 +1.22917989774E-03 -4.80652555956E-04 +1.20827316697E-03 -2.01839870975E-01 +8.93723675970E-01
1.41000000000E+09 +3.41971786491E-03 +8.72819355759E-01 -4.66335170223E-04 +1.27775768053E-03 -4.67952887990E-04 +1.34383876870E-03 -1.81761510385E-01 +8.92769693495E-01
1.41500000000E+09 +2.54210352866E-02 +8.66798775105E-01 -3.83972331312E-04 +1.43817619419E-03 -4.55915067095E-04 +1.48162029155E-03 -1.60427929257E-01 +8.91286095048E-01
1.42000000000E+09 +4.81191048478E-02 +8.60174065882E-01 -3.47089951285E-04 +1.52057835299E-03 -4.27809926829E-04 +1.73651271882E-03 -1.37590850004E-01 +8.88602416356E-01
1.42500000000E+09 +7.03973824796E-02 +8.52825073095E-01 -3.34680593714E-04 +1.79688078480E-03 -2.75295459468E-04 +2.01989907758E-03 -1.14021958078E-01 +8.84786949833E-01
1.43000000000E+09 +9.19840639363E-02 +8.44454210912E-01 -4.54371883091E-05 +2.18179453427E-03 +1.41702552119E-04 +2.36615832304E-03 -8.93602950596E-02 +8.79832131431E-01
1.43500000000E+09 +1.12636329604E-01 +8.35095093478E-01 +3.89822493405E-04 +2.32291440535E-03 +6.49238546321E-04 +2.31809107155E-03 -6.32485553840E-02 +8.73041940240E-01
1.44000000000E+09 +1.33560259583E-01 +8.24482967860E-01 +6.74668435170E-04 +2.32104292481E-03 +8.76965516457E-04 +2.29242375369E-03 -3.54486154100E-02 +8.64348971509E-01
1.44500000000E+09 +1.55863235543E-01 +8.11396466293E-01 +9.63254057673E-04 +2.32025999946E-03 +1.16894804182E-03 +2.26418672595E-03 -5.43768783010E-03 +8.53137268355E-01
1.45000000000E+09 +1.79747676076E-01 +7.94741720676E-01 +9.55355914775E-04 +2.43864401903E-03 +1.20912461619E-03 +2.42603668613E-03 +2.63652386513E-02 +8.38152527685E-01
1.45500000000E+09 +2.05540242500E-01 +7.74094137839E-01 +1.31459736063E-03 +2.96789047178E-03 +1.58775782993E-03 +2.78490389626E-03 +5.88150291247E-02 +8.20299945342E-01
1.46000000000E+09 +2.33542098762E-01 +7.49270043732E-01 +2.14952435297E-03 +3.42027249629E-03 +2.39250516450E-03 +3.06283489532E-03 +9.33456443304E-02 +7.99268430180E-01
1.46500000000E+09 +2.63657986783E-01 +7.19906729170E-01 +3.15058431087E-03 +3.55476212231E-03 +3.09275549119E-03 +3.09741374074E-03 +1.29557921367E-01 +7.72571544021E-01
1.47000000000E+09 +2.95077893693E-01 +6.85248865353E-01 +4.58276639727E-03 +3.49984904464E-03 +4.16118025896E-03 +3.14241400255E-03 +1.66647180784E-01 +7.38954970395E-01
1.47500000000E+09 +3.26037106413E-01 +6.44984547092E-01 +5.83779852779E-03 +2.60889453186E-03 +5.49584928578E-03 +2.67296846832E-03 +2.03287954499E-01 +6.98266602091E-01
1.48000000000E+09 +3.54774173662E-01 +5.98096141129E-01 +6.59876549778E-03 +1.62287061040E-03 +6.59332009394E-03 +1.78508941613E-03 +2.39328317682E-01 +6.49183649419E-01
1.48500000000E+09 +3.78660518514E-01 +5.44998100637E-01 +7.54724431431E-03 +7.02637800427E-04 +7.68191604585E-03 +6.36067975558E-04 +2.73048077802E-01 +5.91466383484E-01
1.49000000000E+09 +3.96590626543E-01 +4.85305494479E-01 +8.89236681867E-03 -5.07442369436E-04 +8.79185567232E-03 -9.36587266983E-04 +3.02617934364E-01 +5.22570400256E-01
1.49500000000E+09 +4.07231512960E-01 +4.18869949673E-01 +9.94673879526E-03 -2.82443062456E-03 +9.35126257919E-03 -3.04129897100E-03 +3.21044494489E-01 +4.41636750172E-01
1.50000000000E+09 +4.08311252256E-01 +3.43787948191E-01 +1.09171251285E-02 -5.57327458273E-03 +1.02325159605E-02 -5.25006507273E-03 +3.24972435355E-01 +3.53671581559E-01
1.50500000000E+09 +3.97450961141E-01 +2.61412900795E-01 +1.04278466844E-02 -1.02494926033E-02 +1.02659369540E-02 -9.42269762681E-03 +3.14480943311E-01 +2.58739912309E-01
1.51000000000E+09 +3.71005266471E-01 +1.72410745528E-01 +7.49793225673E-03 -1.45385333202E-02 +8.02978726447E-03 -1.39606665173E-02 +2.84474804029E-01 +1.58876931011E-01
1.51500000000E+09 +3.25865347579E-01 +8.26839623255E-02 +2.52094228806E-03 -1.69927326159E-02 +3.07290327026E-03 -1.70065555271E-02 +2.30916621052E-01 +6.07706031091E-02
1.52000000000E+09 +2.61231348179E-01 -2.43854396320E-03 -2.82506004738E-03 -1.77179689599E-02 -2.47903884931E-03 -1.79396835313E-02 +1.55173887078E-01 -2.66774802374E-02
1.52500000000E+09 +1.76802393317E-01 -7.47351780328E-02 -7.81540353458E-03 -1.58507275850E-02 -7.72233567927E-03 -1.60712926437E-02 +5.98707221838E-02 -9.55333255279E-02
1.53000000000E+09 +7.80708489324E-02 -1.26223213280E-01 -1.13201858054E-02 -1.36281935846E-02 -1.13201980999E-02 -1.37908325318E-02 -4.70388416351E-02 -1.41333269067E-01
1.53500000000E+09 -2.81564432353E-02 -1.54038187534E-01 -1.54264730893E-02 -1.06174313021E-02 -1.53830659252E-02 -1.06934265901E-02 -1.59341036889E-01 -1.61312719834E-01
1.54000000000E+09 -1.36518803747E-01 -1.58210229144E-01 -1.83336868004E-02 -5.39786491321E-03 -1.81712278671E-02 -5.53515863389E-03 -2.68239840904E-01 -1.58178602836E-01
1.54500000000E+09 -2.41650486713E-01 -1.38818200973E-01 -1.83397138715E-02 +1.09662430106E-03 -1.81837848775E-02 +6.00078265012E-04 -3.66019686596E-01 -1.34093223223E-01
1.55000000000E+09 -3.37732289610E-01 -9.85475047318E-02 -1.58952009507E-02 +5.77449695023E-03 -1.61578419990E-02 +5.12631371573E-03 -4.51102378997E-01 -9.77991956078E-02
1.55500000000E+09 -4.18025836381E-01 -4.26108276860E-02 -1.28960942970E-02 +9.20982971279E-03 -1.36485056573E-02 +8.78113700018E-03 -5.22259086999E-01 -5.09468373936E-02
1.56000000000E+09 -4.80632174119E-01 +1.84569741202E-02 -8.80328629259E-03 +1.14820629933E-02 -9.71094193783E-03 +1.16415920290E-02 -5.79809793204E-01 +1.75121739307E-03
1.56500000000E+09 -5.29487570693E-01 +7.89835036271E-02 -4.55207460247E-03 +1.15138765781E-02 -5.05431454932E-03 +1.21703006441E-02 -6.24411485295E-01 +5.66544495654E-02
1.57000000000E+09 -5.68276900251E-01 +1.37805768259E-01 -1.86235689883E-03 +1.01401582672E-02 -1.93162129025E-03 +1.08863865058E-02 -6.58848271908E-01 +1.11734835706E-01
