# Hz S RI R 50
! CMT, C1220, 16058040, 17.2.0/1
! Date: 14/08/2018 11:55:20
! Data: Format (Calibration Info)
! Freq                      S11: Re/Im (F2)                       S21: Re/Im (F2)                       S12: Re/Im (F2)                       S22: Re/Im (F2)            
1.00000000000E+09 -6.43297070010E-01 +7.10908448338E-01 -6.27205402804E-05 -5.03792621453E-07 -2.45746090092E-05 -6.14687201640E-06 -7.50153027355E-01 +6.26840573567E-01
1.00500000000E+09 -6.36191689137E-01 +7.15667631067E-01 +1.23730794644E-05 -4.59656531825E-06 -1.81247611943E-05 +1.92002497061E-05 -7.46523385301E-01 +6.30868118574E-01
1.01000000000E+09 -6.30224093159E-01 +7.20239344494E-01 -1.94552111415E-06 -1.70886144035E-05 +9.07904405757E-06 +1.90647155563E-05 -7.42960427492E-01 +6.34372931560E-01
1.01500000000E+09 -6.25639455503E-01 +7.23900758871E-01 -6.89713225179E-05 -1.05296271515E-05 +4.25380383903E-06 +5.56323241711E-05 -7.39571625248E-01 +6.38276140618E-01
1.02000000000E+09 -6.22748346498E-01 +7.27073634907E-01 -7.36732885588E-06 +3.53620289960E-05 -2.74895787882E-05 +3.54322117813E-05 -7.36092410976E-01 +6.41995823005E-01
1.02500000000E+09 -6.20666388278E-01 +7.29617270327E-01 -8.18584551935E-05 +2.62240526325E-05 +3.10545227416E-05 +3.56749879088E-05 -7.33002901443E-01 +6.45542389580E-01
1.03000000000E+09 -6.19038595530E-01 +7.32013672696E-01 -2.70105470377E-05 -1.55316045145E-05 -9.12027862087E-06 +3.39627033989E-05 -7.29609387158E-01 +6.49392485563E-01
1.03500000000E+09 -6.16816410872E-01 +7.34418705909E-01 +1.03703822950E-06 +4.51027955262E-05 -4.95682681655E-07 -6.19764899035E-06 -7.25786156798E-01 +6.53334825345E-01
1.04000000000E+09 -6.13208293514E-01 +7.37179277291E-01 -4.33224030409E-05 -1.96541841411E-07 -4.23511940793E-05 +8.07080339380E-05 -7.22182290683E-01 +6.56992266855E-01
1.04500000000E+09 -6.08270862462E-01 +7.40627914227E-01 -4.72440801990E-05 +1.98740945508E-05 -4.04000836266E-05 +4.37313945280E-05 -7.18546761321E-01 +6.60465089103E-01
1.05000000000E+09 -6.01560876061E-01 +7.44887540885E-01 -4.41653319484E-05 +1.83276869656E-05 -3.36251238737E-05 +6.01229399968E-05 -7.14955156096E-01 +6.64007207590E-01
1.05500000000E+09 -5.93609363084E-01 +7.49375674173E-01 -3.99474186856E-05 +2.88211630240E-05 +1.12830431456E-05 +3.25819288018E-05 -7.11812388371E-01 +6.67485252312E-01
1.06000000000E+09 -5.84973226563E-01 +7.54137614390E-01 -3.21839495289E-05 +7.45516753680E-05 -4.09192600865E-05 +5.06381952555E-06 -7.08512618442E-01 +6.71212107146E-01
1.06500000000E+09 -5.76997805800E-01 +7.59012598877E-01 +7.67135400218E-06 +4.65467882346E-05 -2.80005592656E-05 +4.37344230057E-05 -7.04592625238E-01 +6.75059506356E-01
1.07000000000E+09 -5.69900126241E-01 +7.63116768336E-01 +7.68490158026E-06 +6.48981957250E-05 -3.44612021469E-05 +7.70901846279E-05 -7.00783556134E-01 +6.78675638222E-01
1.07500000000E+09 -5.64687264410E-01 +7.66905674110E-01 -3.59234231950E-06 +8.37782256841E-05 -7.34349815141E-05 +8.23339197345E-05 -6.96496006141E-01 +6.82387110579E-01
1.08000000000E+09 -5.60947762496E-01 +7.70155885509E-01 -1.25540376684E-05 +5.41361328007E-05 +2.05701654071E-05 +7.22966512553E-05 -6.92467421819E-01 +6.86158318035E-01
1.08500000000E+09 -5.58523448577E-01 +7.72546941151E-01 +1.19722834986E-05 +1.37631147500E-05 +1.88248571074E-05 +3.11278681686E-05 -6.88352770470E-01 +6.89945958951E-01
1.09000000000E+09 -5.56735718208E-01 +7.74748926069E-01 +1.71347476978E-05 +8.58040306752E-05 +4.56689084306E-05 +3.10006009418E-05 -6.84387749409E-01 +6.93671633420E-01
1.09500000000E+09 -5.54734426654E-01 +7.76538882965E-01 +2.79134455647E-06 +2.71104947031E-05 +4.22238432505E-05 +1.24507684968E-04 -6.80609338488E-01 +6.97429317266E-01
1.10000000000E+09 -5.51607252622E-01 +7.78765481501E-01 +3.28882290513E-05 +8.68024558502E-05 +4.74971277757E-05 +5.70447101557E-05 -6.76702851117E-01 +7.01361038391E-01
1.10500000000E+09 -5.47119660216E-01 +7.81493299457E-01 +6.22525272386E-05 +5.59256270830E-05 -6.35049962236E-06 +8.85738291818E-05 -6.72363321748E-01 +7.04959440074E-01
1.11000000000E+09 -5.41066066237E-01 +7.84717654857E-01 +2.19595815835E-05 +7.96901653998E-05 +2.48137422577E-05 -4.71202350877E-06 -6.68078930270E-01 +7.08133475748E-01
1.11500000000E+09 -5.33565006000E-01 +7.88736171971E-01 +4.54245739625E-05 +4.59038690459E-05 +1.07185550652E-04 +9.39195054843E-05 -6.64154900446E-01 +7.11646049885E-01
1.12000000000E+09 -5.25710053552E-01 +7.92473099944E-01 +3.81424212173E-05 +4.42000371370E-05 +1.28519123611E-05 +6.95615696142E-05 -6.59919484458E-01 +7.15326111263E-01
1.12500000000E+09 -5.17704128577E-01 +7.96535341011E-01 +8.00362606543E-05 +9.17809259722E-05 +7.45082520101E-06 +1.19076691850E-05 -6.55474196306E-01 +7.19321252395E-01
1.13000000000E+09 -5.10625790262E-01 +8.00271586381E-01 +3.57890078683E-05 +3.63356745264E-05 +7.21232434890E-05 +8.94913931184E-05 -6.51334995287E-01 +7.23111112895E-01
1.13500000000E+09 -5.04558942611E-01 +8.03145088694E-01 +5.17757963051E-05 +6.66023348063E-05 +4.32982341531E-05 +5.66508943932E-05 -6.46719107558E-01 +7.26938252848E-01
1.14000000000E+09 -5.00020288188E-01 +8.05861696807E-01 +9.92459515425E-05 +9.11267922742E-06 +6.33819918576E-05 +6.27718372046E-05 -6.42188980355E-01 +7.30221723798E-01
1.14500000000E+09 -4.96245701323E-01 +8.07945360942E-01 +4.79987980609E-05 +4.93967819685E-05 +7.26726316814E-05 +1.90351268294E-05 -6.37482507037E-01 +7.33682427030E-01
1.15000000000E+09 -4.92894629054E-01 +8.09706260769E-01 +1.73380960842E-05 +5.45286224681E-06 +8.68559714960E-05 +7.72329062190E-05 -6.32721811649E-01 +7.37344339738E-01
1.15500000000E+09 -4.89269250403E-01 +8.11780163971E-01 +1.10394503940E-04 +4.80494825241E-05 +8.11647352076E-05 +3.14701452855E-05 -6.27915620000E-01 +7.41395867685E-01
1.16000000000E+09 -4.84573955466E-01 +8.13849247219E-01 +1.13894953676E-04 +3.05719712376E-05 +9.73693670062E-05 +7.38442111399E-07 -6.23150292847E-01 +7.45040845447E-01
1.16500000000E+09 -4.78581567146E-01 +8.16651980047E-01 +9.25257064321E-05 +1.56504955753E-05 +1.17525008398E-04 +8.10132187169E-05 -6.17983826625E-01 +7.48639666635E-01
1.17000000000E+09 -4.71303782525E-01 +8.19779425857E-01 +1.04752052151E-04 +2.02765045936E-05 +1.14966071320E-04 -4.18585196309E-05 -6.12481780385E-01 +7.51882344730E-01
1.17500000000E+09 -4.62965531521E-01 +8.23102848909E-01 +9.69534631671E-05 +4.03955682007E-05 +1.44216957541E-04 +2.20223573428E-05 -6.06665409041E-01 +7.55153377307E-01
1.18000000000E+09 -4.54685663174E-01 +8.26710756995E-01 +1.53435496369E-04 +1.06144255649E-05 +1.51199838174E-04 +1.30734335868E-05 -6.01214033757E-01 +7.58287172624E-01
1.18500000000E+09 -4.46352778157E-01 +8.30054181873E-01 +1.02047680431E-04 +4.41131833924E-05 +1.57931169096E-04 +4.81293341120E-05 -5.95255662165E-01 +7.61275145266E-01
1.19000000000E+09 -4.39163142725E-01 +8.32646096915E-01 +1.59256503329E-04 +6.53244048414E-05 +1.63972065823E-04 +1.97426796352E-05 -5.89078436508E-01 +7.63826979647E-01
1.19500000000E+09 -4.33123094213E-01 +8.34820141659E-01 +1.86409399794E-04 -1.61047960343E-05 +1.91748202406E-04 -2.38892650941E-05 -5.83007422273E-01 +7.65103582555E-01
1.20000000000E+09 -4.28463511515E-01 +8.35960429756E-01 +2.28967532245E-04 -7.55288715053E-05 +2.35190828815E-04 -1.11491231177E-04 -5.78434656771E-01 +7.65279735460E-01
1.20500000000E+09 -4.24680852317E-01 +8.37185998892E-01 +2.13355264854E-04 -1.47409369528E-04 +2.02220739499E-04 -1.81568663621E-04 -5.76141013462E-01 +7.66097801814E-01
1.21000000000E+09 -4.20853816954E-01 +8.38663945947E-01 +1.71871096293E-04 -1.70369282452E-04 +1.39281529773E-04 -1.91956060946E-04 -5.74361735206E-01 +7.69020163538E-01
1.21500000000E+09 -4.15799850936E-01 +8.40397914458E-01 +9.56371522539E-05 -1.91840775341E-04 +1.09643703887E-04 -1.99790835389E-04 -5.71668076997E-01 +7.73511255673E-01
1.22000000000E+09 -4.09197712175E-01 +8.42525289986E-01 +1.00214939994E-04 -1.72004252145E-04 +1.40991697469E-04 -1.53029960605E-04 -5.67423458003E-01 +7.78811225810E-01
1.22500000000E+09 -4.00919259732E-01 +8.45205597890E-01 +1.34341418099E-04 -1.54684773690E-04 +1.29911852677E-04 -2.13315524480E-04 -5.62221971057E-01 +7.83986515521E-01
1.23000000000E+09 -3.91422424413E-01 +8.48472884551E-01 +1.38516505753E-04 -1.81270500871E-04 +6.82496961871E-05 -1.80954437727E-04 -5.56583055837E-01 +7.88684075123E-01
1.23500000000E+09 -3.81251719361E-01 +8.52057513307E-01 +9.19961684157E-05 -1.66638130248E-04 +7.19430533329E-05 -2.00817368544E-04 -5.50933676961E-01 +7.92924360416E-01
1.24000000000E+09 -3.71092639217E-01 +8.55776221424E-01 +6.19417492350E-05 -2.30986738188E-04 +7.12415854063E-05 -2.32107027550E-04 -5.44706816767E-01 +7.96763086466E-01
1.24500000000E+09 -3.61817439476E-01 +8.59545889244E-01 +4.53484218671E-05 -2.72928404919E-04 +5.27266691324E-05 -2.80066412663E-04 -5.38371671435E-01 +8.00751964242E-01
1.25000000000E+09 -3.53781893668E-01 +8.62755764365E-01 -3.02365480674E-05 -2.52030069468E-04 +6.24988490800E-05 -2.33573549275E-04 -5.31902590983E-01 +8.04912352133E-01
1.25500000000E+09 -3.46809322095E-01 +8.65271387243E-01 +1.43115690532E-05 -2.51252904163E-04 +4.46082436586E-05 -2.75396971461E-04 -5.24858723002E-01 +8.08854346715E-01
1.26000000000E+09 -3.41255195187E-01 +8.67404425136E-01 -1.04632959104E-05 -2.51653085267E-04 +5.05559174653E-05 -2.94294337767E-04 -5.18175179937E-01 +8.13188487286E-01
1.26500000000E+09 -3.36304160845E-01 +8.68780457495E-01 +2.53897771520E-05 -2.86597779877E-04 -4.12882139190E-06 -3.04294617488E-04 -5.11039872625E-01 +8.17090068079E-01
1.27000000000E+09 -3.30910734477E-01 +8.69943386840E-01 -8.51216850772E-05 -3.14455538024E-04 -1.20905505801E-05 -3.36118635241E-04 -5.04445990961E-01 +8.20929505445E-01
1.27500000000E+09 -3.24694086292E-01 +8.71367574932E-01 -1.07496681500E-04 -3.39994862500E-04 -9.74639412565E-05 -3.54468544946E-04 -4.97446449089E-01 +8.24539639074E-01
1.28000000000E+09 -3.16376923284E-01 +8.73130366693E-01 -1.85252174816E-04 -3.41834215281E-04 -1.35566288787E-04 -3.60988545707E-04 -4.90318464857E-01 +8.27850047879E-01
1.28500000000E+09 -3.05866488067E-01 +8.75055762004E-01 -1.75644792233E-04 -2.76848216013E-04 -1.95530109642E-04 -3.70577388439E-04 -4.83097971118E-01 +8.31580888185E-01
1.29000000000E+09 -2.94232662311E-01 +8.77575592699E-01 -1.92536238324E-04 -2.83329774839E-04 -2.77988701689E-04 -3.12884928397E-04 -4.75436607997E-01 +8.35210857603E-01
1.29500000000E+09 -2.81778147517E-01 +8.80413100682E-01 -1.89348897957E-04 -2.90046429491E-04 -2.59620452816E-04 -2.98271861210E-04 -4.67507217020E-01 +8.38708024187E-01
1.30000000000E+09 -2.69547556770E-01 +8.83534291591E-01 -2.69734143152E-04 -2.90560444963E-04 -2.73404701628E-04 -2.76748569749E-04 -4.59610510607E-01 +8.42398581315E-01
1.30500000000E+09 -2.58240509909E-01 +8.86517384396E-01 -3.16859928801E-04 -3.26734153692E-04 -3.18608932387E-04 -2.42239821911E-04 -4.51465133903E-01 +8.45705805604E-01
1.31000000000E+09 -2.48543431393E-01 +8.89222534567E-01 -3.79719301188E-04 -2.39086234646E-04 -3.65854941222E-04 -2.23287629823E-04 -4.43092671831E-01 +8.49071411449E-01
1.31500000000E+09 -2.40682710299E-01 +8.91108796140E-01 -4.22122670079E-04 -2.16841723692E-04 -3.92673025631E-04 -2.05938930856E-04 -4.34442803993E-01 +8.52546030970E-01
1.32000000000E+09 -2.34252248206E-01 +8.92364937903E-01 -3.96325350751E-04 -1.77503918448E-04 -5.04210283768E-04 -1.80243513539E-04 -4.25314465300E-01 +8.56036696168E-01
1.32500000000E+09 -2.28562967581E-01 +8.92916659378E-01 -4.64612276925E-04 -1.51193017001E-04 -4.90115650319E-04 -1.73140022914E-04 -4.15531499186E-01 +8.59342005335E-01
1.33000000000E+09 -2.22090089190E-01 +8.93294612421E-01 -4.31950624309E-04 -1.83883106259E-04 -4.87769226044E-04 -1.16222049321E-04 -4.05764308247E-01 +8.62692958924E-01
1.33500000000E+09 -2.13955151373E-01 +8.93146657482E-01 -5.43213073081E-04 -9.94063874734E-05 -5.04546923799E-04 -6.58204825921E-05 -3.95853267693E-01 +8.65917133218E-01
1.34000000000E+09 -2.03319451744E-01 +8.93248364879E-01 -5.71038541419E-04 -2.87812096938E-05 -5.46148391710E-04 -2.98837945498E-05 -3.85488378982E-01 +8.69188655701E-01
1.34500000000E+09 -1.89977244255E-01 +8.93185516241E-01 -6.19688371280E-04 -3.33700945563E-05 -5.93949247406E-04 -2.29812355183E-05 -3.74642418065E-01 +8.72378531936E-01
1.35000000000E+09 -1.74518951404E-01 +8.93057730645E-01 -6.70809069413E-04 +8.19389244648E-05 -6.42936906440E-04 +7.08701822660E-05 -3.63510489412E-01 +8.75403772082E-01
1.35500000000E+09 -1.57814804585E-01 +8.93292286434E-01 -6.67082261019E-04 +1.13179527073E-04 -6.46691840529E-04 +1.03408190328E-04 -3.51844313953E-01 +8.78123121610E-01
1.36000000000E+09 -1.41095783735E-01 +8.93584423899E-01 -6.55890793067E-04 +2.16495120042E-04 -6.28494684935E-04 +2.35758710420E-04 -3.40000442308E-01 +8.80853060109E-01
1.36500000000E+09 -1.25076058032E-01 +8.94065558326E-01 -6.88354216881E-04 +2.61171050457E-04 -6.38056523585E-04 +1.79020465751E-04 -3.27705607100E-01 +8.83284126758E-01
1.37000000000E+09 -1.10626190325E-01 +8.94172798806E-01 -7.12505518366E-04 +3.58505500399E-04 -7.07009318599E-04 +2.53898600818E-04 -3.14826361446E-01 +8.85724134746E-01
1.37500000000E+09 -9.79613632874E-02 +8.94123657506E-01 -7.78154444207E-04 +3.79684472230E-04 -7.52829900879E-04 +3.11561515984E-04 -3.01057315838E-01 +8.87960761682E-01
1.38000000000E+09 -8.68298365409E-02 +8.93817512987E-01 -7.67114352280E-04 +4.86060772344E-04 -8.42745772812E-04 +4.43664559610E-04 -2.86393920817E-01 +8.89846991482E-01
1.38500000000E+09 -7.58613721828E-02 +8.92808332689E-01 -7.56529535026E-04 +6.62018203185E-04 -9.48922107651E-04 +6.63863545569E-04 -2.71123426347E-01 +8.91514647381E-01
1.39000000000E+09 -6.41800411312E-02 +8.91170896092E-01 -7.09053484656E-04 +7.30823476776E-04 -7.78310166984E-04 +8.50165106753E-04 -2.55171229338E-01 +8.92896966804E-01
1.39500000000E+09 -5.06717382849E-02 +8.88518209020E-01 -7.17952947271E-04 +8.20358551401E-04 -6.97614778882E-04 +9.87034537735E-04 -2.38299459273E-01 +8.93635712535E-01
1.40000000000E+09 -3.44893108424E-02 +8.84809012463E-01 -6.69607478720E-04 +9.60322408988E-04 -6.30674880844E-04 +1.10610680245E-03 -2.20761610279E-01 +8.94118960532E-01
1.40500000000E+09 -1.58462693927E-02 +8.80113946060E-01 -5.75888574723E-04 +1.12395693145E-03 -5.35200070956E-04 +1.16535614732E-03 -2.01884290215E-01 +8.93938247241E-01
1.41000000000E+09 +4.95937590463E-03 +8.74700317812E-01 -5.20393744328E-04 +1.20800073211E-03 -5.08479916003E-04 +1.16313760177E-03 -1.81732521109E-01 +8.92870734770E-01
1.41500000000E+09 +2.72423617380E-02 +8.68596096958E-01 -4.99066920395E-04 +1.30873093070E-03 -5.33274020735E-04 +1.34086234690E-03 -1.60449803708E-01 +8.91384052565E-01
1.42000000000E+09 +5.02336557041E-02 +8.61848828135E-01 -4.59615720108E-04 +1.44870833555E-03 -4.92305020312E-04 +1.60394118648E-03 -1.37551957267E-01 +8.88787261675E-01
1.42500000000E+09 +7.27197728927E-02 +8.54351229127E-01 -4.19594972348E-04 +1.74027599748E-03 -4.17701937270E-04 +1.94933019448E-03 -1.13838771655E-01 +8.84984431180E-01
1.43000000000E+09 +9.46503039630E-02 +8.46035348374E-01 -2.35097755234E-04 +2.07523958966E-03 -5.68482308805E-05 +2.25992086305E-03 -8.90009179962E-02 +8.80024556165E-01
1.43500000000E+09 +1.15617072160E-01 +8.36426627701E-01 +1.73522768158E-04 +2.28033955309E-03 +3.55266131950E-04 +2.30024676355E-03 -6.26232273590E-02 +8.73030034990E-01
1.44000000000E+09 +1.36710147331E-01 +8.25682406055E-01 +4.22445668969E-04 +2.40544249700E-03 +6.17201186738E-04 +2.44500382858E-03 -3.49026232324E-02 +8.64235562899E-01
1.44500000000E+09 +1.59028008532E-01 +8.12492556426E-01 +9.06689450107E-04 +2.46552846105E-03 +9.97346727619E-04 +2.53849783598E-03 -4.84696922299E-03 +8.52869677442E-01
1.45000000000E+09 +1.83353075830E-01 +7.95788652108E-01 +9.50707118413E-04 +2.57902385850E-03 +1.13209922737E-03 +2.59348172220E-03 +2.70629153338E-02 +8.37796071622E-01
1.45500000000E+09 +2.09510279931E-01 +7.74668626639E-01 +1.20974098802E-03 +3.02995202270E-03 +1.50216997960E-03 +2.97544141586E-03 +5.93660749365E-02 +8.19678875463E-01
1.46000000000E+09 +2.37928669331E-01 +7.49140275373E-01 +2.00307549424E-03 +3.56329753913E-03 +2.27658771671E-03 +3.23635787014E-03 +9.35861154516E-02 +7.98315705097E-01
1.46500000000E+09 +2.68199441151E-01 +7.19245561166E-01 +3.20531288113E-03 +3.77757401702E-03 +3.10902366435E-03 +3.31238585314E-03 +1.29818548894E-01 +7.71703462289E-01
1.47000000000E+09 +2.99856214097E-01 +6.83724977081E-01 +4.66925799618E-03 +3.56793659416E-03 +4.30657640745E-03 +3.30085442005E-03 +1.66625085644E-01 +7.37965946331E-01
1.47500000000E+09 +3.30939808369E-01 +6.42556755166E-01 +5.90335794112E-03 +2.63746745102E-03 +5.55981624838E-03 +2.73446631361E-03 +2.03050221311E-01 +6.97159047724E-01
1.48000000000E+09 +3.59880716264E-01 +5.94787042300E-01 +6.64938411841E-03 +1.65278802654E-03 +6.69425635037E-03 +1.81010757278E-03 +2.38902615431E-01 +6.48270237272E-01
1.48500000000E+09 +3.83697995648E-01 +5.40112629508E-01 +7.55622699984E-03 +7.01579162648E-04 +7.80640709039E-03 +5.93003023290E-04 +2.72468983374E-01 +5.90789670743E-01
1.49000000000E+09 +4.00810097561E-01 +4.78974741421E-01 +9.02935427796E-03 -6.70510540966E-04 +9.01069459147E-03 -1.09292784600E-03 +3.01931608425E-01 +5.22203052665E-01
1.49500000000E+09 +4.09831772937E-01 +4.11227581565E-01 +9.77368156179E-03 -3.17599886865E-03 +9.30049862377E-03 -3.45653322969E-03 +3.20746285912E-01 +4.41360998392E-01
1.50000000000E+09 +4.09146185078E-01 +3.35154907479E-01 +1.02223839553E-02 -5.68716614108E-03 +9.57744844163E-03 -5.40082657954E-03 +3.24934018727E-01 +3.53207170589E-01
1.50500000000E+09 +3.95692350257E-01 +2.52319188343E-01 +9.80121650866E-03 -9.75300240435E-03 +9.64877692412E-03 -9.10007407598E-03 +3.14429221089E-01 +2.58003087836E-01
1.51000000000E+09 +3.66988353181E-01 +1.63515025316E-01 +7.31205940412E-03 -1.38081334925E-02 +7.70331124701E-03 -1.33955160066E-02 +2.84393418588E-01 +1.57796785078E-01
1.51500000000E+09 +3.19226959812E-01 +7.39652846396E-02 +2.60357594718E-03 -1.63967700631E-02 +3.02659041013E-03 -1.64974263361E-02 +2.30576006357E-01 +5.94188161106E-02
1.52000000000E+09 +2.50887077289E-01 -9.55905034001E-03 -2.75386694679E-03 -1.72057999678E-02 -2.60792483738E-03 -1.73996443115E-02 +1.54456945263E-01 -2.83270470160E-02
1.52500000000E+09 +1.64457956091E-01 -7.81775927663E-02 -7.70029339275E-03 -1.50134737261E-02 -7.76396399536E-03 -1.51712635595E-02 +5.84458275031E-02 -9.71891260287E-02
1.53000000000E+09 +6.52187928212E-02 -1.26041755394E-01 -1.07231256701E-02 -1.25541036076E-02 -1.08222499511E-02 -1.26222221229E-02 -4.92014437222E-02 -1.42764454754E-01
1.53500000000E+09 -4.00727729277E-02 -1.50159386028E-01 -1.39185354896E-02 -9.94671884876E-03 -1.39694582343E-02 -9.84791077031E-03 -1.62187625250E-01 -1.62144271324E-01
1.54000000000E+09 -1.46562197094E-01 -1.51815255722E-01 -1.66558253554E-02 -5.74634737506E-03 -1.64785029093E-02 -5.70788850237E-03 -2.71358598257E-01 -1.57688246130E-01
1.54500000000E+09 -2.49823543214E-01 -1.30374675498E-01 -1.72744962165E-02 +2.28220689825E-04 -1.70808825043E-02 -1.18589582134E-04 -3.68762431204E-01 -1.32739816788E-01
1.55000000000E+09 -3.43495807308E-01 -8.85065229101E-02 -1.52022531364E-02 +4.69178942755E-03 -1.52881957715E-02 +4.12736710463E-03 -4.53259385035E-01 -9.54821566802E-02
1.55500000000E+09 -4.21061535291E-01 -3.20081454584E-02 -1.24424097765E-02 +8.01418143665E-03 -1.30906139829E-02 +7.65630188643E-03 -5.23144834349E-01 -4.82258784248E-02
1.56000000000E+09 -4.81375257520E-01 +2.90709348893E-02 -8.87731070355E-03 +1.00335541738E-02 -9.62751352967E-03 +1.01399586174E-02 -5.79952975190E-01 +4.02398485536E-03
1.56500000000E+09 -5.28103438618E-01 +8.89978597655E-02 -5.34037485872E-03 +1.04634125601E-02 -5.80759261916E-03 +1.10001973547E-02 -6.23974657584E-01 +5.86152777047E-02
1.57000000000E+09 -5.65423275604E-01 +1.46603011713E-01 -2.69705195658E-03 +9.74455191694E-03 -2.74795636417E-03 +1.03658234371E-02 -6.57927763659E-01 +1.13359771843E-01
