# Hz S RI R 50
! CMT, C1220, 16058040, 17.2.0/1
! Date: 15/08/2018 10:42:54
! Data: Format (Calibration Info)
! Freq                      S11: Re/Im (F2)                       S21: Re/Im (F2)                       S12: Re/Im (F2)                       S22: Re/Im (F2)            
2.50000000000E+09 +5.92281805181E-01 +6.51346118238E-01 -7.24636439565E-05 -4.36070913109E-04 -4.68928938240E-05 -4.69837399178E-04 +5.64449644317E-01 +7.24893436075E-01
2.50500000000E+09 +5.98908551648E-01 +6.43067107971E-01 -1.58420804752E-04 -4.69510528694E-04 -2.17323549568E-04 -4.95667804680E-04 +5.70336721759E-01 +7.19330651222E-01
2.51000000000E+09 +6.06213846316E-01 +6.34889571759E-01 -2.38586715244E-04 -4.54496418138E-04 -2.78543951855E-04 -4.60327578938E-04 +5.76249108626E-01 +7.13898877423E-01
2.51500000000E+09 +6.14099767949E-01 +6.27195387512E-01 -3.40062152032E-04 -4.34012117840E-04 -3.14778050946E-04 -4.50266744983E-04 +5.81629403235E-01 +7.08334055713E-01
2.52000000000E+09 +6.21153407808E-01 +6.19586831485E-01 -3.50665091953E-04 -4.40322009035E-04 -3.40144990551E-04 -4.20456578850E-04 +5.87081406154E-01 +7.02368257626E-01
2.52500000000E+09 +6.26955566817E-01 +6.13046066369E-01 -3.79381968679E-04 -3.88178212792E-04 -4.34668634014E-04 -4.04498698036E-04 +5.93157296006E-01 +6.95881244692E-01
2.53000000000E+09 +6.31805883331E-01 +6.07407999219E-01 -4.20780441835E-04 -3.67387591766E-04 -4.83791064493E-04 -3.86746908350E-04 +5.99343106901E-01 +6.88666535287E-01
2.53500000000E+09 +6.35768319935E-01 +6.01870849623E-01 -5.53121087040E-04 -3.66227113219E-04 -5.71998167551E-04 -3.65470810921E-04 +6.05295517746E-01 +6.81479710276E-01
2.54000000000E+09 +6.39144439785E-01 +5.96056605321E-01 -6.12180614887E-04 -2.97567380463E-04 -5.61787858215E-04 -2.69126164544E-04 +6.10938783106E-01 +6.74647720836E-01
2.54500000000E+09 +6.42719918314E-01 +5.89908456810E-01 -7.49041594890E-04 -1.90315959100E-04 -7.14314143178E-04 -2.53522539610E-04 +6.16399305005E-01 +6.68352336411E-01
2.55000000000E+09 +6.47153870607E-01 +5.82294486726E-01 -7.51083156517E-04 -1.04571579635E-04 -8.19781776381E-04 -1.16610791406E-04 +6.21507207146E-01 +6.62185955370E-01
2.55500000000E+09 +6.52493808675E-01 +5.73235741066E-01 -7.28544483239E-04 -1.12101656645E-05 -7.95119582532E-04 +1.27047922904E-06 +6.26339899103E-01 +6.55701298229E-01
2.56000000000E+09 +6.59045415259E-01 +5.63551403759E-01 -6.41597628060E-04 +8.31269218178E-05 -7.03801019404E-04 +1.13270445966E-04 +6.31313644908E-01 +6.48716239943E-01
2.56500000000E+09 +6.66287455352E-01 +5.53180841892E-01 -6.72173180451E-04 +1.89149334251E-05 -7.52494627301E-04 +1.23655098513E-04 +6.36498951417E-01 +6.41391531948E-01
2.57000000000E+09 +6.74015825166E-01 +5.43194374210E-01 -7.34186211103E-04 +6.99654548291E-05 -6.99468585446E-04 +2.31160583555E-04 +6.41529025151E-01 +6.33679219162E-01
2.57500000000E+09 +6.81529621855E-01 +5.33805056640E-01 -7.66307306480E-04 +1.76261850206E-04 -6.37086599704E-04 +2.24019841130E-04 +6.46798003500E-01 +6.26427430069E-01
2.58000000000E+09 +6.87984720866E-01 +5.25596832911E-01 -8.09863114320E-04 +3.01322006508E-04 -6.32044819502E-04 +2.73416496844E-04 +6.51892173463E-01 +6.19429740345E-01
2.58500000000E+09 +6.93197822681E-01 +5.18602395699E-01 -8.48965274459E-04 +3.51194877852E-04 -7.77942486088E-04 +2.39335736709E-04 +6.57093179515E-01 +6.12216831602E-01
2.59000000000E+09 +6.97115395212E-01 +5.12664720239E-01 -8.10421877392E-04 +5.50228248352E-04 -8.12084776312E-04 +4.28944404159E-04 +6.62188190366E-01 +6.04836584247E-01
2.59500000000E+09 +7.00249225723E-01 +5.06859161808E-01 -7.37206920314E-04 +6.35204625953E-04 -7.48626238394E-04 +6.50921399385E-04 +6.67442483584E-01 +5.97088628609E-01
2.60000000000E+09 +7.02658514083E-01 +5.00384632954E-01 -6.35921951327E-04 +7.32825401293E-04 -6.20125357783E-04 +7.40405284967E-04 +6.73081455844E-01 +5.89081906452E-01
2.60500000000E+09 +7.05337407357E-01 +4.92059284544E-01 -6.06436681641E-04 +6.75486135255E-04 -6.05965064227E-04 +7.39863294417E-04 +6.78880715471E-01 +5.80182950941E-01
2.61000000000E+09 +7.08119367775E-01 +4.81832389195E-01 -6.90324230849E-04 +8.81874972279E-04 -6.62951110195E-04 +8.59637405253E-04 +6.84168918321E-01 +5.71283947386E-01
2.61500000000E+09 +7.11899904088E-01 +4.69443757008E-01 -3.51287826654E-04 +1.02803541706E-03 -3.84638537996E-04 +1.04176880083E-03 +6.89298584095E-01 +5.62679221070E-01
2.62000000000E+09 +7.16246553401E-01 +4.55307608258E-01 -3.01827653676E-04 +9.15309261415E-04 -3.22562712373E-04 +9.42820384940E-04 +6.94352646068E-01 +5.53556717235E-01
2.62500000000E+09 +7.21405484720E-01 +4.40188243532E-01 -4.33085729069E-04 +1.00577118468E-03 -4.19674643808E-04 +1.06590689318E-03 +6.99373093931E-01 +5.44509797907E-01
2.63000000000E+09 +7.26857816774E-01 +4.24963101608E-01 -3.57022338988E-04 +1.22417654295E-03 -2.26575253152E-04 +1.19861187848E-03 +7.04050378882E-01 +5.35002047820E-01
2.63500000000E+09 +7.31699598463E-01 +4.11096422510E-01 -2.43320839089E-04 +1.33975153622E-03 -8.73306356129E-05 +1.17702990641E-03 +7.08443134614E-01 +5.25639241828E-01
2.64000000000E+09 +7.36334245249E-01 +3.98873301109E-01 +3.72359842290E-05 +1.59529090082E-03 +8.53947561744E-05 +1.34078960033E-03 +7.13013397675E-01 +5.15973415122E-01
2.64500000000E+09 +7.40398888114E-01 +3.88653462747E-01 +4.73974784158E-04 +1.47609057338E-03 +3.75127636902E-04 +1.32571734974E-03 +7.17509547984E-01 +5.06168545170E-01
2.65000000000E+09 +7.43225973918E-01 +3.79855360723E-01 +5.77649556744E-04 +1.16488891872E-03 +4.13865395986E-04 +1.13458737540E-03 +7.21551135957E-01 +4.95973833798E-01
2.65500000000E+09 +7.45404971529E-01 +3.71725976426E-01 +4.46760916424E-04 +1.14981414670E-03 +3.58057207391E-04 +1.20239608522E-03 +7.25216462555E-01 +4.85643215934E-01
2.66000000000E+09 +7.47011734482E-01 +3.63478780868E-01 +4.47021768124E-04 +1.25333611669E-03 +4.93793257692E-04 +1.38638234802E-03 +7.29250732537E-01 +4.74734890392E-01
2.66500000000E+09 +7.48490197278E-01 +3.54486823792E-01 +6.60875411697E-04 +1.43238213980E-03 +8.56862343252E-04 +1.44367713151E-03 +7.33272153706E-01 +4.63749113324E-01
2.67000000000E+09 +7.50088466776E-01 +3.42924936181E-01 +1.06737421487E-03 +1.36043913370E-03 +1.12799753518E-03 +1.28929994485E-03 +7.37661993281E-01 +4.53171628482E-01
2.67500000000E+09 +7.51694509516E-01 +3.29605311883E-01 +1.28070888240E-03 +1.28949957905E-03 +1.23930152264E-03 +1.14624771495E-03 +7.41699040894E-01 +4.42385190449E-01
2.68000000000E+09 +7.53285074674E-01 +3.13915954638E-01 +1.50529866864E-03 +9.87923205643E-04 +1.42754562184E-03 +9.54064801819E-04 +7.45701082572E-01 +4.31685661729E-01
2.68500000000E+09 +7.54648476745E-01 +2.97269262036E-01 +1.50080957550E-03 +8.82632103876E-04 +1.42283840870E-03 +8.90638920273E-04 +7.49161839371E-01 +4.20450087179E-01
2.69000000000E+09 +7.56235784196E-01 +2.80361932000E-01 +1.75205691701E-03 +7.82075614421E-04 +1.71600694937E-03 +7.30623507989E-04 +7.52008966450E-01 +4.08699162797E-01
2.69500000000E+09 +7.57861649719E-01 +2.64047367477E-01 +1.75999877925E-03 +5.96722218463E-04 +1.76092580306E-03 +5.55709871473E-04 +7.55160861100E-01 +3.96616381920E-01
2.70000000000E+09 +7.59296012925E-01 +2.48356264731E-01 +1.94066533840E-03 +4.08018766352E-04 +1.83746794598E-03 +4.17867385396E-04 +7.58559647648E-01 +3.83304592005E-01
2.70500000000E+09 +7.60497649709E-01 +2.34247258434E-01 +2.14338613176E-03 +2.26428159879E-04 +2.02936005814E-03 +3.26105705784E-04 +7.61470593743E-01 +3.70163929842E-01
2.71000000000E+09 +7.61641728130E-01 +2.20956776377E-01 +2.26079400834E-03 -9.55890642846E-05 +2.33902429548E-03 +5.60023418642E-06 +7.64555792983E-01 +3.57252278319E-01
2.71500000000E+09 +7.62159042254E-01 +2.07861185439E-01 +2.23748863405E-03 -5.85597222182E-04 +2.41969462827E-03 -5.97972419928E-04 +7.67465414739E-01 +3.44732671806E-01
2.72000000000E+09 +7.62570373267E-01 +1.94845419954E-01 +2.02303935769E-03 -8.52783128679E-04 +2.08993391791E-03 -1.00127335022E-03 +7.69841775700E-01 +3.32119870631E-01
2.72500000000E+09 +7.62235680059E-01 +1.80802395375E-01 +1.98638705178E-03 -1.02889531704E-03 +1.82077766172E-03 -1.19719278523E-03 +7.71670681862E-01 +3.18601123741E-01
2.73000000000E+09 +7.61152146329E-01 +1.65710607764E-01 +1.93504191521E-03 -1.32082660193E-03 +1.61568379608E-03 -1.28751778604E-03 +7.73330748910E-01 +3.04413006628E-01
2.73500000000E+09 +7.59318441251E-01 +1.49175419191E-01 +1.69818985921E-03 -1.62171090230E-03 +1.42669071392E-03 -1.37013709416E-03 +7.74809795732E-01 +2.89389038753E-01
2.74000000000E+09 +7.56898471731E-01 +1.32074328542E-01 +1.41263046080E-03 -1.58954834856E-03 +1.38999866767E-03 -1.34909833711E-03 +7.76534430811E-01 +2.74040552898E-01
2.74500000000E+09 +7.53449521277E-01 +1.14077544356E-01 +1.50764403145E-03 -1.75283947401E-03 +1.69005356636E-03 -1.49244792475E-03 +7.78181077494E-01 +2.58509590074E-01
2.75000000000E+09 +7.49022603674E-01 +9.60930125983E-02 +1.38064538323E-03 -2.01758338819E-03 +1.67380441160E-03 -1.92192696102E-03 +7.79127021389E-01 +2.42503107818E-01
2.75500000000E+09 +7.44249537069E-01 +7.86514072035E-02 +1.17403755105E-03 -2.39647492953E-03 +1.43029924337E-03 -2.50600589388E-03 +7.78827042832E-01 +2.26968998937E-01
2.76000000000E+09 +7.39278535501E-01 +6.13915848513E-02 +7.29872045481E-04 -2.74453292285E-03 +8.17125805382E-04 -2.91251039812E-03 +7.78237026437E-01 +2.11457425911E-01
2.76500000000E+09 +7.33794626478E-01 +4.38291882855E-02 +3.13323878144E-04 -2.66264424066E-03 +2.77872863100E-04 -2.83609850326E-03 +7.77587621755E-01 +1.94642549603E-01
2.77000000000E+09 +7.27662532194E-01 +2.55461354392E-02 -1.80397748188E-04 -2.81707061507E-03 -2.19578506451E-04 -2.94718819153E-03 +7.76297394260E-01 +1.76834483833E-01
2.77500000000E+09 +7.20871417704E-01 +6.99457945926E-03 -7.28697544360E-04 -2.58074831796E-03 -8.52929067091E-04 -2.60243702434E-03 +7.74204724172E-01 +1.58918555238E-01
2.78000000000E+09 +7.14171000441E-01 -1.23923020984E-02 -8.49105819306E-04 -2.12662136390E-03 -9.54157908418E-04 -2.17435597414E-03 +7.71800669173E-01 +1.40973260396E-01
2.78500000000E+09 +7.06844881223E-01 -3.30481339236E-02 -8.82829762607E-04 -1.93140515484E-03 -9.70801302755E-04 -1.84172343924E-03 +7.69143829440E-01 +1.23603269557E-01
2.79000000000E+09 +6.99215121332E-01 -5.40805579255E-02 -7.44624723047E-04 -2.09118930160E-03 -8.06788805858E-04 -1.87144842854E-03 +7.65955012726E-01 +1.06293518262E-01
2.79500000000E+09 +6.90999125418E-01 -7.54050971549E-02 -9.54476881586E-04 -2.44467070945E-03 -9.13817086813E-04 -2.24804967604E-03 +7.61890597850E-01 +8.86638304338E-02
2.80000000000E+09 +6.82140007322E-01 -9.60716418802E-02 -1.69357511239E-03 -2.44115921423E-03 -1.52383912678E-03 -2.32606446402E-03 +7.56982656866E-01 +7.04654301741E-02
2.80500000000E+09 +6.72596358209E-01 -1.15340205477E-01 -2.03607755687E-03 -1.98027840796E-03 -1.91568109381E-03 -2.08758933941E-03 +7.51513565430E-01 +5.18240278340E-02
2.81000000000E+09 +6.62180492365E-01 -1.32940020169E-01 -2.19368434651E-03 -1.59219466261E-03 -2.25938375325E-03 -1.63560063310E-03 +7.46078670430E-01 +3.28630693378E-02
2.81500000000E+09 +6.49980250983E-01 -1.48817883147E-01 -2.15324692840E-03 -1.47584530377E-03 -2.28319833858E-03 -1.48453408381E-03 +7.39818441769E-01 +1.25432821000E-02
2.82000000000E+09 +6.37305201846E-01 -1.63229508844E-01 -2.60181127327E-03 -1.21357480693E-03 -2.68494413337E-03 -1.10217226170E-03 +7.32535313218E-01 -7.66712576548E-03
2.82500000000E+09 +6.22902898745E-01 -1.77772637124E-01 -2.66353574076E-03 -7.71307126732E-04 -2.59076298672E-03 -6.55167454203E-04 +7.24214395507E-01 -2.77021897278E-02
2.83000000000E+09 +6.06276720806E-01 -1.93316957567E-01 -2.74208883557E-03 -4.67981462365E-04 -2.56457027934E-03 -4.39090322243E-04 +7.15465882343E-01 -4.80487035512E-02
2.83500000000E+09 +5.87340399902E-01 -2.09877133463E-01 -2.56639231957E-03 -1.10247605023E-04 -2.49918920575E-03 -1.98062025572E-04 +7.05298862864E-01 -6.86983687218E-02
2.84000000000E+09 +5.66084079099E-01 -2.27963393441E-01 -2.62563124627E-03 -4.08730018104E-05 -2.60563643986E-03 -1.61277913147E-04 +6.94394191211E-01 -9.00650323477E-02
2.84500000000E+09 +5.42652304520E-01 -2.47313722186E-01 -2.78047904925E-03 +2.76735778462E-04 -2.81077370907E-03 +2.38811809690E-04 +6.81431297821E-01 -1.11583845145E-01
2.85000000000E+09 +5.17665033815E-01 -2.67331072302E-01 -2.78890951871E-03 +7.23432635373E-04 -2.74528618789E-03 +7.47667250265E-04 +6.66962317990E-01 -1.32481371385E-01
2.85500000000E+09 +4.91296056748E-01 -2.86595405670E-01 -2.58810718439E-03 +1.01882389426E-03 -2.63175258497E-03 +1.01936178129E-03 +6.51286000274E-01 -1.52648374019E-01
2.86000000000E+09 +4.65573977602E-01 -3.03579435563E-01 -2.21821268383E-03 +1.40844197568E-03 -2.17943883057E-03 +1.36352788545E-03 +6.35528190359E-01 -1.72610105377E-01
2.86500000000E+09 +4.41519241737E-01 -3.18688543457E-01 -2.26695144937E-03 +1.06110895079E-03 -2.25733854514E-03 +9.98072451166E-04 +6.18067854577E-01 -1.93517129287E-01
2.87000000000E+09 +4.18149964851E-01 -3.33062300423E-01 -2.37687652176E-03 +1.90236077157E-03 -2.40808691055E-03 +1.89046439217E-03 +5.98544427956E-01 -2.13599333017E-01
2.87500000000E+09 +3.93785124479E-01 -3.45066949341E-01 -1.79924133061E-03 +1.74352057886E-03 -1.75909381099E-03 +1.76834234359E-03 +5.77681729306E-01 -2.32918489502E-01
2.88000000000E+09 +3.68548903650E-01 -3.54979769515E-01 -2.17137337789E-03 +1.86819216186E-03 -2.04788357317E-03 +1.88254317104E-03 +5.56628132475E-01 -2.50942554589E-01
2.88500000000E+09 +3.40806255676E-01 -3.62155137675E-01 -1.78201867869E-03 +2.67896216727E-03 -1.64696070907E-03 +2.54582182289E-03 +5.34344291624E-01 -2.69750489461E-01
2.89000000000E+09 +3.11838935662E-01 -3.66954515620E-01 -1.38471282303E-03 +2.68864963544E-03 -1.36619401488E-03 +2.49276832539E-03 +5.09066863684E-01 -2.87948916233E-01
2.89500000000E+09 +2.80966288073E-01 -3.70859191955E-01 -1.05418986968E-03 +2.80110301840E-03 -1.17308488020E-03 +2.62366470568E-03 +4.82417553423E-01 -3.04785156328E-01
2.90000000000E+09 +2.48123798738E-01 -3.73923820015E-01 -6.50939181527E-04 +2.96214404263E-03 -8.04874014463E-04 +2.97770231446E-03 +4.54741541944E-01 -3.21105037301E-01
2.90500000000E+09 +2.12433676918E-01 -3.76397087036E-01 -4.10132465593E-04 +2.92735320132E-03 -3.66373587100E-04 +3.00354370426E-03 +4.25954570956E-01 -3.36289987778E-01
2.91000000000E+09 +1.75960593658E-01 -3.76809356561E-01 +8.28476411149E-05 +3.00745126314E-03 +1.31594470923E-04 +3.03944206814E-03 +3.96644441256E-01 -3.51479294256E-01
2.91500000000E+09 +1.39316127478E-01 -3.75794305085E-01 +3.37834324316E-04 +3.13247308705E-03 +3.73702077165E-04 +3.00399065319E-03 +3.63913009936E-01 -3.64979487507E-01
2.92000000000E+09 +1.02632355063E-01 -3.71968568657E-01 +1.04158234746E-03 +3.00655487290E-03 +9.31484763287E-04 +2.88296403331E-03 +3.29643853090E-01 -3.75427096594E-01
2.92500000000E+09 +6.87879656425E-02 -3.64782836755E-01 +1.32564983452E-03 +2.49951689859E-03 +1.16957551851E-03 +2.41176233762E-03 +2.94317631778E-01 -3.82908069417E-01
2.93000000000E+09 +3.73212554090E-02 -3.56071037186E-01 +1.37127032774E-03 +2.09185159952E-03 +1.22437903297E-03 +2.14465835303E-03 +2.58379206875E-01 -3.89648206806E-01
2.93500000000E+09 +6.86072840003E-03 -3.45659756269E-01 +1.33954005871E-03 +2.12443274332E-03 +1.20842703882E-03 +2.14686983245E-03 +2.20130749753E-01 -3.95172035817E-01
2.94000000000E+09 -2.32367221600E-02 -3.32998107432E-01 +1.51739050025E-03 +1.84978994181E-03 +1.47548338200E-03 +1.89274325027E-03 +1.79377251476E-01 -3.98219940900E-01
2.94500000000E+09 -5.38687500076E-02 -3.17896896664E-01 +1.33123051037E-03 +1.95588597529E-03 +1.28953142110E-03 +2.06811780639E-03 +1.40173501774E-01 -3.97120286582E-01
2.95000000000E+09 -8.55246622568E-02 -2.98599158958E-01 +1.86075571637E-03 +2.16002116765E-03 +1.81690807066E-03 +2.18446755761E-03 +1.00182001525E-01 -3.95185761844E-01
2.95500000000E+09 -1.15283533277E-01 -2.75416459210E-01 +2.32563677441E-03 +1.78431638089E-03 +2.28847136051E-03 +1.94014862609E-03 +6.01605706382E-02 -3.89735454881E-01
2.96000000000E+09 -1.43922052240E-01 -2.51280848973E-01 +2.10883205792E-03 +9.62550374650E-04 +2.20218426169E-03 +1.05730071262E-03 +1.86985546536E-02 -3.81565933405E-01
2.96500000000E+09 -1.71076603416E-01 -2.24687799322E-01 +1.72069305420E-03 +1.22490834148E-03 +1.78491686358E-03 +1.25169654214E-03 -2.24345934496E-02 -3.68308623412E-01
2.97000000000E+09 -1.95304226679E-01 -1.97962311583E-01 +1.95898844843E-03 +1.58206707905E-03 +1.98903087063E-03 +1.54769492093E-03 -6.18107080021E-02 -3.52577725936E-01
2.97500000000E+09 -2.18590086298E-01 -1.71101790401E-01 +2.67508887410E-03 +1.70867405270E-03 +2.62021898899E-03 +1.63612740059E-03 -9.98881314977E-02 -3.35284382159E-01
2.98000000000E+09 -2.40840583686E-01 -1.42486774928E-01 +3.22100379535E-03 +1.23070503246E-03 +3.11665413608E-03 +1.30508948333E-03 -1.37498961577E-01 -3.15522809306E-01
2.98500000000E+09 -2.60146564739E-01 -1.12300384876E-01 +3.30470090782E-03 +4.35324936143E-04 +3.31308950564E-03 +5.38236694674E-04 -1.73673356034E-01 -2.93448806578E-01
2.99000000000E+09 -2.76953176528E-01 -8.06323970241E-02 +3.17612442115E-03 +3.20060210918E-04 +3.30241656308E-03 +3.44237836693E-04 -2.08624578843E-01 -2.67779685090E-01
2.99500000000E+09 -2.91346709504E-01 -4.87266883894E-02 +3.42559924677E-03 +2.44938148382E-05 +3.60419660525E-03 -5.08695953764E-05 -2.41552002557E-01 -2.38999109217E-01
3.00000000000E+09 -3.04148983760E-01 -1.54395196230E-02 +3.73240961583E-03 -5.23788185239E-04 +3.75616418090E-03 -6.59258386654E-04 -2.71844008731E-01 -2.07523294578E-01
3.00500000000E+09 -3.14529265981E-01 +1.73311599789E-02 +3.80869547610E-03 -1.07127828994E-03 +3.63950554773E-03 -1.11139587413E-03 -3.00060938561E-01 -1.75540436400E-01
3.01000000000E+09 -3.23646672879E-01 +4.98746811534E-02 +3.47747016366E-03 -2.14142925218E-03 +3.37933088153E-03 -1.91987412854E-03 -3.26411200952E-01 -1.40890946078E-01
3.01500000000E+09 -3.30913480942E-01 +8.29285826518E-02 +2.92377564639E-03 -2.29012073936E-03 +3.01709811281E-03 -2.18342670523E-03 -3.50204535941E-01 -1.05962094285E-01
3.02000000000E+09 -3.34372972386E-01 +1.14378180672E-01 +2.54009256787E-03 -2.61910638711E-03 +2.69918211489E-03 -2.53231215893E-03 -3.71124891850E-01 -6.90993994975E-02
3.02500000000E+09 -3.36006224116E-01 +1.44204211919E-01 +2.28746585346E-03 -2.77457936318E-03 +2.39458152162E-03 -2.74896982975E-03 -3.88666726010E-01 -3.19704505389E-02
3.03000000000E+09 -3.35037696944E-01 +1.72953824780E-01 +1.98089050577E-03 -3.17159069825E-03 +2.01916731850E-03 -3.19897668952E-03 -4.04482262732E-01 +7.16072214280E-03
3.03500000000E+09 -3.31554038518E-01 +2.01460136574E-01 +1.45548580881E-03 -3.16226224624E-03 +1.46382926383E-03 -3.18747112485E-03 -4.17014137476E-01 +4.77219026173E-02
3.04000000000E+09 -3.24572905561E-01 +2.30429049294E-01 +1.09071918581E-03 -3.49677591735E-03 +1.18834700032E-03 -3.54777997420E-03 -4.24607041492E-01 +8.82280687077E-02
3.04500000000E+09 -3.15145228894E-01 +2.58245564853E-01 +5.99194629934E-04 -3.33532031333E-03 +6.64198308848E-04 -3.49534143884E-03 -4.30959040553E-01 +1.27117882745E-01
3.05000000000E+09 -3.03612663315E-01 +2.87751516844E-01 +3.56971367196E-04 -3.34660300705E-03 +2.42619484561E-04 -3.48687679461E-03 -4.34632487700E-01 +1.66048176470E-01
3.05500000000E+09 -2.89900095857E-01 +3.15670502801E-01 +1.38234744604E-04 -3.31799309429E-03 -1.29836882667E-05 -3.39764196001E-03 -4.36132644638E-01 +2.04782656331E-01
3.06000000000E+09 -2.76648713008E-01 +3.43282316045E-01 -2.86828367358E-04 -3.57944211246E-03 -3.96368161460E-04 -3.44719156230E-03 -4.34949736133E-01 +2.42439914293E-01
3.06500000000E+09 -2.62869745463E-01 +3.70502163734E-01 -8.07903664813E-04 -3.70435855476E-03 -6.90647811948E-04 -3.51334639332E-03 -4.31227393530E-01 +2.79984708980E-01
3.07000000000E+09 -2.49682357666E-01 +3.96155997163E-01 -1.70748880779E-03 -3.48043191793E-03 -1.48956252924E-03 -3.52245095677E-03 -4.25066739502E-01 +3.15909159840E-01
