# Hz S RI R 50
! CMT, C1220, 16058040, 17.2.0/1
! Date: 15/08/2018 10:45:07
! Data: Format (Calibration Info)
! Freq                      S11: Re/Im (F2)                       S21: Re/Im (F2)                       S12: Re/Im (F2)                       S22: Re/Im (F2)            
2.50000000000E+09 +5.91674290968E-01 +6.53247894220E-01 -3.79094475348E-05 -2.56356663035E-04 -3.68880540736E-06 -2.71320461878E-04 +5.63764334845E-01 +7.25815930938E-01
2.50500000000E+09 +5.98586066025E-01 +6.44968840771E-01 -5.79256935648E-05 -2.53954370096E-04 -8.19694022921E-05 -3.19235415674E-04 +5.69768931409E-01 +7.20322313806E-01
2.51000000000E+09 +6.06082635033E-01 +6.36711547523E-01 -7.29785488309E-05 -3.36832616912E-04 -1.16825832816E-04 -3.42893596340E-04 +5.75748912954E-01 +7.14951397964E-01
2.51500000000E+09 +6.13873948141E-01 +6.28894219010E-01 -1.74001088614E-04 -3.87892161591E-04 -1.76537564068E-04 -3.55093992978E-04 +5.81248258068E-01 +7.09430757163E-01
2.52000000000E+09 +6.20959539269E-01 +6.21308743207E-01 -2.26308346312E-04 -3.26365687315E-04 -2.46058286392E-04 -3.37208390743E-04 +5.86672404241E-01 +7.03354604857E-01
2.52500000000E+09 +6.26825420577E-01 +6.14820500480E-01 -3.14701023668E-04 -3.09166272736E-04 -3.11218691763E-04 -2.75895313277E-04 +5.92792584184E-01 +6.96934696745E-01
2.53000000000E+09 +6.31807507710E-01 +6.09154783779E-01 -3.77779441215E-04 -2.46722718410E-04 -3.21016621719E-04 -2.92697602054E-04 +5.99036474208E-01 +6.89722220916E-01
2.53500000000E+09 +6.35939257689E-01 +6.03754211621E-01 -4.07161955947E-04 -2.09058447567E-04 -4.22420558795E-04 -2.23756997850E-04 +6.05059075478E-01 +6.82537488830E-01
2.54000000000E+09 +6.39359175323E-01 +5.97786996783E-01 -4.24909193702E-04 -1.80572053352E-04 -4.01475902621E-04 -1.86909594453E-04 +6.10699722336E-01 +6.75527026663E-01
2.54500000000E+09 +6.42928453660E-01 +5.91458152784E-01 -4.74444789204E-04 -1.41255162526E-04 -4.79130472315E-04 -1.58347598571E-04 +6.16056357320E-01 +6.69234877030E-01
2.55000000000E+09 +6.47471155893E-01 +5.84031341393E-01 -5.07665544658E-04 -6.53835804714E-05 -5.42121774499E-04 -1.19913230042E-04 +6.21175802285E-01 +6.63085561095E-01
2.55500000000E+09 +6.52810345657E-01 +5.75072057422E-01 -5.17512138567E-04 -4.93377774927E-05 -5.10304305291E-04 -9.09287053755E-05 +6.26195766519E-01 +6.56794899920E-01
2.56000000000E+09 +6.59572411900E-01 +5.65354309713E-01 -4.70608113230E-04 -5.27464600902E-05 -5.35270009929E-04 -2.36796128785E-05 +6.31184295295E-01 +6.49655635874E-01
2.56500000000E+09 +6.66909584228E-01 +5.54909482669E-01 -5.51147459581E-04 -1.15387129493E-04 -6.44395057753E-04 +5.39894017445E-05 +6.36432026004E-01 +6.42162634888E-01
2.57000000000E+09 +6.74648840790E-01 +5.44950817981E-01 -6.35286333752E-04 +4.91382893716E-05 -6.02830083341E-04 +1.86883408281E-04 +6.41413423254E-01 +6.34399548922E-01
2.57500000000E+09 +6.82309726113E-01 +5.35597022010E-01 -6.68016687069E-04 +1.45953764916E-04 -5.33817476661E-04 +2.50655435054E-04 +6.46589796283E-01 +6.27131116800E-01
2.58000000000E+09 +6.88949670164E-01 +5.27381111969E-01 -6.51370485309E-04 +1.91226845493E-04 -5.05445290699E-04 +2.13408279855E-04 +6.51764187737E-01 +6.20058181827E-01
2.58500000000E+09 +6.94387683217E-01 +5.20113260647E-01 -6.90663987545E-04 +2.48736843192E-04 -6.20551605812E-04 +1.73398081499E-04 +6.56835610389E-01 +6.12831067374E-01
2.59000000000E+09 +6.98306608402E-01 +5.14104093099E-01 -7.59535727200E-04 +3.98544180195E-04 -7.30968747176E-04 +2.80125398882E-04 +6.62018385089E-01 +6.05640839673E-01
2.59500000000E+09 +7.01552095773E-01 +5.08037481808E-01 -6.93268930533E-04 +5.40315977381E-04 -6.98528902768E-04 +4.66867849357E-04 +6.67337024083E-01 +5.97804952061E-01
2.60000000000E+09 +7.03989616995E-01 +5.01505691558E-01 -5.43705340870E-04 +5.50361260975E-04 -5.63073234185E-04 +6.09244067055E-04 +6.73008254024E-01 +5.89606686134E-01
2.60500000000E+09 +7.06519175025E-01 +4.93134595722E-01 -6.01172107108E-04 +5.99379598034E-04 -6.32999600537E-04 +6.10896639980E-04 +6.78743950757E-01 +5.80750137200E-01
2.61000000000E+09 +7.09440401640E-01 +4.82809558778E-01 -6.58602530495E-04 +8.58428859000E-04 -7.05116916346E-04 +8.49979688683E-04 +6.83915833314E-01 +5.71798847828E-01
2.61500000000E+09 +7.13364403966E-01 +4.70497572414E-01 -3.92619882659E-04 +9.69603342857E-04 -3.89029566231E-04 +1.01923598247E-03 +6.89113399436E-01 +5.63169104901E-01
2.62000000000E+09 +7.17943687570E-01 +4.56228682978E-01 -2.42199417709E-04 +8.11992279405E-04 -2.94191511580E-04 +8.94228350941E-04 +6.94166799906E-01 +5.54042983127E-01
2.62500000000E+09 +7.23241931845E-01 +4.40808844442E-01 -3.32647158641E-04 +9.06559118148E-04 -2.80432576353E-04 +1.01468305578E-03 +6.99015357191E-01 +5.45094892522E-01
2.63000000000E+09 +7.28498590169E-01 +4.25529567700E-01 -2.97684309461E-04 +1.07652496603E-03 -9.67489720235E-05 +1.12167811645E-03 +7.03828659732E-01 +5.35623860021E-01
2.63500000000E+09 +7.33592548320E-01 +4.11385549975E-01 -2.14385489776E-04 +1.16591320031E-03 -8.06251204383E-05 +1.08717119061E-03 +7.08395536256E-01 +5.26142636604E-01
2.64000000000E+09 +7.37991860832E-01 +3.98988414480E-01 -3.30651736146E-05 +1.45619259396E-03 +9.49995978088E-06 +1.25978643075E-03 +7.12898873425E-01 +5.16354075070E-01
2.64500000000E+09 +7.42057044461E-01 +3.88714996640E-01 +4.53549894371E-04 +1.43757776422E-03 +3.00287369547E-04 +1.27183043420E-03 +7.17321014349E-01 +5.06579164509E-01
2.65000000000E+09 +7.45011862699E-01 +3.79904163486E-01 +6.56000517159E-04 +1.10693518097E-03 +4.61040343358E-04 +1.12361010208E-03 +7.21419675115E-01 +4.96510828156E-01
2.65500000000E+09 +7.47251106273E-01 +3.71653235751E-01 +5.57963176177E-04 +9.78464024693E-04 +4.97702245608E-04 +1.08124354839E-03 +7.25167269900E-01 +4.86033558075E-01
2.66000000000E+09 +7.49019704266E-01 +3.63388018284E-01 +4.87970623216E-04 +1.08110059903E-03 +5.08379741538E-04 +1.20268836469E-03 +7.29137016743E-01 +4.74937603257E-01
2.66500000000E+09 +7.50519661186E-01 +3.54129566527E-01 +7.19133226201E-04 +1.26914761959E-03 +8.34879062227E-04 +1.25545459225E-03 +7.33160855706E-01 +4.64022694197E-01
2.67000000000E+09 +7.51722941961E-01 +3.42574416812E-01 +1.05472920952E-03 +1.17450724922E-03 +1.12890075387E-03 +1.09707059293E-03 +7.37481286744E-01 +4.53282008735E-01
2.67500000000E+09 +7.53124491601E-01 +3.29352759854E-01 +1.26568799343E-03 +1.02531108735E-03 +1.20248589809E-03 +9.39231051029E-04 +7.41531005710E-01 +4.42384461170E-01
2.68000000000E+09 +7.54886425373E-01 +3.13897973772E-01 +1.37917515776E-03 +7.47856095125E-04 +1.32222337218E-03 +7.60049759505E-04 +7.45395719327E-01 +4.31588210177E-01
2.68500000000E+09 +7.56335334906E-01 +2.97148645170E-01 +1.30644398313E-03 +7.09114133114E-04 +1.24203670423E-03 +7.50450566405E-04 +7.48533658678E-01 +4.20483808156E-01
2.69000000000E+09 +7.58088479965E-01 +2.79964833155E-01 +1.55900799593E-03 +7.82385968792E-04 +1.51740878223E-03 +8.09094429686E-04 +7.51526870947E-01 +4.08800475665E-01
2.69500000000E+09 +7.59765195129E-01 +2.63450958986E-01 +1.86668644583E-03 +5.76965347353E-04 +1.81813971988E-03 +5.52461800963E-04 +7.54671536603E-01 +3.96626848481E-01
2.70000000000E+09 +7.61172490315E-01 +2.47630158214E-01 +2.02157372663E-03 +1.87988219624E-04 +1.98742518169E-03 +2.29753406834E-04 +7.57960457298E-01 +3.83301570203E-01
2.70500000000E+09 +7.62360448722E-01 +2.33247145393E-01 +2.04886226410E-03 -9.14187114228E-05 +2.03920986456E-03 +1.77796635342E-05 +7.60703212331E-01 +3.70260849582E-01
2.71000000000E+09 +7.63313973240E-01 +2.19808888754E-01 +1.98833022313E-03 -4.92733204898E-04 +2.04363406626E-03 -3.47642912281E-04 +7.63893951438E-01 +3.57311202165E-01
2.71500000000E+09 +7.63933376187E-01 +2.06587143774E-01 +1.78517353850E-03 -7.12763000768E-04 +1.93565777903E-03 -6.85502110325E-04 +7.66539349662E-01 +3.44783547713E-01
2.72000000000E+09 +7.64026911216E-01 +1.93653118778E-01 +1.78405402076E-03 -7.39509531899E-04 +1.86137873618E-03 -8.70789468583E-04 +7.68763284258E-01 +3.32155965986E-01
2.72500000000E+09 +7.64076650230E-01 +1.79412712594E-01 +1.86751366334E-03 -9.82028508700E-04 +1.72099630260E-03 -1.17400656449E-03 +7.70521785455E-01 +3.18815576716E-01
2.73000000000E+09 +7.63147860170E-01 +1.64087351419E-01 +1.79874295474E-03 -1.32047956423E-03 +1.54576255384E-03 -1.35300888106E-03 +7.72119941334E-01 +3.04719185905E-01
2.73500000000E+09 +7.61449238964E-01 +1.47101889273E-01 +1.55182296221E-03 -1.59257892173E-03 +1.32096374590E-03 -1.40721859247E-03 +7.73696420202E-01 +2.89776370801E-01
2.74000000000E+09 +7.58683297890E-01 +1.29521371697E-01 +1.32811233551E-03 -1.73107851760E-03 +1.26910314614E-03 -1.46745390524E-03 +7.75340025883E-01 +2.74515594471E-01
2.74500000000E+09 +7.54984008614E-01 +1.11393582973E-01 +1.29167605024E-03 -1.95644528187E-03 +1.41209090867E-03 -1.72449560223E-03 +7.76927255493E-01 +2.58940076773E-01
2.75000000000E+09 +7.50540843957E-01 +9.32815191022E-02 +9.62262738166E-04 -2.23525731618E-03 +1.22754019632E-03 -2.17259279585E-03 +7.77860028250E-01 +2.43170683599E-01
2.75500000000E+09 +7.45417243674E-01 +7.56359615591E-02 +6.03783870964E-04 -2.33193112533E-03 +8.37224278854E-04 -2.42642041598E-03 +7.77391185923E-01 +2.27548200266E-01
2.76000000000E+09 +7.40291969713E-01 +5.80751598652E-02 +3.06842448282E-04 -2.43775814454E-03 +3.27670819681E-04 -2.61137977270E-03 +7.76728230962E-01 +2.12101072545E-01
2.76500000000E+09 +7.34352948124E-01 +4.04173907911E-02 -1.57329731468E-05 -2.45588228718E-03 -5.71960422231E-05 -2.53568271087E-03 +7.75870449225E-01 +1.95483132639E-01
2.77000000000E+09 +7.27996014569E-01 +2.20353288994E-02 -3.31208468295E-04 -2.51233680316E-03 -4.07866900426E-04 -2.66392339596E-03 +7.74346920130E-01 +1.77968519015E-01
2.77500000000E+09 +7.21225417020E-01 +3.17851671801E-03 -8.80426063265E-04 -2.43811176088E-03 -9.84400152738E-04 -2.53664173068E-03 +7.72327844783E-01 +1.60421949859E-01
2.78000000000E+09 +7.14097309008E-01 -1.64250304462E-02 -1.09287543836E-03 -2.03875592119E-03 -1.23777403522E-03 -2.04029335648E-03 +7.70190503694E-01 +1.42626807276E-01
2.78500000000E+09 +7.06270893301E-01 -3.75145175809E-02 -1.22587727344E-03 -1.71478809046E-03 -1.31718707886E-03 -1.63036323944E-03 +7.67481854679E-01 +1.25561136196E-01
2.79000000000E+09 +6.97613348789E-01 -5.83210074417E-02 -1.05465658595E-03 -1.69964952515E-03 -1.09142476407E-03 -1.57086602503E-03 +7.64452128182E-01 +1.08587558297E-01
2.79500000000E+09 +6.89283919588E-01 -7.90886704621E-02 -1.19668822693E-03 -1.92138562132E-03 -1.13690476391E-03 -1.76408501653E-03 +7.60487159783E-01 +9.10372610954E-02
2.80000000000E+09 +6.80262548463E-01 -9.96050326949E-02 -1.69620085777E-03 -1.89622498671E-03 -1.63219655751E-03 -1.88388340602E-03 +7.55830228154E-01 +7.33256508607E-02
2.80500000000E+09 +6.70653007399E-01 -1.18977928443E-01 -2.01568620085E-03 -1.61606828783E-03 -1.92688067512E-03 -1.65838514182E-03 +7.50641075957E-01 +5.47991653392E-02
2.81000000000E+09 +6.59815984821E-01 -1.36631226990E-01 -2.25647790670E-03 -1.20874252702E-03 -2.26356601426E-03 -1.29021364996E-03 +7.45420738850E-01 +3.62226111842E-02
2.81500000000E+09 +6.47331238120E-01 -1.52665271845E-01 -2.13537119711E-03 -1.06206053426E-03 -2.17053299832E-03 -1.00400564765E-03 +7.39966680995E-01 +1.61446809443E-02
2.82000000000E+09 +6.33657657730E-01 -1.67026348359E-01 -2.47577001136E-03 -9.41771092688E-04 -2.46946324065E-03 -8.53938838150E-04 +7.33176813939E-01 -4.18639444174E-03
2.82500000000E+09 +6.18979076328E-01 -1.80892890806E-01 -2.65162777484E-03 -4.79656381370E-04 -2.56236153177E-03 -4.29908228428E-04 +7.25323122923E-01 -2.46396046111E-02
2.83000000000E+09 +6.01992151007E-01 -1.96437427091E-01 -2.74110905238E-03 -1.42160111497E-04 -2.57059117589E-03 -1.41467323387E-04 +7.16811462321E-01 -4.53049218734E-02
2.83500000000E+09 +5.82272082397E-01 -2.12448758721E-01 -2.62906742056E-03 +3.67812373476E-04 -2.52968791749E-03 +2.11015757471E-04 +7.06684161462E-01 -6.64386822721E-02
2.84000000000E+09 +5.60855567080E-01 -2.30002220392E-01 -2.34453461870E-03 +6.29989914903E-04 -2.36447363095E-03 +4.98070882707E-04 +6.95547538690E-01 -8.78948605158E-02
2.84500000000E+09 +5.36972931328E-01 -2.48919227008E-01 -2.38978560076E-03 +5.43545750824E-04 -2.31494738431E-03 +4.64246583037E-04 +6.82587578218E-01 -1.09214675708E-01
2.85000000000E+09 +5.12399014842E-01 -2.68251277757E-01 -2.59283909614E-03 +8.17403602306E-04 -2.60945929848E-03 +8.13226968154E-04 +6.68556364518E-01 -1.29971761922E-01
2.85500000000E+09 +4.85823929916E-01 -2.87695517400E-01 -2.56717472703E-03 +1.39311046201E-03 -2.53487027772E-03 +1.33699781387E-03 +6.53251815084E-01 -1.50191632368E-01
2.86000000000E+09 +4.59424250651E-01 -3.04346897792E-01 -2.18482442132E-03 +1.85571091766E-03 -2.13285534799E-03 +1.84557149899E-03 +6.37920563895E-01 -1.70565977934E-01
2.86500000000E+09 +4.35024338206E-01 -3.18813909652E-01 -1.81004888990E-03 +1.68274646135E-03 -1.86890792828E-03 +1.68997916855E-03 +6.20396854045E-01 -1.91907102496E-01
2.87000000000E+09 +4.11121965425E-01 -3.32039777643E-01 -1.99567208495E-03 +2.24526589152E-03 -2.03116167733E-03 +2.22630523424E-03 +6.00814604153E-01 -2.12133762059E-01
2.87500000000E+09 +3.87016673612E-01 -3.42998920772E-01 -1.32742720671E-03 +2.29919995294E-03 -1.25307718051E-03 +2.34247974462E-03 +5.79957671400E-01 -2.31434036843E-01
2.88000000000E+09 +3.62517828265E-01 -3.51976394154E-01 -1.50390951909E-03 +2.33812238684E-03 -1.40417755843E-03 +2.28618171741E-03 +5.59132138998E-01 -2.49297617144E-01
2.88500000000E+09 +3.35302462353E-01 -3.59448043817E-01 -1.19483247429E-03 +2.99143571985E-03 -1.08939770086E-03 +2.82048172136E-03 +5.37137569001E-01 -2.68367478817E-01
2.89000000000E+09 +3.05863594990E-01 -3.63892697663E-01 -5.44302128334E-04 +3.17617645318E-03 -5.63140679595E-04 +2.95310516303E-03 +5.12458323309E-01 -2.86461779211E-01
2.89500000000E+09 +2.74819344516E-01 -3.67394812455E-01 +1.18050217677E-04 +2.90011959817E-03 +1.48370617384E-05 +2.79419343075E-03 +4.86512127608E-01 -3.04070860504E-01
2.90000000000E+09 +2.41582448887E-01 -3.69387327544E-01 +2.92148777214E-04 +2.74366597423E-03 +2.14168942833E-04 +2.76665500507E-03 +4.59093907140E-01 -3.21233308313E-01
2.90500000000E+09 +2.06258635007E-01 -3.70457190973E-01 +3.51445099888E-04 +2.67234112536E-03 +4.09283512954E-04 +2.70609784055E-03 +4.30099129312E-01 -3.37415067535E-01
2.91000000000E+09 +1.70628722777E-01 -3.69993381449E-01 +1.04879291051E-03 +2.95081639846E-03 +1.13040136503E-03 +2.92702907776E-03 +4.00039440818E-01 -3.53417554695E-01
2.91500000000E+09 +1.34506854804E-01 -3.68021192242E-01 +1.56548935694E-03 +2.51217545821E-03 +1.50515124980E-03 +2.37830684825E-03 +3.66925460142E-01 -3.66998608367E-01
2.92000000000E+09 +9.93966966910E-02 -3.63870309048E-01 +2.14071568337E-03 +2.13512512019E-03 +1.88679115315E-03 +2.04364396613E-03 +3.32307359123E-01 -3.77857717691E-01
2.92500000000E+09 +6.61489215426E-02 -3.56695652817E-01 +2.01434184791E-03 +1.18128495999E-03 +1.95023950014E-03 +1.21511094960E-03 +2.96844773983E-01 -3.85689828882E-01
2.93000000000E+09 +3.49705515652E-02 -3.48015112062E-01 +1.58210404379E-03 +1.02341014684E-03 +1.48963467900E-03 +1.01620869649E-03 +2.60428419818E-01 -3.92963430303E-01
2.93500000000E+09 +4.59733721853E-03 -3.37058157744E-01 +1.55487263039E-03 +1.18294326502E-03 +1.55381739880E-03 +1.18578259683E-03 +2.21631455946E-01 -3.98944617216E-01
2.94000000000E+09 -2.51053261158E-02 -3.23011715808E-01 +1.79639313047E-03 +6.65964885637E-04 +1.73427025016E-03 +7.00143365606E-04 +1.80054641949E-01 -4.02067176555E-01
2.94500000000E+09 -5.41133364422E-02 -3.06970236078E-01 +1.25508029646E-03 +7.74029845589E-04 +1.20578954400E-03 +8.44588865853E-04 +1.39972343182E-01 -4.00907602216E-01
2.95000000000E+09 -8.43827509309E-02 -2.87446281234E-01 +1.63623959379E-03 +9.43391157712E-04 +1.60677658995E-03 +1.03876290103E-03 +9.92486727734E-02 -3.98319488386E-01
2.95500000000E+09 -1.12325789058E-01 -2.64196969888E-01 +1.70056765417E-03 +8.41351372231E-04 +1.63918074583E-03 +9.21974827178E-04 +5.87964545098E-02 -3.92512858203E-01
2.96000000000E+09 -1.39618248584E-01 -2.41189937014E-01 +1.82607588032E-03 +1.87176558295E-04 +1.87180568564E-03 +2.34545878156E-04 +1.73676306375E-02 -3.83360562727E-01
2.96500000000E+09 -1.66666877070E-01 -2.15071427836E-01 +1.12600500346E-03 +2.72477491133E-04 +1.20457694093E-03 +3.72067315343E-04 -2.35535650124E-02 -3.70119996107E-01
2.97000000000E+09 -1.90076503108E-01 -1.87945235819E-01 +1.22919177315E-03 +7.52582918179E-04 +1.28610937194E-03 +7.24452981947E-04 -6.26854431315E-02 -3.54289393733E-01
2.97500000000E+09 -2.12012537304E-01 -1.61377584010E-01 +1.69778773310E-03 +1.00330818706E-03 +1.68674206028E-03 +1.01464422028E-03 -1.01208052445E-01 -3.37238690924E-01
2.98000000000E+09 -2.33214238045E-01 -1.33203777280E-01 +2.26473318018E-03 +9.03503507034E-04 +2.18579820322E-03 +9.11756524770E-04 -1.39056605837E-01 -3.17509490775E-01
2.98500000000E+09 -2.51135589323E-01 -1.03230024734E-01 +2.62061739127E-03 +2.04813381229E-04 +2.57758298526E-03 +3.24482899542E-04 -1.75855427853E-01 -2.95048809027E-01
2.99000000000E+09 -2.66505193635E-01 -7.25697346544E-02 +2.50076918045E-03 -1.94819277011E-04 +2.60453765753E-03 -2.12858009994E-04 -2.11009068028E-01 -2.68725389114E-01
2.99500000000E+09 -2.79570211763E-01 -4.19063463347E-02 +2.42776340947E-03 -2.37803116989E-04 +2.52012167647E-03 -3.78666656405E-04 -2.43328047438E-01 -2.39445768073E-01
3.00000000000E+09 -2.92046066770E-01 -1.07913792134E-02 +2.73651870251E-03 -8.06918593405E-04 +2.71803913032E-03 -1.00147277615E-03 -2.73894464963E-01 -2.08385094834E-01
3.00500000000E+09 -3.02827022815E-01 +2.12126250401E-02 +2.59690656919E-03 -1.04958918108E-03 +2.44827891029E-03 -1.09134728465E-03 -3.02371458194E-01 -1.75933301285E-01
3.01000000000E+09 -3.11535623886E-01 +5.29001236606E-02 +2.42667177820E-03 -1.81677009541E-03 +2.37179607625E-03 -1.70070365694E-03 -3.28572398157E-01 -1.41061390297E-01
3.01500000000E+09 -3.18740975480E-01 +8.46716494513E-02 +1.86082305641E-03 -1.87164214125E-03 +1.94344753747E-03 -1.74726773037E-03 -3.52498119114E-01 -1.05814850692E-01
3.02000000000E+09 -3.22257462743E-01 +1.15534904833E-01 +1.70840086430E-03 -2.05393926122E-03 +1.82603623161E-03 -2.00102083168E-03 -3.73311822994E-01 -6.83651005841E-02
3.02500000000E+09 -3.23200817980E-01 +1.44596484406E-01 +1.69877016067E-03 -2.22582644864E-03 +1.74840612872E-03 -2.25060039956E-03 -3.90835537628E-01 -3.08021985977E-02
3.03000000000E+09 -3.22121469736E-01 +1.71597840986E-01 +1.23700141686E-03 -2.67936564884E-03 +1.22519401254E-03 -2.62636890709E-03 -4.06186458476E-01 +8.88267822557E-03
3.03500000000E+09 -3.19096762588E-01 +1.98862405613E-01 +6.81998814068E-04 -2.51791365718E-03 +7.32487409281E-04 -2.45519514317E-03 -4.17993951455E-01 +4.94140353867E-02
3.04000000000E+09 -3.12796221959E-01 +2.26751670570E-01 +4.63032770662E-04 -2.63178446526E-03 +5.55815596244E-04 -2.70308800242E-03 -4.25231803318E-01 +8.96971549141E-02
3.04500000000E+09 -3.03881996494E-01 +2.53847044359E-01 +3.31876522096E-05 -2.22855287225E-03 +5.42061209121E-05 -2.34918930924E-03 -4.31215337361E-01 +1.28544392287E-01
3.05000000000E+09 -2.93353764817E-01 +2.82533326771E-01 +2.66722111671E-04 -2.09739982511E-03 +2.05957587085E-04 -2.17413140822E-03 -4.34591428618E-01 +1.67067427823E-01
3.05500000000E+09 -2.80128609845E-01 +3.10600591300E-01 +4.36901636325E-04 -2.31901021384E-03 +3.28248606797E-04 -2.44809534993E-03 -4.36151595758E-01 +2.05692146376E-01
3.06000000000E+09 -2.66782137455E-01 +3.37758155136E-01 +9.85523784535E-05 -2.81173497405E-03 -9.38201855980E-06 -2.76491922757E-03 -4.34794370105E-01 +2.43527100924E-01
3.06500000000E+09 -2.52952249081E-01 +3.64276360685E-01 -5.28515408326E-04 -2.98769569428E-03 -4.45171225598E-04 -2.86031446280E-03 -4.30856526015E-01 +2.80604853866E-01
3.07000000000E+09 -2.40237582344E-01 +3.88419645732E-01 -1.38241103368E-03 -2.85102541594E-03 -1.26803053848E-03 -2.90568732903E-03 -4.24766465043E-01 +3.16425698732E-01
