# Hz S RI R 50
! CMT, C1220, 16058040, 17.2.0/1
! Date: 15/08/2018 10:41:05
! Data: Format (Calibration Info)
! Freq                      S11: Re/Im (F2)                       S21: Re/Im (F2)                       S12: Re/Im (F2)                       S22: Re/Im (F2)            
2.50000000000E+09 +5.92392113236E-01 +6.49065900616E-01 -1.02854737824E-04 -3.26907070541E-04 -1.02384715061E-04 -3.10054409504E-04 +5.64063905595E-01 +7.25206501831E-01
2.50500000000E+09 +5.99180360015E-01 +6.40939932580E-01 -1.31512982998E-04 -2.81562183206E-04 -8.69879614029E-05 -3.22479097512E-04 +5.69945741970E-01 +7.19670994290E-01
2.51000000000E+09 +6.06652551733E-01 +6.32650504821E-01 -1.51287621775E-04 -2.83373281639E-04 -1.97433134960E-04 -3.35110503863E-04 +5.75935695337E-01 +7.14407383410E-01
2.51500000000E+09 +6.14333439747E-01 +6.24819069210E-01 -2.41932384858E-04 -3.07185580057E-04 -2.64834137951E-04 -3.16362365185E-04 +5.81457772625E-01 +7.08865579551E-01
2.52000000000E+09 +6.21253284982E-01 +6.17345530538E-01 -2.64541707193E-04 -3.16875504559E-04 -2.78822357809E-04 -2.83363629656E-04 +5.86824660058E-01 +7.02928207628E-01
2.52500000000E+09 +6.27122640349E-01 +6.10933683383E-01 -3.28700611771E-04 -3.12160329329E-04 -2.77283107511E-04 -2.55919280054E-04 +5.92908253172E-01 +6.96295681144E-01
2.53000000000E+09 +6.31909891025E-01 +6.05228519327E-01 -3.63468473143E-04 -3.06191846201E-04 -3.44410105692E-04 -3.18459594324E-04 +5.99224821755E-01 +6.89163569138E-01
2.53500000000E+09 +6.35916492677E-01 +5.99859458590E-01 -4.93405669179E-04 -2.23080989239E-04 -5.31976391009E-04 -2.60352016186E-04 +6.05185736055E-01 +6.82036700383E-01
2.54000000000E+09 +6.39172477591E-01 +5.94139839963E-01 -4.52349449929E-04 -1.67447711448E-04 -4.34424807532E-04 -1.48341644841E-04 +6.10915532108E-01 +6.75218789746E-01
2.54500000000E+09 +6.42640770968E-01 +5.87951301633E-01 -5.16367441071E-04 -1.16307747517E-04 -5.71184065739E-04 -1.57641420024E-04 +6.16272340995E-01 +6.68931205010E-01
2.55000000000E+09 +6.46858908273E-01 +5.80390441273E-01 -5.38499797253E-04 -3.01495637785E-05 -5.98866782673E-04 -8.74033744307E-05 +6.21458912857E-01 +6.62868693981E-01
2.55500000000E+09 +6.52215480323E-01 +5.71476171735E-01 -5.25499813993E-04 +3.65478604301E-05 -6.34517099936E-04 -2.32587492076E-05 +6.26402354377E-01 +6.56557981889E-01
2.56000000000E+09 +6.58830074522E-01 +5.61851997525E-01 -5.13562269746E-04 +3.29024705258E-05 -5.85851442948E-04 +9.45735774426E-05 +6.31460706831E-01 +6.49477330120E-01
2.56500000000E+09 +6.66180041000E-01 +5.51459551081E-01 -5.54221390435E-04 +3.33587201960E-07 -5.90817458962E-04 +8.13350986752E-05 +6.36824566605E-01 +6.42087449383E-01
2.57000000000E+09 +6.73796169353E-01 +5.41437994015E-01 -6.21231219450E-04 +2.30671203737E-05 -6.12192402763E-04 +1.50590087733E-04 +6.42038232580E-01 +6.34218924350E-01
2.57500000000E+09 +6.81347597964E-01 +5.32125413331E-01 -6.92903933366E-04 +1.07052607470E-04 -5.95130125360E-04 +2.05987830231E-04 +6.47272439269E-01 +6.26932281626E-01
2.58000000000E+09 +6.87782879873E-01 +5.24042896688E-01 -6.99852760012E-04 +2.21620567719E-04 -5.60084256063E-04 +2.12366368697E-04 +6.52351638692E-01 +6.19814437834E-01
2.58500000000E+09 +6.93202300842E-01 +5.16938641999E-01 -7.12957164205E-04 +3.68053381990E-04 -6.34793301928E-04 +2.70626461453E-04 +6.57534220948E-01 +6.12652212597E-01
2.59000000000E+09 +6.97099019628E-01 +5.10806964272E-01 -6.75622657418E-04 +5.21481781310E-04 -7.09901727135E-04 +4.14385671163E-04 +6.62686521797E-01 +6.05450677499E-01
2.59500000000E+09 +7.00269209200E-01 +5.05126234036E-01 -6.44925687693E-04 +5.53226629855E-04 -6.68798077300E-04 +5.71510686269E-04 +6.67988207167E-01 +5.97633665951E-01
2.60000000000E+09 +7.02523088834E-01 +4.98564098620E-01 -5.80083948434E-04 +6.79426603091E-04 -5.96691013384E-04 +6.72540024892E-04 +6.73737594207E-01 +5.89409690262E-01
2.60500000000E+09 +7.05110292551E-01 +4.90389702199E-01 -5.09520374636E-04 +7.01552554582E-04 -4.91632576896E-04 +7.11035868554E-04 +6.79549824764E-01 +5.80576151369E-01
2.61000000000E+09 +7.08060603268E-01 +4.80349239031E-01 -5.15370906163E-04 +8.10466914396E-04 -5.45012490553E-04 +8.07650847651E-04 +6.84748424575E-01 +5.71562587941E-01
2.61500000000E+09 +7.12258646875E-01 +4.68102207499E-01 -3.01923042070E-04 +9.46018292113E-04 -3.36459157943E-04 +9.53355292013E-04 +6.89994003364E-01 +5.62959249516E-01
2.62000000000E+09 +7.16681432790E-01 +4.53778816706E-01 -2.56449954975E-04 +8.10466026607E-04 -2.64138543824E-04 +8.60791195786E-04 +6.95137687163E-01 +5.53812839744E-01
2.62500000000E+09 +7.22061658407E-01 +4.38634251970E-01 -2.66113054919E-04 +8.93762270483E-04 -2.50463812477E-04 +9.72597479233E-04 +7.00192530068E-01 +5.44670634842E-01
2.63000000000E+09 +7.27483331236E-01 +4.23504922389E-01 -2.01065192676E-04 +1.01098823499E-03 -8.05207172855E-05 +1.04169695659E-03 +7.04956070711E-01 +5.35234605704E-01
2.63500000000E+09 +7.32593016523E-01 +4.09524585087E-01 -1.28221323909E-04 +1.15223378993E-03 -2.01686955163E-05 +1.03956245216E-03 +7.09516417641E-01 +5.25691071452E-01
2.64000000000E+09 +7.37301608667E-01 +3.97343901421E-01 +3.95800050856E-05 +1.41312700175E-03 +8.30682530512E-05 +1.17390887192E-03 +7.14115699275E-01 +5.15835851310E-01
2.64500000000E+09 +7.41377072787E-01 +3.87161110622E-01 +4.54099747077E-04 +1.36281292657E-03 +2.82293674660E-04 +1.23828180046E-03 +7.18414596204E-01 +5.05932271602E-01
2.65000000000E+09 +7.44296886870E-01 +3.78310137632E-01 +5.64575636521E-04 +1.07920188253E-03 +3.87642586849E-04 +1.12539963346E-03 +7.22570143010E-01 +4.95773198118E-01
2.65500000000E+09 +7.46625575241E-01 +3.70059204199E-01 +5.10861193852E-04 +1.03397344415E-03 +4.48883997555E-04 +1.17322763760E-03 +7.26314930676E-01 +4.85329872717E-01
2.66000000000E+09 +7.48306255793E-01 +3.61747068263E-01 +5.10203819776E-04 +1.16937034947E-03 +6.20019316408E-04 +1.31402023674E-03 +7.30359473739E-01 +4.74228066029E-01
2.66500000000E+09 +7.49971488055E-01 +3.52524001163E-01 +7.91550769678E-04 +1.27446361642E-03 +9.30289586462E-04 +1.25767433119E-03 +7.34385518113E-01 +4.63125139575E-01
2.67000000000E+09 +7.51311795339E-01 +3.40995557161E-01 +1.05978985932E-03 +1.18450768766E-03 +1.12689056370E-03 +1.03773772604E-03 +7.38645239763E-01 +4.52380503558E-01
2.67500000000E+09 +7.52877498491E-01 +3.27654504396E-01 +1.32510029046E-03 +1.02472277258E-03 +1.23277896578E-03 +9.70603801199E-04 +7.42721352846E-01 +4.41478767257E-01
2.68000000000E+09 +7.54718237732E-01 +3.12197250968E-01 +1.47577637511E-03 +7.61984111598E-04 +1.35092487748E-03 +7.82854697212E-04 +7.46583600640E-01 +4.30596795509E-01
2.68500000000E+09 +7.56464966162E-01 +2.95402129072E-01 +1.42191995105E-03 +6.62817646719E-04 +1.33579384669E-03 +7.58022961272E-04 +7.49820548616E-01 +4.19222158389E-01
2.69000000000E+09 +7.58041746107E-01 +2.78205197238E-01 +1.56624414611E-03 +6.87165319775E-04 +1.56274217494E-03 +6.96776264714E-04 +7.52686345783E-01 +4.07481473411E-01
2.69500000000E+09 +7.59633997918E-01 +2.61698415130E-01 +1.82416629431E-03 +5.80892244486E-04 +1.79812784477E-03 +6.14921582047E-04 +7.55592067248E-01 +3.95237208161E-01
2.70000000000E+09 +7.61171416475E-01 +2.46137450707E-01 +2.15016476775E-03 +2.24420399291E-04 +2.09408393788E-03 +2.29991563568E-04 +7.58979644952E-01 +3.81955553075E-01
2.70500000000E+09 +7.62358224393E-01 +2.31877503316E-01 +2.11372603266E-03 -1.95426739268E-04 +2.13749842211E-03 -7.67811756132E-05 +7.61859177084E-01 +3.68713824109E-01
2.71000000000E+09 +7.63481423341E-01 +2.18549945036E-01 +2.10407876912E-03 -5.61289151177E-04 +2.18494990031E-03 -4.75097070246E-04 +7.64972944001E-01 +3.55722761619E-01
2.71500000000E+09 +7.64145971402E-01 +2.05222215993E-01 +1.88752747486E-03 -8.75476209569E-04 +2.01117621759E-03 -9.75879761752E-04 +7.67728696019E-01 +3.43085345591E-01
2.72000000000E+09 +7.64341738174E-01 +1.92206459683E-01 +1.73588806356E-03 -8.47583006096E-04 +1.74625645530E-03 -1.07364244570E-03 +7.69736261649E-01 +3.30394848951E-01
2.72500000000E+09 +7.64523465815E-01 +1.77924171235E-01 +1.83659946482E-03 -1.01423090073E-03 +1.71525946351E-03 -1.19783435801E-03 +7.71272427966E-01 +3.16843902410E-01
2.73000000000E+09 +7.63549399450E-01 +1.62311267143E-01 +1.83640912785E-03 -1.47710014101E-03 +1.58331527741E-03 -1.49923419389E-03 +7.72734962441E-01 +3.02784388752E-01
2.73500000000E+09 +7.61846609191E-01 +1.45346948475E-01 +1.49170184181E-03 -1.87094780788E-03 +1.27803005222E-03 -1.63757325699E-03 +7.74162322620E-01 +2.87791896610E-01
2.74000000000E+09 +7.59236912792E-01 +1.27743691058E-01 +1.16661813181E-03 -1.82107928488E-03 +1.16625691021E-03 -1.56295926627E-03 +7.75757123495E-01 +2.72435264301E-01
2.74500000000E+09 +7.55775174628E-01 +1.09528712063E-01 +1.17263898165E-03 -2.02004805950E-03 +1.32815514409E-03 -1.74869681074E-03 +7.77335115440E-01 +2.56865155133E-01
2.75000000000E+09 +7.51479541278E-01 +9.12764203031E-02 +9.67116309004E-04 -2.21911812199E-03 +1.27663847507E-03 -2.18733354966E-03 +7.78278182024E-01 +2.41088151980E-01
2.75500000000E+09 +7.46664762343E-01 +7.36493222774E-02 +6.24604145145E-04 -2.51270328886E-03 +8.18209433517E-04 -2.64889266245E-03 +7.77816879145E-01 +2.25156020459E-01
2.76000000000E+09 +7.41840441153E-01 +5.61320185871E-02 +1.75354349726E-04 -2.56101577913E-03 +2.20029540000E-04 -2.79032353606E-03 +7.76763490674E-01 +2.09800617312E-01
2.76500000000E+09 +7.36463734253E-01 +3.85080166110E-02 -1.60721525335E-04 -2.49484701113E-03 -2.50502637682E-04 -2.59309158869E-03 +7.75632891602E-01 +1.92967848275E-01
2.77000000000E+09 +7.30608538187E-01 +2.00308783194E-02 -4.60241567387E-04 -2.58175179902E-03 -4.53406135245E-04 -2.66431726559E-03 +7.74137391216E-01 +1.75619660314E-01
2.77500000000E+09 +7.23946784371E-01 +9.05260395335E-04 -8.40912582694E-04 -2.44124492422E-03 -1.00966895729E-03 -2.46488795505E-03 +7.71883532363E-01 +1.57883409633E-01
2.78000000000E+09 +7.17033349281E-01 -1.86174631193E-02 -1.07361420080E-03 -2.18768666836E-03 -1.21801676844E-03 -2.22076019177E-03 +7.69506188500E-01 +1.40234018801E-01
2.78500000000E+09 +7.09889673223E-01 -3.96287151445E-02 -1.33029329970E-03 -2.00944989103E-03 -1.47101064234E-03 -1.88411141017E-03 +7.66688788024E-01 +1.22965783860E-01
2.79000000000E+09 +7.02315955842E-01 -6.13654424857E-02 -1.34138171221E-03 -1.82589027642E-03 -1.44025115654E-03 -1.66528923633E-03 +7.63302745378E-01 +1.05981066929E-01
2.79500000000E+09 +6.93777330967E-01 -8.31512635298E-02 -1.42102212923E-03 -1.88593326435E-03 -1.37254159138E-03 -1.73749090920E-03 +7.59127539808E-01 +8.86232115494E-02
2.80000000000E+09 +6.84618470890E-01 -1.03993625982E-01 -1.81002087167E-03 -1.85182085434E-03 -1.67489870372E-03 -1.75960437628E-03 +7.54146914780E-01 +7.08226597783E-02
2.80500000000E+09 +6.75125866067E-01 -1.23599139541E-01 -2.01415868623E-03 -1.73932189345E-03 -1.94782454883E-03 -1.78747273904E-03 +7.48422468311E-01 +5.23686618385E-02
2.81000000000E+09 +6.64489180329E-01 -1.41800424749E-01 -2.49681870922E-03 -1.49093817853E-03 -2.51859175203E-03 -1.52834948683E-03 +7.42859005839E-01 +3.39665915827E-02
2.81500000000E+09 +6.52503876546E-01 -1.58347625167E-01 -2.61922502042E-03 -1.09118298889E-03 -2.70654651245E-03 -1.04253947623E-03 +7.36886022653E-01 +1.43484582739E-02
2.82000000000E+09 +6.38923458438E-01 -1.73769892409E-01 -2.79859668305E-03 -7.58719898513E-04 -2.81212036896E-03 -6.42727596838E-04 +7.30186471358E-01 -5.40560121944E-03
2.82500000000E+09 +6.23489503456E-01 -1.88365093874E-01 -3.00804949487E-03 -3.60932223556E-04 -2.93509868039E-03 -2.11469845035E-04 +7.22228074362E-01 -2.53807318243E-02
2.83000000000E+09 +6.06511469577E-01 -2.03959567255E-01 -3.17318164401E-03 +7.71978797353E-05 -2.95375919810E-03 +6.16907823078E-05 +7.13814430785E-01 -4.56368764477E-02
2.83500000000E+09 +5.87390116325E-01 -2.20977453573E-01 -2.99538096853E-03 +8.13517256120E-04 -2.89409671585E-03 +6.61607466493E-04 +7.04003638337E-01 -6.64349025548E-02
2.84000000000E+09 +5.65504228741E-01 -2.39886792830E-01 -2.50239853681E-03 +1.09594790865E-03 -2.46943050502E-03 +9.65201561963E-04 +6.92986604285E-01 -8.78272243631E-02
2.84500000000E+09 +5.41009414615E-01 -2.59894020637E-01 -2.30030054717E-03 +9.80741352443E-04 -2.31225836980E-03 +9.15454199603E-04 +6.79728382371E-01 -1.08806806315E-01
2.85000000000E+09 +5.14949233470E-01 -2.79957643722E-01 -2.56186087713E-03 +1.10036367510E-03 -2.53087599614E-03 +1.11119224787E-03 +6.65831825419E-01 -1.29242558868E-01
2.85500000000E+09 +4.87940930729E-01 -2.99608440743E-01 -2.59930115024E-03 +1.60463506534E-03 -2.56220672733E-03 +1.60933419722E-03 +6.50616446316E-01 -1.49125520154E-01
2.86000000000E+09 +4.60910539918E-01 -3.17008001374E-01 -2.24361554058E-03 +2.12922186444E-03 -2.18543072171E-03 +2.11719034295E-03 +6.35409760404E-01 -1.69095640205E-01
2.86500000000E+09 +4.35742660127E-01 -3.32349001364E-01 -1.89533293964E-03 +2.26222029088E-03 -1.99300124363E-03 +2.24197419900E-03 +6.18296713729E-01 -1.90130012588E-01
2.87000000000E+09 +4.10862609365E-01 -3.46501491524E-01 -1.68435915341E-03 +2.84601796053E-03 -1.69176150637E-03 +2.92369620039E-03 +5.99173754203E-01 -2.10321007449E-01
2.87500000000E+09 +3.85322253227E-01 -3.57688091127E-01 -8.03015927534E-04 +2.64062758684E-03 -7.35694430965E-04 +2.65190806985E-03 +5.78477617084E-01 -2.29596488520E-01
2.88000000000E+09 +3.60041590062E-01 -3.66762908511E-01 -1.02718033142E-03 +2.34538393574E-03 -9.50451712133E-04 +2.36740048811E-03 +5.57857529308E-01 -2.47268146687E-01
2.88500000000E+09 +3.32113262979E-01 -3.74809395161E-01 -8.04431821151E-04 +2.98098422857E-03 -7.27903246190E-04 +2.80362529990E-03 +5.35997985334E-01 -2.66329100900E-01
2.89000000000E+09 +3.00764200849E-01 -3.80243461994E-01 -3.36964849945E-04 +3.00400872997E-03 -3.76096142519E-04 +2.83852601983E-03 +5.11084891163E-01 -2.84130734314E-01
2.89500000000E+09 +2.68211531913E-01 -3.82938490497E-01 +2.50297905281E-04 +2.97331229069E-03 +7.13643058123E-05 +2.95363864134E-03 +4.85514274783E-01 -3.00904223140E-01
2.90000000000E+09 +2.33734699592E-01 -3.84911571350E-01 +5.59180733678E-04 +2.95124812324E-03 +5.02284034446E-04 +2.98465237162E-03 +4.59004881053E-01 -3.17841572886E-01
2.90500000000E+09 +1.97041205152E-01 -3.85651672643E-01 +7.18525851371E-04 +2.69710854315E-03 +7.36752554698E-04 +2.72160373682E-03 +4.30958203343E-01 -3.34226129835E-01
2.91000000000E+09 +1.60134451230E-01 -3.84538914044E-01 +1.08898242124E-03 +2.93383552992E-03 +1.11953575940E-03 +2.84187793854E-03 +4.01446174447E-01 -3.50697095836E-01
2.91500000000E+09 +1.23086836835E-01 -3.82698065657E-01 +1.74825968261E-03 +2.77989663653E-03 +1.72392881816E-03 +2.55929869111E-03 +3.68597544968E-01 -3.64420792194E-01
2.92000000000E+09 +8.59445014177E-02 -3.77852270360E-01 +2.22733882779E-03 +2.27073730855E-03 +2.05778095563E-03 +2.19087629437E-03 +3.34462776119E-01 -3.75676387562E-01
2.92500000000E+09 +5.11789309455E-02 -3.69425504707E-01 +2.53113149613E-03 +1.42979898221E-03 +2.29066980263E-03 +1.52760301117E-03 +2.99026726793E-01 -3.83560804713E-01
2.93000000000E+09 +1.93170978559E-02 -3.59155906121E-01 +1.98086686614E-03 +1.07754859898E-03 +1.93204200896E-03 +1.17504601839E-03 +2.63242598488E-01 -3.90970190164E-01
2.93500000000E+09 -1.15723904635E-02 -3.47284541997E-01 +1.94772923070E-03 +1.19111460641E-03 +1.95225596709E-03 +1.29245980808E-03 +2.24963334092E-01 -3.97457179526E-01
2.94000000000E+09 -4.24499774908E-02 -3.32543765145E-01 +2.26852539300E-03 +9.74873722044E-04 +2.31437367403E-03 +1.00276881692E-03 +1.83883548716E-01 -4.01253774833E-01
2.94500000000E+09 -7.23903419773E-02 -3.14665527750E-01 +2.08755996112E-03 +8.62885697077E-04 +2.06421060927E-03 +8.99737662488E-04 +1.44145580165E-01 -4.01086963114E-01
2.95000000000E+09 -1.02621902614E-01 -2.93868837612E-01 +2.53743893216E-03 +7.15603127949E-04 +2.49588936257E-03 +7.22793526279E-04 +1.03414824625E-01 -3.99780773009E-01
2.95500000000E+09 -1.31521334789E-01 -2.69711647565E-01 +2.38076156527E-03 +1.01506303178E-04 +2.38766442346E-03 +1.86432494755E-04 +6.22122454134E-02 -3.94687851800E-01
2.96000000000E+09 -1.59097476962E-01 -2.44758283312E-01 +2.24376633703E-03 -3.31426828716E-04 +2.43870898929E-03 -3.24086611941E-04 +2.02576309054E-02 -3.86034830028E-01
2.96500000000E+09 -1.86212652807E-01 -2.17421750511E-01 +1.99058709153E-03 -2.74453940667E-04 +1.99343252458E-03 -3.59431362758E-04 -2.10932603404E-02 -3.73043882612E-01
2.97000000000E+09 -2.10323864480E-01 -1.88848877422E-01 +1.96604032819E-03 -4.73051616531E-04 +1.90777011906E-03 -5.32530818271E-04 -6.08882302356E-02 -3.57470973484E-01
2.97500000000E+09 -2.31932508118E-01 -1.59790301471E-01 +1.65667659886E-03 -5.61188645534E-04 +1.62609815094E-03 -5.62907421780E-04 -9.94358208149E-02 -3.40969659616E-01
2.98000000000E+09 -2.52378350799E-01 -1.30602520683E-01 +1.56326692281E-03 -1.40196202973E-04 +1.49108653784E-03 -3.71303129100E-05 -1.38252157772E-01 -3.21864548849E-01
2.98500000000E+09 -2.70076708951E-01 -9.94909697446E-02 +2.20528284585E-03 -3.20457144362E-04 +2.26246047771E-03 -2.58570293461E-04 -1.76068765095E-01 -2.99399172439E-01
2.99000000000E+09 -2.85066711797E-01 -6.73777001767E-02 +2.19446455770E-03 -9.37538178270E-04 +2.31383804796E-03 -9.62233912501E-04 -2.11867372814E-01 -2.73055646929E-01
2.99500000000E+09 -2.97779655615E-01 -3.54120976616E-02 +1.84344005530E-03 -1.21028608269E-03 +1.82702384704E-03 -1.30216873541E-03 -2.45394466111E-01 -2.43384457167E-01
3.00000000000E+09 -3.09804962378E-01 -2.33579010246E-03 +1.90178129055E-03 -1.20081624044E-03 +1.83914885518E-03 -1.21285916674E-03 -2.75976534186E-01 -2.11412257863E-01
3.00500000000E+09 -3.19177600070E-01 +3.11065155179E-02 +1.77560180588E-03 -1.53337113315E-03 +1.69053714611E-03 -1.46391551299E-03 -3.04862370021E-01 -1.78861593619E-01
3.01000000000E+09 -3.26743306332E-01 +6.41422414677E-02 +1.75358531823E-03 -1.86115913302E-03 +1.72719207492E-03 -1.70045345247E-03 -3.31544612888E-01 -1.43251046158E-01
3.01500000000E+09 -3.32328528684E-01 +9.71762744877E-02 +1.23662057742E-03 -2.23067929466E-03 +1.33406267659E-03 -2.16280215302E-03 -3.55318702199E-01 -1.08044495657E-01
3.02000000000E+09 -3.34156524805E-01 +1.28675447215E-01 +8.66536360277E-04 -2.36337519162E-03 +9.68531072284E-04 -2.30795725893E-03 -3.76975824522E-01 -7.06229951765E-02
3.02500000000E+09 -3.33790211715E-01 +1.57639090487E-01 +5.03048196714E-04 -1.96336229241E-03 +5.92426550870E-04 -1.96798969381E-03 -3.94946837346E-01 -3.23606412552E-02
3.03000000000E+09 -3.31794129286E-01 +1.85092390442E-01 +8.42542561059E-04 -2.19536365699E-03 +9.24780744972E-04 -2.16876213096E-03 -4.10612064907E-01 +8.07453571245E-03
3.03500000000E+09 -3.27814668291E-01 +2.12923740673E-01 +2.57711723563E-04 -2.39833287416E-03 +3.36855142284E-04 -2.51959493959E-03 -4.22739043945E-01 +4.94228894683E-02
3.04000000000E+09 -3.20354302035E-01 +2.41539733291E-01 -1.05781253014E-04 -2.64799656832E-03 -3.97138739256E-07 -2.69558830883E-03 -4.29788889663E-01 +9.07184099890E-02
3.04500000000E+09 -3.09542763684E-01 +2.68963422361E-01 -8.41345089242E-04 -2.07306087989E-03 -8.50503218626E-04 -2.24082111571E-03 -4.35499599254E-01 +1.30090620287E-01
3.05000000000E+09 -2.97493139261E-01 +2.97598252839E-01 -6.37219894491E-04 -1.60827549863E-03 -7.12874016346E-04 -1.79654172849E-03 -4.38705142543E-01 +1.69301893374E-01
3.05500000000E+09 -2.82874561221E-01 +3.25473912856E-01 -4.05497429805E-04 -1.54510973350E-03 -5.21866623714E-04 -1.58342971720E-03 -4.39933905428E-01 +2.08343653216E-01
3.06000000000E+09 -2.67949885975E-01 +3.52197607694E-01 -3.42680276183E-04 -1.92875669553E-03 -4.44788313794E-04 -1.84164251070E-03 -4.38319098468E-01 +2.46443810148E-01
3.06500000000E+09 -2.53281952747E-01 +3.78123258257E-01 -7.93602664339E-04 -2.17023857194E-03 -7.91422082996E-04 -2.06327474685E-03 -4.33988829935E-01 +2.84293624360E-01
3.07000000000E+09 -2.39951464211E-01 +4.02028957670E-01 -1.53383120825E-03 -2.17077945581E-03 -1.39742275770E-03 -2.17474516563E-03 -4.27415754729E-01 +3.20618061853E-01
