# Hz S RI R 50
! CMT, C1220, 16058040, 17.2.0/1
! Date: 15/08/2018 10:44:47
! Data: Format (Calibration Info)
! Freq                      S11: Re/Im (F2)                       S21: Re/Im (F2)                       S12: Re/Im (F2)                       S22: Re/Im (F2)            
2.50000000000E+09 +5.92481241648E-01 +6.53576402058E-01 -2.78604886161E-06 -2.04510417941E-04 -1.12764691891E-05 -2.28006795187E-04 +5.63831734251E-01 +7.25833915328E-01
2.50500000000E+09 +5.99426025895E-01 +6.45212545774E-01 -5.23757761632E-05 -2.57229532373E-04 -9.22126684601E-05 -2.42008283410E-04 +5.69854972734E-01 +7.20200688780E-01
2.51000000000E+09 +6.06856631798E-01 +6.36860210651E-01 -1.16983739485E-04 -2.46397286887E-04 -1.10273650515E-04 -2.54680491984E-04 +5.75718800966E-01 +7.14892851831E-01
2.51500000000E+09 +6.14705066168E-01 +6.29109707130E-01 -1.49293497662E-04 -2.86032069378E-04 -1.45246148842E-04 -2.69358814688E-04 +5.81358525371E-01 +7.09388116342E-01
2.52000000000E+09 +6.21607251955E-01 +6.21447222716E-01 -2.17245004307E-04 -2.95889421598E-04 -1.52431814373E-04 -3.15246020671E-04 +5.86700489396E-01 +7.03375517060E-01
2.52500000000E+09 +6.27579185022E-01 +6.14915334465E-01 -3.09203163929E-04 -2.89654919935E-04 -2.36913371229E-04 -3.26923316231E-04 +5.92802970653E-01 +6.96797755556E-01
2.53000000000E+09 +6.32509662389E-01 +6.09078036329E-01 -3.02305836108E-04 -2.62987610784E-04 -3.35963591158E-04 -2.70034765964E-04 +5.99089187988E-01 +6.89575587215E-01
2.53500000000E+09 +6.36533539571E-01 +6.03668668430E-01 -4.21321563186E-04 -2.30854333470E-04 -3.55545817734E-04 -2.19644239261E-04 +6.05077989679E-01 +6.82352005642E-01
2.54000000000E+09 +6.39941947826E-01 +5.97849949120E-01 -3.46872822040E-04 -1.34362645672E-04 -3.83540611611E-04 -1.44033983292E-04 +6.10720287962E-01 +6.75493716487E-01
2.54500000000E+09 +6.43550121930E-01 +5.91541608965E-01 -4.18293871615E-04 -9.20420446655E-05 -4.42405604608E-04 -1.46712802464E-04 +6.16124676658E-01 +6.69040403244E-01
2.55000000000E+09 +6.47968873167E-01 +5.83902794739E-01 -4.46178457971E-04 -6.94825226195E-05 -4.67138443095E-04 -5.99631938833E-05 +6.21223400388E-01 +6.62919978772E-01
2.55500000000E+09 +6.53271214071E-01 +5.74908483297E-01 -4.07361794765E-04 -6.37388966062E-05 -5.08967199805E-04 -1.02890635901E-04 +6.26097861305E-01 +6.56499076781E-01
2.56000000000E+09 +6.59856363477E-01 +5.65324028903E-01 -4.15600522081E-04 -2.36130275977E-05 -4.98629918377E-04 +2.05081903051E-05 +6.31194059374E-01 +6.49412089198E-01
2.56500000000E+09 +6.67208509800E-01 +5.54864526437E-01 -4.92632124449E-04 -4.61348893212E-05 -5.56679272718E-04 +3.75398800686E-05 +6.36332354311E-01 +6.41895189760E-01
2.57000000000E+09 +6.74957192008E-01 +5.44972879116E-01 -5.77327147822E-04 +5.61045501181E-05 -5.14329316610E-04 +1.69151541002E-04 +6.41348638369E-01 +6.34160278164E-01
2.57500000000E+09 +6.82606409536E-01 +5.35613366732E-01 -5.76424795531E-04 +1.62985412481E-04 -4.58552061870E-04 +1.86493762142E-04 +6.46529609389E-01 +6.26882626187E-01
2.58000000000E+09 +6.89269913508E-01 +5.27325993248E-01 -5.44571432402E-04 +1.93088055158E-04 -4.61499313377E-04 +1.91363629029E-04 +6.51684493512E-01 +6.19803199536E-01
2.58500000000E+09 +6.94460225374E-01 +5.20053284227E-01 -6.36223500741E-04 +2.52606189849E-04 -5.76205072521E-04 +1.76158214827E-04 +6.56659500517E-01 +6.12608220006E-01
2.59000000000E+09 +6.98553119012E-01 +5.14122821678E-01 -6.24424752378E-04 +3.81949519431E-04 -6.17277347622E-04 +3.06350200568E-04 +6.61760547930E-01 +6.05375816026E-01
2.59500000000E+09 +7.01805568365E-01 +5.08125546280E-01 -5.79752521225E-04 +4.46002764332E-04 -5.61200329769E-04 +4.02836900639E-04 +6.67002684111E-01 +5.97628280248E-01
2.60000000000E+09 +7.04291046877E-01 +5.01451182972E-01 -4.59666608545E-04 +4.57877123298E-04 -4.62219317848E-04 +5.24184624552E-04 +6.72726635200E-01 +5.89482562072E-01
2.60500000000E+09 +7.06833943144E-01 +4.93142020345E-01 -5.20042888356E-04 +5.30583874509E-04 -4.80669512558E-04 +4.88336770491E-04 +6.78455839054E-01 +5.80663352209E-01
2.61000000000E+09 +7.09654060032E-01 +4.82806446861E-01 -5.47139722778E-04 +6.96127311504E-04 -5.83984461784E-04 +6.76597382186E-04 +6.83762428037E-01 +5.71664332986E-01
2.61500000000E+09 +7.13510644098E-01 +4.70598679123E-01 -2.99451725159E-04 +8.70162782637E-04 -3.36154622213E-04 +8.60924747555E-04 +6.88778388530E-01 +5.63009556443E-01
2.62000000000E+09 +7.18143821228E-01 +4.56154197257E-01 -2.59091366451E-04 +7.16874702364E-04 -2.09059611904E-04 +7.50766429192E-04 +6.93834570665E-01 +5.53912934300E-01
2.62500000000E+09 +7.23280881872E-01 +4.40751007345E-01 -3.11029900808E-04 +7.81119129182E-04 -3.23730697774E-04 +8.24846359672E-04 +6.98792087899E-01 +5.44861703762E-01
2.63000000000E+09 +7.28611301037E-01 +4.25536529410E-01 -2.53461031303E-04 +9.29312592494E-04 -1.02795928139E-04 +9.48854021153E-04 +7.03477534616E-01 +5.35542706934E-01
2.63500000000E+09 +7.33452252371E-01 +4.11307937393E-01 -2.00508338458E-04 +1.00228642312E-03 -9.59619643108E-05 +9.14142076581E-04 +7.08062258004E-01 +5.26140944759E-01
2.64000000000E+09 +7.37868906302E-01 +3.99104819914E-01 -3.60907807569E-05 +1.27626174446E-03 -3.63247431679E-05 +1.11570515474E-03 +7.12504737939E-01 +5.16358473342E-01
2.64500000000E+09 +7.41851051233E-01 +3.88792768236E-01 +4.22410989258E-04 +1.28189539093E-03 +2.39808449551E-04 +1.12750610378E-03 +7.16896277293E-01 +5.06609079879E-01
2.65000000000E+09 +7.44668081302E-01 +3.79956361443E-01 +5.05049657282E-04 +9.89044142616E-04 +3.68403043658E-04 +1.00978542940E-03 +7.21028457409E-01 +4.96481624723E-01
2.65500000000E+09 +7.46880225008E-01 +3.71757412060E-01 +4.57851646848E-04 +9.28867256692E-04 +3.78752768177E-04 +9.51121477526E-04 +7.24817406559E-01 +4.86119105114E-01
2.66000000000E+09 +7.48434943424E-01 +3.63369369042E-01 +3.97273644851E-04 +1.11771785147E-03 +4.59493657998E-04 +1.19090419915E-03 +7.28676248678E-01 +4.75104559869E-01
2.66500000000E+09 +7.49901317836E-01 +3.54184976520E-01 +6.60173392713E-04 +1.27720956131E-03 +8.11783456813E-04 +1.24122107548E-03 +7.32591748702E-01 +4.64010186473E-01
2.67000000000E+09 +7.51079357315E-01 +3.42755428961E-01 +1.03142706262E-03 +1.17452474812E-03 +1.10830262480E-03 +1.00926437520E-03 +7.36833111981E-01 +4.53457552724E-01
2.67500000000E+09 +7.52486399231E-01 +3.29647391312E-01 +1.21501873345E-03 +9.31717895308E-04 +1.14946295431E-03 +8.22846553772E-04 +7.40986933681E-01 +4.42774561583E-01
2.68000000000E+09 +7.54307853486E-01 +3.14088739531E-01 +1.29946346235E-03 +7.45389288950E-04 +1.21890949524E-03 +7.55467027123E-04 +7.44814459696E-01 +4.31920482980E-01
2.68500000000E+09 +7.55711644023E-01 +2.97513136171E-01 +1.21443122263E-03 +6.76416671635E-04 +1.19222619248E-03 +7.35046604865E-04 +7.48213209749E-01 +4.20827954594E-01
2.69000000000E+09 +7.57446917762E-01 +2.80382445695E-01 +1.56776841957E-03 +7.70124911691E-04 +1.51693068567E-03 +7.87514540181E-04 +7.51072076663E-01 +4.09334006926E-01
2.69500000000E+09 +7.59010486891E-01 +2.63968277021E-01 +1.87040926239E-03 +5.08353097980E-04 +1.79741730313E-03 +4.50951012406E-04 +7.54105867995E-01 +3.97153234456E-01
2.70000000000E+09 +7.60504969017E-01 +2.48145012529E-01 +2.02963157156E-03 +1.13150906697E-04 +1.97217088852E-03 +1.06032477496E-04 +7.57589245190E-01 +3.83960939007E-01
2.70500000000E+09 +7.61677758499E-01 +2.33840452598E-01 +2.07015279506E-03 -2.83033632785E-04 +2.01009358031E-03 -2.03086468686E-04 +7.60387583771E-01 +3.70937481978E-01
2.71000000000E+09 +7.62521629573E-01 +2.20466630389E-01 +1.89802627920E-03 -6.58766498858E-04 +1.96786812995E-03 -5.55490708226E-04 +7.63593890585E-01 +3.58037901028E-01
2.71500000000E+09 +7.63093334494E-01 +2.07357895633E-01 +1.65132153063E-03 -9.39159583525E-04 +1.81278122348E-03 -9.70870674926E-04 +7.66463852883E-01 +3.45706395631E-01
2.72000000000E+09 +7.63389919054E-01 +1.94508060797E-01 +1.52155046088E-03 -9.31328336313E-04 +1.52475881496E-03 -1.08833215111E-03 +7.68844526760E-01 +3.33179878289E-01
2.72500000000E+09 +7.63428569584E-01 +1.80341002502E-01 +1.53722455685E-03 -1.03503506981E-03 +1.45434582914E-03 -1.19313579281E-03 +7.70614394605E-01 +3.19699212940E-01
2.73000000000E+09 +7.62406575596E-01 +1.64908491242E-01 +1.55728453002E-03 -1.34235495175E-03 +1.26372583314E-03 -1.30391571948E-03 +7.72418662247E-01 +3.05609596537E-01
2.73500000000E+09 +7.60716627547E-01 +1.48042639438E-01 +1.29461676979E-03 -1.60706041986E-03 +1.17925731079E-03 -1.39461505970E-03 +7.74118392717E-01 +2.90635153468E-01
2.74000000000E+09 +7.57892973397E-01 +1.30556976447E-01 +9.92156615367E-04 -1.71955005690E-03 +1.01971133550E-03 -1.42630857674E-03 +7.75895908157E-01 +2.75131852222E-01
2.74500000000E+09 +7.54130077928E-01 +1.12573078560E-01 +9.74727471349E-04 -1.78971300439E-03 +1.13296833218E-03 -1.56554688967E-03 +7.77527856079E-01 +2.59482942908E-01
2.75000000000E+09 +7.49702303729E-01 +9.46155962204E-02 +8.02806915357E-04 -2.03513939753E-03 +9.95825409955E-04 -1.98169851449E-03 +7.78481658539E-01 +2.43610068916E-01
2.75500000000E+09 +7.44688774059E-01 +7.69987781793E-02 +5.08257547249E-04 -2.15980297691E-03 +6.76582317492E-04 -2.27551314583E-03 +7.78225721262E-01 +2.27923955194E-01
2.76000000000E+09 +7.39545698496E-01 +5.93671592746E-02 +1.80031671597E-04 -2.26155077680E-03 +2.38826446103E-04 -2.42498547705E-03 +7.77360956016E-01 +2.12529858344E-01
2.76500000000E+09 +7.33563539278E-01 +4.17531480389E-02 -9.50205305960E-05 -2.23194597585E-03 -1.00788797493E-04 -2.36279568459E-03 +7.76700477941E-01 +1.95734409899E-01
2.77000000000E+09 +7.27134476730E-01 +2.36256462502E-02 -3.35458076745E-04 -2.32517557868E-03 -4.24372277195E-04 -2.41608018617E-03 +7.75199413071E-01 +1.77976712519E-01
2.77500000000E+09 +7.20295040945E-01 +4.85665972259E-03 -8.19435233896E-04 -2.25523916454E-03 -9.51157346257E-04 -2.33426366449E-03 +7.73152506841E-01 +1.60309770752E-01
2.78000000000E+09 +7.13363754457E-01 -1.47734794905E-02 -1.03019949904E-03 -2.03798279802E-03 -1.16366825021E-03 -2.01353832979E-03 +7.70839362845E-01 +1.42509387759E-01
2.78500000000E+09 +7.05334764361E-01 -3.56656586786E-02 -1.21401770278E-03 -1.80728719861E-03 -1.30387327647E-03 -1.70546331118E-03 +7.68119406586E-01 +1.25392465179E-01
2.79000000000E+09 +6.96958548585E-01 -5.62401585888E-02 -1.19099484951E-03 -1.84639265124E-03 -1.24023486894E-03 -1.68012857864E-03 +7.65064974136E-01 +1.08496657563E-01
2.79500000000E+09 +6.88718221811E-01 -7.70050322253E-02 -1.48431806837E-03 -1.94085063526E-03 -1.38608684483E-03 -1.81144779086E-03 +7.61324674089E-01 +9.09902173331E-02
2.80000000000E+09 +6.79875326217E-01 -9.73962192140E-02 -2.04324810960E-03 -1.75579737634E-03 -1.89175661029E-03 -1.70086582196E-03 +7.56790352300E-01 +7.28563467958E-02
2.80500000000E+09 +6.70258562425E-01 -1.16667423881E-01 -2.26629024791E-03 -1.43272481068E-03 -2.18727079989E-03 -1.45996047903E-03 +7.51600107259E-01 +5.42182153266E-02
2.81000000000E+09 +6.59598354289E-01 -1.34195657228E-01 -2.41157709073E-03 -9.76252054771E-04 -2.50419275481E-03 -1.05308048743E-03 +7.46335107644E-01 +3.53380539491E-02
2.81500000000E+09 +6.47378791920E-01 -1.50069532345E-01 -2.37494501072E-03 -7.98795431327E-04 -2.48269971866E-03 -7.93426475779E-04 +7.40577039650E-01 +1.51008535562E-02
2.82000000000E+09 +6.34008957383E-01 -1.64388824008E-01 -2.80386384409E-03 -4.67716132045E-04 -2.78481395891E-03 -3.64495717320E-04 +7.33872621867E-01 -5.29941297987E-03
2.82500000000E+09 +6.19492955529E-01 -1.78349319345E-01 -2.81013135595E-03 +1.40896403276E-05 -2.68094488935E-03 +9.66682103077E-05 +7.25915275301E-01 -2.59588448967E-02
2.83000000000E+09 +6.02559403429E-01 -1.93956203522E-01 -2.85590862662E-03 +4.37399575121E-04 -2.63806766973E-03 +3.93914655395E-04 +7.17101378436E-01 -4.68139767860E-02
2.83500000000E+09 +5.83368345388E-01 -2.09757232818E-01 -2.65332669924E-03 +9.87702533336E-04 -2.55975005965E-03 +8.65552886551E-04 +7.06829550411E-01 -6.79238164401E-02
2.84000000000E+09 +5.62251465159E-01 -2.27622540857E-01 -2.07460762611E-03 +1.29471641349E-03 -2.10207745521E-03 +1.22346445006E-03 +6.95416610543E-01 -8.93651539274E-02
2.84500000000E+09 +5.38552828845E-01 -2.46521165930E-01 -1.89053458907E-03 +1.18675982395E-03 -1.88710598157E-03 +1.14146517417E-03 +6.82233951505E-01 -1.10788366962E-01
2.85000000000E+09 +5.14220666520E-01 -2.66336101935E-01 -1.96495323234E-03 +1.33341025584E-03 -1.99933345323E-03 +1.36947608624E-03 +6.67914517386E-01 -1.31640123476E-01
2.85500000000E+09 +4.87717131136E-01 -2.85762682658E-01 -1.91172298211E-03 +1.70831580915E-03 -1.94611029328E-03 +1.65575206190E-03 +6.52069824756E-01 -1.51775088210E-01
2.86000000000E+09 +4.61611624694E-01 -3.02563571332E-01 -1.51974919663E-03 +2.14205652482E-03 -1.54532983152E-03 +2.07466544574E-03 +6.36349125866E-01 -1.71532733063E-01
2.86500000000E+09 +4.37218428464E-01 -3.17602542295E-01 -1.18239713982E-03 +1.76401680723E-03 -1.19041710121E-03 +1.78510053657E-03 +6.18894321387E-01 -1.92520192450E-01
2.87000000000E+09 +4.13314731491E-01 -3.31097325443E-01 -1.39707147599E-03 +2.36036732439E-03 -1.41435408892E-03 +2.36695595659E-03 +5.99646157668E-01 -2.12502878119E-01
2.87500000000E+09 +3.89249879804E-01 -3.42307720680E-01 -5.15711335874E-04 +2.32003580488E-03 -5.02167610346E-04 +2.29757602681E-03 +5.78932924314E-01 -2.31872457111E-01
2.88000000000E+09 +3.64667150975E-01 -3.51564094643E-01 -6.26021535707E-04 +2.08233582213E-03 -5.27603280957E-04 +2.03130569608E-03 +5.57993929412E-01 -2.49642266760E-01
2.88500000000E+09 +3.37419433662E-01 -3.59182663400E-01 -4.43741780417E-04 +2.53660031334E-03 -3.82800845163E-04 +2.38192463452E-03 +5.36122054848E-01 -2.68620087302E-01
2.89000000000E+09 +3.07950757186E-01 -3.64253218890E-01 +1.54344781149E-06 +2.46422430078E-03 -4.22841083841E-05 +2.30064394246E-03 +5.11430936188E-01 -2.86689374009E-01
2.89500000000E+09 +2.76470531045E-01 -3.67774698151E-01 +3.64659483119E-04 +2.34438681857E-03 +1.78490644021E-04 +2.26613256956E-03 +4.85507224557E-01 -3.04080817173E-01
2.90000000000E+09 +2.43145714389E-01 -3.69910703502E-01 +5.01397884509E-04 +2.31074900983E-03 +5.07638620520E-04 +2.36076938393E-03 +4.58264931180E-01 -3.21511301702E-01
2.90500000000E+09 +2.07827224675E-01 -3.71117309600E-01 +6.87935381704E-04 +2.19200363070E-03 +6.65881194592E-04 +2.19042335240E-03 +4.29083403662E-01 -3.37937494282E-01
2.91000000000E+09 +1.71971230727E-01 -3.71108020836E-01 +1.25465065997E-03 +2.35103266509E-03 +1.30143805463E-03 +2.30327993779E-03 +3.98733066822E-01 -3.53915662304E-01
2.91500000000E+09 +1.35662058524E-01 -3.69034310789E-01 +1.47215723894E-03 +2.07628865269E-03 +1.41713215785E-03 +1.94920253553E-03 +3.65317514319E-01 -3.67437310497E-01
2.92000000000E+09 +1.00296165734E-01 -3.65054246010E-01 +2.13526165531E-03 +1.82764778021E-03 +2.03321124995E-03 +1.75750053803E-03 +3.30546270425E-01 -3.78052560339E-01
2.92500000000E+09 +6.69731828541E-02 -3.58103135440E-01 +2.15409622006E-03 +9.59098847787E-04 +2.00145010845E-03 +9.73151210235E-04 +2.94744861894E-01 -3.85761784668E-01
2.93000000000E+09 +3.54865366590E-02 -3.49600918767E-01 +1.77798542383E-03 +6.57270296859E-04 +1.73209406140E-03 +7.89460901457E-04 +2.58134882343E-01 -3.92543616164E-01
2.93500000000E+09 +4.74683552125E-03 -3.38644863681E-01 +1.88125643434E-03 +5.36659936848E-04 +1.86620194939E-03 +6.54030207474E-04 +2.19082303352E-01 -3.98018573172E-01
2.94000000000E+09 -2.50430076169E-02 -3.24771087837E-01 +1.62100160644E-03 -1.65556087426E-05 +1.64661112239E-03 +5.09437442994E-05 +1.77686414346E-01 -4.00346573585E-01
2.94500000000E+09 -5.43913318596E-02 -3.08859667727E-01 +1.11048709685E-03 +2.54196364193E-04 +1.04324887058E-03 +2.81997657236E-04 +1.38109757844E-01 -3.98756564001E-01
2.95000000000E+09 -8.49935680318E-02 -2.89178773496E-01 +1.53992184195E-03 +5.60698026798E-04 +1.51216542264E-03 +6.06017381158E-04 +9.76907653109E-02 -3.96195512926E-01
2.95500000000E+09 -1.12855367833E-01 -2.66157226186E-01 +1.65863250067E-03 +2.98868722573E-04 +1.70246646025E-03 +4.02568052463E-04 +5.75659834869E-02 -3.89811863130E-01
2.96000000000E+09 -1.40641158915E-01 -2.43248369036E-01 +1.52394002249E-03 -5.25746550827E-04 +1.65938729700E-03 -5.20555954416E-04 +1.66911935862E-02 -3.80641478994E-01
2.96500000000E+09 -1.67903700610E-01 -2.17033764928E-01 +6.59259623350E-04 -1.36330527816E-04 +6.58401812527E-04 -1.96981787303E-04 -2.34725842538E-02 -3.67371645334E-01
2.97000000000E+09 -1.91525157248E-01 -1.90189143426E-01 +9.91828958568E-04 +4.19670545351E-04 +1.06306509894E-03 +3.66565122310E-04 -6.21263384340E-02 -3.51776323097E-01
2.97500000000E+09 -2.14268090145E-01 -1.63637415776E-01 +1.34595587885E-03 +2.43739517946E-04 +1.36828124637E-03 +2.85216522789E-04 -1.00101281899E-01 -3.35282065625E-01
2.98000000000E+09 -2.35611215734E-01 -1.35016137501E-01 +1.37054839408E-03 +2.84464479971E-04 +1.33631881772E-03 +3.21621741196E-04 -1.37947924873E-01 -3.15967183289E-01
2.98500000000E+09 -2.53938445982E-01 -1.05130283016E-01 +1.78102387223E-03 +4.92106882638E-05 +1.74467739930E-03 +1.54070925459E-04 -1.74726454978E-01 -2.93739204321E-01
2.99000000000E+09 -2.69628447737E-01 -7.44328455584E-02 +1.75152877334E-03 -1.44271493355E-04 +1.81249451192E-03 -2.08525763948E-04 -2.09903270042E-01 -2.67808069834E-01
2.99500000000E+09 -2.83323800428E-01 -4.35985951390E-02 +1.85811243539E-03 -2.12923591383E-04 +1.90085072290E-03 -3.09682604729E-04 -2.42587729221E-01 -2.38613526263E-01
3.00000000000E+09 -2.96359958877E-01 -1.22072664762E-02 +2.08822970275E-03 -6.86161025386E-04 +2.01415102234E-03 -8.29208198349E-04 -2.73084755718E-01 -2.07323386464E-01
3.00500000000E+09 -3.07460076880E-01 +2.03828705117E-02 +2.02455379405E-03 -9.76661072059E-04 +1.88707585457E-03 -9.24661487361E-04 -3.01641084372E-01 -1.74938642015E-01
3.01000000000E+09 -3.16520875612E-01 +5.24997559664E-02 +1.77310394416E-03 -1.57208307889E-03 +1.71186998710E-03 -1.44670988454E-03 -3.27996642801E-01 -1.39891107313E-01
3.01500000000E+09 -3.23645412174E-01 +8.48738692739E-02 +1.41506117199E-03 -1.60592951579E-03 +1.46019135534E-03 -1.44618394561E-03 -3.51501251413E-01 -1.04335632633E-01
3.02000000000E+09 -3.27442607398E-01 +1.16117761059E-01 +1.31802381592E-03 -1.77154946559E-03 +1.36020104770E-03 -1.71534567347E-03 -3.71885684612E-01 -6.70872289508E-02
3.02500000000E+09 -3.28482601563E-01 +1.45566140289E-01 +1.20192967239E-03 -1.87278064706E-03 +1.17282087687E-03 -1.87622883466E-03 -3.88914728764E-01 -2.97555655034E-02
3.03000000000E+09 -3.27631573060E-01 +1.73190905018E-01 +8.45479632808E-04 -2.02252694046E-03 +9.03954059001E-04 -2.05389249264E-03 -4.04189343027E-01 +9.80642890402E-03
3.03500000000E+09 -3.24424766750E-01 +2.00913500568E-01 +6.92922938125E-04 -2.01425821904E-03 +6.84571369606E-04 -2.05150693641E-03 -4.15416261065E-01 +4.99185701576E-02
3.04000000000E+09 -3.18140018761E-01 +2.29244988171E-01 +4.08348506647E-04 -2.33830261166E-03 +4.22392390966E-04 -2.32500968008E-03 -4.22533819672E-01 +8.97167414803E-02
3.04500000000E+09 -3.09006685877E-01 +2.56822814193E-01 -1.02373615118E-04 -2.06499526098E-03 -1.02513526648E-04 -2.20311327684E-03 -4.28397619981E-01 +1.27725587266E-01
3.05000000000E+09 -2.98434564719E-01 +2.85749153819E-01 -9.70248616119E-05 -1.84913767760E-03 -1.89577115470E-04 -1.97130123897E-03 -4.32347972109E-01 +1.65362970774E-01
3.05500000000E+09 -2.85052633445E-01 +3.14131129404E-01 -6.19159958152E-05 -1.96732113038E-03 -2.12040280907E-04 -1.97255068539E-03 -4.34351368520E-01 +2.03688494401E-01
3.06000000000E+09 -2.71597115261E-01 +3.41862089688E-01 -3.15829989059E-04 -2.18008199610E-03 -3.86514772998E-04 -2.07201452748E-03 -4.33793225422E-01 +2.41030675705E-01
3.06500000000E+09 -2.57424296023E-01 +3.68706286745E-01 -4.90208228272E-04 -2.23759484421E-03 -4.76053063655E-04 -2.12382559330E-03 -4.30484694544E-01 +2.78278441113E-01
3.07000000000E+09 -2.44357547651E-01 +3.92864843761E-01 -1.23147487857E-03 -2.34071971184E-03 -1.06106913603E-03 -2.37947885286E-03 -4.24801080461E-01 +3.14206934060E-01
