# Hz S RI R 50
! CMT, C1220, 16058040, 17.2.0/1
! Date: 15/08/2018 10:44:02
! Data: Format (Calibration Info)
! Freq                      S11: Re/Im (F2)                       S21: Re/Im (F2)                       S12: Re/Im (F2)                       S22: Re/Im (F2)            
2.50000000000E+09 +5.92143389554E-01 +6.52169624764E-01 +1.07606099076E-05 -2.14347255092E-04 -1.88288981598E-05 -2.18366574648E-04 +5.63497503897E-01 +7.25383675781E-01
2.50500000000E+09 +5.98766443849E-01 +6.43978005211E-01 -5.43305229347E-05 -1.91718864199E-04 -5.26544675293E-05 -2.21809248460E-04 +5.69389478037E-01 +7.19936007348E-01
2.51000000000E+09 +6.06279977075E-01 +6.35669163195E-01 -7.67896742531E-05 -1.68463080585E-04 -3.79146006114E-05 -2.20966567702E-04 +5.75241238028E-01 +7.14599913867E-01
2.51500000000E+09 +6.13912148494E-01 +6.27890926522E-01 -6.90797650543E-05 -2.68320938781E-04 -6.89029673737E-05 -2.85614115163E-04 +5.80817366004E-01 +7.09124645226E-01
2.52000000000E+09 +6.20922585716E-01 +6.20304603900E-01 -1.50558625609E-04 -2.98705609051E-04 -1.73511957630E-04 -2.55870514780E-04 +5.86216863238E-01 +7.03051152915E-01
2.52500000000E+09 +6.26612619206E-01 +6.13823719620E-01 -2.32518809831E-04 -2.38391094507E-04 -2.06596072940E-04 -2.65585525507E-04 +5.92161575828E-01 +6.96614826750E-01
2.53000000000E+09 +6.31410457376E-01 +6.08195286424E-01 -2.42066385425E-04 -2.26025965102E-04 -2.34396555121E-04 -2.86317044635E-04 +5.98509493928E-01 +6.89487801885E-01
2.53500000000E+09 +6.35555384323E-01 +6.02663759403E-01 -3.48216008419E-04 -1.93602963235E-04 -3.51971442090E-04 -2.54128881725E-04 +6.04336213096E-01 +6.82522342338E-01
2.54000000000E+09 +6.38876631743E-01 +5.96940752766E-01 -3.19946627863E-04 -1.37209644737E-04 -3.27464540991E-04 -1.46647261740E-04 +6.10200146986E-01 +6.75696948771E-01
2.54500000000E+09 +6.42335288793E-01 +5.90665739467E-01 -3.36946335290E-04 -9.80135855128E-05 -3.71667812383E-04 -1.07717927931E-04 +6.15680014728E-01 +6.69427682517E-01
2.55000000000E+09 +6.46771793455E-01 +5.83212714394E-01 -3.46202373075E-04 -5.82315349354E-05 -4.14111357733E-04 -1.26609776553E-04 +6.20800147825E-01 +6.63232341777E-01
2.55500000000E+09 +6.51946372847E-01 +5.74263729618E-01 -4.42705499354E-04 -2.91539632041E-05 -5.02461995016E-04 -5.38189804814E-05 +6.25799190587E-01 +6.56876217679E-01
2.56000000000E+09 +6.58512376246E-01 +5.64625083899E-01 -3.64907029411E-04 +5.69295036259E-05 -3.88555890005E-04 +6.93919973153E-05 +6.30889040675E-01 +6.49877031658E-01
2.56500000000E+09 +6.65730678890E-01 +5.54339321675E-01 -4.06311715149E-04 +4.20950468862E-06 -4.37395941747E-04 +9.66506632054E-05 +6.36099522851E-01 +6.42399597868E-01
2.57000000000E+09 +6.73460559401E-01 +5.44394421824E-01 -4.05797261009E-04 +6.75170801623E-05 -3.61940042674E-04 +1.43246047800E-04 +6.41183812505E-01 +6.34763058748E-01
2.57500000000E+09 +6.81047207745E-01 +5.35149414727E-01 -4.25449084395E-04 +4.70156812372E-05 -3.22312843749E-04 +1.38277861723E-04 +6.46507864864E-01 +6.27505280497E-01
2.58000000000E+09 +6.87551188105E-01 +5.26942621663E-01 -4.54871748333E-04 +5.38947244329E-05 -3.58933638523E-04 +5.57020062588E-05 +6.51550034399E-01 +6.20317697747E-01
2.58500000000E+09 +6.92818022631E-01 +5.19925672799E-01 -5.40759231805E-04 +1.13101764914E-04 -4.89270886785E-04 +7.04317487582E-05 +6.56742277545E-01 +6.13088973131E-01
2.59000000000E+09 +6.96794652943E-01 +5.13944513770E-01 -5.49738416255E-04 +2.88330943295E-04 -5.64126940363E-04 +2.06541776624E-04 +6.61836433156E-01 +6.05923511473E-01
2.59500000000E+09 +6.99997758215E-01 +5.08090099309E-01 -5.01943867834E-04 +4.13557608323E-04 -5.27039517380E-04 +3.99051114570E-04 +6.67146317886E-01 +5.98155317584E-01
2.60000000000E+09 +7.02303958290E-01 +5.01506886551E-01 -4.12224779455E-04 +4.10290977278E-04 -4.36725471076E-04 +3.72424423192E-04 +6.72817163978E-01 +5.90032096369E-01
2.60500000000E+09 +7.04726734717E-01 +4.93313754952E-01 -4.61085163564E-04 +4.05297574661E-04 -4.28292971363E-04 +4.32615532567E-04 +6.78607029578E-01 +5.81291677695E-01
2.61000000000E+09 +7.07594924182E-01 +4.83347214010E-01 -5.01696156154E-04 +5.85842457225E-04 -4.80378264875E-04 +5.35329099921E-04 +6.84195368593E-01 +5.72311038601E-01
2.61500000000E+09 +7.11665785763E-01 +4.71064175230E-01 -2.38199024467E-04 +6.49979374841E-04 -2.83998666473E-04 +6.18401037326E-04 +6.89298735262E-01 +5.63674187339E-01
2.62000000000E+09 +7.16094532342E-01 +4.56753242453E-01 -3.29450693550E-04 +5.27128397578E-04 -3.18780606711E-04 +5.90909129411E-04 +6.94423131790E-01 +5.54592770416E-01
2.62500000000E+09 +7.21166496235E-01 +4.41659460786E-01 -4.40737013325E-04 +6.80938161453E-04 -3.65589496197E-04 +8.04183430806E-04 +6.99500322677E-01 +5.45596629427E-01
2.63000000000E+09 +7.26398303676E-01 +4.26475514062E-01 -3.63849504293E-04 +8.58624948399E-04 -2.31774589639E-04 +8.96080576039E-04 +7.04327045961E-01 +5.36098631573E-01
2.63500000000E+09 +7.31324811962E-01 +4.12570940342E-01 -2.68273581763E-04 +9.28698134243E-04 -1.78989201148E-04 +8.82645784026E-04 +7.08890005009E-01 +5.26600516604E-01
2.64000000000E+09 +7.35955760946E-01 +4.00512139844E-01 -1.15920141703E-04 +1.23401890603E-03 -3.77642705838E-05 +1.04868211254E-03 +7.13605176437E-01 +5.16847678270E-01
2.64500000000E+09 +7.39993680157E-01 +3.90368457864E-01 +3.59216425072E-04 +1.19196299387E-03 +2.62805411345E-04 +1.10572349342E-03 +7.18102567725E-01 +5.06855761523E-01
2.65000000000E+09 +7.42979301736E-01 +3.81693820299E-01 +4.00880189725E-04 +9.07818573699E-04 +2.79275529440E-04 +9.30645771918E-04 +7.22187076562E-01 +4.96570676153E-01
2.65500000000E+09 +7.45154849497E-01 +3.73528386678E-01 +3.41598378935E-04 +9.04269274456E-04 +2.38536407766E-04 +9.76707511823E-04 +7.25867442728E-01 +4.86318316462E-01
2.66000000000E+09 +7.46741032755E-01 +3.65310343340E-01 +4.13833059000E-04 +1.02450233435E-03 +3.88778395476E-04 +1.17428702340E-03 +7.29903629440E-01 +4.75250061440E-01
2.66500000000E+09 +7.48261485579E-01 +3.56331464927E-01 +6.33489966186E-04 +1.16945124715E-03 +6.93817843530E-04 +1.16475900804E-03 +7.34015123128E-01 +4.64066194753E-01
2.67000000000E+09 +7.49647458820E-01 +3.44943495954E-01 +8.55570087513E-04 +1.02898672872E-03 +9.34520119008E-04 +9.50815876997E-04 +7.38234031633E-01 +4.53350617342E-01
2.67500000000E+09 +7.51175274650E-01 +3.31781718652E-01 +1.00616547747E-03 +9.46117217219E-04 +1.04629442741E-03 +9.10389646215E-04 +7.42467902781E-01 +4.42457229890E-01
2.68000000000E+09 +7.52807612536E-01 +3.16476914801E-01 +1.25200069540E-03 +7.64001280113E-04 +1.18538101888E-03 +7.21722366939E-04 +7.46417179626E-01 +4.31559467939E-01
2.68500000000E+09 +7.54503802254E-01 +3.00170853287E-01 +1.24785514351E-03 +6.72622222994E-04 +1.19376398573E-03 +7.01627190304E-04 +7.49570871409E-01 +4.20257042583E-01
2.69000000000E+09 +7.56306026826E-01 +2.83263681528E-01 +1.45023546714E-03 +5.43360953769E-04 +1.43120155406E-03 +5.51603849327E-04 +7.52492194911E-01 +4.08647697411E-01
2.69500000000E+09 +7.58103916352E-01 +2.67027256703E-01 +1.55971444065E-03 +3.84389905472E-04 +1.56160970215E-03 +4.30149376953E-04 +7.55653183229E-01 +3.96293396388E-01
2.70000000000E+09 +7.59687754805E-01 +2.51405790725E-01 +1.79419098205E-03 +1.90037948161E-04 +1.69501018336E-03 +2.05050493037E-04 +7.58985872274E-01 +3.83072562574E-01
2.70500000000E+09 +7.61049280349E-01 +2.37248671173E-01 +1.85096550884E-03 -1.46633728685E-04 +1.77433399591E-03 -2.68564795033E-05 +7.61972217911E-01 +3.69819558115E-01
2.71000000000E+09 +7.62224075310E-01 +2.24145174303E-01 +1.86075747594E-03 -4.81211631821E-04 +1.92609775096E-03 -3.38043580340E-04 +7.65196414933E-01 +3.56694812534E-01
2.71500000000E+09 +7.63176309972E-01 +2.11047617192E-01 +1.64542842642E-03 -7.80742540667E-04 +1.75360815208E-03 -8.55875461763E-04 +7.67819309171E-01 +3.43913114767E-01
2.72000000000E+09 +7.63641975158E-01 +1.98091507254E-01 +1.37172871370E-03 -8.50665161906E-04 +1.39720585949E-03 -9.58011443167E-04 +7.69978138440E-01 +3.31154038903E-01
2.72500000000E+09 +7.63748445595E-01 +1.84117024621E-01 +1.47839974181E-03 -8.60382116025E-04 +1.37886818090E-03 -9.77044938276E-04 +7.71577932659E-01 +3.17656656902E-01
2.73000000000E+09 +7.63006961934E-01 +1.68905293715E-01 +1.55982922512E-03 -1.14458552271E-03 +1.29199699241E-03 -1.15689884647E-03 +7.73086462839E-01 +3.03462835759E-01
2.73500000000E+09 +7.61242204577E-01 +1.52077511785E-01 +1.33959079211E-03 -1.51485602760E-03 +1.12621393208E-03 -1.33022527656E-03 +7.74625175895E-01 +2.88442664273E-01
2.74000000000E+09 +7.58680700845E-01 +1.34877247422E-01 +1.00192547366E-03 -1.56892416204E-03 +1.00360293207E-03 -1.34764985784E-03 +7.76310525926E-01 +2.73000295693E-01
2.74500000000E+09 +7.55456002667E-01 +1.17163585883E-01 +9.91911948659E-04 -1.66249114864E-03 +1.13397930885E-03 -1.43384732892E-03 +7.77671972376E-01 +2.57004491662E-01
2.75000000000E+09 +7.51374590618E-01 +9.90980360007E-02 +9.32658766061E-04 -1.79350949279E-03 +1.22265565722E-03 -1.76455103943E-03 +7.78305525952E-01 +2.41259991036E-01
2.75500000000E+09 +7.46629967093E-01 +8.14723173855E-02 +7.27955463535E-04 -2.17810879861E-03 +8.28151198724E-04 -2.31011655339E-03 +7.77811772610E-01 +2.25691802317E-01
2.76000000000E+09 +7.41648735501E-01 +6.41772443651E-02 +2.22458868054E-04 -2.40153382012E-03 +2.73046156414E-04 -2.57998779940E-03 +7.76912964011E-01 +2.10179317661E-01
2.76500000000E+09 +7.36284119814E-01 +4.67026855594E-02 -2.39719597555E-04 -2.25505978257E-03 -2.68019312987E-04 -2.40811587002E-03 +7.75904575276E-01 +1.93496569435E-01
2.77000000000E+09 +7.30570292045E-01 +2.86101136683E-02 -4.48499589499E-04 -2.20485444579E-03 -5.23687252802E-04 -2.34101425561E-03 +7.74258783657E-01 +1.75961293228E-01
2.77500000000E+09 +7.24159910281E-01 +9.70204320836E-03 -7.95359795528E-04 -2.06265394734E-03 -8.96052186969E-04 -2.12845065768E-03 +7.72120155853E-01 +1.58154012289E-01
2.78000000000E+09 +7.17625493063E-01 -9.97663440012E-03 -7.93388893082E-04 -1.91631076981E-03 -9.77694081575E-04 -1.94420202340E-03 +7.69539418623E-01 +1.40382576413E-01
2.78500000000E+09 +7.10161818263E-01 -3.05791740104E-02 -1.08999086874E-03 -1.87981031182E-03 -1.19513024186E-03 -1.79928495196E-03 +7.66618440902E-01 +1.23250670302E-01
2.79000000000E+09 +7.02913154464E-01 -5.16561939342E-02 -1.27840362827E-03 -1.85662022079E-03 -1.29631254002E-03 -1.69160543343E-03 +7.63224892272E-01 +1.06408008459E-01
2.79500000000E+09 +6.95200033487E-01 -7.29408580150E-02 -1.54999147535E-03 -1.85268095420E-03 -1.46146726762E-03 -1.72449521897E-03 +7.59119384691E-01 +8.90988756861E-02
2.80000000000E+09 +6.86745148959E-01 -9.38178013061E-02 -1.99354879835E-03 -1.54142570302E-03 -1.85965636784E-03 -1.49742720250E-03 +7.54287347160E-01 +7.12315708430E-02
2.80500000000E+09 +6.77713096647E-01 -1.13500690458E-01 -1.99652719879E-03 -1.23852293374E-03 -1.92124677585E-03 -1.28295463313E-03 +7.48782780233E-01 +5.28675916675E-02
2.81000000000E+09 +6.67350284592E-01 -1.31604215872E-01 -2.20827997702E-03 -1.09728829637E-03 -2.26052756714E-03 -1.13060561263E-03 +7.43325541214E-01 +3.42450434349E-02
2.81500000000E+09 +6.55655533200E-01 -1.47822545376E-01 -2.46548370225E-03 -8.54948771611E-04 -2.56505235207E-03 -8.64984772696E-04 +7.37000392477E-01 +1.42129975480E-02
2.82000000000E+09 +6.43061482137E-01 -1.62896146203E-01 -2.73441882972E-03 -4.10794944214E-04 -2.75177870099E-03 -2.71682449380E-04 +7.30138926695E-01 -5.48622665380E-03
2.82500000000E+09 +6.28723271376E-01 -1.78008576725E-01 -2.61288637627E-03 +6.71576805124E-05 -2.49739786015E-03 +1.45153597960E-04 +7.22188214712E-01 -2.56250411833E-02
2.83000000000E+09 +6.12069715612E-01 -1.93930259792E-01 -2.58429195483E-03 +2.87788451958E-04 -2.49815031213E-03 +2.76175906078E-04 +7.13337481918E-01 -4.55908785387E-02
2.83500000000E+09 +5.93387551594E-01 -2.10824532389E-01 -2.51002319447E-03 +8.68408122792E-04 -2.48650683786E-03 +7.66591554349E-04 +7.03376429673E-01 -6.61431824918E-02
2.84000000000E+09 +5.72205377678E-01 -2.29601073878E-01 -2.05638455717E-03 +1.07758763335E-03 -2.09118928788E-03 +1.00317477985E-03 +6.92523298391E-01 -8.72539482823E-02
2.84500000000E+09 +5.48922623683E-01 -2.49595222176E-01 -1.92517075592E-03 +1.10234395424E-03 -1.97559286074E-03 +1.10892869222E-03 +6.79858750453E-01 -1.08702035164E-01
2.85000000000E+09 +5.23864629512E-01 -2.70503252042E-01 -1.94095778792E-03 +1.28703577999E-03 -1.93534271852E-03 +1.31061620919E-03 +6.65367106128E-01 -1.29367064034E-01
2.85500000000E+09 +4.97216620920E-01 -2.90532391942E-01 -1.84465794488E-03 +1.46051172962E-03 -1.79263105323E-03 +1.43244514812E-03 +6.49796995521E-01 -1.49087409691E-01
2.86000000000E+09 +4.70929497756E-01 -3.08358690297E-01 -1.68089704590E-03 +1.76330713710E-03 -1.64064756038E-03 +1.70673209564E-03 +6.34253928690E-01 -1.68473430821E-01
2.86500000000E+09 +4.46328648115E-01 -3.23970690366E-01 -1.66905495979E-03 +1.75021376417E-03 -1.62385902515E-03 +1.75843909449E-03 +6.17320476784E-01 -1.88814977824E-01
2.87000000000E+09 +4.22448724011E-01 -3.38674413063E-01 -1.40048417036E-03 +2.63126879088E-03 -1.47023803023E-03 +2.61607185023E-03 +5.98927803868E-01 -2.08759939064E-01
2.87500000000E+09 +3.97625349583E-01 -3.51071197302E-01 -5.31768715665E-04 +2.27332075776E-03 -4.11070617682E-04 +2.25533204782E-03 +5.78665639572E-01 -2.28514763609E-01
2.88000000000E+09 +3.72086336198E-01 -3.61136006622E-01 -8.55234784447E-04 +1.91997182105E-03 -7.71986998007E-04 +1.94676343042E-03 +5.57692908851E-01 -2.46382953622E-01
2.88500000000E+09 +3.44346415748E-01 -3.69335502486E-01 -7.63963040166E-04 +2.66524445821E-03 -6.71211878476E-04 +2.55031804944E-03 +5.36078530465E-01 -2.65105615512E-01
2.89000000000E+09 +3.13968016130E-01 -3.75525319417E-01 -1.79484834247E-04 +2.76888897665E-03 -2.04193104500E-04 +2.53502892741E-03 +5.11710878308E-01 -2.83115958177E-01
2.89500000000E+09 +2.81782413279E-01 -3.79389304698E-01 +2.00682789544E-04 +2.83012172831E-03 +8.59106989561E-05 +2.69278046288E-03 +4.86119059912E-01 -3.00229650507E-01
2.90000000000E+09 +2.47517727789E-01 -3.82297207773E-01 +7.15464006728E-04 +2.75831404632E-03 +6.37517142803E-04 +2.78435881163E-03 +4.59352432089E-01 -3.17257174145E-01
2.90500000000E+09 +2.11195794096E-01 -3.84342594292E-01 +9.72859662869E-04 +2.40774864120E-03 +1.03243498430E-03 +2.46881548746E-03 +4.31241863685E-01 -3.33744949253E-01
2.91000000000E+09 +1.74033561682E-01 -3.84461071573E-01 +1.29881453593E-03 +2.30310017366E-03 +1.40001031958E-03 +2.27239769382E-03 +4.01531858488E-01 -3.50131376789E-01
2.91500000000E+09 +1.37222178402E-01 -3.83182363287E-01 +1.66790030810E-03 +2.13999634747E-03 +1.69324937637E-03 +2.06339501270E-03 +3.68835132332E-01 -3.64056222230E-01
2.92000000000E+09 +1.00283413965E-01 -3.79996915254E-01 +2.05989428272E-03 +1.72967255667E-03 +1.91227591935E-03 +1.68692761469E-03 +3.34560996785E-01 -3.75163054727E-01
2.92500000000E+09 +6.49218301904E-02 -3.73405924627E-01 +2.18386267896E-03 +1.23192972569E-03 +2.01816189272E-03 +1.27488949377E-03 +2.98879639342E-01 -3.83181800830E-01
2.93000000000E+09 +3.18009544384E-02 -3.64087348922E-01 +1.92677677176E-03 +7.89112256299E-04 +1.80505055476E-03 +9.94885532887E-04 +2.62613667834E-01 -3.90208403351E-01
2.93500000000E+09 +4.64174139883E-04 -3.52947038177E-01 +1.92896240349E-03 +8.28122034658E-04 +1.89910503158E-03 +1.00447354040E-03 +2.24604146155E-01 -3.95952145063E-01
2.94000000000E+09 -3.09210499065E-02 -3.39447690843E-01 +2.05780314482E-03 +5.12711430188E-04 +2.07798077267E-03 +5.18158026377E-04 +1.83969278218E-01 -3.99588788358E-01
2.94500000000E+09 -6.19289111468E-02 -3.22780910148E-01 +1.77127383538E-03 +3.69759267163E-04 +1.73726670606E-03 +4.23486873761E-04 +1.44389214816E-01 -3.99300878624E-01
2.95000000000E+09 -9.35345449521E-02 -3.02796946706E-01 +2.02923927886E-03 +4.32172698297E-04 +2.00314991230E-03 +4.93196763341E-04 +1.04159296108E-01 -3.97622910393E-01
2.95500000000E+09 -1.23585671537E-01 -2.79611890503E-01 +2.20639504987E-03 -4.16136705296E-05 +2.33007670944E-03 +3.04058835445E-05 +6.37964575746E-02 -3.92593348757E-01
2.96000000000E+09 -1.53135328892E-01 -2.54801487805E-01 +1.65679200819E-03 -7.00664134017E-04 +1.73455567842E-03 -7.21012070273E-04 +2.22677899288E-02 -3.84508483103E-01
2.96500000000E+09 -1.81093310475E-01 -2.27505269120E-01 +1.19566789421E-03 -1.33538973634E-04 +1.21594985426E-03 -1.97686535084E-04 -1.84827035551E-02 -3.71940613709E-01
2.97000000000E+09 -2.06394656900E-01 -1.99606788117E-01 +1.63575971733E-03 +4.36109472458E-05 +1.66748581236E-03 -4.33513524757E-06 -5.80963730265E-02 -3.57501816120E-01
2.97500000000E+09 -2.30133530387E-01 -1.70468609358E-01 +1.99659480426E-03 -5.22817982701E-04 +1.95698510952E-03 -5.19118853634E-04 -9.72040013240E-02 -3.41282718511E-01
2.98000000000E+09 -2.51321525515E-01 -1.40417553994E-01 +1.32788357589E-03 -7.88485319096E-04 +1.30024445709E-03 -7.01449303857E-04 -1.36258757214E-01 -3.22237044740E-01
2.98500000000E+09 -2.70132814594E-01 -1.09262730873E-01 +1.43255967368E-03 -4.95758299843E-04 +1.46881535983E-03 -4.19333097156E-04 -1.73831449256E-01 -3.00050949446E-01
2.99000000000E+09 -2.86361863051E-01 -7.70443746331E-02 +1.68065406813E-03 -6.61836811495E-04 +1.83226465363E-03 -6.86057981467E-04 -2.09820858123E-01 -2.74208116804E-01
2.99500000000E+09 -3.00264164468E-01 -4.43968437890E-02 +1.51667285305E-03 -9.54484082137E-04 +1.56467520869E-03 -1.00176148302E-03 -2.43729107035E-01 -2.44970395551E-01
3.00000000000E+09 -3.13174588957E-01 -1.08991155839E-02 +1.61709663482E-03 -9.60735535313E-04 +1.56155772856E-03 -1.01658739619E-03 -2.74947881199E-01 -2.13115969567E-01
3.00500000000E+09 -3.23636252491E-01 +2.31691609324E-02 +1.54915152752E-03 -1.34441138263E-03 +1.48449966322E-03 -1.30497983029E-03 -3.04091290335E-01 -1.80525924828E-01
3.01000000000E+09 -3.31930998105E-01 +5.70065114139E-02 +1.35742199670E-03 -1.44273040666E-03 +1.29785303314E-03 -1.38478098136E-03 -3.31353517374E-01 -1.44779406957E-01
3.01500000000E+09 -3.38143326279E-01 +9.05345777846E-02 +1.38387698395E-03 -1.72274030546E-03 +1.40332068806E-03 -1.60339463503E-03 -3.55163022777E-01 -1.08686455305E-01
3.02000000000E+09 -3.40885364536E-01 +1.22744112450E-01 +1.04886000287E-03 -2.11955840755E-03 +1.18823459001E-03 -2.13381171374E-03 -3.76119448454E-01 -7.10348861600E-02
3.02500000000E+09 -3.41014251391E-01 +1.52936765122E-01 +5.66669335978E-04 -2.14001216986E-03 +5.51429966461E-04 -2.19035752774E-03 -3.93462339916E-01 -3.30276177482E-02
3.03000000000E+09 -3.39105868355E-01 +1.81158048342E-01 +3.65610508665E-04 -1.98018682710E-03 +4.08301055524E-04 -2.03052500217E-03 -4.09140109686E-01 +6.57040811302E-03
3.03500000000E+09 -3.35319635682E-01 +2.09543171491E-01 +2.85098604054E-04 -2.00343413981E-03 +2.89017417722E-04 -2.03182500220E-03 -4.21322308052E-01 +4.72217905062E-02
3.04000000000E+09 -3.28254847298E-01 +2.38732225673E-01 +2.29437628613E-04 -2.34497391195E-03 +2.85502265506E-04 -2.34428242578E-03 -4.29444761981E-01 +8.83662237323E-02
3.04500000000E+09 -3.17962616860E-01 +2.66889780965E-01 -3.79833233682E-04 -2.26499950076E-03 -4.71459373146E-04 -2.38476331705E-03 -4.35159520285E-01 +1.28177863001E-01
3.05000000000E+09 -3.06283660135E-01 +2.96339889734E-01 -5.61733368562E-04 -1.97302521521E-03 -6.51921676083E-04 -2.09299235445E-03 -4.38368639453E-01 +1.66951615468E-01
3.05500000000E+09 -2.91628930222E-01 +3.25086414181E-01 -5.97447507203E-04 -1.97702982258E-03 -7.68971407270E-04 -1.97025535931E-03 -4.39929051714E-01 +2.05829244018E-01
3.06000000000E+09 -2.76897056293E-01 +3.52510914657E-01 -9.48566798627E-04 -1.99142813139E-03 -1.01129037394E-03 -1.83585410645E-03 -4.38640207053E-01 +2.43935028686E-01
3.06500000000E+09 -2.62213709935E-01 +3.79083143496E-01 -1.13011262196E-03 -1.99589526619E-03 -1.02197111455E-03 -1.87662372379E-03 -4.34882430241E-01 +2.81401400795E-01
3.07000000000E+09 -2.48710296253E-01 +4.03585179033E-01 -1.71754512416E-03 -1.93670359919E-03 -1.54880039482E-03 -1.97169080110E-03 -4.28967460083E-01 +3.18029999860E-01
