# Hz S RI R 50
! CMT, C1220, 16058040, 17.2.0/1
! Date: 15/08/2018 10:42:09
! Data: Format (Calibration Info)
! Freq                      S11: Re/Im (F2)                       S21: Re/Im (F2)                       S12: Re/Im (F2)                       S22: Re/Im (F2)            
2.50000000000E+09 +5.92508369579E-01 +6.51188734181E-01 +5.88896284924E-05 -3.64622702080E-04 +1.08755953493E-06 -4.66869261262E-04 +5.64320515197E-01 +7.24833326514E-01
2.50500000000E+09 +5.99432501612E-01 +6.42912744546E-01 -1.85440289746E-05 -4.39145315364E-04 -7.49409474651E-05 -5.00070078437E-04 +5.70265021505E-01 +7.19247287047E-01
2.51000000000E+09 +6.06837638292E-01 +6.34584056875E-01 -1.22094174289E-04 -4.49926868333E-04 -1.60742539807E-04 -4.63493682123E-04 +5.76167516297E-01 +7.13884154412E-01
2.51500000000E+09 +6.14679282670E-01 +6.26774946474E-01 -2.16048039886E-04 -4.91669032933E-04 -1.99949753504E-04 -4.49833503553E-04 +5.81638219125E-01 +7.08371844293E-01
2.52000000000E+09 +6.21716134971E-01 +6.19258515934E-01 -3.05846168379E-04 -4.63692724480E-04 -2.43861015732E-04 -4.30343264694E-04 +5.87038118639E-01 +7.02303428859E-01
2.52500000000E+09 +6.27563161892E-01 +6.12609452521E-01 -3.58364274279E-04 -5.28026403444E-04 -3.18468514643E-04 -4.86080870121E-04 +5.93017231490E-01 +6.95849047060E-01
2.53000000000E+09 +6.32604572745E-01 +6.06894559198E-01 -3.97083742980E-04 -4.44456099809E-04 -4.14234977896E-04 -4.55827005197E-04 +5.99236066719E-01 +6.88606540795E-01
2.53500000000E+09 +6.36592001936E-01 +6.01494227561E-01 -5.07218826353E-04 -3.66891592138E-04 -4.82220537923E-04 -3.69807065811E-04 +6.05089127148E-01 +6.81556208086E-01
2.54000000000E+09 +6.40004685615E-01 +5.95535190081E-01 -4.89911715745E-04 -3.78138009051E-04 -4.63102500311E-04 -3.57129041278E-04 +6.10717393588E-01 +6.74671774861E-01
2.54500000000E+09 +6.43501479364E-01 +5.89265682583E-01 -5.84469474196E-04 -2.89006861240E-04 -5.70260511252E-04 -3.50324419324E-04 +6.16126055517E-01 +6.68346889853E-01
2.55000000000E+09 +6.47922094005E-01 +5.81669136304E-01 -6.47984521624E-04 -2.07827852883E-04 -6.56923639654E-04 -3.03818282798E-04 +6.21176613435E-01 +6.62188428297E-01
2.55500000000E+09 +6.53373805718E-01 +5.72688054432E-01 -6.45689319988E-04 -1.52122061165E-04 -7.26971243343E-04 -2.69504955041E-04 +6.26106916856E-01 +6.55919389793E-01
2.56000000000E+09 +6.59878083880E-01 +5.62878251072E-01 -6.25192284023E-04 -1.72822492698E-04 -6.81420883125E-04 -1.64197186249E-04 +6.31244268486E-01 +6.49000579166E-01
2.56500000000E+09 +6.67153698595E-01 +5.52404183710E-01 -7.31621119833E-04 -1.65695429017E-04 -8.23599182834E-04 -4.87646437083E-05 +6.36421612060E-01 +6.41433432997E-01
2.57000000000E+09 +6.74918596050E-01 +5.42530552787E-01 -7.47484650094E-04 -1.09662711325E-04 -7.78537454438E-04 +1.07764668922E-04 +6.41503601347E-01 +6.33795460766E-01
2.57500000000E+09 +6.82645799034E-01 +5.33202947904E-01 -8.05009783546E-04 -1.82008236849E-05 -7.38242912404E-04 +1.41119266041E-04 +6.46670346691E-01 +6.26621822502E-01
2.58000000000E+09 +6.89262880212E-01 +5.24789278131E-01 -8.65217621068E-04 +3.93432869752E-05 -7.35808795248E-04 +1.04552310846E-04 +6.51778264073E-01 +6.19538007149E-01
2.58500000000E+09 +6.94543036591E-01 +5.17648792879E-01 -9.85964438482E-04 +1.36001952781E-04 -8.62471667681E-04 +7.75310817602E-05 +6.56857716104E-01 +6.12315325052E-01
2.59000000000E+09 +6.98489155964E-01 +5.11659851422E-01 -1.01106146329E-03 +3.61948141131E-04 -1.04113131819E-03 +2.35435579849E-04 +6.62135221216E-01 +6.05022955368E-01
2.59500000000E+09 +7.01597588229E-01 +5.05761679881E-01 -9.56937811112E-04 +5.00525769973E-04 -1.01243687923E-03 +4.77853950011E-04 +6.67270535077E-01 +5.97449133315E-01
2.60000000000E+09 +7.04075575917E-01 +4.99252755897E-01 -8.34912604430E-04 +5.85393050069E-04 -8.54950109512E-04 +6.00558729007E-04 +6.72937295141E-01 +5.89213628585E-01
2.60500000000E+09 +7.06768550207E-01 +4.90918307414E-01 -8.35865471007E-04 +5.80659850556E-04 -8.56817468047E-04 +6.17425357122E-04 +6.78801329832E-01 +5.80304878073E-01
2.61000000000E+09 +7.09500547109E-01 +4.80586901049E-01 -9.49892855800E-04 +8.32115658377E-04 -9.58877966585E-04 +8.15975181885E-04 +6.84019584713E-01 +5.71432926069E-01
2.61500000000E+09 +7.13576098848E-01 +4.68189001177E-01 -7.17856076293E-04 +1.02266918325E-03 -7.59190389457E-04 +9.95499221080E-04 +6.89124373991E-01 +5.62881566527E-01
2.62000000000E+09 +7.18212477134E-01 +4.53779768882E-01 -6.42043323698E-04 +9.81796795438E-04 -6.35835580865E-04 +1.03504921112E-03 +6.94169561385E-01 +5.53940287600E-01
2.62500000000E+09 +7.23349444055E-01 +4.38371875156E-01 -6.47771794171E-04 +1.05203158049E-03 -5.81401660817E-04 +1.17733680408E-03 +6.99298150587E-01 +5.44921142659E-01
2.63000000000E+09 +7.28720098465E-01 +4.23082152090E-01 -6.00489988924E-04 +1.26981419642E-03 -4.28516928088E-04 +1.28880262411E-03 +7.04123166771E-01 +5.35441521690E-01
2.63500000000E+09 +7.33531942670E-01 +4.08853763532E-01 -5.73760966989E-04 +1.40667334786E-03 -3.70116006039E-04 +1.31224553848E-03 +7.08621910923E-01 +5.26092037772E-01
2.64000000000E+09 +7.37926372153E-01 +3.96526783765E-01 -3.53385133257E-04 +1.73834049630E-03 -2.85564703878E-04 +1.48523778925E-03 +7.13141341349E-01 +5.16305297626E-01
2.64500000000E+09 +7.41834003147E-01 +3.86239114302E-01 +2.16657759296E-04 +1.77109435125E-03 +7.08823392580E-05 +1.50701342926E-03 +7.17680998038E-01 +5.06578208813E-01
2.65000000000E+09 +7.44699110846E-01 +3.77431716119E-01 +3.46817871797E-04 +1.45256995399E-03 +1.93296018248E-04 +1.41323018241E-03 +7.21895620309E-01 +4.96514184997E-01
2.65500000000E+09 +7.46933256754E-01 +3.69182025739E-01 +2.99919860326E-04 +1.34367290255E-03 +1.69372604920E-04 +1.44713486967E-03 +7.25657376993E-01 +4.86109630452E-01
2.66000000000E+09 +7.48425743472E-01 +3.60754883277E-01 +2.89974727099E-04 +1.50887700364E-03 +2.34516797201E-04 +1.63625892474E-03 +7.29713550026E-01 +4.74996906715E-01
2.66500000000E+09 +7.49911764650E-01 +3.51558017810E-01 +4.69355097817E-04 +1.76365315929E-03 +5.78707523315E-04 +1.85923007495E-03 +7.33759096811E-01 +4.64224959614E-01
2.67000000000E+09 +7.51128530709E-01 +3.39952597396E-01 +8.59692251402E-04 +1.76676628502E-03 +9.38309014375E-04 +1.71131315712E-03 +7.38286054075E-01 +4.53465555460E-01
2.67500000000E+09 +7.52653985345E-01 +3.26658550969E-01 +1.23790259572E-03 +1.71999674400E-03 +1.15770681007E-03 +1.51391318207E-03 +7.42418068007E-01 +4.42484850492E-01
2.68000000000E+09 +7.54275739584E-01 +3.11069734441E-01 +1.50697677440E-03 +1.40674902761E-03 +1.36729354082E-03 +1.34565004310E-03 +7.46263836097E-01 +4.31547368479E-01
2.68500000000E+09 +7.55827726647E-01 +2.94385861485E-01 +1.46915054212E-03 +1.30900665204E-03 +1.42182297972E-03 +1.34340630528E-03 +7.49616540393E-01 +4.20396667938E-01
2.69000000000E+09 +7.57403444636E-01 +2.77327325169E-01 +1.75399576290E-03 +1.32201339085E-03 +1.71991975815E-03 +1.30595030546E-03 +7.52560556404E-01 +4.08698635077E-01
2.69500000000E+09 +7.58952996744E-01 +2.60944734357E-01 +2.06067020043E-03 +1.09554214440E-03 +2.04063751230E-03 +1.09104583572E-03 +7.55817646760E-01 +3.96566631943E-01
2.70000000000E+09 +7.60404437533E-01 +2.45109587763E-01 +2.38025633087E-03 +8.26106547876E-04 +2.28567960483E-03 +8.26766250311E-04 +7.59221864134E-01 +3.83093595291E-01
2.70500000000E+09 +7.61478667953E-01 +2.30841720329E-01 +2.55773531255E-03 +3.84572805672E-04 +2.45660155732E-03 +4.79977311619E-04 +7.62060478689E-01 +3.69974015757E-01
2.71000000000E+09 +7.62465561589E-01 +2.17518582994E-01 +2.56524511928E-03 -7.74188826710E-05 +2.55911805766E-03 +5.39114340654E-05 +7.65315569738E-01 +3.57002046526E-01
2.71500000000E+09 +7.62867962909E-01 +2.04291446476E-01 +2.37101112238E-03 -4.15146941766E-04 +2.53298670419E-03 -4.16961663428E-04 +7.68160428774E-01 +3.44453680799E-01
2.72000000000E+09 +7.63048804694E-01 +1.91352324128E-01 +2.22264825710E-03 -5.61058854724E-04 +2.34488319260E-03 -6.74071966579E-04 +7.70433690069E-01 +3.31684578704E-01
2.72500000000E+09 +7.62983793596E-01 +1.77054773302E-01 +2.32945300021E-03 -6.96074954749E-04 +2.25433278994E-03 -9.38244111199E-04 +7.72352635059E-01 +3.17979203821E-01
2.73000000000E+09 +7.61791568843E-01 +1.61753895283E-01 +2.37434931624E-03 -1.07339942814E-03 +2.13758846275E-03 -1.14430614440E-03 +7.73832652179E-01 +3.03755090008E-01
2.73500000000E+09 +7.59859818576E-01 +1.44908270516E-01 +2.27469004137E-03 -1.53967908330E-03 +1.93757484598E-03 -1.33855796817E-03 +7.75391763477E-01 +2.88724356122E-01
2.74000000000E+09 +7.57035504679E-01 +1.27479967524E-01 +1.91536102634E-03 -1.63478425635E-03 +1.79275005610E-03 -1.34379911580E-03 +7.77018162702E-01 +2.73108241455E-01
2.74500000000E+09 +7.53356165053E-01 +1.09504453892E-01 +1.91516199302E-03 -1.92242646898E-03 +2.03899568819E-03 -1.55548828531E-03 +7.78497665925E-01 +2.57428616678E-01
2.75000000000E+09 +7.48805725674E-01 +9.15517091635E-02 +1.61920511494E-03 -2.19980436685E-03 +1.94961143154E-03 -2.09204032405E-03 +7.79360583275E-01 +2.41578985354E-01
2.75500000000E+09 +7.43786095301E-01 +7.40658936951E-02 +1.42703667396E-03 -2.42327318574E-03 +1.62505174072E-03 -2.46741934295E-03 +7.79123656581E-01 +2.25866404028E-01
2.76000000000E+09 +7.38806129085E-01 +5.66238930780E-02 +1.02731586670E-03 -2.70499150544E-03 +1.14870439104E-03 -2.83687572127E-03 +7.78300904347E-01 +2.10254364588E-01
2.76500000000E+09 +7.33012195218E-01 +3.90143199094E-02 +6.79292702237E-04 -2.62564037889E-03 +6.15048628552E-04 -2.75605463047E-03 +7.77464657224E-01 +1.93279021850E-01
2.77000000000E+09 +7.26779439824E-01 +2.07314664464E-02 +4.84760880131E-04 -2.76851769118E-03 +4.56820002931E-04 -2.86711133005E-03 +7.75799653997E-01 +1.75505874661E-01
2.77500000000E+09 +7.19909176066E-01 +1.85831247102E-03 +4.10509249245E-05 -2.87944135357E-03 -9.33686139064E-06 -2.96986118011E-03 +7.73475904069E-01 +1.57607503292E-01
2.78000000000E+09 +7.12788016034E-01 -1.76598946391E-02 -2.85165417623E-04 -2.79102241872E-03 -4.76416878631E-04 -2.78600657000E-03 +7.70992844616E-01 +1.39976201810E-01
2.78500000000E+09 +7.04941469656E-01 -3.85296961819E-02 -5.98454804643E-04 -2.55182870043E-03 -7.16077260165E-04 -2.50799286578E-03 +7.68294961970E-01 +1.22831147671E-01
2.79000000000E+09 +6.96494550851E-01 -5.93190852938E-02 -5.75431881585E-04 -2.62094422071E-03 -7.34395181684E-04 -2.47346155846E-03 +7.64955625427E-01 +1.05579849111E-01
2.79500000000E+09 +6.88283443868E-01 -8.02512880506E-02 -9.13251947437E-04 -2.78149926314E-03 -8.42553329556E-04 -2.54221420345E-03 +7.60913377614E-01 +8.80600368708E-02
2.80000000000E+09 +6.79297686286E-01 -1.00785993327E-01 -1.46472482160E-03 -2.73475373028E-03 -1.27578743416E-03 -2.67350055182E-03 +7.56021685604E-01 +6.98946435455E-02
2.80500000000E+09 +6.69569453565E-01 -1.20109570355E-01 -1.69639509116E-03 -2.49757329651E-03 -1.53794251084E-03 -2.56656969038E-03 +7.50422991400E-01 +5.13684339309E-02
2.81000000000E+09 +6.58763908717E-01 -1.37712886192E-01 -2.05412546838E-03 -2.27449270731E-03 -2.14369027184E-03 -2.34529982387E-03 +7.44809072409E-01 +3.24899639302E-02
2.81500000000E+09 +6.46304487370E-01 -1.53723755937E-01 -2.16170000653E-03 -2.09494323833E-03 -2.26902796609E-03 -2.16693266824E-03 +7.38627210080E-01 +1.23566374374E-02
2.82000000000E+09 +6.32707728602E-01 -1.67915659208E-01 -2.69104627677E-03 -1.88152189767E-03 -2.70245976270E-03 -1.75057048370E-03 +7.31434331844E-01 -7.71710674817E-03
2.82500000000E+09 +6.18118265841E-01 -1.81848986491E-01 -2.95812056569E-03 -1.49611787620E-03 -2.86570633756E-03 -1.38789588477E-03 +7.23280006854E-01 -2.78021048120E-02
2.83000000000E+09 +6.01115819316E-01 -1.97251390805E-01 -3.25353448760E-03 -1.04846537051E-03 -3.09107345833E-03 -1.00932915571E-03 +7.14506765486E-01 -4.81858154694E-02
2.83500000000E+09 +5.81840731870E-01 -2.13241377339E-01 -3.16161487585E-03 -3.82744193809E-04 -3.06019781135E-03 -4.17695320366E-04 +7.04268115808E-01 -6.90314701693E-02
2.84000000000E+09 +5.60597644808E-01 -2.30892927493E-01 -2.81577376402E-03 -5.54119876450E-05 -2.69293320175E-03 -2.18762342603E-04 +6.93064431956E-01 -9.03276042435E-02
2.84500000000E+09 +5.36705672183E-01 -2.50107303103E-01 -2.75830805628E-03 -1.94062985499E-04 -2.79090705303E-03 -2.44640076835E-04 +6.79583013801E-01 -1.11705525105E-01
2.85000000000E+09 +5.11827461122E-01 -2.69826632252E-01 -3.11988782645E-03 +8.25711094813E-05 -3.08829181437E-03 +7.85050810240E-05 +6.65001571543E-01 -1.31922120526E-01
2.85500000000E+09 +4.84810203843E-01 -2.89122768822E-01 -3.17523780823E-03 +5.24350458584E-04 -3.14558316088E-03 +5.52756268726E-04 +6.49611448782E-01 -1.51759357463E-01
2.86000000000E+09 +4.58365495318E-01 -3.05421492440E-01 -2.96204581489E-03 +1.07778328866E-03 -2.93665802893E-03 +9.99762613494E-04 +6.34164296324E-01 -1.71533169602E-01
2.86500000000E+09 +4.34188910918E-01 -3.19839882049E-01 -2.84360156705E-03 +9.91747438637E-04 -2.89595976408E-03 +8.76787507854E-04 +6.16666837531E-01 -1.92401561735E-01
2.87000000000E+09 +4.10440924101E-01 -3.33359990858E-01 -3.08936363210E-03 +1.84228537519E-03 -3.11325511080E-03 +1.89437067079E-03 +5.97296640250E-01 -2.12169629114E-01
2.87500000000E+09 +3.86158838590E-01 -3.44329706799E-01 -2.17771617978E-03 +1.89388340642E-03 -2.17964015045E-03 +1.96269109371E-03 +5.76295443441E-01 -2.31209821175E-01
2.88000000000E+09 +3.61522701427E-01 -3.53606552656E-01 -2.44979266391E-03 +1.83488803128E-03 -2.35733314192E-03 +1.86691467665E-03 +5.55611638040E-01 -2.48449297821E-01
2.88500000000E+09 +3.33882498968E-01 -3.61051817442E-01 -2.23184799313E-03 +2.40595564890E-03 -2.06685055938E-03 +2.30326207782E-03 +5.33974762322E-01 -2.67413062283E-01
2.89000000000E+09 +3.04217340607E-01 -3.65254164231E-01 -1.99356772698E-03 +2.54563513174E-03 -1.94988446178E-03 +2.34553265919E-03 +5.09106886221E-01 -2.85342886785E-01
2.89500000000E+09 +2.73234281556E-01 -3.68270733683E-01 -1.88499946042E-03 +2.72840755659E-03 -1.92477751614E-03 +2.49905139084E-03 +4.83174906482E-01 -3.02151587982E-01
2.90000000000E+09 +2.40127388657E-01 -3.70208209962E-01 -1.61740066646E-03 +3.33973869738E-03 -1.76934236986E-03 +3.34231694500E-03 +4.56205754672E-01 -3.18941238949E-01
2.90500000000E+09 +2.04932415021E-01 -3.71230435058E-01 -1.11116748534E-03 +3.46385884620E-03 -1.13723171830E-03 +3.54559514469E-03 +4.27781095100E-01 -3.34775384503E-01
2.91000000000E+09 +1.69239883405E-01 -3.70494058767E-01 -3.57656192033E-04 +3.77936429518E-03 -2.50995318554E-04 +3.73707215247E-03 +3.98313787134E-01 -3.50708814068E-01
2.91500000000E+09 +1.33541106903E-01 -3.68594537958E-01 +5.73628885541E-05 +3.54700578792E-03 +1.22366591073E-04 +3.41619813532E-03 +3.65339626173E-01 -3.64188617268E-01
2.92000000000E+09 +9.82985768678E-02 -3.64667240833E-01 +7.09571336590E-04 +3.41449973282E-03 +6.37173882559E-04 +3.27676755824E-03 +3.31258461456E-01 -3.75068387364E-01
2.92500000000E+09 +6.49877606167E-02 -3.57606411204E-01 +8.87772552531E-04 +2.87506885816E-03 +7.20565161089E-04 +2.74032552343E-03 +2.95637498806E-01 -3.82946154337E-01
2.93000000000E+09 +3.36509439184E-02 -3.48601274499E-01 +7.13647317502E-04 +2.89918211571E-03 +5.54592666460E-04 +2.90121134661E-03 +2.59364885932E-01 -3.89716167506E-01
2.93500000000E+09 +3.47638998127E-03 -3.37479315998E-01 +1.19276080030E-03 +2.99668705206E-03 +1.12171852481E-03 +3.09906046897E-03 +2.21160221701E-01 -3.95412137660E-01
2.94000000000E+09 -2.58843940851E-02 -3.23525851924E-01 +1.35980703761E-03 +2.42161781943E-03 +1.34779032730E-03 +2.47342138236E-03 +1.79905217929E-01 -3.98326894843E-01
2.94500000000E+09 -5.47404951966E-02 -3.07601246782E-01 +9.72371407843E-04 +2.97108085594E-03 +9.46865099646E-04 +2.94327755748E-03 +1.40838787074E-01 -3.97086625576E-01
2.95000000000E+09 -8.48650782171E-02 -2.88415018537E-01 +2.27951522933E-03 +3.17181591139E-03 +2.09284227853E-03 +3.19658998940E-03 +1.00678634949E-01 -3.95088798347E-01
2.95500000000E+09 -1.13054199575E-01 -2.65436148868E-01 +2.77880683970E-03 +2.50139462009E-03 +2.66867676646E-03 +2.64575483512E-03 +6.05671579133E-02 -3.89480091817E-01
2.96000000000E+09 -1.40794822963E-01 -2.42475614992E-01 +2.69621166671E-03 +1.51041848793E-03 +2.72814084863E-03 +1.60851620487E-03 +1.93873634614E-02 -3.80767691424E-01
2.96500000000E+09 -1.67894935222E-01 -2.15870884145E-01 +2.09168799503E-03 +1.66846647749E-03 +2.20767313154E-03 +1.70805193858E-03 -2.09253871428E-02 -3.67473105188E-01
2.97000000000E+09 -1.91055005146E-01 -1.88885731569E-01 +2.51967245832E-03 +1.92976138395E-03 +2.51014654328E-03 +1.95482455818E-03 -5.96967003556E-02 -3.52113731752E-01
2.97500000000E+09 -2.12978548074E-01 -1.62305450890E-01 +2.99543275031E-03 +1.98456101839E-03 +2.91434637622E-03 +1.93963398030E-03 -9.73634079192E-02 -3.35620635361E-01
2.98000000000E+09 -2.34262717896E-01 -1.34221997960E-01 +3.56427159297E-03 +1.57035238750E-03 +3.47156018548E-03 +1.73942150999E-03 -1.35114582923E-01 -3.16969525257E-01
2.98500000000E+09 -2.52149433670E-01 -1.04455784706E-01 +3.95143826045E-03 +8.22301151417E-04 +3.97701007864E-03 +1.09148561299E-03 -1.71987767379E-01 -2.95581518164E-01
2.99000000000E+09 -2.67778674663E-01 -7.38929863445E-02 +3.89761322306E-03 +3.65512984577E-04 +4.13470608257E-03 +3.87580729318E-04 -2.07676178832E-01 -2.69994795507E-01
2.99500000000E+09 -2.81209751124E-01 -4.34142972669E-02 +3.80955794599E-03 -3.02989191103E-06 +4.05917861357E-03 -3.98838326618E-05 -2.40674653864E-01 -2.41184910591E-01
3.00000000000E+09 -2.94020853889E-01 -1.18506904754E-02 +4.20952548741E-03 -5.01403840697E-04 +4.16954490995E-03 -7.22640568030E-04 -2.71588744467E-01 -2.10302397340E-01
3.00500000000E+09 -3.04563721490E-01 +2.03609338525E-02 +4.26767729425E-03 -1.12652476278E-03 +4.05928047269E-03 -1.23545460573E-03 -3.00871173276E-01 -1.78214811593E-01
3.01000000000E+09 -3.13426507430E-01 +5.19602262048E-02 +3.80105944337E-03 -2.09933026842E-03 +3.63723469138E-03 -1.97896454639E-03 -3.27935383706E-01 -1.42925611136E-01
3.01500000000E+09 -3.20758305016E-01 +8.41931259757E-02 +3.21398492778E-03 -2.27616863925E-03 +3.22442584051E-03 -2.10835308229E-03 -3.51608536280E-01 -1.07312020511E-01
3.02000000000E+09 -3.23903083392E-01 +1.15321788019E-01 +3.02417885408E-03 -2.40866576002E-03 +3.15730900656E-03 -2.37921264055E-03 -3.72745878137E-01 -7.01296670041E-02
3.02500000000E+09 -3.24712225132E-01 +1.43985636089E-01 +2.95161420964E-03 -2.61729408782E-03 +2.97737897155E-03 -2.69534065562E-03 -3.90528805610E-01 -3.25792269012E-02
3.03000000000E+09 -3.23935933348E-01 +1.70888066696E-01 +2.72270495908E-03 -3.13103502397E-03 +2.67931793122E-03 -3.20473569598E-03 -4.06065501128E-01 +7.41017599926E-03
3.03500000000E+09 -3.21092570096E-01 +1.98440673075E-01 +2.29808881673E-03 -3.50103640189E-03 +2.35270717657E-03 -3.45019566588E-03 -4.18198995000E-01 +4.78667510250E-02
3.04000000000E+09 -3.14732476719E-01 +2.26549820380E-01 +1.67317160700E-03 -4.18687304289E-03 +1.82165513186E-03 -4.17205316335E-03 -4.25536795743E-01 +8.85786485055E-02
3.04500000000E+09 -3.05789307301E-01 +2.53783387466E-01 +8.12405583241E-04 -3.68703690127E-03 +8.44178170903E-04 -3.90731417247E-03 -4.31247099088E-01 +1.27517792664E-01
3.05000000000E+09 -2.94876229880E-01 +2.82578536572E-01 +8.36587912677E-04 -3.64046946619E-03 +7.34782284223E-04 -3.84540409452E-03 -4.34775401553E-01 +1.65678466743E-01
3.05500000000E+09 -2.81514507404E-01 +3.10257544983E-01 +5.67889383842E-04 -3.94810436016E-03 +3.10606617254E-04 -3.97949426591E-03 -4.36824182953E-01 +2.04089597282E-01
3.06000000000E+09 -2.68347624712E-01 +3.37440021457E-01 +4.17950209952E-05 -4.14346902477E-03 -1.59922546032E-04 -4.00965896602E-03 -4.35813893927E-01 +2.41999480422E-01
3.06500000000E+09 -2.54622942067E-01 +3.63943790172E-01 -5.26180334802E-04 -4.37088092604E-03 -4.65908986526E-04 -4.07686393443E-03 -4.32233203316E-01 +2.79290537109E-01
3.07000000000E+09 -2.42135443872E-01 +3.88243715572E-01 -1.57109345374E-03 -4.13031458238E-03 -1.30199472470E-03 -4.13521143559E-03 -4.26730630093E-01 +3.15383728904E-01
