# Hz S RI R 50
! CMT, C1220, 16058040, 17.2.0/1
! Date: 15/08/2018 10:40:06
! Data: Format (Calibration Info)
! Freq                      S11: Re/Im (F2)                       S21: Re/Im (F2)                       S12: Re/Im (F2)                       S22: Re/Im (F2)            
2.50000000000E+09 +5.94039130255E-01 +6.48098890590E-01 -1.60653088120E-04 -5.26182046942E-04 -2.00466600151E-04 -5.65102183813E-04 +5.64422217294E-01 +7.24602384724E-01
2.50500000000E+09 +6.00767214503E-01 +6.39798489922E-01 -2.95810799651E-04 -4.99700277340E-04 -3.49924680048E-04 -5.26397410113E-04 +5.70529577098E-01 +7.18968485063E-01
2.51000000000E+09 +6.08291422513E-01 +6.31428805753E-01 -3.26117226893E-04 -4.59788547463E-04 -3.41033461090E-04 -4.55991723960E-04 +5.76343488555E-01 +7.13652714148E-01
2.51500000000E+09 +6.16134294888E-01 +6.23438922935E-01 -3.87656393073E-04 -4.55308677876E-04 -4.25169632438E-04 -4.58622490225E-04 +5.81772248718E-01 +7.08278016934E-01
2.52000000000E+09 +6.23114442564E-01 +6.15842780529E-01 -4.23641681268E-04 -4.23715391865E-04 -3.99360425477E-04 -4.40720993065E-04 +5.87143405178E-01 +7.02152967218E-01
2.52500000000E+09 +6.28750177410E-01 +6.09420090853E-01 -5.03506750886E-04 -4.23341244927E-04 -5.16486249435E-04 -4.20292843699E-04 +5.93152684424E-01 +6.95681627207E-01
2.53000000000E+09 +6.33605653820E-01 +6.03779997129E-01 -5.44013412740E-04 -3.93951586122E-04 -5.89260208714E-04 -3.86775442673E-04 +5.99404776473E-01 +6.88576286239E-01
2.53500000000E+09 +6.37406266691E-01 +5.98430527382E-01 -7.03490237381E-04 -3.69414988803E-04 -6.57391186263E-04 -3.39009186172E-04 +6.05359707858E-01 +6.81263496621E-01
2.54000000000E+09 +6.40702032431E-01 +5.92508522651E-01 -7.16255939251E-04 -2.75959224279E-04 -6.86164498920E-04 -3.12035593063E-04 +6.11027728325E-01 +6.74533556691E-01
2.54500000000E+09 +6.44083466836E-01 +5.86381053729E-01 -8.23352488672E-04 -2.07904404403E-04 -7.96573391355E-04 -2.53178064769E-04 +6.16321519459E-01 +6.68212463607E-01
2.55000000000E+09 +6.48310206626E-01 +5.78879854775E-01 -8.20211916509E-04 -3.00699342918E-05 -8.89712508846E-04 -1.22583725906E-04 +6.21512340367E-01 +6.62086359684E-01
2.55500000000E+09 +6.53580280614E-01 +5.69930779916E-01 -7.93980887236E-04 +4.96587251245E-05 -8.77426276356E-04 +3.03521130114E-05 +6.26440726694E-01 +6.55920021738E-01
2.56000000000E+09 +6.60066133064E-01 +5.60279428162E-01 -7.08573497131E-04 +8.03223344117E-05 -8.43281533584E-04 +1.77557297319E-04 +6.31453361710E-01 +6.48816738791E-01
2.56500000000E+09 +6.67224009776E-01 +5.49833753733E-01 -7.77786260424E-04 +3.26927800130E-05 -8.79283746371E-04 +1.91986437363E-04 +6.36713163658E-01 +6.41401630219E-01
2.57000000000E+09 +6.74802248332E-01 +5.39820012683E-01 -8.14247942437E-04 +1.09902960322E-04 -8.22408404681E-04 +3.21451930062E-04 +6.41749442029E-01 +6.33794396413E-01
2.57500000000E+09 +6.82229858413E-01 +5.30461768062E-01 -9.36932347560E-04 +2.36724440184E-04 -7.41128545080E-04 +3.16532294166E-04 +6.47097282959E-01 +6.26598260246E-01
2.58000000000E+09 +6.88495506824E-01 +5.22429243336E-01 -9.23296045290E-04 +3.63662782199E-04 -7.45843009460E-04 +3.13565441952E-04 +6.52301683431E-01 +6.19509215585E-01
2.58500000000E+09 +6.93830347803E-01 +5.15409080210E-01 -9.59437209518E-04 +5.39478182470E-04 -8.49690871201E-04 +3.79438494183E-04 +6.57493116385E-01 +6.12321391454E-01
2.59000000000E+09 +6.97683526251E-01 +5.09505437438E-01 -8.92490015113E-04 +6.73889546001E-04 -8.94482357898E-04 +5.88588348863E-04 +6.62693435014E-01 +6.05051661726E-01
2.59500000000E+09 +7.00946408245E-01 +5.03712513813E-01 -7.53451797261E-04 +7.56963284156E-04 -8.57718958921E-04 +7.40770386900E-04 +6.67982868260E-01 +5.97383911732E-01
2.60000000000E+09 +7.03320759433E-01 +4.96951092363E-01 -6.98457168038E-04 +8.22590296216E-04 -7.02134631686E-04 +8.81654042625E-04 +6.73632501873E-01 +5.89125299971E-01
2.60500000000E+09 +7.05820809753E-01 +4.88590763930E-01 -6.67584757507E-04 +8.32080139625E-04 -7.02429638276E-04 +8.87060179764E-04 +6.79493816836E-01 +5.80313026894E-01
2.61000000000E+09 +7.08543453373E-01 +4.78261570106E-01 -6.94910574266E-04 +1.14224819805E-03 -7.07733957132E-04 +1.09631095676E-03 +6.84866563334E-01 +5.71441700784E-01
2.61500000000E+09 +7.12410201470E-01 +4.65932986193E-01 -3.61977757131E-04 +1.19686551717E-03 -3.62118139551E-04 +1.20870768796E-03 +6.89898830866E-01 +5.62670023278E-01
2.62000000000E+09 +7.16930878712E-01 +4.51824511115E-01 -3.26601651460E-04 +1.04242591301E-03 -3.34358381450E-04 +1.07126050833E-03 +6.95126291219E-01 +5.53694641677E-01
2.62500000000E+09 +7.22256014756E-01 +4.36589616738E-01 -4.21789381437E-04 +1.13666568417E-03 -3.42149942899E-04 +1.23663565992E-03 +7.00174286265E-01 +5.44628953801E-01
2.63000000000E+09 +7.27641937857E-01 +4.21365907912E-01 -2.30002456638E-04 +1.38235566865E-03 -5.67651202605E-05 +1.36966693796E-03 +7.04887086681E-01 +5.35039625535E-01
2.63500000000E+09 +7.32553465375E-01 +4.07269427321E-01 -5.74058009453E-05 +1.38814911723E-03 -7.36007071034E-06 +1.24367617810E-03 +7.09410485518E-01 +5.25690609208E-01
2.64000000000E+09 +7.37049676849E-01 +3.95188960900E-01 +5.84694882527E-05 +1.59678093126E-03 +1.11295404508E-04 +1.33778300120E-03 +7.13949442298E-01 +5.16062206622E-01
2.64500000000E+09 +7.41054293031E-01 +3.85054826166E-01 +4.43171712610E-04 +1.53006032601E-03 +2.83683300157E-04 +1.38492872870E-03 +7.18611611628E-01 +5.06082446225E-01
2.65000000000E+09 +7.44048163473E-01 +3.76196401084E-01 +5.81151666626E-04 +1.32176616797E-03 +4.06119506914E-04 +1.32587548086E-03 +7.22737883688E-01 +4.95906239653E-01
2.65500000000E+09 +7.46268713602E-01 +3.68276009522E-01 +5.45383582675E-04 +1.19134141763E-03 +4.72965655431E-04 +1.37171711388E-03 +7.26618761256E-01 +4.85387532093E-01
2.66000000000E+09 +7.47897506818E-01 +3.60022545886E-01 +5.25330506110E-04 +1.42239101511E-03 +5.62054946122E-04 +1.51236501991E-03 +7.30589008478E-01 +4.74330875127E-01
2.66500000000E+09 +7.49538991497E-01 +3.50902564234E-01 +7.69783335202E-04 +1.51850815965E-03 +9.28106592988E-04 +1.52154850256E-03 +7.34833483996E-01 +4.63318596225E-01
2.67000000000E+09 +7.50964875873E-01 +3.39328939071E-01 +1.14888616737E-03 +1.46061002395E-03 +1.19353242303E-03 +1.35111376099E-03 +7.39134733562E-01 +4.52600448600E-01
2.67500000000E+09 +7.52427849009E-01 +3.25873858130E-01 +1.39321437485E-03 +1.34695379457E-03 +1.36188806898E-03 +1.21939006108E-03 +7.43289933798E-01 +4.41620251728E-01
2.68000000000E+09 +7.53889086763E-01 +3.10322473616E-01 +1.64709471600E-03 +9.84779456766E-04 +1.49651151157E-03 +9.86709816041E-04 +7.47264901020E-01 +4.30658904417E-01
2.68500000000E+09 +7.55301634138E-01 +2.93879133097E-01 +1.59859106498E-03 +8.94876435258E-04 +1.50010557615E-03 +9.29768836504E-04 +7.50525109317E-01 +4.19158358268E-01
2.69000000000E+09 +7.56907713339E-01 +2.77173503502E-01 +1.67838265961E-03 +7.43051359477E-04 +1.75277647520E-03 +7.86783099443E-04 +7.53242264418E-01 +4.07391791709E-01
2.69500000000E+09 +7.58673127335E-01 +2.60887719373E-01 +1.86964253936E-03 +6.76424622508E-04 +1.82799572736E-03 +6.94890183974E-04 +7.56440595040E-01 +3.95271344062E-01
2.70000000000E+09 +7.60346404909E-01 +2.45392192447E-01 +2.13376485754E-03 +5.28357521400E-04 +2.01903444546E-03 +4.98335492062E-04 +7.59715228733E-01 +3.81830672725E-01
2.70500000000E+09 +7.61652905106E-01 +2.31049880770E-01 +2.34248417686E-03 +3.15346083685E-04 +2.22399503181E-03 +4.28421245908E-04 +7.62500044624E-01 +3.68592540758E-01
2.71000000000E+09 +7.62521393984E-01 +2.17619446768E-01 +2.49668218272E-03 -1.71692293005E-04 +2.56377583024E-03 -7.14066976864E-05 +7.65757004754E-01 +3.55687700899E-01
2.71500000000E+09 +7.62926570765E-01 +2.04446101168E-01 +2.42815773470E-03 -7.30647195957E-04 +2.55242007920E-03 -7.14315398614E-04 +7.68495456312E-01 +3.43013221886E-01
2.72000000000E+09 +7.63073024334E-01 +1.91392013935E-01 +2.01582790542E-03 -8.86902981219E-04 +2.13390224574E-03 -1.02991690286E-03 +7.70641791803E-01 +3.30209743203E-01
2.72500000000E+09 +7.62788933939E-01 +1.77398701201E-01 +2.04651816932E-03 -9.66973430051E-04 +1.95704590772E-03 -1.14109483746E-03 +7.72301515033E-01 +3.16689710935E-01
2.73000000000E+09 +7.61746231641E-01 +1.62103523756E-01 +2.08888164959E-03 -1.23277646154E-03 +1.75882560883E-03 -1.31340578986E-03 +7.73765962173E-01 +3.02442752445E-01
2.73500000000E+09 +7.60062334994E-01 +1.45265789500E-01 +1.84878214123E-03 -1.50158505584E-03 +1.60430813241E-03 -1.33764859440E-03 +7.75242753780E-01 +2.87410087680E-01
2.74000000000E+09 +7.57806335132E-01 +1.27794429961E-01 +1.69654807532E-03 -1.57280263166E-03 +1.56839985648E-03 -1.28615174229E-03 +7.77070207026E-01 +2.72023798154E-01
2.74500000000E+09 +7.54411690871E-01 +1.09327585817E-01 +1.72438290600E-03 -1.84849500404E-03 +1.83160439327E-03 -1.57592562302E-03 +7.78543135775E-01 +2.56149191964E-01
2.75000000000E+09 +7.49826458039E-01 +9.11468592709E-02 +1.62205835295E-03 -2.17107555164E-03 +1.91871706438E-03 -2.05301540900E-03 +7.79276456227E-01 +2.40234206886E-01
2.75500000000E+09 +7.44796104158E-01 +7.36299885105E-02 +1.39806461823E-03 -2.57678229341E-03 +1.57738605925E-03 -2.71801078095E-03 +7.78830650365E-01 +2.24371595781E-01
2.76000000000E+09 +7.40076967331E-01 +5.64696672034E-02 +8.32961616499E-04 -2.86262299554E-03 +9.50845541792E-04 -3.11769564548E-03 +7.77960711562E-01 +2.08924318307E-01
2.76500000000E+09 +7.34688403479E-01 +3.90026026936E-02 +3.23995956967E-04 -2.86710919994E-03 +2.89655419091E-04 -3.09737254857E-03 +7.76932564471E-01 +1.91986582711E-01
2.77000000000E+09 +7.28772455939E-01 +2.08453856832E-02 -1.53736902417E-04 -2.81435148645E-03 -2.73263775695E-04 -2.96175312448E-03 +7.75247716163E-01 +1.74285597534E-01
2.77500000000E+09 +7.22405484982E-01 +2.12100325031E-03 -5.23294508471E-04 -2.48171174060E-03 -6.82979849393E-04 -2.55840538396E-03 +7.73007243618E-01 +1.56410553700E-01
2.78000000000E+09 +7.15685335793E-01 -1.75412484522E-02 -5.58276571931E-04 -2.20577650904E-03 -7.10632519076E-04 -2.22502206385E-03 +7.70400880869E-01 +1.38510604662E-01
2.78500000000E+09 +7.08506604309E-01 -3.83686981468E-02 -5.01250192375E-04 -2.22977074291E-03 -6.51592999158E-04 -2.12042256848E-03 +7.67400876141E-01 +1.21439060174E-01
2.79000000000E+09 +7.00727971164E-01 -5.99191100941E-02 -6.00958483000E-04 -2.39677885228E-03 -6.43723210490E-04 -2.25324488082E-03 +7.64012544346E-01 +1.04435650881E-01
2.79500000000E+09 +6.92247790747E-01 -8.12351271213E-02 -9.50392223427E-04 -2.70677098398E-03 -9.38902583882E-04 -2.48522662651E-03 +7.59826180748E-01 +8.68904711555E-02
2.80000000000E+09 +6.83290519750E-01 -1.01801096893E-01 -1.56781841917E-03 -2.56027286115E-03 -1.36482290705E-03 -2.50673479498E-03 +7.54688773590E-01 +6.89747212329E-02
2.80500000000E+09 +6.74066827992E-01 -1.21187838726E-01 -1.79008855975E-03 -2.23115448184E-03 -1.67452033506E-03 -2.32145855908E-03 +7.48981228747E-01 +5.05096180644E-02
2.81000000000E+09 +6.63762423723E-01 -1.39205640369E-01 -2.11090303144E-03 -2.00805023869E-03 -2.11329263362E-03 -2.08718736621E-03 +7.43422642023E-01 +3.19623166058E-02
2.81500000000E+09 +6.51651100863E-01 -1.55647984841E-01 -2.17984059042E-03 -1.73921403895E-03 -2.29719199753E-03 -1.77657823329E-03 +7.37266083602E-01 +1.18159968574E-02
2.82000000000E+09 +6.38768612921E-01 -1.70530379030E-01 -2.42260825323E-03 -1.53563322728E-03 -2.42815237980E-03 -1.42019086863E-03 +7.30081291174E-01 -8.03506503531E-03
2.82500000000E+09 +6.23745673745E-01 -1.85436925918E-01 -2.54923111466E-03 -1.33678033674E-03 -2.44946726548E-03 -1.19517670808E-03 +7.21813938173E-01 -2.80280868938E-02
2.83000000000E+09 +6.06782422280E-01 -2.01131561650E-01 -2.73652370576E-03 -1.22054640588E-03 -2.61704510458E-03 -1.13965403031E-03 +7.12951370988E-01 -4.82463370455E-02
2.83500000000E+09 +5.87371911720E-01 -2.18021367039E-01 -2.99345854020E-03 -8.90413141876E-04 -2.80600658909E-03 -9.61529791466E-04 +7.02816322757E-01 -6.86487724865E-02
2.84000000000E+09 +5.65390946930E-01 -2.36203351827E-01 -3.18950286778E-03 -4.07367236437E-04 -3.11758262279E-03 -5.09173390095E-04 +6.91677637312E-01 -8.98078021255E-02
2.84500000000E+09 +5.41568341766E-01 -2.55826590729E-01 -3.03732191244E-03 +3.04492959856E-05 -3.04987849410E-03 -7.34067545092E-05 +6.78627208580E-01 -1.11061542063E-01
2.85000000000E+09 +5.16107177085E-01 -2.76176070131E-01 -2.93512048195E-03 +2.12695477486E-04 -2.90883323226E-03 +1.75229906450E-04 +6.64230389925E-01 -1.31692686717E-01
2.85500000000E+09 +4.89053219382E-01 -2.95790631058E-01 -3.06654309045E-03 +4.41530301350E-04 -2.99669550490E-03 +4.75837001558E-04 +6.48423527080E-01 -1.51675368403E-01
2.86000000000E+09 +4.62475182531E-01 -3.13250242585E-01 -2.93753379993E-03 +7.78510917347E-04 -2.89352716142E-03 +7.42144382657E-04 +6.32632026526E-01 -1.71123090249E-01
2.86500000000E+09 +4.37418967749E-01 -3.28490822584E-01 -3.06361361585E-03 +8.13670945995E-04 -3.07561955603E-03 +7.68751443597E-04 +6.15104220448E-01 -1.91536742770E-01
2.87000000000E+09 +4.12842557525E-01 -3.42504337332E-01 -3.18742481396E-03 +1.54663417059E-03 -3.21836705328E-03 +1.62398950024E-03 +5.96082129258E-01 -2.10925650859E-01
2.87500000000E+09 +3.88118502235E-01 -3.54073216855E-01 -2.81831747856E-03 +1.73119887361E-03 -2.79640865459E-03 +1.76796994132E-03 +5.75833618745E-01 -2.29921785539E-01
2.88000000000E+09 +3.62465807182E-01 -3.63643429219E-01 -3.12595159334E-03 +1.98170170390E-03 -2.93351301367E-03 +2.00160758351E-03 +5.55049000190E-01 -2.47733271560E-01
2.88500000000E+09 +3.34697564453E-01 -3.70630434854E-01 -2.76341843948E-03 +2.89006051813E-03 -2.57785756302E-03 +2.77576406777E-03 +5.32930592101E-01 -2.66405312183E-01
2.89000000000E+09 +3.05233872101E-01 -3.75565235240E-01 -2.33743280223E-03 +3.21481548727E-03 -2.27030731710E-03 +2.95037811604E-03 +5.08063843295E-01 -2.83790778524E-01
2.89500000000E+09 +2.73822957871E-01 -3.79454342007E-01 -1.86073802806E-03 +3.47728961768E-03 -1.95957849088E-03 +3.34462061301E-03 +4.82341537477E-01 -3.00133202053E-01
2.90000000000E+09 +2.39869814589E-01 -3.82744859333E-01 -1.23062140757E-03 +3.72048406363E-03 -1.42128781992E-03 +3.70883652918E-03 +4.56033851166E-01 -3.16509584490E-01
2.90500000000E+09 +2.02777485657E-01 -3.84337205840E-01 -8.63934802910E-04 +3.67875190225E-03 -9.35385426525E-04 +3.75856550881E-03 +4.28339033311E-01 -3.32531466175E-01
2.91000000000E+09 +1.65829938028E-01 -3.83564680105E-01 -5.09345831520E-04 +3.84288307737E-03 -4.08823592287E-04 +3.83965301973E-03 +3.99360682335E-01 -3.48747800951E-01
2.91500000000E+09 +1.29005609363E-01 -3.81559970435E-01 +8.30336884878E-05 +4.20389360414E-03 +1.96982658945E-04 +4.01744213512E-03 +3.66740000026E-01 -3.62581849095E-01
2.92000000000E+09 +9.26165817738E-02 -3.77224430551E-01 +9.13141806337E-04 +3.98211690102E-03 +8.32991118233E-04 +3.79010520306E-03 +3.32768520671E-01 -3.73466850035E-01
2.92500000000E+09 +5.84962900015E-02 -3.69835851704E-01 +1.47737149750E-03 +3.50150410001E-03 +1.22480484674E-03 +3.37306385638E-03 +2.97491298924E-01 -3.81582802477E-01
2.93000000000E+09 +2.64230531972E-02 -3.60977359909E-01 +1.43574875715E-03 +2.85489010512E-03 +1.24082821800E-03 +2.96456219055E-03 +2.61313381838E-01 -3.88740185962E-01
2.93500000000E+09 -4.95856503603E-03 -3.49847605712E-01 +1.46034467562E-03 +3.11696264828E-03 +1.32516847324E-03 +3.16175169291E-03 +2.23256274275E-01 -3.94495776337E-01
2.94000000000E+09 -3.58384758768E-02 -3.35907270762E-01 +1.92503329254E-03 +2.92200150658E-03 +1.88918776053E-03 +2.92728757384E-03 +1.82706166927E-01 -3.97931655987E-01
2.94500000000E+09 -6.65460375350E-02 -3.19278433729E-01 +1.99037637539E-03 +2.75286423005E-03 +1.94550468905E-03 +2.75735162868E-03 +1.43390604509E-01 -3.97363994621E-01
2.95000000000E+09 -9.83338313397E-02 -2.98770616808E-01 +2.58603469769E-03 +2.78739711974E-03 +2.53334334265E-03 +2.78438321591E-03 +1.03459401352E-01 -3.95676444504E-01
2.95500000000E+09 -1.27757537912E-01 -2.74245982891E-01 +2.87379909608E-03 +2.10871083965E-03 +2.86579153634E-03 +2.23782012082E-03 +6.31988078625E-02 -3.91010939160E-01
2.96000000000E+09 -1.56188938114E-01 -2.49112496347E-01 +2.73656319317E-03 +1.64710808531E-03 +2.84273277315E-03 +1.69555077490E-03 +2.14885571011E-02 -3.82738760142E-01
2.96500000000E+09 -1.83018478667E-01 -2.21895749900E-01 +2.50421848631E-03 +1.73780678556E-03 +2.60517274518E-03 +1.67938150332E-03 -1.93992657923E-02 -3.69623350643E-01
2.97000000000E+09 -2.07544733129E-01 -1.94172438252E-01 +2.87834444208E-03 +2.19577957005E-03 +2.89587414149E-03 +2.12900445409E-03 -5.84469570568E-02 -3.54468383085E-01
2.97500000000E+09 -2.30551361695E-01 -1.65738384250E-01 +3.86841238109E-03 +1.91551231217E-03 +3.75425321105E-03 +1.86436060702E-03 -9.64650798485E-02 -3.38151292504E-01
2.98000000000E+09 -2.51977044902E-01 -1.35971225822E-01 +4.29285365627E-03 +1.08863458225E-03 +4.15879717659E-03 +1.19007547921E-03 -1.34855179394E-01 -3.19696725994E-01
2.98500000000E+09 -2.70533948688E-01 -1.04671254520E-01 +4.26042462944E-03 +3.67548826100E-04 +4.26167813531E-03 +5.62001041447E-04 -1.72086789061E-01 -2.98203388766E-01
2.99000000000E+09 -2.86135796107E-01 -7.20091868323E-02 +4.30655921619E-03 -1.44592134027E-04 +4.47077053609E-03 -6.87207014492E-05 -2.07992933348E-01 -2.72689756967E-01
2.99500000000E+09 -2.99188553965E-01 -3.90183472256E-02 +4.18922943935E-03 -5.71507397072E-04 +4.36249552162E-03 -7.33670035549E-04 -2.41715660338E-01 -2.43954806125E-01
3.00000000000E+09 -3.10434324304E-01 -5.73362416655E-03 +4.40608049864E-03 -1.02014273196E-03 +4.35196876628E-03 -1.26198212632E-03 -2.73012338062E-01 -2.12291638387E-01
3.00500000000E+09 -3.19935489298E-01 +2.71304662993E-02 +4.42238675303E-03 -1.84199578893E-03 +4.25178627248E-03 -1.82897964150E-03 -3.02098111080E-01 -1.80053503674E-01
3.01000000000E+09 -3.28259614636E-01 +5.99625158513E-02 +3.86730136230E-03 -2.73374823829E-03 +3.68535348797E-03 -2.53079907803E-03 -3.29473051898E-01 -1.44871269651E-01
3.01500000000E+09 -3.34222685171E-01 +9.33268557146E-02 +3.28927518324E-03 -3.12645197728E-03 +3.38996469446E-03 -2.91159236108E-03 -3.53813977728E-01 -1.09350995366E-01
3.02000000000E+09 -3.36837677025E-01 +1.24974940550E-01 +2.72715375076E-03 -3.40196473751E-03 +2.92618984950E-03 -3.33541948005E-03 -3.75161818808E-01 -7.16307363271E-02
3.02500000000E+09 -3.36933774883E-01 +1.54830581452E-01 +2.41495472074E-03 -3.54361730406E-03 +2.45525620014E-03 -3.55217536362E-03 -3.93137379622E-01 -3.37013619961E-02
3.03000000000E+09 -3.34754187788E-01 +1.83188345988E-01 +1.79373139518E-03 -3.83698827490E-03 +1.78986335865E-03 -3.87501206873E-03 -4.08872154745E-01 +6.37908571024E-03
3.03500000000E+09 -3.30091091333E-01 +2.11145039785E-01 +1.21551375527E-03 -3.67870716560E-03 +1.33451308644E-03 -3.67705709045E-03 -4.21166534840E-01 +4.74258108886E-02
3.04000000000E+09 -3.22342379789E-01 +2.39127132760E-01 +1.12440548391E-03 -3.82834092035E-03 +1.28740685950E-03 -3.90786458242E-03 -4.28838122166E-01 +8.82736480893E-02
3.04500000000E+09 -3.12450051830E-01 +2.66557439491E-01 +5.57030563236E-04 -3.89893380149E-03 +6.07306125875E-04 -4.11949802261E-03 -4.35146517194E-01 +1.28107938744E-01
3.05000000000E+09 -3.00089853858E-01 +2.95369581528E-01 +1.92630610642E-04 -3.86791313219E-03 +9.95210460453E-05 -4.06005588422E-03 -4.38416440564E-01 +1.67503886900E-01
3.05500000000E+09 -2.86201487506E-01 +3.22826781083E-01 -6.06585410232E-05 -3.90193556662E-03 -2.80592650071E-04 -3.99679275167E-03 -4.39606822612E-01 +2.06418831903E-01
3.06000000000E+09 -2.72225951043E-01 +3.50646288293E-01 -5.94565598985E-04 -4.16026033714E-03 -7.41667101814E-04 -4.03000889877E-03 -4.38246131818E-01 +2.44454185420E-01
3.06500000000E+09 -2.57607355561E-01 +3.77658996387E-01 -1.29357926748E-03 -4.19905394256E-03 -1.17477516120E-03 -3.91875817032E-03 -4.34274991490E-01 +2.82048454027E-01
3.07000000000E+09 -2.43387112855E-01 +4.02639643893E-01 -2.14080990878E-03 -3.75195612194E-03 -1.85848526060E-03 -3.86253215519E-03 -4.28031863379E-01 +3.18343772162E-01
