# Hz S RI R 50
! CMT, C1220, 16058040, 17.2.0/1
! Date: 15/08/2018 10:40:15
! Data: Format (Calibration Info)
! Freq                      S11: Re/Im (F2)                       S21: Re/Im (F2)                       S12: Re/Im (F2)                       S22: Re/Im (F2)            
2.50000000000E+09 +5.93817773668E-01 +6.48357711249E-01 -1.99240207985E-04 -4.40708874577E-04 -1.99258514491E-04 -5.15671095122E-04 +5.64349352872E-01 +7.24887145818E-01
2.50500000000E+09 +6.00600380538E-01 +6.40149914640E-01 -3.15826012058E-04 -4.44720053984E-04 -3.31675891860E-04 -4.45712501164E-04 +5.70296997654E-01 +7.19226157862E-01
2.51000000000E+09 +6.08091262262E-01 +6.31970602947E-01 -3.34347132286E-04 -3.63884312261E-04 -3.19429144252E-04 -3.22152368514E-04 +5.76196110189E-01 +7.13949423231E-01
2.51500000000E+09 +6.16023786506E-01 +6.23972475819E-01 -3.66615879972E-04 -3.46875541593E-04 -3.54497418753E-04 -3.82079153934E-04 +5.81583210394E-01 +7.08494614383E-01
2.52000000000E+09 +6.22937896388E-01 +6.16263024343E-01 -3.79506445646E-04 -3.64527651545E-04 -3.58883112246E-04 -3.26707850287E-04 +5.87056695134E-01 +7.02450104282E-01
2.52500000000E+09 +6.28543243665E-01 +6.09812315077E-01 -4.43205923362E-04 -3.32524553843E-04 -4.80259616465E-04 -3.64040900994E-04 +5.93075724589E-01 +6.96077554490E-01
2.53000000000E+09 +6.33356569039E-01 +6.04267760092E-01 -5.09030764679E-04 -3.14238134905E-04 -4.95489765123E-04 -3.49460595755E-04 +5.99304949866E-01 +6.88881531384E-01
2.53500000000E+09 +6.37239790020E-01 +5.98827515194E-01 -5.99821199779E-04 -2.74824907741E-04 -5.67065006369E-04 -2.75744392388E-04 +6.05317390971E-01 +6.81682291730E-01
2.54000000000E+09 +6.40560171282E-01 +5.93096500631E-01 -6.08112095313E-04 -1.95431430026E-04 -6.03118461493E-04 -2.11460334500E-04 +6.11060709553E-01 +6.74881911889E-01
2.54500000000E+09 +6.43983940917E-01 +5.86928272037E-01 -6.94813999401E-04 -1.47038993540E-04 -6.89810232680E-04 -1.67163147528E-04 +6.16372882084E-01 +6.68547201753E-01
2.55000000000E+09 +6.48191148805E-01 +5.79459405257E-01 -7.86448094548E-04 +1.29211103186E-05 -7.55961322527E-04 -8.25800589352E-05 +6.21486489236E-01 +6.62668939333E-01
2.55500000000E+09 +6.53541903347E-01 +5.70458087143E-01 -6.52635439830E-04 +1.00269617564E-04 -7.28101883852E-04 +1.16339154119E-04 +6.26495441635E-01 +6.56130052692E-01
2.56000000000E+09 +6.60008303697E-01 +5.60838771020E-01 -5.89242206596E-04 +8.02758664032E-05 -6.56079559681E-04 +1.90909286240E-04 +6.31485038293E-01 +6.49235497268E-01
2.56500000000E+09 +6.67265627295E-01 +5.50405223778E-01 -6.57890446050E-04 +1.46244340391E-05 -6.95900219247E-04 +1.71302769968E-04 +6.36795883702E-01 +6.41694438460E-01
2.57000000000E+09 +6.74928775145E-01 +5.40356848238E-01 -7.62325832546E-04 +1.17163658410E-04 -7.04110483360E-04 +2.68803762724E-04 +6.41874033351E-01 +6.34121979310E-01
2.57500000000E+09 +6.82284381875E-01 +5.31088165348E-01 -7.90078463269E-04 +1.70999609436E-04 -6.93200256586E-04 +3.28412799084E-04 +6.47250569349E-01 +6.26840203442E-01
2.58000000000E+09 +6.88549107298E-01 +5.23017630755E-01 -8.72806311502E-04 +2.55859090934E-04 -6.77962824372E-04 +2.69546035088E-04 +6.52487640019E-01 +6.19816665351E-01
2.58500000000E+09 +6.94043358979E-01 +5.16050904861E-01 -8.46657615005E-04 +4.48991845233E-04 -7.85016575754E-04 +3.41495426109E-04 +6.57643594169E-01 +6.12585846823E-01
2.59000000000E+09 +6.98120567172E-01 +5.10208946897E-01 -7.86459268002E-04 +6.20896000231E-04 -8.00719754885E-04 +5.38978533081E-04 +6.62869411401E-01 +6.05291188002E-01
2.59500000000E+09 +7.01240077686E-01 +5.04301457614E-01 -7.52108794416E-04 +7.02331169076E-04 -7.14381191233E-04 +7.05681156389E-04 +6.68039107454E-01 +5.97459814039E-01
2.60000000000E+09 +7.03724283725E-01 +4.97539506367E-01 -6.73082532950E-04 +7.77625199252E-04 -6.73563926776E-04 +7.52782317019E-04 +6.73760612792E-01 +5.89323341610E-01
2.60500000000E+09 +7.06218934810E-01 +4.89270083785E-01 -6.04089254711E-04 +8.57036081491E-04 -6.13571857281E-04 +8.02356843063E-04 +6.79653082780E-01 +5.80478123653E-01
2.61000000000E+09 +7.09055189145E-01 +4.78883601001E-01 -5.90895883453E-04 +1.05835115249E-03 -5.97537494514E-04 +1.05007469315E-03 +6.85020118273E-01 +5.71601782307E-01
2.61500000000E+09 +7.12847877406E-01 +4.66709668407E-01 -2.63365045826E-04 +1.06785241740E-03 -2.92528885082E-04 +1.12217664996E-03 +6.90110160959E-01 +5.62867525163E-01
2.62000000000E+09 +7.17395571160E-01 +4.52520174771E-01 -2.32354976387E-04 +9.09586510442E-04 -2.46882345762E-04 +9.99039990688E-04 +6.95304459075E-01 +5.53840548212E-01
2.62500000000E+09 +7.22777558267E-01 +4.37202014940E-01 -3.31232522871E-04 +1.08786440923E-03 -2.48746560172E-04 +1.14843497111E-03 +7.00427471933E-01 +5.44521526488E-01
2.63000000000E+09 +7.28159664226E-01 +4.21948038644E-01 -1.99614724807E-04 +1.25194483237E-03 -3.84046743578E-05 +1.29330271293E-03 +7.05176995059E-01 +5.35120521791E-01
2.63500000000E+09 +7.33068458557E-01 +4.07948689541E-01 -3.46535152217E-05 +1.27488633419E-03 +7.63336022533E-05 +1.13990638346E-03 +7.09627582842E-01 +5.25682353529E-01
2.64000000000E+09 +7.37710044389E-01 +3.95780843402E-01 +9.67271296419E-05 +1.47726865184E-03 +1.57155651025E-04 +1.23054869916E-03 +7.14227253056E-01 +5.16003058720E-01
2.64500000000E+09 +7.41702795872E-01 +3.85684892593E-01 +4.55960185086E-04 +1.39061667346E-03 +3.27195211716E-04 +1.23739238144E-03 +7.18774040061E-01 +5.06027022046E-01
2.65000000000E+09 +7.44619438971E-01 +3.76969898017E-01 +5.51385333416E-04 +1.19018577059E-03 +4.31551636593E-04 +1.18533505269E-03 +7.22952445135E-01 +4.95857852255E-01
2.65500000000E+09 +7.46800409186E-01 +3.68834517500E-01 +5.55564806288E-04 +1.10145358375E-03 +4.64003245275E-04 +1.21792396953E-03 +7.26729213091E-01 +4.85291823078E-01
2.66000000000E+09 +7.48672103334E-01 +3.60737136203E-01 +5.11666562958E-04 +1.27850865306E-03 +5.63399191796E-04 +1.35418918102E-03 +7.30839844114E-01 +4.74209917733E-01
2.66500000000E+09 +7.50350372516E-01 +3.51454234295E-01 +7.66560019224E-04 +1.46086409335E-03 +8.52599280271E-04 +1.44909251720E-03 +7.34928122898E-01 +4.63178520793E-01
2.67000000000E+09 +7.51809386339E-01 +3.39915366634E-01 +1.13935268022E-03 +1.36017537696E-03 +1.19282354045E-03 +1.24279435793E-03 +7.39301001956E-01 +4.52420891934E-01
2.67500000000E+09 +7.53233502272E-01 +3.26296062417E-01 +1.42144024846E-03 +1.20458150145E-03 +1.33028947376E-03 +1.08909330763E-03 +7.43370692382E-01 +4.41303916570E-01
2.68000000000E+09 +7.54661729003E-01 +3.10892333301E-01 +1.56934230487E-03 +8.73509044816E-04 +1.48817593403E-03 +8.83054960470E-04 +7.47317320494E-01 +4.30268963295E-01
2.68500000000E+09 +7.56215350269E-01 +2.94403808192E-01 +1.49088854240E-03 +7.61055327534E-04 +1.44222394354E-03 +8.11344133364E-04 +7.50456425343E-01 +4.18880029745E-01
2.69000000000E+09 +7.57918239617E-01 +2.77615322810E-01 +1.61014559150E-03 +6.28235113604E-04 +1.66420323956E-03 +6.85703751877E-04 +7.53220383765E-01 +4.07249616343E-01
2.69500000000E+09 +7.59748349097E-01 +2.61369791820E-01 +1.75472627982E-03 +6.67072048437E-04 +1.74599683831E-03 +5.95951953500E-04 +7.56310818711E-01 +3.95036805403E-01
2.70000000000E+09 +7.61473539860E-01 +2.45744825261E-01 +2.06696591229E-03 +4.22755689460E-04 +1.99360997123E-03 +4.67339507809E-04 +7.59611129433E-01 +3.81564090639E-01
2.70500000000E+09 +7.62701138097E-01 +2.31314710969E-01 +2.30910151582E-03 +1.79038667621E-04 +2.21199807208E-03 +2.96235069590E-04 +7.62510979093E-01 +3.68417639206E-01
2.71000000000E+09 +7.63570413951E-01 +2.17840501543E-01 +2.44636657510E-03 -3.45368332124E-04 +2.53321246781E-03 -2.29765314446E-04 +7.65576915558E-01 +3.55361198890E-01
2.71500000000E+09 +7.63978147120E-01 +2.04597402045E-01 +2.19542133508E-03 -8.78577953318E-04 +2.36651028024E-03 -9.17041466981E-04 +7.68334103411E-01 +3.42587912609E-01
2.72000000000E+09 +7.63974773792E-01 +1.91573548642E-01 +1.87451183677E-03 -9.74480368989E-04 +1.94807657536E-03 -1.16647798244E-03 +7.70394444140E-01 +3.29875268586E-01
2.72500000000E+09 +7.63809401363E-01 +1.77563075896E-01 +1.87338257009E-03 -1.06563693731E-03 +1.77197825350E-03 -1.26300088289E-03 +7.71965836957E-01 +3.16365823432E-01
2.73000000000E+09 +7.62891801873E-01 +1.62215903132E-01 +1.86626949969E-03 -1.44063733127E-03 +1.60677445963E-03 -1.40370289698E-03 +7.73358329786E-01 +3.02129055482E-01
2.73500000000E+09 +7.61050333026E-01 +1.45315070436E-01 +1.56903794325E-03 -1.64536464892E-03 +1.32262724154E-03 -1.43560744287E-03 +7.74913789755E-01 +2.87256182682E-01
2.74000000000E+09 +7.58879633963E-01 +1.27909764226E-01 +1.36243130670E-03 -1.62966019701E-03 +1.31069163129E-03 -1.32096558646E-03 +7.76696639377E-01 +2.71723643025E-01
2.74500000000E+09 +7.55449928576E-01 +1.09478122077E-01 +1.42408453900E-03 -1.81198514802E-03 +1.56080187208E-03 -1.52373388445E-03 +7.78167482951E-01 +2.55916010425E-01
2.75000000000E+09 +7.51176481367E-01 +9.12236682181E-02 +1.38084973645E-03 -2.11502885596E-03 +1.67300500041E-03 -2.01956999273E-03 +7.78773070782E-01 +2.39920281774E-01
2.75500000000E+09 +7.46176337474E-01 +7.36445013595E-02 +1.05266488558E-03 -2.54901656040E-03 +1.30458960407E-03 -2.70520597822E-03 +7.78178999960E-01 +2.24163486750E-01
2.76000000000E+09 +7.41315346772E-01 +5.64213966363E-02 +4.66080336226E-04 -2.73360859597E-03 +5.53775869458E-04 -2.97755072533E-03 +7.77101778586E-01 +2.08677048538E-01
2.76500000000E+09 +7.36018054134E-01 +3.90426821926E-02 +3.50510039898E-05 -2.61200318884E-03 -2.40414028383E-05 -2.76247069671E-03 +7.76075447009E-01 +1.92007550931E-01
2.77000000000E+09 +7.30381756511E-01 +2.07630539649E-02 -3.69681057535E-04 -2.46774316542E-03 -4.31057168573E-04 -2.59972294712E-03 +7.74439055850E-01 +1.74321759194E-01
2.77500000000E+09 +7.23967441382E-01 +1.96739205777E-03 -6.15501455384E-04 -2.24272913643E-03 -7.08069704541E-04 -2.26146243726E-03 +7.72114231520E-01 +1.56488291350E-01
2.78000000000E+09 +7.17491932337E-01 -1.79015548334E-02 -5.14437236626E-04 -2.00376813932E-03 -6.88587027045E-04 -2.08033327868E-03 +7.69454932714E-01 +1.38760433800E-01
2.78500000000E+09 +7.10265210814E-01 -3.89722078091E-02 -5.34871066760E-04 -2.07348322258E-03 -7.17163810935E-04 -1.97926501857E-03 +7.66448341258E-01 +1.21686223648E-01
2.79000000000E+09 +7.02355400156E-01 -6.07413821685E-02 -6.23183188808E-04 -2.26679946622E-03 -7.11613603677E-04 -2.10887241816E-03 +7.62969055568E-01 +1.04797083117E-01
2.79500000000E+09 +6.93939726343E-01 -8.22548437819E-02 -9.87197028628E-04 -2.44684822865E-03 -1.00763540687E-03 -2.30395542953E-03 +7.58794573506E-01 +8.75234746158E-02
2.80000000000E+09 +6.84928151508E-01 -1.02976423810E-01 -1.55000549533E-03 -2.37640274664E-03 -1.47309936378E-03 -2.32683975425E-03 +7.53739997883E-01 +6.97007675816E-02
2.80500000000E+09 +6.75450573182E-01 -1.22508242389E-01 -1.85302413537E-03 -2.13868506930E-03 -1.71867356678E-03 -2.24466569560E-03 +7.48011001143E-01 +5.14605902565E-02
2.81000000000E+09 +6.65195233536E-01 -1.40660386178E-01 -2.18396197872E-03 -1.89196002348E-03 -2.22937980642E-03 -1.98367986055E-03 +7.42565997682E-01 +3.30841076981E-02
2.81500000000E+09 +6.52963256777E-01 -1.57087953728E-01 -2.33990679719E-03 -1.52369982226E-03 -2.41521649218E-03 -1.51611781584E-03 +7.36630700561E-01 +1.31129582302E-02
2.82000000000E+09 +6.39859499566E-01 -1.72353747438E-01 -2.43589083698E-03 -1.32714716145E-03 -2.57733286827E-03 -1.14180245163E-03 +7.29628340849E-01 -6.70410859652E-03
2.82500000000E+09 +6.24558505332E-01 -1.87415505749E-01 -2.53809800926E-03 -1.05161933375E-03 -2.49523589074E-03 -9.00128997435E-04 +7.21529257256E-01 -2.68455364565E-02
2.83000000000E+09 +6.07315788648E-01 -2.03089917796E-01 -2.76056749044E-03 -9.00996208493E-04 -2.63199499127E-03 -8.44588840219E-04 +7.12748092433E-01 -4.68959994582E-02
2.83500000000E+09 +5.87700562445E-01 -2.19778076675E-01 -3.02248199431E-03 -5.42985998888E-04 -2.93107320175E-03 -6.28525923728E-04 +7.02725060903E-01 -6.73900618682E-02
2.84000000000E+09 +5.65772403806E-01 -2.37981299129E-01 -3.12807408235E-03 +6.51311841892E-05 -3.09971769539E-03 -8.87514879802E-05 +6.91687913924E-01 -8.84434289961E-02
2.84500000000E+09 +5.41791655580E-01 -2.57587789000E-01 -2.88674637765E-03 +4.37745776407E-04 -2.90491987048E-03 +4.32888801581E-04 +6.78728478729E-01 -1.09642432324E-01
2.85000000000E+09 +5.16154165482E-01 -2.77907047643E-01 -2.68426654996E-03 +6.78506696568E-04 -2.67574611752E-03 +6.01677120551E-04 +6.64476130660E-01 -1.30140303600E-01
2.85500000000E+09 +4.89115253989E-01 -2.97734842094E-01 -2.74743972191E-03 +8.04079272159E-04 -2.74067993405E-03 +8.01375299496E-04 +6.48945702051E-01 -1.50010469780E-01
2.86000000000E+09 +4.62286513073E-01 -3.15302922688E-01 -2.57489693432E-03 +1.06416217496E-03 -2.56122087487E-03 +1.03902489804E-03 +6.33385018546E-01 -1.69546798007E-01
2.86500000000E+09 +4.36905854315E-01 -3.30514545551E-01 -2.66587938449E-03 +1.15161003588E-03 -2.70318663182E-03 +1.09750744849E-03 +6.16087870769E-01 -1.89845382452E-01
2.87000000000E+09 +4.11946501807E-01 -3.44449501481E-01 -2.67708329026E-03 +1.77038446104E-03 -2.70620988260E-03 +1.79752884663E-03 +5.97286718543E-01 -2.09497754839E-01
2.87500000000E+09 +3.87103078325E-01 -3.55661504312E-01 -2.30083603803E-03 +1.81131477489E-03 -2.23583773846E-03 +1.83559170232E-03 +5.77201220655E-01 -2.28505582298E-01
2.88000000000E+09 +3.61432798392E-01 -3.65136754103E-01 -2.70813891273E-03 +1.91318955124E-03 -2.61226109193E-03 +1.95419873686E-03 +5.56795643513E-01 -2.46450939621E-01
2.88500000000E+09 +3.33556905532E-01 -3.72269082853E-01 -2.45880544223E-03 +2.98241786835E-03 -2.32714890255E-03 +2.83978045173E-03 +5.34811143605E-01 -2.65313082357E-01
2.89000000000E+09 +3.03541624321E-01 -3.77275533785E-01 -1.84898880643E-03 +3.26713969924E-03 -1.83576969349E-03 +3.02914347720E-03 +5.10340706974E-01 -2.83101565128E-01
2.89500000000E+09 +2.72010824042E-01 -3.80889308802E-01 -1.42862095606E-03 +3.33991819419E-03 -1.53988229724E-03 +3.20690979423E-03 +4.84656043573E-01 -2.99864797138E-01
2.90000000000E+09 +2.37845265985E-01 -3.83995376219E-01 -9.53043108350E-04 +3.49966880148E-03 -1.13658735033E-03 +3.54008318543E-03 +4.58293540677E-01 -3.16689017240E-01
2.90500000000E+09 +2.00570743787E-01 -3.85493193439E-01 -6.25351584023E-04 +3.55745881795E-03 -6.23709312723E-04 +3.62221874184E-03 +4.30475452097E-01 -3.32971712058E-01
2.91000000000E+09 +1.63275509350E-01 -3.84410095657E-01 -2.35572952701E-04 +3.70655862269E-03 -1.47036876698E-04 +3.64686523208E-03 +4.01332309720E-01 -3.49391782217E-01
2.91500000000E+09 +1.26201308834E-01 -3.81950719806E-01 +3.08875641911E-04 +4.06031540864E-03 +3.99469475478E-04 +3.86144518828E-03 +3.68617635796E-01 -3.63404005391E-01
2.92000000000E+09 +8.99179122021E-02 -3.77177019865E-01 +1.27222562819E-03 +3.97504839699E-03 +1.15499429849E-03 +3.75648666540E-03 +3.34487096368E-01 -3.74546472322E-01
2.92500000000E+09 +5.57654164006E-02 -3.69616097278E-01 +1.88997451703E-03 +3.31479269026E-03 +1.62665194094E-03 +3.23618277589E-03 +2.99092318507E-01 -3.82837462921E-01
2.93000000000E+09 +2.35751023451E-02 -3.60439057128E-01 +1.69150852556E-03 +2.72901785795E-03 +1.48643349364E-03 +2.78336760036E-03 +2.62869408485E-01 -3.90134994805E-01
2.93500000000E+09 -7.95088579552E-03 -3.49061062333E-01 +1.81399479508E-03 +3.04489103387E-03 +1.74060242617E-03 +3.08247070395E-03 +2.24564464943E-01 -3.96033958816E-01
2.94000000000E+09 -3.92262063218E-02 -3.34528959427E-01 +2.47565015537E-03 +2.69281779717E-03 +2.38437577287E-03 +2.77244158482E-03 +1.83878004707E-01 -3.99647200788E-01
2.94500000000E+09 -6.95613440211E-02 -3.17109079849E-01 +2.58148810877E-03 +2.37161991658E-03 +2.51121016248E-03 +2.38017366612E-03 +1.44590576178E-01 -3.99457858262E-01
2.95000000000E+09 -1.01149894537E-01 -2.96179429256E-01 +3.11086779622E-03 +2.10346429357E-03 +2.94732921142E-03 +2.25499493191E-03 +1.04188825040E-01 -3.98175052896E-01
2.95500000000E+09 -1.30217109153E-01 -2.71300542243E-01 +3.20685636560E-03 +1.36078047730E-03 +3.14797366809E-03 +1.57717784695E-03 +6.35031351996E-02 -3.93217055379E-01
2.96000000000E+09 -1.58066202826E-01 -2.45630533828E-01 +2.95890344581E-03 +9.37624760871E-04 +3.08442401498E-03 +1.05242849023E-03 +2.14828811187E-02 -3.85044177255E-01
2.96500000000E+09 -1.84404817938E-01 -2.18341137807E-01 +2.63967561988E-03 +8.79795707007E-04 +2.70076645611E-03 +9.14447248377E-04 -1.96400835749E-02 -3.71824586900E-01
2.97000000000E+09 -2.08577214805E-01 -1.90561918523E-01 +2.93199862549E-03 +1.31157660328E-03 +2.87600402719E-03 +1.19582315605E-03 -5.89754752613E-02 -3.56749419589E-01
2.97500000000E+09 -2.31222021883E-01 -1.61800530996E-01 +3.64260904012E-03 +8.13453558090E-04 +3.58099291379E-03 +8.27497526777E-04 -9.73369863826E-02 -3.40419583430E-01
2.98000000000E+09 -2.51998378099E-01 -1.32130702041E-01 +3.64615039730E-03 +2.18178926630E-04 +3.60694587487E-03 +3.37310788875E-04 -1.36102730982E-01 -3.21897720215E-01
2.98500000000E+09 -2.70224114283E-01 -1.00694706722E-01 +3.60996151016E-03 -1.91977511932E-04 +3.66656132048E-03 -2.72150465729E-05 -1.73731791340E-01 -2.99946395935E-01
2.99000000000E+09 -2.85341868726E-01 -6.81255198649E-02 +3.70932044793E-03 -6.71819391136E-04 +3.85924280647E-03 -5.89093908452E-04 -2.09720933930E-01 -2.74201382436E-01
2.99500000000E+09 -2.97732061074E-01 -3.53569628587E-02 +3.45462255127E-03 -1.05278792077E-03 +3.55543535883E-03 -1.18625394108E-03 -2.43644008263E-01 -2.45021103140E-01
3.00000000000E+09 -3.08803928727E-01 -2.78985172221E-03 +3.75741336007E-03 -1.29206331824E-03 +3.64868380500E-03 -1.43776380326E-03 -2.74859025522E-01 -2.13340204663E-01
3.00500000000E+09 -3.18367541984E-01 +3.00849279062E-02 +3.76138033238E-03 -2.01989134284E-03 +3.53865875607E-03 -2.03851656678E-03 -3.04276000402E-01 -1.80931813434E-01
3.01000000000E+09 -3.26515385682E-01 +6.28337947253E-02 +3.24079742296E-03 -2.79503900586E-03 +3.13262085240E-03 -2.64125853131E-03 -3.31826978237E-01 -1.45328296725E-01
3.01500000000E+09 -3.32258391596E-01 +9.58395917762E-02 +2.68272833723E-03 -3.11107198281E-03 +2.76664344758E-03 -3.01040479945E-03 -3.56098441902E-01 -1.09361410017E-01
3.02000000000E+09 -3.34797013348E-01 +1.27468651103E-01 +2.08282301862E-03 -3.45060856769E-03 +2.34779963923E-03 -3.36338326020E-03 -3.77303587589E-01 -7.14032239988E-02
3.02500000000E+09 -3.34574723789E-01 +1.57272025283E-01 +1.72837489622E-03 -3.58259863202E-03 +1.75964584257E-03 -3.62269990716E-03 -3.94985960224E-01 -3.31943651839E-02
3.03000000000E+09 -3.32208059136E-01 +1.85293485834E-01 +1.10837842307E-03 -3.64531328604E-03 +1.14848066098E-03 -3.68560684012E-03 -4.10938801563E-01 +6.89718253292E-03
3.03500000000E+09 -3.27445686004E-01 +2.12876222257E-01 +7.03052498240E-04 -3.38329242502E-03 +7.44696020845E-04 -3.41746037376E-03 -4.23036543340E-01 +4.83121228867E-02
3.04000000000E+09 -3.19721618278E-01 +2.40700084202E-01 +7.13435292725E-04 -3.61387564270E-03 +7.77788957934E-04 -3.74393569116E-03 -4.30619616587E-01 +8.96420423985E-02
3.04500000000E+09 -3.09854039851E-01 +2.67960969741E-01 -7.00369322037E-05 -3.78026022278E-03 -4.44373941138E-05 -3.97001962394E-03 -4.36380832323E-01 +1.29614071920E-01
3.05000000000E+09 -2.97504788244E-01 +2.96749777483E-01 -3.52136429236E-04 -3.56621953326E-03 -5.11760831862E-04 -3.68285403875E-03 -4.39356499554E-01 +1.69026307988E-01
3.05500000000E+09 -2.83339427920E-01 +3.24268143293E-01 -5.72536776453E-04 -3.59031447149E-03 -7.76585699706E-04 -3.57494040127E-03 -4.40411345337E-01 +2.07906557009E-01
3.06000000000E+09 -2.69177075972E-01 +3.51586684043E-01 -1.17584324978E-03 -3.68936187431E-03 -1.23569078838E-03 -3.48005144089E-03 -4.38835900099E-01 +2.45976843954E-01
3.06500000000E+09 -2.54525880887E-01 +3.78322800249E-01 -1.72070120865E-03 -3.53178992958E-03 -1.62547546541E-03 -3.32692588457E-03 -4.34822320051E-01 +2.83589278477E-01
3.07000000000E+09 -2.40275790639E-01 +4.02786292858E-01 -2.47104391158E-03 -3.11107943497E-03 -2.26107793144E-03 -3.21670396534E-03 -4.28431200812E-01 +3.19968467551E-01
