# Hz S RI R 50
! CMT, C1220, 16058040, 17.2.0/1
! Date: 15/08/2018 10:45:16
! Data: Format (Calibration Info)
! Freq                      S11: Re/Im (F2)                       S21: Re/Im (F2)                       S12: Re/Im (F2)                       S22: Re/Im (F2)            
2.50000000000E+09 +5.92484920223E-01 +6.53737159034E-01 -3.27728804093E-05 -3.54768046758E-04 -1.46415040690E-05 -3.56672664630E-04 +5.63389993765E-01 +7.25746343805E-01
2.50500000000E+09 +5.99324790805E-01 +6.45432172668E-01 -7.80285869627E-05 -4.03802825129E-04 -1.24823679777E-04 -3.91103840251E-04 +5.69456383643E-01 +7.20251685568E-01
2.51000000000E+09 +6.06763164445E-01 +6.37213618236E-01 -1.72402697770E-04 -3.77902041267E-04 -1.24711470714E-04 -3.95738699493E-04 +5.75444357822E-01 +7.14903599534E-01
2.51500000000E+09 +6.14623537828E-01 +6.29420578964E-01 -1.90426112574E-04 -4.20133436521E-04 -1.93090685773E-04 -4.14758933301E-04 +5.80866958824E-01 +7.09453122537E-01
2.52000000000E+09 +6.21670277975E-01 +6.21885810766E-01 -3.04186867157E-04 -3.92111166354E-04 -2.79992171015E-04 -4.32844715975E-04 +5.86278844792E-01 +7.03378199581E-01
2.52500000000E+09 +6.27572514967E-01 +6.15341071156E-01 -3.85179574088E-04 -3.78639597119E-04 -3.75879831825E-04 -3.80408317055E-04 +5.92333244610E-01 +6.96865956402E-01
2.53000000000E+09 +6.32536990708E-01 +6.09565113378E-01 -4.61314106355E-04 -3.47706344225E-04 -4.39078470767E-04 -3.67111149528E-04 +5.98660986466E-01 +6.89810495226E-01
2.53500000000E+09 +6.36645630868E-01 +6.04168790622E-01 -4.94112156662E-04 -2.68267625179E-04 -4.97190817728E-04 -3.09483617080E-04 +6.04560099650E-01 +6.82676233101E-01
2.54000000000E+09 +6.40158820420E-01 +5.98320027003E-01 -5.27241602519E-04 -2.75158790285E-04 -5.33286073857E-04 -2.96764636015E-04 +6.10151242941E-01 +6.75674217465E-01
2.54500000000E+09 +6.43676740808E-01 +5.92003294524E-01 -5.99085587043E-04 -1.56405907699E-04 -6.10387285208E-04 -2.33649303469E-04 +6.15661456147E-01 +6.69445278804E-01
2.55000000000E+09 +6.48210747647E-01 +5.84569809337E-01 -6.54349162598E-04 -7.50533690987E-05 -6.78818020609E-04 -1.27925457696E-04 +6.20858378592E-01 +6.63419167277E-01
2.55500000000E+09 +6.53574663605E-01 +5.75531217044E-01 -6.23808027893E-04 -4.18751618924E-05 -6.93764973188E-04 -8.35699661470E-05 +6.25864858966E-01 +6.56981477882E-01
2.56000000000E+09 +6.60287813404E-01 +5.65911636272E-01 -5.87730732013E-04 -1.39480292941E-05 -6.69236190540E-04 +3.53859776931E-05 +6.30960782201E-01 +6.50031603758E-01
2.56500000000E+09 +6.67566866768E-01 +5.55334605516E-01 -6.59431659287E-04 -3.72863172712E-05 -7.42925778375E-04 +1.00624884023E-04 +6.36259330454E-01 +6.42405997628E-01
2.57000000000E+09 +6.75305262509E-01 +5.45376776275E-01 -7.59056027928E-04 +1.34978543038E-05 -7.48934823640E-04 +2.09190335006E-04 +6.41249671636E-01 +6.34710484667E-01
2.57500000000E+09 +6.83002184770E-01 +5.36053996998E-01 -7.50458521583E-04 +1.80469897451E-04 -6.51800570130E-04 +2.55175647494E-04 +6.46468970530E-01 +6.27503214862E-01
2.58000000000E+09 +6.89588467744E-01 +5.27941429635E-01 -7.43450656259E-04 +2.62614801497E-04 -5.94614188231E-04 +2.75358352555E-04 +6.51503018209E-01 +6.20379677047E-01
2.58500000000E+09 +6.95018955521E-01 +5.20510054734E-01 -7.79927269393E-04 +3.06717843167E-04 -6.76299070977E-04 +2.50027970758E-04 +6.56713453704E-01 +6.13274029228E-01
2.59000000000E+09 +6.98983843093E-01 +5.14380152174E-01 -7.82249049563E-04 +4.53467151863E-04 -7.74941751815E-04 +4.10321739811E-04 +6.61983146617E-01 +6.06046347813E-01
2.59500000000E+09 +7.02198380827E-01 +5.08386848468E-01 -7.20682109369E-04 +5.76179135384E-04 -7.77250050372E-04 +5.63436445372E-04 +6.67248093820E-01 +5.98242948362E-01
2.60000000000E+09 +7.04618562179E-01 +5.01720770830E-01 -6.18840077219E-04 +6.60047087423E-04 -6.65713811657E-04 +6.11985191874E-04 +6.72939742033E-01 +5.90029746173E-01
2.60500000000E+09 +7.07177442116E-01 +4.93466614731E-01 -6.69511371742E-04 +6.43851545140E-04 -6.55181160064E-04 +6.47975401126E-04 +6.78666895628E-01 +5.81125592885E-01
2.61000000000E+09 +7.09988258842E-01 +4.83171736715E-01 -7.37346402184E-04 +9.37695663422E-04 -7.19083676977E-04 +8.54609800414E-04 +6.83919110630E-01 +5.72199291813E-01
2.61500000000E+09 +7.13935759185E-01 +4.70837350808E-01 -4.13012123731E-04 +1.03318331067E-03 -4.76109374995E-04 +1.10222601410E-03 +6.89110178372E-01 +5.63623403058E-01
2.62000000000E+09 +7.18498364107E-01 +4.56520176260E-01 -3.12241411990E-04 +9.10178757439E-04 -2.89334637703E-04 +9.63753276752E-04 +6.94214158317E-01 +5.54565423560E-01
2.62500000000E+09 +7.23744578743E-01 +4.41195360421E-01 -4.04921564842E-04 +9.20351009306E-04 -2.96372680962E-04 +1.01481970038E-03 +6.99297170608E-01 +5.45590240389E-01
2.63000000000E+09 +7.29002607013E-01 +4.25811738011E-01 -3.70673082235E-04 +1.10079084432E-03 -2.09808831287E-04 +1.10087539472E-03 +7.04158207128E-01 +5.36118978981E-01
2.63500000000E+09 +7.33977579897E-01 +4.11781168803E-01 -3.21432629227E-04 +1.26571958022E-03 -1.69188257779E-04 +1.19439091759E-03 +7.08646234888E-01 +5.26646981205E-01
2.64000000000E+09 +7.38462056052E-01 +3.99427097299E-01 -1.05089195092E-04 +1.60690496651E-03 -4.68713411682E-05 +1.38183713367E-03 +7.13249072410E-01 +5.16848815765E-01
2.64500000000E+09 +7.42571807796E-01 +3.89158210328E-01 +4.34929647651E-04 +1.66222462468E-03 +2.87289643631E-04 +1.46529264381E-03 +7.17755459396E-01 +5.07093480229E-01
2.65000000000E+09 +7.45433137427E-01 +3.80230331056E-01 +6.69436010089E-04 +1.29551315347E-03 +4.48626537145E-04 +1.32297838969E-03 +7.22042814169E-01 +4.96823737109E-01
2.65500000000E+09 +7.47611130527E-01 +3.72106516589E-01 +5.72318926816E-04 +1.16105420903E-03 +4.41432046761E-04 +1.29570157884E-03 +7.25668952901E-01 +4.86344835678E-01
2.66000000000E+09 +7.49364714434E-01 +3.63773802405E-01 +5.55429460085E-04 +1.28334615814E-03 +5.58461665144E-04 +1.37758738634E-03 +7.29725459944E-01 +4.75303431493E-01
2.66500000000E+09 +7.50855201075E-01 +3.54623037202E-01 +7.95506302536E-04 +1.47593205618E-03 +9.18637492899E-04 +1.45037295829E-03 +7.33877983388E-01 +4.64250815312E-01
2.67000000000E+09 +7.52100646798E-01 +3.43113588976E-01 +1.18091413230E-03 +1.40536080604E-03 +1.26962903488E-03 +1.24470457809E-03 +7.38294721208E-01 +4.53387957375E-01
2.67500000000E+09 +7.53457350829E-01 +3.29825978427E-01 +1.46408839072E-03 +1.20896361478E-03 +1.36897122131E-03 +1.10351060377E-03 +7.42259467612E-01 +4.42268408099E-01
2.68000000000E+09 +7.55303321495E-01 +3.14303966348E-01 +1.59710555536E-03 +9.10994986133E-04 +1.49715896079E-03 +8.96962102498E-04 +7.46030769140E-01 +4.31359753034E-01
2.68500000000E+09 +7.56695683945E-01 +2.97599734165E-01 +1.55458433313E-03 +7.79444601688E-04 +1.46855403534E-03 +8.19748914503E-04 +7.49319980991E-01 +4.20261610577E-01
2.69000000000E+09 +7.58404206101E-01 +2.80515363848E-01 +1.74972030049E-03 +8.54898061470E-04 +1.74445994455E-03 +8.31267852484E-04 +7.52136342370E-01 +4.08602392188E-01
2.69500000000E+09 +7.60096849760E-01 +2.63914392808E-01 +2.09488762356E-03 +6.21548466416E-04 +2.09429264591E-03 +5.70310365417E-04 +7.55161786820E-01 +3.96355647936E-01
2.70000000000E+09 +7.61556357313E-01 +2.48107961968E-01 +2.24963180558E-03 +1.39328445879E-04 +2.15549975867E-03 +1.79651925755E-04 +7.58552854723E-01 +3.82997337653E-01
2.70500000000E+09 +7.62694524977E-01 +2.33788191262E-01 +2.26855107865E-03 -1.87831205196E-04 +2.24422431564E-03 -1.11835629315E-04 +7.61423871198E-01 +3.69863486997E-01
2.71000000000E+09 +7.63615465266E-01 +2.20276997692E-01 +2.14314816504E-03 -5.90082320003E-04 +2.25712255437E-03 -5.12416356745E-04 +7.64529675057E-01 +3.56816094530E-01
2.71500000000E+09 +7.64305400688E-01 +2.07022858884E-01 +1.92976057630E-03 -8.31619691610E-04 +2.08519443860E-03 -8.46147331119E-04 +7.67199896911E-01 +3.44270895350E-01
2.72000000000E+09 +7.64355174999E-01 +1.94043034526E-01 +1.81788941175E-03 -8.81280840526E-04 +1.85633404754E-03 -1.02719830226E-03 +7.69438045479E-01 +3.31496625831E-01
2.72500000000E+09 +7.64472308554E-01 +1.79909838030E-01 +1.90713255762E-03 -1.09871997286E-03 +1.72784144676E-03 -1.26277719511E-03 +7.71160161374E-01 +3.18120296627E-01
2.73000000000E+09 +7.63410451970E-01 +1.64535019476E-01 +1.79343827672E-03 -1.47537877986E-03 +1.57161727355E-03 -1.47509691208E-03 +7.72491371272E-01 +3.03866028665E-01
2.73500000000E+09 +7.61756717297E-01 +1.47651583860E-01 +1.57898547501E-03 -1.70978616241E-03 +1.34554336462E-03 -1.54123031604E-03 +7.74027131980E-01 +2.88892285487E-01
2.74000000000E+09 +7.58994972018E-01 +1.30206272877E-01 +1.24746521335E-03 -1.79461106893E-03 +1.22529651569E-03 -1.56539037303E-03 +7.75735654381E-01 +2.73538859730E-01
2.74500000000E+09 +7.55277458631E-01 +1.12141518476E-01 +1.24315021628E-03 -1.92502662505E-03 +1.37869684611E-03 -1.66463133796E-03 +7.77150882814E-01 +2.57878779534E-01
2.75000000000E+09 +7.51024580614E-01 +9.40690392850E-02 +1.02666783668E-03 -2.18907170780E-03 +1.26103759277E-03 -2.07642048235E-03 +7.77959621205E-01 +2.41994308160E-01
2.75500000000E+09 +7.45861339338E-01 +7.64062343042E-02 +6.96375214135E-04 -2.26658729738E-03 +8.61415796327E-04 -2.42155959009E-03 +7.77445727246E-01 +2.26090113390E-01
2.76000000000E+09 +7.40778017830E-01 +5.88892153386E-02 +3.97270352802E-04 -2.33451284173E-03 +4.82375543821E-04 -2.48540339858E-03 +7.76381957686E-01 +2.10796028397E-01
2.76500000000E+09 +7.35182925340E-01 +4.12892816272E-02 +2.13739351443E-04 -2.28790812046E-03 +2.11831507851E-04 -2.48218007284E-03 +7.75321156053E-01 +1.94078001209E-01
2.77000000000E+09 +7.28963875515E-01 +2.28209900960E-02 -2.20407267001E-05 -2.55871137482E-03 -4.57546709999E-05 -2.64575981078E-03 +7.73648440024E-01 +1.76810095101E-01
2.77500000000E+09 +7.22092411276E-01 +3.79638688538E-03 -5.69982213261E-04 -2.65312547763E-03 -6.55655351088E-04 -2.73421524904E-03 +7.71428661393E-01 +1.59157090690E-01
2.78000000000E+09 +7.15026792954E-01 -1.58801333014E-02 -9.35454142546E-04 -2.30362159821E-03 -1.06553654925E-03 -2.29161910373E-03 +7.69160333163E-01 +1.41650011985E-01
2.78500000000E+09 +7.07393155050E-01 -3.68929441447E-02 -1.08955487824E-03 -1.89500956185E-03 -1.17113530665E-03 -1.81342434888E-03 +7.66395812440E-01 +1.24643161404E-01
2.79000000000E+09 +6.98871801053E-01 -5.80138208203E-02 -9.09394700994E-04 -1.92486266288E-03 -9.42421580126E-04 -1.79202514296E-03 +7.63155609051E-01 +1.07745301255E-01
2.79500000000E+09 +6.90464365364E-01 -7.90512386457E-02 -1.01167605459E-03 -2.16263329084E-03 -9.42886064960E-04 -1.99551192905E-03 +7.59157100918E-01 +9.03337737378E-02
2.80000000000E+09 +6.81459875652E-01 -9.95727342084E-02 -1.58744251140E-03 -2.27404968515E-03 -1.39865785956E-03 -2.23421286698E-03 +7.54232121007E-01 +7.25559576526E-02
2.80500000000E+09 +6.71853546250E-01 -1.19129741394E-01 -2.01276898117E-03 -2.05695182745E-03 -1.91746126934E-03 -2.17325825396E-03 +7.48762513331E-01 +5.43512978701E-02
2.81000000000E+09 +6.60820127849E-01 -1.36842364189E-01 -2.37421747368E-03 -1.58519393081E-03 -2.43347511841E-03 -1.69459515620E-03 +7.43619748958E-01 +3.60680435164E-02
2.81500000000E+09 +6.48382402827E-01 -1.53028128070E-01 -2.26796516881E-03 -1.33483642359E-03 -2.37719033366E-03 -1.30954674651E-03 +7.38205128926E-01 +1.60854945813E-02
2.82000000000E+09 +6.34579037058E-01 -1.67543913194E-01 -2.71770927361E-03 -1.12347745483E-03 -2.76192797295E-03 -1.02843998861E-03 +7.31440890493E-01 -4.16696162325E-03
2.82500000000E+09 +6.19679995874E-01 -1.81462791452E-01 -2.83121936355E-03 -6.76908295095E-04 -2.75318024370E-03 -5.45121691203E-04 +7.23448861768E-01 -2.45014751624E-02
2.83000000000E+09 +6.02712616432E-01 -1.97047593843E-01 -2.94552846560E-03 -2.59768937125E-04 -2.74118434722E-03 -2.26184775328E-04 +7.14765473734E-01 -4.48693980718E-02
2.83500000000E+09 +5.83141001691E-01 -2.13246914662E-01 -2.68653467305E-03 +2.39110664019E-04 -2.65226463860E-03 +1.17883779038E-04 +7.04613652540E-01 -6.57063167439E-02
2.84000000000E+09 +5.61602416098E-01 -2.30889925692E-01 -2.42433536215E-03 +3.67301614688E-04 -2.44060879208E-03 +2.75216414806E-04 +6.93588872675E-01 -8.68315195101E-02
2.84500000000E+09 +5.37719096088E-01 -2.49934027940E-01 -2.51746604150E-03 +3.27043290275E-04 -2.53364339591E-03 +2.66065683667E-04 +6.80627662942E-01 -1.07974613192E-01
2.85000000000E+09 +5.12838859806E-01 -2.69417137203E-01 -2.80051430575E-03 +6.49823390431E-04 -2.75842660621E-03 +6.07066955583E-04 +6.66619474114E-01 -1.28429374811E-01
2.85500000000E+09 +4.86255897731E-01 -2.89072112279E-01 -2.79182102847E-03 +1.22168052009E-03 -2.72780194272E-03 +1.18463018061E-03 +6.51329409137E-01 -1.48352446922E-01
2.86000000000E+09 +4.59558763043E-01 -3.05741043412E-01 -2.34694443802E-03 +1.77202064713E-03 -2.39855381702E-03 +1.71413961763E-03 +6.36095459560E-01 -1.68262552133E-01
2.86500000000E+09 +4.34929074005E-01 -3.20278934059E-01 -1.91144136351E-03 +1.52890550632E-03 -1.98071447178E-03 +1.50112116392E-03 +6.18926368292E-01 -1.89162490432E-01
2.87000000000E+09 +4.10934376987E-01 -3.33733204509E-01 -2.14375638410E-03 +2.04216450239E-03 -2.18129115273E-03 +2.09499657921E-03 +5.99743183001E-01 -2.09077895208E-01
2.87500000000E+09 +3.86617668705E-01 -3.44773568035E-01 -1.40100238025E-03 +1.99182223362E-03 -1.32427629704E-03 +2.01892436112E-03 +5.79409625670E-01 -2.27844879900E-01
2.88000000000E+09 +3.61745668427E-01 -3.54028479135E-01 -1.84644346364E-03 +1.82313746682E-03 -1.70710160554E-03 +1.78698577603E-03 +5.59486501256E-01 -2.45666169066E-01
2.88500000000E+09 +3.34256296625E-01 -3.61342157068E-01 -1.74382142616E-03 +2.57749313696E-03 -1.63229713107E-03 +2.44922787398E-03 +5.38010879639E-01 -2.65005531489E-01
2.89000000000E+09 +3.04410671443E-01 -3.66017772656E-01 -1.27719171828E-03 +2.88472872795E-03 -1.20170917137E-03 +2.64630916592E-03 +5.13825034473E-01 -2.83314863855E-01
2.89500000000E+09 +2.73043368915E-01 -3.69363602079E-01 -8.30627789136E-04 +2.81098695696E-03 -8.63796583360E-04 +2.72404918023E-03 +4.88259671152E-01 -3.01060711428E-01
2.90000000000E+09 +2.39407106705E-01 -3.71283680734E-01 -5.89333424363E-04 +2.97458988747E-03 -6.95133868820E-04 +2.99013829057E-03 +4.61305959802E-01 -3.18523959232E-01
2.90500000000E+09 +2.03864433889E-01 -3.72048890173E-01 -3.29791644582E-04 +3.11964002608E-03 -3.68829088104E-04 +3.14591048863E-03 +4.32701129143E-01 -3.35144991738E-01
2.91000000000E+09 +1.68031862152E-01 -3.71391125085E-01 +4.20272560190E-04 +3.39849563603E-03 +4.70802405365E-04 +3.42402500163E-03 +4.02946048190E-01 -3.51442193599E-01
2.91500000000E+09 +1.31773906215E-01 -3.69336449147E-01 +9.42750265073E-04 +3.06189462642E-03 +9.74744406717E-04 +2.92180843780E-03 +3.70137919405E-01 -3.65664110494E-01
2.92000000000E+09 +9.62889754428E-02 -3.65052298526E-01 +1.47419660971E-03 +2.75939910646E-03 +1.30036345736E-03 +2.64184135946E-03 +3.35501437949E-01 -3.77036611245E-01
2.92500000000E+09 +6.27863487587E-02 -3.57615634068E-01 +1.51266371285E-03 +2.10719713845E-03 +1.36537064874E-03 +2.08321365105E-03 +2.99884396537E-01 -3.85149112579E-01
2.93000000000E+09 +3.14189987293E-02 -3.48572872107E-01 +1.23507947519E-03 +2.12844244175E-03 +1.04750958226E-03 +2.18206512673E-03 +2.63369677338E-01 -3.92533565944E-01
2.93500000000E+09 +9.55465645899E-04 -3.37349645108E-01 +1.62310946042E-03 +2.33735795444E-03 +1.49242687156E-03 +2.43140579500E-03 +2.24695278128E-01 -3.98644637776E-01
2.94000000000E+09 -2.90106351287E-02 -3.23079320972E-01 +1.97048125465E-03 +1.75371059044E-03 +1.92307850679E-03 +1.78015433261E-03 +1.83286874174E-01 -4.01905634195E-01
2.94500000000E+09 -5.80212437231E-02 -3.06673521565E-01 +1.77350164076E-03 +1.85382406261E-03 +1.69326484829E-03 +1.91776372485E-03 +1.43449077025E-01 -4.01166104788E-01
2.95000000000E+09 -8.82166410530E-02 -2.87127824128E-01 +2.48461697827E-03 +1.66340726878E-03 +2.42381497176E-03 +1.70190541647E-03 +1.03059321481E-01 -3.99174821968E-01
2.95500000000E+09 -1.16527399820E-01 -2.63721476676E-01 +2.34880190642E-03 +1.31850027708E-03 +2.29831966895E-03 +1.34734217542E-03 +6.25903896935E-02 -3.93903900801E-01
2.96000000000E+09 -1.43971074202E-01 -2.40267600624E-01 +2.51816839211E-03 +5.64337371809E-04 +2.55381465769E-03 +6.75198064909E-04 +2.11746341121E-02 -3.85563947912E-01
2.96500000000E+09 -1.71047838069E-01 -2.13900729238E-01 +1.84694219311E-03 +5.48631360717E-04 +1.91944488582E-03 +5.69117040848E-04 -1.99271547334E-02 -3.72999416758E-01
2.97000000000E+09 -1.94601307074E-01 -1.86435180070E-01 +1.84100334575E-03 +9.35138682192E-04 +1.87902705812E-03 +8.78641202694E-04 -5.95747992457E-02 -3.58025944752E-01
2.97500000000E+09 -2.16515700909E-01 -1.59512008884E-01 +2.37526731052E-03 +1.16485063392E-03 +2.26372363188E-03 +1.13477057763E-03 -9.86041198997E-02 -3.41584056292E-01
2.98000000000E+09 -2.37892334926E-01 -1.31100989375E-01 +2.98837311471E-03 +9.08565723669E-04 +2.91634529517E-03 +9.89267503120E-04 -1.37388035947E-01 -3.22319925486E-01
2.98500000000E+09 -2.55885498151E-01 -1.00698464898E-01 +3.20903082977E-03 +1.44507620355E-05 +3.20375469192E-03 +1.58598847960E-04 -1.74924005945E-01 -3.00111145785E-01
2.99000000000E+09 -2.71194566493E-01 -6.96333994594E-02 +2.95206596484E-03 -3.58652338600E-04 +3.08580168610E-03 -3.11872468314E-04 -2.11017364903E-01 -2.74175847297E-01
2.99500000000E+09 -2.84171164031E-01 -3.86961470952E-02 +2.72552467318E-03 -2.95983271961E-04 +2.82650667748E-03 -4.30629218254E-04 -2.44448406130E-01 -2.44882933825E-01
3.00000000000E+09 -2.96835932113E-01 -7.14325132772E-03 +3.27836093763E-03 -6.82579300874E-04 +3.13863265626E-03 -8.56843647157E-04 -2.76281784891E-01 -2.13387592137E-01
3.00500000000E+09 -3.07428227774E-01 +2.55541759987E-02 +3.15666312233E-03 -1.06784620650E-03 +3.04189816098E-03 -1.10555423856E-03 -3.05723196753E-01 -1.79965483098E-01
3.01000000000E+09 -3.15756025980E-01 +5.77265820856E-02 +3.07468950253E-03 -1.95761763907E-03 +2.94647662059E-03 -1.76008696179E-03 -3.32387938821E-01 -1.44076977513E-01
3.01500000000E+09 -3.22582383491E-01 +8.96349113390E-02 +2.53790605689E-03 -2.15799042651E-03 +2.52957478336E-03 -2.01901665870E-03 -3.56216918187E-01 -1.07927451549E-01
3.02000000000E+09 -3.25926513660E-01 +1.20886998870E-01 +2.31460190397E-03 -2.43495991528E-03 +2.43168142640E-03 -2.34619063402E-03 -3.76927417752E-01 -6.99539009830E-02
3.02500000000E+09 -3.26548674572E-01 +1.50160743622E-01 +2.16929912090E-03 -2.53488046962E-03 +2.26742263962E-03 -2.59310654291E-03 -3.94358539360E-01 -3.18773866804E-02
3.03000000000E+09 -3.25142207816E-01 +1.77378727095E-01 +1.87683134663E-03 -3.16671818851E-03 +1.84075075037E-03 -3.20030442582E-03 -4.09589834860E-01 +8.14736160820E-03
3.03500000000E+09 -3.21786159033E-01 +2.04887685002E-01 +1.10641480735E-03 -3.23097825194E-03 +1.15775876695E-03 -3.22960367472E-03 -4.21587449412E-01 +4.91222328949E-02
3.04000000000E+09 -3.15049102188E-01 +2.32923316006E-01 +7.91540399786E-04 -3.27652188477E-03 +9.35413899310E-04 -3.33793562918E-03 -4.28678311119E-01 +8.99567537381E-02
3.04500000000E+09 -3.05852034463E-01 +2.60053945024E-01 +3.29208074458E-04 -2.95886025722E-03 +3.38414252980E-04 -3.13222543373E-03 -4.34412730182E-01 +1.29187148319E-01
3.05000000000E+09 -2.94973878006E-01 +2.88978255785E-01 +3.94199932287E-04 -2.97918487869E-03 +3.43165996690E-04 -3.11966427071E-03 -4.37601215760E-01 +1.67905780230E-01
3.05500000000E+09 -2.81312689784E-01 +3.16898092174E-01 +3.59136713353E-04 -3.24276814540E-03 +1.29048346490E-04 -3.30786637218E-03 -4.39124232418E-01 +2.06736720461E-01
3.06000000000E+09 -2.67633359060E-01 +3.44084546627E-01 -2.54092349650E-04 -3.80410654036E-03 -3.81836565673E-04 -3.63290497437E-03 -4.37647409839E-01 +2.44832533889E-01
3.06500000000E+09 -2.53537100575E-01 +3.70525014006E-01 -1.13476735119E-03 -3.73263938087E-03 -1.03647189882E-03 -3.63557853807E-03 -4.33567591054E-01 +2.82178721402E-01
3.07000000000E+09 -2.40718854747E-01 +3.94529638638E-01 -2.11315708893E-03 -3.26764015020E-03 -1.89376794345E-03 -3.31800133313E-03 -4.27540813729E-01 +3.18569344748E-01
