# Hz S RI R 50
! CMT, C1220, 16058040, 17.2.0/1
! Date: 15/08/2018 10:43:53
! Data: Format (Calibration Info)
! Freq                      S11: Re/Im (F2)                       S21: Re/Im (F2)                       S12: Re/Im (F2)                       S22: Re/Im (F2)            
2.50000000000E+09 +5.91899860976E-01 +6.52173241809E-01 -4.30684805242E-06 -2.36385746569E-04 +3.36346045274E-05 -2.50967211343E-04 +5.63668332803E-01 +7.25266494836E-01
2.50500000000E+09 +5.98638040133E-01 +6.43969100532E-01 -6.27223354895E-05 -2.27279820767E-04 -1.15319424067E-04 -2.26029117896E-04 +5.69529759380E-01 +7.19696647795E-01
2.51000000000E+09 +6.06114567978E-01 +6.35731202906E-01 -9.35860471733E-05 -2.65386676170E-04 -8.58767446043E-05 -2.63537759988E-04 +5.75386934685E-01 +7.14451767614E-01
2.51500000000E+09 +6.13818527145E-01 +6.27883994536E-01 -1.24354055867E-04 -2.83010408556E-04 -1.06745911665E-04 -2.84121266841E-04 +5.80884344417E-01 +7.08768862027E-01
2.52000000000E+09 +6.20710285324E-01 +6.20303674407E-01 -1.71959488366E-04 -3.15238939013E-04 -1.70356973768E-04 -3.08416671678E-04 +5.86311459799E-01 +7.02896312294E-01
2.52500000000E+09 +6.26438372210E-01 +6.13903890323E-01 -3.08846236251E-04 -2.77879308842E-04 -2.59253704308E-04 -2.79915490042E-04 +5.92271975203E-01 +6.96489485429E-01
2.53000000000E+09 +6.31295857164E-01 +6.08197900688E-01 -2.73471914086E-04 -2.11187347682E-04 -2.91560307229E-04 -2.30271154134E-04 +5.98429773211E-01 +6.89401246620E-01
2.53500000000E+09 +6.35317446468E-01 +6.02791212715E-01 -3.79714885736E-04 -1.87021825902E-04 -4.19545058760E-04 -1.97137105511E-04 +6.04439519032E-01 +6.82207053459E-01
2.54000000000E+09 +6.38583466246E-01 +5.96987078053E-01 -3.40604116724E-04 -1.04520545767E-04 -3.11362445047E-04 -1.32161638090E-04 +6.10056172975E-01 +6.75528751628E-01
2.54500000000E+09 +6.42179834832E-01 +5.90704356626E-01 -3.92905430397E-04 -1.43670136182E-04 -3.46831919774E-04 -1.50518632255E-04 +6.15678666134E-01 +6.69220324783E-01
2.55000000000E+09 +6.46424546627E-01 +5.83263346090E-01 -3.94015262471E-04 -5.59313106117E-05 -4.69493674238E-04 -8.58566601110E-05 +6.20702727963E-01 +6.63076413778E-01
2.55500000000E+09 +6.51724465682E-01 +5.74357337875E-01 -4.43196162978E-04 -1.84088519866E-07 -5.46705455504E-04 -8.08091592377E-05 +6.25708647136E-01 +6.56760154084E-01
2.56000000000E+09 +6.58287758920E-01 +5.64782051603E-01 -3.94313998129E-04 +2.02697415086E-05 -4.23492066549E-04 +7.49892056774E-05 +6.30806016916E-01 +6.49748166199E-01
2.56500000000E+09 +6.65532409060E-01 +5.54450813802E-01 -4.14030060022E-04 -2.08141656924E-05 -4.61856690612E-04 +7.35191344753E-05 +6.36081670255E-01 +6.42252490788E-01
2.57000000000E+09 +6.73322905494E-01 +5.44475845517E-01 -4.70166941396E-04 +5.04514508001E-05 -4.58955456963E-04 +1.32183561635E-04 +6.41046551338E-01 +6.34663492290E-01
2.57500000000E+09 +6.80923048499E-01 +5.35249179555E-01 -4.73762758584E-04 +9.05125707072E-05 -4.26056039299E-04 +1.33579020437E-04 +6.46390683150E-01 +6.27381108512E-01
2.58000000000E+09 +6.87300063002E-01 +5.27149000784E-01 -5.07639017714E-04 +7.02229467947E-05 -4.45097234999E-04 +1.14769077915E-04 +6.51525705115E-01 +6.20303073839E-01
2.58500000000E+09 +6.92695595080E-01 +5.20178646178E-01 -5.53152116378E-04 +1.75697843651E-04 -5.37756555661E-04 +1.13337345385E-04 +6.56660225073E-01 +6.13072681190E-01
2.59000000000E+09 +6.96690325625E-01 +5.14235400948E-01 -5.84290341124E-04 +3.22737686802E-04 -6.17997123732E-04 +2.70919595644E-04 +6.61797554279E-01 +6.05905217953E-01
2.59500000000E+09 +6.99947584802E-01 +5.08360868396E-01 -5.72622665706E-04 +4.73994296301E-04 -6.02576842859E-04 +4.78989170011E-04 +6.67006744150E-01 +5.98082453580E-01
2.60000000000E+09 +7.02255409667E-01 +5.01796585737E-01 -4.84749574227E-04 +5.37992428865E-04 -4.83384938000E-04 +4.54850891225E-04 +6.72731264724E-01 +5.90003900751E-01
2.60500000000E+09 +7.04806892334E-01 +4.93607917051E-01 -4.72807727805E-04 +5.60958878865E-04 -4.93854458951E-04 +5.34955206730E-04 +6.78497487837E-01 +5.81253161327E-01
2.61000000000E+09 +7.07674694262E-01 +4.83561904128E-01 -4.14187680923E-04 +6.94398603971E-04 -4.52536967409E-04 +6.55190525701E-04 +6.84028379990E-01 +5.72371765413E-01
2.61500000000E+09 +7.11651307661E-01 +4.71401180365E-01 -2.43538033486E-04 +6.99353988948E-04 -2.13730432191E-04 +7.12767001901E-04 +6.89226730200E-01 +5.63710850507E-01
2.62000000000E+09 +7.16136136402E-01 +4.57116339521E-01 -3.07610736938E-04 +5.95082347736E-04 -2.85994657661E-04 +6.01146755509E-04 +6.94199687615E-01 +5.54721809693E-01
2.62500000000E+09 +7.21188249353E-01 +4.41904847759E-01 -3.37794722109E-04 +7.65587931937E-04 -3.16108149669E-04 +8.02972027417E-04 +6.99308157333E-01 +5.45674840705E-01
2.63000000000E+09 +7.26427873464E-01 +4.26909410314E-01 -3.11427795418E-04 +9.20026313256E-04 -1.74377409481E-04 +9.59875464335E-04 +7.04200227241E-01 +5.36050964625E-01
2.63500000000E+09 +7.31299264068E-01 +4.12984984468E-01 -2.21142162797E-04 +1.04936248824E-03 -1.03580079800E-04 +9.27528044033E-04 +7.08739925054E-01 +5.26749545882E-01
2.64000000000E+09 +7.36004947096E-01 +4.00930144731E-01 -3.94465079494E-05 +1.28077990081E-03 -1.90909218344E-05 +1.05136989548E-03 +7.13466264673E-01 +5.17084991271E-01
2.64500000000E+09 +7.40014096894E-01 +3.90836629275E-01 +4.36127965729E-04 +1.21812781777E-03 +2.77619255991E-04 +1.07923941102E-03 +7.18123534892E-01 +5.07081030593E-01
2.65000000000E+09 +7.42961053976E-01 +3.81999523143E-01 +4.75142728520E-04 +9.45525030587E-04 +3.59855098626E-04 +9.22500677112E-04 +7.22174386876E-01 +4.96825719266E-01
2.65500000000E+09 +7.45304815137E-01 +3.73934272128E-01 +3.79464092992E-04 +9.39246886549E-04 +3.08268346321E-04 +9.70044093927E-04 +7.25885996612E-01 +4.86338348936E-01
2.66000000000E+09 +7.46860130639E-01 +3.65768463655E-01 +4.78198604331E-04 +1.08164112042E-03 +4.04991382967E-04 +1.11790211781E-03 +7.29992881771E-01 +4.75497483248E-01
2.66500000000E+09 +7.48471133423E-01 +3.56946941735E-01 +6.51080133269E-04 +1.19164100115E-03 +7.99152085936E-04 +1.14620093202E-03 +7.34088447033E-01 +4.64309854203E-01
2.67000000000E+09 +7.49968834863E-01 +3.45526520400E-01 +9.01229193155E-04 +1.02576605744E-03 +9.83889749203E-04 +9.65813309953E-04 +7.38439564968E-01 +4.53601969042E-01
2.67500000000E+09 +7.51477930926E-01 +3.32412635413E-01 +1.11099607252E-03 +9.74454169618E-04 +1.08959740897E-03 +9.17607521050E-04 +7.42547472096E-01 +4.42701237738E-01
2.68000000000E+09 +7.53141116310E-01 +3.17102911089E-01 +1.37850516896E-03 +7.56082261137E-04 +1.29446567453E-03 +7.68866091095E-04 +7.46490494224E-01 +4.31693564506E-01
2.68500000000E+09 +7.54829257216E-01 +3.00583667842E-01 +1.35178887237E-03 +6.67971792109E-04 +1.33125080147E-03 +7.07399865752E-04 +7.49734711830E-01 +4.20304927670E-01
2.69000000000E+09 +7.56782612986E-01 +2.83621593314E-01 +1.54617336914E-03 +4.87196368140E-04 +1.52423107520E-03 +5.32941606707E-04 +7.52562382901E-01 +4.08768503032E-01
2.69500000000E+09 +7.58604097002E-01 +2.67429294731E-01 +1.60814908128E-03 +3.47163829845E-04 +1.60970077707E-03 +3.14439300740E-04 +7.55886488179E-01 +3.96557446956E-01
2.70000000000E+09 +7.60288786743E-01 +2.51810318907E-01 +1.81502796662E-03 +8.35482424880E-05 +1.73821100975E-03 +8.58200370608E-05 +7.59153917285E-01 +3.83311329785E-01
2.70500000000E+09 +7.61616900420E-01 +2.37620507849E-01 +1.84070165084E-03 -2.35398898480E-04 +1.85804599010E-03 -1.19397044195E-04 +7.62191681862E-01 +3.70073876536E-01
2.71000000000E+09 +7.62848144665E-01 +2.24350625813E-01 +1.85064540160E-03 -5.65662591329E-04 +1.93342927205E-03 -4.84732350183E-04 +7.65400487962E-01 +3.56923961992E-01
2.71500000000E+09 +7.63849153795E-01 +2.11391941728E-01 +1.65977233429E-03 -8.87592111637E-04 +1.74921743491E-03 -9.21904114274E-04 +7.68131418261E-01 +3.44126755010E-01
2.72000000000E+09 +7.64276894624E-01 +1.98286686062E-01 +1.41002164652E-03 -9.23361093660E-04 +1.45416293379E-03 -1.05609834220E-03 +7.70314443303E-01 +3.31478762059E-01
2.72500000000E+09 +7.64326150026E-01 +1.84283237220E-01 +1.46958880430E-03 -1.00628364159E-03 +1.32091692675E-03 -1.14822665409E-03 +7.72034289068E-01 +3.17871715534E-01
2.73000000000E+09 +7.63700372552E-01 +1.69097237218E-01 +1.49702702325E-03 -1.35688006385E-03 +1.26779249213E-03 -1.35848547937E-03 +7.73605319429E-01 +3.03683143409E-01
2.73500000000E+09 +7.61968603499E-01 +1.52400681345E-01 +1.16890866623E-03 -1.66687414598E-03 +1.01673884044E-03 -1.40971514088E-03 +7.75115869450E-01 +2.88554727581E-01
2.74000000000E+09 +7.59758038481E-01 +1.35197427071E-01 +7.64935262094E-04 -1.63749200407E-03 +8.50629697025E-04 -1.34412606026E-03 +7.76923541129E-01 +2.72974399718E-01
2.74500000000E+09 +7.56475859707E-01 +1.17357915236E-01 +8.14697465752E-04 -1.60730478925E-03 +9.94122244635E-04 -1.43948001950E-03 +7.78336837893E-01 +2.57008037849E-01
2.75000000000E+09 +7.52502708996E-01 +9.91988751203E-02 +8.65714737264E-04 -1.79558213777E-03 +1.10324876327E-03 -1.71657984599E-03 +7.78885884071E-01 +2.40966493923E-01
2.75500000000E+09 +7.47643371320E-01 +8.15581776562E-02 +6.14194371940E-04 -2.18739454336E-03 +8.15505928522E-04 -2.33136335319E-03 +7.78474318972E-01 +2.25308568435E-01
2.76000000000E+09 +7.42858993035E-01 +6.41653733988E-02 +1.92817465223E-04 -2.34498902082E-03 +2.14657226381E-04 -2.50118576006E-03 +7.77433434006E-01 +2.09771308866E-01
2.76500000000E+09 +7.37617425684E-01 +4.65385454820E-02 -2.71504400902E-04 -2.29502569871E-03 -3.32990818277E-04 -2.37128564413E-03 +7.76322352690E-01 +1.92992049609E-01
2.77000000000E+09 +7.31921629525E-01 +2.82193174982E-02 -5.78683198248E-04 -2.18806358345E-03 -6.43887194700E-04 -2.25084489868E-03 +7.74883863620E-01 +1.75399350038E-01
2.77500000000E+09 +7.25546638145E-01 +9.18233116316E-03 -8.46776524538E-04 -1.89342459422E-03 -9.93651457058E-04 -2.00833339596E-03 +7.72562777279E-01 +1.57557560259E-01
2.78000000000E+09 +7.18720033227E-01 -1.06955295178E-02 -8.52321693156E-04 -1.80925555943E-03 -9.55700218034E-04 -1.75630761750E-03 +7.69773140648E-01 +1.39608389961E-01
2.78500000000E+09 +7.11575129425E-01 -3.13138538860E-02 -1.10938193242E-03 -1.71342820204E-03 -1.22530463520E-03 -1.61596450030E-03 +7.66880925400E-01 +1.22671055507E-01
2.79000000000E+09 +7.04294410788E-01 -5.26692485267E-02 -1.20151769734E-03 -1.76556656231E-03 -1.20843091447E-03 -1.60613544812E-03 +7.63370327709E-01 +1.05854069272E-01
2.79500000000E+09 +6.96333850676E-01 -7.40500886239E-02 -1.42871655269E-03 -1.76255632054E-03 -1.35853986991E-03 -1.63241835073E-03 +7.59265581229E-01 +8.84944140788E-02
2.80000000000E+09 +6.88012840067E-01 -9.50818230488E-02 -1.89902552836E-03 -1.49633059760E-03 -1.80244964464E-03 -1.46680397318E-03 +7.54387042173E-01 +7.04878148719E-02
2.80500000000E+09 +6.78666644107E-01 -1.14947284813E-01 -1.90867610033E-03 -1.22424358578E-03 -1.79362213270E-03 -1.32665202160E-03 +7.48888177946E-01 +5.21579450337E-02
2.81000000000E+09 +6.68191550546E-01 -1.33124967516E-01 -2.19035889321E-03 -1.07300383576E-03 -2.19234325382E-03 -1.14944328944E-03 +7.43473874294E-01 +3.34292975636E-02
2.81500000000E+09 +6.56496373944E-01 -1.49352505523E-01 -2.32720951064E-03 -7.78931668557E-04 -2.42610169052E-03 -7.91123762866E-04 +7.37167993335E-01 +1.33262037406E-02
2.82000000000E+09 +6.43719495407E-01 -1.64613559487E-01 -2.55785644273E-03 -3.50240629457E-04 -2.53178103023E-03 -2.45305131130E-04 +7.30068606320E-01 -6.44253758672E-03
2.82500000000E+09 +6.29224049825E-01 -1.79717332991E-01 -2.47583382883E-03 +4.11368797596E-05 -2.37497225025E-03 +1.21442690096E-04 +7.21960636980E-01 -2.65164409881E-02
2.83000000000E+09 +6.12598394815E-01 -1.95717590679E-01 -2.40406372187E-03 +1.78266329064E-04 -2.30746163124E-03 +1.66239546709E-04 +7.12929899988E-01 -4.65754171166E-02
2.83500000000E+09 +5.93691101064E-01 -2.12863279519E-01 -2.46366653690E-03 +6.20049327255E-04 -2.38711416265E-03 +6.05302263683E-04 +7.02935786801E-01 -6.69984580648E-02
2.84000000000E+09 +5.72327359740E-01 -2.31767270860E-01 -2.13212384639E-03 +9.59384861697E-04 -2.09977342296E-03 +8.69104618815E-04 +6.91885010304E-01 -8.80942533139E-02
2.84500000000E+09 +5.48914535373E-01 -2.51739260682E-01 -1.98334091331E-03 +1.01688378951E-03 -1.95448271832E-03 +9.95094420125E-04 +6.78969878849E-01 -1.09461368362E-01
2.85000000000E+09 +5.23478963484E-01 -2.72712805799E-01 -1.93743669203E-03 +1.20609362757E-03 -1.90563298654E-03 +1.19277296335E-03 +6.64445746730E-01 -1.30058344288E-01
2.85500000000E+09 +4.96906319102E-01 -2.92669628447E-01 -1.82716703972E-03 +1.37863807090E-03 -1.79796635655E-03 +1.35507618436E-03 +6.48579034335E-01 -1.49735049023E-01
2.86000000000E+09 +4.70365921955E-01 -3.10573511407E-01 -1.66340230102E-03 +1.67211255888E-03 -1.61806280682E-03 +1.56548298435E-03 +6.32923961567E-01 -1.68860361944E-01
2.86500000000E+09 +4.45530583642E-01 -3.26039026170E-01 -1.63936276606E-03 +1.64366019658E-03 -1.71135372577E-03 +1.58687718649E-03 +6.15948550018E-01 -1.88947732902E-01
2.87000000000E+09 +4.21591729558E-01 -3.40742702622E-01 -1.43432200341E-03 +2.38793071528E-03 -1.40664489409E-03 +2.41367571774E-03 +5.97591531906E-01 -2.08571933562E-01
2.87500000000E+09 +3.96541683881E-01 -3.53166403952E-01 -5.76650335652E-04 +2.00412025339E-03 -5.21804989203E-04 +2.06297959892E-03 +5.77450211368E-01 -2.27953364395E-01
2.88000000000E+09 +3.70803468080E-01 -3.63217644550E-01 -1.08951292527E-03 +1.69392504034E-03 -9.63067212268E-04 +1.68621938043E-03 +5.56693181461E-01 -2.45789748098E-01
2.88500000000E+09 +3.42820312600E-01 -3.71406560918E-01 -1.13028762871E-03 +2.55199934004E-03 -9.41714069334E-04 +2.43037570679E-03 +5.35116495214E-01 -2.64533178511E-01
2.89000000000E+09 +3.12054042901E-01 -3.77191193373E-01 -4.86145950883E-04 +2.75243853337E-03 -4.85079599096E-04 +2.55379958921E-03 +5.10771308995E-01 -2.82385674133E-01
2.89500000000E+09 +2.79826397341E-01 -3.80777607271E-01 +3.83677601383E-05 +2.74692500786E-03 -8.33497016193E-05 +2.64200540868E-03 +4.85206355444E-01 -2.99289760300E-01
2.90000000000E+09 +2.45483562121E-01 -3.83730057756E-01 +4.20975527198E-04 +2.78456507093E-03 +3.51405828127E-04 +2.72762831647E-03 +4.58867308260E-01 -3.16142621681E-01
2.90500000000E+09 +2.08949323611E-01 -3.85752010959E-01 +7.91806219803E-04 +2.56606013042E-03 +7.72949947276E-04 +2.64173131957E-03 +4.31056731560E-01 -3.32799620803E-01
2.91000000000E+09 +1.71424571153E-01 -3.85658613379E-01 +1.10371594505E-03 +2.42471589429E-03 +1.19586587177E-03 +2.45130590003E-03 +4.01388107673E-01 -3.49212575403E-01
2.91500000000E+09 +1.34355816720E-01 -3.84279852288E-01 +1.55553009056E-03 +2.37305937961E-03 +1.48559555345E-03 +2.23526000703E-03 +3.68722055486E-01 -3.63290069108E-01
2.92000000000E+09 +9.72970104195E-02 -3.80600911745E-01 +1.87093136339E-03 +1.99401719891E-03 +1.72403751105E-03 +1.89027041627E-03 +3.34321824405E-01 -3.74361221842E-01
2.92500000000E+09 +6.16654952688E-02 -3.73541142889E-01 +2.19903347919E-03 +1.43616426200E-03 +1.96640789926E-03 +1.46676396564E-03 +2.98706685378E-01 -3.82428543807E-01
2.93000000000E+09 +2.87972917561E-02 -3.63720236160E-01 +1.86029410560E-03 +1.00866309221E-03 +1.76789333503E-03 +1.11305717124E-03 +2.62503815317E-01 -3.89269534687E-01
2.93500000000E+09 -2.52508395782E-03 -3.52429770426E-01 +1.88339899436E-03 +1.06814660237E-03 +1.88316565040E-03 +1.18063393906E-03 +2.24433455357E-01 -3.94956882924E-01
2.94000000000E+09 -3.38255153264E-02 -3.38572599885E-01 +2.06225161088E-03 +8.33307198944E-04 +2.03270456824E-03 +8.83580280881E-04 +1.84061399363E-01 -3.98387687021E-01
2.94500000000E+09 -6.44992448903E-02 -3.21706607349E-01 +1.81776433599E-03 +6.49831008803E-04 +1.87502611175E-03 +6.10923037861E-04 +1.44581003779E-01 -3.98099841017E-01
2.95000000000E+09 -9.60509702091E-02 -3.01645464866E-01 +2.14564490587E-03 +5.99261171966E-04 +2.12162331664E-03 +6.83746548771E-04 +1.04550386392E-01 -3.96250236041E-01
2.95500000000E+09 -1.26223129973E-01 -2.78253757710E-01 +2.31000656061E-03 +7.88677762544E-05 +2.37289038496E-03 +2.22876959045E-04 +6.46789316652E-02 -3.91270017021E-01
2.96000000000E+09 -1.55616132955E-01 -2.52952581113E-01 +1.82212019735E-03 -4.27945054987E-04 +1.97729287071E-03 -4.14935697608E-04 +2.34292334748E-02 -3.83399244094E-01
2.96500000000E+09 -1.83204253777E-01 -2.25369290728E-01 +1.48721001077E-03 -3.61239905943E-05 +1.51661963612E-03 -8.63374340096E-05 -1.71975288240E-02 -3.70956710268E-01
2.97000000000E+09 -2.08221575739E-01 -1.97284823867E-01 +1.87006521115E-03 +1.72577290716E-04 +1.78666933171E-03 +1.25158734190E-04 -5.64813538137E-02 -3.56725633916E-01
2.97500000000E+09 -2.31738533649E-01 -1.68060578599E-01 +2.21058257002E-03 -3.19102054011E-04 +2.14470418805E-03 -3.39996739576E-04 -9.55398692963E-02 -3.40741116174E-01
2.98000000000E+09 -2.52573582513E-01 -1.38014590381E-01 +1.71395049578E-03 -7.00835639705E-04 +1.60784584990E-03 -5.83893678873E-04 -1.34250500092E-01 -3.22152152734E-01
2.98500000000E+09 -2.71297128702E-01 -1.06923013461E-01 +1.78104877351E-03 -5.42663498320E-04 +1.80755737059E-03 -4.74379505957E-04 -1.71885642220E-01 -3.00470629371E-01
2.99000000000E+09 -2.87522770689E-01 -7.45261282774E-02 +2.05868387062E-03 -7.80215341268E-04 +2.10430232501E-03 -7.70426605485E-04 -2.08345268663E-01 -2.75174136615E-01
2.99500000000E+09 -3.01159849397E-01 -4.16044087805E-02 +1.72825563232E-03 -1.18577790422E-03 +1.76390506199E-03 -1.31474279889E-03 -2.42643047711E-01 -2.46087298695E-01
3.00000000000E+09 -3.13667735455E-01 -7.89167039928E-03 +1.75425498795E-03 -1.12446838988E-03 +1.70813114844E-03 -1.22096218243E-03 -2.74120731395E-01 -2.14134503826E-01
3.00500000000E+09 -3.23945140224E-01 +2.61608227108E-02 +1.63792622383E-03 -1.52737886272E-03 +1.55903688078E-03 -1.48996399692E-03 -3.03505855325E-01 -1.81579662906E-01
3.01000000000E+09 -3.31678633072E-01 +6.01907257357E-02 +1.51707608310E-03 -1.59530452323E-03 +1.49423171945E-03 -1.56120345583E-03 -3.31085474021E-01 -1.45760345212E-01
3.01500000000E+09 -3.37474405364E-01 +9.33670673510E-02 +1.37503400037E-03 -2.01312406315E-03 +1.55751850276E-03 -1.90310965567E-03 -3.54907918892E-01 -1.09435746853E-01
3.02000000000E+09 -3.40134756891E-01 +1.25465931963E-01 +1.02645639197E-03 -2.40210225624E-03 +1.16500167745E-03 -2.43390683305E-03 -3.75829575465E-01 -7.16705995938E-02
3.02500000000E+09 -3.40108603724E-01 +1.55584542232E-01 +5.11123393154E-04 -2.31194170752E-03 +6.02033677027E-04 -2.35914290527E-03 -3.93319462935E-01 -3.36831357679E-02
3.03000000000E+09 -3.38025470567E-01 +1.83840727255E-01 +3.34914357951E-04 -2.13364445621E-03 +3.65156834670E-04 -2.17671042161E-03 -4.08753775904E-01 +6.04328697095E-03
3.03500000000E+09 -3.33970681346E-01 +2.12209025769E-01 +1.63760578637E-04 -2.07252754645E-03 +1.66093475734E-04 -2.09170850562E-03 -4.21049426643E-01 +4.66749607820E-02
3.04000000000E+09 -3.26524765287E-01 +2.41241217242E-01 +1.90159842277E-04 -2.34642067398E-03 +2.77546086317E-04 -2.45131923071E-03 -4.28995129198E-01 +8.74980323768E-02
3.04500000000E+09 -3.15962911333E-01 +2.69142786041E-01 -3.95426978748E-04 -2.34842637901E-03 -4.41516760407E-04 -2.49900332440E-03 -4.34934273251E-01 +1.27181124581E-01
3.05000000000E+09 -3.04095118803E-01 +2.98483219650E-01 -5.66709891583E-04 -2.14000765727E-03 -7.47567826502E-04 -2.25523173893E-03 -4.38376221161E-01 +1.66067387560E-01
3.05500000000E+09 -2.89297491277E-01 +3.26760877963E-01 -7.28330010053E-04 -2.13057217921E-03 -8.72763387814E-04 -2.14890652648E-03 -4.39943200055E-01 +2.04877424606E-01
3.06000000000E+09 -2.74472525486E-01 +3.53861203566E-01 -1.04160205035E-03 -2.14902629358E-03 -1.13675990629E-03 -1.97794482800E-03 -4.38734550424E-01 +2.42984105682E-01
3.06500000000E+09 -2.59848363143E-01 +3.80159879267E-01 -1.17250133299E-03 -2.14230368784E-03 -1.12953653588E-03 -2.02550241277E-03 -4.35176634676E-01 +2.80572414268E-01
3.07000000000E+09 -2.46450525478E-01 +4.04524389558E-01 -1.96443726028E-03 -2.00704823752E-03 -1.76922811789E-03 -2.06199791799E-03 -4.29423761551E-01 +3.17095076261E-01
