# Hz S RI R 50
! CMT, C1220, 16058040, 17.2.0/1
! Date: 15/08/2018 10:42:30
! Data: Format (Calibration Info)
! Freq                      S11: Re/Im (F2)                       S21: Re/Im (F2)                       S12: Re/Im (F2)                       S22: Re/Im (F2)            
2.50000000000E+09 +5.92399675607E-01 +6.51758867693E-01 +2.47361703469E-05 -4.10288417913E-04 +2.80819341323E-05 -4.41736537965E-04 +5.64486016883E-01 +7.24851948124E-01
2.50500000000E+09 +5.99170602043E-01 +6.43510590985E-01 -9.66072320474E-05 -5.07771874090E-04 -8.44569264335E-05 -4.84260382248E-04 +5.70462768969E-01 +7.19252331916E-01
2.51000000000E+09 +6.06621772103E-01 +6.35123475885E-01 -1.71677241984E-04 -5.07579523079E-04 -1.74593126606E-04 -4.90932632698E-04 +5.76345267352E-01 +7.13939584691E-01
2.51500000000E+09 +6.14416648936E-01 +6.27364624239E-01 -2.72032784896E-04 -4.61920593429E-04 -2.61764714680E-04 -4.58285131062E-04 +5.81811926956E-01 +7.08416733729E-01
2.52000000000E+09 +6.21513701092E-01 +6.19793855183E-01 -2.99341418727E-04 -4.13360085411E-04 -2.97766263349E-04 -4.24053909583E-04 +5.87168656889E-01 +7.02392923432E-01
2.52500000000E+09 +6.27340584578E-01 +6.13283986887E-01 -3.65460228192E-04 -4.62754426362E-04 -3.67445589258E-04 -4.64918851813E-04 +5.93072935953E-01 +6.95804827733E-01
2.53000000000E+09 +6.32275438632E-01 +6.07631795304E-01 -3.93980474828E-04 -4.38965834283E-04 -4.12561239442E-04 -4.34703884698E-04 +5.99349708764E-01 +6.88627235920E-01
2.53500000000E+09 +6.36348522840E-01 +6.02119257590E-01 -5.17908922163E-04 -3.90348995281E-04 -5.49251122580E-04 -3.74431674471E-04 +6.05315873094E-01 +6.81472285199E-01
2.54000000000E+09 +6.39769866128E-01 +5.96151163406E-01 -5.55770506085E-04 -3.13827292058E-04 -5.26421130212E-04 -3.84630247031E-04 +6.10926431777E-01 +6.74629938222E-01
2.54500000000E+09 +6.43366746171E-01 +5.89919919009E-01 -6.43392983811E-04 -2.33846661893E-04 -6.46195763197E-04 -3.03575201975E-04 +6.16321319846E-01 +6.68264301822E-01
2.55000000000E+09 +6.47642939051E-01 +5.82483200274E-01 -6.35151772688E-04 -1.41056217212E-04 -7.38695102904E-04 -2.45254657956E-04 +6.21356817395E-01 +6.62168079961E-01
2.55500000000E+09 +6.53144842814E-01 +5.73372916070E-01 -6.11813316252E-04 -5.84102519551E-05 -7.30250994607E-04 -1.75075156437E-04 +6.26340991862E-01 +6.55868982131E-01
2.56000000000E+09 +6.59729482561E-01 +5.63623434432E-01 -5.99832493519E-04 -7.67475207015E-05 -7.40539608172E-04 -7.50145825636E-05 +6.31250855022E-01 +6.48804237029E-01
2.56500000000E+09 +6.67045571364E-01 +5.53221654048E-01 -6.84847855985E-04 -1.16354166794E-04 -7.90213480796E-04 +2.72566899492E-05 +6.36424906273E-01 +6.41433973238E-01
2.57000000000E+09 +6.74789810701E-01 +5.43198130929E-01 -7.76652870331E-04 +5.63371098643E-07 -7.46950746347E-04 +1.20217243964E-04 +6.41471211374E-01 +6.33687482920E-01
2.57500000000E+09 +6.82515009402E-01 +5.33895869507E-01 -7.48762919562E-04 +6.93088996118E-05 -6.62070801524E-04 +1.41042528338E-04 +6.46773792018E-01 +6.26442185443E-01
2.58000000000E+09 +6.88982295319E-01 +5.25496253376E-01 -8.04847438121E-04 +1.49216254406E-04 -6.59052812485E-04 +1.17014359434E-04 +6.51886534293E-01 +6.19354322259E-01
2.58500000000E+09 +6.94304014704E-01 +5.18393300688E-01 -9.56431236367E-04 +2.13610241906E-04 -7.93913277106E-04 +1.21830544015E-04 +6.57016392682E-01 +6.12245757353E-01
2.59000000000E+09 +6.98368920368E-01 +5.12410575826E-01 -9.30064512476E-04 +4.11624251007E-04 -8.81899687573E-04 +2.94308558766E-04 +6.62112371960E-01 +6.04992214349E-01
2.59500000000E+09 +7.01427166071E-01 +5.06588867900E-01 -8.11804334499E-04 +6.15446573772E-04 -8.88628548205E-04 +5.28938439905E-04 +6.67354084514E-01 +5.97165659556E-01
2.60000000000E+09 +7.03903937037E-01 +5.00000750425E-01 -7.03572256262E-04 +6.06687747003E-04 -7.04102372119E-04 +5.83842035818E-04 +6.73027907945E-01 +5.89028335780E-01
2.60500000000E+09 +7.06570135628E-01 +4.91582574732E-01 -8.01959323628E-04 +5.64851664199E-04 -7.26518064089E-04 +5.91428522383E-04 +6.78830798282E-01 +5.80162198483E-01
2.61000000000E+09 +7.09399912543E-01 +4.81278554006E-01 -8.55542825749E-04 +7.67996003086E-04 -8.29362913649E-04 +7.81620225032E-04 +6.83945387593E-01 +5.71302027863E-01
2.61500000000E+09 +7.13279174036E-01 +4.68894254414E-01 -6.29434092236E-04 +9.77592019152E-04 -6.74947958414E-04 +9.75502584428E-04 +6.89148278115E-01 +5.62660285182E-01
2.62000000000E+09 +7.17704812505E-01 +4.54721005447E-01 -5.59928015968E-04 +9.04124475492E-04 -5.56087248296E-04 +9.52921144812E-04 +6.94196773602E-01 +5.53717203477E-01
2.62500000000E+09 +7.22923396363E-01 +4.39399890187E-01 -5.63324387102E-04 +9.71229791279E-04 -5.02978238871E-04 +1.05450697585E-03 +6.99177777807E-01 +5.44656464738E-01
2.63000000000E+09 +7.28186067725E-01 +4.24046293680E-01 -5.87250200219E-04 +1.17384248353E-03 -4.52724397674E-04 +1.20197853869E-03 +7.03926815724E-01 +5.35211371130E-01
2.63500000000E+09 +7.33035242181E-01 +4.09947683818E-01 -5.01265087566E-04 +1.28011517033E-03 -3.51652983842E-04 +1.22245702320E-03 +7.08403062194E-01 +5.25907989025E-01
2.64000000000E+09 +7.37568125020E-01 +3.97883942397E-01 -3.31332169994E-04 +1.60797111985E-03 -2.30268130308E-04 +1.42022309750E-03 +7.12931380214E-01 +5.16148040646E-01
2.64500000000E+09 +7.41821541628E-01 +3.87511239843E-01 +2.13588770562E-04 +1.63346115470E-03 +7.04021501981E-05 +1.48466376949E-03 +7.17439803903E-01 +5.06454961420E-01
2.65000000000E+09 +7.44632491201E-01 +3.78473267663E-01 +4.02318174487E-04 +1.37391633636E-03 +2.20503588649E-04 +1.34297039660E-03 +7.21539811575E-01 +4.96361967920E-01
2.65500000000E+09 +7.46757786767E-01 +3.70315820879E-01 +3.28072972132E-04 +1.28925808872E-03 +1.88167932170E-04 +1.37040231953E-03 +7.25316104345E-01 +4.85927982578E-01
2.66000000000E+09 +7.48400552241E-01 +3.61971637419E-01 +2.69047453630E-04 +1.44764377913E-03 +2.78661772981E-04 +1.55179622431E-03 +7.29366459197E-01 +4.74965285215E-01
2.66500000000E+09 +7.49966458933E-01 +3.52752745477E-01 +4.77457381038E-04 +1.63074083022E-03 +6.16789121636E-04 +1.68558591285E-03 +7.33444717602E-01 +4.63970116476E-01
2.67000000000E+09 +7.51298267943E-01 +3.41238374675E-01 +9.12892940405E-04 +1.67867042123E-03 +9.44231208094E-04 +1.59633925863E-03 +7.37822498129E-01 +4.53451801545E-01
2.67500000000E+09 +7.52690245538E-01 +3.27711750149E-01 +1.17396164747E-03 +1.52882285201E-03 +1.14264765689E-03 +1.47531021309E-03 +7.41982441283E-01 +4.42548473548E-01
2.68000000000E+09 +7.54329078160E-01 +3.12135621900E-01 +1.42770852746E-03 +1.33636041017E-03 +1.35496484770E-03 +1.30075824925E-03 +7.45906442962E-01 +4.31713206130E-01
2.68500000000E+09 +7.55763193240E-01 +2.95421342941E-01 +1.43182297807E-03 +1.24177412831E-03 +1.35742326693E-03 +1.24943429958E-03 +7.49266723256E-01 +4.20534365737E-01
2.69000000000E+09 +7.57368654106E-01 +2.78256358567E-01 +1.73719393416E-03 +1.17906111088E-03 +1.70311830025E-03 +1.18943895204E-03 +7.52229162796E-01 +4.08976205076E-01
2.69500000000E+09 +7.58953035422E-01 +2.61831901041E-01 +1.94373445575E-03 +1.01466155864E-03 +1.88185544692E-03 +9.29670864911E-04 +7.55389834601E-01 +3.96789580134E-01
2.70000000000E+09 +7.60349181618E-01 +2.46023879755E-01 +2.18918240242E-03 +7.60026238060E-04 +2.10558123988E-03 +7.94252164765E-04 +7.58845057315E-01 +3.83530060931E-01
2.70500000000E+09 +7.61474418278E-01 +2.31754830108E-01 +2.40933468495E-03 +4.51430621120E-04 +2.32178498010E-03 +5.36188779190E-04 +7.61675572600E-01 +3.70244551944E-01
2.71000000000E+09 +7.62463103527E-01 +2.18369564945E-01 +2.49225334914E-03 +6.01693650167E-05 +2.48710967985E-03 +1.85365801623E-04 +7.64884396127E-01 +3.57383099341E-01
2.71500000000E+09 +7.62843569335E-01 +2.05202281112E-01 +2.34102681839E-03 -3.88533017021E-04 +2.50177140141E-03 -3.76625118216E-04 +7.67888373431E-01 +3.44939014748E-01
2.72000000000E+09 +7.63076372766E-01 +1.92344251135E-01 +2.20671054308E-03 -5.72780555421E-04 +2.32666321364E-03 -6.89398470839E-04 +7.70200059937E-01 +3.32212167212E-01
2.72500000000E+09 +7.62947372056E-01 +1.77953210466E-01 +2.19877539996E-03 -6.89107910882E-04 +2.14195079185E-03 -8.88618181947E-04 +7.71990285326E-01 +3.18578898783E-01
2.73000000000E+09 +7.61616002517E-01 +1.62591404697E-01 +2.30998839035E-03 -1.00596958778E-03 +2.00376172852E-03 -1.13196472359E-03 +7.73711043759E-01 +3.04334165944E-01
2.73500000000E+09 +7.59538773170E-01 +1.45939741240E-01 +2.11020536790E-03 -1.36600101330E-03 +1.83235776292E-03 -1.17210526295E-03 +7.75278413797E-01 +2.89262576423E-01
2.74000000000E+09 +7.56838732157E-01 +1.28799221911E-01 +1.79241454292E-03 -1.49947127514E-03 +1.74284087253E-03 -1.14212965976E-03 +7.76927536147E-01 +2.73831839152E-01
2.74500000000E+09 +7.53340951824E-01 +1.10793847552E-01 +1.92501796580E-03 -1.71107713041E-03 +2.07264784449E-03 -1.38796583251E-03 +7.78512746892E-01 +2.58018070824E-01
2.75000000000E+09 +7.48788545857E-01 +9.27144064996E-02 +1.76466886014E-03 -2.06497960528E-03 +2.06957213984E-03 -1.88708276064E-03 +7.79459815964E-01 +2.42224559138E-01
2.75500000000E+09 +7.43792821065E-01 +7.53512979710E-02 +1.53514995297E-03 -2.33979846840E-03 +1.78988476560E-03 -2.39791215271E-03 +7.79202013653E-01 +2.26607516726E-01
2.76000000000E+09 +7.38702140716E-01 +5.79723897620E-02 +1.12775451439E-03 -2.70170901763E-03 +1.28448112252E-03 -2.88690385070E-03 +7.78493734319E-01 +2.10968193329E-01
2.76500000000E+09 +7.33124550705E-01 +4.04979255750E-02 +7.43487497134E-04 -2.63714785467E-03 +7.11995466903E-04 -2.82850959873E-03 +7.77743198082E-01 +1.93978574830E-01
2.77000000000E+09 +7.26888129177E-01 +2.20913722401E-02 +4.81915192200E-04 -2.83314177478E-03 +4.41818785457E-04 -2.97405985121E-03 +7.76197175669E-01 +1.76272822167E-01
2.77500000000E+09 +7.19818537182E-01 +3.25262098912E-03 -4.56581821764E-05 -2.91429888909E-03 -1.56196250861E-04 -3.00161589197E-03 +7.74031353056E-01 +1.58407180553E-01
2.78000000000E+09 +7.12651960023E-01 -1.61236292748E-02 -3.88043645378E-04 -2.66429310765E-03 -5.15991540408E-04 -2.69205842888E-03 +7.71586207328E-01 +1.40574954738E-01
2.78500000000E+09 +7.04980424939E-01 -3.68191307487E-02 -5.10991139932E-04 -2.42758662425E-03 -6.74700911497E-04 -2.39417352666E-03 +7.68946983878E-01 +1.23244541209E-01
2.79000000000E+09 +6.96914471159E-01 -5.76472655678E-02 -5.54092558141E-04 -2.59446926047E-03 -6.27417411857E-04 -2.42352357192E-03 +7.65701812905E-01 +1.06152575136E-01
2.79500000000E+09 +6.88635014047E-01 -7.86096059445E-02 -7.82164620337E-04 -2.77854842060E-03 -7.58560309522E-04 -2.55309575620E-03 +7.61730208091E-01 +8.85044476090E-02
2.80000000000E+09 +6.79717913416E-01 -9.91336883093E-02 -1.37312870802E-03 -2.77298046366E-03 -1.28675876084E-03 -2.63617862717E-03 +7.56796263026E-01 +7.03265011088E-02
2.80500000000E+09 +6.69936080691E-01 -1.18509421582E-01 -1.76232477513E-03 -2.49712521311E-03 -1.63612500926E-03 -2.59904662774E-03 +7.51377409040E-01 +5.17757411352E-02
2.81000000000E+09 +6.59213137022E-01 -1.36107284645E-01 -2.10152779740E-03 -2.12139673321E-03 -2.09247726501E-03 -2.23713634251E-03 +7.45995545178E-01 +3.27686364787E-02
2.81500000000E+09 +6.46874749996E-01 -1.52042414004E-01 -2.07102814759E-03 -2.00710714993E-03 -2.21554436591E-03 -1.97684354569E-03 +7.39800782776E-01 +1.24254281968E-02
2.82000000000E+09 +6.33443131810E-01 -1.66110876375E-01 -2.54845585783E-03 -1.83568179752E-03 -2.65933850717E-03 -1.73270270999E-03 +7.32541213748E-01 -7.82313365161E-03
2.82500000000E+09 +6.18909513895E-01 -1.80142596280E-01 -2.75119124775E-03 -1.37231196437E-03 -2.71542593285E-03 -1.22252231033E-03 +7.24222305017E-01 -2.80463281457E-02
2.83000000000E+09 +6.02081687516E-01 -1.95399174365E-01 -3.00202744801E-03 -1.06944472335E-03 -2.84511334323E-03 -1.02474084885E-03 +7.15282507834E-01 -4.84238375323E-02
2.83500000000E+09 +5.83013969170E-01 -2.11439676939E-01 -2.92795868612E-03 -4.56270202807E-04 -2.82975519542E-03 -5.78376733919E-04 +7.05091882435E-01 -6.90541962093E-02
2.84000000000E+09 +5.61636927088E-01 -2.29389450296E-01 -2.71695837460E-03 -3.73767031122E-04 -2.68458289644E-03 -4.66692011674E-04 +6.94025616712E-01 -9.05227067670E-02
2.84500000000E+09 +5.37923048435E-01 -2.48561062917E-01 -2.81858677492E-03 -2.63427343238E-04 -2.83171189487E-03 -3.15543584943E-04 +6.80673149262E-01 -1.12087807034E-01
2.85000000000E+09 +5.12818040379E-01 -2.68173037116E-01 -3.05105007560E-03 +6.66277900451E-05 -3.03044994943E-03 +4.87080854755E-05 +6.66103493333E-01 -1.32515396840E-01
2.85500000000E+09 +4.86075886040E-01 -2.87264857396E-01 -3.08525664762E-03 +3.74540353125E-04 -3.04526207383E-03 +3.88770284272E-04 +6.50612976758E-01 -1.52457399754E-01
2.86000000000E+09 +4.60031726796E-01 -3.03470461631E-01 -2.90525128718E-03 +9.45689465959E-04 -2.88035954654E-03 +9.30335171835E-04 +6.34898086961E-01 -1.72192632278E-01
2.86500000000E+09 +4.36199022695E-01 -3.18059378091E-01 -2.87016042266E-03 +7.77690468711E-04 -2.92146008600E-03 +7.05383114799E-04 +6.17566564811E-01 -1.93209136737E-01
2.87000000000E+09 +4.12767592736E-01 -3.31850526537E-01 -3.15279042690E-03 +1.68604902949E-03 -3.22857694371E-03 +1.65594056239E-03 +5.98114468189E-01 -2.13072937192E-01
2.87500000000E+09 +3.88906998676E-01 -3.43335000637E-01 -2.34372283978E-03 +1.78188653351E-03 -2.34862176450E-03 +1.76504820233E-03 +5.77470672337E-01 -2.32405074290E-01
2.88000000000E+09 +3.63952585442E-01 -3.53172359708E-01 -2.71298021454E-03 +1.85053033041E-03 -2.58298538012E-03 +1.87675025939E-03 +5.56421860160E-01 -2.50277566521E-01
2.88500000000E+09 +3.35931977621E-01 -3.60346220734E-01 -2.37893854860E-03 +2.58928452557E-03 -2.21227426278E-03 +2.50787640716E-03 +5.34418335000E-01 -2.69209924057E-01
2.89000000000E+09 +3.06580008208E-01 -3.64444409469E-01 -1.93667196677E-03 +2.59933468277E-03 -1.92869863287E-03 +2.36831623794E-03 +5.09238114687E-01 -2.87442099893E-01
2.89500000000E+09 +2.75952268183E-01 -3.67625636115E-01 -1.81983694537E-03 +2.70145152153E-03 -1.90480332081E-03 +2.50167074655E-03 +4.82727313831E-01 -3.04286563421E-01
2.90000000000E+09 +2.43141838237E-01 -3.69904113131E-01 -1.59524034252E-03 +3.17994519486E-03 -1.72254998523E-03 +3.17132373537E-03 +4.55318816685E-01 -3.20958589889E-01
2.90500000000E+09 +2.07978070536E-01 -3.71448976916E-01 -1.23997880696E-03 +3.37005064840E-03 -1.24461349500E-03 +3.43715489237E-03 +4.26334393243E-01 -3.36405487372E-01
2.91000000000E+09 +1.72436756162E-01 -3.71255684371E-01 -4.35774444422E-04 +3.62411305202E-03 -3.23750503365E-04 +3.65770803030E-03 +3.96938912644E-01 -3.51751438439E-01
2.91500000000E+09 +1.36628295861E-01 -3.69876933844E-01 -4.57259985934E-05 +3.46826955419E-03 +2.14138149409E-05 +3.32937545296E-03 +3.64054650446E-01 -3.65333636799E-01
2.92000000000E+09 +1.00607202360E-01 -3.66534603146E-01 +5.74000963092E-04 +3.36928968920E-03 +4.88619363487E-04 +3.21071633084E-03 +3.29546627490E-01 -3.75795736228E-01
2.92500000000E+09 +6.69212543819E-02 -3.58928202185E-01 +5.95609752146E-04 +2.85061336706E-03 +5.10904572680E-04 +2.72796408960E-03 +2.94029716554E-01 -3.83274575009E-01
2.93000000000E+09 +3.58111690905E-02 -3.50092130485E-01 +6.25198399606E-04 +2.91019976544E-03 +4.45722191631E-04 +2.87023673100E-03 +2.57954042652E-01 -3.89960901856E-01
2.93500000000E+09 +5.66810922908E-03 -3.39249927317E-01 +1.00557137365E-03 +2.94511799622E-03 +8.78477264390E-04 +2.99734802549E-03 +2.19619822988E-01 -3.95402538938E-01
2.94000000000E+09 -2.36517577318E-02 -3.25550143274E-01 +1.09530534412E-03 +2.61006111594E-03 +1.11943757535E-03 +2.62836487411E-03 +1.78703985798E-01 -3.98328418168E-01
2.94500000000E+09 -5.27560616282E-02 -3.10476313700E-01 +9.68970790484E-04 +3.05100556308E-03 +9.10717653925E-04 +3.07705026075E-03 +1.39452390596E-01 -3.97023746842E-01
2.95000000000E+09 -8.35282977465E-02 -2.91608170749E-01 +1.97362808557E-03 +3.14884419142E-03 +1.74844247250E-03 +3.20046315514E-03 +9.94789941093E-02 -3.94644895387E-01
2.95500000000E+09 -1.12678607785E-01 -2.68774784213E-01 +2.39812008968E-03 +2.81302835399E-03 +2.32682539787E-03 +2.98769700658E-03 +5.96156677965E-02 -3.89293597769E-01
2.96000000000E+09 -1.40727543845E-01 -2.45231586661E-01 +2.56359772000E-03 +1.89954699704E-03 +2.61038238446E-03 +1.99950436369E-03 +1.82368824244E-02 -3.80757609456E-01
2.96500000000E+09 -1.67780774196E-01 -2.18691607415E-01 +2.09794625647E-03 +1.97842353343E-03 +2.19511350729E-03 +2.02816942342E-03 -2.25196156606E-02 -3.67312606573E-01
2.97000000000E+09 -1.91221985228E-01 -1.91677970244E-01 +2.32700255870E-03 +2.28265803177E-03 +2.45238028731E-03 +2.23197742189E-03 -6.15312215395E-02 -3.51640868872E-01
2.97500000000E+09 -2.13362028952E-01 -1.65229536263E-01 +3.06386825842E-03 +2.50339523658E-03 +2.98471388990E-03 +2.44538380456E-03 -9.94216368118E-02 -3.34593861002E-01
2.98000000000E+09 -2.34987978824E-01 -1.37250994542E-01 +3.90812022744E-03 +2.03096762894E-03 +3.76577084492E-03 +2.12651754073E-03 -1.36960524123E-01 -3.15283599622E-01
2.98500000000E+09 -2.53394778632E-01 -1.07563233395E-01 +4.26411229914E-03 +1.06924731982E-03 +4.29846851389E-03 +1.28256495788E-03 -1.73471253383E-01 -2.93418797341E-01
2.99000000000E+09 -2.69585742197E-01 -7.69328000663E-02 +4.10864097568E-03 +5.76128009998E-04 +4.39242594484E-03 +6.82325063380E-04 -2.08472073161E-01 -2.67520894576E-01
2.99500000000E+09 -2.83461754359E-01 -4.61050576288E-02 +4.28837963621E-03 +2.27301762775E-04 +4.42652327291E-03 +1.62835614105E-04 -2.41055389305E-01 -2.38711915831E-01
3.00000000000E+09 -2.96718202091E-01 -1.39264951493E-02 +4.55668632061E-03 -3.54241818521E-04 +4.53637175298E-03 -6.06783386358E-04 -2.71437103279E-01 -2.07639178744E-01
3.00500000000E+09 -3.06983998353E-01 +1.86754066704E-02 +4.68953153323E-03 -8.75813247338E-04 +4.49253088239E-03 -1.04450086854E-03 -3.00088062389E-01 -1.75671941520E-01
3.01000000000E+09 -3.15875682254E-01 +5.03623273194E-02 +4.40065609558E-03 -2.14981679778E-03 +4.22115244420E-03 -1.98425826205E-03 -3.26669823738E-01 -1.40761437060E-01
3.01500000000E+09 -3.23374559162E-01 +8.26316779162E-02 +3.64278925160E-03 -2.41833736186E-03 +3.68378626169E-03 -2.26770482796E-03 -3.50059743898E-01 -1.05568148855E-01
3.02000000000E+09 -3.26703456089E-01 +1.13670087697E-01 +3.45502297514E-03 -2.70383656128E-03 +3.54695540124E-03 -2.66481167383E-03 -3.70861115400E-01 -6.88992891261E-02
3.02500000000E+09 -3.28135029058E-01 +1.42485799474E-01 +3.28342162775E-03 -2.98102069690E-03 +3.32508074279E-03 -3.05812215758E-03 -3.88556014226E-01 -3.19206740799E-02
3.03000000000E+09 -3.27817045236E-01 +1.70067595204E-01 +2.87279812063E-03 -3.64470301859E-03 +2.88525790236E-03 -3.68424268862E-03 -4.04441924295E-01 +7.49466385620E-03
3.03500000000E+09 -3.24870852999E-01 +1.98258762839E-01 +2.19779504905E-03 -3.84757433628E-03 +2.28370718929E-03 -3.81751606353E-03 -4.16834639098E-01 +4.80261016519E-02
3.04000000000E+09 -3.18324938195E-01 +2.26745566369E-01 +1.55199615485E-03 -4.34944300369E-03 +1.73119029098E-03 -4.43924345794E-03 -4.24260023130E-01 +8.85267629688E-02
3.04500000000E+09 -3.09391272256E-01 +2.54299442854E-01 +8.07371533214E-04 -3.90864701289E-03 +8.76115196463E-04 -4.05973487955E-03 -4.30219793600E-01 +1.27360954892E-01
3.05000000000E+09 -2.98202014445E-01 +2.83573074016E-01 +7.81279255410E-04 -3.83829489676E-03 +7.15242557215E-04 -4.04986564045E-03 -4.33895265700E-01 +1.65748624336E-01
3.05500000000E+09 -2.84585162223E-01 +3.11209135575E-01 +4.77739988301E-04 -4.00263425854E-03 +2.08314156337E-04 -4.13950102461E-03 -4.35679360988E-01 +2.04285022040E-01
3.06000000000E+09 -2.71541539793E-01 +3.38325967251E-01 +1.41881608675E-04 -4.27450337736E-03 -5.60718044018E-05 -4.16809925190E-03 -4.34800547285E-01 +2.41805057883E-01
3.06500000000E+09 -2.58100154237E-01 +3.65112446631E-01 -5.83345376312E-04 -4.58633125635E-03 -5.00699665506E-04 -4.35168703208E-03 -4.31259616644E-01 +2.79223973207E-01
3.07000000000E+09 -2.45659271719E-01 +3.90117217083E-01 -1.66141563272E-03 -4.34406534796E-03 -1.37724133296E-03 -4.35822916665E-03 -4.25539817179E-01 +3.15238661164E-01
