# Hz S RI R 50
! CMT, C1220, 16058040, 17.2.0/1
! Date: 15/08/2018 10:41:46
! Data: Format (Calibration Info)
! Freq                      S11: Re/Im (F2)                       S21: Re/Im (F2)                       S12: Re/Im (F2)                       S22: Re/Im (F2)            
2.50000000000E+09 +5.92759801341E-01 +6.49808217199E-01 +3.11985358268E-05 -3.64684703403E-04 -3.52597293848E-05 -4.07338692964E-04 +5.64024816203E-01 +7.25000827190E-01
2.50500000000E+09 +5.99549049756E-01 +6.41475986120E-01 -1.08315242086E-04 -4.22144199830E-04 -7.89123059961E-05 -4.01309760909E-04 +5.70016484613E-01 +7.19458612074E-01
2.51000000000E+09 +6.06991126756E-01 +6.33167209364E-01 -1.69061528189E-04 -4.22816851277E-04 -1.58029402387E-04 -4.06052793439E-04 +5.75898218027E-01 +7.14130293239E-01
2.51500000000E+09 +6.14773780584E-01 +6.25245686152E-01 -2.84748527106E-04 -4.47964995070E-04 -2.60898699526E-04 -3.90524444158E-04 +5.81370246901E-01 +7.08672661039E-01
2.52000000000E+09 +6.21742967668E-01 +6.17671225616E-01 -2.96307761973E-04 -3.92719262095E-04 -3.20930288270E-04 -4.22036832894E-04 +5.86690357721E-01 +7.02569095645E-01
2.52500000000E+09 +6.27637169802E-01 +6.11193525516E-01 -3.68255247210E-04 -3.81432772998E-04 -3.69071885673E-04 -4.13124031434E-04 +5.92718949661E-01 +6.96161402483E-01
2.53000000000E+09 +6.32438968763E-01 +6.05327858104E-01 -4.39147416078E-04 -3.96072282849E-04 -4.34672261175E-04 -3.50060380244E-04 +5.98926780359E-01 +6.88963752525E-01
2.53500000000E+09 +6.36445782996E-01 +5.99918631157E-01 -5.31426803168E-04 -2.88165067163E-04 -4.77199143688E-04 -3.26437209172E-04 +6.04889015837E-01 +6.81893795351E-01
2.54000000000E+09 +6.39824643863E-01 +5.93970205167E-01 -5.33905174321E-04 -2.24197868668E-04 -5.04574223316E-04 -2.62380524952E-04 +6.10591493742E-01 +6.74962683545E-01
2.54500000000E+09 +6.43242078621E-01 +5.87753063343E-01 -5.31448864740E-04 -1.80041080660E-04 -4.96511239765E-04 -2.21618174660E-04 +6.15892376680E-01 +6.68635561389E-01
2.55000000000E+09 +6.47592943859E-01 +5.80118478978E-01 -5.37353017902E-04 -1.59571000601E-04 -5.83530224778E-04 -2.17477600728E-04 +6.20892185317E-01 +6.62590990262E-01
2.55500000000E+09 +6.52844437621E-01 +5.71091637271E-01 -5.83253572489E-04 -1.06802046813E-04 -7.10669355021E-04 -1.21433294239E-04 +6.25983056508E-01 +6.56322608363E-01
2.56000000000E+09 +6.59338315720E-01 +5.61433663506E-01 -5.69788449786E-04 -7.67658602398E-05 -7.12746675701E-04 -3.51515221569E-05 +6.31019716013E-01 +6.49366279193E-01
2.56500000000E+09 +6.66584428149E-01 +5.51050654004E-01 -6.35966440483E-04 -4.90489808291E-05 -7.48959504228E-04 +6.31698093865E-05 +6.36249786156E-01 +6.41941108452E-01
2.57000000000E+09 +6.74362142817E-01 +5.41097443412E-01 -6.77445124859E-04 +4.57528156871E-06 -6.56077625072E-04 +1.29236581396E-04 +6.41444808284E-01 +6.34154946996E-01
2.57500000000E+09 +6.81950903348E-01 +5.31563061408E-01 -7.10398557463E-04 +2.79924709219E-05 -5.90692859680E-04 +9.65286802635E-05 +6.46714839589E-01 +6.26967059625E-01
2.58000000000E+09 +6.88533811274E-01 +5.23382429864E-01 -7.65776999619E-04 +8.98648295764E-05 -6.29885529497E-04 +1.13582814472E-04 +6.51752488031E-01 +6.19852981841E-01
2.58500000000E+09 +6.93717023797E-01 +5.16251930554E-01 -9.24996094300E-04 +2.27440093736E-04 -7.81903154368E-04 +1.23147656439E-04 +6.56900893272E-01 +6.12628568720E-01
2.59000000000E+09 +6.97685347672E-01 +5.10240020996E-01 -9.08413699155E-04 +4.25243349484E-04 -8.83554764814E-04 +3.15670935744E-04 +6.61996230374E-01 +6.05445208191E-01
2.59500000000E+09 +7.01006127554E-01 +5.04258991558E-01 -8.18480072203E-04 +5.46333761900E-04 -8.15797918599E-04 +5.42466380354E-04 +6.67261949898E-01 +5.97748744127E-01
2.60000000000E+09 +7.03404977111E-01 +4.97658938444E-01 -7.57446481735E-04 +5.59160968748E-04 -7.29526442396E-04 +5.27479838852E-04 +6.73040720270E-01 +5.89576938480E-01
2.60500000000E+09 +7.05871183126E-01 +4.89267925764E-01 -7.82236008354E-04 +6.26070792592E-04 -7.74515502080E-04 +6.29761323835E-04 +6.78866217675E-01 +5.80746514618E-01
2.61000000000E+09 +7.08732888400E-01 +4.79036024103E-01 -8.08099880895E-04 +8.30634302624E-04 -7.89731441401E-04 +8.02274792281E-04 +6.84195976581E-01 +5.71773772911E-01
2.61500000000E+09 +7.12727532892E-01 +4.66715651196E-01 -5.45134182691E-04 +1.02499769368E-03 -5.45669855878E-04 +1.01112356784E-03 +6.89283297736E-01 +5.63235063952E-01
2.62000000000E+09 +7.17147605668E-01 +4.52285260441E-01 -4.41650840360E-04 +9.03745500030E-04 -4.47377475608E-04 +9.36149915855E-04 +6.94391388469E-01 +5.54311594797E-01
2.62500000000E+09 +7.22279944848E-01 +4.36955200253E-01 -4.76867100367E-04 +9.87469755773E-04 -4.13966653488E-04 +1.03497346311E-03 +6.99544216971E-01 +5.45113988938E-01
2.63000000000E+09 +7.27484090660E-01 +4.21692592822E-01 -4.23509615400E-04 +1.17730049279E-03 -2.68125321167E-04 +1.16934513262E-03 +7.04354267988E-01 +5.35651014167E-01
2.63500000000E+09 +7.32392096204E-01 +4.07492441064E-01 -3.99178593966E-04 +1.28169534721E-03 -2.17458856119E-04 +1.18378617497E-03 +7.09020052414E-01 +5.26269270627E-01
2.64000000000E+09 +7.36686940130E-01 +3.95370385343E-01 -1.39004638203E-04 +1.60532256789E-03 -1.40422994350E-04 +1.37766352591E-03 +7.13563855227E-01 +5.16484014315E-01
2.64500000000E+09 +7.40729435921E-01 +3.85238057692E-01 +3.70848287266E-04 +1.58941453551E-03 +2.10139025975E-04 +1.38477543945E-03 +7.17931607961E-01 +5.06661907443E-01
2.65000000000E+09 +7.43533506770E-01 +3.76503463740E-01 +4.55565215922E-04 +1.24779433207E-03 +3.13682157922E-04 +1.24273026620E-03 +7.22133115196E-01 +4.96515691268E-01
2.65500000000E+09 +7.45766688468E-01 +3.68215396763E-01 +3.82477943682E-04 +1.18563713703E-03 +2.89378193954E-04 +1.30499798687E-03 +7.25996987111E-01 +4.86076930259E-01
2.66000000000E+09 +7.47267143205E-01 +3.59849111683E-01 +3.62721591010E-04 +1.33469303867E-03 +4.10764085149E-04 +1.43055406396E-03 +7.30098710769E-01 +4.75100275639E-01
2.66500000000E+09 +7.48675531910E-01 +3.50725346889E-01 +6.57654578179E-04 +1.58156680233E-03 +7.58124956004E-04 +1.63301431020E-03 +7.34152845070E-01 +4.64137994492E-01
2.67000000000E+09 +7.49789157605E-01 +3.39397198256E-01 +1.05464138480E-03 +1.49609164361E-03 +1.08886749101E-03 +1.37940096083E-03 +7.38613289225E-01 +4.53326382580E-01
2.67500000000E+09 +7.51425216555E-01 +3.26173250418E-01 +1.24727792858E-03 +1.34950509999E-03 +1.21652442274E-03 +1.19790565926E-03 +7.42792394482E-01 +4.42319362056E-01
2.68000000000E+09 +7.53005427119E-01 +3.10528748755E-01 +1.38751076498E-03 +1.08290485598E-03 +1.33064794610E-03 +1.08941785334E-03 +7.46621107942E-01 +4.31396066103E-01
2.68500000000E+09 +7.54443962012E-01 +2.93976406037E-01 +1.40495908375E-03 +1.07707207656E-03 +1.32519446331E-03 +1.05456617773E-03 +7.50065535993E-01 +4.20171484689E-01
2.69000000000E+09 +7.56023438144E-01 +2.76969751798E-01 +1.71408030612E-03 +1.05591507689E-03 +1.70194520390E-03 +1.07139218792E-03 +7.52938182596E-01 +4.08402565421E-01
2.69500000000E+09 +7.57595943140E-01 +2.60588485566E-01 +1.95232393678E-03 +8.48604077866E-04 +1.91877149440E-03 +8.45867017827E-04 +7.56057550981E-01 +3.96113823127E-01
2.70000000000E+09 +7.58972985840E-01 +2.44927262751E-01 +2.27678240331E-03 +5.38071564682E-04 +2.23121968236E-03 +5.50079614882E-04 +7.59350411591E-01 +3.82752790050E-01
2.70500000000E+09 +7.60089612280E-01 +2.30697869295E-01 +2.37764068781E-03 +8.80252145406E-05 +2.32989767528E-03 +1.68964996104E-04 +7.62172011566E-01 +3.69531584833E-01
2.71000000000E+09 +7.60949858558E-01 +2.17374116297E-01 +2.30620219591E-03 -2.98152541601E-04 +2.34606638325E-03 -2.10936501207E-04 +7.65300216566E-01 +3.56436490643E-01
2.71500000000E+09 +7.61438342506E-01 +2.04311988263E-01 +2.08697530785E-03 -5.96275952837E-04 +2.22433143816E-03 -6.16804741320E-04 +7.68254043900E-01 +3.43869960911E-01
2.72000000000E+09 +7.61623714232E-01 +1.91523931160E-01 +1.99835554104E-03 -6.86885984762E-04 +2.06708597066E-03 -8.08303178050E-04 +7.70514081342E-01 +3.31115687628E-01
2.72500000000E+09 +7.61539349242E-01 +1.77318015502E-01 +2.09288058726E-03 -8.02564184861E-04 +1.94557290473E-03 -1.01675827707E-03 +7.72061355749E-01 +3.17498754349E-01
2.73000000000E+09 +7.60492473892E-01 +1.61815331831E-01 +2.16083168634E-03 -1.23119605080E-03 +1.83204668378E-03 -1.24349483839E-03 +7.73550651054E-01 +3.03259637092E-01
2.73500000000E+09 +7.58495879090E-01 +1.45032905193E-01 +1.90061759223E-03 -1.64838421191E-03 +1.62636825159E-03 -1.37789850782E-03 +7.75098025176E-01 +2.88196924660E-01
2.74000000000E+09 +7.55715739105E-01 +1.27571651796E-01 +1.60891655123E-03 -1.75165055848E-03 +1.50799530347E-03 -1.43529028277E-03 +7.76652572985E-01 +2.72667182032E-01
2.74500000000E+09 +7.52043795986E-01 +1.09683242082E-01 +1.54963839802E-03 -1.85655770373E-03 +1.67766339035E-03 -1.62896206770E-03 +7.78148901248E-01 +2.57003694318E-01
2.75000000000E+09 +7.47615094689E-01 +9.18754568956E-02 +1.34152976388E-03 -2.17862571271E-03 +1.65787039026E-03 -2.02703285701E-03 +7.79062217048E-01 +2.41183309990E-01
2.75500000000E+09 +7.42764633708E-01 +7.42503987738E-02 +1.12087576433E-03 -2.38544598130E-03 +1.35224364177E-03 -2.44593430797E-03 +7.78879053919E-01 +2.25295973059E-01
2.76000000000E+09 +7.37517860875E-01 +5.69505130367E-02 +6.81771717578E-04 -2.64749152164E-03 +7.82608814689E-04 -2.79709612073E-03 +7.77897188601E-01 +2.09697126886E-01
2.76500000000E+09 +7.31757741821E-01 +3.95982608046E-02 +3.77583673974E-04 -2.47215342761E-03 +3.98764478534E-04 -2.64806157868E-03 +7.76789973472E-01 +1.92755080493E-01
2.77000000000E+09 +7.25721408049E-01 +2.16712452935E-02 +1.37965253848E-04 -2.63711230871E-03 +1.55363866750E-04 -2.77600487872E-03 +7.75141381868E-01 +1.75069608544E-01
2.77500000000E+09 +7.19002880403E-01 +2.88709002586E-03 -2.66813637619E-04 -2.76966895888E-03 -3.57746260752E-04 -2.82635279164E-03 +7.72748206753E-01 +1.57234959922E-01
2.78000000000E+09 +7.12013525119E-01 -1.66898070817E-02 -6.38430279395E-04 -2.58663479964E-03 -7.64514708313E-04 -2.60252481938E-03 +7.70233424386E-01 +1.39646123397E-01
2.78500000000E+09 +7.04007521413E-01 -3.72295875566E-02 -8.79847546567E-04 -2.33758737582E-03 -1.02211555525E-03 -2.25565973882E-03 +7.67470174337E-01 +1.22495392307E-01
2.79000000000E+09 +6.95839476962E-01 -5.77791498909E-02 -9.80584658995E-04 -2.37761639523E-03 -9.68272933388E-04 -2.20314749548E-03 +7.64147049906E-01 +1.05356877342E-01
2.79500000000E+09 +6.87667373536E-01 -7.85867081215E-02 -1.24311876426E-03 -2.44148496523E-03 -1.14610032203E-03 -2.26542943658E-03 +7.60116315933E-01 +8.77001438011E-02
2.80000000000E+09 +6.78815397632E-01 -9.87871594128E-02 -1.67494210461E-03 -2.28881591798E-03 -1.57435358766E-03 -2.24266819661E-03 +7.54934284140E-01 +6.96717665188E-02
2.80500000000E+09 +6.69262761805E-01 -1.17879615522E-01 -1.87907170399E-03 -2.10885034082E-03 -1.79705910029E-03 -2.17322038952E-03 +7.49232503660E-01 +5.12455373047E-02
2.81000000000E+09 +6.58785349864E-01 -1.35341218246E-01 -2.19312551607E-03 -1.95839078513E-03 -2.22157252852E-03 -2.04673938999E-03 +7.43459459723E-01 +3.25899400336E-02
2.81500000000E+09 +6.46598131154E-01 -1.51068844261E-01 -2.44906217717E-03 -1.76991307934E-03 -2.56628435791E-03 -1.76505045415E-03 +7.37301153330E-01 +1.28103636243E-02
2.82000000000E+09 +6.33493958289E-01 -1.65135180077E-01 -2.90880405557E-03 -1.38503835740E-03 -2.92941526476E-03 -1.21465115028E-03 +7.30426885548E-01 -7.08432792056E-03
2.82500000000E+09 +6.19121134569E-01 -1.79232993706E-01 -3.05726331464E-03 -8.65134410229E-04 -3.01720085187E-03 -7.21573087297E-04 +7.22172640921E-01 -2.71827355812E-02
2.83000000000E+09 +6.02320688259E-01 -1.94375774396E-01 -3.25280528886E-03 -3.72043522391E-04 -3.04916810520E-03 -3.22652347301E-04 +7.13428524078E-01 -4.73937803498E-02
2.83500000000E+09 +5.83516232411E-01 -2.10287921135E-01 -3.02306102956E-03 +3.69941541509E-04 -2.92343997421E-03 +2.40186690390E-04 +7.03410205366E-01 -6.80914389679E-02
2.84000000000E+09 +5.62555129857E-01 -2.28246530601E-01 -2.44327541834E-03 +5.45551649252E-04 -2.47931121910E-03 +4.17844607256E-04 +6.92186535355E-01 -8.94600773238E-02
2.84500000000E+09 +5.39073599488E-01 -2.47229160975E-01 -2.32153383307E-03 +3.18724707144E-04 -2.36704296694E-03 +3.21507695018E-04 +6.78684820250E-01 -1.10587744650E-01
2.85000000000E+09 +5.14590614142E-01 -2.67219142559E-01 -2.71526714313E-03 +5.63449062069E-04 -2.68702402890E-03 +5.42747391280E-04 +6.64450381994E-01 -1.30663037537E-01
2.85500000000E+09 +4.88046511474E-01 -2.86411784765E-01 -2.70778517404E-03 +9.52755629101E-04 -2.74897130980E-03 +9.64895247622E-04 +6.49060129644E-01 -1.50484006031E-01
2.86000000000E+09 +4.62386097355E-01 -3.03263889748E-01 -2.50105631562E-03 +1.40130693023E-03 -2.47935753795E-03 +1.42947262732E-03 +6.33790037206E-01 -1.70236068462E-01
2.86500000000E+09 +4.38198384989E-01 -3.18311783979E-01 -2.41155741007E-03 +1.38431989812E-03 -2.44977085393E-03 +1.28477234400E-03 +6.16368309881E-01 -1.91037572800E-01
2.87000000000E+09 +4.14539693812E-01 -3.31885233011E-01 -2.35769995947E-03 +2.24429137994E-03 -2.42015186629E-03 +2.30149608081E-03 +5.97074730343E-01 -2.10922145974E-01
2.87500000000E+09 +3.90667252652E-01 -3.43112901992E-01 -1.44632883482E-03 +2.10598109759E-03 -1.42548696448E-03 +2.13715766029E-03 +5.76174686112E-01 -2.29848863611E-01
2.88000000000E+09 +3.66384915505E-01 -3.52695727689E-01 -1.70861643114E-03 +1.79691418373E-03 -1.58133266155E-03 +1.78979666917E-03 +5.55665886475E-01 -2.47109158712E-01
2.88500000000E+09 +3.39217427518E-01 -3.60158462332E-01 -1.75499950994E-03 +2.33682787798E-03 -1.60244095082E-03 +2.23442419015E-03 +5.34067541922E-01 -2.66014313512E-01
2.89000000000E+09 +3.10137421621E-01 -3.65198845295E-01 -1.52678010836E-03 +2.68283358170E-03 -1.46014108488E-03 +2.44606120040E-03 +5.09403699708E-01 -2.83685640736E-01
2.89500000000E+09 +2.79178556030E-01 -3.68756947257E-01 -1.20700919710E-03 +2.92356254229E-03 -1.26645226533E-03 +2.73458231098E-03 +4.83733456365E-01 -3.00550122405E-01
2.90000000000E+09 +2.46123034000E-01 -3.71441577068E-01 -6.65493335050E-04 +3.35895713475E-03 -8.14229297635E-04 +3.32611988855E-03 +4.56972891297E-01 -3.17503488988E-01
2.90500000000E+09 +2.10996622730E-01 -3.72949360033E-01 -2.17476717022E-04 +3.15850803381E-03 -2.03593522743E-04 +3.22610988326E-03 +4.28503630636E-01 -3.33372985238E-01
2.91000000000E+09 +1.75247178085E-01 -3.73037241821E-01 +3.84666705148E-04 +3.20848342413E-03 +5.36829912108E-04 +3.18650207973E-03 +3.99108562938E-01 -3.49301561873E-01
2.91500000000E+09 +1.39395147594E-01 -3.71445010972E-01 +6.95454188611E-04 +3.15905771519E-03 +7.21138757789E-04 +2.96460501665E-03 +3.66464006422E-01 -3.62668780892E-01
2.92000000000E+09 +1.04291003435E-01 -3.67957918156E-01 +1.43267649631E-03 +2.90535671556E-03 +1.32712632396E-03 +2.74775613208E-03 +3.32655914606E-01 -3.73578263750E-01
2.92500000000E+09 +7.10335488702E-02 -3.61697348050E-01 +1.62644253062E-03 +2.30907735534E-03 +1.44044258546E-03 +2.25893796443E-03 +2.97453633137E-01 -3.81403503680E-01
2.93000000000E+09 +3.92303393730E-02 -3.53624174543E-01 +1.55886043484E-03 +1.94483809957E-03 +1.33754235975E-03 +2.05397037732E-03 +2.61706835850E-01 -3.88456064297E-01
2.93500000000E+09 +8.48731667320E-03 -3.42944026230E-01 +1.64767695111E-03 +1.94834386144E-03 +1.55620067649E-03 +2.01486518575E-03 +2.23708554049E-01 -3.94808268855E-01
2.94000000000E+09 -2.11764879419E-02 -3.29579842134E-01 +1.59171097366E-03 +1.39704481243E-03 +1.59951527836E-03 +1.47995226769E-03 +1.82543494754E-01 -3.98162154120E-01
2.94500000000E+09 -5.08016812221E-02 -3.14088251581E-01 +1.23088727916E-03 +1.91479972558E-03 +1.26325447842E-03 +1.94687376791E-03 +1.43412304616E-01 -3.97367342021E-01
2.95000000000E+09 -8.13109017538E-02 -2.94773514609E-01 +2.36466030593E-03 +1.79442744662E-03 +2.28181608592E-03 +1.90601845455E-03 +1.03416413930E-01 -3.95709035453E-01
2.95500000000E+09 -1.09679898894E-01 -2.72610402813E-01 +2.33840148684E-03 +1.05642315174E-03 +2.35826859572E-03 +1.16375677067E-03 +6.30409776227E-02 -3.90716439539E-01
2.96000000000E+09 -1.38409081749E-01 -2.49696822491E-01 +1.87607593309E-03 +4.48103182408E-04 +1.99615116814E-03 +5.16510215014E-04 +2.17607123679E-02 -3.82169047031E-01
2.96500000000E+09 -1.65709547614E-01 -2.23429802057E-01 +1.39059689648E-03 +1.00904231979E-03 +1.53166905552E-03 +1.02469019913E-03 -1.87662500514E-02 -3.69638723615E-01
2.97000000000E+09 -1.89783065143E-01 -1.97070502888E-01 +1.92143527710E-03 +1.15320236163E-03 +1.99273659064E-03 +1.09431769413E-03 -5.82560645952E-02 -3.54596161058E-01
2.97500000000E+09 -2.13005432963E-01 -1.70194133924E-01 +2.22523993018E-03 +1.10153052428E-03 +2.19996523193E-03 +1.06179560432E-03 -9.64003204772E-02 -3.38321891041E-01
2.98000000000E+09 -2.34408123750E-01 -1.41825192089E-01 +2.45995546319E-03 +9.41570457014E-04 +2.41779151020E-03 +9.73428271247E-04 -1.34793700529E-01 -3.19572744715E-01
2.98500000000E+09 -2.53061705994E-01 -1.12130686611E-01 +2.84911133903E-03 +5.85290040852E-04 +2.90656383529E-03 +7.18605120364E-04 -1.72109842257E-01 -2.97908924535E-01
2.99000000000E+09 -2.69212939607E-01 -8.15577043755E-02 +2.86481201628E-03 +1.33198811138E-04 +2.98300165875E-03 +2.17863938649E-04 -2.07846956912E-01 -2.72088507774E-01
2.99500000000E+09 -2.83225897339E-01 -5.06949542910E-02 +2.90807549166E-03 -2.01546472727E-05 +2.99308051793E-03 -1.12776547811E-04 -2.41076128319E-01 -2.43234708664E-01
3.00000000000E+09 -2.96639655741E-01 -1.90076931641E-02 +3.12468856919E-03 -4.78574354400E-04 +3.05684865990E-03 -6.16565994856E-04 -2.72227987871E-01 -2.12423408250E-01
3.00500000000E+09 -3.07757985028E-01 +1.35379457002E-02 +3.22306770543E-03 -8.91290425039E-04 +3.06062859929E-03 -8.86309103898E-04 -3.01757463764E-01 -1.79977866425E-01
3.01000000000E+09 -3.17227358270E-01 +4.57661628720E-02 +2.95076878623E-03 -1.43365838609E-03 +2.81332793958E-03 -1.31888655572E-03 -3.28909666492E-01 -1.44566660848E-01
3.01500000000E+09 -3.24656111454E-01 +7.84862475978E-02 +2.75698956260E-03 -1.67166186075E-03 +2.76630920329E-03 -1.55774993417E-03 -3.52651864175E-01 -1.09102392508E-01
3.02000000000E+09 -3.28374322927E-01 +1.09817981934E-01 +2.68688763829E-03 -2.05768941539E-03 +2.74461106037E-03 -2.03406783240E-03 -3.73990934167E-01 -7.19291022698E-02
3.02500000000E+09 -3.29660391798E-01 +1.39110431930E-01 +2.34159666018E-03 -2.50369411682E-03 +2.38380866095E-03 -2.41372899277E-03 -3.91938496446E-01 -3.40909677714E-02
3.03000000000E+09 -3.29251882907E-01 +1.66948247250E-01 +1.97538145529E-03 -2.59430508664E-03 +2.02876532079E-03 -2.56006130054E-03 -4.07532564580E-01 +5.69200043016E-03
3.03500000000E+09 -3.26365870961E-01 +1.95083660310E-01 +1.83303707532E-03 -2.96110834788E-03 +1.87641276031E-03 -2.89327391688E-03 -4.20160813643E-01 +4.63639154968E-02
3.04000000000E+09 -3.20026505674E-01 +2.23779735578E-01 +1.25742265185E-03 -3.38151572253E-03 +1.35387262932E-03 -3.43690474725E-03 -4.27912087440E-01 +8.73012955862E-02
3.04500000000E+09 -3.10824591508E-01 +2.51353476899E-01 +5.63447561669E-04 -3.15501106889E-03 +6.09733627378E-04 -3.29911577052E-03 -4.34090556297E-01 +1.26517494565E-01
3.05000000000E+09 -3.00194526602E-01 +2.80491807161E-01 +6.11854241317E-04 -2.96102294503E-03 +5.62122964520E-04 -3.11629551237E-03 -4.37804390320E-01 +1.65462358449E-01
3.05500000000E+09 -2.86964292194E-01 +3.09075803190E-01 +3.42914092602E-04 -3.28499061978E-03 +1.62207217465E-04 -3.35486083461E-03 -4.39782402720E-01 +2.04515290125E-01
3.06000000000E+09 -2.73636539381E-01 +3.37059647567E-01 -1.07491505485E-04 -3.38272537083E-03 -2.13297411594E-04 -3.23240571418E-03 -4.38579247270E-01 +2.43061019988E-01
3.06500000000E+09 -2.59486318900E-01 +3.64158983604E-01 -4.66498610226E-04 -3.62336030614E-03 -4.13275753254E-04 -3.44483288117E-03 -4.34471842335E-01 +2.80733454880E-01
3.07000000000E+09 -2.46486321096E-01 +3.88674100259E-01 -1.39242899103E-03 -3.53004040266E-03 -1.15807281000E-03 -3.53107745432E-03 -4.28631505419E-01 +3.17103644312E-01
