# Hz S RI R 50
! CMT, C1220, 16058040, 17.2.0/1
! Date: 15/08/2018 10:45:36
! Data: Format (Calibration Info)
! Freq                      S11: Re/Im (F2)                       S21: Re/Im (F2)                       S12: Re/Im (F2)                       S22: Re/Im (F2)            
2.50000000000E+09 +5.92794613925E-01 +6.53765229290E-01 -3.76678717820E-05 -4.08371076550E-04 -8.13627433134E-05 -5.09424055258E-04 +5.63306729144E-01 +7.25589417350E-01
2.50500000000E+09 +5.99578684896E-01 +6.45491424038E-01 -1.48797610826E-04 -5.37981948771E-04 -1.63050975119E-04 -5.75920658491E-04 +5.69257098700E-01 +7.20091120981E-01
2.51000000000E+09 +6.07043752247E-01 +6.37238666938E-01 -2.16087256913E-04 -5.15928443751E-04 -2.64704774371E-04 -5.37764395747E-04 +5.75321345276E-01 +7.14725379730E-01
2.51500000000E+09 +6.14834083501E-01 +6.29455054639E-01 -3.47933294251E-04 -5.33713199802E-04 -2.96209929356E-04 -5.06654805463E-04 +5.80760111418E-01 +7.09158013755E-01
2.52000000000E+09 +6.22011084193E-01 +6.22009329616E-01 -4.20761426106E-04 -4.74277360308E-04 -3.29717439739E-04 -4.74358562370E-04 +5.86021821808E-01 +7.03239298810E-01
2.52500000000E+09 +6.27854401780E-01 +6.15456004262E-01 -4.28394666508E-04 -4.95062273315E-04 -4.76041341369E-04 -4.28814488622E-04 +5.92080539711E-01 +6.96733845512E-01
2.53000000000E+09 +6.32834698858E-01 +6.09727131359E-01 -5.18289670486E-04 -3.65804782672E-04 -5.25354653781E-04 -4.29022732150E-04 +5.98318469362E-01 +6.89553149633E-01
2.53500000000E+09 +6.37027926830E-01 +6.04279201607E-01 -5.15168855978E-04 -3.42361268387E-04 -5.52128259886E-04 -3.36929440477E-04 +6.04308031849E-01 +6.82422992755E-01
2.54000000000E+09 +6.40468476207E-01 +5.98355783743E-01 -5.80141328991E-04 -3.20556707616E-04 -5.34966280695E-04 -3.05609099659E-04 +6.09870524525E-01 +6.75680316728E-01
2.54500000000E+09 +6.44011892426E-01 +5.92103568956E-01 -6.77997880702E-04 -2.23549194413E-04 -5.98397719691E-04 -2.75136051980E-04 +6.15378568050E-01 +6.69326001198E-01
2.55000000000E+09 +6.48453269439E-01 +5.84643793497E-01 -6.65055186251E-04 -2.33073949766E-04 -7.11110089041E-04 -3.13181596090E-04 +6.20423335558E-01 +6.63220498647E-01
2.55500000000E+09 +6.53799975641E-01 +5.75649012898E-01 -7.09721837328E-04 -1.49011312639E-04 -8.50629922409E-04 -1.93992911318E-04 +6.25520419804E-01 +6.56790616139E-01
2.56000000000E+09 +6.60450240948E-01 +5.66002157705E-01 -7.08522917991E-04 -1.15269528354E-04 -8.31011481093E-04 -5.19374645758E-05 +6.30520324419E-01 +6.49812579320E-01
2.56500000000E+09 +6.67847315127E-01 +5.55503507832E-01 -8.17001319693E-04 -9.50805448631E-05 -8.43734830852E-04 +6.53178342939E-05 +6.35680148237E-01 +6.42441297762E-01
2.57000000000E+09 +6.75530270206E-01 +5.45554323758E-01 -8.45989701973E-04 -1.56562214963E-05 -8.85119752079E-04 +9.23205472961E-05 +6.40735087723E-01 +6.34825341882E-01
2.57500000000E+09 +6.83244260884E-01 +5.36187208687E-01 -9.11869764062E-04 +8.32857331877E-05 -7.95321255425E-04 +2.02082531450E-04 +6.46087153858E-01 +6.27570185305E-01
2.58000000000E+09 +6.89729441390E-01 +5.27948668802E-01 -9.77795689206E-04 +1.62311058073E-04 -7.76314580207E-04 +1.99462169469E-04 +6.51160570669E-01 +6.20501092620E-01
2.58500000000E+09 +6.95187808421E-01 +5.20682595364E-01 -1.04305560239E-03 +2.90974504199E-04 -8.86257805649E-04 +1.90294400196E-04 +6.56225140353E-01 +6.13372089554E-01
2.59000000000E+09 +6.99126052593E-01 +5.14680518364E-01 -1.05619321270E-03 +4.71125438452E-04 -1.01784694943E-03 +3.84529462423E-04 +6.61440182488E-01 +6.06199039696E-01
2.59500000000E+09 +7.02437706712E-01 +5.08558892476E-01 -9.57337154043E-04 +6.56122203135E-04 -1.01645980476E-03 +5.89843909273E-04 +6.66816116705E-01 +5.98523715186E-01
2.60000000000E+09 +7.04912584042E-01 +5.02075532107E-01 -8.67891306910E-04 +7.07408085143E-04 -8.86262717694E-04 +6.92659150606E-04 +6.72489625751E-01 +5.90302440053E-01
2.60500000000E+09 +7.07581069583E-01 +4.93655295569E-01 -8.64031737176E-04 +8.16705789067E-04 -8.93527744017E-04 +7.32214832378E-04 +6.78323272216E-01 +5.81411304155E-01
2.61000000000E+09 +7.10479503394E-01 +4.83260688106E-01 -9.00907068924E-04 +1.08217159550E-03 -9.44386533410E-04 +1.03322222027E-03 +6.83509062281E-01 +5.72586416956E-01
2.61500000000E+09 +7.14348534893E-01 +4.70836159630E-01 -5.97496805186E-04 +1.21524725979E-03 -6.37662518987E-04 +1.20274876105E-03 +6.88652835929E-01 +5.63973493421E-01
2.62000000000E+09 +7.18811296842E-01 +4.56481259350E-01 -4.95774331829E-04 +1.08558462200E-03 -4.68645292744E-04 +1.15210427581E-03 +6.93838403630E-01 +5.55068193571E-01
2.62500000000E+09 +7.23979137762E-01 +4.41215853226E-01 -4.76314541079E-04 +1.15257091967E-03 -4.10336811221E-04 +1.23528104587E-03 +6.98949030390E-01 +5.45980232099E-01
2.63000000000E+09 +7.29264816544E-01 +4.25954218173E-01 -4.62870302914E-04 +1.26090484639E-03 -3.27541424114E-04 +1.35145234342E-03 +7.03792908151E-01 +5.36458846724E-01
2.63500000000E+09 +7.34246450044E-01 +4.11728303096E-01 -4.26351191162E-04 +1.46562416553E-03 -2.70620597332E-04 +1.36376966882E-03 +7.08272237294E-01 +5.27074059309E-01
2.64000000000E+09 +7.38667809765E-01 +3.99515370213E-01 -2.00796991884E-04 +1.80928905163E-03 -1.31356914027E-04 +1.57674707102E-03 +7.12980094012E-01 +5.17359182896E-01
2.64500000000E+09 +7.42717599807E-01 +3.89281889807E-01 +3.62366640182E-04 +1.84815526031E-03 +1.81802068392E-04 +1.67284950750E-03 +7.17347885963E-01 +5.07612762396E-01
2.65000000000E+09 +7.45544576979E-01 +3.80351472415E-01 +5.66905966589E-04 +1.48154332496E-03 +3.92645034120E-04 +1.43408714547E-03 +7.21662224773E-01 +4.97502279470E-01
2.65500000000E+09 +7.47720140275E-01 +3.72201030196E-01 +4.85040378861E-04 +1.30510282778E-03 +4.00663718144E-04 +1.43306909840E-03 +7.25561455650E-01 +4.87002246418E-01
2.66000000000E+09 +7.49448935807E-01 +3.64019500193E-01 +4.21119395558E-04 +1.52767747444E-03 +4.27439050756E-04 +1.73962806196E-03 +7.29530925730E-01 +4.76059089901E-01
2.66500000000E+09 +7.51021419908E-01 +3.55059422358E-01 +6.41648772452E-04 +1.67821701695E-03 +7.94442227255E-04 +1.77750779379E-03 +7.33661416503E-01 +4.65189560543E-01
2.67000000000E+09 +7.52270613459E-01 +3.43534189813E-01 +1.11174721739E-03 +1.70158333994E-03 +1.15302399768E-03 +1.58724804430E-03 +7.38391715187E-01 +4.54365268388E-01
2.67500000000E+09 +7.53750502473E-01 +3.30277775653E-01 +1.36015180972E-03 +1.62627663050E-03 +1.33542304713E-03 +1.45019835425E-03 +7.42410384795E-01 +4.43281324911E-01
2.68000000000E+09 +7.55501658262E-01 +3.14716471329E-01 +1.59770008877E-03 +1.33473096585E-03 +1.46420821027E-03 +1.30756098260E-03 +7.46316401134E-01 +4.32458063682E-01
2.68500000000E+09 +7.56955770590E-01 +2.98023891448E-01 +1.58047436233E-03 +1.20462465118E-03 +1.59718706316E-03 +1.22538042610E-03 +7.49704386958E-01 +4.21205770018E-01
2.69000000000E+09 +7.58616644394E-01 +2.80955843970E-01 +1.87937645972E-03 +1.25099246080E-03 +1.92432218587E-03 +1.23126048080E-03 +7.52690392287E-01 +4.09481849602E-01
2.69500000000E+09 +7.60319659532E-01 +2.64489244714E-01 +2.20541576722E-03 +1.03984950771E-03 +2.18325008166E-03 +9.31329018280E-04 +7.55942005237E-01 +3.97157486085E-01
2.70000000000E+09 +7.61738328716E-01 +2.48484029860E-01 +2.50428084960E-03 +6.04646937404E-04 +2.38689283006E-03 +6.09942593040E-04 +7.59207544598E-01 +3.83648748834E-01
2.70500000000E+09 +7.62780818169E-01 +2.34184894519E-01 +2.54836065155E-03 +2.40811351339E-04 +2.49927618290E-03 +3.45735405866E-04 +7.62091194793E-01 +3.70616310101E-01
2.71000000000E+09 +7.63721673057E-01 +2.20716757052E-01 +2.54879998933E-03 -1.92155727585E-04 +2.63677073239E-03 -5.19565386239E-06 +7.65355277339E-01 +3.57391044818E-01
2.71500000000E+09 +7.64282939206E-01 +2.07456814800E-01 +2.37981015042E-03 -5.02328191367E-04 +2.54722548064E-03 -5.13936050008E-04 +7.68136884725E-01 +3.44771772184E-01
2.72000000000E+09 +7.64449138404E-01 +1.94678803355E-01 +2.36505834089E-03 -6.37406233297E-04 +2.39550810210E-03 -7.83275688726E-04 +7.70295549416E-01 +3.31897437532E-01
2.72500000000E+09 +7.64288310253E-01 +1.80485070260E-01 +2.41337063841E-03 -8.74051042478E-04 +2.29105573586E-03 -1.10857355148E-03 +7.71933000493E-01 +3.18276564256E-01
2.73000000000E+09 +7.63216010724E-01 +1.65125118234E-01 +2.39705496703E-03 -1.31736098779E-03 +2.08383346797E-03 -1.41134587250E-03 +7.73491808995E-01 +3.04117956974E-01
2.73500000000E+09 +7.61481342065E-01 +1.48462396275E-01 +2.17649134911E-03 -1.71595230933E-03 +1.88307309739E-03 -1.46622207086E-03 +7.74866372741E-01 +2.89132687073E-01
2.74000000000E+09 +7.58768111450E-01 +1.31278296896E-01 +1.89960303688E-03 -1.82432531503E-03 +1.77689629614E-03 -1.47030892422E-03 +7.76526061385E-01 +2.73601563062E-01
2.74500000000E+09 +7.55204404520E-01 +1.13355154914E-01 +1.77992651854E-03 -2.05541099246E-03 +1.92005094096E-03 -1.72443035277E-03 +7.78115063289E-01 +2.57829103674E-01
2.75000000000E+09 +7.50892669173E-01 +9.52005145688E-02 +1.56180262561E-03 -2.30577864509E-03 +1.84202293505E-03 -2.13662393030E-03 +7.78912110197E-01 +2.41953703271E-01
2.75500000000E+09 +7.45962554919E-01 +7.78864103508E-02 +1.30418411109E-03 -2.51799005060E-03 +1.50899821060E-03 -2.58264475231E-03 +7.78521957216E-01 +2.25990454371E-01
2.76000000000E+09 +7.40929053108E-01 +6.03911458864E-02 +9.35636496625E-04 -2.70801886530E-03 +1.07398134167E-03 -2.91620431787E-03 +7.77623829241E-01 +2.10508669014E-01
2.76500000000E+09 +7.35362911398E-01 +4.28604143646E-02 +6.31671441431E-04 -2.62496538962E-03 +6.14242583654E-04 -2.80712993796E-03 +7.76669814814E-01 +1.93570090281E-01
2.77000000000E+09 +7.29343616669E-01 +2.45268750171E-02 +4.67452111461E-04 -2.86730239219E-03 +4.44180249032E-04 -3.00095227020E-03 +7.74840582608E-01 +1.75938203180E-01
2.77500000000E+09 +7.22574537940E-01 +5.52412024880E-03 -5.31118264640E-05 -3.02923742925E-03 -2.01522635351E-04 -3.16152198941E-03 +7.72522147505E-01 +1.58228588709E-01
2.78000000000E+09 +7.15572250874E-01 -1.39361445143E-02 -5.31640406083E-04 -2.79695622489E-03 -6.93211548785E-04 -2.82894882862E-03 +7.70111067610E-01 +1.40664303087E-01
2.78500000000E+09 +7.08000526410E-01 -3.48218047045E-02 -7.00389181495E-04 -2.45783946478E-03 -8.66227982386E-04 -2.31313489902E-03 +7.67459722863E-01 +1.23526895527E-01
2.79000000000E+09 +6.99880335996E-01 -5.57563379081E-02 -6.10642996711E-04 -2.44549759551E-03 -6.25104806247E-04 -2.30965345468E-03 +7.63999999312E-01 +1.06196092149E-01
2.79500000000E+09 +6.91767529205E-01 -7.68205634839E-02 -6.74544973915E-04 -2.67547472805E-03 -6.64073288934E-04 -2.48534146235E-03 +7.59666450399E-01 +8.85085613852E-02
2.80000000000E+09 +6.82908649026E-01 -9.72730876644E-02 -1.14761680850E-03 -2.83906395677E-03 -1.00612936625E-03 -2.72231644058E-03 +7.54432862825E-01 +7.07474729128E-02
2.80500000000E+09 +6.73516503244E-01 -1.16944495285E-01 -1.68158175199E-03 -2.81080207989E-03 -1.49081510274E-03 -2.90246305819E-03 +7.48833335273E-01 +5.25162918907E-02
2.81000000000E+09 +6.62613370911E-01 -1.34707533307E-01 -2.20409085373E-03 -2.42890868730E-03 -2.24677107345E-03 -2.55895913721E-03 +7.43396515417E-01 +3.42392974849E-02
2.81500000000E+09 +6.50360331915E-01 -1.50940555470E-01 -2.20618236867E-03 -2.18542273891E-03 -2.34123110470E-03 -2.15755281713E-03 +7.37706414797E-01 +1.42998633592E-02
2.82000000000E+09 +6.36726888067E-01 -1.65433908924E-01 -2.72157205286E-03 -2.08270122285E-03 -2.83945139285E-03 -1.90770447793E-03 +7.30652579637E-01 -5.85445874412E-03
2.82500000000E+09 +6.22013489510E-01 -1.79593397116E-01 -3.01270281256E-03 -1.52420855034E-03 -2.96131093952E-03 -1.34068448470E-03 +7.22463657896E-01 -2.60062910657E-02
2.83000000000E+09 +6.05090755654E-01 -1.95162569620E-01 -3.12045434464E-03 -1.08057652876E-03 -2.96410301395E-03 -1.03921529805E-03 +7.13495699857E-01 -4.62749987199E-02
2.83500000000E+09 +5.85803211320E-01 -2.11492759740E-01 -2.90881433436E-03 -5.93391094081E-04 -2.76166844650E-03 -6.47087411294E-04 +7.03440369203E-01 -6.67049677567E-02
2.84000000000E+09 +5.64443502126E-01 -2.29355487399E-01 -2.76324225754E-03 -6.80261156648E-04 -2.62605511610E-03 -7.90135752631E-04 +6.92494959107E-01 -8.78690755353E-02
2.84500000000E+09 +5.40731692624E-01 -2.48757074028E-01 -3.14959515266E-03 -7.69556838670E-04 -3.16369117377E-03 -8.18808099800E-04 +6.79155878056E-01 -1.08987335730E-01
2.85000000000E+09 +5.15770406618E-01 -2.68387460576E-01 -3.64569295170E-03 -2.78379494558E-04 -3.63892299564E-03 -2.36011101760E-04 +6.65342043672E-01 -1.29205921999E-01
2.85500000000E+09 +4.89175178784E-01 -2.88033922723E-01 -3.63325744564E-03 +4.60278019136E-04 -3.58409376699E-03 +4.49389915989E-04 +6.50069743585E-01 -1.49227121652E-01
2.86000000000E+09 +4.62707848336E-01 -3.04800299975E-01 -3.39500178506E-03 +1.03891223485E-03 -3.30927997619E-03 +1.01241401844E-03 +6.34562782391E-01 -1.69291886871E-01
2.86500000000E+09 +4.38412069491E-01 -3.19447898179E-01 -3.19368868390E-03 +8.96284414421E-04 -3.09435082574E-03 +8.45396350439E-04 +6.16962437729E-01 -1.90003555931E-01
2.87000000000E+09 +4.14545196146E-01 -3.33276714234E-01 -3.43046029824E-03 +1.65024132815E-03 -3.39635704157E-03 +1.61972083288E-03 +5.97664850166E-01 -2.09685704100E-01
2.87500000000E+09 +3.90315645729E-01 -3.44751637129E-01 -2.70806275838E-03 +1.71624030814E-03 -2.68885379948E-03 +1.76003752529E-03 +5.77199660866E-01 -2.28244367566E-01
2.88000000000E+09 +3.65264696761E-01 -3.54510508299E-01 -3.25017479793E-03 +1.65833534451E-03 -3.03325402949E-03 +1.67158145516E-03 +5.57176552982E-01 -2.45813485028E-01
2.88500000000E+09 +3.37426796751E-01 -3.61923253256E-01 -3.19751618658E-03 +2.55122027609E-03 -2.98379476832E-03 +2.46354216381E-03 +5.35699579380E-01 -2.64858104189E-01
2.89000000000E+09 +3.07548649231E-01 -3.66351979586E-01 -2.91378791696E-03 +2.98329058466E-03 -2.80387305648E-03 +2.72612635003E-03 +5.11371235022E-01 -2.82892047058E-01
2.89500000000E+09 +2.76552148268E-01 -3.69770313617E-01 -2.64164840322E-03 +3.33809149419E-03 -2.70580231118E-03 +3.12781985424E-03 +4.85684413309E-01 -3.00343733670E-01
2.90000000000E+09 +2.43056749895E-01 -3.72129358207E-01 -2.10637987978E-03 +4.02710732289E-03 -2.28382704809E-03 +3.93025577374E-03 +4.58551527723E-01 -3.17519060510E-01
2.90500000000E+09 +2.07453857675E-01 -3.73346567300E-01 -1.56959150036E-03 +4.25829616655E-03 -1.62960425433E-03 +4.32096771638E-03 +4.29847582043E-01 -3.33358335097E-01
2.91000000000E+09 +1.71343641713E-01 -3.73009155588E-01 -8.04818130358E-04 +4.65579637154E-03 -6.19550028081E-04 +4.64163943964E-03 +4.00460030774E-01 -3.49135027892E-01
2.91500000000E+09 +1.34961503636E-01 -3.71171725300E-01 +1.20201231936E-05 +4.58484715764E-03 +5.04062719606E-05 +4.35457083704E-03 +3.68158788594E-01 -3.62673328622E-01
2.92000000000E+09 +9.92722438414E-02 -3.67297349611E-01 +5.85648670714E-04 +4.24395242967E-03 +4.73941846116E-04 +4.01516446081E-03 +3.34222285594E-01 -3.73950072175E-01
2.92500000000E+09 +6.53615783285E-02 -3.59901331857E-01 +9.28618544404E-04 +3.88582389662E-03 +6.81834502482E-04 +3.81388154756E-03 +2.98962694681E-01 -3.82012864154E-01
2.93000000000E+09 +3.37601090824E-02 -3.50775746706E-01 +9.37388076067E-04 +3.77972400968E-03 +7.35900504676E-04 +3.81966377676E-03 +2.62967436894E-01 -3.89526187985E-01
2.93500000000E+09 +3.17238784073E-03 -3.39773446665E-01 +1.46107846239E-03 +4.04399070265E-03 +1.30818766488E-03 +4.14699854268E-03 +2.24463917428E-01 -3.95861957750E-01
2.94000000000E+09 -2.68520879080E-02 -3.25748594378E-01 +1.99197920358E-03 +3.61672692674E-03 +1.86959485925E-03 +3.72344854406E-03 +1.82930182871E-01 -3.98836269265E-01
2.94500000000E+09 -5.63361720078E-02 -3.09729055467E-01 +2.16859501080E-03 +3.88288927404E-03 +2.07679481578E-03 +3.88045947797E-03 +1.43796204700E-01 -3.97574270725E-01
2.95000000000E+09 -8.69683652203E-02 -2.90103379607E-01 +3.35635007111E-03 +3.47173321601E-03 +3.24138534846E-03 +3.55723484391E-03 +1.04232258802E-01 -3.95663512247E-01
2.95500000000E+09 -1.15769065904E-01 -2.66814141557E-01 +3.36722304881E-03 +2.75212067077E-03 +3.35436062319E-03 +2.90541910669E-03 +6.41529330116E-02 -3.90797064635E-01
2.96000000000E+09 -1.43651417842E-01 -2.43168435166E-01 +3.50372925069E-03 +1.88974679270E-03 +3.61713893544E-03 +2.04748252361E-03 +2.31948637713E-02 -3.82934456854E-01
2.96500000000E+09 -1.71015696567E-01 -2.16610605162E-01 +3.01143513213E-03 +1.88400870983E-03 +3.16541324859E-03 +1.84245027286E-03 -1.79676359753E-02 -3.70711936630E-01
2.97000000000E+09 -1.94858504728E-01 -1.89039322743E-01 +3.28943931959E-03 +2.12479798205E-03 +3.28856839105E-03 +1.99983029861E-03 -5.74501865607E-02 -3.55560091278E-01
2.97500000000E+09 -2.16952965515E-01 -1.61873188296E-01 +3.96996901676E-03 +2.24276826653E-03 +3.87199279947E-03 +2.22280111810E-03 -9.58411731941E-02 -3.39257517295E-01
2.98000000000E+09 -2.38526331181E-01 -1.33355315124E-01 +4.94981247525E-03 +1.69587791311E-03 +4.78759998825E-03 +1.79142564308E-03 -1.34428498137E-01 -3.20357165244E-01
2.98500000000E+09 -2.56862456721E-01 -1.02866264331E-01 +5.18090308612E-03 +3.55241826800E-04 +5.21383749185E-03 +6.12997283075E-04 -1.71401247308E-01 -2.98483986908E-01
2.99000000000E+09 -2.72324269857E-01 -7.15697197944E-02 +4.80155380729E-03 -2.90160361315E-04 +5.00443045194E-03 -2.78894488203E-04 -2.06991039273E-01 -2.72968708178E-01
2.99500000000E+09 -2.85618286259E-01 -4.05786839994E-02 +4.59593009758E-03 -4.85237897060E-04 +4.73739622543E-03 -6.53212870360E-04 -2.40170857114E-01 -2.44622290199E-01
3.00000000000E+09 -2.98411928927E-01 -8.52527513586E-03 +5.03427691334E-03 -1.12738950936E-03 +4.97974104152E-03 -1.26914522888E-03 -2.71970913266E-01 -2.14038552604E-01
3.00500000000E+09 -3.08901099635E-01 +2.43167024654E-02 +5.00949446779E-03 -1.82258066378E-03 +4.74936245463E-03 -1.89307244814E-03 -3.01917245084E-01 -1.81209174883E-01
3.01000000000E+09 -3.17358749478E-01 +5.64854993607E-02 +4.59714829214E-03 -2.89214768449E-03 +4.50163229246E-03 -2.64055536063E-03 -3.28695796180E-01 -1.45551215185E-01
3.01500000000E+09 -3.24213844073E-01 +8.87638343228E-02 +3.89498163311E-03 -3.42832672929E-03 +3.94549420553E-03 -3.18623459903E-03 -3.52631752306E-01 -1.10298598217E-01
3.02000000000E+09 -3.27404319851E-01 +1.20115763692E-01 +3.44747186943E-03 -3.63815527501E-03 +3.69786710296E-03 -3.59383558597E-03 -3.73829255024E-01 -7.28894726739E-02
3.02500000000E+09 -3.28224656006E-01 +1.49450729390E-01 +3.10865199170E-03 -4.09229608577E-03 +3.30621720658E-03 -4.08129180507E-03 -3.91855833139E-01 -3.51789516644E-02
3.03000000000E+09 -3.26942910833E-01 +1.76980368994E-01 +2.41961183257E-03 -4.77457208810E-03 +2.44663459595E-03 -4.80874405646E-03 -4.07586258740E-01 +4.31241607226E-03
3.03500000000E+09 -3.23656941751E-01 +2.04644468840E-01 +1.46062050076E-03 -4.72203698986E-03 +1.53280191864E-03 -4.71884447513E-03 -4.20623914745E-01 +4.51118540025E-02
3.04000000000E+09 -3.16930419765E-01 +2.32982796237E-01 +9.22499234987E-04 -4.80683257546E-03 +1.14329407143E-03 -4.93543073484E-03 -4.28256618882E-01 +8.61355217255E-02
3.04500000000E+09 -3.07778227062E-01 +2.60241138572E-01 +1.93328396027E-04 -4.26438494009E-03 +2.57354591525E-04 -4.45919538830E-03 -4.34542853376E-01 +1.25350578146E-01
3.05000000000E+09 -2.96826496842E-01 +2.89463117422E-01 +3.40094097970E-04 -4.29545669143E-03 +2.06973580635E-04 -4.55037554706E-03 -4.38505444437E-01 +1.64245731439E-01
3.05500000000E+09 -2.83185535980E-01 +3.17568533752E-01 -1.44972101983E-05 -4.66309774173E-03 -2.79501215676E-04 -4.68507241508E-03 -4.40435569820E-01 +2.03638115388E-01
3.06000000000E+09 -2.69485670449E-01 +3.44849420617E-01 -7.13505559220E-04 -4.84762677055E-03 -9.26150838328E-04 -4.72797217136E-03 -4.39025467086E-01 +2.42229255701E-01
3.06500000000E+09 -2.55374186107E-01 +3.71297653916E-01 -1.62287884724E-03 -4.86416820220E-03 -1.54317966563E-03 -4.63350429150E-03 -4.35124839638E-01 +2.79524522049E-01
3.07000000000E+09 -2.42651864268E-01 +3.95685228613E-01 -2.74824194930E-03 -4.26722113242E-03 -2.39094447200E-03 -4.33344793880E-03 -4.29523983833E-01 +3.16114853703E-01
