# Hz S RI R 50
! CMT, C1220, 16058040, 17.2.0/1
! Date: 15/08/2018 10:43:43
! Data: Format (Calibration Info)
! Freq                      S11: Re/Im (F2)                       S21: Re/Im (F2)                       S12: Re/Im (F2)                       S22: Re/Im (F2)            
2.50000000000E+09 +5.91652075999E-01 +6.51861750055E-01 -7.15404516263E-05 -2.86411939619E-04 -1.85099636757E-05 -3.24453590646E-04 +5.63680706894E-01 +7.25120066097E-01
2.50500000000E+09 +5.98276733917E-01 +6.43710812388E-01 -7.79529767227E-05 -2.75098766341E-04 -1.36172382300E-04 -2.90142082822E-04 +5.69606196243E-01 +7.19622444780E-01
2.51000000000E+09 +6.05826853946E-01 +6.35556966692E-01 -9.99976758323E-05 -2.96751849471E-04 -1.21641357276E-04 -2.89778765968E-04 +5.75469782590E-01 +7.14202076737E-01
2.51500000000E+09 +6.13466719506E-01 +6.27716139414E-01 -1.75508522843E-04 -3.24957899873E-04 -1.71442315893E-04 -3.36832110674E-04 +5.80930839995E-01 +7.08775244372E-01
2.52000000000E+09 +6.20538099916E-01 +6.20159484527E-01 -2.46666123479E-04 -2.89821009273E-04 -2.53900585261E-04 -3.04522178617E-04 +5.86340814505E-01 +7.02701931501E-01
2.52500000000E+09 +6.26243739722E-01 +6.13745345280E-01 -3.29581045970E-04 -3.45980394189E-04 -3.33121552871E-04 -2.70508625691E-04 +5.92329159679E-01 +6.96183848144E-01
2.53000000000E+09 +6.31200056268E-01 +6.08090109090E-01 -2.94424468687E-04 -2.51933381419E-04 -3.28944747034E-04 -2.73919217580E-04 +5.98581622771E-01 +6.88953922820E-01
2.53500000000E+09 +6.35192373115E-01 +6.02659159553E-01 -4.26486195090E-04 -2.27791337115E-04 -4.27022160190E-04 -2.15657714613E-04 +6.04574530762E-01 +6.81990843591E-01
2.54000000000E+09 +6.38575854651E-01 +5.96788321006E-01 -4.17155508808E-04 -2.11269609538E-04 -4.22456835806E-04 -1.64740339308E-04 +6.10124237653E-01 +6.75220395090E-01
2.54500000000E+09 +6.42055304473E-01 +5.90508890614E-01 -4.90370111584E-04 -1.52736623152E-04 -4.92542660777E-04 -1.76708763794E-04 +6.15626098889E-01 +6.68869108581E-01
2.55000000000E+09 +6.46352412430E-01 +5.83086546163E-01 -5.30181908595E-04 -9.17080782201E-05 -5.81566364011E-04 -1.09693756682E-04 +6.20622965906E-01 +6.62823515084E-01
2.55500000000E+09 +6.51670430626E-01 +5.74209385411E-01 -5.19077965281E-04 +8.34306673682E-06 -6.04740276897E-04 +1.60626156087E-05 +6.25490355608E-01 +6.56474056247E-01
2.56000000000E+09 +6.58204776372E-01 +5.64613008960E-01 -3.98692610816E-04 +3.82659890079E-05 -4.97250110347E-04 +9.75031137338E-05 +6.30571094179E-01 +6.49515641075E-01
2.56500000000E+09 +6.65458313348E-01 +5.54289245571E-01 -5.00591188924E-04 +2.21719053540E-05 -5.80163065829E-04 +9.07703330897E-05 +6.35837639860E-01 +6.42137218221E-01
2.57000000000E+09 +6.73200862780E-01 +5.44369677149E-01 -6.07728264159E-04 +7.03902727480E-05 -5.40817877032E-04 +2.05329809553E-04 +6.40902010024E-01 +6.34501515189E-01
2.57500000000E+09 +6.80873471485E-01 +5.35017595485E-01 -5.91057670885E-04 +1.80344756657E-04 -4.87364953265E-04 +2.14365192447E-04 +6.46244707985E-01 +6.27334536796E-01
2.58000000000E+09 +6.87330465225E-01 +5.26931791790E-01 -5.75287744449E-04 +2.06103827007E-04 -4.42213553134E-04 +1.82365417956E-04 +6.51416452156E-01 +6.20224144843E-01
2.58500000000E+09 +6.92637381792E-01 +5.19868038469E-01 -6.47407186424E-04 +2.69606958309E-04 -5.70960985044E-04 +1.98285244656E-04 +6.56550636184E-01 +6.13051583160E-01
2.59000000000E+09 +6.96564793442E-01 +5.13999568988E-01 -6.67036196788E-04 +4.23189549835E-04 -6.62958910890E-04 +3.14976576304E-04 +6.61691066123E-01 +6.05701924805E-01
2.59500000000E+09 +6.99833990220E-01 +5.08300554240E-01 -6.13707318230E-04 +5.32167209467E-04 -7.04127770487E-04 +5.44696924727E-04 +6.66997500604E-01 +5.98084006863E-01
2.60000000000E+09 +7.02272625239E-01 +5.01658971819E-01 -5.22994040954E-04 +6.35880745561E-04 -5.45323009969E-04 +6.70529528135E-04 +6.72609711005E-01 +5.89943161116E-01
2.60500000000E+09 +7.04783644050E-01 +4.93521367741E-01 -4.58873355186E-04 +6.95147796825E-04 -4.66162039963E-04 +6.63984807379E-04 +6.78451086297E-01 +5.81206948575E-01
2.61000000000E+09 +7.07580562391E-01 +4.83424771837E-01 -4.24233642989E-04 +7.95104746791E-04 -4.42599238066E-04 +7.99607143391E-04 +6.83852675759E-01 +5.72209666433E-01
2.61500000000E+09 +7.11582953554E-01 +4.71288195349E-01 -1.43313974991E-04 +8.35866274305E-04 -2.03968156508E-04 +8.54534857484E-04 +6.89001084350E-01 +5.63624809812E-01
2.62000000000E+09 +7.16038203467E-01 +4.57034966744E-01 -2.39781849179E-04 +6.98912442418E-04 -2.36154944610E-04 +7.89396325331E-04 +6.94079062546E-01 +5.54557442963E-01
2.62500000000E+09 +7.21169267817E-01 +4.41899310815E-01 -3.40146407559E-04 +8.55368329814E-04 -2.47923644391E-04 +9.31712428072E-04 +6.99121178759E-01 +5.45515126061E-01
2.63000000000E+09 +7.26511769080E-01 +4.26798061455E-01 -2.06328840809E-04 +1.00061136865E-03 -5.84271007517E-05 +9.98281142767E-04 +7.03893954638E-01 +5.36027821493E-01
2.63500000000E+09 +7.31482936203E-01 +4.12927571004E-01 -9.21845685112E-05 +1.08101124210E-03 +2.48958659306E-05 +1.01443069301E-03 +7.08348395793E-01 +5.26729714960E-01
2.64000000000E+09 +7.36060914628E-01 +4.00886133895E-01 +1.59684146633E-04 +1.28303465220E-03 +1.61374344701E-04 +1.10420031769E-03 +7.13091474242E-01 +5.17076281025E-01
2.64500000000E+09 +7.40259839192E-01 +3.90751856941E-01 +5.58355165463E-04 +1.20853635259E-03 +4.30765543651E-04 +1.10714305774E-03 +7.17707280769E-01 +5.07160176749E-01
2.65000000000E+09 +7.43161446782E-01 +3.81998312191E-01 +6.62169151441E-04 +8.90870285449E-04 +4.75571998486E-04 +9.33943121922E-04 +7.21863328018E-01 +4.96971579565E-01
2.65500000000E+09 +7.45367867997E-01 +3.73801253036E-01 +5.13409837008E-04 +8.30111250238E-04 +4.75309323139E-04 +8.98775551839E-04 +7.25625030479E-01 +4.86589597169E-01
2.66000000000E+09 +7.47031702508E-01 +3.65739105695E-01 +5.11672328105E-04 +9.61847872714E-04 +5.09144738746E-04 +1.00949881470E-03 +7.29713938231E-01 +4.75683777282E-01
2.66500000000E+09 +7.48565728083E-01 +3.56809483978E-01 +6.97373913015E-04 +1.08085906696E-03 +7.83511283278E-04 +1.10427484660E-03 +7.33940337658E-01 +4.64635316687E-01
2.67000000000E+09 +7.50088099501E-01 +3.45434695892E-01 +9.88335210169E-04 +1.02758796521E-03 +1.00258843159E-03 +9.43093033981E-04 +7.38328822637E-01 +4.53837503684E-01
2.67500000000E+09 +7.51716211208E-01 +3.32201426516E-01 +1.20816822038E-03 +9.90336502140E-04 +1.07775991609E-03 +8.79454498340E-04 +7.42527794902E-01 +4.42912076953E-01
2.68000000000E+09 +7.53464863596E-01 +3.16764725966E-01 +1.40035508712E-03 +7.52798079534E-04 +1.31924261762E-03 +6.71769193302E-04 +7.46516578468E-01 +4.31982942028E-01
2.68500000000E+09 +7.55096839579E-01 +3.00392141514E-01 +1.37301384093E-03 +5.71846745452E-04 +1.30836323007E-03 +6.62728503602E-04 +7.49846513372E-01 +4.20604858540E-01
2.69000000000E+09 +7.56961193413E-01 +2.83487285114E-01 +1.49516845041E-03 +3.92157714375E-04 +1.48923631911E-03 +3.87742449682E-04 +7.52662791635E-01 +4.08900228485E-01
2.69500000000E+09 +7.58887800265E-01 +2.67130689197E-01 +1.58122716265E-03 +3.08470404056E-04 +1.59238347446E-03 +3.45655582143E-04 +7.55874458839E-01 +3.96702899247E-01
2.70000000000E+09 +7.60598776680E-01 +2.51559219317E-01 +1.81914823451E-03 +1.74926741623E-04 +1.77443138687E-03 +1.20931969281E-04 +7.59257932851E-01 +3.83368028547E-01
2.70500000000E+09 +7.61953490835E-01 +2.37357350834E-01 +1.93361584535E-03 -1.56057274039E-04 +1.86118878032E-03 -5.13064093106E-05 +7.62171814190E-01 +3.70171335822E-01
2.71000000000E+09 +7.63219026267E-01 +2.24080109148E-01 +1.95643551602E-03 -5.35363361286E-04 +2.01119323065E-03 -4.33749404244E-04 +7.65263512377E-01 +3.57064706796E-01
2.71500000000E+09 +7.64169926603E-01 +2.11008765147E-01 +1.80137690516E-03 -9.44988987763E-04 +1.90295376506E-03 -9.79391966611E-04 +7.68124623172E-01 +3.44420117414E-01
2.72000000000E+09 +7.64583638818E-01 +1.98030783436E-01 +1.53960138209E-03 -1.05439186024E-03 +1.55297244544E-03 -1.17975283412E-03 +7.70358113236E-01 +3.31747113077E-01
2.72500000000E+09 +7.64574719514E-01 +1.83979890116E-01 +1.50276810381E-03 -1.09316165999E-03 +1.40598871491E-03 -1.22365433570E-03 +7.72003909569E-01 +3.18232379362E-01
2.73000000000E+09 +7.63880233720E-01 +1.68735109998E-01 +1.57161662323E-03 -1.45232652576E-03 +1.33526479849E-03 -1.45264150367E-03 +7.73647369358E-01 +3.03926992295E-01
2.73500000000E+09 +7.62243063693E-01 +1.52001692190E-01 +1.21468652520E-03 -1.82038801076E-03 +1.02883976861E-03 -1.59174581028E-03 +7.75142393777E-01 +2.88921625423E-01
2.74000000000E+09 +7.59892688788E-01 +1.34867970134E-01 +8.00349202739E-04 -1.74890537578E-03 +8.19884472881E-04 -1.55725782610E-03 +7.77025743965E-01 +2.73535930887E-01
2.74500000000E+09 +7.56652152435E-01 +1.16906097071E-01 +7.83066981940E-04 -1.76822570522E-03 +9.70125908861E-04 -1.60262640451E-03 +7.78552240056E-01 +2.57598070226E-01
2.75000000000E+09 +7.52684465342E-01 +9.89053898620E-02 +7.70500082840E-04 -1.97187980121E-03 +9.88802359953E-04 -1.90301628440E-03 +7.79378690997E-01 +2.41660747133E-01
2.75500000000E+09 +7.48156730597E-01 +8.12078805559E-02 +4.91050467486E-04 -2.19941433582E-03 +6.64327284807E-04 -2.39129439408E-03 +7.78979246910E-01 +2.25873168823E-01
2.76000000000E+09 +7.43242840866E-01 +6.36855130865E-02 +3.30791084508E-05 -2.43322555887E-03 +1.42449621642E-04 -2.64711190532E-03 +7.78112790231E-01 +2.10203165070E-01
2.76500000000E+09 +7.37934936364E-01 +4.61904714407E-02 -4.29386782639E-04 -2.35942509054E-03 -5.01747163370E-04 -2.50250501546E-03 +7.77135511929E-01 +1.93384252241E-01
2.77000000000E+09 +7.32273186379E-01 +2.78008883141E-02 -8.16283270710E-04 -2.20062061805E-03 -9.20207561772E-04 -2.28476630741E-03 +7.75724015472E-01 +1.75605134437E-01
2.77500000000E+09 +7.25975836223E-01 +8.79443413439E-03 -1.13910060584E-03 -1.87460656869E-03 -1.23190182348E-03 -1.94436001621E-03 +7.73427968989E-01 +1.57483594293E-01
2.78000000000E+09 +7.19316668966E-01 -1.11155137834E-02 -1.05064709991E-03 -1.68497547789E-03 -1.18978139529E-03 -1.69662072959E-03 +7.70821589997E-01 +1.39658119827E-01
2.78500000000E+09 +7.12066965823E-01 -3.18247055233E-02 -1.24845701415E-03 -1.48936708354E-03 -1.36215464088E-03 -1.46308740221E-03 +7.67743062857E-01 +1.22307084204E-01
2.79000000000E+09 +7.04682856895E-01 -5.32842137369E-02 -1.24795842940E-03 -1.44888276657E-03 -1.29940307036E-03 -1.37774636162E-03 +7.64188693809E-01 +1.05296435331E-01
2.79500000000E+09 +6.96891411715E-01 -7.48655460922E-02 -1.36587068287E-03 -1.54717200747E-03 -1.33066306548E-03 -1.44209182099E-03 +7.59889097742E-01 +8.78100055598E-02
2.80000000000E+09 +6.88430710449E-01 -9.60470196872E-02 -1.87358780576E-03 -1.41408253628E-03 -1.73449773704E-03 -1.31422187894E-03 +7.54942012419E-01 +6.99225722235E-02
2.80500000000E+09 +6.78960602436E-01 -1.16027171217E-01 -1.84269727818E-03 -1.10545592198E-03 -1.77605541735E-03 -1.20345304605E-03 +7.49353634140E-01 +5.13414503608E-02
2.81000000000E+09 +6.68452762942E-01 -1.34075815197E-01 -2.09872279623E-03 -1.00993837166E-03 -2.11868506499E-03 -1.03510318180E-03 +7.43725892097E-01 +3.26899872038E-02
2.81500000000E+09 +6.56650605533E-01 -1.50381213100E-01 -2.24752204463E-03 -6.85147128512E-04 -2.29878266782E-03 -6.18989053886E-04 +7.37373751122E-01 +1.25653565593E-02
2.82000000000E+09 +6.43872531898E-01 -1.65721407745E-01 -2.45191216867E-03 -3.68981342727E-04 -2.33157272303E-03 -2.30072066389E-04 +7.30147913369E-01 -6.96083743901E-03
2.82500000000E+09 +6.29124850049E-01 -1.80906997053E-01 -2.35510478987E-03 +7.16249871323E-06 -2.23541829061E-03 +1.32866190019E-04 +7.22103069052E-01 -2.69726498817E-02
2.83000000000E+09 +6.12314941054E-01 -1.96884019785E-01 -2.29970797520E-03 +1.58928116875E-04 -2.14941279256E-03 +1.37782643704E-04 +7.13256359186E-01 -4.71447850781E-02
2.83500000000E+09 +5.93468428317E-01 -2.13996680692E-01 -2.35683653472E-03 +5.49776575801E-04 -2.22316691951E-03 +4.38225254437E-04 +7.03261113982E-01 -6.77637768905E-02
2.84000000000E+09 +5.71940449620E-01 -2.32850541879E-01 -2.15779586038E-03 +7.66583950406E-04 -2.14300482130E-03 +6.46133724738E-04 +6.92261726009E-01 -8.89683432457E-02
2.84500000000E+09 +5.48378314826E-01 -2.52933527769E-01 -2.13290591540E-03 +9.78466459845E-04 -2.13232010557E-03 +9.45411464039E-04 +6.79266693217E-01 -1.10342441141E-01
2.85000000000E+09 +5.22751747255E-01 -2.73714515889E-01 -2.03956099759E-03 +1.27542390011E-03 -1.94609420085E-03 +1.27982834735E-03 +6.64871369228E-01 -1.31084625158E-01
2.85500000000E+09 +4.96085516349E-01 -2.93621416945E-01 -1.76166735031E-03 +1.45237102442E-03 -1.80142131135E-03 +1.42151830140E-03 +6.48932291215E-01 -1.50985217186E-01
2.86000000000E+09 +4.69603887631E-01 -3.11405399366E-01 -1.66447075667E-03 +1.61509253452E-03 -1.64155698104E-03 +1.54643191955E-03 +6.33204916527E-01 -1.70487973247E-01
2.86500000000E+09 +4.44619783282E-01 -3.26872989697E-01 -1.72663498186E-03 +1.72514775157E-03 -1.73479062117E-03 +1.71584199299E-03 +6.15618887352E-01 -1.90843745332E-01
2.87000000000E+09 +4.20616009480E-01 -3.41527410726E-01 -1.36063446776E-03 +2.50785192399E-03 -1.42191307237E-03 +2.49965918559E-03 +5.96827086222E-01 -2.10337348954E-01
2.87500000000E+09 +3.95499124060E-01 -3.53813875981E-01 -5.18634773611E-04 +2.06308200689E-03 -5.03450016133E-04 +2.08525952160E-03 +5.76329641984E-01 -2.29778719572E-01
2.88000000000E+09 +3.69667952820E-01 -3.63819581074E-01 -9.68194392878E-04 +1.79763505986E-03 -9.08867121638E-04 +1.75878975269E-03 +5.55191588696E-01 -2.47336937360E-01
2.88500000000E+09 +3.41464808700E-01 -3.71774518825E-01 -8.75007482014E-04 +2.60924711364E-03 -7.97287245901E-04 +2.45613714010E-03 +5.33292092895E-01 -2.65835630467E-01
2.89000000000E+09 +3.10715319044E-01 -3.77382589568E-01 -2.64824570455E-04 +2.74067671359E-03 -3.27396694643E-04 +2.56095770690E-03 +5.08640891536E-01 -2.83333454586E-01
2.89500000000E+09 +2.78554129939E-01 -3.80802676498E-01 +2.79176836527E-04 +2.65460661806E-03 +1.62710329383E-04 +2.55403701457E-03 +4.82838089916E-01 -2.99837979305E-01
2.90000000000E+09 +2.44457322741E-01 -3.83831128058E-01 +6.40006538691E-04 +2.51046189134E-03 +5.35890077909E-04 +2.62221428246E-03 +4.56183152037E-01 -3.16054753040E-01
2.90500000000E+09 +2.07868839639E-01 -3.85889596971E-01 +8.19999364529E-04 +2.25960101908E-03 +8.97620063185E-04 +2.25911843553E-03 +4.28574091760E-01 -3.31879308154E-01
2.91000000000E+09 +1.70085639790E-01 -3.85741798391E-01 +1.15869208404E-03 +2.20590911327E-03 +1.20562262750E-03 +2.15837035319E-03 +3.99482401185E-01 -3.47849094776E-01
2.91500000000E+09 +1.32754887124E-01 -3.84136805679E-01 +1.51239809610E-03 +2.04942886577E-03 +1.47596836289E-03 +1.88784703478E-03 +3.67289115097E-01 -3.61637212724E-01
2.92000000000E+09 +9.55209466594E-02 -3.80189456299E-01 +1.79334278803E-03 +1.71456591583E-03 +1.65770710013E-03 +1.60590052048E-03 +3.33444310445E-01 -3.72734297218E-01
2.92500000000E+09 +6.00714597580E-02 -3.72762902688E-01 +1.99118617366E-03 +1.09059331589E-03 +1.86078880637E-03 +1.14302723623E-03 +2.98349593480E-01 -3.80938940614E-01
2.93000000000E+09 +2.70869292285E-02 -3.62844994015E-01 +1.44829839474E-03 +6.75821079256E-04 +1.44259603492E-03 +6.89240862813E-04 +2.62272219265E-01 -3.88216427622E-01
2.93500000000E+09 -4.23911190450E-03 -3.51122162885E-01 +1.41009089538E-03 +1.00862947152E-03 +1.40459342805E-03 +1.01035718527E-03 +2.24153329164E-01 -3.94065421281E-01
2.94000000000E+09 -3.54187842180E-02 -3.36953776213E-01 +1.66694580624E-03 +8.48427948163E-04 +1.55235945542E-03 +8.55319867880E-04 +1.83627798535E-01 -3.97581914376E-01
2.94500000000E+09 -6.59618438248E-02 -3.19884967610E-01 +1.55700020144E-03 +7.32718858881E-04 +1.43056722032E-03 +7.80156074524E-04 +1.44122195424E-01 -3.97234654091E-01
2.95000000000E+09 -9.73833281201E-02 -2.99406888939E-01 +1.81460273868E-03 +7.48233901493E-04 +1.78505442913E-03 +8.19345565524E-04 +1.04099993855E-01 -3.95410860649E-01
2.95500000000E+09 -1.27454871341E-01 -2.75783026156E-01 +1.99828640681E-03 +2.40922980760E-04 +1.97887688382E-03 +3.87302469018E-04 +6.39617751894E-02 -3.90493640530E-01
2.96000000000E+09 -1.56448807600E-01 -2.50017574609E-01 +1.41214751038E-03 -1.36861830417E-04 +1.52338315758E-03 -1.10512354741E-04 +2.22914344124E-02 -3.82482991189E-01
2.96500000000E+09 -1.83493560902E-01 -2.22125465703E-01 +1.20755499441E-03 +4.15538736122E-04 +1.23900378215E-03 +3.91880974602E-04 -1.85746274577E-02 -3.69294527422E-01
2.97000000000E+09 -2.07838300204E-01 -1.93966436261E-01 +1.62347443527E-03 +7.09703529281E-04 +1.71577179499E-03 +6.61564008369E-04 -5.75925635199E-02 -3.54299386505E-01
2.97500000000E+09 -2.30719729668E-01 -1.64750524705E-01 +2.30341978220E-03 +2.20840900217E-04 +2.19860980756E-03 +1.55089856213E-04 -9.58411117241E-02 -3.37741484147E-01
2.98000000000E+09 -2.50990519375E-01 -1.35148625326E-01 +1.87672816472E-03 -2.98211199160E-04 +1.87227726716E-03 -2.10777911360E-04 -1.33709115110E-01 -3.18927360632E-01
2.98500000000E+09 -2.69558271828E-01 -1.04374396685E-01 +1.90716579005E-03 -2.29532823299E-04 +1.96629477345E-03 -1.68605391390E-04 -1.70421267743E-01 -2.97466775627E-01
2.99000000000E+09 -2.85745862176E-01 -7.20410875671E-02 +2.25358039192E-03 -4.45406292294E-04 +2.36561411154E-03 -4.92194539098E-04 -2.06045072598E-01 -2.72620867704E-01
2.99500000000E+09 -2.99023783040E-01 -3.90798286881E-02 +2.06025638486E-03 -9.49096845262E-04 +2.16311569742E-03 -1.02547909844E-03 -2.39998067910E-01 -2.44165483386E-01
3.00000000000E+09 -3.10976363521E-01 -5.65000239108E-03 +2.13856257449E-03 -1.10712905879E-03 +2.03194913091E-03 -1.22001077102E-03 -2.71054070402E-01 -2.12803982815E-01
3.00500000000E+09 -3.21013733975E-01 +2.79554507732E-02 +1.85860336953E-03 -1.54009919746E-03 +1.78198605478E-03 -1.48564815572E-03 -3.00077096037E-01 -1.81011536908E-01
3.01000000000E+09 -3.28605687013E-01 +6.15616060715E-02 +1.65709725706E-03 -1.64267121565E-03 +1.64257459811E-03 -1.53547619011E-03 -3.27693474471E-01 -1.46435552164E-01
3.01500000000E+09 -3.34478227538E-01 +9.43541383496E-02 +1.59613262501E-03 -1.96753802693E-03 +1.63816473812E-03 -1.86170168608E-03 -3.52421637330E-01 -1.10903673265E-01
3.02000000000E+09 -3.37211832091E-01 +1.26343461551E-01 +1.21567685035E-03 -2.37716279730E-03 +1.32188145833E-03 -2.40312208663E-03 -3.74034342875E-01 -7.33287680121E-02
3.02500000000E+09 -3.37061192972E-01 +1.56285040707E-01 +6.30624143330E-04 -2.35936854123E-03 +6.98273791270E-04 -2.36439775181E-03 -3.92067926574E-01 -3.53402793299E-02
3.03000000000E+09 -3.35147707555E-01 +1.84325371639E-01 +3.91849515725E-04 -2.21579902527E-03 +3.65592943477E-04 -2.26442710227E-03 -4.08071544586E-01 +4.37112688722E-03
3.03500000000E+09 -3.30986166978E-01 +2.12728915124E-01 +1.39800985012E-04 -1.89298588828E-03 +2.30584688526E-04 -2.00322089948E-03 -4.20560421657E-01 +4.53828431206E-02
3.04000000000E+09 -3.23201056550E-01 +2.41640585102E-01 +4.39243323987E-04 -2.22963135819E-03 +4.37177194997E-04 -2.25927934341E-03 -4.28679488622E-01 +8.63150095350E-02
3.04500000000E+09 -3.12506860296E-01 +2.69183832782E-01 -9.51515387626E-05 -2.30153323609E-03 -7.95813572145E-05 -2.39120570214E-03 -4.34927372457E-01 +1.26193908734E-01
3.05000000000E+09 -3.00486692011E-01 +2.98120504793E-01 -2.93403565715E-04 -2.10169164592E-03 -3.68310575413E-04 -2.20727389713E-03 -4.38387484703E-01 +1.65467032557E-01
3.05500000000E+09 -2.85783347142E-01 +3.26042005373E-01 -3.58230894145E-04 -2.16255698296E-03 -4.57950977279E-04 -2.16384290360E-03 -4.39624016381E-01 +2.04487339668E-01
3.06000000000E+09 -2.71300935440E-01 +3.52843425470E-01 -6.37375501997E-04 -2.29054081733E-03 -7.64560242840E-04 -2.20335165057E-03 -4.38251046871E-01 +2.42703134911E-01
3.06500000000E+09 -2.56837016257E-01 +3.79030068975E-01 -9.26695242840E-04 -2.36417843598E-03 -8.90458165816E-04 -2.27753352891E-03 -4.34421966729E-01 +2.80046835664E-01
3.07000000000E+09 -2.43426657896E-01 +4.03472360387E-01 -1.75524762235E-03 -2.30443620371E-03 -1.55659171888E-03 -2.30579349371E-03 -4.28366618977E-01 +3.16321845614E-01
