# Hz S RI R 50
! CMT, C1220, 16058040, 17.2.0/1
! Date: 15/08/2018 10:39:56
! Data: Format (Calibration Info)
! Freq                      S11: Re/Im (F2)                       S21: Re/Im (F2)                       S12: Re/Im (F2)                       S22: Re/Im (F2)            
2.50000000000E+09 +5.94805131493E-01 +6.47895413306E-01 -1.03902953047E-04 -6.28801648243E-04 -1.47031210738E-04 -6.33118840165E-04 +5.64848429209E-01 +7.24355775483E-01
2.50500000000E+09 +6.01473710447E-01 +6.39495265970E-01 -2.70498932027E-04 -6.30618690051E-04 -3.51126232779E-04 -6.50950708129E-04 +5.70832193046E-01 +7.18738143915E-01
2.51000000000E+09 +6.08983444748E-01 +6.31188451187E-01 -4.10044628923E-04 -6.05976568868E-04 -4.15875840378E-04 -5.48020744306E-04 +5.76587876096E-01 +7.13479951963E-01
2.51500000000E+09 +6.16820221245E-01 +6.23323881122E-01 -4.77899846079E-04 -5.37112165109E-04 -4.53526482621E-04 -5.23318244400E-04 +5.82109586933E-01 +7.07830725363E-01
2.52000000000E+09 +6.23695913885E-01 +6.15673216423E-01 -5.23881459930E-04 -4.94207474709E-04 -4.31680135363E-04 -5.14786058036E-04 +5.87423992137E-01 +7.01824476604E-01
2.52500000000E+09 +6.29404600693E-01 +6.09262456571E-01 -5.53523095833E-04 -4.86364531766E-04 -6.31289771588E-04 -5.09469868040E-04 +5.93341197267E-01 +6.95353367260E-01
2.53000000000E+09 +6.34279537244E-01 +6.03511897272E-01 -6.11758773315E-04 -4.17055344269E-04 -6.70445420887E-04 -4.74718518744E-04 +5.99666139554E-01 +6.88347673607E-01
2.53500000000E+09 +6.38205963416E-01 +5.98088356356E-01 -7.08062593555E-04 -3.67483877978E-04 -7.39235655821E-04 -3.86704943499E-04 +6.05628945164E-01 +6.81060832189E-01
2.54000000000E+09 +6.41502163362E-01 +5.92244129802E-01 -7.62041724854E-04 -3.38083903039E-04 -7.40246579432E-04 -3.31809403017E-04 +6.11252088217E-01 +6.74181223622E-01
2.54500000000E+09 +6.44932404716E-01 +5.86031592907E-01 -8.74860877523E-04 -1.89450324957E-04 -8.40841404014E-04 -2.39520040128E-04 +6.16601153057E-01 +6.67978636392E-01
2.55000000000E+09 +6.49148015700E-01 +5.78386339193E-01 -8.58262481653E-04 -6.97835470755E-05 -8.68430073694E-04 -2.09652931528E-04 +6.21608803692E-01 +6.61913098612E-01
2.55500000000E+09 +6.54313262677E-01 +5.69430318126E-01 -8.45132563819E-04 +2.23394995029E-05 -9.71946622154E-04 -6.22183416390E-06 +6.26635168382E-01 +6.55556702311E-01
2.56000000000E+09 +6.60814260320E-01 +5.59672040001E-01 -7.68586943192E-04 +6.08594358685E-05 -9.06214084024E-04 +1.29780279871E-04 +6.31661289440E-01 +6.48540652993E-01
2.56500000000E+09 +6.67993033297E-01 +5.49230053783E-01 -8.64547886125E-04 +6.51280912357E-06 -8.89581711169E-04 +1.85260077337E-04 +6.36891206192E-01 +6.41133095463E-01
2.57000000000E+09 +6.75494651949E-01 +5.39088767310E-01 -9.04890750446E-04 +7.72480811570E-05 -8.46276065753E-04 +2.62456438169E-04 +6.41945963742E-01 +6.33435182067E-01
2.57500000000E+09 +6.83002613860E-01 +5.29750850483E-01 -9.75814189695E-04 +1.88971230109E-04 -7.98404861200E-04 +3.30512240326E-04 +6.47296140365E-01 +6.26271684293E-01
2.58000000000E+09 +6.89287852567E-01 +5.21595408732E-01 -9.80672094439E-04 +3.15125774796E-04 -7.83755246047E-04 +3.42868346005E-04 +6.52441261142E-01 +6.19141792064E-01
2.58500000000E+09 +6.94524147546E-01 +5.14612629470E-01 -9.98998384604E-04 +4.82505463049E-04 -9.58046423227E-04 +3.53571706617E-04 +6.57587247091E-01 +6.11851195168E-01
2.59000000000E+09 +6.98388857398E-01 +5.08697810328E-01 -9.80368469723E-04 +6.59255911050E-04 -9.83520237233E-04 +5.33565060627E-04 +6.62622236785E-01 +6.04717199365E-01
2.59500000000E+09 +7.01455446892E-01 +5.02863213838E-01 -8.55343620034E-04 +7.84002667444E-04 -8.98668202743E-04 +6.97754082072E-04 +6.67970272477E-01 +5.96935955896E-01
2.60000000000E+09 +7.03881994071E-01 +4.96155659926E-01 -7.88824852976E-04 +8.02687798750E-04 -8.30857045945E-04 +7.98671476614E-04 +6.73510142078E-01 +5.88783646871E-01
2.60500000000E+09 +7.06352157313E-01 +4.87795000063E-01 -7.98866387558E-04 +8.35940039511E-04 -8.29579682613E-04 +8.30709323447E-04 +6.79295572753E-01 +5.80055308266E-01
2.61000000000E+09 +7.09162080808E-01 +4.77462488430E-01 -8.19348483937E-04 +1.11628000042E-03 -8.47622291879E-04 +1.12834524645E-03 +6.84661930610E-01 +5.71154234388E-01
2.61500000000E+09 +7.12798335851E-01 +4.65018074435E-01 -4.73186839852E-04 +1.22376082212E-03 -5.12057096790E-04 +1.25024281488E-03 +6.89882557492E-01 +5.62486702599E-01
2.62000000000E+09 +7.17322101790E-01 +4.50821750933E-01 -4.30942962367E-04 +1.02391020399E-03 -4.13640737343E-04 +1.16063249843E-03 +6.95079519091E-01 +5.53444631064E-01
2.62500000000E+09 +7.22552799839E-01 +4.35625418511E-01 -5.07349841915E-04 +1.18468090921E-03 -4.43865047735E-04 +1.25895217247E-03 +7.00062070373E-01 +5.44414105454E-01
2.63000000000E+09 +7.28008407359E-01 +4.20256360956E-01 -4.35684334118E-04 +1.39316693269E-03 -2.33796507379E-04 +1.39698642457E-03 +7.04793428508E-01 +5.34888900938E-01
2.63500000000E+09 +7.32822606056E-01 +4.06209022446E-01 -2.68235929179E-04 +1.49964249232E-03 -1.00949269976E-04 +1.33836305393E-03 +7.09278097816E-01 +5.25482569323E-01
2.64000000000E+09 +7.37571926937E-01 +3.94160255473E-01 -7.36431978273E-05 +1.74723742118E-03 -2.20316375383E-05 +1.48285392514E-03 +7.13783427249E-01 +5.15768036309E-01
2.64500000000E+09 +7.41525623717E-01 +3.83880106778E-01 +3.96035972978E-04 +1.73434930450E-03 +2.04326629706E-04 +1.50512326892E-03 +7.18358541420E-01 +5.05934641715E-01
2.65000000000E+09 +7.44201357078E-01 +3.75191037397E-01 +5.23074391613E-04 +1.43441171480E-03 +3.10877173597E-04 +1.42881079721E-03 +7.22532066212E-01 +4.95707925983E-01
2.65500000000E+09 +7.46424558192E-01 +3.66993180815E-01 +4.95506015723E-04 +1.38831280275E-03 +3.39364591970E-04 +1.41551711458E-03 +7.26321070267E-01 +4.85231097972E-01
2.66000000000E+09 +7.48044092265E-01 +3.58856704972E-01 +4.57095087183E-04 +1.54858481681E-03 +4.56387377507E-04 +1.67541248796E-03 +7.30371907861E-01 +4.74174951467E-01
2.66500000000E+09 +7.49631159053E-01 +3.49603055861E-01 +7.43585568375E-04 +1.72729772664E-03 +8.30817719889E-04 +1.74339656566E-03 +7.34334996838E-01 +4.63175118665E-01
2.67000000000E+09 +7.50973058479E-01 +3.38107942861E-01 +1.11696627666E-03 +1.69041690020E-03 +1.20581727212E-03 +1.58417089002E-03 +7.38767200918E-01 +4.52560625432E-01
2.67500000000E+09 +7.52425324447E-01 +3.24567193251E-01 +1.43152713961E-03 +1.55388321173E-03 +1.34216993353E-03 +1.41922529655E-03 +7.42957493400E-01 +4.41677590443E-01
2.68000000000E+09 +7.53858707378E-01 +3.09039724427E-01 +1.65594621322E-03 +1.26451143327E-03 +1.53789607718E-03 +1.24072338420E-03 +7.46894196060E-01 +4.30730013919E-01
2.68500000000E+09 +7.55150571993E-01 +2.92502442955E-01 +1.64624099210E-03 +1.18032499727E-03 +1.58113783445E-03 +1.13439984624E-03 +7.50153357399E-01 +4.19411150040E-01
2.69000000000E+09 +7.56803849559E-01 +2.75746308143E-01 +1.83019681030E-03 +1.00236771323E-03 +1.86955685793E-03 +9.98944716066E-04 +7.52868636528E-01 +4.07702882658E-01
2.69500000000E+09 +7.58442164283E-01 +2.59378024598E-01 +1.97364086371E-03 +8.82204290985E-04 +1.95776615295E-03 +8.68366628892E-04 +7.56088734477E-01 +3.95597011947E-01
2.70000000000E+09 +7.59786234165E-01 +2.43917343210E-01 +2.21643085267E-03 +7.29569728779E-04 +2.16578888695E-03 +6.26098625845E-04 +7.59509494805E-01 +3.82192833064E-01
2.70500000000E+09 +7.61034697178E-01 +2.29827160574E-01 +2.46881451785E-03 +4.49372788254E-04 +2.36848336408E-03 +5.47793556381E-04 +7.62274112789E-01 +3.68940670853E-01
2.71000000000E+09 +7.61942906679E-01 +2.16373069190E-01 +2.64779208321E-03 -3.78897524716E-05 +2.70578366309E-03 +1.42355420031E-04 +7.65462984773E-01 +3.56109234121E-01
2.71500000000E+09 +7.62370981273E-01 +2.03415150790E-01 +2.55057529285E-03 -5.83079203430E-04 +2.67316523720E-03 -5.91926839600E-04 +7.68481253827E-01 +3.43445547599E-01
2.72000000000E+09 +7.62418518127E-01 +1.90312924562E-01 +2.25655584634E-03 -7.96270514804E-04 +2.30857413685E-03 -1.00005462012E-03 +7.70664549046E-01 +3.30798960481E-01
2.72500000000E+09 +7.62017243827E-01 +1.76058438645E-01 +2.17151285739E-03 -9.15874018209E-04 +2.06065571819E-03 -1.10613169030E-03 +7.72393939734E-01 +3.17049627209E-01
2.73000000000E+09 +7.60886004899E-01 +1.60772894898E-01 +2.20516098119E-03 -1.12437226506E-03 +1.90344812432E-03 -1.21582855885E-03 +7.73878531987E-01 +3.02814038557E-01
2.73500000000E+09 +7.59099225887E-01 +1.44062563316E-01 +1.96579761180E-03 -1.44928661903E-03 +1.73871141680E-03 -1.26971468666E-03 +7.75335184089E-01 +2.87814631559E-01
2.74000000000E+09 +7.56657394229E-01 +1.26648960956E-01 +1.80113817885E-03 -1.45553045275E-03 +1.68684223209E-03 -1.15139175771E-03 +7.77247730811E-01 +2.72390309461E-01
2.74500000000E+09 +7.52986784185E-01 +1.08335060713E-01 +1.86836259744E-03 -1.75578764714E-03 +1.97191514176E-03 -1.41392311582E-03 +7.78759409659E-01 +2.56534542707E-01
2.75000000000E+09 +7.48548165088E-01 +9.03283316937E-02 +1.79836874146E-03 -1.97331680746E-03 +2.03676782160E-03 -1.83949752616E-03 +7.79543642315E-01 +2.40656975985E-01
2.75500000000E+09 +7.43644144391E-01 +7.30365313992E-02 +1.62235507095E-03 -2.36937031040E-03 +1.85427048630E-03 -2.41871241238E-03 +7.79089033774E-01 +2.24934802143E-01
2.76000000000E+09 +7.38917258686E-01 +5.58292777601E-02 +1.13670170148E-03 -2.70349280467E-03 +1.29883801471E-03 -2.89778776862E-03 +7.78312013506E-01 +2.09377910320E-01
2.76500000000E+09 +7.33516133548E-01 +3.83222029841E-02 +7.97895244900E-04 -2.68969409597E-03 +7.86686026482E-04 -2.87350901912E-03 +7.77248896266E-01 +1.92481733242E-01
2.77000000000E+09 +7.27417389650E-01 +2.01130360098E-02 +2.96621063206E-04 -2.83026786274E-03 +2.75571429201E-04 -2.94066703444E-03 +7.75742628071E-01 +1.74915715788E-01
2.77500000000E+09 +7.20894796974E-01 +1.53385044216E-03 -6.22073224577E-05 -2.59684120266E-03 -1.67495783778E-04 -2.75997692981E-03 +7.73733859839E-01 +1.56946247462E-01
2.78000000000E+09 +7.14098380007E-01 -1.79801695899E-02 -1.35558491822E-04 -2.39834095186E-03 -3.26276484775E-04 -2.43993796670E-03 +7.71122032754E-01 +1.38998321935E-01
2.78500000000E+09 +7.06728318743E-01 -3.86621572348E-02 -1.03499858409E-04 -2.33571566550E-03 -2.39077355036E-04 -2.34458777469E-03 +7.68255790916E-01 +1.21681995237E-01
2.79000000000E+09 +6.98903726376E-01 -5.99451373228E-02 -6.70982804130E-05 -2.69044275969E-03 -2.39389010407E-04 -2.59468913926E-03 +7.64866209328E-01 +1.04638276524E-01
2.79500000000E+09 +6.90583217164E-01 -8.13499374551E-02 -5.81693748174E-04 -3.09598246298E-03 -4.85615980364E-04 -2.93331107603E-03 +7.60875347381E-01 +8.70436163194E-02
2.80000000000E+09 +6.81498177375E-01 -1.01934933860E-01 -1.30379565313E-03 -3.03388646924E-03 -1.15895975947E-03 -2.96145084710E-03 +7.55769920448E-01 +6.88981172897E-02
2.80500000000E+09 +6.71970762473E-01 -1.21260553761E-01 -1.60733480558E-03 -2.70669686554E-03 -1.51348846051E-03 -2.79894644518E-03 +7.50172312449E-01 +5.03886298716E-02
2.81000000000E+09 +6.61549877250E-01 -1.39061959028E-01 -2.01177617055E-03 -2.52467917131E-03 -2.01779750068E-03 -2.59703100159E-03 +7.44594526497E-01 +3.16496826867E-02
2.81500000000E+09 +6.49203318693E-01 -1.55083388357E-01 -2.20925988336E-03 -2.22007996916E-03 -2.32040878073E-03 -2.26380229015E-03 +7.38427462793E-01 +1.13442591279E-02
2.82000000000E+09 +6.36301760335E-01 -1.69710126978E-01 -2.55616888525E-03 -1.99691162089E-03 -2.64580055790E-03 -1.90478761034E-03 +7.31136138782E-01 -8.72281688395E-03
2.82500000000E+09 +6.21430266468E-01 -1.84227659631E-01 -2.69315996664E-03 -1.64309066491E-03 -2.62743948827E-03 -1.43998879311E-03 +7.22861880743E-01 -2.88477905311E-02
2.83000000000E+09 +6.04699054222E-01 -1.99603907833E-01 -2.91523090828E-03 -1.41042158880E-03 -2.70424330120E-03 -1.26769760619E-03 +7.13663216576E-01 -4.91337107651E-02
2.83500000000E+09 +5.85470742694E-01 -2.16172716557E-01 -2.96634305586E-03 -1.09005320290E-03 -2.81247176325E-03 -1.13877922933E-03 +7.03584498464E-01 -6.96733110486E-02
2.84000000000E+09 +5.63884056173E-01 -2.34354594396E-01 -3.17842185435E-03 -7.64617184956E-04 -3.13895639635E-03 -8.91915408620E-04 +6.92444722210E-01 -9.08416614510E-02
2.84500000000E+09 +5.40130036113E-01 -2.53967201961E-01 -3.18637298308E-03 -3.71345593271E-04 -3.18218458482E-03 -4.15994216978E-04 +6.79221996219E-01 -1.12184890509E-01
2.85000000000E+09 +5.14720035565E-01 -2.74132951315E-01 -3.05611320634E-03 +1.13320145064E-05 -3.07408474200E-03 -1.97294405082E-05 +6.64714153315E-01 -1.32981707583E-01
2.85500000000E+09 +4.87787501055E-01 -2.93491924934E-01 -3.12502820733E-03 +1.90353069481E-04 -3.10459790032E-03 +2.10177707300E-04 +6.48860461132E-01 -1.52914179030E-01
2.86000000000E+09 +4.61436040220E-01 -3.10573405615E-01 -2.89197334328E-03 +5.68462724481E-04 -2.85276803101E-03 +5.04940649676E-04 +6.32943515671E-01 -1.72475997678E-01
2.86500000000E+09 +4.37024330781E-01 -3.25769206244E-01 -3.14906357949E-03 +3.11412044059E-04 -3.06997404568E-03 +2.86933804253E-04 +6.15333324715E-01 -1.92963149730E-01
2.87000000000E+09 +4.12951328216E-01 -3.39969065250E-01 -3.39295478089E-03 +1.15049266560E-03 -3.41103495803E-03 +1.21138869577E-03 +5.96213619206E-01 -2.12213892862E-01
2.87500000000E+09 +3.88344455745E-01 -3.51878645853E-01 -2.95458940171E-03 +1.31849041678E-03 -2.98447411416E-03 +1.28408817255E-03 +5.75869352644E-01 -2.31336070926E-01
2.88000000000E+09 +3.62498206629E-01 -3.61585578302E-01 -3.31665651356E-03 +1.37860533039E-03 -3.22432634027E-03 +1.43910088216E-03 +5.55054130620E-01 -2.49184033526E-01
2.88500000000E+09 +3.34624168000E-01 -3.68166119329E-01 -3.19931255055E-03 +2.13727348686E-03 -3.02388636698E-03 +2.10575495215E-03 +5.32822134407E-01 -2.68108550049E-01
2.89000000000E+09 +3.05616682165E-01 -3.72869066195E-01 -3.04601584109E-03 +2.54328398729E-03 -2.99393306767E-03 +2.41790131990E-03 +5.07780717835E-01 -2.85804029792E-01
2.89500000000E+09 +2.74369272852E-01 -3.76800883610E-01 -2.74792122911E-03 +3.07359844637E-03 -2.81545991981E-03 +2.82782655902E-03 +4.81589386783E-01 -3.02258566466E-01
2.90000000000E+09 +2.40744070503E-01 -3.79905794357E-01 -2.27542801047E-03 +3.50435914296E-03 -2.35977760146E-03 +3.45753242176E-03 +4.54649725619E-01 -3.18402554627E-01
2.90500000000E+09 +2.04328227728E-01 -3.81560314580E-01 -1.98569793049E-03 +3.67182746224E-03 -2.03760708293E-03 +3.75929071343E-03 +4.26585359566E-01 -3.33931430493E-01
2.91000000000E+09 +1.67634835852E-01 -3.81212434265E-01 -1.52045527228E-03 +4.05656299715E-03 -1.40569977301E-03 +4.06903641968E-03 +3.97615939823E-01 -3.50019374733E-01
2.91500000000E+09 +1.30976292579E-01 -3.79383371923E-01 -9.12742591135E-04 +4.54300337260E-03 -7.26567671416E-04 +4.43316416127E-03 +3.64707149759E-01 -3.63692763662E-01
2.92000000000E+09 +9.46291655943E-02 -3.75150056299E-01 +5.53278099979E-05 +4.56182378217E-03 -1.05245524298E-05 +4.30739665322E-03 +3.30427568721E-01 -3.74261153708E-01
2.92500000000E+09 +6.07316484718E-02 -3.67811677464E-01 +6.47480748771E-04 +4.23174005757E-03 +4.63658938455E-04 +4.10993237577E-03 +2.95087673546E-01 -3.82049431858E-01
2.93000000000E+09 +2.89469040238E-02 -3.59024189026E-01 +9.48620043378E-04 +3.81820622102E-03 +7.21331338846E-04 +3.83657227151E-03 +2.58923775570E-01 -3.88712130711E-01
2.93500000000E+09 -1.91951961232E-03 -3.47980104391E-01 +1.14322271003E-03 +3.86639225838E-03 +1.06095924649E-03 +3.94642937290E-03 +2.20950883455E-01 -3.94131029213E-01
2.94000000000E+09 -3.23127846808E-02 -3.34620289167E-01 +1.66031259633E-03 +3.65863307364E-03 +1.53727971725E-03 +3.68808935754E-03 +1.80484746430E-01 -3.97252049239E-01
2.94500000000E+09 -6.30548554879E-02 -3.18747685105E-01 +1.83080632516E-03 +3.62171988431E-03 +1.74358241066E-03 +3.64050269783E-03 +1.41409681275E-01 -3.96503070960E-01
2.95000000000E+09 -9.48570043555E-02 -2.98674814751E-01 +2.60529037280E-03 +3.56022399307E-03 +2.49472728276E-03 +3.65454618731E-03 +1.01523661316E-01 -3.94494793594E-01
2.95500000000E+09 -1.24422921362E-01 -2.74563771144E-01 +3.06763755403E-03 +2.95808012822E-03 +3.06364774741E-03 +3.10461853298E-03 +6.16014805977E-02 -3.89558981602E-01
2.96000000000E+09 -1.52972210101E-01 -2.49793220952E-01 +3.03085790766E-03 +2.14944466953E-03 +3.10862979865E-03 +2.24406449927E-03 +1.99670511745E-02 -3.81156630768E-01
2.96500000000E+09 -1.80020422297E-01 -2.22796618153E-01 +2.66336003038E-03 +2.10049869637E-03 +2.77254924759E-03 +2.12738793631E-03 -2.07495756039E-02 -3.67959934769E-01
2.97000000000E+09 -2.04345374645E-01 -1.95326404059E-01 +2.79387603959E-03 +2.54100388722E-03 +2.82398919109E-03 +2.48652625393E-03 -5.95809276227E-02 -3.52596961790E-01
2.97500000000E+09 -2.27452212980E-01 -1.67597768495E-01 +3.87573042570E-03 +2.52162264834E-03 +3.76023249482E-03 +2.50631206122E-03 -9.74802747090E-02 -3.36410032080E-01
2.98000000000E+09 -2.49331541905E-01 -1.38267899067E-01 +4.37748001497E-03 +1.67445955914E-03 +4.23454676625E-03 +1.80851791268E-03 -1.35728073984E-01 -3.17662622095E-01
2.98500000000E+09 -2.68363561504E-01 -1.07158215417E-01 +4.38832062879E-03 +9.94042622369E-04 +4.40078755027E-03 +1.17920333255E-03 -1.72527703661E-01 -2.95778431265E-01
2.99000000000E+09 -2.84298839561E-01 -7.47338599544E-02 +4.45337575536E-03 +6.45108368379E-04 +4.64927235679E-03 +7.36256177183E-04 -2.08077074649E-01 -2.70409734469E-01
2.99500000000E+09 -2.97997945243E-01 -4.20648067516E-02 +4.57049727603E-03 +2.01588347284E-04 +4.78938089369E-03 +8.15163485764E-05 -2.41718254003E-01 -2.41588302039E-01
3.00000000000E+09 -3.09651971346E-01 -8.48790286754E-03 +4.85684976675E-03 -2.55816822479E-04 +4.87916752782E-03 -4.13299174260E-04 -2.72652929278E-01 -2.09811110789E-01
3.00500000000E+09 -3.19369276238E-01 +2.44803398722E-02 +5.16832740416E-03 -1.07083632137E-03 +4.96994290509E-03 -1.16440113389E-03 -3.01325585176E-01 -1.77560886725E-01
3.01000000000E+09 -3.28009470823E-01 +5.72195256469E-02 +4.69627654594E-03 -2.13373996102E-03 +4.51529280739E-03 -2.00051455393E-03 -3.28407557383E-01 -1.42609389626E-01
3.01500000000E+09 -3.34333168115E-01 +9.08539846102E-02 +4.32435362122E-03 -2.54194979276E-03 +4.33690571072E-03 -2.35033419751E-03 -3.52395882721E-01 -1.06896437982E-01
3.02000000000E+09 -3.36997750202E-01 +1.22434109439E-01 +3.88958804489E-03 -3.11326998298E-03 +4.01263044008E-03 -3.04850734688E-03 -3.73082466322E-01 -6.95343785169E-02
3.02500000000E+09 -3.37698679473E-01 +1.52387392428E-01 +3.57874032944E-03 -3.41554609822E-03 +3.69484368933E-03 -3.42936161465E-03 -3.90545953539E-01 -3.20069069351E-02
3.03000000000E+09 -3.35862902449E-01 +1.81151171859E-01 +3.12549882279E-03 -3.96558741855E-03 +3.16258459253E-03 -4.03587492040E-03 -4.06019239179E-01 +7.34973433290E-03
3.03500000000E+09 -3.31275363961E-01 +2.09435349472E-01 +2.42991264686E-03 -4.23571778404E-03 +2.48173602102E-03 -4.19785676449E-03 -4.18464245137E-01 +4.79227255894E-02
3.04000000000E+09 -3.23514051018E-01 +2.37720368122E-01 +1.94840177898E-03 -4.53515875600E-03 +2.14815702425E-03 -4.61755766369E-03 -4.26051329194E-01 +8.84113171805E-02
3.04500000000E+09 -3.13466182444E-01 +2.65365056506E-01 +1.26081288198E-03 -4.67624920143E-03 +1.38028614810E-03 -4.89871749922E-03 -4.32430609568E-01 +1.27638413048E-01
3.05000000000E+09 -3.01267798669E-01 +2.94156413081E-01 +7.74736814777E-04 -4.61376145418E-03 +6.94286631168E-04 -4.87693264401E-03 -4.36035570234E-01 +1.66552063407E-01
3.05500000000E+09 -2.87390100063E-01 +3.21779021394E-01 +4.41009641107E-04 -4.62774514248E-03 +1.37007792228E-04 -4.73736594103E-03 -4.37639106975E-01 +2.05270536299E-01
3.06000000000E+09 -2.73667556034E-01 +3.49588945650E-01 -1.81512604601E-04 -4.95223021837E-03 -3.44315634160E-04 -4.79044544710E-03 -4.36650913056E-01 +2.43163865087E-01
3.06500000000E+09 -2.59171265898E-01 +3.76920231509E-01 -1.09749133802E-03 -5.02545780743E-03 -9.93546249621E-04 -4.75767739963E-03 -4.32811494163E-01 +2.80804698410E-01
3.07000000000E+09 -2.44979267494E-01 +4.02158995459E-01 -2.08933079745E-03 -4.47440114588E-03 -1.79806740950E-03 -4.57417969988E-03 -4.26881669745E-01 +3.16837535853E-01
