# Hz S RI R 50
! CMT, C1220, 16058040, 17.2.0/1
! Date: 15/08/2018 10:39:17
! Data: Format (Calibration Info)
! Freq                      S11: Re/Im (F2)                       S21: Re/Im (F2)                       S12: Re/Im (F2)                       S22: Re/Im (F2)            
2.50000000000E+09 +5.96092806801E-01 +6.46587683923E-01 -2.30424215822E-05 -5.69648475876E-04 +3.07099969376E-05 -6.41769131885E-04 +5.65221781289E-01 +7.24160433954E-01
2.50500000000E+09 +6.03000907332E-01 +6.38126706173E-01 -1.23695489865E-04 -6.57491366931E-04 -1.64288860810E-04 -6.61473498172E-04 +5.71174009074E-01 +7.18649164732E-01
2.51000000000E+09 +6.10448431940E-01 +6.29756137168E-01 -2.45240816037E-04 -6.52410327150E-04 -2.68071824737E-04 -6.88799887802E-04 +5.77088928161E-01 +7.13163186703E-01
2.51500000000E+09 +6.18312149908E-01 +6.21908900859E-01 -3.20457672642E-04 -6.69593238631E-04 -3.35391947468E-04 -6.15495706407E-04 +5.82549550787E-01 +7.07623066267E-01
2.52000000000E+09 +6.25312906266E-01 +6.14386007245E-01 -4.06641369277E-04 -6.17591957783E-04 -3.96331382389E-04 -6.42118694580E-04 +5.87963499849E-01 +7.01629642440E-01
2.52500000000E+09 +6.31089091767E-01 +6.07859890559E-01 -4.78876525756E-04 -6.07334543032E-04 -4.86167734182E-04 -6.53216401611E-04 +5.93945837982E-01 +6.95227787098E-01
2.53000000000E+09 +6.35854871525E-01 +6.02171177447E-01 -5.74436643037E-04 -5.95241627284E-04 -5.91589609964E-04 -5.90039112585E-04 +6.00329759799E-01 +6.87917304476E-01
2.53500000000E+09 +6.39851604835E-01 +5.96757137363E-01 -6.89674697207E-04 -5.16537560034E-04 -7.08660085468E-04 -5.26962944965E-04 +6.06246721041E-01 +6.80683159798E-01
2.54000000000E+09 +6.43120496129E-01 +5.90784703421E-01 -7.47021744029E-04 -4.87275488669E-04 -7.65776000802E-04 -4.61719633984E-04 +6.11910107509E-01 +6.73695150091E-01
2.54500000000E+09 +6.46572526231E-01 +5.84531164570E-01 -8.28067385313E-04 -4.06145670868E-04 -7.85726718675E-04 -4.15727166739E-04 +6.17177589053E-01 +6.67483138369E-01
2.55000000000E+09 +6.50864134049E-01 +5.76886409418E-01 -8.94087678672E-04 -2.73748376691E-04 -8.69821954467E-04 -3.46998684066E-04 +6.22293128895E-01 +6.61439374329E-01
2.55500000000E+09 +6.56069042959E-01 +5.67674508979E-01 -8.71554835205E-04 -1.92939334589E-04 -1.00744104919E-03 -2.26182713986E-04 +6.27193864016E-01 +6.55021054210E-01
2.56000000000E+09 +6.62568064299E-01 +5.57935617161E-01 -8.40451552359E-04 -1.19056056931E-04 -1.04410746082E-03 -1.34394951679E-04 +6.32180481453E-01 +6.47978911216E-01
2.56500000000E+09 +6.69791962642E-01 +5.47400888603E-01 -9.18876118018E-04 -1.35571710006E-04 -1.01554013627E-03 +1.32206531252E-05 +6.37489091746E-01 +6.40550880588E-01
2.57000000000E+09 +6.77320778459E-01 +5.37394627269E-01 -9.88303937733E-04 -8.94216332218E-05 -9.57455727296E-04 +1.45445864319E-04 +6.42394856389E-01 +6.32803839459E-01
2.57500000000E+09 +6.84856524987E-01 +5.27893913777E-01 -1.02543682328E-03 +7.84109049433E-06 -9.05570249717E-04 +2.10837013501E-04 +6.47774347686E-01 +6.25633740541E-01
2.58000000000E+09 +6.91283447569E-01 +5.19693923376E-01 -1.09691061582E-03 +1.34434984823E-04 -8.97501678151E-04 +1.95362721852E-04 +6.52839436282E-01 +6.18463540749E-01
2.58500000000E+09 +6.96570616250E-01 +5.12556142616E-01 -1.15150747912E-03 +2.81942450136E-04 -9.90437113428E-04 +2.23893841774E-04 +6.58030960297E-01 +6.11354422385E-01
2.59000000000E+09 +7.00362965589E-01 +5.06556056986E-01 -1.12769200437E-03 +4.60284704813E-04 -1.10945692253E-03 +3.50714420278E-04 +6.62982097113E-01 +6.04153371653E-01
2.59500000000E+09 +7.03464586445E-01 +5.00573899930E-01 -1.04047121908E-03 +6.23472694527E-04 -1.06926298366E-03 +5.04437266597E-04 +6.68353772951E-01 +5.96404075238E-01
2.60000000000E+09 +7.05887638938E-01 +4.93866617159E-01 -9.80341775022E-04 +6.83445534453E-04 -9.97270055571E-04 +6.10467474774E-04 +6.74024916066E-01 +5.88193234820E-01
2.60500000000E+09 +7.08425518561E-01 +4.85385553401E-01 -1.01737171589E-03 +6.78005136924E-04 -1.06429814907E-03 +7.01008699577E-04 +6.79748393712E-01 +5.79314662562E-01
2.61000000000E+09 +7.11308176116E-01 +4.74927322777E-01 -1.18012686523E-03 +1.00552672409E-03 -1.12510468938E-03 +9.60129618359E-04 +6.84960108246E-01 +5.70494859795E-01
2.61500000000E+09 +7.15163577558E-01 +4.62403154087E-01 -8.48369668647E-04 +1.26723873175E-03 -8.53854918206E-04 +1.23520858114E-03 +6.90163735337E-01 +5.61776681095E-01
2.62000000000E+09 +7.19770427642E-01 +4.47935856122E-01 -7.03362500780E-04 +1.14321725634E-03 -6.74352242590E-04 +1.20838671715E-03 +6.95249140279E-01 +5.52698569690E-01
2.62500000000E+09 +7.24928763083E-01 +4.32562059775E-01 -7.63609792331E-04 +1.17953249666E-03 -6.88002880999E-04 +1.33302558123E-03 +7.00286674702E-01 +5.43638378749E-01
2.63000000000E+09 +7.30333927186E-01 +4.17203792288E-01 -7.54612405606E-04 +1.36611129212E-03 -5.82868610485E-04 +1.45757925633E-03 +7.05098090755E-01 +5.34096210432E-01
2.63500000000E+09 +7.35179114275E-01 +4.03017453088E-01 -6.67377565924E-04 +1.58021787497E-03 -5.04766936684E-04 +1.47016812204E-03 +7.09363012240E-01 +5.24745983679E-01
2.64000000000E+09 +7.39812727292E-01 +3.90935837543E-01 -4.63489013569E-04 +2.01604939100E-03 -3.62054774698E-04 +1.73178940773E-03 +7.13782121286E-01 +5.14974987606E-01
2.64500000000E+09 +7.44011881814E-01 +3.80643849394E-01 +1.61092608560E-04 +2.04668109654E-03 -5.96612625532E-05 +1.78034103064E-03 +7.18361778133E-01 +5.05195354190E-01
2.65000000000E+09 +7.46899127555E-01 +3.71671857350E-01 +3.66692462723E-04 +1.70221843121E-03 +1.32629619291E-04 +1.64911095105E-03 +7.22464809596E-01 +4.94998842152E-01
2.65500000000E+09 +7.48923351787E-01 +3.63424207962E-01 +2.87102807459E-04 +1.58066249238E-03 +1.46003014143E-04 +1.67811463560E-03 +7.26283466089E-01 +4.84591975479E-01
2.66000000000E+09 +7.50517142145E-01 +3.55037090566E-01 +2.52769754292E-04 +1.82711530572E-03 +2.67811716399E-04 +1.94519683568E-03 +7.30158995079E-01 +4.73639585921E-01
2.66500000000E+09 +7.52028086262E-01 +3.45785803757E-01 +5.37815597009E-04 +1.99204363773E-03 +6.68144427720E-04 +2.04076318494E-03 +7.34260317672E-01 +4.62856199145E-01
2.67000000000E+09 +7.53277973784E-01 +3.33946079233E-01 +9.55701206207E-04 +2.02801489783E-03 +1.07303377901E-03 +1.90921043433E-03 +7.38714460921E-01 +4.52118295213E-01
2.67500000000E+09 +7.54674387013E-01 +3.20528914387E-01 +1.26662592647E-03 +1.89279659622E-03 +1.20859912409E-03 +1.75051816632E-03 +7.42890850479E-01 +4.41151672598E-01
2.68000000000E+09 +7.56107248275E-01 +3.04746237819E-01 +1.55095331783E-03 +1.69265288095E-03 +1.44227367182E-03 +1.62645235787E-03 +7.46727560249E-01 +4.30336916494E-01
2.68500000000E+09 +7.57329623305E-01 +2.87984327531E-01 +1.54698095735E-03 +1.58101585497E-03 +1.48724506629E-03 +1.55744294146E-03 +7.50114209404E-01 +4.19232575161E-01
2.69000000000E+09 +7.58924250700E-01 +2.71194639663E-01 +1.83902362732E-03 +1.48627943327E-03 +1.87237148689E-03 +1.52428255625E-03 +7.53051359619E-01 +4.07537731850E-01
2.69500000000E+09 +7.60328224691E-01 +2.54759683867E-01 +2.12655231246E-03 +1.35973719163E-03 +2.09282468624E-03 +1.32268199831E-03 +7.56310921039E-01 +3.95356692959E-01
2.70000000000E+09 +7.61639963556E-01 +2.39232814052E-01 +2.44396843457E-03 +1.09345369651E-03 +2.39345657550E-03 +1.05727137664E-03 +7.59719332248E-01 +3.81765239533E-01
2.70500000000E+09 +7.62515363359E-01 +2.24988362469E-01 +2.60820428270E-03 +8.21918216609E-04 +2.57097480731E-03 +8.70460218891E-04 +7.62559815097E-01 +3.68678886911E-01
2.71000000000E+09 +7.63240563142E-01 +2.11645531982E-01 +2.75983325676E-03 +3.79731397475E-04 +2.82627447028E-03 +4.79478823648E-04 +7.65707593532E-01 +3.55755407749E-01
2.71500000000E+09 +7.63486554122E-01 +1.98466960228E-01 +2.74862334822E-03 -4.49445798648E-05 +2.92095801796E-03 -5.73149652366E-05 +7.68660563707E-01 +3.43181590157E-01
2.72000000000E+09 +7.63366502533E-01 +1.85443481440E-01 +2.62995910621E-03 -3.00643677319E-04 +2.71304777713E-03 -4.86722435145E-04 +7.70836007674E-01 +3.30309932469E-01
2.72500000000E+09 +7.63067633407E-01 +1.71117394741E-01 +2.64789627943E-03 -4.72413067883E-04 +2.57755928912E-03 -7.49611269052E-04 +7.72578717601E-01 +3.16657175711E-01
2.73000000000E+09 +7.61507943445E-01 +1.55500471620E-01 +2.76216549136E-03 -7.86398688628E-04 +2.41302961815E-03 -9.90696574266E-04 +7.74023475051E-01 +3.02366897980E-01
2.73500000000E+09 +7.59237557350E-01 +1.38548064817E-01 +2.68631212808E-03 -1.23915641753E-03 +2.31548977927E-03 -1.04892506058E-03 +7.75555768250E-01 +2.87286350694E-01
2.74000000000E+09 +7.56335014384E-01 +1.21267406915E-01 +2.45745909901E-03 -1.47153178157E-03 +2.30130158182E-03 -1.07274584042E-03 +7.77229016092E-01 +2.71776639183E-01
2.74500000000E+09 +7.52586476622E-01 +1.03107871447E-01 +2.46329224670E-03 -1.79143410832E-03 +2.52312652074E-03 -1.38813184801E-03 +7.78774071808E-01 +2.56100410389E-01
2.75000000000E+09 +7.48011544533E-01 +8.49483233156E-02 +2.28044946230E-03 -2.06203216327E-03 +2.58786515952E-03 -1.87864537611E-03 +7.79573891188E-01 +2.40310119180E-01
2.75500000000E+09 +7.42796286038E-01 +6.76726083909E-02 +2.03480391387E-03 -2.47092665472E-03 +2.32702773815E-03 -2.41906777358E-03 +7.79276349785E-01 +2.24606972630E-01
2.76000000000E+09 +7.37656771323E-01 +5.04361976335E-02 +1.72684460901E-03 -2.72977231632E-03 +1.91317295546E-03 -2.89461888807E-03 +7.78406049542E-01 +2.09092621618E-01
2.76500000000E+09 +7.32134072656E-01 +3.31601735798E-02 +1.45067104416E-03 -2.87467380976E-03 +1.49398362842E-03 -2.99158868300E-03 +7.77507976393E-01 +1.92145073459E-01
2.77000000000E+09 +7.25909775259E-01 +1.49305215243E-02 +1.10076206260E-03 -3.24249660664E-03 +1.07715741287E-03 -3.42340974242E-03 +7.75908049196E-01 +1.74441136203E-01
2.77500000000E+09 +7.18903810906E-01 -3.93385816479E-03 +4.59807033875E-04 -3.32565730139E-03 +3.88779309983E-04 -3.47664813200E-03 +7.73738206670E-01 +1.56491937028E-01
2.78000000000E+09 +7.11575965766E-01 -2.33709219142E-02 +7.26946580225E-05 -3.07404815443E-03 -9.95153573817E-05 -3.17927082096E-03 +7.71290843509E-01 +1.38704769250E-01
2.78500000000E+09 +7.03592192683E-01 -4.39881261396E-02 -7.23800295351E-05 -2.86311875521E-03 -2.25505936899E-04 -2.81256295307E-03 +7.68767145522E-01 +1.21473017512E-01
2.79000000000E+09 +6.95181927059E-01 -6.48400626843E-02 -5.33898503307E-05 -3.02615089614E-03 -1.92756710009E-04 -2.89764895277E-03 +7.65396668821E-01 +1.04188711798E-01
2.79500000000E+09 +6.86676578173E-01 -8.58887935479E-02 -2.71282791033E-04 -3.31289148245E-03 -3.12245538519E-04 -3.11900187332E-03 +7.61221791576E-01 +8.62875049470E-02
2.80000000000E+09 +6.77468788394E-01 -1.06300896338E-01 -8.71764027416E-04 -3.44912005435E-03 -7.52378671838E-04 -3.31073300569E-03 +7.55998735238E-01 +6.82678243866E-02
2.80500000000E+09 +6.67592977059E-01 -1.25678458898E-01 -1.33463431123E-03 -3.38466471287E-03 -1.18902013861E-03 -3.46251517884E-03 +7.50287482477E-01 +4.97460032112E-02
2.81000000000E+09 +6.56599137499E-01 -1.43216049447E-01 -1.83686801911E-03 -3.08179903143E-03 -1.85597581564E-03 -3.22869643200E-03 +7.44655183667E-01 +3.09262048681E-02
2.81500000000E+09 +6.44102528419E-01 -1.58914500618E-01 -1.97344936287E-03 -2.96054570855E-03 -2.11470855366E-03 -2.96153131674E-03 +7.38576019076E-01 +1.07434452179E-02
2.82000000000E+09 +6.30659250659E-01 -1.72913662800E-01 -2.56610410205E-03 -2.82398671102E-03 -2.67525961864E-03 -2.71160927753E-03 +7.31166997079E-01 -9.37261560596E-03
2.82500000000E+09 +6.15883789880E-01 -1.86938040170E-01 -2.89001512716E-03 -2.37606127405E-03 -2.90863819156E-03 -2.23845136679E-03 +7.22886027409E-01 -2.93959574957E-02
2.83000000000E+09 +5.98697694042E-01 -2.02024988219E-01 -3.20788464412E-03 -1.91963767385E-03 -3.06683057643E-03 -1.80240792453E-03 +7.13916434967E-01 -4.96839666998E-02
2.83500000000E+09 +5.79125936966E-01 -2.17907796946E-01 -3.01974927442E-03 -1.47315260873E-03 -2.92863497290E-03 -1.44822737835E-03 +7.03672767417E-01 -7.01763544976E-02
2.84000000000E+09 +5.57467728846E-01 -2.35440890273E-01 -3.02212684538E-03 -1.53632829663E-03 -2.96258339403E-03 -1.57683871211E-03 +6.92477929293E-01 -9.14201336038E-02
2.84500000000E+09 +5.33319454555E-01 -2.54501973397E-01 -3.42376267560E-03 -1.47402167556E-03 -3.38308036292E-03 -1.48580570508E-03 +6.78972668374E-01 -1.12664519689E-01
2.85000000000E+09 +5.07820800004E-01 -2.73949946877E-01 -3.85315965995E-03 -1.03899347118E-03 -3.89242725296E-03 -1.02406617470E-03 +6.64671923704E-01 -1.32912030830E-01
2.85500000000E+09 +4.80761233328E-01 -2.92611235522E-01 -4.06940456967E-03 -4.82906253450E-04 -4.01081834624E-03 -4.28595628856E-04 +6.49326873790E-01 -1.52930132289E-01
2.86000000000E+09 +4.54420890409E-01 -3.08869780497E-01 -3.88339831248E-03 +1.68453436862E-04 -3.84332574444E-03 +1.66444512650E-04 +6.33680782160E-01 -1.72883484548E-01
2.86500000000E+09 +4.30027241601E-01 -3.23068799792E-01 -4.01240931671E-03 +2.49554563707E-05 -3.91393974390E-03 -2.75854404031E-05 +6.16269089964E-01 -1.93677000578E-01
2.87000000000E+09 +4.06508535426E-01 -3.36302316255E-01 -4.44819731970E-03 +1.08506834596E-03 -4.42165841003E-03 +1.06217983020E-03 +5.96845921767E-01 -2.13505333140E-01
2.87500000000E+09 +3.82527032425E-01 -3.47387813599E-01 -3.69010418334E-03 +1.21088758991E-03 -3.61321944184E-03 +1.26702202830E-03 +5.76064038795E-01 -2.32681624937E-01
2.88000000000E+09 +3.57484405441E-01 -3.56825212640E-01 -4.17756004282E-03 +1.38267027481E-03 -3.98032543102E-03 +1.39421084779E-03 +5.55134547714E-01 -2.50396823218E-01
2.88500000000E+09 +3.29550201543E-01 -3.63349696251E-01 -4.13644792750E-03 +2.25672360423E-03 -3.83787054876E-03 +2.16414452381E-03 +5.33007804310E-01 -2.69456958858E-01
2.89000000000E+09 +3.00269545910E-01 -3.67003619797E-01 -4.00075229417E-03 +2.68187684263E-03 -3.78346807951E-03 +2.39735425843E-03 +5.07773836235E-01 -2.87187648359E-01
2.89500000000E+09 +2.69501249857E-01 -3.69881789147E-01 -3.84562261926E-03 +3.36101826147E-03 -3.92139062151E-03 +3.01576425760E-03 +4.81438517364E-01 -3.03957772142E-01
2.90000000000E+09 +2.36679900126E-01 -3.71442474165E-01 -3.25950339205E-03 +4.21056959260E-03 -3.42532333042E-03 +4.09009545613E-03 +4.54180673887E-01 -3.20580592908E-01
2.90500000000E+09 +2.01674278820E-01 -3.72490982747E-01 -2.68969386910E-03 +4.43058270611E-03 -2.75355806413E-03 +4.54981075876E-03 +4.25455178601E-01 -3.35904239199E-01
2.91000000000E+09 +1.66095552751E-01 -3.71849871912E-01 -1.88603180658E-03 +5.02185241346E-03 -1.75388370188E-03 +4.99839126004E-03 +3.95997237475E-01 -3.51532636449E-01
2.91500000000E+09 +1.30418118659E-01 -3.69901950876E-01 -1.16982727641E-03 +5.13504743291E-03 -1.08946895679E-03 +4.93994992178E-03 +3.63029426357E-01 -3.64449116466E-01
2.92000000000E+09 +9.48220290831E-02 -3.65985006617E-01 -3.38661648600E-04 +5.05734084405E-03 -3.62649331039E-04 +4.77747140195E-03 +3.29084600541E-01 -3.74888687460E-01
2.92500000000E+09 +6.15917816040E-02 -3.58198154469E-01 +9.95230994618E-05 +4.74425715699E-03 -1.27759989241E-04 +4.56540814500E-03 +2.93695972045E-01 -3.82295793605E-01
2.93000000000E+09 +3.06099279800E-02 -3.49070535652E-01 +4.00003172228E-04 +4.65641202489E-03 +1.35371438067E-04 +4.68905287637E-03 +2.57863394853E-01 -3.89031085122E-01
2.93500000000E+09 +8.92706389264E-04 -3.37874141626E-01 +8.11331620210E-04 +4.76397345958E-03 +6.60918809973E-04 +4.79491851113E-03 +2.19842651005E-01 -3.94862242888E-01
2.94000000000E+09 -2.81690091039E-02 -3.24319855465E-01 +1.21229792668E-03 +4.52607459176E-03 +1.19057634663E-03 +4.61321158409E-03 +1.78809364750E-01 -3.97890646794E-01
2.94500000000E+09 -5.73873501461E-02 -3.08796672732E-01 +1.51955049183E-03 +5.01869511661E-03 +1.46413070288E-03 +5.03940704919E-03 +1.39841973432E-01 -3.96868016445E-01
2.95000000000E+09 -8.80286249108E-02 -2.89340245754E-01 +2.87044265352E-03 +4.73763421603E-03 +2.67256848091E-03 +4.81701871806E-03 +9.97653742111E-02 -3.94710625419E-01
2.95500000000E+09 -1.16797878885E-01 -2.66050227463E-01 +3.32393524635E-03 +4.12903407507E-03 +3.22547794767E-03 +4.34815258553E-03 +5.97481789294E-02 -3.89408280527E-01
2.96000000000E+09 -1.44524027395E-01 -2.42096399750E-01 +3.52940795791E-03 +3.04127286475E-03 +3.69069534713E-03 +3.25858361374E-03 +1.84333081681E-02 -3.80851489534E-01
2.96500000000E+09 -1.71173140444E-01 -2.15574514018E-01 +3.09903015620E-03 +3.07635945984E-03 +3.30662501516E-03 +3.13681520169E-03 -2.25115371969E-02 -3.67863442701E-01
2.97000000000E+09 -1.94553908492E-01 -1.88417021007E-01 +3.40329184046E-03 +3.40316772815E-03 +3.48880119938E-03 +3.32155582367E-03 -6.17443997770E-02 -3.52030339239E-01
2.97500000000E+09 -2.16560069188E-01 -1.61959014791E-01 +4.39371503942E-03 +3.65383960458E-03 +4.29971717590E-03 +3.52888266325E-03 -9.96755312676E-02 -3.35293182386E-01
2.98000000000E+09 -2.38209902759E-01 -1.33610468278E-01 +5.57760712444E-03 +2.85989209249E-03 +5.39325773395E-03 +2.99284647000E-03 -1.37907530502E-01 -3.15990795756E-01
2.98500000000E+09 -2.56315158811E-01 -1.03589744176E-01 +5.84555223408E-03 +1.45067809110E-03 +5.86697629672E-03 +1.70326501269E-03 -1.74523635637E-01 -2.93709895397E-01
2.99000000000E+09 -2.72054690587E-01 -7.25829746841E-02 +5.71679994036E-03 +8.62825613990E-04 +5.91805164322E-03 +9.32121845599E-04 -2.09384301064E-01 -2.67439998954E-01
2.99500000000E+09 -2.85450914266E-01 -4.15999205890E-02 +5.75607983727E-03 +3.94495788974E-04 +6.00738019700E-03 +2.36723450209E-04 -2.41648060269E-01 -2.38581159069E-01
3.00000000000E+09 -2.98233246684E-01 -9.13613851606E-03 +6.14399234099E-03 -3.43119075196E-04 +6.07588396011E-03 -6.65805518080E-04 -2.72384516145E-01 -2.07619267258E-01
3.00500000000E+09 -3.08067709118E-01 +2.36024864954E-02 +6.32077938620E-03 -1.23301006292E-03 +6.01339715938E-03 -1.31985036075E-03 -3.01085516044E-01 -1.75179492825E-01
3.01000000000E+09 -3.16496948707E-01 +5.53880162346E-02 +5.88927693083E-03 -2.62512966192E-03 +5.68783700007E-03 -2.37108872074E-03 -3.27297234809E-01 -1.40100331906E-01
3.01500000000E+09 -3.23343972481E-01 +8.78376790405E-02 +5.15222117921E-03 -3.17726796348E-03 +5.18126270262E-03 -2.89051830608E-03 -3.50725050372E-01 -1.05297385747E-01
3.02000000000E+09 -3.26275851336E-01 +1.18781526674E-01 +4.72383662092E-03 -3.57392647145E-03 +4.88599913896E-03 -3.40873937861E-03 -3.71593414850E-01 -6.87441630312E-02
3.02500000000E+09 -3.27420307384E-01 +1.47578132392E-01 +4.48733245758E-03 -4.06356276725E-03 +4.68507299087E-03 -4.12483766803E-03 -3.89813077268E-01 -3.13945091112E-02
3.03000000000E+09 -3.26533479111E-01 +1.75328457357E-01 +3.74689103592E-03 -4.88939234202E-03 +3.82405731557E-03 -4.92055643003E-03 -4.05124805713E-01 +8.21256894198E-03
3.03500000000E+09 -3.22918438156E-01 +2.03249315960E-01 +2.86458134575E-03 -5.13125049400E-03 +3.04736512771E-03 -5.11003631499E-03 -4.17548055164E-01 +4.87267670044E-02
3.04000000000E+09 -3.16015606936E-01 +2.31416938706E-01 +2.06868153935E-03 -5.60860736947E-03 +2.32879658142E-03 -5.70096058613E-03 -4.24920022506E-01 +8.92052365818E-02
3.04500000000E+09 -3.06691702394E-01 +2.58582925739E-01 +1.15034895689E-03 -5.14397954904E-03 +1.29003629146E-03 -5.42064098225E-03 -4.31286428500E-01 +1.27988811250E-01
3.05000000000E+09 -2.95290101439E-01 +2.87697797027E-01 +1.12272820847E-03 -5.13109998295E-03 +9.67495242990E-04 -5.46725425287E-03 -4.35196948794E-01 +1.66536861799E-01
3.05500000000E+09 -2.81595737314E-01 +3.15336550083E-01 +6.53892330514E-04 -5.38158177841E-03 +3.05781495815E-04 -5.49321407987E-03 -4.37304866256E-01 +2.05570994315E-01
3.06000000000E+09 -2.68084854097E-01 +3.42790196922E-01 -1.20368809242E-05 -5.71855716919E-03 -1.91911840298E-04 -5.60582498244E-03 -4.36116994672E-01 +2.43953044995E-01
3.06500000000E+09 -2.54135880402E-01 +3.69433333552E-01 -1.05148835663E-03 -5.89762312138E-03 -9.70054931177E-04 -5.60228722654E-03 -4.32045844249E-01 +2.81538741463E-01
3.07000000000E+09 -2.41288767616E-01 +3.94443077952E-01 -2.31779911676E-03 -5.37707052312E-03 -1.93744762412E-03 -5.38420475519E-03 -4.26102537522E-01 +3.17874085111E-01
