# Hz S RI R 50
! CMT, C1220, 16058040, 17.2.0/1
! Date: 15/08/2018 10:43:33
! Data: Format (Calibration Info)
! Freq                      S11: Re/Im (F2)                       S21: Re/Im (F2)                       S12: Re/Im (F2)                       S22: Re/Im (F2)            
2.50000000000E+09 +5.91710293211E-01 +6.51953127941E-01 -6.36664069564E-05 -3.08761306319E-04 -4.11785647254E-05 -3.80765428317E-04 +5.63790005501E-01 +7.25242942678E-01
2.50500000000E+09 +5.98449158877E-01 +6.43809794393E-01 -1.58399634877E-04 -3.38710016874E-04 -1.63505660924E-04 -2.90982750387E-04 +5.69676771780E-01 +7.19575310754E-01
2.51000000000E+09 +6.05902493651E-01 +6.35621941996E-01 -1.73886676887E-04 -3.24391914577E-04 -1.98555015262E-04 -2.97090590683E-04 +5.75631235268E-01 +7.14222344117E-01
2.51500000000E+09 +6.13724975724E-01 +6.27838590990E-01 -2.33086424683E-04 -3.30691430681E-04 -2.42378681495E-04 -3.11264214950E-04 +5.81008924348E-01 +7.08688000709E-01
2.52000000000E+09 +6.20653166428E-01 +6.20229126507E-01 -3.23855928787E-04 -3.16605696444E-04 -3.20717369116E-04 -3.02468824968E-04 +5.86414872790E-01 +7.02649511946E-01
2.52500000000E+09 +6.26389901440E-01 +6.13792785815E-01 -3.85981175993E-04 -2.89418233879E-04 -4.07426806575E-04 -3.03779155616E-04 +5.92394061206E-01 +6.96177331537E-01
2.53000000000E+09 +6.31320360575E-01 +6.08079688187E-01 -3.81874066725E-04 -2.87504790826E-04 -4.47642721672E-04 -2.76474878041E-04 +5.98724556753E-01 +6.89048350583E-01
2.53500000000E+09 +6.35301687952E-01 +6.02808423645E-01 -4.97040239944E-04 -2.59651061778E-04 -5.43916793612E-04 -2.00945564671E-04 +6.04470811823E-01 +6.81926151156E-01
2.54000000000E+09 +6.38704901391E-01 +5.96856558943E-01 -5.22327465901E-04 -1.54643524223E-04 -4.87525318033E-04 -1.65192420889E-04 +6.10241340256E-01 +6.75177656747E-01
2.54500000000E+09 +6.42232596463E-01 +5.90682047167E-01 -6.00762749143E-04 -9.07224889846E-05 -5.99852569411E-04 -1.17643008924E-04 +6.15717329348E-01 +6.68832402280E-01
2.55000000000E+09 +6.46488523349E-01 +5.83193031914E-01 -6.02657735276E-04 +1.76667413432E-05 -6.44285288131E-04 -4.43955397846E-05 +6.20742960505E-01 +6.62725451236E-01
2.55500000000E+09 +6.51874709874E-01 +5.74279139930E-01 -5.48987791921E-04 +1.17645820126E-04 -6.52054026367E-04 +9.82460130910E-05 +6.25704456176E-01 +6.56415268498E-01
2.56000000000E+09 +6.58434985052E-01 +5.64612095310E-01 -4.61191339031E-04 +1.22994929272E-04 -5.55374300267E-04 +2.04881149180E-04 +6.30733434415E-01 +6.49351234195E-01
2.56500000000E+09 +6.65698652736E-01 +5.54323278413E-01 -5.12303270116E-04 +9.51861053372E-05 -5.54261709118E-04 +2.18678844042E-04 +6.35902117535E-01 +6.41851881361E-01
2.57000000000E+09 +6.73380896519E-01 +5.44393880517E-01 -5.50148846922E-04 +1.47032401221E-04 -4.94649711461E-04 +2.64913762015E-04 +6.40980150343E-01 +6.34258741347E-01
2.57500000000E+09 +6.81084785298E-01 +5.34953570765E-01 -5.85880483378E-04 +2.55266919131E-04 -4.98357473872E-04 +2.92540720343E-04 +6.46210227216E-01 +6.27023607736E-01
2.58000000000E+09 +6.87352396379E-01 +5.26880263414E-01 -5.58508601687E-04 +2.56899348764E-04 -4.75129140071E-04 +2.67838297301E-04 +6.51302106583E-01 +6.20110083719E-01
2.58500000000E+09 +6.92813148670E-01 +5.19941468003E-01 -6.02869572755E-04 +3.42493326987E-04 -5.36209911948E-04 +2.69550452016E-04 +6.56568566455E-01 +6.12834986532E-01
2.59000000000E+09 +6.96734507266E-01 +5.14010111294E-01 -6.35214307243E-04 +4.60222151711E-04 -6.28918825227E-04 +3.87057317847E-04 +6.61610993053E-01 +6.05598511050E-01
2.59500000000E+09 +6.99871959265E-01 +5.08290361293E-01 -6.09770809028E-04 +5.84816812983E-04 -6.58706268786E-04 +5.01169773954E-04 +6.66920056348E-01 +5.97936796181E-01
2.60000000000E+09 +7.02480507856E-01 +5.01663114748E-01 -5.24836147539E-04 +6.71412134013E-04 -5.27455560910E-04 +6.26090028604E-04 +6.72456327478E-01 +5.89778326065E-01
2.60500000000E+09 +7.04902539159E-01 +4.93497638888E-01 -4.54552827032E-04 +6.99840082810E-04 -4.78024189758E-04 +7.20900934451E-04 +6.78219335259E-01 +5.81043487184E-01
2.61000000000E+09 +7.07755001491E-01 +4.83357498245E-01 -4.46899834876E-04 +8.66881663691E-04 -4.56363638239E-04 +8.27534925319E-04 +6.83722952058E-01 +5.72170000933E-01
2.61500000000E+09 +7.11685414038E-01 +4.71212975993E-01 -1.72100241203E-04 +9.48001281409E-04 -1.92169823879E-04 +9.35605745577E-04 +6.88943470593E-01 +5.63542656548E-01
2.62000000000E+09 +7.16114325232E-01 +4.57012905690E-01 -1.72939475863E-04 +7.93164525324E-04 -1.81376373832E-04 +8.79395866706E-04 +6.94049256582E-01 +5.54567175503E-01
2.62500000000E+09 +7.21270639649E-01 +4.41815784373E-01 -2.13646742877E-04 +9.41148353234E-04 -1.85225430736E-04 +9.88541148238E-04 +6.99121150071E-01 +5.45399228274E-01
2.63000000000E+09 +7.26632798683E-01 +4.26839645688E-01 -1.55506389799E-04 +1.10873628066E-03 -3.70288665494E-05 +1.11083164459E-03 +7.03828796028E-01 +5.35887147695E-01
2.63500000000E+09 +7.31542026819E-01 +4.12977251351E-01 +1.37738813334E-05 +1.21728070836E-03 +1.18330389458E-04 +1.06197459949E-03 +7.08322293454E-01 +5.26607083897E-01
2.64000000000E+09 +7.36233697540E-01 +4.00848946388E-01 +2.26478228051E-04 +1.37545150866E-03 +2.27248274617E-04 +1.13329583775E-03 +7.12983675114E-01 +5.16819805201E-01
2.64500000000E+09 +7.40394158511E-01 +3.90750641815E-01 +6.16516082967E-04 +1.23571976282E-03 +5.37351534232E-04 +1.13262512728E-03 +7.17545750586E-01 +5.07033644754E-01
2.65000000000E+09 +7.43436837312E-01 +3.81986428152E-01 +7.35209663710E-04 +9.32555022053E-04 +5.98484248038E-04 +9.79586793166E-04 +7.21625210118E-01 +4.96861579175E-01
2.65500000000E+09 +7.45573769352E-01 +3.73704355809E-01 +6.17438058140E-04 +8.88244453244E-04 +5.95390533349E-04 +9.17760051321E-04 +7.25330965785E-01 +4.86452871981E-01
2.66000000000E+09 +7.47261826176E-01 +3.65623129055E-01 +6.36555120238E-04 +9.74462307845E-04 +6.46698393014E-04 +1.05820658129E-03 +7.29524149767E-01 +4.75496962997E-01
2.66500000000E+09 +7.48922804762E-01 +3.56674298430E-01 +7.97082480063E-04 +1.04162831529E-03 +9.62034868094E-04 +1.04711146243E-03 +7.33587412549E-01 +4.64526715586E-01
2.67000000000E+09 +7.50451239679E-01 +3.45363586061E-01 +1.07942956728E-03 +9.97160152561E-04 +1.13569115203E-03 +8.74943298855E-04 +7.38031139505E-01 +4.53890109142E-01
2.67500000000E+09 +7.52088594048E-01 +3.32137824029E-01 +1.23142492077E-03 +8.58757237727E-04 +1.22700732950E-03 +8.17891894135E-04 +7.42150281386E-01 +4.43027434540E-01
2.68000000000E+09 +7.53756735968E-01 +3.16574676691E-01 +1.42749457822E-03 +6.51208735289E-04 +1.36716701143E-03 +6.19771898175E-04 +7.46239139403E-01 +4.32094981381E-01
2.68500000000E+09 +7.55376448662E-01 +3.00094901619E-01 +1.42199454111E-03 +5.05572204429E-04 +1.39410487171E-03 +5.22783828694E-04 +7.49502430771E-01 +4.20928891707E-01
2.69000000000E+09 +7.57162581019E-01 +2.83208668013E-01 +1.55306740305E-03 +3.24250985193E-04 +1.58326951390E-03 +3.05037476600E-04 +7.52478923058E-01 +4.09238914179E-01
2.69500000000E+09 +7.59145560216E-01 +2.66897711454E-01 +1.55797833373E-03 +2.25246546046E-04 +1.56526968870E-03 +1.98867255940E-04 +7.55630527468E-01 +3.96928382430E-01
2.70000000000E+09 +7.60869483128E-01 +2.51348902203E-01 +1.71461488882E-03 +4.27096747989E-05 +1.67010129185E-03 +8.19872489169E-05 +7.59089658309E-01 +3.83618133583E-01
2.70500000000E+09 +7.62238557088E-01 +2.37078446457E-01 +1.83919206327E-03 -1.58074168628E-04 +1.77103779444E-03 -7.73236888736E-05 +7.62132724571E-01 +3.70434618134E-01
2.71000000000E+09 +7.63423599856E-01 +2.23786893263E-01 +1.92513053075E-03 -5.33763980157E-04 +1.96988474375E-03 -4.04649337292E-04 +7.65144677212E-01 +3.57368569877E-01
2.71500000000E+09 +7.64343846566E-01 +2.10705493751E-01 +1.76084481201E-03 -9.61836027238E-04 +1.92078520540E-03 -9.64329944058E-04 +7.68028324272E-01 +3.44724856813E-01
2.72000000000E+09 +7.64741144366E-01 +1.97601757940E-01 +1.50609359389E-03 -1.05773782962E-03 +1.49853334444E-03 -1.21088298966E-03 +7.70153611032E-01 +3.32037857640E-01
2.72500000000E+09 +7.64843406918E-01 +1.83623429002E-01 +1.54209043121E-03 -1.13635106782E-03 +1.39720449598E-03 -1.18020817021E-03 +7.71943001678E-01 +3.18540078470E-01
2.73000000000E+09 +7.64116291537E-01 +1.68299837219E-01 +1.51193905285E-03 -1.44102212107E-03 +1.28614037534E-03 -1.45302980058E-03 +7.73528868089E-01 +3.04198722256E-01
2.73500000000E+09 +7.62431333885E-01 +1.51535943150E-01 +1.19629553087E-03 -1.80315973220E-03 +1.03494741828E-03 -1.54848181757E-03 +7.75002078322E-01 +2.89210288206E-01
2.74000000000E+09 +7.59962841838E-01 +1.34416284208E-01 +7.99113568209E-04 -1.65667034958E-03 +8.57033157733E-04 -1.46709669063E-03 +7.76813103680E-01 +2.73801059936E-01
2.74500000000E+09 +7.56800968711E-01 +1.16441802329E-01 +8.68392350906E-04 -1.71988041857E-03 +1.00562654370E-03 -1.57814489451E-03 +7.78334302736E-01 +2.57966469884E-01
2.75000000000E+09 +7.52818971369E-01 +9.84098022035E-02 +8.00646645134E-04 -1.89768519868E-03 +1.09237526944E-03 -1.86802008584E-03 +7.79302631434E-01 +2.42101570209E-01
2.75500000000E+09 +7.48125721466E-01 +8.07185788908E-02 +5.96629795134E-04 -2.30215977415E-03 +7.79843208939E-04 -2.36722779305E-03 +7.78906602482E-01 +2.26453459137E-01
2.76000000000E+09 +7.43280091033E-01 +6.30028407766E-02 +1.69496249881E-04 -2.55269101971E-03 +2.61395826115E-04 -2.71279898086E-03 +7.78179766590E-01 +2.10863001087E-01
2.76500000000E+09 +7.37799544620E-01 +4.55373167159E-02 -3.87839089954E-04 -2.49222360100E-03 -4.03236335340E-04 -2.62593382539E-03 +7.77254242824E-01 +1.94118879027E-01
2.77000000000E+09 +7.32036094871E-01 +2.72044903782E-02 -8.81091640551E-04 -2.35206990262E-03 -9.59293327309E-04 -2.46985119129E-03 +7.76015353921E-01 +1.76373226621E-01
2.77500000000E+09 +7.25726681276E-01 +8.23401096236E-03 -1.21534062461E-03 -1.93356695316E-03 -1.32762813745E-03 -1.99139644630E-03 +7.73943184616E-01 +1.58357773029E-01
2.78000000000E+09 +7.19066237817E-01 -1.15320684261E-02 -1.17235085977E-03 -1.70562075731E-03 -1.27366480391E-03 -1.64501791366E-03 +7.71443424599E-01 +1.40290308468E-01
2.78500000000E+09 +7.11742837213E-01 -3.24036336809E-02 -1.26313782870E-03 -1.50724995325E-03 -1.41476733233E-03 -1.44287863615E-03 +7.68565737176E-01 +1.22878078405E-01
2.79000000000E+09 +7.04367110002E-01 -5.38603384001E-02 -1.21773787111E-03 -1.46955791043E-03 -1.25977073273E-03 -1.31816225543E-03 +7.65230005844E-01 +1.05673408287E-01
2.79500000000E+09 +6.96515131039E-01 -7.53748116425E-02 -1.37916756194E-03 -1.61147391216E-03 -1.29802824647E-03 -1.49461276236E-03 +7.61091102843E-01 +8.80268932208E-02
2.80000000000E+09 +6.87971024819E-01 -9.63971720957E-02 -1.88404809724E-03 -1.44356321741E-03 -1.72695526038E-03 -1.44369712306E-03 +7.56077149867E-01 +6.98812556250E-02
2.80500000000E+09 +6.78596066316E-01 -1.16372177010E-01 -1.93767250659E-03 -1.14985473631E-03 -1.92419638315E-03 -1.24428902329E-03 +7.50349616126E-01 +5.12032740845E-02
2.81000000000E+09 +6.67933429568E-01 -1.34380412194E-01 -2.20484433958E-03 -9.89060422552E-04 -2.23735232671E-03 -1.05812350291E-03 +7.44806442835E-01 +3.23440530326E-02
2.81500000000E+09 +6.56156481377E-01 -1.50618002739E-01 -2.27215665652E-03 -6.15272186443E-04 -2.37309223414E-03 -5.67183823519E-04 +7.38331916884E-01 +1.20710199607E-02
2.82000000000E+09 +6.43411730823E-01 -1.65846454200E-01 -2.45152908656E-03 -2.43293144121E-04 -2.40087343941E-03 -1.17022064229E-04 +7.30951413448E-01 -7.74876411285E-03
2.82500000000E+09 +6.28836427630E-01 -1.81030878708E-01 -2.33165467399E-03 +1.24560591987E-04 -2.21941523590E-03 +1.90999971908E-04 +7.22575995414E-01 -2.77677166746E-02
2.83000000000E+09 +6.12131051318E-01 -1.97057301733E-01 -2.18778720856E-03 +2.78752066716E-04 -2.06249837390E-03 +2.93979112035E-04 +7.13646454293E-01 -4.78893620401E-02
2.83500000000E+09 +5.93035328890E-01 -2.14177197423E-01 -2.17215224815E-03 +5.36899310425E-04 -2.10121995301E-03 +4.32366184337E-04 +7.03541455652E-01 -6.81565143037E-02
2.84000000000E+09 +5.71529337321E-01 -2.32920070480E-01 -2.07541118115E-03 +6.97321094535E-04 -2.09655501699E-03 +6.17424250031E-04 +6.92620199690E-01 -8.92678780165E-02
2.84500000000E+09 +5.47814655148E-01 -2.52929741709E-01 -1.98063055727E-03 +9.83074162609E-04 -2.04484357559E-03 +9.24445609551E-04 +6.79782614291E-01 -1.10675195736E-01
2.85000000000E+09 +5.22454568328E-01 -2.73554463210E-01 -1.90870536945E-03 +1.25615889484E-03 -1.84616492748E-03 +1.24785081975E-03 +6.65403558391E-01 -1.31471896414E-01
2.85500000000E+09 +4.95760510179E-01 -2.93503995237E-01 -1.64315964121E-03 +1.31565662877E-03 -1.60317820850E-03 +1.31182661416E-03 +6.49548769022E-01 -1.51553463306E-01
2.86000000000E+09 +4.69434794470E-01 -3.11353797059E-01 -1.47769525340E-03 +1.45338511304E-03 -1.47425259322E-03 +1.37781634576E-03 +6.33862730275E-01 -1.71054974443E-01
2.86500000000E+09 +4.44476354349E-01 -3.26853374682E-01 -1.59892648691E-03 +1.48007405657E-03 -1.61927928081E-03 +1.36666950178E-03 +6.16354252938E-01 -1.91726562882E-01
2.87000000000E+09 +4.20442516974E-01 -3.41627220144E-01 -1.39628800590E-03 +2.15018284445E-03 -1.45058629041E-03 +2.13390486739E-03 +5.97319502565E-01 -2.11425072214E-01
2.87500000000E+09 +3.95269351688E-01 -3.53895535478E-01 -7.20703029801E-04 +1.79672692885E-03 -6.71049205315E-04 +1.81612295805E-03 +5.76736617027E-01 -2.30955868520E-01
2.88000000000E+09 +3.69304324182E-01 -3.63936399999E-01 -1.17715274284E-03 +1.61979367735E-03 -1.06985221556E-03 +1.65039878298E-03 +5.55547961334E-01 -2.48688592250E-01
2.88500000000E+09 +3.41097714275E-01 -3.71776081612E-01 -1.11706149424E-03 +2.52151210064E-03 -1.05624096717E-03 +2.38085775753E-03 +5.33343049804E-01 -2.67419419784E-01
2.89000000000E+09 +3.10515142751E-01 -3.77194493163E-01 -5.09012543154E-04 +2.65440346065E-03 -5.41534569162E-04 +2.50335460057E-03 +5.08368892526E-01 -2.85086372683E-01
2.89500000000E+09 +2.78532228944E-01 -3.80512688551E-01 +4.38901891306E-05 +2.67142279836E-03 -5.30870818185E-05 +2.58001720562E-03 +4.81944975025E-01 -3.01642148386E-01
2.90000000000E+09 +2.44704520376E-01 -3.83506635800E-01 +5.34027918885E-04 +2.54487957042E-03 +3.83792486381E-04 +2.57647027588E-03 +4.54874545065E-01 -3.17834854548E-01
2.90500000000E+09 +2.08155432068E-01 -3.85866539013E-01 +6.64459960569E-04 +2.35348200973E-03 +6.45740030129E-04 +2.40412249241E-03 +4.26783577982E-01 -3.33170902429E-01
2.91000000000E+09 +1.70488774697E-01 -3.85912353172E-01 +1.04000195949E-03 +2.17884049904E-03 +1.05696117525E-03 +2.14119458930E-03 +3.97495462307E-01 -3.48648803497E-01
2.91500000000E+09 +1.32947576233E-01 -3.84395261732E-01 +1.32713354615E-03 +2.08292911423E-03 +1.29441392863E-03 +1.96207395356E-03 +3.65255613457E-01 -3.62036978862E-01
2.92000000000E+09 +9.56462251879E-02 -3.80243871109E-01 +1.58415168352E-03 +1.85955427187E-03 +1.52681009960E-03 +1.75982226508E-03 +3.31387315373E-01 -3.72538425766E-01
2.92500000000E+09 +6.04431646398E-02 -3.72778019364E-01 +1.94745990567E-03 +1.35605733739E-03 +1.80062142489E-03 +1.34506193598E-03 +2.96631742826E-01 -3.80293609911E-01
2.93000000000E+09 +2.78080454562E-02 -3.63078100384E-01 +1.49209637099E-03 +7.33723402644E-04 +1.47585413166E-03 +8.06508991424E-04 +2.61023307414E-01 -3.87538455391E-01
2.93500000000E+09 -3.49519195740E-03 -3.51783204626E-01 +1.36199398737E-03 +9.68169857692E-04 +1.40642485226E-03 +1.02848321878E-03 +2.22944889250E-01 -3.93401497350E-01
2.94000000000E+09 -3.47259357752E-02 -3.37975590079E-01 +1.47218887875E-03 +7.89838304617E-04 +1.56101452883E-03 +8.03712935764E-04 +1.82646878095E-01 -3.96736190952E-01
2.94500000000E+09 -6.54376265929E-02 -3.21131613770E-01 +1.26727171585E-03 +8.04405902578E-04 +1.27842924401E-03 +7.81752168075E-04 +1.43497678800E-01 -3.96329806306E-01
2.95000000000E+09 -9.72914083245E-02 -3.00957121926E-01 +1.73250893453E-03 +8.74081927384E-04 +1.62381903296E-03 +8.87975556146E-04 +1.03592723220E-01 -3.94693282554E-01
2.95500000000E+09 -1.27526077129E-01 -2.77108606699E-01 +1.80725441615E-03 +3.48052568933E-04 +1.83743750065E-03 +4.39975556352E-04 +6.35489462605E-02 -3.89925868060E-01
2.96000000000E+09 -1.56748097415E-01 -2.51459704209E-01 +1.24707543327E-03 -9.33979169121E-06 +1.33806101260E-03 -8.02584783056E-06 +2.19803511310E-02 -3.82001048067E-01
2.96500000000E+09 -1.83929779820E-01 -2.23534624712E-01 +9.29160236417E-04 +5.46571016118E-04 +9.23380790975E-04 +4.23825879910E-04 -1.91862346200E-02 -3.69209507528E-01
2.97000000000E+09 -2.08375216182E-01 -1.95418883628E-01 +1.30561617351E-03 +9.79213312082E-04 +1.29189460211E-03 +1.01725494337E-03 -5.85521448413E-02 -3.54022704274E-01
2.97500000000E+09 -2.31565641985E-01 -1.66450470501E-01 +2.15833942013E-03 +6.99927061593E-04 +2.00580901744E-03 +7.15862104862E-04 -9.71152429080E-02 -3.37092168004E-01
2.98000000000E+09 -2.52283763179E-01 -1.36564873657E-01 +2.01198904645E-03 +1.99192905672E-04 +2.00396845636E-03 +2.55414191960E-04 -1.34896112499E-01 -3.17839501455E-01
2.98500000000E+09 -2.71037315120E-01 -1.05635273104E-01 +2.07459992927E-03 -1.62761081491E-05 +2.09106161615E-03 +1.44158281265E-04 -1.71481131452E-01 -2.96007435268E-01
2.99000000000E+09 -2.87334793513E-01 -7.30486343552E-02 +2.26582723705E-03 -1.23106867855E-04 +2.46479733056E-03 -3.42099269064E-05 -2.06858191649E-01 -2.70771554952E-01
2.99500000000E+09 -3.00810842915E-01 -3.97552714918E-02 +2.28459317913E-03 -6.06799517988E-04 +2.31641994735E-03 -6.23150104375E-04 -2.40370079008E-01 -2.42145107587E-01
3.00000000000E+09 -3.12510189997E-01 -6.09028008541E-03 +2.33336310358E-03 -6.67304289195E-04 +2.35811814570E-03 -7.14337946775E-04 -2.71119192451E-01 -2.10510064948E-01
3.00500000000E+09 -3.22421214379E-01 +2.74779185346E-02 +2.34231675503E-03 -1.14473201305E-03 +2.22949508449E-03 -1.14436684924E-03 -2.99538497005E-01 -1.78602448941E-01
3.01000000000E+09 -3.30088483906E-01 +6.10667477057E-02 +2.09280159257E-03 -1.52440582403E-03 +2.10655075173E-03 -1.41579711369E-03 -3.26407140820E-01 -1.44213703493E-01
3.01500000000E+09 -3.35859380087E-01 +9.40066993226E-02 +1.95837074056E-03 -1.90233201178E-03 +2.01850927601E-03 -1.82314612647E-03 -3.50645447174E-01 -1.09213788880E-01
3.02000000000E+09 -3.38737347924E-01 +1.25767115502E-01 +1.60743615117E-03 -2.32854240040E-03 +1.68300958464E-03 -2.30378477058E-03 -3.72018003408E-01 -7.21963426378E-02
3.02500000000E+09 -3.38823176837E-01 +1.55927611918E-01 +1.15125778779E-03 -2.28146943183E-03 +1.26480489801E-03 -2.29151522196E-03 -3.89951485141E-01 -3.46561024989E-02
3.03000000000E+09 -3.36797653638E-01 +1.84214974457E-01 +8.37932407140E-04 -2.38274504098E-03 +9.20388699941E-04 -2.44342751992E-03 -4.06043695232E-01 +4.65160075765E-03
3.03500000000E+09 -3.32599205861E-01 +2.12674157049E-01 +4.80659968408E-04 -2.13833719039E-03 +5.22345757173E-04 -2.20777181546E-03 -4.18751150928E-01 +4.51800468991E-02
3.04000000000E+09 -3.24886663399E-01 +2.41514180339E-01 +6.19830821213E-04 -2.38773275980E-03 +7.24127032003E-04 -2.45210330973E-03 -4.27020956367E-01 +8.58190842660E-02
3.04500000000E+09 -3.14207621689E-01 +2.69051712360E-01 +2.08997875333E-04 -2.46319530571E-03 +1.48875734047E-04 -2.61453306323E-03 -4.33829317761E-01 +1.25401726979E-01
3.05000000000E+09 -3.02342635298E-01 +2.98076632941E-01 -4.06523125118E-05 -2.36047336891E-03 -1.63534656322E-04 -2.39206942317E-03 -4.37623335908E-01 +1.64815282543E-01
3.05500000000E+09 -2.87771312822E-01 +3.25954616662E-01 -7.91614728528E-05 -2.36643469179E-03 -2.01060548178E-04 -2.38518495643E-03 -4.39023329987E-01 +2.03999678793E-01
3.06000000000E+09 -2.73402010808E-01 +3.53160321753E-01 -4.42622095704E-04 -2.60354544380E-03 -5.49797514680E-04 -2.46846896882E-03 -4.37686286297E-01 +2.42291212656E-01
3.06500000000E+09 -2.59015665167E-01 +3.79550161830E-01 -7.45822677262E-04 -2.70574372474E-03 -7.00504277186E-04 -2.59497419459E-03 -4.33822503386E-01 +2.79828174822E-01
3.07000000000E+09 -2.45469164731E-01 +4.04424889506E-01 -1.67017249632E-03 -2.61391847401E-03 -1.43037657156E-03 -2.66968139769E-03 -4.27619677201E-01 +3.16087030172E-01
