# Hz S RI R 50
! CMT, C1220, 16058040, 17.2.0/1
! Date: 15/08/2018 10:43:23
! Data: Format (Calibration Info)
! Freq                      S11: Re/Im (F2)                       S21: Re/Im (F2)                       S12: Re/Im (F2)                       S22: Re/Im (F2)            
2.50000000000E+09 +5.91834437681E-01 +6.51929281622E-01 -1.12989097267E-04 -3.69328939521E-04 -1.33306610541E-04 -4.01638108085E-04 +5.63983123050E-01 +7.25144814418E-01
2.50500000000E+09 +5.98445064195E-01 +6.43659405493E-01 -1.65476248390E-04 -3.92240030948E-04 -2.63050465957E-04 -3.55086261167E-04 +5.69912932323E-01 +7.19501968465E-01
2.51000000000E+09 +6.05919689726E-01 +6.35651953792E-01 -2.47063051466E-04 -3.94987386338E-04 -2.28192263542E-04 -3.48037782224E-04 +5.75955393929E-01 +7.14243196229E-01
2.51500000000E+09 +6.13704295833E-01 +6.27759025601E-01 -3.32172769846E-04 -3.45481685653E-04 -3.14289089508E-04 -3.34662022866E-04 +5.81295829206E-01 +7.08647517367E-01
2.52000000000E+09 +6.20814038363E-01 +6.20273734547E-01 -3.49631086073E-04 -3.15740083186E-04 -3.25650797259E-04 -2.83480564037E-04 +5.86714980118E-01 +7.02671365067E-01
2.52500000000E+09 +6.26501359349E-01 +6.13836760075E-01 -4.36400472306E-04 -2.96752847615E-04 -4.13050373834E-04 -2.55782091584E-04 +5.92655224769E-01 +6.96010778354E-01
2.53000000000E+09 +6.31262147402E-01 +6.08049551421E-01 -4.30949697627E-04 -2.49044056123E-04 -4.94912925561E-04 -2.57527922747E-04 +5.98947294173E-01 +6.88860145238E-01
2.53500000000E+09 +6.35440097658E-01 +6.02731107508E-01 -5.35129572031E-04 -2.32862627349E-04 -5.39169319808E-04 -2.15636373145E-04 +6.04759088547E-01 +6.81715485442E-01
2.54000000000E+09 +6.38757650891E-01 +5.96841165869E-01 -5.53474319253E-04 -1.27078900312E-04 -4.97624411939E-04 -1.88929549845E-04 +6.10363985893E-01 +6.74940029019E-01
2.54500000000E+09 +6.42330231876E-01 +5.90543384629E-01 -6.14451409592E-04 -7.03162835434E-05 -5.79129106607E-04 -1.60518312358E-04 +6.15873060864E-01 +6.68629750773E-01
2.55000000000E+09 +6.46531706680E-01 +5.83080374403E-01 -6.71042469819E-04 +4.22312149336E-06 -6.77969355707E-04 +2.43259540704E-05 +6.20823041098E-01 +6.62501937572E-01
2.55500000000E+09 +6.51919557591E-01 +5.74140823972E-01 -6.10695766333E-04 +1.11266282240E-04 -7.08384732518E-04 +1.21093793653E-04 +6.25772922495E-01 +6.56216627430E-01
2.56000000000E+09 +6.58450858237E-01 +5.64555598137E-01 -4.96282902317E-04 +1.35509835493E-04 -4.94558343690E-04 +1.90546593072E-04 +6.30835177957E-01 +6.49257019623E-01
2.56500000000E+09 +6.65776328382E-01 +5.54117560996E-01 -5.80552814629E-04 +5.47073475442E-05 -5.93736563524E-04 +1.76072044251E-04 +6.35930664577E-01 +6.41829945103E-01
2.57000000000E+09 +6.73383713127E-01 +5.44180744932E-01 -6.86572115179E-04 +1.20186541895E-04 -6.40339570179E-04 +2.76613302991E-04 +6.40990728765E-01 +6.34180218058E-01
2.57500000000E+09 +6.81016494338E-01 +5.34911851407E-01 -6.84335796102E-04 +2.72082133340E-04 -5.80690007269E-04 +3.20024773859E-04 +6.46325970501E-01 +6.26971470691E-01
2.58000000000E+09 +6.87465247434E-01 +5.26718571991E-01 -6.49358870885E-04 +3.10697588164E-04 -5.03501452834E-04 +2.93988913759E-04 +6.51464956968E-01 +6.19951476397E-01
2.58500000000E+09 +6.92730994161E-01 +5.19703274990E-01 -6.96716326599E-04 +3.81475168658E-04 -6.02707313918E-04 +3.13138579378E-04 +6.56630420588E-01 +6.12702219359E-01
2.59000000000E+09 +6.96630884832E-01 +5.13867997404E-01 -6.09839640306E-04 +5.30502125236E-04 -6.70880339246E-04 +4.27414755359E-04 +6.61759098077E-01 +6.05558174300E-01
2.59500000000E+09 +6.99982979335E-01 +5.08273027944E-01 -6.24728493190E-04 +6.17463921910E-04 -6.46928822885E-04 +6.09136094071E-04 +6.67018559180E-01 +5.97724724555E-01
2.60000000000E+09 +7.02429750392E-01 +5.01531597837E-01 -4.79156447410E-04 +7.18978153846E-04 -5.31952707520E-04 +7.69040040931E-04 +6.72648947052E-01 +5.89493437403E-01
2.60500000000E+09 +7.04977218545E-01 +4.93280886623E-01 -4.73576774503E-04 +7.61447696186E-04 -5.25161058940E-04 +7.90238500000E-04 +6.78399550161E-01 +5.80711431518E-01
2.61000000000E+09 +7.07826037911E-01 +4.83127155167E-01 -4.41414953489E-04 +9.55269504819E-04 -4.60948979656E-04 +8.91085510157E-04 +6.83813842037E-01 +5.71888558835E-01
2.61500000000E+09 +7.11578569639E-01 +4.70830981359E-01 -1.44061639881E-04 +9.38462063672E-04 -1.51113200476E-04 +9.69112942990E-04 +6.88926140893E-01 +5.63262627824E-01
2.62000000000E+09 +7.16028836381E-01 +4.56812802214E-01 -1.55539089670E-04 +7.97451922972E-04 -1.63437456979E-04 +8.32247422720E-04 +6.94032833260E-01 +5.54184241931E-01
2.62500000000E+09 +7.21282426859E-01 +4.41772125268E-01 -2.25800793960E-04 +9.25852841267E-04 -1.88093371183E-04 +1.01151219236E-03 +6.99001772858E-01 +5.45190021023E-01
2.63000000000E+09 +7.26640755392E-01 +4.26556271787E-01 -1.53476429711E-04 +1.11345260331E-03 -3.03399424535E-05 +1.10124348627E-03 +7.03702751377E-01 +5.35698321512E-01
2.63500000000E+09 +7.31541423919E-01 +4.12629641660E-01 -1.53799421694E-05 +1.16497412230E-03 +1.01632854891E-04 +1.06471889599E-03 +7.08209663948E-01 +5.26376002530E-01
2.64000000000E+09 +7.36262950808E-01 +4.00578552343E-01 +2.32160039302E-04 +1.32194804744E-03 +2.64716733526E-04 +1.14429510653E-03 +7.12819415870E-01 +5.16768480114E-01
2.64500000000E+09 +7.40327978114E-01 +3.90272902723E-01 +6.15631539576E-04 +1.22235790237E-03 +4.63513963838E-04 +1.09486306568E-03 +7.17355678570E-01 +5.06985272539E-01
2.65000000000E+09 +7.43240384155E-01 +3.81536074064E-01 +6.97909388939E-04 +9.25256479222E-04 +5.11516320634E-04 +9.53017183415E-04 +7.21543733641E-01 +4.96772747375E-01
2.65500000000E+09 +7.45425379084E-01 +3.73429822527E-01 +5.84163815308E-04 +8.69748532538E-04 +5.09826216894E-04 +9.48179656609E-04 +7.25291392721E-01 +4.86401018364E-01
2.66000000000E+09 +7.47057650007E-01 +3.65245904081E-01 +5.84360587663E-04 +9.84972508904E-04 +5.97103809484E-04 +1.03084144951E-03 +7.29441767499E-01 +4.75373698261E-01
2.66500000000E+09 +7.48679569118E-01 +3.56403810382E-01 +8.12832109878E-04 +1.09925779781E-03 +8.86982843696E-04 +1.06999523651E-03 +7.33471314431E-01 +4.64398815817E-01
2.67000000000E+09 +7.50168990634E-01 +3.44979957404E-01 +1.00085616925E-03 +1.00003865038E-03 +1.08055284546E-03 +9.31362087972E-04 +7.37914860989E-01 +4.53765153846E-01
2.67500000000E+09 +7.51826324960E-01 +3.31832124159E-01 +1.18454305027E-03 +9.44990720648E-04 +1.12181580824E-03 +8.48454695157E-04 +7.41993708411E-01 +4.42863915157E-01
2.68000000000E+09 +7.53445575636E-01 +3.16152947234E-01 +1.43607462431E-03 +7.25735454136E-04 +1.36908589579E-03 +7.37389914048E-04 +7.46008900179E-01 +4.31957536091E-01
2.68500000000E+09 +7.55155711125E-01 +2.99543267246E-01 +1.41057038947E-03 +6.68383234012E-04 +1.40252091977E-03 +6.54589570501E-04 +7.49329289879E-01 +4.20697651910E-01
2.69000000000E+09 +7.56894828829E-01 +2.82739941284E-01 +1.60963492240E-03 +4.54694308949E-04 +1.55274249495E-03 +4.14034424703E-04 +7.52185395165E-01 +4.09003966298E-01
2.69500000000E+09 +7.58739247748E-01 +2.66516148463E-01 +1.58987214540E-03 +3.34137315078E-04 +1.57457934913E-03 +3.23480907707E-04 +7.55251667626E-01 +3.96732424488E-01
2.70000000000E+09 +7.60284211770E-01 +2.50857487620E-01 +1.75919046375E-03 +1.48933018913E-04 +1.77140236593E-03 +2.12052989016E-04 +7.58627389862E-01 +3.83632904605E-01
2.70500000000E+09 +7.61803309043E-01 +2.36776079438E-01 +1.95440303482E-03 -3.55736401798E-05 +1.85912404969E-03 +9.20636800499E-05 +7.61530099181E-01 +3.70401462318E-01
2.71000000000E+09 +7.63002540091E-01 +2.23313510100E-01 +2.10154218842E-03 -4.17184655338E-04 +2.11638695116E-03 -3.24658650803E-04 +7.64692667747E-01 +3.57557932992E-01
2.71500000000E+09 +7.63782114827E-01 +2.10211951810E-01 +1.99418228700E-03 -8.88458557872E-04 +2.12571798239E-03 -9.56204308515E-04 +7.67495233844E-01 +3.45103462580E-01
2.72000000000E+09 +7.64192193931E-01 +1.97185791411E-01 +1.65863829709E-03 -1.12803876707E-03 +1.70417469036E-03 -1.24906209326E-03 +7.69743546008E-01 +3.32401625535E-01
2.72500000000E+09 +7.64056514450E-01 +1.83211845108E-01 +1.60126580952E-03 -1.16575497864E-03 +1.44908425195E-03 -1.29728319017E-03 +7.71740897285E-01 +3.18950570800E-01
2.73000000000E+09 +7.63367356643E-01 +1.68043621497E-01 +1.71789053875E-03 -1.45540688974E-03 +1.44101668876E-03 -1.44679545043E-03 +7.73425772687E-01 +3.04732698772E-01
2.73500000000E+09 +7.61591139520E-01 +1.51352483152E-01 +1.27523266614E-03 -1.82989582866E-03 +1.14357643817E-03 -1.58880768056E-03 +7.74865634671E-01 +2.89688046202E-01
2.74000000000E+09 +7.59253367900E-01 +1.34215460340E-01 +9.40928231279E-04 -1.80663948718E-03 +9.20884817356E-04 -1.53175185292E-03 +7.76783322832E-01 +2.74317253995E-01
2.74500000000E+09 +7.56050030167E-01 +1.16103718322E-01 +8.82128631728E-04 -1.85379314831E-03 +1.11772090597E-03 -1.62515044974E-03 +7.78407506896E-01 +2.58494095342E-01
2.75000000000E+09 +7.51960566700E-01 +9.81074042800E-02 +8.03232217402E-04 -1.96451811374E-03 +1.05428317054E-03 -1.92055151777E-03 +7.79407353392E-01 +2.42616509358E-01
2.75500000000E+09 +7.47283336824E-01 +8.05148617941E-02 +6.40834624805E-04 -2.26023225336E-03 +7.97134344020E-04 -2.45190949703E-03 +7.79166118399E-01 +2.26877335822E-01
2.76000000000E+09 +7.42312188705E-01 +6.29999391994E-02 +1.73557790718E-04 -2.60189871853E-03 +1.93680679186E-04 -2.76230089124E-03 +7.78415800251E-01 +2.11148986156E-01
2.76500000000E+09 +7.36841880846E-01 +4.54036876465E-02 -3.53421229782E-04 -2.52908055460E-03 -4.33511736838E-04 -2.67504199911E-03 +7.77585333627E-01 +1.94392835943E-01
2.77000000000E+09 +7.31015582301E-01 +2.71195661672E-02 -8.68404010191E-04 -2.40467609762E-03 -9.12613401831E-04 -2.51258905528E-03 +7.76305089811E-01 +1.76514136803E-01
2.77500000000E+09 +7.24578659661E-01 +8.41977858014E-03 -1.21745518234E-03 -1.97177876242E-03 -1.35678012055E-03 -1.98351154401E-03 +7.74058012424E-01 +1.58527584018E-01
2.78000000000E+09 +7.18059051777E-01 -1.14551311584E-02 -1.12454247959E-03 -1.56817652866E-03 -1.25737084508E-03 -1.58136837472E-03 +7.71578238884E-01 +1.40599998990E-01
2.78500000000E+09 +7.10740921296E-01 -3.22905876381E-02 -1.13733584773E-03 -1.44460407557E-03 -1.24665575692E-03 -1.34925006669E-03 +7.68758790045E-01 +1.23211103826E-01
2.79000000000E+09 +7.03319612294E-01 -5.36581605150E-02 -1.03547818676E-03 -1.47423578337E-03 -1.00648375305E-03 -1.39576354393E-03 +7.65307044138E-01 +1.06249373555E-01
2.79500000000E+09 +6.95182144446E-01 -7.52227881049E-02 -1.20191807330E-03 -1.69710326348E-03 -1.17637688686E-03 -1.61854684257E-03 +7.61221006993E-01 +8.86065158301E-02
2.80000000000E+09 +6.86650522513E-01 -9.60131070834E-02 -1.72162521012E-03 -1.61594978746E-03 -1.61294471779E-03 -1.56880801297E-03 +7.56389781353E-01 +7.05898317110E-02
2.80500000000E+09 +6.77273417533E-01 -1.15862211354E-01 -1.86297377453E-03 -1.31341695249E-03 -1.82892343389E-03 -1.35127216018E-03 +7.50940543239E-01 +5.20239997736E-02
2.81000000000E+09 +6.66730515430E-01 -1.33836884651E-01 -2.05846962807E-03 -1.13445230594E-03 -2.17647127762E-03 -1.17390375122E-03 +7.45543071729E-01 +3.31810429593E-02
2.81500000000E+09 +6.54913662590E-01 -1.50057691040E-01 -2.20709582794E-03 -8.69313205349E-04 -2.30303089258E-03 -8.38541258602E-04 +7.39383431779E-01 +1.27763116000E-02
2.82000000000E+09 +6.42105260284E-01 -1.65109484392E-01 -2.42489930800E-03 -5.22906189347E-04 -2.45815768930E-03 -4.14634798790E-04 +7.32046599517E-01 -7.33873714176E-03
2.82500000000E+09 +6.27587238511E-01 -1.80214857540E-01 -2.33788271367E-03 -1.17543016790E-04 -2.23909917127E-03 -3.17214382991E-05 +7.23990992752E-01 -2.75578172689E-02
2.83000000000E+09 +6.10767457165E-01 -1.96005360153E-01 -2.27532247869E-03 +1.13616993499E-05 -2.15152947322E-03 +7.49551513238E-05 +7.15158169153E-01 -4.81233121279E-02
2.83500000000E+09 +5.91797907321E-01 -2.12944222658E-01 -2.22106353687E-03 +2.03895351645E-04 -2.15528016935E-03 +9.99920893115E-05 +7.04923690116E-01 -6.88329476115E-02
2.84000000000E+09 +5.70373635030E-01 -2.31635518400E-01 -2.33598786967E-03 +4.02087699669E-04 -2.28366567660E-03 +3.01374813193E-04 +6.93732602075E-01 -9.01136500726E-02
2.84500000000E+09 +5.46818140303E-01 -2.51325108411E-01 -2.37565086539E-03 +7.89761231647E-04 -2.39220254068E-03 +7.75837147461E-04 +6.80697223145E-01 -1.11582502238E-01
2.85000000000E+09 +5.21612907060E-01 -2.71855340077E-01 -2.24727585353E-03 +1.19976429700E-03 -2.23823003290E-03 +1.25567124611E-03 +6.66144674630E-01 -1.32527994435E-01
2.85500000000E+09 +4.95086866268E-01 -2.91693062033E-01 -1.92143391953E-03 +1.38872010863E-03 -1.88593389998E-03 +1.34483602908E-03 +6.50169208670E-01 -1.52659853114E-01
2.86000000000E+09 +4.68984539904E-01 -3.09433322148E-01 -1.67322562826E-03 +1.55349408877E-03 -1.64353977170E-03 +1.45440766326E-03 +6.34161661378E-01 -1.72320229531E-01
2.86500000000E+09 +4.44300361297E-01 -3.24977124051E-01 -1.75715029672E-03 +1.54021271817E-03 -1.77207284406E-03 +1.49792048408E-03 +6.16443970913E-01 -1.92887227710E-01
2.87000000000E+09 +4.20298895715E-01 -3.39746509586E-01 -1.53840020307E-03 +2.18414409635E-03 -1.62017653414E-03 +2.14488326737E-03 +5.97132639954E-01 -2.12502473410E-01
2.87500000000E+09 +3.95430249536E-01 -3.51921634798E-01 -9.15140359744E-04 +1.87815716924E-03 -8.66081115495E-04 +1.88528531486E-03 +5.76464771399E-01 -2.31651281893E-01
2.88000000000E+09 +3.69682515941E-01 -3.61970597796E-01 -1.24466479410E-03 +1.82421624115E-03 -1.14742791675E-03 +1.75299141092E-03 +5.55495734919E-01 -2.49337231276E-01
2.88500000000E+09 +3.41764009761E-01 -3.69720062267E-01 -1.09274403495E-03 +2.52065305648E-03 -1.04516247312E-03 +2.34508662531E-03 +5.33344323284E-01 -2.67919356618E-01
2.89000000000E+09 +3.11398489243E-01 -3.75226751231E-01 -5.89681751899E-04 +2.65327744467E-03 -6.12603628404E-04 +2.49665534930E-03 +5.08592618803E-01 -2.85822835234E-01
2.89500000000E+09 +2.79530114738E-01 -3.78874520064E-01 -3.21716925271E-05 +2.62008540270E-03 -1.57870297705E-04 +2.55351240430E-03 +4.82236454609E-01 -3.02439676395E-01
2.90000000000E+09 +2.45908599554E-01 -3.81942020163E-01 +3.60156192353E-04 +2.42806823730E-03 +2.46663905128E-04 +2.51734048049E-03 +4.55051884172E-01 -3.18659566707E-01
2.90500000000E+09 +2.09584889305E-01 -3.84461230110E-01 +4.06310362388E-04 +2.22711737305E-03 +4.14552495417E-04 +2.28996940366E-03 +4.26887734599E-01 -3.34102465823E-01
2.91000000000E+09 +1.71924567741E-01 -3.84772428170E-01 +7.80971714425E-04 +2.27477202433E-03 +8.50835666015E-04 +2.21590402848E-03 +3.97883642331E-01 -3.49806681713E-01
2.91500000000E+09 +1.34362138374E-01 -3.83279198566E-01 +1.08093373662E-03 +2.16079906393E-03 +1.11499356955E-03 +2.11112705314E-03 +3.65300774007E-01 -3.63615380672E-01
2.92000000000E+09 +9.71420937494E-02 -3.79241882262E-01 +1.42298594912E-03 +1.87264997943E-03 +1.34842960679E-03 +1.83610564247E-03 +3.30980472177E-01 -3.74496223331E-01
2.92500000000E+09 +6.22541728145E-02 -3.71782259879E-01 +1.53871306101E-03 +1.38312696729E-03 +1.51992718637E-03 +1.41295687093E-03 +2.95711021998E-01 -3.82338189152E-01
2.93000000000E+09 +2.98387156709E-02 -3.62540520920E-01 +1.21978622027E-03 +9.32475989830E-04 +1.19642913892E-03 +1.00626694886E-03 +2.59367938034E-01 -3.89257584885E-01
2.93500000000E+09 -1.41844955318E-03 -3.51404157083E-01 +1.10789930063E-03 +1.26974747264E-03 +1.12203782052E-03 +1.32621571688E-03 +2.21043306189E-01 -3.94727577057E-01
2.94000000000E+09 -3.26025183608E-02 -3.37945858231E-01 +1.33021069616E-03 +1.03013019457E-03 +1.31644069492E-03 +1.03779308386E-03 +1.80281066421E-01 -3.97635845507E-01
2.94500000000E+09 -6.35893460525E-02 -3.21330515153E-01 +1.03101891150E-03 +1.06025313438E-03 +1.07050019996E-03 +1.07551553438E-03 +1.41022787545E-01 -3.96663842234E-01
2.95000000000E+09 -9.53633113973E-02 -3.01266379615E-01 +1.50319102450E-03 +1.26671235987E-03 +1.37321020154E-03 +1.31468582163E-03 +1.01103227986E-01 -3.94475178039E-01
2.95500000000E+09 -1.25636313460E-01 -2.77590962522E-01 +1.78809889813E-03 +9.58613703862E-04 +1.76501871615E-03 +9.18010523876E-04 +6.12842102383E-02 -3.89025502864E-01
2.96000000000E+09 -1.54804441064E-01 -2.52220579477E-01 +1.44667605912E-03 +4.74018513119E-04 +1.40199218165E-03 +4.66230049132E-04 +2.00172947524E-02 -3.80819950009E-01
2.96500000000E+09 -1.82094212129E-01 -2.24407311971E-01 +1.08963902562E-03 +8.70009140429E-04 +1.11946563338E-03 +8.34673605585E-04 -2.08115468210E-02 -3.67544776200E-01
2.97000000000E+09 -2.06375899275E-01 -1.96588581509E-01 +1.43370720616E-03 +1.32513202777E-03 +1.51769269410E-03 +1.26351891876E-03 -5.95013448650E-02 -3.52124695487E-01
2.97500000000E+09 -2.29664845373E-01 -1.68225381566E-01 +2.44202028004E-03 +1.15909385755E-03 +2.31041833492E-03 +1.11351894470E-03 -9.75521419171E-02 -3.35598811391E-01
2.98000000000E+09 -2.50908187509E-01 -1.38537700874E-01 +2.50788059309E-03 +4.63105407242E-04 +2.44409877081E-03 +6.21691028123E-04 -1.35156047432E-01 -3.16460525892E-01
2.98500000000E+09 -2.69888506428E-01 -1.07788418235E-01 +2.45580605658E-03 +1.13297661220E-04 +2.56139351206E-03 +2.52906661854E-04 -1.71569156390E-01 -2.94959268200E-01
2.99000000000E+09 -2.86454319108E-01 -7.52421172995E-02 +2.61638398011E-03 -1.61456614541E-05 +2.73100622954E-03 +1.02970076691E-04 -2.06935383600E-01 -2.69902552135E-01
2.99500000000E+09 -3.00230510442E-01 -4.20786770634E-02 +2.62709239856E-03 -4.95711189813E-04 +2.73060478896E-03 -6.17936249868E-04 -2.40578758870E-01 -2.41331764234E-01
3.00000000000E+09 -3.12049245893E-01 -8.45398481104E-03 +2.67856152869E-03 -7.91704178472E-04 +2.65581929613E-03 -8.83807951823E-04 -2.71511434151E-01 -2.09866424539E-01
3.00500000000E+09 -3.22150288694E-01 +2.48224276113E-02 +2.64677226867E-03 -1.22769184003E-03 +2.57762437451E-03 -1.22971555431E-03 -3.00005124192E-01 -1.77710013777E-01
3.01000000000E+09 -3.30516355105E-01 +5.83125383707E-02 +2.33599844085E-03 -1.70486940609E-03 +2.25020667747E-03 -1.58527420152E-03 -3.26974393453E-01 -1.43204975866E-01
3.01500000000E+09 -3.36658615576E-01 +9.16253543315E-02 +2.14943732260E-03 -1.97826200176E-03 +2.22771990607E-03 -1.80957831171E-03 -3.51312334430E-01 -1.07751082891E-01
3.02000000000E+09 -3.39645199374E-01 +1.23484629737E-01 +1.69969132960E-03 -2.38136271799E-03 +1.87657013723E-03 -2.40015110531E-03 -3.72404143543E-01 -7.02507412915E-02
3.02500000000E+09 -3.40167282696E-01 +1.53817461641E-01 +1.24064650508E-03 -2.25261335027E-03 +1.31510137599E-03 -2.34062195012E-03 -3.89820642044E-01 -3.25967568813E-02
3.03000000000E+09 -3.38422934597E-01 +1.82432854566E-01 +1.09258478198E-03 -2.36937073570E-03 +1.08310516774E-03 -2.43735031378E-03 -4.05373593464E-01 +6.72708202773E-03
3.03500000000E+09 -3.34163628125E-01 +2.11259644104E-01 +6.64165738090E-04 -2.17914664455E-03 +7.13530151829E-04 -2.23440557702E-03 -4.17659121037E-01 +4.71607403159E-02
3.04000000000E+09 -3.26411093444E-01 +2.40255247621E-01 +9.14326058465E-04 -2.40515405283E-03 +8.87256973103E-04 -2.45377379170E-03 -4.25309259818E-01 +8.76423918113E-02
3.04500000000E+09 -3.15889751570E-01 +2.67920199229E-01 +4.28547876565E-04 -2.54154072790E-03 +3.78214401708E-04 -2.67795446991E-03 -4.31486916675E-01 +1.26678708830E-01
3.05000000000E+09 -3.03836671742E-01 +2.97025845500E-01 +2.61217061487E-04 -2.33956972300E-03 +1.38827803563E-04 -2.48714599630E-03 -4.35174329763E-01 +1.65490284599E-01
3.05500000000E+09 -2.89396936959E-01 +3.24992575045E-01 +2.27937451327E-04 -2.52934701326E-03 +5.39034019861E-05 -2.56509563107E-03 -4.36754917003E-01 +2.04112244679E-01
3.06000000000E+09 -2.75261279806E-01 +3.52417404831E-01 -8.55115070535E-05 -2.83286722237E-03 -2.44288694574E-04 -2.69403007446E-03 -4.35500183550E-01 +2.41835909725E-01
3.06500000000E+09 -2.60811535296E-01 +3.79124914169E-01 -5.07710637328E-04 -3.00970510716E-03 -4.30228071690E-04 -2.84525035873E-03 -4.31901357936E-01 +2.79041412158E-01
3.07000000000E+09 -2.47090963217E-01 +4.04248431868E-01 -1.38893702535E-03 -3.06362071415E-03 -1.19015717382E-03 -3.03208494390E-03 -4.25972970188E-01 +3.14922534371E-01
