# Hz S RI R 50
! CMT, C1220, 16058040, 17.2.0/1
! Date: 15/08/2018 10:42:20
! Data: Format (Calibration Info)
! Freq                      S11: Re/Im (F2)                       S21: Re/Im (F2)                       S12: Re/Im (F2)                       S22: Re/Im (F2)            
2.50000000000E+09 +5.92417904883E-01 +6.51586657395E-01 -1.24616394261E-05 -3.96417132641E-04 -4.57215961345E-05 -3.91121428985E-04 +5.64387329633E-01 +7.24866640789E-01
2.50500000000E+09 +5.99224363010E-01 +6.43283519544E-01 -1.05344460553E-04 -4.20366207822E-04 -9.73995015255E-05 -4.70703851359E-04 +5.70302837215E-01 +7.19258774103E-01
2.51000000000E+09 +6.06806266082E-01 +6.35008236682E-01 -1.73837448401E-04 -4.51612451515E-04 -1.85720207092E-04 -4.43602141886E-04 +5.76212872011E-01 +7.13925990536E-01
2.51500000000E+09 +6.14612560693E-01 +6.27220748347E-01 -2.59174954466E-04 -4.35759823751E-04 -2.28903547866E-04 -4.07425098538E-04 +5.81714504015E-01 +7.08318229171E-01
2.52000000000E+09 +6.21633513689E-01 +6.19628380040E-01 -2.84341595839E-04 -4.27122752081E-04 -2.16822480041E-04 -4.13142155791E-04 +5.87018622593E-01 +7.02284270676E-01
2.52500000000E+09 +6.27577153220E-01 +6.13190677168E-01 -3.72519667561E-04 -4.20071100363E-04 -3.32454801431E-04 -4.24772058354E-04 +5.93073065332E-01 +6.95728761670E-01
2.53000000000E+09 +6.32455914003E-01 +6.07492002071E-01 -3.64470273587E-04 -4.09183736211E-04 -4.01256802105E-04 -3.81867839282E-04 +5.99401206831E-01 +6.88635322246E-01
2.53500000000E+09 +6.36657011592E-01 +6.01967355365E-01 -4.38049814481E-04 -3.52537791687E-04 -4.74936911184E-04 -3.60054975787E-04 +6.05247273929E-01 +6.81413930794E-01
2.54000000000E+09 +6.39902833397E-01 +5.95976248130E-01 -4.73270461638E-04 -3.44515260235E-04 -4.78606627429E-04 -3.46245183532E-04 +6.10854653658E-01 +6.74579410656E-01
2.54500000000E+09 +6.43407419469E-01 +5.89793626814E-01 -5.47959721457E-04 -3.19989954233E-04 -5.05688211425E-04 -3.42717706954E-04 +6.16287633617E-01 +6.68154923110E-01
2.55000000000E+09 +6.47855532865E-01 +5.82247322801E-01 -5.94563137195E-04 -2.58216480791E-04 -5.97397560298E-04 -3.33725841176E-04 +6.21307345886E-01 +6.62089220361E-01
2.55500000000E+09 +6.53221486856E-01 +5.73234621345E-01 -6.16643641593E-04 -2.01645873692E-04 -6.99060680774E-04 -2.62736984612E-04 +6.26183906283E-01 +6.55807031417E-01
2.56000000000E+09 +6.59874682743E-01 +5.63532062090E-01 -6.54004203518E-04 -1.65799764258E-04 -7.11086112995E-04 -1.74941623980E-04 +6.31204915778E-01 +6.48826619138E-01
2.56500000000E+09 +6.67218871903E-01 +5.53096875925E-01 -7.26573540247E-04 -1.62499359145E-04 -8.20262159408E-04 -3.02569636229E-05 +6.36518913028E-01 +6.41284846049E-01
2.57000000000E+09 +6.75001961421E-01 +5.43083141129E-01 -7.83877903336E-04 -1.03196493600E-04 -8.47033054119E-04 +7.69556183243E-05 +6.41446194514E-01 +6.33654972851E-01
2.57500000000E+09 +6.82702316231E-01 +5.33751066684E-01 -8.75105524571E-04 -3.05339129287E-05 -7.89701002017E-04 +8.71915535401E-05 +6.46689387502E-01 +6.26444824623E-01
2.58000000000E+09 +6.89242611429E-01 +5.25524731509E-01 -9.17374107898E-04 +2.83191543068E-05 -7.78466149966E-04 +6.31563591472E-05 +6.51798718645E-01 +6.19275955784E-01
2.58500000000E+09 +6.94616300182E-01 +5.18184482102E-01 -1.02430267138E-03 +1.49013612004E-04 -9.08961762675E-04 +9.37939040216E-05 +6.56934102298E-01 +6.12177367573E-01
2.59000000000E+09 +6.98542750575E-01 +5.12330704225E-01 -1.04349895929E-03 +4.11583302443E-04 -9.97523741043E-04 +2.87622116701E-04 +6.62003199997E-01 +6.04923577832E-01
2.59500000000E+09 +7.01734779046E-01 +5.06366638210E-01 -9.86842965316E-04 +5.72764843089E-04 -9.67337116728E-04 +5.23955198291E-04 +6.67267161970E-01 +5.97257688773E-01
2.60000000000E+09 +7.04222101529E-01 +4.99646963557E-01 -8.10274790208E-04 +6.60912180735E-04 -8.76809409997E-04 +6.23816960569E-04 +6.72906909234E-01 +5.89162606823E-01
2.60500000000E+09 +7.06842035236E-01 +4.91289677317E-01 -8.45870312674E-04 +6.86828218655E-04 -8.14632063388E-04 +6.81733593269E-04 +6.78646877200E-01 +5.80263887811E-01
2.61000000000E+09 +7.09680451083E-01 +4.81019506131E-01 -9.00029889153E-04 +8.89381724999E-04 -8.65910819155E-04 +8.65539001140E-04 +6.84053761576E-01 +5.71357211487E-01
2.61500000000E+09 +7.13636657698E-01 +4.68561905055E-01 -6.40843794061E-04 +1.02340165733E-03 -6.63910203876E-04 +1.04388578563E-03 +6.89093125193E-01 +5.62781234631E-01
2.62000000000E+09 +7.18044030415E-01 +4.54207515452E-01 -5.84342790429E-04 +9.68817469174E-04 -6.23581663757E-04 +1.01891002865E-03 +6.94165481395E-01 +5.53792256126E-01
2.62500000000E+09 +7.23096600985E-01 +4.38910538404E-01 -6.15195799215E-04 +1.01430032623E-03 -5.48178407778E-04 +1.12391374141E-03 +6.99154594124E-01 +5.44754063455E-01
2.63000000000E+09 +7.28378483970E-01 +4.23592655385E-01 -6.15702088536E-04 +1.20094112390E-03 -4.38194382461E-04 +1.21882061011E-03 +7.03914016945E-01 +5.35237228388E-01
2.63500000000E+09 +7.33283689948E-01 +4.09500351080E-01 -5.54296218940E-04 +1.32304744153E-03 -3.59851768867E-04 +1.23822751483E-03 +7.08431707559E-01 +5.25960200508E-01
2.64000000000E+09 +7.37693958854E-01 +3.97293981562E-01 -3.07190156101E-04 +1.70510951659E-03 -2.52982997069E-04 +1.44870104631E-03 +7.12934129102E-01 +5.16181920862E-01
2.64500000000E+09 +7.41857103598E-01 +3.87016625927E-01 +2.17558078335E-04 +1.69911182298E-03 +9.92962265562E-05 +1.50960067351E-03 +7.17517306212E-01 +5.06438193604E-01
2.65000000000E+09 +7.44617584719E-01 +3.78176935224E-01 +3.60362213064E-04 +1.40885323252E-03 +1.51686903647E-04 +1.39438564552E-03 +7.21605196793E-01 +4.96473170947E-01
2.65500000000E+09 +7.46829575273E-01 +3.69944505826E-01 +2.94850158359E-04 +1.30301787327E-03 +1.79525303747E-04 +1.40549783966E-03 +7.25452464327E-01 +4.85951568904E-01
2.66000000000E+09 +7.48436119122E-01 +3.61574322584E-01 +2.06615073394E-04 +1.45998188379E-03 +2.38912360710E-04 +1.65048501699E-03 +7.29499240681E-01 +4.74973191899E-01
2.66500000000E+09 +7.49964171694E-01 +3.52382570443E-01 +4.56710462384E-04 +1.70350749021E-03 +5.83771039672E-04 +1.72581497106E-03 +7.33683012033E-01 +4.64191510870E-01
2.67000000000E+09 +7.51292001749E-01 +3.40823978607E-01 +8.30333253802E-04 +1.74012454584E-03 +9.24954627712E-04 +1.64329254777E-03 +7.38065793743E-01 +4.53607764718E-01
2.67500000000E+09 +7.52771246695E-01 +3.27400797528E-01 +1.14593852712E-03 +1.70617311141E-03 +1.08677357170E-03 +1.54652965173E-03 +7.42189375809E-01 +4.42564937489E-01
2.68000000000E+09 +7.54467152843E-01 +3.11735432324E-01 +1.43112937567E-03 +1.43310057447E-03 +1.33111359715E-03 +1.39339252567E-03 +7.46121597803E-01 +4.31683289537E-01
2.68500000000E+09 +7.55855882184E-01 +2.94912364004E-01 +1.47100934749E-03 +1.37698470001E-03 +1.38727732343E-03 +1.35425315600E-03 +7.49411304594E-01 +4.20471520546E-01
2.69000000000E+09 +7.57479956032E-01 +2.77934904560E-01 +1.72797090559E-03 +1.34283229275E-03 +1.74711019223E-03 +1.28441227797E-03 +7.52403825979E-01 +4.08855766875E-01
2.69500000000E+09 +7.59085460757E-01 +2.61368097848E-01 +2.03768020451E-03 +1.08603648661E-03 +1.98055842566E-03 +1.08731422270E-03 +7.55518577795E-01 +3.96594585787E-01
2.70000000000E+09 +7.60445250504E-01 +2.45463775437E-01 +2.31513549559E-03 +8.07997723769E-04 +2.22670143798E-03 +8.30487070461E-04 +7.58922803231E-01 +3.83227969008E-01
2.70500000000E+09 +7.61526972351E-01 +2.31195634544E-01 +2.50042580595E-03 +4.35271576642E-04 +2.43675372271E-03 +5.35185141553E-04 +7.61826245111E-01 +3.70089225549E-01
2.71000000000E+09 +7.62425603553E-01 +2.17873062909E-01 +2.52625712196E-03 +5.66481895393E-05 +2.57714963755E-03 +1.77046468180E-04 +7.64953476432E-01 +3.57239377834E-01
2.71500000000E+09 +7.62854962995E-01 +2.04742233214E-01 +2.39098929437E-03 -3.75957842349E-04 +2.60287717532E-03 -3.21854545777E-04 +7.67905689878E-01 +3.44702162491E-01
2.72000000000E+09 +7.62913397316E-01 +1.91764759777E-01 +2.29827276263E-03 -5.16416478150E-04 +2.44689487554E-03 -7.12248564938E-04 +7.70336397961E-01 +3.31999031748E-01
2.72500000000E+09 +7.62914281037E-01 +1.77553992464E-01 +2.28385035236E-03 -7.19745105866E-04 +2.27599593284E-03 -9.70840487960E-04 +7.71992372906E-01 +3.18413162855E-01
2.73000000000E+09 +7.61526623537E-01 +1.62187252527E-01 +2.38124142874E-03 -1.00213631173E-03 +2.06788039475E-03 -1.13819689778E-03 +7.73694918348E-01 +3.04129863253E-01
2.73500000000E+09 +7.59626069808E-01 +1.45465921187E-01 +2.19628167987E-03 -1.43216976759E-03 +1.90063739877E-03 -1.24112281469E-03 +7.75231094237E-01 +2.89046251348E-01
2.74000000000E+09 +7.56797682642E-01 +1.28302406182E-01 +1.89841754738E-03 -1.57853909693E-03 +1.78356741439E-03 -1.27935391439E-03 +7.76975800941E-01 +2.73538012763E-01
2.74500000000E+09 +7.53223473962E-01 +1.10386972109E-01 +1.95537080259E-03 -1.80260141270E-03 +2.06014552468E-03 -1.38820854920E-03 +7.78460781617E-01 +2.57828298665E-01
2.75000000000E+09 +7.48617560407E-01 +9.22882022528E-02 +1.76393509477E-03 -2.13686980665E-03 +2.03747601383E-03 -2.03220963039E-03 +7.79374997940E-01 +2.42030952767E-01
2.75500000000E+09 +7.43642765863E-01 +7.48875375726E-02 +1.46103975519E-03 -2.39698118990E-03 +1.72473596663E-03 -2.43951415535E-03 +7.79128260131E-01 +2.26324519183E-01
2.76000000000E+09 +7.38591312702E-01 +5.75849934646E-02 +1.05857955901E-03 -2.65819665598E-03 +1.21337147554E-03 -2.87539053833E-03 +7.78303778793E-01 +2.10764773284E-01
2.76500000000E+09 +7.33068370408E-01 +4.00418770047E-02 +6.50328804319E-04 -2.60058171683E-03 +7.02873619545E-04 -2.74015789784E-03 +7.77564554238E-01 +1.93803516094E-01
2.77000000000E+09 +7.26967135689E-01 +2.17528105292E-02 +5.04186948159E-04 -2.70721283353E-03 +4.64625681629E-04 -2.86538645090E-03 +7.75936657783E-01 +1.75975682764E-01
2.77500000000E+09 +7.19968405846E-01 +2.89280713811E-03 +6.27600114206E-05 -2.82830568859E-03 +3.86884284622E-05 -2.92961934042E-03 +7.73719882558E-01 +1.58130467979E-01
2.78000000000E+09 +7.13007654972E-01 -1.66806552576E-02 -2.67637826324E-04 -2.73632084721E-03 -3.75969051622E-04 -2.74601732812E-03 +7.71189027323E-01 +1.40501065776E-01
2.78500000000E+09 +7.05201802622E-01 -3.75492392191E-02 -4.84568478014E-04 -2.47460785111E-03 -5.99682666608E-04 -2.43648120294E-03 +7.68641626876E-01 +1.23278681451E-01
2.79000000000E+09 +6.96928582590E-01 -5.84714423685E-02 -5.02530467232E-04 -2.62952270349E-03 -5.88701081849E-04 -2.53972828285E-03 +7.65344427882E-01 +1.06135341242E-01
2.79500000000E+09 +6.88568220660E-01 -7.94235783237E-02 -7.93317907823E-04 -2.85293749679E-03 -7.40173449704E-04 -2.66898787396E-03 +7.61336989170E-01 +8.84092223798E-02
2.80000000000E+09 +6.79601619515E-01 -1.00005123304E-01 -1.41156069836E-03 -2.84627128061E-03 -1.25095193458E-03 -2.70278096258E-03 +7.56388456170E-01 +7.03099462244E-02
2.80500000000E+09 +6.69957692680E-01 -1.19519971263E-01 -1.73334579639E-03 -2.54871289693E-03 -1.62108594952E-03 -2.66105228469E-03 +7.50964755553E-01 +5.16701565455E-02
2.81000000000E+09 +6.59105055462E-01 -1.37181739000E-01 -2.01871996742E-03 -2.24487226649E-03 -2.08601851804E-03 -2.31113315819E-03 +7.45483162055E-01 +3.28674847326E-02
2.81500000000E+09 +6.46608185917E-01 -1.53192983311E-01 -2.11269010262E-03 -2.10738825993E-03 -2.20189435507E-03 -2.12614545339E-03 +7.39452401883E-01 +1.26618839334E-02
2.82000000000E+09 +6.33068008714E-01 -1.67376332278E-01 -2.69551991145E-03 -1.93480502119E-03 -2.73097516996E-03 -1.80787868462E-03 +7.32334243365E-01 -7.64162079493E-03
2.82500000000E+09 +6.18413906943E-01 -1.81390524621E-01 -2.90190241081E-03 -1.55607217268E-03 -2.81652144265E-03 -1.33974105510E-03 +7.23908433422E-01 -2.78696868864E-02
2.83000000000E+09 +6.01539414697E-01 -1.96729538157E-01 -3.15098454861E-03 -1.15820032748E-03 -2.98690076677E-03 -1.10302591941E-03 +7.15129203725E-01 -4.81860267080E-02
2.83500000000E+09 +5.82216710905E-01 -2.12749792468E-01 -3.12200931781E-03 -4.96113048215E-04 -2.92345855364E-03 -5.11759155235E-04 +7.04995090949E-01 -6.90153270652E-02
2.84000000000E+09 +5.60923669699E-01 -2.30465436234E-01 -2.78545802383E-03 -2.52436315140E-04 -2.74515439895E-03 -3.58291358419E-04 +6.93812181874E-01 -9.03353141699E-02
2.84500000000E+09 +5.37135009942E-01 -2.49813036230E-01 -2.77113970285E-03 -2.61914624804E-04 -2.76778578783E-03 -3.58596200748E-04 +6.80500051584E-01 -1.11877670323E-01
2.85000000000E+09 +5.12075525154E-01 -2.69489572583E-01 -3.07673703699E-03 -3.45187296780E-05 -3.06199424410E-03 -6.17768096856E-05 +6.65975384083E-01 -1.32244933093E-01
2.85500000000E+09 +4.85167048615E-01 -2.88733878845E-01 -3.20686960518E-03 +3.80983953538E-04 -3.15434284224E-03 +4.20498226584E-04 +6.50417689444E-01 -1.52209821317E-01
2.86000000000E+09 +4.58788419708E-01 -3.05015483678E-01 -2.95746003457E-03 +9.40868864887E-04 -2.93891811386E-03 +9.25985453924E-04 +6.34911618960E-01 -1.71997433842E-01
2.86500000000E+09 +4.34730751953E-01 -3.19479667564E-01 -2.82081047987E-03 +7.00591723515E-04 -2.85280833653E-03 +7.10801588308E-04 +6.17371311464E-01 -1.92914964673E-01
2.87000000000E+09 +4.10954349519E-01 -3.33148028472E-01 -3.27102469851E-03 +1.56592141266E-03 -3.28302824567E-03 +1.58044969278E-03 +5.98017154922E-01 -2.12868341338E-01
2.87500000000E+09 +3.86853556798E-01 -3.44350121620E-01 -2.41149572742E-03 +1.67658631622E-03 -2.39189764696E-03 +1.75313379220E-03 +5.77165185635E-01 -2.32056036889E-01
2.88000000000E+09 +3.61975706270E-01 -3.53946623407E-01 -2.78264805912E-03 +1.81751802481E-03 -2.59489709739E-03 +1.77358829478E-03 +5.56360374524E-01 -2.49796427407E-01
2.88500000000E+09 +3.34022973528E-01 -3.61123578838E-01 -2.48654675395E-03 +2.49608972284E-03 -2.25158353870E-03 +2.39446168339E-03 +5.34482355721E-01 -2.68771616892E-01
2.89000000000E+09 +3.04453419632E-01 -3.65246433756E-01 -2.06045429759E-03 +2.55737040343E-03 -2.00600514303E-03 +2.35548773827E-03 +5.09526992586E-01 -2.86889054099E-01
2.89500000000E+09 +2.73586333098E-01 -3.68233634862E-01 -2.04213505260E-03 +2.63982409646E-03 -2.08432794634E-03 +2.48714978750E-03 +4.83095364470E-01 -3.03856854384E-01
2.90000000000E+09 +2.40444414838E-01 -3.70411871712E-01 -1.82191675282E-03 +3.32098708900E-03 -1.92263498585E-03 +3.26425643580E-03 +4.55652253761E-01 -3.20626590666E-01
2.90500000000E+09 +2.05132023178E-01 -3.71593244890E-01 -1.38947388022E-03 +3.49665430024E-03 -1.43854469866E-03 +3.56381513468E-03 +4.26915553173E-01 -3.36139607655E-01
2.91000000000E+09 +1.69422171581E-01 -3.70923607419E-01 -6.20294879072E-04 +3.89239286798E-03 -5.22727931997E-04 +3.88425708410E-03 +3.97510775010E-01 -3.51833413048E-01
2.91500000000E+09 +1.33636306315E-01 -3.69112488784E-01 -1.50371966295E-04 +3.78622148849E-03 -1.49879214150E-05 +3.64773209527E-03 +3.64333599951E-01 -3.65371532864E-01
2.92000000000E+09 +9.80080703983E-02 -3.65467275488E-01 +7.16705310122E-04 +3.61015797011E-03 +6.40072361187E-04 +3.39703832133E-03 +3.29979924639E-01 -3.75931673096E-01
2.92500000000E+09 +6.43442395481E-02 -3.57956429241E-01 +8.97725235272E-04 +2.94092100669E-03 +7.27320169537E-04 +2.85429547178E-03 +2.94372261554E-01 -3.83566597058E-01
2.93000000000E+09 +3.30680872702E-02 -3.48885237595E-01 +7.42539114874E-04 +2.90356134352E-03 +5.65049270313E-04 +2.92268995616E-03 +2.58180205254E-01 -3.90296220224E-01
2.93500000000E+09 +2.75166001536E-03 -3.37736947657E-01 +1.04560006770E-03 +3.04202774318E-03 +1.00985895483E-03 +3.11692450139E-03 +2.19721121487E-01 -3.95858640004E-01
2.94000000000E+09 -2.65695422440E-02 -3.23552669254E-01 +1.34391577030E-03 +2.60240982641E-03 +1.31420280720E-03 +2.67360378742E-03 +1.78503278968E-01 -3.98589287213E-01
2.94500000000E+09 -5.53256354036E-02 -3.07912796611E-01 +9.35866439789E-04 +3.08518547738E-03 +8.84400091684E-04 +3.00594663917E-03 +1.39298796962E-01 -3.97031214468E-01
2.95000000000E+09 -8.56240593609E-02 -2.88750700299E-01 +2.08763090253E-03 +3.22926037449E-03 +1.95638284469E-03 +3.24972265768E-03 +9.94528435376E-02 -3.94804090237E-01
2.95500000000E+09 -1.14223611790E-01 -2.65669027687E-01 +2.58059479044E-03 +2.76898845118E-03 +2.57857484103E-03 +2.92681912296E-03 +5.94479959703E-02 -3.89247621868E-01
2.96000000000E+09 -1.42046557061E-01 -2.42336451605E-01 +2.69681936200E-03 +1.73207203176E-03 +2.71973844082E-03 +1.77765311439E-03 +1.81968566607E-02 -3.80500846410E-01
2.96500000000E+09 -1.68973757993E-01 -2.15648014660E-01 +2.10778386681E-03 +1.87343340378E-03 +2.15124274029E-03 +1.92429842096E-03 -2.23406023822E-02 -3.67225946791E-01
2.97000000000E+09 -1.92243719793E-01 -1.88408510712E-01 +2.34907501338E-03 +2.10954233341E-03 +2.44776193765E-03 +2.13333013722E-03 -6.13598702112E-02 -3.51586332277E-01
2.97500000000E+09 -2.14039403587E-01 -1.61734195062E-01 +2.90625154699E-03 +2.40322849882E-03 +2.84536614092E-03 +2.28881782545E-03 -9.91199572975E-02 -3.34661897794E-01
2.98000000000E+09 -2.35253853355E-01 -1.33602340980E-01 +3.73290309074E-03 +2.06714433874E-03 +3.59901074739E-03 +2.16745376369E-03 -1.36686930907E-01 -3.15404965597E-01
2.98500000000E+09 -2.53152515364E-01 -1.03818072837E-01 +4.21398961192E-03 +1.17832480675E-03 +4.18189562259E-03 +1.42675147065E-03 -1.73084066408E-01 -2.93715514525E-01
2.99000000000E+09 -2.68683974786E-01 -7.32555328828E-02 +4.28416005095E-03 +6.73784382509E-04 +4.47826725173E-03 +7.97269011617E-04 -2.08334124131E-01 -2.68010323943E-01
2.99500000000E+09 -2.82086113188E-01 -4.27310616593E-02 +4.33631343754E-03 +2.49855192389E-04 +4.47927934768E-03 +1.83964396271E-04 -2.41186087921E-01 -2.39112705054E-01
3.00000000000E+09 -2.95085748749E-01 -1.09617443256E-02 +4.62331598105E-03 -3.99052277723E-04 +4.67356010046E-03 -5.93763744051E-04 -2.71565680716E-01 -2.08074526532E-01
3.00500000000E+09 -3.05346285073E-01 +2.14734895020E-02 +4.71587091270E-03 -1.11238291745E-03 +4.48009315299E-03 -1.18600426014E-03 -3.00332099845E-01 -1.76051858357E-01
3.01000000000E+09 -3.13932111292E-01 +5.29742621255E-02 +4.24148367695E-03 -2.22057865881E-03 +4.14714748236E-03 -2.02508007021E-03 -3.26929627646E-01 -1.41029225378E-01
3.01500000000E+09 -3.21241674436E-01 +8.49743935847E-02 +3.59402750793E-03 -2.46543290675E-03 +3.65645034991E-03 -2.27673346560E-03 -3.50436341212E-01 -1.05736486052E-01
3.02000000000E+09 -3.24495984201E-01 +1.16026958226E-01 +3.28812336171E-03 -2.69448695941E-03 +3.46141726600E-03 -2.68442400298E-03 -3.71215356635E-01 -6.89177382138E-02
3.02500000000E+09 -3.25361473988E-01 +1.44725603124E-01 +3.27015122789E-03 -2.97339858708E-03 +3.36085039529E-03 -3.05056715756E-03 -3.88828552809E-01 -3.17650460790E-02
3.03000000000E+09 -3.24765169209E-01 +1.71586950691E-01 +2.75794767844E-03 -3.57595408981E-03 +2.87293755627E-03 -3.65034767915E-03 -4.04673113945E-01 +7.67452655814E-03
3.03500000000E+09 -3.21926776086E-01 +1.99432334459E-01 +2.24485684583E-03 -3.83200219179E-03 +2.29753069457E-03 -3.81038211239E-03 -4.16886475725E-01 +4.81551556566E-02
3.04000000000E+09 -3.15491176200E-01 +2.27604605634E-01 +1.58814588504E-03 -4.42381419715E-03 +1.73439877203E-03 -4.48636017725E-03 -4.24388554767E-01 +8.87443858897E-02
3.04500000000E+09 -3.06585052997E-01 +2.54934676727E-01 +6.51259907937E-04 -3.84539767453E-03 +7.68721708140E-04 -4.11025956221E-03 -4.30220551928E-01 +1.27662440891E-01
3.05000000000E+09 -2.95494110743E-01 +2.84016954354E-01 +7.72904678612E-04 -3.73016317574E-03 +6.91519220045E-04 -3.94500173699E-03 -4.33735397655E-01 +1.65762712630E-01
3.05500000000E+09 -2.81870074226E-01 +3.11649965830E-01 +5.12212803092E-04 -3.94068137952E-03 +2.17092434483E-04 -4.03887097989E-03 -4.35584099017E-01 +2.04168365809E-01
3.06000000000E+09 -2.68681732235E-01 +3.38693300003E-01 +7.60617221217E-05 -4.22322138977E-03 -2.08573877829E-04 -4.02543276636E-03 -4.34711650927E-01 +2.41715248170E-01
3.06500000000E+09 -2.55035593612E-01 +3.65080263548E-01 -5.13059094181E-04 -4.45916997726E-03 -4.59571939463E-04 -4.21775025305E-03 -4.31136187900E-01 +2.79084951430E-01
3.07000000000E+09 -2.42660730887E-01 +3.89667862468E-01 -1.52553407934E-03 -4.20921090660E-03 -1.31104343439E-03 -4.20136355280E-03 -4.25663634584E-01 +3.15060093799E-01
