# Hz S RI R 50
! CMT, C1220, 16058040, 17.2.0/1
! Date: 15/08/2018 10:19:34
! Data: Format (Calibration Info)
! Freq                      S11: Re/Im (F2)                       S21: Re/Im (F2)                       S12: Re/Im (F2)                       S22: Re/Im (F2)            
2.50000000000E+09 +5.96808125637E-01 +6.34852322570E-01 -2.08998417626E-04 +2.52768560829E-04 -2.03883518119E-04 +2.44098500686E-04 +5.73642553238E-01 +7.16800807353E-01
2.50500000000E+09 +6.03200083074E-01 +6.26970812621E-01 -1.43444908704E-04 +2.72041086536E-04 -1.27523917077E-04 +2.53910532484E-04 +5.79214050000E-01 +7.11178487519E-01
2.51000000000E+09 +6.09691107063E-01 +6.18804004898E-01 -5.58213071460E-05 +2.64679723926E-04 -1.15502676465E-05 +2.56417550305E-04 +5.84738657525E-01 +7.05859488031E-01
2.51500000000E+09 +6.15937031669E-01 +6.10860212402E-01 -4.63349381038E-05 +2.49222626397E-04 -8.57257851557E-05 +2.15745657055E-04 +5.89914041513E-01 +7.00537606097E-01
2.52000000000E+09 +6.21878395890E-01 +6.02971167685E-01 -6.11161982639E-06 +2.62804183018E-04 -8.59176242854E-05 +3.09596438410E-04 +5.95096321126E-01 +6.94469321718E-01
2.52500000000E+09 +6.27040483719E-01 +5.95683150312E-01 -1.01689876868E-05 +2.46806803806E-04 -4.32592001002E-05 +2.58768024285E-04 +6.00701976196E-01 +6.88071941040E-01
2.53000000000E+09 +6.31665209069E-01 +5.88831886064E-01 +3.78809917415E-05 +2.92691519810E-04 +4.02908010586E-06 +3.19728409730E-04 +6.06796416245E-01 +6.81318293561E-01
2.53500000000E+09 +6.36204157389E-01 +5.82654879303E-01 +2.80850288277E-05 +2.67802093957E-04 +4.05551566966E-05 +2.64746683340E-04 +6.12755104724E-01 +6.74268622611E-01
2.54000000000E+09 +6.40259423242E-01 +5.76442838715E-01 +6.57285319136E-05 +3.06684970895E-04 +1.66344440821E-05 +3.25852045533E-04 +6.18545627016E-01 +6.67506025474E-01
2.54500000000E+09 +6.44531873555E-01 +5.70683260494E-01 +1.52644908878E-04 +3.54251015215E-04 +1.46691183161E-04 +3.85288509658E-04 +6.24291491821E-01 +6.61168136469E-01
2.55000000000E+09 +6.49340389125E-01 +5.64811395380E-01 +2.80678303525E-04 +2.79460768148E-04 +2.59085281877E-04 +3.53725523582E-04 +6.29610958010E-01 +6.54766480425E-01
2.55500000000E+09 +6.54948388618E-01 +5.57731939422E-01 +3.40918795933E-04 +1.76838728212E-04 +3.47098610047E-04 +2.38090258813E-04 +6.34842250409E-01 +6.48181247098E-01
2.56000000000E+09 +6.60941466788E-01 +5.50411798582E-01 +3.00115476664E-04 -9.27284001632E-06 +3.06104455095E-04 +2.46269375500E-05 +6.40173862009E-01 +6.41135892719E-01
2.56500000000E+09 +6.67112561721E-01 +5.41981325751E-01 +1.07666126151E-04 +2.61989850296E-06 +1.78334836953E-04 -3.24998167080E-05 +6.45733175786E-01 +6.33553721527E-01
2.57000000000E+09 +6.73292047592E-01 +5.33266353355E-01 +5.36502614872E-05 +1.92757409963E-04 +7.15395491399E-05 +1.58016371400E-04 +6.50967783734E-01 +6.25547462020E-01
2.57500000000E+09 +6.79277018232E-01 +5.24247919120E-01 +2.40336906728E-04 +2.03755313174E-04 +2.80419372000E-04 +1.07530279496E-04 +6.56187629873E-01 +6.17774158465E-01
2.58000000000E+09 +6.84638302325E-01 +5.15503659633E-01 +2.69945634661E-04 +1.18717941005E-04 +2.26117867911E-04 +4.92243804493E-05 +6.61088721496E-01 +6.10492214031E-01
2.58500000000E+09 +6.89814105627E-01 +5.06486412037E-01 +2.95336654134E-04 +1.17999967414E-05 +2.56477755102E-04 +7.64108829607E-06 +6.65911227368E-01 +6.02847363918E-01
2.59000000000E+09 +6.94174489762E-01 +4.97989805206E-01 +1.72737471939E-04 -5.50956274177E-05 +1.58341451617E-04 -5.02582887798E-05 +6.70448514910E-01 +5.95297817588E-01
2.59500000000E+09 +6.98429118103E-01 +4.89549735886E-01 +1.02910415770E-04 +3.71871017900E-05 +1.30319463685E-04 -2.16262411016E-05 +6.75345055044E-01 +5.87319222354E-01
2.60000000000E+09 +7.02413408702E-01 +4.80884206509E-01 +1.18850876960E-04 +6.32796039738E-05 +1.64433512955E-04 +8.84971949350E-05 +6.80195368757E-01 +5.78692350262E-01
2.60500000000E+09 +7.06496544923E-01 +4.71588948611E-01 +1.22214381778E-04 +1.22187625715E-04 +1.36783659412E-04 +1.09575691266E-04 +6.85328156334E-01 +5.70251718311E-01
2.61000000000E+09 +7.10669885523E-01 +4.61367488472E-01 +2.30443495991E-04 +1.81112601752E-04 +2.67879857142E-04 +1.13823154939E-04 +6.90534935211E-01 +5.61559371710E-01
2.61500000000E+09 +7.15087194160E-01 +4.50013135149E-01 +2.83730549142E-04 +1.10597366392E-04 +3.25205942051E-04 +1.07117605677E-04 +6.95221567433E-01 +5.52780597621E-01
2.62000000000E+09 +7.19117827912E-01 +4.37645262200E-01 +2.72178061952E-04 +7.13468720404E-06 +2.88070592522E-04 -3.93900524869E-05 +6.99783591237E-01 +5.43848950608E-01
2.62500000000E+09 +7.23010027645E-01 +4.24499824905E-01 +2.34626807056E-04 +3.95500202162E-05 +3.02324887754E-04 +3.16224448646E-05 +7.04476881184E-01 +5.35092314326E-01
2.63000000000E+09 +7.26522822538E-01 +4.11051933123E-01 +2.83387891072E-04 +3.65878576206E-05 +2.70020430755E-04 +5.57742099136E-06 +7.09160173439E-01 +5.25979638811E-01
2.63500000000E+09 +7.29621952284E-01 +3.97675847442E-01 +4.04420286238E-04 +5.65273512276E-05 +3.76960987735E-04 +4.65833451068E-05 +7.14195362208E-01 +5.16824324786E-01
2.64000000000E+09 +7.32545178458E-01 +3.84755293275E-01 +4.99070918947E-04 -2.72121708322E-05 +4.32957951729E-04 -4.69019947090E-05 +7.19060015475E-01 +5.07023206142E-01
2.64500000000E+09 +7.35242923350E-01 +3.72782004853E-01 +4.52220032998E-04 -8.91188268836E-05 +3.60164765818E-04 -5.70730347015E-05 +7.23817737191E-01 +4.97191040198E-01
2.65000000000E+09 +7.37345836792E-01 +3.61431165242E-01 +4.83845151672E-04 -1.44781294165E-04 +4.75486245293E-04 -4.09902370284E-05 +7.28054494934E-01 +4.87215252226E-01
2.65500000000E+09 +7.39818639278E-01 +3.50487966296E-01 +5.25758293193E-04 -2.11025495407E-04 +6.13899938586E-04 -1.73492704119E-04 +7.32026357334E-01 +4.76873172061E-01
2.66000000000E+09 +7.42560643692E-01 +3.39717771566E-01 +5.19860444991E-04 -3.05782862779E-04 +5.59737693063E-04 -3.09653146268E-04 +7.35886119019E-01 +4.65635125433E-01
2.66500000000E+09 +7.45068345717E-01 +3.28380396737E-01 +5.87177520570E-04 -4.68818048344E-04 +5.53882829678E-04 -5.24009569697E-04 +7.39802529998E-01 +4.54609538489E-01
2.67000000000E+09 +7.47033150812E-01 +3.16191674543E-01 +4.09320252242E-04 -8.16557691345E-04 +3.65275666344E-04 -8.24788094427E-04 +7.43963956045E-01 +4.43900566843E-01
2.67500000000E+09 +7.48426497165E-01 +3.03697684931E-01 -1.75504093471E-05 -7.19832275793E-04 +2.19319329340E-05 -6.53277978790E-04 +7.48156522726E-01 +4.32713227724E-01
2.68000000000E+09 +7.49892098009E-01 +2.90433002314E-01 -7.93138145129E-06 -4.95996414282E-04 +6.88763626537E-05 -4.72318139707E-04 +7.51904850599E-01 +4.21313262288E-01
2.68500000000E+09 +7.50561987060E-01 +2.76310705218E-01 +9.36509671182E-05 -5.42522255571E-04 +1.46319569693E-04 -4.95628430256E-04 +7.54473397910E-01 +4.09696101746E-01
2.69000000000E+09 +7.50854602399E-01 +2.61950579644E-01 +1.28704264373E-05 -5.88445584780E-04 +7.45593773603E-05 -6.34042466332E-04 +7.56886031028E-01 +3.98236139995E-01
2.69500000000E+09 +7.50467926666E-01 +2.47748105833E-01 +3.61911985111E-06 -5.79417724000E-04 -1.07139663406E-05 -6.44213409361E-04 +7.59569571384E-01 +3.86219701068E-01
2.70000000000E+09 +7.50337748876E-01 +2.33877813586E-01 -1.11877380001E-04 -7.09635615442E-04 -4.69169832186E-05 -6.92295996325E-04 +7.62630867718E-01 +3.72906625277E-01
2.70500000000E+09 +7.50553650743E-01 +2.20618537301E-01 -2.29291353004E-04 -6.51538788658E-04 -2.08720758257E-04 -6.43510474418E-04 +7.65241737793E-01 +3.59461647858E-01
2.71000000000E+09 +7.51412135298E-01 +2.07413968542E-01 -3.60280616911E-04 -6.54868703674E-04 -3.83184588381E-04 -6.80117201741E-04 +7.67991962851E-01 +3.46774885423E-01
2.71500000000E+09 +7.52902348459E-01 +1.93413681363E-01 -4.77461409956E-04 -5.26125676130E-04 -5.61200981741E-04 -5.36969917783E-04 +7.70737527410E-01 +3.34339591223E-01
2.72000000000E+09 +7.53925243240E-01 +1.78703788417E-01 -4.77097832078E-04 -2.88602374069E-04 -5.60322099218E-04 -2.99350247411E-04 +7.72916474757E-01 +3.21806092995E-01
2.72500000000E+09 +7.54242059947E-01 +1.63178502593E-01 -2.22800383810E-04 -2.65389628107E-04 -2.79918318529E-04 -2.72191053629E-04 +7.74401907868E-01 +3.08669099125E-01
2.73000000000E+09 +7.53763839716E-01 +1.47283004316E-01 -2.84430695389E-04 -5.93520266814E-04 -3.10956932715E-04 -4.86024477943E-04 +7.75847204369E-01 +2.94869698093E-01
2.73500000000E+09 +7.51915451324E-01 +1.30390418344E-01 -4.80152614107E-04 -5.66071631681E-04 -3.92606031074E-04 -5.01350409105E-04 +7.77274996697E-01 +2.80362483003E-01
2.74000000000E+09 +7.49113719004E-01 +1.13867797521E-01 -6.74882949997E-04 -4.93775820029E-04 -5.63948394910E-04 -4.23038248890E-04 +7.78985473282E-01 +2.65437699305E-01
2.74500000000E+09 +7.45138706970E-01 +9.67622459035E-02 -7.00764021806E-04 -2.85277217475E-04 -6.70030470995E-04 -3.18350232456E-04 +7.80442310517E-01 +2.50059135267E-01
2.75000000000E+09 +7.39859749004E-01 +7.97505654652E-02 -6.18980676544E-04 -2.45470045576E-04 -5.82330090474E-04 -3.52537809431E-04 +7.81448886311E-01 +2.34993057019E-01
2.75500000000E+09 +7.33985391124E-01 +6.36630393487E-02 -6.40909187632E-04 -3.65322881058E-04 -6.71896851000E-04 -3.98492870113E-04 +7.81599847720E-01 +2.19336255564E-01
2.76000000000E+09 +7.28774862927E-01 +4.76421816552E-02 -8.85433965042E-04 -3.20987278587E-04 -9.11045194449E-04 -3.42660849351E-04 +7.81234988880E-01 +2.03894059855E-01
2.76500000000E+09 +7.23903009761E-01 +3.09263257205E-02 -1.05204763703E-03 -1.85151700978E-04 -1.09848897738E-03 -2.01392414625E-04 +7.80680460244E-01 +1.87024173724E-01
2.77000000000E+09 +7.18682122622E-01 +1.32214895964E-02 -1.06621687529E-03 +5.91012757416E-05 -1.11071049411E-03 +1.05276719953E-04 +7.79580308442E-01 +1.69336754966E-01
2.77500000000E+09 +7.13557926311E-01 -5.16407927801E-03 -8.97352758636E-04 +2.07411564511E-04 -9.57479096148E-04 +3.03090968640E-04 +7.77791977825E-01 +1.51085415148E-01
2.78000000000E+09 +7.07938778581E-01 -2.42133511446E-02 -1.01489625271E-03 +2.70545694286E-04 -1.02792463939E-03 +3.49133953213E-04 +7.76116841215E-01 +1.32956723483E-01
2.78500000000E+09 +7.01636582404E-01 -4.37483924094E-02 -1.01566642946E-03 +4.63399465157E-04 -9.41196926600E-04 +5.34243329292E-04 +7.73609420786E-01 +1.14670409763E-01
2.79000000000E+09 +6.94879941690E-01 -6.36297689058E-02 -8.89341912823E-04 +6.83189984451E-04 -7.97201212689E-04 +6.69655768148E-04 +7.70112951435E-01 +9.69924567708E-02
2.79500000000E+09 +6.86897998607E-01 -8.43479141882E-02 -8.82243740460E-04 +8.94064776523E-04 -7.88080606413E-04 +7.98308414833E-04 +7.66033628687E-01 +7.91047653704E-02
2.80000000000E+09 +6.76285996748E-01 -1.04138645470E-01 -5.29523086177E-04 +1.05551017206E-03 -5.68547857432E-04 +9.68251962047E-04 +7.61394243043E-01 +6.05017318740E-02
2.80500000000E+09 +6.65013993698E-01 -1.22029352677E-01 -2.32232199023E-04 +7.65606849902E-04 -2.84635328929E-04 +7.29111807903E-04 +7.55719229202E-01 +4.09971947537E-02
2.81000000000E+09 +6.53326766988E-01 -1.38983156343E-01 -3.75433364220E-04 +6.47510473298E-04 -4.17112989116E-04 +6.83972927044E-04 +7.49072241836E-01 +2.12986517234E-02
2.81500000000E+09 +6.40897797999E-01 -1.55349132404E-01 -4.78066696687E-04 +7.37703664539E-04 -4.42169162465E-04 +7.49256149981E-04 +7.41700333908E-01 +1.75959998386E-03
2.82000000000E+09 +6.27638221894E-01 -1.71517049471E-01 -5.94010808576E-04 +9.53460599022E-04 -5.40300963345E-04 +9.26859648485E-04 +7.34382085227E-01 -1.79769628009E-02
2.82500000000E+09 +6.13499586029E-01 -1.88177930109E-01 -2.01438050097E-04 +1.16659190737E-03 -1.73632875024E-04 +1.12234950501E-03 +7.25166627905E-01 -3.82562224239E-02
2.83000000000E+09 +5.96898825652E-01 -2.05022994294E-01 -3.89735740856E-05 +9.51933819234E-04 -7.80777914036E-05 +9.04674046808E-04 +7.15121696718E-01 -5.79445329759E-02
2.83500000000E+09 +5.79651255683E-01 -2.21652929007E-01 -1.97795523507E-04 +1.20085875493E-03 -2.00408510939E-04 +1.17270320583E-03 +7.04327055108E-01 -7.82888478759E-02
2.84000000000E+09 +5.61150293074E-01 -2.38920255288E-01 +3.24030387657E-04 +1.27728355445E-03 +2.23604827407E-04 +1.27656749566E-03 +6.92885098775E-01 -9.84805603550E-02
2.84500000000E+09 +5.40721367520E-01 -2.57310476710E-01 +1.76373510286E-04 +9.25035166723E-04 +1.42292537999E-04 +9.17595148644E-04 +6.80485871595E-01 -1.19394812883E-01
2.85000000000E+09 +5.18173240580E-01 -2.75423318236E-01 +3.40009095937E-04 +1.41740592568E-03 +3.76059474714E-04 +1.40344268188E-03 +6.66553176145E-01 -1.40547733509E-01
2.85500000000E+09 +4.93945462712E-01 -2.92899343178E-01 +8.49274565391E-04 +8.75350899050E-04 +8.71541618847E-04 +9.08569078296E-04 +6.51296420451E-01 -1.60908862712E-01
2.86000000000E+09 +4.68716861967E-01 -3.08352163282E-01 +3.17843449752E-04 +5.72695880406E-04 +2.80719691121E-04 +6.08536238629E-04 +6.35193913020E-01 -1.81130851882E-01
2.86500000000E+09 +4.44266822368E-01 -3.22639286929E-01 +2.24761355697E-04 +1.44738750145E-03 +1.37685633319E-04 +1.46907378997E-03 +6.17654632640E-01 -2.01834846327E-01
2.87000000000E+09 +4.19715865923E-01 -3.36574640895E-01 +1.39387072164E-03 +1.36824499188E-03 +1.45706110673E-03 +1.41578405112E-03 +5.98504865426E-01 -2.22160756165E-01
2.87500000000E+09 +3.94016014474E-01 -3.50351822711E-01 +1.27037494988E-03 +6.36891507701E-04 +1.34563991880E-03 +6.56880657201E-04 +5.77449177253E-01 -2.42100091522E-01
2.88000000000E+09 +3.66809471303E-01 -3.61681062145E-01 +1.14909607316E-03 +6.60984717668E-04 +1.08877642364E-03 +5.42208499760E-04 +5.56009039415E-01 -2.60503300371E-01
2.88500000000E+09 +3.39521211506E-01 -3.71326141896E-01 +1.30735767350E-03 +7.12718138327E-04 +1.28497519625E-03 +6.33505848449E-04 +5.32924634686E-01 -2.79396105593E-01
2.89000000000E+09 +3.11529609064E-01 -3.79234685458E-01 +1.24729236401E-03 +4.52098364346E-04 +1.20784859013E-03 +4.23270052678E-04 +5.07251757474E-01 -2.96992108450E-01
2.89500000000E+09 +2.82560608027E-01 -3.86727115481E-01 +1.59730196615E-03 +7.66849605963E-04 +1.50492216465E-03 +8.02651113904E-04 +4.80503771145E-01 -3.13624373871E-01
2.90000000000E+09 +2.51095326612E-01 -3.92080643034E-01 +2.21355488846E-03 +1.22370104251E-04 +2.18869421293E-03 +2.62203025362E-04 +4.51963554344E-01 -3.30369291784E-01
2.90500000000E+09 +2.17940405466E-01 -3.95355717911E-01 +1.63883561310E-03 -4.89680605831E-04 +1.66218436111E-03 -5.18872202024E-04 +4.20980067633E-01 -3.45521773930E-01
2.91000000000E+09 +1.83574289654E-01 -3.94786598664E-01 +1.53707998705E-03 -1.14753567015E-04 +1.42613602747E-03 -1.84468528446E-04 +3.89579586609E-01 -3.58832676833E-01
2.91500000000E+09 +1.49950971496E-01 -3.92184331638E-01 +2.16130151776E-03 -2.50526674589E-04 +2.07023567898E-03 -2.36490848214E-04 +3.56844840353E-01 -3.70276075092E-01
2.92000000000E+09 +1.16433682466E-01 -3.87746638715E-01 +2.19501701470E-03 -1.68581189063E-03 +2.08247704878E-03 -1.54234909826E-03 +3.23240788710E-01 -3.79903196278E-01
2.92500000000E+09 +8.15336896945E-02 -3.82599067332E-01 +8.22137095105E-04 -1.63289212935E-03 +8.65932584732E-04 -1.52681781321E-03 +2.87604248531E-01 -3.87505775780E-01
2.93000000000E+09 +4.66506361293E-02 -3.72760653375E-01 +7.55856683887E-04 -9.06067939331E-04 +7.90173330937E-04 -8.93543237230E-04 +2.50274980512E-01 -3.92582020117E-01
2.93500000000E+09 +1.41563750125E-02 -3.61510837390E-01 +1.32358287524E-03 -1.03901694396E-03 +1.38574458341E-03 -1.00210124454E-03 +2.12616854704E-01 -3.95708856439E-01
2.94000000000E+09 -1.79286441756E-02 -3.49163223799E-01 +1.23152461793E-03 -1.44621569223E-03 +1.30524815465E-03 -1.38153414831E-03 +1.74486687536E-01 -3.97280147556E-01
2.94500000000E+09 -4.99602927316E-02 -3.35300320895E-01 +1.19012692918E-03 -1.92734464547E-03 +1.25726673820E-03 -1.85911730732E-03 +1.35478066437E-01 -3.97633205589E-01
2.95000000000E+09 -8.20537135699E-02 -3.18141067072E-01 +6.72561252286E-04 -2.35564902315E-03 +7.75741173367E-04 -2.27313712404E-03 +9.51784975663E-02 -3.94380741236E-01
2.95500000000E+09 -1.13187478229E-01 -2.97244585123E-01 +3.78728909706E-04 -2.13334592867E-03 +4.76057134857E-04 -2.17533253087E-03 +5.55328104963E-02 -3.87477001737E-01
2.96000000000E+09 -1.40700552809E-01 -2.73225844412E-01 -1.15227663186E-04 -2.66948844276E-03 -6.37946690453E-05 -2.77419471145E-03 +1.63359504051E-02 -3.77519305147E-01
2.96500000000E+09 -1.66820030658E-01 -2.48771305367E-01 -1.03997813044E-03 -2.06762717379E-03 -1.08215092510E-03 -2.15132806618E-03 -2.26919823905E-02 -3.65730451791E-01
2.97000000000E+09 -1.91337173900E-01 -2.21649257004E-01 -8.62075942866E-04 -1.61483150712E-03 -7.83084002252E-04 -1.60518371777E-03 -6.29203195671E-02 -3.50611637836E-01
2.97500000000E+09 -2.14816937026E-01 -1.93460279179E-01 -5.42069898376E-04 -1.67236997454E-03 -5.35252349562E-04 -1.56920826257E-03 -1.00624284169E-01 -3.32342463335E-01
2.98000000000E+09 -2.36725599825E-01 -1.62927721883E-01 -1.15229924519E-03 -2.15087777789E-03 -1.08231142521E-03 -2.17271769231E-03 -1.37692802350E-01 -3.13010767256E-01
2.98500000000E+09 -2.56422658532E-01 -1.31257682241E-01 -1.81488444929E-03 -1.58352045387E-03 -1.73135547833E-03 -1.71709273522E-03 -1.73249762349E-01 -2.90033469445E-01
2.99000000000E+09 -2.73528523870E-01 -9.88112769244E-02 -1.85656878101E-03 -9.95349012538E-04 -1.89594739652E-03 -1.10962084466E-03 -2.07942708618E-01 -2.65795310652E-01
2.99500000000E+09 -2.89365892106E-01 -6.70055004629E-02 -1.51826229290E-03 -8.84901858598E-04 -1.58875970023E-03 -8.93308396144E-04 -2.41498490829E-01 -2.36533162567E-01
3.00000000000E+09 -3.03398829669E-01 -3.46778772798E-02 -1.74533874157E-03 -1.01333366885E-03 -1.87025946319E-03 -9.00622518038E-04 -2.71519440505E-01 -2.05201499248E-01
3.00500000000E+09 -3.15845246332E-01 -2.36166606340E-03 -2.26238384179E-03 -7.63558181929E-04 -2.23736543490E-03 -6.93185432445E-04 -2.99664225571E-01 -1.73218388367E-01
3.01000000000E+09 -3.24972845148E-01 +3.01763786932E-02 -2.54931352419E-03 -8.38853327961E-05 -2.44515550897E-03 -7.91016908792E-05 -3.26636208196E-01 -1.38865455677E-01
3.01500000000E+09 -3.31416765940E-01 +6.18305391670E-02 -2.03551169857E-03 +7.71826422342E-04 -2.04825255061E-03 +6.80428489067E-04 -3.49975979697E-01 -1.02676853270E-01
3.02000000000E+09 -3.34989471817E-01 +9.28714879307E-02 -1.31889016401E-03 +5.94387633423E-04 -1.35135321964E-03 +5.60130364087E-04 -3.70077432464E-01 -6.53775631717E-02
3.02500000000E+09 -3.35763345491E-01 +1.23412429456E-01 -1.31205667675E-03 +1.40551690892E-04 -1.29876410354E-03 +1.21290185695E-04 -3.86249028594E-01 -2.67749201774E-02
3.03000000000E+09 -3.33914162055E-01 +1.53181279408E-01 -2.26389507979E-03 +4.34952062411E-06 -2.19908739123E-03 -2.52131624769E-05 -4.00471596055E-01 +1.13275733425E-02
3.03500000000E+09 -3.29987507484E-01 +1.83385344687E-01 -2.40292068910E-03 +1.37541047211E-03 -2.41836151328E-03 +1.32100088359E-03 -4.12840415801E-01 +5.10636973113E-02
3.04000000000E+09 -3.22254107722E-01 +2.12912463574E-01 -1.62979185986E-03 +1.91340093778E-03 -1.74016792649E-03 +1.94139002178E-03 -4.21397823996E-01 +9.13833518692E-02
3.04500000000E+09 -3.13663121359E-01 +2.41200851511E-01 -6.99128048474E-04 +1.77749434017E-03 -7.38818094518E-04 +1.87836697714E-03 -4.27593261746E-01 +1.31390501390E-01
3.05000000000E+09 -3.03411450075E-01 +2.69782759902E-01 -7.23155304451E-04 +1.32819375681E-03 -6.94949876375E-04 +1.38124415615E-03 -4.30820003777E-01 +1.70858383957E-01
3.05500000000E+09 -2.91398279944E-01 +2.97791593289E-01 -8.79331269901E-04 +1.43682571093E-03 -8.03637964792E-04 +1.49740168407E-03 -4.31360944258E-01 +2.09935283149E-01
3.06000000000E+09 -2.78245202246E-01 +3.24647375324E-01 -9.24061960329E-04 +2.04228652089E-03 -7.79727720552E-04 +1.98322463033E-03 -4.28969616860E-01 +2.48194358081E-01
3.06500000000E+09 -2.64613579921E-01 +3.50561925427E-01 +3.41343708158E-04 +2.09997473950E-03 +2.42952839256E-04 +2.01593362082E-03 -4.24576677294E-01 +2.84831279832E-01
3.07000000000E+09 -2.49752989911E-01 +3.75014491470E-01 +4.46777617002E-04 +1.43750624219E-03 +3.29534895834E-04 +1.41883717880E-03 -4.18156367213E-01 +3.20424150248E-01
