# Hz S RI R 50
! CMT, C1220, 16058040, 17.2.0/1
! Date: 15/08/2018 10:20:34
! Data: Format (Calibration Info)
! Freq                      S11: Re/Im (F2)                       S21: Re/Im (F2)                       S12: Re/Im (F2)                       S22: Re/Im (F2)            
2.50000000000E+09 +5.95435698882E-01 +6.34390852525E-01 -3.18725439220E-04 +1.26375076378E-04 -3.72213093252E-04 +1.33817457913E-04 +5.72954890533E-01 +7.16695652297E-01
2.50500000000E+09 +6.02002086041E-01 +6.26519180821E-01 -2.58479027434E-04 +1.46163391761E-04 -2.86761663429E-04 +1.53597357417E-04 +5.78544070881E-01 +7.11127920529E-01
2.51000000000E+09 +6.08611068733E-01 +6.18209637850E-01 -2.25100821352E-04 +1.45542212640E-04 -2.36997389159E-04 +2.00546985129E-04 +5.83835623474E-01 +7.05877010741E-01
2.51500000000E+09 +6.14938885927E-01 +6.10243499830E-01 -1.66292765488E-04 +1.67388490703E-04 -1.95147342775E-04 +1.92469004330E-04 +5.89113169327E-01 +7.00742117734E-01
2.52000000000E+09 +6.20995219318E-01 +6.02337731922E-01 -1.82740207199E-04 +1.59001010064E-04 -1.40271953037E-04 +1.96728108850E-04 +5.94254105882E-01 +6.94636843983E-01
2.52500000000E+09 +6.26157859901E-01 +5.95289771395E-01 -1.65295629668E-04 +1.76387570390E-04 -2.02757751569E-04 +7.09787999245E-05 +5.99922039158E-01 +6.88261584719E-01
2.53000000000E+09 +6.30870420676E-01 +5.88482382538E-01 -1.83057684965E-04 +1.98341939486E-04 -2.09797971161E-04 +1.53265197362E-04 +6.05940165837E-01 +6.81636988696E-01
2.53500000000E+09 +6.35178191570E-01 +5.82303504003E-01 -1.75735084120E-04 +2.52951343254E-04 -1.18714544271E-04 +2.66136757612E-04 +6.11892872618E-01 +6.74807272870E-01
2.54000000000E+09 +6.39202595254E-01 +5.76368313773E-01 -1.20808180930E-04 +3.30614732170E-04 -1.38090789543E-04 +2.90399895335E-04 +6.17722631304E-01 +6.68100219665E-01
2.54500000000E+09 +6.43320911244E-01 +5.70760926101E-01 -2.65220712234E-05 +3.57980474107E-04 -1.83768942709E-05 +3.28131818961E-04 +6.23541137311E-01 +6.61746773513E-01
2.55000000000E+09 +6.48016132199E-01 +5.64993939651E-01 +9.25039261936E-05 +2.36457051486E-04 +7.05134084509E-05 +3.19335532505E-04 +6.29051438211E-01 +6.55538576319E-01
2.55500000000E+09 +6.53402295019E-01 +5.58222085700E-01 +1.16699690527E-04 +1.36072609981E-04 +1.24436767761E-04 +1.74805995814E-04 +6.34273647837E-01 +6.48961267560E-01
2.56000000000E+09 +6.59583215126E-01 +5.51013284427E-01 +6.61958608655E-05 +4.60288551415E-05 +4.27695068572E-05 +5.94347495772E-05 +6.39593674903E-01 +6.41794040174E-01
2.56500000000E+09 +6.66009052550E-01 +5.42529835531E-01 -1.10645358429E-04 +5.61886382852E-05 -1.17748714594E-04 +7.74851636566E-05 +6.45097228516E-01 +6.34211751472E-01
2.57000000000E+09 +6.72079724012E-01 +5.33721546553E-01 -1.38530426743E-04 +1.88023777642E-04 -1.76736478511E-04 +1.96272715623E-04 +6.50521899586E-01 +6.26221496299E-01
2.57500000000E+09 +6.78374640411E-01 +5.24725628612E-01 -1.58881969228E-04 +2.79170153542E-04 -5.60184424713E-05 +2.62972472293E-04 +6.55714481095E-01 +6.18618970300E-01
2.58000000000E+09 +6.83878061532E-01 +5.15915140505E-01 -2.31915107909E-05 +3.38091733069E-04 +3.04165330263E-05 +2.55951257282E-04 +6.60559172471E-01 +6.11328098341E-01
2.58500000000E+09 +6.89224737435E-01 +5.07013974952E-01 +1.08071319999E-04 +2.48826512692E-04 +5.13295570891E-05 +2.07483154966E-04 +6.65553289880E-01 +6.03718489406E-01
2.59000000000E+09 +6.93865663074E-01 +4.98427483528E-01 +4.62107635723E-06 +1.48344673028E-04 -2.13409832071E-05 +1.75025121086E-04 +6.70165551961E-01 +5.96259882139E-01
2.59500000000E+09 +6.98180364343E-01 +4.89993973188E-01 -1.47685551181E-05 +2.53961652182E-04 -4.59265802964E-05 +2.25261282768E-04 +6.75238277800E-01 +5.88334784509E-01
2.60000000000E+09 +7.01968401516E-01 +4.81534847215E-01 -3.93690207725E-05 +2.89265152633E-04 -3.60629642700E-05 +3.10772975366E-04 +6.80034959602E-01 +5.79835315802E-01
2.60500000000E+09 +7.06119855372E-01 +4.72550248182E-01 -1.17252840823E-06 +4.14723547563E-04 +1.93210220243E-05 +3.76898471045E-04 +6.85330673145E-01 +5.71335486252E-01
2.61000000000E+09 +7.10284002536E-01 +4.62628646108E-01 +2.29786543542E-04 +4.76179834424E-04 +2.07890065163E-04 +4.66136994907E-04 +6.90593363404E-01 +5.62665588197E-01
2.61500000000E+09 +7.14816979671E-01 +4.51514631237E-01 +2.84898304987E-04 +3.17354653097E-04 +2.97484636581E-04 +3.46518432144E-04 +6.95410156778E-01 +5.53924744596E-01
2.62000000000E+09 +7.18749560678E-01 +4.39193467143E-01 +2.79188055478E-04 +2.59795047997E-04 +2.67209786353E-04 +2.33407661784E-04 +7.00187527356E-01 +5.45096975383E-01
2.62500000000E+09 +7.22655025927E-01 +4.26136823693E-01 +2.17601674346E-04 +2.99369161157E-04 +2.32539093839E-04 +2.33286648086E-04 +7.04863682928E-01 +5.36258777345E-01
2.63000000000E+09 +7.26402818206E-01 +4.12732587606E-01 +2.53458696610E-04 +3.20401789920E-04 +3.14148461270E-04 +2.52717813392E-04 +7.10103716661E-01 +5.27123315111E-01
2.63500000000E+09 +7.29496185056E-01 +3.99427707804E-01 +3.67850377792E-04 +2.80528207020E-04 +3.55545010228E-04 +2.15947260589E-04 +7.15077723535E-01 +5.17568510136E-01
2.64000000000E+09 +7.32395811321E-01 +3.86580251527E-01 +4.22988591098E-04 +3.37055189905E-04 +3.53868160369E-04 +2.32358125773E-04 +7.19902486551E-01 +5.07673149977E-01
2.64500000000E+09 +7.35302556308E-01 +3.74568524626E-01 +4.35189486754E-04 +2.81739016033E-04 +3.65636653096E-04 +2.79574129266E-04 +7.24652423351E-01 +4.97881803631E-01
2.65000000000E+09 +7.37608542510E-01 +3.63262669741E-01 +5.20852867818E-04 +2.43979567802E-04 +4.82433854349E-04 +2.85983252655E-04 +7.29069219472E-01 +4.87838141239E-01
2.65500000000E+09 +7.40285508863E-01 +3.52566309926E-01 +6.42384143071E-04 +1.37971670956E-04 +6.74295688959E-04 +2.23371481498E-04 +7.33048549255E-01 +4.77361885774E-01
2.66000000000E+09 +7.43135265455E-01 +3.41661834199E-01 +6.26363006983E-04 -9.47191136931E-06 +6.68824445720E-04 +2.50560513027E-06 +7.36942421928E-01 +4.66101060903E-01
2.66500000000E+09 +7.45765583462E-01 +3.30597343767E-01 +6.64545487283E-04 -4.74226894786E-05 +6.43060427176E-04 -1.02856523923E-04 +7.40746638486E-01 +4.54927141965E-01
2.67000000000E+09 +7.47944803694E-01 +3.18577295559E-01 +6.75397589628E-04 -3.23020506265E-04 +6.18896557728E-04 -3.57722261563E-04 +7.45075499430E-01 +4.44068886070E-01
2.67500000000E+09 +7.49719820891E-01 +3.06023796101E-01 +3.88396278370E-04 -3.10202433128E-04 +4.04438096045E-04 -2.97042991440E-04 +7.49364437130E-01 +4.32749422495E-01
2.68000000000E+09 +7.51294402864E-01 +2.92675221206E-01 +4.60156029902E-04 -1.60100234949E-04 +4.93056819259E-04 -1.67152143733E-04 +7.53049999485E-01 +4.21339746275E-01
2.68500000000E+09 +7.51978433896E-01 +2.78561248125E-01 +5.01417418539E-04 -3.67365469323E-04 +5.30661186121E-04 -2.75239059686E-04 +7.55742889051E-01 +4.09725541455E-01
2.69000000000E+09 +7.52254141336E-01 +2.64382856069E-01 +5.23152352509E-04 -3.98374520937E-04 +4.84981070705E-04 -3.77753758112E-04 +7.58186100292E-01 +3.97946034679E-01
2.69500000000E+09 +7.52254421559E-01 +2.50256374979E-01 +5.48584085249E-04 -4.38636077983E-04 +5.53180244367E-04 -4.12596636703E-04 +7.60744806680E-01 +3.85772246802E-01
2.70000000000E+09 +7.52577300965E-01 +2.36517554201E-01 +5.68712701951E-04 -6.43515395017E-04 +5.39275103420E-04 -6.42837801099E-04 +7.63852859979E-01 +3.72456589681E-01
2.70500000000E+09 +7.53082237357E-01 +2.23006369070E-01 +3.09040438839E-04 -7.41964119139E-04 +3.52071874626E-04 -7.54930184018E-04 +7.66438102982E-01 +3.58773160590E-01
2.71000000000E+09 +7.54051550004E-01 +2.09663252316E-01 +1.50922572035E-04 -7.92826015438E-04 +1.74305632367E-04 -7.93570396916E-04 +7.69277375407E-01 +3.45834197517E-01
2.71500000000E+09 +7.55640875464E-01 +1.95803092974E-01 -1.20414190933E-04 -7.36609613662E-04 -1.32941476319E-04 -8.37177856523E-04 +7.71797059794E-01 +3.33064453921E-01
2.72000000000E+09 +7.57063049228E-01 +1.81204652549E-01 -1.80104705241E-04 -3.98203242287E-04 -2.43454845874E-04 -4.51394752117E-04 +7.73747455149E-01 +3.20297332124E-01
2.72500000000E+09 +7.58027611303E-01 +1.65778063690E-01 +1.91647985462E-04 -4.32341184823E-04 +1.14658774889E-04 -3.44244816080E-04 +7.75158428933E-01 +3.07099592066E-01
2.73000000000E+09 +7.57922663717E-01 +1.49631894502E-01 +1.44177297630E-04 -7.92203295508E-04 +7.01888958729E-05 -6.75880958217E-04 +7.76406517784E-01 +2.93100519989E-01
2.73500000000E+09 +7.56578376712E-01 +1.32608437754E-01 -5.65053200043E-05 -7.67609408366E-04 -5.82829708201E-05 -6.57286242462E-04 +7.77550854192E-01 +2.78595004355E-01
2.74000000000E+09 +7.53888780841E-01 +1.15508542187E-01 -2.51170011861E-04 -7.20039331572E-04 -2.29259023561E-04 -6.43338816249E-04 +7.79052808408E-01 +2.63616310988E-01
2.74500000000E+09 +7.50005594835E-01 +9.82071117756E-02 -2.92642478176E-04 -5.84671763390E-04 -2.08953787142E-04 -5.82327030125E-04 +7.80228806122E-01 +2.48245784806E-01
2.75000000000E+09 +7.44896687504E-01 +8.12095379092E-02 -2.28683996593E-04 -5.45147902789E-04 -1.65043117844E-04 -5.82951763078E-04 +7.81069360767E-01 +2.33121764015E-01
2.75500000000E+09 +7.39348776825E-01 +6.47203674948E-02 -2.46407555248E-04 -6.69348026126E-04 -2.15490025708E-04 -6.66249994882E-04 +7.81043732135E-01 +2.17646584092E-01
2.76000000000E+09 +7.34144150221E-01 +4.83562733246E-02 -3.23187155442E-04 -7.27159600678E-04 -3.61336269657E-04 -6.81829732908E-04 +7.80349842424E-01 +2.02138763681E-01
2.76500000000E+09 +7.29254648842E-01 +3.16469781464E-02 -4.85498134322E-04 -7.62661039440E-04 -5.64981734113E-04 -7.58013444410E-04 +7.79598866334E-01 +1.85331576459E-01
2.77000000000E+09 +7.24520225454E-01 +1.39839564567E-02 -5.39397573288E-04 -6.73512201335E-04 -5.49194981804E-04 -6.27802087385E-04 +7.78309026192E-01 +1.67531201155E-01
2.77500000000E+09 +7.19679029636E-01 -4.48995713362E-03 -7.28117416987E-04 -6.23518692470E-04 -7.76862636436E-04 -6.47765073250E-04 +7.76274311563E-01 +1.49562650781E-01
2.78000000000E+09 +7.14692924930E-01 -2.37450209711E-02 -8.48082825250E-04 -5.21140049304E-04 -8.88657418475E-04 -5.03044153313E-04 +7.74274615928E-01 +1.31628821738E-01
2.78500000000E+09 +7.08680829918E-01 -4.41837247764E-02 -8.43461989661E-04 -4.12817354755E-04 -8.73784979299E-04 -3.37446967431E-04 +7.71596731109E-01 +1.13696640229E-01
2.79000000000E+09 +7.01804200527E-01 -6.46330880842E-02 -1.01697892006E-03 -3.37459639074E-04 -9.95568610693E-04 -3.33251886231E-04 +7.68138624449E-01 +9.61430206339E-02
2.79500000000E+09 +6.93766714330E-01 -8.51582247976E-02 -1.11364170705E-03 -6.63661643062E-05 -1.00197254077E-03 -3.42568569704E-05 +7.63674116772E-01 +7.84127408435E-02
2.80000000000E+09 +6.83739950284E-01 -1.05281886940E-01 -9.18955212951E-04 +2.34089620833E-04 -8.42474967111E-04 +1.37160940000E-04 +7.59034819694E-01 +6.01500035734E-02
2.80500000000E+09 +6.73079126718E-01 -1.23902822163E-01 -6.64382318182E-04 -8.10854703637E-05 -6.99603060136E-04 -9.37274963037E-05 +7.53124100628E-01 +4.06053715010E-02
2.81000000000E+09 +6.61478288144E-01 -1.41906527444E-01 -9.48647547174E-04 -2.53385018125E-04 -9.86502641623E-04 -3.12709392567E-04 +7.46380590647E-01 +2.14544937321E-02
2.81500000000E+09 +6.48947467600E-01 -1.59079347670E-01 -1.23568370838E-03 -4.22668115657E-05 -1.31347048657E-03 -4.28828123224E-05 +7.39234323282E-01 +2.36786247194E-03
2.82000000000E+09 +6.35463390968E-01 -1.75828899445E-01 -1.49106365030E-03 +3.48130343248E-04 -1.46476693232E-03 +3.40668978314E-04 +7.31913687379E-01 -1.73132936939E-02
2.82500000000E+09 +6.21228363421E-01 -1.92558774420E-01 -1.28460878487E-03 +7.95320954592E-04 -1.25688799924E-03 +8.50666924753E-04 +7.22544832695E-01 -3.73391830816E-02
2.83000000000E+09 +6.05543152669E-01 -2.09832989738E-01 -9.06053284511E-04 +1.04231695341E-03 -8.60351130386E-04 +9.93579689494E-04 +7.12760628037E-01 -5.67667504705E-02
2.83500000000E+09 +5.88543285807E-01 -2.27601939720E-01 -8.07517859056E-04 +9.17893977638E-04 -8.09794533513E-04 +8.53357218429E-04 +7.01662963111E-01 -7.68571980853E-02
2.84000000000E+09 +5.69888368788E-01 -2.46193406478E-01 -6.25149940647E-04 +9.36831827827E-04 -6.57287455231E-04 +9.78531131969E-04 +6.90433580519E-01 -9.64500921403E-02
2.84500000000E+09 +5.48573506621E-01 -2.65185469143E-01 -7.95000004909E-04 +7.98501951179E-04 -7.57940104334E-04 +7.93009985986E-04 +6.78366928823E-01 -1.17188108895E-01
2.85000000000E+09 +5.25752475227E-01 -2.83569224784E-01 -7.67770023173E-04 +1.38837282061E-03 -7.85319160500E-04 +1.41424695321E-03 +6.64655014428E-01 -1.37881489907E-01
2.85500000000E+09 +5.01322738264E-01 -3.01351385802E-01 -1.14863841600E-04 +1.22366498537E-03 -1.15790878275E-04 +1.19978741302E-03 +6.49943878209E-01 -1.58195846065E-01
2.86000000000E+09 +4.76087184348E-01 -3.18213560856E-01 -3.89801880164E-04 +1.06128253658E-03 -3.55641407974E-04 +1.02938058200E-03 +6.33873515638E-01 -1.78642098086E-01
2.86500000000E+09 +4.50174751948E-01 -3.33668277742E-01 -5.82577898463E-04 +1.53046052863E-03 -5.59884851656E-04 +1.51036635095E-03 +6.16332181180E-01 -1.98730656234E-01
2.87000000000E+09 +4.24270847965E-01 -3.48045967682E-01 +1.60148496121E-04 +1.81951083691E-03 +1.75259471840E-04 +1.79021672692E-03 +5.97488948069E-01 -2.18669146077E-01
2.87500000000E+09 +3.97967287697E-01 -3.61342502813E-01 +4.20566935670E-04 +1.42729799143E-03 +5.33596752285E-04 +1.36512924057E-03 +5.76933924974E-01 -2.38054600632E-01
2.88000000000E+09 +3.71071596764E-01 -3.73522207693E-01 +3.60200138451E-04 +1.37260053902E-03 +3.72997105227E-04 +1.31292495567E-03 +5.56235802953E-01 -2.56730345127E-01
2.88500000000E+09 +3.43313470338E-01 -3.84492914648E-01 +7.88381494404E-04 +1.37877530085E-03 +7.35486575952E-04 +1.30443542755E-03 +5.33679677026E-01 -2.75621963058E-01
2.89000000000E+09 +3.14014301195E-01 -3.93826601205E-01 +6.34917619535E-04 +1.03372063201E-03 +5.99457709582E-04 +9.86905988353E-04 +5.08685412216E-01 -2.93161812154E-01
2.89500000000E+09 +2.83282060324E-01 -4.01502994149E-01 +5.74259907816E-04 +1.50275243131E-03 +5.18730917369E-04 +1.43272559877E-03 +4.82322036710E-01 -3.10437119404E-01
2.90000000000E+09 +2.50950605020E-01 -4.06674383068E-01 +1.31255989124E-03 +1.65818878484E-03 +1.17923286614E-03 +1.69721601170E-03 +4.53674193815E-01 -3.27143899774E-01
2.90500000000E+09 +2.17393701418E-01 -4.09805342767E-01 +1.56378182754E-03 +1.13124115266E-03 +1.53887731624E-03 +1.13208255297E-03 +4.23256515698E-01 -3.42145130932E-01
2.91000000000E+09 +1.82174448248E-01 -4.10184494224E-01 +1.90656090570E-03 +9.29733333274E-04 +1.94417405170E-03 +8.62471948322E-04 +3.92227477598E-01 -3.55662689791E-01
2.91500000000E+09 +1.46868150291E-01 -4.07825466890E-01 +1.96063302693E-03 +1.99891913868E-04 +1.89316329035E-03 +1.16248655998E-04 +3.60186063041E-01 -3.67143748958E-01
2.92000000000E+09 +1.10780418472E-01 -4.02854685029E-01 +1.65621675455E-03 -2.72076460498E-04 +1.56367335156E-03 -2.39166397514E-04 +3.27523940971E-01 -3.77190154447E-01
2.92500000000E+09 +7.54966986884E-02 -3.95948066788E-01 +9.75135090575E-04 -9.22162913666E-05 +8.97750191413E-04 -2.49465123626E-05 +2.92126966438E-01 -3.86052385931E-01
2.93000000000E+09 +3.98776816955E-02 -3.87027747998E-01 +1.38893538931E-03 +5.16021591110E-04 +1.27431058949E-03 +5.84115563713E-04 +2.54915425884E-01 -3.91637981261E-01
2.93500000000E+09 +5.13126133640E-03 -3.75495442216E-01 +2.14740204246E-03 +1.31808212106E-05 +2.15590899524E-03 +1.16366266750E-04 +2.17255835857E-01 -3.95701011725E-01
2.94000000000E+09 -2.87488055515E-02 -3.62543388372E-01 +1.96530330638E-03 -6.52356738958E-04 +2.00123266718E-03 -6.85586802799E-04 +1.78466608869E-01 -3.97658437009E-01
2.94500000000E+09 -6.22039229658E-02 -3.47278169088E-01 +1.69159181229E-03 -9.47704833160E-04 +1.67120238850E-03 -8.90376466753E-04 +1.39592610024E-01 -3.97737254466E-01
2.95000000000E+09 -9.51072938124E-02 -3.29117691533E-01 +1.50078208925E-03 -1.27677925726E-03 +1.56870458799E-03 -1.23211516352E-03 +9.98765213691E-02 -3.95083417135E-01
2.95500000000E+09 -1.26440840531E-01 -3.07641265438E-01 +1.40332435864E-03 -1.39197970264E-03 +1.45265873966E-03 -1.37113644605E-03 +6.04514841075E-02 -3.88864477367E-01
2.96000000000E+09 -1.55531080651E-01 -2.83201404515E-01 +9.97003345839E-04 -1.85840488459E-03 +1.05188956526E-03 -1.95907044358E-03 +2.14701787404E-02 -3.80097067379E-01
2.96500000000E+09 -1.82431448482E-01 -2.56790985723E-01 +3.04784622596E-04 -1.67366822405E-03 +3.30632906061E-04 -1.71488848534E-03 -1.83677767319E-02 -3.69532780481E-01
2.97000000000E+09 -2.07496283036E-01 -2.28510756158E-01 +2.73805053512E-04 -1.25330461373E-03 +2.42974213962E-04 -1.26085409757E-03 -5.96821955116E-02 -3.55100050032E-01
2.97500000000E+09 -2.31526350070E-01 -1.98218281801E-01 +5.23009994624E-04 -1.25098097075E-03 +5.08779575894E-04 -1.20191559738E-03 -9.83126416084E-02 -3.36670142830E-01
2.98000000000E+09 -2.53077616619E-01 -1.65502764143E-01 +5.27190685396E-04 -1.77463333135E-03 +5.89710145508E-04 -1.68807822034E-03 -1.35603837391E-01 -3.17130893130E-01
2.98500000000E+09 -2.72304582041E-01 -1.32571899435E-01 -1.16283666299E-04 -2.03309665601E-03 -5.67282118217E-06 -2.09981507513E-03 -1.71063210991E-01 -2.94773501500E-01
2.99000000000E+09 -2.89848642472E-01 -9.88273547705E-02 -6.92307561034E-04 -1.76378959899E-03 -7.01268712265E-04 -1.92114004146E-03 -2.06525406986E-01 -2.71332611261E-01
2.99500000000E+09 -3.05519189237E-01 -6.53119694751E-02 -8.57171148853E-04 -1.26540197697E-03 -9.52959138874E-04 -1.25848465668E-03 -2.41132352836E-01 -2.42425904210E-01
3.00000000000E+09 -3.19988971806E-01 -3.13400402298E-02 -7.14535718776E-04 -8.22419546263E-04 -7.59021358599E-04 -8.14329947202E-04 -2.72398683031E-01 -2.11210111226E-01
3.00500000000E+09 -3.31312578458E-01 +2.91342973374E-03 -4.51232081345E-04 -1.06427267297E-03 -4.45217239199E-04 -1.04743711628E-03 -3.01640897475E-01 -1.78539349405E-01
3.01000000000E+09 -3.39853969898E-01 +3.60147243450E-02 -1.05062300149E-03 -1.48647662543E-03 -9.54298782137E-04 -1.39455290760E-03 -3.28952513232E-01 -1.43936593572E-01
3.01500000000E+09 -3.45748393696E-01 +6.94797393184E-02 -1.33275757007E-03 -7.64181597611E-04 -1.29344025634E-03 -8.55278658973E-04 -3.53350433551E-01 -1.07508261564E-01
3.02000000000E+09 -3.47978948200E-01 +1.01340700829E-01 -1.09038709585E-03 -4.15989705427E-04 -1.11572178228E-03 -4.68511215792E-04 -3.74147298069E-01 -6.92566503336E-02
3.02500000000E+09 -3.47732899649E-01 +1.32672381556E-01 -7.72128424628E-04 -4.98245254412E-04 -7.59671625648E-04 -4.98464166204E-04 -3.90676448212E-01 -2.97403562799E-02
3.03000000000E+09 -3.44451329947E-01 +1.63456622303E-01 -1.09904940506E-03 -9.51673647965E-04 -1.13111047322E-03 -9.56371263853E-04 -4.05274597028E-01 +9.13535569386E-03
3.03500000000E+09 -3.38852938068E-01 +1.93894545495E-01 -1.77835952472E-03 -2.75225722761E-04 -1.82450472924E-03 -3.10385479386E-04 -4.17659280386E-01 +4.95891358614E-02
3.04000000000E+09 -3.30235494866E-01 +2.23916980678E-01 -1.50367896198E-03 +4.65252360620E-04 -1.56094757086E-03 +3.62630312258E-04 -4.26560184966E-01 +9.07086321804E-02
3.04500000000E+09 -3.20116840614E-01 +2.53078860288E-01 -8.67681745303E-04 +7.09104307770E-04 -8.94726840257E-04 +7.08118857072E-04 -4.32463427241E-01 +1.31467871236E-01
3.05000000000E+09 -3.08271715831E-01 +2.81557615491E-01 -3.98035070281E-04 +2.52452237420E-04 -4.23444785654E-04 +2.54705044571E-04 -4.35506149475E-01 +1.71989065464E-01
3.05500000000E+09 -2.95585184976E-01 +3.09318832673E-01 -6.54190685760E-04 -1.73261744836E-04 -5.93466287810E-04 -9.55285009643E-05 -4.35295069963E-01 +2.11482245866E-01
3.06000000000E+09 -2.81610795406E-01 +3.36598852431E-01 -1.24490196574E-03 +1.42352572707E-05 -1.17910338192E-03 +1.13732983087E-04 -4.32294606797E-01 +2.50145132504E-01
3.06500000000E+09 -2.66690132343E-01 +3.61961900729E-01 -1.02217452418E-03 +8.00508785619E-04 -9.11108455052E-04 +7.33126823472E-04 -4.27652418811E-01 +2.86747419066E-01
3.07000000000E+09 -2.51631572402E-01 +3.86041777059E-01 -4.46604968265E-04 +7.61221786092E-04 -3.60627419245E-04 +7.08335192764E-04 -4.21273726172E-01 +3.22894483494E-01
