# Hz S RI R 50
! CMT, C1220, 16058040, 17.2.0/1
! Date: 15/08/2018 10:20:25
! Data: Format (Calibration Info)
! Freq                      S11: Re/Im (F2)                       S21: Re/Im (F2)                       S12: Re/Im (F2)                       S22: Re/Im (F2)            
2.50000000000E+09 +5.95694716012E-01 +6.34259904070E-01 -3.04190564529E-04 +1.26451172330E-04 -3.79792650483E-04 +1.66325511758E-04 +5.72887742857E-01 +7.16796222824E-01
2.50500000000E+09 +6.02299708299E-01 +6.26490496257E-01 -2.36552761605E-04 +1.81184819513E-04 -2.73841949582E-04 +2.25408226757E-04 +5.78369779893E-01 +7.11272096300E-01
2.51000000000E+09 +6.08993031865E-01 +6.18203325440E-01 -1.80657627377E-04 +2.34886991834E-04 -1.63212619510E-04 +2.48146446620E-04 +5.83682050161E-01 +7.06121760871E-01
2.51500000000E+09 +6.15357461577E-01 +6.09995730678E-01 -1.53208207991E-04 +2.02332871319E-04 -1.38962636848E-04 +1.76874322126E-04 +5.89031763754E-01 +7.00807308878E-01
2.52000000000E+09 +6.21194660057E-01 +6.02225437541E-01 -1.26800582904E-04 +1.73068318371E-04 -1.29350368359E-04 +1.83205615197E-04 +5.94331685661E-01 +6.94811501733E-01
2.52500000000E+09 +6.26515440261E-01 +5.95064160825E-01 -1.98010208122E-04 +1.56330160179E-04 -1.91253057248E-04 +1.97414160142E-04 +5.99851969346E-01 +6.88446575961E-01
2.53000000000E+09 +6.31137797072E-01 +5.88289067800E-01 -2.10192390500E-04 +2.59662538460E-04 -1.75439458645E-04 +2.27451719087E-04 +6.06036797494E-01 +6.81648660762E-01
2.53500000000E+09 +6.35520561019E-01 +5.82269038646E-01 -1.64178805071E-04 +2.30408587339E-04 -1.70231535624E-04 +2.80824925960E-04 +6.12099458612E-01 +6.74847386981E-01
2.54000000000E+09 +6.39599970668E-01 +5.76314217908E-01 -1.55800482767E-04 +3.27502244056E-04 -1.32698245571E-04 +2.97505714949E-04 +6.17809154325E-01 +6.68148963177E-01
2.54500000000E+09 +6.43648898884E-01 +5.70671911702E-01 -3.16319084626E-05 +3.51208041618E-04 -7.73917417187E-05 +3.26731911077E-04 +6.23644263718E-01 +6.61712716304E-01
2.55000000000E+09 +6.48414007281E-01 +5.64992387406E-01 +4.38125327137E-05 +3.47547528857E-04 +6.81365313551E-05 +3.09861087030E-04 +6.29023475251E-01 +6.55471037206E-01
2.55500000000E+09 +6.53917461932E-01 +5.58178406791E-01 +1.05697802940E-04 +2.01065760668E-04 +1.42587387853E-04 +2.63186312454E-04 +6.34281895390E-01 +6.48971185550E-01
2.56000000000E+09 +6.60078373758E-01 +5.50804207775E-01 +2.90607141494E-05 +1.14223691426E-04 +4.41414641125E-05 +8.32928270194E-05 +6.39649938577E-01 +6.41773031372E-01
2.56500000000E+09 +6.66412273487E-01 +5.42397066911E-01 -1.25411730918E-04 +8.37780573050E-05 -7.87436833711E-05 +1.65775438015E-04 +6.45123718067E-01 +6.34286146731E-01
2.57000000000E+09 +6.72695390426E-01 +5.33579620186E-01 -1.62866565469E-04 +3.07700152789E-04 -1.36639104507E-04 +3.11171479255E-04 +6.50494039126E-01 +6.26361854877E-01
2.57500000000E+09 +6.78917285547E-01 +5.24565651502E-01 -2.55764777421E-05 +4.17907349147E-04 +6.71692529060E-06 +3.70944156792E-04 +6.55693806990E-01 +6.18821047300E-01
2.58000000000E+09 +6.84546741708E-01 +5.15676030609E-01 +1.30145174830E-04 +4.42115096673E-04 +1.19867810588E-04 +3.76733456374E-04 +6.60712626558E-01 +6.11584256214E-01
2.58500000000E+09 +6.89969143231E-01 +5.06777780594E-01 +2.37830406982E-04 +3.35353950920E-04 +1.64534782116E-04 +2.92655472884E-04 +6.65607090018E-01 +6.04064247010E-01
2.59000000000E+09 +6.94509851842E-01 +4.98113952069E-01 +1.56354296918E-04 +2.10042419229E-04 +1.31303912789E-04 +2.09594884294E-04 +6.70219786067E-01 +5.96505391043E-01
2.59500000000E+09 +6.98754266092E-01 +4.89605127766E-01 +1.03595242927E-04 +2.31400493036E-04 +9.53501867313E-05 +3.06971802333E-04 +6.75409305678E-01 +5.88545120104E-01
2.60000000000E+09 +7.02569688019E-01 +4.81147135361E-01 +1.12285484275E-04 +3.11768171022E-04 +1.45286423992E-04 +3.16966445172E-04 +6.80325787500E-01 +5.80086700335E-01
2.60500000000E+09 +7.06686623430E-01 +4.71975718696E-01 +1.93503573755E-04 +3.67493983289E-04 +1.38484708713E-04 +3.84977842546E-04 +6.85768074774E-01 +5.71428262927E-01
2.61000000000E+09 +7.10912165238E-01 +4.62067953380E-01 +3.12753743342E-04 +3.44257815717E-04 +3.32180647692E-04 +3.92240235718E-04 +6.90963214932E-01 +5.62695782892E-01
2.61500000000E+09 +7.15314003859E-01 +4.50991019029E-01 +4.00409781427E-04 +2.71895146125E-04 +3.99554454484E-04 +2.70359114990E-04 +6.95776443992E-01 +5.53991204510E-01
2.62000000000E+09 +7.19404640109E-01 +4.38618470137E-01 +4.13112567936E-04 +1.35984207117E-04 +4.35345233110E-04 +1.41066935278E-04 +7.00540866582E-01 +5.45006367678E-01
2.62500000000E+09 +7.23307659404E-01 +4.25560526455E-01 +3.19260154056E-04 +1.11387433297E-04 +3.86760255696E-04 +1.68506307396E-04 +7.05202191620E-01 +5.36249428705E-01
2.63000000000E+09 +7.27013468501E-01 +4.12011379258E-01 +3.42002207253E-04 +1.71901231827E-04 +3.83076280772E-04 +1.60274361959E-04 +7.10344808773E-01 +5.26930439709E-01
2.63500000000E+09 +7.30037549011E-01 +3.98631423602E-01 +3.91751607673E-04 +1.64540487974E-04 +4.07691231709E-04 +9.34033616879E-05 +7.15312998060E-01 +5.17406535480E-01
2.64000000000E+09 +7.32998515113E-01 +3.85845585416E-01 +4.55565879982E-04 +1.49438042020E-04 +4.07123253245E-04 +9.73364257838E-05 +7.20129808722E-01 +5.07497897067E-01
2.64500000000E+09 +7.35781327074E-01 +3.73712924090E-01 +4.80698724162E-04 +1.12767082568E-04 +3.90253737191E-04 +1.02606337575E-04 +7.24809240041E-01 +4.97695617651E-01
2.65000000000E+09 +7.38073187145E-01 +3.62507141863E-01 +5.11099397341E-04 +8.61416868167E-05 +5.04325367595E-04 +1.67469289236E-04 +7.29092771989E-01 +4.87727779456E-01
2.65500000000E+09 +7.40784003060E-01 +3.51609755764E-01 +6.38293302487E-04 -9.83157099850E-06 +6.64702837333E-04 +2.79271706302E-05 +7.32982184254E-01 +4.77282575053E-01
2.66000000000E+09 +7.43526610410E-01 +3.40708417024E-01 +6.07107673955E-04 -1.36887552616E-04 +6.52709807804E-04 -1.59408331284E-04 +7.37022940440E-01 +4.66079884033E-01
2.66500000000E+09 +7.46209797472E-01 +3.29757460970E-01 +6.10252112513E-04 -1.91731002853E-04 +6.25173550890E-04 -2.84801549488E-04 +7.41041437516E-01 +4.54907058347E-01
2.67000000000E+09 +7.48496218921E-01 +3.17749366504E-01 +5.75027584054E-04 -4.14987158393E-04 +5.22924447701E-04 -4.88100653793E-04 +7.45328601269E-01 +4.44077643471E-01
2.67500000000E+09 +7.50287348830E-01 +3.05048782463E-01 +3.48254239832E-04 -4.11437334861E-04 +2.84676155102E-04 -3.97348899186E-04 +7.49516274383E-01 +4.32674241122E-01
2.68000000000E+09 +7.51648873536E-01 +2.91669627098E-01 +3.82953651716E-04 -2.75226425050E-04 +3.96619945423E-04 -2.56084293695E-04 +7.53228893221E-01 +4.21183366139E-01
2.68500000000E+09 +7.52439020275E-01 +2.77553736893E-01 +4.46458225027E-04 -4.23996169468E-04 +5.25086522537E-04 -3.73129320212E-04 +7.56088166061E-01 +4.09459773410E-01
2.69000000000E+09 +7.52824637626E-01 +2.63327789676E-01 +3.96855490745E-04 -4.55629500836E-04 +3.88575908377E-04 -4.84851680835E-04 +7.58420944052E-01 +3.97747571795E-01
2.69500000000E+09 +7.52797510469E-01 +2.49107093180E-01 +4.51439373607E-04 -4.98343764131E-04 +3.66558047796E-04 -4.82782400270E-04 +7.61020140452E-01 +3.85348221171E-01
2.70000000000E+09 +7.53155369576E-01 +2.35269633699E-01 +4.66875851597E-04 -7.07727499044E-04 +4.45535524080E-04 -6.61896517264E-04 +7.64147106592E-01 +3.71995741146E-01
2.70500000000E+09 +7.53526597698E-01 +2.21696901246E-01 +2.13737447825E-04 -8.32141222177E-04 +2.30128394331E-04 -8.29936437878E-04 +7.66635877690E-01 +3.58246267363E-01
2.71000000000E+09 +7.54480212042E-01 +2.08319168519E-01 +1.65496310952E-05 -8.12833020975E-04 +9.36065147959E-05 -8.50549792570E-04 +7.69286334077E-01 +3.45297105689E-01
2.71500000000E+09 +7.56027862440E-01 +1.94284973436E-01 -2.02846102189E-04 -7.82422081580E-04 -1.67178444333E-04 -8.52964823666E-04 +7.71695260891E-01 +3.32588368696E-01
2.72000000000E+09 +7.57476835619E-01 +1.79582758920E-01 -2.79160260879E-04 -5.00460346292E-04 -2.96761266339E-04 -5.26411887283E-04 +7.73639366608E-01 +3.19981758411E-01
2.72500000000E+09 +7.58224339247E-01 +1.63924250111E-01 +6.15913766751E-05 -4.45567262468E-04 +8.89506102755E-06 -4.71003158701E-04 +7.74971927469E-01 +3.06672764236E-01
2.73000000000E+09 +7.57796787090E-01 +1.47593552062E-01 -1.36510272441E-05 -8.43675044154E-04 -5.82764193272E-05 -7.94874612739E-04 +7.76087553759E-01 +2.92833882213E-01
2.73500000000E+09 +7.56287776454E-01 +1.30570885954E-01 -2.78965834992E-04 -8.27242176420E-04 -2.56483044934E-04 -7.06958372773E-04 +7.77298855849E-01 +2.78361155649E-01
2.74000000000E+09 +7.53469646620E-01 +1.13596552185E-01 -5.35677130526E-04 -7.57733478872E-04 -3.65942408225E-04 -6.51113028966E-04 +7.78804471550E-01 +2.63331358920E-01
2.74500000000E+09 +7.49404228109E-01 +9.64239747029E-02 -5.37733701992E-04 -4.95970804851E-04 -4.49718713343E-04 -5.98833711992E-04 +7.79924291803E-01 +2.48007553043E-01
2.75000000000E+09 +7.44343923792E-01 +7.93747371262E-02 -4.12620774153E-04 -4.52396498321E-04 -4.35854885863E-04 -5.32278109240E-04 +7.80568455979E-01 +2.32935766237E-01
2.75500000000E+09 +7.38716703774E-01 +6.28585668935E-02 -4.67753309235E-04 -5.53367268391E-04 -4.64001958994E-04 -5.86250486537E-04 +7.80578873030E-01 +2.17404994126E-01
2.76000000000E+09 +7.33433601362E-01 +4.66050991669E-02 -5.61416914064E-04 -5.52560203689E-04 -6.00262317676E-04 -5.55935935733E-04 +7.79953832032E-01 +2.01962929924E-01
2.76500000000E+09 +7.28492041388E-01 +2.98651064238E-02 -7.41552095408E-04 -4.41207432944E-04 -7.95294872376E-04 -4.70318578041E-04 +7.79219854565E-01 +1.85206582397E-01
2.77000000000E+09 +7.23569409035E-01 +1.22734733308E-02 -7.05162573583E-04 -3.63928308620E-04 -7.28696901584E-04 -3.79382873067E-04 +7.77815149152E-01 +1.67385173494E-01
2.77500000000E+09 +7.18858599524E-01 -6.11523427748E-03 -8.65903984716E-04 -3.31699958321E-04 -8.55009153245E-04 -2.31068340900E-04 +7.75670945950E-01 +1.49589788822E-01
2.78000000000E+09 +7.13818785881E-01 -2.55189888559E-02 -8.61854338123E-04 -1.58516153772E-04 -9.33901882208E-04 -1.09852072708E-04 +7.73641809037E-01 +1.31719090249E-01
2.78500000000E+09 +7.07743301629E-01 -4.59630711839E-02 -8.71005219480E-04 -1.05366590104E-04 -8.15873209304E-04 -4.89434769471E-06 +7.71106398630E-01 +1.13889444428E-01
2.79000000000E+09 +7.00635175176E-01 -6.64593901580E-02 -9.53405779919E-04 +1.24611114246E-05 -9.07013227752E-04 +2.06945784926E-05 +7.67592750029E-01 +9.63824262007E-02
2.79500000000E+09 +6.92519382828E-01 -8.70559550420E-02 -9.21271955071E-04 +2.40876585974E-04 -9.26841266325E-04 +2.47779387119E-04 +7.63217915331E-01 +7.86647756778E-02
2.80000000000E+09 +6.82440116724E-01 -1.07178663548E-01 -7.37654422469E-04 +5.02686787852E-04 -7.06382623222E-04 +4.40292472356E-04 +7.58678556184E-01 +6.05710793183E-02
2.80500000000E+09 +6.71573403215E-01 -1.26043079927E-01 -4.43761409278E-04 +1.45508609797E-04 -4.44651105129E-04 +1.84546192241E-04 +7.52937951395E-01 +4.11832894777E-02
2.81000000000E+09 +6.59616860942E-01 -1.44004865779E-01 -7.09128335294E-04 -1.83228652630E-05 -7.26813884565E-04 -5.44911377857E-05 +7.46161623110E-01 +2.19028480998E-02
2.81500000000E+09 +6.46839935696E-01 -1.61027941847E-01 -9.64574344051E-04 +1.98545478358E-04 -1.00873830777E-03 +2.23922705641E-04 +7.38984664703E-01 +2.61744990847E-03
2.82000000000E+09 +6.33166953811E-01 -1.77560544718E-01 -1.11082983044E-03 +4.94461483579E-04 -1.10440234892E-03 +5.73588327418E-04 +7.31675688987E-01 -1.69966268293E-02
2.82500000000E+09 +6.18956803019E-01 -1.94113934084E-01 -9.16094937957E-04 +8.23707139547E-04 -8.30853787963E-04 +8.59558425052E-04 +7.22381914209E-01 -3.70262574802E-02
2.83000000000E+09 +6.03046948809E-01 -2.11625406788E-01 -6.02063786463E-04 +9.67277163772E-04 -5.17736602692E-04 +9.41202391730E-04 +7.12512695147E-01 -5.63102950398E-02
2.83500000000E+09 +5.85743401041E-01 -2.29306208307E-01 -4.58454096777E-04 +8.66791400666E-04 -5.13614857187E-04 +8.14827339905E-04 +7.01479705791E-01 -7.62421002722E-02
2.84000000000E+09 +5.66772441997E-01 -2.47564959835E-01 -3.45121110406E-04 +8.21862466290E-04 -3.56944353822E-04 +7.99760078125E-04 +6.90265587286E-01 -9.60652038824E-02
2.84500000000E+09 +5.45433045225E-01 -2.66250714736E-01 -4.94404541530E-04 +6.98237438939E-04 -5.32110684395E-04 +6.64856928288E-04 +6.77963376375E-01 -1.16457679722E-01
2.85000000000E+09 +5.22470150338E-01 -2.84425527943E-01 -5.72399595688E-04 +1.32215695665E-03 -5.52077956891E-04 +1.35183202786E-03 +6.64587059720E-01 -1.37054305258E-01
2.85500000000E+09 +4.97911126335E-01 -3.01982153253E-01 +1.33441606547E-04 +1.08585380503E-03 +1.15368101407E-04 +1.01481708813E-03 +6.49868055319E-01 -1.57157473855E-01
2.86000000000E+09 +4.72433333719E-01 -3.18577833939E-01 -2.43508459244E-04 +7.42725638063E-04 -1.76098561734E-04 +6.74779249047E-04 +6.33977262085E-01 -1.77485130856E-01
2.86500000000E+09 +4.46487422105E-01 -3.33702007737E-01 -5.14300993413E-04 +1.25992035848E-03 -5.88139941574E-04 +1.26851114867E-03 +6.16686186376E-01 -1.97439458368E-01
2.87000000000E+09 +4.20623014993E-01 -3.47686911253E-01 +1.94081069084E-04 +1.65033048938E-03 +2.14400703718E-04 +1.63047714607E-03 +5.98187936719E-01 -2.17578870466E-01
2.87500000000E+09 +3.94526092779E-01 -3.60841694998E-01 +5.37487978685E-04 +1.31119611573E-03 +5.52837983314E-04 +1.26840662531E-03 +5.78078517704E-01 -2.37003137198E-01
2.88000000000E+09 +3.67452205291E-01 -3.72852178769E-01 +3.95883334333E-04 +1.24356636294E-03 +4.14662969767E-04 +1.20339567278E-03 +5.57436602997E-01 -2.55878377710E-01
2.88500000000E+09 +3.39656456460E-01 -3.83593526859E-01 +8.25792841823E-04 +1.25231686100E-03 +7.31621636163E-04 +1.18636716200E-03 +5.35028208165E-01 -2.75046843758E-01
2.89000000000E+09 +3.10450088899E-01 -3.92516336218E-01 +6.54521295122E-04 +9.51610173288E-04 +5.73853443610E-04 +9.68969133112E-04 +5.10112987371E-01 -2.93001297437E-01
2.89500000000E+09 +2.79881453431E-01 -3.99820039263E-01 +7.18152054841E-04 +1.43353976850E-03 +6.55615577431E-04 +1.37134355904E-03 +4.83763710541E-01 -3.10719248425E-01
2.90000000000E+09 +2.47678999554E-01 -4.04814886802E-01 +1.51533868176E-03 +1.50895877445E-03 +1.50700675928E-03 +1.57471739863E-03 +4.54903187725E-01 -3.27556086720E-01
2.90500000000E+09 +2.14184529876E-01 -4.07838673296E-01 +1.66206447257E-03 +8.16188885392E-04 +1.70952082219E-03 +8.36018168175E-04 +4.24202929615E-01 -3.42621577761E-01
2.91000000000E+09 +1.78879458057E-01 -4.07859283211E-01 +2.03729255897E-03 +6.18668692610E-04 +2.02011083036E-03 +5.44517279263E-04 +3.93143682710E-01 -3.56093681717E-01
2.91500000000E+09 +1.43731710372E-01 -4.05095702316E-01 +1.99131311565E-03 -9.16581817060E-05 +1.93242120609E-03 -7.99140181720E-05 +3.61044811013E-01 -3.67665968336E-01
2.92000000000E+09 +1.08053596300E-01 -3.99623181134E-01 +1.80018442934E-03 -6.69241513961E-04 +1.68900808529E-03 -5.83242905331E-04 +3.28351340162E-01 -3.77858091295E-01
2.92500000000E+09 +7.32617907739E-02 -3.92752091428E-01 +8.94961396088E-04 -5.70388870992E-04 +9.18962638502E-04 -5.11729376672E-04 +2.92721203544E-01 -3.86701896491E-01
2.93000000000E+09 +3.77210960828E-02 -3.83709174472E-01 +1.24899478463E-03 +3.39424502026E-05 +1.21365671872E-03 +1.09209210103E-04 +2.55413921867E-01 -3.92121781595E-01
2.93500000000E+09 +3.19753011674E-03 -3.72035250338E-01 +1.87467283485E-03 -4.77548956100E-04 +1.93237679889E-03 -3.92468591746E-04 +2.17517707671E-01 -3.96088918906E-01
2.94000000000E+09 -3.03591311535E-02 -3.58747033161E-01 +1.42892718279E-03 -1.05849882039E-03 +1.45130570150E-03 -1.10630743514E-03 +1.79158228695E-01 -3.97818352682E-01
2.94500000000E+09 -6.35482639831E-02 -3.43335478198E-01 +1.10361945887E-03 -1.02210995528E-03 +1.09081636425E-03 -1.05483695644E-03 +1.40609084016E-01 -3.97941168654E-01
2.95000000000E+09 -9.60616960554E-02 -3.25009276620E-01 +9.50987531103E-04 -1.32617537565E-03 +1.04229195681E-03 -1.30051887258E-03 +1.01115838733E-01 -3.95751698097E-01
2.95500000000E+09 -1.27059501419E-01 -3.03544758313E-01 +8.27912615865E-04 -1.32313127746E-03 +9.00472263429E-04 -1.35756402340E-03 +6.17460966919E-02 -3.89880087886E-01
2.96000000000E+09 -1.55855835550E-01 -2.78863914643E-01 +5.23562847170E-04 -1.63193216785E-03 +5.05891305687E-04 -1.77366488644E-03 +2.24888604686E-02 -3.81580217900E-01
2.96500000000E+09 -1.82305755531E-01 -2.52469447827E-01 -2.07937009080E-04 -1.36391966470E-03 -2.99489292344E-04 -1.41116628506E-03 -1.75369050452E-02 -3.71459179428E-01
2.97000000000E+09 -2.06972514080E-01 -2.24229347573E-01 -7.85477337623E-05 -8.02777317590E-04 -1.23541588618E-04 -7.78881069160E-04 -5.92185601781E-02 -3.57339769662E-01
2.97500000000E+09 -2.30606266641E-01 -1.93925278334E-01 +3.98462120112E-04 -7.51783035776E-04 +3.65762974417E-04 -7.01941103086E-04 -9.83105880104E-02 -3.39164916870E-01
2.98000000000E+09 -2.51701633361E-01 -1.61519953052E-01 +5.19395348113E-04 -1.39435081182E-03 +5.05004872393E-04 -1.24442196847E-03 -1.36463933648E-01 -3.19851205103E-01
2.98500000000E+09 -2.70557457720E-01 -1.28595991166E-01 -9.00925136738E-05 -1.62716847486E-03 -6.00603754215E-05 -1.63117963761E-03 -1.72792206483E-01 -2.97030992168E-01
2.99000000000E+09 -2.87884067772E-01 -9.50281722042E-02 -4.44352860655E-04 -1.48955627119E-03 -4.82938711864E-04 -1.46014483645E-03 -2.08485811365E-01 -2.72977255967E-01
2.99500000000E+09 -3.03161966142E-01 -6.15804172186E-02 -6.74502153330E-04 -1.15120621746E-03 -6.65461969801E-04 -1.06370028269E-03 -2.43342779547E-01 -2.43778575150E-01
3.00000000000E+09 -3.17070402897E-01 -2.76704715952E-02 -4.56126709890E-04 -8.65549128722E-04 -4.23634020921E-04 -7.82918480438E-04 -2.74758087791E-01 -2.11824893917E-01
3.00500000000E+09 -3.27932436068E-01 +5.83710540951E-03 -3.67325051602E-04 -1.27783347953E-03 -3.81638821637E-04 -1.21180466370E-03 -3.04030313993E-01 -1.78694276400E-01
3.01000000000E+09 -3.36537069464E-01 +3.84403513623E-02 -1.12465072369E-03 -1.47184774108E-03 -1.04992826642E-03 -1.42050838982E-03 -3.31247766009E-01 -1.43653945066E-01
3.01500000000E+09 -3.42163459640E-01 +7.16465088920E-02 -1.36677717299E-03 -6.51986026056E-04 -1.27992929949E-03 -7.18026584075E-04 -3.55496242312E-01 -1.06611075469E-01
3.02000000000E+09 -3.44268548861E-01 +1.03097260913E-01 -1.05309489393E-03 -4.46619780445E-04 -1.07370862934E-03 -5.13740949158E-04 -3.75658391386E-01 -6.79985266747E-02
3.02500000000E+09 -3.44033286731E-01 +1.34174204139E-01 -7.93253557607E-04 -5.08075744624E-04 -8.58609592656E-04 -5.69326493162E-04 -3.91706759879E-01 -2.84499341604E-02
3.03000000000E+09 -3.40618332522E-01 +1.64668483157E-01 -1.31078911242E-03 -8.54798182888E-04 -1.30012994405E-03 -1.03652840614E-03 -4.05768640318E-01 +1.03080083029E-02
3.03500000000E+09 -3.35057881534E-01 +1.94637250403E-01 -1.96162241576E-03 -1.74104697484E-04 -1.99258075083E-03 -2.14322522389E-04 -4.17969611740E-01 +5.05307666747E-02
3.04000000000E+09 -3.26556209902E-01 +2.24317303590E-01 -1.66466057757E-03 +6.73318445020E-04 -1.72106950982E-03 +6.68340670634E-04 -4.26701326558E-01 +9.14268202896E-02
3.04500000000E+09 -3.16366448304E-01 +2.53173944880E-01 -7.72433875955E-04 +1.02692318993E-03 -8.81296704119E-04 +1.04326439910E-03 -4.32730257078E-01 +1.32083755789E-01
3.05000000000E+09 -3.04707844718E-01 +2.81257324159E-01 -2.84331578535E-04 +3.93436476212E-04 -2.77222339354E-04 +4.09815731857E-04 -4.35715080122E-01 +1.72406471488E-01
3.05500000000E+09 -2.92184614664E-01 +3.08857121732E-01 -6.07696131417E-04 -2.70611744115E-05 -6.50073425069E-04 +8.22893024145E-05 -4.35594024118E-01 +2.11794555706E-01
3.06000000000E+09 -2.78291925727E-01 +3.36022727033E-01 -1.29977277575E-03 +2.80234915459E-04 -1.21924845609E-03 +3.88718160513E-04 -4.32992750090E-01 +2.50393440269E-01
3.06500000000E+09 -2.63454461887E-01 +3.61149274924E-01 -7.79991873340E-04 +1.14508320422E-03 -7.69972535974E-04 +1.12558946561E-03 -4.28647036720E-01 +2.87402440901E-01
3.07000000000E+09 -2.48428989917E-01 +3.85098686804E-01 -3.19464249649E-05 +8.59564357620E-04 -7.71712415513E-05 +8.35006190080E-04 -4.21914400325E-01 +3.23812257059E-01
