# Hz S RI R 50
! CMT, C1220, 16058040, 17.2.0/1
! Date: 15/08/2018 10:17:03
! Data: Format (Calibration Info)
! Freq                      S11: Re/Im (F2)                       S21: Re/Im (F2)                       S12: Re/Im (F2)                       S22: Re/Im (F2)            
2.50000000000E+09 +5.96410058782E-01 +6.32964166793E-01 -2.11179155890E-04 +1.99847968605E-04 -2.34669605632E-04 +2.29094442110E-04 +5.73074964380E-01 +7.16638305658E-01
2.50500000000E+09 +6.02794713834E-01 +6.25044931389E-01 -1.41625382451E-04 +2.80977866705E-04 -1.25047540614E-04 +2.94525178205E-04 +5.78749263867E-01 +7.11035777330E-01
2.51000000000E+09 +6.09316204860E-01 +6.16743740842E-01 -6.80253749596E-05 +2.49824979250E-04 -7.23411405121E-05 +2.69780207236E-04 +5.84091709183E-01 +7.05741434733E-01
2.51500000000E+09 +6.15396147434E-01 +6.08839416187E-01 -1.30928527416E-04 +2.00456002902E-04 -7.31524965322E-05 +2.81868355597E-04 +5.89263175155E-01 +7.00634911233E-01
2.52000000000E+09 +6.21162744622E-01 +6.00958672461E-01 -7.17319795168E-05 +2.76734688773E-04 -7.41285379071E-05 +3.04331836991E-04 +5.94540157798E-01 +6.94515289578E-01
2.52500000000E+09 +6.26030183060E-01 +5.93550459310E-01 -1.63102995242E-05 +2.31639709859E-04 -3.63647200028E-05 +1.94606409614E-04 +6.00098023572E-01 +6.88144451526E-01
2.53000000000E+09 +6.30736006614E-01 +5.86899036307E-01 -9.39359229214E-05 +2.00488311548E-04 -6.00093700926E-05 +2.16794432951E-04 +6.06203951679E-01 +6.81314930876E-01
2.53500000000E+09 +6.35046734514E-01 +5.80603558608E-01 -1.06255451690E-04 +3.01651955470E-04 -5.05654776068E-05 +2.43860316640E-04 +6.12200842412E-01 +6.74381197549E-01
2.54000000000E+09 +6.38959671933E-01 +5.74483257987E-01 -4.03845717270E-05 +3.72033946822E-04 -4.83242362472E-05 +3.62616835646E-04 +6.17905400772E-01 +6.67731257544E-01
2.54500000000E+09 +6.43066849363E-01 +5.68778951248E-01 +1.43168589881E-04 +4.05383059122E-04 +9.10175936828E-05 +4.08592139221E-04 +6.23651906801E-01 +6.61382388839E-01
2.55000000000E+09 +6.47927326759E-01 +5.62940143563E-01 +1.87376382076E-04 +3.43110055422E-04 +1.95256579085E-04 +3.83774539001E-04 +6.29098122545E-01 +6.55076423308E-01
2.55500000000E+09 +6.53272842499E-01 +5.55950435955E-01 +2.89287248419E-04 +2.38749390307E-04 +3.41110851859E-04 +2.65130717868E-04 +6.34288648012E-01 +6.48686409893E-01
2.56000000000E+09 +6.59232309744E-01 +5.48723036887E-01 +2.18607824806E-04 +9.04753065057E-05 +2.75714806787E-04 +8.27449004911E-05 +6.39572843930E-01 +6.41518742140E-01
2.56500000000E+09 +6.65336802885E-01 +5.40351998606E-01 +7.40095137150E-05 +1.55335574864E-04 +7.23364771175E-05 +1.64424390528E-04 +6.45140961817E-01 +6.34005006027E-01
2.57000000000E+09 +6.71412110718E-01 +5.31589244081E-01 +1.11882106883E-04 +3.07704254707E-04 +1.74166636055E-04 +2.83756876933E-04 +6.50530600823E-01 +6.26116962059E-01
2.57500000000E+09 +6.77403331440E-01 +5.22682678206E-01 +2.62638997604E-04 +3.06642137754E-04 +2.61520559695E-04 +1.74913329619E-04 +6.55740034718E-01 +6.18428824099E-01
2.58000000000E+09 +6.82642982043E-01 +5.13734643107E-01 +3.40589806989E-04 +2.14229587781E-04 +2.51937243741E-04 +1.36638296289E-04 +6.60702654532E-01 +6.11221867067E-01
2.58500000000E+09 +6.87693565147E-01 +5.04950738517E-01 +3.28814031806E-04 +1.28432795391E-04 +2.83761913030E-04 +1.14568137145E-04 +6.65670283143E-01 +6.03722552379E-01
2.59000000000E+09 +6.92042638036E-01 +4.96507820861E-01 +2.73938591035E-04 +4.72354673883E-05 +2.42667450920E-04 +1.08494067725E-04 +6.70370381087E-01 +5.96211096540E-01
2.59500000000E+09 +6.96335096128E-01 +4.88004875355E-01 +2.55999574574E-04 +8.64279756428E-05 +2.30688965516E-04 +1.30021770909E-04 +6.75313789720E-01 +5.88186977292E-01
2.60000000000E+09 +7.00069156069E-01 +4.79285907008E-01 +3.68019858691E-04 +1.42239275467E-04 +3.48551392509E-04 +1.14684890786E-04 +6.80317685621E-01 +5.79742919795E-01
2.60500000000E+09 +7.03881732167E-01 +4.70118923973E-01 +3.15688482487E-04 +3.55749667158E-05 +3.34605954832E-04 -1.82355162411E-06 +6.85592862620E-01 +5.71202586903E-01
2.61000000000E+09 +7.07972210703E-01 +4.60113737440E-01 +3.45798155286E-04 +5.45695457831E-05 +3.39769552436E-04 +7.85445666599E-05 +6.90730343624E-01 +5.62416094972E-01
2.61500000000E+09 +7.12367614633E-01 +4.49025007523E-01 +3.83109377264E-04 +4.92844589839E-05 +3.78364879296E-04 +3.40255608387E-05 +6.95495075438E-01 +5.53637161562E-01
2.62000000000E+09 +7.16427748046E-01 +4.36471321286E-01 +3.45399285530E-04 -1.18008807467E-04 +3.53092880706E-04 -1.29612778705E-04 +7.00402119042E-01 +5.44645182906E-01
2.62500000000E+09 +7.20037276580E-01 +4.23360980835E-01 +2.73297281951E-04 -6.49564418442E-05 +2.69265096770E-04 -9.21431771936E-05 +7.05079738723E-01 +5.35912978300E-01
2.63000000000E+09 +7.23545450107E-01 +4.10146574536E-01 +2.61412041032E-04 -4.12548987562E-05 +2.81525253314E-04 -6.50229100040E-05 +7.09927691080E-01 +5.26834785050E-01
2.63500000000E+09 +7.26545544350E-01 +3.96951146805E-01 +3.64395742984E-04 -2.92716866623E-05 +3.31990944389E-04 -5.19490348540E-05 +7.15065532747E-01 +5.17479146086E-01
2.64000000000E+09 +7.29303858441E-01 +3.84273033716E-01 +3.69162526729E-04 -6.46240953699E-05 +3.66270774207E-04 -9.76610752383E-05 +7.19961756389E-01 +5.07585228764E-01
2.64500000000E+09 +7.31999504445E-01 +3.72552311381E-01 +3.50324126623E-04 -1.14562836746E-04 +2.90546539854E-04 -5.63103821095E-05 +7.24710106402E-01 +4.97696630068E-01
2.65000000000E+09 +7.34110326247E-01 +3.61347596503E-01 +4.33081295725E-04 -1.05964931719E-04 +3.89894764341E-04 -4.19022508240E-05 +7.29130491016E-01 +4.87727930154E-01
2.65500000000E+09 +7.36473016416E-01 +3.50592340822E-01 +5.07961902076E-04 -2.26208791883E-04 +5.67821040852E-04 -1.41762105124E-04 +7.33137971953E-01 +4.77119809133E-01
2.66000000000E+09 +7.39235125587E-01 +3.40093348141E-01 +4.49240893520E-04 -3.20723285209E-04 +5.14822083317E-04 -3.50534884566E-04 +7.37097304828E-01 +4.65820965109E-01
2.66500000000E+09 +7.41816653706E-01 +3.28926092892E-01 +4.70681175753E-04 -3.63887992099E-04 +4.82597811264E-04 -4.45632269526E-04 +7.41071616712E-01 +4.54713643586E-01
2.67000000000E+09 +7.43761255146E-01 +3.17146317112E-01 +3.99472346804E-04 -6.22410019198E-04 +3.92854708360E-04 -6.07586811033E-04 +7.45264858276E-01 +4.43882652626E-01
2.67500000000E+09 +7.45472763559E-01 +3.04837564150E-01 +1.48030632378E-04 -5.84166384526E-04 +1.25158729198E-04 -5.34785189558E-04 +7.49524651235E-01 +4.32515660017E-01
2.68000000000E+09 +7.46884673498E-01 +2.91463960307E-01 +2.10612986047E-04 -4.95234293971E-04 +2.03745502335E-04 -4.06873107961E-04 +7.53277219573E-01 +4.21024991829E-01
2.68500000000E+09 +7.47492007873E-01 +2.77579715407E-01 +2.29114758239E-04 -5.97474135082E-04 +2.68414212251E-04 -5.44994648682E-04 +7.56005769741E-01 +4.09377305604E-01
2.69000000000E+09 +7.47793010351E-01 +2.63650923316E-01 +1.71234214464E-04 -6.78280137243E-04 +1.79813498399E-04 -6.41386241115E-04 +7.58406689014E-01 +3.97455110239E-01
2.69500000000E+09 +7.47748413368E-01 +2.49702350822E-01 +1.13989427980E-04 -7.16324264117E-04 +1.11687487067E-04 -6.87846245848E-04 +7.60711483899E-01 +3.85116124954E-01
2.70000000000E+09 +7.47824024643E-01 +2.36186597510E-01 +6.82960538600E-05 -7.87269565842E-04 +6.66269757715E-05 -7.97039742654E-04 +7.63923248030E-01 +3.71982235039E-01
2.70500000000E+09 +7.48345940717E-01 +2.23079347557E-01 -1.20855664977E-04 -9.19744765406E-04 -1.29521112921E-04 -8.98628739196E-04 +7.66453698847E-01 +3.58350094624E-01
2.71000000000E+09 +7.49205052431E-01 +2.09917353882E-01 -4.33908119610E-04 -9.14922336956E-04 -3.57587209237E-04 -9.31199460833E-04 +7.69277966617E-01 +3.45424880868E-01
2.71500000000E+09 +7.50844681931E-01 +1.96219093621E-01 -6.60834553361E-04 -7.27030054437E-04 -6.57485130974E-04 -7.57977448822E-04 +7.71867960482E-01 +3.32748165940E-01
2.72000000000E+09 +7.52145616666E-01 +1.81904063448E-01 -6.01339546134E-04 -4.34094812239E-04 -6.79541410097E-04 -4.21712603793E-04 +7.73869342119E-01 +3.20057539317E-01
2.72500000000E+09 +7.53120105062E-01 +1.66500709453E-01 -4.10918163309E-04 -4.65081698609E-04 -4.55354354790E-04 -3.96610138711E-04 +7.75330081999E-01 +3.06701792879E-01
2.73000000000E+09 +7.52661906501E-01 +1.50493046807E-01 -5.21878584579E-04 -6.07281744811E-04 -5.54560017248E-04 -5.40359904874E-04 +7.76375205433E-01 +2.92855716291E-01
2.73500000000E+09 +7.51097031700E-01 +1.34068698883E-01 -7.74381863414E-04 -4.89358804423E-04 -6.49662754355E-04 -4.81005983179E-04 +7.77593501844E-01 +2.78212830250E-01
2.74000000000E+09 +7.48668551554E-01 +1.17662294438E-01 -9.39022875354E-04 -3.59792460140E-04 -7.82900078699E-04 -3.69429972570E-04 +7.79076331682E-01 +2.63122301929E-01
2.74500000000E+09 +7.45117208499E-01 +1.00617616246E-01 -8.23590214876E-04 +2.78924989997E-05 -8.04718628959E-04 -1.22238952205E-04 +7.80078609983E-01 +2.47660697137E-01
2.75000000000E+09 +7.40315997996E-01 +8.39188287330E-02 -5.89347281416E-04 -5.24440058084E-05 -6.02176585175E-04 -1.00613356026E-04 +7.80996444320E-01 +2.32710011287E-01
2.75500000000E+09 +7.35017938134E-01 +6.77257597045E-02 -5.99355189375E-04 -2.01495235519E-04 -6.82090601604E-04 -3.04275349000E-04 +7.81048534008E-01 +2.17042955779E-01
2.76000000000E+09 +7.30113461209E-01 +5.16991866363E-02 -9.29204173587E-04 -2.16633167010E-04 -9.37662037337E-04 -1.62305593245E-04 +7.80358670243E-01 +2.01539428303E-01
2.76500000000E+09 +7.25436902040E-01 +3.50338573649E-02 -1.01316376104E-03 +5.18346944480E-05 -1.03470865104E-03 +6.54669136379E-05 +7.79484352613E-01 +1.84667467360E-01
2.77000000000E+09 +7.20940385859E-01 +1.76392896172E-02 -8.16415490757E-04 +2.82503579101E-04 -8.10817156378E-04 +3.03033711427E-04 +7.78058254438E-01 +1.66829212201E-01
2.77500000000E+09 +7.16480651694E-01 -8.61415478973E-04 -7.39680256291E-04 +2.37549837320E-04 -7.70394077049E-04 +3.17687024554E-04 +7.75855906457E-01 +1.48867821530E-01
2.78000000000E+09 +7.11380300069E-01 -1.98875991650E-02 -8.43564561237E-04 +3.09572815522E-04 -8.97995798197E-04 +3.70237994423E-04 +7.73870578078E-01 +1.31041796028E-01
2.78500000000E+09 +7.05678622713E-01 -3.97998407787E-02 -7.47198311124E-04 +4.59060754283E-04 -7.24545054830E-04 +4.77738660682E-04 +7.71266554879E-01 +1.13175844311E-01
2.79000000000E+09 +6.99301932890E-01 -6.02078262868E-02 -7.56069309550E-04 +5.02622262645E-04 -7.24111645595E-04 +5.15233168876E-04 +7.67854353975E-01 +9.56451764372E-02
2.79500000000E+09 +6.91442289017E-01 -8.07172429780E-02 -8.66560954054E-04 +7.18655056234E-04 -7.35124786587E-04 +6.62362495720E-04 +7.63481364209E-01 +7.78080673448E-02
2.80000000000E+09 +6.81743137664E-01 -1.00583406669E-01 -5.75903276748E-04 +8.63900039326E-04 -5.66516673335E-04 +8.50654947761E-04 +7.58629993062E-01 +5.94918753210E-02
2.80500000000E+09 +6.71291011928E-01 -1.18941187219E-01 -3.18059573623E-04 +6.73734783592E-04 -3.64278108514E-04 +6.87325135125E-04 +7.52708804945E-01 +4.02934260078E-02
2.81000000000E+09 +6.60058841683E-01 -1.36619847206E-01 -4.58225565953E-04 +6.08425934659E-04 -4.92170893438E-04 +6.52647366202E-04 +7.45934566312E-01 +2.09389468081E-02
2.81500000000E+09 +6.48133226334E-01 -1.53415619354E-01 -5.29524596341E-04 +7.20552143025E-04 -5.03096869218E-04 +7.65037974951E-04 +7.38617293406E-01 +1.79238714583E-03
2.82000000000E+09 +6.35226091695E-01 -1.70272212180E-01 -6.60840142895E-04 +9.42731357878E-04 -6.02473227325E-04 +9.83098472353E-04 +7.31319821072E-01 -1.78322137649E-02
2.82500000000E+09 +6.21268592968E-01 -1.87306087502E-01 -2.65887443631E-04 +1.26172906404E-03 -1.68616762226E-04 +1.17189116116E-03 +7.21901639549E-01 -3.79375273472E-02
2.83000000000E+09 +6.05654736324E-01 -2.04430924177E-01 -5.67538245593E-05 +1.14830990657E-03 -8.89225158761E-05 +1.09641381272E-03 +7.12003072648E-01 -5.72063091374E-02
2.83500000000E+09 +5.89276638193E-01 -2.21991813870E-01 +2.44771285799E-05 +1.15653680467E-03 -4.96143018460E-05 +1.08971264296E-03 +7.00977560229E-01 -7.72210490672E-02
2.84000000000E+09 +5.71050468704E-01 -2.40721012397E-01 +2.33736425079E-04 +1.14843780975E-03 +1.94149383649E-04 +1.14592186091E-03 +6.89734453690E-01 -9.69055327369E-02
2.84500000000E+09 +5.50519130348E-01 -2.59930949842E-01 +9.36511117935E-05 +1.07057140526E-03 +9.87153023247E-05 +1.08253449716E-03 +6.77420092682E-01 -1.17420873328E-01
2.85000000000E+09 +5.28264457612E-01 -2.78818961773E-01 +4.39837364188E-04 +1.45231983145E-03 +4.59722964285E-04 +1.40896629145E-03 +6.63861573760E-01 -1.37938233792E-01
2.85500000000E+09 +5.04114409742E-01 -2.97011274779E-01 +8.50335221271E-04 +1.01728479732E-03 +8.17820654455E-04 +9.79590647702E-04 +6.48980691879E-01 -1.58176761758E-01
2.86000000000E+09 +4.79615242265E-01 -3.13646354446E-01 +5.62567389496E-04 +9.04691538177E-04 +5.17008142777E-04 +8.62773078161E-04 +6.33211206066E-01 -1.78340261638E-01
2.86500000000E+09 +4.54731655499E-01 -3.29513024035E-01 +6.28515393726E-04 +1.15924542319E-03 +5.75612642077E-04 +1.16168070302E-03 +6.15717656307E-01 -1.98541765247E-01
2.87000000000E+09 +4.29657958558E-01 -3.44573346170E-01 +1.07934294369E-03 +1.03524721383E-03 +1.08755981196E-03 +1.02942357631E-03 +5.97078825497E-01 -2.18612683983E-01
2.87500000000E+09 +4.03578207794E-01 -3.58778821871E-01 +1.09446420709E-03 +9.56612933046E-04 +1.15723654509E-03 +9.10951207755E-04 +5.76498963838E-01 -2.38000248487E-01
2.88000000000E+09 +3.76672728825E-01 -3.71021389385E-01 +1.21649950004E-03 +8.10151179448E-04 +1.29933616673E-03 +7.95092281393E-04 +5.55959997224E-01 -2.56574077041E-01
2.88500000000E+09 +3.49334187786E-01 -3.82004747301E-01 +1.57765593349E-03 +5.87518757478E-04 +1.55188069721E-03 +5.39392302957E-04 +5.33408707925E-01 -2.75588143390E-01
2.89000000000E+09 +3.20753636184E-01 -3.91649840684E-01 +1.45490975247E-03 +3.20436296204E-04 +1.40038201637E-03 +2.87226005543E-04 +5.08321110324E-01 -2.93370639462E-01
2.89500000000E+09 +2.90643793129E-01 -4.00156267861E-01 +1.55253180673E-03 +1.87382185265E-04 +1.51502119861E-03 +2.49626562279E-04 +4.81861522343E-01 -3.10730369041E-01
2.90000000000E+09 +2.58482358353E-01 -4.06420337498E-01 +1.51035262352E-03 +1.02055050000E-06 +1.50475033631E-03 +3.53471228765E-05 +4.53213390680E-01 -3.27396818448E-01
2.90500000000E+09 +2.24577911045E-01 -4.10395958319E-01 +1.53848527992E-03 +4.10216750405E-05 +1.53419948496E-03 +3.30354333906E-05 +4.22798577609E-01 -3.42537594063E-01
2.91000000000E+09 +1.89489986137E-01 -4.11305264257E-01 +2.01293193585E-03 -2.84746069338E-06 +2.02393826403E-03 -4.87097581607E-05 +3.91412674641E-01 -3.56111254211E-01
2.91500000000E+09 +1.54282743737E-01 -4.09619036101E-01 +2.47237210884E-03 -8.48036201094E-04 +2.30992239184E-03 -8.73314874126E-04 +3.59249102600E-01 -3.67372486967E-01
2.92000000000E+09 +1.18935814867E-01 -4.06054666405E-01 +1.68543910280E-03 -1.95366839362E-03 +1.53661207447E-03 -1.81813026495E-03 +3.26521683668E-01 -3.77343016832E-01
2.92500000000E+09 +8.28689809929E-02 -4.00458740917E-01 +6.36413242114E-04 -1.51574973006E-03 +6.08647515817E-04 -1.41929806229E-03 +2.91113934067E-01 -3.85864537522E-01
2.93000000000E+09 +4.71547521805E-02 -3.91766481341E-01 +7.24104839190E-04 -7.64381682720E-04 +7.37111391650E-04 -7.04958617751E-04 +2.54125307060E-01 -3.91194750909E-01
2.93500000000E+09 +1.26744596339E-02 -3.81250107480E-01 +1.41115171903E-03 -1.15469198439E-03 +1.42602629819E-03 -1.09887990907E-03 +2.16621830906E-01 -3.95473741805E-01
2.94000000000E+09 -2.13019872880E-02 -3.68990436175E-01 +1.23791090607E-03 -1.67504690259E-03 +1.21267223454E-03 -1.72044776930E-03 +1.77652514096E-01 -3.97402684849E-01
2.94500000000E+09 -5.54035544690E-02 -3.54702407724E-01 +6.30911564762E-04 -1.87267369848E-03 +7.12365109864E-04 -1.87464693191E-03 +1.38701633364E-01 -3.97506962595E-01
2.95000000000E+09 -8.89883540436E-02 -3.37172362589E-01 +4.45091333681E-04 -1.97695044810E-03 +5.37886240584E-04 -1.89746320767E-03 +9.91594559545E-02 -3.94634911516E-01
2.95500000000E+09 -1.21415969676E-01 -3.15756632219E-01 +4.22604552838E-04 -1.92362786080E-03 +5.65952466105E-04 -1.98405214511E-03 +5.98756822869E-02 -3.88573803195E-01
2.96000000000E+09 -1.50922041636E-01 -2.91723148104E-01 -2.02500545979E-05 -2.51043178344E-03 +5.76603053466E-05 -2.62280869277E-03 +2.07571351387E-02 -3.79766370384E-01
2.96500000000E+09 -1.78735472148E-01 -2.65925469941E-01 -8.83840588382E-04 -2.14516710333E-03 -8.94272635081E-04 -2.21806304551E-03 -1.88706325094E-02 -3.69175214367E-01
2.97000000000E+09 -2.04916835870E-01 -2.38263459630E-01 -9.70983078250E-04 -1.82441199761E-03 -1.00293008509E-03 -1.85451111180E-03 -6.01581690083E-02 -3.54835126231E-01
2.97500000000E+09 -2.30134051109E-01 -2.08253224488E-01 -1.10284876229E-03 -1.47588533404E-03 -1.04559810946E-03 -1.51585442974E-03 -9.87763265685E-02 -3.36808245733E-01
2.98000000000E+09 -2.52749433131E-01 -1.75825081767E-01 -1.08771709054E-03 -1.49037976277E-03 -1.00943844729E-03 -1.53692004378E-03 -1.36770406633E-01 -3.17573032849E-01
2.98500000000E+09 -2.72833391202E-01 -1.42737480137E-01 -1.32972861527E-03 -1.47624235208E-03 -1.33526353005E-03 -1.59109084993E-03 -1.72885674920E-01 -2.94669164491E-01
2.99000000000E+09 -2.90840295386E-01 -1.09435116055E-01 -1.60668011206E-03 -1.30618441725E-03 -1.64703882770E-03 -1.39907172557E-03 -2.08282552705E-01 -2.70468508909E-01
2.99500000000E+09 -3.07444632746E-01 -7.59637160254E-02 -1.81664172734E-03 -1.26119075474E-03 -1.92503815318E-03 -1.20974425176E-03 -2.42292371623E-01 -2.41326114227E-01
3.00000000000E+09 -3.22545221204E-01 -4.22911898620E-02 -2.22687284450E-03 -8.27649716972E-04 -2.31494448814E-03 -7.19120733816E-04 -2.73494020789E-01 -2.10025655918E-01
3.00500000000E+09 -3.35043693049E-01 -7.74524016133E-03 -2.39781363101E-03 -2.63635966888E-04 -2.34897997150E-03 -1.52430620398E-04 -3.02644606068E-01 -1.77252911670E-01
3.01000000000E+09 -3.44169680841E-01 +2.61423126315E-02 -2.23202375080E-03 +6.05654145183E-05 -2.18006304283E-03 +8.07683223550E-05 -3.29912398011E-01 -1.42296345066E-01
3.01500000000E+09 -3.50675100769E-01 +5.96593541646E-02 -2.11221541054E-03 +5.40855636010E-04 -2.10360019491E-03 +5.12778788485E-04 -3.54068833293E-01 -1.05534760935E-01
3.02000000000E+09 -3.53821966052E-01 +9.22724408076E-02 -1.88265795129E-03 +8.41809618478E-04 -1.90866337263E-03 +7.50503781842E-04 -3.74230040173E-01 -6.73479030762E-02
3.02500000000E+09 -3.54398436433E-01 +1.24259136513E-01 -1.54786563846E-03 +1.05954174922E-03 -1.67043170818E-03 +1.06318568415E-03 -3.90586383576E-01 -2.82482058011E-02
3.03000000000E+09 -3.51980624003E-01 +1.55919696552E-01 -1.60110716876E-03 +1.03783758954E-03 -1.59487945759E-03 +1.05409697487E-03 -4.04837511608E-01 +1.02274640005E-02
3.03500000000E+09 -3.46658625260E-01 +1.87370177498E-01 -1.48065412955E-03 +1.46415459467E-03 -1.49399927822E-03 +1.41586573082E-03 -4.17492064841E-01 +5.04902685676E-02
3.04000000000E+09 -3.38254649053E-01 +2.17711640258E-01 -1.07408846539E-03 +1.77658337238E-03 -1.20980884561E-03 +1.81285289130E-03 -4.26177627028E-01 +9.15980806063E-02
3.04500000000E+09 -3.28588513313E-01 +2.47478259604E-01 -5.22544840604E-04 +1.89018566399E-03 -5.95539158179E-04 +2.01907980315E-03 -4.32286923505E-01 +1.32318600058E-01
3.05000000000E+09 -3.16981640416E-01 +2.76861593302E-01 -1.75930723197E-04 +1.68748975974E-03 -1.10769924438E-04 +1.70507664260E-03 -4.35198378263E-01 +1.72701895077E-01
3.05500000000E+09 -3.03900008656E-01 +3.05394769127E-01 +2.06837592832E-05 +1.54427135128E-03 +7.95181274907E-05 +1.56561759499E-03 -4.35503262275E-01 +2.12046475763E-01
3.06000000000E+09 -2.89684056423E-01 +3.33048600036E-01 +1.45037965322E-04 +1.42178552976E-03 +2.15058339517E-04 +1.35641035651E-03 -4.32948145819E-01 +2.51049211474E-01
3.06500000000E+09 -2.74384924802E-01 +3.59253952242E-01 +3.99552128757E-04 +1.22770310198E-03 +4.18481034491E-04 +1.25743928689E-03 -4.28014100327E-01 +2.88191896044E-01
3.07000000000E+09 -2.58782290026E-01 +3.83727675824E-01 +4.38297403512E-04 +1.15604848442E-03 +3.78209038242E-04 +1.10347575106E-03 -4.21262956659E-01 +3.24262724000E-01
