# Hz S RI R 50
! CMT, C1220, 16058040, 17.2.0/1
! Date: 15/08/2018 10:15:40
! Data: Format (Calibration Info)
! Freq                      S11: Re/Im (F2)                       S21: Re/Im (F2)                       S12: Re/Im (F2)                       S22: Re/Im (F2)            
2.50000000000E+09 +5.95857039163E-01 +6.34938181062E-01 -1.89480536344E-04 +1.72783721069E-04 -2.24000711855E-04 +1.98640696087E-04 +5.72702688226E-01 +7.17408276143E-01
2.50500000000E+09 +6.02284200383E-01 +6.27085042404E-01 -1.36774192211E-04 +2.32158983443E-04 -1.12344405668E-04 +2.84855826164E-04 +5.78394067881E-01 +7.11830956874E-01
2.51000000000E+09 +6.08777428352E-01 +6.18980984691E-01 -7.69452774937E-05 +2.62994570590E-04 -2.01648321246E-05 +2.69082429239E-04 +5.83892129892E-01 +7.06658774983E-01
2.51500000000E+09 +6.15053942013E-01 +6.11123948965E-01 -1.42163640260E-06 +2.23171913785E-04 +6.54167374906E-06 +2.01851703336E-04 +5.89083721715E-01 +7.01440062191E-01
2.52000000000E+09 +6.20961940797E-01 +6.03313284292E-01 +8.03368885141E-05 +1.85781679269E-04 +5.60380061759E-05 +1.69945731073E-04 +5.94349354629E-01 +6.95457664885E-01
2.52500000000E+09 +6.26231448188E-01 +5.96150545935E-01 +5.29680011244E-05 +1.36977431269E-04 +1.17701580185E-05 +1.15137821261E-04 +5.99891646828E-01 +6.89057921498E-01
2.53000000000E+09 +6.31052587535E-01 +5.89492272526E-01 -8.16321584569E-06 +1.29059887394E-04 -1.08987244896E-05 +1.51713232891E-04 +6.06168585918E-01 +6.82158924252E-01
2.53500000000E+09 +6.35453252636E-01 +5.83298659171E-01 -1.24803316679E-05 +1.22440333666E-04 +2.23290403788E-05 +1.29952363248E-04 +6.12273922031E-01 +6.75188654191E-01
2.54000000000E+09 +6.39713465694E-01 +5.77388643621E-01 -6.29347557585E-07 +1.66949698751E-04 +5.24655831109E-06 +1.56426722843E-04 +6.18242068932E-01 +6.68527212874E-01
2.54500000000E+09 +6.44047944457E-01 +5.71600848397E-01 +1.50322190989E-05 +1.72399222731E-04 +1.75381378528E-05 +1.57721401841E-04 +6.24031482911E-01 +6.62067258557E-01
2.55000000000E+09 +6.48880084693E-01 +5.65559362570E-01 +6.31653213101E-05 +1.91722189980E-04 +4.19951527731E-05 +2.16270880984E-04 +6.29356862706E-01 +6.55679505926E-01
2.55500000000E+09 +6.54345929425E-01 +5.58870316658E-01 +1.30212693482E-04 +1.27908849724E-04 +1.42855442727E-04 +1.30286584545E-04 +6.34483759494E-01 +6.49205072436E-01
2.56000000000E+09 +6.60578569989E-01 +5.51490774264E-01 +1.28508507168E-04 +5.11652669841E-05 +1.83194389164E-04 +4.59600395365E-05 +6.39806518881E-01 +6.42001862728E-01
2.56500000000E+09 +6.66850263775E-01 +5.43163510778E-01 -1.00120064132E-05 +1.16091398270E-05 -1.61945593130E-05 -2.45005365864E-07 +6.45350724923E-01 +6.34486372582E-01
2.57000000000E+09 +6.73000433702E-01 +5.34442264392E-01 -1.00315508890E-04 +1.03141726898E-04 -9.97585689732E-05 +9.19925366520E-05 +6.50795433273E-01 +6.26470769287E-01
2.57500000000E+09 +6.79039268495E-01 +5.25442643469E-01 -6.53418464648E-05 +2.00749006454E-04 -5.71628590529E-05 +2.16243061492E-04 +6.56067966707E-01 +6.18711916958E-01
2.58000000000E+09 +6.84547809271E-01 +5.16724898040E-01 +6.28703301576E-05 +3.02886241184E-04 +6.61160624701E-05 +2.42213126529E-04 +6.61123646932E-01 +6.11352164575E-01
2.58500000000E+09 +6.89789304929E-01 +5.07971918142E-01 +1.85371106708E-04 +2.88015014534E-04 +1.45442284210E-04 +2.41837834993E-04 +6.66038411968E-01 +6.03962560559E-01
2.59000000000E+09 +6.94385860003E-01 +4.99349876449E-01 +2.32032810148E-04 +2.21733603727E-04 +1.86344713148E-04 +2.04436800050E-04 +6.70790468702E-01 +5.96378875571E-01
2.59500000000E+09 +6.98801257774E-01 +4.90923274867E-01 +1.93885314096E-04 +1.72885613730E-04 +2.19237478083E-04 +1.70445728957E-04 +6.75719748342E-01 +5.88384623398E-01
2.60000000000E+09 +7.02742578050E-01 +4.82157544578E-01 +2.15310484646E-04 +1.69918666054E-04 +2.20174970804E-04 +1.95398824890E-04 +6.80882908170E-01 +5.79844632479E-01
2.60500000000E+09 +7.07009982072E-01 +4.72941783130E-01 +2.65643891808E-04 +1.27371936354E-04 +3.02225291972E-04 +1.62168968689E-04 +6.85983993648E-01 +5.71059733682E-01
2.61000000000E+09 +7.11413274344E-01 +4.62675469331E-01 +2.77273903581E-04 +1.11544536977E-04 +3.22884702660E-04 +1.56500481239E-04 +6.91374030815E-01 +5.62204348400E-01
2.61500000000E+09 +7.15973479977E-01 +4.51256627294E-01 +3.50813671357E-04 +1.97288860613E-05 +3.36915922575E-04 +2.32995273116E-05 +6.96117892875E-01 +5.53273168259E-01
2.62000000000E+09 +7.19895622341E-01 +4.38704282853E-01 +2.41913293533E-04 -2.27059034102E-05 +2.59935246449E-04 -4.65917397411E-05 +7.00960398455E-01 +5.44169349198E-01
2.62500000000E+09 +7.23814252975E-01 +4.25528745545E-01 +2.15949175192E-04 -3.15945736078E-05 +2.17989573550E-04 +6.76992888331E-06 +7.05633576713E-01 +5.35130004911E-01
2.63000000000E+09 +7.27445228413E-01 +4.12152019368E-01 +2.25119879895E-04 +3.87292610143E-05 +2.46567901621E-04 -5.23910424249E-05 +7.10382344910E-01 +5.25946519866E-01
2.63500000000E+09 +7.30654853176E-01 +3.98816287436E-01 +3.35406371684E-04 -2.93044018648E-05 +3.23064951896E-04 +9.27784825786E-07 +7.15098314606E-01 +5.16514110279E-01
2.64000000000E+09 +7.33493641454E-01 +3.86043550814E-01 +4.49793561971E-04 -6.61711707032E-05 +3.34868653190E-04 -8.60691667504E-05 +7.20010736742E-01 +5.06689130967E-01
2.64500000000E+09 +7.36521652395E-01 +3.74045252581E-01 +2.80716622802E-04 -2.38983698399E-04 +2.48727658307E-04 -1.89757978062E-04 +7.24701536963E-01 +4.96731526886E-01
2.65000000000E+09 +7.38909038118E-01 +3.62662965257E-01 +2.05146713867E-04 -1.46592065687E-04 +1.87044575661E-04 -9.29868647567E-05 +7.28735941475E-01 +4.86458376206E-01
2.65500000000E+09 +7.41436170491E-01 +3.51727071087E-01 +3.05464590264E-04 -5.02560639066E-05 +3.25193108731E-04 -8.06596440462E-05 +7.32613058363E-01 +4.76095972312E-01
2.66000000000E+09 +7.44183186712E-01 +3.40901764065E-01 +3.58305110803E-04 -1.22864974357E-04 +3.84932902901E-04 -2.09581080496E-04 +7.36406860904E-01 +4.64833156273E-01
2.66500000000E+09 +7.46978459720E-01 +3.29705787807E-01 +3.92314292981E-04 -2.33705871096E-04 +3.57216167899E-04 -2.31286582525E-04 +7.40326010978E-01 +4.53627805814E-01
2.67000000000E+09 +7.49202691296E-01 +3.17589273409E-01 +3.48019258819E-04 -4.13263422488E-04 +2.87281778550E-04 -4.33429036787E-04 +7.44560743366E-01 +4.42869188531E-01
2.67500000000E+09 +7.50842445563E-01 +3.04725540658E-01 +1.50134800592E-04 -4.09052358181E-04 +1.96748794541E-04 -4.19801045337E-04 +7.48650598167E-01 +4.31639600754E-01
2.68000000000E+09 +7.52238088943E-01 +2.91287246087E-01 +1.88657336686E-04 -4.08698798681E-04 +1.93486292873E-04 -3.34588793670E-04 +7.52207141956E-01 +4.20206976788E-01
2.68500000000E+09 +7.52931698698E-01 +2.77206695062E-01 +8.14890678707E-05 -4.59581700056E-04 +1.32165509207E-04 -4.42035539023E-04 +7.54819111597E-01 +4.08539165321E-01
2.69000000000E+09 +7.53289511238E-01 +2.63201597822E-01 +7.02107983764E-05 -3.78113962067E-04 +1.07736415084E-04 -4.11202123298E-04 +7.57212241908E-01 +3.96902777808E-01
2.69500000000E+09 +7.53474292523E-01 +2.49154484120E-01 +1.43856752447E-04 -4.37583673329E-04 +1.79024739397E-04 -4.68174922400E-04 +7.59650137617E-01 +3.84294104346E-01
2.70000000000E+09 +7.53674881505E-01 +2.35412885002E-01 +8.12749710854E-05 -5.55706097186E-04 +1.21678203294E-04 -5.72617894066E-04 +7.62492919503E-01 +3.71012284576E-01
2.70500000000E+09 +7.54165896038E-01 +2.21906457789E-01 -9.18468021222E-06 -6.06047607078E-04 -3.81821735714E-05 -6.18542571188E-04 +7.64924116541E-01 +3.57534422621E-01
2.71000000000E+09 +7.55248927255E-01 +2.08555208264E-01 -1.57393942124E-04 -7.02670562475E-04 -1.05022355467E-04 -7.52443534070E-04 +7.67538408830E-01 +3.44725744527E-01
2.71500000000E+09 +7.56888393739E-01 +1.94396129395E-01 -4.48867033057E-04 -5.99647296935E-04 -4.53936238255E-04 -7.09282984259E-04 +7.70039376259E-01 +3.32167659807E-01
2.72000000000E+09 +7.58255871887E-01 +1.79670179013E-01 -4.97069610956E-04 -3.88080088934E-04 -5.03747306474E-04 -4.03976755710E-04 +7.71906716353E-01 +3.19791532618E-01
2.72500000000E+09 +7.59178653235E-01 +1.63762416431E-01 -3.53134160423E-04 -3.68480767953E-04 -3.81056191700E-04 -3.16723230227E-04 +7.73070779861E-01 +3.06645858023E-01
2.73000000000E+09 +7.58624392529E-01 +1.47304332947E-01 -3.98146956899E-04 -4.85995330964E-04 -4.40991354326E-04 -4.64118549020E-04 +7.74344848509E-01 +2.92844069779E-01
2.73500000000E+09 +7.56829103122E-01 +1.30316715982E-01 -6.19003160740E-04 -3.29885126766E-04 -5.22038654217E-04 -2.85968748126E-04 +7.75258344240E-01 +2.78262760748E-01
2.74000000000E+09 +7.54109786499E-01 +1.13596294104E-01 -6.53116526369E-04 -1.89522704571E-04 -5.93540890095E-04 -1.94433954533E-04 +7.76702715836E-01 +2.63467714984E-01
2.74500000000E+09 +7.50445784930E-01 +9.62647551492E-02 -5.45862632530E-04 -2.48506138965E-05 -5.22082291316E-04 -8.28610659889E-05 +7.77954251566E-01 +2.48264016330E-01
2.75000000000E+09 +7.45506387404E-01 +7.91813005474E-02 -4.43048315775E-04 -7.15108834140E-05 -4.03340966984E-04 -1.67654012203E-04 +7.78753981971E-01 +2.33571827440E-01
2.75500000000E+09 +7.39881277256E-01 +6.23780788615E-02 -4.97089731160E-04 -1.58763371314E-04 -5.00763818274E-04 -2.34303960218E-04 +7.78885128658E-01 +2.18275851916E-01
2.76000000000E+09 +7.34465278347E-01 +4.59549417107E-02 -6.66104046520E-04 -1.14966568215E-04 -6.78657953912E-04 -1.94190502056E-04 +7.78209220197E-01 +2.02930989920E-01
2.76500000000E+09 +7.29363573808E-01 +2.93510384793E-02 -7.71788808216E-04 +4.55649368926E-05 -7.89103686982E-04 +4.02839855603E-05 +7.77233940763E-01 +1.86253250707E-01
2.77000000000E+09 +7.24518722396E-01 +1.18685726763E-02 -6.51539539279E-04 +2.75751602912E-04 -6.08519600928E-04 +2.90664220024E-04 +7.75871045601E-01 +1.68866877130E-01
2.77500000000E+09 +7.19908545699E-01 -6.70877626736E-03 -5.26835620690E-04 +2.99315089085E-04 -4.57245845085E-04 +3.07780928196E-04 +7.74070344894E-01 +1.50994141308E-01
2.78000000000E+09 +7.14713950514E-01 -2.64218214186E-02 -5.42709136845E-04 +2.19872792352E-04 -5.50818855902E-04 +2.26975958637E-04 +7.72230553481E-01 +1.33260011143E-01
2.78500000000E+09 +7.08256741068E-01 -4.66568969873E-02 -5.89441516493E-04 +2.48537148012E-04 -5.39079915941E-04 +3.13961986379E-04 +7.69881904604E-01 +1.15576955205E-01
2.79000000000E+09 +7.01192234490E-01 -6.69630374646E-02 -5.46786913247E-04 +3.98876707488E-04 -5.01065479750E-04 +3.90111953663E-04 +7.66607186044E-01 +9.83238724509E-02
2.79500000000E+09 +6.92999726166E-01 -8.75284952606E-02 -5.81581640057E-04 +6.12037819456E-04 -5.48111022996E-04 +5.93258926696E-04 +7.62727227779E-01 +8.06367590445E-02
2.80000000000E+09 +6.83071927834E-01 -1.07608700353E-01 -2.66966084587E-04 +7.23036513699E-04 -2.62587544172E-04 +7.08480092000E-04 +7.58143757359E-01 +6.23096859339E-02
2.80500000000E+09 +6.72215765156E-01 -1.26233664935E-01 -9.82915644690E-05 +3.82544654822E-04 -1.06271311605E-04 +4.18438185427E-04 +7.52512687879E-01 +4.32904205920E-02
2.81000000000E+09 +6.60447989767E-01 -1.44102078951E-01 -3.00573248317E-04 +3.37532365284E-04 -3.35605191552E-04 +3.59987174986E-04 +7.46074449993E-01 +2.39489107857E-02
2.81500000000E+09 +6.47874950911E-01 -1.61047122634E-01 -3.07852666825E-04 +5.18558792422E-04 -3.16303653840E-04 +5.86084330017E-04 +7.39126166555E-01 +4.54613742377E-03
2.82000000000E+09 +6.34528232341E-01 -1.77776648598E-01 -4.58730254619E-04 +6.69646276347E-04 -4.01217453178E-04 +7.07953852553E-04 +7.31853937881E-01 -1.52306832412E-02
2.82500000000E+09 +6.20310164183E-01 -1.94771616693E-01 -8.87253954844E-05 +9.04886078846E-04 -3.89859454406E-05 +8.69839865462E-04 +7.22814017296E-01 -3.51621046513E-02
2.83000000000E+09 +6.04175534538E-01 -2.12411278582E-01 +1.01766833783E-04 +6.79364067359E-04 +8.86846333234E-05 +6.05177829685E-04 +7.13217125096E-01 -5.45234745043E-02
2.83500000000E+09 +5.86664799044E-01 -2.30355003980E-01 -4.77375485100E-05 +6.56748100031E-04 -8.94998006396E-05 +6.70060111224E-04 +7.02742053457E-01 -7.44206693281E-02
2.84000000000E+09 +5.67309709780E-01 -2.48552316054E-01 +1.55828724210E-04 +8.30435791741E-04 +1.61767450082E-04 +8.52601982220E-04 +6.91796409912E-01 -9.44221800525E-02
2.84500000000E+09 +5.46073399795E-01 -2.67070572712E-01 +1.57920364747E-04 +6.02890666613E-04 +2.46207413866E-04 +6.09346096846E-04 +6.79845018421E-01 -1.15114451320E-01
2.85000000000E+09 +5.23453748559E-01 -2.85466576757E-01 +2.83200695579E-04 +8.59193079165E-04 +2.88777209684E-04 +9.00955168204E-04 +6.66248361932E-01 -1.36227848505E-01
2.85500000000E+09 +4.99043605803E-01 -3.03400682720E-01 +6.60805790185E-04 +5.07887410369E-04 +6.63815172532E-04 +5.05061453079E-04 +6.51480357868E-01 -1.56467513900E-01
2.86000000000E+09 +4.73618639372E-01 -3.20168074473E-01 +3.87013929492E-04 +2.04410969363E-04 +3.93909289476E-04 +2.28254634018E-04 +6.36061000958E-01 -1.76670601841E-01
2.86500000000E+09 +4.47412839629E-01 -3.35121710766E-01 -9.09366106675E-06 +4.97326815677E-04 +3.05721473055E-05 +4.95525993968E-04 +6.19115400961E-01 -1.97199636535E-01
2.87000000000E+09 +4.21949101493E-01 -3.48890400102E-01 +4.08973822799E-04 +8.38898390498E-04 +4.58092088118E-04 +7.95917189260E-04 +6.00939929977E-01 -2.17511177108E-01
2.87500000000E+09 +3.96198867230E-01 -3.62079708077E-01 +4.48838805658E-04 +6.49263265871E-04 +4.63112691777E-04 +6.04527009137E-04 +5.80986676809E-01 -2.37891380830E-01
2.88000000000E+09 +3.69312143237E-01 -3.74313363200E-01 +6.53401514688E-04 +8.40754006545E-04 +6.57630333500E-04 +7.31171341660E-04 +5.60198803211E-01 -2.57216503810E-01
2.88500000000E+09 +3.41456127951E-01 -3.85239175657E-01 +1.03612192014E-03 +5.22289687647E-04 +9.52024398026E-04 +4.97053209613E-04 +5.37829130706E-01 -2.76881987654E-01
2.89000000000E+09 +3.11668460124E-01 -3.94018383234E-01 +9.08756586107E-04 +3.59853246303E-04 +7.73125438407E-04 +3.71036820223E-04 +5.12300669282E-01 -2.95715547471E-01
2.89500000000E+09 +2.81461514761E-01 -4.00688258574E-01 +9.70758286256E-04 +5.26961584548E-04 +8.79913119226E-04 +5.02437049058E-04 +4.85152892647E-01 -3.13306247293E-01
2.90000000000E+09 +2.49762541898E-01 -4.05892708284E-01 +1.24888171465E-03 +4.79371994538E-04 +1.23636798602E-03 +5.89789242695E-04 +4.56429300942E-01 -3.30428125990E-01
2.90500000000E+09 +2.16201197632E-01 -4.09343614765E-01 +1.49677447385E-03 +1.54553120931E-04 +1.55841973889E-03 +1.72971606372E-04 +4.25781211328E-01 -3.46217800471E-01
2.91000000000E+09 +1.80848976000E-01 -4.09696236205E-01 +1.70439781785E-03 -3.41477434388E-04 +1.64164028256E-03 -3.76440776101E-04 +3.94306305519E-01 -3.60723688252E-01
2.91500000000E+09 +1.45579363954E-01 -4.07007536302E-01 +1.56385425339E-03 -6.10168448547E-04 +1.42426538342E-03 -6.27348119450E-04 +3.61115676673E-01 -3.72812668256E-01
2.92000000000E+09 +1.10202293780E-01 -4.01667230914E-01 +1.36426105396E-03 -1.13390765958E-03 +1.35095136261E-03 -1.03453582724E-03 +3.27069564315E-01 -3.83238883023E-01
2.92500000000E+09 +7.55744859185E-02 -3.95038360035E-01 +8.57442249355E-04 -1.27608476199E-03 +9.33098593375E-04 -1.11996263471E-03 +2.90626307518E-01 -3.91233880895E-01
2.93000000000E+09 +4.06596078747E-02 -3.86205402052E-01 +8.01543056110E-04 -9.83410980979E-04 +8.82941122409E-04 -9.42793842972E-04 +2.52726176169E-01 -3.96620632892E-01
2.93500000000E+09 +6.42369368074E-03 -3.75013059973E-01 +8.35177124032E-04 -1.38403367114E-03 +9.20901379674E-04 -1.32540494564E-03 +2.14441650148E-01 -4.00091251609E-01
2.94000000000E+09 -2.74339784220E-02 -3.62288899409E-01 +5.10362070326E-04 -1.51453380094E-03 +5.83436455822E-04 -1.56393479134E-03 +1.75607893884E-01 -4.01923447036E-01
2.94500000000E+09 -6.05711116233E-02 -3.46684997853E-01 +2.77412937973E-04 -1.62772772619E-03 +3.21224458124E-04 -1.59679950055E-03 +1.36475193706E-01 -4.02584719042E-01
2.95000000000E+09 -9.30562697968E-02 -3.28769214928E-01 -1.06793022684E-04 -1.82019027099E-03 -2.52150312465E-05 -1.80963443397E-03 +9.56451471784E-02 -3.99743368755E-01
2.95500000000E+09 -1.24456421779E-01 -3.07256621142E-01 -2.79818989600E-04 -1.42534936462E-03 -2.54605853926E-04 -1.48381893869E-03 +5.53603697167E-02 -3.93180509927E-01
2.96000000000E+09 -1.53158330595E-01 -2.82703754057E-01 -4.75165754604E-04 -1.90827596703E-03 -5.17869025454E-04 -2.06609120127E-03 +1.56782894643E-02 -3.83513213872E-01
2.96500000000E+09 -1.79632912602E-01 -2.57208728756E-01 -1.69737767006E-03 -1.46428921983E-03 -1.80596703921E-03 -1.54640369393E-03 -2.46693962371E-02 -3.72359798909E-01
2.97000000000E+09 -2.05367056700E-01 -2.29047830016E-01 -1.45219453000E-03 -4.92022091071E-04 -1.50420044701E-03 -4.09492161014E-04 -6.67672358849E-02 -3.57198599260E-01
2.97500000000E+09 -2.28697854407E-01 -1.99088779209E-01 -9.33281728892E-04 -1.20015080508E-04 -9.84112558628E-04 -9.79848966408E-05 -1.05470944678E-01 -3.38109885568E-01
2.98000000000E+09 -2.50541312875E-01 -1.67747262009E-01 -6.59192837224E-04 -4.61801769992E-04 -6.69618158048E-04 -5.41036887457E-04 -1.43421815595E-01 -3.18636817026E-01
2.98500000000E+09 -2.70211947071E-01 -1.35172492195E-01 -1.04765242101E-03 -5.30919359540E-04 -1.07607211743E-03 -6.05854860106E-04 -1.80674757827E-01 -2.95126995875E-01
2.99000000000E+09 -2.87739028623E-01 -1.01673384056E-01 -1.31170733027E-03 -2.71176041302E-04 -1.38826124324E-03 -2.85035445032E-04 -2.16328849429E-01 -2.69453835947E-01
2.99500000000E+09 -3.03173772286E-01 -6.89944633751E-02 -1.24649525370E-03 +1.62359176960E-04 -1.23958111008E-03 +2.59621512465E-04 -2.50596906586E-01 -2.38740061110E-01
3.00000000000E+09 -3.17583396982E-01 -3.55009666553E-02 -8.88613729677E-04 +4.53163394358E-04 -8.17940701430E-04 +5.10697970808E-04 -2.80897589258E-01 -2.05430182575E-01
3.00500000000E+09 -3.29183151835E-01 -2.12320278915E-03 -5.64665500255E-04 +1.47230295540E-04 -5.37400059034E-04 +2.00375608599E-04 -3.08486982429E-01 -1.71924215742E-01
3.01000000000E+09 -3.38115799935E-01 +3.10056040552E-02 -1.02164203072E-03 -5.95775319382E-05 -9.00197695770E-04 -9.62996120331E-05 -3.35441444446E-01 -1.36552154304E-01
3.01500000000E+09 -3.44105072310E-01 +6.38871355518E-02 -9.70071490525E-04 +4.50858526257E-04 -9.69014165560E-04 +5.06868410847E-04 -3.58679499997E-01 -9.89784443420E-02
3.02000000000E+09 -3.47044657937E-01 +9.56287782257E-02 -7.23066050459E-04 +6.91958406992E-04 -7.09609792485E-04 +7.18986321424E-04 -3.77900021301E-01 -6.02933556321E-02
3.02500000000E+09 -3.46993452374E-01 +1.27046377225E-01 -2.06201004431E-04 +7.44760443075E-04 -1.28892618591E-04 +8.22775465630E-04 -3.93116408478E-01 -2.07602482940E-02
3.03000000000E+09 -3.43986731978E-01 +1.57218647937E-01 -2.31067928472E-04 -1.13760488270E-04 -2.17576703036E-04 -1.28065548433E-04 -4.06050767664E-01 +1.81217308947E-02
3.03500000000E+09 -3.39209690638E-01 +1.87051282607E-01 -1.07668452733E-03 +2.26397784142E-04 -1.04883097221E-03 +1.25611119700E-04 -4.17034615272E-01 +5.81690625541E-02
3.04000000000E+09 -3.31531167052E-01 +2.17116635848E-01 -9.80767378675E-04 +9.85671521221E-04 -1.08122933525E-03 +9.85857480873E-04 -4.24602570298E-01 +9.85877243941E-02
3.04500000000E+09 -3.21866769977E-01 +2.46034166895E-01 -1.04570529160E-04 +1.31550181040E-03 -1.36342779037E-04 +1.42450757972E-03 -4.29901221454E-01 +1.38466604342E-01
3.05000000000E+09 -3.10618899565E-01 +2.74573070875E-01 +1.80470164750E-04 +7.64266001623E-04 +2.22682584457E-04 +8.31827836952E-04 -4.32491907580E-01 +1.78097179888E-01
3.05500000000E+09 -2.98031631996E-01 +3.02406143381E-01 +2.22497493976E-04 +6.01248704330E-04 +1.85144430045E-04 +6.54270014943E-04 -4.32389653874E-01 +2.16902983244E-01
3.06000000000E+09 -2.84293216205E-01 +3.29344890707E-01 -1.88537409124E-04 +5.20507164709E-04 -2.04471831943E-04 +4.89441635567E-04 -4.29880130874E-01 +2.55137814122E-01
3.06500000000E+09 -2.69970178458E-01 +3.55013370485E-01 +2.33987103269E-04 +8.61120265370E-04 +2.17822580975E-04 +8.83878589491E-04 -4.24735038819E-01 +2.91951507818E-01
3.07000000000E+09 -2.54952495844E-01 +3.79452267808E-01 +4.01028151548E-04 +7.18756423342E-04 +3.32422730519E-04 +7.42081557295E-04 -4.17602391575E-01 +3.27641420950E-01
