# Hz S RI R 50
! CMT, C1220, 16058040, 17.2.0/1
! Date: 15/08/2018 10:20:42
! Data: Format (Calibration Info)
! Freq                      S11: Re/Im (F2)                       S21: Re/Im (F2)                       S12: Re/Im (F2)                       S22: Re/Im (F2)            
2.50000000000E+09 +5.95531977374E-01 +6.34093243978E-01 -3.03752219557E-04 +1.25455425875E-04 -2.87203622521E-04 +8.51813992848E-05 +5.72815364204E-01 +7.16798421263E-01
2.50500000000E+09 +6.01993080032E-01 +6.26095577268E-01 -1.80949158808E-04 +1.42964600700E-04 -1.87263535453E-04 +1.77214068213E-04 +5.78326511674E-01 +7.11203252878E-01
2.51000000000E+09 +6.08520791240E-01 +6.17896509696E-01 -1.34717466845E-04 +1.56274156083E-04 -1.22360244550E-04 +1.33938623814E-04 +5.83838106746E-01 +7.06090313985E-01
2.51500000000E+09 +6.14940050412E-01 +6.09825822080E-01 -1.04091455062E-04 +1.18324396420E-04 -7.97563655987E-05 +1.32380281962E-04 +5.89249976460E-01 +7.00776986476E-01
2.52000000000E+09 +6.20789562432E-01 +6.01871801027E-01 -8.32397184749E-05 +6.06760671377E-05 -6.90965886271E-05 +6.23603033425E-05 +5.94351855157E-01 +6.94827559330E-01
2.52500000000E+09 +6.25955063182E-01 +5.94723296627E-01 -1.41751088087E-04 +6.02465744971E-06 -1.29286963047E-04 +2.20444826814E-05 +5.99971783514E-01 +6.88486847014E-01
2.53000000000E+09 +6.30617343969E-01 +5.87873973095E-01 -1.75541313002E-04 +3.40977775461E-05 -1.74582334953E-04 +8.19181918835E-05 +6.06073058658E-01 +6.81622425745E-01
2.53500000000E+09 +6.34760526560E-01 +5.81882901506E-01 -2.21234050278E-04 +8.71504160044E-05 -2.08695218850E-04 +1.03043218687E-04 +6.12153602094E-01 +6.74782879632E-01
2.54000000000E+09 +6.38753303536E-01 +5.75809121594E-01 -2.19844690368E-04 +2.09212477278E-04 -1.45663991960E-04 +1.58333652210E-04 +6.18040372085E-01 +6.68082163488E-01
2.54500000000E+09 +6.42846566704E-01 +5.70221776839E-01 -1.06791404888E-04 +2.11088126180E-04 -1.18257148957E-04 +1.93203787392E-04 +6.23749975247E-01 +6.61579766338E-01
2.55000000000E+09 +6.47464214914E-01 +5.64501233944E-01 -1.81797070517E-05 +1.75704551461E-04 -3.60630484655E-05 +2.52842541158E-04 +6.29105003225E-01 +6.55179059961E-01
2.55500000000E+09 +6.52772770336E-01 +5.57883718600E-01 +6.65925447811E-06 +1.31338320956E-04 +1.01763221205E-05 +1.50788538090E-04 +6.34316847306E-01 +6.48714450145E-01
2.56000000000E+09 +6.58817352825E-01 +5.50630638045E-01 -6.64122385910E-05 +7.77081591235E-05 -8.07930932656E-05 +5.05494551977E-05 +6.39584156524E-01 +6.41407683109E-01
2.56500000000E+09 +6.65209962186E-01 +5.42259296241E-01 -2.14296927161E-04 +5.90529239897E-05 -2.14068348237E-04 +1.06472448042E-04 +6.45012152172E-01 +6.34036043549E-01
2.57000000000E+09 +6.71385851082E-01 +5.33549020454E-01 -2.87993986902E-04 +1.92447125666E-04 -2.25440452747E-04 +2.61913608775E-04 +6.50332047860E-01 +6.26123016573E-01
2.57500000000E+09 +6.77555601698E-01 +5.24651713520E-01 -1.97475059197E-04 +3.85596715473E-04 -1.13816775222E-04 +3.14367514249E-04 +6.55541765607E-01 +6.18496104473E-01
2.58000000000E+09 +6.83200208809E-01 +5.15834544253E-01 -5.21673152653E-05 +4.10197127170E-04 -9.56440875758E-06 +3.47743277395E-04 +6.60459852267E-01 +6.11327625868E-01
2.58500000000E+09 +6.88557901788E-01 +5.06974019524E-01 +2.51021470967E-05 +3.31106334992E-04 +1.71367010748E-05 +2.87167761481E-04 +6.65343001459E-01 +6.03702977692E-01
2.59000000000E+09 +6.93137681789E-01 +4.98445892622E-01 +2.37485665130E-05 +2.78882311609E-04 -1.41318583994E-05 +2.43905267190E-04 +6.70083630839E-01 +5.96341074226E-01
2.59500000000E+09 +6.97466424968E-01 +4.90124598523E-01 +3.76418368425E-06 +2.92828906962E-04 +1.04256570355E-05 +2.83424569578E-04 +6.75018949492E-01 +5.88420499093E-01
2.60000000000E+09 +7.01439196839E-01 +4.81667884040E-01 +1.98179846195E-05 +2.99887582062E-04 +1.59542289073E-05 +2.53305468002E-04 +6.80090968216E-01 +5.80009670903E-01
2.60500000000E+09 +7.05530628956E-01 +4.72589163440E-01 +4.32488668490E-05 +3.65829601193E-04 +4.25643859856E-05 +4.05891869361E-04 +6.85479203810E-01 +5.71402440167E-01
2.61000000000E+09 +7.09776423600E-01 +4.62658610838E-01 +1.87255758224E-04 +3.94324381241E-04 +1.86986124023E-04 +4.02140988406E-04 +6.90851321094E-01 +5.62603154585E-01
2.61500000000E+09 +7.14228489652E-01 +4.51554713049E-01 +2.61610522741E-04 +2.62527369773E-04 +2.23930658931E-04 +2.84353626287E-04 +6.95514739631E-01 +5.53829147357E-01
2.62000000000E+09 +7.18214309779E-01 +4.39230033616E-01 +2.56613107991E-04 +1.90285506857E-04 +2.12675517808E-04 +2.44446271936E-04 +7.00218207683E-01 +5.44961160207E-01
2.62500000000E+09 +7.22003006814E-01 +4.26182385133E-01 +1.38529084357E-04 +2.17048748953E-04 +1.97329089468E-04 +2.44710275664E-04 +7.04878253778E-01 +5.35962824359E-01
2.63000000000E+09 +7.25699091023E-01 +4.12727719223E-01 +2.07684991371E-04 +3.35245147149E-04 +2.30619005593E-04 +2.70693199845E-04 +7.09853106802E-01 +5.26944703878E-01
2.63500000000E+09 +7.28677080526E-01 +3.99313025784E-01 +2.75302893347E-04 +2.84827549154E-04 +2.54851370049E-04 +2.43643214253E-04 +7.14854585559E-01 +5.17332408893E-01
2.64000000000E+09 +7.31453163000E-01 +3.86624559524E-01 +2.84491400076E-04 +2.91875110362E-04 +2.57066150180E-04 +2.81459299934E-04 +7.19643606512E-01 +5.07503826622E-01
2.64500000000E+09 +7.34294585311E-01 +3.74762860645E-01 +3.27775503140E-04 +3.26876949402E-04 +3.06234543236E-04 +2.70656734293E-04 +7.24440952922E-01 +4.97702174644E-01
2.65000000000E+09 +7.36581715885E-01 +3.63496214218E-01 +4.85312857084E-04 +3.03772947013E-04 +4.04257537461E-04 +3.51357897790E-04 +7.28699403381E-01 +4.87743901329E-01
2.65500000000E+09 +7.39138713760E-01 +3.52775047801E-01 +5.82657728497E-04 +2.27028710758E-04 +5.96770692347E-04 +2.77737711016E-04 +7.32574666816E-01 +4.77299056577E-01
2.66000000000E+09 +7.42100223163E-01 +3.42086601019E-01 +6.16133999641E-04 +8.30827789497E-05 +6.39230168124E-04 +1.04039434200E-04 +7.36597493897E-01 +4.66109614002E-01
2.66500000000E+09 +7.44683108152E-01 +3.31109015107E-01 +6.40323853771E-04 +8.73360374056E-05 +6.25907249683E-04 -2.21836389327E-05 +7.40494691273E-01 +4.55054600258E-01
2.67000000000E+09 +7.47008293728E-01 +3.19274020634E-01 +6.26909584845E-04 -1.30893923926E-04 +6.20305095777E-04 -2.14279700530E-04 +7.44727295034E-01 +4.44315782025E-01
2.67500000000E+09 +7.48808062440E-01 +3.06813122253E-01 +4.93997149912E-04 -2.23689547709E-04 +4.24922893411E-04 -1.79835281025E-04 +7.49085445562E-01 +4.32988885058E-01
2.68000000000E+09 +7.50418147008E-01 +2.93437247654E-01 +4.83165226258E-04 -1.27121088152E-04 +4.99505009596E-04 -8.66660795287E-05 +7.52875346628E-01 +4.21566753251E-01
2.68500000000E+09 +7.51160814934E-01 +2.79549036684E-01 +5.70414521658E-04 -1.96120373329E-04 +6.23571877162E-04 -1.56800866725E-04 +7.55658399838E-01 +4.09946737910E-01
2.69000000000E+09 +7.51556925308E-01 +2.65334265101E-01 +5.45255405462E-04 -2.90865933052E-04 +5.60775634115E-04 -2.72704963457E-04 +7.58093333167E-01 +3.98151508113E-01
2.69500000000E+09 +7.51783203765E-01 +2.51306420196E-01 +5.35245774663E-04 -3.15349022428E-04 +5.69326127443E-04 -3.11332767128E-04 +7.60744265576E-01 +3.85926895151E-01
2.70000000000E+09 +7.52086436331E-01 +2.37529147660E-01 +6.46401888781E-04 -5.43369289829E-04 +6.89099901538E-04 -4.91569253778E-04 +7.63793584513E-01 +3.72504903106E-01
2.70500000000E+09 +7.52730173682E-01 +2.24153081839E-01 +4.25457848659E-04 -7.00084419507E-04 +4.32178127413E-04 -6.14736559437E-04 +7.66286352185E-01 +3.58918952945E-01
2.71000000000E+09 +7.53770384808E-01 +2.10797984874E-01 +2.87051639374E-04 -7.49613864480E-04 +3.03071490197E-04 -7.44324674051E-04 +7.69053959595E-01 +3.46078759208E-01
2.71500000000E+09 +7.55420829713E-01 +1.96813459953E-01 +1.43245774226E-05 -7.12772245627E-04 +5.52429888767E-05 -7.06083094395E-04 +7.71641643046E-01 +3.33318083494E-01
2.72000000000E+09 +7.56893634643E-01 +1.82230091061E-01 -1.07563918096E-05 -4.06026945622E-04 -4.63613570966E-05 -4.60665452368E-04 +7.73767919509E-01 +3.20576432113E-01
2.72500000000E+09 +7.57986501749E-01 +1.66637404557E-01 +2.59550492154E-04 -3.28485118668E-04 +2.36162650982E-04 -4.21211339141E-04 +7.75108305807E-01 +3.07447801101E-01
2.73000000000E+09 +7.57783452681E-01 +1.50391777430E-01 +2.90260498761E-04 -7.03741620748E-04 +2.49776504817E-04 -6.71800767875E-04 +7.76268100579E-01 +2.93463985712E-01
2.73500000000E+09 +7.56457488188E-01 +1.33474716383E-01 +1.47973726295E-04 -7.87696364591E-04 +9.69475740260E-05 -6.45335495935E-04 +7.77440803332E-01 +2.78952655885E-01
2.74000000000E+09 +7.53753678083E-01 +1.16481510791E-01 -6.81654233082E-05 -7.22836855545E-04 -3.63761118714E-05 -7.19107983006E-04 +7.78973255806E-01 +2.64104079470E-01
2.74500000000E+09 +7.49862999458E-01 +9.91574044512E-02 -1.08719910924E-04 -6.31821455917E-04 -2.47020257419E-05 -6.39586119120E-04 +7.80149369211E-01 +2.48675379749E-01
2.75000000000E+09 +7.44741898972E-01 +8.21400455312E-02 -6.99209906019E-05 -6.87797260743E-04 -7.31050392403E-06 -7.25379055706E-04 +7.81054167842E-01 +2.33688314982E-01
2.75500000000E+09 +7.39189160245E-01 +6.56974227058E-02 -1.35164551287E-04 -7.96423314976E-04 -1.08982236765E-04 -8.96513858998E-04 +7.81165010696E-01 +2.18092258262E-01
2.76000000000E+09 +7.34117040008E-01 +4.95133512226E-02 -3.52106015766E-04 -8.48141654240E-04 -3.33935807101E-04 -9.40666778226E-04 +7.80628717295E-01 +2.02548956817E-01
2.76500000000E+09 +7.29147427917E-01 +3.26942047929E-02 -5.38946442663E-04 -8.18603218275E-04 -5.50070833137E-04 -8.67654934561E-04 +7.79868592558E-01 +1.85716253553E-01
2.77000000000E+09 +7.24446677918E-01 +1.51531712933E-02 -5.57652723449E-04 -7.26462397062E-04 -6.23418850205E-04 -7.35169528252E-04 +7.78607481017E-01 +1.67960023877E-01
2.77500000000E+09 +7.19838262627E-01 -3.25366333173E-03 -6.86542630530E-04 -6.76161488147E-04 -6.87045443501E-04 -6.78195296080E-04 +7.76594424575E-01 +1.49968918492E-01
2.78000000000E+09 +7.14866565873E-01 -2.24547468269E-02 -8.34254348240E-04 -6.38672187453E-04 -8.17948164739E-04 -6.47215124795E-04 +7.74631134775E-01 +1.32045856125E-01
2.78500000000E+09 +7.09106412838E-01 -4.26377716906E-02 -8.43141666774E-04 -5.37680756685E-04 -8.66594006477E-04 -4.97297056051E-04 +7.72095433828E-01 +1.14099326750E-01
2.79000000000E+09 +7.02380468807E-01 -6.32167473133E-02 -1.09597968860E-03 -4.07635337489E-04 -1.03504681148E-03 -3.49039722668E-04 +7.68715452019E-01 +9.64261222428E-02
2.79500000000E+09 +6.94528851680E-01 -8.38764296883E-02 -1.11429696695E-03 -1.00220968823E-04 -1.04710764628E-03 -8.56906171956E-05 +7.64463431665E-01 +7.84561995273E-02
2.80000000000E+09 +6.84715500886E-01 -1.03992448485E-01 -8.76770816305E-04 +1.34684329779E-04 -8.54310144722E-04 +1.45995835302E-04 +7.59702737327E-01 +5.99415567258E-02
2.80500000000E+09 +6.74089631499E-01 -1.22670359160E-01 -6.32008092968E-04 -1.10370984798E-04 -6.44219293174E-04 -9.45253855468E-05 +7.53760816702E-01 +4.05099091486E-02
2.81000000000E+09 +6.62727919074E-01 -1.40770652444E-01 -9.16849682654E-04 -2.65887637541E-04 -9.22063627442E-04 -3.06106986692E-04 +7.47027574055E-01 +2.13506993287E-02
2.81500000000E+09 +6.50295835758E-01 -1.58147215450E-01 -1.09402908632E-03 -8.32461538121E-05 -1.14791752548E-03 -4.17983672709E-05 +7.39941055392E-01 +2.09995304856E-03
2.82000000000E+09 +6.36824268264E-01 -1.75167144991E-01 -1.33007907697E-03 +1.83223157721E-04 -1.32482944720E-03 +2.32679405507E-04 +7.32652640199E-01 -1.77382720405E-02
2.82500000000E+09 +6.22517886386E-01 -1.91917531809E-01 -1.16006528326E-03 +5.75168187311E-04 -1.10535143572E-03 +5.59672722998E-04 +7.23158841491E-01 -3.78376060288E-02
2.83000000000E+09 +6.06906026953E-01 -2.09228549869E-01 -8.82329167991E-04 +7.16949287981E-04 -8.34185237986E-04 +6.81863971179E-04 +7.13184897801E-01 -5.72915531006E-02
2.83500000000E+09 +5.90034887102E-01 -2.27075480341E-01 -8.79956251291E-04 +5.48948980909E-04 -8.16486712461E-04 +5.21223977850E-04 +7.02034604106E-01 -7.73659593249E-02
2.84000000000E+09 +5.71375542182E-01 -2.45733698690E-01 -7.33993281088E-04 +6.51934836139E-04 -7.38367822076E-04 +6.12244822262E-04 +6.90787887713E-01 -9.69591568492E-02
2.84500000000E+09 +5.50263730018E-01 -2.64919656620E-01 -9.19752410258E-04 +5.31785253535E-04 -8.84056241502E-04 +5.53667497948E-04 +6.78641932442E-01 -1.17757612973E-01
2.85000000000E+09 +5.27302016353E-01 -2.83463729871E-01 -9.93581780722E-04 +1.08082036815E-03 -9.78221470302E-04 +1.09442242540E-03 +6.64776962657E-01 -1.38580941297E-01
2.85500000000E+09 +5.02858940427E-01 -3.01298834650E-01 -5.09281547913E-04 +9.25023517550E-04 -5.08999312611E-04 +9.08162033063E-04 +6.49866100832E-01 -1.58610866783E-01
2.86000000000E+09 +4.77618655885E-01 -3.18102937112E-01 -8.62606932739E-04 +8.26126331102E-04 -8.53385780064E-04 +7.82355971906E-04 +6.33900087378E-01 -1.78948963756E-01
2.86500000000E+09 +4.51786297061E-01 -3.33620617148E-01 -1.01803446643E-03 +1.49443786726E-03 -1.09322202959E-03 +1.43425587675E-03 +6.16337223091E-01 -1.99159753768E-01
2.87000000000E+09 +4.25957176753E-01 -3.48111216096E-01 -4.25927396106E-04 +1.87704279526E-03 -4.17693517887E-04 +1.81865251900E-03 +5.97595627244E-01 -2.19095334082E-01
2.87500000000E+09 +3.99673855120E-01 -3.61496036601E-01 -6.63849774525E-05 +1.65874166849E-03 +5.76937315384E-05 +1.65045071149E-03 +5.77162637927E-01 -2.38636674097E-01
2.88000000000E+09 +3.72798783074E-01 -3.73696631954E-01 -1.58488643177E-05 +1.74202417080E-03 +3.30035081700E-05 +1.67203789954E-03 +5.56480917409E-01 -2.57232074056E-01
2.88500000000E+09 +3.45108065750E-01 -3.84816275949E-01 +4.74885683595E-04 +1.74651577550E-03 +4.75346893314E-04 +1.67200573883E-03 +5.33777963474E-01 -2.76447915859E-01
2.89000000000E+09 +3.15935414848E-01 -3.94307259123E-01 +4.27650689641E-04 +1.48177612941E-03 +3.55555872999E-04 +1.41954539677E-03 +5.08627763550E-01 -2.94043236014E-01
2.89500000000E+09 +2.85214927525E-01 -4.02228507743E-01 +5.94864677482E-04 +1.82908050776E-03 +4.43337436078E-04 +1.77449439691E-03 +4.82259515572E-01 -3.11469443262E-01
2.90000000000E+09 +2.52943356223E-01 -4.07488264274E-01 +1.09994294151E-03 +1.96165680470E-03 +1.00720025412E-03 +2.04080326409E-03 +4.53504321006E-01 -3.28340066905E-01
2.90500000000E+09 +2.19366790187E-01 -4.10867214702E-01 +1.48467956507E-03 +1.61887008029E-03 +1.49576911391E-03 +1.66378018361E-03 +4.22580102340E-01 -3.43484745077E-01
2.91000000000E+09 +1.84288327541E-01 -4.11385107309E-01 +2.07464726510E-03 +1.46897445599E-03 +2.11665543477E-03 +1.39896354117E-03 +3.91164341922E-01 -3.56931257937E-01
2.91500000000E+09 +1.49000795321E-01 -4.09388307296E-01 +2.29165899131E-03 +6.04531404370E-04 +2.23149548856E-03 +5.24719467578E-04 +3.58693754746E-01 -3.68145373664E-01
2.92000000000E+09 +1.12867855961E-01 -4.04903239612E-01 +1.94837116159E-03 +4.18110445584E-05 +1.84659332175E-03 +4.05935287657E-05 +3.25884710779E-01 -3.77854866441E-01
2.92500000000E+09 +7.71715098015E-02 -3.98322106794E-01 +1.36384087069E-03 +2.10288531933E-05 +1.30016549992E-03 +1.37680621483E-04 +2.90285318359E-01 -3.86318690401E-01
2.93000000000E+09 +4.14638100392E-02 -3.89349885132E-01 +1.63804805994E-03 +4.35904220112E-04 +1.57833773231E-03 +5.16839465895E-04 +2.52899860688E-01 -3.91413436297E-01
2.93500000000E+09 +6.53578190758E-03 -3.78196692704E-01 +2.30347324829E-03 -4.18083936690E-05 +2.26950496660E-03 +4.00376287850E-05 +2.15394518084E-01 -3.94700001430E-01
2.94000000000E+09 -2.74289978429E-02 -3.65433658478E-01 +2.04419280290E-03 -6.82802844714E-04 +2.10995831554E-03 -6.65918302881E-04 +1.77174648603E-01 -3.96374680705E-01
2.94500000000E+09 -6.14297800198E-02 -3.50512706314E-01 +1.76980722099E-03 -9.71026466863E-04 +1.71221758671E-03 -8.58578080628E-04 +1.38680488572E-01 -3.96513942775E-01
2.95000000000E+09 -9.47244775237E-02 -3.32304607620E-01 +1.50743616730E-03 -1.19539703945E-03 +1.50025142904E-03 -1.14251365322E-03 +9.91871034217E-02 -3.93681274699E-01
2.95500000000E+09 -1.26357821467E-01 -3.10835121898E-01 +1.40557823542E-03 -1.26806963136E-03 +1.46216012147E-03 -1.23639010468E-03 +6.01650549189E-02 -3.87619262326E-01
2.96000000000E+09 -1.55651184802E-01 -2.86443487658E-01 +1.07446561024E-03 -1.80698492469E-03 +1.18084703892E-03 -1.83254976694E-03 +2.12416801472E-02 -3.78728770407E-01
2.96500000000E+09 -1.82981391936E-01 -2.60141478049E-01 +2.54925582275E-04 -1.58437969650E-03 +2.67181518295E-04 -1.60716862750E-03 -1.81436967205E-02 -3.68431471617E-01
2.97000000000E+09 -2.08548189551E-01 -2.31680000667E-01 +2.90548530240E-04 -1.08229871836E-03 +2.61651766738E-04 -1.08239369473E-03 -5.93281751716E-02 -3.54163443848E-01
2.97500000000E+09 -2.32881593370E-01 -2.01159385806E-01 +6.46391594945E-04 -8.78618691116E-04 +5.46089219308E-04 -8.66598357196E-04 -9.76670799067E-02 -3.36037028391E-01
2.98000000000E+09 -2.54632582367E-01 -1.68309013854E-01 +8.61926610656E-04 -1.33719527493E-03 +8.84940855347E-04 -1.27771025787E-03 -1.35095566877E-01 -3.17201588921E-01
2.98500000000E+09 -2.74026387710E-01 -1.35073160630E-01 +4.51595495769E-04 -1.82596044508E-03 +5.49581345604E-04 -1.82458058101E-03 -1.71184784391E-01 -2.94996814474E-01
2.99000000000E+09 -2.91726797888E-01 -1.01116426315E-01 -1.18883367366E-04 -1.78042188287E-03 -1.33424997109E-04 -1.88183204274E-03 -2.07243798049E-01 -2.71316450527E-01
2.99500000000E+09 -3.07463336339E-01 -6.74795838734E-02 -3.37821096862E-04 -1.55157641659E-03 -3.58289753466E-04 -1.51554677174E-03 -2.41952583413E-01 -2.41638672785E-01
3.00000000000E+09 -3.22194180647E-01 -3.35263381492E-02 -3.93299345614E-04 -1.18022336613E-03 -4.74499956693E-04 -1.22249252202E-03 -2.72850236662E-01 -2.09943151356E-01
3.00500000000E+09 -3.33846819880E-01 +1.09882672436E-03 -2.11639311954E-04 -1.26500346010E-03 -2.48468810819E-04 -1.17316503852E-03 -3.01867796344E-01 -1.77334663673E-01
3.01000000000E+09 -3.42319401219E-01 +3.45522701695E-02 -6.29655116337E-04 -1.67036150193E-03 -5.41033635692E-04 -1.59901064231E-03 -3.28969043467E-01 -1.42344601043E-01
3.01500000000E+09 -3.48246521481E-01 +6.80114920869E-02 -9.81828476427E-04 -1.22908339026E-03 -9.35185865093E-04 -1.26397108148E-03 -3.52970388706E-01 -1.05895440737E-01
3.02000000000E+09 -3.50587132714E-01 +1.00175020533E-01 -9.58735637511E-04 -1.04791505402E-03 -9.52910125370E-04 -1.07718719908E-03 -3.73453451166E-01 -6.76310472471E-02
3.02500000000E+09 -3.50362599862E-01 +1.31776106205E-01 -8.27930173308E-04 -9.50692425123E-04 -8.44017827319E-04 -1.00689925012E-03 -3.89419357706E-01 -2.81570692760E-02
3.03000000000E+09 -3.47147349679E-01 +1.62784152971E-01 -1.23774452639E-03 -1.45417949520E-03 -1.21801256414E-03 -1.43432433630E-03 -4.03358833935E-01 +1.01734156072E-02
3.03500000000E+09 -3.41580716850E-01 +1.93333044957E-01 -2.09571898414E-03 -7.46569870992E-04 -2.09168231354E-03 -8.32873611872E-04 -4.15658635194E-01 +5.00480937237E-02
3.04000000000E+09 -3.33164352390E-01 +2.23604270147E-01 -1.80228037726E-03 +1.26138453046E-04 -1.87333235505E-03 +1.13014869252E-04 -4.24449547818E-01 +9.07756242431E-02
3.04500000000E+09 -3.23092262923E-01 +2.53020248817E-01 -1.20811658070E-03 +4.12940458109E-04 -1.31502787388E-03 +4.55692305208E-04 -4.30614167827E-01 +1.30994304387E-01
3.05000000000E+09 -3.11124414462E-01 +2.82029764326E-01 -7.99506896201E-04 +1.70651214368E-04 -8.70545705416E-04 +1.67768069937E-04 -4.33809285296E-01 +1.71074387509E-01
3.05500000000E+09 -2.98208339882E-01 +3.09953766728E-01 -8.68100986037E-04 -1.20037588981E-04 -9.13938385948E-04 -1.52404219123E-04 -4.33904545829E-01 +2.10406789456E-01
3.06000000000E+09 -2.84086973303E-01 +3.37373521547E-01 -1.42439353220E-03 -1.50855192045E-05 -1.41823599149E-03 +1.82682264258E-05 -4.31444237582E-01 +2.48696173223E-01
3.06500000000E+09 -2.69123036515E-01 +3.62959940754E-01 -1.28086779290E-03 +6.63519006106E-04 -1.22461038363E-03 +5.88000928270E-04 -4.27575649167E-01 +2.85347354654E-01
3.07000000000E+09 -2.53869142762E-01 +3.87172408424E-01 -7.81921757015E-04 +7.80916643378E-04 -7.99483395058E-04 +7.40538958997E-04 -4.21240678957E-01 +3.21985937371E-01
