# Hz S RI R 50
! CMT, C1220, 16058040, 17.2.0/1
! Date: 15/08/2018 10:17:22
! Data: Format (Calibration Info)
! Freq                      S11: Re/Im (F2)                       S21: Re/Im (F2)                       S12: Re/Im (F2)                       S22: Re/Im (F2)            
2.50000000000E+09 +5.97432782871E-01 +6.33748291760E-01 -3.66260786448E-04 +2.63420441210E-04 -3.82260358727E-04 +3.13629159626E-04 +5.73285676693E-01 +7.16318558178E-01
2.50500000000E+09 +6.03833395154E-01 +6.25809792286E-01 -2.65596974971E-04 +3.83966719352E-04 -2.88794593843E-04 +4.22949544152E-04 +5.78986279041E-01 +7.10729997088E-01
2.51000000000E+09 +6.10248689106E-01 +6.17451652703E-01 -1.58223725029E-04 +3.61887221592E-04 -1.69145481725E-04 +3.68239174639E-04 +5.84269315091E-01 +7.05520472673E-01
2.51500000000E+09 +6.16379847185E-01 +6.09485896331E-01 -1.73551820527E-04 +2.83702718860E-04 -1.56685612883E-04 +2.82109620810E-04 +5.89551316998E-01 +7.00388712996E-01
2.52000000000E+09 +6.22160152230E-01 +6.01703659980E-01 -1.19669767373E-04 +3.33609243792E-04 -1.33636598186E-04 +3.25526419035E-04 +5.94788273597E-01 +6.94313057548E-01
2.52500000000E+09 +6.27296008266E-01 +5.94444351793E-01 -6.57923764850E-05 +3.27480998380E-04 -1.21147871868E-04 +3.26225302940E-04 +6.00322894274E-01 +6.87950431874E-01
2.53000000000E+09 +6.31955497580E-01 +5.87626734746E-01 -8.58260603433E-05 +2.98720250207E-04 -5.99976873315E-05 +3.20899302845E-04 +6.06498168490E-01 +6.81022577906E-01
2.53500000000E+09 +6.36424174796E-01 +5.81322886212E-01 -8.47580369786E-05 +2.74649365179E-04 -7.53980973554E-05 +3.06460670997E-04 +6.12515626771E-01 +6.74285744324E-01
2.54000000000E+09 +6.40408738379E-01 +5.75226002038E-01 -2.63229951390E-05 +4.03977277197E-04 -8.83983479439E-06 +3.97266150845E-04 +6.18378938155E-01 +6.67524451320E-01
2.54500000000E+09 +6.44607522881E-01 +5.69527861976E-01 +6.68294799338E-05 +3.97816077883E-04 +2.30695841884E-05 +4.15109459249E-04 +6.24103471715E-01 +6.61116012347E-01
2.55000000000E+09 +6.49555184211E-01 +5.63611646415E-01 +1.72334674709E-04 +3.40724574672E-04 +1.72676752515E-04 +3.94589996703E-04 +6.29436392249E-01 +6.54712647616E-01
2.55500000000E+09 +6.55100095380E-01 +5.56560923846E-01 +1.69255071229E-04 +2.42265700961E-04 +2.43658009710E-04 +2.69817972936E-04 +6.34665782811E-01 +6.48166577219E-01
2.56000000000E+09 +6.61101353991E-01 +5.49194817464E-01 +7.77553022058E-05 +1.20321760122E-04 +9.23508534884E-05 +1.15135983145E-04 +6.39869425402E-01 +6.40980073918E-01
2.56500000000E+09 +6.67246216642E-01 +5.40646023573E-01 -6.90855792477E-05 +1.92477732479E-04 -5.54624582125E-05 +2.06678367918E-04 +6.45344852042E-01 +6.33387943887E-01
2.57000000000E+09 +6.73479526296E-01 +5.32015664313E-01 -4.27429533151E-05 +3.88207244613E-04 +4.76771494934E-05 +3.50420805021E-04 +6.50653622782E-01 +6.25587516600E-01
2.57500000000E+09 +6.79515004344E-01 +5.23006231706E-01 +1.04130185500E-04 +4.18100782081E-04 +1.14185363060E-04 +3.19258115112E-04 +6.55826974818E-01 +6.17877997257E-01
2.58000000000E+09 +6.85004732905E-01 +5.14045912157E-01 +1.52587167513E-04 +4.57619656731E-04 +1.95326948256E-04 +3.43177000805E-04 +6.60583038880E-01 +6.10665920759E-01
2.58500000000E+09 +6.89923283600E-01 +5.04952621438E-01 +3.00917075323E-04 +3.89143577715E-04 +2.14683178726E-04 +3.06597689227E-04 +6.65461744967E-01 +6.03054327493E-01
2.59000000000E+09 +6.94224070393E-01 +4.96333535781E-01 +2.10428753677E-04 +3.27501884692E-04 +2.05082902000E-04 +3.22397124489E-04 +6.70094568611E-01 +5.95629418546E-01
2.59500000000E+09 +6.98294527927E-01 +4.87964770761E-01 +2.39090562693E-04 +3.66107787542E-04 +2.26353777454E-04 +3.79056299326E-04 +6.75047780135E-01 +5.87872839701E-01
2.60000000000E+09 +7.02255572888E-01 +4.79303103915E-01 +3.24428410775E-04 +4.04724859073E-04 +3.17050258752E-04 +4.73488275242E-04 +6.80162400929E-01 +5.79417138048E-01
2.60500000000E+09 +7.06240398141E-01 +4.69958567781E-01 +4.09166445515E-04 +3.64712768982E-04 +4.49917457717E-04 +4.02423004945E-04 +6.85416829038E-01 +5.71008889201E-01
2.61000000000E+09 +7.10366591327E-01 +4.59744648412E-01 +5.76391212529E-04 +3.58727789481E-04 +5.53980316865E-04 +3.87879983713E-04 +6.90697409115E-01 +5.62249492449E-01
2.61500000000E+09 +7.14887535645E-01 +4.48594319025E-01 +6.35921316795E-04 +1.81558713125E-04 +6.95076081499E-04 +2.28248534786E-04 +6.95515167638E-01 +5.53387135575E-01
2.62000000000E+09 +7.18921275667E-01 +4.35971760578E-01 +6.36859364316E-04 +9.17509138035E-06 +6.63398494919E-04 -4.69863199210E-05 +7.00276446523E-01 +5.44446566010E-01
2.62500000000E+09 +7.22711877365E-01 +4.22730171390E-01 +5.47790835467E-04 +2.00972900981E-06 +5.69015869390E-04 -3.73081059553E-05 +7.05096847207E-01 +5.35524037630E-01
2.63000000000E+09 +7.26134875666E-01 +4.09479668543E-01 +5.42654087435E-04 +5.58692366390E-05 +5.44705194432E-04 -6.77895073879E-05 +7.09847451644E-01 +5.26329674918E-01
2.63500000000E+09 +7.29323305422E-01 +3.96020295326E-01 +5.69483214456E-04 -6.96817534949E-05 +5.23532140667E-04 -6.11427112298E-05 +7.14838707517E-01 +5.17101922996E-01
2.64000000000E+09 +7.32027111995E-01 +3.83124474735E-01 +6.47618572249E-04 -1.09017466241E-04 +5.50453704555E-04 -1.00950553730E-04 +7.19715505687E-01 +5.07233161089E-01
2.64500000000E+09 +7.34816916984E-01 +3.71116778733E-01 +5.55393513139E-04 -2.51639407956E-04 +4.93839706875E-04 -2.16514010731E-04 +7.24471658035E-01 +4.97427856064E-01
2.65000000000E+09 +7.37000153719E-01 +3.59818532858E-01 +5.25801730442E-04 -1.99079648116E-04 +5.22787850185E-04 -1.49735581985E-04 +7.28663237095E-01 +4.87326460498E-01
2.65500000000E+09 +7.39428814288E-01 +3.48815534431E-01 +6.05918651381E-04 -2.92630788789E-04 +6.37724964066E-04 -1.74568921911E-04 +7.32674376757E-01 +4.76936215293E-01
2.66000000000E+09 +7.42114648738E-01 +3.37953886256E-01 +5.64019384053E-04 -3.32330895836E-04 +6.34795485965E-04 -3.95935996328E-04 +7.36589548732E-01 +4.65821726078E-01
2.66500000000E+09 +7.44445199675E-01 +3.26549760635E-01 +6.29188300409E-04 -4.65901363540E-04 +5.75963868483E-04 -5.18667536154E-04 +7.40513506599E-01 +4.54759681900E-01
2.67000000000E+09 +7.46336579616E-01 +3.14362801584E-01 +4.89525875767E-04 -6.73992709262E-04 +3.72513051948E-04 -6.85810493660E-04 +7.44787029248E-01 +4.44069544536E-01
2.67500000000E+09 +7.47667547622E-01 +3.01901746501E-01 +2.25574583766E-04 -5.64336800656E-04 +1.76389288292E-04 -5.51282740956E-04 +7.49008096555E-01 +4.32890424967E-01
2.68000000000E+09 +7.49025121968E-01 +2.88491649308E-01 +3.11489101537E-04 -4.55047488012E-04 +3.49602236111E-04 -4.11273807031E-04 +7.52943305812E-01 +4.21597918790E-01
2.68500000000E+09 +7.49483386718E-01 +2.74353833937E-01 +3.86604329716E-04 -6.37059906095E-04 +3.90271271584E-04 -5.68245017915E-04 +7.55724044501E-01 +4.09890658275E-01
2.69000000000E+09 +7.49573693417E-01 +2.60220352729E-01 +3.11044081465E-04 -7.00858219562E-04 +3.17038528103E-04 -7.30571981963E-04 +7.58270896235E-01 +3.98115361802E-01
2.69500000000E+09 +7.49400677405E-01 +2.46171448543E-01 +3.38068922603E-04 -7.30195061092E-04 +2.46923299104E-04 -7.12067761082E-04 +7.61051258193E-01 +3.85700820694E-01
2.70000000000E+09 +7.49160625953E-01 +2.32371685993E-01 +2.71689786842E-04 -9.36197129569E-04 +3.24980016597E-04 -8.84816096799E-04 +7.64085136087E-01 +3.72373322469E-01
2.70500000000E+09 +7.49294694092E-01 +2.19243530012E-01 +1.01074930285E-04 -9.89857398451E-04 +1.11640050988E-04 -9.52749991634E-04 +7.66646466466E-01 +3.58725514776E-01
2.71000000000E+09 +7.50220542210E-01 +2.06153025797E-01 -5.59646765751E-05 -1.06621022541E-03 +3.25552396598E-05 -1.07647121484E-03 +7.69426490438E-01 +3.45753312037E-01
2.71500000000E+09 +7.51613752366E-01 +1.92228990678E-01 -3.10807658884E-04 -1.07607814498E-03 -3.62179159089E-04 -1.09163662806E-03 +7.71955029517E-01 +3.33059523683E-01
2.72000000000E+09 +7.52807510858E-01 +1.77663758004E-01 -4.69620633456E-04 -7.86356107562E-04 -5.74538335479E-04 -8.47838008492E-04 +7.74140090978E-01 +3.20269761103E-01
2.72500000000E+09 +7.53434613390E-01 +1.62103391578E-01 -3.05815066279E-04 -7.99678829965E-04 -4.27458515306E-04 -7.84451810223E-04 +7.75384858106E-01 +3.06956151761E-01
2.73000000000E+09 +7.52755341607E-01 +1.46081569531E-01 -5.36517961550E-04 -1.05127120328E-03 -5.46040212473E-04 -9.04030475477E-04 +7.76723958071E-01 +2.93057723458E-01
2.73500000000E+09 +7.50985157568E-01 +1.29367219679E-01 -8.30399340426E-04 -8.62253335460E-04 -6.86391203598E-04 -7.33032208109E-04 +7.77890019632E-01 +2.78431561581E-01
2.74000000000E+09 +7.48284737342E-01 +1.12900397718E-01 -1.03451058062E-03 -6.46276862606E-04 -8.62279894536E-04 -6.58695918998E-04 +7.79280399702E-01 +2.63376772600E-01
2.74500000000E+09 +7.44469778201E-01 +9.55477016492E-02 -9.74908212724E-04 -3.25029033749E-04 -9.21657773490E-04 -4.76882394416E-04 +7.80416364189E-01 +2.48076250173E-01
2.75000000000E+09 +7.38968352842E-01 +7.85515909136E-02 -7.71800870094E-04 -3.28077477112E-04 -7.87941410501E-04 -4.33986621133E-04 +7.81299508811E-01 +2.33217339384E-01
2.75500000000E+09 +7.33059188473E-01 +6.23304652766E-02 -8.97064671480E-04 -4.72847731976E-04 -8.64411408293E-04 -5.45469511001E-04 +7.81519288344E-01 +2.17722142984E-01
2.76000000000E+09 +7.27789846195E-01 +4.66461873226E-02 -1.05415918304E-03 -3.92852979039E-04 -1.07926639770E-03 -4.43635739205E-04 +7.80799724321E-01 +2.02137164420E-01
2.76500000000E+09 +7.23031315328E-01 +2.99210898776E-02 -1.30400378662E-03 -1.76923543179E-04 -1.36183169099E-03 -1.84800134189E-04 +7.80124891266E-01 +1.85260870534E-01
2.77000000000E+09 +7.17787935678E-01 +1.22721750874E-02 -1.19194394591E-03 +1.98909597013E-04 -1.19944601710E-03 +1.94300983789E-04 +7.78922439497E-01 +1.67524866220E-01
2.77500000000E+09 +7.12701890166E-01 -5.96323691601E-03 -1.01392184103E-03 +2.54332861610E-04 -1.05739582111E-03 +2.81853028331E-04 +7.76946442930E-01 +1.49326241838E-01
2.78000000000E+09 +7.07109893275E-01 -2.49415966378E-02 -1.03719858954E-03 +2.50444900430E-04 -1.05528896187E-03 +3.06959310515E-04 +7.75039519296E-01 +1.31350276694E-01
2.78500000000E+09 +7.00571512253E-01 -4.44670707049E-02 -9.95655794573E-04 +3.33816716077E-04 -1.04381485492E-03 +3.53145778938E-04 +7.72517950024E-01 +1.13405488780E-01
2.79000000000E+09 +6.93626619288E-01 -6.42001222395E-02 -1.04571802820E-03 +4.11355908487E-04 -9.99719044291E-04 +4.43544996188E-04 +7.69163256973E-01 +9.57190146345E-02
2.79500000000E+09 +6.85851909383E-01 -8.44435877981E-02 -1.11766155187E-03 +6.03761765772E-04 -1.10219543722E-03 +6.17374694103E-04 +7.64839976652E-01 +7.76554237706E-02
2.80000000000E+09 +6.75512998922E-01 -1.04173583289E-01 -8.76506834669E-04 +9.70195632655E-04 -8.51087661156E-04 +9.26336137442E-04 +7.59935159851E-01 +5.89969294675E-02
2.80500000000E+09 +6.64555183729E-01 -1.22169213333E-01 -4.94619958854E-04 +7.02360664131E-04 -5.49540100537E-04 +6.54181950051E-04 +7.53872519377E-01 +3.96069848144E-02
2.81000000000E+09 +6.52869908599E-01 -1.39142259813E-01 -7.83426945573E-04 +5.50541523291E-04 -8.01501057958E-04 +5.58345969795E-04 +7.47116377245E-01 +2.02177016362E-02
2.81500000000E+09 +6.40452989116E-01 -1.55449622226E-01 -8.81134637722E-04 +8.30960502109E-04 -8.69541302268E-04 +9.09732485634E-04 +7.39607335140E-01 +9.72602347386E-04
2.82000000000E+09 +6.27435559695E-01 -1.71380049032E-01 -9.33830973332E-04 +1.04329930240E-03 -8.43767574849E-04 +1.06095891653E-03 +7.32365347117E-01 -1.86486577439E-02
2.82500000000E+09 +6.13572406214E-01 -1.88044578676E-01 -5.80943308575E-04 +1.34623900404E-03 -5.44268005141E-04 +1.29728206970E-03 +7.22997929587E-01 -3.87268719507E-02
2.83000000000E+09 +5.97440339660E-01 -2.04757328328E-01 -4.25483757996E-04 +1.28597165910E-03 -4.15544710633E-04 +1.21223563698E-03 +7.13107840158E-01 -5.81080693217E-02
2.83500000000E+09 +5.80690725545E-01 -2.21632523722E-01 -4.96268620289E-04 +1.40212856231E-03 -4.92776218993E-04 +1.41879474603E-03 +7.02025337437E-01 -7.82897645962E-02
2.84000000000E+09 +5.62386426579E-01 -2.39612107405E-01 -6.21491418511E-05 +1.65867789803E-03 -1.01888160323E-04 +1.69187117472E-03 +6.90517165737E-01 -9.79015328545E-02
2.84500000000E+09 +5.41719220355E-01 -2.58171319650E-01 +6.97361096650E-05 +1.49829102568E-03 +4.60295582204E-05 +1.48543636386E-03 +6.78478720724E-01 -1.18559016055E-01
2.85000000000E+09 +5.19442700457E-01 -2.76277691972E-01 +4.44483573359E-04 +1.76790766845E-03 +4.24429643537E-04 +1.75227957023E-03 +6.64765286062E-01 -1.39383923152E-01
2.85500000000E+09 +4.95313871567E-01 -2.93761799673E-01 +8.31166758898E-04 +1.09657962464E-03 +8.82179773998E-04 +1.13721427769E-03 +6.49807790640E-01 -1.59614177371E-01
2.86000000000E+09 +4.70633080539E-01 -3.09650325588E-01 +3.86093434029E-04 +9.09772967113E-04 +3.44600836076E-04 +8.62201127466E-04 +6.33990131566E-01 -1.80004359741E-01
2.86500000000E+09 +4.45898144911E-01 -3.24597901680E-01 +2.61795356834E-04 +1.48388179223E-03 +1.92731713723E-04 +1.43926138134E-03 +6.16451832444E-01 -2.00513149878E-01
2.87000000000E+09 +4.21241777030E-01 -3.38769109701E-01 +1.04225614468E-03 +1.55104124227E-03 +9.97421032032E-04 +1.55384883798E-03 +5.97567191850E-01 -2.20827886858E-01
2.87500000000E+09 +3.95502189614E-01 -3.52435509771E-01 +1.08197018779E-03 +1.19945201704E-03 +1.02904640310E-03 +1.24865151119E-03 +5.76703218995E-01 -2.40513434112E-01
2.88000000000E+09 +3.68723790071E-01 -3.63775818368E-01 +1.22610757192E-03 +1.29721814339E-03 +1.15703642898E-03 +1.25621263640E-03 +5.55629253307E-01 -2.58977206522E-01
2.88500000000E+09 +3.41822660178E-01 -3.74096728581E-01 +1.64838006831E-03 +1.03358703244E-03 +1.60760545544E-03 +9.96381154728E-04 +5.32770706080E-01 -2.78103158063E-01
2.89000000000E+09 +3.13567683976E-01 -3.82868131579E-01 +1.49881372440E-03 +7.27022027550E-04 +1.37801467577E-03 +6.83309419612E-04 +5.07294708654E-01 -2.95716496847E-01
2.89500000000E+09 +2.84081861113E-01 -3.90387200755E-01 +1.70645988325E-03 +7.78356855748E-04 +1.62890865376E-03 +8.76014946862E-04 +4.80631469789E-01 -3.12909599534E-01
2.90000000000E+09 +2.52612194759E-01 -3.95617200270E-01 +1.90872417523E-03 +3.34754236450E-04 +1.98930691191E-03 +4.18650936461E-04 +4.51620629660E-01 -3.29767435971E-01
2.90500000000E+09 +2.19521438547E-01 -3.99164602330E-01 +1.55550606559E-03 +2.74959012822E-04 +1.60204687267E-03 +3.39583838772E-04 +4.20587639609E-01 -3.44655868019E-01
2.91000000000E+09 +1.85313209463E-01 -3.99022041293E-01 +2.15534239623E-03 +5.54111646146E-04 +2.07467421263E-03 +5.09116446117E-04 +3.88909449459E-01 -3.57952810064E-01
2.91500000000E+09 +1.51377570253E-01 -3.96898551136E-01 +2.75599212612E-03 -5.52434280341E-05 +2.67224969091E-03 -1.29286839883E-04 +3.56192938392E-01 -3.68845404835E-01
2.92000000000E+09 +1.17192286887E-01 -3.92599602024E-01 +2.49373878340E-03 -1.45760503181E-03 +2.34405017562E-03 -1.37106175498E-03 +3.23020920791E-01 -3.78080063971E-01
2.92500000000E+09 +8.26187759911E-02 -3.87184589965E-01 +1.45080566269E-03 -1.36001148878E-03 +1.49303661553E-03 -1.29825227395E-03 +2.87754741032E-01 -3.85807230704E-01
2.93000000000E+09 +4.77130201194E-02 -3.78303469684E-01 +1.45375353849E-03 -1.03768950001E-03 +1.41851056628E-03 -9.55938508866E-04 +2.50899110709E-01 -3.90665877811E-01
2.93500000000E+09 +1.46102476168E-02 -3.67704705447E-01 +1.70018921651E-03 -1.36090195030E-03 +1.77668491404E-03 -1.30334483761E-03 +2.13655064476E-01 -3.94168539916E-01
2.94000000000E+09 -1.82888919421E-02 -3.55484102130E-01 +1.45857756370E-03 -1.51586735861E-03 +1.48624648404E-03 -1.51301764385E-03 +1.75387741025E-01 -3.96129658359E-01
2.94500000000E+09 -5.06806363489E-02 -3.41306504565E-01 +1.55284847610E-03 -1.65635484026E-03 +1.53342651222E-03 -1.60417674122E-03 +1.36397551974E-01 -3.96441005488E-01
2.95000000000E+09 -8.28237400293E-02 -3.24478144742E-01 +1.44426803471E-03 -2.46315285034E-03 +1.48954620423E-03 -2.41589774293E-03 +9.65164136265E-02 -3.92988755433E-01
2.95500000000E+09 -1.14431759141E-01 -3.04156907967E-01 +7.89372561069E-04 -2.68575708826E-03 +8.92288466319E-04 -2.69496905944E-03 +5.78083288883E-02 -3.86359550278E-01
2.96000000000E+09 -1.42706546398E-01 -2.80354767183E-01 +1.09028725199E-04 -3.11870168961E-03 +1.91548169582E-04 -3.26661265999E-03 +1.88845911785E-02 -3.77384415071E-01
2.96500000000E+09 -1.69606368921E-01 -2.55859567234E-01 -9.52184154312E-04 -2.48360233642E-03 -1.03749855236E-03 -2.46827213216E-03 -2.04049839109E-02 -3.66345816749E-01
2.97000000000E+09 -1.95363468543E-01 -2.28982092084E-01 -7.17541578374E-04 -2.13995679642E-03 -7.96149061464E-04 -2.01755937131E-03 -6.12082037930E-02 -3.51910059541E-01
2.97500000000E+09 -2.19669231472E-01 -1.99818940099E-01 -9.03980611697E-04 -1.91900619341E-03 -9.15626809380E-04 -1.84357138530E-03 -9.95517746620E-02 -3.33551480757E-01
2.98000000000E+09 -2.41832099671E-01 -1.68493307045E-01 -1.23679228359E-03 -2.03692041955E-03 -1.07039878389E-03 -2.00037947821E-03 -1.36860475761E-01 -3.14297435635E-01
2.98500000000E+09 -2.61848297921E-01 -1.36570097749E-01 -1.60812867614E-03 -1.66933325457E-03 -1.52156270969E-03 -1.66758136240E-03 -1.72497468422E-01 -2.91611795395E-01
2.99000000000E+09 -2.79382363746E-01 -1.03636281226E-01 -1.67661782800E-03 -1.35734562740E-03 -1.77086677142E-03 -1.49031987319E-03 -2.07871256801E-01 -2.67358609356E-01
2.99500000000E+09 -2.95546238551E-01 -7.14641241277E-02 -1.52353805771E-03 -1.22782953940E-03 -1.60879767865E-03 -1.29701968383E-03 -2.41424322291E-01 -2.37681903074E-01
3.00000000000E+09 -3.10105276074E-01 -3.84860317601E-02 -2.09454113186E-03 -1.19472833924E-03 -2.13128930284E-03 -1.09004368361E-03 -2.71489796697E-01 -2.06516121262E-01
3.00500000000E+09 -3.22476375385E-01 -5.47434826694E-03 -2.51149766252E-03 -5.55791560661E-04 -2.42221336711E-03 -5.10560291595E-04 -2.99974047911E-01 -1.74388040934E-01
3.01000000000E+09 -3.31783765220E-01 +2.74132798023E-02 -2.36447909944E-03 +1.76763723722E-04 -2.30083713814E-03 +1.11703507210E-04 -3.27016835443E-01 -1.39984265993E-01
3.01500000000E+09 -3.38280249834E-01 +5.99508769108E-02 -1.55228788795E-03 +5.74916179559E-04 -1.56330222413E-03 +4.93630918650E-04 -3.50845352822E-01 -1.03789453273E-01
3.02000000000E+09 -3.41683642687E-01 +9.14607916985E-02 -1.52967022438E-03 +1.45073477621E-04 -1.52368224745E-03 +1.12750306276E-04 -3.70865112047E-01 -6.61032815807E-02
3.02500000000E+09 -3.42269325768E-01 +1.22273682939E-01 -1.46013510307E-03 +3.03931626625E-04 -1.46560949276E-03 +2.85245483148E-04 -3.87064089573E-01 -2.74669299494E-02
3.03000000000E+09 -3.40168174368E-01 +1.52727206413E-01 -1.87679677054E-03 +1.41852766858E-04 -1.89352794839E-03 +1.33858833520E-04 -4.01139969930E-01 +1.04735208923E-02
3.03500000000E+09 -3.35952574366E-01 +1.82690852107E-01 -2.04063210828E-03 +1.07116547557E-03 -2.07920139728E-03 +1.03500407069E-03 -4.13708055951E-01 +5.00553670015E-02
3.04000000000E+09 -3.28493133901E-01 +2.12706628142E-01 -1.46307892591E-03 +1.64555245506E-03 -1.49616370947E-03 +1.64028622146E-03 -4.22729633283E-01 +9.04777211274E-02
3.04500000000E+09 -3.19665238795E-01 +2.41623487409E-01 -6.61584970051E-04 +1.46222514815E-03 -6.90918056132E-04 +1.58596926123E-03 -4.29205927636E-01 +1.30602025719E-01
3.05000000000E+09 -3.08969531048E-01 +2.70317574006E-01 -6.35802988811E-04 +9.96842153069E-04 -6.30392049544E-04 +1.01152516448E-03 -4.32694641791E-01 +1.70617859568E-01
3.05500000000E+09 -2.96973393484E-01 +2.98751741122E-01 -8.44766804400E-04 +1.17524799577E-03 -7.40967465727E-04 +1.26779429770E-03 -4.33306431440E-01 +2.09951744615E-01
3.06000000000E+09 -2.83462273871E-01 +3.26051552696E-01 -6.81127989831E-04 +1.59938189049E-03 -5.78395611975E-04 +1.60137475658E-03 -4.31241033817E-01 +2.48397188234E-01
3.06500000000E+09 -2.69634467742E-01 +3.52041191455E-01 +1.83727570975E-04 +1.56495463170E-03 +1.39760951729E-04 +1.48059410481E-03 -4.26973093239E-01 +2.85536183219E-01
3.07000000000E+09 -2.54436030991E-01 +3.76875468938E-01 +1.42817139933E-04 +1.11790050269E-03 +6.00039774009E-05 +1.11490261297E-03 -4.20495346316E-01 +3.21910071928E-01
