# Hz S RI R 50
! CMT, C1220, 16058040, 17.2.0/1
! Date: 15/08/2018 10:15:28
! Data: Format (Calibration Info)
! Freq                      S11: Re/Im (F2)                       S21: Re/Im (F2)                       S12: Re/Im (F2)                       S22: Re/Im (F2)            
2.50000000000E+09 +5.95872622408E-01 +6.34272246360E-01 -2.51210909276E-04 +1.73279592370E-04 -2.58760246385E-04 +1.69990181846E-04 +5.72897667180E-01 +7.16839103579E-01
2.50500000000E+09 +6.02235904490E-01 +6.26473251299E-01 -1.74089966570E-04 +2.65291501497E-04 -1.90968506268E-04 +3.07242233611E-04 +5.78454600502E-01 +7.11421986276E-01
2.51000000000E+09 +6.08714895494E-01 +6.18374579692E-01 -1.60509841438E-04 +2.94413818333E-04 -8.61831178221E-05 +2.80173312230E-04 +5.83985888117E-01 +7.06310212035E-01
2.51500000000E+09 +6.14893869550E-01 +6.10458213541E-01 -3.52406668800E-05 +2.55925658184E-04 -8.36601777290E-05 +2.50725399897E-04 +5.89137887567E-01 +7.01061754425E-01
2.52000000000E+09 +6.20794159240E-01 +6.02728264440E-01 +2.56647828180E-05 +2.77242752908E-04 +2.52177346983E-06 +2.21929515392E-04 +5.94276737666E-01 +6.95034330256E-01
2.52500000000E+09 +6.25962784259E-01 +5.95658686059E-01 +1.28130599355E-05 +1.42578467868E-04 -1.69737782568E-05 +1.64548911033E-04 +5.99859400951E-01 +6.88720230353E-01
2.53000000000E+09 +6.30752447118E-01 +5.88993881626E-01 -3.80090293803E-05 +2.31627259819E-04 -3.87616867229E-05 +2.02394340596E-04 +6.06050338437E-01 +6.81819779492E-01
2.53500000000E+09 +6.35159027466E-01 +5.82908118348E-01 +2.06353770702E-05 +2.23646709453E-04 +3.47982715267E-05 +2.18787048765E-04 +6.12280426135E-01 +6.74964034170E-01
2.54000000000E+09 +6.39431176363E-01 +5.76941483034E-01 +1.94273925264E-05 +2.19504466675E-04 +2.60640689198E-05 +1.70469870508E-04 +6.18144001226E-01 +6.68208796050E-01
2.54500000000E+09 +6.43775899569E-01 +5.71229204506E-01 +5.16342312234E-05 +2.98314700520E-04 +2.50725242656E-05 +2.75727026179E-04 +6.24076131577E-01 +6.61844703526E-01
2.55000000000E+09 +6.48606409620E-01 +5.65227187626E-01 +1.61529367274E-04 +2.33251817342E-04 +1.32375755258E-04 +2.95157863537E-04 +6.29474508769E-01 +6.55505227278E-01
2.55500000000E+09 +6.54115661453E-01 +5.58406574020E-01 +2.06606463717E-04 +1.27713161322E-04 +2.32090393803E-04 +1.41473324984E-04 +6.34626335350E-01 +6.49040225421E-01
2.56000000000E+09 +6.60348021024E-01 +5.51069049613E-01 +1.65129836342E-04 +2.44167228842E-05 +1.58034626748E-04 +5.29571406459E-05 +6.39932164433E-01 +6.41847154511E-01
2.56500000000E+09 +6.66557921795E-01 +5.42685898341E-01 +9.30760463405E-05 -3.19193471099E-05 +1.00412385774E-04 -6.25717473250E-05 +6.45376606436E-01 +6.34190057375E-01
2.57000000000E+09 +6.72714203053E-01 +5.33975878832E-01 -6.05957010244E-05 +2.89742772442E-05 -4.21301912192E-05 +4.88919416197E-05 +6.50868640613E-01 +6.26263874620E-01
2.57500000000E+09 +6.78879649373E-01 +5.25084326383E-01 -9.27112318543E-05 +1.49964253141E-04 -3.61550087270E-05 +1.50042967985E-04 +6.56118302997E-01 +6.18446973166E-01
2.58000000000E+09 +6.84259763345E-01 +5.16310036971E-01 +3.28592535253E-05 +1.72554124205E-04 +3.90458727905E-05 +2.10137601281E-04 +6.61187303432E-01 +6.11178725880E-01
2.58500000000E+09 +6.89402078837E-01 +5.07532062982E-01 +1.05308174033E-04 +2.19376685127E-04 +9.90838773175E-05 +1.64397827586E-04 +6.66110097974E-01 +6.03687125210E-01
2.59000000000E+09 +6.93928284405E-01 +4.99064276179E-01 +1.28963718848E-04 +1.27621231842E-04 +1.25488060740E-04 +1.65081012946E-04 +6.70608682804E-01 +5.96180009587E-01
2.59500000000E+09 +6.98241374700E-01 +4.90551734416E-01 +1.23331987841E-04 +1.39608439622E-04 +1.16221027272E-04 +1.21386003703E-04 +6.75674634116E-01 +5.88297871468E-01
2.60000000000E+09 +7.02219152466E-01 +4.81950590286E-01 +1.49293048474E-04 +1.85680991915E-04 +1.56313644118E-04 +1.53096616094E-04 +6.80624493475E-01 +5.79807382314E-01
2.60500000000E+09 +7.06353866057E-01 +4.72698092030E-01 +1.34136213823E-04 +1.08293840184E-04 +1.28130005068E-04 +1.96835335337E-04 +6.85943233550E-01 +5.71269746659E-01
2.61000000000E+09 +7.10674212686E-01 +4.62627880323E-01 +2.45402987177E-04 +2.02479874485E-04 +1.99297963168E-04 +2.23326768598E-04 +6.91178608354E-01 +5.62363904386E-01
2.61500000000E+09 +7.15276688043E-01 +4.51280809950E-01 +2.70391517696E-04 +1.26268627647E-04 +3.01629400661E-04 +1.60695494993E-04 +6.96213390577E-01 +5.53506070197E-01
2.62000000000E+09 +7.19133878476E-01 +4.38806639608E-01 +2.54831524798E-04 +2.86640347985E-05 +2.92529908063E-04 +3.36215223152E-05 +7.01067941829E-01 +5.44411870267E-01
2.62500000000E+09 +7.23075673239E-01 +4.25792979444E-01 +1.86535220602E-04 +9.78695646532E-05 +1.86473626384E-04 +1.01561462122E-04 +7.05809120298E-01 +5.35460151885E-01
2.63000000000E+09 +7.26880998625E-01 +4.12460637259E-01 +2.62589550456E-04 +1.41765822281E-04 +2.53419316240E-04 +1.26194147182E-04 +7.10695663646E-01 +5.26212000122E-01
2.63500000000E+09 +7.30043804588E-01 +3.99103492308E-01 +3.24864703951E-04 +1.10548246938E-04 +3.64480953273E-04 +8.04100453019E-05 +7.15621210722E-01 +5.16730264447E-01
2.64000000000E+09 +7.32928021176E-01 +3.86472093206E-01 +4.50151358160E-04 +3.49078932176E-05 +3.73948471494E-04 -2.25106922554E-05 +7.20410174970E-01 +5.06857866294E-01
2.64500000000E+09 +7.36035447968E-01 +3.74545307212E-01 +3.77944399989E-04 -1.07424241145E-04 +3.39543687069E-04 -8.89402995063E-05 +7.25184757405E-01 +4.96961542545E-01
2.65000000000E+09 +7.38403712708E-01 +3.63318136158E-01 +3.00457948655E-04 -1.28337468765E-04 +2.62683731191E-04 -5.54922314784E-05 +7.29298344503E-01 +4.86505657750E-01
2.65500000000E+09 +7.41047910836E-01 +3.52414089057E-01 +3.96280067196E-04 -6.71047546236E-05 +4.35985636839E-04 +3.73408049106E-06 +7.33221551337E-01 +4.76065629210E-01
2.66000000000E+09 +7.43880146630E-01 +3.41562229635E-01 +4.39725585158E-04 -2.04224344676E-04 +4.96406558966E-04 -2.31573686383E-04 +7.36933054919E-01 +4.64717919144E-01
2.66500000000E+09 +7.46661301115E-01 +3.30260391964E-01 +4.41210410495E-04 -2.79991103646E-04 +4.81488043572E-04 -2.83200331347E-04 +7.40926012761E-01 +4.53562002539E-01
2.67000000000E+09 +7.48880746616E-01 +3.18081382384E-01 +3.93517687290E-04 -4.65338948027E-04 +3.56890100136E-04 -5.07941525939E-04 +7.45011187664E-01 +4.42865822788E-01
2.67500000000E+09 +7.50639291968E-01 +3.05327745189E-01 +1.75459416537E-04 -5.18249946702E-04 +2.40800172664E-04 -4.53526941391E-04 +7.49246456868E-01 +4.31677936165E-01
2.68000000000E+09 +7.52009585135E-01 +2.91917461428E-01 +1.66473795664E-04 -4.15844176134E-04 +2.21723429787E-04 -3.94999889243E-04 +7.52830859771E-01 +4.20180344245E-01
2.68500000000E+09 +7.52735887409E-01 +2.77953191920E-01 +1.42678651459E-04 -4.69815214265E-04 +1.47023485550E-04 -4.46104670113E-04 +7.55465392729E-01 +4.08610416294E-01
2.69000000000E+09 +7.53004401354E-01 +2.63779879436E-01 +7.69745234787E-05 -4.07441377970E-04 +1.27365298296E-04 -3.91655613514E-04 +7.57935220619E-01 +3.96828115206E-01
2.69500000000E+09 +7.53095375315E-01 +2.49904446391E-01 +9.28364062204E-05 -4.29046096081E-04 +1.28118263831E-04 -4.10722323277E-04 +7.60483879453E-01 +3.84287667787E-01
2.70000000000E+09 +7.53330226414E-01 +2.36144762822E-01 +8.01216803676E-05 -5.40197279044E-04 +9.88177061186E-05 -5.29559239514E-04 +7.63389429350E-01 +3.70935164090E-01
2.70500000000E+09 +7.53881422597E-01 +2.22758102348E-01 -5.59195639499E-05 -5.81010305438E-04 -2.85738111974E-05 -5.88016341813E-04 +7.65883034696E-01 +3.57304844662E-01
2.71000000000E+09 +7.54968099804E-01 +2.09428403472E-01 -1.16692521536E-04 -6.35989124342E-04 -1.02693736813E-04 -6.12007537629E-04 +7.68563946434E-01 +3.44468854408E-01
2.71500000000E+09 +7.56712829622E-01 +1.95399000726E-01 -3.70279692734E-04 -5.82105096322E-04 -4.17383939642E-04 -6.54375199286E-04 +7.70983318187E-01 +3.31860866939E-01
2.72000000000E+09 +7.58058219579E-01 +1.80663303151E-01 -4.42909224464E-04 -3.22830487403E-04 -4.69980338083E-04 -3.42711614791E-04 +7.72820459105E-01 +3.19408511359E-01
2.72500000000E+09 +7.58991723672E-01 +1.64973044944E-01 -2.06996499998E-04 -2.67538120857E-04 -2.34733731123E-04 -2.58759418442E-04 +7.74019641257E-01 +3.06141920505E-01
2.73000000000E+09 +7.58507347406E-01 +1.48543050363E-01 -2.82537928106E-04 -4.69026091043E-04 -3.09341388781E-04 -4.29497494472E-04 +7.75321151750E-01 +2.92284440062E-01
2.73500000000E+09 +7.57039872480E-01 +1.31735754562E-01 -4.21811808743E-04 -3.72144881043E-04 -3.99310451524E-04 -3.10265136318E-04 +7.76280561623E-01 +2.77324339453E-01
2.74000000000E+09 +7.54376986704E-01 +1.14857261103E-01 -4.41884600917E-04 -2.34110062828E-04 -4.48732635858E-04 -2.41156056423E-04 +7.77682643947E-01 +2.62389106498E-01
2.74500000000E+09 +7.50759452825E-01 +9.77241422560E-02 -3.46364130021E-04 -1.36654745982E-04 -3.54764520103E-04 -1.20324742667E-04 +7.78820306885E-01 +2.47225564355E-01
2.75000000000E+09 +7.46031540927E-01 +8.05025787073E-02 -2.90637991168E-04 -2.48660757880E-04 -3.35915799319E-04 -2.48955679044E-04 +7.79550037115E-01 +2.32441805034E-01
2.75500000000E+09 +7.40537245871E-01 +6.39504676789E-02 -3.95044015931E-04 -3.23272769515E-04 -3.90375428230E-04 -3.36631352650E-04 +7.79592664415E-01 +2.17130678467E-01
2.76000000000E+09 +7.35295741962E-01 +4.74392156559E-02 -6.30644702549E-04 -3.14574070221E-04 -6.25525543119E-04 -2.85883811930E-04 +7.78844713006E-01 +2.01611772202E-01
2.76500000000E+09 +7.30375724050E-01 +3.06137840513E-02 -7.64046240568E-04 -9.88541670006E-05 -7.56257493733E-04 -6.03250438589E-05 +7.77853021951E-01 +1.84690948842E-01
2.77000000000E+09 +7.25522919615E-01 +1.30483903946E-02 -7.16631732854E-04 +1.26899032568E-04 -6.61628231027E-04 +1.38784028463E-04 +7.76258805991E-01 +1.67365105254E-01
2.77500000000E+09 +7.20857937918E-01 -5.58708166434E-03 -4.87517201322E-04 +1.86512674467E-04 -5.13956689992E-04 +2.00654997494E-04 +7.74298775054E-01 +1.49243437195E-01
2.78000000000E+09 +7.15708298480E-01 -2.50968054247E-02 -5.45684551663E-04 +1.08181112207E-04 -5.69817118958E-04 +1.10947239610E-04 +7.72223062211E-01 +1.31405841596E-01
2.78500000000E+09 +7.09361130100E-01 -4.55579490880E-02 -6.02320748771E-04 +7.41640666165E-05 -5.32758435085E-04 +1.32786078503E-04 +7.69559923085E-01 +1.13816977942E-01
2.79000000000E+09 +7.02381153553E-01 -6.58575779537E-02 -7.07377329091E-04 +2.52666828456E-04 -6.46263063428E-04 +2.32400414634E-04 +7.66262642263E-01 +9.67160655059E-02
2.79500000000E+09 +6.94155576956E-01 -8.64916678642E-02 -6.65156981810E-04 +4.93417552683E-04 -6.56306057272E-04 +4.30249145496E-04 +7.62282662567E-01 +7.92255293207E-02
2.80000000000E+09 +6.84094569230E-01 -1.06517782154E-01 -3.33322775265E-04 +6.83483235739E-04 -3.36478165202E-04 +6.32780154370E-04 +7.57416166593E-01 +6.08730720405E-02
2.80500000000E+09 +6.73263925049E-01 -1.24952428140E-01 -1.57582866117E-04 +3.40269456663E-04 -1.47697513951E-04 +3.00713451321E-04 +7.51611249956E-01 +4.16778450367E-02
2.81000000000E+09 +6.61643161845E-01 -1.42745252316E-01 -3.80516562527E-04 +2.67415922574E-04 -4.23928741769E-04 +2.36910574989E-04 +7.44941632126E-01 +2.25623370286E-02
2.81500000000E+09 +6.49147276991E-01 -1.59806619495E-01 -4.59807319555E-04 +4.18061589165E-04 -5.44046150819E-04 +4.37003902432E-04 +7.37762252189E-01 +3.41235523148E-03
2.82000000000E+09 +6.35783267825E-01 -1.76485228565E-01 -6.06132035482E-04 +6.51674526413E-04 -5.94364623249E-04 +6.54282568501E-04 +7.30669769393E-01 -1.61740481310E-02
2.82500000000E+09 +6.21642850970E-01 -1.93299334219E-01 -2.72052818214E-04 +8.66486243354E-04 -1.71020536337E-04 +9.00705806280E-04 +7.21608383676E-01 -3.61197203435E-02
2.83000000000E+09 +6.05687306221E-01 -2.10873600374E-01 -1.79678565046E-05 +6.86604118338E-04 -1.12354087027E-04 +6.02779180490E-04 +7.11899466535E-01 -5.54234468338E-02
2.83500000000E+09 +5.88530674042E-01 -2.28684663466E-01 -1.68864887342E-04 +7.13214145786E-04 -2.14022755953E-04 +7.18743094161E-04 +7.01257731541E-01 -7.52540966115E-02
2.84000000000E+09 +5.69330281247E-01 -2.47088806291E-01 +3.72224793766E-05 +8.89887189823E-04 +3.67842825162E-05 +9.03308291677E-04 +6.90097247978E-01 -9.50599254701E-02
2.84500000000E+09 +5.48311253325E-01 -2.65565697955E-01 +1.12119158059E-04 +6.69704748230E-04 +8.17874975543E-05 +7.25890305586E-04 +6.78027881692E-01 -1.15674462864E-01
2.85000000000E+09 +5.25888512797E-01 -2.84023490877E-01 +2.49466381419E-04 +9.39901851390E-04 +2.40179154925E-04 +9.79252783197E-04 +6.64382739569E-01 -1.36595626360E-01
2.85500000000E+09 +5.01612625790E-01 -3.02088196130E-01 +6.66394796153E-04 +5.52418779321E-04 +6.81772944680E-04 +5.71299447717E-04 +6.49358914825E-01 -1.56551520394E-01
2.86000000000E+09 +4.76434534353E-01 -3.18941445338E-01 +2.73760409577E-04 +2.03326031258E-04 +3.15534964202E-04 +2.34252470617E-04 +6.33834513717E-01 -1.76623138321E-01
2.86500000000E+09 +4.50613580924E-01 -3.34250019825E-01 -5.72689745148E-05 +5.14692544836E-04 -1.61079749820E-05 +6.04538159108E-04 +6.16811610557E-01 -1.96932252479E-01
2.87000000000E+09 +4.25067363051E-01 -3.48291246041E-01 +4.39388341859E-04 +8.05470713385E-04 +4.52653839023E-04 +8.56100209969E-04 +5.98538547884E-01 -2.16792512562E-01
2.87500000000E+09 +3.99342836540E-01 -3.61674721280E-01 +4.48960958419E-04 +5.31866866774E-04 +5.02956270352E-04 +5.75663168865E-04 +5.78742243823E-01 -2.36768463834E-01
2.88000000000E+09 +3.72566524662E-01 -3.74031516596E-01 +5.24665653530E-04 +6.95478119346E-04 +5.88983745522E-04 +6.90847764719E-04 +5.58052281424E-01 -2.55306329180E-01
2.88500000000E+09 +3.44835051459E-01 -3.84996952358E-01 +8.88086733422E-04 +4.54883740811E-04 +8.54982150267E-04 +3.86939314798E-04 +5.36036158860E-01 -2.74709481334E-01
2.89000000000E+09 +3.15313813244E-01 -3.94172221961E-01 +5.96911374544E-04 +3.20266920318E-04 +6.02242092259E-04 +3.19006432247E-04 +5.11025702040E-01 -2.93071212403E-01
2.89500000000E+09 +2.84925855317E-01 -4.01346743196E-01 +6.56872965011E-04 +4.84885214231E-04 +6.79649527594E-04 +4.66016845006E-04 +4.84388414991E-01 -3.10756947314E-01
2.90000000000E+09 +2.53158865662E-01 -4.06656636118E-01 +9.59576120224E-04 +5.59191407960E-04 +8.84724359773E-04 +6.31098198796E-04 +4.56048022407E-01 -3.27770608115E-01
2.90500000000E+09 +2.19577088753E-01 -4.10163989746E-01 +1.18836553269E-03 +4.45174108453E-04 +1.08810438580E-03 +4.23151728368E-04 +4.25820949305E-01 -3.43457729152E-01
2.91000000000E+09 +1.84412246682E-01 -4.10697831760E-01 +1.58347430479E-03 +7.78826329950E-05 +1.44777678936E-03 +2.20488568831E-05 +3.94831829516E-01 -3.58041355835E-01
2.91500000000E+09 +1.49235290809E-01 -4.08257487555E-01 +1.41794866758E-03 -3.73180679481E-04 +1.30024334880E-03 -3.78318411398E-04 +3.62204075019E-01 -3.70175550611E-01
2.92000000000E+09 +1.13678317037E-01 -4.03416880684E-01 +1.18806576502E-03 -7.71950218436E-04 +1.03253428619E-03 -7.08677954351E-04 +3.28759857770E-01 -3.80872211613E-01
2.92500000000E+09 +7.89404888799E-02 -3.96917414129E-01 +8.48679084815E-04 -7.00138988391E-04 +7.90729039911E-04 -6.39309821485E-04 +2.92317305406E-01 -3.89511668975E-01
2.93000000000E+09 +4.38631678516E-02 -3.88281286645E-01 +8.37297283927E-04 -5.60612788886E-04 +7.81693321316E-04 -5.10319495241E-04 +2.54303987267E-01 -3.95150264691E-01
2.93500000000E+09 +9.62349240179E-03 -3.77396960580E-01 +1.00868844286E-03 -9.15048315267E-04 +9.94037208060E-04 -8.87112243783E-04 +2.16166297488E-01 -3.98689626028E-01
2.94000000000E+09 -2.41182815264E-02 -3.64859449003E-01 +7.22925046032E-04 -1.05891147350E-03 +7.40777595132E-04 -9.97322991774E-04 +1.77458765218E-01 -4.00735682768E-01
2.94500000000E+09 -5.76290985006E-02 -3.49589811418E-01 +6.56765084697E-04 -1.10856110208E-03 +6.52664743748E-04 -1.05280096072E-03 +1.38350848290E-01 -4.01691938001E-01
2.95000000000E+09 -9.01139165836E-02 -3.31966074141E-01 +5.47215583172E-04 -1.44255774883E-03 +5.84428487726E-04 -1.40045260867E-03 +9.75322034603E-02 -3.98821338755E-01
2.95500000000E+09 -1.21810978807E-01 -3.10833981176E-01 +2.22835194833E-04 -1.40320639860E-03 +3.12288597008E-04 -1.41954423727E-03 +5.74166697267E-02 -3.92249178737E-01
2.96000000000E+09 -1.50876824868E-01 -2.86668873957E-01 -3.39570989855E-05 -1.90496715868E-03 +3.46763967150E-05 -1.96123959853E-03 +1.79653654577E-02 -3.82595618242E-01
2.96500000000E+09 -1.77847602261E-01 -2.61260852082E-01 -1.19728917673E-03 -1.62363653189E-03 -1.28618197639E-03 -1.66391170565E-03 -2.18750015382E-02 -3.71604483085E-01
2.97000000000E+09 -2.03970778644E-01 -2.33336842362E-01 -1.13125802892E-03 -6.29791370291E-04 -1.12761734611E-03 -6.81328439648E-04 -6.34252538214E-02 -3.56956431181E-01
2.97500000000E+09 -2.27794113345E-01 -2.03382793308E-01 -7.04364281104E-04 -2.80896239382E-04 -6.87085030555E-04 -2.91557847138E-04 -1.02057170710E-01 -3.38273069686E-01
2.98000000000E+09 -2.49724530056E-01 -1.72051765638E-01 -4.22855762569E-04 -6.50816264067E-04 -3.22771803364E-04 -6.65416674010E-04 -1.39835067055E-01 -3.19604197635E-01
2.98500000000E+09 -2.69951312994E-01 -1.39747265218E-01 -8.69780745316E-04 -6.93834576856E-04 -8.40249785497E-04 -8.23670189854E-04 -1.77212393931E-01 -2.96845480546E-01
2.99000000000E+09 -2.87950088799E-01 -1.06105509669E-01 -1.07381988552E-03 -4.47309656845E-04 -1.14828509722E-03 -5.43566937707E-04 -2.13030170176E-01 -2.72032019133E-01
2.99500000000E+09 -3.03763626572E-01 -7.32528831566E-02 -1.05529183923E-03 -1.28929640047E-04 -1.18118556436E-03 -1.30357955014E-04 -2.47869116838E-01 -2.42061625378E-01
3.00000000000E+09 -3.18570861892E-01 -3.97564491586E-02 -8.79200958309E-04 +3.32084931294E-04 -9.21794036287E-04 +3.48926385413E-04 -2.78970816056E-01 -2.09217650422E-01
3.00500000000E+09 -3.30633201994E-01 -6.13059870390E-03 -4.16237197105E-04 +1.84054268604E-04 -4.74547771899E-04 +2.24713375109E-04 -3.07352707478E-01 -1.75728547353E-01
3.01000000000E+09 -3.39950733776E-01 +2.72007617144E-02 -6.93451549850E-04 -1.71848486556E-04 -6.81046331488E-04 -1.17448103020E-04 -3.34857939958E-01 -1.40644254061E-01
3.01500000000E+09 -3.46346679541E-01 +6.04449047839E-02 -6.87198704665E-04 +2.94871899087E-04 -7.40029133143E-04 +2.92717824113E-04 -3.59046694948E-01 -1.03137336319E-01
3.02000000000E+09 -3.49373272284E-01 +9.25282007193E-02 -4.01987873730E-04 +4.13561560340E-04 -4.71401186141E-04 +4.78694110286E-04 -3.79187140784E-01 -6.41724203648E-02
3.02500000000E+09 -3.49598784891E-01 +1.24128079393E-01 -9.74960960554E-05 +4.08737171212E-04 -5.69464136106E-05 +4.78433625317E-04 -3.95131755207E-01 -2.40755445964E-02
3.03000000000E+09 -3.46796458661E-01 +1.54911848685E-01 -1.11474220974E-04 -4.55497229289E-04 -3.77454388081E-05 -4.33427443324E-04 -4.08534031231E-01 +1.54654111598E-02
3.03500000000E+09 -3.41973769022E-01 +1.85004205586E-01 -9.81055923643E-04 -1.18480039461E-04 -9.75144383340E-04 -1.57883129100E-04 -4.19588392627E-01 +5.60220690123E-02
3.04000000000E+09 -3.34531939267E-01 +2.15249695610E-01 -8.60950205443E-04 +5.64596673474E-04 -9.00889745315E-04 +5.60604660982E-04 -4.27164936070E-01 +9.70825952119E-02
3.04500000000E+09 -3.24840733204E-01 +2.44561974539E-01 -3.05858142782E-04 +8.70040647179E-04 -2.56157273095E-04 +9.20532366052E-04 -4.32538760088E-01 +1.37453389651E-01
3.05000000000E+09 -3.13500922683E-01 +2.73349849632E-01 -2.80047935619E-05 +4.10236538964E-04 +8.29421522712E-05 +4.69417668955E-04 -4.34980044720E-01 +1.77592499820E-01
3.05500000000E+09 -3.01021335283E-01 +3.01317855559E-01 +3.31896060584E-05 +2.61294553712E-04 +6.67561067773E-05 +2.33258057182E-04 -4.34782207645E-01 +2.16616237384E-01
3.06000000000E+09 -2.87282721809E-01 +3.28682529296E-01 -4.36116083978E-04 +1.20132238350E-04 -3.43534166035E-04 +7.23592596658E-05 -4.32113426656E-01 +2.55044042113E-01
3.06500000000E+09 -2.72791463820E-01 +3.54385086027E-01 -2.55643435889E-04 +4.47704709643E-04 -2.14483779625E-04 +4.13995453746E-04 -4.26937879923E-01 +2.92152943792E-01
3.07000000000E+09 -2.57954710622E-01 +3.79052077373E-01 -1.59841790754E-04 +5.01704649002E-04 -2.40132596265E-04 +4.19145622923E-04 -4.19570443739E-01 +3.28042048002E-01
