# Hz S RI R 50
! CMT, C1220, 16058040, 17.2.0/1
! Date: 15/08/2018 10:16:32
! Data: Format (Calibration Info)
! Freq                      S11: Re/Im (F2)                       S21: Re/Im (F2)                       S12: Re/Im (F2)                       S22: Re/Im (F2)            
2.50000000000E+09 +5.96888248438E-01 +6.33876895969E-01 -1.19993956097E-04 +2.05705278157E-04 -1.31630374779E-04 +2.22052850038E-04 +5.73100399046E-01 +7.16756334532E-01
2.50500000000E+09 +6.03192762584E-01 +6.26069601411E-01 -5.58228176614E-06 +2.34001741746E-04 -2.15802138964E-05 +2.62809357169E-04 +5.78664297237E-01 +7.11174215801E-01
2.51000000000E+09 +6.09803787974E-01 +6.17862781252E-01 +1.69456915086E-06 +1.92008601818E-04 +6.20651168086E-05 +1.72880485312E-04 +5.83974298535E-01 +7.06019401539E-01
2.51500000000E+09 +6.15884520018E-01 +6.09825209867E-01 +4.33903327860E-05 +2.20010157409E-04 +5.92252209602E-05 +2.47370694719E-04 +5.89224616596E-01 +7.00800562630E-01
2.52000000000E+09 +6.21938816245E-01 +6.01977492487E-01 +1.08145829759E-04 +2.10255726633E-04 +1.07306381905E-04 +1.86565532920E-04 +5.94293503877E-01 +6.94843724665E-01
2.52500000000E+09 +6.26987189786E-01 +5.94587581249E-01 +9.95929488596E-05 +1.10230487966E-04 +7.05895819719E-05 +1.74613758838E-04 +5.99946364901E-01 +6.88529849975E-01
2.53000000000E+09 +6.31687851091E-01 +5.87761061618E-01 +1.40130182561E-04 +1.06417042315E-04 +9.39073876402E-05 +9.86178605742E-05 +6.06072837865E-01 +6.81676870758E-01
2.53500000000E+09 +6.35971679165E-01 +5.81543010426E-01 +7.11524533879E-05 +8.45440326780E-05 +2.87877199260E-05 +6.62099353937E-05 +6.12123254840E-01 +6.74769122076E-01
2.54000000000E+09 +6.40188807077E-01 +5.75479342335E-01 +4.91787471483E-05 +1.53062339237E-04 +2.11475862090E-05 +1.45110479620E-04 +6.18009825185E-01 +6.68209047662E-01
2.54500000000E+09 +6.44269694788E-01 +5.69492195560E-01 +1.34273168765E-04 +1.81343609733E-04 +1.41116934183E-04 +1.93900154540E-04 +6.23752979189E-01 +6.61973006596E-01
2.55000000000E+09 +6.49075003856E-01 +5.63636948480E-01 +1.98281074102E-04 +1.19742973238E-04 +1.93009842225E-04 +1.68594489858E-04 +6.29150834153E-01 +6.55652956006E-01
2.55500000000E+09 +6.54475483778E-01 +5.56663579826E-01 +2.93193682347E-04 +1.17517039097E-05 +3.00932936878E-04 +7.03044156413E-05 +6.34502114136E-01 +6.49113809805E-01
2.56000000000E+09 +6.60469502383E-01 +5.49448314178E-01 +1.52730324256E-04 -1.20496103478E-04 +1.96298526354E-04 -1.78081032545E-04 +6.39870469942E-01 +6.41918150566E-01
2.56500000000E+09 +6.66773124247E-01 +5.40995943097E-01 -9.75702350988E-06 -1.01803086512E-04 -3.79720794832E-05 -9.73729275380E-05 +6.45424596236E-01 +6.34433839864E-01
2.57000000000E+09 +6.72952891193E-01 +5.32258251468E-01 -2.40743318129E-05 +7.15308387284E-05 +9.65000433876E-07 +9.92553268453E-05 +6.50933528960E-01 +6.26339464558E-01
2.57500000000E+09 +6.78915719310E-01 +5.23189486217E-01 +8.63061283746E-05 +8.82467737466E-05 +1.02786651549E-04 +2.01267588057E-05 +6.56205649611E-01 +6.18592473422E-01
2.58000000000E+09 +6.84261484337E-01 +5.14414221513E-01 +1.46010159403E-04 +8.65977195642E-05 +9.08784740672E-05 +4.91547198939E-05 +6.61188609564E-01 +6.11210172970E-01
2.58500000000E+09 +6.89285006284E-01 +5.05489302409E-01 +1.40971970533E-04 -3.65808738151E-05 +1.65586173032E-04 -7.28050597442E-06 +6.66100362834E-01 +6.03693855123E-01
2.59000000000E+09 +6.93798602464E-01 +4.96943482546E-01 +5.96838545869E-05 -2.60389693971E-05 +6.16554496334E-05 -5.97800848798E-05 +6.70777325564E-01 +5.96171844753E-01
2.59500000000E+09 +6.98053846770E-01 +4.88372508125E-01 +3.81860350264E-05 +6.06806382296E-05 +4.00810519479E-05 +1.01508902342E-04 +6.75700674910E-01 +5.88126774953E-01
2.60000000000E+09 +7.01837770187E-01 +4.79756072479E-01 +1.03835380459E-04 +8.68583796285E-05 +1.31592981651E-04 +3.17139627472E-05 +6.80748844540E-01 +5.79565989725E-01
2.60500000000E+09 +7.06014409293E-01 +4.70408186631E-01 +4.42207311923E-05 +1.15586917769E-05 +8.19680847609E-05 -4.07758484388E-06 +6.85939435140E-01 +5.71055820168E-01
2.61000000000E+09 +7.10182765297E-01 +4.60107618163E-01 +1.50524177060E-04 +1.97445682680E-05 +1.43668310178E-04 +3.08665582175E-05 +6.91189111281E-01 +5.62168163297E-01
2.61500000000E+09 +7.14492132311E-01 +4.48906344458E-01 +9.91483308517E-05 -4.21550802119E-05 +1.26464391369E-04 -2.35882505361E-05 +6.96000102750E-01 +5.53329190816E-01
2.62000000000E+09 +7.18577391399E-01 +4.36305096520E-01 +4.58925706655E-05 +1.66376773254E-05 +9.56115720809E-05 +1.76956198739E-05 +7.00747297727E-01 +5.44256855637E-01
2.62500000000E+09 +7.22326619856E-01 +4.23160381875E-01 +1.29916164935E-04 +4.78576132061E-05 +1.19228020033E-04 +2.53779336650E-05 +7.05481920596E-01 +5.35411038440E-01
2.63000000000E+09 +7.25940164935E-01 +4.09724735576E-01 +1.08804401243E-04 -5.23299572222E-07 +1.27565656014E-04 +1.02543768987E-05 +7.10347874031E-01 +5.26302584345E-01
2.63500000000E+09 +7.28943664159E-01 +3.96372501025E-01 +1.85032363911E-04 +3.59725891892E-05 +1.52098427637E-04 +4.94923848639E-05 +7.15338318004E-01 +5.16895222550E-01
2.64000000000E+09 +7.31650975666E-01 +3.83602273505E-01 +1.78619479568E-04 -2.47364396979E-05 +1.49251177722E-04 -3.63681508297E-05 +7.20216373211E-01 +5.06965668583E-01
2.64500000000E+09 +7.34415557410E-01 +3.71694338508E-01 +1.45360910955E-04 +3.01016601781E-05 +9.73499055499E-05 +5.34291402342E-05 +7.24968379114E-01 +4.97108245763E-01
2.65000000000E+09 +7.36675455314E-01 +3.60214281551E-01 +2.56915652243E-04 +2.43716337885E-05 +1.32451902815E-04 +8.74093996509E-05 +7.29177902003E-01 +4.86909441701E-01
2.65500000000E+09 +7.39029483549E-01 +3.49357477197E-01 +2.35601014436E-04 +2.23738597413E-05 +2.85234941114E-04 +1.21996062866E-04 +7.33179970185E-01 +4.76306844192E-01
2.66000000000E+09 +7.41674026849E-01 +3.38622105496E-01 +3.10199906681E-04 -5.84671501900E-05 +3.60552975076E-04 +2.64305025827E-05 +7.36973517855E-01 +4.65155833435E-01
2.66500000000E+09 +7.44271749603E-01 +3.27268936721E-01 +4.62691652656E-04 -6.30461303682E-05 +5.19101647326E-04 -1.05587830287E-04 +7.40821633812E-01 +4.53950374283E-01
2.67000000000E+09 +7.46240394038E-01 +3.15310336797E-01 +4.51852597896E-04 -3.55313658554E-04 +3.92134918857E-04 -3.92438415720E-04 +7.45035593976E-01 +4.43131634804E-01
2.67500000000E+09 +7.47891786179E-01 +3.02676761050E-01 +1.97712267635E-04 -3.39052708461E-04 +1.61021841435E-04 -3.26819684933E-04 +7.49297033772E-01 +4.31846083864E-01
2.68000000000E+09 +7.48989417746E-01 +2.89187358234E-01 +2.36207329533E-04 -2.28474320590E-04 +1.73814702881E-04 -2.69740218706E-04 +7.52941161072E-01 +4.20296760074E-01
2.68500000000E+09 +7.49571391030E-01 +2.75143401724E-01 +2.12157437767E-04 -4.02426621860E-04 +2.42664522805E-04 -3.74525571326E-04 +7.55627281436E-01 +4.08556019510E-01
2.69000000000E+09 +7.49749776637E-01 +2.60959168739E-01 +2.43155815495E-04 -4.79249163109E-04 +2.53647733005E-04 -4.44435922864E-04 +7.57840437190E-01 +3.96837311188E-01
2.69500000000E+09 +7.49632754478E-01 +2.46918621971E-01 +1.70857482446E-04 -4.98987077868E-04 +1.03337387332E-04 -4.96329837929E-04 +7.60282381072E-01 +3.84486851004E-01
2.70000000000E+09 +7.49524651395E-01 +2.33224744694E-01 +9.07962775233E-05 -5.06425996856E-04 +1.01873861282E-04 -4.94798630414E-04 +7.63240234874E-01 +3.71229810890E-01
2.70500000000E+09 +7.49654324636E-01 +2.19933887877E-01 +1.05037416716E-04 -5.94821959801E-04 +7.27608762661E-05 -5.86123871645E-04 +7.65694963801E-01 +3.57559700043E-01
2.71000000000E+09 +7.50493659043E-01 +2.06700794313E-01 -1.54746595530E-04 -7.64161818270E-04 -1.57829002714E-04 -8.20241870048E-04 +7.68318855340E-01 +3.44664676189E-01
2.71500000000E+09 +7.51935864745E-01 +1.92858091331E-01 -3.94264658960E-04 -5.89875662310E-04 -4.39603441462E-04 -6.44132295117E-04 +7.70777785853E-01 +3.32133425722E-01
2.72000000000E+09 +7.52949643546E-01 +1.78282997367E-01 -4.36145795684E-04 -4.29907906483E-04 -5.35386097556E-04 -4.87515917721E-04 +7.72722271246E-01 +3.19462566954E-01
2.72500000000E+09 +7.53423454308E-01 +1.62683562093E-01 -3.56600078184E-04 -3.67788934968E-04 -4.03328149060E-04 -2.39751489238E-04 +7.73837871050E-01 +3.06365490363E-01
2.73000000000E+09 +7.52763151462E-01 +1.46715968182E-01 -3.68659273937E-04 -5.02185023942E-04 -3.96434947618E-04 -4.33285387847E-04 +7.75008781391E-01 +2.92791374149E-01
2.73500000000E+09 +7.50806709483E-01 +1.30318067605E-01 -5.31027568934E-04 -3.72384601350E-04 -4.64529725843E-04 -3.59169960399E-04 +7.76170182039E-01 +2.78233420562E-01
2.74000000000E+09 +7.48188116251E-01 +1.13972104850E-01 -6.63847663820E-04 -2.07751249659E-04 -6.15421401349E-04 -2.06151565970E-04 +7.77804096665E-01 +2.63298414177E-01
2.74500000000E+09 +7.44674350404E-01 +9.69483679319E-02 -5.49783994097E-04 +6.14598955392E-05 -5.41836782823E-04 -2.11717732291E-05 +7.78931791067E-01 +2.47964745377E-01
2.75000000000E+09 +7.39406049412E-01 +7.99449009241E-02 -3.77628453278E-04 +4.14389338819E-05 -3.77104854607E-04 +1.66066643157E-05 +7.79798216147E-01 +2.33011594269E-01
2.75500000000E+09 +7.33816766976E-01 +6.36845152890E-02 -2.77143757668E-04 -2.14046685713E-04 -3.18254097715E-04 -2.27120559597E-04 +7.79832923020E-01 +2.17506165866E-01
2.76000000000E+09 +7.28503021489E-01 +4.77842530751E-02 -5.33224880746E-04 -2.12174469458E-04 -5.54008331763E-04 -2.25508999559E-04 +7.79199745888E-01 +2.02160549869E-01
2.76500000000E+09 +7.23784570472E-01 +3.12517920064E-02 -6.63854803454E-04 -7.20031913308E-05 -6.70841323270E-04 +3.60191729012E-06 +7.78399077859E-01 +1.85355364374E-01
2.77000000000E+09 +7.18951071288E-01 +1.37666735681E-02 -5.36206932989E-04 +9.97236921799E-05 -5.48977402276E-04 +1.70542623493E-04 +7.76956589369E-01 +1.67727642314E-01
2.77500000000E+09 +7.14014612968E-01 -4.82852815794E-03 -4.70530137526E-04 +3.56995500769E-06 -4.45152847871E-04 +2.04720013869E-05 +7.74850614636E-01 +1.49693809396E-01
2.78000000000E+09 +7.08332876233E-01 -2.39031883980E-02 -6.74999458747E-04 +5.33718863284E-05 -6.42485945787E-04 +9.44651692000E-05 +7.72865145152E-01 +1.31974076388E-01
2.78500000000E+09 +7.02220637236E-01 -4.36417858792E-02 -5.89094713850E-04 +1.67329763767E-04 -6.01793005761E-04 +2.48255034782E-04 +7.70318155351E-01 +1.14310893646E-01
2.79000000000E+09 +6.95573535074E-01 -6.36170213120E-02 -6.97683762178E-04 +1.48381804870E-04 -6.36366092745E-04 +1.87072615924E-04 +7.66909030149E-01 +9.68065014461E-02
2.79500000000E+09 +6.87411102100E-01 -8.42187836211E-02 -7.17115412623E-04 +4.45876958450E-04 -6.63751014551E-04 +3.67548292118E-04 +7.62617480891E-01 +7.91279825273E-02
2.80000000000E+09 +6.77042450125E-01 -1.04059970712E-01 -4.96951075709E-04 +5.73744704656E-04 -5.14516474623E-04 +5.47180430577E-04 +7.57725868954E-01 +6.09465551904E-02
2.80500000000E+09 +6.65616675062E-01 -1.21798488463E-01 -4.34363618520E-04 +4.03185247406E-04 -4.60322634482E-04 +3.65523884892E-04 +7.51858483335E-01 +4.19422261183E-02
2.81000000000E+09 +6.54382668620E-01 -1.38490388084E-01 -5.52107686777E-04 +2.99066899209E-04 -5.32645317165E-04 +2.50347759230E-04 +7.45274531754E-01 +2.29598712273E-02
2.81500000000E+09 +6.42277277789E-01 -1.55240512882E-01 -7.33692103095E-04 +4.24043950981E-04 -7.66451258563E-04 +4.44553699247E-04 +7.38342272156E-01 +3.93106555182E-03
2.82000000000E+09 +6.29048677742E-01 -1.71495751492E-01 -8.42997596258E-04 +8.73379047550E-04 -8.72268011883E-04 +9.23772444736E-04 +7.31331565767E-01 -1.57012922905E-02
2.82500000000E+09 +6.14994976813E-01 -1.88358501901E-01 -3.65981852759E-04 +1.21567539945E-03 -3.13493614301E-04 +1.16739087032E-03 +7.22199619961E-01 -3.55197777343E-02
2.83000000000E+09 +5.98665534476E-01 -2.05037520195E-01 -7.92823786966E-05 +1.00087252324E-03 -1.48524934131E-04 +9.61203648562E-04 +7.12693583469E-01 -5.47701223536E-02
2.83500000000E+09 +5.81781997421E-01 -2.21789127336E-01 -1.02506711433E-04 +9.81548453479E-04 -1.56354937886E-04 +1.00109446640E-03 +7.02247717806E-01 -7.49163528201E-02
2.84000000000E+09 +5.63538282197E-01 -2.39468354671E-01 +9.71348996067E-05 +9.84461147099E-04 +7.14698207264E-05 +9.77397587174E-04 +6.91166507013E-01 -9.48267632584E-02
2.84500000000E+09 +5.43157114232E-01 -2.58014140011E-01 -1.27334509707E-05 +9.29303857029E-04 -1.16080673067E-04 +1.00375175794E-03 +6.79205246547E-01 -1.15399318151E-01
2.85000000000E+09 +5.20873903632E-01 -2.76315534820E-01 +2.40580934578E-04 +1.45428004896E-03 +2.32880626045E-04 +1.41902204731E-03 +6.65727600013E-01 -1.36371402149E-01
2.85500000000E+09 +4.96655396453E-01 -2.93717994984E-01 +7.66521511777E-04 +9.67206370293E-04 +8.31369846096E-04 +9.86981342694E-04 +6.51086014445E-01 -1.56651742103E-01
2.86000000000E+09 +4.72243745473E-01 -3.09501779279E-01 +3.54290300278E-04 +7.04568929313E-04 +3.83259749358E-04 +7.04539336322E-04 +6.35520228730E-01 -1.77156470779E-01
2.86500000000E+09 +4.47702483452E-01 -3.24573829479E-01 +3.02732125686E-04 +1.16189088600E-03 +2.83047959704E-04 +1.21053297858E-03 +6.18387446730E-01 -1.97974886430E-01
2.87000000000E+09 +4.22945455482E-01 -3.38898929729E-01 +1.14657524057E-03 +1.21404016021E-03 +1.15063589548E-03 +1.26311598924E-03 +5.99419362131E-01 -2.18401024328E-01
2.87500000000E+09 +3.97335223906E-01 -3.52495516113E-01 +1.20017729057E-03 +7.51955664029E-04 +1.24107518939E-03 +8.13234178885E-04 +5.78952381543E-01 -2.37776634892E-01
2.88000000000E+09 +3.70482771600E-01 -3.64208572754E-01 +1.10973811901E-03 +5.18426632027E-04 +1.16370048899E-03 +3.87280687463E-04 +5.58411351689E-01 -2.56565661822E-01
2.88500000000E+09 +3.43456821851E-01 -3.74180227913E-01 +1.21412216066E-03 +6.16583572709E-04 +1.13310848116E-03 +4.91783594439E-04 +5.35991152436E-01 -2.75795510615E-01
2.89000000000E+09 +3.15607599309E-01 -3.82843723929E-01 +1.14023377611E-03 +2.39407180959E-04 +1.11006932383E-03 +2.27034674633E-04 +5.10874617550E-01 -2.93964956473E-01
2.89500000000E+09 +2.86346096016E-01 -3.90829117954E-01 +1.12031860810E-03 +5.69997112880E-04 +1.05488188339E-03 +5.64399622876E-04 +4.84289418599E-01 -3.11458681718E-01
2.90000000000E+09 +2.55054583191E-01 -3.96520976277E-01 +1.80485811130E-03 +3.39929830293E-04 +1.83770436148E-03 +4.32495924347E-04 +4.55745547068E-01 -3.28264338643E-01
2.90500000000E+09 +2.21694610630E-01 -4.00084639171E-01 +1.57153985958E-03 -3.49412146235E-04 +1.59209589312E-03 -3.47439842152E-04 +4.25388836291E-01 -3.43938266864E-01
2.91000000000E+09 +1.87320371033E-01 -3.99966023593E-01 +1.34467811657E-03 -3.53425929601E-05 +1.35232210371E-03 -1.06382199099E-04 +3.94208634982E-01 -3.57684639937E-01
2.91500000000E+09 +1.53638078189E-01 -3.97751697375E-01 +2.08723495699E-03 -4.10043158651E-04 +1.97036960922E-03 -4.24284889091E-04 +3.62097592154E-01 -3.69728095009E-01
2.92000000000E+09 +1.19483231576E-01 -3.94156943455E-01 +1.48434226562E-03 -1.43568638330E-03 +1.34571564241E-03 -1.33580717572E-03 +3.29088734271E-01 -3.80303801583E-01
2.92500000000E+09 +8.40746297174E-02 -3.88524475583E-01 +8.60603619043E-04 -1.06406570858E-03 +7.57477885997E-04 -9.28350761170E-04 +2.93271942018E-01 -3.89324904436E-01
2.93000000000E+09 +4.96110594755E-02 -3.79103503917E-01 +1.02482090885E-03 -6.61949609766E-04 +1.08558935064E-03 -5.43908280073E-04 +2.55529231423E-01 -3.95513985558E-01
2.93500000000E+09 +1.68569655464E-02 -3.68436816891E-01 +1.47588572933E-03 -9.52194166439E-04 +1.54765175213E-03 -8.69471084105E-04 +2.16947647579E-01 -3.99998785233E-01
2.94000000000E+09 -1.56891832159E-02 -3.56632095226E-01 +1.56005876528E-03 -1.62646115555E-03 +1.54557026718E-03 -1.60919336658E-03 +1.77217373379E-01 -4.01794853260E-01
2.94500000000E+09 -4.83863515524E-02 -3.43244710889E-01 +1.04840516092E-03 -2.06213437694E-03 +1.06800893411E-03 -2.01541109836E-03 +1.37774811473E-01 -4.01602665665E-01
2.95000000000E+09 -8.12827068373E-02 -3.26157899604E-01 +4.48249708548E-04 -2.22186912699E-03 +4.61884046573E-04 -2.17145477086E-03 +9.79182053714E-02 -3.98972794463E-01
2.95500000000E+09 -1.12353137162E-01 -3.05161459732E-01 +4.32812585834E-04 -2.05560095157E-03 +5.30028578591E-04 -2.04077445820E-03 +5.75890771131E-02 -3.92872259577E-01
2.96000000000E+09 -1.40285181846E-01 -2.81923687229E-01 -1.53815723336E-04 -2.66263591626E-03 -1.25698770429E-04 -2.75980735394E-03 +1.75605197280E-02 -3.83388705449E-01
2.96500000000E+09 -1.67234622257E-01 -2.57788794637E-01 -9.48105803586E-04 -2.08917524246E-03 -1.00679275556E-03 -2.18796912881E-03 -2.26775689164E-02 -3.71957326363E-01
2.97000000000E+09 -1.92774565119E-01 -2.31114687707E-01 -9.43667329868E-04 -1.79032962499E-03 -9.83550198037E-04 -1.76369700266E-03 -6.41905517379E-02 -3.56668535446E-01
2.97500000000E+09 -2.17152450134E-01 -2.02126596867E-01 -9.67285633433E-04 -1.76470914430E-03 -8.92820813305E-04 -1.75289188384E-03 -1.02703780000E-01 -3.37807045799E-01
2.98000000000E+09 -2.39129552376E-01 -1.71372274597E-01 -1.46725432172E-03 -1.86797797890E-03 -1.35827892015E-03 -1.89707786841E-03 -1.40590750339E-01 -3.18405338306E-01
2.98500000000E+09 -2.59115299139E-01 -1.39812478838E-01 -1.86725068431E-03 -1.38295621415E-03 -1.76688304862E-03 -1.59358191169E-03 -1.76851961904E-01 -2.94785073219E-01
2.99000000000E+09 -2.77020684742E-01 -1.07660312258E-01 -2.02931208384E-03 -9.36124384720E-04 -2.14045543396E-03 -1.03491154680E-03 -2.11699241187E-01 -2.70231776186E-01
2.99500000000E+09 -2.93697987576E-01 -7.54337454662E-02 -1.86324850578E-03 -7.89486623256E-04 -1.97857313473E-03 -7.80996329438E-04 -2.45798995498E-01 -2.41214311153E-01
3.00000000000E+09 -3.08552048251E-01 -4.28800881954E-02 -2.04806682025E-03 -5.00023377465E-04 -2.08898002876E-03 -4.52592716015E-04 -2.77015496133E-01 -2.09238298521E-01
3.00500000000E+09 -3.21182823885E-01 -9.75955631513E-03 -2.20834593710E-03 -1.68809604004E-04 -2.17530321694E-03 -1.19998950452E-04 -3.06021199034E-01 -1.76260550924E-01
3.01000000000E+09 -3.30502580384E-01 +2.27781340537E-02 -2.39035224557E-03 +1.87071369493E-04 -2.25703165859E-03 +2.16929096729E-04 -3.33544779423E-01 -1.40960558393E-01
3.01500000000E+09 -3.37671793889E-01 +5.49355311337E-02 -2.15184327672E-03 +1.09780773827E-03 -2.14357781828E-03 +1.03663243367E-03 -3.57692211680E-01 -1.03316643822E-01
3.02000000000E+09 -3.41422694256E-01 +8.64296635745E-02 -1.22973539683E-03 +1.12978410553E-03 -1.32024259194E-03 +1.14393632582E-03 -3.77394734369E-01 -6.46897334492E-02
3.02500000000E+09 -3.42702932232E-01 +1.17296307569E-01 -1.11835755200E-03 +7.30059080733E-04 -1.17234971577E-03 +7.63831698260E-04 -3.93334119072E-01 -2.50335959818E-02
3.03000000000E+09 -3.41221485095E-01 +1.48102187910E-01 -1.41193844699E-03 +6.59671352447E-04 -1.42979628359E-03 +6.77244759291E-04 -4.07087184146E-01 +1.39017432043E-02
3.03500000000E+09 -3.36596374673E-01 +1.78623522749E-01 -1.76091160710E-03 +1.12703344783E-03 -1.77291447325E-03 +1.05998303114E-03 -4.18973467853E-01 +5.44915589276E-02
3.04000000000E+09 -3.29443690833E-01 +2.08057556366E-01 -1.25579282530E-03 +1.93996323355E-03 -1.34403364685E-03 +2.00599133839E-03 -4.26817136600E-01 +9.57575999727E-02
3.04500000000E+09 -3.20699524036E-01 +2.37058938904E-01 -3.65505893763E-04 +1.75466306525E-03 -4.08529930014E-04 +1.86031844704E-03 -4.32234088037E-01 +1.36281285775E-01
3.05000000000E+09 -3.10559613868E-01 +2.66083031463E-01 -4.43586973901E-04 +1.39238118551E-03 -3.64005163609E-04 +1.44905317922E-03 -4.34841077966E-01 +1.76350336288E-01
3.05500000000E+09 -2.98385601227E-01 +2.94525525876E-01 -3.88592363569E-04 +1.66211688325E-03 -2.49614605792E-04 +1.68837188894E-03 -4.34499268102E-01 +2.15739600958E-01
3.06000000000E+09 -2.85274380880E-01 +3.21742149884E-01 -2.27826867638E-04 +1.83398325936E-03 -8.62561511794E-05 +1.78302755081E-03 -4.31388208497E-01 +2.54224782835E-01
3.06500000000E+09 -2.71426051751E-01 +3.47969670703E-01 +6.06730385057E-04 +1.88134847914E-03 +6.02315088051E-04 +1.75333641649E-03 -4.26090029271E-01 +2.90855595233E-01
3.07000000000E+09 -2.56792859071E-01 +3.72625538759E-01 +8.86609751729E-04 +1.13757575466E-03 +8.72646917016E-04 +1.15133226108E-03 -4.19185565250E-01 +3.26235829369E-01
