# Hz S RI R 50
! CMT, C1220, 16058040, 17.2.0/1
! Date: 15/08/2018 10:14:41
! Data: Format (Calibration Info)
! Freq                      S11: Re/Im (F2)                       S21: Re/Im (F2)                       S12: Re/Im (F2)                       S22: Re/Im (F2)            
2.50000000000E+09 +5.97537031881E-01 +6.32920563388E-01 -3.07550420147E-04 +5.41037185106E-05 -3.17314071674E-04 +1.67399509039E-05 +5.73001831491E-01 +7.16488419659E-01
2.50500000000E+09 +6.03845903066E-01 +6.25059265824E-01 -2.62565349446E-04 +9.21235227894E-05 -2.76682876874E-04 +1.01002991776E-04 +5.78570729382E-01 +7.10997045785E-01
2.51000000000E+09 +6.10326724626E-01 +6.16969689112E-01 -2.30478938331E-04 +1.27282515343E-04 -2.25238279609E-04 +9.35983077488E-05 +5.83975453011E-01 +7.06025523001E-01
2.51500000000E+09 +6.16567965118E-01 +6.09193325618E-01 -2.12199421147E-04 +1.65332913015E-04 -2.35444776378E-04 +1.14792268970E-04 +5.89196289016E-01 +7.00677930128E-01
2.52000000000E+09 +6.22451259252E-01 +6.01504056920E-01 -1.81897002188E-04 +1.83674715377E-04 -1.01859583506E-04 +1.63448735792E-04 +5.94184154732E-01 +6.94527077906E-01
2.52500000000E+09 +6.27654723212E-01 +5.94417630802E-01 -1.48774646730E-04 +9.88280760227E-05 -1.56520700447E-04 +9.13802085951E-05 +5.99811684057E-01 +6.88197685474E-01
2.53000000000E+09 +6.32399905744E-01 +5.87778836509E-01 -2.15389025016E-04 +1.48392255421E-04 -2.17132365224E-04 +1.07499163187E-04 +6.06012036602E-01 +6.81264538457E-01
2.53500000000E+09 +6.36958156170E-01 +5.81689945750E-01 -2.55313119958E-04 +2.33148122248E-04 -2.40261231178E-04 +1.93179622959E-04 +6.12058071413E-01 +6.74317572881E-01
2.54000000000E+09 +6.41271754833E-01 +5.75641249124E-01 -1.53526167192E-04 +3.06413142621E-04 -1.59596639446E-04 +3.27578393526E-04 +6.18004530044E-01 +6.67620288822E-01
2.54500000000E+09 +6.45568686039E-01 +5.69808482798E-01 -1.26199834700E-06 +3.42814072796E-04 -3.22281093426E-05 +3.27058720738E-04 +6.23687783624E-01 +6.61342874073E-01
2.55000000000E+09 +6.50306110012E-01 +5.63767256000E-01 +7.96942500268E-05 +2.72505912497E-04 +3.92914313820E-05 +3.16519237106E-04 +6.29059003712E-01 +6.55018596956E-01
2.55500000000E+09 +6.55698749368E-01 +5.56991644166E-01 +1.08971408673E-04 +1.44973716807E-04 +1.03029711995E-04 +1.78316518173E-04 +6.34209836330E-01 +6.48657423346E-01
2.56000000000E+09 +6.61730551464E-01 +5.49782479126E-01 +6.92934092647E-05 +5.36689373223E-05 +8.62743774624E-05 +7.67707391590E-05 +6.39268150179E-01 +6.41424699445E-01
2.56500000000E+09 +6.67854358073E-01 +5.41397799354E-01 -7.25633846432E-05 +1.30962553701E-05 -9.36665504679E-05 -2.04721699234E-05 +6.44647763910E-01 +6.33825777768E-01
2.57000000000E+09 +6.73845205800E-01 +5.32775582330E-01 -1.20796981483E-04 +1.22042234952E-04 -1.22185403319E-04 +1.59026064622E-04 +6.50181871318E-01 +6.25868660947E-01
2.57500000000E+09 +6.79896457250E-01 +5.24133324769E-01 -8.80072209608E-05 +1.73058079400E-04 -1.01184684231E-04 +1.46118518244E-04 +6.55544458586E-01 +6.18190383197E-01
2.58000000000E+09 +6.85293418071E-01 +5.15585426102E-01 -3.65555441365E-05 +2.53876610473E-04 -5.14573853168E-05 +1.99127751176E-04 +6.60635388505E-01 +6.10910443208E-01
2.58500000000E+09 +6.90542131973E-01 +5.06912436300E-01 +3.56572903081E-06 +1.80632386313E-04 -4.21817954850E-06 +2.07993160847E-04 +6.65550117420E-01 +6.03348723071E-01
2.59000000000E+09 +6.95236932941E-01 +4.98469030917E-01 -2.98063502609E-05 +1.75494388314E-04 -3.40459306476E-05 +1.60833796541E-04 +6.69963812379E-01 +5.95945904928E-01
2.59500000000E+09 +6.99665120437E-01 +4.90043293888E-01 -9.67427510859E-06 +2.27444301776E-04 -3.32423391793E-05 +2.43174488795E-04 +6.74925096492E-01 +5.88169216791E-01
2.60000000000E+09 +7.03740734995E-01 +4.81433017949E-01 -7.54852776201E-05 +2.21938039450E-04 -5.46424463086E-05 +2.20346296106E-04 +6.79935241973E-01 +5.79774648430E-01
2.60500000000E+09 +7.08016545849E-01 +4.72144546317E-01 -1.93310390824E-04 +3.37203177108E-04 -9.88297600739E-05 +3.17774755625E-04 +6.85182370420E-01 +5.71116016291E-01
2.61000000000E+09 +7.12292955171E-01 +4.61951220595E-01 +3.83080042358E-05 +4.60326798583E-04 +1.88609856229E-05 +4.75203360189E-04 +6.90539245243E-01 +5.62270356954E-01
2.61500000000E+09 +7.16898253723E-01 +4.50614577479E-01 +2.11136592084E-04 +4.17212991630E-04 +9.64983025631E-05 +4.20064030423E-04 +6.95454230356E-01 +5.53327472990E-01
2.62000000000E+09 +7.20913200873E-01 +4.38021217895E-01 +1.72705424114E-04 +3.55945192008E-04 +2.03391072703E-04 +3.41019038918E-04 +7.00129362792E-01 +5.44368774505E-01
2.62500000000E+09 +7.24754350592E-01 +4.24981053313E-01 +1.65679097613E-04 +3.61444675297E-04 +2.30184871269E-04 +3.85273596518E-04 +7.04861302293E-01 +5.35582038071E-01
2.63000000000E+09 +7.28509475670E-01 +4.11795920600E-01 +2.27778988091E-04 +4.30525980840E-04 +2.39095897119E-04 +4.02066554849E-04 +7.09805158534E-01 +5.26502681039E-01
2.63500000000E+09 +7.31631770674E-01 +3.98567731209E-01 +3.97958882228E-04 +4.10213088472E-04 +3.76306994564E-04 +3.03469035133E-04 +7.14719147990E-01 +5.17145862698E-01
2.64000000000E+09 +7.34645911867E-01 +3.85998233874E-01 +4.45584280696E-04 +2.93598216765E-04 +3.54108450708E-04 +2.62452186504E-04 +7.19417377194E-01 +5.07239614479E-01
2.64500000000E+09 +7.37689836040E-01 +3.74152217545E-01 +4.44029841632E-04 +2.90158997720E-04 +3.24097977933E-04 +2.96036395421E-04 +7.24166493510E-01 +4.97434272151E-01
2.65000000000E+09 +7.40051487024E-01 +3.62811254667E-01 +5.26574060657E-04 +2.16234734398E-04 +5.16531769354E-04 +3.17065930866E-04 +7.28531044657E-01 +4.87367371375E-01
2.65500000000E+09 +7.42863101354E-01 +3.51978142434E-01 +6.63349898971E-04 +1.89389993574E-04 +6.46566476316E-04 +2.28269669321E-04 +7.32585923443E-01 +4.76824834422E-01
2.66000000000E+09 +7.45703380662E-01 +3.41032751378E-01 +6.56963382537E-04 -4.26637449117E-05 +6.71606073946E-04 -1.15251966118E-05 +7.36597140278E-01 +4.65425144730E-01
2.66500000000E+09 +7.48432074013E-01 +3.29758522698E-01 +6.42766418841E-04 -1.18679323465E-04 +6.87327822339E-04 -1.40876244880E-04 +7.40316994448E-01 +4.54292363149E-01
2.67000000000E+09 +7.50588297378E-01 +3.17615342490E-01 +6.11482294362E-04 -3.27298791564E-04 +6.11549461451E-04 -3.35378914000E-04 +7.44572034567E-01 +4.43801170541E-01
2.67500000000E+09 +7.52347425556E-01 +3.05159807845E-01 +3.93530840557E-04 -3.57811625245E-04 +3.39006446831E-04 -3.28579763042E-04 +7.48906881364E-01 +4.32645778724E-01
2.68000000000E+09 +7.53776038200E-01 +2.91780014502E-01 +3.42457449977E-04 -2.30079966831E-04 +3.12591282728E-04 -2.07335219298E-04 +7.52570835664E-01 +4.21090485629E-01
2.68500000000E+09 +7.54602522524E-01 +2.77950576844E-01 +3.91435794137E-04 -2.56221836921E-04 +3.85629986461E-04 -2.54791065318E-04 +7.55220102157E-01 +4.09474944643E-01
2.69000000000E+09 +7.55107234265E-01 +2.63953212054E-01 +3.20163082721E-04 -2.64365684936E-04 +3.31202161945E-04 -2.69471673987E-04 +7.57507206252E-01 +3.97802679366E-01
2.69500000000E+09 +7.55265680874E-01 +2.50024169375E-01 +4.28745415336E-04 -2.59752548677E-04 +4.55027683785E-04 -2.82008864679E-04 +7.60399525772E-01 +3.85283466727E-01
2.70000000000E+09 +7.55685702289E-01 +2.36301534582E-01 +5.13668363728E-04 -4.22048795105E-04 +5.59342537717E-04 -4.19749006780E-04 +7.63546641840E-01 +3.71837081641E-01
2.70500000000E+09 +7.56398609271E-01 +2.22925832184E-01 +3.25603484528E-04 -6.14663274982E-04 +3.24349943005E-04 -5.20697728467E-04 +7.66039481752E-01 +3.58222226615E-01
2.71000000000E+09 +7.57422688989E-01 +2.09616132793E-01 +2.24396436746E-04 -5.96303667991E-04 +2.36037896300E-04 -5.84804424907E-04 +7.68713980785E-01 +3.45465138891E-01
2.71500000000E+09 +7.59117805834E-01 +1.95627967061E-01 +1.43955083354E-06 -5.76170061651E-04 +4.14649867684E-05 -6.67487192721E-04 +7.71336447985E-01 +3.32932921751E-01
2.72000000000E+09 +7.60441350450E-01 +1.80809115230E-01 -2.56696498927E-05 -2.75560946225E-04 -6.30929422798E-05 -3.23021160620E-04 +7.73449986308E-01 +3.20261247607E-01
2.72500000000E+09 +7.61268595359E-01 +1.65311883075E-01 +3.46096117712E-04 -2.19290559884E-04 +2.94663483068E-04 -2.34465949744E-04 +7.74658193781E-01 +3.06900111201E-01
2.73000000000E+09 +7.60923503712E-01 +1.49131938519E-01 +3.57530798688E-04 -6.48120116379E-04 +2.67564423038E-04 -5.41442855884E-04 +7.75740158362E-01 +2.93117118948E-01
2.73500000000E+09 +7.59674523707E-01 +1.32199474529E-01 +1.68751122666E-04 -6.64779753112E-04 +1.14600929830E-04 -5.39951117199E-04 +7.76976116413E-01 +2.78444959520E-01
2.74000000000E+09 +7.57163646220E-01 +1.15316151402E-01 +3.39237572224E-05 -6.78775204400E-04 +5.53461278034E-05 -5.95001629597E-04 +7.78691049689E-01 +2.63395359908E-01
2.74500000000E+09 +7.53612672722E-01 +9.80098926061E-02 +4.48167337948E-05 -6.73255872026E-04 +7.24086028769E-05 -5.80712800847E-04 +7.79969748186E-01 +2.47925706717E-01
2.75000000000E+09 +7.48732595749E-01 +8.09618628717E-02 +2.70641474219E-05 -7.86431626143E-04 +1.27866205504E-04 -7.30491480799E-04 +7.80889745540E-01 +2.33082866522E-01
2.75500000000E+09 +7.43506851619E-01 +6.44405733143E-02 -1.23497091790E-04 -8.87738213806E-04 -1.03159035685E-04 -9.30099128324E-04 +7.81026512086E-01 +2.17604031883E-01
2.76000000000E+09 +7.38641291076E-01 +4.80319348613E-02 -3.25379532892E-04 -8.75168748925E-04 -3.29660248672E-04 -9.41437506417E-04 +7.80254101695E-01 +2.02083649968E-01
2.76500000000E+09 +7.33774383462E-01 +3.10841962727E-02 -5.94762146964E-04 -8.25660656629E-04 -6.11519601409E-04 -8.04881099368E-04 +7.79620111366E-01 +1.85211227590E-01
2.77000000000E+09 +7.29001017790E-01 +1.32797344957E-02 -5.81452974734E-04 -6.75750780936E-04 -5.78029152659E-04 -7.02717965790E-04 +7.78232760481E-01 +1.67293051991E-01
2.77500000000E+09 +7.24221117154E-01 -5.35974838959E-03 -7.35239489450E-04 -6.58079864234E-04 -7.53594598705E-04 -6.37317462349E-04 +7.76259321858E-01 +1.49097411263E-01
2.78000000000E+09 +7.18890176650E-01 -2.47867256108E-02 -8.18995618272E-04 -4.64783596626E-04 -8.57862665817E-04 -5.18030174529E-04 +7.74263652858E-01 +1.30787897985E-01
2.78500000000E+09 +7.12753102231E-01 -4.50331224620E-02 -8.14381448660E-04 -4.60707534210E-04 -8.33963787027E-04 -4.35184090292E-04 +7.71739796951E-01 +1.12793786609E-01
2.79000000000E+09 +7.05817966152E-01 -6.55985183958E-02 -1.04939335077E-03 -2.99560707065E-04 -1.03137022890E-03 -2.92041748808E-04 +7.68260632353E-01 +9.51836897679E-02
2.79500000000E+09 +6.97530301339E-01 -8.60133521290E-02 -1.08862075731E-03 +8.47186454349E-05 -1.04966894203E-03 +7.58997520935E-05 +7.63886362290E-01 +7.74446767205E-02
2.80000000000E+09 +6.87421501251E-01 -1.05953492986E-01 -6.99879142246E-04 +3.19686844035E-04 -7.56608581542E-04 +2.55273030841E-04 +7.59006620001E-01 +5.91012139476E-02
2.80500000000E+09 +6.76917396077E-01 -1.24499064814E-01 -4.37804917376E-04 +7.40068329070E-05 -4.75001159724E-04 +6.90214577997E-05 +7.52704242938E-01 +3.96754833011E-02
2.81000000000E+09 +6.65475333739E-01 -1.42241455437E-01 -5.94282057767E-04 -1.16352082816E-04 -6.47464567552E-04 -1.69668687241E-04 +7.45837476719E-01 +2.05524879312E-02
2.81500000000E+09 +6.53251524082E-01 -1.59416485285E-01 -7.08045976123E-04 -1.36194545148E-04 -7.31067942346E-04 -1.07874797103E-04 +7.38767070843E-01 +1.06095967738E-03
2.82000000000E+09 +6.39985669180E-01 -1.76456435721E-01 -1.09296430730E-03 -5.03776959009E-05 -1.06730569681E-03 +7.81255099301E-05 +7.31466096717E-01 -1.88031841018E-02
2.82500000000E+09 +6.25608753661E-01 -1.93449058326E-01 -9.26496965648E-04 +3.54919091026E-04 -8.95516024813E-04 +4.08071031182E-04 +7.22048767520E-01 -3.89174977479E-02
2.83000000000E+09 +6.09844130494E-01 -2.10744165354E-01 -7.20168776569E-04 +4.11782533531E-04 -6.57941458629E-04 +4.26545818244E-04 +7.12115345182E-01 -5.82382619959E-02
2.83500000000E+09 +5.92934142870E-01 -2.28558895606E-01 -7.80128864756E-04 +2.70564014895E-04 -7.48396053931E-04 +2.62259014892E-04 +7.01010072052E-01 -7.81512716935E-02
2.84000000000E+09 +5.74188547246E-01 -2.47297277581E-01 -8.38640307063E-04 +3.88704562435E-04 -7.65680223143E-04 +4.47339971986E-04 +6.89895521332E-01 -9.76250495030E-02
2.84500000000E+09 +5.52925890608E-01 -2.66324204559E-01 -1.02069959777E-03 +3.07455170910E-04 -9.07680035571E-04 +2.81040791317E-04 +6.77692612091E-01 -1.18620491543E-01
2.85000000000E+09 +5.30227596604E-01 -2.84918395040E-01 -1.10503534224E-03 +8.52377272848E-04 -1.07282689690E-03 +8.15117245688E-04 +6.63472961241E-01 -1.39847744689E-01
2.85500000000E+09 +5.05695834344E-01 -3.02774735086E-01 -6.95157656504E-04 +7.24495575645E-04 -6.04556817804E-04 +6.58044208460E-04 +6.48331662242E-01 -1.59844284295E-01
2.86000000000E+09 +4.80683016472E-01 -3.19458316991E-01 -1.14087824871E-03 +6.81332392313E-04 -1.11598807136E-03 +6.07570939947E-04 +6.32368357535E-01 -1.80281741661E-01
2.86500000000E+09 +4.55233901553E-01 -3.35179492455E-01 -1.34305637147E-03 +1.40689955588E-03 -1.37490329366E-03 +1.33691409358E-03 +6.14754340384E-01 -2.00804746063E-01
2.87000000000E+09 +4.29426702756E-01 -3.49719869500E-01 -7.38643271293E-04 +1.98399244695E-03 -6.74455772166E-04 +1.92715047026E-03 +5.95636425808E-01 -2.20708165977E-01
2.87500000000E+09 +4.03189075744E-01 -3.63164691768E-01 -2.22858309838E-04 +1.80132264122E-03 -2.09566002541E-04 +1.69995148659E-03 +5.74832645123E-01 -2.39873222607E-01
2.88000000000E+09 +3.76286669279E-01 -3.75278458341E-01 -1.55339343924E-04 +1.92496991579E-03 -1.19894511245E-04 +1.87138467889E-03 +5.53774922363E-01 -2.57980992941E-01
2.88500000000E+09 +3.48583330424E-01 -3.86136430407E-01 +4.90537334363E-04 +2.00512385102E-03 +4.56885710136E-04 +1.85436354464E-03 +5.31128409605E-01 -2.76721305452E-01
2.89000000000E+09 +3.19498956798E-01 -3.95407563785E-01 +7.00965713939E-04 +1.58588389989E-03 +5.72354121516E-04 +1.54909675876E-03 +5.05766181204E-01 -2.94385344355E-01
2.89500000000E+09 +2.88827397640E-01 -4.03042254163E-01 +6.46913331017E-04 +1.69467426928E-03 +4.94657412409E-04 +1.65000698745E-03 +4.79162424878E-01 -3.11491573170E-01
2.90000000000E+09 +2.56668178123E-01 -4.08101475325E-01 +1.00449174611E-03 +1.95749360108E-03 +9.17676659997E-04 +2.08479149552E-03 +4.50433889025E-01 -3.28149674680E-01
2.90500000000E+09 +2.23315238195E-01 -4.11245773784E-01 +1.57598323576E-03 +1.69745795074E-03 +1.58019521408E-03 +1.76711311143E-03 +4.20196168981E-01 -3.43049525604E-01
2.91000000000E+09 +1.88591830587E-01 -4.11905242214E-01 +2.22632830430E-03 +1.28635191450E-03 +2.26057830850E-03 +1.27319950042E-03 +3.89002015221E-01 -3.56715098226E-01
2.91500000000E+09 +1.53613147625E-01 -4.09927664650E-01 +2.24965847580E-03 +3.23967775972E-04 +2.19713950382E-03 +3.06319893086E-04 +3.56705842405E-01 -3.67904456170E-01
2.92000000000E+09 +1.17905520107E-01 -4.05715508916E-01 +1.81147872770E-03 -1.86354721861E-04 +1.76665293920E-03 -1.60473067317E-04 +3.23728250065E-01 -3.77582950787E-01
2.92500000000E+09 +8.23907741927E-02 -3.99188926849E-01 +1.21880560237E-03 -6.73544683801E-05 +1.26829297295E-03 -1.17380103517E-05 +2.88027137379E-01 -3.86074107847E-01
2.93000000000E+09 +4.71261227243E-02 -3.90324497084E-01 +1.34351648567E-03 +2.94057651425E-04 +1.37354113495E-03 +3.68455560275E-04 +2.50199457625E-01 -3.91246913816E-01
2.93500000000E+09 +1.27276730746E-02 -3.79443140045E-01 +1.81431727757E-03 -9.70711687073E-05 +1.89386820076E-03 -1.05960361504E-04 +2.12444515852E-01 -3.94526961733E-01
2.94000000000E+09 -2.10046597350E-02 -3.67025845583E-01 +1.58822191485E-03 -4.75658668194E-04 +1.67628538135E-03 -4.99773214157E-04 +1.73934219849E-01 -3.96346026353E-01
2.94500000000E+09 -5.48198933284E-02 -3.52331363432E-01 +1.41637435365E-03 -4.86885169647E-04 +1.51357120104E-03 -5.05256388900E-04 +1.34993295934E-01 -3.96448395113E-01
2.95000000000E+09 -8.80467500645E-02 -3.34454113374E-01 +1.47416723605E-03 -7.56170172029E-04 +1.52779921280E-03 -8.01420848992E-04 +9.50906650903E-02 -3.92953459507E-01
2.95500000000E+09 -1.19912229075E-01 -3.13131367488E-01 +1.47450720185E-03 -9.43324523407E-04 +1.47903384517E-03 -9.66197448807E-04 +5.62579268759E-02 -3.85996614948E-01
2.96000000000E+09 -1.49201637829E-01 -2.89134178248E-01 +1.15346965922E-03 -1.42835103439E-03 +1.21746119037E-03 -1.56291916729E-03 +1.75226622019E-02 -3.76616889257E-01
2.96500000000E+09 -1.76867561262E-01 -2.63386652389E-01 +4.32242764485E-04 -1.17525067227E-03 +3.19508177257E-04 -1.29772911381E-03 -2.19205867697E-02 -3.65591920655E-01
2.97000000000E+09 -2.02956451751E-01 -2.35349437653E-01 +6.54094119749E-04 -7.14094050530E-04 +5.11421815713E-04 -7.36715601354E-04 -6.28016609579E-02 -3.50548395110E-01
2.97500000000E+09 -2.27584819917E-01 -2.05275575331E-01 +1.09360620230E-03 -6.53925922849E-04 +9.86261998029E-04 -6.59871967774E-04 -1.00540040968E-01 -3.32004037981E-01
2.98000000000E+09 -2.49617801982E-01 -1.73057522170E-01 +1.27051662265E-03 -1.41004124187E-03 +1.23666206979E-03 -1.24774091991E-03 -1.37490693230E-01 -3.13267341289E-01
2.98500000000E+09 -2.69517531350E-01 -1.40475192749E-01 +7.61323191590E-04 -1.99918944854E-03 +8.37333316101E-04 -1.90359389600E-03 -1.73054568870E-01 -2.91246233388E-01
2.99000000000E+09 -2.87560273868E-01 -1.06965454217E-01 +1.74006307528E-04 -1.90078137234E-03 +2.48101686423E-04 -1.93683863966E-03 -2.08637436330E-01 -2.67542488146E-01
2.99500000000E+09 -3.03601354672E-01 -7.37657442983E-02 -3.34091812752E-05 -1.83626152656E-03 -9.40456694515E-05 -1.83598867328E-03 -2.42838752220E-01 -2.37888473215E-01
3.00000000000E+09 -3.18768452958E-01 -4.03289052525E-02 -4.64162482892E-04 -1.56540959446E-03 -4.56922227723E-04 -1.55352378556E-03 -2.73230333343E-01 -2.06318456031E-01
3.00500000000E+09 -3.30835803285E-01 -5.92281855486E-03 -3.87842101808E-04 -1.50984587032E-03 -3.42253734389E-04 -1.38708337065E-03 -3.02042226563E-01 -1.73796824063E-01
3.01000000000E+09 -3.39914869612E-01 +2.73917924024E-02 -7.08756683828E-04 -1.71245906081E-03 -6.07503375843E-04 -1.65835629428E-03 -3.29381591723E-01 -1.38990856339E-01
3.01500000000E+09 -3.46356929615E-01 +6.08280833474E-02 -1.03262850854E-03 -1.37337610589E-03 -9.10118826003E-04 -1.39833616796E-03 -3.53235783634E-01 -1.02344847992E-01
3.02000000000E+09 -3.49323226349E-01 +9.31077267238E-02 -1.13937827492E-03 -1.08476909233E-03 -1.09780475881E-03 -1.19777041614E-03 -3.73501268851E-01 -6.46673736521E-02
3.02500000000E+09 -3.49834346420E-01 +1.24685847730E-01 -1.00581795522E-03 -8.80400644521E-04 -9.13615153984E-04 -9.30857027695E-04 -3.89563297113E-01 -2.52370554354E-02
3.03000000000E+09 -3.47206142179E-01 +1.55700139414E-01 -1.23192945500E-03 -1.33768082170E-03 -1.28592817917E-03 -1.42335775666E-03 -4.03170086340E-01 +1.32238029290E-02
3.03500000000E+09 -3.42452135761E-01 +1.86299824798E-01 -2.18545219267E-03 -6.62675158387E-04 -2.18972621414E-03 -6.97264025097E-04 -4.15033601089E-01 +5.27907897253E-02
3.04000000000E+09 -3.34704475490E-01 +2.16824408933E-01 -1.71557757508E-03 +3.35717540363E-04 -1.79154879205E-03 +2.85875508656E-04 -4.24041552990E-01 +9.36994913739E-02
3.04500000000E+09 -3.25151521109E-01 +2.46390086434E-01 -1.10925212030E-03 +5.05145565629E-04 -1.22860094971E-03 +5.48994693381E-04 -4.29607901168E-01 +1.34444029063E-01
3.05000000000E+09 -3.13631684951E-01 +2.75627432410E-01 -6.40375658098E-04 +3.37317865841E-04 -6.97884473651E-04 +3.76896182324E-04 -4.32432733882E-01 +1.74113140811E-01
3.05500000000E+09 -3.00919962767E-01 +3.03720759514E-01 -4.91551173141E-04 -2.03252737802E-05 -5.28449772543E-04 +1.67530578646E-05 -4.32817000184E-01 +2.12685059158E-01
3.06000000000E+09 -2.87178508935E-01 +3.31441922646E-01 -1.01573696271E-03 -1.60788678703E-04 -1.04526215367E-03 -1.30476263899E-04 -4.30657436893E-01 +2.50953988448E-01
3.06500000000E+09 -2.72445915502E-01 +3.57395618396E-01 -9.87145685707E-04 +2.28524842500E-04 -9.43410641309E-04 +3.09074197309E-04 -4.26375272747E-01 +2.87635328808E-01
3.07000000000E+09 -2.57523208132E-01 +3.82179913129E-01 -7.86937814252E-04 +4.33767097256E-04 -8.17804975483E-04 +3.95184438436E-04 -4.19893477559E-01 +3.23875757013E-01
