# Hz S RI R 50
! CMT, C1220, 16058040, 17.2.0/1
! Date: 15/08/2018 10:15:51
! Data: Format (Calibration Info)
! Freq                      S11: Re/Im (F2)                       S21: Re/Im (F2)                       S12: Re/Im (F2)                       S22: Re/Im (F2)            
2.50000000000E+09 +5.95810205991E-01 +6.35322482101E-01 -1.47460223643E-04 +1.60086605671E-04 -1.68833371511E-04 +1.65830184754E-04 +5.72777370962E-01 +7.17503834154E-01
2.50500000000E+09 +6.02283193796E-01 +6.27513891341E-01 -6.13488968744E-05 +2.52920273922E-04 -1.11509221656E-04 +2.90249634156E-04 +5.78236312445E-01 +7.11937650024E-01
2.51000000000E+09 +6.08818786904E-01 +6.19395977010E-01 +9.16145108910E-06 +2.11137937253E-04 +2.10096123009E-05 +1.80064822144E-04 +5.83753611364E-01 +7.06727620631E-01
2.51500000000E+09 +6.15116572659E-01 +6.11638480049E-01 +9.35223652256E-06 +1.48960195911E-04 +1.42538830865E-05 +1.39834550358E-04 +5.89109450554E-01 +7.01531972459E-01
2.52000000000E+09 +6.20991277264E-01 +6.03754489482E-01 +5.86854716777E-05 +1.44348426149E-04 +3.54537354277E-05 +1.62774576299E-04 +5.94247733867E-01 +6.95521758131E-01
2.52500000000E+09 +6.26333225595E-01 +5.96688359328E-01 -8.59231112754E-06 +1.11017977726E-04 +1.62625128410E-05 +9.59657351488E-05 +5.99885650212E-01 +6.89227788424E-01
2.53000000000E+09 +6.31159623328E-01 +5.89924448257E-01 +7.77880738399E-06 +1.29868771874E-04 +2.35807733149E-05 +1.33284359867E-04 +6.06209406596E-01 +6.82381135853E-01
2.53500000000E+09 +6.35686208171E-01 +5.83824066332E-01 +4.26991504724E-05 +8.19927096245E-05 +6.66309545790E-05 +6.26515224721E-05 +6.12284466144E-01 +6.75356744888E-01
2.54000000000E+09 +6.39899854434E-01 +5.77795923629E-01 -5.10470649413E-05 +1.15970336737E-04 -3.23474564603E-05 +9.24399741730E-05 +6.18228305643E-01 +6.68603715512E-01
2.54500000000E+09 +6.44188708141E-01 +5.71955638233E-01 +3.19559533846E-05 +1.83702785042E-04 +9.59644739227E-06 +1.87830185319E-04 +6.24056417910E-01 +6.62165622751E-01
2.55000000000E+09 +6.49065488513E-01 +5.66101261047E-01 +1.37745074997E-04 +1.78663989421E-04 +1.54014964603E-04 +2.14605054835E-04 +6.29494876661E-01 +6.55797282831E-01
2.55500000000E+09 +6.54698009892E-01 +5.59224392245E-01 +1.45200206710E-04 +7.35201825995E-05 +2.27921720618E-04 +1.07009613044E-04 +6.34632472731E-01 +6.49256422171E-01
2.56000000000E+09 +6.60815304950E-01 +5.51816644542E-01 +1.25354381318E-04 -1.15077183774E-05 +1.29685965507E-04 -5.84696379563E-05 +6.39952109856E-01 +6.42009329508E-01
2.56500000000E+09 +6.67159084839E-01 +5.43383078959E-01 -3.74879576732E-06 -8.57298505815E-05 -2.90049460724E-05 -9.90660302784E-05 +6.45320674559E-01 +6.34370496837E-01
2.57000000000E+09 +6.73249165517E-01 +5.34590450977E-01 -1.21046522218E-04 +6.78909489250E-05 -9.27553776659E-05 +7.09936647686E-05 +6.50787691680E-01 +6.26463319486E-01
2.57500000000E+09 +6.79345913575E-01 +5.25722725332E-01 -7.13688554554E-05 +2.26354177887E-04 -7.61546702901E-06 +1.73138105527E-04 +6.56250394050E-01 +6.18633919110E-01
2.58000000000E+09 +6.84916028192E-01 +5.16985931734E-01 +3.91769132468E-05 +2.13072953677E-04 +3.74968009094E-05 +1.90925267995E-04 +6.61100766039E-01 +6.11243314319E-01
2.58500000000E+09 +6.90173879587E-01 +5.07939643890E-01 +1.76035340438E-04 +1.85287763452E-04 +1.02722137814E-04 +1.89632189861E-04 +6.66121347577E-01 +6.03642158100E-01
2.59000000000E+09 +6.94665547612E-01 +4.99364751621E-01 +1.03928413511E-04 +9.96474804024E-05 +1.04691792382E-04 +8.42252971502E-05 +6.70711105190E-01 +5.96197915480E-01
2.59500000000E+09 +6.99104461372E-01 +4.90951487505E-01 +8.44551951603E-05 +7.73401420071E-05 +4.46478010601E-05 +1.39789245508E-04 +6.75694587273E-01 +5.88204715645E-01
2.60000000000E+09 +7.03083417638E-01 +4.82063226926E-01 +1.36415004690E-04 +1.46489880649E-04 +1.39042255443E-04 +1.47983743165E-04 +6.80633489535E-01 +5.79620080213E-01
2.60500000000E+09 +7.07359021019E-01 +4.72805237897E-01 +1.34637130779E-04 +1.69284865515E-04 +1.57354552541E-04 +1.55446404979E-04 +6.85861273772E-01 +5.70991357032E-01
2.61000000000E+09 +7.11623743870E-01 +4.62574709032E-01 +2.22296079883E-04 +1.26934204162E-04 +2.18706070725E-04 +1.42784883646E-04 +6.91142592836E-01 +5.62095372812E-01
2.61500000000E+09 +7.16225623033E-01 +4.51078392041E-01 +3.07319227859E-04 +7.05106702043E-05 +2.74753551025E-04 +9.44164183302E-05 +6.95982893579E-01 +5.53288236451E-01
2.62000000000E+09 +7.20223285259E-01 +4.38581250485E-01 +1.82020862057E-04 +3.02747655628E-05 +2.10202072032E-04 +1.86664867775E-05 +7.00678611942E-01 +5.44102067503E-01
2.62500000000E+09 +7.24094127480E-01 +4.25556989925E-01 +2.02666766700E-04 +8.36103350375E-05 +2.30863886609E-04 +8.34015037760E-05 +7.05280256800E-01 +5.35153746148E-01
2.63000000000E+09 +7.27831195883E-01 +4.11930266617E-01 +2.79735663791E-04 +8.27265054160E-05 +2.48086361032E-04 +4.93252577501E-05 +7.10183210445E-01 +5.25797279147E-01
2.63500000000E+09 +7.31016260028E-01 +3.98581837357E-01 +2.72869175895E-04 +2.02278546030E-06 +2.75477222663E-04 +1.30343955320E-05 +7.14948941800E-01 +5.16521907981E-01
2.64000000000E+09 +7.33898057602E-01 +3.85894439627E-01 +3.66967356751E-04 -7.02458294227E-05 +3.41339988036E-04 -4.41420783116E-05 +7.19622647970E-01 +5.06608776866E-01
2.64500000000E+09 +7.36806876802E-01 +3.73735706956E-01 +2.62135770581E-04 -1.82697529676E-04 +2.70166556252E-04 -1.87534189309E-04 +7.24325440820E-01 +4.96665911147E-01
2.65000000000E+09 +7.39156346222E-01 +3.62335736246E-01 +1.75863088984E-04 -9.20452995345E-05 +2.17394500567E-04 -1.67991511500E-05 +7.28414743141E-01 +4.86427079184E-01
2.65500000000E+09 +7.41736077383E-01 +3.51356188506E-01 +3.38773879471E-04 -4.50135720104E-05 +3.55220738451E-04 -2.51449420226E-05 +7.32278661019E-01 +4.76014472178E-01
2.66000000000E+09 +7.44501999760E-01 +3.40570380005E-01 +3.18412063410E-04 -1.77558283850E-04 +3.75613235931E-04 -1.87007928516E-04 +7.36055680312E-01 +4.64840478388E-01
2.66500000000E+09 +7.47352668334E-01 +3.29239926852E-01 +3.11588978398E-04 -2.05121805888E-04 +3.58956682351E-04 -2.35506330785E-04 +7.39832149758E-01 +4.53746303236E-01
2.67000000000E+09 +7.49511032417E-01 +3.16997736129E-01 +3.08377245848E-04 -3.79797684741E-04 +3.11977928925E-04 -4.12169140646E-04 +7.44016374718E-01 +4.43079302664E-01
2.67500000000E+09 +7.51111634813E-01 +3.04244621815E-01 +1.54239404852E-04 -3.86979175053E-04 +9.89877266038E-05 -3.32664292651E-04 +7.48189483762E-01 +4.31789809299E-01
2.68000000000E+09 +7.52623203212E-01 +2.90744415667E-01 +2.32048976335E-04 -3.46081980652E-04 +2.45981039986E-04 -3.13986078240E-04 +7.51754142185E-01 +4.20411455999E-01
2.68500000000E+09 +7.53230649711E-01 +2.76572221023E-01 +1.60849396489E-04 -4.05889160877E-04 +1.65113242974E-04 -3.83964377473E-04 +7.54370802460E-01 +4.08805282165E-01
2.69000000000E+09 +7.53634537025E-01 +2.62443373062E-01 +1.18022832351E-04 -3.89253306495E-04 +1.08419826709E-04 -3.59034634826E-04 +7.56572060756E-01 +3.97214584441E-01
2.69500000000E+09 +7.53816773086E-01 +2.48350782961E-01 +1.46503139381E-04 -4.15262211633E-04 +1.27139266497E-04 -3.89460381385E-04 +7.59176694569E-01 +3.84768604864E-01
2.70000000000E+09 +7.54095669135E-01 +2.34392453999E-01 +1.31168397894E-04 -5.11895454660E-04 +1.41944926423E-04 -4.81190122940E-04 +7.62208322209E-01 +3.71523649445E-01
2.70500000000E+09 +7.54462689947E-01 +2.20773990708E-01 +4.77300871732E-05 -5.52957326431E-04 +7.31192507385E-05 -5.26732010336E-04 +7.64575883414E-01 +3.57954622602E-01
2.71000000000E+09 +7.55294265831E-01 +2.07383711082E-01 -9.40487709156E-05 -7.29773122595E-04 -1.92146389444E-05 -7.03649470594E-04 +7.67124035313E-01 +3.45260975204E-01
2.71500000000E+09 +7.56975797737E-01 +1.93229221162E-01 -3.64516361711E-04 -6.46102024333E-04 -4.17205956527E-04 -6.85054965808E-04 +7.69632897364E-01 +3.32791080957E-01
2.72000000000E+09 +7.58243525932E-01 +1.78313663850E-01 -3.92168369616E-04 -4.26115852133E-04 -3.95582800225E-04 -4.39063625697E-04 +7.71598251513E-01 +3.20370519099E-01
2.72500000000E+09 +7.58826972852E-01 +1.62311139158E-01 -3.22055887426E-04 -3.74872318517E-04 -3.11669762626E-04 -3.73172546091E-04 +7.72825663584E-01 +3.07206763795E-01
2.73000000000E+09 +7.58047604418E-01 +1.45814249116E-01 -4.33948466894E-04 -5.39632600974E-04 -3.73152592921E-04 -5.11300910112E-04 +7.73966592370E-01 +2.93615076137E-01
2.73500000000E+09 +7.56301337812E-01 +1.28941082236E-01 -6.09465682396E-04 -4.01731226257E-04 -5.02520321979E-04 -3.45825814187E-04 +7.75064037752E-01 +2.79013192876E-01
2.74000000000E+09 +7.53372063098E-01 +1.12098238027E-01 -6.88626890943E-04 -2.37064534335E-04 -6.02965425505E-04 -2.63587004044E-04 +7.76634527183E-01 +2.64224641386E-01
2.74500000000E+09 +7.49605500030E-01 +9.50217401772E-02 -5.98691432403E-04 -6.31004293134E-05 -5.58671552349E-04 -1.54634379993E-04 +7.77907569456E-01 +2.49086793033E-01
2.75000000000E+09 +7.44587980691E-01 +7.77361336715E-02 -4.43676938135E-04 -8.17751734696E-05 -4.52479632822E-04 -1.79889710019E-04 +7.78755810220E-01 +2.34380954736E-01
2.75500000000E+09 +7.38822709142E-01 +6.11586320850E-02 -4.42456771841E-04 -1.70511231449E-04 -5.17314128314E-04 -2.01642052288E-04 +7.78942361366E-01 +2.19084476198E-01
2.76000000000E+09 +7.33441584502E-01 +4.48652016231E-02 -6.73981484286E-04 -2.00647600779E-04 -7.70710842087E-04 -2.45848489090E-04 +7.78345647960E-01 +2.03827690774E-01
2.76500000000E+09 +7.28318247407E-01 +2.83140487026E-02 -7.88492164908E-04 +1.42969738903E-05 -8.77463351033E-04 +2.27006606834E-05 +7.77586548607E-01 +1.87158788229E-01
2.77000000000E+09 +7.23564923538E-01 +1.07260167121E-02 -7.06487882621E-04 +1.85300077921E-04 -6.96389244996E-04 +2.02379646388E-04 +7.76365794931E-01 +1.69768250268E-01
2.77500000000E+09 +7.18893657168E-01 -7.88366285738E-03 -5.66855025421E-04 +2.49898193799E-04 -5.58709766767E-04 +2.98659377563E-04 +7.74583159383E-01 +1.51834235291E-01
2.78000000000E+09 +7.13541026138E-01 -2.76524337505E-02 -6.63903688280E-04 +2.35751211123E-04 -6.48189399025E-04 +2.87092924952E-04 +7.72825387074E-01 +1.34096672399E-01
2.78500000000E+09 +7.07010368370E-01 -4.79017130154E-02 -5.89286635115E-04 +3.96919960456E-04 -5.89405347721E-04 +4.11812322789E-04 +7.70607510348E-01 +1.16326454940E-01
2.79000000000E+09 +7.00005598106E-01 -6.82404706251E-02 -5.40966869119E-04 +3.82630523654E-04 -4.69552289526E-04 +4.04765449179E-04 +7.67374560288E-01 +9.89204050029E-02
2.79500000000E+09 +6.91867006792E-01 -8.88456960169E-02 -6.02162877056E-04 +5.75337185040E-04 -5.57837263221E-04 +5.80824908033E-04 +7.63401000658E-01 +8.12111409656E-02
2.80000000000E+09 +6.81650180110E-01 -1.09264156003E-01 -2.67663143613E-04 +7.39032278412E-04 -2.90263710796E-04 +7.15244879099E-04 +7.58933239120E-01 +6.29868604348E-02
2.80500000000E+09 +6.70390513993E-01 -1.27992038726E-01 -1.58406510813E-04 +4.30174393674E-04 -1.46901320941E-04 +4.16577380614E-04 +7.53438780269E-01 +4.37017483390E-02
2.81000000000E+09 +6.58216922882E-01 -1.45725407853E-01 -2.72432620526E-04 +3.47915714889E-04 -3.17681093034E-04 +3.56654856005E-04 +7.47106343817E-01 +2.43356748990E-02
2.81500000000E+09 +6.45458674947E-01 -1.62502211930E-01 -3.65845163936E-04 +4.95819211828E-04 -3.68932321852E-04 +4.66326099871E-04 +7.40157126906E-01 +4.81024975427E-03
2.82000000000E+09 +6.31839231584E-01 -1.78987260448E-01 -5.17169223548E-04 +7.16202301006E-04 -5.29982715863E-04 +7.01873275551E-04 +7.32976372690E-01 -1.50191118782E-02
2.82500000000E+09 +6.17576767076E-01 -1.95777344511E-01 -1.52065882254E-04 +9.88964134965E-04 -1.06368980505E-04 +9.58777502623E-04 +7.23988393274E-01 -3.51770151026E-02
2.83000000000E+09 +6.01232626037E-01 -2.13466660341E-01 +6.78073629220E-05 +7.33911918391E-04 +7.00167901563E-05 +6.99025551692E-04 +7.14430994424E-01 -5.45843009290E-02
2.83500000000E+09 +5.83524460681E-01 -2.31107268651E-01 -1.00100005829E-04 +6.83141177735E-04 -9.12301495577E-05 +7.02898913886E-04 +7.03967505473E-01 -7.48017736423E-02
2.84000000000E+09 +5.63931601840E-01 -2.48877961624E-01 +1.05466321881E-04 +9.29312120528E-04 +4.87431005251E-05 +9.00713642837E-04 +6.93000467406E-01 -9.49101813558E-02
2.84500000000E+09 +5.42726908301E-01 -2.67091300710E-01 +6.05637375378E-05 +7.74194448006E-04 +6.17986500720E-05 +7.64010497301E-04 +6.80983210289E-01 -1.15806143745E-01
2.85000000000E+09 +5.20046210247E-01 -2.85169030752E-01 +2.67949536745E-04 +1.14453459788E-03 +3.12097555064E-04 +1.16728055977E-03 +6.67497553159E-01 -1.37012734161E-01
2.85500000000E+09 +4.95701642131E-01 -3.03001084054E-01 +7.39238659456E-04 +7.75646923727E-04 +7.88372630280E-04 +7.60091021233E-04 +6.52545040385E-01 -1.57463164476E-01
2.86000000000E+09 +4.70146304549E-01 -3.19506297545E-01 +5.22368102294E-04 +3.50194383264E-04 +5.08048373992E-04 +3.90528869325E-04 +6.36851995291E-01 -1.78063574397E-01
2.86500000000E+09 +4.44180985524E-01 -3.34104073354E-01 +1.08062577422E-04 +7.00422712029E-04 +1.25822723207E-04 +6.63619290891E-04 +6.19855180466E-01 -1.98882593378E-01
2.87000000000E+09 +4.18701081352E-01 -3.47701024397E-01 +6.39663638558E-04 +1.00011153157E-03 +6.78951215261E-04 +1.02469204938E-03 +6.01332119535E-01 -2.19313641106E-01
2.87500000000E+09 +3.93119104337E-01 -3.60689132037E-01 +7.68878535476E-04 +8.22016625572E-04 +7.37439794587E-04 +7.81426620474E-04 +5.81051168756E-01 -2.39638305277E-01
2.88000000000E+09 +3.66318507675E-01 -3.72974201934E-01 +1.05329856113E-03 +8.33994502235E-04 +1.07317089845E-03 +7.36853626283E-04 +5.59931310086E-01 -2.58893632911E-01
2.88500000000E+09 +3.38232326446E-01 -3.83563155913E-01 +1.27460277237E-03 +4.95347013823E-04 +1.17897060216E-03 +4.35505467650E-04 +5.37226188143E-01 -2.78493528108E-01
2.89000000000E+09 +3.08408503599E-01 -3.92036587018E-01 +1.12409055353E-03 +2.79741808756E-04 +1.11351972512E-03 +3.11909493409E-04 +5.11536830417E-01 -2.97061449170E-01
2.89500000000E+09 +2.78475826511E-01 -3.98263749104E-01 +1.14886091749E-03 +3.74910810397E-04 +1.12910222696E-03 +3.93728892813E-04 +4.84295958131E-01 -3.14564112978E-01
2.90000000000E+09 +2.46978217397E-01 -4.03308016492E-01 +1.57969869714E-03 +4.01009701623E-04 +1.58331213279E-03 +4.74407810893E-04 +4.55547735243E-01 -3.31643428736E-01
2.90500000000E+09 +2.13626771396E-01 -4.06564952828E-01 +1.84236980177E-03 -1.68066424330E-04 +1.88537756196E-03 -1.63035116948E-04 +4.24592554586E-01 -3.47441832319E-01
2.91000000000E+09 +1.78351278971E-01 -4.06882143333E-01 +1.70523346858E-03 -7.43331717896E-04 +1.69321954621E-03 -7.90083564068E-04 +3.92756084626E-01 -3.61601187748E-01
2.91500000000E+09 +1.43024530680E-01 -4.03800461641E-01 +1.44460333177E-03 -8.49920378092E-04 +1.34766175487E-03 -8.16872324629E-04 +3.59686857285E-01 -3.73389529509E-01
2.92000000000E+09 +1.07945277524E-01 -3.97986264716E-01 +1.42277974025E-03 -1.26088560716E-03 +1.40178179454E-03 -1.23722554763E-03 +3.25604521562E-01 -3.83760494812E-01
2.92500000000E+09 +7.37185453847E-02 -3.91266343448E-01 +8.52350307355E-04 -1.47597495169E-03 +9.02351231195E-04 -1.32989048914E-03 +2.88940143847E-01 -3.91612881676E-01
2.93000000000E+09 +3.88992728129E-02 -3.82224921732E-01 +7.52518787506E-04 -1.22949428972E-03 +8.40655414211E-04 -1.14359879678E-03 +2.51036614848E-01 -3.96907401615E-01
2.93500000000E+09 +5.10747103516E-03 -3.70839127232E-01 +8.48008971622E-04 -1.54414491945E-03 +9.36294633867E-04 -1.49249610312E-03 +2.12403273947E-01 -4.00238629683E-01
2.94000000000E+09 -2.84295335283E-02 -3.57718178649E-01 +3.99237513923E-04 -1.78948339921E-03 +4.19316438431E-04 -1.79221787045E-03 +1.73438191521E-01 -4.01472482835E-01
2.94500000000E+09 -6.06853408818E-02 -3.41989839790E-01 +1.02133091106E-04 -1.67838208174E-03 +1.63936664931E-04 -1.64843988837E-03 +1.34269995656E-01 -4.01758176065E-01
2.95000000000E+09 -9.29475714587E-02 -3.24308104411E-01 -1.05883943475E-04 -1.85059265212E-03 -4.38973736679E-05 -1.93141324871E-03 +9.36341516860E-02 -3.98325459549E-01
2.95500000000E+09 -1.23935091028E-01 -3.02794869384E-01 -3.40603404526E-04 -1.57604001888E-03 -2.79574545704E-04 -1.63490648841E-03 +5.37700106615E-02 -3.91375442132E-01
2.96000000000E+09 -1.52212250748E-01 -2.78245584341E-01 -5.87993350869E-04 -2.10620539097E-03 -6.05131522640E-04 -2.22381612329E-03 +1.42694643908E-02 -3.81811364110E-01
2.96500000000E+09 -1.78349145210E-01 -2.52969344791E-01 -1.81709682037E-03 -1.58094678104E-03 -1.91385142527E-03 -1.61271787296E-03 -2.59834515279E-02 -3.70241275751E-01
2.97000000000E+09 -2.03559338668E-01 -2.24721964011E-01 -1.64595620894E-03 -6.80369577156E-04 -1.69467354954E-03 -5.59708007537E-04 -6.74100067112E-02 -3.54537175282E-01
2.97500000000E+09 -2.26174672966E-01 -1.95329195612E-01 -1.00345157179E-03 -2.49123221806E-04 -9.64330341855E-04 -2.48556025930E-04 -1.05642981791E-01 -3.35334041913E-01
2.98000000000E+09 -2.47915366489E-01 -1.64412611140E-01 -8.96831809559E-04 -7.82253057736E-04 -8.83870949667E-04 -8.05089779755E-04 -1.42890449384E-01 -3.15878748145E-01
2.98500000000E+09 -2.67324988904E-01 -1.32243824964E-01 -1.41542625651E-03 -7.04201004655E-04 -1.45098325599E-03 -6.94280554744E-04 -1.79571243671E-01 -2.92724186909E-01
2.99000000000E+09 -2.84633236022E-01 -9.89401337801E-02 -1.56838627767E-03 -2.54371934326E-04 -1.64875561065E-03 -3.30199494444E-04 -2.14809786028E-01 -2.67364907601E-01
2.99500000000E+09 -3.00115747750E-01 -6.64402464023E-02 -1.49925559351E-03 +1.02564298916E-04 -1.57178729525E-03 +1.45146595762E-04 -2.48911803116E-01 -2.37194064261E-01
3.00000000000E+09 -3.13891770513E-01 -3.32318065896E-02 -1.15503675350E-03 +4.46874066768E-04 -1.16794076832E-03 +5.71317190541E-04 -2.79108682136E-01 -2.04198126426E-01
3.00500000000E+09 -3.25482558414E-01 -4.09460901336E-04 -9.19931619761E-04 +2.36028278561E-04 -8.90583447742E-04 +2.35849596650E-04 -3.06726669756E-01 -1.70974938064E-01
3.01000000000E+09 -3.34364205843E-01 +3.22678015965E-02 -1.32675298871E-03 +1.28699450234E-04 -1.29561867632E-03 +1.05153148139E-04 -3.33627888931E-01 -1.36104697213E-01
3.01500000000E+09 -3.40515687706E-01 +6.47048580497E-02 -1.27097291064E-03 +7.87978022744E-04 -1.32558008172E-03 +7.50405259414E-04 -3.56988766510E-01 -9.84729826073E-02
3.02000000000E+09 -3.43448511723E-01 +9.63956877669E-02 -8.67765174845E-04 +1.11793386083E-03 -8.92896278875E-04 +9.88986918798E-04 -3.75955925649E-01 -5.99446714912E-02
3.02500000000E+09 -3.43165095395E-01 +1.27380183474E-01 -2.12444340310E-04 +1.04940788652E-03 -2.28135105597E-04 +1.08807168673E-03 -3.91236195139E-01 -2.07599893926E-02
3.03000000000E+09 -3.40284739879E-01 +1.57223178926E-01 -3.38382529273E-04 +1.10091497741E-04 -4.17978623284E-04 +9.43937856677E-05 -4.04280314905E-01 +1.78611477617E-02
3.03500000000E+09 -3.35512139711E-01 +1.86712506595E-01 -1.14054380766E-03 +4.98030669625E-04 -1.14600529676E-03 +4.93608356798E-04 -4.15415073286E-01 +5.75719059754E-02
3.04000000000E+09 -3.28000907482E-01 +2.16483761948E-01 -1.01369910744E-03 +1.35607795328E-03 -1.11254891472E-03 +1.30384154484E-03 -4.23143912168E-01 +9.79342906558E-02
3.04500000000E+09 -3.18484565739E-01 +2.45083366547E-01 -7.11759814168E-05 +1.63761150770E-03 -9.78237076007E-05 +1.71949057489E-03 -4.28505855737E-01 +1.37713833082E-01
3.05000000000E+09 -3.07355663359E-01 +2.73465885382E-01 +2.02153969209E-04 +1.01230346406E-03 +2.87802188338E-04 +1.01689972545E-03 -4.31050512009E-01 +1.77162228725E-01
3.05500000000E+09 -2.94911229745E-01 +3.00829053520E-01 +2.52039290457E-04 +9.76389544598E-04 +3.22412901664E-04 +9.49947107071E-04 -4.31199889201E-01 +2.15694828469E-01
3.06000000000E+09 -2.81563714576E-01 +3.27567875391E-01 -1.59478234814E-05 +8.55696060088E-04 -2.06187082966E-06 +8.41501325546E-04 -4.28694493581E-01 +2.53798355396E-01
3.06500000000E+09 -2.67590950754E-01 +3.53117788249E-01 +5.34095481453E-04 +1.16768620880E-03 +4.21790508183E-04 +1.11980329585E-03 -4.23676285683E-01 +2.90502937320E-01
3.07000000000E+09 -2.52454175333E-01 +3.77461060625E-01 +7.28899563966E-04 +8.96690556031E-04 +6.33742363221E-04 +9.52165411842E-04 -4.16803683957E-01 +3.26022512161E-01
