# Hz S RI R 50
! CMT, C1220, 16058040, 17.2.0/1
! Date: 15/08/2018 10:14:52
! Data: Format (Calibration Info)
! Freq                      S11: Re/Im (F2)                       S21: Re/Im (F2)                       S12: Re/Im (F2)                       S22: Re/Im (F2)            
2.50000000000E+09 +5.97199268161E-01 +6.32932316117E-01 -2.24198743309E-04 +1.05228722953E-04 -2.07371066541E-04 +1.07619617428E-04 +5.73089978868E-01 +7.16443582973E-01
2.50500000000E+09 +6.03645106526E-01 +6.25058888307E-01 -1.22156819975E-04 +1.50037410020E-04 -1.52192127761E-04 +1.76199230650E-04 +5.78720911136E-01 +7.10978688185E-01
2.51000000000E+09 +6.10003394538E-01 +6.16843300119E-01 -1.17779177442E-04 +1.51793220552E-04 -1.11911607658E-04 +1.42110158002E-04 +5.84026275396E-01 +7.05717238060E-01
2.51500000000E+09 +6.16283264085E-01 +6.09033460635E-01 -9.18123452169E-05 +1.30862196180E-04 -5.19671853029E-05 +1.00024333728E-04 +5.89242846970E-01 +7.00583322608E-01
2.52000000000E+09 +6.21987405648E-01 +6.01346883197E-01 -3.22776873183E-05 +1.46099707323E-04 -6.13018293800E-05 +9.72510468883E-05 +5.94336982088E-01 +6.94557453211E-01
2.52500000000E+09 +6.27128940974E-01 +5.94334470382E-01 -4.64926233854E-05 +9.45465865941E-06 -6.17520793010E-05 +3.27662051240E-05 +5.99944868485E-01 +6.88111175126E-01
2.53000000000E+09 +6.31886247568E-01 +5.87701084277E-01 -1.57114405366E-04 +3.72698830757E-05 -1.91556072348E-04 +5.57451644728E-05 +6.06203988700E-01 +6.81293825446E-01
2.53500000000E+09 +6.36428751508E-01 +5.81694287569E-01 -1.92362459160E-04 +1.59903112463E-04 -1.63502419402E-04 +1.59016495190E-04 +6.12205110707E-01 +6.74158678107E-01
2.54000000000E+09 +6.40579555672E-01 +5.75619869325E-01 -1.42108544409E-04 +1.55697418811E-04 -1.35093236270E-04 +1.69798989885E-04 +6.18057492872E-01 +6.67546076912E-01
2.54500000000E+09 +6.44861765187E-01 +5.69878565877E-01 -1.17345197077E-04 +2.25408361150E-04 -1.22835039709E-04 +2.25495483661E-04 +6.23902544246E-01 +6.61154153059E-01
2.55000000000E+09 +6.49638938901E-01 +5.63934491050E-01 -5.16993325231E-05 +2.34732096326E-04 -3.64582744943E-05 +1.99501178001E-04 +6.29231038832E-01 +6.54804896704E-01
2.55500000000E+09 +6.54950265183E-01 +5.57095303735E-01 +1.68656000082E-05 +1.71270821179E-04 +7.18635116786E-05 +1.79701854369E-04 +6.34183996390E-01 +6.48342845555E-01
2.56000000000E+09 +6.61085632327E-01 +5.49913736663E-01 +8.19829099035E-06 +1.02452912527E-04 -3.20682814666E-05 +9.48554920678E-05 +6.39342572426E-01 +6.41398523239E-01
2.56500000000E+09 +6.67357266643E-01 +5.41618326092E-01 -1.56197942690E-04 +6.38418952774E-05 -1.56536009557E-04 +6.00455762360E-05 +6.44875909520E-01 +6.33791163240E-01
2.57000000000E+09 +6.73397333128E-01 +5.33037867353E-01 -1.83343442736E-04 +2.41937748987E-04 -1.41289254767E-04 +2.67429648412E-04 +6.50220949314E-01 +6.25748599104E-01
2.57500000000E+09 +6.79420977387E-01 +5.24250063693E-01 -1.16323656745E-04 +3.38652883285E-04 -7.33305925856E-05 +2.85189957841E-04 +6.55661275140E-01 +6.18095314536E-01
2.58000000000E+09 +6.84779459598E-01 +5.15658129156E-01 +3.81088906383E-05 +3.92384879010E-04 +6.22815836758E-05 +3.02435348943E-04 +6.60662957911E-01 +6.10831396315E-01
2.58500000000E+09 +6.89968598391E-01 +5.06960955843E-01 +1.07546276257E-04 +3.29902190042E-04 +5.56295155703E-05 +2.82557515278E-04 +6.65541294257E-01 +6.03376590561E-01
2.59000000000E+09 +6.94582126256E-01 +4.98545558314E-01 +1.27458348689E-04 +2.53356624604E-04 +5.65633365170E-05 +2.21493570886E-04 +6.70126923519E-01 +5.95919908437E-01
2.59500000000E+09 +6.99081795101E-01 +4.90190254548E-01 +1.32806003941E-04 +2.24836876863E-04 +1.01655102347E-04 +2.67440765579E-04 +6.75042807355E-01 +5.88216824627E-01
2.60000000000E+09 +7.03127605530E-01 +4.81418576320E-01 +1.77816778113E-04 +1.80609526693E-04 +1.16758668741E-04 +1.89298405990E-04 +6.80023412866E-01 +5.79756778070E-01
2.60500000000E+09 +7.07308706183E-01 +4.72215699810E-01 +1.40024274327E-04 +1.67969021094E-04 +9.16116778213E-05 +2.29659616878E-04 +6.85362842784E-01 +5.71251812619E-01
2.61000000000E+09 +7.11659379729E-01 +4.62071444366E-01 +1.97978914305E-04 +2.09825538478E-04 +1.99043690773E-04 +2.33248866942E-04 +6.90744554890E-01 +5.62156466396E-01
2.61500000000E+09 +7.16057234336E-01 +4.50646570905E-01 +2.22764726396E-04 +2.13072752468E-04 +2.91176729908E-04 +1.52315428403E-04 +6.95469974441E-01 +5.53393992463E-01
2.62000000000E+09 +7.20094175349E-01 +4.38264908839E-01 +2.01211083507E-04 +9.46996798881E-05 +2.43535867976E-04 +7.27340478343E-05 +7.00382212153E-01 +5.44318864183E-01
2.62500000000E+09 +7.23992052780E-01 +4.25221635459E-01 +1.39619259930E-04 +1.30086059908E-04 +1.58485912114E-04 +1.17735190244E-04 +7.05089713792E-01 +5.35470853772E-01
2.63000000000E+09 +7.27588800715E-01 +4.11971516543E-01 +1.44444982049E-04 +1.83340073133E-04 +1.66746538119E-04 +1.71145460293E-04 +7.09918824998E-01 +5.26412919820E-01
2.63500000000E+09 +7.30767799766E-01 +3.98859369204E-01 +2.39653658002E-04 +2.16077127440E-04 +2.04371004265E-04 +1.54515338207E-04 +7.14762112487E-01 +5.16950302373E-01
2.64000000000E+09 +7.33757490133E-01 +3.86277039892E-01 +2.65280285538E-04 +1.98223545233E-04 +2.28647320940E-04 +1.45859372630E-04 +7.19551017097E-01 +5.07155849288E-01
2.64500000000E+09 +7.36783028430E-01 +3.74384712711E-01 +2.42331530497E-04 +2.25803547081E-04 +2.30703947867E-04 +2.12162375095E-04 +7.24326905991E-01 +4.97278146803E-01
2.65000000000E+09 +7.39109402444E-01 +3.63192003352E-01 +2.92910119242E-04 +2.41631117184E-04 +3.14194459906E-04 +2.65871059203E-04 +7.28642991859E-01 +4.87136151992E-01
2.65500000000E+09 +7.41900851104E-01 +3.52430786815E-01 +4.77593273478E-04 +2.14219458492E-04 +4.92697522376E-04 +2.55466204989E-04 +7.32639836510E-01 +4.76590501652E-01
2.66000000000E+09 +7.44753327419E-01 +3.41486993345E-01 +5.21793580094E-04 +5.92883856306E-05 +5.66674333969E-04 +1.11178248640E-04 +7.36526265330E-01 +4.65472130237E-01
2.66500000000E+09 +7.47480221298E-01 +3.30316560884E-01 +5.35296116774E-04 +2.87983571605E-05 +5.77662487558E-04 -3.12835876024E-05 +7.40409598930E-01 +4.54259189713E-01
2.67000000000E+09 +7.49609322193E-01 +3.18215111348E-01 +6.15504252704E-04 -2.10228164782E-04 +5.88495810239E-04 -2.34814327934E-04 +7.44620466313E-01 +4.43728603681E-01
2.67500000000E+09 +7.51279141871E-01 +3.05771870910E-01 +4.56591173258E-04 -2.66475342284E-04 +3.98617431970E-04 -2.92680720674E-04 +7.48969578042E-01 +4.32613569174E-01
2.68000000000E+09 +7.52915900509E-01 +2.92555084439E-01 +4.44581265612E-04 -2.14571079300E-04 +4.02744977860E-04 -1.73448549916E-04 +7.52670127945E-01 +4.21150851170E-01
2.68500000000E+09 +7.53745116425E-01 +2.78710942350E-01 +4.46875100811E-04 -3.58614042959E-04 +4.56597903002E-04 -2.81610422305E-04 +7.55327890539E-01 +4.09522161541E-01
2.69000000000E+09 +7.54214583749E-01 +2.64815474671E-01 +4.10337727220E-04 -3.74583900088E-04 +3.93630761408E-04 -3.75263105771E-04 +7.57879301404E-01 +3.97647255583E-01
2.69500000000E+09 +7.54527360368E-01 +2.50821413726E-01 +3.94325961488E-04 -3.34075215409E-04 +3.71982672909E-04 -3.63644671392E-04 +7.60515925840E-01 +3.85207284815E-01
2.70000000000E+09 +7.54830040549E-01 +2.37229608805E-01 +4.70436070198E-04 -5.47726320434E-04 +4.23265791084E-04 -4.68093083037E-04 +7.63738448570E-01 +3.71819492012E-01
2.70500000000E+09 +7.55566424225E-01 +2.23913725287E-01 +2.52794799371E-04 -6.72859069775E-04 +3.12120507980E-04 -6.47518374869E-04 +7.66194204275E-01 +3.58163371060E-01
2.71000000000E+09 +7.56744495423E-01 +2.10459512939E-01 +9.49671868122E-05 -6.81066006235E-04 +1.40809823520E-04 -6.97556345849E-04 +7.68972611699E-01 +3.45475663540E-01
2.71500000000E+09 +7.58450854287E-01 +1.96545554788E-01 -1.43028989876E-04 -6.48524715109E-04 -1.47575373404E-04 -7.39437231791E-04 +7.71574572997E-01 +3.32878526443E-01
2.72000000000E+09 +7.59794036317E-01 +1.81845118216E-01 -2.26668337415E-04 -3.71669718179E-04 -2.35866329336E-04 -4.03457348516E-04 +7.73498570476E-01 +3.20235086466E-01
2.72500000000E+09 +7.60713286794E-01 +1.66032272143E-01 +7.11438094850E-05 -2.67087586067E-04 +2.23046701137E-05 -2.54817492171E-04 +7.74925762145E-01 +3.07033636989E-01
2.73000000000E+09 +7.60440689179E-01 +1.49915070632E-01 +8.25813573781E-05 -5.32423530568E-04 +2.15263048644E-05 -5.11737765944E-04 +7.76281170789E-01 +2.92903557426E-01
2.73500000000E+09 +7.59002043333E-01 +1.33180927889E-01 -1.39200855028E-04 -5.48686409719E-04 -1.04473851330E-04 -4.58824285254E-04 +7.77431257159E-01 +2.78038007356E-01
2.74000000000E+09 +7.56623626443E-01 +1.16160480450E-01 -2.33976210157E-04 -4.43518655056E-04 -1.93208258731E-04 -4.39342212487E-04 +7.78923989595E-01 +2.62931346244E-01
2.74500000000E+09 +7.52932307388E-01 +9.90066726753E-02 -1.37179438524E-04 -3.09830646022E-04 -9.37928203256E-05 -3.34094789831E-04 +7.80107649835E-01 +2.47546559028E-01
2.75000000000E+09 +7.48155281752E-01 +8.18032952452E-02 -1.02166199048E-04 -4.25381102110E-04 -5.83297846658E-05 -4.39623873868E-04 +7.81084415963E-01 +2.32666572653E-01
2.75500000000E+09 +7.42732529615E-01 +6.54651696054E-02 -1.72952324621E-04 -5.54037505092E-04 -9.58265491982E-05 -6.19378036214E-04 +7.81017610890E-01 +2.17217684799E-01
2.76000000000E+09 +7.37904021273E-01 +4.90937734940E-02 -3.06440380384E-04 -5.95370939130E-04 -2.97145005966E-04 -6.38019130451E-04 +7.80431822985E-01 +2.01752458286E-01
2.76500000000E+09 +7.33128141564E-01 +3.21698356473E-02 -4.74045855818E-04 -4.72628129674E-04 -5.04658870896E-04 -4.86756992571E-04 +7.79582018651E-01 +1.84795317771E-01
2.77000000000E+09 +7.28303908272E-01 +1.44427593054E-02 -3.63871962137E-04 -3.86217181057E-04 -3.54453056204E-04 -3.95530498054E-04 +7.78054370561E-01 +1.66954818943E-01
2.77500000000E+09 +7.23559606229E-01 -4.16822110784E-03 -3.35240145391E-04 -3.76319452594E-04 -3.85308631840E-04 -4.24290934346E-04 +7.76169823550E-01 +1.48834026870E-01
2.78000000000E+09 +7.18390088268E-01 -2.34604906330E-02 -5.18496352830E-04 -5.09502784104E-04 -5.42991426932E-04 -4.19611497967E-04 +7.74121082373E-01 +1.30566616573E-01
2.78500000000E+09 +7.12371502573E-01 -4.36020150620E-02 -5.91477563480E-04 -4.92224421085E-04 -6.07785984318E-04 -4.02953215739E-04 +7.71423730425E-01 +1.12714194411E-01
2.79000000000E+09 +7.05562121112E-01 -6.41863960774E-02 -8.38546394907E-04 -3.39402832328E-04 -8.44415947908E-04 -2.72300429561E-04 +7.68119959774E-01 +9.53715833074E-02
2.79500000000E+09 +6.97393595661E-01 -8.48326135516E-02 -9.17333799176E-04 +3.50613217276E-06 -8.46984714347E-04 +1.61904455032E-05 +7.63922061966E-01 +7.75878903669E-02
2.80000000000E+09 +6.87502502011E-01 -1.04859881870E-01 -5.95719773939E-04 +2.32426002018E-04 -6.33067923939E-04 +2.60202858465E-04 +7.59119158029E-01 +5.90803953571E-02
2.80500000000E+09 +6.76951284318E-01 -1.23325508122E-01 -3.12264502802E-04 -4.37941489660E-05 -3.72719600097E-04 -7.71307594071E-05 +7.52991688468E-01 +3.95890901396E-02
2.81000000000E+09 +6.65634708988E-01 -1.41178645097E-01 -6.08054116412E-04 -2.42532354651E-04 -6.74588846977E-04 -3.35323809852E-04 +7.46023127107E-01 +2.01700294693E-02
2.81500000000E+09 +6.53452471562E-01 -1.58431025362E-01 -8.80815409530E-04 -8.12680615657E-05 -9.07713091599E-04 -2.45176683952E-05 +7.38836647037E-01 +7.77322917135E-04
2.82000000000E+09 +6.40102309737E-01 -1.75531454076E-01 -1.08443921694E-03 +2.08454550394E-04 -1.07697739263E-03 +2.60016915111E-04 +7.31448857137E-01 -1.90398142043E-02
2.82500000000E+09 +6.25795517548E-01 -1.92555958497E-01 -8.27369846604E-04 +5.60034647040E-04 -7.04413764856E-04 +5.43487438049E-04 +7.22018910601E-01 -3.92599191239E-02
2.83000000000E+09 +6.09896711702E-01 -2.09895224978E-01 -5.43451162722E-04 +4.57174176097E-04 -4.87436244446E-04 +4.60054674702E-04 +7.11960223803E-01 -5.86721212641E-02
2.83500000000E+09 +5.92891909955E-01 -2.27781942267E-01 -5.92262763579E-04 +3.99648424637E-04 -6.04003658880E-04 +3.75920651258E-04 +7.00671614650E-01 -7.85230297422E-02
2.84000000000E+09 +5.74088869041E-01 -2.46452475343E-01 -5.13553015892E-04 +5.21720307933E-04 -5.27924889516E-04 +5.75543085916E-04 +6.89252460728E-01 -9.79121544783E-02
2.84500000000E+09 +5.52918824854E-01 -2.65414979407E-01 -6.08792571369E-04 +4.48283061477E-04 -5.78951065867E-04 +3.99023117389E-04 +6.77031087023E-01 -1.18649344118E-01
2.85000000000E+09 +5.30085963589E-01 -2.84014718758E-01 -5.85066391068E-04 +7.60222647944E-04 -5.44711078940E-04 +8.06649686066E-04 +6.62912494959E-01 -1.39491118053E-01
2.85500000000E+09 +5.05632625858E-01 -3.01952177610E-01 -1.66452310965E-04 +4.22105123447E-04 -1.21030400123E-04 +4.51239141650E-04 +6.47686233809E-01 -1.59370813963E-01
2.86000000000E+09 +4.80515244564E-01 -3.18689519846E-01 -7.13243969026E-04 +2.26584952910E-04 -6.72206690994E-04 +2.43685866330E-04 +6.32009641861E-01 -1.79563790628E-01
2.86500000000E+09 +4.54998611192E-01 -3.34133481669E-01 -1.05860316957E-03 +8.00154998775E-04 -1.08526247579E-03 +7.45322351976E-04 +6.14642319357E-01 -1.99771771069E-01
2.87000000000E+09 +4.29406355042E-01 -3.48596154089E-01 -6.67890793102E-04 +1.24862304954E-03 -6.73648128021E-04 +1.33354219413E-03 +5.95975977990E-01 -2.19703274321E-01
2.87500000000E+09 +4.03286526803E-01 -3.62096557180E-01 -4.76166492272E-04 +1.25839500681E-03 -4.42658905053E-04 +1.29667990043E-03 +5.75553238755E-01 -2.39216427987E-01
2.88000000000E+09 +3.76356133897E-01 -3.74222778030E-01 -3.37493527387E-04 +1.55312862255E-03 -2.95593618166E-04 +1.54387051293E-03 +5.54513592526E-01 -2.57613148341E-01
2.88500000000E+09 +3.48623784209E-01 -3.84951884267E-01 +2.22736502427E-04 +1.53189132790E-03 +2.01384949624E-04 +1.45257765621E-03 +5.31912885316E-01 -2.76595893317E-01
2.89000000000E+09 +3.19591581092E-01 -3.94045498228E-01 +1.73846592095E-04 +1.36306121110E-03 +1.21044178885E-04 +1.25765477841E-03 +5.06683647306E-01 -2.94329107348E-01
2.89500000000E+09 +2.89042851031E-01 -4.01646755287E-01 +3.41199744211E-04 +1.65383267275E-03 +2.20706537563E-04 +1.56452096651E-03 +4.79964881285E-01 -3.11813033581E-01
2.90000000000E+09 +2.57121720825E-01 -4.06811405331E-01 +7.82332105099E-04 +1.82695282726E-03 +6.25962879847E-04 +1.86752465561E-03 +4.51104164047E-01 -3.28663070393E-01
2.90500000000E+09 +2.23669701004E-01 -4.10187443088E-01 +1.14357921359E-03 +1.62602086131E-03 +1.14915405887E-03 +1.71148842192E-03 +4.20430359420E-01 -3.43510598350E-01
2.91000000000E+09 +1.88830557180E-01 -4.10658801499E-01 +1.91564825473E-03 +1.45967349403E-03 +1.91888322687E-03 +1.41052445956E-03 +3.89077821108E-01 -3.57322128956E-01
2.91500000000E+09 +1.53909833241E-01 -4.08490057343E-01 +2.04568424696E-03 +5.99813768449E-04 +1.98915468900E-03 +4.79768610812E-04 +3.56376355276E-01 -3.68095188173E-01
2.92000000000E+09 +1.18532800139E-01 -4.04343670816E-01 +1.65647090328E-03 -1.75740279181E-05 +1.49077251774E-03 +5.79818837490E-05 +3.23523008636E-01 -3.77711443684E-01
2.92500000000E+09 +8.31336317945E-02 -3.97819466584E-01 +1.25993391708E-03 +1.10113614209E-04 +1.21087178256E-03 +2.07981901773E-04 +2.87818430960E-01 -3.85864660107E-01
2.93000000000E+09 +4.81176321873E-02 -3.89132543292E-01 +1.43684341675E-03 +4.39928319459E-04 +1.42218524123E-03 +5.37936379619E-04 +2.50100065004E-01 -3.90811494709E-01
2.93500000000E+09 +1.36646721109E-02 -3.78248505216E-01 +1.90816175830E-03 -1.34679764025E-04 +1.95966446291E-03 -3.50814315963E-05 +2.12590778769E-01 -3.93751971396E-01
2.94000000000E+09 -1.98837397536E-02 -3.65783696832E-01 +1.62032010496E-03 -4.89527135035E-04 +1.70674584893E-03 -4.25363717777E-04 +1.74723674443E-01 -3.95496437538E-01
2.94500000000E+09 -5.35872368295E-02 -3.51053229131E-01 +1.55938935221E-03 -6.37589091446E-04 +1.57664555711E-03 -5.77049306753E-04 +1.36252586768E-01 -3.96012983928E-01
2.95000000000E+09 -8.64927823009E-02 -3.33321919467E-01 +1.36629731160E-03 -9.06275741325E-04 +1.45619486643E-03 -8.44924587647E-04 +9.62458323864E-02 -3.92966877705E-01
2.95500000000E+09 -1.18231691086E-01 -3.12265741272E-01 +1.38427988314E-03 -1.02850721223E-03 +1.47208978645E-03 -1.03111060858E-03 +5.73995391874E-02 -3.86375446143E-01
2.96000000000E+09 -1.47483950095E-01 -2.88235230537E-01 +1.03007727236E-03 -1.52120174453E-03 +1.15414487424E-03 -1.67624082861E-03 +1.87167533420E-02 -3.76972088093E-01
2.96500000000E+09 -1.74961345061E-01 -2.62753958044E-01 +1.44671966069E-04 -1.35011374279E-03 +1.59971391494E-04 -1.46314474500E-03 -2.05918199462E-02 -3.66453851499E-01
2.97000000000E+09 -2.00958393918E-01 -2.34905061917E-01 +1.70744944373E-04 -7.77639872159E-04 +1.49570718067E-04 -7.97860712759E-04 -6.18415429852E-02 -3.51883223083E-01
2.97500000000E+09 -2.25473432076E-01 -2.05004197998E-01 +6.84180225530E-04 -5.24593418131E-04 +6.31872082587E-04 -5.28259821313E-04 -1.00118590151E-01 -3.33418918976E-01
2.98000000000E+09 -2.47563522135E-01 -1.73100822401E-01 +9.30138270430E-04 -1.06839415692E-03 +9.06866172818E-04 -1.04923226903E-03 -1.37262147842E-01 -3.14809709456E-01
2.98500000000E+09 -2.67524438714E-01 -1.40592643736E-01 +5.48774182357E-04 -1.56102804011E-03 +5.84010371174E-04 -1.55492660274E-03 -1.73472027469E-01 -2.92643674514E-01
2.99000000000E+09 -2.85561140398E-01 -1.07194592877E-01 +1.88678530870E-04 -1.56933738481E-03 +1.77260654706E-04 -1.62244624718E-03 -2.09253594795E-01 -2.68514979173E-01
2.99500000000E+09 -3.01430265129E-01 -7.42755932785E-02 -1.31507661773E-04 -1.52259774333E-03 -1.61310105571E-04 -1.46379669264E-03 -2.43604222603E-01 -2.38568842968E-01
3.00000000000E+09 -3.16578803876E-01 -4.10767230702E-02 -3.50237282168E-04 -1.28263309324E-03 -4.15635950961E-04 -1.08044277550E-03 -2.73946509815E-01 -2.06486530799E-01
3.00500000000E+09 -3.28895592679E-01 -7.02470237388E-03 -2.47092648589E-04 -1.12512417577E-03 -2.38968198032E-04 -9.96422184319E-04 -3.02414698442E-01 -1.73716717868E-01
3.01000000000E+09 -3.38111428612E-01 +2.63842099161E-02 -5.21608717964E-04 -1.42272850743E-03 -4.59446672974E-04 -1.32530322467E-03 -3.29473022207E-01 -1.38880634300E-01
3.01500000000E+09 -3.44570966288E-01 +5.96313134382E-02 -6.31033422214E-04 -1.09707393958E-03 -5.42746226077E-04 -1.07523454660E-03 -3.53119256943E-01 -1.02585810194E-01
3.02000000000E+09 -3.47572143173E-01 +9.17401272837E-02 -7.02455917960E-04 -1.02377645736E-03 -6.56054390718E-04 -1.05691238734E-03 -3.73493683006E-01 -6.47749449289E-02
3.02500000000E+09 -3.48053463371E-01 +1.23098248968E-01 -5.42559401073E-04 -9.13905883096E-04 -5.44067740616E-04 -9.15942246016E-04 -3.89535211873E-01 -2.55454992719E-02
3.03000000000E+09 -3.45691694049E-01 +1.53987061045E-01 -8.84898812257E-04 -1.55936096571E-03 -8.32841010651E-04 -1.53138887470E-03 -4.03152029998E-01 +1.28616125443E-02
3.03500000000E+09 -3.40997522805E-01 +1.84382898268E-01 -1.90126530491E-03 -9.97674123293E-04 -1.89446126292E-03 -1.00024662908E-03 -4.15047812282E-01 +5.26457078343E-02
3.04000000000E+09 -3.33513857332E-01 +2.14750053205E-01 -1.66886049409E-03 +1.30473864100E-05 -1.68689800305E-03 -5.17340154876E-05 -4.23682401128E-01 +9.32178490649E-02
3.04500000000E+09 -3.24111789077E-01 +2.44256270124E-01 -1.16329969764E-03 +2.31562489199E-04 -1.16408960616E-03 +2.48503517830E-04 -4.29772471444E-01 +1.33383780111E-01
3.05000000000E+09 -3.12989180943E-01 +2.73434558674E-01 -8.23534006395E-04 +4.91859381414E-05 -8.40310137502E-04 +1.04412221239E-04 -4.33088292804E-01 +1.73489671320E-01
3.05500000000E+09 -3.00479787696E-01 +3.01690022371E-01 -7.06272985127E-04 -1.28777013898E-04 -7.36714569645E-04 -1.46428166259E-04 -4.33168801308E-01 +2.12549177428E-01
3.06000000000E+09 -2.86754773154E-01 +3.29356519982E-01 -1.16464419413E-03 -1.76765836266E-04 -1.12451693470E-03 -1.51061059215E-04 -4.31094933610E-01 +2.50466252862E-01
3.06500000000E+09 -2.72039774144E-01 +3.55350221294E-01 -1.18407783988E-03 +1.92528863560E-04 -1.14444047306E-03 +2.33630526218E-04 -4.27303500062E-01 +2.87373334604E-01
3.07000000000E+09 -2.57224489386E-01 +3.80011575094E-01 -1.08040081763E-03 +4.96368187397E-04 -1.14921654172E-03 +4.26613869550E-04 -4.20712270898E-01 +3.24014286895E-01
