# Hz S RI R 50
! CMT, C1220, 16058040, 17.2.0/1
! Date: 15/08/2018 10:19:45
! Data: Format (Calibration Info)
! Freq                      S11: Re/Im (F2)                       S21: Re/Im (F2)                       S12: Re/Im (F2)                       S22: Re/Im (F2)            
2.50000000000E+09 +5.96632775047E-01 +6.35061260616E-01 -2.09215483574E-04 +2.77801318850E-04 -2.55112680517E-04 +2.89557262434E-04 +5.73852615610E-01 +7.16598215748E-01
2.50500000000E+09 +6.03069111713E-01 +6.27340219665E-01 -1.85414108325E-04 +3.73017817505E-04 -1.62045141862E-04 +4.04385181693E-04 +5.79316956691E-01 +7.11098632090E-01
2.51000000000E+09 +6.09600518366E-01 +6.19047136885E-01 -3.34718839884E-05 +3.61222421513E-04 +3.38256031980E-05 +3.11188541311E-04 +5.84756836981E-01 +7.05770476967E-01
2.51500000000E+09 +6.15746671334E-01 +6.11130014756E-01 +5.31603676244E-06 +2.85827569133E-04 -1.05380771087E-05 +2.45208628982E-04 +5.89914132238E-01 +7.00492905839E-01
2.52000000000E+09 +6.21666875865E-01 +6.03303066754E-01 +4.98156507383E-05 +3.10113059461E-04 -2.53120598635E-05 +2.96032132679E-04 +5.95236627082E-01 +6.94576175472E-01
2.52500000000E+09 +6.26992510253E-01 +5.95896447131E-01 +3.39664737232E-05 +2.47665683837E-04 +4.06006077226E-06 +2.80951507872E-04 +6.00692482673E-01 +6.88023654451E-01
2.53000000000E+09 +6.31607313565E-01 +5.89123858301E-01 +5.30318843623E-05 +2.94643581777E-04 +4.79288780009E-05 +2.96952951571E-04 +6.06856852556E-01 +6.81276828692E-01
2.53500000000E+09 +6.36047940724E-01 +5.82841376823E-01 +6.98456934804E-05 +2.90006254812E-04 +1.14995066154E-04 +2.48576670542E-04 +6.12921389795E-01 +6.74332785717E-01
2.54000000000E+09 +6.40215380367E-01 +5.76709666637E-01 +8.02229887019E-05 +3.18126485334E-04 +1.14211841101E-04 +3.21397065184E-04 +6.18637620293E-01 +6.67647562582E-01
2.54500000000E+09 +6.44322179961E-01 +5.71006405030E-01 +2.05805354220E-04 +3.22033638547E-04 +1.94823672978E-04 +3.27004665419E-04 +6.24471272072E-01 +6.61309642475E-01
2.55000000000E+09 +6.49205734075E-01 +5.65070064508E-01 +3.37150351201E-04 +2.54739095836E-04 +3.18172742200E-04 +2.90804396179E-04 +6.29874520670E-01 +6.54797586358E-01
2.55500000000E+09 +6.54784270083E-01 +5.58196784557E-01 +3.39549198794E-04 +1.11930172406E-04 +3.94872328801E-04 +1.78415266572E-04 +6.35002507051E-01 +6.48290114368E-01
2.56000000000E+09 +6.60845154651E-01 +5.50793495054E-01 +2.35779577892E-04 -6.24575284639E-05 +3.26314980261E-04 -5.41195462634E-05 +6.40414671069E-01 +6.41156621003E-01
2.56500000000E+09 +6.67066096719E-01 +5.42393780034E-01 +9.49909182102E-05 -5.24426311312E-05 +8.80510488615E-05 -6.61319088536E-05 +6.45993978805E-01 +6.33452575775E-01
2.57000000000E+09 +6.73302989748E-01 +5.33692507491E-01 +4.57984528149E-05 +1.77469743268E-04 +7.97768764970E-05 +1.55730465926E-04 +6.51361309625E-01 +6.25489467115E-01
2.57500000000E+09 +6.79262703048E-01 +5.24726719461E-01 +1.74819387077E-04 +1.47433761008E-04 +1.84909744836E-04 +1.14940471141E-04 +6.56438211948E-01 +6.17666496754E-01
2.58000000000E+09 +6.84789111914E-01 +5.15909568997E-01 +2.01561016138E-04 +1.48978025021E-04 +1.85241433959E-04 +1.03753960242E-04 +6.61362777507E-01 +6.10355258674E-01
2.58500000000E+09 +6.89965957402E-01 +5.06925420733E-01 +2.37961097709E-04 +5.93770847563E-05 +1.91581843818E-04 +9.40993139772E-05 +6.66159880416E-01 +6.02628651039E-01
2.59000000000E+09 +6.94420407287E-01 +4.98238926240E-01 +1.61711761116E-04 -9.00616951960E-06 +1.24167814121E-04 +6.03334614494E-06 +6.70677712304E-01 +5.95050056929E-01
2.59500000000E+09 +6.98659776172E-01 +4.89737625441E-01 +8.44250405648E-05 +1.16909931275E-04 +9.79729167604E-05 +1.00842661529E-04 +6.75406858276E-01 +5.87013369270E-01
2.60000000000E+09 +7.02548597714E-01 +4.81151415222E-01 +1.90944077625E-04 +1.86984853047E-04 +1.60021576119E-04 +1.64885538181E-04 +6.80322770603E-01 +5.78583036362E-01
2.60500000000E+09 +7.06562940364E-01 +4.71804662268E-01 +2.06248016738E-04 +1.80678512535E-04 +2.32267812867E-04 +1.53300795642E-04 +6.85338244915E-01 +5.70214470425E-01
2.61000000000E+09 +7.10797149979E-01 +4.61674841930E-01 +2.82338480145E-04 +1.75772380481E-04 +2.84612790882E-04 +1.83912579187E-04 +6.90491308011E-01 +5.61485323552E-01
2.61500000000E+09 +7.15140235134E-01 +4.50454182328E-01 +3.56523307009E-04 +1.23759732060E-04 +3.51338485982E-04 +1.06027037973E-04 +6.95298434425E-01 +5.52778992771E-01
2.62000000000E+09 +7.19298325262E-01 +4.37991661402E-01 +4.25576648938E-04 -3.01737508901E-05 +4.31305976771E-04 -2.24124203561E-05 +6.99926961263E-01 +5.43849324112E-01
2.62500000000E+09 +7.23107109984E-01 +4.24817443417E-01 +3.46835975694E-04 +1.59480183268E-05 +3.44672775522E-04 -3.36471998101E-05 +7.04688078461E-01 +5.34950786322E-01
2.63000000000E+09 +7.26722452048E-01 +4.11417053988E-01 +3.88660834066E-04 +8.09281092707E-06 +3.38113937361E-04 -5.76912410521E-05 +7.09377353957E-01 +5.25986097970E-01
2.63500000000E+09 +7.29877216166E-01 +3.98035764673E-01 +3.77520202148E-04 -6.39084617960E-05 +3.44438736073E-04 -7.46260566581E-05 +7.14420473782E-01 +5.16685403684E-01
2.64000000000E+09 +7.32749870243E-01 +3.85222789529E-01 +4.56567376819E-04 -9.46515528343E-05 +4.14168951892E-04 -1.03513128048E-04 +7.19369144377E-01 +5.06823447941E-01
2.64500000000E+09 +7.35542418669E-01 +3.73113989789E-01 +3.99739557248E-04 -2.10271618645E-04 +4.17236008202E-04 -1.15056070978E-04 +7.24124540421E-01 +4.96967732616E-01
2.65000000000E+09 +7.37643223614E-01 +3.61780435959E-01 +3.75753186207E-04 -2.24165878508E-04 +4.27875301095E-04 -1.15479716656E-04 +7.28327458855E-01 +4.86956913512E-01
2.65500000000E+09 +7.40192377529E-01 +3.50947391072E-01 +4.27111462145E-04 -2.40282212125E-04 +5.27956857020E-04 -1.87314025805E-04 +7.32279774596E-01 +4.76513428644E-01
2.66000000000E+09 +7.42928835636E-01 +3.40111652029E-01 +4.56165552965E-04 -3.80423944221E-04 +5.29126601272E-04 -3.74840296784E-04 +7.36045088749E-01 +4.65406965708E-01
2.66500000000E+09 +7.45651022198E-01 +3.28787401769E-01 +4.71830202217E-04 -4.45951421390E-04 +4.55513874854E-04 -4.71621157230E-04 +7.39881097584E-01 +4.54189700650E-01
2.67000000000E+09 +7.47541198838E-01 +3.16538442636E-01 +3.09361814582E-04 -7.13543525031E-04 +2.66446772012E-04 -7.15893000766E-04 +7.43821644413E-01 +4.43457264614E-01
2.67500000000E+09 +7.48963768977E-01 +3.03969199529E-01 -8.37931898863E-05 -6.19982148836E-04 -8.38876855439E-05 -5.39195814406E-04 +7.48059767828E-01 +4.32335775539E-01
2.68000000000E+09 +7.50301227905E-01 +2.90680235559E-01 +5.36272280779E-05 -3.88811532968E-04 +7.09694490656E-05 -3.76516684590E-04 +7.51724387734E-01 +4.21095049435E-01
2.68500000000E+09 +7.51047920006E-01 +2.76580616291E-01 +1.24996486311E-04 -4.49909330366E-04 +1.32316444525E-04 -4.44852982924E-04 +7.54420142772E-01 +4.09578938919E-01
2.69000000000E+09 +7.51289550636E-01 +2.62107160244E-01 +1.14583660025E-04 -5.40259572542E-04 +8.69392562143E-05 -5.33914735407E-04 +7.56688236097E-01 +3.97962023060E-01
2.69500000000E+09 +7.51086941748E-01 +2.47846216410E-01 +4.73298954851E-05 -5.26578991986E-04 +2.83850661525E-05 -5.33769027149E-04 +7.59349190251E-01 +3.86059096737E-01
2.70000000000E+09 +7.50998128524E-01 +2.33948212533E-01 +4.66264588743E-06 -5.85800917352E-04 +1.02875015930E-05 -6.45068132483E-04 +7.62489592780E-01 +3.72983827315E-01
2.70500000000E+09 +7.51105673466E-01 +2.20677011398E-01 -9.94268844182E-05 -6.36367280794E-04 -9.41833420165E-05 -6.53486765331E-04 +7.65102433787E-01 +3.59463566827E-01
2.71000000000E+09 +7.51960018406E-01 +2.07447813634E-01 -2.43610279115E-04 -6.73322845886E-04 -2.19650319589E-04 -6.96520172163E-04 +7.67938751057E-01 +3.46781732657E-01
2.71500000000E+09 +7.53478784583E-01 +1.93435040425E-01 -3.69560384022E-04 -6.14781993497E-04 -4.61117096492E-04 -6.62700299573E-04 +7.70620510177E-01 +3.34244970876E-01
2.72000000000E+09 +7.54569753697E-01 +1.78724210577E-01 -3.99552060235E-04 -4.09850112603E-04 -4.58294841184E-04 -3.71946835330E-04 +7.72866109276E-01 +3.21688782099E-01
2.72500000000E+09 +7.55011916313E-01 +1.63090349416E-01 -2.09995005511E-04 -3.68981822372E-04 -2.39386301601E-04 -3.14803741590E-04 +7.74492679918E-01 +3.08581750501E-01
2.73000000000E+09 +7.54430136632E-01 +1.47082114340E-01 -2.97087947322E-04 -6.62895413518E-04 -2.83165360814E-04 -5.35389372358E-04 +7.75848342029E-01 +2.94731486548E-01
2.73500000000E+09 +7.52728962394E-01 +1.30329462903E-01 -4.86635081830E-04 -6.40009363518E-04 -4.03953346523E-04 -5.28633424124E-04 +7.77228925562E-01 +2.80164324847E-01
2.74000000000E+09 +7.49993580150E-01 +1.13589638925E-01 -7.33533896790E-04 -5.30572884101E-04 -6.31567156252E-04 -5.51216925482E-04 +7.78981205459E-01 +2.65180392175E-01
2.74500000000E+09 +7.46036182134E-01 +9.64807570925E-02 -7.50572594960E-04 -2.21105807301E-04 -6.60625182439E-04 -3.52110360625E-04 +7.80192674333E-01 +2.49911016018E-01
2.75000000000E+09 +7.40708655214E-01 +7.93892170128E-02 -6.13054622113E-04 -2.32736995750E-04 -5.95356880375E-04 -2.62470131189E-04 +7.81203361729E-01 +2.34860509221E-01
2.75500000000E+09 +7.34876060092E-01 +6.29420754810E-02 -6.69911098003E-04 -3.57184705095E-04 -7.01763508737E-04 -4.10549736777E-04 +7.81353734048E-01 +2.19339042809E-01
2.76000000000E+09 +7.29460970516E-01 +4.69738049655E-02 -8.72675909082E-04 -3.16947096063E-04 -8.76643444967E-04 -2.70203279761E-04 +7.81018460759E-01 +2.03855818475E-01
2.76500000000E+09 +7.24682213590E-01 +3.03114235322E-02 -9.95985250711E-04 -1.37638637114E-04 -1.12128768685E-03 -1.07198658759E-04 +7.80326365284E-01 +1.86991583704E-01
2.77000000000E+09 +7.19541331417E-01 +1.24331516241E-02 -1.00195824190E-03 +1.06134209641E-04 -1.01085897149E-03 +1.19355907998E-04 +7.79322855090E-01 +1.69330608206E-01
2.77500000000E+09 +7.14401837530E-01 -5.97058042210E-03 -9.33529764961E-04 +2.48788028626E-04 -9.24395321925E-04 +3.17244251064E-04 +7.77460518237E-01 +1.51207171981E-01
2.78000000000E+09 +7.08790238779E-01 -2.52488478200E-02 -1.01010130053E-03 +3.31649113604E-04 -9.76903945121E-04 +3.44527708448E-04 +7.75768393795E-01 +1.33165411719E-01
2.78500000000E+09 +7.02304487348E-01 -4.49360146697E-02 -8.93662645839E-04 +4.58239414388E-04 -8.66605023919E-04 +5.04048065625E-04 +7.73423489820E-01 +1.15214645894E-01
2.79000000000E+09 +6.95393480561E-01 -6.50281154445E-02 -8.62586947797E-04 +5.64158785706E-04 -8.10533747214E-04 +5.54749826783E-04 +7.70098479888E-01 +9.74907738531E-02
2.79500000000E+09 +6.87230643223E-01 -8.53957986958E-02 -7.85692771768E-04 +7.97049890535E-04 -7.33549116291E-04 +7.17261292378E-04 +7.66017198877E-01 +7.94811273283E-02
2.80000000000E+09 +6.76715731041E-01 -1.05399237597E-01 -4.93957298281E-04 +9.08554105613E-04 -5.40850654436E-04 +8.12349230764E-04 +7.61479336289E-01 +6.09011472728E-02
2.80500000000E+09 +6.65511886681E-01 -1.23452244044E-01 -2.91377535945E-04 +7.01659455876E-04 -3.51588980047E-04 +6.52069209565E-04 +7.55887716305E-01 +4.13203240083E-02
2.81000000000E+09 +6.53663480205E-01 -1.40493628962E-01 -4.56815268747E-04 +5.68580476053E-04 -5.11475046431E-04 +5.67965805320E-04 +7.49279969968E-01 +2.16288333681E-02
2.81500000000E+09 +6.40987179925E-01 -1.56915146846E-01 -5.50777196921E-04 +7.52426134942E-04 -4.98904403137E-04 +7.78651543927E-04 +7.42056330800E-01 +2.02032623953E-03
2.82000000000E+09 +6.27641886700E-01 -1.72953006223E-01 -6.56782870355E-04 +9.40582814354E-04 -5.64009033113E-04 +9.84170167835E-04 +7.34757542300E-01 -1.78477863376E-02
2.82500000000E+09 +6.13412714749E-01 -1.89671991093E-01 -2.07139525006E-04 +1.24757004159E-03 -1.58764486411E-04 +1.20370989940E-03 +7.25421485927E-01 -3.82261038891E-02
2.83000000000E+09 +5.96645448711E-01 -2.06639252083E-01 -4.89338927320E-05 +9.08930256363E-04 -4.40272604194E-05 +8.96581228743E-04 +7.15495993984E-01 -5.78432607619E-02
2.83500000000E+09 +5.79115382979E-01 -2.23241403579E-01 -1.87792374174E-04 +1.04190919684E-03 -2.23345443641E-04 +1.03844223246E-03 +7.04418332262E-01 -7.82117966610E-02
2.84000000000E+09 +5.60641657256E-01 -2.40525199461E-01 +1.94517897338E-04 +1.20665552616E-03 +1.67546832602E-04 +1.18466941429E-03 +6.93011909574E-01 -9.82994457591E-02
2.84500000000E+09 +5.40056646606E-01 -2.58953188730E-01 +7.24278679627E-05 +9.92905272040E-04 +1.28875250594E-05 +9.68956600668E-04 +6.80699915743E-01 -1.19141965762E-01
2.85000000000E+09 +5.17441626975E-01 -2.77101345414E-01 +3.54246118125E-04 +1.47801488205E-03 +3.65279145173E-04 +1.50228370187E-03 +6.66944889669E-01 -1.40211433816E-01
2.85500000000E+09 +4.93066860924E-01 -2.94600365390E-01 +9.35745773464E-04 +9.53114150159E-04 +9.29408817762E-04 +8.83147548985E-04 +6.51813345608E-01 -1.60614117408E-01
2.86000000000E+09 +4.67538229763E-01 -3.10034425694E-01 +4.04636141232E-04 +5.39542801591E-04 +3.46056037212E-04 +5.25800368253E-04 +6.35751023076E-01 -1.81113754467E-01
2.86500000000E+09 +4.42854413628E-01 -3.24154937025E-01 +1.43298106320E-04 +1.25841880378E-03 +1.36203466877E-04 +1.26838957791E-03 +6.18167688233E-01 -2.01708660641E-01
2.87000000000E+09 +4.18244216506E-01 -3.38000640147E-01 +1.18760377064E-03 +1.33160790002E-03 +1.21731331533E-03 +1.33940788469E-03 +5.99068257574E-01 -2.22132148093E-01
2.87500000000E+09 +3.92666100017E-01 -3.51636077282E-01 +1.09865650517E-03 +7.54227527114E-04 +1.11234147529E-03 +7.28416505649E-04 +5.78128034815E-01 -2.42090225908E-01
2.88000000000E+09 +3.65264976816E-01 -3.63157145592E-01 +1.05751817243E-03 +7.54260459451E-04 +1.06422228314E-03 +7.10803042608E-04 +5.56657718198E-01 -2.60659319547E-01
2.88500000000E+09 +3.37697031228E-01 -3.72675708727E-01 +1.32252563997E-03 +7.05228726545E-04 +1.24815043745E-03 +5.96039684767E-04 +5.33742272687E-01 -2.79617534388E-01
2.89000000000E+09 +3.09624579735E-01 -3.80487989181E-01 +1.19657429106E-03 +3.87203797149E-04 +1.08433900185E-03 +4.29923668493E-04 +5.08050766364E-01 -2.97418810325E-01
2.89500000000E+09 +2.80476131519E-01 -3.87704878072E-01 +1.31484241646E-03 +7.21410281341E-04 +1.27644325109E-03 +7.42351983105E-04 +4.81263436465E-01 -3.14285123754E-01
2.90000000000E+09 +2.48947691926E-01 -3.92953963285E-01 +1.99774149775E-03 +3.48198228681E-04 +1.99033659697E-03 +4.09899236592E-04 +4.52534098500E-01 -3.31021601880E-01
2.90500000000E+09 +2.15645361411E-01 -3.96139405130E-01 +1.55524556004E-03 -2.75824805813E-04 +1.57568251450E-03 -3.04701029921E-04 +4.21509283962E-01 -3.46358403463E-01
2.91000000000E+09 +1.80857679669E-01 -3.95497977384E-01 +1.51297605498E-03 -1.03318546283E-05 +1.52330204368E-03 -4.36675386284E-05 +3.90105947596E-01 -3.59812405674E-01
2.91500000000E+09 +1.47155012959E-01 -3.92523702445E-01 +2.05499974914E-03 -8.62609066368E-05 +1.92565284013E-03 -1.45811937820E-04 +3.56983712362E-01 -3.71437833983E-01
2.92000000000E+09 +1.13504637566E-01 -3.87629368367E-01 +2.16960118028E-03 -1.43469577699E-03 +2.01557838745E-03 -1.32392918176E-03 +3.23208240352E-01 -3.80882803942E-01
2.92500000000E+09 +7.89963698375E-02 -3.82210513553E-01 +8.56670999215E-04 -1.42723894440E-03 +9.30073967780E-04 -1.29807971019E-03 +2.87413624062E-01 -3.88657337573E-01
2.93000000000E+09 +4.38476926966E-02 -3.72481474624E-01 +8.11237132920E-04 -7.48647268588E-04 +8.30678225833E-04 -7.02208418010E-04 +2.49864460463E-01 -3.93621413482E-01
2.93500000000E+09 +1.12515893943E-02 -3.60827969619E-01 +1.44823900921E-03 -1.00961701040E-03 +1.46156493276E-03 -9.37196030007E-04 +2.11893146693E-01 -3.96841442548E-01
2.94000000000E+09 -2.08083283930E-02 -3.48111706514E-01 +1.15700101322E-03 -1.33355588160E-03 +1.17764018184E-03 -1.33433843984E-03 +1.73271667067E-01 -3.98052674124E-01
2.94500000000E+09 -5.25699220767E-02 -3.33702008767E-01 +1.12797311157E-03 -1.49058045074E-03 +1.14154683742E-03 -1.46196268346E-03 +1.34347811573E-01 -3.97921566552E-01
2.95000000000E+09 -8.44201785628E-02 -3.16399800464E-01 +9.78306790498E-04 -2.08026256900E-03 +1.06018238244E-03 -2.04192102791E-03 +9.41138566061E-02 -3.94431383095E-01
2.95500000000E+09 -1.15223044174E-01 -2.95443765208E-01 +5.61206713290E-04 -2.09032052442E-03 +6.68063640048E-04 -2.14448678515E-03 +5.47019533513E-02 -3.87226759759E-01
2.96000000000E+09 -1.42668205597E-01 -2.71064026713E-01 +9.84205799847E-05 -2.58298461671E-03 +1.71502560181E-04 -2.72735412953E-03 +1.57205367224E-02 -3.77425924810E-01
2.96500000000E+09 -1.68321425726E-01 -2.46557130963E-01 -9.21284129235E-04 -2.10217005742E-03 -1.02856908834E-03 -2.11119463711E-03 -2.35938392604E-02 -3.65443467685E-01
2.97000000000E+09 -1.92771608151E-01 -2.19529023653E-01 -7.29147300820E-04 -1.51456520904E-03 -7.30639383107E-04 -1.56115367241E-03 -6.35610654202E-02 -3.49949985276E-01
2.97500000000E+09 -2.16005719544E-01 -1.91085820823E-01 -4.13266889176E-04 -1.56594704299E-03 -4.28614959588E-04 -1.54287677644E-03 -1.00819116541E-01 -3.31728858482E-01
2.98000000000E+09 -2.37570801092E-01 -1.60446174499E-01 -8.61825643284E-04 -2.05093734544E-03 -8.43814901825E-04 -2.06720174539E-03 -1.37870708919E-01 -3.12393653592E-01
2.98500000000E+09 -2.57044340831E-01 -1.28895858950E-01 -1.57588019277E-03 -1.70400788172E-03 -1.54401848473E-03 -1.80187042576E-03 -1.72988621767E-01 -2.89635162783E-01
2.99000000000E+09 -2.74208357162E-01 -9.63388373428E-02 -1.65912599486E-03 -1.12130927942E-03 -1.71676696119E-03 -1.12929340762E-03 -2.07860458081E-01 -2.65824787496E-01
2.99500000000E+09 -2.89720251022E-01 -6.44649091650E-02 -1.30533654140E-03 -9.52696084588E-04 -1.40525380193E-03 -9.41888328048E-04 -2.41759885667E-01 -2.36574561275E-01
3.00000000000E+09 -3.03444403629E-01 -3.20977027670E-02 -1.40202228239E-03 -1.10508504769E-03 -1.42320641554E-03 -1.03314892125E-03 -2.71960237136E-01 -2.04970899853E-01
3.00500000000E+09 -3.15773397542E-01 -4.34892872500E-05 -2.01167953785E-03 -1.15374367170E-03 -1.95258135399E-03 -1.03630754314E-03 -2.99983058719E-01 -1.72629586086E-01
3.01000000000E+09 -3.24858727433E-01 +3.24528166534E-02 -2.59870933091E-03 -4.57342213109E-04 -2.46128473147E-03 -4.70681729276E-04 -3.26779601539E-01 -1.38340460449E-01
3.01500000000E+09 -3.31070579018E-01 +6.42562597283E-02 -2.10334287276E-03 +4.80027745308E-04 -2.10287074845E-03 +4.58881927691E-04 -3.49989235415E-01 -1.02276454722E-01
3.02000000000E+09 -3.34438365242E-01 +9.52251604105E-02 -1.36412830247E-03 +4.84966239666E-04 -1.37661639809E-03 +4.35024835195E-04 -3.70003325359E-01 -6.48834415400E-02
3.02500000000E+09 -3.35010653741E-01 +1.25731159656E-01 -1.35001191617E-03 -1.80217644294E-05 -1.32068252389E-03 +6.13634403099E-07 -3.86071789672E-01 -2.61041237010E-02
3.03000000000E+09 -3.32850181384E-01 +1.55560624453E-01 -2.26554982341E-03 -2.48272068945E-04 -2.27601838182E-03 -2.34816272221E-04 -4.00367640654E-01 +1.18635441144E-02
3.03500000000E+09 -3.28533819937E-01 +1.85379303506E-01 -2.53191223111E-03 +1.11678963083E-03 -2.52654811578E-03 +1.09021979826E-03 -4.12536475590E-01 +5.18050666127E-02
3.04000000000E+09 -3.20819024708E-01 +2.14789051053E-01 -1.85267638380E-03 +1.80660044801E-03 -1.91733968334E-03 +1.87132618642E-03 -4.20800075612E-01 +9.21362629214E-02
3.04500000000E+09 -3.12042484838E-01 +2.42941224172E-01 -8.37754600180E-04 +1.80277616618E-03 -8.79519656841E-04 +1.87439850351E-03 -4.26511103291E-01 +1.31765411064E-01
3.05000000000E+09 -3.01495313997E-01 +2.71224318936E-01 -8.14599508255E-04 +1.26835132915E-03 -7.53669124205E-04 +1.30975158769E-03 -4.29664389297E-01 +1.71063979404E-01
3.05500000000E+09 -2.89584627017E-01 +2.99026744545E-01 -9.94108281371E-04 +1.38222433351E-03 -9.47091034922E-04 +1.45112585447E-03 -4.30192218649E-01 +2.09626951947E-01
3.06000000000E+09 -2.76286686182E-01 +3.25753819892E-01 -9.49070450397E-04 +2.11703222120E-03 -8.84628074235E-04 +2.05421211892E-03 -4.28145427952E-01 +2.47689493398E-01
3.06500000000E+09 -2.62621186432E-01 +3.51295836333E-01 +3.76414588572E-04 +2.10062995174E-03 +3.23396454918E-04 +2.00682460884E-03 -4.23952704707E-01 +2.84138267272E-01
3.07000000000E+09 -2.47797518885E-01 +3.75642085482E-01 +3.91714111050E-04 +1.34551677102E-03 +2.27526860951E-04 +1.31302496680E-03 -4.17968672633E-01 +3.19731202727E-01
