# Hz S RI R 50
! CMT, C1220, 16058040, 17.2.0/1
! Date: 15/08/2018 10:18:26
! Data: Format (Calibration Info)
! Freq                      S11: Re/Im (F2)                       S21: Re/Im (F2)                       S12: Re/Im (F2)                       S22: Re/Im (F2)            
2.50000000000E+09 +5.94941196258E-01 +6.34301530036E-01 -3.07242687152E-04 +7.71160502534E-05 -3.44386282571E-04 +2.19733172661E-05 +5.72972067526E-01 +7.16704782406E-01
2.50500000000E+09 +6.01247781587E-01 +6.26540791794E-01 -2.94377391853E-04 +8.17045735348E-05 -2.73808824908E-04 +1.22843098256E-04 +5.78595177917E-01 +7.11247561431E-01
2.51000000000E+09 +6.07649992891E-01 +6.18392241648E-01 -2.52630312396E-04 +1.12928205348E-04 -2.51074026849E-04 +1.62698068181E-04 +5.84030089548E-01 +7.06010477100E-01
2.51500000000E+09 +6.13799841419E-01 +6.10552567394E-01 -2.43969358172E-04 +1.57967283963E-04 -2.18136744004E-04 +1.59963647948E-04 +5.89283693981E-01 +7.00597318278E-01
2.52000000000E+09 +6.19625304624E-01 +6.02849934790E-01 -2.07379187803E-04 +1.25298902082E-04 -1.83508101049E-04 +1.30022255338E-04 +5.94401363249E-01 +6.94482746763E-01
2.52500000000E+09 +6.24869223602E-01 +5.95774808412E-01 -2.24050455396E-04 +1.49130756903E-04 -1.87019265041E-04 +1.07577400001E-04 +5.99921617998E-01 +6.88239401926E-01
2.53000000000E+09 +6.29582526254E-01 +5.89075516293E-01 -2.16966557705E-04 +1.84750874524E-04 -2.21271597262E-04 +1.57481769137E-04 +6.06090284538E-01 +6.81519201724E-01
2.53500000000E+09 +6.33986823357E-01 +5.83038050664E-01 -2.29909608833E-04 +2.18854296308E-04 -2.06496712086E-04 +2.07031043662E-04 +6.12117246194E-01 +6.74591628164E-01
2.54000000000E+09 +6.38125758395E-01 +5.77096846898E-01 -2.52144115372E-04 +2.64859965487E-04 -1.30641482227E-04 +2.85040990296E-04 +6.17894305962E-01 +6.67801075906E-01
2.54500000000E+09 +6.42364946463E-01 +5.71326457008E-01 -9.89297847765E-05 +3.49969027567E-04 -1.44158179068E-04 +3.51798844439E-04 +6.23620163985E-01 +6.61553122114E-01
2.55000000000E+09 +6.47170472391E-01 +5.65466463198E-01 +3.54119962836E-05 +3.35283087498E-04 -3.16227198450E-05 +3.43967737582E-04 +6.28994686311E-01 +6.55169043098E-01
2.55500000000E+09 +6.52713699306E-01 +5.58724466885E-01 +6.13249728313E-05 +2.25457268802E-04 +4.47184105877E-05 +2.74346401282E-04 +6.34295328776E-01 +6.48725632501E-01
2.56000000000E+09 +6.58915148609E-01 +5.51499349284E-01 -2.93947327208E-05 +1.28474524928E-04 +9.35021089505E-06 +1.39126454538E-04 +6.39526654844E-01 +6.41603679629E-01
2.56500000000E+09 +6.65320068473E-01 +5.43034119474E-01 -8.83669131108E-05 +9.99960161390E-05 -8.26827123999E-05 +1.41544347735E-04 +6.44983748835E-01 +6.33954021823E-01
2.57000000000E+09 +6.71366776005E-01 +5.34465411649E-01 -1.61134521620E-04 +2.17758589414E-04 -1.22669939109E-04 +2.76706820225E-04 +6.50329810592E-01 +6.26096419268E-01
2.57500000000E+09 +6.77391738292E-01 +5.25556417956E-01 -8.04185571061E-05 +3.33275951641E-04 -1.59654679942E-05 +2.67868842663E-04 +6.55571265403E-01 +6.18689402732E-01
2.58000000000E+09 +6.82879754837E-01 +5.16845488014E-01 +1.85446755339E-05 +3.36014987950E-04 +2.11433934236E-05 +2.87436597285E-04 +6.60610967583E-01 +6.11399387831E-01
2.58500000000E+09 +6.88001078884E-01 +5.07906098221E-01 +4.05015958351E-05 +2.48180616878E-04 +1.85781208190E-05 +2.39399330944E-04 +6.65530097071E-01 +6.03912072508E-01
2.59000000000E+09 +6.92447196621E-01 +4.99516025122E-01 -4.57678687324E-05 +2.92778729028E-04 -2.70130957634E-05 +2.41430016435E-04 +6.70340731313E-01 +5.96345902455E-01
2.59500000000E+09 +6.96768318111E-01 +4.91053730159E-01 -1.03872781520E-05 +3.22001998630E-04 -2.36429909693E-05 +3.79526232542E-04 +6.75192798233E-01 +5.88369731783E-01
2.60000000000E+09 +7.00676318301E-01 +4.82443839728E-01 +4.90921998431E-05 +3.16236600292E-04 +3.30705296887E-05 +2.84754358660E-04 +6.80302621750E-01 +5.79947480009E-01
2.60500000000E+09 +7.04799526712E-01 +4.73369767874E-01 +3.20830250519E-05 +2.85090678899E-04 -2.04033277093E-06 +3.68654181321E-04 +6.85605599503E-01 +5.71445875441E-01
2.61000000000E+09 +7.09004672168E-01 +4.63312157186E-01 +1.05338572258E-04 +3.85555040786E-04 +1.29273492378E-04 +4.79345287639E-04 +6.90873863179E-01 +5.62569045441E-01
2.61500000000E+09 +7.13511585627E-01 +4.52085388094E-01 +2.58622448845E-04 +4.10294099967E-04 +2.34959635404E-04 +4.15318243883E-04 +6.95639365616E-01 +5.53827383722E-01
2.62000000000E+09 +7.17461069011E-01 +4.39761629427E-01 +2.46740103354E-04 +2.92909264637E-04 +2.33037057844E-04 +3.23814411716E-04 +7.00264385804E-01 +5.44934369366E-01
2.62500000000E+09 +7.21322523849E-01 +4.26835916464E-01 +1.60631898554E-04 +3.77378503827E-04 +2.59266806826E-04 +3.85785708982E-04 +7.05165183376E-01 +5.36009776696E-01
2.63000000000E+09 +7.25089358054E-01 +4.13640664914E-01 +2.74293082257E-04 +4.17044228622E-04 +3.69176837539E-04 +3.59707261411E-04 +7.10099351090E-01 +5.26744595900E-01
2.63500000000E+09 +7.28426065585E-01 +4.00297888687E-01 +4.14889551434E-04 +3.80690223724E-04 +4.43357357382E-04 +2.98462951165E-04 +7.15004213338E-01 +5.17334224213E-01
2.64000000000E+09 +7.31248251255E-01 +3.87708160060E-01 +5.28351865672E-04 +3.39407243932E-04 +4.01096728695E-04 +2.41123008135E-04 +7.19875085629E-01 +5.07536725064E-01
2.64500000000E+09 +7.34237852698E-01 +3.75849596461E-01 +5.13467517032E-04 +2.54465086098E-04 +4.77058031193E-04 +2.49762786021E-04 +7.24697463740E-01 +4.97841750385E-01
2.65000000000E+09 +7.36533683321E-01 +3.64710041480E-01 +5.68184573501E-04 +2.17903300029E-04 +5.59026692014E-04 +2.50378128331E-04 +7.29005096888E-01 +4.87632859982E-01
2.65500000000E+09 +7.39268802118E-01 +3.54016984843E-01 +6.63332973006E-04 +1.98242755502E-04 +7.50522269925E-04 +2.00953284844E-04 +7.32998389783E-01 +4.77249611795E-01
2.66000000000E+09 +7.42185931749E-01 +3.43268882793E-01 +6.66692130888E-04 -1.39712481932E-05 +7.08791396787E-04 -1.10733130411E-05 +7.36960439538E-01 +4.65929761547E-01
2.66500000000E+09 +7.44930839642E-01 +3.32151318095E-01 +6.32155033857E-04 -2.31578493676E-05 +6.34375064688E-04 -8.56348048008E-05 +7.40893179670E-01 +4.54676921922E-01
2.67000000000E+09 +7.47280000028E-01 +3.20164635246E-01 +7.16693564348E-04 -2.01244512758E-04 +6.83873854766E-04 -2.72638444303E-04 +7.45057559608E-01 +4.43926361848E-01
2.67500000000E+09 +7.49095432109E-01 +3.07547569966E-01 +5.73010522064E-04 -2.90097389392E-04 +4.68157000128E-04 -3.13298879350E-04 +7.49326624584E-01 +4.32774642726E-01
2.68000000000E+09 +7.50598769667E-01 +2.94086220055E-01 +5.43483077360E-04 -2.44515569921E-04 +4.42852770998E-04 -2.29669461119E-04 +7.53134667602E-01 +4.21218397127E-01
2.68500000000E+09 +7.51307213217E-01 +2.80084899120E-01 +5.08488796763E-04 -3.55309765323E-04 +4.96566709600E-04 -3.23100013368E-04 +7.55790230550E-01 +4.09618064509E-01
2.69000000000E+09 +7.51596751535E-01 +2.65949951564E-01 +4.20612652884E-04 -3.35322580250E-04 +4.15249100548E-04 -3.10258505322E-04 +7.58210833415E-01 +3.97912798216E-01
2.69500000000E+09 +7.51800343436E-01 +2.51932379175E-01 +5.20470928011E-04 -2.75313316712E-04 +4.93627362190E-04 -3.44297721204E-04 +7.60902557202E-01 +3.85502270925E-01
2.70000000000E+09 +7.52109892832E-01 +2.38300060288E-01 +5.85271325862E-04 -5.44241358262E-04 +5.42391670429E-04 -5.11925882478E-04 +7.63866715411E-01 +3.72263148448E-01
2.70500000000E+09 +7.52752225199E-01 +2.24884082533E-01 +3.85985477898E-04 -5.58900653631E-04 +4.08790388503E-04 -5.29327083606E-04 +7.66643325035E-01 +3.58630001310E-01
2.71000000000E+09 +7.53846421544E-01 +2.11451280242E-01 +3.10723514703E-04 -6.85829569024E-04 +3.94333094057E-04 -6.80630217289E-04 +7.69322926027E-01 +3.45592522329E-01
2.71500000000E+09 +7.55475526411E-01 +1.97509572368E-01 +2.36129695856E-05 -6.83148101379E-04 +1.36896147782E-04 -7.16369344605E-04 +7.71796893296E-01 +3.33018015197E-01
2.72000000000E+09 +7.56954969732E-01 +1.82937108512E-01 +8.87479269736E-05 -4.00031552800E-04 +7.06990331592E-05 -4.12401403036E-04 +7.73908531095E-01 +3.20359023695E-01
2.72500000000E+09 +7.57842853672E-01 +1.67266496445E-01 +3.66467838813E-04 -4.28676965893E-04 +2.99811933451E-04 -4.40009889322E-04 +7.75293023161E-01 +3.07083359930E-01
2.73000000000E+09 +7.57569051029E-01 +1.51093077659E-01 +2.91513668025E-04 -8.24152172947E-04 +2.59032455650E-04 -7.37992481444E-04 +7.76650568785E-01 +2.93111476425E-01
2.73500000000E+09 +7.56201250224E-01 +1.34222938816E-01 +1.26303958388E-04 -8.35358985805E-04 +5.73666545640E-05 -6.96324409352E-04 +7.77914446591E-01 +2.78240303323E-01
2.74000000000E+09 +7.53727046935E-01 +1.17504853022E-01 -1.03869368257E-04 -7.68962474040E-04 -2.65312099049E-06 -7.16333953624E-04 +7.79153962164E-01 +2.63194098519E-01
2.74500000000E+09 +7.50119128611E-01 +1.00194658401E-01 -1.19771543166E-04 -6.83362337931E-04 -7.51802078645E-06 -6.68888466715E-04 +7.80280314871E-01 +2.47875599916E-01
2.75000000000E+09 +7.45300077472E-01 +8.29720615449E-02 -5.64133469911E-05 -7.41098396629E-04 -2.58478941890E-05 -8.31737267812E-04 +7.81078132080E-01 +2.32805294904E-01
2.75500000000E+09 +7.39766479520E-01 +6.63196036354E-02 -1.56081968550E-04 -8.96503559074E-04 -1.65405929810E-04 -9.55323593314E-04 +7.81163322069E-01 +2.17339314457E-01
2.76000000000E+09 +7.34646122723E-01 +4.99906788254E-02 -4.31268506338E-04 -9.36358521388E-04 -5.00122043673E-04 -1.03307276458E-03 +7.80481403042E-01 +2.01782452857E-01
2.76500000000E+09 +7.29845092376E-01 +3.31781524488E-02 -6.34898646339E-04 -7.54460475720E-04 -6.51130621144E-04 -7.92872177104E-04 +7.79549891869E-01 +1.84863931689E-01
2.77000000000E+09 +7.25025241416E-01 +1.55495490069E-02 -5.89351969389E-04 -6.70401947912E-04 -6.24890933911E-04 -6.41432513143E-04 +7.78305266232E-01 +1.67270731432E-01
2.77500000000E+09 +7.20433696779E-01 -3.06100568953E-03 -6.37312067048E-04 -6.60935760779E-04 -7.11858266338E-04 -5.98632924000E-04 +7.76438402879E-01 +1.49029452679E-01
2.78000000000E+09 +7.15463173566E-01 -2.24915721573E-02 -8.93510242440E-04 -6.38821651369E-04 -9.09828889474E-04 -5.89126651694E-04 +7.74288738442E-01 +1.30891111209E-01
2.78500000000E+09 +7.09432568206E-01 -4.29117404822E-02 -9.38631496026E-04 -4.89343252609E-04 -9.32323342377E-04 -4.23339593699E-04 +7.71419025544E-01 +1.12900330733E-01
2.79000000000E+09 +7.02650823221E-01 -6.32755011732E-02 -1.07468089069E-03 -2.76760515740E-04 -1.00170253056E-03 -2.08277828696E-04 +7.67815350834E-01 +9.56867639070E-02
2.79500000000E+09 +6.94635473833E-01 -8.38834111169E-02 -1.07705726362E-03 -5.14545522654E-05 -1.01345076680E-03 -7.11314134675E-06 +7.63757260593E-01 +7.80521846963E-02
2.80000000000E+09 +6.84848074114E-01 -1.04170426673E-01 -6.90626667846E-04 +2.00013326737E-04 -7.10107877049E-04 +1.53196110594E-04 +7.58972503554E-01 +5.92298650113E-02
2.80500000000E+09 +6.74120975086E-01 -1.22680383740E-01 -5.63633797640E-04 -1.74031455866E-04 -5.63930569603E-04 -1.99426573525E-04 +7.52839421703E-01 +3.99071414360E-02
2.81000000000E+09 +6.62656042392E-01 -1.40601999884E-01 -8.49743140369E-04 -2.34535110530E-04 -9.06770220922E-04 -2.42487468293E-04 +7.46069465233E-01 +2.05757273996E-02
2.81500000000E+09 +6.50298446142E-01 -1.57770633049E-01 -9.57812549017E-04 -7.93366244910E-05 -9.68378567808E-04 -4.37195438194E-05 +7.38523402642E-01 +1.45600232792E-03
2.82000000000E+09 +6.36888104980E-01 -1.74739843131E-01 -1.22638114403E-03 +1.10942206958E-04 -1.28117048073E-03 +1.66248413452E-04 +7.31011205547E-01 -1.80266213029E-02
2.82500000000E+09 +6.22773197857E-01 -1.91752058206E-01 -1.00759626967E-03 +5.36207285697E-04 -9.31074203627E-04 +5.65919064754E-04 +7.21760348099E-01 -3.80000924574E-02
2.83000000000E+09 +6.06845035284E-01 -2.09445995349E-01 -7.78825538464E-04 +4.69869036220E-04 -7.90347880431E-04 +4.55560798564E-04 +7.11745939397E-01 -5.71840668572E-02
2.83500000000E+09 +5.89615484089E-01 -2.27443482846E-01 -8.57951097538E-04 +3.99731434795E-04 -8.79517566967E-04 +3.84995206773E-04 +7.00801467746E-01 -7.69243818244E-02
2.84000000000E+09 +5.70611808963E-01 -2.46124463696E-01 -8.50051295561E-04 +6.03664749491E-04 -7.94022770944E-04 +6.11058191773E-04 +6.89678539434E-01 -9.67812034781E-02
2.84500000000E+09 +5.49250298901E-01 -2.65121877638E-01 -9.17715565887E-04 +5.49624753794E-04 -9.60269699274E-04 +5.34152832610E-04 +6.77452592576E-01 -1.17393665893E-01
2.85000000000E+09 +5.26477474624E-01 -2.83738369414E-01 -9.27404060799E-04 +1.05513690045E-03 -8.73464337531E-04 +1.06341382155E-03 +6.63597741541E-01 -1.38221494642E-01
2.85500000000E+09 +5.01991557813E-01 -3.01702794640E-01 -3.00176325665E-04 +7.76626059939E-04 -2.92201436999E-04 +7.34272794856E-04 +6.48508904768E-01 -1.57997968657E-01
2.86000000000E+09 +4.76846712848E-01 -3.18390189384E-01 -8.33613294706E-04 +5.51909714540E-04 -7.94579561776E-04 +5.38493163554E-04 +6.32594400624E-01 -1.77987014209E-01
2.86500000000E+09 +4.51047483716E-01 -3.34073555693E-01 -1.16926405384E-03 +1.17810458496E-03 -1.15587690196E-03 +1.16235365389E-03 +6.15363024889E-01 -1.98054237921E-01
2.87000000000E+09 +4.25236115494E-01 -3.48549339537E-01 -5.08824796604E-04 +1.60595801097E-03 -5.21221176669E-04 +1.59479377848E-03 +5.96963734189E-01 -2.17688483059E-01
2.87500000000E+09 +3.98852531532E-01 -3.62144047389E-01 -3.91187432529E-04 +1.47442773602E-03 -3.71477896200E-04 +1.47989587063E-03 +5.76831664676E-01 -2.37661276392E-01
2.88000000000E+09 +3.71453777567E-01 -3.74117488835E-01 -1.60840597199E-04 +1.84642063432E-03 -1.09472116509E-04 +1.75401933174E-03 +5.55737548012E-01 -2.56082398531E-01
2.88500000000E+09 +3.43785060252E-01 -3.84658377637E-01 +3.88584573390E-04 +1.59500991706E-03 +4.10788055479E-04 +1.46243827619E-03 +5.33459896231E-01 -2.74883391190E-01
2.89000000000E+09 +3.14306065947E-01 -3.93753688152E-01 +2.46998164806E-04 +1.42005721300E-03 +1.55654087194E-04 +1.24863990344E-03 +5.08557982872E-01 -2.92781846652E-01
2.89500000000E+09 +2.83687255893E-01 -4.01133873879E-01 +3.57046723589E-04 +1.76532174903E-03 +2.00708491266E-04 +1.70177254338E-03 +4.82140172165E-01 -3.09900369143E-01
2.90000000000E+09 +2.51614881780E-01 -4.06562057482E-01 +8.44975086429E-04 +1.85990092184E-03 +7.54266256218E-04 +1.88571845199E-03 +4.53730420829E-01 -3.26548852986E-01
2.90500000000E+09 +2.17487111842E-01 -4.10093161045E-01 +1.28936733252E-03 +1.66261744613E-03 +1.33034640874E-03 +1.69789096879E-03 +4.23526618899E-01 -3.41653406495E-01
2.91000000000E+09 +1.81906389351E-01 -4.10387210464E-01 +1.82583722009E-03 +1.14729614775E-03 +1.80227824933E-03 +1.11885527721E-03 +3.92664606019E-01 -3.55720545224E-01
2.91500000000E+09 +1.46458427454E-01 -4.07794294780E-01 +1.72743803045E-03 +6.03812096387E-04 +1.65341422173E-03 +6.47975917095E-04 +3.60405950305E-01 -3.67351444183E-01
2.92000000000E+09 +1.10816502319E-01 -4.02676074142E-01 +1.60539417628E-03 +2.26081567710E-04 +1.48700105125E-03 +2.76097498120E-04 +3.27380654873E-01 -3.77733929586E-01
2.92500000000E+09 +7.57587161867E-02 -3.96219736586E-01 +1.25499026751E-03 +3.21947756368E-04 +1.11552326115E-03 +3.58091923927E-04 +2.91573442804E-01 -3.86167358296E-01
2.93000000000E+09 +4.02583573236E-02 -3.87212354696E-01 +1.48521320798E-03 +5.44826237246E-04 +1.41662376819E-03 +5.88434719839E-04 +2.54089013880E-01 -3.91284013187E-01
2.93500000000E+09 +5.78874405612E-03 -3.75760935724E-01 +1.89459660629E-03 +4.92552906488E-05 +1.91138020067E-03 +1.09528551121E-04 +2.16977095286E-01 -3.94561859678E-01
2.94000000000E+09 -2.78439853733E-02 -3.62899868014E-01 +1.58508549416E-03 -3.27649397740E-04 +1.65798441767E-03 -2.90563324997E-04 +1.79512859806E-01 -3.96944871585E-01
2.94500000000E+09 -6.14077605027E-02 -3.47480674039E-01 +1.32595913930E-03 -4.94405968065E-04 +1.39599913798E-03 -4.59144388157E-04 +1.40580786761E-01 -3.98627954884E-01
2.95000000000E+09 -9.42708828495E-02 -3.29374238920E-01 +1.35671842688E-03 -5.17645953262E-04 +1.43861899450E-03 -5.00985101241E-04 +9.94718956857E-02 -3.95971917815E-01
2.95500000000E+09 -1.25993412568E-01 -3.07601191060E-01 +1.47316381892E-03 -6.33941323818E-04 +1.54159850998E-03 -6.01566037861E-04 +6.01336174930E-02 -3.89410862277E-01
2.96000000000E+09 -1.55074197484E-01 -2.82738753814E-01 +1.34134501091E-03 -1.37012750761E-03 +1.52247127348E-03 -1.44115221464E-03 +2.10064793387E-02 -3.80545833768E-01
2.96500000000E+09 -1.81975553830E-01 -2.56563048843E-01 +2.57742810916E-04 -1.31524885075E-03 +2.71849571528E-04 -1.37446953738E-03 -1.89288954762E-02 -3.69993750050E-01
2.97000000000E+09 -2.07581182836E-01 -2.28109747369E-01 +3.86135622338E-04 -4.70709146633E-04 +4.23708659522E-04 -5.43739737267E-04 -6.03872004974E-02 -3.55271635601E-01
2.97500000000E+09 -2.31400605426E-01 -1.97581890913E-01 +1.03944635774E-03 -3.26351896886E-04 +1.01407823139E-03 -3.97747870143E-04 -9.85702043207E-02 -3.36914807812E-01
2.98000000000E+09 -2.52916969145E-01 -1.65624693326E-01 +1.19517719480E-03 -1.17065857345E-03 +1.15967849237E-03 -1.14165882765E-03 -1.36016956323E-01 -3.18270973273E-01
2.98500000000E+09 -2.72610978018E-01 -1.32518891081E-01 +5.95767222138E-04 -1.52901496930E-03 +6.59211216745E-04 -1.48921565807E-03 -1.72765874917E-01 -2.95899817267E-01
2.99000000000E+09 -2.89807590805E-01 -9.86820525257E-02 +1.54687609530E-04 -1.34979800242E-03 +2.02621393946E-04 -1.44224419228E-03 -2.08869263066E-01 -2.71808606281E-01
2.99500000000E+09 -3.05163194141E-01 -6.55868892385E-02 +6.81074044011E-05 -1.15175841544E-03 +3.37531995899E-05 -1.21070014596E-03 -2.43700998808E-01 -2.41700064059E-01
3.00000000000E+09 -3.19545923023E-01 -3.16665044938E-02 +1.59593949226E-04 -9.25320133125E-04 +8.68820618790E-05 -9.48544642115E-04 -2.74291901024E-01 -2.09561164921E-01
3.00500000000E+09 -3.30762838611E-01 +2.40265075811E-03 +3.36986157861E-04 -1.14795376287E-03 +2.24144094138E-04 -1.09365221779E-03 -3.02618263655E-01 -1.77005394971E-01
3.01000000000E+09 -3.39126798491E-01 +3.57337031835E-02 -6.26362211552E-05 -1.56411257941E-03 -7.39800598474E-05 -1.49302189119E-03 -3.30069206114E-01 -1.42360911929E-01
3.01500000000E+09 -3.44676328523E-01 +6.87644186166E-02 -3.65733086616E-04 -1.23259291457E-03 -3.09369155969E-04 -1.15793036882E-03 -3.53942227091E-01 -1.05625287449E-01
3.02000000000E+09 -3.47229515786E-01 +1.00577452797E-01 -4.44604106554E-04 -1.10901998588E-03 -3.12727392862E-04 -1.12860744118E-03 -3.74488419640E-01 -6.77078340848E-02
3.02500000000E+09 -3.47121632021E-01 +1.32053070563E-01 -2.43599113562E-04 -1.01615974505E-03 -1.61499533565E-04 -1.01034877065E-03 -3.90974455600E-01 -2.78833302532E-02
3.03000000000E+09 -3.43907584175E-01 +1.62706275720E-01 -4.62039771595E-04 -1.82361819844E-03 -3.95368499456E-04 -1.78348344582E-03 -4.04690638223E-01 +1.09769060393E-02
3.03500000000E+09 -3.38657866459E-01 +1.92900311150E-01 -1.57414469992E-03 -1.30813857479E-03 -1.50226138504E-03 -1.33733165591E-03 -4.16862606320E-01 +5.09108849382E-02
3.04000000000E+09 -3.30421045248E-01 +2.22916976926E-01 -1.50710359042E-03 -3.51998818861E-04 -1.46920136564E-03 -4.42975789651E-04 -4.25539928420E-01 +9.16719297530E-02
3.04500000000E+09 -3.20265821477E-01 +2.52036033947E-01 -8.39848622584E-04 +5.81346655505E-06 -8.39529259224E-04 -3.51357418310E-05 -4.31581762289E-01 +1.32009326618E-01
3.05000000000E+09 -3.08564326166E-01 +2.80342518884E-01 -6.22094968938E-04 -4.42247105850E-04 -6.14475835438E-04 -4.74956086602E-04 -4.34582655160E-01 +1.72262846166E-01
3.05500000000E+09 -2.95770359206E-01 +3.08081487731E-01 -7.00868185962E-04 -6.36408162125E-04 -7.17002630690E-04 -6.24826407133E-04 -4.34540452545E-01 +2.11209444814E-01
3.06000000000E+09 -2.81688313918E-01 +3.35035327222E-01 -1.34677835679E-03 -6.30116432289E-04 -1.28048381542E-03 -5.86246519532E-04 -4.32819440979E-01 +2.49405696885E-01
3.06500000000E+09 -2.67090048614E-01 +3.60548799313E-01 -1.14459629665E-03 +9.46096580777E-05 -1.11787490204E-03 +6.91290522765E-05 -4.28673572707E-01 +2.87224738606E-01
3.07000000000E+09 -2.51821342725E-01 +3.84990127441E-01 -9.67704330302E-04 +7.84079062917E-05 -9.17535722568E-04 +5.45270182354E-05 -4.21934086562E-01 +3.23897906792E-01
