# Hz S RI R 50
! CMT, C1220, 16058040, 17.2.0/1
! Date: 15/08/2018 10:17:12
! Data: Format (Calibration Info)
! Freq                      S11: Re/Im (F2)                       S21: Re/Im (F2)                       S12: Re/Im (F2)                       S22: Re/Im (F2)            
2.50000000000E+09 +5.96661776498E-01 +6.33397061334E-01 -3.09158652108E-04 +3.15379445180E-04 -3.38817837599E-04 +2.91815528109E-04 +5.73214571343E-01 +7.16520195146E-01
2.50500000000E+09 +6.03137069854E-01 +6.25537030210E-01 -2.14505572053E-04 +3.98429755476E-04 -1.75438837601E-04 +3.88324248669E-04 +5.78747699739E-01 +7.10883444852E-01
2.51000000000E+09 +6.09386669514E-01 +6.17163028665E-01 -1.08992629525E-04 +3.06182558731E-04 -7.52156604289E-05 +3.43451895295E-04 +5.84262211278E-01 +7.05661765900E-01
2.51500000000E+09 +6.15629208789E-01 +6.09333422692E-01 -7.87555799494E-05 +3.20583373537E-04 -1.26574974634E-04 +3.37270693201E-04 +5.89409504783E-01 +7.00475435515E-01
2.52000000000E+09 +6.21499598281E-01 +6.01413040371E-01 -2.54174242777E-05 +3.98412629284E-04 -5.21433044168E-05 +3.53287891230E-04 +5.94598568018E-01 +6.94463157438E-01
2.52500000000E+09 +6.26497857981E-01 +5.94080064772E-01 +3.79375183231E-07 +3.20714145298E-04 -3.52543659597E-05 +3.43589122278E-04 +6.00185406064E-01 +6.88188380804E-01
2.53000000000E+09 +6.31216157172E-01 +5.87333991940E-01 -7.13936439227E-06 +2.62198596032E-04 -3.37723310909E-06 +2.90504953214E-04 +6.06337594829E-01 +6.81221818387E-01
2.53500000000E+09 +6.35640612900E-01 +5.81099460472E-01 -6.04182792723E-05 +2.81791602528E-04 -4.74171299070E-05 +3.14714763104E-04 +6.12349616409E-01 +6.74402768132E-01
2.54000000000E+09 +6.39678713078E-01 +5.75002095249E-01 -2.45845728967E-05 +3.77073637630E-04 -1.70212849617E-05 +3.51892100248E-04 +6.18203180051E-01 +6.67666343788E-01
2.54500000000E+09 +6.43709414207E-01 +5.69257105680E-01 +8.99728358503E-05 +4.18840121430E-04 +9.76518691135E-05 +3.91941280528E-04 +6.23894517217E-01 +6.61306356407E-01
2.55000000000E+09 +6.48715020535E-01 +5.63373238100E-01 +2.13513957996E-04 +3.10519110310E-04 +1.92776313987E-04 +3.75176128771E-04 +6.29247499225E-01 +6.54992547164E-01
2.55500000000E+09 +6.54079812147E-01 +5.56211042491E-01 +2.57813747870E-04 +2.18909841000E-04 +2.76926364728E-04 +2.42530616780E-04 +6.34500178136E-01 +6.48453842312E-01
2.56000000000E+09 +6.60036314509E-01 +5.48868777246E-01 +1.53045286652E-04 +6.32980492333E-05 +1.93010350097E-04 +8.36457015369E-05 +6.39695329162E-01 +6.41240259873E-01
2.56500000000E+09 +6.66016586577E-01 +5.40397946671E-01 -4.46817284895E-05 +1.91352775624E-04 +1.02327580490E-05 +1.73109907718E-04 +6.45163944571E-01 +6.33799299704E-01
2.57000000000E+09 +6.72097220319E-01 +5.31819577820E-01 -1.45110667402E-05 +3.35180722613E-04 +8.53277447415E-05 +3.43562180238E-04 +6.50463841226E-01 +6.25829425446E-01
2.57500000000E+09 +6.78117464287E-01 +5.22832771782E-01 +9.92272665337E-05 +3.10144176780E-04 +1.79127012187E-04 +2.74441449374E-04 +6.55681855331E-01 +6.18177776887E-01
2.58000000000E+09 +6.83508277507E-01 +5.14054009307E-01 +2.05257351246E-04 +3.44985094227E-04 +2.01923774977E-04 +3.04052303486E-04 +6.60631884683E-01 +6.10948438413E-01
2.58500000000E+09 +6.88458443381E-01 +5.04954694346E-01 +3.09123618970E-04 +2.79909542511E-04 +2.47026918587E-04 +2.40954057077E-04 +6.65507239627E-01 +6.03497374261E-01
2.59000000000E+09 +6.92700466190E-01 +4.96610632131E-01 +2.50250013526E-04 +2.21964437687E-04 +2.12349008556E-04 +2.06368886917E-04 +6.70123653206E-01 +5.95981334803E-01
2.59500000000E+09 +6.96990336805E-01 +4.88224199131E-01 +2.54325593284E-04 +3.34742119748E-04 +2.69101046647E-04 +3.10303280568E-04 +6.75057343568E-01 +5.88152233998E-01
2.60000000000E+09 +7.00809936426E-01 +4.79597849784E-01 +3.39492164593E-04 +2.89661747338E-04 +3.62666562720E-04 +3.55388763442E-04 +6.80143527647E-01 +5.79725010738E-01
2.60500000000E+09 +7.04762910374E-01 +4.70366882472E-01 +4.04496306530E-04 +2.49826204489E-04 +3.88570815783E-04 +2.35632046692E-04 +6.85428314487E-01 +5.71156293368E-01
2.61000000000E+09 +7.08814375235E-01 +4.60235488887E-01 +4.91232416106E-04 +2.08135908597E-04 +5.02160163097E-04 +2.40436159131E-04 +6.90744499856E-01 +5.62470548669E-01
2.61500000000E+09 +7.13300147040E-01 +4.49157751015E-01 +5.71983489737E-04 +1.28439206361E-04 +6.12195402530E-04 +1.34703402707E-04 +6.95658660659E-01 +5.53721256634E-01
2.62000000000E+09 +7.17454700602E-01 +4.36620441656E-01 +5.70695584563E-04 -1.17772055967E-04 +6.02077391418E-04 -6.65977095278E-05 +7.00424216250E-01 +5.44714624873E-01
2.62500000000E+09 +7.21217252913E-01 +4.23418650357E-01 +4.97059187836E-04 -9.19211305917E-05 +4.84476168586E-04 -1.00141500776E-04 +7.05109035170E-01 +5.35842172953E-01
2.63000000000E+09 +7.24742582509E-01 +4.10111132798E-01 +5.37053281950E-04 -4.96621967180E-05 +5.13941433012E-04 -1.14241069526E-04 +7.10023645770E-01 +5.26728343155E-01
2.63500000000E+09 +7.27759332006E-01 +3.96723259647E-01 +5.39578310599E-04 -1.34057156188E-04 +4.71658997528E-04 -1.96120295292E-04 +7.15044022325E-01 +5.17314714146E-01
2.64000000000E+09 +7.30367757327E-01 +3.83995927672E-01 +5.46651483733E-04 -2.50635968701E-04 +4.53614631118E-04 -2.04515283909E-04 +7.19845243885E-01 +5.07416204768E-01
2.64500000000E+09 +7.33174477714E-01 +3.72054855749E-01 +4.49616109788E-04 -3.28445006988E-04 +4.32978919090E-04 -2.18632645787E-04 +7.24702190940E-01 +4.97608195788E-01
2.65000000000E+09 +7.35304593692E-01 +3.60894061325E-01 +4.26197887761E-04 -2.68316038996E-04 +4.60185039477E-04 -1.92327371427E-04 +7.29051569960E-01 +4.87469332689E-01
2.65500000000E+09 +7.37590756647E-01 +3.50024882246E-01 +4.77477737168E-04 -3.66868206761E-04 +5.75876807206E-04 -3.05487759113E-04 +7.32948880462E-01 +4.77047670068E-01
2.66000000000E+09 +7.40274664563E-01 +3.39341345260E-01 +4.28999454847E-04 -4.38423391632E-04 +5.00249449667E-04 -5.16718931018E-04 +7.36917461871E-01 +4.65791799056E-01
2.66500000000E+09 +7.42757469728E-01 +3.28126044418E-01 +4.53442673029E-04 -5.03605455631E-04 +4.24194490733E-04 -5.14896524103E-04 +7.40717365002E-01 +4.54700068181E-01
2.67000000000E+09 +7.44542514169E-01 +3.16220937359E-01 +2.75876862834E-04 -6.69832647289E-04 +2.26309383730E-04 -6.67268114803E-04 +7.45013772189E-01 +4.43956242644E-01
2.67500000000E+09 +7.46075340505E-01 +3.03974738343E-01 +6.00579909515E-05 -5.55886798106E-04 +8.43306848504E-05 -4.80267246657E-04 +7.49293719522E-01 +4.32753559430E-01
2.68000000000E+09 +7.47527074769E-01 +2.90707599748E-01 +2.09158038233E-04 -4.34265477498E-04 +2.05551806004E-04 -3.90151009833E-04 +7.53045988561E-01 +4.21362972486E-01
2.68500000000E+09 +7.48051553865E-01 +2.76644530791E-01 +2.21952339917E-04 -5.70640647723E-04 +2.55506124900E-04 -5.48956565261E-04 +7.55875243224E-01 +4.09641024489E-01
2.69000000000E+09 +7.48230928942E-01 +2.62753944491E-01 +1.69039566845E-04 -6.69362156835E-04 +1.72928729876E-04 -6.26527137308E-04 +7.58410002170E-01 +3.97674673004E-01
2.69500000000E+09 +7.48142613793E-01 +2.48839314444E-01 +1.34982135788E-04 -6.66702707209E-04 +1.11132532718E-04 -6.02935678192E-04 +7.60920357781E-01 +3.85426692464E-01
2.70000000000E+09 +7.48233513057E-01 +2.35269845904E-01 +1.63636411573E-04 -8.11457657328E-04 +1.71153344916E-04 -7.70512448549E-04 +7.64020851363E-01 +3.72106746101E-01
2.70500000000E+09 +7.48755259011E-01 +2.22187844454E-01 -7.89988159805E-05 -9.29876946798E-04 -2.91174650821E-05 -8.66112489665E-04 +7.66579762299E-01 +3.58410790759E-01
2.71000000000E+09 +7.49615951087E-01 +2.09051178194E-01 -2.43067352911E-04 -9.23117723846E-04 -1.68887263753E-04 -1.00204531581E-03 +7.69332862190E-01 +3.45451011224E-01
2.71500000000E+09 +7.51223020443E-01 +1.95175384348E-01 -4.94677558311E-04 -8.47017578973E-04 -4.99459394465E-04 -8.78622715770E-04 +7.71820026190E-01 +3.32808922273E-01
2.72000000000E+09 +7.52464323497E-01 +1.80874768970E-01 -5.53004333559E-04 -6.29671676279E-04 -6.24353503289E-04 -5.68557338796E-04 +7.73996483675E-01 +3.20113746328E-01
2.72500000000E+09 +7.53351949643E-01 +1.65417421709E-01 -3.94813976619E-04 -6.14477365337E-04 -4.31067933119E-04 -5.79608976554E-04 +7.75240863380E-01 +3.06831340466E-01
2.73000000000E+09 +7.52860213303E-01 +1.49403089647E-01 -6.14942176896E-04 -8.68550154847E-04 -5.83481939015E-04 -7.91325545205E-04 +7.76394888465E-01 +2.92935469365E-01
2.73500000000E+09 +7.51387252599E-01 +1.32829452001E-01 -8.68294413814E-04 -7.11563297682E-04 -6.99471916410E-04 -5.89088048944E-04 +7.77496468695E-01 +2.78280823595E-01
2.74000000000E+09 +7.48921153129E-01 +1.16188969281E-01 -1.07528528310E-03 -4.87017917978E-04 -8.46620758848E-04 -5.16840779039E-04 +7.79141709565E-01 +2.63366471629E-01
2.74500000000E+09 +7.45078409618E-01 +9.90116560330E-02 -9.76148867283E-04 -1.39910829068E-04 -9.15920179429E-04 -2.50620677049E-04 +7.80217437793E-01 +2.47838074846E-01
2.75000000000E+09 +7.39966347987E-01 +8.20895958286E-02 -7.68652404894E-04 -1.25445636342E-04 -7.66190784931E-04 -2.17020508967E-04 +7.80927453793E-01 +2.32912404579E-01
2.75500000000E+09 +7.34429805853E-01 +6.59854531667E-02 -8.04353589289E-04 -2.42917484160E-04 -8.70399844878E-04 -3.41670676229E-04 +7.81246220016E-01 +2.17520794215E-01
2.76000000000E+09 +7.29427834920E-01 +4.99769726192E-02 -1.02947328931E-03 -1.87288422539E-04 -1.10584908289E-03 -1.96072819807E-04 +7.80603756621E-01 +2.01949585522E-01
2.76500000000E+09 +7.24600692096E-01 +3.32716107865E-02 -1.17748261221E-03 +8.40206329668E-05 -1.23179626854E-03 +1.09299408773E-04 +7.79799114310E-01 +1.84961592739E-01
2.77000000000E+09 +7.19615108560E-01 +1.59790565579E-02 -9.06040986816E-04 +3.53005097565E-04 -9.76480566919E-04 +3.92237238805E-04 +7.78477828498E-01 +1.67182314860E-01
2.77500000000E+09 +7.14889836017E-01 -2.31716388525E-03 -8.08461592739E-04 +3.63442818630E-04 -8.27388794245E-04 +4.08032150547E-04 +7.76316075136E-01 +1.49109512110E-01
2.78000000000E+09 +7.09720820817E-01 -2.12737232470E-02 -8.78900538839E-04 +3.80101226935E-04 -8.62563659977E-04 +4.70403901297E-04 +7.74311169557E-01 +1.31344965184E-01
2.78500000000E+09 +7.03782876887E-01 -4.08898835812E-02 -7.72522480466E-04 +4.15938176216E-04 -7.68873194824E-04 +5.23118216963E-04 +7.71891765120E-01 +1.13347007452E-01
2.79000000000E+09 +6.97276848044E-01 -6.10919448194E-02 -7.83387934781E-04 +4.86669386464E-04 -6.91963464984E-04 +4.76949992461E-04 +7.68368478480E-01 +9.57717769302E-02
2.79500000000E+09 +6.89481269305E-01 -8.13980920567E-02 -8.09186890606E-04 +6.36400294617E-04 -7.55396500557E-04 +6.31014859263E-04 +7.64052390813E-01 +7.79632635516E-02
2.80000000000E+09 +6.79636501103E-01 -1.01002958766E-01 -5.47069015976E-04 +9.05999362413E-04 -5.32054240960E-04 +8.60761749292E-04 +7.59344731189E-01 +5.95868722572E-02
2.80500000000E+09 +6.69195371613E-01 -1.19234712507E-01 -2.88499565689E-04 +5.61511731139E-04 -3.50491230747E-04 +5.51582699480E-04 +7.53506758597E-01 +4.01463966645E-02
2.81000000000E+09 +6.57942327527E-01 -1.36766445638E-01 -5.89507736784E-04 +4.67625083011E-04 -5.88549313077E-04 +4.97465404436E-04 +7.46720435007E-01 +2.08783086196E-02
2.81500000000E+09 +6.45872447451E-01 -1.53365937980E-01 -6.46217022013E-04 +7.13034562723E-04 -6.32414502466E-04 +7.28683890354E-04 +7.39307989878E-01 +1.44421610032E-03
2.82000000000E+09 +6.33099517322E-01 -1.70006514546E-01 -7.54420504593E-04 +9.13987416409E-04 -6.92021002305E-04 +9.18527838462E-04 +7.32002622730E-01 -1.82201152563E-02
2.82500000000E+09 +6.19166988457E-01 -1.86929892863E-01 -5.22972553455E-04 +1.21219036013E-03 -4.08680088986E-04 +1.13967929609E-03 +7.22631359992E-01 -3.83768130040E-02
2.83000000000E+09 +6.03526173493E-01 -2.03850699684E-01 -3.51023234358E-04 +1.16679976853E-03 -3.54898400973E-04 +1.12855120170E-03 +7.12719425790E-01 -5.77485281735E-02
2.83500000000E+09 +5.86965688991E-01 -2.21449949066E-01 -2.77293837873E-04 +1.38745774855E-03 -3.12104576715E-04 +1.34200490078E-03 +7.01661871888E-01 -7.78264027751E-02
2.84000000000E+09 +5.68833863799E-01 -2.39887490425E-01 +1.23965147884E-04 +1.51838785219E-03 +8.47224274219E-05 +1.49204542555E-03 +6.90210298676E-01 -9.75064590823E-02
2.84500000000E+09 +5.48120959317E-01 -2.59027200458E-01 +1.65538242494E-04 +1.31255037520E-03 +1.11481704637E-04 +1.34957318352E-03 +6.78066885037E-01 -1.18079397255E-01
2.85000000000E+09 +5.25750548116E-01 -2.77497227989E-01 +4.93408408696E-04 +1.62243421439E-03 +4.86384309895E-04 +1.61796046704E-03 +6.64194124809E-01 -1.38807528575E-01
2.85500000000E+09 +5.01828850649E-01 -2.95499106270E-01 +8.61000039958E-04 +1.13512964054E-03 +8.29337029228E-04 +1.07294365832E-03 +6.49265206006E-01 -1.58977004090E-01
2.86000000000E+09 +4.77267906039E-01 -3.11992418310E-01 +5.86800334833E-04 +9.65021622063E-04 +5.51381401009E-04 +9.36799365058E-04 +6.33339222387E-01 -1.79111341488E-01
2.86500000000E+09 +4.52446259277E-01 -3.27604962307E-01 +7.04596319703E-04 +1.27967191278E-03 +6.62502874787E-04 +1.23542594294E-03 +6.15880243496E-01 -1.99464114984E-01
2.87000000000E+09 +4.27488266098E-01 -3.42396604098E-01 +1.25113920247E-03 +9.92721696781E-04 +1.19531185546E-03 +1.02803480099E-03 +5.97174521505E-01 -2.19719452817E-01
2.87500000000E+09 +4.01409871816E-01 -3.56331855206E-01 +1.07007426183E-03 +8.17444364687E-04 +1.06739671044E-03 +7.94290683554E-04 +5.76426321242E-01 -2.39040855607E-01
2.88000000000E+09 +3.74651683248E-01 -3.68086457770E-01 +1.11645543995E-03 +8.77457056947E-04 +1.09692334076E-03 +8.28021972147E-04 +5.55686961946E-01 -2.57471374073E-01
2.88500000000E+09 +3.47678891946E-01 -3.79073014302E-01 +1.54501959917E-03 +7.00069647558E-04 +1.44534630482E-03 +5.67728378222E-04 +5.33197167463E-01 -2.76495445518E-01
2.89000000000E+09 +3.19017835228E-01 -3.88514118586E-01 +1.29324507780E-03 +3.36009590799E-04 +1.26178943411E-03 +3.71746705356E-04 +5.07920735350E-01 -2.94368843988E-01
2.89500000000E+09 +2.89237496845E-01 -3.96652361469E-01 +1.43605971471E-03 +4.02852104717E-04 +1.31303959426E-03 +4.18466728740E-04 +4.81595263173E-01 -3.11690269469E-01
2.90000000000E+09 +2.57383860307E-01 -4.02597919933E-01 +1.36440291098E-03 +1.84788436454E-04 +1.42054906463E-03 +2.38574124833E-04 +4.52778030701E-01 -3.28550467936E-01
2.90500000000E+09 +2.23624349681E-01 -4.06359351759E-01 +1.35256118718E-03 +4.52520479649E-04 +1.36401445003E-03 +4.52066990209E-04 +4.21945610407E-01 -3.43767474892E-01
2.91000000000E+09 +1.88969627910E-01 -4.06909179202E-01 +1.97437199028E-03 +4.84240705356E-04 +1.97778075783E-03 +4.15100734034E-04 +3.90424181331E-01 -3.57277284346E-01
2.91500000000E+09 +1.54232050127E-01 -4.05203341739E-01 +2.52174727490E-03 -2.88294916837E-04 +2.41582935260E-03 -3.31369420676E-04 +3.57824766510E-01 -3.68440355129E-01
2.92000000000E+09 +1.19419851361E-01 -4.01256336861E-01 +2.09038883940E-03 -1.49063129072E-03 +1.92397837412E-03 -1.40356485413E-03 +3.24848327244E-01 -3.77896438172E-01
2.92500000000E+09 +8.39867219532E-02 -3.95925639975E-01 +1.07457450739E-03 -1.23861198417E-03 +1.07924814780E-03 -1.15607710209E-03 +2.89362321247E-01 -3.86132544122E-01
2.93000000000E+09 +4.86330738498E-02 -3.87348510726E-01 +1.22485338399E-03 -6.22135519692E-04 +1.17463215735E-03 -5.37524831326E-04 +2.52200383204E-01 -3.91234763661E-01
2.93500000000E+09 +1.44729633832E-02 -3.76990508722E-01 +1.84720487919E-03 -1.03337359744E-03 +1.86248677867E-03 -1.00769217330E-03 +2.14722149591E-01 -3.94876712880E-01
2.94000000000E+09 -1.90898603772E-02 -3.64801634582E-01 +1.59861181273E-03 -1.61464460534E-03 +1.59565100811E-03 -1.61468669961E-03 +1.76159454660E-01 -3.96691857286E-01
2.94500000000E+09 -5.26291373711E-02 -3.50722947940E-01 +1.33638041646E-03 -1.92312002964E-03 +1.34488066461E-03 -1.90888235468E-03 +1.37117380549E-01 -3.96677530033E-01
2.95000000000E+09 -8.57655394288E-02 -3.33532593449E-01 +1.10367759029E-03 -2.37294251855E-03 +1.19262346193E-03 -2.28638736563E-03 +9.76897554267E-02 -3.93261409651E-01
2.95500000000E+09 -1.18035123885E-01 -3.12755131084E-01 +7.47204968101E-04 -2.51081388830E-03 +7.29859273511E-04 -2.53007357622E-03 +5.88768243779E-02 -3.86966861188E-01
2.96000000000E+09 -1.47176306560E-01 -2.88888107448E-01 +8.27228120058E-05 -2.96716120607E-03 +1.61722953134E-04 -3.11386789185E-03 +2.02250929505E-02 -3.78130030849E-01
2.96500000000E+09 -1.74864727339E-01 -2.63759933656E-01 -8.52568678495E-04 -2.59207230082E-03 -9.47875475351E-04 -2.62092517247E-03 -1.91944949983E-02 -3.67529069114E-01
2.97000000000E+09 -2.01067158668E-01 -2.36292537262E-01 -1.03604805310E-03 -2.29032334002E-03 -1.06807916385E-03 -2.23267679995E-03 -6.00919942914E-02 -3.53307878615E-01
2.97500000000E+09 -2.26009241267E-01 -2.06637956515E-01 -1.35879377628E-03 -1.84877956103E-03 -1.35242305210E-03 -1.83115647494E-03 -9.85466349696E-02 -3.35413850348E-01
2.98000000000E+09 -2.48791137195E-01 -1.74751362932E-01 -1.43249111367E-03 -1.64695941696E-03 -1.34746025361E-03 -1.65811979917E-03 -1.36401042574E-01 -3.16387543928E-01
2.98500000000E+09 -2.69079449044E-01 -1.41891700724E-01 -1.56307291360E-03 -1.51189486807E-03 -1.50527290504E-03 -1.54797371516E-03 -1.72466560245E-01 -2.93688139204E-01
2.99000000000E+09 -2.86923626301E-01 -1.08616111626E-01 -1.70603775724E-03 -1.29877223466E-03 -1.78734013743E-03 -1.43551476468E-03 -2.08052899310E-01 -2.69608495708E-01
2.99500000000E+09 -3.03491061254E-01 -7.55613783248E-02 -1.81350181699E-03 -1.28240397228E-03 -1.88419318930E-03 -1.33407511717E-03 -2.42057607434E-01 -2.40181868214E-01
3.00000000000E+09 -3.18270122900E-01 -4.20535916375E-02 -2.34811244389E-03 -8.84336487148E-04 -2.42217475892E-03 -8.06397851810E-04 -2.72943343613E-01 -2.08769723356E-01
3.00500000000E+09 -3.30952724095E-01 -8.18285189114E-03 -2.50893789956E-03 -1.64011137893E-04 -2.42365879866E-03 -5.94487207875E-05 -3.01999135880E-01 -1.76095040081E-01
3.01000000000E+09 -3.40369967380E-01 +2.54752268493E-02 -2.08174527162E-03 +3.72093616792E-04 -2.06617580955E-03 +2.81292806920E-04 -3.29106174065E-01 -1.41026477086E-01
3.01500000000E+09 -3.46794636167E-01 +5.87528740612E-02 -1.58947257241E-03 +5.38126396610E-04 -1.58625882982E-03 +4.43639329161E-04 -3.53013251387E-01 -1.04397434740E-01
3.02000000000E+09 -3.49951429630E-01 +9.09408426700E-02 -1.74077576593E-03 +4.02140720009E-04 -1.73350557403E-03 +3.72116458006E-04 -3.73025284750E-01 -6.63922060499E-02
3.02500000000E+09 -3.50686507193E-01 +1.22489121260E-01 -1.54439076809E-03 +7.80037578521E-04 -1.61189433013E-03 +8.12711035295E-04 -3.89086770492E-01 -2.72030876005E-02
3.03000000000E+09 -3.48326263495E-01 +1.53719299557E-01 -1.63003612549E-03 +5.81376056263E-04 -1.68614847111E-03 +5.64087183941E-04 -4.02880190171E-01 +1.10450893830E-02
3.03500000000E+09 -3.43673579962E-01 +1.84664060440E-01 -1.68102398664E-03 +1.16302095236E-03 -1.71089071337E-03 +1.20702811086E-03 -4.15211298395E-01 +5.08687001918E-02
3.04000000000E+09 -3.35663536933E-01 +2.15023309129E-01 -1.27746032786E-03 +1.53340874506E-03 -1.31976552595E-03 +1.52401926589E-03 -4.23991813288E-01 +9.14294540363E-02
3.04500000000E+09 -3.26492404381E-01 +2.44628782730E-01 -6.65310906789E-04 +1.48744896395E-03 -7.23675388891E-04 +1.62884011880E-03 -4.30173060282E-01 +1.31685148192E-01
3.05000000000E+09 -3.15221690209E-01 +2.73744987117E-01 -6.26011156259E-04 +1.26203366381E-03 -5.81179583742E-04 +1.29704231447E-03 -4.33316302211E-01 +1.71693183379E-01
3.05500000000E+09 -3.02646017656E-01 +3.02333405447E-01 -5.28334517055E-04 +1.39451982676E-03 -3.97966746506E-04 +1.52083142133E-03 -4.33713707786E-01 +2.10747518972E-01
3.06000000000E+09 -2.88806885978E-01 +3.29902735994E-01 -3.40353094959E-04 +1.48461278953E-03 -2.64828578270E-04 +1.45493266890E-03 -4.31591140788E-01 +2.49289411265E-01
3.06500000000E+09 -2.74120647026E-01 +3.56248215642E-01 +7.65241379273E-06 +1.31834450774E-03 +4.78402811010E-05 +1.24062984588E-03 -4.27310325660E-01 +2.86195845785E-01
3.07000000000E+09 -2.58570767439E-01 +3.80972723128E-01 -2.41999814870E-05 +1.44686253289E-03 -6.05899386889E-05 +1.36241286044E-03 -4.20991179990E-01 +3.22421491221E-01
