# Hz S RI R 50
! CMT, C1220, 16058040, 17.2.0/1
! Date: 15/08/2018 10:20:53
! Data: Format (Calibration Info)
! Freq                      S11: Re/Im (F2)                       S21: Re/Im (F2)                       S12: Re/Im (F2)                       S22: Re/Im (F2)            
2.50000000000E+09 +5.95176882593E-01 +6.33668045724E-01 -2.99845144841E-04 +5.36613213101E-05 -3.71660664601E-04 +9.86211634981E-06 +5.72886727026E-01 +7.16732765288E-01
2.50500000000E+09 +6.01592775783E-01 +6.25832268853E-01 -2.98552481265E-04 +6.97832742748E-05 -2.79202115370E-04 +9.76429801302E-05 +5.78536681867E-01 +7.11186629118E-01
2.51000000000E+09 +6.08134052719E-01 +6.17623092509E-01 -2.35485154383E-04 +1.33105854825E-04 -2.37055984416E-04 +1.59032196712E-04 +5.83934830364E-01 +7.05950578061E-01
2.51500000000E+09 +6.14426088734E-01 +6.09663866840E-01 -2.27262478208E-04 +1.67451099584E-04 -2.08200162844E-04 +1.49823551355E-04 +5.89314665987E-01 +7.00626956390E-01
2.52000000000E+09 +6.20329012564E-01 +6.01786947215E-01 -1.48068739369E-04 +1.91269560422E-04 -1.34513971027E-04 +1.59034150069E-04 +5.94359232501E-01 +6.94572152433E-01
2.52500000000E+09 +6.25657122552E-01 +5.94563001587E-01 -1.60755529590E-04 +1.03546328848E-04 -1.77601190901E-04 +8.38705729118E-05 +5.99783203754E-01 +6.88267279861E-01
2.53000000000E+09 +6.30325523604E-01 +5.87806596069E-01 -1.88187006548E-04 +1.54856985721E-04 -2.04119261598E-04 +1.87201263140E-04 +6.06042473058E-01 +6.81528964561E-01
2.53500000000E+09 +6.34615952199E-01 +5.81666591814E-01 -1.49610992641E-04 +2.32154882262E-04 -2.27552270990E-04 +2.74814100069E-04 +6.12010579746E-01 +6.74675007169E-01
2.54000000000E+09 +6.38630927865E-01 +5.75732126000E-01 -1.63324429604E-04 +3.09833332234E-04 -1.21690268070E-04 +3.12715324329E-04 +6.17876051559E-01 +6.68004835637E-01
2.54500000000E+09 +6.42680486515E-01 +5.70100366411E-01 -1.50804150010E-05 +3.33876772629E-04 -2.47887987385E-05 +3.39276735785E-04 +6.23602614674E-01 +6.61703429515E-01
2.55000000000E+09 +6.47285515307E-01 +5.64360150624E-01 +7.32828301106E-05 +2.29681331960E-04 +5.85205761080E-05 +3.46086136468E-04 +6.29086140290E-01 +6.55284013864E-01
2.55500000000E+09 +6.52673882115E-01 +5.57596352688E-01 +1.40607960205E-04 +1.47349381565E-04 +1.47277506839E-04 +1.72938180537E-04 +6.34310176949E-01 +6.48800973108E-01
2.56000000000E+09 +6.58804990044E-01 +5.50434926643E-01 +8.14737440466E-05 -4.58340273687E-07 +1.27124430842E-04 +4.56715454216E-05 +6.39562863220E-01 +6.41596410240E-01
2.56500000000E+09 +6.65068747255E-01 +5.41900219915E-01 -1.12628936414E-04 -1.25178086079E-05 -2.64722873790E-05 +8.48819004732E-06 +6.45185471098E-01 +6.34059114816E-01
2.57000000000E+09 +6.71459995862E-01 +5.33239545163E-01 -1.32466167901E-04 +7.71431118939E-05 -1.36116842456E-04 +1.41269265318E-04 +6.50453561114E-01 +6.26147866151E-01
2.57500000000E+09 +6.77574892281E-01 +5.24245607504E-01 -1.39779799938E-04 +1.83251013751E-04 -6.64305828808E-05 +1.94416780641E-04 +6.55626478924E-01 +6.18584240687E-01
2.58000000000E+09 +6.83040764532E-01 +5.15440163959E-01 -7.27421547181E-05 +2.39221690909E-04 +8.58056240175E-06 +2.01667452107E-04 +6.60631736365E-01 +6.11310812562E-01
2.58500000000E+09 +6.88210422107E-01 +5.06527374495E-01 -8.84372083396E-08 +1.77874600166E-04 -1.16354595869E-05 +2.01735084334E-04 +6.65668753967E-01 +6.03591371290E-01
2.59000000000E+09 +6.92814646298E-01 +4.98074323596E-01 -4.02065015681E-05 +1.58394035163E-04 -5.87900357133E-05 +1.19626809126E-04 +6.70079664614E-01 +5.96049090935E-01
2.59500000000E+09 +6.97104946143E-01 +4.89798312671E-01 -7.84272435342E-05 +1.76179706346E-04 -5.48384953216E-05 +1.97033388034E-04 +6.75023645767E-01 +5.88177633886E-01
2.60000000000E+09 +7.00961959394E-01 +4.81309990047E-01 -1.04348109820E-04 +2.11368964701E-04 -9.33407231752E-05 +1.96434204588E-04 +6.79996516871E-01 +5.79647832165E-01
2.60500000000E+09 +7.05040657236E-01 +4.72375883887E-01 -1.28326079429E-04 +3.74781592485E-04 -1.80035512176E-04 +3.51785622812E-04 +6.85256016428E-01 +5.71228013259E-01
2.61000000000E+09 +7.09219963169E-01 +4.62471944408E-01 -3.56736284380E-05 +4.82157109192E-04 +5.67319511519E-05 +4.59274743573E-04 +6.90638719725E-01 +5.62540762394E-01
2.61500000000E+09 +7.13653864784E-01 +4.51350852662E-01 +1.70741884821E-04 +4.30357079738E-04 +1.11474583481E-04 +4.43747052202E-04 +6.95276582660E-01 +5.53786911677E-01
2.62000000000E+09 +7.17586167361E-01 +4.39127785573E-01 +2.03834305899E-04 +3.37871696329E-04 +1.93308327473E-04 +3.36325817666E-04 +7.00042847400E-01 +5.44940883237E-01
2.62500000000E+09 +7.21521211003E-01 +4.26220594540E-01 +1.86184349340E-04 +3.85174725342E-04 +1.71690854166E-04 +3.96977222168E-04 +7.04701870664E-01 +5.36087890375E-01
2.63000000000E+09 +7.25154767549E-01 +4.12781376235E-01 +2.41656128564E-04 +4.06723446495E-04 +2.54382242309E-04 +3.93797278666E-04 +7.09718242877E-01 +5.27046833308E-01
2.63500000000E+09 +7.28316442672E-01 +3.99446272810E-01 +3.50419026797E-04 +4.03591651212E-04 +3.19740418805E-04 +3.11403939772E-04 +7.14718034110E-01 +5.17519605607E-01
2.64000000000E+09 +7.31099739662E-01 +3.86725490372E-01 +4.05829795105E-04 +3.37500917949E-04 +3.60388474428E-04 +2.93441960918E-04 +7.19614781376E-01 +5.07632527108E-01
2.64500000000E+09 +7.33947288026E-01 +3.74671666203E-01 +5.01528845694E-04 +2.98163062901E-04 +3.91514609526E-04 +3.33594099040E-04 +7.24517910748E-01 +4.97867095601E-01
2.65000000000E+09 +7.36294712948E-01 +3.63485635427E-01 +5.64051283122E-04 +1.94006482771E-04 +5.46312831118E-04 +3.07901258864E-04 +7.28774916053E-01 +4.87722273312E-01
2.65500000000E+09 +7.38878644970E-01 +3.52681073042E-01 +6.46143072707E-04 +1.32578262790E-04 +6.51069108036E-04 +2.28624092578E-04 +7.32794016911E-01 +4.77367029094E-01
2.66000000000E+09 +7.41796006095E-01 +3.42013933179E-01 +6.72290778392E-04 -3.75564016659E-05 +7.91131181332E-04 -1.16746447054E-05 +7.36657487790E-01 +4.66053697190E-01
2.66500000000E+09 +7.44423470246E-01 +3.30993511226E-01 +6.21343553171E-04 -1.62368623597E-04 +6.78828704726E-04 -1.82570072330E-04 +7.40490777918E-01 +4.54812579714E-01
2.67000000000E+09 +7.46623867321E-01 +3.19037233145E-01 +6.30099213649E-04 -2.77692521910E-04 +6.08728191662E-04 -3.36998416414E-04 +7.44683297845E-01 +4.44100561794E-01
2.67500000000E+09 +7.48364377534E-01 +3.06623839636E-01 +3.76489569807E-04 -3.33645823790E-04 +3.24815562778E-04 -3.00934536277E-04 +7.48904732708E-01 +4.32873723449E-01
2.68000000000E+09 +7.49879578789E-01 +2.93243771462E-01 +4.04406569627E-04 -1.82975953168E-04 +3.36151652069E-04 -1.62266022564E-04 +7.52780752514E-01 +4.21476597275E-01
2.68500000000E+09 +7.50521834625E-01 +2.79252932820E-01 +4.02558267720E-04 -2.95381518045E-04 +3.93801311159E-04 -2.99720958753E-04 +7.55412289323E-01 +4.09804438712E-01
2.69000000000E+09 +7.50927499336E-01 +2.65236960315E-01 +3.35708047676E-04 -2.82254748139E-04 +3.33236930977E-04 -2.95241873381E-04 +7.57881922256E-01 +3.98069589127E-01
2.69500000000E+09 +7.51145989048E-01 +2.51055744289E-01 +3.33962207242E-04 -2.38379951721E-04 +3.53050623295E-04 -2.64987981028E-04 +7.60484951376E-01 +3.85893943128E-01
2.70000000000E+09 +7.51294368757E-01 +2.37369577086E-01 +4.94412853684E-04 -3.72478176930E-04 +4.63125124839E-04 -3.93703110572E-04 +7.63579082502E-01 +3.72592243729E-01
2.70500000000E+09 +7.51815792918E-01 +2.24148337250E-01 +3.16139734313E-04 -5.65387070536E-04 +3.48005911657E-04 -4.54260240995E-04 +7.66127047260E-01 +3.59114501100E-01
2.71000000000E+09 +7.52879436509E-01 +2.10854729873E-01 +2.65536707940E-04 -5.77688634213E-04 +2.89249221240E-04 -5.63688888167E-04 +7.69006023545E-01 +3.46267067837E-01
2.71500000000E+09 +7.54665353273E-01 +1.96961157688E-01 +3.29190246983E-05 -5.88841925660E-04 +1.86902091084E-05 -6.46749308074E-04 +7.71521308191E-01 +3.33664458023E-01
2.72000000000E+09 +7.56208232766E-01 +1.82494462261E-01 +1.73799963137E-05 -2.83730923887E-04 -2.07116904547E-08 -2.58833411761E-04 +7.73685484600E-01 +3.20919418135E-01
2.72500000000E+09 +7.57213314416E-01 +1.66849388085E-01 +3.39698405487E-04 -2.51265025049E-04 +3.22166944875E-04 -2.76002063950E-04 +7.75158951794E-01 +3.07605589633E-01
2.73000000000E+09 +7.57087056844E-01 +1.50786166862E-01 +3.72900699045E-04 -6.99861173220E-04 +2.99588864439E-04 -5.82177563197E-04 +7.76453849509E-01 +2.93729416755E-01
2.73500000000E+09 +7.55836177293E-01 +1.33971741278E-01 +1.49799532887E-04 -7.11164307121E-04 +1.44161167261E-04 -6.08937013873E-04 +7.77616526566E-01 +2.79089327747E-01
2.74000000000E+09 +7.53363597932E-01 +1.16945755447E-01 +1.94478125525E-05 -6.90422871086E-04 +6.97833707845E-06 -6.06066256463E-04 +7.79075259174E-01 +2.64084553463E-01
2.74500000000E+09 +7.49447718667E-01 +9.95450299309E-02 -1.36376000814E-05 -6.61160771015E-04 +7.41583586838E-05 -6.03775474539E-04 +7.80203932628E-01 +2.48691737026E-01
2.75000000000E+09 +7.44374343193E-01 +8.25886857000E-02 -1.20645240995E-05 -7.54988744148E-04 +5.18378536839E-05 -7.13965225183E-04 +7.81217551244E-01 +2.33707966157E-01
2.75500000000E+09 +7.38903449797E-01 +6.61928338454E-02 -1.86546514830E-04 -8.44941683723E-04 -7.72212115128E-05 -9.30233576042E-04 +7.81279258290E-01 +2.18118212312E-01
2.76000000000E+09 +7.33852539810E-01 +4.99535267492E-02 -3.60060757244E-04 -8.08640045644E-04 -3.59719413796E-04 -8.86641105513E-04 +7.80627616268E-01 +2.02573018446E-01
2.76500000000E+09 +7.29003155643E-01 +3.30942234687E-02 -6.17661208360E-04 -7.21330136448E-04 -6.15719084643E-04 -7.36291110735E-04 +7.79912906137E-01 +1.85632740387E-01
2.77000000000E+09 +7.24254912168E-01 +1.55400310418E-02 -5.38966062153E-04 -5.63769336189E-04 -5.66186279199E-04 -6.07429536671E-04 +7.78676561927E-01 +1.67945971940E-01
2.77500000000E+09 +7.19524712466E-01 -2.93973725321E-03 -5.96903603886E-04 -5.61271132298E-04 -5.86714469639E-04 -6.01379022415E-04 +7.76785445422E-01 +1.49921424164E-01
2.78000000000E+09 +7.14578709968E-01 -2.20811891968E-02 -7.47170997957E-04 -5.13096851531E-04 -7.81360859060E-04 -5.49127782281E-04 +7.74786649661E-01 +1.31983841542E-01
2.78500000000E+09 +7.08857004299E-01 -4.22326965154E-02 -7.69100972530E-04 -4.51985072372E-04 -8.41799740319E-04 -3.76927179715E-04 +7.72205095567E-01 +1.14022170071E-01
2.79000000000E+09 +7.02212660609E-01 -6.27464018516E-02 -8.83520965259E-04 -2.61037787910E-04 -8.73816293199E-04 -2.73097287841E-04 +7.68757690626E-01 +9.64827707573E-02
2.79500000000E+09 +6.94304619230E-01 -8.34511615696E-02 -8.75634527611E-04 -1.11073156022E-04 -8.64673184100E-04 -9.26708073200E-05 +7.64409871099E-01 +7.86757104259E-02
2.80000000000E+09 +6.84396939462E-01 -1.03723777088E-01 -6.42592146270E-04 +1.05660076859E-04 -6.26313742619E-04 +9.90886714608E-05 +7.59770102804E-01 +6.00892562837E-02
2.80500000000E+09 +6.73768803626E-01 -1.22330194158E-01 -4.65393312424E-04 -1.94243390283E-04 -4.47841353219E-04 -2.03202934332E-04 +7.53834194306E-01 +4.06435835210E-02
2.81000000000E+09 +6.62352406891E-01 -1.40225852759E-01 -7.53096904084E-04 -4.07380300307E-04 -7.96797203229E-04 -3.98387707659E-04 +7.47158104887E-01 +2.13984989873E-02
2.81500000000E+09 +6.50049926439E-01 -1.57401979521E-01 -9.53093487184E-04 -2.22876843763E-04 -1.01589834321E-03 -2.19427630317E-04 +7.39976001901E-01 +2.13799851527E-03
2.82000000000E+09 +6.36728380501E-01 -1.74311259069E-01 -1.27633511829E-03 -4.36022454632E-05 -1.31045850453E-03 -1.10296633281E-05 +7.32789206429E-01 -1.77042398765E-02
2.82500000000E+09 +6.22517319881E-01 -1.91158776356E-01 -1.15976980620E-03 +3.52887791856E-04 -1.09888016453E-03 +3.55911089319E-04 +7.23409091687E-01 -3.78710377216E-02
2.83000000000E+09 +6.06861627309E-01 -2.08475238775E-01 -9.41708518519E-04 +5.13639666329E-04 -8.86525736434E-04 +4.91335062786E-04 +7.13561460986E-01 -5.73347818304E-02
2.83500000000E+09 +5.90131928591E-01 -2.26278711569E-01 -9.22399006910E-04 +4.59594638955E-04 -9.05521191128E-04 +4.52953284184E-04 +7.02351341696E-01 -7.75017089776E-02
2.84000000000E+09 +5.71659292801E-01 -2.44975171547E-01 -9.07705653193E-04 +5.94223197001E-04 -8.73219901404E-04 +5.92201408231E-04 +6.91092444755E-01 -9.72345039671E-02
2.84500000000E+09 +5.50508516715E-01 -2.64224232130E-01 -9.99301788577E-04 +6.44618829375E-04 -1.05100104582E-03 +5.84013087586E-04 +6.78955209078E-01 -1.18062609025E-01
2.85000000000E+09 +5.27663997420E-01 -2.82831206359E-01 -9.76037407094E-04 +1.14676206699E-03 -9.01375159885E-04 +1.09735741152E-03 +6.64939213754E-01 -1.38877905534E-01
2.85500000000E+09 +5.03176675908E-01 -3.00592958297E-01 -4.86661763392E-04 +9.58046555409E-04 -5.05426054980E-04 +8.76112013016E-04 +6.50054939889E-01 -1.58997309506E-01
2.86000000000E+09 +4.78115298505E-01 -3.17315187890E-01 -7.76403967920E-04 +8.42334901047E-04 -8.25997676312E-04 +7.26308071345E-04 +6.34071999400E-01 -1.79325720957E-01
2.86500000000E+09 +4.52524013353E-01 -3.33056888883E-01 -9.25293250479E-04 +1.40967539962E-03 -9.82576412964E-04 +1.41043524669E-03 +6.16417104073E-01 -1.99636158120E-01
2.87000000000E+09 +4.26699586302E-01 -3.47661165342E-01 -3.40377392013E-04 +1.70758628950E-03 -3.59017074506E-04 +1.72934841241E-03 +5.97610195645E-01 -2.19747247843E-01
2.87500000000E+09 +4.00406036328E-01 -3.61283947609E-01 -6.33451939354E-05 +1.55252850795E-03 -1.09626283761E-05 +1.53949833686E-03 +5.76885972936E-01 -2.39321872549E-01
2.88000000000E+09 +3.73380817889E-01 -3.73509655043E-01 +2.86749362113E-05 +1.58349990707E-03 +7.19966570882E-05 +1.54041354869E-03 +5.55860699415E-01 -2.57784023194E-01
2.88500000000E+09 +3.45631818036E-01 -3.84528499503E-01 +4.74626662037E-04 +1.51455671630E-03 +4.44340583929E-04 +1.39834929690E-03 +5.33067868922E-01 -2.76581701593E-01
2.89000000000E+09 +3.16729965907E-01 -3.94032158077E-01 +2.92686475095E-04 +1.20831968564E-03 +2.49026611794E-04 +1.16901998228E-03 +5.08037831255E-01 -2.94062391240E-01
2.89500000000E+09 +2.86078965451E-01 -4.02092431511E-01 +3.13543387305E-04 +1.46433002841E-03 +2.71763171241E-04 +1.47919333173E-03 +4.81855809611E-01 -3.11327039780E-01
2.90000000000E+09 +2.53767469301E-01 -4.07420304970E-01 +7.17910270298E-04 +1.78972301734E-03 +6.32091134751E-04 +1.77741764556E-03 +4.53167145746E-01 -3.28157383555E-01
2.90500000000E+09 +2.20191666642E-01 -4.10846828391E-01 +1.00786501514E-03 +1.57634441736E-03 +1.08462329871E-03 +1.60234795291E-03 +4.22520955022E-01 -3.43232815624E-01
2.91000000000E+09 +1.85187180896E-01 -4.11365827406E-01 +1.79669020835E-03 +1.58464371107E-03 +1.78356876655E-03 +1.50841265523E-03 +3.91145604790E-01 -3.56891134595E-01
2.91500000000E+09 +1.49985964654E-01 -4.09583011100E-01 +1.96658203599E-03 +7.06938767721E-04 +1.95802048665E-03 +6.70322105528E-04 +3.58723228909E-01 -3.68000476950E-01
2.92000000000E+09 +1.13831847440E-01 -4.05201896410E-01 +1.61180559790E-03 +1.72663139103E-04 +1.55882564190E-03 +1.93115598557E-04 +3.25854906888E-01 -3.77840367681E-01
2.92500000000E+09 +7.80263723348E-02 -3.98516555071E-01 +1.20000044792E-03 +3.05998754806E-04 +1.10141410474E-03 +2.99873692700E-04 +2.90349157129E-01 -3.86466507781E-01
2.93000000000E+09 +4.24216400747E-02 -3.89676826086E-01 +1.39061231425E-03 +6.88298188597E-04 +1.36550366437E-03 +7.24843101684E-04 +2.52839064419E-01 -3.91726395762E-01
2.93500000000E+09 +7.59433640176E-03 -3.78517248538E-01 +2.02287289079E-03 +3.26179448767E-04 +1.95651893664E-03 +3.81771354995E-04 +2.15242592483E-01 -3.95112918102E-01
2.94000000000E+09 -2.61810729961E-02 -3.65823853148E-01 +1.96424881448E-03 -1.06531097120E-04 +1.97040111678E-03 -8.43115907330E-05 +1.76886627815E-01 -3.96825853630E-01
2.94500000000E+09 -6.01303057462E-02 -3.51136663750E-01 +1.90847845953E-03 -3.96782889732E-04 +1.91565855359E-03 -3.41474865003E-04 +1.38119821747E-01 -3.97123562797E-01
2.95000000000E+09 -9.34784469004E-02 -3.33178146610E-01 +1.94154625871E-03 -8.55974508877E-04 +1.93879308752E-03 -7.61603235854E-04 +9.79161698480E-02 -3.93865549671E-01
2.95500000000E+09 -1.25253501283E-01 -3.11691702035E-01 +1.81550276515E-03 -1.17373747920E-03 +1.84169148930E-03 -1.13218837974E-03 +5.89891987782E-02 -3.87061424428E-01
2.96000000000E+09 -1.54453918753E-01 -2.87367809044E-01 +1.46994150712E-03 -1.78223373255E-03 +1.55265746060E-03 -1.83516402285E-03 +2.03544287603E-02 -3.77989962144E-01
2.96500000000E+09 -1.81812471208E-01 -2.61433160849E-01 +5.79181216813E-04 -1.65563349695E-03 +5.82618878995E-04 -1.73656588162E-03 -1.89461404791E-02 -3.67374354254E-01
2.97000000000E+09 -2.07593672225E-01 -2.33031142151E-01 +4.41546542503E-04 -1.19781850328E-03 +4.21635063323E-04 -1.21673869698E-03 -5.97050833078E-02 -3.52844486121E-01
2.97500000000E+09 -2.31868794024E-01 -2.02556644805E-01 +7.43736298601E-04 -1.00453121333E-03 +7.46263615251E-04 -9.42694847259E-04 -9.77482434657E-02 -3.34657596602E-01
2.98000000000E+09 -2.53710689682E-01 -1.69956712759E-01 +8.69199309453E-04 -1.51734861035E-03 +9.22470643386E-04 -1.49555472773E-03 -1.34758588982E-01 -3.15549337813E-01
2.98500000000E+09 -2.73502872253E-01 -1.36791188890E-01 +3.85690012559E-04 -1.86016000092E-03 +5.32735817981E-04 -1.88610401309E-03 -1.70323208443E-01 -2.93707502652E-01
2.99000000000E+09 -2.91243754236E-01 -1.02848211895E-01 -1.40325653234E-04 -1.74662936390E-03 -7.58666563702E-05 -1.84887147203E-03 -2.06044650066E-01 -2.70219392217E-01
2.99500000000E+09 -3.07068302904E-01 -6.93641703309E-02 -3.15959435452E-04 -1.57422661052E-03 -3.48916463569E-04 -1.62235311892E-03 -2.40531084657E-01 -2.41059523738E-01
3.00000000000E+09 -3.22063467838E-01 -3.54934196324E-02 -5.21557323436E-04 -1.19431870218E-03 -5.63240471557E-04 -1.22685105600E-03 -2.71373759035E-01 -2.09830466191E-01
3.00500000000E+09 -3.33895723064E-01 -8.70275499791E-04 -3.14813966119E-04 -1.03533119101E-03 -3.41414708642E-04 -1.00931734946E-03 -3.00477818826E-01 -1.77543300591E-01
3.01000000000E+09 -3.42567761301E-01 +3.25392998919E-02 -4.58045837895E-04 -1.45914794620E-03 -3.97167710739E-04 -1.38357163646E-03 -3.27592639226E-01 -1.42979415971E-01
3.01500000000E+09 -3.48811168832E-01 +6.60594083042E-02 -6.78294218222E-04 -1.05818838622E-03 -6.78823222500E-04 -1.10611501227E-03 -3.51978555799E-01 -1.06911896154E-01
3.02000000000E+09 -3.51280112285E-01 +9.83878099014E-02 -6.86813599312E-04 -1.02155234304E-03 -6.83780740243E-04 -1.03873113943E-03 -3.72971142285E-01 -6.88463388781E-02
3.02500000000E+09 -3.51267045792E-01 +1.30136971630E-01 -4.93361947975E-04 -9.65245289087E-04 -5.12017168060E-04 -9.86778602343E-04 -3.89521198753E-01 -2.92406675762E-02
3.03000000000E+09 -3.47994365622E-01 +1.61273695178E-01 -9.00618329422E-04 -1.54050655232E-03 -8.81287452886E-04 -1.59152785764E-03 -4.03560106719E-01 +9.53293952745E-03
3.03500000000E+09 -3.42533478784E-01 +1.91764214280E-01 -1.91146171044E-03 -1.00425055964E-03 -1.94029625575E-03 -1.05068575049E-03 -4.15771794154E-01 +4.94521048749E-02
3.04000000000E+09 -3.34287199811E-01 +2.22162942247E-01 -1.60331158629E-03 -9.70893317200E-05 -1.64479999760E-03 -4.06823837746E-05 -4.24792722043E-01 +9.01884620128E-02
3.04500000000E+09 -3.24253128149E-01 +2.51842535351E-01 -1.08928156169E-03 +1.60708659718E-04 -1.14331726994E-03 +1.66539879636E-04 -4.30922716204E-01 +1.30747068804E-01
3.05000000000E+09 -3.12260521202E-01 +2.81050403968E-01 -8.46752462856E-04 -8.17285774919E-05 -8.56394054584E-04 -4.15990785001E-05 -4.34094030513E-01 +1.71042794848E-01
3.05500000000E+09 -2.99223061739E-01 +3.09035164667E-01 -7.73462351405E-04 -2.43794035525E-04 -8.49326781629E-04 -2.61749503143E-04 -4.34031476596E-01 +2.10447244700E-01
3.06000000000E+09 -2.85123688494E-01 +3.36342443636E-01 -1.29091595141E-03 -3.18906815159E-04 -1.30963200535E-03 -2.98082249735E-04 -4.31563630779E-01 +2.48587360647E-01
3.06500000000E+09 -2.70161731093E-01 +3.61977567116E-01 -1.38865187412E-03 +1.63155194331E-04 -1.27678457447E-03 +1.64988638204E-04 -4.27369689249E-01 +2.85497701490E-01
3.07000000000E+09 -2.55082682709E-01 +3.86258950358E-01 -1.10083460354E-03 +5.07415442493E-04 -1.12793391087E-03 +3.80405916300E-04 -4.21023808592E-01 +3.21920905977E-01
