# Hz S RI R 50
! CMT, C1220, 16058040, 17.2.0/1
! Date: 15/08/2018 10:20:07
! Data: Format (Calibration Info)
! Freq                      S11: Re/Im (F2)                       S21: Re/Im (F2)                       S12: Re/Im (F2)                       S22: Re/Im (F2)            
2.50000000000E+09 +5.96801934284E-01 +6.34022184776E-01 -3.06806969047E-04 +2.23015688231E-04 -3.46149432721E-04 +2.49852237541E-04 +5.73148724405E-01 +7.17041710761E-01
2.50500000000E+09 +6.03408809716E-01 +6.26128400074E-01 -2.00096142794E-04 +3.26008674380E-04 -2.03211279013E-04 +3.18988805745E-04 +5.78742735782E-01 +7.11533450582E-01
2.51000000000E+09 +6.10046292533E-01 +6.17836980360E-01 -1.30695034622E-04 +2.83455087691E-04 -9.37259188756E-05 +3.00919307343E-04 +5.84166506777E-01 +7.06262936729E-01
2.51500000000E+09 +6.16290531092E-01 +6.09706343541E-01 -7.04334931231E-05 +1.96163607416E-04 -1.22206281430E-04 +2.17700834118E-04 +5.89466941086E-01 +7.00999891657E-01
2.52000000000E+09 +6.22145446155E-01 +6.01832370462E-01 -1.42894762839E-04 +2.21982475064E-04 -9.52827358500E-05 +2.27323877860E-04 +5.94714501741E-01 +6.94849709190E-01
2.52500000000E+09 +6.27462319262E-01 +5.94634755667E-01 -1.51779476485E-04 +2.34101629035E-04 -1.64526355081E-04 +2.51174117648E-04 +6.00294678301E-01 +6.88603091822E-01
2.53000000000E+09 +6.32137896885E-01 +5.87942952486E-01 -1.06914603324E-04 +2.68107825020E-04 -1.08516496075E-04 +2.73570381100E-04 +6.06312914651E-01 +6.81760174818E-01
2.53500000000E+09 +6.36631813540E-01 +5.81923541927E-01 -1.04107312361E-04 +3.12018483769E-04 -1.91664460609E-04 +2.77361012163E-04 +6.12453949420E-01 +6.74908500620E-01
2.54000000000E+09 +6.40561723038E-01 +5.75882385617E-01 -7.47909630247E-05 +3.82827117509E-04 -1.18677189001E-04 +3.78589866059E-04 +6.18345043791E-01 +6.68262608040E-01
2.54500000000E+09 +6.44691196955E-01 +5.70167444726E-01 +2.02689804035E-05 +4.35413835298E-04 -2.32043520976E-05 +4.38209357721E-04 +6.24088647946E-01 +6.61919102732E-01
2.55000000000E+09 +6.49549952520E-01 +5.64384237234E-01 +1.59580530682E-04 +3.58213555737E-04 +1.00215536975E-04 +3.72861242527E-04 +6.29529179177E-01 +6.55562346921E-01
2.55500000000E+09 +6.55064895597E-01 +5.57490632668E-01 +1.85977729290E-04 +2.83458366394E-04 +1.70539801176E-04 +2.92746552973E-04 +6.34862811435E-01 +6.48974693519E-01
2.56000000000E+09 +6.61213671697E-01 +5.50152238038E-01 +1.00213783099E-04 +1.62350409344E-04 +1.46469869939E-04 +1.65233584015E-04 +6.40193121082E-01 +6.41749127296E-01
2.56500000000E+09 +6.67416567204E-01 +5.41400178421E-01 +2.71142525261E-05 +1.97655116619E-04 +3.81418393282E-06 +1.77302617021E-04 +6.45744735189E-01 +6.34209708390E-01
2.57000000000E+09 +6.73755646940E-01 +5.32658912110E-01 -1.90231217594E-05 +3.77540086259E-04 +4.76181043562E-05 +3.67162779021E-04 +6.51226468102E-01 +6.26226862812E-01
2.57500000000E+09 +6.79898344331E-01 +5.23516058082E-01 +1.55863839749E-04 +4.52023541258E-04 +2.29143838905E-04 +3.85622536841E-04 +6.56473262132E-01 +6.18612508296E-01
2.58000000000E+09 +6.85489252198E-01 +5.14586002984E-01 +3.22446485457E-04 +4.07600774295E-04 +2.86551480911E-04 +3.28153390447E-04 +6.61450974410E-01 +6.11313322110E-01
2.58500000000E+09 +6.90734739518E-01 +5.05566725476E-01 +3.89542319646E-04 +2.35860942839E-04 +3.10368920237E-04 +2.63559520462E-04 +6.66291523136E-01 +6.03533262700E-01
2.59000000000E+09 +6.95222949845E-01 +4.96878003394E-01 +3.08568882114E-04 +1.45890905873E-04 +2.67462076501E-04 +1.67793440001E-04 +6.70980710523E-01 +5.96036072478E-01
2.59500000000E+09 +6.99373865413E-01 +4.88516974694E-01 +2.87901451689E-04 +1.50748051687E-04 +2.52962714865E-04 +1.97291521646E-04 +6.75940055756E-01 +5.87956900384E-01
2.60000000000E+09 +7.03189767638E-01 +4.79942010317E-01 +3.01361877622E-04 +2.22047809336E-04 +2.97134966746E-04 +2.34533404802E-04 +6.81023104757E-01 +5.79375431587E-01
2.60500000000E+09 +7.07248400957E-01 +4.70886614874E-01 +3.40520282690E-04 +2.06301139803E-04 +4.04131112143E-04 +1.34875062518E-04 +6.86217417777E-01 +5.70706314161E-01
2.61000000000E+09 +7.11367983832E-01 +4.61003379798E-01 +4.02254945295E-04 +1.31649511445E-04 +4.09391236232E-04 +1.61865964549E-04 +6.91381709023E-01 +5.61997963777E-01
2.61500000000E+09 +7.16022687362E-01 +4.49860877359E-01 +4.52704875634E-04 +7.90251086051E-05 +4.58801652466E-04 +6.95547306511E-05 +6.96130217889E-01 +5.53324600566E-01
2.62000000000E+09 +7.20029612174E-01 +4.37465023083E-01 +4.02130150861E-04 -6.70738770616E-05 +4.60242181354E-04 -3.46760366876E-05 +7.00712914941E-01 +5.44329662571E-01
2.62500000000E+09 +7.23980553726E-01 +4.24261738931E-01 +3.34382494678E-04 +7.03670918195E-06 +3.45778774167E-04 -4.30441743150E-05 +7.05517574551E-01 +5.35387365514E-01
2.63000000000E+09 +7.27542471752E-01 +4.10893791782E-01 +3.33598906391E-04 +8.82885558803E-06 +3.50340984188E-04 -4.34694547018E-05 +7.10401763894E-01 +5.26176999770E-01
2.63500000000E+09 +7.30631240167E-01 +3.97437913520E-01 +3.52847710124E-04 -2.02917734142E-05 +3.61411748915E-04 -3.75075389196E-05 +7.15467029861E-01 +5.16668288763E-01
2.64000000000E+09 +7.33617929067E-01 +3.84541079551E-01 +4.39082356118E-04 +4.35334099495E-05 +3.76292881603E-04 +4.14794734423E-05 +7.20248220247E-01 +5.06785471862E-01
2.64500000000E+09 +7.36445485799E-01 +3.72301882128E-01 +4.40644325578E-04 -3.76998668490E-05 +4.14840525876E-04 -3.45617090198E-05 +7.24944473647E-01 +4.97016703815E-01
2.65000000000E+09 +7.38619422232E-01 +3.60999293471E-01 +4.52170768007E-04 -6.03157736474E-05 +4.61543083098E-04 -6.48522818129E-06 +7.29114195019E-01 +4.86964862121E-01
2.65500000000E+09 +7.41212382383E-01 +3.50001551103E-01 +5.59531388535E-04 -1.24044139270E-04 +6.21116048662E-04 -1.26802995256E-04 +7.33061705130E-01 +4.76434989429E-01
2.66000000000E+09 +7.43911319161E-01 +3.39128985912E-01 +5.34094373761E-04 -2.75281351832E-04 +6.20887100866E-04 -2.74227758227E-04 +7.37002443652E-01 +4.65281770982E-01
2.66500000000E+09 +7.46668335469E-01 +3.27940667790E-01 +6.18931692392E-04 -3.28153181193E-04 +5.77600685073E-04 -3.85642007424E-04 +7.40836613582E-01 +4.54021832789E-01
2.67000000000E+09 +7.48771917051E-01 +3.15672345284E-01 +5.06753390202E-04 -6.27120214636E-04 +4.89468757079E-04 -6.16183085254E-04 +7.45028986754E-01 +4.43215722744E-01
2.67500000000E+09 +7.50318525134E-01 +3.02975499370E-01 +2.42426540891E-04 -5.96082996507E-04 +2.33474544899E-04 -5.38552205341E-04 +7.49177797738E-01 +4.31692758743E-01
2.68000000000E+09 +7.51608918129E-01 +2.89623278354E-01 +2.91772209537E-04 -4.78038780879E-04 +2.70850001976E-04 -4.37568223514E-04 +7.52798266366E-01 +4.20264132620E-01
2.68500000000E+09 +7.52234368288E-01 +2.75669994056E-01 +2.90948293599E-04 -5.40820713571E-04 +3.10449389895E-04 -4.82494410946E-04 +7.55408290801E-01 +4.08640823773E-01
2.69000000000E+09 +7.52589772082E-01 +2.61296977422E-01 +2.85387789961E-04 -6.27309251469E-04 +3.16023361680E-04 -6.00807203568E-04 +7.57697404151E-01 +3.96906293180E-01
2.69500000000E+09 +7.52595048130E-01 +2.47119969036E-01 +2.49778771906E-04 -7.56564460027E-04 +2.71613803805E-04 -7.68380304079E-04 +7.60147916199E-01 +3.84549501924E-01
2.70000000000E+09 +7.52708138270E-01 +2.33224962440E-01 +1.33931457880E-04 -9.37024445232E-04 +1.76868869094E-04 -8.49994712071E-04 +7.63167133447E-01 +3.71470355190E-01
2.70500000000E+09 +7.52931015482E-01 +2.19739815948E-01 -1.40319187653E-04 -9.19688376949E-04 -6.40689372852E-05 -9.11728267837E-04 +7.65549154671E-01 +3.57866946716E-01
2.71000000000E+09 +7.53815988552E-01 +2.06451813192E-01 -2.32939680874E-04 -8.76330595209E-04 -2.11391104800E-04 -9.37244765866E-04 +7.68222028188E-01 +3.44960532896E-01
2.71500000000E+09 +7.55456181887E-01 +1.92525249685E-01 -5.76746482295E-04 -7.52172647799E-04 -5.37356021355E-04 -8.01577565170E-04 +7.70717308212E-01 +3.32341741801E-01
2.72000000000E+09 +7.56792843752E-01 +1.77667044561E-01 -5.27280918605E-04 -4.54600461891E-04 -5.96642099722E-04 -4.37053905830E-04 +7.72656431781E-01 +3.19801388395E-01
2.72500000000E+09 +7.57387678875E-01 +1.61908206732E-01 -2.92192902291E-04 -4.39933640885E-04 -3.31700512467E-04 -3.98527517859E-04 +7.73746793893E-01 +3.06650302088E-01
2.73000000000E+09 +7.56893989442E-01 +1.45690932098E-01 -3.86422383261E-04 -6.37891871716E-04 -3.81816937076E-04 -5.72080475791E-04 +7.75071263619E-01 +2.93051267374E-01
2.73500000000E+09 +7.55218897954E-01 +1.28522524923E-01 -5.03771390688E-04 -5.71937107825E-04 -4.72929166330E-04 -4.97799938361E-04 +7.76374168871E-01 +2.78529526856E-01
2.74000000000E+09 +7.52287136942E-01 +1.11628975042E-01 -8.16229151102E-04 -4.58712063833E-04 -6.51761633634E-04 -4.71587942022E-04 +7.77801424811E-01 +2.63593662227E-01
2.74500000000E+09 +7.48305985542E-01 +9.43644312457E-02 -7.22725733435E-04 -2.08272543893E-04 -7.24031698835E-04 -2.70699238268E-04 +7.78901484390E-01 +2.48355767902E-01
2.75000000000E+09 +7.42990576106E-01 +7.70276653120E-02 -5.77416072647E-04 -1.58118039152E-04 -5.23224735425E-04 -3.14013041331E-04 +7.79659108051E-01 +2.33395081515E-01
2.75500000000E+09 +7.37134017883E-01 +6.04026147653E-02 -5.17113368319E-04 -2.94799341421E-04 -5.22864636832E-04 -3.97051201966E-04 +7.79663186190E-01 +2.17961933935E-01
2.76000000000E+09 +7.31496883550E-01 +4.43671479166E-02 -7.22237664755E-04 -3.46776792426E-04 -8.17322781526E-04 -3.54601075360E-04 +7.78999167752E-01 +2.02695731143E-01
2.76500000000E+09 +7.26579153989E-01 +2.78714901239E-02 -9.10230177101E-04 -1.76850471421E-04 -9.59737491012E-04 -1.67752525229E-04 +7.78315734467E-01 +1.86045184565E-01
2.77000000000E+09 +7.21554538445E-01 +1.01616195831E-02 -8.39614160713E-04 -1.30085586118E-05 -8.71927517585E-04 -8.73290904236E-06 +7.76913489690E-01 +1.68520368995E-01
2.77500000000E+09 +7.16678075077E-01 -8.30356313957E-03 -7.91455029913E-04 +4.40738365977E-05 -8.12776852091E-04 +7.72518139222E-05 +7.74943987801E-01 +1.50816017695E-01
2.78000000000E+09 +7.11244116401E-01 -2.76690840753E-02 -8.45814213170E-04 +7.36257997911E-05 -9.06831961018E-04 +1.64763138976E-04 +7.73210794539E-01 +1.33011175461E-01
2.78500000000E+09 +7.04781885429E-01 -4.78554713584E-02 -7.83798846219E-04 +1.54747996941E-04 -7.57418837795E-04 +1.87407651411E-04 +7.70717608926E-01 +1.15333151177E-01
2.79000000000E+09 +6.97449364510E-01 -6.80963019933E-02 -9.77111392938E-04 +2.49554598555E-04 -9.07583149486E-04 +3.50601814332E-04 +7.67475854868E-01 +9.78791307442E-02
2.79500000000E+09 +6.89133748149E-01 -8.84901548617E-02 -9.20253072502E-04 +5.31614697962E-04 -8.87298061437E-04 +4.86900267507E-04 +7.63252693238E-01 +8.01337081873E-02
2.80000000000E+09 +6.78959013687E-01 -1.08577354111E-01 -7.28610727369E-04 +7.26083684822E-04 -6.62545547957E-04 +6.60367689410E-04 +7.58807349534E-01 +6.18141535829E-02
2.80500000000E+09 +6.67827101821E-01 -1.27250880794E-01 -4.19072822559E-04 +5.34869637635E-04 -4.05717106643E-04 +4.82553224566E-04 +7.53103554098E-01 +4.24752708071E-02
2.81000000000E+09 +6.55633722402E-01 -1.44825509140E-01 -6.05097010520E-04 +3.86928946157E-04 -6.66208331365E-04 +3.47361548883E-04 +7.46554955817E-01 +2.32947252469E-02
2.81500000000E+09 +6.42880871504E-01 -1.61580044971E-01 -7.58773594513E-04 +6.36248230821E-04 -7.80615778974E-04 +6.24015227401E-04 +7.39383981975E-01 +4.07266116947E-03
2.82000000000E+09 +6.29277018730E-01 -1.77896484042E-01 -8.21708397091E-04 +8.80151486488E-04 -8.02562122495E-04 +9.31247316464E-04 +7.32205078003E-01 -1.54927743399E-02
2.82500000000E+09 +6.15099331839E-01 -1.94596996643E-01 -4.82006404585E-04 +1.22785084176E-03 -3.48371883178E-04 +1.17944603469E-03 +7.23041912451E-01 -3.54566611178E-02
2.83000000000E+09 +5.98692552673E-01 -2.11922002887E-01 -4.10470161528E-05 +1.09907688496E-03 -1.00138860033E-04 +9.97135915463E-04 +7.13467617139E-01 -5.46528022151E-02
2.83500000000E+09 +5.81147961103E-01 -2.29061055847E-01 -2.03335227397E-04 +9.45243946888E-04 -2.34335653596E-04 +8.64750156738E-04 +7.02808561608E-01 -7.47238955380E-02
2.84000000000E+09 +5.62058431220E-01 -2.46762016210E-01 -6.01715597083E-05 +1.00280410305E-03 -8.73283379694E-05 +9.89715223579E-04 +6.91644460655E-01 -9.44250449978E-02
2.84500000000E+09 +5.41006470664E-01 -2.65092242577E-01 -1.93032455794E-04 +9.21409732895E-04 -1.82739975607E-04 +9.27845126939E-04 +6.79971447548E-01 -1.14769983102E-01
2.85000000000E+09 +5.17939619566E-01 -2.83090802908E-01 +9.13213113168E-05 +1.51939907292E-03 +5.17482733134E-05 +1.45775814387E-03 +6.66734740951E-01 -1.35746698247E-01
2.85500000000E+09 +4.93240310477E-01 -3.00542120817E-01 +6.94005413314E-04 +9.45593275564E-04 +6.69240448194E-04 +9.50353187968E-04 +6.52335957544E-01 -1.56117434546E-01
2.86000000000E+09 +4.67355762683E-01 -3.16557537840E-01 +2.27845925949E-04 +5.61186638538E-04 +2.15097497228E-04 +5.22770197088E-04 +6.36849940568E-01 -1.76769533251E-01
2.86500000000E+09 +4.41497409499E-01 -3.30823790126E-01 -1.20140970768E-04 +1.19123203041E-03 -1.11085705884E-04 +1.16365993669E-03 +6.19576873655E-01 -1.97369106200E-01
2.87000000000E+09 +4.16033040841E-01 -3.44244785667E-01 +7.13028676132E-04 +1.46618125613E-03 +7.07907254650E-04 +1.51796738605E-03 +6.01100151508E-01 -2.17740030179E-01
2.87500000000E+09 +3.90229853741E-01 -3.57426535117E-01 +8.74464510402E-04 +9.67220300343E-04 +9.21582881568E-04 +1.00056048706E-03 +5.81109685370E-01 -2.37780817905E-01
2.88000000000E+09 +3.62920000442E-01 -3.69082177674E-01 +8.33240594243E-04 +1.01310718894E-03 +8.76282489673E-04 +9.11758773559E-04 +5.60295090499E-01 -2.56966118556E-01
2.88500000000E+09 +3.35199718030E-01 -3.79048274135E-01 +1.20558660614E-03 +8.24056897710E-04 +1.17253190673E-03 +7.96994020809E-04 +5.37737613998E-01 -2.76516474200E-01
2.89000000000E+09 +3.06371038806E-01 -3.87288860752E-01 +1.01280512202E-03 +5.64097440148E-04 +1.00426675667E-03 +5.68798567989E-04 +5.12579290680E-01 -2.94968159935E-01
2.89500000000E+09 +2.76677987557E-01 -3.94172602593E-01 +1.07427235824E-03 +9.51682735636E-04 +1.00125279184E-03 +9.33997010978E-04 +4.85705498763E-01 -3.12659549407E-01
2.90000000000E+09 +2.44993535871E-01 -3.99050839891E-01 +1.81793657861E-03 +9.03533532651E-04 +1.81823801377E-03 +9.13593584939E-04 +4.56890521683E-01 -3.29411665259E-01
2.90500000000E+09 +2.11724699797E-01 -4.02082456661E-01 +1.70443498257E-03 +4.71031529070E-05 +1.78720094093E-03 +2.90528242393E-05 +4.26417576847E-01 -3.44815967554E-01
2.91000000000E+09 +1.76582970083E-01 -4.01418186085E-01 +1.69213820229E-03 +6.21065409027E-05 +1.70286050968E-03 -4.54118855784E-06 +3.95366649034E-01 -3.58764667108E-01
2.91500000000E+09 +1.42161657387E-01 -3.98057396015E-01 +1.83679650078E-03 -2.12632310715E-04 +1.74179332448E-03 -2.73748411116E-04 +3.63091313604E-01 -3.71038971162E-01
2.92000000000E+09 +1.07724984958E-01 -3.92299048271E-01 +1.79909574133E-03 -1.07029156052E-03 +1.67048991109E-03 -9.81843910178E-04 +3.29491715938E-01 -3.81746093031E-01
2.92500000000E+09 +7.34999986186E-02 -3.86218540383E-01 +7.88037286779E-04 -9.25303974948E-04 +8.05267930133E-04 -9.03380447945E-04 +2.93455855913E-01 -3.90558671550E-01
2.93000000000E+09 +3.78313491570E-02 -3.76961729338E-01 +9.79423260808E-04 -4.00992160242E-04 +1.05534187489E-03 -3.27123795199E-04 +2.55699692415E-01 -3.96238305059E-01
2.93500000000E+09 +4.09804299449E-03 -3.64890825821E-01 +1.57555916358E-03 -8.76514081098E-04 +1.59176889222E-03 -8.03734746620E-04 +2.17453162013E-01 -4.00349282747E-01
2.94000000000E+09 -2.88395718089E-02 -3.51524198545E-01 +1.12045990563E-03 -1.25556470023E-03 +1.14729508323E-03 -1.19811923246E-03 +1.78734256084E-01 -4.02184325194E-01
2.94500000000E+09 -6.10014420786E-02 -3.36267205297E-01 +9.60228286932E-04 -1.17679589792E-03 +1.00364092819E-03 -1.08228917668E-03 +1.39562235303E-01 -4.03110196286E-01
2.95000000000E+09 -9.28560080250E-02 -3.18372308848E-01 +1.03329665477E-03 -1.41334538903E-03 +1.02092271770E-03 -1.31648927880E-03 +9.86384941447E-02 -4.00907496016E-01
2.95500000000E+09 -1.23549407372E-01 -2.97365656881E-01 +1.01005343647E-03 -1.61216521066E-03 +1.04946750077E-03 -1.54865346594E-03 +5.81420127130E-02 -3.94732720394E-01
2.96000000000E+09 -1.51856340420E-01 -2.72519369113E-01 +5.72871021931E-04 -2.29411342939E-03 +6.09489614610E-04 -2.36160208791E-03 +1.77054127537E-02 -3.85732711653E-01
2.96500000000E+09 -1.77356591727E-01 -2.46619587916E-01 -3.89633397823E-04 -2.01142050139E-03 -4.78558981960E-04 -2.05918661472E-03 -2.30949545452E-02 -3.74309683559E-01
2.97000000000E+09 -2.01593512651E-01 -2.18812146693E-01 -3.03802723954E-04 -1.38996977430E-03 -3.33340055167E-04 -1.38196114933E-03 -6.51024322648E-02 -3.58909383299E-01
2.97500000000E+09 -2.24461721861E-01 -1.89115719897E-01 -1.75309364894E-04 -1.43018265979E-03 -1.64028141868E-04 -1.43575743128E-03 -1.04151934004E-01 -3.39633367274E-01
2.98000000000E+09 -2.45305994367E-01 -1.57370687395E-01 -3.82392536657E-04 -1.84961093268E-03 -2.29311483361E-04 -1.85595771189E-03 -1.42132908359E-01 -3.19498350778E-01
2.98500000000E+09 -2.64089364500E-01 -1.25170935329E-01 -9.64786297511E-04 -1.81429276325E-03 -9.04288940716E-04 -1.87562976467E-03 -1.78269404194E-01 -2.95492809080E-01
2.99000000000E+09 -2.81076666680E-01 -9.19044165725E-02 -1.38097259649E-03 -1.52426786843E-03 -1.46255514206E-03 -1.66309196215E-03 -2.13287245184E-01 -2.70603532180E-01
2.99500000000E+09 -2.95870984095E-01 -5.91461845909E-02 -1.47179907812E-03 -9.47561435447E-04 -1.51590183629E-03 -9.65931097148E-04 -2.47450136426E-01 -2.41021937204E-01
3.00000000000E+09 -3.09332194632E-01 -2.61750425253E-02 -1.27000590166E-03 -7.95428338790E-04 -1.33558104185E-03 -6.95686789601E-04 -2.78298794053E-01 -2.08887088949E-01
3.00500000000E+09 -3.20553790557E-01 +6.31670135480E-03 -1.46717017005E-03 -8.29785821890E-04 -1.46014665979E-03 -8.35123223860E-04 -3.07199477088E-01 -1.75716662779E-01
3.01000000000E+09 -3.29442725029E-01 +3.87196904100E-02 -1.89999262698E-03 -6.84417441217E-04 -1.82160904835E-03 -6.60592108116E-04 -3.34450559051E-01 -1.40066506576E-01
3.01500000000E+09 -3.34766211122E-01 +7.10528279172E-02 -1.80992692472E-03 +2.20030493764E-04 -1.81432576015E-03 +1.74955422004E-04 -3.57901277438E-01 -1.02216280106E-01
3.02000000000E+09 -3.37351652869E-01 +1.01812245714E-01 -1.25449709897E-03 +2.79552754222E-04 -1.29208016698E-03 +3.60115716185E-04 -3.77115502453E-01 -6.37687883105E-02
3.02500000000E+09 -3.37368747399E-01 +1.32387706106E-01 -9.16172433564E-04 +1.23912605469E-04 -1.00244533011E-03 +1.79067824546E-04 -3.92816517508E-01 -2.42373260544E-02
3.03000000000E+09 -3.34241362800E-01 +1.62251805072E-01 -1.44911423300E-03 -3.39566981162E-04 -1.43483649200E-03 -3.25029469166E-04 -4.06427819872E-01 +1.44241120949E-02
3.03500000000E+09 -3.29097058127E-01 +1.91777272564E-01 -1.92851382639E-03 +4.98948071150E-04 -1.94061978170E-03 +4.81522644494E-04 -4.18133457383E-01 +5.49120593001E-02
3.04000000000E+09 -3.20912106343E-01 +2.21094490664E-01 -1.44607966020E-03 +1.21388480523E-03 -1.53961860113E-03 +1.23509786662E-03 -4.26400218573E-01 +9.56977525004E-02
3.04500000000E+09 -3.11307093081E-01 +2.49315305999E-01 -6.53349556610E-04 +1.32368921872E-03 -6.35668407818E-04 +1.44751678199E-03 -4.31885972458E-01 +1.36383121104E-01
3.05000000000E+09 -3.00322404436E-01 +2.77099858345E-01 -3.74776698431E-04 +5.67175071600E-04 -3.18539221225E-04 +5.95160469929E-04 -4.34291053626E-01 +1.76581153480E-01
3.05500000000E+09 -2.88312104224E-01 +3.04828327589E-01 -8.28360658264E-04 +4.27856033861E-04 -8.51053402740E-04 +4.45928409778E-04 -4.33705816796E-01 +2.15911300502E-01
3.06000000000E+09 -2.74445232012E-01 +3.31618779466E-01 -1.41611268227E-03 +1.06053756105E-03 -1.30499306974E-03 +1.08964491012E-03 -4.30255415643E-01 +2.54286545459E-01
3.06500000000E+09 -2.60329079339E-01 +3.56435904810E-01 -2.77068972150E-04 +1.85716718561E-03 -2.31694530513E-04 +1.71302262655E-03 -4.24974709429E-01 +2.90744026839E-01
3.07000000000E+09 -2.45666848099E-01 +3.80478738569E-01 +2.21430474953E-04 +1.08322547641E-03 +2.10595830975E-04 +1.07453346704E-03 -4.18047297226E-01 +3.26105682447E-01
