# Hz S RI R 50
! CMT, C1220, 16058040, 17.2.0/1
! Date: 15/08/2018 10:16:21
! Data: Format (Calibration Info)
! Freq                      S11: Re/Im (F2)                       S21: Re/Im (F2)                       S12: Re/Im (F2)                       S22: Re/Im (F2)            
2.50000000000E+09 +5.96803238019E-01 +6.34408854561E-01 -8.56434246816E-05 +1.00970164845E-04 -8.50549000602E-05 +8.51727302881E-05 +5.72898172159E-01 +7.17160288530E-01
2.50500000000E+09 +6.03249016308E-01 +6.26450976340E-01 -1.73152761723E-05 +1.21185965789E-04 +7.66610797617E-06 +1.41556936954E-04 +5.78497991117E-01 +7.11625211370E-01
2.51000000000E+09 +6.09754572398E-01 +6.18293675509E-01 +2.19516855539E-05 +1.00342600170E-04 -1.87024614109E-06 +7.45571421573E-05 +5.83916398324E-01 +7.06401007247E-01
2.51500000000E+09 +6.16016452785E-01 +6.10449553236E-01 -1.94735335514E-05 +8.56290114830E-05 +3.60440485582E-05 +9.68576964515E-05 +5.89084770524E-01 +7.01158234791E-01
2.52000000000E+09 +6.21944302507E-01 +6.02641800559E-01 +6.27056197966E-05 +9.44688581649E-05 +4.05050231479E-06 +1.18332866153E-04 +5.94446926555E-01 +6.95211257697E-01
2.52500000000E+09 +6.27283525987E-01 +5.95250836955E-01 +2.55800262022E-05 +6.56878158544E-05 +4.88760377572E-05 +1.84462598982E-05 +6.00038999063E-01 +6.88839869765E-01
2.53000000000E+09 +6.32046366634E-01 +5.88505581231E-01 +3.36860372929E-05 +1.10499393080E-04 +2.18899146985E-05 +9.46192101037E-05 +6.06192620023E-01 +6.81858009777E-01
2.53500000000E+09 +6.36412147416E-01 +5.82276248584E-01 -3.21702688833E-05 +7.20380427914E-05 +8.41940078789E-06 +1.05441324233E-04 +6.12187343892E-01 +6.75041399163E-01
2.54000000000E+09 +6.40707718356E-01 +5.76145629154E-01 -4.36178537239E-05 +1.30152533604E-04 -5.21896886624E-05 +1.76433461071E-04 +6.18033847658E-01 +6.68316069989E-01
2.54500000000E+09 +6.44846236807E-01 +5.70312529659E-01 +6.47655870828E-05 +2.00045418687E-04 +4.89069911666E-06 +2.16221945729E-04 +6.23889705498E-01 +6.61910331007E-01
2.55000000000E+09 +6.49720744251E-01 +5.64477313683E-01 +1.25261670549E-04 +1.58447400816E-04 +1.25283838826E-04 +2.00779248219E-04 +6.29274813808E-01 +6.55517248729E-01
2.55500000000E+09 +6.55247193192E-01 +5.57461209306E-01 +2.09601053039E-04 +1.00635463227E-04 +2.83865613008E-04 +1.32637972405E-04 +6.34560817879E-01 +6.49101054907E-01
2.56000000000E+09 +6.61348302897E-01 +5.50047958643E-01 +1.77639927072E-04 -2.36719367155E-05 +2.23304360831E-04 -5.02686191424E-05 +6.39889151229E-01 +6.42005798903E-01
2.56500000000E+09 +6.67644202652E-01 +5.41572696482E-01 +2.96722206219E-05 -7.17414565112E-05 +2.60265847253E-05 -4.86822249567E-05 +6.45344045639E-01 +6.34481626767E-01
2.57000000000E+09 +6.73865672250E-01 +5.32780707304E-01 -1.69478635616E-05 +1.39129538725E-04 +5.10491948504E-05 +1.14761182167E-04 +6.50750362357E-01 +6.26406154123E-01
2.57500000000E+09 +6.79839051568E-01 +5.23710143854E-01 +1.15951235249E-04 +5.03605831595E-05 +1.16275442618E-04 +6.47366891716E-05 +6.56121516703E-01 +6.18753786417E-01
2.58000000000E+09 +6.85126992562E-01 +5.14778396899E-01 +1.38425969279E-04 +8.00702907869E-05 +1.84916541124E-04 +5.14993065685E-05 +6.61125676821E-01 +6.11527136859E-01
2.58500000000E+09 +6.90392584936E-01 +5.05906592005E-01 +1.87424130150E-04 -3.70855433437E-06 +1.57606490533E-04 -2.15650952613E-05 +6.66071271073E-01 +6.03968812920E-01
2.59000000000E+09 +6.94786775340E-01 +4.97343038777E-01 +3.00655163277E-05 -9.80901811728E-05 +7.53666255590E-05 -1.01042935753E-04 +6.70975262792E-01 +5.96423262327E-01
2.59500000000E+09 +6.99200191688E-01 +4.88864296344E-01 +5.74867217403E-05 -8.00934089476E-06 +2.51891104054E-05 -1.72142150953E-05 +6.75849790292E-01 +5.88305171966E-01
2.60000000000E+09 +7.03024988545E-01 +4.79961504061E-01 +8.08617221972E-05 -4.22865525286E-05 +8.02088893355E-05 -2.99099687150E-05 +6.80926865296E-01 +5.79746315519E-01
2.60500000000E+09 +7.07184377245E-01 +4.70627137536E-01 -4.06801941097E-05 -2.16247729938E-05 -5.59806347918E-06 -6.07015311633E-05 +6.86147509172E-01 +5.71012727242E-01
2.61000000000E+09 +7.11359654408E-01 +4.60312701545E-01 +3.83424810620E-05 +4.89178533691E-05 +4.10607069570E-05 +2.85122160781E-05 +6.91292046940E-01 +5.62126124752E-01
2.61500000000E+09 +7.15877786818E-01 +4.48965650062E-01 +1.66150791667E-06 -1.70111612359E-05 +1.99201376388E-05 +4.65430521765E-06 +6.96232335534E-01 +5.53246631602E-01
2.62000000000E+09 +7.19891394925E-01 +4.36400929626E-01 -1.68777398934E-05 +5.61622727742E-05 +7.84245287221E-06 +6.57798867080E-05 +7.00816558293E-01 +5.44206453201E-01
2.62500000000E+09 +7.23685933436E-01 +4.23157517270E-01 +8.75932511809E-05 +1.01496924133E-04 +4.28372691158E-05 +1.03102234576E-04 +7.05534270978E-01 +5.35244484202E-01
2.63000000000E+09 +7.27257968492E-01 +4.09722125659E-01 +7.13894462008E-05 +1.26968815309E-04 +5.22137247858E-05 +1.41490024132E-04 +7.10280287858E-01 +5.26129923164E-01
2.63500000000E+09 +7.30273786040E-01 +3.96305394540E-01 +9.64412209891E-05 +2.08700557689E-04 +8.75011848721E-05 +1.54798438074E-04 +7.15258171471E-01 +5.16723647528E-01
2.64000000000E+09 +7.33100291423E-01 +3.83447460372E-01 +2.72801052875E-04 +1.16018189778E-04 +2.03508113370E-04 +1.03651459064E-04 +7.19934226962E-01 +5.06847291483E-01
2.64500000000E+09 +7.36006398194E-01 +3.71395466451E-01 +1.80701447019E-04 +8.11276152218E-05 +1.86584988033E-04 +8.16594554038E-05 +7.24731351131E-01 +4.97051308209E-01
2.65000000000E+09 +7.38140256493E-01 +3.59889085727E-01 +2.79812429792E-04 +7.52550346043E-05 +2.15654899280E-04 +8.32686510445E-05 +7.28906491177E-01 +4.86898545045E-01
2.65500000000E+09 +7.40401914845E-01 +3.49045184767E-01 +3.31924557119E-04 +2.65961255446E-05 +3.46125008155E-04 +6.80110108558E-05 +7.32810057157E-01 +4.76390930437E-01
2.66000000000E+09 +7.43288432439E-01 +3.38163857209E-01 +3.72005211722E-04 -2.41864929041E-05 +3.93780824831E-04 +5.54266990287E-06 +7.36757804567E-01 +4.65094461019E-01
2.66500000000E+09 +7.45868697500E-01 +3.26731244509E-01 +4.76434172429E-04 -9.44994683620E-05 +5.43868494319E-04 -6.62252279596E-05 +7.40644731020E-01 +4.53945956793E-01
2.67000000000E+09 +7.47798552036E-01 +3.14534202331E-01 +4.45581123540E-04 -3.67033525625E-04 +3.86492827711E-04 -3.69683435468E-04 +7.44792348246E-01 +4.43155288713E-01
2.67500000000E+09 +7.49448767707E-01 +3.01887980979E-01 +1.95688097241E-04 -3.26498595694E-04 +1.83744155796E-04 -2.93071576028E-04 +7.49093482285E-01 +4.31877710936E-01
2.68000000000E+09 +7.50618748487E-01 +2.88409650170E-01 +1.95473361601E-04 -2.94507009590E-04 +2.47951934918E-04 -2.30958686836E-04 +7.52699679634E-01 +4.20429309054E-01
2.68500000000E+09 +7.51212341578E-01 +2.74382984898E-01 +1.28710525869E-04 -3.35980467406E-04 +1.88638053051E-04 -3.67172605002E-04 +7.55402822850E-01 +4.08579389622E-01
2.69000000000E+09 +7.51481167291E-01 +2.60066673038E-01 +1.44202617755E-04 -4.12273694659E-04 +2.22128396242E-04 -3.74408640141E-04 +7.57476893916E-01 +3.96866785159E-01
2.69500000000E+09 +7.51320678082E-01 +2.45911962315E-01 +8.06784460883E-05 -3.97934811911E-04 +4.40033164544E-05 -4.15263153635E-04 +7.59891765238E-01 +3.84494437005E-01
2.70000000000E+09 +7.51064929057E-01 +2.32180975544E-01 +1.11383204756E-04 -3.85915026801E-04 +7.42702932180E-05 -4.13113975600E-04 +7.62931293417E-01 +3.71217090468E-01
2.70500000000E+09 +7.51297276559E-01 +2.18758382176E-01 +1.14230365576E-04 -4.82394459535E-04 +1.70454071549E-04 -4.56953428915E-04 +7.65422618389E-01 +3.57593943885E-01
2.71000000000E+09 +7.52089742254E-01 +2.05423517345E-01 -1.24010434743E-04 -6.65209408079E-04 -5.76437459922E-05 -7.10051753307E-04 +7.67889998736E-01 +3.44711195607E-01
2.71500000000E+09 +7.53624712922E-01 +1.91419530273E-01 -2.78154053859E-04 -5.06505918977E-04 -2.90504399594E-04 -5.77438942370E-04 +7.70441417036E-01 +3.32276346189E-01
2.72000000000E+09 +7.54581062198E-01 +1.76538399837E-01 -3.27456031520E-04 -3.24865407942E-04 -3.61627756526E-04 -3.87053479277E-04 +7.72394607269E-01 +3.19595676865E-01
2.72500000000E+09 +7.54878321670E-01 +1.60951631751E-01 -2.13971128550E-04 -2.49703298755E-04 -2.18103826051E-04 -2.20075753024E-04 +7.73449492848E-01 +3.06431762454E-01
2.73000000000E+09 +7.53984625619E-01 +1.44849664683E-01 -1.66030095510E-04 -4.49624099929E-04 -1.60133080412E-04 -3.74161165538E-04 +7.74549351628E-01 +2.92860996388E-01
2.73500000000E+09 +7.52192480583E-01 +1.28304355312E-01 -3.36826301444E-04 -5.08115213841E-04 -2.78996899106E-04 -4.15409154845E-04 +7.75697572306E-01 +2.78358232548E-01
2.74000000000E+09 +7.49368234508E-01 +1.11772568446E-01 -4.86625436110E-04 -3.72917601811E-04 -3.99644971387E-04 -3.56770790244E-04 +7.77220822552E-01 +2.63546180702E-01
2.74500000000E+09 +7.45576283463E-01 +9.48040770120E-02 -5.15011444382E-04 -1.37162099897E-04 -4.35235889419E-04 -1.98790803715E-04 +7.78480030819E-01 +2.48297656502E-01
2.75000000000E+09 +7.40241010720E-01 +7.76852395276E-02 -3.25024184236E-04 -1.72004395632E-04 -3.25106191779E-04 -1.78452484878E-04 +7.79276810671E-01 +2.33499319461E-01
2.75500000000E+09 +7.34561827300E-01 +6.14214687628E-02 -2.78289716169E-04 -3.60948941403E-04 -2.91544127924E-04 -4.18549475626E-04 +7.79471961313E-01 +2.18069743036E-01
2.76000000000E+09 +7.29280937203E-01 +4.54376010513E-02 -5.96077804325E-04 -4.52546490682E-04 -6.36872566245E-04 -4.82147325214E-04 +7.78737859650E-01 +2.02788043344E-01
2.76500000000E+09 +7.24262909170E-01 +2.89303209468E-02 -8.12933712998E-04 -2.47320599392E-04 -8.53645072244E-04 -2.60322660699E-04 +7.77924065606E-01 +1.86045928052E-01
2.77000000000E+09 +7.19271742682E-01 +1.12553163947E-02 -7.50104392571E-04 -3.17714315834E-06 -7.93355794397E-04 +1.30947265030E-05 +7.76576806102E-01 +1.68423495798E-01
2.77500000000E+09 +7.14402578567E-01 -7.23473999991E-03 -6.64917844148E-04 +8.01483042627E-05 -6.43981401982E-04 +9.43364402834E-05 +7.74557251057E-01 +1.50690000861E-01
2.78000000000E+09 +7.08577519638E-01 -2.65323495110E-02 -8.20895175197E-04 +1.17668199897E-04 -8.02102799340E-04 +2.02130721077E-04 +7.72785869607E-01 +1.32925606632E-01
2.78500000000E+09 +7.02027680579E-01 -4.61962233811E-02 -6.68130296195E-04 +2.95100161043E-04 -6.58573033649E-04 +2.90619878251E-04 +7.70431893606E-01 +1.15188549106E-01
2.79000000000E+09 +6.95268554707E-01 -6.61624616988E-02 -6.80373313918E-04 +3.28944020657E-04 -6.77299594862E-04 +3.01703860976E-04 +7.67155965056E-01 +9.76179942788E-02
2.79500000000E+09 +6.87190894098E-01 -8.66786762909E-02 -7.06333627646E-04 +6.20489386984E-04 -6.30607404268E-04 +5.92511748869E-04 +7.62958064912E-01 +7.99249034880E-02
2.80000000000E+09 +6.76631909751E-01 -1.06703643375E-01 -3.73675991183E-04 +6.59796816904E-04 -3.44726070132E-04 +6.36415976929E-04 +7.58239384956E-01 +6.17016336815E-02
2.80500000000E+09 +6.65221469425E-01 -1.24821478673E-01 -2.84335532552E-04 +3.90920778219E-04 -2.90576362718E-04 +4.28367055638E-04 +7.52410751142E-01 +4.25076125774E-02
2.81000000000E+09 +6.53377571289E-01 -1.41584981896E-01 -3.78870408696E-04 +1.92413882770E-04 -4.09934485166E-04 +2.30132869890E-04 +7.45803900625E-01 +2.34050776741E-02
2.81500000000E+09 +6.41099236067E-01 -1.58128854536E-01 -6.24526426765E-04 +3.88586084989E-04 -6.47741183434E-04 +3.97694569098E-04 +7.38816023924E-01 +4.31573023687E-03
2.82000000000E+09 +6.27747511883E-01 -1.74378582007E-01 -7.53458394065E-04 +7.17546992200E-04 -7.41938729432E-04 +7.49762166802E-04 +7.31767522925E-01 -1.54473756558E-02
2.82500000000E+09 +6.13659219430E-01 -1.91067098836E-01 -2.70395617566E-04 +1.08556781684E-03 -2.42898355813E-04 +1.02963837241E-03 +7.22734238127E-01 -3.55338364826E-02
2.83000000000E+09 +5.96976108760E-01 -2.08114574985E-01 -7.15324309105E-05 +7.98357942419E-04 -4.77715824230E-05 +7.54270183398E-04 +7.13078875441E-01 -5.48965447858E-02
2.83500000000E+09 +5.79460709866E-01 -2.24962527362E-01 -2.42271931739E-04 +7.59707916884E-04 -2.27385262106E-04 +7.11474764598E-04 +7.02438326112E-01 -7.48695185399E-02
2.84000000000E+09 +5.60836056847E-01 -2.42242450629E-01 -1.66417480054E-04 +8.33243518138E-04 -1.74009531940E-04 +8.86596389537E-04 +6.91264595362E-01 -9.45814052871E-02
2.84500000000E+09 +5.40228835708E-01 -2.60428984296E-01 -2.90728120497E-04 +8.17815671527E-04 -3.21577023482E-04 +7.92767691518E-04 +6.79392372653E-01 -1.15104560021E-01
2.85000000000E+09 +5.17632986537E-01 -2.78554159538E-01 -3.21720038845E-05 +1.36104444422E-03 -2.74981358798E-05 +1.36982504170E-03 +6.66102128909E-01 -1.36060509827E-01
2.85500000000E+09 +4.93264895858E-01 -2.95808775923E-01 +5.42601433245E-04 +9.70041352960E-04 +5.26057023116E-04 +9.28499070888E-04 +6.51468254417E-01 -1.56338963922E-01
2.86000000000E+09 +4.68190507665E-01 -3.11331597028E-01 +1.27233856489E-04 +6.87760325385E-04 +1.47426652760E-04 +6.45341114991E-04 +6.35874740239E-01 -1.76833178020E-01
2.86500000000E+09 +4.43546340491E-01 -3.25688534262E-01 -1.02653146345E-04 +1.32117194570E-03 -9.55843347048E-05 +1.31720465189E-03 +6.18949863593E-01 -1.97590957268E-01
2.87000000000E+09 +4.18750034118E-01 -3.39454678841E-01 +8.39072505856E-04 +1.51229523806E-03 +7.89534644973E-04 +1.49437325796E-03 +6.00462252550E-01 -2.18047979214E-01
2.87500000000E+09 +3.93494220355E-01 -3.52938836532E-01 +1.09432212737E-03 +1.19493935171E-03 +1.08378202519E-03 +1.23105930093E-03 +5.80189027435E-01 -2.37923597924E-01
2.88000000000E+09 +3.66379925590E-01 -3.64612650458E-01 +1.17703621743E-03 +9.27783061819E-04 +1.12128597456E-03 +8.32454158149E-04 +5.59402972942E-01 -2.56998384819E-01
2.88500000000E+09 +3.38873217755E-01 -3.74253254405E-01 +1.40245734191E-03 +9.34204825693E-04 +1.30852113451E-03 +8.64249395004E-04 +5.36981103207E-01 -2.76497426732E-01
2.89000000000E+09 +3.10769419788E-01 -3.82092757185E-01 +1.39268454583E-03 +5.80177133114E-04 +1.31344292758E-03 +5.78946577877E-04 +5.11644948531E-01 -2.95073260203E-01
2.89500000000E+09 +2.82002492568E-01 -3.89203634512E-01 +1.53145095935E-03 +8.02428552429E-04 +1.42458302714E-03 +8.74881073841E-04 +4.84735987023E-01 -3.12534415910E-01
2.90000000000E+09 +2.51047775557E-01 -3.94575573865E-01 +2.26417957187E-03 +5.32182726515E-04 +2.29638520571E-03 +6.35581497199E-04 +4.55958099708E-01 -3.29485830814E-01
2.90500000000E+09 +2.17907383490E-01 -3.98227070419E-01 +2.09334377444E-03 -5.40546479919E-04 +2.18640862931E-03 -5.88532252181E-04 +4.25262366307E-01 -3.45207395979E-01
2.91000000000E+09 +1.83111790996E-01 -3.97773748433E-01 +1.56424433444E-03 -4.63262986072E-04 +1.52605587688E-03 -5.23258586520E-04 +3.93756150138E-01 -3.58837584596E-01
2.91500000000E+09 +1.49475450126E-01 -3.94727919587E-01 +2.05185919293E-03 -5.05513605868E-04 +1.96006285015E-03 -5.19055602543E-04 +3.61598842198E-01 -3.70800913975E-01
2.92000000000E+09 +1.16091740951E-01 -3.90294931680E-01 +1.77753677420E-03 -1.55132382824E-03 +1.71275795773E-03 -1.43802165470E-03 +3.28040885258E-01 -3.81310504783E-01
2.92500000000E+09 +8.14220311979E-02 -3.84762342091E-01 +1.04587805563E-03 -1.48150214242E-03 +1.08906541756E-03 -1.40088849180E-03 +2.91930061177E-01 -3.89629692017E-01
2.93000000000E+09 +4.67570479051E-02 -3.75307474120E-01 +9.91780514506E-04 -1.11867401996E-03 +1.07091866256E-03 -1.14067206074E-03 +2.54530697465E-01 -3.95342280807E-01
2.93500000000E+09 +1.38900995183E-02 -3.64144517055E-01 +1.16250000956E-03 -1.33659256290E-03 +1.21168450523E-03 -1.35045614233E-03 +2.16298089755E-01 -3.99553350086E-01
2.94000000000E+09 -1.80174452654E-02 -3.51344210529E-01 +9.76530083995E-04 -1.70735200341E-03 +1.05550457392E-03 -1.76352526924E-03 +1.77225841109E-01 -4.01493510405E-01
2.94500000000E+09 -4.96285840126E-02 -3.38103101611E-01 +5.77478519705E-04 -1.87998860734E-03 +6.09026422955E-04 -1.92087608057E-03 +1.37973063753E-01 -4.01877504792E-01
2.95000000000E+09 -8.23046285878E-02 -3.21066263370E-01 +2.10300998540E-04 -2.04208000208E-03 +2.31792282955E-04 -2.02983456052E-03 +9.77986515128E-02 -3.99391129533E-01
2.95500000000E+09 -1.13205042574E-01 -2.99962407826E-01 +2.98453386114E-04 -1.79839478915E-03 +3.07055299605E-04 -1.79810577006E-03 +5.74347269431E-02 -3.93411238382E-01
2.96000000000E+09 -1.40672094935E-01 -2.76092425681E-01 -1.56473383016E-04 -2.47284649642E-03 -1.21366847626E-04 -2.62230877646E-03 +1.72884795467E-02 -3.84135499027E-01
2.96500000000E+09 -1.66689510962E-01 -2.51922583179E-01 -1.02580934469E-03 -1.99585280347E-03 -1.15812536322E-03 -2.05253487436E-03 -2.31766780745E-02 -3.72825072571E-01
2.97000000000E+09 -1.91281805936E-01 -2.25279106891E-01 -1.00248571088E-03 -1.52616045248E-03 -1.07287251710E-03 -1.48049698879E-03 -6.50105434581E-02 -3.57680278973E-01
2.97500000000E+09 -2.15175754016E-01 -1.97027180323E-01 -7.42638732806E-04 -1.44223140988E-03 -7.22376537468E-04 -1.33886808976E-03 -1.04051751347E-01 -3.38748476485E-01
2.98000000000E+09 -2.36894440134E-01 -1.66437539424E-01 -1.15284424716E-03 -1.87320846473E-03 -1.07487046410E-03 -1.83159135372E-03 -1.42382154113E-01 -3.18979354874E-01
2.98500000000E+09 -2.56633750760E-01 -1.35013632381E-01 -1.72198275029E-03 -1.55915320278E-03 -1.60064499520E-03 -1.62492900961E-03 -1.78992181089E-01 -2.94903969342E-01
2.99000000000E+09 -2.73886262020E-01 -1.02783300051E-01 -2.11467821935E-03 -1.05572921148E-03 -2.13650395605E-03 -1.12617744783E-03 -2.13739472250E-01 -2.69673368451E-01
2.99500000000E+09 -2.89753566559E-01 -7.09375054549E-02 -1.92683725876E-03 -7.26052721685E-04 -1.96556762779E-03 -7.12680797215E-04 -2.47672589906E-01 -2.40128265795E-01
3.00000000000E+09 -3.03938056859E-01 -3.91259812971E-02 -1.93407375702E-03 -4.90055708322E-04 -1.94993435717E-03 -4.24401599189E-04 -2.78748614622E-01 -2.07842528000E-01
3.00500000000E+09 -3.16710784946E-01 -6.82096417979E-03 -2.07776537637E-03 -3.48594109451E-04 -2.02953578385E-03 -3.40603207381E-04 -3.07416076876E-01 -1.74359660199E-01
3.01000000000E+09 -3.25934655661E-01 +2.56322775775E-02 -2.47815781918E-03 -2.24326423673E-05 -2.38347619592E-03 -1.00045230725E-04 -3.34428169735E-01 -1.38887382473E-01
3.01500000000E+09 -3.32614194600E-01 +5.73276539304E-02 -2.30492996100E-03 +1.02985308292E-03 -2.34650297781E-03 +8.54780897869E-04 -3.57849288429E-01 -1.01141847256E-01
3.02000000000E+09 -3.36099844798E-01 +8.81817862633E-02 -1.57600234333E-03 +1.24717455099E-03 -1.61719315367E-03 +1.12548900619E-03 -3.76846954759E-01 -6.27691777802E-02
3.02500000000E+09 -3.37171877247E-01 +1.18383987534E-01 -1.22366198462E-03 +9.89460961058E-04 -1.37978816744E-03 +9.43030881704E-04 -3.92585086988E-01 -2.36262902185E-02
3.03000000000E+09 -3.35761864760E-01 +1.48287684344E-01 -1.52072601440E-03 +8.03559096769E-04 -1.56408802345E-03 +8.23476267433E-04 -4.06208062365E-01 +1.49544737333E-02
3.03500000000E+09 -3.31639859451E-01 +1.78439454392E-01 -1.76908977895E-03 +1.41586654021E-03 -1.79556656675E-03 +1.39663740970E-03 -4.18170919803E-01 +5.53400627336E-02
3.04000000000E+09 -3.24276771222E-01 +2.07770735306E-01 -1.22741460516E-03 +2.24137772787E-03 -1.33777695096E-03 +2.26696333350E-03 -4.26200795437E-01 +9.63092478294E-02
3.04500000000E+09 -3.15665223262E-01 +2.36113270499E-01 -1.90157654336E-04 +2.02245096556E-03 -2.40561103775E-04 +2.17178760621E-03 -4.31656857529E-01 +1.36836013018E-01
3.05000000000E+09 -3.05754689976E-01 +2.64387251657E-01 -2.52706351712E-04 +1.51851530267E-03 -2.72553519208E-04 +1.61083571472E-03 -4.34087209862E-01 +1.76800575355E-01
3.05500000000E+09 -2.94323391450E-01 +2.92501219213E-01 -1.43843213733E-04 +1.82789340928E-03 -4.82690899048E-05 +1.88065228063E-03 -4.34004758623E-01 +2.16089421880E-01
3.06000000000E+09 -2.81427355935E-01 +3.19719548846E-01 +6.94174349221E-05 +1.97620373568E-03 +2.08798610057E-04 +1.91667898036E-03 -4.31154400345E-01 +2.54615309232E-01
3.06500000000E+09 -2.67811765279E-01 +3.45692935797E-01 +1.07193809016E-03 +1.84533900299E-03 +1.08281046842E-03 +1.78200341746E-03 -4.25922221158E-01 +2.91512777093E-01
3.07000000000E+09 -2.53245885830E-01 +3.70230322856E-01 +1.24354521201E-03 +8.50482339417E-04 +1.20978891798E-03 +9.40318050705E-04 -4.18657221358E-01 +3.27199756866E-01
