# Hz S RI R 50
! CMT, C1220, 16058040, 17.2.0/1
! Date: 15/08/2018 10:19:57
! Data: Format (Calibration Info)
! Freq                      S11: Re/Im (F2)                       S21: Re/Im (F2)                       S12: Re/Im (F2)                       S22: Re/Im (F2)            
2.50000000000E+09 +5.98042597960E-01 +6.32489008028E-01 -2.69065604392E-04 +2.01467525927E-04 -3.00381213912E-04 +2.79125301955E-04 +5.73446701154E-01 +7.16942972451E-01
2.50500000000E+09 +6.04721962594E-01 +6.24425842752E-01 -2.41344999127E-04 +2.93882255520E-04 -2.08003280902E-04 +3.14609771611E-04 +5.79015604617E-01 +7.11391492994E-01
2.51000000000E+09 +6.11300289344E-01 +6.16056357699E-01 -8.29908352082E-05 +2.80013465583E-04 -7.08068986950E-05 +3.03916550794E-04 +5.84476260719E-01 +7.06128076063E-01
2.51500000000E+09 +6.17700124252E-01 +6.08038511339E-01 -1.34559859726E-04 +2.27510092165E-04 -9.19097705388E-05 +2.60319227555E-04 +5.89855889113E-01 +7.00955700504E-01
2.52000000000E+09 +6.23458014369E-01 +6.00281468977E-01 -1.22546226808E-04 +2.85422678911E-04 -8.72215642709E-05 +2.84849368147E-04 +5.95127693982E-01 +6.94787643565E-01
2.52500000000E+09 +6.28603502846E-01 +5.93062933184E-01 -8.01489214913E-05 +3.05208244388E-04 -6.56049152985E-05 +2.97020959471E-04 +6.00683452384E-01 +6.88391673956E-01
2.53000000000E+09 +6.33108871397E-01 +5.86392489750E-01 -7.56817770754E-05 +2.90832489067E-04 -4.09855110667E-05 +3.46213741193E-04 +6.06867840362E-01 +6.81585528814E-01
2.53500000000E+09 +6.37376936019E-01 +5.80394568471E-01 -2.87570092868E-05 +3.05868109227E-04 -7.45795387849E-05 +3.50285077547E-04 +6.12841264037E-01 +6.74589368196E-01
2.54000000000E+09 +6.41352117541E-01 +5.74424119302E-01 +1.53483353742E-05 +4.44909124014E-04 -1.78819109329E-05 +4.14754387309E-04 +6.18692704851E-01 +6.67888101930E-01
2.54500000000E+09 +6.45285010610E-01 +5.68641382432E-01 +1.53752679706E-04 +4.27615063341E-04 +1.25412040977E-04 +4.60080100461E-04 +6.24517779691E-01 +6.61507415186E-01
2.55000000000E+09 +6.50088588733E-01 +5.62791901493E-01 +2.46010307753E-04 +3.17372638507E-04 +2.52809739757E-04 +3.41364202351E-04 +6.29813748842E-01 +6.55009082381E-01
2.55500000000E+09 +6.55793599654E-01 +5.55743609889E-01 +3.01516185092E-04 +2.09752144886E-04 +3.21227907839E-04 +2.21470411780E-04 +6.35003306475E-01 +6.48468150279E-01
2.56000000000E+09 +6.61878319667E-01 +5.48207635262E-01 +2.04145062177E-04 +9.02150862344E-05 +2.50852010717E-04 +9.71852070454E-05 +6.40275252559E-01 +6.41272149256E-01
2.56500000000E+09 +6.68276450452E-01 +5.39504274409E-01 +6.27858390366E-05 +6.88005847661E-05 +6.10081258303E-05 +4.45161657006E-05 +6.45771868897E-01 +6.33764573458E-01
2.57000000000E+09 +6.74496160376E-01 +5.30776032262E-01 +8.27107891799E-05 +2.66598626658E-04 +1.11052065883E-04 +2.54713174123E-04 +6.51171211021E-01 +6.25861643938E-01
2.57500000000E+09 +6.80678244696E-01 +5.21608525382E-01 +2.47392306610E-04 +2.73664364338E-04 +2.95822925469E-04 +2.37133774361E-04 +6.56428573285E-01 +6.18201391023E-01
2.58000000000E+09 +6.86190255444E-01 +5.12821790822E-01 +2.88988004578E-04 +2.23781146347E-04 +2.66151915171E-04 +1.51446108128E-04 +6.61448108751E-01 +6.10893900283E-01
2.58500000000E+09 +6.91390286000E-01 +5.03893992752E-01 +3.13051538485E-04 +1.00820274892E-04 +2.67456288503E-04 +1.12007503980E-04 +6.66357314341E-01 +6.03205492417E-01
2.59000000000E+09 +6.95834630316E-01 +4.95412522119E-01 +2.67588358251E-04 +6.14156811741E-05 +2.27228259398E-04 +6.74472528417E-05 +6.70997632939E-01 +5.95601367969E-01
2.59500000000E+09 +7.00008966708E-01 +4.87105527608E-01 +1.56362272309E-04 +8.72715219592E-05 +1.98446653883E-04 +8.21322385000E-05 +6.75910970661E-01 +5.87485383136E-01
2.60000000000E+09 +7.03754055677E-01 +4.78596068901E-01 +2.31727599122E-04 +9.82753376195E-05 +2.42812234148E-04 +1.14862928603E-04 +6.80868820293E-01 +5.78945234165E-01
2.60500000000E+09 +7.07826840515E-01 +4.69364037422E-01 +1.87695167248E-04 +1.34080853072E-04 +2.02890874530E-04 +1.24329803523E-04 +6.86136727358E-01 +5.70336259652E-01
2.61000000000E+09 +7.12136898403E-01 +4.59201301353E-01 +3.37940743796E-04 +1.70999155324E-04 +3.41360533296E-04 +1.50010114215E-04 +6.91259329176E-01 +5.61618236543E-01
2.61500000000E+09 +7.16329742649E-01 +4.47083292311E-01 +3.65646727561E-04 +5.80050020818E-05 +3.64099927467E-04 +1.20615955486E-04 +6.95976334149E-01 +5.52809838784E-01
2.62000000000E+09 +7.20358511252E-01 +4.34551577522E-01 +3.56688480022E-04 -7.00071037732E-05 +3.45905336250E-04 -4.73359806439E-05 +7.00487246616E-01 +5.43765482636E-01
2.62500000000E+09 +7.24229924703E-01 +4.21310022299E-01 +3.02821456984E-04 -2.15661521371E-05 +2.87447609831E-04 -1.01741197894E-05 +7.05228060440E-01 +5.34921022943E-01
2.63000000000E+09 +7.27753298827E-01 +4.07836974948E-01 +3.41770037249E-04 +2.84486418804E-05 +3.06517950663E-04 -2.08918551585E-05 +7.09959219747E-01 +5.25816161654E-01
2.63500000000E+09 +7.30927394977E-01 +3.94407813990E-01 +3.14668764726E-04 -9.37956506956E-06 +2.81695854455E-04 -4.34854233859E-05 +7.14873497611E-01 +5.16428446081E-01
2.64000000000E+09 +7.33699211201E-01 +3.81552429800E-01 +4.48796856535E-04 +2.85576967095E-05 +3.20759710264E-04 +2.33040860615E-06 +7.19676328179E-01 +5.06513606306E-01
2.64500000000E+09 +7.36460072022E-01 +3.69470575626E-01 +4.02831780637E-04 -1.07319409752E-04 +3.27340562561E-04 -7.16265206743E-05 +7.24380739985E-01 +4.96842195014E-01
2.65000000000E+09 +7.38480301609E-01 +3.58303068063E-01 +4.18870553178E-04 -1.08111252052E-04 +3.98761519459E-04 -8.64832161781E-05 +7.28653022941E-01 +4.86738151884E-01
2.65500000000E+09 +7.40917475054E-01 +3.47359796863E-01 +4.81967236640E-04 -1.38611675081E-04 +5.14938248987E-04 -8.16401222188E-05 +7.32637835176E-01 +4.76379494417E-01
2.66000000000E+09 +7.43747832472E-01 +3.36651080124E-01 +4.52710581272E-04 -2.79656280403E-04 +5.51590552534E-04 -2.77326533163E-04 +7.36461360882E-01 +4.65106983516E-01
2.66500000000E+09 +7.46412879172E-01 +3.25209386770E-01 +5.56056775479E-04 -3.37625592740E-04 +5.29454432650E-04 -3.79924041103E-04 +7.40299561751E-01 +4.53976499280E-01
2.67000000000E+09 +7.48340407603E-01 +3.12782790328E-01 +4.50704408787E-04 -6.08827855201E-04 +4.08185364068E-04 -6.14379329526E-04 +7.44410595595E-01 +4.43232109329E-01
2.67500000000E+09 +7.49737934881E-01 +3.00025238805E-01 +1.35891466289E-04 -5.54485883987E-04 +1.39565943388E-04 -5.10054958778E-04 +7.48577394392E-01 +4.31955123047E-01
2.68000000000E+09 +7.51076582600E-01 +2.86546847312E-01 +1.96361004507E-04 -4.11219665019E-04 +2.14175329025E-04 -3.60154745297E-04 +7.52333704176E-01 +4.20498865204E-01
2.68500000000E+09 +7.51672748182E-01 +2.72467739323E-01 +2.75129235060E-04 -4.66760832745E-04 +2.52060551625E-04 -4.18838928897E-04 +7.54944655844E-01 +4.08972631504E-01
2.69000000000E+09 +7.51996904163E-01 +2.58235463148E-01 +3.45985065352E-04 -5.32174815388E-04 +3.12091722429E-04 -5.00025884419E-04 +7.57227575261E-01 +3.97187458637E-01
2.69500000000E+09 +7.51895747681E-01 +2.43953713537E-01 +2.64899469777E-04 -6.47019668808E-04 +2.52994541017E-04 -7.14614977846E-04 +7.59654942609E-01 +3.85018633444E-01
2.70000000000E+09 +7.51772760543E-01 +2.30241807963E-01 +1.56686575803E-04 -8.40362000592E-04 +1.80183239006E-04 -8.36631154618E-04 +7.62646361671E-01 +3.71986357773E-01
2.70500000000E+09 +7.51922792103E-01 +2.17082995160E-01 -2.26858688816E-05 -8.69297526731E-04 -3.44579720129E-05 -8.22183506616E-04 +7.65215961672E-01 +3.58403579855E-01
2.71000000000E+09 +7.52565616724E-01 +2.04016293627E-01 -2.46610346076E-04 -8.51031661377E-04 -1.87388291919E-04 -9.12406232331E-04 +7.67810704365E-01 +3.45631432435E-01
2.71500000000E+09 +7.54059203694E-01 +1.90207201447E-01 -4.67972864978E-04 -7.33916995118E-04 -4.64295087093E-04 -7.88651115215E-04 +7.70393612600E-01 +3.33122304396E-01
2.72000000000E+09 +7.55199724595E-01 +1.75446633373E-01 -5.13849757510E-04 -5.49177174708E-04 -5.48021242181E-04 -4.92403659604E-04 +7.72498324285E-01 +3.20551070942E-01
2.72500000000E+09 +7.55697679530E-01 +1.59646571649E-01 -3.29106850549E-04 -4.77418088072E-04 -4.17940912459E-04 -4.14865784161E-04 +7.73745450314E-01 +3.07564798172E-01
2.73000000000E+09 +7.55040863192E-01 +1.43195331899E-01 -4.30975575216E-04 -6.79237210778E-04 -4.53541164263E-04 -6.15821178281E-04 +7.75150079117E-01 +2.93980047452E-01
2.73500000000E+09 +7.53162934653E-01 +1.26079497881E-01 -5.76775473065E-04 -5.26295880894E-04 -5.43553350620E-04 -5.58158054456E-04 +7.76445333444E-01 +2.79374074433E-01
2.74000000000E+09 +7.50137948787E-01 +1.09009045651E-01 -7.99724649012E-04 -4.78298541320E-04 -7.21731138592E-04 -5.02726360238E-04 +7.77919855652E-01 +2.64540333620E-01
2.74500000000E+09 +7.46160407001E-01 +9.17465941955E-02 -7.94973035272E-04 -1.49255313582E-04 -7.00603257549E-04 -2.66292759545E-04 +7.79291277151E-01 +2.49311076847E-01
2.75000000000E+09 +7.40965409534E-01 +7.45259121552E-02 -6.28800905207E-04 -1.65483924593E-04 -5.84244829239E-04 -2.25258932310E-04 +7.80114921164E-01 +2.34364429822E-01
2.75500000000E+09 +7.35021938725E-01 +5.80929798873E-02 -6.24252422459E-04 -2.88485670220E-04 -6.42489155820E-04 -3.65251818323E-04 +7.80258198583E-01 +2.18931620861E-01
2.76000000000E+09 +7.29597043381E-01 +4.23998173236E-02 -8.29584586297E-04 -2.34941779275E-04 -8.62601313983E-04 -2.74221172408E-04 +7.79752607809E-01 +2.03760774654E-01
2.76500000000E+09 +7.24911672955E-01 +2.61188259054E-02 -9.10292299891E-04 -1.18616536450E-04 -1.00366091011E-03 -8.76012799771E-05 +7.79108680164E-01 +1.86853602097E-01
2.77000000000E+09 +7.19931776206E-01 +8.56548062213E-03 -8.47079520160E-04 +8.30316054644E-05 -9.05844754581E-04 +8.42793295861E-05 +7.77957944414E-01 +1.69249869830E-01
2.77500000000E+09 +7.15007925966E-01 -9.71230688703E-03 -8.02856912879E-04 +2.15109075112E-04 -8.08451556756E-04 +2.33118483540E-04 +7.76101706830E-01 +1.51415408899E-01
2.78000000000E+09 +7.09337908574E-01 -2.91186125152E-02 -7.91063445586E-04 +2.29459806348E-04 -7.72701522656E-04 +2.23440958704E-04 +7.74466581580E-01 +1.33653115764E-01
2.78500000000E+09 +7.02505577741E-01 -4.89773944147E-02 -7.50170839717E-04 +1.84670317840E-04 -7.84801579919E-04 +2.68374590057E-04 +7.72176724644E-01 +1.15650214133E-01
2.79000000000E+09 +6.95205965653E-01 -6.90819898864E-02 -8.61317039197E-04 +3.07681229858E-04 -8.36947586746E-04 +3.51688796230E-04 +7.68964967200E-01 +9.80674152151E-02
2.79500000000E+09 +6.86879776621E-01 -8.97700857743E-02 -8.37203778861E-04 +6.21591956869E-04 -8.35969817881E-04 +5.69970606020E-04 +7.64866741024E-01 +8.02423526810E-02
2.80000000000E+09 +6.76253338833E-01 -1.10192674567E-01 -5.54645377847E-04 +7.65513009782E-04 -6.01226083637E-04 +7.11213138135E-04 +7.60408336721E-01 +6.16819186627E-02
2.80500000000E+09 +6.64719703257E-01 -1.28556559321E-01 -3.42303767802E-04 +5.34191620397E-04 -3.97226978499E-04 +5.33640670885E-04 +7.54737327046E-01 +4.21772039962E-02
2.81000000000E+09 +6.52487394905E-01 -1.45841258717E-01 -5.53250882108E-04 +3.55253651277E-04 -5.80973287466E-04 +4.25387396355E-04 +7.48178751275E-01 +2.28532192341E-02
2.81500000000E+09 +6.39730081586E-01 -1.62334199062E-01 -6.99085310644E-04 +6.10018090169E-04 -6.91540123384E-04 +6.63368276018E-04 +7.41107373288E-01 +3.55577124210E-03
2.82000000000E+09 +6.26251197911E-01 -1.78473256097E-01 -8.71484298445E-04 +8.70746450634E-04 -7.93374563068E-04 +8.62935794909E-04 +7.33957923226E-01 -1.64167151612E-02
2.82500000000E+09 +6.12100544883E-01 -1.94951351196E-01 -4.62785936507E-04 +1.18933630401E-03 -3.78070846308E-04 +1.16599430444E-03 +7.24627374068E-01 -3.65618926056E-02
2.83000000000E+09 +5.95538053599E-01 -2.11857901298E-01 -1.32400372149E-04 +1.03449433082E-03 -1.41398387325E-04 +9.38278631807E-04 +7.14850043236E-01 -5.60561974573E-02
2.83500000000E+09 +5.77876587167E-01 -2.28311063630E-01 -3.46000787430E-04 +9.74416600197E-04 -3.75431112134E-04 +9.56159130421E-04 +7.04102941113E-01 -7.63645272989E-02
2.84000000000E+09 +5.59138447523E-01 -2.45531470652E-01 -1.12344857913E-05 +1.22781058129E-03 -8.59895718698E-05 +1.19984784232E-03 +6.92866769160E-01 -9.62777678156E-02
2.84500000000E+09 +5.38122349928E-01 -2.63677416914E-01 -1.13473708139E-04 +1.01473988734E-03 -1.17277995398E-04 +1.02003037860E-03 +6.80854532357E-01 -1.16949016682E-01
2.85000000000E+09 +5.15153701017E-01 -2.81491591117E-01 +1.14517816306E-04 +1.56932948607E-03 +1.27395976474E-04 +1.56123001024E-03 +6.67283607301E-01 -1.38012823363E-01
2.85500000000E+09 +4.90499004268E-01 -2.98782380884E-01 +7.99176559365E-04 +9.80678437363E-04 +7.42890408508E-04 +9.21485975903E-04 +6.52614527881E-01 -1.58295804393E-01
2.86000000000E+09 +4.64570369156E-01 -3.14456881833E-01 +1.36310593200E-04 +6.15320229513E-04 +1.65998919309E-04 +5.62960705850E-04 +6.36870506481E-01 -1.78831780595E-01
2.86500000000E+09 +4.39307485583E-01 -3.28384139176E-01 -1.05652411814E-04 +1.41034269031E-03 -1.43511228482E-04 +1.42788654687E-03 +6.19617126760E-01 -1.99626000040E-01
2.87000000000E+09 +4.14256107122E-01 -3.42205576207E-01 +9.45513430409E-04 +1.58967621444E-03 +9.47345514927E-04 +1.69647354746E-03 +6.00811084266E-01 -2.20071045628E-01
2.87500000000E+09 +3.88769700338E-01 -3.55608038732E-01 +1.10229437905E-03 +1.09788088899E-03 +1.14297291783E-03 +1.04759876223E-03 +5.80489806645E-01 -2.40208853992E-01
2.88000000000E+09 +3.61334532065E-01 -3.67283436977E-01 +1.09668753442E-03 +1.10479648373E-03 +1.14274642096E-03 +9.57470875381E-04 +5.59387134807E-01 -2.59247466986E-01
2.88500000000E+09 +3.33788162599E-01 -3.76970554492E-01 +1.45483127030E-03 +7.83027913659E-04 +1.41160580353E-03 +7.09932010923E-04 +5.36632727755E-01 -2.78745224636E-01
2.89000000000E+09 +3.05454535168E-01 -3.84785653441E-01 +1.21401767855E-03 +5.07608215420E-04 +1.12995464647E-03 +4.62872915915E-04 +5.11252043296E-01 -2.97135411776E-01
2.89500000000E+09 +2.76257843136E-01 -3.91657519029E-01 +1.32195851520E-03 +8.93521032007E-04 +1.23479492535E-03 +9.60584071543E-04 +4.84128311674E-01 -3.14643830317E-01
2.90000000000E+09 +2.44513139591E-01 -3.96669738309E-01 +2.06457563867E-03 +6.54271644639E-04 +2.04477725949E-03 +7.27844658427E-04 +4.55124759894E-01 -3.31451332201E-01
2.90500000000E+09 +2.11019070112E-01 -3.99370825357E-01 +1.85941303748E-03 -1.37900527303E-04 +1.88297635620E-03 -1.90279045061E-04 +4.24248783257E-01 -3.46937601514E-01
2.91000000000E+09 +1.76033465639E-01 -3.98081511568E-01 +1.72090495823E-03 -1.04492857826E-04 +1.71625120952E-03 -9.60302028898E-05 +3.92693633824E-01 -3.60758026146E-01
2.91500000000E+09 +1.42104319234E-01 -3.94566178762E-01 +2.00298338667E-03 -2.39473019545E-04 +1.93278937732E-03 -2.55403684080E-04 +3.59680152899E-01 -3.72751801715E-01
2.92000000000E+09 +1.08066012929E-01 -3.89025963965E-01 +2.11371106253E-03 -1.33108242254E-03 +1.96017106473E-03 -1.19997667520E-03 +3.25640745678E-01 -3.82686437117E-01
2.92500000000E+09 +7.36256799534E-02 -3.83100324600E-01 +9.41387416974E-04 -1.35166986223E-03 +9.75090246493E-04 -1.24643319380E-03 +2.89506839526E-01 -3.90596631577E-01
2.93000000000E+09 +3.82228530360E-02 -3.73132265386E-01 +9.17492302685E-04 -7.28583886313E-04 +9.55036223153E-04 -6.94244277249E-04 +2.51944404981E-01 -3.95687513652E-01
2.93500000000E+09 +5.38513174770E-03 -3.61071954135E-01 +1.38384248102E-03 -1.00326050525E-03 +1.46740761860E-03 -9.55552840286E-04 +2.13796656008E-01 -3.99363189040E-01
2.94000000000E+09 -2.67704959301E-02 -3.48019374778E-01 +1.09652942594E-03 -1.30680556368E-03 +1.16713734359E-03 -1.28630114689E-03 +1.75085209558E-01 -4.00807551874E-01
2.94500000000E+09 -5.83992078486E-02 -3.33215174072E-01 +1.07752501436E-03 -1.34687914829E-03 +1.14482217062E-03 -1.31038876988E-03 +1.35725414347E-01 -4.01122511812E-01
2.95000000000E+09 -9.00355423072E-02 -3.15606106320E-01 +1.00955014159E-03 -1.70694111529E-03 +1.08785334273E-03 -1.74133269346E-03 +9.50807328258E-02 -3.97877084244E-01
2.95500000000E+09 -1.20413182759E-01 -2.94620010720E-01 +8.35021416579E-04 -1.87445278451E-03 +9.60515107641E-04 -1.90557096107E-03 +5.53682940056E-02 -3.91046112340E-01
2.96000000000E+09 -1.47940909610E-01 -2.70084460381E-01 +4.08263046511E-04 -2.51557692724E-03 +4.56637744444E-04 -2.60564425062E-03 +1.56345891669E-02 -3.81587493891E-01
2.96500000000E+09 -1.73166131354E-01 -2.44878513543E-01 -6.66735470776E-04 -2.11803308195E-03 -7.53867886935E-04 -2.18758055357E-03 -2.43752942163E-02 -3.69917672677E-01
2.97000000000E+09 -1.97258943408E-01 -2.17437795027E-01 -4.51719861017E-04 -1.55891445601E-03 -4.93505452511E-04 -1.50513892680E-03 -6.54416617004E-02 -3.54407170029E-01
2.97500000000E+09 -2.20048805635E-01 -1.88382082799E-01 -2.62323762767E-04 -1.59366072068E-03 -3.50234388548E-04 -1.54589144386E-03 -1.03635039805E-01 -3.35423575748E-01
2.98000000000E+09 -2.40843977511E-01 -1.57267337261E-01 -5.95454586297E-04 -2.11008987953E-03 -5.22684503596E-04 -2.08717810089E-03 -1.41166777603E-01 -3.15583727201E-01
2.98500000000E+09 -2.59866566461E-01 -1.25600945828E-01 -1.27153640603E-03 -1.91746749490E-03 -1.21920801552E-03 -1.96610613056E-03 -1.76837684073E-01 -2.91907515589E-01
2.99000000000E+09 -2.76809842012E-01 -9.25626432515E-02 -1.61281280354E-03 -1.39255455534E-03 -1.66990311506E-03 -1.47305939078E-03 -2.11705565142E-01 -2.67516643501E-01
2.99500000000E+09 -2.91765537121E-01 -6.02081947770E-02 -1.40636530944E-03 -9.82561195351E-04 -1.48997794739E-03 -1.02355006498E-03 -2.45780421854E-01 -2.37981353277E-01
3.00000000000E+09 -3.05266846050E-01 -2.75868604856E-02 -1.25470153761E-03 -1.07062409369E-03 -1.28507200560E-03 -1.00035890613E-03 -2.76371263861E-01 -2.05741422821E-01
3.00500000000E+09 -3.16858245416E-01 +4.62041250057E-03 -1.81395757685E-03 -1.28262802617E-03 -1.74027670414E-03 -1.16903105892E-03 -3.04664412945E-01 -1.72478671868E-01
3.01000000000E+09 -3.25754610924E-01 +3.72172204367E-02 -2.48282998834E-03 -8.22494075478E-04 -2.34058659076E-03 -8.39216336028E-04 -3.31284598080E-01 -1.37135594441E-01
3.01500000000E+09 -3.31294420420E-01 +6.92029454701E-02 -2.27479574300E-03 +2.10097456905E-04 -2.17630325983E-03 +1.21360833241E-04 -3.54057905229E-01 -9.98049942755E-02
3.02000000000E+09 -3.34047784650E-01 +9.99247828427E-02 -1.63158785044E-03 +3.28890562570E-04 -1.65244108589E-03 +2.84320806723E-04 -3.72762519013E-01 -6.19856929471E-02
3.02500000000E+09 -3.34400028511E-01 +1.30233866587E-01 -1.42600579177E-03 +9.75954163407E-05 -1.42726845799E-03 +7.41046243861E-05 -3.88139816068E-01 -2.33703747377E-02
3.03000000000E+09 -3.31585889146E-01 +1.60120151215E-01 -2.21879884731E-03 -1.97530088607E-04 -2.19198733716E-03 -2.36309461090E-04 -4.01948694619E-01 +1.45484815878E-02
3.03500000000E+09 -3.26727244172E-01 +1.89575058216E-01 -2.55774531412E-03 +1.07874920024E-03 -2.64863407302E-03 +1.01127116807E-03 -4.13848328352E-01 +5.43556001925E-02
3.04000000000E+09 -3.18669701752E-01 +2.18660197662E-01 -1.84234503431E-03 +1.80946420049E-03 -1.97360250752E-03 +1.81113752726E-03 -4.22021257550E-01 +9.46150129392E-02
3.04500000000E+09 -3.09352081731E-01 +2.46613844661E-01 -8.30993401527E-04 +1.91520569149E-03 -8.89939014243E-04 +1.98927995344E-03 -4.27551323873E-01 +1.34580849869E-01
3.05000000000E+09 -2.98665306302E-01 +2.74303949692E-01 -6.20707406780E-04 +1.17984092368E-03 -6.38798860798E-04 +1.30944924099E-03 -4.30308799837E-01 +1.73773538432E-01
3.05500000000E+09 -2.86686828538E-01 +3.01923383467E-01 -8.91450569594E-04 +1.24666894213E-03 -8.76889486405E-04 +1.30504201803E-03 -4.30544921345E-01 +2.12446941384E-01
3.06000000000E+09 -2.73194554701E-01 +3.28582708338E-01 -1.06175478601E-03 +1.93008777153E-03 -9.01830234735E-04 +2.01163428447E-03 -4.28193996873E-01 +2.50514725973E-01
3.06500000000E+09 -2.59396079583E-01 +3.53621353881E-01 +4.67074634851E-04 +2.18115335822E-03 +3.82683607471E-04 +2.06852822948E-03 -4.23714889249E-01 +2.86888725271E-01
3.07000000000E+09 -2.44539154481E-01 +3.77817059840E-01 +5.69594362366E-04 +1.18495733289E-03 +5.13089468062E-04 +1.22902324206E-03 -4.17515576223E-01 +3.22534554617E-01
