# Hz S RI R 50
! CMT, C1220, 16058040, 17.2.0/1
! Date: 15/08/2018 10:19:15
! Data: Format (Calibration Info)
! Freq                      S11: Re/Im (F2)                       S21: Re/Im (F2)                       S12: Re/Im (F2)                       S22: Re/Im (F2)            
2.50000000000E+09 +5.96463785460E-01 +6.34851428475E-01 -1.78427649254E-04 +1.67774754988E-04 -2.03033687844E-04 +1.54774537556E-04 +5.73259471942E-01 +7.17085291192E-01
2.50500000000E+09 +6.02861920009E-01 +6.26947953358E-01 -1.19847160460E-04 +2.50823670423E-04 -8.57865931243E-05 +2.93338328217E-04 +5.78816199009E-01 +7.11546887748E-01
2.51000000000E+09 +6.09396430940E-01 +6.18779034379E-01 -4.19757385419E-05 +2.07687630160E-04 +3.81031704349E-05 +1.91550792052E-04 +5.84327845785E-01 +7.06216752242E-01
2.51500000000E+09 +6.15618238002E-01 +6.10862922891E-01 -8.97444015199E-05 +1.46734800326E-04 -6.99447006834E-05 +1.51405802185E-04 +5.89576147619E-01 +7.00837035903E-01
2.52000000000E+09 +6.21546907846E-01 +6.03156376560E-01 -6.65957426097E-05 +2.24408915910E-04 -5.64814057284E-05 +2.53626912338E-04 +5.94824170496E-01 +6.94891577949E-01
2.52500000000E+09 +6.26903572008E-01 +5.95688649773E-01 -6.30970619367E-05 +1.99853450613E-04 -1.98106721693E-05 +1.63405645879E-04 +6.00404774818E-01 +6.88564524670E-01
2.53000000000E+09 +6.31620223338E-01 +5.88884300213E-01 -9.12396006766E-06 +2.05894252202E-04 -4.24154873678E-05 +2.04208830716E-04 +6.06468182215E-01 +6.81714500639E-01
2.53500000000E+09 +6.35986612119E-01 +5.82694180310E-01 -5.07643881515E-05 +2.18121765770E-04 -3.04570949432E-05 +1.92664846280E-04 +6.12537761765E-01 +6.74858909207E-01
2.54000000000E+09 +6.40292003144E-01 +5.76454104677E-01 -3.95926346813E-05 +3.31526210668E-04 -9.10082468128E-05 +2.85900815404E-04 +6.18440830522E-01 +6.68112300924E-01
2.54500000000E+09 +6.44518661649E-01 +5.70574841544E-01 +5.01543388796E-05 +3.43924794149E-04 +5.74765941139E-05 +3.25553200596E-04 +6.24150196944E-01 +6.61744886574E-01
2.55000000000E+09 +6.49354790678E-01 +5.64698753583E-01 +1.09442742536E-04 +2.89154785454E-04 +1.78464602365E-04 +3.36549498627E-04 +6.29653162868E-01 +6.55287195765E-01
2.55500000000E+09 +6.54872535600E-01 +5.57605573712E-01 +2.13766406066E-04 +2.33055951210E-04 +2.67146467422E-04 +2.67290832688E-04 +6.34883790620E-01 +6.48799741881E-01
2.56000000000E+09 +6.60822032827E-01 +5.50309235219E-01 +2.12008190637E-04 +5.62290898602E-05 +2.27349472676E-04 +5.84532467246E-05 +6.40174926507E-01 +6.41552212631E-01
2.56500000000E+09 +6.67045146273E-01 +5.41893245477E-01 +2.04935608588E-05 +4.19582773107E-05 +5.17763442711E-05 +6.54160462675E-05 +6.45712881727E-01 +6.34079758957E-01
2.57000000000E+09 +6.73201250109E-01 +5.33166837320E-01 -4.04225036962E-05 +2.29047621284E-04 +3.35616119344E-05 +2.37475517515E-04 +6.51038871002E-01 +6.26178627396E-01
2.57500000000E+09 +6.79232419481E-01 +5.24164214404E-01 +2.00376505814E-04 +2.55591724140E-04 +1.81619387013E-04 +2.01300978247E-04 +6.56369295978E-01 +6.18402200707E-01
2.58000000000E+09 +6.84660931725E-01 +5.15233444721E-01 +2.70975948871E-04 +2.16995215018E-04 +2.11589064545E-04 +2.20543548005E-04 +6.61300777919E-01 +6.11150730787E-01
2.58500000000E+09 +6.89694868349E-01 +5.06345052271E-01 +2.75606372080E-04 +1.14959311361E-04 +2.10640766780E-04 +1.49306229913E-04 +6.66276677419E-01 +6.03490746594E-01
2.59000000000E+09 +6.94004037998E-01 +4.97838950271E-01 +2.12009438433E-04 +1.13965681479E-04 +1.89585368122E-04 +9.34372922999E-05 +6.70986054799E-01 +5.95776584980E-01
2.59500000000E+09 +6.98346082992E-01 +4.89460854793E-01 +1.74907235144E-04 +1.10097744237E-04 +1.77886165880E-04 +1.52284561324E-04 +6.75899829543E-01 +5.87763047123E-01
2.60000000000E+09 +7.02281258478E-01 +4.80684567217E-01 +1.78477680605E-04 +1.30657972310E-04 +2.26968768554E-04 +1.56565880473E-04 +6.80744748628E-01 +5.79129071475E-01
2.60500000000E+09 +7.06388052488E-01 +4.71501278357E-01 +1.87710118497E-04 +1.09694088137E-04 +2.36078130269E-04 +1.15479625210E-04 +6.86020469388E-01 +5.70577587958E-01
2.61000000000E+09 +7.10619502412E-01 +4.61242816627E-01 +3.09951109797E-04 +1.60832856736E-04 +3.44408574608E-04 +1.53766994286E-04 +6.91118514543E-01 +5.61725067696E-01
2.61500000000E+09 +7.15108462551E-01 +4.50036593019E-01 +2.95240599206E-04 +2.40903153313E-05 +3.36939241162E-04 +4.81933441423E-05 +6.95930933057E-01 +5.53080746533E-01
2.62000000000E+09 +7.19027416470E-01 +4.37616304914E-01 +2.66268328721E-04 -5.85721638790E-05 +2.86632971909E-04 -4.24192170284E-05 +7.00438534531E-01 +5.44059648644E-01
2.62500000000E+09 +7.23017032463E-01 +4.24405375949E-01 +2.53789762502E-04 +5.31967314609E-05 +2.92993475484E-04 -3.32648139363E-05 +7.05133660595E-01 +5.35193957918E-01
2.63000000000E+09 +7.26654620616E-01 +4.11023425653E-01 +2.67563239278E-04 +6.11641683675E-05 +2.90602574582E-04 +1.98583943280E-05 +7.09933574791E-01 +5.25953351347E-01
2.63500000000E+09 +7.29848380383E-01 +3.97562947655E-01 +3.73003089422E-04 +1.19979143383E-04 +3.26882535844E-04 +7.21270150349E-05 +7.14930309705E-01 +5.16677659919E-01
2.64000000000E+09 +7.32649306944E-01 +3.84618772462E-01 +4.36162977845E-04 +2.06404951395E-05 +3.60796263524E-04 -3.03645611233E-05 +7.19788805549E-01 +5.06737306486E-01
2.64500000000E+09 +7.35397307735E-01 +3.72539278511E-01 +3.99745012734E-04 -4.65151274213E-05 +3.53261832427E-04 -3.15158919969E-05 +7.24583529507E-01 +4.96909070931E-01
2.65000000000E+09 +7.37736125658E-01 +3.61192001553E-01 +4.67299352394E-04 -2.73887946661E-05 +4.16894533215E-04 +2.70921075311E-05 +7.28700236804E-01 +4.86904993189E-01
2.65500000000E+09 +7.40018955568E-01 +3.50179359480E-01 +5.78680567056E-04 -1.15625356261E-04 +5.98134136111E-04 -8.48358720795E-05 +7.32710654743E-01 +4.76477413552E-01
2.66000000000E+09 +7.42844519453E-01 +3.39272077655E-01 +5.37476539583E-04 -2.38335221201E-04 +5.70134908119E-04 -2.67491404387E-04 +7.36579880864E-01 +4.65186815239E-01
2.66500000000E+09 +7.45394115513E-01 +3.27998126350E-01 +6.19983713742E-04 -2.91629917114E-04 +5.63605400997E-04 -3.35102676905E-04 +7.40395780743E-01 +4.53934046339E-01
2.67000000000E+09 +7.47161819015E-01 +3.15731649481E-01 +5.72321462279E-04 -6.61150715978E-04 +5.21321794132E-04 -6.50360131351E-04 +7.44456002805E-01 +4.43103248644E-01
2.67500000000E+09 +7.48595873987E-01 +3.03215750095E-01 +2.16706673717E-04 -6.41019684613E-04 +1.92794247564E-04 -6.13307190032E-04 +7.48676590339E-01 +4.31888957217E-01
2.68000000000E+09 +7.49910727617E-01 +2.89802419454E-01 +2.05688716445E-04 -5.39037546614E-04 +2.05477043636E-04 -5.52203155640E-04 +7.52274409421E-01 +4.20544080138E-01
2.68500000000E+09 +7.50471033216E-01 +2.75685701014E-01 +2.48942465384E-04 -5.93717374708E-04 +2.22684902190E-04 -4.91340276005E-04 +7.54916089193E-01 +4.08958593957E-01
2.69000000000E+09 +7.50656824476E-01 +2.61443033938E-01 +2.56685042484E-04 -6.35398884899E-04 +2.13230368963E-04 -6.13790789220E-04 +7.57262059799E-01 +3.97271191331E-01
2.69500000000E+09 +7.50393464606E-01 +2.47281908843E-01 +1.25678164289E-04 -7.43099371415E-04 +1.41176505641E-04 -6.73287623241E-04 +7.59707228698E-01 +3.85014604887E-01
2.70000000000E+09 +7.50223341987E-01 +2.33548886165E-01 +6.25448666501E-05 -7.91157723363E-04 +1.54903620663E-04 -7.40698933202E-04 +7.62772061308E-01 +3.71778096737E-01
2.70500000000E+09 +7.50518803140E-01 +2.20245172967E-01 -9.84458294998E-05 -8.72660364730E-04 +1.39259257943E-05 -8.19418288543E-04 +7.65140971812E-01 +3.58360728753E-01
2.71000000000E+09 +7.51407700426E-01 +2.06991963888E-01 -2.58880759030E-04 -8.91481458670E-04 -2.06234211692E-04 -9.21395619327E-04 +7.67864371921E-01 +3.45425889982E-01
2.71500000000E+09 +7.52838170871E-01 +1.92819812354E-01 -5.48368517806E-04 -7.43118599110E-04 -4.86691549341E-04 -8.84233757407E-04 +7.70329080097E-01 +3.32961358273E-01
2.72000000000E+09 +7.53896608554E-01 +1.78103356298E-01 -5.30669534749E-04 -5.64871808971E-04 -6.26964017946E-04 -5.61861679166E-04 +7.72418072570E-01 +3.20564348893E-01
2.72500000000E+09 +7.54318604429E-01 +1.62548075689E-01 -3.54073025448E-04 -4.60774287406E-04 -3.40080992090E-04 -4.46530272607E-04 +7.73687526409E-01 +3.07296444013E-01
2.73000000000E+09 +7.53657548281E-01 +1.46525794622E-01 -4.05247259985E-04 -7.32769537073E-04 -4.05346101176E-04 -6.30246838614E-04 +7.74999118754E-01 +2.93753503156E-01
2.73500000000E+09 +7.51854929228E-01 +1.29697353621E-01 -5.91417389519E-04 -7.07896777549E-04 -5.18124435128E-04 -5.85574656909E-04 +7.76175512174E-01 +2.79206261541E-01
2.74000000000E+09 +7.49085728415E-01 +1.13134077888E-01 -8.12525563157E-04 -5.76787091512E-04 -6.62384159258E-04 -5.96538017372E-04 +7.77717568908E-01 +2.64377435161E-01
2.74500000000E+09 +7.45000589631E-01 +9.60520348952E-02 -9.10218686597E-04 -3.06112403041E-04 -7.84975277880E-04 -4.70139442996E-04 +7.78983758845E-01 +2.49085350896E-01
2.75000000000E+09 +7.39648973111E-01 +7.89696394856E-02 -7.41071895895E-04 -2.48178531654E-04 -7.78755949277E-04 -3.73900029390E-04 +7.79870908201E-01 +2.34235615633E-01
2.75500000000E+09 +7.33799106364E-01 +6.27993258703E-02 -6.83333730098E-04 -3.26771809197E-04 -7.54296033415E-04 -4.29392362943E-04 +7.80060751921E-01 +2.18782664749E-01
2.76000000000E+09 +7.28492737454E-01 +4.67869348390E-02 -9.74601439751E-04 -3.50564417312E-04 -1.06100112370E-03 -4.42729222426E-04 +7.79479169733E-01 +2.03450238147E-01
2.76500000000E+09 +7.23561313538E-01 +3.01412381219E-02 -1.14965618425E-03 -1.27023362949E-04 -1.21506138652E-03 -9.27207256307E-05 +7.78664376816E-01 +1.86714209266E-01
2.77000000000E+09 +7.18309364164E-01 +1.24837638128E-02 -1.11478595626E-03 +2.34114184806E-04 -1.15579067371E-03 +2.48001894404E-04 +7.77765493091E-01 +1.69174101939E-01
2.77500000000E+09 +7.13256458779E-01 -5.78758486294E-03 -8.78069188854E-04 +2.87106654394E-04 -9.60969932353E-04 +3.62350091420E-04 +7.76013030632E-01 +1.51034226367E-01
2.78000000000E+09 +7.07557049551E-01 -2.49656788921E-02 -1.04141003665E-03 +2.47143810207E-04 -1.06963771596E-03 +2.80593297426E-04 +7.73983409871E-01 +1.33217580542E-01
2.78500000000E+09 +7.01066125207E-01 -4.45454540590E-02 -9.84738149094E-04 +4.38377371501E-04 -9.88250771599E-04 +4.96452122132E-04 +7.71496918947E-01 +1.15374788133E-01
2.79000000000E+09 +6.94377295775E-01 -6.43354665804E-02 -9.51925525969E-04 +5.58228198628E-04 -8.62021999309E-04 +6.22761615779E-04 +7.68103092012E-01 +9.81255779537E-02
2.79500000000E+09 +6.86386753167E-01 -8.47594311903E-02 -8.75010103531E-04 +8.14365816686E-04 -8.00414633197E-04 +8.08437118576E-04 +7.64223025029E-01 +8.04001897384E-02
2.80000000000E+09 +6.75816219358E-01 -1.04642433523E-01 -5.86812347734E-04 +8.80080963899E-04 -5.78159050175E-04 +8.45322292788E-04 +7.59741802958E-01 +6.19993785612E-02
2.80500000000E+09 +6.64346616290E-01 -1.22546655551E-01 -4.97576225388E-04 +6.84699794890E-04 -5.35220046443E-04 +6.36992184212E-04 +7.54151235011E-01 +4.25598040042E-02
2.81000000000E+09 +6.52717389110E-01 -1.39191244088E-01 -5.75239159765E-04 +6.68823743148E-04 -6.10344590976E-04 +7.00878404936E-04 +7.47757208532E-01 +2.31469876708E-02
2.81500000000E+09 +6.40450715932E-01 -1.55617497189E-01 -6.61356978400E-04 +7.80380070940E-04 -6.48585342354E-04 +7.04040714079E-04 +7.40588118276E-01 +3.63590729403E-03
2.82000000000E+09 +6.27186444774E-01 -1.71787096728E-01 -8.85300295035E-04 +1.03938947342E-03 -7.95172319753E-04 +1.03200113444E-03 +7.33369700243E-01 -1.59310785550E-02
2.82500000000E+09 +6.13066518236E-01 -1.88530220299E-01 -4.75675841247E-04 +1.39777887284E-03 -3.96504319125E-04 +1.30980075266E-03 +7.24329122308E-01 -3.60172136899E-02
2.83000000000E+09 +5.96485812172E-01 -2.05320547376E-01 -3.28463195549E-04 +1.25288440411E-03 -2.64819207329E-04 +1.10952839555E-03 +7.14565962711E-01 -5.55736293511E-02
2.83500000000E+09 +5.79070023972E-01 -2.21973311376E-01 -2.80962353889E-04 +1.50791292398E-03 -3.67664394808E-04 +1.39191445913E-03 +7.04120031250E-01 -7.57174357133E-02
2.84000000000E+09 +5.60673032988E-01 -2.39239831784E-01 +2.32849603605E-04 +1.57924430276E-03 +2.11672373843E-04 +1.53733183449E-03 +6.92974810385E-01 -9.60514371517E-02
2.84500000000E+09 +5.40096351528E-01 -2.57641784186E-01 +1.31208466339E-04 +1.18928973972E-03 +7.04802735332E-05 +1.23095162661E-03 +6.80810488681E-01 -1.16993004608E-01
2.85000000000E+09 +5.17649509728E-01 -2.75757694816E-01 +3.73702820920E-04 +1.75575606472E-03 +3.48105710473E-04 +1.72431440523E-03 +6.66965540834E-01 -1.38090764902E-01
2.85500000000E+09 +4.93285394443E-01 -2.93221325840E-01 +9.11368560694E-04 +1.29018448212E-03 +9.21519618186E-04 +1.25561347310E-03 +6.51908481519E-01 -1.58185774951E-01
2.86000000000E+09 +4.67943026328E-01 -3.08582008880E-01 +5.19181250798E-04 +1.01696209899E-03 +4.42368254992E-04 +9.46666221725E-04 +6.36470100188E-01 -1.78472915911E-01
2.86500000000E+09 +4.43388269155E-01 -3.22842481463E-01 +4.13581026469E-04 +1.70514480018E-03 +3.49215897279E-04 +1.66986810812E-03 +6.19194091471E-01 -1.99133283630E-01
2.87000000000E+09 +4.18848157528E-01 -3.36665601627E-01 +1.56452822830E-03 +1.74093922917E-03 +1.54588207867E-03 +1.80735116398E-03 +6.00811906705E-01 -2.19532907923E-01
2.87500000000E+09 +3.93298911477E-01 -3.50052783433E-01 +1.61412660651E-03 +1.13528922768E-03 +1.62815365831E-03 +1.07389505450E-03 +5.80195274107E-01 -2.40036458677E-01
2.88000000000E+09 +3.66209551795E-01 -3.61530047073E-01 +1.71706185770E-03 +7.67522965665E-04 +1.73713657252E-03 +7.70157675328E-04 +5.58903912338E-01 -2.58940767513E-01
2.88500000000E+09 +3.38874791077E-01 -3.71147062512E-01 +1.73100144057E-03 +6.38444389239E-04 +1.66890748792E-03 +6.10096711533E-04 +5.36099943008E-01 -2.78323969927E-01
2.89000000000E+09 +3.11057311791E-01 -3.78816628406E-01 +1.76478399787E-03 +4.59388064257E-04 +1.67989190976E-03 +5.00211267765E-04 +5.10494562644E-01 -2.96327229727E-01
2.89500000000E+09 +2.82399004747E-01 -3.86312986827E-01 +1.90643431265E-03 +4.82992646302E-04 +1.85484826413E-03 +5.87112468017E-04 +4.83863933166E-01 -3.13518209313E-01
2.90000000000E+09 +2.51168107948E-01 -3.91770027951E-01 +2.46192669116E-03 +4.55992702612E-05 +2.55986857435E-03 +1.42298840852E-04 +4.55203342836E-01 -3.30589893757E-01
2.90500000000E+09 +2.17986341085E-01 -3.95163625486E-01 +2.13219379551E-03 -5.88575789317E-04 +2.21508673807E-03 -6.29297100180E-04 +4.24290366919E-01 -3.46067302923E-01
2.91000000000E+09 +1.83447135678E-01 -3.94647513256E-01 +1.87654326418E-03 -6.61422581295E-04 +1.84786734714E-03 -7.41783506148E-04 +3.92833109176E-01 -3.60055463074E-01
2.91500000000E+09 +1.49824713929E-01 -3.91688774044E-01 +2.23293842565E-03 -5.94338118474E-04 +2.18182154236E-03 -6.09090311875E-04 +3.59893838754E-01 -3.71676207799E-01
2.92000000000E+09 +1.16944379541E-01 -3.87359493620E-01 +2.27812816504E-03 -1.96689910081E-03 +2.15622875798E-03 -1.87155954327E-03 +3.26180551578E-01 -3.81654936800E-01
2.92500000000E+09 +8.20725659724E-02 -3.82800745631E-01 +9.94947706726E-04 -1.96133118592E-03 +1.03168288417E-03 -1.87860889094E-03 +2.90286698655E-01 -3.89900036839E-01
2.93000000000E+09 +4.66754425414E-02 -3.72904290417E-01 +8.10967706635E-04 -1.42998392104E-03 +8.47622164800E-04 -1.36685700943E-03 +2.52459581139E-01 -3.95273723939E-01
2.93500000000E+09 +1.41530126382E-02 -3.61226896538E-01 +1.19110475437E-03 -1.45308201498E-03 +1.21561006564E-03 -1.42910607908E-03 +2.14638384869E-01 -3.98418352994E-01
2.94000000000E+09 -1.75309627152E-02 -3.48688044248E-01 +1.20754495222E-03 -1.66488811502E-03 +1.18705783735E-03 -1.63423767156E-03 +1.76271478349E-01 -4.00344214978E-01
2.94500000000E+09 -4.92405577721E-02 -3.35128295765E-01 +1.15323962113E-03 -2.36274564206E-03 +1.15454776832E-03 -2.26352262913E-03 +1.36894741747E-01 -4.01103323836E-01
2.95000000000E+09 -8.15195230755E-02 -3.18316405904E-01 +2.51667680843E-04 -2.76576617627E-03 +3.24568076341E-04 -2.67397590581E-03 +9.61477278272E-02 -3.97998027150E-01
2.95500000000E+09 -1.12865473922E-01 -2.97223644991E-01 +5.97214512119E-05 -2.22146632535E-03 +9.80791088275E-05 -2.19036510673E-03 +5.61853894764E-02 -3.91270394359E-01
2.96000000000E+09 -1.40003638509E-01 -2.73072062781E-01 -2.96252423817E-04 -2.80416065741E-03 -2.58296356466E-04 -2.72289674343E-03 +1.65620393130E-02 -3.81827950523E-01
2.96500000000E+09 -1.65972313519E-01 -2.48788709451E-01 -1.21319845418E-03 -2.16880559231E-03 -1.27297179219E-03 -2.23028162203E-03 -2.34720765942E-02 -3.70218126220E-01
2.97000000000E+09 -1.90496400603E-01 -2.21993087230E-01 -9.69251783844E-04 -1.74130733341E-03 -9.87794459161E-04 -1.64796489335E-03 -6.45345214668E-02 -3.54765007360E-01
2.97500000000E+09 -2.14233435315E-01 -1.93860209372E-01 -7.15075288329E-04 -1.85396370709E-03 -6.90869174128E-04 -1.84472222019E-03 -1.02617003659E-01 -3.36233797134E-01
2.98000000000E+09 -2.35962690315E-01 -1.63081403803E-01 -1.47310141535E-03 -2.43096899899E-03 -1.32478355167E-03 -2.42429407140E-03 -1.40209895646E-01 -3.17036770747E-01
2.98500000000E+09 -2.55478236590E-01 -1.31462773899E-01 -2.31242576555E-03 -1.71301270878E-03 -2.22030487701E-03 -1.84391785319E-03 -1.76905312822E-01 -2.93658579092E-01
2.99000000000E+09 -2.72604026656E-01 -9.92606403928E-02 -2.32417152686E-03 -9.74754751600E-04 -2.50892479848E-03 -1.10923224818E-03 -2.11973075590E-01 -2.68607795716E-01
2.99500000000E+09 -2.88416188440E-01 -6.74673303491E-02 -2.05769051974E-03 -6.79893301782E-04 -2.14387585196E-03 -7.12270411299E-04 -2.45962602628E-01 -2.38679156719E-01
3.00000000000E+09 -3.02581507890E-01 -3.55285917908E-02 -2.14781766421E-03 -5.66438921748E-04 -2.16880020226E-03 -5.22041137055E-04 -2.76274729716E-01 -2.06627786800E-01
3.00500000000E+09 -3.15307378567E-01 -2.96745225065E-03 -2.38926960306E-03 -3.93156667351E-04 -2.32677780519E-03 -3.32444112436E-04 -3.04388890131E-01 -1.74002017170E-01
3.01000000000E+09 -3.24116730429E-01 +2.97313442993E-02 -2.67860847823E-03 +1.72861787279E-04 -2.55796894797E-03 +1.20983812206E-04 -3.31614563963E-01 -1.39144034586E-01
3.01500000000E+09 -3.30214112739E-01 +6.14137444789E-02 -2.22541306828E-03 +1.00578173596E-03 -2.26285813119E-03 +9.15573401687E-04 -3.55165275555E-01 -1.01876036736E-01
3.02000000000E+09 -3.33514351557E-01 +9.19410226167E-02 -1.41778667629E-03 +1.06344617715E-03 -1.45784229481E-03 +1.07352968330E-03 -3.74691942268E-01 -6.37306794679E-02
3.02500000000E+09 -3.34265328932E-01 +1.22035676694E-01 -1.22369540522E-03 +4.30642839721E-04 -1.27484270453E-03 +4.82273340222E-04 -3.90841508687E-01 -2.43693696521E-02
3.03000000000E+09 -3.32879795620E-01 +1.51525879911E-01 -2.21990488033E-03 +3.39869990907E-04 -2.19781603025E-03 +3.54084682601E-04 -4.04247526433E-01 +1.47590237726E-02
3.03500000000E+09 -3.29156684384E-01 +1.82051834901E-01 -2.34452792973E-03 +1.63517885879E-03 -2.33351054683E-03 +1.65099956735E-03 -4.15501408205E-01 +5.45042785702E-02
3.04000000000E+09 -3.21086339923E-01 +2.11398506954E-01 -1.38459766650E-03 +2.35993777362E-03 -1.46351517806E-03 +2.37090105546E-03 -4.23701017665E-01 +9.48215205987E-02
3.04500000000E+09 -3.12312091466E-01 +2.39292604459E-01 -3.14479271362E-04 +2.06162680465E-03 -3.42046790198E-04 +2.17905159155E-03 -4.29398354018E-01 +1.34787957052E-01
3.05000000000E+09 -3.02534159803E-01 +2.67374012687E-01 -3.19950745924E-04 +1.37902355265E-03 -2.21549027199E-04 +1.45020428465E-03 -4.32352080928E-01 +1.74529969468E-01
3.05500000000E+09 -2.90936073079E-01 +2.95426168142E-01 -5.42119545102E-04 +1.42839054621E-03 -4.59557528293E-04 +1.47264410835E-03 -4.32421863775E-01 +2.13790008536E-01
3.06000000000E+09 -2.77834582146E-01 +3.22346779281E-01 -6.12904725899E-04 +1.91197240445E-03 -4.69763621281E-04 +1.88667962004E-03 -4.29703669846E-01 +2.52281126720E-01
3.06500000000E+09 -2.64274580388E-01 +3.48127272655E-01 +3.92462103009E-04 +2.01063557852E-03 +3.80708598570E-04 +1.93817410098E-03 -4.24508116014E-01 +2.89034735148E-01
3.07000000000E+09 -2.49604775208E-01 +3.72440175603E-01 +6.36677476432E-04 +1.43344942155E-03 +6.12779861815E-04 +1.39300190063E-03 -4.17488324098E-01 +3.24399688738E-01
