# Hz S RI R 50
! CMT, C1220, 16058040, 17.2.0/1
! Date: 14/08/2018 12:37:06
! Data: Format (Calibration Info)
! Freq                      S11: Re/Im (F2)                       S21: Re/Im (F2)                       S12: Re/Im (F2)                       S22: Re/Im (F2)            
1.00000000000E+09 -6.46225233289E-01 +7.14504653282E-01 -1.53640311110E-05 +1.45336636867E-05 +2.32145439686E-05 +2.95708139577E-05 -6.70528762335E-01 +5.35926866671E-01
1.00500000000E+09 -6.39303989241E-01 +7.19956686266E-01 +9.76846150867E-06 +2.04139357615E-05 -9.74932609235E-06 +8.32079686160E-06 -6.67479673783E-01 +5.39780115971E-01
1.01000000000E+09 -6.33144651557E-01 +7.24757008505E-01 +4.24337208043E-05 -7.94487002422E-07 -1.12898261776E-05 +1.36135408347E-05 -6.64555901357E-01 +5.42830430883E-01
1.01500000000E+09 -6.28969008677E-01 +7.28663267234E-01 -1.48916756217E-05 -3.07470834394E-06 +2.99309206462E-05 -9.80955233762E-06 -6.61925374359E-01 +5.46189319871E-01
1.02000000000E+09 -6.26060612956E-01 +7.31967023660E-01 +1.18322599310E-05 -2.75507009912E-06 -1.47060860323E-05 +3.42024271022E-05 -6.59344765172E-01 +5.49156714317E-01
1.02500000000E+09 -6.23943475674E-01 +7.34680955568E-01 -1.51333462614E-05 -1.53399060680E-05 -6.12723723419E-05 -5.32804202161E-05 -6.57199864630E-01 +5.52564842588E-01
1.03000000000E+09 -6.22377165489E-01 +7.37002376647E-01 -4.09998627408E-05 +1.67512515557E-05 -3.37116812230E-05 +2.37002528681E-05 -6.54644344258E-01 +5.55919626863E-01
1.03500000000E+09 -6.20192043334E-01 +7.39287269680E-01 -6.79736364450E-05 +1.19457324138E-05 +3.03755895953E-05 +1.92416799495E-05 -6.51563480741E-01 +5.59538603320E-01
1.04000000000E+09 -6.16857017941E-01 +7.41983699578E-01 -1.36388974806E-06 +5.42183946179E-05 -2.65622992720E-06 +3.33045299643E-05 -6.48510132576E-01 +5.63015645162E-01
1.04500000000E+09 -6.11788573540E-01 +7.45250992172E-01 -2.38842908596E-05 +8.16011758571E-05 +9.24821069896E-06 -2.98282894230E-05 -6.45692112213E-01 +5.66363412463E-01
1.05000000000E+09 -6.05037282152E-01 +7.49395920855E-01 -3.77590024581E-05 +8.89129272916E-05 -2.23721170612E-05 -1.60550981978E-05 -6.43092154022E-01 +5.69498368803E-01
1.05500000000E+09 -5.97081187772E-01 +7.54086015097E-01 +1.81727760118E-05 +6.59890058051E-05 +4.79161004123E-05 +5.85447906862E-05 -6.40523925871E-01 +5.72870181582E-01
1.06000000000E+09 -5.88215414888E-01 +7.59185547193E-01 +6.56289691424E-05 +4.17787232383E-05 +1.58796014481E-05 -6.51791365137E-06 -6.37977710604E-01 +5.76447853304E-01
1.06500000000E+09 -5.79833289905E-01 +7.64325878732E-01 +3.45238822765E-05 +4.73781584077E-05 +3.52109284315E-05 -5.96371119636E-07 -6.34760789038E-01 +5.80091854792E-01
1.07000000000E+09 -5.72640781976E-01 +7.68771940907E-01 +4.96065187678E-05 +4.27041871530E-05 +3.99165948314E-05 -1.25836512724E-07 -6.31339873482E-01 +5.83598019323E-01
1.07500000000E+09 -5.66802299658E-01 +7.72577969066E-01 +5.31065682311E-05 +1.05433488457E-05 -4.54977893590E-06 -5.36385325233E-05 -6.27642636270E-01 +5.87122413011E-01
1.08000000000E+09 -5.62742710491E-01 +7.75837884959E-01 -1.16374565555E-06 -1.70830108049E-05 +2.15332992134E-05 +1.70615737859E-05 -6.24603586633E-01 +5.90535277839E-01
1.08500000000E+09 -5.59968819779E-01 +7.78029289938E-01 -7.93806224214E-06 +7.57699610107E-06 +3.35745259209E-05 -1.25863800565E-05 -6.21478707165E-01 +5.94042076072E-01
1.09000000000E+09 -5.57878663536E-01 +7.79991062198E-01 +4.51127329769E-05 +3.05994975663E-05 +3.64323489173E-05 +1.05257587348E-05 -6.18613577652E-01 +5.97602976097E-01
1.09500000000E+09 -5.56068375103E-01 +7.81409167275E-01 -4.56882780857E-06 +1.34977976238E-05 +2.93330417662E-05 +8.15409210596E-06 -6.15637014006E-01 +6.01113048684E-01
1.10000000000E+09 -5.53019617256E-01 +7.83412096308E-01 +3.23408473635E-06 -7.45249552734E-06 +8.07538857152E-05 -3.25048844516E-05 -6.12498653007E-01 +6.04867441281E-01
1.10500000000E+09 -5.49177056328E-01 +7.86271855536E-01 +4.32359457618E-05 +2.03561392654E-05 +2.13300326776E-05 -1.03330407883E-05 -6.09099201233E-01 +6.08276762624E-01
1.11000000000E+09 -5.43564720943E-01 +7.89676758119E-01 +2.61371052055E-05 +4.11822206223E-05 +1.94811936355E-05 +1.80215412411E-05 -6.05636466618E-01 +6.11405345110E-01
1.11500000000E+09 -5.36483802546E-01 +7.93864331569E-01 -2.52032567747E-05 +3.17738975585E-05 +3.57981328001E-05 +2.52033850366E-05 -6.02273429745E-01 +6.14735467321E-01
1.12000000000E+09 -5.28990608574E-01 +7.98011982336E-01 +4.15390911309E-05 +1.11723820353E-05 +3.91602800928E-05 +3.85287447797E-05 -5.99171537640E-01 +6.18207940952E-01
1.12500000000E+09 -5.21121187581E-01 +8.02526059329E-01 +4.85297583426E-05 +1.13904532517E-05 +9.37831600042E-06 +1.83575331547E-05 -5.95737646116E-01 +6.22290363593E-01
1.13000000000E+09 -5.13968193821E-01 +8.06443199440E-01 +2.60710113145E-05 +2.13867338841E-05 +7.16089560535E-05 -2.60553847156E-06 -5.92112780620E-01 +6.25877347855E-01
1.13500000000E+09 -5.07819475717E-01 +8.09331467957E-01 +3.03970704380E-05 +5.03948103627E-05 +5.11530926600E-05 +1.31683063258E-05 -5.88345531093E-01 +6.29575858208E-01
1.14000000000E+09 -5.02739324877E-01 +8.11520329074E-01 +5.42561790467E-05 +1.41403445100E-05 +3.46251423598E-05 +2.48310533017E-05 -5.84263182778E-01 +6.33147347205E-01
1.14500000000E+09 -4.98716051392E-01 +8.12951304534E-01 +6.58443284777E-05 -1.13476954075E-05 +8.55946478246E-05 -1.43679231933E-06 -5.80310154833E-01 +6.36459053131E-01
1.15000000000E+09 -4.95158616486E-01 +8.14107695314E-01 +3.68929105987E-05 -1.66637286795E-05 +4.69189300277E-05 -3.41456250771E-05 -5.76325212667E-01 +6.40212088366E-01
1.15500000000E+09 -4.91449488251E-01 +8.15580580326E-01 +6.46049635773E-05 -3.15248633178E-05 +8.76601423503E-05 -1.28274119224E-05 -5.72364552660E-01 +6.43768657358E-01
1.16000000000E+09 -4.86917801038E-01 +8.17378327272E-01 +4.46981483441E-05 -2.92924829340E-05 +1.19739727809E-05 -3.73114953815E-05 -5.68381289781E-01 +6.47439294927E-01
1.16500000000E+09 -4.81348536743E-01 +8.20122019427E-01 +2.88611807126E-05 -4.36636342611E-05 +8.29269136067E-05 +2.34930874555E-05 -5.64333539591E-01 +6.50924421495E-01
1.17000000000E+09 -4.74581754113E-01 +8.23425390837E-01 +6.28986721987E-05 -2.33231518704E-05 +5.45005121915E-05 -1.37961079520E-05 -5.59836121031E-01 +6.54131590206E-01
1.17500000000E+09 -4.66850338907E-01 +8.27226413509E-01 +4.28644234190E-05 -3.99978889215E-05 +4.47651246701E-05 -5.29818413019E-06 -5.55074867967E-01 +6.57520053978E-01
1.18000000000E+09 -4.59026924303E-01 +8.31269942402E-01 +3.01964718829E-05 -4.52430241530E-05 +4.30197921383E-05 -3.10595666515E-05 -5.50443987570E-01 +6.60511844470E-01
1.18500000000E+09 -4.51154497081E-01 +8.34992812871E-01 +7.14244186570E-05 -6.85932949569E-05 +6.40670367336E-05 +1.86088178279E-06 -5.45452687412E-01 +6.63653160395E-01
1.19000000000E+09 -4.44013724880E-01 +8.38022884029E-01 +8.30197041767E-05 +1.49221753459E-07 +5.61755631551E-05 -7.58402055381E-05 -5.40264763584E-01 +6.66345277370E-01
1.19500000000E+09 -4.37905006652E-01 +8.40183091827E-01 +9.87950487707E-05 -9.21245458178E-05 +5.76009364297E-05 -9.61187061183E-05 -5.35140845610E-01 +6.67725675689E-01
1.20000000000E+09 -4.32753737338E-01 +8.40983029373E-01 +6.10022769455E-05 -1.51925024597E-04 +6.26665457103E-05 -1.43824659772E-04 -5.30951196505E-01 +6.68239093683E-01
1.20500000000E+09 -4.28234502339E-01 +8.41899990013E-01 -4.77966191075E-05 -1.78254363510E-04 -5.84891019934E-05 -1.75743483962E-04 -5.28996875246E-01 +6.69066508884E-01
1.21000000000E+09 -4.23404615557E-01 +8.42754421090E-01 -9.09532227589E-05 -7.59813986101E-05 -1.23005775787E-04 -2.96791338765E-05 -5.27660874009E-01 +6.72033173135E-01
1.21500000000E+09 -4.17509468433E-01 +8.44153580365E-01 -2.98867886255E-05 -8.03543139479E-05 -1.77689525526E-05 -7.81910071607E-05 -5.25368549686E-01 +6.76396756748E-01
1.22000000000E+09 -4.10100807678E-01 +8.45851718337E-01 -3.70482964604E-06 -3.47196235169E-05 -3.59043852049E-05 -4.93925305283E-05 -5.22044490670E-01 +6.81448533260E-01
1.22500000000E+09 -4.01328464880E-01 +8.48674150502E-01 -2.09252729586E-05 -3.67617974806E-05 -4.02841029773E-05 -7.70771622424E-05 -5.17741907240E-01 +6.86289074612E-01
1.23000000000E+09 -3.91577032461E-01 +8.51999051273E-01 -4.55835089574E-05 -4.73230662287E-05 -7.40624415744E-06 -7.28374685142E-05 -5.13183489543E-01 +6.90781715139E-01
1.23500000000E+09 -3.81499529542E-01 +8.55929985770E-01 -2.02138207659E-05 -9.50780814209E-05 +1.72991657070E-05 -1.14728052218E-04 -5.08372742186E-01 +6.94958256657E-01
1.24000000000E+09 -3.71784342518E-01 +8.60258556139E-01 -5.86025048078E-05 -8.71982354175E-05 -2.93140170194E-05 -1.01897893106E-04 -5.03418236224E-01 +6.98731278645E-01
1.24500000000E+09 -3.62832649830E-01 +8.64627730652E-01 -4.05404924135E-05 -1.03664844576E-04 -1.16179891530E-05 -1.09892086359E-04 -4.98262932417E-01 +7.02642892272E-01
1.25000000000E+09 -3.54898858538E-01 +8.68339394657E-01 -6.30010806703E-05 -7.24276729065E-05 -3.15351843466E-05 -1.06558273206E-04 -4.92880637972E-01 +7.06765015993E-01
1.25500000000E+09 -3.48217700138E-01 +8.70925862514E-01 -2.75167401144E-05 -8.96133367325E-05 -1.03274938539E-05 -1.44971174093E-04 -4.87312204984E-01 +7.10851987105E-01
1.26000000000E+09 -3.42457878256E-01 +8.72596139372E-01 -8.89942607795E-05 -1.07198097212E-04 -7.40030097714E-05 -1.59223788698E-04 -4.81709992912E-01 +7.15155047359E-01
1.26500000000E+09 -3.36917675010E-01 +8.73561365270E-01 -7.40910704084E-05 -1.19858615806E-04 -4.79443942512E-05 -1.55782548857E-04 -4.76099958601E-01 +7.19350660344E-01
1.27000000000E+09 -3.30946747172E-01 +8.74464286672E-01 -6.99193555281E-05 -1.53224093176E-04 -7.83553413227E-05 -9.22953367719E-05 -4.70194282931E-01 +7.23269656871E-01
1.27500000000E+09 -3.23539491261E-01 +8.75456692653E-01 -1.16710579472E-04 -1.19097205541E-04 -1.17413327376E-04 -1.51157087995E-04 -4.64088385603E-01 +7.27220593952E-01
1.28000000000E+09 -3.14480045486E-01 +8.76924305240E-01 -1.74298633802E-04 -8.11248152346E-05 -1.74046323886E-04 -1.54045998958E-04 -4.57905225690E-01 +7.31027327390E-01
1.28500000000E+09 -3.03421557440E-01 +8.79022729314E-01 -1.73549131867E-04 -4.81881901595E-05 -1.94937512896E-04 -5.56675475968E-05 -4.51477664038E-01 +7.34979311457E-01
1.29000000000E+09 -2.91547391602E-01 +8.81848802611E-01 -1.82296178012E-04 -7.51469036882E-06 -2.24161675049E-04 -3.73185601078E-05 -4.45068832216E-01 +7.39016378958E-01
1.29500000000E+09 -2.79326290695E-01 +8.85294270513E-01 -1.88582302983E-04 -3.42640558414E-05 -2.18152857425E-04 -6.17112044817E-07 -4.38090590214E-01 +7.42914212602E-01
1.30000000000E+09 -2.67449780439E-01 +8.89236586598E-01 -1.87666535534E-04 -1.73540198581E-06 -2.13405837348E-04 +2.92031421513E-05 -4.31283901833E-01 +7.46734712702E-01
1.30500000000E+09 -2.56701139537E-01 +8.92653402405E-01 -1.45936673033E-04 -4.55179212331E-05 -1.60816183803E-04 -3.80395659925E-05 -4.24262484465E-01 +7.50605018735E-01
1.31000000000E+09 -2.47647255444E-01 +8.95272194660E-01 -2.31796856447E-04 +2.72181165504E-05 -2.15327349329E-04 -2.10793505672E-05 -4.16957985670E-01 +7.54328683793E-01
1.31500000000E+09 -2.40354472303E-01 +8.96888306209E-01 -2.61438731868E-04 +5.45088216574E-05 -2.24580408212E-04 +2.55836973722E-05 -4.09339888838E-01 +7.58075508730E-01
1.32000000000E+09 -2.34371661136E-01 +8.97435592916E-01 -2.63967015085E-04 +2.33639784961E-05 -2.62120117547E-04 +4.61812536882E-05 -4.01243503083E-01 +7.61783970798E-01
1.32500000000E+09 -2.28513395528E-01 +8.97218966128E-01 -2.49973317756E-04 +8.05607795364E-05 -2.49931255151E-04 +1.13834127221E-04 -3.93022637031E-01 +7.65375624337E-01
1.33000000000E+09 -2.21630664233E-01 +8.96679573101E-01 -2.18006296007E-04 +1.35892088891E-04 -2.53818291245E-04 +1.13720487352E-04 -3.84645927019E-01 +7.69077938235E-01
1.33500000000E+09 -2.12635150645E-01 +8.96148152882E-01 -2.77681286554E-04 +1.35091560314E-04 -1.80291151886E-04 +1.24041449978E-04 -3.76122986482E-01 +7.72706616279E-01
1.34000000000E+09 -2.01116385991E-01 +8.95870058603E-01 -2.80535844576E-04 +1.22873647072E-04 -2.72571432082E-04 +1.22229357189E-04 -3.67207076109E-01 +7.76393094195E-01
1.34500000000E+09 -1.86956985629E-01 +8.95918988911E-01 -2.64207231746E-04 +1.89973546952E-04 -2.63038225939E-04 +2.25705890591E-04 -3.57777214429E-01 +7.80305082571E-01
1.35000000000E+09 -1.70944013117E-01 +8.96633381188E-01 -2.85426408859E-04 +2.25143604493E-04 -2.40087872453E-04 +2.25150793356E-04 -3.47707533490E-01 +7.84023478344E-01
1.35500000000E+09 -1.53784204418E-01 +8.97711368958E-01 -2.92996490767E-04 +2.68122721425E-04 -2.57814433725E-04 +2.82263180752E-04 -3.37266683418E-01 +7.87677623359E-01
1.36000000000E+09 -1.37069675438E-01 +8.98809239216E-01 -2.98651746988E-04 +2.95440936736E-04 -2.37698524139E-04 +3.10906618316E-04 -3.26705878614E-01 +7.91111750686E-01
1.36500000000E+09 -1.21220720668E-01 +8.99712407402E-01 -2.39396991590E-04 +4.07773303830E-04 -2.36376346301E-04 +3.57288326013E-04 -3.15727269221E-01 +7.94321948079E-01
1.37000000000E+09 -1.07221011577E-01 +8.99820870473E-01 -2.26285337788E-04 +4.78099661557E-04 -2.09354331186E-04 +3.98734320489E-04 -3.04453901613E-01 +7.97507882300E-01
1.37500000000E+09 -9.54438306188E-02 +8.99322290231E-01 -1.58636100091E-04 +5.23997523447E-04 -2.39340503838E-04 +4.57570549193E-04 -2.92020174504E-01 +8.00637118236E-01
1.38000000000E+09 -8.46799895064E-02 +8.98167998866E-01 -8.38373733215E-05 +5.46157538609E-04 -1.98131280700E-04 +5.35605035502E-04 -2.78908790028E-01 +8.03800942654E-01
1.38500000000E+09 -7.36355065067E-02 +8.96202624287E-01 -4.18533069103E-05 +5.38637592450E-04 -9.57063001835E-05 +5.89344555478E-04 -2.65052440248E-01 +8.06766864144E-01
1.39000000000E+09 -6.15477545422E-02 +8.93587811517E-01 -6.30361547024E-05 +5.92338685197E-04 -6.57603084671E-05 +6.85073036112E-04 -2.50599912691E-01 +8.09414220906E-01
1.39500000000E+09 -4.68345827946E-02 +8.90394735831E-01 -3.76881563991E-05 +6.41027285775E-04 -2.25885942678E-05 +6.90189644634E-04 -2.35492307128E-01 +8.11698838379E-01
1.40000000000E+09 -2.91847705368E-02 +8.86303736130E-01 -2.24555911926E-05 +7.94110087563E-04 +3.53926054498E-05 +7.84642144905E-04 -2.19552573798E-01 +8.13497891526E-01
1.40500000000E+09 -9.30923866473E-03 +8.81769618348E-01 +1.74816918886E-04 +9.40708633479E-04 +1.81274766281E-04 +9.12977425662E-04 -2.02625096391E-01 +8.14863586484E-01
1.41000000000E+09 +1.26401620445E-02 +8.76832074878E-01 +3.12160909098E-04 +9.55373915382E-04 +3.54042358878E-04 +9.26381056087E-04 -1.84147581304E-01 +8.16031500030E-01
1.41500000000E+09 +3.53723883855E-02 +8.71250643088E-01 +5.00851946784E-04 +9.77820525465E-04 +5.29598073019E-04 +1.03557867810E-03 -1.64024619520E-01 +8.16291951975E-01
1.42000000000E+09 +5.82706354768E-02 +8.65030663104E-01 +7.14335365794E-04 +9.04489388420E-04 +7.68901945555E-04 +9.94047698746E-04 -1.42727177149E-01 +8.16102765277E-01
1.42500000000E+09 +7.98474990656E-02 +8.57756095402E-01 +8.21328827139E-04 +8.30385162716E-04 +9.47445639788E-04 +9.20889323080E-04 -1.20117483853E-01 +8.14698845000E-01
1.43000000000E+09 +1.00395185695E-01 +8.49103472278E-01 +9.24360343648E-04 +8.64249329342E-04 +1.04169179645E-03 +9.01940698840E-04 -9.68411710695E-02 +8.12638019048E-01
1.43500000000E+09 +1.20000866644E-01 +8.38864961711E-01 +1.14085332224E-03 +9.95143443560E-04 +1.26187755466E-03 +9.63696605535E-04 -7.17573465964E-02 +8.08716183830E-01
1.44000000000E+09 +1.40125566237E-01 +8.26772428900E-01 +1.71072723149E-03 +9.07107895664E-04 +1.78930955784E-03 +8.28593339397E-04 -4.47254190395E-02 +8.03222066309E-01
1.44500000000E+09 +1.62050737094E-01 +8.11597865702E-01 +1.96985544307E-03 +4.60340655088E-04 +2.06819867259E-03 +3.34913014069E-04 -1.53538460222E-02 +7.95123324176E-01
1.45000000000E+09 +1.86351470346E-01 +7.92736592577E-01 +2.02123039121E-03 +1.73987444710E-04 +2.09720313090E-03 +2.23509601613E-05 +1.61182932298E-02 +7.84095653371E-01
1.45500000000E+09 +2.13571357771E-01 +7.70304956926E-01 +2.20827370941E-03 -1.16041824997E-05 +2.21630947937E-03 -2.09166475311E-04 +4.91894894945E-02 +7.70379764716E-01
1.46000000000E+09 +2.43876538927E-01 +7.43382526394E-01 +2.47964759077E-03 -3.19505900201E-04 +2.32696801865E-03 -5.18003220300E-04 +8.38379873036E-02 +7.52493505046E-01
1.46500000000E+09 +2.75918706086E-01 +7.11994472807E-01 +2.84026259341E-03 -6.71850032700E-04 +2.58205281110E-03 -7.69943121389E-04 +1.20311087539E-01 +7.30182075476E-01
1.47000000000E+09 +3.08952720573E-01 +6.76211693339E-01 +3.13659910566E-03 -1.45674121898E-03 +2.87048969424E-03 -1.35792331307E-03 +1.58086894071E-01 +7.00677197318E-01
1.47500000000E+09 +3.40922679791E-01 +6.34924391594E-01 +3.10528987532E-03 -2.60445743509E-03 +3.11525079714E-03 -2.40540094914E-03 +1.96530128155E-01 +6.64114389564E-01
1.48000000000E+09 +3.69791495063E-01 +5.87226936771E-01 +2.37060120703E-03 -3.45024810667E-03 +2.48087045118E-03 -3.39090426292E-03 +2.34706209124E-01 +6.19109879513E-01
1.48500000000E+09 +3.92925251249E-01 +5.33131532486E-01 +2.02771664614E-03 -3.90586839635E-03 +2.01375129382E-03 -4.01103785162E-03 +2.71118462840E-01 +5.64846260750E-01
1.49000000000E+09 +4.09501251826E-01 +4.71354212116E-01 +1.44406565797E-03 -4.95688327130E-03 +1.21554876251E-03 -4.98688576745E-03 +3.02837796860E-01 +4.99091076303E-01
1.49500000000E+09 +4.16783427743E-01 +4.02035209798E-01 +1.67478715249E-04 -5.91018075247E-03 -9.08056097641E-05 -5.69224296535E-03 +3.24233321278E-01 +4.23178604250E-01
1.50000000000E+09 +4.15330544081E-01 +3.24518968584E-01 -1.60727142566E-03 -5.94227353806E-03 -1.51149164521E-03 -5.59820778144E-03 +3.34677945127E-01 +3.37859978666E-01
1.50500000000E+09 +4.00773785520E-01 +2.36982270767E-01 -2.89276456965E-03 -5.99392544549E-03 -2.56632390217E-03 -5.84132831923E-03 +3.27487417135E-01 +2.43341321571E-01
1.51000000000E+09 +3.69054878928E-01 +1.44302047876E-01 -4.91973077234E-03 -5.41522437026E-03 -4.64497566870E-03 -5.55423334471E-03 +2.99613797639E-01 +1.44560172425E-01
1.51500000000E+09 +3.17363345005E-01 +5.23886163631E-02 -6.40773523739E-03 -4.60639909097E-03 -6.36736039496E-03 -4.79127578695E-03 +2.48673541354E-01 +5.04499220292E-02
1.52000000000E+09 +2.46651702296E-01 -2.96383671678E-02 -8.93193574741E-03 -2.53839133272E-03 -9.02541563991E-03 -2.62703992934E-03 +1.77599871247E-01 -3.39831306230E-02
1.52500000000E+09 +1.59816801559E-01 -9.68615963205E-02 -8.95462564368E-03 +1.46642758475E-03 -9.05342280715E-03 +1.42619624327E-03 +8.73957213097E-02 -9.93979442052E-02
1.53000000000E+09 +5.92155338013E-02 -1.43269556213E-01 -7.32938502814E-03 +3.35045164264E-03 -7.36255547376E-03 +3.38219141873E-03 -1.31119691946E-02 -1.42736870093E-01
1.53500000000E+09 -4.83181035428E-02 -1.63852877150E-01 -6.24979440957E-03 +5.34367478578E-03 -6.22854648347E-03 +5.36078522154E-03 -1.18250685124E-01 -1.61486139316E-01
1.54000000000E+09 -1.56526979771E-01 -1.58820416312E-01 -3.80002776102E-03 +6.20491678557E-03 -3.81499852527E-03 +6.09598640031E-03 -2.18908869978E-01 -1.57832455180E-01
1.54500000000E+09 -2.59843411573E-01 -1.32714748399E-01 -2.35236578997E-03 +6.51543917585E-03 -2.42865941763E-03 +6.40079698661E-03 -3.08853130205E-01 -1.36137117404E-01
1.55000000000E+09 -3.52833226286E-01 -8.68022890512E-02 -4.93563001416E-04 +6.65987676251E-03 -8.03413448871E-04 +6.64614921276E-03 -3.86094776538E-01 -1.03169414665E-01
1.55500000000E+09 -4.30111099994E-01 -3.03414873447E-02 +1.45925258726E-03 +6.03596886335E-03 +1.20990699136E-03 +6.22730884633E-03 -4.50817868883E-01 -6.10436977863E-02
1.56000000000E+09 -4.93326070705E-01 +2.94078566089E-02 +2.55234894436E-03 +4.48669287508E-03 +2.52356183562E-03 +4.77755344594E-03 -5.02670503751E-01 -1.39887915962E-02
1.56500000000E+09 -5.43472302481E-01 +9.03772023678E-02 +2.74855883989E-03 +3.41891307954E-03 +2.84059329349E-03 +3.71530893947E-03 -5.43068235642E-01 +3.51408315076E-02
1.57000000000E+09 -5.80126989108E-01 +1.49409843576E-01 +3.13395344747E-03 +2.61491590857E-03 +3.38007187438E-03 +2.77574475657E-03 -5.73916505718E-01 +8.34247675555E-02
