# Hz S RI R 50
! CMT, C1220, 16058040, 17.2.0/1
! Date: 14/08/2018 12:38:24
! Data: Format (Calibration Info)
! Freq                      S11: Re/Im (F2)                       S21: Re/Im (F2)                       S12: Re/Im (F2)                       S22: Re/Im (F2)            
1.00000000000E+09 -6.47060983678E-01 +7.14362701108E-01 +8.73543180569E-06 +6.55228132158E-05 +2.79002679237E-05 -1.08850390462E-05 -6.70405608606E-01 +5.38913036540E-01
1.00500000000E+09 -6.40065146550E-01 +7.19509018487E-01 -6.13711923523E-07 +2.18096720900E-05 +8.64485645947E-06 +3.25681953493E-05 -6.67360127813E-01 +5.42678865676E-01
1.01000000000E+09 -6.34169294205E-01 +7.24491307889E-01 -2.50495779478E-05 +4.24425654037E-06 -1.09858689732E-05 +3.13487822606E-05 -6.64318800325E-01 +5.45822676245E-01
1.01500000000E+09 -6.29762498290E-01 +7.28483764486E-01 +7.47289437377E-06 +2.18586487707E-05 -4.51900303594E-05 -4.26962615494E-06 -6.61767953357E-01 +5.48960595321E-01
1.02000000000E+09 -6.26774295925E-01 +7.31824195876E-01 +1.69214729022E-05 +4.52197821105E-05 -6.86244900905E-05 -1.55759071981E-05 -6.59281852893E-01 +5.51993704828E-01
1.02500000000E+09 -6.24712459395E-01 +7.34547222820E-01 -1.71297776282E-05 -3.45977045484E-05 -4.03419374414E-06 +5.38141583750E-05 -6.57032725899E-01 +5.55323755873E-01
1.03000000000E+09 -6.23109867886E-01 +7.36902933283E-01 +3.38888063422E-05 +1.47885647175E-05 -3.73177185789E-05 -5.71637717505E-07 -6.54193201902E-01 +5.58674665339E-01
1.03500000000E+09 -6.20922292343E-01 +7.39231393758E-01 +2.74037661226E-05 +4.01951979298E-05 -2.43796465470E-06 +3.42863028436E-05 -6.51258548685E-01 +5.62395669514E-01
1.04000000000E+09 -6.17487242509E-01 +7.41931548762E-01 -2.89240292516E-05 +3.23209565158E-05 -2.20437462670E-05 +1.96665257324E-05 -6.48163447929E-01 +5.65796678259E-01
1.04500000000E+09 -6.12443572116E-01 +7.45125756195E-01 -1.43041855690E-05 +3.28686220737E-05 +3.97247209417E-05 +7.75653122122E-05 -6.45368812286E-01 +5.69213161580E-01
1.05000000000E+09 -6.05603601344E-01 +7.49402445086E-01 +4.07828321345E-06 +1.50701935927E-05 -1.00196826375E-05 -5.48241707016E-06 -6.42641466603E-01 +5.72344215577E-01
1.05500000000E+09 -5.97642953342E-01 +7.53933314070E-01 +1.76195257858E-05 -1.86292108468E-05 +2.76679888515E-05 -2.54627388818E-05 -6.40101168794E-01 +5.75673126927E-01
1.06000000000E+09 -5.88950400354E-01 +7.59021089887E-01 +2.81849616507E-05 +6.24682985775E-05 +3.33532500493E-05 +2.05923424777E-05 -6.37313613102E-01 +5.79260099260E-01
1.06500000000E+09 -5.80770421919E-01 +7.64003345280E-01 +2.63819035653E-05 +4.02770351878E-05 +6.55258380740E-05 +6.86330568131E-05 -6.34231080309E-01 +5.82898349891E-01
1.07000000000E+09 -5.73632252961E-01 +7.68371318388E-01 +3.21117752319E-05 -1.82188475127E-05 -1.21871730284E-05 +6.09055688257E-05 -6.30927067378E-01 +5.86334329475E-01
1.07500000000E+09 -5.67782519139E-01 +7.72350466198E-01 -1.79471713414E-05 +2.10395436951E-05 +6.26796217402E-06 -2.31744820459E-05 -6.27335899379E-01 +5.89809017073E-01
1.08000000000E+09 -5.63806310315E-01 +7.75672147373E-01 +4.53761844764E-05 +1.24342670420E-05 +4.18542000170E-05 -5.65441136700E-06 -6.24101579517E-01 +5.93371267329E-01
1.08500000000E+09 -5.61010471346E-01 +7.77668131609E-01 +4.60455674489E-05 -3.62890749213E-06 +6.11622328857E-06 -4.31673610670E-05 -6.21088182106E-01 +5.96735201798E-01
1.09000000000E+09 -5.58657133062E-01 +7.79834046552E-01 +1.05448385369E-05 -1.23547950842E-05 +4.44126288295E-05 +3.45802330271E-05 -6.18108493781E-01 +6.00256059042E-01
1.09500000000E+09 -5.56781308746E-01 +7.81565838463E-01 -1.80362811161E-06 -3.02530241074E-07 -1.05065406595E-05 +9.58196614924E-06 -6.14946636757E-01 +6.03969603258E-01
1.10000000000E+09 -5.53888032039E-01 +7.83472542020E-01 +1.44426110320E-05 -6.99079287351E-06 -1.66633613006E-05 +2.39431866609E-05 -6.11810503872E-01 +6.07533882980E-01
1.10500000000E+09 -5.49896694330E-01 +7.86245110197E-01 -1.26224833972E-05 -4.85805552186E-06 +4.33993071464E-06 +2.01154585582E-05 -6.08373580775E-01 +6.10862038392E-01
1.11000000000E+09 -5.44277360017E-01 +7.89710169164E-01 +3.83730374473E-06 -9.93683658526E-06 -3.76756049357E-06 -1.58677052474E-05 -6.05004251896E-01 +6.13997990685E-01
1.11500000000E+09 -5.37343487349E-01 +7.93787434715E-01 +3.73762534902E-05 +2.47189223581E-06 -8.40896355805E-06 -9.62193444904E-06 -6.01715794609E-01 +6.17382737071E-01
1.12000000000E+09 -5.30003273750E-01 +7.97866375562E-01 +5.01597578314E-05 +1.26243486298E-06 +2.40969053516E-05 +5.11690025209E-05 -5.98370043073E-01 +6.20844568794E-01
1.12500000000E+09 -5.22142386834E-01 +8.02383109532E-01 +2.91447215194E-05 +3.06592836247E-05 +1.65465643767E-05 +1.16505893400E-04 -5.94918034265E-01 +6.24764049248E-01
1.13000000000E+09 -5.15071625663E-01 +8.06225034182E-01 +2.21564136614E-05 +4.64171115555E-05 +4.54166103066E-05 +7.40455892173E-06 -5.91390261232E-01 +6.28420701124E-01
1.13500000000E+09 -5.08868169187E-01 +8.09020984057E-01 +2.57606602687E-05 +2.21974603444E-05 -7.41918863990E-06 +4.04563661884E-05 -5.87364398908E-01 +6.32133992480E-01
1.14000000000E+09 -5.03548109404E-01 +8.11462284993E-01 +3.29598817608E-05 +6.02856268248E-06 +2.50989688923E-05 -1.29219568776E-05 -5.83343878229E-01 +6.35710116639E-01
1.14500000000E+09 -4.99579923275E-01 +8.12917860928E-01 +3.47343273548E-05 -1.83934412051E-05 +6.06258665383E-05 -5.62527033133E-05 -5.79401124914E-01 +6.39002719969E-01
1.15000000000E+09 -4.95990918858E-01 +8.14132965967E-01 +7.09223368631E-05 -1.90891978655E-05 +9.13298762570E-05 +2.43191271931E-05 -5.75444858125E-01 +6.42537313988E-01
1.15500000000E+09 -4.92307750008E-01 +8.15746178573E-01 +8.37224642309E-05 -3.14027312699E-05 +3.49091357903E-05 -1.39809396485E-06 -5.71430028103E-01 +6.46366394162E-01
1.16000000000E+09 -4.87736234169E-01 +8.17376677034E-01 +5.14083730248E-05 -5.89399578083E-06 +2.69271477437E-05 -4.54272461244E-05 -5.67448247901E-01 +6.50008137879E-01
1.16500000000E+09 -4.82215582378E-01 +8.20228267502E-01 +7.15391376639E-05 -1.51035756392E-05 +4.28061267450E-05 -1.37325498848E-05 -5.63302599665E-01 +6.53394775937E-01
1.17000000000E+09 -4.75395990044E-01 +8.23563922925E-01 +4.89993713548E-05 -4.52867134255E-06 +2.70545891719E-05 -2.41915223613E-05 -5.58853030611E-01 +6.56682209020E-01
1.17500000000E+09 -4.67792318824E-01 +8.27075625691E-01 +4.71947274440E-05 -4.98747495691E-05 +6.23319919984E-05 -1.69111830066E-05 -5.54065556680E-01 +6.59776772123E-01
1.18000000000E+09 -4.60136152985E-01 +8.31208859676E-01 +5.17208019691E-05 -4.24893238807E-06 +7.53761444362E-05 -5.23560235743E-06 -5.49467113280E-01 +6.62961511182E-01
1.18500000000E+09 -4.52264595086E-01 +8.34826622862E-01 +2.86396825733E-05 -5.99353840366E-05 +6.25985635008E-05 +1.41519952430E-05 -5.44589706905E-01 +6.65980885910E-01
1.19000000000E+09 -4.45305769740E-01 +8.37838104917E-01 +9.61704136643E-05 -6.32788764107E-05 +8.84677076313E-05 -6.02069308972E-05 -5.39157964737E-01 +6.68749256662E-01
1.19500000000E+09 -4.38980458974E-01 +8.40115416839E-01 +6.79318945621E-05 -1.07729777022E-04 +8.09653523812E-05 -1.22933802852E-04 -5.34169381018E-01 +6.70204320757E-01
1.20000000000E+09 -4.33845774118E-01 +8.40886990028E-01 +3.27022602496E-05 -2.11119660572E-04 +3.26602918529E-05 -1.68452204550E-04 -5.30066654581E-01 +6.70651098246E-01
1.20500000000E+09 -4.29340592406E-01 +8.41952764667E-01 -8.02671981558E-05 -1.80017120217E-04 -4.83206033901E-05 -1.34886259843E-04 -5.28014724717E-01 +6.71566137776E-01
1.21000000000E+09 -4.24475208375E-01 +8.42880814982E-01 -6.74034099913E-05 -7.37191370232E-05 -7.70901911166E-05 -5.49707841018E-05 -5.26536286931E-01 +6.74333448419E-01
1.21500000000E+09 -4.18556213906E-01 +8.44299586401E-01 -2.98912383804E-05 -5.71093769093E-05 -5.74519567711E-05 -3.09824640039E-05 -5.24251835082E-01 +6.78679689377E-01
1.22000000000E+09 -4.11090589773E-01 +8.46082160861E-01 -1.81198724437E-05 -2.23666586784E-05 +3.08279130927E-06 -5.63347814846E-05 -5.20759643653E-01 +6.83695484402E-01
1.22500000000E+09 -4.02372704901E-01 +8.48999475908E-01 -4.34112844485E-05 -6.25954473202E-05 -2.50070613127E-05 +1.68185376428E-05 -5.16628784128E-01 +6.88555911308E-01
1.23000000000E+09 -3.92754949542E-01 +8.52196450755E-01 -3.68878344974E-05 -7.12276605261E-05 -2.71494748357E-05 -4.55391150820E-05 -5.11930465231E-01 +6.93088024011E-01
1.23500000000E+09 -3.82747364786E-01 +8.55966339553E-01 -1.52521863061E-05 -6.99196387193E-05 -3.29593820130E-05 -5.61493327064E-05 -5.07075833500E-01 +6.97210054204E-01
1.24000000000E+09 -3.73032603638E-01 +8.60257191850E-01 -2.10015605065E-05 -8.85902836282E-05 -3.58097808900E-05 -4.22632939119E-05 -5.02113141951E-01 +7.00979940511E-01
1.24500000000E+09 -3.64080534210E-01 +8.64681115394E-01 -3.04955950206E-05 -9.82552458800E-05 -2.38618389212E-05 -7.31555101672E-05 -4.96932689658E-01 +7.04700686771E-01
1.25000000000E+09 -3.56391925563E-01 +8.68343241090E-01 -4.06497966085E-05 -1.05763020890E-04 -3.49405031095E-05 -1.22008601533E-04 -4.91595654263E-01 +7.08839934981E-01
1.25500000000E+09 -3.49497900482E-01 +8.70993875270E-01 -8.26352933755E-05 -3.28360073340E-05 -1.57042883664E-05 -1.14348430042E-04 -4.85876339533E-01 +7.12900552048E-01
1.26000000000E+09 -3.43705381655E-01 +8.72771901517E-01 -6.97326862004E-05 -8.60765467512E-05 -7.68409274759E-05 -1.24503616409E-04 -4.80481937326E-01 +7.17314827618E-01
1.26500000000E+09 -3.38202459678E-01 +8.73885249448E-01 -2.42167651692E-05 -5.14533515565E-05 -8.63868686405E-05 -1.28007970946E-04 -4.74553495998E-01 +7.21370603987E-01
1.27000000000E+09 -3.32023521854E-01 +8.74692008884E-01 -7.86864376354E-05 -8.84989053051E-05 -1.08226542450E-04 -1.28212768769E-04 -4.68764712860E-01 +7.25302388342E-01
1.27500000000E+09 -3.24724534764E-01 +8.75729782815E-01 -1.31087174102E-04 -9.76691816440E-05 -1.21137095278E-04 -1.26294853662E-04 -4.62867303317E-01 +7.29225879063E-01
1.28000000000E+09 -3.15600501947E-01 +8.77235442485E-01 -1.39507659362E-04 -8.02371066472E-05 -1.58713709748E-04 -9.96227827877E-05 -4.56702577652E-01 +7.33018080063E-01
1.28500000000E+09 -3.04457905882E-01 +8.79413001743E-01 -1.61721856619E-04 -7.43334103519E-05 -1.85531530878E-04 -4.11597928919E-05 -4.50177600318E-01 +7.36972028542E-01
1.29000000000E+09 -2.92770768245E-01 +8.82128051227E-01 -1.59436818500E-04 -4.64021705590E-05 -1.65042672078E-04 -7.43410837099E-05 -4.43577821395E-01 +7.40905276194E-01
1.29500000000E+09 -2.80595785884E-01 +8.85551067829E-01 -1.85849817977E-04 +2.11334064243E-05 -2.39921082945E-04 -4.93683285845E-06 -4.36678027768E-01 +7.44756388319E-01
1.30000000000E+09 -2.68832269467E-01 +8.89432033502E-01 -1.96684505631E-04 +6.09404583173E-06 -2.15216112118E-04 +2.52092498325E-05 -4.29910532793E-01 +7.48629390363E-01
1.30500000000E+09 -2.58383552493E-01 +8.92918198006E-01 -1.85927851710E-04 -2.27203045200E-05 -1.97641855762E-04 +7.92220516921E-06 -4.22878610481E-01 +7.52391343432E-01
1.31000000000E+09 -2.49197127093E-01 +8.95529264836E-01 -1.94671845253E-04 +4.09527624979E-05 -2.01211854866E-04 -5.81414878381E-06 -4.15554129100E-01 +7.56063380934E-01
1.31500000000E+09 -2.41987556290E-01 +8.97143257428E-01 -2.19228116151E-04 +2.86289718884E-05 -2.00498332520E-04 +3.91724297729E-05 -4.07812672602E-01 +7.59721415157E-01
1.32000000000E+09 -2.35704594160E-01 +8.97803667773E-01 -2.22900070543E-04 +9.93364119370E-05 -2.05329983463E-04 +7.61433559493E-05 -3.99817903535E-01 +7.63530098281E-01
1.32500000000E+09 -2.29875153067E-01 +8.97612516308E-01 -2.15298659137E-04 +8.87025530536E-05 -2.22161295770E-04 +1.38831117834E-04 -3.91603109891E-01 +7.67180872034E-01
1.33000000000E+09 -2.22945618361E-01 +8.97281281192E-01 -1.89032943565E-04 +1.49555841011E-04 -2.12830174856E-04 +1.26863891121E-04 -3.83080162201E-01 +7.70818380700E-01
1.33500000000E+09 -2.13859431819E-01 +8.96752842400E-01 -2.51930906547E-04 +9.75290018051E-05 -1.56798185826E-04 +1.15357337178E-04 -3.74593900275E-01 +7.74472329454E-01
1.34000000000E+09 -2.02356009952E-01 +8.96597475743E-01 -2.58326013083E-04 +1.24463720211E-04 -1.94803856520E-04 +1.56123731569E-04 -3.65624999740E-01 +7.78131770298E-01
1.34500000000E+09 -1.88280070408E-01 +8.96548991617E-01 -2.27083715811E-04 +1.82367343818E-04 -1.84495923147E-04 +2.02117382797E-04 -3.56150470875E-01 +7.81941210317E-01
1.35000000000E+09 -1.72249782458E-01 +8.97044466552E-01 -2.33266978880E-04 +2.54590288131E-04 -2.10541580306E-04 +2.16362832070E-04 -3.46257632041E-01 +7.85650044162E-01
1.35500000000E+09 -1.55462411411E-01 +8.98286672457E-01 -2.09967179469E-04 +2.66824961990E-04 -2.22068678358E-04 +2.51676048085E-04 -3.35774921754E-01 +7.89280050421E-01
1.36000000000E+09 -1.38724534553E-01 +8.99295815931E-01 -2.44482510904E-04 +3.01925497724E-04 -2.00621555903E-04 +2.89503443309E-04 -3.25107565796E-01 +7.92646904742E-01
1.36500000000E+09 -1.23083435551E-01 +9.00181699573E-01 -2.43821669632E-04 +3.78372740783E-04 -1.94481872017E-04 +3.32887800152E-04 -3.14289213103E-01 +7.95813293014E-01
1.37000000000E+09 -1.09141919419E-01 +9.00367482054E-01 -1.32279390209E-04 +4.56856648352E-04 -1.50114683446E-04 +4.34816126372E-04 -3.02766930745E-01 +7.99067896198E-01
1.37500000000E+09 -9.72260586199E-02 +9.00015669714E-01 -9.80158033545E-05 +4.73031797238E-04 -4.18122935837E-05 +4.29973591493E-04 -2.90494978656E-01 +8.02173776865E-01
1.38000000000E+09 -8.63202514490E-02 +8.98997189387E-01 -6.34238629616E-05 +4.44553621781E-04 -1.49122365136E-04 +4.68197062898E-04 -2.77316096320E-01 +8.05279465638E-01
1.38500000000E+09 -7.53008990158E-02 +8.97239607599E-01 -4.49150813145E-05 +5.06900116992E-04 -8.90114412822E-05 +5.42082918499E-04 -2.63332441385E-01 +8.08223800923E-01
1.39000000000E+09 -6.28255193372E-02 +8.94709399298E-01 -1.62042937535E-05 +5.32264753932E-04 +4.71949169273E-05 +5.96168416147E-04 -2.48905051226E-01 +8.10895697341E-01
1.39500000000E+09 -4.81636388009E-02 +8.91632779447E-01 +7.14235100810E-05 +5.79548092793E-04 +1.01264351298E-04 +6.55293866316E-04 -2.33744945427E-01 +8.13082359393E-01
1.40000000000E+09 -3.04478195730E-02 +8.87579124060E-01 +6.71730044214E-05 +6.36476888490E-04 +9.83631150011E-05 +6.17665445311E-04 -2.17816712726E-01 +8.14838373758E-01
1.40500000000E+09 -1.07440523867E-02 +8.83169394706E-01 +2.20888057506E-04 +7.85885738762E-04 +2.62012822707E-04 +7.47503635607E-04 -2.00864133641E-01 +8.16249225157E-01
1.41000000000E+09 +1.11261613849E-02 +8.78215427451E-01 +3.11608339369E-04 +7.31342862215E-04 +3.46172297630E-04 +6.92771269579E-04 -1.82342365116E-01 +8.17239693876E-01
1.41500000000E+09 +3.37879817735E-02 +8.72773043382E-01 +4.80230813585E-04 +8.12312444109E-04 +4.82644841533E-04 +8.25721539551E-04 -1.62266851731E-01 +8.17617297679E-01
1.42000000000E+09 +5.67202780903E-02 +8.66608801238E-01 +6.08969926939E-04 +7.29625901480E-04 +6.48984694546E-04 +8.40776873246E-04 -1.40884768791E-01 +8.17216792154E-01
1.42500000000E+09 +7.82462132008E-02 +8.59428806002E-01 +7.10509859574E-04 +7.20144181652E-04 +7.70966132387E-04 +7.42854022297E-04 -1.18416543424E-01 +8.15813597360E-01
1.43000000000E+09 +9.89346773856E-02 +8.50905896684E-01 +8.21634452054E-04 +7.50739287782E-04 +9.56533559486E-04 +7.03324921804E-04 -9.49047843476E-02 +8.13539783376E-01
1.43500000000E+09 +1.18818902304E-01 +8.40496240826E-01 +1.09588503872E-03 +7.82604952871E-04 +1.16598667417E-03 +6.72945655988E-04 -6.97510692026E-02 +8.09601229628E-01
1.44000000000E+09 +1.39008361828E-01 +8.28493345543E-01 +1.53864273042E-03 +6.23892082848E-04 +1.53904965591E-03 +5.28741175085E-04 -4.27812743130E-02 +8.03979672292E-01
1.44500000000E+09 +1.61183737210E-01 +8.13556225368E-01 +1.71100735518E-03 +2.76874152352E-04 +1.75763954240E-03 +1.63410452184E-04 -1.31825921204E-02 +7.95915778152E-01
1.45000000000E+09 +1.85731998155E-01 +7.94886489655E-01 +1.66680958463E-03 -2.85013184797E-05 +1.69348966671E-03 -5.72149176759E-05 +1.81431750304E-02 +7.84638806241E-01
1.45500000000E+09 +2.12942665081E-01 +7.72536200234E-01 +1.80702182647E-03 -9.01674902401E-05 +1.83420516942E-03 -2.51626807824E-04 +5.13119591664E-02 +7.70701151980E-01
1.46000000000E+09 +2.43436192347E-01 +7.46050258197E-01 +2.11944744086E-03 -2.91000787973E-04 +2.04444342501E-03 -4.72824576396E-04 +8.59368828625E-02 +7.52510568150E-01
1.46500000000E+09 +2.75820556320E-01 +7.14854751080E-01 +2.49852834978E-03 -7.55903268635E-04 +2.32164124039E-03 -8.53445355465E-04 +1.22275284136E-01 +7.29870925330E-01
1.47000000000E+09 +3.08954919948E-01 +6.79064129095E-01 +2.65772962562E-03 -1.57349636498E-03 +2.41849223024E-03 -1.44012707256E-03 +1.59849400275E-01 +7.00098187467E-01
1.47500000000E+09 +3.41166187425E-01 +6.37910567352E-01 +2.50032344464E-03 -2.52722598667E-03 +2.47836203919E-03 -2.28268185903E-03 +1.98229126431E-01 +6.63325095799E-01
1.48000000000E+09 +3.70347938233E-01 +5.90606854731E-01 +1.86835220284E-03 -3.18238634430E-03 +1.95202615303E-03 -3.16070565633E-03 +2.36202180708E-01 +6.17845017102E-01
1.48500000000E+09 +3.94068743648E-01 +5.36301328609E-01 +1.31046485990E-03 -3.46259335108E-03 +1.28140171204E-03 -3.60489089417E-03 +2.72248076629E-01 +5.63231473961E-01
1.49000000000E+09 +4.11440001486E-01 +4.74686663221E-01 +8.63125076865E-04 -4.14280075836E-03 +6.80428739804E-04 -4.17586477411E-03 +3.03363298626E-01 +4.96894800540E-01
1.49500000000E+09 +4.20139360087E-01 +4.05019495234E-01 -1.35273936017E-04 -4.94469626513E-03 -3.26826796651E-04 -4.69408219143E-03 +3.23608646254E-01 +4.20542995742E-01
1.50000000000E+09 +4.19864022907E-01 +3.26305784573E-01 -1.64095871945E-03 -5.05049156348E-03 -1.54490996651E-03 -4.78069554706E-03 +3.32643394344E-01 +3.35691345293E-01
1.50500000000E+09 +4.05856199856E-01 +2.37537354315E-01 -2.72898506967E-03 -4.97117530769E-03 -2.51236636835E-03 -4.83398902589E-03 +3.24651953248E-01 +2.41921733443E-01
1.51000000000E+09 +3.74487137416E-01 +1.43884654005E-01 -4.60678068043E-03 -4.38283939813E-03 -4.31986976342E-03 -4.51106920371E-03 +2.95839003486E-01 +1.44196328785E-01
1.51500000000E+09 +3.23436065794E-01 +5.01307407771E-02 -5.89169313951E-03 -3.58104210882E-03 -5.87027955928E-03 -3.77437228346E-03 +2.44181903162E-01 +5.13800336294E-02
1.52000000000E+09 +2.51653644536E-01 -3.38875206622E-02 -7.88766678601E-03 -1.49732932442E-03 -7.96105764680E-03 -1.58847686919E-03 +1.73394006908E-01 -3.11750277867E-02
1.52500000000E+09 +1.63126503690E-01 -1.01996329891E-01 -7.64921491618E-03 +1.99387006101E-03 -7.69183378765E-03 +1.99125124177E-03 +8.35649445462E-02 -9.56580800994E-02
1.53000000000E+09 +6.16911109262E-02 -1.48709843110E-01 -5.68298107749E-03 +3.63476934721E-03 -5.73556205860E-03 +3.70132262664E-03 -1.59998362782E-02 -1.37256764295E-01
1.53500000000E+09 -4.72995895154E-02 -1.71191642679E-01 -4.59144495446E-03 +4.72656485016E-03 -4.59851080090E-03 +4.72390565202E-03 -1.19169239110E-01 -1.55022655960E-01
1.54000000000E+09 -1.58965830578E-01 -1.66135600084E-01 -2.78990135605E-03 +5.17784293446E-03 -2.81596806769E-03 +5.07422404313E-03 -2.18041333061E-01 -1.51832357156E-01
1.54500000000E+09 -2.63721867100E-01 -1.38574106895E-01 -1.78345643837E-03 +5.52716578570E-03 -1.89360391386E-03 +5.42249300023E-03 -3.06663166979E-01 -1.31027992429E-01
1.55000000000E+09 -3.58108320435E-01 -9.10789012729E-02 -1.25272959826E-04 +5.83412303573E-03 -3.41616191385E-04 +5.84524356042E-03 -3.83604968099E-01 -9.90057797184E-02
1.55500000000E+09 -4.35219881709E-01 -3.29751293917E-02 +1.73825908168E-03 +5.11604254927E-03 +1.52842903443E-03 +5.30443209719E-03 -4.48102244567E-01 -5.75064586918E-02
1.56000000000E+09 -4.97977144483E-01 +2.78677459222E-02 +2.66617144644E-03 +3.61514158092E-03 +2.64751893873E-03 +3.87920414068E-03 -4.99829466066E-01 -1.10574213571E-02
1.56500000000E+09 -5.47676085235E-01 +8.92892059350E-02 +2.79637247025E-03 +2.51769232738E-03 +2.93886593876E-03 +2.69128053802E-03 -5.40321355096E-01 +3.76797821246E-02
1.57000000000E+09 -5.84387000794E-01 +1.48807715658E-01 +2.78387644127E-03 +1.67413385472E-03 +2.96212558766E-03 +1.76627000860E-03 -5.70926310369E-01 +8.53700318626E-02
