# Hz S RI R 50
! CMT, C1220, 16058040, 17.2.0/1
! Date: 14/08/2018 12:41:27
! Data: Format (Calibration Info)
! Freq                      S11: Re/Im (F2)                       S21: Re/Im (F2)                       S12: Re/Im (F2)                       S22: Re/Im (F2)            
1.00000000000E+09 -6.47889543651E-01 +7.13722802899E-01 -9.36602264173E-06 -1.28369706563E-05 +4.81538730829E-05 -1.02423728351E-05 -6.70769933781E-01 +5.41315397541E-01
1.00500000000E+09 -6.41012636184E-01 +7.18578902586E-01 +8.20969407782E-06 -3.47409827350E-05 -3.44785222963E-05 -1.76106945338E-05 -6.67505524806E-01 +5.44961893147E-01
1.01000000000E+09 -6.34967436074E-01 +7.23115957171E-01 -1.38199053068E-05 +4.42708498603E-06 -3.71290146480E-05 +2.99983961455E-07 -6.64578100031E-01 +5.48186381162E-01
1.01500000000E+09 -6.30317847790E-01 +7.27109135807E-01 -2.69950005172E-05 -3.45004527016E-05 -9.05583983662E-06 +2.89533167460E-05 -6.61950807015E-01 +5.51316406728E-01
1.02000000000E+09 -6.26879690084E-01 +7.30470274825E-01 -2.44654362509E-06 -1.53134777054E-05 -5.01203529161E-06 +5.89585446417E-05 -6.59302050896E-01 +5.54461067500E-01
1.02500000000E+09 -6.24329904000E-01 +7.33411821017E-01 -2.86517979891E-05 -1.07824272811E-05 -2.00409632062E-06 -3.16270493120E-06 -6.56993351686E-01 +5.57609550396E-01
1.03000000000E+09 -6.22260182545E-01 +7.36027982231E-01 +2.64470835696E-05 +3.09324354384E-05 -1.90044685108E-05 -1.86210436461E-05 -6.54378869044E-01 +5.61010054480E-01
1.03500000000E+09 -6.19621472720E-01 +7.38699545364E-01 -8.78245505697E-05 +1.44691657075E-06 -3.67205865076E-05 +1.86180344089E-05 -6.51258483873E-01 +5.64706108504E-01
1.04000000000E+09 -6.15866371080E-01 +7.41520609591E-01 -6.97219408347E-05 -4.83120730253E-06 -7.38186283251E-06 +3.47469626641E-05 -6.48145734268E-01 +5.68052309393E-01
1.04500000000E+09 -6.10914228003E-01 +7.44799782370E-01 +1.04430688298E-05 +4.03743464185E-05 +2.55571668220E-05 +8.52135142363E-06 -6.45457705005E-01 +5.71431626658E-01
1.05000000000E+09 -6.04644810720E-01 +7.48864289794E-01 -2.82904559414E-05 +8.02963063932E-05 +9.84864287255E-06 +5.96204504820E-05 -6.42704876492E-01 +5.74730586037E-01
1.05500000000E+09 -5.97046253445E-01 +7.53111226743E-01 +1.69873390916E-05 +4.24514426087E-05 +1.34327420887E-06 +6.86671340814E-05 -6.40091606579E-01 +5.78007759565E-01
1.06000000000E+09 -5.88851028399E-01 +7.57833611089E-01 +4.82764879096E-05 +4.86744280567E-05 +1.47840929587E-05 +7.39453262203E-05 -6.37363608211E-01 +5.81565135944E-01
1.06500000000E+09 -5.81078988031E-01 +7.62609687715E-01 +5.10918290710E-06 -6.93964356457E-06 +9.54430256241E-06 -1.61738617273E-05 -6.34301064656E-01 +5.85108415736E-01
1.07000000000E+09 -5.74044793031E-01 +7.66851995900E-01 +8.08336465239E-05 -1.17439640845E-05 +2.08803720278E-05 +3.47875406371E-05 -6.30867704484E-01 +5.88568492162E-01
1.07500000000E+09 -5.68239873016E-01 +7.70677687452E-01 +2.60690072269E-05 -4.24229902209E-05 +4.32729254206E-05 -2.14665674667E-05 -6.27176206978E-01 +5.92080414607E-01
1.08000000000E+09 -5.63915428629E-01 +7.74043804451E-01 +3.01888334938E-05 -2.12451940615E-05 +3.17380570551E-06 -5.95215572904E-05 -6.24058516476E-01 +5.95679170755E-01
1.08500000000E+09 -5.60642162339E-01 +7.76862780876E-01 +1.08605117334E-05 -3.13840236626E-05 -3.58284952258E-05 +3.57089029222E-05 -6.20944987336E-01 +5.98987349690E-01
1.09000000000E+09 -5.57891680481E-01 +7.78931937702E-01 +3.07431118983E-05 -3.24846508440E-05 +4.09188597873E-05 +2.98801673560E-05 -6.17763374436E-01 +6.02628730285E-01
1.09500000000E+09 -5.55729521291E-01 +7.81067455517E-01 +1.62443273097E-05 +2.40198782290E-05 +1.49855705887E-05 +1.49153118991E-05 -6.14794338893E-01 +6.06229531131E-01
1.10000000000E+09 -5.52223050584E-01 +7.83210405307E-01 +2.04536571212E-05 -8.00021827434E-06 -2.75846797138E-05 +4.63192484597E-05 -6.11595034953E-01 +6.09692624304E-01
1.10500000000E+09 -5.48125719116E-01 +7.85956488551E-01 +1.70332027508E-05 +5.69476911820E-06 +1.22701222218E-06 -6.95173064844E-05 -6.08073549284E-01 +6.13219007500E-01
1.11000000000E+09 -5.42637800841E-01 +7.89224069768E-01 +4.69553634981E-05 +1.98626145779E-06 +3.13930145768E-05 +3.78454754604E-05 -6.04729759215E-01 +6.16325124568E-01
1.11500000000E+09 -5.35900777775E-01 +7.93078862109E-01 +3.11510536046E-05 +2.72483020687E-05 +3.82403643870E-05 -1.20930150846E-05 -6.01254401837E-01 +6.19574621225E-01
1.12000000000E+09 -5.28689040897E-01 +7.97007829877E-01 +4.40437473932E-05 +1.58721208758E-05 +3.49081257799E-05 +5.41355371240E-05 -5.98119553914E-01 +6.22974065460E-01
1.12500000000E+09 -5.21249931968E-01 +8.00905124462E-01 +1.56830960655E-05 +6.62010890620E-05 +8.48296947526E-06 +2.04369985452E-05 -5.94587997041E-01 +6.26870128808E-01
1.13000000000E+09 -5.14204701851E-01 +8.04436981725E-01 +5.48582414814E-05 +6.80515341892E-06 +1.62209510612E-05 -2.55272959738E-06 -5.91022340109E-01 +6.30532572919E-01
1.13500000000E+09 -5.08000307511E-01 +8.07238918257E-01 +2.45006497348E-05 +1.89398306598E-05 +6.00384157728E-05 +1.74391623460E-05 -5.87075335960E-01 +6.34254363239E-01
1.14000000000E+09 -5.02556947832E-01 +8.09688163087E-01 +2.15016252168E-05 +3.26103249034E-05 +6.31064298356E-05 +2.97841819139E-05 -5.83065775314E-01 +6.37548023198E-01
1.14500000000E+09 -4.98106520892E-01 +8.11314840339E-01 +7.29592376925E-05 +9.65431671053E-07 +8.66701541126E-05 +1.06272043401E-05 -5.79060549683E-01 +6.41157002348E-01
1.15000000000E+09 -4.94228452770E-01 +8.12817173245E-01 +4.75330756873E-05 +3.74883222860E-06 +4.64440766175E-05 +1.37864912287E-05 -5.75086734027E-01 +6.44780024415E-01
1.15500000000E+09 -4.90146591304E-01 +8.14573645122E-01 +6.16471504484E-05 -1.13521938880E-05 +3.55056514323E-05 +2.87480544703E-05 -5.71043257422E-01 +6.48382252951E-01
1.16000000000E+09 -4.85505568561E-01 +8.16442832057E-01 +4.38639390931E-05 -5.42784178032E-06 +6.00585181484E-05 -3.34355927451E-05 -5.67008967034E-01 +6.51965040532E-01
1.16500000000E+09 -4.80018939736E-01 +8.19288867058E-01 +6.15172606697E-05 +1.39521228841E-05 +8.02615973821E-05 -7.73398662771E-06 -5.62888117872E-01 +6.55480120536E-01
1.17000000000E+09 -4.73562484675E-01 +8.22374239798E-01 -1.35624213747E-05 -4.67703556661E-05 +3.79126156031E-05 -4.00069923945E-05 -5.58333916647E-01 +6.58576966820E-01
1.17500000000E+09 -4.66321261964E-01 +8.25589999813E-01 +4.82951271434E-05 -2.90536017340E-05 +8.72635057898E-05 -4.63712867209E-05 -5.53572685792E-01 +6.61900431953E-01
1.18000000000E+09 -4.58794388273E-01 +8.29324628055E-01 +8.15219849661E-05 -4.75739651561E-05 +1.00516078814E-04 -7.34639679692E-05 -5.48937687817E-01 +6.64968476360E-01
1.18500000000E+09 -4.51245409042E-01 +8.32654083134E-01 +5.98609832674E-05 -4.20373373644E-05 +8.98607255945E-05 -3.06406268286E-05 -5.43935466145E-01 +6.67892195118E-01
1.19000000000E+09 -4.44258760120E-01 +8.35386721324E-01 +6.44958880065E-05 -1.15170885912E-04 +5.77421314155E-05 -1.23643475529E-04 -5.38687360439E-01 +6.70701750288E-01
1.19500000000E+09 -4.37943060402E-01 +8.37650399085E-01 +8.04785601250E-05 -1.70393529617E-04 +1.20070421744E-04 -1.21647965386E-04 -5.33543237573E-01 +6.72185500731E-01
1.20000000000E+09 -4.32359540856E-01 +8.38560949889E-01 +4.80772212804E-05 -2.13228902193E-04 +3.23051425147E-06 -1.55777720625E-04 -5.29447148496E-01 +6.72669816446E-01
1.20500000000E+09 -4.27315845084E-01 +8.39633686826E-01 -6.42776439955E-05 -1.68420472226E-04 -5.12529133190E-05 -1.53863026478E-04 -5.27377478613E-01 +6.73495163827E-01
1.21000000000E+09 -4.22099599302E-01 +8.40766549897E-01 -1.07780598461E-04 -1.10127243991E-04 -9.91403962236E-05 -8.79639575228E-05 -5.25926452239E-01 +6.76227171191E-01
1.21500000000E+09 -4.15969534638E-01 +8.42378245028E-01 -5.95135943423E-05 -1.26738039715E-05 -7.00576608466E-05 -5.86373838346E-05 -5.23696515629E-01 +6.80592279863E-01
1.22000000000E+09 -4.08614927952E-01 +8.44457580549E-01 -7.13489044068E-06 -2.21615803987E-05 -9.66117258477E-06 -7.38567650256E-05 -5.20237356575E-01 +6.85649504448E-01
1.22500000000E+09 -4.00067159677E-01 +8.47317099500E-01 -2.87110934632E-05 -8.55032647521E-05 +1.11939547554E-05 -5.05993186503E-05 -5.16016023751E-01 +6.90348482058E-01
1.23000000000E+09 -3.90796161951E-01 +8.50372759281E-01 +8.83609642169E-06 -7.05786272463E-05 -4.82445127843E-05 -8.76621108642E-05 -5.11383431738E-01 +6.94916786322E-01
1.23500000000E+09 -3.81353163353E-01 +8.53943487796E-01 -3.88020709340E-05 -7.65134528240E-05 -4.23102507801E-05 -8.83328458149E-05 -5.06491007925E-01 +6.98952137684E-01
1.24000000000E+09 -3.72108401031E-01 +8.57893726956E-01 -5.45710311107E-05 -1.11020898335E-04 -3.94275941437E-05 -4.82081921859E-05 -5.01411083110E-01 +7.02887651396E-01
1.24500000000E+09 -3.63608997519E-01 +8.62117629304E-01 -5.18410720848E-05 -3.22676560122E-05 -3.22334540033E-05 -8.95048087527E-05 -4.96249512485E-01 +7.06492148840E-01
1.25000000000E+09 -3.55814632744E-01 +8.65532496011E-01 -9.77417290046E-05 -6.13160314078E-05 -5.38840451150E-05 -7.37694073693E-05 -4.90861890388E-01 +7.10678275338E-01
1.25500000000E+09 -3.48757931300E-01 +8.68092589868E-01 -7.83065271842E-05 -6.81508686109E-05 -6.23438013189E-05 -4.33188971671E-05 -4.85211981548E-01 +7.14671775250E-01
1.26000000000E+09 -3.42420341426E-01 +8.69826337323E-01 -7.67269920977E-05 -8.01098774587E-05 -6.83717236808E-05 -8.67304468911E-05 -4.79792601755E-01 +7.18992440476E-01
1.26500000000E+09 -3.36218939613E-01 +8.70870729463E-01 -6.60585917613E-05 -1.03952798442E-04 -8.07617690008E-05 -7.85985980979E-05 -4.73844344417E-01 +7.23077040984E-01
1.27000000000E+09 -3.29558574990E-01 +8.71777715659E-01 -1.07772442991E-04 -1.09332470310E-04 -8.19066219887E-05 -1.15317513772E-04 -4.68085319899E-01 +7.27081654891E-01
1.27500000000E+09 -3.21640131894E-01 +8.72714548971E-01 -1.21831693354E-04 -8.12861877154E-05 -1.77567847509E-04 -1.59892762669E-04 -4.61956555606E-01 +7.30798937165E-01
1.28000000000E+09 -3.12543705224E-01 +8.74174858272E-01 -1.78492691264E-04 -6.57345444481E-05 -1.57936242575E-04 -7.98808134715E-05 -4.55894442477E-01 +7.34745224160E-01
1.28500000000E+09 -3.01645027524E-01 +8.76103769317E-01 -1.65194671565E-04 -1.29332052619E-05 -1.76245156917E-04 -1.06884485212E-04 -4.49310402017E-01 +7.38643008721E-01
1.29000000000E+09 -2.90255338388E-01 +8.78591050681E-01 -1.38163171747E-04 -2.24386422886E-05 -1.51678995271E-04 +3.22242560404E-06 -4.42765961753E-01 +7.42597106133E-01
1.29500000000E+09 -2.78582910329E-01 +8.81771259538E-01 -1.58771775582E-04 -6.54994352130E-06 -2.00339802758E-04 -2.51327363695E-05 -4.35945533957E-01 +7.46410900349E-01
1.30000000000E+09 -2.67589837665E-01 +8.85239461173E-01 -2.05135870118E-04 +8.30079330716E-06 -1.59766679009E-04 +2.71186951516E-06 -4.29052263993E-01 +7.50248486056E-01
1.30500000000E+09 -2.57406133785E-01 +8.88548516280E-01 -1.97536775908E-04 -1.68361955799E-05 -1.50776767191E-04 +1.86519986695E-05 -4.22046547120E-01 +7.53892369787E-01
1.31000000000E+09 -2.48347691259E-01 +8.91146261194E-01 -2.36365944544E-04 -2.24964631620E-05 -2.33978848613E-04 -2.01968540983E-05 -4.14719996009E-01 +7.57659583979E-01
1.31500000000E+09 -2.40943859744E-01 +8.92919558335E-01 -2.19689113283E-04 +4.61648614213E-05 -2.21007671891E-04 +1.81972316800E-05 -4.06983705800E-01 +7.61412564258E-01
1.32000000000E+09 -2.34442117788E-01 +8.93689131446E-01 -2.43319797374E-04 +1.06120539620E-04 -2.77271268809E-04 +1.07850717623E-04 -3.99072828640E-01 +7.64951554320E-01
1.32500000000E+09 -2.28153478272E-01 +8.93802088136E-01 -2.66551594331E-04 +1.28707042741E-04 -2.51548087002E-04 +1.32549838710E-04 -3.90728086584E-01 +7.68636401191E-01
1.33000000000E+09 -2.20814868371E-01 +8.93561926298E-01 -2.23709593698E-04 +1.31941960370E-04 -1.66011528546E-04 +1.57192919864E-04 -3.82408029767E-01 +7.72294163910E-01
1.33500000000E+09 -2.11668842786E-01 +8.93087121039E-01 -1.99797492233E-04 +1.44412032147E-04 -2.53796318764E-04 +1.08841696368E-04 -3.73773542176E-01 +7.75886848351E-01
1.34000000000E+09 -2.00286712817E-01 +8.92971700902E-01 -2.33029555740E-04 +1.58431375808E-04 -2.28517262479E-04 +1.78638182495E-04 -3.64806320391E-01 +7.79623326869E-01
1.34500000000E+09 -1.86698049426E-01 +8.93009868926E-01 -2.72180290133E-04 +2.07371684506E-04 -2.33186582719E-04 +2.13965030299E-04 -3.55268601923E-01 +7.83414363861E-01
1.35000000000E+09 -1.71327270586E-01 +8.93427105666E-01 -1.97590123782E-04 +2.58113235428E-04 -1.86624886936E-04 +2.58249100411E-04 -3.45339874514E-01 +7.87050026061E-01
1.35500000000E+09 -1.55158183337E-01 +8.94333070017E-01 -1.85946679368E-04 +2.68132124163E-04 -1.83425308636E-04 +2.90011432722E-04 -3.34918383869E-01 +7.90598359367E-01
1.36000000000E+09 -1.38954962263E-01 +8.95306457474E-01 -2.01507186295E-04 +2.94376445599E-04 -1.75481890543E-04 +3.03678591075E-04 -3.24223156897E-01 +7.94000055393E-01
1.36500000000E+09 -1.23333014528E-01 +8.96063387978E-01 -1.30745000921E-04 +3.80464695859E-04 -1.27435089841E-04 +3.48678745631E-04 -3.13272924340E-01 +7.97261894371E-01
1.37000000000E+09 -1.09199479673E-01 +8.96029246863E-01 -1.25643485860E-04 +4.84767066734E-04 -1.50568718433E-04 +3.98012147262E-04 -3.01878783368E-01 +8.00542648383E-01
1.37500000000E+09 -9.68136931276E-02 +8.95566636318E-01 -5.62379949974E-05 +4.57678084982E-04 -5.42468151941E-05 +4.15637184468E-04 -2.89475585333E-01 +8.03608591580E-01
1.38000000000E+09 -8.56016426707E-02 +8.94473962171E-01 +1.85733673106E-05 +4.87727673752E-04 -7.60195021653E-05 +4.95056816466E-04 -2.76185618645E-01 +8.06600529243E-01
1.38500000000E+09 -7.39669820963E-02 +8.92722263941E-01 +5.19695805043E-05 +4.96113963045E-04 -4.76280603223E-05 +5.50300452756E-04 -2.62237902148E-01 +8.09414170928E-01
1.39000000000E+09 -6.15777318671E-02 +8.90260302430E-01 +2.73750533710E-05 +5.38312180272E-04 +2.43439863546E-05 +5.65750564185E-04 -2.47719450199E-01 +8.12157774661E-01
1.39500000000E+09 -4.70104474532E-02 +8.87262774012E-01 +8.57172326830E-05 +5.52054628782E-04 +1.32077759172E-04 +5.54422410675E-04 -2.32611269222E-01 +8.14183067397E-01
1.40000000000E+09 -2.99666729769E-02 +8.83233248628E-01 +1.08037713358E-04 +5.75276960445E-04 +1.53019097852E-04 +5.65822267714E-04 -2.16708826283E-01 +8.16095124898E-01
1.40500000000E+09 -1.09661199291E-02 +8.78989825004E-01 +2.70583490474E-04 +7.26931518052E-04 +2.74829395587E-04 +6.87895803037E-04 -1.99694515150E-01 +8.17286213807E-01
1.41000000000E+09 +9.83144733980E-03 +8.74164626956E-01 +3.66739454982E-04 +7.16772892202E-04 +3.86086113359E-04 +6.93617502856E-04 -1.81061193612E-01 +8.18246555102E-01
1.41500000000E+09 +3.17473884152E-02 +8.68819933505E-01 +4.74387578515E-04 +6.99630286997E-04 +4.63091836420E-04 +7.49530917881E-04 -1.61005340210E-01 +8.18567893891E-01
1.42000000000E+09 +5.41513904211E-02 +8.62796576692E-01 +6.51568357025E-04 +6.86636418375E-04 +7.01848123227E-04 +7.86079597795E-04 -1.39645373228E-01 +8.18032066207E-01
1.42500000000E+09 +7.58419798242E-02 +8.55268473862E-01 +7.59954444861E-04 +6.77248609062E-04 +8.98359722550E-04 +6.94433373427E-04 -1.17054988491E-01 +8.16494581192E-01
1.43000000000E+09 +9.66740119023E-02 +8.46626801779E-01 +8.71501510419E-04 +6.59246478086E-04 +9.90086811537E-04 +6.69410170044E-04 -9.36131923122E-02 +8.13987528799E-01
1.43500000000E+09 +1.17066268865E-01 +8.36076388491E-01 +1.11322183937E-03 +6.78146066770E-04 +1.18000818198E-03 +6.32351845819E-04 -6.85122801220E-02 +8.10095599698E-01
1.44000000000E+09 +1.37972185206E-01 +8.24097867436E-01 +1.46735203783E-03 +5.17425567657E-04 +1.53630190289E-03 +4.45801585585E-04 -4.15071045407E-02 +8.04210959711E-01
1.44500000000E+09 +1.60501008366E-01 +8.09071466630E-01 +1.63490959842E-03 +1.62347267324E-04 +1.71856886345E-03 +3.20551929492E-05 -1.21437295141E-02 +7.95980101257E-01
1.45000000000E+09 +1.85153281867E-01 +7.90761548167E-01 +1.65467866343E-03 -4.78370194577E-05 +1.64702660447E-03 -1.63315155092E-04 +1.92734408446E-02 +7.84579954513E-01
1.45500000000E+09 +2.11890697286E-01 +7.69015965334E-01 +1.75171279617E-03 -1.19119546002E-04 +1.78270411728E-03 -2.48498967260E-04 +5.22683847308E-02 +7.70463293463E-01
1.46000000000E+09 +2.41719622306E-01 +7.43455583839E-01 +2.10316945274E-03 -3.25015891218E-04 +1.95926917320E-03 -5.33050046643E-04 +8.68630317507E-02 +7.52160217915E-01
1.46500000000E+09 +2.72981599896E-01 +7.13337150958E-01 +2.44609840377E-03 -7.81921291416E-04 +2.19245143230E-03 -8.34962097609E-04 +1.23017224578E-01 +7.29293361878E-01
1.47000000000E+09 +3.05365604163E-01 +6.78913058080E-01 +2.63026489075E-03 -1.62674308240E-03 +2.41700033973E-03 -1.48681679947E-03 +1.60351291392E-01 +6.99118321341E-01
1.47500000000E+09 +3.37409318269E-01 +6.38730634498E-01 +2.44559944338E-03 -2.60283403559E-03 +2.40322329393E-03 -2.40958843838E-03 +1.98053118660E-01 +6.62063511954E-01
1.48000000000E+09 +3.66958573875E-01 +5.92010293854E-01 +1.72205525508E-03 -3.27849828545E-03 +1.79900906654E-03 -3.25583996704E-03 +2.35496479189E-01 +6.16511386506E-01
1.48500000000E+09 +3.91329382023E-01 +5.37898777575E-01 +1.13633663420E-03 -3.57009466756E-03 +1.09837257250E-03 -3.69356053738E-03 +2.70841692965E-01 +5.62055556649E-01
1.49000000000E+09 +4.09706805788E-01 +4.76282057365E-01 +6.05393473049E-04 -4.23702902039E-03 +3.87339062723E-04 -4.22817994709E-03 +3.01350621553E-01 +4.96038864827E-01
1.49500000000E+09 +4.19717503037E-01 +4.06550867752E-01 -4.82027785850E-04 -4.79733545730E-03 -6.11969505478E-04 -4.64409236000E-03 +3.20872461250E-01 +4.20284457946E-01
1.50000000000E+09 +4.21022340311E-01 +3.27910265570E-01 -1.86286330052E-03 -5.07191043874E-03 -1.78447796254E-03 -4.71648939870E-03 +3.29302616715E-01 +3.36061922604E-01
1.50500000000E+09 +4.08931101155E-01 +2.39283131603E-01 -3.11068699868E-03 -4.77703117364E-03 -2.80220657842E-03 -4.68242103129E-03 +3.20762448219E-01 +2.43407099961E-01
1.51000000000E+09 +3.79312815082E-01 +1.45324927330E-01 -4.90832870980E-03 -4.22048294845E-03 -4.72443106748E-03 -4.36202571744E-03 +2.91758040397E-01 +1.47059871722E-01
1.51500000000E+09 +3.29628946923E-01 +5.13024997961E-02 -6.24447572662E-03 -2.85570877621E-03 -6.32196865330E-03 -3.07974149835E-03 +2.40846928472E-01 +5.62465227513E-02
1.52000000000E+09 +2.58953796524E-01 -3.36067786530E-02 -7.77036194306E-03 -7.79864877683E-04 -7.87881353428E-03 -8.35009670893E-04 +1.71618341143E-01 -2.53978681303E-02
1.52500000000E+09 +1.70428718786E-01 -1.03413356750E-01 -7.23597315476E-03 +2.56636793638E-03 -7.35654393028E-03 +2.57035352692E-03 +8.35119166903E-02 -8.94653699945E-02
1.53000000000E+09 +6.78131421195E-02 -1.51447202532E-01 -5.19481617862E-03 +4.04026266330E-03 -5.23801632444E-03 +4.06423070252E-03 -1.43686679968E-02 -1.31461322918E-01
1.53500000000E+09 -4.19215171787E-02 -1.75041803366E-01 -4.07817203069E-03 +4.88921035772E-03 -4.04685154649E-03 +4.92008512026E-03 -1.16660112198E-01 -1.50357510462E-01
1.54000000000E+09 -1.55036210293E-01 -1.71868188946E-01 -2.18052604407E-03 +5.14673590854E-03 -2.18106409372E-03 +5.06968481828E-03 -2.14959154669E-01 -1.47797065183E-01
1.54500000000E+09 -2.61387705941E-01 -1.45392815712E-01 -1.41443148186E-03 +5.23742577734E-03 -1.54136648040E-03 +5.15204662481E-03 -3.03182711336E-01 -1.27978892832E-01
1.55000000000E+09 -3.56709643128E-01 -9.84802985426E-02 +5.29085106249E-05 +5.67191334538E-03 -1.40443441424E-04 +5.64928560919E-03 -3.80148406058E-01 -9.68753258513E-02
1.55500000000E+09 -4.34426114864E-01 -4.04952241824E-02 +1.87299758153E-03 +4.91036964219E-03 +1.67728488517E-03 +5.10105798709E-03 -4.44834008681E-01 -5.60946233231E-02
1.56000000000E+09 -4.97176198051E-01 +2.03633598030E-02 +2.83919956926E-03 +3.53559360841E-03 +2.81191683077E-03 +3.77767841676E-03 -4.96675005312E-01 -9.95682126584E-03
1.56500000000E+09 -5.47054942536E-01 +8.19917165067E-02 +2.92375974900E-03 +2.24776732272E-03 +3.08714101933E-03 +2.49798996425E-03 -5.37205490291E-01 +3.81783358804E-02
1.57000000000E+09 -5.83711261889E-01 +1.42483566701E-01 +2.83347479258E-03 +1.50871644726E-03 +3.00114890628E-03 +1.56252766659E-03 -5.68345626316E-01 +8.54570973221E-02
