# Hz S RI R 50
! CMT, C1220, 16058040, 17.2.0/1
! Date: 14/08/2018 12:36:11
! Data: Format (Calibration Info)
! Freq                      S11: Re/Im (F2)                       S21: Re/Im (F2)                       S12: Re/Im (F2)                       S22: Re/Im (F2)            
1.00000000000E+09 -6.45292060371E-01 +7.14794026887E-01 -1.19966377625E-05 -2.76572999630E-05 +3.78396182120E-05 -1.76104843517E-05 -6.70534009121E-01 +5.31816084476E-01
1.00500000000E+09 -6.38356941341E-01 +7.19889695984E-01 +1.78873060553E-05 -1.66135266189E-05 -1.13135684693E-05 +3.05843198917E-05 -6.67481454903E-01 +5.35499934100E-01
1.01000000000E+09 -6.32377335178E-01 +7.24778208819E-01 -1.37516749566E-05 +5.07057641406E-06 -3.88645413288E-05 +1.55943777643E-05 -6.64596995868E-01 +5.38550830544E-01
1.01500000000E+09 -6.27880777540E-01 +7.28642132974E-01 -9.83485396672E-06 -4.60344476502E-07 +4.45401997334E-06 +4.34985280818E-06 -6.62042953045E-01 +5.41751583862E-01
1.02000000000E+09 -6.24950284623E-01 +7.32061006495E-01 -1.01452646131E-05 -2.90987744880E-05 +2.57190729297E-05 -9.77480090605E-06 -6.59522304976E-01 +5.44798431026E-01
1.02500000000E+09 -6.23019109864E-01 +7.34730766106E-01 +6.67033365871E-05 -2.12369639855E-05 -7.08152124191E-05 +3.47591115252E-05 -6.57411189997E-01 +5.48135880540E-01
1.03000000000E+09 -6.21409964022E-01 +7.37082611705E-01 -1.19658828336E-05 +3.66463773430E-05 -2.73575649817E-05 +2.84875184663E-05 -6.54881038828E-01 +5.51667038811E-01
1.03500000000E+09 -6.19197094877E-01 +7.39372201609E-01 -2.08856198796E-05 +7.28032826790E-05 -2.60469013470E-05 -8.26577603092E-06 -6.51954112733E-01 +5.55293778901E-01
1.04000000000E+09 -6.15881764658E-01 +7.42177188095E-01 +1.10407854859E-05 +7.96595843069E-06 +1.67290796037E-06 +1.71620451650E-05 -6.48997542078E-01 +5.58684789076E-01
1.04500000000E+09 -6.10589971925E-01 +7.45442170994E-01 -7.20899092604E-06 +4.10166059798E-05 +6.78947258884E-06 +5.17764903935E-05 -6.46237687972E-01 +5.62008857260E-01
1.05000000000E+09 -6.03822614437E-01 +7.49547931075E-01 +3.94476535290E-05 +2.96476371300E-05 +1.91496829261E-05 +3.95699032481E-05 -6.43614858257E-01 +5.65180692891E-01
1.05500000000E+09 -5.95783397088E-01 +7.54172944398E-01 +1.58005981031E-05 +4.64738005964E-05 +7.62703705217E-06 +9.13284014603E-06 -6.41080554037E-01 +5.68728458103E-01
1.06000000000E+09 -5.87128966606E-01 +7.59139326082E-01 +2.14519910645E-05 +2.50231283348E-05 +8.54287461024E-06 +4.47703933442E-05 -6.38548859070E-01 +5.72187088600E-01
1.06500000000E+09 -5.78711961563E-01 +7.64117198968E-01 +2.03855676358E-05 +1.70687917841E-05 +7.48884535984E-05 -1.20196604805E-05 -6.35314761619E-01 +5.75893530445E-01
1.07000000000E+09 -5.71463166480E-01 +7.68607463867E-01 +5.25165761195E-06 +2.60203827746E-05 +2.80278088634E-05 +4.70794570390E-05 -6.32074019605E-01 +5.79342710036E-01
1.07500000000E+09 -5.65553426936E-01 +7.72460408475E-01 -1.42024041359E-06 +7.44899135619E-06 -2.33590473178E-05 +2.39093563896E-05 -6.28593921162E-01 +5.82861292552E-01
1.08000000000E+09 -5.61403226935E-01 +7.75678102453E-01 -8.60017837426E-06 +1.17091479299E-05 +4.63555689142E-05 +8.84304308550E-06 -6.25318673958E-01 +5.86441252134E-01
1.08500000000E+09 -5.58776041111E-01 +7.78000951972E-01 -1.22421462528E-05 +1.18923692709E-05 +7.73952157163E-07 +3.54798762158E-05 -6.22399598766E-01 +5.89955320002E-01
1.09000000000E+09 -5.56429076392E-01 +7.79854791947E-01 +1.46594825234E-06 +2.93827026431E-05 +3.31291325556E-05 +1.48492406126E-05 -6.19445418256E-01 +5.93412929874E-01
1.09500000000E+09 -5.54767212913E-01 +7.81494098554E-01 +4.61560429641E-05 +3.03743889305E-05 +3.35427220394E-05 +2.79555967451E-05 -6.16446394971E-01 +5.97104261354E-01
1.10000000000E+09 -5.51591758288E-01 +7.83587665517E-01 -8.47900499342E-07 +3.67089997655E-06 +1.93209896355E-05 -3.55038576705E-05 -6.13361735079E-01 +6.00749789900E-01
1.10500000000E+09 -5.47631724469E-01 +7.86231685043E-01 +2.86332455673E-05 +6.05087746642E-05 -1.16230256281E-05 -2.14341784322E-05 -6.09899094699E-01 +6.04022449753E-01
1.11000000000E+09 -5.42145126568E-01 +7.89739189212E-01 +2.26641257888E-05 +2.34907048633E-05 +5.52993381397E-05 -3.53411040645E-05 -6.06649055572E-01 +6.07274916547E-01
1.11500000000E+09 -5.35380713735E-01 +7.93806574547E-01 -6.22531394552E-07 -1.18484907283E-06 +2.34354439919E-05 +3.45218455231E-05 -6.03445166681E-01 +6.10638454360E-01
1.12000000000E+09 -5.27781765477E-01 +7.98036066538E-01 +2.90004818572E-05 +3.93238203969E-06 +3.94866944937E-05 -3.80268944873E-06 -6.00165876563E-01 +6.14222931933E-01
1.12500000000E+09 -5.19878836764E-01 +8.02321000575E-01 +1.91796079738E-05 +2.04651967367E-05 +3.25017276467E-05 +7.09885258873E-05 -5.96895945186E-01 +6.18252314593E-01
1.13000000000E+09 -5.12857769716E-01 +8.06128256158E-01 +1.00614906806E-05 +4.28345962178E-05 +5.38238081053E-05 -1.38232725566E-05 -5.93276235554E-01 +6.21845148972E-01
1.13500000000E+09 -5.06489367899E-01 +8.09008377329E-01 +1.98614173541E-05 -1.10984441753E-05 +5.85139867578E-05 +4.63251235523E-05 -5.89391721725E-01 +6.25692747038E-01
1.14000000000E+09 -5.01161168690E-01 +8.11340165839E-01 +1.82824885542E-05 +8.23721015517E-06 -8.14946875127E-06 +3.98583205622E-06 -5.85494514923E-01 +6.29247181045E-01
1.14500000000E+09 -4.97165770072E-01 +8.12836807187E-01 +5.61215226291E-05 +2.40487742522E-07 +2.27514333321E-06 +1.19236545838E-05 -5.81409641135E-01 +6.32666202280E-01
1.15000000000E+09 -4.93453736687E-01 +8.13909839833E-01 +8.24409321879E-05 -1.23176662715E-05 +8.66459639482E-05 +3.37231155160E-06 -5.77655922492E-01 +6.36328136304E-01
1.15500000000E+09 -4.89704705382E-01 +8.15518432659E-01 +8.04464740435E-05 +9.16600210777E-06 +9.50349322069E-05 +3.88455090521E-05 -5.73671227785E-01 +6.39969532715E-01
1.16000000000E+09 -4.85158896784E-01 +8.17128126180E-01 +4.87211730502E-05 -1.83940095834E-05 +2.81797638195E-05 +3.22011782467E-06 -5.69594179276E-01 +6.43688541133E-01
1.16500000000E+09 -4.79581695851E-01 +8.19829698107E-01 +4.83906500908E-05 -3.03632653963E-05 +7.09291154947E-05 -2.98401982854E-05 -5.65592231629E-01 +6.47148896394E-01
1.17000000000E+09 -4.72849055464E-01 +8.23248996384E-01 +7.15698742128E-05 -5.82384098459E-05 +5.63480074013E-05 -6.31858040344E-06 -5.61162670896E-01 +6.50440278713E-01
1.17500000000E+09 -4.65260423703E-01 +8.26888922385E-01 +7.63905204152E-05 -4.01271031943E-06 +7.09460493777E-05 -3.86129878881E-05 -5.56435067680E-01 +6.53705534269E-01
1.18000000000E+09 -4.57555905683E-01 +8.30832151943E-01 +8.64590679507E-05 -6.80888864453E-05 +5.90748872498E-05 +4.50876054537E-06 -5.51968113887E-01 +6.56744551994E-01
1.18500000000E+09 -4.49790588918E-01 +8.34543087043E-01 +9.85304185638E-05 -4.60635866206E-05 +5.02691599988E-06 -1.66325194990E-05 -5.46946919995E-01 +6.59971548896E-01
1.19000000000E+09 -4.42672000116E-01 +8.37462391562E-01 +1.08572413444E-04 -1.06641588591E-04 +7.81835538326E-05 -7.35744133642E-05 -5.41752643177E-01 +6.62570887509E-01
1.19500000000E+09 -4.36451103402E-01 +8.39568987733E-01 +1.11917503134E-04 -1.37906895261E-04 +9.04731607109E-05 -1.13143661839E-04 -5.36649715170E-01 +6.64199810781E-01
1.20000000000E+09 -4.31290511733E-01 +8.40492956871E-01 +6.72001292451E-05 -1.39044311889E-04 +2.46512844388E-05 -1.52698284660E-04 -5.32730171124E-01 +6.64673178072E-01
1.20500000000E+09 -4.26589291657E-01 +8.41378350289E-01 -6.04100820534E-05 -1.58912603619E-04 -5.98094248999E-05 -1.67535719155E-04 -5.30736686858E-01 +6.65515262610E-01
1.21000000000E+09 -4.21788087032E-01 +8.42351952383E-01 -7.97126409437E-05 -5.00537320665E-05 -5.47461028531E-05 -8.78048065310E-05 -5.29340021919E-01 +6.68480522719E-01
1.21500000000E+09 -4.15777277664E-01 +8.43634428028E-01 -5.15564286034E-05 -5.52698045934E-05 -7.39571894581E-05 -2.21685066327E-05 -5.27061450480E-01 +6.72842747562E-01
1.22000000000E+09 -4.08188619564E-01 +8.45639294458E-01 -3.36425463288E-06 -7.35554971349E-05 -1.82652537694E-05 -4.84571163448E-05 -5.23685114554E-01 +6.78054350898E-01
1.22500000000E+09 -3.99495466921E-01 +8.48140818593E-01 -5.88879958451E-06 -2.75362327347E-05 -2.72782403795E-05 -1.29576044631E-05 -5.19515356544E-01 +6.82745518655E-01
1.23000000000E+09 -3.89787446037E-01 +8.51428220426E-01 -2.73784626874E-05 -8.73708948718E-05 +3.45568551887E-05 -7.70807681740E-05 -5.14937984427E-01 +6.87322228881E-01
1.23500000000E+09 -3.79848788648E-01 +8.55333119744E-01 -6.77098397052E-06 -6.54041319295E-05 -1.92895948644E-05 -4.88345795304E-05 -5.10136063774E-01 +6.91599043524E-01
1.24000000000E+09 -3.70084684125E-01 +8.59581017561E-01 +3.16018512075E-06 -6.23193545054E-05 -4.74698279613E-05 -1.09452198690E-04 -5.05280090580E-01 +6.95387966879E-01
1.24500000000E+09 -3.61228490863E-01 +8.63910942057E-01 -3.55352157809E-05 -6.09792600023E-05 +1.02381677730E-05 -5.61682476293E-05 -5.00128738896E-01 +6.99219134292E-01
1.25000000000E+09 -3.53262157649E-01 +8.67496962146E-01 -3.44367650804E-05 -1.04556194024E-04 +9.19330075779E-06 -9.82183910185E-05 -4.94783071671E-01 +7.03400399099E-01
1.25500000000E+09 -3.46615678306E-01 +8.69990338325E-01 -2.61699685183E-06 -6.49215125571E-05 -4.90148692383E-05 -1.29291851948E-04 -4.89291758862E-01 +7.07549583984E-01
1.26000000000E+09 -3.40665566878E-01 +8.71578116044E-01 -5.85586570872E-05 -9.23581996664E-05 -5.54501960641E-05 -1.21247049283E-04 -4.83772446273E-01 +7.11929425206E-01
1.26500000000E+09 -3.35212494721E-01 +8.72549652792E-01 -5.42859025645E-05 -1.06418843868E-04 -5.03445556504E-05 -1.35857018003E-04 -4.78003853440E-01 +7.16174052437E-01
1.27000000000E+09 -3.29121870156E-01 +8.73369300494E-01 -9.43617315485E-05 -1.27492044381E-04 -6.65909049320E-05 -1.55500286550E-04 -4.72338375908E-01 +7.20237688843E-01
1.27500000000E+09 -3.21734725151E-01 +8.74240469065E-01 -1.50744704715E-04 -1.16711572849E-04 -1.48351871082E-04 -1.48228455702E-04 -4.66177325098E-01 +7.24115150466E-01
1.28000000000E+09 -3.12628923246E-01 +8.75643880713E-01 -1.42505072377E-04 -1.59951981858E-04 -2.15627723418E-04 -1.42637026948E-04 -4.60083817969E-01 +7.27847575228E-01
1.28500000000E+09 -3.01828734150E-01 +8.77751944651E-01 -1.56861230845E-04 -1.14466683198E-04 -2.37503594959E-04 -1.54255504856E-04 -4.53593101241E-01 +7.32077814253E-01
1.29000000000E+09 -2.90042702772E-01 +8.80568502930E-01 -1.59582379119E-04 -7.73535788096E-05 -1.61396077903E-04 -7.59237759601E-05 -4.47004897179E-01 +7.36048583211E-01
1.29500000000E+09 -2.77859263820E-01 +8.84141716251E-01 -1.89411264788E-04 -6.61463251368E-05 -1.92328773869E-04 -8.28235426235E-05 -4.40322624564E-01 +7.40005255559E-01
1.30000000000E+09 -2.65992061921E-01 +8.87892209744E-01 -1.52079676545E-04 -7.45664104399E-05 -2.12603994534E-04 -4.63347409796E-05 -4.33420193105E-01 +7.43969376033E-01
1.30500000000E+09 -2.55330696220E-01 +8.91546902677E-01 -1.77841449045E-04 -4.83432827343E-05 -1.80460383914E-04 -8.05090404889E-05 -4.26405581265E-01 +7.47787383505E-01
1.31000000000E+09 -2.46212434766E-01 +8.94061815131E-01 -2.22046078546E-04 -2.21472180272E-05 -2.48531809332E-04 +1.56042989441E-05 -4.19095171319E-01 +7.51475936294E-01
1.31500000000E+09 -2.38845771699E-01 +8.95592963729E-01 -2.43504079075E-04 +2.27764420153E-06 -2.48731421419E-04 -1.33886556151E-05 -4.11593648146E-01 +7.55469046259E-01
1.32000000000E+09 -2.32755811261E-01 +8.96190799654E-01 -2.63528067344E-04 +4.06061895917E-05 -2.32124444782E-04 +3.55197360727E-05 -4.03570902849E-01 +7.59095756228E-01
1.32500000000E+09 -2.26855745738E-01 +8.95845474874E-01 -2.54677449093E-04 +4.25164377547E-05 -2.48219222978E-04 +5.21896239860E-05 -3.95314651244E-01 +7.62884506301E-01
1.33000000000E+09 -2.19889333062E-01 +8.95467716070E-01 -2.61011305558E-04 +6.28312860698E-05 -2.58287788421E-04 +9.11673363756E-05 -3.86821639379E-01 +7.66468461715E-01
1.33500000000E+09 -2.10967923863E-01 +8.94750047065E-01 -2.84991457377E-04 +7.78790494977E-05 -2.66482546844E-04 +1.20777374586E-04 -3.78337193468E-01 +7.70157576747E-01
1.34000000000E+09 -1.99396954604E-01 +8.94487061385E-01 -3.33241570522E-04 +1.11431734965E-04 -2.72585067556E-04 +1.31728762266E-04 -3.69531542805E-01 +7.73903872759E-01
1.34500000000E+09 -1.85245621415E-01 +8.94504417572E-01 -3.31586717763E-04 +1.47864773597E-04 -3.03588246265E-04 +2.18911500768E-04 -3.59936749722E-01 +7.77848989717E-01
1.35000000000E+09 -1.69464066172E-01 +8.95273973468E-01 -2.79099121690E-04 +2.20935911111E-04 -2.57881525348E-04 +2.13018616753E-04 -3.50063138221E-01 +7.81629203679E-01
1.35500000000E+09 -1.52509705721E-01 +8.96314350550E-01 -3.17106108550E-04 +2.33978583146E-04 -3.13670121801E-04 +2.68898237658E-04 -3.39773805221E-01 +7.85312555400E-01
1.36000000000E+09 -1.35672091697E-01 +8.97387377878E-01 -2.71445515516E-04 +2.95510135873E-04 -2.99446908045E-04 +3.03966470873E-04 -3.28937381015E-01 +7.88810154840E-01
1.36500000000E+09 -1.20130228225E-01 +8.98057953381E-01 -2.74610808895E-04 +3.76758284905E-04 -2.60324187903E-04 +3.41979722603E-04 -3.18150954555E-01 +7.92118376702E-01
1.37000000000E+09 -1.06376322745E-01 +8.98148615140E-01 -2.56639692682E-04 +4.27355929835E-04 -2.08753633157E-04 +4.26763694608E-04 -3.06653297725E-01 +7.95359246456E-01
1.37500000000E+09 -9.45206063580E-02 +8.97647818882E-01 -2.31268325048E-04 +5.20830227730E-04 -2.20728459310E-04 +5.05069237479E-04 -2.94311554951E-01 +7.98488551370E-01
1.38000000000E+09 -8.38583568493E-02 +8.96465382767E-01 -1.55288088567E-04 +5.45172260990E-04 -2.36337935598E-04 +5.28287720187E-04 -2.81223655373E-01 +8.01638303178E-01
1.38500000000E+09 -7.28899033130E-02 +8.94643019616E-01 -8.15435948790E-05 +5.45098111148E-04 -1.42861814660E-04 +6.03469328560E-04 -2.67375590977E-01 +8.04780326518E-01
1.39000000000E+09 -6.07485903693E-02 +8.92044689584E-01 -3.89823330199E-05 +5.80939459564E-04 -8.64113949741E-05 +6.85874853634E-04 -2.53060566513E-01 +8.07541516485E-01
1.39500000000E+09 -4.60875368219E-02 +8.88971965093E-01 -1.99323296386E-05 +6.00042963461E-04 -3.78067220895E-05 +7.00622764703E-04 -2.37837596843E-01 +8.09836051742E-01
1.40000000000E+09 -2.87309070512E-02 +8.84901515004E-01 -4.17475328110E-05 +7.03826495555E-04 -4.35218325513E-05 +7.53429574323E-04 -2.21896749613E-01 +8.11783111036E-01
1.40500000000E+09 -8.94641712904E-03 +8.80439670220E-01 +5.16913439657E-05 +8.98072569790E-04 +1.19279212490E-04 +8.76438730824E-04 -2.04981489104E-01 +8.13168501885E-01
1.41000000000E+09 +1.27737356490E-02 +8.75705875719E-01 +2.56166246195E-04 +9.30257954408E-04 +2.34623702194E-04 +9.13363218512E-04 -1.86288401578E-01 +8.14302347810E-01
1.41500000000E+09 +3.54025705769E-02 +8.70365399866E-01 +3.96763848767E-04 +1.00208767119E-03 +3.68673033313E-04 +1.09673855453E-03 -1.66452816608E-01 +8.14791266972E-01
1.42000000000E+09 +5.82567182477E-02 +8.64321929890E-01 +6.26729197501E-04 +9.70203391997E-04 +6.17465880051E-04 +1.09968931398E-03 -1.44926223572E-01 +8.14655641576E-01
1.42500000000E+09 +7.98961828122E-02 +8.57067303426E-01 +7.57980741630E-04 +9.24691829030E-04 +8.54304292130E-04 +1.02159348403E-03 -1.22542279506E-01 +8.13183063729E-01
1.43000000000E+09 +1.00397075077E-01 +8.48479838550E-01 +8.33809601676E-04 +9.83425962657E-04 +9.73300651738E-04 +1.03914453493E-03 -9.90547239464E-02 +8.11211067623E-01
1.43500000000E+09 +1.20044497661E-01 +8.38135417232E-01 +1.10914579314E-03 +1.05616648248E-03 +1.25289398837E-03 +1.00333333235E-03 -7.38882958324E-02 +8.07565320887E-01
1.44000000000E+09 +1.40101107645E-01 +8.26194222933E-01 +1.58437548796E-03 +9.91442836608E-04 +1.69129647531E-03 +9.00536460669E-04 -4.67348372837E-02 +8.02026500083E-01
1.44500000000E+09 +1.62064308697E-01 +8.11078534419E-01 +1.88414956631E-03 +6.39540083156E-04 +1.96231218067E-03 +5.51829770264E-04 -1.71083850253E-02 +7.94043508357E-01
1.45000000000E+09 +1.86296793718E-01 +7.92534886363E-01 +2.02185610449E-03 +3.78817026509E-04 +2.05584124456E-03 +3.19058829872E-04 +1.43200095438E-02 +7.82986648156E-01
1.45500000000E+09 +2.13338067720E-01 +7.70569737450E-01 +2.21528470946E-03 +2.61900597596E-04 +2.26774901246E-03 +6.60706622806E-05 +4.74541588539E-02 +7.69151770223E-01
1.46000000000E+09 +2.44016407141E-01 +7.44164013345E-01 +2.60179995665E-03 -3.80435268831E-05 +2.43145251678E-03 -3.06111531159E-04 +8.21507509521E-02 +7.51353167832E-01
1.46500000000E+09 +2.76244031712E-01 +7.13098123932E-01 +2.98413613000E-03 -5.01969312591E-04 +2.71996041070E-03 -6.52775100479E-04 +1.18626873272E-01 +7.28976787039E-01
1.47000000000E+09 +3.09215370720E-01 +6.77691094341E-01 +3.33578150270E-03 -1.33373284992E-03 +3.07535921539E-03 -1.26884766147E-03 +1.56502128525E-01 +6.99702408128E-01
1.47500000000E+09 +3.41410500477E-01 +6.36873457926E-01 +3.24454904756E-03 -2.48928195823E-03 +3.19869324959E-03 -2.28420287988E-03 +1.95018192116E-01 +6.63128537593E-01
1.48000000000E+09 +3.70358130661E-01 +5.89921483282E-01 +2.54600595041E-03 -3.37278793394E-03 +2.64620314035E-03 -3.25154960660E-03 +2.33253452738E-01 +6.17972823691E-01
1.48500000000E+09 +3.94115892180E-01 +5.36396603531E-01 +2.11255420147E-03 -3.76408439560E-03 +2.13247888074E-03 -3.95060540553E-03 +2.69737018494E-01 +5.64017655193E-01
1.49000000000E+09 +4.11655682621E-01 +4.75400646750E-01 +1.73069028287E-03 -4.70907549030E-03 +1.50768804798E-03 -4.74563218894E-03 +3.01681670479E-01 +4.97798003169E-01
1.49500000000E+09 +4.20692931216E-01 +4.06396272722E-01 +6.17381015439E-04 -5.62401320598E-03 +3.97578204453E-04 -5.44817811915E-03 +3.22424076222E-01 +4.21701805426E-01
1.50000000000E+09 +4.20891609000E-01 +3.28314425268E-01 -1.10625649274E-03 -6.19783122212E-03 -1.03764556874E-03 -5.79927674614E-03 +3.32339372202E-01 +3.37187205109E-01
1.50500000000E+09 +4.07915912930E-01 +2.40009176676E-01 -2.51303494153E-03 -6.13117920537E-03 -2.22953738630E-03 -5.95797062724E-03 +3.25732058951E-01 +2.43270432260E-01
1.51000000000E+09 +3.77786767555E-01 +1.45933808316E-01 -4.50999280952E-03 -5.57462464006E-03 -4.26464160931E-03 -5.69687618570E-03 +2.98396281440E-01 +1.44916055652E-01
1.51500000000E+09 +3.27390278814E-01 +5.21415572894E-02 -6.08411917079E-03 -4.73770271424E-03 -6.01939207775E-03 -4.96520688105E-03 +2.47950960107E-01 +5.06194444079E-02
1.52000000000E+09 +2.57273600206E-01 -3.22087853618E-02 -8.33689096377E-03 -2.87920360091E-03 -8.39080828734E-03 -2.95817298790E-03 +1.77405033869E-01 -3.37797523325E-02
1.52500000000E+09 +1.70141742031E-01 -1.02238354728E-01 -8.54018743722E-03 +7.08213731024E-04 -8.56154793986E-03 +6.49995776784E-04 +8.73869287164E-02 -9.95503643863E-02
1.53000000000E+09 +6.84279095122E-02 -1.50830303446E-01 -7.14199989821E-03 +2.64978286561E-03 -7.17910161217E-03 +2.63694793754E-03 -1.27248703648E-02 -1.42721483885E-01
1.53500000000E+09 -4.10597319126E-02 -1.74481395583E-01 -6.26005226798E-03 +4.40592752398E-03 -6.26325074959E-03 +4.42261476037E-03 -1.17093617570E-01 -1.61401377334E-01
1.54000000000E+09 -1.53629853200E-01 -1.70629298169E-01 -4.22102873456E-03 +5.32499852243E-03 -4.21885724052E-03 +5.21281872165E-03 -2.16859233300E-01 -1.58448481944E-01
1.54500000000E+09 -2.59806496581E-01 -1.43590101851E-01 -3.09349355175E-03 +5.89810999168E-03 -3.17945574936E-03 +5.75895137698E-03 -3.06370642870E-01 -1.38188195742E-01
1.55000000000E+09 -3.55257044316E-01 -9.63804014961E-02 -1.19463746162E-03 +6.55561355973E-03 -1.47342585229E-03 +6.49752775688E-03 -3.84437461092E-01 -1.06131006458E-01
1.55500000000E+09 -4.33841331121E-01 -3.79572566419E-02 +9.32949375773E-04 +5.96881309526E-03 +7.14266513158E-04 +6.14947609995E-03 -4.49496568168E-01 -6.42315509710E-02
1.56000000000E+09 -4.97467736318E-01 +2.32530465481E-02 +2.08454541113E-03 +4.45157908306E-03 +1.97655865396E-03 +4.76613744053E-03 -5.01683747037E-01 -1.75332517424E-02
1.56500000000E+09 -5.48145330673E-01 +8.53035623675E-02 +2.28292964483E-03 +3.45201317638E-03 +2.32099433492E-03 +3.67125700932E-03 -5.42399126204E-01 +3.14913665280E-02
1.57000000000E+09 -5.85118498834E-01 +1.45772759901E-01 +2.62517012648E-03 +2.77816106407E-03 +2.80705659069E-03 +2.89539375963E-03 -5.73437125941E-01 +7.91699920625E-02
