# Hz S RI R 50
! CMT, C1220, 16058040, 17.2.0/1
! Date: 14/08/2018 12:38:16
! Data: Format (Calibration Info)
! Freq                      S11: Re/Im (F2)                       S21: Re/Im (F2)                       S12: Re/Im (F2)                       S22: Re/Im (F2)            
1.00000000000E+09 -6.46910186573E-01 +7.14384872569E-01 -3.54586611196E-06 +1.29271511176E-05 +1.79566215689E-05 -3.48473929245E-05 -6.70374781060E-01 +5.38758336269E-01
1.00500000000E+09 -6.39757412380E-01 +7.19671030851E-01 -3.74670609178E-05 -1.29486846157E-05 +2.92194941875E-05 +5.00951117188E-05 -6.67316129347E-01 +5.42439951716E-01
1.01000000000E+09 -6.33919619497E-01 +7.24439033741E-01 -3.43990856986E-05 +4.23334466283E-05 +6.62440884630E-06 -2.03903530325E-05 -6.64359491004E-01 +5.45550383358E-01
1.01500000000E+09 -6.29594418340E-01 +7.28469458868E-01 -2.03777917854E-05 -4.60572246296E-05 -3.16438601411E-05 -3.67210067997E-05 -6.61746377250E-01 +5.48829864359E-01
1.02000000000E+09 -6.26726610144E-01 +7.31944512633E-01 +4.38876862632E-06 +3.73067666561E-05 -2.93372377957E-05 +2.45865909648E-05 -6.59146412139E-01 +5.51939844720E-01
1.02500000000E+09 -6.24657358831E-01 +7.34594903226E-01 +1.72297971068E-05 -2.51853492788E-05 -3.18129077874E-06 -2.31970768825E-05 -6.56965166887E-01 +5.55124719503E-01
1.03000000000E+09 -6.23125266846E-01 +7.36888768518E-01 -5.35308989317E-05 +2.33496944857E-05 -1.46034433373E-05 +2.55162458288E-05 -6.54292672867E-01 +5.58602236353E-01
1.03500000000E+09 -6.20949376101E-01 +7.39161729355E-01 -7.06580691613E-06 +2.19980792821E-05 -2.48328666916E-05 +1.20144147110E-05 -6.51295066000E-01 +5.62313694475E-01
1.04000000000E+09 -6.17280480479E-01 +7.41906623754E-01 -1.03088416031E-05 +1.95552302580E-06 +4.01124911743E-05 -1.13022451092E-05 -6.48297893345E-01 +5.65603463748E-01
1.04500000000E+09 -6.12306445607E-01 +7.45207524305E-01 -2.84074287518E-06 -6.50338626879E-06 -1.46256401764E-05 +4.19358694416E-05 -6.45586347174E-01 +5.69073902830E-01
1.05000000000E+09 -6.05613332107E-01 +7.49361668665E-01 +2.91126063505E-05 +3.26270311423E-05 -2.41129793786E-06 +1.31590859003E-05 -6.42743419039E-01 +5.72144766535E-01
1.05500000000E+09 -5.97459316772E-01 +7.53905303133E-01 -1.41120970651E-05 +4.90018002195E-05 +6.37999087785E-05 +7.30063796105E-05 -6.40085823661E-01 +5.75428041672E-01
1.06000000000E+09 -5.88919644564E-01 +7.58989415985E-01 +8.12808002839E-06 +5.52779659929E-05 -1.00633415179E-05 +3.44088627042E-05 -6.37552343641E-01 +5.79115894041E-01
1.06500000000E+09 -5.80694298971E-01 +7.63993305632E-01 +5.96296561471E-05 +3.45348344877E-05 +5.06633114549E-05 +6.67380366296E-06 -6.34411723466E-01 +5.82658481543E-01
1.07000000000E+09 -5.73401325323E-01 +7.68504917781E-01 +1.44842660325E-05 +1.66460156021E-05 +5.75542567292E-05 +9.85984571715E-06 -6.30985263667E-01 +5.86171928754E-01
1.07500000000E+09 -5.67693188414E-01 +7.72342028605E-01 -5.71283017675E-07 -6.22211730896E-07 -3.44280302231E-05 -2.72352845217E-05 -6.27330908243E-01 +5.89661804858E-01
1.08000000000E+09 -5.63583322882E-01 +7.75503148764E-01 +4.40182051090E-05 +5.16502944530E-05 -2.86998023054E-06 +9.73287846400E-06 -6.24144603447E-01 +5.93284564448E-01
1.08500000000E+09 -5.60888053490E-01 +7.78012659795E-01 +5.49594176974E-06 +1.09157684247E-05 +2.37254279121E-05 +3.44402413139E-07 -6.21084071761E-01 +5.96652744099E-01
1.09000000000E+09 -5.58478559712E-01 +7.79967267703E-01 +1.71640499094E-05 +1.61656114275E-05 +2.16085898580E-05 +1.46257067027E-05 -6.18164448940E-01 +6.00131484417E-01
1.09500000000E+09 -5.56869206155E-01 +7.81564908656E-01 +8.73700267338E-05 -1.25989187578E-05 +1.48359985368E-05 +2.05804331664E-05 -6.14982961775E-01 +6.03814812449E-01
1.10000000000E+09 -5.53863483793E-01 +7.83600687596E-01 +2.36826043035E-05 +5.13433852532E-05 +2.83926027217E-05 -1.43820974951E-05 -6.11753964268E-01 +6.07451718567E-01
1.10500000000E+09 -5.49690770749E-01 +7.86309050670E-01 +3.54354087951E-05 -1.23554613977E-05 +2.67039552358E-05 +7.04368836903E-06 -6.08351943529E-01 +6.10725244718E-01
1.11000000000E+09 -5.44148032744E-01 +7.89851756725E-01 +2.44439025802E-05 +2.62258370797E-05 +1.45839213803E-05 +3.83370080979E-05 -6.04987026468E-01 +6.14014737933E-01
1.11500000000E+09 -5.37209563844E-01 +7.93720986752E-01 -1.74241005427E-05 +2.50753029811E-05 +5.47954923294E-05 +4.59273012711E-05 -6.01734155556E-01 +6.17316219620E-01
1.12000000000E+09 -5.29741176529E-01 +7.98109019090E-01 +6.51785728831E-05 +1.42942729045E-06 +6.99643613313E-05 +3.41185720239E-05 -5.98479379871E-01 +6.20767613618E-01
1.12500000000E+09 -5.21994217793E-01 +8.02398631203E-01 +2.70827016431E-05 +1.75627407321E-05 +5.56543720727E-06 -2.40087848058E-06 -5.94967220540E-01 +6.24625921371E-01
1.13000000000E+09 -5.14939073299E-01 +8.06194861297E-01 +1.08977466610E-05 +9.15354207145E-06 +7.58786880983E-05 +5.41323951370E-06 -5.91415566979E-01 +6.28305418218E-01
1.13500000000E+09 -5.08634675802E-01 +8.09123778711E-01 +5.16123240302E-05 -9.75448159528E-06 +6.01497599588E-05 +2.75133539873E-05 -5.87618660463E-01 +6.32053412265E-01
1.14000000000E+09 -5.03527941986E-01 +8.11523975015E-01 +6.23904773938E-05 -1.01083695047E-05 +1.06781566005E-04 +4.99513483051E-05 -5.83518600446E-01 +6.35526692576E-01
1.14500000000E+09 -4.99387595979E-01 +8.12835933169E-01 +5.08046905016E-05 +2.35251722925E-05 +5.79801277748E-05 +1.12928112378E-05 -5.79510881857E-01 +6.38952991403E-01
1.15000000000E+09 -4.95884273927E-01 +8.14243669424E-01 +4.72172966256E-05 -8.65469863151E-07 +7.98383765405E-05 -5.26477971623E-05 -5.75543059659E-01 +6.42620455281E-01
1.15500000000E+09 -4.92127970498E-01 +8.15701392461E-01 +7.47797580019E-05 +1.28479577548E-05 +8.58399722450E-05 -1.85286898677E-05 -5.71548960392E-01 +6.46295092643E-01
1.16000000000E+09 -4.87615047493E-01 +8.17366573362E-01 +1.30503259216E-05 -1.92339127714E-05 +4.16531510660E-05 +6.38173748431E-07 -5.67557438084E-01 +6.49984619987E-01
1.16500000000E+09 -4.81949145428E-01 +8.20213437681E-01 +6.80355517011E-05 -2.66910217440E-05 +6.48179724553E-05 -5.39865648196E-05 -5.63394581117E-01 +6.53357803169E-01
1.17000000000E+09 -4.75223568355E-01 +8.23483891306E-01 +3.96956825571E-05 -6.85102923163E-05 +4.25322818237E-05 -1.21995690261E-05 -5.58814488048E-01 +6.56493705271E-01
1.17500000000E+09 -4.67735930836E-01 +8.27255682011E-01 +6.25361794498E-05 -3.76795316821E-05 +1.76077800088E-05 -8.73987286805E-05 -5.54126057659E-01 +6.59708537935E-01
1.18000000000E+09 -4.59882928634E-01 +8.31200611721E-01 +5.19473365313E-05 -1.34506290749E-05 +1.82648472678E-05 -4.93562584774E-05 -5.49545378699E-01 +6.62822812382E-01
1.18500000000E+09 -4.52112436959E-01 +8.34927640040E-01 +7.64070281841E-05 -3.04502368959E-05 +1.07689509691E-04 -7.93531360712E-05 -5.44508687203E-01 +6.65862857114E-01
1.19000000000E+09 -4.44936842557E-01 +8.37915317805E-01 +8.33527706075E-05 -8.32866807673E-05 +8.53779454482E-05 -7.63290982400E-05 -5.39337135055E-01 +6.68641900436E-01
1.19500000000E+09 -4.38823037774E-01 +8.40165078543E-01 +6.81644301151E-05 -1.07218959215E-04 +5.48900901662E-05 -1.12281665252E-04 -5.34167088621E-01 +6.70025414772E-01
1.20000000000E+09 -4.33719121936E-01 +8.41011548279E-01 +3.83819615796E-05 -1.62806159566E-04 +3.37644280067E-05 -1.34236848407E-04 -5.30163517068E-01 +6.70385590767E-01
1.20500000000E+09 -4.29063070458E-01 +8.41899873706E-01 -8.10143844320E-05 -1.91204945573E-04 -1.05058725022E-04 -1.27970229050E-04 -5.28133300625E-01 +6.71542406066E-01
1.21000000000E+09 -4.24248905750E-01 +8.42937661770E-01 -6.99256327040E-05 -8.67304742519E-05 -4.44864147507E-05 -3.86082927207E-05 -5.26579906279E-01 +6.74294941951E-01
1.21500000000E+09 -4.18287575944E-01 +8.44313853061E-01 -1.01901410368E-04 -4.36165906690E-05 -4.98838641430E-05 -5.48987959893E-05 -5.24428548752E-01 +6.78622127534E-01
1.22000000000E+09 -4.10961222949E-01 +8.46106837679E-01 -4.18058831916E-06 -1.43709118697E-05 -1.70104009104E-05 -1.20374738315E-05 -5.20950330251E-01 +6.83640916847E-01
1.22500000000E+09 -4.02211592151E-01 +8.48845106430E-01 -3.79232776911E-05 -2.22811926040E-05 -4.41114815851E-05 -4.24469336211E-05 -5.16744342343E-01 +6.88405173337E-01
1.23000000000E+09 -3.92574463606E-01 +8.52280649689E-01 +2.22551977027E-05 -2.51911351159E-05 -2.19974080772E-05 -7.09085015144E-05 -5.12005776562E-01 +6.93005944988E-01
1.23500000000E+09 -3.82660281737E-01 +8.56113733621E-01 -7.16087528240E-06 -7.77564330531E-05 +3.74860160241E-05 -6.50104793958E-05 -5.07082012180E-01 +6.97114628864E-01
1.24000000000E+09 -3.72870707806E-01 +8.60320738971E-01 -2.52557953486E-05 -1.31099871823E-04 -3.10443093235E-05 -1.08305697004E-04 -5.02344668895E-01 +7.00848509890E-01
1.24500000000E+09 -3.63917997717E-01 +8.64797438506E-01 -3.44980463214E-05 -4.53653885927E-05 -2.83946741231E-06 -8.70565679484E-05 -4.97059380174E-01 +7.04662508765E-01
1.25000000000E+09 -3.55960655261E-01 +8.68436735607E-01 -9.41184910027E-05 -4.10021667913E-05 -1.36999419986E-05 -1.13059786512E-04 -4.91708577018E-01 +7.08834784453E-01
1.25500000000E+09 -3.49380461506E-01 +8.71057267035E-01 -4.77264703100E-05 -1.05346488524E-04 -3.72246079543E-05 -1.31834280521E-04 -4.86101330063E-01 +7.12846742671E-01
1.26000000000E+09 -3.43440825399E-01 +8.72852110297E-01 -6.21312948882E-05 -6.76318680935E-05 -4.33508920551E-05 -1.32218922493E-04 -4.80657338267E-01 +7.17194463004E-01
1.26500000000E+09 -3.37954912480E-01 +8.73895575617E-01 -3.43862411997E-05 -8.19514900764E-05 -5.95970546914E-05 -6.59499209679E-05 -4.74783386523E-01 +7.21293758827E-01
1.27000000000E+09 -3.31890616316E-01 +8.74692031981E-01 -9.92207209824E-05 -1.15272039210E-04 -1.27689911998E-04 -1.25299701540E-04 -4.68912469929E-01 +7.25300440131E-01
1.27500000000E+09 -3.24483457573E-01 +8.75727652680E-01 -1.19177366962E-04 -1.28220896636E-04 -9.88918336994E-05 -1.21094863297E-04 -4.62807968099E-01 +7.29103067198E-01
1.28000000000E+09 -3.15299251893E-01 +8.77302096913E-01 -1.29393959098E-04 -8.41297715041E-05 -1.57933176572E-04 -9.12334189591E-05 -4.56729748165E-01 +7.33033546339E-01
1.28500000000E+09 -3.04292757932E-01 +8.79418890091E-01 -1.37452508264E-04 -8.08905282447E-05 -1.72638742694E-04 -1.16508212986E-04 -4.50183747263E-01 +7.36894456704E-01
1.29000000000E+09 -2.92550756353E-01 +8.82094837672E-01 -2.25304598283E-04 -3.97302670381E-05 -2.10620133333E-04 -3.84746574179E-05 -4.43660722503E-01 +7.40941590274E-01
1.29500000000E+09 -2.80396495953E-01 +8.85683861899E-01 -1.66230413774E-04 -2.10844416500E-05 -2.27764903441E-04 +1.52231369562E-05 -4.36775355501E-01 +7.44765899804E-01
1.30000000000E+09 -2.68599529924E-01 +8.89479538300E-01 -2.31500196448E-04 +3.95571000295E-06 -1.36884613939E-04 +2.45924468825E-05 -4.30120744655E-01 +7.48549381430E-01
1.30500000000E+09 -2.57935750647E-01 +8.92989261441E-01 -1.46462694389E-04 -3.89914494236E-06 -1.55709838884E-04 +3.33373350705E-05 -4.22960752314E-01 +7.52264456086E-01
1.31000000000E+09 -2.48875974143E-01 +8.95590590276E-01 -2.14097298172E-04 +1.04271255802E-06 -1.81944146441E-04 -2.52086356029E-05 -4.15663619781E-01 +7.56042939882E-01
1.31500000000E+09 -2.41509080384E-01 +8.97248917209E-01 -2.28610783223E-04 +6.54639969209E-05 -2.92394926471E-04 +2.10542075216E-07 -4.08008474023E-01 +7.59800542754E-01
1.32000000000E+09 -2.35425669569E-01 +8.97971841074E-01 -2.69331324690E-04 +6.70721083732E-05 -2.38840645804E-04 +5.25357449867E-05 -3.99985746210E-01 +7.63463389661E-01
1.32500000000E+09 -2.29594826436E-01 +8.97782743323E-01 -2.46382866047E-04 +1.09280746377E-04 -2.35650696754E-04 +1.14373032962E-04 -3.91666893948E-01 +7.67059337090E-01
1.33000000000E+09 -2.22539921790E-01 +8.97300229231E-01 -2.38939362029E-04 +1.21331873810E-04 -1.90306759671E-04 +1.46793289096E-04 -3.83303386348E-01 +7.70796803445E-01
1.33500000000E+09 -2.13553507192E-01 +8.96819591463E-01 -2.24224730497E-04 +8.68265733699E-05 -1.86162722707E-04 +1.65431755670E-04 -3.74599907373E-01 +7.74321252773E-01
1.34000000000E+09 -2.01945232179E-01 +8.96551365151E-01 -2.54959914395E-04 +1.47442320503E-04 -2.19463382683E-04 +1.50267109337E-04 -3.65859632365E-01 +7.78187741845E-01
1.34500000000E+09 -1.87836899942E-01 +8.96691535658E-01 -2.20585251355E-04 +2.29288591701E-04 -2.02825407498E-04 +2.02746712379E-04 -3.56233003876E-01 +7.81824808273E-01
1.35000000000E+09 -1.71928826073E-01 +8.97197204813E-01 -2.32875034526E-04 +2.32775573574E-04 -2.16319231098E-04 +2.42150667741E-04 -3.46384084895E-01 +7.85749549366E-01
1.35500000000E+09 -1.54978900217E-01 +8.98202558431E-01 -2.40788110862E-04 +2.71381710143E-04 -2.26183685679E-04 +2.47859980740E-04 -3.35959390017E-01 +7.89201077811E-01
1.36000000000E+09 -1.38117407627E-01 +8.99295604923E-01 -1.85706729076E-04 +2.92196828450E-04 -2.14991752608E-04 +3.44313523391E-04 -3.25044114234E-01 +7.92688232475E-01
1.36500000000E+09 -1.22509678355E-01 +9.00252986261E-01 -2.26215928509E-04 +3.82854417357E-04 -2.11134868429E-04 +3.64680452109E-04 -3.14404510748E-01 +7.95840105043E-01
1.37000000000E+09 -1.08576134165E-01 +9.00222260056E-01 -1.37720569394E-04 +5.19776834497E-04 -1.68615795328E-04 +4.44546964231E-04 -3.02915513741E-01 +7.99087884273E-01
1.37500000000E+09 -9.66427644199E-02 +8.99930867264E-01 -8.50559985856E-05 +4.64428425392E-04 -7.76131408419E-05 +4.41367057416E-04 -2.90618742078E-01 +8.02193346073E-01
1.38000000000E+09 -8.58445181508E-02 +8.98791984742E-01 -4.85956267249E-06 +4.58202707735E-04 -7.95383198727E-05 +4.91541499455E-04 -2.77458447393E-01 +8.05310001887E-01
1.38500000000E+09 -7.45583173958E-02 +8.97033355887E-01 -8.36501601365E-06 +4.61667232354E-04 -3.50257196550E-05 +5.37770005438E-04 -2.63452116202E-01 +8.08296917830E-01
1.39000000000E+09 -6.22614063157E-02 +8.94570121711E-01 +3.76188700041E-05 +5.64814489316E-04 +6.58431220983E-05 +6.49405428410E-04 -2.49023397808E-01 +8.11035331515E-01
1.39500000000E+09 -4.75599612070E-02 +8.91479713856E-01 +8.64693968347E-05 +5.59970906432E-04 +1.39487599724E-04 +6.04302086489E-04 -2.33783837659E-01 +8.13108001438E-01
1.40000000000E+09 -2.98728371088E-02 +8.87324030894E-01 +6.69332224143E-05 +6.19299780849E-04 +1.30597057694E-04 +6.17672508234E-04 -2.17873838549E-01 +8.14954691433E-01
1.40500000000E+09 -1.01359701688E-02 +8.82858029416E-01 +2.25946270783E-04 +7.56571348986E-04 +2.76263989969E-04 +7.39089895751E-04 -2.00987868718E-01 +8.16394105360E-01
1.41000000000E+09 +1.17174870016E-02 +8.77914037595E-01 +3.45152985261E-04 +7.35285459242E-04 +3.70287901718E-04 +7.38140291418E-04 -1.82396033130E-01 +8.17296061148E-01
1.41500000000E+09 +3.44612692639E-02 +8.72492457218E-01 +5.00052506848E-04 +7.91581069353E-04 +4.48762699286E-04 +8.37213818090E-04 -1.62316814281E-01 +8.17717612247E-01
1.42000000000E+09 +5.72710212825E-02 +8.66315754381E-01 +6.79287084515E-04 +7.17345667722E-04 +7.50123762220E-04 +8.16099021409E-04 -1.40850130784E-01 +8.17317800134E-01
1.42500000000E+09 +7.89130525175E-02 +8.58951531957E-01 +7.89628899595E-04 +6.90466056648E-04 +8.82907358291E-04 +7.40077841847E-04 -1.18271891922E-01 +8.15871382204E-01
1.43000000000E+09 +9.96684578095E-02 +8.50295871315E-01 +8.82397626825E-04 +6.95225617917E-04 +1.00713650934E-03 +6.86253780793E-04 -9.48464327408E-02 +8.13576736533E-01
1.43500000000E+09 +1.19554008583E-01 +8.39871147085E-01 +1.13326328429E-03 +7.99298971055E-04 +1.23157272317E-03 +6.49629802310E-04 -6.97201198128E-02 +8.09716290428E-01
1.44000000000E+09 +1.39746932721E-01 +8.27820302659E-01 +1.56719099144E-03 +6.29746806955E-04 +1.63866313644E-03 +5.39300586983E-04 -4.27175287533E-02 +8.04013469729E-01
1.44500000000E+09 +1.61946237577E-01 +8.12633184676E-01 +1.75418020960E-03 +1.84330618146E-04 +1.76847013049E-03 +7.61041670874E-05 -1.30244312234E-02 +7.95855980081E-01
1.45000000000E+09 +1.86459685996E-01 +7.93850886780E-01 +1.77095719500E-03 -7.37399998701E-05 +1.78278608827E-03 -1.73278078827E-04 +1.82143243913E-02 +7.84602861907E-01
1.45500000000E+09 +2.13689521021E-01 +7.71223142170E-01 +1.88047551828E-03 -1.61295585048E-04 +1.83076773601E-03 -2.87462077017E-04 +5.13957632058E-02 +7.70501399983E-01
1.46000000000E+09 +2.44141912762E-01 +7.44633468976E-01 +2.16987855655E-03 -3.73453891031E-04 +2.03332511751E-03 -5.71099978581E-04 +8.62665131672E-02 +7.52481488681E-01
1.46500000000E+09 +2.76427397138E-01 +7.13112172722E-01 +2.59354185290E-03 -8.91873383260E-04 +2.35973841337E-03 -9.41955439678E-04 +1.22530633312E-01 +7.29541808758E-01
1.47000000000E+09 +3.09340209024E-01 +6.77071366246E-01 +2.65447307668E-03 -1.75199413224E-03 +2.46303070805E-03 -1.60220713565E-03 +1.60217163171E-01 +6.99771762459E-01
1.47500000000E+09 +3.41283386832E-01 +6.35613029356E-01 +2.48855536355E-03 -2.69293856583E-03 +2.49412351974E-03 -2.50084257568E-03 +1.98404139563E-01 +6.62832752064E-01
1.48000000000E+09 +3.70100012909E-01 +5.88007986056E-01 +1.70950865572E-03 -3.39610348497E-03 +1.82495151485E-03 -3.40029833315E-03 +2.36338464353E-01 +6.17157472279E-01
1.48500000000E+09 +3.93270108935E-01 +5.33670651790E-01 +1.16124563917E-03 -3.70862583804E-03 +1.13387734530E-03 -3.80727056783E-03 +2.72096343982E-01 +5.62395430990E-01
1.49000000000E+09 +4.10033733739E-01 +4.71865680542E-01 +6.77676338514E-04 -4.34755673531E-03 +4.66475452008E-04 -4.44368601072E-03 +3.03192158106E-01 +4.96129967298E-01
1.49500000000E+09 +4.17967849145E-01 +4.02327730064E-01 -4.47584234978E-04 -5.17128137083E-03 -6.46071991877E-04 -4.94381948490E-03 +3.23139511209E-01 +4.19736386706E-01
1.50000000000E+09 +4.16884996995E-01 +3.23876730340E-01 -2.11168019739E-03 -5.23955650977E-03 -1.96496204629E-03 -4.87264385054E-03 +3.31839338064E-01 +3.34988698408E-01
1.50500000000E+09 +4.02091120098E-01 +2.35774061449E-01 -3.25154136987E-03 -4.91976946030E-03 -2.95264825524E-03 -4.80816058265E-03 +3.23515423509E-01 +2.41392344333E-01
1.51000000000E+09 +3.70072073504E-01 +1.43051015845E-01 -5.09313632559E-03 -4.21328710379E-03 -4.88550492336E-03 -4.41963219056E-03 +2.94478753018E-01 +1.44054297505E-01
1.51500000000E+09 +3.18763293668E-01 +5.05329494105E-02 -6.47807053172E-03 -3.23613356827E-03 -6.44029119077E-03 -3.47646169108E-03 +2.42727456408E-01 +5.16905589962E-02
1.52000000000E+09 +2.47113058922E-01 -3.24456354557E-02 -8.30562303461E-03 -9.65563282521E-04 -8.39576000961E-03 -1.01128042349E-03 +1.72189984655E-01 -3.04042445473E-02
1.52500000000E+09 +1.59040345965E-01 -9.93176636768E-02 -7.78836845092E-03 +2.78707020194E-03 -7.84523713369E-03 +2.74052900848E-03 +8.26982899302E-02 -9.46087776316E-02
1.53000000000E+09 +5.83039385961E-02 -1.45474981703E-01 -5.47410126897E-03 +4.31831941539E-03 -5.50679583150E-03 +4.34770058682E-03 -1.65334869651E-02 -1.36012110956E-01
1.53500000000E+09 -5.00251563000E-02 -1.66992237061E-01 -4.28815010296E-03 +5.23703859944E-03 -4.27781803699E-03 +5.22216904496E-03 -1.19297496141E-01 -1.53850072711E-01
1.54000000000E+09 -1.60371449069E-01 -1.61453575104E-01 -2.42434862478E-03 +5.56754946934E-03 -2.43462229415E-03 +5.49913107395E-03 -2.17871291144E-01 -1.50617559265E-01
1.54500000000E+09 -2.64066389163E-01 -1.33973144327E-01 -1.32091418544E-03 +5.91161882881E-03 -1.44333765558E-03 +5.81327735392E-03 -3.06075719030E-01 -1.30031059775E-01
1.55000000000E+09 -3.57418959053E-01 -8.67416936317E-02 +4.27684886379E-04 +5.92638798658E-03 +2.12715539438E-04 +5.94543043305E-03 -3.82886572289E-01 -9.83386062044E-02
1.55500000000E+09 -4.33861796890E-01 -2.92048026049E-02 +2.26259694321E-03 +5.03125340961E-03 +2.07031487364E-03 +5.22746009266E-03 -4.47199457747E-01 -5.71225018706E-02
1.56000000000E+09 -4.96095456879E-01 +3.11832500194E-02 +3.07395288198E-03 +3.42850072111E-03 +3.04593673454E-03 +3.69447510024E-03 -4.99018879742E-01 -1.08890268682E-02
1.56500000000E+09 -5.45342330507E-01 +9.20375702085E-02 +3.05912603888E-03 +2.24398254488E-03 +3.24282228114E-03 +2.47695369811E-03 -5.39513918612E-01 +3.76510400522E-02
1.57000000000E+09 -5.81948994462E-01 +1.50995394008E-01 +2.95819826864E-03 +1.46314752087E-03 +3.19273884543E-03 +1.53930365522E-03 -5.70156336516E-01 +8.52592735014E-02
