# Hz S RI R 50
! CMT, C1220, 16058040, 17.2.0/1
! Date: 14/08/2018 12:40:05
! Data: Format (Calibration Info)
! Freq                      S11: Re/Im (F2)                       S21: Re/Im (F2)                       S12: Re/Im (F2)                       S22: Re/Im (F2)            
1.00000000000E+09 -6.47986314890E-01 +7.14206915171E-01 +3.64562517239E-06 -1.36726796778E-05 -4.98590283914E-05 -1.13825492731E-05 -6.70449245798E-01 +5.40431000287E-01
1.00500000000E+09 -6.40911852133E-01 +7.19468705621E-01 +4.97902553499E-05 -1.67289986688E-06 -2.31944274849E-05 -8.55062124508E-06 -6.67347505651E-01 +5.44002386721E-01
1.01000000000E+09 -6.34904855982E-01 +7.24124358549E-01 -9.45118829353E-06 -1.47740534671E-05 -3.94874891235E-06 +4.96591405895E-05 -6.64482477663E-01 +5.47208530223E-01
1.01500000000E+09 -6.30410907595E-01 +7.27980020796E-01 -1.83458050274E-05 +3.26634956736E-05 -6.80068150836E-06 +1.72107177038E-05 -6.61753009081E-01 +5.50422767577E-01
1.02000000000E+09 -6.27243076039E-01 +7.31466073267E-01 +1.28330989384E-05 +1.58954602339E-05 -2.63029423463E-05 -2.14134620339E-05 -6.59107763233E-01 +5.53515941038E-01
1.02500000000E+09 -6.24983386018E-01 +7.34144963307E-01 -7.60802470009E-06 +2.61702481002E-05 -1.90922330874E-05 -6.29289263279E-05 -6.56909946070E-01 +5.56750971633E-01
1.03000000000E+09 -6.23347590431E-01 +7.36664904663E-01 +4.67273472392E-06 -5.79401880120E-06 -3.43535181950E-05 -8.41635917739E-06 -6.54298425237E-01 +5.60208931202E-01
1.03500000000E+09 -6.21065611447E-01 +7.39063640839E-01 -9.37018132785E-06 +2.90260204640E-05 -7.60465124639E-05 -6.19981718610E-06 -6.51219063931E-01 +5.63910680407E-01
1.04000000000E+09 -6.17687121001E-01 +7.41886452743E-01 -2.78488085395E-05 -4.47022848827E-05 -2.00267054309E-05 +2.70591680991E-05 -6.48047998671E-01 +5.67236805304E-01
1.04500000000E+09 -6.12760570468E-01 +7.45311997226E-01 +1.12162281042E-05 +2.84139663139E-05 +3.42040840494E-05 +2.08889978080E-05 -6.45349498985E-01 +5.70505981884E-01
1.05000000000E+09 -6.06150830261E-01 +7.49163593501E-01 -5.00980884381E-05 -1.05678064964E-05 -4.69343445683E-05 +2.98173686374E-05 -6.42538834253E-01 +5.73755235079E-01
1.05500000000E+09 -5.98385652243E-01 +7.53640203088E-01 -5.88638140041E-06 +3.34550185506E-05 -2.00925730074E-05 +8.59498920492E-06 -6.40064337226E-01 +5.77055377407E-01
1.06000000000E+09 -5.89967486852E-01 +7.58654215703E-01 +1.68983821444E-05 +1.82701562984E-05 -7.79888771220E-06 +3.84139580582E-05 -6.37421081958E-01 +5.80646340871E-01
1.06500000000E+09 -5.81770844145E-01 +7.63607633450E-01 +2.33439546385E-05 +2.34881663168E-05 +3.88125051284E-05 +8.35199685941E-05 -6.34211018816E-01 +5.84243131349E-01
1.07000000000E+09 -5.74747841048E-01 +7.68007378277E-01 +3.43199154956E-05 +2.42709584703E-05 +3.57012511000E-06 -9.16422061000E-06 -6.30810443293E-01 +5.87712247587E-01
1.07500000000E+09 -5.69096026389E-01 +7.71945976275E-01 +3.55766174433E-05 +8.90088433021E-06 +6.79135344441E-05 +1.25419579035E-05 -6.27140935729E-01 +5.91238965672E-01
1.08000000000E+09 -5.64869622559E-01 +7.75370834745E-01 +1.00364928920E-05 +1.70158459775E-05 +4.45705074508E-05 +4.08386512307E-06 -6.23948052314E-01 +5.94837480619E-01
1.08500000000E+09 -5.61960310366E-01 +7.77806428150E-01 +4.62229609537E-06 +3.62563643586E-05 +1.16508430073E-05 +3.24781660570E-05 -6.20876047516E-01 +5.98131741597E-01
1.09000000000E+09 -5.59608313146E-01 +7.79939555106E-01 +3.18671803846E-05 +1.15469669907E-05 +3.36960425951E-05 +3.24534169540E-05 -6.17734202295E-01 +6.01742417235E-01
1.09500000000E+09 -5.57789909242E-01 +7.81615335646E-01 +2.51455029945E-05 +4.99486327807E-05 -2.63010265776E-05 +3.95626600955E-05 -6.14832640881E-01 +6.05375044027E-01
1.10000000000E+09 -5.54627882222E-01 +7.83587227184E-01 +3.43073350127E-05 +1.13535739947E-05 +4.82753356593E-05 +2.94401388942E-05 -6.11623109756E-01 +6.08838024344E-01
1.10500000000E+09 -5.50661116337E-01 +7.86439038530E-01 +1.93919855249E-05 -1.94075560433E-05 -2.09805207974E-05 -3.75365858593E-05 -6.08086952231E-01 +6.12278991554E-01
1.11000000000E+09 -5.44990912050E-01 +7.89683931100E-01 -2.52972389377E-05 +7.86974418974E-06 +3.13492979592E-05 +1.34524979223E-05 -6.04582164121E-01 +6.15433759604E-01
1.11500000000E+09 -5.38136272732E-01 +7.93794012441E-01 +2.31299146011E-05 +1.26155039767E-05 +1.33198158586E-05 +1.33270655353E-05 -6.01413008355E-01 +6.18646276333E-01
1.12000000000E+09 -5.30813747797E-01 +7.97801093341E-01 +3.15023916687E-05 +1.88993978906E-05 +2.37017804133E-05 -1.15354639795E-05 -5.98176472142E-01 +6.22260321267E-01
1.12500000000E+09 -5.23022601268E-01 +8.02121440313E-01 +7.69333565189E-05 +1.54447854797E-05 +1.42455045697E-05 -3.60097951307E-05 -5.94726556224E-01 +6.26097876099E-01
1.13000000000E+09 -5.15980216983E-01 +8.05898939722E-01 +4.56546108761E-05 +1.35944028628E-05 +5.94253755633E-05 +5.00663290441E-05 -5.91068989004E-01 +6.29869742724E-01
1.13500000000E+09 -5.09681229315E-01 +8.08804428450E-01 +3.64580218089E-05 -9.42405084643E-06 +2.97173130771E-05 -2.49479156574E-05 -5.87189992703E-01 +6.33520288181E-01
1.14000000000E+09 -5.04405737600E-01 +8.11237396198E-01 +2.03181810561E-05 +2.91792594310E-05 +6.74648724532E-05 +2.01204795751E-05 -5.82992851331E-01 +6.37015271734E-01
1.14500000000E+09 -5.00450564488E-01 +8.12786774752E-01 +8.38099945657E-05 +3.32911154393E-06 +4.22212310597E-05 -5.27770633664E-06 -5.78993768329E-01 +6.40296058850E-01
1.15000000000E+09 -4.96775482731E-01 +8.14031907919E-01 +8.32627845804E-05 +5.70792011111E-05 +7.40217825674E-05 +1.28088614350E-05 -5.75111203913E-01 +6.43986015235E-01
1.15500000000E+09 -4.92964633297E-01 +8.15678674997E-01 +4.40106449981E-05 -1.68197714723E-05 +3.36391229013E-05 -2.38079007218E-05 -5.71166493351E-01 +6.47625731334E-01
1.16000000000E+09 -4.88469504222E-01 +8.17558912389E-01 +4.87816954884E-05 -1.71720934650E-05 +6.47141815367E-05 -9.93931552860E-06 -5.67153306436E-01 +6.51312070883E-01
1.16500000000E+09 -4.82971328504E-01 +8.20145415829E-01 +4.56254916546E-05 -3.21760311586E-05 +5.02599143854E-05 -3.91742169416E-05 -5.63006023049E-01 +6.54727617506E-01
1.17000000000E+09 -4.76349950683E-01 +8.23532726750E-01 +6.38944850881E-05 -6.22324689612E-05 +5.94567892652E-05 -5.25650693680E-05 -5.58396570881E-01 +6.57937198121E-01
1.17500000000E+09 -4.68956048690E-01 +8.27201749406E-01 +4.98280271664E-05 -3.36319452394E-05 +6.27729703197E-05 +1.36504196144E-05 -5.53595702106E-01 +6.61019757344E-01
1.18000000000E+09 -4.61177067728E-01 +8.31018186926E-01 +3.92086070560E-05 -8.85643558487E-06 +5.99240335695E-05 -4.08226020729E-05 -5.49059268431E-01 +6.64150742593E-01
1.18500000000E+09 -4.53560847198E-01 +8.34750227496E-01 +2.84069685605E-05 -4.56960290865E-05 +8.84387248305E-05 -4.13827683080E-05 -5.44160762245E-01 +6.67304648834E-01
1.19000000000E+09 -4.46385770842E-01 +8.37699558457E-01 +7.13655009450E-05 -7.79281909353E-05 +6.69327155114E-05 -6.66279319338E-05 -5.38846719298E-01 +6.70030970003E-01
1.19500000000E+09 -4.40177333702E-01 +8.39904107599E-01 +6.56611270165E-05 -8.92297707254E-05 +3.13871496290E-05 -1.42634777635E-04 -5.33575572282E-01 +6.71485703180E-01
1.20000000000E+09 -4.34911459929E-01 +8.40825620611E-01 +2.46696675362E-05 -1.51356954988E-04 -1.59007530565E-05 -1.36873234885E-04 -5.29423181966E-01 +6.71806208329E-01
1.20500000000E+09 -4.30228416020E-01 +8.41985268131E-01 -7.33829699035E-05 -1.46565266366E-04 -2.14425584165E-05 -1.44252281376E-04 -5.27467378427E-01 +6.72726179068E-01
1.21000000000E+09 -4.25384133943E-01 +8.42974151360E-01 -6.78996100840E-05 -3.72806480161E-05 -4.72403333404E-05 -7.74570638354E-05 -5.26113761213E-01 +6.75566703995E-01
1.21500000000E+09 -4.19291983400E-01 +8.44393602310E-01 -4.67931779544E-05 -2.84119474442E-05 +2.77552055491E-07 -2.83813049656E-05 -5.23844432508E-01 +6.79809948311E-01
1.22000000000E+09 -4.12128973989E-01 +8.46500085841E-01 -2.93613277514E-05 -5.21020106665E-05 +5.94137464567E-06 -3.78513261406E-05 -5.20324685362E-01 +6.84901906995E-01
1.22500000000E+09 -4.03541876713E-01 +8.49253642725E-01 +1.36575509759E-05 -4.71202752551E-05 +3.25871103003E-05 -6.27545781751E-05 -5.16140176593E-01 +6.89677130722E-01
1.23000000000E+09 -3.94052851611E-01 +8.52329064700E-01 -2.50421253155E-05 -3.77983272630E-05 -3.10672733889E-05 -8.20233330630E-05 -5.11488440687E-01 +6.94265790831E-01
1.23500000000E+09 -3.84317788064E-01 +8.56339174919E-01 -2.39097900037E-05 -8.89164657912E-05 -1.87444795650E-05 -3.59411502047E-05 -5.06671521453E-01 +6.98491492265E-01
1.24000000000E+09 -3.74655970750E-01 +8.60522401797E-01 -2.79702543379E-05 -2.51522705793E-05 +1.09845906971E-05 -8.99728582659E-05 -5.01605186053E-01 +7.02135542050E-01
1.24500000000E+09 -3.66050517673E-01 +8.65080905818E-01 -2.59323776003E-05 -3.06785486267E-05 -3.44097039304E-05 -6.62364105550E-05 -4.96414875182E-01 +7.05956468288E-01
1.25000000000E+09 -3.58108766145E-01 +8.68608066465E-01 -6.12728959045E-05 -1.05374108141E-04 -3.43985739720E-05 -6.17185415551E-05 -4.91074057667E-01 +7.10097806558E-01
1.25500000000E+09 -3.51212393669E-01 +8.71166007878E-01 -5.24635943890E-05 -1.29889757092E-04 -1.85113808556E-05 -1.31282027922E-04 -4.85458155114E-01 +7.14071553075E-01
1.26000000000E+09 -3.45122198629E-01 +8.73141543260E-01 -8.07231763096E-05 -6.78047705959E-05 -6.32837597182E-05 -6.14372367078E-05 -4.79892309563E-01 +7.18419062460E-01
1.26500000000E+09 -3.39327130812E-01 +8.74147943772E-01 -7.37228578327E-05 -1.19463712000E-04 -7.07461250265E-05 -1.57899860157E-04 -4.74112463760E-01 +7.22497923414E-01
1.27000000000E+09 -3.32952664771E-01 +8.75041854462E-01 -8.89386711210E-05 -1.07162831766E-04 -8.73255317535E-05 -7.81988991698E-05 -4.68200489240E-01 +7.26602060075E-01
1.27500000000E+09 -3.25347007647E-01 +8.76049415273E-01 -1.25106040739E-04 -9.12561162416E-05 -9.63690961494E-05 -1.12751223770E-04 -4.62212045409E-01 +7.30223048366E-01
1.28000000000E+09 -3.16158681822E-01 +8.77580015085E-01 -1.67651581411E-04 -8.43940318930E-05 -1.81961524460E-04 -1.15464354350E-04 -4.55974785841E-01 +7.34110700054E-01
1.28500000000E+09 -3.05055343605E-01 +8.79672022267E-01 -1.81140081228E-04 -6.31409584601E-05 -1.94312698455E-04 -9.61839709189E-05 -4.49491831487E-01 +7.38128217129E-01
1.29000000000E+09 -2.93355648474E-01 +8.82371950165E-01 -1.52016036851E-04 -3.11957191723E-05 -1.92485281574E-04 -5.83647969215E-05 -4.42882271458E-01 +7.41951235980E-01
1.29500000000E+09 -2.81289638707E-01 +8.85654678237E-01 -1.69511557373E-04 -4.01583143714E-05 -2.47576018537E-04 -4.43190911767E-05 -4.36006424056E-01 +7.45662671649E-01
1.30000000000E+09 -2.69755990696E-01 +8.89457065676E-01 -1.40827839054E-04 -2.21325455256E-05 -1.81595689525E-04 +3.06945272446E-05 -4.29215918823E-01 +7.49611223746E-01
1.30500000000E+09 -2.59401136929E-01 +8.92974925947E-01 -1.70345299192E-04 -5.71575287050E-05 -2.10083076208E-04 -6.66858021413E-05 -4.22201128908E-01 +7.53311470574E-01
1.31000000000E+09 -2.50312622046E-01 +8.95636097113E-01 -2.03033279309E-04 +4.32633508707E-05 -1.78912507156E-04 -3.13802578438E-05 -4.14866419621E-01 +7.56936344141E-01
1.31500000000E+09 -2.42987720503E-01 +8.97320311792E-01 -1.86304536440E-04 +1.33606949777E-05 -2.36848719572E-04 +3.45768345530E-05 -4.07177592009E-01 +7.60861918932E-01
1.32000000000E+09 -2.36823885100E-01 +8.98151467376E-01 -1.89049398236E-04 +6.43764883982E-05 -2.57348166447E-04 +6.63749411248E-05 -3.99169054300E-01 +7.64372240038E-01
1.32500000000E+09 -2.30942318600E-01 +8.98104534685E-01 -2.25623911739E-04 +1.18067222129E-04 -2.73095415144E-04 +1.12535315225E-04 -3.90853710776E-01 +7.68108233730E-01
1.33000000000E+09 -2.23787952832E-01 +8.98049833089E-01 -2.19512618501E-04 +1.13281152303E-04 -1.76953856252E-04 +1.00962100377E-04 -3.82507130651E-01 +7.71705331644E-01
1.33500000000E+09 -2.14721999508E-01 +8.97531405816E-01 -2.26053633168E-04 +1.13498514368E-04 -1.90558866147E-04 +1.55275923229E-04 -3.73922293281E-01 +7.75297203352E-01
1.34000000000E+09 -2.03051513729E-01 +8.97377229818E-01 -2.59640474806E-04 +1.58529704220E-04 -2.04873587552E-04 +1.14147269661E-04 -3.64944854153E-01 +7.78918630861E-01
1.34500000000E+09 -1.89046864152E-01 +8.97511636387E-01 -1.80496011955E-04 +2.14439199693E-04 -2.24694810719E-04 +1.81170224718E-04 -3.55285853913E-01 +7.82671062444E-01
1.35000000000E+09 -1.73191481887E-01 +8.98053869832E-01 -2.26806152459E-04 +2.33341596973E-04 -2.25045274586E-04 +2.26840371967E-04 -3.45433666684E-01 +7.86289980386E-01
1.35500000000E+09 -1.56290532802E-01 +8.98897908185E-01 -2.82002263539E-04 +2.70692989030E-04 -2.22555820896E-04 +2.80946453914E-04 -3.35025051309E-01 +7.89874655826E-01
1.36000000000E+09 -1.39644170711E-01 +9.00055318580E-01 -2.25326576026E-04 +2.92421281783E-04 -2.01113793877E-04 +2.72460645386E-04 -3.24343239927E-01 +7.93294844718E-01
1.36500000000E+09 -1.23949521353E-01 +9.00808550266E-01 -1.88135784552E-04 +3.64749951793E-04 -2.61848758131E-04 +3.59402517563E-04 -3.13379331767E-01 +7.96478794716E-01
1.37000000000E+09 -1.09981075536E-01 +9.00800263737E-01 -1.76729628919E-04 +4.09047103184E-04 -1.89150439635E-04 +4.15432162280E-04 -3.02039540937E-01 +7.99649547467E-01
1.37500000000E+09 -9.78671765532E-02 +9.00329664898E-01 -1.06415036099E-04 +4.71834735435E-04 -1.61367454715E-04 +4.17949669571E-04 -2.89667738953E-01 +8.02597378876E-01
1.38000000000E+09 -8.68856076327E-02 +8.99303417942E-01 -6.41227047141E-05 +4.83947047955E-04 -1.71508017560E-04 +4.81704216091E-04 -2.76520465861E-01 +8.05707467447E-01
1.38500000000E+09 -7.54826978982E-02 +8.97532690664E-01 -1.89163162658E-05 +4.95922596384E-04 -8.13682196984E-05 +6.08833745854E-04 -2.62766825433E-01 +8.08525915607E-01
1.39000000000E+09 -6.30085603762E-02 +8.95033998155E-01 -3.11371997364E-05 +5.38071186403E-04 -2.71355016615E-05 +5.88665023810E-04 -2.48351955664E-01 +8.11217339342E-01
1.39500000000E+09 -4.81700732768E-02 +8.91801908033E-01 +5.88038974359E-05 +5.68727186173E-04 +1.30820557634E-04 +6.30676707862E-04 -2.33172938208E-01 +8.13334405316E-01
1.40000000000E+09 -3.05672017616E-02 +8.87626701712E-01 +9.89184086321E-06 +7.07541573894E-04 +1.01974264518E-04 +6.98746950829E-04 -2.17294541471E-01 +8.15163322677E-01
1.40500000000E+09 -1.08270360506E-02 +8.83175961235E-01 +1.94337160151E-04 +8.13739376086E-04 +2.33198635398E-04 +7.88447851665E-04 -2.00443026591E-01 +8.16402910885E-01
1.41000000000E+09 +1.08071990760E-02 +8.78201751446E-01 +3.50646080885E-04 +7.88803662400E-04 +3.34533320081E-04 +8.16811222891E-04 -1.81928087128E-01 +8.17358689490E-01
1.41500000000E+09 +3.35447244432E-02 +8.72612261541E-01 +5.23281536193E-04 +8.58416894269E-04 +5.12533890816E-04 +9.08794535833E-04 -1.62050375896E-01 +8.17726069367E-01
1.42000000000E+09 +5.62805959059E-02 +8.66157518476E-01 +7.16034861241E-04 +7.46494556857E-04 +7.65261827048E-04 +8.59866678358E-04 -1.40722358790E-01 +8.17357009732E-01
1.42500000000E+09 +7.80985878905E-02 +8.58661060257E-01 +7.66020112937E-04 +6.78106829954E-04 +9.28111252925E-04 +7.10369302598E-04 -1.18320143337E-01 +8.15872435432E-01
1.43000000000E+09 +9.86660541023E-02 +8.49882069000E-01 +8.23746093969E-04 +6.86812912908E-04 +9.76474464369E-04 +6.77113877109E-04 -9.49658420961E-02 +8.13557896252E-01
1.43500000000E+09 +1.18667180427E-01 +8.39197431519E-01 +1.02514590860E-03 +8.59287779955E-04 +1.14274340024E-03 +7.64966152126E-04 -7.00184048792E-02 +8.09678258248E-01
1.44000000000E+09 +1.39103475142E-01 +8.26982615111E-01 +1.55082316409E-03 +7.59962208731E-04 +1.61542738887E-03 +6.38255273298E-04 -4.32002225279E-02 +8.04185584642E-01
1.44500000000E+09 +1.61395321906E-01 +8.11649569886E-01 +1.84658184719E-03 +2.88216879723E-04 +1.90498015711E-03 +2.16139328482E-04 -1.37916616408E-02 +7.96045826873E-01
1.45000000000E+09 +1.85926203353E-01 +7.92831047241E-01 +1.85914259946E-03 -2.01582392068E-05 +1.83402482619E-03 -9.91913707138E-05 +1.72379528786E-02 +7.84922988330E-01
1.45500000000E+09 +2.13178435922E-01 +7.70140810438E-01 +1.95143406209E-03 -1.97137086883E-04 +1.93637244415E-03 -3.48766004662E-04 +5.01657099388E-02 +7.71170340790E-01
1.46000000000E+09 +2.43335926888E-01 +7.43206988634E-01 +2.15287352657E-03 -4.13965330528E-04 +2.01006488973E-03 -5.94404620837E-04 +8.46196732840E-02 +7.53508358187E-01
1.46500000000E+09 +2.74987137062E-01 +7.11662738018E-01 +2.48429008668E-03 -8.38215952703E-04 +2.26767842443E-03 -9.11096821009E-04 +1.20911158121E-01 +7.31157392960E-01
1.47000000000E+09 +3.07072080425E-01 +6.75748863444E-01 +2.58930607148E-03 -1.59193393953E-03 +2.40235316372E-03 -1.43619887001E-03 +1.58442573213E-01 +7.01895347698E-01
1.47500000000E+09 +3.38410210052E-01 +6.34645265649E-01 +2.57347034132E-03 -2.50345330959E-03 +2.56984516759E-03 -2.33581193744E-03 +1.96801832053E-01 +6.65722708510E-01
1.48000000000E+09 +3.66948440050E-01 +5.86859436149E-01 +1.86209680371E-03 -3.24496810603E-03 +1.97041461798E-03 -3.23287499325E-03 +2.35007093478E-01 +6.20832439578E-01
1.48500000000E+09 +3.89475219844E-01 +5.32352027300E-01 +1.48131270809E-03 -3.61230782874E-03 +1.47461833466E-03 -3.72715272572E-03 +2.71370115987E-01 +5.66882966596E-01
1.49000000000E+09 +4.05601083593E-01 +4.70442335990E-01 +9.50202336637E-04 -4.51647886404E-03 +7.46229613599E-04 -4.52608395526E-03 +3.03155828379E-01 +5.01501620249E-01
1.49500000000E+09 +4.12468238626E-01 +4.00920606044E-01 -3.65917720382E-04 -5.38783211288E-03 -5.33958568113E-04 -5.12616973877E-03 +3.24625368530E-01 +4.25913404716E-01
1.50000000000E+09 +4.10376351252E-01 +3.23224757491E-01 -2.20999121784E-03 -5.19362209345E-03 -2.10111969960E-03 -4.86517736100E-03 +3.35218047193E-01 +3.40926389966E-01
1.50500000000E+09 +3.94984335226E-01 +2.36432456048E-01 -3.14580878656E-03 -4.93063272971E-03 -2.82672447080E-03 -4.85889708386E-03 +3.28613279890E-01 +2.46756118680E-01
1.51000000000E+09 +3.62600908910E-01 +1.44891930552E-01 -4.91732398408E-03 -4.17685412010E-03 -4.74847516303E-03 -4.35633426661E-03 +3.01337569317E-01 +1.48140585988E-01
1.51500000000E+09 +3.10929876490E-01 +5.44961655375E-02 -5.95083196726E-03 -3.27031239483E-03 -5.92341803717E-03 -3.43644765279E-03 +2.51343237473E-01 +5.37200107073E-02
1.52000000000E+09 +2.40324517211E-01 -2.62127829671E-02 -8.01057754010E-03 -1.42004111547E-03 -8.10649379889E-03 -1.53426429578E-03 +1.80618193009E-01 -3.13722051969E-02
1.52500000000E+09 +1.53978104485E-01 -9.14477918895E-02 -7.83170270330E-03 +2.28887197725E-03 -7.84940368165E-03 +2.21579191346E-03 +9.05256964697E-02 -9.76372109294E-02
1.53000000000E+09 +5.46729223123E-02 -1.37221933975E-01 -5.86908273369E-03 +3.83793402341E-03 -5.90298672497E-03 +3.85250048152E-03 -1.01919516400E-02 -1.41718137127E-01
1.53500000000E+09 -5.22347763486E-02 -1.56949530071E-01 -4.75016150459E-03 +5.23350550562E-03 -4.75010979652E-03 +5.23196652408E-03 -1.15730725093E-01 -1.60849549127E-01
1.54000000000E+09 -1.58945736187E-01 -1.51333522157E-01 -2.60867055424E-03 +5.71839383951E-03 -2.62772355046E-03 +5.60379397915E-03 -2.16674176009E-01 -1.57739725333E-01
1.54500000000E+09 -2.60613992347E-01 -1.25557701187E-01 -1.27821398831E-03 +5.90201374978E-03 -1.37906333983E-03 +5.82775575681E-03 -3.07475010371E-01 -1.36398180205E-01
1.55000000000E+09 -3.51958347152E-01 -8.02670361051E-02 +3.68022167747E-04 +5.77367637496E-03 +1.27722476759E-04 +5.80446900834E-03 -3.85405436336E-01 -1.03147173133E-01
1.55500000000E+09 -4.27834813698E-01 -2.54889777889E-02 +2.04751179971E-03 +4.99059467605E-03 +1.85206491134E-03 +5.18187780634E-03 -4.50505002664E-01 -6.07736791559E-02
1.56000000000E+09 -4.90180915416E-01 +3.31244882218E-02 +2.74391773658E-03 +3.41872611449E-03 +2.74864330456E-03 +3.66101768925E-03 -5.02683993352E-01 -1.34978312997E-02
1.56500000000E+09 -5.39810594133E-01 +9.27761982555E-02 +2.78833591823E-03 +2.54354182025E-03 +2.94212397369E-03 +2.72275949412E-03 -5.43602028912E-01 +3.61044509896E-02
1.57000000000E+09 -5.76367994735E-01 +1.50826385858E-01 +2.99515808096E-03 +1.82728475473E-03 +3.19936230154E-03 +1.85965462523E-03 -5.74577706879E-01 +8.47508435686E-02
