# Hz S RI R 50
! CMT, C1220, 16058040, 17.2.0/1
! Date: 14/08/2018 12:40:13
! Data: Format (Calibration Info)
! Freq                      S11: Re/Im (F2)                       S21: Re/Im (F2)                       S12: Re/Im (F2)                       S22: Re/Im (F2)            
1.00000000000E+09 -6.48006218038E-01 +7.14167838342E-01 +1.11461024480E-05 +1.94298170300E-05 +1.98845645505E-06 -4.06019049646E-05 -6.70525536538E-01 +5.40525391646E-01
1.00500000000E+09 -6.40920463036E-01 +7.19304920993E-01 -4.87225339500E-06 +1.16042261622E-05 -2.01221818745E-08 -8.07813494639E-06 -6.67339827360E-01 +5.44122366376E-01
1.01000000000E+09 -6.34903479548E-01 +7.23915434899E-01 -1.71150203358E-05 -1.59249696048E-05 +3.20802413928E-05 -1.29595040035E-05 -6.64339323207E-01 +5.47419580562E-01
1.01500000000E+09 -6.30520135324E-01 +7.28075539083E-01 -5.47264663305E-05 +6.50301864643E-06 +2.17281176853E-05 -3.72381473215E-05 -6.61824917034E-01 +5.50507402521E-01
1.02000000000E+09 -6.27333812133E-01 +7.31349019311E-01 -2.99278588833E-05 +2.91573133978E-05 -7.17276024685E-05 +2.07999551604E-05 -6.59019756765E-01 +5.53650251824E-01
1.02500000000E+09 -6.25108083953E-01 +7.34269246922E-01 -1.78993634996E-05 -7.61101657406E-06 -5.26474856082E-05 +3.27207406975E-05 -6.56874180332E-01 +5.56756712939E-01
1.03000000000E+09 -6.23471904337E-01 +7.36636526509E-01 -1.86500641040E-05 +4.21843584807E-05 -3.35755901778E-06 -2.24959985334E-07 -6.54029158649E-01 +5.60289366762E-01
1.03500000000E+09 -6.21076600144E-01 +7.38972527300E-01 -2.30734542610E-05 +1.53920623431E-05 -4.10366390047E-05 +3.50298368372E-05 -6.51263480639E-01 +5.63927204290E-01
1.04000000000E+09 -6.17643095385E-01 +7.41678064540E-01 -1.74237516565E-05 +6.70222466371E-05 -3.69961080025E-05 -9.13328308924E-06 -6.48162679800E-01 +5.67429691433E-01
1.04500000000E+09 -6.12722143716E-01 +7.44979692481E-01 +4.92631811997E-06 +3.08013326300E-05 -2.88631257017E-05 +5.24162538934E-05 -6.45282269906E-01 +5.70673120030E-01
1.05000000000E+09 -6.06174774879E-01 +7.49192621131E-01 -3.14663796085E-05 +3.09268985468E-05 -3.45636504090E-05 +5.56174778394E-05 -6.42618545700E-01 +5.73770792998E-01
1.05500000000E+09 -5.98366977894E-01 +7.53653893366E-01 -2.02969850171E-05 +2.83029919323E-05 +1.47159000332E-06 +7.92632034497E-06 -6.39959341823E-01 +5.77227204829E-01
1.06000000000E+09 -5.90046379152E-01 +7.58628495462E-01 +6.47834753062E-05 +3.12265370020E-07 +4.61121840921E-06 +1.18364956689E-05 -6.37289547115E-01 +5.80733722018E-01
1.06500000000E+09 -5.81858927383E-01 +7.63693593876E-01 +3.98423275058E-05 -6.69221894984E-07 -2.07418272760E-07 +1.94152807450E-05 -6.34269031339E-01 +5.84389779591E-01
1.07000000000E+09 -5.74843243798E-01 +7.68046945229E-01 +3.75872671240E-05 +1.67654566238E-05 +1.44644067410E-05 +5.80385502690E-05 -6.30794527394E-01 +5.87874307776E-01
1.07500000000E+09 -5.69076113203E-01 +7.71960579603E-01 +8.93148070667E-06 +3.46910552277E-05 +7.79863564364E-05 +3.52811094376E-05 -6.27122200508E-01 +5.91423229809E-01
1.08000000000E+09 -5.65015886854E-01 +7.75298104822E-01 +8.45477741874E-05 -2.60677597327E-06 +2.32707136439E-05 +1.39408538917E-05 -6.23814177144E-01 +5.94933355795E-01
1.08500000000E+09 -5.62092379747E-01 +7.77716479245E-01 +2.99884723136E-05 +3.43772188942E-05 +3.76844592162E-05 +5.10675303338E-05 -6.20887171592E-01 +5.98282682842E-01
1.09000000000E+09 -5.59772061201E-01 +7.79844299415E-01 -2.38601076894E-05 +3.38861661324E-05 +6.17447965229E-05 -2.90879628676E-06 -6.17723275821E-01 +6.01790672388E-01
1.09500000000E+09 -5.57868316013E-01 +7.81596141655E-01 -1.22927966569E-05 +1.22105604854E-05 +8.85648770416E-06 +5.13279658596E-05 -6.14788954867E-01 +6.05471230401E-01
1.10000000000E+09 -5.54819771363E-01 +7.83553051162E-01 +6.82082357022E-06 +3.15050790965E-05 +2.10422949261E-05 +1.80444568920E-05 -6.11603297138E-01 +6.09091187407E-01
1.10500000000E+09 -5.50650829878E-01 +7.86372104893E-01 -1.69160444276E-05 +4.56131704340E-06 +2.93401864769E-05 +1.21851985212E-05 -6.08152947525E-01 +6.12394037191E-01
1.11000000000E+09 -5.45047497371E-01 +7.89565881427E-01 +5.05468266715E-06 +2.63332811445E-05 +1.49566259446E-05 +3.05454682712E-05 -6.04608703897E-01 +6.15541983936E-01
1.11500000000E+09 -5.38250618444E-01 +7.93690618237E-01 +7.20835251066E-06 -1.79982131449E-05 +9.70559284147E-06 -5.03720879472E-05 -6.01271248230E-01 +6.18867796896E-01
1.12000000000E+09 -5.30876540782E-01 +7.97863285708E-01 +3.17827650706E-05 +9.25196777574E-06 +4.56962630363E-05 +1.12316593441E-05 -5.98064269815E-01 +6.22338543369E-01
1.12500000000E+09 -5.23014996006E-01 +8.02085773479E-01 +1.47899094391E-06 +2.43461387679E-06 +4.06703125565E-05 -8.71705491825E-07 -5.94577711679E-01 +6.26221708430E-01
1.13000000000E+09 -5.16114039343E-01 +8.05874297409E-01 +8.49295381360E-05 +2.87185485933E-05 +6.18285072367E-05 +2.67772027797E-07 -5.90925998571E-01 +6.29873203327E-01
1.13500000000E+09 -5.09820818425E-01 +8.08686932312E-01 +5.69797923066E-05 +8.69757547848E-06 -7.58618263973E-06 +2.20141375658E-05 -5.87163850054E-01 +6.33574357751E-01
1.14000000000E+09 -5.04614336882E-01 +8.11223984393E-01 +3.74882309678E-05 -4.82332706481E-06 +6.16830035805E-05 +2.39227097197E-05 -5.83068166569E-01 +6.37124238113E-01
1.14500000000E+09 -5.00510459128E-01 +8.12714184283E-01 +5.09296405908E-05 -1.89551144354E-05 +5.69626989779E-05 +6.10245398781E-06 -5.79069085517E-01 +6.40492212191E-01
1.15000000000E+09 -4.96731892434E-01 +8.13997131431E-01 +5.51810099934E-05 -2.00400802926E-05 +1.06596439509E-04 -3.28620720037E-05 -5.75072576183E-01 +6.44177311425E-01
1.15500000000E+09 -4.93020635656E-01 +8.15722633245E-01 +4.55158575043E-05 -1.61855211652E-06 +3.25581112345E-05 -1.74538951933E-05 -5.71156276465E-01 +6.47860809831E-01
1.16000000000E+09 -4.88537293634E-01 +8.17408189148E-01 +2.31582549861E-05 -3.14051758369E-05 +5.76533181782E-05 -1.04091293966E-04 -5.67138704644E-01 +6.51459066968E-01
1.16500000000E+09 -4.82952004283E-01 +8.20142900118E-01 +5.33144581347E-05 -2.38198269714E-05 +4.66279442389E-05 -2.33627403331E-05 -5.62880051896E-01 +6.54873889339E-01
1.17000000000E+09 -4.76450762386E-01 +8.23635203878E-01 +3.71383414436E-05 -5.23363134067E-06 +7.92119065595E-06 -5.17313024654E-05 -5.58378145149E-01 +6.58110632554E-01
1.17500000000E+09 -4.68950367944E-01 +8.27210869243E-01 +6.78670898196E-05 -7.97581191382E-05 +2.31706088830E-05 -7.91986599152E-05 -5.53552382751E-01 +6.61208600893E-01
1.18000000000E+09 -4.61298539566E-01 +8.31030372213E-01 +5.35812316820E-05 -3.31389645246E-05 +3.65440587207E-05 -1.56110527703E-05 -5.48937745077E-01 +6.64325758831E-01
1.18500000000E+09 -4.53527677358E-01 +8.34729070934E-01 +8.21978987748E-05 -6.02896667853E-06 +6.76582032380E-05 -9.34684703320E-05 -5.43910395015E-01 +6.67240796954E-01
1.19000000000E+09 -4.46453315466E-01 +8.37797876054E-01 +5.86278863219E-05 -3.25154870771E-05 +4.15059840533E-05 -9.04847510700E-05 -5.38615353310E-01 +6.70225047982E-01
1.19500000000E+09 -4.40268800878E-01 +8.40046552568E-01 +8.02075944648E-05 -1.06895018076E-04 +5.46550120921E-05 -1.03851279357E-04 -5.33618472787E-01 +6.71556663118E-01
1.20000000000E+09 -4.35105344161E-01 +8.40795801303E-01 +8.43954886562E-05 -1.16985892507E-04 +7.15424746026E-05 -1.38155324191E-04 -5.29453138383E-01 +6.71982107023E-01
1.20500000000E+09 -4.30281026167E-01 +8.41950711222E-01 -3.90752248918E-05 -1.20350953920E-04 -5.07854262119E-05 -1.39792417611E-04 -5.27465683378E-01 +6.72826069317E-01
1.21000000000E+09 -4.25508398470E-01 +8.42973639119E-01 -9.11907060237E-05 -9.33010836436E-05 -9.95784195333E-05 -6.44955711102E-05 -5.26009480657E-01 +6.75674370628E-01
1.21500000000E+09 -4.19502676725E-01 +8.44505928222E-01 -5.02911805835E-05 -5.49330876778E-05 -1.73766548416E-05 -3.11925532618E-05 -5.23785957073E-01 +6.79935383891E-01
1.22000000000E+09 -4.12185634334E-01 +8.46463008933E-01 +7.14717154634E-06 -5.84051530544E-05 -7.73945147355E-05 -7.47459203984E-05 -5.20311494283E-01 +6.85128219862E-01
1.22500000000E+09 -4.03582113929E-01 +8.49195920903E-01 -8.10083228461E-06 -6.18318247759E-05 +2.47743153486E-05 +8.51527712269E-06 -5.16041798218E-01 +6.89814353113E-01
1.23000000000E+09 -3.94056922309E-01 +8.52490901086E-01 -7.97930332079E-06 -5.78127381482E-05 -9.16798800182E-06 -1.04394482955E-04 -5.11374924043E-01 +6.94412416162E-01
1.23500000000E+09 -3.84407158920E-01 +8.56383158923E-01 -1.09722826158E-05 -6.35750309882E-05 +3.82787043066E-05 -4.45716160480E-05 -5.06456346154E-01 +6.98564788358E-01
1.24000000000E+09 -3.74819821791E-01 +8.60477503113E-01 -3.47814012420E-05 -8.84931412725E-05 -1.06331347065E-05 -8.19347295149E-05 -5.01403401584E-01 +7.02361213698E-01
1.24500000000E+09 -3.66002893570E-01 +8.65018818066E-01 +3.99194215541E-06 -9.43480862753E-05 -3.35840484889E-05 -8.40618511672E-05 -4.96409499351E-01 +7.06017634932E-01
1.25000000000E+09 -3.58280174534E-01 +8.68533660536E-01 -1.19069291486E-05 -7.49306508008E-05 -8.55996086048E-06 -6.90828749200E-05 -4.90847222209E-01 +7.10165198173E-01
1.25500000000E+09 -3.51363544432E-01 +8.71189296981E-01 -5.78834766664E-05 -1.52933867464E-04 -5.34546074929E-05 -9.65902780300E-05 -4.85313645817E-01 +7.14263685534E-01
1.26000000000E+09 -3.45242033235E-01 +8.73039891111E-01 -4.72956899809E-05 -7.55205422637E-05 -6.79908208336E-05 -1.05622278564E-04 -4.79871314405E-01 +7.18590032119E-01
1.26500000000E+09 -3.39406561391E-01 +8.74048848231E-01 -7.11012524201E-05 -7.06204820112E-05 -6.99967234089E-05 -5.86283998615E-05 -4.73902834129E-01 +7.22499252202E-01
1.27000000000E+09 -3.33028755380E-01 +8.74989812216E-01 -6.04731374683E-05 -1.01463247681E-04 -7.28500903835E-05 -1.34230828835E-04 -4.68065084369E-01 +7.26624404546E-01
1.27500000000E+09 -3.25490512533E-01 +8.75961859939E-01 -1.36711501343E-04 -1.20255354198E-04 -9.82190610117E-05 -1.01156464742E-04 -4.62033085121E-01 +7.30218595863E-01
1.28000000000E+09 -3.16312526503E-01 +8.77614387378E-01 -1.52899663337E-04 -8.75674327111E-05 -1.80822554811E-04 -8.33479940361E-05 -4.55882577069E-01 +7.34119716074E-01
1.28500000000E+09 -3.05195597550E-01 +8.79675728100E-01 -1.74663043859E-04 -6.47848860413E-05 -1.23428804411E-04 -8.26909626959E-05 -4.49367231403E-01 +7.38049870674E-01
1.29000000000E+09 -2.93487861258E-01 +8.82377879819E-01 -1.58881100220E-04 -5.62150308331E-05 -2.15062038433E-04 -1.85306335947E-05 -4.42801986939E-01 +7.42146833061E-01
1.29500000000E+09 -2.81491379497E-01 +8.85605902929E-01 -1.47028325959E-04 -3.16718409758E-05 -1.63423568203E-04 +3.02155958292E-05 -4.35933986321E-01 +7.45867950852E-01
1.30000000000E+09 -2.69867432109E-01 +8.89460896126E-01 -1.53668461420E-04 -1.07717268302E-06 -1.33476801170E-04 +2.59999892536E-05 -4.29056678153E-01 +7.49742502193E-01
1.30500000000E+09 -2.59439052758E-01 +8.92961746778E-01 -1.81088581296E-04 -3.01062473605E-05 -1.24344862246E-04 -9.00942653414E-07 -4.22074507837E-01 +7.53495692344E-01
1.31000000000E+09 -2.50474171790E-01 +8.95735872869E-01 -2.12439571641E-04 +1.18395029888E-05 -2.29481751938E-04 +2.20000709954E-06 -4.14739477070E-01 +7.57068954323E-01
1.31500000000E+09 -2.43172816051E-01 +8.97448846427E-01 -2.26033887418E-04 +4.99884224059E-05 -2.33911382816E-04 -2.00942028418E-05 -4.07054974759E-01 +7.60866598464E-01
1.32000000000E+09 -2.36995741965E-01 +8.98088655811E-01 -2.32862582339E-04 +6.27814128986E-05 -2.58290989673E-04 +5.77401598696E-05 -3.99009726534E-01 +7.64598200945E-01
1.32500000000E+09 -2.30872235644E-01 +8.98151825731E-01 -2.11256583449E-04 +9.54042966180E-05 -1.98992867157E-04 +1.09355561987E-04 -3.90660488989E-01 +7.68241499845E-01
1.33000000000E+09 -2.23906656528E-01 +8.97968080117E-01 -2.06636296117E-04 +1.13344840887E-04 -2.06164207211E-04 +1.53458965926E-04 -3.82380653772E-01 +7.71716103908E-01
1.33500000000E+09 -2.14762181223E-01 +8.97504046224E-01 -2.49932776109E-04 +1.10068208455E-04 -2.24263542892E-04 +1.61373155478E-04 -3.73772852333E-01 +7.75353635229E-01
1.34000000000E+09 -2.03288329741E-01 +8.97419366159E-01 -2.63890831743E-04 +1.59001819503E-04 -2.57898794507E-04 +1.28026886326E-04 -3.64825644904E-01 +7.79051329885E-01
1.34500000000E+09 -1.89070640643E-01 +8.97484319783E-01 -2.91111736918E-04 +2.15541937247E-04 -2.30087816046E-04 +1.87807523039E-04 -3.55312385569E-01 +7.82763970368E-01
1.35000000000E+09 -1.73278364353E-01 +8.98112819841E-01 -2.72009665051E-04 +2.04169886522E-04 -1.89458111908E-04 +2.71851788890E-04 -3.45330826772E-01 +7.86564563892E-01
1.35500000000E+09 -1.56317103327E-01 +8.99029412849E-01 -2.11153042284E-04 +2.93808938975E-04 -2.55246229477E-04 +2.84996470159E-04 -3.34935102876E-01 +7.90045327949E-01
1.36000000000E+09 -1.39710367282E-01 +8.99983090468E-01 -2.11971518955E-04 +3.05818108499E-04 -1.89669537984E-04 +3.11782818622E-04 -3.24312270694E-01 +7.93410634311E-01
1.36500000000E+09 -1.24002695986E-01 +9.00889360045E-01 -2.01875953005E-04 +4.03811791513E-04 -2.31647234553E-04 +3.42469449192E-04 -3.13359453095E-01 +7.96505502551E-01
1.37000000000E+09 -1.09994541087E-01 +9.00940031871E-01 -2.04655444314E-04 +4.60705494973E-04 -1.62457075912E-04 +4.19189653638E-04 -3.01876010296E-01 +7.99820606268E-01
1.37500000000E+09 -9.79753749198E-02 +9.00353357905E-01 -8.90799399670E-05 +4.93982037320E-04 -1.06337478459E-04 +4.35111903880E-04 -2.89612830638E-01 +8.02796106261E-01
1.38000000000E+09 -8.69500401909E-02 +8.99222616763E-01 -3.50392769729E-06 +4.76099216245E-04 -1.23861698493E-04 +5.09588674500E-04 -2.76455974665E-01 +8.05790486235E-01
1.38500000000E+09 -7.56389480903E-02 +8.97545618322E-01 +6.39344703718E-06 +4.89994993570E-04 -2.73750099672E-05 +5.88123120424E-04 -2.62552145452E-01 +8.08704835302E-01
1.39000000000E+09 -6.31192456271E-02 +8.94970305553E-01 +1.95799637070E-05 +5.04637674308E-04 +5.03867080153E-05 +5.98349500099E-04 -2.48132694835E-01 +8.11407959785E-01
1.39500000000E+09 -4.83042899708E-02 +8.91837488195E-01 +1.05146232643E-04 +5.45327129499E-04 +1.35779523730E-04 +5.96945009970E-04 -2.33061906066E-01 +8.13503459227E-01
1.40000000000E+09 -3.06737107170E-02 +8.87775744205E-01 +1.30897939515E-05 +6.70326575545E-04 +7.29602257347E-05 +6.54670719537E-04 -2.17173943921E-01 +8.15280065453E-01
1.40500000000E+09 -1.09793217135E-02 +8.83251856208E-01 +1.81325384793E-04 +7.95419983364E-04 +2.55400166417E-04 +7.50995762919E-04 -2.00216424400E-01 +8.16469482072E-01
1.41000000000E+09 +1.07182789972E-02 +8.78116260090E-01 +3.77183908791E-04 +7.62152957970E-04 +3.29820455603E-04 +7.38392550944E-04 -1.81837165954E-01 +8.17522487145E-01
1.41500000000E+09 +3.33984343217E-02 +8.72621366788E-01 +5.82884070247E-04 +7.95977076415E-04 +5.13370809157E-04 +9.04100984341E-04 -1.61920241360E-01 +8.17723467762E-01
1.42000000000E+09 +5.61760320875E-02 +8.66213845569E-01 +7.34425178412E-04 +7.20510512458E-04 +7.41943860842E-04 +7.76172335936E-04 -1.40466616356E-01 +8.17335186639E-01
1.42500000000E+09 +7.79235957343E-02 +8.58700565277E-01 +7.83779745236E-04 +6.28323032550E-04 +8.90883902942E-04 +6.44335262632E-04 -1.18129862732E-01 +8.15923909235E-01
1.43000000000E+09 +9.85874201182E-02 +8.49967959412E-01 +8.04817392135E-04 +6.36039668920E-04 +9.59039517518E-04 +6.07624780523E-04 -9.47543536275E-02 +8.13683743131E-01
1.43500000000E+09 +1.18586983888E-01 +8.39335785422E-01 +1.02059195204E-03 +7.58589503422E-04 +1.15220658344E-03 +7.25532219839E-04 -6.98288666905E-02 +8.09791844979E-01
1.44000000000E+09 +1.39011117432E-01 +8.27129509847E-01 +1.54607708181E-03 +6.74574636228E-04 +1.59741259667E-03 +4.97543847516E-04 -4.29530958330E-02 +8.04204294675E-01
1.44500000000E+09 +1.61295909466E-01 +8.11780559471E-01 +1.80642990065E-03 +1.80498093638E-04 +1.85261075436E-03 +7.84614539473E-05 -1.37103157746E-02 +7.96106512709E-01
1.45000000000E+09 +1.85970019299E-01 +7.92901254512E-01 +1.80687679597E-03 -7.27172030368E-05 +1.82444226333E-03 -2.39939586321E-04 +1.75209915338E-02 +7.85005077003E-01
1.45500000000E+09 +2.13356064871E-01 +7.70197175038E-01 +1.86616670738E-03 -2.73078955340E-04 +1.83823861819E-03 -4.21298471775E-04 +5.04213217877E-02 +7.71260295141E-01
1.46000000000E+09 +2.43394300620E-01 +7.43173387450E-01 +2.06408759481E-03 -5.37467908455E-04 +1.90442515657E-03 -6.80606849659E-04 +8.48440326887E-02 +7.53411970717E-01
1.46500000000E+09 +2.75015751784E-01 +7.11567022848E-01 +2.35132302975E-03 -9.07931682479E-04 +2.13115310469E-03 -9.51951969688E-04 +1.21190089112E-01 +7.31152327363E-01
1.47000000000E+09 +3.07208239623E-01 +6.75568017774E-01 +2.48457223466E-03 -1.58072039117E-03 +2.26290253307E-03 -1.48793220130E-03 +1.58650661842E-01 +7.01784203007E-01
1.47500000000E+09 +3.38443653762E-01 +6.34265138648E-01 +2.40761360196E-03 -2.55367634621E-03 +2.42638842784E-03 -2.32725756642E-03 +1.96953604237E-01 +6.65484267241E-01
1.48000000000E+09 +3.66739312802E-01 +5.86393766517E-01 +1.61698518639E-03 -3.22283350574E-03 +1.78903598880E-03 -3.18958495436E-03 +2.35187430743E-01 +6.20642632053E-01
1.48500000000E+09 +3.89122587770E-01 +5.31958931541E-01 +1.25018438368E-03 -3.57615662239E-03 +1.20691666644E-03 -3.63903090201E-03 +2.71440911178E-01 +5.66602619576E-01
1.49000000000E+09 +4.05048169496E-01 +4.70096932226E-01 +7.36444591951E-04 -4.29582765156E-03 +5.12891673164E-04 -4.39882281500E-03 +3.03182537462E-01 +5.01156573226E-01
1.49500000000E+09 +4.11704909813E-01 +4.00674585917E-01 -5.51769082717E-04 -5.14540694298E-03 -7.16066542758E-04 -4.86248317445E-03 +3.24668436594E-01 +4.25667258309E-01
1.50000000000E+09 +4.09521377069E-01 +3.23186350735E-01 -2.30845813789E-03 -4.83669544754E-03 -2.19495979248E-03 -4.52086219468E-03 +3.35317254380E-01 +3.40651669721E-01
1.50500000000E+09 +3.94159260666E-01 +2.36635189824E-01 -3.04553360214E-03 -4.56946107481E-03 -2.75501106207E-03 -4.43906331136E-03 +3.28541475221E-01 +2.46228383794E-01
1.51000000000E+09 +3.61867617051E-01 +1.45374510812E-01 -4.81160839775E-03 -3.93265973139E-03 -4.56227771648E-03 -4.13011283978E-03 +3.01104491908E-01 +1.47592677153E-01
1.51500000000E+09 +3.10388368938E-01 +5.52472351538E-02 -5.82129744046E-03 -3.05067098826E-03 -5.81882983038E-03 -3.22581085985E-03 +2.50763872268E-01 +5.32902169803E-02
1.52000000000E+09 +2.40003238358E-01 -2.51713204884E-02 -7.84316699034E-03 -1.23877634931E-03 -7.89672630859E-03 -1.27631387148E-03 +1.79914941067E-01 -3.16629759724E-02
1.52500000000E+09 +1.54123035562E-01 -9.01841002399E-02 -7.54308513249E-03 +2.51021029506E-03 -7.61516475309E-03 +2.47760813816E-03 +8.97578918021E-02 -9.75710856151E-02
1.53000000000E+09 +5.53570015538E-02 -1.36138309790E-01 -5.46012521668E-03 +3.87710237918E-03 -5.48969360723E-03 +3.87011278221E-03 -1.07680031527E-02 -1.41496402291E-01
1.53500000000E+09 -5.12176993724E-02 -1.56530275578E-01 -4.33971575967E-03 +5.10672615355E-03 -4.31649536803E-03 +5.16659573117E-03 -1.16296567769E-01 -1.60549480153E-01
1.54000000000E+09 -1.58177089594E-01 -1.51298391709E-01 -2.38418907844E-03 +5.44575697187E-03 -2.42265301947E-03 +5.33363581598E-03 -2.17281381325E-01 -1.57220757832E-01
1.54500000000E+09 -2.59893911122E-01 -1.25647367411E-01 -1.23061320101E-03 +5.69658649987E-03 -1.27924764982E-03 +5.58516118994E-03 -3.07815703412E-01 -1.35748582338E-01
1.55000000000E+09 -3.51336652376E-01 -8.06583966060E-02 +4.24987786508E-04 +5.66695427205E-03 +2.13790911909E-04 +5.68011359749E-03 -3.85580443499E-01 -1.02508647920E-01
1.55500000000E+09 -4.27388429948E-01 -2.58764311537E-02 +2.07462597901E-03 +4.81975406624E-03 +1.91414850165E-03 +4.97052947318E-03 -4.50517982265E-01 -6.00507069069E-02
1.56000000000E+09 -4.90004445919E-01 +3.25776624671E-02 +2.74039836466E-03 +3.35832239258E-03 +2.75140667910E-03 +3.57277487343E-03 -5.02493187867E-01 -1.28269796549E-02
1.56500000000E+09 -5.39770814382E-01 +9.23099680603E-02 +2.75424148511E-03 +2.41654161088E-03 +2.90992359239E-03 +2.63022926917E-03 -5.43311414081E-01 +3.65891845463E-02
1.57000000000E+09 -5.76547771071E-01 +1.50278828681E-01 +3.00185200159E-03 +1.68610743106E-03 +3.19122495850E-03 +1.75203143854E-03 -5.74249247182E-01 +8.52729203147E-02
