# Hz S RI R 50
! CMT, C1220, 16058040, 17.2.0/1
! Date: 14/08/2018 12:37:24
! Data: Format (Calibration Info)
! Freq                      S11: Re/Im (F2)                       S21: Re/Im (F2)                       S12: Re/Im (F2)                       S22: Re/Im (F2)            
1.00000000000E+09 -6.46540570065E-01 +7.14622384069E-01 +5.61061313388E-05 +6.48638274121E-05 -4.59455017939E-05 +2.64555821513E-05 -6.70520477687E-01 +5.37234340852E-01
1.00500000000E+09 -6.39439557420E-01 +7.19848387256E-01 +1.67586356439E-05 +2.13177558580E-06 +2.96308036919E-05 -2.88454903861E-05 -6.67302218534E-01 +5.41021698783E-01
1.01000000000E+09 -6.33490228489E-01 +7.24706967106E-01 -2.87559897968E-05 -1.14116339735E-06 +1.01674072550E-06 -1.85091875286E-05 -6.64422640254E-01 +5.44089604003E-01
1.01500000000E+09 -6.29130890811E-01 +7.28712291406E-01 -2.38514413757E-06 +1.56694007385E-05 -4.45136066230E-05 +1.87996685624E-05 -6.61846781441E-01 +5.47333608562E-01
1.02000000000E+09 -6.26286868763E-01 +7.32027874856E-01 -1.02317936807E-06 -3.47367000375E-05 +1.51594708083E-06 +3.64248822531E-05 -6.59222411751E-01 +5.50448200677E-01
1.02500000000E+09 -6.24269358877E-01 +7.34674284278E-01 -4.63989689490E-05 +1.45707438157E-05 +1.81029151938E-05 +6.30748458821E-05 -6.56950075420E-01 +5.53605864839E-01
1.03000000000E+09 -6.22683692080E-01 +7.36870574614E-01 +3.02814976921E-06 +7.62240352916E-06 +1.61598947809E-05 +2.59247998736E-05 -6.54370092940E-01 +5.57069996491E-01
1.03500000000E+09 -6.20531549336E-01 +7.39118884119E-01 +1.77349745387E-05 +2.14405535830E-05 -3.47662191680E-05 +5.93926765607E-05 -6.51430693165E-01 +5.60816381977E-01
1.04000000000E+09 -6.17090111965E-01 +7.41932898980E-01 -5.06623414377E-05 +1.83784706122E-05 -1.63625194106E-05 +1.35125148813E-05 -6.48456706056E-01 +5.64245506671E-01
1.04500000000E+09 -6.11931025658E-01 +7.45065267724E-01 -8.70070828104E-06 +5.11520466470E-05 -2.81927753621E-05 +2.53333925907E-05 -6.45708564275E-01 +5.67407122686E-01
1.05000000000E+09 -6.05177560793E-01 +7.49346422433E-01 -2.14819499855E-05 +2.33400580862E-05 +5.74293331615E-05 +6.99061648956E-05 -6.42922690024E-01 +5.70626164797E-01
1.05500000000E+09 -5.97189690914E-01 +7.53981140432E-01 +2.82168046175E-05 +2.83562852406E-05 +6.26424092352E-06 +7.13184298034E-05 -6.40294077957E-01 +5.74087171039E-01
1.06000000000E+09 -5.88445333755E-01 +7.59130919940E-01 +3.29331898821E-05 +7.09227719117E-05 +4.38121105992E-05 +3.92895882866E-05 -6.37718587450E-01 +5.77584603245E-01
1.06500000000E+09 -5.80388942620E-01 +7.64244723710E-01 -3.40963692381E-07 +5.41193691209E-05 +1.34193094550E-05 +6.31732088157E-05 -6.34562710956E-01 +5.81107802587E-01
1.07000000000E+09 -5.73010442330E-01 +7.68688510083E-01 +2.18421415216E-05 -3.37883333812E-06 +4.02717681035E-05 +3.81335340871E-05 -6.31261391003E-01 +5.84827395044E-01
1.07500000000E+09 -5.67158336884E-01 +7.72555656793E-01 +7.83086110427E-06 +8.14515537184E-06 -6.25615410478E-06 -6.06174616015E-06 -6.27683888341E-01 +5.88130000219E-01
1.08000000000E+09 -5.63105003442E-01 +7.75726214341E-01 -2.10307476656E-05 -2.19847039333E-05 +1.04546399359E-04 -2.04258959066E-05 -6.24396304224E-01 +5.91652821190E-01
1.08500000000E+09 -5.60363911169E-01 +7.77968026241E-01 +2.71732737338E-05 +2.04706930150E-05 -2.61862516798E-05 +2.63863684168E-05 -6.21269079820E-01 +5.95202055558E-01
1.09000000000E+09 -5.58319237233E-01 +7.79942257171E-01 +4.19058782475E-05 -2.43566638013E-05 -1.81004375989E-05 +2.22384058083E-06 -6.18390699383E-01 +5.98740654487E-01
1.09500000000E+09 -5.56355296248E-01 +7.81556884474E-01 +1.43678385040E-05 +6.47521522652E-06 +5.07172385639E-05 +2.23285894665E-05 -6.15382089468E-01 +6.02480916553E-01
1.10000000000E+09 -5.53356629857E-01 +7.83525555421E-01 -1.98427245239E-06 +1.70022262016E-05 -6.88002464014E-06 -1.57017791365E-06 -6.12131985536E-01 +6.05988448525E-01
1.10500000000E+09 -5.49339629650E-01 +7.86207217829E-01 -6.68076934597E-06 -2.99127188785E-05 +1.07073085576E-05 -2.70273257067E-06 -6.08841881215E-01 +6.09383210805E-01
1.11000000000E+09 -5.43806676022E-01 +7.89698694141E-01 +5.64330349582E-05 +1.31497376703E-05 +1.79196547309E-06 +5.42465380898E-06 -6.05141059986E-01 +6.12544266915E-01
1.11500000000E+09 -5.36744423394E-01 +7.93682541941E-01 +4.45124274810E-05 -6.51455105380E-06 +5.36808533171E-05 +7.23223959852E-06 -6.02080504252E-01 +6.15700507543E-01
1.12000000000E+09 -5.29270575502E-01 +7.98209026654E-01 +5.35348954589E-05 -1.99149318104E-05 +4.86039364727E-05 +4.61635224697E-06 -5.98718179438E-01 +6.19407698199E-01
1.12500000000E+09 -5.21420442838E-01 +8.02507572140E-01 +1.37796437299E-05 +5.31038908830E-05 +4.27917976012E-05 +3.82273580701E-05 -5.95359496376E-01 +6.23232592638E-01
1.13000000000E+09 -5.14429493339E-01 +8.06357531605E-01 +5.34456391823E-05 -2.81511267824E-05 -2.14567981991E-05 +1.69475281021E-05 -5.91864204193E-01 +6.26909538846E-01
1.13500000000E+09 -5.08140433974E-01 +8.09240409435E-01 +3.91349501135E-05 +2.79810065857E-05 +1.38078491984E-05 +2.28412830785E-05 -5.87845029453E-01 +6.30621116128E-01
1.14000000000E+09 -5.02956040550E-01 +8.11654663299E-01 +3.25882889375E-05 -2.62774751689E-05 +5.20200798107E-05 +2.49403187110E-05 -5.83781738911E-01 +6.34078598108E-01
1.14500000000E+09 -4.98943881945E-01 +8.12986138422E-01 +3.07996247804E-05 +2.91618636889E-05 +6.01975399799E-05 -4.01088570789E-05 -5.79841956289E-01 +6.37531849061E-01
1.15000000000E+09 -4.95436813824E-01 +8.14144062242E-01 +2.35672905469E-05 -1.42021120119E-05 +8.92429020674E-05 -3.69206076917E-05 -5.75982691507E-01 +6.41185171863E-01
1.15500000000E+09 -4.91743318349E-01 +8.15666794043E-01 +5.86683420283E-05 -7.46156212871E-05 +6.78265215827E-05 +1.97376593264E-06 -5.71976636013E-01 +6.44816906916E-01
1.16000000000E+09 -4.87279015364E-01 +8.17503878491E-01 +4.93369180181E-05 +9.13273855951E-06 +6.40275098733E-05 -2.86546732553E-05 -5.68009709341E-01 +6.48598432097E-01
1.16500000000E+09 -4.81674798943E-01 +8.20219002098E-01 +3.63470503352E-05 -2.68628621111E-05 +2.09662085865E-05 -7.38596558603E-06 -5.63800665879E-01 +6.51998954352E-01
1.17000000000E+09 -4.74866477369E-01 +8.23438013966E-01 +6.14888742663E-05 -7.57245890424E-05 +5.25254199025E-05 -3.89253221886E-05 -5.59439944377E-01 +6.55139608426E-01
1.17500000000E+09 -4.67195854924E-01 +8.27269144523E-01 +7.59593879583E-05 -1.22625406209E-05 +7.12214606544E-05 -3.42516996523E-05 -5.54552519157E-01 +6.58446339137E-01
1.18000000000E+09 -4.59393961788E-01 +8.31297542448E-01 +8.51787800063E-05 -4.97797076881E-05 +8.69561713258E-05 -7.02847270469E-05 -5.49978456778E-01 +6.61466315073E-01
1.18500000000E+09 -4.51529226143E-01 +8.34957768722E-01 +4.93634604035E-05 -1.41056604583E-05 +5.88972550424E-05 -5.55147143126E-05 -5.45112470274E-01 +6.64632220298E-01
1.19000000000E+09 -4.44396435959E-01 +8.38083033070E-01 +6.79023319308E-05 -9.37180309150E-05 +5.67169387854E-05 -5.50359588030E-05 -5.39732833312E-01 +6.67345579024E-01
1.19500000000E+09 -4.38373231852E-01 +8.40250623838E-01 +1.27143267936E-05 -1.12227046295E-04 +6.36478933566E-05 -8.37292992504E-05 -5.34669664615E-01 +6.68769403424E-01
1.20000000000E+09 -4.33019272929E-01 +8.41142221492E-01 +7.74267649276E-06 -1.49151765896E-04 +5.79902413798E-05 -1.41851557519E-04 -5.30672748920E-01 +6.69273293872E-01
1.20500000000E+09 -4.28572002348E-01 +8.42084018345E-01 +1.26267608472E-06 -1.88670293454E-04 -7.63059061832E-05 -1.29032147485E-04 -5.28594620547E-01 +6.70113799199E-01
1.21000000000E+09 -4.23833082270E-01 +8.42950209177E-01 -9.69839110086E-05 -5.54210418637E-05 -1.16532941334E-04 -7.53218718069E-05 -5.27191993967E-01 +6.72896748050E-01
1.21500000000E+09 -4.17812096823E-01 +8.44351391619E-01 -2.94965092089E-05 -5.49801725384E-05 -4.07673049720E-05 -4.28191778927E-05 -5.24827717451E-01 +6.77264099982E-01
1.22000000000E+09 -4.10450998917E-01 +8.46228147326E-01 +7.35203549938E-06 -9.46460279380E-05 +3.02045816803E-05 -9.83407312529E-06 -5.21476801177E-01 +6.82272957856E-01
1.22500000000E+09 -4.01754789485E-01 +8.48834637336E-01 -1.47485508202E-05 -3.40382717920E-05 +1.86917010676E-06 -1.07386026101E-04 -5.17286415248E-01 +6.87253910719E-01
1.23000000000E+09 -3.91806284145E-01 +8.52194518170E-01 -1.80346796094E-05 -8.46396684296E-05 -1.71532604899E-05 -8.22968048420E-05 -5.12716944694E-01 +6.91641962144E-01
1.23500000000E+09 -3.81933735527E-01 +8.56146792544E-01 -5.91167561066E-05 -5.22917263985E-05 -1.84458912805E-05 -1.10672233249E-04 -5.07776700902E-01 +6.95921937677E-01
1.24000000000E+09 -3.72024306209E-01 +8.60353026411E-01 -3.14920607774E-05 -1.01555657758E-04 -5.50661784232E-05 -7.54345088066E-05 -5.02870836172E-01 +6.99617205731E-01
1.24500000000E+09 -3.63269304723E-01 +8.64774037113E-01 -4.62249185077E-05 -4.68893805462E-05 -4.70075046803E-05 -6.37361973053E-05 -4.97733246316E-01 +7.03464328830E-01
1.25000000000E+09 -3.55263270904E-01 +8.68483011139E-01 -4.29906815603E-05 -1.28413342833E-04 -3.29849645020E-05 -1.20895338726E-04 -4.92377052021E-01 +7.07629699378E-01
1.25500000000E+09 -3.48524169659E-01 +8.71009510686E-01 -5.00678194360E-05 -1.05489711870E-04 -7.29297700423E-05 -9.62803255396E-05 -4.86773280158E-01 +7.11603038956E-01
1.26000000000E+09 -3.42689456125E-01 +8.72752433083E-01 -5.60039672765E-05 -1.16427484357E-04 -8.88519072837E-05 -8.93422066735E-05 -4.81272559307E-01 +7.16113310859E-01
1.26500000000E+09 -3.37236627327E-01 +8.73692053628E-01 -8.66018621219E-05 -1.02695555503E-04 -9.05321468960E-05 -1.62145448306E-04 -4.75428372819E-01 +7.20078526302E-01
1.27000000000E+09 -3.31177398937E-01 +8.74695469439E-01 -9.31411447240E-05 -1.01925438263E-04 -1.06361179154E-04 -1.11947002224E-04 -4.69607716511E-01 +7.24032537498E-01
1.27500000000E+09 -3.23830852322E-01 +8.75698231253E-01 -1.30464174971E-04 -1.19543856199E-04 -1.69597566162E-04 -7.88069587873E-05 -4.63482453471E-01 +7.27932760750E-01
1.28000000000E+09 -3.14751720127E-01 +8.77122219078E-01 -1.56970214223E-04 -7.50236128578E-05 -1.47412820866E-04 -6.61152737491E-05 -4.57418262487E-01 +7.31801741901E-01
1.28500000000E+09 -3.03699668281E-01 +8.79319127932E-01 -1.90958002814E-04 -6.34978316942E-05 -1.56077157943E-04 -7.01445541934E-05 -4.50860286623E-01 +7.35916555442E-01
1.29000000000E+09 -2.91765862510E-01 +8.82020708197E-01 -1.55361530620E-04 -2.91139404132E-05 -1.85217864342E-04 -5.05212684682E-05 -4.44372734823E-01 +7.39760686839E-01
1.29500000000E+09 -2.79602789273E-01 +8.85549616014E-01 -1.61643503885E-04 -4.50816787395E-05 -2.25796598099E-04 +1.32975599190E-06 -4.37523074262E-01 +7.43639381125E-01
1.30000000000E+09 -2.67661559994E-01 +8.89453429259E-01 -1.67940542864E-04 -2.37674267613E-05 -1.77980781199E-04 +4.34248923076E-05 -4.30691494427E-01 +7.47531698150E-01
1.30500000000E+09 -2.57050850354E-01 +8.93057494943E-01 -1.99564512782E-04 -5.22921470354E-06 -2.06084687349E-04 -2.69354716738E-05 -4.23684148494E-01 +7.51272593733E-01
1.31000000000E+09 -2.47859023450E-01 +8.95544516938E-01 -2.42677278558E-04 -2.13514924967E-05 -2.00261097162E-04 +1.78199062439E-05 -4.16360640231E-01 +7.54944827570E-01
1.31500000000E+09 -2.40498810123E-01 +8.97160248598E-01 -2.99826793585E-04 +4.60291231314E-05 -2.41531417213E-04 -1.21942577193E-06 -4.08807388097E-01 +7.58785939989E-01
1.32000000000E+09 -2.34455673036E-01 +8.97726978757E-01 -2.17192022057E-04 +5.08654940170E-05 -2.53429267844E-04 +1.03939622489E-04 -4.00648315938E-01 +7.62330780690E-01
1.32500000000E+09 -2.28639061813E-01 +8.97482636817E-01 -2.41890532782E-04 +1.02952692856E-04 -2.61066509045E-04 +1.40130886786E-04 -3.92544779649E-01 +7.66163804640E-01
1.33000000000E+09 -2.21660506440E-01 +8.96950864094E-01 -2.07139448894E-04 +1.05479394229E-04 -2.31612323484E-04 +1.53024113377E-04 -3.84198328219E-01 +7.69836129155E-01
1.33500000000E+09 -2.12635778427E-01 +8.96281117184E-01 -2.28514930697E-04 +1.33566546551E-04 -2.62876433530E-04 +1.68514708696E-04 -3.75585127879E-01 +7.73360299555E-01
1.34000000000E+09 -2.01067306052E-01 +8.96138830008E-01 -2.25145044545E-04 +1.74258438185E-04 -2.59415725315E-04 +2.25241865761E-04 -3.66588933552E-01 +7.77185484001E-01
1.34500000000E+09 -1.86868578483E-01 +8.96112736514E-01 -2.46825511630E-04 +2.71039994752E-04 -2.66450750874E-04 +2.06031530373E-04 -3.57081931237E-01 +7.81060356085E-01
1.35000000000E+09 -1.70862326912E-01 +8.96600712018E-01 -2.79175343384E-04 +2.43318649268E-04 -2.29990730567E-04 +2.11176997789E-04 -3.47236955451E-01 +7.84794637311E-01
1.35500000000E+09 -1.53841567138E-01 +8.97719989820E-01 -2.05175192748E-04 +2.81173858944E-04 -2.51940501489E-04 +2.89630153231E-04 -3.36784230479E-01 +7.88335017479E-01
1.36000000000E+09 -1.37156526834E-01 +8.98817656340E-01 -1.85532021715E-04 +3.55540329950E-04 -2.27884868769E-04 +2.97285749741E-04 -3.26019274235E-01 +7.91873904532E-01
1.36500000000E+09 -1.21350616202E-01 +8.99754226499E-01 -2.34649345294E-04 +4.11684442459E-04 -2.11974526579E-04 +4.17354235268E-04 -3.15275066568E-01 +7.95052699420E-01
1.37000000000E+09 -1.07395282514E-01 +8.99848183543E-01 -1.21755131354E-04 +4.95450687262E-04 -1.76012361825E-04 +4.32248196883E-04 -3.03779491186E-01 +7.98340854162E-01
1.37500000000E+09 -9.55434436517E-02 +8.99326876324E-01 -8.59361421525E-05 +4.98062055004E-04 -1.70113969406E-04 +4.88409179258E-04 -2.91432436148E-01 +8.01423791452E-01
1.38000000000E+09 -8.47418842645E-02 +8.98276604280E-01 -5.96145182933E-05 +5.23481733645E-04 -1.08102213925E-04 +5.09417343730E-04 -2.78415535644E-01 +8.04496303691E-01
1.38500000000E+09 -7.36204360075E-02 +8.96300027120E-01 -1.58223403906E-07 +5.11415645045E-04 -5.36762984822E-05 +5.85388544717E-04 -2.64376233259E-01 +8.07442840265E-01
1.39000000000E+09 -6.14799685176E-02 +8.93666975505E-01 +2.26336031185E-06 +5.66508202012E-04 +1.16336589633E-05 +6.62907292739E-04 -2.49988554512E-01 +8.10247173046E-01
1.39500000000E+09 -4.67286325211E-02 +8.90278748495E-01 +5.36462459116E-05 +6.31436950581E-04 +1.15681961375E-04 +7.30593260407E-04 -2.34782389583E-01 +8.12442125743E-01
1.40000000000E+09 -2.90856454609E-02 +8.86249628661E-01 +1.01959960919E-04 +7.49664259819E-04 +1.11838520059E-04 +7.60190538621E-04 -2.18779186665E-01 +8.14254127130E-01
1.40500000000E+09 -9.16817429012E-03 +8.81712612156E-01 +2.67126376765E-04 +8.39198386524E-04 +3.09780845762E-04 +7.98184256989E-04 -2.01814355123E-01 +8.15697296716E-01
1.41000000000E+09 +1.27435999454E-02 +8.76648641265E-01 +4.12017163558E-04 +8.58274220404E-04 +3.99259023993E-04 +8.76938740691E-04 -1.83289482259E-01 +8.16646443947E-01
1.41500000000E+09 +3.55801437540E-02 +8.71021451910E-01 +5.90925162089E-04 +8.52417672256E-04 +5.60270830170E-04 +8.77212024337E-04 -1.63309248397E-01 +8.17055440062E-01
1.42000000000E+09 +5.84507968040E-02 +8.64608919167E-01 +7.56573679606E-04 +8.27048491691E-04 +7.66368730259E-04 +8.76007315332E-04 -1.41807413275E-01 +8.16713739125E-01
1.42500000000E+09 +8.01426292577E-02 +8.57224963525E-01 +8.21219973596E-04 +8.09600358677E-04 +9.85898848974E-04 +8.17558949734E-04 -1.19165561731E-01 +8.15521942935E-01
1.43000000000E+09 +1.00577161227E-01 +8.48406174977E-01 +9.58902600323E-04 +7.43664681088E-04 +1.12259183552E-03 +7.82980466006E-04 -9.58351465389E-02 +8.13147806923E-01
1.43500000000E+09 +1.20379692820E-01 +8.37949410243E-01 +1.20953029368E-03 +9.14524809224E-04 +1.35860932528E-03 +8.06624760911E-04 -7.05716453996E-02 +8.09290971624E-01
1.44000000000E+09 +1.40316399283E-01 +8.25522750137E-01 +1.77040632034E-03 +7.12174780156E-04 +1.83181260747E-03 +6.00969169066E-04 -4.34305450201E-02 +8.03715732645E-01
1.44500000000E+09 +1.62180096626E-01 +8.10236122519E-01 +1.98491757001E-03 +2.24762960457E-04 +2.05569499535E-03 +1.06107292296E-04 -1.39290386882E-02 +7.95580248426E-01
1.45000000000E+09 +1.86346559990E-01 +7.91204594308E-01 +1.99111270385E-03 -4.59419130276E-05 +2.03365943956E-03 -2.02975981459E-04 +1.73696319580E-02 +7.84460920791E-01
1.45500000000E+09 +2.13354355478E-01 +7.68307373024E-01 +2.12239407237E-03 -2.37632769233E-04 +2.06551025098E-03 -4.23118608088E-04 +5.06123103147E-02 +7.70554363224E-01
1.46000000000E+09 +2.43222464522E-01 +7.41158405883E-01 +2.40595339814E-03 -5.23424206112E-04 +2.25483601639E-03 -6.93828023993E-04 +8.54363404601E-02 +7.52405127222E-01
1.46500000000E+09 +2.74700939379E-01 +7.09540695803E-01 +2.82623289145E-03 -9.91721851493E-04 +2.51730478209E-03 -1.09288779145E-03 +1.22015275145E-01 +7.29794506160E-01
1.47000000000E+09 +3.06790446498E-01 +6.73718577021E-01 +2.97466532271E-03 -1.86698494693E-03 +2.76979072399E-03 -1.70913195825E-03 +1.59817592666E-01 +6.99911941920E-01
1.47500000000E+09 +3.38313798401E-01 +6.32671856694E-01 +2.80101998376E-03 -3.07368669464E-03 +2.79089210782E-03 -2.86537692457E-03 +1.98148080980E-01 +6.62905931181E-01
1.48000000000E+09 +3.66522758225E-01 +5.85294529026E-01 +1.87111022731E-03 -3.82913219835E-03 +2.02838983112E-03 -3.78641439732E-03 +2.36141848452E-01 +6.17400691385E-01
1.48500000000E+09 +3.88924772285E-01 +5.31497355884E-01 +1.40583344073E-03 -4.22564860898E-03 +1.37409947637E-03 -4.32001809245E-03 +2.72185664044E-01 +5.62746559675E-01
1.49000000000E+09 +4.04970359217E-01 +4.70257154437E-01 +7.33117711602E-04 -5.00233566385E-03 +5.09139439464E-04 -5.01074958048E-03 +3.03310461782E-01 +4.96576913211E-01
1.49500000000E+09 +4.11635146586E-01 +4.01717961071E-01 -5.75781342114E-04 -5.97985367050E-03 -7.83379106242E-04 -5.69126625118E-03 +3.23898764443E-01 +4.20232239299E-01
1.50000000000E+09 +4.09654760172E-01 +3.25137201266E-01 -2.58593027348E-03 -5.74955977785E-03 -2.43997921143E-03 -5.39507443838E-03 +3.33120554272E-01 +3.34985504567E-01
1.50500000000E+09 +3.94994757411E-01 +2.38889027813E-01 -3.77858228283E-03 -5.46429863693E-03 -3.41714294987E-03 -5.37615636843E-03 +3.24917942503E-01 +2.40815806949E-01
1.51000000000E+09 +3.63282239933E-01 +1.47688988627E-01 -5.76952104994E-03 -4.68091431328E-03 -5.55918059556E-03 -4.90751459592E-03 +2.95837500547E-01 +1.42755327222E-01
1.51500000000E+09 +3.12430426003E-01 +5.72922365885E-02 -7.22476612522E-03 -3.50587750117E-03 -7.23475833954E-03 -3.71356239779E-03 +2.44047451192E-01 +5.02236281901E-02
1.52000000000E+09 +2.42867114199E-01 -2.37170031157E-02 -9.29447799493E-03 -9.19629508562E-04 -9.42751610837E-03 -1.06609633738E-03 +1.73084257578E-01 -3.25901215694E-02
1.52500000000E+09 +1.57462433840E-01 -9.00784579457E-02 -8.57456532810E-03 +3.17459557659E-03 -8.66091203631E-03 +3.10051989422E-03 +8.34088658627E-02 -9.67172885687E-02
1.53000000000E+09 +5.82294136518E-02 -1.36416915713E-01 -6.41650773301E-03 +4.64781090416E-03 -6.48869726939E-03 +4.62884477788E-03 -1.61564868207E-02 -1.38911904520E-01
1.53500000000E+09 -4.80401903851E-02 -1.56382683515E-01 -5.14957444940E-03 +6.23039339852E-03 -5.14242337764E-03 +6.20718440292E-03 -1.20052627966E-01 -1.57070495944E-01
1.54000000000E+09 -1.54187468350E-01 -1.51872690758E-01 -2.72068371992E-03 +6.70620169322E-03 -2.72074800340E-03 +6.58075664572E-03 -2.19465383676E-01 -1.53365923856E-01
1.54500000000E+09 -2.56233649324E-01 -1.26579827983E-01 -1.11389452071E-03 +6.87226415472E-03 -1.25089347799E-03 +6.81839989870E-03 -3.08249640712E-01 -1.31939252296E-01
1.55000000000E+09 -3.48099163422E-01 -8.20794578889E-02 +7.86647338449E-04 +6.62980930561E-03 +5.56665146402E-04 +6.69235826499E-03 -3.84944034810E-01 -9.96328231303E-02
1.55500000000E+09 -4.25035341865E-01 -2.68959268379E-02 +2.66546250313E-03 +5.53680900395E-03 +2.43647647006E-03 +5.76836649737E-03 -4.49207121198E-01 -5.78397086917E-02
1.56000000000E+09 -4.87981557274E-01 +3.16535495386E-02 +3.41434579435E-03 +3.83407033058E-03 +3.40643284405E-03 +4.12131541859E-03 -5.00737495930E-01 -1.13057066163E-02
1.56500000000E+09 -5.38209018910E-01 +9.15338261714E-02 +3.38701288431E-03 +2.66686659109E-03 +3.53919153110E-03 +2.92194701256E-03 -5.41008938868E-01 +3.73651709283E-02
1.57000000000E+09 -5.75119452554E-01 +1.49595009251E-01 +3.54679498351E-03 +1.89303036801E-03 +3.77583932852E-03 +1.98203153113E-03 -5.71763928109E-01 +8.51828567961E-02
