# Hz S RI R 50
! CMT, C1220, 16058040, 17.2.0/1
! Date: 14/08/2018 12:40:32
! Data: Format (Calibration Info)
! Freq                      S11: Re/Im (F2)                       S21: Re/Im (F2)                       S12: Re/Im (F2)                       S22: Re/Im (F2)            
1.00000000000E+09 -6.46854418450E-01 +7.13892184278E-01 -1.45513599410E-05 -3.10021609630E-05 +1.42473633622E-05 +5.24080792373E-06 -6.70471855696E-01 +5.40767725902E-01
1.00500000000E+09 -6.40006129407E-01 +7.18965614119E-01 +1.30710917807E-05 +9.78927121005E-06 -3.43147767375E-05 +4.32679226740E-05 -6.67330881443E-01 +5.44531526548E-01
1.01000000000E+09 -6.33952433892E-01 +7.23291484268E-01 +8.45758771439E-06 -6.81772512385E-06 +1.41960104512E-05 +8.33081350520E-07 -6.64522123768E-01 +5.47506990602E-01
1.01500000000E+09 -6.29230119914E-01 +7.27278849206E-01 -4.69159783989E-05 +3.18604874237E-05 +1.55707720280E-05 +5.21361500319E-06 -6.61765454735E-01 +5.50845617148E-01
1.02000000000E+09 -6.25616592982E-01 +7.30704874162E-01 +1.97824973499E-05 -2.14126537393E-07 +2.49079189015E-05 -4.47292829085E-05 -6.59071551700E-01 +5.53908432963E-01
1.02500000000E+09 -6.23194934957E-01 +7.33626281459E-01 -1.86988190334E-05 +4.95208884184E-05 -3.13978645050E-05 +7.53915402928E-06 -6.56919343926E-01 +5.57184074567E-01
1.03000000000E+09 -6.21052092960E-01 +7.36289759292E-01 -8.63179716266E-06 -7.45096048772E-06 -2.35455504522E-05 -1.48764334229E-05 -6.54231358166E-01 +5.60459549977E-01
1.03500000000E+09 -6.18362490605E-01 +7.38972717922E-01 -3.57859751099E-05 +6.42641730260E-05 -3.38443367278E-05 +2.16907146389E-05 -6.51131224424E-01 +5.64369052462E-01
1.04000000000E+09 -6.14707025166E-01 +7.41954458641E-01 +1.70768142852E-05 +5.08730511635E-05 -3.24159429085E-05 +3.59607352218E-05 -6.48176467916E-01 +5.67527923355E-01
1.04500000000E+09 -6.09626543930E-01 +7.45297044773E-01 -3.81191301788E-05 +4.19891556980E-05 +5.46838492166E-06 +1.51130052249E-05 -6.45319008977E-01 +5.70947557352E-01
1.05000000000E+09 -6.03284884832E-01 +7.49182920314E-01 -5.89054118442E-06 +2.08125608928E-05 -7.22162274270E-06 +5.43067447810E-05 -6.42531419441E-01 +5.74257852652E-01
1.05500000000E+09 -5.95761850127E-01 +7.53576477211E-01 +3.73591514635E-06 +7.63478175472E-05 +1.46093929542E-05 +3.03350103048E-05 -6.39948733263E-01 +5.77575367387E-01
1.06000000000E+09 -5.87768792074E-01 +7.58187661151E-01 +3.18944164269E-05 -2.07498754405E-05 -4.41828677578E-05 +3.82285271519E-05 -6.37270032471E-01 +5.80980176729E-01
1.06500000000E+09 -5.79676082951E-01 +7.63092063470E-01 -2.27958476439E-05 -1.43065930893E-05 +6.28899439905E-05 +1.37525161498E-05 -6.34122871927E-01 +5.84562732627E-01
1.07000000000E+09 -5.72693581887E-01 +7.67134450203E-01 +2.85318298218E-05 +8.88030729336E-06 +7.73679445669E-05 +4.48212456525E-06 -6.30672300815E-01 +5.88205567148E-01
1.07500000000E+09 -5.66695414576E-01 +7.71127686132E-01 +3.69776960695E-05 -1.62205418903E-05 -9.97722841499E-08 -1.59172951926E-05 -6.27099435963E-01 +5.91599615138E-01
1.08000000000E+09 -5.62360997111E-01 +7.74433565491E-01 +3.35866334435E-05 +2.94433831117E-05 +5.17051785084E-05 -1.30789158607E-05 -6.23882768594E-01 +5.95121905223E-01
1.08500000000E+09 -5.59050261196E-01 +7.77137717268E-01 +2.24025332143E-05 -2.27043325460E-05 +1.59841491575E-05 +5.04868846257E-05 -6.20819812726E-01 +5.98530199070E-01
1.09000000000E+09 -5.56372746953E-01 +7.79335653269E-01 +3.84235040676E-05 +4.55556221355E-05 +9.89649596227E-06 -3.07886261985E-05 -6.17686143212E-01 +6.02106290346E-01
1.09500000000E+09 -5.54120962175E-01 +7.81445434911E-01 +4.42445649624E-05 +1.97046578039E-05 +2.73884969554E-05 -1.40982639155E-05 -6.14608352353E-01 +6.05709282784E-01
1.10000000000E+09 -5.50868374429E-01 +7.83623413025E-01 +3.82576214246E-05 +1.00612741265E-05 +2.68200293675E-05 +4.39385998485E-05 -6.11480266578E-01 +6.09248000108E-01
1.10500000000E+09 -5.46781233659E-01 +7.86511261007E-01 +2.80284983025E-05 -2.76637817263E-05 -2.11293388389E-06 +1.13629501960E-05 -6.07995714249E-01 +6.12659378313E-01
1.11000000000E+09 -5.41376501273E-01 +7.89638385529E-01 +5.17931639457E-06 +2.62663114743E-05 -1.62443488158E-05 -2.40701709690E-05 -6.04551389613E-01 +6.15769537910E-01
1.11500000000E+09 -5.34601905856E-01 +7.93423597174E-01 +1.45131613758E-05 -1.12428749509E-05 +4.87044718456E-05 +3.83134898270E-05 -6.01273402444E-01 +6.19075043384E-01
1.12000000000E+09 -5.27440338330E-01 +7.97257727935E-01 -2.13559594381E-05 +6.43266137420E-05 +7.68012898905E-06 +6.03395504875E-05 -5.98021230256E-01 +6.22589342742E-01
1.12500000000E+09 -5.19919976293E-01 +8.01089595097E-01 +8.11267266265E-06 -2.34651207873E-05 +4.12205876940E-05 -8.26070634113E-06 -5.94651046651E-01 +6.26357023188E-01
1.13000000000E+09 -5.12867906775E-01 +8.04768796692E-01 +3.93454688245E-05 +1.78499831970E-05 +3.22085026321E-05 -2.47489720409E-05 -5.91028518926E-01 +6.30253471638E-01
1.13500000000E+09 -5.06452358783E-01 +8.07513176958E-01 +5.13675774357E-05 +5.55354822631E-05 +4.84342736859E-05 -1.06644475124E-05 -5.87030753361E-01 +6.33838844317E-01
1.14000000000E+09 -5.00981804878E-01 +8.09878385526E-01 +5.35755384821E-05 +2.06652601025E-05 +3.45297590406E-05 -4.90229138331E-05 -5.82960805183E-01 +6.37273260163E-01
1.14500000000E+09 -4.96536753934E-01 +8.11543602097E-01 +1.57912327064E-05 -3.24110053850E-07 -2.22470324018E-06 +2.74254299494E-05 -5.79006651963E-01 +6.40655089394E-01
1.15000000000E+09 -4.92554799821E-01 +8.13115987297E-01 +5.12298401601E-05 -7.08829779403E-06 -4.78016378244E-06 +2.61283632046E-05 -5.75145498756E-01 +6.44344519695E-01
1.15500000000E+09 -4.88507181518E-01 +8.14892100266E-01 +3.94781431331E-05 +2.81604011483E-06 +6.00594080661E-05 +9.50851947190E-06 -5.71068152975E-01 +6.48146485177E-01
1.16000000000E+09 -4.83797749363E-01 +8.16719064264E-01 +7.53487405397E-05 -2.61378029681E-05 +3.57648155821E-05 -1.88995947491E-05 -5.67086673989E-01 +6.51631036676E-01
1.16500000000E+09 -4.78157633786E-01 +8.19497504122E-01 +2.87761303633E-05 -3.36935066373E-06 +4.12742165738E-05 -3.05567661266E-05 -5.62886774635E-01 +6.55081985876E-01
1.17000000000E+09 -4.71734189364E-01 +8.22710732313E-01 +6.78493393720E-05 -3.53060134797E-05 +8.65735386190E-05 -5.15544666758E-05 -5.58293976385E-01 +6.58296646925E-01
1.17500000000E+09 -4.64405112867E-01 +8.26000096540E-01 +8.41926260357E-05 -4.38600127848E-05 +6.68670384538E-05 -1.18445719262E-05 -5.53587709515E-01 +6.61390457798E-01
1.18000000000E+09 -4.56997389248E-01 +8.29710568950E-01 +7.56781686317E-05 -3.08537141929E-05 +1.25345355523E-05 -3.81728996869E-05 -5.48975410440E-01 +6.64546788000E-01
1.18500000000E+09 -4.49463301394E-01 +8.33055170060E-01 +5.93043006873E-05 -6.82730842767E-05 +2.20187043535E-05 -8.93539208047E-05 -5.43938978698E-01 +6.67646392801E-01
1.19000000000E+09 -4.42366524240E-01 +8.35747415359E-01 +3.20257493818E-05 -5.15501402810E-05 +3.19890840924E-05 -6.10872404494E-05 -5.38628298856E-01 +6.70324279718E-01
1.19500000000E+09 -4.36086854342E-01 +8.37886843831E-01 +9.80237422963E-05 -1.25498886625E-04 +5.44248236590E-05 -9.20825498718E-05 -5.33378291360E-01 +6.71758896959E-01
1.20000000000E+09 -4.30582042658E-01 +8.38757836438E-01 +9.35996869278E-06 -1.53831728943E-04 +5.08295548501E-06 -1.47975218158E-04 -5.29401179492E-01 +6.72221958769E-01
1.20500000000E+09 -4.25580891802E-01 +8.39870666073E-01 -5.01619286656E-05 -1.22168725257E-04 -1.16710480739E-04 -1.01322303175E-04 -5.27416273250E-01 +6.73007359511E-01
1.21000000000E+09 -4.20294833529E-01 +8.41061913959E-01 -8.01161826242E-05 -6.32775389515E-05 -7.68298374911E-05 -7.55235596226E-05 -5.25854670467E-01 +6.75854376695E-01
1.21500000000E+09 -4.14069246646E-01 +8.42638692842E-01 -3.40154088083E-05 -1.94358391382E-05 -4.39321955479E-05 -8.26521461215E-06 -5.23624978622E-01 +6.80227425214E-01
1.22000000000E+09 -4.06759236431E-01 +8.44675307866E-01 -2.60227387781E-05 +2.69525261944E-06 +5.81615734951E-05 -6.87606248750E-05 -5.20193113321E-01 +6.85281418301E-01
1.22500000000E+09 -3.98084913933E-01 +8.47330129452E-01 +4.55501746755E-06 -6.35466011078E-05 -2.17944682371E-05 -3.43360185545E-05 -5.15997594604E-01 +6.90005863370E-01
1.23000000000E+09 -3.88789299371E-01 +8.50478853279E-01 +3.86557573310E-05 -7.03163225116E-05 -3.11619551157E-05 -6.62800913305E-05 -5.11359823003E-01 +6.94618446874E-01
1.23500000000E+09 -3.79455333171E-01 +8.54172479085E-01 +7.53341071427E-06 -6.83796750460E-05 -4.97589786661E-05 -4.16086161083E-05 -5.06465067274E-01 +6.98857627748E-01
1.24000000000E+09 -3.70166010073E-01 +8.57995305805E-01 +3.12427707313E-05 -7.03567947636E-05 -1.62140148512E-06 -4.50722846083E-05 -5.01457971196E-01 +7.02385293463E-01
1.24500000000E+09 -3.61665770565E-01 +8.62132960891E-01 -1.18295589974E-06 -7.73841111380E-05 -2.41841924889E-05 -7.40088151130E-05 -4.96292031489E-01 +7.06248070281E-01
1.25000000000E+09 -3.53783062239E-01 +8.65628397573E-01 -4.67672304927E-05 -7.72131596091E-05 -4.22305076078E-05 -7.28786778993E-05 -4.90897081305E-01 +7.10328561813E-01
1.25500000000E+09 -3.46798739417E-01 +8.67999430193E-01 -9.65714217785E-06 -9.42569656785E-05 -5.84691082459E-05 -1.18669140606E-04 -4.85056643573E-01 +7.14451988230E-01
1.26000000000E+09 -3.40315802634E-01 +8.69767151185E-01 -7.04152206581E-05 -7.87936105864E-05 -4.32681786931E-05 -9.02203363620E-05 -4.79641320575E-01 +7.18747259814E-01
1.26500000000E+09 -3.33969965008E-01 +8.70749915141E-01 -6.47007304238E-05 -1.17423111825E-04 -4.32871986489E-05 -8.48635078567E-05 -4.73863573864E-01 +7.22817537820E-01
1.27000000000E+09 -3.27384371078E-01 +8.71675043235E-01 -7.58089554732E-05 -9.68717628776E-05 -1.11363484728E-04 -1.09026292441E-04 -4.67975064766E-01 +7.26760899751E-01
1.27500000000E+09 -3.19503713855E-01 +8.72577252440E-01 -1.61451092229E-04 -1.00339557153E-04 -7.31074813253E-05 -1.02769714944E-04 -4.61900857207E-01 +7.30603022522E-01
1.28000000000E+09 -3.10186562340E-01 +8.73987352741E-01 -1.35877325612E-04 -6.01727799213E-05 -1.02162170972E-04 -9.15763875047E-05 -4.55816041810E-01 +7.34344494623E-01
1.28500000000E+09 -2.99385454997E-01 +8.75871370376E-01 -1.76455729101E-04 -6.91191278298E-05 -1.37947956997E-04 -5.22057436973E-05 -4.49247408137E-01 +7.38267673420E-01
1.29000000000E+09 -2.87985669565E-01 +8.78461069200E-01 -1.51841603477E-04 -3.05413862487E-05 -1.99438600090E-04 -3.76657938516E-05 -4.42587005560E-01 +7.42273481238E-01
1.29500000000E+09 -2.76361546130E-01 +8.81539549667E-01 -1.44702012419E-04 -4.36062411975E-05 -2.02462198748E-04 +9.58924933424E-06 -4.35866085570E-01 +7.46097188554E-01
1.30000000000E+09 -2.65103088754E-01 +8.85229348010E-01 -1.54302967509E-04 -3.50774966948E-05 -1.22371630095E-04 +3.65993566305E-05 -4.28982972187E-01 +7.49846416706E-01
1.30500000000E+09 -2.54777608642E-01 +8.88619048444E-01 -1.89528869141E-04 -8.03558549912E-06 -1.23238311811E-04 -1.82736121444E-05 -4.21912169617E-01 +7.53558229198E-01
1.31000000000E+09 -2.45696032533E-01 +8.91200295258E-01 -1.87881704364E-04 -7.16444040965E-06 -1.82995526130E-04 -3.37444769921E-06 -4.14692742359E-01 +7.57329881538E-01
1.31500000000E+09 -2.38195169723E-01 +8.92809361445E-01 -2.02862475981E-04 +5.62449688720E-06 -2.27861409310E-04 +2.13333474350E-05 -4.06966112921E-01 +7.61114993595E-01
1.32000000000E+09 -2.31569062710E-01 +8.93540435911E-01 -2.42529088464E-04 -5.91033715566E-06 -1.91312926647E-04 +7.31958490663E-05 -3.98849133005E-01 +7.64757040301E-01
1.32500000000E+09 -2.25202865223E-01 +8.93586063363E-01 -2.15659056807E-04 +5.69910997323E-05 -2.39894799586E-04 +1.06501147676E-04 -3.90718361447E-01 +7.68401050100E-01
1.33000000000E+09 -2.17876454373E-01 +8.93358852897E-01 -2.24367552709E-04 +1.45975050056E-04 -2.02774434318E-04 +1.65781488143E-04 -3.82312952356E-01 +7.71925653015E-01
1.33500000000E+09 -2.08709054617E-01 +8.92740625392E-01 -2.30375894073E-04 +1.41267950982E-04 -2.00925591243E-04 +1.64677497141E-04 -3.73672839342E-01 +7.75505010965E-01
1.34000000000E+09 -1.97430011167E-01 +8.92629900014E-01 -2.50279555039E-04 +1.20796768641E-04 -2.25893863825E-04 +1.53442616801E-04 -3.64789823906E-01 +7.79165769835E-01
1.34500000000E+09 -1.83764626720E-01 +8.92583174089E-01 -2.25774502763E-04 +2.24789627473E-04 -2.15628275942E-04 +2.07737161076E-04 -3.55225997361E-01 +7.82872098756E-01
1.35000000000E+09 -1.68491459184E-01 +8.93060499020E-01 -2.48290511529E-04 +2.23425551668E-04 -2.06789000133E-04 +2.24209793591E-04 -3.45287488026E-01 +7.86670820887E-01
1.35500000000E+09 -1.52064556271E-01 +8.93898154626E-01 -1.93698903164E-04 +3.13655992249E-04 -2.13178134408E-04 +2.81232686750E-04 -3.34894119739E-01 +7.90134667305E-01
1.36000000000E+09 -1.35980481222E-01 +8.94815650197E-01 -1.87922128166E-04 +3.23809471144E-04 -2.12146934572E-04 +3.29058225251E-04 -3.24250121406E-01 +7.93630065709E-01
1.36500000000E+09 -1.20275658695E-01 +8.95477830666E-01 -2.00962578009E-04 +4.09009861821E-04 -1.56903966306E-04 +3.59544413853E-04 -3.13320329966E-01 +7.96845244804E-01
1.37000000000E+09 -1.06168835169E-01 +8.95251340124E-01 -1.34545508290E-04 +4.67376269345E-04 -9.12101598944E-05 +4.53211389327E-04 -3.01889439700E-01 +7.99975640033E-01
1.37500000000E+09 -9.39237769947E-02 +8.94694859565E-01 -2.74047881603E-05 +4.80905800147E-04 -6.14150887166E-05 +4.28281756270E-04 -2.89516757450E-01 +8.02976826988E-01
1.38000000000E+09 -8.26499617418E-02 +8.93460576151E-01 +3.07697741562E-06 +4.08730454490E-04 -8.19931334522E-05 +4.80504507301E-04 -2.76326010961E-01 +8.05904638390E-01
1.38500000000E+09 -7.10099817480E-02 +8.91605813507E-01 +3.16580897912E-05 +4.52814172685E-04 -2.93844251286E-06 +5.66120472396E-04 -2.62437126969E-01 +8.08805654539E-01
1.39000000000E+09 -5.84375092692E-02 +8.88978376542E-01 +3.39328827834E-05 +4.93832538232E-04 +3.36110559128E-05 +5.81141863846E-04 -2.48108469811E-01 +8.11483649125E-01
1.39500000000E+09 -4.37668254473E-02 +8.85823646168E-01 +1.29562536415E-04 +5.26879696919E-04 +1.18573478534E-04 +5.81854987673E-04 -2.32963187594E-01 +8.13632760424E-01
1.40000000000E+09 -2.65898254000E-02 +8.81837225516E-01 +6.47020084082E-05 +5.87831735830E-04 +1.17778793225E-04 +6.47790264696E-04 -2.17070696237E-01 +8.15510069148E-01
1.40500000000E+09 -7.61334264697E-03 +8.77301932947E-01 +2.80145210032E-04 +7.17310188497E-04 +2.72325249225E-04 +7.31651799268E-04 -2.00122355287E-01 +8.16730747406E-01
1.41000000000E+09 +1.32867454023E-02 +8.72407709796E-01 +4.41495004319E-04 +7.21578296208E-04 +4.04040920010E-04 +7.04897133816E-04 -1.81481642017E-01 +8.17753363326E-01
1.41500000000E+09 +3.55010361674E-02 +8.66934131959E-01 +5.07913436214E-04 +7.41861191203E-04 +5.14533688099E-04 +8.21910529510E-04 -1.61717862749E-01 +8.18005154997E-01
1.42000000000E+09 +5.79254732554E-02 +8.60545268354E-01 +6.97277152975E-04 +6.18814605231E-04 +7.22531549989E-04 +7.13647581666E-04 -1.40358307769E-01 +8.17659548145E-01
1.42500000000E+09 +7.98256484347E-02 +8.52897513525E-01 +7.80130667764E-04 +5.91632137566E-04 +8.65282133278E-04 +6.12329975469E-04 -1.17887882586E-01 +8.16198898016E-01
1.43000000000E+09 +1.00690900746E-01 +8.43885780778E-01 +8.68681038714E-04 +5.54510638511E-04 +1.00191993056E-03 +5.12779234209E-04 -9.45715620708E-02 +8.13997390510E-01
1.43500000000E+09 +1.21137403074E-01 +8.32964600273E-01 +9.95176619983E-04 +6.67398683097E-04 +1.11937568685E-03 +5.78503231831E-04 -6.95529589980E-02 +8.10090304318E-01
1.44000000000E+09 +1.41810572122E-01 +8.20475567202E-01 +1.48683142724E-03 +5.76469175658E-04 +1.56230546779E-03 +4.28198650840E-04 -4.26197461959E-02 +8.04529831815E-01
1.44500000000E+09 +1.64212085977E-01 +8.05102756525E-01 +1.71048322668E-03 +1.02834179165E-04 +1.74031234465E-03 -1.39060001935E-05 -1.30907757954E-02 +7.96446877727E-01
1.45000000000E+09 +1.88697562147E-01 +7.86312025990E-01 +1.63996646212E-03 -1.64955238148E-04 +1.66843329340E-03 -3.28523830916E-04 +1.80225333823E-02 +7.85313981343E-01
1.45500000000E+09 +2.15282392281E-01 +7.63935004388E-01 +1.71490671907E-03 -3.43962516595E-04 +1.69698774061E-03 -4.82061655425E-04 +5.10882665902E-02 +7.71496509242E-01
1.46000000000E+09 +2.44823269000E-01 +7.37647098662E-01 +1.85310228413E-03 -5.80319550310E-04 +1.75382181923E-03 -7.26566749560E-04 +8.56105284749E-02 +7.53411811045E-01
1.46500000000E+09 +2.75684454002E-01 +7.06832821791E-01 +2.14029511742E-03 -9.10526178251E-04 +1.90833636453E-03 -9.99073902733E-04 +1.22079290477E-01 +7.30979192842E-01
1.47000000000E+09 +3.07281564649E-01 +6.71534987496E-01 +2.25000459567E-03 -1.58553580655E-03 +2.06170302609E-03 -1.46830947833E-03 +1.59802002778E-01 +7.01448781502E-01
1.47500000000E+09 +3.38270308077E-01 +6.30830966923E-01 +2.17235104554E-03 -2.50258164661E-03 +2.16942857963E-03 -2.30506866565E-03 +1.98014026937E-01 +6.64764945696E-01
1.48000000000E+09 +3.66788167982E-01 +5.83573195002E-01 +1.43274458695E-03 -3.14824357361E-03 +1.52229030315E-03 -3.10585260708E-03 +2.36020913612E-01 +6.19564397005E-01
1.48500000000E+09 +3.89687492188E-01 +5.28958614295E-01 +9.38580308866E-04 -3.38026323542E-03 +8.79103578684E-04 -3.45016260261E-03 +2.72276135536E-01 +5.65227218956E-01
1.49000000000E+09 +4.06354210950E-01 +4.67071403918E-01 +4.29382026650E-04 -4.08038867464E-03 +1.87101023339E-04 -4.06030636120E-03 +3.03648244895E-01 +4.99413168478E-01
1.49500000000E+09 +4.14267984040E-01 +3.97319689661E-01 -7.37616608021E-04 -4.66340022473E-03 -8.91057942375E-04 -4.39857087252E-03 +3.24530725521E-01 +4.23481858107E-01
1.50000000000E+09 +4.13024574403E-01 +3.19093695586E-01 -2.32183127904E-03 -4.43589210585E-03 -2.25217734701E-03 -4.17622451232E-03 +3.34455473167E-01 +3.38497484119E-01
1.50500000000E+09 +3.98306372113E-01 +2.31991303503E-01 -3.00725965817E-03 -4.05489783619E-03 -2.74402851159E-03 -3.96799307667E-03 +3.26902714386E-01 +2.44230640437E-01
1.51000000000E+09 +3.66305852526E-01 +1.40320426085E-01 -4.51160554289E-03 -3.59383873080E-03 -4.39262177031E-03 -3.71672065210E-03 +2.98470464739E-01 +1.45923288398E-01
1.51500000000E+09 +3.14954670133E-01 +4.96642676766E-02 -5.64113206477E-03 -2.66390328707E-03 -5.59737404083E-03 -2.83134972628E-03 +2.47505445621E-01 +5.26891091875E-02
1.52000000000E+09 +2.43843207437E-01 -3.13196546160E-02 -7.40895345608E-03 -7.75591972676E-04 -7.49888317131E-03 -8.92683324598E-04 +1.76567324199E-01 -3.09837273883E-02
1.52500000000E+09 +1.56301915054E-01 -9.67676852890E-02 -7.03226952341E-03 +2.77092205670E-03 -7.08722366260E-03 +2.72286450205E-03 +8.69248370347E-02 -9.58018620606E-02
1.53000000000E+09 +5.59797450766E-02 -1.42176997463E-01 -4.78454264528E-03 +4.08280599985E-03 -4.81112544064E-03 +4.06334564091E-03 -1.29901629615E-02 -1.38877546699E-01
1.53500000000E+09 -5.20875763029E-02 -1.62634138702E-01 -3.64512797738E-03 +5.00051080392E-03 -3.63604979804E-03 +4.95866107162E-03 -1.17329632018E-01 -1.57620637891E-01
1.54000000000E+09 -1.60914350668E-01 -1.56617385458E-01 -1.86020817368E-03 +4.98805022612E-03 -1.92982140306E-03 +4.92221333760E-03 -2.17543048886E-01 -1.54241123796E-01
1.54500000000E+09 -2.63082500958E-01 -1.29768329582E-01 -9.52191109673E-04 +5.28384142648E-03 -1.05054200280E-03 +5.21169697036E-03 -3.07201957164E-01 -1.32986238083E-01
1.55000000000E+09 -3.54521009596E-01 -8.37590021713E-02 +6.66841882829E-04 +5.23095372619E-03 +4.16584741251E-04 +5.22571172349E-03 -3.84558693235E-01 -1.00335803791E-01
1.55500000000E+09 -4.29558638593E-01 -2.77504667998E-02 +2.14528867453E-03 +4.40391104982E-03 +2.00606190597E-03 +4.53568751887E-03 -4.49250302788E-01 -5.83880734759E-02
1.56000000000E+09 -4.90642528071E-01 +3.13489348776E-02 +2.81910433080E-03 +2.96457002931E-03 +2.81898808697E-03 +3.24477030889E-03 -5.01038038157E-01 -1.16009706870E-02
1.56500000000E+09 -5.39189299634E-01 +9.13301982494E-02 +2.88404564335E-03 +1.93471214352E-03 +2.98307747644E-03 +2.10032598691E-03 -5.41757956223E-01 +3.74350068876E-02
1.57000000000E+09 -5.75151281623E-01 +1.50014080448E-01 +2.80651186318E-03 +1.18129909441E-03 +3.00442653045E-03 +1.21310649997E-03 -5.72730851833E-01 +8.57383127123E-02
