# Hz S RI R 50
! CMT, C1220, 16058040, 17.2.0/1
! Date: 14/08/2018 12:41:56
! Data: Format (Calibration Info)
! Freq                      S11: Re/Im (F2)                       S21: Re/Im (F2)                       S12: Re/Im (F2)                       S22: Re/Im (F2)            
1.00000000000E+09 -6.47718191731E-01 +7.13655234572E-01 -9.72812972886E-06 +1.02734706245E-05 +9.78351984612E-06 +4.76056305762E-05 -6.70674900390E-01 +5.41771837803E-01
1.00500000000E+09 -6.40691181736E-01 +7.18676488751E-01 -1.93557884173E-05 -2.82496284451E-05 -5.15414981325E-06 -4.59924235440E-06 -6.67412110739E-01 +5.45437791521E-01
1.01000000000E+09 -6.34768959508E-01 +7.23177095017E-01 +1.81304018397E-05 -1.47108395488E-06 -3.16479478442E-05 -9.93598495054E-06 -6.64477869441E-01 +5.48619841434E-01
1.01500000000E+09 -6.30131870923E-01 +7.27040890202E-01 -8.94041623684E-05 +9.86160357029E-06 -2.58291784668E-05 +3.41652225591E-05 -6.61814949053E-01 +5.51922839625E-01
1.02000000000E+09 -6.26815291627E-01 +7.30506257764E-01 -1.78799802202E-06 -3.05442887045E-05 -2.97557619691E-05 +4.91233254656E-05 -6.59102021680E-01 +5.55009219910E-01
1.02500000000E+09 -6.24181100065E-01 +7.33358812415E-01 +1.25563265452E-05 -1.39123118596E-05 -1.80669711907E-05 +5.56889808187E-06 -6.56773507018E-01 +5.58189288541E-01
1.03000000000E+09 -6.22161267893E-01 +7.35955319133E-01 -3.01317020885E-05 +1.79801555823E-05 -2.52247243628E-05 -6.93489342354E-05 -6.54280707678E-01 +5.61572241068E-01
1.03500000000E+09 -6.19468965653E-01 +7.38620463545E-01 -5.21700292872E-06 +4.53719920038E-05 -1.94169575721E-05 +1.95904265971E-05 -6.51240042676E-01 +5.65262849274E-01
1.04000000000E+09 -6.15938212849E-01 +7.41343619387E-01 -2.16749377421E-06 -4.21261073036E-06 -1.88854009446E-05 +4.09133358817E-05 -6.48128054182E-01 +5.68565116858E-01
1.04500000000E+09 -6.10957424173E-01 +7.44733800756E-01 -4.08405300657E-06 +5.63322616914E-05 +4.36920930813E-05 +5.19899064773E-05 -6.45227523592E-01 +5.71986347691E-01
1.05000000000E+09 -6.04392814065E-01 +7.48789065178E-01 -8.81802565629E-06 +4.18689460251E-05 +5.00530766009E-06 +3.39364409051E-05 -6.42523559813E-01 +5.75165827229E-01
1.05500000000E+09 -5.96951600485E-01 +7.52993730589E-01 +7.21890260218E-06 +4.63608879949E-05 +4.01947769168E-05 +9.84749350821E-05 -6.39941160727E-01 +5.78397189259E-01
1.06000000000E+09 -5.88944922069E-01 +7.57905160073E-01 +4.02588371438E-05 +3.75738005052E-05 -7.18932888598E-07 -5.67281908817E-07 -6.37249372707E-01 +5.81958662391E-01
1.06500000000E+09 -5.80899213577E-01 +7.62628253743E-01 +3.67357025839E-05 -1.22013330459E-05 +3.14760363298E-05 +3.92888370630E-05 -6.34146741836E-01 +5.85623696120E-01
1.07000000000E+09 -5.73943557779E-01 +7.66969478676E-01 +4.23275312077E-05 +1.17819987237E-05 +1.62108634742E-05 +2.66791940618E-05 -6.30642511952E-01 +5.89085679736E-01
1.07500000000E+09 -5.68041458488E-01 +7.70726365926E-01 +9.95012135635E-06 +2.45963476720E-06 +3.10875632942E-05 +2.76083708008E-05 -6.27044099853E-01 +5.92674860828E-01
1.08000000000E+09 -5.63755244981E-01 +7.74081487687E-01 +3.29259906819E-05 -1.96988956051E-05 +1.98045458232E-05 +1.90381920890E-05 -6.23869468614E-01 +5.96142008878E-01
1.08500000000E+09 -5.60464410214E-01 +7.76761215180E-01 +4.45109685255E-05 +4.19673285454E-05 +4.67864055728E-05 +1.36039924317E-05 -6.20723872159E-01 +5.99557057164E-01
1.09000000000E+09 -5.57864064124E-01 +7.79045233900E-01 +1.46312925756E-05 -5.38271790310E-06 +2.81210157452E-05 -2.24181280857E-05 -6.17582874771E-01 +6.03033855565E-01
1.09500000000E+09 -5.55562468379E-01 +7.81130471904E-01 -7.96237976614E-06 -1.53212388523E-05 +2.26317741761E-05 +1.68972124538E-05 -6.14626367542E-01 +6.06724758567E-01
1.10000000000E+09 -5.52231395635E-01 +7.83193505700E-01 -4.32507000875E-06 -9.58150289544E-06 +1.21671970465E-05 +2.65855697568E-05 -6.11363085885E-01 +6.10259091738E-01
1.10500000000E+09 -5.48082373168E-01 +7.86069291094E-01 -4.62312693645E-06 +2.60424117504E-05 +9.69398229397E-06 +3.34693178866E-05 -6.07839170713E-01 +6.13564304973E-01
1.11000000000E+09 -5.42601364897E-01 +7.89293012898E-01 -1.01722993205E-05 +3.57055884621E-05 -1.95143885494E-05 -1.23408849708E-05 -6.04460713259E-01 +6.16781248309E-01
1.11500000000E+09 -5.35918309790E-01 +7.93027626905E-01 +2.88640161743E-05 +7.21282346568E-05 -2.89179590110E-06 +5.75888362934E-05 -6.01101833361E-01 +6.20045743013E-01
1.12000000000E+09 -5.28589520463E-01 +7.96892364608E-01 -1.11571725522E-05 +3.16821807279E-05 +4.89322675762E-05 +1.14502163295E-05 -5.97890314882E-01 +6.23506687892E-01
1.12500000000E+09 -5.21239154142E-01 +8.00978818459E-01 +3.14320487165E-05 -1.82275759040E-05 +4.93433950774E-06 +4.58740159402E-05 -5.94440886825E-01 +6.27425944532E-01
1.13000000000E+09 -5.14181477969E-01 +8.04416311821E-01 +7.44177747799E-05 -1.21092549055E-06 +3.99144828995E-05 +8.39279436098E-07 -5.90787890287E-01 +6.30987260144E-01
1.13500000000E+09 -5.07795607414E-01 +8.07214660618E-01 +4.01172856227E-05 +3.51550957069E-05 +6.56240328137E-05 +5.69196759779E-05 -5.86853989652E-01 +6.34677302010E-01
1.14000000000E+09 -5.02414016894E-01 +8.09688397883E-01 +8.58954028410E-05 +5.12070552524E-06 +4.17231380830E-05 -1.33708580561E-05 -5.82866109868E-01 +6.38157296974E-01
1.14500000000E+09 -4.98173442448E-01 +8.11337263319E-01 +5.53787857467E-05 +5.30745342949E-06 +3.42183912173E-05 +2.62660409221E-05 -5.78821294683E-01 +6.41513627221E-01
1.15000000000E+09 -4.94111637558E-01 +8.12867390214E-01 +7.90502917015E-05 -1.92031531776E-05 +3.40316109636E-05 +4.10457181310E-06 -5.74822412616E-01 +6.45187243486E-01
1.15500000000E+09 -4.90186998542E-01 +8.14521012540E-01 +1.06179629815E-04 -9.13708255717E-05 +7.62672833125E-05 -1.83948668024E-05 -5.70818503009E-01 +6.48969532226E-01
1.16000000000E+09 -4.85504528841E-01 +8.16462631545E-01 +8.07019145159E-05 -5.96170155317E-05 +2.92620658641E-05 +7.36920200699E-06 -5.66744685373E-01 +6.52477309812E-01
1.16500000000E+09 -4.80113700821E-01 +8.19114855520E-01 +4.45975922398E-05 -8.60737780728E-06 +1.05766530474E-04 -1.02991585263E-05 -5.62621589964E-01 +6.55944809215E-01
1.17000000000E+09 -4.73606191552E-01 +8.22338002526E-01 +7.00207661850E-05 -3.87196982726E-05 +2.56318830743E-05 -2.94820363039E-06 -5.58077961237E-01 +6.59212695436E-01
1.17500000000E+09 -4.66396024349E-01 +8.25541546624E-01 +8.65475018435E-05 -5.19370925384E-05 +7.01351808438E-05 -3.38184519686E-06 -5.53353299693E-01 +6.62294831559E-01
1.18000000000E+09 -4.58901367211E-01 +8.29311005934E-01 +2.66847381393E-05 -1.46583813080E-05 +6.47965132647E-05 -3.22935558272E-05 -5.48725834736E-01 +6.65425264295E-01
1.18500000000E+09 -4.51418234822E-01 +8.32691005824E-01 +7.27925833075E-05 -1.09511430607E-04 +1.04440084065E-04 -4.69763488091E-05 -5.43740537899E-01 +6.68505394410E-01
1.19000000000E+09 -4.44268618298E-01 +8.35365592885E-01 +7.14768513421E-05 -7.86187120308E-05 +1.25937641087E-04 -6.59628867837E-05 -5.38455161792E-01 +6.71202353795E-01
1.19500000000E+09 -4.38093366799E-01 +8.37456804735E-01 +1.02232844273E-04 -1.73653133615E-04 +1.10102830743E-04 -1.05397111574E-04 -5.33263831332E-01 +6.72574811867E-01
1.20000000000E+09 -4.32500941917E-01 +8.38418141469E-01 +3.00645770073E-05 -1.61660720057E-04 +4.59525478165E-05 -1.86216664384E-04 -5.29292482518E-01 +6.72982989862E-01
1.20500000000E+09 -4.27478352169E-01 +8.39661013466E-01 -5.03645756201E-05 -1.49603441690E-04 -5.59050373359E-05 -1.52587156787E-04 -5.27202789884E-01 +6.73843176368E-01
1.21000000000E+09 -4.22145529027E-01 +8.40800559749E-01 -7.98831004887E-05 -7.74792366634E-05 -6.66502094573E-05 -6.00523507743E-05 -5.25571452453E-01 +6.76657436323E-01
1.21500000000E+09 -4.15922845329E-01 +8.42270652329E-01 -5.98005321674E-05 -2.81043159315E-05 -8.83683425474E-06 -2.22878996835E-05 -5.23428164757E-01 +6.81017882539E-01
1.22000000000E+09 -4.08572862510E-01 +8.44387915478E-01 -1.75310074877E-05 -6.32737760283E-05 -1.75826557645E-05 -7.91601777828E-05 -5.19902420777E-01 +6.86089915613E-01
1.22500000000E+09 -4.00134616646E-01 +8.47037724344E-01 +1.68224060190E-05 -6.69692700178E-05 -7.25560140298E-06 -3.83683062068E-05 -5.15633730824E-01 +6.90940511150E-01
1.23000000000E+09 -3.90779689003E-01 +8.50293030968E-01 +1.30725816496E-05 -6.65390421499E-05 -1.45722416073E-05 -7.36718983372E-05 -5.11071270073E-01 +6.95234259889E-01
1.23500000000E+09 -3.81348252575E-01 +8.54001118288E-01 +1.25187155754E-05 -9.23927388003E-05 -1.63638887957E-05 -8.03362769437E-05 -5.06028498887E-01 +6.99474066419E-01
1.24000000000E+09 -3.72235759828E-01 +8.57859506883E-01 -4.22058788433E-05 -7.23019482138E-05 +7.18892175662E-06 -3.93129003521E-05 -5.01144648590E-01 +7.03197716173E-01
1.24500000000E+09 -3.63657057165E-01 +8.62068567029E-01 -4.09263286831E-05 -6.37694487835E-05 -3.09792440368E-05 -1.19299455041E-04 -4.96018215014E-01 +7.06981554849E-01
1.25000000000E+09 -3.55832332008E-01 +8.65536048012E-01 +8.83008587213E-06 -1.08718199475E-04 -4.85204575496E-05 -9.84894458807E-05 -4.90559844455E-01 +7.11179814356E-01
1.25500000000E+09 -3.48801187348E-01 +8.68158192938E-01 -6.45806690415E-05 -1.09587755639E-04 -1.35348382578E-05 -9.52838712847E-05 -4.84889192584E-01 +7.15169993411E-01
1.26000000000E+09 -3.42578667446E-01 +8.69847020312E-01 -6.96842978775E-05 -9.49175908054E-05 -7.32000003828E-05 -1.24623678582E-04 -4.79391442299E-01 +7.19523659378E-01
1.26500000000E+09 -3.36350387906E-01 +8.70903115924E-01 -5.78108305797E-05 -6.11682313260E-05 -6.26324247640E-05 -1.25566281123E-04 -4.73450409591E-01 +7.23546510531E-01
1.27000000000E+09 -3.29816063476E-01 +8.71839814447E-01 -1.01042760914E-04 -1.12989288009E-04 -5.86379618495E-05 -1.19526091543E-04 -4.67658202024E-01 +7.27497843205E-01
1.27500000000E+09 -3.21958176044E-01 +8.72795829686E-01 -1.19999960464E-04 -1.35148180656E-04 -1.12398583685E-04 -9.92863094026E-05 -4.61694501411E-01 +7.31206657611E-01
1.28000000000E+09 -3.12681161640E-01 +8.74229282448E-01 -1.51932069222E-04 -1.21886385391E-04 -1.38744528425E-04 -1.04439465958E-04 -4.55448554469E-01 +7.35003927557E-01
1.28500000000E+09 -3.01908830520E-01 +8.76279813511E-01 -1.85449462410E-04 -8.93616103174E-05 -2.44480851845E-04 -6.01317888283E-05 -4.48879149116E-01 +7.38985250036E-01
1.29000000000E+09 -2.90443748582E-01 +8.78652373461E-01 -1.46975247339E-04 -7.89691903011E-05 -1.54132206326E-04 -9.40023669721E-05 -4.42390767073E-01 +7.42943522043E-01
1.29500000000E+09 -2.78815912495E-01 +8.81755511366E-01 -1.92963324173E-04 -2.13115685409E-05 -1.73398287487E-04 -2.62890243267E-05 -4.35408532334E-01 +7.46781497316E-01
1.30000000000E+09 -2.67549721332E-01 +8.85348319259E-01 -1.95792487550E-04 -3.30831340775E-05 -1.93528707239E-04 -6.06990266685E-05 -4.28703352803E-01 +7.50554683560E-01
1.30500000000E+09 -2.57313755327E-01 +8.88710497958E-01 -2.03112555919E-04 -4.94535950997E-05 -1.82381580895E-04 -1.12828859876E-05 -4.21606336136E-01 +7.54316171164E-01
1.31000000000E+09 -2.48346486288E-01 +8.91281011870E-01 -2.60394817559E-04 -4.31531519603E-05 -2.14003312587E-04 -2.06203597925E-05 -4.14234037437E-01 +7.58007842767E-01
1.31500000000E+09 -2.40963290849E-01 +8.92959767932E-01 -2.35526172311E-04 +5.19761936495E-05 -2.51209741865E-04 +3.79749754185E-05 -4.06644556433E-01 +7.61693388581E-01
1.32000000000E+09 -2.34491251605E-01 +8.93670133899E-01 -2.65382481140E-04 +4.98904287360E-05 -2.50549625937E-04 +3.84989007058E-05 -3.98578695527E-01 +7.65350622622E-01
1.32500000000E+09 -2.28143229695E-01 +8.93765813919E-01 -2.60015306183E-04 +6.08858855502E-05 -2.86823006154E-04 +4.81305860806E-05 -3.90235255770E-01 +7.69082484749E-01
1.33000000000E+09 -2.20862744211E-01 +8.93385732456E-01 -2.57210555319E-04 +7.20694547493E-05 -2.42984305118E-04 +1.35741692706E-04 -3.81986573742E-01 +7.72590808989E-01
1.33500000000E+09 -2.11849772027E-01 +8.92860977143E-01 -2.30195732395E-04 +9.98797814746E-05 -2.42995248975E-04 +8.96204238934E-05 -3.73331257584E-01 +7.76223189318E-01
1.34000000000E+09 -2.00499614758E-01 +8.92939742580E-01 -3.34867648139E-04 +1.31523677515E-04 -2.92027402325E-04 +1.51850570913E-04 -3.64324433515E-01 +7.79847373474E-01
1.34500000000E+09 -1.86839870492E-01 +8.92689809914E-01 -2.99830909356E-04 +2.15060524020E-04 -2.75508239172E-04 +1.97648023225E-04 -3.54741818825E-01 +7.83616080271E-01
1.35000000000E+09 -1.71634399632E-01 +8.93327900979E-01 -2.75957368155E-04 +2.47594522832E-04 -2.59218357735E-04 +2.51024392992E-04 -3.44970020606E-01 +7.87208373636E-01
1.35500000000E+09 -1.55293450127E-01 +8.94272401394E-01 -3.00582593770E-04 +2.42245143152E-04 -2.58705900287E-04 +3.16679042802E-04 -3.34506007756E-01 +7.90909050806E-01
1.36000000000E+09 -1.39000941759E-01 +8.95317822718E-01 -2.67771993638E-04 +3.66343730942E-04 -2.45375495639E-04 +3.17482833480E-04 -3.23845793281E-01 +7.94233073087E-01
1.36500000000E+09 -1.23424778533E-01 +8.96022570586E-01 -2.10313959746E-04 +3.68583931748E-04 -2.56781925462E-04 +3.59748609120E-04 -3.12974987312E-01 +7.97356646479E-01
1.37000000000E+09 -1.09430709100E-01 +8.96083663245E-01 -2.24066039644E-04 +4.43121398678E-04 -2.33943140427E-04 +3.68585995280E-04 -3.01411068945E-01 +8.00530814034E-01
1.37500000000E+09 -9.70723705669E-02 +8.95515524246E-01 -1.69171323085E-04 +4.86308540659E-04 -1.73546840452E-04 +4.32866036658E-04 -2.88987589048E-01 +8.03551112731E-01
1.38000000000E+09 -8.58654468873E-02 +8.94370234457E-01 -1.75693442453E-04 +5.43624129075E-04 -1.90762719671E-04 +4.97204018652E-04 -2.76002977611E-01 +8.06655031047E-01
1.38500000000E+09 -7.43912507597E-02 +8.92619448934E-01 -8.57910421994E-05 +5.36742137383E-04 -1.44636510343E-04 +6.47617882090E-04 -2.61908917653E-01 +8.09535454652E-01
1.39000000000E+09 -6.18278156954E-02 +8.90382859341E-01 -3.56332960225E-05 +5.99967722628E-04 -6.18218167959E-05 +6.87050513143E-04 -2.47630109623E-01 +8.12114735112E-01
1.39500000000E+09 -4.74351015045E-02 +8.87293905443E-01 +1.63192791810E-05 +6.00768307191E-04 +6.36240942365E-05 +7.05681243440E-04 -2.32514931566E-01 +8.14111751773E-01
1.40000000000E+09 -3.02496321262E-02 +8.83342402724E-01 -9.04361793252E-06 +7.51779864436E-04 +3.37066233870E-05 +7.09369180979E-04 -2.16547782594E-01 +8.16057430750E-01
1.40500000000E+09 -1.13922535053E-02 +8.78967897188E-01 +1.18533738107E-04 +8.78528603093E-04 +1.74204202568E-04 +8.43070296582E-04 -1.99635858455E-01 +8.17358459863E-01
1.41000000000E+09 +9.41974286199E-03 +8.74232218608E-01 +3.21108025610E-04 +9.20149469194E-04 +3.12621189093E-04 +8.89489679436E-04 -1.81014755079E-01 +8.18297534589E-01
1.41500000000E+09 +3.13008081637E-02 +8.68913522458E-01 +4.71333146436E-04 +9.13684301494E-04 +4.84835042094E-04 +9.55316839891E-04 -1.61194310008E-01 +8.18496422456E-01
1.42000000000E+09 +5.36133985318E-02 +8.62702512689E-01 +6.83319557146E-04 +9.05748880638E-04 +6.85665262331E-04 +1.00342311509E-03 -1.39681300077E-01 +8.18156211757E-01
1.42500000000E+09 +7.52856180593E-02 +8.55441696265E-01 +7.95485409071E-04 +8.65837003174E-04 +8.72096947182E-04 +8.96871483834E-04 -1.17294406693E-01 +8.16597144950E-01
1.43000000000E+09 +9.60894854976E-02 +8.46695191840E-01 +9.15654756637E-04 +8.60011371102E-04 +1.06620139236E-03 +8.30415807407E-04 -9.38965768514E-02 +8.14283287030E-01
1.43500000000E+09 +1.16364899884E-01 +8.36175051886E-01 +1.22288039954E-03 +8.71536671203E-04 +1.29899138012E-03 +8.08599533896E-04 -6.88276723165E-02 +8.10332110377E-01
1.44000000000E+09 +1.37016571657E-01 +8.24065901246E-01 +1.57402421038E-03 +7.28873603302E-04 +1.62625078678E-03 +6.26327440776E-04 -4.19839870598E-02 +8.04671831431E-01
1.44500000000E+09 +1.59495555775E-01 +8.09217664682E-01 +1.74785935879E-03 +3.78335492911E-04 +1.81578749948E-03 +3.33940890809E-04 -1.25888221715E-02 +7.96398878587E-01
1.45000000000E+09 +1.83964561167E-01 +7.90982656951E-01 +1.77837200950E-03 +2.01102466927E-04 +1.85551617196E-03 +1.01377000007E-04 +1.86429386812E-02 +7.85236010355E-01
1.45500000000E+09 +2.10587524317E-01 +7.69346702163E-01 +2.01704534444E-03 +1.01370674316E-04 +2.00860818113E-03 -6.01741899823E-05 +5.16660435009E-02 +7.71187987704E-01
1.46000000000E+09 +2.40461777882E-01 +7.43854566203E-01 +2.35689578477E-03 -1.82077608055E-04 +2.27274260778E-03 -3.77776635019E-04 +8.60824646474E-02 +7.53136890649E-01
1.46500000000E+09 +2.71615232167E-01 +7.13892489820E-01 +2.71210321974E-03 -7.07623070921E-04 +2.44347760178E-03 -7.58637139553E-04 +1.22163998642E-01 +7.30634373807E-01
1.47000000000E+09 +3.03804517606E-01 +6.79730034430E-01 +2.86948198255E-03 -1.41596739911E-03 +2.67143508995E-03 -1.35934608594E-03 +1.59689382373E-01 +7.01260897945E-01
1.47500000000E+09 +3.35847010287E-01 +6.39889852663E-01 +2.78863900286E-03 -2.37043839120E-03 +2.77062034000E-03 -2.18725420910E-03 +1.97722970544E-01 +6.64795385373E-01
1.48000000000E+09 +3.65238371941E-01 +5.93705890656E-01 +2.25914523432E-03 -3.06108979679E-03 +2.28363661368E-03 -3.03107702562E-03 +2.35737885256E-01 +6.19461990933E-01
1.48500000000E+09 +3.89751805598E-01 +5.40151286770E-01 +1.83852653896E-03 -3.50819461296E-03 +1.78540817729E-03 -3.57843794047E-03 +2.71894522227E-01 +5.65133846192E-01
1.49000000000E+09 +4.08369230718E-01 +4.79062556460E-01 +1.47500541224E-03 -4.30897553638E-03 +1.24163892603E-03 -4.35945462297E-03 +3.03233266475E-01 +4.99212041855E-01
1.49500000000E+09 +4.18909711102E-01 +4.09870948221E-01 +5.10749989696E-04 -5.20211704821E-03 +2.73589835935E-04 -5.00639897479E-03 +3.23438566882E-01 +4.23278737432E-01
1.50000000000E+09 +4.20636496553E-01 +3.31545065668E-01 -1.02230743018E-03 -5.85345701032E-03 -9.63151664491E-04 -5.48584651416E-03 +3.32973845597E-01 +3.38893501774E-01
1.50500000000E+09 +4.09251178226E-01 +2.43317739719E-01 -2.46485292222E-03 -5.77914263244E-03 -2.14863023157E-03 -5.62777003272E-03 +3.25712546296E-01 +2.45205255746E-01
1.51000000000E+09 +3.80711640693E-01 +1.49434876666E-01 -4.59589631970E-03 -5.43802889410E-03 -4.28458167813E-03 -5.54542491832E-03 +2.97517416468E-01 +1.47428190849E-01
1.51500000000E+09 +3.31715626119E-01 +5.54858380784E-02 -6.21366082864E-03 -4.34063626120E-03 -6.09606225742E-03 -4.54574616764E-03 +2.46569254652E-01 +5.43254051946E-02
1.52000000000E+09 +2.62541866702E-01 -2.95567531582E-02 -8.22030300463E-03 -2.17765588779E-03 -8.25630520961E-03 -2.29462932112E-03 +1.76334613396E-01 -2.90820907884E-02
1.52500000000E+09 +1.75468706697E-01 -1.00458706488E-01 -8.05134268389E-03 +1.18923997350E-03 -8.13938893968E-03 +1.16123958590E-03 +8.65456514430E-02 -9.42022660992E-02
1.53000000000E+09 +7.33159108537E-02 -1.49974906008E-01 -6.72659121591E-03 +2.96662144041E-03 -6.79274676518E-03 +2.96780417131E-03 -1.29246685776E-02 -1.36501104869E-01
1.53500000000E+09 -3.63532046393E-02 -1.74893329543E-01 -5.78349022308E-03 +4.62993945954E-03 -5.74903589181E-03 +4.62421752010E-03 -1.16510972346E-01 -1.55230299960E-01
1.54000000000E+09 -1.49734260082E-01 -1.73146003057E-01 -3.75465639909E-03 +5.51735105418E-03 -3.80899253869E-03 +5.41146582742E-03 -2.16053866255E-01 -1.52305753788E-01
1.54500000000E+09 -2.56708930446E-01 -1.47581252216E-01 -2.37667754562E-03 +5.85385700856E-03 -2.51528504496E-03 +5.71646594643E-03 -3.05284560717E-01 -1.31971107246E-01
1.55000000000E+09 -3.52977103169E-01 -1.01617673393E-01 -7.16981428066E-04 +6.32474389918E-03 -9.73872688624E-04 +6.30872151173E-03 -3.83261343510E-01 -9.98039795578E-02
1.55500000000E+09 -4.31930531733E-01 -4.39700304204E-02 +1.27851740184E-03 +5.65482717836E-03 +1.09373264517E-03 +5.83564691046E-03 -4.48168397564E-01 -5.78683646918E-02
1.56000000000E+09 -4.95568559403E-01 +1.67576532158E-02 +2.45738283369E-03 +4.23590395917E-03 +2.36385008679E-03 +4.52373983888E-03 -5.00276145894E-01 -1.09764939363E-02
1.56500000000E+09 -5.46284410362E-01 +7.86425529474E-02 +2.69732991540E-03 +2.93105782719E-03 +2.82226114792E-03 +3.17417086781E-03 -5.40800265151E-01 +3.81274356767E-02
1.57000000000E+09 -5.83491262382E-01 +1.39303373987E-01 +2.75870146528E-03 +2.18342215005E-03 +2.99147331977E-03 +2.29301180162E-03 -5.71589230799E-01 +8.60668086151E-02
