# Hz S RI R 50
! CMT, C1220, 16058040, 17.2.0/1
! Date: 14/08/2018 12:40:53
! Data: Format (Calibration Info)
! Freq                      S11: Re/Im (F2)                       S21: Re/Im (F2)                       S12: Re/Im (F2)                       S22: Re/Im (F2)            
1.00000000000E+09 -6.47370055347E-01 +7.13864082778E-01 +2.54155818016E-05 +1.13278062264E-05 -1.96557650334E-05 -3.37555750929E-05 -6.70570079743E-01 +5.41098189983E-01
1.00500000000E+09 -6.40501393321E-01 +7.18723716431E-01 -4.77832514104E-05 -4.39293662405E-05 +1.56094651816E-05 +2.69069826323E-05 -6.67544346563E-01 +5.44752239534E-01
1.01000000000E+09 -6.34323990236E-01 +7.23327444075E-01 +9.16416407230E-06 +1.72046286432E-05 -3.41314503290E-05 +3.96843266692E-06 -6.64563461676E-01 +5.47981407779E-01
1.01500000000E+09 -6.29849052354E-01 +7.27310950789E-01 +2.45526143571E-05 -4.41083747343E-05 -6.24146696154E-06 +2.31175769837E-05 -6.61936340297E-01 +5.51237610660E-01
1.02000000000E+09 -6.26287048714E-01 +7.30589872050E-01 +3.04081579797E-05 -3.13590012259E-05 +1.55705003113E-05 -2.00222098444E-05 -6.59297053723E-01 +5.54237217376E-01
1.02500000000E+09 -6.23668514330E-01 +7.33563318552E-01 +5.73258303437E-06 +5.03478124029E-07 -3.74605152689E-05 +7.93417164354E-06 -6.57040557998E-01 +5.57557518915E-01
1.03000000000E+09 -6.21514252743E-01 +7.36302048288E-01 -3.69345857180E-06 -1.93385160373E-06 -5.25010542767E-05 +4.62153603001E-05 -6.54420795162E-01 +5.60891972607E-01
1.03500000000E+09 -6.18967158749E-01 +7.38925116025E-01 -2.13745395115E-05 +4.92257329792E-06 -4.75288540654E-05 -2.48619444026E-05 -6.51337493448E-01 +5.64576595465E-01
1.04000000000E+09 -6.15235843737E-01 +7.41730671150E-01 -5.86165755118E-05 +6.90919782083E-06 +4.49844659950E-06 +1.47262730289E-05 -6.48191767274E-01 +5.67999577163E-01
1.04500000000E+09 -6.10351825856E-01 +7.45202079224E-01 -3.63425826936E-06 +6.14133867780E-05 -1.87230857286E-05 +3.32302889700E-05 -6.45462357243E-01 +5.71218112107E-01
1.05000000000E+09 -6.03908816582E-01 +7.49050638280E-01 +1.60741550577E-05 +1.44897758279E-05 -3.43471993190E-05 +4.65116286840E-05 -6.42730783098E-01 +5.74583967083E-01
1.05500000000E+09 -5.96303222101E-01 +7.53369445547E-01 +5.64247709613E-06 -1.02538728395E-05 -1.37400985431E-05 +7.80928923754E-05 -6.40204882055E-01 +5.77867562911E-01
1.06000000000E+09 -5.88216199549E-01 +7.58250719572E-01 -1.93428515349E-05 +3.41391458031E-05 +2.07160031347E-05 +3.93315788768E-05 -6.37435059573E-01 +5.81404822265E-01
1.06500000000E+09 -5.80363594993E-01 +7.63107848908E-01 +1.88369208832E-05 -2.39609419042E-05 +3.28293733466E-05 +5.10085940290E-06 -6.34248238809E-01 +5.85024115939E-01
1.07000000000E+09 -5.73284949433E-01 +7.67132364340E-01 -1.34636855340E-06 +9.75682043792E-06 -2.79737326264E-05 -6.45833715413E-06 -6.30886243163E-01 +5.88542354292E-01
1.07500000000E+09 -5.67426742960E-01 +7.70916610921E-01 +3.80273554299E-05 +1.16048903502E-05 +6.59586555040E-05 +3.03504427053E-05 -6.27253939644E-01 +5.91907418707E-01
1.08000000000E+09 -5.63073078497E-01 +7.74309958294E-01 +4.51501268502E-05 +1.37594750841E-05 +3.59526161822E-05 -1.68026937731E-06 -6.23927401369E-01 +5.95575569261E-01
1.08500000000E+09 -5.59758770109E-01 +7.76934288210E-01 +1.66358751665E-05 +1.54164990254E-05 +3.99169260601E-05 -2.36158837704E-05 -6.20818784447E-01 +5.98810510069E-01
1.09000000000E+09 -5.57139620121E-01 +7.79248082174E-01 +7.80670303098E-05 +8.11537555565E-06 -8.01467466642E-06 -2.39856173456E-05 -6.17871308123E-01 +6.02504974460E-01
1.09500000000E+09 -5.54844225870E-01 +7.81335448422E-01 +4.65095546755E-05 +6.33210441215E-06 +4.78416419024E-05 +2.96015089148E-05 -6.14718411214E-01 +6.06203671094E-01
1.10000000000E+09 -5.51589527136E-01 +7.83467773575E-01 +2.56188146052E-05 -3.32418358438E-06 +1.73783298341E-05 +5.46205020075E-06 -6.11510616206E-01 +6.09646397031E-01
1.10500000000E+09 -5.47387057188E-01 +7.86136488094E-01 +1.76374711432E-05 -1.80149038222E-05 -2.91630715657E-05 +6.38365537578E-06 -6.08073567652E-01 +6.12938363639E-01
1.11000000000E+09 -5.41911404014E-01 +7.89369391708E-01 +1.73173390586E-05 +3.33112410905E-05 +1.77309819782E-05 +2.29575524188E-05 -6.04598914307E-01 +6.16060095009E-01
1.11500000000E+09 -5.35183971722E-01 +7.93159557702E-01 +4.93250738647E-05 +4.54012011767E-05 +3.24374470595E-05 -1.43386481860E-05 -6.01300880458E-01 +6.19354465623E-01
1.12000000000E+09 -5.28094176917E-01 +7.97012724903E-01 +3.55236562347E-07 -1.36046034779E-05 +7.38299406545E-05 +4.19972425792E-05 -5.98110853101E-01 +6.22846681547E-01
1.12500000000E+09 -5.20616244463E-01 +8.00993382537E-01 +7.02294251936E-05 +4.02852908078E-05 +2.06215620634E-05 +6.45343760980E-06 -5.94680000213E-01 +6.26707531287E-01
1.13000000000E+09 -5.13534798621E-01 +8.04584638087E-01 +2.71209883895E-05 -1.29813202705E-06 +7.83623289747E-05 +1.97689415267E-05 -5.91073812404E-01 +6.30474161790E-01
1.13500000000E+09 -5.07132675431E-01 +8.07484542782E-01 +3.19922866902E-05 -2.30794314440E-06 +1.23840258495E-05 +8.57153185940E-06 -5.87190092536E-01 +6.34147770664E-01
1.14000000000E+09 -5.01682268617E-01 +8.09890496783E-01 +4.25408911746E-05 -3.03254947346E-05 +2.47042248097E-05 +2.90538845947E-05 -5.83125563671E-01 +6.37601503203E-01
1.14500000000E+09 -4.97338468487E-01 +8.11471286483E-01 +4.11384739377E-05 -7.94923187245E-06 +7.03723813802E-05 +1.89359440024E-05 -5.79055808588E-01 +6.40937695274E-01
1.15000000000E+09 -4.93179301188E-01 +8.13013126315E-01 +4.55003013004E-05 +2.54113483708E-06 +7.50162535266E-05 -1.35350429006E-05 -5.75164093721E-01 +6.44688242852E-01
1.15500000000E+09 -4.89220217882E-01 +8.14837401837E-01 +4.88887539191E-05 -1.50380782985E-06 +7.35648357832E-05 -3.23697609860E-05 -5.71082055054E-01 +6.48356407549E-01
1.16000000000E+09 -4.84454924861E-01 +8.16711291712E-01 +2.91946923086E-06 +5.88466918679E-06 +5.83382690876E-05 -1.41810746998E-05 -5.67149450473E-01 +6.51923135617E-01
1.16500000000E+09 -4.78948351506E-01 +8.19416659990E-01 -3.24390849132E-06 -3.66366113249E-05 +2.92148905503E-05 -3.23711163210E-05 -5.62817049080E-01 +6.55439786481E-01
1.17000000000E+09 -4.72326180710E-01 +8.22582309654E-01 +9.11975376373E-05 -6.22261206902E-05 +4.88963654632E-05 -1.13654999254E-07 -5.58331310216E-01 +6.58571936355E-01
1.17500000000E+09 -4.65228834280E-01 +8.25968913933E-01 +5.28133599161E-05 -5.22915262162E-05 +3.65776968179E-05 -5.33114617071E-06 -5.53585134940E-01 +6.61789142752E-01
1.18000000000E+09 -4.57781470264E-01 +8.29579824248E-01 +5.32836794674E-05 -6.43895607801E-05 +3.56654840178E-05 -7.36848562141E-05 -5.49093829664E-01 +6.64863309111E-01
1.18500000000E+09 -4.50120289625E-01 +8.32861346507E-01 +6.52220535792E-05 -3.41800358834E-05 +1.04507960883E-04 -4.97448195312E-05 -5.43958203199E-01 +6.67991237427E-01
1.19000000000E+09 -4.43173851438E-01 +8.35584244519E-01 +5.98654940178E-05 -8.62132722388E-05 +9.37955428822E-05 -7.60241889709E-05 -5.38592333108E-01 +6.70584759975E-01
1.19500000000E+09 -4.36853508791E-01 +8.37723261767E-01 +7.66260045650E-05 -1.16852012205E-04 +8.83839220370E-05 -1.00613130904E-04 -5.33510165440E-01 +6.72035132352E-01
1.20000000000E+09 -4.31316866319E-01 +8.38606118062E-01 +5.50797812842E-05 -1.91295292006E-04 +1.63717355348E-05 -2.04703697790E-04 -5.29501342114E-01 +6.72410153897E-01
1.20500000000E+09 -4.26303933699E-01 +8.39748942891E-01 -3.83501140160E-05 -1.37422920393E-04 -4.82235741948E-05 -1.48358669353E-04 -5.27390907506E-01 +6.73335255183E-01
1.21000000000E+09 -4.21153535611E-01 +8.41046938485E-01 -5.58106460338E-05 -5.63297713469E-05 -4.54962999107E-05 -3.28918743216E-05 -5.25944085907E-01 +6.76155402981E-01
1.21500000000E+09 -4.14949433613E-01 +8.42568108533E-01 -6.21155747831E-05 +1.52406379031E-05 -6.82976374665E-05 -8.72127519756E-06 -5.23657823215E-01 +6.80489472845E-01
1.22000000000E+09 -4.07566837237E-01 +8.44548604151E-01 -4.80965143153E-05 -3.02456968379E-05 +3.24417203498E-06 -3.70910466055E-05 -5.20285479015E-01 +6.85599663320E-01
1.22500000000E+09 -3.99142170237E-01 +8.47376709908E-01 -3.24137597426E-05 -1.19484680119E-05 -2.84718185153E-05 -4.94059442210E-05 -5.16088209925E-01 +6.90263903083E-01
1.23000000000E+09 -3.89808843635E-01 +8.50469692721E-01 -5.99975401945E-05 -7.43348847199E-05 -2.35481314636E-05 -3.81364844496E-05 -5.11317689135E-01 +6.94858948312E-01
1.23500000000E+09 -3.80387623033E-01 +8.54249031246E-01 -7.90619270845E-06 -6.25409091064E-05 -2.05439975587E-05 -9.42515810499E-05 -5.06616854369E-01 +6.98920638290E-01
1.24000000000E+09 -3.71087252570E-01 +8.58062241600E-01 -1.64929296088E-05 -1.00143975442E-04 -5.48702235909E-05 -7.93487522390E-05 -5.01435412318E-01 +7.02699877650E-01
1.24500000000E+09 -3.62471119194E-01 +8.62095619166E-01 -2.08065806344E-05 -1.21321280945E-05 -6.03314726054E-06 -9.79891620847E-05 -4.96391425609E-01 +7.06491407325E-01
1.25000000000E+09 -3.54689337756E-01 +8.65686380404E-01 +1.47304728652E-06 -4.67355400672E-05 +1.08857340484E-05 -4.86588938440E-05 -4.90962358998E-01 +7.10680258563E-01
1.25500000000E+09 -3.47658878477E-01 +8.68099649369E-01 -5.16666001993E-05 -1.34970073618E-04 -5.26008999802E-05 -8.60988782406E-05 -4.85318217378E-01 +7.14522436468E-01
1.26000000000E+09 -3.41174489437E-01 +8.69802087217E-01 -6.31059618521E-05 -5.84602847216E-05 -4.20095780622E-05 -1.15362627373E-04 -4.79759706231E-01 +7.18999623995E-01
1.26500000000E+09 -3.34920797217E-01 +8.70924143241E-01 -4.52394842982E-05 -6.71225499273E-05 -4.04732951669E-05 -1.10764422029E-04 -4.73902716603E-01 +7.22922719887E-01
1.27000000000E+09 -3.28192814959E-01 +8.71787148159E-01 -5.63579118615E-05 -9.78060912016E-05 -9.30570616247E-05 -8.41611708532E-05 -4.68081617059E-01 +7.26996682571E-01
1.27500000000E+09 -3.20535776391E-01 +8.72756663467E-01 -1.55404251670E-04 -1.14347671614E-04 -1.32724181807E-04 -1.08043426357E-04 -4.61956094595E-01 +7.30746234427E-01
1.28000000000E+09 -3.11178476327E-01 +8.74090056780E-01 -1.41025763629E-04 -7.28719919513E-05 -1.73596262816E-04 -9.99481653862E-05 -4.55812812354E-01 +7.34533730556E-01
1.28500000000E+09 -3.00336267380E-01 +8.76058612572E-01 -1.71139037403E-04 -6.16067046487E-05 -1.36681009691E-04 -6.18087184022E-05 -4.49262836144E-01 +7.38542049984E-01
1.29000000000E+09 -2.88937302581E-01 +8.78465403597E-01 -1.49498119728E-04 -4.38769607685E-05 -2.11580488620E-04 -6.19496240623E-05 -4.42742901868E-01 +7.42399119367E-01
1.29500000000E+09 -2.77414983894E-01 +8.81591682617E-01 -1.33891310418E-04 -4.17088194053E-05 -1.45383558463E-04 +4.21800326480E-05 -4.35904526087E-01 +7.46287388797E-01
1.30000000000E+09 -2.66234902569E-01 +8.85275888890E-01 -1.37249108014E-04 +7.49523378248E-06 -1.57568124318E-04 -4.72775456620E-06 -4.29109490621E-01 +7.50211910207E-01
1.30500000000E+09 -2.55926650142E-01 +8.88531029732E-01 -1.26486698975E-04 -4.59790816958E-06 -1.15152403947E-04 +2.88660326487E-05 -4.21970552839E-01 +7.53905310788E-01
1.31000000000E+09 -2.46877744735E-01 +8.91164766830E-01 -2.00153911739E-04 +2.01723557222E-05 -2.14599744491E-04 +4.35441255110E-05 -4.14704482114E-01 +7.57584631910E-01
1.31500000000E+09 -2.39430849541E-01 +8.92956031462E-01 -2.15866292267E-04 +5.36340378537E-05 -2.23840882175E-04 +4.91564241395E-05 -4.06980613894E-01 +7.61286681359E-01
1.32000000000E+09 -2.32919553469E-01 +8.93647035526E-01 -2.25516457280E-04 +4.55367559588E-05 -2.00589455623E-04 +8.66996941293E-05 -3.98997346561E-01 +7.64944983307E-01
1.32500000000E+09 -2.26554419966E-01 +8.93735687244E-01 -2.03734229025E-04 +1.08905629388E-04 -2.04534018035E-04 +9.17987400803E-05 -3.90855105867E-01 +7.68598882558E-01
1.33000000000E+09 -2.19171994184E-01 +8.93608530841E-01 -1.73248829963E-04 +8.92648952962E-05 -1.69549405970E-04 +8.66913844995E-05 -3.82349340646E-01 +7.72172852921E-01
1.33500000000E+09 -2.10100316429E-01 +8.93040309116E-01 -2.24955219598E-04 +1.26679558916E-04 -1.46892111015E-04 +1.34279921005E-04 -3.73693175947E-01 +7.75802515427E-01
1.34000000000E+09 -1.98679826622E-01 +8.92850464431E-01 -2.01761551214E-04 +1.47880951530E-04 -1.72120259667E-04 +1.45225706224E-04 -3.64747069385E-01 +7.79511274083E-01
1.34500000000E+09 -1.85006998556E-01 +8.92906782273E-01 -2.27124312083E-04 +2.25349567174E-04 -2.16921857664E-04 +1.74512688460E-04 -3.55211891520E-01 +7.83220457307E-01
1.35000000000E+09 -1.69643458988E-01 +8.93370284295E-01 -2.33611432194E-04 +2.35322111228E-04 -1.58643275482E-04 +2.35652738822E-04 -3.45135694861E-01 +7.86891623271E-01
1.35500000000E+09 -1.53335602573E-01 +8.94180036999E-01 -1.76550853953E-04 +2.69341610316E-04 -1.54967596556E-04 +3.13336309904E-04 -3.34944631692E-01 +7.90501534513E-01
1.36000000000E+09 -1.37139621875E-01 +8.95190841777E-01 -1.92472589095E-04 +3.33362344338E-04 -1.77268865395E-04 +2.79661235646E-04 -3.24253479851E-01 +7.93861583346E-01
1.36500000000E+09 -1.21436877255E-01 +8.95773144479E-01 -1.86664101128E-04 +3.44210364251E-04 -1.45463916721E-04 +3.55287314235E-04 -3.13349658421E-01 +7.97140289798E-01
1.37000000000E+09 -1.07435453190E-01 +8.95667587638E-01 -8.59522899018E-05 +4.43632250303E-04 -1.60405705005E-04 +4.18141507950E-04 -3.01939568657E-01 +8.00269067223E-01
1.37500000000E+09 -9.51863836448E-02 +8.95024671729E-01 -2.21720323308E-05 +4.19069596830E-04 -8.36549920035E-05 +4.16615089799E-04 -2.89556648808E-01 +8.03326848858E-01
1.38000000000E+09 -8.37615257419E-02 +8.93821574965E-01 +2.38685026637E-05 +4.57444026781E-04 -5.07405246498E-05 +4.57144493926E-04 -2.76404074464E-01 +8.06337232198E-01
1.38500000000E+09 -7.22823778032E-02 +8.92076132244E-01 +3.21712473681E-05 +4.57963085268E-04 +6.22796946110E-06 +5.58539130042E-04 -2.62429920529E-01 +8.09225585680E-01
1.39000000000E+09 -5.97219579874E-02 +8.89537591919E-01 +5.80192509630E-05 +5.11608562395E-04 +1.18811134234E-04 +5.54381476770E-04 -2.48076592089E-01 +8.11938867828E-01
1.39500000000E+09 -4.52218063394E-02 +8.86455489662E-01 +1.06624615916E-04 +5.02458458179E-04 +1.89614930663E-04 +5.58375328082E-04 -2.32819977163E-01 +8.14020159593E-01
1.40000000000E+09 -2.81112171856E-02 +8.82449098288E-01 +9.52315632848E-05 +5.59637059974E-04 +1.26535992895E-04 +5.52617913501E-04 -2.16933759527E-01 +8.15910438816E-01
1.40500000000E+09 -9.12053157850E-03 +8.77994487101E-01 +2.83110075944E-04 +6.50946731040E-04 +2.95964683879E-04 +6.93922382046E-04 -2.00075399433E-01 +8.17069201356E-01
1.41000000000E+09 +1.17684956002E-02 +8.73178467637E-01 +4.18479097697E-04 +6.98800104430E-04 +3.76049258271E-04 +6.33626369294E-04 -1.81496779724E-01 +8.18119208678E-01
1.41500000000E+09 +3.38396669573E-02 +8.67796122286E-01 +4.91319873640E-04 +6.81151606576E-04 +4.84093646806E-04 +7.50066871277E-04 -1.61468635016E-01 +8.18314233922E-01
1.42000000000E+09 +5.63160189947E-02 +8.61719231672E-01 +6.81910405940E-04 +5.97846877856E-04 +7.25633656473E-04 +6.99330921211E-04 -1.40181864158E-01 +8.17911939868E-01
1.42500000000E+09 +7.81174537422E-02 +8.54216721317E-01 +7.22771055511E-04 +5.46717392614E-04 +8.09949898672E-04 +5.96230340941E-04 -1.17650238550E-01 +8.16551705406E-01
1.43000000000E+09 +9.91922966451E-02 +8.45326572909E-01 +7.98492534953E-04 +5.54354587809E-04 +9.38354634098E-04 +5.66084366929E-04 -9.41013407182E-02 +8.14167393701E-01
1.43500000000E+09 +1.19561502916E-01 +8.34654603991E-01 +9.82820174858E-04 +6.26548992516E-04 +1.13066658158E-03 +5.96344506901E-04 -6.90976316761E-02 +8.10359655432E-01
1.44000000000E+09 +1.40372697079E-01 +8.22352301870E-01 +1.40155390099E-03 +4.94376212131E-04 +1.52448446371E-03 +4.54064172839E-04 -4.20521860735E-02 +8.04615760019E-01
1.44500000000E+09 +1.62978599866E-01 +8.07240044790E-01 +1.64480446100E-03 +6.86131397270E-05 +1.65258296848E-03 -8.70288718067E-06 -1.26339355321E-02 +7.96469343848E-01
1.45000000000E+09 +1.87673952676E-01 +7.88554270914E-01 +1.56639027426E-03 -1.41549577685E-04 +1.65032443209E-03 -2.54865764561E-04 +1.86416108713E-02 +7.85355761083E-01
1.45500000000E+09 +2.14561752867E-01 +7.66452764576E-01 +1.69884204921E-03 -2.40665497665E-04 +1.65211346574E-03 -3.83600837983E-04 +5.18156640524E-02 +7.71452197748E-01
1.46000000000E+09 +2.44300941820E-01 +7.40414439227E-01 +1.89577666093E-03 -4.80834168063E-04 +1.74387378513E-03 -6.29093919300E-04 +8.64520315629E-02 +7.53112462995E-01
1.46500000000E+09 +2.75559568385E-01 +7.09634616132E-01 +2.23141519150E-03 -7.80304203562E-04 +1.98666171430E-03 -8.56983059568E-04 +1.22873503140E-01 +7.30527981790E-01
1.47000000000E+09 +3.07640929348E-01 +6.74515171748E-01 +2.47594435371E-03 -1.58990825928E-03 +2.24811419066E-03 -1.43190217175E-03 +1.60536898190E-01 +7.00577910994E-01
1.47500000000E+09 +3.39060416416E-01 +6.33667692523E-01 +2.31270401729E-03 -2.58765672882E-03 +2.32844006941E-03 -2.41232063584E-03 +1.98509094545E-01 +6.63543463425E-01
1.48000000000E+09 +3.67661628567E-01 +5.86300697610E-01 +1.52630609223E-03 -3.28041095885E-03 +1.64075039330E-03 -3.28805165152E-03 +2.36331415010E-01 +6.18245491214E-01
1.48500000000E+09 +3.90932885800E-01 +5.31830592966E-01 +9.66321122977E-04 -3.59058394598E-03 +9.58113232432E-04 -3.70191826081E-03 +2.72037702246E-01 +5.63554862372E-01
1.49000000000E+09 +4.08123444982E-01 +4.69982773456E-01 +2.66257143834E-04 -4.28397908330E-03 +5.74698248865E-05 -4.28651814607E-03 +3.03039099804E-01 +4.97593957428E-01
1.49500000000E+09 +4.16768018027E-01 +4.00251577650E-01 -9.12378293872E-04 -4.63804052302E-03 -1.02159640087E-03 -4.44185366886E-03 +3.23293190986E-01 +4.21470277132E-01
1.50000000000E+09 +4.16443415476E-01 +3.21948501669E-01 -2.36022896747E-03 -4.49938841044E-03 -2.25497019948E-03 -4.22070090747E-03 +3.32336270067E-01 +3.36671486370E-01
1.50500000000E+09 +4.02739697938E-01 +2.34041424716E-01 -3.20353423155E-03 -4.17702929644E-03 -2.91714941134E-03 -4.07424933041E-03 +3.24046395571E-01 +2.43107381069E-01
1.51000000000E+09 +3.71623422742E-01 +1.41622723231E-01 -4.86260621257E-03 -3.54804671655E-03 -4.68497032411E-03 -3.72410336491E-03 +2.95232813638E-01 +1.45716880202E-01
1.51500000000E+09 +3.21234935846E-01 +4.95796434929E-02 -6.00200103155E-03 -2.35826100994E-03 -5.99115061164E-03 -2.52323808617E-03 +2.43985287842E-01 +5.35718918647E-02
1.52000000000E+09 +2.50372695524E-01 -3.34568129812E-02 -7.42159221111E-03 -3.04847833297E-04 -7.50520853007E-03 -3.90325621675E-04 +1.73576405824E-01 -2.88640991486E-02
1.52500000000E+09 +1.62050222037E-01 -1.01118517445E-01 -6.81330823668E-03 +3.04244131600E-03 -6.90486708917E-03 +3.03600216219E-03 +8.47624565894E-02 -9.31712824138E-02
1.53000000000E+09 +6.04075302512E-02 -1.47734397776E-01 -4.44462842843E-03 +4.33898511041E-03 -4.49764069325E-03 +4.36505246532E-03 -1.44631774214E-02 -1.35745960414E-01
1.53500000000E+09 -4.88784031249E-02 -1.69687012910E-01 -3.21708965062E-03 +4.87671790275E-03 -3.25592406111E-03 +4.86851950660E-03 -1.17938267029E-01 -1.54335266826E-01
1.54000000000E+09 -1.60035909309E-01 -1.64644425871E-01 -1.64054638027E-03 +4.77594715392E-03 -1.65706409147E-03 +4.70030443452E-03 -2.17245492435E-01 -1.51012161294E-01
1.54500000000E+09 -2.64486774486E-01 -1.37468008122E-01 -9.71119811985E-04 +4.99840953150E-03 -1.07335963112E-03 +4.99294266258E-03 -3.05971129490E-01 -1.30047517155E-01
1.55000000000E+09 -3.57932173244E-01 -9.03815153908E-02 +5.34703780809E-04 +5.11381709193E-03 +2.99384989930E-04 +5.16977582222E-03 -3.82787689864E-01 -9.82362234203E-02
1.55500000000E+09 -4.33883567581E-01 -3.28074325094E-02 +2.03526020826E-03 +4.40425584942E-03 +1.84702691752E-03 +4.57241973914E-03 -4.47425026825E-01 -5.68115103516E-02
1.56000000000E+09 -4.95316564432E-01 +2.73648039191E-02 +2.82594133581E-03 +3.09301072141E-03 +2.85064156319E-03 +3.29009314499E-03 -4.99144968362E-01 -1.03724513951E-02
1.56500000000E+09 -5.44255990701E-01 +8.84663902529E-02 +2.93914762682E-03 +1.88207779046E-03 +3.04210695685E-03 +2.04140587726E-03 -5.39752639985E-01 +3.82399206707E-02
1.57000000000E+09 -5.80143450398E-01 +1.47990215089E-01 +2.70079455161E-03 +1.10232103654E-03 +2.90318253664E-03 +1.15039778695E-03 -5.70769851729E-01 +8.60490927064E-02
