# Hz S RI R 50
! CMT, C1220, 16058040, 17.2.0/1
! Date: 14/08/2018 12:36:46
! Data: Format (Calibration Info)
! Freq                      S11: Re/Im (F2)                       S21: Re/Im (F2)                       S12: Re/Im (F2)                       S22: Re/Im (F2)            
1.00000000000E+09 -6.45786869822E-01 +7.14785100056E-01 -9.29924805302E-07 -1.38482905450E-05 +2.03377012312E-06 +3.47258919955E-05 -6.70384435818E-01 +5.35260431487E-01
1.00500000000E+09 -6.38674765600E-01 +7.20033455169E-01 -4.19077331118E-05 +2.58642969959E-05 +1.19905203954E-05 +1.54559247356E-05 -6.67496055085E-01 +5.38799035242E-01
1.01000000000E+09 -6.32758350272E-01 +7.24873296471E-01 -1.24132032565E-05 -2.07279908713E-05 +1.27674231058E-05 -3.11651755018E-05 -6.64557971161E-01 +5.42054623417E-01
1.01500000000E+09 -6.28397990884E-01 +7.28843129514E-01 -1.41484970673E-05 -2.34714366895E-05 +1.48451377391E-05 +2.67836090436E-05 -6.62000155525E-01 +5.45211454834E-01
1.02000000000E+09 -6.25489557946E-01 +7.32058936265E-01 +2.09777110603E-06 +1.80541654458E-05 -2.06913135553E-05 +2.25218959848E-06 -6.59407934464E-01 +5.48263387183E-01
1.02500000000E+09 -6.23569277855E-01 +7.34758699170E-01 -3.76695084562E-05 +5.39842004889E-06 -7.48915138237E-06 -3.03398505477E-05 -6.57277809046E-01 +5.51588893917E-01
1.03000000000E+09 -6.22114575298E-01 +7.37028224475E-01 -3.17062685109E-05 -1.73799407049E-06 +8.15679163310E-06 +1.37204437216E-05 -6.54639612961E-01 +5.54835261619E-01
1.03500000000E+09 -6.19803891301E-01 +7.39216789717E-01 -3.22489484371E-05 +1.55204455864E-05 +7.28006706729E-06 +3.41587370216E-05 -6.51632987278E-01 +5.58569844700E-01
1.04000000000E+09 -6.16424384119E-01 +7.41997399361E-01 -3.38422760588E-06 +9.95643944981E-07 +2.00474403935E-05 +5.12635758439E-05 -6.48610568562E-01 +5.61957674610E-01
1.04500000000E+09 -6.11396389154E-01 +7.45167740695E-01 -1.92134348167E-05 +9.83199496830E-06 -1.35417623161E-06 +6.33091398544E-05 -6.45840466130E-01 +5.65376286276E-01
1.05000000000E+09 -6.04477582499E-01 +7.49400453127E-01 -3.43751175536E-06 +5.56752265902E-05 +1.15492151329E-05 +3.95116659389E-05 -6.43152742338E-01 +5.68535797087E-01
1.05500000000E+09 -5.96484949651E-01 +7.54065559321E-01 -3.46614875892E-05 +6.33896059043E-05 +2.61915971827E-05 +2.81028393305E-05 -6.40695898696E-01 +5.72090790441E-01
1.06000000000E+09 -5.87730190630E-01 +7.59137209759E-01 +3.07695485010E-05 +2.76431873954E-05 +4.98507955147E-05 -3.04227504233E-06 -6.37878463294E-01 +5.75572531403E-01
1.06500000000E+09 -5.79411920896E-01 +7.64169925326E-01 +5.96491571959E-07 +3.32846682110E-05 -8.19715253749E-06 +3.56984449945E-05 -6.34956562014E-01 +5.78987583457E-01
1.07000000000E+09 -5.72031052813E-01 +7.68690399226E-01 +4.46819041420E-05 +2.18055945626E-05 +3.01455577061E-05 +3.03141936121E-05 -6.31577004510E-01 +5.82601640445E-01
1.07500000000E+09 -5.66198539415E-01 +7.72617027121E-01 +9.56194992483E-06 +1.71194799723E-05 +7.91147503896E-06 +1.85604870224E-05 -6.28018299154E-01 +5.86106507624E-01
1.08000000000E+09 -5.62235661069E-01 +7.75764947537E-01 -6.33631758790E-06 +1.58266489267E-05 +5.28713558485E-05 +9.58479541847E-06 -6.24806711456E-01 +5.89642621268E-01
1.08500000000E+09 -5.59400451374E-01 +7.78087524543E-01 -1.76882508007E-06 +6.91439242347E-06 +4.95870218266E-05 +3.63445261636E-05 -6.21753594763E-01 +5.93136153578E-01
1.09000000000E+09 -5.57235108983E-01 +7.79850081560E-01 +7.25067990333E-05 +1.09657103084E-05 +2.10156843834E-05 -6.14150554730E-06 -6.18770921869E-01 +5.96754335474E-01
1.09500000000E+09 -5.55524075269E-01 +7.81605270740E-01 +2.64322597126E-05 -5.10985524811E-07 +4.62234629127E-05 +8.45910755900E-06 -6.15810514161E-01 +6.00274330409E-01
1.10000000000E+09 -5.52485142122E-01 +7.83466072653E-01 +1.28775045909E-05 +4.87016451708E-05 +7.24322762385E-06 +5.21496757372E-05 -6.12545263024E-01 +6.03932318002E-01
1.10500000000E+09 -5.48513173285E-01 +7.86222596478E-01 +2.63491909148E-05 -1.88655408216E-05 +5.04523378184E-05 -9.57811575381E-06 -6.09254231986E-01 +6.07303734421E-01
1.11000000000E+09 -5.42861687658E-01 +7.89757631714E-01 -1.65260374186E-06 +1.38564574584E-05 +6.57647317042E-05 -1.47768297226E-05 -6.05906903070E-01 +6.10452168340E-01
1.11500000000E+09 -5.35991960963E-01 +7.93734361564E-01 +3.82829404639E-06 +1.32891768527E-05 -6.81326179877E-06 +1.10417636833E-05 -6.02651189806E-01 +6.13792785615E-01
1.12000000000E+09 -5.28428819678E-01 +7.98047240983E-01 -5.77137175656E-06 -2.48838009514E-05 +3.09225698357E-05 +1.07596367187E-06 -5.99540733709E-01 +6.17322328324E-01
1.12500000000E+09 -5.20587708873E-01 +8.02477187976E-01 +5.37114318177E-05 +6.41305733130E-05 +3.53958627846E-06 +2.93849264548E-05 -5.95999963323E-01 +6.21194586894E-01
1.13000000000E+09 -5.13344593306E-01 +8.06422948348E-01 +3.01576191918E-05 +3.16899466834E-05 +1.56545788361E-05 +9.12633928326E-06 -5.92465008640E-01 +6.25007897303E-01
1.13500000000E+09 -5.07167590503E-01 +8.09272630411E-01 +4.56613604761E-05 +5.11368530660E-05 +2.69670037009E-05 +1.04172515633E-05 -5.88558552473E-01 +6.28741280541E-01
1.14000000000E+09 -5.02043433161E-01 +8.11477226288E-01 +6.13056423597E-05 +2.01618238202E-05 +3.12380762604E-05 -4.16250837411E-06 -5.84502137318E-01 +6.32219295444E-01
1.14500000000E+09 -4.98029006764E-01 +8.12844080873E-01 +4.77185539447E-05 -6.18245324092E-06 +9.13667395425E-05 -1.54685327245E-05 -5.80463699256E-01 +6.35785422989E-01
1.15000000000E+09 -4.94424859604E-01 +8.14080939330E-01 +2.56329434274E-05 +1.41067174149E-05 +7.86580894286E-05 -2.91173167314E-05 -5.76633826375E-01 +6.39347696927E-01
1.15500000000E+09 -4.90853026420E-01 +8.15559591527E-01 +3.08853749152E-05 -5.12381841263E-05 +7.95313441326E-05 -2.16553989947E-05 -5.72760431659E-01 +6.43001032805E-01
1.16000000000E+09 -4.86233038127E-01 +8.17239317521E-01 +1.74032323442E-05 +9.07346457092E-06 +2.84737900046E-05 -4.27476711166E-05 -5.68793565694E-01 +6.46620081467E-01
1.16500000000E+09 -4.80473874280E-01 +8.20061711817E-01 +4.49832281853E-05 +1.00065347961E-05 +6.86046259152E-05 -2.20574606650E-05 -5.64556240781E-01 +6.50165251355E-01
1.17000000000E+09 -4.73841411995E-01 +8.23198326826E-01 +7.33543395198E-05 -1.42758742883E-05 +4.20645867421E-05 -1.75453374817E-05 -5.60068718097E-01 +6.53359278045E-01
1.17500000000E+09 -4.66181131548E-01 +8.26950948722E-01 +1.12882021224E-05 -5.01856281298E-05 +5.92532704213E-05 -4.56166951565E-05 -5.55368540306E-01 +6.56606422675E-01
1.18000000000E+09 -4.58278080592E-01 +8.30986332002E-01 +6.13875182114E-05 -3.85548836415E-05 +6.57606569701E-05 -3.01713453431E-05 -5.50904008829E-01 +6.59656410049E-01
1.18500000000E+09 -4.50434788588E-01 +8.34707919367E-01 +4.92864561671E-05 -5.30318208055E-05 +8.89238435504E-05 -7.51023752178E-05 -5.45838161520E-01 +6.62825794748E-01
1.19000000000E+09 -4.43400998594E-01 +8.37573520404E-01 +8.58857678894E-05 -5.22759697759E-05 +6.80981287525E-05 -4.90220938377E-05 -5.40583076633E-01 +6.65638710827E-01
1.19500000000E+09 -4.37065238167E-01 +8.39938108629E-01 +1.01084925673E-04 -9.14250300340E-05 +5.82678679414E-05 -1.13972040204E-04 -5.35495983434E-01 +6.67075091885E-01
1.20000000000E+09 -4.32000275719E-01 +8.40860745899E-01 +4.99972771846E-05 -1.73321492826E-04 +1.06351230884E-04 -1.64707188080E-04 -5.31380340288E-01 +6.67513959860E-01
1.20500000000E+09 -4.27581792141E-01 +8.41694247764E-01 -6.84571094225E-05 -1.38037998285E-04 -4.43694577482E-05 -1.64623167719E-04 -5.29411674041E-01 +6.68346953189E-01
1.21000000000E+09 -4.22649213545E-01 +8.42595412170E-01 -9.96662280562E-05 -8.97676400820E-05 -6.25989163966E-05 -2.41127782346E-05 -5.27986039426E-01 +6.71220229064E-01
1.21500000000E+09 -4.16704488286E-01 +8.43835221105E-01 -5.70810266372E-05 -3.84915852825E-06 -5.76119375522E-05 -1.62545049356E-05 -5.25831257883E-01 +6.75484817136E-01
1.22000000000E+09 -4.09366645160E-01 +8.45742283516E-01 -2.98195216282E-05 -3.78147345873E-05 -2.58304832019E-05 -1.95907451183E-05 -5.22496876518E-01 +6.80644440587E-01
1.22500000000E+09 -4.00557399025E-01 +8.48374460592E-01 +1.22917982965E-05 -6.37612139590E-05 -3.42880062895E-05 -1.12402503414E-05 -5.18174274221E-01 +6.85527128909E-01
1.23000000000E+09 -3.90696027390E-01 +8.51566136933E-01 +3.26948094220E-05 -5.49008840453E-05 +1.61704138895E-05 -6.79533831198E-05 -5.13459047647E-01 +6.90010535137E-01
1.23500000000E+09 -3.80875459602E-01 +8.55505520413E-01 -1.68865295155E-05 -9.09501105985E-05 +7.28099323094E-06 -9.80372655206E-05 -5.08797292418E-01 +6.94334610833E-01
1.24000000000E+09 -3.70965158945E-01 +8.59777366304E-01 -4.18350316811E-05 -4.07804615849E-05 -2.24226413835E-05 -8.67495996599E-05 -5.03835288179E-01 +6.97979729982E-01
1.24500000000E+09 -3.62019541917E-01 +8.64216289958E-01 -3.64870650643E-05 -5.69353466070E-05 -2.87650240529E-05 -7.77052514358E-05 -4.98694469529E-01 +7.01748326015E-01
1.25000000000E+09 -3.54242723388E-01 +8.67948865823E-01 -4.02179860409E-05 -5.21984424817E-05 -3.76870308381E-05 -1.07728505099E-04 -4.93270969782E-01 +7.06013103073E-01
1.25500000000E+09 -3.47510283949E-01 +8.70473841884E-01 -4.12743474448E-05 -1.23045085907E-04 -7.83458183387E-05 -1.27958058085E-04 -4.87689340007E-01 +7.10049828826E-01
1.26000000000E+09 -3.41654144143E-01 +8.72122870511E-01 -7.14776199867E-05 -1.01743213679E-04 -4.10663900530E-05 -9.36558310364E-05 -4.82236471090E-01 +7.14462221569E-01
1.26500000000E+09 -3.36237492782E-01 +8.73204757706E-01 -2.50700582886E-05 -9.36450955906E-05 -8.18980675220E-05 -1.03575150552E-04 -4.76560327516E-01 +7.18700170165E-01
1.27000000000E+09 -3.30403838038E-01 +8.73983609260E-01 -1.04711987703E-04 -1.29856934294E-04 -1.00880114896E-04 -1.41965159901E-04 -4.70689101511E-01 +7.22537694319E-01
1.27500000000E+09 -3.23007451930E-01 +8.75023441720E-01 -8.82074422865E-05 -1.39093177398E-04 -1.56370501736E-04 -1.61701918710E-04 -4.64570295901E-01 +7.26567861003E-01
1.28000000000E+09 -3.13869936843E-01 +8.76432936975E-01 -1.27216177961E-04 -1.18345007487E-04 -1.25009156840E-04 -1.14757150463E-04 -4.58391255856E-01 +7.30378468200E-01
1.28500000000E+09 -3.02883309930E-01 +8.78567641359E-01 -1.99679328039E-04 -1.06315516067E-04 -1.50951452560E-04 -1.00999341402E-04 -4.51892383344E-01 +7.34368227974E-01
1.29000000000E+09 -2.90856937620E-01 +8.81310552486E-01 -1.85499229116E-04 -6.70603376694E-05 -1.78208975391E-04 -8.06457364931E-05 -4.45397796888E-01 +7.38276904381E-01
1.29500000000E+09 -2.78682274996E-01 +8.84940543633E-01 -1.82863174956E-04 -4.46987798812E-05 -2.16769386651E-04 -5.72258776016E-05 -4.38546362057E-01 +7.42307343174E-01
1.30000000000E+09 -2.66756711381E-01 +8.88745640391E-01 -1.89962384808E-04 -2.42664153727E-05 -2.12501211181E-04 -1.00858866943E-04 -4.31620729098E-01 +7.46176504253E-01
1.30500000000E+09 -2.55979379992E-01 +8.92296419809E-01 -2.09299632828E-04 -5.34727306326E-05 -2.28669151954E-04 -5.23109804896E-06 -4.24732490730E-01 +7.50002798208E-01
1.31000000000E+09 -2.46788207594E-01 +8.94854616249E-01 -2.07286823820E-04 -4.07276267840E-05 -2.36855174915E-04 -1.08050486427E-05 -4.17421025104E-01 +7.53683288807E-01
1.31500000000E+09 -2.39515661663E-01 +8.96261484573E-01 -2.32645459024E-04 +1.81985821594E-05 -2.46828035700E-04 -3.73942739160E-05 -4.09752384238E-01 +7.57586398292E-01
1.32000000000E+09 -2.33484739686E-01 +8.96842452607E-01 -2.47339815625E-04 +3.07490322572E-05 -2.81182413333E-04 +1.90703983881E-05 -4.01829989858E-01 +7.61173778377E-01
1.32500000000E+09 -2.27723079541E-01 +8.96610379253E-01 -2.81277461906E-04 +3.08265801029E-05 -2.50087538277E-04 +8.69052613618E-05 -3.93482375981E-01 +7.64845805870E-01
1.33000000000E+09 -2.20945361915E-01 +8.96046058228E-01 -2.42660208979E-04 +9.82677655671E-05 -2.89939411242E-04 +1.16117935089E-04 -3.85128298054E-01 +7.68650232260E-01
1.33500000000E+09 -2.11996700208E-01 +8.95409551403E-01 -2.13653541728E-04 +7.18899152185E-05 -3.17704506011E-04 +9.38427584127E-05 -3.76650436096E-01 +7.72191839506E-01
1.34000000000E+09 -2.00517629607E-01 +8.95179996246E-01 -2.90326751690E-04 +1.06144769473E-04 -2.29255356518E-04 +1.57923914807E-04 -3.67721303772E-01 +7.75866637651E-01
1.34500000000E+09 -1.86443965186E-01 +8.95250781160E-01 -3.32185386407E-04 +1.74686350810E-04 -2.75902393227E-04 +1.84641450861E-04 -3.58149357271E-01 +7.79495313025E-01
1.35000000000E+09 -1.70512659624E-01 +8.95828019410E-01 -2.53442312773E-04 +1.84014795266E-04 -2.66538545798E-04 +1.81126317045E-04 -3.48216989257E-01 +7.83539321898E-01
1.35500000000E+09 -1.53453724317E-01 +8.97062829804E-01 -2.87695058045E-04 +2.45143403810E-04 -2.59028850628E-04 +2.10439512814E-04 -3.37756166908E-01 +7.87084064254E-01
1.36000000000E+09 -1.36854990836E-01 +8.98192452162E-01 -2.73926926776E-04 +2.72189663157E-04 -2.27388669982E-04 +2.82851957273E-04 -3.27223108835E-01 +7.90495625113E-01
1.36500000000E+09 -1.20914875149E-01 +8.99228255526E-01 -3.22864273743E-04 +3.92038993039E-04 -2.82871817614E-04 +3.10509804555E-04 -3.16350557771E-01 +7.93761330220E-01
1.37000000000E+09 -1.06976149378E-01 +8.99286340535E-01 -2.61600062826E-04 +4.05998417088E-04 -2.50501692586E-04 +3.88426074228E-04 -3.04809617877E-01 +7.96994198949E-01
1.37500000000E+09 -9.50993080265E-02 +8.98823883581E-01 -2.53780097128E-04 +4.61191178483E-04 -3.01031190390E-04 +4.25201469636E-04 -2.92522016517E-01 +8.00085179944E-01
1.38000000000E+09 -8.44870539503E-02 +8.97686334461E-01 -1.69981745017E-04 +5.38977148046E-04 -2.37928048613E-04 +4.40604219268E-04 -2.79355185645E-01 +8.03085678409E-01
1.38500000000E+09 -7.34137617454E-02 +8.95823215652E-01 -1.51170969482E-04 +5.28684491543E-04 -2.02815226988E-04 +5.70485308018E-04 -2.65538700214E-01 +8.06170644689E-01
1.39000000000E+09 -6.12987260909E-02 +8.93241463592E-01 -1.27289290604E-04 +5.81526515780E-04 -1.38463926699E-04 +6.54606535444E-04 -2.51159346129E-01 +8.08847913537E-01
1.39500000000E+09 -4.66226813249E-02 +8.89965571336E-01 -8.42645475522E-05 +6.34079132657E-04 -3.30739870423E-05 +6.96048832821E-04 -2.36066321260E-01 +8.11170786918E-01
1.40000000000E+09 -2.90281225492E-02 +8.85981792634E-01 -1.30003584199E-04 +7.44090473863E-04 -7.43669732629E-05 +7.65362356633E-04 -2.20115983959E-01 +8.13099605503E-01
1.40500000000E+09 -9.13593480132E-03 +8.81455717853E-01 -1.55377994162E-05 +9.56001378908E-04 +7.31555668603E-05 +9.32815445744E-04 -2.03247425089E-01 +8.14356937727E-01
1.41000000000E+09 +1.28065772039E-02 +8.76419258930E-01 +1.72768625044E-04 +9.90117919472E-04 +1.92493921136E-04 +9.69499887770E-04 -1.84633707104E-01 +8.15391215269E-01
1.41500000000E+09 +3.56386375172E-02 +8.70997394378E-01 +4.04565149146E-04 +1.02389263077E-03 +3.54607862683E-04 +1.07667845414E-03 -1.64763624174E-01 +8.15821059326E-01
1.42000000000E+09 +5.85495939182E-02 +8.64824218222E-01 +5.76381874453E-04 +1.00702581095E-03 +6.76881474185E-04 +1.15051569675E-03 -1.43412093604E-01 +8.15581718347E-01
1.42500000000E+09 +8.01191155483E-02 +8.57539693474E-01 +7.10402423570E-04 +9.62129401871E-04 +8.06988666542E-04 +1.03770843289E-03 -1.20906093202E-01 +8.14264560043E-01
1.43000000000E+09 +1.00558562799E-01 +8.48946263463E-01 +7.95708599509E-04 +9.94742902842E-04 +9.60597226174E-04 +1.00753872108E-03 -9.75264961107E-02 +8.12182484624E-01
1.43500000000E+09 +1.20169759226E-01 +8.38722119194E-01 +1.03665551663E-03 +1.11696905376E-03 +1.16547432871E-03 +1.06683567052E-03 -7.23013320827E-02 +8.08257893604E-01
1.44000000000E+09 +1.40235689040E-01 +8.26677532395E-01 +1.59808501825E-03 +1.08286085451E-03 +1.67815360213E-03 +1.00472870220E-03 -4.55064183436E-02 +8.02793923982E-01
1.44500000000E+09 +1.62164627163E-01 +8.11581141145E-01 +1.91592914697E-03 +7.20807061560E-04 +1.97712696975E-03 +6.02245241854E-04 -1.58813481669E-02 +7.94786482459E-01
1.45000000000E+09 +1.86262105951E-01 +7.92853175991E-01 +1.98785162484E-03 +4.22053729574E-04 +2.08118120530E-03 +3.39429874604E-04 +1.53976269062E-02 +7.83680401087E-01
1.45500000000E+09 +2.13207101112E-01 +7.70601297581E-01 +2.23367072931E-03 +3.12595819829E-04 +2.26925957928E-03 +8.71187016228E-05 +4.84650872010E-02 +7.69970738651E-01
1.46000000000E+09 +2.43695752915E-01 +7.44113780668E-01 +2.54620898158E-03 +3.18603293737E-05 +2.40548458317E-03 -2.11785002813E-04 +8.29233424649E-02 +7.52084624327E-01
1.46500000000E+09 +2.76016926560E-01 +7.13097586192E-01 +2.99522658615E-03 -3.43836121981E-04 +2.74869420596E-03 -4.58085918313E-04 +1.19431222000E-01 +7.29914028244E-01
1.47000000000E+09 +3.09101138098E-01 +6.77453348017E-01 +3.40252183829E-03 -1.16325286067E-03 +3.14092068203E-03 -1.06446984177E-03 +1.57070656859E-01 +7.00397243721E-01
1.47500000000E+09 +3.41631505851E-01 +6.36441942502E-01 +3.47562387897E-03 -2.31148362152E-03 +3.37041809296E-03 -2.06100745274E-03 +1.95543535348E-01 +6.64017591420E-01
1.48000000000E+09 +3.70895764165E-01 +5.89227087010E-01 +2.74414574038E-03 -3.16049449157E-03 +2.91177891961E-03 -3.05804384363E-03 +2.33557847048E-01 +6.19196647765E-01
1.48500000000E+09 +3.94569528722E-01 +5.35170460236E-01 +2.49551284432E-03 -3.64179009493E-03 +2.50260002031E-03 -3.79825297559E-03 +2.70206557978E-01 +5.65225663315E-01
1.49000000000E+09 +4.11882940624E-01 +4.73669072136E-01 +2.10697235562E-03 -4.76035226306E-03 +1.90547246620E-03 -4.83780036159E-03 +3.01983039527E-01 +4.99437667528E-01
1.49500000000E+09 +4.20325046332E-01 +4.04203632226E-01 +1.00365049093E-03 -5.88277036358E-03 +7.43948509362E-04 -5.69261979619E-03 +3.23219039056E-01 +4.23786817432E-01
1.50000000000E+09 +4.19831499681E-01 +3.25807395450E-01 -7.89998349553E-04 -6.44423599042E-03 -7.39782678832E-04 -6.03438822647E-03 +3.33708403670E-01 +3.38988183498E-01
1.50500000000E+09 +4.05860176266E-01 +2.37413176742E-01 -2.31921691791E-03 -6.51319870706E-03 -2.00081435567E-03 -6.28238157887E-03 +3.27027161228E-01 +2.44815795212E-01
1.51000000000E+09 +3.74630000600E-01 +1.43423146064E-01 -4.42207998241E-03 -6.04007831977E-03 -4.12915367954E-03 -6.18817259883E-03 +2.99588532551E-01 +1.46241702850E-01
1.51500000000E+09 +3.22914689274E-01 +5.01353933151E-02 -6.00348083665E-03 -5.38141934992E-03 -5.92377778593E-03 -5.60087727148E-03 +2.49420376334E-01 +5.20460927614E-02
1.52000000000E+09 +2.51889250261E-01 -3.32096947820E-02 -8.69599705254E-03 -3.52280404778E-03 -8.78588923569E-03 -3.67810181218E-03 +1.78950207878E-01 -3.24931211762E-02
1.52500000000E+09 +1.64144365409E-01 -1.01897970052E-01 -9.22614076184E-03 +3.85257039181E-04 -9.29450290276E-03 +2.80112090266E-04 +8.92119805830E-02 -9.84160949666E-02
1.53000000000E+09 +6.24911210449E-02 -1.49041059581E-01 -7.81223128066E-03 +2.59562264693E-03 -7.88810411428E-03 +2.59858501356E-03 -1.08282224399E-02 -1.42481529282E-01
1.53500000000E+09 -4.65630240468E-02 -1.70782419858E-01 -6.80754306371E-03 +4.73489580869E-03 -6.87807346953E-03 +4.71975284406E-03 -1.15865402513E-01 -1.61913815609E-01
1.54000000000E+09 -1.56999100579E-01 -1.65660250405E-01 -4.48113716703E-03 +5.76438671493E-03 -4.48830495211E-03 +5.66343488571E-03 -2.16627047831E-01 -1.58929236317E-01
1.54500000000E+09 -2.61930876299E-01 -1.38735694553E-01 -3.02738294916E-03 +6.21885652131E-03 -3.08279205489E-03 +6.07046072099E-03 -3.07001389827E-01 -1.37978405937E-01
1.55000000000E+09 -3.56087999943E-01 -9.14303413622E-02 -1.23277409986E-03 +6.57492076057E-03 -1.45514928287E-03 +6.49468369533E-03 -3.84820999986E-01 -1.05383777800E-01
1.55500000000E+09 -4.33651795575E-01 -3.35375913580E-02 +7.79312421747E-04 +6.11082765359E-03 +5.30580344777E-04 +6.31768824785E-03 -4.50014374778E-01 -6.33735716002E-02
1.56000000000E+09 -4.96845424980E-01 +2.70860349801E-02 +2.09482247000E-03 +4.59286633438E-03 +2.02516721403E-03 +4.92133793433E-03 -5.02307748088E-01 -1.64850591882E-02
1.56500000000E+09 -5.47027762013E-01 +8.88850693570E-02 +2.29917925935E-03 +3.55071882286E-03 +2.36457954905E-03 +3.80062688401E-03 -5.43238301365E-01 +3.29133157701E-02
1.57000000000E+09 -5.83658997163E-01 +1.48653430458E-01 +2.64958689082E-03 +2.78717675559E-03 +2.82532270126E-03 +2.97321802457E-03 -5.74270788101E-01 +8.12655339156E-02
