# Hz S RI R 50
! CMT, C1220, 16058040, 17.2.0/1
! Date: 14/08/2018 12:38:50
! Data: Format (Calibration Info)
! Freq                      S11: Re/Im (F2)                       S21: Re/Im (F2)                       S12: Re/Im (F2)                       S22: Re/Im (F2)            
1.00000000000E+09 -6.47057413924E-01 +7.14729148609E-01 -2.47766812110E-05 -7.84708051806E-06 -3.74439387642E-06 +4.15239299888E-05 -6.70422603048E-01 +5.39276309816E-01
1.00500000000E+09 -6.39984403013E-01 +7.19923334764E-01 +3.63824202948E-05 -5.34306357123E-05 -4.44408889181E-05 +6.65323077154E-08 -6.67298204165E-01 +5.42823708754E-01
1.01000000000E+09 -6.33873068917E-01 +7.24711384165E-01 -2.43881936211E-05 +2.37286064515E-05 -4.66695347409E-05 +5.84343604754E-06 -6.64405396466E-01 +5.46021962919E-01
1.01500000000E+09 -6.29328069024E-01 +7.28613172402E-01 -4.03492004081E-05 +4.71188444721E-05 -2.10517677697E-05 +1.19150555915E-05 -6.61839106082E-01 +5.49308643291E-01
1.02000000000E+09 -6.26177444142E-01 +7.31987733745E-01 -2.45261765806E-05 -1.33049363489E-05 -5.62556468096E-05 +2.10172893184E-05 -6.59189971219E-01 +5.52362983691E-01
1.02500000000E+09 -6.24011606950E-01 +7.34864049819E-01 +5.48970108114E-06 -2.59964217247E-05 +9.29829828463E-06 +4.11713118761E-05 -6.56958482897E-01 +5.55582208626E-01
1.03000000000E+09 -6.22179438686E-01 +7.37216246282E-01 -6.76763352159E-05 +6.06065060588E-06 -3.85785730208E-06 +1.75930549420E-05 -6.54279684867E-01 +5.59148507562E-01
1.03500000000E+09 -6.19677984207E-01 +7.39505645687E-01 -3.18461682200E-05 +3.76019223846E-05 -1.87401562535E-05 +1.99410243496E-05 -6.51173114437E-01 +5.62706716596E-01
1.04000000000E+09 -6.16223839332E-01 +7.42340839030E-01 -4.82170637859E-05 +4.23741378562E-05 -5.68691146000E-05 +2.68251537615E-05 -6.48208793898E-01 +5.66064028559E-01
1.04500000000E+09 -6.11162179510E-01 +7.45606179977E-01 -2.98607320088E-05 +4.58473510140E-05 -2.16036747999E-05 +6.61495113610E-05 -6.45445866757E-01 +5.69435874895E-01
1.05000000000E+09 -6.04565873937E-01 +7.49622090718E-01 +6.69182215611E-06 +4.53401614647E-05 -5.70843174577E-05 +2.97630523901E-05 -6.42699320637E-01 +5.72601172566E-01
1.05500000000E+09 -5.96824362241E-01 +7.54210430463E-01 +2.49155558787E-05 +2.89492863416E-05 +7.79350521284E-06 -6.97481684258E-06 -6.39978759024E-01 +5.76032277869E-01
1.06000000000E+09 -5.88417368290E-01 +7.59224391371E-01 +1.45873109257E-05 +3.72402428578E-05 +2.40742285439E-05 +5.55570126514E-05 -6.37357363701E-01 +5.79589226961E-01
1.06500000000E+09 -5.80257202852E-01 +7.64251105658E-01 -1.54397515086E-05 -1.33475441801E-05 +2.93039962190E-05 -3.00438576202E-06 -6.34310822728E-01 +5.83157720323E-01
1.07000000000E+09 -5.73043313116E-01 +7.68713274856E-01 +1.89862165720E-05 -9.99665418689E-06 +7.81226832415E-06 +7.31163123796E-05 -6.30908317476E-01 +5.86686849646E-01
1.07500000000E+09 -5.67440006267E-01 +7.72619018185E-01 +4.59786674678E-05 -1.52422664489E-05 +4.47818265827E-05 +4.39832290674E-05 -6.27351609408E-01 +5.90095443249E-01
1.08000000000E+09 -5.63124154614E-01 +7.75661313386E-01 +2.10061201696E-05 +6.72074358105E-06 +5.94299186648E-05 -1.67374819868E-05 -6.24119578376E-01 +5.93670566401E-01
1.08500000000E+09 -5.60260570077E-01 +7.78124236575E-01 -1.89838359983E-05 +4.57696804201E-05 +1.36921568308E-05 +5.51761182890E-06 -6.21067574954E-01 +5.96981761409E-01
1.09000000000E+09 -5.57917624927E-01 +7.80001263854E-01 +2.08514808262E-05 +4.11690682900E-05 +3.47276950320E-05 +5.28895317514E-05 -6.17862241833E-01 +6.00750118226E-01
1.09500000000E+09 -5.56000136211E-01 +7.81744292151E-01 +3.81450779827E-05 -2.34384577972E-05 +2.67518090849E-05 +3.64213771146E-05 -6.15006829971E-01 +6.04221451159E-01
1.10000000000E+09 -5.53002543082E-01 +7.83786842591E-01 +7.09874275756E-05 +2.74618614080E-05 +1.50103696309E-05 +3.15867137063E-05 -6.11733986175E-01 +6.07851526126E-01
1.10500000000E+09 -5.48655604838E-01 +7.86505806702E-01 -4.98697905284E-06 +2.36749284293E-05 +1.88711458553E-05 +1.92170294283E-05 -6.08289995776E-01 +6.11135809405E-01
1.11000000000E+09 -5.43172318708E-01 +7.89881720178E-01 -1.00183278055E-05 +4.80981434230E-05 +1.71725273403E-05 +4.67779785533E-05 -6.04807603952E-01 +6.14532742410E-01
1.11500000000E+09 -5.36359126292E-01 +7.94015773275E-01 +3.36063651879E-05 +1.01244992677E-05 -1.16409285780E-06 +2.19599607922E-05 -6.01626211100E-01 +6.17597098057E-01
1.12000000000E+09 -5.28896486073E-01 +7.98195259329E-01 +4.46194180160E-05 +1.41682029106E-05 +4.91967579289E-05 +8.14676266605E-06 -5.98384392053E-01 +6.21206492791E-01
1.12500000000E+09 -5.21203422463E-01 +8.02523330002E-01 +6.02404822500E-05 +5.94695743471E-05 +4.84584242415E-05 -3.49514010190E-06 -5.94933555937E-01 +6.24951640387E-01
1.13000000000E+09 -5.14174123068E-01 +8.06276793920E-01 +8.05652935461E-05 +2.34488102614E-05 +3.38273576861E-05 +1.19053602562E-05 -5.91388258545E-01 +6.28701513519E-01
1.13500000000E+09 -5.07895215803E-01 +8.09127666026E-01 +6.38049905938E-05 +5.14326936749E-06 +6.03184204004E-05 +1.37471041201E-05 -5.87495032447E-01 +6.32378479712E-01
1.14000000000E+09 -5.02786940492E-01 +8.11575663524E-01 +6.39721313062E-05 +3.06476113191E-05 +4.53054199652E-05 -4.15690102727E-06 -5.83378983320E-01 +6.35846063390E-01
1.14500000000E+09 -4.98572390747E-01 +8.13055122288E-01 +7.01248643647E-05 -1.62802550692E-05 +6.35711919975E-05 -2.55145602752E-05 -5.79313206205E-01 +6.39273158785E-01
1.15000000000E+09 -4.95040496746E-01 +8.14250455725E-01 +1.03589995605E-05 +1.64486583718E-05 +5.79529122785E-05 +2.72574859870E-05 -5.75500390733E-01 +6.42990510064E-01
1.15500000000E+09 -4.91189808219E-01 +8.15803191584E-01 +2.58747918009E-05 +1.59113460521E-05 +5.90983989499E-05 -1.94479595596E-05 -5.71461099010E-01 +6.46669075289E-01
1.16000000000E+09 -4.86672017949E-01 +8.17659867327E-01 +6.56840881585E-05 -3.61381044992E-05 +3.74016195567E-05 -3.07581645834E-05 -5.67445408232E-01 +6.50319918982E-01
1.16500000000E+09 -4.81099627840E-01 +8.20524624809E-01 +2.61329747444E-05 -4.93820453729E-06 +9.73842521842E-05 +2.15984603818E-05 -5.63294230001E-01 +6.53730728318E-01
1.17000000000E+09 -4.74368892590E-01 +8.23664004590E-01 +6.95811551434E-05 +8.64070871185E-07 +3.63119603312E-05 -4.24589026281E-05 -5.58801416324E-01 +6.56959297702E-01
1.17500000000E+09 -4.66852477830E-01 +8.27313191824E-01 +5.41718735746E-05 -2.50319317297E-05 +6.58174198246E-05 -6.32852929440E-05 -5.54057881706E-01 +6.60060874420E-01
1.18000000000E+09 -4.59153472886E-01 +8.31342074261E-01 +7.57718255152E-05 -5.39098117702E-05 +1.12516132166E-04 -4.61611664054E-05 -5.49386567576E-01 +6.63227025470E-01
1.18500000000E+09 -4.51252410963E-01 +8.35007820853E-01 +4.71338081654E-05 -5.26248261952E-05 +8.48824072497E-05 -6.66470438251E-05 -5.44344607786E-01 +6.66296898271E-01
1.19000000000E+09 -4.44071785763E-01 +8.37812800700E-01 +1.16070331046E-04 -8.36900524393E-05 +5.07407354028E-05 -5.67005699944E-05 -5.39083428295E-01 +6.68958187117E-01
1.19500000000E+09 -4.37942714408E-01 +8.39883385196E-01 +1.31193890012E-04 -8.06957951265E-05 +9.48033479943E-05 -1.01914783610E-04 -5.33925732752E-01 +6.70388821027E-01
1.20000000000E+09 -4.32901123529E-01 +8.40701071928E-01 +8.39458498610E-05 -1.53160356276E-04 +5.33180660057E-05 -1.77988977859E-04 -5.29945529930E-01 +6.70815940098E-01
1.20500000000E+09 -4.28070631329E-01 +8.41697459381E-01 -1.61080944596E-05 -1.84684032780E-04 -4.53154721105E-05 -1.88001555545E-04 -5.27909509773E-01 +6.71674814048E-01
1.21000000000E+09 -4.23310941060E-01 +8.42653971883E-01 -2.19596385913E-05 -8.41537476539E-05 -6.24674833620E-05 -1.20434186601E-04 -5.26464832851E-01 +6.74536590058E-01
1.21500000000E+09 -4.17225929716E-01 +8.44106684912E-01 -7.98969822046E-05 -7.45661153860E-05 -3.01925003879E-05 -2.62920836679E-05 -5.24331759621E-01 +6.78812247002E-01
1.22000000000E+09 -4.09887355192E-01 +8.45931245629E-01 -5.51900929924E-06 -7.16396132793E-05 -4.04719694686E-05 -3.87873102803E-05 -5.20801795101E-01 +6.83988182209E-01
1.22500000000E+09 -4.01163095757E-01 +8.48793380055E-01 -6.26635349706E-05 -4.19513810158E-05 -3.74820014383E-05 -3.25752101312E-05 -5.16560792668E-01 +6.88732745134E-01
1.23000000000E+09 -3.91632015533E-01 +8.52197917295E-01 -7.37387430140E-06 -1.60089610742E-05 -1.19865180628E-05 -8.25882321624E-05 -5.11866845388E-01 +6.93272448918E-01
1.23500000000E+09 -3.81667060686E-01 +8.56053841196E-01 +8.10506301255E-06 -8.37942542098E-05 +1.99785330120E-05 -7.04048554544E-05 -5.07067303837E-01 +6.97394595082E-01
1.24000000000E+09 -3.72024952661E-01 +8.60310878801E-01 -4.08355597993E-05 -9.78394756488E-05 -3.86148859957E-05 -5.55521129491E-05 -5.02083165566E-01 +7.01162410885E-01
1.24500000000E+09 -3.63380811657E-01 +8.64773139553E-01 -3.79842689645E-05 -8.12155846926E-05 -3.42486206484E-05 -8.94584921236E-05 -4.96868905290E-01 +7.05010178897E-01
1.25000000000E+09 -3.55581299448E-01 +8.68396769434E-01 -1.97803657425E-05 -1.11909637110E-04 -7.11849310468E-05 -8.82094206510E-05 -4.91521881509E-01 +7.09177636472E-01
1.25500000000E+09 -3.48851895223E-01 +8.70959061098E-01 -1.85194070164E-05 -6.15176098481E-05 -5.66306716734E-07 -8.57892457295E-05 -4.85807609921E-01 +7.13290174380E-01
1.26000000000E+09 -3.42956843634E-01 +8.72785446212E-01 -5.49828478494E-05 -1.11357841639E-04 -1.02762076906E-05 -1.10555822672E-04 -4.80460501415E-01 +7.17547144776E-01
1.26500000000E+09 -3.37355287924E-01 +8.73590210586E-01 -3.72894357584E-05 -1.43864461176E-04 -2.99941855880E-05 -1.65345638769E-04 -4.74488835968E-01 +7.21469440415E-01
1.27000000000E+09 -3.31167407926E-01 +8.74349905323E-01 -7.30240838694E-05 -1.19697256552E-04 -7.66992372245E-05 -1.33549983393E-04 -4.68674241078E-01 +7.25653054062E-01
1.27500000000E+09 -3.23856838186E-01 +8.75280826582E-01 -1.19140475380E-04 -1.24667291313E-04 -9.17888784788E-05 -1.44635526101E-04 -4.62675149122E-01 +7.29258081453E-01
1.28000000000E+09 -3.14395637034E-01 +8.76682122468E-01 -1.27176879297E-04 -9.88553261406E-05 -1.61280382622E-04 -1.41119892883E-04 -4.56453651937E-01 +7.33150872290E-01
1.28500000000E+09 -3.03257845427E-01 +8.78827195937E-01 -1.69263701496E-04 -8.70062952855E-05 -2.01451418718E-04 -9.09973068475E-05 -4.49934963263E-01 +7.37124040957E-01
1.29000000000E+09 -2.91236442722E-01 +8.81570220199E-01 -1.90836340755E-04 -5.72557241545E-05 -1.70629813432E-04 -1.02461182988E-04 -4.43388484182E-01 +7.41091524261E-01
1.29500000000E+09 -2.79028793276E-01 +8.85080308143E-01 -1.80897905455E-04 -7.65054710368E-05 -1.62552384992E-04 -5.81536478169E-05 -4.36608885747E-01 +7.45067497095E-01
1.30000000000E+09 -2.67216865829E-01 +8.88968258250E-01 -1.29547015910E-04 -1.30051757393E-05 -1.77870238058E-04 -2.30610363910E-05 -4.29697994331E-01 +7.48851498559E-01
1.30500000000E+09 -2.56700735735E-01 +8.92554209834E-01 -2.09954976500E-04 -6.29794926652E-05 -1.26343410966E-04 -4.06524039343E-05 -4.22702358998E-01 +7.52585534506E-01
1.31000000000E+09 -2.47675130225E-01 +8.95253860900E-01 -2.24755483477E-04 -3.79821316675E-05 -2.04422130687E-04 -9.84710943790E-06 -4.15323528782E-01 +7.56308113308E-01
1.31500000000E+09 -2.40444642060E-01 +8.96741907544E-01 -2.35277718235E-04 +2.81830166607E-05 -2.21070266231E-04 -2.23865194609E-05 -4.07674592941E-01 +7.59950599186E-01
1.32000000000E+09 -2.34661151554E-01 +8.97423124178E-01 -2.47567803980E-04 +2.66385040273E-05 -2.51380514875E-04 +6.26326553101E-05 -3.99771732416E-01 +7.63611323345E-01
1.32500000000E+09 -2.28973658691E-01 +8.97262673417E-01 -1.97312246550E-04 +7.31910900090E-05 -2.70839383643E-04 +1.18398334894E-04 -3.91453322739E-01 +7.67273323595E-01
1.33000000000E+09 -2.22197679629E-01 +8.96811826919E-01 -1.95353302564E-04 +5.11875713290E-05 -2.71072516950E-04 +1.23390760998E-04 -3.82907916390E-01 +7.70987345300E-01
1.33500000000E+09 -2.13285997410E-01 +8.96217005263E-01 -2.57511667380E-04 +9.67353362602E-05 -2.79902613446E-04 +7.86094698736E-05 -3.74400895072E-01 +7.74576230418E-01
1.34000000000E+09 -2.01743812918E-01 +8.96027843819E-01 -2.88298827130E-04 +1.62997624952E-04 -2.35181918551E-04 +1.45534017846E-04 -3.65436461888E-01 +7.78215441990E-01
1.34500000000E+09 -1.87727671901E-01 +8.96017524683E-01 -2.50917337702E-04 +1.76967837268E-04 -2.60121397664E-04 +1.89584202243E-04 -3.55965745677E-01 +7.81964045866E-01
1.35000000000E+09 -1.71748695171E-01 +8.96684556276E-01 -2.53139858352E-04 +1.85241390980E-04 -2.57879769938E-04 +1.88833072758E-04 -3.46040343125E-01 +7.85695069503E-01
1.35500000000E+09 -1.54664067417E-01 +8.97690619509E-01 -2.67356525360E-04 +2.74890397022E-04 -2.84795335920E-04 +2.23789304021E-04 -3.35627562973E-01 +7.89306094460E-01
1.36000000000E+09 -1.37675595233E-01 +8.98786322599E-01 -2.89957312403E-04 +3.06267757663E-04 -2.14891317263E-04 +2.86623789277E-04 -3.24920945562E-01 +7.92771851907E-01
1.36500000000E+09 -1.21727453683E-01 +8.99594889937E-01 -2.46394141360E-04 +3.48216294657E-04 -2.47150959369E-04 +3.53207045601E-04 -3.14186044281E-01 +7.95837676266E-01
1.37000000000E+09 -1.07895052540E-01 +8.99376662372E-01 -2.41811888598E-04 +3.97027192033E-04 -2.45543119938E-04 +3.62132312275E-04 -3.02669617754E-01 +7.98979448963E-01
1.37500000000E+09 -9.58973314213E-02 +8.99009500791E-01 -1.69175693354E-04 +4.49711593744E-04 -2.44094761617E-04 +4.35483223903E-04 -2.90334479859E-01 +8.02106674993E-01
1.38000000000E+09 -8.52865066758E-02 +8.97910907611E-01 -1.25708879452E-04 +4.88191530259E-04 -2.04006330632E-04 +4.38857448236E-04 -2.77230226089E-01 +8.05103781317E-01
1.38500000000E+09 -7.43258370451E-02 +8.96113957270E-01 -8.80160298554E-05 +4.97292740289E-04 -1.04461401558E-04 +5.18148267612E-04 -2.63349306314E-01 +8.08090479468E-01
1.39000000000E+09 -6.23835083473E-02 +8.93682381499E-01 -7.17554210270E-05 +4.68791218725E-04 -6.31892909696E-05 +5.93394742611E-04 -2.48981407526E-01 +8.10804122644E-01
1.39500000000E+09 -4.78320339046E-02 +8.90617045492E-01 -5.82207739389E-05 +5.20550118023E-04 -4.46295783718E-05 +5.64614025254E-04 -2.33788704900E-01 +8.12995209436E-01
1.40000000000E+09 -3.05194467366E-02 +8.86782607386E-01 -5.89419959542E-05 +6.31564708414E-04 -2.18868599428E-05 +6.83263869297E-04 -2.17921697439E-01 +8.14820758256E-01
1.40500000000E+09 -1.09412239841E-02 +8.82491438836E-01 +3.02446157842E-05 +8.11067305157E-04 +9.83345485488E-05 +8.52064852482E-04 -2.00980480396E-01 +8.16086827245E-01
1.41000000000E+09 +1.07624358050E-02 +8.77679036524E-01 +2.04759343189E-04 +8.22749456556E-04 +2.18230509713E-04 +8.88653934022E-04 -1.82489773498E-01 +8.17076412048E-01
1.41500000000E+09 +3.35345950760E-02 +8.72407100524E-01 +3.87282571759E-04 +9.36732998483E-04 +3.45270576225E-04 +9.32114696478E-04 -1.62693151913E-01 +8.17428380343E-01
1.42000000000E+09 +5.64440868602E-02 +8.66133369318E-01 +5.70461693154E-04 +8.84895048831E-04 +6.49137302982E-04 +1.00667941500E-03 -1.41115016758E-01 +8.17069186354E-01
1.42500000000E+09 +7.82970332588E-02 +8.58881322835E-01 +6.38526770264E-04 +7.99129542470E-04 +7.18615388949E-04 +8.79051166837E-04 -1.18871722757E-01 +8.15661912890E-01
1.43000000000E+09 +9.89424979688E-02 +8.50218962753E-01 +7.48526998978E-04 +8.84112416914E-04 +8.45183513466E-04 +8.95937732491E-04 -9.54288235269E-02 +8.13362711406E-01
1.43500000000E+09 +1.18747877065E-01 +8.39893197340E-01 +9.70864247775E-04 +9.65825735307E-04 +1.07587547068E-03 +9.58346083255E-04 -7.03669336949E-02 +8.09605984715E-01
1.44000000000E+09 +1.38933150315E-01 +8.27931328724E-01 +1.38647464174E-03 +9.20330663295E-04 +1.46881441104E-03 +8.06868957560E-04 -4.33046999571E-02 +8.04001922222E-01
1.44500000000E+09 +1.60982994868E-01 +8.12911062407E-01 +1.64404938982E-03 +5.90675792992E-04 +1.71694710243E-03 +4.60798220476E-04 -1.39787545034E-02 +7.96069260900E-01
1.45000000000E+09 +1.85358964857E-01 +7.94407310136E-01 +1.68423728727E-03 +3.53588791562E-04 +1.74237149496E-03 +2.59503800151E-04 +1.73579487324E-02 +7.84791240909E-01
1.45500000000E+09 +2.12258333576E-01 +7.72456514391E-01 +1.91398780571E-03 +3.24765896725E-04 +1.96548123937E-03 +1.81714309464E-04 +5.02972545446E-02 +7.71075258162E-01
1.46000000000E+09 +2.42819169475E-01 +7.46376114418E-01 +2.26978536161E-03 +1.08475666349E-04 +2.16674643323E-03 -1.17060253082E-04 +8.47809282607E-02 +7.52982428113E-01
1.46500000000E+09 +2.74928235159E-01 +7.15620775736E-01 +2.68501282831E-03 -2.42204942232E-04 +2.44334503636E-03 -4.07017182588E-04 +1.21077626124E-01 +7.30742581434E-01
1.47000000000E+09 +3.08077913029E-01 +6.80407068163E-01 +3.02585921708E-03 -9.97385118706E-04 +2.76959224574E-03 -9.05198566593E-04 +1.58669032640E-01 +7.01380001418E-01
1.47500000000E+09 +3.40465463646E-01 +6.39590045490E-01 +3.02719093048E-03 -2.00426476934E-03 +2.98216917231E-03 -1.76992456826E-03 +1.97045908361E-01 +6.65066299713E-01
1.48000000000E+09 +3.69699682883E-01 +5.92416951892E-01 +2.50920553837E-03 -2.75437014649E-03 +2.61567860090E-03 -2.69780459162E-03 +2.35411380713E-01 +6.19978406911E-01
1.48500000000E+09 +3.93292742847E-01 +5.38684377938E-01 +2.21119577438E-03 -3.20496873012E-03 +2.20526556275E-03 -3.30260521308E-03 +2.71739766137E-01 +5.65853631492E-01
1.49000000000E+09 +4.10728834030E-01 +4.77685102898E-01 +1.86579930781E-03 -4.13164008315E-03 +1.68681959380E-03 -4.16099266054E-03 +3.03560774788E-01 +4.99987820894E-01
1.49500000000E+09 +4.19834674095E-01 +4.08691736478E-01 +9.68291483061E-04 -5.01059726383E-03 +7.44538122259E-04 -4.83961209536E-03 +3.24602483020E-01 +4.23962975435E-01
1.50000000000E+09 +4.20273523394E-01 +3.30706871977E-01 -4.67105612955E-04 -5.69532633045E-03 -3.96590400884E-04 -5.32963662246E-03 +3.34647735762E-01 +3.39210808774E-01
1.50500000000E+09 +4.07521614153E-01 +2.42284953685E-01 -1.88037257039E-03 -5.84817832277E-03 -1.62996268173E-03 -5.66676439382E-03 +3.27874826021E-01 +2.45115487859E-01
1.51000000000E+09 +3.77725634012E-01 +1.48480812127E-01 -3.84218869462E-03 -5.41646170623E-03 -3.55332550235E-03 -5.52701760057E-03 +3.00406111344E-01 +1.46374312412E-01
1.51500000000E+09 +3.27904639000E-01 +5.44777779583E-02 -5.23703452510E-03 -4.80818639808E-03 -5.16626149581E-03 -4.99535218325E-03 +2.49691027974E-01 +5.19484086537E-02
1.52000000000E+09 +2.57996716000E-01 -3.00233131611E-02 -7.53858752199E-03 -3.03359599560E-03 -7.55380787751E-03 -3.19400730634E-03 +1.78711966638E-01 -3.24748478324E-02
1.52500000000E+09 +1.71190210057E-01 -1.00147223634E-01 -7.76236732507E-03 +2.10291889542E-04 -7.87491824600E-03 +1.37475747521E-04 +8.83440652119E-02 -9.84803714253E-02
1.53000000000E+09 +6.98547245290E-02 -1.48861065351E-01 -6.59043244180E-03 +2.00690892910E-03 -6.61670179937E-03 +1.95998126927E-03 -1.24949232298E-02 -1.41620439972E-01
1.53500000000E+09 -3.91190718441E-02 -1.73274752534E-01 -5.92985714763E-03 +3.61614182740E-03 -5.92505763205E-03 +3.60160505665E-03 -1.17434872915E-01 -1.60075671236E-01
1.54000000000E+09 -1.51803598940E-01 -1.70314687646E-01 -4.16717893500E-03 +4.50172666026E-03 -4.15639256919E-03 +4.41678371016E-03 -2.17975676459E-01 -1.56653316607E-01
1.54500000000E+09 -2.58400227745E-01 -1.43995007954E-01 -3.15628398649E-03 +5.08874115993E-03 -3.24075751963E-03 +4.90615203561E-03 -3.08020954355E-01 -1.35286933491E-01
1.55000000000E+09 -3.54282139336E-01 -9.69999283719E-02 -1.58123532100E-03 +5.77477556076E-03 -1.87332047995E-03 +5.71718634713E-03 -3.85741239254E-01 -1.02281618757E-01
1.55500000000E+09 -4.33145221063E-01 -3.89955620037E-02 +3.05375469317E-04 +5.48266766767E-03 +6.02845390813E-05 +5.62235332597E-03 -4.50531056117E-01 -5.98888325726E-02
1.56000000000E+09 -4.97066343935E-01 +2.20588401780E-02 +1.56709373831E-03 +4.29642651120E-03 +1.47002351684E-03 +4.53961086040E-03 -5.02431878124E-01 -1.27912569799E-02
1.56500000000E+09 -5.48055719041E-01 +8.40525711900E-02 +1.84951717690E-03 +3.28051489365E-03 +1.94562052779E-03 +3.50141112294E-03 -5.42985701599E-01 +3.65558567361E-02
1.57000000000E+09 -5.85125263537E-01 +1.44274329764E-01 +2.10842309159E-03 +2.55439584905E-03 +2.30640992810E-03 +2.68838235626E-03 -5.73770369793E-01 +8.49448571285E-02
