# Hz S RI R 50
! CMT, C1220, 16058040, 17.2.0/1
! Date: 14/08/2018 12:37:43
! Data: Format (Calibration Info)
! Freq                      S11: Re/Im (F2)                       S21: Re/Im (F2)                       S12: Re/Im (F2)                       S22: Re/Im (F2)            
1.00000000000E+09 -6.46766902019E-01 +7.14512074633E-01 +1.14807787419E-05 +5.44326098674E-05 +1.98638842657E-05 -2.94646437052E-05 -6.70311896482E-01 +5.37870049369E-01
1.00500000000E+09 -6.39587795425E-01 +7.19865083984E-01 +6.60303267525E-07 +1.98816211546E-06 -5.98100938627E-06 +1.62268468954E-05 -6.67289255543E-01 +5.41524613946E-01
1.01000000000E+09 -6.33800317104E-01 +7.24782828341E-01 -7.50081477880E-05 +1.81948270571E-05 -4.16635040066E-05 +1.44317813490E-05 -6.64452755997E-01 +5.44845805587E-01
1.01500000000E+09 -6.29357558629E-01 +7.28720927601E-01 -6.51932000439E-05 +6.29814229688E-05 -4.81119766632E-05 +1.86091256420E-05 -6.61760216859E-01 +5.48021443247E-01
1.02000000000E+09 -6.26410401392E-01 +7.31993511602E-01 +2.29093305713E-05 -1.00395261327E-05 -1.35740607169E-05 +3.27433701117E-05 -6.59061019363E-01 +5.51153813508E-01
1.02500000000E+09 -6.24289628097E-01 +7.34812977419E-01 +2.10729567537E-05 -2.11958701620E-05 -3.12829587187E-05 +8.52710693813E-05 -6.57130824021E-01 +5.54200521805E-01
1.03000000000E+09 -6.22899260380E-01 +7.37002944910E-01 -1.51322109000E-05 -2.81917994056E-06 -3.00709564550E-05 +5.15607690555E-05 -6.54364338130E-01 +5.57829120420E-01
1.03500000000E+09 -6.20781692146E-01 +7.39299807025E-01 -3.08546983274E-05 +8.69183277771E-06 -2.66932700127E-05 +1.78987463174E-05 -6.51421894529E-01 +5.61309372542E-01
1.04000000000E+09 -6.17214334146E-01 +7.41930149880E-01 +2.44844382470E-05 +3.88153626198E-05 +6.12304850423E-06 +7.85536320461E-05 -6.48236447254E-01 +5.64867277377E-01
1.04500000000E+09 -6.12170671398E-01 +7.45513496351E-01 +6.53883520098E-06 +2.20405508453E-05 -1.91576698608E-05 -2.11203230249E-05 -6.45369672877E-01 +5.68063030498E-01
1.05000000000E+09 -6.05333985276E-01 +7.49494008742E-01 +2.07047466359E-05 +7.76550939028E-05 +9.87678775720E-07 +6.72056148704E-05 -6.42769544802E-01 +5.71339409060E-01
1.05500000000E+09 -5.97334976570E-01 +7.53966871360E-01 +2.74853481175E-05 +4.76640209390E-05 -3.37359336312E-05 +5.83405122431E-05 -6.40143200837E-01 +5.74634774103E-01
1.06000000000E+09 -5.88699354028E-01 +7.59284440661E-01 -8.19502772434E-07 +5.06584061030E-05 +3.34111432353E-05 +2.19051100603E-05 -6.37601333633E-01 +5.78297954754E-01
1.06500000000E+09 -5.80433981375E-01 +7.64293560039E-01 -1.15032286481E-05 +1.32819751004E-05 -1.12757335957E-05 +4.66871829502E-05 -6.34539006540E-01 +5.81757111422E-01
1.07000000000E+09 -5.73070072463E-01 +7.68758049844E-01 +2.28895132375E-05 +4.57288348319E-05 +2.22931833094E-05 +4.20206700028E-05 -6.31137143712E-01 +5.85325671485E-01
1.07500000000E+09 -5.67397913680E-01 +7.72453271086E-01 +3.41594572562E-05 -3.22897767029E-05 -2.88420439246E-05 +2.46645498212E-05 -6.27481593913E-01 +5.88847102086E-01
1.08000000000E+09 -5.63360800274E-01 +7.75756279085E-01 -1.81603496792E-05 +4.45332735526E-05 -3.10914516979E-06 -7.19919787976E-06 -6.24311635682E-01 +5.92384187898E-01
1.08500000000E+09 -5.60510625881E-01 +7.77845609000E-01 +4.69927937359E-05 +4.89270788509E-06 +3.16310090282E-05 -9.34407589317E-06 -6.21162903898E-01 +5.95857941653E-01
1.09000000000E+09 -5.58360816362E-01 +7.79914734670E-01 +3.74646103727E-07 +1.63652285620E-05 +1.43096634117E-05 +2.24891508119E-05 -6.18211168594E-01 +5.99432006988E-01
1.09500000000E+09 -5.56571546258E-01 +7.81584193585E-01 +5.68915982333E-05 -1.39664012000E-07 +3.14016535061E-05 -1.59809473416E-05 -6.15132693804E-01 +6.02916678492E-01
1.10000000000E+09 -5.53565689450E-01 +7.83515077059E-01 +1.32249025801E-05 -2.74430524707E-06 +2.11175356884E-05 +2.15754796735E-05 -6.12030942417E-01 +6.06572792296E-01
1.10500000000E+09 -5.49580062066E-01 +7.86235856573E-01 +1.59798601650E-05 -2.99378847237E-06 +3.20260560260E-05 +1.92813097040E-05 -6.08593679242E-01 +6.09843112610E-01
1.11000000000E+09 -5.43837467137E-01 +7.89756422216E-01 +4.73303929528E-05 +4.02105547057E-06 -2.49639125544E-05 +1.49749133893E-05 -6.05206078144E-01 +6.13012459164E-01
1.11500000000E+09 -5.37061178791E-01 +7.93821133325E-01 +1.58156278252E-05 +4.12841287072E-05 +2.76344350379E-05 +3.50467442577E-05 -6.01881017802E-01 +6.16416217473E-01
1.12000000000E+09 -5.29417746686E-01 +7.98184277968E-01 +1.30472387775E-05 +3.05896649262E-05 -2.29661053530E-05 +3.88035029417E-05 -5.98535952983E-01 +6.19867194233E-01
1.12500000000E+09 -5.21609294766E-01 +8.02623047593E-01 +9.47317348412E-05 +2.19348303940E-05 +1.94705910450E-05 +3.81368276192E-06 -5.95405872336E-01 +6.23782356630E-01
1.13000000000E+09 -5.14600788622E-01 +8.06370402981E-01 +3.30373738741E-05 +2.64417786877E-05 +1.28059675157E-05 -1.20415913785E-05 -5.91733490402E-01 +6.27448583812E-01
1.13500000000E+09 -5.08372607599E-01 +8.09367053775E-01 +3.74989955748E-05 -2.62111566924E-05 +6.00335972958E-05 +4.46663185190E-05 -5.87745610140E-01 +6.31364964906E-01
1.14000000000E+09 -5.03307224609E-01 +8.11730448766E-01 +5.70324940261E-05 -1.30915432087E-05 +4.11458709874E-05 +1.48137130067E-05 -5.83639875140E-01 +6.34725500873E-01
1.14500000000E+09 -4.99287847445E-01 +8.13107167383E-01 +2.83354994481E-05 -7.73456945921E-06 +5.14792905291E-05 -6.56344981636E-06 -5.79696519532E-01 +6.37904058549E-01
1.15000000000E+09 -4.95634954221E-01 +8.14334511707E-01 +3.43562725728E-05 -3.66747247044E-05 +3.63286551371E-06 -3.09763936987E-05 -5.75683941785E-01 +6.41780224176E-01
1.15500000000E+09 -4.92050482920E-01 +8.15783403109E-01 +5.42865532972E-05 +1.11611109559E-05 +2.81157852930E-05 +4.61632961107E-06 -5.71696694462E-01 +6.45517193364E-01
1.16000000000E+09 -4.87495053287E-01 +8.17459445733E-01 +5.33659454554E-05 -3.02051964135E-05 +1.01761135204E-04 -6.30983183762E-05 -5.67762430789E-01 +6.49080787453E-01
1.16500000000E+09 -4.81865665115E-01 +8.20329436615E-01 +8.67585047418E-05 -3.15773946338E-05 +5.91913358771E-05 -7.61377100854E-05 -5.63646431665E-01 +6.52557778356E-01
1.17000000000E+09 -4.75070387472E-01 +8.23581248648E-01 +8.00152131806E-05 -2.19220877750E-05 +4.93167545147E-06 -1.65891047230E-05 -5.59207112033E-01 +6.55770349276E-01
1.17500000000E+09 -4.67468242939E-01 +8.27329098524E-01 +6.28576171700E-05 -6.04687834754E-05 +5.59256053220E-05 -9.99705053217E-06 -5.54379032231E-01 +6.58893014845E-01
1.18000000000E+09 -4.59592841722E-01 +8.31399795132E-01 +5.00787732753E-05 -4.56900039362E-05 +5.48007116005E-05 -4.39176466062E-05 -5.49760513768E-01 +6.62004578047E-01
1.18500000000E+09 -4.51785369833E-01 +8.35105150433E-01 +7.33499020343E-05 -5.28883536803E-05 +8.91308492449E-05 -1.51057585073E-05 -5.44748011726E-01 +6.65088815899E-01
1.19000000000E+09 -4.44499917075E-01 +8.38155300183E-01 +4.06070804361E-05 -5.03748460322E-05 +6.04812938989E-05 -6.86176351578E-05 -5.39490623429E-01 +6.67824094209E-01
1.19500000000E+09 -4.38517567382E-01 +8.40398394044E-01 +1.10704235113E-04 -1.27168138535E-04 +1.04329628435E-04 -5.72907196585E-05 -5.34441662982E-01 +6.69242850481E-01
1.20000000000E+09 -4.33316039944E-01 +8.41191085209E-01 +3.88895817879E-05 -1.74481953442E-04 +1.46894869608E-05 -1.81485752170E-04 -5.30450260838E-01 +6.69796969919E-01
1.20500000000E+09 -4.28815099996E-01 +8.42064372535E-01 -8.25714854916E-05 -1.30746011266E-04 -6.53451326153E-05 -1.37472654870E-04 -5.28352475278E-01 +6.70597175216E-01
1.21000000000E+09 -4.24025363301E-01 +8.43035798089E-01 -8.63645789999E-05 -6.07670251810E-05 -8.75924876409E-05 -5.51760418233E-05 -5.26893580126E-01 +6.73586032481E-01
1.21500000000E+09 -4.17986327538E-01 +8.44358246272E-01 -2.00785372276E-05 -3.84681385170E-05 -2.92461756920E-05 -1.78703539159E-05 -5.24720440251E-01 +6.77811234755E-01
1.22000000000E+09 -4.10699547999E-01 +8.46244648291E-01 +1.08094171868E-05 -3.46272228417E-05 -6.19797535945E-06 -6.56538367718E-05 -5.21159732438E-01 +6.82945847308E-01
1.22500000000E+09 -4.01917615545E-01 +8.48838861383E-01 +1.84105850141E-06 -3.97265923240E-05 -9.09482156469E-06 -5.84571609159E-05 -5.17040808987E-01 +6.87664336587E-01
1.23000000000E+09 -3.92136269631E-01 +8.52329786091E-01 -2.38637541235E-05 -4.46114882546E-05 -4.21365944170E-07 -8.78579560773E-05 -5.12397075402E-01 +6.92187157721E-01
1.23500000000E+09 -3.82182037646E-01 +8.56280945437E-01 -3.64720227244E-05 -6.19704739145E-05 -8.47533438182E-06 -7.72765977409E-05 -5.07515962448E-01 +6.96346174458E-01
1.24000000000E+09 -3.72285020282E-01 +8.60476200654E-01 -1.82909143199E-05 -5.57443070412E-05 -3.79004971770E-05 -9.90664656287E-05 -5.02619758035E-01 +7.00164236248E-01
1.24500000000E+09 -3.63469688497E-01 +8.65024027474E-01 -3.62783047867E-05 -4.52295817984E-05 -1.14026601484E-05 -6.84062138236E-05 -4.97506023182E-01 +7.03886850235E-01
1.25000000000E+09 -3.55491664911E-01 +8.68664178172E-01 -3.05477937201E-05 -6.73700746407E-05 -3.30801577055E-05 -8.54627656194E-05 -4.92113907349E-01 +7.08017849598E-01
1.25500000000E+09 -3.48726152113E-01 +8.71294989047E-01 -4.00307348971E-05 -8.49461467497E-05 -4.67350831915E-05 -8.96931104142E-05 -4.86408137217E-01 +7.12071951844E-01
1.26000000000E+09 -3.42819724898E-01 +8.72886434424E-01 -6.58199285447E-05 -1.10503284705E-04 -9.26595636758E-05 -8.99408525472E-05 -4.80930472369E-01 +7.16559092598E-01
1.26500000000E+09 -3.37413512620E-01 +8.73939920013E-01 -5.38934289599E-05 -8.21344468962E-05 -5.94480706756E-05 -1.15181193428E-04 -4.75149555453E-01 +7.20647808627E-01
1.27000000000E+09 -3.31390939923E-01 +8.74822323615E-01 -1.10873186402E-04 -1.34149457355E-04 -9.93709836699E-05 -9.21228107087E-05 -4.69405994897E-01 +7.24628180741E-01
1.27500000000E+09 -3.23955616254E-01 +8.75772296479E-01 -1.50999253464E-04 -9.25824640619E-05 -1.32036068565E-04 -1.15103570128E-04 -4.63301788228E-01 +7.28362758774E-01
1.28000000000E+09 -3.14876031744E-01 +8.77309173753E-01 -1.33181530863E-04 -9.47502138341E-05 -1.75605886516E-04 -7.11911483521E-05 -4.57014659157E-01 +7.32230749007E-01
1.28500000000E+09 -3.03764889168E-01 +8.79383406569E-01 -1.59908850915E-04 -3.99527679676E-05 -2.14419471516E-04 -6.34282775638E-05 -4.50743249338E-01 +7.36307547675E-01
1.29000000000E+09 -2.91872792169E-01 +8.82241156014E-01 -1.98463467239E-04 -5.39270673120E-05 -1.59315488256E-04 -7.83657787313E-07 -4.44068296229E-01 +7.40263855977E-01
1.29500000000E+09 -2.79655399631E-01 +8.85727788072E-01 -1.84273726142E-04 -4.09225662907E-05 -2.28884147308E-04 +1.59328525144E-05 -4.37304631402E-01 +7.44077606191E-01
1.30000000000E+09 -2.67842414913E-01 +8.89496117330E-01 -1.82982326498E-04 -9.66898356278E-06 -1.68312558213E-04 -4.88781311162E-07 -4.30429645272E-01 +7.47980663540E-01
1.30500000000E+09 -2.57287762973E-01 +8.93082057964E-01 -2.07799923464E-04 -1.67063526410E-05 -1.94904528479E-04 +2.93299455078E-05 -4.23360346972E-01 +7.51729945003E-01
1.31000000000E+09 -2.47956710273E-01 +8.95668106487E-01 -2.61885632445E-04 -4.74738408577E-06 -2.36658677761E-04 +2.53322093268E-05 -4.16093454292E-01 +7.55428868551E-01
1.31500000000E+09 -2.40855826966E-01 +8.97290332974E-01 -2.35439202488E-04 +8.82687216321E-05 -2.22872021826E-04 +1.29463507343E-05 -4.08424082160E-01 +7.59100336335E-01
1.32000000000E+09 -2.34699907029E-01 +8.97899047706E-01 -2.16330178080E-04 +8.40236444979E-05 -2.72049024346E-04 +5.09873063967E-05 -4.00437363849E-01 +7.62885692683E-01
1.32500000000E+09 -2.28847891281E-01 +8.97736289721E-01 -2.08578590084E-04 +1.14696253855E-04 -2.35441288459E-04 +1.20911139289E-04 -3.92184073344E-01 +7.66574649993E-01
1.33000000000E+09 -2.21868270071E-01 +8.97164022900E-01 -1.98851745653E-04 +1.39262791823E-04 -2.15718888305E-04 +1.64585634203E-04 -3.83869179639E-01 +7.70250770785E-01
1.33500000000E+09 -2.12949450894E-01 +8.96628515154E-01 -2.13549078243E-04 +1.35909897592E-04 -2.01626746040E-04 +1.60801922497E-04 -3.75362671668E-01 +7.73825728246E-01
1.34000000000E+09 -2.01282259443E-01 +8.96358251451E-01 -2.56604654599E-04 +1.59639153719E-04 -2.28297397136E-04 +1.70741982193E-04 -3.66322645975E-01 +7.77552571084E-01
1.34500000000E+09 -1.86938811548E-01 +8.96420300171E-01 -2.26669577818E-04 +1.80874252494E-04 -2.04026044694E-04 +1.94126024485E-04 -3.56703668798E-01 +7.81384045221E-01
1.35000000000E+09 -1.70927609830E-01 +8.96978668751E-01 -2.44405751354E-04 +2.26350377097E-04 -2.05393009358E-04 +2.50002311577E-04 -3.46772106172E-01 +7.85138434452E-01
1.35500000000E+09 -1.53812099825E-01 +8.98032936265E-01 -2.18786665518E-04 +3.07296674656E-04 -2.31514241885E-04 +2.84701381732E-04 -3.36450035748E-01 +7.88671796892E-01
1.36000000000E+09 -1.37055930942E-01 +8.99085843730E-01 -1.98162683141E-04 +3.49747295848E-04 -2.09881926790E-04 +2.98387386151E-04 -3.25781065339E-01 +7.92193434053E-01
1.36500000000E+09 -1.21120942457E-01 +8.99816030533E-01 -2.54886604121E-04 +4.04543801966E-04 -1.87106041513E-04 +3.77369153163E-04 -3.14909178381E-01 +7.95417246504E-01
1.37000000000E+09 -1.07185393653E-01 +8.99968844964E-01 -1.13108053037E-04 +4.93501863335E-04 -1.53153988541E-04 +4.77335873373E-04 -3.03473499154E-01 +7.98638485740E-01
1.37500000000E+09 -9.53786983539E-02 +8.99322957362E-01 -5.17322322965E-05 +5.19007754165E-04 -9.54224465618E-05 +4.63697626008E-04 -2.91101510784E-01 +8.01811598901E-01
1.38000000000E+09 -8.45408659009E-02 +8.98350807577E-01 -2.55943211326E-05 +5.11703509209E-04 -5.61732116014E-05 +4.81907926161E-04 -2.77979441764E-01 +8.04990377268E-01
1.38500000000E+09 -7.35569491426E-02 +8.96294134037E-01 +3.32063344492E-05 +5.23319413591E-04 -2.62728792396E-05 +6.01079169522E-04 -2.63970694279E-01 +8.07871011659E-01
1.39000000000E+09 -6.12243637850E-02 +8.93660408499E-01 +6.96192879386E-05 +5.97740172816E-04 +7.41411873265E-05 +6.95062407571E-04 -2.49490726008E-01 +8.10580991426E-01
1.39500000000E+09 -4.64668299292E-02 +8.90345597340E-01 +1.31116194881E-04 +5.87109135241E-04 +1.59359108780E-04 +6.58944243752E-04 -2.34204457696E-01 +8.12691316600E-01
1.40000000000E+09 -2.88987859766E-02 +8.86122433631E-01 +1.15356003288E-04 +6.56685312020E-04 +2.08298649151E-04 +6.72591925378E-04 -2.18353204332E-01 +8.14657369958E-01
1.40500000000E+09 -9.04462390493E-03 +8.81441073943E-01 +3.27442839594E-04 +7.84613779727E-04 +3.08386689621E-04 +7.45436577383E-04 -2.01352716047E-01 +8.16008215620E-01
1.41000000000E+09 +1.28623792125E-02 +8.76403063727E-01 +4.44205798233E-04 +7.62600705522E-04 +3.76823520465E-04 +7.89186915061E-04 -1.82736919790E-01 +8.17112199024E-01
1.41500000000E+09 +3.56488818865E-02 +8.70901119937E-01 +6.18010051964E-04 +8.18092817916E-04 +6.05629538860E-04 +8.82468822256E-04 -1.62739086296E-01 +8.17493377705E-01
1.42000000000E+09 +5.85618463860E-02 +8.64515059122E-01 +7.02097181184E-04 +6.99044051307E-04 +8.20896010177E-04 +8.27538511285E-04 -1.41171860331E-01 +8.17144316554E-01
1.42500000000E+09 +8.01504446650E-02 +8.57024632949E-01 +7.84626172867E-04 +7.07016384841E-04 +9.61889066573E-04 +7.42809702897E-04 -1.18600232515E-01 +8.15713366478E-01
1.43000000000E+09 +1.00737653894E-01 +8.48326590677E-01 +9.82877703948E-04 +6.88805210938E-04 +1.19108609284E-03 +6.52120297866E-04 -9.50818932654E-02 +8.13322578523E-01
1.43500000000E+09 +1.20511404551E-01 +8.37614250913E-01 +1.24081455994E-03 +7.56620713983E-04 +1.34794325640E-03 +6.46097840153E-04 -6.98920866916E-02 +8.09441115870E-01
1.44000000000E+09 +1.40372387775E-01 +8.25384667655E-01 +1.69714147849E-03 +5.57853118925E-04 +1.79496527041E-03 +4.53172349724E-04 -4.28012217505E-02 +8.03817693539E-01
1.44500000000E+09 +1.62268061734E-01 +8.09873162965E-01 +1.91104755422E-03 +1.00602618641E-04 +1.94601300678E-03 -5.18974767487E-05 -1.32753197272E-02 +7.95600933889E-01
1.45000000000E+09 +1.86683472993E-01 +7.90981212806E-01 +1.83115570160E-03 -2.08041095788E-04 +1.85282736418E-03 -3.28899589202E-04 +1.81608734564E-02 +7.84413996201E-01
1.45500000000E+09 +2.13656869674E-01 +7.67885406436E-01 +1.94231540257E-03 -3.10218101631E-04 +1.94285764897E-03 -4.47894937692E-04 +5.15512009518E-02 +7.70380398287E-01
1.46000000000E+09 +2.43711279905E-01 +7.40476059043E-01 +2.28139718604E-03 -5.33751213096E-04 +2.12157194366E-03 -7.10782691980E-04 +8.63281783891E-02 +7.52085410481E-01
1.46500000000E+09 +2.75369315625E-01 +7.08569783277E-01 +2.68777038839E-03 -1.04811717136E-03 +2.44216949711E-03 -1.15687464443E-03 +1.22793352083E-01 +7.29180781892E-01
1.47000000000E+09 +3.07406268814E-01 +6.72105135257E-01 +2.86235839885E-03 -1.97312494016E-03 +2.59034495768E-03 -1.81347249975E-03 +1.60558749541E-01 +6.99177036902E-01
1.47500000000E+09 +3.38624891833E-01 +6.30620283302E-01 +2.57566377953E-03 -3.08571818100E-03 +2.55890454253E-03 -2.92475538020E-03 +1.98644083252E-01 +6.61973803233E-01
1.48000000000E+09 +3.66235326426E-01 +5.82712010161E-01 +1.63606458618E-03 -3.81502435842E-03 +1.76934072716E-03 -3.77802381298E-03 +2.36526436974E-01 +6.16117988338E-01
1.48500000000E+09 +3.87683374092E-01 +5.28689306322E-01 +1.12939795521E-03 -4.21386092979E-03 +1.09833129394E-03 -4.32329254190E-03 +2.72115290042E-01 +5.61184220198E-01
1.49000000000E+09 +4.02833290335E-01 +4.67602450897E-01 +3.78592332734E-04 -4.92025589479E-03 +1.84580719863E-04 -4.93654080850E-03 +3.02877771952E-01 +4.94902197237E-01
1.49500000000E+09 +4.08922664004E-01 +3.99336844687E-01 -9.98424632368E-04 -5.78167999992E-03 -1.12870230729E-03 -5.50814975491E-03 +3.22761978237E-01 +4.18412284548E-01
1.50000000000E+09 +4.06159769190E-01 +3.22993155442E-01 -3.00815609404E-03 -5.50701158223E-03 -2.85063363856E-03 -5.16017937727E-03 +3.31233979263E-01 +3.33440359001E-01
1.50500000000E+09 +3.90350372288E-01 +2.37482088691E-01 -4.07435463810E-03 -5.01220362173E-03 -3.76277686737E-03 -4.99348325784E-03 +3.22307983296E-01 +2.39831039994E-01
1.51000000000E+09 +3.57940278040E-01 +1.47684315451E-01 -6.03890367081E-03 -4.18524480637E-03 -5.79106786993E-03 -4.37518396881E-03 +2.92631732583E-01 +1.42668336194E-01
1.51500000000E+09 +3.07316105925E-01 +5.88319723712E-02 -7.51506588767E-03 -2.75794218524E-03 -7.50155559258E-03 -2.96234001875E-03 +2.40643262821E-01 +5.11395282574E-02
1.52000000000E+09 +2.37983861344E-01 -2.10443979164E-02 -9.15383497282E-03 +5.65491620970E-05 -9.26188647180E-03 -9.46882729013E-05 +1.69972176688E-01 -3.03266221056E-02
1.52500000000E+09 +1.53614915910E-01 -8.56650125136E-02 -8.07437194668E-03 +4.07074300801E-03 -8.17362906948E-03 +4.00866785933E-03 +8.10262839952E-02 -9.36765574882E-02
1.53000000000E+09 +5.59518100649E-02 -1.31806164826E-01 -5.45882903676E-03 +5.26608904077E-03 -5.50961694422E-03 +5.28355930386E-03 -1.75766343123E-02 -1.34957761021E-01
1.53500000000E+09 -4.93861491984E-02 -1.51817586156E-01 -4.07922072892E-03 +6.27619643330E-03 -4.08878515370E-03 +6.27547084532E-03 -1.20114327424E-01 -1.52945733142E-01
1.54000000000E+09 -1.54808819886E-01 -1.47234601235E-01 -2.03323652032E-03 +6.37855814872E-03 -2.00890179749E-03 +6.30550026394E-03 -2.18424671541E-01 -1.49411046149E-01
1.54500000000E+09 -2.55962450699E-01 -1.21906956633E-01 -5.89509743865E-04 +6.66659547465E-03 -7.16173591371E-04 +6.56780696845E-03 -3.06225393081E-01 -1.28777829252E-01
1.55000000000E+09 -3.46754416735E-01 -7.75214404243E-02 +1.28647979218E-03 +6.33615947669E-03 +1.02663184453E-03 +6.36038125607E-03 -3.82435319687E-01 -9.72126918943E-02
1.55500000000E+09 -4.22892338464E-01 -2.32585496299E-02 +3.03732544229E-03 +5.02451764907E-03 +2.91694567818E-03 +5.26357230695E-03 -4.46679853599E-01 -5.62101099010E-02
1.56000000000E+09 -4.85369310358E-01 +3.46789805333E-02 +3.48825866635E-03 +3.39059289433E-03 +3.52029013737E-03 +3.63710307368E-03 -4.98083155113E-01 -1.01996225089E-02
1.56500000000E+09 -5.35372270191E-01 +9.36280004407E-02 +3.54066107475E-03 +2.29868755210E-03 +3.69646701128E-03 +2.52768517638E-03 -5.38319026000E-01 +3.78229022568E-02
1.57000000000E+09 -5.72374731052E-01 +1.51086549699E-01 +3.54723258988E-03 +1.44808320726E-03 +3.68699747727E-03 +1.51762610393E-03 -5.69141743953E-01 +8.50522397778E-02
