# Hz S RI R 50
! CMT, C1220, 16058040, 17.2.0/1
! Date: 14/08/2018 12:36:35
! Data: Format (Calibration Info)
! Freq                      S11: Re/Im (F2)                       S21: Re/Im (F2)                       S12: Re/Im (F2)                       S22: Re/Im (F2)            
1.00000000000E+09 -6.44175385209E-01 +7.15435575600E-01 +2.12338687459E-05 -1.62545622510E-05 +3.28634031403E-05 +2.46554334313E-05 -6.70510080820E-01 +5.34249796096E-01
1.00500000000E+09 -6.36908162887E-01 +7.20673373959E-01 -2.03526761331E-05 -3.59036858488E-05 -2.17971705781E-06 -2.48101828252E-05 -6.67392698573E-01 +5.37851357068E-01
1.01000000000E+09 -6.30922501493E-01 +7.25485662137E-01 -1.80309587226E-05 +2.86679926365E-05 +5.68245817477E-06 -2.39647549867E-05 -6.64526409800E-01 +5.41117732487E-01
1.01500000000E+09 -6.26515746569E-01 +7.29709417102E-01 +4.70117377749E-05 -2.78037866393E-05 +1.99495267767E-05 +1.52515863909E-05 -6.61981186741E-01 +5.44369095845E-01
1.02000000000E+09 -6.23769087407E-01 +7.32736343718E-01 -1.60628617443E-05 -5.95996439082E-05 +1.82477016109E-05 +1.13017847124E-05 -6.59391964339E-01 +5.47372650950E-01
1.02500000000E+09 -6.21951846533E-01 +7.35308281725E-01 -6.11825259436E-05 -1.99168744186E-05 +5.30021376706E-06 +7.05747698410E-05 -6.57159926139E-01 +5.50719783390E-01
1.03000000000E+09 -6.20807857806E-01 +7.37473223707E-01 -5.89001552762E-05 -1.63972414801E-05 +1.11164553886E-05 +2.39025291407E-07 -6.54561678263E-01 +5.53988017641E-01
1.03500000000E+09 -6.18863186971E-01 +7.39609896822E-01 -3.95270560067E-05 +2.75095530102E-05 -3.56795405808E-05 +5.00917118345E-05 -6.51549502263E-01 +5.57794832046E-01
1.04000000000E+09 -6.15576403691E-01 +7.42201386830E-01 -3.13700643863E-05 +2.72606466818E-05 +1.72473178827E-06 +4.40754653022E-05 -6.48659928098E-01 +5.61202422538E-01
1.04500000000E+09 -6.10620225758E-01 +7.45497840413E-01 -3.77408083427E-05 +3.07150880744E-05 -1.46561775511E-05 +3.38400035537E-05 -6.45959982773E-01 +5.64375246508E-01
1.05000000000E+09 -6.03724985474E-01 +7.49709863262E-01 +2.56670356447E-05 +3.32774282497E-05 -4.02222887959E-05 +3.53502795662E-05 -6.43372168134E-01 +5.67683830470E-01
1.05500000000E+09 -5.95481529184E-01 +7.54288744162E-01 +4.23858761158E-05 +8.24388937978E-05 +3.78680837227E-05 +2.96968797696E-05 -6.40645936870E-01 +5.71053958891E-01
1.06000000000E+09 -5.86556669918E-01 +7.59500573061E-01 +2.66518250886E-05 -5.91513409735E-06 -4.05363469524E-05 +8.08665348040E-06 -6.38172591809E-01 +5.74772673265E-01
1.06500000000E+09 -5.77794504683E-01 +7.64755020850E-01 -1.24742272894E-05 +8.15931319303E-05 +2.27784632606E-05 +2.69184045956E-05 -6.35142794219E-01 +5.78239430757E-01
1.07000000000E+09 -5.70277659335E-01 +7.69200175086E-01 +1.29297673476E-05 +4.74736591209E-05 +3.26890946148E-05 +2.32499714463E-05 -6.31793832962E-01 +5.81813850724E-01
1.07500000000E+09 -5.64185974489E-01 +7.73155886868E-01 +4.27047963032E-05 +8.34548905524E-06 +4.70017375813E-05 +8.09136699265E-06 -6.28248448732E-01 +5.85331793643E-01
1.08000000000E+09 -5.59954497914E-01 +7.76252152439E-01 +1.93634751536E-05 +2.63960856978E-05 +1.22683036796E-05 +1.05907814754E-05 -6.24896682431E-01 +5.88957530468E-01
1.08500000000E+09 -5.57299504460E-01 +7.78529688146E-01 +1.64850359591E-05 +6.88575969633E-05 +8.30000918866E-06 +9.87058774773E-06 -6.21885603464E-01 +5.92260279758E-01
1.09000000000E+09 -5.55353256365E-01 +7.80317523477E-01 +5.57167954483E-06 -5.87061946752E-06 +1.80967751418E-05 +5.17241277768E-05 -6.18923640075E-01 +5.95778772820E-01
1.09500000000E+09 -5.53840499453E-01 +7.81984977716E-01 +2.60101555098E-05 +1.72305625369E-05 +2.66802715332E-05 +2.39608693181E-05 -6.16022755445E-01 +5.99466356924E-01
1.10000000000E+09 -5.51066114135E-01 +7.84019286036E-01 +6.20860267461E-05 +1.53796772154E-06 +3.25710975217E-05 -1.53022613810E-06 -6.12762668541E-01 +6.03113077117E-01
1.10500000000E+09 -5.47271980954E-01 +7.86530552209E-01 +1.59703311776E-05 -3.21429140456E-05 +2.60576698452E-05 -2.03107455664E-05 -6.09342125780E-01 +6.06460525938E-01
1.11000000000E+09 -5.41799586711E-01 +7.89927563150E-01 +1.30007380680E-05 +1.07957235177E-05 +3.77906810782E-05 +8.70257776428E-05 -6.06000718155E-01 +6.09833426062E-01
1.11500000000E+09 -5.34971726225E-01 +7.94003425662E-01 -2.03728365264E-05 +1.02633046187E-05 +3.15434598471E-05 -2.97940331926E-06 -6.02849766951E-01 +6.12991571399E-01
1.12000000000E+09 -5.27309493594E-01 +7.98470722054E-01 +3.61231333820E-05 +5.67574731290E-05 +5.25102965316E-05 +2.25043724426E-06 -5.99527965262E-01 +6.16489299062E-01
1.12500000000E+09 -5.19280390866E-01 +8.02666043108E-01 +3.77224986261E-05 -7.50587234391E-06 +5.79653971817E-05 +2.42499049606E-05 -5.96194144459E-01 +6.20385866333E-01
1.13000000000E+09 -5.12169561191E-01 +8.06548401978E-01 +1.62155872228E-05 +2.85581570004E-05 +5.18112670097E-05 +4.87915448112E-05 -5.92573956802E-01 +6.24167978143E-01
1.13500000000E+09 -5.05887789926E-01 +8.09442950407E-01 -7.97925249654E-06 +1.16475781887E-05 +2.52132879111E-05 +1.14368033501E-05 -5.88768871444E-01 +6.27885459589E-01
1.14000000000E+09 -5.00483955571E-01 +8.11741395774E-01 +7.84900435474E-05 +3.70261632947E-05 +7.01853484654E-05 +1.67722019499E-05 -5.84830681637E-01 +6.31377666300E-01
1.14500000000E+09 -4.96588073775E-01 +8.13192591245E-01 +2.49252548663E-05 -8.46685870225E-06 +2.64803850207E-05 +7.47414898381E-06 -5.80726492712E-01 +6.34825701809E-01
1.15000000000E+09 -4.92888827801E-01 +8.14183911275E-01 +7.10695712329E-05 +9.72944136179E-06 +4.25887303318E-05 -3.60677351301E-05 -5.76810803486E-01 +6.38528077942E-01
1.15500000000E+09 -4.89265392341E-01 +8.15760498807E-01 +8.05430542574E-05 -1.47070802081E-05 +1.00275114002E-04 -1.56326222884E-05 -5.72937798172E-01 +6.42145271168E-01
1.16000000000E+09 -4.84564548743E-01 +8.17442206144E-01 +4.53540481754E-05 +2.77820990697E-06 +5.16833193836E-05 -1.10837208460E-05 -5.68910114615E-01 +6.45876064108E-01
1.16500000000E+09 -4.78937747582E-01 +8.20233284943E-01 +4.22261386434E-05 -1.64336268682E-05 +6.41156511233E-05 -3.57777539506E-05 -5.64801337461E-01 +6.49357034155E-01
1.17000000000E+09 -4.72277467547E-01 +8.23610560719E-01 +4.72862709679E-05 +9.01262145093E-06 +6.88093528643E-05 -2.64236752449E-05 -5.60301941703E-01 +6.52532637262E-01
1.17500000000E+09 -4.64548260112E-01 +8.27212143566E-01 +4.31397057456E-05 -3.07752301561E-05 +9.77125139911E-05 -3.03685923608E-05 -5.55557663591E-01 +6.55754230936E-01
1.18000000000E+09 -4.56678896086E-01 +8.31316349499E-01 +2.66881811529E-05 -5.01854265567E-05 +8.10154951348E-05 -3.03552831856E-05 -5.50972837848E-01 +6.58868529726E-01
1.18500000000E+09 -4.48800596566E-01 +8.35076842941E-01 +6.24918051619E-05 -3.54001226705E-05 +5.11394708150E-05 -7.84152575757E-05 -5.46163687934E-01 +6.62003150824E-01
1.19000000000E+09 -4.41800133516E-01 +8.38053580071E-01 +9.82993206916E-05 -9.22051889485E-05 +1.01568084241E-04 -1.05307487742E-04 -5.40826431427E-01 +6.64793875066E-01
1.19500000000E+09 -4.35602005553E-01 +8.40237209944E-01 +6.50731486088E-05 -1.27271163974E-04 +4.68756912735E-05 -8.98879788607E-05 -5.35722215999E-01 +6.66353134026E-01
1.20000000000E+09 -4.30578435008E-01 +8.41087907882E-01 +3.45825502952E-05 -1.67153607517E-04 +8.58338243931E-05 -1.76778672656E-04 -5.31689162042E-01 +6.66711570844E-01
1.20500000000E+09 -4.26108735060E-01 +8.41942217775E-01 -2.78017892790E-05 -1.37696228952E-04 -1.13875871150E-04 -1.62843480450E-04 -5.29701347349E-01 +6.67562289447E-01
1.21000000000E+09 -4.21518463481E-01 +8.42716768630E-01 -5.96621945916E-05 -9.71543026982E-05 -1.21072242196E-04 -8.71479760266E-05 -5.28360100414E-01 +6.70385339127E-01
1.21500000000E+09 -4.15567316174E-01 +8.43920459852E-01 -7.04347133134E-05 -6.72148779881E-06 -2.78124888063E-05 -6.32268732106E-05 -5.26132433294E-01 +6.74855418417E-01
1.22000000000E+09 -4.08081372598E-01 +8.45768870892E-01 -3.20551853290E-05 -7.15266474499E-05 -2.90511670710E-05 -1.05308477473E-04 -5.22750366430E-01 +6.79869472474E-01
1.22500000000E+09 -3.99274646966E-01 +8.48424100603E-01 -6.37211909211E-06 -5.25261880658E-05 -6.97054172611E-06 -3.98194958678E-05 -5.18564382807E-01 +6.84840301993E-01
1.23000000000E+09 -3.89158107756E-01 +8.51715890156E-01 -4.05980416216E-05 -9.66609577516E-05 -1.22155186869E-05 -6.93260671577E-05 -5.13869274711E-01 +6.89303973032E-01
1.23500000000E+09 -3.78991145683E-01 +8.55694378228E-01 +2.77298064483E-06 -6.16520593005E-05 -4.01388386321E-05 -5.72839985301E-05 -5.09102805555E-01 +6.93518388800E-01
1.24000000000E+09 -3.68972561977E-01 +8.59898036766E-01 -3.31224795799E-05 -1.03222364361E-04 -5.97798163850E-06 -6.18090052003E-05 -5.04181086841E-01 +6.97275768267E-01
1.24500000000E+09 -3.59971533199E-01 +8.64386073230E-01 -2.94547967305E-05 -5.88234131512E-05 +2.02334289590E-06 -9.65532944873E-05 -4.99005770601E-01 +7.01069477445E-01
1.25000000000E+09 -3.52143730703E-01 +8.67961363679E-01 -3.71166791582E-05 -1.12642271589E-04 -2.15441819960E-06 -7.59417749979E-05 -4.93687258114E-01 +7.05244699091E-01
1.25500000000E+09 -3.45316372433E-01 +8.70551282972E-01 -4.47348664562E-05 -1.35980414573E-04 -5.01470384620E-05 -7.36693736477E-05 -4.88007227731E-01 +7.09366543218E-01
1.26000000000E+09 -3.39780476171E-01 +8.72166232611E-01 -5.64119422279E-05 -1.13185507991E-04 -6.12559232941E-05 -1.07624632336E-04 -4.82651295736E-01 +7.13822541772E-01
1.26500000000E+09 -3.34476943098E-01 +8.73186840256E-01 -4.01772624520E-05 -1.05315616153E-04 -6.15098207586E-05 -1.02887994084E-04 -4.76821378066E-01 +7.17802244378E-01
1.27000000000E+09 -3.28675559553E-01 +8.73875743306E-01 -1.09008474349E-04 -1.68025985174E-04 -5.38590204262E-05 -1.37616594741E-04 -4.70946796542E-01 +7.21961032158E-01
1.27500000000E+09 -3.21680841611E-01 +8.74887696971E-01 -1.09274985901E-04 -1.05850260111E-04 -1.41093644724E-04 -1.45364399618E-04 -4.64942638061E-01 +7.25959024103E-01
1.28000000000E+09 -3.12645453458E-01 +8.76360136421E-01 -1.52601372182E-04 -1.18704132357E-04 -8.01590640073E-05 -1.21258320240E-04 -4.58801828307E-01 +7.29725651416E-01
1.28500000000E+09 -3.01624951082E-01 +8.78627838931E-01 -1.59381181874E-04 -6.66785616148E-05 -1.88973218854E-04 -8.17795586911E-05 -4.52298792598E-01 +7.33726707216E-01
1.29000000000E+09 -2.89662339300E-01 +8.81300332886E-01 -1.54582760832E-04 -8.98241117502E-05 -1.68725270115E-04 -8.26000200461E-05 -4.45700565828E-01 +7.37794941031E-01
1.29500000000E+09 -2.77093670029E-01 +8.84978174151E-01 -1.54456788678E-04 -7.82283448617E-05 -2.15894758665E-04 -3.62086937812E-05 -4.38975269800E-01 +7.41615069751E-01
1.30000000000E+09 -2.65052866420E-01 +8.88860353678E-01 -1.93227802678E-04 -8.44705535187E-05 -1.52286299786E-04 -4.76403660585E-05 -4.32015642317E-01 +7.45546601146E-01
1.30500000000E+09 -2.53949644250E-01 +8.92223547197E-01 -2.26476986766E-04 -5.42744768546E-05 -2.06925266347E-04 -4.98095933188E-07 -4.25136116589E-01 +7.49364418750E-01
1.31000000000E+09 -2.44689931578E-01 +8.94647342281E-01 -2.37946805135E-04 -4.28533356126E-05 -2.18494807511E-04 -3.86358102561E-05 -4.17841847146E-01 +7.52986687660E-01
1.31500000000E+09 -2.37238099711E-01 +8.96105402849E-01 -2.68656717861E-04 -2.97422465585E-05 -2.39273971637E-04 -2.78123493268E-05 -4.10089212246E-01 +7.56873574983E-01
1.32000000000E+09 -2.31365352683E-01 +8.96569709655E-01 -2.46876919482E-04 +5.35299109143E-06 -2.43425550006E-04 +3.52268423871E-05 -4.02144003837E-01 +7.60567203420E-01
1.32500000000E+09 -2.25686182175E-01 +8.96179965368E-01 -2.31994039307E-04 +5.46049387250E-05 -2.59143829509E-04 +7.48182092786E-05 -3.93895881346E-01 +7.64360174190E-01
1.33000000000E+09 -2.18968063579E-01 +8.95802739810E-01 -2.46411542972E-04 +8.92772777464E-05 -2.90680931695E-04 +7.97558564431E-05 -3.85498517269E-01 +7.67842549751E-01
1.33500000000E+09 -2.10185974237E-01 +8.95009807673E-01 -2.57906694663E-04 +6.29005497872E-05 -2.99747986308E-04 +7.28796264866E-05 -3.76948802446E-01 +7.71572961801E-01
1.34000000000E+09 -1.98816949679E-01 +8.94881238511E-01 -3.13837154710E-04 +8.70431001935E-05 -2.98048699153E-04 +1.66973230209E-04 -3.68133970909E-01 +7.75314628330E-01
1.34500000000E+09 -1.84800159550E-01 +8.94945824426E-01 -2.94531249922E-04 +1.70978516794E-04 -3.01280547121E-04 +1.77209428387E-04 -3.58544018927E-01 +7.79143032587E-01
1.35000000000E+09 -1.68690472238E-01 +8.95652202283E-01 -2.82704767609E-04 +2.09523137830E-04 -2.83587761359E-04 +1.87482318277E-04 -3.48647324623E-01 +7.82868686171E-01
1.35500000000E+09 -1.51609326895E-01 +8.96841213906E-01 -2.74039410238E-04 +2.32742548994E-04 -2.72848088520E-04 +2.33402088226E-04 -3.38315570256E-01 +7.86619967001E-01
1.36000000000E+09 -1.34667233449E-01 +8.97993745514E-01 -2.50947721364E-04 +2.58564305554E-04 -3.13311964069E-04 +2.68104026357E-04 -3.27645712023E-01 +7.90164430381E-01
1.36500000000E+09 -1.18949187774E-01 +8.98884671806E-01 -2.96209449221E-04 +3.41972046084E-04 -2.63515250035E-04 +3.36392522571E-04 -3.16731855051E-01 +7.93291359159E-01
1.37000000000E+09 -1.05154393868E-01 +8.98936853780E-01 -2.57701129297E-04 +4.21591629166E-04 -2.92259991003E-04 +3.82892870517E-04 -3.05329085299E-01 +7.96488462157E-01
1.37500000000E+09 -9.35189943944E-02 +8.98477947168E-01 -2.46424088705E-04 +4.69256918357E-04 -3.00884330881E-04 +4.70506427619E-04 -2.92961683399E-01 +7.99591335944E-01
1.38000000000E+09 -8.30211636535E-02 +8.97285378229E-01 -1.90281824419E-04 +4.99817471025E-04 -2.52239919843E-04 +5.05529603965E-04 -2.79857430875E-01 +8.02780147272E-01
1.38500000000E+09 -7.21205879155E-02 +8.95421709540E-01 -1.47217994806E-04 +5.23090407779E-04 -2.52485839272E-04 +6.20545388833E-04 -2.65923807510E-01 +8.05750025497E-01
1.39000000000E+09 -6.01964168667E-02 +8.92722357013E-01 -1.28651161946E-04 +5.97867633048E-04 -1.35738113322E-04 +7.09406835848E-04 -2.51570979676E-01 +8.08473797365E-01
1.39500000000E+09 -4.55090120750E-02 +8.89620953181E-01 -9.06111265024E-05 +6.19686334360E-04 -9.96948671261E-05 +7.26238632341E-04 -2.36409351026E-01 +8.10693737380E-01
1.40000000000E+09 -2.77187792578E-02 +8.85474647516E-01 -1.71863103695E-04 +7.37227120124E-04 -8.41512346310E-05 +7.40760857687E-04 -2.20513400145E-01 +8.12689880273E-01
1.40500000000E+09 -7.75857051571E-03 +8.80922170658E-01 -1.78793367192E-05 +9.39844592413E-04 +4.73498104981E-05 +9.19357566320E-04 -2.03707016544E-01 +8.14043433088E-01
1.41000000000E+09 +1.45566997913E-02 +8.75889309082E-01 +1.43063961333E-04 +1.00499547795E-03 +1.49281806517E-04 +1.00035659460E-03 -1.85022446817E-01 +8.15115395410E-01
1.41500000000E+09 +3.77358968452E-02 +8.70314762340E-01 +3.76826749595E-04 +1.07280092402E-03 +3.10738195271E-04 +1.14749223111E-03 -1.65224444862E-01 +8.15515260584E-01
1.42000000000E+09 +6.06288382605E-02 +8.63973820306E-01 +5.84233569851E-04 +1.07425841451E-03 +6.06804015586E-04 +1.17135024242E-03 -1.43715316203E-01 +8.15270005174E-01
1.42500000000E+09 +8.21910010494E-02 +8.56617661296E-01 +6.76738583867E-04 +9.80932154109E-04 +8.56353394791E-04 +1.07098272038E-03 -1.21322028718E-01 +8.13860507990E-01
1.43000000000E+09 +1.02506354707E-01 +8.48080788662E-01 +8.14021682646E-04 +1.03489805201E-03 +9.47548082871E-04 +9.80876854450E-04 -9.78641825101E-02 +8.11877400388E-01
1.43500000000E+09 +1.21843349605E-01 +8.37793278001E-01 +1.03694564194E-03 +1.14786316333E-03 +1.15258621275E-03 +1.02445358348E-03 -7.28182182486E-02 +8.08062568854E-01
1.44000000000E+09 +1.41551251056E-01 +8.25873413728E-01 +1.55744679893E-03 +1.14224984757E-03 +1.70151810450E-03 +9.95956565218E-04 -4.58439031700E-02 +8.02611117148E-01
1.44500000000E+09 +1.62989310121E-01 +8.10886164706E-01 +1.87892841783E-03 +7.53221962244E-04 +1.96132972803E-03 +6.27628784111E-04 -1.60837352434E-02 +7.94563276320E-01
1.45000000000E+09 +1.86916854658E-01 +7.92390184681E-01 +2.00197458399E-03 +5.33828745598E-04 +2.07514140547E-03 +3.56424361500E-04 +1.51129424227E-02 +7.83491896104E-01
1.45500000000E+09 +2.13752682225E-01 +7.70136581454E-01 +2.25254942712E-03 +3.71366655569E-04 +2.27073316379E-03 +1.93603752418E-04 +4.81784376018E-02 +7.69789598972E-01
1.46000000000E+09 +2.44383182067E-01 +7.43780596375E-01 +2.58305221049E-03 +1.48214272025E-04 +2.50480172782E-03 -1.27634421799E-04 +8.27478267429E-02 +7.51858915582E-01
1.46500000000E+09 +2.76739905776E-01 +7.12543804396E-01 +3.10418663838E-03 -2.77347613512E-04 +2.80522346862E-03 -4.14749322008E-04 +1.19242659440E-01 +7.29531288078E-01
1.47000000000E+09 +3.10243509299E-01 +6.76850039458E-01 +3.44023220984E-03 -1.12223518818E-03 +3.17995670539E-03 -1.04870558659E-03 +1.56851764402E-01 +7.00184502386E-01
1.47500000000E+09 +3.42732362262E-01 +6.35612177645E-01 +3.50219458096E-03 -2.27452280317E-03 +3.41080771762E-03 -2.06375661647E-03 +1.95328872048E-01 +6.63772321376E-01
1.48000000000E+09 +3.72117186335E-01 +5.88418295091E-01 +2.84087566524E-03 -3.09606991061E-03 +2.98718060977E-03 -3.07294626487E-03 +2.33414709588E-01 +6.18943957128E-01
1.48500000000E+09 +3.95880878422E-01 +5.34578765122E-01 +2.57240162118E-03 -3.63563895499E-03 +2.63007890319E-03 -3.76790821775E-03 +2.69980783906E-01 +5.64831415905E-01
1.49000000000E+09 +4.13216537220E-01 +4.73398359755E-01 +2.24774756019E-03 -4.72601060885E-03 +1.99650576165E-03 -4.81811398129E-03 +3.01826694591E-01 +4.99025793561E-01
1.49500000000E+09 +4.21963413018E-01 +4.04370739381E-01 +1.20959060687E-03 -5.91864134218E-03 +9.17995915712E-04 -5.67350098822E-03 +3.22956477471E-01 +4.23296285731E-01
1.50000000000E+09 +4.21596204795E-01 +3.25986818605E-01 -6.38933444085E-04 -6.60919432056E-03 -5.76760070664E-04 -6.22666821739E-03 +3.33257931943E-01 +3.38512329361E-01
1.50500000000E+09 +4.07677787474E-01 +2.37565072273E-01 -2.23780296001E-03 -6.70088766904E-03 -1.93041407832E-03 -6.46123918175E-03 +3.26708857585E-01 +2.44527692586E-01
1.51000000000E+09 +3.76471147102E-01 +1.43465092180E-01 -4.41122860017E-03 -6.25920412841E-03 -4.10327510331E-03 -6.33486092042E-03 +2.99225879546E-01 +1.45934142704E-01
1.51500000000E+09 +3.24760545007E-01 +4.98179048945E-02 -6.08336436490E-03 -5.46325529025E-03 -5.96287811104E-03 -5.68420311385E-03 +2.49093844877E-01 +5.18384462112E-02
1.52000000000E+09 +2.53728336296E-01 -3.38812271786E-02 -8.72128147265E-03 -3.58550809250E-03 -8.76807456102E-03 -3.70880072517E-03 +1.78521295491E-01 -3.27165833550E-02
1.52500000000E+09 +1.65955326531E-01 -1.02999836312E-01 -9.23442674498E-03 +2.26844054993E-04 -9.29821883891E-03 +1.91692987964E-04 +8.88509110483E-02 -9.85953167150E-02
1.53000000000E+09 +6.41235735851E-02 -1.50452960673E-01 -7.89922037540E-03 +2.54158638340E-03 -7.94031033445E-03 +2.44248952981E-03 -1.12564257898E-02 -1.42445744124E-01
1.53500000000E+09 -4.50739211414E-02 -1.72618490950E-01 -6.95478045066E-03 +4.66206699855E-03 -6.94182701020E-03 +4.59993080261E-03 -1.16045921855E-01 -1.61711990098E-01
1.54000000000E+09 -1.56139899593E-01 -1.67654693621E-01 -4.57793865473E-03 +5.77405354810E-03 -4.62736324696E-03 +5.66413131361E-03 -2.16586616929E-01 -1.58775810022E-01
1.54500000000E+09 -2.61454016888E-01 -1.40358138024E-01 -3.08389408387E-03 +6.24259035876E-03 -3.20321755637E-03 +6.06239322537E-03 -3.06647802012E-01 -1.37969463529E-01
1.55000000000E+09 -3.55957259048E-01 -9.26311652812E-02 -1.22944423128E-03 +6.63391123898E-03 -1.52694057952E-03 +6.60105080578E-03 -3.84594190248E-01 -1.05582957520E-01
1.55500000000E+09 -4.33726374849E-01 -3.42555280226E-02 +7.84435990301E-04 +6.13053426357E-03 +5.26499249673E-04 +6.29559811175E-03 -4.49704779618E-01 -6.36379845805E-02
1.56000000000E+09 -4.96977951996E-01 +2.67413142510E-02 +2.12178889192E-03 +4.65786177146E-03 +2.01866237305E-03 +4.97516928878E-03 -5.02022887660E-01 -1.68684143642E-02
1.56500000000E+09 -5.47383341010E-01 +8.86470187043E-02 +2.26430804562E-03 +3.53404629401E-03 +2.37720454660E-03 +3.78765459809E-03 -5.42985608843E-01 +3.24186172626E-02
1.57000000000E+09 -5.84135765567E-01 +1.48653772424E-01 +2.57371314095E-03 +2.82198632156E-03 +2.80683032497E-03 +3.00772970479E-03 -5.74059457389E-01 +8.06453314033E-02
