# Hz S RI R 50
! CMT, C1220, 16058040, 17.2.0/1
! Date: 14/08/2018 12:41:37
! Data: Format (Calibration Info)
! Freq                      S11: Re/Im (F2)                       S21: Re/Im (F2)                       S12: Re/Im (F2)                       S22: Re/Im (F2)            
1.00000000000E+09 -6.48018203635E-01 +7.13557990312E-01 +6.23310285588E-05 -2.66463880618E-05 -6.55592938815E-05 +3.32481905910E-05 -6.70606328630E-01 +5.41485429075E-01
1.00500000000E+09 -6.41125963003E-01 +7.18410163101E-01 -4.30570004333E-05 +2.89674873563E-05 -2.65038522768E-05 +4.01986286770E-05 -6.67517395270E-01 +5.45142119477E-01
1.01000000000E+09 -6.35198400859E-01 +7.22924750104E-01 -4.13344225061E-05 +5.92944524484E-06 -2.23130674858E-05 +4.09009328336E-06 -6.64521893681E-01 +5.48238955518E-01
1.01500000000E+09 -6.30483196346E-01 +7.26941997927E-01 -2.15485121610E-05 -2.07008587407E-05 -3.26501308964E-05 +1.83350944996E-05 -6.61916832082E-01 +5.51585687176E-01
1.02000000000E+09 -6.27195598834E-01 +7.30327433004E-01 -8.43280124133E-06 +1.47666222994E-05 -1.77196099320E-05 -2.21263598595E-06 -6.59203324533E-01 +5.54575097604E-01
1.02500000000E+09 -6.24507158076E-01 +7.33221316511E-01 -2.31597677581E-05 +4.88444326519E-05 -5.51985594350E-05 +2.59629761185E-05 -6.57040735608E-01 +5.57809974612E-01
1.03000000000E+09 -6.22490810544E-01 +7.35919027959E-01 -4.95624921594E-05 +5.04673377727E-05 +2.16306399393E-05 +1.86354384216E-05 -6.54370702694E-01 +5.61365662866E-01
1.03500000000E+09 -6.19764190628E-01 +7.38527271731E-01 -1.07931377187E-05 -2.39863004770E-05 -8.86441099534E-05 +4.04018287383E-05 -6.51349509363E-01 +5.65059107297E-01
1.04000000000E+09 -6.16129219340E-01 +7.41454698673E-01 -3.56035186605E-05 -1.73680995089E-06 +3.42384370938E-05 +2.47063754245E-05 -6.48257370499E-01 +5.68302132558E-01
1.04500000000E+09 -6.11145729370E-01 +7.44820190198E-01 +3.16324920930E-05 +3.75489982831E-05 -1.18206269532E-06 +9.20806089939E-06 -6.45443878374E-01 +5.71541500444E-01
1.05000000000E+09 -6.04763988343E-01 +7.48823884812E-01 -4.13075937163E-05 +3.29608865934E-05 -3.61725379108E-05 +2.49841170811E-05 -6.42586273583E-01 +5.74830626993E-01
1.05500000000E+09 -5.97166033559E-01 +7.53056682560E-01 -3.62004947173E-06 -1.18635809118E-05 +2.19165325954E-05 +7.68087925766E-05 -6.40104242068E-01 +5.78096832291E-01
1.06000000000E+09 -5.89165616740E-01 +7.57870571302E-01 +3.21806773565E-05 +4.26175642377E-05 +8.14659618223E-06 +2.26273578558E-05 -6.37407772462E-01 +5.81843500958E-01
1.06500000000E+09 -5.81249879849E-01 +7.62571682273E-01 +3.85524325061E-05 -4.04920791400E-06 +1.87652657561E-05 -1.58722319348E-06 -6.34353552287E-01 +5.85380349191E-01
1.07000000000E+09 -5.74256424072E-01 +7.66895892149E-01 +5.54585009768E-05 +5.35476748300E-05 +6.80111211268E-05 +2.71491484168E-05 -6.30968132907E-01 +5.88927704130E-01
1.07500000000E+09 -5.68539569657E-01 +7.70663185641E-01 +1.50322947652E-05 -6.35043799108E-05 +2.54976236648E-05 +5.89480441352E-05 -6.27219637781E-01 +5.92368125705E-01
1.08000000000E+09 -5.64027961381E-01 +7.74016326608E-01 +9.37866584754E-07 +1.12805353060E-05 +5.40038947273E-05 +1.17620411675E-05 -6.23983070957E-01 +5.95836978007E-01
1.08500000000E+09 -5.60905067402E-01 +7.76680494952E-01 +3.09966099319E-05 +9.21603888698E-07 -1.38355255655E-05 -1.59168149922E-06 -6.20890573768E-01 +5.99154542887E-01
1.09000000000E+09 -5.58056987206E-01 +7.78853883039E-01 +1.35525157990E-05 -2.31906789924E-05 +2.55561701925E-05 -2.80164233018E-05 -6.17827178122E-01 +6.02725236030E-01
1.09500000000E+09 -5.55888629621E-01 +7.80989974895E-01 -9.67122588682E-06 +2.86450318769E-06 +2.84014714735E-05 +3.37970385472E-05 -6.14839067576E-01 +6.06407739678E-01
1.10000000000E+09 -5.52548335013E-01 +7.83323838337E-01 +3.99433644774E-05 +3.04285786762E-05 -6.03341002380E-06 +2.32867232867E-05 -6.11472103899E-01 +6.09867020119E-01
1.10500000000E+09 -5.48300487729E-01 +7.85900192724E-01 +1.66753786431E-05 -2.42592546889E-06 +1.38362502840E-05 -1.22678467979E-05 -6.08023793266E-01 +6.13346434870E-01
1.11000000000E+09 -5.42718205745E-01 +7.89227880329E-01 -2.77951016010E-08 -6.55381339724E-06 -5.49191769714E-06 -3.75157653947E-05 -6.04531227445E-01 +6.16447308758E-01
1.11500000000E+09 -5.36105328084E-01 +7.93116532181E-01 +1.90321250520E-05 -1.04036013305E-05 +1.31455998046E-05 +1.88859011027E-05 -6.01260461057E-01 +6.19699590469E-01
1.12000000000E+09 -5.29003166021E-01 +7.96903236507E-01 +4.39534191075E-05 -2.36028552460E-05 +1.09479725693E-05 +4.27520222811E-05 -5.98007598296E-01 +6.23239156506E-01
1.12500000000E+09 -5.21356834196E-01 +8.00980797636E-01 +4.55613154009E-05 +1.14955036239E-05 +6.61659968254E-05 +6.39317973069E-05 -5.94668706959E-01 +6.27122277578E-01
1.13000000000E+09 -5.14367682892E-01 +8.04449333829E-01 -5.23554021559E-06 +2.04940501419E-05 +4.33670469873E-05 +1.81264309908E-05 -5.90975120395E-01 +6.30807021617E-01
1.13500000000E+09 -5.08205716232E-01 +8.07245179399E-01 +5.82904385330E-05 +5.16558317471E-05 +6.67188537059E-05 +3.28713036098E-06 -5.87034015817E-01 +6.34445905693E-01
1.14000000000E+09 -5.02699852856E-01 +8.09711560184E-01 +2.88520791668E-05 -4.94837690755E-06 +4.64479097224E-05 +3.51591092100E-05 -5.83071310083E-01 +6.37971290805E-01
1.14500000000E+09 -4.98400702413E-01 +8.11369076668E-01 +4.31770808190E-05 -2.18061236598E-05 +8.71860640257E-05 -8.87742971887E-06 -5.78923891300E-01 +6.41281356675E-01
1.15000000000E+09 -4.94335428729E-01 +8.12937375818E-01 +8.21765508164E-05 +7.15304221029E-06 +3.23958680311E-05 -1.54670529116E-05 -5.74891465715E-01 +6.44825542737E-01
1.15500000000E+09 -4.90379355147E-01 +8.14478255905E-01 +1.08633769290E-04 +4.34006248150E-06 +4.61538496997E-05 -1.15898422349E-05 -5.70964180486E-01 +6.48664780329E-01
1.16000000000E+09 -4.85840358538E-01 +8.16513784219E-01 +5.62703118511E-05 -1.90030265188E-05 +7.31183280639E-05 +3.58128422698E-06 -5.67069314184E-01 +6.52295843814E-01
1.16500000000E+09 -4.80288423956E-01 +8.19040276414E-01 +4.63506552385E-05 -2.35959668428E-05 +9.02007342380E-05 +3.44738283818E-06 -5.62899393020E-01 +6.55711517626E-01
1.17000000000E+09 -4.73732235890E-01 +8.22322673250E-01 +5.03458969634E-05 -2.09437016451E-05 +4.99066427263E-05 -2.63361019201E-05 -5.58226713494E-01 +6.58902955248E-01
1.17500000000E+09 -4.66631017304E-01 +8.25618299480E-01 +6.28558844208E-05 -4.85762406870E-05 +1.01850129454E-04 -3.89344821158E-05 -5.53505478407E-01 +6.62073846902E-01
1.18000000000E+09 -4.59092170072E-01 +8.29292807630E-01 +8.14954247631E-05 -3.22940691535E-05 +8.06577943167E-05 -8.45727169164E-05 -5.48941373994E-01 +6.65133897970E-01
1.18500000000E+09 -4.51506715403E-01 +8.32591970577E-01 +7.21484470007E-05 -5.31590262782E-05 +6.29592745244E-05 -4.79897545138E-05 -5.43952223442E-01 +6.68143344139E-01
1.19000000000E+09 -4.44312848971E-01 +8.35378769156E-01 +7.66013305777E-05 -9.36171965219E-05 +7.15595036955E-05 -3.77437316465E-05 -5.38658793390E-01 +6.70814872112E-01
1.19500000000E+09 -4.38168966011E-01 +8.37501903424E-01 +1.32781816081E-04 -8.31205136149E-05 +1.00634249075E-04 -1.33162283591E-04 -5.33509537196E-01 +6.72345479781E-01
1.20000000000E+09 -4.32619069109E-01 +8.38476958253E-01 +4.56968088675E-05 -1.91909763213E-04 +4.97954578745E-05 -1.44360916919E-04 -5.29525634157E-01 +6.72798234975E-01
1.20500000000E+09 -4.27600686642E-01 +8.39629552094E-01 -2.57574446978E-05 -1.70456052626E-04 -2.66158604065E-05 -1.27552058882E-04 -5.27383357641E-01 +6.73729833821E-01
1.21000000000E+09 -4.22366708217E-01 +8.40899501023E-01 -1.09841900329E-04 -9.33667088019E-05 -1.22169665529E-04 -7.34347755610E-05 -5.25829787473E-01 +6.76515133129E-01
1.21500000000E+09 -4.16165361278E-01 +8.42454195109E-01 -7.08644925299E-05 -3.78806188520E-05 -2.88961063653E-05 -8.39959946562E-05 -5.23660661875E-01 +6.80677521151E-01
1.22000000000E+09 -4.08983759626E-01 +8.44503429320E-01 -4.22840880500E-05 -6.79587185331E-05 -6.28986338348E-05 -9.13031650292E-05 -5.20170378932E-01 +6.85832894316E-01
1.22500000000E+09 -4.00480469547E-01 +8.47078251268E-01 -3.89908226790E-05 -6.16008592730E-05 -1.61287507303E-05 -1.11862373949E-06 -5.15974451641E-01 +6.90616744155E-01
1.23000000000E+09 -3.91126298088E-01 +8.50420867042E-01 -5.26694261982E-06 -6.47971741795E-05 +3.24572900502E-05 -5.32849614285E-05 -5.11284729344E-01 +6.95017170021E-01
1.23500000000E+09 -3.81658607043E-01 +8.53989480191E-01 -2.90928581360E-05 -6.71675357144E-05 +1.03161237206E-06 -5.18586972888E-05 -5.06403460520E-01 +6.99242829798E-01
1.24000000000E+09 -3.72429069249E-01 +8.57978140843E-01 -1.68786680537E-05 -6.46604409301E-05 -1.60430519737E-05 -6.98578314083E-05 -5.01396981914E-01 +7.02889207159E-01
1.24500000000E+09 -3.63933736918E-01 +8.62036180552E-01 -6.75502278194E-05 -9.08064013035E-05 -6.52079033405E-05 -9.32746761570E-05 -4.96214607525E-01 +7.06690748534E-01
1.25000000000E+09 -3.56078299580E-01 +8.65636360551E-01 -3.97566046777E-05 -1.02807709417E-04 -3.58581827306E-05 -9.73473401663E-05 -4.90863713256E-01 +7.10778745536E-01
1.25500000000E+09 -3.49070926626E-01 +8.68026787777E-01 -6.42835616081E-05 -8.66302081115E-05 -5.54939904284E-05 -9.92561495205E-05 -4.85087855452E-01 +7.14981861838E-01
1.26000000000E+09 -3.42596278392E-01 +8.69899740024E-01 -6.62454899163E-05 -8.48374970451E-05 -8.89098089586E-05 -9.11345653699E-05 -4.79668794607E-01 +7.19282764158E-01
1.26500000000E+09 -3.36493690494E-01 +8.70850021670E-01 -2.28246152641E-05 -1.09813751559E-04 -7.86500286516E-05 -9.16706257170E-05 -4.73770903278E-01 +7.23200413308E-01
1.27000000000E+09 -3.29842223537E-01 +8.71778462427E-01 -7.28603337122E-05 -9.81910809392E-05 -1.16139482755E-04 -1.25602154884E-04 -4.67970291959E-01 +7.27260432508E-01
1.27500000000E+09 -3.22075613895E-01 +8.72844025816E-01 -1.61680909068E-04 -1.03289469884E-04 -1.53190576297E-04 -1.41247729958E-04 -4.61924927054E-01 +7.31032424391E-01
1.28000000000E+09 -3.12838172008E-01 +8.74256168512E-01 -1.49498157761E-04 -8.18939936517E-05 -1.90892777553E-04 -1.51835272449E-04 -4.55699961240E-01 +7.34860429936E-01
1.28500000000E+09 -3.01942196922E-01 +8.76086559171E-01 -1.98545480996E-04 -5.45881994886E-05 -1.56954391703E-04 -8.87373442932E-05 -4.49236487935E-01 +7.38874787638E-01
1.29000000000E+09 -2.90524232944E-01 +8.78667050339E-01 -1.43927073740E-04 -7.34918764236E-05 -1.55646700487E-04 -6.54078794446E-05 -4.42701359205E-01 +7.42746079539E-01
1.29500000000E+09 -2.79006008693E-01 +8.81787615846E-01 -2.02729994201E-04 -4.17621024257E-05 -2.00553277958E-04 -7.55990075315E-06 -4.35752775003E-01 +7.46572606589E-01
1.30000000000E+09 -2.67874568151E-01 +8.85237852611E-01 -1.31437674611E-04 +1.47721071706E-05 -1.62893405784E-04 +3.57007877039E-05 -4.28987888462E-01 +7.50436513520E-01
1.30500000000E+09 -2.57696571655E-01 +8.88664464368E-01 -1.76145073522E-04 -1.86149837810E-06 -1.76424256070E-04 +5.24936459430E-05 -4.21932047130E-01 +7.54217606392E-01
1.31000000000E+09 -2.48841493572E-01 +8.91201978298E-01 -2.17618071062E-04 +1.05324645668E-05 -2.13053859365E-04 -2.63010045024E-05 -4.14628333056E-01 +7.57762012824E-01
1.31500000000E+09 -2.41295745317E-01 +8.92885478945E-01 -2.52127832544E-04 +8.54703218654E-05 -1.67803783421E-04 +1.04028582076E-05 -4.06935691686E-01 +7.61549099287E-01
1.32000000000E+09 -2.34777646988E-01 +8.93734405738E-01 -1.99796510852E-04 +4.14507166847E-05 -2.47107587740E-04 +7.57387794447E-05 -3.98961316797E-01 +7.65209937992E-01
1.32500000000E+09 -2.28606843890E-01 +8.93836222128E-01 -2.08426311415E-04 +9.02531053815E-05 -2.28870155232E-04 +8.97952382412E-05 -3.90788269961E-01 +7.68888069228E-01
1.33000000000E+09 -2.21185929128E-01 +8.93631602949E-01 -2.09065370581E-04 +1.15093632373E-04 -1.91058800945E-04 +1.49600674440E-04 -3.82238440033E-01 +7.72532074611E-01
1.33500000000E+09 -2.12091952042E-01 +8.93169554234E-01 -2.65499971298E-04 +1.48122967547E-04 -2.12863373493E-04 +1.61316875245E-04 -3.73719021932E-01 +7.76010408536E-01
1.34000000000E+09 -2.00793917364E-01 +8.93170670484E-01 -2.42342380229E-04 +1.30840170551E-04 -2.23432105551E-04 +1.65350885494E-04 -3.64782153152E-01 +7.79718493682E-01
1.34500000000E+09 -1.86977317876E-01 +8.93065486804E-01 -2.50179447933E-04 +1.86981603053E-04 -2.18587449950E-04 +1.93374557461E-04 -3.55085452480E-01 +7.83466641559E-01
1.35000000000E+09 -1.71692577666E-01 +8.93495588019E-01 -2.76603153148E-04 +2.58752750870E-04 -2.20354120013E-04 +2.23511668018E-04 -3.45279513400E-01 +7.87336386677E-01
1.35500000000E+09 -1.55421877449E-01 +8.94546271132E-01 -2.45297623970E-04 +2.88472247242E-04 -2.54859685300E-04 +2.79807166778E-04 -3.34852104120E-01 +7.90817908238E-01
1.36000000000E+09 -1.39156410962E-01 +8.95412578425E-01 -2.25360409231E-04 +3.55129830232E-04 -2.01089671667E-04 +3.47365963847E-04 -3.24057363960E-01 +7.94213922727E-01
1.36500000000E+09 -1.23575704334E-01 +8.96156911466E-01 -2.31014304610E-04 +3.75622256960E-04 -1.54011726828E-04 +3.38723289054E-04 -3.13144469181E-01 +7.97432862050E-01
1.37000000000E+09 -1.09513652423E-01 +8.96006411153E-01 -1.46320062840E-04 +4.31163979638E-04 -1.83392430738E-04 +4.11665644820E-04 -3.01717871367E-01 +8.00586787650E-01
1.37500000000E+09 -9.71876816638E-02 +8.95490604702E-01 -9.52914303640E-05 +5.31915796593E-04 -1.37638602425E-04 +4.14951619939E-04 -2.89375449484E-01 +8.03648730621E-01
1.38000000000E+09 -8.59719832214E-02 +8.94484815157E-01 -6.05255125161E-05 +5.38588027197E-04 -8.79639966117E-05 +5.04502382317E-04 -2.76173207919E-01 +8.06625298424E-01
1.38500000000E+09 -7.43915362699E-02 +8.92693610061E-01 -2.25077670247E-05 +5.13792416879E-04 -9.51404002100E-06 +5.74826718271E-04 -2.62111824919E-01 +8.09651944396E-01
1.39000000000E+09 -6.19605939065E-02 +8.90371699374E-01 +3.89969736183E-06 +5.52705478364E-04 +3.74887835643E-05 +6.06713813422E-04 -2.47664263554E-01 +8.12270403777E-01
1.39500000000E+09 -4.74214939563E-02 +8.87296816493E-01 +5.11720069987E-05 +5.65667939284E-04 +1.40506569333E-04 +6.25065158629E-04 -2.32537962327E-01 +8.14355755760E-01
1.40000000000E+09 -3.03992168217E-02 +8.83397233305E-01 +1.06059832282E-04 +6.61179522296E-04 +1.60561571136E-04 +6.54174010832E-04 -2.16622928762E-01 +8.16147446509E-01
1.40500000000E+09 -1.15036143459E-02 +8.79077875027E-01 +2.23543238422E-04 +7.56659515445E-04 +2.69537626347E-04 +7.47721463448E-04 -1.99631675482E-01 +8.17420820112E-01
1.41000000000E+09 +9.32515060872E-03 +8.74332924208E-01 +3.66667950007E-04 +7.40780539212E-04 +3.45751971332E-04 +7.20212724358E-04 -1.80980231344E-01 +8.18481432987E-01
1.41500000000E+09 +3.11570008668E-02 +8.69030490587E-01 +5.23982934296E-04 +7.52573919918E-04 +4.67477930303E-04 +8.42231827672E-04 -1.60997614974E-01 +8.18641180091E-01
1.42000000000E+09 +5.34635205956E-02 +8.62926448529E-01 +6.54965427411E-04 +7.68420644303E-04 +7.26851718357E-04 +8.65465113739E-04 -1.39544359911E-01 +8.18154963466E-01
1.42500000000E+09 +7.51690229641E-02 +8.55649075356E-01 +7.95479202382E-04 +7.22055918512E-04 +9.46513760614E-04 +8.01572768426E-04 -1.17046183470E-01 +8.16579963360E-01
1.43000000000E+09 +9.60919280255E-02 +8.46974176867E-01 +8.84995948426E-04 +7.19889053085E-04 +1.03701590137E-03 +6.93131134412E-04 -9.36169273378E-02 +8.14148856176E-01
1.43500000000E+09 +1.16300069767E-01 +8.36493504379E-01 +1.13373043702E-03 +7.48660876972E-04 +1.27244884085E-03 +6.40490062570E-04 -6.85718201894E-02 +8.10143928210E-01
1.44000000000E+09 +1.37249715870E-01 +8.24504159460E-01 +1.55550689421E-03 +5.88087728258E-04 +1.58098482346E-03 +4.78346946950E-04 -4.15489061844E-02 +8.04390150342E-01
1.44500000000E+09 +1.59829342897E-01 +8.09606602362E-01 +1.66995921557E-03 +2.18976530548E-04 +1.72658454289E-03 +1.46411594626E-04 -1.20463777068E-02 +7.96174384929E-01
1.45000000000E+09 +1.84375198289E-01 +7.91396664119E-01 +1.67663639227E-03 +7.63330832665E-06 +1.71790744857E-03 -9.49935140079E-05 +1.91686900010E-02 +7.84723575319E-01
1.45500000000E+09 +2.11287002634E-01 +7.69740001697E-01 +1.78224098426E-03 -7.52754095388E-05 +1.84862716726E-03 -2.36445029291E-04 +5.21731109322E-02 +7.70702995706E-01
1.46000000000E+09 +2.41074217691E-01 +7.44102915397E-01 +2.15056991759E-03 -3.48573279720E-04 +2.00964729490E-03 -5.01469432472E-04 +8.66908264391E-02 +7.52414155788E-01
1.46500000000E+09 +2.72455808609E-01 +7.14029177313E-01 +2.50294791792E-03 -7.73814707508E-04 +2.26043722467E-03 -8.51522702405E-04 +1.22870756847E-01 +7.29547377560E-01
1.47000000000E+09 +3.04905773726E-01 +6.79681081053E-01 +2.69055640774E-03 -1.58979488053E-03 +2.47868595461E-03 -1.45759763247E-03 +1.60265356396E-01 +6.99558464670E-01
1.47500000000E+09 +3.36823840611E-01 +6.39619369706E-01 +2.50803013378E-03 -2.55125484108E-03 +2.51380397333E-03 -2.35641251078E-03 +1.98049622858E-01 +6.62674828480E-01
1.48000000000E+09 +3.66374643170E-01 +5.92956345417E-01 +1.80212907073E-03 -3.26414351746E-03 +1.95222630324E-03 -3.18119099903E-03 +2.35771249037E-01 +6.17097457786E-01
1.48500000000E+09 +3.90730689864E-01 +5.38951885611E-01 +1.30636650790E-03 -3.59192290711E-03 +1.31225951666E-03 -3.72693829713E-03 +2.71133732979E-01 +5.62573732204E-01
1.49000000000E+09 +4.08964349500E-01 +4.77510697355E-01 +7.86697167414E-04 -4.32573015822E-03 +6.30769445108E-04 -4.40359919225E-03 +3.01773258115E-01 +4.96629922593E-01
1.49500000000E+09 +4.19229445424E-01 +4.08113361285E-01 -2.88848107461E-04 -4.89148690252E-03 -4.77250283557E-04 -4.64766461631E-03 +3.21405774298E-01 +4.20816278962E-01
1.50000000000E+09 +4.20732004694E-01 +3.29772188346E-01 -1.66825225492E-03 -5.22176721084E-03 -1.56226318285E-03 -4.88504089014E-03 +3.30008950475E-01 +3.36610740478E-01
1.50500000000E+09 +4.08946133151E-01 +2.41375990392E-01 -2.89436723364E-03 -5.10302238354E-03 -2.62237407653E-03 -4.97126028752E-03 +3.21692219322E-01 +2.43628256423E-01
1.51000000000E+09 +3.79958336931E-01 +1.47591595496E-01 -4.90040528852E-03 -4.59179678720E-03 -4.64996073032E-03 -4.74110479647E-03 +2.92824096691E-01 +1.47074100576E-01
1.51500000000E+09 +3.30790269923E-01 +5.36568694833E-02 -6.33870105191E-03 -3.32607662118E-03 -6.34703407374E-03 -3.50482503881E-03 +2.41778841595E-01 +5.57073935055E-02
1.52000000000E+09 +2.61004439252E-01 -3.15014899295E-02 -8.02219462601E-03 -1.11034523849E-03 -8.07494705710E-03 -1.21169416002E-03 +1.72275347062E-01 -2.61948813729E-02
1.52500000000E+09 +1.73267883076E-01 -1.01878743795E-01 -7.51592663713E-03 +2.27726232973E-03 -7.60117547964E-03 +2.21250590101E-03 +8.36792751759E-02 -9.03840830975E-02
1.53000000000E+09 +7.10034599155E-02 -1.50835800343E-01 -5.66434682876E-03 +3.78120216790E-03 -5.69495266832E-03 +3.84102382640E-03 -1.44358080939E-02 -1.32245925172E-01
1.53500000000E+09 -3.87231667069E-02 -1.75465835874E-01 -4.53901042407E-03 +4.90042533974E-03 -4.53307847883E-03 +4.94837025190E-03 -1.16869306412E-01 -1.50975512998E-01
1.54000000000E+09 -1.52252458344E-01 -1.73163122851E-01 -2.60274374969E-03 +5.31753952003E-03 -2.64778467067E-03 +5.23763178224E-03 -2.15281448383E-01 -1.48364230847E-01
1.54500000000E+09 -2.59059232217E-01 -1.47267134778E-01 -1.66708335880E-03 +5.41149125102E-03 -1.81725104900E-03 +5.32082892246E-03 -3.03625163177E-01 -1.28606053378E-01
1.55000000000E+09 -3.55212673767E-01 -1.00881969818E-01 -1.91593743406E-04 +5.87361443563E-03 -4.08037090639E-04 +5.85357407052E-03 -3.80724327979E-01 -9.72164876303E-02
1.55500000000E+09 -4.33740970921E-01 -4.29703713320E-02 +1.74383493676E-03 +5.16645189202E-03 +1.48774286210E-03 +5.40013324796E-03 -4.45450113869E-01 -5.62445055292E-02
1.56000000000E+09 -4.96989284821E-01 +1.80109784933E-02 +2.75840819970E-03 +3.84485431045E-03 +2.74844498337E-03 +4.18232925364E-03 -4.97377132681E-01 -9.96761700712E-03
1.56500000000E+09 -5.47340908382E-01 +7.99914169995E-02 +3.02198730235E-03 +2.49893133515E-03 +3.15555584023E-03 +2.70732795672E-03 -5.37911765437E-01 +3.83269950361E-02
1.57000000000E+09 -5.84199318665E-01 +1.40734260787E-01 +2.89719162592E-03 +1.67677469791E-03 +3.08522357416E-03 +1.74291367993E-03 -5.68917068758E-01 +8.57537636696E-02
