# Hz S RI R 50
! CMT, C1220, 16058040, 17.2.0/1
! Date: 14/08/2018 12:41:47
! Data: Format (Calibration Info)
! Freq                      S11: Re/Im (F2)                       S21: Re/Im (F2)                       S12: Re/Im (F2)                       S22: Re/Im (F2)            
1.00000000000E+09 -6.48059901564E-01 +7.13328409790E-01 +2.98820211626E-05 +4.18003171871E-05 +1.06363756769E-05 +9.96022342403E-06 -6.70553207733E-01 +5.41659165855E-01
1.00500000000E+09 -6.41221693827E-01 +7.18296176254E-01 +1.44996873411E-05 +1.85602977977E-05 +1.69028866897E-05 -2.16620352254E-06 -6.67458788644E-01 +5.45182853130E-01
1.01000000000E+09 -6.35037170367E-01 +7.22817447099E-01 +4.28083139206E-05 -2.32780252187E-05 +1.21040203757E-05 -1.23761746765E-05 -6.64350091583E-01 +5.48500073144E-01
1.01500000000E+09 -6.30602960757E-01 +7.26915430659E-01 +9.66794633227E-06 +2.58518000899E-05 -1.75354357424E-05 +1.12197540761E-06 -6.61907931812E-01 +5.51676820807E-01
1.02000000000E+09 -6.27042655368E-01 +7.30203532982E-01 +1.18476194301E-05 +9.12158687740E-06 -1.00514759476E-06 +9.00343928660E-06 -6.59257543351E-01 +5.54700436826E-01
1.02500000000E+09 -6.24395636988E-01 +7.33190791718E-01 -2.87272860017E-05 -1.47685939645E-05 -5.69078133220E-06 +1.85626329242E-05 -6.57162877728E-01 +5.58004912200E-01
1.03000000000E+09 -6.22439467906E-01 +7.35764041873E-01 -3.34016544685E-05 -1.71399350469E-05 +7.88917903303E-06 +2.28031415495E-05 -6.54238981163E-01 +5.61555913876E-01
1.03500000000E+09 -6.19713548108E-01 +7.38406300680E-01 +1.26347278209E-05 +7.80862598351E-06 +3.70794119394E-05 -7.37761079680E-06 -6.51249055158E-01 +5.65168955732E-01
1.04000000000E+09 -6.16127257847E-01 +7.41350380278E-01 -2.13453726897E-05 +8.09799110396E-05 +3.38715233248E-05 -1.71931604510E-06 -6.48316295249E-01 +5.68492066272E-01
1.04500000000E+09 -6.11329294054E-01 +7.44652262784E-01 +2.20928135299E-05 +2.62376293711E-05 -2.75173870749E-06 +3.10744022997E-05 -6.45422511680E-01 +5.71814277692E-01
1.05000000000E+09 -6.04721078073E-01 +7.48589549440E-01 -3.90721963044E-05 +2.35210537670E-05 -2.93324387839E-05 +2.37508833208E-05 -6.42603593312E-01 +5.74928393677E-01
1.05500000000E+09 -5.97354161773E-01 +7.52880169021E-01 +1.46378014152E-05 +2.90878997366E-06 +6.58684596431E-05 +5.65868892844E-05 -6.39962500516E-01 +5.78497827875E-01
1.06000000000E+09 -5.89157435863E-01 +7.57658552825E-01 -5.10376562138E-06 -3.11748930558E-06 +3.83136534694E-05 +4.66575884023E-05 -6.37272905394E-01 +5.81958480095E-01
1.06500000000E+09 -5.81296119746E-01 +7.62366923591E-01 +3.54515982428E-07 +3.15095782309E-05 -2.98408566648E-05 -4.98465223477E-07 -6.34362750369E-01 +5.85469215402E-01
1.07000000000E+09 -5.74226064042E-01 +7.66752215667E-01 +3.39316650523E-05 +4.39958047420E-05 +6.44347467795E-05 +1.38352251861E-05 -6.30806678962E-01 +5.89048699413E-01
1.07500000000E+09 -5.68504562207E-01 +7.70427784394E-01 +5.52446422286E-05 +3.87501826300E-05 +5.66263978254E-05 +2.79447850521E-05 -6.27185541002E-01 +5.92438498881E-01
1.08000000000E+09 -5.64059152504E-01 +7.74001690661E-01 +4.18798343583E-05 +3.27773001468E-05 +2.01693894527E-05 -2.35646654025E-05 -6.23848081825E-01 +5.96005155421E-01
1.08500000000E+09 -5.60928648491E-01 +7.76489829598E-01 -6.05103464998E-07 +4.73236172905E-06 -2.25880911547E-05 +8.72954542751E-06 -6.20798851365E-01 +5.99414022038E-01
1.09000000000E+09 -5.58163422153E-01 +7.78800387507E-01 -3.88549690391E-05 +1.25486378847E-05 +5.69049920825E-06 -1.78552445205E-05 -6.17772185956E-01 +6.03048122452E-01
1.09500000000E+09 -5.55913697035E-01 +7.80978718592E-01 -5.59948701586E-06 +6.81420412789E-06 +7.15727627954E-06 +1.29855795052E-05 -6.14768895927E-01 +6.06488160382E-01
1.10000000000E+09 -5.52372602996E-01 +7.83044324018E-01 +5.98835417228E-05 +1.36130711553E-05 +3.34390147531E-05 +3.51288101687E-05 -6.11529088316E-01 +6.10088342574E-01
1.10500000000E+09 -5.48370464223E-01 +7.85890431095E-01 +3.63383469420E-06 -7.19216952753E-06 -2.65906037904E-05 -1.86084133539E-05 -6.08026466361E-01 +6.13584343929E-01
1.11000000000E+09 -5.42861660327E-01 +7.89174334483E-01 +1.41008774148E-05 +1.07954366505E-05 +3.19737779735E-05 +9.54658444004E-07 -6.04610340263E-01 +6.16567688886E-01
1.11500000000E+09 -5.36089536695E-01 +7.92963484591E-01 +3.75887133226E-05 +4.60425286698E-05 +3.12684475368E-05 +6.13517281116E-05 -6.01285953294E-01 +6.19734293047E-01
1.12000000000E+09 -5.28901231616E-01 +7.96710188572E-01 +4.49561467787E-05 +4.89834675377E-05 +1.53536540538E-05 +1.21768968716E-05 -5.98168405830E-01 +6.23322323125E-01
1.12500000000E+09 -5.21389634184E-01 +8.00734250549E-01 +1.39098923083E-05 +6.34516451895E-06 +2.08201442063E-05 -1.35218299147E-05 -5.94662504220E-01 +6.27397811540E-01
1.13000000000E+09 -5.14473181247E-01 +8.04371359755E-01 +3.72004908859E-05 +8.53465607802E-06 +4.39163192787E-05 +5.48422070346E-05 -5.90860260054E-01 +6.30920243879E-01
1.13500000000E+09 -5.08108151498E-01 +8.06932733970E-01 +7.16892375380E-05 +1.28830074769E-05 +5.69014772672E-05 +1.70015465782E-05 -5.86918336739E-01 +6.34627188734E-01
1.14000000000E+09 -5.02752586422E-01 +8.09419601872E-01 +3.04745354279E-05 +2.66067370637E-05 +6.41966244139E-05 +3.69735458586E-05 -5.82910788677E-01 +6.38056956193E-01
1.14500000000E+09 -4.98395284521E-01 +8.11137950466E-01 +7.64280547140E-05 -2.21482491055E-06 +2.90093828813E-05 -1.72004376691E-05 -5.78894449389E-01 +6.41527868634E-01
1.15000000000E+09 -4.94433784850E-01 +8.12711779074E-01 +5.69227042786E-05 -3.71542712503E-05 +9.77289078789E-05 -4.82980913248E-06 -5.74956581983E-01 +6.45115946873E-01
1.15500000000E+09 -4.90552942102E-01 +8.14335779137E-01 +6.87666732786E-05 -4.65896048427E-05 +6.98018468200E-05 -1.34183812594E-05 -5.70935511743E-01 +6.48789882072E-01
1.16000000000E+09 -4.85905768539E-01 +8.16337177647E-01 +1.63411887011E-05 -3.06525039661E-05 +5.07566639987E-05 +2.55570664193E-05 -5.66876067706E-01 +6.52511930683E-01
1.16500000000E+09 -4.80318623798E-01 +8.19040990284E-01 +2.06871713809E-05 -3.65102085936E-05 +8.26842284895E-05 +3.75142401565E-05 -5.62777883800E-01 +6.55759317861E-01
1.17000000000E+09 -4.73913597209E-01 +8.22119038840E-01 +3.52922880028E-05 +4.34251812683E-06 +9.58298485836E-05 -1.15618395428E-05 -5.58209242587E-01 +6.59136568696E-01
1.17500000000E+09 -4.66627715455E-01 +8.25574226152E-01 +5.01854219858E-05 -5.57371405712E-05 +6.00413708063E-05 -9.25326200077E-06 -5.53444939146E-01 +6.62228791037E-01
1.18000000000E+09 -4.59048886893E-01 +8.29278513461E-01 +5.32284349407E-05 -3.58667247677E-05 +5.26822526954E-05 -1.90169901581E-05 -5.48872108567E-01 +6.65334484153E-01
1.18500000000E+09 -4.51658484519E-01 +8.32460542875E-01 +6.21601158612E-05 -4.93677358857E-05 +1.06708481819E-04 -4.92273097763E-05 -5.43910650505E-01 +6.68343507392E-01
1.19000000000E+09 -4.44628765678E-01 +8.35279850146E-01 +6.34533560013E-05 -6.79032115905E-05 +6.91702116117E-05 -7.23404519251E-05 -5.38533554767E-01 +6.71003253869E-01
1.19500000000E+09 -4.38231383262E-01 +8.37297486415E-01 +1.12944744961E-04 -1.10798696247E-04 +1.13096887088E-04 -1.04797497218E-04 -5.33386752605E-01 +6.72459687978E-01
1.20000000000E+09 -4.32799386777E-01 +8.38253600709E-01 +8.15428209813E-05 -1.85813139617E-04 +5.14675588962E-05 -2.06308218176E-04 -5.29349244070E-01 +6.72944182500E-01
1.20500000000E+09 -4.27795834684E-01 +8.39497283086E-01 -2.82874029092E-05 -1.58019235540E-04 -1.89562875278E-05 -1.58393049368E-04 -5.27287033903E-01 +6.73920976439E-01
1.21000000000E+09 -4.22348084701E-01 +8.40561220047E-01 -9.67580783572E-05 -9.32260132462E-05 -1.03111884267E-04 -8.90984400990E-05 -5.25583783748E-01 +6.76707865553E-01
1.21500000000E+09 -4.16293897651E-01 +8.42245462662E-01 -8.80796624904E-05 -5.21756229225E-05 -6.29267417318E-05 -1.52571089568E-05 -5.23439772900E-01 +6.80871750417E-01
1.22000000000E+09 -4.08971630805E-01 +8.44181792030E-01 -5.65964256695E-05 -5.37324511526E-05 -4.12316468359E-05 -9.35742666982E-05 -5.19984617300E-01 +6.86016943666E-01
1.22500000000E+09 -4.00521968705E-01 +8.46929444197E-01 -6.81518731877E-05 -5.52409384259E-05 -6.65799336390E-06 -6.27199110388E-05 -5.15799433802E-01 +6.90753132765E-01
1.23000000000E+09 -3.91228516901E-01 +8.50318601085E-01 +1.70124642857E-06 -5.67587341839E-05 -1.77884956469E-06 -9.91546731171E-05 -5.11138563890E-01 +6.95166569156E-01
1.23500000000E+09 -3.81832503222E-01 +8.53924382139E-01 -2.22874402503E-05 -9.29608316408E-05 -2.48944384209E-05 -7.63930996437E-05 -5.06337428491E-01 +6.99356716636E-01
1.24000000000E+09 -3.72520118102E-01 +8.57823960532E-01 -3.40031983614E-05 -5.60941852177E-05 -5.75730636443E-05 -8.40404936134E-05 -5.01282857545E-01 +7.03025392262E-01
1.24500000000E+09 -3.64112564306E-01 +8.61883888600E-01 -5.87213339769E-05 -1.30662485568E-04 +5.21808018571E-06 -1.04805748078E-04 -4.96103969537E-01 +7.06863456710E-01
1.25000000000E+09 -3.56237390512E-01 +8.65469059517E-01 -4.85372643915E-05 -4.92300390784E-05 -2.10334794714E-05 -1.28135938524E-04 -4.90638187840E-01 +7.11035203189E-01
1.25500000000E+09 -3.49234706379E-01 +8.67903634898E-01 -8.83342986520E-05 -6.97767127895E-05 -5.89935838015E-05 -1.01163807738E-04 -4.85059121433E-01 +7.15118317422E-01
1.26000000000E+09 -3.42849967531E-01 +8.69602933782E-01 -9.40424411684E-05 -9.21142223076E-05 -8.03512662485E-05 -1.06453165020E-04 -4.79531750602E-01 +7.19393009241E-01
1.26500000000E+09 -3.36753850108E-01 +8.70810020968E-01 -5.98416703599E-05 -6.94431089555E-05 -4.13050676411E-05 -1.00834429307E-04 -4.73662837261E-01 +7.23397213156E-01
1.27000000000E+09 -3.29874055073E-01 +8.71747513607E-01 -7.82732826199E-05 -7.34451781398E-05 -7.79232352788E-05 -1.09869897746E-04 -4.67857980280E-01 +7.27367737282E-01
1.27500000000E+09 -3.22142001947E-01 +8.72793295533E-01 -1.59614598569E-04 -1.05934653248E-04 -1.08181427132E-04 -1.26535936773E-04 -4.61733189668E-01 +7.31136303727E-01
1.28000000000E+09 -3.13043753607E-01 +8.74153616758E-01 -1.58275929981E-04 -1.13413705180E-04 -1.78373038514E-04 -9.83274318054E-05 -4.55637973665E-01 +7.34928485388E-01
1.28500000000E+09 -3.02078329158E-01 +8.76099117804E-01 -1.94292204803E-04 -7.13851185588E-05 -2.04373864469E-04 -9.49128850403E-05 -4.49088838107E-01 +7.38898146910E-01
1.29000000000E+09 -2.90803689317E-01 +8.78580440766E-01 -1.27951988794E-04 -3.71743828094E-05 -1.96425586909E-04 -7.01281735173E-05 -4.42491037736E-01 +7.42889292691E-01
1.29500000000E+09 -2.79214203824E-01 +8.81726419686E-01 -1.47341421125E-04 -7.95520424530E-05 -1.14618918122E-04 -3.50425652664E-05 -4.35740183474E-01 +7.46664457020E-01
1.30000000000E+09 -2.68046658596E-01 +8.85093815760E-01 -1.93395008470E-04 -1.80329075029E-05 -1.35667812125E-04 -3.82109587336E-05 -4.28867956446E-01 +7.50606193119E-01
1.30500000000E+09 -2.57953630543E-01 +8.88461338336E-01 -1.92739367539E-04 -3.01430243207E-05 -2.05187978705E-04 +1.76162658606E-05 -4.21825409198E-01 +7.54206192652E-01
1.31000000000E+09 -2.48937099459E-01 +8.91171585989E-01 -1.92923237757E-04 -1.72360105782E-05 -2.39098287893E-04 +6.42766696417E-06 -4.14487260209E-01 +7.57923604755E-01
1.31500000000E+09 -2.41435504161E-01 +8.92847151855E-01 -2.67308216662E-04 +2.75718041288E-05 -2.20529603089E-04 +4.44595730328E-05 -4.06642286605E-01 +7.61602422902E-01
1.32000000000E+09 -2.34954135490E-01 +8.93630225771E-01 -2.85539953382E-04 +3.25906287165E-05 -2.62001948998E-04 +7.16705313699E-05 -3.98745028170E-01 +7.65288172278E-01
1.32500000000E+09 -2.28636240028E-01 +8.93709862813E-01 -2.38323575624E-04 +6.36942759678E-05 -2.54888591952E-04 +3.38743424087E-05 -3.90526842234E-01 +7.68926316346E-01
1.33000000000E+09 -2.21397786467E-01 +8.93425001618E-01 -2.40137218065E-04 +1.11250979346E-04 -2.55441861428E-04 +1.36766227092E-04 -3.82115317453E-01 +7.72543828744E-01
1.33500000000E+09 -2.12190734497E-01 +8.93017881473E-01 -2.63156739438E-04 +1.52580155594E-04 -2.30463483984E-04 +1.04488763765E-04 -3.73536402763E-01 +7.76212387079E-01
1.34000000000E+09 -2.00866164573E-01 +8.92872879080E-01 -2.74100564999E-04 +1.69070028187E-04 -2.46352500942E-04 +1.75450315826E-04 -3.64627178919E-01 +7.79792763033E-01
1.34500000000E+09 -1.87178814033E-01 +8.92847187036E-01 -2.68195963039E-04 +2.24605052208E-04 -2.30026636002E-04 +2.14156795877E-04 -3.55046880187E-01 +7.83557785100E-01
1.35000000000E+09 -1.71981384992E-01 +8.93326086559E-01 -2.45706397928E-04 +2.62096706631E-04 -2.31851921021E-04 +2.40087628227E-04 -3.45125079084E-01 +7.87276391349E-01
1.35500000000E+09 -1.55746264479E-01 +8.94287901540E-01 -2.71511934910E-04 +2.96980123870E-04 -2.50252648534E-04 +2.76691375551E-04 -3.34661899239E-01 +7.90893023156E-01
1.36000000000E+09 -1.39412377236E-01 +8.95202303846E-01 -2.16094477070E-04 +3.52264149068E-04 -2.23546374586E-04 +3.18011099357E-04 -3.23893924656E-01 +7.94250757811E-01
1.36500000000E+09 -1.23883381423E-01 +8.96068324280E-01 -2.15246971422E-04 +4.03399027670E-04 -2.37702976645E-04 +3.56279239692E-04 -3.13109532334E-01 +7.97406731684E-01
1.37000000000E+09 -1.09713251776E-01 +8.96032555350E-01 -2.01175962282E-04 +4.97812009753E-04 -1.80792764571E-04 +4.63908256882E-04 -3.01549814328E-01 +8.00651186769E-01
1.37500000000E+09 -9.74365717064E-02 +8.95614099564E-01 -1.16619750709E-04 +4.39259246310E-04 -1.26879890838E-04 +4.21678036692E-04 -2.89152108189E-01 +8.03619454938E-01
1.38000000000E+09 -8.62256739925E-02 +8.94417605348E-01 -7.24664290016E-05 +5.00583384410E-04 -1.72811470411E-04 +5.77299922838E-04 -2.76043060576E-01 +8.06775199108E-01
1.38500000000E+09 -7.46226978016E-02 +8.92655536232E-01 -1.16124405911E-05 +5.33383387985E-04 -1.00484471539E-04 +6.10905888868E-04 -2.62069162086E-01 +8.09609306443E-01
1.39000000000E+09 -6.22212913271E-02 +8.90323593800E-01 -1.04216570701E-05 +5.52755437388E-04 +7.60323744675E-06 +6.80629957638E-04 -2.47552685634E-01 +8.12244310487E-01
1.39500000000E+09 -4.76149539571E-02 +8.87313095942E-01 +7.09165578206E-05 +6.32082873899E-04 +1.34248310704E-04 +6.58178652974E-04 -2.32427507348E-01 +8.14239605339E-01
1.40000000000E+09 -3.04867524441E-02 +8.83472028642E-01 +2.30345511095E-05 +6.55391892138E-04 +1.36630816377E-04 +6.93564115238E-04 -2.16529770669E-01 +8.16172404409E-01
1.40500000000E+09 -1.17124868967E-02 +8.78917203066E-01 +1.94494352897E-04 +8.51061343865E-04 +2.47753380036E-04 +7.94246923004E-04 -1.99670424380E-01 +8.17440626547E-01
1.41000000000E+09 +9.19364707534E-03 +8.74201127367E-01 +3.69213690698E-04 +8.20405894510E-04 +3.56830722236E-04 +8.16409578549E-04 -1.80925433619E-01 +8.18331854714E-01
1.41500000000E+09 +3.08812252042E-02 +8.68857412738E-01 +5.12437672228E-04 +7.95318515312E-04 +4.86326441454E-04 +8.35058949683E-04 -1.61062323620E-01 +8.18533721148E-01
1.42000000000E+09 +5.31709517329E-02 +8.62838983284E-01 +6.50578739043E-04 +8.20653022944E-04 +7.52152157610E-04 +9.08361125067E-04 -1.39553387575E-01 +8.18120573542E-01
1.42500000000E+09 +7.48179813811E-02 +8.55498638965E-01 +8.41957930823E-04 +7.44371198492E-04 +8.92558243013E-04 +8.25779242348E-04 -1.17158476911E-01 +8.16571109185E-01
1.43000000000E+09 +9.58086650722E-02 +8.46872562088E-01 +9.16295494267E-04 +7.59972970540E-04 +1.04126587259E-03 +7.75035121485E-04 -9.37127412347E-02 +8.14301630511E-01
1.43500000000E+09 +1.16087550241E-01 +8.36327983262E-01 +1.18288389320E-03 +7.47139780904E-04 +1.32298083179E-03 +6.85149480777E-04 -6.86831004335E-02 +8.10330015153E-01
1.44000000000E+09 +1.36711571566E-01 +8.24359001233E-01 +1.54264549847E-03 +5.96564878447E-04 +1.55874476276E-03 +4.96898356494E-04 -4.16212004204E-02 +8.04555822601E-01
1.44500000000E+09 +1.59367363255E-01 +8.09532259151E-01 +1.63748254108E-03 +2.81945071615E-04 +1.71498927674E-03 +2.02577612168E-04 -1.21617745482E-02 +7.96354549108E-01
1.45000000000E+09 +1.83776996124E-01 +7.91320445855E-01 +1.65113914700E-03 +8.45553987660E-05 +1.68316579751E-03 -3.14029806066E-05 +1.89913892535E-02 +7.84929148233E-01
1.45500000000E+09 +2.10576504783E-01 +7.69646170040E-01 +1.88799303450E-03 +5.82824661901E-05 +1.86962981251E-03 -1.02048649253E-04 +5.19316864487E-02 +7.70873545281E-01
1.46000000000E+09 +2.40389796035E-01 +7.44075060500E-01 +2.24823881088E-03 -2.12382172984E-04 +2.10923555948E-03 -4.50018747370E-04 +8.63895407818E-02 +7.52714809683E-01
1.46500000000E+09 +2.71567953994E-01 +7.14054825244E-01 +2.62281506089E-03 -6.95121711016E-04 +2.37601715349E-03 -8.01982750541E-04 +1.22531526057E-01 +7.29975381361E-01
1.47000000000E+09 +3.03899564144E-01 +6.79968471707E-01 +2.81422826148E-03 -1.52089000906E-03 +2.58256792764E-03 -1.37888242149E-03 +1.60051871389E-01 +7.00388377740E-01
1.47500000000E+09 +3.35776936437E-01 +6.40063646386E-01 +2.69316061925E-03 -2.42933314113E-03 +2.68265677054E-03 -2.22289689803E-03 +1.98042469263E-01 +6.63695575573E-01
1.48000000000E+09 +3.65310318092E-01 +5.93751655346E-01 +2.06305346229E-03 -3.17560219099E-03 +2.16620342567E-03 -3.07420317515E-03 +2.35741205325E-01 +6.18141737151E-01
1.48500000000E+09 +3.89883496177E-01 +5.40103795067E-01 +1.58508045758E-03 -3.61970561082E-03 +1.58862302757E-03 -3.66031418710E-03 +2.71520864302E-01 +5.63660591544E-01
1.49000000000E+09 +4.08466131395E-01 +4.78957962552E-01 +1.12631011567E-03 -4.34761375572E-03 +9.27354374602E-04 -4.38326917245E-03 +3.02452624107E-01 +4.97696860872E-01
1.49500000000E+09 +4.19001089180E-01 +4.09635013033E-01 +1.15511717957E-04 -5.06309019190E-03 -8.44356108071E-05 -4.85064759740E-03 +3.22312905606E-01 +4.21898776314E-01
1.50000000000E+09 +4.20841621449E-01 +3.31343505478E-01 -1.42041335972E-03 -5.58900925261E-03 -1.27451522228E-03 -5.26916234326E-03 +3.31353639953E-01 +3.37620332615E-01
1.50500000000E+09 +4.09486807339E-01 +2.42916354863E-01 -2.80273416605E-03 -5.54644126447E-03 -2.45411072173E-03 -5.36148756775E-03 +3.23491119250E-01 +2.44236593393E-01
1.51000000000E+09 +3.80835119496E-01 +1.49078326476E-01 -4.88778123604E-03 -4.99360979286E-03 -4.56832219029E-03 -5.18189343351E-03 +2.94882547686E-01 +1.47132293401E-01
1.51500000000E+09 +3.32021859438E-01 +5.49370072353E-02 -6.44574421679E-03 -3.72951180696E-03 -6.40102839399E-03 -3.97725817628E-03 +2.43867327232E-01 +5.50850020374E-02
1.52000000000E+09 +2.62618155406E-01 -3.04741736794E-02 -8.11726681452E-03 -1.41501766879E-03 -8.21967523402E-03 -1.57435654670E-03 +1.74011508593E-01 -2.75677498012E-02
1.52500000000E+09 +1.75031688513E-01 -1.01444882943E-01 -7.71558926378E-03 +1.76768199824E-03 -7.77848529147E-03 +1.73797064172E-03 +8.48657274131E-02 -9.20721882598E-02
1.53000000000E+09 +7.25162564230E-02 -1.50870980419E-01 -6.16198172760E-03 +3.48328063363E-03 -6.24257913430E-03 +3.52063910074E-03 -1.37480570316E-02 -1.34109919485E-01
1.53500000000E+09 -3.74371380048E-02 -1.75561868547E-01 -5.07793384862E-03 +4.85618538924E-03 -5.08054814801E-03 +4.84897760556E-03 -1.16682451436E-01 -1.52952021220E-01
1.54000000000E+09 -1.50892549729E-01 -1.73536778638E-01 -3.07014005507E-03 +5.47180732093E-03 -3.07956545066E-03 +5.42554158146E-03 -2.15696885599E-01 -1.50269178712E-01
1.54500000000E+09 -2.57917614272E-01 -1.47713522831E-01 -1.88046277989E-03 +5.63353954313E-03 -2.01477123895E-03 +5.51833654212E-03 -3.04454763388E-01 -1.30132018292E-01
1.55000000000E+09 -3.54189717016E-01 -1.01538454701E-01 -3.90642149308E-04 +6.03334332343E-03 -5.81649026805E-04 +6.07584010900E-03 -3.82077976729E-01 -9.83393622221E-02
1.55500000000E+09 -4.32872555022E-01 -4.35986384530E-02 +1.56220092904E-03 +5.33938538519E-03 +1.34418243088E-03 +5.50264603800E-03 -4.46784809037E-01 -5.69410712372E-02
1.56000000000E+09 -4.96119811959E-01 +1.72306747590E-02 +2.66368434524E-03 +3.95579418381E-03 +2.68383678175E-03 +4.28740136628E-03 -4.98822290222E-01 -1.03561661672E-02
1.56500000000E+09 -5.46656280155E-01 +7.90934431232E-02 +2.87282526576E-03 +2.62543746504E-03 +3.02241332279E-03 +2.84309435195E-03 -5.39299858314E-01 +3.83554645658E-02
1.57000000000E+09 -5.83719953954E-01 +1.39661502341E-01 +2.78550965060E-03 +1.83404261658E-03 +2.97828880306E-03 +1.91523848789E-03 -5.70121217626E-01 +8.60785566112E-02
