# Hz S RI R 50
! CMT, C1220, 16058040, 17.2.0/1
! Date: 14/08/2018 12:37:15
! Data: Format (Calibration Info)
! Freq                      S11: Re/Im (F2)                       S21: Re/Im (F2)                       S12: Re/Im (F2)                       S22: Re/Im (F2)            
1.00000000000E+09 -6.46399421297E-01 +7.14613877826E-01 +1.21769482618E-05 -3.81970128840E-05 +5.87646984004E-06 -1.87182657678E-05 -6.70503600712E-01 +5.36695661144E-01
1.00500000000E+09 -6.39317447087E-01 +7.19830711539E-01 +1.32762925966E-05 +2.11406144739E-05 +1.55013091431E-06 -1.33171220381E-05 -6.67411460531E-01 +5.40342561395E-01
1.01000000000E+09 -6.33445159102E-01 +7.24748364618E-01 -5.19697096255E-05 -2.77314425387E-05 +7.97530812568E-06 +1.56666430954E-05 -6.64375399170E-01 +5.43701092998E-01
1.01500000000E+09 -6.29071533997E-01 +7.28681105680E-01 -7.19125203865E-06 +2.28364649690E-06 +1.65136808218E-05 -2.64904111038E-05 -6.61874696659E-01 +5.46858970783E-01
1.02000000000E+09 -6.26119508234E-01 +7.32113157628E-01 -1.27687966747E-05 +5.33925040988E-05 -1.24093312130E-05 -4.14043874028E-05 -6.59443060719E-01 +5.50009802383E-01
1.02500000000E+09 -6.24142419906E-01 +7.34675129642E-01 -5.12734144647E-06 +1.03704435306E-05 +5.07336428212E-05 +3.97044893164E-05 -6.57164656029E-01 +5.53214960466E-01
1.03000000000E+09 -6.22719312809E-01 +7.36980655687E-01 +1.34779826664E-05 +2.58009363674E-05 -7.31659827577E-05 +8.36162124945E-06 -6.54480420511E-01 +5.56633326461E-01
1.03500000000E+09 -6.20386532302E-01 +7.39234547472E-01 -9.70715098810E-05 +1.39696460567E-05 -4.87996727349E-05 +9.64450320011E-07 -6.51442185179E-01 +5.60252796299E-01
1.04000000000E+09 -6.16931181845E-01 +7.41877764162E-01 -2.70630106681E-05 +3.16798013878E-05 +8.37166580975E-06 +2.95673890423E-05 -6.48582098677E-01 +5.63770139590E-01
1.04500000000E+09 -6.11839157123E-01 +7.45349656057E-01 -1.06107204787E-05 +5.30269773244E-05 -1.76332988407E-05 +3.39623110372E-05 -6.45724159521E-01 +5.66973178936E-01
1.05000000000E+09 -6.05062605893E-01 +7.49324894900E-01 +4.28325248578E-06 +2.99563801882E-06 -6.21429834796E-05 +3.33969101688E-05 -6.42999915788E-01 +5.70304737744E-01
1.05500000000E+09 -5.97111409056E-01 +7.53966527655E-01 -3.66696524584E-05 +4.38793717204E-05 +1.11491061240E-06 +5.65162845979E-05 -6.40340193058E-01 +5.73596175949E-01
1.06000000000E+09 -5.88470781537E-01 +7.59131625554E-01 +1.03751418880E-05 +5.56594300143E-05 +7.97781426370E-05 +5.44175475531E-05 -6.37721067922E-01 +5.77134556493E-01
1.06500000000E+09 -5.80102069633E-01 +7.64139266920E-01 +2.21041162937E-05 +3.68643995105E-05 -1.53864145499E-06 -5.65205119863E-06 -6.34685691936E-01 +5.80808063157E-01
1.07000000000E+09 -5.72843735350E-01 +7.68671958642E-01 +1.20723500273E-05 +3.81537237972E-05 +4.04772217789E-05 +1.94045500238E-05 -6.31281534207E-01 +5.84273284180E-01
1.07500000000E+09 -5.67063355773E-01 +7.72536543235E-01 +4.29518974304E-05 -1.95408310320E-06 +1.07698300923E-05 -2.67275085385E-05 -6.27750344967E-01 +5.87720927204E-01
1.08000000000E+09 -5.62938115702E-01 +7.75668580427E-01 +1.98509340948E-05 +1.01831118695E-05 +1.16647160267E-05 +1.22151920791E-05 -6.24543882072E-01 +5.91337799837E-01
1.08500000000E+09 -5.60179610445E-01 +7.78025863126E-01 +3.18670169960E-05 +3.88148573545E-05 +5.23526909127E-06 +2.03552455158E-05 -6.21474810452E-01 +5.94818275496E-01
1.09000000000E+09 -5.58123101596E-01 +7.79952522259E-01 +1.47900289777E-05 +5.06453332461E-06 +5.13271802387E-05 -2.30326963383E-05 -6.18527339398E-01 +5.98396901891E-01
1.09500000000E+09 -5.56260252241E-01 +7.81512965750E-01 +2.31372158934E-05 -1.14942054811E-05 +2.35556017137E-05 -4.04662932710E-05 -6.15460260598E-01 +6.01901943660E-01
1.10000000000E+09 -5.53413939336E-01 +7.83527429976E-01 +2.65285631822E-05 +6.21041960004E-06 +5.08827049490E-05 +2.61808211273E-06 -6.12369223878E-01 +6.05484095911E-01
1.10500000000E+09 -5.49306394923E-01 +7.86177517390E-01 +1.97397094618E-05 -1.33479572517E-05 +2.72976170276E-06 +1.26187083065E-05 -6.08849377045E-01 +6.08837430807E-01
1.11000000000E+09 -5.43666492431E-01 +7.89558478222E-01 +3.61183499464E-05 +2.71441464772E-05 +4.89732125914E-05 +5.02249426980E-05 -6.05436700455E-01 +6.12128012602E-01
1.11500000000E+09 -5.36710553615E-01 +7.93887795492E-01 +3.56722464279E-05 +4.15851118560E-05 +1.25371071814E-05 +7.13442272571E-05 -6.02169929787E-01 +6.15254040999E-01
1.12000000000E+09 -5.29163222984E-01 +7.98267738763E-01 +6.19960838744E-05 -9.03526687469E-06 -6.01978573666E-06 +3.36103039081E-05 -5.99020561176E-01 +6.18867291101E-01
1.12500000000E+09 -5.21342144774E-01 +8.02564693719E-01 +5.89408562683E-06 +6.12611030182E-05 +3.94137629870E-05 +5.10370346903E-05 -5.95519257403E-01 +6.22843537536E-01
1.13000000000E+09 -5.14279495057E-01 +8.06372608951E-01 +6.64319177070E-05 +4.86892695958E-05 +2.42611585525E-05 -2.24528724094E-05 -5.91943895771E-01 +6.26486088767E-01
1.13500000000E+09 -5.07936131485E-01 +8.09296059999E-01 +4.24503636598E-05 +4.93604044487E-05 +3.02347019497E-05 +2.69713798167E-06 -5.88085408983E-01 +6.30263339020E-01
1.14000000000E+09 -5.02870583808E-01 +8.11664498722E-01 +9.21474616943E-05 +4.57713725245E-05 +8.71278424293E-05 -2.88970699458E-05 -5.84012010228E-01 +6.33641014268E-01
1.14500000000E+09 -4.98875341534E-01 +8.13012357724E-01 +3.63761492421E-05 -1.81557225748E-05 +4.80539234762E-05 -6.56307677975E-05 -5.80053256390E-01 +6.37221848045E-01
1.15000000000E+09 -4.95290483937E-01 +8.14229209063E-01 +2.38529349854E-05 -3.52496701779E-05 +9.60889372250E-06 +2.22498964844E-05 -5.76105471313E-01 +6.40885014610E-01
1.15500000000E+09 -4.91730248713E-01 +8.15632830142E-01 +8.72293965653E-05 -3.38782795773E-05 +7.15062045028E-05 -6.69412863141E-07 -5.72234883447E-01 +6.44527042923E-01
1.16000000000E+09 -4.87069611808E-01 +8.17378164203E-01 +2.86198100585E-05 -1.99542214071E-05 +6.20239541612E-05 -3.32942638928E-05 -5.68224401155E-01 +6.48086953644E-01
1.16500000000E+09 -4.81536812441E-01 +8.20199629632E-01 +2.01540978399E-05 -4.44014625652E-05 +8.92171035389E-05 -1.09412402239E-05 -5.63992507868E-01 +6.51575712249E-01
1.17000000000E+09 -4.74691416055E-01 +8.23371486402E-01 +4.42614533751E-05 -3.22117867613E-05 +7.88556389376E-05 -2.23606041534E-05 -5.59580447931E-01 +6.54847406201E-01
1.17500000000E+09 -4.66985042873E-01 +8.27228812172E-01 +4.34294163237E-05 -1.93785875171E-06 +3.33686866418E-05 -5.89878699381E-05 -5.54798080274E-01 +6.58017465094E-01
1.18000000000E+09 -4.59235622639E-01 +8.31202236289E-01 +8.07266007415E-05 -5.56852774819E-05 +4.13570331529E-05 -6.25039732605E-05 -5.50259429387E-01 +6.61123036565E-01
1.18500000000E+09 -4.51453291505E-01 +8.35035678366E-01 +7.86336886542E-05 -2.82470125399E-05 +3.72798823065E-05 -5.46933565317E-05 -5.45302520699E-01 +6.64175098137E-01
1.19000000000E+09 -4.44167478255E-01 +8.38006935074E-01 +4.94361900279E-05 -5.26850339185E-05 +1.35269034685E-04 -8.29908324101E-05 -5.39997132929E-01 +6.66954475333E-01
1.19500000000E+09 -4.38155728447E-01 +8.40175686433E-01 +7.20082302062E-06 -1.07313986149E-04 +6.56572380535E-05 -6.25782688405E-05 -5.34904737971E-01 +6.68342108235E-01
1.20000000000E+09 -4.32984723292E-01 +8.41097898087E-01 +4.04868025993E-05 -1.81194955569E-04 +2.01180889888E-05 -1.76397429925E-04 -5.30755925669E-01 +6.68904794590E-01
1.20500000000E+09 -4.28376103581E-01 +8.42006924418E-01 -5.09531826208E-05 -1.22401064785E-04 -3.17630892549E-05 -1.27269755488E-04 -5.28824424570E-01 +6.69721543906E-01
1.21000000000E+09 -4.23711202464E-01 +8.42969823753E-01 -4.94704736505E-05 -6.76684675655E-05 -1.09250285683E-04 -8.80619277711E-05 -5.27350076432E-01 +6.72691741698E-01
1.21500000000E+09 -4.17761316539E-01 +8.44325102787E-01 -3.81521516069E-05 -3.10230584257E-05 -2.67226467789E-05 -2.73434474919E-05 -5.25073411593E-01 +6.76806433515E-01
1.22000000000E+09 -4.10373732583E-01 +8.46068902288E-01 -1.93473595019E-05 -2.01715638461E-05 -6.35007085069E-06 -7.47442575062E-05 -5.21781721729E-01 +6.82006427038E-01
1.22500000000E+09 -4.01635312695E-01 +8.48813997781E-01 -4.13508521043E-05 -5.34944593014E-05 -3.00409042169E-08 -2.23842813978E-05 -5.17466856247E-01 +6.86919113963E-01
1.23000000000E+09 -3.91889443938E-01 +8.52045360536E-01 -1.49640559674E-05 -8.14868829869E-05 +2.57623212298E-06 -8.43929356593E-05 -5.12878332976E-01 +6.91404689424E-01
1.23500000000E+09 -3.81912976487E-01 +8.56130486229E-01 -3.08678816783E-05 -7.14778472587E-05 +1.89268143068E-05 -7.60394183310E-05 -5.07995502115E-01 +6.95597519956E-01
1.24000000000E+09 -3.72005924583E-01 +8.60293764837E-01 -6.12332723945E-05 -6.67626001125E-05 -2.16882391400E-05 -1.21237257196E-04 -5.03081151581E-01 +6.99250597184E-01
1.24500000000E+09 -3.62987466265E-01 +8.64743607638E-01 -5.96377685464E-05 -5.40906064628E-05 -4.70799132536E-06 -7.05219740060E-05 -4.97936661123E-01 +7.03198206765E-01
1.25000000000E+09 -3.55097740472E-01 +8.68535896996E-01 -5.00340257240E-05 -1.19796489397E-04 -6.48952982756E-05 -1.21887393673E-04 -4.92624288617E-01 +7.07298218525E-01
1.25500000000E+09 -3.48467732204E-01 +8.70926472965E-01 -6.35983232846E-05 -1.58870092763E-04 -4.80781530637E-05 -1.00845984100E-04 -4.86922447107E-01 +7.11349874891E-01
1.26000000000E+09 -3.42607335366E-01 +8.72677441679E-01 -6.51713729809E-05 -9.83214044447E-05 -6.12110801662E-05 -1.41010167977E-04 -4.81463442362E-01 +7.15679158653E-01
1.26500000000E+09 -3.37052610504E-01 +8.73671016918E-01 -4.70846135858E-05 -8.99643768760E-05 -4.35420189382E-05 -1.08320606682E-04 -4.75506562205E-01 +7.19860474937E-01
1.27000000000E+09 -3.31080888060E-01 +8.74490427273E-01 -9.54886180847E-05 -1.07216404484E-04 -1.07092247892E-04 -1.12014335171E-04 -4.69841334016E-01 +7.23800450181E-01
1.27500000000E+09 -3.23714260028E-01 +8.75636929373E-01 -1.67789292168E-04 -1.24931332639E-04 -1.23082033167E-04 -1.50817564697E-04 -4.63728872444E-01 +7.27628622543E-01
1.28000000000E+09 -3.14693116216E-01 +8.77038122867E-01 -1.63003816461E-04 -1.09019720131E-04 -1.90748611407E-04 -1.29817021551E-04 -4.57539510865E-01 +7.31546315588E-01
1.28500000000E+09 -3.03627853336E-01 +8.79085980798E-01 -1.90707933490E-04 -4.77388878630E-05 -2.43211998310E-04 -5.49030025170E-05 -4.51063842797E-01 +7.35509909600E-01
1.29000000000E+09 -2.91672970707E-01 +8.81940235562E-01 -1.87788894321E-04 -3.10322020891E-05 -1.74318167999E-04 -1.02687770414E-04 -4.44594533125E-01 +7.39462481215E-01
1.29500000000E+09 -2.79486978787E-01 +8.85511093161E-01 -2.05181437761E-04 -4.53543981147E-05 -1.96358234138E-04 -2.18497282699E-05 -4.37789001007E-01 +7.43327480826E-01
1.30000000000E+09 -2.67631629947E-01 +8.89221480915E-01 -1.30607692512E-04 -1.69885804492E-05 -1.87697666251E-04 +1.05457668891E-05 -4.30939667018E-01 +7.47241895571E-01
1.30500000000E+09 -2.56923639648E-01 +8.92775660351E-01 -1.67046743599E-04 +1.41375535322E-06 -1.82944413015E-04 -3.00970585273E-05 -4.23912808266E-01 +7.50988909303E-01
1.31000000000E+09 -2.47775509416E-01 +8.95426874042E-01 -2.50599481815E-04 -2.60804325439E-06 -2.23450608851E-04 +3.46814945219E-05 -4.16688889477E-01 +7.54616240742E-01
1.31500000000E+09 -2.40504983357E-01 +8.97027947954E-01 -2.67126851979E-04 +7.11560404211E-05 -2.50622011812E-04 +2.74014569235E-05 -4.08862541940E-01 +7.58493153215E-01
1.32000000000E+09 -2.34439784612E-01 +8.97538474361E-01 -2.51409521599E-04 +9.04856463321E-05 -2.66788047849E-04 +6.74684177924E-05 -4.00888850471E-01 +7.62113184840E-01
1.32500000000E+09 -2.28682279798E-01 +8.97424299165E-01 -2.34750100364E-04 +1.11401118309E-04 -2.92960905147E-04 +1.18653555128E-04 -3.92630512160E-01 +7.65834658490E-01
1.33000000000E+09 -2.21671756837E-01 +8.96960535264E-01 -2.09250069305E-04 +1.18766073012E-04 -2.33678948844E-04 +1.82317951883E-04 -3.84263234608E-01 +7.69577911578E-01
1.33500000000E+09 -2.12762677582E-01 +8.96224659769E-01 -2.45040932576E-04 +1.43624187204E-04 -2.61706333349E-04 +1.40932531594E-04 -3.75854904789E-01 +7.73102093071E-01
1.34000000000E+09 -2.01123432532E-01 +8.95977187581E-01 -2.60064441446E-04 +1.48969735479E-04 -2.45394060816E-04 +1.74628976375E-04 -3.66924549167E-01 +7.76811877209E-01
1.34500000000E+09 -1.87000198931E-01 +8.96100230766E-01 -2.26251817826E-04 +2.40923284684E-04 -2.53698752099E-04 +2.09044555157E-04 -3.57301249127E-01 +7.80615622710E-01
1.35000000000E+09 -1.70949084878E-01 +8.96659124928E-01 -2.67291813165E-04 +2.17341684070E-04 -2.48356799681E-04 +2.14449826713E-04 -3.47483290254E-01 +7.84513750946E-01
1.35500000000E+09 -1.53987524376E-01 +8.97690504106E-01 -2.69614952568E-04 +2.67492114574E-04 -2.73984923954E-04 +2.67022983122E-04 -3.37007089159E-01 +7.88071396139E-01
1.36000000000E+09 -1.37040607399E-01 +8.98862642261E-01 -2.78756162429E-04 +3.18134865997E-04 -2.58428936029E-04 +3.29184623547E-04 -3.26330420852E-01 +7.91537016529E-01
1.36500000000E+09 -1.21347079183E-01 +8.99666778631E-01 -2.36260472429E-04 +4.03077107267E-04 -2.50633197827E-04 +3.85309321139E-04 -3.15527041287E-01 +7.94651464267E-01
1.37000000000E+09 -1.07411145450E-01 +8.99821216981E-01 -2.02678826441E-04 +4.89975799667E-04 -2.06355307706E-04 +4.15956251660E-04 -3.04009245585E-01 +7.97993774004E-01
1.37500000000E+09 -9.54801833138E-02 +8.99355358648E-01 -1.42648653304E-04 +5.30798016311E-04 -1.39566560245E-04 +4.80107042548E-04 -2.91675825503E-01 +8.01078896878E-01
1.38000000000E+09 -8.47927171126E-02 +8.98107950551E-01 -6.59115794956E-05 +5.32743919655E-04 -1.44909193310E-04 +5.17544281294E-04 -2.78502915113E-01 +8.04232626778E-01
1.38500000000E+09 -7.36353136915E-02 +8.96326476469E-01 -5.96367477970E-05 +5.84363227971E-04 -6.38149331837E-05 +6.79409945010E-04 -2.64741570747E-01 +8.07299706461E-01
1.39000000000E+09 -6.14425188883E-02 +8.93586161479E-01 -2.41210441144E-05 +5.79421303244E-04 -2.66898725627E-05 +7.06169992420E-04 -2.50204439485E-01 +8.09854419673E-01
1.39500000000E+09 -4.69926504081E-02 +8.90323396050E-01 +2.26607841818E-05 +6.45772775612E-04 +1.06173483442E-04 +6.90850973128E-04 -2.35022019936E-01 +8.12060840031E-01
1.40000000000E+09 -2.91920134671E-02 +8.86220361198E-01 +8.48759385664E-06 +7.49544532913E-04 +8.79867302915E-05 +7.67787192220E-04 -2.19192247231E-01 +8.13911723657E-01
1.40500000000E+09 -9.25912640781E-03 +8.81725300383E-01 +2.15620043607E-04 +9.02880967293E-04 +2.82484470047E-04 +8.59698033544E-04 -2.02259613731E-01 +8.15379695096E-01
1.41000000000E+09 +1.26199561096E-02 +8.76745654043E-01 +4.10058012597E-04 +8.99753483325E-04 +3.44610941068E-04 +9.22258929761E-04 -1.83654170810E-01 +8.16428547195E-01
1.41500000000E+09 +3.54976796867E-02 +8.71198297748E-01 +5.79506797952E-04 +9.30449143781E-04 +5.80188843236E-04 +9.87520697439E-04 -1.63774071072E-01 +8.16840789638E-01
1.42000000000E+09 +5.83659787527E-02 +8.64818222697E-01 +7.78275054713E-04 +8.54497372556E-04 +7.98945644110E-04 +9.32979146047E-04 -1.42192332188E-01 +8.16497444329E-01
1.42500000000E+09 +7.99713897874E-02 +8.57478404099E-01 +8.02860597827E-04 +7.97663202354E-04 +9.41077286001E-04 +8.56675245185E-04 -1.19633800400E-01 +8.15165417890E-01
1.43000000000E+09 +1.00416294306E-01 +8.48853784586E-01 +9.38851791943E-04 +8.20836800103E-04 +1.06999938082E-03 +7.82962648060E-04 -9.62244960732E-02 +8.12996442391E-01
1.43500000000E+09 +1.20132251219E-01 +8.38314705321E-01 +1.15410381246E-03 +9.95695881988E-04 +1.29611188278E-03 +8.89374425580E-04 -7.10494756080E-02 +8.09114923709E-01
1.44000000000E+09 +1.40125995527E-01 +8.26153021839E-01 +1.71977464780E-03 +8.11996750268E-04 +1.79606799939E-03 +7.02156493474E-04 -4.39565175315E-02 +8.03503480066E-01
1.44500000000E+09 +1.62040748958E-01 +8.10906105880E-01 +2.03135055076E-03 +3.24655132503E-04 +2.04050967088E-03 +2.61678980398E-04 -1.45953638442E-02 +7.95508776524E-01
1.45000000000E+09 +1.86347111499E-01 +7.92113684949E-01 +2.05047256540E-03 +6.00054386667E-05 +2.09626786841E-03 -8.12726727184E-05 +1.67607133600E-02 +7.84361565583E-01
1.45500000000E+09 +2.13396854209E-01 +7.69225007848E-01 +2.15836581572E-03 -1.22530730313E-04 +2.14321094782E-03 -3.39360688871E-04 +5.00241665188E-02 +7.70541567163E-01
1.46000000000E+09 +2.43560925932E-01 +7.42373172861E-01 +2.47734363054E-03 -4.09887652025E-04 +2.29949086656E-03 -6.22066662350E-04 +8.47438739439E-02 +7.52506020506E-01
1.46500000000E+09 +2.75260019597E-01 +7.10898604338E-01 +2.84197005054E-03 -8.84687828075E-04 +2.59195549330E-03 -9.57154864198E-04 +1.21272511276E-01 +7.29967257584E-01
1.47000000000E+09 +3.07788845785E-01 +6.75013289903E-01 +3.04018895666E-03 -1.70867260533E-03 +2.80060856392E-03 -1.57901509790E-03 +1.59120429220E-01 +7.00324134309E-01
1.47500000000E+09 +3.39562814490E-01 +6.33881259419E-01 +2.95197764698E-03 -2.86813409693E-03 +2.97899593641E-03 -2.65616570711E-03 +1.97385282647E-01 +6.63580517901E-01
1.48000000000E+09 +3.68272973416E-01 +5.86317850206E-01 +2.14216034316E-03 -3.60333671153E-03 +2.27133622008E-03 -3.57868188577E-03 +2.35433391821E-01 +6.18295838252E-01
1.48500000000E+09 +3.91012265677E-01 +5.32270510694E-01 +1.78942818695E-03 -4.11458946045E-03 +1.70425729662E-03 -4.25165423247E-03 +2.71621443684E-01 +5.63814191364E-01
1.49000000000E+09 +4.07308069706E-01 +4.70785598965E-01 +1.07410088493E-03 -5.04832880993E-03 +8.45169127060E-04 -5.05094525874E-03 +3.03200402935E-01 +4.97976943080E-01
1.49500000000E+09 +4.14290083391E-01 +4.01784682736E-01 -2.78218636832E-04 -6.04146766382E-03 -4.61929624920E-04 -5.74560256381E-03 +3.24179370681E-01 +4.21880125871E-01
1.50000000000E+09 +4.12505448345E-01 +3.24765592404E-01 -2.20082498927E-03 -5.91665992112E-03 -2.07690687216E-03 -5.57942783416E-03 +3.34144864750E-01 +3.36566380964E-01
1.50500000000E+09 +3.97896692774E-01 +2.37790832105E-01 -3.37661364455E-03 -5.81394923898E-03 -3.03792047521E-03 -5.69477792795E-03 +3.26472619483E-01 +2.42158190879E-01
1.51000000000E+09 +3.66067684966E-01 +1.45765439065E-01 -5.47551461754E-03 -5.15944467807E-03 -5.19423736704E-03 -5.26762625979E-03 +2.98080833695E-01 +1.43679586643E-01
1.51500000000E+09 +3.14796270448E-01 +5.46670256124E-02 -6.97002780710E-03 -4.11592207077E-03 -6.87071116840E-03 -4.26819728619E-03 +2.46720600664E-01 +5.01484693625E-02
1.52000000000E+09 +2.44556492111E-01 -2.68571753304E-02 -9.34598738771E-03 -1.69654166372E-03 -9.36995364393E-03 -1.80229174661E-03 +1.75576270728E-01 -3.35548481776E-02
1.52500000000E+09 +1.58353997444E-01 -9.35214220308E-02 -8.95184971186E-03 +2.37690250345E-03 -9.00526129064E-03 +2.39368328151E-03 +8.54380360819E-02 -9.84488531027E-02
1.53000000000E+09 +5.84214029951E-02 -1.39797235886E-01 -6.97942153223E-03 +4.12069680508E-03 -7.09916662188E-03 +4.16022179331E-03 -1.47226802937E-02 -1.41173368798E-01
1.53500000000E+09 -4.84414982733E-02 -1.59984461621E-01 -5.74759616279E-03 +5.98409913445E-03 -5.79452951073E-03 +6.00823523937E-03 -1.19356702940E-01 -1.59555720836E-01
1.54000000000E+09 -1.55530278521E-01 -1.55086517271E-01 -3.30848241503E-03 +6.63012426389E-03 -3.32784077556E-03 +6.53039152822E-03 -2.19417751595E-01 -1.55795962974E-01
1.54500000000E+09 -2.58068767365E-01 -1.29416577929E-01 -1.67023621842E-03 +6.91264530487E-03 -1.80459463242E-03 +6.76922886155E-03 -3.08930803085E-01 -1.34184601329E-01
1.55000000000E+09 -3.50430515554E-01 -8.42424236188E-02 +2.89570161392E-04 +6.79272648257E-03 -1.35628438794E-05 +6.78801826066E-03 -3.85865381996E-01 -1.01363982457E-01
1.55500000000E+09 -4.27518649083E-01 -2.85045052794E-02 +2.16561197135E-03 +5.86823209547E-03 +1.92680356216E-03 +6.08152067369E-03 -4.50382361712E-01 -5.93917001456E-02
1.56000000000E+09 -4.90547520542E-01 +3.06222134570E-02 +3.14075357442E-03 +4.25083224378E-03 +3.07908150044E-03 +4.52217666435E-03 -5.02011564620E-01 -1.24927468417E-02
1.56500000000E+09 -5.40730927847E-01 +9.10211199812E-02 +3.22655492804E-03 +3.08286600809E-03 +3.38289481625E-03 +3.34110690852E-03 -5.42245621262E-01 +3.65082320502E-02
1.57000000000E+09 -5.77566517458E-01 +1.49546231714E-01 +3.45543185187E-03 +2.23383545540E-03 +3.70486777394E-03 +2.33028846314E-03 -5.73019136454E-01 +8.45067663296E-02
