# Hz S RI R 50
! CMT, C1220, 16058040, 17.2.0/1
! Date: 14/08/2018 12:40:23
! Data: Format (Calibration Info)
! Freq                      S11: Re/Im (F2)                       S21: Re/Im (F2)                       S12: Re/Im (F2)                       S22: Re/Im (F2)            
1.00000000000E+09 -6.46103688742E-01 +7.14257070655E-01 +5.90624468929E-06 +1.33585685062E-05 -1.34635016653E-05 +3.25179162630E-05 -6.70441756039E-01 +5.40547393615E-01
1.00500000000E+09 -6.39177186751E-01 +7.19084627640E-01 -5.67004641326E-06 -7.09558453971E-06 -1.19824820298E-05 +5.00197599729E-06 -6.67242289599E-01 +5.44131487674E-01
1.01000000000E+09 -6.32973567907E-01 +7.23792001257E-01 -1.98659846105E-05 -7.51068974049E-06 +8.26759476901E-06 -4.20179235593E-06 -6.64373839943E-01 +5.47159596199E-01
1.01500000000E+09 -6.28427876418E-01 +7.27475016633E-01 +1.89969564255E-05 +2.24005747558E-05 +1.37879796761E-05 +4.62037568058E-05 -6.61722490716E-01 +5.50610754755E-01
1.02000000000E+09 -6.24810612983E-01 +7.31060982560E-01 -1.12031152577E-05 +3.28326132581E-05 -2.23547912219E-05 +8.04816845356E-06 -6.59176828474E-01 +5.53762618449E-01
1.02500000000E+09 -6.22241399841E-01 +7.34026174364E-01 -2.05832417027E-05 -2.56804163768E-05 -9.39130440547E-06 -2.14765873771E-05 -6.56940898013E-01 +5.56965562057E-01
1.03000000000E+09 -6.20242157284E-01 +7.36748524297E-01 -2.59285706825E-05 -1.91561353333E-05 -4.64363134662E-06 +9.75304314466E-06 -6.54222113532E-01 +5.60385626130E-01
1.03500000000E+09 -6.17609027185E-01 +7.39332004264E-01 -4.28484219157E-05 +5.94550112201E-07 -2.59084947885E-05 +2.79881464099E-05 -6.51226834335E-01 +5.64151569218E-01
1.04000000000E+09 -6.13890921228E-01 +7.42261797053E-01 +1.39300422954E-05 +1.34870837759E-05 -4.96316752231E-05 +6.97281297117E-06 -6.48171869712E-01 +5.67457032197E-01
1.04500000000E+09 -6.08876360540E-01 +7.45768558591E-01 -3.85279525928E-05 +3.54442819052E-06 -7.63057904517E-05 +3.90122745152E-05 -6.45286419467E-01 +5.70766483252E-01
1.05000000000E+09 -6.02426396760E-01 +7.49714916399E-01 +2.14701144300E-05 +1.44006030592E-05 -5.27700081282E-05 +3.20586131243E-05 -6.42560716348E-01 +5.73846495533E-01
1.05500000000E+09 -5.94839250530E-01 +7.54001920798E-01 +4.74631397166E-05 +1.08417495928E-05 +4.40399310503E-05 +4.06603474070E-05 -6.39935226269E-01 +5.77329982349E-01
1.06000000000E+09 -5.86601698484E-01 +7.58760041274E-01 +1.27360423495E-05 +4.61264635113E-05 +2.98864256261E-05 +7.54911114211E-05 -6.37185020723E-01 +5.81008054469E-01
1.06500000000E+09 -5.78613617899E-01 +7.63548123777E-01 -5.43628534539E-06 +5.72985897502E-07 +3.93102835435E-05 +2.45403018642E-05 -6.34073998823E-01 +5.84421278293E-01
1.07000000000E+09 -5.71581062030E-01 +7.67777373180E-01 +5.51334671657E-06 +1.08095296111E-05 +6.52746541103E-05 +3.06616231071E-06 -6.30799275919E-01 +5.87863305261E-01
1.07500000000E+09 -5.65610092994E-01 +7.71488838091E-01 +1.01866616151E-05 +1.88242024385E-05 +5.87193332850E-06 +8.15088366593E-07 -6.27145789590E-01 +5.91369124481E-01
1.08000000000E+09 -5.61167977894E-01 +7.74866137586E-01 +4.80293955629E-05 +5.78737670720E-06 +1.73041309242E-05 +2.15410382081E-05 -6.23887006086E-01 +5.94946395821E-01
1.08500000000E+09 -5.57921663660E-01 +7.77660110796E-01 -2.43220069913E-06 +2.78379563738E-05 +1.64952853326E-05 +8.85759987829E-06 -6.20676819882E-01 +5.98360546627E-01
1.09000000000E+09 -5.55191816955E-01 +7.79620693190E-01 -2.85877256627E-06 +3.31503381786E-05 +1.75880840959E-05 -1.17364218019E-05 -6.17798525342E-01 +6.01942339096E-01
1.09500000000E+09 -5.52831381910E-01 +7.81747330040E-01 +3.68811993694E-06 +1.29628810827E-05 -6.65917988278E-06 +6.24699545411E-06 -6.14746925449E-01 +6.05560205194E-01
1.10000000000E+09 -5.49640759919E-01 +7.83850367877E-01 +4.01457859638E-05 +1.64940702031E-05 +9.99180160768E-06 -4.53283408573E-05 -6.11422005580E-01 +6.09109371891E-01
1.10500000000E+09 -5.45591551245E-01 +7.86637677210E-01 -6.22908531166E-07 +2.55729344052E-05 -5.61676005919E-06 +2.94691886205E-05 -6.08034958306E-01 +6.12455864067E-01
1.11000000000E+09 -5.39984871091E-01 +7.89809700395E-01 +1.95921500704E-05 -2.14439100601E-05 +1.52427189613E-05 +4.88086854887E-05 -6.04615432932E-01 +6.15567412587E-01
1.11500000000E+09 -5.33481226957E-01 +7.93758214393E-01 +4.67378470346E-06 +5.93502645411E-05 +2.68120844301E-05 +1.98182478995E-06 -6.01267663002E-01 +6.18831418042E-01
1.12000000000E+09 -5.26208813813E-01 +7.97665563037E-01 +2.55741923768E-05 -2.32268617787E-05 +3.77518791314E-05 +2.61396496485E-05 -5.98167388155E-01 +6.22352972664E-01
1.12500000000E+09 -5.18591348668E-01 +8.01537295413E-01 +5.32512729318E-05 -7.32248733013E-06 +2.44185641438E-05 -2.49777099210E-05 -5.94524015177E-01 +6.26218518535E-01
1.13000000000E+09 -5.11475796949E-01 +8.05205236715E-01 +4.67192892886E-05 +4.87632832698E-05 +2.09999688899E-05 -3.33019267550E-06 -5.90970171430E-01 +6.29914373921E-01
1.13500000000E+09 -5.05204424439E-01 +8.07900851100E-01 +6.09727034895E-06 +1.40618438244E-06 +3.17183918199E-05 -7.43846823958E-06 -5.87022773993E-01 +6.33642065184E-01
1.14000000000E+09 -4.99631877445E-01 +8.10393436436E-01 +6.18562047265E-06 +2.45173496159E-05 +3.86395556194E-05 +1.33620006465E-05 -5.82940080972E-01 +6.37059821556E-01
1.14500000000E+09 -4.95339178300E-01 +8.11914023708E-01 +6.48072615566E-05 +7.93126178672E-06 +2.12264197293E-05 +1.61907473606E-05 -5.79053109245E-01 +6.40436716533E-01
1.15000000000E+09 -4.91133845316E-01 +8.13571371068E-01 +4.37960278798E-05 -6.16408232221E-06 +8.37199232111E-05 +1.65988360928E-05 -5.75029135974E-01 +6.44214637965E-01
1.15500000000E+09 -4.87140713759E-01 +8.15309028876E-01 +6.00893787703E-05 -2.01859083704E-05 +4.40878915962E-05 +2.25290853359E-05 -5.71055123027E-01 +6.47825359835E-01
1.16000000000E+09 -4.82285363678E-01 +8.16981305943E-01 +6.31129911857E-05 -3.85754310045E-05 +6.57884015508E-05 -5.20266987949E-05 -5.67029607657E-01 +6.51423477423E-01
1.16500000000E+09 -4.76743521547E-01 +8.19950515023E-01 +4.09435166441E-05 +2.09992237189E-05 +6.22728228522E-06 +2.84441323629E-05 -5.62930049515E-01 +6.54968115706E-01
1.17000000000E+09 -4.70155339216E-01 +8.23024975981E-01 +2.11606327326E-05 -3.48892806353E-05 +1.02340190368E-05 -3.56158497170E-05 -5.58403385759E-01 +6.58127098405E-01
1.17500000000E+09 -4.62955275709E-01 +8.26389715718E-01 -2.19216086845E-06 -4.74220947064E-05 +1.10562112266E-04 -3.80682777737E-05 -5.53630462867E-01 +6.61167605990E-01
1.18000000000E+09 -4.55369628644E-01 +8.30145061396E-01 +3.25426415635E-05 -1.56469907580E-05 +9.36648854675E-06 -2.89831266038E-05 -5.49068090116E-01 +6.64312201560E-01
1.18500000000E+09 -4.47880675268E-01 +8.33401397810E-01 +4.58539235922E-05 -5.59341820085E-05 +2.30436656829E-05 -6.45133797595E-05 -5.44118763643E-01 +6.67470538222E-01
1.19000000000E+09 -4.40643481897E-01 +8.36150596453E-01 +3.59084221662E-05 -6.30744325761E-05 +6.12930075716E-05 -8.02338504136E-05 -5.38586340091E-01 +6.70175256424E-01
1.19500000000E+09 -4.34429789408E-01 +8.38187701760E-01 +8.35565525807E-05 -1.27945650975E-04 +8.37173591672E-05 -8.67246865399E-05 -5.33508086254E-01 +6.71521180193E-01
1.20000000000E+09 -4.29014082713E-01 +8.39058366322E-01 +3.90575936363E-05 -1.60656316318E-04 +5.13641555738E-05 -1.24570151878E-04 -5.29419612583E-01 +6.72096573803E-01
1.20500000000E+09 -4.23745709144E-01 +8.39987361269E-01 -7.89000039377E-05 -1.83576273780E-04 -4.12660222912E-05 -1.41179375600E-04 -5.27430796920E-01 +6.72955534912E-01
1.21000000000E+09 -4.18622185051E-01 +8.41386157812E-01 -1.10859272911E-04 -6.11273373527E-05 -8.64983658285E-05 -8.55682043079E-05 -5.26007728929E-01 +6.75650039262E-01
1.21500000000E+09 -4.12363946274E-01 +8.42885100588E-01 -8.28386697013E-05 -3.13106172369E-05 -4.31225748508E-05 -4.63139252118E-05 -5.23766493127E-01 +6.79977559738E-01
1.22000000000E+09 -4.04986841731E-01 +8.44966316262E-01 -3.63578729221E-05 -2.52101292960E-05 -2.44625673085E-05 +1.13222771959E-05 -5.20264421535E-01 +6.85096504625E-01
1.22500000000E+09 -3.96430748162E-01 +8.47617952117E-01 +1.80948928495E-05 -5.10154409394E-05 -4.81625612048E-05 -3.19671132802E-06 -5.16015051125E-01 +6.90031277207E-01
1.23000000000E+09 -3.87141340528E-01 +8.50792211655E-01 -3.13473113134E-07 -2.68984651071E-05 +3.70995835163E-05 -9.80485889300E-05 -5.11416058030E-01 +6.94368570352E-01
1.23500000000E+09 -3.77634297637E-01 +8.54248426902E-01 +1.36843154387E-05 -3.84483314736E-05 +6.30052335635E-06 -5.02625947570E-05 -5.06600668304E-01 +6.98462020804E-01
1.24000000000E+09 -3.68339883790E-01 +8.58282926290E-01 -4.06258897970E-05 -6.58556133107E-05 -4.37650043780E-05 -4.64813673050E-05 -5.01527108520E-01 +7.02279133522E-01
1.24500000000E+09 -3.59790207898E-01 +8.62410785218E-01 -2.64006805791E-05 -6.82452533545E-05 -1.58025558087E-05 -9.05135642163E-05 -4.96323381165E-01 +7.05946706246E-01
1.25000000000E+09 -3.51875073331E-01 +8.65906554912E-01 +3.86618551840E-06 -6.15779439595E-05 -2.27779045901E-05 -6.03332788648E-05 -4.90955705516E-01 +7.10242623951E-01
1.25500000000E+09 -3.44717058257E-01 +8.68274837850E-01 -5.26292494526E-05 -1.29653119756E-04 -3.67011734976E-05 -7.44515312622E-05 -4.85257286812E-01 +7.14161592725E-01
1.26000000000E+09 -3.38260963384E-01 +8.69957904636E-01 -6.41987604365E-05 -1.13341723145E-04 -6.18201413307E-05 -9.82883733656E-05 -4.79690806300E-01 +7.18525576830E-01
1.26500000000E+09 -3.32063546748E-01 +8.70962635479E-01 -8.91363226282E-05 -1.23852170042E-04 -7.54438178672E-05 -9.17161902680E-05 -4.73890214390E-01 +7.22541260924E-01
1.27000000000E+09 -3.25337979240E-01 +8.71751500479E-01 -1.02949897536E-04 -1.31184237853E-04 -9.12609211742E-05 -1.15247913588E-04 -4.68079623795E-01 +7.26518517871E-01
1.27500000000E+09 -3.17515273628E-01 +8.72672025003E-01 -1.43294979515E-04 -9.29258312952E-05 -1.67050334639E-04 -1.21002316161E-04 -4.62054694468E-01 +7.30415409481E-01
1.28000000000E+09 -3.08176965708E-01 +8.73938978142E-01 -1.35177872194E-04 -4.59135131699E-05 -1.14137145765E-04 -5.53547722597E-05 -4.55895430294E-01 +7.34174492070E-01
1.28500000000E+09 -2.97199219353E-01 +8.75847502180E-01 -1.46508475408E-04 -8.19074335613E-05 -1.78593205302E-04 -1.16133038722E-04 -4.49232357571E-01 +7.38114595267E-01
1.29000000000E+09 -2.85765542378E-01 +8.78372780202E-01 -1.55600785642E-04 -4.73577485330E-05 -1.91191211667E-04 -7.59911983965E-05 -4.42713560468E-01 +7.41966445538E-01
1.29500000000E+09 -2.74235238718E-01 +8.81470849647E-01 -1.26301972100E-04 -5.12045370035E-05 -2.16670187000E-04 -4.52801260730E-06 -4.36009319825E-01 +7.45916542170E-01
1.30000000000E+09 -2.62957164814E-01 +8.85164588993E-01 -1.65050679096E-04 -1.79315511620E-05 -1.84594502519E-04 -1.60192664449E-05 -4.29037525684E-01 +7.49710446193E-01
1.30500000000E+09 -2.52616849251E-01 +8.88542945262E-01 -1.65227305431E-04 -3.88005290249E-05 -1.38134210626E-04 -5.25904069149E-05 -4.21918540355E-01 +7.53520907219E-01
1.31000000000E+09 -2.43555995458E-01 +8.91060808096E-01 -1.85971554613E-04 -2.12200101471E-05 -1.73040667403E-04 -2.62740035727E-06 -4.14738219146E-01 +7.57106384911E-01
1.31500000000E+09 -2.35960583136E-01 +8.92744613132E-01 -2.06994131624E-04 +4.47573381079E-05 -1.61083724236E-04 +7.23321301541E-05 -4.07114185859E-01 +7.60786754745E-01
1.32000000000E+09 -2.29359809582E-01 +8.93471893371E-01 -2.16517573013E-04 +8.84398041213E-05 -2.60305017520E-04 +4.82560038591E-05 -3.99009792105E-01 +7.64474650426E-01
1.32500000000E+09 -2.23061553136E-01 +8.93357804147E-01 -1.61825689214E-04 +9.57121948136E-05 -2.38260139684E-04 +1.04612222408E-04 -3.90762209628E-01 +7.68092724209E-01
1.33000000000E+09 -2.15651578840E-01 +8.93185872278E-01 -1.98914367801E-04 +1.35454647469E-04 -2.17891427124E-04 +9.80650245076E-05 -3.82394759439E-01 +7.71783869283E-01
1.33500000000E+09 -2.06544955451E-01 +8.92688340290E-01 -1.97949667534E-04 +7.71565167625E-05 -1.74849050468E-04 +1.02448788941E-04 -3.73900403814E-01 +7.75424977289E-01
1.34000000000E+09 -1.95164136933E-01 +8.92616398652E-01 -2.59871869968E-04 +9.72357435525E-05 -2.17352074093E-04 +1.61574325000E-04 -3.64874742849E-01 +7.79010373954E-01
1.34500000000E+09 -1.81432826893E-01 +8.92469663827E-01 -2.69013173297E-04 +2.52285586518E-04 -1.85231635074E-04 +2.14575690442E-04 -3.55179437808E-01 +7.82774561344E-01
1.35000000000E+09 -1.66135657713E-01 +8.92850505951E-01 -2.25326078967E-04 +2.37851639276E-04 -2.36243538526E-04 +1.87494142506E-04 -3.45403637902E-01 +7.86621712808E-01
1.35500000000E+09 -1.49757067653E-01 +8.93714288114E-01 -2.44870466215E-04 +2.53567248249E-04 -2.04378343091E-04 +3.13999366915E-04 -3.34987991739E-01 +7.90087406520E-01
1.36000000000E+09 -1.33464375185E-01 +8.94561921497E-01 -2.54592942960E-04 +3.26450964742E-04 -1.82395019130E-04 +3.34447496291E-04 -3.24297984924E-01 +7.93487057439E-01
1.36500000000E+09 -1.17825925039E-01 +8.95158379595E-01 -2.08857562863E-04 +3.68157044523E-04 -1.84335403913E-04 +3.44646319894E-04 -3.13459616505E-01 +7.96650308149E-01
1.37000000000E+09 -1.03776505455E-01 +8.94925087455E-01 -1.66197456563E-04 +4.24500844862E-04 -1.39875210316E-04 +3.95789082232E-04 -3.01903644278E-01 +7.99674800358E-01
1.37500000000E+09 -9.15434995312E-02 +8.94283001539E-01 -5.56520927389E-05 +4.67282748793E-04 -6.37749924055E-05 +4.41311287034E-04 -2.89652961335E-01 +8.02781384511E-01
1.38000000000E+09 -8.02107122631E-02 +8.92859704823E-01 -1.80694232037E-05 +4.66174989768E-04 -9.63419815946E-05 +5.12016764394E-04 -2.76488296126E-01 +8.05888862671E-01
1.38500000000E+09 -6.86952749611E-02 +8.90890760069E-01 +1.37949621444E-05 +4.58289563807E-04 -6.27219097962E-06 +5.30615306067E-04 -2.62602594013E-01 +8.08738132698E-01
1.39000000000E+09 -5.62972297842E-02 +8.88252652244E-01 +4.52900632812E-05 +5.01393271174E-04 +2.53392006930E-05 +5.96583624889E-04 -2.48093900626E-01 +8.11455711997E-01
1.39500000000E+09 -4.16381726920E-02 +8.84931834383E-01 +6.29535379663E-05 +5.43412457188E-04 +1.61879856821E-04 +5.76314595909E-04 -2.33045234899E-01 +8.13537470363E-01
1.40000000000E+09 -2.45494251839E-02 +8.80668385280E-01 +2.23016301121E-05 +6.22140479823E-04 +1.57507030261E-04 +6.47184619759E-04 -2.17104928158E-01 +8.15346045538E-01
1.40500000000E+09 -5.61927422058E-03 +8.76197284709E-01 +2.43818733553E-04 +7.59261555029E-04 +3.10382408324E-04 +7.68437941360E-04 -2.00230190742E-01 +8.16671934127E-01
1.41000000000E+09 +1.53613560069E-02 +8.71278639584E-01 +3.93153425616E-04 +6.57460684989E-04 +3.89505103707E-04 +7.76123688563E-04 -1.81762790869E-01 +8.17615809444E-01
1.41500000000E+09 +3.74467662565E-02 +8.65854804830E-01 +5.43838985711E-04 +7.52656407311E-04 +5.44405787845E-04 +8.11648203771E-04 -1.61825623420E-01 +8.17901375791E-01
1.42000000000E+09 +5.99089671315E-02 +8.59493127187E-01 +7.28837952955E-04 +6.69230913758E-04 +7.34025429615E-04 +7.14019438548E-04 -1.40458571152E-01 +8.17402597104E-01
1.42500000000E+09 +8.17658493167E-02 +8.51688492115E-01 +7.74735653515E-04 +5.63188201690E-04 +8.60336161096E-04 +6.29745004761E-04 -1.18058920120E-01 +8.16079987331E-01
1.43000000000E+09 +1.02581938321E-01 +8.42479471515E-01 +8.15319756673E-04 +5.54198024532E-04 +9.72472045076E-04 +5.47942035883E-04 -9.48044450545E-02 +8.13785466343E-01
1.43500000000E+09 +1.22876845425E-01 +8.31519854200E-01 +1.00711808923E-03 +7.17460966539E-04 +1.10746710491E-03 +6.55342861470E-04 -6.97350873023E-02 +8.09961509473E-01
1.44000000000E+09 +1.43608603323E-01 +8.18906828174E-01 +1.48821393632E-03 +5.86436970476E-04 +1.55837927741E-03 +4.94229169570E-04 -4.28098195277E-02 +8.04231450307E-01
1.44500000000E+09 +1.65933208099E-01 +8.03578245290E-01 +1.71477380841E-03 +1.29788837072E-04 +1.74498957004E-03 +7.44158672731E-05 -1.35363107102E-02 +7.96223377164E-01
1.45000000000E+09 +1.90279668191E-01 +7.84693115894E-01 +1.66333040169E-03 -1.40984511349E-04 +1.67940234424E-03 -2.43578194789E-04 +1.76960725335E-02 +7.85109369845E-01
1.45500000000E+09 +2.16773675251E-01 +7.62326452979E-01 +1.75186095638E-03 -2.83161284079E-04 +1.73157201107E-03 -4.50967475594E-04 +5.06393597708E-02 +7.71394958806E-01
1.46000000000E+09 +2.46243824729E-01 +7.35928802086E-01 +1.90352150863E-03 -4.56169299184E-04 +1.80408706023E-03 -6.15948662144E-04 +8.51482982287E-02 +7.53394706678E-01
1.46500000000E+09 +2.77080488829E-01 +7.05005168125E-01 +2.26024231772E-03 -8.15316173726E-04 +2.03535320197E-03 -8.66504862586E-04 +1.21558295795E-01 +7.31133097336E-01
1.47000000000E+09 +3.08653411504E-01 +6.69628895866E-01 +2.42475750594E-03 -1.52865813556E-03 +2.18107078344E-03 -1.37840247327E-03 +1.59164508854E-01 +7.01759671821E-01
1.47500000000E+09 +3.39479885413E-01 +6.28758159309E-01 +2.38385527744E-03 -2.43889846178E-03 +2.31729784059E-03 -2.27335876363E-03 +1.97547338729E-01 +6.65287050414E-01
1.48000000000E+09 +3.67608733685E-01 +5.81169124265E-01 +1.60087958528E-03 -3.11148517820E-03 +1.75671021199E-03 -3.13198913119E-03 +2.35581553315E-01 +6.20157169776E-01
1.48500000000E+09 +3.89888783753E-01 +5.26583566174E-01 +1.17549032069E-03 -3.44609913382E-03 +1.17620887710E-03 -3.57925508587E-03 +2.71962420790E-01 +5.65916010058E-01
1.49000000000E+09 +4.05946396784E-01 +4.64766707018E-01 +6.39501848833E-04 -4.23802179041E-03 +4.55436269624E-04 -4.25744400539E-03 +3.03493512846E-01 +5.00276427872E-01
1.49500000000E+09 +4.13142509781E-01 +3.95263436061E-01 -5.58931163713E-04 -4.98465306457E-03 -7.53269045836E-04 -4.76230483554E-03 +3.24768592317E-01 +4.24629546089E-01
1.50000000000E+09 +4.11241963902E-01 +3.17708250310E-01 -2.32080038370E-03 -4.73116198557E-03 -2.17016421858E-03 -4.40603704126E-03 +3.35020003272E-01 +3.39604054246E-01
1.50500000000E+09 +3.95974747442E-01 +2.31220048854E-01 -3.04992014527E-03 -4.43585130823E-03 -2.76080485255E-03 -4.30752116489E-03 +3.27843738599E-01 +2.45252371494E-01
1.51000000000E+09 +3.63729370776E-01 +1.40631719746E-01 -4.69735911168E-03 -3.76330854058E-03 -4.48607660721E-03 -3.94540046856E-03 +3.00017126886E-01 +1.46760710639E-01
1.51500000000E+09 +3.12551149852E-01 +5.09727382911E-02 -5.78741028462E-03 -2.82620264582E-03 -5.74141255056E-03 -2.99600317951E-03 +2.49404452582E-01 +5.28781564040E-02
1.52000000000E+09 +2.41925290674E-01 -2.91746499144E-02 -7.57821236232E-03 -9.76774282530E-04 -7.67756930232E-03 -1.11417654591E-03 +1.78527323599E-01 -3.15958523957E-02
1.52500000000E+09 +1.55157013771E-01 -9.37977175476E-02 -7.24414546658E-03 +2.64102522521E-03 -7.38966072669E-03 +2.60105189780E-03 +8.85085790669E-02 -9.70596382767E-02
1.53000000000E+09 +5.57758130315E-02 -1.38963519755E-01 -5.07697102712E-03 +3.97318982760E-03 -5.10836373401E-03 +3.89836114518E-03 -1.17924013730E-02 -1.40662560074E-01
1.53500000000E+09 -5.15102219105E-02 -1.58960888470E-01 -3.99973156222E-03 +5.01769347511E-03 -4.02076500445E-03 +4.94589784665E-03 -1.16933091663E-01 -1.59555775814E-01
1.54000000000E+09 -1.58921945504E-01 -1.53152080027E-01 -2.17915108619E-03 +5.16310683394E-03 -2.17358573873E-03 +5.05418858820E-03 -2.17667409432E-01 -1.56141981444E-01
1.54500000000E+09 -2.60414746279E-01 -1.26923105453E-01 -1.17255978002E-03 +5.42733041065E-03 -1.28048904544E-03 +5.33813196703E-03 -3.07864352109E-01 -1.34628856913E-01
1.55000000000E+09 -3.51468826147E-01 -8.15057652979E-02 +4.45014898321E-04 +5.44162793956E-03 +2.32754618133E-04 +5.44288704258E-03 -3.85422750076E-01 -1.01546262248E-01
1.55500000000E+09 -4.26276091957E-01 -2.62581723462E-02 +2.01931419187E-03 +4.62142495278E-03 +1.86201432584E-03 +4.82218585668E-03 -4.50178930462E-01 -5.91789268296E-02
1.56000000000E+09 -4.87448054777E-01 +3.21583591305E-02 +2.75828253089E-03 +3.22903784539E-03 +2.73501672023E-03 +3.45779134635E-03 -5.02073352226E-01 -1.20926890304E-02
1.56500000000E+09 -5.36395912558E-01 +9.17018057932E-02 +2.81334336917E-03 +2.24830238446E-03 +2.91475986059E-03 +2.41660685971E-03 -5.42739603293E-01 +3.72047849412E-02
1.57000000000E+09 -5.72628788315E-01 +1.50068781940E-01 +2.92897485729E-03 +1.47556743886E-03 +3.08875264382E-03 +1.54007113498E-03 -5.73644291910E-01 +8.56319019534E-02
