# Hz S RI R 50
! CMT, C1220, 16058040, 17.2.0/1
! Date: 14/08/2018 12:39:28
! Data: Format (Calibration Info)
! Freq                      S11: Re/Im (F2)                       S21: Re/Im (F2)                       S12: Re/Im (F2)                       S22: Re/Im (F2)            
1.00000000000E+09 -6.48143152043E-01 +7.14400609925E-01 +2.12415362873E-05 -3.24281159338E-06 +2.74086366611E-05 -7.16925912707E-05 -6.70307969163E-01 +5.39904093435E-01
1.00500000000E+09 -6.41195389532E-01 +7.19562079800E-01 -9.08748631093E-06 -3.02308977674E-05 +1.10171432310E-06 +4.57319951554E-05 -6.67311828791E-01 +5.43677723543E-01
1.01000000000E+09 -6.35068997182E-01 +7.24226815821E-01 -7.25954890352E-06 +5.00633715332E-06 -7.74269108960E-06 -1.08870846037E-05 -6.64295677456E-01 +5.46844843175E-01
1.01500000000E+09 -6.30598361882E-01 +7.28222968744E-01 -3.23600108078E-05 -1.76982618055E-05 -3.58437657396E-05 +4.37780192783E-05 -6.61746340354E-01 +5.50009516928E-01
1.02000000000E+09 -6.27473809173E-01 +7.31627466888E-01 +3.06347587806E-05 -1.83198830959E-05 -1.71930471970E-05 -1.64986363137E-05 -6.59097565657E-01 +5.53134652372E-01
1.02500000000E+09 -6.25100294417E-01 +7.34344148062E-01 +3.40945991482E-05 -1.29844704508E-06 +7.94257975188E-06 +1.91385074719E-05 -6.57037917792E-01 +5.56297557528E-01
1.03000000000E+09 -6.23363981220E-01 +7.36855597438E-01 +2.14906312990E-05 +6.53985836447E-06 -2.64277373753E-05 +1.85145597669E-05 -6.54281410579E-01 +5.59846208711E-01
1.03500000000E+09 -6.20644644071E-01 +7.39226319924E-01 +5.34651836767E-05 +1.01497633599E-05 -4.78750325473E-06 +2.82191356392E-05 -6.51245319681E-01 +5.63478454426E-01
1.04000000000E+09 -6.17160492180E-01 +7.41992537804E-01 -6.16601443023E-05 -1.05887352282E-05 +2.01976728128E-05 +3.52901762896E-06 -6.48173387529E-01 +5.66888178854E-01
1.04500000000E+09 -6.12356920826E-01 +7.45403199541E-01 +2.37439065501E-06 +4.36862172147E-05 +9.84809901124E-06 +7.65575531575E-05 -6.45569840341E-01 +5.70047422078E-01
1.05000000000E+09 -6.05586704601E-01 +7.49300185910E-01 -2.78011881339E-05 +4.02007414215E-05 -6.35802165542E-06 -4.89816007561E-06 -6.42673617880E-01 +5.73299389601E-01
1.05500000000E+09 -5.98052978386E-01 +7.53789467363E-01 +2.28011708581E-05 +3.17143639274E-05 -2.22367355252E-05 +2.97219928768E-05 -6.40031104910E-01 +5.76643126665E-01
1.06000000000E+09 -5.89753059462E-01 +7.59075077185E-01 -9.13330985913E-06 +4.79374656613E-05 -1.81093925309E-05 +4.14094278895E-05 -6.37421752250E-01 +5.80266053032E-01
1.06500000000E+09 -5.81807551403E-01 +7.63863407111E-01 +2.83738343535E-05 +4.82656860918E-05 -6.26156533595E-06 +6.28570770795E-06 -6.34189907970E-01 +5.83865010648E-01
1.07000000000E+09 -5.74907570017E-01 +7.68159143240E-01 +3.28455035817E-05 +5.81522665392E-05 -2.85224309183E-06 +6.02078419068E-06 -6.30969977395E-01 +5.87467440716E-01
1.07500000000E+09 -5.69156358671E-01 +7.72246394633E-01 +3.38061101233E-05 +3.80398302920E-05 +2.33957146148E-05 +2.28391257404E-05 -6.27342018553E-01 +5.90869093459E-01
1.08000000000E+09 -5.64964700865E-01 +7.75466558327E-01 +1.18161224288E-05 +2.40409591665E-05 -2.81588905164E-05 -1.98418060401E-05 -6.24082137043E-01 +5.94337571314E-01
1.08500000000E+09 -5.62057223568E-01 +7.77774477371E-01 +1.09525026030E-05 +2.94252229352E-05 +3.27491701781E-05 +2.88358560559E-05 -6.20966957381E-01 +5.97728893664E-01
1.09000000000E+09 -5.59785740750E-01 +7.79835672618E-01 -2.05380030147E-05 -3.39837531697E-05 -2.23812722753E-05 +1.65635293877E-05 -6.17964837161E-01 +6.01356859687E-01
1.09500000000E+09 -5.57699424188E-01 +7.81713330613E-01 +4.65295831050E-05 +3.30255922970E-05 +4.44635573059E-05 +1.10688961891E-05 -6.14935134853E-01 +6.04912855268E-01
1.10000000000E+09 -5.54480316613E-01 +7.83731456249E-01 +1.49237935279E-05 +3.56373356435E-05 -1.66022410958E-06 +2.22838698965E-05 -6.11627643026E-01 +6.08439380171E-01
1.10500000000E+09 -5.50259529785E-01 +7.86360528804E-01 +2.29671246921E-05 +1.05018733924E-05 +2.40109755388E-05 -1.88666620368E-05 -6.08104890566E-01 +6.11868748101E-01
1.11000000000E+09 -5.44651731990E-01 +7.89872232506E-01 -2.26277783378E-05 +8.84946761744E-06 -1.16295670382E-06 +3.83537423684E-05 -6.04739197390E-01 +6.15067552481E-01
1.11500000000E+09 -5.37743187685E-01 +7.93793434891E-01 +8.70696293103E-06 +2.63536605125E-05 +5.13086694552E-05 +3.90707324286E-06 -6.01523661646E-01 +6.18288582006E-01
1.12000000000E+09 -5.30309942891E-01 +7.97996071827E-01 +1.94099980855E-05 +3.67948868178E-05 +6.63206526955E-05 +4.99704635565E-05 -5.98304229916E-01 +6.21776462015E-01
1.12500000000E+09 -5.22713782398E-01 +8.02243672733E-01 +4.21258426861E-05 +2.74584578857E-06 +4.50733115563E-05 +2.94854383625E-05 -5.94768990927E-01 +6.25530804996E-01
1.13000000000E+09 -5.15618466688E-01 +8.05895187470E-01 +5.84315655639E-05 -7.93010666022E-06 +4.46853232321E-05 +7.82591778926E-05 -5.91155314690E-01 +6.29366393106E-01
1.13500000000E+09 -5.09491621690E-01 +8.08918210318E-01 +3.68988323637E-05 +1.27988052327E-05 +6.04650311820E-05 +3.67768167671E-05 -5.87369845340E-01 +6.33065207521E-01
1.14000000000E+09 -5.04392016687E-01 +8.11279369219E-01 +4.40131628139E-05 +4.92397294157E-05 +7.35955480998E-05 -3.09949911933E-05 -5.83278385456E-01 +6.36467877282E-01
1.14500000000E+09 -5.00406509989E-01 +8.12818917895E-01 +9.75384723846E-05 -4.03887587889E-05 +6.66035214829E-05 -3.71518485095E-08 -5.79235655745E-01 +6.39940373156E-01
1.15000000000E+09 -4.96535063436E-01 +8.14079243590E-01 +5.61594616408E-05 -2.11527854977E-05 +7.16332683956E-05 -3.40359136871E-05 -5.75367338825E-01 +6.43535150220E-01
1.15500000000E+09 -4.92878575818E-01 +8.15632666004E-01 +3.05681861217E-05 +5.36524939850E-06 +8.95963826759E-05 -2.69769920319E-05 -5.71245574445E-01 +6.47353016401E-01
1.16000000000E+09 -4.88150959655E-01 +8.17439213200E-01 +6.63032398178E-05 +1.98864186916E-05 +5.32123608962E-05 +2.99277614463E-06 -5.67305219726E-01 +6.50919752005E-01
1.16500000000E+09 -4.82502021316E-01 +8.20278052992E-01 +4.17664542428E-05 +5.95758286312E-06 +2.54156114902E-05 -7.59236950438E-05 -5.63055422598E-01 +6.54374258979E-01
1.17000000000E+09 -4.75875309985E-01 +8.23563364907E-01 +4.35376729298E-05 +1.09803543991E-05 +7.73385487335E-05 -6.60190882294E-05 -5.58618531519E-01 +6.57496247350E-01
1.17500000000E+09 -4.68289322509E-01 +8.27193271263E-01 +5.57590484931E-05 -2.90687689408E-05 +3.94079885609E-05 -3.31271509321E-05 -5.53920697669E-01 +6.60719648711E-01
1.18000000000E+09 -4.60653086222E-01 +8.31050533458E-01 +6.41658812856E-05 -5.91628752557E-05 +3.85395374264E-05 -5.29056357799E-05 -5.49180128667E-01 +6.63820798971E-01
1.18500000000E+09 -4.52951648496E-01 +8.34919352272E-01 +5.59850054478E-05 -5.95356410099E-05 +5.20352357522E-05 -2.92982028563E-05 -5.44330755538E-01 +6.66971968272E-01
1.19000000000E+09 -4.45874431977E-01 +8.37750697834E-01 +6.87536674889E-05 -3.06724862325E-05 +4.71663836749E-05 -2.71268227707E-05 -5.39071869847E-01 +6.69733661382E-01
1.19500000000E+09 -4.39810376990E-01 +8.40010931814E-01 +8.48845283138E-05 -1.03468105928E-04 +7.05359021797E-05 -1.49419381598E-04 -5.33765851833E-01 +6.71092356470E-01
1.20000000000E+09 -4.34596985440E-01 +8.40819882296E-01 +7.35371080726E-05 -1.66427895295E-04 +3.62548712217E-05 -1.55691445609E-04 -5.29723654375E-01 +6.71563383522E-01
1.20500000000E+09 -4.29935579454E-01 +8.41783838637E-01 -4.70761384169E-05 -1.66948397277E-04 -6.12104248130E-05 -1.41741132928E-04 -5.27741581231E-01 +6.72313713563E-01
1.21000000000E+09 -4.25070212236E-01 +8.42849540785E-01 -6.55094573740E-05 -6.25379643297E-05 -8.95789843439E-05 -4.63339945787E-05 -5.26188729943E-01 +6.75194827954E-01
1.21500000000E+09 -4.19140665602E-01 +8.44227751699E-01 -4.62921675751E-05 -2.97986031784E-05 -1.88661924890E-05 -9.19808086634E-07 -5.24005833131E-01 +6.79509206682E-01
1.22000000000E+09 -4.11788624121E-01 +8.46158236932E-01 -6.97226417900E-06 -3.69816690875E-05 -6.38191881206E-05 -1.93663248767E-05 -5.20583613278E-01 +6.84704643080E-01
1.22500000000E+09 -4.03152182152E-01 +8.48907582970E-01 -4.46355699696E-05 -5.08250799528E-05 -8.12804179703E-07 -2.18781861669E-05 -5.16458394549E-01 +6.89418485532E-01
1.23000000000E+09 -3.93313902215E-01 +8.52410985264E-01 +9.78026312623E-06 -8.32996437608E-05 +9.27728447299E-06 -3.41363766979E-05 -5.11601352085E-01 +6.93903579832E-01
1.23500000000E+09 -3.83580263124E-01 +8.56245602562E-01 +2.69606820250E-05 -7.88270480080E-05 +1.75949626326E-05 -8.33843720589E-05 -5.06656678664E-01 +6.98025396362E-01
1.24000000000E+09 -3.74064310017E-01 +8.60535313500E-01 -6.13053598559E-05 -9.72515529662E-05 -1.81657127704E-05 -7.40001846087E-05 -5.01822150298E-01 +7.01802894357E-01
1.24500000000E+09 -3.65401580723E-01 +8.64884621089E-01 -3.44839187207E-05 -7.46175062147E-05 +3.16456021842E-06 -6.82995010626E-05 -4.96756056917E-01 +7.05580416406E-01
1.25000000000E+09 -3.57704764990E-01 +8.68571296503E-01 +6.46669380326E-06 -1.02151482379E-04 -3.02920067164E-05 -9.55337431701E-05 -4.91281735026E-01 +7.09708648138E-01
1.25500000000E+09 -3.50890177501E-01 +8.71141160821E-01 -4.06397608093E-05 -9.06472277180E-05 -5.61004482502E-05 -1.30488294607E-04 -4.85585102139E-01 +7.13809712294E-01
1.26000000000E+09 -3.44884671812E-01 +8.72935040213E-01 -4.61114694980E-05 -8.85554952352E-05 -7.53798720461E-06 -1.44119310479E-04 -4.80041226334E-01 +7.18052156426E-01
1.26500000000E+09 -3.39121498461E-01 +8.73832573713E-01 -4.95365750565E-05 -1.18834353878E-04 -2.86943367695E-05 -1.14591636941E-04 -4.74112468979E-01 +7.22118265617E-01
1.27000000000E+09 -3.33035876249E-01 +8.74654014585E-01 -1.07778202172E-04 -9.58640297283E-05 -7.15989328468E-05 -1.32492642336E-04 -4.68451656642E-01 +7.26176798069E-01
1.27500000000E+09 -3.25384839282E-01 +8.75706338649E-01 -1.29428715312E-04 -1.13001766286E-04 -1.12654324208E-04 -1.05555115434E-04 -4.62215578256E-01 +7.29987856397E-01
1.28000000000E+09 -3.16104105908E-01 +8.77214130341E-01 -1.63395382684E-04 -7.29257781848E-05 -9.76732950525E-05 -9.30710051086E-05 -4.56212186066E-01 +7.33828882464E-01
1.28500000000E+09 -3.04920349239E-01 +8.79305958757E-01 -1.95704968475E-04 -6.09963459867E-05 -2.11287190803E-04 -1.46603244309E-04 -4.49647180437E-01 +7.37727530905E-01
1.29000000000E+09 -2.92977314274E-01 +8.82042221921E-01 -1.39354263834E-04 -9.78501188809E-05 -2.02913247232E-04 -8.19706384828E-05 -4.43136500959E-01 +7.41655959650E-01
1.29500000000E+09 -2.80796330653E-01 +8.85396091559E-01 -1.72400207229E-04 -5.06907632719E-05 -1.47347475070E-04 -5.80340857777E-05 -4.36102015123E-01 +7.45387323279E-01
1.30000000000E+09 -2.69175704319E-01 +8.89242424158E-01 -1.48353097974E-04 -4.82593590088E-05 -1.68686303524E-04 -1.69832093448E-05 -4.29447466871E-01 +7.49394704845E-01
1.30500000000E+09 -2.58788331907E-01 +8.92946534909E-01 -2.10891770920E-04 -7.87413760011E-05 -1.43728056272E-04 -6.74015867190E-05 -4.22407435200E-01 +7.52996234805E-01
1.31000000000E+09 -2.49715345631E-01 +8.95518509566E-01 -2.37436507138E-04 -1.76419121178E-05 -2.57414363015E-04 -2.62821244069E-05 -4.15006552717E-01 +7.56749180473E-01
1.31500000000E+09 -2.42562199527E-01 +8.97286799868E-01 -2.37031187898E-04 -2.50932105858E-05 -2.50929042985E-04 +2.51841187992E-05 -4.07432722338E-01 +7.60545674573E-01
1.32000000000E+09 -2.36530818560E-01 +8.97950395204E-01 -2.25660297884E-04 +9.77781375188E-06 -2.52596295389E-04 -5.95276074642E-06 -3.99294020908E-01 +7.64176469066E-01
1.32500000000E+09 -2.30795871308E-01 +8.97903098975E-01 -2.02084533068E-04 +3.80990215072E-05 -2.72857196349E-04 +2.24653530033E-05 -3.91006566594E-01 +7.67787864846E-01
1.33000000000E+09 -2.23690705052E-01 +8.97580710494E-01 -2.47365025585E-04 +7.77725169428E-05 -2.31556937365E-04 +1.33244562995E-04 -3.82602355636E-01 +7.71367434844E-01
1.33500000000E+09 -2.14814196286E-01 +8.96952514154E-01 -2.65297129140E-04 +6.02835129680E-05 -2.53008628955E-04 +8.76246389285E-05 -3.74042099466E-01 +7.74845918281E-01
1.34000000000E+09 -2.03239196898E-01 +8.96908286095E-01 -3.22501713719E-04 +1.07028462158E-04 -2.74026050563E-04 +1.28068592057E-04 -3.65200400430E-01 +7.78515192088E-01
1.34500000000E+09 -1.89168264720E-01 +8.96956785738E-01 -2.67947568070E-04 +1.80264752765E-04 -2.99821804855E-04 +1.52211149997E-04 -3.55533011618E-01 +7.82397258414E-01
1.35000000000E+09 -1.73269186916E-01 +8.97428487388E-01 -2.49782004987E-04 +2.17588393917E-04 -2.52652369202E-04 +2.16820762843E-04 -3.45685689666E-01 +7.86133082886E-01
1.35500000000E+09 -1.56166221514E-01 +8.98368099698E-01 -2.44025696190E-04 +2.87302522482E-04 -2.69580236835E-04 +2.56741194070E-04 -3.35351256307E-01 +7.89678522056E-01
1.36000000000E+09 -1.39440216645E-01 +8.99643787562E-01 -2.71957013156E-04 +3.21899168745E-04 -2.60958245139E-04 +3.13000808590E-04 -3.24615785320E-01 +7.93167429655E-01
1.36500000000E+09 -1.23652840413E-01 +9.00384121833E-01 -2.87294840487E-04 +3.74057226018E-04 -2.34719846265E-04 +3.33226684005E-04 -3.13724514047E-01 +7.96087752451E-01
1.37000000000E+09 -1.09678059397E-01 +9.00477579387E-01 -2.42531795598E-04 +4.18195239986E-04 -2.47238429161E-04 +4.07551079186E-04 -3.02286965884E-01 +7.99493720258E-01
1.37500000000E+09 -9.76976337960E-02 +9.00014970970E-01 -1.79330738775E-04 +5.10788802780E-04 -2.33727417121E-04 +4.44040746340E-04 -2.89967805023E-01 +8.02441389463E-01
1.38000000000E+09 -8.68791565769E-02 +8.98945646498E-01 -1.45129797101E-04 +5.02349547469E-04 -1.81139925022E-04 +5.56212287829E-04 -2.76799718255E-01 +8.05427207188E-01
1.38500000000E+09 -7.56869365213E-02 +8.97154763439E-01 -8.64077224366E-05 +5.24697122011E-04 -1.39465976404E-04 +5.87298407727E-04 -2.62853018211E-01 +8.08374788050E-01
1.39000000000E+09 -6.34674349049E-02 +8.94760582198E-01 -7.17727147694E-05 +5.49955167352E-04 -7.15214284044E-05 +6.59510656137E-04 -2.48639585194E-01 +8.11035627148E-01
1.39500000000E+09 -4.88143886531E-02 +8.91753981296E-01 -2.92329246834E-05 +5.89151685104E-04 +4.61519967739E-05 +7.00108584799E-04 -2.33416250417E-01 +8.13129031971E-01
1.40000000000E+09 -3.12309695784E-02 +8.87751890658E-01 -7.29643464541E-05 +7.11201138659E-04 -1.29819532999E-05 +7.36655826233E-04 -2.17608075167E-01 +8.14994713740E-01
1.40500000000E+09 -1.15715293349E-02 +8.83442730951E-01 +1.01020614507E-04 +9.24999318759E-04 +1.34922672358E-04 +8.99338375915E-04 -2.00639426160E-01 +8.16192314794E-01
1.41000000000E+09 +1.02492219201E-02 +8.78599450902E-01 +2.64019261359E-04 +9.28673821597E-04 +2.24999393537E-04 +8.94369131129E-04 -1.82113386643E-01 +8.17244753211E-01
1.41500000000E+09 +3.29567108351E-02 +8.73044725247E-01 +4.51528407062E-04 +9.47217994833E-04 +4.05083187492E-04 +1.02449419702E-03 -1.62318301751E-01 +8.17492353621E-01
1.42000000000E+09 +5.58674640816E-02 +8.66786538958E-01 +6.58450781839E-04 +9.60655778432E-04 +6.32086112507E-04 +1.03841728543E-03 -1.40918474930E-01 +8.17020992160E-01
1.42500000000E+09 +7.77058088816E-02 +8.59461894885E-01 +7.51558754475E-04 +8.43344221761E-04 +8.55333946931E-04 +8.94421244407E-04 -1.18698966022E-01 +8.15734598336E-01
1.43000000000E+09 +9.85115629431E-02 +8.50844467649E-01 +8.29041665383E-04 +9.08264597253E-04 +9.68877340934E-04 +8.91908266678E-04 -9.52436320107E-02 +8.13540998072E-01
1.43500000000E+09 +1.18624562727E-01 +8.40203163799E-01 +1.03021991432E-03 +1.01044061247E-03 +1.17999803423E-03 +9.69487149406E-04 -7.01883126921E-02 +8.09591793091E-01
1.44000000000E+09 +1.39030354546E-01 +8.28042747127E-01 +1.58538938363E-03 +9.79193949992E-04 +1.65490104326E-03 +8.82007458059E-04 -4.33516567040E-02 +8.03999252640E-01
1.44500000000E+09 +1.61265976546E-01 +8.12836339020E-01 +1.90217812956E-03 +5.30071004629E-04 +1.98095798687E-03 +4.19031119355E-04 -1.40024528932E-02 +7.95975028604E-01
1.45000000000E+09 +1.85720503749E-01 +7.94062520163E-01 +1.95158156914E-03 +2.54182961766E-04 +2.01387079676E-03 +1.34979607305E-04 +1.72245123280E-02 +7.84760505520E-01
1.45500000000E+09 +2.12854283105E-01 +7.71817062822E-01 +2.14337968364E-03 +7.34393281866E-05 +2.12200925636E-03 -7.95335678206E-05 +4.99930169627E-02 +7.70973333134E-01
1.46000000000E+09 +2.43144991934E-01 +7.45116753203E-01 +2.41012201742E-03 -1.69024246252E-04 +2.29215923761E-03 -3.79030309773E-04 +8.44942909306E-02 +7.53269710551E-01
1.46500000000E+09 +2.75054894453E-01 +7.14052209004E-01 +2.87406010460E-03 -5.63801610878E-04 +2.60076410262E-03 -6.88815276122E-04 +1.20711833030E-01 +7.30902553875E-01
1.47000000000E+09 +3.07683470917E-01 +6.78571391585E-01 +3.09214530041E-03 -1.45128819007E-03 +2.86548688932E-03 -1.30064792800E-03 +1.58079279238E-01 +7.01718287606E-01
1.47500000000E+09 +3.39519122444E-01 +6.37708934712E-01 +2.99239705301E-03 -2.48666193135E-03 +2.95319821720E-03 -2.26682981924E-03 +1.96444335022E-01 +6.65444830288E-01
1.48000000000E+09 +3.68626571888E-01 +5.90469105304E-01 +2.31722998195E-03 -3.25737820575E-03 +2.43797378533E-03 -3.25485704193E-03 +2.34468105267E-01 +6.20605862697E-01
1.48500000000E+09 +3.92168270511E-01 +5.36306294807E-01 +1.94492178317E-03 -3.65925822012E-03 +1.97406688802E-03 -3.74884720098E-03 +2.70917118570E-01 +5.66823307397E-01
1.49000000000E+09 +4.09510363386E-01 +4.74426026305E-01 +1.45768327494E-03 -4.51365760603E-03 +1.26377184517E-03 -4.55995089052E-03 +3.02721085454E-01 +5.01402477648E-01
1.49500000000E+09 +4.17857346781E-01 +4.04573590687E-01 +4.33807903076E-04 -5.50999962380E-03 +1.79040260621E-04 -5.25146630994E-03 +3.24134943182E-01 +4.25900475112E-01
1.50000000000E+09 +4.17088533679E-01 +3.26165360900E-01 -1.35162557903E-03 -5.85454374421E-03 -1.29724831763E-03 -5.49401270985E-03 +3.34772898604E-01 +3.41166901563E-01
1.50500000000E+09 +4.03169669183E-01 +2.37853280038E-01 -2.65376352435E-03 -5.69036819160E-03 -2.37144573709E-03 -5.52543895771E-03 +3.28320489260E-01 +2.47165829206E-01
1.51000000000E+09 +3.72010331554E-01 +1.44106313465E-01 -4.55446926900E-03 -5.04498465028E-03 -4.29185931911E-03 -5.14880975765E-03 +3.01307069376E-01 +1.48485060383E-01
1.51500000000E+09 +3.20202854733E-01 +5.11220005008E-02 -5.68801575814E-03 -4.31888896425E-03 -5.62946219866E-03 -4.50932878308E-03 +2.51324515160E-01 +5.38127428890E-02
1.52000000000E+09 +2.49062907761E-01 -3.16758867658E-02 -8.11163939213E-03 -2.65849969540E-03 -8.13257061699E-03 -2.75585643823E-03 +1.80692015367E-01 -3.11233782869E-02
1.52500000000E+09 +1.61552548996E-01 -9.97706396064E-02 -8.36149078767E-03 +9.80691428017E-04 -8.43156257929E-03 +9.66282701596E-04 +9.05699477897E-02 -9.75166486511E-02
1.53000000000E+09 +5.97190314831E-02 -1.46856015800E-01 -6.79570012904E-03 +2.88347220592E-03 -6.83364365538E-03 +2.87611560781E-03 -1.00280306012E-02 -1.41350789756E-01
1.53500000000E+09 -4.97805368451E-02 -1.67734825215E-01 -5.82924449071E-03 +4.61470234833E-03 -5.78541091552E-03 +4.58200748722E-03 -1.15236404275E-01 -1.60521316806E-01
1.54000000000E+09 -1.59600348995E-01 -1.61931986610E-01 -3.82129747348E-03 +5.41224842208E-03 -3.75820300678E-03 +5.31286409492E-03 -2.15994401013E-01 -1.57624590024E-01
1.54500000000E+09 -2.63458627689E-01 -1.35125834508E-01 -2.46669033505E-03 +5.88172680529E-03 -2.62096472284E-03 +5.72039166808E-03 -3.06678708296E-01 -1.36616401583E-01
1.55000000000E+09 -3.56712292050E-01 -8.85018943956E-02 -7.42687967090E-04 +6.14384540289E-03 -9.52421991775E-04 +6.14836533139E-03 -3.84784647023E-01 -1.03593410833E-01
1.55500000000E+09 -4.33863387980E-01 -3.15162916729E-02 +1.13896465285E-03 +5.54607804161E-03 +8.92303875406E-04 +5.70093943606E-03 -4.49903020648E-01 -6.13020124218E-02
1.56000000000E+09 -4.96496354129E-01 +2.87357627534E-02 +2.19129373559E-03 +4.11615839660E-03 +2.12294951383E-03 +4.33872317311E-03 -5.02248829714E-01 -1.42993161648E-02
1.56500000000E+09 -5.46079720281E-01 +8.98853751970E-02 +2.34503706131E-03 +3.17190347702E-03 +2.40517194256E-03 +3.33805474859E-03 -5.43259009673E-01 +3.52381580917E-02
1.57000000000E+09 -5.82294027996E-01 +1.49071357924E-01 +2.62846413147E-03 +2.49714297163E-03 +2.78370283582E-03 +2.62820462698E-03 -5.74331308177E-01 +8.38765003999E-02
