# Hz S RI R 50
! CMT, C1220, 16058040, 17.2.0/1
! Date: 14/08/2018 12:39:38
! Data: Format (Calibration Info)
! Freq                      S11: Re/Im (F2)                       S21: Re/Im (F2)                       S12: Re/Im (F2)                       S22: Re/Im (F2)            
1.00000000000E+09 -6.48338344209E-01 +7.14153755239E-01 +1.88548502838E-05 +2.86456575134E-07 -1.23318141154E-05 +1.41155819847E-05 -6.70527138500E-01 +5.40020372254E-01
1.00500000000E+09 -6.41259128179E-01 +7.19366540261E-01 -4.06331489767E-05 -4.19963026256E-05 -2.57277165493E-05 +6.55520598268E-06 -6.67391974886E-01 +5.43679882809E-01
1.01000000000E+09 -6.35183473214E-01 +7.24072272608E-01 +3.82841960922E-05 +1.87923225902E-05 -1.41488672707E-05 -4.36917261197E-05 -6.64471864871E-01 +5.46918861240E-01
1.01500000000E+09 -6.30781953051E-01 +7.28145871307E-01 -2.10027928964E-05 +2.95891485307E-05 +3.86269816574E-05 -2.44958563407E-06 -6.61916335458E-01 +5.50068042118E-01
1.02000000000E+09 -6.27420079017E-01 +7.31489902255E-01 +2.14246237164E-06 +3.36208454136E-05 -1.27265819621E-06 -2.87830974924E-05 -6.59343345377E-01 +5.53105415082E-01
1.02500000000E+09 -6.25150226129E-01 +7.34285504720E-01 +1.95464828914E-05 +1.63879756536E-06 -2.51983846675E-05 -3.89354011791E-05 -6.56943353270E-01 +5.56520763398E-01
1.03000000000E+09 -6.23437089884E-01 +7.36697023173E-01 -1.45217478329E-05 +2.18947289188E-05 -3.96727646468E-06 +2.61789588737E-06 -6.54372697574E-01 +5.59887501446E-01
1.03500000000E+09 -6.20822613891E-01 +7.39035127657E-01 -1.49700040828E-05 +2.74147538969E-05 +1.58801892030E-05 +3.37977095021E-05 -6.51281937258E-01 +5.63526664606E-01
1.04000000000E+09 -6.17394757755E-01 +7.41837981992E-01 -5.13294460136E-05 -1.30388013934E-05 -3.50448467099E-05 +6.23316318437E-05 -6.48392075304E-01 +5.66936174280E-01
1.04500000000E+09 -6.12339306419E-01 +7.45331004654E-01 +3.28665740686E-05 +3.44055230213E-05 +5.30827975861E-05 +3.97333194207E-06 -6.45483776721E-01 +5.70253904055E-01
1.05000000000E+09 -6.05882592460E-01 +7.49186992885E-01 -3.23539416021E-05 +5.42172360223E-05 -1.81963473024E-05 +4.78873490051E-05 -6.42653489350E-01 +5.73375697120E-01
1.05500000000E+09 -5.98072285151E-01 +7.53828791712E-01 +3.98828663859E-05 +5.24420077653E-05 +1.59078577526E-05 +3.74499497075E-05 -6.40204112284E-01 +5.76774880736E-01
1.06000000000E+09 -5.89774853921E-01 +7.58819310697E-01 -4.85500086003E-06 +1.59860735736E-05 +1.94956699022E-05 +4.21979489612E-05 -6.37296911047E-01 +5.80267918439E-01
1.06500000000E+09 -5.81881361168E-01 +7.64004281413E-01 +7.51533999666E-06 +4.91308928476E-05 +1.15647776023E-05 +5.22011160770E-05 -6.34409367444E-01 +5.83818870857E-01
1.07000000000E+09 -5.74989134169E-01 +7.68137950239E-01 -2.29790070112E-05 +3.14118998992E-05 +2.27037705997E-05 +4.93074769932E-05 -6.30876454349E-01 +5.87418423950E-01
1.07500000000E+09 -5.69215325311E-01 +7.72129220445E-01 +8.72351694360E-06 +1.11601796921E-05 -1.21350728787E-05 -1.48294821068E-05 -6.27162359359E-01 +5.91021707145E-01
1.08000000000E+09 -5.65155951042E-01 +7.75356150408E-01 +1.41925616374E-05 -3.17975241986E-05 +4.65764108448E-05 -1.21413314205E-06 -6.24201088361E-01 +5.94327290127E-01
1.08500000000E+09 -5.62196861544E-01 +7.77771688708E-01 -3.07064943272E-05 +2.21072421146E-06 +1.26653835273E-05 +2.33338939637E-05 -6.20963143374E-01 +5.97777384610E-01
1.09000000000E+09 -5.59899691186E-01 +7.79796747435E-01 +4.25188193486E-05 -1.18514925794E-05 +5.91191671584E-06 +4.26177572518E-05 -6.17946856774E-01 +6.01495826065E-01
1.09500000000E+09 -5.57838064917E-01 +7.81490807175E-01 +1.97293156711E-05 -1.53126172797E-05 -1.09711888627E-06 -2.56798976505E-06 -6.14982721598E-01 +6.04927749197E-01
1.10000000000E+09 -5.54496705566E-01 +7.83582503473E-01 -3.70838450502E-05 +2.87540757345E-05 +1.99156593907E-05 +1.05814075956E-05 -6.11777266708E-01 +6.08479310566E-01
1.10500000000E+09 -5.50281473813E-01 +7.86443931788E-01 +7.50634530189E-05 +1.61241046179E-05 +1.19798362843E-05 +3.06225498754E-05 -6.08310238256E-01 +6.11962832600E-01
1.11000000000E+09 -5.44634992924E-01 +7.89780520970E-01 +5.20992791431E-05 +2.75370577617E-05 +3.13512562074E-05 +2.08358791662E-05 -6.04806325848E-01 +6.15162834278E-01
1.11500000000E+09 -5.37917459836E-01 +7.93744169953E-01 -1.17701773866E-05 +7.13634884572E-06 -9.18237228496E-06 +2.51556947864E-05 -6.01558376828E-01 +6.18350725679E-01
1.12000000000E+09 -5.30537963922E-01 +7.98016336929E-01 +7.88113240489E-06 +1.55683196027E-05 -9.47005392580E-06 +9.21484472257E-06 -5.98343692991E-01 +6.21840867847E-01
1.12500000000E+09 -5.22822837047E-01 +8.02159096782E-01 +3.16080786706E-05 +2.60615138130E-05 +3.29390640112E-05 +4.16942443525E-05 -5.94829929107E-01 +6.25714035318E-01
1.13000000000E+09 -5.15992832919E-01 +8.05956184977E-01 +4.50676489624E-05 -1.66044791232E-05 +3.86695437086E-05 -5.06295990096E-06 -5.91321548373E-01 +6.29351222367E-01
1.13500000000E+09 -5.09660721672E-01 +8.08949014392E-01 +5.38204697238E-05 -8.96390998706E-06 +6.59160988289E-05 -3.88590489730E-06 -5.87333627099E-01 +6.33235316234E-01
1.14000000000E+09 -5.04629009800E-01 +8.11221468374E-01 +9.12632130166E-05 +1.28799263049E-05 +7.00502626923E-05 +2.51954870679E-05 -5.83377553645E-01 +6.36735405105E-01
1.14500000000E+09 -5.00409409960E-01 +8.12759863492E-01 +3.48596100576E-05 +6.25603826970E-06 +4.88921686434E-05 -2.43783036140E-05 -5.79347521121E-01 +6.40007936113E-01
1.15000000000E+09 -4.96814900988E-01 +8.14031145725E-01 +5.80600634132E-05 -1.46703493214E-05 +6.09258852687E-05 -1.95210474075E-05 -5.75421602741E-01 +6.43723025042E-01
1.15500000000E+09 -4.93010897811E-01 +8.15598763483E-01 +2.59795812087E-05 -3.66150986938E-06 +6.76607301911E-05 +4.00355603722E-06 -5.71381674612E-01 +6.47334893859E-01
1.16000000000E+09 -4.88332898819E-01 +8.17478814235E-01 +3.69481907873E-05 -1.88557689046E-05 +7.68325210340E-05 +2.01016989201E-06 -5.67266922140E-01 +6.50955994604E-01
1.16500000000E+09 -4.82697665175E-01 +8.20317059349E-01 +2.65021320133E-05 +2.07744849938E-06 +4.05390907021E-05 +3.92692075465E-06 -5.63097061692E-01 +6.54535044545E-01
1.17000000000E+09 -4.76070336984E-01 +8.23474662320E-01 +6.84910583524E-05 -2.81963351708E-05 +7.09091816225E-05 -2.97964502080E-05 -5.58584435890E-01 +6.57651400008E-01
1.17500000000E+09 -4.68564644636E-01 +8.27328137967E-01 +7.49323016941E-05 -3.22621630597E-05 +5.90552865941E-05 -5.56909410029E-05 -5.53835393891E-01 +6.60846612701E-01
1.18000000000E+09 -4.60852014551E-01 +8.31193710986E-01 +9.04995103841E-05 -1.53568535707E-06 +3.23006624477E-05 -7.07716620292E-05 -5.49292812277E-01 +6.64058999720E-01
1.18500000000E+09 -4.53196269170E-01 +8.34809865561E-01 +8.05757565307E-05 -2.71977174843E-05 +7.86993490506E-05 -5.92246279215E-05 -5.44295687235E-01 +6.66918642049E-01
1.19000000000E+09 -4.46106183936E-01 +8.37712888324E-01 +1.05045503218E-04 -1.00920783883E-04 +6.29133034339E-05 -7.98598698936E-05 -5.38893806168E-01 +6.69776742801E-01
1.19500000000E+09 -4.40037762488E-01 +8.39908878647E-01 +4.75986547666E-05 -1.44675216089E-04 +3.23050131717E-05 -9.47503696341E-05 -5.33814300775E-01 +6.71142570374E-01
1.20000000000E+09 -4.34792812477E-01 +8.40784861892E-01 +3.24471999333E-05 -1.48427181290E-04 -3.88750942735E-06 -1.26922299517E-04 -5.29743350133E-01 +6.71591115404E-01
1.20500000000E+09 -4.30256445736E-01 +8.41680323827E-01 -5.84044854523E-05 -1.39320548702E-04 -8.40766039279E-05 -1.40400139838E-04 -5.27727333354E-01 +6.72397106404E-01
1.21000000000E+09 -4.25393945822E-01 +8.42872217084E-01 -8.24566530886E-05 -7.53323154211E-05 -4.44604037037E-05 -5.46899980438E-05 -5.26286961530E-01 +6.75210009176E-01
1.21500000000E+09 -4.19369950868E-01 +8.44215186820E-01 -6.02746521579E-05 -2.94544264914E-05 -7.85372383776E-05 -5.82987247999E-05 -5.24029832297E-01 +6.79517939801E-01
1.22000000000E+09 -4.12107620241E-01 +8.46357655062E-01 -3.90909292548E-05 -6.68542958614E-05 -1.34792921194E-05 -2.58945215808E-05 -5.20578477497E-01 +6.84673175865E-01
1.22500000000E+09 -4.03402353583E-01 +8.49030464483E-01 -7.67518079748E-06 -5.10778661632E-05 +3.79933316275E-05 -3.76227852863E-05 -5.16367515500E-01 +6.89488949133E-01
1.23000000000E+09 -3.93683829316E-01 +8.52432104505E-01 -1.25234975991E-05 -6.18039156565E-05 -2.00318265601E-05 -8.01565311452E-05 -5.11527164576E-01 +6.93961048706E-01
1.23500000000E+09 -3.83965266025E-01 +8.56429981102E-01 +5.34953950209E-06 -7.22916151502E-05 +2.20604131287E-06 -7.73494018498E-05 -5.06780288078E-01 +6.98075313211E-01
1.24000000000E+09 -3.74332273460E-01 +8.60619915751E-01 -4.13424335429E-05 -8.11278134537E-05 -9.99731980440E-06 -1.15972841390E-04 -5.01857571041E-01 +7.01893329430E-01
1.24500000000E+09 -3.65643117010E-01 +8.64911957129E-01 +2.36110416308E-06 -9.81435330901E-05 -1.35270048889E-06 -9.29322969777E-05 -4.96652491074E-01 +7.05639137043E-01
1.25000000000E+09 -3.57823911501E-01 +8.68640890330E-01 +6.03024326067E-06 -7.63057795824E-05 -3.44511667174E-05 -1.12338503809E-04 -4.91339971389E-01 +7.09816192596E-01
1.25500000000E+09 -3.51014933397E-01 +8.71212362569E-01 -5.17924510985E-05 -8.34980956533E-05 -4.54742253956E-05 -1.03913363588E-04 -4.85601466561E-01 +7.13981608933E-01
1.26000000000E+09 -3.45130620951E-01 +8.72955531669E-01 -5.54459332617E-05 -1.10464282575E-04 -9.60979081516E-05 -8.77317706033E-05 -4.80029553663E-01 +7.18186107676E-01
1.26500000000E+09 -3.39352490745E-01 +8.73891298614E-01 -8.21547932745E-05 -1.11835611085E-04 -4.09302892234E-05 -1.16340106868E-04 -4.74207875046E-01 +7.22240446990E-01
1.27000000000E+09 -3.33045954256E-01 +8.74729960081E-01 -6.35660947858E-05 -1.05816155981E-04 -8.64853073225E-05 -1.01869694366E-04 -4.68434854705E-01 +7.26197468891E-01
1.27500000000E+09 -3.25444382217E-01 +8.75666033316E-01 -1.75330306218E-04 -1.62822415971E-04 -1.59104662347E-04 -1.13666933548E-04 -4.62340809211E-01 +7.30044504514E-01
1.28000000000E+09 -3.16101686108E-01 +8.77150542187E-01 -1.48262148281E-04 -1.36501250328E-04 -1.27433958445E-04 -1.32696671069E-04 -4.56147088928E-01 +7.33821268840E-01
1.28500000000E+09 -3.05062449327E-01 +8.79302779155E-01 -1.67602319447E-04 -6.01884516630E-05 -1.83043984667E-04 -4.37074566927E-05 -4.49713670862E-01 +7.37872607259E-01
1.29000000000E+09 -2.93146389787E-01 +8.82107381230E-01 -1.52519106172E-04 -1.17934483346E-05 -1.72821908023E-04 -2.62247501927E-05 -4.43107992053E-01 +7.41731745895E-01
1.29500000000E+09 -2.80939722245E-01 +8.85495608337E-01 -1.80523086934E-04 -7.99985302393E-05 -1.81914642177E-04 -3.26670016342E-05 -4.36304920869E-01 +7.45583650506E-01
1.30000000000E+09 -2.69323571949E-01 +8.89379992841E-01 -1.49592099365E-04 -7.09035812005E-05 -1.82301342258E-04 -2.23590364391E-05 -4.29372836763E-01 +7.49492876321E-01
1.30500000000E+09 -2.58886197384E-01 +8.92833200969E-01 -1.58250513063E-04 -1.77660206623E-05 -1.97728287923E-04 -2.38347741960E-05 -4.22387924837E-01 +7.53063220797E-01
1.31000000000E+09 -2.49980799642E-01 +8.95567970960E-01 -2.57231938653E-04 -2.41158463641E-05 -2.08994939491E-04 -4.93061686155E-05 -4.15043646896E-01 +7.56843665746E-01
1.31500000000E+09 -2.42672062485E-01 +8.97391944652E-01 -2.19418043956E-04 -2.21109795060E-06 -2.31282378076E-04 +1.42681861820E-05 -4.07390824244E-01 +7.60500721727E-01
1.32000000000E+09 -2.36705562124E-01 +8.98076801478E-01 -2.11649144108E-04 +3.09462189990E-05 -2.50766287171E-04 +4.17454986183E-05 -3.99334397046E-01 +7.64242528044E-01
1.32500000000E+09 -2.30998634348E-01 +8.98057190345E-01 -2.15460021783E-04 +5.88938177461E-05 -2.88738726026E-04 +1.10757300665E-04 -3.91011229653E-01 +7.67928486712E-01
1.33000000000E+09 -2.23987595979E-01 +8.97757250982E-01 -2.20047430354E-04 +1.36413204632E-04 -2.70796327446E-04 +1.51060292617E-04 -3.82622942953E-01 +7.71437851600E-01
1.33500000000E+09 -2.14900215411E-01 +8.97252785825E-01 -2.25326390891E-04 +8.69344933751E-05 -2.65119459783E-04 +1.49850972047E-04 -3.74037273374E-01 +7.74930435189E-01
1.34000000000E+09 -2.03340554038E-01 +8.97108886061E-01 -2.54650228643E-04 +1.64803446798E-04 -2.29897683163E-04 +1.29053564390E-04 -3.65159518037E-01 +7.78604906956E-01
1.34500000000E+09 -1.89253458657E-01 +8.97023123348E-01 -2.93241358846E-04 +2.21327259485E-04 -2.83806571949E-04 +1.95186358614E-04 -3.55580548880E-01 +7.82497236958E-01
1.35000000000E+09 -1.73307388095E-01 +8.97733644474E-01 -2.59969277427E-04 +2.13357047838E-04 -2.90495102355E-04 +2.57449732927E-04 -3.45633452824E-01 +7.86150660193E-01
1.35500000000E+09 -1.56230860469E-01 +8.98708760532E-01 -2.75790392562E-04 +2.78910419900E-04 -2.70597214439E-04 +2.38471205781E-04 -3.35277557465E-01 +7.89665318351E-01
1.36000000000E+09 -1.39524451774E-01 +8.99597559754E-01 -3.00215331063E-04 +3.02968213842E-04 -2.50907427348E-04 +2.57738597791E-04 -3.24576017484E-01 +7.93026971636E-01
1.36500000000E+09 -1.23687879238E-01 +9.00512235047E-01 -2.61880674659E-04 +3.62496491622E-04 -2.25854687931E-04 +4.07878857373E-04 -3.13669022711E-01 +7.96262611603E-01
1.37000000000E+09 -1.09720188003E-01 +9.00443309436E-01 -2.42726150604E-04 +4.42201804075E-04 -2.14085246154E-04 +4.03971634328E-04 -3.02244897990E-01 +7.99452301532E-01
1.37500000000E+09 -9.76423994261E-02 +8.99973989774E-01 -1.75592974093E-04 +5.04782713948E-04 -2.08242476287E-04 +4.34518692581E-04 -2.89999678119E-01 +8.02445122100E-01
1.38000000000E+09 -8.67708646219E-02 +8.99093978962E-01 -1.20581499726E-04 +4.89527245430E-04 -1.66229455891E-04 +5.04254307334E-04 -2.76907254656E-01 +8.05409980991E-01
1.38500000000E+09 -7.55648412100E-02 +8.97162961603E-01 -4.06126360126E-05 +5.48130060684E-04 -1.35353768767E-04 +5.81960710297E-04 -2.62988153299E-01 +8.08545704476E-01
1.39000000000E+09 -6.32541472779E-02 +8.94699641622E-01 -5.76526780947E-05 +5.58241157526E-04 -7.11695797452E-05 +6.57596050077E-04 -2.48591891509E-01 +8.11069138481E-01
1.39500000000E+09 -4.85770166681E-02 +8.91620068600E-01 -3.48774420321E-05 +5.75528612008E-04 +5.54917464397E-05 +6.68949410442E-04 -2.33461856675E-01 +8.13251853663E-01
1.40000000000E+09 -3.10472876699E-02 +8.87625208642E-01 -5.64124115400E-05 +6.79763782429E-04 +4.14492688701E-05 +7.19027281118E-04 -2.17550730468E-01 +8.14980098530E-01
1.40500000000E+09 -1.13586368909E-02 +8.83218789327E-01 +1.55826665908E-04 +8.54843626290E-04 +1.56782001947E-04 +8.66849966426E-04 -2.00595730483E-01 +8.16211507722E-01
1.41000000000E+09 +1.03856454063E-02 +8.78311025215E-01 +3.17386481060E-04 +9.04659407202E-04 +2.65257808703E-04 +8.98294931452E-04 -1.82064800303E-01 +8.17256423724E-01
1.41500000000E+09 +3.30777696196E-02 +8.72911732488E-01 +4.95509045275E-04 +9.35053857283E-04 +4.35024030564E-04 +1.05498545554E-03 -1.62264855017E-01 +8.17560540557E-01
1.42000000000E+09 +5.60093064616E-02 +8.66548671548E-01 +6.62663137092E-04 +8.64222999733E-04 +7.14200330153E-04 +9.48647852580E-04 -1.40924506617E-01 +8.17299936225E-01
1.42500000000E+09 +7.78585033002E-02 +8.59161670443E-01 +7.28918739641E-04 +8.25961386919E-04 +8.92566325521E-04 +8.57695014636E-04 -1.18527213313E-01 +8.15784125245E-01
1.43000000000E+09 +9.86873908758E-02 +8.50438548085E-01 +8.20686712633E-04 +8.19195538758E-04 +1.00979650806E-03 +8.60208925723E-04 -9.53056957991E-02 +8.13441090929E-01
1.43500000000E+09 +1.18658468970E-01 +8.39927144055E-01 +1.02985190463E-03 +1.00303757361E-03 +1.17526576118E-03 +9.28817261311E-04 -7.01768787196E-02 +8.09593065657E-01
1.44000000000E+09 +1.39140080879E-01 +8.27648790080E-01 +1.60640652766E-03 +9.27670993484E-04 +1.72003707893E-03 +7.95210564878E-04 -4.34084093162E-02 +8.04090981818E-01
1.44500000000E+09 +1.61503943154E-01 +8.12361746675E-01 +1.93515100502E-03 +4.62054284619E-04 +1.99066093917E-03 +3.53437899700E-04 -1.39592125377E-02 +7.95856982860E-01
1.45000000000E+09 +1.86071592404E-01 +7.93576138678E-01 +1.98465521682E-03 +1.95539253413E-04 +1.97801286935E-03 +9.54077530818E-05 +1.71012399389E-02 +7.84755203024E-01
1.45500000000E+09 +2.13294275519E-01 +7.71154331246E-01 +2.08590302650E-03 -4.05551792542E-06 +2.11108523291E-03 -1.78047041577E-04 +4.99049330615E-02 +7.71076748074E-01
1.46000000000E+09 +2.43498324377E-01 +7.44269296863E-01 +2.34301942771E-03 -2.41926008680E-04 +2.20860839530E-03 -4.22999731046E-04 +8.43215239112E-02 +7.53142199423E-01
1.46500000000E+09 +2.75178062628E-01 +7.13057202917E-01 +2.80575146696E-03 -6.57265466282E-04 +2.49871859752E-03 -7.68681580263E-04 +1.20636998036E-01 +7.30943656739E-01
1.47000000000E+09 +3.07690332570E-01 +6.77406652853E-01 +2.98823573347E-03 -1.51519674436E-03 +2.77781202855E-03 -1.41819840954E-03 +1.58049622249E-01 +7.01694701052E-01
1.47500000000E+09 +3.39477466723E-01 +6.36383158750E-01 +2.98030609366E-03 -2.59294742165E-03 +2.93781333604E-03 -2.34843836673E-03 +1.96283796325E-01 +6.65445522326E-01
1.48000000000E+09 +3.68521527742E-01 +5.88752086570E-01 +2.22384941104E-03 -3.35671707931E-03 +2.30832392474E-03 -3.27687744536E-03 +2.34398539130E-01 +6.20797392371E-01
1.48500000000E+09 +3.91613118698E-01 +5.34266059534E-01 +1.79602616467E-03 -3.72495773986E-03 +1.83146031959E-03 -3.91392128901E-03 +2.70745214849E-01 +5.66957237212E-01
1.49000000000E+09 +4.08336405770E-01 +4.72075807759E-01 +1.30503337544E-03 -4.68452471060E-03 +1.08609999291E-03 -4.77433751554E-03 +3.02683121520E-01 +5.01662831318E-01
1.49500000000E+09 +4.15878662620E-01 +4.02187253790E-01 +1.09918622588E-04 -5.68807661064E-03 -9.58408336051E-05 -5.43247195893E-03 +3.24118323402E-01 +4.25995165444E-01
1.50000000000E+09 +4.14249716858E-01 +3.24071736159E-01 -1.81160239319E-03 -5.80710215769E-03 -1.77219190892E-03 -5.45709788402E-03 +3.34665871763E-01 +3.41458387484E-01
1.50500000000E+09 +3.99586141712E-01 +2.36444815815E-01 -3.11456581565E-03 -5.52803047482E-03 -2.82856979338E-03 -5.40153026669E-03 +3.28179267063E-01 +2.47392993090E-01
1.51000000000E+09 +3.67815181533E-01 +1.43633566180E-01 -5.02902360351E-03 -4.70799573322E-03 -4.78959499293E-03 -4.86313101636E-03 +3.01330563789E-01 +1.48905544443E-01
1.51500000000E+09 +3.15889247699E-01 +5.18226824471E-02 -5.96548272461E-03 -3.77826747220E-03 -5.97608703767E-03 -3.97720559731E-03 +2.51511902523E-01 +5.43040936783E-02
1.52000000000E+09 +2.44973950489E-01 -3.00855325418E-02 -8.21371648949E-03 -2.01198706899E-03 -8.27673220078E-03 -2.11283271385E-03 +1.81079725527E-01 -3.08156022083E-02
1.52500000000E+09 +1.57627875467E-01 -9.69944873148E-02 -8.16934957712E-03 +1.69270424843E-03 -8.22977073968E-03 +1.68102147194E-03 +9.11081902555E-02 -9.74087546143E-02
1.53000000000E+09 +5.66671374825E-02 -1.43257731876E-01 -6.42902390445E-03 +3.39673252124E-03 -6.46000509194E-03 +3.42950202092E-03 -9.55776456995E-03 -1.41658155845E-01
1.53500000000E+09 -5.17750829806E-02 -1.63290126733E-01 -5.41214504477E-03 +5.02260798729E-03 -5.36784123205E-03 +4.99306937025E-03 -1.15145259715E-01 -1.60900784374E-01
1.54000000000E+09 -1.60081160252E-01 -1.57521608745E-01 -3.26597209454E-03 +5.64442859355E-03 -3.22642518146E-03 +5.55441558710E-03 -2.16009323771E-01 -1.57869361981E-01
1.54500000000E+09 -2.63150653203E-01 -1.31176968377E-01 -1.89925484639E-03 +5.94702997322E-03 -2.00268031066E-03 +5.81198397655E-03 -3.06724494308E-01 -1.36779362889E-01
1.55000000000E+09 -3.55434818203E-01 -8.49519724277E-02 -1.65533673877E-04 +5.97207735820E-03 -3.98104991974E-04 +5.98743093020E-03 -3.84776657253E-01 -1.03735005233E-01
1.55500000000E+09 -4.32010789908E-01 -2.87917797706E-02 +1.54220748119E-03 +5.25106865401E-03 +1.36298932685E-03 +5.41570589827E-03 -4.50112736656E-01 -6.14565014842E-02
1.56000000000E+09 -4.94552693908E-01 +3.07712126360E-02 +2.42186461955E-03 +3.68514576401E-03 +2.37417584045E-03 +3.95866964590E-03 -5.02388794981E-01 -1.43011541512E-02
1.56500000000E+09 -5.44076856599E-01 +9.14922905556E-02 +2.39556527874E-03 +2.82911818996E-03 +2.51452980130E-03 +3.02185550790E-03 -5.43494605112E-01 +3.52304573914E-02
1.57000000000E+09 -5.80221099380E-01 +1.50326321757E-01 +2.66231933773E-03 +2.24852736989E-03 +2.88966327461E-03 +2.33894550936E-03 -5.74564644717E-01 +8.39691507853E-02
