# Hz S RI R 50
! CMT, C1220, 16058040, 17.2.0/1
! Date: 14/08/2018 12:39:07
! Data: Format (Calibration Info)
! Freq                      S11: Re/Im (F2)                       S21: Re/Im (F2)                       S12: Re/Im (F2)                       S22: Re/Im (F2)            
1.00000000000E+09 -6.47914806847E-01 +7.14419045653E-01 -8.09228605194E-06 +2.07257336756E-05 -3.44836747001E-05 -1.59975987938E-06 -6.70303243417E-01 +5.39654962526E-01
1.00500000000E+09 -6.40870572107E-01 +7.19667565890E-01 -7.54512751785E-06 +2.14690993552E-05 +2.11513373617E-05 +3.96135971242E-05 -6.67256380257E-01 +5.43219654115E-01
1.01000000000E+09 -6.34682740662E-01 +7.24262605451E-01 +1.75167354681E-05 +3.08290880911E-05 -1.06352977861E-05 +5.36973645986E-06 -6.64253032061E-01 +5.46437341443E-01
1.01500000000E+09 -6.30288660569E-01 +7.28376674511E-01 -3.37424093741E-06 +1.62900932725E-05 +1.76391590774E-05 +1.30669916948E-05 -6.61764639498E-01 +5.49757460548E-01
1.02000000000E+09 -6.27159599627E-01 +7.31640814527E-01 -5.63979855605E-06 +4.87980966632E-06 -8.29823058119E-05 +2.03211374970E-05 -6.59172962246E-01 +5.52725271564E-01
1.02500000000E+09 -6.24685704689E-01 +7.34576639457E-01 -1.51451297892E-05 +3.04289333025E-05 -1.55895275516E-05 +5.61810872393E-06 -6.57045603579E-01 +5.55965842261E-01
1.03000000000E+09 -6.23042561885E-01 +7.36949193158E-01 -3.78887010097E-05 +4.94463654744E-05 -1.00418530337E-04 +6.60402699488E-06 -6.54056169987E-01 +5.59309496454E-01
1.03500000000E+09 -6.20445981359E-01 +7.39196754861E-01 +5.42968084218E-05 +2.84153629809E-05 +2.32371553938E-06 -1.67330699583E-06 -6.51091483273E-01 +5.63076781507E-01
1.04000000000E+09 -6.16908133228E-01 +7.42140793110E-01 +1.27991645193E-06 +1.80372131182E-05 +1.21487055868E-06 +2.81679555030E-05 -6.48075770513E-01 +5.66442357806E-01
1.04500000000E+09 -6.12074805632E-01 +7.45433520706E-01 -3.99500401943E-05 +6.46379532873E-05 -2.11766007627E-05 +5.63549205264E-05 -6.45325690965E-01 +5.69772659669E-01
1.05000000000E+09 -6.05502321732E-01 +7.49419114929E-01 -3.37418268703E-06 +7.45457074761E-05 +3.41372402879E-05 +5.94755632519E-05 -6.42623888316E-01 +5.73036979341E-01
1.05500000000E+09 -5.97715960495E-01 +7.53929833792E-01 -1.74954414065E-05 +4.70933722216E-06 +4.38925895026E-05 +5.00247786930E-05 -6.40008888442E-01 +5.76320211063E-01
1.06000000000E+09 -5.89318915032E-01 +7.58899656723E-01 +2.64971692599E-05 +4.89219173161E-05 -1.13992577104E-06 +2.86042221989E-06 -6.37379152459E-01 +5.80004509304E-01
1.06500000000E+09 -5.81447644978E-01 +7.63950639867E-01 +6.59205228133E-05 +1.35064202779E-05 +4.65767841744E-05 -2.13010568939E-05 -6.34131007153E-01 +5.83528684153E-01
1.07000000000E+09 -5.74304184245E-01 +7.68306061271E-01 +1.15276652604E-05 +2.70313880985E-05 +8.87097271077E-06 +4.50035757258E-05 -6.30798216736E-01 +5.86959737555E-01
1.07500000000E+09 -5.68518434420E-01 +7.72182166913E-01 +5.35157233705E-05 +9.31217415606E-06 +4.57391065132E-05 -3.65765438401E-06 -6.27149711635E-01 +5.90490653577E-01
1.08000000000E+09 -5.64406133551E-01 +7.75326753773E-01 +4.43165156287E-06 +2.51829519586E-05 +4.05866619149E-05 -4.02249761823E-05 -6.23974278177E-01 +5.93996689669E-01
1.08500000000E+09 -5.61566200518E-01 +7.77849494674E-01 -1.08635113190E-05 +3.89895247813E-05 +2.16437042987E-05 +3.50236310960E-05 -6.20916406498E-01 +5.97583914983E-01
1.09000000000E+09 -5.58999747195E-01 +7.79811646435E-01 +1.94410170687E-05 +2.35032957406E-05 -9.45250983694E-06 +5.37383913826E-05 -6.17861902527E-01 +6.00989198700E-01
1.09500000000E+09 -5.57231272021E-01 +7.81640069618E-01 +7.85702941961E-06 +4.78950512033E-05 +3.13807239622E-05 +1.08311563839E-05 -6.14826696298E-01 +6.04639839136E-01
1.10000000000E+09 -5.54083749466E-01 +7.83733356154E-01 +4.54551337373E-06 +4.05376316930E-05 +3.89771657882E-05 -5.05175845063E-06 -6.11597508303E-01 +6.08254072041E-01
1.10500000000E+09 -5.49839047426E-01 +7.86390513393E-01 +1.96911688072E-05 +4.02297101208E-05 +2.09944848803E-05 +2.80762242992E-05 -6.08322477997E-01 +6.11588976582E-01
1.11000000000E+09 -5.44116498653E-01 +7.89730509483E-01 +1.77481487345E-05 +2.06463360448E-05 -5.90533322556E-06 -1.99210673143E-06 -6.04789203711E-01 +6.14788089005E-01
1.11500000000E+09 -5.37325399323E-01 +7.93821865112E-01 +4.08009957636E-05 +9.66914426011E-06 +2.04917237837E-05 +5.80522019714E-06 -6.01451598342E-01 +6.18065691095E-01
1.12000000000E+09 -5.29969053306E-01 +7.97908859096E-01 +5.71655582885E-05 -6.80937008239E-06 +3.61880562816E-05 +6.01004048629E-06 -5.98237373209E-01 +6.21463245225E-01
1.12500000000E+09 -5.22366625333E-01 +8.02291667618E-01 +8.23939464989E-06 -3.45788429480E-06 +4.91342907537E-05 +1.34467348984E-05 -5.94696757597E-01 +6.25360853246E-01
1.13000000000E+09 -5.15326051763E-01 +8.06053076356E-01 +6.13208668528E-05 +1.13815504797E-05 +4.12224691997E-05 +1.10001193152E-05 -5.91174555286E-01 +6.29078322825E-01
1.13500000000E+09 -5.09138548180E-01 +8.09016936972E-01 +2.33825051051E-05 -2.31897830325E-06 +5.14462423243E-05 +2.94998362754E-06 -5.87232266350E-01 +6.32868474255E-01
1.14000000000E+09 -5.04105796417E-01 +8.11350720121E-01 +5.66620095386E-05 +2.99298376550E-05 +5.39921979187E-05 +1.22113886934E-05 -5.83232727049E-01 +6.36273042403E-01
1.14500000000E+09 -4.99963017958E-01 +8.12917882737E-01 +6.23608520383E-05 -2.62010343902E-05 +9.93671303213E-05 +2.08334829325E-05 -5.79287911883E-01 +6.39671947409E-01
1.15000000000E+09 -4.96273340672E-01 +8.14120428598E-01 +1.73070301893E-05 -5.91509197881E-06 +3.70976671511E-05 -1.50108429113E-06 -5.75241664100E-01 +6.43314378750E-01
1.15500000000E+09 -4.92500586919E-01 +8.15679220190E-01 +4.37085451667E-05 +1.22874796643E-05 +1.05619429158E-04 -2.48654270195E-05 -5.71299122100E-01 +6.47035566178E-01
1.16000000000E+09 -4.87742849208E-01 +8.17592553843E-01 +5.31218316512E-05 +5.79983013917E-06 +2.82929710253E-05 +1.24751880211E-05 -5.67273457352E-01 +6.50690070916E-01
1.16500000000E+09 -4.82201935696E-01 +8.20311792952E-01 +3.74835830092E-05 -8.16945841746E-07 +9.11647513303E-05 -3.07811343424E-06 -5.63156964935E-01 +6.54078341560E-01
1.17000000000E+09 -4.75511287143E-01 +8.23624755077E-01 +6.61794646897E-05 +1.17535922553E-05 +8.90750763125E-05 -6.14682178304E-05 -5.58582466838E-01 +6.57288121013E-01
1.17500000000E+09 -4.67943344475E-01 +8.27359045007E-01 +8.69951530915E-05 -3.41953769017E-05 +6.21675466211E-05 -4.19465208737E-05 -5.53847391221E-01 +6.60450074469E-01
1.18000000000E+09 -4.60148891576E-01 +8.31208798138E-01 +1.04910456135E-04 -4.48076567736E-05 +6.28800557538E-05 -2.19400419480E-05 -5.49224157689E-01 +6.63573180539E-01
1.18500000000E+09 -4.52479309061E-01 +8.34844519055E-01 +9.90527594212E-05 -2.44979731235E-05 +6.98071937326E-05 -7.51684589460E-05 -5.44253913759E-01 +6.66653142657E-01
1.19000000000E+09 -4.45427751408E-01 +8.37674793337E-01 +7.67539445947E-05 -4.98421603546E-05 +7.49924602237E-05 -7.01617072302E-05 -5.38842915237E-01 +6.69363559189E-01
1.19500000000E+09 -4.39356976535E-01 +8.39861377168E-01 +1.09874867885E-04 -8.50604166259E-05 +4.04807073906E-05 -1.32140206129E-04 -5.33799648293E-01 +6.70793141804E-01
1.20000000000E+09 -4.34139489193E-01 +8.40662051094E-01 +3.91362043641E-05 -1.93539301668E-04 +9.66271103134E-05 -2.11217270997E-04 -5.29706525061E-01 +6.71290270263E-01
1.20500000000E+09 -4.29458190579E-01 +8.41687799910E-01 -6.84020758234E-05 -1.93984216263E-04 -6.31857019859E-05 -1.40091672452E-04 -5.27789912027E-01 +6.72078061466E-01
1.21000000000E+09 -4.24530855185E-01 +8.42619274722E-01 -5.13845066775E-05 -9.67050819277E-05 -7.21994865438E-05 -9.78011774835E-05 -5.26285560482E-01 +6.74938479755E-01
1.21500000000E+09 -4.18509669644E-01 +8.44007506423E-01 -3.32835982852E-05 -9.77741153582E-05 -4.31718713406E-05 -5.53753971406E-06 -5.24190751625E-01 +6.79172821440E-01
1.22000000000E+09 -4.11191307561E-01 +8.45982936901E-01 -6.96667573317E-05 -1.10423515389E-05 -3.55417741607E-06 -6.60191203713E-05 -5.20651748013E-01 +6.84310607598E-01
1.22500000000E+09 -4.02575748023E-01 +8.48717525162E-01 -2.74549622324E-05 -1.90811128524E-05 -2.73043125592E-05 -6.20929084123E-05 -5.16427752667E-01 +6.89137148430E-01
1.23000000000E+09 -3.92857205344E-01 +8.52220587602E-01 -1.63402962450E-05 -7.01961467362E-05 +1.14379877175E-06 -6.85963496219E-05 -5.11559224183E-01 +6.93603369852E-01
1.23500000000E+09 -3.83111629704E-01 +8.56087707843E-01 -7.19100316393E-06 -3.29890502759E-05 +7.96003625518E-06 -2.92013864711E-05 -5.06857127439E-01 +6.97858372679E-01
1.24000000000E+09 -3.73557902824E-01 +8.60333815923E-01 +5.21340782248E-05 -8.02904787153E-05 -5.44701268667E-05 -7.01289592325E-05 -5.01881523803E-01 +7.01623680483E-01
1.24500000000E+09 -3.64998015186E-01 +8.64912988374E-01 +9.59605088687E-06 -8.96945295883E-05 +4.66519296199E-06 -5.84004897173E-05 -4.96705318359E-01 +7.05456061205E-01
1.25000000000E+09 -3.57121511668E-01 +8.68530736814E-01 -2.69700303893E-06 -6.61489002896E-05 -4.92796092070E-05 -1.14579089446E-04 -4.91176689533E-01 +7.09584953346E-01
1.25500000000E+09 -3.50379432194E-01 +8.71032486810E-01 -5.65181379964E-05 -5.84860993285E-05 -4.05961364723E-05 -8.63856907584E-05 -4.85592641443E-01 +7.13535051686E-01
1.26000000000E+09 -3.44410779242E-01 +8.72813837425E-01 -5.31143556854E-05 -1.02069764806E-04 -7.34303717625E-05 -9.04531428755E-05 -4.80118942778E-01 +7.17822444397E-01
1.26500000000E+09 -3.38750422004E-01 +8.73769038744E-01 -4.83785033629E-05 -1.30887570526E-04 -3.70875631414E-05 -1.38954976019E-04 -4.74271697443E-01 +7.21858857493E-01
1.27000000000E+09 -3.32454992875E-01 +8.74602614152E-01 -5.90994110056E-05 -1.49378940445E-04 -4.53274733064E-05 -1.32787626863E-04 -4.68370335039E-01 +7.25862044072E-01
1.27500000000E+09 -3.25052204877E-01 +8.75629559849E-01 -1.15933312225E-04 -1.13603631114E-04 -1.59382417711E-04 -1.18671118784E-04 -4.62305984372E-01 +7.29646994601E-01
1.28000000000E+09 -3.15644945156E-01 +8.77173604192E-01 -1.13401368244E-04 -1.04127907639E-04 -1.17479744444E-04 -1.14018865846E-04 -4.56172519976E-01 +7.33472246851E-01
1.28500000000E+09 -3.04539502407E-01 +8.79140274975E-01 -1.81618485518E-04 -6.07790044167E-05 -1.93093722092E-04 -1.34255251064E-04 -4.49698490218E-01 +7.37373326427E-01
1.29000000000E+09 -2.92671653500E-01 +8.81919407385E-01 -1.55129072543E-04 -5.65082182006E-05 -1.84919485951E-04 -1.16948794034E-04 -4.43039182675E-01 +7.41484274562E-01
1.29500000000E+09 -2.80552420256E-01 +8.85366078072E-01 -1.65862158089E-04 -6.45414447237E-05 -1.75703757894E-04 -4.73510424447E-05 -4.36309547849E-01 +7.45255215680E-01
1.30000000000E+09 -2.68793965848E-01 +8.89099035400E-01 -2.21157011057E-04 -8.67569689263E-05 -1.73990327451E-04 -1.65914986096E-06 -4.29372746372E-01 +7.49193023368E-01
1.30500000000E+09 -2.58358975990E-01 +8.92683382299E-01 -1.83437560585E-04 -7.28227087687E-05 -1.49527362623E-04 -4.10042444258E-05 -4.22314671296E-01 +7.52787776478E-01
1.31000000000E+09 -2.49479179276E-01 +8.95354542219E-01 -2.54502802094E-04 -2.61305539623E-05 -2.17868460721E-04 -8.58298000492E-05 -4.15035056032E-01 +7.56580138209E-01
1.31500000000E+09 -2.42285031457E-01 +8.97099571656E-01 -2.46389914570E-04 +1.25107355304E-05 -2.37592297720E-04 +2.58416052161E-05 -4.07311499230E-01 +7.60326192728E-01
1.32000000000E+09 -2.36463724013E-01 +8.97736208031E-01 -2.31285135384E-04 +3.69603266003E-05 -2.85062627083E-04 +5.39995268374E-05 -3.99433664597E-01 +7.64018898626E-01
1.32500000000E+09 -2.30492693006E-01 +8.97637579374E-01 -2.42663060521E-04 +8.56269216196E-05 -2.52723519499E-04 +7.99835667678E-05 -3.91073004843E-01 +7.67588138567E-01
1.33000000000E+09 -2.23648174276E-01 +8.97343682926E-01 -2.46934295026E-04 +4.36351168027E-05 -2.30894063291E-04 +1.09548769124E-04 -3.82613291976E-01 +7.71149625371E-01
1.33500000000E+09 -2.14736356182E-01 +8.96615357051E-01 -2.61238776735E-04 +4.96237900942E-05 -2.50451429985E-04 +9.34022806090E-05 -3.74107172854E-01 +7.74765421241E-01
1.34000000000E+09 -2.03148328161E-01 +8.96550581699E-01 -2.93836388267E-04 +1.19609849677E-04 -2.84362546107E-04 +1.65796005258E-04 -3.65184476116E-01 +7.78463662091E-01
1.34500000000E+09 -1.88969486244E-01 +8.96648842782E-01 -2.86776638871E-04 +1.53437160040E-04 -3.33061430479E-04 +1.77866260450E-04 -3.55604488087E-01 +7.82257615918E-01
1.35000000000E+09 -1.73120159434E-01 +8.97209404023E-01 -2.71200481716E-04 +2.32015236492E-04 -2.85578392005E-04 +2.12230771092E-04 -3.45679262356E-01 +7.85886269992E-01
1.35500000000E+09 -1.56114347365E-01 +8.98236075506E-01 -3.04372262991E-04 +2.22381692404E-04 -2.84310207517E-04 +2.09986370011E-04 -3.35216899521E-01 +7.89483184701E-01
1.36000000000E+09 -1.39101786085E-01 +8.99250935135E-01 -2.29036119181E-04 +2.77242748858E-04 -2.69154137784E-04 +2.55234920079E-04 -3.24634053934E-01 +7.92955215891E-01
1.36500000000E+09 -1.23503491593E-01 +9.00025460206E-01 -2.86486712063E-04 +3.28156266966E-04 -2.47872162293E-04 +3.22624014790E-04 -3.13841284817E-01 +7.96090045369E-01
1.37000000000E+09 -1.09442635608E-01 +9.00091115782E-01 -2.67033528075E-04 +4.18474845157E-04 -2.55785623807E-04 +3.47034524515E-04 -3.02341217640E-01 +7.99154641393E-01
1.37500000000E+09 -9.74908251112E-02 +8.99748187557E-01 -2.56285802338E-04 +4.69459412690E-04 -2.41998058200E-04 +4.31367660447E-04 -2.89964728268E-01 +8.02178879329E-01
1.38000000000E+09 -8.66100446158E-02 +8.98619593919E-01 -1.56587282275E-04 +5.21326071166E-04 -2.57415136237E-04 +4.97666975720E-04 -2.76944322985E-01 +8.05261668725E-01
1.38500000000E+09 -7.56272695294E-02 +8.96826718725E-01 -1.30896691512E-04 +5.12690606987E-04 -1.48906391734E-04 +6.02409061623E-04 -2.63017640650E-01 +8.08139473072E-01
1.39000000000E+09 -6.34610273219E-02 +8.94355383643E-01 -8.14224901498E-05 +5.84327903888E-04 -9.68329797929E-05 +6.28528641690E-04 -2.48607358361E-01 +8.10921993289E-01
1.39500000000E+09 -4.88657176762E-02 +8.91368649950E-01 -3.88013046663E-05 +6.12545213068E-04 -1.12526315693E-05 +6.86248396887E-04 -2.33461977538E-01 +8.12865880782E-01
1.40000000000E+09 -3.15126008278E-02 +8.87599936733E-01 -1.23786816795E-04 +6.93219531152E-04 -3.76245875789E-06 +7.53202690518E-04 -2.17633426176E-01 +8.14770353144E-01
1.40500000000E+09 -1.19459625357E-02 +8.83239947615E-01 +7.61604185370E-06 +9.34738266776E-04 +4.40837926448E-05 +9.26079332162E-04 -2.00657507505E-01 +8.16019314700E-01
1.41000000000E+09 +9.81952555983E-03 +8.78496465585E-01 +2.62155827947E-04 +9.98930138534E-04 +2.50840122277E-04 +9.20696468453E-04 -1.82253197919E-01 +8.17086807339E-01
1.41500000000E+09 +3.25370601063E-02 +8.73114848652E-01 +3.80129415466E-04 +9.92185601872E-04 +3.65472224872E-04 +1.01595800244E-03 -1.62454263177E-01 +8.17305322321E-01
1.42000000000E+09 +5.53531568748E-02 +8.66964450117E-01 +5.74278635410E-04 +9.25502628297E-04 +6.02117061627E-04 +1.04611917505E-03 -1.41009833459E-01 +8.17150451926E-01
1.42500000000E+09 +7.71009628793E-02 +8.59760171048E-01 +6.83848727157E-04 +8.64629864977E-04 +8.27434539931E-04 +9.69691463701E-04 -1.18773134466E-01 +8.15601449683E-01
1.43000000000E+09 +9.78242912051E-02 +8.51126758518E-01 +7.87175314016E-04 +9.09106684372E-04 +9.43002379209E-04 +9.08463361424E-04 -9.53764461501E-02 +8.13502607489E-01
1.43500000000E+09 +1.17806723607E-01 +8.40807463646E-01 +1.00758134941E-03 +1.08359782557E-03 +1.16241806372E-03 +1.03695506573E-03 -7.02808092771E-02 +8.09608733384E-01
1.44000000000E+09 +1.38126067987E-01 +8.28796983970E-01 +1.47308301604E-03 +9.75644236414E-04 +1.61492096621E-03 +8.83537059088E-04 -4.34489211483E-02 +8.04131428014E-01
1.44500000000E+09 +1.60360062863E-01 +8.13831554943E-01 +1.80842583197E-03 +6.15561508044E-04 +1.83313950019E-03 +5.48703688559E-04 -1.40228097352E-02 +7.95976089330E-01
1.45000000000E+09 +1.84900233455E-01 +7.95168414349E-01 +1.87302957681E-03 +3.73404296000E-04 +1.91889132674E-03 +2.69602773270E-04 +1.71384930054E-02 +7.84953282145E-01
1.45500000000E+09 +2.12034262978E-01 +7.73242931760E-01 +2.07879426792E-03 +2.74773832559E-04 +2.05503755597E-03 +1.10196237745E-04 +5.00490432052E-02 +7.71087611440E-01
1.46000000000E+09 +2.42745856202E-01 +7.46958573797E-01 +2.38730521657E-03 +3.11830782742E-05 +2.27841530187E-03 -1.94495647655E-04 +8.45936118298E-02 +7.53221939333E-01
1.46500000000E+09 +2.74814944524E-01 +7.16006363519E-01 +2.85529595845E-03 -2.89999002458E-04 +2.61919364021E-03 -4.06627367948E-04 +1.20896103623E-01 +7.30942929445E-01
1.47000000000E+09 +3.07899930695E-01 +6.80636684084E-01 +3.17610759963E-03 -1.16104558840E-03 +2.90071605528E-03 -1.07187041632E-03 +1.58399022712E-01 +7.01700459475E-01
1.47500000000E+09 +3.40021807478E-01 +6.39689218515E-01 +3.18997487205E-03 -2.16965091790E-03 +3.11281496596E-03 -1.94699762986E-03 +1.96819257049E-01 +6.65447212978E-01
1.48000000000E+09 +3.69223722325E-01 +5.92340976254E-01 +2.58951570295E-03 -2.99267544728E-03 +2.70436333035E-03 -2.91612638961E-03 +2.35031424718E-01 +6.20462770435E-01
1.48500000000E+09 +3.92700829147E-01 +5.38404014083E-01 +2.29802345600E-03 -3.45229958237E-03 +2.31288103867E-03 -3.56779346620E-03 +2.71397303647E-01 +5.66518956053E-01
1.49000000000E+09 +4.10343220833E-01 +4.77026452439E-01 +1.87838237115E-03 -4.46056945820E-03 +1.66292591617E-03 -4.54047164905E-03 +3.03195679593E-01 +5.00856335294E-01
1.49500000000E+09 +4.19299480906E-01 +4.07577845489E-01 +8.47576222464E-04 -5.37278192987E-03 +6.08502128627E-04 -5.14115371099E-03 +3.24389311272E-01 +4.25079543256E-01
1.50000000000E+09 +4.19211490825E-01 +3.29285202185E-01 -7.19089056463E-04 -5.93414410583E-03 -6.47932056194E-04 -5.61830858119E-03 +3.34703295866E-01 +3.40424954389E-01
1.50500000000E+09 +4.06106598380E-01 +2.41154164056E-01 -2.16592696805E-03 -6.07482648787E-03 -1.89640058784E-03 -5.87989837562E-03 +3.28106778535E-01 +2.46478044412E-01
1.51000000000E+09 +3.75912028611E-01 +1.47354845180E-01 -4.17863083728E-03 -5.55945779248E-03 -3.88398254600E-03 -5.61272395655E-03 +3.01004334412E-01 +1.47969750244E-01
1.51500000000E+09 +3.25515668164E-01 +5.37729178158E-02 -5.50655876570E-03 -4.81674267660E-03 -5.43533156546E-03 -5.00100808460E-03 +2.50872047847E-01 +5.34708421634E-02
1.52000000000E+09 +2.55415693642E-01 -3.01665649172E-02 -7.86304886080E-03 -3.02116079163E-03 -7.91197536149E-03 -3.13372276222E-03 +1.80375221812E-01 -3.12795031765E-02
1.52500000000E+09 +1.68559750612E-01 -9.98891564528E-02 -8.16527810974E-03 +3.52138312012E-04 -8.18214940336E-03 +3.25330070947E-04 +9.03707403365E-02 -9.76551874276E-02
1.53000000000E+09 +6.68724713596E-02 -1.48333354876E-01 -6.90062324214E-03 +2.12488563337E-03 -6.91484273587E-03 +2.16333674265E-03 -1.02380748696E-02 -1.41576372026E-01
1.53500000000E+09 -4.25171597766E-02 -1.71767612320E-01 -6.19769894818E-03 +3.93946987465E-03 -6.20200197324E-03 +3.92931624844E-03 -1.15498309808E-01 -1.60733633270E-01
1.54000000000E+09 -1.54287278031E-01 -1.67860223404E-01 -4.26838422700E-03 +4.89375034444E-03 -4.22220805780E-03 +4.77601676443E-03 -2.16349777220E-01 -1.57797327082E-01
1.54500000000E+09 -2.60045524450E-01 -1.41554543183E-01 -3.17214199309E-03 +5.42908732406E-03 -3.24732181269E-03 +5.30185650278E-03 -3.06991535622E-01 -1.36683067120E-01
1.55000000000E+09 -3.55166639054E-01 -9.49895239783E-02 -1.47141894179E-03 +6.08100238720E-03 -1.73654835939E-03 +6.05333011839E-03 -3.85117749314E-01 -1.03734011447E-01
1.55500000000E+09 -4.33755438886E-01 -3.73773823779E-02 +4.86830028242E-04 +5.75841970252E-03 +2.41714833311E-04 +5.86425104142E-03 -4.50277930533E-01 -6.12852363687E-02
1.56000000000E+09 -4.97429959808E-01 +2.32836732286E-02 +1.75540737342E-03 +4.39301179474E-03 +1.65473065846E-03 +4.65155354838E-03 -5.02475497102E-01 -1.40631826534E-02
1.56500000000E+09 -5.48134885678E-01 +8.51879309939E-02 +2.00745613184E-03 +3.42388022432E-03 +2.00842240727E-03 +3.63030923790E-03 -5.43365825710E-01 +3.53952123966E-02
1.57000000000E+09 -5.85072034203E-01 +1.45246061762E-01 +2.32595375637E-03 +2.73325313825E-03 +2.50255995497E-03 +2.87923096481E-03 -5.74385230282E-01 +8.40470646635E-02
