# Hz S RI R 50
! CMT, C1220, 16058040, 17.2.0/1
! Date: 15/08/2018 12:00:18
! Data: Format (Calibration Info)
! Freq                      S11: Re/Im (F2)                       S21: Re/Im (F2)                       S12: Re/Im (F2)                       S22: Re/Im (F2)            
4.00000000000E+09 +6.65336759887E-01 -3.42757499717E-01 +1.14421603971E-03 -6.88880378526E-04 +1.23644697682E-03 -7.20966132788E-04 +7.75478100852E-01 -3.43269296015E-01
4.00500000000E+09 +6.57076670254E-01 -3.49049909444E-01 +1.00473316497E-03 -6.78324071894E-04 +1.03141614594E-03 -6.55059782739E-04 +7.66808367994E-01 -3.54955811332E-01
4.01000000000E+09 +6.48125541626E-01 -3.55307391974E-01 +9.62164784680E-04 -7.60165544202E-04 +1.02274066468E-03 -6.94957620762E-04 +7.57225102198E-01 -3.66157464580E-01
4.01500000000E+09 +6.37785419976E-01 -3.62248357243E-01 +9.85527562971E-04 -6.28894262456E-04 +1.06325078741E-03 -6.51969716349E-04 +7.47512990059E-01 -3.76594269395E-01
4.02000000000E+09 +6.26914375311E-01 -3.69447803869E-01 +1.15258573646E-03 -8.69281536221E-04 +1.21165621615E-03 -8.12791524852E-04 +7.37862262168E-01 -3.86836396169E-01
4.02500000000E+09 +6.15984957345E-01 -3.78162983984E-01 +1.11517089946E-03 -1.12694914222E-03 +1.15151717527E-03 -1.11411231583E-03 +7.27648184139E-01 -3.97114596773E-01
4.03000000000E+09 +6.04462944297E-01 -3.88725540618E-01 +8.09909811399E-04 -1.44243708098E-03 +9.03136233191E-04 -1.51390752852E-03 +7.17000846675E-01 -4.07206539916E-01
4.03500000000E+09 +5.92637822200E-01 -3.99150101370E-01 +3.66736539337E-04 -1.30977588626E-03 +5.02846294698E-04 -1.39948853970E-03 +7.06026269195E-01 -4.17400437864E-01
4.04000000000E+09 +5.81443420794E-01 -4.09719218246E-01 +3.68590505607E-04 -1.14049811622E-03 +4.41191165825E-04 -1.20102847389E-03 +6.95309248715E-01 -4.27911719004E-01
4.04500000000E+09 +5.70246535288E-01 -4.20010942777E-01 +2.50976275969E-04 -9.69352745676E-04 +3.54470562188E-04 -1.00116598475E-03 +6.84020802094E-01 -4.38591797863E-01
4.05000000000E+09 +5.58919245766E-01 -4.28678119337E-01 +5.90223755851E-04 -1.03158586844E-03 +6.06149977084E-04 -1.02235290172E-03 +6.72725324779E-01 -4.48673780705E-01
4.05500000000E+09 +5.47168273179E-01 -4.35628470499E-01 +6.46389327858E-04 -1.32702293227E-03 +7.30271519215E-04 -1.39517990629E-03 +6.61110664750E-01 -4.58315825625E-01
4.06000000000E+09 +5.34809202043E-01 -4.41124576291E-01 +4.50038589841E-04 -1.60716973519E-03 +4.93415634318E-04 -1.69733870487E-03 +6.48687941855E-01 -4.68205696069E-01
4.06500000000E+09 +5.22174913943E-01 -4.45407153629E-01 -4.16029506281E-06 -1.62800401682E-03 +1.40482747719E-05 -1.67185027354E-03 +6.36071855601E-01 -4.77232861178E-01
4.07000000000E+09 +5.08555700661E-01 -4.49458576113E-01 -9.93083041587E-06 -1.53044953648E-03 -3.61467900779E-05 -1.54808334750E-03 +6.22322376046E-01 -4.86974812771E-01
4.07500000000E+09 +4.93899797363E-01 -4.54618859821E-01 -1.91048675113E-04 -1.62726667003E-03 -1.58978144762E-04 -1.67212190702E-03 +6.08542567999E-01 -4.96079577624E-01
4.08000000000E+09 +4.78117119747E-01 -4.59887774955E-01 -3.68263183329E-04 -1.51375809317E-03 -3.14810008400E-04 -1.60944839970E-03 +5.95345343920E-01 -5.05336586368E-01
4.08500000000E+09 +4.61888299574E-01 -4.66061502469E-01 -4.83605999572E-04 -1.41583072747E-03 -4.59381050801E-04 -1.50087566512E-03 +5.81271456440E-01 -5.14767751236E-01
4.09000000000E+09 +4.45388299350E-01 -4.72791644588E-01 -5.07721455800E-04 -1.42779717343E-03 -4.62682308352E-04 -1.52670513338E-03 +5.67119526906E-01 -5.22693458277E-01
4.09500000000E+09 +4.29512617270E-01 -4.79577291799E-01 -4.52119852374E-04 -1.37794347103E-03 -5.71750222043E-04 -1.41103744225E-03 +5.52875210166E-01 -5.31464225157E-01
4.10000000000E+09 +4.13317557253E-01 -4.86328225345E-01 -4.22257066334E-04 -1.56657617724E-03 -4.61330715574E-04 -1.63922174297E-03 +5.36966863704E-01 -5.39796167420E-01
4.10500000000E+09 +3.97524287809E-01 -4.91449148017E-01 -7.06266223605E-04 -1.75445252785E-03 -7.33463109527E-04 -1.81245413012E-03 +5.20432438921E-01 -5.47296871853E-01
4.11000000000E+09 +3.81735250655E-01 -4.94762754912E-01 -1.09855420064E-03 -1.88293452897E-03 -1.08116116607E-03 -1.87814508937E-03 +5.03231726427E-01 -5.54876928266E-01
4.11500000000E+09 +3.66313951397E-01 -4.96464456995E-01 -1.54848317949E-03 -1.65181375805E-03 -1.57063725717E-03 -1.73237614229E-03 +4.86046127816E-01 -5.61680875964E-01
4.12000000000E+09 +3.50836399768E-01 -4.96510833417E-01 -1.73112932732E-03 -1.33706480912E-03 -1.75527178492E-03 -1.39393380095E-03 +4.69068022595E-01 -5.67973517292E-01
4.12500000000E+09 +3.35320533060E-01 -4.97152875769E-01 -1.83750220669E-03 -1.05015089009E-03 -1.78542333402E-03 -1.11057778946E-03 +4.52276410334E-01 -5.74263011578E-01
4.13000000000E+09 +3.17199815791E-01 -4.98684283199E-01 -1.82597069997E-03 -1.12010226329E-03 -1.78078319257E-03 -1.23130337957E-03 +4.35204884688E-01 -5.80197298289E-01
4.13500000000E+09 +2.98029172387E-01 -4.99426338480E-01 -2.08812166707E-03 -9.94246677919E-04 -2.08423110935E-03 -1.02770537561E-03 +4.16525077034E-01 -5.86180893390E-01
4.14000000000E+09 +2.78979705676E-01 -5.01412605351E-01 -2.29866089341E-03 -7.26076988600E-04 -2.29404746533E-03 -8.42954356261E-04 +3.97525342869E-01 -5.91157635119E-01
4.14500000000E+09 +2.59531562811E-01 -5.04728544735E-01 -2.41722522706E-03 -4.44270554597E-04 -2.54177641374E-03 -5.16703228390E-04 +3.78352723754E-01 -5.96372925053E-01
4.15000000000E+09 +2.40223203027E-01 -5.08838505437E-01 -2.40178244097E-03 -7.27798724547E-05 -2.50743116638E-03 -1.56631995497E-04 +3.58215746970E-01 -6.01135213926E-01
4.15500000000E+09 +2.21035565368E-01 -5.12627692715E-01 -2.33862361264E-03 -3.38515359383E-05 -2.40422119744E-03 -9.45464155897E-05 +3.39163490132E-01 -6.04173451562E-01
4.16000000000E+09 +2.02579610344E-01 -5.15438828543E-01 -2.68156859227E-03 +1.82136500524E-04 -2.78194938138E-03 +1.51655702539E-04 +3.19975598398E-01 -6.07242575956E-01
4.16500000000E+09 +1.85262992590E-01 -5.15572123003E-01 -2.67539935574E-03 +8.50223228000E-04 -2.75334499729E-03 +7.69357353726E-04 +2.99358994897E-01 -6.09184370836E-01
4.17000000000E+09 +1.69314778472E-01 -5.14195886712E-01 -2.32006641089E-03 +1.00328044979E-03 -2.42217637110E-03 +9.11823175564E-04 +2.79522951424E-01 -6.09954503199E-01
4.17500000000E+09 +1.53346423046E-01 -5.10674111349E-01 -2.39797906924E-03 +1.55475043723E-03 -2.50277429450E-03 +1.43218075834E-03 +2.58490197564E-01 -6.10942631180E-01
4.18000000000E+09 +1.37884265490E-01 -5.06258110331E-01 -1.50968949580E-03 +1.57418676222E-03 -1.59330055976E-03 +1.61099408447E-03 +2.37800168213E-01 -6.11479090410E-01
4.18500000000E+09 +1.20931702215E-01 -5.01107098046E-01 -1.60910740469E-03 +9.88452573533E-04 -1.68833728283E-03 +1.00605199755E-03 +2.15962298512E-01 -6.12620288827E-01
4.19000000000E+09 +1.02620918695E-01 -4.95472856512E-01 -1.99193728248E-03 +1.12658920915E-03 -2.14424658790E-03 +1.15817351271E-03 +1.93694797565E-01 -6.11562167155E-01
4.19500000000E+09 +8.35974913177E-02 -4.89575223993E-01 -2.16863975878E-03 +1.74647012428E-03 -2.27182905618E-03 +1.82131928353E-03 +1.72223676711E-01 -6.09652199470E-01
4.20000000000E+09 +6.44562340039E-02 -4.85147610956E-01 -2.00424663164E-03 +2.16134276838E-03 -2.10264148340E-03 +2.23919184684E-03 +1.50224782042E-01 -6.07227533075E-01
4.20500000000E+09 +4.47526488983E-02 -4.81531891195E-01 -1.54937215151E-03 +2.60511144999E-03 -1.63143299577E-03 +2.71528457386E-03 +1.27811333813E-01 -6.03859076518E-01
4.21000000000E+09 +2.57131761654E-02 -4.77963657767E-01 -1.09067597410E-03 +2.21318076734E-03 -1.08126980994E-03 +2.35875449306E-03 +1.05265173180E-01 -6.00182831155E-01
4.21500000000E+09 +7.28851684721E-03 -4.74202898456E-01 -1.33818340298E-03 +2.20389949653E-03 -1.34614921603E-03 +2.23493202449E-03 +8.22097244688E-02 -5.95626555387E-01
4.22000000000E+09 -1.00320901925E-02 -4.69024342268E-01 -1.48747249939E-03 +2.77094194887E-03 -1.46895796632E-03 +2.84424429580E-03 +6.04937744687E-02 -5.90036637968E-01
4.22500000000E+09 -2.59437702979E-02 -4.61225531749E-01 -8.98716764356E-04 +3.46497913599E-03 -8.57325909973E-04 +3.48088534171E-03 +3.88245130572E-02 -5.84610714647E-01
4.23000000000E+09 -3.95124735229E-02 -4.52692998489E-01 -2.32362752515E-04 +3.17614287361E-03 -2.20311415895E-04 +3.24877154563E-03 +1.71414979887E-02 -5.78142611921E-01
4.23500000000E+09 -5.45041630685E-02 -4.43060772554E-01 +3.05090333549E-05 +3.18184059195E-03 +5.56211874940E-05 +3.12553302217E-03 -4.37044042486E-03 -5.70323131732E-01
4.24000000000E+09 -7.07495756568E-02 -4.31674545187E-01 -3.29027564298E-05 +3.26327363452E-03 -4.80381593542E-05 +3.26562844519E-03 -2.68750488998E-02 -5.61808211688E-01
4.24500000000E+09 -8.78785809834E-02 -4.19067514527E-01 +5.65499849125E-04 +3.46214968333E-03 +5.35569425902E-04 +3.51974050503E-03 -4.89518912093E-02 -5.51645962218E-01
4.25000000000E+09 -1.06734702371E-01 -4.06705384087E-01 +7.48741371288E-04 +3.42898998039E-03 +7.44536016093E-04 +3.40888675612E-03 -7.07608280427E-02 -5.41609084757E-01
4.25500000000E+09 -1.26441941516E-01 -3.93874278759E-01 +1.31682631363E-03 +3.57039372646E-03 +1.29429692643E-03 +3.60135821254E-03 -9.31729840822E-02 -5.29993657722E-01
4.26000000000E+09 -1.45948826490E-01 -3.82916168223E-01 +1.67564080214E-03 +3.43783421657E-03 +1.66729569037E-03 +3.52720186875E-03 -1.13780962282E-01 -5.16954176858E-01
4.26500000000E+09 -1.66659060309E-01 -3.72765587331E-01 +2.20721607739E-03 +3.47936780978E-03 +2.26569784009E-03 +3.58523988965E-03 -1.34388231351E-01 -5.03774866477E-01
4.27000000000E+09 -1.85446830979E-01 -3.61761384728E-01 +2.81402213487E-03 +3.17421293273E-03 +2.86479895959E-03 +3.22523569513E-03 -1.54813849316E-01 -4.88803596562E-01
4.27500000000E+09 -2.01584533614E-01 -3.50920427210E-01 +3.19995833974E-03 +2.75551165474E-03 +3.31379959638E-03 +2.79312724623E-03 -1.74711838400E-01 -4.73689716118E-01
4.28000000000E+09 -2.15191386374E-01 -3.39548671794E-01 +3.71272933598E-03 +2.23031330509E-03 +3.84937113099E-03 +2.32924860386E-03 -1.94957475928E-01 -4.57479554807E-01
4.28500000000E+09 -2.27883376937E-01 -3.26860510918E-01 +3.68873576268E-03 +1.38778267400E-03 +3.70605887498E-03 +1.36174245158E-03 -2.14254684774E-01 -4.41378409983E-01
4.29000000000E+09 -2.37933698609E-01 -3.11358285622E-01 +3.37363355372E-03 +1.22378473603E-03 +3.44792236244E-03 +1.20353171713E-03 -2.32736162724E-01 -4.24499277317E-01
4.29500000000E+09 -2.48317228360E-01 -2.95261872922E-01 +3.23817258042E-03 +1.58742904803E-03 +3.26490857438E-03 +1.53318169490E-03 -2.51669047689E-01 -4.06983058909E-01
4.30000000000E+09 -2.59460148337E-01 -2.77009505748E-01 +4.24294132135E-03 +1.31663707716E-03 +4.33891331733E-03 +1.28550765791E-03 -2.68307083623E-01 -3.87263884068E-01
4.30500000000E+09 -2.71725196922E-01 -2.57199622746E-01 +4.48947485409E-03 +5.92864426646E-04 +4.56259987646E-03 +6.02344693530E-04 -2.83748733833E-01 -3.67426110529E-01
4.31000000000E+09 -2.84946770061E-01 -2.37166700355E-01 +5.04920995556E-03 +1.17493011924E-04 +5.17931519414E-03 +1.04960461426E-04 -2.98618967542E-01 -3.47326447595E-01
4.31500000000E+09 -2.99420830663E-01 -2.17142084328E-01 +4.99499664559E-03 -1.28435795552E-03 +5.16473192397E-03 -1.36173420122E-03 -3.13607103663E-01 -3.26338535891E-01
4.32000000000E+09 -3.12794606346E-01 -1.98641540087E-01 +3.98623645484E-03 -2.08327632729E-03 +4.08795523690E-03 -2.12740736921E-03 -3.26692334651E-01 -3.04054992568E-01
4.32500000000E+09 -3.26329538969E-01 -1.82097970347E-01 +3.26397040524E-03 -1.78447180685E-03 +3.33176904228E-03 -1.91770135318E-03 -3.38977228721E-01 -2.82738884236E-01
4.33000000000E+09 -3.38015377473E-01 -1.65666933336E-01 +3.61458060534E-03 -1.38506056105E-03 +3.74983256269E-03 -1.50008236394E-03 -3.51414519785E-01 -2.60760716477E-01
4.33500000000E+09 -3.46321055448E-01 -1.49759469721E-01 +3.97036468399E-03 -1.94130025877E-03 +4.06792255002E-03 -2.12829996235E-03 -3.62715617621E-01 -2.37020262808E-01
4.34000000000E+09 -3.52388786853E-01 -1.34864876088E-01 +4.16435714922E-03 -2.54667216397E-03 +4.15316849105E-03 -2.67586257009E-03 -3.73159524918E-01 -2.13844647760E-01
4.34500000000E+09 -3.57087001184E-01 -1.18619478902E-01 +3.93335838509E-03 -3.55466825895E-03 +3.87414130846E-03 -3.69071803874E-03 -3.83467364454E-01 -1.88154732919E-01
4.35000000000E+09 -3.59251909214E-01 -1.00027047850E-01 +3.20142214348E-03 -4.36291635571E-03 +3.09193456459E-03 -4.41228399911E-03 -3.90857816154E-01 -1.63268253361E-01
4.35500000000E+09 -3.61453140406E-01 -8.04317112177E-02 +2.51474432075E-03 -4.68953019373E-03 +2.45089035324E-03 -4.81189177906E-03 -3.98344760177E-01 -1.39988099371E-01
4.36000000000E+09 -3.64695292454E-01 -5.81639744304E-02 +1.85203067344E-03 -4.88692162796E-03 +1.76709029313E-03 -4.90647542056E-03 -4.04838613809E-01 -1.16144495076E-01
4.36500000000E+09 -3.67885509273E-01 -3.42799241984E-02 +1.06781380534E-03 -5.04178951291E-03 +1.01489198456E-03 -5.09384351171E-03 -4.10530030963E-01 -9.24947213707E-02
4.37000000000E+09 -3.72837308733E-01 -1.13409063643E-02 +3.05424164324E-04 -4.83981418960E-03 +2.00715781270E-04 -4.93097062740E-03 -4.14507767792E-01 -6.79951048979E-02
4.37500000000E+09 -3.78780348840E-01 +1.17833810125E-02 -7.09763582667E-05 -4.28573478496E-03 -1.81489654328E-04 -4.26176977453E-03 -4.17400418741E-01 -4.30264650342E-02
4.38000000000E+09 -3.84708011536E-01 +3.29105102740E-02 +1.79667236282E-04 -4.63185291621E-03 +3.56566793884E-05 -4.62285291408E-03 -4.19453610477E-01 -1.86652370661E-02
4.38500000000E+09 -3.90706933521E-01 +5.14168711742E-02 -1.28657845164E-04 -4.66825915379E-03 -2.50774969791E-04 -4.67156885814E-03 -4.21756336396E-01 +6.44056014955E-03
4.39000000000E+09 -3.94712636620E-01 +6.81288446826E-02 -9.16552314143E-04 -5.52126070612E-03 -9.93921919941E-04 -5.54350399722E-03 -4.22558834927E-01 +3.24836798359E-02
4.39500000000E+09 -3.97010505095E-01 +8.29838984941E-02 -2.22139560741E-03 -5.20614353694E-03 -2.31140219510E-03 -5.20502259363E-03 -4.21974466704E-01 +5.68379384752E-02
4.40000000000E+09 -3.96805046019E-01 +9.76746762586E-02 -2.81965316895E-03 -4.63240760686E-03 -2.91320229581E-03 -4.64810591804E-03 -4.19892033563E-01 +8.17791222747E-02
4.40500000000E+09 -3.94494575014E-01 +1.13166431885E-01 -3.61448388986E-03 -3.92939684250E-03 -3.72772863015E-03 -3.90371022142E-03 -4.16346411241E-01 +1.05408711084E-01
4.41000000000E+09 -3.89660351364E-01 +1.30084152283E-01 -3.36412803515E-03 -3.25874016908E-03 -3.46562873720E-03 -3.17686747209E-03 -4.12244752243E-01 +1.27986101324E-01
4.41500000000E+09 -3.84515024531E-01 +1.48793252174E-01 -3.66258845873E-03 -2.94512761293E-03 -3.72885145540E-03 -2.92286305067E-03 -4.07643954521E-01 +1.51814301181E-01
4.42000000000E+09 -3.79244000133E-01 +1.70171961775E-01 -3.87119044134E-03 -2.75026434617E-03 -3.90450348945E-03 -2.67762711857E-03 -4.02171641862E-01 +1.73929609512E-01
4.42500000000E+09 -3.73881154237E-01 +1.92589357851E-01 -4.23430689507E-03 -2.48904548752E-03 -4.26947136563E-03 -2.39602418199E-03 -3.96365752253E-01 +1.96474489715E-01
4.43000000000E+09 -3.70008673481E-01 +2.14516415771E-01 -4.25451307447E-03 -2.01892533173E-03 -4.32759846616E-03 -1.88449739165E-03 -3.90548442060E-01 +2.17829644653E-01
4.43500000000E+09 -3.67643274707E-01 +2.35690132274E-01 -5.07076979091E-03 -1.84933117261E-03 -5.05631773548E-03 -1.78297314163E-03 -3.84441713181E-01 +2.39467534843E-01
4.44000000000E+09 -3.66141375911E-01 +2.55115894453E-01 -5.20408782947E-03 -7.98101889878E-04 -5.17788297079E-03 -7.23068602640E-04 -3.76356120069E-01 +2.62434552034E-01
4.44500000000E+09 -3.64734377958E-01 +2.72535169110E-01 -4.86965208985E-03 -2.52387059007E-04 -4.81895173714E-03 -1.65818644860E-04 -3.67178307258E-01 +2.82063353437E-01
4.45000000000E+09 -3.62033173822E-01 +2.87486397436E-01 -5.17153295437E-03 +1.53284927457E-04 -5.14676039183E-03 +2.72241750542E-04 -3.57781437438E-01 +3.02146752699E-01
4.45500000000E+09 -3.57850193236E-01 +3.00388217455E-01 -5.15139608762E-03 +1.16271761449E-03 -5.07768967981E-03 +1.31448470635E-03 -3.46772233064E-01 +3.20737327197E-01
4.46000000000E+09 -3.52059290005E-01 +3.12544966944E-01 -4.49671894821E-03 +1.80152935835E-03 -4.38737533928E-03 +1.89928087495E-03 -3.37886638878E-01 +3.38262947827E-01
4.46500000000E+09 -3.43657409043E-01 +3.25866693822E-01 -3.96647605364E-03 +2.01785559940E-03 -3.88807310416E-03 +2.07762437923E-03 -3.26304202629E-01 +3.57221030432E-01
4.47000000000E+09 -3.32973452808E-01 +3.40377368083E-01 -3.64771062018E-03 +1.81629859666E-03 -3.60264727969E-03 +1.91242823524E-03 -3.14750153066E-01 +3.74517508211E-01
4.47500000000E+09 -3.20778148516E-01 +3.56818584240E-01 -4.44001264195E-03 +2.21129178244E-03 -4.27581601749E-03 +2.34644778165E-03 -3.02891559485E-01 +3.91277216811E-01
4.48000000000E+09 -3.07781612573E-01 +3.74465442374E-01 -3.73616006757E-03 +3.14600559515E-03 -3.62325417025E-03 +3.13435636551E-03 -2.90817045367E-01 +4.07909867281E-01
4.48500000000E+09 -2.95261094859E-01 +3.92183531619E-01 -3.31733364808E-03 +3.63968516479E-03 -3.18973317664E-03 +3.67831666144E-03 -2.78724253139E-01 +4.23952039239E-01
4.49000000000E+09 -2.85399036903E-01 +4.09152021045E-01 -2.70663554690E-03 +4.19964838786E-03 -2.60112476020E-03 +4.14433592212E-03 -2.65483310166E-01 +4.39776367889E-01
4.49500000000E+09 -2.77503015430E-01 +4.27191615727E-01 -1.65346048825E-03 +4.13365291647E-03 -1.61012759484E-03 +4.03114384623E-03 -2.52044753607E-01 +4.53742612676E-01
4.50000000000E+09 -2.70364937751E-01 +4.42614801831E-01 -1.42861857944E-03 +3.83961417530E-03 -1.38580165782E-03 +3.76865514322E-03 -2.38834432841E-01 +4.67638664220E-01
4.50500000000E+09 -2.64549432702E-01 +4.56231427732E-01 -1.09200529156E-03 +3.80747400876E-03 -1.07030015795E-03 +3.78450762143E-03 -2.24974759058E-01 +4.80123960930E-01
4.51000000000E+09 -2.57803957274E-01 +4.67478781821E-01 -8.74666838243E-04 +3.74459128310E-03 -8.42234793896E-04 +3.73150176832E-03 -2.12121064894E-01 +4.92652792365E-01
4.51500000000E+09 -2.49368270650E-01 +4.76440417859E-01 -6.10416948697E-04 +3.84395712573E-03 -5.63734875414E-04 +3.81902508929E-03 -1.98412645585E-01 +5.04871704876E-01
4.52000000000E+09 -2.39736463571E-01 +4.83907746252E-01 -4.76669056173E-04 +3.84148086777E-03 -3.60929737823E-04 +3.77409229341E-03 -1.84714601675E-01 +5.16434281794E-01
4.52500000000E+09 -2.28488719547E-01 +4.91865538876E-01 -1.74390969429E-04 +3.85404225013E-03 -1.45493420965E-04 +3.75749962180E-03 -1.71589680475E-01 +5.27202232488E-01
4.53000000000E+09 -2.14601892406E-01 +5.00598407633E-01 +3.78689659888E-05 +4.31054319837E-03 +9.21488377317E-05 +4.24416318437E-03 -1.57700259549E-01 +5.38075346884E-01
4.53500000000E+09 -1.99215858524E-01 +5.10423953634E-01 +8.26405339749E-04 +4.24108042434E-03 +9.89546083156E-04 +4.10262666737E-03 -1.43004641108E-01 +5.48084088114E-01
4.54000000000E+09 -1.83347053848E-01 +5.21276350517E-01 +1.39695044738E-03 +4.07119606388E-03 +1.51746888727E-03 +3.94871449103E-03 -1.28343320841E-01 +5.58158861085E-01
4.54500000000E+09 -1.68027596471E-01 +5.32238794876E-01 +1.54030983307E-03 +3.82548059478E-03 +1.62499062672E-03 +3.65766761964E-03 -1.12893573532E-01 +5.67075063619E-01
4.55000000000E+09 -1.55113666620E-01 +5.43006087087E-01 +2.28398566464E-03 +3.69778607719E-03 +2.28668235973E-03 +3.48500579153E-03 -9.83463275512E-02 +5.75611468074E-01
4.55500000000E+09 -1.44330192446E-01 +5.54090578279E-01 +2.39773652565E-03 +3.19084254185E-03 +2.42318529422E-03 +3.00598289435E-03 -8.44751180023E-02 +5.84088222693E-01
4.56000000000E+09 -1.34739169244E-01 +5.64136627861E-01 +2.48797665398E-03 +2.99434808571E-03 +2.52031105417E-03 +2.86116992531E-03 -6.99650604813E-02 +5.92842240072E-01
4.56500000000E+09 -1.26070742526E-01 +5.72151562943E-01 +2.93388402055E-03 +2.76770689558E-03 +2.94492437363E-03 +2.69188685045E-03 -5.56027830697E-02 +6.00576171020E-01
4.57000000000E+09 -1.17316971906E-01 +5.79140410636E-01 +3.05077681779E-03 +2.38964869155E-03 +3.02120811804E-03 +2.29298621263E-03 -4.03403474882E-02 +6.08129915653E-01
