# Hz S RI R 50
! CMT, C1220, 16058040, 17.2.0/1
! Date: 15/08/2018 12:04:02
! Data: Format (Calibration Info)
! Freq                      S11: Re/Im (F2)                       S21: Re/Im (F2)                       S12: Re/Im (F2)                       S22: Re/Im (F2)            
4.00000000000E+09 +6.65050065718E-01 -3.40778483751E-01 +1.78038570082E-03 -4.81158259120E-04 +1.83973467219E-03 -4.22939649953E-04 +7.76616383896E-01 -3.40020327693E-01
4.00500000000E+09 +6.57122019039E-01 -3.46849479893E-01 +1.68901283238E-03 -5.77510780146E-04 +1.74903953626E-03 -4.74273046485E-04 +7.67954679097E-01 -3.51619926518E-01
4.01000000000E+09 +6.48185168045E-01 -3.53228899551E-01 +1.61104081445E-03 -6.09993647735E-04 +1.63980294649E-03 -5.17128279678E-04 +7.58478279266E-01 -3.62867599651E-01
4.01500000000E+09 +6.37753765393E-01 -3.60043528855E-01 +1.78795760864E-03 -5.70055687333E-04 +1.84021172107E-03 -4.95810122434E-04 +7.48982404510E-01 -3.73045443860E-01
4.02000000000E+09 +6.26760799874E-01 -3.67007146220E-01 +1.96223572020E-03 -9.87769666519E-04 +2.05004631783E-03 -9.02762398888E-04 +7.39408964810E-01 -3.83459566606E-01
4.02500000000E+09 +6.15922395852E-01 -3.75654044873E-01 +1.84456574630E-03 -1.44061795570E-03 +1.92316408020E-03 -1.41845727436E-03 +7.29270288109E-01 -3.93621076961E-01
4.03000000000E+09 +6.03981561939E-01 -3.86045844327E-01 +1.42739553471E-03 -1.86632622860E-03 +1.48304037617E-03 -1.83467715756E-03 +7.19125513344E-01 -4.03725447744E-01
4.03500000000E+09 +5.92588569846E-01 -3.96250185393E-01 +8.87403882279E-04 -1.63990202490E-03 +9.48602299824E-04 -1.64068207011E-03 +7.08406055268E-01 -4.14401339179E-01
4.04000000000E+09 +5.81508694379E-01 -4.07195226970E-01 +9.11692120431E-04 -1.42045613954E-03 +9.95007589429E-04 -1.48151831317E-03 +6.97670748086E-01 -4.25178858520E-01
4.04500000000E+09 +5.70095167770E-01 -4.17720957747E-01 +8.88702686356E-04 -1.35218754257E-03 +1.03182792353E-03 -1.36545725386E-03 +6.86410657916E-01 -4.36065426208E-01
4.05000000000E+09 +5.58920510294E-01 -4.26337786460E-01 +1.13559876396E-03 -1.51515155946E-03 +1.24801934667E-03 -1.55351621265E-03 +6.74942813641E-01 -4.46173240124E-01
4.05500000000E+09 +5.47194190087E-01 -4.33380043651E-01 +1.04142403626E-03 -1.95652894772E-03 +1.19589849942E-03 -2.03564302256E-03 +6.63482950144E-01 -4.55830420828E-01
4.06000000000E+09 +5.35277109739E-01 -4.38872011326E-01 +6.80482035674E-04 -2.12884516437E-03 +7.69497527679E-04 -2.32525538605E-03 +6.51201607572E-01 -4.65970222607E-01
4.06500000000E+09 +5.22824514459E-01 -4.43083501058E-01 +3.67247414203E-04 -2.00286784909E-03 +3.58367905139E-04 -2.07726655467E-03 +6.38063673987E-01 -4.75096980856E-01
4.07000000000E+09 +5.09668831434E-01 -4.47212640857E-01 +3.99601588548E-04 -2.10872746526E-03 +4.87485544007E-04 -2.18334237910E-03 +6.24442749221E-01 -4.85028841097E-01
4.07500000000E+09 +4.95024895047E-01 -4.52160969684E-01 +1.61921672266E-04 -2.25858515845E-03 +1.92220144683E-04 -2.34433197880E-03 +6.10744453874E-01 -4.94304119583E-01
4.08000000000E+09 +4.79522783175E-01 -4.57427674720E-01 -3.66156208414E-05 -2.28624918386E-03 +2.77432075850E-05 -2.29727846628E-03 +5.97388207965E-01 -5.03502570868E-01
4.08500000000E+09 +4.63199021443E-01 -4.63549796089E-01 -4.13341522193E-04 -2.27949203513E-03 -3.36608995335E-04 -2.37654399985E-03 +5.83308665809E-01 -5.13125222883E-01
4.09000000000E+09 +4.46819893200E-01 -4.70269181066E-01 -4.10101142851E-04 -2.15743135674E-03 -4.32025968323E-04 -2.21867232832E-03 +5.69033054681E-01 -5.21151155967E-01
4.09500000000E+09 +4.30828846234E-01 -4.77100215193E-01 -4.60559761394E-04 -2.15638708185E-03 -4.36956797164E-04 -2.24268714984E-03 +5.54796345693E-01 -5.29604240018E-01
4.10000000000E+09 +4.14457627010E-01 -4.83833762868E-01 -5.12121432907E-04 -2.41487030505E-03 -5.32653198113E-04 -2.50194927735E-03 +5.38988171515E-01 -5.37980876302E-01
4.10500000000E+09 +3.98841262981E-01 -4.88768512994E-01 -9.32696875305E-04 -2.58952533337E-03 -8.74553351274E-04 -2.66925680883E-03 +5.22410686236E-01 -5.45573354551E-01
4.11000000000E+09 +3.83258215777E-01 -4.92247176696E-01 -1.41558367263E-03 -2.66760780870E-03 -1.31439128983E-03 -2.73658201875E-03 +5.05369761479E-01 -5.53127268519E-01
4.11500000000E+09 +3.68138060703E-01 -4.94010386591E-01 -2.03943405422E-03 -2.31295821508E-03 -2.00853356993E-03 -2.44781876640E-03 +4.88384948456E-01 -5.60403707079E-01
4.12000000000E+09 +3.52976698826E-01 -4.94553309618E-01 -1.99108521209E-03 -1.88592608333E-03 -2.01748135580E-03 -2.01710546941E-03 +4.71191819947E-01 -5.66942882433E-01
4.12500000000E+09 +3.37485753329E-01 -4.95470645247E-01 -2.13654407904E-03 -1.85576070829E-03 -2.14409087329E-03 -1.93974014817E-03 +4.54038426666E-01 -5.73210078303E-01
4.13000000000E+09 +3.19638317603E-01 -4.96803956496E-01 -2.35735898411E-03 -1.89122125667E-03 -2.33088900323E-03 -1.99336193654E-03 +4.37081741829E-01 -5.78868864000E-01
4.13500000000E+09 +3.00953664740E-01 -4.97396731151E-01 -2.72262346440E-03 -1.61822898145E-03 -2.68320341671E-03 -1.76946271226E-03 +4.18654216782E-01 -5.84934647010E-01
4.14000000000E+09 +2.82489460038E-01 -4.99789380097E-01 -3.03342275576E-03 -1.29294732792E-03 -3.09544253359E-03 -1.48988420769E-03 +3.99534477505E-01 -5.90034156537E-01
4.14500000000E+09 +2.63155960622E-01 -5.03100975347E-01 -3.18880804083E-03 -7.50850346805E-04 -3.24285951435E-03 -8.79297184668E-04 +3.80479303731E-01 -5.95300514120E-01
4.15000000000E+09 +2.43919117993E-01 -5.07625858550E-01 -2.96896641376E-03 -5.04307403647E-04 -3.03980297439E-03 -6.18355949230E-04 +3.60351512910E-01 -6.00402507855E-01
4.15500000000E+09 +2.24541867711E-01 -5.11576111951E-01 -3.09941986086E-03 -5.56892814924E-04 -3.14305085037E-03 -6.40871144755E-04 +3.40986843217E-01 -6.03674948661E-01
4.16000000000E+09 +2.05819436437E-01 -5.14427192329E-01 -3.47703327950E-03 -2.59645700993E-04 -3.62608960871E-03 -3.02107050063E-04 +3.21657771532E-01 -6.06868474102E-01
4.16500000000E+09 +1.88554319455E-01 -5.14761669230E-01 -3.58401288240E-03 +3.88165115419E-04 -3.65430480164E-03 +3.67803833411E-04 +3.00697539270E-01 -6.08815274260E-01
4.17000000000E+09 +1.72569095220E-01 -5.13901238873E-01 -3.43698953618E-03 +6.64898456755E-04 -3.52818215762E-03 +6.53744304670E-04 +2.80594618085E-01 -6.09327884432E-01
4.17500000000E+09 +1.56231438375E-01 -5.10575388984E-01 -3.55899368370E-03 +1.48655926606E-03 -3.69383830401E-03 +1.46092758689E-03 +2.59785830587E-01 -6.10132836379E-01
4.18000000000E+09 +1.40824419718E-01 -5.06336471427E-01 -2.51130140255E-03 +1.61852616488E-03 -2.68921669955E-03 +1.69965716527E-03 +2.39051451702E-01 -6.10926532281E-01
4.18500000000E+09 +1.24001545124E-01 -5.01590816051E-01 -2.67177875754E-03 +1.14408466414E-03 -2.79674380691E-03 +1.17231005619E-03 +2.16920406628E-01 -6.11781222594E-01
4.19000000000E+09 +1.05640611223E-01 -4.96269571811E-01 -2.99894627099E-03 +1.38778787656E-03 -3.14525012798E-03 +1.40696432290E-03 +1.94240879861E-01 -6.10540559178E-01
4.19500000000E+09 +8.66972813425E-02 -4.90399335486E-01 -3.19809963197E-03 +2.09294823567E-03 -3.28774408155E-03 +2.11822915480E-03 +1.72724617083E-01 -6.07987243003E-01
4.20000000000E+09 +6.76006666708E-02 -4.86504930918E-01 -2.92218185149E-03 +2.45506332336E-03 -3.04988904755E-03 +2.53159432140E-03 +1.51379386878E-01 -6.05406030569E-01
4.20500000000E+09 +4.76599044759E-02 -4.82998947320E-01 -2.69868021823E-03 +2.97316524555E-03 -2.77323939214E-03 +3.10995835280E-03 +1.29369347228E-01 -6.02188347448E-01
4.21000000000E+09 +2.87639904173E-02 -4.79427455744E-01 -2.16359293238E-03 +2.95533741513E-03 -2.25483373912E-03 +3.02868482390E-03 +1.06860553739E-01 -5.98504334203E-01
4.21500000000E+09 +1.01186276011E-02 -4.75954093306E-01 -2.30975978449E-03 +3.18113886477E-03 -2.36817330902E-03 +3.28711015947E-03 +8.41827765118E-02 -5.94049918982E-01
4.22000000000E+09 -7.28978956157E-03 -4.70878033265E-01 -2.11548100800E-03 +3.92289350910E-03 -2.19427108920E-03 +4.00914225582E-03 +6.24443319510E-02 -5.88732327684E-01
4.22500000000E+09 -2.31078758954E-02 -4.63515185398E-01 -1.27067960981E-03 +4.45445933541E-03 -1.22135396601E-03 +4.51352525574E-03 +4.08646791620E-02 -5.83104544187E-01
4.23000000000E+09 -3.70952232021E-02 -4.55849454751E-01 -7.46666502614E-04 +3.98081425287E-03 -6.79135828846E-04 +4.06439986812E-03 +1.91091408430E-02 -5.76849702483E-01
4.23500000000E+09 -5.25318988913E-02 -4.46390022225E-01 -6.01646380029E-04 +4.04531958116E-03 -5.67635505406E-04 +4.13638001256E-03 -2.26054942747E-03 -5.69073869167E-01
4.24000000000E+09 -6.91916342833E-02 -4.35270978010E-01 -5.73523680373E-04 +4.30341920982E-03 -5.78347472038E-04 +4.40681099354E-03 -2.45176517715E-02 -5.60697120191E-01
4.24500000000E+09 -8.66785323342E-02 -4.22398081810E-01 -5.60100477631E-05 +4.84332026370E-03 +3.31527702523E-06 +4.85802383576E-03 -4.65659047385E-02 -5.50805800107E-01
4.25000000000E+09 -1.05283555418E-01 -4.09933631789E-01 +6.52140565711E-04 +4.89305686037E-03 +7.19230427927E-04 +4.95807001160E-03 -6.81264634524E-02 -5.41063124528E-01
4.25500000000E+09 -1.24709063589E-01 -3.97517680319E-01 +1.27020319972E-03 +4.82169448649E-03 +1.33171042483E-03 +4.87620424494E-03 -9.09859514176E-02 -5.29667149256E-01
4.26000000000E+09 -1.44576618091E-01 -3.87239906143E-01 +1.58832555273E-03 +4.90363967023E-03 +1.62382205210E-03 +4.91606535449E-03 -1.11792356867E-01 -5.16286941553E-01
4.26500000000E+09 -1.65946650773E-01 -3.77136041331E-01 +2.53641245443E-03 +4.96887280883E-03 +2.50011584632E-03 +5.03454253269E-03 -1.31968389083E-01 -5.03179412630E-01
4.27000000000E+09 -1.85481473835E-01 -3.66039560094E-01 +3.26806811713E-03 +4.40142304159E-03 +3.34389287410E-03 +4.46048013386E-03 -1.52712257189E-01 -4.88162889395E-01
4.27500000000E+09 -2.02117075361E-01 -3.54623998807E-01 +3.83705267816E-03 +4.12457536344E-03 +3.91909640682E-03 +4.14412960758E-03 -1.72284251417E-01 -4.73009592248E-01
4.28000000000E+09 -2.15916273286E-01 -3.43353014186E-01 +4.33042681515E-03 +3.26645836875E-03 +4.41629910941E-03 +3.32061912431E-03 -1.92097732661E-01 -4.57022002807E-01
4.28500000000E+09 -2.29129353724E-01 -3.30556224435E-01 +4.22489872483E-03 +2.61283643795E-03 +4.33144044333E-03 +2.63148580594E-03 -2.11860482517E-01 -4.41189968900E-01
4.29000000000E+09 -2.39172177376E-01 -3.15566984213E-01 +4.24035946251E-03 +2.46003001592E-03 +4.39227100538E-03 +2.43369119894E-03 -2.30023139119E-01 -4.24252920112E-01
4.29500000000E+09 -2.50351037726E-01 -2.99793544674E-01 +4.28699385097E-03 +2.62671379857E-03 +4.37367184998E-03 +2.64205424464E-03 -2.48897772466E-01 -4.06860731788E-01
4.30000000000E+09 -2.62092537760E-01 -2.81702876977E-01 +5.33142503874E-03 +2.34511516780E-03 +5.45977893660E-03 +2.31433839965E-03 -2.65208573880E-01 -3.87220973194E-01
4.30500000000E+09 -2.74653681607E-01 -2.61600303004E-01 +5.96266908634E-03 +1.57119662639E-03 +6.04355702202E-03 +1.54158847788E-03 -2.80130583933E-01 -3.67948905785E-01
4.31000000000E+09 -2.87959932234E-01 -2.41915731594E-01 +6.51156381695E-03 +5.34388159843E-04 +6.65176774595E-03 +5.18637755001E-04 -2.95496908971E-01 -3.48470640593E-01
4.31500000000E+09 -3.02776150737E-01 -2.21835388332E-01 +6.20784204339E-03 -8.12915536091E-04 +6.40117053270E-03 -8.66038211477E-04 -3.10452635695E-01 -3.27489262668E-01
4.32000000000E+09 -3.16621930609E-01 -2.03035302059E-01 +5.42338453452E-03 -1.58546840788E-03 +5.56171349943E-03 -1.60089154416E-03 -3.23406581193E-01 -3.05657028515E-01
4.32500000000E+09 -3.30676900331E-01 -1.85862901684E-01 +4.80934487164E-03 -1.49145327846E-03 +4.91790721000E-03 -1.57414926753E-03 -3.35988034382E-01 -2.85105013789E-01
4.33000000000E+09 -3.42375755110E-01 -1.68685018819E-01 +5.34489002821E-03 -1.26355375891E-03 +5.47512511231E-03 -1.37638869105E-03 -3.48659962240E-01 -2.63560520125E-01
4.33500000000E+09 -3.50867602939E-01 -1.52378570858E-01 +5.67591312056E-03 -2.09541417863E-03 +5.64931943459E-03 -2.18508302706E-03 -3.60916018125E-01 -2.40150937390E-01
4.34000000000E+09 -3.57236021320E-01 -1.37042890398E-01 +5.83462808861E-03 -2.91912475244E-03 +5.81931519263E-03 -2.95809225056E-03 -3.71817627424E-01 -2.16663111870E-01
4.34500000000E+09 -3.62229803263E-01 -1.20146028658E-01 +5.58151389538E-03 -4.10947446441E-03 +5.65030429494E-03 -4.13073488976E-03 -3.82225218072E-01 -1.90805690340E-01
4.35000000000E+09 -3.64721161926E-01 -1.01558923825E-01 +4.61665934485E-03 -5.00492815941E-03 +4.60394027596E-03 -5.11539353834E-03 -3.89755093114E-01 -1.65963918401E-01
4.35500000000E+09 -3.67650328513E-01 -8.12339796817E-02 +4.15405649406E-03 -5.34554965306E-03 +4.16725728833E-03 -5.45030469989E-03 -3.97668008716E-01 -1.42919496193E-01
4.36000000000E+09 -3.70553513765E-01 -5.84152914114E-02 +3.39183845815E-03 -5.99191348757E-03 +3.32968176284E-03 -6.11850901229E-03 -4.04476634681E-01 -1.18719904076E-01
4.36500000000E+09 -3.73955637076E-01 -3.47282693360E-02 +2.26558163849E-03 -6.31751529024E-03 +2.25270057818E-03 -6.47538163956E-03 -4.10138457664E-01 -9.49051343527E-02
4.37000000000E+09 -3.79022723267E-01 -1.15709974513E-02 +1.52729396250E-03 -6.16608138843E-03 +1.46975414844E-03 -6.33244637220E-03 -4.14156722830E-01 -7.03910969026E-02
4.37500000000E+09 -3.84801326425E-01 +1.18369689825E-02 +8.29611320469E-04 -5.79893593941E-03 +7.12281820618E-04 -5.90946581032E-03 -4.17200526229E-01 -4.52446481091E-02
4.38000000000E+09 -3.90843722437E-01 +3.28512330118E-02 +8.53865921314E-04 -6.11018699286E-03 +6.98975403354E-04 -6.27670794837E-03 -4.19023163613E-01 -2.07835410446E-02
4.38500000000E+09 -3.96507432500E-01 +5.21592021441E-02 +4.93404727362E-04 -6.35755873900E-03 +2.81300025794E-04 -6.48522407454E-03 -4.21054813093E-01 +4.17630364061E-03
4.39000000000E+09 -4.00061765202E-01 +6.87491804843E-02 -5.39603070080E-04 -7.02337103819E-03 -8.29476378167E-04 -7.04496181416E-03 -4.21961681164E-01 +2.95465724353E-02
4.39500000000E+09 -4.02530831001E-01 +8.39234245458E-02 -1.84367850659E-03 -6.84260360134E-03 -2.04369544308E-03 -6.80713101103E-03 -4.21883266100E-01 +5.37022120642E-02
4.40000000000E+09 -4.02214770446E-01 +9.89666556036E-02 -2.55159815126E-03 -6.35681903596E-03 -2.72897266241E-03 -6.33940266711E-03 -4.20398006154E-01 +7.83128147280E-02
4.40500000000E+09 -3.99913391203E-01 +1.15032540866E-01 -3.56657254166E-03 -5.75195591451E-03 -3.70242597872E-03 -5.64921925444E-03 -4.17249491510E-01 +1.02070581741E-01
4.41000000000E+09 -3.94758200045E-01 +1.32342216381E-01 -3.57631608487E-03 -5.13618730890E-03 -3.69043496263E-03 -5.01176185791E-03 -4.13736503934E-01 +1.24738826316E-01
4.41500000000E+09 -3.89084880566E-01 +1.51488123399E-01 -4.29000615352E-03 -4.82259693895E-03 -4.36407672922E-03 -4.71614358151E-03 -4.09388001725E-01 +1.48819868439E-01
4.42000000000E+09 -3.83645017117E-01 +1.72534789784E-01 -4.61200987009E-03 -4.22546017110E-03 -4.71916156622E-03 -4.09781753914E-03 -4.04034027732E-01 +1.71130829770E-01
4.42500000000E+09 -3.78841591476E-01 +1.94975738308E-01 -4.83455002387E-03 -4.00982084264E-03 -4.92373716599E-03 -3.85633094381E-03 -3.98621869044E-01 +1.93810087424E-01
4.43000000000E+09 -3.74903289198E-01 +2.17597159417E-01 -5.24741690246E-03 -3.45872342702E-03 -5.14766980251E-03 -3.35110599332E-03 -3.93347020734E-01 +2.15626900661E-01
4.43500000000E+09 -3.72393160914E-01 +2.39204919970E-01 -6.02406984942E-03 -3.28079105652E-03 -5.91148442229E-03 -3.17569166615E-03 -3.87455598021E-01 +2.37981010805E-01
4.44000000000E+09 -3.70258759673E-01 +2.59096787277E-01 -6.35102534908E-03 -2.31332283919E-03 -6.25289119492E-03 -2.20114491583E-03 -3.79295614405E-01 +2.61323622400E-01
4.44500000000E+09 -3.68330825694E-01 +2.76066992061E-01 -6.49911994835E-03 -1.61717837570E-03 -6.42588478574E-03 -1.62820206273E-03 -3.69629484445E-01 +2.81318613931E-01
4.45000000000E+09 -3.65855366682E-01 +2.90653158654E-01 -7.00169516809E-03 -8.38349772310E-04 -6.96672542159E-03 -7.71122977909E-04 -3.60123834705E-01 +3.01178188816E-01
4.45500000000E+09 -3.61927711607E-01 +3.03717848857E-01 -6.93491687199E-03 +4.85892639949E-04 -6.87015436571E-03 +5.23663063601E-04 -3.49039437530E-01 +3.20019844620E-01
4.46000000000E+09 -3.56295833855E-01 +3.16432869960E-01 -6.27369812738E-03 +1.35201349140E-03 -6.21928342099E-03 +1.41149411100E-03 -3.40262238108E-01 +3.37693664445E-01
4.46500000000E+09 -3.47168466972E-01 +3.30286338480E-01 -5.76983974905E-03 +1.57162430289E-03 -5.71273173421E-03 +1.71101879964E-03 -3.28432739252E-01 +3.56929815830E-01
4.47000000000E+09 -3.35754158691E-01 +3.44756707757E-01 -5.49063164796E-03 +1.71036165756E-03 -5.46794958815E-03 +1.83952540951E-03 -3.16680982572E-01 +3.74380129972E-01
4.47500000000E+09 -3.22930468673E-01 +3.60751231515E-01 -6.16895260800E-03 +2.38761874169E-03 -6.05196854589E-03 +2.52302163976E-03 -3.04938258048E-01 +3.90885537528E-01
4.48000000000E+09 -3.10012305863E-01 +3.77895706142E-01 -5.46976069793E-03 +3.29695942841E-03 -5.33542446645E-03 +3.45539406232E-03 -2.92899592791E-01 +4.07867065398E-01
4.48500000000E+09 -2.97640889985E-01 +3.96047477126E-01 -4.93508260613E-03 +4.17072881236E-03 -4.74325079136E-03 +4.17754809140E-03 -2.80448760923E-01 +4.23926112663E-01
4.49000000000E+09 -2.87532294570E-01 +4.13349923497E-01 -4.32334965290E-03 +4.55875592118E-03 -4.18430526270E-03 +4.53679165616E-03 -2.66937660238E-01 +4.39549790694E-01
4.49500000000E+09 -2.79076105172E-01 +4.31720675876E-01 -3.42014679767E-03 +4.80855859757E-03 -3.26893185302E-03 +4.75632869187E-03 -2.53499417414E-01 +4.53121060634E-01
4.50000000000E+09 -2.71586050157E-01 +4.46844697739E-01 -2.87051714613E-03 +4.93148479986E-03 -2.84931791205E-03 +4.89505450492E-03 -2.40734518670E-01 +4.66713644910E-01
4.50500000000E+09 -2.65631235367E-01 +4.60303240405E-01 -2.19077530828E-03 +4.91263550113E-03 -2.11944311445E-03 +4.87902076783E-03 -2.27286677409E-01 +4.79696500471E-01
4.51000000000E+09 -2.58926641927E-01 +4.71701325020E-01 -1.94763078803E-03 +4.66941568661E-03 -1.87462754302E-03 +4.61002334106E-03 -2.14213885616E-01 +4.92441826863E-01
4.51500000000E+09 -2.50394381527E-01 +4.80680365021E-01 -1.79374325863E-03 +5.02586611332E-03 -1.66301763246E-03 +4.92706754533E-03 -2.00575517767E-01 +5.04776089377E-01
4.52000000000E+09 -2.40855490829E-01 +4.88008839455E-01 -1.45419304879E-03 +5.09313493908E-03 -1.37122594689E-03 +4.98695928434E-03 -1.86890605865E-01 +5.16619874183E-01
4.52500000000E+09 -2.29292899881E-01 +4.96011520105E-01 -9.54437469090E-04 +5.26841723918E-03 -8.65045667162E-04 +5.21303398477E-03 -1.73436576630E-01 +5.27041234299E-01
4.53000000000E+09 -2.15255913441E-01 +5.04355353134E-01 -6.07571192064E-04 +5.67616344683E-03 -4.81919114852E-04 +5.65360830274E-03 -1.59842046097E-01 +5.37933885400E-01
4.53500000000E+09 -1.99845165301E-01 +5.14011852360E-01 +2.69951765028E-04 +5.60062349091E-03 +4.19849448854E-04 +5.46784036105E-03 -1.45147433633E-01 +5.48263025840E-01
4.54000000000E+09 -1.84031803213E-01 +5.24715417110E-01 +8.79466881068E-04 +5.58691666929E-03 +1.02642084083E-03 +5.49157834528E-03 -1.30328207973E-01 +5.58170396470E-01
4.54500000000E+09 -1.68517843392E-01 +5.35772153567E-01 +1.25992009567E-03 +5.44332371395E-03 +1.35964248214E-03 +5.25626297528E-03 -1.15050433094E-01 +5.67387322487E-01
4.55000000000E+09 -1.55417853050E-01 +5.46610419407E-01 +2.25463894453E-03 +5.34756030170E-03 +2.27870502132E-03 +5.14190998057E-03 -1.00183271941E-01 +5.76300635466E-01
4.55500000000E+09 -1.44248976915E-01 +5.57534822649E-01 +2.64991956032E-03 +4.68846403507E-03 +2.66427585181E-03 +4.54251902964E-03 -8.59930937848E-02 +5.84518802460E-01
4.56000000000E+09 -1.34650755107E-01 +5.67600672811E-01 +2.72479644367E-03 +4.34139497921E-03 +2.71022989876E-03 +4.16131458485E-03 -7.15081448520E-02 +5.93342531583E-01
4.56500000000E+09 -1.26115930855E-01 +5.75583640202E-01 +3.21797123547E-03 +4.24051316720E-03 +3.22233885234E-03 +4.12406392145E-03 -5.67399060681E-02 +6.00718815263E-01
4.57000000000E+09 -1.17259486685E-01 +5.82556219012E-01 +3.35630837993E-03 +3.90812218529E-03 +3.33958633218E-03 +3.70867196481E-03 -4.19486648798E-02 +6.07804629422E-01
