# Hz S RI R 50
! CMT, C1220, 16058040, 17.2.0/1
! Date: 15/08/2018 12:01:00
! Data: Format (Calibration Info)
! Freq                      S11: Re/Im (F2)                       S21: Re/Im (F2)                       S12: Re/Im (F2)                       S22: Re/Im (F2)            
4.00000000000E+09 +6.66007656948E-01 -3.40429872659E-01 +7.92152662345E-04 -7.54004815542E-04 +8.37082825598E-04 -7.17161338962E-04 +7.76654902724E-01 -3.42660041800E-01
4.00500000000E+09 +6.58104951406E-01 -3.46750993813E-01 +6.57137795376E-04 -6.92779396972E-04 +6.80999621698E-04 -6.56488017128E-04 +7.68068947501E-01 -3.54291539334E-01
4.01000000000E+09 +6.49055703518E-01 -3.53265781715E-01 +6.57113516932E-04 -7.96815352588E-04 +6.76047065598E-04 -7.40489035452E-04 +7.58528383262E-01 -3.65593319285E-01
4.01500000000E+09 +6.38659930630E-01 -3.60140312789E-01 +5.92428816344E-04 -7.03220348143E-04 +6.24537686191E-04 -7.00349844777E-04 +7.48920255585E-01 -3.75994348022E-01
4.02000000000E+09 +6.27845450567E-01 -3.67094483270E-01 +6.11362199817E-04 -9.17202259233E-04 +7.10508736536E-04 -8.53626220248E-04 +7.39363002102E-01 -3.86364335770E-01
4.02500000000E+09 +6.17319883418E-01 -3.75847316164E-01 +5.13362810832E-04 -1.03635734001E-03 +5.63312477800E-04 -1.00945552465E-03 +7.29518331746E-01 -3.96926364410E-01
4.03000000000E+09 +6.06045021786E-01 -3.86262250283E-01 +2.90894607223E-04 -1.28970320289E-03 +3.52269208040E-04 -1.26346809114E-03 +7.18901722820E-01 -4.07359544341E-01
4.03500000000E+09 +5.94547480180E-01 -3.96939669235E-01 -9.23883972896E-05 -1.00277482006E-03 -4.86719811210E-05 -1.03026978316E-03 +7.07722802057E-01 -4.18015229695E-01
4.04000000000E+09 +5.83494630331E-01 -4.07808078263E-01 +9.96603541608E-05 -7.82465147405E-04 +1.52490203018E-04 -8.56252395406E-04 +6.96741533427E-01 -4.28717775558E-01
4.04500000000E+09 +5.72156529510E-01 -4.18183563560E-01 +5.94942093044E-05 -9.25890910699E-04 +6.31278158157E-05 -9.30905664499E-04 +6.85176913240E-01 -4.39500958856E-01
4.05000000000E+09 +5.60927942270E-01 -4.26722537464E-01 +6.45434212408E-05 -8.94882217837E-04 +1.37547661896E-04 -9.80689208467E-04 +6.73524930196E-01 -4.49478084279E-01
4.05500000000E+09 +5.49232217844E-01 -4.33669551154E-01 -2.46556546846E-05 -9.27364782762E-04 +1.05333888084E-06 -1.04742384611E-03 +6.61840787094E-01 -4.59100958959E-01
4.06000000000E+09 +5.37399627450E-01 -4.39143313221E-01 -1.17818428057E-04 -1.08213236205E-03 -1.26657909251E-04 -1.16587989032E-03 +6.49677921864E-01 -4.69039720266E-01
4.06500000000E+09 +5.24981453163E-01 -4.43744283649E-01 -3.12901712560E-04 -8.37022706961E-04 -3.90121917262E-04 -8.60701311256E-04 +6.36633224427E-01 -4.78227344394E-01
4.07000000000E+09 +5.11313619146E-01 -4.48179349404E-01 -1.50506825404E-04 -9.36894704440E-04 -1.76418260052E-04 -1.00587918638E-03 +6.22853312644E-01 -4.88129900290E-01
4.07500000000E+09 +4.96639094564E-01 -4.53320992877E-01 -3.84599601882E-04 -1.05084128770E-03 -4.34555019079E-04 -1.05151191400E-03 +6.08950086060E-01 -4.97449511388E-01
4.08000000000E+09 +4.80821474627E-01 -4.58646157671E-01 -4.68583110004E-04 -9.26378312538E-04 -5.00688739784E-04 -9.36422652221E-04 +5.95119557972E-01 -5.06670165764E-01
4.08500000000E+09 +4.64928106273E-01 -4.64816921945E-01 -5.97542830244E-04 -8.36543477996E-04 -6.33180263215E-04 -8.81066168231E-04 +5.80799334263E-01 -5.15876414523E-01
4.09000000000E+09 +4.48438655876E-01 -4.71939049447E-01 -5.46955823874E-04 -7.59471556383E-04 -5.40650716701E-04 -7.71906179318E-04 +5.66508923316E-01 -5.23754049996E-01
4.09500000000E+09 +4.32684010764E-01 -4.78968676237E-01 -5.43555182156E-04 -7.36544804921E-04 -5.28177880023E-04 -7.39806146511E-04 +5.52178988084E-01 -5.32029916044E-01
4.10000000000E+09 +4.16489242117E-01 -4.85584926027E-01 -4.94561064163E-04 -9.34363114987E-04 -5.02811690475E-04 -9.76834580383E-04 +5.36609729029E-01 -5.40124759201E-01
4.10500000000E+09 +4.00935410137E-01 -4.90773715171E-01 -7.73122825089E-04 -9.56631499463E-04 -7.59996369357E-04 -9.77179401196E-04 +5.20055648716E-01 -5.47892844472E-01
4.11000000000E+09 +3.85246407110E-01 -4.94382920961E-01 -9.28917940231E-04 -9.68481549348E-04 -8.94862885948E-04 -9.74954866389E-04 +5.02710137258E-01 -5.55722794607E-01
4.11500000000E+09 +3.70085366702E-01 -4.96092303592E-01 -1.22038720020E-03 -7.55709320026E-04 -1.14086232933E-03 -8.00632406458E-04 +4.85332818630E-01 -5.62561885150E-01
4.12000000000E+09 +3.54767097761E-01 -4.96813070524E-01 -1.18236208806E-03 -6.41531130878E-04 -1.17240446723E-03 -6.47879514768E-04 +4.68012228914E-01 -5.68798132937E-01
4.12500000000E+09 +3.38937154697E-01 -4.97685591667E-01 -1.26842701036E-03 -5.23534051775E-04 -1.27623875847E-03 -5.74633585486E-04 +4.50848084538E-01 -5.74737313219E-01
4.13000000000E+09 +3.20670389899E-01 -4.99000593088E-01 -1.29751793261E-03 -5.47953216548E-04 -1.38171375172E-03 -6.23751336420E-04 +4.33692712096E-01 -5.80413638554E-01
4.13500000000E+09 +3.01783061118E-01 -4.99915710429E-01 -1.52282890575E-03 -3.25870633666E-04 -1.52421872001E-03 -3.76729727093E-04 +4.15019648260E-01 -5.86119271735E-01
4.14000000000E+09 +2.83019487957E-01 -5.02433806856E-01 -1.46913177344E-03 -1.30481533259E-04 -1.54289470016E-03 -1.63558506276E-04 +3.95896851167E-01 -5.90895584665E-01
4.14500000000E+09 +2.63549822037E-01 -5.06094567176E-01 -1.46651119786E-03 +2.77764030676E-05 -1.48231872814E-03 -3.93067330337E-05 +3.77017157112E-01 -5.95888556904E-01
4.15000000000E+09 +2.43916231874E-01 -5.10793749575E-01 -1.50719447888E-03 +7.64117463363E-05 -1.57493178824E-03 +4.19076675790E-05 +3.56838406716E-01 -6.00863282339E-01
4.15500000000E+09 +2.24325482330E-01 -5.14594631802E-01 -1.57370166664E-03 +1.36214068024E-04 -1.65624407345E-03 +1.23391883408E-04 +3.37437195022E-01 -6.03733905531E-01
4.16000000000E+09 +2.05766051500E-01 -5.17407418312E-01 -1.73151664290E-03 +3.77893896225E-04 -1.80321195585E-03 +3.99797884899E-04 +3.18085651652E-01 -6.06500900411E-01
4.16500000000E+09 +1.88495655984E-01 -5.17881051546E-01 -1.69022070215E-03 +7.22132960385E-04 -1.77222944974E-03 +7.43732102222E-04 +2.97346131288E-01 -6.07989612807E-01
4.17000000000E+09 +1.72447202156E-01 -5.16691032928E-01 -1.47049968583E-03 +9.45860445442E-04 -1.56653693533E-03 +9.07394415008E-04 +2.77640642205E-01 -6.08287086060E-01
4.17500000000E+09 +1.56440154313E-01 -5.13523430914E-01 -1.42220854653E-03 +1.29486156412E-03 -1.50854661601E-03 +1.29024658120E-03 +2.56829184268E-01 -6.08886893283E-01
4.18000000000E+09 +1.40705538196E-01 -5.09450542711E-01 -7.68708300329E-04 +1.23462909929E-03 -8.68675797914E-04 +1.29749690546E-03 +2.36451115268E-01 -6.09211184389E-01
4.18500000000E+09 +1.23420303625E-01 -5.04560907473E-01 -8.27446386809E-04 +7.73970278794E-04 -8.92230329019E-04 +8.21833962672E-04 +2.15043731104E-01 -6.09899283020E-01
4.19000000000E+09 +1.04886092745E-01 -4.98963705362E-01 -1.05514973147E-03 +7.47247111908E-04 -1.14309391390E-03 +7.23127930525E-04 +1.92961236043E-01 -6.08715943506E-01
4.19500000000E+09 +8.58269928165E-02 -4.93259939472E-01 -1.32721703672E-03 +1.21025430465E-03 -1.36151875165E-03 +1.27046191522E-03 +1.71937921047E-01 -6.06734489078E-01
4.20000000000E+09 +6.62709069264E-02 -4.89037696362E-01 -1.22340886081E-03 +1.40294328502E-03 -1.31216596398E-03 +1.43356910472E-03 +1.50295758292E-01 -6.04588170556E-01
4.20500000000E+09 +4.62941434248E-02 -4.85485799346E-01 -1.19799864481E-03 +1.98104300922E-03 -1.22202496982E-03 +2.09744194032E-03 +1.27795886105E-01 -6.01213443377E-01
4.21000000000E+09 +2.71394866473E-02 -4.82031402730E-01 -5.39196317549E-04 +1.91100047118E-03 -5.77630196589E-04 +1.96434476126E-03 +1.05516161180E-01 -5.97021147724E-01
4.21500000000E+09 +8.26839180999E-03 -4.78598276958E-01 -4.97578060026E-04 +1.72634649571E-03 -5.53752607657E-04 +1.78501919387E-03 +8.29794004279E-02 -5.92413224998E-01
4.22000000000E+09 -9.12902172591E-03 -4.73433841921E-01 -7.61360270504E-04 +2.07633398351E-03 -7.67303542858E-04 +2.10463381822E-03 +6.17597426939E-02 -5.86981027285E-01
4.22500000000E+09 -2.54037505817E-02 -4.65927347170E-01 -5.27939189552E-05 +2.49159519864E-03 -6.38442207249E-05 +2.53736879185E-03 +4.06580826185E-02 -5.81828914133E-01
4.23000000000E+09 -3.99178040572E-02 -4.57648689516E-01 +1.88582537191E-04 +1.92200093568E-03 +2.49890026572E-04 +1.97231309256E-03 +1.88510071327E-02 -5.75696042517E-01
4.23500000000E+09 -5.50358357025E-02 -4.47627068189E-01 +1.63727527447E-04 +2.00271132942E-03 +2.31830022861E-04 +2.06549120767E-03 -2.47793709852E-03 -5.67830097445E-01
4.24000000000E+09 -7.15419640995E-02 -4.36425729012E-01 +1.34407363507E-04 +2.22426499886E-03 +1.92808607379E-04 +2.28374493138E-03 -2.45207723709E-02 -5.59519851459E-01
4.24500000000E+09 -8.89788647354E-02 -4.23515341578E-01 +6.83544313397E-04 +2.44574059141E-03 +6.92960322634E-04 +2.50392017974E-03 -4.65838831310E-02 -5.49715127047E-01
4.25000000000E+09 -1.07854961171E-01 -4.11019946050E-01 +9.39589776733E-04 +2.22496736719E-03 +1.00698095489E-03 +2.21075299121E-03 -6.81181277872E-02 -5.39827511355E-01
4.25500000000E+09 -1.27848744268E-01 -3.98798658985E-01 +1.25638058720E-03 +2.23920166751E-03 +1.21694303515E-03 +2.27982188536E-03 -9.05570965473E-02 -5.28248984437E-01
4.26000000000E+09 -1.48266581411E-01 -3.87703093082E-01 +1.33370689901E-03 +2.11530123191E-03 +1.41950025548E-03 +2.15016432918E-03 -1.10853562130E-01 -5.15174153390E-01
4.26500000000E+09 -1.69217460630E-01 -3.76983087685E-01 +1.83093523127E-03 +2.08350498562E-03 +1.86297916198E-03 +2.12451523727E-03 -1.30577667310E-01 -5.02405389894E-01
4.27000000000E+09 -1.88254266124E-01 -3.65965009094E-01 +1.99022029798E-03 +1.79765642433E-03 +2.03773887344E-03 +1.82531414661E-03 -1.50995808652E-01 -4.88091644233E-01
4.27500000000E+09 -2.04893445504E-01 -3.54827942064E-01 +2.31783479317E-03 +1.70316747216E-03 +2.39441645316E-03 +1.70086801580E-03 -1.70847720399E-01 -4.73330378506E-01
4.28000000000E+09 -2.18732466759E-01 -3.43117420758E-01 +2.67344795416E-03 +1.13487035710E-03 +2.68738525496E-03 +1.20449304347E-03 -1.90943066973E-01 -4.57665998837E-01
4.28500000000E+09 -2.31650552113E-01 -3.30194388248E-01 +2.38378325244E-03 +7.08872217282E-04 +2.45824389163E-03 +7.02570154261E-04 -2.10748245584E-01 -4.41623948112E-01
4.29000000000E+09 -2.42159438385E-01 -3.14697332000E-01 +2.44814240691E-03 +7.21798073250E-04 +2.45400759698E-03 +7.13729057133E-04 -2.28780823318E-01 -4.24970435550E-01
4.29500000000E+09 -2.53156947464E-01 -2.97971667737E-01 +2.26159977014E-03 +8.49697643874E-04 +2.31093155137E-03 +8.78072233500E-04 -2.47731104760E-01 -4.08086746711E-01
4.30000000000E+09 -2.64480549188E-01 -2.79059712924E-01 +3.03021666686E-03 +7.88709965502E-04 +3.04783087203E-03 +8.23766712699E-04 -2.64142618799E-01 -3.88685537063E-01
4.30500000000E+09 -2.76461864647E-01 -2.58605355558E-01 +3.32867105513E-03 +1.02571611376E-04 +3.37120767243E-03 +9.59554591390E-05 -2.79440908052E-01 -3.69839751279E-01
4.31000000000E+09 -2.89854784740E-01 -2.38611645090E-01 +3.40918956468E-03 -2.17511500640E-04 +3.47201874443E-03 -1.79777268924E-04 -2.95093207223E-01 -3.50252589887E-01
4.31500000000E+09 -3.04317808133E-01 -2.18331378435E-01 +3.51212091318E-03 -1.12486847123E-03 +3.64042239925E-03 -1.10031711850E-03 -3.10014475117E-01 -3.29814864151E-01
4.32000000000E+09 -3.18246663610E-01 -1.99330578432E-01 +2.74277315127E-03 -1.77969205706E-03 +2.91961953070E-03 -1.84194016794E-03 -3.23737280073E-01 -3.08572558429E-01
4.32500000000E+09 -3.31710167028E-01 -1.81885330734E-01 +2.09556106728E-03 -1.62105580910E-03 +2.16816251361E-03 -1.64041007421E-03 -3.37298248818E-01 -2.87742704310E-01
4.33000000000E+09 -3.42906415195E-01 -1.65138107117E-01 +2.35891415055E-03 -1.05585835623E-03 +2.42377187286E-03 -1.21081657197E-03 -3.50522745730E-01 -2.65280200824E-01
4.33500000000E+09 -3.51217836182E-01 -1.49320181725E-01 +2.64437049919E-03 -1.38377789654E-03 +2.63235869211E-03 -1.44540844944E-03 -3.62356182400E-01 -2.41552877423E-01
4.34000000000E+09 -3.57589704509E-01 -1.34213823614E-01 +2.98235050975E-03 -1.77425110764E-03 +3.00511632101E-03 -1.83873605299E-03 -3.73358988852E-01 -2.18012581322E-01
4.34500000000E+09 -3.62188850729E-01 -1.17208709660E-01 +2.95184087780E-03 -2.87147937350E-03 +2.98375002543E-03 -2.87709942607E-03 -3.83869286528E-01 -1.92298405521E-01
4.35000000000E+09 -3.64375311976E-01 -9.81172426105E-02 +2.03963456018E-03 -3.43392623750E-03 +2.03358831141E-03 -3.51300964500E-03 -3.91755026743E-01 -1.67578558643E-01
4.35500000000E+09 -3.66135834251E-01 -7.78973723713E-02 +1.69037904683E-03 -3.51531022199E-03 +1.68317964825E-03 -3.60737302827E-03 -4.00223916065E-01 -1.43721589673E-01
4.36000000000E+09 -3.68486573489E-01 -5.57530485037E-02 +1.17610246095E-03 -3.79185059429E-03 +1.10193924330E-03 -3.93115050832E-03 -4.06661875133E-01 -1.19316632396E-01
4.36500000000E+09 -3.72045995110E-01 -3.21115557185E-02 +3.73863513923E-04 -3.79633051618E-03 +3.22710472359E-04 -3.86283514402E-03 -4.12469807573E-01 -9.53548565491E-02
4.37000000000E+09 -3.76959075662E-01 -9.00495266360E-03 +1.85381902989E-05 -3.46111253925E-03 -3.74393466524E-05 -3.51164389470E-03 -4.16443579933E-01 -7.06768919208E-02
4.37500000000E+09 -3.83067627620E-01 +1.46441863157E-02 -9.75491782964E-05 -3.28649493818E-03 -1.57619101410E-04 -3.31363303669E-03 -4.19499757071E-01 -4.59466206463E-02
4.38000000000E+09 -3.88992163058E-01 +3.64292529793E-02 -7.99336287477E-05 -3.63464634988E-03 -1.60612693944E-04 -3.63646001589E-03 -4.22096813197E-01 -2.11668023241E-02
4.38500000000E+09 -3.94016692625E-01 +5.55772186874E-02 -3.01827648421E-04 -3.75283303756E-03 -4.73982104651E-04 -3.73406735218E-03 -4.24552573977E-01 +4.44756515458E-03
4.39000000000E+09 -3.97299526053E-01 +7.22813708316E-02 -1.13456555400E-03 -4.27112118787E-03 -1.21442050856E-03 -4.34013702792E-03 -4.25256018116E-01 +3.03169589351E-02
4.39500000000E+09 -3.99430027730E-01 +8.68601248399E-02 -2.24190034041E-03 -3.99961579743E-03 -2.37546711301E-03 -3.94707467591E-03 -4.25081078261E-01 +5.48354183392E-02
4.40000000000E+09 -3.99524913929E-01 +1.01500742892E-01 -2.58416360120E-03 -3.23029194979E-03 -2.64059355197E-03 -3.17652399063E-03 -4.23598254706E-01 +7.99544708577E-02
4.40500000000E+09 -3.96995985011E-01 +1.17477874531E-01 -2.90772470687E-03 -2.73136547874E-03 -3.00920846953E-03 -2.69713040996E-03 -4.20375330589E-01 +1.04033592171E-01
4.41000000000E+09 -3.91880017112E-01 +1.34753065509E-01 -2.87734839205E-03 -2.52301358371E-03 -2.94241879422E-03 -2.48346604518E-03 -4.16773405286E-01 +1.27545410224E-01
4.41500000000E+09 -3.85810064035E-01 +1.53657164579E-01 -3.39053658199E-03 -2.12120827292E-03 -3.44650548719E-03 -1.96770035576E-03 -4.12012238057E-01 +1.51867517697E-01
4.42000000000E+09 -3.80230295366E-01 +1.74840625072E-01 -3.42145960682E-03 -1.76358597396E-03 -3.43216201198E-03 -1.69926900953E-03 -4.06528409801E-01 +1.74649513099E-01
4.42500000000E+09 -3.74500519102E-01 +1.97018187438E-01 -3.86763066424E-03 -1.49410914300E-03 -3.85794809416E-03 -1.41010620212E-03 -4.00761263512E-01 +1.98145422161E-01
4.43000000000E+09 -3.70311338640E-01 +2.18765843569E-01 -3.69823157394E-03 -7.44355662259E-04 -3.67034201204E-03 -6.49265273045E-04 -3.94077460416E-01 +2.20380763310E-01
4.43500000000E+09 -3.67970316422E-01 +2.39932709507E-01 -3.88102570202E-03 -6.32309399385E-04 -3.83674621405E-03 -5.75242442695E-04 -3.87253212934E-01 +2.42263660471E-01
4.44000000000E+09 -3.65987044208E-01 +2.59405963059E-01 -3.95668451424E-03 -7.70909677294E-05 -3.90540841114E-03 -4.95511674731E-05 -3.78965518795E-01 +2.65072907101E-01
4.44500000000E+09 -3.64406792948E-01 +2.76544465018E-01 -3.78484701724E-03 +4.36806839337E-04 -3.75742098062E-03 +4.30391537877E-04 -3.69274738172E-01 +2.84999241990E-01
4.45000000000E+09 -3.61924896166E-01 +2.91510612649E-01 -3.87999379122E-03 +7.66353575126E-04 -3.84531260112E-03 +8.46585644516E-04 -3.59407407920E-01 +3.05227084487E-01
4.45500000000E+09 -3.57536513359E-01 +3.04863583273E-01 -3.83550263112E-03 +1.49220744363E-03 -3.74481505855E-03 +1.57559151467E-03 -3.48157530820E-01 +3.24007134130E-01
4.46000000000E+09 -3.51246298575E-01 +3.17071287070E-01 -3.07089187055E-03 +2.01349525197E-03 -2.96236129862E-03 +2.09242120928E-03 -3.38562836081E-01 +3.41506208823E-01
4.46500000000E+09 -3.42208511386E-01 +3.30217494141E-01 -2.59076106117E-03 +2.00365554495E-03 -2.51148357841E-03 +2.10223714470E-03 -3.26668465391E-01 +3.60457372332E-01
4.47000000000E+09 -3.31226839753E-01 +3.44022905945E-01 -2.35201413777E-03 +1.68817991053E-03 -2.28948207241E-03 +1.71338886915E-03 -3.14412964585E-01 +3.77826034501E-01
4.47500000000E+09 -3.19233315375E-01 +3.60069939975E-01 -3.06897131011E-03 +1.98622128495E-03 -2.97024050456E-03 +2.02073891100E-03 -3.02182771297E-01 +3.94050535870E-01
4.48000000000E+09 -3.06467885655E-01 +3.77758860980E-01 -2.41851702712E-03 +2.72367514125E-03 -2.33105205178E-03 +2.77179852382E-03 -2.90074484705E-01 +4.10324193511E-01
4.48500000000E+09 -2.93619130536E-01 +3.95894555044E-01 -2.06086179256E-03 +3.03945180615E-03 -1.93631980874E-03 +3.08494976033E-03 -2.77559385784E-01 +4.25978198576E-01
4.49000000000E+09 -2.83224391931E-01 +4.12943452905E-01 -1.67570064405E-03 +3.28303398659E-03 -1.55738625330E-03 +3.21734722369E-03 -2.64407045217E-01 +4.41570712477E-01
4.49500000000E+09 -2.74885716273E-01 +4.30384915360E-01 -9.88137003983E-04 +3.29131828038E-03 -9.11067039677E-04 +3.21430626668E-03 -2.51075045007E-01 +4.55442386885E-01
4.50000000000E+09 -2.67392293259E-01 +4.45286830295E-01 -7.35273393160E-04 +3.13492298630E-03 -7.05084463027E-04 +3.07228674822E-03 -2.38015026583E-01 +4.68935479376E-01
4.50500000000E+09 -2.61791926519E-01 +4.58166820160E-01 -3.88292415037E-04 +3.03900402699E-03 -3.29497255001E-04 +2.98319018471E-03 -2.24120272383E-01 +4.82183879870E-01
4.51000000000E+09 -2.55528889595E-01 +4.69479240959E-01 -2.99074783340E-04 +2.88417172869E-03 -2.70308656906E-04 +2.87257098921E-03 -2.10421453869E-01 +4.94418508892E-01
4.51500000000E+09 -2.47072127516E-01 +4.78561841014E-01 +4.43588354873E-05 +2.98217817670E-03 +8.69816854306E-05 +2.95845162894E-03 -1.96597074695E-01 +5.06065920389E-01
4.52000000000E+09 -2.37340837241E-01 +4.85956648719E-01 -4.89194712588E-05 +2.85564251174E-03 +5.67165290608E-05 +2.70859773553E-03 -1.82952319195E-01 +5.17610621032E-01
4.52500000000E+09 -2.25885797148E-01 +4.93726632149E-01 +1.41998269592E-04 +2.97435079914E-03 +1.94760026898E-04 +2.92427709984E-03 -1.69636307922E-01 +5.28041207796E-01
4.53000000000E+09 -2.12079597551E-01 +5.02225421483E-01 +4.60524751598E-04 +3.38741494008E-03 +4.89350587474E-04 +3.28365159158E-03 -1.55811454238E-01 +5.38615202473E-01
4.53500000000E+09 -1.96624963375E-01 +5.11723011409E-01 +1.14478471793E-03 +3.16904357308E-03 +1.19356924274E-03 +3.01742077066E-03 -1.41006866692E-01 +5.48580539424E-01
4.54000000000E+09 -1.80864700085E-01 +5.22382869989E-01 +1.46490456809E-03 +2.95744072938E-03 +1.45388999927E-03 +2.89279970458E-03 -1.26127242379E-01 +5.58111670430E-01
4.54500000000E+09 -1.65558791795E-01 +5.33339469021E-01 +1.61757360122E-03 +2.68887557897E-03 +1.64393911492E-03 +2.58314302955E-03 -1.10909826330E-01 +5.66881355275E-01
4.55000000000E+09 -1.52660248382E-01 +5.44022763869E-01 +2.07543296604E-03 +2.58005088749E-03 +2.03516217636E-03 +2.51106633423E-03 -9.62539930789E-02 +5.75208954188E-01
4.55500000000E+09 -1.41725642341E-01 +5.54705390150E-01 +2.23986019890E-03 +2.12650597928E-03 +2.19423732412E-03 +2.00915039449E-03 -8.24197983276E-02 +5.83251076883E-01
4.56000000000E+09 -1.32385323077E-01 +5.64691862886E-01 +2.15903221103E-03 +2.06246517885E-03 +2.11624264162E-03 +1.90941514409E-03 -6.79865468742E-02 +5.91641861858E-01
4.56500000000E+09 -1.23922486029E-01 +5.72768241325E-01 +2.59137194755E-03 +1.95274945093E-03 +2.54537790032E-03 +1.85848836802E-03 -5.37152702461E-02 +5.98885388132E-01
4.57000000000E+09 -1.15113832087E-01 +5.79775489499E-01 +2.62771077848E-03 +1.53018374979E-03 +2.53655385373E-03 +1.49928989615E-03 -3.92400350574E-02 +6.05975351709E-01
