# Hz S RI R 50
! CMT, C1220, 16058040, 17.2.0/1
! Date: 15/08/2018 12:04:22
! Data: Format (Calibration Info)
! Freq                      S11: Re/Im (F2)                       S21: Re/Im (F2)                       S12: Re/Im (F2)                       S22: Re/Im (F2)            
4.00000000000E+09 +6.67561548949E-01 -3.39381255990E-01 +1.25268612076E-03 -6.72815487245E-04 +1.33333722874E-03 -6.21344336236E-04 +7.77800534803E-01 -3.39732715427E-01
4.00500000000E+09 +6.59691338264E-01 -3.45711154618E-01 +1.19871336055E-03 -7.58868422212E-04 +1.26819916669E-03 -6.17793866272E-04 +7.69135816369E-01 -3.51424683579E-01
4.01000000000E+09 +6.50588150240E-01 -3.52131118479E-01 +1.07176976784E-03 -8.06458017659E-04 +1.15867558793E-03 -7.36210913064E-04 +7.59561484001E-01 -3.62827005408E-01
4.01500000000E+09 +6.40210995346E-01 -3.58827355466E-01 +1.11987609639E-03 -7.51065679198E-04 +1.23200710784E-03 -6.77641338156E-04 +7.50029877768E-01 -3.73124562754E-01
4.02000000000E+09 +6.29583814322E-01 -3.65710411191E-01 +1.22074417336E-03 -1.06750578367E-03 +1.33283027544E-03 -1.01206530413E-03 +7.40416919636E-01 -3.83642245684E-01
4.02500000000E+09 +6.18861459699E-01 -3.74534325369E-01 +1.12572237855E-03 -1.25427263244E-03 +1.23742496067E-03 -1.28789742205E-03 +7.30298856922E-01 -3.94041302280E-01
4.03000000000E+09 +6.07502940247E-01 -3.85093097681E-01 +7.24274481018E-04 -1.59802614279E-03 +8.57400933257E-04 -1.58813881622E-03 +7.20019428726E-01 -4.04186350982E-01
4.03500000000E+09 +5.95956769084E-01 -3.95877800460E-01 +3.58709747405E-04 -1.31789292512E-03 +4.84726356247E-04 -1.34360565311E-03 +7.08950645384E-01 -4.15026195952E-01
4.04000000000E+09 +5.84515931042E-01 -4.07012825040E-01 +4.38840565763E-04 -1.21074184066E-03 +5.15630777108E-04 -1.25186254117E-03 +6.98175970866E-01 -4.25811145634E-01
4.04500000000E+09 +5.73207796395E-01 -4.17261640606E-01 +3.09243363489E-04 -1.18473377796E-03 +4.15485928698E-04 -1.27850644139E-03 +6.86730056171E-01 -4.36532427843E-01
4.05000000000E+09 +5.62229659573E-01 -4.26027009535E-01 +4.27803967865E-04 -1.21874328717E-03 +4.76237773512E-04 -1.23705810415E-03 +6.75270497890E-01 -4.46533988920E-01
4.05500000000E+09 +5.50755156649E-01 -4.33217000249E-01 +4.70651592382E-04 -1.37828753409E-03 +4.99649150966E-04 -1.54774711687E-03 +6.63734505011E-01 -4.56327808507E-01
4.06000000000E+09 +5.39011088723E-01 -4.39036213345E-01 +2.66721433881E-04 -1.50485302201E-03 +2.75772359206E-04 -1.65191670786E-03 +6.51422952689E-01 -4.66306011159E-01
4.06500000000E+09 +5.26561767338E-01 -4.43692841197E-01 -4.10555170889E-06 -1.44365655738E-03 +2.43997139289E-05 -1.55818117646E-03 +6.38389363435E-01 -4.75466094554E-01
4.07000000000E+09 +5.13041793572E-01 -4.47967511261E-01 +3.11518413168E-05 -1.57611663639E-03 +2.55128286240E-05 -1.64129553713E-03 +6.24704818935E-01 -4.85420222702E-01
4.07500000000E+09 +4.98692550360E-01 -4.53105611803E-01 -2.79477252810E-04 -1.63669845077E-03 -2.20947889146E-04 -1.70897213454E-03 +6.10833347265E-01 -4.94658750646E-01
4.08000000000E+09 +4.83185005680E-01 -4.58579059637E-01 -4.66039884186E-04 -1.54650737321E-03 -4.41002812046E-04 -1.63767573436E-03 +5.97435547251E-01 -5.04123059151E-01
4.08500000000E+09 +4.67035825756E-01 -4.65017427272E-01 -6.59391899228E-04 -1.35684883292E-03 -6.91516010370E-04 -1.39418953335E-03 +5.83270813799E-01 -5.13766753341E-01
4.09000000000E+09 +4.50454111468E-01 -4.72106011743E-01 -3.86589878991E-04 -1.32986978396E-03 -4.11144136499E-04 -1.34537222590E-03 +5.68874733760E-01 -5.21775320404E-01
4.09500000000E+09 +4.34464891678E-01 -4.79147756644E-01 -4.31891291724E-04 -1.44936657781E-03 -4.89489081249E-04 -1.46879634918E-03 +5.54533274745E-01 -5.29955576446E-01
4.10000000000E+09 +4.18152419305E-01 -4.85961702337E-01 -5.64021393761E-04 -1.73577614407E-03 -5.78754222080E-04 -1.71677199159E-03 +5.38896237519E-01 -5.38275073197E-01
4.10500000000E+09 +4.02638621204E-01 -4.91503605993E-01 -9.89316487065E-04 -1.73358730297E-03 -9.62608729755E-04 -1.72626996428E-03 +5.22221800372E-01 -5.46200039344E-01
4.11000000000E+09 +3.86835047826E-01 -4.95378289328E-01 -1.24050062945E-03 -1.63366379142E-03 -1.19190645018E-03 -1.70077877102E-03 +5.04867059877E-01 -5.53912074526E-01
4.11500000000E+09 +3.71659837449E-01 -4.97536810487E-01 -1.57421424611E-03 -1.38602393476E-03 -1.53862002494E-03 -1.41101182079E-03 +4.87491190184E-01 -5.60945691586E-01
4.12000000000E+09 +3.56049823424E-01 -4.98509420977E-01 -1.52423102585E-03 -1.19864437620E-03 -1.47397582874E-03 -1.20924222773E-03 +4.70314320256E-01 -5.67328184575E-01
4.12500000000E+09 +3.40291923651E-01 -4.99469254525E-01 -1.63390485361E-03 -1.13006055563E-03 -1.66000165279E-03 -1.14958171495E-03 +4.53085190893E-01 -5.73495541335E-01
4.13000000000E+09 +3.22308365721E-01 -5.00878263412E-01 -1.71843953547E-03 -1.14725689853E-03 -1.68859504540E-03 -1.23242100518E-03 +4.35720832766E-01 -5.79103235359E-01
4.13500000000E+09 +3.03568790561E-01 -5.01945321222E-01 -2.06114083182E-03 -9.52961998602E-04 -2.04042736729E-03 -1.08877006533E-03 +4.17184582319E-01 -5.84772984613E-01
4.14000000000E+09 +2.84656567342E-01 -5.04549636242E-01 -2.19942846689E-03 -7.09965602495E-04 -2.16031115751E-03 -8.40263940192E-04 +3.98127169217E-01 -5.89555364367E-01
4.14500000000E+09 +2.65159886692E-01 -5.08416356069E-01 -2.23467818429E-03 -4.50318409282E-04 -2.22261729687E-03 -5.53333831842E-04 +3.79268758218E-01 -5.94506304840E-01
4.15000000000E+09 +2.45055600296E-01 -5.13009763546E-01 -2.36798166279E-03 -2.73657227569E-04 -2.37991869765E-03 -4.58013276170E-04 +3.59256042619E-01 -5.99508223908E-01
4.15500000000E+09 +2.25350992289E-01 -5.16803583458E-01 -2.37377555118E-03 -2.03448151618E-05 -2.44458437476E-03 -1.92641635208E-04 +3.39991638294E-01 -6.02576029224E-01
4.16000000000E+09 +2.06466181120E-01 -5.19682924443E-01 -2.50292185047E-03 +1.95687175198E-04 -2.64733224017E-03 +7.94979233858E-05 +3.20593985626E-01 -6.05745557505E-01
4.16500000000E+09 +1.88937718881E-01 -5.20314402854E-01 -2.60414352373E-03 +5.60005346013E-04 -2.68161778514E-03 +4.88212057990E-04 +2.99882148909E-01 -6.07435300788E-01
4.17000000000E+09 +1.72555777313E-01 -5.19300174038E-01 -2.41884279659E-03 +8.19853977019E-04 -2.60119617554E-03 +7.38732192393E-04 +2.80076066246E-01 -6.07921087261E-01
4.17500000000E+09 +1.56116142745E-01 -5.16239910957E-01 -2.48058306300E-03 +1.39849659528E-03 -2.64168292408E-03 +1.35626769474E-03 +2.59324683551E-01 -6.08607742266E-01
4.18000000000E+09 +1.40134869136E-01 -5.12061444176E-01 -1.72368351307E-03 +1.52462882743E-03 -1.90196679235E-03 +1.55716152968E-03 +2.38648823022E-01 -6.09333876343E-01
4.18500000000E+09 +1.22875089127E-01 -5.07335075625E-01 -1.74050348345E-03 +1.13348044244E-03 -1.90075656378E-03 +1.15476249722E-03 +2.16736990349E-01 -6.10125204832E-01
4.19000000000E+09 +1.04246155511E-01 -5.01943519438E-01 -2.00875530680E-03 +1.23827793701E-03 -2.10588753391E-03 +1.28618620727E-03 +1.94474120104E-01 -6.08742182840E-01
4.19500000000E+09 +8.51187346396E-02 -4.96426010979E-01 -2.15711351424E-03 +1.81936743639E-03 -2.24358767650E-03 +1.83003428646E-03 +1.73324281247E-01 -6.06561763934E-01
4.20000000000E+09 +6.51578324187E-02 -4.92299108168E-01 -1.90556662658E-03 +1.96309907037E-03 -2.03714399305E-03 +2.12140870752E-03 +1.51826108221E-01 -6.04211494185E-01
4.20500000000E+09 +4.50800101312E-02 -4.88448994453E-01 -1.75170176582E-03 +2.46497602204E-03 -1.84977677919E-03 +2.62917243541E-03 +1.29592931274E-01 -6.01027405758E-01
4.21000000000E+09 +2.57381202380E-02 -4.84998287164E-01 -1.21729536833E-03 +2.38166672346E-03 -1.21710964444E-03 +2.56584295033E-03 +1.07206826935E-01 -5.97149338318E-01
4.21500000000E+09 +6.69033898985E-03 -4.81325357785E-01 -1.23564026432E-03 +2.40182547898E-03 -1.22911870227E-03 +2.53582793916E-03 +8.45369146845E-02 -5.92411506045E-01
4.22000000000E+09 -1.10572162582E-02 -4.76282261501E-01 -1.19649444248E-03 +2.82241732886E-03 -1.16614623619E-03 +2.98562192280E-03 +6.31918830973E-02 -5.87088676486E-01
4.22500000000E+09 -2.74960811878E-02 -4.69157712343E-01 -6.15930195979E-04 +3.13244701203E-03 -5.20321237538E-04 +3.22574672368E-03 +4.17890372641E-02 -5.81818604852E-01
4.23000000000E+09 -4.26550839910E-02 -4.60720318920E-01 -3.94594042632E-04 +2.76362371538E-03 -2.90570625128E-04 +2.77996370970E-03 +2.00693208986E-02 -5.75632564135E-01
4.23500000000E+09 -5.81314497639E-02 -4.50611649739E-01 -2.98333353891E-04 +3.02725026456E-03 -2.16777113798E-04 +3.09120241459E-03 -1.37243101674E-03 -5.67724276452E-01
4.24000000000E+09 -7.49101817374E-02 -4.39173237926E-01 -2.80938752449E-04 +3.09882876804E-03 -2.27174127747E-04 +3.10012277206E-03 -2.34313568602E-02 -5.59257463628E-01
4.24500000000E+09 -9.25108518070E-02 -4.26346205733E-01 +1.48295457733E-04 +3.51174283252E-03 +1.54843797569E-04 +3.54184633796E-03 -4.51351218156E-02 -5.49373506929E-01
4.25000000000E+09 -1.11585218839E-01 -4.13628358625E-01 +5.99654373287E-04 +3.51507702137E-03 +6.65875449595E-04 +3.52539733479E-03 -6.66704043366E-02 -5.39845366959E-01
4.25500000000E+09 -1.31685513399E-01 -4.00945287528E-01 +1.03478932280E-03 +3.60015828242E-03 +1.07794431365E-03 +3.59110994098E-03 -8.93097148220E-02 -5.28429503199E-01
4.26000000000E+09 -1.52173322188E-01 -3.89608459102E-01 +1.36097348473E-03 +3.68245958682E-03 +1.35613292578E-03 +3.60530434275E-03 -1.09813264412E-01 -5.15188895056E-01
4.26500000000E+09 -1.73206840112E-01 -3.78906369124E-01 +2.18923510889E-03 +3.72363410987E-03 +2.11963752991E-03 +3.75265736886E-03 -1.29606888948E-01 -5.02239465072E-01
4.27000000000E+09 -1.92819774009E-01 -3.67541697274E-01 +2.66280789382E-03 +3.25499392969E-03 +2.63009556753E-03 +3.26785490535E-03 -1.50008929442E-01 -4.87642753675E-01
4.27500000000E+09 -2.09739824895E-01 -3.56001990564E-01 +3.26767769588E-03 +2.93752775859E-03 +3.27778141097E-03 +2.96698510554E-03 -1.69576662013E-01 -4.73021013951E-01
4.28000000000E+09 -2.24017668275E-01 -3.43910603101E-01 +3.47238466435E-03 +2.29921806278E-03 +3.45502701674E-03 +2.33844320660E-03 -1.89440658783E-01 -4.57650213116E-01
4.28500000000E+09 -2.37201586159E-01 -3.30724389687E-01 +3.48794946000E-03 +1.82878441949E-03 +3.43628043387E-03 +1.81208085739E-03 -2.09439624582E-01 -4.42064963264E-01
4.29000000000E+09 -2.47671547937E-01 -3.14904520498E-01 +3.55428063789E-03 +1.62530950264E-03 +3.57670996468E-03 +1.73320100122E-03 -2.27707164209E-01 -4.25464117269E-01
4.29500000000E+09 -2.58777187807E-01 -2.98098591515E-01 +3.50030725578E-03 +1.75643982365E-03 +3.47666993812E-03 +1.81073046155E-03 -2.46964088345E-01 -4.08359291370E-01
4.30000000000E+09 -2.70220571233E-01 -2.79308171966E-01 +4.41614788013E-03 +1.48728800983E-03 +4.44043302332E-03 +1.52816594082E-03 -2.63520640463E-01 -3.88775538087E-01
4.30500000000E+09 -2.82354431011E-01 -2.58750276809E-01 +4.76882839754E-03 +6.84520854874E-04 +4.84719746063E-03 +7.39308016900E-04 -2.78712572422E-01 -3.69653216147E-01
4.31000000000E+09 -2.95749584386E-01 -2.38338500512E-01 +5.04621014572E-03 +1.60819215690E-04 +5.16804515518E-03 +2.40250364602E-04 -2.94325344801E-01 -3.50014854647E-01
4.31500000000E+09 -3.10050339549E-01 -2.17718445890E-01 +5.07617507257E-03 -1.18973459068E-03 +5.23763206031E-03 -1.13369764350E-03 -3.09043824826E-01 -3.29197913600E-01
4.32000000000E+09 -3.23568605160E-01 -1.98178299906E-01 +4.11431581979E-03 -1.83412014010E-03 +4.23590230227E-03 -1.78738098328E-03 -3.22402337638E-01 -3.08136448444E-01
4.32500000000E+09 -3.36894139582E-01 -1.80583684925E-01 +3.46850129577E-03 -1.67516934046E-03 +3.62294478586E-03 -1.70069553589E-03 -3.35761995587E-01 -2.87370842595E-01
4.33000000000E+09 -3.48021287545E-01 -1.63244741045E-01 +3.83260355885E-03 -1.28034780189E-03 +4.03177422346E-03 -1.28570301245E-03 -3.48613228016E-01 -2.65300164715E-01
4.33500000000E+09 -3.56162516434E-01 -1.46933770342E-01 +4.22880156379E-03 -1.84343317239E-03 +4.35234901775E-03 -1.94163910180E-03 -3.60795848276E-01 -2.41795409449E-01
4.34000000000E+09 -3.62699025555E-01 -1.31160747823E-01 +4.51822521957E-03 -2.47024243331E-03 +4.58655258871E-03 -2.60802951040E-03 -3.71766559786E-01 -2.18143711429E-01
4.34500000000E+09 -3.67010904801E-01 -1.13920360436E-01 +4.24042629907E-03 -3.84113535835E-03 +4.32494318530E-03 -3.97203441951E-03 -3.82088906476E-01 -1.92543644303E-01
4.35000000000E+09 -3.69282475497E-01 -9.46000883377E-02 +3.10064774603E-03 -4.39587058481E-03 +3.18136717590E-03 -4.52904907144E-03 -3.89631283657E-01 -1.67738448353E-01
4.35500000000E+09 -3.70824170530E-01 -7.40255552307E-02 +2.72380971197E-03 -4.57729406549E-03 +2.74524805068E-03 -4.80840831084E-03 -3.97685086947E-01 -1.44885429047E-01
4.36000000000E+09 -3.73240609035E-01 -5.21832338715E-02 +1.98968948354E-03 -4.84854747374E-03 +1.89446710996E-03 -5.07821094265E-03 -4.04835853079E-01 -1.20750347428E-01
4.36500000000E+09 -3.76967752460E-01 -2.81605080818E-02 +1.28160060062E-03 -4.94748041377E-03 +1.15350645783E-03 -5.19263214408E-03 -4.10559055581E-01 -9.70600679223E-02
4.37000000000E+09 -3.81754443496E-01 -4.75744210741E-03 +6.67399227965E-04 -4.75967284550E-03 +5.30838162115E-04 -4.93744862495E-03 -4.15151442840E-01 -7.28790740469E-02
4.37500000000E+09 -3.87325575359E-01 +1.89193700866E-02 +2.93256105843E-04 -4.59073317424E-03 +7.36108041907E-05 -4.64634978190E-03 -4.18733058322E-01 -4.76614101698E-02
4.38000000000E+09 -3.92858665016E-01 +4.07051453343E-02 +2.56885066443E-04 -4.82102814351E-03 +1.53367442908E-04 -4.91299625912E-03 -4.21046665702E-01 -2.26602587863E-02
4.38500000000E+09 -3.97475859662E-01 +5.97366355441E-02 -9.14494438495E-05 -5.00511796610E-03 -3.04723675769E-04 -5.10067133857E-03 -4.23290136190E-01 +2.58179571542E-03
4.39000000000E+09 -4.00912885756E-01 +7.63387390915E-02 -8.88135762572E-04 -5.45684162803E-03 -1.11044474626E-03 -5.38883044728E-03 -4.24471905356E-01 +2.82589626065E-02
4.39500000000E+09 -4.02746043650E-01 +9.14780419280E-02 -1.94635502036E-03 -5.36765800740E-03 -2.24492966926E-03 -5.25602477476E-03 -4.24396439609E-01 +5.27607650159E-02
4.40000000000E+09 -4.02341410105E-01 +1.06474471547E-01 -2.56216951058E-03 -4.79427705975E-03 -2.70205793864E-03 -4.65037034477E-03 -4.23491413738E-01 +7.76664630604E-02
4.40500000000E+09 -3.99476983250E-01 +1.22669258211E-01 -3.16711697060E-03 -4.30215421114E-03 -3.23675200546E-03 -4.09643146853E-03 -4.20265938472E-01 +1.02318396346E-01
4.41000000000E+09 -3.93644473324E-01 +1.39907047539E-01 -3.17967452472E-03 -3.86629484841E-03 -3.22654780276E-03 -3.74391147535E-03 -4.16501583156E-01 +1.25550587790E-01
4.41500000000E+09 -3.87534442642E-01 +1.58520790668E-01 -3.85111598484E-03 -3.57175961570E-03 -3.88148990538E-03 -3.42140762910E-03 -4.11848106273E-01 +1.49976426792E-01
4.42000000000E+09 -3.82050845629E-01 +1.79652570181E-01 -4.08548340783E-03 -3.16147947266E-03 -4.03637047041E-03 -2.99619432053E-03 -4.06199359192E-01 +1.72761579134E-01
4.42500000000E+09 -3.76365390995E-01 +2.02255338575E-01 -4.64917937653E-03 -2.86064905525E-03 -4.60251789402E-03 -2.67894847593E-03 -4.00470590350E-01 +1.95701268395E-01
4.43000000000E+09 -3.71794539981E-01 +2.24317010373E-01 -4.56228870037E-03 -2.06814669549E-03 -4.44924771502E-03 -1.95460910229E-03 -3.94469305553E-01 +2.17851668886E-01
4.43500000000E+09 -3.69075948323E-01 +2.45675625680E-01 -5.09404422465E-03 -1.98366623556E-03 -4.96905312511E-03 -1.98104519661E-03 -3.88016165518E-01 +2.39942896037E-01
4.44000000000E+09 -3.66560355960E-01 +2.64902779513E-01 -5.33123208169E-03 -1.14492618378E-03 -5.24365972063E-03 -1.09607732598E-03 -3.79500679095E-01 +2.62850880896E-01
4.44500000000E+09 -3.64792389915E-01 +2.81609659261E-01 -5.35687595370E-03 -6.04492033980E-04 -5.26626176142E-03 -5.22401030366E-04 -3.69695012922E-01 +2.82680881555E-01
4.45000000000E+09 -3.62322864014E-01 +2.96383858930E-01 -5.58476376516E-03 +1.12841290473E-04 -5.51268404010E-03 +1.73408507308E-04 -3.60190478641E-01 +3.02394793337E-01
4.45500000000E+09 -3.57776862313E-01 +3.09617486883E-01 -5.54854444235E-03 +1.25290423589E-03 -5.56352007292E-03 +1.27448657527E-03 -3.49427717253E-01 +3.21137064697E-01
4.46000000000E+09 -3.51290309930E-01 +3.21980476099E-01 -4.64903964967E-03 +1.95242250202E-03 -4.56516402049E-03 +1.93573473584E-03 -3.40130032290E-01 +3.39014463088E-01
4.46500000000E+09 -3.41623592267E-01 +3.34967504606E-01 -4.30551680987E-03 +2.07053305810E-03 -4.27196687635E-03 +2.04453883758E-03 -3.28404406758E-01 +3.57865326274E-01
4.47000000000E+09 -3.30386858047E-01 +3.48495733518E-01 -3.81399660577E-03 +2.05475662113E-03 -3.76185276214E-03 +2.11103680741E-03 -3.16874480899E-01 +3.75351654781E-01
4.47500000000E+09 -3.18058513649E-01 +3.64291874876E-01 -4.38630021804E-03 +2.20942614640E-03 -4.34602113579E-03 +2.31371799219E-03 -3.05102976698E-01 +3.92015060012E-01
4.48000000000E+09 -3.05068191311E-01 +3.81716404300E-01 -3.92001418521E-03 +3.16169269673E-03 -3.88318920898E-03 +3.22668811514E-03 -2.93162833522E-01 +4.08778895954E-01
4.48500000000E+09 -2.91886059686E-01 +3.99567172215E-01 -3.31017280914E-03 +3.81024003392E-03 -3.24140669890E-03 +3.78857971864E-03 -2.80754576309E-01 +4.24960349000E-01
4.49000000000E+09 -2.81312404688E-01 +4.16074068577E-01 -2.83304391971E-03 +3.96473456776E-03 -2.78671147634E-03 +3.97118442700E-03 -2.66991035186E-01 +4.40860200565E-01
4.49500000000E+09 -2.73152767838E-01 +4.33648982613E-01 -2.08466663173E-03 +4.15256880882E-03 -2.04843802364E-03 +4.09645175569E-03 -2.53417842635E-01 +4.54585972853E-01
4.50000000000E+09 -2.65618304118E-01 +4.48476440245E-01 -1.49224436319E-03 +4.06968987654E-03 -1.54135041035E-03 +4.06730090039E-03 -2.40332080321E-01 +4.68218177705E-01
4.50500000000E+09 -2.60058293614E-01 +4.61346653434E-01 -1.12046877389E-03 +3.82963115404E-03 -1.13744604484E-03 +3.84044665969E-03 -2.26662994230E-01 +4.81370650799E-01
4.51000000000E+09 -2.53513193287E-01 +4.72768894972E-01 -1.08717317992E-03 +3.74371335500E-03 -1.08962137325E-03 +3.80311421088E-03 -2.12953678040E-01 +4.94047016274E-01
4.51500000000E+09 -2.44785063428E-01 +4.81578300425E-01 -7.73548240454E-04 +3.95874570693E-03 -6.92433102744E-04 +4.01319835115E-03 -1.98868912824E-01 +5.05875179459E-01
4.52000000000E+09 -2.35083846911E-01 +4.88503001891E-01 -6.50256105361E-04 +3.96653673746E-03 -4.96227154296E-04 +3.96509767111E-03 -1.85204947728E-01 +5.17188744314E-01
4.52500000000E+09 -2.23946246875E-01 +4.95949571398E-01 -2.86993143596E-04 +4.00955917730E-03 -1.79463771839E-04 +3.99304623908E-03 -1.71852347513E-01 +5.27441764466E-01
4.53000000000E+09 -2.10124051862E-01 +5.04396913639E-01 -5.09829953816E-05 +4.40837793295E-03 +1.13175742752E-04 +4.36353167756E-03 -1.58114471299E-01 +5.37976407772E-01
4.53500000000E+09 -1.94867734568E-01 +5.13902275365E-01 +7.21616256998E-04 +4.26032101637E-03 +8.51441209854E-04 +4.16771293198E-03 -1.43570750162E-01 +5.47794286867E-01
4.54000000000E+09 -1.78839621866E-01 +5.24420491656E-01 +1.25899485659E-03 +4.15876102809E-03 +1.34671500872E-03 +4.01923873135E-03 -1.28850595997E-01 +5.57665794468E-01
4.54500000000E+09 -1.63296041596E-01 +5.35272189249E-01 +1.28547283430E-03 +3.88788151628E-03 +1.47373194658E-03 +3.73342190434E-03 -1.13811665615E-01 +5.66549802639E-01
4.55000000000E+09 -1.50067680937E-01 +5.45552791566E-01 +2.08892309600E-03 +3.94937565621E-03 +2.18063990614E-03 +3.73173855124E-03 -9.92047208475E-02 +5.75184649211E-01
4.55500000000E+09 -1.39356902136E-01 +5.56141891913E-01 +2.31353870900E-03 +3.29378857964E-03 +2.34293872923E-03 +3.13200653344E-03 -8.54744800370E-02 +5.83410581597E-01
4.56000000000E+09 -1.29916667911E-01 +5.65902234131E-01 +2.32518259787E-03 +3.29287436748E-03 +2.29024757125E-03 +3.07826831839E-03 -7.11303813504E-02 +5.92270917592E-01
4.56500000000E+09 -1.21565986028E-01 +5.73994881761E-01 +2.83626509037E-03 +3.14676532365E-03 +2.87986921142E-03 +2.94347664800E-03 -5.66337232215E-02 +5.99720469261E-01
4.57000000000E+09 -1.12539031676E-01 +5.80965700702E-01 +2.97753147627E-03 +2.76030102573E-03 +2.88783311643E-03 +2.55815988738E-03 -4.18985268990E-02 +6.06881798782E-01
