# Hz S RI R 50
! CMT, C1220, 16058040, 17.2.0/1
! Date: 15/08/2018 12:05:46
! Data: Format (Calibration Info)
! Freq                      S11: Re/Im (F2)                       S21: Re/Im (F2)                       S12: Re/Im (F2)                       S22: Re/Im (F2)            
4.00000000000E+09 +6.67005958255E-01 -3.42089179820E-01 +1.10179601865E-03 -7.13188120597E-04 +1.13157891600E-03 -6.79705526507E-04 +7.78187984695E-01 -3.37062506050E-01
4.00500000000E+09 +6.58745795549E-01 -3.48320599569E-01 +8.66534938141E-04 -6.78538839856E-04 +9.54079764301E-04 -6.83344494848E-04 +7.69697947570E-01 -3.48830223395E-01
4.01000000000E+09 +6.49457329416E-01 -3.54533309589E-01 +7.98589122900E-04 -6.77279046976E-04 +7.95731066850E-04 -6.64022970731E-04 +7.60299907667E-01 -3.60106573915E-01
4.01500000000E+09 +6.39054615236E-01 -3.61257766703E-01 +8.66753027768E-04 -6.32701869157E-04 +8.32699249967E-04 -6.21093411308E-04 +7.50828251413E-01 -3.70526733269E-01
4.02000000000E+09 +6.28164715660E-01 -3.68653953309E-01 +9.20344979958E-04 -8.12673199204E-04 +9.99859332027E-04 -7.84380954642E-04 +7.41273530862E-01 -3.80976313270E-01
4.02500000000E+09 +6.17046512325E-01 -3.77764054864E-01 +8.86054575596E-04 -1.00386920066E-03 +9.51949058574E-04 -9.87969659733E-04 +7.31379422589E-01 -3.91539429474E-01
4.03000000000E+09 +6.05312381395E-01 -3.88361824239E-01 +6.57813070673E-04 -1.27985280480E-03 +7.59123891676E-04 -1.26078985931E-03 +7.21039165147E-01 -4.01975920665E-01
4.03500000000E+09 +5.93631620917E-01 -3.99263813836E-01 +2.78741336322E-04 -1.11779726233E-03 +3.40244908935E-04 -1.18432377766E-03 +7.10103724440E-01 -4.12707409596E-01
4.04000000000E+09 +5.82212377709E-01 -4.10062049752E-01 +3.39151687125E-04 -9.62783830991E-04 +3.84267127539E-04 -1.07200618522E-03 +6.99326267086E-01 -4.23313683213E-01
4.04500000000E+09 +5.71040895080E-01 -4.20214510712E-01 +2.87820837823E-04 -9.79000852068E-04 +3.53217848566E-04 -9.79424500956E-04 +6.88205126309E-01 -4.34209464406E-01
4.05000000000E+09 +5.60081498041E-01 -4.28783567299E-01 +3.28695129671E-04 -9.87063845438E-04 +4.81277015352E-04 -1.00349619427E-03 +6.76801480900E-01 -4.44384390834E-01
4.05500000000E+09 +5.48602209321E-01 -4.36070021628E-01 +4.10130208886E-04 -1.12594144641E-03 +5.23555769450E-04 -1.19400066258E-03 +6.65054921069E-01 -4.54131299857E-01
4.06000000000E+09 +5.36351996025E-01 -4.41591217210E-01 +2.70099009665E-04 -1.35438555108E-03 +3.15347569948E-04 -1.44363677362E-03 +6.52847081407E-01 -4.64101885176E-01
4.06500000000E+09 +5.23570665542E-01 -4.45859500996E-01 -6.77760071598E-05 -1.33956056533E-03 -6.00235312129E-05 -1.43864063146E-03 +6.40124349328E-01 -4.73461902178E-01
4.07000000000E+09 +5.09726366385E-01 -4.49886999370E-01 -4.40711652464E-05 -1.28083777290E-03 -4.91778587147E-05 -1.33396500725E-03 +6.26417177534E-01 -4.83598223082E-01
4.07500000000E+09 +4.95060017903E-01 -4.54527654250E-01 -2.15663220637E-04 -1.43050937456E-03 -1.58897272873E-04 -1.51214274449E-03 +6.12701717697E-01 -4.93028684691E-01
4.08000000000E+09 +4.79337800851E-01 -4.59823354735E-01 -3.68841080618E-04 -1.34673786966E-03 -3.34189770668E-04 -1.40853771859E-03 +5.99273296627E-01 -5.02566362109E-01
4.08500000000E+09 +4.62724555614E-01 -4.66343116990E-01 -6.56160194699E-04 -1.29077116463E-03 -6.36839241565E-04 -1.31929804447E-03 +5.85170436993E-01 -5.12383831445E-01
4.09000000000E+09 +4.45978893460E-01 -4.73459806523E-01 -6.55014420204E-04 -1.09235117804E-03 -6.24314863553E-04 -1.12443489441E-03 +5.70558303211E-01 -5.20545762958E-01
4.09500000000E+09 +4.29607313866E-01 -4.80544408224E-01 -5.66640479942E-04 -1.01017712925E-03 -5.99484959488E-04 -9.96649368369E-04 +5.55958663217E-01 -5.28770866233E-01
4.10000000000E+09 +4.13028070444E-01 -4.87277740906E-01 -5.03872538921E-04 -1.20301589207E-03 -4.96829517891E-04 -1.25965208277E-03 +5.40205091881E-01 -5.37036451265E-01
4.10500000000E+09 +3.97287225567E-01 -4.92436566868E-01 -6.52403808735E-04 -1.31704051724E-03 -6.76132340241E-04 -1.39633137103E-03 +5.23780894310E-01 -5.44807686747E-01
4.11000000000E+09 +3.81716425528E-01 -4.95925746576E-01 -8.95573663948E-04 -1.42439805619E-03 -9.39463315268E-04 -1.47067884820E-03 +5.06665488406E-01 -5.52706153193E-01
4.11500000000E+09 +3.66574188447E-01 -4.97761240221E-01 -1.31867386871E-03 -1.36072097974E-03 -1.31281564120E-03 -1.39920112021E-03 +4.89265323590E-01 -5.59887723386E-01
4.12000000000E+09 +3.51229388716E-01 -4.98119230334E-01 -1.47983647694E-03 -1.05693518285E-03 -1.48956531437E-03 -1.09305576095E-03 +4.72019846833E-01 -5.66414327463E-01
4.12500000000E+09 +3.35731081992E-01 -4.98529168198E-01 -1.57685334191E-03 -7.12229349731E-04 -1.57465036259E-03 -7.89232277252E-04 +4.54665629607E-01 -5.72525182227E-01
4.13000000000E+09 +3.17951968891E-01 -4.99927997330E-01 -1.39346583052E-03 -7.03263363507E-04 -1.44972639997E-03 -7.90008362651E-04 +4.37617622434E-01 -5.78005304198E-01
4.13500000000E+09 +2.98712344288E-01 -5.00862191374E-01 -1.51174325086E-03 -6.21559019052E-04 -1.51176194184E-03 -7.20003508954E-04 +4.19223076559E-01 -5.83995562849E-01
4.14000000000E+09 +2.79157929145E-01 -5.02850889061E-01 -1.55605129837E-03 -5.58596019446E-04 -1.62961648494E-03 -6.53932536089E-04 +4.00137690635E-01 -5.88916474216E-01
4.14500000000E+09 +2.59346977123E-01 -5.05977085849E-01 -1.68873600045E-03 -5.43608298058E-04 -1.73453661156E-03 -6.38501337975E-04 +3.81253362005E-01 -5.94443310384E-01
4.15000000000E+09 +2.39027888506E-01 -5.09989241419E-01 -1.88256235651E-03 -4.53440015012E-04 -1.97610948361E-03 -5.59322737513E-04 +3.60842745661E-01 -5.99648268031E-01
4.15500000000E+09 +2.19440244550E-01 -5.13443253068E-01 -2.03197540578E-03 -4.29301156003E-04 -2.11804856676E-03 -4.22531732329E-04 +3.41151193221E-01 -6.02925739254E-01
4.16000000000E+09 +2.00609589958E-01 -5.16027682119E-01 -2.56996085717E-03 -3.15680689963E-05 -2.67447217488E-03 -5.45465062091E-05 +3.21440328470E-01 -6.05683294975E-01
4.16500000000E+09 +1.83075848482E-01 -5.16538487384E-01 -2.46820231370E-03 +6.38509068184E-04 -2.59664724346E-03 +7.05232804282E-04 +3.00625874050E-01 -6.07320233551E-01
4.17000000000E+09 +1.66710099800E-01 -5.15414393030E-01 -2.05965116699E-03 +8.66182276210E-04 -2.16630204550E-03 +9.07406350031E-04 +2.80578096636E-01 -6.07675653234E-01
4.17500000000E+09 +1.50656208786E-01 -5.12156096660E-01 -2.00488268410E-03 +1.36446104708E-03 -2.12727527183E-03 +1.40308582156E-03 +2.59697912730E-01 -6.08030790767E-01
4.18000000000E+09 +1.34773714057E-01 -5.07936666705E-01 -1.27436661001E-03 +1.25959002167E-03 -1.27680858148E-03 +1.31339848276E-03 +2.39389424451E-01 -6.08537720941E-01
4.18500000000E+09 +1.17986987695E-01 -5.02619829992E-01 -1.42871925953E-03 +6.72014253214E-04 -1.45756444118E-03 +6.61446496972E-04 +2.17615012429E-01 -6.09457549680E-01
4.19000000000E+09 +9.99003966469E-02 -4.97067347677E-01 -1.93909334442E-03 +8.88448124475E-04 -1.95021543689E-03 +9.51660638727E-04 +1.95306470588E-01 -6.08060855398E-01
4.19500000000E+09 +8.10072631597E-02 -4.91209775896E-01 -2.01972161716E-03 +1.47958412990E-03 -2.06233269785E-03 +1.47971293366E-03 +1.74069156532E-01 -6.05929135941E-01
4.20000000000E+09 +6.16659583012E-02 -4.86761251656E-01 -1.75233222995E-03 +1.75965845378E-03 -1.80397094798E-03 +1.84689400979E-03 +1.52471384545E-01 -6.03512304741E-01
4.20500000000E+09 +4.14884127932E-02 -4.83087994903E-01 -1.59841058641E-03 +2.26172505879E-03 -1.67789967692E-03 +2.32669419806E-03 +1.30338325770E-01 -6.00119417960E-01
4.21000000000E+09 +2.17270833747E-02 -4.78885112118E-01 -9.82181844978E-04 +2.17582966580E-03 -1.03189760729E-03 +2.20156981612E-03 +1.08212929023E-01 -5.96312992948E-01
4.21500000000E+09 +2.92199748206E-03 -4.74482887420E-01 -1.00156832387E-03 +1.98597261042E-03 -1.00115767896E-03 +2.04638047978E-03 +8.54564450326E-02 -5.91637094659E-01
4.22000000000E+09 -1.46563128509E-02 -4.68852840682E-01 -1.37334745329E-03 +2.20716032335E-03 -1.37543599337E-03 +2.31673364713E-03 +6.41651022933E-02 -5.85940712377E-01
4.22500000000E+09 -3.10665051356E-02 -4.60990939737E-01 -9.36485788191E-04 +3.10628415870E-03 -9.69446398385E-04 +3.13453258279E-03 +4.31321715475E-02 -5.80844498180E-01
4.23000000000E+09 -4.54660640969E-02 -4.51925330520E-01 -3.07052833562E-04 +2.84257843597E-03 -3.58906915392E-04 +2.90038786006E-03 +2.14727708339E-02 -5.74983877269E-01
4.23500000000E+09 -6.04151693491E-02 -4.41843444553E-01 -3.40969911262E-05 +2.87649918587E-03 -2.69992060528E-06 +2.95169081564E-03 -1.22683971150E-04 -5.67397863371E-01
4.24000000000E+09 -7.65927356390E-02 -4.30633027458E-01 -9.63386149027E-05 +2.94622091856E-03 -1.83142001899E-04 +3.05188947978E-03 -2.26186791596E-02 -5.58823378207E-01
4.24500000000E+09 -9.40023337469E-02 -4.17773106849E-01 +5.22349451188E-04 +3.28284916897E-03 +5.28831760841E-04 +3.34628815128E-03 -4.43334176580E-02 -5.48571958649E-01
4.25000000000E+09 -1.12804067355E-01 -4.05037007031E-01 +9.15723343591E-04 +3.09426177600E-03 +8.77819472161E-04 +3.18906041276E-03 -6.54483500471E-02 -5.38902100971E-01
4.25500000000E+09 -1.32519673806E-01 -3.92064105745E-01 +1.25742981241E-03 +3.04411663645E-03 +1.29963896302E-03 +3.12899525848E-03 -8.77833256534E-02 -5.27641621153E-01
4.26000000000E+09 -1.52052368729E-01 -3.80562472722E-01 +1.43197950782E-03 +2.92656797298E-03 +1.47856307402E-03 +2.98569952081E-03 -1.08205110649E-01 -5.14761851601E-01
4.26500000000E+09 -1.72342725430E-01 -3.69979528284E-01 +1.93691908591E-03 +3.03441982619E-03 +2.00017221694E-03 +3.18187446074E-03 -1.28762125167E-01 -5.01961921031E-01
4.27000000000E+09 -1.91285827979E-01 -3.58616743978E-01 +2.48833769105E-03 +2.72450981104E-03 +2.57269474872E-03 +2.75497944418E-03 -1.49084343505E-01 -4.86943512829E-01
4.27500000000E+09 -2.07537100716E-01 -3.47270652622E-01 +2.91639705965E-03 +2.22005861392E-03 +2.97754780691E-03 +2.30336763207E-03 -1.68467074867E-01 -4.72152478005E-01
4.28000000000E+09 -2.21510257214E-01 -3.35475256546E-01 +3.01759567476E-03 +1.83207284146E-03 +3.12255081036E-03 +1.90709230389E-03 -1.88119210423E-01 -4.56336214530E-01
4.28500000000E+09 -2.34280268185E-01 -3.22298718242E-01 +3.06258658916E-03 +1.21073326504E-03 +3.21585656757E-03 +1.20674137136E-03 -2.07295793535E-01 -4.41156922632E-01
4.29000000000E+09 -2.44527486075E-01 -3.06662169851E-01 +2.77193512403E-03 +9.05326790577E-04 +2.79282547695E-03 +8.37193048528E-04 -2.25779570032E-01 -4.24755006727E-01
4.29500000000E+09 -2.54875246456E-01 -2.90239543203E-01 +2.38518393966E-03 +1.53230817230E-03 +2.49837312476E-03 +1.47628437017E-03 -2.44458500634E-01 -4.07643992046E-01
4.30000000000E+09 -2.65743951639E-01 -2.71997760309E-01 +3.41095675014E-03 +1.51881212604E-03 +3.43410146445E-03 +1.46810926839E-03 -2.61219023496E-01 -3.88836197349E-01
4.30500000000E+09 -2.77877424865E-01 -2.52200997617E-01 +3.86999436624E-03 +9.80406894685E-04 +3.97976405052E-03 +9.90366769935E-04 -2.76525933582E-01 -3.69758419127E-01
4.31000000000E+09 -2.90887699845E-01 -2.31898354352E-01 +4.36629736031E-03 +5.64929012414E-04 +4.45732019304E-03 +5.11768915447E-04 -2.91709875275E-01 -3.50106160115E-01
4.31500000000E+09 -3.04739575954E-01 -2.11791793868E-01 +4.61278928347E-03 -5.83024679880E-04 +4.65935145106E-03 -6.72693100996E-04 -3.06410259785E-01 -3.30149166163E-01
4.32000000000E+09 -3.17672556953E-01 -1.92489931944E-01 +3.98083882494E-03 -1.51912754030E-03 +4.07114721779E-03 -1.55354910080E-03 -3.20166379136E-01 -3.09299088448E-01
4.32500000000E+09 -3.30265879919E-01 -1.75069066805E-01 +3.23178947436E-03 -1.52309328620E-03 +3.24457684361E-03 -1.63301170622E-03 -3.33648486075E-01 -2.88800311860E-01
4.33000000000E+09 -3.40876859096E-01 -1.58615846747E-01 +3.63067017892E-03 -1.05685740664E-03 +3.61638932219E-03 -1.16676082120E-03 -3.47070574957E-01 -2.67059727032E-01
4.33500000000E+09 -3.49013306080E-01 -1.42693034777E-01 +3.84366696932E-03 -1.70721489080E-03 +3.78785096651E-03 -1.71622708936E-03 -3.59257898306E-01 -2.43422617446E-01
4.34000000000E+09 -3.55337490202E-01 -1.27085066228E-01 +4.20997721709E-03 -2.15587612145E-03 +4.13106876055E-03 -2.19235241007E-03 -3.70664862546E-01 -2.20059337853E-01
4.34500000000E+09 -3.59503267758E-01 -1.10095217140E-01 +4.09331844761E-03 -3.44747068570E-03 +4.09656834952E-03 -3.40821676347E-03 -3.81335684977E-01 -1.93964064638E-01
4.35000000000E+09 -3.61867465267E-01 -9.14432521442E-02 +3.14621024273E-03 -4.31636529997E-03 +3.14907318952E-03 -4.25481132598E-03 -3.88690981734E-01 -1.69176226444E-01
4.35500000000E+09 -3.63798159776E-01 -7.13581063891E-02 +2.50101310127E-03 -4.55785283327E-03 +2.56114775928E-03 -4.61988613054E-03 -3.96980512100E-01 -1.46347597406E-01
4.36000000000E+09 -3.66609843113E-01 -4.96085609630E-02 +1.67513989429E-03 -4.75954491357E-03 +1.67133840797E-03 -4.86483161919E-03 -4.04044389061E-01 -1.22200036185E-01
4.36500000000E+09 -3.69870235767E-01 -2.61129539844E-02 +8.49454319169E-04 -4.74075889049E-03 +8.77736404518E-04 -4.91492305596E-03 -4.10273197586E-01 -9.87063862876E-02
4.37000000000E+09 -3.74580847869E-01 -3.43525095745E-03 +2.38802094804E-04 -4.55703377392E-03 +1.47982935602E-04 -4.62138651375E-03 -4.14865549577E-01 -7.38914463463E-02
4.37500000000E+09 -3.80144483391E-01 +1.95409351289E-02 -2.72087822262E-04 -4.03784342977E-03 -3.31943814253E-04 -4.09836336410E-03 -4.18153556022E-01 -4.85995081457E-02
4.38000000000E+09 -3.85504634774E-01 +4.06501180054E-02 +4.73543450887E-05 -4.04666754698E-03 +1.20650947488E-05 -4.11830021419E-03 -4.20216518470E-01 -2.38754081189E-02
4.38500000000E+09 -3.90337217131E-01 +5.88397361451E-02 +1.12541619938E-04 -4.26122797197E-03 +3.01465523608E-05 -4.41680295411E-03 -4.22387873588E-01 +1.17470057098E-03
4.39000000000E+09 -3.93900922860E-01 +7.56897359137E-02 -5.84637373906E-04 -5.20585439047E-03 -7.43971443497E-04 -5.31144336364E-03 -4.23423639869E-01 +2.63214564048E-02
4.39500000000E+09 -3.95407478966E-01 +9.10782556244E-02 -2.21784669427E-03 -5.10343369936E-03 -2.41597250367E-03 -5.15745241933E-03 -4.23909181770E-01 +5.04555386872E-02
4.40000000000E+09 -3.94510590090E-01 +1.05305024541E-01 -2.79781178418E-03 -4.30303280199E-03 -2.94388180031E-03 -4.30455391464E-03 -4.23172670662E-01 +7.56642940464E-02
4.40500000000E+09 -3.91907925096E-01 +1.21189670089E-01 -3.44639022036E-03 -3.65902309261E-03 -3.56715988167E-03 -3.55004463207E-03 -4.20146500718E-01 +9.98507949504E-02
4.41000000000E+09 -3.86679507015E-01 +1.38036051995E-01 -3.21834006707E-03 -2.82164178158E-03 -3.36525987170E-03 -2.72233262191E-03 -4.16714333211E-01 +1.23250744826E-01
4.41500000000E+09 -3.81057896844E-01 +1.56364745751E-01 -3.28099620785E-03 -2.61806811922E-03 -3.41207622932E-03 -2.55316260418E-03 -4.11940060035E-01 +1.47583991196E-01
4.42000000000E+09 -3.76282492611E-01 +1.77174844675E-01 -3.38400298418E-03 -2.70018744025E-03 -3.41875671989E-03 -2.50462888332E-03 -4.06967481203E-01 +1.70040879341E-01
4.42500000000E+09 -3.71259362440E-01 +1.99293205018E-01 -4.05560551092E-03 -2.55635537221E-03 -4.07940885490E-03 -2.46709456905E-03 -4.01479914586E-01 +1.93441155457E-01
4.43000000000E+09 -3.67319859441E-01 +2.20876953570E-01 -4.24522067846E-03 -1.92126645450E-03 -4.20563737678E-03 -1.72332298059E-03 -3.95551750780E-01 +2.15517347644E-01
4.43500000000E+09 -3.64686344056E-01 +2.41439048068E-01 -4.92260068088E-03 -1.64041481925E-03 -4.81167541801E-03 -1.52495771077E-03 -3.89516060046E-01 +2.37510217158E-01
4.44000000000E+09 -3.62628992978E-01 +2.59790337935E-01 -5.08909612606E-03 -5.67162295227E-04 -5.02803574328E-03 -4.98732862208E-04 -3.81528667868E-01 +2.60595625371E-01
4.44500000000E+09 -3.61484196298E-01 +2.75805563717E-01 -4.74817222453E-03 +2.43948714659E-04 -4.71254577610E-03 +2.89775097911E-04 -3.72294511346E-01 +2.80791112845E-01
4.45000000000E+09 -3.59242954001E-01 +2.90697129383E-01 -4.64833366524E-03 +7.78991285133E-04 -4.55869158010E-03 +9.02951790385E-04 -3.62887827882E-01 +3.01414038002E-01
4.45500000000E+09 -3.54528277446E-01 +3.03718740131E-01 -4.08992844442E-03 +1.35857858513E-03 -4.05101757425E-03 +1.45307991259E-03 -3.51544480808E-01 +3.20599888780E-01
4.46000000000E+09 -3.48210044351E-01 +3.15822893913E-01 -3.68810190614E-03 +1.56587036885E-03 -3.59993694638E-03 +1.53307525735E-03 -3.42091829962E-01 +3.38357477963E-01
4.46500000000E+09 -3.39088879406E-01 +3.29115866818E-01 -3.45296289290E-03 +1.60902226686E-03 -3.34590842229E-03 +1.60305733123E-03 -3.30515871027E-01 +3.57596855696E-01
4.47000000000E+09 -3.27865248529E-01 +3.43012109337E-01 -3.28233796383E-03 +1.52628113368E-03 -3.31584319630E-03 +1.48950085205E-03 -3.18481043937E-01 +3.75045866556E-01
4.47500000000E+09 -3.16048069767E-01 +3.58907659923E-01 -4.08545034937E-03 +1.87180070532E-03 -4.01677533171E-03 +2.01184588474E-03 -3.06681108289E-01 +3.91885712965E-01
4.48000000000E+09 -3.03726792530E-01 +3.76411658339E-01 -3.49309671574E-03 +2.94935846156E-03 -3.35767066738E-03 +2.99660462572E-03 -2.94474474805E-01 +4.08858819394E-01
4.48500000000E+09 -2.91595558346E-01 +3.94698255856E-01 -2.81441254911E-03 +3.28473051526E-03 -2.70385999150E-03 +3.28505872636E-03 -2.81791615375E-01 +4.24711299407E-01
4.49000000000E+09 -2.81974066138E-01 +4.11603246286E-01 -2.44634212376E-03 +3.60296499764E-03 -2.38662721581E-03 +3.43775694366E-03 -2.68228648091E-01 +4.40583796209E-01
4.49500000000E+09 -2.74067412701E-01 +4.29182171702E-01 -1.64883821436E-03 +3.58675652029E-03 -1.61160802786E-03 +3.51181125575E-03 -2.54463511814E-01 +4.54101968403E-01
4.50000000000E+09 -2.67127424650E-01 +4.43851837331E-01 -1.47493802362E-03 +3.34661832817E-03 -1.45479265018E-03 +3.33761209070E-03 -2.41482235018E-01 +4.67618404307E-01
4.50500000000E+09 -2.61567434170E-01 +4.56624199170E-01 -1.32087264959E-03 +3.21727977824E-03 -1.32756612505E-03 +3.20878168267E-03 -2.27789595782E-01 +4.80428418024E-01
4.51000000000E+09 -2.55114661430E-01 +4.67409478010E-01 -1.34124832552E-03 +3.63504511051E-03 -1.30616536596E-03 +3.63595602061E-03 -2.14757525078E-01 +4.93004063290E-01
4.51500000000E+09 -2.46864451877E-01 +4.75835963761E-01 -8.03234753674E-04 +3.98100648055E-03 -7.88589008101E-04 +3.94713541539E-03 -2.00818117726E-01 +5.05093737592E-01
4.52000000000E+09 -2.37113573519E-01 +4.83017680654E-01 -3.95074973675E-04 +4.03885498330E-03 -3.20316443097E-04 +4.00644719651E-03 -1.87486914538E-01 +5.16476947458E-01
4.52500000000E+09 -2.25665637423E-01 +4.90575098791E-01 +9.98542835614E-05 +3.80479617532E-03 +1.82324429938E-04 +3.72205948257E-03 -1.74410847402E-01 +5.27225728390E-01
4.53000000000E+09 -2.11776935993E-01 +4.99093942516E-01 +2.94104997970E-04 +4.00681460643E-03 +3.91281189600E-04 +3.95845590413E-03 -1.60485313423E-01 +5.38150250260E-01
4.53500000000E+09 -1.96478046605E-01 +5.08973062642E-01 +9.59069363842E-04 +3.84068410404E-03 +1.06993106803E-03 +3.70318436163E-03 -1.46031954425E-01 +5.48230797523E-01
4.54000000000E+09 -1.80450326042E-01 +5.20071140531E-01 +1.32307497159E-03 +3.70615334632E-03 +1.36823555637E-03 +3.61530760975E-03 -1.30989679882E-01 +5.58549547177E-01
4.54500000000E+09 -1.65160753744E-01 +5.30962089575E-01 +1.36836317582E-03 +3.60373458279E-03 +1.40522740931E-03 +3.43654748849E-03 -1.15572454874E-01 +5.67411471367E-01
4.55000000000E+09 -1.52587319957E-01 +5.41509769155E-01 +2.28329917670E-03 +3.60938334645E-03 +2.32865345764E-03 +3.39282497882E-03 -1.00679793395E-01 +5.76305377907E-01
4.55500000000E+09 -1.42628522930E-01 +5.52817411235E-01 +2.55404396568E-03 +2.75744941089E-03 +2.52785199601E-03 +2.63556844191E-03 -8.64846447057E-02 +5.84508055577E-01
4.56000000000E+09 -1.33629908956E-01 +5.63267388284E-01 +2.40075427357E-03 +2.57750698813E-03 +2.30870869408E-03 +2.48789092079E-03 -7.19339659960E-02 +5.92959678473E-01
4.56500000000E+09 -1.25181856469E-01 +5.71546758293E-01 +2.75052320514E-03 +2.47258014012E-03 +2.71982603186E-03 +2.33856357711E-03 -5.75762523701E-02 +6.00255594810E-01
4.57000000000E+09 -1.16551382261E-01 +5.78368009828E-01 +2.76687176446E-03 +2.15531953995E-03 +2.66301064016E-03 +1.98865971650E-03 -4.25537286735E-02 +6.07484339408E-01
