# Hz S RI R 50
! CMT, C1220, 16058040, 17.2.0/1
! Date: 15/08/2018 12:05:57
! Data: Format (Calibration Info)
! Freq                      S11: Re/Im (F2)                       S21: Re/Im (F2)                       S12: Re/Im (F2)                       S22: Re/Im (F2)            
4.00000000000E+09 +6.66297215560E-01 -3.41350732671E-01 +1.28211101231E-03 -7.21337342498E-04 +1.34317028809E-03 -7.08803417904E-04 +7.77513192658E-01 -3.36681495102E-01
4.00500000000E+09 +6.58284524167E-01 -3.47595178088E-01 +1.01264611810E-03 -7.44932184401E-04 +1.08187982919E-03 -7.00790973414E-04 +7.68946832127E-01 -3.48281601994E-01
4.01000000000E+09 +6.49068959421E-01 -3.53786965236E-01 +9.62935079947E-04 -7.06824612346E-04 +1.00132658354E-03 -7.28886961005E-04 +7.59489368019E-01 -3.59465882782E-01
4.01500000000E+09 +6.38779573297E-01 -3.60515213306E-01 +1.01134709308E-03 -6.24742471786E-04 +1.05247547653E-03 -6.67214278292E-04 +7.50123897251E-01 -3.69884832828E-01
4.02000000000E+09 +6.27948350006E-01 -3.68007817864E-01 +1.13958046038E-03 -9.26760202678E-04 +1.20668420068E-03 -8.77254993047E-04 +7.40638333161E-01 -3.80131721183E-01
4.02500000000E+09 +6.16729450294E-01 -3.77140972459E-01 +1.05241489448E-03 -1.11988936894E-03 +1.08477088314E-03 -1.11426239865E-03 +7.30657889322E-01 -3.90523123095E-01
4.03000000000E+09 +6.05010519662E-01 -3.87609609289E-01 +7.53190842453E-04 -1.44197880078E-03 +7.68825997835E-04 -1.42995156910E-03 +7.20532254702E-01 -4.00742241570E-01
4.03500000000E+09 +5.93353290835E-01 -3.98220094692E-01 +3.75877167004E-04 -1.25291148541E-03 +3.58909433238E-04 -1.30212704784E-03 +7.09844213429E-01 -4.11485840446E-01
4.04000000000E+09 +5.82019419751E-01 -4.09068455379E-01 +3.68222146446E-04 -1.11415013012E-03 +3.86497224030E-04 -1.06635737724E-03 +6.99184960324E-01 -4.22332730070E-01
4.04500000000E+09 +5.70788025826E-01 -4.19214693674E-01 +2.85122683915E-04 -9.94089729722E-04 +2.63181077599E-04 -9.77264046962E-04 +6.87920235944E-01 -4.33237256602E-01
4.05000000000E+09 +5.59837978683E-01 -4.27776858830E-01 +4.95192195253E-04 -9.98687512068E-04 +5.57352136072E-04 -9.91691082058E-04 +6.76401399536E-01 -4.43275516918E-01
4.05500000000E+09 +5.48430757590E-01 -4.35075697799E-01 +5.16852131204E-04 -1.20668730769E-03 +6.02321733688E-04 -1.19518858113E-03 +6.64577010469E-01 -4.53081462648E-01
4.06000000000E+09 +5.36147299801E-01 -4.40517525303E-01 +4.34043574765E-04 -1.41818249562E-03 +5.53000174490E-04 -1.46316752351E-03 +6.52428396867E-01 -4.62669381997E-01
4.06500000000E+09 +5.23510343410E-01 -4.44680282201E-01 +1.15228140618E-04 -1.48301318634E-03 +1.67546929534E-04 -1.50783301848E-03 +6.39799140132E-01 -4.71839859950E-01
4.07000000000E+09 +5.09888739631E-01 -4.48776577976E-01 +9.18429967335E-06 -1.52401597966E-03 +1.12721327995E-04 -1.51705627994E-03 +6.26127964298E-01 -4.81898204390E-01
4.07500000000E+09 +4.95350427201E-01 -4.53452825744E-01 -1.74994622163E-04 -1.56076003032E-03 -1.44640975104E-04 -1.65941680897E-03 +6.12669913616E-01 -4.91066139464E-01
4.08000000000E+09 +4.79806266122E-01 -4.58871655318E-01 -3.02986173190E-04 -1.49848519826E-03 -2.87696989676E-04 -1.55001287574E-03 +5.99480050062E-01 -5.00602521771E-01
4.08500000000E+09 +4.63348883445E-01 -4.65386333030E-01 -5.53672880601E-04 -1.33253702028E-03 -4.85443574490E-04 -1.48722297803E-03 +5.85495267594E-01 -5.10333397214E-01
4.09000000000E+09 +4.46772940350E-01 -4.72591830301E-01 -4.52097273806E-04 -1.34579027066E-03 -4.71667890400E-04 -1.39302148669E-03 +5.71284217197E-01 -5.18602658638E-01
4.09500000000E+09 +4.30431690527E-01 -4.79725548651E-01 -4.19071999703E-04 -1.31301906178E-03 -4.49795637506E-04 -1.35352619751E-03 +5.56983059278E-01 -5.26884280918E-01
4.10000000000E+09 +4.13931768424E-01 -4.86443168941E-01 -5.05267425658E-04 -1.54146786941E-03 -4.95456640496E-04 -1.57014045729E-03 +5.41392878487E-01 -5.35227239207E-01
4.10500000000E+09 +3.98148468588E-01 -4.91537315858E-01 -7.50692768632E-04 -1.69366291798E-03 -7.58688664182E-04 -1.71773186604E-03 +5.25130306860E-01 -5.43099288860E-01
4.11000000000E+09 +3.82757565528E-01 -4.95127330871E-01 -1.15528253578E-03 -1.71510078017E-03 -1.17179890247E-03 -1.74402815822E-03 +5.08158038064E-01 -5.51200629646E-01
4.11500000000E+09 +3.67554351595E-01 -4.96923508804E-01 -1.56331161289E-03 -1.35539010480E-03 -1.58258299992E-03 -1.44829231688E-03 +4.90745453035E-01 -5.58444671039E-01
4.12000000000E+09 +3.52246630814E-01 -4.97323305270E-01 -1.59259453307E-03 -1.00169570768E-03 -1.60192955231E-03 -1.03041162306E-03 +4.73728165110E-01 -5.65192249151E-01
4.12500000000E+09 +3.36896810661E-01 -4.97923666377E-01 -1.51839721494E-03 -7.56533366149E-04 -1.58645980373E-03 -8.20838701895E-04 +4.56649216931E-01 -5.71488866253E-01
4.13000000000E+09 +3.19033688025E-01 -4.99407417660E-01 -1.46279791602E-03 -8.94561298440E-04 -1.40781098887E-03 -9.57746685134E-04 +4.39478034250E-01 -5.77294713229E-01
4.13500000000E+09 +3.00054465907E-01 -5.00583965352E-01 -1.62055371594E-03 -9.40924600326E-04 -1.59683798908E-03 -9.76749130127E-04 +4.21009942037E-01 -5.83401176048E-01
4.14000000000E+09 +2.80449535244E-01 -5.02830085624E-01 -1.82890144037E-03 -7.38294888891E-04 -1.87500142322E-03 -7.92619816271E-04 +4.01929936214E-01 -5.88448580016E-01
4.14500000000E+09 +2.60476140416E-01 -5.06134785125E-01 -1.95876837381E-03 -5.15257935288E-04 -2.02646557823E-03 -6.02579740637E-04 +3.83171750642E-01 -5.94003187189E-01
4.15000000000E+09 +2.40280188940E-01 -5.10236094860E-01 -2.03212402262E-03 -4.12619188981E-04 -2.05312120917E-03 -4.79054851372E-04 +3.62854636324E-01 -5.99261089351E-01
4.15500000000E+09 +2.20662637966E-01 -5.13776855535E-01 -2.07922027325E-03 -4.19573294806E-04 -2.14121152853E-03 -4.90076380983E-04 +3.43423677766E-01 -6.02515047580E-01
4.16000000000E+09 +2.01830703789E-01 -5.16456674867E-01 -2.48981550827E-03 -1.53078589974E-04 -2.62095713967E-03 -1.89891260799E-04 +3.23866195535E-01 -6.05838329033E-01
4.16500000000E+09 +1.84417198818E-01 -5.17160036262E-01 -2.47005400947E-03 +4.25926377380E-04 -2.51929282156E-03 +4.07273489760E-04 +3.02985085758E-01 -6.07857769252E-01
4.17000000000E+09 +1.67980460231E-01 -5.16311165777E-01 -2.25622062170E-03 +5.47597714540E-04 -2.36760441522E-03 +4.34103671997E-04 +2.82774810943E-01 -6.08609590030E-01
4.17500000000E+09 +1.51498363240E-01 -5.12966357845E-01 -2.33154556958E-03 +1.16795171800E-03 -2.48778634412E-03 +1.12996161375E-03 +2.61554257118E-01 -6.09110121038E-01
4.18000000000E+09 +1.35757070351E-01 -5.08670440854E-01 -1.67013284609E-03 +1.17992512980E-03 -1.74260201419E-03 +1.19558629757E-03 +2.41160900213E-01 -6.09674219922E-01
4.18500000000E+09 +1.18908963128E-01 -5.03330680924E-01 -1.78586994910E-03 +7.50506784184E-04 -1.91866084650E-03 +7.11417194049E-04 +2.19099291438E-01 -6.10701102038E-01
4.19000000000E+09 +1.00736149799E-01 -4.97952820068E-01 -2.17619422283E-03 +1.02437509209E-03 -2.26653270254E-03 +1.07439075246E-03 +1.96749183285E-01 -6.09399367539E-01
4.19500000000E+09 +8.20323272763E-02 -4.92072187410E-01 -2.18671352169E-03 +1.59849499364E-03 -2.27465516260E-03 +1.66024094426E-03 +1.75523579116E-01 -6.07456376546E-01
4.20000000000E+09 +6.26169633523E-02 -4.87819551825E-01 -1.92252393563E-03 +1.84255528761E-03 -2.09416119506E-03 +1.88297895242E-03 +1.53843733681E-01 -6.05123761664E-01
4.20500000000E+09 +4.23239668251E-02 -4.84252493089E-01 -1.86020798662E-03 +2.28965001027E-03 -1.96389046782E-03 +2.31458621185E-03 +1.31663492152E-01 -6.02087756347E-01
4.21000000000E+09 +2.25709333451E-02 -4.79986018545E-01 -1.31410122192E-03 +2.17207494337E-03 -1.40514166418E-03 +2.32043221916E-03 +1.09175455050E-01 -5.98623738607E-01
4.21500000000E+09 +3.57488186858E-03 -4.75573192455E-01 -1.37814878024E-03 +2.18183543857E-03 -1.40679008364E-03 +2.26191458846E-03 +8.60015493259E-02 -5.94137231508E-01
4.22000000000E+09 -1.40360950319E-02 -4.69932547208E-01 -1.57765202862E-03 +2.54658829075E-03 -1.69557517457E-03 +2.61914332851E-03 +6.42444769390E-02 -5.88593116874E-01
4.22500000000E+09 -3.02731852017E-02 -4.62180425734E-01 -1.10315592302E-03 +3.32043958963E-03 -1.12523525327E-03 +3.39476526073E-03 +4.26829001464E-02 -5.83398292221E-01
4.23000000000E+09 -4.47959855272E-02 -4.53527767677E-01 -4.18240241765E-04 +3.17016377902E-03 -4.46079741849E-04 +3.20714269055E-03 +2.06886395998E-02 -5.76958381743E-01
4.23500000000E+09 -5.97703683150E-02 -4.43588270685E-01 -8.95197354689E-05 +3.11505867973E-03 -2.75128436039E-05 +3.19385574405E-03 -1.13235642663E-03 -5.69303139364E-01
4.24000000000E+09 -7.62899444912E-02 -4.32553779568E-01 -1.69443021222E-04 +3.06912546808E-03 -1.27761510226E-04 +3.14213861128E-03 -2.37397578980E-02 -5.60571574621E-01
4.24500000000E+09 -9.39333061936E-02 -4.19898173861E-01 +2.70122127346E-04 +3.41115255149E-03 +3.13111188533E-04 +3.45309851320E-03 -4.55986812376E-02 -5.50106221942E-01
4.25000000000E+09 -1.12885597382E-01 -4.07248646080E-01 +5.81578324192E-04 +3.35702528657E-03 +5.91719259079E-04 +3.45487262396E-03 -6.69115369732E-02 -5.40238380284E-01
4.25500000000E+09 -1.32759337797E-01 -3.94190616352E-01 +1.07560373730E-03 +3.50487187980E-03 +1.07627092252E-03 +3.57716199555E-03 -8.93142536755E-02 -5.28868237536E-01
4.26000000000E+09 -1.52531970606E-01 -3.82859111791E-01 +1.36205787073E-03 +3.49975094864E-03 +1.34853268178E-03 +3.52452470720E-03 -1.09843540633E-01 -5.15776551917E-01
4.26500000000E+09 -1.73352035788E-01 -3.72272564353E-01 +2.07870755803E-03 +3.59951825704E-03 +2.09328551457E-03 +3.66864164536E-03 -1.30555900292E-01 -5.02865820587E-01
4.27000000000E+09 -1.92603041544E-01 -3.60576010727E-01 +2.76827578754E-03 +3.19249146762E-03 +2.72871064018E-03 +3.18989271593E-03 -1.50972496680E-01 -4.87539770502E-01
4.27500000000E+09 -2.08899001153E-01 -3.49219951020E-01 +3.26273146504E-03 +2.59340612047E-03 +3.29357957572E-03 +2.65447712851E-03 -1.70417965606E-01 -4.72440638990E-01
4.28000000000E+09 -2.23059001826E-01 -3.37285863749E-01 +3.39595475675E-03 +2.03306011835E-03 +3.41885957486E-03 +2.06859051764E-03 -1.90021445076E-01 -4.56602001965E-01
4.28500000000E+09 -2.36207894270E-01 -3.24103373616E-01 +3.31151337909E-03 +1.33676477074E-03 +3.36088991677E-03 +1.34728857655E-03 -2.09292492791E-01 -4.41147111475E-01
4.29000000000E+09 -2.46746751493E-01 -3.08193169992E-01 +2.91308119499E-03 +1.03975542832E-03 +2.89019855062E-03 +9.97243911818E-04 -2.27811362659E-01 -4.24662771826E-01
4.29500000000E+09 -2.57230079043E-01 -2.91503089091E-01 +2.48325472310E-03 +1.73429834971E-03 +2.50670095386E-03 +1.74004596319E-03 -2.46770646834E-01 -4.07494189928E-01
4.30000000000E+09 -2.68211148093E-01 -2.73045913852E-01 +3.67241158485E-03 +1.74081132107E-03 +3.71759677063E-03 +1.82376283669E-03 -2.63580882462E-01 -3.88229883330E-01
4.30500000000E+09 -2.80328041215E-01 -2.53131224770E-01 +4.21876251949E-03 +1.24302080744E-03 +4.32496486368E-03 +1.28867020712E-03 -2.79053173377E-01 -3.68410678315E-01
4.31000000000E+09 -2.93240360396E-01 -2.32737799638E-01 +4.73787162916E-03 +6.01215982728E-04 +4.89314525999E-03 +6.35594164957E-04 -2.93791451254E-01 -3.48408121921E-01
4.31500000000E+09 -3.07110248474E-01 -2.12603356585E-01 +4.82650374949E-03 -6.37258596013E-04 +4.96674622216E-03 -6.25832588909E-04 -3.08185931079E-01 -3.27859982081E-01
4.32000000000E+09 -3.20243363146E-01 -1.93238643372E-01 +4.11412777367E-03 -1.38051034880E-03 +4.28299730519E-03 -1.42214677984E-03 -3.21284825762E-01 -3.06767111259E-01
4.32500000000E+09 -3.33061708445E-01 -1.75523102185E-01 +3.37703300757E-03 -1.40825537267E-03 +3.46478587656E-03 -1.43522178787E-03 -3.34332544938E-01 -2.86498680706E-01
4.33000000000E+09 -3.43593151126E-01 -1.58616049238E-01 +3.78266875470E-03 -8.75934645956E-04 +3.84223596287E-03 -9.79902165741E-04 -3.47450626386E-01 -2.64813657301E-01
4.33500000000E+09 -3.51655168005E-01 -1.42289449256E-01 +4.14764843931E-03 -1.34713121332E-03 +4.20727797767E-03 -1.44062409883E-03 -3.59615338532E-01 -2.41296206191E-01
4.34000000000E+09 -3.57598268564E-01 -1.26485589491E-01 +4.64198911735E-03 -1.97593177032E-03 +4.70854127707E-03 -2.08819846136E-03 -3.70869112532E-01 -2.17789504270E-01
4.34500000000E+09 -3.61588982579E-01 -1.09615170703E-01 +4.59267782513E-03 -3.42775586551E-03 +4.61464062294E-03 -3.54660606827E-03 -3.81304052953E-01 -1.91618990024E-01
4.35000000000E+09 -3.64147290871E-01 -9.09923837456E-02 +3.63823109833E-03 -4.29364728712E-03 +3.63538589484E-03 -4.33512736391E-03 -3.88375626738E-01 -1.66765399436E-01
4.35500000000E+09 -3.66075651806E-01 -7.06321673079E-02 +3.13583000276E-03 -4.64988915000E-03 +3.07691644745E-03 -4.80651614787E-03 -3.96145841985E-01 -1.43742119451E-01
4.36000000000E+09 -3.69015232803E-01 -4.86265429541E-02 +2.10768545144E-03 -5.08479113216E-03 +2.02732154071E-03 -5.18133667032E-03 -4.02916121269E-01 -1.19831677607E-01
4.36500000000E+09 -3.72089674243E-01 -2.49207027806E-02 +1.17719776174E-03 -5.08637284459E-03 +1.16083075097E-03 -5.16146150153E-03 -4.08713421811E-01 -9.64806233604E-02
4.37000000000E+09 -3.76590647484E-01 -2.19764268223E-03 +4.83427405966E-04 -4.80382100078E-03 +4.23216523668E-04 -4.87130109177E-03 -4.12993984969E-01 -7.19158001863E-02
4.37500000000E+09 -3.82069623787E-01 +2.08901800162E-02 +7.64595063234E-05 -4.23672183680E-03 -4.83089026569E-05 -4.30756232192E-03 -4.16078937092E-01 -4.69363179824E-02
4.38000000000E+09 -3.87358482846E-01 +4.19439220688E-02 +4.55064074282E-04 -4.37191191375E-03 +3.72660508649E-04 -4.40249975619E-03 -4.17892615379E-01 -2.24043567706E-02
4.38500000000E+09 -3.92099786017E-01 +6.02722359375E-02 +3.52664551368E-04 -4.75803831761E-03 +2.29956169755E-04 -4.79020545409E-03 -4.19776918735E-01 +2.20915091303E-03
4.39000000000E+09 -3.95744138336E-01 +7.71290461879E-02 -4.44110408104E-04 -5.66888814280E-03 -5.37308574348E-04 -5.67139496908E-03 -4.21068164305E-01 +2.69048706395E-02
4.39500000000E+09 -3.97295879771E-01 +9.27385231371E-02 -2.02503792646E-03 -5.42999070689E-03 -2.11383432804E-03 -5.43468745304E-03 -4.21297123759E-01 +5.10625904293E-02
4.40000000000E+09 -3.96327332445E-01 +1.07355610226E-01 -2.51284141333E-03 -4.79621843734E-03 -2.67930199812E-03 -4.81657881909E-03 -4.20392441927E-01 +7.56668529029E-02
4.40500000000E+09 -3.93680953401E-01 +1.23500169827E-01 -3.44184146667E-03 -4.20995801685E-03 -3.48868568240E-03 -4.15542270152E-03 -4.17813719216E-01 +9.95920184884E-02
4.41000000000E+09 -3.88171609525E-01 +1.40585838801E-01 -3.15597483816E-03 -3.29081092794E-03 -3.19648166841E-03 -3.24532993098E-03 -4.14264122810E-01 +1.22782377103E-01
4.41500000000E+09 -3.82412927261E-01 +1.58899057601E-01 -3.30140324000E-03 -3.23232335431E-03 -3.38778873982E-03 -3.20509809872E-03 -4.09714224646E-01 +1.46754891081E-01
4.42000000000E+09 -3.77463365400E-01 +1.79705375161E-01 -3.51030665848E-03 -3.23976608194E-03 -3.58774286758E-03 -3.14262181074E-03 -4.04974994482E-01 +1.69232878911E-01
4.42500000000E+09 -3.72544556670E-01 +2.01838627066E-01 -4.17157411320E-03 -3.15260428055E-03 -4.26544235889E-03 -3.02170858095E-03 -3.99288138837E-01 +1.92432938851E-01
4.43000000000E+09 -3.68364483927E-01 +2.23581034296E-01 -4.51633866424E-03 -2.41658494723E-03 -4.45894510967E-03 -2.26698326001E-03 -3.93781655892E-01 +2.14204209528E-01
4.43500000000E+09 -3.65591845887E-01 +2.44260555431E-01 -5.26921014150E-03 -2.15590722851E-03 -5.19651877714E-03 -2.10415000910E-03 -3.87704355793E-01 +2.36208112330E-01
4.44000000000E+09 -3.63173748273E-01 +2.62714531811E-01 -5.48544650886E-03 -9.71966365701E-04 -5.46123143158E-03 -8.64766999473E-04 -3.79572350592E-01 +2.59285270433E-01
4.44500000000E+09 -3.61644050303E-01 +2.78633902386E-01 -5.21538829054E-03 -2.18726638911E-04 -5.17191089957E-03 -1.27997149806E-04 -3.70410272783E-01 +2.79145015232E-01
4.45000000000E+09 -3.59254477297E-01 +2.93390612654E-01 -5.14693104118E-03 +4.50045730066E-04 -5.15311256618E-03 +5.78426476692E-04 -3.60809362076E-01 +2.99217415922E-01
4.45500000000E+09 -3.54421718643E-01 +3.06472733269E-01 -4.71704781762E-03 +1.17333730016E-03 -4.69405988887E-03 +1.25287639977E-03 -3.49882313768E-01 +3.17768493269E-01
4.46000000000E+09 -3.47954013287E-01 +3.18583461653E-01 -4.15255779009E-03 +1.42050982250E-03 -4.16879670357E-03 +1.51258206260E-03 -3.41253170005E-01 +3.35438276545E-01
4.46500000000E+09 -3.38638906730E-01 +3.31980994280E-01 -3.84227088693E-03 +1.49775266194E-03 -3.80220413841E-03 +1.50604776779E-03 -3.29836796629E-01 +3.54535032142E-01
4.47000000000E+09 -3.27054990546E-01 +3.45970940154E-01 -3.74515090543E-03 +1.29262728301E-03 -3.73688189612E-03 +1.37182068703E-03 -3.18327462623E-01 +3.71805865233E-01
4.47500000000E+09 -3.14784214329E-01 +3.61616796244E-01 -4.64856677673E-03 +1.80719309248E-03 -4.60349936207E-03 +1.92850865241E-03 -3.07110191797E-01 +3.88692820283E-01
4.48000000000E+09 -3.02505631026E-01 +3.78869261880E-01 -4.03685132710E-03 +3.03209673278E-03 -3.93795828424E-03 +3.11970680159E-03 -2.95188760913E-01 +4.05576585231E-01
4.48500000000E+09 -2.90364431821E-01 +3.97069909151E-01 -3.30396508813E-03 +3.51306335013E-03 -3.19882419036E-03 +3.54400457249E-03 -2.83193677274E-01 +4.21706701687E-01
4.49000000000E+09 -2.80440875890E-01 +4.13846904346E-01 -2.77340810980E-03 +3.77359142162E-03 -2.67428382956E-03 +3.70732505344E-03 -2.70109594837E-01 +4.37874635809E-01
4.49500000000E+09 -2.72349479902E-01 +4.31143888142E-01 -2.04183594176E-03 +3.69572595277E-03 -1.91357064658E-03 +3.62999371148E-03 -2.56626924245E-01 +4.51940029358E-01
4.50000000000E+09 -2.65488836069E-01 +4.45686232102E-01 -1.91273200797E-03 +3.48304116524E-03 -1.79343526065E-03 +3.42140263243E-03 -2.43638114515E-01 +4.65874091134E-01
4.50500000000E+09 -2.59815457905E-01 +4.58268368354E-01 -1.70372495826E-03 +3.48190781400E-03 -1.71292511373E-03 +3.49866065336E-03 -2.30118850944E-01 +4.78894776699E-01
4.51000000000E+09 -2.53260429784E-01 +4.68832187961E-01 -1.71627650343E-03 +3.84438787684E-03 -1.64059097748E-03 +3.87666653582E-03 -2.17174370705E-01 +4.92031634576E-01
4.51500000000E+09 -2.44984176421E-01 +4.77144146333E-01 -1.23333328709E-03 +4.32369677040E-03 -1.09429581323E-03 +4.25944571494E-03 -2.03295326043E-01 +5.04515646516E-01
4.52000000000E+09 -2.35398621242E-01 +4.84243371529E-01 -7.01696035857E-04 +4.42106586603E-03 -6.20571609713E-04 +4.33627967738E-03 -1.89595141491E-01 +5.16086321033E-01
4.52500000000E+09 -2.23615829039E-01 +4.91912348688E-01 -4.58770020511E-05 +4.13619793997E-03 -3.13621478536E-05 +4.04548294781E-03 -1.76290209271E-01 +5.26976254863E-01
4.53000000000E+09 -2.09548698988E-01 +5.00137346466E-01 +6.28242473807E-07 +4.40427716230E-03 +4.85885193158E-05 +4.28680021377E-03 -1.62240186433E-01 +5.37759438270E-01
4.53500000000E+09 -1.94319921840E-01 +5.09685398698E-01 +7.44288640586E-04 +4.26714022542E-03 +8.19000343326E-04 +4.14866811364E-03 -1.47627863564E-01 +5.47891788864E-01
4.54000000000E+09 -1.78497530440E-01 +5.20735288641E-01 +1.16427297569E-03 +4.21478843855E-03 +1.21031180745E-03 +4.07619247508E-03 -1.32758718166E-01 +5.58199619805E-01
4.54500000000E+09 -1.63163385159E-01 +5.31806738378E-01 +1.24366608952E-03 +4.15584957402E-03 +1.24994907685E-03 +4.01377190534E-03 -1.17352110771E-01 +5.67119853563E-01
4.55000000000E+09 -1.50324338116E-01 +5.42305956032E-01 +2.31512313282E-03 +4.14037110671E-03 +2.28927682865E-03 +3.93595108664E-03 -1.02652583266E-01 +5.76177516761E-01
4.55500000000E+09 -1.40326061330E-01 +5.53280472253E-01 +2.62643951792E-03 +3.25831322871E-03 +2.55328428746E-03 +3.16993865919E-03 -8.85268182399E-02 +5.84478245168E-01
4.56000000000E+09 -1.31352827737E-01 +5.63581400555E-01 +2.47539562918E-03 +3.07833166578E-03 +2.42555454292E-03 +3.02305654262E-03 -7.39581058017E-02 +5.92998007735E-01
4.56500000000E+09 -1.22869548996E-01 +5.71704795048E-01 +2.92885718284E-03 +2.86890644128E-03 +2.91284380274E-03 +2.78927107112E-03 -5.97025208605E-02 +6.00565203544E-01
4.57000000000E+09 -1.14310619855E-01 +5.78324260238E-01 +2.88657217674E-03 +2.57854571090E-03 +2.89133027156E-03 +2.42747101587E-03 -4.47298275382E-02 +6.08060229020E-01
