# Hz S RI R 50
! CMT, C1220, 16058040, 17.2.0/1
! Date: 15/08/2018 12:01:56
! Data: Format (Calibration Info)
! Freq                      S11: Re/Im (F2)                       S21: Re/Im (F2)                       S12: Re/Im (F2)                       S22: Re/Im (F2)            
4.00000000000E+09 +6.64570748896E-01 -3.44806064405E-01 +7.33084510348E-04 -6.27979987998E-04 +7.86798912083E-04 -6.36782300106E-04 +7.76218169441E-01 -3.40748228107E-01
4.00500000000E+09 +6.56345334738E-01 -3.50918592784E-01 +5.55934752928E-04 -6.42129599823E-04 +5.91597076939E-04 -5.85566515055E-04 +7.67662603253E-01 -3.52485978468E-01
4.01000000000E+09 +6.47332094186E-01 -3.56896734266E-01 +5.52387844844E-04 -5.61615499813E-04 +5.76714572110E-04 -5.57901025106E-04 +7.58096472201E-01 -3.63570079169E-01
4.01500000000E+09 +6.37208910167E-01 -3.63368045218E-01 +5.92087008752E-04 -5.30372396306E-04 +6.25648365119E-04 -5.45552678618E-04 +7.48595155762E-01 -3.73999468332E-01
4.02000000000E+09 +6.26385562122E-01 -3.70612387487E-01 +7.29005403279E-04 -7.51052867124E-04 +7.39166558705E-04 -7.41541625519E-04 +7.38867484854E-01 -3.84320773216E-01
4.02500000000E+09 +6.15427342580E-01 -3.79440015654E-01 +6.01225181695E-04 -9.65141866884E-04 +6.31057108839E-04 -9.24889425188E-04 +7.28850823086E-01 -3.94626301885E-01
4.03000000000E+09 +6.03793419126E-01 -3.90165266245E-01 +2.92831797725E-04 -1.17677578840E-03 +3.50985122433E-04 -1.17359409122E-03 +7.18406137738E-01 -4.04698865795E-01
4.03500000000E+09 +5.91763775426E-01 -4.00824692896E-01 -5.70338413643E-05 -9.32551639017E-04 +3.10645401930E-05 -9.56907212204E-04 +7.07503178305E-01 -4.15140287780E-01
4.04000000000E+09 +5.80473518769E-01 -4.11603427742E-01 +6.21953685589E-05 -7.64744879925E-04 +1.11265493214E-04 -8.26415473420E-04 +6.96964135195E-01 -4.25872390719E-01
4.04500000000E+09 +5.69231854924E-01 -4.22240988550E-01 +8.86820692566E-05 -6.54842983380E-04 +6.29995150904E-05 -6.97819704756E-04 +6.85690074862E-01 -4.36743577106E-01
4.05000000000E+09 +5.57731158479E-01 -4.30926930550E-01 +2.88398599237E-04 -7.44580444151E-04 +3.01466668316E-04 -7.68680518214E-04 +6.74127118080E-01 -4.46871262151E-01
4.05500000000E+09 +5.46144135683E-01 -4.38064356327E-01 +1.43697718321E-04 -9.75813505590E-04 +2.96714760672E-04 -1.05734683664E-03 +6.62438302347E-01 -4.56643798128E-01
4.06000000000E+09 +5.34026650577E-01 -4.43594577734E-01 +4.11999499185E-05 -1.13309834363E-03 +1.19843187794E-04 -1.18147358638E-03 +6.49926027064E-01 -4.66293420750E-01
4.06500000000E+09 +5.21363875619E-01 -4.47845649316E-01 -3.30426696833E-04 -1.05401019436E-03 -3.40993465360E-04 -1.11207657629E-03 +6.37225798349E-01 -4.75400022747E-01
4.07000000000E+09 +5.08027369565E-01 -4.51942893075E-01 -2.52894073923E-04 -9.00924502669E-04 -2.24881323839E-04 -9.28199589124E-04 +6.23583601124E-01 -4.85194551619E-01
4.07500000000E+09 +4.93492530728E-01 -4.57064065888E-01 -3.10861392039E-04 -9.91830552884E-04 -3.20180553928E-04 -1.04030340246E-03 +6.09923442160E-01 -4.94166819834E-01
4.08000000000E+09 +4.77388142610E-01 -4.62175237683E-01 -3.83592580036E-04 -9.44393155474E-04 -3.84087047324E-04 -9.81130612542E-04 +5.96904194866E-01 -5.03571816581E-01
4.08500000000E+09 +4.60839381653E-01 -4.68244132973E-01 -4.79160707320E-04 -8.73331425456E-04 -4.97511626941E-04 -9.28513442478E-04 +5.82808479310E-01 -5.13278400603E-01
4.09000000000E+09 +4.44190788945E-01 -4.74869718560E-01 -5.03998665236E-04 -9.69633023761E-04 -5.10220309678E-04 -1.06047893270E-03 +5.68534178600E-01 -5.21475974788E-01
4.09500000000E+09 +4.27962500381E-01 -4.81505160004E-01 -6.68236198280E-04 -7.63049664695E-04 -6.79574567989E-04 -7.81606594709E-04 +5.53980985789E-01 -5.29888238251E-01
4.10000000000E+09 +4.11658384541E-01 -4.88307442914E-01 -4.85818026542E-04 -8.60544386327E-04 -5.73105008201E-04 -8.31674816855E-04 +5.38418840366E-01 -5.37989159796E-01
4.10500000000E+09 +3.95500358600E-01 -4.93468445296E-01 -6.49489981125E-04 -1.01646059985E-03 -6.16389378606E-04 -1.00712306822E-03 +5.21997417480E-01 -5.45696756275E-01
4.11000000000E+09 +3.79517676046E-01 -4.96761959943E-01 -9.44871628158E-04 -9.95909355904E-04 -9.80474535425E-04 -1.04498222596E-03 +5.04926168247E-01 -5.53392578420E-01
4.11500000000E+09 +3.63991917625E-01 -4.98496377103E-01 -1.17007512172E-03 -8.11949335857E-04 -1.19574836131E-03 -8.37050519986E-04 +4.87769391148E-01 -5.60486377183E-01
4.12000000000E+09 +3.48544062267E-01 -4.98811909609E-01 -1.14115786193E-03 -6.04551705485E-04 -1.12339127949E-03 -6.27163594399E-04 +4.70590267917E-01 -5.67106373956E-01
4.12500000000E+09 +3.32954539570E-01 -4.99307470526E-01 -1.14367809699E-03 -5.00821158943E-04 -1.24022099477E-03 -5.03777644673E-04 +4.53565511646E-01 -5.73262795668E-01
4.13000000000E+09 +3.15143041749E-01 -5.00776094609E-01 -1.25137877449E-03 -6.14761243600E-04 -1.27557576532E-03 -6.25181323561E-04 +4.36365448544E-01 -5.79089635952E-01
4.13500000000E+09 +2.96057830975E-01 -5.01734983584E-01 -1.45476758333E-03 -3.80166162188E-04 -1.43586191110E-03 -4.49565315393E-04 +4.17681114752E-01 -5.84896338639E-01
4.14000000000E+09 +2.77084220757E-01 -5.03757474590E-01 -1.40770468140E-03 -1.48107321023E-04 -1.42850271023E-03 -2.21098968037E-04 +3.98645362254E-01 -5.89559634030E-01
4.14500000000E+09 +2.57274679403E-01 -5.07163095510E-01 -1.41751597988E-03 -1.31309878285E-04 -1.45972081958E-03 -1.55255789223E-04 +3.80111687586E-01 -5.94811511578E-01
4.15000000000E+09 +2.37535424663E-01 -5.11162982037E-01 -1.42271356662E-03 -2.47427059939E-06 -1.47451691917E-03 -5.76064483911E-05 +3.60151517913E-01 -6.00039998570E-01
4.15500000000E+09 +2.17830082428E-01 -5.14711522884E-01 -1.45285859113E-03 -1.24404769242E-04 -1.52056788965E-03 -1.80187621162E-04 +3.40833742061E-01 -6.03511857263E-01
4.16000000000E+09 +1.99068655031E-01 -5.17004801229E-01 -1.95562387750E-03 -3.44796573130E-05 -2.01762860786E-03 -1.81635922622E-05 +3.21346275780E-01 -6.06545941375E-01
4.16500000000E+09 +1.81777894743E-01 -5.16952272420E-01 -2.04280894237E-03 +7.55289813091E-04 -2.08698321793E-03 +6.96887303309E-04 +3.00686789096E-01 -6.08395725959E-01
4.17000000000E+09 +1.65877164731E-01 -5.15467222808E-01 -1.65359194752E-03 +9.21485035743E-04 -1.71525366531E-03 +8.78902434990E-04 +2.80847932363E-01 -6.09289440676E-01
4.17500000000E+09 +1.50023936989E-01 -5.12018654382E-01 -1.60904775295E-03 +1.40561434768E-03 -1.70229284857E-03 +1.41286683679E-03 +2.59562425844E-01 -6.10139782439E-01
4.18000000000E+09 +1.34543092833E-01 -5.07835912060E-01 -7.61179817510E-04 +1.31779224548E-03 -8.04052912125E-04 +1.24740648447E-03 +2.39047412079E-01 -6.10597602797E-01
4.18500000000E+09 +1.17192967007E-01 -5.02739325759E-01 -9.60197256115E-04 +7.32588986172E-04 -9.78741706229E-04 +7.41771833991E-04 +2.17124673085E-01 -6.11567852129E-01
4.19000000000E+09 +9.89302158254E-02 -4.96935754309E-01 -1.28956842885E-03 +7.58332163904E-04 -1.37648435658E-03 +7.92297141387E-04 +1.94706656697E-01 -6.10532560447E-01
4.19500000000E+09 +7.97676147749E-02 -4.90799192141E-01 -1.62597885874E-03 +1.33971840037E-03 -1.69913142525E-03 +1.42005102594E-03 +1.73485698767E-01 -6.08388293932E-01
4.20000000000E+09 +6.08339226970E-02 -4.85828299436E-01 -1.32581753144E-03 +1.83387979845E-03 -1.40260012793E-03 +1.88221212224E-03 +1.51660499189E-01 -6.06235567053E-01
4.20500000000E+09 +4.14290907476E-02 -4.82352515812E-01 -9.16845215822E-04 +2.15028653745E-03 -9.78802863979E-04 +2.21425012797E-03 +1.29280276679E-01 -6.02862089620E-01
4.21000000000E+09 +2.19536082687E-02 -4.78620516797E-01 -4.24145174780E-04 +1.80211254454E-03 -4.91565097539E-04 +1.86422843776E-03 +1.06899683464E-01 -5.99084705390E-01
4.21500000000E+09 +3.34963971631E-03 -4.74411470615E-01 -4.77119535592E-04 +1.76418488732E-03 -4.62316086870E-04 +1.78375535241E-03 +8.39239514023E-02 -5.94767926364E-01
4.22000000000E+09 -1.39982919572E-02 -4.69142190302E-01 -5.76496615247E-04 +1.88318439425E-03 -6.51021247384E-04 +1.99679818730E-03 +6.22962901989E-02 -5.89230566130E-01
4.22500000000E+09 -3.02021752521E-02 -4.61139223566E-01 -3.15007439189E-04 +2.42533412658E-03 -3.58625784602E-04 +2.43903523020E-03 +4.06668575985E-02 -5.84120736998E-01
4.23000000000E+09 -4.39872380741E-02 -4.52195022277E-01 +2.22716293674E-04 +2.21307039076E-03 +2.15747665989E-04 +2.21454316839E-03 +1.87533144091E-02 -5.77728707902E-01
4.23500000000E+09 -5.88447702757E-02 -4.42238753981E-01 +3.31908324902E-04 +2.03918479257E-03 +3.65849338310E-04 +2.06953731979E-03 -2.94155402189E-03 -5.69969265623E-01
4.24000000000E+09 -7.48988379316E-02 -4.30854717387E-01 +2.66775916943E-05 +2.10640803834E-03 +5.15689491093E-05 +2.19971094284E-03 -2.54758793447E-02 -5.61455120207E-01
4.24500000000E+09 -9.21264764015E-02 -4.17962133602E-01 +7.30860457774E-04 +2.59041298056E-03 +7.36334219262E-04 +2.64712916687E-03 -4.75066090616E-02 -5.51339884807E-01
4.25000000000E+09 -1.10824857009E-01 -4.05222979700E-01 +9.73476693349E-04 +2.22606542349E-03 +1.01232761261E-03 +2.25190074323E-03 -6.92486303125E-02 -5.41396464595E-01
4.25500000000E+09 -1.30542902725E-01 -3.92327253675E-01 +1.34045191435E-03 +2.16547305726E-03 +1.36991362666E-03 +2.20304447253E-03 -9.19835637534E-02 -5.29771946333E-01
4.26000000000E+09 -1.50139400870E-01 -3.80853447028E-01 +1.27130379713E-03 +1.94463723105E-03 +1.28941799468E-03 +1.95919413483E-03 -1.12582310030E-01 -5.16393679545E-01
4.26500000000E+09 -1.70999977477E-01 -3.70194913778E-01 +1.50819949568E-03 +2.20278009793E-03 +1.49630668542E-03 +2.22679735655E-03 -1.32877980951E-01 -5.03372560960E-01
4.27000000000E+09 -1.89746633589E-01 -3.58547381081E-01 +2.01835534426E-03 +2.17518842655E-03 +2.04423021090E-03 +2.21291731346E-03 -1.53530127153E-01 -4.88367148913E-01
4.27500000000E+09 -2.05700243950E-01 -3.47159836452E-01 +2.48077486653E-03 +1.82874055476E-03 +2.48481208928E-03 +1.83501523716E-03 -1.73247283088E-01 -4.73135035776E-01
4.28000000000E+09 -2.19017083692E-01 -3.35622002747E-01 +2.82852211820E-03 +1.45260219719E-03 +2.89086571763E-03 +1.42943043059E-03 -1.93196875142E-01 -4.56853523259E-01
4.28500000000E+09 -2.31580229579E-01 -3.23054762553E-01 +2.80064435698E-03 +6.71517017017E-04 +2.89282328522E-03 +6.93297931227E-04 -2.12429435114E-01 -4.40862776736E-01
4.29000000000E+09 -2.41715491591E-01 -3.07901565713E-01 +2.53737271094E-03 +4.26320488009E-04 +2.61042367986E-03 +4.28905139908E-04 -2.30647360942E-01 -4.24289648702E-01
4.29500000000E+09 -2.52189017866E-01 -2.91823635338E-01 +2.19700866864E-03 +7.99364624630E-04 +2.20160199991E-03 +7.95707150468E-04 -2.49493665497E-01 -4.07096930086E-01
4.30000000000E+09 -2.63074470925E-01 -2.73565599798E-01 +2.94850365368E-03 +7.56958394372E-04 +2.98151231265E-03 +7.70563261438E-04 -2.66177630936E-01 -3.87675292746E-01
4.30500000000E+09 -2.74869697181E-01 -2.53709847285E-01 +3.16558063608E-03 +2.73086318355E-04 +3.16481811163E-03 +2.69826547164E-04 -2.81808832872E-01 -3.68044535178E-01
4.31000000000E+09 -2.87715285102E-01 -2.33821551050E-01 +3.63571729058E-03 +2.80204410812E-06 +3.77674091655E-03 +4.97455411619E-06 -2.97053851181E-01 -3.47666508648E-01
4.31500000000E+09 -3.01421175956E-01 -2.13960066169E-01 +3.62618504428E-03 -1.19188427208E-03 +3.72614084644E-03 -1.21400131681E-03 -3.11508331256E-01 -3.26579442259E-01
4.32000000000E+09 -3.14584737677E-01 -1.95327719193E-01 +2.91877634323E-03 -1.65010380537E-03 +2.94517361615E-03 -1.74502593883E-03 -3.24157908090E-01 -3.05105250541E-01
4.32500000000E+09 -3.27614255919E-01 -1.78388743230E-01 +2.32324207337E-03 -1.66771237599E-03 +2.39231316949E-03 -1.70260516159E-03 -3.36893518215E-01 -2.84533369872E-01
4.33000000000E+09 -3.38742606957E-01 -1.61765822675E-01 +2.56971168438E-03 -1.24053543358E-03 +2.59620061888E-03 -1.26896739881E-03 -3.49789380213E-01 -2.62524408600E-01
4.33500000000E+09 -3.46999014801E-01 -1.45732119696E-01 +2.90573053320E-03 -1.64530083940E-03 +2.87091138168E-03 -1.71415530152E-03 -3.61411212845E-01 -2.38970001889E-01
4.34000000000E+09 -3.52710443402E-01 -1.30316875026E-01 +2.94560094369E-03 -2.20876917547E-03 +2.92150660354E-03 -2.25330253890E-03 -3.72392953980E-01 -2.15702103622E-01
4.34500000000E+09 -3.57213133989E-01 -1.13884990843E-01 +2.68313523182E-03 -3.00867564296E-03 +2.69669379118E-03 -2.99719595319E-03 -3.82836855582E-01 -1.89799995602E-01
4.35000000000E+09 -3.59398118829E-01 -9.52874706948E-02 +2.03064742476E-03 -3.44823087080E-03 +2.04701519673E-03 -3.49615440341E-03 -3.90190713653E-01 -1.64819806603E-01
4.35500000000E+09 -3.61656868401E-01 -7.54448203996E-02 +1.68068582834E-03 -3.62609388309E-03 +1.66934287020E-03 -3.68813108597E-03 -3.97983345902E-01 -1.41482362287E-01
4.36000000000E+09 -3.64514206053E-01 -5.34758304658E-02 +1.23157155129E-03 -3.92214093886E-03 +1.19696390350E-03 -4.00638503934E-03 -4.04455465949E-01 -1.17301137328E-01
4.36500000000E+09 -3.67678223656E-01 -2.98467567693E-02 +4.13172985648E-04 -4.19884287495E-03 +4.30917831497E-04 -4.26735136118E-03 -4.09736071555E-01 -9.39046369797E-02
4.37000000000E+09 -3.72377522632E-01 -7.50721473476E-03 -4.01687806434E-04 -3.90182416746E-03 -4.64099891812E-04 -3.95640216146E-03 -4.13898257483E-01 -6.97317968122E-02
4.37500000000E+09 -3.78603311813E-01 +1.52570172534E-02 -6.91878869418E-04 -3.20531254199E-03 -7.90434144709E-04 -3.23909013594E-03 -4.17361282114E-01 -4.49010874165E-02
4.38000000000E+09 -3.84487767325E-01 +3.65376461012E-02 -4.33598407297E-04 -3.33123106271E-03 -5.26914846884E-04 -3.39730020848E-03 -4.19685510429E-01 -1.97668827772E-02
4.38500000000E+09 -3.89619616518E-01 +5.53870458695E-02 -6.05630577878E-04 -3.28502568659E-03 -6.21773267029E-04 -3.34199887755E-03 -4.21171956239E-01 +5.69939882528E-03
4.39000000000E+09 -3.92911868166E-01 +7.17743330295E-02 -9.58288582945E-04 -4.08033553489E-03 -1.03227042731E-03 -4.10309239216E-03 -4.21385729170E-01 +3.08891652962E-02
4.39500000000E+09 -3.94786627281E-01 +8.62823142597E-02 -2.32359214711E-03 -3.93680934740E-03 -2.42944980609E-03 -3.88551594725E-03 -4.21204364365E-01 +5.45952659177E-02
4.40000000000E+09 -3.94517157707E-01 +1.00733034456E-01 -2.67234806709E-03 -3.11395550096E-03 -2.74347124954E-03 -3.09092897980E-03 -4.19957345715E-01 +7.89571833004E-02
4.40500000000E+09 -3.92215847557E-01 +1.16339279564E-01 -3.08681276033E-03 -2.65129084653E-03 -3.14370854471E-03 -2.57797279578E-03 -4.17139183768E-01 +1.02670750171E-01
4.41000000000E+09 -3.87412599781E-01 +1.33601795665E-01 -3.06530156999E-03 -2.15441007477E-03 -3.10837082129E-03 -2.07600837341E-03 -4.13641407455E-01 +1.25896215162E-01
4.41500000000E+09 -3.81949233601E-01 +1.52673258268E-01 -3.25157324969E-03 -1.66457322345E-03 -3.30705572689E-03 -1.64645719564E-03 -4.08724761845E-01 +1.50035587680E-01
4.42000000000E+09 -3.76526313482E-01 +1.74039980601E-01 -3.07204413834E-03 -1.40086759366E-03 -3.08018564735E-03 -1.33619573899E-03 -4.03617898367E-01 +1.71994546144E-01
4.42500000000E+09 -3.70907761347E-01 +1.96060193832E-01 -3.16366201914E-03 -1.37519077214E-03 -3.20982595855E-03 -1.27318832245E-03 -3.98234503508E-01 +1.95293261891E-01
4.43000000000E+09 -3.67143402707E-01 +2.17504415094E-01 -3.16884133815E-03 -1.24068997390E-03 -3.14473593584E-03 -1.10302062025E-03 -3.91912143798E-01 +2.17106809458E-01
4.43500000000E+09 -3.65044719159E-01 +2.38366376263E-01 -3.98735426864E-03 -1.19971016359E-03 -3.91008465500E-03 -1.15297337593E-03 -3.85689677900E-01 +2.38593834241E-01
4.44000000000E+09 -3.63709639749E-01 +2.57483746469E-01 -4.21976724785E-03 -3.09372621048E-04 -4.14428178172E-03 -3.01572623125E-04 -3.77782329486E-01 +2.61496776683E-01
4.44500000000E+09 -3.62301082530E-01 +2.74399947707E-01 -4.12633384893E-03 +3.60869711525E-04 -4.07907209568E-03 +3.72965572655E-04 -3.68604602101E-01 +2.81170829072E-01
4.45000000000E+09 -3.60091789176E-01 +2.88992985252E-01 -4.07028304994E-03 +9.42715004736E-04 -4.04824155003E-03 +1.04543041504E-03 -3.59186895718E-01 +3.01577864489E-01
4.45500000000E+09 -3.55768911355E-01 +3.02152094706E-01 -3.67733627835E-03 +1.72797640159E-03 -3.54368913166E-03 +1.84759138556E-03 -3.48108595490E-01 +3.20385659281E-01
4.46000000000E+09 -3.49613710923E-01 +3.14013445678E-01 -2.89410163802E-03 +1.84826771332E-03 -2.88249968661E-03 +1.86672201632E-03 -3.38767827815E-01 +3.37784422431E-01
4.46500000000E+09 -3.41014677833E-01 +3.27150334346E-01 -2.60564824299E-03 +1.88033330597E-03 -2.50119233697E-03 +1.90444641013E-03 -3.27494761144E-01 +3.56536133637E-01
4.47000000000E+09 -3.30180302496E-01 +3.41364444532E-01 -2.46737285588E-03 +1.47628436868E-03 -2.38247477699E-03 +1.48253601344E-03 -3.15959600647E-01 +3.73881152224E-01
4.47500000000E+09 -3.17887400370E-01 +3.57801732755E-01 -3.43093664941E-03 +1.91762553394E-03 -3.36608528089E-03 +1.98303161819E-03 -3.04393026219E-01 +3.90582777204E-01
4.48000000000E+09 -3.04794845812E-01 +3.75322939819E-01 -2.74968654741E-03 +2.93836025456E-03 -2.60191887195E-03 +2.99547754753E-03 -2.92552744844E-01 +4.07516147060E-01
4.48500000000E+09 -2.92639634471E-01 +3.93266270823E-01 -2.19739586343E-03 +3.31891032789E-03 -2.06915068433E-03 +3.28883845862E-03 -2.80156210163E-01 +4.23749930802E-01
4.49000000000E+09 -2.82838906872E-01 +4.10691683305E-01 -1.55808463333E-03 +3.59050048031E-03 -1.46180972348E-03 +3.55247365322E-03 -2.66859338061E-01 +4.39567690282E-01
4.49500000000E+09 -2.74794624765E-01 +4.28943561488E-01 -6.95942455136E-04 +3.41724414093E-03 -6.99763234357E-04 +3.30209756112E-03 -2.53218717226E-01 +4.53417015935E-01
4.50000000000E+09 -2.67432628818E-01 +4.44116931950E-01 -5.29312292477E-04 +3.04934274764E-03 -4.95092606587E-04 +3.01941622574E-03 -2.40286830413E-01 +4.67037098072E-01
4.50500000000E+09 -2.61645576020E-01 +4.57391765481E-01 -3.63639524661E-04 +2.89527210252E-03 -3.31472298114E-04 +2.84941497840E-03 -2.26548909405E-01 +4.79981038827E-01
4.51000000000E+09 -2.55254563617E-01 +4.68293552103E-01 -3.82406958774E-04 +2.73865507803E-03 -4.01042425607E-04 +2.73925182175E-03 -2.13333605619E-01 +4.92534753312E-01
4.51500000000E+09 -2.47225049998E-01 +4.77148066822E-01 -3.21203159295E-04 +2.98948629164E-03 -1.98224208234E-04 +2.97997201857E-03 -1.99765336632E-01 +5.04603689587E-01
4.52000000000E+09 -2.37682291284E-01 +4.84526149030E-01 -1.53930589251E-04 +3.18626315093E-03 -1.29049890333E-04 +3.10933545654E-03 -1.86340380689E-01 +5.16193184044E-01
4.52500000000E+09 -2.26273946818E-01 +4.92470883962E-01 +3.03836827701E-04 +3.28009609352E-03 +3.30904838336E-04 +3.21052344674E-03 -1.73135467506E-01 +5.27052987996E-01
4.53000000000E+09 -2.12292972432E-01 +5.00990615057E-01 +6.92303091225E-04 +3.50386003038E-03 +7.31836465097E-04 +3.42275075636E-03 -1.59150660517E-01 +5.37990293447E-01
4.53500000000E+09 -1.96580051007E-01 +5.10766722374E-01 +1.45324952080E-03 +3.10749384393E-03 +1.48572617755E-03 +3.06154417083E-03 -1.44545182105E-01 +5.48021136887E-01
4.54000000000E+09 -1.80684812086E-01 +5.21288794738E-01 +1.57530753767E-03 +2.82999691405E-03 +1.65197458957E-03 +2.74783172665E-03 -1.29741876033E-01 +5.58145359362E-01
4.54500000000E+09 -1.65162501815E-01 +5.32310259744E-01 +1.60074021834E-03 +2.63072314642E-03 +1.56666350625E-03 +2.63533290410E-03 -1.14470391616E-01 +5.67021205235E-01
4.55000000000E+09 -1.52077505088E-01 +5.43057029076E-01 +2.11669554957E-03 +2.68504787769E-03 +2.15214785944E-03 +2.53099173622E-03 -9.99561241217E-02 +5.76004749583E-01
4.55500000000E+09 -1.41262065965E-01 +5.53928624954E-01 +2.30957253353E-03 +2.14693170783E-03 +2.28346416697E-03 +2.08026590362E-03 -8.57687982407E-02 +5.84632189127E-01
4.56000000000E+09 -1.31940059679E-01 +5.64166566686E-01 +2.31827384894E-03 +2.04551623610E-03 +2.26165147380E-03 +1.93659149213E-03 -7.09422581566E-02 +5.93213873195E-01
4.56500000000E+09 -1.23177938324E-01 +5.72438041568E-01 +2.74602174711E-03 +1.93961503109E-03 +2.72145684599E-03 +1.80648175685E-03 -5.63933070431E-02 +6.00485005730E-01
4.57000000000E+09 -1.14527514223E-01 +5.79294589161E-01 +2.88353474442E-03 +1.43039610735E-03 +2.83510982613E-03 +1.35971155027E-03 -4.15502332457E-02 +6.07867013062E-01
