# Hz S RI R 50
! CMT, C1220, 16058040, 17.2.0/1
! Date: 15/08/2018 12:06:35
! Data: Format (Calibration Info)
! Freq                      S11: Re/Im (F2)                       S21: Re/Im (F2)                       S12: Re/Im (F2)                       S22: Re/Im (F2)            
4.00000000000E+09 +6.65116682742E-01 -3.40245932582E-01 +1.48093062535E-03 -5.26000668451E-04 +1.54512282281E-03 -4.57633187521E-04 +7.78079724551E-01 -3.37096823592E-01
4.00500000000E+09 +6.56895921110E-01 -3.46305157558E-01 +1.33289461004E-03 -5.32986994363E-04 +1.39988037553E-03 -5.09117355212E-04 +7.69612929496E-01 -3.48887505408E-01
4.01000000000E+09 +6.47776311547E-01 -3.52428568810E-01 +1.21612848354E-03 -6.18230270799E-04 +1.26494046969E-03 -6.11668252862E-04 +7.60014239575E-01 -3.60105659117E-01
4.01500000000E+09 +6.37223349261E-01 -3.59192734147E-01 +1.19824909724E-03 -4.84934862131E-04 +1.19153144018E-03 -4.72922094304E-04 +7.50387327460E-01 -3.70656834481E-01
4.02000000000E+09 +6.26389020458E-01 -3.66352807000E-01 +1.43731669679E-03 -5.91852841244E-04 +1.46504609536E-03 -5.75625677773E-04 +7.40596935354E-01 -3.81103144488E-01
4.02500000000E+09 +6.15297898325E-01 -3.75224531391E-01 +1.50525463324E-03 -9.33990875843E-04 +1.60128072633E-03 -8.87943297754E-04 +7.30400559336E-01 -3.91439620821E-01
4.03000000000E+09 +6.03427864809E-01 -3.85726703778E-01 +1.28497348767E-03 -1.37110593081E-03 +1.35794073888E-03 -1.35786854213E-03 +7.19811178280E-01 -4.01529153771E-01
4.03500000000E+09 +5.91739109857E-01 -3.96079242769E-01 +8.57098915683E-04 -1.25672153931E-03 +9.33030868563E-04 -1.30292816885E-03 +7.08776183227E-01 -4.12049716467E-01
4.04000000000E+09 +5.80564639437E-01 -4.06751164111E-01 +8.37855775490E-04 -1.12891371295E-03 +8.59887390869E-04 -1.13925118697E-03 +6.98123567428E-01 -4.22432507611E-01
4.04500000000E+09 +5.69396156856E-01 -4.16908658361E-01 +7.41712673016E-04 -9.89284502809E-04 +7.81636143750E-04 -1.02855547702E-03 +6.86967504535E-01 -4.33112139373E-01
4.05000000000E+09 +5.58337546267E-01 -4.25322903787E-01 +1.11581007785E-03 -1.07288499103E-03 +1.18643400563E-03 -1.08343482082E-03 +6.75630449665E-01 -4.42976444892E-01
4.05500000000E+09 +5.46779587491E-01 -4.32234086445E-01 +1.20803260692E-03 -1.52066923034E-03 +1.24611199328E-03 -1.52358363870E-03 +6.64212085396E-01 -4.52731188049E-01
4.06000000000E+09 +5.34777602342E-01 -4.37703068573E-01 +9.86097321432E-04 -1.80876923766E-03 +1.01857296590E-03 -1.83316298911E-03 +6.51992769391E-01 -4.62612992220E-01
4.06500000000E+09 +5.22129801153E-01 -4.41704015998E-01 +6.16398872541E-04 -1.91500860196E-03 +6.82332803916E-04 -1.93947086287E-03 +6.38927754957E-01 -4.72017845902E-01
4.07000000000E+09 +5.08678243731E-01 -4.45684313025E-01 +5.94742248131E-04 -1.98310557011E-03 +6.08971203355E-04 -2.01722797332E-03 +6.25084669374E-01 -4.81833594251E-01
4.07500000000E+09 +4.93958153016E-01 -4.50560577147E-01 +2.76561284309E-04 -2.30036469966E-03 +3.64273214823E-04 -2.30638366731E-03 +6.11402027475E-01 -4.90764320842E-01
4.08000000000E+09 +4.78330687347E-01 -4.55629269706E-01 -8.67388288722E-06 -2.23164303549E-03 +6.53174743000E-05 -2.27875359123E-03 +5.98221457801E-01 -4.99998443321E-01
4.08500000000E+09 +4.61896198459E-01 -4.61937560529E-01 -2.77657849532E-04 -2.19719884726E-03 -2.62029012303E-04 -2.22510755818E-03 +5.84264229998E-01 -5.09538303007E-01
4.09000000000E+09 +4.45443609180E-01 -4.68643315692E-01 -3.82037346690E-04 -2.20780146779E-03 -3.57889414645E-04 -2.24199544400E-03 +5.70376922764E-01 -5.17541841898E-01
4.09500000000E+09 +4.29508291702E-01 -4.75589966200E-01 -5.67707466250E-04 -2.03641919066E-03 -5.35672588119E-04 -2.14188983218E-03 +5.56146107632E-01 -5.26174176493E-01
4.10000000000E+09 +4.13390270283E-01 -4.82539477229E-01 -5.79272435384E-04 -2.25454822506E-03 -5.50236855590E-04 -2.35454094393E-03 +5.40048384442E-01 -5.34590746721E-01
4.10500000000E+09 +3.97515802332E-01 -4.87826954463E-01 -9.12018795180E-04 -2.41419805181E-03 -8.73262954359E-04 -2.47173701265E-03 +5.23539724916E-01 -5.42075870674E-01
4.11000000000E+09 +3.81964537616E-01 -4.91114253204E-01 -1.45221295229E-03 -2.52773950430E-03 -1.36912033548E-03 -2.63638817494E-03 +5.06380045857E-01 -5.49653796197E-01
4.11500000000E+09 +3.66922201843E-01 -4.92710238443E-01 -2.05954969369E-03 -2.21085841129E-03 -2.05911139669E-03 -2.29495654103E-03 +4.89357091991E-01 -5.56427407889E-01
4.12000000000E+09 +3.51939870373E-01 -4.92937182186E-01 -2.20349716748E-03 -1.70769243881E-03 -2.14074930699E-03 -1.86642563292E-03 +4.72554141004E-01 -5.62908370826E-01
4.12500000000E+09 +3.36785324763E-01 -4.93449893619E-01 -2.24887672995E-03 -1.44121397330E-03 -2.25609698050E-03 -1.55387678364E-03 +4.55643157558E-01 -5.68968979289E-01
4.13000000000E+09 +3.19056336761E-01 -4.94881595765E-01 -2.26263261301E-03 -1.45105552995E-03 -2.23695698160E-03 -1.54350973423E-03 +4.38888010267E-01 -5.74731207044E-01
4.13500000000E+09 +3.00272748187E-01 -4.95606553302E-01 -2.53087854103E-03 -1.17981601968E-03 -2.55027147391E-03 -1.33599390567E-03 +4.20468444321E-01 -5.80666451161E-01
4.14000000000E+09 +2.81266720545E-01 -4.97773790904E-01 -2.68866820184E-03 -8.96081552811E-04 -2.79956862875E-03 -1.07177686300E-03 +4.01767038722E-01 -5.85686383343E-01
4.14500000000E+09 +2.61595791893E-01 -5.00938336188E-01 -2.83062008169E-03 -5.57409318185E-04 -2.95660736302E-03 -7.19460966364E-04 +3.82999857044E-01 -5.91036418008E-01
4.15000000000E+09 +2.42149892207E-01 -5.05036614128E-01 -2.69707430363E-03 -3.28532300912E-04 -2.82854380717E-03 -3.67216164302E-04 +3.62995591490E-01 -5.96079932714E-01
4.15500000000E+09 +2.22679406218E-01 -5.08928322348E-01 -2.73656907881E-03 -4.20095957168E-04 -2.89683747202E-03 -4.07232056286E-04 +3.44204515217E-01 -5.99192946832E-01
4.16000000000E+09 +2.03856469797E-01 -5.11716314991E-01 -3.22030615940E-03 -9.75432775189E-05 -3.39097155514E-03 -1.15903681501E-04 +3.25064833766E-01 -6.02473902050E-01
4.16500000000E+09 +1.86560525088E-01 -5.12010218100E-01 -3.29021165537E-03 +6.81659213991E-04 -3.41187388735E-03 +6.44423640978E-04 +3.04657332719E-01 -6.04636908324E-01
4.17000000000E+09 +1.70622503616E-01 -5.11323702201E-01 -3.01078117951E-03 +8.66580277818E-04 -3.11515468351E-03 +9.55757007073E-04 +2.84934382712E-01 -6.05708523181E-01
4.17500000000E+09 +1.54518009267E-01 -5.08278046422E-01 -2.98295575361E-03 +1.63327771331E-03 -3.08338297057E-03 +1.61902515769E-03 +2.64012244765E-01 -6.06629373227E-01
4.18000000000E+09 +1.39043823843E-01 -5.04105619597E-01 -1.97196232720E-03 +1.55116650542E-03 -2.09166402451E-03 +1.59975055517E-03 +2.43692391762E-01 -6.07489098109E-01
4.18500000000E+09 +1.22207257750E-01 -4.99330103373E-01 -2.22894764983E-03 +9.22342087050E-04 -2.30108598635E-03 +9.69372765310E-04 +2.21741159694E-01 -6.08968583272E-01
4.19000000000E+09 +1.04130171292E-01 -4.93927463854E-01 -2.74519066516E-03 +1.22659781884E-03 -2.81908067430E-03 +1.24160087080E-03 +1.99403308093E-01 -6.07717191235E-01
4.19500000000E+09 +8.52666022450E-02 -4.88048268832E-01 -2.92421944807E-03 +1.91142437302E-03 -2.98954163846E-03 +1.94936575199E-03 +1.78214575818E-01 -6.05959850473E-01
4.20000000000E+09 +6.62638522093E-02 -4.83752113162E-01 -2.81059021640E-03 +2.38675941183E-03 -2.83758373224E-03 +2.42997605755E-03 +1.56388027496E-01 -6.03898506671E-01
4.20500000000E+09 +4.65086569559E-02 -4.80155824890E-01 -2.46883923860E-03 +3.06884035310E-03 -2.54122106660E-03 +3.14115553326E-03 +1.34231747011E-01 -6.00753805066E-01
4.21000000000E+09 +2.72578038924E-02 -4.76428723582E-01 -1.73198282781E-03 +2.96442187269E-03 -1.87294970968E-03 +3.03952795658E-03 +1.12032896853E-01 -5.97395940885E-01
4.21500000000E+09 +8.49905958149E-03 -4.72589573312E-01 -1.83396558039E-03 +3.15565377427E-03 -1.88991085029E-03 +3.14724933438E-03 +8.90043974671E-02 -5.92789885836E-01
4.22000000000E+09 -9.20683328419E-03 -4.67193342495E-01 -1.85943229409E-03 +3.61499835623E-03 -1.86388569683E-03 +3.64572460030E-03 +6.79598486727E-02 -5.87534218418E-01
4.22500000000E+09 -2.52872538814E-02 -4.59389365484E-01 -1.18414418953E-03 +4.37746123846E-03 -1.23386851543E-03 +4.39489003602E-03 +4.65578595030E-02 -5.82836545421E-01
4.23000000000E+09 -3.90642073691E-02 -4.51170716890E-01 -3.68848407313E-04 +4.08256444828E-03 -4.36502491607E-04 +4.17395663062E-03 +2.45526019135E-02 -5.76863692100E-01
4.23500000000E+09 -5.42248053524E-02 -4.41949961633E-01 -6.38073597614E-06 +4.03265015172E-03 +2.56135139396E-05 +4.14950716493E-03 +3.14339197954E-03 -5.69646445479E-01
4.24000000000E+09 -7.06605225815E-02 -4.31025153712E-01 -3.79692837780E-05 +4.10829106506E-03 -7.44770790850E-05 +4.15459700603E-03 -1.94408424483E-02 -5.61618189397E-01
4.24500000000E+09 -8.80799054960E-02 -4.18758046307E-01 +6.77322349446E-04 +4.57953757702E-03 +6.93708912896E-04 +4.64526675509E-03 -4.14708428107E-02 -5.52016328703E-01
4.25000000000E+09 -1.07160554172E-01 -4.06626079802E-01 +1.29314097775E-03 +4.46028155313E-03 +1.27662504430E-03 +4.48998783584E-03 -6.33795577556E-02 -5.42607949419E-01
4.25500000000E+09 -1.26777191771E-01 -3.93810609001E-01 +1.99281514591E-03 +4.31780842971E-03 +1.99869506266E-03 +4.38523575832E-03 -8.60863194392E-02 -5.31293059071E-01
4.26000000000E+09 -1.46292203012E-01 -3.83143233139E-01 +2.25270560717E-03 +3.95817859025E-03 +2.33696959553E-03 +4.07051826199E-03 -1.06602956477E-01 -5.18781054755E-01
4.26500000000E+09 -1.67259642614E-01 -3.73027049503E-01 +2.73789583865E-03 +3.89718287089E-03 +2.84456605787E-03 +4.05123690493E-03 -1.27569013568E-01 -5.06357913509E-01
4.27000000000E+09 -1.86491788480E-01 -3.61954025565E-01 +3.37238096133E-03 +3.66807129694E-03 +3.46298088706E-03 +3.73714857753E-03 -1.48640140959E-01 -4.91780306705E-01
4.27500000000E+09 -2.03083542555E-01 -3.50791178911E-01 +3.85495978400E-03 +3.22451218478E-03 +3.94784104374E-03 +3.23878027131E-03 -1.69043268712E-01 -4.76985060874E-01
4.28000000000E+09 -2.17075815159E-01 -3.39180411319E-01 +4.50456135253E-03 +2.61560904600E-03 +4.63441037629E-03 +2.65474441221E-03 -1.89593741278E-01 -4.61057994641E-01
4.28500000000E+09 -2.29916641174E-01 -3.26344849983E-01 +4.43785679818E-03 +1.56084205143E-03 +4.55418302570E-03 +1.59747685603E-03 -2.09619635467E-01 -4.45138976003E-01
4.29000000000E+09 -2.40436868150E-01 -3.11120834190E-01 +4.11025872305E-03 +1.22858577897E-03 +4.20000574854E-03 +1.23015700311E-03 -2.28518840408E-01 -4.28111480761E-01
4.29500000000E+09 -2.51318485463E-01 -2.95134391666E-01 +3.89536560240E-03 +1.57521551130E-03 +3.99835831114E-03 +1.55554520538E-03 -2.47305335606E-01 -4.10472528048E-01
4.30000000000E+09 -2.62667695588E-01 -2.76988907905E-01 +4.89374667492E-03 +1.31487035545E-03 +5.00702588252E-03 +1.31729290075E-03 -2.64014631978E-01 -3.91188278767E-01
4.30500000000E+09 -2.75018717172E-01 -2.57231741455E-01 +5.18789933875E-03 +5.86401508418E-04 +5.30725888223E-03 +5.65936932193E-04 -2.79687747621E-01 -3.71686351340E-01
4.31000000000E+09 -2.88175292382E-01 -2.37385190939E-01 +5.85862565301E-03 -9.24179142554E-05 +5.91889321992E-03 -1.54828224097E-04 -2.94695467613E-01 -3.51989882271E-01
4.31500000000E+09 -3.02399283407E-01 -2.17639235796E-01 +5.55084778412E-03 -1.58584549012E-03 +5.68328100027E-03 -1.74101805647E-03 -3.10420712408E-01 -3.31724473215E-01
4.32000000000E+09 -3.15982540343E-01 -1.99109359325E-01 +4.57733540282E-03 -2.29118618551E-03 +4.64346409885E-03 -2.38688225919E-03 -3.24430991883E-01 -3.09322866444E-01
4.32500000000E+09 -3.29830447465E-01 -1.82040749571E-01 +3.87437294326E-03 -2.26029105247E-03 +3.90738111922E-03 -2.36556020356E-03 -3.36849506005E-01 -2.87950877404E-01
4.33000000000E+09 -3.41404290876E-01 -1.64951121348E-01 +4.07966043933E-03 -1.98690224450E-03 +4.11015642310E-03 -2.05660441670E-03 -3.49717044446E-01 -2.66218379516E-01
4.33500000000E+09 -3.49829347643E-01 -1.48461561520E-01 +4.15119750981E-03 -2.37667965597E-03 +4.15935274630E-03 -2.42953753138E-03 -3.61580562141E-01 -2.42606742247E-01
4.34000000000E+09 -3.56100863161E-01 -1.32677210323E-01 +4.50540756331E-03 -2.95651185745E-03 +4.44938884220E-03 -3.04685889180E-03 -3.72749650079E-01 -2.19621966417E-01
4.34500000000E+09 -3.60683129010E-01 -1.15991297235E-01 +4.12802171076E-03 -4.01721571709E-03 +4.05646525380E-03 -4.07503018999E-03 -3.83950295376E-01 -1.93536270173E-01
4.35000000000E+09 -3.63196986409E-01 -9.72952888958E-02 +3.31929403481E-03 -4.64457029281E-03 +3.29412807280E-03 -4.68388495653E-03 -3.91587638220E-01 -1.68477371333E-01
4.35500000000E+09 -3.65975793111E-01 -7.75053313758E-02 +2.86506712566E-03 -4.98317320800E-03 +2.85553405343E-03 -5.02140140843E-03 -3.99803960179E-01 -1.44576075568E-01
4.36000000000E+09 -3.69594999693E-01 -5.50176730452E-02 +2.09874662681E-03 -5.36093248483E-03 +2.05099206537E-03 -5.40380359483E-03 -4.06363955571E-01 -1.20220330620E-01
4.36500000000E+09 -3.73053396782E-01 -3.10538007893E-02 +1.31494058300E-03 -5.41798862564E-03 +1.22360864365E-03 -5.44737289212E-03 -4.12286581857E-01 -9.63522000794E-02
4.37000000000E+09 -3.77734134252E-01 -7.99634729224E-03 +6.35882272717E-04 -5.31803518608E-03 +5.90183575333E-04 -5.36043971895E-03 -4.16421456957E-01 -7.13592675931E-02
4.37500000000E+09 -3.83354404279E-01 +1.49006253088E-02 +1.68842663018E-04 -4.86685317749E-03 +7.59438824142E-05 -4.92132973903E-03 -4.19353708950E-01 -4.62062553742E-02
4.38000000000E+09 -3.88995306823E-01 +3.58863895400E-02 +2.21561872850E-04 -5.31177723806E-03 +1.41981350560E-04 -5.37795686482E-03 -4.21755990440E-01 -2.13692534361E-02
4.38500000000E+09 -3.94497499578E-01 +5.43403434568E-02 -1.58627628628E-04 -5.37336847586E-03 -2.20318093992E-04 -5.34244510561E-03 -4.23591950174E-01 +4.34129194214E-03
4.39000000000E+09 -3.98348132770E-01 +7.13061606021E-02 -9.40081851113E-04 -6.16956289033E-03 -1.06854729549E-03 -6.20654414178E-03 -4.24119779305E-01 +2.98651992134E-02
4.39500000000E+09 -4.00528476257E-01 +8.67441044131E-02 -2.42854133780E-03 -5.95895056334E-03 -2.53679281214E-03 -5.91187304670E-03 -4.23926725773E-01 +5.44192796392E-02
4.40000000000E+09 -3.99894186040E-01 +1.01754478809E-01 -3.00405370614E-03 -5.23905903483E-03 -3.07521447339E-03 -5.22419663023E-03 -4.21970596220E-01 +7.94998554375E-02
4.40500000000E+09 -3.97624917577E-01 +1.17766570591E-01 -3.96451621496E-03 -4.67769963287E-03 -4.03883328534E-03 -4.59304631125E-03 -4.18395072978E-01 +1.02985173179E-01
4.41000000000E+09 -3.92664686907E-01 +1.35045662358E-01 -3.94987754656E-03 -3.83884804920E-03 -4.04850960911E-03 -3.75069793486E-03 -4.14563992198E-01 +1.25926163224E-01
4.41500000000E+09 -3.87464858555E-01 +1.53884179898E-01 -4.32367677439E-03 -3.39067598550E-03 -4.35228580091E-03 -3.34552180680E-03 -4.09763339345E-01 +1.49847193895E-01
4.42000000000E+09 -3.82598724809E-01 +1.75147880007E-01 -4.52286761628E-03 -3.00554266780E-03 -4.58168636201E-03 -2.94644141906E-03 -4.04512689066E-01 +1.72349563665E-01
4.42500000000E+09 -3.77940831836E-01 +1.97348857981E-01 -4.79564130271E-03 -2.51133058193E-03 -4.82651699813E-03 -2.43460198804E-03 -3.98251179307E-01 +1.95211962140E-01
4.43000000000E+09 -3.74335076090E-01 +2.19570317597E-01 -4.75743543823E-03 -2.11128037097E-03 -4.70462323482E-03 -2.01783964366E-03 -3.92380045528E-01 +2.16276148030E-01
4.43500000000E+09 -3.71949886019E-01 +2.40799965975E-01 -5.58330063370E-03 -1.91276214023E-03 -5.52893864210E-03 -1.79417855764E-03 -3.86379347972E-01 +2.37977720109E-01
4.44000000000E+09 -3.69906883633E-01 +2.60176549143E-01 -5.73631267912E-03 -7.98541909080E-04 -5.70609287643E-03 -7.67707815735E-04 -3.78407066329E-01 +2.60784898304E-01
4.44500000000E+09 -3.68010135215E-01 +2.77029348350E-01 -5.36549286886E-03 -1.05708948977E-04 -5.36166149993E-03 -7.42931275352E-05 -3.69382295843E-01 +2.80286007513E-01
4.45000000000E+09 -3.65139375481E-01 +2.91677999590E-01 -5.61135315825E-03 +4.16187719649E-04 -5.61353769135E-03 +5.17195720318E-04 -3.60051519591E-01 +3.00516335458E-01
4.45500000000E+09 -3.60713277939E-01 +3.04501537900E-01 -5.28395185156E-03 +1.52360248274E-03 -5.16652372633E-03 +1.62476620311E-03 -3.48945099077E-01 +3.19243312468E-01
4.46000000000E+09 -3.54641722369E-01 +3.17048336963E-01 -4.44580788628E-03 +1.97215955996E-03 -4.34929081245E-03 +2.05282465758E-03 -3.40118132802E-01 +3.36868895724E-01
4.46500000000E+09 -3.45731036094E-01 +3.30595830427E-01 -3.94042314001E-03 +1.90055203650E-03 -3.86705015020E-03 +2.01668145848E-03 -3.28433194776E-01 +3.56190969942E-01
4.47000000000E+09 -3.34468548671E-01 +3.45476303181E-01 -3.80208449662E-03 +1.55879161726E-03 -3.74189594669E-03 +1.66019452804E-03 -3.16492633538E-01 +3.73399152369E-01
4.47500000000E+09 -3.21794515574E-01 +3.61704023744E-01 -4.82519844906E-03 +1.98245343875E-03 -4.71692104244E-03 +2.11159480894E-03 -3.04799078946E-01 +3.89666516757E-01
4.48000000000E+09 -3.08937612290E-01 +3.79005299149E-01 -4.32457651891E-03 +3.27113169738E-03 -4.19080916108E-03 +3.29129264607E-03 -2.93100257060E-01 +4.06203014574E-01
4.48500000000E+09 -2.96760162272E-01 +3.96919409496E-01 -3.60692406518E-03 +3.90926347741E-03 -3.47273366646E-03 +3.93910590090E-03 -2.81149411407E-01 +4.22240646172E-01
4.49000000000E+09 -2.87136519733E-01 +4.13849962199E-01 -2.88562566045E-03 +4.36109504085E-03 -2.77062196288E-03 +4.30755604041E-03 -2.67663877746E-01 +4.38114799107E-01
4.49500000000E+09 -2.79357149967E-01 +4.31810123356E-01 -1.86591698064E-03 +4.15832588651E-03 -1.75035914722E-03 +4.15797219337E-03 -2.54126635077E-01 +4.51836209492E-01
4.50000000000E+09 -2.72210622243E-01 +4.47009611592E-01 -1.63276173696E-03 +3.80859329551E-03 -1.53715248317E-03 +3.77876225715E-03 -2.41058561582E-01 +4.65578589823E-01
4.50500000000E+09 -2.66218237974E-01 +4.60249373269E-01 -1.49827171066E-03 +3.76356044918E-03 -1.47471878839E-03 +3.70611905569E-03 -2.27250554311E-01 +4.78096321139E-01
4.51000000000E+09 -2.59186796073E-01 +4.71159679309E-01 -1.32699958493E-03 +3.93734597681E-03 -1.22290353807E-03 +3.85574747382E-03 -2.14535617474E-01 +4.90229574295E-01
4.51500000000E+09 -2.50533951145E-01 +4.79635105622E-01 -1.04541181598E-03 +4.24744626809E-03 -8.88853520888E-04 +4.12583442980E-03 -2.01337062385E-01 +5.02290442816E-01
4.52000000000E+09 -2.40771589490E-01 +4.86833995056E-01 -6.46910369504E-04 +4.17380451794E-03 -5.81007409286E-04 +4.07705955493E-03 -1.88003581204E-01 +5.13902273638E-01
4.52500000000E+09 -2.29006947912E-01 +4.94810482157E-01 -2.91549462913E-04 +4.11430672621E-03 -2.12247724471E-04 +4.08359391202E-03 -1.75062028633E-01 +5.24654642803E-01
4.53000000000E+09 -2.14594638602E-01 +5.03327281083E-01 -9.82503773507E-05 +4.52627930303E-03 -2.43591902130E-05 +4.40817962299E-03 -1.61231436478E-01 +5.35417472254E-01
4.53500000000E+09 -1.98962513401E-01 +5.13048232430E-01 +6.40676333093E-04 +4.49120140922E-03 +7.61450165937E-04 +4.32170287581E-03 -1.47089314208E-01 +5.45448038034E-01
4.54000000000E+09 -1.83098403350E-01 +5.23815770857E-01 +1.18066904027E-03 +4.30748174023E-03 +1.27836023511E-03 +4.13021917739E-03 -1.32429910178E-01 +5.55671100611E-01
4.54500000000E+09 -1.67634025543E-01 +5.35122922165E-01 +1.17293544355E-03 +4.14437660342E-03 +1.19961769254E-03 +3.99707708148E-03 -1.17293223494E-01 +5.64493243167E-01
4.55000000000E+09 -1.54634711101E-01 +5.45861901025E-01 +2.08572706573E-03 +4.16385680977E-03 +2.09036779457E-03 +3.97349554007E-03 -1.02976005651E-01 +5.73436917218E-01
4.55500000000E+09 -1.43913179133E-01 +5.57202489021E-01 +2.28628296380E-03 +3.65527488286E-03 +2.26279954212E-03 +3.50072547853E-03 -8.94022546030E-02 +5.81740029784E-01
4.56000000000E+09 -1.34525856001E-01 +5.67156414996E-01 +2.45062782365E-03 +3.57322602552E-03 +2.44581076532E-03 +3.45310665406E-03 -7.53924652860E-02 +5.90773728370E-01
4.56500000000E+09 -1.26011120067E-01 +5.75110642282E-01 +3.08650353038E-03 +3.33769743554E-03 +3.05915510620E-03 +3.20516019814E-03 -6.10868239248E-02 +5.98893962866E-01
4.57000000000E+09 -1.17511332231E-01 +5.81753828804E-01 +3.23347571491E-03 +2.80722684439E-03 +3.19851802835E-03 +2.70066839884E-03 -4.60555956001E-02 +6.06425324101E-01
