# Hz S RI R 50
! CMT, C1220, 16058040, 17.2.0/1
! Date: 15/08/2018 12:05:07
! Data: Format (Calibration Info)
! Freq                      S11: Re/Im (F2)                       S21: Re/Im (F2)                       S12: Re/Im (F2)                       S22: Re/Im (F2)            
4.00000000000E+09 +6.66031702756E-01 -3.43486862475E-01 +7.89986911973E-04 -5.10394970788E-04 +7.60596919953E-04 -4.90548829633E-04 +7.76500941030E-01 -3.39337256201E-01
4.00500000000E+09 +6.57536303940E-01 -3.49631429700E-01 +7.38967090450E-04 -3.84310964916E-04 +6.65320130316E-04 -4.00097721733E-04 +7.68065651979E-01 -3.51014399158E-01
4.01000000000E+09 +6.48268002208E-01 -3.55792726388E-01 +6.98657496701E-04 -4.36610732819E-04 +7.25562871797E-04 -3.81680478308E-04 +7.58398437190E-01 -3.62237980961E-01
4.01500000000E+09 +6.37792835703E-01 -3.62551898228E-01 +9.03039066367E-04 -4.79946725115E-04 +8.74138714931E-04 -4.16420805029E-04 +7.48687276219E-01 -3.72503110107E-01
4.02000000000E+09 +6.26729082615E-01 -3.69997304525E-01 +8.83671002714E-04 -7.68057539038E-04 +9.35737898470E-04 -6.73689843043E-04 +7.39141188650E-01 -3.82782992392E-01
4.02500000000E+09 +6.15490218351E-01 -3.79063007433E-01 +8.44168458867E-04 -9.00648413263E-04 +9.19636365211E-04 -8.50060149402E-04 +7.29014050876E-01 -3.93068028762E-01
4.03000000000E+09 +6.03628734284E-01 -3.89697265563E-01 +5.35892882928E-04 -1.24669484828E-03 +6.24788732964E-04 -1.18533989278E-03 +7.18567407564E-01 -4.03194562383E-01
4.03500000000E+09 +5.91835421626E-01 -4.00502004055E-01 +1.29491251095E-04 -1.03687749178E-03 +2.14014190159E-04 -1.04695527615E-03 +7.07783633794E-01 -4.13439862479E-01
4.04000000000E+09 +5.80264130762E-01 -4.11282939602E-01 +1.60991076647E-04 -8.82386797641E-04 +2.99681072943E-04 -8.74134451184E-04 +6.97264405825E-01 -4.24046920238E-01
4.04500000000E+09 +5.69058247116E-01 -4.21531864060E-01 +4.49192012613E-05 -7.33230480113E-04 +1.82924037303E-04 -7.77629225079E-04 +6.86182324880E-01 -4.34784886687E-01
4.05000000000E+09 +5.57757031666E-01 -4.30046085802E-01 +3.31799227529E-04 -7.18235086105E-04 +4.47406396556E-04 -7.97465865185E-04 +6.74841225787E-01 -4.44875680150E-01
4.05500000000E+09 +5.46185250602E-01 -4.36965218444E-01 +3.47543504608E-04 -9.68874131734E-04 +4.59278190102E-04 -1.08288315516E-03 +6.63112055310E-01 -4.54762495513E-01
4.06000000000E+09 +5.34009445932E-01 -4.42265479135E-01 +1.18390304478E-04 -1.15934518879E-03 +1.97261366864E-04 -1.34300361131E-03 +6.50735222374E-01 -4.64622396954E-01
4.06500000000E+09 +5.21273118364E-01 -4.46434472278E-01 -1.88403233920E-04 -1.11267963225E-03 -1.81037745897E-04 -1.23431759281E-03 +6.37728431087E-01 -4.73735454879E-01
4.07000000000E+09 +5.07422956791E-01 -4.50260306475E-01 -1.98339040377E-04 -1.02250387078E-03 -1.91005607254E-04 -1.08927944841E-03 +6.24087080752E-01 -4.83434679732E-01
4.07500000000E+09 +4.92782264846E-01 -4.54977134856E-01 -2.76061260995E-04 -1.03834448666E-03 -2.73148019573E-04 -1.19794178661E-03 +6.10468633469E-01 -4.92357140880E-01
4.08000000000E+09 +4.76639986132E-01 -4.60326533259E-01 -2.90922224569E-04 -9.60673900234E-04 -3.21515924980E-04 -1.03182831368E-03 +5.97436919926E-01 -5.01666512140E-01
4.08500000000E+09 +4.59919277307E-01 -4.66491718802E-01 -3.63952721707E-04 -8.41975129129E-04 -4.52613719275E-04 -9.72664820599E-04 +5.83576617663E-01 -5.11225628208E-01
4.09000000000E+09 +4.43195770103E-01 -4.73298279684E-01 -3.25102288819E-04 -9.16716233892E-04 -4.60243254505E-04 -9.77572954700E-04 +5.69417622414E-01 -5.19356041520E-01
4.09500000000E+09 +4.26780422217E-01 -4.80252954127E-01 -3.00701318933E-04 -8.82981339261E-04 -4.04921125718E-04 -8.83447195547E-04 +5.55163152732E-01 -5.27766799271E-01
4.10000000000E+09 +4.10408962814E-01 -4.86954101622E-01 -3.02683970591E-04 -1.05663019861E-03 -3.59184611137E-04 -1.06214038467E-03 +5.39527917948E-01 -5.36078715696E-01
4.10500000000E+09 +3.94704977263E-01 -4.92175114727E-01 -4.75248777041E-04 -1.27212540876E-03 -5.11479819921E-04 -1.28917077598E-03 +5.23096396054E-01 -5.43704142097E-01
4.11000000000E+09 +3.78770143742E-01 -4.95592436118E-01 -8.34927914079E-04 -1.26652756054E-03 -8.78129640994E-04 -1.29647331062E-03 +5.06139596958E-01 -5.51453809863E-01
4.11500000000E+09 +3.63615464254E-01 -4.97103107296E-01 -1.10257543212E-03 -1.03514345540E-03 -1.13064379684E-03 -1.00817556863E-03 +4.88975494417E-01 -5.58602969479E-01
4.12000000000E+09 +3.48430004190E-01 -4.97195733492E-01 -1.04761634925E-03 -9.29102692382E-04 -1.05949949756E-03 -9.21608343200E-04 +4.72091084245E-01 -5.64943522767E-01
4.12500000000E+09 +3.32939016516E-01 -4.97508371077E-01 -1.31158726861E-03 -8.66350147222E-04 -1.27639523609E-03 -8.05492723168E-04 +4.55422347620E-01 -5.71184507857E-01
4.13000000000E+09 +3.15216277379E-01 -4.98608212308E-01 -1.27082507231E-03 -8.37776944759E-04 -1.19460432882E-03 -8.18476308258E-04 +4.38488325321E-01 -5.77453202738E-01
4.13500000000E+09 +2.96268020176E-01 -4.99386978977E-01 -1.45146132107E-03 -6.75937723376E-04 -1.40572966687E-03 -7.29841732952E-04 +4.19929208782E-01 -5.83428305273E-01
4.14000000000E+09 +2.76961940959E-01 -5.01309379123E-01 -1.47989430267E-03 -4.84089419101E-04 -1.45540054287E-03 -5.50327591924E-04 +4.01019804961E-01 -5.88492226025E-01
4.14500000000E+09 +2.56953844239E-01 -5.04471178553E-01 -1.53707634802E-03 -5.12300974139E-04 -1.50905173821E-03 -5.29949434145E-04 +3.82242661909E-01 -5.93866097464E-01
4.15000000000E+09 +2.36715466576E-01 -5.08386270053E-01 -1.73026566680E-03 -4.31424251586E-04 -1.75965355641E-03 -4.81885044874E-04 +3.62158887241E-01 -5.99117296336E-01
4.15500000000E+09 +2.17002642212E-01 -5.11648940224E-01 -1.78569107776E-03 -3.59370099674E-04 -1.78383955651E-03 -4.10374566947E-04 +3.42717682009E-01 -6.02541181765E-01
4.16000000000E+09 +1.98252479167E-01 -5.13943029508E-01 -2.22710968184E-03 -2.14798846314E-04 -2.21999131880E-03 -2.69870985532E-04 +3.23334561259E-01 -6.05527867173E-01
4.16500000000E+09 +1.80842637897E-01 -5.14157854846E-01 -2.41787592067E-03 +4.24732906325E-04 -2.41975220696E-03 +3.69185668874E-04 +3.02921728402E-01 -6.07712020480E-01
4.17000000000E+09 +1.64913315053E-01 -5.12920776066E-01 -2.10234921594E-03 +8.36242930879E-04 -2.14431236941E-03 +7.49062200276E-04 +2.83105256566E-01 -6.08729718606E-01
4.17500000000E+09 +1.48957141344E-01 -5.09695648145E-01 -1.99145665286E-03 +1.22958410695E-03 -2.09214668242E-03 +1.20016259751E-03 +2.62029011219E-01 -6.09868287276E-01
4.18000000000E+09 +1.33419387643E-01 -5.05135276348E-01 -1.24936185309E-03 +1.35136069862E-03 -1.36693278472E-03 +1.21682808818E-03 +2.40984825629E-01 -6.10650579696E-01
4.18500000000E+09 +1.16887846657E-01 -5.00154821554E-01 -1.28018713953E-03 +7.46140489710E-04 -1.34526671449E-03 +7.02691214673E-04 +2.18924531451E-01 -6.11641340690E-01
4.19000000000E+09 +9.85919161019E-02 -4.94468823940E-01 -1.84412217730E-03 +7.34666548843E-04 -1.94941736926E-03 +6.76367216627E-04 +1.96503280296E-01 -6.10459311973E-01
4.19500000000E+09 +7.97242607065E-02 -4.88248863514E-01 -2.21309126172E-03 +1.47891451083E-03 -2.40574927216E-03 +1.46711034056E-03 +1.75255540127E-01 -6.08361006052E-01
4.20000000000E+09 +6.08604519958E-02 -4.83355685782E-01 -1.79328213241E-03 +2.08511059132E-03 -2.01172085223E-03 +2.14653200566E-03 +1.53472099913E-01 -6.06260829566E-01
4.20500000000E+09 +4.11571895577E-02 -4.79375552322E-01 -1.39852187362E-03 +2.60855289137E-03 -1.57055461757E-03 +2.67722024907E-03 +1.31090958095E-01 -6.03067828659E-01
4.21000000000E+09 +2.19084257565E-02 -4.75264142952E-01 -7.09152910909E-04 +2.36925469071E-03 -8.32353273381E-04 +2.41177628566E-03 +1.08609236328E-01 -5.99436974776E-01
4.21500000000E+09 +3.35862864752E-03 -4.71072982768E-01 -6.61593740692E-04 +2.12414453803E-03 -7.56885712312E-04 +2.21517417817E-03 +8.57115194146E-02 -5.94999886300E-01
4.22000000000E+09 -1.41377280346E-02 -4.65551279073E-01 -9.05934168036E-04 +2.47136561184E-03 -1.01030931095E-03 +2.59574762199E-03 +6.41641382665E-02 -5.89592038526E-01
4.22500000000E+09 -3.04286420842E-02 -4.57714306074E-01 -2.88372160164E-04 +2.92024049596E-03 -3.32762828488E-04 +3.13854777042E-03 +4.26282564103E-02 -5.84682923767E-01
4.23000000000E+09 -4.44646821396E-02 -4.48559845249E-01 +1.43153314152E-04 +2.54356367411E-03 +1.83060719319E-04 +2.67299683940E-03 +2.04242725185E-02 -5.78598689515E-01
4.23500000000E+09 -5.90348149379E-02 -4.38678046165E-01 +3.94684509361E-04 +2.58074386162E-03 +4.23026805049E-04 +2.67775607772E-03 -1.49763138960E-03 -5.70802093400E-01
4.24000000000E+09 -7.48712111091E-02 -4.27421822005E-01 +2.61613738523E-04 +2.51483162517E-03 +2.96894823531E-04 +2.64332314988E-03 -2.41385947902E-02 -5.62334092433E-01
4.24500000000E+09 -9.17461874025E-02 -4.15041211518E-01 +7.40355748890E-04 +2.94448134833E-03 +8.33141827683E-04 +3.00375207564E-03 -4.62801604670E-02 -5.52437839041E-01
4.25000000000E+09 -1.10658783367E-01 -4.02820492804E-01 +1.28589774748E-03 +2.61471913088E-03 +1.37267430883E-03 +2.70612048888E-03 -6.82592307788E-02 -5.42501665048E-01
4.25500000000E+09 -1.30504631804E-01 -3.89984180664E-01 +1.51774030973E-03 +2.24203445349E-03 +1.60493071293E-03 +2.30174572074E-03 -9.10035688230E-02 -5.31044094094E-01
4.26000000000E+09 -1.49931030409E-01 -3.78312030866E-01 +1.24091095958E-03 +2.21910761999E-03 +1.35372832201E-03 +2.24982172712E-03 -1.11838889265E-01 -5.17663739532E-01
4.26500000000E+09 -1.70236353363E-01 -3.67639780397E-01 +1.60754543685E-03 +2.62917861992E-03 +1.74053129332E-03 +2.61943329669E-03 -1.32416021707E-01 -5.04584291329E-01
4.27000000000E+09 -1.88805511433E-01 -3.56393730831E-01 +2.24097127651E-03 +2.53176781538E-03 +2.31721974735E-03 +2.49092340636E-03 -1.53340721399E-01 -4.89538898856E-01
4.27500000000E+09 -2.04892188363E-01 -3.45360760218E-01 +2.68792609592E-03 +2.07671328187E-03 +2.77202122091E-03 +2.00281728250E-03 -1.73235872456E-01 -4.74022393314E-01
4.28000000000E+09 -2.18782920003E-01 -3.33848119028E-01 +3.03580825808E-03 +1.79471887190E-03 +3.03543302381E-03 +1.74441386229E-03 -1.93417468516E-01 -4.57861089091E-01
4.28500000000E+09 -2.31521653862E-01 -3.20698895961E-01 +3.18734446155E-03 +1.13161934432E-03 +3.23429203999E-03 +1.08217549005E-03 -2.12875747837E-01 -4.41274768323E-01
4.29000000000E+09 -2.41653153515E-01 -3.05189020857E-01 +3.07228599833E-03 +6.58916384161E-04 +3.04142414886E-03 +5.94642110935E-04 -2.30978499718E-01 -4.24181436777E-01
4.29500000000E+09 -2.51778323558E-01 -2.88998535057E-01 +2.55067113154E-03 +9.37768093560E-04 +2.52217977417E-03 +9.38755700321E-04 -2.49572671635E-01 -4.06911977197E-01
4.30000000000E+09 -2.62564202856E-01 -2.71301097973E-01 +3.44651795525E-03 +9.18237908089E-04 +3.49436008942E-03 +9.52965471984E-04 -2.65993484488E-01 -3.87431707845E-01
4.30500000000E+09 -2.74797776697E-01 -2.51785647285E-01 +3.76653297981E-03 +3.36855708466E-04 +3.79913792411E-03 +3.08693200078E-04 -2.81331115002E-01 -3.67790251428E-01
4.31000000000E+09 -2.87740898423E-01 -2.31728617407E-01 +4.12941941549E-03 -1.22903102441E-05 +4.10401529160E-03 -3.12545829242E-05 -2.96306390931E-01 -3.47906087600E-01
4.31500000000E+09 -3.01472111905E-01 -2.11784310623E-01 +4.38748737534E-03 -1.16406982496E-03 +4.34461033051E-03 -1.17395274388E-03 -3.10972362985E-01 -3.26965026389E-01
4.32000000000E+09 -3.14353525600E-01 -1.92871308879E-01 +3.55063328978E-03 -2.13847399300E-03 +3.54699487698E-03 -2.09909828363E-03 -3.23960705656E-01 -3.05311176719E-01
4.32500000000E+09 -3.26900183997E-01 -1.76062520344E-01 +2.73829431739E-03 -2.09371348373E-03 +2.83412711006E-03 -2.03885509543E-03 -3.36642820380E-01 -2.84687176491E-01
4.33000000000E+09 -3.37914637913E-01 -1.59724501377E-01 +2.94627864334E-03 -1.65972970398E-03 +3.03302209960E-03 -1.72172286057E-03 -3.49352626337E-01 -2.62448439886E-01
4.33500000000E+09 -3.46345816170E-01 -1.43849583186E-01 +2.97271571820E-03 -2.28582315613E-03 +3.01651644836E-03 -2.30203344572E-03 -3.60859765578E-01 -2.39058763458E-01
4.34000000000E+09 -3.52600681371E-01 -1.28256058341E-01 +3.00875533385E-03 -2.38485587328E-03 +3.01302853406E-03 -2.43099032885E-03 -3.71378687428E-01 -2.15950903110E-01
4.34500000000E+09 -3.57014136891E-01 -1.11657976143E-01 +2.97911549367E-03 -3.21968154018E-03 +2.95229595218E-03 -3.27831069639E-03 -3.82136045777E-01 -1.90555683025E-01
4.35000000000E+09 -3.59173190419E-01 -9.30905106091E-02 +2.32506496242E-03 -3.72876931309E-03 +2.36241791116E-03 -3.78012664846E-03 -3.90073425623E-01 -1.65566752117E-01
4.35500000000E+09 -3.61421999922E-01 -7.34726789169E-02 +2.00352908337E-03 -4.24509981162E-03 +2.03261173246E-03 -4.23220712722E-03 -3.97943781665E-01 -1.41860201296E-01
4.36000000000E+09 -3.64527687013E-01 -5.19520957684E-02 +1.29731466381E-03 -4.61148999130E-03 +1.35097821587E-03 -4.64896115163E-03 -4.04390324014E-01 -1.17381049831E-01
4.36500000000E+09 -3.68089057503E-01 -2.85380522495E-02 +3.15799500978E-04 -4.73481452287E-03 +2.78785391754E-04 -4.85107719205E-03 -4.09379718298E-01 -9.36932719901E-02
4.37000000000E+09 -3.72897195836E-01 -5.91936760472E-03 -4.17099589745E-04 -4.41951768952E-03 -5.14548198178E-04 -4.50170522137E-03 -4.13316054141E-01 -6.96350689998E-02
4.37500000000E+09 -3.78536919583E-01 +1.67063847203E-02 -9.80477011287E-04 -3.67057521205E-03 -1.14075295250E-03 -3.73471734018E-03 -4.16541164258E-01 -4.49541881626E-02
4.38000000000E+09 -3.84045903592E-01 +3.76583629316E-02 -5.74157901771E-04 -3.61667315329E-03 -6.73028590427E-04 -3.68125622534E-03 -4.18523018950E-01 -2.00005551829E-02
4.38500000000E+09 -3.89264040770E-01 +5.56282340523E-02 -5.92934203101E-04 -3.81547081570E-03 -6.62155950177E-04 -3.84211528571E-03 -4.20258380604E-01 +5.04585607103E-03
4.39000000000E+09 -3.93229217680E-01 +7.23034807032E-02 -1.17934301384E-03 -4.66572442735E-03 -1.36087864137E-03 -4.65266701810E-03 -4.20926876599E-01 +3.03510368909E-02
4.39500000000E+09 -3.95044221796E-01 +8.76649909829E-02 -2.77045839958E-03 -4.36195466193E-03 -2.87642425205E-03 -4.36798478498E-03 -4.20479779861E-01 +5.42138523646E-02
4.40000000000E+09 -3.94497151919E-01 +1.02446520037E-01 -3.33929472780E-03 -3.51768136005E-03 -3.38770315964E-03 -3.43823090707E-03 -4.19045003402E-01 +7.86531690862E-02
4.40500000000E+09 -3.91778850852E-01 +1.18287305339E-01 -3.86464772735E-03 -2.60959249742E-03 -3.95313157884E-03 -2.54847713887E-03 -4.15741084220E-01 +1.02192667993E-01
4.41000000000E+09 -3.87050495748E-01 +1.34795156296E-01 -3.38684212061E-03 -1.90787451963E-03 -3.41948692036E-03 -1.83087377452E-03 -4.11802119483E-01 +1.24824891769E-01
4.41500000000E+09 -3.82211111660E-01 +1.53479646947E-01 -3.62881762672E-03 -1.64306153587E-03 -3.64911319938E-03 -1.54312849671E-03 -4.07203292294E-01 +1.48200906053E-01
4.42000000000E+09 -3.77572698076E-01 +1.74909731715E-01 -3.37087154550E-03 -1.32815022728E-03 -3.36923549383E-03 -1.28438222010E-03 -4.02414157692E-01 +1.69839995428E-01
4.42500000000E+09 -3.72321002935E-01 +1.97180210401E-01 -3.63630238012E-03 -1.27082708583E-03 -3.62239075528E-03 -1.15513823814E-03 -3.97553450991E-01 +1.92922594504E-01
4.43000000000E+09 -3.68392180026E-01 +2.18597269300E-01 -3.56976584741E-03 -9.01747161859E-04 -3.52705577643E-03 -8.38631854355E-04 -3.91904609231E-01 +2.14725875980E-01
4.43500000000E+09 -3.65970369411E-01 +2.39136648284E-01 -4.13742229344E-03 -9.22079757168E-04 -4.15051687442E-03 -8.65939292217E-04 -3.85888738829E-01 +2.36480564990E-01
4.44000000000E+09 -3.64452819905E-01 +2.57529679939E-01 -4.44360905719E-03 -2.60909145496E-05 -4.39212517073E-03 +3.20285803548E-05 -3.77980514797E-01 +2.59321718669E-01
4.44500000000E+09 -3.63354284600E-01 +2.74279825401E-01 -4.09045104654E-03 +7.57152424140E-04 -4.09777807036E-03 +7.71027539559E-04 -3.69065846801E-01 +2.78982987952E-01
4.45000000000E+09 -3.60805184695E-01 +2.89211005305E-01 -3.93268483424E-03 +1.20074218886E-03 -3.93287997753E-03 +1.28365965840E-03 -3.59937866085E-01 +2.99173996422E-01
4.45500000000E+09 -3.56116263496E-01 +3.02166160523E-01 -3.65119218457E-03 +1.89205385844E-03 -3.65222383864E-03 +1.93502705220E-03 -3.49225608065E-01 +3.18197669147E-01
4.46000000000E+09 -3.50051882622E-01 +3.14377299149E-01 -2.91995369849E-03 +2.10715732099E-03 -2.92217525678E-03 +2.17174101317E-03 -3.40115656668E-01 +3.36020105318E-01
4.46500000000E+09 -3.40943192092E-01 +3.27716940458E-01 -2.44518152397E-03 +1.96396447811E-03 -2.37516402134E-03 +2.01216822319E-03 -3.28725289812E-01 +3.55096820856E-01
4.47000000000E+09 -3.30243274642E-01 +3.41994152204E-01 -2.53293838496E-03 +1.53820066079E-03 -2.43921426646E-03 +1.59753987551E-03 -3.17011754603E-01 +3.72686272237E-01
4.47500000000E+09 -3.18312255917E-01 +3.58691079443E-01 -3.35882771334E-03 +2.09662380992E-03 -3.33164323099E-03 +2.17171969976E-03 -3.05437757380E-01 +3.88992807299E-01
4.48000000000E+09 -3.05344955842E-01 +3.76403889969E-01 -2.67526817018E-03 +3.08002211245E-03 -2.58861229329E-03 +3.13919983982E-03 -2.93825088579E-01 +4.05839244172E-01
4.48500000000E+09 -2.93330747440E-01 +3.94050620333E-01 -2.01491589227E-03 +3.51904967427E-03 -1.91388709636E-03 +3.55566434937E-03 -2.81778294146E-01 +4.22100809034E-01
4.49000000000E+09 -2.84146397897E-01 +4.11096980291E-01 -1.32330401396E-03 +3.63192290759E-03 -1.23913257778E-03 +3.63046138875E-03 -2.68451818208E-01 +4.38038740891E-01
4.49500000000E+09 -2.76584334543E-01 +4.29118723948E-01 -5.77660227211E-04 +3.31385971394E-03 -4.80773757000E-04 +3.30148920282E-03 -2.54910075727E-01 +4.51887440788E-01
4.50000000000E+09 -2.69644025844E-01 +4.44222187103E-01 -5.29470468331E-04 +2.90563684173E-03 -4.33146217970E-04 +2.89066417384E-03 -2.42131244481E-01 +4.65623215531E-01
4.50500000000E+09 -2.63710822977E-01 +4.57441324627E-01 -3.36985404159E-04 +2.67874122242E-03 -2.99153203158E-04 +2.71365268400E-03 -2.28482253018E-01 +4.78815490457E-01
4.51000000000E+09 -2.56933581528E-01 +4.68053925704E-01 -5.11330561274E-04 +2.78060547951E-03 -3.83364319605E-04 +2.72945540316E-03 -2.15472308921E-01 +4.91288569421E-01
4.51500000000E+09 -2.48636265373E-01 +4.76357898902E-01 -2.53234041787E-04 +3.11267282658E-03 -1.48385840140E-04 +2.99396083052E-03 -2.02198423246E-01 +5.03600624578E-01
4.52000000000E+09 -2.39197158257E-01 +4.83598500503E-01 -9.01684308270E-05 +3.12301838241E-03 -2.99564739167E-05 +3.03165777576E-03 -1.88865313460E-01 +5.15512740733E-01
4.52500000000E+09 -2.27722138585E-01 +4.91409810439E-01 +2.97327730320E-04 +3.13843072311E-03 +3.62536563925E-04 +2.97342052268E-03 -1.75639341359E-01 +5.26813148775E-01
4.53000000000E+09 -2.13785594911E-01 +5.00329073190E-01 +5.43743514117E-04 +3.39456638746E-03 +5.83067505908E-04 +3.26364229423E-03 -1.61490612590E-01 +5.37804913649E-01
4.53500000000E+09 -1.98136475869E-01 +5.10435619878E-01 +1.15629990123E-03 +3.13754178779E-03 +1.20450412221E-03 +3.01375259088E-03 -1.46708899860E-01 +5.47755816262E-01
4.54000000000E+09 -1.81964329637E-01 +5.21381714633E-01 +1.46752173603E-03 +2.97313548168E-03 +1.45847938483E-03 +2.79081851644E-03 -1.32031051374E-01 +5.57941845527E-01
4.54500000000E+09 -1.66666677168E-01 +5.32545892225E-01 +1.46215181722E-03 +2.85314415412E-03 +1.42970938614E-03 +2.65464054244E-03 -1.16836392826E-01 +5.66979452843E-01
4.55000000000E+09 -1.54118119502E-01 +5.43362177786E-01 +2.15738858091E-03 +2.84945692607E-03 +2.06450858254E-03 +2.74377858447E-03 -1.02283720480E-01 +5.76039816020E-01
4.55500000000E+09 -1.43850476010E-01 +5.54850659599E-01 +2.32213151218E-03 +2.23906422575E-03 +2.20073425370E-03 +2.15799567453E-03 -8.81516612311E-02 +5.84823117235E-01
4.56000000000E+09 -1.34611568221E-01 +5.65237313030E-01 +2.32574660419E-03 +2.19662139248E-03 +2.28166204707E-03 +2.08212168197E-03 -7.33973347606E-02 +5.93746522707E-01
4.56500000000E+09 -1.26192439352E-01 +5.73312470629E-01 +2.79550874046E-03 +1.97386164712E-03 +2.71264770353E-03 +1.88520018946E-03 -5.88569353093E-02 +6.01237728824E-01
4.57000000000E+09 -1.17771270909E-01 +5.80116840674E-01 +2.88338452661E-03 +1.37729450031E-03 +2.87907858739E-03 +1.38440971403E-03 -4.38179264208E-02 +6.08781591170E-01
