# Hz S RI R 50
! CMT, C1220, 16058040, 17.2.0/1
! Date: 15/08/2018 12:01:09
! Data: Format (Calibration Info)
! Freq                      S11: Re/Im (F2)                       S21: Re/Im (F2)                       S12: Re/Im (F2)                       S22: Re/Im (F2)            
4.00000000000E+09 +6.67346716918E-01 -3.39892012585E-01 +7.19939038680E-04 -6.62115070251E-04 +7.30432781563E-04 -6.87078865180E-04 +7.76847209926E-01 -3.42511958466E-01
4.00500000000E+09 +6.59394935413E-01 -3.46374305858E-01 +6.08541264714E-04 -6.25188830345E-04 +6.33338651278E-04 -6.30557502120E-04 +7.68228641470E-01 -3.54256741306E-01
4.01000000000E+09 +6.50355273827E-01 -3.52955768165E-01 +5.60716399622E-04 -6.74474997571E-04 +5.38878823353E-04 -6.62379959692E-04 +7.58578028010E-01 -3.65519045073E-01
4.01500000000E+09 +6.39963743828E-01 -3.59721428527E-01 +5.28074390593E-04 -6.41617154114E-04 +6.02798924552E-04 -6.56426586846E-04 +7.48927450545E-01 -3.75881209747E-01
4.02000000000E+09 +6.29225173681E-01 -3.66704492978E-01 +6.22959627669E-04 -8.01402401370E-04 +6.83392056137E-04 -7.23881516692E-04 +7.39356899223E-01 -3.86233074218E-01
4.02500000000E+09 +6.18777132574E-01 -3.75553709012E-01 +5.43023325032E-04 -9.36201183503E-04 +5.88375712155E-04 -9.51155601025E-04 +7.29304826024E-01 -3.96676287939E-01
4.03000000000E+09 +6.07582654114E-01 -3.86134609870E-01 +2.79731143447E-04 -1.15642185922E-03 +3.75255977755E-04 -1.20922592284E-03 +7.18712891500E-01 -4.06978705556E-01
4.03500000000E+09 +5.96254531993E-01 -3.96956723664E-01 -4.85613610126E-05 -9.17011761190E-04 -4.37716493867E-05 -9.65774591015E-04 +7.07587030888E-01 -4.17596003704E-01
4.04000000000E+09 +5.84943205626E-01 -4.08012453127E-01 +1.36523993256E-04 -7.43478911185E-04 +1.65266516786E-04 -7.66193162862E-04 +6.96823326175E-01 -4.28229851788E-01
4.04500000000E+09 +5.73702624380E-01 -4.18146439532E-01 +9.46007874393E-05 -8.94935757050E-04 +1.28824603071E-04 -8.79556152666E-04 +6.85431504576E-01 -4.39180497610E-01
4.05000000000E+09 +5.62488898560E-01 -4.26882522012E-01 +1.18455417781E-04 -9.51543011932E-04 +1.55063179667E-04 -9.56312907545E-04 +6.73753373053E-01 -4.49202826487E-01
4.05500000000E+09 +5.51007457114E-01 -4.34095007259E-01 -8.63218643530E-06 -9.90888427294E-04 +5.79946966702E-05 -1.04047291535E-03 +6.62064298472E-01 -4.58869508887E-01
4.06000000000E+09 +5.39000692329E-01 -4.39714962388E-01 -1.42574741372E-04 -1.08947231832E-03 -7.83710728849E-05 -1.10298995205E-03 +6.49749649550E-01 -4.68801264510E-01
4.06500000000E+09 +5.26473018163E-01 -4.44479002759E-01 -2.95562151405E-04 -9.19156986766E-04 -3.03355451296E-04 -9.72966683517E-04 +6.36723838399E-01 -4.78006211087E-01
4.07000000000E+09 +5.12766641100E-01 -4.48883167138E-01 -2.35218971727E-04 -1.01407714154E-03 -2.12554400918E-04 -1.08727670296E-03 +6.22982422972E-01 -4.87811805973E-01
4.07500000000E+09 +4.98185625122E-01 -4.54061715289E-01 -4.68209407323E-04 -1.04146036442E-03 -4.94626077479E-04 -1.09591853507E-03 +6.08898232112E-01 -4.97156455038E-01
4.08000000000E+09 +4.82436388999E-01 -4.59552472484E-01 -5.53148698861E-04 -9.17788388599E-04 -4.78283074538E-04 -9.39674014118E-04 +5.95199782830E-01 -5.06390059326E-01
4.08500000000E+09 +4.66263051117E-01 -4.66024221809E-01 -6.52546063404E-04 -8.57559417962E-04 -6.29555249525E-04 -9.24375055143E-04 +5.80982402227E-01 -5.15541279359E-01
4.09000000000E+09 +4.49847939786E-01 -4.73161896418E-01 -5.90465561472E-04 -8.25431207189E-04 -5.83277832648E-04 -8.84935460542E-04 +5.66595486769E-01 -5.23538471393E-01
4.09500000000E+09 +4.33959036052E-01 -4.80135689983E-01 -6.97736490880E-04 -7.65438930356E-04 -7.16704522263E-04 -8.17449180187E-04 +5.52345328949E-01 -5.31762713434E-01
4.10000000000E+09 +4.17763645857E-01 -4.86896657555E-01 -6.89194800639E-04 -8.18624493432E-04 -7.17393550841E-04 -8.73259492730E-04 +5.36656845359E-01 -5.39826333399E-01
4.10500000000E+09 +4.02215700909E-01 -4.92275570653E-01 -8.34023186832E-04 -8.19417393084E-04 -8.70992804855E-04 -8.25236778891E-04 +5.20238307563E-01 -5.47684601017E-01
4.11000000000E+09 +3.86418243981E-01 -4.96066323200E-01 -9.33666153559E-04 -8.35676852055E-04 -9.07929923699E-04 -8.23458055923E-04 +5.02848421072E-01 -5.55469562096E-01
4.11500000000E+09 +3.71054196893E-01 -4.98023202231E-01 -1.21367817454E-03 -6.33007177117E-04 -1.21532584450E-03 -7.06812311148E-04 +4.85353918126E-01 -5.62486021399E-01
4.12000000000E+09 +3.55477126507E-01 -4.98755815819E-01 -1.21058396893E-03 -5.02929242442E-04 -1.23290350241E-03 -5.52650887022E-04 +4.67869586249E-01 -5.68701111456E-01
4.12500000000E+09 +3.39559521119E-01 -4.99624499674E-01 -1.25653488835E-03 -3.51811115741E-04 -1.26780028000E-03 -4.08704200585E-04 +4.50781196095E-01 -5.74250439728E-01
4.13000000000E+09 +3.21384030542E-01 -5.00982041758E-01 -1.28915032662E-03 -3.50803151636E-04 -1.34500801656E-03 -4.01752095964E-04 +4.33765500729E-01 -5.79861189167E-01
4.13500000000E+09 +3.02428911037E-01 -5.02119013822E-01 -1.44413568855E-03 -1.40456048694E-04 -1.51175572962E-03 -1.45266406484E-04 +4.15236163154E-01 -5.85767963288E-01
4.14000000000E+09 +2.83341139868E-01 -5.04677047711E-01 -1.28119566739E-03 +6.96738058740E-05 -1.34588385643E-03 -5.79118602664E-06 +3.96184120386E-01 -5.90474505815E-01
4.14500000000E+09 +2.63654581784E-01 -5.08479084971E-01 -1.16173719631E-03 +5.79220012971E-05 -1.23506385706E-03 +7.38624252580E-05 +3.77358208693E-01 -5.95441698677E-01
4.15000000000E+09 +2.43695316440E-01 -5.13013256504E-01 -1.31162485581E-03 +6.44669901831E-05 -1.37502844336E-03 +8.57457511518E-05 +3.57371152497E-01 -6.00415177360E-01
4.15500000000E+09 +2.24052970529E-01 -5.16811953924E-01 -1.30918618416E-03 +1.01936562027E-04 -1.39481705255E-03 +1.57374088647E-04 +3.37923345762E-01 -6.03476925635E-01
4.16000000000E+09 +2.05335174738E-01 -5.19561848646E-01 -1.50416267255E-03 +2.58353380031E-04 -1.55339789716E-03 +3.28941003331E-04 +3.18636594210E-01 -6.06320425843E-01
4.16500000000E+09 +1.88039669800E-01 -5.20023557768E-01 -1.54834476481E-03 +5.77458151502E-04 -1.59887190721E-03 +5.70070522609E-04 +2.97973029896E-01 -6.07938123234E-01
4.17000000000E+09 +1.71843899806E-01 -5.18823766288E-01 -1.40719660972E-03 +7.18020673137E-04 -1.39649580677E-03 +7.76787512184E-04 +2.78175295429E-01 -6.08570768749E-01
4.17500000000E+09 +1.55637516406E-01 -5.15615044678E-01 -1.42124330889E-03 +1.13787932654E-03 -1.42918937838E-03 +1.10286637406E-03 +2.57279691102E-01 -6.09108896034E-01
4.18000000000E+09 +1.39764348852E-01 -5.11413967378E-01 -8.33878521760E-04 +1.16043523174E-03 -8.70297642816E-04 +1.14635884142E-03 +2.36638680093E-01 -6.09590078655E-01
4.18500000000E+09 +1.22403171362E-01 -5.06462400828E-01 -8.83341781982E-04 +7.21265662113E-04 -8.58491063853E-04 +6.59276940564E-04 +2.14827984675E-01 -6.10260740729E-01
4.19000000000E+09 +1.03767276535E-01 -5.00802133086E-01 -1.11103146151E-03 +6.88386175099E-04 -1.13688757304E-03 +6.83369845144E-04 +1.92807021410E-01 -6.08741727867E-01
4.19500000000E+09 +8.45562518779E-02 -4.95133329920E-01 -1.41155397335E-03 +1.10257333945E-03 -1.40101456361E-03 +1.10091353127E-03 +1.71922746422E-01 -6.06672149081E-01
4.20000000000E+09 +6.47410554843E-02 -4.90909745443E-01 -1.40775389607E-03 +1.40717941527E-03 -1.47558535186E-03 +1.36802335310E-03 +1.50201033194E-01 -6.04318427887E-01
4.20500000000E+09 +4.48090653676E-02 -4.87138569116E-01 -1.31042582947E-03 +2.09079305431E-03 -1.40110317024E-03 +2.04000469543E-03 +1.27794172349E-01 -6.00948798063E-01
4.21000000000E+09 +2.55598401785E-02 -4.83718948103E-01 -5.93888658853E-04 +2.03377034698E-03 -6.61447302563E-04 +2.01989343033E-03 +1.05587642057E-01 -5.96729152298E-01
4.21500000000E+09 +6.66115879290E-03 -4.80187408424E-01 -4.73615153293E-04 +1.83825715948E-03 -5.03233002312E-04 +1.86626879260E-03 +8.33151889746E-02 -5.91934166622E-01
4.22000000000E+09 -1.08875838117E-02 -4.75107348373E-01 -6.21500385815E-04 +2.20292703645E-03 -7.32473886526E-04 +2.22981169058E-03 +6.22169548543E-02 -5.86647157830E-01
4.22500000000E+09 -2.74673369980E-02 -4.67790168441E-01 +7.97534074658E-05 +2.50659254683E-03 -2.48976864564E-05 +2.59571608246E-03 +4.12637238367E-02 -5.81756923000E-01
4.23000000000E+09 -4.22830498788E-02 -4.59051973914E-01 +3.40905333300E-04 +1.99873630680E-03 +3.04485561717E-04 +2.02243646488E-03 +1.94926659070E-02 -5.75886146881E-01
4.23500000000E+09 -5.74645585688E-02 -4.48830137005E-01 +3.21141391810E-04 +2.04836879001E-03 +3.52681688809E-04 +2.16134645597E-03 -2.14012701352E-03 -5.68152766019E-01
4.24000000000E+09 -7.39257658699E-02 -4.37507409727E-01 +3.56648597124E-04 +2.20936117322E-03 +2.57322163872E-04 +2.29772203805E-03 -2.43656574932E-02 -5.59900712029E-01
4.24500000000E+09 -9.14752564539E-02 -4.24605129576E-01 +7.91209198706E-04 +2.45482063608E-03 +7.85878160640E-04 +2.56868346087E-03 -4.63586496338E-02 -5.49886516051E-01
4.25000000000E+09 -1.10411243284E-01 -4.12057586195E-01 +1.18851213151E-03 +2.22078729875E-03 +1.18136506081E-03 +2.37576923132E-03 -6.79815897367E-02 -5.39934195929E-01
4.25500000000E+09 -1.30560273739E-01 -3.99674249778E-01 +1.57007460819E-03 +2.04717842871E-03 +1.59786380668E-03 +2.16254254082E-03 -9.02952979262E-02 -5.28368225850E-01
4.26000000000E+09 -1.51214267347E-01 -3.88282298166E-01 +1.57045905533E-03 +1.79252056146E-03 +1.65393023704E-03 +1.95136945618E-03 -1.10593234974E-01 -5.15392128095E-01
4.26500000000E+09 -1.72087927951E-01 -3.77354840237E-01 +1.93080385314E-03 +1.79427003325E-03 +2.00892545917E-03 +1.86002277995E-03 -1.30691566089E-01 -5.02758569039E-01
4.27000000000E+09 -1.91169805374E-01 -3.66096401350E-01 +2.07409874164E-03 +1.63024296846E-03 +2.19666752736E-03 +1.62613250101E-03 -1.51190076240E-01 -4.88137820015E-01
4.27500000000E+09 -2.07720767071E-01 -3.54826585392E-01 +2.45745277627E-03 +1.31823918686E-03 +2.61751399992E-03 +1.33270769314E-03 -1.70930875235E-01 -4.73349562458E-01
4.28000000000E+09 -2.21621243833E-01 -3.42975118383E-01 +2.59997042072E-03 +8.34090148788E-04 +2.66599981837E-03 +7.77855287755E-04 -1.91052451325E-01 -4.57862672450E-01
4.28500000000E+09 -2.34540341301E-01 -3.29916015755E-01 +2.29604039413E-03 +3.81666505271E-04 +2.42993753368E-03 +3.70393188750E-04 -2.10994604129E-01 -4.41766280705E-01
4.29000000000E+09 -2.45147883960E-01 -3.14168004996E-01 +2.28459996028E-03 +4.30595774366E-04 +2.32012555696E-03 +3.50226100885E-04 -2.29108509635E-01 -4.24993641993E-01
4.29500000000E+09 -2.56143604267E-01 -2.97200236672E-01 +2.03829384017E-03 +4.83084134263E-04 +2.10495444221E-03 +4.23587752344E-04 -2.47897274018E-01 -4.07990059561E-01
4.30000000000E+09 -2.67408566952E-01 -2.78114084778E-01 +2.71590566655E-03 +5.00109891684E-04 +2.80701701685E-03 +4.48719246437E-04 -2.64537622822E-01 -3.88605826760E-01
4.30500000000E+09 -2.79323614522E-01 -2.57427958136E-01 +2.83473756265E-03 -2.32267657822E-04 +2.95492175982E-03 -2.95820435496E-04 -2.79785502411E-01 -3.69553492080E-01
4.31000000000E+09 -2.92784066733E-01 -2.37198233248E-01 +2.88929043443E-03 -2.72479136371E-04 +2.91256712925E-03 -3.53140417876E-04 -2.95292400255E-01 -3.49758301297E-01
4.31500000000E+09 -3.06905118643E-01 -2.16607578906E-01 +3.03392704448E-03 -9.78927163868E-04 +3.06605757962E-03 -1.09028458479E-03 -3.09835034194E-01 -3.29191710299E-01
4.32000000000E+09 -3.20687576457E-01 -1.97543318796E-01 +2.50441938534E-03 -1.49755548996E-03 +2.52605793125E-03 -1.53372594025E-03 -3.23393962622E-01 -3.08046297667E-01
4.32500000000E+09 -3.34106349045E-01 -1.79981461724E-01 +2.00730923334E-03 -1.39838546745E-03 +1.97857979630E-03 -1.48269387212E-03 -3.36823609801E-01 -2.87369368655E-01
4.33000000000E+09 -3.45125084808E-01 -1.63103389134E-01 +2.29066855316E-03 -9.98770463972E-04 +2.27416766774E-03 -1.02360167867E-03 -3.50061099235E-01 -2.65216785802E-01
4.33500000000E+09 -3.53339158246E-01 -1.47264733465E-01 +2.56206312831E-03 -1.36282793533E-03 +2.56555812985E-03 -1.37642229671E-03 -3.62019124148E-01 -2.41593216624E-01
4.34000000000E+09 -3.59717205845E-01 -1.31939707879E-01 +3.00407371673E-03 -1.74495234251E-03 +2.91714478069E-03 -1.73485331827E-03 -3.72933160210E-01 -2.17996614942E-01
4.34500000000E+09 -3.64020546894E-01 -1.14822778948E-01 +2.82570992892E-03 -2.92735117137E-03 +2.77820276462E-03 -2.92503446518E-03 -3.83367499143E-01 -1.92653128200E-01
4.35000000000E+09 -3.66046671865E-01 -9.56795594745E-02 +1.87663815151E-03 -3.33239118207E-03 +1.90615924007E-03 -3.32529248929E-03 -3.91495973589E-01 -1.67899749574E-01
4.35500000000E+09 -3.67570022004E-01 -7.54030525151E-02 +1.62631701751E-03 -3.52208300731E-03 +1.68084324148E-03 -3.49172085695E-03 -4.00175305027E-01 -1.43959775538E-01
4.36000000000E+09 -3.69966360865E-01 -5.35009813323E-02 +1.02872529125E-03 -3.82505922291E-03 +1.00104340945E-03 -3.85326609460E-03 -4.06804973290E-01 -1.19522691247E-01
4.36500000000E+09 -3.73638684291E-01 -2.95268806217E-02 +2.94877895980E-04 -3.85655316558E-03 +2.88940344717E-04 -3.88048607276E-03 -4.12599274680E-01 -9.54289144623E-02
4.37000000000E+09 -3.78302423901E-01 -6.07926014295E-03 -2.05840795622E-04 -3.66303857943E-03 -2.15613066855E-04 -3.69700050210E-03 -4.16786915267E-01 -7.06287149346E-02
4.37500000000E+09 -3.84055089570E-01 +1.75042655251E-02 -6.37485445472E-04 -3.33143145172E-03 -6.76119570523E-04 -3.34297205713E-03 -4.19902473634E-01 -4.55541421808E-02
4.38000000000E+09 -3.89893587457E-01 +3.93202423387E-02 -5.65142016020E-04 -3.34859022823E-03 -6.23937881877E-04 -3.39097082273E-03 -4.21971473738E-01 -2.05422051481E-02
4.38500000000E+09 -3.94785281338E-01 +5.85552605542E-02 -7.43830626142E-04 -3.31826378304E-03 -7.95697909706E-04 -3.39051843465E-03 -4.24109032761E-01 +4.82916186071E-03
4.39000000000E+09 -3.98070443215E-01 +7.53228256761E-02 -1.28358340883E-03 -3.80757609826E-03 -1.38843535414E-03 -3.85263922188E-03 -4.24641182514E-01 +3.06416763573E-02
4.39500000000E+09 -3.99837038676E-01 +9.00498579375E-02 -2.42864325358E-03 -3.58719937852E-03 -2.55253494134E-03 -3.59856278723E-03 -4.24407123842E-01 +5.47644136251E-02
4.40000000000E+09 -3.99654018512E-01 +1.04724356036E-01 -2.76084151898E-03 -2.76226823085E-03 -2.84568621916E-03 -2.71241292053E-03 -4.23356053072E-01 +7.98199047848E-02
4.40500000000E+09 -3.96964937498E-01 +1.20737023545E-01 -2.94686775253E-03 -2.22814910375E-03 -3.02215861567E-03 -2.25791242567E-03 -4.19838524484E-01 +1.04137822647E-01
4.41000000000E+09 -3.91500070102E-01 +1.38049876615E-01 -2.80056407296E-03 -1.95585093420E-03 -2.91797233246E-03 -1.92367041029E-03 -4.16050996414E-01 +1.27398461397E-01
4.41500000000E+09 -3.85327374999E-01 +1.56844514208E-01 -3.18967990412E-03 -1.63057484744E-03 -3.32397141756E-03 -1.58552835332E-03 -4.11338623297E-01 +1.51610249831E-01
4.42000000000E+09 -3.79541693273E-01 +1.77974806756E-01 -3.10789802724E-03 -1.25785146589E-03 -3.16660907556E-03 -1.18203285451E-03 -4.05846683562E-01 +1.74079548528E-01
4.42500000000E+09 -3.73414026928E-01 +2.00283910763E-01 -3.54174507379E-03 -1.02760551372E-03 -3.56330762143E-03 -9.45060879520E-04 -4.00373180625E-01 +1.97527505488E-01
4.43000000000E+09 -3.69014599642E-01 +2.21744281122E-01 -3.22693555225E-03 -4.02696047140E-04 -3.22770101811E-03 -2.95556715097E-04 -3.93932681169E-01 +2.19818498864E-01
4.43500000000E+09 -3.66465471338E-01 +2.42821990878E-01 -3.41358027037E-03 -5.16437535464E-04 -3.45883426898E-03 -4.31522794611E-04 -3.86965085179E-01 +2.41722953338E-01
4.44000000000E+09 -3.64145118348E-01 +2.62005905807E-01 -3.54178709653E-03 +7.17684211586E-05 -3.49098442895E-03 +1.58738533594E-04 -3.78623248408E-01 +2.64378343418E-01
4.44500000000E+09 -3.62542010209E-01 +2.78879159579E-01 -3.41241826939E-03 +4.07392411009E-04 -3.38603745105E-03 +5.31763203202E-04 -3.69190605096E-01 +2.84155868363E-01
4.45000000000E+09 -3.60108393155E-01 +2.93733855928E-01 -3.52194865245E-03 +8.43266182749E-04 -3.50181009604E-03 +9.01861171641E-04 -3.59595190442E-01 +3.04324869428E-01
4.45500000000E+09 -3.55547484573E-01 +3.07080010840E-01 -3.37886063473E-03 +1.56356376966E-03 -3.38901489325E-03 +1.63612330011E-03 -3.48613325335E-01 +3.23204788585E-01
4.46000000000E+09 -3.48856733005E-01 +3.19070025779E-01 -2.57414052459E-03 +1.97279672717E-03 -2.53515401017E-03 +2.05021427405E-03 -3.38986264566E-01 +3.41050993888E-01
4.46500000000E+09 -3.39808183754E-01 +3.31820851476E-01 -2.21215111224E-03 +1.83312862287E-03 -2.10368294468E-03 +1.92205947594E-03 -3.27188857655E-01 +3.60037265809E-01
4.47000000000E+09 -3.28970308234E-01 +3.45374212149E-01 -2.01814062936E-03 +1.50404898668E-03 -1.92088757037E-03 +1.53276606287E-03 -3.14964413809E-01 +3.77519133436E-01
4.47500000000E+09 -3.17051550855E-01 +3.61181142633E-01 -2.84807566456E-03 +1.74696936974E-03 -2.73775662244E-03 +1.81958309867E-03 -3.02556911019E-01 +3.93941284874E-01
4.48000000000E+09 -3.04276007762E-01 +3.78867972372E-01 -2.23514897847E-03 +2.57025360182E-03 -2.07496328387E-03 +2.59208231317E-03 -2.90481658365E-01 +4.10173920681E-01
4.48500000000E+09 -2.91389371631E-01 +3.96909658968E-01 -1.73014611818E-03 +2.86862008690E-03 -1.63698197253E-03 +2.82712232164E-03 -2.78114013897E-01 +4.25758182141E-01
4.49000000000E+09 -2.80779283000E-01 +4.13667957115E-01 -1.43677634686E-03 +3.01836477213E-03 -1.29395410561E-03 +2.95227645810E-03 -2.64853896623E-01 +4.41568644911E-01
4.49500000000E+09 -2.72473240318E-01 +4.31033783592E-01 -8.33529862599E-04 +2.96190970705E-03 -7.11833812457E-04 +2.86993233474E-03 -2.51312373862E-01 +4.55419689112E-01
4.50000000000E+09 -2.65051776894E-01 +4.45775854779E-01 -6.40643748850E-04 +2.80718067132E-03 -5.95773486288E-04 +2.73830297717E-03 -2.38230793335E-01 +4.69038495889E-01
4.50500000000E+09 -2.59480975246E-01 +4.58407113439E-01 -2.96811373096E-04 +2.75334003136E-03 -2.98817415874E-04 +2.61706584873E-03 -2.23965659479E-01 +4.82114914099E-01
4.51000000000E+09 -2.53133357408E-01 +4.69682110847E-01 -2.90718340336E-04 +2.67256892813E-03 -2.70086478503E-04 +2.59881116714E-03 -2.10322097050E-01 +4.94134329973E-01
4.51500000000E+09 -2.44557490260E-01 +4.78492353311E-01 +3.93122312806E-05 +2.74651293536E-03 +6.21162507375E-05 +2.66937042124E-03 -1.96746915364E-01 +5.05669387037E-01
4.52000000000E+09 -2.34990189360E-01 +4.85656149677E-01 -5.68187851201E-05 +2.59357940872E-03 +2.38071306996E-06 +2.50944205143E-03 -1.83414286697E-01 +5.16923008059E-01
4.52500000000E+09 -2.23619932039E-01 +4.93233110958E-01 +8.25495535632E-05 +2.70507511431E-03 +1.44884409243E-04 +2.63500000943E-03 -1.70214105233E-01 +5.27559347580E-01
4.53000000000E+09 -2.09893171375E-01 +5.01680499958E-01 +4.17007803532E-04 +3.25301208218E-03 +4.10917504769E-04 +3.17104626239E-03 -1.56331877007E-01 +5.38261665923E-01
4.53500000000E+09 -1.94560488499E-01 +5.11034923975E-01 +1.21558483294E-03 +2.93531096291E-03 +1.20196375418E-03 +2.83364881620E-03 -1.41802349663E-01 +5.48335704533E-01
4.54000000000E+09 -1.78825292670E-01 +5.21522670638E-01 +1.42063647699E-03 +2.75712312632E-03 +1.37796162030E-03 +2.61280624391E-03 -1.26919133873E-01 +5.58279225573E-01
4.54500000000E+09 -1.63773740480E-01 +5.32430909293E-01 +1.47689315295E-03 +2.46915027368E-03 +1.50839268278E-03 +2.40519466928E-03 -1.11529905942E-01 +5.66978145910E-01
4.55000000000E+09 -1.50707356705E-01 +5.42964502291E-01 +2.02778870816E-03 +2.39742686689E-03 +2.00868708868E-03 +2.36037943191E-03 -9.69146296762E-02 +5.75268097024E-01
4.55500000000E+09 -1.40207525552E-01 +5.53504145509E-01 +2.07954055835E-03 +1.82896787662E-03 +2.07451505577E-03 +1.79751884349E-03 -8.31817529172E-02 +5.83617255601E-01
4.56000000000E+09 -1.30911260843E-01 +5.63539792393E-01 +1.99277724605E-03 +1.86767059450E-03 +1.95954256220E-03 +1.81167497690E-03 -6.84432192490E-02 +5.92103923099E-01
4.56500000000E+09 -1.22589431822E-01 +5.71555887441E-01 +2.36949325491E-03 +1.71699227524E-03 +2.43469327345E-03 +1.60380705060E-03 -5.41966108831E-02 +5.99396095224E-01
4.57000000000E+09 -1.13707812201E-01 +5.78574764510E-01 +2.38223808050E-03 +1.32366994772E-03 +2.37797497427E-03 +1.32076771162E-03 -3.95053155111E-02 +6.06588892605E-01
