# Hz S RI R 50
! CMT, C1220, 16058040, 17.2.0/1
! Date: 15/08/2018 12:02:29
! Data: Format (Calibration Info)
! Freq                      S11: Re/Im (F2)                       S21: Re/Im (F2)                       S12: Re/Im (F2)                       S22: Re/Im (F2)            
4.00000000000E+09 +6.65925872216E-01 -3.40770213988E-01 +1.01565602523E-03 -7.20949224602E-04 +1.09848750603E-03 -6.90832922630E-04 +7.77158349812E-01 -3.40288747392E-01
4.00500000000E+09 +6.57996037407E-01 -3.46967015473E-01 +8.79457087985E-04 -6.82905962902E-04 +9.41194200053E-04 -6.83299058564E-04 +7.68555024298E-01 -3.51937080552E-01
4.01000000000E+09 +6.49154637263E-01 -3.53184675777E-01 +7.58947242875E-04 -7.26755214779E-04 +8.54601107554E-04 -6.88242641488E-04 +7.58964016567E-01 -3.63249553917E-01
4.01500000000E+09 +6.39090145725E-01 -3.59908899291E-01 +7.31478068272E-04 -6.55521762307E-04 +7.60338188052E-04 -6.52794958881E-04 +7.49302299845E-01 -3.73723197276E-01
4.02000000000E+09 +6.28439600500E-01 -3.67079780339E-01 +8.86226937709E-04 -7.19295656179E-04 +9.05889988268E-04 -7.07031187526E-04 +7.39542088247E-01 -3.84113333783E-01
4.02500000000E+09 +6.17488466913E-01 -3.76010155213E-01 +8.33123734201E-04 -9.41316315022E-04 +9.16500590412E-04 -1.00050275855E-03 +7.29413746764E-01 -3.94478440029E-01
4.03000000000E+09 +6.05807007728E-01 -3.86458799169E-01 +5.75960978354E-04 -1.27789121105E-03 +6.60821023847E-04 -1.35178584917E-03 +7.18888120813E-01 -4.04639432028E-01
4.03500000000E+09 +5.94466621220E-01 -3.97091583661E-01 +1.84788115251E-04 -1.10468240062E-03 +2.20587524589E-04 -1.17289592591E-03 +7.07891492265E-01 -4.15132962975E-01
4.04000000000E+09 +5.83252709442E-01 -4.08127822808E-01 +2.76185332283E-04 -9.17253743906E-04 +2.67409232876E-04 -9.20946143037E-04 +6.97151024356E-01 -4.25603941145E-01
4.04500000000E+09 +5.71980649174E-01 -4.18471207777E-01 +1.66358232885E-04 -8.40889222982E-04 +1.63037532013E-04 -9.12345589927E-04 +6.85947365335E-01 -4.36374287497E-01
4.05000000000E+09 +5.61103413754E-01 -4.27397281018E-01 +3.63122454862E-04 -8.06434466708E-04 +3.57672034996E-04 -8.56182037282E-04 +6.74492961456E-01 -4.46386861125E-01
4.05500000000E+09 +5.49488978567E-01 -4.34755233391E-01 +4.31896664236E-04 -1.00852038019E-03 +4.36033766428E-04 -1.04096087464E-03 +6.62721421941E-01 -4.56413657601E-01
4.06000000000E+09 +5.37459343156E-01 -4.40460050266E-01 +2.68918182422E-04 -1.18125364497E-03 +2.86648944997E-04 -1.17567094280E-03 +6.50312190067E-01 -4.66322097647E-01
4.06500000000E+09 +5.25009835565E-01 -4.44907725847E-01 +1.33671748643E-04 -1.11013666492E-03 +1.33894626087E-04 -1.15386766696E-03 +6.37227498416E-01 -4.75412488683E-01
4.07000000000E+09 +5.11595579913E-01 -4.49220246949E-01 +2.14789255914E-04 -1.31397161386E-03 +2.41462091716E-04 -1.30783458974E-03 +6.23308557982E-01 -4.85117582612E-01
4.07500000000E+09 +4.97207658717E-01 -4.54142098378E-01 -4.94309701791E-05 -1.50925013225E-03 -5.83165365541E-05 -1.55311335484E-03 +6.09261341761E-01 -4.94043101118E-01
4.08000000000E+09 +4.81715935725E-01 -4.59625790274E-01 -2.94224757118E-04 -1.43549943949E-03 -2.40338974368E-04 -1.42817147080E-03 +5.96153580853E-01 -5.03079886036E-01
4.08500000000E+09 +4.65350085060E-01 -4.66079663315E-01 -5.32329083791E-04 -1.27984518342E-03 -4.85522068455E-04 -1.30802497166E-03 +5.82292282732E-01 -5.12525008706E-01
4.09000000000E+09 +4.48874882843E-01 -4.73218805912E-01 -5.19055418535E-04 -1.12931062134E-03 -4.45204646033E-04 -1.20043174176E-03 +5.68056054513E-01 -5.20632768699E-01
4.09500000000E+09 +4.32675977452E-01 -4.80149799816E-01 -4.38491321222E-04 -1.17799027489E-03 -4.24393520636E-04 -1.21351404446E-03 +5.53691589086E-01 -5.28900165685E-01
4.10000000000E+09 +4.16354108415E-01 -4.87024812560E-01 -3.99844592855E-04 -1.36296076028E-03 -4.82994703748E-04 -1.45617243991E-03 +5.37913721958E-01 -5.37116152367E-01
4.10500000000E+09 +4.00390717110E-01 -4.92453112848E-01 -7.14869198350E-04 -1.57689659563E-03 -7.13202903968E-04 -1.57252964096E-03 +5.21410943039E-01 -5.44651490812E-01
4.11000000000E+09 +3.84668159201E-01 -4.96151912846E-01 -1.06589785010E-03 -1.63373761965E-03 -1.05651985814E-03 -1.67982310813E-03 +5.04368541265E-01 -5.52393985743E-01
4.11500000000E+09 +3.69346770571E-01 -4.97870699082E-01 -1.64738126827E-03 -1.29726236548E-03 -1.64102143292E-03 -1.41535709823E-03 +4.87009767513E-01 -5.59287416702E-01
4.12000000000E+09 +3.54170073673E-01 -4.98599809580E-01 -1.60433942703E-03 -9.55711765974E-04 -1.62293779489E-03 -9.89605289876E-04 +4.69899339652E-01 -5.65550205273E-01
4.12500000000E+09 +3.38662321309E-01 -4.99646477421E-01 -1.60063434245E-03 -6.46829685930E-04 -1.63085717426E-03 -7.11462029935E-04 +4.53051751915E-01 -5.71467781291E-01
4.13000000000E+09 +3.20699453034E-01 -5.01489674542E-01 -1.46385027908E-03 -7.74095952051E-04 -1.51142853132E-03 -8.38910311125E-04 +4.36173871114E-01 -5.77296428457E-01
4.13500000000E+09 +3.01612240382E-01 -5.02840760485E-01 -1.75481351906E-03 -6.83657151581E-04 -1.74942251275E-03 -7.55288403075E-04 +4.17704345945E-01 -5.83084749212E-01
4.14000000000E+09 +2.82296425993E-01 -5.05107370189E-01 -1.80025544335E-03 -3.65401057975E-04 -1.79829911958E-03 -4.75977039704E-04 +3.98657902047E-01 -5.87815419982E-01
4.14500000000E+09 +2.62709066519E-01 -5.08483797081E-01 -1.78834654663E-03 -2.24373368220E-04 -1.91070489042E-03 -2.80613400105E-04 +3.80117638974E-01 -5.92994627754E-01
4.15000000000E+09 +2.43097858871E-01 -5.12895187144E-01 -1.79319456942E-03 -1.67263863686E-04 -1.91377537898E-03 -1.80610743170E-04 +3.60085556948E-01 -5.97975588186E-01
4.15500000000E+09 +2.23497358975E-01 -5.16833583082E-01 -1.85564008363E-03 -1.72904020781E-04 -1.90581310522E-03 -1.68881811137E-04 +3.40972994996E-01 -6.01101557572E-01
4.16000000000E+09 +2.04716476741E-01 -5.19781895919E-01 -2.26212464180E-03 +6.44231693808E-05 -2.33691640745E-03 +8.52042851838E-05 +3.21581944610E-01 -6.04194142323E-01
4.16500000000E+09 +1.87163897682E-01 -5.20248817186E-01 -2.14519876060E-03 +7.05112342877E-04 -2.26285356787E-03 +6.71002464501E-04 +3.01396489961E-01 -6.05977690880E-01
4.17000000000E+09 +1.70590409478E-01 -5.19356253377E-01 -1.81843498167E-03 +7.47409962256E-04 -1.92787928829E-03 +7.49155399137E-04 +2.81806293100E-01 -6.06722560239E-01
4.17500000000E+09 +1.54219082273E-01 -5.16020719098E-01 -1.91200358953E-03 +1.17721941696E-03 -1.91707716129E-03 +1.19298554190E-03 +2.60953970564E-01 -6.07866915197E-01
4.18000000000E+09 +1.38295062697E-01 -5.11753155581E-01 -1.19125357484E-03 +1.12499580972E-03 -1.24019737345E-03 +1.18311469511E-03 +2.40430763064E-01 -6.08549938735E-01
4.18500000000E+09 +1.21151937242E-01 -5.07010948715E-01 -1.33909343225E-03 +5.29135347132E-04 -1.36709567087E-03 +5.20082026090E-04 +2.18583449544E-01 -6.09522015263E-01
4.19000000000E+09 +1.02523210614E-01 -5.01401575228E-01 -1.93672752012E-03 +7.68771087944E-04 -1.97420579361E-03 +6.87519005779E-04 +1.96283465018E-01 -6.08336392624E-01
4.19500000000E+09 +8.34981415127E-02 -4.95612190452E-01 -2.11671554085E-03 +1.45272657739E-03 -2.19684962403E-03 +1.48555353792E-03 +1.75300254459E-01 -6.06313741631E-01
4.20000000000E+09 +6.39389008217E-02 -4.91664278788E-01 -1.89373446289E-03 +1.81748944567E-03 -1.91324815070E-03 +1.85742420500E-03 +1.53684459889E-01 -6.04261985296E-01
4.20500000000E+09 +4.35447967491E-02 -4.88046189053E-01 -1.67160689269E-03 +2.35026867985E-03 -1.74993187769E-03 +2.35443649024E-03 +1.31355624961E-01 -6.00999819368E-01
4.21000000000E+09 +2.40733491245E-02 -4.84358480959E-01 -9.76495306930E-04 +2.24014976258E-03 -1.01215231074E-03 +2.23020496155E-03 +1.09242157795E-01 -5.97355862391E-01
4.21500000000E+09 +4.84995878168E-03 -4.80673669469E-01 -9.68666404783E-04 +2.10522664216E-03 -9.84685717250E-04 +2.10494733899E-03 +8.64129635912E-02 -5.93000298519E-01
4.22000000000E+09 -1.29233709613E-02 -4.75059449687E-01 -1.22611642281E-03 +2.44421440617E-03 -1.27197645334E-03 +2.48741600718E-03 +6.51369656219E-02 -5.87534019606E-01
4.22500000000E+09 -2.91089667328E-02 -4.67376263411E-01 -6.65456595940E-04 +3.04649382807E-03 -7.16435416742E-04 +3.01411777695E-03 +4.40672817651E-02 -5.82895856551E-01
4.23000000000E+09 -4.35683464073E-02 -4.58918581625E-01 -1.71918957539E-04 +2.71697317544E-03 -2.46841856773E-04 +2.75122197667E-03 +2.19553158421E-02 -5.76931074239E-01
4.23500000000E+09 -5.88345241706E-02 -4.49058441278E-01 +1.10143867829E-04 +2.77491540165E-03 +3.73235767544E-05 +2.81990508672E-03 +3.69092698256E-04 -5.69579297406E-01
4.24000000000E+09 -7.56649498154E-02 -4.37850003223E-01 +2.21619492142E-06 +2.74615650560E-03 -4.36508564403E-05 +2.81085731118E-03 -2.22949961869E-02 -5.61219564720E-01
4.24500000000E+09 -9.35265479239E-02 -4.24779026045E-01 +4.49668187596E-04 +3.09139736673E-03 +4.71935670021E-04 +3.15310860057E-03 -4.42315080644E-02 -5.51037678087E-01
4.25000000000E+09 -1.12775438273E-01 -4.11707868877E-01 +8.81485159009E-04 +2.96552809592E-03 +8.39859443502E-04 +3.04922203544E-03 -6.56330230850E-02 -5.41482027265E-01
4.25500000000E+09 -1.32372414066E-01 -3.98731199119E-01 +1.27706294007E-03 +2.90297651733E-03 +1.18539356998E-03 +2.99276569318E-03 -8.82618026043E-02 -5.30358708933E-01
4.26000000000E+09 -1.52418170275E-01 -3.87532180586E-01 +1.32986910107E-03 +2.92637491178E-03 +1.31990380556E-03 +3.01640838493E-03 -1.08774767176E-01 -5.17619475673E-01
4.26500000000E+09 -1.73446651970E-01 -3.76958122410E-01 +1.95080078529E-03 +3.02294224203E-03 +1.98111714084E-03 +3.12480174434E-03 -1.29416887101E-01 -5.05164488956E-01
4.27000000000E+09 -1.92982702382E-01 -3.65570084600E-01 +2.33533866001E-03 +2.68796449096E-03 +2.44554713879E-03 +2.81458403624E-03 -1.50434926291E-01 -4.90456669439E-01
4.27500000000E+09 -2.09785389407E-01 -3.54172082490E-01 +2.89721641549E-03 +2.38718959232E-03 +3.00829306505E-03 +2.48280890405E-03 -1.70520048072E-01 -4.75423426425E-01
4.28000000000E+09 -2.24052727887E-01 -3.41947686727E-01 +3.31635654821E-03 +1.74253930932E-03 +3.43954466018E-03 +1.82329652482E-03 -1.90719604320E-01 -4.59567059169E-01
4.28500000000E+09 -2.36876007085E-01 -3.28837490376E-01 +3.12804711449E-03 +1.03738000322E-03 +3.22319989236E-03 +1.02441782254E-03 -2.10483634797E-01 -4.43631482972E-01
4.29000000000E+09 -2.47460020959E-01 -3.13019018497E-01 +2.85738407636E-03 +8.38928538649E-04 +2.98755586060E-03 +8.85768607806E-04 -2.29013540817E-01 -4.27026959963E-01
4.29500000000E+09 -2.58234048135E-01 -2.96443060782E-01 +2.49811914127E-03 +1.21954826935E-03 +2.61177634287E-03 +1.23161628225E-03 -2.48020268847E-01 -4.09778925248E-01
4.30000000000E+09 -2.69648663334E-01 -2.77760906424E-01 +3.46438030430E-03 +1.31306164303E-03 +3.59085533754E-03 +1.31666121005E-03 -2.64749944151E-01 -3.90595418256E-01
4.30500000000E+09 -2.81812667155E-01 -2.57185583164E-01 +3.80007528471E-03 +5.85149142772E-04 +3.97797536250E-03 +5.46730475697E-04 -2.80778542735E-01 -3.71311621582E-01
4.31000000000E+09 -2.95117312229E-01 -2.36720385039E-01 +4.17533446254E-03 +1.89122140233E-04 +4.24104766220E-03 +1.34787190556E-04 -2.96392753503E-01 -3.51092508352E-01
4.31500000000E+09 -3.09258595428E-01 -2.16108823808E-01 +4.31424817120E-03 -9.31531650900E-04 +4.37570886423E-03 -1.00635309537E-03 -3.11281957692E-01 -3.30185948716E-01
4.32000000000E+09 -3.22656983232E-01 -1.96739366823E-01 +3.47199137952E-03 -1.69665416633E-03 +3.52679065291E-03 -1.74834477931E-03 -3.24738355232E-01 -3.08430354342E-01
4.32500000000E+09 -3.35820290299E-01 -1.79022461995E-01 +2.81393945139E-03 -1.44755370511E-03 +2.85109108406E-03 -1.47295517677E-03 -3.37520865765E-01 -2.87564237020E-01
4.33000000000E+09 -3.46530818256E-01 -1.61786206578E-01 +3.21004205355E-03 -1.18995732983E-03 +3.23817395625E-03 -1.26134462776E-03 -3.50651780457E-01 -2.65500053970E-01
4.33500000000E+09 -3.54755710252E-01 -1.45418740108E-01 +3.31498631603E-03 -1.57787301343E-03 +3.29049451871E-03 -1.62403426748E-03 -3.62563352505E-01 -2.41775308445E-01
4.34000000000E+09 -3.60745425298E-01 -1.29731008751E-01 +3.75689518862E-03 -1.85232318300E-03 +3.75760952104E-03 -1.93043638913E-03 -3.73720912735E-01 -2.18525286414E-01
4.34500000000E+09 -3.64756341559E-01 -1.12603820881E-01 +3.65673559921E-03 -3.04364885272E-03 +3.60487870299E-03 -3.19279222431E-03 -3.84753134597E-01 -1.92664659020E-01
4.35000000000E+09 -3.67143141426E-01 -9.37720717216E-02 +2.90861531005E-03 -3.62992731991E-03 +2.81610275155E-03 -3.69365737136E-03 -3.92500902013E-01 -1.67279969446E-01
4.35500000000E+09 -3.68901262706E-01 -7.31373589708E-02 +2.56692305670E-03 -3.99076244804E-03 +2.48094461862E-03 -4.00589056289E-03 -4.00506139862E-01 -1.43525839494E-01
4.36000000000E+09 -3.71385708157E-01 -5.09512779886E-02 +1.89647086798E-03 -4.52591887167E-03 +1.79303325881E-03 -4.50586195819E-03 -4.07183577556E-01 -1.18980876759E-01
4.36500000000E+09 -3.74790309824E-01 -2.71538333020E-02 +9.78540715958E-04 -4.46323516889E-03 +9.29068068111E-04 -4.52659853360E-03 -4.12780879484E-01 -9.49953861057E-02
4.37000000000E+09 -3.79242835747E-01 -3.96816508916E-03 +4.68473521167E-04 -4.39243314138E-03 +3.81753412934E-04 -4.43557353567E-03 -4.16905064036E-01 -7.02762657666E-02
4.37500000000E+09 -3.85001092979E-01 +1.94053994751E-02 -4.12359634193E-05 -3.80491046919E-03 -1.19510998142E-04 -3.85751987998E-03 -4.19976835110E-01 -4.50914382971E-02
4.38000000000E+09 -3.90528287431E-01 +4.10565337346E-02 +2.86191719367E-04 -3.96936384201E-03 +2.29879294796E-04 -3.97172674094E-03 -4.22095842716E-01 -1.99241906588E-02
4.38500000000E+09 -3.95318119687E-01 +5.99003981663E-02 +1.33123509493E-04 -4.31216881375E-03 +1.18684256969E-04 -4.30900096615E-03 -4.23809907852E-01 +5.59409161269E-03
4.39000000000E+09 -3.98815660219E-01 +7.67677923613E-02 -6.79280361902E-04 -5.07720780540E-03 -7.20514529586E-04 -5.06848490830E-03 -4.24224602119E-01 +3.10003612548E-02
4.39500000000E+09 -4.00251061562E-01 +9.20265424944E-02 -2.02080311466E-03 -4.80185253458E-03 -2.10405335607E-03 -4.78396748149E-03 -4.23994019168E-01 +5.53913927199E-02
4.40000000000E+09 -3.99410703881E-01 +1.06563838013E-01 -2.48219167765E-03 -4.23648916879E-03 -2.49891852300E-03 -4.28169788343E-03 -4.22497911507E-01 +8.01557024087E-02
4.40500000000E+09 -3.96926770960E-01 +1.22386433651E-01 -3.10170063291E-03 -3.63233575881E-03 -3.11184897108E-03 -3.62871418633E-03 -4.19265453531E-01 +1.04029779643E-01
4.41000000000E+09 -3.91359865602E-01 +1.40021493855E-01 -3.03734176564E-03 -3.15267762908E-03 -3.08798410799E-03 -3.12384517997E-03 -4.15557783866E-01 +1.27560624040E-01
4.41500000000E+09 -3.85057080615E-01 +1.58802142275E-01 -3.31673202318E-03 -2.80099222151E-03 -3.40356505997E-03 -2.78488213051E-03 -4.10448094421E-01 +1.51706302158E-01
4.42000000000E+09 -3.79317230783E-01 +1.79865312745E-01 -3.43647429244E-03 -2.62199008434E-03 -3.57481796219E-03 -2.61046085777E-03 -4.05039134281E-01 +1.73865256597E-01
4.42500000000E+09 -3.73706308563E-01 +2.02328283386E-01 -3.97889814059E-03 -2.44449740347E-03 -4.04723292470E-03 -2.37697708910E-03 -3.99268724876E-01 +1.97286973884E-01
4.43000000000E+09 -3.69125815662E-01 +2.24232032927E-01 -3.94717766435E-03 -1.79954940422E-03 -3.99345361863E-03 -1.71653166905E-03 -3.92856272191E-01 +2.19055027726E-01
4.43500000000E+09 -3.66416858685E-01 +2.45279824201E-01 -4.55551673977E-03 -1.80805835858E-03 -4.55573322135E-03 -1.67159001010E-03 -3.86364749780E-01 +2.40769563172E-01
4.44000000000E+09 -3.64057083734E-01 +2.64569706910E-01 -4.81079616541E-03 -8.96636139269E-04 -4.81603739009E-03 -8.44448165388E-04 -3.78060865008E-01 +2.63629334509E-01
4.44500000000E+09 -3.62156597711E-01 +2.81057832408E-01 -4.68114304862E-03 -2.71121088002E-04 -4.70708300982E-03 -1.65915713384E-04 -3.68615109346E-01 +2.83294288629E-01
4.45000000000E+09 -3.59619755272E-01 +2.95654893626E-01 -4.92028041026E-03 +2.78522846791E-04 -4.92962644850E-03 +4.09401230903E-04 -3.58856183629E-01 +3.03653237443E-01
4.45500000000E+09 -3.55012453736E-01 +3.08657893484E-01 -4.75518499051E-03 +1.32959391203E-03 -4.68304741971E-03 +1.44666747734E-03 -3.47326243310E-01 +3.22094837267E-01
4.46000000000E+09 -3.48732674156E-01 +3.20499659588E-01 -3.84254060574E-03 +1.82231695344E-03 -3.74095303254E-03 +1.88979224562E-03 -3.38038539135E-01 +3.39485108326E-01
4.46500000000E+09 -3.39608314303E-01 +3.33678909845E-01 -3.36862444691E-03 +1.72557187589E-03 -3.31107192825E-03 +1.80721420288E-03 -3.26163818423E-01 +3.58319600576E-01
4.47000000000E+09 -3.28018637724E-01 +3.47492064791E-01 -3.22547937076E-03 +1.37506443796E-03 -3.14896372405E-03 +1.47313546480E-03 -3.14403146133E-01 +3.75189879775E-01
4.47500000000E+09 -3.15355604940E-01 +3.62996142859E-01 -4.23970879709E-03 +1.81682726313E-03 -4.13993466821E-03 +1.90345001473E-03 -3.02682506839E-01 +3.91404796162E-01
4.48000000000E+09 -3.02539025244E-01 +3.80097440978E-01 -3.65857604047E-03 +2.97969191681E-03 -3.49784185668E-03 +3.00042567335E-03 -2.90774057613E-01 +4.07808128680E-01
4.48500000000E+09 -2.89748453289E-01 +3.98097537992E-01 -2.89998935130E-03 +3.59164844137E-03 -2.73658381194E-03 +3.53019349910E-03 -2.78793182735E-01 +4.23700229989E-01
4.49000000000E+09 -2.79417564809E-01 +4.14785197299E-01 -2.35149762720E-03 +3.71433305194E-03 -2.30672637566E-03 +3.64469919174E-03 -2.65503484530E-01 +4.39409805382E-01
4.49500000000E+09 -2.71042169726E-01 +4.32467528637E-01 -1.55302235188E-03 +3.65477740398E-03 -1.50581715760E-03 +3.54355228427E-03 -2.52126054523E-01 +4.53158725270E-01
4.50000000000E+09 -2.63441161481E-01 +4.47272520146E-01 -1.34095475036E-03 +3.38580142131E-03 -1.27252786644E-03 +3.44207103538E-03 -2.39218614785E-01 +4.66666529496E-01
4.50500000000E+09 -2.57533149956E-01 +4.59917819303E-01 -1.16369392901E-03 +3.31736185967E-03 -1.10507513262E-03 +3.31969583890E-03 -2.25451482754E-01 +4.79446379639E-01
4.51000000000E+09 -2.51055277332E-01 +4.70837794655E-01 -1.09540305392E-03 +3.43896191564E-03 -1.01785633882E-03 +3.41393842943E-03 -2.12342531567E-01 +4.91925434866E-01
4.51500000000E+09 -2.42868755850E-01 +4.79267787856E-01 -7.25602032288E-04 +3.64784770155E-03 -6.27582916742E-04 +3.57601039443E-03 -1.98835713657E-01 +5.03905642656E-01
4.52000000000E+09 -2.33550338379E-01 +4.86450220351E-01 -6.67010358943E-04 +3.63315686698E-03 -5.71332015131E-04 +3.63763662990E-03 -1.85380634387E-01 +5.15365607818E-01
4.52500000000E+09 -2.22109577718E-01 +4.94211349061E-01 -1.16339572271E-04 +3.72798949281E-03 -1.75691020276E-05 +3.64515707430E-03 -1.72534972076E-01 +5.25982304141E-01
4.53000000000E+09 -2.07963988042E-01 +5.02183822775E-01 +2.06429571703E-06 +4.05452320622E-03 +7.93453435098E-05 +4.02439086053E-03 -1.58536616807E-01 +5.36946685012E-01
4.53500000000E+09 -1.92801413331E-01 +5.11378366752E-01 +8.34945818452E-04 +3.99315911658E-03 +9.35105124208E-04 +3.86588413281E-03 -1.43852168317E-01 +5.46840887054E-01
4.54000000000E+09 -1.76971784957E-01 +5.21916519831E-01 +1.33578851788E-03 +3.70242561383E-03 +1.34394600751E-03 +3.56556013596E-03 -1.29138612832E-01 +5.56756139999E-01
4.54500000000E+09 -1.61585117981E-01 +5.32404752858E-01 +1.23595876411E-03 +3.61048369354E-03 +1.24705439210E-03 +3.48439310483E-03 -1.13866247258E-01 +5.65290190800E-01
4.55000000000E+09 -1.48730380649E-01 +5.42680765304E-01 +2.11395006434E-03 +3.74626113117E-03 +2.15179095885E-03 +3.60477520778E-03 -9.96209916995E-02 +5.73938473398E-01
4.55500000000E+09 -1.38109901101E-01 +5.53426654578E-01 +2.39798168078E-03 +2.98946648482E-03 +2.42818369854E-03 +2.89350322151E-03 -8.58741152843E-02 +5.82274722232E-01
4.56000000000E+09 -1.28748593788E-01 +5.63157481571E-01 +2.46324591644E-03 +2.89419222615E-03 +2.41506252826E-03 +2.77974261540E-03 -7.15041135201E-02 +5.90889084824E-01
4.56500000000E+09 -1.20505353470E-01 +5.71219080942E-01 +2.94484781699E-03 +2.62545024570E-03 +2.97148155884E-03 +2.51437949601E-03 -5.75028537742E-02 +5.98452968111E-01
4.57000000000E+09 -1.11784534594E-01 +5.78183757810E-01 +2.88106519236E-03 +2.19746356455E-03 +2.84459795587E-03 +2.06518173055E-03 -4.28224224139E-02 +6.05877375142E-01
