# Hz S RI R 50
! CMT, C1220, 16058040, 17.2.0/1
! Date: 15/08/2018 11:59:52
! Data: Format (Calibration Info)
! Freq                      S11: Re/Im (F2)                       S21: Re/Im (F2)                       S12: Re/Im (F2)                       S22: Re/Im (F2)            
4.00000000000E+09 +6.65111711315E-01 -3.42750984407E-01 +1.43376941282E-03 -5.42772101415E-04 +1.45966047458E-03 -5.23693831963E-04 +7.75481223066E-01 -3.43395393741E-01
4.00500000000E+09 +6.57013494133E-01 -3.49032776416E-01 +1.30190144756E-03 -5.19830916656E-04 +1.30555798880E-03 -4.84143900729E-04 +7.66930383383E-01 -3.55104809849E-01
4.01000000000E+09 +6.48097222450E-01 -3.55257106830E-01 +1.22234727497E-03 -6.37394921270E-04 +1.20882558233E-03 -5.75223580961E-04 +7.57470800546E-01 -3.66298997736E-01
4.01500000000E+09 +6.37649579285E-01 -3.62176904177E-01 +1.24525909246E-03 -5.45883981261E-04 +1.27305199767E-03 -4.46012285071E-04 +7.47893705660E-01 -3.76745963105E-01
4.02000000000E+09 +6.26910241945E-01 -3.69324944296E-01 +1.43805584898E-03 -7.90653814726E-04 +1.52361846932E-03 -6.60515465947E-04 +7.38119966251E-01 -3.87172056002E-01
4.02500000000E+09 +6.16042831814E-01 -3.78271749076E-01 +1.45552548848E-03 -1.09008890795E-03 +1.45834607111E-03 -1.03196588690E-03 +7.27991496318E-01 -3.97383774002E-01
4.03000000000E+09 +6.04356637567E-01 -3.88661786610E-01 +1.08669384121E-03 -1.49513954212E-03 +1.21589670749E-03 -1.52517133542E-03 +7.17347444030E-01 -4.07620496594E-01
4.03500000000E+09 +5.92650619017E-01 -3.99031138953E-01 +6.26808743344E-04 -1.39463019206E-03 +7.94543360339E-04 -1.39589753033E-03 +7.06169920203E-01 -4.18095444153E-01
4.04000000000E+09 +5.81419218684E-01 -4.09575267175E-01 +5.75330964173E-04 -1.24580195297E-03 +7.75676547608E-04 -1.24953750780E-03 +6.95314756554E-01 -4.28626675964E-01
4.04500000000E+09 +5.70210925196E-01 -4.19783096589E-01 +5.31477331855E-04 -1.07868209866E-03 +6.64313887493E-04 -1.05962840588E-03 +6.83875510846E-01 -4.39302532333E-01
4.05000000000E+09 +5.58855612844E-01 -4.28346589160E-01 +8.07067998592E-04 -1.13776959467E-03 +9.64921199400E-04 -1.19487765765E-03 +6.72412148014E-01 -4.49198760363E-01
4.05500000000E+09 +5.47172206346E-01 -4.35242811363E-01 +8.21503643885E-04 -1.50137545382E-03 +1.00607462031E-03 -1.59555928425E-03 +6.60808916725E-01 -4.58856490502E-01
4.06000000000E+09 +5.34990570750E-01 -4.40855843594E-01 +6.18956638858E-04 -1.75340692633E-03 +7.06128521229E-04 -1.83825885347E-03 +6.48402959646E-01 -4.68746982993E-01
4.06500000000E+09 +5.22229121702E-01 -4.45040010866E-01 +2.56910182651E-04 -1.75475512619E-03 +2.88247871939E-04 -1.85405400132E-03 +6.35277936092E-01 -4.77844949490E-01
4.07000000000E+09 +5.08673499381E-01 -4.49193782453E-01 +1.82619328395E-04 -1.73236452490E-03 +2.47045825706E-04 -1.82041309193E-03 +6.21424344553E-01 -4.87341001193E-01
4.07500000000E+09 +4.94062251072E-01 -4.54105339520E-01 -1.93965931151E-05 -1.95505751814E-03 +2.79735137914E-05 -2.00570297948E-03 +6.07764835704E-01 -4.96093549419E-01
4.08000000000E+09 +4.78387583361E-01 -4.59388820009E-01 -3.28395195467E-04 -1.80093842094E-03 -2.49153129783E-04 -1.89126976986E-03 +5.94568456220E-01 -5.05329980493E-01
4.08500000000E+09 +4.62180568547E-01 -4.65720058635E-01 -5.12933179655E-04 -1.62946842283E-03 -4.55244918071E-04 -1.75381357467E-03 +5.80472472017E-01 -5.14735654244E-01
4.09000000000E+09 +4.45787910598E-01 -4.72412954078E-01 -5.00660594308E-04 -1.60859223561E-03 -5.28565537560E-04 -1.70523133982E-03 +5.66430785188E-01 -5.22561529985E-01
4.09500000000E+09 +4.29972507425E-01 -4.79214006051E-01 -4.40576341316E-04 -1.47393140673E-03 -5.16173714032E-04 -1.55660243454E-03 +5.52357014421E-01 -5.31212212075E-01
4.10000000000E+09 +4.13797971416E-01 -4.85987156766E-01 -3.47116516085E-04 -1.71332809985E-03 -3.68658689076E-04 -1.76959928923E-03 +5.36417187604E-01 -5.39630813488E-01
4.10500000000E+09 +3.98074922966E-01 -4.91162214094E-01 -5.75585170525E-04 -1.95192815907E-03 -6.36426968957E-04 -1.94353832608E-03 +5.19747520880E-01 -5.47102890018E-01
4.11000000000E+09 +3.82290590532E-01 -4.94558243788E-01 -9.54996829974E-04 -2.11848784766E-03 -9.77098462648E-04 -2.16473266587E-03 +5.02468726714E-01 -5.54607201630E-01
4.11500000000E+09 +3.66849729186E-01 -4.96076703387E-01 -1.45877272396E-03 -1.89214771400E-03 -1.53055539616E-03 -1.96969864700E-03 +4.85351753158E-01 -5.61166275724E-01
4.12000000000E+09 +3.51424444828E-01 -4.96220090383E-01 -1.62152152800E-03 -1.58222480329E-03 -1.65945715228E-03 -1.64629380740E-03 +4.68532492379E-01 -5.67421447630E-01
4.12500000000E+09 +3.35928627814E-01 -4.96852907793E-01 -1.67659474272E-03 -1.37731414181E-03 -1.71933123051E-03 -1.41265097631E-03 +4.51703014328E-01 -5.73642472948E-01
4.13000000000E+09 +3.17894087433E-01 -4.98433883609E-01 -1.72407042903E-03 -1.55840455601E-03 -1.71082639019E-03 -1.53162524598E-03 +4.34729156264E-01 -5.79513950324E-01
4.13500000000E+09 +2.98743309004E-01 -4.99221764660E-01 -2.11550331472E-03 -1.39912393293E-03 -2.08724883359E-03 -1.52426243452E-03 +4.16142441032E-01 -5.85652251767E-01
4.14000000000E+09 +2.79683232905E-01 -5.01543050564E-01 -2.33529099738E-03 -1.20974316517E-03 -2.31052284648E-03 -1.28270647378E-03 +3.97141047121E-01 -5.90603156020E-01
4.14500000000E+09 +2.60057356011E-01 -5.04716981103E-01 -2.61856065712E-03 -9.70574517316E-04 -2.62765586709E-03 -1.10113301905E-03 +3.78026420403E-01 -5.95827589234E-01
4.15000000000E+09 +2.40746389812E-01 -5.08844123399E-01 -2.65712149488E-03 -6.74879137538E-04 -2.68725031568E-03 -7.22733707079E-04 +3.57643283484E-01 -6.00532751314E-01
4.15500000000E+09 +2.21550981468E-01 -5.12562000404E-01 -2.74870768690E-03 -6.98150199378E-04 -2.78177822720E-03 -7.09726649925E-04 +3.38688679867E-01 -6.03287144026E-01
4.16000000000E+09 +2.03120714968E-01 -5.15219570052E-01 -3.33937380902E-03 -3.43501387257E-04 -3.36204752190E-03 -3.73276290145E-04 +3.19590886210E-01 -6.06280777361E-01
4.16500000000E+09 +1.85975008575E-01 -5.15311809242E-01 -3.46206988761E-03 +5.33284346865E-04 -3.45226694118E-03 +4.84019802723E-04 +2.99099602878E-01 -6.08135983443E-01
4.17000000000E+09 +1.70189365563E-01 -5.14091019673E-01 -3.10080495340E-03 +8.49967264255E-04 -3.14595421771E-03 +7.77688481001E-04 +2.79219267795E-01 -6.08857900259E-01
4.17500000000E+09 +1.54103560277E-01 -5.10619807066E-01 -3.11935361406E-03 +1.58062600768E-03 -3.15551875611E-03 +1.53133392940E-03 +2.58303467602E-01 -6.09607976303E-01
4.18000000000E+09 +1.38669455275E-01 -5.06132785139E-01 -2.08196525089E-03 +1.70168192248E-03 -2.19940952234E-03 +1.67253944161E-03 +2.37927953431E-01 -6.10120530280E-01
4.18500000000E+09 +1.21830316101E-01 -5.01018974560E-01 -2.14488728930E-03 +1.14929348828E-03 -2.27474804967E-03 +1.11777312442E-03 +2.16206629680E-01 -6.11238303402E-01
4.19000000000E+09 +1.03751995864E-01 -4.95577687463E-01 -2.58844418617E-03 +1.39810059870E-03 -2.66935858392E-03 +1.31311383815E-03 +1.94155388025E-01 -6.10071557859E-01
4.19500000000E+09 +8.45983262463E-02 -4.89837215452E-01 -2.67021373800E-03 +2.00578137790E-03 -2.78525488490E-03 +1.96515078139E-03 +1.73045492139E-01 -6.08159813038E-01
4.20000000000E+09 +6.55239980025E-02 -4.85489433525E-01 -2.50861641215E-03 +2.44589018567E-03 -2.63429448922E-03 +2.41131950349E-03 +1.51336803950E-01 -6.06086702231E-01
4.20500000000E+09 +4.57284182500E-02 -4.82017099412E-01 -2.13546533714E-03 +3.07597801855E-03 -2.27719931210E-03 +3.14334673919E-03 +1.29045425746E-01 -6.02871031005E-01
4.21000000000E+09 +2.66616792706E-02 -4.78305614222E-01 -1.41609437253E-03 +2.84310216443E-03 -1.58359365950E-03 +2.94748616772E-03 +1.06535607103E-01 -5.99442892275E-01
4.21500000000E+09 +8.20411545762E-03 -4.74699722697E-01 -1.44556917311E-03 +2.90665853310E-03 -1.58597903182E-03 +2.98312339741E-03 +8.35152406224E-02 -5.94806593582E-01
4.22000000000E+09 -9.07391620479E-03 -4.69608730472E-01 -1.49474335199E-03 +3.23979175859E-03 -1.57174064039E-03 +3.37519405609E-03 +6.20086651079E-02 -5.89484113937E-01
4.22500000000E+09 -2.50688067485E-02 -4.61811460577E-01 -9.78675519710E-04 +3.81119204814E-03 -1.01197071431E-03 +3.96766354360E-03 +4.05512272173E-02 -5.84431477336E-01
4.23000000000E+09 -3.86532430632E-02 -4.53339413836E-01 -3.81070861655E-04 +3.59971347271E-03 -3.90937852534E-04 +3.74845884435E-03 +1.85655485082E-02 -5.78327864376E-01
4.23500000000E+09 -5.36379129304E-02 -4.43784962431E-01 -1.31230724645E-05 +3.67065367308E-03 -8.82957622099E-05 +3.89051652824E-03 -3.01948067892E-03 -5.70583066601E-01
4.24000000000E+09 -6.98908414489E-02 -4.32505194954E-01 -3.74976064414E-05 +3.73837454528E-03 -5.07668913785E-05 +3.89584991930E-03 -2.55610092627E-02 -5.62183112041E-01
4.24500000000E+09 -8.72111105647E-02 -4.19924517230E-01 +6.72177980337E-04 +4.06465667532E-03 +6.86687314566E-04 +4.17992867933E-03 -4.76927645355E-02 -5.52158892216E-01
4.25000000000E+09 -1.06122588625E-01 -4.07653386076E-01 +1.04222275922E-03 +3.81767523261E-03 +1.16559634514E-03 +3.93595640100E-03 -6.96760661755E-02 -5.42455914169E-01
4.25500000000E+09 -1.25947642056E-01 -3.94848584308E-01 +1.52591885716E-03 +3.87363092179E-03 +1.61404790823E-03 +3.99216145273E-03 -9.25095018739E-02 -5.30466640894E-01
4.26000000000E+09 -1.45591617507E-01 -3.83900275023E-01 +1.82222152534E-03 +3.65744733961E-03 +1.91645315058E-03 +3.78941720910E-03 -1.12658164533E-01 -5.17313978405E-01
4.26500000000E+09 -1.66379781256E-01 -3.73797132745E-01 +2.32140851702E-03 +3.83534718601E-03 +2.36862271280E-03 +3.90192144083E-03 -1.33017909663E-01 -5.04456549137E-01
4.27000000000E+09 -1.85305213871E-01 -3.62789400003E-01 +3.00239037781E-03 +3.58518340608E-03 +3.20531992081E-03 +3.64890209654E-03 -1.53773616752E-01 -4.89814290265E-01
4.27500000000E+09 -2.01577915168E-01 -3.51858838054E-01 +3.49029493159E-03 +3.08266241829E-03 +3.59792314400E-03 +3.10422698098E-03 -1.73991891524E-01 -4.74842990720E-01
4.28000000000E+09 -2.15340466688E-01 -3.40479001140E-01 +4.06090170178E-03 +2.50238784504E-03 +4.14001025798E-03 +2.55812650092E-03 -1.94459646195E-01 -4.58581897657E-01
4.28500000000E+09 -2.28055903651E-01 -3.27565915077E-01 +4.02529747256E-03 +1.61881119906E-03 +4.08917607000E-03 +1.62553922627E-03 -2.13991874476E-01 -4.42316174890E-01
4.29000000000E+09 -2.38111587567E-01 -3.11984757635E-01 +3.63888802908E-03 +1.41309320101E-03 +3.77013888991E-03 +1.31877752910E-03 -2.32321708853E-01 -4.25472284535E-01
4.29500000000E+09 -2.48563226663E-01 -2.95631051913E-01 +3.44382164278E-03 +1.86555665586E-03 +3.50888947228E-03 +1.89704512044E-03 -2.51021951752E-01 -4.07902866777E-01
4.30000000000E+09 -2.59573085767E-01 -2.77353496367E-01 +4.61073106611E-03 +1.67312888909E-03 +4.72569644968E-03 +1.63242274907E-03 -2.67453303780E-01 -3.88467947303E-01
4.30500000000E+09 -2.71815346568E-01 -2.57373591029E-01 +4.91694179813E-03 +9.21519118099E-04 +5.06033039056E-03 +8.41307469798E-04 -2.83127420745E-01 -3.69153696529E-01
4.31000000000E+09 -2.85067431586E-01 -2.37332007892E-01 +5.60028070831E-03 +3.51282161817E-04 +5.76965072300E-03 +2.61469475005E-04 -2.98375766418E-01 -3.49295281514E-01
4.31500000000E+09 -2.99488640357E-01 -2.17297567130E-01 +5.55042621652E-03 -1.12689044542E-03 +5.67853643644E-03 -1.28661162519E-03 -3.13754732488E-01 -3.28521612505E-01
4.32000000000E+09 -3.12793291615E-01 -1.98746206989E-01 +4.64139312818E-03 -1.92071012671E-03 +4.66376028988E-03 -2.07144737246E-03 -3.27528356035E-01 -3.06117603717E-01
4.32500000000E+09 -3.26508560693E-01 -1.82161967759E-01 +4.04034704006E-03 -1.83058603194E-03 +4.02107428071E-03 -2.03927396863E-03 -3.40049756752E-01 -2.84717868547E-01
4.33000000000E+09 -3.38271612332E-01 -1.65693881047E-01 +4.38701563976E-03 -1.64614145972E-03 +4.35516486336E-03 -1.76216801154E-03 -3.52781080765E-01 -2.62507600848E-01
4.33500000000E+09 -3.46565954976E-01 -1.49772586483E-01 +4.61574090489E-03 -2.35193471521E-03 +4.51757325873E-03 -2.43633373012E-03 -3.64512884110E-01 -2.38589376700E-01
4.34000000000E+09 -3.52598336092E-01 -1.34693920846E-01 +4.77212615711E-03 -3.02464359678E-03 +4.62465106165E-03 -3.04071036768E-03 -3.75354861791E-01 -2.15046220922E-01
4.34500000000E+09 -3.57165090785E-01 -1.18441044378E-01 +4.39789627468E-03 -4.06714723030E-03 +4.23284836174E-03 -4.06695462492E-03 -3.85857251199E-01 -1.88677085993E-01
4.35000000000E+09 -3.59336343439E-01 -1.00044562124E-01 +3.64671326619E-03 -4.84065625586E-03 +3.58244830281E-03 -4.74343853517E-03 -3.93039157648E-01 -1.63372519526E-01
4.35500000000E+09 -3.61681474274E-01 -8.05054330871E-02 +2.88645893322E-03 -5.34368009391E-03 +2.84905725401E-03 -5.22658213271E-03 -4.00350101859E-01 -1.39502416549E-01
4.36000000000E+09 -3.65155170126E-01 -5.80684446113E-02 +2.02992773052E-03 -5.58854687317E-03 +2.03194023592E-03 -5.56269254064E-03 -4.06614951948E-01 -1.15487445789E-01
4.36500000000E+09 -3.68389724621E-01 -3.38567677775E-02 +1.14651724386E-03 -5.69284665818E-03 +1.19302197198E-03 -5.62864473910E-03 -4.12129541236E-01 -9.16143440001E-02
4.37000000000E+09 -3.73137419301E-01 -1.07047299263E-02 +3.58320343360E-04 -5.50000389223E-03 +3.48091745790E-04 -5.50606369590E-03 -4.15717798486E-01 -6.70128440621E-02
4.37500000000E+09 -3.78841368639E-01 +1.23994810690E-02 -8.95335238854E-05 -4.93403768720E-03 -9.94527843273E-05 -4.91748602679E-03 -4.18581109928E-01 -4.21623459342E-02
4.38000000000E+09 -3.84695549963E-01 +3.34588581278E-02 -8.61020129646E-05 -5.34959563577E-03 -2.31875569281E-05 -5.34921383781E-03 -4.20550139357E-01 -1.74250270081E-02
4.38500000000E+09 -3.90728988576E-01 +5.19463529614E-02 -4.83141861422E-04 -5.26048221762E-03 -4.61109259286E-04 -5.33602961543E-03 -4.22007801223E-01 +7.70348558154E-03
4.39000000000E+09 -3.94703702423E-01 +6.88335781550E-02 -1.20968883398E-03 -5.97142992645E-03 -1.18122086536E-03 -6.09656426700E-03 -4.22761235276E-01 +3.29032991465E-02
4.39500000000E+09 -3.96936955967E-01 +8.39723036671E-02 -2.57289230596E-03 -5.62208298581E-03 -2.64285453919E-03 -5.72778588754E-03 -4.22672644094E-01 +5.72640686010E-02
4.40000000000E+09 -3.96541774972E-01 +9.85529583404E-02 -3.13708373955E-03 -4.98978310971E-03 -3.24381109412E-03 -5.09921490055E-03 -4.20769386185E-01 +8.25022706904E-02
4.40500000000E+09 -3.94039774880E-01 +1.14032136047E-01 -4.08714652573E-03 -4.41183009207E-03 -4.15641697625E-03 -4.53328080258E-03 -4.17113901379E-01 +1.06247316192E-01
4.41000000000E+09 -3.89050757013E-01 +1.30813726630E-01 -4.08225185454E-03 -3.46894665566E-03 -4.14220363743E-03 -3.60726640744E-03 -4.12917373011E-01 +1.29104847756E-01
4.41500000000E+09 -3.83754099539E-01 +1.49534921362E-01 -4.29331695860E-03 -3.04721918132E-03 -4.46492758002E-03 -3.12100799576E-03 -4.08385498524E-01 +1.52798848682E-01
4.42000000000E+09 -3.78518792374E-01 +1.70850616449E-01 -4.43944273144E-03 -2.65191010620E-03 -4.63416381104E-03 -2.66182821155E-03 -4.03060196778E-01 +1.75435362756E-01
4.42500000000E+09 -3.73212062526E-01 +1.92963116992E-01 -4.59991401582E-03 -2.19452813716E-03 -4.78430046229E-03 -2.16095170886E-03 -3.96719744806E-01 +1.98333287530E-01
4.43000000000E+09 -3.69402788667E-01 +2.15050745148E-01 -4.49863621258E-03 -1.80780830365E-03 -4.57373541612E-03 -1.69813302128E-03 -3.90329574281E-01 +2.19563130786E-01
4.43500000000E+09 -3.67057070564E-01 +2.36228738677E-01 -5.25936548909E-03 -1.65387061004E-03 -5.39644770743E-03 -1.56903277032E-03 -3.84137166182E-01 +2.41173030435E-01
4.44000000000E+09 -3.65412874454E-01 +2.55758468171E-01 -5.26859027459E-03 -5.65015358250E-04 -5.41150408469E-03 -4.63636083928E-04 -3.75784133977E-01 +2.63969204599E-01
4.44500000000E+09 -3.63964898424E-01 +2.72956256204E-01 -4.85822843293E-03 -7.59631563388E-05 -4.98052438194E-03 +1.32910402695E-04 -3.66430033406E-01 +2.83431220767E-01
4.45000000000E+09 -3.61327916956E-01 +2.87843153802E-01 -5.08876879073E-03 +2.82502367004E-04 -5.16662627114E-03 +4.99072951048E-04 -3.56870878848E-01 +3.03438676359E-01
4.45500000000E+09 -3.57175790747E-01 +3.00719544530E-01 -5.00387989121E-03 +1.22157161049E-03 -5.04222204048E-03 +1.50690505917E-03 -3.45737480175E-01 +3.21903323951E-01
4.46000000000E+09 -3.51435835142E-01 +3.12950023878E-01 -4.36258255516E-03 +1.61378391818E-03 -4.27463427554E-03 +1.91138276097E-03 -3.36757509309E-01 +3.39170219852E-01
4.46500000000E+09 -3.42945218070E-01 +3.26254793985E-01 -3.99333940578E-03 +1.70916653995E-03 -3.87891895969E-03 +1.91384651200E-03 -3.24965852413E-01 +3.58040347789E-01
4.47000000000E+09 -3.32103896464E-01 +3.40747363154E-01 -3.87458189734E-03 +1.53856852295E-03 -3.65548954791E-03 +1.66720853649E-03 -3.13281935215E-01 +3.75005622977E-01
4.47500000000E+09 -3.19741687132E-01 +3.57114867149E-01 -4.72678943790E-03 +1.94421525782E-03 -4.53406811223E-03 +2.12540385246E-03 -3.01653863020E-01 +3.91395004672E-01
4.48000000000E+09 -3.06775211446E-01 +3.74519160497E-01 -4.19709587582E-03 +2.98573206088E-03 -3.83133637928E-03 +3.09715822397E-03 -2.89768837130E-01 +4.08013939709E-01
4.48500000000E+09 -2.94362315402E-01 +3.92444195802E-01 -3.81783216632E-03 +3.63210488962E-03 -3.49128998067E-03 +3.61711236480E-03 -2.77590788941E-01 +4.23947949475E-01
4.49000000000E+09 -2.84455352347E-01 +4.09291958267E-01 -3.28968743523E-03 +4.24322510775E-03 -2.99903694032E-03 +4.13911784097E-03 -2.64258982388E-01 +4.39694435288E-01
4.49500000000E+09 -2.76601112223E-01 +4.27222988296E-01 -2.13558727762E-03 +4.34325247262E-03 -1.92941458024E-03 +4.13598804498E-03 -2.51041193618E-01 +4.53408739281E-01
4.50000000000E+09 -2.69494308591E-01 +4.42591873328E-01 -1.84305644556E-03 +4.11033029865E-03 -1.69822925710E-03 +3.84139963458E-03 -2.38054256827E-01 +4.67319990555E-01
4.50500000000E+09 -2.63579893061E-01 +4.56218351620E-01 -1.60106487275E-03 +4.17111650870E-03 -1.49760440890E-03 +3.95951770235E-03 -2.24103134406E-01 +4.79974389873E-01
4.51000000000E+09 -2.56869313857E-01 +4.67497576890E-01 -1.23889001677E-03 +4.29762860301E-03 -1.18521603289E-03 +4.12390900768E-03 -2.11020239596E-01 +4.92159878808E-01
4.51500000000E+09 -2.48469928718E-01 +4.76297595444E-01 -7.32791766762E-04 +4.47410156454E-03 -7.61003445073E-04 +4.32772438334E-03 -1.97664210252E-01 +5.04091588773E-01
4.52000000000E+09 -2.39077088625E-01 +4.83717968660E-01 -3.85427933309E-04 +4.37237658415E-03 -4.50885610100E-04 +4.18960622684E-03 -1.84243013476E-01 +5.15767879583E-01
4.52500000000E+09 -2.27681529705E-01 +4.91796038985E-01 -5.11953475088E-05 +4.24896308510E-03 -9.25895398730E-05 +4.11914587126E-03 -1.71112013852E-01 +5.26653708066E-01
4.53000000000E+09 -2.13568517372E-01 +5.00416799458E-01 +1.29857080733E-04 +4.63706344317E-03 +4.47430275072E-05 +4.48272979211E-03 -1.57164173518E-01 +5.37461519850E-01
4.53500000000E+09 -1.98314270376E-01 +5.10142694339E-01 +9.98240250910E-04 +4.55481652939E-03 +9.02276016240E-04 +4.45740861522E-03 -1.42681824369E-01 +5.47560250098E-01
4.54000000000E+09 -1.82538669156E-01 +5.20901973262E-01 +1.59173039770E-03 +4.39349433369E-03 +1.48558209592E-03 +4.32554606725E-03 -1.27906310718E-01 +5.57679384186E-01
4.54500000000E+09 -1.67281360222E-01 +5.31981511198E-01 +1.78455339672E-03 +4.05208964083E-03 +1.65425994726E-03 +4.00303477282E-03 -1.12481989108E-01 +5.66423402556E-01
4.55000000000E+09 -1.54448479704E-01 +5.42768447013E-01 +2.51352483097E-03 +3.85724710478E-03 +2.46415856788E-03 +3.82815075491E-03 -9.77318967306E-02 +5.75006422887E-01
4.55500000000E+09 -1.43591719454E-01 +5.53986568409E-01 +2.61568491899E-03 +3.33535829774E-03 +2.61446026881E-03 +3.30972978008E-03 -8.40908074225E-02 +5.82951118092E-01
4.56000000000E+09 -1.33943212888E-01 +5.63980207768E-01 +2.76965524811E-03 +3.06757903392E-03 +2.79996628608E-03 +3.07217516497E-03 -6.99241978716E-02 +5.91800968352E-01
4.56500000000E+09 -1.25318470642E-01 +5.71921935364E-01 +3.15961991795E-03 +2.78393955457E-03 +3.19346751760E-03 +2.77708837980E-03 -5.55202419377E-02 +5.99680221212E-01
4.57000000000E+09 -1.16662520047E-01 +5.78785480810E-01 +3.24642162717E-03 +2.41231404819E-03 +3.24914062087E-03 +2.37658331294E-03 -4.04420558206E-02 +6.07137219095E-01
