# Hz S RI R 50
! CMT, C1220, 16058040, 17.2.0/1
! Date: 15/08/2018 12:00:40
! Data: Format (Calibration Info)
! Freq                      S11: Re/Im (F2)                       S21: Re/Im (F2)                       S12: Re/Im (F2)                       S22: Re/Im (F2)            
4.00000000000E+09 +6.65846791277E-01 -3.41919819134E-01 +9.62285051515E-04 -6.74637231416E-04 +1.05627920580E-03 -6.66745181763E-04 +7.76302864314E-01 -3.42505423330E-01
4.00500000000E+09 +6.57676412835E-01 -3.48244241828E-01 +8.87408609247E-04 -6.30137186603E-04 +9.02111981997E-04 -6.01116195589E-04 +7.67766909270E-01 -3.54218425380E-01
4.01000000000E+09 +6.48762172838E-01 -3.54583474244E-01 +8.69763669084E-04 -7.07231653023E-04 +9.36852488179E-04 -6.87291814253E-04 +7.58287377208E-01 -3.65607360433E-01
4.01500000000E+09 +6.38366971105E-01 -3.61527362348E-01 +8.66306927252E-04 -7.39141121131E-04 +9.16228785756E-04 -7.26088893340E-04 +7.48756677489E-01 -3.75886666256E-01
4.02000000000E+09 +6.27531724926E-01 -3.68662465425E-01 +9.43701660551E-04 -9.51684626605E-04 +9.99880384435E-04 -9.41702250755E-04 +7.39200815438E-01 -3.86273032055E-01
4.02500000000E+09 +6.16767671212E-01 -3.77331212117E-01 +7.88567943277E-04 -1.17238204348E-03 +8.49398726691E-04 -1.15052899251E-03 +7.29169375655E-01 -3.96770377098E-01
4.03000000000E+09 +6.05304369707E-01 -3.87966132044E-01 +5.66961046318E-04 -1.43041459462E-03 +6.18300566757E-04 -1.41894161340E-03 +7.18815368321E-01 -4.06971533670E-01
4.03500000000E+09 +5.93560613513E-01 -3.98375868157E-01 +8.50885524468E-05 -1.22569371880E-03 +2.06799531890E-04 -1.20422467684E-03 +7.07828553282E-01 -4.17835896741E-01
4.04000000000E+09 +5.82516849691E-01 -4.09032943034E-01 +2.23005634783E-04 -1.01508843158E-03 +2.63706402053E-04 -1.01320315456E-03 +6.96903692132E-01 -4.28702049066E-01
4.04500000000E+09 +5.71204867159E-01 -4.19461219762E-01 +1.81337658544E-04 -9.56277160165E-04 +2.64376547701E-04 -1.05814430952E-03 +6.85403019618E-01 -4.39593236348E-01
4.05000000000E+09 +5.59852234649E-01 -4.28080730142E-01 +2.67499086174E-04 -1.06119475478E-03 +3.57932141736E-04 -1.08657580956E-03 +6.73648400904E-01 -4.49631602833E-01
4.05500000000E+09 +5.48048418520E-01 -4.34987334926E-01 +3.08327280225E-04 -1.21971279497E-03 +3.58849460199E-04 -1.27333974412E-03 +6.62064454790E-01 -4.59169568910E-01
4.06000000000E+09 +5.35940607678E-01 -4.40391690890E-01 +1.02755648160E-04 -1.47467105841E-03 +1.35776089607E-04 -1.54632496943E-03 +6.49758781032E-01 -4.69187971088E-01
4.06500000000E+09 +5.23346551835E-01 -4.44714304826E-01 -3.22595486571E-04 -1.27934541348E-03 -2.56697386712E-04 -1.28309616737E-03 +6.36762503152E-01 -4.78251237833E-01
4.07000000000E+09 +5.09836589621E-01 -4.49023597211E-01 -1.58571569072E-04 -1.21570461709E-03 -1.46799467990E-04 -1.25615945585E-03 +6.22999959964E-01 -4.87992747387E-01
4.07500000000E+09 +4.95217926768E-01 -4.54164794151E-01 -3.95284021640E-04 -1.39486931823E-03 -3.84296332372E-04 -1.44952638186E-03 +6.09276844703E-01 -4.97338833139E-01
4.08000000000E+09 +4.79367901699E-01 -4.59448063733E-01 -5.72493489923E-04 -1.21975916435E-03 -5.26119144071E-04 -1.28258291450E-03 +5.95688278175E-01 -5.06695978692E-01
4.08500000000E+09 +4.63135008745E-01 -4.65629197700E-01 -7.19850518140E-04 -1.16519350335E-03 -7.32815862602E-04 -1.19610958732E-03 +5.81304349303E-01 -5.16156068729E-01
4.09000000000E+09 +4.46614481271E-01 -4.72478193590E-01 -7.10886412643E-04 -1.06745599819E-03 -7.37612610378E-04 -1.09937158679E-03 +5.66977881548E-01 -5.24017093203E-01
4.09500000000E+09 +4.30766979842E-01 -4.79256819065E-01 -6.62564269181E-04 -8.92170352555E-04 -7.05844658667E-04 -9.50308997066E-04 +5.52710402306E-01 -5.32434577979E-01
4.10000000000E+09 +4.14670732148E-01 -4.85994454504E-01 -5.76523031056E-04 -1.10763449165E-03 -6.03511375054E-04 -1.15979753115E-03 +5.36967584386E-01 -5.40613304380E-01
4.10500000000E+09 +3.98982557563E-01 -4.91073417078E-01 -8.50169603855E-04 -1.26418082880E-03 -8.45930128571E-04 -1.30766573920E-03 +5.20584619812E-01 -5.48508178042E-01
4.11000000000E+09 +3.83232730427E-01 -4.94439452214E-01 -1.12626443429E-03 -1.23356370189E-03 -1.11706900413E-03 -1.23761804045E-03 +5.03323667321E-01 -5.56282988605E-01
4.11500000000E+09 +3.68032854572E-01 -4.96048063056E-01 -1.39780470395E-03 -9.89001229621E-04 -1.42856045534E-03 -1.03065451549E-03 +4.85897899851E-01 -5.63150338316E-01
4.12000000000E+09 +3.52668737973E-01 -4.96447351352E-01 -1.36848580494E-03 -7.31483922780E-04 -1.42172201280E-03 -7.15572752293E-04 +4.68789058001E-01 -5.69576473220E-01
4.12500000000E+09 +3.36947481643E-01 -4.97238597754E-01 -1.31396174236E-03 -5.44765182845E-04 -1.37625074604E-03 -6.05387855863E-04 +4.51516376667E-01 -5.75990511662E-01
4.13000000000E+09 +3.18877588701E-01 -4.98802342103E-01 -1.31228302346E-03 -7.74476483501E-04 -1.33080488917E-03 -8.25927942990E-04 +4.34235127920E-01 -5.81796982399E-01
4.13500000000E+09 +2.99657388226E-01 -4.99492984090E-01 -1.58261173763E-03 -6.64716853118E-04 -1.60472404474E-03 -7.20155994392E-04 +4.15393097313E-01 -5.87645035147E-01
4.14000000000E+09 +2.80846099143E-01 -5.01591291463E-01 -1.74457977838E-03 -4.86984661372E-04 -1.73885981095E-03 -5.59637386390E-04 +3.95994284653E-01 -5.92520634471E-01
4.14500000000E+09 +2.61375144241E-01 -5.05125958093E-01 -1.91771593044E-03 -2.90287104304E-04 -1.96333809963E-03 -3.63157462472E-04 +3.76825760889E-01 -5.97604195592E-01
4.15000000000E+09 +2.42057611962E-01 -5.09464218945E-01 -1.92515626456E-03 -7.46265715606E-05 -2.03923189748E-03 -9.20873649354E-05 +3.56423726576E-01 -6.02425478340E-01
4.15500000000E+09 +2.22665257468E-01 -5.13396275766E-01 -1.96913208587E-03 -1.62616309609E-05 -2.05153706528E-03 -4.27102295248E-05 +3.36979163438E-01 -6.05077581098E-01
4.16000000000E+09 +2.04116174733E-01 -5.16260851835E-01 -2.27430634899E-03 +2.32509480846E-04 -2.34755875609E-03 +3.17676699510E-04 +3.17685811267E-01 -6.07898117084E-01
4.16500000000E+09 +1.86734129616E-01 -5.16423892398E-01 -2.16770520179E-03 +7.80527822843E-04 -2.17762536205E-03 +7.68210875761E-04 +2.96808741159E-01 -6.09568981110E-01
4.17000000000E+09 +1.70753717995E-01 -5.15089662517E-01 -1.91811578930E-03 +8.64045605905E-04 -1.98536655535E-03 +8.62306946857E-04 +2.76845145414E-01 -6.09846276622E-01
4.17500000000E+09 +1.54852437406E-01 -5.11698665662E-01 -2.03367770881E-03 +1.34119189049E-03 -2.12954359307E-03 +1.36954613854E-03 +2.55781383288E-01 -6.10459021273E-01
4.18000000000E+09 +1.39257177846E-01 -5.07462065065E-01 -1.32178346590E-03 +1.51732800086E-03 -1.37848727899E-03 +1.55018153240E-03 +2.35241065194E-01 -6.10546121272E-01
4.18500000000E+09 +1.22117434811E-01 -5.02492872605E-01 -1.36498031735E-03 +1.10204803731E-03 -1.42895994412E-03 +1.13112064888E-03 +2.13681262290E-01 -6.11141692582E-01
4.19000000000E+09 +1.03729198059E-01 -4.96747656232E-01 -1.52196016177E-03 +1.18506972946E-03 -1.57048529809E-03 +1.21491873652E-03 +1.91572507458E-01 -6.09824543211E-01
4.19500000000E+09 +8.47357612441E-02 -4.90846063663E-01 -1.65553472959E-03 +1.72628445358E-03 -1.68086325656E-03 +1.74759035769E-03 +1.70583915136E-01 -6.07533791972E-01
4.20000000000E+09 +6.54803188743E-02 -4.86635174476E-01 -1.39813319642E-03 +1.95671366444E-03 -1.45057625728E-03 +1.92070016954E-03 +1.49011637625E-01 -6.05324093762E-01
4.20500000000E+09 +4.55926000879E-02 -4.82990235358E-01 -1.16355362551E-03 +2.33940481697E-03 -1.27598629412E-03 +2.36038186002E-03 +1.26692208665E-01 -6.02000434356E-01
4.21000000000E+09 +2.65641735375E-02 -4.79296062582E-01 -7.02784769915E-04 +2.11295166091E-03 -7.97949948064E-04 +2.19484328093E-03 +1.04317606685E-01 -5.98115603851E-01
4.21500000000E+09 +8.08019539836E-03 -4.75759071602E-01 -7.74265693056E-04 +2.14326489252E-03 -7.91320963851E-04 +2.16355910879E-03 +8.13964821222E-02 -5.93542841313E-01
4.22000000000E+09 -9.48265396319E-03 -4.70561913292E-01 -8.64401414753E-04 +2.52714725716E-03 -9.37092188091E-04 +2.58842211904E-03 +5.98812863701E-02 -5.87881423687E-01
4.22500000000E+09 -2.54094400654E-02 -4.62821698602E-01 -1.12328519424E-04 +3.02839270547E-03 -1.48741191754E-04 +3.09561040492E-03 +3.85381061774E-02 -5.82521625873E-01
4.23000000000E+09 -3.92650641980E-02 -4.54351775849E-01 +4.16888845599E-04 +2.39091013696E-03 +3.89387418474E-04 +2.52037781419E-03 +1.66163303105E-02 -5.76111846721E-01
4.23500000000E+09 -5.42542648411E-02 -4.44742716799E-01 +3.96821997632E-04 +2.35292379235E-03 +4.14632636456E-04 +2.33530216282E-03 -4.80767604927E-03 -5.67886012911E-01
4.24000000000E+09 -7.06438711477E-02 -4.33413492839E-01 +1.82441606891E-04 +2.45412612830E-03 +2.10275768615E-04 +2.55378648885E-03 -2.67785902244E-02 -5.59245623880E-01
4.24500000000E+09 -8.80389341398E-02 -4.20707029067E-01 +7.05007683456E-04 +2.77369810823E-03 +7.26576944097E-04 +2.82321673713E-03 -4.85208017724E-02 -5.49314517257E-01
4.25000000000E+09 -1.06843671910E-01 -4.08187398522E-01 +1.00305586605E-03 +2.52953315387E-03 +1.07257566609E-03 +2.66409569366E-03 -7.02293967609E-02 -5.39355907222E-01
4.25500000000E+09 -1.26465173484E-01 -3.95646503619E-01 +1.36071760737E-03 +2.60043083761E-03 +1.34608461661E-03 +2.68962109822E-03 -9.28268696821E-02 -5.27555535886E-01
4.26000000000E+09 -1.46418943213E-01 -3.84844746145E-01 +1.52640002944E-03 +2.43053615914E-03 +1.59289286708E-03 +2.54131647015E-03 -1.13118790811E-01 -5.14065236384E-01
4.26500000000E+09 -1.67281181791E-01 -3.74507706987E-01 +1.94576023143E-03 +2.44718868807E-03 +1.94423332065E-03 +2.49703218627E-03 -1.32890761148E-01 -5.00744349720E-01
4.27000000000E+09 -1.86286635167E-01 -3.63477520098E-01 +2.27374143742E-03 +2.10599762633E-03 +2.31775288078E-03 +2.16562322675E-03 -1.52849378257E-01 -4.85944002859E-01
4.27500000000E+09 -2.02721106214E-01 -3.52468706565E-01 +2.41320475132E-03 +1.97208429681E-03 +2.49306683539E-03 +2.00690234236E-03 -1.72068516185E-01 -4.70973398659E-01
4.28000000000E+09 -2.16386465499E-01 -3.40750252509E-01 +2.90775085320E-03 +1.72007127877E-03 +2.94791143581E-03 +1.70874254591E-03 -1.91681388363E-01 -4.55337556168E-01
4.28500000000E+09 -2.29064803059E-01 -3.28007615388E-01 +2.76924443671E-03 +1.07319382584E-03 +2.88183239903E-03 +1.08169829736E-03 -2.10999527396E-01 -4.39800387705E-01
4.29000000000E+09 -2.39278754920E-01 -3.12287332871E-01 +2.72405232365E-03 +1.10543009656E-03 +2.75059559827E-03 +1.06141079754E-03 -2.29008599340E-01 -4.23480427829E-01
4.29500000000E+09 -2.49820139186E-01 -2.96138952780E-01 +2.70470920835E-03 +1.30610642982E-03 +2.74758103034E-03 +1.29465792512E-03 -2.48068293225E-01 -4.06580834069E-01
4.30000000000E+09 -2.61101840912E-01 -2.77719565288E-01 +3.58378313332E-03 +1.06560746475E-03 +3.65079753996E-03 +1.04834243567E-03 -2.64755797648E-01 -3.87103934879E-01
4.30500000000E+09 -2.73375196923E-01 -2.57535481018E-01 +3.82067709053E-03 +4.32448205429E-04 +3.91667853069E-03 +4.11399367097E-04 -2.79772534543E-01 -3.67969321368E-01
4.31000000000E+09 -2.86567230444E-01 -2.37457895278E-01 +4.20147477053E-03 +3.96827931485E-05 +4.28969885469E-03 +2.59232392529E-05 -2.95165189862E-01 -3.48564633711E-01
4.31500000000E+09 -3.01021452138E-01 -2.17346880240E-01 +4.39871942479E-03 -1.19603467735E-03 +4.45437885139E-03 -1.25885718871E-03 -3.10075402705E-01 -3.28072655648E-01
4.32000000000E+09 -3.14625111992E-01 -1.98633246961E-01 +3.39098515975E-03 -2.03097999494E-03 +3.39566182481E-03 -2.13416204439E-03 -3.23460152913E-01 -3.06481509315E-01
4.32500000000E+09 -3.28061026681E-01 -1.81678642465E-01 +2.62594628018E-03 -1.77344051879E-03 +2.63764567311E-03 -1.83193230514E-03 -3.36798708681E-01 -2.85849223403E-01
4.33000000000E+09 -3.39545769081E-01 -1.65204039743E-01 +2.91148187561E-03 -1.36532314236E-03 +2.95202943161E-03 -1.36730810867E-03 -3.49801395592E-01 -2.63500083184E-01
4.33500000000E+09 -3.47904764008E-01 -1.49254590484E-01 +3.23030696143E-03 -1.74614655897E-03 +3.21371071134E-03 -1.82202412424E-03 -3.61657941253E-01 -2.39824324935E-01
4.34000000000E+09 -3.53989348862E-01 -1.34205946000E-01 +3.39576176541E-03 -2.23979896546E-03 +3.46895836267E-03 -2.26646239206E-03 -3.72495751182E-01 -2.16176188450E-01
4.34500000000E+09 -3.58686691339E-01 -1.17767595803E-01 +3.38471425200E-03 -3.18358815869E-03 +3.36798516535E-03 -3.24847015541E-03 -3.82681357713E-01 -1.90520889914E-01
4.35000000000E+09 -3.60931147825E-01 -9.88665594374E-02 +2.52350531296E-03 -4.04876356573E-03 +2.48643611241E-03 -4.06561520047E-03 -3.90400940404E-01 -1.65626926219E-01
4.35500000000E+09 -3.62847173993E-01 -7.90065192136E-02 +1.82840970714E-03 -4.07522077163E-03 +1.80928153177E-03 -4.17088844953E-03 -3.98192484789E-01 -1.42109852761E-01
4.36000000000E+09 -3.65645518721E-01 -5.67228358800E-02 +1.40802632322E-03 -4.22424718334E-03 +1.41805400253E-03 -4.28260173731E-03 -4.04395135762E-01 -1.18008329939E-01
4.36500000000E+09 -3.68952805371E-01 -3.30092200506E-02 +6.27103612269E-04 -4.48898833124E-03 +5.65441657871E-04 -4.52829589631E-03 -4.09842261373E-01 -9.45325211623E-02
4.37000000000E+09 -3.73852578373E-01 -1.01323990068E-02 -2.41047941164E-05 -4.00763378231E-03 -8.85059743587E-05 -4.08256870177E-03 -4.13939920895E-01 -7.05094688515E-02
4.37500000000E+09 -3.79962915525E-01 +1.33024629503E-02 -4.96253949189E-05 -3.50538534175E-03 -1.72428481845E-04 -3.58762021540E-03 -4.17162666543E-01 -4.59603514998E-02
4.38000000000E+09 -3.85781419135E-01 +3.47862874040E-02 +8.63905085530E-05 -4.06737735838E-03 +4.24370103333E-05 -4.12275581012E-03 -4.19752767307E-01 -2.16516950179E-02
4.38500000000E+09 -3.91381206282E-01 +5.36164456751E-02 -2.06118364073E-04 -4.26133945862E-03 -2.71401916682E-04 -4.33620670190E-03 -4.22346250451E-01 +3.61990050428E-03
4.39000000000E+09 -3.94816232769E-01 +7.03759126363E-02 -1.08890270469E-03 -5.07581487227E-03 -1.23346555751E-03 -5.07280027733E-03 -4.23264263306E-01 +2.93167785585E-02
4.39500000000E+09 -3.96842703999E-01 +8.49132746903E-02 -2.46797782543E-03 -4.67770200383E-03 -2.54366893044E-03 -4.65416632091E-03 -4.23404778581E-01 +5.33609670407E-02
4.40000000000E+09 -3.96926381242E-01 +9.94032835802E-02 -2.99275550777E-03 -3.82047064876E-03 -3.07007628746E-03 -3.84692539906E-03 -4.22346012546E-01 +7.84001987797E-02
4.40500000000E+09 -3.94587914870E-01 +1.15012272508E-01 -3.44583791721E-03 -3.08857130222E-03 -3.56183092296E-03 -3.04920389989E-03 -4.19263573718E-01 +1.02719988175E-01
4.41000000000E+09 -3.89727433278E-01 +1.32160309839E-01 -3.16806358717E-03 -2.65892595038E-03 -3.25492804846E-03 -2.59012700605E-03 -4.15732787488E-01 +1.25853367803E-01
4.41500000000E+09 -3.84122664804E-01 +1.51025807081E-01 -3.58196926934E-03 -2.31720457110E-03 -3.64256570618E-03 -2.27227051963E-03 -4.11358092392E-01 +1.50117187762E-01
4.42000000000E+09 -3.78625116845E-01 +1.72339192287E-01 -3.70235174048E-03 -2.15491201431E-03 -3.72148915785E-03 -2.03837314536E-03 -4.06244328650E-01 +1.72969565038E-01
4.42500000000E+09 -3.73009977622E-01 +1.94573500680E-01 -4.11678440227E-03 -1.82949783094E-03 -4.07401563883E-03 -1.73438029795E-03 -4.00627980179E-01 +1.96458396666E-01
4.43000000000E+09 -3.68915781145E-01 +2.16291810205E-01 -3.98442621457E-03 -1.12488791210E-03 -3.98073898975E-03 -1.01782153379E-03 -3.94340744400E-01 +2.18946994747E-01
4.43500000000E+09 -3.66622095104E-01 +2.37365207235E-01 -4.41981216510E-03 -9.02821164057E-04 -4.42283169685E-03 -7.68694398219E-04 -3.87568875480E-01 +2.41107696653E-01
4.44000000000E+09 -3.64980175720E-01 +2.56788925858E-01 -4.28902970400E-03 -1.93091833220E-04 -4.31117005071E-03 -8.41474868504E-05 -3.79085760876E-01 +2.63849377140E-01
4.44500000000E+09 -3.63426725310E-01 +2.74206564702E-01 -4.05662013956E-03 +1.56623950627E-04 -4.00762471901E-03 +3.02943391191E-04 -3.69441170006E-01 +2.83875655161E-01
4.45000000000E+09 -3.60697802811E-01 +2.88971514159E-01 -4.28217170981E-03 +5.07039018203E-04 -4.20446182323E-03 +6.14922414970E-04 -3.59740064095E-01 +3.03971179140E-01
4.45500000000E+09 -3.56491304630E-01 +3.01973486856E-01 -4.28757314503E-03 +1.34044515075E-03 -4.18114739583E-03 +1.39239703052E-03 -3.48604390875E-01 +3.22640477616E-01
4.46000000000E+09 -3.50427977484E-01 +3.14029725942E-01 -3.61637475673E-03 +1.80446366429E-03 -3.49891098922E-03 +1.93043490875E-03 -3.39499912694E-01 +3.40296063532E-01
4.46500000000E+09 -3.41668301252E-01 +3.27156706242E-01 -3.17860077104E-03 +1.86183407055E-03 -3.12507265799E-03 +1.94116140660E-03 -3.27704701994E-01 +3.59451941124E-01
4.47000000000E+09 -3.30817782176E-01 +3.41116530217E-01 -2.91969382248E-03 +1.64462889437E-03 -2.83784397269E-03 +1.71099975500E-03 -3.15621750743E-01 +3.76749267224E-01
4.47500000000E+09 -3.18886594864E-01 +3.57264261545E-01 -3.70243631156E-03 +2.02604747404E-03 -3.63774941905E-03 +2.13111943041E-03 -3.03691142823E-01 +3.93355067090E-01
4.48000000000E+09 -3.06016472379E-01 +3.74881986576E-01 -2.99797371975E-03 +2.90355210706E-03 -2.86467866363E-03 +2.91956211974E-03 -2.91490099883E-01 +4.10102279555E-01
4.48500000000E+09 -2.93499639119E-01 +3.92782289946E-01 -2.66816513233E-03 +3.21267993758E-03 -2.49167414776E-03 +3.22310214307E-03 -2.79025851720E-01 +4.25972279768E-01
4.49000000000E+09 -2.83421065126E-01 +4.09744058926E-01 -2.23352970468E-03 +3.58856785550E-03 -2.13682768686E-03 +3.50156608804E-03 -2.65787190935E-01 +4.41717004602E-01
4.49500000000E+09 -2.75406488478E-01 +4.27398243000E-01 -1.42257177980E-03 +3.65769920148E-03 -1.43954421902E-03 +3.57867884858E-03 -2.52358749975E-01 +4.55601939869E-01
4.50000000000E+09 -2.68188059170E-01 +4.42449061667E-01 -1.19488962076E-03 +3.56797263563E-03 -1.13370751657E-03 +3.49446116950E-03 -2.39313894379E-01 +4.69334926564E-01
4.50500000000E+09 -2.62597339547E-01 +4.55544328111E-01 -8.04379506455E-04 +3.56278242350E-03 -7.10024317005E-04 +3.52140790656E-03 -2.25355818720E-01 +4.82683335553E-01
4.51000000000E+09 -2.56314021450E-01 +4.66822633483E-01 -5.08406081750E-04 +3.43271046495E-03 -5.21750981206E-04 +3.40896503022E-03 -2.11773528500E-01 +4.95341763154E-01
4.51500000000E+09 -2.48076162934E-01 +4.76034209278E-01 -2.26336121238E-04 +3.48263973586E-03 -1.53693700677E-04 +3.40308743642E-03 -1.97696185452E-01 +5.07313799804E-01
4.52000000000E+09 -2.38471301134E-01 +4.83586292641E-01 -2.16820101428E-04 +3.33102893409E-03 -1.35779874202E-04 +3.31325350567E-03 -1.83758010670E-01 +5.19038160543E-01
4.52500000000E+09 -2.27018579852E-01 +4.91435018837E-01 +5.96276070783E-05 +3.54212471099E-03 +7.04501666125E-05 +3.37701020676E-03 -1.69932706439E-01 +5.29453332260E-01
4.53000000000E+09 -2.13251177122E-01 +4.99947360308E-01 +3.74237818807E-04 +3.89865156181E-03 +4.03039132421E-04 +3.86539638744E-03 -1.55798468380E-01 +5.39974687551E-01
4.53500000000E+09 -1.98044142615E-01 +5.09704957407E-01 +1.11607393793E-03 +3.67680256874E-03 +1.15383403915E-03 +3.65540292407E-03 -1.41086149939E-01 +5.49585180631E-01
4.54000000000E+09 -1.82274590972E-01 +5.20516732391E-01 +1.52680262763E-03 +3.49726150509E-03 +1.57795375773E-03 +3.44894177912E-03 -1.26176577644E-01 +5.59183817054E-01
4.54500000000E+09 -1.67199151407E-01 +5.31490094274E-01 +1.71340764390E-03 +3.27227344809E-03 +1.75511296095E-03 +3.17638272270E-03 -1.11059857855E-01 +5.67903649402E-01
4.55000000000E+09 -1.54281650233E-01 +5.42314979213E-01 +2.35692462179E-03 +3.11137947582E-03 +2.32093009472E-03 +3.01271536327E-03 -9.62509308715E-02 +5.76517222662E-01
4.55500000000E+09 -1.43391421560E-01 +5.53390890145E-01 +2.54415780612E-03 +2.55630312132E-03 +2.53655149090E-03 +2.44718826021E-03 -8.21775064348E-02 +5.84503334214E-01
4.56000000000E+09 -1.33854244864E-01 +5.63318908364E-01 +2.51453220542E-03 +2.31314658129E-03 +2.48752517427E-03 +2.24731068654E-03 -6.78477229146E-02 +5.92948854880E-01
4.56500000000E+09 -1.25365464217E-01 +5.71300746527E-01 +2.86718593936E-03 +2.14860837371E-03 +2.85090409560E-03 +2.06678008348E-03 -5.34992419310E-02 +6.00418103749E-01
4.57000000000E+09 -1.16675909741E-01 +5.78295055993E-01 +2.93699482006E-03 +1.78376482170E-03 +2.87049930304E-03 +1.67855738601E-03 -3.84017966210E-02 +6.07665563464E-01
