# Hz S RI R 50
! CMT, C1220, 16058040, 17.2.0/1
! Date: 15/08/2018 12:02:08
! Data: Format (Calibration Info)
! Freq                      S11: Re/Im (F2)                       S21: Re/Im (F2)                       S12: Re/Im (F2)                       S22: Re/Im (F2)            
4.00000000000E+09 +6.64545759035E-01 -3.42964463632E-01 +8.26634465415E-04 -6.85873507270E-04 +8.91161837309E-04 -6.76442232398E-04 +7.76411929052E-01 -3.40770802482E-01
4.00500000000E+09 +6.56465831672E-01 -3.49039630302E-01 +6.23441184582E-04 -6.45438023925E-04 +6.79804889579E-04 -6.81740802359E-04 +7.67878795299E-01 -3.52687089650E-01
4.01000000000E+09 +6.47526919171E-01 -3.55197508920E-01 +5.85243639819E-04 -6.25740117939E-04 +6.65552111775E-04 -5.93980449116E-04 +7.58173068156E-01 -3.63885707194E-01
4.01500000000E+09 +6.37277601760E-01 -3.61793062172E-01 +6.57983099932E-04 -5.58472164472E-04 +7.10629268912E-04 -5.69367453890E-04 +7.48602443966E-01 -3.74150835228E-01
4.02000000000E+09 +6.26369801926E-01 -3.69015958276E-01 +8.07865728689E-04 -7.74550912880E-04 +8.41823018828E-04 -7.30348356628E-04 +7.38853032729E-01 -3.84613674316E-01
4.02500000000E+09 +6.15376153333E-01 -3.77811616728E-01 +6.77397907278E-04 -9.89034543937E-04 +7.25014303462E-04 -9.92717272013E-04 +7.28735982980E-01 -3.94920498353E-01
4.03000000000E+09 +6.03714025324E-01 -3.88201722804E-01 +3.62865314569E-04 -1.25412369588E-03 +4.82054518822E-04 -1.25423147659E-03 +7.18164184057E-01 -4.04938926428E-01
4.03500000000E+09 +5.92040348255E-01 -3.98646274547E-01 +4.84183665680E-05 -1.05107798287E-03 +1.16151653826E-04 -1.05646546863E-03 +7.07210227522E-01 -4.15304045907E-01
4.04000000000E+09 +5.80772843306E-01 -4.09438690214E-01 +1.41999048695E-04 -8.64423489936E-04 +1.56616230536E-04 -8.48460179468E-04 +6.96533701711E-01 -4.25818081490E-01
4.04500000000E+09 +5.69555222122E-01 -4.19962621511E-01 +7.43661828538E-05 -7.20327344469E-04 +1.45650279813E-04 -7.41454965642E-04 +6.85394267705E-01 -4.36599495992E-01
4.05000000000E+09 +5.58267664007E-01 -4.28648890992E-01 +3.37073984091E-04 -8.31043952166E-04 +3.79676523507E-04 -8.70400503211E-04 +6.73922104794E-01 -4.46728419352E-01
4.05500000000E+09 +5.46715191079E-01 -4.35631573775E-01 +2.39824303999E-04 -1.11805317860E-03 +2.76972417048E-04 -1.15923935461E-03 +6.62215782742E-01 -4.56581916594E-01
4.06000000000E+09 +5.34740454677E-01 -4.41114137088E-01 +4.69421353144E-05 -1.26002572604E-03 +7.02648557232E-05 -1.29259670811E-03 +6.49795440374E-01 -4.66312347024E-01
4.06500000000E+09 +5.22327406653E-01 -4.45332973570E-01 -2.62557396178E-04 -1.10537980108E-03 -3.03312641607E-04 -1.16520489294E-03 +6.36877923064E-01 -4.75324197771E-01
4.07000000000E+09 +5.09111763013E-01 -4.49644364379E-01 -1.93055765195E-04 -1.02114776232E-03 -6.82742162942E-05 -1.04666823083E-03 +6.23184299975E-01 -4.85113541528E-01
4.07500000000E+09 +4.94499259628E-01 -4.54716000367E-01 -2.89096530325E-04 -1.18971751605E-03 -2.78909061425E-04 -1.22267299767E-03 +6.09536312042E-01 -4.94077382127E-01
4.08000000000E+09 +4.78563121666E-01 -4.59958557466E-01 -4.76982613240E-04 -1.10420959941E-03 -4.25890220562E-04 -1.16198847188E-03 +5.96368304886E-01 -5.03342928260E-01
4.08500000000E+09 +4.62356483319E-01 -4.65962483368E-01 -5.74129787941E-04 -1.01120906055E-03 -5.95947740832E-04 -1.03083262999E-03 +5.82377459050E-01 -5.13022291068E-01
4.09000000000E+09 +4.45853401632E-01 -4.72918443565E-01 -6.24881416785E-04 -1.02299867460E-03 -6.34055073609E-04 -1.06935835101E-03 +5.68122492737E-01 -5.21151060547E-01
4.09500000000E+09 +4.29770670254E-01 -4.79710561244E-01 -6.58638690991E-04 -8.10059423659E-04 -6.90587123021E-04 -8.36080211637E-04 +5.53562696867E-01 -5.29538410688E-01
4.10000000000E+09 +4.13385062436E-01 -4.86575494778E-01 -5.62841819770E-04 -9.54996793764E-04 -5.44690284459E-04 -9.81053230560E-04 +5.37700565589E-01 -5.37493549929E-01
4.10500000000E+09 +3.97250090131E-01 -4.91808958588E-01 -6.59661089449E-04 -1.12483918767E-03 -7.11929841323E-04 -1.17638925066E-03 +5.21379012286E-01 -5.45092565933E-01
4.11000000000E+09 +3.81445577561E-01 -4.95046197080E-01 -1.07492585961E-03 -1.18843756581E-03 -1.03128237991E-03 -1.24567180145E-03 +5.04226808760E-01 -5.52763183313E-01
4.11500000000E+09 +3.66234247692E-01 -4.96777642512E-01 -1.38692073107E-03 -8.49674058248E-04 -1.41785309163E-03 -8.90129786182E-04 +4.87125258481E-01 -5.59632227705E-01
4.12000000000E+09 +3.50944134073E-01 -4.97291248007E-01 -1.30706829185E-03 -6.31000440217E-04 -1.30644766217E-03 -7.01959834113E-04 +4.70209883687E-01 -5.65976346843E-01
4.12500000000E+09 +3.35372319113E-01 -4.97902504630E-01 -1.42028312178E-03 -4.63125132533E-04 -1.43418472262E-03 -4.84268890223E-04 +4.53282100047E-01 -5.72223732810E-01
4.13000000000E+09 +3.17419601894E-01 -4.99550366708E-01 -1.37582015480E-03 -4.63921166575E-04 -1.40135696821E-03 -5.28144220866E-04 +4.36278677762E-01 -5.78007188169E-01
4.13500000000E+09 +2.98508306481E-01 -5.00386517500E-01 -1.52084797392E-03 -2.95544154051E-04 -1.53840362852E-03 -3.41413716172E-04 +4.17674504331E-01 -5.83878204913E-01
4.14000000000E+09 +2.79653220932E-01 -5.02437356680E-01 -1.48061842830E-03 -1.05456673990E-04 -1.51055366960E-03 -1.66202242971E-04 +3.98701252249E-01 -5.88624096603E-01
4.14500000000E+09 +2.60159256726E-01 -5.05900328691E-01 -1.48843312232E-03 -3.15961205330E-05 -1.56102979044E-03 -2.55229138647E-05 +3.80247417070E-01 -5.93865192180E-01
4.15000000000E+09 +2.40643183251E-01 -5.10188698974E-01 -1.43887159510E-03 +5.27264528455E-05 -1.53511047630E-03 +4.40315518191E-05 +3.60336828344E-01 -5.99057029366E-01
4.15500000000E+09 +2.21015591231E-01 -5.13868894906E-01 -1.50922183582E-03 -1.45821421349E-05 -1.58200568906E-03 -6.13669521239E-05 +3.41097799632E-01 -6.02338141495E-01
4.16000000000E+09 +2.02334267225E-01 -5.16280622403E-01 -1.94019113355E-03 +1.77296822623E-04 -2.06102338020E-03 +1.70548105696E-04 +3.21674889349E-01 -6.05450061120E-01
4.16500000000E+09 +1.85260967365E-01 -5.16419171570E-01 -1.86960106044E-03 +9.46338557863E-04 -1.93737237748E-03 +9.33806779036E-04 +3.01226959467E-01 -6.07272609429E-01
4.17000000000E+09 +1.69313547816E-01 -5.15364825666E-01 -1.41373436895E-03 +9.17936174703E-04 -1.46075263862E-03 +9.06350250843E-04 +2.81493174631E-01 -6.08245653113E-01
4.17500000000E+09 +1.53389178337E-01 -5.12148317317E-01 -1.47189084025E-03 +1.27298302184E-03 -1.56196186969E-03 +1.29598247410E-03 +2.60427172818E-01 -6.09205967259E-01
4.18000000000E+09 +1.37736001770E-01 -5.08255229500E-01 -7.06386887707E-04 +1.16471678038E-03 -7.52322201676E-04 +1.16390071183E-03 +2.39842462560E-01 -6.09811611745E-01
4.18500000000E+09 +1.20408691047E-01 -5.03262574790E-01 -9.70848789585E-04 +5.33822734759E-04 -1.04036499783E-03 +5.62380621258E-04 +2.18027943998E-01 -6.10967330310E-01
4.19000000000E+09 +1.02001992159E-01 -4.97496482130E-01 -1.47775768064E-03 +7.07679703485E-04 -1.53621059810E-03 +6.67320651680E-04 +1.95592843291E-01 -6.09872055985E-01
4.19500000000E+09 +8.31834651209E-02 -4.91486105927E-01 -1.59766751495E-03 +1.31457011605E-03 -1.66216192246E-03 +1.37121850085E-03 +1.74304259017E-01 -6.07807336855E-01
4.20000000000E+09 +6.42007411176E-02 -4.87244536140E-01 -1.35763849837E-03 +1.69780683151E-03 -1.46900179924E-03 +1.69502878838E-03 +1.52545642963E-01 -6.05627041315E-01
4.20500000000E+09 +4.44519200039E-02 -4.83975327437E-01 -1.05274831139E-03 +2.07535671823E-03 -1.10296357325E-03 +2.11827625665E-03 +1.30180388976E-01 -6.02272001385E-01
4.21000000000E+09 +2.47848422258E-02 -4.80369444236E-01 -6.18787589851E-04 +1.78933322356E-03 -6.30548923173E-04 +1.83126181815E-03 +1.07959048531E-01 -5.98513229814E-01
4.21500000000E+09 +5.95744904196E-03 -4.76338221769E-01 -6.10283870202E-04 +1.83906610254E-03 -6.36591917076E-04 +1.85234625037E-03 +8.51949840177E-02 -5.94179333383E-01
4.22000000000E+09 -1.14700332733E-02 -4.70935898474E-01 -7.78527248202E-04 +2.01014525887E-03 -8.22273340703E-04 +2.07003120234E-03 +6.35794700869E-02 -5.88873696470E-01
4.22500000000E+09 -2.75574015808E-02 -4.63025047994E-01 -3.31435074661E-04 +2.55760065221E-03 -4.16866588238E-04 +2.63216687404E-03 +4.21179916528E-02 -5.83889818825E-01
4.23000000000E+09 -4.13486197052E-02 -4.54709239443E-01 +1.46940206965E-04 +2.21449830529E-03 +1.48002380347E-04 +2.27765209969E-03 +2.01722875409E-02 -5.77621226890E-01
4.23500000000E+09 -5.63555576256E-02 -4.45000431996E-01 +2.97498574273E-04 +2.12071595328E-03 +2.81394882173E-04 +2.19130956183E-03 -1.37943936408E-03 -5.69969738666E-01
4.24000000000E+09 -7.27235100144E-02 -4.33805292065E-01 +2.39058671234E-05 +2.29496402932E-03 -2.67191219613E-05 +2.28644825031E-03 -2.38639229794E-02 -5.61557422752E-01
4.24500000000E+09 -9.02606229366E-02 -4.20972585871E-01 +7.79478946554E-04 +2.66981042802E-03 +7.30910577508E-04 +2.77249908526E-03 -4.57748568532E-02 -5.51613041492E-01
4.25000000000E+09 -1.09061573163E-01 -4.08279173103E-01 +1.10527141048E-03 +2.31675102452E-03 +1.17341058440E-03 +2.31353545339E-03 -6.74818061969E-02 -5.42138171318E-01
4.25500000000E+09 -1.28736665169E-01 -3.95638851822E-01 +1.31481895087E-03 +2.11782299236E-03 +1.37266280024E-03 +2.16634699896E-03 -9.03554566717E-02 -5.30793517125E-01
4.26000000000E+09 -1.48609491726E-01 -3.84614232806E-01 +1.15928346871E-03 +1.92524886745E-03 +1.26334360929E-03 +2.02663354907E-03 -1.11187291886E-01 -5.17711213996E-01
4.26500000000E+09 -1.69697823476E-01 -3.74032023722E-01 +1.41101554094E-03 +2.26514891903E-03 +1.43819565639E-03 +2.32246914143E-03 -1.31805989608E-01 -5.04930227131E-01
4.27000000000E+09 -1.88811052281E-01 -3.62546902292E-01 +2.03458371232E-03 +2.23102166244E-03 +2.04153503051E-03 +2.25908273801E-03 -1.52708983509E-01 -4.89860424720E-01
4.27500000000E+09 -2.04980601305E-01 -3.51241051973E-01 +2.55181275119E-03 +1.83328161904E-03 +2.60300387205E-03 +1.92437727151E-03 -1.72611924553E-01 -4.74787522861E-01
4.28000000000E+09 -2.18713500359E-01 -3.39728248518E-01 +2.74666984251E-03 +1.25989403417E-03 +2.83620008282E-03 +1.28474578684E-03 -1.92864738827E-01 -4.58544161874E-01
4.28500000000E+09 -2.31548551949E-01 -3.27076312249E-01 +2.58016855350E-03 +7.39068421527E-04 +2.69362612094E-03 +7.24161755652E-04 -2.12382223553E-01 -4.42401913018E-01
4.29000000000E+09 -2.41926396075E-01 -3.11809987773E-01 +2.34255035057E-03 +5.63352385222E-04 +2.38723480162E-03 +5.21082709700E-04 -2.30672542356E-01 -4.25782341817E-01
4.29500000000E+09 -2.52750381026E-01 -2.95537391422E-01 +2.03640422816E-03 +9.99366412344E-04 +2.10009290559E-03 +9.33317797943E-04 -2.49666257468E-01 -4.08524733625E-01
4.30000000000E+09 -2.63894399273E-01 -2.77190733697E-01 +2.98236857881E-03 +9.82696636133E-04 +3.01138250131E-03 +8.93081828185E-04 -2.66474947692E-01 -3.89001974455E-01
4.30500000000E+09 -2.75815645855E-01 -2.57333105732E-01 +3.14214743963E-03 +4.57703802499E-04 +3.20851273290E-03 +4.22952828706E-04 -2.82228503581E-01 -3.69525184849E-01
4.31000000000E+09 -2.89008441878E-01 -2.37457654508E-01 +3.58558933447E-03 +1.42950183415E-04 +3.64408760749E-03 +1.10322655312E-04 -2.97506514604E-01 -3.49033095031E-01
4.31500000000E+09 -3.03179149784E-01 -2.17440728667E-01 +3.60969609637E-03 -8.70594182958E-04 +3.68760921749E-03 -9.41142523305E-04 -3.12207182553E-01 -3.27986437169E-01
4.32000000000E+09 -3.16810035939E-01 -1.98650038534E-01 +2.90859594064E-03 -1.36701705358E-03 +2.91857750114E-03 -1.42754975618E-03 -3.25163530991E-01 -3.06253998413E-01
4.32500000000E+09 -3.30035880296E-01 -1.81346773619E-01 +2.56382542157E-03 -1.36717271537E-03 +2.55201086942E-03 -1.36166816635E-03 -3.38045555019E-01 -2.85400835846E-01
4.33000000000E+09 -3.41201761883E-01 -1.64715681318E-01 +2.62942906240E-03 -1.05306479990E-03 +2.67107205700E-03 -1.12430721769E-03 -3.50794341155E-01 -2.63267901194E-01
4.33500000000E+09 -3.49628375830E-01 -1.48673352588E-01 +2.91862404839E-03 -1.44172351847E-03 +2.89364319051E-03 -1.50181986552E-03 -3.62467842897E-01 -2.39694208532E-01
4.34000000000E+09 -3.55888146420E-01 -1.33230631752E-01 +3.15890692059E-03 -1.86038580286E-03 +3.15904952939E-03 -1.87074827616E-03 -3.73383645569E-01 -2.16375826962E-01
4.34500000000E+09 -3.60533592845E-01 -1.16440234071E-01 +3.16065179338E-03 -2.69358267864E-03 +3.13652824257E-03 -2.69550051335E-03 -3.84161209033E-01 -1.90546758261E-01
4.35000000000E+09 -3.63006509465E-01 -9.76101369163E-02 +2.47712809381E-03 -3.41486655317E-03 +2.46356925816E-03 -3.40938992113E-03 -3.91614889670E-01 -1.65298287591E-01
4.35500000000E+09 -3.65244145242E-01 -7.73121042316E-02 +2.06093633198E-03 -3.65733784879E-03 +2.12634182094E-03 -3.68360686411E-03 -3.99401779668E-01 -1.41608736582E-01
4.36000000000E+09 -3.67985616953E-01 -5.52129238887E-02 +1.44849556534E-03 -4.02710182771E-03 +1.51097078339E-03 -4.02574960939E-03 -4.05819288689E-01 -1.17362970934E-01
4.36500000000E+09 -3.71428155408E-01 -3.15764586055E-02 +7.76494655630E-04 -4.12178400641E-03 +7.58493796394E-04 -4.13622323911E-03 -4.11281051633E-01 -9.37921025665E-02
4.37000000000E+09 -3.76368562235E-01 -8.97066383946E-03 +1.81674677648E-04 -3.97385466183E-03 +1.17027142321E-04 -3.99781855812E-03 -4.15395559726E-01 -6.93112895806E-02
4.37500000000E+09 -3.82802609673E-01 +1.44486952721E-02 -1.82643562375E-04 -3.51542629427E-03 -1.96094830861E-04 -3.57455358101E-03 -4.18888592552E-01 -4.44024183715E-02
4.38000000000E+09 -3.88533555999E-01 +3.60148259306E-02 -1.46293994197E-04 -3.73777156801E-03 -1.71689660176E-04 -3.85931502426E-03 -4.21095662464E-01 -1.89642014697E-02
4.38500000000E+09 -3.93615574339E-01 +5.50765096451E-02 -2.82241951543E-04 -3.82414098315E-03 -3.47142102090E-04 -3.91099495424E-03 -4.22581735719E-01 +6.69243432052E-03
4.39000000000E+09 -3.97005723194E-01 +7.16621045728E-02 -9.13787595237E-04 -4.45141024246E-03 -1.03444246632E-03 -4.54466048481E-03 -4.22688164647E-01 +3.20419259373E-02
4.39500000000E+09 -3.98828559433E-01 +8.64933747684E-02 -2.28089914776E-03 -4.36032605195E-03 -2.40708874193E-03 -4.36759473022E-03 -4.22225856324E-01 +5.61572933317E-02
4.40000000000E+09 -3.98636766038E-01 +1.00861932010E-01 -2.70579796059E-03 -3.42239166342E-03 -2.81793301556E-03 -3.44280205560E-03 -4.20538869475E-01 +8.06375276927E-02
4.40500000000E+09 -3.96562026905E-01 +1.17007478725E-01 -3.07070361865E-03 -2.92664429588E-03 -3.16687404408E-03 -2.85838635585E-03 -4.17348475375E-01 +1.04275155640E-01
4.41000000000E+09 -3.91441615341E-01 +1.34469518714E-01 -3.15337479299E-03 -2.45887308016E-03 -3.23792945448E-03 -2.44519833718E-03 -4.13652862607E-01 +1.27384306533E-01
4.41500000000E+09 -3.85666697127E-01 +1.53741554333E-01 -3.41771288532E-03 -1.90948446143E-03 -3.51986381435E-03 -1.82053077933E-03 -4.08556379668E-01 +1.51439217093E-01
4.42000000000E+09 -3.80054085072E-01 +1.75139101968E-01 -3.20410796229E-03 -1.47260255998E-03 -3.24187002883E-03 -1.41246638445E-03 -4.03239296556E-01 +1.73224190107E-01
4.42500000000E+09 -3.74514133183E-01 +1.97324104002E-01 -3.24301565437E-03 -1.53465547696E-03 -3.30991086516E-03 -1.41307584989E-03 -3.97631910983E-01 +1.96412767905E-01
4.43000000000E+09 -3.70714541229E-01 +2.19115902156E-01 -3.23145749622E-03 -1.26512507878E-03 -3.22840861916E-03 -1.19481302875E-03 -3.91345623067E-01 +2.17979672378E-01
4.43500000000E+09 -3.68349017261E-01 +2.40500080686E-01 -3.92236236732E-03 -1.44300242011E-03 -3.92198001340E-03 -1.27994572360E-03 -3.85193324461E-01 +2.39373985720E-01
4.44000000000E+09 -3.66486342004E-01 +2.59782801087E-01 -4.22989151714E-03 -5.26006686415E-04 -4.19919625027E-03 -4.41754276208E-04 -3.77277667625E-01 +2.62407507867E-01
4.44500000000E+09 -3.64872158831E-01 +2.76784009745E-01 -4.04705140770E-03 +1.28805617207E-04 -4.02248936887E-03 +1.91875647157E-04 -3.68025827289E-01 +2.81934714807E-01
4.45000000000E+09 -3.62512697695E-01 +2.91279152793E-01 -4.14378797971E-03 +6.13648198014E-04 -4.04230094454E-03 +7.31149343069E-04 -3.58523860072E-01 +3.02299488079E-01
4.45500000000E+09 -3.58288467883E-01 +3.04510403176E-01 -3.73994782500E-03 +1.41603310994E-03 -3.68022155873E-03 +1.51694394557E-03 -3.47344042250E-01 +3.21121101202E-01
4.46000000000E+09 -3.52247967848E-01 +3.16780609467E-01 -3.16879452996E-03 +1.51661572580E-03 -3.03024128129E-03 +1.60992797657E-03 -3.37989959108E-01 +3.38445011036E-01
4.46500000000E+09 -3.43220458537E-01 +3.30272982076E-01 -2.87549409540E-03 +1.57577622513E-03 -2.78693138164E-03 +1.64637983202E-03 -3.26420629473E-01 +3.57121171716E-01
4.47000000000E+09 -3.31977543319E-01 +3.44456838927E-01 -2.83460312583E-03 +1.23781599348E-03 -2.71209325046E-03 +1.35224691295E-03 -3.14830031189E-01 +3.74266988651E-01
4.47500000000E+09 -3.19467404981E-01 +3.60580621136E-01 -3.81216676773E-03 +1.79873697706E-03 -3.76214181683E-03 +1.79287740216E-03 -3.03229846837E-01 +3.90744947331E-01
4.48000000000E+09 -3.06533949219E-01 +3.77853601509E-01 -3.20053635617E-03 +2.86825484454E-03 -3.04007740763E-03 +2.89487505876E-03 -2.91399958260E-01 +4.07647622829E-01
4.48500000000E+09 -2.94224877782E-01 +3.96064806458E-01 -2.57919274137E-03 +3.41928164262E-03 -2.41875311790E-03 +3.37550047667E-03 -2.79023460319E-01 +4.23639690404E-01
4.49000000000E+09 -2.84170002325E-01 +4.13471426263E-01 -1.99500386161E-03 +3.64368104659E-03 -1.84138929172E-03 +3.52528225234E-03 -2.65550721557E-01 +4.39379208059E-01
4.49500000000E+09 -2.75654650361E-01 +4.31759692123E-01 -1.13933068437E-03 +3.63325829681E-03 -1.11729391164E-03 +3.49067636927E-03 -2.52065012421E-01 +4.53087464482E-01
4.50000000000E+09 -2.68104362229E-01 +4.46896884910E-01 -7.55501917316E-04 +3.36533801854E-03 -7.37298828869E-04 +3.26063029213E-03 -2.39268192887E-01 +4.66376079982E-01
4.50500000000E+09 -2.61955037903E-01 +4.59918904809E-01 -4.63200115926E-04 +3.06958009872E-03 -4.77689171090E-04 +3.02948447020E-03 -2.25589832615E-01 +4.79226658370E-01
4.51000000000E+09 -2.55625364972E-01 +4.70864383880E-01 -5.43299048830E-04 +2.94406804860E-03 -5.31259509001E-04 +2.89411967223E-03 -2.12554387329E-01 +4.91718412733E-01
4.51500000000E+09 -2.47322874304E-01 +4.79935398659E-01 -4.50759969218E-04 +3.21635856570E-03 -3.06399314557E-04 +3.16977459309E-03 -1.99043451876E-01 +5.03770525457E-01
4.52000000000E+09 -2.37679520122E-01 +4.87381785880E-01 -3.08738201653E-04 +3.40435519337E-03 -2.79032221212E-04 +3.33866736913E-03 -1.85669844466E-01 +5.15250505750E-01
4.52500000000E+09 -2.26021597925E-01 +4.95041279553E-01 +2.92409878920E-04 +3.37262199191E-03 +3.66296947890E-04 +3.34947543534E-03 -1.72647918991E-01 +5.26071858439E-01
4.53000000000E+09 -2.12024267352E-01 +5.03553313918E-01 +5.24662049329E-04 +3.62998386042E-03 +6.18483018102E-04 +3.54141723505E-03 -1.58786928387E-01 +5.36911486052E-01
4.53500000000E+09 -1.96286335496E-01 +5.13274179952E-01 +1.33276354016E-03 +3.26434082840E-03 +1.38330960660E-03 +3.17427568549E-03 -1.44150205409E-01 +5.46889218115E-01
4.54000000000E+09 -1.80309696261E-01 +5.23866168930E-01 +1.49605818275E-03 +2.97912425099E-03 +1.56053425600E-03 +2.88425501048E-03 -1.29580608381E-01 +5.56796885884E-01
4.54500000000E+09 -1.64602665452E-01 +5.34815065598E-01 +1.39720978493E-03 +2.90057024436E-03 +1.37248376056E-03 +2.82328120666E-03 -1.14510368297E-01 +5.65676569196E-01
4.55000000000E+09 -1.51343218350E-01 +5.45155753184E-01 +2.13167105082E-03 +2.98846589279E-03 +2.10356037423E-03 +2.83114354381E-03 -1.00223700661E-01 +5.74629820627E-01
4.55500000000E+09 -1.40412026281E-01 +5.55903169027E-01 +2.31516412701E-03 +2.36495294235E-03 +2.30034506214E-03 +2.26309340822E-03 -8.62691928250E-02 +5.83331928183E-01
4.56000000000E+09 -1.31085632620E-01 +5.65877622362E-01 +2.27774580047E-03 +2.22007445020E-03 +2.28976544676E-03 +2.14163038124E-03 -7.15923194232E-02 +5.91991672251E-01
4.56500000000E+09 -1.22511183392E-01 +5.74039436709E-01 +2.76293081284E-03 +2.13008195745E-03 +2.67227501518E-03 +2.03256429525E-03 -5.71891249503E-02 +5.99490564735E-01
4.57000000000E+09 -1.13664029670E-01 +5.81097167251E-01 +2.80437133976E-03 +1.67768453815E-03 +2.75992153194E-03 +1.53462431422E-03 -4.23477179756E-02 +6.06932769233E-01
