# Hz S RI R 50
! CMT, C1220, 16058040, 17.2.0/1
! Date: 15/08/2018 12:00:30
! Data: Format (Calibration Info)
! Freq                      S11: Re/Im (F2)                       S21: Re/Im (F2)                       S12: Re/Im (F2)                       S22: Re/Im (F2)            
4.00000000000E+09 +6.65620310930E-01 -3.42625861581E-01 +9.48289353812E-04 -7.59766933293E-04 +1.04342224516E-03 -7.84514342840E-04 +7.75782228202E-01 -3.42898032081E-01
4.00500000000E+09 +6.57511603887E-01 -3.48904802661E-01 +8.48896769360E-04 -7.04215687265E-04 +8.52788046575E-04 -6.97219670905E-04 +7.67162863382E-01 -3.54691423892E-01
4.01000000000E+09 +6.48538572311E-01 -3.55238686677E-01 +8.23586040344E-04 -6.46025624853E-04 +8.07335438821E-04 -7.13224744364E-04 +7.57582036916E-01 -3.65965651242E-01
4.01500000000E+09 +6.38057815378E-01 -3.62224074942E-01 +9.15838563357E-04 -6.17964412744E-04 +9.07260989937E-04 -5.93408869956E-04 +7.47978182970E-01 -3.76209890294E-01
4.02000000000E+09 +6.27058735395E-01 -3.69389575887E-01 +1.04818517640E-03 -8.26276263577E-04 +1.09757735147E-03 -8.06911841577E-04 +7.38233648650E-01 -3.86445800996E-01
4.02500000000E+09 +6.16149215354E-01 -3.78131426120E-01 +9.85763671336E-04 -1.11320202535E-03 +1.05155872214E-03 -1.15977330550E-03 +7.28262794217E-01 -3.96727082963E-01
4.03000000000E+09 +6.04663707546E-01 -3.88695002571E-01 +6.53998523575E-04 -1.46767135999E-03 +6.90857973844E-04 -1.42340291239E-03 +7.17808302823E-01 -4.06735865709E-01
4.03500000000E+09 +5.92934259283E-01 -3.99225505984E-01 +2.39910206364E-04 -1.22321282611E-03 +2.92689947586E-04 -1.19701499815E-03 +7.06924110947E-01 -4.17294538307E-01
4.04000000000E+09 +5.81705130125E-01 -4.09800907898E-01 +3.30374236416E-04 -1.04057541769E-03 +3.02511653886E-04 -1.00572611209E-03 +6.96117934380E-01 -4.27998714282E-01
4.04500000000E+09 +5.70420300041E-01 -4.20198194159E-01 +2.90124850990E-04 -9.48613730018E-04 +3.91606859927E-04 -9.16461149932E-04 +6.84777014210E-01 -4.38825564658E-01
4.05000000000E+09 +5.59147883669E-01 -4.28729855857E-01 +5.64468842256E-04 -1.09522843746E-03 +5.86863507016E-04 -1.05859724843E-03 +6.73349436014E-01 -4.48844940895E-01
4.05500000000E+09 +5.47219276789E-01 -4.35734246048E-01 +5.78558805326E-04 -1.39666187507E-03 +6.97666253381E-04 -1.34897966720E-03 +6.61810685039E-01 -4.58542906981E-01
4.06000000000E+09 +5.35010278026E-01 -4.41180125483E-01 +3.14807266446E-04 -1.64026344133E-03 +3.79179786901E-04 -1.72255101008E-03 +6.49541060234E-01 -4.68368740305E-01
4.06500000000E+09 +5.22315124961E-01 -4.45410693567E-01 -1.76961944677E-04 -1.57326349516E-03 -1.02915981597E-04 -1.65515497891E-03 +6.36665855238E-01 -4.77545490370E-01
4.07000000000E+09 +5.08693341305E-01 -4.49607683810E-01 -1.98780823512E-04 -1.48992510029E-03 -1.70524940504E-04 -1.46966194177E-03 +6.23018645674E-01 -4.87381112105E-01
4.07500000000E+09 +4.94107128179E-01 -4.54687354287E-01 -4.20264843981E-04 -1.59069102948E-03 -3.23048040904E-04 -1.65075849949E-03 +6.09317101295E-01 -4.96660165182E-01
4.08000000000E+09 +4.78190121739E-01 -4.59974452402E-01 -4.96632688015E-04 -1.33868926109E-03 -4.45432786943E-04 -1.48322316772E-03 +5.96073120068E-01 -5.06114303668E-01
4.08500000000E+09 +4.61901526935E-01 -4.66202002591E-01 -7.12194919720E-04 -1.32720483810E-03 -6.47262960141E-04 -1.39410668589E-03 +5.81869717857E-01 -5.15787103202E-01
4.09000000000E+09 +4.45513140779E-01 -4.72934878294E-01 -7.55759407803E-04 -1.26485467908E-03 -7.84463130834E-04 -1.35063868270E-03 +5.67427275706E-01 -5.23823632135E-01
4.09500000000E+09 +4.29557825730E-01 -4.79704692285E-01 -7.38539081432E-04 -1.06335837627E-03 -8.02917430324E-04 -1.09340780584E-03 +5.53089446005E-01 -5.32376860238E-01
4.10000000000E+09 +4.13445630240E-01 -4.86453734476E-01 -6.56268262058E-04 -1.26185259019E-03 -7.29878390494E-04 -1.33845542498E-03 +5.37074629983E-01 -5.40809081000E-01
4.10500000000E+09 +3.97573759603E-01 -4.91599653607E-01 -8.53606297001E-04 -1.41361054451E-03 -9.08067574087E-04 -1.47224382099E-03 +5.20389179803E-01 -5.48349495281E-01
4.11000000000E+09 +3.81807250049E-01 -4.95030029503E-01 -1.13619133838E-03 -1.43967990194E-03 -1.14750745196E-03 -1.50820194606E-03 +5.03065650760E-01 -5.55957677604E-01
4.11500000000E+09 +3.66430301345E-01 -4.96570730382E-01 -1.54489651186E-03 -1.24675995448E-03 -1.60039676649E-03 -1.29114642452E-03 +4.85709385573E-01 -5.62606480808E-01
4.12000000000E+09 +3.50947691192E-01 -4.96773859627E-01 -1.57520158208E-03 -8.61641015899E-04 -1.64439803181E-03 -9.22973335950E-04 +4.68695172146E-01 -5.68925788608E-01
4.12500000000E+09 +3.35269572996E-01 -4.97370080521E-01 -1.53689107254E-03 -6.31864353060E-04 -1.63442417615E-03 -6.85579145884E-04 +4.51677200211E-01 -5.75131994116E-01
4.13000000000E+09 +3.17112890359E-01 -4.98899840834E-01 -1.48522414543E-03 -8.44008737524E-04 -1.50644708929E-03 -8.88735492215E-04 +4.34465609214E-01 -5.80917968763E-01
4.13500000000E+09 +2.97899609656E-01 -4.99510694818E-01 -1.74004358966E-03 -7.40739229774E-04 -1.79698589753E-03 -7.28180650154E-04 +4.15959252350E-01 -5.86628051113E-01
4.14000000000E+09 +2.79021870890E-01 -5.01515830504E-01 -1.86799485847E-03 -5.86380740217E-04 -1.87382430340E-03 -6.23646348588E-04 +3.96901140430E-01 -5.91723716161E-01
4.14500000000E+09 +2.59540013584E-01 -5.04916440607E-01 -2.11272765676E-03 -3.63586745150E-04 -2.16776591601E-03 -4.08042227683E-04 +3.77910355295E-01 -5.96939444349E-01
4.15000000000E+09 +2.40273861965E-01 -5.09034277218E-01 -2.17158974393E-03 -7.55604252572E-05 -2.22383277716E-03 -3.92287198820E-05 +3.57712593462E-01 -6.01942816272E-01
4.15500000000E+09 +2.20940792120E-01 -5.12810140694E-01 -2.14767435653E-03 +1.26180217201E-06 -2.17280961760E-03 -1.13778797622E-05 +3.38367652846E-01 -6.04859384206E-01
4.16000000000E+09 +2.02413835051E-01 -5.15556461557E-01 -2.41104690890E-03 +3.71478791286E-04 -2.42492368369E-03 +3.67031205890E-04 +3.19090325111E-01 -6.07866644001E-01
4.16500000000E+09 +1.85132141518E-01 -5.15644787616E-01 -2.21426301731E-03 +8.92403114441E-04 -2.29539322741E-03 +9.17561189081E-04 +2.98406522303E-01 -6.09805066542E-01
4.17000000000E+09 +1.69256079704E-01 -5.14253147694E-01 -1.92769454231E-03 +8.80181336792E-04 -1.99145047390E-03 +8.72362436249E-04 +2.78299872100E-01 -6.10549712650E-01
4.17500000000E+09 +1.53345144547E-01 -5.10740514695E-01 -2.10211063909E-03 +1.29387365861E-03 -2.09837458979E-03 +1.28484406038E-03 +2.57092059087E-01 -6.11456218069E-01
4.18000000000E+09 +1.37880421413E-01 -5.06368398525E-01 -1.37671841727E-03 +1.45479874328E-03 -1.42602477928E-03 +1.38913473577E-03 +2.36244031467E-01 -6.11661170621E-01
4.18500000000E+09 +1.20847023607E-01 -5.01401446598E-01 -1.48345901334E-03 +9.45471319578E-04 -1.54560532569E-03 +9.27007286525E-04 +2.14445193358E-01 -6.12545411610E-01
4.19000000000E+09 +1.02544370061E-01 -4.95816272004E-01 -1.79505955956E-03 +1.16704803588E-03 -1.89720291439E-03 +1.12597247015E-03 +1.92115894673E-01 -6.11277870791E-01
4.19500000000E+09 +8.34606148649E-02 -4.89853962945E-01 -1.88528602794E-03 +1.72276653891E-03 -2.02598959679E-03 +1.74547308406E-03 +1.70734792446E-01 -6.08934812127E-01
4.20000000000E+09 +6.42753856082E-02 -4.85480046678E-01 -1.61185293863E-03 +2.04258413258E-03 -1.73532593114E-03 +2.02531999871E-03 +1.48948464703E-01 -6.06545887808E-01
4.20500000000E+09 +4.44406666823E-02 -4.81942793475E-01 -1.34086250373E-03 +2.38284326065E-03 -1.43307412100E-03 +2.44479253310E-03 +1.26591590325E-01 -6.03090897021E-01
4.21000000000E+09 +2.53329855581E-02 -4.78126432454E-01 -8.64942009710E-04 +2.14347160157E-03 -1.02098153764E-03 +2.16666158742E-03 +1.04106202020E-01 -5.99142132972E-01
4.21500000000E+09 +6.82178460167E-03 -4.74440680115E-01 -1.11836680515E-03 +2.12494613762E-03 -1.19147804127E-03 +2.19279127329E-03 +8.12659890029E-02 -5.94450655381E-01
4.22000000000E+09 -1.06324829391E-02 -4.69239723215E-01 -1.26221359985E-03 +2.68656939940E-03 -1.36703430330E-03 +2.75921100393E-03 +5.96216569887E-02 -5.88889959827E-01
4.22500000000E+09 -2.65766110842E-02 -4.61135548905E-01 -5.18682767868E-04 +3.29923674035E-03 -5.93951480882E-04 +3.41869704500E-03 +3.81044163937E-02 -5.83294764630E-01
4.23000000000E+09 -4.00614857282E-02 -4.52563850570E-01 +7.78643878680E-05 +2.86401572183E-03 +2.84770033677E-05 +2.96792380374E-03 +1.64273663024E-02 -5.76776602238E-01
4.23500000000E+09 -5.49594543586E-02 -4.42937291926E-01 +2.65676814069E-04 +2.83335739396E-03 +2.41440063481E-04 +2.95841915308E-03 -4.91680756074E-03 -5.68691752900E-01
4.24000000000E+09 -7.12224178935E-02 -4.31738934428E-01 +2.67992239141E-04 +2.95690625765E-03 +2.24064968715E-04 +3.02911152083E-03 -2.69364941877E-02 -5.60087162395E-01
4.24500000000E+09 -8.85092388665E-02 -4.18861556652E-01 +8.53619596744E-04 +3.12022249690E-03 +8.30751280663E-04 +3.29793631183E-03 -4.86246535213E-02 -5.50247597995E-01
4.25000000000E+09 -1.07194634635E-01 -4.06320375109E-01 +1.14317480221E-03 +2.87914479711E-03 +1.16018732810E-03 +2.99770173862E-03 -7.03813344964E-02 -5.40472475587E-01
4.25500000000E+09 -1.26618941254E-01 -3.93657029359E-01 +1.43257968099E-03 +2.88495060062E-03 +1.52400636708E-03 +3.00338352226E-03 -9.29754195149E-02 -5.28766319561E-01
4.26000000000E+09 -1.46134392559E-01 -3.82841366416E-01 +1.55252296736E-03 +2.78929928332E-03 +1.68206220158E-03 +2.84076605470E-03 -1.13472974356E-01 -5.15659018431E-01
4.26500000000E+09 -1.66897652928E-01 -3.72734193807E-01 +2.08265484347E-03 +2.90562821793E-03 +2.22942967809E-03 +2.98142521541E-03 -1.33704064786E-01 -5.02647276142E-01
4.27000000000E+09 -1.85771793197E-01 -3.61816285424E-01 +2.67314040433E-03 +2.46936336336E-03 +2.84060582224E-03 +2.46490481485E-03 -1.54279507643E-01 -4.87767061929E-01
4.27500000000E+09 -2.02175604374E-01 -3.50803873167E-01 +2.82230390140E-03 +2.06706712700E-03 +2.89658996254E-03 +2.04549274259E-03 -1.74074654951E-01 -4.72670523507E-01
4.28000000000E+09 -2.15561301878E-01 -3.39188467869E-01 +3.17537299782E-03 +1.69860365351E-03 +3.26866264600E-03 +1.67390062168E-03 -1.94261762881E-01 -4.56540863367E-01
4.28500000000E+09 -2.28124387316E-01 -3.26705469256E-01 +3.05953023245E-03 +1.08249894160E-03 +3.11572292272E-03 +1.02039039410E-03 -2.13676907829E-01 -4.40376802923E-01
4.29000000000E+09 -2.38306220752E-01 -3.11209925624E-01 +2.83558848130E-03 +1.01936970951E-03 +2.90833276384E-03 +9.51357210667E-04 -2.31836321315E-01 -4.23529827712E-01
4.29500000000E+09 -2.48752212492E-01 -2.95177085871E-01 +2.66617092586E-03 +1.38046405086E-03 +2.73546540352E-03 +1.33264364251E-03 -2.50812090302E-01 -4.06125701521E-01
4.30000000000E+09 -2.60053627084E-01 -2.76818790340E-01 +3.69918237139E-03 +1.13562953665E-03 +3.76840465874E-03 +1.05055398960E-03 -2.67247791569E-01 -3.86125421746E-01
4.30500000000E+09 -2.72160888778E-01 -2.56651889922E-01 +3.82542049132E-03 +5.08014298588E-04 +3.88315139047E-03 +4.79031008685E-04 -2.82002365860E-01 -3.66653222521E-01
4.31000000000E+09 -2.85108239689E-01 -2.36775733007E-01 +4.36154040424E-03 +2.65124069898E-04 +4.37998249403E-03 +1.82910292243E-04 -2.97087363441E-01 -3.46928439399E-01
4.31500000000E+09 -2.99523794641E-01 -2.16937889231E-01 +4.55295791756E-03 -1.02478224008E-03 +4.56251211930E-03 -1.04805400518E-03 -3.11822577275E-01 -3.26172842441E-01
4.32000000000E+09 -3.13113268398E-01 -1.98391834471E-01 +3.64814269213E-03 -1.84480030895E-03 +3.65157285742E-03 -1.90743081648E-03 -3.24973456770E-01 -3.04179535089E-01
4.32500000000E+09 -3.26641176300E-01 -1.81736664260E-01 +2.91436946681E-03 -1.61279757720E-03 +2.92636672024E-03 -1.64455894574E-03 -3.37406484155E-01 -2.83289477393E-01
4.33000000000E+09 -3.38233909027E-01 -1.65286270755E-01 +3.25448072596E-03 -1.22551319786E-03 +3.27755697332E-03 -1.23012134353E-03 -3.49829462713E-01 -2.61299904343E-01
4.33500000000E+09 -3.46530629595E-01 -1.49466669485E-01 +3.71784714728E-03 -1.71183929936E-03 +3.57129186454E-03 -1.75419118950E-03 -3.61397430743E-01 -2.37929162227E-01
4.34000000000E+09 -3.52675725001E-01 -1.34561850861E-01 +3.88513103078E-03 -2.29158443235E-03 +3.85777172833E-03 -2.27039950319E-03 -3.72082657668E-01 -2.14892139271E-01
4.34500000000E+09 -3.57376368788E-01 -1.18363887121E-01 +3.75822530062E-03 -3.25449614656E-03 +3.74266162257E-03 -3.23688978028E-03 -3.82565051301E-01 -1.89287952255E-01
4.35000000000E+09 -3.59760839508E-01 -9.94995831824E-02 +2.93092170535E-03 -4.22926979973E-03 +2.93535089225E-03 -4.20789928140E-03 -3.90056622165E-01 -1.64342373523E-01
4.35500000000E+09 -3.61829028275E-01 -7.98016028054E-02 +2.17372422759E-03 -4.34657734271E-03 +2.22538424107E-03 -4.35568079219E-03 -3.97796551810E-01 -1.41211213494E-01
4.36000000000E+09 -3.64834657800E-01 -5.75878201740E-02 +1.75503941046E-03 -4.48755667063E-03 +1.78715751081E-03 -4.53221381573E-03 -4.04462213624E-01 -1.16920278261E-01
4.36500000000E+09 -3.68106901719E-01 -3.37234943266E-02 +9.63675521203E-04 -4.82787527797E-03 +1.02265364188E-03 -4.86402376871E-03 -4.09868311434E-01 -9.33559737184E-02
4.37000000000E+09 -3.72994272348E-01 -1.09338100290E-02 +1.49487720268E-04 -4.56508078610E-03 +1.87289614359E-04 -4.60979567557E-03 -4.13954576711E-01 -6.91178364586E-02
4.37500000000E+09 -3.79188638856E-01 +1.22927995763E-02 -9.52662775765E-05 -3.90871508981E-03 -6.09861609900E-05 -4.02011038424E-03 -4.17035185338E-01 -4.42875623241E-02
4.38000000000E+09 -3.85143493645E-01 +3.36902837840E-02 +8.97261485350E-05 -4.45733266519E-03 +4.46669175206E-05 -4.59936864006E-03 -4.19248922950E-01 -1.98901202790E-02
4.38500000000E+09 -3.90848495339E-01 +5.24674710301E-02 -1.73397956157E-04 -4.48579490932E-03 -2.21739522730E-04 -4.67483751685E-03 -4.21603224046E-01 +5.34342990418E-03
4.39000000000E+09 -3.94410605236E-01 +6.92636920659E-02 -1.10847543888E-03 -5.36187630394E-03 -1.23392565068E-03 -5.40467342609E-03 -4.22281239477E-01 +3.10652901867E-02
4.39500000000E+09 -3.96509962072E-01 +8.38156026141E-02 -2.45461903556E-03 -4.98736461957E-03 -2.59399161665E-03 -5.07973512153E-03 -4.22244637329E-01 +5.52500927119E-02
4.40000000000E+09 -3.96590580502E-01 +9.81844355219E-02 -3.09523393512E-03 -4.14715593375E-03 -3.19561475804E-03 -4.19088336127E-03 -4.20580370698E-01 +8.04809908284E-02
4.40500000000E+09 -3.94218831520E-01 +1.13704473680E-01 -3.59844478745E-03 -3.42737776420E-03 -3.70285931509E-03 -3.40400254404E-03 -4.17059074259E-01 +1.04312749034E-01
4.41000000000E+09 -3.89478105005E-01 +1.30645668623E-01 -3.37406397892E-03 -2.90936736945E-03 -3.44233076763E-03 -2.90311264722E-03 -4.12953078426E-01 +1.27010170086E-01
4.41500000000E+09 -3.84144150010E-01 +1.49526711029E-01 -3.70017536007E-03 -2.49328404179E-03 -3.88099179291E-03 -2.46908919271E-03 -4.08419582348E-01 +1.50769585726E-01
4.42000000000E+09 -3.78720207631E-01 +1.70809860486E-01 -3.77726478889E-03 -2.21899459592E-03 -3.95465081889E-03 -2.13351922215E-03 -4.03209486435E-01 +1.72929903521E-01
4.42500000000E+09 -3.73147509273E-01 +1.92909822167E-01 -4.04907764294E-03 -1.99575029183E-03 -4.17570243749E-03 -1.85182679626E-03 -3.97640610147E-01 +1.95880669270E-01
4.43000000000E+09 -3.69442840250E-01 +2.14614566762E-01 -4.03175426455E-03 -1.46615661722E-03 -4.07081331086E-03 -1.25634414278E-03 -3.91601380610E-01 +2.17542370344E-01
4.43500000000E+09 -3.67286576140E-01 +2.35756854113E-01 -4.56752121795E-03 -1.24939630487E-03 -4.52648779433E-03 -1.02969559277E-03 -3.85470262804E-01 +2.39264467038E-01
4.44000000000E+09 -3.65805980119E-01 +2.55148900763E-01 -4.57242025495E-03 -4.56409643411E-04 -4.48330059293E-03 -3.02874831250E-04 -3.77426910798E-01 +2.62153383449E-01
4.44500000000E+09 -3.64498122339E-01 +2.72707852596E-01 -4.24124799112E-03 -4.97755169126E-05 -4.19655204800E-03 +1.16307540306E-04 -3.68237720736E-01 +2.81940119805E-01
4.45000000000E+09 -3.61766545388E-01 +2.87538843887E-01 -4.45568602009E-03 +3.05766216633E-04 -4.42460221507E-03 +4.06267639422E-04 -3.58827555031E-01 +3.01964708961E-01
4.45500000000E+09 -3.57586772961E-01 +3.00478886552E-01 -4.49849648709E-03 +1.11455912031E-03 -4.37413090580E-03 +1.25425589737E-03 -3.47916515704E-01 +3.20696011853E-01
4.46000000000E+09 -3.51840659811E-01 +3.12614124967E-01 -3.86806998032E-03 +1.61483625267E-03 -3.71765405056E-03 +1.66058398897E-03 -3.39163771404E-01 +3.38244485116E-01
4.46500000000E+09 -3.43391804842E-01 +3.25982819864E-01 -3.53711273898E-03 +1.68615227097E-03 -3.38462399509E-03 +1.70373768036E-03 -3.27863794377E-01 +3.57599847585E-01
4.47000000000E+09 -3.32584796783E-01 +3.40350166941E-01 -3.39516087051E-03 +1.53570023729E-03 -3.27613409216E-03 +1.53722822906E-03 -3.16105628671E-01 +3.75371951947E-01
4.47500000000E+09 -3.20424043570E-01 +3.56668081803E-01 -4.13846250331E-03 +1.96096640549E-03 -3.99945004650E-03 +2.00777647102E-03 -3.04120751757E-01 +3.92241681540E-01
4.48000000000E+09 -3.07567572115E-01 +3.74300712744E-01 -3.47575710855E-03 +2.87480171406E-03 -3.30512992174E-03 +2.85941708382E-03 -2.91693738766E-01 +4.09235807442E-01
4.48500000000E+09 -2.95019243975E-01 +3.92168421236E-01 -3.15791623103E-03 +3.33745053400E-03 -2.97158213579E-03 +3.29090769329E-03 -2.79107643977E-01 +4.25150780209E-01
4.49000000000E+09 -2.85131677162E-01 +4.09156788354E-01 -2.71240700167E-03 +3.81855293828E-03 -2.63277294947E-03 +3.67862259274E-03 -2.65651730798E-01 +4.40877953732E-01
4.49500000000E+09 -2.77183264364E-01 +4.27126610258E-01 -1.75876282489E-03 +3.89946829484E-03 -1.73034123619E-03 +3.79109408487E-03 -2.52167514570E-01 +4.54596697576E-01
4.50000000000E+09 -2.69945640818E-01 +4.42398308177E-01 -1.46662808348E-03 +3.85269609300E-03 -1.49227706693E-03 +3.74157324279E-03 -2.39199461094E-01 +4.68227982611E-01
4.50500000000E+09 -2.64157195194E-01 +4.55764988554E-01 -9.97778469120E-04 +3.81687261875E-03 -9.77496808751E-04 +3.70586944096E-03 -2.25302431411E-01 +4.81149130422E-01
4.51000000000E+09 -2.57683023605E-01 +4.67022617185E-01 -7.16806898129E-04 +3.75668120309E-03 -6.99017200591E-04 +3.68366921883E-03 -2.12090246726E-01 +4.93639314429E-01
4.51500000000E+09 -2.49468530492E-01 +4.76075134624E-01 -4.43293617905E-04 +3.82560938066E-03 -4.20854318276E-04 +3.75713477333E-03 -1.98300799225E-01 +5.05774448494E-01
4.52000000000E+09 -2.39814518393E-01 +4.83693393851E-01 -2.60489713837E-04 +3.72137062553E-03 -2.48167032451E-04 +3.63878234613E-03 -1.84729337500E-01 +5.17394476272E-01
4.52500000000E+09 -2.28470241860E-01 +4.91751101589E-01 +5.77787237748E-05 +3.81112028794E-03 +8.28773202923E-05 +3.75053766836E-03 -1.71277233867E-01 +5.28113740098E-01
4.53000000000E+09 -2.14444853717E-01 +5.00311813937E-01 +3.15768505720E-04 +4.08728307341E-03 +3.73472635721E-04 +4.10937848566E-03 -1.57330022059E-01 +5.38779561286E-01
4.53500000000E+09 -1.99242598083E-01 +5.10082185372E-01 +1.08815489084E-03 +3.92448695252E-03 +1.12284869822E-03 +3.85262697370E-03 -1.42884006980E-01 +5.48777083112E-01
4.54000000000E+09 -1.83393959515E-01 +5.20898030026E-01 +1.59314746486E-03 +3.76716474568E-03 +1.56142939262E-03 +3.71905526088E-03 -1.28039354441E-01 +5.58770247625E-01
4.54500000000E+09 -1.68270806162E-01 +5.31825317344E-01 +1.73874308853E-03 +3.50412209251E-03 +1.77608498453E-03 +3.43091496688E-03 -1.12870821081E-01 +5.67787024799E-01
4.55000000000E+09 -1.55432905819E-01 +5.42637860938E-01 +2.41559539567E-03 +3.29066927264E-03 +2.45148481965E-03 +3.18854327643E-03 -9.80354991194E-02 +5.76576089478E-01
4.55500000000E+09 -1.44496704987E-01 +5.53939930615E-01 +2.50710586761E-03 +2.72599309583E-03 +2.55090976110E-03 +2.61109838993E-03 -8.38322653593E-02 +5.84926648226E-01
4.56000000000E+09 -1.35041782426E-01 +5.63856519076E-01 +2.50249377526E-03 +2.48114658365E-03 +2.52963369240E-03 +2.39077320270E-03 -6.93439820933E-02 +5.93471299936E-01
4.56500000000E+09 -1.26429030340E-01 +5.71996912978E-01 +2.75875012333E-03 +2.37359068597E-03 +2.77622960195E-03 +2.25150417509E-03 -5.49509024350E-02 +6.01163519101E-01
4.57000000000E+09 -1.17715649943E-01 +5.79019252655E-01 +2.79933599930E-03 +2.11861696838E-03 +2.85184742445E-03 +1.98793299875E-03 -3.96052570522E-02 +6.08628930878E-01
