# Hz S RI R 50
! CMT, C1220, 16058040, 17.2.0/1
! Date: 15/08/2018 12:02:20
! Data: Format (Calibration Info)
! Freq                      S11: Re/Im (F2)                       S21: Re/Im (F2)                       S12: Re/Im (F2)                       S22: Re/Im (F2)            
4.00000000000E+09 +6.64564373818E-01 -3.41440633369E-01 +1.00391506037E-03 -6.42987756521E-04 +1.08829250463E-03 -6.53462940928E-04 +7.76684125657E-01 -3.40626166501E-01
4.00500000000E+09 +6.56616947600E-01 -3.47580021772E-01 +8.34552869719E-04 -6.50901891699E-04 +8.36494018785E-04 -6.57641441954E-04 +7.68083756725E-01 -3.52282804303E-01
4.01000000000E+09 +6.47886131901E-01 -3.53832323373E-01 +7.46361445218E-04 -6.67176363205E-04 +7.92164534284E-04 -6.37614770288E-04 +7.58419769233E-01 -3.63436719592E-01
4.01500000000E+09 +6.37505149065E-01 -3.60559660016E-01 +7.30342562153E-04 -6.45335794594E-04 +7.92565146714E-04 -6.21980933792E-04 +7.48900879194E-01 -3.73748465146E-01
4.02000000000E+09 +6.26749213232E-01 -3.67689642924E-01 +9.46793888828E-04 -7.60359306904E-04 +9.51504261053E-04 -6.71436513673E-04 +7.39263736714E-01 -3.84210393367E-01
4.02500000000E+09 +6.15812789337E-01 -3.76377015632E-01 +8.20500768641E-04 -1.02844664736E-03 +8.68023042769E-04 -1.04033604924E-03 +7.28995978363E-01 -3.94510573574E-01
4.03000000000E+09 +6.04347180870E-01 -3.86772216428E-01 +5.07980311704E-04 -1.35436152050E-03 +5.86407099230E-04 -1.33701675989E-03 +7.18617376171E-01 -4.04685941441E-01
4.03500000000E+09 +5.92920796358E-01 -3.97350839990E-01 +6.91428569599E-05 -1.11815828413E-03 +1.45641209690E-04 -1.18109729078E-03 +7.07568277944E-01 -4.15072265373E-01
4.04000000000E+09 +5.81682764252E-01 -4.08403661046E-01 +1.58937913648E-04 -9.44677171307E-04 +2.03111294420E-04 -9.57675387182E-04 +6.96763145899E-01 -4.25548555870E-01
4.04500000000E+09 +5.70428891964E-01 -4.18730958973E-01 +7.20990757851E-05 -8.32995782845E-04 +1.14514363436E-04 -8.47133236208E-04 +6.85592022299E-01 -4.36441837935E-01
4.05000000000E+09 +5.59382535788E-01 -4.27466250969E-01 +3.08031099316E-04 -8.42219804088E-04 +3.83361926584E-04 -8.79983958709E-04 +6.74180720589E-01 -4.46453289969E-01
4.05500000000E+09 +5.47927757165E-01 -4.34640649692E-01 +2.87509721228E-04 -1.10632722788E-03 +3.40571315429E-04 -1.16865726908E-03 +6.62529137890E-01 -4.56341106101E-01
4.06000000000E+09 +5.35891612996E-01 -4.40155751227E-01 +1.13344008739E-04 -1.17078581489E-03 +1.29117225404E-04 -1.21612535621E-03 +6.49916575967E-01 -4.66084890200E-01
4.06500000000E+09 +5.23710181456E-01 -4.44531420624E-01 -9.51944186805E-05 -1.07537540842E-03 -1.06225330829E-04 -1.10824072830E-03 +6.37043720642E-01 -4.75124375573E-01
4.07000000000E+09 +5.10419318741E-01 -4.48836337943E-01 +3.54212846931E-05 -1.07438402872E-03 +1.11229354703E-04 -1.15336255680E-03 +6.23259179551E-01 -4.84906695375E-01
4.07500000000E+09 +4.95955994291E-01 -4.53817360494E-01 -1.52125640236E-04 -1.28190456749E-03 -8.51897472067E-05 -1.34428993154E-03 +6.09374160624E-01 -4.93840770401E-01
4.08000000000E+09 +4.80236486566E-01 -4.59170477683E-01 -3.24944147633E-04 -1.30482317762E-03 -3.17335485102E-04 -1.30904831571E-03 +5.96225899460E-01 -5.02950701719E-01
4.08500000000E+09 +4.64150772455E-01 -4.65173809489E-01 -5.91908619709E-04 -1.12412668650E-03 -5.49953165563E-04 -1.23860341672E-03 +5.82336472955E-01 -5.12562028523E-01
4.09000000000E+09 +4.47900170320E-01 -4.72324217899E-01 -4.87577873856E-04 -1.06513483452E-03 -5.22065575478E-04 -1.13426917682E-03 +5.68059702670E-01 -5.20578272094E-01
4.09500000000E+09 +4.31771121197E-01 -4.79300657002E-01 -5.57562427682E-04 -1.01538263817E-03 -5.57523947977E-04 -1.08725790847E-03 +5.53726145209E-01 -5.28978202976E-01
4.10000000000E+09 +4.15382589678E-01 -4.86214377044E-01 -5.25031094768E-04 -1.14356513094E-03 -5.07923370560E-04 -1.22318789568E-03 +5.37845081490E-01 -5.37098656223E-01
4.10500000000E+09 +3.99414411137E-01 -4.91374370234E-01 -7.08115936799E-04 -1.28892962034E-03 -7.41936168822E-04 -1.39368757013E-03 +5.21509832472E-01 -5.44770307059E-01
4.11000000000E+09 +3.83753306816E-01 -4.94785936190E-01 -1.07145560663E-03 -1.38522676344E-03 -1.06536769399E-03 -1.46316581213E-03 +5.04272593889E-01 -5.52267244802E-01
4.11500000000E+09 +3.68700161298E-01 -4.96677191405E-01 -1.50032247731E-03 -1.03033338399E-03 -1.51016781257E-03 -1.13410173327E-03 +4.87236671340E-01 -5.59140793459E-01
4.12000000000E+09 +3.53635710501E-01 -4.97483620070E-01 -1.43856058125E-03 -8.30398772930E-04 -1.44150003019E-03 -8.84719933879E-04 +4.70187854256E-01 -5.65527388631E-01
4.12500000000E+09 +3.38015383206E-01 -4.98465726401E-01 -1.54144209521E-03 -5.03431177004E-04 -1.54989885756E-03 -6.06641943629E-04 +4.53398846815E-01 -5.71566500538E-01
4.13000000000E+09 +3.20030455430E-01 -5.00249958295E-01 -1.40106586703E-03 -6.15584877136E-04 -1.43948140531E-03 -6.45786782691E-04 +4.36476793438E-01 -5.77410354790E-01
4.13500000000E+09 +3.01074723614E-01 -5.01376359173E-01 -1.50079234540E-03 -5.05075364626E-04 -1.60181213992E-03 -5.53784468434E-04 +4.17951348820E-01 -5.83274355927E-01
4.14000000000E+09 +2.82063181924E-01 -5.03586065135E-01 -1.58659777328E-03 -3.09271499721E-04 -1.63191732220E-03 -3.82699631699E-04 +3.99067723724E-01 -5.88088122443E-01
4.14500000000E+09 +2.62592968555E-01 -5.07185129271E-01 -1.62881415090E-03 -2.34810958106E-04 -1.70639288329E-03 -2.73439787284E-04 +3.80432577140E-01 -5.93234388372E-01
4.15000000000E+09 +2.42933585462E-01 -5.11670945755E-01 -1.66587132142E-03 -1.67103614468E-04 -1.72033282028E-03 -2.02017221845E-04 +3.60477883894E-01 -5.98280802575E-01
4.15500000000E+09 +2.23328898342E-01 -5.15597683325E-01 -1.80816768819E-03 -1.67542326628E-04 -1.88074556561E-03 -1.62952444178E-04 +3.41387308065E-01 -6.01644717237E-01
4.16000000000E+09 +2.04531116181E-01 -5.18265830239E-01 -2.21080855836E-03 +1.21232399769E-04 -2.35341344340E-03 +1.25706403102E-04 +3.22001224115E-01 -6.04835729376E-01
4.16500000000E+09 +1.87314423108E-01 -5.18685561776E-01 -2.11018002801E-03 +7.68630039515E-04 -2.16570465861E-03 +8.48099948921E-04 +3.01511907662E-01 -6.06582319723E-01
4.17000000000E+09 +1.71037561588E-01 -5.17856561696E-01 -1.74792840929E-03 +9.15670152414E-04 -1.80599354111E-03 +9.37855634866E-04 +2.81846965005E-01 -6.07598064034E-01
4.17500000000E+09 +1.54741267165E-01 -5.14762173282E-01 -1.75033972001E-03 +1.31375283525E-03 -1.83610510116E-03 +1.27552155431E-03 +2.60735694600E-01 -6.08539506741E-01
4.18000000000E+09 +1.38819147485E-01 -5.10656026676E-01 -9.60642949054E-04 +1.25268050589E-03 -1.03945456617E-03 +1.27462515298E-03 +2.40238490061E-01 -6.09090044789E-01
4.18500000000E+09 +1.21527074901E-01 -5.05835145884E-01 -1.12788553558E-03 +6.69263985505E-04 -1.20094431872E-03 +6.47450258763E-04 +2.18360693835E-01 -6.10140996364E-01
4.19000000000E+09 +1.02993499733E-01 -5.00146313629E-01 -1.64384567029E-03 +8.07789194821E-04 -1.72978049854E-03 +8.12603501883E-04 +1.96027255934E-01 -6.08875489144E-01
4.19500000000E+09 +8.43984056002E-02 -4.94252077740E-01 -1.77615620100E-03 +1.50497316549E-03 -1.81905592922E-03 +1.50934054180E-03 +1.74931629770E-01 -6.06712306969E-01
4.20000000000E+09 +6.50235951995E-02 -4.90565237218E-01 -1.48947781833E-03 +1.76194364451E-03 -1.62108498178E-03 +1.78353776375E-03 +1.53381700738E-01 -6.04716319406E-01
4.20500000000E+09 +4.46907011140E-02 -4.87321328910E-01 -1.31308028901E-03 +2.28037573641E-03 -1.37066876748E-03 +2.28275053791E-03 +1.31213466789E-01 -6.01411929134E-01
4.21000000000E+09 +2.49792092380E-02 -4.83679682363E-01 -6.50665033787E-04 +2.05933203975E-03 -6.39607641687E-04 +2.09839555560E-03 +1.09122807688E-01 -5.97834109743E-01
4.21500000000E+09 +5.79930932524E-03 -4.79710463940E-01 -6.53407720504E-04 +1.86691141309E-03 -7.32772949996E-04 +1.94729272180E-03 +8.63719253852E-02 -5.93549799707E-01
4.22000000000E+09 -1.17343311420E-02 -4.74224937429E-01 -9.38132128639E-04 +2.17774544603E-03 -9.78310020388E-04 +2.24672226821E-03 +6.48491749811E-02 -5.88331253868E-01
4.22500000000E+09 -2.77263087752E-02 -4.66650033682E-01 -3.59503626334E-04 +2.63356090921E-03 -4.20380800951E-04 +2.70563041633E-03 +4.35392889209E-02 -5.83568079286E-01
4.23000000000E+09 -4.21747401437E-02 -4.58605922509E-01 -3.91429920319E-05 +2.27197563918E-03 -9.51187450176E-05 +2.34347818953E-03 +2.14001882810E-02 -5.77440935673E-01
4.23500000000E+09 -5.75452238541E-02 -4.48738900470E-01 +4.05429265689E-05 +2.43726853200E-03 +4.21830754115E-05 +2.49342421867E-03 -1.53516603973E-04 -5.69985657306E-01
4.24000000000E+09 -7.43859179850E-02 -4.37511247598E-01 -4.70588115641E-05 +2.48012323653E-03 -1.27209580180E-04 +2.62419413355E-03 -2.28412845080E-02 -5.61743435185E-01
4.24500000000E+09 -9.23012551047E-02 -4.24436856929E-01 +6.37134153863E-04 +2.94095348169E-03 +6.06853789076E-04 +3.02609952744E-03 -4.47254080662E-02 -5.51688544299E-01
4.25000000000E+09 -1.11247400685E-01 -4.11402497455E-01 +1.02356070746E-03 +2.56264399343E-03 +1.06466662672E-03 +2.67168511431E-03 -6.65785330646E-02 -5.42175949571E-01
4.25500000000E+09 -1.30982819548E-01 -3.98751060541E-01 +1.17835926822E-03 +2.39285621494E-03 +1.24744034847E-03 +2.45519141257E-03 -8.92924953655E-02 -5.30759128040E-01
4.26000000000E+09 -1.51228045402E-01 -3.87636139624E-01 +1.16072591584E-03 +2.42357779608E-03 +1.20560727317E-03 +2.49776142575E-03 -1.09932704971E-01 -5.17809719654E-01
4.26500000000E+09 -1.72339814686E-01 -3.76767795549E-01 +1.51422210261E-03 +2.67534726359E-03 +1.63287449384E-03 +2.75549848964E-03 -1.30482539401E-01 -5.05220028781E-01
4.27000000000E+09 -1.91663034204E-01 -3.65386068345E-01 +2.18422137349E-03 +2.54438449257E-03 +2.25125186939E-03 +2.60464125923E-03 -1.51455631914E-01 -4.90366904592E-01
4.27500000000E+09 -2.08190169706E-01 -3.53907586731E-01 +2.74070895564E-03 +2.20980556730E-03 +2.91697066341E-03 +2.21015614567E-03 -1.71467548504E-01 -4.75371896336E-01
4.28000000000E+09 -2.22255503098E-01 -3.42079394518E-01 +3.05274636503E-03 +1.48420135062E-03 +3.19488765879E-03 +1.37896951666E-03 -1.91705155457E-01 -4.59222123979E-01
4.28500000000E+09 -2.35310825241E-01 -3.29187627185E-01 +2.80093349869E-03 +8.86434484471E-04 +2.87708386663E-03 +8.24834427019E-04 -2.11269160303E-01 -4.43155401984E-01
4.29000000000E+09 -2.45885176547E-01 -3.13481462818E-01 +2.56021602323E-03 +7.36216704104E-04 +2.62602914068E-03 +7.10183377717E-04 -2.29757130088E-01 -4.26610817606E-01
4.29500000000E+09 -2.56606242171E-01 -2.96849363867E-01 +2.25690034190E-03 +1.13474720282E-03 +2.22375627902E-03 +1.10299768927E-03 -2.48713130479E-01 -4.09354795078E-01
4.30000000000E+09 -2.67904000814E-01 -2.78402166106E-01 +3.22675994001E-03 +1.16286325432E-03 +3.21060133223E-03 +1.15636724179E-03 -2.65533983119E-01 -3.89999962407E-01
4.30500000000E+09 -2.79970838558E-01 -2.58190308464E-01 +3.43131811996E-03 +5.24202522954E-04 +3.49452142388E-03 +5.06552991494E-04 -2.81378858337E-01 -3.70734625519E-01
4.31000000000E+09 -2.93409895752E-01 -2.38159992924E-01 +3.77311903472E-03 +2.29157384322E-04 +3.73740112664E-03 +1.96711377685E-04 -2.96968598812E-01 -3.50345265770E-01
4.31500000000E+09 -3.07861722279E-01 -2.17705670577E-01 +3.97871953999E-03 -7.25511510404E-04 +3.95750695378E-03 -7.42405204351E-04 -3.11819890918E-01 -3.29409982493E-01
4.32000000000E+09 -3.21508724215E-01 -1.98321732032E-01 +3.29400759620E-03 -1.41719280498E-03 +3.29024296960E-03 -1.37705071662E-03 -3.24899718747E-01 -3.07514561926E-01
4.32500000000E+09 -3.34796942888E-01 -1.80443434253E-01 +2.89908220734E-03 -1.32211234398E-03 +2.92052688792E-03 -1.30428657780E-03 -3.37760200955E-01 -2.86908935273E-01
4.33000000000E+09 -3.45575898902E-01 -1.63447678513E-01 +3.10337209964E-03 -1.13849311693E-03 +3.17165249929E-03 -1.13157820745E-03 -3.50950257572E-01 -2.64817981062E-01
4.33500000000E+09 -3.53897747087E-01 -1.47295619761E-01 +3.27841268068E-03 -1.55441227763E-03 +3.31600822034E-03 -1.56220250837E-03 -3.62884174430E-01 -2.41087613100E-01
4.34000000000E+09 -3.60262842035E-01 -1.31558648258E-01 +3.64151676157E-03 -1.96106494615E-03 +3.70094120565E-03 -1.96771335962E-03 -3.73920187662E-01 -2.17654226998E-01
4.34500000000E+09 -3.64520180219E-01 -1.14294131558E-01 +3.56379801726E-03 -2.98537575253E-03 +3.61248992696E-03 -3.00557061561E-03 -3.84812549786E-01 -1.91692238422E-01
4.35000000000E+09 -3.66996064944E-01 -9.52781477445E-02 +2.76764486231E-03 -3.71761621902E-03 +2.80656578309E-03 -3.76060813181E-03 -3.92343260772E-01 -1.66341584155E-01
4.35500000000E+09 -3.68919619026E-01 -7.45911402914E-02 +2.38436299947E-03 -4.05462495859E-03 +2.38968831452E-03 -4.15236670153E-03 -4.00321985821E-01 -1.42637658771E-01
4.36000000000E+09 -3.71300430477E-01 -5.23618392524E-02 +1.51316903683E-03 -4.42229774165E-03 +1.55185816703E-03 -4.55491740208E-03 -4.06835677342E-01 -1.18275096433E-01
4.36500000000E+09 -3.74850987496E-01 -2.85890979799E-02 +8.08415224072E-04 -4.30528409000E-03 +7.73925412445E-04 -4.43604072714E-03 -4.12450721969E-01 -9.44994064317E-02
4.37000000000E+09 -3.79521348998E-01 -5.45957456225E-03 +1.91593980942E-04 -4.31323237158E-03 +9.42455652169E-05 -4.40040787740E-03 -4.16558585687E-01 -6.95241313583E-02
4.37500000000E+09 -3.85529767267E-01 +1.81962162371E-02 -2.80772385709E-04 -3.77777102130E-03 -3.91636225116E-04 -3.84318016031E-03 -4.19657947803E-01 -4.43591115606E-02
4.38000000000E+09 -3.90921561898E-01 +3.99160816850E-02 -1.62218798982E-04 -3.89335931598E-03 -2.55601213755E-04 -3.90442993945E-03 -4.21723117391E-01 -1.90367656647E-02
4.38500000000E+09 -3.95769510042E-01 +5.89394990622E-02 -2.81833033142E-04 -4.03756186314E-03 -4.42304546658E-04 -4.03173590846E-03 -4.23013968893E-01 +6.47513910871E-03
4.39000000000E+09 -3.99051356555E-01 +7.57213546451E-02 -9.55023616280E-04 -4.60182857721E-03 -1.06157185188E-03 -4.61391408047E-03 -4.23329488394E-01 +3.16037615046E-02
4.39500000000E+09 -4.00745345098E-01 +9.07804094707E-02 -2.28914567396E-03 -4.44952928057E-03 -2.34709174919E-03 -4.38553069714E-03 -4.23023489817E-01 +5.58219172732E-02
4.40000000000E+09 -4.00004001516E-01 +1.05251013917E-01 -2.61950341710E-03 -3.59816412236E-03 -2.65599534384E-03 -3.52535540775E-03 -4.21461983567E-01 +8.03393755979E-02
4.40500000000E+09 -3.97609139621E-01 +1.21517275775E-01 -2.97367426171E-03 -3.14839636712E-03 -3.04821463642E-03 -3.08456615688E-03 -4.18347913169E-01 +1.04043585151E-01
4.41000000000E+09 -3.92090511738E-01 +1.39073827667E-01 -3.03640139243E-03 -2.76525753505E-03 -3.09126964623E-03 -2.66440494078E-03 -4.14701345039E-01 +1.27430065029E-01
4.41500000000E+09 -3.85795119887E-01 +1.58177278898E-01 -3.35035145843E-03 -2.25165079789E-03 -3.40185901465E-03 -2.20475523992E-03 -4.09584232112E-01 +1.51470476578E-01
4.42000000000E+09 -3.79991295074E-01 +1.79258554483E-01 -3.13337188778E-03 -1.96595223033E-03 -3.19523640761E-03 -1.88580368042E-03 -4.04412173896E-01 +1.73590504153E-01
4.42500000000E+09 -3.74428525939E-01 +2.01507612196E-01 -3.48049325844E-03 -2.11785520874E-03 -3.49635872127E-03 -1.99067218721E-03 -3.98616613866E-01 +1.97056050683E-01
4.43000000000E+09 -3.70109797799E-01 +2.23438680422E-01 -3.56297438832E-03 -1.62088861997E-03 -3.53581898049E-03 -1.55980308318E-03 -3.92188119511E-01 +2.18676885857E-01
4.43500000000E+09 -3.67436383850E-01 +2.44766099793E-01 -4.25452089541E-03 -1.75159405943E-03 -4.21375910815E-03 -1.61833199848E-03 -3.85826422044E-01 +2.40278382834E-01
4.44000000000E+09 -3.65052657540E-01 +2.63838095085E-01 -4.61808657831E-03 -6.67983087282E-04 -4.63389572488E-03 -6.52797164425E-04 -3.77677973813E-01 +2.63131136104E-01
4.44500000000E+09 -3.63307459329E-01 +2.80502578690E-01 -4.41703211596E-03 -1.61744411143E-05 -4.34807091161E-03 +1.08267728040E-04 -3.68315042954E-01 +2.82718959622E-01
4.45000000000E+09 -3.60863904285E-01 +2.95009146427E-01 -4.57764615120E-03 +4.49408090381E-04 -4.53222081733E-03 +5.85354899037E-04 -3.58665384103E-01 +3.03143526696E-01
4.45500000000E+09 -3.56529746532E-01 +3.08097394729E-01 -4.34857909657E-03 +1.40985303958E-03 -4.21325186138E-03 +1.51736371750E-03 -3.47284336353E-01 +3.21737934440E-01
4.46000000000E+09 -3.50346889895E-01 +3.20481755286E-01 -3.60364666952E-03 +1.70915277615E-03 -3.50142209537E-03 +1.81275734419E-03 -3.37864081530E-01 +3.39081373617E-01
4.46500000000E+09 -3.40943217670E-01 +3.33829262113E-01 -3.19603288008E-03 +1.83822848291E-03 -3.13236971420E-03 +1.85749679386E-03 -3.26153590117E-01 +3.57815492604E-01
4.47000000000E+09 -3.29366210423E-01 +3.47824245409E-01 -2.96995522519E-03 +1.53140358449E-03 -2.86779798596E-03 +1.56655149204E-03 -3.14418815810E-01 +3.74813174070E-01
4.47500000000E+09 -3.16627821911E-01 +3.63467637565E-01 -3.81890120973E-03 +1.87329023155E-03 -3.75924419219E-03 +1.95225832205E-03 -3.02886775649E-01 +3.91132513798E-01
4.48000000000E+09 -3.03822887818E-01 +3.80487366563E-01 -3.32136711126E-03 +2.90130816294E-03 -3.21885272169E-03 +2.92407948204E-03 -2.90900397169E-01 +4.07868611516E-01
4.48500000000E+09 -2.91243474095E-01 +3.98799127393E-01 -2.51467540491E-03 +3.46869107382E-03 -2.42100233342E-03 +3.36440942509E-03 -2.78741998613E-01 +4.23717198952E-01
4.49000000000E+09 -2.80817327039E-01 +4.15879658206E-01 -2.13878117988E-03 +3.56564421486E-03 -2.06929440011E-03 +3.49920382566E-03 -2.65138610064E-01 +4.39478166712E-01
4.49500000000E+09 -2.72191333326E-01 +4.33772921624E-01 -1.35264458949E-03 +3.59544666759E-03 -1.32991419520E-03 +3.53994513269E-03 -2.51738625776E-01 +4.52982218003E-01
4.50000000000E+09 -2.64394651152E-01 +4.48661972808E-01 -9.32644546884E-04 +3.35164190551E-03 -9.39627554639E-04 +3.35312441870E-03 -2.38846267612E-01 +4.66330793436E-01
4.50500000000E+09 -2.58262381316E-01 +4.61245255482E-01 -7.38010928137E-04 +3.05770799375E-03 -7.47006340611E-04 +2.99551296573E-03 -2.25208721559E-01 +4.79111475144E-01
4.51000000000E+09 -2.51943427138E-01 +4.72128088455E-01 -8.93993263607E-04 +3.07908811648E-03 -8.36828034507E-04 +3.04935932579E-03 -2.12204957971E-01 +4.91400358372E-01
4.51500000000E+09 -2.43611361631E-01 +4.80944199028E-01 -6.97999920485E-04 +3.42479468714E-03 -6.55140852279E-04 +3.41331084788E-03 -1.98657270736E-01 +5.03256753801E-01
4.52000000000E+09 -2.33918772058E-01 +4.88156806297E-01 -5.21374215490E-04 +3.63091032307E-03 -5.03080609009E-04 +3.58768678078E-03 -1.85567534383E-01 +5.14586480507E-01
4.52500000000E+09 -2.22351267142E-01 +4.95573207463E-01 +1.45771507985E-04 +3.58528442591E-03 +1.95526572582E-04 +3.55837896402E-03 -1.72859536258E-01 +5.25509565332E-01
4.53000000000E+09 -2.08254613863E-01 +5.03798236394E-01 +3.26553233050E-04 +3.86931538284E-03 +4.04884444121E-04 +3.76952030012E-03 -1.58967287158E-01 +5.36487957096E-01
4.53500000000E+09 -1.92868323508E-01 +5.13036134227E-01 +1.10699988846E-03 +3.57074698092E-03 +1.21942512354E-03 +3.46447253361E-03 -1.44386404147E-01 +5.46630022961E-01
4.54000000000E+09 -1.76967955775E-01 +5.23548453018E-01 +1.35145085751E-03 +3.26631582782E-03 +1.44347633958E-03 +3.22939199878E-03 -1.29650953818E-01 +5.56582045152E-01
4.54500000000E+09 -1.61404846900E-01 +5.34191869059E-01 +1.27664204509E-03 +3.28198830390E-03 +1.37334300969E-03 +3.17024525046E-03 -1.14529523666E-01 +5.65337956225E-01
4.55000000000E+09 -1.48268106838E-01 +5.44371530581E-01 +2.21185898908E-03 +3.37442262144E-03 +2.21785923504E-03 +3.24442857256E-03 -1.00182988663E-01 +5.74277690869E-01
4.55500000000E+09 -1.37600807369E-01 +5.54853548082E-01 +2.49345500618E-03 +2.57738265146E-03 +2.48268450078E-03 +2.46379035562E-03 -8.62300629957E-02 +5.82897241916E-01
4.56000000000E+09 -1.28336704240E-01 +5.64644975413E-01 +2.34381762115E-03 +2.41491157190E-03 +2.31749258225E-03 +2.28804965872E-03 -7.16060666960E-02 +5.91453827445E-01
4.56500000000E+09 -1.20044703221E-01 +5.72704101274E-01 +2.78824220300E-03 +2.24796551176E-03 +2.75964432386E-03 +2.14788795898E-03 -5.73112380371E-02 +5.98917863019E-01
4.57000000000E+09 -1.11186931097E-01 +5.79840966082E-01 +2.77804560639E-03 +1.83691323250E-03 +2.72150032670E-03 +1.74468220397E-03 -4.26115911488E-02 +6.06338065697E-01
