# Hz S RI R 50
! CMT, C1220, 16058040, 17.2.0/1
! Date: 15/08/2018 12:06:25
! Data: Format (Calibration Info)
! Freq                      S11: Re/Im (F2)                       S21: Re/Im (F2)                       S12: Re/Im (F2)                       S22: Re/Im (F2)            
4.00000000000E+09 +6.65384687790E-01 -3.40043076707E-01 +1.60845863444E-03 -4.84697472696E-04 +1.66511532453E-03 -4.27391276022E-04 +7.77996121628E-01 -3.36954729313E-01
4.00500000000E+09 +6.57374805910E-01 -3.46045475089E-01 +1.45931320627E-03 -5.40643956943E-04 +1.52639135021E-03 -4.52588110057E-04 +7.69533227171E-01 -3.48682834278E-01
4.01000000000E+09 +6.48325909328E-01 -3.52332404145E-01 +1.33218178801E-03 -6.71436541572E-04 +1.36115573335E-03 -5.21852512248E-04 +7.60089142094E-01 -3.59982247991E-01
4.01500000000E+09 +6.37832059668E-01 -3.58979466239E-01 +1.33441409837E-03 -5.41942772210E-04 +1.44313287282E-03 -4.25808807118E-04 +7.50664989945E-01 -3.70522272155E-01
4.02000000000E+09 +6.26985473394E-01 -3.66320537270E-01 +1.56055605203E-03 -7.36546980636E-04 +1.74827420585E-03 -6.35189094029E-04 +7.40878897031E-01 -3.81181323743E-01
4.02500000000E+09 +6.15904488469E-01 -3.75341864371E-01 +1.51118081411E-03 -1.10670455813E-03 +1.72625174532E-03 -1.10140334516E-03 +7.30711943767E-01 -3.91670857777E-01
4.03000000000E+09 +6.03964747995E-01 -3.85832325138E-01 +1.26615785975E-03 -1.49765656997E-03 +1.40801386564E-03 -1.51008273108E-03 +7.19950093047E-01 -4.01753625475E-01
4.03500000000E+09 +5.92421618346E-01 -3.96200389253E-01 +8.11051071636E-04 -1.44675991405E-03 +9.73912811955E-04 -1.46109546667E-03 +7.09062446514E-01 -4.12381499707E-01
4.04000000000E+09 +5.81192359093E-01 -4.06914815689E-01 +7.80627084121E-04 -1.30998637713E-03 +9.00204315595E-04 -1.36002355156E-03 +6.98225731003E-01 -4.22992039225E-01
4.04500000000E+09 +5.69903853566E-01 -4.17163131552E-01 +6.23172420310E-04 -1.19405558105E-03 +7.15755428809E-04 -1.26589808235E-03 +6.86953379511E-01 -4.33615633826E-01
4.05000000000E+09 +5.58727113822E-01 -4.25619856325E-01 +9.46428023195E-04 -1.21536702032E-03 +1.08566641891E-03 -1.31327538404E-03 +6.75486452998E-01 -4.43628682437E-01
4.05500000000E+09 +5.47367472474E-01 -4.32546479252E-01 +9.53163427256E-04 -1.57795840584E-03 +1.00228966600E-03 -1.71216921059E-03 +6.63798474733E-01 -4.53315431868E-01
4.06000000000E+09 +5.35272321424E-01 -4.37959237032E-01 +7.45324658468E-04 -1.77851240625E-03 +7.16440175640E-04 -1.92130003330E-03 +6.51379532996E-01 -4.63149507848E-01
4.06500000000E+09 +5.22599637696E-01 -4.42034481964E-01 +3.97216249229E-04 -1.75683707516E-03 +4.32692897593E-04 -1.84785334190E-03 +6.38362111572E-01 -4.72371430562E-01
4.07000000000E+09 +5.09086505403E-01 -4.46028416153E-01 +4.67151191141E-04 -1.83015985708E-03 +4.03413288856E-04 -1.95464872025E-03 +6.24423136363E-01 -4.82011188685E-01
4.07500000000E+09 +4.94360619177E-01 -4.50816887398E-01 +1.59983998950E-04 -2.12455990937E-03 +1.51463782124E-04 -2.17757869303E-03 +6.10793161879E-01 -4.90697390095E-01
4.08000000000E+09 +4.78692965316E-01 -4.55888594816E-01 -1.74872199911E-04 -2.02600747974E-03 -1.45400161170E-04 -2.05745553301E-03 +5.97710880749E-01 -4.99861976285E-01
4.08500000000E+09 +4.62338511939E-01 -4.62158543627E-01 -3.76334773936E-04 -1.86192575831E-03 -3.82097181494E-04 -1.89578228622E-03 +5.83818399255E-01 -5.09308258023E-01
4.09000000000E+09 +4.46047466227E-01 -4.68929696292E-01 -3.69468414449E-04 -1.91408722836E-03 -4.04691366377E-04 -1.91687840057E-03 +5.69821797117E-01 -5.17132234591E-01
4.09500000000E+09 +4.30108850084E-01 -4.75962452838E-01 -3.84161094893E-04 -1.78387527675E-03 -4.07358642325E-04 -1.79881398057E-03 +5.55703113610E-01 -5.25581574862E-01
4.10000000000E+09 +4.13897366708E-01 -4.82924432428E-01 -3.03476300428E-04 -2.09255901607E-03 -3.09500667886E-04 -2.05922175117E-03 +5.40229003960E-01 -5.33939291526E-01
4.10500000000E+09 +3.98020962395E-01 -4.88164777860E-01 -6.14687327622E-04 -2.38243555333E-03 -6.41706188689E-04 -2.39810759872E-03 +5.23771030510E-01 -5.41620960951E-01
4.11000000000E+09 +3.82524323163E-01 -4.91457485371E-01 -1.21923328740E-03 -2.54123170474E-03 -1.13012265944E-03 -2.52422231607E-03 +5.06731182857E-01 -5.49359112906E-01
4.11500000000E+09 +3.67644621853E-01 -4.93082246496E-01 -1.83920835526E-03 -2.16673062994E-03 -1.74730306162E-03 -2.22836168006E-03 +4.89752501809E-01 -5.56359232024E-01
4.12000000000E+09 +3.52796656543E-01 -4.93415561546E-01 -1.90418414460E-03 -1.75034283350E-03 -1.87557072431E-03 -1.77911641562E-03 +4.72974609215E-01 -5.62965240849E-01
4.12500000000E+09 +3.37663915987E-01 -4.94165810649E-01 -1.98144304927E-03 -1.54874385188E-03 -1.92684486732E-03 -1.64109230023E-03 +4.56068229532E-01 -5.69243104207E-01
4.13000000000E+09 +3.19928291369E-01 -4.95744292019E-01 -2.05781711379E-03 -1.73246178803E-03 -1.99924520870E-03 -1.73773098923E-03 +4.39135339888E-01 -5.75171311935E-01
4.13500000000E+09 +3.00867451728E-01 -4.96643815022E-01 -2.49171937693E-03 -1.44718085101E-03 -2.40718939054E-03 -1.57632027592E-03 +4.20635046616E-01 -5.81239423289E-01
4.14000000000E+09 +2.81729846088E-01 -4.98879681417E-01 -2.67615859305E-03 -1.17277202787E-03 -2.61989028593E-03 -1.30405059627E-03 +4.01566568164E-01 -5.86238849473E-01
4.14500000000E+09 +2.62049262853E-01 -5.01978662946E-01 -2.92980779326E-03 -7.85333103154E-04 -2.96872065617E-03 -9.74284665211E-04 +3.82748543101E-01 -5.91625470410E-01
4.15000000000E+09 +2.42543546766E-01 -5.06169228657E-01 -2.80268088009E-03 -4.41620861179E-04 -2.86283967212E-03 -6.13890253712E-04 +3.62464194705E-01 -5.96536576215E-01
4.15500000000E+09 +2.22942780270E-01 -5.10035160363E-01 -2.88327965010E-03 -5.32891731783E-04 -2.91965984389E-03 -6.40157151837E-04 +3.43535759034E-01 -5.99522003998E-01
4.16000000000E+09 +2.04007614851E-01 -5.12954141083E-01 -3.40593819767E-03 -1.88540578435E-04 -3.47071840672E-03 -3.30647188354E-04 +3.24254581302E-01 -6.02643352753E-01
4.16500000000E+09 +1.86618837077E-01 -5.13315994138E-01 -3.43013981881E-03 +6.33574278505E-04 -3.54032698108E-03 +5.30184237323E-04 +3.03919835052E-01 -6.04481603423E-01
4.17000000000E+09 +1.70443915310E-01 -5.12545175237E-01 -3.19906923513E-03 +9.42242431626E-04 -3.36106141757E-03 +7.94549157233E-04 +2.84227674231E-01 -6.05294570334E-01
4.17500000000E+09 +1.54257384975E-01 -5.09242858806E-01 -3.10922770462E-03 +1.75576397701E-03 -3.32315955147E-03 +1.66807440930E-03 +2.63446045594E-01 -6.06071487064E-01
4.18000000000E+09 +1.38854858164E-01 -5.04987672447E-01 -1.98170259070E-03 +1.73606742041E-03 -2.15502143083E-03 +1.72036570772E-03 +2.43452101453E-01 -6.06737955272E-01
4.18500000000E+09 +1.22007299620E-01 -5.00252406704E-01 -2.24338001009E-03 +9.94534647706E-04 -2.37832085776E-03 +9.71436282745E-04 +2.21880337733E-01 -6.08267798362E-01
4.19000000000E+09 +1.03948122471E-01 -4.94861976895E-01 -2.73316789159E-03 +1.28890606970E-03 -2.86390414926E-03 +1.31015940899E-03 +1.99626047349E-01 -6.07262234291E-01
4.19500000000E+09 +8.50503790653E-02 -4.88901446577E-01 -2.86701344459E-03 +1.94255722307E-03 -2.97891791358E-03 +2.01403137046E-03 +1.78616535334E-01 -6.05539685684E-01
4.20000000000E+09 +6.60263303562E-02 -4.84517423979E-01 -2.67527590694E-03 +2.43608173814E-03 -2.87038106786E-03 +2.50047821013E-03 +1.56911814058E-01 -6.03701969603E-01
4.20500000000E+09 +4.62428520444E-02 -4.80936311452E-01 -2.37088693145E-03 +3.14528487092E-03 -2.51826581171E-03 +3.17662081332E-03 +1.34800436868E-01 -6.00572140240E-01
4.21000000000E+09 +2.69738780111E-02 -4.77126382571E-01 -1.67794804783E-03 +2.97025622440E-03 -1.79239288334E-03 +3.08057379649E-03 +1.12802095333E-01 -5.97505751749E-01
4.21500000000E+09 +8.22817927092E-03 -4.73297174187E-01 -1.72455628098E-03 +3.11784448439E-03 -1.83739665252E-03 +3.25261300755E-03 +8.98383124130E-02 -5.93372253931E-01
4.22000000000E+09 -9.42881744301E-03 -4.67898401287E-01 -1.68915106092E-03 +3.48684816498E-03 -1.68675531024E-03 +3.65135494115E-03 +6.85046742540E-02 -5.88401388056E-01
4.22500000000E+09 -2.55047301011E-02 -4.60114894411E-01 -1.11395733318E-03 +4.11593327467E-03 -1.01701333543E-03 +4.23883220587E-03 +4.66295750696E-02 -5.84092769291E-01
4.23000000000E+09 -3.93945547666E-02 -4.51865635252E-01 -3.75001043535E-04 +3.92423767206E-03 -3.31201739273E-04 +3.93985744322E-03 +2.40797265251E-02 -5.77956039493E-01
4.23500000000E+09 -5.45155519792E-02 -4.42561022501E-01 +3.75209775242E-05 +3.81664461596E-03 +7.51331776543E-05 +3.92008652112E-03 +2.39175944879E-03 -5.70401173019E-01
4.24000000000E+09 -7.09417646687E-02 -4.31669236140E-01 -1.09470984060E-04 +3.85362444574E-03 -1.03395923358E-04 +3.99856415854E-03 -2.04350892238E-02 -5.62045498371E-01
4.24500000000E+09 -8.83881405194E-02 -4.19394957461E-01 +5.75378741252E-04 +4.32340841902E-03 +6.98034430405E-04 +4.44044891827E-03 -4.23997465537E-02 -5.52189431021E-01
4.25000000000E+09 -1.07424918411E-01 -4.07182167478E-01 +1.09025151372E-03 +4.10947041297E-03 +1.24488298995E-03 +4.18805322070E-03 -6.43043342866E-02 -5.42583015388E-01
4.25500000000E+09 -1.27159799704E-01 -3.94487340249E-01 +1.68587940336E-03 +4.00600158554E-03 +1.79021736126E-03 +4.04077259951E-03 -8.70097193717E-02 -5.31125374246E-01
4.26000000000E+09 -1.46699882142E-01 -3.83825560133E-01 +1.84677048741E-03 +3.84170271861E-03 +1.95382660016E-03 +3.91134392051E-03 -1.07637676795E-01 -5.18241850938E-01
4.26500000000E+09 -1.67787350175E-01 -3.73788916484E-01 +2.37389361869E-03 +3.96218363827E-03 +2.47977998063E-03 +3.92663834033E-03 -1.28418219966E-01 -5.05495498575E-01
4.27000000000E+09 -1.87123444690E-01 -3.62470349490E-01 +3.08190190702E-03 +3.64838180853E-03 +3.14980214307E-03 +3.64655275358E-03 -1.49163823569E-01 -4.90486291684E-01
4.27500000000E+09 -2.03535356588E-01 -3.51269108570E-01 +3.55656823448E-03 +3.24596997493E-03 +3.60387529060E-03 +3.17783739280E-03 -1.69039521283E-01 -4.75449357450E-01
4.28000000000E+09 -2.17728656334E-01 -3.39799887902E-01 +4.08987370952E-03 +2.75083632038E-03 +4.12446474936E-03 +2.65210598047E-03 -1.88763789257E-01 -4.59720067763E-01
4.28500000000E+09 -2.30750113407E-01 -3.26952387250E-01 +4.06096600274E-03 +1.83206898395E-03 +4.06032382353E-03 +1.78616687176E-03 -2.08435925330E-01 -4.44354507179E-01
4.29000000000E+09 -2.41300281372E-01 -3.11615212234E-01 +3.79884011529E-03 +1.46995214375E-03 +3.84584340154E-03 +1.41351043934E-03 -2.27175616573E-01 -4.27932121671E-01
4.29500000000E+09 -2.52311705785E-01 -2.95480991582E-01 +3.58067351977E-03 +1.91204518287E-03 +3.54983000549E-03 +1.87740033690E-03 -2.46269475028E-01 -4.10759826100E-01
4.30000000000E+09 -2.63833747054E-01 -2.77122589483E-01 +4.65957889095E-03 +1.87803784076E-03 +4.61225452881E-03 +1.84466014407E-03 -2.63229199476E-01 -3.91782701506E-01
4.30500000000E+09 -2.75925583089E-01 -2.57201104194E-01 +5.16875027670E-03 +1.22506562715E-03 +5.20168990128E-03 +1.27234615624E-03 -2.79268963802E-01 -3.72557667272E-01
4.31000000000E+09 -2.89031479651E-01 -2.37235478348E-01 +5.98815475325E-03 +4.20522510166E-04 +6.05590028212E-03 +4.32586041481E-04 -2.94675557045E-01 -3.52836103153E-01
4.31500000000E+09 -3.03169587887E-01 -2.17540970518E-01 +5.83626674248E-03 -1.20971736489E-03 +5.93797776573E-03 -1.19019946527E-03 -3.10449455734E-01 -3.32473083351E-01
4.32000000000E+09 -3.16802711298E-01 -1.98928887374E-01 +4.93352558861E-03 -2.05320055547E-03 +4.94514190738E-03 -2.05830437178E-03 -3.24594059610E-01 -3.10219720113E-01
4.32500000000E+09 -3.30563039449E-01 -1.81828623703E-01 +4.14347354282E-03 -2.09033961497E-03 +4.19418206951E-03 -2.07103420951E-03 -3.37755893180E-01 -2.88856727496E-01
4.33000000000E+09 -3.42024152819E-01 -1.64542000850E-01 +4.32609772433E-03 -1.82939166599E-03 +4.32666808724E-03 -1.81841771508E-03 -3.50840694745E-01 -2.66622621056E-01
4.33500000000E+09 -3.50264777055E-01 -1.48044364852E-01 +4.41014782517E-03 -2.11299105337E-03 +4.45494520005E-03 -2.16336506794E-03 -3.62890709599E-01 -2.42787322745E-01
4.34000000000E+09 -3.56403723945E-01 -1.32381300644E-01 +4.87944102184E-03 -2.82363695860E-03 +4.95382980682E-03 -2.82316431425E-03 -3.74194124905E-01 -2.19075069805E-01
4.34500000000E+09 -3.60916334443E-01 -1.15773073448E-01 +4.53117872371E-03 -4.07137687217E-03 +4.59104170580E-03 -4.01397957162E-03 -3.84956665256E-01 -1.92600175372E-01
4.35000000000E+09 -3.63691431823E-01 -9.72335840657E-02 +3.71688635426E-03 -4.75086804240E-03 +3.80279983101E-03 -4.74193046759E-03 -3.92192383260E-01 -1.67203494650E-01
4.35500000000E+09 -3.66424390996E-01 -7.71652782218E-02 +3.12551403795E-03 -5.18976932077E-03 +3.24161304242E-03 -5.25063775861E-03 -4.00057014941E-01 -1.43197947195E-01
4.36000000000E+09 -3.69928582864E-01 -5.46847543326E-02 +2.21130379304E-03 -5.67192115922E-03 +2.31092028176E-03 -5.77092199165E-03 -4.05969212327E-01 -1.18931617423E-01
4.36500000000E+09 -3.73288386456E-01 -3.07832625194E-02 +1.24678320316E-03 -5.66467275253E-03 +1.27841050330E-03 -5.82480118100E-03 -4.11659853257E-01 -9.53294086878E-02
4.37000000000E+09 -3.78076680506E-01 -7.76226582454E-03 +5.42558172131E-04 -5.35329143998E-03 +5.01161806407E-04 -5.55508836103E-03 -4.15437895048E-01 -7.05237396186E-02
4.37500000000E+09 -3.83603356213E-01 +1.50794143299E-02 +1.33579769433E-04 -4.82361283940E-03 +6.03836618965E-05 -4.97854502351E-03 -4.18398395170E-01 -4.57828309232E-02
4.38000000000E+09 -3.89481153740E-01 +3.60177321563E-02 +2.96052730807E-04 -5.17557124772E-03 +2.03087803438E-04 -5.29786118909E-03 -4.20543316693E-01 -2.10549024972E-02
4.38500000000E+09 -3.95005850871E-01 +5.46623213457E-02 +7.38097330970E-06 -5.35047378642E-03 -1.17944085586E-04 -5.47898728215E-03 -4.22190701405E-01 +4.05919257826E-03
4.39000000000E+09 -3.99096896798E-01 +7.17070402935E-02 -8.22410145310E-04 -6.18226424951E-03 -9.89482560532E-04 -6.30231048346E-03 -4.23173439864E-01 +2.89928128463E-02
4.39500000000E+09 -4.01116499426E-01 +8.74557248856E-02 -2.35624806985E-03 -5.90673729605E-03 -2.57361079316E-03 -5.96070600065E-03 -4.23275343579E-01 +5.33970901684E-02
4.40000000000E+09 -4.00221495474E-01 +1.02553880078E-01 -2.98292938970E-03 -5.22412424473E-03 -3.13690884667E-03 -5.30809140650E-03 -4.21922280664E-01 +7.82074590687E-02
4.40500000000E+09 -3.97833659942E-01 +1.18442410518E-01 -3.94070594560E-03 -4.55445514139E-03 -4.15322912533E-03 -4.60455654364E-03 -4.18850488935E-01 +1.01987187353E-01
4.41000000000E+09 -3.92838016463E-01 +1.35862029049E-01 -3.69814251832E-03 -3.63886646569E-03 -3.96481983804E-03 -3.49597002535E-03 -4.15337560792E-01 +1.25067910538E-01
4.41500000000E+09 -3.87591205853E-01 +1.54783481709E-01 -3.90874479016E-03 -3.30457634123E-03 -4.09766764229E-03 -3.16545729224E-03 -4.10718656011E-01 +1.49232741409E-01
4.42000000000E+09 -3.82537041987E-01 +1.76009502270E-01 -4.07278565413E-03 -3.14479015544E-03 -4.20922541419E-03 -2.98508510699E-03 -4.05801519003E-01 +1.72150927963E-01
4.42500000000E+09 -3.77771273283E-01 +1.98240491696E-01 -4.42872545742E-03 -2.85860026913E-03 -4.48384236820E-03 -2.65954492056E-03 -3.99377652359E-01 +1.95735092613E-01
4.43000000000E+09 -3.74109406590E-01 +2.20465220359E-01 -4.55408950445E-03 -2.47183018052E-03 -4.53193711638E-03 -2.32125815274E-03 -3.93108036174E-01 +2.17020766691E-01
4.43500000000E+09 -3.71531528351E-01 +2.41658067219E-01 -5.45411718725E-03 -2.26724772772E-03 -5.44296462562E-03 -2.04347645780E-03 -3.86983720104E-01 +2.38751048042E-01
4.44000000000E+09 -3.69352550852E-01 +2.60925611249E-01 -5.58863094941E-03 -1.15978799557E-03 -5.61932855549E-03 -9.96397160196E-04 -3.78768137248E-01 +2.61778242673E-01
4.44500000000E+09 -3.67512959417E-01 +2.77611536944E-01 -5.34503840320E-03 -4.36583318219E-04 -5.21492182199E-03 -3.02841923573E-04 -3.69432969011E-01 +2.81588451669E-01
4.45000000000E+09 -3.64660539350E-01 +2.92153269865E-01 -5.59228519460E-03 +4.54928265228E-05 -5.47074793693E-03 +1.61142233361E-04 -3.59460216186E-01 +3.01691477533E-01
4.45500000000E+09 -3.60171359070E-01 +3.05124144515E-01 -5.28530721513E-03 +1.04424755548E-03 -5.16321846906E-03 +1.17524157083E-03 -3.48020951964E-01 +3.20033545521E-01
4.46000000000E+09 -3.54027650120E-01 +3.17482954675E-01 -4.63266899506E-03 +1.42289662700E-03 -4.45944023037E-03 +1.49861525378E-03 -3.39085003013E-01 +3.37454448579E-01
4.46500000000E+09 -3.45109109101E-01 +3.31107049974E-01 -4.36741078779E-03 +1.45644850852E-03 -4.23737783801E-03 +1.49174312194E-03 -3.27109199093E-01 +3.56316618761E-01
4.47000000000E+09 -3.33772424115E-01 +3.45867776863E-01 -4.19809152657E-03 +1.37728705663E-03 -4.03806598167E-03 +1.39052384876E-03 -3.15472556419E-01 +3.72962538474E-01
4.47500000000E+09 -3.21117288460E-01 +3.61990926925E-01 -5.29321732949E-03 +1.82302042299E-03 -5.14415701368E-03 +1.88471075444E-03 -3.04080915546E-01 +3.89104043978E-01
4.48000000000E+09 -3.08390368117E-01 +3.79278739819E-01 -4.70385402053E-03 +3.12931997450E-03 -4.51981474282E-03 +3.16903704735E-03 -2.92579914085E-01 +4.05436166401E-01
4.48500000000E+09 -2.96290564777E-01 +3.97336024305E-01 -4.00885624509E-03 +3.85238245739E-03 -3.85424497219E-03 +3.81973398896E-03 -2.80846624804E-01 +4.21432576426E-01
4.49000000000E+09 -2.86390235337E-01 +4.14273831784E-01 -3.32186761829E-03 +4.32541384217E-03 -3.15423497206E-03 +4.20869041568E-03 -2.67581096615E-01 +4.37309972684E-01
4.49500000000E+09 -2.78614129669E-01 +4.32086755635E-01 -2.32293478203E-03 +4.34286696779E-03 -2.28623310082E-03 +4.17968251345E-03 -2.54444042327E-01 +4.51132196044E-01
4.50000000000E+09 -2.71550397737E-01 +4.47063310058E-01 -1.97228350291E-03 +4.07653500485E-03 -1.96669271122E-03 +3.93186560951E-03 -2.41663545235E-01 +4.64945241459E-01
4.50500000000E+09 -2.65647243227E-01 +4.60380367190E-01 -1.87197816210E-03 +4.04602958612E-03 -1.85360871666E-03 +3.95875371739E-03 -2.27941980471E-01 +4.77708327474E-01
4.51000000000E+09 -2.58636694673E-01 +4.71249201288E-01 -1.58495199252E-03 +4.27361193656E-03 -1.55247917238E-03 +4.20431790816E-03 -2.15433550139E-01 +4.90121260599E-01
4.51500000000E+09 -2.50222915602E-01 +4.79857353228E-01 -1.11663476937E-03 +4.65181859910E-03 -1.12438264122E-03 +4.59544267341E-03 -2.02086296129E-01 +5.02553319257E-01
4.52000000000E+09 -2.40253270771E-01 +4.87047903434E-01 -7.18491097506E-04 +4.51969918874E-03 -6.91028451821E-04 +4.50936020532E-03 -1.88873329137E-01 +5.14424122451E-01
4.52500000000E+09 -2.28358838757E-01 +4.94907185766E-01 -1.71344573359E-04 +4.53297696972E-03 -9.88496501920E-05 +4.40687284812E-03 -1.75536924531E-01 +5.25598455513E-01
4.53000000000E+09 -2.14023835260E-01 +5.03297390700E-01 +5.88924788802E-05 +4.71399331813E-03 +8.27608559971E-05 +4.69497865421E-03 -1.61400866211E-01 +5.36371437505E-01
4.53500000000E+09 -1.98506664982E-01 +5.13073751631E-01 +8.19082206077E-04 +4.46822716903E-03 +9.04444325230E-04 +4.43807368199E-03 -1.46909153232E-01 +5.46419457036E-01
4.54000000000E+09 -1.82661283042E-01 +5.24089733595E-01 +1.28673469290E-03 +4.37016686113E-03 +1.31243547247E-03 +4.30208380432E-03 -1.32022894564E-01 +5.56516480347E-01
4.54500000000E+09 -1.67081822684E-01 +5.35373522358E-01 +1.28457581533E-03 +4.22029222347E-03 +1.36516742786E-03 +4.09260224816E-03 -1.16645697262E-01 +5.65286670170E-01
4.55000000000E+09 -1.54036855241E-01 +5.46076942277E-01 +2.19782983550E-03 +4.20174533034E-03 +2.19106006451E-03 +4.10782846994E-03 -1.02151353105E-01 +5.73939172783E-01
4.55500000000E+09 -1.43316409210E-01 +5.57184329739E-01 +2.42632582036E-03 +3.66206791425E-03 +2.46550611469E-03 +3.56571860386E-03 -8.85371325000E-02 +5.82040256436E-01
4.56000000000E+09 -1.33911049581E-01 +5.67157423917E-01 +2.52181533664E-03 +3.40096969665E-03 +2.59596314202E-03 +3.33668998339E-03 -7.44128447997E-02 +5.90821377301E-01
4.56500000000E+09 -1.25493981840E-01 +5.75027279244E-01 +2.94872749838E-03 +3.22791348145E-03 +3.00874693350E-03 +3.08183693136E-03 -6.02357964761E-02 +5.98697020021E-01
4.57000000000E+09 -1.17023854615E-01 +5.81637224202E-01 +3.03342751675E-03 +2.78721637843E-03 +3.11489306577E-03 +2.68948664194E-03 -4.53032324439E-02 +6.05997832163E-01
