# Hz S RI R 50
! CMT, C1220, 16058040, 17.2.0/1
! Date: 15/08/2018 12:01:32
! Data: Format (Calibration Info)
! Freq                      S11: Re/Im (F2)                       S21: Re/Im (F2)                       S12: Re/Im (F2)                       S22: Re/Im (F2)            
4.00000000000E+09 +6.68600653843E-01 -3.41361885142E-01 +7.29204950464E-04 -5.65817207098E-04 +7.64991665248E-04 -5.60543356728E-04 +7.76763411698E-01 -3.41129459604E-01
4.00500000000E+09 +6.60405685904E-01 -3.48044024385E-01 +6.29834550565E-04 -5.22959840987E-04 +6.59650946827E-04 -5.71528255906E-04 +7.68287379035E-01 -3.52796095757E-01
4.01000000000E+09 +6.51173799655E-01 -3.54519736727E-01 +5.00127215140E-04 -5.35116034433E-04 +5.43910769184E-04 -5.38581980289E-04 +7.58804402110E-01 -3.64170778765E-01
4.01500000000E+09 +6.40727402931E-01 -3.61182454832E-01 +6.22223349656E-04 -5.19823513160E-04 +6.17673780313E-04 -4.42723701813E-04 +7.49235013756E-01 -3.74506135902E-01
4.02000000000E+09 +6.30210042046E-01 -3.68336700146E-01 +6.37978980290E-04 -6.88477516852E-04 +7.13293729680E-04 -6.74123873432E-04 +7.39565644427E-01 -3.84884363114E-01
4.02500000000E+09 +6.19521919567E-01 -3.77402083831E-01 +6.19235992685E-04 -8.02946869591E-04 +6.66693420798E-04 -7.84025715095E-04 +7.29611597641E-01 -3.95360585650E-01
4.03000000000E+09 +6.08082861446E-01 -3.88037884491E-01 +4.23106328228E-04 -1.09021991440E-03 +4.65597624649E-04 -1.09273957794E-03 +7.19095201574E-01 -4.05595878146E-01
4.03500000000E+09 +5.96494397330E-01 -3.98893722470E-01 +4.27248660133E-05 -8.79813682470E-04 +6.15484623232E-05 -9.03998137093E-04 +7.08152952232E-01 -4.16124023590E-01
4.04000000000E+09 +5.85175546159E-01 -4.09854054013E-01 +2.06926105672E-04 -6.80350477111E-04 +2.33498110888E-04 -6.62376562168E-04 +6.97292579359E-01 -4.26876671617E-01
4.04500000000E+09 +5.73924243981E-01 -4.20162901511E-01 +1.52032329450E-04 -8.07815225716E-04 +1.55450518352E-04 -7.93083256647E-04 +6.86073534209E-01 -4.37842056591E-01
4.05000000000E+09 +5.62601649142E-01 -4.28954797876E-01 +2.15827882513E-04 -7.75924593355E-04 +2.69522415306E-04 -8.03413270956E-04 +6.74393432254E-01 -4.47904511599E-01
4.05500000000E+09 +5.50843319830E-01 -4.36148995854E-01 +2.25947523928E-04 -9.26754119501E-04 +2.50335612373E-04 -8.93637835216E-04 +6.62751297118E-01 -4.57748896393E-01
4.06000000000E+09 +5.38816497258E-01 -4.41727183220E-01 +1.13980224167E-04 -1.12693249021E-03 +1.24671473813E-04 -1.13485893734E-03 +6.50329419823E-01 -4.67432538282E-01
4.06500000000E+09 +5.26133796014E-01 -4.46545701559E-01 -1.80315344650E-04 -1.01614850604E-03 -1.47439289204E-04 -1.04344984655E-03 +6.37490382319E-01 -4.76752551892E-01
4.07000000000E+09 +5.12287245265E-01 -4.51050507817E-01 -2.08022539321E-04 -1.00872240922E-03 -2.08284737180E-04 -9.93714340852E-04 +6.23759638047E-01 -4.86545801584E-01
4.07500000000E+09 +4.97733152930E-01 -4.56300493991E-01 -3.60408223892E-04 -9.33419057127E-04 -2.97769428880E-04 -9.92811976695E-04 +6.09972667630E-01 -4.95758826019E-01
4.08000000000E+09 +4.81680192238E-01 -4.61905937247E-01 -3.33720032265E-04 -8.42828279785E-04 -3.17435396708E-04 -8.92749343797E-04 +5.96559171976E-01 -5.05181895999E-01
4.08500000000E+09 +4.65345110972E-01 -4.68282014689E-01 -4.19686168488E-04 -9.07559751819E-04 -3.42680669796E-04 -9.35719816259E-04 +5.82430883588E-01 -5.14699980492E-01
4.09000000000E+09 +4.48760299396E-01 -4.75252071617E-01 -4.19886375663E-04 -1.04020106183E-03 -3.80830173843E-04 -1.10652040289E-03 +5.68014126075E-01 -5.22803280560E-01
4.09500000000E+09 +4.32790505734E-01 -4.82178928732E-01 -6.70201474520E-04 -9.04425253194E-04 -6.52533571803E-04 -9.60950257868E-04 +5.53552273254E-01 -5.31067979798E-01
4.10000000000E+09 +4.16760494833E-01 -4.88970696794E-01 -6.05074896181E-04 -9.13396372669E-04 -6.10763336840E-04 -9.76703550742E-04 +5.37991227642E-01 -5.39138014849E-01
4.10500000000E+09 +4.01027207573E-01 -4.94657550374E-01 -6.46882278434E-04 -9.50927945127E-04 -6.50875576895E-04 -9.48731028878E-04 +5.21713555950E-01 -5.47069009530E-01
4.11000000000E+09 +3.84773685263E-01 -4.98521814735E-01 -8.19138005959E-04 -1.01220768902E-03 -8.46187322615E-04 -1.01770835825E-03 +5.04300296167E-01 -5.54966979815E-01
4.11500000000E+09 +3.69141296039E-01 -5.00343811582E-01 -1.11977055478E-03 -8.75911222149E-04 -1.12484354628E-03 -9.46146666630E-04 +4.86847717541E-01 -5.61955139546E-01
4.12000000000E+09 +3.53253776664E-01 -5.00898153602E-01 -1.19104849459E-03 -7.74400623406E-04 -1.26228553193E-03 -7.89422771819E-04 +4.69762911891E-01 -5.68422935355E-01
4.12500000000E+09 +3.37020826521E-01 -5.01384496585E-01 -1.33770157381E-03 -6.04719001010E-04 -1.41318518648E-03 -6.88880239714E-04 +4.52488741902E-01 -5.74562786728E-01
4.13000000000E+09 +3.19129285547E-01 -5.02573990563E-01 -1.42405472559E-03 -5.45629424334E-04 -1.46594321957E-03 -5.88117822953E-04 +4.35136638931E-01 -5.80404826280E-01
4.13500000000E+09 +2.99936300506E-01 -5.03766138186E-01 -1.50057804586E-03 -2.49378807186E-04 -1.60940146740E-03 -2.69359835562E-04 +4.16430271813E-01 -5.86111995336E-01
4.14000000000E+09 +2.80619757782E-01 -5.06100715011E-01 -1.40817191736E-03 -6.37762040037E-05 -1.48632650105E-03 -1.06708665743E-04 +3.97219815300E-01 -5.90863808484E-01
4.14500000000E+09 +2.60802210729E-01 -5.09727436569E-01 -1.34295242710E-03 -8.85647991203E-06 -1.43790698321E-03 -6.38983703659E-05 +3.78409009594E-01 -5.95888664045E-01
4.15000000000E+09 +2.40670353869E-01 -5.14075549566E-01 -1.49133894793E-03 -3.53974231254E-05 -1.52480592604E-03 -1.44204134227E-05 +3.58361723599E-01 -6.00895098618E-01
4.15500000000E+09 +2.21066413300E-01 -5.17533367096E-01 -1.43092569550E-03 +5.23407154149E-06 -1.47541299560E-03 -1.61176862646E-05 +3.38925663493E-01 -6.04133883445E-01
4.16000000000E+09 +2.02360097160E-01 -5.20193204299E-01 -1.70838630552E-03 +1.11737544545E-04 -1.74614944009E-03 +1.43193512639E-04 +3.19229156094E-01 -6.06989612927E-01
4.16500000000E+09 +1.84710684616E-01 -5.20370778682E-01 -1.96460032199E-03 +6.01830014615E-04 -1.95157595082E-03 +5.67618442916E-04 +2.98569043620E-01 -6.08496530878E-01
4.17000000000E+09 +1.68602218088E-01 -5.18883178088E-01 -1.69742231899E-03 +9.00384523462E-04 -1.71891586079E-03 +8.75663055144E-04 +2.78722583279E-01 -6.09027898166E-01
4.17500000000E+09 +1.52560166706E-01 -5.15583222859E-01 -1.57998622617E-03 +1.42462839392E-03 -1.66963922337E-03 +1.37466851925E-03 +2.57637170720E-01 -6.09670921782E-01
4.18000000000E+09 +1.36720501069E-01 -5.11351598259E-01 -8.05118530264E-04 +1.26752405699E-03 -7.87435935298E-04 +1.35143293463E-03 +2.37118393163E-01 -6.09967694968E-01
4.18500000000E+09 +1.19126421410E-01 -5.06393695599E-01 -8.21399593993E-04 +7.26377842728E-04 -8.76581701807E-04 +7.19747647975E-04 +2.15546183229E-01 -6.10807342232E-01
4.19000000000E+09 +1.00460158878E-01 -5.00602104621E-01 -1.26735768813E-03 +6.71057052473E-04 -1.33311163162E-03 +6.68233972435E-04 +1.93373826948E-01 -6.09493299290E-01
4.19500000000E+09 +8.08099685665E-02 -4.94818882504E-01 -1.68370674627E-03 +1.13277385241E-03 -1.70536476161E-03 +1.09436590771E-03 +1.72188028396E-01 -6.07503431679E-01
4.20000000000E+09 +6.11107504888E-02 -4.89741051296E-01 -1.63302624319E-03 +1.77714230934E-03 -1.72913594617E-03 +1.77741912262E-03 +1.50363453186E-01 -6.05314819810E-01
4.20500000000E+09 +4.16350868692E-02 -4.85828322979E-01 -1.19084567021E-03 +2.40523075955E-03 -1.27094715770E-03 +2.47985732695E-03 +1.27850393004E-01 -6.01838073144E-01
4.21000000000E+09 +2.22850814542E-02 -4.82515043146E-01 -4.51299130751E-04 +2.11711733049E-03 -4.89276021643E-04 +2.15323717547E-03 +1.05489353514E-01 -5.97674317120E-01
4.21500000000E+09 +3.30967321256E-03 -4.78684057816E-01 -4.62858848422E-04 +2.01442739989E-03 -4.59531712666E-04 +2.06406328907E-03 +8.29178822383E-02 -5.93005770500E-01
4.22000000000E+09 -1.43247038453E-02 -4.73525666331E-01 -4.76094910735E-04 +2.28990468484E-03 -4.98504329505E-04 +2.35332872424E-03 +6.15442819823E-02 -5.87417740591E-01
4.22500000000E+09 -3.10886162280E-02 -4.65923886234E-01 +1.16302478355E-05 +2.54628463724E-03 +7.65088523604E-06 +2.63664971405E-03 +4.04177823995E-02 -5.82309482400E-01
4.23000000000E+09 -4.57155793743E-02 -4.56551970649E-01 +2.86324797988E-04 +2.21340467300E-03 +3.56995039550E-04 +2.35834126417E-03 +1.85573206266E-02 -5.76292551966E-01
4.23500000000E+09 -6.05351316898E-02 -4.46085547339E-01 +6.10070873822E-04 +2.25013662045E-03 +6.31091236310E-04 +2.34558827010E-03 -3.14562602827E-03 -5.68332178542E-01
4.24000000000E+09 -7.67642763073E-02 -4.34397232433E-01 +4.96106539022E-04 +2.16109401036E-03 +4.75753410679E-04 +2.21682040034E-03 -2.54803356644E-02 -5.59762168207E-01
4.24500000000E+09 -9.39611637091E-02 -4.21547211249E-01 +8.34653560490E-04 +2.49369013431E-03 +9.05314372477E-04 +2.59872474468E-03 -4.73662138526E-02 -5.49534498806E-01
4.25000000000E+09 -1.12921843222E-01 -4.08916231359E-01 +1.31869419290E-03 +2.27195259468E-03 +1.35585694515E-03 +2.34709775541E-03 -6.88503312318E-02 -5.39375640038E-01
4.25500000000E+09 -1.33135450665E-01 -3.96258595709E-01 +1.81048995829E-03 +2.11593625377E-03 +1.85515018322E-03 +2.11559978870E-03 -9.09906050127E-02 -5.27727145352E-01
4.26000000000E+09 -1.53238665108E-01 -3.84432631601E-01 +1.74334569783E-03 +1.72866228893E-03 +1.83366942923E-03 +1.77024848140E-03 -1.11279363824E-01 -5.14728205697E-01
4.26500000000E+09 -1.73936697724E-01 -3.73577424776E-01 +1.87481346817E-03 +1.60006695951E-03 +1.96194828841E-03 +1.65571191792E-03 -1.31279267044E-01 -5.01955485940E-01
4.27000000000E+09 -1.92784316425E-01 -3.61902266530E-01 +1.92994722563E-03 +1.70366810248E-03 +1.97575600660E-03 +1.73266896796E-03 -1.51673940952E-01 -4.87252473529E-01
4.27500000000E+09 -2.08911205864E-01 -3.50503498157E-01 +2.51385964822E-03 +1.41170389449E-03 +2.55629073769E-03 +1.44150654734E-03 -1.71396099319E-01 -4.72360601333E-01
4.28000000000E+09 -2.22328404989E-01 -3.38589062678E-01 +2.65131947551E-03 +1.07090841231E-03 +2.76351296782E-03 +1.03292513568E-03 -1.91424953989E-01 -4.56558236388E-01
4.28500000000E+09 -2.34876955605E-01 -3.25453610887E-01 +2.57978105464E-03 +5.63391899191E-04 +2.67426843752E-03 +5.01732682847E-04 -2.10683661046E-01 -4.40398167452E-01
4.29000000000E+09 -2.45234729781E-01 -3.09830057091E-01 +2.55932477232E-03 +3.70965234087E-04 +2.63334549328E-03 +2.74185721875E-04 -2.28603029477E-01 -4.24101575873E-01
4.29500000000E+09 -2.55813242809E-01 -2.92749748912E-01 +2.15973833405E-03 +5.24358245243E-04 +2.16919627996E-03 +4.33593005025E-04 -2.47552559986E-01 -4.07290802187E-01
4.30000000000E+09 -2.66680829157E-01 -2.73687132247E-01 +3.01713763283E-03 +5.01320689144E-04 +2.98874716457E-03 +4.50636801106E-04 -2.64324812507E-01 -3.87931093935E-01
4.30500000000E+09 -2.78377488144E-01 -2.53389639988E-01 +3.09031977875E-03 -2.43382857488E-04 +3.12606039621E-03 -2.37691653397E-04 -2.79732592279E-01 -3.68596334748E-01
4.31000000000E+09 -2.91608914798E-01 -2.32922984729E-01 +3.32245060874E-03 -3.74058583301E-04 +3.38583828228E-03 -3.38876526535E-04 -2.94944073014E-01 -3.48604413933E-01
4.31500000000E+09 -3.05305176661E-01 -2.12509793481E-01 +3.34688875978E-03 -1.34115243336E-03 +3.35661436892E-03 -1.40210547043E-03 -3.09382901122E-01 -3.28114679237E-01
4.32000000000E+09 -3.18558065067E-01 -1.93667374199E-01 +2.73076712228E-03 -1.75900980590E-03 +2.75072238027E-03 -1.84241078544E-03 -3.22748937299E-01 -3.07010493324E-01
4.32500000000E+09 -3.31728882274E-01 -1.76571392570E-01 +2.18154641337E-03 -1.74155903092E-03 +2.16451579958E-03 -1.76399066571E-03 -3.36006705788E-01 -2.86474938954E-01
4.33000000000E+09 -3.42849736816E-01 -1.60097220138E-01 +2.48101208056E-03 -1.55542133901E-03 +2.47573364833E-03 -1.45829658254E-03 -3.49268827440E-01 -2.64228494677E-01
4.33500000000E+09 -3.51335928035E-01 -1.44284636693E-01 +2.59995212128E-03 -2.06782562859E-03 +2.64484090320E-03 -2.09233991596E-03 -3.60971023111E-01 -2.40653654714E-01
4.34000000000E+09 -3.57433156186E-01 -1.28542585022E-01 +2.64359869897E-03 -2.48583623047E-03 +2.64224192582E-03 -2.50066000184E-03 -3.71979270427E-01 -2.17211914124E-01
4.34500000000E+09 -3.61346512818E-01 -1.11670624032E-01 +2.14377961266E-03 -3.40182641742E-03 +2.17876672252E-03 -3.40153245463E-03 -3.82418926547E-01 -1.91466379996E-01
4.35000000000E+09 -3.62859238099E-01 -9.26776399124E-02 +1.29473728871E-03 -3.45002583183E-03 +1.33758504648E-03 -3.50229168616E-03 -3.90062499780E-01 -1.66782061777E-01
4.35500000000E+09 -3.64157955946E-01 -7.29965645881E-02 +1.17400270643E-03 -3.49643624086E-03 +1.18081973900E-03 -3.54677366883E-03 -3.98033709009E-01 -1.43258558016E-01
4.36000000000E+09 -3.66945366603E-01 -5.15136883246E-02 +7.19300573031E-04 -3.70859544531E-03 +7.02490518986E-04 -3.77563548746E-03 -4.04587375920E-01 -1.19172900433E-01
4.36500000000E+09 -3.70445310885E-01 -2.73308839378E-02 +9.41204464721E-05 -3.91152822579E-03 +4.05413229342E-05 -3.96641587860E-03 -4.10102318741E-01 -9.58058479963E-02
4.37000000000E+09 -3.74888892323E-01 -4.01561158302E-03 -6.13181156498E-04 -3.70527325672E-03 -6.82880815851E-04 -3.74623596287E-03 -4.14630326200E-01 -7.15573340241E-02
4.37500000000E+09 -3.80217750876E-01 +1.92591256949E-02 -1.07587685116E-03 -3.10029789456E-03 -1.19761380745E-03 -3.12997237337E-03 -4.18318894678E-01 -4.67297531249E-02
4.38000000000E+09 -3.85828032169E-01 +4.07564976811E-02 -8.85633311985E-04 -3.03559384214E-03 -9.09381870745E-04 -3.15209466711E-03 -4.20645230278E-01 -2.15893620435E-02
4.38500000000E+09 -3.90687533650E-01 +5.93903284551E-02 -8.71295917729E-04 -2.94707970981E-03 -9.71766018849E-04 -2.99977277959E-03 -4.22731038867E-01 +3.71282876869E-03
4.39000000000E+09 -3.94158702422E-01 +7.58086010937E-02 -1.20998064390E-03 -3.59793007905E-03 -1.29961992734E-03 -3.64818154201E-03 -4.23565265057E-01 +2.93581946615E-02
4.39500000000E+09 -3.95869870119E-01 +9.03772950270E-02 -2.52277621924E-03 -3.48270195214E-03 -2.61873892846E-03 -3.43244107576E-03 -4.23410073244E-01 +5.35215595416E-02
4.40000000000E+09 -3.95569694642E-01 +1.04715448430E-01 -2.73795950933E-03 -2.63114950081E-03 -2.91565796214E-03 -2.55581923928E-03 -4.22504001143E-01 +7.85268475275E-02
4.40500000000E+09 -3.92977131771E-01 +1.20251701168E-01 -3.10645938417E-03 -2.18035698769E-03 -3.15842564229E-03 -2.11153437019E-03 -4.19202081158E-01 +1.02801178614E-01
4.41000000000E+09 -3.87689962031E-01 +1.37102495680E-01 -3.00603985684E-03 -1.72378851298E-03 -3.13541741829E-03 -1.64613982558E-03 -4.15575818258E-01 +1.25984450156E-01
4.41500000000E+09 -3.82020782000E-01 +1.55674556082E-01 -3.28703026983E-03 -1.29253223353E-03 -3.35882352971E-03 -1.17986955827E-03 -4.10895482011E-01 +1.50256183032E-01
4.42000000000E+09 -3.76313115306E-01 +1.76904379397E-01 -3.05480788360E-03 -9.66808639370E-04 -3.12162494218E-03 -8.42507922740E-04 -4.05301085826E-01 +1.72778588606E-01
4.42500000000E+09 -3.70060129521E-01 +1.99028050081E-01 -3.34332089483E-03 -7.17537927374E-04 -3.34607010439E-03 -6.28383710127E-04 -3.99807183357E-01 +1.95967300173E-01
4.43000000000E+09 -3.65741961700E-01 +2.20112303529E-01 -2.96258364980E-03 -4.43066077326E-04 -2.89973855714E-03 -2.93424791081E-04 -3.93557383829E-01 +2.18003762730E-01
4.43500000000E+09 -3.63338716900E-01 +2.40955815039E-01 -3.42638619459E-03 -5.80390718244E-04 -3.37500338371E-03 -5.22175479340E-04 -3.86961959293E-01 +2.39696468833E-01
4.44000000000E+09 -3.61632008719E-01 +2.59835074114E-01 -3.59869902956E-03 +8.41526957978E-05 -3.52804088843E-03 +1.19957465284E-04 -3.78890133906E-01 +2.62431789288E-01
4.44500000000E+09 -3.60398116979E-01 +2.76857190431E-01 -3.58699275096E-03 +6.09024316815E-04 -3.52290255469E-03 +6.75080601417E-04 -3.69873986590E-01 +2.82233393513E-01
4.45000000000E+09 -3.57910767333E-01 +2.91920455042E-01 -3.52507318731E-03 +1.17950385655E-03 -3.48971550026E-03 +1.21244175783E-03 -3.60367238314E-01 +3.02770028796E-01
4.45500000000E+09 -3.53248929159E-01 +3.05148139293E-01 -3.29980179009E-03 +1.89047805683E-03 -3.19942111614E-03 +1.94969714902E-03 -3.49346321455E-01 +3.21650303168E-01
4.46000000000E+09 -3.46565568962E-01 +3.16880033091E-01 -2.30362065870E-03 +2.11276371139E-03 -2.22421980492E-03 +2.06330065793E-03 -3.39730798904E-01 +3.39520114118E-01
4.46500000000E+09 -3.37725148205E-01 +3.29171612189E-01 -2.04268921165E-03 +1.81863699808E-03 -1.98946008303E-03 +1.83137919603E-03 -3.28149167756E-01 +3.58475561896E-01
4.47000000000E+09 -3.27370252863E-01 +3.42728467463E-01 -1.96560274832E-03 +1.46570182498E-03 -1.82592835410E-03 +1.44141196059E-03 -3.16065319121E-01 +3.75889057027E-01
4.47500000000E+09 -3.15675317429E-01 +3.58864145214E-01 -2.89822791354E-03 +1.76492320833E-03 -2.80782067768E-03 +1.76703743627E-03 -3.04209501038E-01 +3.92280620092E-01
4.48000000000E+09 -3.02641825392E-01 +3.76567248186E-01 -2.25714035618E-03 +2.80113881653E-03 -2.17917593942E-03 +2.80003883702E-03 -2.92211182303E-01 +4.09029591388E-01
4.48500000000E+09 -2.89759786004E-01 +3.94026874853E-01 -1.65507298752E-03 +3.10761065167E-03 -1.56323384063E-03 +3.07606670212E-03 -2.79920620392E-01 +4.25021737369E-01
4.49000000000E+09 -2.79759668244E-01 +4.10432875578E-01 -1.18865519860E-03 +3.28449104942E-03 -1.14215992102E-03 +3.18981356904E-03 -2.66639472167E-01 +4.41013418189E-01
4.49500000000E+09 -2.71818531763E-01 +4.28000913267E-01 -4.05112812100E-04 +3.21655325753E-03 -3.84134745077E-04 +3.13629490515E-03 -2.52858982889E-01 +4.54932278536E-01
4.50000000000E+09 -2.64596484999E-01 +4.42760880166E-01 -1.29343680157E-04 +2.78751843910E-03 -1.31027921058E-04 +2.74152088821E-03 -2.39876286092E-01 +4.68522298145E-01
4.50500000000E+09 -2.59111337789E-01 +4.55753805448E-01 +7.86200693495E-05 +2.53576435131E-03 +3.21421941665E-05 +2.55343484107E-03 -2.25923977627E-01 +4.81649889343E-01
4.51000000000E+09 -2.52656909512E-01 +4.66789222750E-01 -2.37729891280E-06 +2.38713282966E-03 +9.51810669455E-07 +2.39149429899E-03 -2.12323284595E-01 +4.94001526474E-01
4.51500000000E+09 -2.44411074276E-01 +4.75502231051E-01 +1.44119142578E-04 +2.44968085963E-03 +2.08245832692E-04 +2.45177923490E-03 -1.98674468009E-01 +5.05876568404E-01
4.52000000000E+09 -2.35147514967E-01 +4.82654594945E-01 +3.88056297928E-05 +2.45275701854E-03 +1.28523979685E-04 +2.44170295870E-03 -1.85092109891E-01 +5.17526190026E-01
4.52500000000E+09 -2.24141654948E-01 +4.90463352160E-01 +2.38444688780E-04 +2.63400355275E-03 +2.66774513141E-04 +2.60500541357E-03 -1.71561991686E-01 +5.28322634594E-01
4.53000000000E+09 -2.10566196936E-01 +4.99140473576E-01 +6.70718461489E-04 +3.04742950558E-03 +6.96016516611E-04 +3.01685506269E-03 -1.57492347604E-01 +5.38859021657E-01
4.53500000000E+09 -1.95198501827E-01 +5.08767033288E-01 +1.39605564305E-03 +2.58553173776E-03 +1.42607742933E-03 +2.51221573890E-03 -1.42875967297E-01 +5.48756058998E-01
4.54000000000E+09 -1.79344982343E-01 +5.19045422604E-01 +1.41919879303E-03 +2.30736341295E-03 +1.46632759559E-03 +2.18720053501E-03 -1.27937592686E-01 +5.58623907390E-01
4.54500000000E+09 -1.64452718083E-01 +5.29862001045E-01 +1.30849612613E-03 +2.18047087406E-03 +1.35587575935E-03 +2.08432557072E-03 -1.12787649855E-01 +5.67148342707E-01
4.55000000000E+09 -1.51709387577E-01 +5.40349861587E-01 +1.84000006903E-03 +2.22798868525E-03 +1.82191952803E-03 +2.10206057751E-03 -9.82652145208E-02 +5.75825353036E-01
4.55500000000E+09 -1.41528217817E-01 +5.51280367590E-01 +1.82770123033E-03 +1.76249842080E-03 +1.77962724011E-03 +1.66965417963E-03 -8.42643430120E-02 +5.84289882005E-01
4.56000000000E+09 -1.32259754007E-01 +5.61444553658E-01 +1.85498114018E-03 +1.95871825865E-03 +1.83818558759E-03 +1.87810938803E-03 -6.95768428492E-02 +5.92828499456E-01
4.56500000000E+09 -1.23622922398E-01 +5.69753163930E-01 +2.47471864372E-03 +1.75001948907E-03 +2.42096914303E-03 +1.64980214736E-03 -5.51825822486E-02 +6.00181250180E-01
4.57000000000E+09 -1.14571550636E-01 +5.76438400457E-01 +2.46989110078E-03 +1.33515397722E-03 +2.45418274054E-03 +1.22206698345E-03 -4.04266611759E-02 +6.07441279836E-01
