# Hz S RI R 50
! CMT, C1220, 16058040, 17.2.0/1
! Date: 15/08/2018 12:02:40
! Data: Format (Calibration Info)
! Freq                      S11: Re/Im (F2)                       S21: Re/Im (F2)                       S12: Re/Im (F2)                       S22: Re/Im (F2)            
4.00000000000E+09 +6.65955147169E-01 -3.41842221218E-01 +1.16496976866E-03 -7.82024145495E-04 +1.23716165064E-03 -7.43416770820E-04 +7.77298251989E-01 -3.40393123084E-01
4.00500000000E+09 +6.57713756454E-01 -3.48114758334E-01 +9.95603692920E-04 -7.15244066701E-04 +1.08572772681E-03 -7.38338941152E-04 +7.68732527544E-01 -3.52245267161E-01
4.01000000000E+09 +6.48851458405E-01 -3.54137177983E-01 +9.01614183577E-04 -8.91212255779E-04 +9.53096734477E-04 -8.57402429608E-04 +7.59089555261E-01 -3.63558402637E-01
4.01500000000E+09 +6.38634670193E-01 -3.60875307486E-01 +6.99024964509E-04 -7.54454484563E-04 +7.97058546825E-04 -7.04851473748E-04 +7.49476038962E-01 -3.73879492803E-01
4.02000000000E+09 +6.28060419409E-01 -3.68142806184E-01 +8.90925202334E-04 -8.15983160543E-04 +8.96579391675E-04 -7.76965652664E-04 +7.39708193164E-01 -3.84406629456E-01
4.02500000000E+09 +6.17022408208E-01 -3.77159536607E-01 +9.24032372069E-04 -9.81852776850E-04 +9.70359782414E-04 -9.67651712321E-04 +7.29628113330E-01 -3.94829919584E-01
4.03000000000E+09 +6.05278595457E-01 -3.87798634770E-01 +6.57409419270E-04 -1.31058267978E-03 +7.39842094672E-04 -1.40578632914E-03 +7.19066263739E-01 -4.05123680343E-01
4.03500000000E+09 +5.93544469627E-01 -3.98296569152E-01 +2.51447899251E-04 -1.19977053422E-03 +2.34082988769E-04 -1.26909493491E-03 +7.07764407713E-01 -4.15653485981E-01
4.04000000000E+09 +5.82257353321E-01 -4.09151994226E-01 +2.70422841327E-04 -9.41693219751E-04 +3.20949360205E-04 -1.02208688001E-03 +6.96810210418E-01 -4.26095171305E-01
4.04500000000E+09 +5.71035707691E-01 -4.19447953320E-01 +1.76666501782E-04 -9.31425912386E-04 +1.70091218148E-04 -9.80426970334E-04 +6.85633945676E-01 -4.36771158247E-01
4.05000000000E+09 +5.60122943928E-01 -4.28357121040E-01 +3.94169801553E-04 -8.29204663883E-04 +3.72166120000E-04 -8.57822150892E-04 +6.74155951861E-01 -4.46708789395E-01
4.05500000000E+09 +5.48390776738E-01 -4.35809513932E-01 +4.67860369267E-04 -1.06638253548E-03 +5.03722016025E-04 -1.05805339687E-03 +6.62440129672E-01 -4.56610580734E-01
4.06000000000E+09 +5.36170471611E-01 -4.41307734829E-01 +3.83776346674E-04 -1.21066410537E-03 +3.93222921083E-04 -1.25677781799E-03 +6.49891429738E-01 -4.66272314356E-01
4.06500000000E+09 +5.23621152190E-01 -4.45685524061E-01 +1.87317744866E-04 -1.24144264287E-03 +1.64617862001E-04 -1.26424372739E-03 +6.36994135677E-01 -4.75532294664E-01
4.07000000000E+09 +5.10231487705E-01 -4.49758348157E-01 +2.36491352630E-04 -1.38696244572E-03 +2.56417066652E-04 -1.39283014697E-03 +6.23107059115E-01 -4.85302595440E-01
4.07500000000E+09 +4.95889288763E-01 -4.54652581192E-01 -5.26233874627E-05 -1.59993891261E-03 -1.74558049006E-05 -1.64827819043E-03 +6.09175043016E-01 -4.94150467737E-01
4.08000000000E+09 +4.80406634674E-01 -4.60138158103E-01 -2.98424774606E-04 -1.47083327383E-03 -2.84450149273E-04 -1.46006196536E-03 +5.95976182656E-01 -5.03192316492E-01
4.08500000000E+09 +4.64016385606E-01 -4.66559824166E-01 -5.03458752707E-04 -1.38245921345E-03 -4.49646072697E-04 -1.34077397762E-03 +5.81989784711E-01 -5.12666814535E-01
4.09000000000E+09 +4.47324901745E-01 -4.73602685949E-01 -4.44279464225E-04 -1.25257279559E-03 -4.51368531876E-04 -1.25403995681E-03 +5.67860214370E-01 -5.20659137259E-01
4.09500000000E+09 +4.31049361321E-01 -4.80302206518E-01 -4.01683731234E-04 -1.28846963000E-03 -3.39127132878E-04 -1.28117728422E-03 +5.53567545197E-01 -5.29068735060E-01
4.10000000000E+09 +4.14753902000E-01 -4.87087943535E-01 -4.60831784556E-04 -1.50292813866E-03 -4.05145394576E-04 -1.59757210903E-03 +5.37736005723E-01 -5.37319124436E-01
4.10500000000E+09 +3.98846846490E-01 -4.92405155530E-01 -7.14996852971E-04 -1.63140403994E-03 -6.83625459492E-04 -1.68005737817E-03 +5.21190550234E-01 -5.45014133581E-01
4.11000000000E+09 +3.83097832174E-01 -4.96032853757E-01 -1.03021198360E-03 -1.68531526847E-03 -9.95668046793E-04 -1.75512567084E-03 +5.03907804692E-01 -5.52606651980E-01
4.11500000000E+09 +3.67716804440E-01 -4.97957032709E-01 -1.60657870275E-03 -1.48477658190E-03 -1.57098588456E-03 -1.52934859338E-03 +4.86575645777E-01 -5.59296043612E-01
4.12000000000E+09 +3.52317656610E-01 -4.98393581322E-01 -1.67359100394E-03 -9.51132136136E-04 -1.68246200633E-03 -1.06629038169E-03 +4.69447082359E-01 -5.65463727015E-01
4.12500000000E+09 +3.36662990044E-01 -4.99314016302E-01 -1.51223045814E-03 -6.69313956920E-04 -1.56074540472E-03 -8.04238270415E-04 +4.52761722690E-01 -5.71355665823E-01
4.13000000000E+09 +3.18806183896E-01 -5.00833312308E-01 -1.43803744150E-03 -9.11187120581E-04 -1.38934686732E-03 -9.96987684712E-04 +4.35873650290E-01 -5.77038793358E-01
4.13500000000E+09 +2.99808468178E-01 -5.02067989505E-01 -1.69020012919E-03 -8.76326648333E-04 -1.68438259409E-03 -9.24169432444E-04 +4.17525614102E-01 -5.82828582195E-01
4.14000000000E+09 +2.80534641633E-01 -5.04190669193E-01 -1.83408188871E-03 -7.14880402697E-04 -1.88469634054E-03 -8.01772372720E-04 +3.98587146780E-01 -5.87776256463E-01
4.14500000000E+09 +2.60917501755E-01 -5.07446443272E-01 -2.03965224931E-03 -5.60138131971E-04 -2.14863475453E-03 -6.21836037239E-04 +3.79874808892E-01 -5.92937485254E-01
4.15000000000E+09 +2.41174622804E-01 -5.11529271949E-01 -2.10347318035E-03 -2.66017752656E-04 -2.23439103794E-03 -3.28008507601E-04 +3.59895156458E-01 -5.97894253993E-01
4.15500000000E+09 +2.21841626918E-01 -5.15215292634E-01 -2.06537024854E-03 -2.58171792501E-04 -2.18640056871E-03 -2.47315462969E-04 +3.40763066567E-01 -6.00982657016E-01
4.16000000000E+09 +2.03185233272E-01 -5.17989133097E-01 -2.50424099295E-03 +2.57310292433E-05 -2.54081940662E-03 +1.29805107178E-05 +3.21567797123E-01 -6.04159046929E-01
4.16500000000E+09 +1.85899935331E-01 -5.18503725883E-01 -2.45239399175E-03 +5.98832834294E-04 -2.51729116637E-03 +5.93394458640E-04 +3.01226870343E-01 -6.05944051541E-01
4.17000000000E+09 +1.69347054084E-01 -5.17648595082E-01 -2.16365751837E-03 +7.60483780352E-04 -2.26579684854E-03 +7.91861281019E-04 +2.81648636071E-01 -6.06760053129E-01
4.17500000000E+09 +1.52892064051E-01 -5.14087925283E-01 -2.15052544530E-03 +1.27336746888E-03 -2.24834938247E-03 +1.29742294455E-03 +2.60668899623E-01 -6.07733164267E-01
4.18000000000E+09 +1.37168024738E-01 -5.09444139803E-01 -1.41153367574E-03 +1.32161718408E-03 -1.49250786352E-03 +1.34418419461E-03 +2.40118014312E-01 -6.08391868391E-01
4.18500000000E+09 +1.20533266586E-01 -5.04521447916E-01 -1.41831389252E-03 +6.43342464749E-04 -1.45336063850E-03 +7.02484886911E-04 +2.18249650003E-01 -6.09395310578E-01
4.19000000000E+09 +1.02085582869E-01 -4.99264439963E-01 -1.96840662217E-03 +7.95285113132E-04 -2.03737939868E-03 +8.08107853396E-04 +1.96077753615E-01 -6.08036841058E-01
4.19500000000E+09 +8.29975138837E-02 -4.93586009773E-01 -2.21273405024E-03 +1.46431356300E-03 -2.27676012721E-03 +1.52466044369E-03 +1.75093362843E-01 -6.05914667276E-01
4.20000000000E+09 +6.33846395425E-02 -4.89486051652E-01 -1.97759673200E-03 +1.80053190158E-03 -2.00740751612E-03 +1.82810378673E-03 +1.53672077084E-01 -6.03811829566E-01
4.20500000000E+09 +4.31195738759E-02 -4.85673827077E-01 -1.83014695561E-03 +2.29433954797E-03 -1.86786878516E-03 +2.34405438176E-03 +1.31506269310E-01 -6.00655180961E-01
4.21000000000E+09 +2.38632025737E-02 -4.81736407353E-01 -1.17417133119E-03 +2.22317113724E-03 -1.17699082019E-03 +2.22580737561E-03 +1.09379359544E-01 -5.97069862393E-01
4.21500000000E+09 +5.16557920333E-03 -4.78090783275E-01 -1.22193442216E-03 +2.08435715530E-03 -1.26943447923E-03 +2.07282490705E-03 +8.66303601678E-02 -5.92678562807E-01
4.22000000000E+09 -1.25158611643E-02 -4.72786804860E-01 -1.55076577181E-03 +2.48559529496E-03 -1.58308320924E-03 +2.52159369318E-03 +6.53904715397E-02 -5.87398495279E-01
4.22500000000E+09 -2.89077332195E-02 -4.65191645158E-01 -9.88195191079E-04 +3.12889759228E-03 -1.02704200283E-03 +3.14264790533E-03 +4.41842390945E-02 -5.82737506686E-01
4.23000000000E+09 -4.32175598483E-02 -4.56325840174E-01 -5.02175742880E-04 +2.89210421684E-03 -5.27505818851E-04 +2.89818473538E-03 +2.21428039793E-02 -5.76902785228E-01
4.23500000000E+09 -5.82997392340E-02 -4.46449038859E-01 -2.84091331382E-04 +3.04333020067E-03 -3.58717600030E-04 +3.06754563113E-03 +5.32779962147E-04 -5.69404345114E-01
4.24000000000E+09 -7.47351605114E-02 -4.35124044875E-01 -3.35887274231E-04 +3.10972146900E-03 -3.45732034664E-04 +3.20787350363E-03 -2.20219299815E-02 -5.61234901820E-01
4.24500000000E+09 -9.22791496930E-02 -4.22181157331E-01 +1.54667294071E-04 +3.50019573180E-03 +1.04414620273E-04 +3.61621810586E-03 -4.41184245425E-02 -5.51119630091E-01
4.25000000000E+09 -1.11331786728E-01 -4.09356549818E-01 +6.98009186566E-04 +3.60946969297E-03 +6.58833648996E-04 +3.71015655510E-03 -6.56264681415E-02 -5.41556772564E-01
4.25500000000E+09 -1.31019765482E-01 -3.96144352676E-01 +1.34652122636E-03 +3.56175349176E-03 +1.27446788654E-03 +3.69103082574E-03 -8.83969517467E-02 -5.30254050389E-01
4.26000000000E+09 -1.50502527077E-01 -3.84721038800E-01 +1.57013546171E-03 +3.43821990138E-03 +1.51866591927E-03 +3.62243393531E-03 -1.08694318798E-01 -5.17441807009E-01
4.26500000000E+09 -1.71131382978E-01 -3.74507460099E-01 +2.25779587984E-03 +3.45860699409E-03 +2.26463632612E-03 +3.60678930942E-03 -1.29195228044E-01 -5.04977468796E-01
4.27000000000E+09 -1.90267959380E-01 -3.63327137959E-01 +2.66428579101E-03 +3.08510420338E-03 +2.77015964726E-03 +3.21853032032E-03 -1.50124850331E-01 -4.90502269837E-01
4.27500000000E+09 -2.06999297596E-01 -3.52345263687E-01 +3.24292079311E-03 +2.64990594532E-03 +3.32078568357E-03 +2.79044574347E-03 -1.70432136970E-01 -4.75564212048E-01
4.28000000000E+09 -2.21241037208E-01 -3.40195582889E-01 +3.71165482193E-03 +2.12550333784E-03 +3.81266073910E-03 +2.20641686251E-03 -1.90577668262E-01 -4.59681550487E-01
4.28500000000E+09 -2.33701601949E-01 -3.27101871670E-01 +3.54411046084E-03 +1.05813438448E-03 +3.72105906536E-03 +1.11940875438E-03 -2.10463150745E-01 -4.43779155320E-01
4.29000000000E+09 -2.43818469281E-01 -3.11658498582E-01 +3.14500050276E-03 +8.45921166470E-04 +3.32209324357E-03 +9.08911915045E-04 -2.29041771098E-01 -4.27142742894E-01
4.29500000000E+09 -2.54510675616E-01 -2.95605769454E-01 +2.77073561433E-03 +1.25774144991E-03 +2.87840326636E-03 +1.30247735728E-03 -2.48144052968E-01 -4.09701978873E-01
4.30000000000E+09 -2.65883516796E-01 -2.77265555760E-01 +3.73337092886E-03 +1.33598402684E-03 +3.86410236733E-03 +1.34546668791E-03 -2.64726289063E-01 -3.90299786176E-01
4.30500000000E+09 -2.78297034814E-01 -2.57158506245E-01 +4.08963052207E-03 +6.20653135376E-04 +4.28432997893E-03 +5.93965618098E-04 -2.80362618417E-01 -3.71251679317E-01
4.31000000000E+09 -2.91594899865E-01 -2.36784189199E-01 +4.48117343334E-03 +2.38954070063E-04 +4.68011141595E-03 +1.26904580991E-04 -2.96061723715E-01 -3.51133324381E-01
4.31500000000E+09 -3.05619333554E-01 -2.16247265529E-01 +4.52653007990E-03 -9.78217744165E-04 +4.68761149878E-03 -1.10696852381E-03 -3.10879645458E-01 -3.30338406280E-01
4.32000000000E+09 -3.18735007568E-01 -1.97489446892E-01 +3.71453950689E-03 -1.69505545815E-03 +3.78315965191E-03 -1.89874704784E-03 -3.24457021352E-01 -3.08773802121E-01
4.32500000000E+09 -3.32141785807E-01 -1.80429655438E-01 +2.90272464693E-03 -1.40207346344E-03 +2.91589300030E-03 -1.54764376009E-03 -3.37445085964E-01 -2.87852331111E-01
4.33000000000E+09 -3.43554713898E-01 -1.63474635121E-01 +3.50849404587E-03 -9.77691234081E-04 +3.48822645668E-03 -1.10032953958E-03 -3.50560897524E-01 -2.65928586274E-01
4.33500000000E+09 -3.52157607795E-01 -1.47099980831E-01 +3.73014734154E-03 -1.45137370017E-03 +3.67103960613E-03 -1.56038520927E-03 -3.62572706857E-01 -2.42280449832E-01
4.34000000000E+09 -3.58167705033E-01 -1.31222868683E-01 +4.26923998421E-03 -1.81791886079E-03 +4.18985737069E-03 -1.91963902859E-03 -3.73832780053E-01 -2.18940341510E-01
4.34500000000E+09 -3.62090351385E-01 -1.14162967717E-01 +4.23464067700E-03 -3.22251903397E-03 +4.12909404014E-03 -3.25469349155E-03 -3.84901301137E-01 -1.93066402859E-01
4.35000000000E+09 -3.64202887496E-01 -9.59366118024E-02 +3.27490657842E-03 -3.93552683111E-03 +3.21042945546E-03 -3.99139227513E-03 -3.92809258285E-01 -1.67781005864E-01
4.35500000000E+09 -3.66476245619E-01 -7.59826911538E-02 +2.83965320446E-03 -4.29596964365E-03 +2.70062799991E-03 -4.30806276868E-03 -4.01149009884E-01 -1.43787783313E-01
4.36000000000E+09 -3.69675266116E-01 -5.37491248692E-02 +2.22837429717E-03 -4.63781099573E-03 +2.14693375366E-03 -4.66620216443E-03 -4.07852928553E-01 -1.19105030416E-01
4.36500000000E+09 -3.73174910660E-01 -2.96310008928E-02 +1.39773040694E-03 -4.86803398736E-03 +1.30627110500E-03 -4.81594789274E-03 -4.13291132616E-01 -9.49181914081E-02
4.37000000000E+09 -3.77630360627E-01 -6.24679405105E-03 +7.45977428973E-04 -4.81603069031E-03 +6.87051383356E-04 -4.85464654694E-03 -4.17296777622E-01 -6.99771101477E-02
4.37500000000E+09 -3.83088215843E-01 +1.69816201482E-02 +1.39248677222E-04 -4.27572869315E-03 +6.77599886726E-05 -4.25655403265E-03 -4.20155757412E-01 -4.47061622767E-02
4.38000000000E+09 -3.88620713103E-01 +3.78199825041E-02 +4.13479142631E-04 -4.47541922997E-03 +3.92362217735E-04 -4.52236719236E-03 -4.22201036773E-01 -1.96881709109E-02
4.38500000000E+09 -3.94287029097E-01 +5.63868027602E-02 +1.57448059121E-04 -4.80626064202E-03 +9.07561173537E-05 -4.80357438747E-03 -4.23848562195E-01 +5.84737030370E-03
4.39000000000E+09 -3.98131620395E-01 +7.34180806422E-02 -6.39671854236E-04 -5.56351678404E-03 -6.62535130914E-04 -5.50426510362E-03 -4.24228132923E-01 +3.10522164867E-02
4.39500000000E+09 -3.99748165614E-01 +8.88780516317E-02 -2.13643000794E-03 -5.36168414412E-03 -2.16755639499E-03 -5.29874702220E-03 -4.24046302553E-01 +5.54092909017E-02
4.40000000000E+09 -3.99106278779E-01 +1.03412230591E-01 -2.56155145075E-03 -4.73981782682E-03 -2.64206265216E-03 -4.72277109439E-03 -4.22473952883E-01 +8.02878253818E-02
4.40500000000E+09 -3.96562061132E-01 +1.19225955052E-01 -3.42823432343E-03 -4.13154889984E-03 -3.42296217887E-03 -4.08835086049E-03 -4.19229703495E-01 +1.03981395563E-01
4.41000000000E+09 -3.91252360093E-01 +1.36400359581E-01 -3.30680403363E-03 -3.44096433050E-03 -3.30015035018E-03 -3.48674557586E-03 -4.15662251578E-01 +1.27365399371E-01
4.41500000000E+09 -3.85624543572E-01 +1.55128509994E-01 -3.67479732461E-03 -3.20522180468E-03 -3.71087246252E-03 -3.16105224200E-03 -4.10686137144E-01 +1.51737149800E-01
4.42000000000E+09 -3.80237530848E-01 +1.76622428983E-01 -3.85244785109E-03 -2.95530139643E-03 -3.88476116590E-03 -2.94941659437E-03 -4.05264126479E-01 +1.73955505494E-01
4.42500000000E+09 -3.74783997891E-01 +1.99159307904E-01 -4.42885722901E-03 -2.59145988905E-03 -4.47698622299E-03 -2.56038108583E-03 -3.99344957905E-01 +1.97364891556E-01
4.43000000000E+09 -3.70546406385E-01 +2.21241149987E-01 -4.38148201781E-03 -1.89787682372E-03 -4.36972284198E-03 -1.84156681289E-03 -3.93103050194E-01 +2.19164766665E-01
4.43500000000E+09 -3.67827994455E-01 +2.42301852640E-01 -4.99370753295E-03 -1.78349099224E-03 -4.97629177499E-03 -1.76977434566E-03 -3.86459771618E-01 +2.40925391835E-01
4.44000000000E+09 -3.65992406410E-01 +2.61791791173E-01 -5.22077766270E-03 -8.44786572626E-04 -5.21447839504E-03 -8.20835002262E-04 -3.78232187229E-01 +2.63858074197E-01
4.44500000000E+09 -3.64363396366E-01 +2.78645874363E-01 -5.00145582638E-03 -1.65511210042E-04 -5.06947387133E-03 -1.12654608526E-04 -3.68650602722E-01 +2.83445608959E-01
4.45000000000E+09 -3.61610785295E-01 +2.93784647866E-01 -5.12745513858E-03 +4.17141475035E-04 -5.22974219516E-03 +5.45530227331E-04 -3.58943536983E-01 +3.03680704725E-01
4.45500000000E+09 -3.56965774467E-01 +3.06626645648E-01 -4.91329059699E-03 +1.43287734813E-03 -4.98607151908E-03 +1.61910857999E-03 -3.47531939537E-01 +3.22305459586E-01
4.46000000000E+09 -3.50964625690E-01 +3.18600237716E-01 -3.97560590315E-03 +2.02234507300E-03 -3.94207359213E-03 +2.18852696664E-03 -3.38220704387E-01 +3.39541476014E-01
4.46500000000E+09 -3.42018000453E-01 +3.31992792769E-01 -3.34567944073E-03 +1.84287574928E-03 -3.35593604701E-03 +1.97308845836E-03 -3.26607313707E-01 +3.58575502768E-01
4.47000000000E+09 -3.30742566398E-01 +3.46142826156E-01 -3.26843375914E-03 +1.33068105836E-03 -3.17201257549E-03 +1.52629891549E-03 -3.14570860364E-01 +3.75720085543E-01
4.47500000000E+09 -3.18114624209E-01 +3.62185494561E-01 -4.30887484992E-03 +1.76171481573E-03 -4.17350611803E-03 +1.91932983475E-03 -3.02676908720E-01 +3.91800353252E-01
4.48000000000E+09 -3.04919952880E-01 +3.79563108356E-01 -3.74756768560E-03 +2.81445643592E-03 -3.55091722347E-03 +2.93701522749E-03 -2.90711506054E-01 +4.08345166090E-01
4.48500000000E+09 -2.91949181139E-01 +3.97377750013E-01 -3.20720076997E-03 +3.45212014125E-03 -2.99515420362E-03 +3.51674777765E-03 -2.78514943919E-01 +4.23957972521E-01
4.49000000000E+09 -2.81766970039E-01 +4.14226394860E-01 -2.63368478315E-03 +3.64662524684E-03 -2.43224882638E-03 +3.65778677658E-03 -2.65379071285E-01 +4.39835039907E-01
4.49500000000E+09 -2.73506347607E-01 +4.32014648855E-01 -1.81824890186E-03 +3.55720494617E-03 -1.67054413727E-03 +3.47767109505E-03 -2.51752401489E-01 +4.53476618208E-01
4.50000000000E+09 -2.66030792208E-01 +4.47184998549E-01 -1.70932747812E-03 +3.29832053237E-03 -1.62222751953E-03 +3.22196159128E-03 -2.38760822572E-01 +4.66846065629E-01
4.50500000000E+09 -2.59888095206E-01 +4.60216816892E-01 -1.66925492755E-03 +3.39291489254E-03 -1.57497387791E-03 +3.30225839504E-03 -2.25038625646E-01 +4.79634296251E-01
4.51000000000E+09 -2.53147355433E-01 +4.71092495292E-01 -1.53087521708E-03 +3.76237929901E-03 -1.42247415284E-03 +3.63657180406E-03 -2.11945153037E-01 +4.91934546474E-01
4.51500000000E+09 -2.45001780770E-01 +4.79375297433E-01 -1.02603448955E-03 +3.98260251476E-03 -9.56385979935E-04 +3.91017598074E-03 -1.98403453951E-01 +5.03802271418E-01
4.52000000000E+09 -2.35907438780E-01 +4.86786016829E-01 -7.17162401056E-04 +3.96726194077E-03 -6.72595237236E-04 +3.84754476663E-03 -1.85085922668E-01 +5.15096937588E-01
4.52500000000E+09 -2.24362739190E-01 +4.94959298131E-01 -4.16604281546E-04 +3.98369577357E-03 -3.26620681814E-04 +3.83427704388E-03 -1.72300735641E-01 +5.25700447467E-01
4.53000000000E+09 -2.10096749183E-01 +5.03102440582E-01 -2.37933355800E-04 +4.45737655148E-03 -1.87079715591E-04 +4.34566234981E-03 -1.58640393390E-01 +5.36673305760E-01
4.53500000000E+09 -1.94623536618E-01 +5.12337837452E-01 +6.72353685421E-04 +4.45613295678E-03 +7.34404798665E-04 +4.27558297798E-03 -1.44173786357E-01 +5.46831729223E-01
4.54000000000E+09 -1.78926550041E-01 +5.22649040819E-01 +1.30711071572E-03 +4.26536212593E-03 +1.33008310467E-03 +4.13116769880E-03 -1.29289769666E-01 +5.56924648360E-01
4.54500000000E+09 -1.63737219930E-01 +5.33531827102E-01 +1.43618503261E-03 +4.05141130692E-03 +1.40287372932E-03 +3.92762983134E-03 -1.13932068595E-01 +5.65749819732E-01
4.55000000000E+09 -1.50723370559E-01 +5.44138122232E-01 +2.28135990105E-03 +3.93582917778E-03 +2.22786337805E-03 +3.79183622137E-03 -9.94122269234E-02 +5.74287294322E-01
4.55500000000E+09 -1.39954046281E-01 +5.55032581255E-01 +2.44635646151E-03 +3.27430796531E-03 +2.37879894171E-03 +3.16767127677E-03 -8.56784830039E-02 +5.82389338795E-01
4.56000000000E+09 -1.30350743926E-01 +5.65101665127E-01 +2.53015016632E-03 +3.12908833020E-03 +2.44397033197E-03 +3.05653858503E-03 -7.13423981223E-02 +5.91185708334E-01
4.56500000000E+09 -1.21567172923E-01 +5.73033071407E-01 +3.10689800832E-03 +2.94746091803E-03 +3.01168771253E-03 +2.82229865556E-03 -5.71952768904E-02 +5.98707763777E-01
4.57000000000E+09 -1.12800744932E-01 +5.79687674222E-01 +3.11279647408E-03 +2.37072347001E-03 +3.07337968408E-03 +2.25210054134E-03 -4.23676198928E-02 +6.06043650605E-01
