# Hz S RI R 50
! CMT, C1220, 16058040, 17.2.0/1
! Date: 15/08/2018 12:37:12
! Data: Format (Calibration Info)
! Freq                      S11: Re/Im (F2)                       S21: Re/Im (F2)                       S12: Re/Im (F2)                       S22: Re/Im (F2)            
4.00000000000E+09 +6.53852617123E-01 -3.59983711434E-01 +1.87951339774E-03 -7.95533898708E-04 +1.91900306458E-03 -8.09250144482E-04 +7.85675924964E-01 -3.16024793167E-01
4.00500000000E+09 +6.45428198975E-01 -3.65842815537E-01 +1.72428774454E-03 -1.20865981628E-03 +1.78672744676E-03 -1.13312142000E-03 +7.77197352669E-01 -3.27496146526E-01
4.01000000000E+09 +6.36808692273E-01 -3.71714006254E-01 +1.48291931968E-03 -1.56556533043E-03 +1.56024349972E-03 -1.53829162626E-03 +7.68596384319E-01 -3.39380026023E-01
4.01500000000E+09 +6.27305778273E-01 -3.78036995903E-01 +1.02110802773E-03 -1.54728513749E-03 +1.10204710839E-03 -1.53285681938E-03 +7.60098338474E-01 -3.50603336251E-01
4.02000000000E+09 +6.17769317396E-01 -3.85094316775E-01 +9.85263754403E-04 -1.53564107830E-03 +1.06067578700E-03 -1.53153500096E-03 +7.51145581588E-01 -3.61543759127E-01
4.02500000000E+09 +6.07571337966E-01 -3.94013241332E-01 +8.43311481630E-04 -1.57852919277E-03 +9.84122731536E-04 -1.56851133382E-03 +7.41714473104E-01 -3.72117942953E-01
4.03000000000E+09 +5.96639084437E-01 -4.03996948051E-01 +7.33425095586E-04 -1.57798336729E-03 +8.91339925796E-04 -1.60444038891E-03 +7.31404224630E-01 -3.82823329892E-01
4.03500000000E+09 +5.84819194544E-01 -4.13908071866E-01 +6.45859332468E-04 -1.65226788280E-03 +7.74465824739E-04 -1.69623599483E-03 +7.20085537675E-01 -3.94023029508E-01
4.04000000000E+09 +5.73199732883E-01 -4.23405613217E-01 +6.21231087063E-04 -1.70443138371E-03 +7.58114042353E-04 -1.75296881945E-03 +7.08828809216E-01 -4.05381734530E-01
4.04500000000E+09 +5.61705235838E-01 -4.32471117260E-01 +5.20281451115E-04 -1.88711383599E-03 +6.41280714998E-04 -1.95109943068E-03 +6.97698674063E-01 -4.16510270193E-01
4.05000000000E+09 +5.49626425661E-01 -4.39847079048E-01 +2.83486046851E-04 -2.12192603611E-03 +3.73361912170E-04 -2.20267258991E-03 +6.86703336646E-01 -4.27074194268E-01
4.05500000000E+09 +5.37465540052E-01 -4.45905148516E-01 +1.26562417501E-04 -2.15461185421E-03 +2.02044611939E-04 -2.25000561469E-03 +6.75310517832E-01 -4.36796081217E-01
4.06000000000E+09 +5.25070424290E-01 -4.50737550981E-01 -3.63780360793E-04 -2.26320019085E-03 -3.24949238761E-04 -2.36010238026E-03 +6.63907261662E-01 -4.45927647313E-01
4.06500000000E+09 +5.12011621414E-01 -4.54664019982E-01 -5.27687758942E-04 -1.89618035274E-03 -5.64225483302E-04 -2.03882212920E-03 +6.51466170400E-01 -4.55806734054E-01
4.07000000000E+09 +4.98606136154E-01 -4.58909349132E-01 -5.44681366357E-04 -1.70374299005E-03 -5.20970807512E-04 -1.78257083024E-03 +6.38004396736E-01 -4.65563803662E-01
4.07500000000E+09 +4.84014696167E-01 -4.63573713287E-01 -4.85488154857E-04 -1.86115470464E-03 -4.79448182027E-04 -1.87728412729E-03 +6.24226072532E-01 -4.76071714669E-01
4.08000000000E+09 +4.68881560643E-01 -4.68476378778E-01 -7.01966424616E-04 -1.87777537772E-03 -6.44595320597E-04 -1.99217531812E-03 +6.10577729256E-01 -4.85829217001E-01
4.08500000000E+09 +4.52949213579E-01 -4.74713341951E-01 -7.01153832777E-04 -1.97820394331E-03 -6.94183719820E-04 -2.09553617589E-03 +5.97000440956E-01 -4.95773966490E-01
4.09000000000E+09 +4.36498151338E-01 -4.80845150417E-01 -1.21692254169E-03 -2.30125984121E-03 -1.21663883915E-03 -2.39416050142E-03 +5.82974217080E-01 -5.04331647695E-01
4.09500000000E+09 +4.20050028552E-01 -4.86973458872E-01 -1.74100748623E-03 -1.86454218792E-03 -1.78513742539E-03 -2.00717223376E-03 +5.68587191418E-01 -5.12750228405E-01
4.10000000000E+09 +4.03239644858E-01 -4.92226301583E-01 -1.75869127408E-03 -1.48799035593E-03 -1.86025844454E-03 -1.52851492545E-03 +5.52665727333E-01 -5.20173691215E-01
4.10500000000E+09 +3.86745201361E-01 -4.96262116008E-01 -1.84006238743E-03 -1.40025892331E-03 -1.87137155207E-03 -1.46990004284E-03 +5.37205150592E-01 -5.27886894994E-01
4.11000000000E+09 +3.70305276560E-01 -4.98090014726E-01 -2.08841596149E-03 -1.12197365169E-03 -2.09571918917E-03 -1.16865597509E-03 +5.20795939224E-01 -5.36382993140E-01
4.11500000000E+09 +3.55077062530E-01 -4.99003549803E-01 -1.76564774412E-03 -7.89469574742E-04 -1.82668190704E-03 -8.45158206335E-04 +5.04359629883E-01 -5.44247970550E-01
4.12000000000E+09 +3.39319161329E-01 -5.00032910268E-01 -1.86612543251E-03 -1.09579880089E-03 -1.83124542641E-03 -1.12863149206E-03 +4.87976790436E-01 -5.52260716124E-01
4.12500000000E+09 +3.22441226954E-01 -5.01216061065E-01 -2.16743277846E-03 -9.61573247425E-04 -2.16543915974E-03 -1.00356831568E-03 +4.70540586947E-01 -5.58813815918E-01
4.13000000000E+09 +3.04954647802E-01 -5.02171326511E-01 -2.29166572812E-03 -6.68256952249E-04 -2.32502905896E-03 -7.63162635855E-04 +4.52870393738E-01 -5.64712746853E-01
4.13500000000E+09 +2.86395610315E-01 -5.04594982046E-01 -2.08958934583E-03 -5.28102762384E-04 -2.11674588678E-03 -5.81932468813E-04 +4.34487903857E-01 -5.69893566198E-01
4.14000000000E+09 +2.66919411882E-01 -5.07237835712E-01 -2.47011435694E-03 -8.37842053757E-04 -2.47895929307E-03 -9.14382684942E-04 +4.16034982835E-01 -5.75622686211E-01
4.14500000000E+09 +2.47390823762E-01 -5.10246210433E-01 -3.04548446079E-03 -2.85798639566E-04 -3.14956894517E-03 -4.33785170733E-04 +3.96606275046E-01 -5.81475907821E-01
4.15000000000E+09 +2.28123861032E-01 -5.13467267779E-01 -2.88625344690E-03 +3.21717827836E-04 -3.00640103179E-03 +3.18443976507E-04 +3.78258668121E-01 -5.86006573811E-01
4.15500000000E+09 +2.08918052058E-01 -5.16017979623E-01 -2.78167317934E-03 +6.82241948980E-04 -2.84075821585E-03 +6.00479681415E-04 +3.60111380178E-01 -5.90532852367E-01
4.16000000000E+09 +1.90567773769E-01 -5.16284205428E-01 -2.53353501054E-03 +9.06487266508E-04 -2.61127890152E-03 +8.81777457666E-04 +3.41534766678E-01 -5.93861471940E-01
4.16500000000E+09 +1.73684772033E-01 -5.15670310127E-01 -2.32875050499E-03 +8.47618295604E-04 -2.46077574571E-03 +7.92339879526E-04 +3.22130992577E-01 -5.96525229293E-01
4.17000000000E+09 +1.57260110027E-01 -5.12890986665E-01 -2.44407281470E-03 +1.06128632424E-03 -2.52335978101E-03 +9.86851641300E-04 +3.01768913128E-01 -5.98591749518E-01
4.17500000000E+09 +1.41423737176E-01 -5.08807031651E-01 -2.57724767644E-03 +9.90299284032E-04 -2.69844609248E-03 +9.49259027846E-04 +2.80497732204E-01 -6.00327295552E-01
4.18000000000E+09 +1.24667518316E-01 -5.03768008767E-01 -2.81267061107E-03 +1.76199494383E-03 -2.92836270108E-03 +1.76189023532E-03 +2.59361838285E-01 -6.01784856297E-01
4.18500000000E+09 +1.07916444070E-01 -4.97837933907E-01 -2.33683004765E-03 +1.99074582902E-03 -2.41935252976E-03 +1.99675567724E-03 +2.38596545344E-01 -6.03038000982E-01
4.19000000000E+09 +8.99780314145E-02 -4.92302793359E-01 -2.38049919616E-03 +2.32053244120E-03 -2.47149957576E-03 +2.33384520879E-03 +2.17429828433E-01 -6.03133972154E-01
4.19500000000E+09 +7.15839240033E-02 -4.86667376664E-01 -2.07092214001E-03 +2.68686489684E-03 -2.21841536287E-03 +2.77678639641E-03 +1.96501393611E-01 -6.01640999492E-01
4.20000000000E+09 +5.32319551000E-02 -4.82516185273E-01 -1.54977312057E-03 +3.08941547167E-03 -1.68902177376E-03 +3.17646623895E-03 +1.74895482577E-01 -5.99771713596E-01
4.20500000000E+09 +3.37803366079E-02 -4.78326362964E-01 -9.41100437759E-04 +2.93808907656E-03 -1.13909203574E-03 +3.11218742188E-03 +1.53567082429E-01 -5.96824231914E-01
4.21000000000E+09 +1.56073991261E-02 -4.73528085845E-01 -1.10232708914E-03 +2.60548327545E-03 -1.17727396674E-03 +2.75330827434E-03 +1.31094514770E-01 -5.95701162994E-01
4.21500000000E+09 -2.02118283371E-03 -4.67419978026E-01 -1.00544068372E-03 +3.13296519890E-03 -1.02715986601E-03 +3.23569286455E-03 +1.07494595821E-01 -5.93160216450E-01
4.22000000000E+09 -1.73307644608E-02 -4.59893611368E-01 -5.21201810210E-04 +3.04834447565E-03 -5.36449546048E-04 +3.14105941906E-03 +8.48834811282E-02 -5.88974943562E-01
4.22500000000E+09 -3.17587782593E-02 -4.51283526896E-01 -7.15325043247E-04 +2.97082865189E-03 -7.22777522593E-04 +3.07137997791E-03 +6.32834334646E-02 -5.83993641931E-01
4.23000000000E+09 -4.60965900507E-02 -4.40639616651E-01 -5.00494240753E-04 +3.67704198288E-03 -4.99195882365E-04 +3.78632075364E-03 +4.16916026426E-02 -5.77178729089E-01
4.23500000000E+09 -5.98335021622E-02 -4.29362733235E-01 -3.59864340712E-05 +3.79292493792E-03 -1.17289145384E-06 +3.89511964966E-03 +2.05443640367E-02 -5.69641963396E-01
4.24000000000E+09 -7.57266724215E-02 -4.17531180461E-01 +5.46816223729E-04 +3.93006482863E-03 +6.40814146781E-04 +3.95241133675E-03 -1.13145215502E-03 -5.61345374324E-01
4.24500000000E+09 -9.33582619388E-02 -4.04313707470E-01 +1.13032504942E-03 +3.63672794876E-03 +1.18821787525E-03 +3.65843365511E-03 -2.27274627992E-02 -5.53174007355E-01
4.25000000000E+09 -1.12115846972E-01 -3.91027635874E-01 +1.15490774259E-03 +3.54779411357E-03 +1.25543589296E-03 +3.61297131566E-03 -4.46555262293E-02 -5.44418297636E-01
4.25500000000E+09 -1.31163267642E-01 -3.78355393894E-01 +1.61979829691E-03 +3.70471321597E-03 +1.64941210780E-03 +3.66929651303E-03 -6.53736738336E-02 -5.35674106078E-01
4.26000000000E+09 -1.52041556524E-01 -3.66872015327E-01 +2.06855597391E-03 +3.56610547502E-03 +2.08322656259E-03 +3.55999910852E-03 -8.66527687326E-02 -5.25667424353E-01
4.26500000000E+09 -1.71215898934E-01 -3.53954223403E-01 +2.23612596345E-03 +3.73276517887E-03 +2.23087401162E-03 +3.75357376730E-03 -1.07355673254E-01 -5.14072667002E-01
4.27000000000E+09 -1.87647524818E-01 -3.42745783150E-01 +3.17097995717E-03 +3.40453961253E-03 +3.18358523508E-03 +3.41013077178E-03 -1.28893191270E-01 -5.00853224235E-01
4.27500000000E+09 -2.03408411013E-01 -3.31845187021E-01 +3.45939053077E-03 +2.91482864405E-03 +3.48646406516E-03 +2.97233114952E-03 -1.50012324783E-01 -4.86671076500E-01
4.28000000000E+09 -2.17019353492E-01 -3.18887664896E-01 +3.76486416882E-03 +2.70838359977E-03 +3.81682326348E-03 +2.65612996645E-03 -1.70821816273E-01 -4.72592506118E-01
4.28500000000E+09 -2.28575376421E-01 -3.05097548706E-01 +4.20884408405E-03 +2.39834677213E-03 +4.18949700038E-03 +2.38236411722E-03 -1.91737755736E-01 -4.57737733487E-01
4.29000000000E+09 -2.39682678226E-01 -2.89552836236E-01 +4.69096852707E-03 +1.46650795416E-03 +4.70488574086E-03 +1.56352408098E-03 -2.10629693550E-01 -4.42879616247E-01
4.29500000000E+09 -2.50748480134E-01 -2.71933545352E-01 +4.34708112153E-03 +1.08448480085E-03 +4.37469160805E-03 +1.15374015447E-03 -2.29860315054E-01 -4.27257322123E-01
4.30000000000E+09 -2.61286254781E-01 -2.52274584082E-01 +4.62095303371E-03 +7.04188388212E-04 +4.67641432024E-03 +7.59099294471E-04 -2.47271854555E-01 -4.09908097055E-01
4.30500000000E+09 -2.72323213038E-01 -2.32782563120E-01 +4.64376873580E-03 +1.47662756051E-04 +4.74962502101E-03 +1.88228952146E-04 -2.65473953782E-01 -3.91968714043E-01
4.31000000000E+09 -2.84719528951E-01 -2.13816297626E-01 +4.47084263932E-03 +1.93496526515E-04 +4.57047718737E-03 +2.96490841228E-04 -2.82469923884E-01 -3.71862343632E-01
4.31500000000E+09 -2.97985018542E-01 -1.95020969583E-01 +5.32811192546E-03 -1.35870322567E-04 +5.52357730178E-03 -1.34233238586E-04 -2.98946869029E-01 -3.51975845560E-01
4.32000000000E+09 -3.10758130079E-01 -1.77418458115E-01 +5.38038884086E-03 -1.48747937877E-03 +5.56200545984E-03 -1.50367069170E-03 -3.14575762858E-01 -3.31663616557E-01
4.32500000000E+09 -3.22192065231E-01 -1.60521436557E-01 +4.70073646729E-03 -2.16565150879E-03 +4.79373276423E-03 -2.21283443421E-03 -3.28978841112E-01 -3.10203729144E-01
4.33000000000E+09 -3.31669906670E-01 -1.44767971753E-01 +4.52420138465E-03 -2.37182262284E-03 +4.63172199498E-03 -2.46846889493E-03 -3.41668317326E-01 -2.88498294267E-01
4.33500000000E+09 -3.38177386069E-01 -1.28481698741E-01 +4.27255187372E-03 -2.78605994620E-03 +4.39543437638E-03 -2.85247276125E-03 -3.53990863816E-01 -2.66076236105E-01
4.34000000000E+09 -3.41481774370E-01 -1.13017224743E-01 +3.95386747403E-03 -3.53761407566E-03 +3.98675008741E-03 -3.63143270042E-03 -3.66376556321E-01 -2.43472344085E-01
4.34500000000E+09 -3.43851650343E-01 -9.65104634109E-02 +3.42325636211E-03 -3.41061684044E-03 +3.46519558823E-03 -3.58116523492E-03 -3.78674028701E-01 -2.18929694962E-01
4.35000000000E+09 -3.44466276267E-01 -7.78115788609E-02 +3.55723078572E-03 -3.97749414308E-03 +3.58073932444E-03 -4.05284419038E-03 -3.89166546197E-01 -1.95421990539E-01
4.35500000000E+09 -3.45721051809E-01 -5.77303163881E-02 +2.91242083112E-03 -4.49259885815E-03 +2.91112787613E-03 -4.58153616072E-03 -3.99141956763E-01 -1.72705193796E-01
4.36000000000E+09 -3.46830843887E-01 -3.59348597831E-02 +2.30726538236E-03 -4.54350897604E-03 +2.24016306855E-03 -4.62685368405E-03 -4.08709172980E-01 -1.49351966101E-01
4.36500000000E+09 -3.50057618186E-01 -1.32579250866E-02 +2.46996912530E-03 -4.58820598125E-03 +2.36335929333E-03 -4.72508744275E-03 -4.16396439782E-01 -1.24480731950E-01
4.37000000000E+09 -3.54138530363E-01 +1.02825522462E-02 +2.11095734381E-03 -5.20397476549E-03 +1.99942525802E-03 -5.33636715082E-03 -4.22191058129E-01 -9.96770320727E-02
4.37500000000E+09 -3.58102678806E-01 +3.25393618259E-02 +1.51672886906E-03 -6.19291174405E-03 +1.31978017567E-03 -6.25020123011E-03 -4.28233279771E-01 -7.36619394771E-02
4.38000000000E+09 -3.63166276517E-01 +5.23062611013E-02 +3.09042692717E-04 -6.12110312116E-03 +1.62469071066E-04 -6.16499691746E-03 -4.31958078484E-01 -4.71749313006E-02
4.38500000000E+09 -3.67095935257E-01 +7.04858897847E-02 -2.86798987961E-04 -5.90572350916E-03 -4.72477673093E-04 -5.93025979820E-03 -4.34524588930E-01 -2.20912144368E-02
4.39000000000E+09 -3.70058605116E-01 +8.59067791197E-02 -9.47717541329E-04 -5.96189984021E-03 -1.14661054327E-03 -5.95693570276E-03 -4.37480989561E-01 +3.54138637415E-03
4.39500000000E+09 -3.71291672944E-01 +1.00386519361E-01 -1.64360550009E-03 -5.52552746105E-03 -1.85154477550E-03 -5.52670692696E-03 -4.37674045763E-01 +2.80606503910E-02
4.40000000000E+09 -3.70365866898E-01 +1.15254494524E-01 -1.95846144966E-03 -5.53887413865E-03 -2.02830539252E-03 -5.48582595132E-03 -4.37698843182E-01 +5.32060805434E-02
4.40500000000E+09 -3.66905562506E-01 +1.31320351971E-01 -2.69281058898E-03 -5.36414279258E-03 -2.72624631148E-03 -5.23327756769E-03 -4.36147821829E-01 +7.80234764068E-02
4.41000000000E+09 -3.60754912601E-01 +1.47826309037E-01 -3.11375767763E-03 -4.98279111185E-03 -3.10480220784E-03 -4.86822476816E-03 -4.33948859499E-01 +1.03142324288E-01
4.41500000000E+09 -3.55597016552E-01 +1.65279553781E-01 -3.77487972266E-03 -4.82788098500E-03 -3.80185180171E-03 -4.76514332364E-03 -4.30625999345E-01 +1.27619501034E-01
4.42000000000E+09 -3.50673610418E-01 +1.85810673231E-01 -4.11434616899E-03 -4.40234803302E-03 -4.10791184661E-03 -4.34765886014E-03 -4.27692030504E-01 +1.51627527522E-01
4.42500000000E+09 -3.46226904402E-01 +2.07589502404E-01 -4.76672213752E-03 -4.46932065706E-03 -4.73653749927E-03 -4.39342780106E-03 -4.22177277316E-01 +1.76244836066E-01
4.43000000000E+09 -3.42453468747E-01 +2.28817309536E-01 -5.90803690101E-03 -3.96974620171E-03 -5.89583067610E-03 -3.90149820256E-03 -4.16206897274E-01 +1.98333223323E-01
4.43500000000E+09 -3.40218125711E-01 +2.49352502692E-01 -6.37859040876E-03 -2.39421414133E-03 -6.29542356663E-03 -2.40136863934E-03 -4.09598607838E-01 +2.21012456784E-01
4.44000000000E+09 -3.37924054061E-01 +2.68009426398E-01 -6.26850877358E-03 -1.82387443887E-03 -6.21943644956E-03 -1.85451620097E-03 -4.02326760401E-01 +2.43387593857E-01
4.44500000000E+09 -3.35541136485E-01 +2.83304653520E-01 -6.10699829742E-03 -7.74616101692E-04 -6.09742772341E-03 -8.06733729831E-04 -3.94729638335E-01 +2.64572427754E-01
4.45000000000E+09 -3.33287018429E-01 +2.96305876187E-01 -5.81143558611E-03 -5.49601938535E-04 -5.84884912695E-03 -5.05095933132E-04 -3.87177758081E-01 +2.85864023957E-01
4.45500000000E+09 -3.29796393464E-01 +3.08837356969E-01 -5.89110323112E-03 -4.55246907888E-04 -5.95840265881E-03 -4.37639428028E-04 -3.79185639575E-01 +3.06519981244E-01
4.46000000000E+09 -3.23530723279E-01 +3.21134594032E-01 -6.29448002399E-03 +2.54850959196E-04 -6.38849130214E-03 +4.00060061301E-04 -3.68958278348E-01 +3.26594369642E-01
4.46500000000E+09 -3.14533429268E-01 +3.33863840207E-01 -6.26421779249E-03 +9.12125185457E-04 -6.30773878857E-03 +1.08474787598E-03 -3.58753056885E-01 +3.45555355827E-01
4.47000000000E+09 -3.03829370061E-01 +3.46882980876E-01 -6.29646958854E-03 +1.66885182502E-03 -6.29639434863E-03 +1.82602250707E-03 -3.45925361801E-01 +3.65050025462E-01
4.47500000000E+09 -2.92126531529E-01 +3.62344757624E-01 -6.23259198194E-03 +2.48981031925E-03 -6.20347746247E-03 +2.64797487273E-03 -3.33689572408E-01 +3.82561050658E-01
4.48000000000E+09 -2.80286629030E-01 +3.77747543866E-01 -5.82169445604E-03 +3.34822929098E-03 -5.67243469793E-03 +3.53683538396E-03 -3.21468584696E-01 +4.00875033971E-01
4.48500000000E+09 -2.70284257272E-01 +3.95014227690E-01 -5.35717409443E-03 +3.82957501956E-03 -5.11143434127E-03 +3.94697116500E-03 -3.09241885445E-01 +4.17394037304E-01
4.49000000000E+09 -2.60643327537E-01 +4.12156281517E-01 -4.87327772566E-03 +4.68711042395E-03 -4.70854552069E-03 +4.71102963801E-03 -2.97113463123E-01 +4.33176187649E-01
4.49500000000E+09 -2.52523971744E-01 +4.27762103745E-01 -4.13063054660E-03 +4.97403150804E-03 -3.99233265479E-03 +4.97755380385E-03 -2.85130950793E-01 +4.48125024798E-01
4.50000000000E+09 -2.46246944791E-01 +4.41361886739E-01 -3.59278830733E-03 +5.37188683999E-03 -3.43047961478E-03 +5.33868007787E-03 -2.71933449157E-01 +4.62560429126E-01
4.50500000000E+09 -2.40792130246E-01 +4.53267565520E-01 -3.08822034962E-03 +5.33962897679E-03 -2.86489895232E-03 +5.32774575671E-03 -2.58291676118E-01 +4.76931679100E-01
4.51000000000E+09 -2.33960429305E-01 +4.63320959008E-01 -2.91502314128E-03 +5.96214551518E-03 -2.77741774285E-03 +5.88096818416E-03 -2.44264583044E-01 +4.90532146444E-01
4.51500000000E+09 -2.25826804936E-01 +4.70792691540E-01 -2.11805529834E-03 +6.41995428185E-03 -1.89131295789E-03 +6.36134513456E-03 -2.30795111613E-01 +5.04262588261E-01
4.52000000000E+09 -2.16317886021E-01 +4.77520117978E-01 -1.26281106873E-03 +6.53191433386E-03 -1.07292013454E-03 +6.45366779731E-03 -2.16893263023E-01 +5.16939117371E-01
4.52500000000E+09 -2.04350685809E-01 +4.84438647091E-01 -6.47108652782E-04 +6.86915993422E-03 -5.33433476588E-04 +6.71845002250E-03 -2.03193647396E-01 +5.28539841300E-01
4.53000000000E+09 -1.91136735074E-01 +4.91874430244E-01 +4.57736429622E-04 +6.98237197709E-03 +5.48495362678E-04 +6.84530509197E-03 -1.88938749550E-01 +5.39245024016E-01
4.53500000000E+09 -1.76287756848E-01 +5.01825614231E-01 +1.27097991171E-03 +6.41977251262E-03 +1.38926152607E-03 +6.16148881202E-03 -1.74374534399E-01 +5.48958207024E-01
4.54000000000E+09 -1.59969378804E-01 +5.12027134772E-01 +1.87876187251E-03 +6.25701669050E-03 +1.98787604969E-03 +6.02197211753E-03 -1.60183789387E-01 +5.59326643659E-01
4.54500000000E+09 -1.45132811096E-01 +5.22561075602E-01 +2.57399304973E-03 +5.73427076094E-03 +2.66099823361E-03 +5.53440760101E-03 -1.45260602787E-01 +5.70118581322E-01
4.55000000000E+09 -1.31695311295E-01 +5.32847265432E-01 +2.78443578697E-03 +5.42319920383E-03 +2.72603483640E-03 +5.23975913032E-03 -1.30111700999E-01 +5.80402146332E-01
4.55500000000E+09 -1.21243063919E-01 +5.42516073249E-01 +3.43041459764E-03 +5.20344740792E-03 +3.38456830704E-03 +4.98385735579E-03 -1.15355995457E-01 +5.89682141624E-01
4.56000000000E+09 -1.12209396520E-01 +5.52612826418E-01 +3.83677138168E-03 +4.81962917393E-03 +3.80623578409E-03 +4.67631271541E-03 -1.01174326125E-01 +5.98218478088E-01
4.56500000000E+09 -1.03500681336E-01 +5.60852252687E-01 +4.42854173487E-03 +4.36481826116E-03 +4.36730946456E-03 +4.21309414397E-03 -8.61376884038E-02 +6.06765037353E-01
4.57000000000E+09 -9.38952246421E-02 +5.67606609934E-01 +4.85287712362E-03 +4.12104234904E-03 +4.76170242238E-03 +3.92566025098E-03 -7.08542653496E-02 +6.13613759332E-01
